!$
! Info: Touchstone file created by Circ.  Input file=Tx_14in_Rx_93ohms_TxVia_60mils_RxVia_70mils.circ
!$
# Hz S RI R 50
0	0.0128282	1.755688e-25	-7.484947e-05	-4.632893e-26	9.468304e-05	2.472398e-23	-7.484695e-05	-1.018986e-25
	-7.484946e-05	-4.708146e-26	0.01282372	2.16818e-25	-7.484846e-05	-4.373761e-26	9.439746e-05	3.128951e-23
	9.576615e-05	2.488915e-23	-7.484846e-05	-4.395236e-26	0.01284353	1.756136e-25	-7.484808e-05	7.779193e-26
	-7.484694e-05	-1.034384e-25	9.466687e-05	3.142368e-23	-7.484807e-05	7.722032e-26	0.01283803	2.158828e-25
1e+07	0.01755068	-0.001851148	-4.762019e-06	-2.736418e-05	0.0005431277	0.002381181	-4.844934e-06	-2.807807e-05
	-4.762019e-06	-2.736418e-05	0.01856623	-0.002072722	-9.106854e-06	-4.597389e-06	0.0005670536	0.002585697
	0.0005431592	0.002381186	-9.106854e-06	-4.59739e-06	0.01891286	-0.001285147	-3.000853e-05	-5.034459e-06
	-4.844935e-06	-2.807807e-05	0.0005670565	0.002585695	-3.000853e-05	-5.034458e-06	0.01819831	-0.002062517
2e+07	0.02022149	-0.008318525	-1.202573e-05	-1.696443e-05	0.001657953	0.004615543	-1.295378e-05	-1.801589e-05
	-1.202573e-05	-1.696443e-05	0.02075639	-0.00900515	-3.76713e-05	-2.408992e-05	0.001574057	0.005005745
	0.001657967	0.004615524	-3.76713e-05	-2.408992e-05	0.02200065	-0.007995835	-3.053768e-05	9.179015e-06
	-1.295378e-05	-1.801589e-05	0.001574054	0.005005745	-3.053768e-05	9.179016e-06	0.02048988	-0.008868387
3e+07	0.01948688	-0.01640159	-1.771631e-05	-1.184872e-05	0.003322257	0.006420763	-1.930271e-05	-1.273125e-05
	-1.771631e-05	-1.184872e-05	0.01961207	-0.01716263	-5.824764e-05	-1.91196e-05	0.003251104	0.006890263
	0.003322258	0.00642076	-5.824764e-05	-1.91196e-05	0.02151618	-0.016421	-3.183361e-05	1.253523e-05
	-1.930271e-05	-1.273125e-05	0.003251103	0.006890265	-3.183361e-05	1.253523e-05	0.01941797	-0.01700198
4e+07	0.01600479	-0.0241836	-2.176426e-05	-6.374355e-06	0.00539207	0.007663541	-2.386856e-05	-6.879471e-06
	-2.176426e-05	-6.374355e-06	0.01577388	-0.02486639	-7.306172e-05	-6.241039e-06	0.005398442	0.008150412
	0.005392075	0.007663545	-7.306172e-05	-6.241039e-06	0.01814126	-0.02460491	-3.162919e-05	1.74606e-05
	-2.386856e-05	-6.879471e-06	0.005398443	0.008150413	-3.162919e-05	1.74606e-05	0.01563189	-0.02471015
5e+07	0.01029604	-0.03078469	-2.420133e-05	-3.527901e-07	0.007685813	0.008255002	-2.668886e-05	-3.250392e-07
	-2.420133e-05	-3.527902e-07	0.009773858	-0.0312831	-8.236049e-05	1.12178e-05	0.007753289	0.008739073
	0.007685816	0.008255004	-8.236049e-05	1.12178e-05	0.012408	-0.03162449	-3.002396e-05	2.291464e-05
	-2.668886e-05	-3.250392e-07	0.00775329	0.008739074	-3.002396e-05	2.291464e-05	0.009665388	-0.03114382
6e+07	0.002941147	-0.03562066	-2.501328e-05	6.028959e-06	0.01000507	0.008163966	-2.773129e-05	6.717813e-06
	-2.501328e-05	6.028959e-06	0.002206159	-0.03585892	-8.605037e-05	3.147119e-05	0.01011865	0.008634082
	0.01000506	0.008163965	-8.605037e-05	3.147119e-05	0.004909071	-0.03686038	-2.706838e-05	2.8396e-05
	-2.773129e-05	6.717812e-06	0.01011865	0.008634082	-2.706838e-05	2.8396e-05	0.002114834	-0.03574069
7e+07	-0.005417381	-0.03832999	-2.417629e-05	1.250509e-05	0.01215304	0.00741834	-2.693951e-05	1.395771e-05
	-2.417628e-05	1.250509e-05	-0.006276096	-0.03826013	-8.391376e-05	5.312465e-05	0.01229941	0.007868695
	0.01215303	0.00741834	-8.391376e-05	5.312465e-05	-0.003697636	-0.03992248	-2.281739e-05	3.354905e-05
	-2.693951e-05	1.395771e-05	0.01229941	0.007868695	-2.281739e-05	3.354905e-05	-0.006364109	-0.03816153
8e+07	-0.01410781	-0.03875669	-2.165721e-05	1.878665e-05	0.01395187	0.006101262	-2.423876e-05	2.107295e-05
	-2.165721e-05	1.878665e-05	-0.01499519	-0.03835807	-7.567165e-05	7.490602e-05	0.01411899	0.006529026
	0.01395186	0.006101265	-7.567165e-05	7.490602e-05	-0.01272244	-0.04063268	-1.768216e-05	3.790736e-05
	-2.423876e-05	2.107295e-05	0.01411899	0.006529026	-1.768216e-05	3.790736e-05	-0.01509083	-0.03827382
9e+07	-0.02247135	-0.0369385	-1.736879e-05	2.456979e-05	0.01525835	0.00434274	-1.947805e-05	2.77328e-05
	-1.736879e-05	2.456979e-05	-0.02329035	-0.03621694	-6.08394e-05	9.557828e-05	0.01543366	0.004746286
	0.01525834	0.004342745	-6.08394e-05	9.557828e-05	-0.02148938	-0.03901332	-1.420279e-05	4.052522e-05
	-1.947805e-05	2.77328e-05	0.01543366	0.004746286	-1.420279e-05	4.052522e-05	-0.02340166	-0.03613935
1e+08	-0.02989929	-0.03308842	-1.062979e-05	2.955096e-05	0.01598538	0.00230955	-1.182615e-05	3.357909e-05
	-1.062979e-05	2.955096e-05	-0.03054073	-0.03207222	-3.676856e-05	0.0001138995	0.01614309	0.002684617
	0.01598538	0.00230955	-3.676856e-05	0.0001138995	-0.02940076	-0.0352722	-1.133978e-05	4.255587e-05
	-1.182615e-05	3.357909e-05	0.01614309	0.002684617	-1.133978e-05	4.255587e-05	-0.03067596	-0.031993
1.1e+08	-0.03590255	-0.02761081	-2.93589e-06	3.012257e-05	0.01605048	0.0002264305	-2.916484e-06	3.433035e-05
	-2.93589e-06	3.012257e-05	-0.03630415	-0.02643805	-8.503596e-06	0.0001164414	0.0161975	0.0005334853
	0.01605048	0.0002264302	-8.503596e-06	0.0001164414	-0.0358823	-0.02964986	-8.130486e-06	4.258885e-05
	-2.916484e-06	3.433035e-05	0.0161975	0.0005334855	-8.130486e-06	4.258885e-05	-0.036461	-0.02633137
1.2e+08	-0.04013591	-0.02093812	3.42149e-06	2.937033e-05	0.01545533	-0.001775525	2.756379e-06	3.356884e-05
	3.42149e-06	2.937033e-05	-0.04031048	-0.01967179	8.275928e-06	0.0001143803	0.0156085	-0.001519806
	0.01545533	-0.001775525	8.275928e-06	0.0001143803	-0.04045993	-0.02275385	-3.957407e-06	4.263661e-05
	2.756379e-06	3.356884e-05	0.0156085	-0.001519805	-3.957407e-06	4.263661e-05	-0.04047214	-0.01953221
1.3e+08	-0.0423613	-0.01361425	5.998548e-06	2.835346e-05	0.01427339	-0.003511212	5.33388e-06	3.262402e-05
	5.998548e-06	2.835346e-05	-0.04231139	-0.01231289	1.842077e-05	0.0001114093	0.01443415	-0.003299776
	0.01427339	-0.003511212	1.842077e-05	0.0001114093	-0.04293448	-0.01516609	5.895875e-07	4.23656e-05
	5.33388e-06	3.262402e-05	0.01443415	-0.003299775	5.895875e-07	4.23656e-05	-0.04246563	-0.01214039
1.4e+08	-0.04251001	-0.006217666	8.381436e-06	2.722329e-05	0.0126126	-0.004825687	8.086708e-06	3.151377e-05
	8.381436e-06	2.722329e-05	-0.04224791	-0.00493968	2.900456e-05	0.0001075216	0.01277898	-0.004654971
	0.0126126	-0.004825687	2.900456e-05	0.0001075216	-0.04324725	-0.007487944	5.240754e-06	4.161039e-05
	8.086708e-06	3.151377e-05	0.01277898	-0.00465497	5.240754e-06	4.161039e-05	-0.04238444	-0.004737944
1.5e+08	-0.04067494	0.0006854089	1.07919e-05	2.589316e-05	0.01061692	-0.005601848	1.089401e-05	3.016696e-05
	1.07919e-05	2.589316e-05	-0.04022637	0.001884518	3.960672e-05	0.000102535	0.0107847	-0.005469978
	0.01061692	-0.005601848	3.960672e-05	0.000102535	-0.0414996	-0.0003039707	9.893582e-06	4.032556e-05
	1.089401e-05	3.016696e-05	0.0107847	-0.005469978	9.893582e-06	4.032556e-05	-0.0403371	0.00210892
1.6e+08	-0.03709796	0.006583274	1.315883e-05	2.43342e-05	0.008455616	-0.005768382	1.36701e-05	2.854865e-05
	1.315883e-05	2.43342e-05	-0.03650276	0.007654948	4.990685e-05	9.637886e-05	0.008618648	-0.005673904
	0.008455615	-0.005768382	4.990685e-05	9.637886e-05	-0.03794282	0.005859071	1.441881e-05	3.849451e-05
	1.36701e-05	2.854865e-05	0.008618647	-0.005673904	1.441881e-05	3.849451e-05	-0.03658234	0.007893319
1.7e+08	-0.03214758	0.01105573	1.542267e-05	2.253515e-05	0.006310073	-0.005304658	1.63437e-05	2.664503e-05
	1.542267e-05	2.253515e-05	-0.03145842	0.01196264	5.963515e-05	8.905899e-05	0.006460533	-0.005245453
	0.006310072	-0.005304658	5.963515e-05	8.905899e-05	-0.03295608	0.01056899	1.872224e-05	3.612693e-05
	1.63437e-05	2.664503e-05	0.006460533	-0.005245452	1.872224e-05	3.612693e-05	-0.0315046	0.01220505
1.8e+08	-0.02628821	0.01380351	1.753118e-05	2.049815e-05	0.00435951	-0.004241948	1.88526e-05	2.445871e-05
	1.753118e-05	2.049815e-05	-0.02556764	0.01452346	6.856058e-05	8.063892e-05	0.004488418	-0.004214322
	0.004359509	-0.004241948	6.856058e-05	8.063892e-05	-0.02701552	0.01351754	2.271766e-05	3.325056e-05
	1.88526e-05	2.445871e-05	0.004488418	-0.004214322	2.271766e-05	3.325056e-05	-0.02558142	0.01475972
1.9e+08	-0.02004299	0.01466838	1.943814e-05	1.823632e-05	0.002766821	-0.002660787	2.114237e-05	2.200552e-05
	1.943814e-05	1.823632e-05	-0.01935925	0.01519723	7.648802e-05	7.122715e-05	0.002864732	-0.00265882
	0.002766821	-0.002660787	7.648802e-05	7.122715e-05	-0.02065672	0.01454053	2.632792e-05	2.990873e-05
	2.114237e-05	2.200552e-05	0.002864732	-0.00265882	2.632792e-05	2.990873e-05	-0.01934476	0.01541784
2e+08	-0.0139516	0.01364329	2.109819e-05	1.577018e-05	0.001654095	-0.0006943918	2.316469e-05	1.931096e-05
	2.109819e-05	1.577018e-05	-0.01337476	0.01399587	8.325739e-05	6.096557e-05	0.001723348	-0.0006997611
	0.001654095	-0.0006943918	8.325739e-05	6.096557e-05	-0.01443189	0.01362795	2.948512e-05	2.615708e-05
	2.316469e-05	1.931096e-05	0.001723348	-0.000699761	2.948512e-05	2.615708e-05	-0.01333897	0.01419291
2.1e+08	-0.008532702	0.01086711	2.248241e-05	1.313185e-05	0.00113022	0.001515977	2.488303e-05	1.641068e-05
	2.248241e-05	1.313185e-05	-0.008126307	0.01107975	8.874778e-05	5.002109e-05	0.001158686	0.001509032
	0.00113022	0.001515977	8.874778e-05	5.002109e-05	-0.00887192	0.01091858	3.213609e-05	2.206281e-05
	2.488303e-05	1.641068e-05	0.001158686	0.001509032	3.213609e-05	2.206281e-05	-0.008078376	0.01124767
2.2e+08	-0.004241172	0.006615707	2.35641e-05	1.03564e-05	0.001241282	0.003791359	2.626795e-05	1.334484e-05
	2.35641e-05	1.03564e-05	-0.004057162	0.0067429	9.287371e-05	3.85746e-05	0.001217761	0.003793044
	0.001241282	0.003791359	9.287371e-05	3.85746e-05	-0.004442955	0.006690854	3.423933e-05	1.769947e-05
	2.626795e-05	1.334484e-05	0.001217761	0.003793044	3.423933e-05	1.769947e-05	-0.004007674	0.006879079
2.3e+08	-0.001434501	0.001277218	2.43233e-05	7.482818e-06	0.001979184	0.005946318	2.72984e-05	1.015711e-05
	2.43233e-05	7.482818e-06	-0.001508136	0.001387955	9.558446e-05	2.681333e-05	0.001895978	0.005971328
	0.001979184	0.005946318	9.558446e-05	2.681333e-05	-0.001512353	0.00133781	3.576644e-05	1.314498e-05
	2.72984e-05	1.015711e-05	0.001895978	0.005971328	3.576644e-05	1.314498e-05	-0.00146818	0.001493008
2.4e+08	-0.0003464565	-0.004679778	2.47472e-05	4.552732e-06	0.003282815	0.007805341	2.796158e-05	6.892932e-06
	2.47472e-05	4.552732e-06	-0.000692271	-0.00450709	9.686151e-05	1.492445e-05	0.003137176	0.00787157
	0.003282815	0.007805341	9.686151e-05	1.492445e-05	-0.0003218902	-0.004665157	3.670202e-05	8.479071e-06
	2.796158e-05	6.892932e-06	0.003137176	0.00787157	3.670202e-05	8.479071e-06	-0.000672455	-0.004429264
2.5e+08	-0.001070527	-0.01074392	2.483004e-05	1.608864e-06	0.005042969	0.009217823	2.825217e-05	3.597694e-06
	2.483004e-05	1.608864e-06	-0.001679858	-0.01042768	9.671458e-05	3.089101e-06	0.00483811	0.009344656
	0.005042969	0.009217823	9.671458e-05	3.089101e-06	-0.0009708716	-0.01079848	3.704296e-05	3.780847e-06
	2.825217e-05	3.597694e-06	0.00483811	0.009344656	3.704296e-05	3.780847e-06	-0.001689351	-0.01037015
2.6e+08	-0.003554523	-0.01640163	2.457233e-05	-1.305983e-06	0.007111535	0.01007106	2.817153e-05	3.15613e-07
	2.457233e-05	-1.305983e-06	-0.004394908	-0.01586397	9.517338e-05	-8.520294e-06	0.006857068	0.01027739
	0.007111535	0.01007106	9.517338e-05	-8.520294e-06	-0.003410535	-0.01653961	3.679739e-05	-8.730511e-07
	2.817153e-05	3.15613e-07	0.006857068	0.01027739	3.679739e-05	-8.730511e-07	-0.004440617	-0.01581726
2.7e+08	-0.007606656	-0.02117739	2.398158e-05	-4.150505e-06	0.009314185	0.01029998	2.772654e-05	-2.911189e-06
	2.398158e-05	-4.150505e-06	-0.008623376	-0.02035101	9.229512e-05	-1.974352e-05	0.009025934	0.01060213
	0.009314185	0.01029998	9.229512e-05	-1.974352e-05	-0.007450066	-0.02140382	3.598328e-05	-5.409938e-06
	2.772654e-05	-2.911189e-06	0.009025934	0.01060213	3.598328e-05	-5.409938e-06	-0.008709205	-0.02030392
2.8e+08	-0.01291246	-0.02467039	2.307052e-05	-6.885466e-06	0.01146542	0.009892732	2.692877e-05	-6.043108e-06
	2.307052e-05	-6.885466e-06	-0.014032	-0.0235049	8.815033e-05	-3.043319e-05	0.01116457	0.01030244
	0.01146542	0.009892732	8.815033e-05	-3.043319e-05	-0.01277364	-0.02498156	3.462723e-05	-9.76212e-06
	2.692877e-05	-6.043108e-06	0.01116457	0.01030244	3.462723e-05	-9.76212e-06	-0.01415847	-0.02344542
2.9e+08	-0.01906105	-0.02658479	2.185659e-05	-9.47438e-06	0.01338455	0.008891427	2.579349e-05	-9.043241e-06
	2.185659e-05	-9.47438e-06	-0.02019634	-0.02505195	8.282187e-05	-4.045436e-05	0.0130962	0.009414192
	0.01338455	0.008891427	8.282187e-05	-4.045436e-05	-0.01896692	-0.02696921	3.276306e-05	-1.386753e-05
	2.579349e-05	-9.043241e-06	0.0130962	0.009414192	3.276306e-05	-1.386753e-05	-0.02036049	-0.02496828
3e+08	-0.02557834	-0.0267513	2.03612e-05	-1.188395e-05	0.01491111	0.007388251	2.433895e-05	-1.187726e-05
	2.03612e-05	-1.188395e-05	-0.02663554	-0.02484854	7.640356e-05	-4.968387e-05	0.01466227	0.008022106
	0.01491111	0.007388251	7.640356e-05	-4.968387e-05	-0.02555066	-0.02719114	3.04306e-05	-1.767e-05
	2.433895e-05	-1.187726e-05	0.01466227	0.008022106	3.04306e-05	-1.767e-05	-0.02683109	-0.02473009
3.1e+08	-0.03196469	-0.02513864	1.860915e-05	-1.40843e-05	0.0159183	0.005517188	2.258607e-05	-1.451326e-05
	1.860915e-05	-1.40843e-05	-0.03285072	-0.02289052	6.899946e-05	-5.800983e-05	0.01573558	0.006252129
	0.0159183	0.005517188	6.899946e-05	-5.800983e-05	-0.0320188	-0.02561145	2.767481e-05	-2.111942e-05
	2.258607e-05	-1.451326e-05	0.01573558	0.006252129	2.767481e-05	-2.111942e-05	-0.03306852	-0.02272885
3.2e+08	-0.03773368	-0.02185414	1.662791e-05	-1.604906e-05	0.01632328	0.003442347	2.055815e-05	-1.692141e-05
	1.662791e-05	-1.604906e-05	-0.03836407	-0.01931164	6.072315e-05	-6.533129e-05	0.01623044	0.004260499
	0.01632328	0.003442347	6.072315e-05	-6.533129e-05	-0.03787777	-0.02233483	2.454497e-05	-2.417167e-05
	2.055815e-05	-1.692141e-05	0.01623044	0.004260499	2.454497e-05	-2.417167e-05	-0.03859286	-0.01910118
3.3e+08	-0.04244921	-0.01713388	1.444721e-05	-1.775529e-05	0.01609359	0.001343993	1.828093e-05	-1.907387e-05
	1.444721e-05	-1.775529e-05	-0.04275562	-0.01437136	5.169782e-05	-7.155852e-05	0.01610912	0.002220538
	0.01609359	0.001343993	5.169782e-05	-7.155852e-05	-0.04268413	-0.01759674	2.109415e-05	-2.678863e-05
	1.828093e-05	-1.907387e-05	0.01610912	0.002220538	2.109415e-05	-2.678863e-05	-0.04298289	-0.01410996
3.4e+08	-0.04575828	-0.01132332	1.209872e-05	-1.918358e-05	0.01524924	-0.0005964383	1.57828e-05	-2.094483e-05
	1.209872e-05	-1.918358e-05	-0.04569484	-0.008433397	4.20565e-05	-7.661419e-05	0.01538434	0.0003083877
	0.01524924	-0.0005964383	4.20565e-05	-7.661419e-05	-0.04607781	-0.0117439	1.737889e-05	-2.893841e-05
	1.57828e-05	-2.094483e-05	0.01538434	0.0003083877	1.737889e-05	-2.893841e-05	-0.04590791	-0.008122533
3.5e+08	-0.04741692	-0.004849971	9.615758e-06	-2.031798e-05	0.01386052	-0.00221108	1.309498e-05	-2.251069e-05
	9.615758e-06	-2.031798e-05	-0.0469651	-0.00193673	3.194155e-05	-8.043468e-05	0.01411758	-0.001311138
	0.01386052	-0.00221108	3.194155e-05	-8.043468e-05	-0.04780856	-0.005206872	1.345872e-05	-3.059548e-05
	1.309498e-05	-2.251069e-05	0.01411758	-0.001311138	1.345872e-05	-3.059548e-05	-0.04715209	-0.001581441
3.6e+08	-0.04730777	0.001809532	7.033074e-06	-2.11461e-05	0.01204195	-0.003359003	1.025177e-05	-2.375049e-05
	7.033074e-06	-2.11461e-05	-0.04647906	0.004638627	2.1504e-05	-8.29721e-05	0.01241375	-0.002497506
	0.01204195	-0.003359003	2.1504e-05	-8.29721e-05	-0.0477539	0.001533239	9.395866e-06	-3.174116e-05
	1.025177e-05	-2.375049e-05	0.01241375	-0.002497506	9.395866e-06	-3.174116e-05	-0.04662993	0.005030094
3.7e+08	-0.04544812	0.008165719	4.386637e-06	-2.165927e-05	0.009942848	-0.003937269	7.290495e-06	-2.464657e-05
	4.386637e-06	-2.165927e-05	-0.04428441	0.01080846	1.090206e-05	-8.41962e-05	0.01041257	-0.003145332
	0.009942848	-0.003937269	1.090206e-05	-8.41962e-05	-0.0459274	0.007981389	5.254567e-06	-3.236402e-05
	7.290495e-06	-2.464657e-05	0.01041257	-0.003145332	5.254567e-06	-3.236402e-05	-0.0443918	0.01122528
3.8e+08	-0.0419879	0.01375316	1.713365e-06	-2.185269e-05	0.007735366	-0.003888946	4.251437e-06	-2.518523e-05
	1.713365e-06	-2.185269e-05	-0.04055938	0.01612117	2.991203e-07	-8.409619e-05	0.008277445	-0.003192466
	0.007735366	-0.003888946	2.991203e-07	-8.409619e-05	-0.04247695	0.01366591	1.1004e-06	-3.246043e-05
	4.251437e-06	-2.518523e-05	0.008277445	-0.003192466	1.1004e-06	-3.246043e-05	-0.04061922	0.01655078
3.9e+08	-0.03719796	0.01816539	-9.492036e-07	-2.172569e-05	0.005600911	-0.003207589	1.177384e-06	-2.535751e-05
	-9.492036e-07	-2.172569e-05	-0.03559861	0.02019192	-1.013885e-05	-8.268243e-05	0.00618271	-0.002624791
	0.005600911	-0.003207589	-1.013885e-05	-8.268243e-05	-0.03767308	0.01817387	-3.000692e-06	-3.203494e-05
	1.177384e-06	-2.535751e-05	0.00618271	-0.002624791	-3.000692e-06	-3.203494e-05	-0.03561055	0.02062101
4e+08	-0.03144946	0.0210854	-3.563328e-06	-2.128187e-05	0.003715831	-0.001937915	-1.88699e-06	-2.515991e-05
	-3.563328e-06	-2.128187e-05	-0.02979042	0.02273161	-2.024649e-05	-7.99874e-05	0.004299965	-0.001477436
	0.003715831	-0.001937915	-2.024649e-05	-7.99874e-05	-0.03188833	0.02118198	-6.983511e-06	-3.110051e-05
	-1.88699e-06	-2.515991e-05	0.004299965	-0.001477436	-6.983511e-06	-3.110051e-05	-0.02975787	0.02314722
4.1e+08	-0.02518575	0.0223094	-6.091562e-06	-2.052933e-05	0.002237407	-0.000172597	-4.896021e-06	-2.459493e-05
	-6.091562e-06	-2.052933e-05	-0.02358706	0.02356875	-2.986259e-05	-7.606637e-05	0.002784572	0.0001677158
	0.002237407	-0.000172597	-2.986259e-05	-7.606637e-05	-0.02556908	0.02248085	-1.078485e-05	-2.967861e-05
	-4.896021e-06	-2.459493e-05	0.002784572	0.0001677158	-1.078485e-05	-2.967861e-05	-0.02351702	0.02395927
4.2e+08	-0.01888897	0.02176225	-8.497321e-06	-1.948073e-05	0.001291116	0.001954673	-7.804092e-06	-2.367143e-05
	-8.497321e-06	-1.948073e-05	-0.01747021	0.02266234	-3.883388e-05	-7.099703e-05	0.001763207	0.002188118
	0.001291116	0.001954673	-3.883388e-05	-7.099703e-05	-0.0192018	0.02199078	-1.434477e-05	-2.779896e-05
	-7.804092e-06	-2.367143e-05	0.001763207	0.002188118	-1.434477e-05	-2.779896e-05	-0.01737274	0.02301854
4.3e+08	-0.01304347	0.01950323	-1.074549e-05	-1.815327e-05	0.000960149	0.004279445	-1.056678e-05	-2.240467e-05
	-1.074549e-05	-1.815327e-05	-0.01191407	0.02010499	-4.701898e-05	-6.487842e-05	0.0013234	0.004429932
	0.000960149	0.004279445	-4.701898e-05	-6.487842e-05	-0.01327625	0.01976782	-1.760785e-05	-2.549906e-05
	-1.056678e-05	-2.240467e-05	0.0013234	0.004429932	-1.760785e-05	-2.549906e-05	-0.01180157	0.02042076
4.4e+08	-0.008099083	0.01572163	-1.280308e-05	-1.656862e-05	0.001278063	0.006619447	-1.314197e-05	-2.081612e-05
	-1.280308e-05	-1.656862e-05	-0.007349094	0.01611577	-5.429201e-05	-5.782887e-05	0.001505981	0.006720092
	0.001278063	0.006619447	-5.429201e-05	-5.782887e-05	-0.008248309	0.01599961	-2.052437e-05	-2.282342e-05
	-1.314197e-05	-2.081612e-05	0.001505981	0.006720092	-2.052437e-05	-2.282342e-05	-0.007235289	0.01638872
4.5e+08	-0.004436828	0.01072245	-1.463989e-05	-1.475272e-05	0.002225297	0.008789298	-1.5491e-05	-1.893299e-05
	-1.463989e-05	-1.475272e-05	-0.004128831	0.01102335	-6.054589e-05	-4.99832e-05	0.002301137	0.008880212
	0.002225297	0.008789298	-6.054589e-05	-4.99832e-05	-0.004505241	0.01099126	-2.305125e-05	-1.982271e-05
	-1.5491e-05	-1.893299e-05	0.002301137	0.008880212	-2.305125e-05	-1.982271e-05	-0.00402774	0.01125507
4.6e+08	-0.002339794	0.004903206	-1.62292e-05	-1.27354e-05	0.003730015	0.01061583	-1.75792e-05	-1.678736e-05
	-1.62292e-05	-1.27354e-05	-0.00250279	0.005240583	-6.569476e-05	-4.148907e-05	0.003648589	0.01074126
	0.003730015	0.01061583	-6.569476e-05	-4.148907e-05	-0.002336078	0.005142034	-2.515171e-05	-1.6552e-05
	-1.75792e-05	-1.678736e-05	0.003648589	0.01074126	-2.515171e-05	-1.6552e-05	-0.002427491	0.005436612
4.7e+08	-0.001971519	-0.001276491	-1.754832e-05	-1.054993e-05	0.005673387	0.01195275	-1.937756e-05	-1.441585e-05
	-1.754832e-05	-1.054993e-05	-0.002597292	-0.0007673943	-6.967543e-05	-3.250296e-05	0.005442046	0.01215774
	0.005673387	0.01195275	-6.967543e-05	-3.250296e-05	-0.00190958	-0.001085156	-2.679826e-05	-1.307142e-05
