!$
! Info: Touchstone file created by Circ.  Input file=Tx_10in_Rx_85ohms_TxVia_60mils_RxVia_70mils.circ
!$
# Hz S RI R 50
0	0.008132889	1.54525e-25	0.9917266	-1.473994e-25	7.713102e-05	1.772173e-23	-7.246467e-05	2.275188e-21
	0.9917266	-1.490896e-25	0.008128236	1.654887e-25	-7.29454e-05	2.334115e-21	7.387701e-05	1.977474e-23
	7.835421e-05	1.721814e-23	-7.225572e-05	2.249647e-21	0.008143591	1.532554e-25	0.991705	-1.436664e-25
	-7.27338e-05	2.308141e-21	7.414668e-05	1.985954e-23	0.991705	-1.507094e-25	0.008142685	1.647614e-25
1e+07	0.01044631	-0.009341069	0.9821466	-0.1085747	0.000355504	0.001938233	-0.000115011	1.018129e-05
	0.9821466	-0.1085747	0.01043496	-0.009339881	-0.0001151123	1.023874e-05	0.0003517797	0.001939332
	0.0003555739	0.0019382	-0.0001150792	1.021789e-05	0.01042961	-0.00932932	0.9821537	-0.1086701
	-0.0001149779	1.016043e-05	0.0003517822	0.00193933	0.9821537	-0.1086701	0.0104175	-0.009327845
2e+07	0.01011251	-0.02132817	0.9612649	-0.2122678	0.001006003	0.003713449	-7.61714e-05	5.528368e-05
	0.9612649	-0.2122678	0.01006775	-0.02131981	-7.619626e-05	5.53705e-05	0.0009915217	0.003718167
	0.001005987	0.003713412	-7.620488e-05	5.535153e-05	0.01010678	-0.02129634	0.9612324	-0.212464
	-7.616655e-05	5.524699e-05	0.0009915188	0.003718168	0.9612324	-0.212464	0.01005885	-0.02128707
3e+07	0.006260957	-0.03390719	0.9305332	-0.3115879	0.001995026	0.005284404	2.350844e-05	6.997912e-05
	0.9305332	-0.3115879	0.006163108	-0.03387757	2.346328e-05	7.002742e-05	0.001963938	0.005297314
	0.001995022	0.005284404	2.346157e-05	7.002786e-05	0.006264141	-0.03386468	0.9304446	-0.3118692
	2.350594e-05	6.997558e-05	0.001963938	0.005297316	0.9304446	-0.3118692	0.006159521	-0.03383236
4e+07	-0.0005267622	-0.04561906	0.8900469	-0.4063648	0.003271214	0.00658881	0.0001602342	2.492998e-05
	0.8900469	-0.4063648	-0.0006926686	-0.04554872	0.0001601469	2.501241e-05	0.00321924	0.006616236
	0.00327122	0.006588809	0.0001601506	2.50124e-05	-0.0005158519	-0.04556922	0.8898863	-0.4067191
	0.0001602429	2.49346e-05	0.003219241	0.006616237	0.8898863	-0.4067191	-0.0006931655	-0.04549314
5e+07	-0.009786452	-0.05575734	0.8402568	-0.4957846	0.004767084	0.007574242	0.0003052045	-9.60531e-05
	0.8402568	-0.4957846	-0.01002901	-0.05562197	0.0003051104	-9.589943e-05	0.004692025	0.007623714
	0.004767087	0.00757424	0.0003051125	-9.590046e-05	-0.009769324	-0.05570224	0.8400094	-0.4961981
	0.0003052107	-9.605297e-05	0.004692026	0.007623714	0.8400094	-0.4961981	-0.01002854	-0.05555631
6e+07	-0.02102343	-0.06381854	0.781786	-0.578999	0.006405272	0.008204974	0.0004262743	-0.0002972204
	0.781786	-0.578999	-0.02134344	-0.06359169	0.0004262078	-0.0002969902	0.006307221	0.00828459
	0.006405272	0.008204977	0.0004262075	-0.0002969895	-0.02100169	-0.06375938	0.7814391	-0.5794562
	0.0004262689	-0.0002972191	0.006307223	0.00828459	0.7814391	-0.5794562	-0.0213435	-0.06351524
7e+07	-0.03369924	-0.06944564	0.7153768	-0.6552148	0.008103592	0.008463776	0.0004917775	-0.0005711718
	0.7153768	-0.6552148	-0.03408981	-0.0691011	0.000491762	-0.0005708683	0.007984999	0.008581584
	0.008103592	0.008463783	0.0004917608	-0.0005708651	-0.03367446	-0.069383	0.7149201	-0.6556983
	0.000491763	-0.0005711621	0.007985	0.008581584	0.7149201	-0.6556983	-0.03409134	-0.06901268
8e+07	-0.04724352	-0.07241508	0.6418603	-0.723727	0.009779686	0.008352172	0.0004739169	-0.0009001303
	0.6418603	-0.723727	-0.0476906	-0.07192868	0.000473972	-0.0008997549	0.009645289	0.00851557
	0.009779687	0.00835218	0.0004739713	-0.0008997505	-0.04721717	-0.07234903	0.641286	-0.7242179
	0.0004739019	-0.0009001127	0.009645289	0.008515569	0.641286	-0.7242179	-0.04769406	-0.07182681
9e+07	-0.06107363	-0.07263174	0.5621323	-0.7839337	0.01135548	0.007889676	0.0003513748	-0.001258067
	0.5621323	-0.7839337	-0.06155672	-0.07198298	0.0003515236	-0.001257621	0.01121211	0.008104829
	0.01135549	0.007889682	0.0003515238	-0.001257617	-0.06104704	-0.07256195	0.5614355	-0.7844118
	0.0003513665	-0.001258051	0.01121211	0.008104829	0.5614355	-0.7844118	-0.06156206	-0.07186594
1e+08	-0.07461886	-0.07012507	0.4771354	-0.8353401	0.01276298	0.007113327	0.0001087609	-0.001614938
	0.4771354	-0.8353401	-0.07511194	-0.06929859	0.0001090326	-0.001614425	0.0126192	0.007384645
	0.01276298	0.007113327	0.0001090325	-0.001614425	-0.07459334	-0.07005103	0.4763145	-0.8357843
	0.0001087609	-0.001614938	0.0126192	0.007384645	0.4763145	-0.8357843	-0.07511869	-0.06916478
1.1e+08	-0.0873378	-0.06501786	0.3878361	-0.8775885	0.01394495	0.00605656	-0.0002579572	-0.00191555
	0.3878361	-0.8775885	-0.08780948	-0.06400523	-0.0002575358	-0.001915035	0.01381057	0.006386215
	0.01394495	0.00605656	-0.0002575358	-0.001915035	-0.08731445	-0.06493731	0.3868929	-0.8779791
	-0.0002579571	-0.00191555	0.01381057	0.006386215	0.3868929	-0.8779791	-0.08781634	-0.06385199
1.2e+08	-0.09871858	-0.05756531	0.2951823	-0.9103879	0.01483916	0.004785794	-0.0007201111	-0.002135804
	0.2951823	-0.9103879	-0.09913564	-0.05636577	-0.0007195351	-0.002135332	0.01472471	0.005173526
	0.01483916	0.004785794	-0.000719535	-0.002135332	-0.09869671	-0.05747677	0.2941197	-0.9107043
	-0.0007201109	-0.002135804	0.01472471	0.005173526	0.2941197	-0.9107043	-0.09913961	-0.05619169
1.3e+08	-0.1083381	-0.04810506	0.2001457	-0.9335523	0.01541533	0.00337009	-0.001261	-0.002249478
	0.2001457	-0.9335523	-0.1086667	-0.04672619	-0.001260279	-0.002249095	0.01533143	0.003812982
	0.01541533	0.00337009	-0.001260279	-0.002249095	-0.1083169	-0.04800743	0.1989703	-0.9337739
	-0.001261	-0.002249478	0.01533143	0.003812983	0.1989703	-0.9337739	-0.1086646	-0.04653084
1.4e+08	-0.1158509	-0.03704396	0.1036841	-0.9469889	0.01565551	0.001879963	-0.001853087	-0.002234445
	0.1036841	-0.9469889	-0.1160585	-0.03550179	-0.001852245	-0.002234191	0.01561221	0.002372426
	0.01565551	0.001879963	-0.001852245	-0.002234191	-0.1158293	-0.03693642	0.1024052	-0.9470959
	-0.001853087	-0.002234445	0.01561221	0.002372427	0.1024052	-0.9470959	-0.1160472	-0.0352856
1.5e+08	-0.1210014	-0.02484252	0.006737768	-0.9506878	0.0155558	0.000386393	-0.002462693	-0.00207685
	0.006737768	-0.9506878	-0.1210591	-0.02316116	-0.002461768	-0.002076759	0.01556196	0.0009203078
	0.0155558	0.0003863932	-0.002461768	-0.002076759	-0.1209782	-0.02472462	0.005367912	-0.9506613
	-0.002462693	-0.00207685	0.01556195	0.0009203086	0.005367912	-0.9506613	-0.1210352	-0.02292547
1.6e+08	-0.1236308	-0.01199656	-0.08977271	-0.9447142	0.01512597	-0.001041536	-0.003053007	-0.001772601
	-0.08977271	-0.9447142	-0.123515	-0.01020736	-0.003052046	-0.001772694	0.01518859	-0.0004765267
	0.01512597	-0.001041536	-0.003052046	-0.001772694	-0.1236046	-0.01186819	-0.09121848	-0.9445371
	-0.003053007	-0.001772601	0.01518859	-0.000476526	-0.09121848	-0.9445371	-0.1234757	-0.009954372
1.7e+08	-0.1236808	0.0009817711	-0.1849481	-0.9292035	0.01438858	-0.002338859	-0.003587111	-0.001327833
	-0.1849481	-0.9292035	-0.1233748	0.002841457	-0.003586165	-0.001328114	0.01451232	-0.001754912
	0.01438858	-0.002338859	-0.003586165	-0.001328115	-0.12365	0.00112031	-0.1864522	-0.9288602
	-0.003587111	-0.001327833	0.01451232	-0.001754911	-0.1864522	-0.9288602	-0.1233176	0.003108755
1.8e+08	-0.1211926	0.01358283	-0.2779107	-0.9043573	0.0133779	-0.00344671	-0.004030907	-0.0007584783
	-0.2779107	-0.9043573	-0.1206884	0.01547127	-0.00403003	-0.0007589351	0.0135646	-0.002857226
	0.0133779	-0.00344671	-0.004030029	-0.0007589352	-0.1211561	0.01373084	-0.2794531	-0.9038345
	-0.004030907	-0.0007584784	0.0135646	-0.002857226	-0.2794531	-0.9038345	-0.1206116	0.01574921
1.9e+08	-0.1163048	0.0253177	-0.3678036	-0.8704412	0.01213857	-0.004314107	-0.004355756	-8.903998e-05
	-0.3678036	-0.8704412	-0.115604	0.02719075	-0.004354992	-8.964338e-05	0.01238698	-0.003733076
	0.01213857	-0.004314107	-0.004354992	-8.964348e-05	-0.1162613	0.02547411	-0.3693625	-0.869728
	-0.004355756	-8.904007e-05	0.01238698	-0.003733076	-0.3693625	-0.869728	-0.1155066	0.02747516
2e+08	-0.1092471	0.0357356	-0.4537918	-0.8277858	0.01072414	-0.004899555	-0.004540632	0.000649312
	-0.4537918	-0.8277858	-0.1083611	0.03754885	-0.004540017	0.0006486051	0.01102979	-0.004340839
	0.01072414	-0.004899555	-0.004540017	0.000648605	-0.1091956	0.03589904	-0.4553435	-0.826874
	-0.004540632	0.0006493119	0.01102979	-0.004340839	-0.4553435	-0.826874	-0.1082433	0.03783527
2.1e+08	-0.1003309	0.04443991	-0.5350623	-0.7767873	0.009195419	-0.00517251	-0.004573653	0.001421168
	-0.5350623	-0.7767873	-0.09928177	0.04615102	-0.004573205	0.00142041	0.009550595	-0.004649095
	0.009195419	-0.00517251	-0.004573205	0.00142041	-0.100271	0.04460874	-0.5365817	-0.7756716
	-0.004573653	0.001421167	0.009550595	-0.004649095	-0.5365817	-0.7756716	-0.09914466	0.04643492
2.2e+08	-0.08993862	0.05110264	-0.6108276	-0.7179112	0.007618524	-0.005114671	-0.004452855	0.002189632
	-0.6108276	-0.7179112	-0.08875813	0.05267368	-0.004452574	0.002188881	0.008012491	-0.004637928
	0.007618524	-0.005114671	-0.004452574	0.002188881	-0.08987001	0.05127505	-0.6122886	-0.7165894
	-0.004452855	0.002189632	0.008012491	-0.004637928	-0.6122886	-0.7165894	-0.08860396	0.05295073
2.3e+08	-0.0785092	0.05547674	-0.6803302	-0.6516954	0.006062708	-0.004721063	-0.004186154	0.002919196
	-0.6803302	-0.6516954	-0.07723812	0.05687649	-0.00418602	0.002918507	0.006482054	-0.004300057
	0.006062708	-0.004721063	-0.00418602	0.002918507	-0.07843216	0.05565087	-0.681706	-0.6501686
	-0.004186155	0.002919196	0.006482054	-0.004300057	-0.681706	-0.6501686	-0.07707017	0.0571428
2.4e+08	-0.06652207	0.05740601	-0.7428498	-0.5787533	0.004597836	-0.004000805	-0.003790476	0.003578488
	-0.7428498	-0.5787533	-0.06520873	0.05861202	-0.00379045	0.003577908	0.005026979	-0.003641679
	0.004597836	-0.004000805	-0.00379045	0.003577908	-0.06643731	0.05758001	-0.7441131	-0.5770257
	-0.003790476	0.003578488	0.005026979	-0.003641679	-0.7441131	-0.5770257	-0.06503122	0.05886438
2.5e+08	-0.05447906	0.05683187	-0.7977121	-0.499776	0.003291562	-0.002977444	-0.003290111	0.004142672
	-0.7977121	-0.499776	-0.05317738	0.05783227	-0.003290137	0.00414223	0.003713402	-0.002682925
	0.003291562	-0.002977444	-0.003290137	0.00414223	-0.0543877	0.05700405	-0.7988359	-0.4978555
	-0.003290111	0.004142672	0.003713402	-0.002682925	-0.7988359	-0.4978555	-0.05299533	0.0580684
2.6e+08	-0.04288486	0.05379685	-0.8443002	-0.415533	0.002206291	-0.001688716	-0.002714409	0.004595257
	-0.8443002	-0.415533	-0.04165208	0.05459168	-0.002714424	0.004594964	0.002602959	-0.001457757
	0.002206291	-0.001688716	-0.002714424	0.004594964	-0.04278847	0.05396572	-0.8452579	-0.413431
	-0.002714409	0.004595257	0.002602959	-0.001457757	-0.8452579	-0.413431	-0.04147109	0.05481038
2.7e+08	-0.03222683	0.04844402	-0.8820676	-0.3268705	0.001396023	-0.0001855926	-0.002095018	0.004929148
	-0.8820676	-0.3268705	-0.03112078	0.04904607	-0.002094955	0.004928989	0.001749717	-1.319029e-05
	0.001396023	-0.0001855926	-0.002094955	0.004928989	-0.03212734	0.04860845	-0.8828334	-0.3246015
	-0.002095018	0.004929148	0.001749717	-1.319031e-05	-0.8828334	-0.3246015	-0.03094682	0.04924741
2.8e+08	-0.02295475	0.04101246	-0.9105512	-0.2347057	0.0009033045	0.001469445	-0.001462896	0.00514679
	-0.9105512	-0.2347057	-0.02203101	0.04144749	-0.001462693	0.005146729	0.001197165	0.001592257
	0.0009033045	0.001469445	-0.001462693	0.005146729	-0.02285436	0.04117172	-0.9111007	-0.232288
	-0.001462896	0.00514679	0.001197165	0.001592257	-0.9111007	-0.232288	-0.02187011	0.04163288
2.9e+08	-0.01546155	0.03182831	-0.9293853	-0.1400195	0.0007565074	0.003204964	-0.0008454095	0.005259376
	-0.9293853	-0.1400195	-0.01477054	0.03213467	-0.0008450196	0.005259351	0.0009754931	0.003290926
	0.0007565074	0.003204964	-0.0008450195	0.005259351	-0.0153627	0.03198218	-0.9296959	-0.1374744
	-0.0008454095	0.005259376	0.0009754931	0.003290926	-0.9296959	-0.1374744	-0.01462849	0.03230685
3e+08	-0.01006602	0.02129187	-0.9383139	-0.04384438	0.0009676982	0.004943887	-0.0002638124	0.00528515
	-0.9383139	-0.04384438	-0.0096501	0.02151933	-0.0002632092	0.005285086	0.001099424	0.005009126
	0.0009676982	0.004943887	-0.0002632092	0.005285086	-0.009971234	0.02144065	-0.9383651	-0.04119637
	-0.0002638124	0.00528515	0.001099424	0.005009126	-0.9383651	-0.04119637	-0.009532166	0.0216824
3.1e+08	-0.006998422	0.009860866	-0.937201	0.05275061	0.001531347	0.006607389	0.0002686134	0.005246989
	-0.937201	0.05275061	-0.006889322	0.01006891	0.000269429	0.005246798	0.00156684	0.006670855
	0.001531347	0.006607389	0.000269429	0.005246798	-0.006910224	0.01000543	-0.9369749	0.05547412
	0.0002686134	0.005246989	0.00156684	0.006670855	-0.9369749	0.05547412	-0.006799945	0.01022815
3.2e+08	-0.00638995	-0.001969196	-0.9260388	0.148677	0.002424064	0.00811915	0.0007475276	0.005169483
	-0.9260388	0.148677	-0.006606563	-0.00171375	0.000748525	0.005169079	0.002358395	0.00820188
	0.002424064	0.00811915	0.000748525	0.005169079	-0.006310734	-0.001827375	-0.9255206	0.151446
	0.0007475276	0.005169483	0.002358395	0.00820188	-0.9255206	0.151446	-0.006549088	-0.001552012
3.3e+08	-0.008266776	-0.01368673	-0.9049513	0.2428465	0.00360547	0.009409647	0.001177492	0.005075858
	-0.9049513	0.2428465	-0.008813507	-0.0133126	0.001178611	0.005075163	0.003438224	0.009533884
	0.00360547	0.009409647	0.001178611	0.005075163	-0.008198623	-0.01354562	-0.9041294	0.2456287
	0.001177492	0.005075858	0.003438224	0.009533884	-0.9041294	0.2456287	-0.008789899	-0.01314123
3.4e+08	-0.01254893	-0.02478669	-0.8741943	0.3341913	0.005020197	0.01042013	0.001570908	0.004985076
	-0.8741943	0.3341913	-0.0134147	-0.02422134	0.001572063	0.004984033	0.004755752	0.01060835
	0.005020197	0.01042013	0.001572063	0.004984033	-0.01249347	-0.02464377	-0.8730609	0.3369524
	0.001570908	0.004985076	0.004755752	0.01060835	-0.8730609	0.3369524	-0.01342536	-0.02403273
3.5e+08	-0.01905434	-0.03479288	-0.8341511	0.4216836	0.006600887	0.01110598	0.001946058	0.004909453
	-0.8341511	0.4216836	-0.02021236	-0.03396595	0.001947144	0.004908032	0.006248478	0.01137982
	0.006600887	0.01110598	0.001947144	0.004908032	-0.01901273	-0.03464522	-0.8327023	0.4243881
	0.001946058	0.004909453	0.006248478	0.01137982	-0.8327023	0.4243881	-0.02025609	-0.03375233
3.6e+08	-0.02750775	-0.04327868	-0.7853244	0.5043548	0.008271976	0.01143913	0.002324462	0.00485307
	-0.7853244	0.5043548	-0.02891603	-0.04212546	0.002325364	0.004851275	0.007845521	0.01181835
	0.008271976	0.01143913	0.002325364	0.004851275	-0.0274805	-0.04312303	-0.7835605	0.506966
	0.002324462	0.00485307	0.007845521	0.01181835	-0.7835605	0.506966	-0.02898993	-0.04187927
3.7e+08	-0.03755383	-0.04988519	-0.7283243	0.5813115	0.009953945	0.0114094	0.002727868	0.004811157
	-0.7283243	0.5813115	-0.03915647	-0.04834992	0.002728474	0.004809026	0.009471638	0.01191086
	0.009953945	0.0114094	0.002728474	0.004809026	-0.03754076	-0.04971814	-0.7262499	0.5837924
	0.002727868	0.004811157	0.009471638	0.01191086	-0.7262499	0.5837924	-0.03925604	-0.04806413
3.8e+08	-0.0487738	-0.05433575	-0.6638542	0.6517489	0.01156768	0.01102471	0.003175229	0.0047705
	-0.6638542	0.6517489	-0.05050306	-0.0523746	0.003175439	0.004768106	0.01105136	0.01166142
	0.01156768	0.01102471	0.003175439	0.004768106	-0.04877399	-0.05415388	-0.6614782	0.6540625
	0.003175229	0.0047705	0.01105136	0.01166142	-0.6614782	0.6540625	-0.05062225	-0.05204313
3.9e+08	-0.06070451	-0.05644636	-0.592694	0.7149601	0.01303866	0.01031012	0.003679988	0.004710813
	-0.592694	0.7149601	-0.06248344	-0.0540299	0.003679724	0.004708259	0.01251296	0.01109047
	0.01303866	0.01031012	0.003679724	0.004708259	-0.06071626	-0.05624641	-0.5900301	0.7170699
	0.003679988	0.004710813	0.01251296	0.01109047	-0.5900301	0.7170699	-0.06261487	-0.05364791
4e+08	-0.07285888	-0.05613156	-0.5156842	0.7703424	0.01430056	0.009305988	0.004247981	0.004606901
	-0.5156842	0.7703424	-0.07460445	-0.05324664	0.004247199	0.004604311	0.01379191	0.01023313
	0.01430056	0.009305988	0.004247199	0.004604311	-0.07287977	-0.05591059	-0.5127501	0.7722132
	0.004247981	0.004606901	0.01379191	0.01023313	-0.5127501	0.7722132	-0.07473972	-0.05281085
4.1e+08	-0.0847466	-0.05340584	-0.4337082	0.8173994	0.01529826	0.008065299	0.004876154	0.004431363
	-0.4337082	0.8173994	-0.08637327	-0.05005676	0.004874846	0.004428871	0.01483375	0.0091368
	0.01529826	0.008065299	0.004874846	0.004428871	-0.08477356	-0.0531614	-0.4305261	0.8189976
	0.004876154	0.004431363	0.01483375	0.0091368	-0.4305261	0.8189976	-0.08650325	-0.04956564
4.2e+08	-0.09589423	-0.04838076	-0.3476779	0.8557402	0.01598992	0.00665062	0.005552196	0.004157525
	-0.3476779	0.8557402	-0.09731761	-0.04458968	0.005550394	0.004155264	0.01559607	0.007858325
	0.01598992	0.00665062	0.005550394	0.004155264	-0.09592362	-0.04811106	-0.3442739	0.8570345
	0.005552196	0.004157525	0.01559607	0.007858325	-0.3442739	0.8570345	-0.09743284	-0.04404361
4.3e+08	-0.1058636	-0.04125827	-0.2585189	0.885076	0.01634826	0.005130782	0.006255105	0.003762323
	-0.2585189	0.885076	-0.1070043	-0.0370648	0.00625288	0.003760413	0.01604982	0.006460974
	0.01634826	0.005130782	0.00625288	0.003760413	-0.1058914	-0.04096226	-0.2549231	0.8860375
	0.006255105	0.003762323	0.01604982	0.006460974	-0.2549231	0.8860375	-0.1070953	-0.03646613
4.4e+08	-0.1142684	-0.03232071	-0.1671602	0.9052146	0.01636105	0.003577595	0.006956593	0.003228846
	-0.1671602	0.9052146	-0.1150553	-0.02778075	0.006954045	0.003227381	0.01617979	0.00501141
	0.01636105	0.003577595	0.006954045	0.003227381	-0.1142903	-0.03199822	-0.163406	0.9058179
	0.006956593	0.003228846	0.01617979	0.00501141	-0.163406	0.9058179	-0.1151134	-0.0271338
4.5e+08	-0.1207875	-0.02191827	-0.0745242	0.9160543	0.01603084	0.002062762	0.007623162	0.002548321
	-0.0745242	0.9160543	-0.1211616	-0.01710212	0.007620418	0.002547363	0.01598452	0.003576852
	0.01603084	0.002062762	0.007620418	0.002547363	-0.1207992	-0.02157	-0.07064825	0.9162773
	0.007623162	0.002548321	0.01598452	0.003576852	-0.07064825	0.9162773	-0.1211786	-0.01641305
4.6e+08	-0.1251762	-0.01045438	0.0184793	0.9175773	0.01537425	0.0006550822	0.008218661	0.001721394
	0.0184793	0.9175773	-0.125093	-0.005444237	0.008215858	0.001720965	0.01547566	0.002222506
	0.01537425	0.0006550822	0.008215858	0.001720965	-0.1251736	-0.01008196	0.02243758	0.9174017
	0.008218661	0.001721394	0.01547566	0.002222506	0.02243758	0.9174017	-0.1250623	-0.004720851
4.7e+08	-0.1272738	0.00163012	0.110958	0.9098432	0.0144208	-0.0005819709	0.008707073	0.0007585996
	0.110958	0.9098432	-0.1267059	0.006743294	0.008704351	0.0007586797	0.01467704	0.001009323
	0.0144208	-0.0005819709	0.008704351	0.0007586797	-0.1272529	0.002024196	0.1149568	0.9092549
	0.008707073	0.0007585996	0.01467704	0.001009323	0.1149568	0.9092549	-0.1266224	0.007491829
4.8e+08	-0.1270081	0.01387375	0.2020396	0.8929834	0.0132114	-0.001592322	0.009055316	-0.0003199688
	0.2020396	0.8929834	-0.1259469	0.01899373	0.009052799	-0.0003194397	0.01362343	-7.929482e-06
	0.0132114	-0.001592322	0.009052799	-0.0003194397	-0.1269657	0.01428618	0.2060354	0.8919729
	0.009055316	-0.0003199688	0.01362343	-7.929482e-06	0.2060354	0.8919729	-0.1258074	0.01975722
4.9e+08	-0.1243977	0.02581132	0.2908737	0.8671977	0.01179677	-0.002329028	0.009235814	-0.00148577
	0.2908737	0.8671977	-0.1228542	0.03084049	0.009233601	-0.001484887	0.01235918	-0.000782326
	0.01179677	-0.002329028	0.009233601	-0.001484887	-0.1243311	0.02623814	0.2948213	0.8657599
	0.009235814	-0.00148577	0.01235918	-0.000782326	0.2948213	0.8657599	-0.1226576	0.0316081
5e+08	-0.1195498	0.03699084	0.3766325	0.832751	0.01023561	-0.002755731	0.009228665	-0.002703594
	0.3766325	0.832751	-0.1175551	0.04183416	0.009226822	-0.002702477	0.01093664	-0.001276199
	0.01023561	-0.002755731	0.009226822	-0.002702477	-0.1194572	0.03742753	0.3804858	0.8308858
	0.009228665	-0.002703594	0.01093664	-0.001276199	0.3804858	0.8308858	-0.1173026	0.04259488
5.1e+08	-0.1126569	0.04698972	0.4585119	0.7899731	0.0085927	-0.002847858	0.009023225	-0.003933872
	0.4585119	0.7899731	-0.1102613	0.05155883	0.009021776	-0.003932656	0.009414587	-0.001462369
	0.0085927	-0.002847858	0.009021776	-0.003932656	-0.1125374	0.0474314	0.4622246	0.7876851
