!$
! Info: Touchstone file created by Circ.  Input file=Tx_16in_Rx_93ohms_TxVia_60mils_RxVia_70mils.circ
!$
# Hz S RI R 50
0	0.01461138	1.981889e-25	1.623539e-09	5.002655e-27	0.0001055574	2.865184e-23	-1.490212e-10	6.346351e-26
	1.623553e-09	5.002661e-27	0.01460711	2.425654e-25	4.435979e-09	1.713516e-26	0.0001046967	3.566299e-23
	0.00010469	2.852368e-23	4.43598e-09	1.713516e-26	0.01462498	2.003477e-25	3.660963e-09	5.291466e-27
	-1.487352e-10	6.34285e-26	0.0001049661	3.581592e-23	3.660882e-09	5.291453e-27	0.01462137	2.415259e-25
1e+07	0.02063416	-0.002768588	2.036459e-09	3.470554e-09	0.0007032091	0.002901698	-1.656518e-09	1.17627e-08
	2.036459e-09	3.470554e-09	0.02104782	-0.00282878	6.16436e-09	1.28417e-08	0.0006960301	0.00289315
	0.0007031933	0.002901711	6.16436e-09	1.28417e-08	0.02107285	-0.002849294	-1.845834e-10	1.244405e-08
	-1.656518e-09	1.17627e-08	0.0006960332	0.002893147	-1.845833e-10	1.244405e-08	0.02062808	-0.002809489
2e+07	0.02282258	-0.01098112	2.850379e-09	6.155699e-09	0.002004264	0.005540802	1.638446e-09	3.240261e-09
	2.850379e-09	6.155699e-09	0.02304998	-0.01121113	7.894376e-09	2.28746e-08	0.001984511	0.005530424
	0.002004271	0.005540811	7.894376e-09	2.28746e-08	0.02310483	-0.0112636	-2.106188e-10	6.886488e-09
	1.638446e-09	3.240261e-09	0.001984508	0.005530424	-2.106188e-10	6.886488e-09	0.022752	-0.01104611
3e+07	0.02078187	-0.02046738	3.396799e-09	8.391831e-09	0.00412674	0.007426887	2.718658e-09	4.444972e-09
	3.396799e-09	8.391831e-09	0.02082944	-0.02071128	8.57388e-09	3.277203e-08	0.004066241	0.007438017
	0.004126741	0.007426887	8.57388e-09	3.277203e-08	0.02092586	-0.02081719	2.942411e-09	8.693451e-09
	2.718658e-09	4.444972e-09	0.004066241	0.007438019	2.942411e-09	8.693451e-09	0.02061804	-0.02052009
4e+07	0.01539046	-0.02902369	3.744462e-09	1.04886e-08	0.006731237	0.00845041	3.10532e-09	5.16262e-09
	3.744462e-09	1.04886e-08	0.0152703	-0.02920441	8.894291e-09	4.286171e-08	0.00664317	0.008493133
	0.006731236	0.008450411	8.894291e-09	4.286171e-08	0.01540827	-0.02939022	3.343742e-09	1.10745e-08
	3.10532e-09	5.16262e-09	0.006643171	0.008493134	3.343742e-09	1.10745e-08	0.01512022	-0.02902015
5e+07	0.007472099	-0.03555902	3.867338e-09	1.248388e-08	0.009454448	0.008571433	3.120705e-09	5.73358e-09
	3.867338e-09	1.248388e-08	0.007212749	-0.03561512	9.03943e-09	5.325795e-08	0.009345342	0.008659002
	0.009454446	0.008571433	9.03943e-09	5.325795e-08	0.007378745	-0.03590738	3.290218e-09	1.344331e-08
	3.120705e-09	5.73358e-09	0.009345343	0.008659002	3.290218e-09	1.344331e-08	0.007101051	-0.03545154
6e+07	-0.002037914	-0.0394082	3.71146e-09	1.445053e-08	0.01200286	0.00781285	2.755578e-09	6.284057e-09
	3.71146e-09	1.445053e-08	-0.002391703	-0.03929374	9.199118e-09	6.40029e-08	0.01188444	0.007955465
	0.01200286	0.007812849	9.199118e-09	6.40029e-08	-0.002224026	-0.03971239	3.034945e-09	1.590469e-08
	2.755578e-09	6.284057e-09	0.01188444	0.007955465	3.034945e-09	1.590469e-08	-0.002484576	-0.03915391
7e+07	-0.01213638	-0.04026676	3.248801e-09	1.650579e-08	0.01410731	0.006288837	2.00662e-09	6.957633e-09
	3.248801e-09	1.650579e-08	-0.01252803	-0.03995486	9.556138e-09	7.507903e-08	0.01399515	0.006491812
	0.01410731	0.006288836	9.556138e-09	7.507903e-08	-0.01239395	-0.04050805	2.642973e-09	1.850842e-08
	2.00662e-09	6.957633e-09	0.01399515	0.006491812	2.642973e-09	1.850842e-08	-0.0126175	-0.03983512
8e+07	-0.02183218	-0.03816599	2.502596e-09	1.879174e-08	0.01555185	0.004191734	9.219753e-10	7.903454e-09
	2.502596e-09	1.879174e-08	-0.02219961	-0.03765139	1.026968e-08	8.640712e-08	0.01546347	0.004454167
	0.01555185	0.004191733	1.026968e-08	8.640712e-08	-0.02213796	-0.03833242	2.153826e-09	2.130048e-08
	9.219753e-10	7.903454e-09	0.01546347	0.004454167	2.153826e-09	2.130048e-08	-0.02229648	-0.03754385
9e+07	-0.03022983	-0.03343834	1.561987e-09	2.144923e-08	0.01619549	0.0017699	-3.95066e-10	9.275995e-09
	1.561987e-09	2.144923e-08	-0.03051227	-0.03273793	1.143962e-08	9.785483e-08	0.01614792	0.002084166
	0.01619549	0.0017699	1.143962e-08	9.785483e-08	-0.03055939	-0.03352445	1.606378e-09	2.433954e-08
	-3.95066e-10	9.275995e-09	0.01614792	0.002084166	1.606378e-09	2.433954e-08	-0.03062279	-0.03263269
1e+08	-0.03658744	-0.02666502	5.66876e-10	2.462829e-08	0.01598377	-0.0007002453	-1.707373e-09	1.132708e-08
	5.66876e-10	2.462829e-08	-0.03672909	-0.02581635	1.301811e-08	1.092812e-07	0.01599155	-0.00034816
	0.01598377	-0.0007002453	1.301811e-08	1.092812e-07	-0.03691286	-0.02667161	1.063699e-09	2.771215e-08
	-1.707373e-09	1.132708e-08	0.01599155	-0.0003481601	1.063699e-09	2.771215e-08	-0.03685856	-0.02570335
1.1e+08	-0.04048123	-0.0187024	-2.40195e-10	2.821559e-08	0.01495596	-0.002934308	-2.848384e-09	1.372242e-08
	-2.40195e-10	2.821559e-08	-0.04045255	-0.01777706	1.519682e-08	1.204525e-07	0.01502696	-0.002565537
	0.01495596	-0.002934308	1.519682e-08	1.204525e-07	-0.04078787	-0.01865336	7.818091e-10	3.1421e-08
	-2.848384e-09	1.372242e-08	0.01502696	-0.002565537	7.818091e-10	3.1421e-08	-0.04059164	-0.01763195
1.2e+08	-0.04173887	-0.01026787	-7.098932e-10	3.221592e-08	0.01324297	-0.004691788	-3.765596e-09	1.656885e-08
	-7.098932e-10	3.221592e-08	-0.04153948	-0.009323676	1.784604e-08	1.311695e-07	0.01337707	-0.004327643
	0.01324297	-0.004691788	1.784604e-08	1.311695e-07	-0.04202337	-0.01016783	8.327796e-10	3.536232e-08
	-3.765596e-09	1.656885e-08	0.01337707	-0.004327642	8.327796e-10	3.536232e-08	-0.04166864	-0.009147008
1.3e+08	-0.04036694	-0.002209581	-6.682228e-10	3.65176e-08	0.01103666	-0.005783161	-4.262293e-09	1.979213e-08
	-6.682228e-10	3.65176e-08	-0.04001079	-0.00130511	2.081189e-08	1.412845e-07	0.01122678	-0.005445019
	0.01103666	-0.005783161	2.081189e-08	1.412845e-07	-0.04062089	-0.002064638	1.326836e-09	3.942727e-08
	-4.262293e-09	1.979213e-08	0.01122677	-0.005445018	1.326836e-09	3.942727e-08	-0.04011757	-0.001103056
1.4e+08	-0.03665746	0.004687079	4.908419e-12	4.092229e-08	0.008578645	-0.006090157	-4.198245e-09	2.325833e-08
	4.908419e-12	4.092229e-08	-0.03617757	0.005498592	2.388501e-08	1.506973e-07	0.00881029	-0.005796825
	0.008578645	-0.006090157	2.388501e-08	1.506973e-07	-0.03687263	0.004868335	2.321395e-09	4.344325e-08
	-4.198245e-09	2.325833e-08	0.008810289	-0.005796824	2.321395e-09	4.344325e-08	-0.03625382	0.005716269
1.5e+08	-0.03112929	0.009778749	1.341241e-09	4.518638e-08	0.006134272	-0.005577486	-3.478158e-09	2.678976e-08
	1.341241e-09	4.518638e-08	-0.03057635	0.01045626	2.682071e-08	1.593872e-07	0.006386512	-0.00534257
	0.006134272	-0.005577486	2.682071e-08	1.593872e-07	-0.03129926	0.009985358	3.795647e-09	4.721414e-08
	-3.478158e-09	2.678976e-08	0.006386511	-0.00534257	3.795647e-09	4.721414e-08	-0.03061844	0.01067774
1.6e+08	-0.02446824	0.01262383	3.291848e-09	4.907862e-08	0.003965475	-0.004295824	-2.067163e-09	3.015324e-08
	3.291848e-09	4.907862e-08	-0.02390621	0.01314455	2.937e-08	1.674229e-07	0.004212845	-0.004125523
	0.003965475	-0.004295824	2.937e-08	1.674229e-07	-0.02458936	0.01284304	5.665619e-09	5.05737e-08
	-2.067163e-09	3.015324e-08	0.004212845	-0.004125522	5.665619e-09	5.05737e-08	-0.02391522	0.0133575
1.7e+08	-0.01745432	0.0130211	5.70602e-09	5.238752e-08	0.002304033	-0.002376435	-1.943538e-11	3.311361e-08
	5.70602e-09	5.238752e-08	-0.01695395	0.01338482	3.131554e-08	1.749644e-07	0.0025192	-0.002268076
	0.002304033	-0.002376435	3.131554e-08	1.749644e-07	-0.01752644	0.01323927	7.768856e-09	5.338679e-08
	-1.943538e-11	3.311361e-08	0.0025192	-0.002268076	7.768856e-09	5.338679e-08	-0.0169354	0.01357801
1.8e+08	-0.01088178	0.01102431	8.363946e-09	5.497061e-08	0.001327572	-1.77691e-05	2.527048e-09	3.545485e-08
	8.363946e-09	5.497061e-08	-0.01051271	0.01125534	3.250472e-08	1.822461e-07	0.001484439	4.067735e-05
	0.001327572	-1.776909e-05	3.250472e-08	1.822461e-07	-0.01090858	0.01122796	9.900532e-09	5.559014e-08
	2.527048e-09	3.545485e-08	0.001484439	4.067761e-05	9.900532e-09	5.559014e-08	-0.0104759	0.01142004
1.9e+08	-0.005479355	0.006931535	1.101014e-08	5.67725e-08	0.001140679	0.002534967	5.35768e-09	3.701133e-08
	1.101014e-08	5.67725e-08	-0.005301655	0.007077848	3.287433e-08	1.895485e-07	0.00121758	0.002564291
	0.001140679	0.002534967	3.287433e-08	1.895485e-07	-0.005468266	0.007108522	1.18473e-08	5.720107e-08
	5.35768e-09	3.701133e-08	0.00121758	0.002564291	1.18473e-08	5.720107e-08	-0.005258582	0.007208922
2e+08	-0.001838064	0.001250498	1.338783e-08	5.782667e-08	0.001763273	0.005015555	8.200923e-09	3.769608e-08
	1.338783e-08	5.782667e-08	-0.001894312	0.001379941	3.246239e-08	1.971633e-07	0.001745886	0.005043625
	0.001763274	0.005015555	3.246239e-08	1.971633e-07	-0.001799854	0.001391189	1.341884e-08	5.830998e-08
	8.200923e-09	3.769608e-08	0.001745886	0.005043625	1.341884e-08	5.830998e-08	-0.001858302	0.001476612
2.1e+08	-0.0003538162	-0.005356606	1.526672e-08	5.824483e-08	0.003127845	0.007165307	1.075912e-08	3.752068e-08
	1.526672e-08	5.824483e-08	-0.0006626628	-0.005162753	3.140564e-08	2.053562e-07	0.003011454	0.007224439
	0.003127845	0.007165307	3.140564e-08	2.053562e-07	-0.0003017711	-0.005258382	1.446959e-08	5.906161e-08
	1.075912e-08	3.752068e-08	0.003011454	0.007224439	1.446959e-08	5.906161e-08	-0.0006468207	-0.005096685
2.2e+08	-0.001190524	-0.01214325	1.646095e-08	5.820058e-08	0.00508628	0.008761328	1.27462e-08	3.66019e-08
	1.646095e-08	5.820058e-08	-0.001742641	-0.01179875	2.992408e-08	2.143352e-07	0.004877093	0.008884942
	0.00508628	0.008761328	2.992408e-08	2.143352e-07	-0.001139338	-0.0120895	1.490799e-08	5.963297e-08
	1.27462e-08	3.66019e-08	0.004877093	0.008884942	1.490799e-08	5.963297e-08	-0.001758308	-0.0117552
2.3e+08	-0.00426738	-0.01835627	1.683888e-08	5.791382e-08	0.00742584	0.009641165	1.392602e-08	3.515297e-08
	1.683888e-08	5.791382e-08	-0.005024427	-0.01777958	2.829621e-08	2.242264e-07	0.007141142	0.009860083
	0.00742584	0.009641165	2.829621e-08	2.242264e-07	-0.004231841	-0.01834449	1.469581e-08	6.021524e-08
	1.392602e-08	3.515297e-08	0.007141142	0.009860083	1.469581e-08	6.021524e-08	-0.005079812	-0.01774696
2.4e+08	-0.009271354	-0.02331296	1.632969e-08	5.763883e-08	0.009892619	0.009720804	1.414462e-08	3.346069e-08
	1.632969e-08	5.763883e-08	-0.01016828	-0.02243696	2.682928e-08	2.350617e-07	0.009559671	0.01005957
	0.009892619	0.009720804	2.682928e-08	2.350617e-07	-0.009264965	-0.02333626	1.384373e-08	6.100305e-08
	1.414462e-08	3.346069e-08	0.009559671	0.01005957	1.384373e-08	6.100305e-08	-0.01026742	-0.02240141
2.5e+08	-0.0156932	-0.02646966	1.493225e-08	5.765428e-08	0.01221973	0.009003741	1.335131e-08	3.185219e-08
	1.493225e-08	5.765428e-08	-0.01664376	-0.0252503	2.582911e-08	2.467748e-07	0.01187345	0.009477415
	0.01221973	0.009003741	2.582911e-08	2.467748e-07	-0.01572685	-0.02651726	1.241004e-08	6.218949e-08
	1.335131e-08	3.185219e-08	0.01187345	0.009477415	1.241004e-08	6.218949e-08	-0.01678598	-0.02519717
2.6e+08	-0.02288271	-0.02747468	1.263985e-08	5.830155e-08	0.0141568	0.007580039	1.160748e-08	3.065726e-08
	1.263985e-08	5.830155e-08	-0.02378785	-0.02589761	2.553084e-08	2.592268e-07	0.01383641	0.008191834
	0.0141568	0.007580039	2.553084e-08	2.592268e-07	-0.02296364	-0.02753293	1.041675e-08	6.401336e-08
	1.160748e-08	3.065726e-08	0.01383641	0.008191834	1.041675e-08	6.401336e-08	-0.02396762	-0.02581303
2.7e+08	-0.03011711	-0.02620082	9.742228e-09	5.98719e-08	0.0154972	0.00561564	9.075551e-09	3.017142e-08
	9.742228e-09	5.98719e-08	-0.03087517	-0.02428474	2.620446e-08	2.721851e-07	0.01524219	0.006355761
	0.0154972	0.00561564	2.620446e-08	2.721851e-07	-0.03024807	-0.02625431	8.148703e-09	6.66556e-08
	9.075551e-09	3.017142e-08	0.01524219	0.006355761	8.148703e-09	6.66556e-08	-0.03108269	-0.02415729
2.8e+08	-0.03667521	-0.0227545	6.561992e-09	6.256936e-08	0.01609995	0.00333346	6.005916e-09	3.062715e-08
	6.561993e-09	6.256936e-08	-0.03719299	-0.02055121	2.801267e-08	2.853356e-07	0.0159457	0.004179335
	0.01609995	0.00333346	2.801267e-08	2.853356e-07	-0.03685411	-0.02278754	5.886758e-09	7.021479e-08
	6.005916e-09	3.062715e-08	0.0159457	0.004179335	5.886758e-09	7.021479e-08	-0.03741518	-0.02037317
2.9e+08	-0.0419097	-0.01746152	3.487591e-09	6.650024e-08	0.01590388	0.000988728	2.712469e-09	3.217054e-08
	3.487591e-09	6.650024e-08	-0.04211328	-0.01505221	3.101102e-08	2.983188e-07	0.01587754	0.001906692
	0.01590388	0.000988728	3.101102e-08	2.983188e-07	-0.04212971	-0.01745964	3.944082e-09	7.470853e-08
	2.712469e-09	3.217054e-08	0.01587754	0.001906692	3.944082e-09	7.470853e-08	-0.04233511	-0.01482042
3e+08	-0.04531076	-0.01083148	9.54246e-10	7.163102e-08	0.01493298	-0.001158471	-4.555966e-10	3.484667e-08
	9.54246e-10	7.163102e-08	-0.0451546	-0.008319538	3.513959e-08	3.107581e-07	0.01505	-0.0002101439
	0.01493298	-0.001158471	3.513959e-08	3.107581e-07	-0.04556085	-0.01078284	2.653784e-09	8.00417e-08
	-4.555966e-10	3.484667e-08	0.01505	-0.0002101439	2.653784e-09	8.00417e-08	-0.04536072	-0.008035881
3.1e+08	-0.04655493	-0.003504971	-6.11745e-10	7.776473e-08	0.0132928	-0.002870431	-3.143766e-09	3.859249e-08
	-6.11745e-10	7.776473e-08	-0.04602843	-0.001006016	4.021534e-08	3.222969e-07	0.01355459	-0.001937438
	0.0132928	-0.002870431	4.021534e-08	3.222969e-07	-0.04682082	-0.003401537	2.32289e-09	8.599058e-08
	-3.143766e-09	3.859249e-08	0.01355459	-0.001937438	2.32289e-09	8.599058e-08	-0.04620477	-0.0006772258
3.2e+08	-0.04553512	0.003811112	-8.610057e-10	8.454305e-08	0.01115857	-0.00395613	-5.023372e-09	4.323694e-08
	-8.610057e-10	8.454305e-08	-0.04466561	0.006181001	4.593644e-08	3.326397e-07	0.01155161	-0.003083408
	0.01115857	-0.00395613	4.593644e-08	3.326397e-07	-0.0458006	0.003972699	3.176155e-09	9.22095e-08
	-5.023372e-09	4.323694e-08	0.01155161	-0.003083408	3.176155e-09	9.22095e-08	-0.04480093	0.006543959
3.3e+08	-0.0423694	0.01041371	4.12652e-10	9.148031e-08	0.008756717	-0.004290432	-5.823336e-09	4.850887e-08
	4.12652e-10	9.148031e-08	-0.04122124	0.01255043	5.190205e-08	3.415944e-07	0.009253242	-0.003517276
	0.008756717	-0.004290432	5.190205e-08	3.415944e-07	-0.04261776	0.01063172	5.302602e-09	9.826527e-08
	-5.823336e-09	4.850887e-08	0.009253242	-0.003517276	5.302602e-09	9.826527e-08	-0.04130833	0.01293346
3.4e+08	-0.03738794	0.01567276	3.223927e-09	9.802669e-08	0.006341545	-0.003826564	-5.361112e-09	5.405392e-08
	3.223927e-09	9.802669e-08	-0.03605755	0.01749588	5.764884e-08	3.491081e-07	0.006901813	-0.003182149
	0.006341545	-0.003826564	5.764884e-08	3.491081e-07	-0.0376036	0.01594037	8.619802e-09	1.036969e-07
	-5.361112e-09	5.405392e-08	0.006901813	-0.003182149	8.619802e-09	1.036969e-07	-0.03609406	0.0178832
3.5e+08	-0.03109963	0.01909277	7.378893e-09	1.036495e-07	0.004169307	-0.002600888	-3.57009e-09	5.946191e-08
	7.378893e-09	1.036495e-07	-0.0297069	0.02055533	6.270174e-08	3.552886e-07	0.00474527	-0.002100684
	0.004169307	-0.002600888	6.270174e-08	3.552886e-07	-0.03126963	0.01939862	1.286786e-08	1.080896e-07
	-3.57009e-09	5.946191e-08	0.00474527	-0.002100684	1.286786e-08	1.080896e-07	-0.02969567	0.02093112
3.6e+08	-0.02414153	0.02036132	1.24951e-08	1.079161e-07	0.002472018	-0.0007295414	-5.191678e-10	6.430472e-08
	1.24951e-08	1.079161e-07	-0.02281824	0.02145647	6.663267e-08	3.604061e-07	0.003012013	-0.0003730487
	0.002472018	-0.0007295414	6.663267e-08	3.604061e-07	-0.02425686	0.02069042	1.763802e-08	1.111465e-07
	-5.191678e-10	6.430472e-08	0.003012013	-0.0003730487	1.763802e-08	1.111465e-07	-0.0227671	0.0218065
3.7e+08	-0.01721578	0.01937961	1.805539e-08	1.105599e-07	0.001433356	0.001602861	3.580511e-09	6.818261e-08
	1.805539e-08	1.105599e-07	-0.01609229	0.02014331	6.911805e-08	3.648711e-07	0.001887378	0.001832786
	0.001433356	0.001602861	6.911805e-08	3.648711e-07	-0.01727236	0.0197147	2.243137e-08	1.127421e-07
	3.580511e-09	6.818261e-08	0.001887378	0.001832786	2.243137e-08	1.127421e-07	-0.01601331	0.0204565
3.8e+08	-0.01102012	0.01627208	2.348333e-08	1.115165e-07	0.001169008	0.004161657	8.386025e-09	7.077416e-08
	2.348333e-08	1.115165e-07	-0.01021151	0.01678144	6.998518e-08	3.691914e-07	0.001494018	0.004297755
	0.001169008	0.004161657	6.998518e-08	3.691914e-07	-0.01101936	0.01659523	2.673479e-08	1.129435e-07
	8.386025e-09	7.077416e-08	0.001494018	0.004297755	2.673479e-08	1.129435e-07	-0.01011981	0.01705109
3.9e+08	-0.006178591	0.01137411	2.82234e-08	1.109251e-07	0.001713595	0.006686153	1.34524e-08	7.188232e-08
	2.82234e-08	1.109251e-07	-0.005771775	0.01174117	6.923963e-08	3.739149e-07	0.00187832	0.006774045
	0.001713595	0.006686153	6.923963e-08	3.739149e-07	-0.006127415	0.01166843	3.009689e-08	1.11997e-07
	1.34524e-08	7.188232e-08	0.00187832	0.006774045	3.009689e-08	1.11997e-07	-0.005684018	0.01196575
4e+08	-0.003179438	0.00519847	3.180917e-08	1.090976e-07	0.003015847	0.008917006	1.827987e-08	7.146827e-08
	3.180917e-08	1.090976e-07	-0.003222721	0.005560081	6.706924e-08	3.795649e-07	0.003004552	0.009011026
	0.003015847	0.008917006	6.706924e-08	3.795649e-07	-0.003089809	0.00544982	3.218728e-08	1.102852e-07
	1.827987e-08	7.146827e-08	0.003004552	0.009011026	3.218728e-08	1.102852e-07	-0.003155349	0.005743523
4.1e+08	-0.002326534	-0.001615933	3.390889e-08	1.064695e-07	0.004942941	0.01062413	2.237294e-08	6.966566e-08
	3.390889e-08	1.064695e-07	-0.002822733	-0.001111356	6.382517e-08	3.865808e-07	0.004757765	0.01078208
	0.004942941	0.01062413	6.382517e-08	3.865808e-07	-0.002214397	-0.00141744	3.282922e-08	1.082679e-07
	2.237294e-08	6.966566e-08	0.004757765	0.01078208	3.282922e-08	1.082679e-07	-0.002790232	-0.0009599644
4.2e+08	-0.003709347	-0.008368079	3.434566e-08	1.035445e-07	0.007293942	0.011632	2.530195e-08	6.67713e-08
	3.434566e-08	1.035445e-07	-0.004613473	-0.007575637	5.998431e-08	3.952696e-07	0.006955467	0.01190931
	0.007293942	0.011632	5.998431e-08	3.952696e-07	-0.003593161	-0.008226988	3.200405e-08	1.064223e-07
	2.530195e-08	6.67713e-08	0.006955467	0.01190931	3.200405e-08	1.064223e-07	-0.004626782	-0.007442897
4.3e+08	-0.007194597	-0.01436501	3.309796e-08	1.008461e-07	0.009821083	0.01183934	2.675704e-08	6.321281e-08
	3.309796e-08	1.008461e-07	-0.00841651	-0.01315866	5.609982e-08	4.057751e-07	0.009367027	0.01228323
	0.009821083	0.01183934	5.609982e-08	4.057751e-07	-0.007093559	-0.01427992	2.983478e-08	1.051949e-07
	2.675704e-08	6.321281e-08	0.009367027	0.01228323	2.983478e-08	1.051949e-07	-0.008481772	-0.01302818
4.4e+08	-0.01244042	-0.01899091	3.029004e-08	9.88802e-08	0.01225658	0.01123062	2.65858e-08	5.949901e-08
	3.029004e-08	9.88802e-08	-0.01385238	-0.01727738	5.274689e-08	4.180636e-07	0.01173863	0.01187482
	0.01225658	0.01123062	5.274689e-08	4.180636e-07	-0.01237256	-0.01895444	2.65604e-08	1.049698e-07
	2.65858e-08	5.949901e-08	0.01173863	0.01187482	2.65604e-08	1.049698e-07	-0.01397018	-0.0171315
4.5e+08	-0.01893141	-0.02176791	2.618107e-08	9.810549e-08	0.01434182	0.009878	2.48095e-08	5.616144e-08
	2.618107e-08	9.810549e-08	-0.02037987	-0.01949779	5.046973e-08	4.319276e-07	0.01382089	0.01073869
	0.01434182	0.009878	5.046973e-08	4.319276e-07	-0.01891175	-0.02176733	2.251165e-08	1.060518e-07
	2.48095e-08	5.616144e-08	0.01382089	0.01073869	2.251165e-08	1.060518e-07	-0.02054506	-0.01931937
4.6e+08	-0.0260307	-0.02240273	2.115643e-08	9.890624e-08	0.01585553	0.007933393	2.161797e-08	5.369632e-08
	2.115643e-08	9.890624e-08	-0.02735129	-0.0195772	4.973311e-08	4.470014e-07	0.01539577	0.009006777
	0.01585553	0.007933393	4.973311e-08	4.470014e-07	-0.02606969	-0.02242108	1.809331e-08	1.086533e-07
	2.161797e-08	5.369632e-08	0.01539577	0.009006777	1.809331e-08	1.086533e-07	-0.02755346	-0.01935156
4.7e+08	-0.0330436	-0.02081432	1.571736e-08	1.015586e-07	0.01663746	0.005611735	1.734617e-08	5.251468e-08
	1.571736e-08	1.015586e-07	-0.03407771	-0.01748695	5.088034e-08	4.627882e-07	0.01629977	0.006873634
	0.01663746	0.005611735	5.088034e-08	4.627882e-07	-0.03314593	-0.02083205	1.377026e-08	1.128791e-07
	1.734617e-08	5.251468e-08	0.01629977	0.006873634	1.377026e-08	1.128791e-07	-0.03430214	-0.01720334
4.8e+08	-0.03928611	-0.01714044	1.045998e-08	1.061897e-07	0.01660514	0.003167596	1.243893e-08	5.290476e-08
	1.045998e-08	1.061897e-07	-0.03989753	-0.01341353	5.4098e-08	4.786962e-07	0.01644069	0.004575185
	0.01660514	0.003167596	5.4098e-08	4.786962e-07	-0.03945023	-0.01713733	1.004896e-08	1.187024e-07
