!$
! Info: Touchstone file created by Circ.  Input file=Tx_16in_Rx_100ohms_TxVia_60mils_RxVia_70mils.circ
!$
# Hz S RI R 50
0	0.01650304	2.040836e-25	1.320073e-09	2.562177e-27	0.0001042629	3.263229e-23	1.189534e-09	1.108287e-27
	1.32008e-09	2.56218e-27	0.01649821	2.420484e-25	9.061455e-10	3.6988e-27	0.0001044699	4.030028e-23
	0.0001052412	3.320431e-23	9.061346e-10	3.698771e-27	0.01651661	1.953045e-25	-3.234862e-09	4.449847e-25
	1.189532e-09	1.108172e-27	0.0001047391	4.04731e-23	-3.23446e-09	4.449355e-25	0.01651242	2.410115e-25
1e+07	0.02322849	0.009334723	3.002202e-09	2.977852e-09	0.0006369073	0.002827412	3.757035e-09	2.94915e-08
	3.002202e-09	2.977852e-09	0.02477953	0.008831406	1.929414e-09	2.280957e-09	0.001191073	0.002864864
	0.0006369165	0.002827378	1.929414e-09	2.280957e-09	0.02408424	0.008842713	-2.6667e-09	1.800141e-08
	3.757035e-09	2.94915e-08	0.001191076	0.002864862	-2.666701e-09	1.800141e-08	0.02455679	0.008879072
2e+07	0.0320605	0.01183873	5.977896e-09	4.31917e-09	0.001982728	0.005382926	2.106319e-08	1.570355e-08
	5.977896e-09	4.31917e-09	0.03267755	0.01059708	3.763064e-09	3.65097e-09	0.002371989	0.005691945
	0.0019827	0.005382924	3.763064e-09	3.65097e-09	0.03216282	0.01085897	-1.406829e-09	7.28484e-09
	2.106319e-08	1.570355e-08	0.002371986	0.005691944	-1.406828e-09	7.28484e-09	0.0325466	0.01075366
3e+07	0.03917396	0.009939988	9.453345e-09	3.370699e-09	0.004015957	0.007302479	3.293541e-08	1.054278e-08
	9.453345e-09	3.370699e-09	0.03906435	0.008679713	5.644564e-09	3.857637e-09	0.004293624	0.007712739
	0.004015954	0.007302483	5.644564e-09	3.857637e-09	0.03872906	0.009006658	9.540236e-09	3.563339e-09
	3.293541e-08	1.054278e-08	0.004293623	0.00771274	9.540236e-09	3.563339e-09	0.03901148	0.008866785
4e+07	0.04463741	0.005647037	1.260414e-08	7.648428e-10	0.006504225	0.008446662	4.359284e-08	7.755216e-10
	1.260414e-08	7.648428e-10	0.04397155	0.004634663	7.536421e-09	3.06384e-09	0.006737093	0.008907332
	0.006504225	0.008446658	7.536421e-09	3.06384e-09	0.04381112	0.004946453	1.350358e-08	8.959111e-10
	4.359284e-08	7.755216e-10	0.006737093	0.008907333	1.350358e-08	8.959112e-10	0.04398538	0.004822001
5e+07	0.04823206	-0.0002302977	1.475088e-08	-3.49882e-09	0.009174314	0.008726268	5.074495e-08	-1.425524e-08
	1.475088e-08	-3.49882e-09	0.04718582	-0.0008436946	8.882634e-09	1.350373e-09	0.009544467	0.009041704
	0.009174311	0.008726266	8.882634e-09	1.350373e-09	0.0471834	-0.0006084934	1.567363e-08	-3.589397e-09
	5.074495e-08	-1.425524e-08	0.009544468	0.009041705	1.567363e-08	-3.589397e-09	0.04725236	-0.0006751439
6e+07	0.04978325	-0.007012418	1.517779e-08	-8.992067e-09	0.01174109	0.008139257	5.196666e-08	-3.330821e-08
	1.517779e-08	-8.992067e-09	0.04854048	-0.007149936	9.301522e-09	-1.0601e-09	0.01216982	0.008298507
	0.0117411	0.008139261	9.301522e-09	-1.0601e-09	0.04866073	-0.007041538	1.601596e-08	-9.275265e-09
	5.196666e-08	-3.330821e-08	0.01216982	0.008298507	1.601596e-08	-9.275265e-09	0.04864413	-0.007011958
7e+07	0.04923356	-0.01405245	1.336137e-08	-1.497986e-08	0.01394416	0.006753486	4.549084e-08	-5.394028e-08
	1.336137e-08	-1.497986e-08	0.04797315	-0.01370146	8.506584e-09	-3.777746e-09	0.01435716	0.00678799
	0.01394417	0.006753491	8.506584e-09	-3.777746e-09	0.04816772	-0.01375332	1.411978e-08	-1.547288e-08
	4.549084e-08	-5.394028e-08	0.01435716	0.00678799	1.411978e-08	-1.547288e-08	0.04809769	-0.01359979
8e+07	0.04666908	-0.02073717	9.098714e-09	-2.053114e-08	0.01554327	0.004750492	3.063707e-08	-7.299807e-08
	9.098714e-09	-2.053114e-08	0.04555233	-0.01993997	6.37343e-09	-6.303415e-09	0.01589567	0.004692029
	0.01554328	0.004750494	6.37343e-09	-6.303415e-09	0.04576616	-0.02016609	9.74823e-09	-2.131788e-08
	3.063707e-08	-7.299807e-08	0.01589567	0.004692029	9.748229e-09	-2.131788e-08	0.04568206	-0.01987484
9e+07	0.04231992	-0.02651461	2.575496e-09	-2.468211e-08	0.0163771	0.002364342	8.023995e-09	-8.712928e-08
	2.575496e-09	-2.468211e-08	0.04148228	-0.02535805	2.985959e-09	-8.106506e-09	0.0166402	0.002247612
	0.01637711	0.002364341	2.985959e-09	-8.106506e-09	0.04165966	-0.02575225	2.9838e-09	-2.586425e-08
	8.023995e-09	-8.712928e-08	0.0166402	0.002247613	2.983799e-09	-2.586425e-08	0.04160323	-0.02532491
1e+08	0.03653765	-0.03092645	-5.652033e-09	-2.657446e-08	0.01637394	-0.0001390132	-2.041802e-08	-9.331794e-08
	-5.652033e-09	-2.657446e-08	0.03610722	-0.02953318	-1.372709e-09	-8.687957e-09	0.0165185	-0.0002755389
	0.01637394	-0.0001390133	-1.372709e-09	-8.687957e-09	0.03619605	-0.0300702	-5.748618e-09	-2.819242e-08
	-2.041802e-08	-9.331794e-08	0.0165185	-0.000275539	-5.748618e-09	-2.819242e-08	0.03620646	-0.02952351
1.1e+08	0.02982233	-0.03359841	-1.475593e-08	-2.572994e-08	0.01552763	-0.002504633	-5.171313e-08	-8.995057e-08
	-1.475593e-08	-2.572994e-08	0.02978327	-0.03223584	-6.203152e-09	-7.754574e-09	0.01558331	-0.002564689
	0.01552763	-0.002504633	-6.203152e-09	-7.754574e-09	0.02974871	-0.03286228	-1.541925e-08	-2.731305e-08
	-5.171313e-08	-8.995057e-08	0.0155833	-0.002564689	-1.541925e-08	-2.731305e-08	0.0298587	-0.03223054
1.2e+08	0.02272055	-0.03441405	-2.382992e-08	-2.160979e-08	0.01393105	-0.004440446	-8.255264e-08	-7.546191e-08
	-2.382992e-08	-2.160979e-08	0.02296551	-0.03315616	-1.103085e-08	-5.143217e-09	0.01395999	-0.004425637
	0.01393105	-0.004440447	-1.103085e-08	-5.143217e-09	0.02279708	-0.03382245	-2.499081e-08	-2.296058e-08
	-8.255264e-08	-7.546191e-08	0.01395999	-0.004425636	-2.499081e-08	-2.296058e-08	0.02302181	-0.03314865
1.3e+08	0.01576057	-0.03335393	-3.163552e-08	-1.423331e-08	0.01177419	-0.005734511	-1.088355e-07	-5.006312e-08
	-3.163552e-08	-1.423331e-08	0.01621481	-0.03225313	-1.520098e-08	-7.787694e-10	0.01180947	-0.005660335
	0.01177419	-0.005734511	-1.520098e-08	-7.787694e-10	0.01591702	-0.03290701	-3.321858e-08	-1.517648e-08
	-1.088355e-07	-5.006312e-08	0.01180947	-0.005660334	-3.321858e-08	-1.517648e-08	0.01625537	-0.03223799
1.4e+08	0.009460555	-0.03055215	-3.700751e-08	-4.051666e-09	0.009297442	-0.006245926	-1.266984e-07	-1.536496e-08
	-3.700751e-08	-4.051666e-09	0.01005005	-0.0296428	-1.808738e-08	5.099709e-09	0.009357091	-0.00613483
	0.009297442	-0.006245926	-1.808738e-08	5.099709e-09	0.009645571	-0.03023522	-3.887481e-08	-4.438596e-09
	-1.266984e-07	-1.536496e-08	0.00935709	-0.006134829	-3.887481e-08	-4.438596e-09	0.01007898	-0.02961589
1.5e+08	0.004275416	-0.0262846	-3.895533e-08	8.069018e-09	0.006771344	-0.00591839	-1.32897e-07	2.566369e-08
	-3.895533e-08	8.069018e-09	0.004925	-0.02558252	-1.915859e-08	1.203299e-08	0.006860166	-0.005794721
	0.006771343	-0.00591839	-1.915859e-08	1.203299e-08	0.004453352	-0.026074	-4.091652e-08	8.338522e-09
	-1.32897e-07	2.566369e-08	0.006860165	-0.00579472	-4.091652e-08	8.338522e-09	0.004947081	-0.02554121
1.6e+08	0.0005578339	-0.02094381	-3.681195e-08	2.091882e-08	0.004468364	-0.004785203	-1.252807e-07	6.894543e-08
	-3.681195e-08	2.091882e-08	0.001193438	-0.02044553	-1.805518e-08	1.938036e-08	0.004579711	-0.004670817
	0.004468364	-0.004785203	-1.805518e-08	1.938036e-08	0.000707239	-0.0208119	-3.864243e-08	2.187827e-08
	-1.252807e-07	6.894543e-08	0.00457971	-0.004670817	-3.864243e-08	2.187827e-08	0.00121373	-0.02038885
1.7e+08	-0.001470895	-0.01500353	-3.035206e-08	3.306959e-08	0.002634323	-0.002964789	-1.031633e-07	1.097085e-07
	-3.035206e-08	3.306959e-08	-0.0009182905	-0.01468632	-1.465028e-08	2.63858e-08	0.002752624	-0.002875466
	0.002634323	-0.002964789	-1.465028e-08	2.63858e-08	-0.001359034	-0.01492283	-3.181733e-08	3.467461e-08
	-1.031633e-07	1.097085e-07	0.002752624	-0.002875466	-3.181733e-08	3.467461e-08	-0.0008949287	-0.01461498
1.8e+08	-0.001738038	-0.008976338	-1.985913e-08	4.304073e-08	0.001462796	-0.0006472228	-6.753364e-08	1.430227e-07
	-1.985913e-08	4.304073e-08	-0.001327773	-0.008799508	-9.083797e-09	3.226383e-08	0.001566864	-0.0005901549
	0.001462796	-0.0006472228	-9.083797e-09	3.226383e-08	-0.001662651	-0.008922858	-2.074247e-08	4.516704e-08
	-6.753364e-08	1.430227e-07	0.001566864	-0.0005901546	-2.074247e-08	4.516704e-08	-0.001297172	-0.008715717
1.9e+08	-0.0003232109	-0.00336823	-6.124053e-09	4.948402e-08	0.001075349	0.001926675	-2.106654e-08	1.643926e-07
	-6.124053e-09	4.948402e-08	-0.0001003057	-0.003275868	-1.76292e-09	3.629435e-08	0.001142171	0.00195411
	0.001075349	0.001926675	-1.76292e-09	3.629435e-08	-0.0002759629	-0.003323753	-6.254192e-09	5.193543e-08
	-2.106654e-08	1.643926e-07	0.001142171	0.00195411	-6.254192e-09	5.193543e-08	-5.941137e-05	-0.003183035
2e+08	0.002551512	0.001365663	9.610654e-09	5.135468e-08	0.001509669	0.004491275	3.207818e-08	1.703333e-07
	9.610654e-09	5.135468e-08	0.002560351	0.001440467	6.665896e-09	3.791202e-08	0.001518265	0.004501377
	0.001509668	0.004491275	6.665896e-09	3.791202e-08	0.002583168	0.001412389	1.033585e-08	5.388067e-08
	3.207818e-08	1.703333e-07	0.001518265	0.004501377	1.033585e-08	5.388067e-08	0.002613179	0.001538179
2.1e+08	0.0065441	0.004860138	2.57764e-08	4.806192e-08	0.002716668	0.006784255	8.665094e-08	1.588509e-07
	2.57764e-08	4.806192e-08	0.006333292	0.004989803	1.537882e-08	3.678504e-08	0.002651599	0.006797553
	0.002716668	0.006784255	1.537882e-08	3.678504e-08	0.006573954	0.004913245	2.737331e-08	5.038284e-08
	8.665094e-08	1.588509e-07	0.002651599	0.006797553	2.737331e-08	5.038284e-08	0.006398136	0.005087992
2.2e+08	0.01122544	0.006870254	4.065307e-08	3.956064e-08	0.004566663	0.008573865	1.368569e-07	1.297647e-07
	4.065307e-08	3.956064e-08	0.01081169	0.007126362	2.346236e-08	3.28663e-08	0.00442077	0.008616576
	0.004566663	0.008573865	2.346236e-08	3.28663e-08	0.01126591	0.006927521	4.304503e-08	4.139749e-08
	1.368569e-07	1.297647e-07	0.00442077	0.008616576	4.304503e-08	4.139749e-08	0.01088711	0.007220911
2.3e+08	0.01611937	0.007290318	5.255552e-08	2.637883e-08	0.006863721	0.009682586	1.769854e-07	8.482926e-08
	5.255552e-08	2.637883e-08	0.01554094	0.007736948	3.001025e-08	2.641321e-08	0.006639817	0.009783275
	0.006863721	0.009682586	3.001025e-08	2.641321e-08	0.01617951	0.00734467	5.5576e-08	2.748429e-08
	1.769854e-07	8.482926e-08	0.006639817	0.009783275	5.5576e-08	2.748429e-08	0.01562414	0.007824511
2.4e+08	0.02074617	0.00616003	6.002078e-08	9.582269e-09	0.00936653	0.01000486	2.020498e-07	2.763966e-08
	6.002078e-08	9.582269e-09	0.02006003	0.006847384	3.422347e-08	1.797501e-08	0.009077822	0.01019073
	0.00936653	0.01000486	3.422347e-08	1.797501e-08	0.02083038	0.00620149	6.342658e-08	9.769153e-09
	2.020498e-07	2.763966e-08	0.009077822	0.01019073	6.342658e-08	9.769153e-09	0.02014724	0.006925783
2.5e+08	0.0246654	0.003657533	6.197288e-08	-9.318731e-09	0.01181355	0.009517293	2.083676e-07	-3.66689e-08
	6.197288e-08	-9.318731e-09	0.02394256	0.004616537	3.550181e-08	8.34853e-09	0.01148276	0.009810519
	0.01181355	0.009517293	3.550181e-08	8.34853e-09	0.02477298	0.003675373	6.546606e-08	-1.015439e-08
	2.083676e-07	-3.66689e-08	0.01148276	0.009810519	6.546606e-08	-1.015439e-08	0.02402946	0.004685014
2.6e+08	0.02751444	8.025916e-05	5.784994e-08	-2.850851e-08	0.01394987	0.008280528	1.940166e-07	-1.018943e-07
	5.784994e-08	-2.850851e-08	0.0268336	0.001318697	3.351787e-08	-1.493338e-09	0.01360717	0.008695067
	0.01394987	0.008280528	3.351787e-08	-1.493338e-09	0.02763992	6.503891e-05	6.110617e-08	-3.037235e-08
	1.940166e-07	-1.018943e-07	0.01360717	0.008695067	6.110617e-08	-3.037235e-08	0.02691585	0.001378018
2.7e+08	0.0290393	-0.004184462	4.768331e-08	-4.603723e-08	0.01555325	0.00643265	1.591241e-07	-1.613662e-07
	4.768331e-08	-4.603723e-08	0.02847952	-0.002683773	2.826609e-08	-1.049389e-08	0.01523312	0.00697191
	0.01555325	0.00643265	2.826609e-08	-1.049389e-08	0.02917349	-0.004239187	5.038391e-08	-4.883078e-08
	1.591241e-07	-1.613662e-07	0.01523312	0.00697191	5.038391e-08	-4.883078e-08	0.02855322	-0.002631394
2.8e+08	0.02911524	-0.008696278	3.212316e-08	-6.000916e-08	0.01645668	0.004174941	1.059579e-07	-2.086128e-07
	3.212316e-08	-6.000916e-08	0.02874806	-0.00697497	2.008183e-08	-1.761758e-08	0.01619419	0.004830588
	0.01645668	0.004174941	2.008183e-08	-1.761758e-08	0.02924672	-0.008792778	3.398803e-08	-6.353426e-08
	1.059579e-07	-2.086128e-07	0.01619419	0.004830588	3.398803e-08	-6.353426e-08	0.02881027	-0.006926091
2.9e+08	0.02775546	-0.01300283	1.240799e-08	-6.877392e-08	0.01656547	0.001751306	3.880827e-08	-2.380362e-07
	1.240799e-08	-6.877392e-08	0.02763751	-0.01112403	9.62703e-09	-2.19587e-08	0.01639226	0.002503385
	0.01656547	0.001751306	9.62703e-09	-2.19587e-08	0.02787239	-0.01313868	1.32264e-08	-7.274713e-08
	3.880827e-08	-2.380362e-07	0.01639226	0.002503385	1.32264e-08	-7.274713e-08	0.02768655	-0.01107437
3e+08	0.0251074	-0.01668127	-9.722169e-09	-7.110583e-08	0.01586711	-0.0005766379	-3.633618e-08	-2.455343e-07
	-9.722169e-09	-7.110583e-08	0.02527392	-0.01472437	-2.157887e-09	-2.284359e-08	0.01580752	0.0002417769
	0.01586711	-0.0005766379	-2.157887e-09	-2.284359e-08	0.02519932	-0.01684953	-1.006583e-08	-7.518226e-08
	-3.633618e-08	-2.455343e-07	0.01580752	0.0002417769	-1.006583e-08	-7.518226e-08	0.02530965	-0.01466926
3.1e+08	0.02143681	-0.01937662	-3.216648e-08	-6.635627e-08	0.01443283	-0.002556403	-1.122999e-07	-2.290103e-07
	-3.216648e-08	-6.635627e-08	0.02189714	-0.01743012	-1.413419e-08	-1.991616e-08	0.01450068	-0.001709169
	0.01443283	-0.002556403	-1.413419e-08	-1.991616e-08	0.02149635	-0.01956663	-3.367481e-08	-7.016117e-08
	-1.122999e-07	-2.290103e-07	0.01450068	-0.001709169	-3.367481e-08	-7.016117e-08	0.02192097	-0.01736504
3.2e+08	0.01710137	-0.02083355	-5.265173e-08	-5.456226e-08	0.01241065	-0.003970753	-1.813849e-07	-1.887139e-07
	-5.265173e-08	-5.456226e-08	0.01783665	-0.01898667	-2.507165e-08	-1.31965e-08	0.01260704	-0.003135913
	0.01241065	-0.003970753	-2.507165e-08	-1.31965e-08	0.01712539	-0.0210323	-5.520671e-08	-5.772799e-08
	-1.813849e-07	-1.887139e-07	0.01260704	-0.003135913	-5.520671e-08	-5.772799e-08	0.01785146	-0.01890774
3.3e+08	0.01251592	-0.02091877	-6.895631e-08	-3.649469e-08	0.01001045	-0.004660431	-2.361357e-07	-1.273664e-07
	-6.895631e-08	-3.649469e-08	0.01347966	-0.0192525	-3.377328e-08	-3.103552e-09	0.01032286	-0.003878548
	0.01001045	-0.004660431	-3.377328e-08	-3.103552e-09	0.01250623	-0.02111261	-7.232396e-08	-3.869985e-08
	-2.361357e-07	-1.273664e-07	0.01032286	-0.003878548	-7.232396e-08	-3.869985e-08	0.01348948	-0.01915697
3.4e+08	0.008112775	-0.01963187	-7.915076e-08	-1.363234e-08	0.007482452	-0.004541081	-2.701373e-07	-5.003527e-08
	-7.915076e-08	-1.363234e-08	0.009234134	-0.01821043	-3.920597e-08	9.563999e-09	0.007885319	-0.00384755
	0.007482452	-0.004541081	-3.920597e-08	9.563999e-09	0.008076092	-0.01980831	-8.299857e-08	-1.463879e-08
	-2.701373e-07	-5.003527e-08	0.007885319	-0.00384755	-8.299857e-08	-1.463879e-08	0.009243761	-0.01809699
3.5e+08	0.004300604	-0.01710363	-8.182857e-08	1.194599e-08	0.005091282	-0.003612456	-2.787605e-07	3.625229e-08
	-8.182857e-08	1.194599e-08	0.005490355	-0.01596723	-4.062226e-08	2.369065e-08	0.005548104	-0.003033333
	0.005091282	-0.003612456	-4.062226e-08	2.369065e-08	0.004247931	-0.01725311	-8.575532e-08	1.226257e-08
	-2.787605e-07	3.625229e-08	0.005548104	-0.003033333	-8.575532e-08	1.226257e-08	0.005504816	-0.01583622
3.6e+08	0.001425839	-0.01358193	-7.629755e-08	3.774833e-08	0.003088304	-0.001958835	-2.597616e-07	1.231374e-07
	-7.629755e-08	3.774833e-08	0.002584487	-0.0127416	-3.765821e-08	3.79473e-08	0.003555036	-0.001507492
	0.003088304	-0.001958835	-3.765821e-08	3.79473e-08	0.001371213	-0.01369922	-7.987054e-08	3.937781e-08
	-2.597616e-07	1.231374e-07	0.003555036	-0.001507492	-7.987054e-08	3.937781e-08	0.002608497	-0.01259499
3.7e+08	-0.0002596218	-0.00940655	-6.270188e-08	6.11204e-08	0.001685221	0.0002595145	-2.136786e-07	2.017542e-07
	-6.270188e-08	6.11204e-08	0.0007676799	-0.008841682	-3.039271e-08	5.092349e-08	0.002114681	0.0005844921
	0.001685221	0.0002595145	-3.039271e-08	5.092349e-08	-0.0003007825	-0.009491651	-6.550679e-08	6.391246e-08
	-2.136786e-07	2.017542e-07	0.002114681	0.0005844921	-6.550679e-08	6.391246e-08	0.0008051047	-0.008682929
3.8e+08	-0.0006213515	-0.004975412	-4.205259e-08	7.953246e-08	0.001031788	0.002822957	-1.439068e-07	2.636624e-07
	-4.205259e-08	7.953246e-08	0.0001836367	-0.004634459	-1.936046e-08	6.127823e-08	0.001378603	0.003038336
	0.001031788	0.002822957	-1.936046e-08	6.127823e-08	-0.0006341549	-0.005033805	-4.373769e-08	8.320796e-08
	-1.439068e-07	2.636624e-07	0.001378603	0.003038336	-4.373769e-08	8.320796e-08	0.0002370415	-0.004468144
3.9e+08	0.0003462605	-0.0007055419	-1.615597e-08	9.086671e-08	0.001200071	0.005475405	-5.647056e-08	3.017752e-07
	-1.615597e-08	9.086671e-08	0.0008567469	-0.0005098394	-5.512662e-09	6.788724e-08	0.001425636	0.005612219
	0.001200071	0.005475405	-5.512662e-09	6.788724e-08	0.0003742809	-0.0007477971	-1.647167e-08	9.504296e-08
	-5.647056e-08	3.017752e-07	0.001425636	0.005612219	-1.647167e-08	9.504296e-08	0.0009270817	-0.0003411972
4e+08	0.002521254	0.003007317	1.255516e-08	9.366694e-08	0.002176934	0.007951026	4.05112e-08	3.111786e-07
	1.255516e-08	9.366694e-08	0.002691821	0.003156804	9.869942e-09	6.997089e-08	0.002253828	0.008051908
	0.002176934	0.007951026	9.869942e-09	6.997089e-08	0.002598475	0.002966577	1.372666e-08	9.789536e-08
	4.05112e-08	3.111786e-07	0.002253828	0.008051908	1.372666e-08	9.789536e-08	0.002778276	0.003322451
4.1e+08	0.00566766	0.005826453	4.126721e-08	8.73172e-08	0.003865477	0.01000186	1.376144e-07	2.897342e-07
	4.126721e-08	8.73172e-08	0.005485261	0.006040084	2.530221e-08	6.718703e-08	0.003780845	0.01011704
	0.003865477	0.01000186	2.530221e-08	6.718703e-08	0.005797132	0.005770125	4.38964e-08	9.112878e-08
	1.376144e-07	2.897342e-07	0.003780845	0.01011704	4.38964e-08	9.112878e-08	0.005585313	0.006197901
4.2e+08	0.009459836	0.00750566	6.70776e-08	7.212727e-08	0.006095172	0.01142342	2.250614e-07	2.383922e-07
	6.70776e-08	7.212727e-08	0.008946355	0.007894589	3.924351e-08	5.967827e-08	0.005852682	0.01160576
	0.006095172	0.01142342	3.924351e-08	5.967827e-08	0.009638637	0.007416075	7.098778e-08	7.508055e-08
	2.250614e-07	2.383922e-07	0.005852682	0.01160576	7.098778e-08	7.508055e-08	0.009056001	0.008040772
4.3e+08	0.01351501	0.007911511	8.729645e-08	4.931683e-08	0.008639504	0.01207563	2.93728e-07	1.611764e-07
	8.729645e-08	4.931683e-08	0.01272642	0.008576692	5.025388e-08	4.806916e-08	0.008259639	0.01237526
	0.008639504	0.01207563	5.025388e-08	4.806916e-08	0.01373428	0.00777248	9.217916e-08	5.104307e-08
	2.93728e-07	1.611764e-07	0.008259639	0.01237526	9.217916e-08	5.104307e-08	0.01284058	0.008708907
4.4e+08	0.01743074	0.007034463	9.972384e-08	2.090414e-08	0.0112392	0.01189708	3.360924e-07	6.484782e-08
	9.972384e-08	2.090414e-08	0.01645283	0.008056295	5.714112e-08	3.341462e-08	0.01075782	0.0123561
	0.0112392	0.01189708	5.714112e-08	3.341462e-08	0.01767638	0.00683323	1.051674e-07	2.114506e-08
	3.360924e-07	6.484782e-08	0.01075782	0.0123561	1.051674e-07	2.114506e-08	0.01656586	0.008173962
4.5e+08	0.02082359	0.004988026	1.028748e-07	-1.048408e-08	0.01362865	0.01091125	3.470285e-07	-4.171457e-08
	1.028748e-07	-1.048408e-08	0.01976458	0.006417661	5.908481e-08	1.710566e-08	0.0130939	0.01155909
	0.01362865	0.01091125	5.908481e-08	1.710566e-08	0.02107763	0.004716893	1.084029e-07	-1.184929e-08
	3.470285e-07	-4.171457e-08	0.0130939	0.01155909	1.084029e-07	-1.184929e-08	0.0198709	0.006522064
4.6e+08	0.02336541	0.001996288	9.613398e-08	-4.18589e-08	0.01556277	0.009224133	3.24368e-07	-1.483461e-07
	9.613398e-08	-4.18589e-08	0.02234612	0.003849542	5.572605e-08	7.419798e-10	0.0150307	0.0100741
	0.01556277	0.009224133	5.572605e-08	7.419798e-10	0.02360781	0.001653739	1.012499e-07	-4.479936e-08
	3.24368e-07	-1.483461e-07	0.0150307	0.0100741	1.012499e-07	-4.479936e-08	0.02244077	0.003943739
4.7e+08	0.02481386	-0.001628828	7.97958e-08	-7.014248e-08	0.01684192	0.007013761	2.691118e-07	-2.445067e-07
	7.97958e-08	-7.014248e-08	0.0239563	0.0006257634	4.721489e-08	-1.401309e-08	0.01637106	0.008061027
	0.01684192	0.007013761	4.721489e-08	-1.401309e-08	0.02502467	-0.002037607	8.402813e-08	-7.447439e-08
	2.691118e-07	-2.445067e-07	0.01637106	0.008061027	8.402813e-08	-7.447439e-08	0.02403546	0.0007142528
