!$
! Info: Touchstone file created by Circ.  Input file=Tx_10in_Rx_93ohms_TxVia_60mils_RxVia_70mils.circ
!$
# Hz S RI R 50
0	0.009242253	1.402603e-25	1.345497e-09	1.504746e-27	7.336234e-05	1.822107e-23	1.213144e-09	6.476434e-28
	1.345505e-09	1.50475e-27	0.00923751	1.647461e-25	9.25432e-10	2.173279e-27	7.356788e-05	2.249485e-23
	7.434315e-05	1.854048e-23	9.254209e-10	2.173251e-27	0.00925619	1.342765e-25	-3.276563e-09	4.504481e-25
	1.213142e-09	6.475227e-28	7.383749e-05	2.259131e-23	-3.276155e-09	4.503982e-25	0.009251926	1.640221e-25
1e+07	0.01369462	-0.0002728573	2.72193e-09	3.406492e-09	0.0003334426	0.00179074	2.136393e-10	3.026729e-08
	2.72193e-09	3.406492e-09	0.01347761	-0.0008652435	1.750247e-09	2.471607e-09	0.0003461271	0.001951011
	0.0003334517	0.001790707	1.750247e-09	2.471607e-09	0.01275119	-0.0007533471	-4.855088e-09	1.794724e-08
	2.136396e-10	3.026729e-08	0.0003461297	0.001951009	-4.855088e-09	1.794724e-08	0.01321593	-0.0008669104
2e+07	0.01644875	-0.004323193	4.933725e-09	5.779311e-09	0.0009725176	0.00355293	1.712775e-08	2.068214e-08
	4.933725e-09	5.779311e-09	0.01561236	-0.005156877	3.118968e-09	4.347707e-09	0.0008826599	0.003852507
	0.0009724906	0.003552929	3.118968e-09	4.347707e-09	0.01519532	-0.00472677	-3.040865e-09	6.996969e-09
	1.712775e-08	2.068214e-08	0.0008826571	0.003852507	-3.040865e-09	6.996969e-09	0.01541643	-0.005069622
3e+07	0.01720793	-0.009814657	7.91959e-09	6.684226e-09	0.001939431	0.005139313	2.788194e-08	2.183842e-08
	7.91959e-09	6.684226e-09	0.01588397	-0.01056485	4.625861e-09	5.442156e-09	0.001835392	0.00550099
	0.001939429	0.005139317	4.625861e-09	5.442156e-09	0.01573215	-0.0100763	8.116605e-09	6.938969e-09
	2.788194e-08	2.183842e-08	0.001835392	0.005500992	8.116605e-09	6.938969e-09	0.01573551	-0.01045945
4e+07	0.016364	-0.01559351	1.12697e-08	6.727523e-09	0.00319348	0.006484172	3.958584e-08	2.097671e-08
	1.12697e-08	6.727523e-09	0.01464587	-0.01611678	6.505798e-09	6.073353e-09	0.003126344	0.006870141
	0.00319348	0.006484168	6.505798e-09	6.073353e-09	0.01473361	-0.01566272	1.225878e-08	7.249232e-09
	3.958584e-08	2.097671e-08	0.003126345	0.006870142	1.225878e-08	7.249232e-09	0.01453283	-0.01601244
5e+07	0.01411828	-0.02119171	1.481601e-08	5.635011e-09	0.004676925	0.0075322	5.173423e-08	1.653959e-08
	1.481601e-08	5.635011e-09	0.01209474	-0.02138985	8.464978e-09	6.099596e-09	0.004637148	0.00792967
	0.004676923	0.007532198	8.464978e-09	6.099596e-09	0.01239485	-0.02103641	1.589398e-08	5.997983e-09
	5.173423e-08	1.653959e-08	0.004637149	0.007929671	1.589398e-08	5.997983e-09	0.01200614	-0.02129608
6e+07	0.01065398	-0.02628437	1.822499e-08	3.303978e-09	0.006321288	0.008242839	6.325432e-08	8.006974e-09
	1.822499e-08	3.303978e-09	0.008416882	-0.02608662	1.035906e-08	5.458093e-09	0.006299894	0.008644947
	0.00632129	0.008242842	1.035906e-08	5.458093e-09	0.008896378	-0.02588648	1.928478e-08	3.505085e-09
	6.325432e-08	8.006974e-09	0.006299895	0.008644947	1.928478e-08	3.505085e-09	0.008342652	-0.02600815
7e+07	0.006167605	-0.03062391	2.111806e-08	-2.193174e-10	0.008051512	0.008591622	7.290377e-08	-4.542011e-09
	2.111806e-08	-2.193174e-10	0.003813449	-0.0299813	1.198829e-08	4.177511e-09	0.008040147	0.008994984
	0.008051522	0.008591627	1.198829e-08	4.177511e-09	0.004432926	-0.02997677	2.219815e-08	-1.642834e-10
	7.290377e-08	-4.542011e-09	0.008040148	0.008994984	2.219815e-08	-1.642837e-10	0.003744259	-0.02991987
8e+07	0.0008741138	-0.03402281	2.314383e-08	-4.790088e-09	0.009789848	0.008571038	7.948861e-08	-2.062042e-08
	2.314383e-08	-4.790088e-09	-0.001495383	-0.03290504	1.31725e-08	2.327947e-09	0.009780523	0.008974193
	0.009789862	0.008571041	1.31725e-08	2.327947e-09	-0.0007816708	-0.033129	2.432491e-08	-4.917324e-09
	7.948861e-08	-2.062042e-08	0.009780524	0.008974192	2.432491e-08	-4.917325e-09	-0.001568243	-0.03286013
9e+07	-0.004997151	-0.03634919	2.399977e-08	-1.016859e-08	0.01146034	0.008191105	8.197481e-08	-3.938918e-08
	2.399977e-08	-1.016859e-08	-0.007272047	-0.03474104	1.375102e-08	2.804655e-11	0.01144418	0.008592892
	0.01146035	0.008191105	1.375102e-08	2.804644e-11	-0.006516813	-0.03521782	2.535592e-08	-1.058628e-08
	8.197481e-08	-3.938918e-08	0.01144418	0.008592891	2.535592e-08	-1.058628e-08	-0.007356782	-0.03471043
1e+08	-0.01122367	-0.03753385	2.346248e-08	-1.605155e-08	0.01300066	0.007484083	7.957721e-08	-5.974038e-08
	2.346248e-08	-1.605155e-08	-0.01325166	-0.03541433	1.359615e-08	-2.56334e-09	0.01295814	0.007876424
	0.01300066	0.007484083	1.359615e-08	-2.56334e-09	-0.01252601	-0.03616653	2.5021e-08	-1.693464e-08
	7.957721e-08	-5.974038e-08	0.01295814	0.007876424	2.5021e-08	-1.693464e-08	-0.01335831	-0.03539594
1.1e+08	-0.01756363	-0.03743772	2.155746e-08	-2.213187e-08	0.01429954	0.006517109	7.240173e-08	-8.05469e-08
	2.155746e-08	-2.213187e-08	-0.0191841	-0.03503198	1.268734e-08	-5.235794e-09	0.0142549	0.006867733
	0.01429954	0.006517109	1.268734e-08	-5.235794e-09	-0.01856457	-0.03599037	2.303015e-08	-2.335493e-08
	7.240173e-08	-8.05469e-08	0.01425489	0.006867733	2.303015e-08	-2.335493e-08	-0.01932172	-0.03500627
1.2e+08	-0.02367785	-0.03615084	1.805559e-08	-2.799048e-08	0.01531507	0.00528979	5.988493e-08	-1.005169e-07
	1.805559e-08	-2.799048e-08	-0.02494417	-0.03355606	1.094145e-08	-7.809224e-09	0.01528263	0.005620331
	0.01531507	0.00528979	1.094145e-08	-7.809224e-09	-0.02443383	-0.0346914	1.935795e-08	-2.955169e-08
	5.988493e-08	-1.005169e-07	0.01528263	0.005620332	1.935795e-08	-2.955169e-08	-0.02510536	-0.03351327
1.3e+08	-0.02936371	-0.03376633	1.298636e-08	-3.324532e-08	0.01601507	0.003876205	4.213728e-08	-1.183312e-07
	1.298636e-08	-3.324532e-08	-0.03028915	-0.03104075	8.369824e-09	-1.007544e-08	0.01599903	0.004196081
	0.01601507	0.003876205	8.369824e-09	-1.007544e-08	-0.02990566	-0.03233236	1.403301e-08	-3.511823e-08
	4.213728e-08	-1.183312e-07	0.01599903	0.004196082	1.403301e-08	-3.511823e-08	-0.0304685	-0.03097482
1.4e+08	-0.03442478	-0.03040335	6.46402e-09	-3.750553e-08	0.01637238	0.002349712	1.959061e-08	-1.326855e-07
	6.46402e-09	-3.750553e-08	-0.03501738	-0.027597	5.032328e-09	-1.182855e-08	0.01637591	0.002664308
	0.01637238	0.002349712	5.032328e-09	-1.182855e-08	-0.03477953	-0.02902183	7.174546e-09	-3.964178e-08
	1.959061e-08	-1.326855e-07	0.01637591	0.002664309	7.174546e-09	-3.964178e-08	-0.03520917	-0.02750363
1.5e+08	-0.0386916	-0.02621381	-1.290831e-09	-4.040078e-08	0.01637411	0.0007862828	-7.01218e-09	-1.423746e-07
	-1.290831e-09	-4.040078e-08	-0.03895958	-0.02337348	1.043018e-09	-1.287199e-08	0.01640013	0.001098236
	0.01637411	0.0007862828	1.043018e-09	-1.287199e-08	-0.03888424	-0.02490459	-9.866815e-10	-4.273138e-08
	-7.01218e-09	-1.423746e-07	0.01640013	0.001098236	-9.866815e-10	-4.273138e-08	-0.03915773	-0.02324988
1.6e+08	-0.04202864	-0.02137716	-9.973526e-09	-4.161424e-08	0.01602281	-0.0007379471	-3.664216e-08	-1.463641e-07
	-9.973526e-09	-4.161424e-08	-0.04198284	-0.01854805	-3.439311e-09	-1.303877e-08	0.01607393	-0.0004282263
	0.01602281	-0.0007379471	-3.439311e-09	-1.303877e-08	-0.04208301	-0.02015456	-1.013084e-08	-4.405194e-08
	-3.664216e-08	-1.463641e-07	0.01607393	-0.0004282257	-1.013084e-08	-4.405194e-08	-0.04218106	-0.01839292
1.7e+08	-0.04433895	-0.01609335	-1.920277e-08	-4.090023e-08	0.01533637	-0.002149648	-6.802518e-08	-1.438556e-07
	-1.920277e-08	-4.090023e-08	-0.04399436	-0.01331949	-8.216087e-09	-1.219901e-08	0.01541457	-0.001843615
	0.01533637	-0.002149648	-8.216087e-09	-1.219901e-08	-0.04427764	-0.01496716	-1.985709e-08	-4.334305e-08
	-6.802518e-08	-1.438556e-07	0.01541457	-0.001843614	-1.985709e-08	-4.334305e-08	-0.04418637	-0.01313297
1.8e+08	-0.04556701	-0.01057505	-2.853781e-08	-3.810225e-08	0.01434713	-0.003381242	-9.969656e-08	-1.343413e-07
	-2.853781e-08	-3.810225e-08	-0.04494375	-0.007898903	-1.30578e-08	-1.026891e-08	0.01445346	-0.00308187
	0.01434713	-0.003381242	-1.30578e-08	-1.026891e-08	-0.0454112	-0.009551224	-2.970153e-08	-4.043796e-08
	-9.969656e-08	-1.343413e-07	0.01445346	-0.00308187	-2.970153e-08	-4.043796e-08	-0.04512355	-0.007682576
1.9e+08	-0.04569995	-0.005039399	-3.749988e-08	-3.316655e-08	0.01310039	-0.004373624	-1.300677e-07	-1.176469e-07
	-3.749988e-08	-3.316655e-08	-0.04482396	-0.002501177	-1.771486e-08	-7.217655e-09	0.01323465	-0.004085018
	0.01310039	-0.004373624	-1.771486e-08	-7.217655e-09	-0.04546931	-0.004120713	-3.915966e-08	-3.5278e-08
	-1.300677e-07	-1.176469e-07	0.01323465	-0.004085018	-3.915966e-08	-3.5278e-08	-0.0449861	-0.002257893
2e+08	-0.04476729	0.000300156	-4.559648e-08	-2.61504e-08	0.01165245	-0.005078521	-1.575014e-07	-9.395894e-08
	-4.559648e-08	-2.61504e-08	-0.04367062	0.002663578	-2.192984e-08	-3.071689e-09	0.01181293	-0.004805487
	0.01165245	-0.005078521	-2.192984e-08	-3.071689e-09	-0.04447978	0.00111357	-4.771189e-08	-2.792151e-08
	-1.575014e-07	-9.395894e-08	0.01181293	-0.004805486	-4.771189e-08	-2.792151e-08	-0.04381044	0.002929817
2.1e+08	-0.04283912	0.005242537	-5.234666e-08	-1.722412e-08	0.01006334	-0.005472333	-1.80392e-07	-6.383484e-08
	-5.234666e-08	-1.722412e-08	-0.04155981	0.007398138	-2.544893e-08	2.084454e-09	0.01025145	-0.005207991
	0.01006334	-0.005472333	-2.544893e-08	2.084454e-09	-0.04251093	0.005952705	-5.484532e-08	-1.854436e-08
	-1.80392e-07	-6.383484e-08	0.01025145	-0.005207991	-5.484532e-08	-1.854436e-08	-0.04167364	0.007682376
2.2e+08	-0.04002231	0.009605123	-5.73079e-08	-6.66857e-09	0.00840137	-0.005531059	-1.972506e-07	-2.819706e-08
	-5.73079e-08	-6.66857e-09	-0.0386044	0.01152565	-2.803768e-08	8.107433e-09	0.008619118	-0.005270926
	0.00840137	-0.005531059	-2.803768e-08	8.107433e-09	-0.03966782	0.01021577	-6.008958e-08	-7.44374e-09
	-1.972506e-07	-2.819706e-08	0.008619118	-0.005270927	-6.008958e-08	-7.44374e-09	-0.03868976	0.01182222
2.3e+08	-0.03645643	0.01322989	-6.01019e-08	5.134889e-09	0.006746221	-0.005232693	-2.067879e-07	1.169374e-08
	-6.01019e-08	5.134889e-09	-0.0349491	0.01489622	-2.949579e-08	1.480067e-08	0.006987712	-0.004987221
	0.00674622	-0.005232693	-2.949579e-08	1.480067e-08	-0.03608824	0.01374604	-6.305012e-08	4.975727e-09
	-2.067879e-07	1.169374e-08	0.006987712	-0.004987221	-6.305012e-08	4.975727e-09	-0.03500481	0.015199
2.4e+08	-0.03230827	0.01599095	-6.043468e-08	1.772055e-08	0.005172269	-0.00458678	-2.079857e-07	5.428318e-08
	-6.043468e-08	1.772055e-08	-0.0307644	0.01739244	-2.966416e-08	2.19232e-08	0.005428928	-0.004364627
	0.005172269	-0.00458678	-2.966416e-08	2.19232e-08	-0.03193723	0.0164186	-6.341608e-08	1.822313e-08
	-2.079857e-07	5.428318e-08	0.005428928	-0.004364627	-6.341608e-08	1.822313e-08	-0.03079063	0.01769515
2.5e+08	-0.02776485	0.01779818	-5.811549e-08	3.055742e-08	0.003750337	-0.00361796	-2.001644e-07	9.778279e-08
	-5.811549e-08	3.055742e-08	-0.02623954	0.01893358	-2.843646e-08	2.919826e-08	0.00401139	-0.003425421
	0.003750337	-0.00361796	-2.843646e-08	2.919826e-08	-0.02740014	0.01814394	-6.098548e-08	3.17384e-08
	-2.001644e-07	9.778279e-08	0.00401139	-0.003425421	-6.098548e-08	3.17384e-08	-0.02623786	0.01923007
2.6e+08	-0.02302607	0.01860025	-5.307018e-08	4.307258e-08	0.002544689	-0.002364987	-1.830354e-07	1.402448e-07
	-5.307018e-08	4.307258e-08	-0.02157488	0.01947841	-2.576672e-08	3.632488e-08	0.002797768	-0.002205529
	0.002544689	-0.002364987	-2.576672e-08	3.632488e-08	-0.02267535	0.01887113	-5.567959e-08	4.491697e-08
	-1.830354e-07	1.402448e-07	0.002797768	-0.002205529	-5.567959e-08	4.491697e-08	-0.02154819	0.01976292
2.7e+08	-0.01829688	0.01838623	-4.534957e-08	5.467705e-08	0.001610268	-0.0008791442	-1.567362e-07	1.796486e-07
	-4.534957e-08	5.467705e-08	-0.01697395	0.01902633	-2.167458e-08	4.299124e-08	0.001842096	-0.0007530803
	0.001610268	-0.0008791442	-2.167458e-08	4.299124e-08	-0.01796638	0.01858943	-4.75516e-08	5.713712e-08
	-1.567362e-07	1.796486e-07	0.001842096	-0.0007530803	-4.75516e-08	5.713712e-08	-0.01692635	0.01929383
2.8e+08	-0.01377929	0.01718571	-3.513178e-08	6.479287e-08	0.0009902795	0.0007778757	-1.218475e-07	2.139946e-07
	-3.513178e-08	6.479287e-08	-0.01263529	0.01761713	-1.624739e-08	4.888881e-08	0.001187419	0.0008735584
	0.0009902795	0.0007778757	-1.624739e-08	4.888881e-08	-0.013474	0.01732842	-3.678939e-08	6.778871e-08
	-1.218475e-07	2.139946e-07	0.001187419	0.0008735584	-3.678939e-08	6.778871e-08	-0.01257192	0.01786355
2.9e+08	-0.009664577	0.01506723	-2.271891e-08	7.288025e-08	0.0007142308	0.002536573	-7.938842e-08	2.414021e-07
	-2.271891e-08	7.288025e-08	-0.008744648	0.01532907	-9.639425e-09	5.372699e-08	0.0008638547	0.002608217
	0.0007142308	0.002536573	-9.639425e-09	5.372699e-08	-0.009388359	0.01515653	-2.371198e-08	7.630202e-08
	-7.938842e-08	2.414021e-07	0.0008638547	0.002608217	-2.371198e-08	7.630202e-08	-0.008671461	0.01555151
3e+08	-0.006125847	0.01213538	-8.528277e-09	7.846362e-08	0.0007965338	0.004322612	-3.079033e-08	2.602059e-07
	-8.528277e-09	7.846362e-08	-0.005467627	0.01227542	-2.067969e-09	5.724746e-08	0.0008871885	0.004379728
	0.0007965338	0.004322612	-2.067969e-09	5.724746e-08	-0.005881591	0.01217814	-8.760154e-09	8.217535e-08
	-3.079033e-08	2.602059e-07	0.0008871885	0.004379728	-8.760154e-09	8.217535e-08	-0.005391144	0.01247228
3.1e+08	-0.00331139	0.008526366	6.921739e-09	8.11555e-08	0.001235738	0.006060061	2.215053e-08	2.690466e-07
	6.921739e-09	8.11555e-08	-0.002943226	0.008599689	6.193587e-09	5.923774e-08	0.001258062	0.006114997
	0.001235738	0.006060061	6.193587e-09	5.923774e-08	-0.003101144	0.008529187	7.518572e-09	8.500041e-08
	2.215053e-08	2.690466e-07	0.001258062	0.006114997	7.518572e-09	8.500041e-08	-0.002870237	0.008770785
3.2e+08	-0.001339015	0.00440244	2.303041e-08	8.067733e-08	0.002014462	0.007674752	7.734053e-08	2.669501e-07
	2.303041e-08	8.067733e-08	-0.001278446	0.0044696	1.482554e-08	5.95432e-08	0.001961827	0.007742213
	0.002014462	0.007674752	1.482554e-08	5.95432e-08	-0.001164103	0.004371643	2.448995e-08	8.448428e-08
	7.734053e-08	2.669501e-07	0.001961827	0.007742213	2.448995e-08	8.448428e-08	-0.001215713	0.004616213
3.3e+08	-0.0002916003	-5.471232e-05	3.913752e-08	7.687635e-08	0.00310004	0.009097616	1.324735e-07	2.533919e-07
	3.913752e-08	7.687635e-08	-0.0005442151	7.017984e-05	2.347423e-08	5.807704e-08	0.002969081	0.009194046
	0.00310004	0.009097616	2.347423e-08	5.807704e-08	-0.0001527235	-0.0001131074	4.145734e-08	8.04672e-08
	1.324735e-07	2.533919e-07	0.002969081	0.009194046	4.145734e-08	8.04672e-08	-0.000498155	0.0001950172
3.4e+08	-0.0002140622	-0.004651312	5.454946e-08	6.973787e-08	0.004445878	0.01026784	1.851291e-07	2.283421e-07
	5.454946e-08	6.973787e-08	-0.0007727856	-0.004403845	3.176652e-08	5.482764e-08	0.004236886	0.01041068
	0.004445878	0.01026784	3.176652e-08	5.482764e-08	-0.0001113782	-0.004731579	5.768947e-08	7.293538e-08
	1.851291e-07	2.283421e-07	0.004236886	0.01041068	5.768947e-08	7.293538e-08	-0.0007491763	-0.004296735
3.5e+08	-0.001111847	-0.009189277	6.856782e-08	5.939231e-08	0.005993468	0.01113565	2.328807e-07	1.922887e-07
	6.856782e-08	5.939231e-08	-0.001956728	-0.008755997	3.932586e-08	4.986281e-08	0.005710623	0.01134255
	0.005993468	0.01113565	3.932586e-08	4.986281e-08	-0.001045026	-0.009285964	7.245074e-08	6.202819e-08
	2.328807e-07	1.922887e-07	0.005710623	0.01134255	7.245074e-08	6.202819e-08	-0.001960429	-0.008661378
3.6e+08	-0.002950999	-0.01347412	8.05195e-08	4.611653e-08	0.007674979	0.01166466	2.734068e-07	1.462366e-07
	8.05195e-08	4.611653e-08	-0.004049528	-0.01279599	4.578934e-08	4.333063e-08	0.007326399	0.01195258
	0.007674979	0.01166466	4.578934e-08	4.333063e-08	-0.002919265	-0.01358204	8.503306e-08	4.803921e-08
	2.734068e-07	1.462366e-07	0.007326399	0.01195258	8.503306e-08	4.803921e-08	-0.00408424	-0.01270765
3.7e+08	-0.005659812	-0.01732267	8.978726e-08	3.032904e-08	0.009416296	0.01183358	3.046024e-07	9.168231e-08
	8.978726e-08	3.032904e-08	-0.00696778	-0.01634741	5.082489e-08	3.545663e-08	0.009013905	0.01221794
	0.009416296	0.01183358	5.082489e-08	3.545663e-08	-0.00566196	-0.01743686	9.4788e-08	3.14109e-08
	3.046024e-07	9.168231e-08	0.009013905	0.01221794	9.4788e-08	3.14109e-08	-0.007035851	-0.01625841
3.8e+08	-0.00913196	-0.02057024	9.583952e-08	1.25789e-08	0.01114038	0.0116372	3.246827e-07	3.056564e-08
	9.583952e-08	1.25789e-08	-0.01059484	-0.01925465	5.414796e-08	2.653712e-08	0.01069957	0.01213104
	0.01114038	0.0116372	5.414796e-08	2.653712e-08	-0.009166362	-0.020686	1.01158e-07	1.272258e-08
	3.246827e-07	3.056564e-08	0.01069957	0.01213104	1.01158e-07	1.272258e-08	-0.01069713	-0.01915763
3.9e+08	-0.01323098	-0.02307703	9.825819e-08	-6.471688e-09	0.01277074	0.01108669	3.322758e-07	-3.480171e-08
	9.825819e-08	-6.471688e-09	-0.01478579	-0.02138911	5.553673e-08	1.692909e-08	0.01230988	0.01169988
	0.01277074	0.01108669	5.553673e-08	1.692909e-08	-0.01329558	-0.02318988	1.037056e-07	-7.328136e-09
	3.322758e-07	-3.480171e-08	0.01230988	0.01169988	1.037056e-07	-7.328136e-09	-0.01492161	-0.0212766
4e+08	-0.01779589	-0.02473347	9.676307e-08	-2.607078e-08	0.01423493	0.01020907	3.264992e-07	-1.018258e-07
	9.676307e-08	-2.607078e-08	-0.01937351	-0.02265405	5.48451e-08	7.036575e-09	0.01377464	0.01094767
	0.01423493	0.01020907	5.48451e-08	7.036575e-09	-0.01788818	-0.02483921	1.021385e-07	-2.795019e-08
	3.264992e-07	-1.018258e-07	0.01377464	0.01094767	1.021385e-07	-2.795019e-08	-0.01954061	-0.02251882
4.1e+08	-0.02264776	-0.02546428	9.123152e-08	-4.540564e-08	0.01546777	0.009046004	3.07016e-07	-1.677353e-07
	9.123152e-08	-4.540564e-08	-0.02417554	-0.02298827	5.201276e-08	-2.705632e-09	0.01503016	0.009911753
	0.01546777	0.009046004	5.201276e-08	-2.705632e-09	-0.02276479	-0.02555902	9.632997e-08	-4.828947e-08
	3.07016e-07	-1.677353e-07	0.01503016	0.009911753	9.632997e-08	-4.828947e-08	-0.02437016	-0.02282362
4.2e+08	-0.02759684	-0.02523123	8.171202e-08	-6.363608e-08	0.01641426	0.007651868	2.740686e-07	-2.296976e-07
	8.171202e-08	-6.363608e-08	-0.02900148	-0.02236825	4.707156e-08	-1.185056e-08	0.01602195	0.00864186
	0.01641426	0.007651868	4.707156e-08	-1.185056e-08	-0.02773519	-0.02531143	8.633307e-08	-6.746388e-08
	2.740686e-07	-2.296976e-07	0.01602195	0.00864186	8.633307e-08	-6.746388e-08	-0.02921853	-0.02216835
4.3e+08	-0.0324501	-0.02403433	6.843052e-08	-7.993121e-08	0.01703203	0.00609132	2.284881e-07	-2.849403e-07
	6.843052e-08	-7.993121e-08	-0.03366064	-0.02080879	4.014786e-08	-1.995891e-08	0.01670715	0.007197886
	0.01703203	0.00609132	4.014786e-08	-1.995891e-08	-0.0326059	-0.02409689	7.238668e-08	-8.460164e-08
	2.284881e-07	-2.849403e-07	0.01670715	0.007197886	7.238668e-08	-8.460164e-08	-0.03389385	-0.02056892
4.4e+08	-0.03701878	-0.0219116	5.178879e-08	-9.350754e-08	0.01729312	0.0044364	1.716776e-07	-3.308731e-07
	5.178879e-08	-9.350754e-08	-0.03796959	-0.0183621	3.146047e-08	-2.661936e-08	0.01705631	0.005647202
	0.01729312	0.0044364	3.146047e-08	-2.661936e-08	-0.03718771	-0.02195391	5.491374e-08	-9.888121e-08
	1.716776e-07	-3.308731e-07	0.01705631	0.005647202	5.491374e-08	-9.888121e-08	-0.03821181	-0.01807891
4.5e+08	-0.04112571	-0.0189373	3.235433e-08	-1.036671e-07	0.01718516	0.002763337	1.055712e-07	-3.652058e-07
	3.235433e-08	-1.036671e-07	-0.04175935	-0.01511554	2.131412e-08	-3.146823e-08	0.01705454	0.004061695
	0.01718516	0.002763337	2.131412e-08	-3.146823e-08	-0.04130306	-0.01895738	3.451066e-08	-1.095709e-07
	1.055712e-07	-3.652058e-07	0.01705454	0.004061695	3.451066e-08	-1.095709e-07	-0.04200279	-0.01478719
4.6e+08	-0.04461215	-0.0152189	1.081212e-08	-1.098346e-07	0.01671185	0.001149232	3.255296e-08	-3.860062e-07
	1.081212e-08	-1.098346e-07	-0.04488191	-0.01118791	1.009034e-08	-3.420471e-08	0.01670212	0.002514658
	0.01671185	0.001149232	1.009034e-08	-3.420471e-08	-0.04479283	-0.01521542	1.189748e-08	-1.160667e-07
	3.255296e-08	-3.860062e-07	0.01670212	0.002514658	1.189748e-08	-1.160667e-07	-0.04511856	-0.0108142
4.7e+08	-0.04734369	-0.01089268	-1.197854e-08	-1.115798e-07	0.01589273	-0.0003312706	-4.456487e-08	-3.919344e-07
	-1.197854e-08	-1.115798e-07	-0.04721595	-0.00672458	-1.770551e-09	-3.461525e-08	0.01601435	0.001077665
	0.01589273	-0.0003312706	-1.770551e-09	-3.461525e-08	-0.04752241	-0.01086514	-1.202434e-08	-1.179186e-07
