!$
! Info: Touchstone file created by Circ.  Input file=Tx_16in_Rx_93ohms_TxVia_60mils_RxVia_70mils.circ
!$
# Hz S RI R 50
0	0.01461177	2.224488e-25	0.9852478	-2.195474e-25	0.0001079127	3.194742e-23	-0.0001032671	2.260324e-21
	0.9852477	-2.219369e-25	0.01460711	2.425654e-25	-0.0001037444	2.318865e-21	0.0001046967	3.566299e-23
	0.000109139	3.103914e-23	-0.0001030593	2.23495e-21	0.01462218	2.205841e-25	0.9852264	-2.142368e-25
	-0.0001035345	2.293061e-21	0.0001049661	3.581592e-23	0.9852264	-2.242265e-25	0.01462137	2.415259e-25
1e+07	0.02106137	-0.002829893	0.9639173	-0.1658433	0.0007014054	0.002891142	-0.0002032505	-6.969469e-05
	0.9639173	-0.1658433	0.02104782	-0.00282878	-0.0002033495	-6.96259e-05	0.0006960301	0.00289315
	0.0007014761	0.002891109	-0.0002033181	-6.964846e-05	0.02064282	-0.002811231	0.9643166	-0.1659876
	-0.0002032191	-6.971726e-05	0.0006960332	0.002893147	0.9643166	-0.1659876	0.02062808	-0.002809489
2e+07	0.02310232	-0.01122477	0.9185483	-0.3204172	0.002004512	0.005520971	-9.856916e-05	-0.0002399759
	0.9185483	-0.3204172	0.02304998	-0.01121113	-9.859114e-05	-0.0002398721	0.001984511	0.005530424
	0.002004497	0.005520933	-9.860182e-05	-0.0002398897	0.02280901	-0.01106196	0.9187638	-0.3208241
	-9.856869e-05	-0.0002400124	0.001984508	0.005530424	0.9187638	-0.3208241	0.022752	-0.01104611
3e+07	0.02093861	-0.02076171	0.8505489	-0.4635425	0.004106701	0.007411849	-7.348388e-05	-0.0003253504
	0.8505489	-0.4635425	0.02082944	-0.02071128	-7.352651e-05	-0.0003252591	0.004066241	0.007438017
	0.004106697	0.007411849	-7.35281e-05	-0.0003252584	0.02073664	-0.02057667	0.8505762	-0.4640717
	-7.348692e-05	-0.0003253534	0.004066241	0.007438019	0.8505762	-0.4640717	0.02061804	-0.02052009
4e+07	0.01544182	-0.02932264	0.7614077	-0.5928528	0.006705175	0.008438748	-0.0001103938	-0.0004053245
	0.7614077	-0.5928528	0.0152703	-0.02920441	-0.0001104478	-0.0004051613	0.00664317	0.008493133
	0.00670518	0.008438748	-0.0001104442	-0.0004051622	0.01530635	-0.02915103	0.7612377	-0.5934403
	-0.0001103844	-0.000405322	0.006643171	0.008493134	0.7612377	-0.5934403	0.01512022	-0.02902015
5e+07	0.007437482	-0.03583377	0.6534731	-0.705467	0.009424533	0.008564822	-0.0001669277	-0.0005344324
	0.6534731	-0.705467	0.007212749	-0.03561512	-0.0001669201	-0.000534176	0.009345342	0.008659002
	0.009424536	0.008564821	-0.0001669184	-0.0005341776	0.007344685	-0.03569229	0.6531028	-0.7060583
	-0.0001669217	-0.0005344341	0.009345343	0.008659002	0.6531028	-0.7060583	0.007101051	-0.03545154
6e+07	-0.002137433	-0.03964017	0.5296384	-0.7988025	0.0119714	0.007812153	-0.0002905545	-0.0006990378
	0.5296384	-0.7988025	-0.002391703	-0.03929374	-0.0002904237	-0.0006987224	0.01188444	0.007955465
	0.0119714	0.007812155	-0.0002904238	-0.0006987216	-0.002209483	-0.03953424	0.5290734	-0.7993461
	-0.0002905591	-0.0006990347	0.01188444	0.007955465	0.5290734	-0.7993461	-0.002484576	-0.03915391
7e+07	-0.01227903	-0.04044541	0.3931998	-0.8707469	0.01407661	0.00629419	-0.00051268	-0.0008598373
	0.3931998	-0.8707469	-0.01252803	-0.03995486	-0.0005123955	-0.0008595209	0.01399515	0.006491812
	0.01407661	0.006294196	-0.0005123953	-0.0008595176	-0.012349	-0.04037253	0.3924555	-0.8711949
	-0.0005126893	-0.0008598229	0.01399515	0.006491812	0.3924555	-0.8711949	-0.0126175	-0.03983512
8e+07	-0.02199671	-0.03828767	0.2477379	-0.9197379	0.0155241	0.004202579	-0.0008399416	-0.0009637756
	0.2477379	-0.9197379	-0.02219961	-0.03765139	-0.0008395021	-0.0009635202	0.01546347	0.004454167
	0.0155241	0.004202586	-0.0008395007	-0.0009635161	-0.02207896	-0.03823982	0.2468393	-0.9200469
	-0.0008399471	-0.0009637535	0.01546347	0.004454167	0.2468393	-0.9200469	-0.02229648	-0.03754385
9e+07	-0.03039631	-0.03350523	0.09700321	-0.9447993	0.01617259	0.001785092	-0.001251191	-0.000957682
	0.09700321	-0.9447993	-0.03051227	-0.03273793	-0.00125062	-0.0009575433	0.01614792	0.002084166
	0.01617259	0.001785097	-0.001250618	-0.0009575405	-0.03050055	-0.03347103	0.09598555	-0.9449325
	-0.00125119	-0.000957664	0.01614792	0.002084166	0.09598555	-0.9449325	-0.03062279	-0.03263269
1e+08	-0.03673475	-0.02668413	-0.05522263	-0.9455462	0.01596768	-0.0006823452	-0.001699727	-0.0008010417
	-0.05522263	-0.9455462	-0.03672909	-0.02581635	-0.001699067	-0.0008010606	0.01599155	-0.00034816
	0.01596768	-0.0006823453	-0.001699067	-0.0008010607	-0.03686923	-0.02665074	-0.0563097	-0.945476
	-0.001699727	-0.0008010418	0.01599155	-0.0003481601	-0.0563097	-0.945476	-0.03685856	-0.02570335
1.1e+08	-0.04060321	-0.01870143	-0.2049951	-0.9219865	0.01494684	-0.002917635	-0.002126283	-0.0004827117
	-0.2049951	-0.9219865	-0.04045255	-0.01777706	-0.002125628	-0.0004829418	0.01502696	-0.002565537
	0.01494684	-0.002917635	-0.002125628	-0.0004829417	-0.04076065	-0.01864029	-0.2061146	-0.9217239
	-0.002126283	-0.0004827116	0.01502696	-0.002565537	-0.2061146	-0.9217239	-0.04059164	-0.01763195
1.2e+08	-0.0418416	-0.01025289	-0.3484964	-0.8751621	0.01323945	-0.004677736	-0.002471904	-6.605415e-06
	-0.3484964	-0.8751621	-0.04153948	-0.009323676	-0.002471345	-7.023761e-06	0.01337707	-0.004327643
	0.01323945	-0.004677736	-0.002471345	-7.023739e-06	-0.04200278	-0.01015978	-0.3496239	-0.8746928
	-0.002471904	-6.60538e-06	0.01337707	-0.004327642	-0.3496239	-0.8746928	-0.04166864	-0.009147008
1.3e+08	-0.04045178	-0.002185225	-0.4822764	-0.8064415	0.01103772	-0.005772841	-0.002678365	0.0005939936
	-0.4822764	-0.8064415	-0.04001079	-0.00130511	-0.002677971	0.0005934514	0.01122678	-0.005445019
	0.01103772	-0.005772841	-0.00267797	0.0005934513	-0.04060279	-0.002061435	-0.4833764	-0.8057562
	-0.002678365	0.0005939935	0.01122677	-0.005445018	-0.4833764	-0.8057562	-0.04011757	-0.001103056
1.4e+08	-0.03672532	0.004716647	-0.6031023	-0.7176873	0.008583186	-0.006084448	-0.002706684	0.001265008
	-0.6031023	-0.7176873	-0.03617757	0.005498592	-0.002706481	0.001264433	0.00881029	-0.005796825
	0.008583186	-0.006084448	-0.00270648	0.001264433	-0.03685478	0.004865666	-0.6041352	-0.7167835
	-0.002706683	0.001265008	0.008810289	-0.005796824	-0.6041352	-0.7167835	-0.03625382	0.005716269
1.5e+08	-0.03118133	0.009809691	-0.7080605	-0.6112201	0.006141046	-0.005576996	-0.002542711	0.001942175
	-0.7080605	-0.6112201	-0.03057635	0.01045626	-0.002542677	0.001941662	0.006386512	-0.00534257
	0.006141046	-0.005576996	-0.002542677	0.001941662	-0.03128088	0.009975245	-0.7089847	-0.6101025
	-0.002542711	0.001942175	0.006386511	-0.00534257	-0.7089847	-0.6101025	-0.03061844	0.01067774
1.6e+08	-0.02450606	0.01265267	-0.7946209	-0.4897721	0.003973143	-0.004300837	-0.002198287	0.002562735
	-0.7946209	-0.4897721	-0.02390621	0.01314455	-0.002198353	0.002562353	0.004212845	-0.004125523
	0.003973143	-0.004300837	-0.002198353	0.002562353	-0.02457095	0.01282387	-0.7953946	-0.4884532
	-0.002198287	0.002562734	0.004212845	-0.004125522	-0.7953946	-0.4884532	-0.02391522	0.0133575
1.7e+08	-0.01748004	0.01304487	-0.8606964	-0.3564325	0.00231123	-0.002386875	-0.001707177	0.003076115
	-0.8606964	-0.3564325	-0.01695395	0.01338482	-0.001707241	0.00307589	0.0025192	-0.002268076
	0.00231123	-0.002386875	-0.001707241	0.00307589	-0.01750949	0.01320983	-0.861279	-0.354933
	-0.001707177	0.003076115	0.0025192	-0.002268076	-0.861279	-0.354933	-0.0169354	0.01357801
1.8e+08	-0.01089801	0.01104063	-0.9046969	-0.2145834	0.001333009	-3.31935e-05	-0.001116832	0.003451398
	-0.9046969	-0.2145834	-0.01051271	0.01125534	-0.001116792	0.003451295	0.001484439	4.067735e-05
	0.001333009	-3.319341e-05	-0.001116792	0.003451295	-0.01089532	0.01118776	-0.9050502	-0.2129316
	-0.001116832	0.003451398	0.001484439	4.067761e-05	-0.9050502	-0.2129316	-0.0104759	0.01142004
1.9e+08	-0.005489061	0.006938749	-0.9255762	-0.06782481	0.001143241	0.002515346	-0.0004779629	0.003680086
	-0.9255762	-0.06782481	-0.005301655	0.007077848	-0.0004777435	0.003680016	0.00121758	0.002564291
	0.001143241	0.002515346	-0.0004777436	0.003680016	-0.005461276	0.007058036	-0.9256665	-0.06605674
	-0.000477963	0.003680085	0.00121758	0.002564291	-0.9256665	-0.06605674	-0.005258582	0.007208922
2e+08	-0.00184441	0.00124779	-0.9228694	0.08011152	0.00176212	0.004992815	0.0001656703	0.003773758
	-0.9228694	0.08011152	-0.001894312	0.001379941	0.0001660904	0.003773597	0.001745886	0.005043625
	0.00176212	0.004992815	0.0001660903	0.003773597	-0.001801632	0.0013319	-0.9226684	0.08195267
	0.0001656703	0.003773758	0.001745886	0.005043625	-0.9226684	0.08195267	-0.001858302	0.001476612
2.1e+08	-0.0003599594	-0.005369204	-0.8967147	0.2254576	0.003122488	0.007140727	0.000784903	0.003757384
	-0.8967147	0.2254576	-0.0006626628	-0.005162753	0.0007854763	0.003757002	0.003011454	0.007224439
	0.003122488	0.007140727	0.0007854763	0.003757002	-0.0003143568	-0.005324042	-0.8962016	0.2273225
	0.000784903	0.003757384	0.003011454	0.007224439	-0.8962016	0.2273225	-0.0006468207	-0.005096685
2.2e+08	-0.001199394	-0.01216488	-0.8478586	0.3645119	0.005076637	0.008736278	0.001368554	0.003660047
	-0.8478586	0.3645119	-0.001742641	-0.01179875	0.001369166	0.003659346	0.004877093	0.008884942
	0.005076637	0.008736278	0.001369166	0.003659346	-0.00116396	-0.01215836	-0.8470207	0.366346
	0.001368554	0.003660047	0.004877093	0.008884942	-0.8470207	0.366346	-0.001758308	-0.0117552
2.3e+08	-0.004281462	-0.01838531	-0.7776392	0.4937426	0.00741225	0.009616984	0.00192189	0.003505442
	-0.7776392	0.4937426	-0.005024427	-0.01777958	0.001922382	0.003504384	0.007141142	0.009860083
	0.00741225	0.009616984	0.001922382	0.003504384	-0.004268662	-0.01841295	-0.7764739	0.4954881
	0.00192189	0.003505442	0.007141142	0.009860083	-0.7764739	0.4954881	-0.005079812	-0.01774696
2.4e+08	-0.009292508	-0.02334722	-0.68795	0.6098891	0.009875819	0.009698668	0.002460714	0.003304505
	-0.68795	0.6098891	-0.01016828	-0.02243696	0.002460913	0.003303132	0.009559671	0.01005957
	0.009875819	0.009698668	0.002460913	0.003303132	-0.009312956	-0.02340072	-0.6864653	0.6114864
	0.002460714	0.003304505	0.009559671	0.01005957	-0.6864653	0.6114864	-0.01026742	-0.02240141
2.5e+08	-0.01572252	-0.02650655	-0.5811833	0.7100523	0.0122008	0.008984545	0.003002673	0.003052011
	-0.5811833	0.7100523	-0.01664376	-0.0252503	0.003002433	0.003050449	0.01187345	0.009477415
	0.0122008	0.008984545	0.003002433	0.003050449	-0.01578382	-0.02657452	-0.5793982	0.7114421
	0.003002673	0.003052011	0.01187345	0.009477415	-0.5793982	0.7114421	-0.01678598	-0.02519717
2.6e+08	-0.02292049	-0.02751153	-0.4601571	0.7917724	0.01413704	0.007564303	0.003558056	0.002727937
	-0.4601571	0.7917724	-0.02378785	-0.02589761	0.0035573	0.00272637	0.01383641	0.008191834
	0.01413704	0.007564303	0.0035573	0.00272637	-0.02302636	-0.02758053	-0.4581018	0.7928982
	0.003558056	0.002727937	0.01383641	0.008191834	-0.4581018	0.7928982	-0.02396762	-0.02581303
2.7e+08	-0.03016283	-0.02623499	-0.3280303	0.853089	0.01547806	0.005603442	0.004122444	0.002303217
	-0.3280303	0.853089	-0.03087517	-0.02428474	0.004121184	0.002301855	0.01524219	0.006355761
	0.01547806	0.005603442	0.004121184	0.002301855	-0.03031262	-0.02629096	-0.325746	0.853899
	0.004122444	0.002303217	0.01524219	0.006355761	-0.325746	0.853899	-0.03108269	-0.02415729
2.8e+08	-0.03672756	-0.02278366	-0.1882116	0.8925829	0.01608282	0.003324418	0.004673062	0.00174846
	-0.1882116	0.8925829	-0.03719299	-0.02055121	0.004671401	0.001747493	0.0159457	0.004179335
	0.01608282	0.003324418	0.004671401	0.001747493	-0.03691628	-0.02281327	-0.1857489	0.8930323
	0.004673062	0.00174846	0.0159457	0.004179335	-0.1857489	0.8930323	-0.03741518	-0.02037317
2.9e+08	-0.04196676	-0.01748386	-0.04426468	0.9093998	0.01588997	0.0009820214	0.005169781	0.00104349
	-0.04426468	0.9093998	-0.04211328	-0.01505221	0.005167899	0.001043046	0.01587754	0.001906692
	0.01588997	0.0009820214	0.005167899	0.001043046	-0.04218545	-0.01747588	-0.04168306	0.9094524
	0.005169781	0.00104349	0.01587754	0.001906692	-0.04168306	0.9094524	-0.04233511	-0.01482042
3e+08	-0.04537017	-0.01084589	0.1001828	0.9032571	0.01492321	-0.001164027	0.005560605	0.0001854351
	0.1001828	0.9032571	-0.0451546	-0.008319538	0.005558722	0.0001855489	0.01505	-0.0002101439
	0.01492321	-0.001164027	0.005558722	0.0001855489	-0.04560673	-0.01079226	0.1028173	0.9028873
	0.005560605	0.0001854351	0.01505	-0.0002101439	0.1028173	0.9028873	-0.04536072	-0.008035881
3.1e+08	-0.04661409	-0.003511092	0.2415275	0.8744378	0.01328766	-0.002876271	0.005790436	-0.0008065682
	0.2415275	0.8744378	-0.04602843	-0.001006016	0.005788765	-0.0008059634	0.01355459	-0.001937438
	0.01328766	-0.002876271	0.005788765	-0.0008059634	-0.0468544	-0.003407843	0.244144	0.8736311
	0.005790436	-0.0008065682	0.01355459	-0.001937438	0.244144	0.8736311	-0.04620477	-0.0006772258
3.2e+08	-0.04559148	0.003812815	0.376272	0.8237724	0.01115808	-0.003963801	0.005811172	-0.001891158
	0.376272	0.8237724	-0.04466561	0.006181001	0.005809868	-0.001890217	0.01155161	-0.003083408
	0.01115808	-0.003963801	0.005809868	-0.001890217	-0.04582074	0.003965152	0.3787967	0.8225265
	0.005811172	-0.001891158	0.01155161	-0.003083408	0.3787967	0.8225265	-0.04480093	0.006543959
3.3e+08	-0.04242064	0.01042202	0.5011012	0.7526119	0.008760389	-0.004301428	0.005590951	-0.003009143
	0.5011012	0.7526119	-0.04122124	0.01255043	0.00559008	-0.003008072	0.009253242	-0.003517276
	0.008760389	-0.004301428	0.00559008	-0.003008072	-0.04262477	0.01061835	0.5034594	0.7509373
	0.005590951	-0.003009143	0.009253242	-0.003517276	0.5034594	0.7509373	-0.04130833	0.01293346
3.4e+08	-0.03743222	0.01568581	0.6129528	0.6627944	0.006348428	-0.003842173	0.005120539	-0.004091601
	0.6129528	0.6627944	-0.03605755	0.01749588	0.005120059	-0.004090608	0.006901813	-0.003182149
	0.006348428	-0.003842173	0.005120059	-0.004090608	-0.03759928	0.01591688	0.6150714	0.6607139
	0.005120539	-0.004091601	0.006901813	-0.003182149	0.6150714	0.6607139	-0.03609406	0.0178832
3.5e+08	-0.03113577	0.01910823	0.7090841	0.5566031	0.004178072	-0.002622043	0.004415498	-0.005069992
	0.7090841	0.5566031	-0.0297069	0.02055533	0.004415271	-0.005069237	0.00474527	-0.002100684
	0.004178072	-0.002622043	0.004415271	-0.005069237	-0.03125711	0.01936142	0.7108932	0.5541518
	0.004415498	-0.005069992	0.00474527	-0.002100684	0.7108932	0.5541518	-0.02969567	0.02093112
3.6e+08	-0.02416909	0.02037657	0.7871343	0.4367178	0.002481084	-0.0007567228	0.003513698	-0.005886172
	0.7871343	0.4367178	-0.02281824	0.02145647	0.003513523	-0.005885723	0.003012013	-0.0003730487
	0.002481084	-0.0007567228	0.003513523	-0.005885723	-0.02424031	0.02063709	0.7885694	0.4339429
	0.003513698	-0.005886172	0.003012013	-0.0003730487	0.7885694	0.4339429	-0.0227671	0.0218065
3.7e+08	-0.01723515	0.01939201	0.8451821	0.3061578	0.001441044	0.001569697	0.002468721	-0.006500208
	0.8451821	0.3061578	-0.01609229	0.02014331	0.002468386	-0.00650002	0.001887378	0.001832786
	0.001441044	0.001569697	0.002468386	-0.00650002	-0.01725664	0.01964422	0.8461859	0.3031172
	0.002468721	-0.006500208	0.001887378	0.001832786	0.8461859	0.3031172	-0.01601331	0.0204565
3.8e+08	-0.01103246	0.01627924	0.8817977	0.1682146	0.001173714	0.004123085	0.001340609	-0.006894388
	0.8817977	0.1682146	-0.01021151	0.01678144	0.001339951	-0.006894307	0.001494018	0.004297755
	0.001173714	0.004123085	0.001339951	-0.006894307	-0.01100945	0.01650822	0.8823217	0.1649763
	0.001340609	-0.006894388	0.001494018	0.004297755	0.8823217	0.1649763	-0.01011981	0.01705109
3.9e+08	-0.00618575	0.01137405	0.8960855	0.02637474	0.001713957	0.006643238	0.0001859992	-0.007072641
	0.8960855	0.02637474	-0.005771775	0.01174117	0.0001849482	-0.007072441	0.00187832	0.006774045
	0.001713957	0.006643238	0.0001849482	-0.007072441	-0.006127967	0.01156709	0.896092	0.02301557
	0.0001859992	-0.007072641	0.00187832	0.006774045	0.896092	0.02301557	-0.005684018	0.01196575
4e+08	-0.003183804	0.005189892	0.8877161	-0.1157664	0.003010885	0.008871205	-0.0009501904	-0.00705563
	0.8877161	-0.1157664	-0.003222721	0.005560081	-0.0009515786	-0.007055062	0.003004552	0.009011026
	0.003010885	0.008871205	-0.0009515786	-0.007055062	-0.00310457	0.005337789	0.8871797	-0.1191627
	-0.0009501904	-0.00705563	0.003004552	0.009011026	0.8871797	-0.1191627	-0.003155349	0.005743523
4.1e+08	-0.00233079	-0.00163355	0.8569426	-0.2545995	0.004932177	0.01057716	-0.002039681	-0.006872737
	0.8569426	-0.2545995	-0.002822733	-0.001111356	-0.002041226	-0.006871596	0.004757765	0.01078208
	0.004932177	0.01057716	-0.002041226	-0.006871596	-0.002245811	-0.001535438	0.8558515	-0.2579438
	-0.002039681	-0.006872737	0.004757765	0.01078208	0.8558515	-0.2579438	-0.002790232	-0.0009599644
4.2e+08	-0.003716217	-0.008394401	0.8045998	-0.386599	0.007277459	0.01158566	-0.003071332	-0.00655292
	0.8045998	-0.386599	-0.004613473	-0.007575637	-0.003072762	-0.006551099	0.006955467	0.01190931
	0.007277459	0.01158566	-0.003072762	-0.006551099	-0.003642052	-0.008345606	0.802957	-0.3897993
	-0.003071332	-0.00655292	0.006955467	0.01190931	0.802957	-0.3897993	-0.004626782	-0.007442897
4.3e+08	-0.007206581	-0.01439889	0.732084	-0.5084228	0.009799534	0.01179535	-0.004047231	-0.006116668
	0.732084	-0.5084228	-0.00841651	-0.01315866	-0.004048236	-0.006114198	0.009367027	0.01228323
	0.009799534	0.01179535	-0.004048236	-0.006114198	-0.007158986	-0.01439374	0.7299082	-0.5113864
	-0.004047231	-0.006116668	0.009367027	0.01228323	0.7299082	-0.5113864	-0.008481772	-0.01302818
4.4e+08	-0.01245955	-0.01903045	0.6413138	-0.6170053	0.01223114	0.01119042	-0.004975438	-0.005571009
	0.6413138	-0.6170053	-0.01385238	-0.01727738	-0.004975737	-0.005568065	0.01173863	0.01187482
	0.01223114	0.01119042	-0.004975737	-0.005568065	-0.01245187	-0.01905857	0.6386395	-0.619642
	-0.004975438	-0.005571009	0.01173863	0.01187482	0.6386395	-0.619642	-0.01397018	-0.0171315
4.5e+08	-0.01895903	-0.02181071	0.5346731	-0.7096419	0.01431408	0.009842602	-0.005861275	-0.004908814
	0.5346731	-0.7096419	-0.02037987	-0.01949779	-0.005860682	-0.004905687	0.01382089	0.01073869
	0.01431408	0.009842602	-0.005860682	-0.004905687	-0.0190008	-0.02185792	0.5315506	-0.7118665
	-0.005861275	-0.004908814	0.01382089	0.01073869	0.5315506	-0.7118665	-0.02054506	-0.01931937
4.6e+08	-0.02606734	-0.02244604	0.4149402	-0.78406	0.01582735	0.007903264	-0.006699383	-0.004112537
	0.4149402	-0.78406	-0.02735129	-0.0195772	-0.006697857	-0.004109581	0.01539577	0.009006777
	0.01582735	0.007903264	-0.006697857	-0.004109581	-0.02616329	-0.02249581	0.4114345	-0.7857953
	-0.006699383	-0.004112537	0.01539577	0.009006777	0.4114345	-0.7857953	-0.02755346	-0.01935156
4.7e+08	-0.03308889	-0.02085537	0.2852054	-0.8384731	0.01661077	0.00558673	-0.007468628	-0.003161507
	0.2852054	-0.8384731	-0.03407771	-0.01748695	-0.007466284	-0.003159067	0.01629977	0.006873634
	0.01661077	0.00558673	-0.007466284	-0.003159067	-0.03323836	-0.02089032	0.2813954	-0.8396528
	-0.007468628	-0.003161507	0.01629977	0.006873634	0.2813954	-0.8396528	-0.03430214	-0.01720334
4.8e+08	-0.03933885	-0.01717675	0.148784	-0.8716191	0.01658177	0.003146954	-0.008131141	-0.002040997
	0.148784	-0.8716191	-0.03989753	-0.01341353	-0.008128234	-0.002039338	0.01644069	0.004575185
	0.01658177	0.003146954	-0.008128234	-0.002039338	-0.03953578	-0.0171804	0.14476	-0.8721899
	-0.008131141	-0.002040997	0.01644069	0.004575185	0.14476	-0.8721899	-0.04012669	-0.01306636
4.9e+08	-0.04421008	-0.01175241	0.009126771	-0.8827805	0.01574344	0.000850367	-0.008635941	-0.0007508865
	0.009126771	-0.8827805	-0.04424142	-0.007738534	-0.008632814	-0.0007501351	0.01580654	0.002363537
	0.01574344	0.000850367	-0.008632814	-0.0007501351	-0.0444435	-0.01171086	0.004987997	-0.8827045
	-0.008635941	-0.0007508865	0.01580654	0.002363537	0.004987997	-0.8827045	-0.04445677	-0.007328075
5e+08	-0.04723167	-0.005094307	-0.1302683	-0.8717905	0.01418347	-0.001052033	-0.008926387	0.0006881701
	-0.1302683	-0.8717905	-0.04668759	-0.0009998168	-0.0089234	0.0006880493	0.01446586	0.0004807206
	0.01418347	-0.001052033	-0.0089234	0.0006880493	-0.04748674	-0.004997657	-0.1344159	-0.8710464
	-0.008926387	0.0006881701	0.01446586	0.0004807206	-0.1344159	-0.8710464	-0.04687145	-0.0005322573
5.1e+08	-0.04811404	0.002166399	-0.2659395	-0.8390253	0.01206446	-0.002350432	-0.008949928	0.00223259
