!$
! Info: Touchstone file created by Circ.  Input file=Tx_10in_Rx_100ohms_TxVia_60mils_RxVia_70mils.circ
!$
# Hz S RI R 50
0	0.01043798	1.401419e-25	-5.390737e-05	7.46411e-24	7.329508e-05	2.059428e-23	-5.394322e-05	1.199679e-23
	-5.390736e-05	7.463425e-24	0.01043322	1.646099e-25	-5.38699e-05	2.994183e-24	7.350085e-05	2.542693e-23
	7.427547e-05	2.095529e-23	-5.386989e-05	2.992993e-24	0.01045186	1.341635e-25	-5.390122e-05	6.973459e-24
	-5.394321e-05	1.199554e-23	7.37704e-05	2.553596e-23	-5.390123e-05	6.974077e-24	0.0104476	1.638868e-25
1e+07	0.01438194	0.006881746	-8.642085e-05	-3.515819e-05	0.0003128066	0.001908439	-0.0002277798	0.0001367566
	-8.642085e-05	-3.515819e-05	0.0153899	0.006624998	-3.132166e-05	-1.243958e-05	0.0006643306	0.001955765
	0.0003128159	0.001908406	-3.132166e-05	-1.243958e-05	0.01495246	0.00660466	-9.59461e-06	-1.311142e-05
	-0.0002277798	0.0001367566	0.0006643332	0.001955763	-9.594612e-06	-1.311143e-05	0.01525204	0.006648316
2e+07	0.01955405	0.01012292	-5.257294e-05	-7.557918e-05	0.0008996854	0.003760044	-0.0002651051	0.0001355873
	-5.257294e-05	-7.557918e-05	0.02004974	0.009375293	-2.548827e-05	-1.324243e-05	0.001125361	0.003990166
	0.0008996583	0.003760043	-2.548827e-05	-1.324243e-05	0.01970542	0.009503499	-9.369886e-06	1.942203e-06
	-0.0002651051	0.0001355873	0.001125358	0.003990166	-9.36989e-06	1.942205e-06	0.01996024	0.009468844
3e+07	0.02404317	0.01105605	-3.489013e-05	-8.899417e-05	0.001834132	0.005405483	-0.0002907908	0.0001548245
	-3.489013e-05	-8.899417e-05	0.02412325	0.01022539	-2.167868e-05	-1.377857e-05	0.001966136	0.005704142
	0.001834129	0.005405488	-2.167868e-05	-1.377857e-05	0.02387505	0.01039887	-1.148219e-05	1.393661e-06
	-0.0002907908	0.0001548245	0.001966136	0.005704144	-1.148219e-05	1.393662e-06	0.02407534	0.01034514
4e+07	0.02809853	0.01077518	-7.325661e-05	-7.26626e-05	0.003067941	0.006804314	-0.0003103152	0.0001781565
	-7.325661e-05	-7.26626e-05	0.02782534	0.01000282	-1.868653e-05	-1.387711e-05	0.003148442	0.007141791
	0.003067941	0.006804309	-1.868653e-05	-1.387711e-05	0.02767923	0.01018359	-1.45189e-05	4.230194e-07
	-0.0003103152	0.0001781565	0.003148442	0.007141792	-1.45189e-05	4.230186e-07	0.02781519	0.01013358
5e+07	0.0317229	0.009566264	-0.0001022787	-4.664177e-05	0.004541591	0.007906195	-0.0003251667	0.0002039992
	-0.0001022787	-4.664177e-05	0.03115483	0.008943089	-1.613603e-05	-1.386178e-05	0.004725278	0.008187993
	0.004541589	0.007906193	-1.613603e-05	-1.386178e-05	0.0311142	0.009100999	-1.766707e-05	9.183994e-07
	-0.0003251667	0.0002039992	0.004725279	0.008187993	-1.766707e-05	9.183992e-07	0.03117813	0.009074907
6e+07	0.03486427	0.007599575	-0.0001220034	-1.387765e-05	0.00618707	0.008671902	-0.0003360329	0.0002315247
	-0.0001220034	-1.387765e-05	0.03406391	0.007192524	-1.380931e-05	-1.384958e-05	0.006438711	0.00888176
	0.006187072	0.008671906	-1.380931e-05	-1.384958e-05	0.03412582	0.007298436	-2.062358e-05	2.678089e-06
	-0.0003360329	0.0002315247	0.006438713	0.00888176	-2.062358e-05	2.67809e-06	0.03411592	0.007317988
7e+07	0.03745728	0.005013036	-0.0001320841	2.351037e-05	0.007941791	0.009066125	-0.0003435653	0.0002598696
	-0.0001320841	2.351037e-05	0.03649191	0.004870563	-1.302127e-05	-1.262392e-05	0.00821743	0.00920704
	0.0079418	0.009066131	-1.302127e-05	-1.262392e-05	0.03664748	0.004897595	-2.305098e-05	5.534706e-06
	-0.0003435653	0.0002598696	0.008217431	0.009207039	-2.305098e-05	5.534706e-06	0.03656727	0.004983901
8e+07	0.03943962	0.001936946	-0.0001319668	6.377897e-05	0.009716666	0.009085693	-0.0003488283	0.0002880297
	-0.0001319668	6.377898e-05	0.038381	0.002091868	-1.505872e-05	-7.858996e-06	0.00998688	0.009160791
	0.009716679	0.009085696	-1.505872e-05	-7.858996e-06	0.038616	0.002016148	-2.46692e-05	9.259964e-06
	-0.0003488283	0.0002880297	0.009986881	0.00916079	-2.46692e-05	9.259963e-06	0.03847357	0.002188795
9e+07	0.04075941	-0.001498599	-0.0001206829	0.0001055373	0.0114323	0.008739851	-0.0003540115	0.0003146933
	-0.0001206829	0.0001055373	0.03968538	-0.001026387	-1.564739e-05	-2.768334e-06	0.01167193	0.008753836
	0.01143231	0.008739851	-1.564739e-05	-2.768334e-06	0.03998051	-0.001225184	-2.534104e-05	1.355308e-05
	-0.0003540115	0.0003146933	0.01167193	0.008753835	-2.534104e-05	1.355308e-05	0.03978834	-0.000948708
1e+08	0.04137322	-0.005165287	-9.323027e-05	0.0001494593	0.01301998	0.008052826	-0.0003682435	0.000335164
	-9.323027e-05	0.0001494593	0.04038963	-0.004356772	-1.410139e-05	2.726539e-06	0.01319422	0.008007863
	0.01301998	0.008052825	-1.410139e-05	2.726539e-06	0.04071944	-0.004695603	-2.514192e-05	1.807002e-05
	-0.0003682435	0.000335164	0.01319422	0.008007863	-2.514192e-05	1.807002e-05	0.04049413	-0.004300488
1.1e+08	0.04126725	-0.008880231	-5.408641e-05	0.0001668003	0.01441162	0.00703546	-0.0003638845	0.0003288165
	-5.408641e-05	0.0001668003	0.04047814	-0.007875353	-1.058071e-05	4.998766e-06	0.01448894	0.007004095
	0.01441162	0.00703546	-1.058071e-05	4.998766e-06	0.04081155	-0.008354795	-2.358493e-05	2.183419e-05
	-0.0003638845	0.0003288165	0.01448893	0.007004095	-2.358493e-05	2.183419e-05	0.04057589	-0.007831531
1.2e+08	0.04049085	-0.01254525	-4.794208e-05	0.0001646884	0.01552615	0.005755608	-0.000348339	0.0003303609
	-4.794208e-05	0.0001646884	0.03986729	-0.01139668	-7.959501e-06	6.475759e-06	0.01553901	0.00576626
	0.01552615	0.005755608	-7.959501e-06	6.475759e-06	0.04018207	-0.01201723	-2.068803e-05	2.528437e-05
	-0.000348339	0.0003303609	0.01553901	0.005766261	-2.068803e-05	2.528437e-05	0.0399589	-0.01136196
1.3e+08	0.03906001	-0.016044	-3.911925e-05	0.0001637341	0.01632294	0.004279493	-0.0003302141	0.0003329882
	-3.911925e-05	0.0001637341	0.03860013	-0.01478244	-5.65581e-06	7.35251e-06	0.01629229	0.0043456
	0.01632294	0.004279493	-5.65581e-06	7.35251e-06	0.03887142	-0.01554048	-1.683626e-05	2.804271e-05
	-0.0003302141	0.0003329882	0.01629229	0.004345601	-1.683626e-05	2.804271e-05	0.03868457	-0.01475464
1.4e+08	0.03701877	-0.01926121	-2.872053e-05	0.0001627396	0.01677086	0.002678027	-0.000311713	0.0003352315
	-2.872053e-05	0.0001627396	0.03672456	-0.01791372	-3.571698e-06	7.794379e-06	0.01671578	0.002806458
	0.01677086	0.002678027	-3.571698e-06	7.794379e-06	0.03692774	-0.01879995	-1.232397e-05	2.985179e-05
	-0.000311713	0.0003352315	0.01671577	0.002806459	-1.232397e-05	2.985179e-05	0.03680077	-0.01789071
1.5e+08	0.03443156	-0.02209118	-1.740575e-05	0.0001610871	0.01685325	0.001026545	-0.0002941704	0.0003367246
	-1.740575e-05	0.0001610871	0.0343051	-0.02068423	-1.676987e-06	7.892059e-06	0.01679152	0.001219058
	0.01685325	0.001026545	-1.676987e-06	7.892059e-06	0.03441745	-0.02168362	-7.479271e-06	3.05551e-05
	-0.0002941704	0.0003367246	0.01679151	0.001219059	-7.479271e-06	3.05551e-05	0.03437225	-0.02066378
1.6e+08	0.03138062	-0.02444182	-5.700876e-06	0.0001584458	0.01656894	-0.000598015	-0.0002785008	0.0003376818
	-5.700876e-06	0.0001584458	0.03142222	-0.02300219	3.702499e-08	7.707655e-06	0.01651678	-0.0003440288
	0.01656894	-0.000598015	3.702499e-08	7.707655e-06	0.03142432	-0.02409435	-2.650148e-06	3.01023e-05
	-0.0002785008	0.0003376818	0.01651678	-0.0003440281	-2.650148e-06	3.01023e-05	0.03147984	-0.022982
1.7e+08	0.02796312	-0.02623765	5.938901e-06	0.000154681	0.01593244	-0.002120261	-0.0002652785	0.0003386842
	5.938901e-06	0.000154681	0.02817025	-0.02479257	1.570813e-06	7.289568e-06	0.01590401	-0.001811153
	0.01593244	-0.002120261	1.570813e-06	7.289568e-06	0.02804724	-0.02595256	1.82251e-06	2.85501e-05
	-0.0002652785	0.0003386842	0.01590401	-0.001811153	1.82251e-06	2.85501e-05	0.02821828	-0.02477032
1.8e+08	0.02428803	-0.02742235	1.712442e-05	0.0001498088	0.01497338	-0.003469493	-0.0002547404	0.0003405362
	1.712442e-05	0.0001498088	0.02465442	-0.02599918	2.922267e-06	6.678749e-06	0.01498023	-0.003114721
	0.01497338	-0.003469493	2.922267e-06	6.678749e-06	0.02439712	-0.02719851	5.634224e-06	2.605506e-05
	-0.0002547404	0.0003405362	0.01498023	-0.00311472	5.634224e-06	2.605506e-05	0.02469326	-0.0259726
1.9e+08	0.02047239	-0.02796062	2.755058e-05	0.0001439621	0.01373523	-0.004582707	-0.0002467813	0.0003441449
	2.755058e-05	0.0001439621	0.02098754	-0.02658622	3.427579e-06	6.140494e-06	0.01378584	-0.004194124
	0.01373523	-0.004582707	3.427579e-06	6.140494e-06	0.02059323	-0.02779416	8.552394e-06	2.28587e-05
	-0.0002467813	0.0003441449	0.01378584	-0.004194123	8.552394e-06	2.28587e-05	0.02101801	-0.02655321
2e+08	0.01663742	-0.0278394	3.698978e-05	0.000137354	0.01227351	-0.005407274	-0.0002409601	0.0003504076
	3.698978e-05	0.000137354	0.01728625	-0.02653929	3.397736e-06	5.790421e-06	0.01237291	-0.004998363
	0.01227351	-0.005407274	3.397736e-06	5.790421e-06	0.01675919	-0.02772432	1.041813e-05	1.925972e-05
	-0.0002409601	0.0003504076	0.01237291	-0.004998363	1.041813e-05	1.925972e-05	0.01730959	-0.02649799
2.1e+08	0.01290434	-0.02706822	4.530871e-05	0.0001302515	0.01065333	-0.005903209	-0.0002365272	0.0003601098
	4.530871e-05	0.0001302515	0.01366716	-0.0258657	3.374144e-06	5.496309e-06	0.01080295	-0.005488255
	0.01065333	-0.005903209	3.374144e-06	5.496309e-06	0.01301878	-0.02699706	1.116795e-05	1.559193e-05
	-0.0002365272	0.0003601098	0.01080295	-0.005488255	1.116795e-05	1.559193e-05	0.01368495	-0.02581455
2.2e+08	0.009390197	-0.02567891	5.248264e-05	0.0001229411	0.008946649	-0.006044889	-0.0002324733	0.0003738346
	5.248264e-05	0.0001229411	0.01024288	-0.02459401	3.362016e-06	5.255252e-06	0.009144215	-0.005638135
	0.008946648	-0.006044889	3.362016e-06	5.255252e-06	0.00949163	-0.02564337	1.084953e-05	1.219168e-05
	-0.0002324733	0.0003738346	0.009144215	-0.005638135	1.084953e-05	1.219168e-05	0.01025699	-0.02453185
2.3e+08	0.006203801	-0.02372444	5.858398e-05	0.000115694	0.007229134	-0.005822156	-0.0002275981	0.0003918893
	5.858398e-05	0.000115694	0.007118289	-0.02277295	3.368507e-06	5.063272e-06	0.007468813	-0.005436968
	0.007229134	-0.005822156	3.368507e-06	5.063272e-06	0.006289082	-0.02371595	9.610525e-06	9.364641e-06
	-0.0002275981	0.0003918893	0.007468813	-0.005436968	9.610525e-06	9.364641e-06	0.007130786	-0.02269906
2.4e+08	0.003441896	-0.02127702	6.376869e-05	0.0001087389	0.005576875	-0.005240762	-0.0002205959	0.0004142581
	6.376869e-05	0.0001087389	0.004386867	-0.0204696	3.401611e-06	4.914737e-06	0.005849576	-0.004888834
	0.005576875	-0.005240762	3.401611e-06	4.914737e-06	0.003510226	-0.02128726	7.684593e-06	7.356987e-06
	-0.0002205959	0.0004142581	0.005849576	-0.004888834	7.684593e-06	7.356987e-06	0.004399915	-0.02038372
2.5e+08	0.00118577	-0.01842547	6.825673e-05	0.000102237	0.004063091	-0.004322103	-0.0002101501	0.0004405751
	6.825673e-05	0.000102237	0.002127608	-0.0177669	3.469498e-06	4.801587e-06	0.00435692	-0.004012746
	0.004063091	-0.004322103	3.469498e-06	4.801587e-06	0.001238461	-0.0184469	5.36928e-06	6.332023e-06
	-0.0002101501	0.0004405751	0.00435692	-0.004012746	5.36928e-06	6.332023e-06	0.00214337	-0.01766925
2.6e+08	-0.0005016099	-0.01527207	7.230587e-05	9.626694e-05	0.002754945	-0.003102279	-0.0001950308	0.0004701288
	7.230587e-05	9.626694e-05	0.0004023038	-0.01476062	3.579267e-06	4.713361e-06	0.003055811	-0.002841831
	0.002754945	-0.003102279	3.579267e-06	4.713361e-06	-0.0004614789	-0.01529829	2.997981e-06	6.354717e-06
	-0.0001950308	0.0004701288	0.003055811	-0.002841831	2.997981e-06	6.354717e-06	0.0004228366	-0.01465191
2.7e+08	-0.001577793	-0.01192876	7.61829e-05	9.081668e-05	0.001710632	-0.001630515	-0.000174189	0.0005018908
	7.61829e-05	9.081668e-05	-0.0007464901	-0.01155591	3.735975e-06	4.637321e-06	0.002002966	-0.001421883
	0.001710632	-0.001630515	3.735975e-06	4.637321e-06	-0.001545763	-0.01195485	9.084062e-07	7.385322e-06
	-0.000174189	0.0005018908	0.002002966	-0.001421883	9.084062e-07	7.385322e-06	-0.0007193326	-0.01143727
2.8e+08	-0.002022293	-0.008513138	8.013422e-05	8.57863e-05	0.0009768663	3.299491e-05	-0.0001468351	0.0005345735
	8.013422e-05	8.57863e-05	-0.001296808	-0.008263481	3.941687e-06	4.559218e-06	0.001244425	0.0001906207
	0.0009768663	3.299491e-05	3.941687e-06	4.559218e-06	-0.00199296	-0.00853584	-5.89149e-07	9.28298e-06
	-0.0001468351	0.0005345735	0.001244425	0.0001906207	-5.89149e-07	9.28298e-06	-0.001261462	-0.00813644
2.9e+08	-0.001837225	-0.005144116	8.435862e-05	8.09983e-05	0.0005868688	0.001819715	-0.0001125034	0.000566703
	8.435862e-05	8.09983e-05	-0.001247883	-0.004995589	4.194879e-06	4.464135e-06	0.0008135914	0.001930962
	0.0005868687	0.001819715	4.194879e-06	4.464135e-06	-0.001804696	-0.005161972	-1.241158e-06	1.18186e-05
	-0.0001125034	0.000566703	0.0008135914	0.001930962	-1.241158e-06	1.18186e-05	-0.001203157	-0.004861977
3e+08	-0.001047101	-0.001937618	8.89848e-05	7.621605e-05	0.0005589544	0.003655743	-7.109235e-05	0.000596709
	8.89848e-05	7.621605e-05	-0.000619974	-0.001862025	4.490157e-06	4.337592e-06	0.0007298198	0.003728978
	0.0005589544	0.003655743	4.490157e-06	4.337592e-06	-0.001005451	-0.001950967	-8.749358e-07	1.469599e-05
	-7.109235e-05	0.000596709	0.0007298198	0.003728978	-8.749358e-07	1.469599e-05	-0.0005651076	-0.001723907
3.1e+08	0.0003022023	0.0009976347	9.405614e-05	7.116883e-05	0.0008957666	0.005465016	-2.287448e-05	0.0006230226
	9.405614e-05	7.116883e-05	0.000546568	0.001033809	4.818416e-06	4.166844e-06	0.0009976229	0.005512068
	0.0008957665	0.005465016	4.818416e-06	4.166844e-06	0.0003584944	0.0009867497	5.851579e-07	1.757932e-05
	-2.287448e-05	0.0006230226	0.0009976229	0.005512068	5.851579e-07	1.757932e-05	0.0006118643	0.001174238
3.2e+08	0.002145268	0.003564052	9.952304e-05	6.557934e-05	0.001584193	0.00717258	3.151334e-05	0.0006441709
	9.952304e-05	6.557934e-05	0.002192961	0.003598547	5.167384e-06	3.941899e-06	0.001606514	0.007208298
	0.001584193	0.00717258	5.167384e-06	3.941899e-06	0.002220928	0.003552063	3.110055e-06	2.012392e-05
	3.151334e-05	0.0006441709	0.001606514	0.007208298	3.110055e-06	2.012392e-05	0.002268487	0.003739067
3.3e+08	0.004399686	0.005678658	0.0001052445	5.91928e-05	0.002595958	0.008707809	9.110842e-05	0.0006588667
	0.0001052445	5.91928e-05	0.00424432	0.005752117	5.52253e-06	3.65639e-06	0.002531489	0.008749457
	0.002595958	0.008707809	5.52253e-06	3.65639e-06	0.004498306	0.005660739	6.567985e-06	2.200812e-05
	9.110842e-05	0.0006588667	0.002531489	0.008749457	6.567985e-06	2.200812e-05	0.004329384	0.005890589
3.4e+08	0.006969211	0.007276023	0.0001109989	5.180427e-05	0.003888854	0.01000742	0.0001546876	0.000666082
	0.0001109989	5.180427e-05	0.006612537	0.007430475	5.868266e-06	3.30816e-06	0.003734122	0.01007393
	0.003888854	0.01000742	5.868266e-06	3.30816e-06	0.007092988	0.007246413	1.073643e-05	2.296268e-05
	0.0001546876	0.000666082	0.003734122	0.01007393	1.073643e-05	2.296268e-05	0.00670599	0.007564944
3.5e+08	0.009747418	0.008310513	0.0001165011	4.328128e-05	0.00540856	0.01101813	0.00022084	0.0006651016
	0.0001165011	4.328128e-05	0.009199632	0.008587727	6.189194e-06	2.899322e-06	0.005164216	0.0111293
	0.00540856	0.01101813	6.189194e-06	2.899322e-06	0.009896972	0.008262891	1.531964e-05	2.279619e-05
	0.00022084	0.0006651016	0.005164216	0.0111293	1.531964e-05	2.279619e-05	0.009299908	0.00871652
3.6e+08	0.01262171	0.00875779	0.0001214276	3.358031e-05	0.007090964	0.01169896	0.000288054	0.0006555531
	0.0001214276	3.358031e-05	0.01190141	0.009197564	6.465816e-06	2.436076e-06	0.006761939	0.01187451
	0.007090964	0.01169896	6.465816e-06	2.436076e-06	0.01279599	0.008685674	2.051221e-05	2.115237e-05
	0.000288054	0.0006555531	0.006761939	0.01187451	2.051221e-05	2.115237e-05	0.0120066	0.009319374
3.7e+08	0.01547749	0.008615517	0.000125443	2.275543e-05	0.008864873	0.01202291	0.0003548209	0.0006374127
	0.000125443	2.275543e-05	0.01461131	0.009253971	6.691028e-06	1.928725e-06	0.008460348	0.01228157
	0.008864873	0.01202291	6.691028e-06	1.928725e-06	0.0156738	0.008512671	2.54629e-05	1.813626e-05
	0.0003548209	0.0006374127	0.008460348	0.01228157	2.54629e-05	1.813626e-05	0.01471924	0.009367927
3.8e+08	0.01820247	0.007903238	0.0001282305	1.095827e-05	0.01065502	0.0119781	0.000419711	0.0006109835
	0.0001282305	1.095827e-05	0.01722431	0.008771188	6.857754e-06	1.389221e-06	0.01018819	0.01233674
	0.01065502	0.0119781	6.857754e-06	1.389221e-06	0.01841652	0.007764069	2.970693e-05	1.391254e-05
	0.000419711	0.0006109835	0.01018819	0.01233674	2.970693e-05	1.391254e-05	0.01733263	0.008876904
3.9e+08	0.0206907	0.006661465	0.0001295187	-1.570552e-06	0.01238521	0.01156831	0.000481453	0.0005768528
	0.0001295187	-1.570552e-06	0.01964069	0.00778294	6.961592e-06	8.307273e-07	0.01187289	0.01204106
	0.01238521	0.01156831	6.961592e-06	8.307273e-07	0.02091684	0.006481374	3.293859e-05	8.701056e-06
	0.000481453	0.0005768528	0.01187289	0.01204106	3.293859e-05	8.701056e-06	0.019747	0.007880547
4e+08	0.0228465	0.004949983	0.0001291068	-1.451775e-05	0.01398154	0.0108128	0.0005389947	0.0005358323
	0.0001291068	-1.451775e-05	0.0217696	0.006340977	7.001951e-06	2.665006e-07	0.01344353	0.01141031
	0.01398154	0.0108128	7.001951e-06	2.665006e-07	0.02307793	0.00472569	3.492605e-05	2.799789e-06
	0.0005389947	0.0005358323	0.01344353	0.01141031	3.492605e-05	2.799789e-06	0.02187156	0.006431123
4.1e+08	0.02458787	0.00284548	0.0001268826	-2.752022e-05	0.01537545	0.009745581	0.0005915453	0.0004888828
	0.0001268826	-2.752022e-05	0.02353226	0.004512967	6.981787e-06	-2.912035e-07	0.01483383	0.01047437
	0.01537545	0.009745581	6.981787e-06	-2.912035e-07	0.02481699	0.00257526	3.553093e-05	-3.440173e-06
	0.0005915453	0.0004888828	0.01483383	0.01047437	3.553093e-05	-3.440173e-06	0.02362768	0.004596805
4.2e+08	0.02584941	0.0004385585	0.0001228338	-4.019221e-05	0.01650665	0.008414004	0.0006385924	0.0004370322
	0.0001228338	-4.019221e-05	0.02486467	0.002379851	6.907026e-06	-8.320561e-07	0.01598488	0.009276049
	0.01650665	0.008414004	6.907026e-06	-8.320561e-07	0.02606818	0.0001224149	3.47196e-05	-9.643984e-06
	0.0006385924	0.0004370322	0.01598488	0.009276049	3.47196e-05	-9.643984e-06	0.02495163	0.002458995
4.3e+08	0.02658466	-0.00216973	0.0001170505	-5.215467e-05	0.01732564	0.00687685	0.000679894	0.0003812973
	0.0001170505	-5.215467e-05	0.0257198	3.274034e-05	6.785768e-06	-1.348352e-06	0.01684761	0.007869266
	0.01732564	0.00687685	6.785768e-06	-1.348352e-06	0.026785	-0.002529979	3.25653e-05	-1.544432e-05
	0.000679894	0.0003812973	0.01684761	0.007869266	3.25653e-05	-1.544432e-05	0.02579674	0.0001092097
4.4e+08	0.02676763	-0.004871732	0.0001097198	-6.306405e-05	0.01779579	0.005201933	0.0007154501	0.00032261
	0.0001097198	-6.306405e-05	0.0260691	-0.00243052	6.627371e-06	-1.83542e-06	0.01738484	0.006316915
	0.01779579	0.005201933	6.627371e-06	-1.83542e-06	0.02694183	-0.005272463	2.924122e-05	-2.051212e-05
	0.0007154501	0.00032261	0.01738484	0.006316915	2.924122e-05	-2.051212e-05	0.02613491	-0.002354392
4.5e+08	0.0263937	-0.007557246	0.0001011114	-7.263849e-05	0.01789502	0.003463321	0.0007454541	0.0002617622
	0.0001011114	-7.263849e-05	0.02590339	-0.004909017	6.441482e-06	-2.291773e-06	0.01757287	0.004688272
	0.01789502	0.003463321	6.441482e-06	-2.291773e-06	0.02653484	-0.007993127	2.500483e-05	-2.45838e-05
	0.0007454541	0.0002617622	0.01757287	0.004688272	2.500483e-05	-2.45838e-05	0.02595748	-0.004830672
4.6e+08	0.0254796	-0.01011767	9.155761e-05	-8.067975e-05	0.01761675	0.001738284	0.0007702185	0.0001994756
	9.155761e-05	-8.067975e-05	0.02523302	-0.007302503	6.23709e-06	-2.718988e-06	0.01740252	0.003056161
	0.01761675	0.001738284	6.23709e-06	-2.718988e-06	0.0255819	-0.01058185	2.017558e-05	-2.748392e-05
	0.0007702185	0.0001994756	0.01740252	0.003056161	2.017558e-05	-2.748392e-05	0.02527532	-0.007219272
4.7e+08	0.02406267	-0.01245009	8.133717e-05	-8.692654e-05	0.01697031	0.0001040907	0.0007905941	0.0001198328
	8.133717e-05	-8.692654e-05	0.02408726	-0.009515103	6.024415e-06	-3.121618e-06	0.01687962	0.001493952
	0.01697031	0.0001040907	6.024415e-06	-3.121618e-06	0.02412188	-0.01293445	1.502176e-05	-2.897629e-05
	0.0007905941	0.0001198328	0.01687962	0.001493952	1.502176e-05	-2.897629e-05	0.02411824	-0.009424322
4.8e+08	0.02219944	-0.01446109	7.093665e-05	-9.149656e-05	0.01598064	-0.001365232	0.0008031938	3.729991e-05
	7.093665e-05	-9.149656e-05	0.02251312	-0.01145883	5.806518e-06	-3.506998e-06	0.01602482	7.250786e-05
