!$
! Info: Touchstone file created by Circ.  Input file=Tx_12in_Rx_100ohms_TxVia_60mils_RxVia_70mils.circ
!$
# Hz S RI R 50
0	0.01246766	1.550438e-25	-3.630981e-11	9.184816e-27	8.419673e-05	2.402559e-23	-3.171342e-09	3.935178e-25
	-3.631058e-11	9.184924e-27	0.01246318	1.906396e-25	3.528505e-11	2.379653e-27	8.391069e-05	3.040506e-23
	8.527989e-05	2.41861e-23	3.528089e-11	2.380158e-27	0.012483	1.55072e-25	-1.603719e-11	8.239186e-27
	-3.171217e-09	3.935024e-25	8.418012e-05	3.053544e-23	-1.613056e-11	8.250572e-27	0.01247751	1.898111e-25
1e+07	0.01796363	0.007466449	5.217546e-11	1.519418e-10	0.0004102272	0.00223161	-3.647341e-09	8.067684e-09
	5.217546e-11	1.519419e-10	0.01850707	0.007493816	6.108953e-11	1.705117e-10	0.0008289209	0.002268015
	0.0004102586	0.002231615	6.108953e-11	1.705117e-10	0.01733131	0.007843005	-3.710155e-09	1.022414e-08
	-3.647341e-09	8.067684e-09	0.0008289238	0.002268013	-3.710155e-09	1.022414e-08	0.01834023	0.007524074
2e+07	0.02381734	0.01027285	3.22992e-11	2.902341e-10	0.001223548	0.004354379	-1.153188e-10	-2.761457e-11
	3.22992e-11	2.902341e-10	0.0242521	0.01012754	5.309657e-11	3.132089e-10	0.001497801	0.004595376
	0.001223563	0.00435436	5.309656e-11	3.132089e-10	0.02374011	0.0110626	9.429847e-11	6.12623e-10
	-1.153187e-10	-2.761457e-11	0.001497798	0.004595377	9.429848e-11	6.12623e-10	0.02414678	0.01024117
3e+07	0.02886835	0.01050363	-2.187691e-11	4.424188e-10	0.002499203	0.006158761	-3.058869e-11	4.953385e-10
	-2.187691e-11	4.424188e-10	0.02919589	0.01030992	9.328727e-12	4.627452e-10	0.002666036	0.006472298
	0.002499204	0.006158758	9.328728e-12	4.627452e-10	0.02921882	0.01131397	-2.577891e-12	5.210428e-10
	-3.058869e-11	4.953385e-10	0.002666036	0.0064723	-2.577893e-12	5.210428e-10	0.02914342	0.0104522
4e+07	0.03330402	0.009266304	-9.514017e-11	6.138067e-10	0.004148178	0.007574518	-8.912764e-11	7.128702e-10
	-9.514017e-11	6.138067e-10	0.03352255	0.009069376	-5.960438e-11	6.261698e-10	0.004256636	0.007926236
	0.004148182	0.007574522	-5.960439e-11	6.261698e-10	0.03398832	0.009954253	-1.001119e-10	6.970795e-10
	-8.912764e-11	7.128702e-10	0.004256637	0.007926237	-1.001119e-10	6.970795e-10	0.03351728	0.009220591
5e+07	0.0370612	0.006906692	-1.823847e-10	8.173652e-10	0.00606156	0.00853089	-1.879379e-10	9.389368e-10
	-1.823847e-10	8.173652e-10	0.03717219	0.006740855	-1.481801e-10	8.175388e-10	0.0062811	0.008796152
	0.006061563	0.008530892	-1.481801e-10	8.175388e-10	0.03798853	0.007387122	-2.023869e-10	9.324063e-10
	-1.879379e-10	9.389368e-10	0.006281101	0.008796152	-2.023869e-10	9.324063e-10	0.03720745	0.006888108
6e+07	0.04003443	0.003668834	-2.712986e-10	1.060409e-09	0.0081175	0.008983011	-2.923292e-10	1.211192e-09
	-2.712986e-10	1.060409e-09	0.04004744	0.003565741	-2.461371e-10	1.045284e-09	0.00839947	0.009146824
	0.008117496	0.00898301	-2.461371e-10	1.045284e-09	0.04111385	0.003891279	-3.05782e-10	1.213685e-09
	-2.923292e-10	1.211192e-09	0.008399471	0.009146824	-3.05782e-10	1.213685e-09	0.04011573	0.003699792
7e+07	0.0421231	-0.0002239631	-3.475863e-10	1.3449e-09	0.01020132	0.008900186	-3.783012e-10	1.533661e-09
	-3.475863e-10	1.3449e-09	0.04205485	-0.00023727	-3.422863e-10	1.312691e-09	0.01048878	0.008976713
	0.01020131	0.008900186	-3.422863e-10	1.312691e-09	0.04326456	-0.0002831728	-3.981566e-10	1.542321e-09
	-3.783012e-10	1.533661e-09	0.01048878	0.008976713	-3.981566e-10	1.542321e-09	0.04214779	-0.0001229618
8e+07	0.04325253	-0.004547897	-3.956634e-10	1.667971e-09	0.01216812	0.008312438	-4.259847e-10	1.899579e-09
	-3.956634e-10	1.667971e-09	0.04312536	-0.004450189	-4.22588e-10	1.620403e-09	0.01242753	0.008311749
	0.0121681	0.00831244	-4.22588e-10	1.620403e-09	0.04436853	-0.004889962	-4.634515e-10	1.917611e-09
	-4.259847e-10	1.899579e-09	0.01242753	0.008311748	-4.634515e-10	1.917611e-09	0.04323387	-0.004359628
9e+07	0.04338511	-0.009075932	-3.995694e-10	2.021928e-09	0.01389922	0.007268061	-4.184936e-10	2.295999e-09
	-3.995694e-10	2.021928e-09	0.04322615	-0.008852482	-4.719985e-10	1.965466e-09	0.01410227	0.007204875
	0.01389921	0.007268065	-4.719985e-10	1.965466e-09	0.04439041	-0.009683368	-4.822938e-10	2.334663e-09
	-4.184936e-10	2.295999e-09	0.01410227	0.007204874	-4.822938e-10	2.334663e-09	0.04334068	-0.008787215
1e+08	0.04253993	-0.01357829	-3.425119e-10	2.395788e-09	0.01529726	0.005842255	-3.397007e-10	2.707448e-09
	-3.425119e-10	2.395788e-09	0.04238157	-0.01322098	-4.772734e-10	2.345845e-09	0.01540737	0.005731571
	0.01529726	0.005842255	-4.772734e-10	2.345845e-09	0.04332867	-0.01442416	-4.316799e-10	2.786002e-09
	-3.397007e-10	2.707448e-09	0.01540737	0.005731571	-4.316799e-10	2.786002e-09	0.04249088	-0.0131807
1.1e+08	0.04073784	-0.01792756	-2.145734e-10	2.743992e-09	0.01627382	0.004104583	-1.923939e-10	3.093362e-09
	-2.145734e-10	2.743992e-09	0.04061377	-0.01744866	-3.985152e-10	2.728325e-09	0.01627667	0.004035676
	0.01627382	0.004104583	-3.985152e-10	2.728325e-09	0.0412524	-0.01882509	-2.820649e-10	3.202647e-09
	-1.923939e-10	3.093362e-09	0.01627667	0.004035677	-2.820649e-10	3.202647e-09	0.04071017	-0.01742078
1.2e+08	0.03799682	-0.02183799	-4.879308e-11	3.05916e-09	0.01675325	0.002193762	-1.670655e-11	3.440747e-09
	-4.879308e-11	3.05916e-09	0.03792885	-0.02124879	-2.735192e-10	3.069921e-09	0.01669598	0.002191108
	0.01675325	0.002193761	-2.735192e-10	3.069921e-09	0.03830301	-0.02272678	-8.985495e-11	3.574248e-09
	-1.670655e-11	3.440747e-09	0.01669598	0.002191108	-8.985495e-11	3.574248e-09	0.03801363	-0.02122875
1.3e+08	0.03446899	-0.02511309	1.318435e-10	3.338281e-09	0.01671815	0.0002383261	1.852242e-10	3.752405e-09
	1.318435e-10	3.338281e-09	0.03447873	-0.02443022	-1.208164e-10	3.36998e-09	0.0166318	0.0003096301
	0.01671815	0.0002383258	-1.208164e-10	3.36998e-09	0.0346021	-0.02595759	1.161797e-10	3.899691e-09
	1.852242e-10	3.752405e-09	0.0166318	0.0003096312	1.161797e-10	3.899691e-09	0.03455143	-0.02441444
1.4e+08	0.03032421	-0.02759923	3.440114e-10	3.580202e-09	0.01617707	-0.001634192	4.22006e-10	4.022682e-09
	3.440114e-10	3.580202e-09	0.03042919	-0.02684514	6.289896e-11	3.641016e-09	0.01608787	-0.001490225
	0.01617707	-0.001634192	6.289896e-11	3.641016e-09	0.03031498	-0.02837415	3.58443e-10	4.18352e-09
	4.22006e-10	4.022682e-09	0.01608787	-0.001490224	3.58443e-10	4.18352e-09	0.03048963	-0.02683017
1.5e+08	0.02575679	-0.02918482	5.780088e-10	3.776018e-09	0.01516839	-0.003302627	6.829445e-10	4.241719e-09
	5.780088e-10	3.776018e-09	0.02596852	-0.02838673	2.699516e-10	3.874192e-09	0.01509808	-0.003094181
	0.01516839	-0.003302627	2.699516e-10	3.874192e-09	0.02563432	-0.02987238	6.260628e-10	4.415387e-09
	6.829445e-10	4.241719e-09	0.01509808	-0.00309418	6.260628e-10	4.415387e-09	0.02601708	-0.02836922
1.6e+08	0.02097782	-0.02980408	8.219825e-10	3.919499e-09	0.01375838	-0.004659126	9.549055e-10	4.402568e-09
	8.219825e-10	3.919499e-09	0.0213004	-0.02899229	4.905232e-10	4.063054e-09	0.01372361	-0.004399637
	0.01375838	-0.004659126	4.905232e-10	4.063054e-09	0.02077015	-0.03039282	9.056944e-10	4.587987e-09
	9.549055e-10	4.402568e-09	0.01372361	-0.004399636	9.056944e-10	4.587987e-09	0.02133811	-0.02896916
1.7e+08	0.01620557	-0.02943939	1.062522e-09	4.007541e-09	0.01203734	-0.005615522	1.222971e-09	4.50173e-09
	1.062522e-09	4.007541e-09	0.01663482	-0.02864528	7.132362e-10	4.203852e-09	0.01204906	-0.005322046
	0.01203734	-0.005615522	7.132362e-10	4.203852e-09	0.01593954	-0.02992343	1.182168e-09	4.697541e-09
	1.222971e-09	4.50173e-09	0.01204906	-0.005322046	1.182168e-09	4.697541e-09	0.01666332	-0.02861383
1.8e+08	0.01165511	-0.02812158	1.285425e-09	4.040506e-09	0.01011414	-0.006108591	1.471281e-09	4.539571e-09
	1.285425e-09	4.040506e-09	0.01217831	-0.02737535	9.258271e-10	4.295816e-09	0.01017718	-0.005800118
	0.01011414	-0.006108591	9.258271e-10	4.295816e-09	0.01135601	-0.02850003	1.439339e-09	4.744199e-09
	1.471281e-09	4.539571e-09	0.01017718	-0.005800118	1.439339e-09	4.744199e-09	0.01219982	-0.02733339
1.9e+08	0.007527988	-0.0259279	1.476521e-09	4.022356e-09	0.00810956	-0.006103821	1.683998e-09	4.52055e-09
	1.476521e-09	4.022356e-09	0.008124237	-0.02525629	1.115873e-09	4.341313e-09	0.008222562	-0.005799562
	0.00810956	-0.006103821	1.115873e-09	4.341313e-09	0.007219069	-0.0262043	1.661053e-09	4.732249e-09
	1.683998e-09	4.52055e-09	0.008222563	-0.005799562	1.661053e-09	4.732249e-09	0.008141346	-0.0252023
2e+08	0.004002414	-0.02297784	1.622645e-09	3.960703e-09	0.006148879	-0.005597427	1.846345e-09	4.453192e-09
	1.622645e-09	3.960703e-09	0.004643548	-0.02240194	1.271546e-09	4.345833e-09	0.006304639	-0.005315159
	0.006148879	-0.005597427	1.271546e-09	4.345833e-09	0.003704453	-0.02315959	1.832164e-09	4.670117e-09
	1.846345e-09	4.453192e-09	0.006304639	-0.005315159	1.832164e-09	4.670117e-09	0.004659134	-0.02233512
2.1e+08	0.001224575	-0.01942674	1.712488e-09	3.866531e-09	0.004354231	-0.004616481	1.945629e-09	4.34987e-09
	1.712488e-09	3.866531e-09	0.001876739	-0.01896011	1.382353e-09	4.317833e-09	0.004540389	-0.004371034
	0.004354231	-0.004616481	1.382353e-09	4.317833e-09	0.0009554426	-0.0195245	1.939567e-09	4.570109e-09
	1.945629e-09	4.34987e-09	0.004540389	-0.004371034	1.939567e-09	4.570109e-09	0.001893728	-0.01888041
2.2e+08	-0.0006984198	-0.01545769	1.737397e-09	3.753693e-09	0.002837124	-0.003217143	1.972216e-09	4.22625e-09
	1.737397e-09	3.753693e-09	-7.275848e-05	-0.01510487	1.439861e-09	4.268428e-09	0.003037212	-0.003019125
	0.002837124	-0.003217143	1.439861e-09	4.268428e-09	-0.0009240995	-0.01548472	1.973176e-09	4.447924e-09
	1.972216e-09	4.22625e-09	0.003037212	-0.003019125	1.973176e-09	4.447924e-09	-5.156253e-05	-0.01501301
2.3e+08	-0.001703606	-0.01127196	1.692122e-09	3.638298e-09	0.00169165	-0.001481098	1.920381e-09	4.100531e-09
	1.692122e-09	3.638298e-09	-0.001143265	-0.01102755	1.438341e-09	4.210895e-09	0.001886421	-0.001335936
	0.00169165	-0.001481098	1.438341e-09	4.210895e-09	-0.001874729	-0.01124347	1.926782e-09	4.321899e-09
	1.920381e-09	4.100531e-09	0.001886421	-0.001335936	1.926782e-09	4.321899e-09	-0.001115365	-0.01092494
2.4e+08	-0.001774958	-0.007078556	1.5754e-09	3.537869e-09	0.0009888101	0.0004895581	1.788972e-09	3.992456e-09
	1.5754e-09	3.537869e-09	-0.001317431	-0.006926921	1.375324e-09	4.160032e-09	0.001157758	0.0005821982
	0.0009888101	0.0004895581	1.375324e-09	4.160032e-09	-0.0018841	-0.007010958	1.798747e-09	4.212052e-09
	1.788972e-09	3.992456e-09	0.001157758	0.0005821982	1.798747e-09	4.212052e-09	-0.001280804	-0.00681559
2.5e+08	-0.000943708	-0.003083433	1.390328e-09	3.470358e-09	0.0007722812	0.002578653	1.581813e-09	3.922146e-09
	1.390328e-09	3.470358e-09	-0.000622502	-0.002999121	1.252008e-09	4.131366e-09	0.0008952616	0.002625033
	0.0007722812	0.002578653	1.252008e-09	4.131366e-09	-0.0009871707	-0.002993643	1.592444e-09	4.138928e-09
	1.581813e-09	3.922146e-09	0.0008952616	0.002625033	1.592444e-09	4.138928e-09	-0.0005757338	-0.00288153
2.6e+08	0.0007137806	0.0005210886	1.1445e-09	3.45305e-09	0.001055897	0.004663089	1.307803e-09	3.908825e-09
	1.1445e-09	3.45305e-09	0.0008716692	0.0005722698	1.073481e-09	4.140244e-09	0.001114732	0.004675137
	0.001055897	0.004663089	1.073481e-09	4.140244e-09	0.0007360427	0.000616367	1.316418e-09	4.122327e-09
	1.307803e-09	3.908825e-09	0.001114732	0.004675137	1.316418e-09	4.122327e-09	0.0009292928	0.0006933705
2.7e+08	0.003080503	0.003566077	8.498583e-10	3.501422e-09	0.001822959	0.006620357	9.80691e-10	3.969521e-09
	8.498583e-10	3.501422e-09	0.003056806	0.003625338	8.487156e-10	4.200845e-09	0.001802923	0.006614999
	0.001822959	0.006620357	8.487156e-10	4.200845e-09	0.003165074	0.003651038	9.842092e-10	4.179982e-09
	9.80691e-10	3.969521e-09	0.001802923	0.006614998	9.842092e-10	4.179982e-09	0.003125247	0.003747099
2.8e+08	0.006005377	0.005914443	5.222556e-10	3.628032e-09	0.003027403	0.008335943	6.184991e-10	4.117825e-09
	5.222556e-10	3.628032e-09	0.005792303	0.006027733	5.903119e-10	4.325172e-09	0.002918491	0.008334064
	0.003027403	0.008335944	5.903119e-10	4.325172e-09	0.006145689	0.005974815	6.138349e-10	4.326274e-09
	6.184991e-10	4.117825e-09	0.002918491	0.008334064	6.138349e-10	4.326274e-09	0.005870775	0.006147404
2.9e+08	0.009311522	0.007467625	1.807168e-10	3.841513e-09	0.004596719	0.009710194	2.426305e-10	4.362817e-09
	1.807168e-10	3.841513e-09	0.008912911	0.007682933	3.139557e-10	4.522099e-09	0.004394608	0.009735304
	0.004596719	0.009710194	3.139557e-10	4.522099e-09	0.009498282	0.007491236	2.269245e-10	4.571086e-09
	2.426305e-10	4.362817e-09	0.004394608	0.009735304	2.269245e-10	4.571086e-09	0.008999922	0.007798051
3e+08	0.01280581	0.008170178	-1.535627e-10	4.145763e-09	0.00643642	0.01066423	-1.233013e-10	4.708226e-09
	-1.535627e-10	4.145763e-09	0.01223757	0.008534573	3.761828e-11	4.796552e-09	0.006143064	0.01074091
	0.00643642	0.01066423	3.761828e-11	4.796552e-09	0.01302751	0.008147431	-1.52443e-10	4.918891e-09
	-1.233013e-10	4.708226e-09	0.006143064	0.01074091	-1.52443e-10	4.918891e-09	0.01233103	0.008643134
3.1e+08	0.0162891	0.008012064	-4.584338e-10	4.539395e-09	0.008435773	0.01114457	-4.548475e-10	5.151911e-09
	-4.584338e-10	4.539395e-09	0.01557894	0.008568647	-2.194753e-10	5.148906e-09	0.008059581	0.01129683
	0.008435773	0.01114457	-2.194753e-10	5.148906e-09	0.01653264	0.007936299	-4.991376e-10	5.368147e-09
	-4.548475e-10	5.151911e-09	0.008059581	0.01129683	-4.991376e-10	5.368147e-09	0.01567626	0.008669248
3.2e+08	0.01956674	0.007028525	-7.121481e-10	5.015526e-09	0.01047444	0.01112625	-7.282132e-10	5.685709e-09
	-7.121481e-10	5.015526e-09	0.01875304	0.007813496	-4.380412e-10	5.574673e-09	0.01003003	0.01137584
	0.01047444	0.01112625	-4.380412e-10	5.574673e-09	0.01981805	0.006896256	-7.885219e-10	5.911081e-09
	-7.282132e-10	5.685709e-09	0.01003003	0.01137584	-7.885219e-10	5.911081e-09	0.01885136	0.007905441
3.3e+08	0.02245861	0.00529762	-8.947564e-10	5.561915e-09	0.01242964	0.01061424	-9.21761e-10	6.295666e-09
	-8.947564e-10	5.561915e-09	0.0215887	0.006337646	-6.000099e-10	6.064513e-09	0.01193718	0.01097908
	0.01242964	0.01061424	-6.000099e-10	6.064513e-09	0.02270339	0.005108646	-9.980288e-10	6.533872e-09
	-9.21761e-10	6.295666e-09	0.01193718	0.01097908	-9.980288e-10	6.533872e-09	0.02168502	0.006420999
3.4e+08	0.02480835	0.002935576	-9.894509e-10	6.161471e-09	0.01418343	0.009643131	-1.017427e-09	6.962648e-09
	-9.894509e-10	6.161471e-09	0.02393602	0.00424562	-6.897787e-10	6.604602e-09	0.01366757	0.01013593
	0.01418343	0.009643131	-6.897787e-10	6.604602e-09	0.02503274	0.002692926	-1.108665e-09	7.217253e-09
	-1.017427e-09	6.962648e-09	0.01366757	0.01013593	-1.108665e-09	7.217253e-09	0.02402742	0.004321224
3.5e+08	0.02649122	9.01809e-05	-9.837467e-10	6.79311e-09	0.01562964	0.008275062	-1.001947e-09	7.663297e-09
	-9.837467e-10	6.79311e-09	0.02567381	0.001671973	-6.953383e-10	7.177334e-09	0.01511814	0.008902262
	0.01562964	0.008275062	-6.953383e-10	7.177334e-09	0.0266825	-0.0002000603	-1.106323e-09	7.937482e-09
	-1.001947e-09	7.663297e-09	0.01511814	0.008902262	-1.106323e-09	7.937482e-09	0.02575765	0.001741407
3.6e+08	0.02742025	-0.003067346	-8.704359e-10	7.432902e-09	0.0166802	0.006596131	-8.678344e-10	8.371283e-09
	-8.704359e-10	7.432902e-09	0.02671535	-0.001226105	-6.091844e-10	7.7623e-09	0.01620231	0.00735716
	0.0166802	0.006596131	-6.091844e-10	7.7623e-09	0.02756747	-0.003396371	-9.828142e-10	8.667628e-09
	-8.678344e-10	8.371283e-09	0.01620231	0.00735716	-9.828142e-10	8.667628e-09	0.02678943	-0.001160608
3.7e+08	0.02755038	-0.006351647	-6.481567e-10	8.055396e-09	0.01727035	0.004711359	-6.139628e-10	9.058722e-09
	-6.481567e-10	8.055396e-09	0.02701234	-0.00427725	-4.289397e-10	8.337495e-09	0.01685501	0.005598345
	0.01727035	0.004711359	-4.289397e-10	8.337495e-09	0.02764491	-0.006708375	-7.365466e-10	9.379086e-09
	-6.139628e-10	9.058722e-09	0.01685501	0.005598345	-7.365466e-10	9.379086e-09	0.0270751	-0.004212937
3.8e+08	0.02688037	-0.009573173	-3.217085e-10	8.63511e-09	0.01736256	0.002738568	-2.458808e-10	9.697755e-09
	-3.217085e-10	8.63511e-09	0.02655689	-0.007305019	-1.576415e-10	8.880631e-09	0.01703658	0.003736488
	0.01736256	0.002738568	-1.576415e-10	8.880631e-09	0.02691634	-0.009944815	-3.728101e-10	1.004321e-08
	-2.458808e-10	9.697755e-09	0.01703658	0.003736488	-3.728101e-10	1.004321e-08	0.02660748	-0.007238776
3.9e+08	0.02545242	-0.01254827	9.807124e-11	9.148018e-09	0.0169489	0.0008014783	2.243127e-10	1.026213e-08
	9.807124e-11	9.148018e-09	0.0253814	-0.01013714	1.963191e-10	9.370489e-09	0.01673519	0.001888762
	0.0169489	0.0008014783	1.963191e-10	9.370489e-09	0.02542705	-0.01292098	9.634808e-11	1.063298e-08
	2.243127e-10	1.026213e-08	0.01673519	0.001888762	9.634808e-11	1.063298e-08	0.02541976	-0.01006569
4e+08	0.02334953	-0.01510892	5.947771e-10	9.572967e-09	0.01605167	-0.0009775878	7.784534e-10	1.072872e-08
	5.947771e-10	9.572967e-09	0.02355632	-0.01261448	6.195927e-10	9.788186e-09	0.01596763	0.0001719863
	0.01605167	-0.0009775878	6.195927e-10	9.788186e-09	0.02326329	-0.01546851	6.526415e-10	1.112456e-08
	7.784534e-10	1.072872e-08	0.01596763	0.0001719863	6.526415e-10	1.112456e-08	0.02358326	-0.01253459
4.1e+08	0.02069071	-0.01711158	1.147226e-09	9.892939e-09	0.01472229	-0.002484979	1.393132e-09	1.107891e-08
	1.147226e-09	9.892939e-09	0.02118604	-0.01459926	1.094559e-09	1.011831e-08	0.01477849	-0.001304264
	0.01472229	-0.002484979	1.094559e-09	1.011831e-08	0.02054736	-0.01744427	1.272415e-09	1.14987e-08
	1.393132e-09	1.107891e-08	0.01477849	-0.001304264	1.272415e-09	1.14987e-08	0.02120314	-0.01450794
4.2e+08	0.01762431	-0.01844475	1.730517e-09	1.009609e-08	0.01303845	-0.003622548	2.040815e-09	1.129972e-08
	1.730517e-09	1.009609e-08	0.01840299	-0.01598212	1.60025e-09	1.03498e-08	0.01323769	-0.002444177
	0.01303845	-0.003622548	1.60025e-09	1.03498e-08	0.0174307	-0.01873787	1.927811e-09	1.174195e-08
	2.040815e-09	1.129972e-08	0.01323769	-0.002444177	1.927811e-09	1.174195e-08	0.01841259	-0.01587683
4.3e+08	0.01431977	-0.01903476	2.317295e-09	1.01765e-08	0.01109966	-0.004313638	2.691201e-09	1.138472e-08
	2.317295e-09	1.01765e-08	0.0153603	-0.01668761	2.113436e-09	1.047667e-08	0.01143648	-0.003171473
	0.01109966	-0.004313638	2.113436e-09	1.047667e-08	0.01408556	-0.01927747	2.588173e-09	1.184745e-08
	2.691201e-09	1.138472e-08	0.01143648	-0.003171473	2.588173e-09	1.184745e-08	0.01536532	-0.01656644
4.4e+08	0.01095828	-0.01884957	2.879146e-09	1.013465e-08	0.009021486	-0.004507841	3.312759e-09	1.13346e-08
	2.879146e-09	1.013465e-08	0.01222344	-0.01667796	2.609816e-09	1.049833e-08	0.009482132	-0.003434063
	0.009021486	-0.004507841	2.609816e-09	1.049833e-08	0.01069548	-0.01903344	3.221594e-09	1.181551e-08
	3.312759e-09	1.13346e-08	0.009482132	-0.003434063	3.221594e-09	1.181551e-08	0.01222724	-0.01653976
4.5e+08	0.007722792	-0.01790019	3.388062e-09	9.977557e-09	0.006928724	-0.004184238	3.874368e-09	1.115733e-08
	3.388062e-09	9.977557e-09	0.009161155	-0.01595467	3.065244e-09	1.041978e-08	0.007491683	-0.003207313
	0.006928724	-0.004184238	3.065244e-09	1.041978e-08	0.007445133	-0.01801972	3.796564e-09	1.165382e-08
	3.874368e-09	1.115733e-08	0.007491683	-0.003207313	3.796564e-09	1.165382e-08	0.009167343	-0.01579916
4.6e+08	0.004787969	-0.0162399	3.817906e-09	9.718604e-09	0.00494796	-0.003352884	4.347005e-09	1.08681e-08
	3.817906e-09	9.718604e-09	0.006336379	-0.01455816	3.456974e-09	1.025141e-08	0.005584955	-0.002495679
	0.00494796	-0.003352884	3.456974e-09	1.025141e-08	0.004510236	-0.01629284	4.283678e-09	1.137722e-08
	4.347005e-09	1.08681e-08	0.005584955	-0.002495679	4.283678e-09	1.137722e-08	0.006348557	-0.01438595
4.7e+08	0.002310589	-0.01396102	4.145825e-09	9.377053e-09	0.003199953	-0.002054423	4.705363e-09	1.048868e-08
	4.145825e-09	9.377053e-09	0.003897393	-0.01256514	3.764847e-09	1.000859e-08	0.003877418	-0.001332607
	0.003199953	-0.002054423	3.764847e-09	1.000859e-08	0.002047848	-0.01394854	4.657334e-09	1.100713e-08
	4.705363e-09	1.048868e-08	0.003877418	-0.001332607	4.657334e-09	1.100713e-08	0.00391896	-0.01237768
4.8e+08	0.0004209855	-0.01118958	4.353527e-09	8.97729e-09	0.001792314	-0.0003578455	4.929392e-09	1.004666e-08
	4.353527e-09	8.97729e-09	0.0019699	-0.01008415	3.972018e-09	9.711327e-09	0.002473235	0.0002213267
