!$
! Info: Touchstone file created by Circ.  Input file=Tx_14in_Rx_100ohms_TxVia_60mils_RxVia_70mils.circ
!$
# Hz S RI R 50
0	0.01448963	1.829483e-25	-7.481957e-05	7.385692e-24	9.402688e-05	2.863605e-23	-7.485482e-05	1.190012e-23
	-7.481956e-05	7.384742e-24	0.01448483	2.164518e-25	-7.478188e-05	2.935027e-24	9.423342e-05	3.53628e-23
	9.500582e-05	2.913803e-23	-7.478187e-05	2.933376e-24	0.01450331	1.750949e-25	-7.481261e-05	6.897845e-24
	-7.48548e-05	1.189839e-23	9.450274e-05	3.551445e-23	-7.481262e-05	6.898706e-24	0.01449909	2.155186e-25
1e+07	0.020263	0.008643184	-0.0001215107	-4.318477e-05	0.0005170352	0.002527385	-0.0003070995	0.000205301
	-0.0001215107	-4.318477e-05	0.02163879	0.008229165	-4.402453e-05	-1.523594e-05	0.001004655	0.002571164
	0.0005170444	0.002527352	-4.402453e-05	-1.523594e-05	0.02102793	0.008226206	-1.401425e-05	-1.73123e-05
	-0.0003070995	0.000205301	0.001004658	0.002571162	-1.401425e-05	-1.73123e-05	0.02144364	0.008267554
2e+07	0.02787922	0.01160992	-8.101474e-05	-9.706358e-05	0.001581022	0.004875755	-0.0003487105	0.0002237108
	-8.101474e-05	-9.706358e-05	0.02847066	0.01053398	-3.654663e-05	-1.51269e-05	0.001914505	0.005163651
	0.001580995	0.004875754	-3.654663e-05	-1.51269e-05	0.02800799	0.01074704	-1.272251e-05	4.404144e-06
	-0.0003487105	0.0002237108	0.001914502	0.005163651	-1.272251e-05	4.404147e-06	0.02835151	0.01066868
3e+07	0.0342292	0.01091654	-6.26541e-05	-0.0001141223	0.003220522	0.006764516	-0.0003682005	0.0002719186
	-6.26541e-05	-0.0001141223	0.03419988	0.009788795	-3.190492e-05	-1.497062e-05	0.003446099	0.007144442
	0.00322052	0.00676452	-3.190492e-05	-1.497062e-05	0.03388649	0.0100618	-1.549968e-05	5.173453e-06
	-0.0003682005	0.0002719186	0.003446099	0.007144444	-1.549968e-05	5.173454e-06	0.03414577	0.00995363
4e+07	0.03947291	0.008215489	-0.0001148399	-7.988564e-05	0.005286948	0.008089522	-0.0003728297	0.0003254091
	-0.0001148399	-7.988564e-05	0.03894852	0.007259368	-2.824201e-05	-1.441275e-05	0.005463622	0.008518441
	0.005286948	0.008089517	-2.824201e-05	-1.441275e-05	0.03878524	0.007527662	-1.928189e-05	6.025006e-06
	-0.0003728297	0.0003254091	0.005463623	0.008518442	-1.928189e-05	6.025006e-06	0.03895135	0.007429604
5e+07	0.04347348	0.004078052	-0.0001485548	-3.163087e-05	0.007601386	0.00876499	-0.0003647683	0.0003797227
	-0.0001485548	-3.163087e-05	0.042582	0.003428187	-2.512148e-05	-1.395736e-05	0.007909055	0.009082167
	0.007601383	0.008764988	-2.512148e-05	-1.395736e-05	0.04256137	0.003641088	-2.228266e-05	9.251175e-06
	-0.0003647683	0.0003797227	0.007909056	0.009082168	-2.228266e-05	9.251175e-06	0.04263192	0.003587827
6e+07	0.04607806	-0.001052761	-0.0001636639	2.452496e-05	0.009969597	0.008755466	-0.0003459018	0.0004317131
	-0.0001636639	2.452496e-05	0.04495626	-0.001314387	-2.231506e-05	-1.37842e-05	0.01034565	0.008945285
	0.009969598	0.008755469	-2.231506e-05	-1.37842e-05	0.04505676	-0.001201506	-2.382515e-05	1.414805e-05
	-0.0003459018	0.0004317131	0.01034565	0.008945285	-2.382514e-05	1.414805e-05	0.04504213	-0.001176128
7e+07	0.04718026	-0.006759672	-0.0001599645	8.354894e-05	0.012207	0.008063791	-0.0003188653	0.0004788076
	-0.0001599645	8.354894e-05	0.04596748	-0.006596465	-2.116185e-05	-1.177378e-05	0.01258638	0.008145092
	0.01220701	0.008063797	-2.116185e-05	-1.177378e-05	0.04615632	-0.006618247	-2.33813e-05	1.99133e-05
	-0.0003188653	0.0004788076	0.01258638	0.008145092	-2.338129e-05	1.991329e-05	0.04607727	-0.006486209
8e+07	0.04674615	-0.0126336	-0.000137489	0.0001409128	0.01411886	0.006774312	-0.0002874474	0.0005193016
	-0.000137489	0.0001409128	0.04557749	-0.01204921	-2.21912e-05	-4.169868e-06	0.01445984	0.00676672
	0.01411887	0.006774315	-2.21912e-05	-4.169867e-06	0.04581394	-0.01222797	-2.078334e-05	2.564559e-05
	-0.0002874474	0.0005193016	0.01445984	0.00676672	-2.078333e-05	2.564559e-05	0.04569881	-0.01196968
9e+07	0.0448233	-0.01828101	-9.615258e-05	0.0001924953	0.01555126	0.005011295	-0.0002572484	0.000552735
	-9.615258e-05	0.0001924953	0.04382567	-0.01731401	-2.080352e-05	3.209721e-06	0.01582301	0.004937916
	0.01555127	0.005011294	-2.080352e-05	3.209721e-06	0.04406435	-0.01765837	-1.633218e-05	3.050492e-05
	-0.0002572484	0.000552735	0.01582301	0.004937916	-1.633217e-05	3.050491e-05	0.04394643	-0.0172643
1e+08	0.04153352	-0.02333962	-3.014223e-05	0.0002348145	0.01639893	0.00293208	-0.000244217	0.000579258
	-3.014223e-05	0.0002348145	0.04084737	-0.02205628	-1.61406e-05	9.94936e-06	0.01656505	0.002819119
	0.01639893	0.00293208	-1.61406e-05	9.94936e-06	0.04104003	-0.02256096	-1.075981e-05	3.38723e-05
	-0.000244217	0.000579258	0.01656505	0.002819119	-1.075981e-05	3.38723e-05	0.04095477	-0.02203242
1.1e+08	0.03711218	-0.02744498	3.784129e-05	0.0002323001	0.01658656	0.0006925666	-0.0002267191	0.0005615126
	3.784129e-05	0.0002323001	0.0367827	-0.02608223	-1.035896e-05	1.140994e-05	0.01665252	0.0006368869
	0.01658656	0.0006925664	-1.035896e-05	1.140994e-05	0.03688734	-0.0267152	-4.596938e-06	3.441156e-05
	-0.0002267191	0.0005615126	0.01665252	0.0006368871	-4.596938e-06	3.441156e-05	0.03687112	-0.02606806
1.2e+08	0.03186507	-0.03040747	5.217851e-05	0.0002206623	0.01609112	-0.001484425	-0.0001978597	0.0005479437
	5.217851e-05	0.0002206623	0.03182023	-0.0290408	-5.938206e-06	1.202301e-05	0.01611299	-0.00146949
	0.01609112	-0.001484425	-5.938206e-06	1.202301e-05	0.03181247	-0.02976995	1.699713e-06	3.287779e-05
	-0.0001978597	0.0005479437	0.01611299	-0.001469489	1.699713e-06	3.287779e-05	0.03189225	-0.02903054
1.3e+08	0.02609597	-0.03206498	6.833001e-05	0.0002080226	0.01496999	-0.0034097	-0.0001714306	0.0005365624
	6.833001e-05	0.0002080226	0.02629536	-0.03075073	-2.265813e-06	1.183866e-05	0.01498159	-0.003327068
	0.01496999	-0.0034097	-2.265813e-06	1.183866e-05	0.02615828	-0.03153688	7.062682e-06	2.954884e-05
	-0.0001714306	0.0005365624	0.01498158	-0.003327067	7.062682e-06	2.954884e-05	0.02635202	-0.03073954
1.4e+08	0.02014809	-0.03233716	8.411815e-05	0.0001939893	0.01332488	-0.004918209	-0.0001493054	0.0005290273
	8.411815e-05	0.0001939893	0.02055083	-0.03112215	8.311322e-07	1.10692e-05	0.01335052	-0.004779861
	0.01332488	-0.00491821	8.311322e-07	1.10692e-05	0.02027972	-0.0319214	1.082308e-05	2.498808e-05
	-0.0001493054	0.0005290273	0.01335052	-0.00477986	1.082308e-05	2.498808e-05	0.02059375	-0.03110568
1.5e+08	0.01437284	-0.03123288	9.846471e-05	0.0001788116	0.01129848	-0.005880744	-0.0001307578	0.0005273903
	9.846471e-05	0.0001788116	0.01493342	-0.0301547	3.414483e-06	9.856909e-06	0.01135366	-0.00570436
	0.01129848	-0.005880744	3.414483e-06	9.856909e-06	0.01453739	-0.03092239	1.263741e-05	1.99641e-05
	-0.0001307578	0.0005273903	0.01135366	-0.005704359	1.263741e-05	1.99641e-05	0.01496504	-0.0301293
1.6e+08	0.009106031	-0.0288493	0.0001108839	0.0001630082	0.009063229	-0.006214006	-0.0001135404	0.0005332183
	0.0001108839	0.0001630082	0.009773801	-0.02793524	5.514631e-06	8.31307e-06	0.009154589	-0.006019972
	0.009063229	-0.006214006	5.514631e-06	8.31307e-06	0.00927592	-0.02863025	1.252334e-05	1.530874e-05
	-0.0001135404	0.0005332183	0.009154589	-0.006019972	1.252334e-05	1.530874e-05	0.009797274	-0.02789811
1.7e+08	0.004645793	-0.02536486	0.0001213289	0.000147146	0.006807297	-0.005887075	-9.450736e-05	0.0005470811
	0.0001213289	0.000147146	0.005366031	-0.02463041	7.152722e-06	6.530468e-06	0.006932987	-0.005695655
	0.006807296	-0.005887075	7.152722e-06	6.530468e-06	0.00480203	-0.02521947	1.084681e-05	1.176562e-05
	-9.450736e-05	0.0005470811	0.006932986	-0.005695655	1.084681e-05	1.176562e-05	0.005385006	-0.0245798
1.8e+08	0.001233101	-0.02102668	0.0001300774	0.0001316765	0.004719142	-0.004923594	-7.019529e-05	0.0005682799
	0.0001300774	0.0001316765	0.001949121	-0.02047427	8.348432e-06	4.587904e-06	0.004869744	-0.00475235
	0.004719142	-0.004923594	8.348432e-06	4.587904e-06	0.001364768	-0.02093576	8.251236e-06	9.855482e-06
	-7.019529e-05	0.0005682799	0.004869744	-0.00475235	8.251236e-06	9.855482e-06	0.00196747	-0.02040959
1.9e+08	-0.0009637668	-0.01613339	0.0001376075	0.0001168194	0.002972097	-0.003399449	-3.739682e-05	0.0005948093
	0.0001376075	0.0001168194	-0.0003077569	-0.01575169	8.649976e-06	3.401474e-06	0.003132161	-0.003261082
	0.002972097	-0.003399449	8.649976e-06	3.401474e-06	-0.0008604111	-0.01607851	5.545414e-06	9.775043e-06
	-3.739682e-05	0.0005948093	0.003132161	-0.003261082	5.545414e-06	9.775043e-06	-0.000286273	-0.01567348
2e+08	-0.001859732	-0.01101443	0.0001444367	0.0001025298	0.001710277	-0.001436161	6.325244e-06	0.0006235317
	0.0001444367	0.0001025298	-0.00131537	-0.01077837	8.570953e-06	2.86661e-06	0.001860349	-0.001336917
	0.001710277	-0.001436161	8.570953e-06	2.86661e-06	-0.001782538	-0.01097965	3.538626e-06	1.137626e-05
	6.325244e-06	0.0006235317	0.001860349	-0.001336917	3.538626e-06	1.137626e-05	-0.001287402	-0.01068828
2.1e+08	-0.001457649	-0.006007336	0.0001509957	8.850861e-05	0.001037005	0.0008094375	6.224444e-05	0.0006505332
	0.0001509957	8.850861e-05	-0.001068985	-0.00587914	8.564266e-06	2.333615e-06	0.001155997	0.0008706653
	0.001037005	0.0008094375	8.564266e-06	2.333615e-06	-0.001400119	-0.005980471	2.906395e-06	1.418959e-05
	6.224444e-05	0.0006505332	0.001155997	0.0008706653	2.906395e-06	1.418959e-05	-0.001031888	-0.005779685
2.2e+08	0.0001531056	-0.001434683	0.0001575191	7.425998e-05	0.001006711	0.003158319	0.0001302476	0.0006715963
	0.0001575191	7.425998e-05	0.0003528551	-0.001365772	8.611009e-06	1.769611e-06	0.001074396	0.00319013
	0.001006711	0.003158319	8.611009e-06	1.769611e-06	0.0002001236	-0.001408001	4.073567e-06	1.749785e-05
	0.0001302476	0.0006715963	0.001074396	0.00319013	4.073567e-06	1.749785e-05	0.000400802	-0.001260122
2.3e+08	0.00280404	0.002417789	0.0001639684	5.920589e-05	0.001620923	0.005424044	0.0002088103	0.0006827173
	0.0001639684	5.920589e-05	0.002795256	0.002483889	8.682889e-06	1.149626e-06	0.001620334	0.005441906
	0.001620923	0.005424044	8.682889e-06	1.149626e-06	0.002850653	0.002447396	7.131485e-06	2.046843e-05
	0.0002088103	0.0006827173	0.001620334	0.005441906	7.131485e-06	2.046843e-05	0.002854715	0.002592214
2.4e+08	0.006260382	0.005320176	0.0001700148	4.281614e-05	0.002828602	0.007427948	0.0002951741	0.0006805929
	0.0001700148	4.281614e-05	0.006039036	0.005444171	8.745428e-06	4.608103e-07	0.002748119	0.007452883
	0.002828602	0.007427948	8.745428e-06	4.608103e-07	0.006316091	0.005351504	1.182064e-05	2.229984e-05
	0.0002951741	0.0006805929	0.002748119	0.007452883	1.182064e-05	2.229984e-05	0.006109558	0.005551633
2.5e+08	0.01023837	0.007113288	0.000175079	2.473048e-05	0.004530702	0.009013514	0.0003856812	0.0006629944
	0.000175079	2.473048e-05	0.009817017	0.007355888	8.762784e-06	-2.962665e-07	0.004365647	0.0090702
	0.004530702	0.009013514	8.762784e-06	-2.962665e-07	0.01031077	0.007141549	1.757411e-05	2.23616e-05
	0.0003856812	0.0006629944	0.004365647	0.0090702	1.757411e-05	2.23616e-05	0.009897092	0.007459254
2.6e+08	0.01442572	0.007718366	0.0001784192	4.855914e-06	0.006588515	0.01005878	0.0004762254	0.0006289883
	0.0001784192	4.855914e-06	0.0138333	0.008135797	8.703095e-06	-1.107751e-06	0.0063421	0.01017325
	0.006588515	0.01005878	8.703095e-06	-1.107751e-06	0.01451951	0.007736237	2.361393e-05	2.030364e-05
	0.0004762254	0.0006289883	0.0063421	0.01017325	2.361393e-05	2.030364e-05	0.0139205	0.00823244
2.7e+08	0.01850371	0.007141066	0.0001792514	-1.658188e-05	0.008835043	0.01048585	0.0005627364	0.0005789698
	0.0001792514	-1.658188e-05	0.01778415	0.007780658	8.543028e-06	-1.949474e-06	0.008518589	0.01068302
	0.008835043	0.01048585	8.543028e-06	-1.949474e-06	0.01862018	0.007139916	2.908238e-05	1.611693e-05
	0.0005627364	0.0005789698	0.008518589	0.01068302	2.908238e-05	1.611693e-05	0.01787534	0.007868796
2.8e+08	0.02216943	0.005469506	0.0001768834	-3.903951e-05	0.01108847	0.01026685	0.0006416369	0.0005145127
	0.0001768834	-3.903951e-05	0.02137899	0.006365707	8.270874e-06	-2.791195e-06	0.01072087	0.01056803
	0.01108847	0.01026685	8.270874e-06	-2.791195e-06	0.02230631	0.005440697	3.318616e-05	1.013574e-05
	0.0006416369	0.0005145127	0.01072087	0.01056803	3.318616e-05	1.013574e-05	0.02147062	0.006444584
2.9e+08	0.02515649	0.002866639	0.0001708351	-6.17111e-05	0.01316669	0.009425943	0.0007101909	0.0004380686
	0.0001708351	-6.17111e-05	0.02436008	0.004037797	7.887298e-06	-3.601815e-06	0.01277314	0.009846587
	0.01316669	0.009425943	7.887298e-06	-3.601815e-06	0.02530823	0.002802744	3.532814e-05	2.982128e-06
	0.0007101909	0.0004380686	0.01277314	0.009846587	3.532814e-05	2.982128e-06	0.02444849	0.004107749
3e+08	0.02725299	-0.0004424421	0.0001609295	-8.362751e-05	0.01490169	0.008037223	0.0007667059	0.0003525681
	0.0001609295	-8.362751e-05	0.02651957	0.001003765	7.404016e-06	-4.354132e-06	0.01451183	0.008585181
	0.01490169	0.008037223	7.404016e-06	-4.354132e-06	0.02741141	-0.0005465944	3.520541e-05	-4.537363e-06
	0.0007667059	0.0003525681	0.01451183	0.008585181	3.520541e-05	-4.537363e-06	0.02660133	0.001066223
3.1e+08	0.02831534	-0.004187288	0.0001473377	-0.0001037842	0.0161529	0.006218827	0.0008105679	0.0002609834
	0.0001473377	-0.0001037842	0.02771285	-0.002485063	6.840994e-06	-5.02845e-06	0.01579842	0.006893134
	0.0161529	0.006218827	6.840994e-06	-5.02845e-06	0.02847055	-0.004333847	3.285768e-05	-1.156553e-05
	0.0008105679	0.0002609834	0.01579842	0.006893134	3.285768e-05	-1.156553e-05	0.02778506	-0.002427689
3.2e+08	0.02827724	-0.00807183	0.0001305686	-0.0001212763	0.01681827	0.004123597	0.0008420983	0.0001659342
	0.0001305686	-0.0001212763	0.02786732	-0.006151178	6.222455e-06	-5.614699e-06	0.01653028	0.004914017
	0.01681827	0.004123597	6.222455e-06	-5.614699e-06	0.02841877	-0.008259498	2.865762e-05	-1.733566e-05
	0.0008420983	0.0001659342	0.01653028	0.004914017	2.865762e-05	-1.733566e-05	0.02792789	-0.006095681
3.3e+08	0.02715322	-0.01179563	0.000111407	-0.0001354203	0.0168425	0.001927045	0.00086228	6.938888e-05
	0.000111407	-0.0001354203	0.02698613	-0.009710676	5.572715e-06	-6.112845e-06	0.01664878	0.002814401
	0.0168425	0.001927045	5.572715e-06	-6.112845e-06	0.02727119	-0.01201962	2.324571e-05	-2.129691e-05
	0.00086228	6.938888e-05	0.01664878	0.002814401	2.324571e-05	-2.129691e-05	0.02703398	-0.009653324
3.4e+08	0.02503644	-0.01507524	9.080938e-05	-0.0001458416	0.01622155	-0.0001865034	0.0008723942	-2.749909e-05
	9.080938e-05	-0.0001458416	0.02514665	-0.01289323	4.912401e-06	-6.531824e-06	0.01614399	0.0007707992
	0.01622155	-0.0001865034	4.912401e-06	-6.531824e-06	0.02512268	-0.01532758	1.742005e-05	-2.320355e-05
	0.0008723942	-2.749909e-05	0.01614399	0.0007707992	1.742005e-05	-2.320355e-05	0.02518183	-0.01283007
3.5e+08	0.02209105	-0.01766419	6.977245e-05	-0.0001525129	0.01500325	-0.002038539	0.0008736297	-0.0001243797
	6.977245e-05	-0.0001525129	0.02249381	-0.0154609	4.255244e-06	-6.887183e-06	0.01505568	-0.001044245
	0.01500325	-0.002038539	4.255244e-06	-6.887183e-06	0.02214009	-0.01793444	1.199984e-05	-2.31488e-05
	0.0008736297	-0.0001243797	0.01505568	-0.001044245	1.199984e-05	-2.31488e-05	0.02251753	-0.01538812
3.6e+08	0.01853957	-0.01937022	4.919786e-05	-0.0001557393	0.01328378	-0.003470674	0.0008667369	-0.0002215388
	4.919786e-05	-0.0001557393	0.01922886	-0.0172245	3.604939e-06	-7.1892e-06	0.01347031	-0.002475848
	0.01328378	-0.003470674	3.604939e-06	-7.1892e-06	0.01854936	-0.01964638	7.464732e-06	-2.232343e-05
	0.0008667369	-0.0002215388	0.01347031	-0.002475848	7.464732e-06	-2.232343e-05	0.01924343	-0.01713871
3.7e+08	0.01464618	-0.02006861	2.977384e-05	-0.0001560894	0.01120025	-0.004357476	0.0008517883	-0.0003196267
	2.977384e-05	-0.0001560894	0.01559419	-0.01805634	2.960121e-06	-7.462865e-06	0.01151445	-0.003399206
	0.01120025	-0.004357476	2.960121e-06	-7.462865e-06	0.01461849	-0.02033827	4.228614e-06	-2.06732e-05
	0.0008517883	-0.0003196267	0.01151445	-0.003399206	4.228614e-06	-2.06732e-05	0.01560284	-0.01795496
3.8e+08	0.01069715	-0.0197105	1.18953e-05	-0.0001542852	0.00891997	-0.004616788	0.0008280716	-0.000419271
	1.18953e-05	-0.0001542852	0.01185545	-0.01789864	2.307136e-06	-7.723816e-06	0.009344877	-0.003729718
	0.00891997	-0.004616788	2.307136e-06	-7.723816e-06	0.01063759	-0.01996206	2.481824e-06	-1.877596e-05
	0.0008280716	-0.000419271	0.009344877	-0.003729718	2.481824e-06	-1.877596e-05	0.01186207	-0.01778006
3.9e+08	0.006979648	-0.0183258	-4.365065e-06	-0.0001510702	0.006627124	-0.004216659	0.0007941542	-0.0005207002
	-4.365065e-06	-0.0001510702	0.00828204	-0.01676672	1.625256e-06	-7.97729e-06	0.00713612	-0.003429976
	0.006627124	-0.004216659	1.625256e-06	-7.97729e-06	0.006897286	-0.01854963	2.05867e-06	-1.735575e-05
	0.0007941542	-0.0005207002	0.00713612	-0.003429976	2.05867e-06	-1.735575e-05	0.008290893	-0.01663054
4e+08	0.003760663	-0.01602021	-1.922929e-05	-0.0001470774	0.004507981	-0.003178248	0.0007481042	-0.0006234182
	-1.922929e-05	-0.0001470774	0.005127538	-0.01474704	8.912742e-07	-8.217088e-06	0.005066559	-0.002513001
	0.004507981	-0.003178248	8.912742e-07	-8.217088e-06	0.00366736	-0.01620969	2.496534e-06	-1.698558e-05
	0.0007481042	-0.0006234182	0.005066559	-0.002513001	2.496534e-06	-1.698558e-05	0.005142881	-0.01459409
4.1e+08	0.001267438	-0.01296675	-3.313511e-05	-0.0001427203	0.002735799	-0.001574423	0.0006878272	-0.0007259946
	-3.313511e-05	-0.0001427203	0.002611398	-0.01198995	8.474356e-08	-8.424808e-06	0.003304064	-0.001041405
	0.002735799	-0.001574423	8.474356e-08	-8.424808e-06	0.001176826	-0.01311906	3.126085e-06	-1.797663e-05
	0.0006878272	-0.0007259946	0.003304064	-0.001041405	3.126085e-06	-1.797663e-05	0.002637131	-0.01182228
4.2e+08	-0.0003290028	-0.009392292	-4.661944e-05	-0.000138127	0.001456706	0.0004759001	0.00061147	-0.0008260044
	-4.661944e-05	-0.000138127	0.0009033155	-0.008697935	-8.066008e-07	-8.571437e-06	0.001992429	0.0008774858
	0.001456706	0.0004759001	-8.066008e-07	-8.571437e-06	-0.0004027164	-0.00950882	3.199862e-06	-2.031429e-05
	0.00061147	-0.0008260044	0.001992429	0.0008774858	3.199862e-06	-2.031429e-05	0.0009426312	-0.008518665
4.3e+08	-0.000926035	-0.00556018	-6.018531e-05	-0.0001331286	0.000777734	0.002817204	0.0005178276	-0.0009201339
	-6.018531e-05	-0.0001331286	0.0001113993	-0.005110017	-1.782359e-06	-8.621322e-06	0.001239725	0.003100174
	0.000777734	0.002817204	-1.782359e-06	-8.621322e-06	-0.0009693604	-0.005646615	2.036337e-06	-2.365306e-05
	0.0005178276	-0.0009201339	0.001239725	0.003100174	2.036337e-06	-2.365306e-05	0.0001664976	-0.004923103
4.4e+08	-0.0004964096	-0.001750225	-7.417611e-05	-0.000127304	0.0007580345	0.005269854	0.0004066806	-0.001004443
	-7.417611e-05	-0.000127304	0.0002750411	-0.001483712	-2.827006e-06	-8.538009e-06	0.001109553	0.00545848
	0.0007580345	0.005269854	-2.827006e-06	-8.538009e-06	-0.0004978552	-0.001816219	-8.465757e-07	-2.737158e-05
	0.0004066806	-0.001004443	0.001109553	0.00545848	-8.465757e-07	-2.737158e-05	0.0003469116	-0.001293629
4.5e+08	0.0009105021	0.001762327	-8.868e-05	-0.0001200723	0.001403993	0.007644549	0.0002790173	-0.001074744
	-8.868e-05	-0.0001200723	0.001362956	0.001924215	-3.910244e-06	-8.290823e-06	0.001615908	0.007773032
	0.001403993	0.007644549	-3.910244e-06	-8.290823e-06	0.0009592962	0.001703859	-5.632166e-06	-3.067813e-05
	0.0002790173	-0.001074744	0.001615908	0.007773032	-5.632166e-06	-3.067813e-05	0.001451267	0.002112835
4.6e+08	0.003173215	0.004727276	-0.0001034828	-0.0001108187	0.002668638	0.009757536	0.0001372446	-0.001127054
	-0.0001034828	-0.0001108187	0.003276499	0.004876642	-4.990282e-06	-7.860827e-06	0.002722066	0.009867623
	0.002668638	0.009757536	-4.990282e-06	-7.860827e-06	0.003276588	0.004661174	-1.215899e-05	-3.274835e-05
	0.0001372446	-0.001127054	0.002722066	0.009867623	-1.215899e-05	-3.274835e-05	0.003379591	0.005059401
4.7e+08	0.006108052	0.006937822	-0.0001178581	-9.896616e-05	0.004455356	0.01144534	-3.699652e-05	-0.001153249
	-0.0001178581	-9.896616e-05	0.005857908	0.007173263	-6.021003e-06	-7.244291e-06	0.004343554	0.01158325
	0.004455356	0.01144534	-6.021003e-06	-7.244291e-06	0.006265698	0.00684794	-1.972051e-05	-3.281493e-05
	-3.699652e-05	-0.001153249	0.004343554	0.01158325	-1.972051e-05	-3.281493e-05	0.005972962	0.007346353
