!$
! Info: Touchstone file created by Circ.  Input file=Tx_16in_Rx_85ohms_TxVia_60mils_RxVia_70mils.circ
!$
# Hz S RI R 50
0	0.01285478	1.969009e-25	-8.575177e-05	-7.054554e-26	0.0001055845	2.477559e-23	-8.57491e-05	-1.260016e-25
	-8.575176e-05	-7.14077e-26	0.01285029	2.440225e-25	-8.575061e-05	-6.800191e-26	0.0001052989	3.135502e-23
	0.0001066676	2.494111e-23	-8.575061e-05	-6.824804e-26	0.0128701	1.969628e-25	-8.575007e-05	5.360704e-26
	-8.574908e-05	-1.277656e-25	0.0001055683	3.148947e-23	-8.575007e-05	5.295217e-26	0.0128646	2.429765e-25
1e+07	0.01541463	-0.01621969	-1.095743e-05	-2.087013e-05	0.0005967814	0.002892342	-7.212871e-06	-2.476171e-05
	-1.095743e-05	-2.087013e-05	0.01540239	-0.01595667	-1.501658e-05	2.642564e-07	0.0007105348	0.00287703
	0.0005968129	0.002892346	-1.501658e-05	2.642562e-07	0.01755087	-0.01590144	-3.263398e-05	5.257882e-06
	-7.212872e-06	-2.476171e-05	0.0007105378	0.002877028	-3.263398e-05	5.257882e-06	0.01536661	-0.01593927
2e+07	0.01100608	-0.03573231	-9.608259e-06	-6.98241e-06	0.002021618	0.005424046	-4.840054e-06	-1.261025e-05
	-9.608259e-06	-6.98241e-06	0.0112416	-0.03533481	-4.102848e-05	-1.744817e-05	0.002150657	0.005296143
	0.002021631	0.005424027	-4.102848e-05	-1.744817e-05	0.0131045	-0.03603358	-4.938925e-05	-3.679958e-06
	-4.840055e-06	-1.261025e-05	0.002150654	0.005296143	-4.938925e-05	-3.679958e-06	0.01122203	-0.03528759
3e+07	-0.00101461	-0.05374745	-8.952679e-06	-3.065542e-06	0.004202578	0.00719745	-5.801179e-06	-9.203937e-06
	-8.952679e-06	-3.065542e-06	-0.0006333712	-0.05335614	-5.957211e-05	-1.136891e-05	0.004240883	0.007060421
	0.004202579	0.007197447	-5.957211e-05	-1.136891e-05	0.0009844996	-0.05441801	-6.052087e-05	3.879106e-06
	-5.801179e-06	-9.203937e-06	0.004240883	0.007060423	-6.052087e-05	3.879106e-06	-0.0006417828	-0.05329304
4e+07	-0.01858308	-0.06704754	-8.257759e-06	-7.252279e-07	0.006761168	0.008117537	-7.55511e-06	-6.203441e-06
	-8.257759e-06	-7.252281e-07	-0.01812663	-0.06669153	-7.26204e-05	2.511917e-06	0.006718908	0.008009074
	0.006761172	0.008117541	-7.26204e-05	2.511917e-06	-0.01674777	-0.06802425	-6.734104e-05	1.665375e-05
	-7.55511e-06	-6.203441e-06	0.006718909	0.008009075	-6.734104e-05	1.665375e-05	-0.01812719	-0.06661592
5e+07	-0.03948854	-0.07407983	-7.466704e-06	9.46087e-07	0.009390663	0.008133085	-8.670615e-06	-3.315784e-06
	-7.466704e-06	9.460869e-07	-0.03900587	-0.0737548	-8.007586e-05	2.111106e-05	0.009284166	0.008080741
	0.009390666	0.008133087	-8.007586e-05	2.111106e-05	-0.03787071	-0.07530832	-6.975144e-05	3.239252e-05
	-8.670615e-06	-3.315785e-06	0.009284167	0.008080741	-6.975144e-05	3.239252e-05	-0.03900098	-0.07366692
6e+07	-0.06136929	-0.07420949	-6.579671e-06	2.202108e-06	0.01179151	0.007296845	-9.103155e-06	-4.170893e-07
	-6.579671e-06	2.202108e-06	-0.06088849	-0.07389715	-8.144963e-05	4.261787e-05	0.01164284	0.007319917
	0.0117915	0.007296845	-8.144963e-05	4.261787e-05	-0.06001005	-0.07563257	-6.74181e-05	4.971771e-05
	-9.103155e-06	-4.170894e-07	0.01164284	0.007319917	-6.74181e-05	4.971771e-05	-0.06087895	-0.07379598
7e+07	-0.08191816	-0.06761812	-5.62038e-06	3.135581e-06	0.01370873	0.005753123	-8.804102e-06	2.448306e-06
	-5.620379e-06	3.13558e-06	-0.08144963	-0.06729829	-7.617334e-05	6.539842e-05	0.0135439	0.005862138
	0.01370872	0.005753124	-7.617334e-05	6.539842e-05	-0.08084569	-0.0691756	-5.999211e-05	6.736641e-05
	-8.804102e-06	2.448306e-06	0.0135439	0.005862138	-5.999211e-05	6.736641e-05	-0.08143478	-0.06718271
8e+07	-0.0990951	-0.05519628	-4.623406e-06	3.789274e-06	0.01495667	0.003712727	-7.729046e-06	5.160117e-06
	-4.623406e-06	3.789273e-06	-0.09863726	-0.05485473	-6.374643e-05	8.770852e-05	0.01480331	0.003908964
	0.01495666	0.003712731	-6.374643e-05	8.770852e-05	-0.09832543	-0.05682682	-4.721005e-05	8.400371e-05
	-7.729046e-06	5.160116e-06	0.01480331	0.003908964	-4.721005e-05	8.400371e-05	-0.09861534	-0.05472417
9e+07	-0.1113022	-0.03839571	-3.628826e-06	4.187999e-06	0.01543111	0.00142408	-5.829745e-06	7.548155e-06
	-3.628826e-06	4.187998e-06	-0.1108497	-0.03802839	-4.369857e-05	0.000107605	0.01531604	0.001699684
	0.0154311	0.001424085	-4.369857e-05	0.000107605	-0.1108414	-0.0400386	-2.885833e-05	9.817123e-05
	-5.829744e-06	7.548154e-06	0.01531604	0.001699684	-2.885833e-05	9.817123e-05	-0.1108182	-0.03788334
1e+08	-0.1174977	-0.01904973	-2.672041e-06	4.343182e-06	0.01511141	-0.000854274	-2.832976e-06	9.3707e-06
	-2.672041e-06	4.343182e-06	-0.117062	-0.01866452	-1.375658e-05	0.000122726	0.01506084	-0.0005151117
	0.01511141	-0.0008542741	-1.375658e-05	0.000122726	-0.1173539	-0.02064707	-3.424267e-06	0.0001081259
	-2.832976e-06	9.3707e-06	0.01506084	-0.0005151117	-3.424267e-06	0.0001081259	-0.1170188	-0.01850685
1.1e+08	-0.1173057	0.000768974	-1.851434e-06	4.546729e-06	0.0140523	-0.002879542	3.907569e-07	9.185097e-06
	-1.851434e-06	4.546729e-06	-0.1168698	0.001228227	1.8368e-05	0.0001200788	0.01408007	-0.00251522
	0.0140523	-0.002879542	1.8368e-05	0.0001200788	-0.1174491	-0.0006689151	1.138982e-05	0.0001062579
	3.907569e-07	9.185097e-06	0.01408007	-0.00251522	1.138982e-05	0.0001062579	-0.1168122	0.001396537
1.2e+08	-0.1109987	0.01910624	-9.555344e-07	4.69004e-06	0.01237655	-0.004434804	2.90487e-06	8.39104e-06
	-9.555344e-07	4.69004e-06	-0.1105121	0.01960589	3.390468e-05	0.0001150783	0.01247711	-0.004071536
	0.01237655	-0.004434804	3.390468e-05	0.0001150783	-0.1113529	0.01786776	2.32269e-05	0.0001032753
	2.90487e-06	8.39104e-06	0.01247711	-0.004071536	2.32269e-05	0.0001032753	-0.110438	0.01977984
1.3e+08	-0.09939574	0.03415148	-6.686882e-08	4.686133e-06	0.01026546	-0.00535437	4.499825e-06	7.361342e-06
	-6.686882e-08	4.686133e-06	-0.09885013	0.03464488	4.707969e-05	0.0001088359	0.01042896	-0.00501629
	0.01026546	-0.00535437	4.707969e-05	0.0001088359	-0.09989885	0.03313477	3.571207e-05	9.862269e-05
	4.499825e-06	7.361342e-06	0.01042896	-0.005016289	3.571207e-05	9.862269e-05	-0.09875998	0.03481855
1.4e+08	-0.08383676	0.04444653	7.806214e-07	4.534366e-06	0.00794113	-0.005533412	4.924465e-06	6.743337e-06
	7.806214e-07	4.534366e-06	-0.08325059	0.04488842	6.002908e-05	0.0001006593	0.008150545	-0.005241009
	0.00794113	-0.005533412	6.002908e-05	0.0001006593	-0.08442989	0.04366082	4.801803e-05	9.210133e-05
	4.924465e-06	6.743337e-06	0.008150544	-0.005241008	4.801803e-05	9.210133e-05	-0.0831472	0.04505596
1.5e+08	-0.0660432	0.04902394	1.55935e-06	4.249489e-06	0.005649904	-0.004938674	5.354798e-06	6.116076e-06
	1.55935e-06	4.249489e-06	-0.06545677	0.04938	7.209288e-05	9.056503e-05	0.005881787	-0.004706281
	0.005649904	-0.004938674	7.209288e-05	9.056503e-05	-0.06667034	0.04846624	5.954984e-05	8.372717e-05
	5.354798e-06	6.116076e-06	0.005881786	-0.00470628	5.954984e-05	8.372717e-05	-0.06534532	0.04953655
1.6e+08	-0.04795178	0.04750264	2.256185e-06	3.849551e-06	0.003641103	-0.003615763	5.773548e-06	5.46941e-06
	2.256185e-06	3.849551e-06	-0.04742096	0.04775703	8.275832e-05	7.872562e-05	0.003867632	-0.003449373
	0.003641103	-0.003615763	8.275832e-05	7.872562e-05	-0.04856139	0.04715816	6.984874e-05	7.365667e-05
	5.773548e-06	5.46941e-06	0.003867632	-0.003449372	6.984874e-05	7.365667e-05	-0.04730853	0.04789963
1.7e+08	-0.03152316	0.04013188	2.860689e-06	3.352045e-06	0.00214176	-0.001690377	6.169235e-06	4.79595e-06
	2.860689e-06	3.352045e-06	-0.03111114	0.04029236	9.163037e-05	6.542809e-05	0.002333604	-0.001586214
	0.00214176	-0.001690378	9.163037e-05	6.542809e-05	-0.03207042	0.03997498	7.855156e-05	6.214897e-05
	6.169235e-06	4.79595e-06	0.002333604	-0.001586213	7.855156e-05	6.214897e-05	-0.03100598	0.04042059
1.8e+08	-0.0185401	0.02777392	3.364502e-06	2.773498e-06	0.001329312	0.0006394743	6.532244e-06	4.089517e-06
	3.364502e-06	2.773498e-06	-0.01830791	0.0278739	9.843016e-05	5.10371e-05	0.00145901	0.0006953499
	0.001329312	0.0006394743	9.843016e-05	5.10371e-05	-0.01898938	0.02776979	8.539465e-05	4.95353e-05
	6.532244e-06	4.089517e-06	0.00145901	0.0006953502	8.539465e-05	4.95353e-05	-0.01821848	0.02799033
1.9e+08	-0.01041588	0.01182064	3.760398e-06	2.129639e-06	0.001306396	0.00312215	6.852448e-06	3.34519e-06
	3.760398e-06	2.129639e-06	-0.01041251	0.01191763	0.0001029956	3.595878e-05	0.001351846	0.003153031
	0.001306396	0.003122149	0.0001029956	3.595878e-05	-0.01074292	0.01192789	9.021777e-05	3.618729e-05
	6.852448e-06	3.34519e-06	0.001351846	0.003153031	9.021777e-05	3.618729e-05	-0.0103464	0.01202787
2e+08	-0.008036806	-0.005952648	4.041621e-06	1.436204e-06	0.002083111	0.005481363	7.118105e-06	2.560212e-06
	4.041621e-06	1.436204e-06	-0.008290265	-0.005782058	0.000105276	2.060518e-05	0.002030738	0.005517866
	0.002083111	0.005481363	0.000105276	2.060518e-05	-0.008230129	-0.005778627	9.296157e-05	2.248504e-05
	7.118105e-06	2.560212e-06	0.002030738	0.005517866	9.296157e-05	2.248504e-05	-0.008253078	-0.005669727
2.1e+08	-0.01166178	-0.02358209	4.201914e-06	7.10018e-07	0.003571707	0.00745184	7.315967e-06	1.735305e-06
	4.201914e-06	7.10018e-07	-0.0121723	-0.02325045	0.0001053179	5.363342e-06	0.003418853	0.007528784
	0.003571707	0.00745184	0.0001053179	5.363342e-06	-0.01172294	-0.02338525	9.365649e-05	8.788521e-06
	7.315967e-06	1.735305e-06	0.003418853	0.007528784	9.365649e-05	8.788521e-06	-0.01216675	-0.02312578
2.2e+08	-0.0208953	-0.03913531	4.236282e-06	-3.011971e-08	0.005596336	0.00881539	7.432342e-06	8.755955e-07
	4.236282e-06	-3.011971e-08	-0.02163184	-0.03855477	0.000103243	-9.428031e-06	0.005352498	0.008967887
	0.005596336	0.00881539	0.000103243	-9.428031e-06	-0.02083788	-0.03895519	9.240382e-05	-4.584391e-06
	7.432342e-06	8.755955e-07	0.005352498	0.008967887	9.240382e-05	-4.584391e-06	-0.02165708	-0.03840662
2.3e+08	-0.03473913	-0.05092704	4.142276e-06	-7.631623e-07	0.0079169	0.009430316	7.454723e-06	-9.147637e-09
	4.142276e-06	-7.631623e-07	-0.0356398	-0.05002074	9.922122e-05	-2.349055e-05	0.007603547	0.009689509
	0.0079169	0.009430316	9.922122e-05	-2.349055e-05	-0.03458647	-0.05079557	8.935208e-05	-1.737016e-05
	7.454723e-06	-9.147636e-09	0.007603547	0.009689509	8.935208e-05	-1.737016e-05	-0.03569115	-0.04983833
2.4e+08	-0.05171469	-0.05770112	3.921329e-06	-1.466333e-06	0.01026244	0.009248448	7.373506e-06	-9.051e-07
	3.921329e-06	-1.466333e-06	-0.05269137	-0.056414	9.34454e-05	-3.660632e-05	0.009911321	0.009637435
	0.01026244	0.009248448	9.34454e-05	-3.660632e-05	-0.0514969	-0.05764043	8.467356e-05	-2.936127e-05
	7.373506e-06	-9.051e-07	0.009911321	0.009637435	8.467356e-05	-2.936127e-05	-0.0527605	-0.05618826
2.5e+08	-0.07003733	-0.05875607	3.579767e-06	-2.116295e-06	0.01236738	0.008317257	7.183102e-06	-1.795792e-06
	3.579767e-06	-2.116295e-06	-0.07098393	-0.05706365	8.611011e-05	-4.860915e-05	0.01201742	0.008847744
	0.01236738	0.008317257	8.611011e-05	-4.860915e-05	-0.06978776	-0.05877745	7.854433e-05	-4.039937e-05
	7.183102e-06	-1.795792e-06	0.01201742	0.008847744	7.854433e-05	-4.039937e-05	-0.07105952	-0.05678845
2.6e+08	-0.08781668	-0.05400194	3.12921e-06	-2.690725e-06	0.01400385	0.006768204	6.882456e-06	-2.663711e-06
	3.12921e-06	-2.690725e-06	-0.08862018	-0.05191579	7.739948e-05	-5.936948e-05	0.01369701	0.00743837
	0.01400385	0.006768204	7.739948e-05	-5.936948e-05	-0.08756855	-0.05410595	7.113162e-05	-5.036221e-05
	6.882456e-06	-2.663711e-06	0.01369701	0.00743837	7.113162e-05	-5.036221e-05	-0.08868903	-0.05158891
2.7e+08	-0.1032568	-0.04394769	2.586327e-06	-3.169936e-06	0.01500534	0.004795347	6.474732e-06	-3.491901e-06
	2.586327e-06	-3.169936e-06	-0.1038098	-0.04151693	6.748352e-05	-6.877842e-05	0.0147819	0.005589237
	0.01500534	0.004795347	6.748352e-05	-6.877842e-05	-0.1030403	-0.04412525	6.258895e-05	-5.914868e-05
	6.474732e-06	-3.491901e-06	0.0147819	0.005589237	6.258895e-05	-5.914868e-05	-0.1038582	-0.04114064
2.8e+08	-0.114834	-0.02962795	1.972022e-06	-3.538323e-06	0.01527988	0.002629354	5.966581e-06	-4.265175e-06
	1.972022e-06	-3.538323e-06	-0.1150472	-0.02693641	5.652273e-05	-7.673445e-05	0.01517362	0.003517935
	0.01527988	0.002629354	5.652273e-05	-7.673445e-05	-0.1146737	-0.02986211	5.305917e-05	-6.666571e-05
	5.966581e-06	-4.265175e-06	0.01517362	0.003517935	5.305917e-05	-6.666571e-05	-0.1150624	-0.0265175
2.9e+08	-0.1214368	-0.01248331	1.310199e-06	-3.785447e-06	0.01481325	0.0005115291	5.367015e-06	-4.970802e-06
	1.310199e-06	-3.785447e-06	-0.12125	-0.009642618	4.467706e-05	-8.313516e-05	0.01484732	0.001455315
	0.01481325	0.0005115291	4.467706e-05	-8.313516e-05	-0.1213503	-0.01275142	4.268229e-05	-7.281922e-05
	5.367015e-06	-4.970802e-06	0.01484732	0.001455315	4.268229e-05	-7.281922e-05	-0.1212219	-0.009191964
3e+08	-0.1224595	0.00578957	6.262435e-07	-3.906693e-06	0.01366483	-0.001329234	4.686259e-06	-5.59869e-06
	6.262435e-07	-3.906693e-06	-0.1218506	0.008650313	3.211728e-05	-8.787519e-05	0.01384862	-0.0003762604
	0.01366483	-0.001329234	3.211728e-05	-8.787519e-05	-0.1224565	0.005513515	3.160624e-05	-7.751091e-05
	4.686259e-06	-5.59869e-06	0.01384862	-0.0003762604	3.160624e-05	-7.751091e-05	-0.1217728	0.009118707
3.1e+08	-0.1178481	0.02340306	-5.465069e-08	-3.903426e-06	0.01195855	-0.002695515	3.93477e-06	-6.141166e-06
	-5.465069e-08	-3.903426e-06	-0.1168373	0.02615009	1.903583e-05	-9.084933e-05	0.01228597	-0.001781113
	0.01195855	-0.002695515	1.903583e-05	-9.084933e-05	-0.1179297	0.02314601	1.999796e-05	-8.064125e-05
	3.93477e-06	-6.141166e-06	0.01228597	-0.001781113	1.999796e-05	-8.064125e-05	-0.1167082	0.02662045
3.2e+08	-0.1080965	0.03864592	-7.091382e-07	-3.782641e-06	0.009870724	-0.003436722	3.122451e-06	-6.592312e-06
	-7.091382e-07	-3.782641e-06	-0.1067475	0.04115489	5.655721e-06	-9.196249e-05	0.01032015	-0.002605242
	0.009870724	-0.003436722	5.655721e-06	-9.196249e-05	-0.1082559	0.03843346	8.051835e-06	-8.211721e-05
	3.122451e-06	-6.592312e-06	0.01032015	-0.002605242	8.051835e-06	-8.211721e-05	-0.1065707	0.04161124
3.3e+08	-0.09419824	0.05004187	-1.317203e-06	-3.556131e-06	0.007615613	-0.003461431	2.258282e-06	-6.947081e-06
	-1.317203e-06	-3.556131e-06	-0.09261389	0.05221175	-7.766132e-06	-9.114615e-05	0.008151524	-0.002748841
	0.007615613	-0.003461431	-7.766132e-06	-9.114615e-05	-0.09442127	0.04989603	-4.005739e-06	-8.186417e-05
	2.258282e-06	-6.947081e-06	0.008151524	-0.002748841	-4.005739e-06	-8.186417e-05	-0.09239827	0.05263975
3.4e+08	-0.07755544	0.05648916	-1.863338e-06	-3.23896e-06	0.005428247	-0.002746902	1.350517e-06	-7.20012e-06
	-1.863338e-06	-3.23896e-06	-0.07586952	0.05825467	-2.094119e-05	-8.83664e-05	0.006004364	-0.00217651
	0.005428247	-0.002746902	-2.094119e-05	-8.83664e-05	-0.077822	0.0564265	-1.591641e-05	-7.983874e-05
	1.350517e-06	-7.20012e-06	0.006004364	-0.00217651	-1.591641e-05	-7.983874e-05	-0.07562841	0.05864329
3.5e+08	-0.05984937	0.05737047	-2.33702e-06	-2.847699e-06	0.003544097	-0.001344915	4.071278e-07	-7.345646e-06
	-2.33702e-06	-2.847699e-06	-0.05821426	0.05871159	-3.355692e-05	-8.364277e-05	0.004107832	-0.000924243
	0.003544097	-0.001344915	-3.355692e-05	-8.364277e-05	-0.06013527	0.05740049	-2.739797e-05	-7.604667e-05
	4.071278e-07	-7.345646e-06	0.004107832	-0.000924243	-2.739797e-05	-7.604667e-05	-0.05796426	0.0590544
3.6e+08	-0.04288083	0.05262236	-2.732432e-06	-2.39863e-06	0.002175637	0.0006179736	-5.630159e-07	-7.376286e-06
	-2.732432e-06	-2.39863e-06	-0.04145217	0.05356958	-4.529087e-05	-7.705899e-05	0.0026734	0.0008987986
	0.002175637	0.0006179736	-4.529087e-05	-7.705899e-05	-0.04316017	0.05274646	-3.81567e-05	-7.055097e-05
	-5.630159e-07	-7.376286e-06	0.0026734	0.0008987986	-3.81567e-05	-7.055097e-05	-0.04121161	0.05386575
3.7e+08	-0.02839109	0.04275356	-3.047429e-06	-1.906247e-06	0.001487404	0.002948088	-1.548724e-06	-7.283412e-06
	-3.047429e-06	-1.906247e-06	-0.02731098	0.04338798	-5.582893e-05	-6.876857e-05	0.001870299	0.003116194
	0.001487404	0.002948088	-5.582893e-05	-6.876857e-05	-0.02863896	0.04296491	-4.790417e-05	-6.347832e-05
	-1.548724e-06	-7.283412e-06	0.001870299	0.003116194	-4.790417e-05	-6.347832e-05	-0.02709799	0.04364274
3.8e+08	-0.01788021	0.02880502	-3.281954e-06	-1.382434e-06	0.001572873	0.005401875	-2.535186e-06	-7.058194e-06
	-3.281954e-06	-1.382434e-06	-0.01726061	0.0292527	-6.488713e-05	-5.899502e-05	0.00180221	0.005499661
	0.001572873	0.005401875	-6.488713e-05	-5.899502e-05	-0.01807529	0.02908925	-5.637705e-05	-5.501946e-05
	-2.535186e-06	-7.058194e-06	0.00180221	0.005499661	-5.637705e-05	-5.501946e-05	-0.01709117	0.02947708
3.9e+08	-0.012443	0.01224989	-3.43631e-06	-8.365734e-07	0.002437711	0.007712531	-3.503218e-06	-6.693357e-06
	-3.43631e-06	-8.365734e-07	-0.01235145	0.01267067	-7.2233e-05	-4.802271e-05	0.002489753	0.007793927
	0.002437711	0.007712531	-7.2233e-05	-4.802271e-05	-0.01256995	0.0125867	-6.335641e-05	-4.542132e-05
	-3.503218e-06	-6.693357e-06	0.002489753	0.007793927	-6.335641e-05	-4.542132e-05	-0.01223749	0.0128807
4e+08	-0.01264471	-0.005159346	-3.509801e-06	-2.765474e-07	0.003993973	0.009623182	-4.429428e-06	-6.185344e-06
	-3.509801e-06	-2.765474e-07	-0.01309415	-0.004587615	-7.770249e-05	-3.617986e-05	0.00386335	0.009748418
	0.003993973	0.009623182	-7.770249e-05	-3.617986e-05	-0.01269575	-0.004793767	-6.868309e-05	-3.497222e-05
	-4.429428e-06	-6.185344e-06	0.00386335	0.009748418	-6.868309e-05	-3.497222e-05	-0.01304204	-0.004372414
4.1e+08	-0.01845491	-0.02158029	-3.500208e-06	2.896956e-07	0.006068118	0.01092134	-5.287534e-06	-5.536357e-06
	-3.500208e-06	2.896956e-07	-0.01939936	-0.02068059	-8.120947e-05	-2.381599e-05	0.005769412	0.01115069
	0.006068118	0.01092134	-8.120947e-05	-2.381599e-05	-0.01843052	-0.02121045	-7.226677e-05	-2.398226e-05
	-5.287534e-06	-5.536357e-06	0.005769412	0.01115069	-7.226677e-05	-2.398226e-05	-0.0194089	-0.02043912
4.2e+08	-0.02925097	-0.03528297	-3.404245e-06	8.525499e-07	0.008422667	0.01146808	-6.050609e-06	-4.75566e-06
	-3.404245e-06	8.525499e-07	-0.03058769	-0.03389877	-8.27457e-05	-1.127776e-05	0.007989856	0.01185523
	0.008422667	0.01146808	-8.27457e-05	-1.127776e-05	-0.02915943	-0.03493124	-7.408677e-05	-1.276187e-05
	-6.050609e-06	-4.75566e-06	0.007989856	0.01185523	-7.408677e-05	-1.276187e-05	-0.03065175	-0.03361061
4.3e+08	-0.04389117	-0.04483817	-3.218888e-06	1.399677e-06	0.01078795	0.01121621	-6.693794e-06	-3.859729e-06
	-3.218888e-06	1.399677e-06	-0.04546953	-0.04285157	-8.237196e-05	1.112324e-06	0.01027161	0.01180201
	0.01078795	0.01121621	-8.237196e-05	1.112324e-06	-0.04374717	-0.04452234	-7.418505e-05	-1.602607e-06
	-6.693794e-06	-3.859729e-06	0.01027161	0.01180201	-7.418505e-05	-1.602607e-06	-0.04557453	-0.04249918
4.4e+08	-0.06084684	-0.04926699	-2.94312e-06	1.91582e-06	0.01289789	0.01021414	-7.196839e-06	-2.87116e-06
	-2.94312e-06	1.91582e-06	-0.06248289	-0.04661306	-8.020253e-05	1.307104e-05	0.01236036	0.01102147
	0.01289789	0.01021414	-8.020253e-05	1.307104e-05	-0.06066938	-0.0489986	-7.265311e-05	9.237054e-06
	-7.196839e-06	-2.87116e-06	0.01236036	0.01102147	-7.265311e-05	9.237054e-06	-0.06260994	-0.0461839
4.5e+08	-0.07837391	-0.0481344	-2.579589e-06	2.383553e-06	0.0145232	0.008595665	-7.545888e-06	-1.816581e-06
	-2.579589e-06	2.383553e-06	-0.07986903	-0.04481002	-7.638722e-05	2.436155e-05	0.01403217	0.009626157
	0.0145232	0.008595665	-7.638722e-05	2.436155e-05	-0.07818384	-0.04791796	-6.961602e-05	1.953894e-05
	-7.545888e-06	-1.816581e-06	0.01403217	0.009626157	-6.961602e-05	1.953894e-05	-0.07999577	-0.04429806
4.6e+08	-0.09470023	-0.04157895	-2.135736e-06	2.784784e-06	0.01549654	0.006558987	-7.734149e-06	-7.240954e-07
	-2.135736e-06	2.784784e-06	-0.09586184	-0.03764507	-7.109407e-05	3.479292e-05	0.01511781	0.007792104
	0.01549654	0.006558987	-7.109407e-05	3.479292e-05	-0.09451786	-0.04141205	-6.521681e-05	2.912548e-05
	-7.734149e-06	-7.240954e-07	0.01511781	0.007792104	-6.521681e-05	2.912548e-05	-0.09596465	-0.03705172
4.7e+08	-0.1082058	-0.03028083	-1.624136e-06	3.102605e-06	0.01572706	0.00434005	-7.761401e-06	3.791286e-07
	-1.624136e-06	3.102605e-06	-0.1088677	-0.02585791	-6.4496e-05	4.421371e-05	0.01551725	0.005734583
	0.01572706	0.00434005	-6.4496e-05	4.421371e-05	-0.1080489	-0.03015501	-5.960391e-05	3.785422e-05
	-7.761401e-06	3.791286e-07	0.01551725	0.005734583	-5.960391e-05	3.785422e-05	-0.1089243	-0.02519217
