!$
! Info: Touchstone file created by Circ.  Input file=Tx_14in_Rx_85ohms_TxVia_60mils_RxVia_70mils.circ
!$
# Hz S RI R 50
0	0.01128555	1.787046e-25	1.636425e-09	3.967872e-27	9.576002e-05	2.210254e-23	-1.480588e-10	6.351999e-26
	1.636439e-09	3.967878e-27	0.01128128	2.180153e-25	4.467722e-09	1.338553e-26	9.489331e-05	2.750721e-23
	9.489226e-05	2.20037e-23	4.467722e-09	1.338553e-26	0.01129924	1.806586e-25	3.687685e-09	4.193784e-27
	-1.477709e-10	6.348473e-26	9.516281e-05	2.762516e-23	3.687604e-09	4.19377e-27	0.01129564	2.170748e-25
1e+07	0.0138202	-0.01368489	2.036301e-09	3.672386e-09	0.0005823168	0.002563579	-1.969247e-09	1.194377e-08
	2.036301e-09	3.672386e-09	0.01384916	-0.01369128	6.05603e-09	1.331734e-08	0.0005781004	0.002570988
	0.0005823013	0.002563593	6.05603e-09	1.331734e-08	0.01388327	-0.01366375	-5.199409e-10	1.26663e-08
	-1.969247e-09	1.194377e-08	0.0005781032	0.002570986	-5.199407e-10	1.26663e-08	0.01381936	-0.0136759
2e+07	0.01127899	-0.03065122	2.621899e-09	6.635863e-09	0.001737929	0.004787977	1.542951e-09	3.644203e-09
	2.621898e-09	6.635863e-09	0.01124776	-0.0306652	7.127657e-09	2.403612e-08	0.001722203	0.004806826
	0.001737936	0.004787985	7.127657e-09	2.403612e-08	0.01133761	-0.03062686	-5.067956e-10	7.176104e-09
	1.542951e-09	3.644203e-09	0.0017222	0.004806826	-5.067956e-10	7.176104e-09	0.01123132	-0.03062302
3e+07	0.002535851	-0.04723346	2.959205e-09	9.249278e-09	0.003447613	0.006537968	2.507552e-09	5.183019e-09
	2.959205e-09	9.249278e-09	0.002423678	-0.04721609	6.988176e-09	3.489418e-08	0.003415426	0.00657541
	0.003447614	0.006537969	6.988176e-09	3.489418e-08	0.00259576	-0.04719715	2.49598e-09	9.527023e-09
	2.507552e-09	5.183019e-09	0.003415425	0.006575412	2.49598e-09	9.527023e-09	0.00241617	-0.04715904
4e+07	-0.01102135	-0.06079816	3.17678e-09	1.186031e-08	0.005542266	0.007682922	2.879586e-09	6.285512e-09
	3.176779e-09	1.186031e-08	-0.01122392	-0.06071103	6.439074e-09	4.631307e-08	0.005492166	0.007748157
	0.005542265	0.007682924	6.439074e-09	4.631307e-08	-0.01095684	-0.06075045	2.744877e-09	1.242965e-08
	2.879586e-09	6.285512e-09	0.005492167	0.007748158	2.744877e-09	1.242965e-08	-0.01122547	-0.06064198
5e+07	-0.02798303	-0.07002065	3.292265e-09	1.445417e-08	0.007818824	0.008148556	2.992938e-09	7.273907e-09
	3.292265e-09	1.445417e-08	-0.02827076	-0.06982334	5.808489e-09	5.843084e-08	0.007753465	0.008251272
	0.007818823	0.008148556	5.808489e-09	5.843084e-08	-0.02791228	-0.06996374	2.642044e-09	1.53742e-08
	2.992938e-09	7.273907e-09	0.007753466	0.008251272	2.642044e-09	1.53742e-08	-0.02826872	-0.06974246
6e+07	-0.04680585	-0.07415479	3.291705e-09	1.704563e-08	0.01006593	0.007926786	2.860455e-09	8.231024e-09
	3.291705e-09	1.704563e-08	-0.04715808	-0.07381041	5.439223e-09	7.126339e-08	0.009992024	0.008075553
	0.01006593	0.007926785	5.439223e-09	7.126339e-08	-0.04672866	-0.07409115	2.469595e-09	1.844172e-08
	2.860455e-09	8.231024e-09	0.009992025	0.008075553	2.469595e-09	1.844172e-08	-0.04715359	-0.0737166
7e+07	-0.06589838	-0.07296099	3.158221e-09	1.967749e-08	0.0120861	0.007072301	2.480259e-09	9.243798e-09
	3.158221e-09	1.967749e-08	-0.06628128	-0.07244154	5.658049e-09	8.4714e-08	0.01201381	0.007273103
	0.01208609	0.0070723	5.65805e-09	8.4714e-08	-0.06581555	-0.07289272	2.306294e-09	2.163215e-08
	2.480259e-09	9.243798e-09	0.01201381	0.007273103	2.306294e-09	2.163215e-08	-0.06627428	-0.07233337
8e+07	-0.08373409	-0.06666386	2.89107e-09	2.241445e-08	0.01371313	0.005692277	1.876001e-09	1.040342e-08
	2.89107e-09	2.241445e-08	-0.08410449	-0.06595423	6.740853e-09	9.857088e-08	0.01365504	0.005947333
	0.01371312	0.005692276	6.740853e-09	9.857088e-08	-0.08364709	-0.0665924	2.184114e-09	2.493295e-08
	1.876001e-09	1.040342e-08	0.01365505	0.005947333	2.184114e-09	2.493295e-08	-0.08409392	-0.06583035
9e+07	-0.09895935	-0.05589461	2.518589e-09	2.533232e-08	0.01482421	0.003932317	1.102815e-09	1.179133e-08
	2.518589e-09	2.533232e-08	-0.09926939	-0.05499508	8.874756e-09	1.125246e-07	0.01479394	0.004239294
	0.0148242	0.003932317	8.874756e-09	1.125246e-07	-0.09886984	-0.05582065	2.118116e-09	2.833487e-08
	1.102815e-09	1.179133e-08	0.01479394	0.004239294	2.118116e-09	2.833487e-08	-0.09925333	-0.05485468
1e+08	-0.1104862	-0.04161511	2.092629e-09	2.850198e-08	0.01534883	0.001961786	2.43591e-10	1.346811e-08
	2.092629e-09	2.850198e-08	-0.1106883	-0.04054228	1.212128e-08	1.261979e-07	0.0153594	0.002313494
	0.01534882	0.001961786	1.212128e-08	1.261979e-07	-0.1103955	-0.04153854	2.104312e-09	3.183223e-08
	2.43591e-10	1.346811e-08	0.0153594	0.002313494	2.104312e-09	3.183223e-08	-0.1106646	-0.04038548
1.1e+08	-0.1175423	-0.02499998	1.75753e-09	3.186816e-08	0.01525949	-6.132574e-05	-5.927581e-10	1.54407e-08
	1.75753e-09	3.186816e-08	-0.1175941	-0.02378836	1.644308e-08	1.391874e-07	0.01532158	0.0003232999
	0.01525949	-6.132579e-05	1.644308e-08	1.391874e-07	-0.1174517	-0.02492179	2.25208e-09	3.551524e-08
	-5.927581e-10	1.54407e-08	0.01532158	0.0003233001	2.25208e-09	3.551524e-08	-0.1175595	-0.02361507
1.2e+08	-0.1197084	-0.007409618	1.604802e-09	3.549465e-08	0.01456546	-0.00194923	-1.334388e-09	1.771037e-08
	1.604802e-09	3.549465e-08	-0.1195806	-0.006105878	2.160529e-08	1.511598e-07	0.01468592	-0.001547208
	0.01456546	-0.00194923	2.160529e-08	1.511598e-07	-0.1196203	-0.007328901	2.64403e-09	3.931571e-08
	-1.334388e-09	1.771037e-08	0.01468592	-0.001547207	2.64403e-09	3.931571e-08	-0.1195313	-0.005918821
1.3e+08	-0.1169702	0.00977547	1.73144e-09	3.93263e-08	0.01333904	-0.003542167	-1.892661e-09	2.025279e-08
	1.73144e-09	3.93263e-08	-0.1166482	0.011115	2.726763e-08	1.618325e-07	0.01351967	-0.00314072
	0.01333904	-0.003542168	2.726763e-08	1.618325e-07	-0.1168858	0.009860189	3.331412e-09	4.315808e-08
	-1.892661e-09	2.025279e-08	0.01351967	-0.003140719	3.331412e-09	4.315808e-08	-0.1165818	0.01131159
1.4e+08	-0.1096776	0.02523829	2.224108e-09	4.325985e-08	0.01168658	-0.004707073	-2.1902e-09	2.302166e-08
	2.224108e-09	4.325985e-08	-0.1091652	0.02655249	3.300403e-08	1.710506e-07	0.01192337	-0.004324928
	0.01168658	-0.004707073	3.300403e-08	1.710506e-07	-0.1095977	0.0253287	4.349205e-09	4.693326e-08
	-2.1902e-09	2.302166e-08	0.01192337	-0.004324927	4.349205e-09	4.693326e-08	-0.1090808	0.02675341
1.5e+08	-0.09851713	0.03781485	3.134198e-09	4.717121e-08	0.009744522	-0.005343629	-2.152416e-09	2.594809e-08
	3.134198e-09	4.717121e-08	-0.09783745	0.03904365	3.834652e-08	1.788081e-07	0.01002738	-0.004998362
	0.009744522	-0.005343629	3.834652e-08	1.788081e-07	-0.09844176	0.03791268	5.695413e-09	5.052751e-08
	-2.152416e-09	2.594809e-08	0.01002738	-0.004998361	5.695413e-09	5.052751e-08	-0.09773597	0.03924329
1.6e+08	-0.08445937	0.04657495	4.456117e-09	5.09065e-08	0.007671596	-0.005390691	-1.727635e-09	2.894211e-08
	4.456117e-09	5.09065e-08	-0.08365485	0.04766556	4.283742e-08	1.852551e-07	0.007984791	-0.005096778
	0.007671596	-0.005390691	4.283742e-08	1.852551e-07	-0.08438808	0.04668176	7.314353e-09	5.381406e-08
	-1.727635e-09	2.894211e-08	0.007984791	-0.005096777	7.314352e-09	5.381406e-08	-0.08353917	0.0478585
1.7e+08	-0.06868875	0.0508889	6.122392e-09	5.431916e-08	0.005639238	-0.004831729	-8.864516e-10	3.189651e-08
	6.122392e-09	5.431916e-08	-0.06781857	0.05180183	4.608111e-08	1.906859e-07	0.005962409	-0.004598755
	0.005639239	-0.004831729	4.608111e-08	1.906859e-07	-0.06862065	0.05100601	9.096886e-09	5.668913e-08
	-8.864516e-10	3.189651e-08	0.005962409	-0.004598755	9.096886e-09	5.668913e-08	-0.0676934	0.05198353
1.8e+08	-0.05251675	0.05047563	8.01079e-09	5.729621e-08	0.003819927	-0.003698476	3.715515e-10	3.469058e-08
	8.01079e-09	5.729621e-08	-0.05165265	0.05118997	4.77873e-08	1.955109e-07	0.004129648	-0.003529704
	0.003819927	-0.003698476	4.77873e-08	1.955109e-07	-0.05245064	0.05060398	1.08924e-08	5.909556e-08
	3.715515e-10	3.469058e-08	0.004129649	-0.003529703	1.08924e-08	5.909556e-08	-0.05152425	0.05135733
1.9e+08	-0.03728336	0.04542759	9.96321e-09	5.977875e-08	0.002373598	-0.002071656	2.01051e-09	3.719716e-08
	9.96321e-09	5.977875e-08	-0.03650369	0.04594489	4.780116e-08	2.002164e-07	0.002645386	-0.001963094
	0.002373598	-0.002071656	4.780116e-08	2.002164e-07	-0.03721784	0.04556769	1.253185e-08	6.103925e-08
	2.01051e-09	3.719716e-08	0.002645386	-0.001963094	1.253185e-08	6.103925e-08	-0.03637939	0.04609681
2e+08	-0.0242523	0.03620831	1.181207e-08	6.17713e-08	0.001432994	-7.752071e-05	3.952428e-09	3.929419e-08
	1.181207e-08	6.17713e-08	-0.02363493	0.03655458	4.611797e-08	2.053198e-07	0.001643568	-1.764389e-05
	0.001432994	-7.75207e-05	4.611797e-08	2.053198e-07	-0.02418591	0.03636017	1.385702e-08	6.259299e-08
	3.952428e-09	3.929419e-08	0.001643568	-1.764384e-05	1.385702e-08	6.259299e-08	-0.0235225	0.03669224
2.1e+08	-0.01450811	0.02361985	1.340737e-08	6.333736e-08	0.00108953	0.002120669	6.075615e-09	4.088036e-08
	1.340737e-08	6.333736e-08	-0.01412272	0.02384528	4.288344e-08	2.113247e-07	0.001219132	0.002150499
	0.00108953	0.002120669	4.288344e-08	2.113247e-07	-0.01443953	0.02378303	1.474872e-08	6.388548e-08
	6.075615e-09	4.088036e-08	0.001219132	0.002150499	1.474872e-08	6.388548e-08	-0.01402963	0.02397232
2.2e+08	-0.008864439	0.008740505	1.463713e-08	6.458312e-08	0.00138186	0.004336323	8.220091e-09	4.189291e-08
	1.463713e-08	6.458312e-08	-0.008764986	0.008916683	3.838244e-08	2.186813e-07	0.001416417	0.004360722
	0.00138186	0.004336323	3.838244e-08	2.186813e-07	-0.008792632	0.008914143	1.514617e-08	6.507817e-08
	8.220091e-09	4.189291e-08	0.001416417	0.004360722	1.514617e-08	6.507817e-08	-0.008697616	0.00903907
2.3e+08	-0.007793317	-0.007163977	1.543585e-08	6.563491e-08	0.002289388	0.006377338	1.020136e-08	4.23237e-08
	1.543585e-08	6.563491e-08	-0.008011453	-0.0069492	3.301989e-08	2.277523e-07	0.002222297	0.006425113
	0.002289388	0.006377338	3.301989e-08	2.277523e-07	-0.007717663	-0.006981001	1.505206e-08	6.633613e-08
	1.020136e-08	4.23237e-08	0.002222297	0.006425113	1.505206e-08	6.633613e-08	-0.007974392	-0.006823482
2.4e+08	-0.01138394	-0.0227479	1.578013e-08	6.661836e-08	0.003732432	0.008065902	1.183162e-08	4.222932e-08
	1.578013e-08	6.661836e-08	-0.01192422	-0.02239758	2.729632e-08	2.387849e-07	0.003565772	0.00816774
	0.003732432	0.008065902	2.729632e-08	2.387849e-07	-0.01130432	-0.02255678	1.452263e-08	6.780187e-08
	1.183162e-08	4.222932e-08	0.003565772	0.00816774	1.452263e-08	6.780187e-08	-0.01191963	-0.02225912
2.5e+08	-0.01933627	-0.0367016	1.567558e-08	6.764622e-08	0.005579642	0.00925746	1.294499e-08	4.173141e-08
	1.567558e-08	6.764622e-08	-0.02017375	-0.03611826	2.177887e-08	2.518874e-07	0.005324658	0.00944327
	0.005579642	0.00925746	2.177887e-08	2.518874e-07	-0.01925305	-0.03650339	1.36472e-08	6.957994e-08
	1.294499e-08	4.173141e-08	0.005324658	0.00944327	1.36472e-08	6.957994e-08	-0.02020094	-0.03595697
2.6e+08	-0.03099074	-0.04786357	1.51423e-08	6.881781e-08	0.007661854	0.009855863	1.342172e-08	4.100615e-08
	1.51423e-08	6.881781e-08	-0.0320713	-0.04695833	1.70667e-08	2.670102e-07	0.007338626	0.01015201
	0.007661854	0.009855863	1.70667e-08	2.670102e-07	-0.03090465	-0.04765902	1.25255e-08	7.173562e-08
	1.342172e-08	4.100615e-08	0.007338626	0.01015201	1.25255e-08	7.173562e-08	-0.03212652	-0.04676434
2.7e+08	-0.04539039	-0.05531716	1.420686e-08	7.022773e-08	0.009790316	0.009822449	1.320626e-08	4.026415e-08
	1.420686e-08	7.022773e-08	-0.04663396	-0.05401847	1.374939e-08	2.839329e-07	0.009426581	0.01024913
	0.009790316	0.009822449	1.374939e-08	2.839329e-07	-0.04530239	-0.05510654	1.125157e-08	7.430573e-08
	1.320626e-08	4.026415e-08	0.009426581	0.01024913	1.125157e-08	7.430573e-08	-0.04671053	-0.05378305
2.8e+08	-0.06136815	-0.05846224	1.29051e-08	7.19771e-08	0.01177643	0.009177981	1.231552e-08	3.972493e-08
	1.29051e-08	7.19771e-08	-0.06267452	-0.05672339	1.235815e-08	3.02262e-07	0.01140562	0.009747017
	0.01177643	0.009177981	1.235815e-08	3.02262e-07	-0.06127917	-0.05824534	9.909526e-09	7.731448e-08
	1.231552e-08	3.972493e-08	0.01140562	0.009747017	9.909526e-09	7.731448e-08	-0.06276318	-0.05643984
2.9e+08	-0.07764895	-0.05705623	1.129517e-08	7.417923e-08	0.01345011	0.007997751	1.083628e-08	3.959092e-08
	1.129517e-08	7.417923e-08	-0.0789057	-0.05486079	1.331226e-08	3.214428e-07	0.01310877	0.008710978
	0.01345011	0.007997751	1.331226e-08	3.214428e-07	-0.0775597	-0.05683239	8.581389e-09	8.078586e-08
	1.083628e-08	3.959092e-08	0.01310877	0.008710978	8.581389e-09	8.078586e-08	-0.07899526	-0.05452522
3e+08	-0.09295614	-0.05122272	9.475053e-09	7.695375e-08	0.01467449	0.006401342	8.913318e-09	4.002565e-08
	9.475053e-09	7.695375e-08	-0.09404789	-0.04858749	1.686636e-08	3.407904e-07	0.01439925	0.007249865
	0.01467449	0.006401342	1.686636e-08	3.407904e-07	-0.09286694	-0.05099099	7.361953e-09	8.474557e-08
	8.913318e-09	4.002565e-08	0.01439925	0.007249865	7.361953e-09	8.474557e-08	-0.09412611	-0.04819932
3.1e+08	-0.106112	-0.04142995	7.575388e-09	8.044201e-08	0.01535573	0.004539158	6.732012e-09	4.113889e-08
	7.575388e-09	8.044201e-08	-0.1069303	-0.03840503	2.305596e-08	3.595523e-07	0.01518007	0.005503514
	0.01535573	0.004539158	2.305596e-08	3.595523e-07	-0.1060227	-0.04118928	6.351266e-09	8.924491e-08
	6.732012e-09	4.113889e-08	0.01518007	0.005503514	6.351266e-09	8.924491e-08	-0.1069849	-0.03796728
3.2e+08	-0.1161251	-0.02844382	5.822372e-09	8.476566e-08	0.01544767	0.002577896	4.497661e-09	4.297978e-08
	5.822372e-09	8.476566e-08	-0.1165779	-0.0251098	3.169432e-08	3.769718e-07	0.01539892	0.003629169
	0.01544767	0.002577896	3.169432e-08	3.769718e-07	-0.1160351	-0.02819327	5.720147e-09	9.432683e-08
	4.497661e-09	4.297978e-08	0.01539892	0.003629169	5.720147e-09	9.432683e-08	-0.1165975	-0.02462905
3.3e+08	-0.1222587	-0.0132617	4.536624e-09	8.984211e-08	0.01495215	0.0006866513	2.41485e-09	4.553908e-08
	4.536624e-09	8.984211e-08	-0.1222787	-0.009724224	4.238137e-08	3.923086e-07	0.01504879	0.001788474
	0.01495215	0.0006866513	4.238137e-08	3.923086e-07	-0.1221669	-0.01300057	5.712771e-09	9.984676e-08
	2.41485e-09	4.553908e-08	0.01504879	0.001788474	5.712771e-09	9.984676e-08	-0.1222542	-0.009210257
3.4e+08	-0.1240781	0.002966611	3.984845e-09	9.554483e-08	0.01391593	-0.0009752909	6.751969e-10	4.875389e-08
	3.984845e-09	9.554483e-08	-0.1236294	0.006584432	5.447146e-08	4.049834e-07	0.01416562	0.0001359968
	0.01391593	-0.0009752909	5.447146e-08	4.049834e-07	-0.1239832	0.003238582	6.503675e-09	1.056399e-07
	6.751969e-10	4.875389e-08	0.01416562	0.0001359968	6.503675e-09	1.056399e-07	-0.1235546	0.007119301
3.5e+08	-0.1214756	0.01902463	4.396521e-09	1.016436e-07	0.01242545	-0.00226867	-5.545164e-10	5.25165e-08
	4.396521e-09	1.016436e-07	-0.1205584	0.02259153	6.71502e-08	4.146277e-07	0.01282385	-0.001190476
	0.01242545	-0.00226867	6.71502e-08	4.146277e-07	-0.1213762	0.01930718	8.221487e-09	1.114642e-07
	-5.545164e-10	5.25165e-08	0.01282385	-0.001190476	8.221487e-09	1.114642e-07	-0.1204307	0.02313339
3.6e+08	-0.1146738	0.03371663	5.919875e-09	1.078181e-07	0.01060014	-0.003082596	-1.139311e-09	5.668276e-08
	5.919875e-09	1.078181e-07	-0.1133256	0.03710355	7.950794e-08	4.211332e-07	0.01113074	-0.002078031
	0.01060014	-0.003082596	7.950794e-08	4.211332e-07	-0.1145685	0.03400904	1.091219e-08	1.170162e-07
	-1.139311e-09	5.668276e-08	0.01113074	-0.002078031	1.091219e-08	1.170162e-07	-0.1131464	0.03763795
3.7e+08	-0.1042073	0.04595238	8.584594e-09	1.136913e-07	0.00858465	-0.003341351	-9.80831e-10	6.107943e-08
	8.584594e-09	1.136913e-07	-0.102502	0.04904309	9.062711e-08	4.246736e-07	0.009219617	-0.002445462
	0.00858465	-0.003341351	9.062711e-08	4.246736e-07	-0.1040951	0.04625349	1.450944e-08	1.219633e-07
	-9.80831e-10	6.107943e-08	0.009219617	-0.002445462	1.450944e-08	1.219633e-07	-0.1022769	0.04955624
3.8e+08	-0.0908851	0.05482499	1.228023e-08	1.188781e-07	0.006539984	-0.00300984	-2.182684e-11	6.551032e-08
	1.228023e-08	1.188781e-07	-0.08892873	0.05752623	9.967228e-08	4.256947e-07	0.007241946	-0.002249044
	0.006539984	-0.00300984	9.967228e-08	4.256947e-07	-0.09076538	0.05513332	1.88205e-08	1.259915e-07
	-2.182684e-11	6.551032e-08	0.007241946	-0.002249044	1.88205e-08	1.259915e-07	-0.08866733	0.05800615
3.9e+08	-0.07573428	0.05967786	1.67567e-08	1.230421e-07	0.004633287	-0.002097524	1.748054e-09	6.976232e-08
	1.67567e-08	1.230421e-07	-0.07365791	0.06192821	1.05971e-07	4.248756e-07	0.005357997	-0.001487048
	0.004633287	-0.002097524	1.05971e-07	4.248756e-07	-0.07560674	0.05999172	2.353372e-08	1.288577e-07
	1.748054e-09	6.976232e-08	0.005357997	-0.001487048	2.353372e-08	1.288577e-07	-0.07337292	0.06236582
4e+08	-0.05992701	0.06015644	2.164929e-08	1.259493e-07	0.003026115	-0.0006602694	4.284799e-09	7.361354e-08
	2.164929e-08	1.259493e-07	-0.05787737	0.0619331	1.090756e-07	4.230657e-07	0.003725776	-0.0002023964
	0.003026115	-0.0006602694	1.090756e-07	4.230657e-07	-0.05979187	0.06047406	2.824971e-08	1.304375e-07
	4.284799e-09	7.361354e-08	0.003725776	-0.0002023964	2.824971e-08	1.304375e-07	-0.05758398	0.06232317
4.1e+08	-0.04469491	0.05624037	2.652537e-08	1.275076e-07	0.001861437	0.001200814	7.482196e-09	7.684616e-08
	2.652537e-08	1.275076e-07	-0.04282303	0.05756319	1.088002e-07	4.212083e-07	0.002488466	0.001517516
	0.001861437	0.001200814	1.088002e-07	4.212083e-07	-0.04455292	0.05656002	3.253279e-08	1.30758e-07
	7.482196e-09	7.684616e-08	0.002488466	0.001517516	3.253279e-08	1.30758e-07	-0.0425377	0.05790492
4.2e+08	-0.03123503	0.04825177	3.094456e-08	1.277833e-07	0.001250214	0.003344486	1.116672e-08	7.926513e-08
	3.094456e-08	1.277833e-07	-0.02968377	0.04918393	1.052302e-07	4.202606e-07	0.001761156	0.003544859
	0.001250214	0.003344486	1.052302e-07	4.202606e-07	-0.03108743	0.04857187	3.597385e-08	1.300042e-07
	1.116672e-08	7.926513e-08	0.001761156	0.003544859	3.597385e-08	1.300042e-07	-0.02942294	0.04948127
4.3e+08	-0.02061421	0.03683683	3.452007e-08	1.269904e-07	0.001259022	0.005599095	1.509931e-08	8.072232e-08
	3.452007e-08	1.269904e-07	-0.01950576	0.0374818	9.870885e-08	4.211194e-07	0.001618308	0.00571997
	0.001259022	0.005599095	9.870885e-08	4.211194e-07	-0.02046275	0.0371561	3.825178e-08	1.284986e-07
	1.509931e-08	8.072232e-08	0.001618308	0.00571997	3.825178e-08	1.284986e-07	-0.01928446	0.03774338
4.4e+08	-0.0136802	0.02291954	3.696798e-08	1.254541e-07	0.001900672	0.007776791	1.898775e-08	8.114262e-08
	3.696798e-08	1.254541e-07	-0.01310455	0.02341439	8.980688e-08	4.245585e-07	0.002083919	0.007864526
	0.001900672	0.007776791	8.980688e-08	4.245585e-07	-0.01352707	0.02323717	3.917971e-08	1.266549e-07
	1.898775e-08	8.114262e-08	0.00208392	0.007864526	3.917971e-08	1.266549e-07	-0.01293511	0.02365303
4.5e+08	-0.01098816	0.007629823	3.81342e-08	1.235599e-07	0.003129787	0.009691199	2.251149e-08	8.054632e-08
	3.81342e-08	1.235599e-07	-0.01099387	0.008135129	7.928105e-08	4.311801e-07	0.003126341	0.009798292
	0.003129787	0.009691199	7.928105e-08	4.311801e-07	-0.0108359	0.007945603	3.872547e-08	1.249166e-07
	2.251149e-08	8.054632e-08	0.003126341	0.009798292	3.872547e-08	1.249166e-07	-0.0108847	0.008366996
4.6e+08	-0.01275118	-0.007788821	3.799534e-08	1.217005e-07	0.004844802	0.01117647	2.535691e-08	7.906118e-08
	3.799534e-08	1.217005e-07	-0.01333921	-0.007101667	6.802793e-08	4.413768e-07	0.004659258	0.0113575
	0.004844802	0.01117647	6.802793e-08	4.413768e-07	-0.01260251	-0.007474316	3.700298e-08	1.236973e-07
	2.535691e-08	7.906118e-08	0.004659258	0.0113575	3.700298e-08	1.236973e-07	-0.01329395	-0.006858264
4.7e+08	-0.01882058	-0.02208358	3.663805e-08	1.202333e-07	0.006896817	0.01210506	2.725772e-08	7.691905e-08
	3.663805e-08	1.202333e-07	-0.01994227	-0.02104663	5.703363e-08	4.553036e-07	0.006549345	0.01241224
	0.006896817	0.01210506	5.703363e-08	4.553036e-07	-0.01867816	-0.02176889	3.423961e-08	1.233337e-07
	2.725772e-08	7.691905e-08	0.006549345	0.01241224	3.423961e-08	1.233337e-07	-0.0199592	-0.02077266
4.8e+08	-0.02869914	-0.03409811	3.422758e-08	1.194582e-07	0.009104453	0.01240145	2.803251e-08	7.443537e-08
	3.422758e-08	1.194582e-07	-0.03025841	-0.03256137	4.731842e-08	4.728552e-07	0.008629803	0.01288016
	0.009104453	0.01240145	4.731842e-08	4.728552e-07	-0.02856524	-0.03378088	3.073165e-08	1.24063e-07
	2.803251e-08	7.443537e-08	0.008629803	0.01288016	3.073165e-08	1.24063e-07	-0.0303304	-0.03223864
