!$
! Info: Touchstone file created by Circ.  Input file=Tx_10in_Rx_100ohms_TxVia_60mils_RxVia_70mils.circ
!$
# Hz S RI R 50
0	0.01043749	1.362748e-25	-5.390645e-05	7.386286e-24	7.436906e-05	2.043198e-23	-5.38694e-05	2.899813e-24
	-5.390645e-05	7.386249e-24	0.01043322	1.646099e-25	-5.39419e-05	1.1873e-23	7.350085e-05	2.542693e-23
	7.350121e-05	2.034061e-23	-5.394191e-05	1.187351e-23	0.01045121	1.377804e-25	-5.390416e-05	7.300012e-24
	-5.386939e-05	2.899209e-24	7.37704e-05	2.553596e-23	-5.390415e-05	7.298932e-24	0.0104476	1.638868e-25
1e+07	0.01524125	0.00663817	-0.0001898062	1.985421e-05	0.0006679208	0.001957666	-7.258381e-05	-4.70814e-06
	-0.0001898062	1.985421e-05	0.0153899	0.006624998	-1.284242e-05	0.0001222655	0.0006643306	0.001955765
	0.0006679049	0.001957679	-1.284242e-05	0.0001222655	0.01541218	0.006630076	-0.0001898029	1.983779e-05
	-7.258381e-05	-4.70814e-06	0.0006643332	0.001955763	-0.0001898029	1.983779e-05	0.01525204	0.006648316
2e+07	0.01996395	0.009449119	-0.0001546362	-5.431515e-05	0.00113904	0.003991585	-5.782706e-05	-1.061696e-05
	-0.0001546362	-5.431515e-05	0.02004974	0.009375293	-4.895705e-05	0.0002054779	0.001125361	0.003990166
	0.001139046	0.003991594	-4.895705e-05	0.0002054779	0.02009569	0.00938004	-0.0001546428	-5.433904e-05
	-5.782706e-05	-1.061696e-05	0.001125358	0.003990166	-0.0001546428	-5.433904e-05	0.01996024	0.009468844
3e+07	0.02410432	0.01030961	-0.000131705	-7.709879e-05	0.001995547	0.005700896	-4.94579e-05	-1.890605e-05
	-0.000131705	-7.709879e-05	0.02412325	0.01022539	-0.0001085713	0.0002496463	0.001966136	0.005704142
	0.001995548	0.005700897	-0.0001085713	0.0002496463	0.02420595	0.01021992	-0.0001317221	-7.715146e-05
	-4.94579e-05	-1.890605e-05	0.001966136	0.005704144	-0.0001317221	-7.715146e-05	0.02407534	0.01034514
4e+07	0.02787823	0.01007374	-0.0001157648	-8.902717e-05	0.003197839	0.007128131	-4.322272e-05	-2.29989e-05
	-0.0001157648	-8.902718e-05	0.02782534	0.01000282	-0.0001536619	0.0002856982	0.003148442	0.007141791
	0.003197838	0.007128132	-0.0001536619	0.0002856982	0.02795482	0.009973857	-0.0001157979	-8.912113e-05
	-4.322272e-05	-2.29989e-05	0.003148442	0.007141792	-0.0001157979	-8.912113e-05	0.02781519	0.01013358
5e+07	0.0312814	0.008978815	-0.0001037737	-9.594613e-05	0.00479716	0.00815723	-3.821653e-05	-2.541203e-05
	-0.0001037737	-9.594613e-05	0.03115483	0.008943089	-0.0001891648	0.0003195304	0.004725278	0.008187993
	0.004797159	0.00815723	-0.0001891648	0.0003195304	0.03133686	0.008873979	-0.0001038344	-9.609263e-05
	-3.821653e-05	-2.541203e-05	0.004725279	0.008187993	-0.0001038344	-9.609263e-05	0.03117813	0.009074907
6e+07	0.03426146	0.007171977	-9.399286e-05	-9.98836e-05	0.006533565	0.00882645	-3.399293e-05	-2.701545e-05
	-9.399286e-05	-9.98836e-05	0.03406391	0.007192524	-0.0002177606	0.0003528374	0.006438711	0.00888176
	0.006533563	0.008826449	-0.0002177606	0.0003528374	0.03429889	0.007065202	-9.409857e-05	-0.0001000905
	-3.399293e-05	-2.701545e-05	0.006438713	0.00888176	-9.409857e-05	-0.0001000905	0.03411592	0.007317988
7e+07	0.03675322	0.004774137	-0.0001049592	-8.406835e-05	0.008333664	0.009119636	-2.983053e-05	-2.80424e-05
	-0.0001049592	-8.406835e-05	0.03649191	0.004870563	-0.0002410606	0.0003860226	0.00821743	0.00920704
	0.00833366	0.009119635	-0.0002410606	0.0003860226	0.03677509	0.004667256	-0.0001051234	-8.432124e-05
	-2.983053e-05	-2.80424e-05	0.008217431	0.009207039	-0.0001051234	-8.432125e-05	0.03656727	0.004983901
8e+07	0.03869457	0.001902011	-0.000123298	-5.0448e-05	0.01012085	0.00903416	-3.306586e-05	-2.04994e-05
	-0.000123298	-5.0448e-05	0.038381	0.002091868	-0.0002613011	0.0004184087	0.00998688	0.009160791
	0.01012085	0.00903416	-0.0002613011	0.0004184087	0.03870293	0.001796207	-0.0001235228	-5.073865e-05
	-3.306586e-05	-2.04994e-05	0.009986881	0.00916079	-0.0001235228	-5.073865e-05	0.03847357	0.002188795
9e+07	0.04003568	-0.001324621	-0.0001311075	-1.267411e-05	0.01181809	0.008581748	-3.573791e-05	-9.447122e-06
	-0.0001311075	-1.267411e-05	0.03968538	-0.001026387	-0.0002826598	0.0004485116	0.01167193	0.008753836
	0.01181808	0.008581748	-0.0002826598	0.0004485116	0.04003237	-0.001428418	-0.0001314103	-1.299518e-05
	-3.573791e-05	-9.447122e-06	0.01167193	0.008753835	-0.0001314103	-1.299519e-05	0.03978834	-0.000948708
1e+08	0.04075589	-0.004775726	-0.0001234458	2.978931e-05	0.01334532	0.007785431	-3.362594e-05	2.788537e-06
	-0.0001234458	2.978931e-05	0.04038963	-0.004356772	-0.0003209266	0.0004688884	0.01319422	0.008007863
	0.01334532	0.007785431	-0.0003209266	0.0004688884	0.04074422	-0.004875883	-0.0001238436	2.944581e-05
	-3.362594e-05	2.788537e-06	0.01319422	0.008007863	-0.0001238436	2.944581e-05	0.04049413	-0.004300488
1.1e+08	0.04083621	-0.00841292	-0.0001003733	5.178182e-05	0.01463631	0.006728234	-2.702523e-05	8.177866e-06
	-0.0001003733	5.178182e-05	0.04047814	-0.007875353	-0.00032728	0.0004437615	0.01448894	0.007004095
	0.01463631	0.006728234	-0.00032728	0.0004437615	0.04081901	-0.008517513	-0.0001008969	5.142685e-05
	-2.702523e-05	8.177866e-06	0.01448893	0.007004095	-0.0001008969	5.142685e-05	0.04057589	-0.007831531
1.2e+08	0.04020062	-0.01205303	-8.218085e-05	6.603922e-05	0.01567319	0.005436067	-2.247392e-05	1.141629e-05
	-8.218085e-05	6.603922e-05	0.03986729	-0.01139668	-0.0003146282	0.0004337794	0.01553901	0.00576626
	0.01567319	0.005436067	-0.0003146282	0.0004337794	0.04017195	-0.01216305	-8.284138e-05	6.571536e-05
	-2.247392e-05	1.141629e-05	0.01553901	0.005766261	-8.284138e-05	6.571536e-05	0.0399589	-0.01136196
1.3e+08	0.03888924	-0.01555462	-6.489398e-05	7.612707e-05	0.01640342	0.003962449	-1.855637e-05	1.366113e-05
	-6.489398e-05	7.612707e-05	0.03860013	-0.01478244	-0.0002972977	0.0004277948	0.01629229	0.0043456
	0.01640342	0.003962449	-0.0002972977	0.0004277948	0.03884536	-0.01566858	-6.569132e-05	7.587525e-05
	-1.855637e-05	1.366113e-05	0.01629229	0.004345601	-6.569132e-05	7.587525e-05	0.03868457	-0.01475464
1.4e+08	0.03694977	-0.01879426	-4.808592e-05	8.278284e-05	0.01679421	0.002374109	-1.503623e-05	1.52025e-05
	-4.808592e-05	8.278284e-05	0.03672456	-0.01791372	-0.0002785148	0.0004231202	0.01671578	0.002806458
	0.01679421	0.002374109	-0.0002785148	0.0004231202	0.03688781	-0.01890946	-4.90083e-05	8.26433e-05
	-1.503623e-05	1.52025e-05	0.01671577	0.002806459	-4.90083e-05	8.26433e-05	0.03680077	-0.01789071
1.5e+08	0.03444791	-0.02166099	-3.182106e-05	8.637758e-05	0.01682834	0.0007436191	-1.181764e-05	1.620611e-05
	-3.182106e-05	8.637758e-05	0.0343051	-0.02068423	-0.0002600373	0.0004187836	0.01679152	0.001219058
	0.01682834	0.0007436191	-0.0002600373	0.0004187836	0.03436589	-0.02177386	-3.284508e-05	8.63871e-05
	-1.181764e-05	1.620611e-05	0.01679151	0.001219059	-3.284508e-05	8.63871e-05	0.03437225	-0.02066378
1.6e+08	0.03146655	-0.02405855	-1.633772e-05	8.719601e-05	0.01650438	-0.000854267	-8.853862e-06	1.677895e-05
	-1.633772e-05	8.719601e-05	0.03142222	-0.02300219	-0.0002430019	0.0004146386	0.01651678	-0.0003440288
	0.01650438	-0.000854267	-0.0002430019	0.0004146386	0.03136344	-0.02416488	-1.742953e-05	8.738455e-05
	-8.853862e-06	1.677895e-05	0.01651678	-0.0003440281	-1.742953e-05	8.738455e-05	0.03147984	-0.022982
1.7e+08	0.02810351	-0.025908	-1.933171e-06	8.553215e-05	0.0158366	-0.002346014	-6.118876e-06	1.699731e-05
	-1.933171e-06	8.553215e-05	0.02817025	-0.02479257	-0.0002281194	0.0004110282	0.01590401	-0.001811153
	0.0158366	-0.002346014	-0.0002281194	0.0004110282	0.02797936	-0.0260032	-3.050657e-06	8.591986e-05
	-6.118876e-06	1.699731e-05	0.01590401	-0.001811153	-3.050657e-06	8.591986e-05	0.02821828	-0.02477032
1.8e+08	0.02446851	-0.02715	1.109849e-05	8.172383e-05	0.01485425	-0.003662556	-3.596646e-06	1.691907e-05
	1.109849e-05	8.172383e-05	0.02465442	-0.02599918	-0.0002157195	0.0004085903	0.01498023	-0.003114721
	0.01485425	-0.003662556	-0.0002157195	0.0004085903	0.02432448	-0.02722936	1.000257e-05	8.231871e-05
	-3.596646e-06	1.691907e-05	0.01498023	-0.00311472	1.000257e-05	8.231871e-05	0.02469326	-0.0259726
1.9e+08	0.02067958	-0.02774663	2.250855e-05	7.61587e-05	0.01360038	-0.004742324	-1.276375e-06	1.659009e-05
	2.250855e-05	7.61587e-05	0.02098754	-0.02658622	-0.0002057669	0.0004081106	0.01378584	-0.004194124
	0.01360038	-0.004742324	-0.0002057669	0.0004081106	0.02051797	-0.02780557	2.148276e-05	7.69554e-05
	-1.276375e-06	1.659009e-05	0.01378584	-0.004194123	2.148276e-05	7.69554e-05	0.02101801	-0.02655321
2e+08	0.01685914	-0.02768254	3.212288e-05	6.926402e-05	0.01212988	-0.005533951	8.498367e-07	1.604779e-05
	3.212288e-05	6.926402e-05	0.01728625	-0.02653929	-0.0001978778	0.0004103955	0.01237291	-0.004998363
	0.01212988	-0.005533951	-0.0001978778	0.0004103955	0.01668333	-0.02771689	3.121302e-05	7.024374e-05
	8.498367e-07	1.604779e-05	0.01237291	-0.004998363	3.121302e-05	7.024374e-05	0.01730959	-0.02649799
2.1e+08	0.01312977	-0.02696537	3.986063e-05	6.148623e-05	0.0105072	-0.005998529	2.788184e-06	1.532349e-05
	3.986063e-05	6.148623e-05	0.01366716	-0.0258657	-0.000191353	0.0004161625	0.01080295	-0.005488255
	0.0105072	-0.005998529	-0.000191353	0.0004161625	0.01294417	-0.0269716	3.910569e-05	6.261798e-05
	2.788184e-06	1.532349e-05	0.01080295	-0.005488255	3.910569e-05	6.261798e-05	0.01368495	-0.02581455
2.2e+08	0.009610071	-0.02562539	4.574196e-05	5.326509e-05	0.00880348	-0.006111331	4.54384e-06	1.444379e-05
	4.574196e-05	5.326509e-05	0.01024288	-0.02459401	-0.0001852284	0.0004259438	0.009144215	-0.005638135
	0.00880348	-0.006111331	-0.0001852284	0.0004259438	0.009419939	-0.02560085	4.517066e-05	5.450817e-05
	4.54384e-06	1.444379e-05	0.009144215	-0.005638135	4.517066e-05	5.450817e-05	0.01025699	-0.02453185
2.3e+08	0.006410511	-0.0237144	4.988567e-05	4.500614e-05	0.007093524	-0.005862915	6.12131e-06	1.343159e-05
	4.988567e-05	4.500614e-05	0.007118289	-0.02277295	-0.0001783461	0.0004400097	0.007468813	-0.005436968
	0.007093524	-0.005862915	-0.0001783461	0.0004400097	0.006221782	-0.02365749	4.95138e-05	4.631363e-05
	6.12131e-06	1.343159e-05	0.007468813	-0.005436968	4.95138e-05	4.631363e-05	0.007130786	-0.02269906
2.4e+08	0.003629541	-0.02130375	5.249806e-05	3.705425e-05	0.005452512	-0.005259558	7.524515e-06	1.230675e-05
	5.249806e-05	3.705425e-05	0.004386867	-0.0204696	-0.0001694406	0.00045832	0.005849576	-0.004888834
	0.005452512	-0.005259558	-0.0001694406	0.00045832	0.003448597	-0.02121412	5.232704e-05	3.837725e-05
	7.524515e-06	1.230675e-05	0.005849576	-0.004888834	5.232704e-05	3.837725e-05	0.004399915	-0.02038372
2.5e+08	0.001350169	-0.01848179	5.385226e-05	2.967255e-05	0.003952729	-0.004323001	8.756803e-06	1.108661e-05
	5.385226e-05	2.967255e-05	0.002127608	-0.0177669	-0.0001572329	0.0004804941	0.00435692	-0.004012746
	0.003952729	-0.004323001	-0.0001572329	0.0004804941	0.001183571	-0.01836044	5.386908e-05	3.096477e-05
	8.756803e-06	1.108661e-05	0.00435692	-0.004012746	5.386908e-05	3.096477e-05	0.00214337	-0.01766925
2.6e+08	-0.0003629654	-0.01535063	5.426271e-05	2.302758e-05	0.002660413	-0.003089518	9.820802e-06	9.786534e-06
	5.426271e-05	2.302758e-05	0.0004023038	-0.01476062	-0.0001405283	0.000505815	0.003055811	-0.002841831
	0.002660413	-0.003089518	-0.0001405283	0.000505815	-0.0005087658	-0.01519991	5.444132e-05	2.424972e-05
	9.820802e-06	9.786534e-06	0.003055811	-0.002841831	5.444132e-05	2.424972e-05	0.0004228366	-0.01465191
2.7e+08	-0.001465829	-0.01202237	5.405533e-05	1.718344e-05	0.001632872	-0.001608339	1.071829e-05	8.420335e-06
	5.405533e-05	1.718344e-05	-0.0007464901	-0.01155591	-0.0001183099	0.0005332562	0.002002966	-0.001421883
	0.001632872	-0.001608339	-0.0001183099	0.0005332562	-0.001584792	-0.01184601	5.435937e-05	1.83071e-05
	1.071829e-05	8.420335e-06	0.002002966	-0.001421883	5.435937e-05	1.83071e-05	-0.0007193326	-0.01143727
2.8e+08	-0.001936492	-0.00861499	5.353774e-05	1.210448e-05	0.0009159846	6.048455e-05	1.145005e-05	7.000986e-06
	5.353774e-05	1.210448e-05	-0.001296808	-0.008263481	-8.981694e-05	0.0005615394	0.001244425	0.0001906207
	0.0009159846	6.048455e-05	-8.981694e-05	0.0005615394	-0.002023277	-0.008418033	5.392442e-05	1.311505e-05
	1.145005e-05	7.000986e-06	0.001244425	0.0001906207	5.392442e-05	1.311505e-05	-0.001261462	-0.00813644
2.9e+08	-0.001775799	-0.005248067	5.297115e-05	7.667309e-06	0.000542217	0.001848693	1.201595e-05	5.541159e-06
	5.297115e-05	7.667309e-06	-0.001247883	-0.004995589	-5.460859e-05	0.0005892055	0.0008135914	0.001930962
	0.000542217	0.001848693	-5.460859e-05	0.0005892055	-0.00182605	-0.005036681	5.3396e-05	8.565517e-06
	1.201595e-05	5.541159e-06	0.0008135914	0.001930962	5.3396e-05	8.565517e-06	-0.001203157	-0.004861977
3e+08	-0.001007198	-0.002038349	5.254738e-05	3.680706e-06	0.0005292239	0.003682776	1.241507e-05	4.053854e-06
	5.254738e-05	3.680706e-06	-0.000619974	-0.001862025	-1.260392e-05	0.0006147034	0.0007298198	0.003728978
	0.0005292239	0.003682776	-1.260392e-05	0.0006147034	-0.001017787	-0.001819659	5.296925e-05	4.482655e-06
	1.241507e-05	4.053854e-06	0.0007298198	0.003728978	5.296925e-05	4.482655e-06	-0.0005651076	-0.001723907
3.1e+08	0.0003242738	0.0009044732	5.237307e-05	-8.925814e-08	0.000879097	0.005487149	1.264617e-05	2.553042e-06
	5.237307e-05	-8.925814e-08	0.000546568	0.001033809	3.590846e-05	0.0006364878	0.0009976229	0.005512068
	0.000879097	0.005487149	3.590846e-05	0.0006364878	0.0003550416	0.001122648	5.275908e-05	6.463402e-07
	1.264617e-05	2.553042e-06	0.0009976229	0.005512068	5.275908e-05	6.463402e-07	0.0006118643	0.001174238
3.2e+08	0.002153805	0.00348174	5.2462e-05	-3.88988e-06	0.001578291	0.007187411	1.27082e-05	1.054e-06
	5.2462e-05	-3.88988e-06	0.002192961	0.003598547	9.028033e-05	0.0006531119	0.001606514	0.007208298
	0.001578291	0.007187411	9.028033e-05	0.0006531119	0.002226039	0.003691187	5.279187e-05	-3.180021e-06
	1.27082e-05	1.054e-06	0.001606514	0.007208298	5.279187e-05	-3.180021e-06	0.002268487	0.003739067
3.3e+08	0.004399348	0.005609366	5.273687e-05	-7.952005e-06	0.002598221	0.008713532	1.260102e-05	-4.264758e-07
	5.273687e-05	-7.952005e-06	0.00424432	0.005752117	0.0001495426	0.0006633158	0.002531489	0.008749457
	0.002598221	0.008713532	0.0001495426	0.0006633158	0.004511486	0.005801804	5.300613e-05	-7.220945e-06
	1.260102e-05	-4.264758e-07	0.002531489	0.008749457	5.300613e-05	-7.220945e-06	0.004329384	0.005890589
3.4e+08	0.006964787	0.007220808	5.303985e-05	-1.246265e-05	0.003896494	0.01000284	1.232624e-05	-1.870082e-06
	5.303985e-05	-1.246265e-05	0.006612537	0.007430475	0.0002124703	0.0006661004	0.003734122	0.01007393
	0.003896494	0.01000284	0.0002124703	0.0006661004	0.007113576	0.007388234	5.326159e-05	-1.166242e-05
	1.232624e-05	-1.870082e-06	0.003734122	0.01007393	5.326159e-05	-1.166242e-05	0.00670599	0.007564944
3.5e+08	0.0097436	0.008269361	5.315081e-05	-1.754157e-05	0.005418729	0.01100268	1.188788e-05	-3.257425e-06
	5.315081e-05	-1.754157e-05	0.009199632	0.008587727	0.0002776553	0.000660779	0.005164216	0.0111293
	0.005418729	0.01100268	0.0002776553	0.000660779	0.009924155	0.008404403	5.335579e-05	-1.66289e-05
	1.188788e-05	-3.257425e-06	0.005164216	0.0111293	5.335579e-05	-1.66289e-05	0.009299908	0.00871652
3.6e+08	0.01262289	0.0087297	5.281178e-05	-2.322506e-05	0.007100866	0.01167265	1.129297e-05	-4.568583e-06
	5.281178e-05	-2.322506e-05	0.01190141	0.009197564	0.0003435982	0.0006470072	0.006761939	0.01187451
	0.007100866	0.01167265	0.0003435982	0.0006470072	0.01282881	0.008825951	5.304667e-05	-2.216701e-05
	1.129297e-05	-4.568583e-06	0.006761939	0.01187451	5.304667e-05	-2.216701e-05	0.0120066	0.009319374
3.7e+08	0.01548761	0.008598616	5.175507e-05	-2.945746e-05	0.008871872	0.01198631	1.055194e-05	-5.783929e-06
	5.175507e-05	-2.945746e-05	0.01461131	0.009253971	0.0004087966	0.0006247868	0.008460348	0.01228157
	0.008871872	0.01198631	0.0004087966	0.0006247868	0.01571119	0.008650946	5.207908e-05	-2.823644e-05
	1.055194e-05	-5.783929e-06	0.008460348	0.01228157	5.207908e-05	-2.823644e-05	0.01471924	0.009367927
3.8e+08	0.01822481	0.007894924	4.97327e-05	-3.60919e-05	0.01065673	0.01193228	9.678698e-06	-6.885019e-06
	4.97327e-05	-3.60919e-05	0.01722431	0.008771188	0.0004718335	0.0005944455	0.01018819	0.01233674
	0.01065673	0.01193228	0.0004718335	0.0005944455	0.01845731	0.007899751	5.02126e-05	-3.470948e-05
	9.678698e-06	-6.885019e-06	0.01018819	0.01233674	5.02126e-05	-3.470948e-05	0.01733263	0.008876904
3.9e+08	0.02072786	0.006658565	4.654408e-05	-4.289969e-05	0.0123796	0.01151474	8.690426e-06	-7.855494e-06
	4.654408e-05	-4.289969e-05	0.01964069	0.00778294	0.000531454	0.0005565928	0.01187289	0.01204106
	0.0123796	0.01151474	0.000531454	0.0005565928	0.02095976	0.006614065	4.724827e-05	-4.137888e-05
	8.690426e-06	-7.855494e-06	0.01187289	0.01204106	4.724827e-05	-4.137888e-05	0.019747	0.007880547
4e+08	0.02290023	0.004948929	4.205996e-05	-4.958759e-05	0.01396694	0.01075331	7.607121e-06	-8.681892e-06
	4.205996e-05	-4.958759e-05	0.0217696	0.006340977	0.0005866248	0.0005120602	0.01344353	0.01141031
	0.01396694	0.01075331	0.0005866248	0.0005120602	0.02312169	0.004855193	4.305185e-05	-4.797326e-05
	7.607121e-06	-8.681892e-06	0.01344353	0.01141031	4.305185e-05	-4.797326e-05	0.02187156	0.006431123
4.1e+08	0.0246591	0.002842494	3.623997e-05	-5.582166e-05	0.01535066	0.00968224	6.450925e-06	-9.354289e-06
	3.623997e-05	-5.582166e-05	0.02353226	0.004512967	0.0006365753	0.0004618254	0.01483383	0.01047437
	0.01535066	0.00968224	0.0006365753	0.0004618254	0.02486025	0.002701599	3.757142e-05	-5.417893e-05
	6.450925e-06	-9.354289e-06	0.01483383	0.01047437	3.757142e-05	-5.417893e-05	0.02362768	0.004596805
4.2e+08	0.02593824	0.0004298313	2.914244e-05	-6.125526e-05	0.01647091	0.008349028	5.245301e-06	-9.866724e-06
	2.914244e-05	-6.125526e-05	0.02486467	0.002379851	0.000680814	0.0004069309	0.01598488	0.009276049
	0.01647091	0.008349028	0.000680814	0.0004069309	0.02610964	0.0002458309	3.084776e-05	-5.9666e-05
	5.245301e-06	-9.866724e-06	0.01598488	0.009276049	3.084776e-05	-5.9666e-05	0.02495163	0.002458995
4.3e+08	0.02669035	-0.002187875	2.092561e-05	-6.555896e-05	0.01727866	0.006812517	4.014139e-06	-1.02174e-05
	2.092561e-05	-6.555896e-05	0.0257198	3.274034e-05	0.0007191206	0.0003484055	0.01684761	0.007869266
	0.01727866	0.006812517	0.0007191206	0.0003484055	0.02682338	-0.002409021	2.301675e-05	-6.411649e-05
	4.014139e-06	-1.02174e-05	0.01684761	0.007869266	2.301675e-05	-6.411649e-05	0.02579674	0.0001092097
4.4e+08	0.02688871	-0.004902671	1.183981e-05	-6.844959e-05	0.01773777	0.005140488	2.78087e-06	-1.040862e-05
	1.183981e-05	-6.844959e-05	0.0260691	-0.00243052	0.000751517	0.0002871907	0.01738484	0.006316915
	0.01773777	0.005140488	0.000751517	0.0002871907	0.02697597	-0.00515328	1.430318e-05	-6.725213e-05
	2.78087e-06	-1.040862e-05	0.01738484	0.006316915	1.430318e-05	-6.725213e-05	0.02613491	-0.002354392
4.5e+08	0.02652804	-0.007603925	2.21144e-06	-6.971611e-05	0.01782658	0.00340689	1.567645e-06	-1.04466e-05
	2.21144e-06	-6.971611e-05	0.02590339	-0.004909017	0.0007782195	0.0002240815	0.01757287	0.004688272
	0.01782658	0.00340689	0.0007782195	0.0002240815	0.02656365	-0.007874831	5.006729e-06	-6.885935e-05
	1.567645e-06	-1.04466e-05	0.01757287	0.004688272	5.006729e-06	-6.885935e-05	0.02595748	-0.004830672
4.6e+08	0.02562452	-0.01018249	-7.580273e-06	-6.923959e-05	0.0175389	0.001688799	3.9455e-07	-1.034093e-05
	-7.580273e-06	-6.923959e-05	0.02523302	-0.007302503	0.0007995758	0.0001596806	0.01740252	0.003056161
	0.0175389	0.001688799	0.0007995758	0.0001596806	0.02560449	-0.01046336	-4.519009e-06	-6.880923e-05
	3.9455e-07	-1.034093e-05	0.01740252	0.003056161	-4.519009e-06	-6.880923e-05	0.02527532	-0.007219272
4.7e+08	0.02421511	-0.01253481	-1.713137e-05	-6.700572e-05	0.01688439	6.321757e-05	-7.21349e-07	-1.010349e-05
	-1.713137e-05	-6.700572e-05	0.02408726	-0.009515103	0.0008159935	9.438414e-05	0.01687962	0.001493952
	0.01688439	6.321757e-05	0.0008159935	9.438414e-05	0.02413753	-0.01281453	-1.389264e-05	-6.707009e-05
	-7.21349e-07	-1.010349e-05	0.01687962	0.001493952	-1.389264e-05	-6.707009e-05	0.02411824	-0.009424322
4.8e+08	0.02235608	-0.01456679	-2.604375e-05	-6.310948e-05	0.0158883	-0.001396141	-1.764968e-06	-9.749884e-06
