!$
! Info: Touchstone file created by Circ.  Input file=Tx_16in_Rx_100ohms_TxVia_60mils_RxVia_70mils.circ
!$
# Hz S RI R 50
0	0.0165027	1.953265e-25	-3.978823e-11	9.39243e-27	0.0001047504	3.184025e-23	-3.149458e-09	3.904736e-25
	-3.978898e-11	9.392537e-27	0.01649821	2.420484e-25	3.101954e-11	2.810257e-27	0.0001044699	4.030028e-23
	0.000105833	3.205295e-23	3.101541e-11	2.810758e-27	0.01651793	1.953881e-25	-1.995887e-11	8.481854e-27
	-3.149333e-09	3.904583e-25	0.0001047391	4.04731e-23	-2.00515e-11	8.49315e-27	0.01651242	2.410115e-25
1e+07	0.02406418	0.008826121	4.984548e-11	1.480047e-10	0.0006391905	0.002841089	-2.954155e-09	8.248416e-09
	4.984548e-11	1.480047e-10	0.02477953	0.008831406	5.72077e-11	1.652644e-10	0.001191073	0.002864864
	0.0006392222	0.002841094	5.72077e-11	1.652644e-10	0.02324914	0.009355206	-2.841974e-09	1.038011e-08
	-2.954155e-09	8.248417e-09	0.001191076	0.002864862	-2.841974e-09	1.038011e-08	0.02455679	0.008879072
2e+07	0.03212851	0.0108325	1.47941e-11	2.879844e-10	0.001990611	0.005408644	-1.886583e-10	4.368113e-12
	1.47941e-11	2.879844e-10	0.03267755	0.01059708	3.598904e-11	3.039928e-10	0.002371989	0.005691945
	0.001990626	0.005408625	3.598904e-11	3.039928e-10	0.03210755	0.01186378	1.17114e-10	5.904361e-10
	-1.886583e-10	4.368111e-12	0.002371986	0.005691944	1.17114e-10	5.904361e-10	0.0325466	0.01075366
3e+07	0.03867597	0.008977662	-6.058794e-11	4.542774e-10	0.004032633	0.007337398	-7.655059e-11	5.124011e-10
	-6.058794e-11	4.542774e-10	0.03906435	0.008679713	-2.924039e-11	4.600126e-10	0.004293624	0.007712739
	0.004032634	0.007337395	-2.924039e-11	4.600126e-10	0.03924271	0.009954176	-4.769131e-11	5.241711e-10
	-7.655059e-11	5.124011e-10	0.004293623	0.00771274	-4.769131e-11	5.241711e-10	0.03901148	0.008866785
4e+07	0.04373779	0.004923452	-1.546865e-10	6.605165e-10	0.00653179	0.008487378	-1.529923e-10	7.62398e-10
	-1.546865e-10	6.605165e-10	0.04397155	0.004634663	-1.232884e-10	6.489194e-10	0.006737093	0.008907332
	0.006531794	0.008487383	-1.232884e-10	6.489194e-10	0.04472192	0.005641188	-1.782996e-10	7.428434e-10
	-1.529923e-10	7.62398e-10	0.006737093	0.008907333	-1.782996e-10	7.428434e-10	0.04398538	0.004822001
5e+07	0.04709181	-0.0006171784	-2.480168e-10	9.21311e-10	0.009213671	0.00876902	-2.588177e-10	1.053625e-09
	-2.480168e-10	9.21311e-10	0.04718582	-0.0008436946	-2.272499e-10	8.876966e-10	0.009544467	0.009041704
	0.009213675	0.008769021	-2.272499e-10	8.876966e-10	0.04832425	-0.0002622317	-2.928078e-10	1.044299e-09
	-2.588177e-10	1.053625e-09	0.009544468	0.009041705	-2.928078e-10	1.044299e-09	0.04725236	-0.0006751439
6e+07	0.04855591	-0.007029009	-3.135896e-10	1.237566e-09	0.01179193	0.00818026	-3.360746e-10	1.410984e-09
	-3.135896e-10	1.237566e-09	0.04854048	-0.007149936	-3.176207e-10	1.180531e-09	0.01216982	0.008298507
	0.01179193	0.008180259	-3.176207e-10	1.180531e-09	0.04987366	-0.007073162	-3.749029e-10	1.411189e-09
	-3.360745e-10	1.410984e-09	0.01216982	0.008298507	-3.749029e-10	1.411189e-09	0.04864413	-0.007011958
7e+07	0.0480569	-0.01371507	-3.257969e-10	1.597252e-09	0.01400662	0.006785785	-3.475138e-10	1.819102e-09
	-3.257969e-10	1.597252e-09	0.04797315	-0.01370146	-3.727991e-10	1.52033e-09	0.01435716	0.00678799
	0.01400661	0.006785785	-3.727991e-10	1.52033e-09	0.04931218	-0.0141412	-3.986465e-10	1.831005e-09
	-3.475138e-10	1.819102e-09	0.01435716	0.00678799	-3.986465e-10	1.831005e-09	0.04809769	-0.01359979
8e+07	0.04565799	-0.02010064	-2.640995e-10	1.977417e-09	0.01561273	0.004774512	-2.698414e-10	2.246731e-09
	-2.640995e-10	1.977417e-09	0.04555233	-0.01993997	-3.724004e-10	1.89211e-09	0.01589567	0.004692029
	0.01561272	0.004774515	-3.724004e-10	1.89211e-09	0.04672673	-0.02084959	-3.397117e-10	2.280751e-09
	-2.698414e-10	2.246731e-09	0.01589567	0.004692029	-3.397117e-10	2.280751e-09	0.04568206	-0.01987484
9e+07	0.04156282	-0.02566148	-1.16395e-10	2.346534e-09	0.01645032	0.00237844	-9.37609e-11	2.654412e-09
	-1.16395e-10	2.346534e-09	0.04148228	-0.02535805	-3.014711e-10	2.273597e-09	0.0166402	0.002247612
	0.01645031	0.002378444	-3.014711e-10	2.273597e-09	0.04234906	-0.02664326	-1.794614e-10	2.726701e-09
	-9.37609e-11	2.654412e-09	0.0166402	0.002247613	-1.794614e-10	2.726701e-09	0.04160323	-0.02532491
1e+08	0.03611811	-0.02995913	1.208879e-10	2.666545e-09	0.01644729	-0.0001353475	1.792269e-10	2.998597e-09
	1.208879e-10	2.666545e-09	0.03610722	-0.02953318	-1.528198e-10	2.641526e-09	0.0165185	-0.0002755389
	0.01644729	-0.0001353475	-1.528198e-10	2.641526e-09	0.03653272	-0.03106136	9.390106e-11	3.125457e-09
	1.792269e-10	2.998597e-09	0.0165185	-0.000275539	9.390106e-11	3.125457e-09	0.03620646	-0.02952351
1.1e+08	0.02969496	-0.03273855	4.052509e-10	2.876146e-09	0.01559773	-0.002510685	4.979631e-10	3.227307e-09
	4.052509e-10	2.876146e-09	0.02978327	-0.03223584	7.940967e-11	2.935737e-09	0.01558331	-0.002564689
	0.01559773	-0.002510686	7.940967e-11	2.935737e-09	0.02978412	-0.03372506	4.335852e-10	3.380563e-09
	4.979631e-10	3.227307e-09	0.0155833	-0.002564689	4.335852e-10	3.380563e-09	0.0298587	-0.03223054
1.2e+08	0.02276974	-0.03369531	6.852529e-10	2.995945e-09	0.01399487	-0.004454671	7.980606e-10	3.368435e-09
	6.852529e-10	2.995945e-09	0.02296551	-0.03315616	3.252329e-10	3.133377e-09	0.01395999	-0.004425637
	0.01399487	-0.004454672	3.252329e-10	3.133377e-09	0.02265466	-0.03452308	7.640908e-10	3.525399e-09
	7.980606e-10	3.368435e-09	0.01395999	-0.004425636	7.640908e-10	3.525399e-09	0.02302181	-0.03314865
1.3e+08	0.01591485	-0.03278613	9.274246e-10	3.051943e-09	0.01182926	-0.005754456	1.068768e-09	3.432167e-09
	9.274246e-10	3.051943e-09	0.01621481	-0.03225313	5.53975e-10	3.253596e-09	0.01180947	-0.005660335
	0.01182926	-0.005754456	5.53975e-10	3.253596e-09	0.01567427	-0.03343748	1.046845e-09	3.594598e-09
	1.068768e-09	3.432167e-09	0.01180947	-0.005660334	1.046845e-09	3.594598e-09	0.01625537	-0.03223799
1.4e+08	0.009663913	-0.03012943	1.133233e-09	3.032513e-09	0.009342221	-0.006268493	1.298759e-09	3.411481e-09
	1.133233e-09	3.032513e-09	0.01005005	-0.0296428	7.600977e-10	3.30719e-09	0.009357091	-0.00613483
	0.009342221	-0.006268493	7.600977e-10	3.30719e-09	0.009363259	-0.03060464	1.288622e-09	3.576334e-09
	1.298759e-09	3.411481e-09	0.00935709	-0.006134829	1.288622e-09	3.576334e-09	0.01007898	-0.02961589
1.5e+08	0.004484587	-0.02599016	1.276494e-09	2.950026e-09	0.006805331	-0.005940154	1.458588e-09	3.320234e-09
	1.276494e-09	2.950026e-09	0.004925	-0.02558252	9.206346e-10	3.301823e-09	0.006860166	-0.005794721
	0.006805331	-0.005940155	9.206346e-10	3.301823e-09	0.00417806	-0.02630347	1.458862e-09	3.48434e-09
	1.458588e-09	3.320234e-09	0.006860165	-0.00579472	1.458862e-09	3.48434e-09	0.004947081	-0.02554121
1.6e+08	0.0007415898	-0.02075392	1.335639e-09	2.825628e-09	0.004492164	-0.004802767	1.523968e-09	3.182289e-09
	1.335639e-09	2.825628e-09	0.001193438	-0.02044553	1.01571e-09	3.253057e-09	0.004579711	-0.004670817
	0.004492164	-0.004802767	1.01571e-09	3.253057e-09	0.0004719455	-0.02093	1.532182e-09	3.342701e-09
	1.523968e-09	3.182289e-09	0.00457971	-0.004670817	1.532182e-09	3.342701e-09	0.00121373	-0.02038885
1.7e+08	-0.001332395	-0.01489109	1.296465e-09	2.687635e-09	0.002649574	-0.002975129	1.479003e-09	3.029675e-09
	1.296465e-09	2.687635e-09	-0.0009182905	-0.01468632	1.030961e-09	3.183101e-09	0.002752624	-0.002875466
	0.002649574	-0.002975129	1.030961e-09	3.183101e-09	-0.001534325	-0.0149616	1.491646e-09	3.184045e-09
	1.479003e-09	3.029675e-09	0.002752624	-0.002875466	1.491646e-09	3.184045e-09	-0.0008949287	-0.01461498
1.8e+08	-0.001654339	-0.008913973	1.154437e-09	2.568997e-09	0.001471994	-0.0006479906	1.318866e-09	2.899629e-09
	1.154437e-09	2.568997e-09	-0.001327773	-0.008799508	9.59642e-10	3.118875e-09	0.001566864	-0.0005901549
	0.001471994	-0.0006479907	9.59642e-10	3.118875e-09	-0.001769717	-0.008914286	1.331534e-09	3.04658e-09
	1.318866e-09	2.899629e-09	0.001566864	-0.0005901546	1.331534e-09	3.04658e-09	-0.001297172	-0.008715717
1.9e+08	-0.0002950979	-0.003330776	9.161509e-10	2.503972e-09	0.001081588	0.001936916	1.051451e-09	2.830709e-09
	9.161509e-10	2.503972e-09	-0.0001003057	-0.003275868	8.041428e-10	3.089409e-09	0.001142171	0.00195411
	0.001081588	0.001936916	8.041428e-10	3.089409e-09	-0.000316618	-0.003296855	1.059131e-09	2.970205e-09
	1.051451e-09	2.830709e-09	0.001142171	0.00195411	1.059131e-09	2.970205e-09	-5.941137e-05	-0.003183035
2e+08	0.002530117	0.001399308	5.996693e-10	2.524352e-09	0.001516325	0.004512918	6.975785e-10	2.858396e-09
	5.996693e-10	2.524352e-09	0.002560351	0.001440467	5.76627e-10	3.122716e-09	0.001518265	0.004501377
	0.001516325	0.004512918	5.76627e-10	3.122716e-09	0.002599276	0.001433713	6.951404e-10	2.992018e-09
	6.975785e-10	2.858396e-09	0.001518265	0.004501377	6.951404e-10	2.992018e-09	0.002613179	0.001538179
2.1e+08	0.006484053	0.004905857	2.335351e-10	2.655588e-09	0.002727056	0.006816616	2.897666e-10	3.010713e-09
	2.335351e-10	2.655588e-09	0.006333292	0.004989803	2.986102e-10	3.242446e-09	0.002651599	0.006797553
	0.002727056	0.006816616	2.986102e-10	3.242446e-09	0.006631797	0.004911586	2.72534e-10	3.141738e-09
	2.897666e-10	3.010713e-09	0.002651599	0.006797553	2.72534e-10	3.141738e-09	0.006398136	0.005087992
2.2e+08	0.01114028	0.006938221	-1.455549e-10	2.91328e-09	0.004583704	0.008615265	-1.306024e-10	3.30436e-09
	-1.455549e-10	2.91328e-09	0.01081169	0.007126362	-6.399556e-13	3.46469e-09	0.00442077	0.008616576
	0.004583704	0.008615265	-6.399556e-13	3.46469e-09	0.01134759	0.006892541	-1.662141e-10	3.437613e-09
	-1.306024e-10	3.30436e-09	0.00442077	0.008616576	-1.662141e-10	3.437613e-09	0.01088711	0.007220911
2.3e+08	0.01602339	0.007385114	-4.962443e-10	3.300578e-09	0.006889657	0.009730525	-5.173507e-10	3.741976e-09
	-4.962443e-10	3.300578e-09	0.01554094	0.007736948	-2.868611e-10	3.795398e-09	0.006639817	0.009783275
	0.006889657	0.009730525	-2.868611e-10	3.795398e-09	0.01626661	0.007272957	-5.73264e-10	3.883411e-09
	-5.173507e-10	3.741976e-09	0.006639817	0.009783275	-5.73264e-10	3.883411e-09	0.01562414	0.007824511
2.4e+08	0.02065274	0.006281246	-7.768589e-10	3.806854e-09	0.009402705	0.01005627	-8.243881e-10	4.310901e-09
	-7.768589e-10	3.806854e-09	0.02006003	0.006847384	-5.244312e-10	4.228847e-09	0.009077822	0.01019073
	0.009402705	0.01005627	-5.244312e-10	4.228847e-09	0.02090598	0.0060958	-9.004811e-10	4.466963e-09
	-8.243881e-10	4.310901e-09	0.009077822	0.01019073	-9.004811e-10	4.466963e-09	0.02014724	0.006925783
2.5e+08	0.02458571	0.003800748	-9.500822e-10	4.407956e-09	0.01186028	0.009568857	-1.010826e-09	4.983676e-09
	-9.500822e-10	4.407956e-09	0.02394256	0.004616537	-6.80454e-10	4.747479e-09	0.01148276	0.009810519
	0.01186028	0.009568857	-6.80454e-10	4.747479e-09	0.02482329	0.003543406	-1.104833e-09	5.160531e-09
	-1.010826e-09	4.983676e-09	0.01148276	0.009810519	-1.104833e-09	5.160531e-09	0.02402946	0.004685014
2.6e+08	0.02745665	0.0002382213	-9.873733e-10	5.068063e-09	0.01400642	0.008328998	-1.045704e-09	5.720247e-09
	-9.873733e-10	5.068063e-09	0.0268336	0.001318697	-7.287497e-10	5.323213e-09	0.01360717	0.008695067
	0.01400642	0.008328998	-7.287497e-10	5.323213e-09	0.02765529	-8.207452e-05	-1.153427e-09	5.923024e-09
	-1.045704e-09	5.720247e-09	0.01360717	0.008695067	-1.153427e-09	5.923024e-09	0.02691585	0.001378018
2.7e+08	0.02900815	-0.004020559	-8.725612e-10	5.742986e-09	0.0156179	0.00647518	-9.117538e-10	6.47164e-09
	-8.725612e-10	5.742986e-09	0.02847952	-0.002683773	-6.531942e-10	5.920122e-09	0.01523312	0.00697191
	0.0156179	0.00647518	-6.531942e-10	5.920122e-09	0.02914892	-0.004388525	-1.027562e-09	6.70382e-09
	-9.117538e-10	6.47164e-09	0.01523312	0.00697191	-1.027562e-09	6.70382e-09	0.02855322	-0.002631394
2.8e+08	0.02911206	-0.008535577	-6.041586e-10	6.384532e-09	0.01652692	0.004209368	-6.078045e-10	7.184689e-09
	-6.041586e-10	6.384532e-09	0.02874806	-0.00697497	-4.499468e-10	6.498132e-09	0.01619419	0.004830588
	0.01652692	0.004209368	-4.499468e-10	6.498132e-09	0.02918188	-0.008931226	-7.253052e-10	7.447748e-09
	-6.078045e-10	7.184689e-09	0.01619419	0.004830588	-7.253052e-10	7.447748e-09	0.02881027	-0.006926091
2.9e+08	0.02777853	-0.01285375	-1.961123e-10	6.945414e-09	0.01663825	0.001776366	-1.495394e-10	7.807309e-09
	-1.961123e-10	6.945414e-09	0.02763751	-0.01112403	-1.282791e-10	7.017268e-09	0.01639226	0.002503385
	0.01663825	0.001776366	-1.282791e-10	7.017268e-09	0.02777113	-0.01325435	-2.623032e-10	8.100649e-09
	-1.495394e-10	7.807309e-09	0.01639226	0.002503385	-2.623032e-10	8.100649e-09	0.02768655	-0.01107437
3e+08	0.02515253	-0.0165507	3.230799e-10	7.384149e-09	0.01593912	-0.0005611849	4.314252e-10	8.293757e-09
	3.230799e-10	7.384149e-09	0.02527392	-0.01472437	2.900671e-10	7.441907e-09	0.01580752	0.0002417769
	0.01593912	-0.0005611849	2.900671e-10	7.441907e-09	0.02506887	-0.01693287	3.292163e-10	8.6149e-09
	4.314252e-10	8.293757e-09	0.01580752	0.0002417769	3.292163e-10	8.6149e-09	0.02530965	-0.01466926
3.1e+08	0.02149818	-0.01926933	9.127554e-10	7.669422e-09	0.01450086	-0.002549748	1.09004e-09	8.609385e-09
	9.127554e-10	7.669422e-09	0.02189714	-0.01743012	7.728508e-10	7.744534e-09	0.01450068	-0.001709169
	0.01450086	-0.002549748	7.728508e-10	7.744534e-09	0.02134621	-0.01961119	1.003113e-09	8.954346e-09
	1.09004e-09	8.609385e-09	0.01450068	-0.001709169	1.003113e-09	8.954346e-09	0.02192097	-0.01736504
3.2e+08	0.01717232	-0.02075202	1.523702e-09	7.783475e-09	0.01247193	-0.003971122	1.771662e-09	8.734434e-09
	1.523702e-09	7.783475e-09	0.01783665	-0.01898667	1.280348e-09	7.908636e-09	0.01260704	-0.003135913
	0.01247193	-0.003971122	1.280348e-09	7.908636e-09	0.01696618	-0.02103513	1.703372e-09	9.098167e-09
	1.771662e-09	8.734434e-09	0.01260704	-0.003135913	1.703372e-09	9.098167e-09	0.01785146	-0.01890774
3.3e+08	0.0125898	-0.02086318	2.102616e-09	7.724253e-09	0.01006289	-0.004665268	2.416898e-09	8.666553e-09
	2.102616e-09	7.724253e-09	0.01347966	-0.0192525	1.769029e-09	7.93049e-09	0.01032286	-0.003878548
	0.01006289	-0.004665268	1.769029e-09	7.93049e-09	0.01234853	-0.02107421	2.36911e-09	9.043371e-09
	2.416898e-09	8.666553e-09	0.01032286	-0.003878548	2.36911e-09	9.043371e-09	0.01348948	-0.01915697
3.4e+08	0.008183633	-0.01960041	2.596999e-09	7.506127e-09	0.007524893	-0.004547307	2.967053e-09	8.42181e-09
	2.596999e-09	7.506127e-09	0.009234134	-0.01821043	2.195534e-09	7.819788e-09	0.007885319	-0.00384755
	0.007524893	-0.004547307	2.195534e-09	7.819788e-09	0.007929419	-0.01973231	2.940117e-09	8.805736e-09
	2.967053e-09	8.42181e-09	0.007885319	-0.00384755	2.940117e-09	8.805736e-09	0.009243761	-0.01809699
3.5e+08	0.0043637	-0.01709294	2.960081e-09	7.159179e-09	0.005123577	-0.003616786	3.369752e-09	8.034043e-09
	2.960081e-09	7.159179e-09	0.005490355	-0.01596723	2.520605e-09	7.599135e-09	0.005548104	-0.003033333
	0.005123577	-0.003616786	2.520605e-09	7.599135e-09	0.004119863	-0.01714561	3.362496e-09	8.4191e-09
	3.369752e-09	8.034043e-09	0.005548104	-0.003033333	3.362496e-09	8.4191e-09	0.005504816	-0.01583622
3.6e+08	0.001477978	-0.01358768	3.155399e-09	6.727081e-09	0.00311135	-0.001958113	3.58428e-09	7.552546e-09
	3.155399e-09	6.727081e-09	0.002584487	-0.0127416	2.712757e-09	7.302511e-09	0.003555036	-0.001507492
	0.00311135	-0.001958113	2.712757e-09	7.302511e-09	0.001266864	-0.01356799	3.593974e-09	7.933046e-09
	3.58428e-09	7.552546e-09	0.003555036	-0.001507492	3.593974e-09	7.933046e-09	0.002608497	-0.01259499
3.7e+08	-0.0002199888	-0.009424047	3.160667e-09	6.26373e-09	0.001700861	0.0002679954	3.586103e-09	7.038163e-09
	3.160667e-09	6.26373e-09	0.0007676799	-0.008841682	2.751451e-09	6.972785e-09	0.002114681	0.0005844921
	0.001700861	0.0002679954	2.751451e-09	6.972785e-09	-0.0003790426	-0.009345251	3.608444e-09	7.409071e-09
	3.586103e-09	7.038163e-09	0.002114681	0.0005844921	3.608444e-09	7.409071e-09	0.0008051047	-0.008682929
3.8e+08	-0.0005942284	-0.005000126	2.970644e-09	5.828755e-09	0.001042613	0.002841185	3.370192e-09	6.558038e-09
	2.970644e-09	5.828755e-09	0.0001836367	-0.004634459	2.629606e-09	6.658373e-09	0.001378603	0.003038336
	0.001042613	0.002841185	2.629606e-09	6.658373e-09	-0.0006866748	-0.004880677	3.399343e-09	6.915424e-09
	3.370192e-09	6.558038e-09	0.001378603	0.003038336	3.399343e-09	6.915424e-09	0.0002370415	-0.004468144
3.9e+08	0.0003621665	-0.0007335686	2.598639e-09	5.4822e-09	0.001209157	0.00550445	2.952621e-09	6.179353e-09
	2.598639e-09	5.4822e-09	0.0008567469	-0.0005098394	2.355193e-09	6.409138e-09	0.001425636	0.005612219
	0.001209157	0.00550445	2.355193e-09	6.409138e-09	0.0003447247	-0.000595472	2.981426e-09	6.52096e-09
	2.952621e-09	6.179353e-09	0.001425636	0.005612219	2.981426e-09	6.52096e-09	0.0009270817	-0.0003411972
4e+08	0.002528169	0.002978943	2.076367e-09	5.278749e-09	0.002187528	0.007990942	2.370148e-09	5.962657e-09
	2.076367e-09	5.278749e-09	0.002691821	0.003156804	1.951615e-09	6.271726e-09	0.002253828	0.008051908
	0.002187528	0.007990942	1.951615e-09	6.271726e-09	0.002587172	0.003112122	2.390618e-09	6.288437e-09
	2.370148e-09	5.962657e-09	0.002253828	0.008051908	2.390618e-09	6.288437e-09	0.002778276	0.003322451
4.1e+08	0.005668332	0.005799592	1.451988e-09	5.262e-09	0.003880671	0.01005169	1.677635e-09	5.955422e-09
	1.451988e-09	5.262e-09	0.005485261	0.006040084	1.456626e-09	6.284686e-09	0.003780845	0.01011704
	0.003880671	0.01005169	1.456626e-09	6.284686e-09	0.00579808	0.005904893	1.681706e-09	6.267925e-09
	1.677635e-09	5.955422e-09	0.003780845	0.01011704	1.681706e-09	6.267925e-09	0.005585313	0.006197901
4.2e+08	0.009457117	0.007481062	7.862842e-10	5.459417e-09	0.006117596	0.01148128	9.434182e-10	6.186586e-09
	7.862842e-10	5.459417e-09	0.008946355	0.007894589	9.196004e-10	6.473888e-09	0.005852682	0.01160576
	0.006117596	0.01148128	9.196004e-10	6.473888e-09	0.009645253	0.007538245	9.239093e-10	6.491021e-09
	9.434182e-10	6.186586e-09	0.005852682	0.01160576	9.239093e-10	6.491021e-09	0.009056001	0.008040772
4.3e+08	0.0135115	0.007888935	1.472117e-10	5.878598e-09	0.008671068	0.01213893	2.429893e-10	6.662756e-09
	1.472117e-10	5.878598e-09	0.01272642	0.008576692	3.972202e-10	6.84886e-09	0.008259639	0.01237526
	0.008671068	0.01213893	3.972202e-10	6.84886e-09	0.0137401	0.007882376	1.945851e-10	6.966643e-09
	2.429893e-10	6.662756e-09	0.008259639	0.01237526	1.945851e-10	6.966643e-09	0.01284058	0.008708907
4.4e+08	0.0174285	0.007012899	-3.967017e-10	6.505444e-09	0.01128091	0.01196277	-3.483638e-10	7.366617e-09
	-3.967017e-10	6.505444e-09	0.01645283	0.008056295	-5.20854e-11	7.400664e-09	0.01075782	0.0123561
	0.01128091	0.01196277	-5.20854e-11	7.400664e-09	0.01767569	0.006933085	-4.28307e-10	7.679023e-09
	-3.483638e-10	7.366617e-09	0.01075782	0.0123561	-4.28307e-10	7.679023e-09	0.01656586	0.008173962
4.5e+08	0.02082398	0.004965981	-7.83398e-10	7.304601e-09	0.0136805	0.01097611	-7.631792e-10	8.257798e-09
	-7.83398e-10	7.304601e-09	0.01976458	0.006417661	-3.743363e-10	8.101774e-09	0.0130939	0.01155909
	0.0136805	0.01097611	-3.743363e-10	8.101774e-09	0.02106595	0.004810446	-8.741901e-10	8.58829e-09
	-7.631792e-10	8.257798e-09	0.0130939	0.01155909	-8.741901e-10	8.58829e-09	0.0198709	0.006522064
4.6e+08	0.02336902	0.001972086	-9.639421e-10	8.222252e-09	0.01562377	0.009285129	-9.488468e-10	9.2762e-09
	-9.639421e-10	8.222252e-09	0.02234612	0.003849542	-5.261562e-10	8.908245e-09	0.0150307	0.0100741
	0.01562377	0.009285129	-5.261562e-10	8.908245e-09	0.02358222	0.001745708	-1.087479e-09	9.633734e-09
	-9.488468e-10	9.2762e-09	0.0150307	0.0100741	-1.087479e-09	9.633734e-09	0.02244077	0.003943739
4.7e+08	0.02482063	-0.00165671	-9.079641e-10	9.19102e-09	0.01691016	0.007068308	-8.732365e-10	1.034742e-08
	-9.079641e-10	9.19102e-09	0.0239563	0.0006257634	-4.797941e-10	9.764062e-09	0.01637106	0.008061027
	0.01691016	0.007068308	-4.797941e-10	9.764062e-09	0.02498394	-0.001942099	-1.03374e-09	1.073963e-08
	-8.732365e-10	1.034742e-08	0.01637106	0.008061027	-1.03374e-09	1.073963e-08	0.02403546	0.0007142528
4.8e+08	0.02504386	-0.005550877	-6.072581e-10	1.01364e-08	0.01740501	0.004558683	-5.283968e-10	1.138969e-08
	-6.072581e-10	1.01364e-08	0.02444993	-0.002921787	-2.255926e-10	1.060541e-08	0.01697772	0.005733849
