!$
! Info: Touchstone file created by Circ.  Input file=Tx_12in_Rx_93ohms_TxVia_60mils_RxVia_70mils.circ
!$
# Hz S RI R 50
0	0.01103853	1.768887e-25	0.988821	-1.7116e-25	8.725834e-05	2.410154e-23	-8.260126e-05	2.268522e-21
	0.988821	-1.730804e-25	0.01103387	1.908788e-25	-8.30805e-05	2.327276e-21	8.402139e-05	2.690015e-23
	8.848296e-05	2.341645e-23	-8.239286e-05	2.243056e-21	0.0110491	1.754231e-25	0.9887995	-1.669079e-25
	-8.286962e-05	2.301378e-21	8.42909e-05	2.701551e-23	0.9887995	-1.749205e-25	0.01104823	1.900488e-25
1e+07	0.01605177	-0.001417872	0.9752992	-0.1261125	0.0004544247	0.00227015	-0.0001643473	-9.732009e-05
	0.9752992	-0.1261125	0.0160415	-0.001417456	-0.000164448	-9.725751e-05	0.0004503097	0.002271495
	0.0004544951	0.002270118	-0.0001644155	-9.727887e-05	0.01573748	-0.001415111	0.9755996	-0.1262319
	-0.0001643147	-9.734146e-05	0.0004503125	0.002271493	0.9755996	-0.1262319	0.01572628	-0.001414257
2e+07	0.01831303	-0.006988709	0.9481858	-0.2454392	0.001221517	0.004439377	-9.978849e-05	-0.0002583264
	0.9481858	-0.2454392	0.01827237	-0.006981624	-9.981391e-05	-0.0002582324	0.001205753	0.004445317
	0.001221503	0.004439339	-9.982319e-05	-0.000258251	0.01808428	-0.00687932	0.9483587	-0.2457777
	-9.9785e-05	-0.000258363	0.00120575	0.004445317	0.9483587	-0.2457777	0.01803992	-0.006870858
3e+07	0.01804564	-0.01379105	0.9078924	-0.3590082	0.002536691	0.006225542	-0.0001082818	-0.0003379362
	0.9078924	-0.3590082	0.01795751	-0.01376255	-0.0001083309	-0.0003378716	0.002503365	0.006241807
	0.002536687	0.006225542	-0.0001083325	-0.0003378711	0.01788038	-0.01366299	0.9079321	-0.3594676
	-0.0001082845	-0.0003379396	0.002503364	0.006241808	0.9079321	-0.3594676	0.01778444	-0.01363065
4e+07	0.01571506	-0.0205352	0.8547269	-0.4661123	0.004269785	0.007571431	-0.0001626722	-0.000394151
	0.8547269	-0.4661123	0.01556809	-0.02046519	-0.0001627589	-0.0003940361	0.00421526	0.00760571
	0.004269791	0.00757143	-0.0001627552	-0.0003940364	0.01559833	-0.02041376	0.8546228	-0.4666523
	-0.0001626633	-0.000394147	0.004215261	0.007605711	0.8546228	-0.4666523	0.0154385	-0.02033581
5e+07	0.01163948	-0.02661413	0.7894314	-0.5654693	0.006238328	0.00843356	-0.0002091496	-0.000467353
	0.7894314	-0.5654693	0.01142987	-0.02647845	-0.0002092271	-0.00046715	0.006161864	0.008494698
	0.006238331	0.008433558	-0.0002092252	-0.0004671512	0.01155702	-0.02651272	0.7891744	-0.566056
	-0.0002091434	-0.0004673534	0.006161865	0.008494698	0.7891744	-0.566056	0.01132915	-0.02636273
6e+07	0.006155143	-0.03160243	0.7129863	-0.6557914	0.008316602	0.008774907	-0.0002686599	-0.0005645292
	0.7129863	-0.6557914	0.005887886	-0.03137609	-0.0002686816	-0.0005642379	0.008220545	0.008871876
	0.008316601	0.008774908	-0.0002686819	-0.0005642371	0.006093132	-0.03152796	0.7125709	-0.6563923
	-0.0002686652	-0.0005645273	0.008220546	0.008871876	0.7125709	-0.6563923	0.00580287	-0.03127866
7e+07	-0.0003636145	-0.0351985	0.6265536	-0.7358844	0.01037306	0.008589455	-0.0003612608	-0.0006815819
	0.6265536	-0.7358844	-0.0006752124	-0.03485869	-0.0003611919	-0.0006812164	0.01026275	0.008730414
	0.01037306	0.008589461	-0.0003611927	-0.0006812132	-0.0004182808	-0.03515329	0.625979	-0.7364674
	-0.0003612739	-0.0006815706	0.01026276	0.008730414	0.625979	-0.7364674	-0.0007562759	-0.03477999
8e+07	-0.007511639	-0.03721138	0.5314431	-0.8046919	0.01227897	0.007903285	-0.0005030769	-0.0008054444
	0.5314431	-0.8046919	-0.007847118	-0.03673976	-0.0005028892	-0.000805023	0.01216244	0.008094692
	0.01227897	0.007903292	-0.0005028892	-0.0008050186	-0.00757103	-0.03719421	0.5307134	-0.8052254
	-0.0005030893	-0.0008054249	0.01216244	0.008094692	0.5307134	-0.8052254	-0.007934445	-0.03667709
9e+07	-0.01486767	-0.03755607	0.4290803	-0.8613214	0.01391654	0.006772943	-0.0007036686	-0.0009164403
	0.4290803	-0.8613214	-0.01520092	-0.03694064	-0.000703336	-0.0009159862	0.01380392	0.007018783
	0.01391654	0.006772948	-0.0007033353	-0.0009159829	-0.01494276	-0.03756299	0.4282055	-0.8617746
	-0.0007036742	-0.0009164228	0.01380392	0.007018783	0.4282055	-0.8617746	-0.0153032	-0.03688905
1e+08	-0.02199482	-0.03624292	0.3209526	-0.9050674	0.01518585	0.005281088	-0.0009636817	-0.0009906951
	0.3209526	-0.9050674	-0.02229592	-0.03547956	-0.00096318	-0.0009902394	0.01508864	0.005582277
	0.01518585	0.005281088	-0.00096318	-0.0009902395	-0.02209821	-0.03626896	0.3199531	-0.90541
	-0.0009636818	-0.0009906952	0.01508864	0.005582277	0.3199531	-0.90541	-0.02242313	-0.03543368
1.1e+08	-0.02852908	-0.03351505	0.2086788	-0.9352267	0.0160098	0.003536209	-0.001274318	-0.001008743
	0.2086788	-0.9352267	-0.02876593	-0.03260901	-0.001273649	-0.001008377	0.01593989	0.003890129
	0.0160098	0.003536209	-0.001273649	-0.001008377	-0.02866814	-0.03353553	0.2075762	-0.9354554
	-0.001274318	-0.001008743	0.01593988	0.003890129	0.2075762	-0.9354554	-0.02892232	-0.03254489
1.2e+08	-0.03423567	-0.0294629	0.09403405	-0.9516001	0.01634664	0.001657321	-0.001624362	-0.0009488867
	0.09403405	-0.9516001	-0.03437789	-0.02842837	-0.001623556	-0.0009486678	0.01631525	0.002057873
	0.01634664	0.001657321	-0.001623556	-0.0009486676	-0.03440084	-0.02946739	0.09283436	-0.9516966
	-0.001624362	-0.0009488866	0.01631525	0.002057874	0.09283436	-0.9516966	-0.03455123	-0.02833706
1.3e+08	-0.03880296	-0.02432646	-0.02136699	-0.9540846	0.01618121	-0.0002312357	-0.001990441	-0.0007947344
	-0.02136699	-0.9540846	-0.03882395	-0.02318669	-0.001989549	-0.0007947064	0.01619793	0.0002065383
	0.01618121	-0.0002312355	-0.001989548	-0.0007947063	-0.03898723	-0.02430839	-0.02264908	-0.954029
	-0.001990441	-0.0007947344	0.01619792	0.0002065393	-0.02264908	-0.954029	-0.03900489	-0.02306388
1.4e+08	-0.04201521	-0.01841491	-0.1358885	-0.9427516	0.01552956	-0.002005582	-0.002344723	-0.0005385444
	-0.1358885	-0.9427516	-0.04189469	-0.01720099	-0.00234381	-0.0005387301	0.01560143	-0.001542832
	0.01552956	-0.002005582	-0.00234381	-0.0005387301	-0.04221127	-0.01836983	-0.1372337	-0.942526
	-0.002344723	-0.0005385444	0.01560142	-0.001542831	-0.1372337	-0.942526	-0.04207428	-0.01704519
1.5e+08	-0.0437423	-0.0120758	-0.2479189	-0.9178566	0.01443733	-0.003550304	-0.00265755	-0.0001818621
	-0.2479189	-0.9178566	-0.04346857	-0.01082482	-0.002656687	-0.0001822586	0.014568	-0.003076918
	0.01443733	-0.003550303	-0.002656687	-0.0001822587	-0.04394253	-0.01200122	-0.2493045	-0.9174454
	-0.00265755	-0.0001818622	0.014568	-0.003076917	-0.2493045	-0.9174454	-0.0436383	-0.01063702
1.6e+08	-0.04394231	-0.005673199	-0.3558932	-0.8798345	0.01297651	-0.004765219	-0.002900615	0.0002644229
	-0.3558932	-0.8798345	-0.04351389	-0.004425864	-0.002899868	0.0002638455	0.0131657	-0.004296684
	0.01297651	-0.004765219	-0.002899868	0.0002638454	-0.04413898	-0.0055686	-0.3572934	-0.8792255
	-0.002900615	0.0002644227	0.0131657	-0.004296683	-0.3572934	-0.8792255	-0.04366612	-0.004209267
1.7e+08	-0.04266089	0.0004332953	-0.4583112	-0.8292927	0.01124083	-0.005571103	-0.003049972	0.0007810846
	-0.4583112	-0.8292927	-0.04208746	0.001635552	-0.003049393	0.0007803799	0.011484	-0.005122954
	0.01124083	-0.005571103	-0.003049393	0.0007803797	-0.04284654	0.0005665616	-0.459698	-0.8284773
	-0.003049972	0.0007810844	0.011484	-0.005122953	-0.459698	-0.8284773	-0.04221586	0.00187584
1.8e+08	-0.04002634	0.005908592	-0.5537556	-0.7670027	0.009340083	-0.005914136	-0.003088498	0.00134251
	-0.5537556	-0.7670027	-0.03932895	0.007026645	-0.003088113	0.001341748	0.009628439	-0.005500783
	0.009340084	-0.005914136	-0.003088113	0.001341748	-0.04019414	0.006067388	-0.555099	-0.7659762
	-0.003088498	0.00134251	0.009628439	-0.005500783	-0.555099	-0.7659762	-0.03942884	0.007284014
1.9e+08	-0.03624072	0.01046018	-0.6409079	-0.6938903	0.007393504	-0.005768882	-0.003007513	0.00191934
	-0.6409079	-0.6938903	-0.03545112	0.01146031	-0.003007319	0.001918596	0.007714308	-0.005402462
	0.007393504	-0.005768882	-0.003007319	0.001918596	-0.03638483	0.01063979	-0.6421768	-0.6926523
	-0.003007513	0.00191934	0.007714308	-0.005402462	-0.6421768	-0.6926523	-0.03551978	0.01172712
2e+08	-0.03156719	0.01385361	-0.7185645	-0.6110253	0.005522767	-0.005139685	-0.002807394	0.002481459
	-0.7185645	-0.6110253	-0.03072637	0.01471035	-0.002807358	0.002480805	0.00585997	-0.004829001
	0.005522767	-0.005139685	-0.002807358	0.002480805	-0.0316831	0.01404798	-0.7197272	-0.6095798
	-0.002807394	0.002481459	0.00585997	-0.004829001	-0.7197272	-0.6095798	-0.0307632	0.01497847
2.1e+08	-0.02631442	0.01592455	-0.7856518	-0.5196091	0.003844777	-0.004060402	-0.002497124	0.003000976
	-0.7856518	-0.5196091	-0.02547039	0.0166232	-0.002497186	0.003000462	0.004179913	-0.003810048
	0.003844777	-0.004060402	-0.002497186	0.003000462	-0.0263992	0.01612669	-0.7866766	-0.5179645
	-0.002497124	0.003000976	0.004179914	-0.003810048	-0.7866766	-0.5179645	-0.02547699	0.01688454
2.2e+08	-0.02081867	0.01658699	-0.8412411	-0.4209608	0.002464704	-0.002592453	-0.002092869	0.003454809
	-0.8412411	-0.4209608	-0.0200236	0.01712543	-0.002092949	0.003454459	0.002778012	-0.002402186
	0.002464704	-0.002592453	-0.002092949	0.003454459	-0.02087119	0.0167893	-0.8420966	-0.4191303
	-0.002092869	0.003454809	0.002778012	-0.002402186	-0.8420966	-0.4191303	-0.02000363	0.01737252
2.3e+08	-0.01542463	0.01583702	-0.8845619	-0.3165019	0.001469607	-0.0008212727	-0.001615774	0.003826583
	-0.8845619	-0.3165019	-0.01473149	0.0162268	-0.001615788	0.003826388	0.001741308	-0.0006856852
	0.001469607	-0.0008212728	-0.001615788	0.003826388	-0.01544565	0.01603175	-0.8852183	-0.3145033
	-0.001615774	0.003826584	0.001741308	-0.0006856852	-0.8852183	-0.3145033	-0.01469053	0.01645328
2.4e+08	-0.01046594	0.0137521	-0.9150152	-0.2077384	0.0009230316	0.001148708	-0.001089294	0.00410762
	-0.9150152	-0.2077384	-0.009924921	0.01401864	-0.001089164	0.004107533	0.001134678	0.001240179
	0.0009230316	0.001148708	-0.001089164	0.004107533	-0.01045808	0.01393183	-0.9154441	-0.205594
	-0.001089294	0.00410762	0.001134678	0.001240179	-0.9154441	-0.205594	-0.009870071	0.01421973
2.5e+08	-0.006246413	0.01048581	-0.9321838	-0.09624125	0.0008609253	0.003200315	-0.0005364014	0.004296896
	-0.9321838	-0.09624125	-0.005901307	0.01066763	-0.0005360709	0.004296839	0.0009967343	0.003263025
	0.0008609253	0.003200315	-0.0005360709	0.004296839	-0.006214087	0.01064385	-0.9323597	-0.0939775
	-0.0005364014	0.004296896	0.0009967343	0.003263025	-0.9323597	-0.0939775	-0.005840776	0.01084048
2.6e+08	-0.003023075	0.006258352	-0.9358418	0.01637616	0.001289165	0.005210776	2.295447e-05	0.004400038
	-0.9358418	0.01637616	-0.002907868	0.00640537	2.350799e-05	0.004399911	0.00133725	0.005264171
	0.001289165	0.005210776	2.3508e-05	0.004399911	-0.002972301	0.006389177	-0.9357419	0.01872844
	2.295448e-05	0.004400038	0.00133725	0.005264171	-0.9357419	0.01872844	-0.002850493	0.006549293
2.7e+08	-0.0009920759	0.001343305	-0.9259595	0.1284811	0.002182928	0.007059354	0.000573802	0.004427484
	-0.9259595	0.1284811	-0.001128023	0.001514278	0.0005745604	0.00442718	0.002136336	0.00712596
	0.002182928	0.007059354	0.0005745604	0.00442718	-0.0009300859	0.001442955	-0.9255651	0.1308874
	0.0005738021	0.004427484	0.002136336	0.00712596	-0.9255651	0.1308874	-0.001082615	0.001630875
2.8e+08	-0.0002779396	-0.003948477	-0.9027071	0.238447	0.003488004	0.008634989	0.001107265	0.004392109
	-0.9027071	0.238447	-0.00067133	-0.00368929	0.001108166	0.004391527	0.00334549	0.008739132
	0.003488004	0.008634989	0.001108166	0.004391527	-0.0002128163	-0.003882163	-0.9020037	0.2408694
	0.001107265	0.004392109	0.00334549	0.008739132	-0.9020037	0.2408694	-0.0006461217	-0.0035962
2.9e+08	-0.0009271321	-0.009287085	-0.8664532	0.3446787	0.005124033	0.009843417	0.001620702	0.004306641
	-0.8664532	0.3446787	-0.001567934	-0.008873793	0.001621647	0.004305706	0.004890501	0.01000977
	0.005124033	0.009843417	0.001621647	0.004305706	-0.0008673655	-0.009254284	-0.8654313	0.3470767
	0.001620702	0.004306641	0.004890501	0.01000977	-0.8654313	0.3470767	-0.00157004	-0.008798365
3e+08	-0.002906152	-0.01434269	-0.8177596	0.4456388	0.006989494	0.01061329	0.002116879	0.004181256
	-0.8177596	0.4456388	-0.003767676	-0.01371196	0.002117739	0.00417993	0.00667606	0.0108653
	0.006989494	0.01061329	0.002117739	0.00417993	-0.002860155	-0.01434154	-0.8164154	0.4479696
	0.002116879	0.004181256	0.00667606	0.0108653	-0.8164154	0.4479696	-0.0038026	-0.01364667
3.1e+08	-0.006104248	-0.01880451	-0.7573732	0.5398721	0.008968122	0.01090085	0.002602297	0.004021687
	-0.7573732	0.5398721	-0.007143889	-0.01789982	0.002602929	0.004019982	0.008591782	0.01125915
	0.008968122	0.01090085	0.002602929	0.004019982	-0.006079859	-0.01883114	-0.7557084	0.5420916
	0.002602297	0.004021687	0.008591782	0.01125915	-0.7557084	0.5420916	-0.007215135	-0.01783586
3.2e+08	-0.01034055	-0.02239843	-0.6862127	0.6260293	0.01093634	0.01069273	0.003084937	0.003828131
	-0.6862127	0.6260293	-0.01150162	-0.02117405	0.003085207	0.003826109	0.01051923	0.01117371
	0.01093634	0.01069273	0.003085207	0.003826109	-0.01034456	-0.02244716	-0.6842353	0.6280931
	0.003084937	0.003828131	0.01051923	0.01117371	-0.6842353	0.6280931	-0.01161041	-0.02110195
3.3e+08	-0.01537513	-0.02490237	-0.6053528	0.7028882	0.01277116	0.01000686	0.003571766	0.003595092
	-0.6053528	0.7028882	-0.0165897	-0.0233269	0.003571562	0.003592865	0.01233947	0.01062133
	0.01277116	0.01000686	0.003571562	0.003592865	-0.01541288	-0.02496599	-0.6030772	0.7047519
	0.003571766	0.003595092	0.01233947	0.01062133	-0.6030772	0.7047519	-0.01673487	-0.02323702
3.4e+08	-0.02092334	-0.02615842	-0.5160061	0.7693715	0.01435805	0.008891241	0.004066357	0.003312204
	-0.5160061	0.7693715	-0.02211592	-0.0242175	0.004065609	0.003309918	0.01394056	0.009643477
	0.01435805	0.008891241	0.004065609	0.003309917	-0.02099835	-0.02622856	-0.5134527	0.7709923
	0.004066357	0.003312204	0.01394056	0.009643477	-0.5134527	0.7709923	-0.02229391	-0.0241007
3.5e+08	-0.02667243	-0.02608122	-0.4195013	0.8245622	0.01559811	0.007420745	0.004566983	0.002965896
	-0.4195013	0.8245622	-0.02776435	-0.02377926	0.004565673	0.00296372	0.01522457	0.00830785
	0.01559811	0.007420745	0.004565673	0.00296372	-0.02678617	-0.0261488	-0.4166971	0.8258996
	0.004566983	0.002965896	0.01522457	0.00830785	-0.4166971	0.8258996	-0.0279694	-0.02362748
3.6e+08	-0.03229957	-0.02466203	-0.3172618	0.8677154	0.01641427	0.005692287	0.005065461	0.002541693
	-0.3172618	0.8677154	-0.03321369	-0.02202293	0.005063632	0.002539794	0.01611355	0.006704012
	0.01641427	0.005692287	0.005063632	0.002539794	-0.03245133	-0.02471778	-0.3142395	0.8687317
	0.005065461	0.002541693	0.01611355	0.006704012	-0.3142395	0.8687317	-0.03343815	-0.02182969
3.7e+08	-0.03749015	-0.02196855	-0.2107824	0.8982658	0.01675591	0.003818618	0.005546931	0.002026803
	-0.2107824	0.8982658	-0.03815574	-0.01903507	0.00554468	0.00202533	0.01655416	0.004937632
	0.01675591	0.003818618	0.00554468	0.00202533	-0.03767705	-0.02200353	-0.2075802	0.8989278
	0.005546931	0.002026803	0.01655416	0.004937632	-0.2075802	0.8989278	-0.03839053	-0.01879593
3.8e+08	-0.0419554	-0.01814044	-0.1016063	0.9158336	0.01660179	0.001921245	0.005990596	0.001412662
	-0.1016063	0.9158336	-0.04231275	-0.01497247	0.005988067	0.00141172	0.01652073	0.003123872
	0.01660179	0.001921245	0.005988067	0.00141172	-0.04217248	-0.01814655	-0.09826713	0.9161126
	0.005990596	0.001412662	0.01652073	0.003123872	-0.09826713	0.9161126	-0.04254788	-0.01468531
3.9e+08	-0.04544829	-0.01338093	0.00869789	0.9202253	0.01596116	0.0001229285	0.006371361	0.0006970667
	0.00869789	0.9202253	-0.0454529	-0.01005257	0.006368727	0.0006967099	0.0160165	0.001380326
	0.01596116	0.0001229285	0.006368727	0.0006967099	-0.04568877	-0.01335137	0.0121266	0.9200982
	0.006371361	0.0006970667	0.0160165	0.001380326	0.0121266	0.9200982	-0.04567807	-0.009717793
4e+08	-0.04777703	-0.007945052	0.1185575	0.9114339	0.01487298	-0.001459757	0.006662156	-0.0001143732
	0.1185575	0.9114339	-0.04740293	-0.00454069	0.006659596	-0.0001141562	0.01507317	-0.0001800515
	0.01487298	-0.001459757	0.006659596	-0.0001141562	-0.04803266	-0.007874744	0.122025	0.9108838
	0.006662156	-0.0001143732	0.01507317	-0.0001800515	0.122025	0.9108838	-0.04760817	-0.004161214
4.1e+08	-0.04881535	-0.002125163	0.2264172	0.8896355	0.01340336	-0.00272338	0.006836655	-0.001007687
	0.2264172	0.8896355	-0.0480575	0.00126519	0.006834335	-0.001006969	0.01374881	-0.001455605
	0.01340336	-0.00272338	0.006834335	-0.001006969	-0.04907682	-0.00201106	0.2298702	0.8886518
	0.006836655	-0.001007687	0.01374881	-0.001455605	0.2298702	0.8886518	-0.04823376	0.001684061
4.2e+08	-0.04850918	0.0037654	0.3307587	0.8551843	0.01164155	-0.003583743	0.006872068	-0.001960964
	0.3307587	0.8551843	-0.04738459	0.007051326	0.006870114	-0.001959869	0.01212425	-0.002361892
	0.01164155	-0.003583743	0.006870114	-0.001959869	-0.04876663	0.003924107	0.3341419	0.8537635
	0.006872068	-0.001960964	0.01212425	-0.002361892	0.3341419	0.8537635	-0.04752434	0.007502195
4.3e+08	-0.04687937	0.009409733	0.4301193	0.8086065	0.009694568	-0.0039808	0.006751633	-0.002945714
	0.4301193	0.8086065	-0.04542698	0.01250584	0.006750119	-0.002944404	0.01029826	-0.002836544
	0.009694568	-0.0039808	0.006750119	-0.002944404	-0.04712291	0.009611515	0.4333767	0.8067522
	0.006751634	-0.002945714	0.01029826	-0.002836544	0.4333767	0.8067522	-0.04552465	0.01297962
4.4e+08	-0.04402028	0.01450483	0.52311	0.750592	0.007680903	-0.003882174	0.006466533	-0.003929012
	0.52311	0.750592	-0.04229953	0.01733607	0.006465465	-0.003927663	0.008381757	-0.002842858
	0.007680903	-0.003882174	0.006465465	-0.003927663	-0.04424056	0.01474587	0.5261857	0.7483148
	0.006466533	-0.003929012	0.008381757	-0.002842858	0.5261857	0.7483148	-0.0423519	0.01782252
4.5e+08	-0.04009452	0.01877831	0.6084325	0.6819854	0.005723599	-0.003285107	0.006016972	-0.004876172
	0.6084325	0.6819854	-0.03818255	0.02128488	0.006016292	-0.004874949	0.006491378	-0.002371942
	0.005723599	-0.003285107	0.006016292	-0.004874949	-0.04028325	0.01905265	0.6112713	0.6793032
	0.006016972	-0.004876172	0.006491378	-0.002371942	0.6112713	0.6793032	-0.03818898	0.02177319
4.6e+08	-0.03532391	0.02200339	0.6848947	0.6037754	0.003943055	-0.002216754	0.005412309	-0.005753636
	0.6848947	0.6037754	-0.03331166	0.02414494	0.005411899	-0.005752667	0.004742693	-0.001443329
	0.003943055	-0.002216754	0.005411899	-0.005752667	-0.03547435	0.02230328	0.6874437	0.6007132
	0.005412309	-0.005753636	0.004742693	-0.001443329	0.6874437	0.6007132	-0.03327415	0.02462444
4.7e+08	-0.02997723	0.02401147	0.751427	0.517083	0.002449928	-0.0007328005	0.004670197	-0.006531739
	0.751427	0.517083	-0.02796453	0.02577021	0.004669897	-0.006531099	0.003243462	-0.0001040044
	0.002449928	-0.0007328005	0.004669897	-0.006531099	-0.03008454	0.02432765	0.7536355	0.5136727
	0.004670197	-0.006531739	0.003243462	-0.0001040044	0.7536355	0.5136727	-0.02788765	0.02623088
4.8e+08	-0.02435538	0.02470151	0.8070961	0.4231478	0.001338515	0.001085559	0.00381487	-0.007187007
	0.8070961	0.4231478	-0.02244533	0.02608414	0.003814499	-0.007186699	0.002087238	0.001574128
	0.001338515	0.001085559	0.003814499	-0.007186699	-0.02441702	0.02502372	0.8089172	0.4194277
	0.00381487	-0.007187007	0.002087238	0.001574128	0.8089172	0.4194277	-0.022336	0.0265173
4.9e+08	-0.01877475	0.02404573	0.851119	0.3233129	0.0006809579	0.00313615	0.002874754	-0.007703727
	0.851119	0.3233129	-0.01706772	0.025084	0.002874142	-0.007703684	0.001347686	0.00349824
	0.0006809579	0.00313615	0.002874142	-0.007703684	-0.01879062	0.02436327	0.85251	0.3193275
	0.002874754	-0.007703727	0.001347686	0.00349824	0.85251	0.3193275	-0.01693485	0.02548281
5e+08	-0.01354959	0.0220913	0.8828751	0.2190079	0.0005226385	0.005301654	0.001879729	-0.008074608
	0.8828751	0.2190079	-0.01213716	0.02284101	0.001878739	-0.008074695	0.001073957	0.00555987
	0.0005226385	0.005301654	0.001878739	-0.008074695	-0.01352216	0.02239364	0.8837986	0.2148075
	0.001879729	-0.008074608	0.001073957	0.00555987	0.8837986	0.2148075	-0.01199114	0.02320097
5.1e+08	-0.008974545	0.01895783	0.9019175	0.1117297	0.0008790512	0.00745648	0.000858359	-0.008300453
