!$
! Info: Touchstone file created by Circ.  Input file=Tx_14in_Rx_100ohms_TxVia_60mils_RxVia_70mils.circ
!$
# Hz S RI R 50
0	0.0144895	1.99406e-25	3.030485e-08	5.600103e-26	9.745013e-05	3.167865e-23	6.447196e-08	1.318571e-26
	3.030485e-08	5.600079e-26	0.01448483	2.164518e-25	6.241107e-08	1.82351e-25	9.423342e-05	3.53628e-23
	9.867645e-05	3.077802e-23	6.241108e-08	1.823499e-25	0.01449991	1.97743e-25	2.347818e-08	7.474468e-26
	6.447198e-08	1.318603e-26	9.450274e-05	3.551445e-23	2.347848e-08	7.475025e-26	0.01449909	2.155186e-25
1e+07	0.02164748	0.008229533	5.547802e-08	8.816971e-08	0.001009134	0.00256967	1.552501e-07	2.513892e-07
	5.547802e-08	8.816972e-08	0.02163879	0.008229165	8.521187e-08	2.817015e-07	0.001004655	0.002571164
	0.001009205	0.002569638	8.521187e-08	2.817015e-07	0.0214534	0.008267422	4.522766e-08	1.237418e-07
	1.552501e-07	2.513892e-07	0.001004658	0.002571162	4.522765e-08	1.237418e-07	0.02144364	0.008267554
2e+07	0.0285052	0.01052904	1.011873e-07	1.446221e-07	0.001931358	0.005156604	3.589222e-07	3.537542e-07
	1.011873e-07	1.446221e-07	0.02847066	0.01053398	1.413965e-07	4.784821e-07	0.001914505	0.005163651
	0.001931344	0.005156566	1.413965e-07	4.784821e-07	0.02839028	0.01066201	1.058927e-07	1.637968e-07
	3.589222e-07	3.537542e-07	0.001914502	0.005163651	1.058927e-07	1.637968e-07	0.02835151	0.01066868
3e+07	0.03427434	0.00976441	1.543629e-07	1.783878e-07	0.003481032	0.007124836	6.052608e-07	3.571588e-07
	1.543629e-07	1.783878e-07	0.03419988	0.009788795	1.838425e-07	6.672292e-07	0.003446099	0.007144442
	0.003481029	0.007124835	1.838425e-07	6.672292e-07	0.03422896	0.009924364	1.689706e-07	1.971492e-07
	6.052608e-07	3.571588e-07	0.003446099	0.007144444	1.689706e-07	1.971492e-07	0.03414577	0.00995363
4e+07	0.03907068	0.007196584	2.070199e-07	1.882484e-07	0.005519212	0.008477234	8.575859e-07	2.497537e-07
	2.070199e-07	1.882484e-07	0.03894852	0.007259368	2.161949e-07	8.493478e-07	0.005463622	0.008518441
	0.005519218	0.008477234	2.161949e-07	8.493478e-07	0.03908752	0.007356721	2.274306e-07	2.074933e-07
	8.575859e-07	2.497537e-07	0.005463623	0.008518442	2.274306e-07	2.074933e-07	0.03895135	0.007429604
5e+07	0.04275159	0.003305054	2.506123e-07	1.748996e-07	0.007984222	0.009009779	1.076001e-06	2.932024e-08
	2.506123e-07	1.748996e-07	0.042582	0.003428187	2.388387e-07	1.023944e-06	0.007909055	0.009082167
	0.007984225	0.009009777	2.388387e-07	1.023944e-06	0.04282065	0.003446733	2.75119e-07	1.933206e-07
	1.076001e-06	2.932025e-08	0.007909056	0.009082168	2.75119e-07	1.933206e-07	0.04263192	0.003587827
6e+07	0.04516411	-0.00151906	2.77212e-07	1.421564e-07	0.01043546	0.00883259	1.217825e-06	-2.920984e-07
	2.77212e-07	1.421564e-07	0.04495626	-0.001314387	2.510586e-07	1.193405e-06	0.01034565	0.008945285
	0.01043546	0.008832591	2.510586e-07	1.193405e-06	0.04527291	-0.001409065	3.041462e-07	1.58171e-07
	1.217825e-06	-2.920984e-07	0.01034565	0.008945285	3.041462e-07	1.58171e-07	0.04504213	-0.001176128
7e+07	0.0461966	-0.006899797	2.79823e-07	9.635539e-08	0.0126825	0.007984887	1.24468e-06	-6.865467e-07
	2.79823e-07	9.635538e-08	0.04596748	-0.006596465	2.522566e-07	1.360947e-06	0.01258638	0.008145092
	0.0126825	0.007984892	2.522566e-07	1.360947e-06	0.04633091	-0.006829885	3.070654e-07	1.086682e-07
	1.24468e-06	-6.865467e-07	0.01258638	0.008145092	3.070654e-07	1.086682e-07	0.04607727	-0.006486209
8e+07	0.04580503	-0.01246188	2.537164e-07	4.615757e-08	0.01455133	0.006554827	1.128845e-06	-1.112353e-06
	2.537164e-07	4.615756e-08	0.04557749	-0.01204921	2.425839e-07	1.530158e-06	0.01445984	0.00676672
	0.01455133	0.006554833	2.425839e-07	1.530158e-06	0.04594973	-0.01243578	2.786858e-07	5.408166e-08
	1.128845e-06	-1.112353e-06	0.01445984	0.00676672	2.786858e-07	5.408166e-08	0.04569881	-0.01196968
9e+07	0.04402524	-0.01783864	1.97215e-07	1.71732e-09	0.01589738	0.004673996	8.578995e-07	-1.518541e-06
	1.97215e-07	1.717314e-09	0.04382567	-0.01731401	2.231997e-07	1.704662e-06	0.01582301	0.004937916
	0.01589738	0.004674001	2.231997e-07	1.704662e-06	0.04416521	-0.01785555	2.170269e-07	5.42947e-09
	8.578995e-07	-1.518541e-06	0.01582301	0.004937916	2.170269e-07	5.429466e-09	0.04394643	-0.0172643
1e+08	0.04099177	-0.02268643	1.121362e-07	-2.639556e-08	0.01660962	0.002507097	4.37398e-07	-1.85055e-06
	1.121362e-07	-2.639556e-08	0.04084737	-0.02205628	1.963781e-07	1.887716e-06	0.01656505	0.002819119
	0.01660962	0.002507097	1.963781e-07	1.887716e-06	0.04111107	-0.02274155	1.238902e-07	-2.565555e-08
	4.37398e-07	-1.85055e-06	0.01656505	0.002819119	1.238902e-07	-2.565555e-08	0.04095477	-0.02203242
1.1e+08	0.03684609	-0.02680192	3.683855e-09	-2.901176e-08	0.01665575	0.0002850463	-1.054143e-07	-2.061503e-06
	3.683855e-09	-2.901176e-08	0.0367827	-0.02608223	1.627505e-07	2.084249e-06	0.01665252	0.0006368869
	0.01665575	0.0002850463	1.627505e-07	2.084249e-06	0.03693595	-0.02687685	5.19325e-09	-2.826819e-08
	-1.054143e-07	-2.061503e-06	0.01665252	0.0006368871	5.193251e-09	-2.82682e-08	0.03687112	-0.02606806
1.2e+08	0.03178242	-0.02982591	-1.201448e-07	2.217391e-09	0.01606609	-0.001848958	-7.340225e-07	-2.107968e-06
	-1.201448e-07	2.217389e-09	0.03182023	-0.0290408	1.279937e-07	2.295508e-06	0.01611299	-0.00146949
	0.01606609	-0.001848958	1.279937e-07	2.295508e-06	0.0318432	-0.02991175	-1.303318e-07	6.190632e-09
	-7.340225e-07	-2.107968e-06	0.01611299	-0.001469489	-1.303318e-07	6.190632e-09	0.03189225	-0.02903054
1.3e+08	0.02614393	-0.03157035	-2.485634e-07	7.271168e-08	0.01487967	-0.003719079	-1.396248e-06	-1.960728e-06
	-2.485634e-07	7.271167e-08	0.02629536	-0.03075073	9.685999e-08	2.522124e-06	0.01498159	-0.003327068
	0.01487967	-0.003719079	9.685999e-08	2.522124e-06	0.02617544	-0.03165838	-2.708753e-07	8.364355e-08
	-1.396248e-06	-1.960728e-06	0.01498158	-0.003327067	-2.708753e-07	8.364355e-08	0.02635202	-0.03073954
1.4e+08	0.02028329	-0.03194121	-3.690681e-07	1.843995e-07	0.01319352	-0.005167688	-2.030807e-06	-1.607498e-06
	-3.690681e-07	1.843995e-07	0.02055083	-0.03112215	7.431696e-08	2.763309e-06	0.01335052	-0.004779861
	0.01319352	-0.005167688	7.431696e-08	2.763309e-06	0.02028717	-0.03202281	-4.027532e-07	2.061929e-07
	-2.030807e-06	-1.607498e-06	0.01335052	-0.00477986	-4.027532e-07	2.061929e-07	0.02059375	-0.03110568
1.5e+08	0.01455843	-0.03093722	-4.685646e-07	3.352002e-07	0.01114676	-0.006071171	-2.572891e-06	-1.055533e-06
	-4.685646e-07	3.352002e-07	0.01493342	-0.0301547	6.509553e-08	3.016721e-06	0.01135366	-0.00570436
	0.01114676	-0.006071171	6.509553e-08	3.016721e-06	0.01453849	-0.03100444	-5.116418e-07	3.715566e-07
	-2.572891e-06	-1.055533e-06	0.01135366	-0.005704359	-5.116418e-07	3.715566e-07	0.01496504	-0.0301293
1.6e+08	0.009311377	-0.02864789	-5.346585e-07	5.188684e-07	0.008908289	-0.006350509	-2.960385e-06	-3.324277e-07
	-5.346585e-07	5.188684e-07	0.009773801	-0.02793524	7.318856e-08	3.278521e-06	0.009154589	-0.006019972
	0.008908289	-0.006350509	7.318856e-08	3.278521e-06	0.009273501	-0.02869405	-5.83988e-07	5.729028e-07
	-2.960385e-06	-3.324277e-07	0.009154589	-0.006019972	-5.83988e-07	5.729028e-07	0.009797274	-0.02789811
1.7e+08	0.004846605	-0.02524603	-5.569832e-07	7.252612e-07	0.006662537	-0.005977878	-3.140188e-06	5.150344e-07
	-5.569832e-07	7.252612e-07	0.005366031	-0.02463041	1.013696e-07	3.54362e-06	0.006932987	-0.005695655
	0.006662537	-0.005977878	1.013696e-07	3.54362e-06	0.004798381	-0.02526636	-6.084568e-07	7.991443e-07
	-3.140188e-06	5.150344e-07	0.006932986	-0.005695655	-6.084568e-07	7.991443e-07	0.005385006	-0.0245798
1.8e+08	0.001411526	-0.02097509	-5.28423e-07	9.410342e-07	0.004594119	-0.004978894	-3.074049e-06	1.42399e-06
	-5.28423e-07	9.410342e-07	0.001949121	-0.02047427	1.507955e-07	3.806075e-06	0.004869744	-0.00475235
	0.004594119	-0.004978894	1.507955e-07	3.806075e-06	0.00136171	-0.02096717	-5.772628e-07	1.0357e-06
	-3.074049e-06	1.42399e-06	0.004869744	-0.00475235	-5.772628e-07	1.0357e-06	0.00196747	-0.02040959
1.9e+08	-0.0008192643	-0.01613183	-4.460841e-07	1.150725e-06	0.002872582	-0.003430369	-2.7433e-06	2.320343e-06
	-4.460841e-07	1.150725e-06	-0.0003077569	-0.01575169	2.207514e-07	4.05963e-06	0.003132161	-0.003261082
	0.002872582	-0.003430369	2.207514e-07	4.05963e-06	-0.0008614658	-0.01609586	-4.872276e-07	1.265676e-06
	-2.7433e-06	2.320343e-06	0.003132161	-0.003261082	-4.872276e-07	1.265676e-06	-0.000286273	-0.01567348
2e+08	-0.001754797	-0.01104539	-3.118909e-07	1.338129e-06	0.001638496	-0.001453791	-2.151983e-06	3.12497e-06
	-3.118909e-07	1.338129e-06	-0.00131537	-0.01077837	3.085836e-07	4.298316e-06	0.001860349	-0.001336917
	0.001638496	-0.001453791	3.085836e-07	4.298316e-06	-0.001780492	-0.01098433	-3.404287e-07	1.471361e-06
	-2.151983e-06	3.12497e-06	0.001860349	-0.001336917	-3.404287e-07	1.471361e-06	-0.001287402	-0.01068828
2.1e+08	-0.001392706	-0.006054418	-1.327202e-07	1.487824e-06	0.0009920534	0.0007948584	-1.327998e-06	3.760732e-06
	-1.327202e-07	1.487824e-06	-0.001068985	-0.00587914	4.098371e-07	4.51707e-06	0.001155997	0.0008706653
	0.0009920534	0.0007948584	4.098371e-07	4.51707e-06	-0.001394111	-0.005973765	-1.443495e-07	1.635891e-06
	-1.327998e-06	3.760732e-06	0.001155997	0.0008706653	-1.443495e-07	1.635891e-06	-0.001031888	-0.005779685
2.2e+08	0.0001819535	-0.001483654	7.995582e-08	1.586694e-06	0.0009851052	0.003138066	-3.22068e-07	4.159663e-06
	7.995582e-08	1.586694e-06	0.0003528551	-0.001365772	5.185915e-07	4.712273e-06	0.001074396	0.00319013
	0.0009851053	0.003138066	5.185915e-07	4.712273e-06	0.0002107972	-0.001391094	8.850631e-08	1.7449e-06
	-3.22068e-07	4.159663e-06	0.001074396	0.00319013	8.850631e-08	1.7449e-06	0.000400802	-0.001260122
2.3e+08	0.002803961	0.002378175	3.108939e-07	1.625277e-06	0.00161725	0.005391378	7.954273e-07	4.269662e-06
	3.108939e-07	1.625277e-06	0.002795256	0.002483889	6.279562e-07	4.882159e-06	0.001620334	0.005441906
	0.00161725	0.005391378	6.279562e-07	4.882159e-06	0.002866598	0.00247337	3.415053e-07	1.788006e-06
	7.954273e-07	4.269662e-06	0.001620334	0.005441906	3.415053e-07	1.788006e-06	0.002854715	0.002592214
2.4e+08	0.006240691	0.00529772	5.422872e-07	1.598813e-06	0.002836218	0.0073784	1.939557e-06	4.060052e-06
	5.422872e-07	1.598813e-06	0.006039036	0.005444171	7.30669e-07	5.027042e-06	0.002748119	0.007452883
	0.002836218	0.0073784	7.30669e-07	5.027042e-06	0.006337845	0.005385433	5.951951e-07	1.759941e-06
	1.939557e-06	4.060052e-06	0.002748119	0.007452883	5.951951e-07	1.759941e-06	0.006109558	0.005551633
2.5e+08	0.0102094	0.007112181	7.552386e-07	1.507872e-06	0.004542445	0.008944968	3.01745e-06	3.525483e-06
	7.552386e-07	1.507872e-06	0.009817017	0.007355888	8.197305e-07	5.149352e-06	0.004365647	0.0090702
	0.004542445	0.008944968	8.197305e-07	5.149352e-06	0.01033881	0.007182295	8.28907e-07	1.661263e-06
	3.01745e-06	3.525483e-06	0.004365647	0.0090702	8.28907e-07	1.661263e-06	0.009897092	0.007459254
2.6e+08	0.01439778	0.007739329	9.31357e-07	1.358527e-06	0.006597366	0.009971377	3.935889e-06	2.687775e-06
	9.31357e-07	1.358527e-06	0.0138333	0.008135797	8.890083e-07	5.25347e-06	0.0063421	0.01017325
	0.006597366	0.009971377	8.890083e-07	5.25347e-06	0.01455424	0.007782594	1.022498e-06	1.498546e-06
	3.935889e-06	2.687775e-06	0.0063421	0.01017325	1.022498e-06	1.498546e-06	0.0139205	0.00823244
2.7e+08	0.01848615	0.007181721	1.054335e-06	1.162054e-06	0.008834712	0.01038175	4.609235e-06	1.595505e-06
	1.054335e-06	1.162054e-06	0.01778415	0.007780658	9.33759e-07	5.345413e-06	0.008518589	0.01068302
	0.008834712	0.01038175	9.33759e-07	5.345413e-06	0.01866188	0.007190582	1.158078e-06	1.284067e-06
	4.609235e-06	1.595505e-06	0.008518589	0.01068302	1.158078e-06	1.284067e-06	0.01787534	0.007868796
2.8e+08	0.02216992	0.005524957	1.111379e-06	9.342027e-07	0.01107387	0.01014984	4.967042e-06	3.2132e-07
	1.111379e-06	9.342027e-07	0.02137899	0.006365707	9.51029e-07	5.432384e-06	0.01072087	0.01056803
	0.01107387	0.01014984	9.51029e-07	5.432384e-06	0.02235508	0.005494275	1.221579e-06	1.03502e-06
	4.967042e-06	3.2132e-07	0.01072087	0.01056803	1.221579e-06	1.03502e-06	0.02147062	0.006444584
2.9e+08	0.0251805	0.002930182	1.094382e-06	6.940978e-07	0.01313426	0.009300969	4.960719e-06	-1.042886e-06
	1.094382e-06	6.940978e-07	0.02436008	0.004037797	9.399182e-07	5.522251e-06	0.01277314	0.009846587
	0.01313426	0.009300969	9.399182e-07	5.522251e-06	0.02536395	0.002857757	1.204057e-06	7.723191e-07
	4.960719e-06	-1.042886e-06	0.01277314	0.009846587	1.204057e-06	7.723191e-07	0.02444849	0.004107749
3e+08	0.02730349	-0.0003785413	1.000772e-06	4.628599e-07	0.01484961	0.007909886	4.568665e-06	-2.392572e-06
	1.000772e-06	4.628599e-07	0.02651957	0.001003765	9.016992e-07	5.622984e-06	0.01451183	0.008585181
	0.01484961	0.007909886	9.016992e-07	5.622984e-06	0.02747366	-0.0004916492	1.102618e-06	5.190888e-07
	4.568665e-06	-2.392572e-06	0.01451183	0.008585181	1.102618e-06	5.190888e-07	0.02660133	0.001066223
3.1e+08	0.02839276	-0.00413101	8.33958e-07	2.620349e-07	0.0160811	0.006094848	3.799432e-06	-3.618483e-06
	8.33958e-07	2.620349e-07	0.02771285	-0.002485063	8.397972e-07	5.742075e-06	0.01579842	0.006893134
	0.0160811	0.006094848	8.397972e-07	5.742075e-06	0.02853859	-0.004280433	9.209322e-07	2.989431e-07
	3.799432e-06	-3.618483e-06	0.01579842	0.006893134	9.209322e-07	2.989431e-07	0.02778506	-0.002427689
3.2e+08	0.02837963	-0.00803067	6.033672e-07	1.119311e-07	0.01672835	0.004008323	2.692577e-06	-4.615327e-06
	6.033672e-07	1.119311e-07	0.02786732	-0.006151178	7.596349e-07	5.885991e-06	0.01653028	0.004914017
	0.01672835	0.004008323	7.596349e-07	5.885991e-06	0.02849154	-0.008208947	6.692673e-07	1.341563e-07
	2.692577e-06	-4.615327e-06	0.01653028	0.004914017	6.692673e-07	1.341563e-07	0.02792789	-0.006095681
3.3e+08	0.02727658	-0.01177597	3.240263e-07	2.996501e-08	0.01673748	0.001825017	1.317046e-06	-5.29054e-06
	3.240263e-07	2.996501e-08	0.02698613	-0.009710676	6.683455e-07	6.059648e-06	0.01664878	0.002814401
	0.01673748	0.001825017	6.683455e-07	6.059648e-06	0.02734727	-0.01197304	3.640411e-07	4.38445e-08
	1.317046e-06	-5.29054e-06	0.01664878	0.002814401	3.640411e-07	4.38445e-08	0.02703398	-0.009653324
3.4e+08	0.02517518	-0.01508185	1.570676e-08	2.912631e-08	0.01610556	-0.0002718874	-2.329023e-07	-5.572461e-06
	1.570676e-08	2.912631e-08	0.02514665	-0.01289323	5.743575e-07	6.265963e-06	0.01614399	0.0007707992
	0.01610556	-0.0002718873	5.743575e-07	6.265963e-06	0.0252004	-0.01528576	2.68788e-08	4.2278e-08
	-2.329023e-07	-5.572461e-06	0.01614399	0.0007707992	2.68788e-08	4.2278e-08	0.02518183	-0.01283007
3.5e+08	0.02223859	-0.01769994	-2.983542e-07	1.166762e-07	0.01488115	-0.002105254	-1.844033e-06	-5.417227e-06
	-2.983542e-07	1.166762e-07	0.02249381	-0.0154609	4.868539e-07	6.5055e-06	0.01505568	-0.001044245
	0.01488115	-0.002105254	4.868539e-07	6.5055e-06	0.02221756	-0.01789774	-3.167914e-07	1.374538e-07
	-1.844033e-06	-5.417227e-06	0.01505568	-0.001044245	-3.167914e-07	1.374538e-07	0.02251753	-0.01538812
3.6e+08	0.01868895	-0.01943592	-5.931022e-07	2.932002e-07	0.01316068	-0.00351817	-3.392351e-06	-4.813753e-06
	-5.931022e-07	2.932002e-07	0.01922886	-0.0172245	4.151224e-07	6.776242e-06	0.01347031	-0.002475848
	0.01316068	-0.00351817	4.151224e-07	6.776242e-06	0.01862458	-0.0196147	-6.395467e-07	3.300599e-07
	-3.392351e-06	-4.813753e-06	0.01347031	-0.002475848	-6.395467e-07	3.300599e-07	0.01924343	-0.01713871
3.7e+08	0.01479069	-0.02016305	-8.43592e-07	5.521311e-07	0.01108113	-0.004386659	-4.752621e-06	-3.786303e-06
	-8.43592e-07	5.521311e-07	0.01559419	-0.01805634	3.678235e-07	7.073558e-06	0.01151445	-0.003399206
	0.01108113	-0.004386659	3.678235e-07	7.073558e-06	0.01468951	-0.02031098	-9.140812e-07	6.129561e-07
	-4.752621e-06	-3.786303e-06	0.01151445	-0.003399206	-9.140812e-07	6.129561e-07	0.01560284	-0.01795496
3.8e+08	0.01083082	-0.01983069	-1.027058e-06	8.798348e-07	0.008809262	-0.004629887	-5.808493e-06	-2.394267e-06
	-1.027058e-06	8.798348e-07	0.01185545	-0.01789864	3.5223e-07	7.39037e-06	0.009344877	-0.003729718
	0.008809262	-0.004629887	3.5223e-07	7.39037e-06	0.01070261	-0.01993803	-1.11547e-06	9.712741e-07
	-5.808493e-06	-2.394267e-06	0.009344877	-0.003729718	-1.11547e-06	9.712741e-07	0.01186207	-0.01778006
3.9e+08	0.007097746	-0.01846727	-1.124959e-06	1.256315e-06	0.006528391	-0.00421699	-6.462401e-06	-7.290315e-07
	-1.124959e-06	1.256315e-06	0.00828204	-0.01676672	3.735058e-07	7.717569e-06	0.00713612	-0.003429976
	0.006528391	-0.00421699	3.735058e-07	7.717569e-06	0.006954823	-0.01852725	-1.223398e-06	1.38319e-06
	-6.462401e-06	-7.290315e-07	0.00713612	-0.003429976	-1.223398e-06	1.38319e-06	0.008290893	-0.01663054
4e+08	0.003860015	-0.01617749	-1.124793e-06	1.656534e-06	0.004423668	-0.003169906	-6.644379e-06	1.091972e-06
	-1.124793e-06	1.656534e-06	0.005127538	-0.01474704	4.341065e-07	8.044652e-06	0.005066559	-0.002513001
	0.004423668	-0.003169906	4.341065e-07	8.044652e-06	0.003716362	-0.01618697	-1.224145e-06	1.821369e-06
	-6.644379e-06	1.091972e-06	0.005066559	-0.002513001	-1.224145e-06	1.821369e-06	0.005142881	-0.01459409
4.1e+08	0.001346597	-0.01313385	-1.021498e-06	2.052273e-06	0.002667085	-0.001561926	-6.318996e-06	2.933663e-06
	-1.021498e-06	2.052273e-06	0.002611398	-0.01198995	5.333862e-07	8.360552e-06	0.003304064	-0.001041405
	0.002667085	-0.001561926	5.333862e-07	8.360552e-06	0.001216791	-0.01309372	-1.112102e-06	2.254991e-06
	-6.318996e-06	2.933663e-06	0.003304064	-0.001041405	-1.112102e-06	2.254991e-06	0.002637131	-0.01182228
4.2e+08	-0.0002697175	-0.009563245	-8.182467e-07	2.414392e-06	0.001403465	0.0004879825	-5.489695e-06	4.653546e-06
	-8.182467e-07	2.414392e-06	0.0009033155	-0.008697935	6.674743e-07	8.654597e-06	0.001992429	0.0008774858
	0.001403465	0.0004879825	6.674743e-07	8.654597e-06	-0.0003716744	-0.009478498	-8.906444e-07	2.652214e-06
	-5.489695e-06	4.653546e-06	0.001992429	0.0008774858	-8.906444e-07	2.652214e-06	0.0009426312	-0.008518665
4.3e+08	-0.0008846692	-0.005729511	-5.265376e-07	2.715282e-06	0.0007385991	0.002824614	-4.200076e-06	6.112963e-06
	-5.265376e-07	2.715282e-06	0.0001113993	-0.005110017	8.294639e-07	8.917469e-06	0.001239725	0.003100174
	0.0007385991	0.002824614	8.294639e-07	8.917469e-06	-0.000946487	-0.005608974	-5.722329e-07	2.982841e-06
	-4.200076e-06	6.112963e-06	0.001239725	0.003100174	-5.722329e-07	2.982841e-06	0.0001664976	-0.004923103
4.4e+08	-0.0004696135	-0.001913396	-1.655268e-07	2.931275e-06	0.0007305581	0.005268965	-2.531884e-06	7.188446e-06
	-1.655268e-07	2.931275e-06	0.0002750411	-0.001483712	1.009904e-06	9.142096e-06	0.001109553	0.00545848
	0.0007305581	0.005268965	1.009904e-06	9.142096e-06	-0.0004817719	-0.001769161	-1.776941e-07	3.220945e-06
	-2.531884e-06	7.188446e-06	0.001109553	0.00545848	-1.776941e-07	3.220945e-06	0.0003469116	-0.001293629
4.5e+08	0.0009271165	0.001608596	2.39344e-07	3.044764e-06	0.001384881	0.007632626	-5.997899e-07	7.782176e-06
	2.39344e-07	3.044764e-06	0.001362956	0.001924215	1.197558e-06	9.32434e-06	0.001615908	0.007773032
	0.001384881	0.007632626	1.197558e-06	9.32434e-06	0.0009705189	0.001762035	2.652629e-07	3.34718e-06
	-5.997899e-07	7.782176e-06	0.001615908	0.007773032	2.652629e-07	3.34718e-06	0.001451267	0.002112835
4.6e+08	0.003184656	0.004584795	6.583025e-07	3.045838e-06	0.002654043	0.009732916	1.456677e-06	7.830655e-06
	6.583025e-07	3.045838e-06	0.003276499	0.004876642	1.380336e-06	9.463416e-06	0.002722066	0.009867623
	0.002654043	0.009732916	1.380336e-06	9.463416e-06	0.003285311	0.004731624	7.241647e-07	3.350574e-06
	1.456677e-06	7.830655e-06	0.002722066	0.009867623	7.241647e-07	3.350574e-06	0.003379591	0.005059401
4.7e+08	0.006119435	0.006806865	1.059595e-06	2.933258e-06	0.004441201	0.01140753	3.483421e-06	7.310827e-06
	1.059595e-06	2.933258e-06	0.005857908	0.007173263	1.546313e-06	9.562005e-06	0.004343554	0.01158325
	0.004441201	0.01140753	1.546313e-06	9.562005e-06	0.00627462	0.006931153	1.16432e-06	3.229594e-06
	3.483421e-06	7.310827e-06	0.004343554	0.01158325	1.16432e-06	3.229594e-06	0.005972962	0.007346353
4.8e+08	0.009499557	0.008124822	1.412011e-06	2.714717e-06	0.006607876	0.01252747	5.323485e-06	6.243114e-06
	1.412011e-06	2.714717e-06	0.008902781	0.008664749	1.684719e-06	9.626064e-06	0.0063549	0.01279072
