!$
! Info: Touchstone file created by Circ.  Input file=Tx_10in_Rx_85ohms_TxVia_60mils_RxVia_70mils.circ
!$
# Hz S RI R 50
0	0.008132889	1.54525e-25	3.069971e-08	3.149489e-26	7.713102e-05	1.772173e-23	6.530711e-08	7.468413e-27
	3.06997e-08	3.149468e-26	0.008128236	1.654887e-25	6.310326e-08	1.021406e-25	7.387701e-05	1.977474e-23
	7.835421e-05	1.721814e-23	6.310327e-08	1.021394e-25	0.008143591	1.532554e-25	2.389718e-08	4.199958e-26
	6.530714e-08	7.468773e-27	7.414668e-05	1.985954e-23	2.389748e-08	4.200517e-26	0.008142685	1.647614e-25
1e+07	0.01044631	-0.009341069	5.154672e-08	9.364181e-08	0.000355504	0.001938233	1.389376e-07	2.670648e-07
	5.154672e-08	9.364181e-08	0.01043496	-0.009339881	7.826603e-08	2.917805e-07	0.0003517797	0.001939332
	0.0003555739	0.0019382	7.826603e-08	2.917805e-07	0.01042961	-0.00932932	4.038229e-08	1.295388e-07
	1.389376e-07	2.670648e-07	0.0003517822	0.00193933	4.038228e-08	1.295388e-07	0.0104175	-0.009327845
2e+07	0.01011251	-0.02132817	8.756662e-08	1.618292e-07	0.001006003	0.003713449	3.113451e-07	4.108742e-07
	8.756663e-08	1.618292e-07	0.01006775	-0.02131981	1.138136e-07	5.055454e-07	0.0009915217	0.003718167
	0.001005987	0.003713412	1.138136e-07	5.055454e-07	0.01010678	-0.02129634	9.07526e-08	1.825043e-07
	3.113451e-07	4.108742e-07	0.0009915188	0.003718168	9.07526e-08	1.825043e-07	0.01005885	-0.02128707
3e+07	0.006260957	-0.03390719	1.304537e-07	2.160359e-07	0.001995026	0.005284404	5.29208e-07	4.906617e-07
	1.304537e-07	2.160359e-07	0.006163108	-0.03387757	1.274439e-07	7.248089e-07	0.001963938	0.005297314
	0.001995022	0.005284404	1.274439e-07	7.248089e-07	0.006264141	-0.03386468	1.426516e-07	2.383357e-07
	5.29208e-07	4.906617e-07	0.001963938	0.005297316	1.426516e-07	2.383357e-07	0.006159521	-0.03383236
4e+07	-0.0005267622	-0.04561906	1.771914e-07	2.554363e-07	0.003271214	0.00658881	7.75601e-07	4.959856e-07
	1.771914e-07	2.554363e-07	-0.0006926686	-0.04554872	1.291416e-07	9.492914e-07	0.00321924	0.006616236
	0.00327122	0.006588809	1.291416e-07	9.492914e-07	-0.0005158519	-0.04556922	1.946118e-07	2.810577e-07
	7.75601e-07	4.959856e-07	0.003219241	0.006616237	1.946118e-07	2.810577e-07	-0.0006931655	-0.04549314
5e+07	-0.009786452	-0.05575734	2.244724e-07	2.793547e-07	0.004767084	0.007574242	1.031732e-06	4.181916e-07
	2.244724e-07	2.793547e-07	-0.01002901	-0.05562197	1.227282e-07	1.178915e-06	0.004692025	0.007623714
	0.004767087	0.00757424	1.227282e-07	1.178915e-06	-0.009769324	-0.05570224	2.462239e-07	3.077262e-07
	1.031732e-06	4.181916e-07	0.004692026	0.007623714	2.462239e-07	3.077262e-07	-0.01002854	-0.05555631
6e+07	-0.02102343	-0.06381854	2.681323e-07	2.877826e-07	0.006405272	0.008204974	1.273683e-06	2.532313e-07
	2.681323e-07	2.877826e-07	-0.02134344	-0.06359169	1.115556e-07	1.415432e-06	0.006307221	0.00828459
	0.006405272	0.008204977	1.115556e-07	1.415432e-06	-0.02100169	-0.06375938	2.937738e-07	3.177562e-07
	1.273683e-06	2.532312e-07	0.006307223	0.00828459	2.937738e-07	3.177562e-07	-0.0213435	-0.06351524
7e+07	-0.03369924	-0.06944564	3.038516e-07	2.818237e-07	0.008103592	0.008463776	1.475879e-06	4.483927e-09
	3.038516e-07	2.818237e-07	-0.03408981	-0.0691011	9.90062e-08	1.660184e-06	0.007984999	0.008581584
	0.008103592	0.008463783	9.90062e-08	1.660184e-06	-0.03367446	-0.069383	3.327721e-07	3.120701e-07
	1.475879e-06	4.483919e-09	0.007985	0.008581584	3.327721e-07	3.120701e-07	-0.03409134	-0.06901268
8e+07	-0.04724352	-0.07241508	3.275851e-07	2.637722e-07	0.009779686	0.008352172	1.613911e-06	-3.170905e-07
	3.275851e-07	2.637722e-07	-0.0476906	-0.07192868	8.85618e-08	1.913683e-06	0.009645289	0.00851557
	0.009779687	0.00835218	8.85618e-08	1.913683e-06	-0.04721717	-0.07234903	3.588328e-07	2.929731e-07
	1.613911e-06	-3.170905e-07	0.009645289	0.008515569	3.588328e-07	2.929731e-07	-0.04769406	-0.07182681
9e+07	-0.06107363	-0.07263174	3.359538e-07	2.370171e-07	0.01135548	0.007889676	1.666847e-06	-6.937328e-07
	3.359538e-07	2.370171e-07	-0.06155672	-0.07198298	8.370592e-08	2.175509e-06	0.01121211	0.008104829
	0.01135549	0.007889682	8.370592e-08	2.175509e-06	-0.06104704	-0.07256195	3.681829e-07	2.640218e-07
	1.666847e-06	-6.937328e-07	0.01121211	0.008104829	3.681829e-07	2.640218e-07	-0.06156206	-0.07186594
1e+08	-0.07461886	-0.07012507	3.265605e-07	2.058067e-07	0.01276298	0.007113327	1.619027e-06	-1.102211e-06
	3.265605e-07	2.058067e-07	-0.07511194	-0.06929859	8.773822e-08	2.444295e-06	0.0126192	0.007384645
	0.01276298	0.007113327	8.773822e-08	2.444295e-06	-0.07459334	-0.07005103	3.580432e-07	2.297927e-07
	1.619027e-06	-1.102211e-06	0.0126192	0.007384645	3.580432e-07	2.297927e-07	-0.07511869	-0.06916478
1.1e+08	-0.0873378	-0.06501786	2.984168e-07	1.743761e-07	0.01394495	0.00605656	1.467123e-06	-1.517714e-06
	2.984168e-07	1.743761e-07	-0.08780948	-0.06400523	1.002372e-07	2.720502e-06	0.01381057	0.006386215
	0.01394495	0.00605656	1.002372e-07	2.720502e-06	-0.08731445	-0.06493731	3.274691e-07	1.960011e-07
	1.467123e-06	-1.517714e-06	0.01381057	0.006386215	3.274691e-07	1.960011e-07	-0.08781634	-0.06385199
1.2e+08	-0.09871858	-0.05756531	2.511006e-07	1.478338e-07	0.01483916	0.004785794	1.204667e-06	-1.913511e-06
	2.511006e-07	1.478338e-07	-0.09913564	-0.05636577	1.252489e-07	3.000408e-06	0.01472471	0.005173526
	0.01483916	0.004785794	1.252489e-07	3.000408e-06	-0.09869671	-0.05747677	2.760331e-07	1.675429e-07
	1.204667e-06	-1.913511e-06	0.01472471	0.005173526	2.760331e-07	1.675429e-07	-0.09913961	-0.05619169
1.3e+08	-0.1083381	-0.04810506	1.856349e-07	1.31101e-07	0.01541533	0.00337009	8.351617e-07	-2.261948e-06
	1.856349e-07	1.31101e-07	-0.1086667	-0.04672619	1.642192e-07	3.280837e-06	0.01533143	0.003812982
	0.01541533	0.00337009	1.642192e-07	3.280837e-06	-0.1083169	-0.04800743	2.0485e-07	1.49759e-07
	8.351617e-07	-2.261948e-06	0.01533143	0.003812983	2.0485e-07	1.49759e-07	-0.1086646	-0.04653084
1.4e+08	-0.1158509	-0.03704396	1.042337e-07	1.28825e-07	0.01565551	0.001879963	3.686284e-07	-2.536391e-06
	1.042337e-07	1.28825e-07	-0.1160585	-0.03550179	2.176899e-07	3.558196e-06	0.01561221	0.002372426
	0.01565551	0.001879963	2.176899e-07	3.558196e-06	-0.1158293	-0.03693642	1.163214e-07	1.476913e-07
	3.686284e-07	-2.536391e-06	0.01561221	0.002372427	1.163214e-07	1.476913e-07	-0.1160472	-0.0352856
1.5e+08	-0.1210014	-0.02484252	1.021593e-08	1.450984e-07	0.0155558	0.000386393	-1.787343e-07	-2.712634e-06
	1.021592e-08	1.450984e-07	-0.1210591	-0.02316116	2.851844e-07	3.828749e-06	0.01556196	0.0009203078
	0.0155558	0.0003863932	2.851844e-07	3.828749e-06	-0.1209782	-0.02472462	1.404131e-08	1.657837e-07
	-1.787343e-07	-2.712634e-06	0.01556195	0.0009203086	1.404131e-08	1.657837e-07	-0.1210352	-0.02292547
1.6e+08	-0.1236308	-0.01199656	-9.214216e-08	1.832136e-07	0.01512597	-0.001041536	-7.85165e-07	-2.770211e-06
	-9.214217e-08	1.832136e-07	-0.123515	-0.01020736	3.651842e-07	4.088912e-06	0.01518859	-0.0004765267
	0.01512597	-0.001041536	3.651842e-07	4.088912e-06	-0.1236046	-0.01186819	-9.73616e-08	2.076185e-07
	-7.85165e-07	-2.770211e-06	0.01518859	-0.000476526	-9.73616e-08	2.076185e-07	-0.1234757	-0.009954372
1.7e+08	-0.1236808	0.0009817712	-1.978031e-07	2.454563e-07	0.01438858	-0.002338859	-1.424192e-06	-2.693552e-06
	-1.978031e-07	2.454563e-07	-0.1233748	0.002841457	4.551992e-07	4.335554e-06	0.01451232	-0.001754912
	0.01438858	-0.002338859	4.551992e-07	4.335554e-06	-0.12365	0.00112031	-2.124329e-07	2.756966e-07
	-1.424192e-06	-2.693552e-06	0.01451232	-0.001754911	-2.124329e-07	2.756966e-07	-0.1233176	0.003108755
1.8e+08	-0.1211926	0.01358283	-3.01204e-07	3.329477e-07	0.0133779	-0.00344671	-2.065693e-06	-2.472972e-06
	-3.01204e-07	3.329477e-07	-0.1206884	0.01547127	5.519245e-07	4.566259e-06	0.0135646	-0.002857226
	0.0133779	-0.00344671	5.519245e-07	4.566259e-06	-0.1211561	0.01373084	-3.251425e-07	3.712659e-07
	-2.065693e-06	-2.472972e-06	0.0135646	-0.002857226	-3.251425e-07	3.712659e-07	-0.1206116	0.01574921
1.9e+08	-0.1163048	0.0253177	-3.965198e-07	4.455397e-07	0.01213857	-0.004314107	-2.677144e-06	-2.105458e-06
	-3.965198e-07	4.455397e-07	-0.115604	0.02719075	6.514705e-07	4.779528e-06	0.01238698	-0.003733076
	0.01213857	-0.004314107	6.514705e-07	4.779528e-06	-0.1162613	0.02547411	-4.291649e-07	4.942061e-07
	-2.677144e-06	-2.105458e-06	0.01238698	-0.003733076	-4.291649e-07	4.942061e-07	-0.1155066	0.02747516
2e+08	-0.1092471	0.0357356	-4.779442e-07	5.81766e-07	0.01072414	-0.004899555	-3.22502e-06	-1.595216e-06
	-4.779442e-07	5.81766e-07	-0.1083611	0.03754885	7.496421e-07	4.974906e-06	0.01102979	-0.004340839
	0.01072414	-0.004899555	7.496421e-07	4.974906e-06	-0.1091956	0.03589904	-5.181781e-07	6.429718e-07
	-3.22502e-06	-1.595216e-06	0.01102979	-0.004340839	-5.181781e-07	6.429718e-07	-0.1082433	0.03783527
2.1e+08	-0.1003309	0.04443991	-5.399761e-07	7.388519e-07	0.009195419	-0.00517251	-3.67633e-06	-9.53966e-07
	-5.399761e-07	7.388519e-07	-0.09928177	0.04615102	8.422375e-07	5.153017e-06	0.009550595	-0.004649095
	0.009195419	-0.00517251	8.422375e-07	5.153017e-06	-0.100271	0.04460874	-5.861724e-07	8.145949e-07
	-3.67633e-06	-9.53966e-07	0.009550595	-0.004649095	-5.861724e-07	8.145949e-07	-0.09914466	0.04643492
2.2e+08	-0.08993862	0.05110264	-5.777029e-07	9.127821e-07	0.007618524	-0.005114671	-4.000254e-06	-2.009335e-07
	-5.777029e-07	9.127821e-07	-0.08875813	0.05267368	9.253366e-07	5.315506e-06	0.008012491	-0.004637928
	0.007618524	-0.005114671	9.253366e-07	5.315506e-06	-0.08987001	0.05127505	-6.277573e-07	1.004751e-06
	-4.000254e-06	-2.009335e-07	0.008012491	-0.004637928	-6.277573e-07	1.004751e-06	-0.08860396	0.05295073
2.3e+08	-0.0785092	0.05547674	-5.870695e-07	1.098425e-06	0.006062708	-0.004721063	-4.169811e-06	6.375027e-07
	-5.870695e-07	1.098425e-06	-0.07723812	0.05687649	9.955502e-07	5.464902e-06	0.006482054	-0.004300057
	0.006062708	-0.004721063	9.955502e-07	5.464902e-06	-0.07843216	0.05565087	-6.384563e-07	1.207885e-06
	-4.169811e-06	6.375027e-07	0.006482054	-0.004300057	-6.384563e-07	1.207885e-06	-0.07707017	0.0571428
2.4e+08	-0.06652207	0.05740601	-5.651217e-07	1.289715e-06	0.004597836	-0.004000805	-4.163527e-06	1.528527e-06
	-5.651217e-07	1.289715e-06	-0.06520873	0.05861202	1.050207e-06	5.604426e-06	0.005026979	-0.003641679
	0.004597836	-0.004000805	1.050207e-06	5.604426e-06	-0.06643731	0.05758001	-6.149798e-07	1.417403e-06
	-4.163527e-06	1.528527e-06	0.005026979	-0.003641679	-6.149798e-07	1.417403e-06	-0.06503122	0.05886438
2.5e+08	-0.05447906	0.05683187	-5.102163e-07	1.47988e-06	0.003291562	-0.002977444	-3.96698e-06	2.434005e-06
	-5.102163e-07	1.47988e-06	-0.05317738	0.05783227	1.087464e-06	5.737763e-06	0.003713402	-0.002682925
	0.003291562	-0.002977444	1.087464e-06	5.737763e-06	-0.0543877	0.05700405	-5.55461e-07	1.625916e-06
	-3.96698e-06	2.434005e-06	0.003713402	-0.002682925	-5.55461e-07	1.625916e-06	-0.05299533	0.0580684
2.6e+08	-0.04288486	0.05379685	-4.221844e-07	1.661723e-06	0.002206291	-0.001688716	-3.574153e-06	3.311986e-06
	-4.221844e-07	1.661723e-06	-0.04165208	0.05459168	1.106346e-06	5.868828e-06	0.002602959	-0.001457757
	0.002206291	-0.001688716	1.106346e-06	5.868828e-06	-0.04278847	0.05396572	-4.596455e-07	1.825543e-06
	-3.574153e-06	3.311986e-06	0.002602959	-0.001457757	-4.596455e-07	1.825543e-06	-0.04147109	0.05481038
2.7e+08	-0.03222683	0.04844402	-3.024402e-07	1.827936e-06	0.001396023	-0.0001855926	-2.988469e-06	4.118586e-06
	-3.024402e-07	1.827936e-06	-0.03112078	0.04904607	1.106706e-06	6.001563e-06	0.001749717	-1.319029e-05
	0.001396023	-0.0001855926	1.106706e-06	6.001563e-06	-0.03212734	0.04860845	-3.290196e-07	2.008259e-06
	-2.988469e-06	4.118586e-06	0.001749717	-1.319031e-05	-3.290196e-07	2.008259e-06	-0.03094682	0.04924741
2.8e+08	-0.02295475	0.04101246	-1.540238e-07	1.971444e-06	0.0009033045	0.001469445	-2.22339e-06	4.810164e-06
	-1.540238e-07	1.971444e-06	-0.02203101	0.04144749	1.089151e-06	6.139774e-06	0.001197165	0.001592257
	0.0009033045	0.001469445	1.089151e-06	6.139774e-06	-0.02285436	0.04117172	-1.668658e-07	2.16628e-06
	-2.22339e-06	4.810164e-06	0.001197165	0.001592257	-1.668658e-07	2.16628e-06	-0.02187011	0.04163288
2.9e+08	-0.01546155	0.03182831	1.842882e-08	2.085769e-06	0.0007565074	0.003204964	-1.3025e-06	5.345701e-06
	1.842882e-08	2.085769e-06	-0.01477054	0.03213467	1.054939e-06	6.28702e-06	0.0009754931	0.003290926
	0.0007565074	0.003204964	1.054939e-06	6.28702e-06	-0.0153627	0.03198218	2.176615e-08	2.292462e-06
	-1.3025e-06	5.345701e-06	0.0009754931	0.003290926	2.176615e-08	2.292462e-06	-0.01462849	0.03230685
3e+08	-0.01006602	0.02129187	2.087968e-07	2.165393e-06	0.0009676982	0.004943887	-2.589808e-07	5.689235e-06
	2.087968e-07	2.165393e-06	-0.0096501	0.02151933	1.005875e-06	6.446557e-06	0.001099424	0.005009126
	0.0009676982	0.004943887	1.005875e-06	6.446557e-06	-0.009971234	0.02144065	2.30179e-07	2.380716e-06
	-2.589808e-07	5.689235e-06	0.001099424	0.005009126	2.30179e-07	2.380716e-06	-0.009532166	0.0216824
3.1e+08	-0.006998422	0.009860866	4.096685e-07	2.206101e-06	0.001531347	0.006607389	8.655333e-07	5.812205e-06
	4.096685e-07	2.206101e-06	-0.006889322	0.01006891	9.442462e-07	6.621314e-06	0.00156684	0.006670855
	0.001531347	0.006607389	9.442462e-07	6.621314e-06	-0.006910224	0.01000543	4.502461e-07	2.42639e-06
	8.655333e-07	5.812205e-06	0.00156684	0.006670855	4.502461e-07	2.42639e-06	-0.006799945	0.01022815
3.2e+08	-0.00638995	-0.001969196	6.126201e-07	2.205293e-06	0.002424064	0.00811915	2.02271e-06	5.69549e-06
	6.126201e-07	2.205293e-06	-0.006606563	-0.00171375	8.727818e-07	6.813887e-06	0.002358395	0.00820188
	0.002424064	0.00811915	8.727818e-07	6.813887e-06	-0.006310734	-0.001827375	6.727241e-07	2.426618e-06
	2.02271e-06	5.69549e-06	0.002358395	0.00820188	6.727241e-07	2.426618e-06	-0.006549088	-0.001552012
3.3e+08	-0.008266776	-0.01368673	8.085756e-07	2.162242e-06	0.00360547	0.009409647	3.159795e-06	5.331016e-06
	8.085756e-07	2.162242e-06	-0.008813507	-0.0133126	7.94658e-07	7.026518e-06	0.003438224	0.009533884
	0.00360547	0.009409647	7.94658e-07	7.026518e-06	-0.008198623	-0.01354562	8.876559e-07	2.380597e-06
	3.159795e-06	5.331016e-06	0.003438224	0.009533884	8.876559e-07	2.380597e-06	-0.008789899	-0.01314123
3.4e+08	-0.01254893	-0.02478669	9.882319e-07	2.078258e-06	0.005020197	0.01042013	4.222277e-06	4.722749e-06
	9.882319e-07	2.078258e-06	-0.0134147	-0.02422134	7.135207e-07	7.261029e-06	0.004755752	0.01060835
	0.005020197	0.01042013	7.135207e-07	7.261029e-06	-0.01249347	-0.02464377	1.084842e-06	2.289769e-06
	4.222277e-06	4.722749e-06	0.004755752	0.01060835	1.084842e-06	2.289769e-06	-0.01342536	-0.02403273
3.5e+08	-0.01905434	-0.03479288	1.142533e-06	1.956756e-06	0.006600887	0.01110598	5.156772e-06	3.887e-06
	1.142533e-06	1.956756e-06	-0.02021236	-0.03396595	6.335076e-07	7.51872e-06	0.006248478	0.01137982
	0.006600887	0.01110598	6.335076e-07	7.51872e-06	-0.01901273	-0.03464522	1.254377e-06	2.157894e-06
	5.156772e-06	3.887e-06	0.006248478	0.01137982	1.254377e-06	2.157894e-06	-0.02025609	-0.03375233
3.6e+08	-0.02750775	-0.04327868	1.263166e-06	1.803215e-06	0.008271976	0.01143913	5.913917e-06	2.852003e-06
	1.263166e-06	1.803215e-06	-0.02891603	-0.04212546	5.592334e-07	7.800205e-06	0.007845521	0.01181835
	0.008271976	0.01143913	5.592334e-07	7.800205e-06	-0.0274805	-0.04312303	1.387188e-06	1.990984e-06
	5.913917e-06	2.852003e-06	0.007845521	0.01181835	1.387188e-06	1.990984e-06	-0.02898993	-0.04187927
3.7e+08	-0.03755383	-0.04988519	1.343051e-06	1.625002e-06	0.009953945	0.0114094	6.451086e-06	1.656766e-06
	1.343051e-06	1.625002e-06	-0.03915647	-0.04834992	4.957105e-07	8.105218e-06	0.009471638	0.01191086
	0.009953945	0.0114094	4.957105e-07	8.105218e-06	-0.03754076	-0.04971814	1.47557e-06	1.797101e-06
	6.451086e-06	1.656766e-06	0.009471638	0.01191086	1.47557e-06	1.797101e-06	-0.03925604	-0.04806413
3.8e+08	-0.0487738	-0.05433575	1.376788e-06	1.431076e-06	0.01156768	0.01102471	6.734732e-06	3.493157e-07
	1.376788e-06	1.431076e-06	-0.05050306	-0.0523746	4.481866e-07	8.432419e-06	0.01105136	0.01166142
	0.01156768	0.01102471	4.481866e-07	8.432419e-06	-0.04877399	-0.05415388	1.513662e-06	1.586026e-06
	6.734732e-06	3.493157e-07	0.01105136	0.01166142	1.513662e-06	1.586026e-06	-0.05062225	-0.05204313
3.9e+08	-0.06070451	-0.05644636	1.361016e-06	1.231583e-06	0.01303866	0.01031012	6.742222e-06	-1.015566e-06
	1.361016e-06	1.231583e-06	-0.06248344	-0.0540299	4.218903e-07	8.779222e-06	0.01251296	0.01109047
	0.01303866	0.01031012	4.218903e-07	8.779222e-06	-0.06071626	-0.05624641	1.497837e-06	1.368809e-06
	6.742222e-06	-1.015566e-06	0.01251296	0.01109047	1.497837e-06	1.368809e-06	-0.06261487	-0.05364791
4e+08	-0.07285888	-0.05613156	1.294684e-06	1.037365e-06	0.01430056	0.009305988	6.463067e-06	-2.378935e-06
	1.294684e-06	1.037365e-06	-0.07460445	-0.05324664	4.216974e-07	9.141711e-06	0.01379191	0.01023313
	0.01430056	0.009305988	4.216974e-07	9.141711e-06	-0.07287977	-0.05591059	1.426974e-06	1.15723e-06
	6.463067e-06	-2.378935e-06	0.01379191	0.01023313	1.426974e-06	1.15723e-06	-0.07473972	-0.05281085
4.1e+08	-0.0847466	-0.05340584	1.179169e-06	8.59403e-07	0.01529826	0.008065299	5.899511e-06	-3.680434e-06
	1.179169e-06	8.59403e-07	-0.08637327	-0.05005676	4.517434e-07	9.51465e-06	0.01483375	0.0091368
	0.01529826	0.008065299	4.517434e-07	9.51465e-06	-0.08477356	-0.0531614	1.30258e-06	9.632031e-07
	5.899511e-06	-3.680434e-06	0.01483375	0.0091368	1.30258e-06	9.632031e-07	-0.08650325	-0.04956564
4.2e+08	-0.09589423	-0.04838076	1.018278e-06	7.082607e-07	0.01598992	0.00665062	5.066488e-06	-4.861049e-06
	1.018278e-06	7.082607e-07	-0.09731761	-0.04458968	5.150255e-07	9.89163e-06	0.01559607	0.007858325
	0.01598992	0.00665062	5.150255e-07	9.89163e-06	-0.09592362	-0.04811106	1.128781e-06	7.981752e-07
	5.066488e-06	-4.861049e-06	0.01559607	0.007858325	1.128781e-06	7.981752e-07	-0.09743284	-0.04404361
4.3e+08	-0.1058636	-0.04125827	8.180956e-07	5.935314e-07	0.01634826	0.005130782	3.991004e-06	-5.865715e-06
	8.180956e-07	5.935314e-07	-0.1070043	-0.0370648	6.130383e-07	1.026535e-05	0.01604982	0.006460974
	0.01634826	0.005130782	6.130383e-07	1.026535e-05	-0.1058914	-0.04096226	9.121461e-07	6.7254e-07
	3.991004e-06	-5.865715e-06	0.01604982	0.006460974	9.121461e-07	6.7254e-07	-0.1070953	-0.03646613
4.4e+08	-0.1142684	-0.03232071	5.86712e-07	5.233491e-07	0.01636105	0.003577595	2.711013e-06	-6.645672e-06
	5.86712e-07	5.233491e-07	-0.1150553	-0.02778075	7.45494e-07	1.062801e-05	0.01617979	0.00501141
	0.01636105	0.003577595	7.45494e-07	1.062801e-05	-0.1142903	-0.03199822	6.614033e-07	5.951214e-07
	2.711013e-06	-6.645672e-06	0.01617979	0.00501141	6.614033e-07	5.951214e-07	-0.1151134	-0.0271338
4.5e+08	-0.1207875	-0.02191827	3.338524e-07	5.039808e-07	0.01603084	0.002062762	1.273902e-06	-7.160493e-06
	3.338524e-07	5.039808e-07	-0.1211616	-0.01710212	9.101652e-07	1.09718e-05	0.01598452	0.003576852
	0.01603084	0.002062762	9.101652e-07	1.09718e-05	-0.1207992	-0.02157	3.870343e-07	5.727419e-07
	1.273902e-06	-7.160493e-06	0.01598452	0.003576852	3.870343e-07	5.727419e-07	-0.1211786	-0.01641305
4.6e+08	-0.1251762	-0.01045438	7.042469e-08	5.395218e-07	0.01537425	0.0006550822	-2.653413e-07	-7.379748e-06
	7.042469e-08	5.395218e-07	-0.125093	-0.005444237	1.102878e-06	1.128944e-05	0.01547566	0.002222506
	0.01537425	0.0006550822	1.102878e-06	1.128944e-05	-0.1251736	-0.01008196	1.008008e-07	6.099015e-07
	-2.653413e-07	-7.379748e-06	0.01547566	0.002222506	1.008008e-07	6.099015e-07	-0.1250623	-0.004720851
4.7e+08	-0.1272738	0.00163012	-1.919754e-07	6.317032e-07	0.0144208	-0.0005819709	-1.846186e-06	-7.284273e-06
	-1.919754e-07	6.317032e-07	-0.1267059	0.006743294	1.317666e-06	1.15747e-05	0.01467704	0.001009323
	0.0144208	-0.000581971	1.317666e-06	1.15747e-05	-0.1272529	0.002024196	-1.84779e-07	7.085721e-07
	-1.846186e-06	-7.284273e-06	0.01467704	0.001009323	-1.84779e-07	7.085721e-07	-0.1266224	0.007491829
4.8e+08	-0.1270081	0.01387375	-4.415767e-07	7.798138e-07	0.0132114	-0.001592322	-3.404762e-06	-6.867064e-06
	-4.415767e-07	7.798138e-07	-0.1259469	0.01899373	1.547083e-06	1.182285e-05	0.01362343	-7.929482e-06
	0.0132114	-0.001592322	1.547083e-06	1.182285e-05	-0.1269657	0.01428618	-4.569696e-07	8.681097e-07
