!$
! Info: Touchstone file created by Circ.  Input file=Tx_14in_Rx_85ohms_TxVia_60mils_RxVia_70mils.circ
!$
# Hz S RI R 50
0	0.01128594	2.008325e-25	3.050203e-08	4.373569e-26	9.812875e-05	2.464506e-23	6.489141e-08	1.034911e-26
	3.050203e-08	4.373546e-26	0.01128128	2.180153e-25	6.275815e-08	1.420223e-25	9.489331e-05	2.750721e-23
	9.93535e-05	2.394451e-23	6.275815e-08	1.420212e-25	0.0112965	1.991571e-25	2.36875e-08	5.834631e-26
	6.489144e-08	1.034945e-26	9.516281e-05	2.762516e-23	2.36878e-08	5.835189e-26	0.01129564	2.170748e-25
1e+07	0.01386484	-0.0136936	5.439998e-08	9.015373e-08	0.0005832206	0.002569236	1.587561e-07	2.523566e-07
	5.439998e-08	9.015374e-08	0.01384916	-0.01369128	7.620203e-08	2.901272e-07	0.0005781004	0.002570988
	0.0005832905	0.002569202	7.620203e-08	2.901272e-07	0.01383608	-0.01367866	4.480411e-08	1.262642e-07
	1.587561e-07	2.523566e-07	0.0005781032	0.002570986	4.48041e-08	1.262642e-07	0.01381936	-0.0136759
2e+07	0.01130823	-0.03068191	9.626147e-08	1.495066e-07	0.001741583	0.004798673	3.677186e-07	3.498327e-07
	9.626148e-08	1.495066e-07	0.01124776	-0.0306652	1.073007e-07	5.031965e-07	0.001722203	0.004806826
	0.001741566	0.004798636	1.073007e-07	5.031965e-07	0.01129601	-0.03064136	1.007971e-07	1.693654e-07
	3.677186e-07	3.498327e-07	0.0017222	0.004806826	1.007971e-07	1.693654e-07	0.01123132	-0.03062302
3e+07	0.00255133	-0.04727269	1.43737e-07	1.87696e-07	0.003455442	0.006552677	6.171363e-07	3.417245e-07
	1.43737e-07	1.87696e-07	0.002423678	-0.04721609	1.133726e-07	7.259139e-07	0.003415426	0.00657541
	0.003455438	0.006552677	1.133726e-07	7.259139e-07	0.002552515	-0.04722044	1.572748e-07	2.073063e-07
	6.171363e-07	3.417245e-07	0.003415425	0.006575412	1.572748e-07	2.073063e-07	0.00241617	-0.04715904
4e+07	-0.01101868	-0.060841	1.893132e-07	2.041964e-07	0.005555375	0.007700279	8.6569e-07	2.173204e-07
	1.893132e-07	2.041964e-07	-0.01122392	-0.06071103	1.074104e-07	9.590905e-07	0.005492166	0.007748157
	0.00555538	0.007700278	1.074104e-07	9.590905e-07	-0.01100635	-0.06078206	2.077674e-07	2.248883e-07
	8.6569e-07	2.173204e-07	0.005492167	0.007748158	2.077674e-07	2.248883e-07	-0.01122547	-0.06064198
5e+07	-0.02799199	-0.0700637	2.254645e-07	2.00387e-07	0.007837867	0.008166974	1.06973e-06	-2.187171e-08
	2.254645e-07	2.00387e-07	-0.02827076	-0.06982334	9.548605e-08	1.203352e-06	0.007753465	0.008251272
	0.00783787	0.008166972	9.548606e-08	1.203352e-06	-0.02797122	-0.07000092	2.471753e-07	2.212582e-07
	1.06973e-06	-2.187171e-08	0.007753466	0.008251272	2.471753e-07	2.212582e-07	-0.02826872	-0.06974246
6e+07	-0.04682502	-0.07419543	2.446582e-07	1.803007e-07	0.01009111	0.007944611	1.184649e-06	-3.580619e-07
	2.446582e-07	1.803007e-07	-0.04715808	-0.07381041	8.409553e-08	1.460265e-06	0.009992024	0.008075553
	0.01009111	0.007944613	8.409553e-08	1.460265e-06	-0.04679848	-0.07413009	2.680605e-07	2.00146e-07
	1.184649e-06	-3.580619e-07	0.009992025	0.008075553	2.680605e-07	2.00146e-07	-0.04715359	-0.0737166
7e+07	-0.06592603	-0.0729972	2.409149e-07	1.506529e-07	0.01211715	0.007087929	1.173457e-06	-7.566627e-07
	2.409149e-07	1.506529e-07	-0.06628128	-0.07244154	7.998212e-08	1.729455e-06	0.01201381	0.007273103
	0.01211715	0.007087936	7.998212e-08	1.729455e-06	-0.06589605	-0.07292946	2.640621e-07	1.685553e-07
	1.173457e-06	-7.566627e-07	0.01201381	0.007273103	2.640621e-07	1.685553e-07	-0.06627428	-0.07233337
8e+07	-0.0837683	-0.06669415	2.108526e-07	1.201642e-07	0.01374942	0.005704265	1.013115e-06	-1.170318e-06
	2.108526e-07	1.201642e-07	-0.08410449	-0.06595423	8.942087e-08	2.008009e-06	0.01365504	0.005947333
	0.01374943	0.005704273	8.942088e-08	2.008009e-06	-0.08373666	-0.06662341	2.314412e-07	1.358229e-07
	1.013115e-06	-1.170318e-06	0.01365505	0.005947333	2.314412e-07	1.358229e-07	-0.08409392	-0.06583035
9e+07	-0.09899801	-0.05591801	1.543373e-07	9.8502e-08	0.01486479	0.003939468	6.98369e-07	-1.544829e-06
	1.543373e-07	9.850199e-08	-0.09926939	-0.05499508	1.172706e-07	2.290612e-06	0.01479394	0.004239294
	0.01486479	0.003939473	1.172706e-07	2.290612e-06	-0.09896587	-0.05584323	1.699068e-07	1.124559e-07
	6.98369e-07	-1.544829e-06	0.01479394	0.004239294	1.699068e-07	1.124559e-07	-0.09925333	-0.05485468
1e+08	-0.1105269	-0.04163105	7.465291e-08	9.505303e-08	0.0153925	0.001963205	2.431171e-07	-1.825754e-06
	7.465291e-08	9.505303e-08	-0.1106883	-0.04054228	1.660767e-07	2.570189e-06	0.0153594	0.002313494
	0.0153925	0.001963205	1.660767e-07	2.570189e-06	-0.110495	-0.04155114	8.289584e-08	1.088126e-07
	2.431171e-07	-1.825754e-06	0.0153594	0.002313494	8.289584e-08	1.088126e-07	-0.1106646	-0.04038548
1.1e+08	-0.1175829	-0.02501	-2.211602e-08	1.172923e-07	0.01530491	-6.621049e-05	-3.187278e-07	-1.970604e-06
	-2.211602e-08	1.172923e-07	-0.1175941	-0.02378836	2.320942e-07	2.84206e-06	0.01532158	0.0003232999
	0.01530491	-6.621048e-05	2.320942e-07	2.84206e-06	-0.117551	-0.0249223	-2.250774e-08	1.334916e-07
	-3.187278e-07	-1.970604e-06	0.01532158	0.0003233001	-2.250774e-08	1.334916e-07	-0.1175595	-0.02361507
1.2e+08	-0.1197483	-0.007414091	-1.273726e-07	1.713027e-07	0.0146112	-0.001960661	-9.453349e-07	-1.940749e-06
	-1.273726e-07	1.713027e-07	-0.1195806	-0.006105878	3.140957e-07	3.098093e-06	0.01468592	-0.001547208
	0.0146112	-0.001960661	3.140957e-07	3.098093e-06	-0.1197145	-0.007317976	-1.371953e-07	1.927453e-07
	-9.453349e-07	-1.940749e-06	0.01468592	-0.001547207	-1.371953e-07	1.927453e-07	-0.1195313	-0.005918821
1.3e+08	-0.1170084	0.009776134	-2.307769e-07	2.59997e-07	0.01338367	-0.003560044	-1.580962e-06	-1.713977e-06
	-2.307769e-07	2.59997e-07	-0.1166482	0.011115	4.063834e-07	3.33298e-06	0.01351967	-0.00314072
	0.01338367	-0.003560043	4.063834e-07	3.33298e-06	-0.1169708	0.009880394	-2.499535e-07	2.897711e-07
	-1.580962e-06	-1.713977e-06	0.01351967	-0.003140719	-2.499535e-07	2.897711e-07	-0.1165818	0.01131159
1.4e+08	-0.1097131	0.02524351	-3.211969e-07	3.829687e-07	0.01172873	-0.004730954	-2.163202e-06	-1.28564e-06
	-3.211969e-07	3.829687e-07	-0.1091652	0.02655249	5.015482e-07	3.543754e-06	0.01192337	-0.004324928
	0.01172873	-0.004730954	5.015482e-07	3.543754e-06	-0.1096704	0.02535494	-3.486899e-07	4.241865e-07
	-2.163202e-06	-1.28564e-06	0.01192337	-0.004324927	-3.486899e-07	4.241865e-07	-0.1090808	0.02675341
1.5e+08	-0.09854899	0.03782384	-3.877368e-07	5.363211e-07	0.009782943	-0.005372752	-2.628208e-06	-6.705324e-07
	-3.877368e-07	5.363211e-07	-0.09783745	0.03904365	5.91497e-07	3.73026e-06	0.01002738	-0.004998362
	0.009782943	-0.005372752	5.91497e-07	3.73026e-06	-0.09850012	0.03794088	-4.2153e-07	5.918297e-07
	-2.628208e-06	-6.705324e-07	0.01002738	-0.004998361	-4.2153e-07	5.918297e-07	-0.09773597	0.03924329
1.6e+08	-0.08448681	0.04658671	-4.207838e-07	7.127923e-07	0.007705264	-0.005424001	-2.916514e-06	9.662699e-08
	-4.207838e-07	7.127923e-07	-0.08365485	0.04766556	6.685561e-07	3.895157e-06	0.007984791	-0.005096778
	0.007705264	-0.005424	6.685561e-07	3.895157e-06	-0.08443143	0.04670743	-4.579469e-07	7.848716e-07
	-2.916514e-06	9.662699e-08	0.007984791	-0.005096777	-4.579469e-07	7.848716e-07	-0.08353917	0.0478585
1.7e+08	-0.06871122	0.05090225	-4.130069e-07	9.021732e-07	0.005667409	-0.004867921	-2.979147e-06	9.623526e-07
	-4.130069e-07	9.021732e-07	-0.06781857	0.05180183	7.264293e-07	4.043478e-06	0.005962409	-0.004598755
	0.005667409	-0.004867921	7.264293e-07	4.043478e-06	-0.06864968	0.05102454	-4.498543e-07	9.922411e-07
	-2.979147e-06	9.623526e-07	0.005962409	-0.004598755	-4.498543e-07	9.922411e-07	-0.0676934	0.05198353
1.8e+08	-0.05253398	0.05048925	-3.602365e-07	1.092009e-06	0.003842204	-0.003736074	-2.783591e-06	1.857438e-06
	-3.602365e-07	1.092009e-06	-0.05165265	0.05118997	7.608451e-07	4.181889e-06	0.004129648	-0.003529704
	0.003842204	-0.003736074	7.608451e-07	4.181889e-06	-0.05246741	0.05061112	-3.925839e-07	1.200366e-06
	-2.783591e-06	1.857438e-06	0.004129649	-0.003529703	-3.925839e-07	1.200366e-06	-0.05152425	0.05135733
1.9e+08	-0.03729541	0.04544012	-2.621437e-07	1.26856e-06	0.002389987	-0.002109098	-2.318983e-06	2.70199e-06
	-2.621437e-07	1.26856e-06	-0.03650369	0.04594489	7.698144e-07	4.317844e-06	0.002645386	-0.001963094
	0.002389987	-0.002109098	7.698144e-07	4.317844e-06	-0.03722563	0.0455599	-2.856588e-07	1.394211e-06
	-2.318983e-06	2.70199e-06	0.002645386	-0.001963094	-2.856588e-07	1.394211e-06	-0.03637939	0.04609681
2e+08	-0.0242596	0.03621838	-1.226408e-07	1.417977e-06	0.001443924	-0.0001132761	-1.599786e-06	3.412337e-06
	-1.226408e-07	1.417977e-06	-0.02363493	0.03655458	7.535381e-07	4.458823e-06	0.001643568	-1.764389e-05
	0.001443925	-0.0001132761	7.535381e-07	4.458823e-06	-0.02418904	0.03633502	-1.33264e-07	1.558567e-06
	-1.599786e-06	3.412337e-06	0.001643568	-1.764384e-05	-1.33264e-07	1.558567e-06	-0.0235225	0.03669224
2.1e+08	-0.01451144	0.02362628	5.007148e-08	1.527617e-06	0.001095845	0.002087977	-6.671758e-07	3.909327e-06
	5.007148e-08	1.527617e-06	-0.01412272	0.02384528	7.14095e-07	4.611795e-06	0.001219132	0.002150499
	0.001095845	0.002087977	7.14095e-07	4.611795e-06	-0.01444294	0.02373948	5.5678e-08	1.679509e-06
	-6.671758e-07	3.909327e-06	0.001219132	0.002150499	5.5678e-08	1.679509e-06	-0.01402963	0.02397232
2.2e+08	-0.008864886	0.008742326	2.438685e-07	1.587384e-06	0.00138476	0.0043078	4.124723e-07	4.127211e-06
	2.438685e-07	1.587384e-06	-0.008764986	0.008916683	6.550907e-07	4.782942e-06	0.001416417	0.004360722
	0.001384761	0.0043078	6.550907e-07	4.782942e-06	-0.008801422	0.008852697	2.678973e-07	1.745901e-06
	4.124723e-07	4.127211e-06	0.001416417	0.004360722	2.678973e-07	1.745901e-06	-0.008697616	0.00903907
2.3e+08	-0.007792198	-0.007167396	4.435021e-07	1.590981e-06	0.002290346	0.006353718	1.552251e-06	4.021958e-06
	4.435021e-07	1.590981e-06	-0.008011453	-0.0069492	5.814198e-07	4.977552e-06	0.002222297	0.006425113
	0.002290347	0.006353718	5.814198e-07	4.977552e-06	-0.007736632	-0.007058256	4.866663e-07	1.750792e-06
	1.552251e-06	4.021958e-06	0.002222297	0.006425113	4.866663e-07	1.750792e-06	-0.007974392	-0.006823482
2.4e+08	-0.0113827	-0.0227568	6.318186e-07	1.536903e-06	0.003733073	0.008047484	2.652287e-06	3.577784e-06
	6.318186e-07	1.536903e-06	-0.01192422	-0.02239758	4.992029e-07	5.199923e-06	0.003565772	0.00816774
	0.003733073	0.008047484	4.992029e-07	5.199923e-06	-0.01133744	-0.02264636	6.931604e-07	1.692523e-06
	2.652287e-06	3.577784e-06	0.003565772	0.00816774	6.931604e-07	1.692523e-06	-0.01191963	-0.02225912
2.5e+08	-0.01933637	-0.03671581	7.913147e-07	1.429032e-06	0.005581607	0.009244081	3.609427e-06	2.810807e-06
	7.913147e-07	1.429032e-06	-0.02017375	-0.03611826	4.158294e-07	5.45312e-06	0.005324658	0.00944327
	0.005581607	0.009244081	4.158294e-07	5.45312e-06	-0.01930306	-0.03660072	8.681953e-07	1.575368e-06
	3.609427e-06	2.810807e-06	0.005324658	0.00944327	8.681953e-07	1.575368e-06	-0.02020094	-0.03595697
2.6e+08	-0.03099351	-0.04788253	9.058905e-07	1.276696e-06	0.007666668	0.009846917	4.327811e-06	1.769156e-06
	9.058905e-07	1.276696e-06	-0.0320713	-0.04695833	3.399386e-07	5.738495e-06	0.007338626	0.01015201
	0.007666668	0.009846917	3.399386e-07	5.738495e-06	-0.03097279	-0.04775888	9.941671e-07	1.409574e-06
	4.327811e-06	1.769156e-06	0.007338626	0.01015201	9.941671e-07	1.409574e-06	-0.03212652	-0.04676434
2.7e+08	-0.04539696	-0.05533997	9.625998e-07	1.094127e-06	0.009799272	0.009816947	4.728943e-06	5.294232e-07
	9.625998e-07	1.094127e-06	-0.04663396	-0.05401847	2.811332e-07	6.055021e-06	0.009426581	0.01024913
	0.009799272	0.009816947	2.811332e-07	6.055021e-06	-0.04538823	-0.0552036	1.056969e-06	1.210729e-06
	4.728943e-06	5.294232e-07	0.009426581	0.01024913	1.056969e-06	1.210729e-06	-0.04671053	-0.05378305
2.8e+08	-0.06137934	-0.05848774	9.531731e-07	8.993258e-07	0.0117905	0.009174635	4.759965e-06	-8.100379e-07
	9.531731e-07	8.993258e-07	-0.06267452	-0.05672339	2.492827e-07	6.398633e-06	0.01140562	0.009747017
	0.0117905	0.009174635	2.492827e-07	6.398633e-06	-0.0613807	-0.05833464	1.047636e-06	9.984958e-07
	4.759965e-06	-8.100379e-07	0.01140562	0.009747017	1.047636e-06	9.984958e-07	-0.06276318	-0.05643984
2.9e+08	-0.07766526	-0.05708309	8.75098e-07	7.124506e-07	0.01346988	0.007995079	4.39917e-06	-2.138035e-06
	8.75098e-07	7.124506e-07	-0.0789057	-0.05486079	2.534078e-07	6.76184e-06	0.01310877	0.008710978
	0.01346988	0.007995079	2.534078e-07	6.76184e-06	-0.07767358	-0.05690981	9.634834e-07	7.948257e-07
	4.39917e-06	-2.138035e-06	0.01310877	0.008710978	9.634834e-07	7.948257e-07	-0.07899526	-0.05452522
3e+08	-0.09297766	-0.05124955	7.321056e-07	5.539053e-07	0.01470016	0.006397772	3.658343e-06	-3.340506e-06
	7.321056e-07	5.539053e-07	-0.09404789	-0.04858749	3.002984e-07	7.133838e-06	0.01439925	0.007249865
	0.01470016	0.006397772	3.002984e-07	7.133838e-06	-0.09298875	-0.05105361	8.085987e-07	6.218896e-07
	3.658343e-06	-3.340506e-06	0.01439925	0.007249865	8.085987e-07	6.218896e-07	-0.09412611	-0.04819932
3.1e+08	-0.1061385	-0.0414554	5.339974e-07	4.423793e-07	0.01538708	0.004533137	2.581953e-06	-4.310403e-06
	5.339974e-07	4.423793e-07	-0.1069303	-0.03840503	3.931446e-07	7.501274e-06	0.01518007	0.005503514
	0.01538708	0.004533137	3.931446e-07	7.501274e-06	-0.1061474	-0.04123557	5.936228e-07	4.999675e-07
	2.581953e-06	-4.310403e-06	0.01518007	0.005503514	5.936228e-07	4.999675e-07	-0.1069849	-0.03796728
3.2e+08	-0.116156	-0.02846665	2.958575e-07	3.930621e-07	0.01548409	0.002567981	1.243643e-06	-4.956584e-06
	2.958575e-07	3.930621e-07	-0.1165779	-0.0251098	5.305088e-07	7.84962e-06	0.01539892	0.003629169
	0.01548409	0.002567981	5.305088e-07	7.84962e-06	-0.1161574	-0.02822323	3.348819e-07	4.455489e-07
	1.243643e-06	-4.956584e-06	0.01539892	0.003629169	3.348819e-07	4.455489e-07	-0.1165975	-0.02462905
3.3e+08	-0.1222931	-0.01328084	3.676664e-08	4.162182e-07	0.01499271	0.0006715964	-2.593753e-07	-5.211131e-06
	3.676664e-08	4.162182e-07	-0.1222787	-0.009724224	7.059188e-07	8.164973e-06	0.01504879	0.001788474
	0.01499271	0.0006715964	7.059188e-07	8.164973e-06	-0.1222819	-0.01301569	5.300373e-08	4.698297e-07
	-2.593753e-07	-5.211131e-06	0.01504879	0.001788474	5.300373e-08	4.698297e-07	-0.1222542	-0.009210257
3.4e+08	-0.1241148	0.002951965	-2.218218e-07	5.16258e-07	0.0139594	-0.0009964657	-1.813395e-06	-5.0348e-06
	-2.218218e-07	5.16258e-07	-0.1236294	0.006584432	9.082361e-07	8.435952e-06	0.01416562	0.0001359968
	0.0139594	-0.0009964656	9.082361e-07	8.435952e-06	-0.1240865	0.003235481	-2.288004e-07	5.777232e-07
	-1.813395e-06	-5.0348e-06	0.01416562	0.0001359968	-2.288004e-07	5.777232e-07	-0.1235546	0.007119301
3.5e+08	-0.1215133	0.01901494	-4.578462e-07	6.913213e-07	0.0124704	-0.002296617	-3.296217e-06	-4.420538e-06
	-4.578462e-07	6.913213e-07	-0.1205584	0.02259153	1.122792e-06	8.655339e-06	0.01282385	-0.001190476
	0.0124704	-0.002296617	1.122792e-06	8.655339e-06	-0.1214644	0.01931219	-4.866066e-07	7.673932e-07
	-3.296217e-06	-4.420538e-06	0.01282385	-0.001190476	-4.866066e-07	7.673932e-07	-0.1204307	0.02313339
3.6e+08	-0.1147109	0.033712	-6.503996e-07	9.333657e-07	0.010645	-0.003117594	-4.585715e-06	-3.395061e-06
	-6.503996e-07	9.333657e-07	-0.1133256	0.03710355	1.333108e-06	8.82115e-06	0.01113074	-0.002078031
	0.010645	-0.003117594	1.333108e-06	8.82115e-06	-0.1146394	0.03401742	-6.976554e-07	1.030334e-06
	-4.585715e-06	-3.395061e-06	0.01113074	-0.002078031	-6.976554e-07	1.030334e-06	-0.1131464	0.03763795
3.7e+08	-0.1042425	0.04595252	-7.813677e-07	1.228703e-06	0.008627797	-0.003383274	-5.568671e-06	-2.018474e-06
	-7.813677e-07	1.228703e-06	-0.102502	0.04904309	1.522909e-06	8.936933e-06	0.009219617	-0.002445462
	0.008627797	-0.003383274	1.522909e-06	8.936933e-06	-0.1041479	0.04626002	-8.421057e-07	1.351898e-06
	-5.568671e-06	-2.018474e-06	0.009219617	-0.002445462	-8.421057e-07	1.351898e-06	-0.1022769	0.04955624
3.8e+08	-0.09091709	0.05482924	-8.368576e-07	1.558918e-06	0.00657986	-0.003058146	-6.149619e-06	-3.81826e-07
	-8.368576e-07	1.558918e-06	-0.08892873	0.05752623	1.678044e-06	9.011253e-06	0.007241946	-0.002249044
	0.00657986	-0.003058146	1.678044e-06	9.011253e-06	-0.09080066	0.05513269	-9.045933e-07	1.712234e-06
	-6.149619e-06	-3.81826e-07	0.007241946	-0.002249044	-9.045933e-07	1.712234e-06	-0.08866733	0.05800615
3.9e+08	-0.07576186	0.05968517	-8.083581e-07	1.902093e-06	0.004668496	-0.002151269	-6.259315e-06	1.397596e-06
	-8.083581e-07	1.902093e-06	-0.07365791	0.06192821	1.788007e-06	9.056491e-06	0.005357997	-0.001487048
	0.004668496	-0.002151269	1.788007e-06	9.056491e-06	-0.07562667	0.05997892	-8.755292e-07	2.087564e-06
	-6.259315e-06	1.397596e-06	0.005357997	-0.001487048	-8.755292e-07	2.087564e-06	-0.07337292	0.06236582
4e+08	-0.05994934	0.06016547	-6.935835e-07	2.234305e-06	0.003055535	-0.0007181504	-5.862278e-06	3.18338e-06
	-6.935835e-07	2.234305e-06	-0.05787737	0.0619331	1.846794e-06	9.087235e-06	0.003725776	-0.0002023964
	0.003055535	-0.0007181504	1.846794e-06	9.087235e-06	-0.0598	0.0604448	-7.520812e-07	2.451775e-06
	-5.862278e-06	3.18338e-06	0.003725776	-0.0002023964	-7.520812e-07	2.451775e-06	-0.05758398	0.06232317
4.1e+08	-0.04471155	0.05624956	-4.969559e-07	2.5313e-06	0.001884315	0.001140382	-4.962615e-06	4.829532e-06
	-4.969559e-07	2.5313e-06	-0.04282303	0.05756319	1.853039e-06	9.118598e-06	0.002488466	0.001517516
	0.001884315	0.001140382	1.853039e-06	9.118598e-06	-0.04455395	0.0565111	-5.387712e-07	2.778255e-06
	-4.962615e-06	4.829532e-06	0.002488466	0.001517516	-5.387712e-07	2.778255e-06	-0.0425377	0.05790492
4.2e+08	-0.03124598	0.04825945	-2.296716e-07	2.770325e-06	0.001266248	0.003283266	-3.607173e-06	6.192133e-06
	-2.296716e-07	2.770325e-06	-0.02968377	0.04918393	1.809521e-06	9.164801e-06	0.001761156	0.003544859
	0.001266248	0.003283266	1.809521e-06	9.164801e-06	-0.03108691	0.04850159	-2.476118e-07	3.041916e-06
	-3.607173e-06	6.192133e-06	0.001761156	0.003544859	-2.476118e-07	3.041916e-06	-0.02942294	0.04948127
4.3e+08	-0.02061997	0.03684137	9.070429e-08	2.932005e-06	0.001268403	0.005538892	-1.885104e-06	7.142332e-06
	9.070429e-08	2.932005e-06	-0.01950576	0.0374818	1.722305e-06	9.238245e-06	0.001618308	0.00571997
	0.001268403	0.005538892	1.722305e-06	9.238245e-06	-0.02046661	0.03706439	1.022985e-07	3.221309e-06
	-1.885104e-06	7.142332e-06	0.001618308	0.00571997	1.022985e-07	3.221309e-06	-0.01928446	0.03774338
4.4e+08	-0.01368172	0.02291948	4.411678e-07	3.002165e-06	0.001904089	0.007719316	7.685225e-08	7.57945e-06
	4.411678e-07	3.002165e-06	-0.01310455	0.02341439	1.599821e-06	9.349101e-06	0.002083919	0.007864526
	0.001904089	0.007719316	1.599821e-06	9.349101e-06	-0.01354109	0.02312576	4.857919e-07	3.300688e-06
	7.685225e-08	7.57945e-06	0.00208392	0.007864526	4.857919e-07	3.300688e-06	-0.01293511	0.02365303
4.5e+08	-0.0109868	0.007624038	7.947607e-07	2.973443e-06	0.003128388	0.009637918	2.123526e-06	7.442583e-06
	7.947607e-07	2.973443e-06	-0.01099387	0.008135129	1.452178e-06	9.505304e-06	0.003126341	0.009798292
	0.003128388	0.009637918	1.452178e-06	9.505304e-06	-0.01086522	0.007817918	8.732927e-07	3.271827e-06
	2.123526e-06	7.442583e-06	0.003126341	0.009798292	8.732927e-07	3.271827e-06	-0.0108847	0.008366996
4.6e+08	-0.01274858	-0.007801038	1.122592e-06	2.846505e-06	0.004840107	0.01112848	4.084366e-06	6.718995e-06
	1.122592e-06	2.846505e-06	-0.01333921	-0.007101667	1.290835e-06	9.712655e-06	0.004659258	0.0113575
	0.004840107	0.01112848	1.290835e-06	9.712655e-06	-0.01265105	-0.007613423	1.233087e-06	3.13537e-06
	4.084366e-06	6.718995e-06	0.004659258	0.0113575	1.233087e-06	3.13537e-06	-0.01329395	-0.006858264
4.7e+08	-0.01881853	-0.02210243	1.396294e-06	2.630644e-06	0.006890598	0.01206301	5.789104e-06	5.447874e-06
	1.396294e-06	2.630644e-06	-0.01994227	-0.02104663	1.128564e-06	9.97475e-06	0.006549345	0.01241224
	0.006890598	0.01206301	1.128564e-06	9.97475e-06	-0.01874824	-0.02191355	1.534073e-06	2.90147e-06
	5.789104e-06	5.447874e-06	0.006549345	0.01241224	1.534073e-06	2.90147e-06	-0.0199592	-0.02077266
4.8e+08	-0.02869939	-0.03412328	1.59072e-06	2.343577e-06	0.009098595	0.01236546	7.084178e-06	3.718619e-06
	1.59072e-06	2.343577e-06	-0.03025841	-0.03256137	9.794547e-07	1.029255e-05	0.008629803	0.01288016
