!$
! Info: Touchstone file created by Circ.  Input file=Tx_16in_Rx_93ohms_TxVia_60mils_RxVia_70mils.circ
!$
# Hz S RI R 50
0	0.01461191	2.045201e-25	1.325157e-09	2.381621e-27	0.0001044902	2.887889e-23	1.19412e-09	1.028705e-27
	1.325165e-09	2.381624e-27	0.01460711	2.425654e-25	9.09634e-10	3.446272e-27	0.0001046967	3.566299e-23
	0.0001054691	2.938512e-23	9.09623e-10	3.446243e-27	0.01462558	1.957215e-25	-3.24731e-09	4.465007e-25
	1.194118e-09	1.028589e-27	0.0001049661	3.581592e-23	-3.246907e-09	4.464514e-25	0.01462137	2.415259e-25
1e+07	0.02144507	-0.001923152	3.005592e-09	2.984567e-09	0.0006612418	0.002642888	3.895734e-09	2.947718e-08
	3.005592e-09	2.984567e-09	0.02104782	-0.00282878	1.896595e-09	2.243457e-09	0.0006960301	0.00289315
	0.0006612506	0.002642855	1.896595e-09	2.243457e-09	0.01991058	-0.002585354	-2.597642e-09	1.815657e-08
	3.895734e-09	2.947718e-08	0.0006960332	0.002893147	-2.597642e-09	1.815657e-08	0.02062808	-0.002809489
2e+07	0.02449021	-0.01008448	5.902194e-09	4.345847e-09	0.002069012	0.005050324	2.113365e-08	1.549663e-08
	5.902194e-09	4.345847e-09	0.02304998	-0.01121113	3.633058e-09	3.581755e-09	0.001984511	0.005530424
	0.002068984	0.005050323	3.633058e-09	3.581755e-09	0.02247464	-0.01047495	-1.349862e-09	7.477101e-09
	2.113365e-08	1.549663e-08	0.001984508	0.005530424	-1.349862e-09	7.477102e-09	0.022752	-0.01104611
3e+07	0.02301567	-0.01993894	9.285337e-09	3.411584e-09	0.004127563	0.006861991	3.290952e-08	1.010136e-08
	9.285337e-09	3.411584e-09	0.02082944	-0.02071128	5.383731e-09	3.761037e-09	0.004066241	0.007438017
	0.00412756	0.006861996	5.383731e-09	3.761037e-09	0.02071579	-0.01994021	9.615325e-09	3.65621e-09
	3.290952e-08	1.010136e-08	0.004066241	0.007438019	9.615325e-09	3.65621e-09	0.02061804	-0.02052009
4e+07	0.01794541	-0.0290313	1.237112e-08	8.420879e-10	0.00660854	0.007900734	4.339987e-08	5.160542e-11
	1.237112e-08	8.420879e-10	0.0152703	-0.02920441	7.157838e-09	3.006882e-09	0.00664317	0.008493133
	0.00660854	0.007900729	7.157838e-09	3.006882e-09	0.01553379	-0.0285767	1.355796e-08	9.303439e-10
	4.339987e-08	5.160542e-11	0.006643171	0.008493134	1.355796e-08	9.30344e-10	0.01512022	-0.02902015
5e+07	0.01011884	-0.03616708	1.444409e-08	-3.397124e-09	0.009234071	0.00807679	5.017971e-08	-1.528165e-08
	1.444409e-08	-3.397124e-09	0.007212749	-0.03561512	8.378916e-09	1.360185e-09	0.009345342	0.008659002
	0.009234068	0.008076788	8.378916e-09	1.360185e-09	0.00775347	-0.03524536	1.564021e-08	-3.618696e-09
	5.017971e-08	-1.528165e-08	0.009345343	0.008659002	1.564021e-08	-3.618696e-09	0.007101051	-0.03545154
6e+07	0.0004918908	-0.040606	1.474598e-08	-8.887655e-09	0.01171481	0.007398644	5.074796e-08	-3.456041e-08
	1.474598e-08	-8.887655e-09	-0.002391703	-0.03929374	8.677054e-09	-9.78376e-10	0.01188444	0.007955465
	0.01171481	0.007398648	8.677055e-09	-9.78376e-10	-0.001687326	-0.03925057	1.580841e-08	-9.34597e-09
	5.074796e-08	-3.456041e-08	0.01188444	0.007955465	1.580841e-08	-9.34597e-09	-0.002484576	-0.03915391
7e+07	-0.009902742	-0.04198544	1.273182e-08	-1.483067e-08	0.01378384	0.005968886	4.336011e-08	-5.512901e-08
	1.273182e-08	-1.483067e-08	-0.01252803	-0.03995486	7.753074e-09	-3.580511e-09	0.01399515	0.006491812
	0.01378385	0.005968891	7.753074e-09	-3.580511e-09	-0.01177942	-0.04026479	1.365432e-08	-1.551422e-08
	4.336011e-08	-5.512901e-08	0.01399515	0.006491812	1.365432e-08	-1.551422e-08	-0.0126175	-0.03983512
8e+07	-0.02003769	-0.04029347	8.21527e-09	-2.024417e-08	0.01522602	0.003969813	2.746652e-08	-7.366495e-08
	8.21527e-09	-2.024417e-08	-0.02219961	-0.03765139	5.503117e-09	-5.934576e-09	0.01546347	0.004454167
	0.01522604	0.003969816	5.503117e-09	-5.934576e-09	-0.0215227	-0.03830153	8.970678e-09	-2.120738e-08
	2.746652e-08	-7.366495e-08	0.01546347	0.004454167	8.970677e-09	-2.120738e-08	-0.02229648	-0.03754385
9e+07	-0.02898059	-0.03583359	1.42387e-09	-2.410495e-08	0.015901	0.001640926	3.907292e-09	-8.67165e-08
	1.423869e-09	-2.410495e-08	-0.03051227	-0.03273793	2.032834e-09	-7.501901e-09	0.01614792	0.002084166
	0.01590101	0.001640925	2.032834e-09	-7.501901e-09	-0.03001151	-0.03368035	1.895578e-09	-2.542291e-08
	3.907292e-09	-8.67165e-08	0.01614792	0.002084166	1.895578e-09	-2.54229e-08	-0.03062279	-0.03263269
1e+08	-0.03599285	-0.02917045	-7.0103e-09	-2.553523e-08	0.01576728	-0.0007483957	-2.513271e-08	-9.127675e-08
	-7.0103e-09	-2.553523e-08	-0.03672909	-0.02581635	-2.342739e-09	-7.80236e-09	0.01599155	-0.00034816
	0.01576728	-0.0007483959	-2.342739e-09	-7.80236e-09	-0.03650515	-0.02697406	-7.046439e-09	-2.722703e-08
	-2.513271e-08	-9.127675e-08	0.01599155	-0.0003481601	-7.046439e-09	-2.722703e-08	-0.03685856	-0.02570335
1.1e+08	-0.04047225	-0.0209533	-1.612649e-08	-2.404127e-08	0.01482838	-0.00287961	-5.638489e-08	-8.58727e-08
	-1.612649e-08	-2.404127e-08	-0.04045255	-0.01777706	-7.088874e-09	-6.531735e-09	0.01502696	-0.002565537
	0.01482838	-0.00287961	-7.088874e-09	-6.531735e-09	-0.04052448	-0.01897464	-1.671169e-08	-2.569588e-08
	-5.638489e-08	-8.58727e-08	0.01502696	-0.002565537	-1.671169e-08	-2.569588e-08	-0.04059164	-0.01763195
1.2e+08	-0.04210799	-0.01219007	-2.48788e-08	-1.921194e-08	0.01318681	-0.004572234	-8.62402e-08	-6.929853e-08
	-2.48788e-08	-1.921194e-08	-0.04153948	-0.009323676	-1.16662e-08	-3.520956e-09	0.01337707	-0.004327643
	0.01318681	-0.004572234	-1.16662e-08	-3.520956e-09	-0.04185542	-0.01048294	-2.601115e-08	-2.063557e-08
	-8.62402e-08	-6.929853e-08	0.01337707	-0.004327642	-2.601115e-08	-2.063557e-08	-0.04166864	-0.009147008
1.3e+08	-0.04097601	-0.003776688	-3.206052e-08	-1.121586e-08	0.01104643	-0.005629725	-1.106848e-07	-4.207277e-08
	-3.206052e-08	-1.121586e-08	-0.04001079	-0.00130511	-1.544297e-08	1.16175e-09	0.01122678	-0.005445019
	0.01104643	-0.005629726	-1.544297e-08	1.16175e-09	-0.04052413	-0.002360276	-3.366393e-08	-1.221224e-08
	-1.106848e-07	-4.207277e-08	0.01122677	-0.005445018	-3.366393e-08	-1.221224e-08	-0.04011757	-0.001103056
1.4e+08	-0.03739217	0.003471321	-3.654558e-08	-6.316928e-10	0.008645577	-0.005929161	-1.259413e-07	-6.147648e-09
	-3.654558e-08	-6.316928e-10	-0.03617757	0.005498592	-1.782402e-08	7.225431e-09	0.00881029	-0.005796825
	0.008645577	-0.005929161	-1.782402e-08	7.225431e-09	-0.03682854	0.004599809	-3.84724e-08	-1.031767e-09
	-1.259413e-07	-6.147648e-09	0.008810289	-0.005796824	-3.84724e-08	-1.031767e-09	-0.03625382	0.005716269
1.5e+08	-0.03189533	0.008888348	-3.743545e-08	1.155394e-08	0.006245187	-0.005429946	-1.289835e-07	3.521055e-08
	-3.743545e-08	1.155394e-08	-0.03057635	0.01045626	-1.832584e-08	1.4167e-08	0.006386512	-0.00534257
	0.006245187	-0.005429946	-1.832584e-08	1.4167e-08	-0.03129257	0.009747766	-3.947764e-08	1.186625e-08
	-1.289835e-07	3.521055e-08	0.006386511	-0.00534257	-3.947764e-08	1.186625e-08	-0.03061844	0.01067774
1.6e+08	-0.02519086	0.01201677	-3.420535e-08	2.406866e-08	0.004103608	-0.004176549	-1.179821e-07	7.771595e-08
	-3.420535e-08	2.406866e-08	-0.02390621	0.01314455	-1.665422e-08	2.132472e-08	0.004212845	-0.004125523
	0.004103608	-0.004176549	-1.665422e-08	2.132472e-08	-0.0246072	0.01263745	-3.611475e-08	2.513524e-08
	-1.179821e-07	7.771595e-08	0.004212845	-0.004125522	-3.611475e-08	2.513524e-08	-0.02391522	0.0133575
1.7e+08	-0.01807827	0.01264485	-2.678646e-08	3.548649e-08	0.002450611	-0.002293421	-9.263695e-08	1.165058e-07
	-2.678646e-08	3.548649e-08	-0.01695395	0.01338482	-1.275116e-08	2.794621e-08	0.0025192	-0.002268076
	0.002450611	-0.002293421	-1.275116e-08	2.794621e-08	-0.01755785	0.01306464	-2.83022e-08	3.726196e-08
	-9.263695e-08	1.165058e-07	0.0025192	-0.002268076	-2.83022e-08	3.726196e-08	-0.0169354	0.01357801
1.8e+08	-0.0113709	0.01082079	-1.560279e-08	4.438996e-08	0.001463717	2.790087e-05	-5.434603e-08	1.466883e-07
	-1.560279e-08	4.438996e-08	-0.01051271	0.01125534	-6.819987e-09	3.327222e-08	0.001484439	4.067735e-05
	0.001463717	2.790088e-05	-6.819987e-09	3.327222e-08	-0.01094438	0.01108167	-1.648262e-08	4.673886e-08
	-5.434603e-08	1.466883e-07	0.001484439	4.067761e-05	-1.648262e-08	4.673886e-08	-0.0104759	0.01142004
1.9e+08	-0.005815458	0.006841653	-1.552042e-09	4.953678e-08	0.001249356	0.002548639	-6.178878e-09	1.639357e-07
	-1.552042e-09	4.953678e-08	-0.005301655	0.007077848	6.785932e-10	3.662628e-08	0.00121758	0.002564291
	0.001249356	0.002548639	6.785932e-10	3.662628e-08	-0.005500924	0.006986673	-1.603639e-09	5.224211e-08
	-6.178878e-09	1.639357e-07	0.00121758	0.002564291	-1.603639e-09	5.224211e-08	-0.005258582	0.007208922
2e+08	-0.002019227	0.001218153	1.406729e-08	5.00132e-08	0.001831039	0.005007952	4.735753e-08	1.650537e-07
	1.406729e-08	5.00132e-08	-0.001894312	0.001379941	9.060443e-09	3.750076e-08	0.001745886	0.005043625
	0.001831038	0.005007952	9.060443e-09	3.750076e-08	-0.001823428	0.001288927	1.495909e-08	5.27958e-08
	4.735753e-08	1.650537e-07	0.001745886	0.005043625	1.495909e-08	5.27958e-08	-0.001858302	0.001476612
2.1e+08	-0.0003914151	-0.00538165	2.967478e-08	4.535712e-08	0.003146178	0.007149202	1.007448e-07	1.484512e-07
	2.967478e-08	4.535712e-08	-0.0006626628	-0.005162753	1.747881e-08	3.562719e-08	0.003011454	0.007224439
	0.003146178	0.007149202	1.747881e-08	3.562719e-08	-0.0003113367	-0.005347048	3.152439e-08	4.789742e-08
	1.007448e-07	1.484512e-07	0.003011454	0.007224439	3.152439e-08	4.789742e-08	-0.0006468207	-0.005096685
2.2e+08	-0.001107547	-0.0122029	4.35641e-08	3.564337e-08	0.005057388	0.008750548	1.480336e-07	1.144533e-07
	4.35641e-08	3.564337e-08	-0.001742641	-0.01179875	2.501016e-08	3.103194e-08	0.004877093	0.008884942
	0.005057388	0.008750548	2.501016e-08	3.103194e-08	-0.001132185	-0.01217154	4.627333e-08	3.762528e-08
	1.480336e-07	1.144533e-07	0.004877093	0.008884942	4.627333e-08	3.762528e-08	-0.001758308	-0.0117552
2.3e+08	-0.004095729	-0.01848098	5.408477e-08	2.151479e-08	0.007358056	0.009649305	1.835166e-07	6.539782e-08
	5.408477e-08	2.151479e-08	-0.005024427	-0.01777958	3.076032e-08	2.405587e-08	0.007141142	0.009860083
	0.007358056	0.009649305	3.076032e-08	2.405587e-08	-0.004207985	-0.01842615	5.74582e-08	2.267038e-08
	1.835166e-07	6.539782e-08	0.007141142	0.009860083	5.74582e-08	2.267038e-08	-0.005079812	-0.01774696
2.4e+08	-0.009047318	-0.02352108	5.982654e-08	4.15169e-09	0.009797235	0.009757844	2.024047e-07	5.49109e-09
	5.982654e-08	4.15169e-09	-0.01016828	-0.02243696	3.396552e-08	1.533259e-08	0.009559671	0.01005957
	0.009797235	0.009757844	3.396552e-08	1.533259e-08	-0.009225938	-0.02342299	6.358562e-08	4.284244e-09
	2.024047e-07	5.49109e-09	0.009559671	0.01005957	6.358562e-08	4.284244e-09	-0.01026742	-0.02240141
2.5e+08	-0.0154539	-0.02676751	5.979567e-08	-1.481507e-08	0.01210979	0.009075535	2.014348e-07	-5.955626e-08
	5.979567e-08	-1.481507e-08	-0.01664376	-0.0252503	3.409107e-08	5.740299e-09	0.01187345	0.009477415
	0.01210979	0.009075535	3.409107e-08	5.740299e-09	-0.01567534	-0.02661344	6.36047e-08	-1.580594e-08
	2.014348e-07	-5.955626e-08	0.01187345	0.009477415	6.36047e-08	-1.580594e-08	-0.01678598	-0.02519717
2.6e+08	-0.02266292	-0.02785757	5.355988e-08	-3.345047e-08	0.01404582	0.007688161	1.793292e-07	-1.23089e-07
	5.355988e-08	-3.345047e-08	-0.02378785	-0.02589761	3.090913e-08	-3.682027e-09	0.01383641	0.008191834
	0.01404582	0.007688161	3.090913e-08	-3.682027e-09	-0.02290308	-0.02764169	5.705925e-08	-3.555322e-08
	1.793292e-07	-1.23089e-07	0.01383641	0.008191834	5.705925e-08	-3.555322e-08	-0.02396762	-0.02581303
2.7e+08	-0.02994657	-0.02665473	4.134256e-08	-4.971031e-08	0.01539799	0.005757591	1.370497e-07	-1.781999e-07
	4.134256e-08	-4.971031e-08	-0.03087517	-0.02428474	2.454598e-08	-1.184326e-08	0.01524219	0.006355761
	0.01539799	0.005757591	2.454598e-08	-1.184326e-08	-0.0301823	-0.02637759	4.418556e-08	-5.279685e-08
	1.370497e-07	-1.781999e-07	0.01524219	0.006355761	4.418556e-08	-5.279685e-08	-0.03108269	-0.02415729
2.8e+08	-0.03657662	-0.0232583	2.404772e-08	-6.166628e-08	0.01602349	0.00350318	7.781134e-08	-2.184805e-07
	2.404772e-08	-6.166628e-08	-0.03719299	-0.02055121	1.548967e-08	-1.772173e-08	0.0159457	0.004179335
	0.01602349	0.00350318	1.548967e-08	-1.772173e-08	-0.03678703	-0.0229261	2.593787e-08	-6.549934e-08
	7.781134e-08	-2.184805e-07	0.0159457	0.004179335	2.593787e-08	-6.549934e-08	-0.03741518	-0.02037317
2.9e+08	-0.04189755	-0.01798953	3.205851e-09	-6.773614e-08	0.0158585	0.00117736	6.847965e-09	-2.38748e-07
	3.205851e-09	-6.773614e-08	-0.04211328	-0.01505221	4.555898e-09	-2.048558e-08	0.01587754	0.001906692
	0.0158585	0.00117736	4.555898e-09	-2.048558e-08	-0.04206503	-0.01761314	3.930959e-09	-7.198831e-08
	6.847965e-09	-2.38748e-07	0.01587754	0.001906692	3.930959e-09	-7.198831e-08	-0.04233511	-0.01482042
3e+08	-0.0453908	-0.01135608	-1.916019e-08	-6.68895e-08	0.01492375	-0.0009616264	-6.905084e-08	-2.356697e-07
	-1.916019e-08	-6.68895e-08	-0.0451546	-0.008319538	-7.186383e-09	-1.959717e-08	0.01505	-0.0002101439
	0.01492375	-0.0009616264	-7.186383e-09	-1.959717e-08	-0.04550183	-0.01095003	-1.970094e-08	-7.117271e-08
	-6.905084e-08	-2.356697e-07	0.01505	-0.0002101439	-1.970094e-08	-7.117271e-08	-0.04536072	-0.008035881
3.1e+08	-0.04672445	-0.003999099	-4.073801e-08	-5.880011e-08	0.01332122	-0.002676872	-1.421901e-07	-2.082161e-07
	-4.073801e-08	-5.880011e-08	-0.04602843	-0.001006016	-1.852199e-08	-1.48879e-08	0.01355459	-0.001937438
	0.01332122	-0.002676872	-1.852199e-08	-1.48879e-08	-0.04677013	-0.003580426	-4.251703e-08	-6.27033e-08
	-1.421901e-07	-2.082161e-07	0.01355459	-0.001937438	-4.251703e-08	-6.27033e-08	-0.04620477	-0.0006772258
3.2e+08	-0.04578379	0.003371704	-5.917484e-08	-4.392143e-08	0.01122258	-0.003777083	-2.047449e-07	-1.578882e-07
	-5.917484e-08	-4.392143e-08	-0.04466561	0.006181001	-2.821738e-08	-6.593894e-09	0.01155161	-0.003083408
	0.01122258	-0.003777083	-2.821738e-08	-6.593894e-09	-0.04576015	0.003784633	-6.203168e-08	-4.705296e-08
	-2.047449e-07	-1.578882e-07	0.01155161	-0.003083408	-6.203168e-08	-4.705296e-08	-0.04480093	0.006543959
3.3e+08	-0.04268059	0.01004861	-7.234254e-08	-2.347216e-08	0.008850988	-0.00413583	-2.49587e-07	-8.868851e-08
	-7.234254e-08	-2.347216e-08	-0.04122124	0.01255043	-3.515485e-08	4.652678e-09	0.009253242	-0.003517276
	0.008850988	-0.00413583	-3.515485e-08	4.652678e-09	-0.04258869	0.0104373	-7.599357e-08	-2.550291e-08
	-2.49587e-07	-8.868851e-08	0.009253242	-0.003517276	-7.599357e-08	-2.550291e-08	-0.04130833	0.01293346
3.4e+08	-0.03774048	0.01539548	-7.858538e-08	6.689234e-10	0.006458042	-0.003704168	-2.710775e-07	-6.825859e-09
	-7.858538e-08	6.689234e-10	-0.03605755	0.01749588	-3.845781e-08	1.787608e-08	0.006901813	-0.003182149
	0.006458042	-0.003704168	-3.845781e-08	1.787608e-08	-0.03758622	0.01574253	-8.264756e-08	-3.341628e-11
	-2.710775e-07	-6.825859e-09	0.006901813	-0.003182149	-8.264756e-08	-3.341628e-11	-0.03609406	0.0178832
3.5e+08	-0.03146981	0.01890997	-7.691936e-08	2.614668e-08	0.004298084	-0.0025156	-2.657434e-07	7.982923e-08
	-7.691936e-08	2.614668e-08	-0.0297069	0.02055533	-3.75934e-08	3.184782e-08	0.00474527	-0.002100684
	0.004298084	-0.0025156	-3.75934e-08	3.184782e-08	-0.03126351	0.01920018	-8.09466e-08	2.686894e-08
	-2.657434e-07	7.982923e-08	0.00474527	-0.002100684	-8.09466e-08	2.686894e-08	-0.02969567	0.02093112
3.6e+08	-0.02450514	0.02027246	-6.715987e-08	5.036994e-08	0.002602179	-0.0006829895	-2.327598e-07	1.624944e-07
	-6.715987e-08	5.036994e-08	-0.02281824	0.02145647	-3.244161e-08	4.520637e-08	0.003012013	-0.0003730487
	0.002602179	-0.0006829895	-3.244161e-08	4.520637e-08	-0.02426084	0.02049392	-7.068844e-08	5.246467e-08
	-2.327598e-07	1.624944e-07	0.003012013	-0.0003730487	-7.068844e-08	5.246467e-08	-0.0227671	0.0218065
3.7e+08	-0.01755022	0.01937731	-4.996381e-08	7.078023e-08	0.001554097	0.001612438	-1.741741e-07	2.323642e-07
	-4.996381e-08	7.078023e-08	-0.01609229	0.02014331	-2.332358e-08	5.659393e-08	0.001887378	0.001832786
	0.001554097	0.001612438	-2.332358e-08	5.659393e-08	-0.01728472	0.01952222	-5.256205e-08	7.404605e-08
	-1.741741e-07	2.323642e-07	0.001887378	0.001832786	-5.256205e-08	7.404605e-08	-0.01601331	0.0204565
3.8e+08	-0.0113062	0.01634296	-2.678383e-08	8.511931e-08	0.001270649	0.004139201	-9.483269e-08	2.815484e-07
	-2.678383e-08	8.511931e-08	-0.01021151	0.01678144	-1.098606e-08	6.4797e-08	0.001494018	0.004297755
	0.001270649	0.004139201	-1.098606e-08	6.4797e-08	-0.01103795	0.01640834	-2.81003e-08	8.922154e-08
	-9.483269e-08	2.815484e-07	0.001494018	0.004297755	-2.81003e-08	8.922154e-08	-0.01011981	0.01705109
3.9e+08	-0.006402114	0.01150014	2.585426e-10	9.166856e-08	0.001788498	0.006639267	-1.999921e-09	3.039615e-07
	2.585426e-10	9.166856e-08	-0.005771775	0.01174117	3.457739e-09	6.887743e-08	0.00187832	0.006774045
	0.001788498	0.006639267	3.457739e-09	6.887743e-08	-0.006149808	0.01148804	4.542864e-10	9.617079e-08
	-1.999921e-09	3.039615e-07	0.00187832	0.006774045	4.542864e-10	9.617079e-08	-0.005684018	0.01196575
4e+08	-0.003332219	0.005358691	2.856701e-08	8.943831e-08	0.003059123	0.008855174	9.530656e-08	2.960588e-07
	2.856701e-08	8.943831e-08	-0.003222721	0.005560081	1.862652e-08	6.828123e-08	0.003004552	0.009011026
	0.003059123	0.008855174	1.862652e-08	6.828123e-08	-0.003113475	0.005276215	3.035609e-08	9.38461e-08
	9.530656e-08	2.960588e-07	0.003004552	0.009011026	3.035609e-08	9.38461e-08	-0.003155349	0.005743523
4.1e+08	-0.002406904	-0.001443473	5.531385e-08	7.8291e-08	0.004952882	0.01055776	1.872035e-07	2.573292e-07
	5.531385e-08	7.8291e-08	-0.002822733	-0.001111356	3.300121e-08	6.29136e-08	0.004757765	0.01078208
	0.004952882	0.01055776	3.300121e-08	6.29136e-08	-0.002236865	-0.001584623	5.861554e-08	8.210286e-08
	1.872035e-07	2.573292e-07	0.004757765	0.01078208	5.861554e-08	8.210286e-08	-0.002790232	-0.0009599644
4.2e+08	-0.00372204	-0.008204358	7.771218e-08	5.898734e-08	0.007272112	0.01157137	2.639626e-07	1.904757e-07
	7.771218e-08	5.898734e-08	-0.004613473	-0.007575637	4.507619e-08	5.31708e-08	0.006955467	0.01190931
	0.007272112	0.01157137	4.507619e-08	5.31708e-08	-0.00361217	-0.008388697	8.228875e-08	6.17471e-08
	2.639626e-07	1.904757e-07	0.006955467	0.01190931	8.228875e-08	6.17471e-08	-0.004626782	-0.007442897
4.3e+08	-0.00715006	-0.01422822	9.329558e-08	3.314942e-08	0.009772086	0.01179361	3.170526e-07	1.012525e-07
	9.329558e-08	3.314942e-08	-0.00841651	-0.01315866	5.351741e-08	3.992258e-08	0.009367027	0.01228323
	0.009772086	0.01179361	5.351741e-08	3.992258e-08	-0.007107182	-0.01443761	9.87736e-08	3.449434e-08
	3.170526e-07	1.012525e-07	0.009367027	0.01228323	9.87736e-08	3.449434e-08	-0.008481772	-0.01302818
4.4e+08	-0.01235363	-0.01889492	1.001815e-07	3.13905e-09	0.01218751	0.01120693	3.400874e-07	-2.035201e-09
	1.001815e-07	3.13905e-09	-0.01385238	-0.01727738	5.731148e-08	2.444351e-08	0.01173863	0.01187482
	0.01218751	0.01120693	5.731148e-08	2.444351e-08	-0.01237931	-0.01910996	1.060872e-07	2.838618e-09
	3.400874e-07	-2.035201e-09	0.01173863	0.01187482	1.060872e-07	2.838618e-09	-0.01397018	-0.0171315
4.5e+08	-0.01882029	-0.02172129	9.729336e-08	-2.814457e-08	0.01426152	0.009880867	3.295705e-07	-1.093197e-07
	9.729336e-08	-2.814457e-08	-0.02037987	-0.01949779	5.588845e-08	8.296735e-09	0.01382089	0.01073869
	0.01426152	0.009880867	5.588845e-08	8.296735e-09	-0.01891065	-0.02192284	1.030984e-07	-3.016265e-08
	3.295705e-07	-1.093197e-07	0.01382089	0.01073869	1.030984e-07	-3.016265e-08	-0.02054506	-0.01931937
4.6e+08	-0.02591441	-0.02240822	8.449612e-08	-5.754105e-08	0.0157736	0.007964317	2.85285e-07	-2.097266e-07
	8.449612e-08	-5.754105e-08	-0.02735129	-0.0195772	4.920124e-08	-6.815951e-09	0.01539577	0.009006777
	0.0157736	0.007964317	4.920124e-08	-6.815951e-09	-0.02606033	-0.02257886	8.966761e-08	-6.117979e-08
	2.85285e-07	-2.097266e-07	0.01539577	0.009006777	8.966761e-08	-6.117979e-08	-0.02755346	-0.01935156
4.7e+08	-0.03294068	-0.0208688	6.271176e-08	-8.193116e-08	0.01656335	0.005669165	2.106381e-07	-2.927579e-07
	6.271176e-08	-8.193116e-08	-0.03407771	-0.01748695	3.776028e-08	-1.924084e-08	0.01629977	0.006873634
	0.01656335	0.005669165	3.776028e-08	-1.924084e-08	-0.03312847	-0.02099441	6.676769e-08	-8.69294e-08
	2.106381e-07	-2.927579e-07	0.01629977	0.006873634	6.676769e-08	-8.69294e-08	-0.03430214	-0.01720334
