!$
! Info: Touchstone file created by Circ.  Input file=Tx_16in_Rx_93ohms_TxVia_60mils_RxVia_70mils.circ
!$
# Hz S RI R 50
0	0.01461138	1.981889e-25	-8.528697e-05	7.284604e-24	0.0001055574	2.865184e-23	-8.524976e-05	2.817241e-24
	-8.528697e-05	7.284546e-24	0.01460711	2.425654e-25	-8.532165e-05	1.175204e-23	0.0001046967	3.566299e-23
	0.00010469	2.852368e-23	-8.532165e-05	1.175285e-23	0.01462498	2.003477e-25	-8.528377e-05	7.198826e-24
	-8.524976e-05	2.816286e-24	0.0001049661	3.581592e-23	-8.528375e-05	7.197118e-24	0.01462137	2.415259e-25
1e+07	0.02063416	-0.002768588	-0.0003918896	3.730659e-05	0.0007032091	0.002901698	-7.867796e-05	-5.216959e-06
	-0.0003918896	3.730659e-05	0.02104782	-0.00282878	-0.0001980788	0.0001216192	0.0006960301	0.00289315
	0.0007031933	0.002901711	-0.0001980788	0.0001216192	0.02107285	-0.002849294	-0.0003912633	4.08957e-05
	-7.867796e-05	-5.21696e-06	0.0006960332	0.002893147	-0.0003912633	4.08957e-05	0.02062808	-0.002809489
2e+07	0.02282258	-0.01098112	-0.0003363401	-1.768207e-05	0.002004264	0.005540802	-5.037758e-05	-7.844983e-05
	-0.0003363401	-1.768207e-05	0.02304998	-0.01121113	-0.0001850753	0.0001034512	0.001984511	0.005530424
	0.002004271	0.005540811	-0.0001850753	0.0001034512	0.02310483	-0.0112636	-0.0003353462	-2.459719e-05
	-5.037758e-05	-7.844983e-05	0.001984508	0.005530424	-0.0003353462	-2.459718e-05	0.022752	-0.01104611
3e+07	0.02078187	-0.02046738	-0.0003054173	-3.569837e-05	0.00412674	0.007426887	-6.969486e-05	-8.954943e-05
	-0.0003054173	-3.569837e-05	0.02082944	-0.02071128	-0.0001589752	0.0001137144	0.004066241	0.007438017
	0.004126741	0.007426887	-0.0001589752	0.0001137144	0.02092586	-0.02081719	-0.0003037728	-4.454894e-05
	-6.969486e-05	-8.954943e-05	0.004066241	0.007438019	-0.0003037728	-4.454894e-05	0.02061804	-0.02052009
4e+07	0.01539046	-0.02902369	-0.0002830367	-3.631243e-05	0.006731237	0.00845041	-0.0001162139	-6.392691e-05
	-0.0002830367	-3.631243e-05	0.0152703	-0.02920441	-0.0001284675	0.0001152073	0.00664317	0.008493133
	0.006731236	0.008450411	-0.0001284675	0.0001152073	0.01540827	-0.02939022	-0.0002813337	-4.678305e-05
	-0.0001162139	-6.392691e-05	0.006643171	0.008493134	-0.0002813337	-4.678305e-05	0.01512022	-0.02902015
5e+07	0.007472099	-0.03555902	-0.000264328	-3.007923e-05	0.009454448	0.008571433	-0.0001482218	-2.469724e-05
	-0.000264328	-3.007923e-05	0.007212749	-0.03561512	-0.0001016978	0.0001031664	0.009345342	0.008659002
	0.009454446	0.008571433	-0.0001016978	0.0001031664	0.007378745	-0.03590738	-0.0002630125	-4.199035e-05
	-0.0001482218	-2.469724e-05	0.009345343	0.008659002	-0.0002630125	-4.199035e-05	0.007101051	-0.03545154
6e+07	-0.002037914	-0.0394082	-0.0002464168	-2.119372e-05	0.01200286	0.00781285	-0.0001650493	2.299917e-05
	-0.0002464168	-2.119372e-05	-0.002391703	-0.03929374	-8.66032e-05	7.940988e-05	0.01188444	0.007955465
	0.01200286	0.007812849	-8.66032e-05	7.940988e-05	-0.002224026	-0.03971239	-0.0002458452	-3.438214e-05
	-0.0001650493	2.299917e-05	0.01188444	0.007955465	-0.0002458452	-3.438214e-05	-0.002484576	-0.03915391
7e+07	-0.01213638	-0.04026676	-0.0002276669	-1.233455e-05	0.01410731	0.006288837	-0.0001658848	7.4957e-05
	-0.0002276669	-1.233455e-05	-0.01252803	-0.03995486	-8.920343e-05	4.995908e-05	0.01399515	0.006491812
	0.01410731	0.006288836	-8.920343e-05	4.995908e-05	-0.01239395	-0.04050805	-0.0002281161	-2.662107e-05
	-0.0001658848	7.4957e-05	0.01399515	0.006491812	-0.0002281161	-2.662107e-05	-0.0126175	-0.03983512
8e+07	-0.02183218	-0.03816599	-0.0002071702	-5.607389e-06	0.01555185	0.004191734	-0.0001499778	0.0001271104
	-0.0002071702	-5.607388e-06	-0.02219961	-0.03765139	-0.0001123009	2.337819e-05	0.01546347	0.004454167
	0.01555185	0.004191733	-0.0001123009	2.337819e-05	-0.02213796	-0.03833242	-0.0002088236	-2.079711e-05
	-0.0001499778	0.0001271104	0.01546347	0.004454167	-0.0002088236	-2.079711e-05	-0.02229648	-0.03754385
9e+07	-0.03022983	-0.03343834	-0.0001839523	-2.833536e-06	0.01619549	0.0017699	-0.0001163229	0.0001750917
	-0.0001839523	-2.833536e-06	-0.03051227	-0.03273793	-0.00015507	8.891685e-06	0.01614792	0.002084166
	0.01619549	0.0017699	-0.00015507	8.891685e-06	-0.03055939	-0.03352445	-0.0001890259	-4.620761e-06
	-0.0001163229	0.0001750917	0.01614792	0.002084166	-0.0001890259	-4.620763e-06	-0.03062279	-0.03263269
1e+08	-0.03658744	-0.02666502	-0.0001508427	4.001024e-05	0.01598377	-0.0007002453	-5.906218e-05	0.000212831
	-0.0001508427	4.001024e-05	-0.03672909	-0.02581635	-0.0002166534	1.427777e-05	0.01599155	-0.00034816
	0.01598377	-0.0007002453	-0.0002166534	1.427777e-05	-0.03691286	-0.02667161	-0.000154262	5.705401e-05
	-5.906218e-05	0.000212831	0.01599155	-0.0003481601	-0.000154262	5.705401e-05	-0.03685856	-0.02570335
1.1e+08	-0.04048123	-0.0187024	-0.0001124487	5.726001e-05	0.01495596	-0.002934308	1.909546e-06	0.0002109706
	-0.0001124487	5.726001e-05	-0.04045255	-0.01777706	-0.0002829954	2.770294e-05	0.01502696	-0.002565537
	0.01495596	-0.002934308	-0.0002829954	2.770294e-05	-0.04078787	-0.01865336	-0.0001114025	7.413788e-05
	1.909546e-06	0.0002109706	0.01502696	-0.002565537	-0.0001114025	7.413788e-05	-0.04059164	-0.01763195
1.2e+08	-0.04173887	-0.01026787	-8.610149e-05	6.700748e-05	0.01324297	-0.004691788	4.992703e-05	0.0001988521
	-8.610149e-05	6.700748e-05	-0.04153948	-0.009323676	-0.0003384399	6.78744e-05	0.01337707	-0.004327643
	0.01324297	-0.004691788	-0.0003384399	6.78744e-05	-0.04202337	-0.01016783	-8.139363e-05	8.295591e-05
	4.992703e-05	0.0001988521	0.01337707	-0.004327642	-8.139363e-05	8.295591e-05	-0.04166864	-0.009147008
1.3e+08	-0.04036694	-0.002209581	-6.457633e-05	7.196984e-05	0.01103666	-0.005783161	9.048233e-05	0.0001788054
	-6.457633e-05	7.196984e-05	-0.04001079	-0.00130511	-0.000378969	0.0001310157	0.01122678	-0.005445019
	0.01103666	-0.005783161	-0.000378969	0.0001310157	-0.04062089	-0.002064638	-5.66909e-05	8.635324e-05
	9.048233e-05	0.0001788054	0.01122677	-0.005445018	-5.66909e-05	8.635324e-05	-0.04011757	-0.001103056
1.4e+08	-0.03665746	0.004687079	-4.667228e-05	7.383046e-05	0.008578645	-0.006090157	0.0001207227	0.0001549086
	-4.667228e-05	7.383046e-05	-0.03617757	0.005498592	-0.0003982892	0.0002106111	0.00881029	-0.005796825
	0.008578645	-0.006090157	-0.0003982892	0.0002106111	-0.03687263	0.004868335	-3.611441e-05	8.610798e-05
	0.0001207227	0.0001549086	0.008810289	-0.005796824	-3.611441e-05	8.610798e-05	-0.03625382	0.005716269
1.5e+08	-0.03112929	0.009778749	-3.155711e-05	7.383697e-05	0.006134272	-0.005577486	0.0001355415	0.0001368534
	-3.155711e-05	7.383697e-05	-0.03057635	0.01045626	-0.0003926191	0.0002982166	0.006386512	-0.00534257
	0.006134272	-0.005577486	-0.0003926191	0.0002982166	-0.03129926	0.009985358	-1.889424e-05	8.357357e-05
	0.0001355415	0.0001368534	0.006386511	-0.00534257	-1.889424e-05	8.357357e-05	-0.03061844	0.01067774
1.6e+08	-0.02446824	0.01262383	-1.859688e-05	7.294108e-05	0.003965475	-0.004295824	0.000148599	0.000117013
	-1.859688e-05	7.294108e-05	-0.02390621	0.01314455	-0.0003615532	0.0003848703	0.004212845	-0.004125523
	0.003965475	-0.004295824	-0.0003615532	0.0003848703	-0.02458936	0.01284304	-4.452476e-06	7.983343e-05
	0.000148599	0.000117013	0.004212845	-0.004125522	-4.452476e-06	7.983343e-05	-0.02391522	0.0133575
1.7e+08	-0.01745432	0.0130211	-6.919482e-06	7.161658e-05	0.002304033	-0.002376435	0.0001593872	9.564086e-05
	-6.919482e-06	7.161658e-05	-0.01695395	0.01338482	-0.0003079564	0.0004625915	0.0025192	-0.002268076
	0.002304033	-0.002376435	-0.0003079564	0.0004625915	-0.01752644	0.01323927	8.0512e-06	7.550552e-05
	0.0001593872	9.564086e-05	0.0025192	-0.002268076	8.0512e-06	7.550552e-05	-0.0169354	0.01357801
1.8e+08	-0.01088178	0.01102431	4.266165e-06	6.986565e-05	0.001327572	-1.77691e-05	0.0001675432	7.30785e-05
	4.266165e-06	6.986565e-05	-0.01051271	0.01125534	-0.000237145	0.0005256108	0.001484439	4.067735e-05
	0.001327572	-1.776909e-05	-0.000237145	0.0005256108	-0.01090858	0.01122796	1.941076e-05	7.074267e-05
	0.0001675432	7.30785e-05	0.001484439	4.067761e-05	1.941076e-05	7.074267e-05	-0.0104759	0.01142004
1.9e+08	-0.005479355	0.006931535	1.549762e-05	6.730002e-05	0.001140679	0.002534967	0.0001728221	4.972393e-05
	1.549762e-05	6.730002e-05	-0.005301655	0.007077848	-0.0001556156	0.0005710702	0.00121758	0.002564291
	0.001140679	0.002534967	-0.0001556156	0.0005710702	-0.005468266	0.007108522	3.02052e-05	6.530071e-05
	0.0001728221	4.972393e-05	0.00121758	0.002564291	3.02052e-05	6.530071e-05	-0.005258582	0.007208922
2e+08	-0.001838064	0.001250498	2.692407e-05	6.330443e-05	0.001763273	0.005015555	0.0001750832	2.600402e-05
	2.692407e-05	6.330443e-05	-0.001894312	0.001379941	-6.962652e-05	0.0005990576	0.001745886	0.005043625
	0.001763274	0.005015555	-6.962652e-05	0.0005990576	-0.001799854	0.001391189	4.066074e-05	5.868803e-05
	0.0001750832	2.600402e-05	0.001745886	0.005043625	4.066074e-05	5.868803e-05	-0.001858302	0.001476612
2.1e+08	-0.0003538162	-0.005356606	3.825466e-05	5.725101e-05	0.003127845	0.007165307	0.0001742778	2.353496e-06
	3.825466e-05	5.725101e-05	-0.0006626628	-0.005162753	1.604709e-05	0.0006119971	0.003011454	0.007224439
	0.003127845	0.007165307	1.604709e-05	0.0006119971	-0.0003017711	-0.005258382	5.059009e-05	5.036857e-05
	0.0001742778	2.353496e-06	0.003011454	0.007224439	5.059009e-05	5.036857e-05	-0.0006468207	-0.005096685
2.2e+08	-0.001190524	-0.01214325	4.881106e-05	4.871873e-05	0.00508628	0.008761328	0.0001704364	-2.080223e-05
	4.881106e-05	4.871873e-05	-0.001742641	-0.01179875	9.890175e-05	0.0006135544	0.004877093	0.008884942
	0.00508628	0.008761328	9.890175e-05	0.0006135544	-0.001139338	-0.0120895	5.943145e-05	3.997447e-05
	0.0001704364	-2.080223e-05	0.004877093	0.008884942	5.943145e-05	3.997447e-05	-0.001758308	-0.0117552
2.3e+08	-0.00426738	-0.01835627	5.767782e-05	3.766413e-05	0.00742584	0.009641165	0.0001636563	-4.305825e-05
	5.767782e-05	3.766413e-05	-0.005024427	-0.01777958	0.0001788711	0.0006073324	0.007141142	0.009860083
	0.00742584	0.009641165	0.0001788711	0.0006073324	-0.004231841	-0.01834449	6.638361e-05	2.747661e-05
	0.0001636563	-4.305825e-05	0.007141142	0.009860083	6.638361e-05	2.747661e-05	-0.005079812	-0.01774696
2.4e+08	-0.009271354	-0.02331296	6.391594e-05	2.449972e-05	0.009892619	0.009720804	0.0001540906	-6.403532e-05
	6.391594e-05	2.449972e-05	-0.01016828	-0.02243696	0.0002578691	0.0005956627	0.009559671	0.01005957
	0.009892619	0.009720804	0.0002578691	0.0005956627	-0.009264965	-0.02333626	7.060574e-05	1.32693e-05
	0.0001540906	-6.403532e-05	0.009559671	0.01005957	7.060574e-05	1.32693e-05	-0.01026742	-0.02240141
2.5e+08	-0.0156932	-0.02646966	6.679049e-05	1.006237e-05	0.01221973	0.009003741	0.000141939	-8.338383e-05
	6.679049e-05	1.006237e-05	-0.01664376	-0.0252503	0.0003387745	0.0005788207	0.01187345	0.009477415
	0.01221973	0.009003741	0.0003387745	0.0005788207	-0.01572685	-0.02651726	7.143545e-05	-1.84977e-06
	0.000141939	-8.338383e-05	0.01187345	0.009477415	7.143545e-05	-1.84977e-06	-0.01678598	-0.02519717
2.6e+08	-0.02288271	-0.02747468	6.580467e-05	-4.424611e-06	0.0141568	0.007580039	0.0001274435	-0.000100784
	6.580467e-05	-4.424611e-06	-0.02378785	-0.02589761	0.0004350719	0.0005369758	0.01383641	0.008191834
	0.0141568	0.007580039	0.0004350719	0.0005369758	-0.02296364	-0.02753293	6.841715e-05	-1.67065e-05
	0.0001274435	-0.000100784	0.01383641	0.008191834	6.841715e-05	-1.67065e-05	-0.02396762	-0.02581303
2.7e+08	-0.03011711	-0.02620082	6.124479e-05	-1.779692e-05	0.0154972	0.00561564	0.0001108845	-0.0001159487
	6.124479e-05	-1.779692e-05	-0.03087517	-0.02428474	0.0005324251	0.0004781041	0.01524219	0.006355761
	0.0154972	0.00561564	0.0005324251	0.0004781041	-0.03024807	-0.02625431	6.185667e-05	-3.017262e-05
	0.0001108845	-0.0001159487	0.01524219	0.006355761	6.185667e-05	-3.017262e-05	-0.03108269	-0.02415729
2.8e+08	-0.03667521	-0.0227545	5.375493e-05	-2.901101e-05	0.01609995	0.00333346	9.257924e-05	-0.000128629
	5.375493e-05	-2.901101e-05	-0.03719299	-0.02055121	0.0006269377	0.0004015767	0.0159457	0.004179335
	0.01609995	0.00333346	0.0006269377	0.0004015767	-0.03685411	-0.02278754	5.240103e-05	-4.122565e-05
	9.257924e-05	-0.000128629	0.0159457	0.004179335	5.240103e-05	-4.122565e-05	-0.03741518	-0.02037317
2.9e+08	-0.0419097	-0.01746152	4.431246e-05	-3.735382e-05	0.01590388	0.000988728	7.287757e-05	-0.0001386182
	4.431246e-05	-3.735382e-05	-0.04211328	-0.01505221	0.0007146429	0.0003043561	0.01587754	0.001906692
	0.01590388	0.000988728	0.0007146429	0.0003043561	-0.04212971	-0.01745964	4.102762e-05	-4.915275e-05
	7.287757e-05	-0.0001386182	0.01587754	0.001906692	4.102762e-05	-4.915275e-05	-0.04233511	-0.01482042
3e+08	-0.04531076	-0.01083148	3.406387e-05	-4.257505e-05	0.01493298	-0.001158471	5.215618e-05	-0.0001457574
	3.406387e-05	-4.257505e-05	-0.0451546	-0.008319538	0.000789484	0.0001849179	0.01505	-0.0002101439
	0.01493298	-0.001158471	0.000789484	0.0001849179	-0.04556085	-0.01078284	2.889384e-05	-5.36855e-05
	5.215618e-05	-0.0001457574	0.01505	-0.0002101439	2.889384e-05	-5.36855e-05	-0.04536072	-0.008035881
3.1e+08	-0.04655493	-0.003504971	2.410362e-05	-4.49051e-05	0.0132928	-0.002870431	3.081217e-05	-0.00014994
	2.410362e-05	-4.49051e-05	-0.04602843	-0.001006016	0.0008441416	4.422386e-05	0.01355459	-0.001937438
	0.0132928	-0.002870431	0.0008441416	4.422386e-05	-0.04682082	-0.003401537	1.712599e-05	-5.502714e-05
	3.081217e-05	-0.00014994	0.01355459	-0.001937438	1.712599e-05	-5.502714e-05	-0.04620477	-0.0006772258
3.2e+08	-0.04553512	0.003811112	1.527346e-05	-4.497258e-05	0.01115857	-0.00395613	9.254654e-06	-0.0001511141
	1.527346e-05	-4.497258e-05	-0.04466561	0.006181001	0.0008712411	-0.00011376	0.01155161	-0.003083408
	0.01115857	-0.00395613	0.0008712411	-0.00011376	-0.0458006	0.003972699	6.622974e-06	-5.378361e-05
	9.254654e-06	-0.0001511141	0.01155161	-0.003083408	6.622974e-06	-5.378361e-05	-0.04480093	0.006543959
3.3e+08	-0.0423694	0.01041371	8.022515e-06	-4.364318e-05	0.008756717	-0.004290432	-1.210241e-05	-0.0001492822
	8.022515e-06	-4.364318e-05	-0.04122124	0.01255043	0.0008646906	-0.0002821497	0.009253242	-0.003517276
	0.008756717	-0.004290432	0.0008646906	-0.0002821497	-0.04261776	0.01063172	-2.08652e-06	-5.08168e-05
	-1.210241e-05	-0.0001492822	0.009253242	-0.003517276	-2.08652e-06	-5.08168e-05	-0.04130833	0.01293346
3.4e+08	-0.03738794	0.01567276	2.355065e-06	-4.181549e-05	0.006341545	-0.003826564	-3.28461e-05	-0.0001445025
	2.355065e-06	-4.181549e-05	-0.03605755	0.01749588	0.000820865	-0.0004518214	0.006901813	-0.003182149
	0.006341545	-0.003826564	0.000820865	-0.0004518214	-0.0376036	0.01594037	-8.906131e-06	-4.70523e-05
	-3.28461e-05	-0.0001445025	0.006901813	-0.003182149	-8.906131e-06	-4.70523e-05	-0.03609406	0.0178832
3.5e+08	-0.03109963	0.01909277	-2.12415e-06	-4.021805e-05	0.004169307	-0.002600888	-5.257025e-05	-0.0001368884
	-2.12415e-06	-4.021805e-05	-0.0297069	0.02055533	0.0007393974	-0.0006125413	0.00474527	-0.002100684
	0.004169307	-0.002600888	0.0007393974	-0.0006125413	-0.03126963	0.01939862	-1.414155e-05	-4.32826e-05
	-5.257025e-05	-0.0001368884	0.00474527	-0.002100684	-1.414155e-05	-4.32826e-05	-0.02969567	0.02093112
3.6e+08	-0.02414153	0.02036132	-6.079057e-06	-3.924929e-05	0.002472018	-0.0007295414	-7.088178e-05	-0.0001266111
	-6.079057e-06	-3.924929e-05	-0.02281824	0.02145647	0.0006234085	-0.0007543437	0.003012013	-0.0003730487
	0.002472018	-0.0007295414	0.0006234085	-0.0007543437	-0.02425686	0.02069042	-1.838671e-05	-4.000561e-05
	-7.088178e-05	-0.0001266111	0.003012013	-0.0003730487	-1.838671e-05	-4.000561e-05	-0.0227671	0.0218065
3.7e+08	-0.01721578	0.01937961	-1.02527e-05	-3.889498e-05	0.001433356	0.001602861	-8.740924e-05	-0.0001139007
	-1.02527e-05	-3.889498e-05	-0.01609229	0.02014331	0.0004791302	-0.0008688765	0.001887378	0.001832786
	0.001433356	0.001602861	0.0004791302	-0.0008688765	-0.01727236	0.0197147	-2.234958e-05	-3.733281e-05
	-8.740924e-05	-0.0001139007	0.001887378	0.001832786	-2.234958e-05	-3.733281e-05	-0.01601331	0.0204565
3.8e+08	-0.01102012	0.01627208	-1.526001e-05	-3.874177e-05	0.001169008	0.004161657	-0.0001018141	-9.904636e-05
	-1.526001e-05	-3.874177e-05	-0.01021151	0.01678144	0.0003149928	-0.0009504529	0.001494018	0.004297755
	0.001169008	0.004161657	0.0003149928	-0.0009504529	-0.01101936	0.01659523	-2.665498e-05	-3.498691e-05
	-0.0001018141	-9.904636e-05	0.001494018	0.004297755	-2.665498e-05	-3.498691e-05	-0.01011981	0.01705109
3.9e+08	-0.006178591	0.01137411	-2.140867e-05	-3.808637e-05	0.001713595	0.006686153	-0.000113804	-8.23932e-05
	-2.140867e-05	-3.808637e-05	-0.005771775	0.01174117	0.000140365	-0.0009966043	0.00187832	0.006774045
	0.001713595	0.006686153	0.000140365	-0.0009966043	-0.006127415	0.01166843	-3.166757e-05	-3.239163e-05
	-0.000113804	-8.23932e-05	0.00187832	0.006774045	-3.166757e-05	-3.239163e-05	-0.005684018	0.01196575
4e+08	-0.003179438	0.00519847	-2.859026e-05	-3.611849e-05	0.003015847	0.008917006	-0.0001231455	-6.433345e-05
	-2.859026e-05	-3.611849e-05	-0.003222721	0.005560081	-3.579387e-05	-0.001008033	0.003004552	0.009011026
	0.003015847	0.008917006	-3.579387e-05	-0.001008033	-0.003089809	0.00544982	-3.73762e-05	-2.883579e-05
	-0.0001231455	-6.433345e-05	0.003004552	0.009011026	-3.73762e-05	-2.883579e-05	-0.003155349	0.005743523
4.1e+08	-0.002326534	-0.001615933	-3.627023e-05	-3.213676e-05	0.004942941	0.01062413	-0.000129675	-4.529391e-05
	-3.627023e-05	-3.213676e-05	-0.002822733	-0.001111356	-0.0002060933	-0.0009879948	0.004757765	0.01078208
	0.004942941	0.01062413	-0.0002060933	-0.0009879948	-0.002214397	-0.00141744	-4.336921e-05	-2.367496e-05
	-0.000129675	-4.529391e-05	0.004757765	0.01078208	-4.336921e-05	-2.367496e-05	-0.002790232	-0.0009599644
4.2e+08	-0.003709347	-0.008368079	-4.358264e-05	-2.574698e-05	0.007293942	0.011632	-0.000133304	-2.572022e-05
	-4.358264e-05	-2.574698e-05	-0.004613473	-0.007575637	-0.0003654487	-0.0009412616	0.006955467	0.01190931
	0.007293942	0.011632	-0.0003654487	-0.0009412616	-0.003593161	-0.008226988	-4.89094e-05	-1.65232e-05
	-0.000133304	-2.572022e-05	0.006955467	0.01190931	-4.89094e-05	-1.65232e-05	-0.004626782	-0.007442897
4.3e+08	-0.007194597	-0.01436501	-4.951048e-05	-1.699389e-05	0.009821083	0.01183934	-0.000134021	-6.060392e-06
	-4.951048e-05	-1.699389e-05	-0.00841651	-0.01315866	-0.000511255	-0.0008729091	0.009367027	0.01228323
	0.009821083	0.01183934	-0.000511255	-0.0008729091	-0.007093559	-0.01427992	-5.309364e-05	-7.387968e-06
	-0.000134021	-6.060392e-06	0.009367027	0.01228323	-5.309364e-05	-7.387968e-06	-0.008481772	-0.01302818
4.4e+08	-0.01244042	-0.01899091	-5.310938e-05	-6.392044e-06	0.01225658	0.01123062	-0.0001318872	1.325015e-05
	-5.310938e-05	-6.392044e-06	-0.01385238	-0.01727738	-0.0006429928	-0.0007872058	0.01173863	0.01187482
	0.01225658	0.01123062	-0.0006429928	-0.0007872058	-0.01237256	-0.01895444	-5.505946e-05	3.28715e-06
	-0.0001318872	1.325015e-05	0.01173863	0.01187482	-5.505946e-05	3.28715e-06	-0.01397018	-0.0171315
4.5e+08	-0.01893141	-0.02176791	-5.372128e-05	5.153352e-06	0.01434182	0.009878	-0.0001270307	3.180141e-05
	-5.372128e-05	5.153352e-06	-0.02037987	-0.01949779	-0.0007613821	-0.0006868533	0.01382089	0.01073869
	0.01434182	0.009878	-0.0007613821	-0.0006868533	-0.01891175	-0.02176733	-5.418897e-05	1.468317e-05
	-0.0001270307	3.180141e-05	0.01382089	0.01073869	-5.418897e-05	1.468317e-05	-0.02054506	-0.01931937
4.6e+08	-0.0260307	-0.02240273	-5.112566e-05	1.651729e-05	0.01585553	0.007933393	-0.0001196373	4.921883e-05
	-5.112566e-05	1.651729e-05	-0.02735129	-0.0195772	-0.0008673084	-0.0005727386	0.01539577	0.009006777
	0.01585553	0.007933393	-0.0008673084	-0.0005727386	-0.02606969	-0.02242108	-5.0259e-05	2.575565e-05
	-0.0001196373	4.921883e-05	0.01539577	0.009006777	-5.0259e-05	2.575565e-05	-0.02755346	-0.01935156
4.7e+08	-0.0330436	-0.02081432	-4.559388e-05	2.65763e-05	0.01663746	0.005611735	-0.0001099421	6.51714e-05
	-4.559388e-05	2.65763e-05	-0.03407771	-0.01748695	-0.0009607847	-0.0004442408	0.01629977	0.006873634
	0.01663746	0.005611735	-0.0009607847	-0.0004442408	-0.03314593	-0.02083205	-4.350749e-05	3.543906e-05
