!$
! Info: Touchstone file created by Circ.  Input file=Tx_14in_Rx_93ohms_TxVia_60mils_RxVia_70mils.circ
!$
# Hz S RI R 50
0	0.01282839	1.997534e-25	0.9870312	-1.954435e-25	9.762388e-05	2.803158e-23	-9.297255e-05	2.264415e-21
	0.9870311	-1.975993e-25	0.01282372	2.16818e-25	-9.345083e-05	2.323063e-21	9.439746e-05	3.128951e-23
	9.884938e-05	2.72347e-23	-9.276444e-05	2.238996e-21	0.01283887	1.980874e-25	0.9870097	-1.906602e-25
	-9.324043e-05	2.297212e-21	9.466687e-05	3.142368e-23	0.9870097	-1.996651e-25	0.01283803	2.158828e-25
1e+07	0.01857815	-0.002073453	0.9698049	-0.146063	0.0005718074	0.002584033	-0.0001845243	-8.463841e-05
	0.9698049	-0.146063	0.01856623	-0.002072722	-0.0001846243	-8.457273e-05	0.0005670536	0.002585697
	0.000571878	0.002584	-0.0001845923	-8.459469e-05	0.01821129	-0.002063779	0.9701552	-0.146194
	-0.0001844923	-8.466039e-05	0.0005670565	0.002585695	0.9701552	-0.146194	0.01819831	-0.002062517
2e+07	0.02080305	-0.009015282	0.9341118	-0.2832922	0.001592019	0.004998129	-0.0001013336	-0.0002499741
	0.9341118	-0.2832922	0.02075639	-0.00900515	-0.0001013577	-0.0002498753	0.001574057	0.005005745
	0.001592004	0.004998092	-0.0001013677	-0.0002498934	0.02054074	-0.008880293	0.9343074	-0.2836639
	-0.0001013317	-0.0002500107	0.001574054	0.005005745	0.9343074	-0.2836639	0.02048988	-0.008868387
3e+07	0.01971143	-0.01720149	0.8807671	-0.4122495	0.003288313	0.006869246	-9.475247e-05	-0.000329611
	0.8807671	-0.4122495	0.01961207	-0.01716263	-9.479974e-05	-0.000329533	0.003251104	0.006890263
	0.00328831	0.006869246	-9.480137e-05	-0.0003295324	0.01952602	-0.01704579	0.8808028	-0.4127435
	-9.475533e-05	-0.0003296142	0.003251103	0.006890265	0.8808028	-0.4127435	0.01941797	-0.01700198
4e+07	0.01593514	-0.02495962	0.8105455	-0.5315132	0.005457541	0.008106341	-0.0001399537	-0.0003926943
	0.8105455	-0.5315132	0.01577388	-0.02486639	-0.0001400273	-0.0003925537	0.005398442	0.008150412
	0.005457546	0.00810634	-0.0001400237	-0.0003925543	0.01580708	-0.02481361	0.8104107	-0.532078
	-0.0001399445	-0.0003926911	0.005398443	0.008150413	0.8104107	-0.532078	0.01563189	-0.02471015
5e+07	0.009995273	-0.0314597	0.724837	-0.6390792	0.007832797	0.008661475	-0.0001861364	-0.0004885327
	0.724837	-0.6390792	0.009773858	-0.0312831	-0.0001861762	-0.0004882976	0.007753289	0.008739073
	0.0078328	0.008661474	-0.0001861743	-0.0004882989	0.00990578	-0.03133862	0.724525	-0.6396711
	-0.0001861303	-0.0004885338	0.00775329	0.008739074	0.724525	-0.6396711	0.009665388	-0.03114382
6e+07	0.002474179	-0.03614641	0.6254034	-0.7330463	0.01021295	0.008513272	-0.0002669216	-0.0006178057
	0.6254034	-0.7330463	0.002206159	-0.03585892	-0.0002668708	-0.0006174901	0.01011865	0.008634082
	0.01021295	0.008513274	-0.000266871	-0.0006174893	0.002405429	-0.03605677	0.6249132	-0.7336235
	-0.0002669265	-0.0006178032	0.01011865	0.008634082	0.6249132	-0.7336235	0.002114834	-0.03574069
7e+07	-0.005985314	-0.03868018	0.5142895	-0.8117472	0.01239922	0.007697207	-0.0004102798	-0.0007631581
	0.5142895	-0.8117472	-0.006276096	-0.03826013	-0.0004101008	-0.0007627965	0.01229941	0.007868695
	0.01239922	0.007697213	-0.0004101011	-0.0007627932	-0.006049445	-0.03862228	0.5136269	-0.8122696
	-0.0004102911	-0.0007631451	0.01229941	0.007868695	0.5136269	-0.8122696	-0.006364109	-0.03816153
8e+07	-0.0147131	-0.03892326	0.393759	-0.8738109	0.01421228	0.006302827	-0.0006326678	-0.0008944042
	0.393759	-0.8738109	-0.01499519	-0.03835807	-0.0006323389	-0.0008940383	0.01411899	0.006529026
	0.01421228	0.006302834	-0.0006323382	-0.000894034	-0.01478635	-0.03889273	0.3929372	-0.8742404
	-0.0006326768	-0.0008943831	0.01411899	0.006529026	0.3929372	-0.8742404	-0.01509083	-0.03827382
9e+07	-0.02305265	-0.03692858	0.266232	-0.9181965	0.01550688	0.004465644	-0.0009351513	-0.0009748922
	0.266232	-0.9181965	-0.02329035	-0.03621694	-0.0009346639	-0.0009745677	0.01543366	0.004746286
	0.01550688	0.004465649	-0.0009346626	-0.0009745646	-0.02314616	-0.03691772	0.2652721	-0.9184979
	-0.0009351537	-0.0009748742	0.01543366	0.004746286	0.2652721	-0.9184979	-0.02340166	-0.03613935
1e+08	-0.03038353	-0.0329192	0.1341963	-0.9442125	0.01618271	0.002354539	-0.001301454	-0.0009681598
	0.1341963	-0.9442125	-0.03054073	-0.03207222	-0.001300813	-0.0009679237	0.01614309	0.002684617
	0.01618271	0.002354539	-0.001300813	-0.0009679238	-0.03050869	-0.03291869	0.1331324	-0.9443546
	-0.001301454	-0.0009681599	0.01614309	0.002684617	0.1331324	-0.9443546	-0.03067596	-0.031993
1.1e+08	-0.03626047	-0.0273965	0.0003118064	-0.9513215	0.01619166	0.0001637155	-0.00170167	-0.0008511717
	0.0003118064	-0.9513215	-0.03630415	-0.02643805	-0.001700926	-0.0008511129	0.0161975	0.0005334853
	0.01619166	0.0001637155	-0.001700926	-0.0008511128	-0.03641803	-0.02737809	-0.0008264059	-0.9513066
	-0.00170167	-0.0008511716	0.0161975	0.0005334855	-0.0008264059	-0.9513066	-0.036461	-0.02633137
1.2e+08	-0.04040501	-0.02070735	-0.1326968	-0.9397296	0.01554858	-0.001915579	-0.002101386	-0.0006050607
	-0.1326968	-0.9397296	-0.04031048	-0.01967179	-0.002100611	-0.0006052114	0.0156085	-0.001519806
	0.01554858	-0.001915579	-0.002100611	-0.0006052114	-0.04058024	-0.02066229	-0.1338945	-0.9395395
	-0.002101385	-0.0006050606	0.0156085	-0.001519805	-0.1338945	-0.9395395	-0.04047214	-0.01953221
1.3e+08	-0.04255762	-0.01338281	-0.2623358	-0.9098341	0.01431598	-0.003704975	-0.002455013	-0.0002278626
	-0.2623358	-0.9098341	-0.04231139	-0.01231289	-0.002454289	-0.0002282216	0.01443415	-0.003299776
	0.01431598	-0.003704975	-0.002454289	-0.0002282216	-0.04273931	-0.01330712	-0.2635678	-0.9094521
	-0.002455012	-0.0002278626	0.01443415	-0.003299775	-0.2635678	-0.9094521	-0.04246563	-0.01214039
1.4e+08	-0.04264552	-0.005996706	-0.3861644	-0.8623481	0.01260375	-0.005051619	-0.002719262	0.0002650508
	-0.3861644	-0.8623481	-0.04224791	-0.00493968	-0.002718664	0.0002645204	0.01277898	-0.004654971
	0.01260375	-0.005051619	-0.002718664	0.0002645203	-0.04282305	-0.005889721	-0.3874006	-0.8617615
	-0.002719262	0.0002650507	0.01277898	-0.00465497	-0.3874006	-0.8617615	-0.04238444	-0.004737944
1.5e+08	-0.04075988	0.0008876657	-0.501864	-0.7982944	0.01055936	-0.005840441	-0.002858797	0.0008435609
	-0.501864	-0.7982944	-0.04022637	0.001884518	-0.002858376	0.0008429256	0.0107847	-0.005469978
	0.01055936	-0.005840441	-0.002858375	0.0008429255	-0.04092349	0.001023614	-0.5030711	-0.7974954
	-0.002858796	0.0008435607	0.0107847	-0.005469978	-0.5030711	-0.7974954	-0.0403371	0.00210892
1.6e+08	-0.03714166	0.006760722	-0.6072767	-0.718988	0.008355714	-0.006002725	-0.002851059	0.001467097
	-0.6072767	-0.718988	-0.03650276	0.007654948	-0.002850832	0.001466441	0.008618648	-0.005673904
	0.008355714	-0.006002724	-0.002850832	0.00146644	-0.03728298	0.006920657	-0.6084192	-0.7179742
	-0.002851059	0.001467096	0.008618647	-0.005673904	-0.6084192	-0.7179742	-0.03658234	0.007893319
1.7e+08	-0.03215887	0.01120397	-0.7004401	-0.6260143	0.006177372	-0.005521091	-0.00268901	0.002090378
	-0.7004401	-0.6260143	-0.03145842	0.01196264	-0.002688955	0.002089785	0.006460533	-0.005245453
	0.006177372	-0.00552109	-0.002688955	0.002089785	-0.03227143	0.01138074	-0.7014814	-0.6247892
	-0.00268901	0.002090377	0.006460533	-0.005245452	-0.7014814	-0.6247892	-0.0315046	0.01220505
1.8e+08	-0.02627556	0.01391965	-0.7796197	-0.521205	0.004205961	-0.004430626	-0.002381372	0.002669647
	-0.7796197	-0.521205	-0.02556764	0.01452346	-0.002381428	0.002669182	0.004488418	-0.004214322
	0.004205961	-0.004430626	-0.002381428	0.002669182	-0.02635527	0.01410452	-0.7805229	-0.519778
	-0.002381372	0.002669646	0.004488418	-0.004214322	-0.7805229	-0.519778	-0.02558142	0.01475972
1.9e+08	-0.02001459	0.01475092	-0.84334	-0.4066096	0.002605772	-0.002816077	-0.001950415	0.003168365
	-0.84334	-0.4066096	-0.01935925	0.01519723	-0.001950495	0.003168061	0.002864732	-0.00265882
	0.002605772	-0.002816077	-0.001950495	0.00316806	-0.02006007	0.01493429	-0.8440688	-0.4049964
	-0.001950415	0.003168365	0.002864732	-0.00265882	-0.8440688	-0.4049964	-0.01934476	0.01541784
2e+08	-0.01391677	0.0136913	-0.8904134	-0.2844632	0.001510548	-0.0008052013	-0.001427741	0.003561443
	-0.8904134	-0.2844632	-0.01337476	0.01399587	-0.001427749	0.003561284	0.001723348	-0.0006997611
	0.001510548	-0.0008052013	-0.001427749	0.003561284	-0.01392946	0.01386345	-0.8909333	-0.2826856
	-0.001427741	0.003561443	0.001723348	-0.000699761	-0.8909333	-0.2826856	-0.01333897	0.01419291
2.1e+08	-0.008499093	0.01088275	-0.9199664	-0.1571488	0.001012465	0.001441343	-0.0008488404	0.003837344
	-0.9199664	-0.1571488	-0.008126307	0.01107975	-0.0008486939	0.003837271	0.001158686	0.001509032
	0.001012465	0.001441343	-0.0008486939	0.003837271	-0.008483231	0.01103465	-0.9202455	-0.1552347
	-0.0008488404	0.003837344	0.001158686	0.001509032	-0.9202455	-0.1552347	-0.008078376	0.01124767
2.2e+08	-0.004215316	0.006602525	-0.9314619	-0.02715447	0.001154254	0.003742954	-0.0002474121	0.003997781
	-0.9314619	-0.02715447	-0.004057162	0.0067429	-0.0002470615	0.003997696	0.001217761	0.003793044
	0.001154254	0.003742954	-0.0002470616	0.003997696	-0.004177608	0.006726577	-0.9314721	-0.02513747
	-0.0002474122	0.003997781	0.001217761	0.003793044	-0.9314721	-0.02513747	-0.004007674	0.006879079
2.3e+08	-0.001421696	0.001239816	-0.924715	0.1029739	0.001925248	0.005913946	0.0003495475	0.004055131
	-0.924715	0.1029739	-0.001508136	0.001387955	0.0003501029	0.004054916	0.001895978	0.005971328
	0.001925248	0.005913946	0.0003501029	0.004054916	-0.001370864	0.001330522	-0.924433	0.105055
	0.0003495475	0.004055131	0.001895978	0.005971328	-0.924433	0.105055	-0.00146818	0.001493008
2.4e+08	-0.0003506087	-0.004736008	-0.8999025	0.2306847	0.003261862	0.00777913	0.0009250261	0.004028137
	-0.8999025	0.2306847	-0.000692271	-0.00450709	0.0009257314	0.004027676	0.003137176	0.00787157
	0.003261862	0.00777913	0.0009257314	0.004027676	-0.0002967384	-0.004681546	-0.8993104	0.2327862
	0.0009250261	0.004028137	0.003137176	0.00787157	-0.8993104	0.2327862	-0.000672455	-0.004429264
2.5e+08	-0.001094055	-0.01081312	-0.8575623	0.3534742	0.005052646	0.009188757	0.001473085	0.003936725
	-0.8575623	0.3534742	-0.001679858	-0.01042768	0.001473834	0.00393593	0.00483811	0.009344656
	0.005052646	0.009188757	0.001473834	0.00393593	-0.001047821	-0.01079489	-0.8566491	0.3555486
	0.001473085	0.003936725	0.00483811	0.009344656	-0.8566491	0.3555486	-0.001689351	-0.01037015
2.6e+08	-0.003598306	-0.01647789	-0.7985848	0.468941	0.007147584	0.01003143	0.001997621	0.00379697
	-0.7985848	0.468941	-0.004394908	-0.01586397	0.001998268	0.003795802	0.006857068	0.01027739
	0.007147584	0.01003143	0.001998268	0.003795802	-0.003570158	-0.01649283	-0.7973469	0.4709383
	0.001997621	0.00379697	0.006857068	0.01027739	-0.7973469	0.4709383	-0.004440617	-0.01581726
2.7e+08	-0.007670163	-0.02125499	-0.7241938	0.5748389	0.009370881	0.01024376	0.002509087	0.003617167
	-0.7241938	0.5748389	-0.008623376	-0.02035101	0.002509475	0.003615652	0.009025934	0.01060213
	0.009370881	0.01024376	0.002509475	0.003615652	-0.007669409	-0.02129722	-0.7226356	0.5767073
	0.002509087	0.003617167	0.009025934	0.01060213	-0.7226356	0.5767073	-0.008709205	-0.02030392
2.8e+08	-0.01299385	-0.02474414	-0.6359181	0.6691256	0.01153606	0.009815772	0.003019867	0.003395778
	-0.6359181	0.6691256	-0.014032	-0.0235049	0.003019852	0.003394007	0.01116457	0.01030244
	0.01153606	0.009815772	0.003019852	0.003394007	-0.01302792	-0.02480534	-0.6340525	0.670813
	0.003019867	0.003395778	0.01116457	0.01030244	-0.6340525	0.670813	-0.01415847	-0.02344542
2.9e+08	-0.01915733	-0.02665032	-0.5355563	0.7500047	0.01346199	0.008791574	0.003539221	0.003121618
	-0.5355563	0.7500047	-0.02019634	-0.02505195	0.003538703	0.003119738	0.0130962	0.009414192
	0.01346199	0.008791574	0.003538703	0.003119738	-0.01923118	-0.02672031	-0.5334047	0.7514604
	0.003539221	0.003121618	0.0130962	0.009414192	-0.5334047	0.7514604	-0.02036049	-0.02496828
3e+08	-0.02568568	-0.02680528	-0.4251342	0.8159616	0.01498823	0.007265305	0.004068814	0.00277626
	-0.4251342	0.8159616	-0.02663554	-0.02484854	0.004067755	0.002774455	0.01466227	0.008022106
	0.01498823	0.007265305	0.004067755	0.002774455	-0.02580131	-0.02687278	-0.4227266	0.8171376
	0.004068814	0.00277626	0.01466227	0.008022106	-0.4227266	0.8171376	-0.02683109	-0.02473009
3.1e+08	-0.03207867	-0.0251789	-0.3068587	0.8657898	0.01598851	0.005372752	0.004599708	0.002338186
	-0.3068587	0.8657898	-0.03285072	-0.02289052	0.004598146	0.002336644	0.01573558	0.006252129
	0.01598851	0.005372752	0.004598146	0.002336644	-0.03223492	-0.02523238	-0.3042331	0.8666423
	0.004599708	0.002338186	0.01573558	0.006252129	-0.3042331	0.8666423	-0.03306852	-0.02272885
3.2e+08	-0.03784959	-0.02187977	-0.1830694	0.8986099	0.01638089	0.003279576	0.005111404	0.001787888
	-0.1830694	0.8986099	-0.03836407	-0.01931164	0.00510945	0.001786773	0.01623044	0.004260499
	0.01638089	0.003279576	0.00510945	0.001786773	-0.03804218	-0.02190833	-0.1802711	0.8991006
	0.005111404	0.001787888	0.01623044	0.004260499	-0.1802711	0.8991006	-0.03859286	-0.01910118
3.3e+08	-0.04256244	-0.01714522	-0.05618953	0.9138792	0.01613414	0.00116727	0.005573162	0.00111299
	-0.05618953	0.9138792	-0.04275562	-0.01437136	0.005570984	0.001112412	0.01610912	0.002220538
	0.01613414	0.00116727	0.005570984	0.001112412	-0.0427842	-0.01713943	-0.0532704	0.9139766
	0.005573162	0.00111299	0.01610912	0.002220538	-0.0532704	0.9139766	-0.04298289	-0.01410996
3.4e+08	-0.04586453	-0.01132185	0.07132133	0.9113952	0.01526968	-0.0007818774	0.005947378	0.0003124269
	0.07132133	0.9113952	-0.04569484	-0.008433397	0.005945174	0.000312421	0.01538434	0.0003083877
	0.01526968	-0.0007818774	0.005945174	0.000312421	-0.04610594	-0.01127448	0.07430421	0.9110756
	0.005947378	0.0003124269	0.01538434	0.0003083877	0.07430421	0.9110756	-0.04590791	-0.008122533
3.5e+08	-0.04751252	-0.004838206	0.1970134	0.8912921	0.01385937	-0.002399547	0.006194453	-0.0006010737
	0.1970134	0.8912921	-0.0469651	-0.00193673	0.00619242	-0.0006005543	0.01411758	-0.001311138
	0.01385937	-0.002399547	0.00619242	-0.0006005543	-0.04776233	-0.004744832	0.1999989	0.8905405
	0.006194453	-0.0006010737	0.01411758	-0.001311138	0.1999989	0.8905405	-0.04715209	-0.001581441
3.6e+08	-0.04738988	0.001828268	0.3184897	0.8540325	0.0120193	-0.003544767	0.006278338	-0.001600672
	0.3184897	0.8540325	-0.04647906	0.004638627	0.006276634	-0.001599748	0.01241375	-0.002497506
	0.0120193	-0.003544767	0.006276634	-0.001599748	-0.04763594	0.001968885	0.3214139	0.8528429
	0.006278338	-0.001600672	0.01241375	-0.002497506	0.3214139	0.8528429	-0.04662993	0.005030094
3.7e+08	-0.04551488	0.008187523	0.4334462	0.8003943	0.009900268	-0.004114942	0.006171816	-0.002647344
	0.4334462	0.8003943	-0.04428441	0.01080846	0.006170537	-0.002646189	0.01041257	-0.003145332
	0.009900268	-0.004114942	0.006170537	-0.002646189	-0.04574504	0.008373284	0.436244	0.7987704
	0.006171816	-0.002647344	0.01041257	-0.003145332	0.436244	0.7987704	-0.0443918	0.01122528
3.8e+08	-0.04203853	0.01377382	0.5397104	0.731455	0.007675753	-0.00405384	0.005860644	-0.003693761
	0.5397104	0.731455	-0.04055938	0.01612117	0.005859801	-0.003692571	0.008277445	-0.003192466
	0.007675753	-0.00405384	0.005859801	-0.003692571	-0.04224155	0.01399938	0.5423168	0.7294101
	0.005860644	-0.003693761	0.008277445	-0.003192466	0.5423168	0.7294101	-0.04061922	0.01655078
3.9e+08	-0.03723281	0.01818069	0.6352767	0.648572	0.00552824	-0.003356013	0.005345863	-0.004689505
	0.6352767	0.648572	-0.03559861	0.02019192	0.005345382	-0.004688458	0.00618271	-0.002624791
	0.00552824	-0.003356013	0.005345382	-0.004688458	-0.0373992	0.01843777	0.637628	0.6461291
	0.005345863	-0.004689505	0.00618271	-0.002624791	0.637628	0.6461291	-0.03561055	0.02062101
4e+08	-0.03146994	0.02109134	0.7183401	0.5533596	0.003634848	-0.002067406	0.004643913	-0.00558678
	0.7183401	0.5533596	-0.02979042	0.02273161	0.00464365	-0.005586005	0.004299965	-0.001477436
	0.003634848	-0.002067406	0.00464365	-0.005586005	-0.03159272	0.02136931	0.7203759	0.5505512
	0.004643913	-0.00558678	0.004299965	-0.001477436	0.7203759	0.5505512	-0.02975787	0.02314722
4.1e+08	-0.02519427	0.02230253	0.7873291	0.4476631	0.002153272	-0.0002820547	0.003784519	-0.006345703
	0.7873291	0.4476631	-0.02358706	0.02356875	0.003784285	-0.006345249	0.002784572	0.0001677158
	0.002153273	-0.0002820547	0.003784285	-0.006345249	-0.02526955	0.02258912	0.7889929	0.4445307
	0.003784519	-0.006345703	0.002784572	0.0001677158	0.7889929	0.4445307	-0.02351702	0.02395927
4.2e+08	-0.01888873	0.02173988	0.8409347	0.3335283	0.001209025	0.00186494	0.002806714	-0.006938313
	0.8409347	0.3335283	-0.01747021	0.02266234	0.002806314	-0.006938137	0.001763207	0.002188118
	0.001209025	0.00186494	0.002806314	-0.006938137	-0.01891609	0.02202208	0.8421756	0.3301218
	0.002806714	-0.006938313	0.001763207	0.002188118	0.8421756	0.3301218	-0.01737274	0.02301854
4.3e+08	-0.01303825	0.01946357	0.878138	0.2131664	0.000884957	0.004207778	0.001753672	-0.007350677
	0.878138	0.2131664	-0.01191407	0.02010499	0.001752946	-0.007350648	0.0013234	0.004429932
	0.000884957	0.004207778	0.001752946	-0.007350648	-0.01302085	0.0197286	0.8789118	0.2095438
	0.001753672	-0.007350677	0.0013234	0.004429932	0.8789118	0.2095438	-0.01180157	0.02042076
4.4e+08	-0.008093	0.01566397	0.8982335	0.08891511	0.001213941	0.006562998	0.0006672091	-0.007582759
	0.8982335	0.08891511	-0.007349094	0.01611577	0.0006660677	-0.007582679	0.001505981	0.006720092
	0.001213941	0.006562998	0.0006660677	-0.007582679	-0.008037422	0.01590025	0.8985039	0.08514118
	0.0006672091	-0.007582759	0.001505981	0.006720092	0.8985039	0.08514118	-0.007235289	0.01638872
4.5e+08	-0.004434001	0.01064717	0.9008475	-0.03680552	0.002175447	0.008744274	-0.0004170882	-0.007646134
	0.9008475	-0.03680552	-0.004128831	0.01102335	-0.0004186383	-0.007645772	0.002301137	0.008880212
	0.002175447	0.008744274	-0.0004186383	-0.007645772	-0.004349866	0.01084526	0.9005871	-0.04065996
	-0.0004170882	-0.007646134	0.002301137	0.008880212	0.9005871	-0.04065996	-0.00402774	0.01125507
4.6e+08	-0.002344081	0.004811751	0.88595	-0.1615411	0.003696466	0.01057781	-0.001473297	-0.007559974
	0.88595	-0.1615411	-0.00250279	0.005240583	-0.001475145	-0.007559112	0.003648589	0.01074126
	0.003696466	0.01057781	-0.001475145	-0.007559112	-0.002243298	0.004965089	0.8851416	-0.1654004
	-0.001473297	-0.007559974	0.003648589	0.01074126	0.8851416	-0.1654004	-0.002427491	0.005436612
4.7e+08	-0.001986242	-0.001381735	0.8538594	-0.2828533	0.005656888	0.01191702	-0.002486576	-0.007346097
	0.8538594	-0.2828533	-0.002597292	-0.0007673943	-0.002488516	-0.007344572	0.005442046	0.01215774
	0.005656888	0.01191702	-0.002488516	-0.007344572	-0.001882271	-0.00127622	0.8524964	-0.2866384
	-0.002486576	-0.007346097	0.005442046	0.01215774	0.8524964	-0.2866384	-0.002558963	-0.0005979734
4.8e+08	-0.003391308	-0.007445996	0.8052382	-0.3983719	0.007899045	0.01265523	-0.003452337	-0.007023969
	0.8052382	-0.3983719	-0.004405968	-0.006519231	-0.003454103	-0.00702171	0.007537683	0.01302015
	0.007899045	0.01265523	-0.003454103	-0.00702171	-0.0032981	-0.007387565	0.8033256	-0.402002
	-0.003452337	-0.007023969	0.007537683	0.01302015	0.8033256	-0.402002	-0.004412881	-0.006364413
4.9e+08	-0.006455788	-0.0129043	0.7410804	-0.505846	0.01024066	0.01273504	-0.004373401	-0.006606632
	0.7410804	-0.505846	-0.007790637	-0.01155454	-0.004374702	-0.006603683	0.009765998	0.01326443
	0.01024066	0.01273504	-0.004374702	-0.006603683	-0.006386707	-0.01288837	0.7386353	-0.5092399
	-0.004373401	-0.006606632	0.009765998	0.01326443	0.7386353	-0.5092399	-0.007847405	-0.01140031
5e+08	-0.01095014	-0.01732686	0.6626899	-0.6031927	0.01249011	0.01215358	-0.005255694	-0.006098317
	0.6626899	-0.6031927	-0.01249246	-0.01546929	-0.005256268	-0.006094841	0.011946	0.01287758
	0.01249011	0.01215358	-0.005256268	-0.006094841	-0.01091689	-0.01734524	0.6597415	-0.6062711
	-0.005255694	-0.006098317	0.011946	0.01287758	0.6597415	-0.6062711	-0.01259957	-0.01530075
5.1e+08	-0.01653667	-0.02036334	0.5716505	-0.6885412	0.01446259	0.01096295	-0.006103352	-0.005494209
