!$
! Info: Touchstone file created by Circ.  Input file=Tx_10in_Rx_100ohms_TxVia_60mils_RxVia_70mils.circ
!$
# Hz S RI R 50
0	0.01043749	1.362748e-25	1.643225e-09	3.491313e-27	7.436906e-05	2.043198e-23	-1.441783e-10	6.344141e-26
	1.64324e-09	3.491318e-27	0.01043322	1.646099e-25	4.479349e-09	1.21e-26	7.350085e-05	2.542693e-23
	7.350121e-05	2.034061e-23	4.479349e-09	1.21e-26	0.01045121	1.377804e-25	3.698117e-09	3.695084e-27
	-1.438899e-10	6.340609e-26	7.37704e-05	2.553596e-23	3.698035e-09	3.695068e-27	0.0104476	1.638868e-25
1e+07	0.01524125	0.00663817	2.107284e-09	3.646289e-09	0.0006679208	0.001957666	-2.896716e-09	1.164431e-08
	2.107284e-09	3.646289e-09	0.0153899	0.006624998	6.54457e-09	1.303918e-08	0.0006643306	0.001955765
	0.0006679049	0.001957679	6.54457e-09	1.303918e-08	0.01541218	0.006630076	-1.26233e-09	1.238176e-08
	-2.896716e-09	1.164431e-08	0.0006643332	0.001955763	-1.26233e-09	1.238176e-08	0.01525204	0.006648316
2e+07	0.01996395	0.009449119	2.945067e-09	6.543314e-09	0.00113904	0.003991585	1.767936e-09	3.644407e-09
	2.945067e-09	6.543314e-09	0.02004974	0.009375293	8.953441e-09	2.301052e-08	0.001125361	0.003990166
	0.001139046	0.003991594	8.953441e-09	2.301052e-08	0.02009569	0.00938004	-1.557261e-10	6.468957e-09
	1.767936e-09	3.644407e-09	0.001125358	0.003990166	-1.55726e-10	6.468957e-09	0.01996024	0.009468844
3e+07	0.02410432	0.01030961	3.713258e-09	8.967164e-09	0.001995547	0.005700896	3.004598e-09	5.367112e-09
	3.713258e-09	8.967164e-09	0.02412325	0.01022539	1.063906e-08	3.241273e-08	0.001966136	0.005704142
	0.001995548	0.005700897	1.063906e-08	3.241273e-08	0.02420595	0.01021992	3.390876e-09	9.064143e-09
	3.004598e-09	5.367112e-09	0.001966136	0.005704144	3.390876e-09	9.064143e-09	0.02407534	0.01034514
4e+07	0.02787823	0.01007374	4.461229e-09	1.12325e-08	0.003197839	0.007128131	3.87594e-09	6.533984e-09
	4.461229e-09	1.12325e-08	0.02782534	0.01000282	1.214365e-08	4.150778e-08	0.003148442	0.007141791
	0.003197838	0.007128132	1.214365e-08	4.150778e-08	0.02795482	0.009973857	4.194703e-09	1.155323e-08
	3.87594e-09	6.533984e-09	0.003148442	0.007141792	4.194703e-09	1.155323e-08	0.02781519	0.01013358
5e+07	0.0312814	0.008978815	5.153817e-09	1.329957e-08	0.00479716	0.00815723	4.660773e-09	7.445142e-09
	5.153817e-09	1.329957e-08	0.03115483	0.008943089	1.344071e-08	5.035002e-08	0.004725278	0.008187993
	0.004797159	0.00815723	1.344071e-08	5.035002e-08	0.03133686	0.008873979	4.672372e-09	1.377464e-08
	4.660773e-09	7.445142e-09	0.004725279	0.008187993	4.672372e-09	1.377464e-08	0.03117813	0.009074907
6e+07	0.03426146	0.007171977	5.745108e-09	1.517944e-08	0.006533565	0.00882645	5.346028e-09	8.123675e-09
	5.745108e-09	1.517944e-08	0.03406391	0.007192524	1.4521e-08	5.900164e-08	0.006438711	0.00888176
	0.006533563	0.008826449	1.4521e-08	5.900164e-08	0.03429889	0.007065202	5.014695e-09	1.588271e-08
	5.346028e-09	8.123674e-09	0.006438713	0.00888176	5.014695e-09	1.588271e-08	0.03411592	0.007317988
7e+07	0.03675322	0.004774137	6.156788e-09	1.68946e-08	0.008333664	0.009119636	5.794518e-09	8.589734e-09
	6.156788e-09	1.68946e-08	0.03649191	0.004870563	1.531455e-08	6.748074e-08	0.00821743	0.00920704
	0.00833366	0.009119635	1.531455e-08	6.748074e-08	0.03677509	0.004667256	5.214298e-09	1.791468e-08
	5.794518e-09	8.589734e-09	0.008217431	0.009207039	5.214298e-09	1.791468e-08	0.03656727	0.004983901
8e+07	0.03869457	0.001902011	6.330635e-09	1.849315e-08	0.01012085	0.00903416	5.943625e-09	8.92814e-09
	6.330635e-09	1.849315e-08	0.038381	0.002091868	1.581055e-08	7.587281e-08	0.00998688	0.009160791
	0.01012085	0.00903416	1.581055e-08	7.587281e-08	0.03870293	0.001796207	5.256246e-09	1.989834e-08
	5.943625e-09	8.92814e-09	0.009986881	0.00916079	5.256246e-09	1.989834e-08	0.03847357	0.002188795
9e+07	0.04003568	-0.001324621	6.261552e-09	2.004937e-08	0.01181809	0.008581748	5.832942e-09	9.225064e-09
	6.261552e-09	2.004937e-08	0.03968538	-0.001026387	1.605374e-08	8.428424e-08	0.01167193	0.008753836
	0.01181808	0.008581748	1.605374e-08	8.428424e-08	0.04003237	-0.001428418	5.165218e-09	2.186765e-08
	5.832942e-09	9.225064e-09	0.01167193	0.008753835	5.165218e-09	2.186765e-08	0.03978834	-0.000948708
1e+08	0.04075589	-0.004775726	5.923228e-09	2.161575e-08	0.01334532	0.007785431	5.477026e-09	9.572933e-09
	5.923228e-09	2.161575e-08	0.04038963	-0.004356772	1.605318e-08	9.277751e-08	0.01319422	0.008007863
	0.01334532	0.007785431	1.605318e-08	9.277751e-08	0.04074422	-0.004875883	4.927683e-09	2.38182e-08
	5.477026e-09	9.572933e-09	0.01319422	0.008007863	4.927683e-09	2.38182e-08	0.04049413	-0.004300488
1.1e+08	0.04083621	-0.00841292	5.507438e-09	2.31797e-08	0.01463631	0.006728234	4.963377e-09	9.938811e-09
	5.507438e-09	2.31797e-08	0.04047814	-0.007875353	1.600567e-08	1.014137e-07	0.01448894	0.007004095
	0.01463631	0.006728234	1.600567e-08	1.014137e-07	0.04081901	-0.008517513	4.593783e-09	2.583386e-08
	4.963377e-09	9.938811e-09	0.01448893	0.007004095	4.593783e-09	2.583386e-08	0.04057589	-0.007831531
1.2e+08	0.04020062	-0.01205303	4.89793e-09	2.487758e-08	0.01567319	0.005436067	4.175106e-09	1.036969e-08
	4.89793e-09	2.487758e-08	0.03986729	-0.01139668	1.582766e-08	1.10227e-07	0.01553901	0.00576626
	0.01567319	0.005436067	1.582766e-08	1.10227e-07	0.04017195	-0.01216305	4.144371e-09	2.798101e-08
	4.175106e-09	1.036969e-08	0.01553901	0.005766261	4.14437e-09	2.798101e-08	0.0399589	-0.01136196
1.3e+08	0.03888924	-0.01555462	4.101101e-09	2.674209e-08	0.01640342	0.003962449	3.135739e-09	1.095411e-08
	4.101101e-09	2.674209e-08	0.03860013	-0.01478244	1.555338e-08	1.192479e-07	0.01629229	0.0043456
	0.01640342	0.003962449	1.555338e-08	1.192479e-07	0.03884536	-0.01566858	3.586796e-09	3.027394e-08
	3.135739e-09	1.095411e-08	0.01629229	0.004345601	3.586796e-09	3.027394e-08	0.03868457	-0.01475464
1.4e+08	0.03694977	-0.01879426	3.147969e-09	2.882029e-08	0.01679421	0.002374109	1.878978e-09	1.175936e-08
	3.147969e-09	2.882029e-08	0.03672456	-0.01791372	1.523156e-08	1.28506e-07	0.01671578	0.002806458
	0.01679421	0.002374109	1.523156e-08	1.28506e-07	0.03688781	-0.01890946	2.948574e-09	3.274068e-08
	1.878978e-09	1.175936e-08	0.01671577	0.002806459	2.948574e-09	3.274068e-08	0.03680077	-0.01789071
1.5e+08	0.03444791	-0.02166099	2.080811e-09	3.115575e-08	0.01682834	0.0007436191	4.50975e-10	1.284316e-08
	2.080811e-09	3.115575e-08	0.0343051	-0.02068423	1.491702e-08	1.380221e-07	0.01679152	0.001219058
	0.01682834	0.0007436191	1.491702e-08	1.380221e-07	0.03436589	-0.02177386	2.263925e-09	3.540646e-08
	4.50975e-10	1.284316e-08	0.01679151	0.001219059	2.263925e-09	3.540646e-08	0.03437225	-0.02066378
1.6e+08	0.03146655	-0.02405855	9.532233e-10	3.378551e-08	0.01650438	-0.000854267	-1.089442e-09	1.425314e-08
	9.532233e-10	3.378551e-08	0.03142222	-0.02300219	1.46696e-08	1.478069e-07	0.01651678	-0.0003440288
	0.01650438	-0.000854267	1.46696e-08	1.478069e-07	0.03136344	-0.02416488	1.574065e-09	3.829182e-08
	-1.089442e-09	1.425314e-08	0.01651678	-0.0003440281	1.574065e-09	3.829182e-08	0.03147984	-0.022982
1.7e+08	0.02810351	-0.025908	-1.70689e-10	3.673696e-08	0.0158366	-0.002346014	-2.672337e-09	1.602467e-08
	-1.70689e-10	3.673696e-08	0.02817025	-0.02479257	1.455256e-08	1.578593e-07	0.01590401	-0.001811153
	0.0158366	-0.002346014	1.455256e-08	1.578593e-07	0.02797936	-0.0260032	9.268478e-10	4.141047e-08
	-2.672337e-09	1.602467e-08	0.01590401	-0.001811153	9.268477e-10	4.141047e-08	0.02821828	-0.02477032
1.8e+08	0.02446851	-0.02715	-1.217697e-09	4.002471e-08	0.01485425	-0.003662556	-4.218801e-09	1.817846e-08
	-1.217697e-09	4.002471e-08	0.02465442	-0.02599918	1.46307e-08	1.681655e-07	0.01498023	-0.003114721
	0.01485425	-0.003662556	1.46307e-08	1.681655e-07	0.02432448	-0.02722936	3.760352e-10	4.476698e-08
	-4.218801e-09	1.817846e-08	0.01498023	-0.00311472	3.760352e-10	4.476698e-08	0.02469326	-0.0259726
1.9e+08	0.02067958	-0.02774663	-2.10773e-09	4.364752e-08	0.01360038	-0.004742324	-5.643679e-09	2.071837e-08
	-2.10773e-09	4.364752e-08	0.02098754	-0.02658622	1.496792e-08	1.786976e-07	0.01378584	-0.004194124
	0.01360038	-0.004742324	1.496792e-08	1.786976e-07	0.02051797	-0.02780557	-2.013635e-11	4.83545e-08
	-5.643679e-09	2.071837e-08	0.01378584	-0.004194123	-2.013634e-11	4.83545e-08	0.02101801	-0.02655321
2e+08	0.01685914	-0.02768254	-2.757218e-09	4.758553e-08	0.01212988	-0.005533951	-6.858929e-09	2.362955e-08
	-2.757218e-09	4.758553e-08	0.01728625	-0.02653929	1.562421e-08	1.894128e-07	0.01237291	-0.004998363
	0.01212988	-0.005533951	1.562421e-08	1.894128e-07	0.01668333	-0.02771689	-2.013e-10	5.215242e-08
	-6.858929e-09	2.362955e-08	0.01237291	-0.004998363	-2.013e-10	5.215242e-08	0.01730959	-0.02649799
2.1e+08	0.01312977	-0.02696537	-3.083516e-09	5.179815e-08	0.0105072	-0.005998529	-7.777616e-09	2.68772e-08
	-3.083516e-09	5.179815e-08	0.01366716	-0.0258657	1.665224e-08	2.002536e-07	0.01080295	-0.005488255
	0.0105072	-0.005998529	1.665224e-08	2.002536e-07	0.01294417	-0.0269716	-1.082804e-10	5.612465e-08
	-7.777616e-09	2.68772e-08	0.01080295	-0.005488255	-1.082804e-10	5.612465e-08	0.01368495	-0.02581455
2.2e+08	0.009610071	-0.02562539	-3.010274e-09	5.622313e-08	0.00880348	-0.006111331	-8.318455e-09	3.04061e-08
	-3.010274e-09	5.622313e-08	0.01024288	-0.02459401	1.809343e-08	2.111486e-07	0.009144215	-0.005638135
	0.00880348	-0.006111331	1.809343e-08	2.111486e-07	0.009419939	-0.02560085	3.126938e-10	6.021864e-08
	-8.318455e-09	3.04061e-08	0.009144215	-0.005638135	3.126938e-10	6.021864e-08	0.01025699	-0.02453185
2.3e+08	0.006410511	-0.0237144	-2.473437e-09	6.07771e-08	0.007093524	-0.005862915	-8.410722e-09	3.414132e-08
	-2.473437e-09	6.07771e-08	0.007118289	-0.02277295	1.997414e-08	2.220145e-07	0.007468813	-0.005436968
	0.007093524	-0.005862915	1.997414e-08	2.220145e-07	0.006221782	-0.02365749	1.105146e-09	6.436577e-08
	-8.410722e-09	3.414132e-08	0.007468813	-0.005436968	1.105146e-09	6.436577e-08	0.007130786	-0.02269906
2.4e+08	0.003629541	-0.02130375	-1.427372e-09	6.535796e-08	0.005452512	-0.005259558	-7.999247e-09	3.799005e-08
	-1.427372e-09	6.535796e-08	0.004386867	-0.0204696	2.230204e-08	2.327594e-07	0.005849576	-0.004888834
	0.005452512	-0.005259558	2.230204e-08	2.327594e-07	0.003448597	-0.02121412	2.297334e-09	6.848326e-08
	-7.999247e-09	3.799005e-08	0.005849576	-0.004888834	2.297334e-09	6.848326e-08	0.004399915	-0.02038372
2.5e+08	0.001350169	-0.01848179	1.494662e-10	6.98492e-08	0.003952729	-0.004323001	-7.049117e-09	4.184496e-08
	1.494662e-10	6.98492e-08	0.002127608	-0.0177669	2.506324e-08	2.432868e-07	0.00435692	-0.004012746
	0.003952729	-0.004323001	2.506324e-08	2.432868e-07	0.001183571	-0.01836044	3.89757e-09	7.247779e-08
	-7.049117e-09	4.184496e-08	0.00435692	-0.004012746	3.89757e-09	7.247779e-08	0.00214337	-0.01766925
2.6e+08	-0.0003629654	-0.01535063	2.249999e-09	7.412599e-08	0.002660413	-0.003089518	-5.549666e-09	4.558878e-08
	2.249999e-09	7.412599e-08	0.0004023038	-0.01476062	2.822062e-08	2.535015e-07	0.003055811	-0.002841831
	0.002660413	-0.003089518	2.822062e-08	2.535015e-07	-0.0005087658	-0.01519991	5.890524e-09	7.625065e-08
	-5.549666e-09	4.558878e-08	0.003055811	-0.002841831	5.890524e-09	7.625065e-08	0.0004228366	-0.01465191
2.7e+08	-0.001465829	-0.01202237	4.835708e-09	7.806275e-08	0.001632872	-0.001608339	-3.517302e-09	4.910016e-08
	4.835708e-09	7.806275e-08	-0.0007464901	-0.01155591	3.171351e-08	2.633152e-07	0.002002966	-0.001421883
	0.001632872	-0.001608339	3.171351e-08	2.633152e-07	-0.001584792	-0.01184601	8.235036e-09	7.97043e-08
	-3.517302e-09	4.910016e-08	0.002002966	-0.001421883	8.235036e-09	7.97043e-08	-0.0007193326	-0.01143727
2.8e+08	-0.001936492	-0.00861499	7.836068e-09	8.154167e-08	0.0009159846	6.048455e-05	-9.968133e-10	5.226032e-08
	7.836068e-09	8.154167e-08	-0.001296808	-0.008263481	3.545922e-08	2.726531e-07	0.001244425	0.0001906207
	0.0009159846	6.048455e-05	3.545922e-08	2.726531e-07	-0.002023277	-0.008418033	1.086395e-08	8.274958e-08
	-9.968133e-10	5.226032e-08	0.001244425	0.0001906207	1.086395e-08	8.274958e-08	-0.001261462	-0.00813644
2.9e+08	-0.001775799	-0.005248067	1.115044e-08	8.446129e-08	0.000542217	0.001848693	1.939123e-09	5.496006e-08
	1.115044e-08	8.446129e-08	-0.001247883	-0.004995589	3.935625e-08	2.81459e-07	0.0008135914	0.001930962
	0.000542217	0.001848693	3.935625e-08	2.81459e-07	-0.00182605	-0.005036681	1.368612e-08	8.531308e-08
	1.939123e-09	5.496006e-08	0.0008135914	0.001930962	1.368612e-08	8.531308e-08	-0.001203157	-0.004861977
3e+08	-0.001007198	-0.002038349	1.465247e-08	8.674459e-08	0.0005292239	0.003682776	5.192335e-09	5.710671e-08
	1.465247e-08	8.674459e-08	-0.000619974	-0.001862025	4.328917e-08	2.89701e-07	0.0007298198	0.003728978
	0.0005292239	0.003682776	4.328917e-08	2.89701e-07	-0.001017787	-0.001819659	1.659069e-08	8.734387e-08
	5.192335e-09	5.710671e-08	0.0007298198	0.003728978	1.659069e-08	8.734387e-08	-0.0005651076	-0.001723907
3.1e+08	0.0003242738	0.0009044732	1.819677e-08	8.834555e-08	0.000879097	0.005487149	8.643373e-09	5.863028e-08
	1.819677e-08	8.834555e-08	0.000546568	0.001033809	4.713478e-08	2.973743e-07	0.0009976229	0.005512068
	0.000879097	0.005487149	4.713478e-08	2.973743e-07	0.0003550416	0.001122648	1.945333e-08	8.881881e-08
	8.643373e-09	5.863028e-08	0.0009976229	0.005512068	1.945333e-08	8.881881e-08	0.0006118643	0.001174238
3.2e+08	0.002153805	0.00348174	2.162729e-08	8.925375e-08	0.001578291	0.007187411	1.215729e-08	5.94884e-08
	2.162729e-08	8.925375e-08	0.002192961	0.003598547	5.076914e-08	3.04503e-07	0.001606514	0.007208298
	0.001578291	0.007187411	5.076914e-08	3.04503e-07	0.002226039	0.003691187	2.214392e-08	8.974594e-08
	1.215729e-08	5.94884e-08	0.001606514	0.007208298	2.214392e-08	8.974594e-08	0.002268487	0.003739067
3.3e+08	0.004399348	0.005609366	2.478668e-08	8.949639e-08	0.002598221	0.008713532	1.559058e-08	5.966957e-08
	2.478668e-08	8.949639e-08	0.00424432	0.005752117	5.407484e-08	3.111403e-07	0.002531489	0.008749457
	0.002598221	0.008713532	5.407484e-08	3.111403e-07	0.004511486	0.005801804	2.453498e-08	9.016555e-08
	1.559058e-08	5.966957e-08	0.002531489	0.008749457	2.453498e-08	9.016555e-08	0.004329384	0.005890589
3.4e+08	0.006964787	0.007220808	2.752593e-08	8.913769e-08	0.003896494	0.01000284	1.879869e-08	5.919459e-08
	2.752593e-08	8.913769e-08	0.006612537	0.007430475	5.694795e-08	3.173655e-07	0.003734122	0.01007393
	0.003896494	0.01000284	5.694795e-08	3.173655e-07	0.007113576	0.007388234	2.651016e-08	9.014866e-08
	1.879869e-08	5.919459e-08	0.003734122	0.01007393	2.651016e-08	9.014866e-08	0.00670599	0.007564944
3.5e+08	0.0097436	0.008269361	2.97133e-08	8.827564e-08	0.005418729	0.01100268	2.164364e-08	5.811589e-08
	2.97133e-08	8.827564e-08	0.009199632	0.008587727	5.930407e-08	3.232803e-07	0.005164216	0.0111293
	0.005418729	0.01100268	5.930407e-08	3.232803e-07	0.009924155	0.008404403	2.797181e-08	8.979326e-08
	2.164364e-08	5.811589e-08	0.005164216	0.0111293	2.797181e-08	8.979326e-08	0.009299908	0.00871652
3.6e+08	0.01262289	0.0087297	3.124192e-08	8.703659e-08	0.007100866	0.01167265	2.400102e-08	5.65151e-08
	3.124192e-08	8.703659e-08	0.01190141	0.009197564	6.108298e-08	3.290038e-07	0.006761939	0.01187451
	0.007100866	0.01167265	6.108298e-08	3.290038e-07	0.01282881	0.008825951	2.884724e-08	8.921859e-08
	2.400102e-08	5.65151e-08	0.006761939	0.01187451	2.884724e-08	8.921859e-08	0.0120066	0.009319374
3.7e+08	0.01548761	0.008598616	3.203554e-08	8.55682e-08	0.008871872	0.01198631	2.576609e-08	5.449902e-08
	3.203554e-08	8.55682e-08	0.01461131	0.009253971	6.225174e-08	3.346655e-07	0.008460348	0.01228157
	0.008871872	0.01198631	6.225174e-08	3.346655e-07	0.01571119	0.008650946	2.909286e-08	8.85581e-08
	2.576609e-08	5.449902e-08	0.008460348	0.01228157	2.909286e-08	8.85581e-08	0.01471924	0.009367927
3.8e+08	0.01822481	0.007894924	3.205201e-08	8.403139e-08	0.01065673	0.01193228	2.685853e-08	5.219438e-08
	3.205201e-08	8.403139e-08	0.01722431	0.008771188	6.280595e-08	3.403993e-07	0.01018819	0.01233674
	0.01065673	0.01193228	6.280595e-08	3.403993e-07	0.01845731	0.007899751	2.869629e-08	8.795174e-08
	2.685853e-08	5.219438e-08	0.01018819	0.01233674	2.869629e-08	8.795174e-08	0.01733263	0.008876904
3.9e+08	0.02072786	0.006658565	3.128461e-08	8.259217e-08	0.0123796	0.01151474	2.722561e-08	4.974195e-08
	3.128461e-08	8.259217e-08	0.01964069	0.00778294	6.276943e-08	3.463369e-07	0.01187289	0.01204106
	0.0123796	0.01151474	6.276943e-08	3.463369e-07	0.02095976	0.006614065	2.767621e-08	8.753835e-08
	2.722561e-08	4.974195e-08	0.01187289	0.01204106	2.767621e-08	8.753835e-08	0.019747	0.007880547
4e+08	0.02290023	0.004948929	2.976123e-08	8.141377e-08	0.01396694	0.01075331	2.684398e-08	4.72904e-08
	2.976123e-08	8.141377e-08	0.0217696	0.006340977	6.219237e-08	3.526018e-07	0.01344353	0.01141031
	0.01396694	0.01075331	6.219237e-08	3.526018e-07	0.02312169	0.004855193	2.608033e-08	8.744882e-08
	2.684398e-08	4.72904e-08	0.01344353	0.01141031	2.608033e-08	8.744882e-08	0.02187156	0.006431123
4.1e+08	0.0246591	0.002842494	2.754205e-08	8.064984e-08	0.01535066	0.00968224	2.572003e-08	4.499023e-08
	2.754205e-08	8.064984e-08	0.02353226	0.004512967	6.114847e-08	3.593048e-07	0.01483383	0.01047437
	0.01535066	0.00968224	6.114847e-08	3.593048e-07	0.02486025	0.002701599	2.398195e-08	8.780034e-08
	2.572003e-08	4.499023e-08	0.01483383	0.01047437	2.398195e-08	8.780034e-08	0.02362768	0.004596805
4.2e+08	0.02593824	0.0004298313	2.471591e-08	8.043873e-08	0.01647091	0.008349028	2.388907e-08	4.298824e-08
	2.471591e-08	8.043873e-08	0.02486467	0.002379851	5.973134e-08	3.665395e-07	0.01598488	0.009276049
	0.01647091	0.008349028	5.973134e-08	3.665395e-07	0.02610964	0.0002458309	2.147554e-08	8.869221e-08
	2.388907e-08	4.298824e-08	0.01598488	0.009276049	2.147554e-08	8.869221e-08	0.02495163	0.002458995
4.3e+08	0.02669035	-0.002187875	2.139618e-08	8.08992e-08	0.01727866	0.006812517	2.141372e-08	4.142247e-08
	2.139618e-08	8.08992e-08	0.0257198	3.274034e-05	5.805048e-08	3.743801e-07	0.01684761	0.007869266
	0.01727866	0.006812517	5.805048e-08	3.743801e-07	0.02682338	-0.002409021	1.86721e-08	9.020297e-08
	2.141372e-08	4.142247e-08	0.01684761	0.007869266	1.86721e-08	9.020297e-08	0.02579674	0.0001092097
4.4e+08	0.02688871	-0.004902671	1.771641e-08	8.212715e-08	0.01773777	0.005140488	1.838169e-08	4.041787e-08
	1.771641e-08	8.212715e-08	0.0260691	-0.00243052	5.622737e-08	3.828794e-07	0.01738484	0.006316915
	0.01773777	0.005140488	5.622737e-08	3.828794e-07	0.02697597	-0.00515328	1.569455e-08	9.238891e-08
	1.838169e-08	4.041787e-08	0.01738484	0.006316915	1.569455e-08	9.238891e-08	0.02613491	-0.002354392
4.5e+08	0.02652804	-0.007603925	1.382607e-08	8.41934e-08	0.01782658	0.00340689	1.49032e-08	4.008241e-08
	1.382607e-08	8.41934e-08	0.02590339	-0.004909017	5.43916e-08	3.920671e-07	0.01757287	0.004688272
	0.01782658	0.00340689	5.43916e-08	3.920671e-07	0.02656365	-0.007874831	1.267371e-08	9.528342e-08
	1.49032e-08	4.008241e-08	0.01757287	0.004688272	1.267371e-08	9.528342e-08	0.02595748	-0.004830672
4.6e+08	0.02562452	-0.01018249	9.886614e-09	8.714191e-08	0.0175389	0.001688799	1.110805e-08	4.050367e-08
	9.886614e-09	8.714191e-08	0.02523302	-0.007302503	5.26772e-08	4.019497e-07	0.01740252	0.003056161
	0.0175389	0.001688799	5.26772e-08	4.019497e-07	0.02560449	-0.01046336	9.744767e-09	9.889697e-08
	1.110805e-08	4.050367e-08	0.01740252	0.003056161	9.744767e-09	9.889697e-08	0.02527532	-0.007219272
4.7e+08	0.02421511	-0.01253481	6.067737e-09	9.09882e-08	0.01688439	6.321758e-05	7.142506e-09	4.174558e-08
	6.067737e-09	9.09882e-08	0.02408726	-0.009515103	5.121926e-08	4.125097e-07	0.01687962	0.001493952
	0.01688439	6.321758e-05	5.121926e-08	4.125097e-07	0.02413753	-0.01281453	7.044408e-09	1.03217e-07
	7.142506e-09	4.174558e-08	0.01687962	0.001493952	7.044408e-09	1.03217e-07	0.02411824	-0.009424322
4.8e+08	0.02235608	-0.01456679	2.543557e-09	9.571798e-08	0.0158883	-0.001396141	3.165769e-09	4.38456e-08
	2.543557e-09	9.571798e-08	0.02251312	-0.01145883	5.015037e-08	4.237053e-07	0.01602482	7.250786e-05
	0.0158883	-0.001396141	5.015037e-08	4.237053e-07	0.02222126	-0.01483388	4.708112e-09	1.082079e-07
	3.165769e-09	4.38456e-08	0.01602482	7.250786e-05	4.708112e-09	1.082079e-07	0.02253385	-0.01135794
