!$
! Info: Touchstone file created by Circ.  Input file=Tx_10in_Rx_85ohms_TxVia_60mils_RxVia_70mils.circ
!$
# Hz S RI R 50
0	0.008132967	1.408793e-25	1.348475e-09	1.40085e-27	7.367169e-05	1.601943e-23	1.215826e-09	6.018509e-28
	1.348483e-09	1.400854e-27	0.008128236	1.654887e-25	9.27467e-10	2.02824e-27	7.387701e-05	1.977474e-23
	7.46529e-05	1.630024e-23	9.274559e-10	2.028213e-27	0.008146959	1.348681e-25	-3.283943e-09	4.513465e-25
	1.215824e-09	6.0173e-28	7.414668e-05	1.985954e-23	-3.283535e-09	4.512964e-25	0.008142685	1.647614e-25
1e+07	0.01178738	-0.009225142	2.733043e-09	3.417863e-09	0.0002780907	0.001934989	3.428442e-10	3.034987e-08
	2.733043e-09	3.417863e-09	0.01043496	-0.009339881	1.740855e-09	2.489219e-09	0.0003517797	0.001939332
	0.0002780995	0.001934957	1.740856e-09	2.489219e-09	0.010467	-0.009509469	-4.790336e-09	1.802185e-08
	3.428444e-10	3.034987e-08	0.0003517822	0.00193933	-4.790337e-09	1.802185e-08	0.0104175	-0.009327845
2e+07	0.01129362	-0.02162609	4.99871e-09	5.812699e-09	0.0008904364	0.003774703	1.736636e-08	2.061007e-08
	4.99871e-09	5.812699e-09	0.01006775	-0.02131981	3.097987e-09	4.396652e-09	0.0009915217	0.003718167
	0.0008904093	0.003774703	3.097987e-09	4.396651e-09	0.00995983	-0.02159819	-3.00204e-09	7.082009e-09
	1.736636e-08	2.061007e-08	0.0009915188	0.003718168	-3.00204e-09	7.082009e-09	0.01005885	-0.02128707
3e+07	0.007303428	-0.03437169	8.055915e-09	6.723343e-09	0.001908588	0.005364539	2.831155e-08	2.155731e-08
	8.055915e-09	6.723343e-09	0.006163108	-0.03387757	4.622079e-09	5.529118e-09	0.001963938	0.005297314
	0.001908586	0.005364543	4.622079e-09	5.529118e-09	0.005971359	-0.03418107	8.207746e-09	6.946826e-09
	2.831155e-08	2.155731e-08	0.001963938	0.005297316	8.207746e-09	6.946826e-09	0.006159521	-0.03383236
4e+07	0.0003835632	-0.04618914	1.147878e-08	6.750125e-09	0.003210255	0.006677107	4.017495e-08	2.035134e-08
	1.147878e-08	6.750125e-09	-0.0006926686	-0.04554872	6.523509e-09	6.192446e-09	0.00321924	0.006616236
	0.003210254	0.006677102	6.523509e-09	6.192446e-09	-0.0009288921	-0.04585737	1.239486e-08	7.233864e-09
	4.017495e-08	2.035134e-08	0.003219241	0.006616237	1.239486e-08	7.233864e-09	-0.0006931655	-0.04549314
5e+07	-0.009003192	-0.05639724	1.508117e-08	5.612187e-09	0.004728518	0.007664309	5.237172e-08	1.543463e-08
	1.508117e-08	5.612187e-09	-0.01002901	-0.05562197	8.498578e-09	6.244921e-09	0.004692025	0.007623714
	0.004728515	0.007664307	8.498578e-09	6.244921e-09	-0.01027925	-0.05593405	1.605043e-08	5.948926e-09
	5.237172e-08	1.543463e-08	0.004692026	0.007623714	1.605043e-08	5.948926e-09	-0.01002854	-0.05555631
6e+07	-0.02036166	-0.06450208	1.850336e-08	3.226375e-09	0.006386105	0.00829227	6.374834e-08	6.353545e-09
	1.850336e-08	3.226375e-09	-0.02134344	-0.06359169	1.037661e-08	5.644118e-09	0.006307221	0.00828459
	0.006386107	0.008292273	1.037661e-08	5.644118e-09	-0.02158535	-0.06391489	1.94293e-08	3.408705e-09
	6.374834e-08	6.353545e-09	0.006307223	0.00828459	1.94293e-08	3.408705e-09	-0.0213435	-0.06351524
7e+07	-0.0331523	-0.07015177	2.13624e-08	-3.605382e-10	0.008100769	0.008544855	7.302436e-08	-6.757119e-09
	2.13624e-08	-3.605382e-10	-0.03408981	-0.0691011	1.197117e-08	4.414376e-09	0.007984999	0.008581584
	0.008100778	0.008544859	1.197117e-08	4.414376e-09	-0.03430825	-0.06944794	2.228595e-08	-3.142709e-10
	7.302436e-08	-6.757119e-09	0.007985	0.008581584	2.228595e-08	-3.142711e-10	-0.03409134	-0.06901268
8e+07	-0.04680349	-0.07312622	2.329762e-08	-4.983963e-09	0.009790007	0.008424333	7.898976e-08	-2.331804e-08
	2.329762e-08	-4.983964e-09	-0.0476906	-0.07192868	1.310208e-08	2.636115e-09	0.009645289	0.00851557
	0.009790021	0.008424335	1.310208e-08	2.636115e-09	-0.0478766	-0.07231349	2.430065e-08	-5.110151e-09
	7.898976e-08	-2.331804e-08	0.009645289	0.008515569	2.430065e-08	-5.110151e-09	-0.04769406	-0.07182681
9e+07	-0.06073115	-0.07333289	2.400516e-08	-1.037865e-08	0.01137544	0.007950662	8.063334e-08	-4.239256e-08
	2.400516e-08	-1.037865e-08	-0.06155672	-0.07198298	1.361333e-08	4.392729e-10	0.01121211	0.008104829
	0.01137545	0.007950661	1.361333e-08	4.392728e-10	-0.06170563	-0.072419	2.515996e-08	-1.078729e-08
	8.063334e-08	-4.239256e-08	0.01121211	0.008104829	2.515996e-08	-1.078729e-08	-0.06156206	-0.07186594
1e+08	-0.07436098	-0.07080186	2.326703e-08	-1.620473e-08	0.01278739	0.007160163	7.723433e-08	-6.277687e-08
	2.326703e-08	-1.620473e-08	-0.07511194	-0.06929859	1.33849e-08	-2.004319e-09	0.0126192	0.007384645
	0.01278739	0.007160163	1.33849e-08	-2.004319e-09	-0.07521278	-0.06978985	2.459566e-08	-1.707655e-08
	7.723433e-08	-6.277687e-08	0.0126192	0.007384645	2.459566e-08	-1.707655e-08	-0.07511869	-0.06916478
1.1e+08	-0.08714888	-0.06567326	2.106718e-08	-2.215927e-08	0.01396651	0.006095878	6.890395e-08	-8.32839e-08
	2.106718e-08	-2.215927e-08	-0.08780948	-0.06400523	1.236742e-08	-4.503652e-09	0.01381057	0.006386215
	0.01396651	0.006095878	1.236742e-08	-4.503652e-09	-0.08784833	-0.06461591	2.22993e-08	-2.335482e-08
	6.890395e-08	-8.32839e-08	0.01381057	0.006386215	2.22993e-08	-2.335482e-08	-0.08781634	-0.06385199
1.2e+08	-0.09859722	-0.05819601	1.726532e-08	-2.781553e-08	0.01485981	0.004820416	5.523489e-08	-1.026171e-07
	1.726532e-08	-2.781553e-08	-0.09913564	-0.05636577	1.053618e-08	-6.863362e-09	0.01472471	0.005173526
	0.01485981	0.004820416	1.053618e-08	-6.863362e-09	-0.09916198	-0.05712007	1.832092e-08	-2.931786e-08
	5.523489e-08	-1.026171e-07	0.01472471	0.005173526	1.832092e-08	-2.931786e-08	-0.09913961	-0.05619169
1.3e+08	-0.1082799	-0.04870592	1.191531e-08	-3.277074e-08	0.01543552	0.003401017	3.644507e-08	-1.194438e-07
	1.191531e-08	-3.277074e-08	-0.1086667	-0.04672619	7.916167e-09	-8.875145e-09	0.01533143	0.003812982
	0.01543552	0.003401016	7.916167e-09	-8.875145e-09	-0.1087193	-0.04762775	1.271745e-08	-3.454547e-08
	3.644507e-08	-1.194438e-07	0.01533143	0.003812983	1.271745e-08	-3.454547e-08	-0.1086646	-0.04653084
1.4e+08	-0.1158505	-0.03761012	5.167853e-09	-3.66318e-08	0.01567542	0.001907773	1.306658e-08	-1.324876e-07
	5.167853e-09	-3.66318e-08	-0.1160585	-0.03550179	4.583224e-09	-1.034006e-08	0.01561221	0.002372426
	0.01567542	0.001907773	4.583224e-09	-1.034006e-08	-0.1161724	-0.03654294	5.646863e-09	-3.862588e-08
	1.306658e-08	-1.324876e-07	0.01561221	0.002372427	5.646863e-09	-3.862588e-08	-0.1160472	-0.0352856
1.5e+08	-0.1210533	-0.02536969	-2.731253e-09	-3.904243e-08	0.01557548	0.0004114666	-1.407135e-08	-1.405994e-07
	-2.731253e-09	-3.904243e-08	-0.1210591	-0.02316116	6.601457e-10	-1.107828e-08	0.01556196	0.0009203078
	0.01557548	0.0004114666	6.601457e-10	-1.107828e-08	-0.1212649	-0.02432492	-2.63336e-09	-4.118537e-08
	-1.407135e-08	-1.405994e-07	0.01556195	0.0009203086	-2.63336e-09	-4.118537e-08	-0.1210352	-0.02292547
1.6e+08	-0.1237293	-0.01248105	-1.145081e-08	-3.970546e-08	0.01514541	-0.001018933	-4.387381e-08	-1.428204e-07
	-1.145081e-08	-3.970546e-08	-0.123515	-0.01020736	-3.688411e-09	-1.093929e-08	0.01518859	-0.0004765267
	0.01514541	-0.001018933	-3.688411e-09	-1.093929e-08	-0.1238377	-0.01146893	-1.177627e-08	-4.191196e-08
	-4.387381e-08	-1.428204e-07	0.01518859	-0.000476526	-1.177627e-08	-4.191196e-08	-0.1234757	-0.009954372
1.7e+08	-0.1238196	0.0005430012	-2.0589e-08	-3.840236e-08	0.01440774	-0.002318528	-7.502357e-08	-1.38439e-07
	-2.0589e-08	-3.840236e-08	-0.1233748	0.002841457	-8.262995e-09	-9.810789e-09	0.01451232	-0.001754912
	0.01440774	-0.002318528	-8.262995e-09	-9.810789e-09	-0.123832	0.001513055	-2.136078e-08	-4.057582e-08
	-7.502357e-08	-1.38439e-07	0.01451232	-0.001754911	-2.136078e-08	-4.057582e-08	-0.1233176	0.003108755
1.8e+08	-0.1213656	0.01319218	-2.969243e-08	-3.50089e-08	0.01339667	-0.003428493	-1.060352e-07	-1.270378e-07
	-2.969243e-08	-3.50089e-08	-0.1206884	0.01547127	-1.283813e-08	-7.626004e-09	0.0135646	-0.002857226
	0.01339667	-0.003428493	-1.283813e-08	-7.626004e-09	-0.1212897	0.01411142	-3.091147e-08	-3.704572e-08
	-1.060352e-07	-1.270378e-07	0.0135646	-0.002857226	-3.091147e-08	-3.704572e-08	-0.1206116	0.01574921
1.9e+08	-0.1165058	0.02497694	-3.827825e-08	-2.950616e-08	0.01215684	-0.004297864	-1.353181e-07	-1.085304e-07
	-3.827825e-08	-2.950616e-08	-0.115604	0.02719075	-1.717243e-08	-4.369128e-09	0.01238698	-0.003733076
	0.01215684	-0.004297864	-1.717243e-08	-4.369128e-09	-0.1163497	0.02583725	-3.992169e-08	-3.130073e-08
	-1.353181e-07	-1.085304e-07	0.01238698	-0.003733076	-3.992169e-08	-3.130073e-08	-0.1155066	0.02747516
2e+08	-0.1094697	0.03544585	-4.58585e-08	-2.198643e-08	0.01074177	-0.004885149	-1.612475e-07	-8.31854e-08
	-4.58585e-08	-2.198643e-08	-0.1083611	0.03754885	-2.101977e-08	-7.861491e-11	0.01102979	-0.004340839
	0.01074177	-0.004885149	-2.101977e-08	-7.861491e-11	-0.1092422	0.03623974	-4.787891e-08	-2.343651e-08
	-1.612475e-07	-8.31854e-08	0.01102979	-0.004340839	-4.787891e-08	-2.343651e-08	-0.1082433	0.03783527
2.1e+08	-0.100569	0.04420161	-5.196531e-08	-1.265361e-08	0.009212238	-0.005159794	-1.822406e-07	-5.163716e-08
	-5.196531e-08	-1.265361e-08	-0.09928177	0.04615102	-2.414097e-08	5.151752e-09	0.009550595	-0.004649095
	0.009212238	-0.005159794	-2.414097e-08	5.151752e-09	-0.1002796	0.0449224	-5.429117e-08	-1.3666e-08
	-1.822406e-07	-5.163716e-08	0.009550595	-0.004649095	-5.429117e-08	-1.3666e-08	-0.09914466	0.04643492
2.2e+08	-0.09018586	0.05091554	-5.617586e-08	-1.817997e-09	0.007634375	-0.005103477	-1.968369e-07	-1.488081e-08
	-5.617586e-08	-1.817997e-09	-0.08875813	0.05267368	-2.631585e-08	1.117418e-08	0.008012491	-0.004637928
	0.007634375	-0.005103477	-2.631585e-08	1.117418e-08	-0.08984507	0.0515575	-5.871332e-08	-2.314165e-09
	-1.968369e-07	-1.488081e-08	0.008012491	-0.004637928	-5.871332e-08	-2.314165e-09	-0.08860396	0.05295073
2.3e+08	-0.07875947	0.05533989	-5.813595e-08	1.011428e-08	0.006077434	-0.004711198	-2.037791e-07	2.574962e-08
	-5.813595e-08	1.011428e-08	-0.07723812	0.05687649	-2.735501e-08	1.77906e-08	0.006482054	-0.004300057
	0.006077434	-0.004711198	-2.735501e-08	1.77906e-08	-0.07837855	0.05589847	-6.077192e-08	1.01929e-08
	-2.037791e-07	2.574962e-08	0.006482054	-0.004300057	-6.077192e-08	1.01929e-08	-0.07707017	0.0571428
2.4e+08	-0.06676943	0.05731771	-5.758097e-08	2.26569e-08	0.004611293	-0.003992048	-2.020913e-07	6.862096e-08
	-5.758097e-08	2.26569e-08	-0.06520873	0.05861202	-2.711104e-08	2.475895e-08	0.005026979	-0.003641679
	0.004611293	-0.003992048	-2.711104e-08	2.475895e-08	-0.0663604	0.05778975	-6.018747e-08	2.334419e-08
	-2.020913e-07	6.862096e-08	0.005026979	-0.003641679	-6.018747e-08	2.334419e-08	-0.06503122	0.05886438
2.5e+08	-0.05471785	0.0567897	-5.435331e-08	3.526338e-08	0.003303635	-0.002969547	-1.911511e-07	1.118594e-07
	-5.435331e-08	3.526338e-08	-0.05317738	0.05783227	-2.54886e-08	3.180178e-08	0.003713402	-0.002682925
	0.003303635	-0.002969547	-2.54886e-08	3.180178e-08	-0.05429332	0.05717368	-5.679298e-08	3.656483e-08
	-1.911511e-07	1.118594e-07	0.003713402	-0.002682925	-5.679298e-08	3.656483e-08	-0.05299533	0.0580684
2.6e+08	-0.04310984	0.05379764	-4.841526e-08	4.73507e-08	0.002216902	-0.001681407	-1.707493e-07	1.534268e-07
	-4.841526e-08	4.73507e-08	-0.04165208	0.05459168	-2.245293e-08	3.861733e-08	0.002602959	-0.001457757
	0.002216902	-0.001681407	-2.245293e-08	3.861733e-08	-0.04268277	0.05409387	-5.054787e-08	4.924095e-08
	-1.707493e-07	1.534268e-07	0.002602959	-0.001457757	-5.054787e-08	4.924095e-08	-0.04147109	0.05481038
2.7e+08	-0.03243328	0.04848391	-3.985675e-08	5.83255e-08	0.00140514	-0.0001785923	-1.411346e-07	1.912134e-07
	-3.985675e-08	5.83255e-08	-0.03112078	0.04904607	-1.803602e-08	4.489268e-08	0.001749717	-1.319029e-05
	0.00140514	-0.0001785923	-1.803602e-08	4.489268e-08	-0.03201664	0.04869469	-4.154637e-08	6.074738e-08
	-1.411346e-07	1.912134e-07	0.001749717	-1.319031e-05	-4.154637e-08	6.074738e-08	-0.03094682	0.04924741
2.8e+08	-0.0231386	0.04108697	-2.889757e-08	6.761181e-08	0.0009109465	0.001476421	-1.030361e-07	2.231429e-07
	-2.889757e-08	6.761181e-08	-0.02203101	0.04144749	-1.234012e-08	5.031859e-08	0.001197165	0.001592257
	0.0009109465	0.001476421	-1.234012e-08	5.031859e-08	-0.02274505	0.04121665	-3.001997e-08	7.047717e-08
	-1.030361e-07	2.231429e-07	0.001197165	0.001592257	-3.001997e-08	7.047717e-08	-0.02187011	0.04163288
2.9e+08	-0.01561949	0.03193243	-1.58836e-08	7.467907e-08	0.0007627427	0.003212188	-5.766072e-08	2.472851e-07
	-1.58836e-08	7.467907e-08	-0.01477054	0.03213467	-5.537818e-09	5.460549e-08	0.0009754931	0.003290926
	0.0007627427	0.003212188	-5.537818e-09	5.460549e-08	-0.01526097	0.03198746	-1.633353e-08	7.787138e-08
	-5.766072e-08	2.472851e-07	0.0009754931	0.003290926	-1.633353e-08	7.787138e-08	-0.01462849	0.03230685
3e+08	-0.01019562	0.02142019	-1.277241e-09	7.90694e-08	0.0009726441	0.004951607	-6.663048e-09	2.619703e-07
	-1.277241e-09	7.90694e-08	-0.0096501	0.02151933	2.131644e-09	5.749993e-08	0.001099424	0.005009126
	0.0009726441	0.004951607	2.131644e-09	5.749993e-08	-0.009882951	0.02140898	-9.750224e-10	8.24481e-08
	-6.663048e-09	2.619703e-07	0.001099424	0.005009126	-9.750224e-10	8.24481e-08	-0.009532166	0.0216824
3.1e+08	-0.0070982	0.01000771	1.435787e-08	8.04228e-08	0.001535162	0.006615818	4.791396e-08	2.658959e-07
	1.435787e-08	8.04228e-08	-0.006889322	0.01006891	1.037001e-08	5.880027e-08	0.00156684	0.006670855
	0.001535162	0.006615818	1.037001e-08	5.880027e-08	-0.006840676	0.009940473	1.546079e-08	8.382936e-08
	4.791396e-08	2.658959e-07	0.00156684	0.006670855	1.546079e-08	8.382936e-08	-0.006799945	0.01022815
3.2e+08	-0.00645942	-0.001809541	3.037748e-08	7.849945e-08	0.002426938	0.008128458	1.037252e-07	2.582195e-07
	3.037748e-08	7.849945e-08	-0.006606563	-0.00171375	1.883161e-08	5.837091e-08	0.002358395	0.00820188
	0.002426938	0.008128458	1.883161e-08	5.837091e-08	-0.006264463	-0.001921083	3.229457e-08	8.176454e-08
	1.037252e-07	2.582195e-07	0.002358395	0.00820188	3.229457e-08	8.176454e-08	-0.006549088	-0.001552012
3.3e+08	-0.008306404	-0.01351988	4.608236e-08	7.319778e-08	0.003607613	0.009419956	1.58233e-07	2.386293e-07
	4.608236e-08	7.319778e-08	-0.008813507	-0.0133126	2.713865e-08	5.615383e-08	0.003438224	0.009533884
	0.003607613	0.009419956	2.713865e-08	5.615383e-08	-0.008179259	-0.01366284	4.878971e-08	7.614931e-08
	1.58233e-07	2.386293e-07	0.003438224	0.009533884	4.878971e-08	7.614931e-08	-0.008789899	-0.01314123
3.4e+08	-0.01256009	-0.02461797	6.074645e-08	6.456954e-08	0.005021824	0.01043151	2.088103e-07	2.073647e-07
	6.074645e-08	6.456954e-08	-0.0134147	-0.02422134	3.48978e-08	5.217533e-08	0.004755752	0.01060835
	0.005021824	0.01043151	3.48978e-08	5.217533e-08	-0.01250364	-0.02477871	6.418234e-08	6.704075e-08
	2.088103e-07	2.073647e-07	0.004755752	0.01060835	6.418234e-08	6.704075e-08	-0.01342536	-0.02403273
3.5e+08	-0.01903932	-0.03462717	7.365377e-08	5.281439e-08	0.006602211	0.01111846	2.529301e-07	1.65298e-07
	7.365377e-08	5.281439e-08	-0.02021236	-0.03396595	4.172402e-08	4.655218e-08	0.006248478	0.01137982
	0.006602211	0.01111846	4.172402e-08	4.655218e-08	-0.01905389	-0.03479179	7.77205e-08	5.465317e-08
	2.529301e-07	1.65298e-07	0.006248478	0.01137982	7.77205e-08	5.465317e-08	-0.02025609	-0.03375233
3.6e+08	-0.02746958	-0.04312024	8.412839e-08	3.829533e-08	0.008273195	0.01145268	2.882652e-07	1.138427e-07
	8.412839e-08	3.829533e-08	-0.02891603	-0.04212546	4.725838e-08	3.948665e-08	0.007845521	0.01181835
	0.008273195	0.01145268	4.725838e-08	3.948665e-08	-0.02755295	-0.04327506	8.869601e-08	3.937164e-08
	2.882652e-07	1.138427e-07	0.007845521	0.01181835	8.869601e-08	3.937164e-08	-0.02898993	-0.04187927
3.7e+08	-0.03749618	-0.04973753	9.157135e-08	2.152441e-08	0.009955232	0.01142398	3.128158e-07	5.491305e-08
	9.157135e-08	2.152441e-08	-0.03915647	-0.04834992	5.118834e-08	3.126046e-08	0.009471638	0.01191086
	0.009955232	0.01142398	5.118834e-08	3.126046e-08	-0.03764365	-0.04986961	9.648296e-08	2.173698e-08
	3.128158e-07	5.491305e-08	0.009471638	0.01191086	9.648296e-08	2.173698e-08	-0.03925604	-0.04806413
3.8e+08	-0.04870077	-0.05420158	9.549433e-08	3.145377e-09	0.01156919	0.01104023	3.250201e-07	-9.155751e-09
	9.549433e-08	3.145377e-09	-0.05050306	-0.0523746	5.326589e-08	2.222339e-08	0.01105136	0.01166142
	0.01156919	0.01104023	5.326589e-08	2.222339e-08	-0.04890539	-0.05429914	1.005727e-07	2.42703e-09
	3.250201e-07	-9.155751e-09	0.01105136	0.01166142	1.005727e-07	2.42703e-09	-0.05062225	-0.05204313
3.9e+08	-0.06062049	-0.0563275	9.554931e-08	-1.609104e-08	0.0130405	0.0103265	3.238405e-07	-7.571409e-08
	9.554931e-08	-1.609104e-08	-0.06248344	-0.0540299	5.332227e-08	1.27775e-08	0.01251296	0.01109047
	0.0130405	0.0103265	5.332227e-08	1.27775e-08	-0.06087327	-0.05638034	1.006043e-07	-1.776958e-08
	3.238405e-07	-7.571409e-08	0.01251296	0.01109047	1.006043e-07	-1.776958e-08	-0.06261487	-0.05364791
4e+08	-0.07276837	-0.05602897	9.155253e-08	-3.535876e-08	0.01430282	0.0093231	3.088203e-07	-1.419198e-07
	9.155253e-08	-3.535876e-08	-0.07460445	-0.05324664	5.127862e-08	3.358312e-09	0.01379191	0.01023313
	0.01430282	0.0093231	5.127862e-08	3.358312e-09	-0.07305866	-0.05602882	9.638943e-08	-3.798677e-08
	3.088203e-07	-1.419198e-07	0.01379191	0.01023313	9.638943e-08	-3.798677e-08	-0.07473972	-0.05281085
4.1e+08	-0.08465404	-0.0533196	8.350085e-08	-5.379359e-08	0.01530101	0.008083034	2.801128e-07	-2.04868e-07
	8.350085e-08	-5.379359e-08	-0.08637327	-0.05005676	4.715185e-08	-5.586015e-09	0.01483375	0.0091368
	0.01530101	0.008083034	4.715185e-08	-5.586015e-09	-0.08496993	-0.0532604	8.79286e-08	-5.732e-08
	2.801128e-07	-2.04868e-07	0.01483375	0.0091368	8.79286e-08	-5.732e-08	-0.08650325	-0.04956564
4.2e+08	-0.09580385	-0.04831018	7.157919e-08	-7.053402e-08	0.0159932	0.006668863	2.384803e-07	-2.617218e-07
	7.157919e-08	-7.053402e-08	-0.09731761	-0.04458968	4.105551e-08	-1.361615e-08	0.01559607	0.007858325
	0.0159932	0.006668863	4.105551e-08	-1.361615e-08	-0.09613257	-0.04818822	7.541851e-08	-7.486865e-08
	2.384803e-07	-2.617218e-07	0.01559607	0.007858325	7.541851e-08	-7.486865e-08	-0.09743284	-0.04404361
4.3e+08	-0.1057793	-0.0412019	5.615826e-08	-8.476321e-08	0.01635208	0.005149421	1.852662e-07	-3.098374e-07
	5.615826e-08	-8.476321e-08	-0.1070043	-0.0370648	3.319579e-08	-2.032254e-08	0.01604982	0.006460974
	0.01635208	0.005149421	3.319579e-08	-2.032254e-08	-0.1061078	-0.04101599	5.924946e-08	-8.977965e-08
	1.852662e-07	-3.098374e-07	0.01604982	0.006460974	5.924946e-08	-8.977965e-08	-0.1070953	-0.03646613
4.4e+08	-0.1141936	-0.03227649	3.778266e-08	-9.574978e-08	0.0163654	0.003596523	1.223426e-07	-3.468785e-07
	3.778266e-08	-9.574978e-08	-0.1150553	-0.02778075	2.386303e-08	-2.534469e-08	0.01617979	0.00501141
	0.0163654	0.003596523	2.386303e-08	-2.534469e-08	-0.1145087	-0.0320279	3.999264e-08	-1.012896e-07
	1.223426e-07	-3.468785e-07	0.01617979	0.00501141	3.999264e-08	-1.012896e-07	-0.1151134	-0.0271338
4.5e+08	-0.1207252	-0.0218836	1.714978e-08	-1.028849e-07	0.01603571	0.002081877	5.203849e-08	-3.709164e-07
	1.714978e-08	-1.028849e-07	-0.1211616	-0.01710212	1.341941e-08	-2.838782e-08	0.01598452	0.003576852
	0.01603571	0.002081877	1.341941e-08	-2.838782e-08	-0.1210145	-0.02157603	1.837827e-08	-1.08763e-07
	5.203849e-08	-3.709164e-07	0.01598452	0.003576852	1.837827e-08	-1.08763e-07	-0.1211786	-0.01641305
4.6e+08	-0.1251287	-0.01042626	-4.919041e-09	-1.057139e-07	0.0153796	0.0006742922	-2.29497e-08	-3.805126e-07
	-4.919041e-09	-1.057139e-07	-0.125093	-0.005444237	2.283539e-09	-2.923637e-08	0.01547566	0.002222506
	0.0153796	0.0006742922	2.283539e-09	-2.923637e-08	-0.1253807	-0.01006569	-4.734435e-09	-1.117255e-07
	-2.29497e-08	-3.805126e-07	0.01547566	0.002222506	-4.734436e-09	-1.117255e-07	-0.1250623	-0.004720851
4.7e+08	-0.1272428	0.001655004	-2.751371e-08	-1.039605e-07	0.01442657	-0.0005627496	-9.965854e-08	-3.747828e-07
	-2.751371e-08	-1.039605e-07	-0.1267059	0.006743294	-9.08697e-09	-2.776372e-08	0.01467704	0.001009323
	0.01442657	-0.0005627496	-9.08697e-09	-2.776372e-08	-0.1274472	0.002060558	-2.839355e-08	-1.098882e-07
	-9.965854e-08	-3.747828e-07	0.01467704	0.001009323	-2.839355e-08	-1.098882e-07	-0.1266224	0.007491829
4.8e+08	-0.1269948	0.01389891	-4.967477e-08	-9.754292e-08	0.01321751	-0.001573159	-1.749679e-07	-3.534419e-07
