!$
! Info: Touchstone file created by Circ.  Input file=Tx_12in_Rx_85ohms_TxVia_60mils_RxVia_70mils.circ
!$
# Hz S RI R 50
0	0.009711925	1.777544e-25	3.060063e-08	3.762518e-26	8.766423e-05	2.118891e-23	6.509876e-08	8.911113e-27
	3.060063e-08	3.762495e-26	0.009707269	1.918378e-25	6.293026e-08	1.221134e-25	8.441952e-05	2.364713e-23
	8.88882e-05	2.058668e-23	6.293027e-08	1.221122e-25	0.009722555	1.762813e-25	2.379211e-08	5.01861e-26
	6.509879e-08	8.911462e-27	8.46891e-05	2.374853e-23	2.379241e-08	5.019168e-26	0.009721672	1.910036e-25
1e+07	0.01220617	-0.01148585	5.301332e-08	9.192396e-08	0.0004628412	0.002256833	1.490254e-07	2.599065e-07
	5.301333e-08	9.192397e-08	0.01219264	-0.01148414	7.724723e-08	2.909307e-07	0.0004584103	0.002258245
	0.0004629111	0.0022568	7.724724e-08	2.909307e-07	0.01218338	-0.01147262	4.263246e-08	1.279447e-07
	1.490254e-07	2.599065e-07	0.000458413	0.002258243	4.263245e-08	1.279447e-07	0.01216894	-0.01147055
2e+07	0.01090998	-0.02599448	9.218516e-08	1.558335e-07	0.001351727	0.004273324	3.409094e-07	3.8146e-07
	9.218517e-08	1.558335e-07	0.01085716	-0.02598226	1.105951e-07	5.042403e-07	0.001334717	0.004279662
	0.001351711	0.004273287	1.105951e-07	5.042403e-07	0.01090081	-0.02595838	9.606522e-08	1.761282e-07
	3.409094e-07	3.8146e-07	0.001334714	0.004279663	9.606521e-08	1.761282e-07	0.01084429	-0.02594492
3e+07	0.00481907	-0.04073259	1.380076e-07	2.022359e-07	0.002687777	0.005967433	5.780452e-07	4.186935e-07
	1.380076e-07	2.022359e-07	0.004705414	-0.04069036	1.203655e-07	7.249473e-07	0.0026519	0.005984993
	0.002687773	0.005967433	1.203655e-07	7.249473e-07	0.004820972	-0.04068522	1.509636e-07	2.232288e-07
	5.780452e-07	4.186935e-07	0.0026519	0.005984995	1.509636e-07	2.232288e-07	0.004699514	-0.0406393
4e+07	-0.00516282	-0.05370269	1.854169e-07	2.302208e-07	0.004372284	0.007243619	8.325402e-07	3.597796e-07
	1.854168e-07	2.302208e-07	-0.005350969	-0.05360403	1.178884e-07	9.533288e-07	0.004313819	0.007280848
	0.004372289	0.007243618	1.178884e-07	9.533288e-07	-0.005151527	-0.0536482	2.03565e-07	2.534096e-07
	8.325402e-07	3.597796e-07	0.00431382	0.007280849	2.03565e-07	2.534096e-07	-0.005352504	-0.05354171
5e+07	-0.01819672	-0.06389355	2.29086e-07	2.39736e-07	0.006281338	0.008033305	1.073795e-06	1.988925e-07
	2.29086e-07	2.39736e-07	-0.01846292	-0.06370729	1.079016e-07	1.189744e-06	0.006199782	0.008099791
	0.00628134	0.008033303	1.079016e-07	1.189744e-06	-0.01817809	-0.06383441	2.512113e-07	2.643325e-07
	1.073795e-06	1.988925e-07	0.006199783	0.008099791	2.512112e-07	2.643325e-07	-0.01846238	-0.0636339
6e+07	-0.03336077	-0.07063927	2.63039e-07	2.322772e-07	0.00827896	0.008303932	1.266961e-06	-6.00194e-08
	2.63039e-07	2.322772e-07	-0.03369716	-0.07033366	9.511825e-08	1.4361e-06	0.008177209	0.008409285
	0.00827896	0.008303934	9.511824e-08	1.4361e-06	-0.03333693	-0.07057674	2.881875e-07	2.570084e-07
	1.266961e-06	-6.001941e-08	0.00817721	0.008409285	2.881875e-07	2.570084e-07	-0.03369593	-0.07024823
7e+07	-0.04966842	-0.07355862	2.817145e-07	2.112383e-07	0.0102286	0.008060008	1.378597e-06	-4.009309e-07
	2.817145e-07	2.112382e-07	-0.05005645	-0.07310525	8.449605e-08	1.693311e-06	0.01011281	0.0082128
	0.0102286	0.008060014	8.449605e-08	1.693311e-06	-0.04964133	-0.07349311	3.086197e-07	2.348382e-07
	1.378597e-06	-4.009309e-07	0.01011281	0.008212799	3.086197e-07	2.348382e-07	-0.05005504	-0.07300635
8e+07	-0.06611586	-0.07253709	2.806943e-07	1.817548e-07	0.01200321	0.007340569	1.381213e-06	-7.969137e-07
	2.806943e-07	1.817548e-07	-0.06652795	-0.07191385	8.104114e-08	1.960747e-06	0.01188237	0.007547363
	0.01200321	0.007340577	8.104114e-08	1.960747e-06	-0.0660872	-0.07246835	3.076755e-07	2.032365e-07
	1.381213e-06	-7.969137e-07	0.01188237	0.007547363	3.076756e-07	2.032365e-07	-0.06652612	-0.07179985
9e+07	-0.08173562	-0.0677094	2.572863e-07	1.502676e-07	0.01349365	0.006214224	1.256647e-06	-1.212765e-06
	2.572862e-07	1.502676e-07	-0.08213735	-0.06690287	8.938829e-08	2.23612e-06	0.01337893	0.006478745
	0.01349365	0.006214229	8.938829e-08	2.23612e-06	-0.08170671	-0.06763672	2.822964e-07	1.691377e-07
	1.256647e-06	-1.212765e-06	0.01337893	0.006478745	2.822964e-07	1.691377e-07	-0.08213408	-0.06677222
1e+08	-0.09565023	-0.0594357	2.108874e-07	1.238962e-07	0.01461719	0.004773598	9.982254e-07	-1.608415e-06
	2.108874e-07	1.238962e-07	-0.096003	-0.05844292	1.132864e-07	2.515613e-06	0.01452102	0.005096123
	0.01461719	0.004773598	1.132864e-07	2.515613e-06	-0.09562221	-0.05935819	2.316557e-07	1.403404e-07
	9.982254e-07	-1.608415e-06	0.01452102	0.005096123	2.316557e-07	1.403404e-07	-0.09599679	-0.05829451
1.1e+08	-0.107107	-0.04824323	1.430332e-07	1.091753e-07	0.01531477	0.003107747	6.158552e-07	-1.94712e-06
	1.430332e-07	1.091753e-07	-0.10737	-0.04707319	1.517084e-07	2.797124e-06	0.01524973	0.003484733
	0.01531477	0.003107747	1.517084e-07	2.797124e-06	-0.1070803	-0.0481582	1.577935e-07	1.247692e-07
	6.158552e-07	-1.94712e-06	0.01524973	0.003484733	1.577935e-07	1.247692e-07	-0.1073583	-0.04690524
1.2e+08	-0.1155006	-0.03484647	5.696981e-08	1.128802e-07	0.01554026	0.001342748	1.218657e-07	-2.190496e-06
	5.696981e-08	1.128802e-07	-0.115636	-0.03352006	2.072657e-07	3.074249e-06	0.01551801	0.001766925
	0.01554026	0.001342748	2.072657e-07	3.074249e-06	-0.1154738	-0.03475266	6.41129e-08	1.292472e-07
	1.218657e-07	-2.190496e-06	0.01551801	0.001766926	6.41129e-08	1.292472e-07	-0.1156149	-0.03333291
1.3e+08	-0.1204382	-0.02005421	-4.210424e-08	1.404728e-07	0.01529491	-0.0004024339	-4.578145e-07	-2.30571e-06
	-4.210424e-08	1.404728e-07	-0.1204139	-0.0186035	2.788583e-07	3.34168e-06	0.01532513	5.817778e-05
	0.01529491	-0.0004024337	2.788583e-07	3.34168e-06	-0.1204099	-0.01995101	-4.375222e-08	1.597052e-07
	-4.578145e-07	-2.30571e-06	0.01532513	5.817879e-05	-4.375222e-08	1.597052e-07	-0.1203797	-0.0183989
1.4e+08	-0.1217259	-0.004730982	-1.475066e-07	1.959031e-07	0.01460354	-0.002015959	-1.088424e-06	-2.267243e-06
	-1.475066e-07	1.959031e-07	-0.1215187	-0.003197528	3.636411e-07	3.594564e-06	0.0146929	-0.00153255
	0.01460354	-0.002015959	3.636411e-07	3.594564e-06	-0.1216944	-0.004618331	-1.585637e-07	2.204462e-07
	-1.088424e-06	-2.267243e-06	0.0146929	-0.001532549	-1.585637e-07	2.204462e-07	-0.1214684	-0.002978415
1.5e+08	-0.1193756	0.01024764	-2.515136e-07	2.812402e-07	0.01351454	-0.0033963	-1.728344e-06	-2.059032e-06
	-2.515136e-07	2.812402e-07	-0.1189737	0.01181533	4.572528e-07	3.829092e-06	0.0136659	-0.002905739
	0.01351454	-0.0033963	4.572528e-07	3.829092e-06	-0.1193395	0.01036924	-2.719489e-07	3.137495e-07
	-1.728344e-06	-2.059032e-06	0.0136659	-0.002905738	-2.719489e-07	3.137495e-07	-0.1189052	0.012045
1.6e+08	-0.1136001	0.02404033	-3.458768e-07	3.964315e-07	0.01209722	-0.004456313	-2.331549e-06	-1.676158e-06
	-3.458768e-07	3.964315e-07	-0.1130051	0.02559	5.542438e-07	4.042961e-06	0.01230909	-0.003975175
	0.01209722	-0.004456313	5.542438e-07	4.042961e-06	-0.1135579	0.02416986	-3.749503e-07	4.396078e-07
	-2.331549e-06	-1.676158e-06	0.01230909	-0.003975174	-3.749503e-07	4.396078e-07	-0.1129174	0.02582555
1.7e+08	-0.1047986	0.03588296	-4.223844e-07	5.391955e-07	0.01043852	-0.005126943	-2.850428e-06	-1.125973e-06
	-4.223844e-07	5.391955e-07	-0.1040267	0.03736229	6.486367e-07	4.235638e-06	0.01070482	-0.004671515
	0.01043852	-0.005126942	6.486367e-07	4.235638e-06	-0.1047495	0.03601894	-4.586252e-07	5.956018e-07
	-2.850428e-06	-1.125973e-06	0.01070482	-0.004671514	-4.586252e-07	5.956018e-07	-0.1039201	0.03759863
1.8e+08	-0.09353486	0.04512767	-4.734397e-07	7.050517e-07	0.008639249	-0.005360548	-3.238931e-06	-4.285961e-07
	-4.734397e-07	7.050517e-07	-0.09261658	0.04648826	7.345349e-07	4.408418e-06	0.008949375	-0.004945563
	0.008639249	-0.005360548	7.345349e-07	4.408418e-06	-0.0934782	0.0452683	-5.146675e-07	7.7692e-07
	-3.238931e-06	-4.285961e-07	0.008949375	-0.004945562	-5.146675e-07	7.7692e-07	-0.09249284	0.04672031
1.9e+08	-0.08050654	0.05127686	-4.926261e-07	8.874898e-07	0.006809573	-0.005133811	-3.455897e-06	3.833341e-07
	-4.926261e-07	8.874898e-07	-0.07948591	0.05247815	8.066902e-07	4.564258e-06	0.007148849	-0.004771213
	0.006809573	-0.005133811	8.066902e-07	4.564258e-06	-0.08044237	0.05142016	-5.360232e-07	9.76527e-07
	-3.455897e-06	3.833341e-07	0.007148849	-0.004771213	-5.360232e-07	9.76527e-07	-0.07934836	0.05270126
2e+08	-0.06650853	0.05401044	-4.752304e-07	1.078277e-06	0.005063709	-0.00445	-3.468436e-06	1.265763e-06
	-4.752304e-07	1.078277e-06	-0.06544096	0.05502344	8.609517e-07	4.707438e-06	0.005414147	-0.004147848
	0.005063709	-0.00445	8.609517e-07	4.707438e-06	-0.06643746	0.0541544	-5.174681e-07	1.185481e-06
	-3.468436e-06	1.265763e-06	0.005414148	-0.004147848	-5.174681e-07	1.185481e-06	-0.06529423	0.05523378
2.1e+08	-0.05238985	0.05320491	-4.186937e-07	1.267894e-06	0.003513754	-0.003340252	-3.25514e-06	2.165249e-06
	-4.186937e-07	1.267894e-06	-0.05133903	0.05401529	8.945431e-07	4.843117e-06	0.003855102	-0.003101828
	0.003513754	-0.003340252	8.945431e-07	4.843117e-06	-0.05231309	0.05334765	-4.561139e-07	1.393399e-06
	-3.25514e-06	2.165249e-06	0.003855102	-0.003101828	-4.561139e-07	1.393399e-06	-0.05118888	0.05421026
2.2e+08	-0.03900637	0.04894249	-3.229581e-07	1.446091e-06	0.00226277	-0.001863401	-2.808838e-06	3.021948e-06
	-3.229581e-07	1.446091e-06	-0.03804033	0.04955289	9.061542e-07	4.976862e-06	0.002573789	-0.001686609
	0.00226277	-0.001863401	9.061542e-07	4.976862e-06	-0.03892568	0.04908246	-3.518052e-07	1.589058e-06
	-2.808838e-06	3.021948e-06	0.002573789	-0.001686609	-3.518052e-07	1.589058e-06	-0.03789332	0.04973144
2.3e+08	-0.02717135	0.04150902	-1.906764e-07	1.602534e-06	0.001397533	-0.0001039326	-2.138589e-06	3.773475e-06
	-1.906764e-07	1.602534e-06	-0.02635789	0.04194031	8.958704e-07	5.11424e-06	0.001657436	1.896165e-05
	0.001397533	-0.0001039326	8.958704e-07	5.11424e-06	-0.02708896	0.04164514	-2.07368e-07	1.761108e-06
	-2.138589e-06	3.773475e-06	0.001657436	1.89616e-05	-2.07368e-07	1.761108e-06	-0.02622094	0.04210312
2.4e+08	-0.0176067	0.03137972	-2.725763e-08	1.727528e-06	0.0009815638	0.001832245	-1.270588e-06	4.359449e-06
	-2.725763e-08	1.727528e-06	-0.01700844	0.03167093	8.649985e-07	5.260516e-06	0.001171504	0.001914489
	0.0009815638	0.001832245	8.649985e-07	5.260516e-06	-0.01752519	0.03151148	-2.86742e-08	1.898873e-06
	-1.270588e-06	4.359449e-06	0.001171504	0.001914489	-2.86742e-08	1.898873e-06	-0.01688838	0.03182057
2.5e+08	-0.01089808	0.01919256	1.592768e-07	1.81275e-06	0.001049238	0.003824248	-2.477267e-07	4.726386e-06
	1.592768e-07	1.81275e-06	-0.0105676	0.01939951	8.158626e-07	5.420477e-06	0.001153767	0.003884085
	0.001049238	0.003824248	8.158626e-07	5.420477e-06	-0.01082022	0.01932017	1.755102e-07	1.993174e-06
	-2.477267e-07	4.726386e-06	0.001153767	0.003884085	1.755102e-07	1.993174e-06	-0.01047063	0.01954038
2.6e+08	-0.007457555	0.005710449	3.586403e-07	1.851973e-06	0.001601819	0.005744558	8.723407e-07	4.832503e-06
	3.586403e-07	1.851973e-06	-0.007432826	0.00590301	7.516411e-07	5.598359e-06	0.001610202	0.005804331
	0.001601819	0.005744557	7.516411e-07	5.598359e-06	-0.007386109	0.005834877	3.939089e-07	2.037139e-06
	8.723407e-07	4.832503e-06	0.001610202	0.005804331	3.939089e-07	2.037139e-06	-0.00736406	0.006041223
2.7e+08	-0.007496711	-0.008225819	5.588346e-07	1.841699e-06	0.002606135	0.007468599	2.020604e-06	4.651924e-06
	5.588346e-07	1.841699e-06	-0.007797408	-0.007967668	6.76286e-07	5.797819e-06	0.002513418	0.007553505
	0.002606135	0.007468599	6.76286e-07	5.797819e-06	-0.007434248	-0.008102837	6.133543e-07	2.026907e-06
	2.020604e-06	4.651924e-06	0.002513418	0.007553505	6.133543e-07	2.026907e-06	-0.007760394	-0.007824614
2.8e+08	-0.01101305	-0.02175053	7.468896e-07	1.781644e-06	0.003996299	0.008884563	3.121365e-06	4.177804e-06
	7.468896e-07	1.781644e-06	-0.01163792	-0.02134168	5.945253e-07	6.021873e-06	0.003804049	0.009021125
	0.003996299	0.008884563	5.945253e-07	6.021873e-06	-0.01096172	-0.02162654	8.196172e-07	1.962167e-06
	3.121365e-06	4.177804e-06	0.003804049	0.009021125	8.196172e-07	1.962167e-06	-0.01163427	-0.0211853
2.9e+08	-0.01779084	-0.03402809	9.097555e-07	1.675021e-06	0.005678499	0.009902375	4.097763e-06	3.423957e-06
	9.097555e-07	1.675021e-06	-0.01871651	-0.03338387	5.119019e-07	6.272737e-06	0.005395133	0.01011674
	0.005678499	0.009902375	5.119019e-07	6.272737e-06	-0.01775217	-0.03389999	9.984e-07	1.846457e-06
	4.097763e-06	3.423957e-06	0.005395133	0.01011674	9.984e-07	1.846457e-06	-0.01874563	-0.03320521
3e+08	-0.02741662	-0.04430566	1.03528e-06	1.528557e-06	0.007538388	0.01046076	4.877646e-06	2.424771e-06
	1.03528e-06	1.528557e-06	-0.02859788	-0.04334774	4.347715e-07	6.551559e-06	0.007179049	0.01077689
	0.007538388	0.01046076	4.347715e-07	6.551559e-06	-0.02739134	-0.04416991	1.13642e-06	1.687168e-06
	4.877646e-06	2.424771e-06	0.007179049	0.01077689	1.13642e-06	1.687168e-06	-0.02865686	-0.04313795
3.1e+08	-0.03930783	-0.05195952	1.113191e-06	1.352226e-06	0.009450246	0.01053163	5.399188e-06	1.233368e-06
	1.113191e-06	1.352226e-06	-0.04067955	-0.05062154	3.701729e-07	6.858045e-06	0.0090362	0.01096957
	0.009450246	0.01053163	3.701729e-07	6.858045e-06	-0.03929573	-0.0518123	1.222483e-06	1.495227e-06
	5.399188e-06	1.233368e-06	0.0090362	0.01096957	1.222483e-06	1.495227e-06	-0.0407632	-0.05037248
3.2e+08	-0.05275218	-0.05653156	1.135989e-06	1.158683e-06	0.01128684	0.01012136	5.615728e-06	-8.177708e-08
	1.135989e-06	1.158683e-06	-0.05423269	-0.0547642	3.255053e-07	7.190071e-06	0.01084442	0.01069565
	0.01128684	0.01012136	3.255053e-07	7.190071e-06	-0.05275206	-0.05636906	1.248451e-06	1.284459e-06
	5.615728e-06	-8.177708e-08	0.01084442	0.01069565	1.248451e-06	1.284459e-06	-0.05433372	-0.05446903
3.3e+08	-0.06695423	-0.05775376	1.099664e-06	9.624501e-07	0.01292892	0.009269043	5.499388e-06	-1.441433e-06
	1.099664e-06	9.624501e-07	-0.06844992	-0.05552875	3.079959e-07	7.543383e-06	0.01248805	0.009987486
	0.01292892	0.009269043	3.079959e-07	7.543383e-06	-0.06696384	-0.05757248	1.209992e-06	1.070685e-06
	5.499388e-06	-1.441433e-06	0.01248805	0.009987486	1.209992e-06	1.070685e-06	-0.06855929	-0.05518253
3.4e+08	-0.08108537	-0.05555964	1.004131e-06	7.789013e-07	0.01427334	0.008042246	5.043235e-06	-2.76093e-06
	1.004131e-06	7.789013e-07	-0.08249626	-0.05287257	3.239856e-07	7.911486e-06	0.01386574	0.008904975
	0.01427334	0.008042246	3.239856e-07	7.911486e-06	-0.08110153	-0.05535666	1.107041e-06	8.706217e-07
	5.043235e-06	-2.76093e-06	0.01386574	0.008904975	1.107041e-06	8.706217e-07	-0.08260369	-0.05247268
3.5e+08	-0.09433359	-0.05008274	8.533703e-07	6.23167e-07	0.01523925	0.006530832	4.261891e-06	-3.955728e-06
	8.533703e-07	6.23167e-07	-0.09555949	-0.04695427	3.781421e-07	8.285819e-06	0.01489648	0.007529959
	0.01523925	0.006530832	3.781421e-07	8.285819e-06	-0.09435237	-0.04985594	9.439351e-07	7.00688e-07
	4.261891e-06	-3.955728e-06	0.01489648	0.007529959	9.439351e-07	7.00688e-07	-0.09565408	-0.04650067
3.6e+08	-0.1059499	-0.04164333	6.552419e-07	5.090375e-07	0.01577205	0.004839859	3.190706e-06	-4.946795e-06
	6.552419e-07	5.090375e-07	-0.1068967	-0.03811892	4.727084e-07	8.656247e-06	0.01552343	0.005959605
	0.01577205	0.004839859	4.727084e-07	8.656247e-06	-0.1059668	-0.04139157	7.29188e-07	5.758385e-07
	3.190706e-06	-4.946795e-06	0.01552343	0.005959605	7.29188e-07	5.758385e-07	-0.1069676	-0.03761427
3.7e+08	-0.1152888	-0.03072522	4.210001e-07	4.47976e-07	0.01584519	0.003082232	1.88368e-06	-5.665446e-06
	4.210001e-07	4.47976e-07	-0.1158747	-0.02687321	6.069373e-07	9.011841e-06	0.01571579	0.004299595
	0.01584519	0.003082232	6.069373e-07	9.011841e-06	-0.1152991	-0.03044853	4.749627e-07	5.085142e-07
	1.88368e-06	-5.665446e-06	0.01571579	0.004299595	4.749627e-07	5.085142e-07	-0.1159117	-0.02632292
3.8e+08	-0.1218413	-0.01794487	1.645706e-07	4.483154e-07	0.01546	0.001371738	4.103936e-07	-6.057413e-06
	1.645706e-07	4.483154e-07	-0.122002	-0.01385317	7.76822e-07	9.341869e-06	0.01546889	0.002657672
	0.01546	0.001371738	7.76822e-07	9.341869e-06	-0.1218401	-0.01764449	1.962972e-07	5.077938e-07
	4.103936e-07	-6.057413e-06	0.01546889	0.002657672	1.962972e-07	5.077938e-07	-0.1219964	-0.0132651
3.9e+08	-0.1252589	-0.004015023	-9.834326e-08	5.14691e-07	0.01464418	-0.0001831464	-1.147766e-06	-6.086045e-06
	-9.834326e-08	5.14691e-07	-0.1249524	0.0002135244	9.751936e-07	9.636862e-06	0.01480297	0.001137863
	0.01464418	-0.0001831464	9.751936e-07	9.636862e-06	-0.1252419	-0.003693411	-8.984396e-08	5.787925e-07
	-1.147766e-06	-6.086045e-06	0.01480297	0.001137863	-8.984396e-08	5.787925e-07	-0.1248976	0.0008293568
4e+08	-0.1253695	0.01029497	-3.512434e-07	6.477307e-07	0.01344917	-0.001484553	-2.701886e-06	-5.734574e-06
	-3.512434e-07	6.477307e-07	-0.1245796	0.01454822	1.1922e-06	9.889614e-06	0.01376101	-0.0001644731
	0.01344917	-0.001484553	1.1922e-06	9.889614e-06	-0.1253327	0.01063429	-3.656087e-07	7.223286e-07
	-2.701886e-06	-5.734574e-06	0.01376101	-0.000164473	-3.656087e-07	7.223286e-07	-0.1244712	0.01518023
4.1e+08	-0.1221832	0.02420039	-5.778383e-07	8.439997e-07	0.01194691	-0.002449632	-4.16012e-06	-5.00747e-06
	-5.778383e-07	8.439997e-07	-0.1209214	0.02836323	1.416115e-06	1.009597e-05	0.01240599	-0.001166847
	0.01194691	-0.002449632	1.416115e-06	1.009597e-05	-0.1221239	0.02455293	-6.133161e-07	9.348519e-07
	-4.16012e-06	-5.00747e-06	0.01240599	-0.001166847	-6.133161e-07	9.348519e-07	-0.1207582	0.02899889
4.2e+08	-0.115891	0.03694208	-7.630022e-07	1.096179e-06	0.01022612	-0.003014197	-5.432462e-06	-3.930881e-06
	-7.630022e-07	1.096179e-06	-0.1141967	0.04090327	1.634382e-06	1.025528e-05	0.01081768	-0.001803198
	0.01022612	-0.003014197	1.634382e-06	1.025528e-05	-0.1158073	0.0373027	-8.164762e-07	1.208612e-06
	-5.432462e-06	-3.930881e-06	0.01081768	-0.001803198	-8.164762e-07	1.208612e-06	-0.1139805	0.04152983
4.3e+08	-0.1068531	0.04782597	-8.936476e-07	1.393447e-06	0.008388104	-0.00313573	-6.435608e-06	-2.552142e-06
	-8.936476e-07	1.393447e-06	-0.1047928	0.05148491	1.834743e-06	1.037048e-05	0.009089064	-0.002026951
	0.008388104	-0.00313573	1.834743e-06	1.037048e-05	-0.1067447	0.04818912	-9.607297e-07	1.532041e-06
	-6.435608e-06	-2.552142e-06	0.009089064	-0.002026951	-9.607297e-07	1.532041e-06	-0.1045285	0.05209016
4.4e+08	-0.09558128	0.05625946	-9.594823e-07	1.72203e-06	0.006542208	-0.002795787	-7.097793e-06	-9.38315e-07
	-9.594823e-07	1.72203e-06	-0.09324553	0.05953271	2.006319e-06	1.04478e-05	0.007322243	-0.001813609
	0.006542208	-0.002795787	2.006319e-06	1.04478e-05	-0.09544888	0.05661951	-1.034676e-06	1.890308e-06
	-7.097793e-06	-9.38315e-07	0.007322243	-0.001813609	-1.034676e-06	1.890308e-06	-0.09294112	0.06010579
4.5e+08	-0.08271225	0.06178355	-9.53628e-07	2.065891e-06	0.004800644	-0.002001752	-7.363451e-06	8.263362e-07
	-9.53628e-07	2.065891e-06	-0.08021148	0.06461064	2.14048e-06	1.049606e-05	0.005623791	-0.001162805
	0.004800644	-0.002001752	2.14048e-06	1.049606e-05	-0.08255815	0.06213515	-1.030571e-06	2.266045e-06
	-7.363451e-06	8.263362e-07	0.005623791	-0.001162805	-1.030571e-06	2.266045e-06	-0.07987745	0.0651427
4.6e+08	-0.06897518	0.06409909	-8.730886e-07	2.407533e-06	0.003272747	-0.0007876922	-7.197477e-06	2.64399e-06
	-8.730886e-07	2.407533e-06	-0.06643381	0.06644722	2.23142e-06	1.052587e-05	0.004099363	-9.957386e-05
	0.003272747	-0.0007876922	2.23142e-06	1.052587e-05	-0.06880293	0.06443743	-9.448706e-07	2.640189e-06
	-7.197477e-06	2.64399e-06	0.004099363	-9.957386e-05	-9.448706e-07	2.640189e-06	-0.06608275	0.06693211
4.7e+08	-0.05515295	0.06308556	-7.190534e-07	2.728886e-06	0.002058666	0.0007859622	-6.588806e-06	4.408069e-06
	-7.190534e-07	2.728886e-06	-0.0527025	0.06495295	2.27638e-06	1.054861e-05	0.002847682	0.001325482
	0.002058666	0.0007859622	2.27638e-06	1.054861e-05	-0.05496724	0.06340675	-7.786046e-07	2.992951e-06
	-6.588806e-06	4.408069e-06	0.002847682	0.001325482	-7.786046e-07	2.992951e-06	-0.05234845	0.06538765
4.8e+08	-0.04203928	0.05881104	-4.970218e-07	3.012261e-06	0.001242752	0.002634314	-5.55292e-06	6.009125e-06
	-4.970218e-07	3.012261e-06	-0.03981061	0.06022849	2.275525e-06	1.057557e-05	0.001954089	0.003037532
