!$
! Info: Touchstone file created by Circ.  Input file=Tx_14in_Rx_85ohms_TxVia_60mils_RxVia_70mils.circ
!$
# Hz S RI R 50
0	0.01128576	1.765189e-25	-3.836276e-11	9.314091e-27	9.518103e-05	2.173684e-23	-3.181005e-09	3.945025e-25
	-3.836353e-11	9.314199e-27	0.01128128	2.180153e-25	3.33001e-11	2.566987e-27	9.489331e-05	2.750721e-23
	9.626434e-05	2.188206e-23	3.329592e-11	2.567493e-27	0.01130112	1.76564e-25	-1.817809e-11	8.369058e-27
	-3.180879e-09	3.94487e-25	9.516281e-05	2.762516e-23	-1.82717e-11	8.380473e-27	0.01129564	2.170748e-25
1e+07	0.01386438	-0.01392225	3.577145e-11	1.552685e-10	0.0004778369	0.00258303	-3.259995e-09	8.265533e-09
	3.577145e-11	1.552685e-10	0.01384916	-0.01369128	3.761997e-11	1.683272e-10	0.0005781004	0.002570988
	0.0004778684	0.002583034	3.761997e-11	1.683272e-10	0.01574071	-0.01360528	-3.201611e-09	1.040122e-08
	-3.259995e-09	8.265533e-09	0.0005781032	0.002570986	-3.201611e-09	1.040122e-08	0.01381936	-0.0136759
2e+07	0.011053	-0.03102323	-1.399453e-11	3.094908e-10	0.001604503	0.004916393	-2.094183e-10	1.358851e-11
	-1.399452e-11	3.094908e-10	0.01124776	-0.0306652	-1.138848e-11	3.290542e-10	0.001722203	0.004806826
	0.001604517	0.004916373	-1.138848e-11	3.290543e-10	0.01291829	-0.03121932	5.755058e-11	6.28463e-10
	-2.094183e-10	1.358851e-11	0.0017222	0.004806826	5.755059e-11	6.28463e-10	0.01123132	-0.03062302
3e+07	0.002105019	-0.04758014	-1.147689e-10	5.065906e-10	0.003375805	0.00669634	-1.417752e-10	5.755334e-10
	-1.147689e-10	5.065906e-10	0.002423678	-0.04721609	-1.110106e-10	5.280479e-10	0.003415426	0.00657541
	0.003375805	0.006696337	-1.110106e-10	5.280479e-10	0.003913753	-0.04807739	-1.235665e-10	5.945104e-10
	-1.417752e-10	5.755334e-10	0.003415425	0.006575412	-1.235665e-10	5.945104e-10	0.00241617	-0.04715904
4e+07	-0.01160654	-0.06105508	-2.346417e-10	7.499119e-10	0.005524806	0.00784914	-2.452143e-10	8.74364e-10
	-2.346417e-10	7.499119e-10	-0.01122392	-0.06071103	-2.310586e-10	7.730701e-10	0.005492166	0.007748157
	0.00552481	0.007849144	-2.310586e-10	7.730701e-10	-0.009903467	-0.061809	-2.805599e-10	8.577108e-10
	-2.452143e-10	8.74364e-10	0.005492167	0.007748158	-2.805599e-10	8.577108e-10	-0.01122547	-0.06064198
5e+07	-0.02867399	-0.0701499	-3.549506e-10	1.053854e-09	0.007848148	0.008308282	-3.745997e-10	1.216154e-09
	-3.549506e-10	1.053854e-09	-0.02827076	-0.06982334	-3.545334e-10	1.074745e-09	0.007753465	0.008251272
	0.007848151	0.008308284	-3.545334e-10	1.074745e-09	-0.02711975	-0.07112568	-4.230595e-10	1.210806e-09
	-3.745997e-10	1.216154e-09	0.007753466	0.008251272	-4.230594e-10	1.210806e-09	-0.02826872	-0.06974246
6e+07	-0.04755478	-0.07413532	-4.50363e-10	1.420704e-09	0.01013376	0.00806979	-4.768995e-10	1.628001e-09
	-4.50363e-10	1.420704e-09	-0.04715808	-0.07381041	-4.592332e-10	1.435287e-09	0.009992024	0.008075553
	0.01013375	0.008069789	-4.592332e-10	1.435287e-09	-0.04618552	-0.07529637	-5.360691e-10	1.636336e-09
	-4.768995e-10	1.628001e-09	0.009992025	0.008075553	-5.360691e-10	1.636336e-09	-0.04715359	-0.0737166
7e+07	-0.06665885	-0.07278481	-4.946294e-10	1.842483e-09	0.01218352	0.007191336	-5.163909e-10	2.098921e-09
	-4.946294e-10	1.842483e-09	-0.06628128	-0.07244154	-5.223986e-10	1.848439e-09	0.01201381	0.007273103
	0.0121835	0.007191337	-5.223986e-10	1.848439e-09	-0.06550313	-0.07409147	-5.943025e-10	2.125874e-09
	-5.163909e-10	2.098921e-09	0.01201381	0.007273103	-5.943025e-10	2.125874e-09	-0.06627428	-0.07233337
8e+07	-0.08446172	-0.06633366	-4.643308e-10	2.301174e-09	0.01383076	0.005782544	-4.683766e-10	2.603373e-09
	-4.643308e-10	2.301174e-09	-0.08410449	-0.06595423	-5.237679e-10	2.299877e-09	0.01365504	0.005947333
	0.01383075	0.005782548	-5.237679e-10	2.299877e-09	-0.08354075	-0.06774403	-5.708228e-10	2.66274e-09
	-4.683766e-10	2.603373e-09	0.01365505	0.005947333	-5.708228e-10	2.66274e-09	-0.08409392	-0.06583035
9e+07	-0.0996111	-0.05542169	-3.421131e-10	2.769981e-09	0.01495211	0.003991056	-3.194092e-10	3.107827e-09
	-3.421131e-10	2.769981e-09	-0.09926939	-0.05499508	-4.482042e-10	2.768514e-09	0.01479394	0.004239294
	0.0149521	0.00399106	-4.482042e-10	2.768514e-09	-0.09894029	-0.05689301	-4.423636e-10	3.219658e-09
	-3.194092e-10	3.107827e-09	0.01479394	0.004239294	-4.423636e-10	3.219658e-09	-0.09925333	-0.05485468
1e+08	-0.1110077	-0.0410147	-1.160482e-10	3.215836e-09	0.01547403	0.00198724	-6.540557e-11	3.575372e-09
	-1.160482e-10	3.215836e-09	-0.1106883	-0.04054228	-2.867957e-10	3.231313e-09	0.0153594	0.002313494
	0.01547403	0.00198724	-2.867957e-10	3.231313e-09	-0.1106079	-0.04250694	-1.892807e-10	3.761238e-09
	-6.540557e-11	3.575372e-09	0.0153594	0.002313494	-1.892807e-10	3.761238e-09	-0.1106646	-0.04038548
1.1e+08	-0.1179038	-0.02437083	1.999294e-10	3.576808e-09	0.0153719	-5.348832e-05	2.486813e-10	3.964669e-09
	1.999294e-10	3.576808e-09	-0.1175941	-0.02378836	-2.681369e-11	3.624927e-09	0.01532158	0.0003232999
	0.0153719	-5.348855e-05	-2.681369e-11	3.624927e-09	-0.1177731	-0.02578351	1.738493e-10	4.188434e-09
	2.486813e-10	3.964669e-09	0.01532158	0.0003233001	1.738493e-10	4.188434e-09	-0.1175595	-0.02361507
1.2e+08	-0.119944	-0.006784399	5.388333e-10	3.848993e-09	0.01466806	-0.001954576	6.112608e-10	4.267038e-09
	5.388333e-10	3.848993e-09	-0.1195806	-0.006105878	2.756678e-10	3.93371e-09	0.01468592	-0.001547208
	0.01466806	-0.001954576	2.756678e-10	3.93371e-09	-0.1200285	-0.008075469	5.672433e-10	4.512051e-09
	6.112608e-10	4.267038e-09	0.01468592	-0.001547207	5.672433e-10	4.512051e-09	-0.1195313	-0.005918821
1.3e+08	-0.1170977	0.01037626	8.995858e-10	4.024961e-09	0.0134316	-0.003558142	1.002284e-09	4.464998e-09
	8.995858e-10	4.024961e-09	-0.1166482	0.011115	6.055285e-10	4.157763e-09	0.01351967	-0.00314072
	0.0134316	-0.003558142	6.055285e-10	4.157763e-09	-0.1173556	0.009233735	9.873436e-10	4.724839e-09
	1.002284e-09	4.464998e-09	0.01351967	-0.003140719	9.873436e-10	4.724839e-09	-0.1165818	0.01131159
1.4e+08	-0.1097128	0.02579869	1.256301e-09	4.094471e-09	0.0117684	-0.004731336	1.387127e-09	4.549385e-09
	1.256301e-09	4.094471e-09	-0.1091652	0.02655249	9.381311e-10	4.287888e-09	0.01192337	-0.004324928
	0.0117684	-0.004731336	9.381311e-10	4.287888e-09	-0.110104	0.02482276	1.404368e-09	4.813788e-09
	1.387127e-09	4.549385e-09	0.01192337	-0.004324927	1.404368e-09	4.813788e-09	-0.1090808	0.02675341
1.5e+08	-0.09847548	0.03832219	1.575352e-09	4.060214e-09	0.009814906	-0.005373773	1.730348e-09	4.522268e-09
	1.575352e-09	4.060214e-09	-0.09783745	0.03904365	1.243065e-09	4.322813e-09	0.01002738	-0.004998362
	0.009814906	-0.005373773	1.243065e-09	4.322813e-09	-0.0989606	0.0375232	1.779084e-09	4.78176e-09
	1.730348e-09	4.522268e-09	0.01002738	-0.004998361	1.779084e-09	4.78176e-09	-0.09773597	0.03924329
1.6e+08	-0.08435705	0.04701952	1.823717e-09	3.933972e-09	0.007730076	-0.005424162	1.996611e-09	4.397032e-09
	1.823717e-09	3.933972e-09	-0.08365485	0.04766556	1.4898e-09	4.271452e-09	0.007984791	-0.005096778
	0.007730076	-0.005424163	1.4898e-09	4.271452e-09	-0.08489766	0.04640058	2.072875e-09	4.642073e-09
	1.996611e-09	4.397032e-09	0.007984791	-0.005096777	2.072875e-09	4.642073e-09	-0.08353917	0.0478585
1.7e+08	-0.06854252	0.05126407	1.972483e-09	3.737977e-09	0.005685756	-0.004865846	2.155316e-09	4.198162e-09
	1.972483e-09	3.737977e-09	-0.06781857	0.05180183	1.650995e-09	4.15258e-09	0.005962409	-0.004598755
	0.005685756	-0.004865846	1.650995e-09	4.15258e-09	-0.06910184	0.0508212	2.25188e-09	4.420332e-09
	2.155316e-09	4.198162e-09	0.005962409	-0.004598755	2.25188e-09	4.420332e-09	-0.0676934	0.05198353
1.8e+08	-0.05234381	0.05077804	2.000063e-09	3.503396e-09	0.003854951	-0.003730524	2.183983e-09	3.959462e-09
	2.000063e-09	3.503396e-09	-0.05165265	0.05118997	1.705629e-09	3.993608e-09	0.004129648	-0.003529704
	0.003854951	-0.003730524	1.705629e-09	3.993608e-09	-0.05288779	0.05050047	2.290785e-09	4.152614e-09
	2.183983e-09	3.959462e-09	0.004129649	-0.003529703	2.290785e-09	4.152614e-09	-0.05152425	0.05135733
1.9e+08	-0.03710083	0.04565737	1.894863e-09	3.267832e-09	0.002398203	-0.00209903	2.070953e-09	3.721278e-09
	1.894863e-09	3.267832e-09	-0.03650369	0.04594489	1.641684e-09	3.82836e-09	0.002645386	-0.001963094
	0.002398203	-0.00209903	1.641684e-09	3.82836e-09	-0.03759937	0.04552801	2.175939e-09	3.88251e-09
	2.070953e-09	3.721278e-09	0.002645386	-0.001963094	2.175939e-09	3.88251e-09	-0.03637939	0.04609681
2e+08	-0.02407659	0.03636912	1.657099e-09	3.072052e-09	0.001448867	-9.791215e-05	1.817143e-09	3.526977e-09
	1.657099e-09	3.072052e-09	-0.02363493	0.03655458	1.45803e-09	3.694018e-09	0.001643568	-1.764389e-05
	0.001448867	-9.791217e-05	1.45803e-09	3.694018e-09	-0.02450481	0.0363654	1.907442e-09	3.657267e-09
	1.817143e-09	3.526977e-09	0.001643568	-1.764384e-05	1.907442e-09	3.657267e-09	-0.0235225	0.03669224
2.1e+08	-0.01435413	0.02371885	1.299523e-09	2.956238e-09	0.001098905	0.002109083	1.436651e-09	3.419033e-09
	1.299523e-09	2.956238e-09	-0.01412272	0.02384528	1.165243e-09	3.627543e-09	0.001219132	0.002150499
	0.001098905	0.002109083	1.165243e-09	3.627543e-09	-0.01469357	0.02381395	1.499945e-09	3.523397e-09
	1.436651e-09	3.419033e-09	0.001219132	0.002150499	1.499945e-09	3.523397e-09	-0.01402963	0.02397232
2.2e+08	-0.008744764	0.008787886	8.469665e-10	2.956126e-09	0.001387375	0.00433471	9.561681e-10	3.435061e-09
	8.469665e-10	2.956126e-09	-0.008764986	0.008916683	7.852248e-10	3.661947e-09	0.001416417	0.004360722
	0.001387374	0.00433471	7.852248e-10	3.661947e-09	-0.008984281	0.008952422	9.820457e-10	3.522199e-09
	9.561681e-10	3.435061e-09	0.001416417	0.004360722	9.820457e-10	3.522199e-09	-0.008697616	0.00903907
2.3e+08	-0.007717491	-0.00715554	3.346848e-10	3.099405e-09	0.002293878	0.0063861	4.132392e-10	3.604172e-09
	3.346848e-10	3.099405e-09	-0.008011453	-0.0069492	3.496192e-10	3.822843e-09	0.002222297	0.006425113
	0.002293878	0.0063861	3.496192e-10	3.822843e-09	-0.00785364	-0.006951624	3.943175e-10	3.685634e-09
	4.132392e-10	3.604172e-09	0.002222297	0.006425113	3.943175e-10	3.685634e-09	-0.007974392	-0.006823482
2.4e+08	-0.01135793	-0.02276411	-1.943283e-10	3.402756e-09	0.003738694	0.008084643	-1.464814e-10	3.94394e-09
	-1.943283e-10	3.402756e-09	-0.01192422	-0.02239758	-1.027939e-10	4.125653e-09	0.003565772	0.00816774
	0.003738694	0.008084643	-1.027939e-10	4.125653e-09	-0.0113948	-0.02254951	-2.138328e-10	4.032964e-09
	-1.464814e-10	3.94394e-09	0.003565772	0.00816774	-2.138328e-10	4.032964e-09	-0.01191963	-0.02225912
2.5e+08	-0.01936219	-0.03672752	-6.928407e-10	3.869805e-09	0.005590195	0.009285037	-6.727761e-10	4.458248e-09
	-6.928407e-10	3.869805e-09	-0.02017375	-0.03611826	-5.294566e-10	4.573767e-09	0.005324658	0.00944327
	0.005590195	0.009285037	-5.294566e-10	4.573767e-09	-0.01931063	-0.03652767	-7.881978e-10	4.568466e-09
	-6.727761e-10	4.458248e-09	0.005324658	0.00944327	-7.881978e-10	4.568466e-09	-0.02020094	-0.03595697
2.6e+08	-0.03106684	-0.04788464	-1.113366e-09	4.490196e-09	0.007678735	0.009890514	-1.114957e-09	5.136202e-09
	-1.113366e-09	4.490196e-09	-0.0320713	-0.04695833	-8.8778e-10	5.157827e-09	0.007338626	0.01015201
	0.007678735	0.009890514	-8.8778e-10	5.157827e-09	-0.03094317	-0.04772017	-1.274308e-09	5.280424e-09
	-1.114957e-09	5.136202e-09	0.007338626	0.01015201	-1.274308e-09	5.280424e-09	-0.03212652	-0.04676434
2.7e+08	-0.04551136	-0.05532017	-1.412262e-09	5.239856e-09	0.009814939	0.009861983	-1.426165e-09	5.952213e-09
	-1.412262e-09	5.239856e-09	-0.04663396	-0.05401847	-1.138915e-09	5.85615e-09	0.009426581	0.01024913
	0.009814939	0.009861983	-1.138915e-09	5.85615e-09	-0.04533572	-0.05520579	-1.622098e-09	6.141458e-09
	-1.426165e-09	5.952213e-09	0.009426581	0.01024913	-1.622098e-09	6.141458e-09	-0.04671053	-0.05378305
2.8e+08	-0.06152567	-0.05843618	-1.553643e-09	6.082432e-09	0.01180952	0.009219986	-1.567618e-09	6.867331e-09
	-1.553643e-09	6.082432e-09	-0.06267452	-0.05672339	-1.251211e-09	6.636231e-09	0.01140562	0.009747017
	0.01180952	0.009219986	-1.251211e-09	6.636231e-09	-0.06132015	-0.05838018	-1.790324e-09	7.110175e-09
	-1.567618e-09	6.867331e-09	0.01140562	0.009747017	-1.790324e-09	7.110175e-09	-0.06276318	-0.05643984
2.9e+08	-0.07783245	-0.05699291	-1.51275e-09	6.971813e-09	0.0134917	0.008039798	-1.512404e-09	7.831798e-09
	-1.51275e-09	6.971813e-09	-0.0789057	-0.05486079	-1.203079e-09	7.457146e-09	0.01310877	0.008710978
	0.0134917	0.008039798	-1.203079e-09	7.457146e-09	-0.07761931	-0.05699716	-1.750387e-09	8.134012e-09
	-1.512404e-09	7.831798e-09	0.01310877	0.008710978	-1.750387e-09	8.134012e-09	-0.07899526	-0.05452522
3e+08	-0.09315359	-0.0511172	-1.278523e-09	7.85553e-09	0.01472399	0.006441164	-1.24849e-09	8.788683e-09
	-1.278523e-09	7.85553e-09	-0.09404789	-0.04858749	-9.850764e-10	8.272634e-09	0.01439925	0.007249865
	0.01472399	0.006441164	-9.850764e-10	8.272634e-09	-0.09295363	-0.05117769	-1.489264e-09	9.153076e-09
	-1.24849e-09	8.788683e-09	0.01439925	0.007249865	-1.489264e-09	9.153076e-09	-0.09412611	-0.04819932
3.1e+08	-0.1063109	-0.04128068	-8.552318e-10	8.678865e-09	0.01541201	0.004574792	-7.806038e-10	9.678371e-09
	-8.552318e-10	8.678865e-09	-0.1069303	-0.03840503	-6.011578e-10	9.034621e-09	0.01518007	0.005503514
	0.01541201	0.004574792	-6.011578e-10	9.034621e-09	-0.1061421	-0.04138838	-1.011306e-09	1.010474e-08
	-7.806038e-10	9.678371e-09	0.01518007	0.005503514	-1.011306e-09	1.010474e-08	-0.1069849	-0.03796728
3.2e+08	-0.1163132	-0.02825258	-2.627076e-10	9.389243e-09	0.01550918	0.002607776	-1.30754e-10	1.044354e-08
	-2.627076e-10	9.389243e-09	-0.1165779	-0.0251098	-6.881319e-11	9.696956e-09	0.01539892	0.003629169
	0.01550918	0.002607776	-6.881319e-11	9.696956e-09	-0.1161897	-0.02839454	-3.386959e-10	1.092864e-08
	-1.30754e-10	1.044354e-08	0.01539892	0.003629169	-3.386959e-10	1.092864e-08	-0.1165975	-0.02462905
3.3e+08	-0.1224249	-0.01303332	4.647255e-10	9.940432e-09	0.01501702	0.0007096815	6.627511e-10	1.103419e-08
	4.647255e-10	9.940432e-09	-0.1222787	-0.009724224	5.819352e-10	1.021911e-08	0.01504879	0.001788474
	0.01501702	0.0007096816	5.819352e-10	1.021911e-08	-0.1223565	-0.0131939	4.894828e-10	1.157171e-08
	6.627511e-10	1.103419e-08	0.01504879	0.001788474	4.894828e-10	1.157171e-08	-0.1222542	-0.009210257
3.4e+08	-0.1242132	0.003224655	1.279976e-09	1.029688e-08	0.01398212	-0.0009597005	1.547777e-09	1.14123e-08
	1.279976e-09	1.029688e-08	-0.1236294	0.006584432	1.309787e-09	1.056965e-08	0.01416562	0.0001359968
	0.01398212	-0.0009597005	1.309787e-09	1.056965e-08	-0.1242049	0.003062552	1.419604e-09	1.199302e-08
	1.547777e-09	1.14123e-08	0.01416562	0.0001359968	1.419604e-09	1.199302e-08	-0.1235546	0.007119301
3.5e+08	-0.1215728	0.0193028	2.126595e-09	1.043703e-08	0.01249085	-0.00226058	2.462154e-09	1.155567e-08
	2.126595e-09	1.043703e-08	-0.1205584	0.02259153	2.065203e-09	1.072907e-08	0.01282385	-0.001190476
	0.01249085	-0.00226058	2.065203e-09	1.072907e-08	-0.1216249	0.01915651	2.387363e-09	1.216744e-08
	2.462154e-09	1.155567e-08	0.01282385	-0.001190476	2.387363e-09	1.216744e-08	-0.1204307	0.02313339
3.6e+08	-0.114729	0.03400402	2.942932e-09	1.035574e-08	0.01066268	-0.003081533	3.33851e-09	1.146042e-08
	2.942932e-09	1.035574e-08	-0.1133256	0.03710355	2.793633e-09	1.069212e-08	0.01113074	-0.002078031
	0.01066268	-0.003081533	2.793633e-09	1.069212e-08	-0.1148371	0.03388996	3.322322e-09	1.208852e-08
	3.33851e-09	1.146042e-08	0.01113074	-0.002078031	3.322322e-09	1.208852e-08	-0.1131464	0.03763795
3.7e+08	-0.1042196	0.04623749	3.666914e-09	1.00655e-08	0.008642432	-0.00334632	4.109734e-09	1.114213e-08
	3.666914e-09	1.00655e-08	-0.102502	0.04904309	3.439509e-09	1.046924e-08	0.009219617	-0.002445462
	0.008642432	-0.00334632	3.439509e-09	1.046924e-08	-0.1043752	0.04617006	4.153359e-09	1.177008e-08
	4.109734e-09	1.114213e-08	0.009219617	-0.002445462	4.153359e-09	1.177008e-08	-0.1022769	0.04955624
3.8e+08	-0.09085673	0.0550965	4.241043e-09	9.596178e-09	0.00659141	-0.003019365	4.714573e-09	1.063526e-08
	4.241043e-09	9.596178e-09	-0.08892873	0.05752623	3.950811e-09	1.008669e-08	0.007241946	-0.002249044
	0.00659141	-0.003019365	3.950811e-09	1.008669e-08	-0.09104791	0.05508714	4.814481e-09	1.124592e-08
	4.714573e-09	1.063526e-08	0.007241946	-0.002249044	4.814481e-09	1.124592e-08	-0.08866733	0.05800615
3.9e+08	-0.07567031	0.05992544	4.617272e-09	8.993515e-09	0.004677188	-0.002109727	5.102919e-09	9.991037e-09
	4.617272e-09	8.993515e-09	-0.07365791	0.06192821	4.283648e-09	9.585493e-09	0.005357997	-0.001487048
	0.004677188	-0.002109727	4.283648e-09	9.585493e-09	-0.07588253	0.05998185	5.25045e-09	1.056809e-08
	5.102919e-09	9.991037e-09	0.005357997	-0.001487048	5.25045e-09	1.056809e-08	-0.07337292	0.06236582
4e+08	-0.05983518	0.06037151	4.761355e-09	8.316115e-09	0.003061865	-0.0006729831	5.2403e-09	9.273789e-09
	4.761355e-09	8.316115e-09	-0.05787737	0.0619331	4.40652e-09	9.0189e-09	0.003725776	-0.0002023964
	0.003061865	-0.0006729831	4.40652e-09	9.0189e-09	-0.06005243	0.0604971	5.421795e-09	9.803434e-09
	5.2403e-09	9.273789e-09	0.003725776	-0.0002023964	5.421795e-09	9.803434e-09	-0.05758398	0.06232317
4.1e+08	-0.04458504	0.05641677	4.656295e-09	7.631328e-09	0.001889036	0.001189886	5.111227e-09	8.556239e-09
	4.656295e-09	7.631328e-09	-0.04282303	0.05756319	4.303852e-09	8.448652e-09	0.002488466	0.001517516
	0.001889036	0.001189886	4.303852e-09	8.448652e-09	-0.04479104	0.05661032	5.308788e-09	9.028871e-09
	5.111227e-09	8.556239e-09	0.002488466	0.001517516	5.308788e-09	9.028871e-09	-0.0425377	0.05790492
4.2e+08	-0.03111829	0.04838624	4.304562e-09	7.010175e-09	0.001270321	0.003337581	4.72108e-09	7.913909e-09
	4.304562e-09	7.010175e-09	-0.02968377	0.04918393	3.978327e-09	7.940126e-09	0.001761156	0.003544859
	0.001270321	0.003337581	3.978327e-09	7.940126e-09	-0.03129783	0.04864206	4.913983e-09	8.325554e-09
	4.72108e-09	7.913909e-09	0.001761156	0.003544859	4.913983e-09	8.325554e-09	-0.02942294	0.04948127
4.3e+08	-0.02050228	0.03692932	3.728835e-09	6.521709e-09	0.001272927	0.005598189	4.096406e-09	7.419199e-09
	3.728835e-09	6.521709e-09	-0.01950576	0.0374818	3.451707e-09	7.556804e-09	0.001618308	0.00571997
	0.001272927	0.005598189	3.451707e-09	7.556804e-09	-0.02064249	0.03723764	4.26305e-09	7.7724e-09
	4.096406e-09	7.419199e-09	0.001618308	0.00571997	4.26305e-09	7.7724e-09	-0.01928446	0.03774338
4.4e+08	-0.01358431	0.02297325	2.971084e-09	6.227224e-09	0.001910194	0.007783412	3.283565e-09	7.135531e-09
	2.971084e-09	6.227224e-09	-0.01310455	0.02341439	2.763906e-09	7.354595e-09	0.002083919	0.007864526
	0.001910194	0.007783412	2.763906e-09	7.354595e-09	-0.01367577	0.02332114	3.403701e-09	7.439466e-09
	3.283565e-09	7.135531e-09	0.00208392	0.007864526	3.403701e-09	7.439466e-09	-0.01293511	0.02365303
4.5e+08	-0.01091823	0.007650936	2.089983e-09	6.174833e-09	0.003137115	0.009706275	2.345798e-09	7.112005e-09
	2.089983e-09	6.174833e-09	-0.01099387	0.008135129	1.970316e-09	7.376571e-09	0.003126341	0.009798292
	0.003137115	0.009706275	1.970316e-09	7.376571e-09	-0.01095578	0.008023495	2.402709e-09	7.381764e-09
	2.345798e-09	7.112005e-09	0.003126341	0.009798292	2.402709e-09	7.381764e-09	-0.0108847	0.008366996
4.6e+08	-0.01271496	-0.007791608	1.156764e-09	6.394882e-09	0.004852288	0.01120025	1.3589e-09	7.378963e-09
	1.156764e-09	6.394882e-09	-0.01333921	-0.007101667	1.137582e-09	7.64868e-09	0.004659258	0.0113575
	0.004852288	0.01120025	1.137582e-09	7.64868e-09	-0.01269809	-0.007409867	1.341165e-09	7.634052e-09
	1.3589e-09	7.378963e-09	0.004659258	0.0113575	1.341165e-09	7.634052e-09	-0.01329395	-0.006858264
4.7e+08	-0.01882306	-0.0220998	2.497974e-10	6.896701e-09	0.006906756	0.01213709	4.057299e-10	7.944812e-09
	2.497974e-10	6.896701e-09	-0.01994227	-0.02104663	3.382062e-10	8.176907e-09	0.006549345	0.01241224
	0.006906756	0.01213709	3.382062e-10	8.176907e-09	-0.01875576	-0.02172347	3.08297e-10	8.207152e-09
	4.057299e-10	7.944812e-09	0.006549345	0.01241224	3.08297e-10	8.207152e-09	-0.0199592	-0.02077266
4.8e+08	-0.02874215	-0.03411641	-5.516613e-10	7.667018e-09	0.009118878	0.01244066	-4.300886e-10	8.794411e-09
	-5.516613e-10	7.667018e-09	-0.03025841	-0.03256137	-3.554982e-10	8.946179e-09	0.008629803	0.01288016
