!$
! Info: Touchstone file created by Circ.  Input file=Tx_10in_Rx_93ohms_TxVia_60mils_RxVia_70mils.circ
!$
# Hz S RI R 50
0	0.009241982	1.34763e-25	-5.386032e-05	7.224116e-28	7.385834e-05	1.77785e-23	-5.385811e-05	-5.526779e-26
	-5.386032e-05	1.809181e-28	0.00923751	1.647461e-25	-5.38596e-05	3.415991e-27	7.356788e-05	2.249485e-23
	7.494193e-05	1.789729e-23	-5.38596e-05	3.261669e-27	0.009257403	1.34774e-25	-5.385953e-05	1.252259e-25
	-5.38581e-05	-5.637578e-26	7.383749e-05	2.259131e-23	-5.385953e-05	1.248145e-25	0.009251926	1.640221e-25
1e+07	0.01273731	-0.000735007	-2.618555e-06	-1.988361e-05	0.0003347026	0.001802989	-2.658578e-06	-2.040056e-05
	-2.618555e-06	-1.988361e-05	0.01347761	-0.0008652435	-6.460178e-06	-3.613367e-06	0.0003461271	0.001951011
	0.0003347339	0.001802994	-6.460178e-06	-3.613368e-06	0.01370914	-0.0002833031	-2.152285e-05	-4.539739e-06
	-2.658578e-06	-2.040056e-05	0.0003461297	0.001951009	-2.152285e-05	-4.539739e-06	0.01321593	-0.0008669104
2e+07	0.01518445	-0.00468833	-7.687059e-06	-1.295531e-05	0.0009656853	0.003575441	-8.305788e-06	-1.375461e-05
	-7.68706e-06	-1.295531e-05	0.01561236	-0.005156877	-2.583569e-05	-1.960371e-05	0.0008826599	0.003852507
	0.0009656996	0.003575422	-2.583569e-05	-1.960371e-05	0.01646379	-0.004346943	-2.256745e-05	4.811192e-06
	-8.305788e-06	-1.375461e-05	0.0008826571	0.003852507	-2.256745e-05	4.811192e-06	0.01541643	-0.005069622
3e+07	0.01572774	-0.010018	-1.174142e-05	-1.007786e-05	0.001927277	0.005166852	-1.281282e-05	-1.081726e-05
	-1.174142e-05	-1.007786e-05	0.01588397	-0.01056485	-4.035399e-05	-1.876249e-05	0.001835392	0.00550099
	0.001927278	0.005166849	-4.035399e-05	-1.876249e-05	0.0172203	-0.009853041	-2.398363e-05	6.230289e-06
	-1.281282e-05	-1.081726e-05	0.001835392	0.005500992	-2.398363e-05	6.230289e-06	0.01573551	-0.01045945
4e+07	0.014739	-0.01558537	-1.489503e-05	-7.065849e-06	0.003177462	0.006515425	-1.633308e-05	-7.61737e-06
	-1.489503e-05	-7.06585e-06	0.01464587	-0.01611678	-5.16894e-05	-1.269603e-05	0.003126344	0.006870141
	0.003177466	0.006515429	-5.16894e-05	-1.269603e-05	0.01637066	-0.01564676	-2.46465e-05	8.845142e-06
	-1.633308e-05	-7.61737e-06	0.003126345	0.006870142	-2.46465e-05	8.845142e-06	0.01453283	-0.01601244
5e+07	0.01241336	-0.02094148	-1.721646e-05	-3.6799e-06	0.004657922	0.007566524	-1.894948e-05	-3.953517e-06
	-1.721646e-05	-3.6799e-06	0.01209474	-0.02138985	-6.017923e-05	-3.49319e-06	0.004637148	0.00792967
	0.004657925	0.007566526	-6.017923e-05	-3.49319e-06	0.01411606	-0.02125932	-2.462013e-05	1.199322e-05
	-1.894948e-05	-3.953517e-06	0.004637149	0.007929671	-2.462013e-05	1.199322e-05	0.01200614	-0.02129608
6e+07	0.008931144	-0.02577617	-1.871477e-05	4.826414e-08	0.006299863	0.008279835	-2.067209e-05	1.272648e-07
	-1.871477e-05	4.826419e-08	0.008416882	-0.02608662	-6.587651e-05	7.883049e-06	0.006299894	0.008644947
	0.006299859	0.008279833	-6.587651e-05	7.883049e-06	0.01063975	-0.02636511	-2.392078e-05	1.539963e-05
	-2.067209e-05	1.272647e-07	0.006299895	0.008644947	-2.392078e-05	1.539963e-05	0.008342652	-0.02600815
7e+07	0.00448672	-0.0298539	-1.93717e-05	4.034841e-06	0.008028003	0.008630993	-2.147514e-05	4.53424e-06
	-1.93717e-05	4.034841e-06	0.003813449	-0.0299813	-6.869335e-05	2.080855e-05	0.008040147	0.008994984
	0.008027992	0.008630993	-6.869335e-05	2.080855e-05	0.006138403	-0.03071585	-2.25494e-05	1.889512e-05
	-2.147514e-05	4.53424e-06	0.008040148	0.008994984	-2.25494e-05	1.889512e-05	0.003744259	-0.02991987
8e+07	-0.0007065626	-0.03299701	-1.914405e-05	8.189685e-06	0.009764388	0.008612528	-2.130084e-05	9.174461e-06
	-1.914405e-05	8.189685e-06	-0.001495383	-0.03290504	-6.843359e-05	3.482081e-05	0.009780523	0.008974193
	0.009764373	0.008612531	-6.843359e-05	3.482081e-05	0.000827309	-0.03412336	-2.069564e-05	2.216041e-05
	-2.130084e-05	9.174461e-06	0.009780524	0.008974192	-2.069564e-05	2.216041e-05	-0.001568243	-0.03286013
9e+07	-0.006418729	-0.03508065	-1.793256e-05	1.243974e-05	0.01143278	0.008234422	-2.002394e-05	1.398845e-05
	-1.793256e-05	1.243974e-05	-0.007272047	-0.03474104	-6.469155e-05	4.961259e-05	0.01144418	0.008592892
	0.01143277	0.008234427	-6.469155e-05	4.961259e-05	-0.005063757	-0.03645519	-1.98078e-05	2.400636e-05
	-2.002394e-05	1.398845e-05	0.01144418	0.008592891	-1.98078e-05	2.400636e-05	-0.007356782	-0.03471043
1e+08	-0.01240404	-0.03602848	-1.522539e-05	1.689953e-05	0.01296978	0.007528408	-1.704112e-05	1.912441e-05
	-1.522539e-05	1.689953e-05	-0.01325166	-0.03541433	-5.555479e-05	6.559785e-05	0.01295814	0.007876424
	0.01296978	0.007528408	-5.555479e-05	6.559785e-05	-0.01131184	-0.03764164	-1.931421e-05	2.538519e-05
	-1.704112e-05	1.912441e-05	0.01295814	0.007876424	-1.931421e-05	2.538519e-05	-0.01335831	-0.03539594
1.1e+08	-0.01841882	-0.03585598	-1.096391e-05	1.894363e-05	0.01426799	0.006559406	-1.219253e-05	2.154475e-05
	-1.096391e-05	1.894363e-05	-0.0191841	-0.03503198	-4.048199e-05	7.329291e-05	0.0142549	0.006867733
	0.01426799	0.006559406	-4.048199e-05	7.329291e-05	-0.01767432	-0.03754251	-1.811452e-05	2.55669e-05
	-1.219253e-05	2.154475e-05	0.01425489	0.006867733	-1.811452e-05	2.55669e-05	-0.01932172	-0.03500627
1.2e+08	-0.02426517	-0.0345653	-7.36412e-06	2.004743e-05	0.01528419	0.005331497	-9.172722e-06	2.236305e-05
	-7.36412e-06	2.004743e-05	-0.02494417	-0.03355606	-3.206079e-05	7.564723e-05	0.01528263	0.005620331
	0.01528419	0.005331496	-3.206079e-05	7.564723e-05	-0.0238105	-0.03624826	-1.639977e-05	2.616435e-05
	-9.172722e-06	2.236305e-05	0.01528263	0.005620332	-1.639977e-05	2.616435e-05	-0.02510536	-0.03351327
1.3e+08	-0.02971588	-0.032219	-6.170624e-06	1.997275e-05	0.01598525	0.00391787	-8.130584e-06	2.22623e-05
	-6.170624e-06	1.997275e-05	-0.03028915	-0.03104075	-2.778339e-05	7.593926e-05	0.01599903	0.004196081
	0.01598525	0.00391787	-2.778339e-05	7.593926e-05	-0.02951709	-0.03385212	-1.446903e-05	2.685812e-05
	-8.130584e-06	2.22623e-05	0.01599903	0.004196082	-1.446903e-05	2.685812e-05	-0.0304685	-0.03097482
1.4e+08	-0.03457133	-0.02892529	-5.074697e-06	1.988336e-05	0.0163438	0.002391651	-6.943729e-06	2.225597e-05
	-5.074697e-06	1.988336e-05	-0.03501738	-0.027597	-2.301574e-05	7.63552e-05	0.01637591	0.002664308
	0.0163438	0.00239165	-2.301574e-05	7.63552e-05	-0.03459685	-0.03047354	-1.240604e-05	2.749311e-05
	-6.943729e-06	2.225597e-05	0.01637591	0.002664309	-1.240604e-05	2.749311e-05	-0.03520917	-0.02750363
1.5e+08	-0.03866111	-0.02482844	-3.900115e-06	1.980953e-05	0.01634691	0.0008286944	-5.655164e-06	2.227598e-05
	-3.900115e-06	1.980953e-05	-0.03895958	-0.02337348	-1.790171e-05	7.669361e-05	0.01640013	0.001098236
	0.01634691	0.0008286942	-1.790171e-05	7.669361e-05	-0.03887957	-0.02626479	-1.023446e-05	2.803366e-05
	-5.655164e-06	2.227598e-05	0.01640013	0.001098236	-1.023446e-05	2.803366e-05	-0.03915773	-0.02324988
1.6e+08	-0.04184913	-0.02010166	-2.668961e-06	1.971803e-05	0.0159971	-0.0006949343	-4.289917e-06	2.228189e-05
	-2.668961e-06	1.971803e-05	-0.04198284	-0.01854805	-1.253396e-05	7.682855e-05	0.01607393	-0.0004282263
	0.0159971	-0.0006949344	-1.253396e-05	7.682855e-05	-0.04222903	-0.02140586	-7.987704e-06	2.843979e-05
	-4.289917e-06	2.228189e-05	0.01607393	-0.0004282257	-7.987704e-06	2.843979e-05	-0.04218106	-0.01839292
1.7e+08	-0.04403774	-0.01493954	-1.397132e-06	1.958606e-05	0.01531224	-0.002105958	-2.865823e-06	2.224551e-05
	-1.397132e-06	1.958606e-05	-0.04399436	-0.01331949	-6.986131e-06	7.667326e-05	0.01541457	-0.001843615
	0.01531224	-0.002105958	-6.986131e-06	7.667326e-05	-0.04454771	-0.01609738	-5.686222e-06	2.869205e-05
	-2.865823e-06	2.224551e-05	0.01541457	-0.001843614	-5.686222e-06	2.869205e-05	-0.04418637	-0.01313297
1.8e+08	-0.04517042	-0.009549999	-9.762938e-08	1.939712e-05	0.01432468	-0.00333684	-1.397826e-06	2.214611e-05
	-9.762938e-08	1.939712e-05	-0.04494375	-0.007898903	-1.323718e-06	7.616624e-05	0.01445346	-0.00308187
	0.01432468	-0.00333684	-1.323718e-06	7.616624e-05	-0.04577959	-0.01055279	-3.3495e-06	2.877609e-05
	-1.397826e-06	2.214611e-05	0.01445346	-0.00308187	-3.3495e-06	2.877609e-05	-0.04512355	-0.007682576
1.9e+08	-0.04523296	-0.004145999	1.217819e-06	1.913898e-05	0.01307974	-0.004328448	1.002772e-07	2.196804e-05
	1.217819e-06	1.913898e-05	-0.04482396	-0.002501177	4.391266e-06	7.526435e-05	0.01323465	-0.004085018
	0.01307974	-0.004328448	4.391266e-06	7.526435e-05	-0.04591154	-0.004990111	-9.970104e-07	2.868149e-05
	1.002772e-07	2.196804e-05	0.01323465	-0.004085018	-9.970104e-07	2.868149e-05	-0.0449861	-0.002257893
2e+08	-0.04425362	0.001064135	2.536456e-06	1.879972e-05	0.01162533	-0.005060186	1.614616e-06	2.169846e-05
	2.536456e-06	1.879972e-05	-0.04367062	0.002663578	1.009828e-05	7.393845e-05	0.01181293	-0.004805487
	0.01162533	-0.005060186	1.009828e-05	7.393845e-05	-0.04497332	0.0003777198	1.351088e-06	2.840044e-05
	1.614616e-06	2.169846e-05	0.01181293	-0.004805486	1.351088e-06	2.840044e-05	-0.04381044	0.002929817
2.1e+08	-0.04229956	0.005880502	3.848499e-06	1.837601e-05	0.0100313	-0.005464043	3.132219e-06	2.133003e-05
	3.848499e-06	1.837601e-05	-0.04155981	0.007398138	1.573889e-05	7.21732e-05	0.01025145	-0.005207991
	0.0100313	-0.005464043	1.573889e-05	7.21732e-05	-0.04303411	0.00534666	3.675088e-06	2.793004e-05
	3.132219e-06	2.133003e-05	0.01025145	-0.005207991	3.675088e-06	2.793004e-05	-0.04167364	0.007682376
2.2e+08	-0.03947572	0.01012284	5.143222e-06	1.786367e-05	0.008370118	-0.005517062	4.63987e-06	2.085702e-05
	5.143222e-06	1.786367e-05	-0.0386044	0.01152565	2.125618e-05	6.996336e-05	0.008619118	-0.005270926
	0.008370118	-0.005517062	2.125618e-05	6.996336e-05	-0.04020129	0.009732801	5.954921e-06	2.726954e-05
	4.63987e-06	2.085702e-05	0.008619118	-0.005270927	5.954921e-06	2.726954e-05	-0.03868976	0.01182222
2.3e+08	-0.0359196	0.01363619	6.409891e-06	1.726026e-05	0.006716525	-0.005213397	6.124424e-06	2.027607e-05
	6.409891e-06	1.726026e-05	-0.0349491	0.01489622	2.659555e-05	6.731315e-05	0.006987712	-0.004987221
	0.006716525	-0.005213397	2.659555e-05	6.731315e-05	-0.03661514	0.01337804	8.170664e-06	2.642097e-05
	6.124424e-06	2.027607e-05	0.006987712	-0.004987221	8.170664e-06	2.642097e-05	-0.03500481	0.015199
2.4e+08	-0.03179546	0.01629643	7.637849e-06	1.656519e-05	0.005144801	-0.004562693	7.572893e-06	1.958617e-05
	7.637849e-06	1.656519e-05	-0.0307644	0.01739244	3.170528e-05	6.423554e-05	0.005428928	-0.004364627
	0.005144801	-0.004562693	3.170528e-05	6.423554e-05	-0.03244304	0.01615569	1.030287e-05	2.53892e-05
	7.572893e-06	1.958617e-05	0.005428928	-0.004364627	1.030287e-05	2.53892e-05	-0.03079063	0.01769515
2.5e+08	-0.02728776	0.01801471	8.8167e-06	1.577947e-05	0.003725656	-0.00358968	8.972699e-06	1.878831e-05
	8.8167e-06	1.577947e-05	-0.02623954	0.01893358	3.653743e-05	6.07508e-05	0.00401139	-0.003425421
	0.003725656	-0.00358968	3.653743e-05	6.07508e-05	-0.02787276	0.0179749	1.233291e-05	2.418163e-05
	8.972699e-06	1.878831e-05	0.00401139	-0.003425421	1.233291e-05	2.418163e-05	-0.02623786	0.01923007
2.6e+08	-0.02259382	0.01874057	9.93618e-06	1.490559e-05	0.002523231	-0.002333183	1.031182e-05	1.788545e-05
	9.93618e-06	1.490559e-05	-0.02157488	0.01947841	4.104641e-05	5.688433e-05	0.002797768	-0.002205529
	0.002523231	-0.002333183	4.104641e-05	5.688433e-05	-0.02310513	0.01878379	1.424328e-05	2.28081e-05
	1.031182e-05	1.788545e-05	0.002797768	-0.002205529	1.424328e-05	2.28081e-05	-0.02154819	0.01976292
2.7e+08	-0.01791604	0.01846355	1.098692e-05	1.394763e-05	0.001592338	-0.0008445357	1.157897e-05	1.688216e-05
	1.098692e-05	1.394763e-05	-0.01697395	0.01902633	4.519499e-05	5.266996e-05	0.001842096	-0.0007530803
	0.001592338	-0.0008445357	4.519499e-05	5.266996e-05	-0.01834608	0.01857106	1.601785e-05	2.12805e-05
	1.157897e-05	1.688216e-05	0.001842096	-0.0007530803	1.601785e-05	2.12805e-05	-0.01692635	0.01929383
2.8e+08	-0.01345401	0.01721326	1.196004e-05	1.291093e-05	0.0009760464	0.0008145451	1.276381e-05	1.578461e-05
	1.196004e-05	1.291093e-05	-0.01263529	0.01761713	4.895003e-05	4.814468e-05	0.001187419	0.0008735584
	0.0009760464	0.0008145451	4.895003e-05	4.814468e-05	-0.01379873	0.01736611	1.764215e-05	1.961264e-05
	1.276381e-05	1.578461e-05	0.001187419	0.0008735584	1.764215e-05	1.961264e-05	-0.01257192	0.01786355
2.9e+08	-0.009396681	0.01505796	1.284741e-05	1.180197e-05	0.0007037276	0.002574555	1.385706e-05	1.46002e-05
	1.284741e-05	1.180197e-05	-0.008744648	0.01532907	5.228353e-05	4.33486e-05	0.0008638547	0.002608217
	0.0007037276	0.002574555	5.228353e-05	4.33486e-05	-0.009655475	0.01523753	1.910358e-05	1.781991e-05
	1.385706e-05	1.46002e-05	0.0008638547	0.002608217	1.910358e-05	1.781991e-05	-0.008671461	0.01555151
3e+08	-0.005915035	0.01210157	1.364176e-05	1.062819e-05	0.0007896585	0.004361179	1.485059e-05	1.333738e-05
	1.364176e-05	1.062819e-05	-0.005467627	0.01227542	5.51731e-05	3.832421e-05	0.0008871885	0.004379728
	0.0007896585	0.004361179	5.51731e-05	3.832421e-05	-0.006090529	0.01229016	2.039148e-05	1.591893e-05
	1.485059e-05	1.333738e-05	0.0008871885	0.004379728	2.039148e-05	1.591893e-05	-0.005391144	0.01247228
3.1e+08	-0.003155459	0.008479405	1.433684e-05	9.397949e-06	0.00123226	0.006098526	1.573756e-05	1.200543e-05
	1.433684e-05	9.397949e-06	-0.002943226	0.008599689	5.760209e-05	3.311569e-05	0.001258062	0.006114997
	0.00123226	0.006098526	5.760209e-05	3.311569e-05	-0.003253245	0.008660683	2.149734e-05	1.392727e-05
	1.573756e-05	1.200543e-05	0.001258062	0.006114997	2.149734e-05	1.392727e-05	-0.002870237	0.008770785
3.2e+08	-0.001234114	0.004352544	1.492743e-05	8.120288e-06	0.002014034	0.007712493	1.651238e-05	1.061422e-05
	1.492743e-05	8.120288e-06	-0.001278446	0.0044696	5.955922e-05	2.776779e-05	0.001961827	0.007742213
	0.002014034	0.007712493	5.955922e-05	2.776779e-05	-0.001262396	0.004512049	2.241473e-05	1.186308e-05
	1.651238e-05	1.061422e-05	0.001961827	0.007742213	2.241473e-05	1.186308e-05	-0.001215713	0.004616213
3.3e+08	-0.0002325077	-9.867581e-05	1.540943e-05	6.80475e-06	0.003102208	0.009134094	1.71707e-05	9.173938e-06
	1.540943e-05	6.80475e-06	-0.0005442151	7.017984e-05	6.103839e-05	2.232516e-05	0.002969081	0.009194046
	0.003102208	0.009134094	6.103839e-05	2.232516e-05	-0.0002016851	2.682484e-05	2.313929e-05	9.74483e-06
	1.71707e-05	9.173938e-06	0.002969081	0.009194046	2.313929e-05	9.74483e-06	-0.000498155	0.0001950172
3.4e+08	-0.0001944787	-0.004681964	1.57799e-05	5.461265e-06	0.004450102	0.01030261	1.770947e-05	7.694983e-06
	1.57799e-05	5.461265e-06	-0.0007727856	-0.004403845	6.203841e-05	1.683175e-05	0.004236886	0.01041068
	0.004450102	0.01030261	6.203841e-05	1.683175e-05	-0.0001166736	-0.004600168	2.366875e-05	7.591039e-06
	1.770947e-05	7.694983e-06	0.004236886	0.01041068	2.366875e-05	7.591039e-06	-0.0007491763	-0.004296735
3.5e+08	-0.0011247	-0.009200815	1.603702e-05	4.099933e-06	0.005999139	0.01116839	1.81267e-05	6.187724e-06
	1.603702e-05	4.099933e-06	-0.001956728	-0.008755997	6.256238e-05	1.133018e-05	0.005710623	0.01134255
	0.005999139	0.01116839	6.256238e-05	1.133018e-05	-0.001013239	-0.009169674	2.400274e-05	5.41999e-06
	1.81267e-05	6.187724e-06	0.005710623	0.01134255	2.400274e-05	5.41999e-06	-0.001960429	-0.008661378
3.6e+08	-0.002988743	-0.01346235	1.618013e-05	2.730891e-06	0.007681443	0.01169518	1.842152e-05	4.662381e-06
	1.618013e-05	2.730891e-06	-0.004049528	-0.01279599	6.261735e-05	5.861419e-06	0.007326399	0.01195258
	0.007681443	0.01169518	6.261735e-05	5.861419e-06	-0.002857625	-0.01348596	2.414274e-05	3.249536e-06
	1.842152e-05	4.662381e-06	0.007326399	0.01195258	2.414274e-05	3.249536e-06	-0.00408424	-0.01270765
3.7e+08	-0.005714723	-0.01728497	1.620961e-05	1.364148e-06	0.009422876	0.0118618	1.859397e-05	3.128907e-06
	1.620961e-05	1.364148e-06	-0.00696778	-0.01634741	6.221371e-05	4.644456e-07	0.009013905	0.01221794
	0.009422876	0.0118618	6.221371e-05	4.644456e-07	-0.005578066	-0.01736456	2.409188e-05	1.096915e-06
	1.859397e-05	3.128907e-06	0.009013905	0.01221794	2.409188e-05	1.096915e-06	-0.007035851	-0.01625841
3.8e+08	-0.009196404	-0.02050553	1.612686e-05	9.46347e-09	0.0111464	0.01166318	1.86449e-05	1.596913e-06
	1.612686e-05	9.463471e-09	-0.01059484	-0.01925465	6.136478e-05	-4.823847e-06	0.01069957	0.01213104
	0.0111464	0.01166318	6.136478e-05	-4.823847e-06	-0.009067921	-0.02063951	2.385478e-05	-1.021391e-06
	1.86449e-05	1.596913e-06	0.01069957	0.01213104	2.385478e-05	-1.021391e-06	-0.01069713	-0.01915763
3.9e+08	-0.01329766	-0.02298563	1.593418e-05	-1.323765e-06	0.01277555	0.01111062	1.857586e-05	7.563193e-08
	1.593418e-05	-1.323765e-06	-0.01478579	-0.02138911	6.008635e-05	-9.968704e-06	0.01230988	0.01169988
	0.01277555	0.01111062	6.008635e-05	-9.968704e-06	-0.01319016	-0.02316984	2.343741e-05	-3.089754e-06
	1.857586e-05	7.563193e-08	0.01230988	0.01169988	2.343741e-05	-3.089754e-06	-0.01492161	-0.0212766
4e+08	-0.01785808	-0.02461697	1.563471e-05	-2.626584e-06	0.01423793	0.01023127	1.838898e-05	-1.426095e-06
	1.563471e-05	-2.626584e-06	-0.01937351	-0.02265405	5.839637e-05	-1.493747e-05	0.01377464	0.01094767
	0.01423793	0.01023127	5.839637e-05	-1.493747e-05	-0.017783	-0.02484487	2.284693e-05	-5.093471e-06
	1.838898e-05	-1.426095e-06	0.01377464	0.01094767	2.284693e-05	-5.093471e-06	-0.01954061	-0.02251882
4.1e+08	-0.02269945	-0.02532538	1.523229e-05	-3.890551e-06	0.01546843	0.009066889	1.80869e-05	-2.899808e-06
	1.523229e-05	-3.890551e-06	-0.02417554	-0.02298827	5.631469e-05	-1.969954e-05	0.01503016	0.009911753
	0.01546843	0.009066889	5.631469e-05	-1.969954e-05	-0.0226665	-0.02558844	2.209151e-05	-7.018801e-06
	1.80869e-05	-2.899808e-06	0.01503016	0.009911753	2.209151e-05	-7.018801e-06	-0.02437016	-0.02282362
4.2e+08	-0.0276329	-0.02507354	1.473139e-05	-5.107768e-06	0.01641216	0.007671958	1.767271e-05	-4.3374e-06
	1.473139e-05	-5.107768e-06	-0.02900148	-0.02236825	5.386292e-05	-2.422626e-05	0.01602195	0.00864186
	0.01641216	0.007671958	5.386292e-05	-2.422626e-05	-0.02764971	-0.02536162	2.118025e-05	-8.852988e-06
	1.767271e-05	-4.3374e-06	0.01602195	0.00864186	2.118025e-05	-8.852988e-06	-0.02921853	-0.02216835
4.3e+08	-0.03246638	-0.02386217	1.413701e-05	-6.270902e-06	0.01702683	0.006111212	1.714984e-05	-5.731074e-06
	1.413701e-05	-6.270902e-06	-0.03366064	-0.02080879	5.106427e-05	-2.849089e-05	0.01670715	0.007197886
	0.01702683	0.006111212	5.106427e-05	-2.849089e-05	-0.03253829	-0.02416395	2.012302e-05	-1.058425e-05
	1.714984e-05	-5.731074e-06	0.01670715	0.007197886	2.012302e-05	-1.058425e-05	-0.03389385	-0.02056892
4.4e+08	-0.03701218	-0.02172978	1.345458e-05	-7.373171e-06	0.0172846	0.004456745	1.65221e-05	-7.073286e-06
	1.345458e-05	-7.373171e-06	-0.03796959	-0.0183621	4.794346e-05	-3.246853e-05	0.01705631	0.005647202
	0.0172846	0.004456745	4.794346e-05	-3.246853e-05	-0.03714208	-0.02203327	1.89304e-05	-1.220177e-05
	1.65221e-05	-7.073286e-06	0.01705631	0.005647202	1.89304e-05	-1.220177e-05	-0.03821181	-0.01807891
4.5e+08	-0.04109417	-0.01875095	1.268989e-05	-8.408343e-06	0.01717326	0.00278482	1.579366e-05	-8.356716e-06
	1.268989e-05	-8.408343e-06	-0.04175935	-0.01511554	4.452678e-05	-3.613617e-05	0.01705454	0.004061695
	0.01717326	0.00278482	4.452678e-05	-3.613617e-05	-0.04128248	-0.01904393	1.76136e-05	-1.369569e-05
	1.579366e-05	-8.356716e-06	0.01705454	0.004061695	1.76136e-05	-1.369569e-05	-0.04200279	-0.01478719
4.6e+08	-0.04455464	-0.01503322	1.184911e-05	-9.370721e-06	0.01669661	0.001172544	1.496894e-05	-9.574084e-06
	1.184911e-05	-9.370721e-06	-0.04488191	-0.01118791	4.0842e-05	-3.947256e-05	0.01670212	0.002514658
	0.01669661	0.001172544	4.0842e-05	-3.947256e-05	-0.04479933	-0.01530377	1.618398e-05	-1.505652e-05
	1.496894e-05	-9.574084e-06	0.01670212	0.002514658	1.618398e-05	-1.505652e-05	-0.04511856	-0.0108142
4.7e+08	-0.04726023	-0.01071282	1.093862e-05	-1.02551e-05	0.01587435	-0.0003054575	1.405305e-05	-1.071856e-05
	1.093862e-05	-1.02551e-05	-0.04721595	-0.00672458	3.691848e-05	-4.245838e-05	0.01601435	0.001077665
	0.01587435	-0.0003054575	3.691848e-05	-4.245838e-05	-0.04755697	-0.01094974	1.465411e-05	-1.627628e-05
	1.405305e-05	-1.071856e-05	0.01601435	0.001077665	1.465411e-05	-1.627628e-05	-0.04743781	-0.006306961
