!$
! Info: Touchstone file created by Circ.  Input file=Tx_16in_Rx_93ohms_TxVia_60mils_RxVia_70mils.circ
!$
# Hz S RI R 50
0	0.01461177	2.224488e-25	3.029591e-08	5.655092e-26	0.0001079127	3.194742e-23	6.445524e-08	1.333705e-26
	3.029591e-08	5.655068e-26	0.01460711	2.425654e-25	6.23968e-08	1.839818e-25	0.0001046967	3.566299e-23
	0.000109139	3.103914e-23	6.23968e-08	1.839807e-25	0.01462218	2.205841e-25	2.346867e-08	7.547088e-26
	6.445526e-08	1.333736e-26	0.0001049661	3.581592e-23	2.346897e-08	7.547645e-26	0.01462137	2.415259e-25
1e+07	0.02106137	-0.002829893	5.628513e-08	8.721067e-08	0.0007014054	0.002891142	1.655707e-07	2.440096e-07
	5.628513e-08	8.721068e-08	0.02104782	-0.00282878	8.038584e-08	2.840206e-07	0.0006960301	0.00289315
	0.0007014761	0.002891109	8.038584e-08	2.840206e-07	0.02064282	-0.002811231	4.707002e-08	1.231226e-07
	1.655707e-07	2.440096e-07	0.0006960332	0.002893147	4.707001e-08	1.231226e-07	0.02062808	-0.002809489
2e+07	0.02310232	-0.01122477	1.025786e-07	1.403423e-07	0.002004512	0.005520971	3.858544e-07	3.204304e-07
	1.025786e-07	1.403423e-07	0.02304998	-0.01121113	1.238951e-07	4.868477e-07	0.001984511	0.005530424
	0.002004497	0.005520933	1.238951e-07	4.868477e-07	0.02280901	-0.01106196	1.078576e-07	1.593989e-07
	3.858544e-07	3.204304e-07	0.001984508	0.005530424	1.078576e-07	1.593989e-07	0.022752	-0.01104611
3e+07	0.02093861	-0.02076171	1.539165e-07	1.676303e-07	0.004106701	0.007411849	6.40416e-07	2.743008e-07
	1.539165e-07	1.676303e-07	0.02082944	-0.02071128	1.472513e-07	6.90359e-07	0.004066241	0.007438017
	0.004106697	0.007411849	1.472513e-07	6.90359e-07	0.02073664	-0.02057667	1.685792e-07	1.853786e-07
	6.40416e-07	2.743008e-07	0.004066241	0.007438019	1.685792e-07	1.853786e-07	0.02061804	-0.02052009
4e+07	0.01544182	-0.02932264	1.996628e-07	1.688812e-07	0.006705175	0.008438748	8.759798e-07	9.702588e-08
	1.996628e-07	1.688812e-07	0.0152703	-0.02920441	1.590503e-07	8.961368e-07	0.00664317	0.008493133
	0.00670518	0.008438748	1.590503e-07	8.961368e-07	0.01530635	-0.02915103	2.192958e-07	1.862366e-07
	8.759798e-07	9.702588e-08	0.006643171	0.008493134	2.192958e-07	1.862366e-07	0.01512022	-0.02902015
5e+07	0.007437482	-0.03583378	2.296542e-07	1.47308e-07	0.009424533	0.008564822	1.037685e-06	-2.016912e-07
	2.296542e-07	1.47308e-07	0.007212749	-0.03561512	1.626714e-07	1.104245e-06	0.009345342	0.008659002
	0.009424536	0.008564821	1.626714e-07	1.104245e-06	0.007344685	-0.03569229	2.51991e-07	1.630944e-07
	1.037685e-06	-2.016912e-07	0.009345343	0.008659002	2.51991e-07	1.630944e-07	0.007101051	-0.03545154
6e+07	-0.002137433	-0.03964017	2.34506e-07	1.100536e-07	0.0119714	0.007812153	1.073376e-06	-5.895376e-07
	2.34506e-07	1.100536e-07	-0.002391703	-0.03929374	1.610923e-07	1.316845e-06	0.01188444	0.007955465
	0.0119714	0.007812155	1.610923e-07	1.316845e-06	-0.002209483	-0.03953424	2.571876e-07	1.230888e-07
	1.073376e-06	-5.895376e-07	0.01188444	0.007955465	2.571876e-07	1.230888e-07	-0.002484576	-0.03915391
7e+07	-0.01227903	-0.04044541	2.078498e-07	6.790842e-08	0.01407661	0.00629419	9.454318e-07	-1.012818e-06
	2.078498e-07	6.790841e-08	-0.01252803	-0.03995486	1.576654e-07	1.535559e-06	0.01399515	0.006491812
	0.01407661	0.006294196	1.576654e-07	1.535559e-06	-0.012349	-0.04037253	2.280906e-07	7.768613e-08
	9.454318e-07	-1.012818e-06	0.01399515	0.006491812	2.280906e-07	7.768613e-08	-0.0126175	-0.03983512
8e+07	-0.02199671	-0.03828767	1.478238e-07	3.397439e-08	0.0155241	0.004202579	6.393669e-07	-1.40372e-06
	1.478237e-07	3.397438e-08	-0.02219961	-0.03765139	1.560091e-07	1.760819e-06	0.01546347	0.004454167
	0.0155241	0.004202586	1.560091e-07	1.760819e-06	-0.02207896	-0.03823982	1.6261e-07	4.103301e-08
	6.393669e-07	-1.40372e-06	0.01546347	0.004454167	1.6261e-07	4.1033e-08	-0.02229648	-0.03754385
9e+07	-0.03039631	-0.03350523	5.787242e-08	2.174151e-08	0.01617259	0.001785092	1.68441e-07	-1.690483e-06
	5.78724e-08	2.174151e-08	-0.03051227	-0.03273793	1.596278e-07	1.991692e-06	0.01614792	0.002084166
	0.01617259	0.001785097	1.596278e-07	1.991692e-06	-0.03050055	-0.03347103	6.436684e-08	2.786313e-08
	1.68441e-07	-1.690483e-06	0.01614792	0.002084166	6.436683e-08	2.786312e-08	-0.03062279	-0.03263269
1e+08	-0.03673475	-0.02668413	-5.334936e-08	4.293363e-08	0.01596768	-0.0006823452	-4.262807e-07	-1.808512e-06
	-5.334936e-08	4.293363e-08	-0.03672909	-0.02581635	1.714218e-07	2.22587e-06	0.01599155	-0.00034816
	0.01596768	-0.0006823453	1.714218e-07	2.22587e-06	-0.03686923	-0.02665074	-5.728065e-08	5.115848e-08
	-4.262807e-07	-1.808512e-06	0.01599155	-0.0003481601	-5.728065e-08	5.115848e-08	-0.03685856	-0.02570335
1.1e+08	-0.04060321	-0.01870143	-1.732399e-07	1.053686e-07	0.01494684	-0.002917635	-1.079259e-06	-1.716239e-06
	-1.732399e-07	1.053686e-07	-0.04045255	-0.01777706	1.898877e-07	2.463218e-06	0.01502696	-0.002565537
	0.01494684	-0.002917635	1.898877e-07	2.463218e-06	-0.04076065	-0.01864029	-1.882047e-07	1.197555e-07
	-1.079259e-06	-1.716239e-06	0.01502696	-0.002565537	-1.882047e-07	1.197555e-07	-0.04059164	-0.01763195
1.2e+08	-0.0418416	-0.01025289	-2.861527e-07	2.122937e-07	0.01323945	-0.004677736	-1.713728e-06	-1.390102e-06
	-2.861527e-07	2.122937e-07	-0.04153948	-0.009323676	2.180033e-07	2.699643e-06	0.01337707	-0.004327643
	0.01323945	-0.004677736	2.180033e-07	2.699643e-06	-0.04200278	-0.01015978	-3.115451e-07	2.369352e-07
	-1.713728e-06	-1.390102e-06	0.01337707	-0.004327642	-3.115451e-07	2.369352e-07	-0.04166864	-0.009147008
1.3e+08	-0.04045178	-0.002185225	-3.7588e-07	3.609885e-07	0.01103772	-0.005772841	-2.245219e-06	-8.372014e-07
	-3.7588e-07	3.609885e-07	-0.04001079	-0.00130511	2.552328e-07	2.931692e-06	0.01122678	-0.005445019
	0.01103772	-0.005772841	2.552328e-07	2.931692e-06	-0.04060279	-0.002061435	-4.096214e-07	3.997607e-07
	-2.245219e-06	-8.372014e-07	0.01122677	-0.005445018	-4.096214e-07	3.997607e-07	-0.04011757	-0.001103056
1.4e+08	-0.03672532	0.004716647	-4.27543e-07	5.429047e-07	0.008583186	-0.006084448	-2.59313e-06	-9.493988e-08
	-4.27543e-07	5.429047e-07	-0.03617757	0.005498592	2.998431e-07	3.156447e-06	0.00881029	-0.005796825
	0.008583186	-0.006084448	2.998431e-07	3.156447e-06	-0.03685478	0.004865666	-4.661819e-07	5.989467e-07
	-2.59313e-06	-9.493988e-08	0.008810289	-0.005796824	-4.661819e-07	5.989467e-07	-0.03625382	0.005716269
1.5e+08	-0.03118133	0.009809691	-4.296617e-07	7.44357e-07	0.006141046	-0.005576996	-2.691447e-06	7.711803e-07
	-4.296617e-07	7.44357e-07	-0.03057635	0.01045626	3.491832e-07	3.371813e-06	0.006386512	-0.00534257
	0.006141046	-0.005576996	3.491832e-07	3.371813e-06	-0.03128088	0.009975245	-4.686526e-07	8.19596e-07
	-2.691447e-06	7.711803e-07	0.006386511	-0.00534257	-4.686526e-07	8.19596e-07	-0.03061844	0.01067774
1.6e+08	-0.02450606	0.01265267	-3.758476e-07	9.479101e-07	0.003973143	-0.004300837	-2.498286e-06	1.67336e-06
	-3.758476e-07	9.479101e-07	-0.02390621	0.01314455	4.000558e-07	3.576735e-06	0.004212845	-0.004125523
	0.003973143	-0.004300837	4.000558e-07	3.576735e-06	-0.02457095	0.01282387	-4.0999e-07	1.042692e-06
	-2.498286e-06	1.67336e-06	0.004212845	-0.004125522	-4.0999e-07	1.042692e-06	-0.02391522	0.0133575
1.7e+08	-0.01748004	0.01304487	-2.65931e-07	1.134279e-06	0.00231123	-0.002386875	-2.003157e-06	2.510444e-06
	-2.65931e-07	1.134279e-06	-0.01695395	0.01338482	4.491032e-07	3.771269e-06	0.0025192	-0.002268076
	0.00231123	-0.002386875	4.491032e-07	3.771269e-06	-0.01750949	0.01320983	-2.899319e-07	1.247158e-06
	-2.003157e-06	2.510444e-06	0.0025192	-0.002268076	-2.899319e-07	1.247158e-06	-0.0169354	0.01357801
1.8e+08	-0.01089801	0.01104063	-1.06395e-07	1.284524e-06	0.001333009	-3.31935e-05	-1.230976e-06	3.179166e-06
	-1.063951e-07	1.284524e-06	-0.01051271	0.01125534	4.931506e-07	3.956522e-06	0.001484439	4.067735e-05
	0.001333009	-3.319341e-05	4.931506e-07	3.956522e-06	-0.01089532	0.01118776	-1.154942e-07	1.412256e-06
	-1.230976e-06	3.179166e-06	0.001484439	4.067761e-05	-1.154942e-07	1.412256e-06	-0.0104759	0.01142004
1.9e+08	-0.005489061	0.006938749	8.993629e-08	1.382294e-06	0.001143241	0.002515346	-2.420618e-07	3.586536e-06
	8.993629e-08	1.382294e-06	-0.005301655	0.007077848	5.294804e-07	4.134532e-06	0.00121758	0.002564291
	0.001143241	0.002515346	5.294804e-07	4.134532e-06	-0.005461276	0.007058036	9.934779e-08	1.520044e-06
	-2.420618e-07	3.586536e-06	0.00121758	0.002564291	9.934779e-08	1.520044e-06	-0.005258582	0.007208922
2e+08	-0.00184441	0.00124779	3.049333e-07	1.415889e-06	0.00176212	0.004992815	8.721951e-07	3.661952e-06
	3.049333e-07	1.415889e-06	-0.001894312	0.001379941	5.560521e-07	4.3081e-06	0.001745886	0.005043625
	0.00176212	0.004992815	5.560521e-07	4.3081e-06	-0.001801632	0.0013319	3.347809e-07	1.557661e-06
	8.721951e-07	3.661952e-06	0.001745886	0.005043625	3.347809e-07	1.557661e-06	-0.001858302	0.001476612
2.1e+08	-0.0003599594	-0.005369204	5.168384e-07	1.37994e-06	0.003122488	0.007140727	1.997799e-06	3.367493e-06
	5.168384e-07	1.37994e-06	-0.0006626628	-0.005162753	5.716922e-07	4.480618e-06	0.003011454	0.007224439
	0.003122488	0.007140727	5.716922e-07	4.480618e-06	-0.0003143568	-0.005324042	5.669932e-07	1.519174e-06
	1.997799e-06	3.367493e-06	0.003011454	0.007224439	5.669932e-07	1.519174e-06	-0.0006468207	-0.005096685
2.2e+08	-0.001199394	-0.01216488	7.024529e-07	1.276487e-06	0.005076637	0.008736278	3.010016e-06	2.704982e-06
	7.024529e-07	1.276487e-06	-0.001742641	-0.01179875	5.76274e-07	4.655844e-06	0.004877093	0.008884942
	0.005076637	0.008736278	5.76274e-07	4.655844e-06	-0.00116396	-0.01215836	7.705802e-07	1.406782e-06
	3.010016e-06	2.704982e-06	0.004877093	0.008884942	7.705802e-07	1.406782e-06	-0.001758308	-0.0117552
2.3e+08	-0.004281462	-0.01838531	8.39649e-07	1.115345e-06	0.00741225	0.009616984	3.787374e-06	1.718675e-06
	8.39649e-07	1.115345e-06	-0.005024427	-0.01777958	5.708722e-07	4.837607e-06	0.007141142	0.009860083
	0.00741225	0.009616984	5.708722e-07	4.837607e-06	-0.004268662	-0.01841295	9.213124e-07	1.231201e-06
	3.787374e-06	1.718675e-06	0.007141142	0.009860083	9.213124e-07	1.231201e-06	-0.005079812	-0.01774696
2.4e+08	-0.009292508	-0.02334722	9.099725e-07	9.136082e-07	0.009875819	0.009698668	4.226158e-06	4.929788e-07
	9.099725e-07	9.136082e-07	-0.01016828	-0.02243696	5.578469e-07	5.029421e-06	0.009559671	0.01005957
	0.009875819	0.009698668	5.578469e-07	5.029421e-06	-0.009312956	-0.02340072	9.989929e-07	1.011127e-06
	4.226158e-06	4.929788e-07	0.009559671	0.01005957	9.989929e-07	1.011127e-06	-0.01026742	-0.02240141
2.5e+08	-0.01572252	-0.02650655	9.010558e-07	6.942932e-07	0.0122008	0.008984545	4.253609e-06	-8.547925e-07
	9.010558e-07	6.942932e-07	-0.01664376	-0.0252503	5.407865e-07	5.234009e-06	0.01187345	0.009477415
	0.0122008	0.008984545	5.407865e-07	5.234009e-06	-0.01578382	-0.02657452	9.900961e-07	7.717143e-07
	4.253609e-06	-8.547925e-07	0.01187345	0.009477415	9.900961e-07	7.717143e-07	-0.01678598	-0.02519717
2.6e+08	-0.02292049	-0.02751153	8.085287e-07	4.841547e-07	0.01413704	0.007564303	3.838138e-06	-2.185941e-06
	8.085287e-07	4.841547e-07	-0.02378785	-0.02589761	5.242488e-07	5.452833e-06	0.01383641	0.008191834
	0.01413704	0.007564303	5.242488e-07	5.452833e-06	-0.02302636	-0.02758053	8.89846e-07	5.421854e-07
	3.838138e-06	-2.185941e-06	0.01383641	0.008191834	8.89846e-07	5.421854e-07	-0.02396762	-0.02581303
2.7e+08	-0.03016283	-0.02623499	6.371573e-07	3.108614e-07	0.01547806	0.005603442	2.9952e-06	-3.354936e-06
	6.371573e-07	3.108614e-07	-0.03087517	-0.02428474	5.132908e-07	5.685694e-06	0.01524219	0.006355761
	0.01547806	0.005603442	5.132908e-07	5.685694e-06	-0.03031262	-0.02629096	7.034232e-07	3.527413e-07
	2.9952e-06	-3.354936e-06	0.01524219	0.006355761	7.034232e-07	3.527413e-07	-0.03108269	-0.02415729
2.8e+08	-0.03672756	-0.02278366	4.009346e-07	1.998319e-07	0.01608282	0.003324418	1.788032e-06	-4.22536e-06
	4.009346e-07	1.998319e-07	-0.03719299	-0.02055121	5.128139e-07	5.930552e-06	0.0159457	0.004179335
	0.01608282	0.003324418	5.128139e-07	5.930552e-06	-0.03691628	-0.02281327	4.460596e-07	2.311236e-07
	1.788032e-06	-4.22536e-06	0.0159457	0.004179335	4.460596e-07	2.311236e-07	-0.03741518	-0.02037317
2.9e+08	-0.04196676	-0.01748386	1.220608e-07	1.711192e-07	0.01588997	0.0009820214	3.230314e-07	-4.685441e-06
	1.220608e-07	1.711192e-07	-0.04211328	-0.01505221	5.26845e-07	6.183623e-06	0.01587754	0.001906692
	0.01588997	0.0009820214	5.26845e-07	6.183623e-06	-0.04218545	-0.01747588	1.419192e-07	1.992356e-07
	3.230314e-07	-4.685441e-06	0.01587754	0.001906692	1.419192e-07	1.992356e-07	-0.04233511	-0.01482042
3e+08	-0.04537017	-0.01084589	-1.711502e-07	2.367556e-07	0.01492321	-0.001164027	-1.259783e-06	-4.661431e-06
	-1.711502e-07	2.367556e-07	-0.0451546	-0.008319538	5.578887e-07	6.439789e-06	0.01505	-0.0002101439
	0.01492321	-0.001164027	5.578887e-07	6.439789e-06	-0.04560673	-0.01079226	-1.781746e-07	2.70269e-07
	-1.259783e-06	-4.661431e-06	0.01505	-0.0002101439	-1.781746e-07	2.70269e-07	-0.04536072	-0.008035881
3.1e+08	-0.04661409	-0.003511092	-4.472196e-07	3.9894e-07	0.01328766	-0.002876271	-2.800296e-06	-4.127345e-06
	-4.472196e-07	3.9894e-07	-0.04602843	-0.001006016	6.064909e-07	6.69325e-06	0.01355459	-0.001937438
	0.01328766	-0.002876271	6.064909e-07	6.69325e-06	-0.0468544	-0.003407843	-4.799272e-07	4.467377e-07
	-2.800296e-06	-4.127345e-06	0.01355459	-0.001937438	-4.799272e-07	4.467377e-07	-0.04620477	-0.0006772258
3.2e+08	-0.04559148	0.003812815	-6.749542e-07	6.493355e-07	0.01115808	-0.003963801	-4.134455e-06	-3.109975e-06
	-6.749542e-07	6.493355e-07	-0.04466561	0.006181001	6.711072e-07	6.938312e-06	0.01155161	-0.003083408
	0.01115808	-0.003963801	6.711072e-07	6.938312e-06	-0.04582074	0.003965152	-7.293031e-07	7.197011e-07
	-4.134455e-06	-3.109975e-06	0.01155161	-0.003083408	-7.293031e-07	7.197011e-07	-0.04480093	0.006543959
3.3e+08	-0.04242064	0.01042202	-8.269691e-07	9.695875e-07	0.008760389	-0.004301428	-5.111471e-06	-1.688539e-06
	-8.269691e-07	9.695875e-07	-0.04122124	0.01255043	7.483009e-07	7.170145e-06	0.009253242	-0.003517276
	0.008760389	-0.004301428	7.483009e-07	7.170145e-06	-0.04262477	0.01061835	-8.963436e-07	1.069298e-06
	-5.111471e-06	-1.688539e-06	0.009253242	-0.003517276	-8.963436e-07	1.069298e-06	-0.04130833	0.01293346
3.4e+08	-0.03743222	0.01568581	-8.828484e-07	1.333005e-06	0.006348428	-0.003842173	-5.61036e-06	1.114778e-08
	-8.828484e-07	1.333005e-06	-0.03605755	0.01749588	8.332139e-07	7.385386e-06	0.006901813	-0.003182149
	0.006348428	-0.003842173	8.332139e-07	7.385386e-06	-0.03759928	0.01591688	-9.586117e-07	1.46654e-06
	-5.61036e-06	1.114778e-08	0.006901813	-0.003182149	-9.586117e-07	1.46654e-06	-0.03609406	0.0178832
3.5e+08	-0.03113577	0.01910823	-8.315772e-07	1.707198e-06	0.004178072	-0.002622043	-5.554124e-06	1.827612e-06
	-8.315772e-07	1.707198e-06	-0.0297069	0.02055533	9.201972e-07	7.582478e-06	0.00474527	-0.002100684
	0.004178072	-0.002622043	9.201972e-07	7.582478e-06	-0.03125711	0.01936142	-9.038673e-07	1.876139e-06
	-5.554124e-06	1.827612e-06	0.00474527	-0.002100684	-9.038673e-07	1.876139e-06	-0.02969567	0.02093112
3.6e+08	-0.02416909	0.02037657	-6.72986e-07	2.057356e-06	0.002481084	-0.0007567228	-4.920068e-06	3.578913e-06
	-6.72986e-07	2.057356e-06	-0.02281824	0.02145647	1.00347e-06	7.761754e-06	0.003012013	-0.0003730487
	0.002481084	-0.0007567228	1.00347e-06	7.761754e-06	-0.02424031	0.02063709	-7.316867e-07	2.260065e-06
	-4.920068e-06	3.578913e-06	0.003012013	-0.0003730487	-7.316867e-07	2.260065e-06	-0.0227671	0.0218065
3.7e+08	-0.01723515	0.01939201	-4.180796e-07	2.349806e-06	0.001441044	0.001569697	-3.744951e-06	5.080767e-06
	-4.180796e-07	2.349806e-06	-0.01609229	0.02014331	1.077695e-06	7.925284e-06	0.001887378	0.001832786
	0.001441044	0.001569697	1.077695e-06	7.925284e-06	-0.01725664	0.01964422	-4.538755e-07	2.581429e-06
	-3.744951e-06	5.080767e-06	0.001887378	0.001832786	-4.538755e-07	2.581429e-06	-0.01601331	0.0204565
3.8e+08	-0.01103246	0.01627924	-8.824858e-08	2.555507e-06	0.001173714	0.004123085	-2.124151e-06	6.16591e-06
	-8.824858e-08	2.555507e-06	-0.01021151	0.01678144	1.138417e-06	8.076602e-06	0.001494018	0.004297755
	0.001173714	0.004123085	1.138417e-06	8.076602e-06	-0.01100945	0.01650822	-9.36521e-08	2.808321e-06
	-2.124151e-06	6.16591e-06	0.001494018	0.004297755	-9.36521e-08	2.808321e-06	-0.01011981	0.01705109
3.9e+08	-0.00618575	0.01137405	2.865489e-07	2.653141e-06	0.001713957	0.006643238	-2.045239e-07	6.702714e-06
	2.865489e-07	2.653141e-06	-0.005771775	0.01174117	1.182368e-06	8.220376e-06	0.00187832	0.006774045
	0.001713957	0.006643238	1.182368e-06	8.220376e-06	-0.006127967	0.01156709	3.16313e-07	2.917234e-06
	-2.045239e-07	6.702714e-06	0.00187832	0.006774045	3.16313e-07	2.917234e-06	-0.005684018	0.01196575
4e+08	-0.003183804	0.005189892	6.704719e-07	2.631555e-06	0.003010885	0.008871205	1.828683e-06	6.610994e-06
	6.704719e-07	2.631555e-06	-0.003222721	0.005560081	1.20768e-06	8.362088e-06	0.003004552	0.009011026
	0.003010885	0.008871205	1.20768e-06	8.362088e-06	-0.00310457	0.005337789	7.368351e-07	2.895779e-06
	1.828683e-06	6.610994e-06	0.003004552	0.009011026	7.368351e-07	2.895779e-06	-0.003155349	0.005743523
4.1e+08	-0.00233079	-0.00163355	1.025146e-06	2.491322e-06	0.004932177	0.01057716	3.769794e-06	5.873055e-06
	1.025146e-06	2.491322e-06	-0.002822733	-0.001111356	1.214073e-06	8.507698e-06	0.004757765	0.01078208
	0.004932177	0.01057716	1.214073e-06	8.507698e-06	-0.002245811	-0.001535438	1.125899e-06	2.744427e-06
	3.769794e-06	5.873055e-06	0.004757765	0.01078208	1.125899e-06	2.744427e-06	-0.002790232	-0.0009599644
4.2e+08	-0.003716217	-0.008394401	1.313421e-06	2.245264e-06	0.007277459	0.01158566	5.413812e-06	4.538444e-06
	1.313421e-06	2.245264e-06	-0.004613473	-0.007575637	1.203024e-06	8.663269e-06	0.006955467	0.01190931
	0.007277459	0.01158566	1.203024e-06	8.663269e-06	-0.003642052	-0.008345606	1.442806e-06	2.477081e-06
	5.413812e-06	4.538444e-06	0.006955467	0.01190931	1.442806e-06	2.477081e-06	-0.004626782	-0.007442897
4.3e+08	-0.007206581	-0.01439889	1.503251e-06	1.917783e-06	0.009799534	0.01179535	6.578426e-06	2.721527e-06
	1.503251e-06	1.917783e-06	-0.00841651	-0.01315866	1.177884e-06	8.834474e-06	0.009367027	0.01228323
	0.009799534	0.01179535	1.177884e-06	8.834474e-06	-0.007158986	-0.01439374	1.652437e-06	2.120344e-06
	6.578426e-06	2.721527e-06	0.009367027	0.01228323	1.652437e-06	2.120344e-06	-0.008481772	-0.01302818
4.4e+08	-0.01245955	-0.01903045	1.571317e-06	1.542983e-06	0.01223114	0.01119042	7.124427e-06	5.918181e-07
	1.571317e-06	1.542983e-06	-0.01385238	-0.01727738	1.143873e-06	9.025989e-06	0.01173863	0.01187482
	0.01223114	0.01119042	1.143873e-06	9.025989e-06	-0.01245187	-0.01905857	1.729224e-06	1.71143e-06
	7.124427e-06	5.918181e-07	0.01173863	0.01187482	1.729224e-06	1.71143e-06	-0.01397018	-0.0171315
4.5e+08	-0.01895903	-0.02181071	1.50601e-06	1.161607e-06	0.01431408	0.009842602	6.972143e-06	-1.642078e-06
	1.50601e-06	1.161607e-06	-0.02037987	-0.01949779	1.107832e-06	9.240794e-06	0.01382089	0.01073869
	0.01431408	0.009842602	1.107832e-06	9.240794e-06	-0.0190008	-0.02185792	1.660393e-06	1.294798e-06
	6.972143e-06	-1.642078e-06	0.01382089	0.01073869	1.660393e-06	1.294798e-06	-0.02054506	-0.01931937
4.6e+08	-0.02606734	-0.02244604	1.309344e-06	8.170159e-07	0.01582735	0.007903264	6.111893e-06	-3.753302e-06
	1.309344e-06	8.170159e-07	-0.02735129	-0.0195772	1.077654e-06	9.479533e-06	0.01539577	0.009006777
	0.01582735	0.007903264	1.077654e-06	9.479533e-06	-0.02616329	-0.02249581	1.44802e-06	9.177667e-07
	6.111893e-06	-3.753302e-06	0.01539577	0.009006777	1.44802e-06	9.177667e-07	-0.02755346	-0.01935156
4.7e+08	-0.03308889	-0.02085537	9.974704e-07	5.505851e-07	0.01661077	0.00558673	4.607164e-06	-5.520083e-06
	9.974704e-07	5.505851e-07	-0.03407771	-0.01748695	1.061439e-06	9.74006e-06	0.01629977	0.006873634
	0.01661077	0.00558673	1.061439e-06	9.74006e-06	-0.03323836	-0.02089032	1.109592e-06	6.254882e-07
	4.607164e-06	-5.520083e-06	0.01629977	0.006873634	1.109592e-06	6.254882e-07	-0.03430214	-0.01720334
4.8e+08	-0.03933885	-0.01717675	5.995822e-07	3.970308e-07	0.01658177	0.003146954	2.590075e-06	-6.749093e-06
