!$
! Info: Touchstone file created by Circ.  Input file=Tx_16in_Rx_85ohms_TxVia_60mils_RxVia_70mils.circ
!$
# Hz S RI R 50
0	0.01285508	2.057324e-25	-8.581221e-05	7.373333e-24	0.0001050927	2.539204e-23	-8.584742e-05	1.189542e-23
	-8.58122e-05	7.372242e-24	0.01285029	2.440225e-25	-8.577414e-05	2.915778e-24	0.0001052989	3.135502e-23
	0.0001060722	2.583715e-23	-8.577412e-05	2.913883e-24	0.01286883	1.968803e-25	-8.580482e-05	6.885085e-24
	-8.58474e-05	1.189343e-23	0.0001055683	3.148947e-23	-8.580483e-05	6.886073e-24	0.0128646	2.429765e-25
1e+07	0.01753665	-0.01590139	-0.0003721243	-1.727777e-05	0.0005941216	0.002875627	-0.0002338112	0.0001811967
	-0.0003721243	-1.727777e-05	0.01540239	-0.01595667	-1.279391e-05	-2.319501e-05	0.0007105348	0.00287703
	0.00059413	0.002875594	-1.279391e-05	-2.319501e-05	0.01542794	-0.01622841	-8.01501e-05	-1.961935e-05
	-0.0002338112	0.0001811967	0.0007105378	0.002877028	-8.015011e-05	-1.961935e-05	0.01536661	-0.01593927
2e+07	0.01308322	-0.03602495	-0.0003265651	6.723608e-05	0.002002738	0.005399087	-0.0001996349	0.0001874061
	-0.0003265651	6.723607e-05	0.0112416	-0.03533481	-1.037861e-05	-4.954206e-06	0.002150657	0.005296143
	0.002002711	0.005399087	-1.03786e-05	-4.954206e-06	0.01101451	-0.03575077	-6.869987e-05	1.88543e-05
	-0.0001996349	0.0001874061	0.002150654	0.005296143	-6.869987e-05	1.88543e-05	0.01122203	-0.03528759
3e+07	0.0009667524	-0.05439556	-0.0003082281	7.302023e-05	0.004170962	0.007173344	-0.0001408527	0.0002058947
	-0.0003082281	7.302023e-05	-0.0006333712	-0.05335614	-8.794895e-06	4.852648e-07	0.004240883	0.007060421
	0.00417096	0.007173349	-8.794895e-06	4.852641e-07	-0.001015279	-0.05377356	-6.790445e-05	1.775886e-05
	-0.0001408527	0.0002058947	0.004240883	0.007060423	-6.790445e-05	1.775886e-05	-0.0006417828	-0.05329304
4e+07	-0.01675376	-0.06798993	-0.0002912236	9.168748e-05	0.006719884	0.008098512	-7.760855e-05	0.0001958579
	-0.0002912236	9.168748e-05	-0.01812663	-0.06669153	-7.069042e-06	3.659209e-06	0.006718908	0.008009074
	0.006719883	0.008098508	-7.069042e-06	3.65921e-06	-0.01859615	-0.0670779	-6.70029e-05	2.208965e-05
	-7.760855e-05	0.0001958579	0.006718909	0.008009075	-6.70029e-05	2.208965e-05	-0.01812719	-0.06661592
5e+07	-0.03785888	-0.07526724	-0.0002726669	0.000115485	0.009342972	0.008121732	-2.828184e-05	0.000155868
	-0.0002726669	0.000115485	-0.03900587	-0.0737548	-5.175729e-06	5.76772e-06	0.009284166	0.008080741
	0.009342969	0.008121731	-5.175729e-06	5.76772e-06	-0.03951603	-0.0741099	-6.478333e-05	2.909884e-05
	-2.828184e-05	0.000155868	0.009284167	0.008080741	-6.478333e-05	2.909884e-05	-0.03900098	-0.07366692
6e+07	-0.05997699	-0.07559168	-0.0002507457	0.00014098	0.0117408	0.007294548	-7.841176e-06	9.53565e-05
	-0.0002507457	0.00014098	-0.06088849	-0.07389715	-3.134731e-06	7.157566e-06	0.01164284	0.007319917
	0.0117408	0.007294551	-3.134732e-06	7.157566e-06	-0.06141154	-0.07423416	-6.049542e-05	3.722394e-05
	-7.841176e-06	9.53565e-05	0.01164284	0.007319917	-6.049542e-05	3.722394e-05	-0.06087895	-0.07379598
7e+07	-0.08079083	-0.06914249	-0.0002245323	0.0001657133	0.01365837	0.005760224	-2.468781e-05	3.01218e-05
	-0.0002245323	0.0001657133	-0.08144963	-0.06729829	-1.94783e-06	7.421206e-06	0.0135439	0.005862138
	0.01365838	0.005760228	-1.947831e-06	7.421206e-06	-0.0819737	-0.06763232	-5.39162e-05	4.517458e-05
	-2.468781e-05	3.01218e-05	0.0135439	0.005862138	-5.39162e-05	4.517458e-05	-0.08143478	-0.06718271
8e+07	-0.09825086	-0.05680865	-0.0001938125	0.000187621	0.01490985	0.003728658	-7.916582e-05	-2.178352e-05
	-0.0001938125	0.000187621	-0.09863726	-0.05485473	-1.224683e-06	7.317046e-06	0.01480331	0.003908964
	0.01490986	0.00372866	-1.224685e-06	7.317046e-06	-0.09916079	-0.05519566	-4.529128e-05	5.188528e-05
	-7.916582e-05	-2.178352e-05	0.01480331	0.003908964	-4.529128e-05	5.188528e-05	-0.09861534	-0.05472417
9e+07	-0.1107514	-0.04004131	-0.0001587723	0.000204974	0.01539078	0.001447492	-0.0001642967	-4.395473e-05
	-0.0001587723	0.000204974	-0.1108497	-0.03802839	-5.263254e-07	7.169751e-06	0.01531604	0.001699684
	0.01539079	0.001447491	-5.263264e-07	7.169752e-06	-0.1113735	-0.03837713	-3.518124e-05	5.661238e-05
	-0.0001642967	-4.395473e-05	0.01531604	0.001699684	-3.518124e-05	5.661238e-05	-0.1108182	-0.03788334
1e+08	-0.1172535	-0.02067465	-0.0001182171	0.0002163181	0.01508082	-0.0008253492	-0.0002726679	-2.448294e-05
	-0.0001182171	0.0002163181	-0.117062	-0.01866452	6.329705e-08	6.956802e-06	0.01506084	-0.0005151117
	0.01508082	-0.0008253493	6.329705e-08	6.956802e-06	-0.1175692	-0.0190117	-2.407149e-05	5.899793e-05
	-0.0002726679	-2.448294e-05	0.01506084	-0.0005151117	-2.407149e-05	5.899793e-05	-0.1170188	-0.01850685
1.1e+08	-0.1173462	-0.000726711	-7.653683e-05	0.000228312	0.0140323	-0.002851227	-0.0003771206	1.690936e-05
	-7.653683e-05	0.000228312	-0.1168698	0.001228227	6.247794e-07	6.535584e-06	0.01408007	-0.00251522
	0.0140323	-0.002851227	6.247794e-07	6.535584e-06	-0.1173719	0.0008260542	-1.327543e-05	5.994413e-05
	-0.0003771206	1.690936e-05	0.01408007	-0.00251522	-1.327543e-05	5.994413e-05	-0.1168122	0.001396537
1.2e+08	-0.1112576	0.01778123	-3.747664e-05	0.0002331699	0.01236509	-0.00440921	-0.0004521966	9.999349e-05
	-3.747664e-05	0.0002331699	-0.1105121	0.01960589	1.145121e-06	6.118009e-06	0.01247711	-0.004071536
	0.01236509	-0.00440921	1.145121e-06	6.118009e-06	-0.111054	0.01918025	-3.688969e-06	5.875809e-05
	-0.0004521966	9.999349e-05	0.01247711	-0.004071536	-3.688969e-06	5.875809e-05	-0.110438	0.01977984
1.3e+08	-0.09981908	0.03302396	-7.287672e-08	0.0002316503	0.01026123	-0.005333109	-0.0004911087	0.0002122254
	-7.28767e-08	0.0002316503	-0.09885013	0.03464488	1.579026e-06	5.717359e-06	0.01042896	-0.00501629
	0.01026123	-0.005333109	1.579026e-06	5.717359e-06	-0.09943563	0.03423849	4.515816e-06	5.60862e-05
	-0.0004911087	0.0002122254	0.01042896	-0.005016289	4.515816e-06	5.60862e-05	-0.09875998	0.03481855
1.4e+08	-0.08437132	0.0435324	3.504128e-05	0.0002245072	0.007942775	-0.005517811	-0.0004872562	0.0003374896
	3.504128e-05	0.0002245072	-0.08325059	0.04488842	1.939625e-06	5.362472e-06	0.008150545	-0.005241009
	0.007942775	-0.005517811	1.939625e-06	5.362472e-06	-0.08385815	0.04454116	1.121509e-05	5.260663e-05
	-0.0004872562	0.0003374896	0.008150544	-0.005241008	1.121509e-05	5.260663e-05	-0.0831472	0.04505596
1.5e+08	-0.06663605	0.0483283	6.728465e-05	0.000212594	0.005655869	-0.004929753	-0.0004404974	0.0004584735
	6.728465e-05	0.000212594	-0.06545677	0.04938	2.26144e-06	5.071984e-06	0.005881787	-0.004706281
	0.005655869	-0.004929753	2.26144e-06	5.071984e-06	-0.06604488	0.04911992	1.655414e-05	4.896086e-05
	-0.0004404974	0.0004584735	0.005881786	-0.00470628	1.655414e-05	4.896086e-05	-0.06534532	0.04953655
1.6e+08	-0.04855155	0.04701937	9.630788e-05	0.0001967809	0.00364967	-0.003614173	-0.000357501	0.000559766
	9.630788e-05	0.0001967809	-0.04742096	0.04775703	2.588095e-06	4.844834e-06	0.003867632	-0.003449373
	0.00364967	-0.003614173	2.588095e-06	4.844834e-06	-0.04793473	0.04759347	2.093483e-05	4.563034e-05
	-0.000357501	0.000559766	0.003867632	-0.003449372	2.093483e-05	4.563034e-05	-0.04730853	0.04789963
1.7e+08	-0.03208222	0.03984357	0.0001220059	0.0001778369	0.002151104	-0.001696327	-0.0002503092	0.000630691
	0.0001220059	0.0001778369	-0.03111114	0.04029236	2.959676e-06	4.658388e-06	0.002333604	-0.001586214
	0.002151104	-0.001696327	2.959676e-06	4.658388e-06	-0.03149056	0.04021156	2.492682e-05	4.282261e-05
	-0.0002503092	0.000630691	0.002333604	-0.001586213	2.492682e-05	4.282261e-05	-0.03100598	0.04042059
1.8e+08	-0.01901732	0.02765263	0.000144435	0.0001563308	0.001337613	0.0006262703	-0.0001336428	0.0006671698
	0.000144435	0.0001563308	-0.01830791	0.0278739	3.402224e-06	4.472916e-06	0.00145901	0.0006953499
	0.001337613	0.0006262703	3.402224e-06	4.472916e-06	-0.01849712	0.02783775	2.911669e-05	4.040683e-05
	-0.0001336428	0.0006671698	0.00145901	0.0006953502	2.911669e-05	4.040683e-05	-0.01821848	0.02799033
1.9e+08	-0.01077935	0.01182957	0.0001636756	0.0001325985	0.001311984	0.003102477	-2.157472e-05	0.0006721159
	0.0001636756	0.0001325985	-0.01041251	0.01191763	3.921511e-06	4.240123e-06	0.001351846	0.003153031
	0.001311984	0.003102477	3.921511e-06	4.240123e-06	-0.01036919	0.01186586	3.392781e-05	3.793539e-05
	-2.157472e-05	0.0006721159	0.001351846	0.003153031	3.392781e-05	3.793539e-05	-0.0103464	0.01202787
2e+08	-0.008266144	-0.005856409	0.0001796919	0.0001067973	0.002084627	0.005456463	7.563267e-05	0.0006541861
	0.0001796919	0.0001067973	-0.008290265	-0.005782058	4.501714e-06	3.912727e-06	0.002030738	0.005517866
	0.002084627	0.005456463	4.501714e-06	3.912727e-06	-0.007993811	-0.005926372	3.946549e-05	3.476546e-05
	7.563267e-05	0.0006541861	0.002030738	0.005517866	3.946549e-05	3.476546e-05	-0.008253078	-0.005669727
2.1e+08	-0.01174947	-0.02344405	0.0001922476	7.903734e-05	0.00356824	0.007423293	0.0001537127	0.0006251413
	0.0001922476	7.903734e-05	-0.0121723	-0.02325045	5.108002e-06	3.452918e-06	0.003418853	0.007528784
	0.00356824	0.007423293	5.108002e-06	3.452918e-06	-0.01162975	-0.02357247	4.544701e-05	3.025538e-05
	0.0001537127	0.0006251413	0.003418853	0.007528784	4.544701e-05	3.025538e-05	-0.01216675	-0.02312578
2.2e+08	-0.02084683	-0.0389997	0.0002009158	4.95409e-05	0.005587521	0.00878496	0.0002150044	0.0005964746
	0.0002009158	4.95409e-05	-0.02163184	-0.03855477	5.691628e-06	2.838826e-06	0.005352498	0.008967887
	0.005587521	0.00878496	5.691628e-06	2.838826e-06	-0.02088042	-0.03913756	5.125107e-05	2.397537e-05
	0.0002150044	0.0005964746	0.005352498	0.008967887	5.125107e-05	2.397537e-05	-0.02165708	-0.03840662
2.3e+08	-0.03457184	-0.05083311	0.0002051831	1.876509e-05	0.007902946	0.009399757	0.000267323	0.0005761987
	0.0002051831	1.876509e-05	-0.0356398	-0.05002074	6.196806e-06	2.068981e-06	0.007603547	0.009689509
	0.007902946	0.009399757	6.196806e-06	2.068981e-06	-0.03474567	-0.05093443	5.607652e-05	1.585904e-05
	0.000267323	0.0005761987	0.007603547	0.009689509	5.607652e-05	1.585904e-05	-0.03569115	-0.04983833
2.4e+08	-0.05145552	-0.05768005	0.0002046061	-1.25601e-05	0.01024409	0.009219316	0.000321423	0.000566642
	0.0002046061	-1.25601e-05	-0.05269137	-0.056414	6.569236e-06	1.164274e-06	0.009911321	0.009637435
	0.01024409	0.009219316	6.569236e-06	1.164274e-06	-0.05174438	-0.0577057	5.915606e-05	6.243388e-06
	0.000321423	0.000566642	0.009911321	0.009637435	5.915606e-05	6.243388e-06	-0.0527605	-0.05618826
2.5e+08	-0.06971978	-0.05882882	0.0001989587	-4.34886e-05	0.0123458	0.008290754	0.0003877535	0.0005638011
	0.0001989587	-4.34886e-05	-0.07098393	-0.05706365	6.765544e-06	1.663047e-07	0.01201742	0.008847744
	0.0123458	0.008290754	6.765544e-06	1.663047e-07	-0.07008909	-0.05874965	5.995115e-05	-4.210074e-06
	0.0003877535	0.0005638011	0.01201742	0.008847744	5.995115e-05	-4.210074e-06	-0.07105952	-0.05678845
2.6e+08	-0.08747744	-0.05417819	0.0001883201	-7.298308e-05	0.01398048	0.006745073	0.0004733858	0.0005583322
	0.0001883201	-7.298308e-05	-0.08862018	-0.05191579	6.761879e-06	-8.688373e-07	0.01369701	0.00743837
	0.01398048	0.006745073	6.761879e-06	-8.688373e-07	-0.08788668	-0.05397707	5.826872e-05	-1.46765e-05
	0.0004733858	0.0005583322	0.01369701	0.00743837	5.826872e-05	-1.46765e-05	-0.08868903	-0.05158891
2.7e+08	-0.1029324	-0.04422586	0.0001730831	-0.000100057	0.01498176	0.004775824	0.000579843	0.0005378472
	0.0001730831	-0.000100057	-0.1038098	-0.04151693	6.558815e-06	-1.88085e-06	0.0147819	0.005589237
	0.01498176	0.004775824	6.558815e-06	-1.88085e-06	-0.1033389	-0.04389855	5.427662e-05	-2.435086e-05
	0.000579843	0.0005378472	0.0147819	0.005589237	5.427662e-05	-2.435086e-05	-0.1038582	-0.04114064
2.8e+08	-0.1145575	-0.02999608	0.0001538959	-0.0001238913	0.0152576	0.002613178	0.0007022901	0.0004898688
	0.0001538959	-0.0001238913	-0.1150472	-0.02693641	6.1805e-06	-2.817159e-06	0.01517362	0.003517935
	0.0152576	0.002613178	6.1805e-06	-2.817159e-06	-0.1149204	-0.02955102	4.843326e-05	-3.259907e-05
	0.0007022901	0.0004898688	0.01517362	0.003517935	4.843326e-05	-3.259907e-05	-0.1150624	-0.0265175
2.9e+08	-0.1212356	-0.01292068	0.0001315688	-0.0001439011	0.0147936	0.0004979967	0.0008301443	0.0004047663
	0.0001315688	-0.0001439011	-0.12125	-0.009642618	5.667625e-06	-3.642876e-06	0.01484732	0.001455315
	0.0147936	0.0004979967	5.667625e-06	-3.642876e-06	-0.1215187	-0.01237781	4.136874e-05	-3.904698e-05
	0.0008301443	0.0004047663	0.01484732	0.001455315	4.136874e-05	-3.904698e-05	-0.1212219	-0.009191964
3e+08	-0.1223532	0.005310263	0.0001069768	-0.0001597539	0.01364885	-0.001341186	0.0009488933	0.0002780584
	0.0001069768	-0.0001597539	-0.1218506	0.008650313	5.0663e-06	-4.345689e-06	0.01384862	-0.0003762604
	0.01364885	-0.001341186	5.0663e-06	-4.345689e-06	-0.1225286	0.00592159	3.375584e-05	-4.360485e-05
	0.0009488933	0.0002780584	0.01384862	-0.0003762604	3.375584e-05	-4.360485e-05	-0.1217728	0.009118707
3.1e+08	-0.1178468	0.02291321	8.097538e-05	-0.0001713541	0.01194688	-0.002707202	0.001042684	0.0001116556
	8.097538e-05	-0.0001713541	-0.1168373	0.02615009	4.41625e-06	-4.934275e-06	0.01228597	-0.001781113
	0.01194688	-0.002707202	4.41625e-06	-4.934275e-06	-0.1178967	0.02355686	2.619608e-05	-4.644147e-05
	0.001042684	0.0001116556	0.01228597	-0.001781113	2.619608e-05	-4.644147e-05	-0.1167082	0.02662045
3.2e+08	-0.1082005	0.03817824	5.433463e-05	-0.000178806	0.009863599	-0.003449595	0.001097162	-8.609837e-05
	5.433463e-05	-0.000178806	-0.1067475	0.04115489	3.741869e-06	-5.430946e-06	0.01032015	-0.002605242
	0.009863599	-0.003449595	3.741869e-06	-5.430946e-06	-0.1081189	0.0388145	1.913109e-05	-4.792394e-05
	0.001097162	-8.609837e-05	0.01032015	-0.002605242	1.913109e-05	-4.792394e-05	-0.1065707	0.04161124
3.3e+08	-0.09439822	0.04962756	2.76885e-05	-0.000182365	0.007612792	-0.003476948	0.001102089	-0.0003015435
	2.76885e-05	-0.000182365	-0.09261389	0.05221175	3.048612e-06	-5.861162e-06	0.008151524	-0.002748841
	0.007612792	-0.003476948	3.048612e-06	-5.861162e-06	-0.09419117	0.05021661	1.278183e-05	-4.853484e-05
	0.001102089	-0.0003015435	0.008151524	-0.002748841	1.278183e-05	-4.853484e-05	-0.09239827	0.05263975
3.4e+08	-0.07783278	0.05615512	1.544268e-06	-0.0001821437	0.005429051	-0.002766394	0.001038082	-0.0005328421
	1.544268e-06	-0.0001821437	-0.07586952	0.05825467	2.326088e-06	-6.246844e-06	0.006004364	-0.00217651
	0.005429051	-0.002766394	2.326088e-06	-6.246844e-06	-0.07751849	0.05666064	7.170999e-06	-4.854919e-05
	0.001038082	-0.0005328421	0.006004364	-0.00217651	7.170999e-06	-4.854919e-05	-0.07562841	0.05864329
3.5e+08	-0.06017805	0.05713665	-2.375404e-05	-0.0001786968	0.003547444	-0.001369451	0.0009157102	-0.0007444215
	-2.375404e-05	-0.0001786968	-0.05821426	0.05871159	1.550667e-06	-6.588636e-06	0.004107832	-0.000924243
	0.003547444	-0.001369451	1.550667e-06	-6.588636e-06	-0.05978521	0.05752943	2.081559e-06	-4.857547e-05
	0.0009157102	-0.0007444215	0.004107832	-0.000924243	2.081559e-06	-4.857547e-05	-0.05796426	0.0590544
3.6e+08	-0.04322978	0.05249971	-4.808173e-05	-0.0001723551	0.002180138	0.0005877065	0.0007471393	-0.0009179756
	-4.808173e-05	-0.0001723551	-0.04145217	0.05356958	7.018018e-07	-6.87168e-06	0.0026734	0.0008987986
	0.002180138	0.0005877065	7.018018e-07	-6.87168e-06	-0.04279508	0.05276064	-2.943167e-06	-4.886948e-05
	0.0007471393	-0.0009179756	0.0026734	0.0008987986	-2.943167e-06	-4.886948e-05	-0.04121161	0.05386575
3.7e+08	-0.02872724	0.04274279	-7.140148e-05	-0.000163258	0.001491493	0.002911883	0.0005474793	-0.001043065
	-7.140148e-05	-0.000163258	-0.02731098	0.04338798	-2.31729e-07	-7.068124e-06	0.001870299	0.003116194
	0.001491493	0.002911883	-2.31729e-07	-7.068124e-06	-0.02829195	0.0428651	-8.428744e-06	-4.935769e-05
	0.0005474793	-0.001043065	0.001870299	0.003116194	-8.428744e-06	-4.935769e-05	-0.02709799	0.04364274
3.8e+08	-0.01817187	0.02889637	-9.364379e-05	-0.0001513612	0.001574974	0.005360055	0.0003338926	-0.001116021
	-9.364379e-05	-0.0001513612	-0.01726061	0.0292527	-1.247111e-06	-7.142879e-06	0.00180221	0.005499661
	0.001574974	0.005360055	-1.247111e-06	-7.142879e-06	-0.01777763	0.02888665	-1.480597e-05	-4.965387e-05
	0.0003338926	-0.001116021	0.00180221	0.005499661	-1.480597e-05	-4.965387e-05	-0.01709117	0.02947708
3.9e+08	-0.01266321	0.01242405	-0.0001145815	-0.0001364872	0.002436423	0.007665934	0.0001224405	-0.001140005
	-0.0001145815	-0.0001364872	-0.01235145	0.01267067	-2.326147e-06	-7.060472e-06	0.002489753	0.007793927
	0.002436423	0.007665934	-2.326147e-06	-7.060472e-06	-0.01234776	0.01230185	-2.224663e-05	-4.913602e-05
	0.0001224405	-0.001140005	0.002489753	0.007793927	-2.224663e-05	-4.913602e-05	-0.01223749	0.0128807
4e+08	-0.01277413	-0.004929132	-0.0001337476	-0.0001184484	0.00398825	0.00957308	-7.473557e-05	-0.001123581
	-0.0001337476	-0.0001184484	-0.01309415	-0.004587615	-3.436489e-06	-6.790935e-06	0.00386335	0.009748418
	0.00398825	0.00957308	-3.436489e-06	-6.790935e-06	-0.01256714	-0.005133168	-3.055657e-05	-4.710995e-05
	-7.473557e-05	-0.001123581	0.00386335	0.009748418	-3.055657e-05	-4.710995e-05	-0.01304204	-0.004372414
4.1e+08	-0.01848387	-0.0213253	-0.0001504375	-9.720738e-05	0.006057402	0.01086928	-0.0002512127	-0.001078139
	-0.0001504375	-9.720738e-05	-0.01939936	-0.02068059	-4.534266e-06	-6.314503e-06	0.005769412	0.01115069
	0.006057402	0.01086928	-4.534266e-06	-6.314503e-06	-0.01840372	-0.02157264	-3.917254e-05	-4.301534e-05
	-0.0002512127	-0.001078139	0.005769412	0.01115069	-3.917254e-05	-4.301534e-05	-0.0194089	-0.02043912
4.2e+08	-0.02918025	-0.03503552	-0.0001638073	-7.30169e-05	0.008406961	0.01141572	-0.0004066025	-0.001014808
	-0.0001638073	-7.30169e-05	-0.03058769	-0.03389877	-5.56773e-06	-5.625576e-06	0.007989856	0.01185523
	0.008406961	0.01141572	-5.56773e-06	-5.625576e-06	-0.0292321	-0.03528393	-4.727403e-05	-3.660723e-05
	-0.0004066025	-0.001014808	0.007989856	0.01185523	-4.727403e-05	-3.660723e-05	-0.03065175	-0.03361061
4.3e+08	-0.04373165	-0.04462814	-0.0001730401	-4.648428e-05	0.01076781	0.01116509	-0.0005453337	-0.0009416697
	-0.0001730401	-4.648428e-05	-0.04546953	-0.04285157	-6.482478e-06	-4.735904e-06	0.01027161	0.01180201
	0.01076781	0.01116509	-6.482478e-06	-4.735904e-06	-0.043907	-0.04483616	-5.39771e-05	-2.804982e-05
	-0.0005453337	-0.0009416697	0.01027161	0.01180201	-5.39771e-05	-2.804982e-05	-0.04557453	-0.04249918
4.4e+08	-0.06061792	-0.04911879	-0.0001775229	-1.853505e-05	0.01287434	0.0101655	-0.000674282	-0.0008619909
	-0.0001775229	-1.853505e-05	-0.06248289	-0.04661306	-7.228608e-06	-3.675746e-06	0.01236036	0.01102147
	0.01287434	0.0101655	-7.228608e-06	-3.675746e-06	-0.06089577	-0.04925013	-5.85457e-05	-1.789273e-05
	-0.000674282	-0.0008619909	0.01236036	0.01102147	-5.85457e-05	-1.789273e-05	-0.06260994	-0.0461839
4.5e+08	-0.07810113	-0.04806469	-0.0001769763	9.709699e-06	0.0144976	0.00855031	-0.0007999172	-0.0007738722
	-0.0001769763	9.709699e-06	-0.07986903	-0.04481002	-7.768715e-06	-2.491342e-06	0.01403217	0.009626157
	0.0144976	0.00855031	-7.768715e-06	-2.491342e-06	-0.07845046	-0.04809182	-6.055304e-05	-6.94428e-06
	-0.0007999172	-0.0007738722	0.01403217	0.009626157	-6.055304e-05	-6.94428e-06	-0.07999577	-0.04429806
4.6e+08	-0.0944124	-0.0415954	-0.000171502	3.709816e-05	0.01547041	0.006517232	-0.0009257255	-0.0006713152
	-0.000171502	3.709816e-05	-0.09586184	-0.03764507	-8.084216e-06	-1.238062e-06	0.01511781	0.007792104
	0.01547041	0.006517232	-8.084216e-06	-1.238062e-06	-0.09479558	-0.04150205	-5.995068e-05	3.909238e-06
	-0.0009257255	-0.0006713152	0.01511781	0.007792104	-5.995068e-05	3.909238e-06	-0.09596465	-0.03705172
4.7e+08	-0.1079321	-0.03038178	-0.0001615452	6.260264e-05	0.0157019	0.004301703	-0.001050522	-0.0005463553
	-0.0001615452	6.260264e-05	-0.1088677	-0.02585791	-8.177274e-06	2.922321e-08	0.01551725	0.005734583
	0.0157019	0.004301703	-8.177274e-06	2.922321e-08	-0.1083088	-0.03016426	-5.704071e-05	1.387993e-05
	-0.001050522	-0.0005463553	0.01551725	0.005734583	-5.704071e-05	1.387993e-05	-0.1089243	-0.02519217
4.8e+08	-0.1173447	-0.01555293	-0.0001478001	8.542902e-05	0.01518136	0.002149484	-0.001167998	-0.0003916744
