!$
! Info: Touchstone file created by Circ.  Input file=Tx_12in_Rx_85ohms_TxVia_60mils_RxVia_70mils.circ
!$
# Hz S RI R 50
0	0.009711742	1.560034e-25	-6.473267e-05	-2.348152e-26	8.470938e-05	1.868841e-23	-6.47303e-05	-7.933312e-26
	-6.473266e-05	-2.413233e-26	0.009707269	1.918378e-25	-6.47318e-05	-2.08368e-26	8.441952e-05	2.364713e-23
	8.57929e-05	1.881327e-23	-6.47318e-05	-2.102242e-26	0.009727151	1.560316e-25	-6.473156e-05	1.009979e-25
	-6.473029e-05	-8.066475e-26	8.46891e-05	2.374853e-23	-6.473156e-05	1.005036e-25	0.009721672	1.910036e-25
1e+07	0.01220957	-0.01168267	-7.67097e-06	-1.610293e-05	0.0003718715	0.002267441	-4.729298e-06	-1.893646e-05
	-7.67097e-06	-1.610293e-05	0.01219264	-0.01148414	-1.137858e-05	-2.610662e-07	0.0004584103	0.002258245
	0.0003719029	0.002267446	-1.137858e-05	-2.610663e-07	0.0138237	-0.01137734	-2.483994e-05	3.00876e-06
	-4.729299e-06	-1.893646e-05	0.000458413	0.002258243	-2.483994e-05	3.00876e-06	0.01216894	-0.01147055
2e+07	0.01070047	-0.02629736	-6.848068e-06	-5.838718e-06	0.001229793	0.00437146	-2.940338e-06	-9.814901e-06
	-6.848068e-06	-5.838718e-06	0.01085716	-0.02598226	-3.00081e-05	-1.55445e-05	0.001334717	0.004279662
	0.001229807	0.00437144	-3.00081e-05	-1.55445e-05	0.01232223	-0.02640526	-3.706887e-05	-5.616797e-06
	-2.940338e-06	-9.814901e-06	0.001334714	0.004279663	-3.706887e-05	-5.616797e-06	0.01084429	-0.02594492
3e+07	0.004446615	-0.04102004	-6.471192e-06	-3.09899e-06	0.002612569	0.006089347	-3.601273e-06	-7.432223e-06
	-6.471192e-06	-3.09899e-06	0.004705414	-0.04069036	-4.381615e-05	-1.361112e-05	0.0026519	0.005984993
	0.002612569	0.006089344	-4.381615e-05	-1.361112e-05	0.006043617	-0.04136403	-4.5768e-05	-2.244877e-06
	-3.601273e-06	-7.432223e-06	0.0026519	0.005984995	-4.5768e-05	-2.244877e-06	0.004699514	-0.0406393
4e+07	-0.005661632	-0.0539255	-6.103784e-06	-1.518614e-06	0.004337466	0.007372653	-4.974676e-06	-5.500404e-06
	-6.103784e-06	-1.518614e-06	-0.005350969	-0.05360403	-5.441542e-05	-6.330895e-06	0.004313819	0.007280848
	0.00433747	0.007372657	-5.441542e-05	-6.330895e-06	-0.00412476	-0.05447479	-5.202461e-05	4.77144e-06
	-4.974677e-06	-5.500404e-06	0.00431382	0.007280849	-5.202461e-05	4.77144e-06	-0.005352504	-0.05354171
5e+07	-0.0187876	-0.06402134	-5.702688e-06	-3.982814e-07	0.006281004	0.008159162	-5.988482e-06	-3.683904e-06
	-5.702689e-06	-3.982815e-07	-0.01846292	-0.06370729	-6.201931e-05	4.232121e-06	0.006199782	0.008099791
	0.006281007	0.008159164	-6.201931e-05	4.232121e-06	-0.01734325	-0.06475533	-5.596654e-05	1.396033e-05
	-5.988483e-06	-3.683905e-06	0.006199783	0.008099791	-5.596654e-05	1.396033e-05	-0.01846238	-0.0636339
6e+07	-0.03400995	-0.070653	-5.25646e-06	4.641732e-07	0.008307084	0.008419386	-6.633086e-06	-1.847628e-06
	-5.25646e-06	4.641732e-07	-0.03369716	-0.07033366	-6.65273e-05	1.710092e-05	0.008177209	0.008409285
	0.00830708	0.008419385	-6.65273e-05	1.710092e-05	-0.03268706	-0.07155066	-5.751323e-05	2.460756e-05
	-6.633085e-06	-1.847628e-06	0.00817721	0.008409285	-5.751323e-05	2.460756e-05	-0.03369593	-0.07024823
7e+07	-0.05034244	-0.07344788	-4.76681e-06	1.144093e-06	0.01027893	0.008159888	-6.886828e-06	2.930929e-08
	-4.76681e-06	1.144093e-06	-0.05005645	-0.07310525	-6.769007e-05	3.159102e-05	0.01011281	0.0082128
	0.01027892	0.008159888	-6.769007e-05	3.159102e-05	-0.04916617	-0.07448587	-5.648976e-05	3.61976e-05
	-6.886828e-06	2.93091e-08	0.01011281	0.008212799	-5.648976e-05	3.61976e-05	-0.05005504	-0.07300635
8e+07	-0.06678155	-0.07229836	-4.24212e-06	1.673671e-06	0.01206925	0.00742127	-6.716253e-06	1.925959e-06
	-4.242119e-06	1.673671e-06	-0.06652795	-0.07191385	-6.514575e-05	4.709568e-05	0.01188237	0.007547363
	0.01206924	0.007421274	-6.514575e-05	4.709568e-05	-0.06577336	-0.07345126	-5.265073e-05	4.826606e-05
	-6.716253e-06	1.925958e-06	0.01188237	0.007547363	-5.265073e-05	4.826606e-05	-0.06652612	-0.07179985
9e+07	-0.08235913	-0.0673445	-3.69373e-06	2.06656e-06	0.01356848	0.006273302	-6.063221e-06	3.803366e-06
	-3.69373e-06	2.066559e-06	-0.08213735	-0.06690287	-5.83305e-05	6.303265e-05	0.01337893	0.006478745
	0.01356847	0.006273307	-5.83305e-05	6.303265e-05	-0.08153788	-0.06858573	-4.561316e-05	6.036527e-05
	-6.063221e-06	3.803366e-06	0.01337893	0.006478745	-4.561316e-05	6.036527e-05	-0.08213408	-0.06677222
1e+08	-0.09618567	-0.05894591	-3.124465e-06	2.323386e-06	0.01469118	0.004808427	-4.678487e-06	5.657314e-06
	-3.124465e-06	2.323386e-06	-0.096003	-0.05844292	-4.513436e-05	7.923327e-05	0.01452102	0.005096123
	0.01469118	0.004808427	-4.513436e-05	7.923327e-05	-0.09557732	-0.06025243	-3.386771e-05	7.234539e-05
	-4.678487e-06	5.657314e-06	0.01452102	0.005096123	-3.386771e-05	7.234539e-05	-0.09599679	-0.05829451
1.1e+08	-0.107515	-0.04770653	-2.681357e-06	2.588498e-06	0.01537821	0.003131167	-2.696248e-06	6.358381e-06
	-2.681357e-06	2.588498e-06	-0.10737	-0.04707319	-2.651775e-05	8.567957e-05	0.01524973	0.003484733
	0.01537821	0.003131167	-2.651775e-05	8.567957e-05	-0.1071376	-0.04899613	-2.664035e-05	7.425436e-05
	-2.696248e-06	6.358381e-06	0.01524973	0.003484733	-2.664035e-05	7.425436e-05	-0.1073583	-0.04690524
1.2e+08	-0.1158063	-0.0342924	-2.22145e-06	2.869637e-06	0.01559661	0.001359182	-1.042481e-06	6.605772e-06
	-2.22145e-06	2.869637e-06	-0.115636	-0.03352006	-1.856372e-05	8.67175e-05	0.01551801	0.001766925
	0.01559661	0.001359182	-1.856372e-05	8.67175e-05	-0.1156241	-0.03552574	-2.126909e-05	7.526938e-05
	-1.042481e-06	6.605772e-06	0.01551801	0.001766926	-2.126909e-05	7.526938e-05	-0.1156149	-0.03333291
1.3e+08	-0.1206532	-0.01949966	-1.746345e-06	3.094072e-06	0.01534498	-0.000390956	9.651348e-08	6.516281e-06
	-1.746345e-06	3.094072e-06	-0.1204139	-0.0186035	-1.176635e-05	8.707279e-05	0.01532513	5.817778e-05
	0.01534498	-0.0003909563	-1.176635e-05	8.707279e-05	-0.12064	-0.02065089	-1.501233e-05	7.620782e-05
	9.651348e-08	6.516281e-06	0.01532513	5.817879e-05	-1.501233e-05	7.620782e-05	-0.1203797	-0.0183989
1.4e+08	-0.1218596	-0.004188999	-1.262899e-06	3.251986e-06	0.01464768	-0.002007967	3.582011e-07	6.311341e-06
	-1.262899e-06	3.251986e-06	-0.1215187	-0.003197528	-4.319431e-06	8.703391e-05	0.0146929	-0.00153255
	0.01464768	-0.002007967	-4.319431e-06	8.703391e-05	-0.1219905	-0.00523854	-8.185414e-06	7.67377e-05
	3.582011e-07	6.311341e-06	0.0146929	-0.001532549	-8.185414e-06	7.67377e-05	-0.1214684	-0.002978415
1.5e+08	-0.119437	0.01076634	-7.816206e-07	3.340801e-06	0.01355294	-0.003390573	6.49154e-07	6.132026e-06
	-7.816206e-07	3.340801e-06	-0.1189737	0.01181533	3.535934e-06	8.638059e-05	0.0136659	-0.002905739
	0.01355294	-0.003390573	3.535934e-06	8.638059e-05	-0.119687	0.009833123	-9.908149e-07	7.666875e-05
	6.49154e-07	6.132026e-06	0.0136659	-0.002905738	-9.908149e-07	7.666875e-05	-0.1189052	0.012045
1.6e+08	-0.1135981	0.02452679	-3.088093e-07	3.364304e-06	0.01213003	-0.004451762	9.602026e-07	5.964639e-06
	-3.088093e-07	3.364304e-06	-0.1130051	0.02559	1.160615e-05	8.497573e-05	0.01230909	-0.003975175
	0.01213003	-0.004451762	1.160615e-05	8.497573e-05	-0.1139424	0.02372016	6.410759e-06	7.588732e-05
	9.602026e-07	5.964639e-06	0.01230909	-0.003975174	6.410759e-06	7.588732e-05	-0.1129174	0.02582555
1.7e+08	-0.1047427	0.03632975	1.49081e-07	3.326536e-06	0.01046592	-0.005122548	1.285566e-06	5.79985e-06
	1.49081e-07	3.326536e-06	-0.1040267	0.03736229	1.97149e-05	8.27378e-05	0.01070482	-0.004671515
	0.01046592	-0.005122548	1.97149e-05	8.27378e-05	-0.1051564	0.03565588	1.386839e-05	7.43237e-05
	1.285566e-06	5.79985e-06	0.01070482	-0.004671514	1.386839e-05	7.43237e-05	-0.1039201	0.03759863
1.8e+08	-0.09343472	0.04552888	5.859533e-07	3.232075e-06	0.008661463	-0.005355337	1.62126e-06	5.630872e-06
	5.859533e-07	3.232075e-06	-0.09261658	0.04648826	2.769552e-05	7.962869e-05	0.008949375	-0.004945563
	0.008661463	-0.005355337	2.769552e-05	7.962869e-05	-0.09389373	0.04499003	2.123598e-05	7.194399e-05
	1.62126e-06	5.630872e-06	0.008949375	-0.004945562	2.123598e-05	7.194399e-05	-0.09249284	0.04672031
1.9e+08	-0.08037245	0.05162815	9.964202e-07	3.086007e-06	0.006826936	-0.005126853	1.964298e-06	5.452462e-06
	9.964202e-07	3.086007e-06	-0.07948591	0.05247815	3.539002e-05	7.564732e-05	0.007148849	-0.004771213
	0.006826936	-0.005126853	3.539002e-05	7.564732e-05	-0.08085323	0.05122275	2.837251e-05	6.874586e-05
	1.964298e-06	5.452462e-06	0.007148849	-0.004771213	2.837251e-05	6.874586e-05	-0.07934836	0.05270126
2e+08	-0.06635108	0.05430918	1.375997e-06	2.893749e-06	0.005076677	-0.004440419	2.312262e-06	5.260262e-06
	1.375997e-06	2.893749e-06	-0.06544096	0.05502344	4.265123e-05	7.082488e-05	0.005414147	-0.004147848
	0.005076677	-0.004440419	4.265123e-05	7.082488e-05	-0.06683141	0.05403194	3.514457e-05	6.475536e-05
	2.312262e-06	5.260262e-06	0.005414148	-0.004147848	3.514457e-05	6.475536e-05	-0.06529423	0.05523378
2.1e+08	-0.05221975	0.05345027	1.721147e-06	2.660791e-06	0.003522921	-0.003327256	2.662946e-06	5.050404e-06
	1.721147e-06	2.660791e-06	-0.05133903	0.05401529	4.934595e-05	6.522089e-05	0.003855102	-0.003101828
	0.003522921	-0.003327256	4.934595e-05	6.522089e-05	-0.05267927	0.05329234	4.14298e-05	6.002401e-05
	2.662946e-06	5.050404e-06	0.003855102	-0.003101828	4.14298e-05	6.002401e-05	-0.05118888	0.05421026
2.2e+08	-0.03883417	0.04913554	2.029177e-06	2.392466e-06	0.00226887	-0.001846316	3.014054e-06	4.819249e-06
	2.029177e-06	2.392466e-06	-0.03804033	0.04955289	5.535857e-05	5.89187e-05	0.002573789	-0.001686609
	0.00226887	-0.001846317	5.535857e-05	5.89187e-05	-0.03925492	0.04908485	4.712056e-05	5.462521e-05
	3.014054e-06	4.819249e-06	0.002573789	-0.001686609	4.712056e-05	5.462521e-05	-0.03789332	0.04973144
2.3e+08	-0.02700709	0.04165276	2.298046e-06	2.093785e-06	0.001401428	-8.224969e-05	3.362893e-06	4.563304e-06
	2.298046e-06	2.093785e-06	-0.02635789	0.04194031	6.05941e-05	5.202059e-05	0.001657436	1.896165e-05
	0.001401428	-8.224969e-05	6.05941e-05	5.202059e-05	-0.02737416	0.04169442	5.212714e-05	4.865012e-05
	3.362893e-06	4.563304e-06	0.001657436	1.89616e-05	5.212714e-05	4.865012e-05	-0.02622094	0.04210312
2.4e+08	-0.01745954	0.03147896	2.526118e-06	1.769384e-06	0.0009842083	0.001858834	3.706129e-06	4.279378e-06
	2.526118e-06	1.769384e-06	-0.01700844	0.03167093	6.498058e-05	4.464286e-05	0.001171504	0.001914489
	0.0009842083	0.001858834	6.498058e-05	4.464286e-05	-0.01776157	0.03159593	5.638028e-05	4.22032e-05
	3.706129e-06	4.279378e-06	0.001171504	0.001914489	5.638028e-05	4.22032e-05	-0.01688838	0.03182057
2.5e+08	-0.01077593	0.01925377	2.711926e-06	1.423594e-06	0.00105163	0.003855816	4.039649e-06	3.964716e-06
	2.711926e-06	1.423594e-06	-0.0105676	0.01939951	6.847043e-05	3.690967e-05	0.001153767	0.003884085
	0.00105163	0.003855816	6.847043e-05	3.690967e-05	-0.01100551	0.01942759	5.983262e-05	3.539677e-05
	4.039649e-06	3.964716e-06	0.001153767	0.003884085	5.983262e-05	3.539677e-05	-0.01047063	0.01954038
2.6e+08	-0.007366692	0.00574147	2.854e-06	1.06061e-06	0.001604938	0.005780934	4.358543e-06	3.617332e-06
	2.854e-06	1.06061e-06	-0.007432826	0.00590301	7.104035e-05	2.894747e-05	0.001610202	0.005804331
	0.001604938	0.005780934	7.104035e-05	2.894747e-05	-0.007520596	0.005953179	6.245891e-05	2.834589e-05
	4.358543e-06	3.617332e-06	0.001610202	0.005804331	6.245891e-05	2.834589e-05	-0.00736406	0.006041223
2.7e+08	-0.007441544	-0.008216151	2.950812e-06	6.847243e-07	0.002610874	0.00750937	4.657225e-06	3.23626e-06
	2.950812e-06	6.847243e-07	-0.007797408	-0.007967668	7.268981e-05	2.087935e-05	0.002513418	0.007553505
	0.002610874	0.00750937	7.268981e-05	2.087935e-05	-0.007520717	-0.007985072	6.425475e-05	2.116317e-05
	4.657225e-06	3.23626e-06	0.002513418	0.007553505	6.425475e-05	2.116317e-05	-0.007760394	-0.007824614
2.8e+08	-0.01099593	-0.02175284	3.000837e-06	3.005556e-07	0.0040034	0.008929106	4.929735e-06	2.821824e-06
	3.000837e-06	3.005556e-07	-0.01163792	-0.02134168	7.34384e-05	1.282047e-05	0.003804049	0.009021125
	0.0040034	0.008929106	7.34384e-05	1.282047e-05	-0.01100521	-0.02151953	6.523439e-05	1.395456e-05
	4.929735e-06	2.821824e-06	0.003804049	0.009021125	6.523439e-05	1.395456e-05	-0.01163427	-0.0211853
2.9e+08	-0.017812	-0.0340329	3.002732e-06	-8.677578e-08	0.005688498	0.009949907	5.17007e-06	2.375735e-06
	3.002732e-06	-8.677578e-08	-0.01871651	-0.03338387	7.332186e-05	4.874357e-06	0.005395133	0.01011674
	0.005688498	0.009949907	7.332186e-05	4.874357e-06	-0.01775964	-0.0338123	6.542723e-05	6.815832e-06
	5.17007e-06	2.375735e-06	0.005395133	0.01011674	6.542723e-05	6.815832e-06	-0.01874563	-0.03320521
3e+08	-0.02747421	-0.04430391	2.955579e-06	-4.715631e-07	0.007551581	0.01051041	5.372573e-06	1.901065e-06
	2.955579e-06	-4.715631e-07	-0.02859788	-0.04334774	7.238749e-05	-2.869227e-06	0.007179049	0.01077689
	0.007551581	0.01051041	7.238749e-05	-2.869227e-06	-0.02737117	-0.04410806	6.487382e-05	-1.695186e-07
	5.372573e-06	1.901065e-06	0.007179049	0.01077689	6.487382e-05	-1.695186e-07	-0.02865686	-0.04313795
3.1e+08	-0.03939813	-0.05194298	2.859141e-06	-8.475554e-07	0.009466676	0.01058249	5.532338e-06	1.402098e-06
	2.859141e-06	-8.475554e-07	-0.04067955	-0.05062154	7.068927e-05	-1.033469e-05	0.0090362	0.01096957
	0.009466676	0.01058249	7.068927e-05	-1.033469e-05	-0.03925723	-0.0517806	6.362193e-05	-6.931012e-06
	5.532338e-06	1.402098e-06	0.0090362	0.01096957	6.362193e-05	-6.931012e-06	-0.0407632	-0.05037248
3.2e+08	-0.05286985	-0.05649323	2.714124e-06	-1.208086e-06	0.01130631	0.01017257	5.645441e-06	8.84042e-07
	2.714124e-06	-1.208086e-06	-0.05423269	-0.0547642	6.828411e-05	-1.745971e-05	0.01084442	0.01069565
	0.01130631	0.01017257	6.828411e-05	-1.745971e-05	-0.0527049	-0.05636945	6.172251e-05	-1.341072e-05
	5.645441e-06	8.84042e-07	0.01084442	0.01069565	6.172251e-05	-1.341072e-05	-0.05433372	-0.05446903
3.3e+08	-0.06709262	-0.0576882	2.522428e-06	-1.546296e-06	0.01295102	0.009319874	5.709112e-06	3.526935e-07
	2.522428e-06	-1.546296e-06	-0.06844992	-0.05552875	6.523065e-05	-2.419409e-05	0.01248805	0.009987486
	0.01295102	0.009319874	6.523065e-05	-2.419409e-05	-0.06691753	-0.05760464	5.922651e-05	-1.956167e-05
	5.709112e-06	3.526935e-07	0.01248805	0.009987486	5.922651e-05	-1.956167e-05	-0.06855929	-0.05518253
3.4e+08	-0.08123694	-0.05546317	2.287149e-06	-1.855454e-06	0.01429749	0.008092113	5.721675e-06	-1.858372e-07
	2.287149e-06	-1.855454e-06	-0.08249626	-0.05287257	6.158327e-05	-3.049621e-05	0.01386574	0.008904975
	0.01429749	0.008092113	6.158327e-05	-3.049621e-05	-0.08106492	-0.05541818	5.618224e-05	-2.534506e-05
	5.721675e-06	-1.858372e-07	0.01386574	0.008904975	5.618224e-05	-2.534506e-05	-0.08260369	-0.05247268
3.5e+08	-0.09449038	-0.04995354	2.01261e-06	-2.129245e-06	0.01526476	0.006579339	5.682799e-06	-7.256777e-07
	2.01261e-06	-2.129245e-06	-0.09555949	-0.04695427	5.739378e-05	-3.633101e-05	0.01489648	0.007529959
	0.01526476	0.006579339	5.739378e-05	-3.633101e-05	-0.09433322	-0.04994257	5.263582e-05	-3.072904e-05
	5.682799e-06	-7.256777e-07	0.01489648	0.007529959	5.263582e-05	-3.072904e-05	-0.09565408	-0.04650067
3.6e+08	-0.1061039	-0.04148147	1.704282e-06	-2.362055e-06	0.0157982	0.004886807	5.592999e-06	-1.261269e-06
	1.704282e-06	-2.362055e-06	-0.1068967	-0.03811892	5.271087e-05	-4.166741e-05	0.01552343	0.005959605
	0.0157982	0.004886807	5.271087e-05	-4.166741e-05	-0.1059715	-0.04149756	4.862956e-05	-3.568524e-05
	5.592999e-06	-1.26127e-06	0.01552343	0.005959605	4.862956e-05	-3.568524e-05	-0.1069676	-0.03761427
3.7e+08	-0.1154325	-0.03053256	1.368633e-06	-2.549235e-06	0.01587122	0.003127616	5.453475e-06	-1.787556e-06
	1.368633e-06	-2.549235e-06	-0.1158747	-0.02687321	4.758016e-05	-4.64757e-05	0.01571579	0.004299595
	0.01587122	0.003127616	4.758016e-05	-4.64757e-05	-0.1153324	-0.03056701	4.420268e-05	-4.018644e-05
	5.453475e-06	-1.787556e-06	0.01571579	0.004299595	4.420268e-05	-4.018644e-05	-0.1159117	-0.02632292
3.8e+08	-0.1219677	-0.01772492	1.012916e-06	-2.687309e-06	0.0154852	0.001415737	5.265901e-06	-2.300072e-06
	1.012916e-06	-2.687309e-06	-0.122002	-0.01385317	4.204623e-05	-5.072624e-05	0.01546889	0.002657672
	0.0154852	0.001415737	4.204623e-05	-5.072624e-05	-0.1219049	-0.01776787	3.939293e-05	-4.420511e-05
	5.265901e-06	-2.300072e-06	0.01546889	0.002657672	3.939293e-05	-4.420511e-05	-0.1219964	-0.0132651
3.9e+08	-0.1253623	-0.003772709	6.449063e-07	-2.774133e-06	0.01466791	-0.0001401969	5.032192e-06	-2.794947e-06
	6.449063e-07	-2.774133e-06	-0.1249524	0.0002135244	3.615432e-05	-5.438863e-05	0.01480297	0.001137863
	0.01466791	-0.0001401969	3.615432e-05	-5.438863e-05	-0.1253393	-0.003813768	3.423835e-05	-4.771247e-05
	5.032192e-06	-2.794947e-06	0.01480297	0.001137863	3.423835e-05	-4.771247e-05	-0.1248976	0.0008293568
4e+08	-0.1254454	0.01055362	2.726134e-07	-2.808989e-06	0.01347091	-0.001442182	4.754292e-06	-3.26881e-06
	2.726134e-07	-2.808989e-06	-0.1245796	0.01454822	2.995221e-05	-5.743166e-05	0.01376101	-0.0001644731
	0.01347091	-0.001442182	2.995221e-05	-5.743166e-05	-0.1254622	0.0105248	2.877926e-05	-5.067827e-05
	4.754292e-06	-3.26881e-06	0.01376101	-0.000164473	2.877926e-05	-5.067827e-05	-0.1244712	0.01518023
4.1e+08	-0.1222289	0.02446852	-9.603009e-08	-2.792613e-06	0.01196625	-0.002407261	4.434024e-06	-3.718674e-06
	-9.603009e-08	-2.792613e-06	-0.1209214	0.02836323	2.349199e-05	-5.982402e-05	0.01240599	-0.001166847
	0.01196625	-0.002407261	2.349199e-05	-5.982402e-05	-0.1222829	0.02446172	2.306008e-05	-5.307143e-05
	4.434024e-06	-3.718674e-06	0.01240599	-0.001166847	2.306008e-05	-5.307143e-05	-0.1207582	0.02899889
4.2e+08	-0.1159052	0.03721244	-4.534862e-07	-2.727141e-06	0.0102428	-0.002971165	4.072988e-06	-4.141751e-06
	-4.534862e-07	-2.727141e-06	-0.1141967	0.04090327	1.683152e-05	-6.15354e-05	0.01081768	-0.001803198
	0.0102428	-0.002971165	1.683152e-05	-6.15354e-05	-0.1159918	0.03723638	1.713092e-05	-5.486119e-05
	4.072988e-06	-4.141751e-06	0.01081768	-0.001803198	1.713092e-05	-5.486119e-05	-0.1139805	0.04152983
4.3e+08	-0.1068363	0.04809125	-7.929114e-07	-2.615983e-06	0.008402009	-0.003091321	3.67253e-06	-4.535241e-06
	-7.929114e-07	-2.615983e-06	-0.1047928	0.05148491	1.003548e-05	-6.253832e-05	0.009089064	-0.002026951
	0.008402009	-0.003091321	1.003548e-05	-6.253832e-05	-0.1069491	0.04815319	1.104873e-05	-5.601888e-05
	3.67253e-06	-4.535241e-06	0.009089064	-0.002026951	1.104873e-05	-5.601888e-05	-0.1045285	0.05209016
4.4e+08	-0.09553578	0.0565127	-1.108424e-06	-2.463608e-06	0.006553399	-0.002749266	3.233789e-06	-4.896115e-06
	-1.108424e-06	-2.463608e-06	-0.09324553	0.05953271	3.175938e-06	-6.28101e-05	0.007322243	-0.001813609
	0.006553399	-0.002749266	3.175938e-06	-6.28101e-05	-0.09566681	0.05661809	4.877805e-06	-5.652002e-05
	3.233789e-06	-4.896115e-06	0.007322243	-0.001813609	4.877805e-06	-5.652002e-05	-0.09294112	0.06010579
4.5e+08	-0.0826418	0.06201852	-1.395308e-06	-2.27527e-06	0.004809357	-0.001952394	2.757837e-06	-5.220922e-06
	-1.395308e-06	-2.27527e-06	-0.08021148	0.06461064	-3.667803e-06	-6.233538e-05	0.005623791	-0.001162805
	0.004809357	-0.001952394	-3.667803e-06	-6.233538e-05	-0.08278219	0.06217075	-1.310324e-06	-5.634675e-05
	2.757837e-06	-5.220922e-06	0.005623791	-0.001162805	-1.310324e-06	-5.634675e-05	-0.07987745	0.0651427
4.6e+08	-0.06888495	0.0643106	-1.650126e-06	-2.056663e-06	0.003279395	-0.00073483	2.245883e-06	-5.505651e-06
	-1.650126e-06	-2.056663e-06	-0.06643381	0.06644722	-1.041002e-05	-6.110852e-05	0.004099363	-9.957386e-05
	0.003279395	-0.00073483	-1.041002e-05	-6.110852e-05	-0.06902528	0.06451078	-7.437795e-06	-5.549018e-05
	2.245883e-06	-5.505651e-06	0.004099363	-9.957386e-05	-7.437795e-06	-5.549018e-05	-0.06608275	0.06693211
4.7e+08	-0.05504919	0.06326981	-1.870732e-06	-1.813567e-06	0.002063832	0.0008428974	1.699571e-06	-5.745627e-06
	-1.870732e-06	-1.813567e-06	-0.0527025	0.06495295	-1.696021e-05	-5.913584e-05	0.002847682	0.001325482
	0.002063832	0.0008428974	-1.696021e-05	-5.913584e-05	-0.05518012	0.06351675	-1.342201e-05	-5.395247e-05
	1.699571e-06	-5.745627e-06	0.002847682	0.001325482	-1.342201e-05	-5.395247e-05	-0.05234845	0.06538765
4.8e+08	-0.04192896	0.05896581	-2.056156e-06	-1.551498e-06	0.001247168	0.002695743	1.121285e-06	-5.93559e-06
