!$
! Info: Touchstone file created by Circ.  Input file=Tx_16in_Rx_85ohms_TxVia_60mils_RxVia_70mils.circ
!$
# Hz S RI R 50
0	0.01285457	1.993588e-25	1.629269e-09	4.521129e-27	0.0001061628	2.519245e-23	-1.49623e-10	6.35217e-26
	1.629283e-09	4.521135e-27	0.01285029	2.440225e-25	4.45166e-09	1.525527e-26	0.0001052989	3.135502e-23
	0.0001052952	2.507977e-23	4.45166e-09	1.525527e-26	0.01286821	2.015307e-25	3.673967e-09	4.77859e-27
	-1.49336e-10	6.348655e-26	0.0001055683	3.148947e-23	3.673886e-09	4.778577e-27	0.0128646	2.429765e-25
1e+07	0.01536974	-0.01594882	2.026591e-09	3.63455e-09	0.0007151194	0.002868317	-1.531317e-09	1.197825e-08
	2.026591e-09	3.63455e-09	0.01540239	-0.01595667	5.971894e-09	1.328164e-08	0.0007105348	0.00287703
	0.0007151039	0.002868331	5.971894e-09	1.328164e-08	0.01543956	-0.01592726	-1.411736e-10	1.26901e-08
	-1.531317e-09	1.197825e-08	0.0007105378	0.002877028	-1.411735e-10	1.26901e-08	0.01536661	-0.01593927
2e+07	0.01127763	-0.03532072	2.595806e-09	6.551042e-09	0.002167448	0.005273722	1.523054e-09	3.547371e-09
	2.595806e-09	6.551042e-09	0.0112416	-0.03533481	6.886986e-09	2.406041e-08	0.002150657	0.005296143
	0.002167455	0.00527373	6.886986e-09	2.406041e-08	0.01134212	-0.03529753	-4.898371e-10	7.359567e-09
	1.523054e-09	3.547371e-09	0.002150654	0.005296143	-4.898371e-10	7.359567e-09	0.01122203	-0.03528759
3e+07	-0.0005085654	-0.05338373	2.875773e-09	9.128171e-09	0.004274217	0.007015641	2.440179e-09	4.938423e-09
	2.875773e-09	9.128171e-09	-0.0006333712	-0.05335614	6.578434e-09	3.51409e-08	0.004240883	0.007060421
	0.004274218	0.007015642	6.578434e-09	3.51409e-08	-0.0004426567	-0.05334927	2.383807e-09	9.481613e-09
	2.440179e-09	4.938423e-09	0.004240883	0.007060423	2.383807e-09	9.481613e-09	-0.0006417828	-0.05329304
4e+07	-0.01790924	-0.06680717	3.0142e-09	1.172055e-08	0.006768364	0.007931361	2.676834e-09	5.942341e-09
	3.0142e-09	1.172055e-08	-0.01812663	-0.06669153	5.947896e-09	4.695467e-08	0.006718908	0.008009074
	0.006768362	0.007931362	5.947896e-09	4.695467e-08	-0.01783835	-0.06676247	2.564394e-09	1.238619e-08
	2.676834e-09	5.942341e-09	0.006718909	0.008009075	2.564394e-09	1.238619e-08	-0.01812719	-0.06661592
5e+07	-0.03871174	-0.07400379	3.026912e-09	1.43222e-08	0.009344045	0.007959926	2.58812e-09	6.891482e-09
	3.026912e-09	1.43222e-08	-0.03900587	-0.0737548	5.440656e-09	5.960542e-08	0.009284166	0.008080741
	0.009344044	0.007959926	5.440656e-09	5.960542e-08	-0.03863456	-0.07395163	2.399718e-09	1.540537e-08
	2.58812e-09	6.891482e-09	0.009284167	0.008080741	2.399718e-09	1.540537e-08	-0.03900098	-0.07366692
6e+07	-0.06055223	-0.07431577	2.900094e-09	1.696619e-08	0.01170269	0.007148519	2.20912e-09	7.900178e-09
	2.900094e-09	1.696619e-08	-0.06088849	-0.07389715	5.496081e-09	7.301214e-08	0.01164284	0.007319917
	0.01170269	0.007148518	5.496081e-09	7.301214e-08	-0.06046924	-0.07425893	2.190069e-09	1.859078e-08
	2.20912e-09	7.900178e-09	0.01164284	0.007319917	2.190069e-09	1.859079e-08	-0.06087895	-0.07379598
7e+07	-0.0811196	-0.06790681	2.630558e-09	1.972198e-08	0.01358991	0.005637243	1.576707e-09	9.080096e-09
	2.630558e-09	1.972198e-08	-0.08144963	-0.06729829	6.492479e-09	8.69278e-08	0.0135439	0.005862138
	0.0135899	0.005637242	6.492479e-09	8.69278e-08	-0.08103248	-0.06784734	2.024085e-09	2.193392e-08
	1.576707e-09	9.080096e-09	0.0135439	0.005862138	2.024085e-09	2.193392e-08	-0.08143478	-0.06718271
8e+07	-0.09836845	-0.05565315	2.253354e-09	2.267899e-08	0.01482026	0.003633452	7.648255e-10	1.052965e-08
	2.253354e-09	2.267899e-08	-0.09863726	-0.05485473	8.685053e-09	1.00958e-07	0.01480331	0.003908964
	0.01482026	0.003633452	8.685053e-09	1.00958e-07	-0.09827942	-0.05559203	1.946993e-09	2.542157e-08
	7.648255e-10	1.052965e-08	0.01480331	0.003908964	1.946993e-09	2.542157e-08	-0.09861534	-0.05472417
9e+07	-0.1106957	-0.03899503	1.854984e-09	2.591978e-08	0.01528975	0.001382629	-1.188387e-10	1.231573e-08
	1.854984e-09	2.591978e-08	-0.1108497	-0.03802839	1.215079e-08	1.146137e-07	0.01531604	0.001699684
	0.01528974	0.001382629	1.215079e-08	1.146137e-07	-0.110607	-0.03893222	1.996374e-09	2.904215e-08
	-1.188387e-10	1.231573e-08	0.01531604	0.001699684	1.996374e-09	2.904215e-08	-0.1108182	-0.03788334
1e+08	-0.1170674	-0.01975752	1.556029e-09	2.949412e-08	0.01498053	-0.0008589598	-9.455781e-10	1.446294e-08
	1.556029e-09	2.949412e-08	-0.117062	-0.01866452	1.675147e-08	1.273867e-07	0.01506084	-0.0005151117
	0.01498053	-0.0008589597	1.675147e-08	1.273867e-07	-0.1169805	-0.01969207	2.196248e-09	3.278264e-08
	-9.455781e-10	1.446294e-08	0.01506084	-0.0005151117	2.196248e-09	3.278264e-08	-0.1170188	-0.01850685
1.1e+08	-0.1170631	6.888298e-05	1.518717e-09	3.326315e-08	0.01394065	-0.002866865	-1.586166e-09	1.692373e-08
	1.518717e-09	3.326315e-08	-0.1168698	0.001228227	2.217335e-08	1.388191e-07	0.01408007	-0.00251522
	0.01394065	-0.002866865	2.217335e-08	1.388191e-07	-0.1169796	0.0001368458	2.715653e-09	3.664393e-08
	-1.586166e-09	1.692373e-08	0.01408007	-0.00251522	2.715653e-09	3.664393e-08	-0.1168122	0.001396537
1.2e+08	-0.1108977	0.01844808	1.884043e-09	3.719632e-08	0.01228056	-0.004410019	-1.952297e-09	1.965262e-08
	1.884043e-09	3.719632e-08	-0.1105121	0.01960589	2.790307e-08	1.486539e-07	0.01247711	-0.004071536
	0.01228056	-0.004410019	2.790307e-08	1.486539e-07	-0.1108197	0.01852059	3.621327e-09	4.047727e-08
	-1.952297e-09	1.965262e-08	0.01247711	-0.004071536	3.621327e-09	4.047727e-08	-0.110438	0.01977984
1.3e+08	-0.09940818	0.03355773	2.715682e-09	4.113144e-08	0.01018501	-0.005321336	-1.95435e-09	2.256582e-08
	2.715682e-09	4.113144e-08	-0.09885013	0.03464488	3.333782e-08	1.568076e-07	0.01042896	-0.00501629
	0.01018501	-0.005321336	3.333782e-08	1.568076e-07	-0.09933613	0.03363719	4.907535e-09	4.412715e-08
	-1.95435e-09	2.256582e-08	0.01042896	-0.005016289	4.907535e-09	4.412715e-08	-0.09875998	0.03481855
1.4e+08	-0.0839361	0.04393333	4.010062e-09	4.486941e-08	0.007876323	-0.005495894	-1.527977e-09	2.555521e-08
	4.010062e-09	4.486941e-08	-0.08325059	0.04488842	3.787308e-08	1.634319e-07	0.008150545	-0.005241009
	0.007876323	-0.005495894	3.787308e-08	1.634319e-07	-0.08386979	0.0440221	6.504561e-09	4.742568e-08
	-1.527977e-09	2.555521e-08	0.008150544	-0.005241008	6.504561e-09	4.742568e-08	-0.0831472	0.04505596
1.5e+08	-0.0662029	0.04860171	5.683121e-09	4.823288e-08	0.005600408	-0.004900485	-6.345233e-10	2.848194e-08
	5.683121e-09	4.823288e-08	-0.06545677	0.04938	4.098666e-08	1.688959e-07	0.005881787	-0.004706281
	0.005600408	-0.004900485	4.098666e-08	1.688959e-07	-0.06614123	0.04870184	8.27382e-09	5.02501e-08
	-6.345233e-10	2.848194e-08	0.005881786	-0.00470628	8.27382e-09	5.02501e-08	-0.06534532	0.04953655
1.6e+08	-0.04814519	0.04717594	7.56971e-09	5.10851e-08	0.00360588	-0.003580664	7.16639e-10	3.119166e-08
	7.56971e-09	5.10851e-08	-0.04742096	0.04775703	4.23128e-08	1.737416e-07	0.003867632	-0.003449373
	0.00360588	-0.003580664	4.23128e-08	1.737416e-07	-0.04808645	0.04728893	1.001549e-08	5.253736e-08
	7.16639e-10	3.119166e-08	0.003867632	-0.003449372	1.001549e-08	5.253736e-08	-0.04730853	0.04789963
1.7e+08	-0.03172432	0.03989915	9.459606e-09	5.337242e-08	0.002118907	-0.001661841	2.462722e-09	3.352522e-08
	9.459606e-09	5.337242e-08	-0.03111114	0.04029236	4.169128e-08	1.78614e-07	0.002333604	-0.001586214
	0.002118907	-0.001661841	4.169128e-08	1.78614e-07	-0.03166641	0.04002578	1.15113e-08	5.43194e-08
	2.462722e-09	3.352522e-08	0.002333604	-0.001586213	1.15113e-08	5.43194e-08	-0.03100598	0.04042059
1.8e+08	-0.01872499	0.02762755	1.11425e-08	5.51339e-08	0.001316066	0.0006585731	4.479931e-09	3.533887e-08
	1.11425e-08	5.51339e-08	-0.01830791	0.0278739	3.918693e-08	1.84185e-07	0.00145901	0.0006953499
	0.001316066	0.0006585731	3.918693e-08	1.84185e-07	-0.0186657	0.02776781	1.257366e-08	5.572307e-08
	4.479931e-09	3.533887e-08	0.00145901	0.0006953502	1.257366e-08	5.572307e-08	-0.01821848	0.02799033
1.9e+08	-0.01056389	0.01174744	1.24498e-08	5.648555e-08	0.001299296	0.003129837	6.585251e-09	3.653115e-08
	1.24498e-08	5.648555e-08	-0.01041251	0.01191763	3.508249e-08	1.91079e-07	0.001351846	0.003153031
	0.001299296	0.003129837	3.508249e-08	1.91079e-07	-0.01050125	0.01190051	1.308791e-08	5.694293e-08
	6.585251e-09	3.653115e-08	0.001351846	0.003153031	1.308791e-08	5.694293e-08	-0.0103464	0.01202787
2e+08	-0.008132138	-0.005970429	1.327869e-08	5.758631e-08	0.002078306	0.005476797	8.552437e-09	3.707069e-08
	1.327869e-08	5.758631e-08	-0.008290265	-0.005782058	2.985203e-08	1.998107e-07	0.002030738	0.005517866
	0.002078306	0.005476797	2.985203e-08	1.998107e-07	-0.008064698	-0.005805993	1.303259e-08	5.81959e-08
	8.552437e-09	3.707069e-08	0.002030738	0.005517866	1.303259e-08	5.81959e-08	-0.008253078	-0.005669727
2.1e+08	-0.01169458	-0.02356525	1.359181e-08	5.860105e-08	0.003565349	0.007435404	1.014281e-08	3.701626e-08
	1.359181e-08	5.860105e-08	-0.0121723	-0.02325045	2.412184e-08	2.107334e-07	0.003418853	0.007528784
	0.00356535	0.007435404	2.412184e-08	2.107334e-07	-0.01162161	-0.02339123	1.247086e-08	5.967456e-08
	1.014281e-08	3.701626e-08	0.003418853	0.007528784	1.247086e-08	5.967456e-08	-0.01216675	-0.02312578
2.2e+08	-0.02086224	-0.03910582	1.339768e-08	5.967669e-08	0.005584992	0.008788621	1.114552e-08	3.652054e-08
	1.339768e-08	5.967669e-08	-0.02163184	-0.03855477	1.862216e-08	2.23998e-07	0.005352498	0.008967887
	0.005584992	0.008788621	1.862216e-08	2.23998e-07	-0.0207838	-0.038924	1.151912e-08	6.151706e-08
	1.114552e-08	3.652054e-08	0.005352498	0.008967887	1.151912e-08	6.151706e-08	-0.02165708	-0.03840662
2.3e+08	-0.03464332	-0.0509061	1.272649e-08	6.09397e-08	0.007897897	0.009395677	1.141723e-08	3.581375e-08
	1.272649e-08	6.09397e-08	-0.0356398	-0.05002074	1.41284e-08	2.395212e-07	0.007603547	0.009689509
	0.007897897	0.009395677	1.41284e-08	2.395212e-07	-0.03456018	-0.05071794	1.030924e-08	6.380323e-08
	1.141723e-08	3.581375e-08	0.007603547	0.009689509	1.030924e-08	6.380323e-08	-0.03569115	-0.04983833
2.4e+08	-0.05156508	-0.05770734	1.161771e-08	6.251077e-08	0.0102341	0.009208998	1.091038e-08	3.516974e-08
	1.161771e-08	6.251077e-08	-0.05269137	-0.056414	1.13895e-08	2.569661e-07	0.009911321	0.009637435
	0.0102341	0.009208997	1.13895e-08	2.569661e-07	-0.05147842	-0.05751368	8.962728e-09	6.657316e-08
	1.091038e-08	3.516974e-08	0.009911321	0.009637435	8.962728e-09	6.657316e-08	-0.0527605	-0.05618826
2.5e+08	-0.06984749	-0.05880397	1.012828e-08	6.452224e-08	0.01232909	0.008276281	9.682683e-09	3.48632e-08
	1.012828e-08	6.452224e-08	-0.07098393	-0.05706365	1.104347e-08	2.757442e-07	0.01201742	0.008847744
	0.01232909	0.008276281	1.104347e-08	2.757442e-07	-0.06975859	-0.05860497	7.587844e-09	6.985325e-08
	9.682683e-09	3.48632e-08	0.01201742	0.008847744	7.587844e-09	6.985325e-08	-0.07105952	-0.05678845
2.6e+08	-0.08760328	-0.05410093	8.357396e-09	6.712147e-08	0.01395603	0.006728875	7.88679e-09	3.512863e-08
	8.357396e-09	6.712147e-08	-0.08862018	-0.05191579	1.352743e-08	2.950483e-07	0.01369701	0.00743837
	0.01395603	0.006728875	1.352743e-08	2.950483e-07	-0.08751322	-0.05389612	6.297207e-09	7.36715e-08
	7.88679e-09	3.512863e-08	0.01369701	0.00743837	6.297207e-09	7.36715e-08	-0.08868903	-0.05158891
2.7e+08	-0.103038	-0.04410159	6.47351e-09	7.045066e-08	0.01494931	0.004760443	5.744792e-09	3.612991e-08
	6.47351e-09	7.045066e-08	-0.1038098	-0.04151693	1.899574e-08	3.139217e-07	0.0147819	0.005589237
	0.01494931	0.004760443	1.899574e-08	3.139217e-07	-0.1029473	-0.04389011	5.232302e-09	7.805088e-08
	5.744792e-09	3.612991e-08	0.0147819	0.005589237	5.232302e-09	7.805088e-08	-0.1038582	-0.04114064
2.8e+08	-0.1146276	-0.02983498	4.72583e-09	7.46054e-08	0.01521762	0.002601063	3.515521e-09	3.794487e-08
	4.72583e-09	7.46054e-08	-0.1150472	-0.02693641	2.72641e-08	3.313626e-07	0.01517362	0.003517935
	0.01521762	0.002601063	2.72641e-08	3.313626e-07	-0.1145364	-0.02961583	4.577192e-09	8.298123e-08
	3.515521e-09	3.794487e-08	0.01517362	0.003517935	4.577192e-09	8.298123e-08	-0.1150624	-0.0265175
2.9e+08	-0.1212589	-0.01273657	3.428167e-09	7.958532e-08	0.01474724	0.0004913224	1.462586e-09	4.056423e-08
	3.428167e-09	7.958532e-08	-0.12125	-0.009642618	3.779593e-08	3.464507e-07	0.01484732	0.001455315
	0.01474724	0.0004913224	3.779593e-08	3.464507e-07	-0.1211667	-0.01250889	4.548595e-09	8.838137e-08
	1.462586e-09	4.056423e-08	0.01484732	0.001455315	4.548595e-09	8.838137e-08	-0.1212219	-0.009191964
3e+08	-0.1223231	0.005501267	2.912973e-09	8.525477e-08	0.01359783	-0.001340668	-1.714337e-10	4.390083e-08
	2.912973e-09	8.525477e-08	-0.1218506	0.008650313	4.974056e-08	3.584778e-07	0.01384862	-0.0003762604
	0.01359783	-0.001340668	4.974056e-08	3.584778e-07	-0.1222291	0.005737999	5.359238e-09	9.406875e-08
	-1.714337e-10	4.390083e-08	0.01384862	-0.0003762604	5.359238e-09	9.406875e-08	-0.1217728	0.009118707
3.1e+08	-0.1177621	0.0230941	3.492494e-09	9.136549e-08	0.01189335	-0.002698303	-1.182651e-09	4.78028e-08
	3.492494e-09	9.136549e-08	-0.1168373	0.02615009	6.203036e-08	3.670709e-07	0.01228597	-0.001781113
	0.01189335	-0.002698303	6.203036e-08	3.670709e-07	-0.1176651	0.02333996	7.190694e-09	9.978796e-08
	-1.182651e-09	4.78028e-08	0.01228597	-0.001781113	7.190694e-09	9.978796e-08	-0.1167082	0.02662045
3.2e+08	-0.1080649	0.03833254	5.402043e-09	9.750544e-08	0.009810004	-0.003431797	-1.418015e-09	5.206854e-08
	5.402043e-09	9.750544e-08	-0.1067475	0.04115489	7.351785e-08	3.722344e-07	0.01032015	-0.002605242
	0.009810004	-0.003431797	7.351785e-08	3.722344e-07	-0.107964	0.03858717	1.014899e-08	1.051611e-07
	-1.418015e-09	5.206854e-08	0.01032015	-0.002605242	1.014899e-08	1.051611e-07	-0.1065707	0.04161124
3.3e+08	-0.09422007	0.04974072	8.572429e-09	1.0309e-07	0.007561663	-0.003450487	-7.812614e-10	5.64622e-08
	8.572429e-09	1.0309e-07	-0.09261389	0.05221175	8.306764e-08	3.743373e-07	0.008151524	-0.002748841
	0.007561663	-0.003450487	8.306764e-08	3.743373e-07	-0.09411439	0.05000335	1.404817e-08	1.096777e-07
	-7.812614e-10	5.64622e-08	0.008151524	-0.002748841	1.404817e-08	1.096777e-07	-0.09239827	0.05263975
3.4e+08	-0.07762463	0.05621582	1.275574e-08	1.076481e-07	0.005382781	-0.002732282	7.595096e-10	6.071939e-08
	1.275574e-08	1.076481e-07	-0.07586952	0.05825467	8.973957e-08	3.74146e-07	0.006004364	-0.00217651
	0.005382782	-0.002732282	8.973957e-08	3.74146e-07	-0.07751358	0.0564853	1.855025e-08	1.129773e-07
	7.595096e-10	6.071939e-08	0.006004364	-0.00217651	1.855025e-08	1.129773e-07	-0.07562841	0.05864329
3.5e+08	-0.05995533	0.05713793	1.751992e-08	1.108333e-07	0.003508046	-0.001329429	3.160923e-09	6.456089e-08
	1.751992e-08	1.108333e-07	-0.05821426	0.05871159	9.289702e-08	3.727025e-07	0.004107832	-0.000924243
	0.003508046	-0.001329429	9.289702e-08	3.727025e-07	-0.05983876	0.05741291	2.317029e-08	1.148508e-07
	3.160923e-09	6.456089e-08	0.004107832	-0.000924243	2.317029e-08	1.148508e-07	-0.05796426	0.0590544
3.6e+08	-0.04300941	0.0524397	2.231794e-08	1.124969e-07	0.002149	0.0006313058	6.291909e-09	6.771177e-08
	2.231794e-08	1.124969e-07	-0.04145217	0.05356958	9.227697e-08	3.712023e-07	0.0026734	0.0008987986
	0.002149	0.0006313058	9.227697e-08	3.712023e-07	-0.04288761	0.05271876	2.735401e-08	1.153021e-07
	6.291909e-09	6.771177e-08	0.0026734	0.0008987986	2.735401e-08	1.153021e-07	-0.04121161	0.05386575
3.7e+08	-0.02852596	0.04262502	2.658522e-08	1.127197e-07	0.001469196	0.002956359	9.925605e-09	6.99311e-08
	2.658522e-08	1.127197e-07	-0.02731098	0.04338798	8.80102e-08	3.708624e-07	0.001870299	0.003116194
	0.001469196	0.002956359	8.80102e-08	3.708624e-07	-0.02839974	0.04290679	3.058007e-08	1.145646e-07
	9.925605e-09	6.99311e-08	0.001870299	0.003116194	3.058007e-08	1.145646e-07	-0.02709799	0.04364274
3.8e+08	-0.01800448	0.02872948	2.98402e-08	1.117938e-07	0.001561189	0.005402628	1.374394e-08	7.10512e-08
	2.98402e-08	1.117938e-07	-0.01726061	0.0292527	8.059791e-08	3.727997e-07	0.00180221	0.005499661
	0.001561189	0.005402628	8.059791e-08	3.727997e-07	-0.01787517	0.02901279	3.246028e-08	1.130656e-07
	1.374394e-08	7.10512e-08	0.00180221	0.005499661	3.246028e-08	1.130656e-07	-0.01709117	0.02947708
3.9e+08	-0.012541	0.01222096	3.176019e-08	1.101584e-07	0.002429927	0.007704066	1.736225e-08	7.101895e-08
	3.176019e-08	1.101584e-07	-0.01235145	0.01267067	7.085768e-08	3.779316e-07	0.002489753	0.007793927
	0.002429927	0.007704066	7.085768e-08	3.779316e-07	-0.01241044	0.01250502	3.280892e-08	1.113452e-07
	1.736225e-08	7.101895e-08	0.002489753	0.007793927	3.280892e-08	1.113452e-07	-0.01223749	0.0128807
4e+08	-0.01270362	-0.005152674	3.221294e-08	1.083136e-07	0.003987059	0.009604771	2.037602e-08	6.992685e-08
	3.221294e-08	1.083136e-07	-0.01309415	-0.004587615	5.985215e-08	3.869001e-07	0.00386335	0.009748418
	0.003987059	0.009604771	5.985215e-08	3.869001e-07	-0.01257407	-0.004868005	3.166161e-08	1.099556e-07
	2.037602e-08	6.992685e-08	0.00386335	0.009748418	3.166161e-08	1.099556e-07	-0.01304204	-0.004372414
4.1e+08	-0.01846616	-0.02155245	3.124204e-08	1.067397e-07	0.006059001	0.01089329	2.242329e-08	6.802061e-08
	3.124204e-08	1.067397e-07	-0.01939936	-0.02068059	4.880825e-08	4.000158e-07	0.005769412	0.01115069
	0.006059001	0.01089329	4.880825e-08	4.000158e-07	-0.01834008	-0.02126645	2.924248e-08	1.093702e-07
	2.242329e-08	6.802061e-08	0.005769412	0.01115069	2.924248e-08	1.093702e-07	-0.0194089	-0.02043912
4.2e+08	-0.02921105	-0.03525023	2.902225e-08	1.058466e-07	0.008408596	0.01143169	2.324844e-08	6.56761e-08
	2.902225e-08	1.058466e-07	-0.03058769	-0.03389877	3.90269e-08	4.17216e-07	0.007989856	0.01185523
	0.008408596	0.01143169	3.90269e-08	4.17216e-07	-0.02909073	-0.03496119	2.589835e-08	1.09931e-07
	2.324844e-08	6.56761e-08	0.007989856	0.01185523	2.589835e-08	1.09931e-07	-0.03065175	-0.03361061
4.3e+08	-0.04380192	-0.04481685	2.581101e-08	1.059587e-07	0.01076679	0.01117355	2.275051e-08	6.334738e-08
	2.581101e-08	1.059587e-07	-0.04546953	-0.04285157	3.177868e-08	4.3804e-07	0.01027161	0.01180201
	0.01076679	0.01117355	3.177868e-08	4.3804e-07	-0.04368907	-0.04452209	2.202892e-08	1.118388e-07
	2.275051e-08	6.334738e-08	0.01027161	0.01180201	2.202892e-08	1.118388e-07	-0.04557453	-0.04249918
4.4e+08	-0.06071508	-0.04927176	2.191826e-08	1.073247e-07	0.01286833	0.01016777	2.1003e-08	6.149786e-08
	2.191826e-08	1.073247e-07	-0.06248289	-0.04661306	2.818283e-08	4.616287e-07	0.01236036	0.01102147
	0.01286833	0.01016777	2.818283e-08	4.616287e-07	-0.06061042	-0.04896785	1.803872e-08	1.151763e-07
	2.1003e-08	6.149786e-08	0.01236036	0.01102147	1.803872e-08	1.151763e-07	-0.06260994	-0.0461839
4.5e+08	-0.07821055	-0.04817681	1.770172e-08	1.101279e-07	0.01448479	0.00854834	1.824108e-08	6.053106e-08
	1.770172e-08	1.101279e-07	-0.07986903	-0.04481002	2.907531e-08	4.86765e-07	0.01403217	0.009626157
	0.01448479	0.00854834	2.907531e-08	4.86765e-07	-0.07811346	-0.04786003	1.43205e-08	1.19937e-07
	1.824108e-08	6.053106e-08	0.01403217	0.009626157	1.43205e-08	1.19937e-07	-0.07999577	-0.04429806
4.6e+08	-0.09451898	-0.0416664	1.357711e-08	1.144793e-07	0.01544969	0.0065134	1.482172e-08	6.073657e-08
	1.357711e-08	1.144793e-07	-0.09586184	-0.03764507	3.488228e-08	5.119634e-07	0.01511781	0.007792104
	0.01544969	0.0065134	3.488228e-08	5.119634e-07	-0.09442745	-0.04133322	1.126109e-08	1.260398e-07
	1.482172e-08	6.073657e-08	0.01511781	0.007792104	1.126109e-08	1.260398e-07	-0.09596465	-0.03705172
4.7e+08	-0.1080218	-0.03041601	1.002205e-08	1.203852e-07	0.01567293	0.00429858	1.116888e-08	6.226014e-08
	1.002205e-08	1.203852e-07	-0.1088677	-0.02585791	4.552306e-08	5.356125e-07	0.01551725	0.005734583
	0.01567293	0.00429858	4.552306e-08	5.356125e-07	-0.1079325	-0.03006369	9.248658e-09	1.333181e-07
	1.116888e-08	6.226014e-08	0.01551725	0.005734583	9.248658e-09	1.333181e-07	-0.1089243	-0.02519217
4.8e+08	-0.1174058	-0.01555864	7.554054e-09	1.27701e-07	0.01514457	0.002149614	7.717038e-09	6.50993e-08
	7.554054e-09	1.27701e-07	-0.1176181	-0.01063506	6.036755e-08	5.561582e-07	0.01520443	0.003683013
	0.01514457	0.002149614	6.036755e-08	5.561582e-07	-0.1173144	-0.01518572	8.660487e-09	1.414907e-07
	7.717038e-09	6.50993e-08	0.01520443	0.003683013	8.660487e-09	1.414907e-07	-0.1176097	-0.009912793
