!$
! Info: Touchstone file created by Circ.  Input file=Tx_14in_Rx_93ohms_TxVia_60mils_RxVia_70mils.circ
!$
# Hz S RI R 50
0	0.0128282	1.755688e-25	-3.818496e-11	9.300018e-27	9.468304e-05	2.472398e-23	-3.171029e-09	3.932913e-25
	-3.818573e-11	9.300126e-27	0.01282372	2.16818e-25	3.325646e-11	2.577575e-27	9.439746e-05	3.128951e-23
	9.576615e-05	2.488915e-23	3.32523e-11	2.57808e-27	0.01284353	1.756136e-25	-1.806276e-11	8.363047e-27
	-3.170903e-09	3.932759e-25	9.466687e-05	3.142368e-23	-1.815608e-11	8.374426e-27	0.01283803	2.158828e-25
1e+07	0.01755068	-0.001851148	4.712927e-11	1.514393e-10	0.0005431277	0.002381181	-3.287105e-09	8.202473e-09
	4.712927e-11	1.514394e-10	0.01856623	-0.002072722	4.968995e-11	1.60584e-10	0.0005670536	0.002585697
	0.0005431592	0.002381186	4.968995e-11	1.60584e-10	0.01891286	-0.001285147	-3.242055e-09	1.033522e-08
	-3.287105e-09	8.202473e-09	0.0005670565	0.002585695	-3.242055e-09	1.033522e-08	0.01819831	-0.002062517
2e+07	0.02022149	-0.008318525	1.383636e-11	2.842668e-10	0.001657953	0.004615543	-1.795819e-10	-2.624722e-12
	1.383636e-11	2.842668e-10	0.02075639	-0.00900515	1.131507e-11	3.106444e-10	0.001574057	0.005005745
	0.001657967	0.004615524	1.131506e-11	3.106444e-10	0.02200065	-0.007995835	7.972406e-11	6.100425e-10
	-1.795819e-10	-2.624723e-12	0.001574054	0.005005745	7.972407e-11	6.100425e-10	0.02048988	-0.008868387
3e+07	0.01948688	-0.01640159	-7.04225e-11	4.491964e-10	0.003322257	0.006420763	-9.484395e-11	5.395219e-10
	-7.04225e-11	4.491964e-10	0.01961207	-0.01716263	-6.985938e-11	4.89986e-10	0.003251104	0.006890263
	0.003322258	0.00642076	-6.985938e-11	4.89986e-10	0.02151618	-0.016421	-7.624042e-11	5.51901e-10
	-9.484395e-11	5.395219e-10	0.003251103	0.006890265	-7.624042e-11	5.51901e-10	0.01941797	-0.01700198
4e+07	0.01600479	-0.0241836	-1.793349e-10	6.519623e-10	0.00539207	0.007663541	-1.747077e-10	8.060815e-10
	-1.793349e-10	6.519623e-10	0.01577388	-0.02486639	-1.707303e-10	7.055508e-10	0.005398442	0.008150412
	0.005392075	0.007663545	-1.707303e-10	7.055508e-10	0.01814126	-0.02460491	-2.109307e-10	7.788975e-10
	-1.747077e-10	8.060815e-10	0.005398443	0.008150413	-2.109307e-10	7.788975e-10	0.01563189	-0.02471015
5e+07	0.01029604	-0.03078469	-2.976249e-10	9.090985e-10	0.007685813	0.008255002	-2.8343e-10	1.102218e-09
	-2.976249e-10	9.090985e-10	0.009773858	-0.0312831	-2.787456e-10	9.685487e-10	0.007753289	0.008739073
	0.007685816	0.008255004	-2.787456e-10	9.685487e-10	0.012408	-0.03162449	-3.361096e-10	1.08442e-09
	-2.834301e-10	1.102218e-09	0.00775329	0.008739074	-3.361096e-10	1.08442e-09	0.009665388	-0.03114382
6e+07	0.002941147	-0.03562066	-4.021675e-10	1.226605e-09	0.01000507	0.008163966	-3.740036e-10	1.456629e-09
	-4.021675e-10	1.226605e-09	0.002206159	-0.03585892	-3.744338e-10	1.281814e-09	0.01011865	0.008634082
	0.01000506	0.008163965	-3.744338e-10	1.281814e-09	0.004909071	-0.03686038	-4.408865e-10	1.452083e-09
	-3.740036e-10	1.456629e-09	0.01011865	0.008634082	-4.408864e-10	1.452083e-09	0.002114834	-0.03574069
7e+07	-0.005417381	-0.03832999	-4.675307e-10	1.600832e-09	0.01215304	0.00741834	-4.156649e-10	1.861806e-09
	-4.675307e-10	1.600832e-09	-0.006276096	-0.03826013	-4.382825e-10	1.641894e-09	0.01229941	0.007868695
	0.01215303	0.00741834	-4.382825e-10	1.641894e-09	-0.003697636	-0.03992248	-5.043386e-10	1.876555e-09
	-4.156649e-10	1.861806e-09	0.01229941	0.007868695	-5.043386e-10	1.876555e-09	-0.006364109	-0.03816153
8e+07	-0.01410781	-0.03875669	-4.695233e-10	2.018302e-09	0.01395187	0.006101262	-3.878372e-10	2.296862e-09
	-4.695233e-10	2.018302e-09	-0.01499519	-0.03835807	-4.520857e-10	2.037831e-09	0.01411899	0.006529026
	0.01395186	0.006101265	-4.520857e-10	2.037831e-09	-0.01272244	-0.04063268	-5.031587e-10	2.345672e-09
	-3.878372e-10	2.296862e-09	0.01411899	0.006529026	-5.031587e-10	2.345672e-09	-0.01509083	-0.03827382
9e+07	-0.02247135	-0.0369385	-3.882528e-10	2.456548e-09	0.01525835	0.00434274	-2.839158e-10	2.732632e-09
	-3.882528e-10	2.456548e-09	-0.02329035	-0.03621694	-4.007076e-10	2.448756e-09	0.01543366	0.004746286
	0.01525834	0.004342745	-4.007076e-10	2.448756e-09	-0.02148938	-0.03901332	-4.178569e-10	2.836254e-09
	-2.839158e-10	2.732632e-09	0.01543366	0.004746286	-4.178569e-10	2.836254e-09	-0.02340166	-0.03613935
1e+08	-0.02989929	-0.03308842	-2.069917e-10	2.887155e-09	0.01598538	0.00230955	-1.012495e-10	3.14463e-09
	-2.069917e-10	2.887155e-09	-0.03054073	-0.03207222	-2.784199e-10	2.856067e-09	0.01614309	0.002684617
	0.01598538	0.00230955	-2.784199e-10	2.856067e-09	-0.02940076	-0.0352722	-2.297342e-10	3.322847e-09
	-1.012495e-10	3.14463e-09	0.01614309	0.002684617	-2.297342e-10	3.322847e-09	-0.03067596	-0.031993
1.1e+08	-0.03590255	-0.02761081	6.880893e-11	3.238604e-09	0.01605048	0.0002264305	1.480882e-10	3.503964e-09
	6.880893e-11	3.238604e-09	-0.03630415	-0.02643805	-7.177381e-11	3.219873e-09	0.0161975	0.0005334853
	0.01605048	0.0002264302	-7.177381e-11	3.219873e-09	-0.0358823	-0.02964986	6.461188e-11	3.722141e-09
	1.480882e-10	3.503964e-09	0.0161975	0.0005334855	6.461188e-11	3.722141e-09	-0.036461	-0.02633137
1.2e+08	-0.04013591	-0.02093812	3.70653e-10	3.506271e-09	0.01545533	-0.001775525	4.42184e-10	3.792929e-09
	3.70653e-10	3.506271e-09	-0.04031048	-0.01967179	1.732367e-10	3.520658e-09	0.0156085	-0.001519806
	0.01545533	-0.001775525	1.732367e-10	3.520658e-09	-0.04045993	-0.02275385	3.910501e-10	4.034789e-09
	4.42184e-10	3.792929e-09	0.0156085	-0.001519805	3.910501e-10	4.034789e-09	-0.04047214	-0.01953221
1.3e+08	-0.0423613	-0.01361425	6.804645e-10	3.691189e-09	0.01427339	-0.003511212	7.522828e-10	4.003679e-09
	6.804645e-10	3.691189e-09	-0.04231139	-0.01231289	4.398785e-10	3.748727e-09	0.01443415	-0.003299776
	0.01427339	-0.003511212	4.398785e-10	3.748727e-09	-0.04293448	-0.01516609	7.320992e-10	4.259634e-09
	7.522828e-10	4.003679e-09	0.01443415	-0.003299775	7.320992e-10	4.259634e-09	-0.04246563	-0.01214039
1.4e+08	-0.04251001	-0.006217666	9.947319e-10	3.79004e-09	0.0126126	-0.004825687	1.065409e-09	4.128729e-09
	9.947319e-10	3.79004e-09	-0.04224791	-0.00493968	7.158528e-10	3.903772e-09	0.01277898	-0.004654971
	0.0126126	-0.004825687	7.158528e-10	3.903772e-09	-0.04324725	-0.007487944	1.079691e-09	4.389545e-09
	1.065409e-09	4.128729e-09	0.01277898	-0.00465497	1.079691e-09	4.389545e-09	-0.04238444	-0.004737944
1.5e+08	-0.04067494	0.0006854089	1.286698e-09	3.800913e-09	0.01061692	-0.005601848	1.35552e-09	4.166162e-09
	1.286698e-09	3.800913e-09	-0.04022637	0.001884518	9.783327e-10	3.98303e-09	0.0107847	-0.005469978
	0.01061692	-0.005601848	9.783327e-10	3.98303e-09	-0.04149961	-0.0003039707	1.40357e-09	4.421443e-09
	1.35552e-09	4.166162e-09	0.0107847	-0.005469978	1.40357e-09	4.421443e-09	-0.0403371	0.00210892
1.6e+08	-0.03709796	0.006583274	1.5289e-09	3.730277e-09	0.008455616	-0.005768382	1.595498e-09	4.123178e-09
	1.5289e-09	3.730277e-09	-0.03650276	0.007654948	1.203628e-09	3.990515e-09	0.008618648	-0.005673904
	0.008455615	-0.005768382	1.203628e-09	3.990515e-09	-0.03794282	0.005859071	1.673652e-09	4.363236e-09
	1.595498e-09	4.123178e-09	0.008618647	-0.005673904	1.673652e-09	4.363236e-09	-0.03658234	0.007893319
1.7e+08	-0.03214758	0.01105573	1.696156e-09	3.593176e-09	0.006310073	-0.005304658	1.760592e-09	4.015175e-09
	1.696156e-09	3.593176e-09	-0.03145842	0.01196264	1.369502e-09	3.937809e-09	0.006460533	-0.005245453
	0.006310072	-0.005304658	1.369502e-09	3.937809e-09	-0.03295608	0.01056899	1.862088e-09	4.231323e-09
	1.760592e-09	4.015175e-09	0.006460533	-0.005245452	1.862088e-09	4.231323e-09	-0.0315046	0.01220505
1.8e+08	-0.02628821	0.01380351	1.768138e-09	3.412354e-09	0.00435951	-0.004241948	1.830997e-09	3.86508e-09
	1.768138e-09	3.412354e-09	-0.02556764	0.01452346	1.457514e-09	3.843372e-09	0.004488418	-0.004214322
	0.004359509	-0.004241948	1.457514e-09	3.843372e-09	-0.02701552	0.01351754	1.946365e-09	4.050633e-09
	1.830997e-09	3.86508e-09	0.004488418	-0.004214322	1.946365e-09	4.050633e-09	-0.02558142	0.01475972
1.9e+08	-0.02004299	0.01466838	1.731655e-09	3.216614e-09	0.002766821	-0.002660787	1.794086e-09	3.701699e-09
	1.731655e-09	3.216614e-09	-0.01935925	0.01519723	1.455103e-09	3.731248e-09	0.002864732	-0.00265882
	0.002766821	-0.002660787	1.455103e-09	3.731248e-09	-0.02065672	0.01454053	1.911831e-09	3.852807e-09
	1.794086e-09	3.701699e-09	0.002864732	-0.00265882	1.911831e-09	3.852807e-09	-0.01934476	0.01541784
2e+08	-0.0139516	0.01364329	1.582268e-09	3.03866e-09	0.001654095	-0.0006943918	1.645962e-09	3.557578e-09
	1.582268e-09	3.03866e-09	-0.01337476	0.01399587	1.357099e-09	3.629252e-09	0.001723348	-0.0006997611
	0.001654095	-0.0006943918	1.357099e-09	3.629252e-09	-0.01443189	0.01362795	1.753494e-09	3.673786e-09
	1.645962e-09	3.557578e-09	0.001723348	-0.000699761	1.753494e-09	3.673786e-09	-0.01333897	0.01419291
2.1e+08	-0.008532702	0.01086711	1.325677e-09	2.911966e-09	0.00113022	0.001515977	1.392812e-09	3.465804e-09
	1.325677e-09	2.911966e-09	-0.008126307	0.01107975	1.167193e-09	3.56624e-09	0.001158686	0.001509032
	0.00113022	0.001515977	1.167193e-09	3.56624e-09	-0.00887192	0.01091858	1.477527e-09	3.550373e-09
	1.392812e-09	3.465804e-09	0.001158686	0.001509032	1.477527e-09	3.550373e-09	-0.008078376	0.01124767
2.2e+08	-0.004241172	0.006615707	9.773937e-10	2.868067e-09	0.001241282	0.003791359	1.050484e-09	3.457431e-09
	9.773937e-10	2.868067e-09	-0.004057162	0.0067429	8.976478e-10	3.569694e-09	0.001217761	0.003793044
	0.001241282	0.003791359	8.976478e-10	3.569694e-09	-0.004442955	0.006690854	1.100914e-09	3.517218e-09
	1.050484e-09	3.457431e-09	0.001217761	0.003793044	1.100914e-09	3.517218e-09	-0.004007674	0.006879079
2.3e+08	-0.001434501	0.001277218	5.620904e-10	2.933551e-09	0.001979184	0.005946318	6.438523e-10	3.558497e-09
	5.620904e-10	2.933551e-09	-0.001508136	0.001387955	5.688204e-10	3.663026e-09	0.001895978	0.005971328
	0.001979184	0.005946318	5.688204e-10	3.663026e-09	-0.001512353	0.00133781	6.507019e-10	3.603504e-09
	6.438523e-10	3.558497e-09	0.001895978	0.005971328	6.507019e-10	3.603504e-09	-0.00146818	0.001493008
2.4e+08	-0.0003464565	-0.004679778	1.119542e-10	3.127412e-09	0.003282815	0.007805341	2.051685e-10	3.787425e-09
	1.119542e-10	3.127412e-09	-0.000692271	-0.00450709	2.07749e-10	3.863203e-09	0.003137176	0.00787157
	0.003282815	0.007805341	2.07749e-10	3.863203e-09	-0.0003218902	-0.004665157	1.621654e-10	3.830051e-09
	2.051685e-10	3.787425e-09	0.003137176	0.00787157	1.621654e-10	3.830051e-09	-0.000672455	-0.004429264
2.5e+08	-0.001070527	-0.01074392	-3.357135e-10	3.458987e-09	0.005042969	0.009217823	-2.283188e-10	4.152992e-09
	-3.357135e-10	3.458987e-09	-0.001679858	-0.01042768	-1.539547e-10	4.178906e-09	0.00483811	0.009344656
	0.005042969	0.009217823	-1.539547e-10	4.178906e-09	-0.0009708716	-0.01079848	-3.238434e-10	4.207075e-09
	-2.283188e-10	4.152992e-09	0.00483811	0.009344656	-3.238434e-10	4.207075e-09	-0.001689351	-0.01037015
2.6e+08	-0.003554523	-0.01640163	-7.416832e-10	3.926565e-09	0.007111535	0.01007106	-6.172749e-10	4.653038e-09
	-7.416832e-10	3.926565e-09	-0.004394908	-0.01586397	-4.829046e-10	4.609375e-09	0.006857068	0.01027739
	0.007111535	0.01007106	-4.829046e-10	4.609375e-09	-0.003410535	-0.01653961	-7.64115e-10	4.732799e-09
	-6.172749e-10	4.653038e-09	0.006857068	0.01027739	-7.64115e-10	4.732799e-09	-0.004440617	-0.01581726
2.7e+08	-0.007606656	-0.02117739	-1.067373e-09	4.51736e-09	0.009314185	0.01029998	-9.234883e-10	5.274057e-09
	-1.067373e-09	4.51736e-09	-0.008623376	-0.02035101	-7.461752e-10	5.144127e-09	0.009025934	0.01060213
	0.009314185	0.01029998	-7.461752e-10	5.144127e-09	-0.007450066	-0.02140382	-1.11662e-09	5.392996e-09
	-9.234883e-10	5.274057e-09	0.009025934	0.01060213	-1.11662e-09	5.392996e-09	-0.008709205	-0.02030392
2.8e+08	-0.01291246	-0.02467039	-1.278559e-09	5.207637e-09	0.01146542	0.009892732	-1.11314e-09	5.991718e-09
	-1.278559e-09	5.207637e-09	-0.014032	-0.0235049	-9.145883e-10	5.763405e-09	0.01116457	0.01030244
	0.01146542	0.009892732	-9.145883e-10	5.763405e-09	-0.01277364	-0.02498156	-1.34406e-09	6.161631e-09
	-1.11314e-09	5.991718e-09	0.01116457	0.01030244	-1.34406e-09	6.161631e-09	-0.01415847	-0.02344542
2.9e+08	-0.01906105	-0.02658479	-1.348348e-09	5.964264e-09	0.01338455	0.008891427	-1.159842e-09	6.772322e-09
	-1.348348e-09	5.964264e-09	-0.02019634	-0.02505195	-9.651884e-10	6.439477e-09	0.0130962	0.009414192
	0.01338455	0.008891427	-9.651884e-10	6.439477e-09	-0.01896692	-0.02696921	-1.417135e-09	7.002456e-09
	-1.159842e-09	6.772322e-09	0.0130962	0.009414192	-1.417135e-09	7.002456e-09	-0.02036049	-0.02496828
3e+08	-0.02557834	-0.0267513	-1.259658e-09	6.746988e-09	0.01491111	0.007388251	-1.047196e-09	7.575092e-09
	-1.259658e-09	6.746988e-09	-0.02663554	-0.02484854	-8.833042e-10	7.138597e-09	0.01466227	0.008022106
	0.01491111	0.007388251	-8.833042e-10	7.138597e-09	-0.02555066	-0.02719114	-1.317279e-09	7.871477e-09
	-1.047196e-09	7.575092e-09	0.01466227	0.008022106	-1.317279e-09	7.871477e-09	-0.02683109	-0.02473009
3.1e+08	-0.03196469	-0.02513864	-1.007036e-09	7.511358e-09	0.0159183	0.005517188	-7.706526e-10	8.355147e-09
	-1.007036e-09	7.511358e-09	-0.03285072	-0.02289052	-6.640338e-10	7.823464e-09	0.01573558	0.006252129
	0.0159183	0.005517188	-6.640338e-10	7.823464e-09	-0.0320188	-0.02561145	-1.038644e-09	8.720139e-09
	-7.706526e-10	8.355147e-09	0.01573558	0.006252129	-1.038644e-09	8.720139e-09	-0.03306852	-0.02272885
3.2e+08	-0.03773368	-0.02185414	-5.97628e-10	8.212068e-09	0.01632328	0.003442347	-3.384816e-10	9.066956e-09
	-5.97628e-10	8.212068e-09	-0.03836407	-0.01931164	-3.13015e-10	8.456007e-09	0.01623044	0.004260499
	0.01632328	0.003442347	-3.13015e-10	8.456007e-09	-0.03787777	-0.02233483	-5.891425e-10	9.498982e-09
	-3.384816e-10	9.066956e-09	0.01623044	0.004260499	-5.891425e-10	9.498982e-09	-0.03859286	-0.01910118
3.3e+08	-0.04244921	-0.01713388	-5.118152e-11	8.806514e-09	0.01609359	0.001343993	2.282537e-10	9.667997e-09
	-5.118152e-11	8.806514e-09	-0.04275562	-0.01437136	1.535637e-10	9.000306e-09	0.01610912	0.002220538
	0.01609359	0.001343993	1.535637e-10	9.000306e-09	-0.04268413	-0.01759674	9.529483e-12	1.016152e-08
	2.282537e-10	9.667997e-09	0.01610912	0.002220538	9.529483e-12	1.016152e-08	-0.04298289	-0.01410996
3.4e+08	-0.04575828	-0.01132332	6.009188e-10	9.258271e-09	0.01524924	-0.0005964383	8.967651e-10	1.012235e-08
	6.009188e-10	9.258271e-09	-0.04569484	-0.008433397	7.097226e-10	9.425448e-09	0.01538434	0.0003083877
	0.01524924	-0.0005964383	7.097226e-10	9.425448e-09	-0.04607781	-0.0117439	7.229582e-10	1.066805e-08
	8.967651e-10	1.012235e-08	0.01538434	0.0003083877	7.229582e-10	1.066805e-08	-0.04590791	-0.008122533
3.5e+08	-0.04741692	-0.004849971	1.317577e-09	9.540242e-09	0.01386052	-0.00221108	1.624616e-09	1.040392e-08
	1.317577e-09	9.540242e-09	-0.0469651	-0.00193673	1.321195e-09	9.708155e-09	0.01411758	-0.001311138
	0.01386052	-0.00221108	1.321195e-09	9.708155e-09	-0.04780856	-0.005206872	1.506118e-09	1.098913e-08
	1.624616e-09	1.040392e-08	0.01411758	-0.001311138	1.506118e-09	1.098913e-08	-0.04715209	-0.001581441
3.6e+08	-0.04730777	0.001809532	2.050749e-09	9.637231e-09	0.01204195	-0.003359003	2.362677e-09	1.049902e-08
	2.050749e-09	9.637231e-09	-0.04647906	0.004638627	1.947619e-09	9.834982e-09	0.01241375	-0.002497506
	0.01204195	-0.003359003	1.947619e-09	9.834982e-09	-0.0477539	0.001533239	2.306412e-09	1.110837e-08
	2.362677e-09	1.049902e-08	0.01241375	-0.002497506	2.306412e-09	1.110837e-08	-0.04662993	0.005030094
3.7e+08	-0.04544812	0.008165719	2.748876e-09	9.54769e-09	0.009942848	-0.003937269	3.058765e-09	1.040801e-08
	2.748876e-09	9.54769e-09	-0.04428441	0.01080846	2.545312e-09	9.803927e-09	0.01041257	-0.003145332
	0.009942848	-0.003937269	2.545312e-09	9.803927e-09	-0.0459274	0.007981389	3.067458e-09	1.102439e-08
	3.058765e-09	1.040801e-08	0.01041257	-0.003145332	3.067458e-09	1.102439e-08	-0.0443918	0.01122528
3.8e+08	-0.0419879	0.01375316	3.360761e-09	9.284499e-09	0.007735366	-0.003888946	3.66169e-09	1.014596e-08
	3.360761e-09	9.284499e-09	-0.04055938	0.01612117	3.070502e-09	9.625278e-09	0.008277445	-0.003192466
	0.007735366	-0.003888946	3.070502e-09	9.625278e-09	-0.04247695	0.01366591	3.733368e-09	1.075161e-08
	3.66169e-09	1.014596e-08	0.008277445	-0.003192466	3.733368e-09	1.075161e-08	-0.04061922	0.01655078
3.9e+08	-0.03719796	0.01816539	3.839606e-09	8.87464e-09	0.005600911	-0.003207589	4.125402e-09	9.74208e-09
	3.839606e-09	8.87464e-09	-0.03559861	0.02019192	3.482796e-09	9.321554e-09	0.00618271	-0.002624791
	0.005600911	-0.003207589	3.482796e-09	9.321554e-09	-0.03767308	0.01817387	4.253197e-09	1.03199e-08
	4.125402e-09	9.74208e-09	0.00618271	-0.002624791	4.253197e-09	1.03199e-08	-0.03561055	0.02062101
4e+08	-0.03144946	0.0210854	4.146904e-09	8.357746e-09	0.003715831	-0.001937915	4.412882e-09	9.237953e-09
	4.146904e-09	8.357746e-09	-0.02979042	0.02273161	3.748646e-09	8.926448e-09	0.004299965	-0.001477436
	0.003715831	-0.001937915	3.748646e-09	8.926448e-09	-0.03188833	0.02118198	4.585224e-09	9.772928e-09
	4.412882e-09	9.237953e-09	0.004299965	-0.001477436	4.585224e-09	9.772928e-09	-0.02975787	0.02314722
4.1e+08	-0.02518575	0.0223094	4.255868e-09	7.78357e-09	0.002237407	-0.000172597	4.499463e-09	8.684776e-09
	4.255868e-09	7.78357e-09	-0.02358706	0.02356875	3.844502e-09	8.482757e-09	0.002784572	0.0001677158
	0.002237407	-0.000172597	3.844502e-09	8.482757e-09	-0.02556908	0.02248085	4.700689e-09	9.165306e-09
	4.499463e-09	8.684776e-09	0.002784572	0.0001677158	4.700689e-09	9.165306e-09	-0.02351702	0.02395927
4.2e+08	-0.01888897	0.02176225	4.154089e-09	7.208511e-09	0.001291116	0.001954673	4.375276e-09	8.139658e-09
	4.154089e-09	7.208511e-09	-0.01747021	0.02266234	3.759329e-09	8.039384e-09	0.001763207	0.002188118
	0.001291116	0.001954673	3.759329e-09	8.039384e-09	-0.0192018	0.02199078	4.586672e-09	8.558738e-09
	4.375276e-09	8.139658e-09	0.001763207	0.002188118	4.586672e-09	8.558738e-09	-0.01737274	0.02301854
4.3e+08	-0.01304347	0.01950323	3.845171e-09	6.691441e-09	0.000960149	0.004279445	4.046597e-09	7.661346e-09
	3.845171e-09	6.691441e-09	-0.01191407	0.02010499	3.496215e-09	7.647613e-09	0.0013234	0.004429932
	0.000960149	0.004279445	3.496215e-09	7.647613e-09	-0.01327625	0.01976782	4.247797e-09	8.017399e-09
	4.046597e-09	7.661346e-09	0.0013234	0.004429932	4.247797e-09	8.017399e-09	-0.01180157	0.02042076
4.4e+08	-0.008099083	0.01572163	3.349133e-09	6.289131e-09	0.001278063	0.006619447	3.535952e-09	7.30566e-09
	3.349133e-09	6.289131e-09	-0.007349094	0.01611577	3.072818e-09	7.356956e-09	0.001505981	0.006720092
	0.001278063	0.006619447	3.072818e-09	7.356956e-09	-0.008248309	0.01599961	3.706586e-09	7.602918e-09
	3.535952e-09	7.30566e-09	0.001505981	0.006720092	3.706586e-09	7.602918e-09	-0.007235289	0.01638872
4.5e+08	-0.004436828	0.01072245	2.701495e-09	6.051649e-09	0.002225297	0.008789298	2.880945e-09	7.121016e-09
	2.701495e-09	6.051649e-09	-0.004128831	0.01102335	2.520565e-09	7.210948e-09	0.002301137	0.008880212
	0.002225297	0.008789298	2.520565e-09	7.210948e-09	-0.004505241	0.01099126	3.002364e-09	7.369365e-09
	2.880945e-09	7.121016e-09	0.002301137	0.008880212	3.002364e-09	7.369365e-09	-0.00402774	0.01125507
4.6e+08	-0.002339794	0.004903206	1.951055e-09	6.018105e-09	0.003730015	0.01061583	2.131846e-09	7.144408e-09
	1.951055e-09	6.018105e-09	-0.00250279	0.005240583	1.882445e-09	7.243252e-09	0.003648589	0.01074126
	0.003730015	0.01061583	1.882445e-09	7.243252e-09	-0.002336078	0.005142034	2.188637e-09	7.358569e-09
	2.131846e-09	7.144408e-09	0.003648589	0.01074126	2.188637e-09	7.358569e-09	-0.002427491	0.005436612
4.7e+08	-0.001971519	-0.001276491	1.156502e-09	6.213162e-09	0.005673387	0.01195275	1.348168e-09	7.398092e-09
	1.156502e-09	6.213162e-09	-0.002597292	-0.0007673943	1.209905e-09	7.474668e-09	0.005442046	0.01215774
	0.005673387	0.01195275	1.209905e-09	7.474668e-09	-0.00190958	-0.001085156	1.329304e-09	7.596507e-09
	1.348168e-09	7.398092e-09	0.005442046	0.01215774	1.329304e-09	7.596507e-09	-0.002558963	-0.0005979734
4.8e+08	-0.003363598	-0.007330113	3.821362e-10	6.64457e-09	0.007899024	0.01269328	5.943514e-10	7.887365e-09
