!$
! Info: Touchstone file created by Circ.  Input file=Tx_10in_Rx_93ohms_TxVia_60mils_RxVia_70mils.circ
!$
# Hz S RI R 50
0	0.009242165	1.538535e-25	0.9906174	-1.466954e-25	7.68154e-05	2.015721e-23	-7.215256e-05	2.272643e-21
	0.9906174	-1.483786e-25	0.00923751	1.647461e-25	-7.263276e-05	2.331504e-21	7.356788e-05	2.249485e-23
	7.803914e-05	1.958433e-23	-7.194386e-05	2.247131e-21	0.009252817	1.525897e-25	0.9905958	-1.429784e-25
	-7.24214e-05	2.305559e-21	7.383749e-05	2.259131e-23	0.9905958	-1.499914e-25	0.009251926	1.640221e-25
1e+07	0.01348622	-0.000865411	0.9803959	-0.1059988	0.0003495869	0.00194996	-0.0001428933	-0.0001076148
	0.9803959	-0.1059988	0.01347761	-0.0008652435	-0.0001429947	-0.0001075553	0.0003461271	0.001951011
	0.0003496571	0.001949928	-0.0001429617	-0.0001075761	0.01322532	-0.0008674297	0.9806454	-0.1061089
	-0.0001428603	-0.0001076356	0.0003461297	0.001951009	0.9806454	-0.1061089	0.01321593	-0.0008669104
2e+07	0.01564676	-0.005161402	0.960738	-0.2069174	0.0008960807	0.003848066	-9.433375e-05	-0.0002642168
	0.960738	-0.2069174	0.01561236	-0.005156877	-9.43597e-05	-0.0002641275	0.0008826599	0.003852507
	0.000896066	0.003848029	-9.436824e-05	-0.0002641464	0.01545399	-0.005075167	0.9608853	-0.2072248
	-9.432875e-05	-0.0002642533	0.0008826571	0.003852507	0.9608853	-0.2072248	0.01541643	-0.005069622
3e+07	0.0159596	-0.01058437	0.9318019	-0.3040057	0.001864249	0.005489001	-0.0001136211	-0.0003479838
	0.9318019	-0.3040057	0.01588397	-0.01056485	-0.0001136689	-0.0003479322	0.001835392	0.00550099
	0.001864245	0.005489001	-0.0001136707	-0.0003479318	0.0158179	-0.0104818	0.9318415	-0.3044314
	-0.0001136236	-0.0003479873	0.001835392	0.005500992	0.9318415	-0.3044314	0.01573551	-0.01045945
4e+07	0.01477482	-0.016166	0.8936193	-0.3970545	0.003174724	0.006844862	-0.0001749729	-0.0004060215
	0.8936193	-0.3970545	0.01464587	-0.01611678	-0.0001750656	-0.0004059338	0.003126344	0.006870141
	0.003174729	0.006844861	-0.0001750618	-0.0004059338	0.01467321	-0.01606749	0.8935409	-0.397568
	-0.0001749643	-0.0004060168	0.003126345	0.006870142	0.8935409	-0.397568	0.01453283	-0.01601244
5e+07	0.01228439	-0.02148744	0.8465253	-0.4853352	0.004707269	0.007884192	-0.0002267347	-0.000468522
	0.8465253	-0.4853352	0.01209474	-0.02138985	-0.0002268376	-0.0004683589	0.004637148	0.00792967
	0.004707272	0.007884191	-0.0002268355	-0.0004683599	0.01221254	-0.02140429	0.846319	-0.4859114
	-0.0002267284	-0.0004685218	0.004637149	0.007929671	0.846319	-0.4859114	0.01200614	-0.02129608
6e+07	0.008668601	-0.02625314	0.7910002	-0.5680652	0.006391909	0.008571782	-0.0002802127	-0.0005435019
	0.7910002	-0.5680652	0.008416882	-0.02608662	-0.0002802912	-0.0005432551	0.006299894	0.008644947
	0.006391908	0.008571784	-0.0002802915	-0.0005432544	0.00861643	-0.02619199	0.7906583	-0.56868
	-0.0002802182	-0.0005435006	0.006299895	0.008644947	0.7906583	-0.56868	0.008342652	-0.02600815
7e+07	0.004122751	-0.03023731	0.7276299	-0.6444816	0.008152068	0.008886611	-0.0003472129	-0.0006329019
	0.7276299	-0.6444816	0.003813449	-0.0299813	-0.0003472417	-0.0006325718	0.008040147	0.008994984
	0.008152066	0.008886616	-0.000347243	-0.0006325686	0.004080372	-0.03020166	0.7271472	-0.6451109
	-0.0003472275	-0.0006328924	0.008040148	0.008994984	0.7271472	-0.6451109	0.003744259	-0.02991987
8e+07	-0.001138471	-0.03326975	0.657087	-0.7138715	0.009908256	0.008823594	-0.0004388832	-0.0007336284
	0.657087	-0.7138715	-0.001495383	-0.03290504	-0.0004388398	-0.000733214	0.009780523	0.008974193
	0.009908255	0.008823601	-0.0004388404	-0.0007332096	-0.001180695	-0.03326069	0.6564615	-0.7144908
	-0.0004388986	-0.0007336111	0.009780524	0.008974192	0.6564615	-0.7144908	-0.001568243	-0.03286013
9e+07	-0.006882553	-0.03523116	0.580116	-0.7755896	0.01158168	0.008394076	-0.0005645214	-0.0008382566
	0.580116	-0.7755896	-0.007272047	-0.03474104	-0.0005643781	-0.000837757	0.01144418	0.008592892
	0.01158168	0.008394081	-0.0005643779	-0.0008377536	-0.006934134	-0.03524792	0.5793497	-0.776174
	-0.00056453	-0.0008382403	0.01144418	0.008592891	0.5793497	-0.776174	-0.007356782	-0.03471043
1e+08	-0.01284912	-0.03604287	0.4975006	-0.8290801	0.01309768	0.007624908	-0.0007301702	-0.0009353816
	0.4975006	-0.8290801	-0.01325166	-0.03541433	-0.0007298922	-0.0009348012	0.01295814	0.007876424
	0.01309768	0.007624908	-0.0007298922	-0.0009348013	-0.01292182	-0.03608462	0.4966029	-0.8296032
	-0.0007301702	-0.0009353817	0.01295814	0.007876424	0.4966029	-0.8296032	-0.01335831	-0.03539594
1.1e+08	-0.01879244	-0.03580665	0.4100982	-0.8737117	0.01438745	0.006561035	-0.0009369385	-0.001014545
	0.4100982	-0.8737117	-0.0191841	-0.03503198	-0.0009364923	-0.001013953	0.0142549	0.006867733
	0.01438745	0.006561035	-0.0009364922	-0.001013953	-0.01889772	-0.03585439	0.4090832	-0.8741679
	-0.0009369384	-0.001014545	0.01425489	0.006867733	0.4090832	-0.8741679	-0.01932172	-0.03500627
1.2e+08	-0.02458901	-0.03447912	0.3189483	-0.9091739	0.01539845	0.005258184	-0.00118682	-0.001061768
	0.3189483	-0.9091739	-0.02494417	-0.03355606	-0.001186197	-0.001061214	0.01528263	0.005620331
	0.01539845	0.005258185	-0.001186197	-0.001061214	-0.02472185	-0.03452315	0.3178149	-0.9095474
	-0.00118682	-0.001061768	0.01528263	0.005620332	0.3178149	-0.9095474	-0.02510536	-0.03351327
1.3e+08	-0.02999715	-0.03210802	0.2249636	-0.9351963	0.01608813	0.003780632	-0.001473793	-0.001062164
	0.2249636	-0.9351963	-0.03028915	-0.03104075	-0.001473	-0.0010617	0.01599903	0.004196081
	0.01608813	0.003780632	-0.001473	-0.0010617	-0.03015453	-0.03214175	0.2237172	-0.9354681
	-0.001473793	-0.001062164	0.01599903	0.004196082	0.2237172	-0.9354681	-0.0304685	-0.03097482
1.4e+08	-0.03481455	-0.02879768	0.1290976	-0.9515853	0.01642867	0.002200178	-0.001787707	-0.001003089
	0.1290976	-0.9515853	-0.03501738	-0.027597	-0.001786767	-0.001002763	0.01637591	0.002664308
	0.01642867	0.002200178	-0.001786767	-0.001002763	-0.03499309	-0.02881565	0.1277471	-0.9517366
	-0.001787706	-0.001003089	0.01637591	0.002664309	0.1277471	-0.9517366	-0.03520917	-0.02750363
1.5e+08	-0.0388697	-0.02469029	0.03231617	-0.9582396	0.01640789	0.0005924397	-0.002114752	-0.0008748621
	0.03231617	-0.9582396	-0.03895958	-0.02337348	-0.002113705	-0.0008747164	0.01640013	0.001098236
	0.01640789	0.0005924399	-0.002113705	-0.0008747164	-0.0390654	-0.02468801	0.03087368	-0.9582524
	-0.002114751	-0.0008748622	0.01640013	0.001098236	0.03087368	-0.9582524	-0.03915773	-0.02324988
1.6e+08	-0.04202592	-0.01995782	-0.06441311	-0.9551515	0.01602954	-0.0009665051	-0.002438425	-0.0006717088
	-0.06441311	-0.9551515	-0.04198284	-0.01854805	-0.002437323	-0.0006717705	0.01607393	-0.0004282263
	0.01602954	-0.0009665049	-0.002437323	-0.0006717705	-0.04223418	-0.01993174	-0.06593274	-0.9550091
	-0.002438425	-0.0006717089	0.01607393	-0.0004282257	-0.06593274	-0.9550091	-0.04218106	-0.01839292
1.7e+08	-0.0441852	-0.01479398	-0.1601308	-0.9424058	0.01531298	-0.002403386	-0.002740743	-0.0003923905
	-0.1601308	-0.9424058	-0.04399436	-0.01331949	-0.002739643	-0.0003926701	0.01541457	-0.001843615
	0.01531298	-0.002403386	-0.002739643	-0.0003926703	-0.04440094	-0.0147416	-0.1617102	-0.9420933
	-0.002740743	-0.0003923906	0.01541457	-0.001843614	-0.1617102	-0.9420933	-0.04418637	-0.01313297
1.8e+08	-0.04529077	-0.009406094	-0.2538938	-0.9201781	0.01429208	-0.003650817	-0.003003582	-4.046557e-05
	-0.2538938	-0.9201781	-0.04494375	-0.007898903	-0.003002546	-4.095463e-05	0.01445346	-0.00308187
	0.01429208	-0.003650817	-0.003002546	-4.095474e-05	-0.0455086	-0.009325982	-0.2555134	-0.9196825
	-0.003003582	-4.046569e-05	0.01445346	-0.00308187	-0.2555134	-0.9196825	-0.04512355	-0.007682576
1.9e+08	-0.04532831	-0.004006672	-0.3447837	-0.8887324	0.01301372	-0.004650072	-0.003210034	0.000375852
	-0.3447837	-0.8887324	-0.04482396	-0.002501177	-0.003209116	0.0003751813	0.01323465	-0.004085018
	0.01301372	-0.004650072	-0.003209116	0.0003751812	-0.04554267	-0.003898516	-0.346422	-0.8880429
	-0.003210034	0.0003758519	0.01323465	-0.004085018	-0.346422	-0.8880429	-0.0449861	-0.002257893
2e+08	-0.04432558	0.001194851	-0.4319139	-0.8484177	0.01153566	-0.005353478	-0.003345648	0.0008442143
	-0.4319139	-0.8484177	-0.04367062	0.002663578	-0.003344893	0.0008434069	0.01181293	-0.004805487
	0.01153566	-0.005353478	-0.003344893	0.0008434069	-0.04453099	0.001330233	-0.4335475	-0.8475263
	-0.003345648	0.0008442142	0.01181293	-0.004805486	-0.4335475	-0.8475263	-0.04381044	0.002929817
2.1e+08	-0.04235062	0.006000134	-0.5144368	-0.799665	0.009924088	-0.005726335	-0.003399465	0.001348991
	-0.5144368	-0.799665	-0.04155981	0.007398138	-0.0033989	0.001348105	0.01025145	-0.005207991
	0.009924088	-0.005726335	-0.0033989	0.001348105	-0.04254186	0.006160827	-0.5160413	-0.7985663
	-0.003399465	0.001348991	0.01025145	-0.005207991	-0.5160413	-0.7985663	-0.04167364	0.007682376
2.2e+08	-0.03950849	0.01022938	-0.5915512	-0.7429835	0.008250802	-0.005748309	-0.003364754	0.001872374
	-0.5915512	-0.7429835	-0.0386044	0.01152565	-0.003364388	0.001871473	0.008619118	-0.005270926
	0.008250802	-0.005748309	-0.003364388	0.001871473	-0.03968081	0.01041243	-0.5931009	-0.7416751
	-0.003364754	0.001872374	0.008619118	-0.005270927	-0.5931009	-0.7416751	-0.03868976	0.01182222
2.3e+08	-0.0359367	0.01372798	-0.6625084	-0.6789561	0.006590206	-0.005414263	-0.003239398	0.00239563
	-0.6625084	-0.6789561	-0.0349491	0.01489622	-0.003239214	0.002394779	0.006987712	-0.004987221
	0.006590206	-0.005414263	-0.003239214	0.002394779	-0.03608602	0.01392952	-0.6639771	-0.6774387
	-0.003239398	0.00239563	0.006987712	-0.004987221	-0.6639771	-0.6774387	-0.03500481	0.015199
2.4e+08	-0.03179958	0.01637217	-0.7266192	-0.608235	0.005016189	-0.004734471	-0.003025893	0.002900403
	-0.7266192	-0.608235	-0.0307644	0.01739244	-0.003025856	0.002899659	0.005428928	-0.004364627
	0.005016189	-0.004734471	-0.003025856	0.002899659	-0.03192264	0.01658754	-0.7279802	-0.6065123
	-0.003025893	0.002900403	0.005428928	-0.004364627	-0.7279802	-0.6065123	-0.03079063	0.01769515
2.5e+08	-0.02728161	0.01807346	-0.7832597	-0.5315365	0.003599015	-0.003734231	-0.002730986	0.003369941
	-0.7832597	-0.5315365	-0.02623954	0.01893358	-0.00273104	0.003369345	0.00401139	-0.003425421
	0.003599015	-0.003734231	-0.00273104	0.003369345	-0.02737614	0.01829738	-0.7844863	-0.5296156
	-0.002730986	0.003369941	0.00401139	-0.003425421	-0.7844863	-0.5296156	-0.02623786	0.01923007
2.6e+08	-0.02258009	0.01878181	-0.8318778	-0.4496351	0.002402329	-0.002452857	-0.002364972	0.003790153
	-0.8318778	-0.4496351	-0.02157488	0.01947841	-0.002365049	0.003789727	0.002797768	-0.002205529
	0.002402329	-0.002452857	-0.002365049	0.003789727	-0.02264492	0.01900854	-0.8329439	-0.4475261
	-0.002364972	0.003790153	0.002797768	-0.002205529	-0.8329439	-0.4475261	-0.02154819	0.01976292
2.7e+08	-0.01789741	0.01848704	-0.871999	-0.3633571	0.001480401	-0.0009420911	-0.001940727	0.004150396
	-0.871999	-0.3633571	-0.01697395	0.01902633	-0.001940752	0.004150136	0.001842096	-0.0007530803
	0.001480401	-0.0009420911	-0.001940752	0.004150136	-0.01793253	0.01871071	-0.8728789	-0.3610736
	-0.001940727	0.004150396	0.001842096	-0.0007530803	-0.8728789	-0.3610736	-0.01692635	0.01929383
2.8e+08	-0.01343306	0.01721913	-0.9032315	-0.2735734	0.0008757222	0.0007360294	-0.001472572	0.004443945
	-0.9032315	-0.2735734	-0.01263529	0.01761713	-0.001472473	0.00444382	0.001187419	0.0008735584
	0.0008757222	0.0007360293	-0.001472473	0.00444382	-0.01343966	0.01743389	-0.9039008	-0.2711322
	-0.001472572	0.004443945	0.001187419	0.0008735584	-0.9039008	-0.2711322	-0.01257192	0.01786355
2.9e+08	-0.009375916	0.01504668	-0.9252713	-0.1811916	0.0006170603	0.002511773	-0.000975063	0.004668086
	-0.9252713	-0.1811916	-0.008744648	0.01532907	-0.0009747797	0.004668042	0.0008638547	0.002608217
	0.0006170603	0.002511773	-0.0009747797	0.004668042	-0.00935634	0.01524697	-0.925707	-0.1786125
	-0.000975063	0.004668086	0.0008638547	0.002608217	-0.925707	-0.1786125	-0.008671461	0.01555151
3e+08	-0.005896804	0.01207397	-0.9379063	-0.08714731	0.0007180773	0.004310696	-0.0004618327	0.004823857
	-0.9379063	-0.08714731	-0.005467627	0.01227542	-0.0004613246	0.004823817	0.0008871885	0.004379728
	0.0007180772	0.004310696	-0.0004613246	0.004823817	-0.005854514	0.01225473	-0.9380874	-0.08445326
	-0.0004618327	0.004823857	0.0008871885	0.004379728	-0.9380874	-0.08445326	-0.005391144	0.01247228
3.1e+08	-0.003141917	0.00843659	-0.9410195	0.007605169	0.001176582	0.006056877	5.541956e-05	0.004915445
	-0.9410195	0.007605169	-0.002943226	0.008599689	5.616685e-05	0.004915318	0.001258062	0.006114997
	0.001176582	0.006056877	5.616686e-05	0.004915318	-0.003081374	0.0085935	-0.9409271	0.01038837
	5.541958e-05	0.004915445	0.001258062	0.006114997	-0.9409271	0.01038837	-0.002870237	0.008770785
3.2e+08	-0.001227176	0.004295932	-0.9345913	0.1021028	0.001974481	0.007676277	0.0005676897	0.004949324
	-0.9345913	0.1021028	-0.001278446	0.0044696	0.0005686601	0.004949016	0.001961827	0.007742213
	0.001974481	0.007676277	0.0005686601	0.004949016	-0.001153685	0.004425595	-0.9342094	0.1049467
	0.0005676897	0.004949324	0.001961827	0.007742213	-0.9342094	0.1049467	-0.001215713	0.004616213
3.3e+08	-0.0002338096	-0.0001674252	-0.9187009	0.1953842	0.003078446	0.009100071	0.001069116	0.00493321
	-0.9187009	0.1953842	-0.0005442151	7.017984e-05	0.001070261	0.004932629	0.002969081	0.009194046
	0.003078446	0.009100071	0.001070261	0.004932629	-0.00015333	-6.731449e-05	-0.9180162	0.198258
	0.001069116	0.00493321	0.002969081	0.009194046	-0.9180162	0.198258	-0.000498155	0.0001950172
3.4e+08	-0.0002053428	-0.004760989	-0.8935257	0.2865004	0.004441284	0.01026778	0.001557069	0.004874938
	-0.8935257	0.2865004	-0.0007727856	-0.004403845	0.001558312	0.004874009	0.004236886	0.01041068
	0.004441284	0.01026778	0.001558312	0.004874009	-0.000124261	-0.004691521	-0.8925284	0.2893711
	0.001557069	0.004874938	0.004236886	0.01041068	-0.8925284	0.2893711	-0.0007491763	-0.004296735
3.5e+08	-0.001146104	-0.009288101	-0.85934	0.3745252	0.006003973	0.01113008	0.00203189	0.00478139
	-0.85934	0.3745252	-0.001956728	-0.008755997	0.002033126	0.004780061	0.005710623	0.01134255
	0.006003973	0.01113008	0.002033126	0.004780061	-0.001070985	-0.009249073	-0.858024	0.3773582
	0.00203189	0.00478139	0.005710623	0.01134255	-0.858024	0.3773582	-0.001960429	-0.008661378
3.6e+08	-0.003021304	-0.01355579	-0.8165123	0.4585661	0.007698264	0.01165108	0.00249629	0.004657562
	-0.8165123	0.4585661	-0.004049528	-0.01279599	0.002497402	0.004655815	0.007326399	0.01195258
	0.007698264	0.01165108	0.002497402	0.004655815	-0.002958629	-0.01354568	-0.8148752	0.4613254
	0.00249629	0.004657562	0.007326399	0.01195258	-0.8148752	0.4613254	-0.00408424	-0.01270765
3.7e+08	-0.005758687	-0.01738244	-0.7655009	0.5377742	0.00944973	0.01181003	0.002954499	0.004505889
	-0.7655009	0.5377742	-0.00696778	-0.01634741	0.002955361	0.004503741	0.009013905	0.01221794
	0.00944973	0.01181003	0.002955361	0.004503741	-0.005714582	-0.01739843	-0.7635445	0.540423
	0.002954499	0.004505889	0.009013905	0.01221794	-0.7635445	0.540423	-0.007035851	-0.01625841
3.8e+08	-0.009251648	-0.02060492	-0.7068483	0.6113539	0.01118113	0.01160233	0.003411233	0.004325872
	-0.7068483	0.6113539	-0.01059484	-0.01925465	0.003411723	0.004323378	0.01069957	0.01213104
	0.01118113	0.01160233	0.003411723	0.004323378	-0.009231632	-0.02064298	-0.7045789	0.613855
	0.003411233	0.004325872	0.01069957	0.01213104	-0.7045789	0.613855	-0.01069713	-0.01915763
3.9e+08	-0.01336371	-0.02308493	-0.6411752	0.6785714	0.01281588	0.01103971	0.003870595	0.004114064
	-0.6411752	0.6785714	-0.01478579	-0.02138911	0.003870612	0.004111316	0.01230988	0.01169988
	0.01281588	0.01103971	0.003870612	0.004111316	-0.01337245	-0.02313995	-0.6386032	0.6808878
	0.003870595	0.004114064	0.01230988	0.01169988	-0.6386032	0.6808878	-0.01492161	-0.0212766
4e+08	-0.01793412	-0.02471433	-0.5691723	0.7387626	0.01428156	0.0101498	0.00433503	0.003864415
	-0.5691723	0.7387626	-0.01937351	-0.02265405	0.004334498	0.003861533	0.01377464	0.01094767
	0.01428156	0.0101498	0.004334498	0.003861533	-0.01797523	-0.02478031	-0.5663127	0.7408579
	0.00433503	0.003864415	0.01377464	0.01094767	-0.5663127	0.7408579	-0.01954061	-0.02251882
4.1e+08	-0.02278439	-0.02541915	-0.4915923	0.7913399	0.0155131	0.008974793	0.004804433	0.003568931
	-0.4915923	0.7913399	-0.02417554	-0.02298827	0.004803313	0.003566058	0.01503016	0.009911753
	0.0155131	0.008974793	0.004803313	0.003566058	-0.02286023	-0.02548942	-0.4884643	0.7931789
	0.004804433	0.003568931	0.01503016	0.009911753	-0.4884643	0.7931789	-0.02437016	-0.02282362
4.2e+08	-0.02772538	-0.02516232	-0.4092408	0.8357973	0.01645574	0.007569578	0.0052755	0.003218606
	-0.4092408	0.8357973	-0.02900148	-0.02236825	0.005273797	0.003215891	0.01602195	0.00864186
	0.01645574	0.007569578	0.005273797	0.003215891	-0.02783699	-0.02522979	-0.405868	0.8373467
	0.0052755	0.003218606	0.01602195	0.00864186	-0.405868	0.8373467	-0.02921853	-0.02216835
4.3e+08	-0.03256485	-0.02394485	-0.322967	0.8717153	0.01706738	0.005999253	0.005741413	0.002804508
	-0.322967	0.8717153	-0.03366064	-0.02080879	0.005739171	0.002802098	0.01670715	0.007197886
	0.01706738	0.005999253	0.005739171	0.002802098	-0.03271182	-0.02400228	-0.3193773	0.8729441
	0.005741413	0.002804508	0.01670715	0.007197886	-0.3193773	0.8729441	-0.03389385	-0.02056892
4.4e+08	-0.03711494	-0.02180555	-0.2336544	0.8987634	0.01732044	0.004336221	0.006191857	0.002318943
	-0.2336544	0.8987634	-0.03796959	-0.0183621	0.006189166	0.002316967	0.01705631	0.005647202
	0.01732044	0.004336221	0.006189166	0.002316967	-0.03729543	-0.02184586	-0.2298791	0.8996433
	0.006191857	0.002318943	0.01705631	0.005647202	-0.2298791	0.8996433	-0.03821181	-0.01807891
4.5e+08	-0.04119943	-0.01881934	-0.1422109	0.9167027	0.01720295	0.002656998	0.006613421	0.001756568
	-0.1422109	0.9167027	-0.04175935	-0.01511554	0.006610402	0.001755124	0.01705454	0.004061695
	0.01720295	0.002656998	0.006610402	0.001755124	-0.04141022	-0.01883586	-0.1382851	0.9172087
	0.006613421	0.001756568	0.01705454	0.004061695	-0.1382851	0.9172087	-0.04200279	-0.01478719
4.6e+08	-0.04466059	-0.0150941	-0.04955956	0.9253865	0.01671907	0.00103888	0.006990305	0.001115344
	-0.04955956	0.9253865	-0.04488191	-0.01118791	0.006987106	0.001114494	0.01670212	0.002514658
	0.01671907	0.00103888	0.006987106	0.001114494	-0.04489718	-0.01508087	-0.0455215	0.9254972
	0.006990305	0.001115344	0.01670212	0.002514658	-0.0455215	0.9254972	-0.04511856	-0.0108142
4.7e+08	-0.04736507	-0.01076639	0.04337062	0.9247603	0.01588877	-0.0004433796	0.007305315	0.000397254
	0.04337062	0.9247603	-0.04721595	-0.00672458	0.007302093	0.0003970115	0.01601435	0.001077665
	0.01588877	-0.0004433796	0.007302093	0.0003970115	-0.04762182	-0.0107184	0.04748005	0.9244587
	0.007305315	0.000397254	0.01601435	0.001077665	0.04748005	0.9244587	-0.04743781	-0.006306961
4.8e+08	-0.04920905	-0.00599607	0.1356535	0.9148613	0.01474702	-0.001720747	0.007541024	-0.0003913046
	0.1356535	0.9148613	-0.04867139	-0.001891744	0.007537934	-0.0003909709	0.01502081	-0.0001824339
	0.01474702	-0.001720747	0.007537934	-0.0003909709	-0.04947934	-0.005909443	0.1397912	0.9141344
	0.007541024	-0.0003913045	0.01502081	-0.0001824339	0.1397912	0.9141344	-0.04887085	-0.001433286
4.9e+08	-0.05012205	-0.0009600661	0.2263746	0.8958166	0.01334217	-0.002732805	0.007681024	-0.001239472
	0.2263746	0.8958166	-0.04919275	0.003130211	0.007678205	-0.001238639	0.01376412	-0.001206286
	0.01334217	-0.002732805	0.007678205	-0.001238639	-0.05039857	-0.00083229	0.2304956	0.8946563
	0.007681024	-0.001239472	0.01376412	-0.001206286	0.2304956	0.8946563	-0.04936292	0.003624913
5e+08	-0.05006959	0.004154441	0.3146387	0.867841	0.01173398	-0.003430275	0.007711153	-0.002132254
	0.3146387	0.867841	-0.04876121	0.008153748	0.007708713	-0.002131036	0.01229808	-0.001944474
	0.01173398	-0.003430275	0.007708713	-0.002131036	-0.05034459	0.00432441	0.318697	0.8662439
	0.007711153	-0.002132254	0.01229808	-0.001944474	0.318697	0.8662439	-0.04889624	0.008678736
