!$
! Info: Touchstone file created by Circ.  Input file=Tx_10in_Rx_93ohms_TxVia_60mils_RxVia_70mils.circ
!$
# Hz S RI R 50
0	0.009242253	1.402603e-25	-5.392106e-05	7.473247e-24	7.336234e-05	1.822107e-23	-5.395699e-05	1.20114e-23
	-5.392105e-05	7.472562e-24	0.00923751	1.647461e-25	-5.38835e-05	2.997915e-24	7.356788e-05	2.249485e-23
	7.434315e-05	1.854048e-23	-5.388349e-05	2.996725e-24	0.00925619	1.342765e-25	-5.39149e-05	6.982e-24
	-5.395697e-05	1.201015e-23	7.383749e-05	2.259131e-23	-5.39149e-05	6.982619e-24	0.009251926	1.640221e-25
1e+07	0.01369462	-0.0002728573	-0.0002662636	-6.370028e-05	0.0003334426	0.00179074	-0.0001444003	0.0001294679
	-0.0002662636	-6.370028e-05	0.01347761	-0.0008652435	-3.559945e-06	-8.112119e-06	0.0003461271	0.001951011
	0.0003334517	0.001790707	-3.559947e-06	-8.112116e-06	0.01275119	-0.0007533471	-1.490102e-05	8.773674e-07
	-0.0001444003	0.0001294679	0.0003461297	0.001951009	-1.490102e-05	8.773648e-07	0.01321593	-0.0008669104
2e+07	0.01644875	-0.004323193	-0.000270564	1.678188e-05	0.0009725176	0.00355293	-0.0001750083	0.0001548297
	-0.000270564	1.678188e-05	0.01561236	-0.005156877	-4.434968e-06	-4.650311e-06	0.0008826599	0.003852507
	0.0009724906	0.003552929	-4.434965e-06	-4.650311e-06	0.01519532	-0.00472677	-6.370687e-06	-2.605888e-05
	-0.0001750083	0.0001548297	0.0008826571	0.003852507	-6.37069e-06	-2.605887e-05	0.01541643	-0.005069622
3e+07	0.01720793	-0.009814657	-0.0002703606	6.28908e-05	0.001939431	0.005139313	-0.0001880903	0.0001832235
	-0.0002703606	6.28908e-05	0.01588397	-0.01056485	-1.021699e-05	-6.273656e-06	0.001835392	0.00550099
	0.001939429	0.005139317	-1.021699e-05	-6.273657e-06	0.01573215	-0.0100763	-2.307427e-05	-2.993322e-05
	-0.0001880903	0.0001832235	0.001835392	0.005500992	-2.307427e-05	-2.993322e-05	0.01573551	-0.01045945
4e+07	0.016364	-0.01559351	-0.0002647276	0.0001048869	0.00319348	0.006484172	-0.0001911597	0.0002071312
	-0.0002647276	0.0001048869	0.01464587	-0.01611678	-1.472645e-05	-5.105834e-06	0.003126344	0.006870141
	0.00319348	0.006484168	-1.472645e-05	-5.105834e-06	0.01473361	-0.01566272	-3.747746e-05	-2.737518e-05
	-0.0001911597	0.0002071312	0.003126345	0.006870142	-3.747746e-05	-2.737518e-05	0.01453283	-0.01601244
5e+07	0.01411828	-0.02119171	-0.0002546243	0.0001435733	0.004676925	0.0075322	-0.0001881313	0.0002255286
	-0.0002546243	0.0001435733	0.01209474	-0.02138985	-1.812597e-05	-2.458948e-06	0.004637148	0.00792967
	0.004676923	0.007532198	-1.812597e-05	-2.458947e-06	0.01239485	-0.02103641	-4.956093e-05	-2.057939e-05
	-0.0001881313	0.0002255286	0.004637149	0.007929671	-4.956093e-05	-2.057939e-05	0.01200614	-0.02129608
6e+07	0.01065398	-0.02628437	-0.0002512151	0.0001637476	0.006321288	0.008242839	-0.0001822614	0.0002379422
	-0.0002512151	0.0001637476	0.008416882	-0.02608662	-2.051084e-05	1.220123e-06	0.006299894	0.008644947
	0.00632129	0.008242842	-2.051084e-05	1.220123e-06	0.008896378	-0.02588648	-5.906534e-05	-1.054665e-05
	-0.0001822614	0.0002379422	0.006299895	0.008644947	-5.906534e-05	-1.054665e-05	0.008342652	-0.02600815
7e+07	0.006167605	-0.03062391	-0.0002460846	0.0001845782	0.008051512	0.008591622	-0.0001765512	0.0002441787
	-0.0002460846	0.0001845782	0.003813449	-0.0299813	-2.180042e-05	5.563988e-06	0.008040147	0.008994984
	0.008051522	0.008591627	-2.180042e-05	5.563988e-06	0.004432926	-0.02997677	-6.562046e-05	2.024344e-06
	-0.0001765512	0.0002441787	0.008040148	0.008994984	-6.562045e-05	2.024344e-06	0.003744259	-0.02991987
8e+07	0.0008741138	-0.03402281	-0.0002393548	0.0002056061	0.009789848	0.008571038	-0.0001742055	0.0002445386
	-0.0002393548	0.0002056061	-0.001495383	-0.03290504	-2.193403e-05	1.035923e-05	0.009780523	0.008974193
	0.009789862	0.008571041	-2.193403e-05	1.035923e-05	-0.0007816708	-0.033129	-6.879517e-05	1.652865e-05
	-0.0001742055	0.0002445386	0.009780524	0.008974192	-6.879517e-05	1.652864e-05	-0.001568243	-0.03286013
9e+07	-0.004997151	-0.03634919	-0.0002314947	0.0002262651	0.01146034	0.008191105	-0.0001791135	0.0002395077
	-0.0002314947	0.0002262651	-0.007272047	-0.03474104	-2.077259e-05	1.546381e-05	0.01144418	0.008592892
	0.01146035	0.008191105	-2.077259e-05	1.546382e-05	-0.006516813	-0.03521782	-6.803222e-05	3.244022e-05
	-0.0001791135	0.0002395077	0.01144418	0.008592891	-6.803222e-05	3.244022e-05	-0.007356782	-0.03471043
1e+08	-0.01122367	-0.03753385	-0.000225213	0.0002448188	0.01300066	0.007484083	-0.0002015881	0.0002262699
	-0.000225213	0.0002448188	-0.01325166	-0.03541433	-1.763165e-05	2.103586e-05	0.01295814	0.007876424
	0.01300066	0.007484083	-1.763165e-05	2.103586e-05	-0.01252601	-0.03616653	-6.15757e-05	4.992806e-05
	-0.0002015881	0.0002262699	0.01295814	0.007876424	-6.15757e-05	4.992806e-05	-0.01335831	-0.03539594
1.1e+08	-0.01756363	-0.03743772	-0.0002113014	0.0002544371	0.01429954	0.006517109	-0.0002128875	0.0001868651
	-0.0002113014	0.0002544371	-0.0191841	-0.03503198	-1.246815e-05	2.360132e-05	0.0142549	0.006867733
	0.01429954	0.006517109	-1.246815e-05	2.360132e-05	-0.01856457	-0.03599037	-4.926609e-05	6.046082e-05
	-0.0002128875	0.0001868651	0.01425489	0.006867733	-4.926609e-05	6.046082e-05	-0.01932172	-0.03500627
1.2e+08	-0.02367785	-0.03615084	-0.0001921995	0.0002659149	0.01531507	0.00528979	-0.0002214903	0.0001588588
	-0.0001921995	0.0002659149	-0.02494417	-0.03355606	-8.158042e-06	2.488109e-05	0.01528263	0.005620331
	0.01531507	0.00528979	-8.158042e-06	2.488109e-05	-0.02443383	-0.0346914	-3.785949e-05	6.763009e-05
	-0.0002214903	0.0001588588	0.01528263	0.005620332	-3.785949e-05	6.763009e-05	-0.02510536	-0.03351327
1.3e+08	-0.02936371	-0.03376633	-0.0001705533	0.0002767988	0.01601507	0.003876205	-0.0002348162	0.0001377392
	-0.0001705533	0.0002767988	-0.03028915	-0.03104075	-4.161648e-06	2.543526e-05	0.01599903	0.004196081
	0.01601507	0.003876205	-4.161648e-06	2.543526e-05	-0.02990566	-0.03233236	-2.624096e-05	7.253116e-05
	-0.0002348162	0.0001377392	0.01599903	0.004196082	-2.624096e-05	7.253116e-05	-0.0304685	-0.03097482
1.4e+08	-0.03442478	-0.03040335	-0.0001470615	0.0002862495	0.01637238	0.002349712	-0.000253342	0.000123865
	-0.0001470615	0.0002862495	-0.03501738	-0.027597	-2.419559e-06	2.50386e-05	0.01637591	0.002664308
	0.01637238	0.002349712	-2.419559e-06	2.50386e-05	-0.03477953	-0.02902183	-1.445902e-05	7.53217e-05
	-0.000253342	0.000123865	0.01637591	0.002664309	-1.445902e-05	7.53217e-05	-0.03520917	-0.02750363
1.5e+08	-0.0386916	-0.02621381	-0.0001222577	0.0002937448	0.01637411	0.0007862828	-0.0002762107	0.000118184
	-0.0001222577	0.0002937448	-0.03895958	-0.02337348	-6.694479e-07	2.458021e-05	0.01640013	0.001098236
	0.01637411	0.0007862828	-6.694479e-07	2.458021e-05	-0.03888424	-0.02490459	-2.771673e-06	7.604397e-05
	-0.0002762107	0.000118184	0.01640013	0.001098236	-2.771673e-06	7.604397e-05	-0.03915773	-0.02324988
1.6e+08	-0.04202864	-0.02137716	-9.662333e-05	0.0002989849	0.01602281	-0.0007379471	-0.0003018521	0.0001215703
	-9.662333e-05	0.0002989849	-0.04198284	-0.01854805	1.084541e-06	2.404111e-05	0.01607393	-0.0004282263
	0.01602281	-0.0007379471	1.084541e-06	2.404111e-05	-0.04208301	-0.02015456	8.506472e-06	7.479315e-05
	-0.0003018521	0.0001215703	0.01607393	-0.0004282257	8.506472e-06	7.479315e-05	-0.04218106	-0.01839292
1.7e+08	-0.04433895	-0.01609335	-7.061703e-05	0.0003018226	0.01533637	-0.002149648	-0.0003282648	0.000134547
	-7.061703e-05	0.0003018226	-0.04399436	-0.01331949	2.814924e-06	2.340733e-05	0.01541457	-0.001843615
	0.01533637	-0.002149648	2.814924e-06	2.340733e-05	-0.04427764	-0.01496716	1.905126e-05	7.1728e-05
	-0.0003282648	0.000134547	0.01541457	-0.001843614	1.905126e-05	7.1728e-05	-0.04418637	-0.01313297
1.8e+08	-0.04556701	-0.01057505	-4.466599e-05	0.0003022363	0.01434713	-0.003381242	-0.0003532275	0.0001571462
	-4.466599e-05	0.0003022363	-0.04494375	-0.007898903	4.500779e-06	2.267398e-05	0.01445346	-0.00308187
	0.01434713	-0.003381242	4.500779e-06	2.267398e-05	-0.0454112	-0.009551224	2.856533e-05	6.707676e-05
	-0.0003532275	0.0001571462	0.01445346	-0.00308187	2.856533e-05	6.707676e-05	-0.04512355	-0.007682576
1.9e+08	-0.04569995	-0.005039399	-1.915046e-05	0.0003003076	0.01310039	-0.004373624	-0.0003744931	0.0001888514
	-1.915046e-05	0.0003003076	-0.04482396	-0.002501177	6.126123e-06	2.184193e-05	0.01323465	-0.004085018
	0.01310039	-0.004373624	6.126123e-06	2.184193e-05	-0.04546931	-0.004120713	3.680591e-05	6.112933e-05
	-0.0003744931	0.0001888514	0.01323465	-0.004085018	3.680591e-05	6.112933e-05	-0.0449861	-0.002257893
2e+08	-0.04476729	0.000300156	5.61149e-06	0.0002961985	0.01165245	-0.005078521	-0.0003899653	0.0002286038
	5.61149e-06	0.0002961985	-0.04367062	0.002663578	7.679226e-06	2.091549e-05	0.01181293	-0.004805487
	0.01165245	-0.005078521	7.679226e-06	2.091549e-05	-0.04447978	0.00111357	4.360459e-05	5.422059e-05
	-0.0003899653	0.0002286038	0.01181293	-0.004805486	4.360459e-05	5.422059e-05	-0.04381044	0.002929817
2.1e+08	-0.04283912	0.005242537	2.937486e-05	0.0002901269	0.01006334	-0.005472333	-0.000397857	0.0002748616
	2.937486e-05	0.0002901269	-0.04155981	0.007398138	9.148964e-06	1.98951e-05	0.01025145	-0.005207991
	0.01006334	-0.005472333	9.148964e-06	1.98951e-05	-0.04251093	0.005952705	4.887437e-05	4.665432e-05
	-0.000397857	0.0002748616	0.01025145	-0.005207991	4.887437e-05	4.665432e-05	-0.04167364	0.007682376
2.2e+08	-0.04002231	0.009605123	5.197401e-05	0.0002823408	0.00840137	-0.005531059	-0.0003968116	0.000325702
	5.197401e-05	0.0002823408	-0.0386044	0.01152565	1.052862e-05	1.878779e-05	0.008619118	-0.005270926
	0.00840137	-0.005531059	1.052862e-05	1.878779e-05	-0.03966782	0.01021577	5.260156e-05	3.878185e-05
	-0.0003968116	0.000325702	0.008619118	-0.005270927	5.260156e-05	3.878185e-05	-0.03868976	0.01182222
2.3e+08	-0.03645643	0.01322989	7.332181e-05	0.0002730935	0.006746221	-0.005232693	-0.0003859908	0.0003789494
	7.332181e-05	0.0002730935	-0.0349491	0.01489622	1.181877e-05	1.760652e-05	0.006987712	-0.004987221
	0.00674622	-0.005232693	1.181877e-05	1.760652e-05	-0.03608824	0.01374604	5.488181e-05	3.100383e-05
	-0.0003859908	0.0003789494	0.006987712	-0.004987221	5.488181e-05	3.100383e-05	-0.03500481	0.015199
2.4e+08	-0.03230827	0.01599095	9.340146e-05	0.0002626207	0.005172269	-0.00458678	-0.0003651245	0.0004323298
	9.340146e-05	0.0002626207	-0.0307644	0.01739244	1.301788e-05	1.635555e-05	0.005428928	-0.004364627
	0.005172269	-0.00458678	1.301788e-05	1.635555e-05	-0.03193723	0.0164186	5.588968e-05	2.360521e-05
	-0.0003651245	0.0004323298	0.005428928	-0.004364627	5.588968e-05	2.360521e-05	-0.03079063	0.01769515
2.5e+08	-0.02776485	0.01779818	0.0001122538	0.0002511205	0.003750337	-0.00361796	-0.0003345087	0.0004836231
	0.0001122538	0.0002511205	-0.02623954	0.01893358	1.412449e-05	1.503757e-05	0.00401139	-0.003425421
	0.003750337	-0.00361796	1.412449e-05	1.503757e-05	-0.02740014	0.01814394	5.585817e-05	1.680206e-05
	-0.0003345087	0.0004836231	0.00401139	-0.003425421	5.585817e-05	1.680206e-05	-0.02623786	0.01923007
2.6e+08	-0.02302607	0.01860025	0.0001299592	0.0002387395	0.002544689	-0.002364987	-0.0002949602	0.0005308133
	0.0001299592	0.0002387395	-0.02157488	0.01947841	1.513612e-05	1.365396e-05	0.002797768	-0.002205529
	0.002544689	-0.002364987	1.513612e-05	1.365396e-05	-0.02267535	0.01887113	5.505634e-05	1.072869e-05
	-0.0002949602	0.0005308133	0.002797768	-0.002205529	5.505634e-05	1.072869e-05	-0.02154819	0.01976292
2.7e+08	-0.01829688	0.01838623	0.0001466177	0.0002255655	0.001610268	-0.0008791442	-0.0002477338	0.000572214
	0.0001466177	0.0002255655	-0.01697395	0.01902633	1.604895e-05	1.22056e-05	0.001842096	-0.0007530803
	0.001610268	-0.0008791442	1.604895e-05	1.22056e-05	-0.01796638	0.01858943	5.376364e-05	5.43231e-06
	-0.0002477338	0.000572214	0.001842096	-0.0007530803	5.376364e-05	5.43231e-06	-0.01692635	0.01929383
2.8e+08	-0.01377929	0.01718571	0.0001623265	0.0002116264	0.0009902795	0.0007778757	-0.0001944034	0.0006065691
	0.0001623265	0.0002116264	-0.01263529	0.01761713	1.685717e-05	1.069338e-05	0.001187419	0.0008735584
	0.0009902795	0.0007778757	1.685717e-05	1.069338e-05	-0.013474	0.01732842	5.224416e-05	8.750724e-07
	-0.0001944034	0.0006065691	0.001187419	0.0008735584	5.224416e-05	8.750724e-07	-0.01257192	0.01786355
2.9e+08	-0.009664577	0.01506723	0.0001771588	0.0001968952	0.0007142308	0.002536573	-0.0001367257	0.000633109
	0.0001771588	0.0001968952	-0.008744648	0.01532907	1.755298e-05	9.119164e-06	0.0008638547	0.002608217
	0.0007142308	0.002536573	1.755298e-05	9.119164e-06	-0.009388359	0.01515653	5.072213e-05	-3.055919e-06
	-0.0001367257	0.000633109	0.0008638547	0.002608217	5.072213e-05	-3.055919e-06	-0.008671461	0.01555151
3e+08	-0.006125847	0.01213538	0.000191146	0.0001813032	0.0007965338	0.004322612	-7.64944e-05	0.0006515672
	0.000191146	0.0001813032	-0.005467627	0.01227542	1.812692e-05	7.486525e-06	0.0008871885	0.004379728
	0.0007965338	0.004322612	1.812692e-05	7.486525e-06	-0.005881591	0.01217814	4.936176e-05	-6.531801e-06
	-7.64944e-05	0.0006515672	0.0008871885	0.004379728	4.936176e-05	-6.531801e-06	-0.005391144	0.01247228
3.1e+08	-0.00331139	0.008526366	0.000204265	0.0001647573	0.001235738	0.006060061	-1.539213e-05	0.000662155
	0.000204265	0.0001647573	-0.002943226	0.008599689	1.85684e-05	5.801495e-06	0.001258062	0.006114997
	0.001235738	0.006060061	1.85684e-05	5.801495e-06	-0.003101144	0.008529187	4.825308e-05	-9.759947e-06
	-1.539213e-05	0.000662155	0.001258062	0.006114997	4.825308e-05	-9.759947e-06	-0.002870237	0.008770785
3.2e+08	-0.001339015	0.00440244	0.000216431	0.0001471613	0.002014462	0.007674752	4.513322e-05	0.0006654917
	0.000216431	0.0001471613	-0.001278446	0.0044696	1.886645e-05	4.072919e-06	0.001961827	0.007742213
	0.002014462	0.007674752	1.886645e-05	4.072919e-06	-0.001164103	0.004371643	4.740498e-05	-1.295827e-05
	4.513322e-05	0.0006654917	0.001961827	0.007742213	4.740498e-05	-1.295827e-05	-0.001215713	0.004616213
3.3e+08	-0.0002916003	-5.471232e-05	0.0002274979	0.0001284375	0.00310004	0.009097616	0.0001039688	0.000662505
	0.0002274979	0.0001284375	-0.0005442151	7.017984e-05	1.901049e-05	2.312661e-06	0.002969081	0.009194046
	0.00310004	0.009097616	1.901049e-05	2.312661e-06	-0.0001527235	-0.0001131074	4.674676e-05	-1.632872e-05
	0.0001039688	0.000662505	0.002969081	0.009194046	4.674676e-05	-1.632872e-05	-0.000498155	0.0001950172
3.4e+08	-0.0002140622	-0.004651312	0.0002372666	0.0001085492	0.004445878	0.01026784	0.0001604063	0.0006543063
	0.0002372666	0.0001085492	-0.0007727856	-0.004403845	1.899125e-05	5.355807e-07	0.004236886	0.01041068
	0.004445878	0.01026784	1.899125e-05	5.355807e-07	-0.0001113782	-0.004731579	4.613777e-05	-2.003268e-05
	0.0001604063	0.0006543063	0.004236886	0.01041068	4.613777e-05	-2.003268e-05	-0.0007491763	-0.004296735
3.5e+08	-0.001111847	-0.009189277	0.0002454989	8.751778e-05	0.005993468	0.01113565	0.0002141601	0.0006420529
	0.0002454989	8.751778e-05	-0.001956728	-0.008755997	1.880142e-05	-1.240759e-06	0.005710623	0.01134255
	0.005993468	0.01113565	1.880142e-05	-1.240759e-06	-0.001045026	-0.009285964	4.538438e-05	-2.417016e-05
	0.0002141601	0.0006420529	0.005710623	0.01134255	4.538438e-05	-2.417016e-05	-0.001960429	-0.008661378
3.6e+08	-0.002950999	-0.01347412	0.0002519377	6.54357e-05	0.007674979	0.01166466	0.000265353	0.0006268118
	0.0002519377	6.54357e-05	-0.004049528	-0.01279599	1.843645e-05	-2.996501e-06	0.007326399	0.01195258
	0.007674979	0.01166466	1.843645e-05	-2.996501e-06	-0.002919265	-0.01358204	4.426262e-05	-2.876575e-05
	0.000265353	0.0006268118	0.007326399	0.01195258	4.426262e-05	-2.876575e-05	-0.00408424	-0.01270765
3.7e+08	-0.005659812	-0.01732267	0.0002563297	4.24723e-05	0.009416296	0.01183358	0.0003144537	0.0006094374
	0.0002563297	4.24723e-05	-0.00696778	-0.01634741	1.789501e-05	-4.710071e-06	0.009013905	0.01221794
	0.009416296	0.01183358	1.789501e-05	-4.710071e-06	-0.00566196	-0.01743686	4.254436e-05	-3.376214e-05
	0.0003144537	0.0006094374	0.009013905	0.01221794	4.254436e-05	-3.376214e-05	-0.007035851	-0.01625841
3.8e+08	-0.00913196	-0.02057024	0.0002584499	1.887203e-05	0.01114038	0.0116372	0.0003621845	0.0005904736
	0.0002584499	1.887203e-05	-0.01059484	-0.01925465	1.717952e-05	-6.358863e-06	0.01069957	0.01213104
	0.01114038	0.0116372	1.717952e-05	-6.358863e-06	-0.009166362	-0.020686	4.002402e-05	-3.902238e-05
	0.0003621845	0.0005904736	0.01069957	0.01213104	4.002402e-05	-3.902238e-05	-0.01069713	-0.01915763
3.9e+08	-0.01323098	-0.02307703	0.0002581236	-5.054922e-06	0.01277074	0.01108669	0.0004094037	0.000570089
	0.0002581236	-5.054922e-06	-0.01478579	-0.02138911	1.629644e-05	-7.920024e-06	0.01230988	0.01169988
	0.01277074	0.01108669	1.629644e-05	-7.920024e-06	-0.01329558	-0.02318988	3.654342e-05	-4.434047e-05
	0.0004094037	0.000570089	0.01230988	0.01169988	3.654342e-05	-4.434047e-05	-0.01492161	-0.0212766
4e+08	-0.01779589	-0.02473347	0.0002552456	-2.894845e-05	0.01423493	0.01020907	0.0004569721	0.0005480543
	0.0002552456	-2.894845e-05	-0.01937351	-0.02265405	1.52564e-05	-9.371342e-06	0.01377464	0.01094767
	0.01423493	0.01020907	1.52564e-05	-9.371342e-06	-0.01788818	-0.02483921	3.201199e-05	-4.945919e-05
	0.0004569721	0.0005480543	0.01377464	0.01094767	3.201199e-05	-4.945919e-05	-0.01954061	-0.02251882
4.1e+08	-0.02264776	-0.02546428	0.0002497936	-5.24198e-05	0.01546777	0.009046004	0.0005056224	0.000523757
	0.0002497936	-5.24198e-05	-0.02417554	-0.02298827	1.407418e-05	-1.069221e-05	0.01503016	0.009911753
	0.01546777	0.009046004	1.407418e-05	-1.069221e-05	-0.02276479	-0.02555902	2.642038e-05	-5.409346e-05
	0.0005056224	0.000523757	0.01503016	0.009911753	2.642038e-05	-5.409346e-05	-0.02437016	-0.02282362
4.2e+08	-0.02759684	-0.02523123	0.0002418336	-7.507556e-05	0.01641426	0.007651868	0.0005558369	0.0004962578
	0.0002418336	-7.507556e-05	-0.02900148	-0.02236825	1.276837e-05	-1.186459e-05	0.01602195	0.00864186
	0.01641426	0.007651868	1.276837e-05	-1.186459e-05	-0.02773519	-0.02531143	1.984609e-05	-5.795659e-05
	0.0005558369	0.0004962578	0.01602195	0.00864186	1.984609e-05	-5.795659e-05	-0.02921853	-0.02216835
4.3e+08	-0.0324501	-0.02403433	0.0002315187	-9.654251e-05	0.01703203	0.00609132	0.0006077475	0.0004643832
	0.0002315187	-9.654251e-05	-0.03366064	-0.02080879	1.136086e-05	-1.287397e-05	0.01670715	0.007197886
	0.01703203	0.00609132	1.136086e-05	-1.287397e-05	-0.0326059	-0.02409689	1.245081e-05	-6.078713e-05
	0.0006077475	0.0004643832	0.01670715	0.007197886	1.245081e-05	-6.078713e-05	-0.03389385	-0.02056892
4.4e+08	-0.03701878	-0.0219116	0.0002190803	-0.0001164906	0.01729312	0.0044364	0.0006610681	0.0004268435
	0.0002190803	-0.0001164906	-0.03796959	-0.0183621	9.875879e-06	-1.371015e-05	0.01705631	0.005647202
	0.01729312	0.0044364	9.875879e-06	-1.371015e-05	-0.03718771	-0.02195391	4.469627e-06	-6.237338e-05
	0.0006610681	0.0004268435	0.01705631	0.005647202	4.469627e-06	-6.237338e-05	-0.03821181	-0.01807891
4.5e+08	-0.04112571	-0.0189373	0.0002048141	-0.0001346531	0.01718516	0.002763337	0.0007150455	0.0003824799
	0.0002048141	-0.0001346531	-0.04175935	-0.01511554	8.338962e-06	-1.436779e-05	0.01705454	0.004061695
	0.01718516	0.002763337	8.338962e-06	-1.436779e-05	-0.04130306	-0.01895738	-3.805889e-06	-6.257428e-05
	0.0007150455	0.0003824799	0.01705454	0.004061695	-3.805889e-06	-6.257428e-05	-0.04200279	-0.01478719
4.6e+08	-0.04461215	-0.0152189	0.0001889548	-0.0001507112	0.01671185	0.001149232	0.0007697355	0.0003140292
	0.0001889548	-0.0001507112	-0.04488191	-0.01118791	6.778185e-06	-1.484625e-05	0.01670212	0.002514658
	0.01671185	0.001149232	6.778185e-06	-1.484625e-05	-0.04479283	-0.01521542	-1.215187e-05	-6.120334e-05
	0.0007697355	0.0003140292	0.01670212	0.002514658	-1.215187e-05	-6.120334e-05	-0.04511856	-0.0108142
4.7e+08	-0.04734369	-0.01089268	0.0001719767	-0.0001646471	0.01589273	-0.0003312706	0.0008191504	0.0002350535
	0.0001719767	-0.0001646471	-0.04721595	-0.00672458	5.216045e-06	-1.515159e-05	0.01601435	0.001077665
	0.01589273	-0.0003312706	5.216045e-06	-1.515159e-05	-0.04752241	-0.01086514	-2.012414e-05	-5.838171e-05
	0.0008191504	0.0002350535	0.01601435	0.001077665	-2.012414e-05	-5.838171e-05	-0.04743781	-0.006306961
