!$
! Info: Touchstone file created by Circ.  Input file=Tx_12in_Rx_85ohms_TxVia_60mils_RxVia_70mils.circ
!$
# Hz S RI R 50
0	0.009712017	1.626384e-25	-6.47934e-05	7.445026e-24	8.42139e-05	1.915359e-23	-6.482914e-05	1.198119e-23
	-6.479339e-05	7.444202e-24	0.009707269	1.918378e-25	-6.475561e-05	2.972311e-24	8.441952e-05	2.364713e-23
	8.519455e-05	1.948934e-23	-6.475559e-05	2.97088e-24	0.009725931	1.55674e-25	-6.478681e-05	6.954422e-24
	-6.482912e-05	1.197969e-23	8.46891e-05	2.374853e-23	-6.478682e-05	6.955167e-24	0.009721672	1.910036e-25
1e+07	0.01380893	-0.01137909	-0.0002808538	-2.409243e-05	0.0003703251	0.002254413	-0.0001837186	0.0001288796
	-0.0002808538	-2.409243e-05	0.01219264	-0.01148414	-9.019551e-06	-1.802375e-05	0.0004584103	0.002258245
	0.0003703338	0.00225438	-9.019552e-06	-1.802375e-05	0.01222385	-0.01168816	-5.997841e-05	-1.731146e-05
	-0.0001837186	0.0001288796	0.000458413	0.002258243	-5.997841e-05	-1.731147e-05	0.01216894	-0.01147055
2e+07	0.01230047	-0.02640216	-0.0002501278	3.171222e-05	0.00121675	0.004350778	-0.0001677784	0.0001299441
	-0.0002501278	3.171222e-05	0.01085716	-0.02598226	-7.662369e-06	-4.505539e-06	0.001334717	0.004279662
	0.001216723	0.004350778	-7.662366e-06	-4.50554e-06	0.01071265	-0.02631	-5.274707e-05	9.85468e-06
	-0.0001677784	0.0001299441	0.001334714	0.004279663	-5.274707e-05	9.854682e-06	0.01084429	-0.02594492
3e+07	0.006021557	-0.04135106	-0.0002373323	2.783957e-05	0.002590128	0.006067275	-0.000135016	0.0001489511
	-0.0002373323	2.783957e-05	0.004705414	-0.04069036	-6.830614e-06	-5.916524e-07	0.0026519	0.005984993
	0.002590126	0.006067279	-6.830614e-06	-5.916529e-07	0.004453996	-0.04103928	-5.231062e-05	6.599321e-06
	-0.000135016	0.0001489511	0.0026519	0.005984995	-5.231062e-05	6.599322e-06	0.004699514	-0.0406393
4e+07	-0.004141639	-0.05445155	-0.0002271587	3.392213e-05	0.004307206	0.007352067	-9.369415e-05	0.0001553065
	-0.0002271587	3.392213e-05	-0.005350969	-0.05360403	-5.944835e-06	1.712965e-06	0.004313819	0.007280848
	0.004307205	0.007352063	-5.944834e-06	1.712966e-06	-0.005661511	-0.05395013	-5.254434e-05	7.250039e-06
	-9.369415e-05	0.0001553065	0.00431382	0.007280849	-5.254434e-05	7.250038e-06	-0.005352504	-0.05354171
5e+07	-0.01735012	-0.06472339	-0.0002178223	4.441019e-05	0.006244524	0.008142039	-5.159925e-05	0.0001440731
	-0.0002178223	4.441019e-05	-0.01846292	-0.06370729	-4.976737e-06	3.327238e-06	0.006199782	0.008099791
	0.006244522	0.008142037	-4.976736e-06	3.327238e-06	-0.01879691	-0.06404943	-5.277131e-05	1.005703e-05
	-5.159925e-05	0.0001440731	0.006199783	0.008099791	-5.277132e-05	1.005703e-05	-0.01846238	-0.0636339
6e+07	-0.03268	-0.07151299	-0.0002080953	5.733073e-05	0.008266092	0.008407137	-1.66992e-05	0.00011514
	-0.0002080953	5.733073e-05	-0.03369716	-0.07033366	-3.922315e-06	4.529646e-06	0.008177209	0.008409285
	0.008266094	0.008407141	-3.922315e-06	4.529645e-06	-0.03403032	-0.07068196	-5.243779e-05	1.429864e-05
	-1.66992e-05	0.00011514	0.00817721	0.008409285	-5.243779e-05	1.429864e-05	-0.03369593	-0.07024823
7e+07	-0.04914234	-0.07444645	-0.0001970839	7.155218e-05	0.01023525	0.008153466	3.758073e-06	7.167541e-05
	-0.0001970839	7.155218e-05	-0.05005645	-0.07310525	-3.364834e-06	4.860438e-06	0.01011281	0.0082128
	0.01023526	0.00815347	-3.364835e-06	4.860438e-06	-0.05037476	-0.07347466	-5.113695e-05	1.943452e-05
	3.758073e-06	7.167541e-05	0.01011281	0.008212799	-5.113695e-05	1.943452e-05	-0.05005504	-0.07300635
8e+07	-0.06573116	-0.07341465	-0.0001841208	8.618869e-05	0.0120248	0.007421213	4.040782e-06	1.930863e-05
	-0.0001841208	8.618869e-05	-0.06652795	-0.07191385	-3.074787e-06	4.904383e-06	0.01188237	0.007547363
	0.01202481	0.007421215	-3.074788e-06	4.904383e-06	-0.06682587	-0.07231969	-4.862005e-05	2.494765e-05
	4.040782e-06	1.930863e-05	0.01188237	0.007547363	-4.862005e-05	2.494764e-05	-0.06652612	-0.07179985
9e+07	-0.08147689	-0.06855669	-0.0001686243	0.0001004888	0.01352529	0.006279786	-1.976744e-05	-3.481988e-05
	-0.0001686243	0.0001004888	-0.08213735	-0.06690287	-2.776911e-06	4.971142e-06	0.01337893	0.006478745
	0.0135253	0.006279785	-2.776911e-06	4.971142e-06	-0.08241461	-0.0673571	-4.479091e-05	3.035366e-05
	-1.976744e-05	-3.481988e-05	0.01337893	0.006478745	-4.479091e-05	3.035366e-05	-0.08213408	-0.06677222
1e+08	-0.09549768	-0.06023531	-0.0001489767	0.0001142479	0.01465199	0.004821534	-7.291931e-05	-8.432731e-05
	-0.0001489767	0.0001142479	-0.096003	-0.05844292	-2.504385e-06	5.016138e-06	0.01452102	0.005096123
	0.01465199	0.004821533	-2.504385e-06	5.016139e-06	-0.09625055	-0.05894674	-3.955531e-05	3.531215e-05
	-7.291931e-05	-8.432731e-05	0.01452102	0.005096123	-3.955531e-05	3.531215e-05	-0.09599679	-0.05829451
1.1e+08	-0.1070411	-0.04899852	-0.0001298096	0.0001309693	0.01534532	0.003146966	-0.0001388852	-0.0001349755
	-0.0001298096	0.0001309693	-0.10737	-0.04707319	-2.144579e-06	4.962002e-06	0.01524973	0.003484733
	0.01534532	0.003146966	-2.144579e-06	4.962002e-06	-0.1075868	-0.04769318	-3.376535e-05	3.99194e-05
	-0.0001388852	-0.0001349755	0.01524973	0.003484733	-3.376535e-05	3.99194e-05	-0.1073583	-0.04690524
1.2e+08	-0.1155164	-0.03555163	-0.0001109181	0.000144121	0.01556909	0.001376173	-0.0002140227	-0.0001611792
	-0.0001109181	0.000144121	-0.115636	-0.03352006	-1.75745e-06	4.920535e-06	0.01551801	0.001766925
	0.01556909	0.001376173	-1.75745e-06	4.920535e-06	-0.1158819	-0.03426294	-2.758121e-05	4.31945e-05
	-0.0002140227	-0.0001611792	0.01551801	0.001766926	-2.758121e-05	4.31945e-05	-0.1156149	-0.03333291
1.3e+08	-0.1205268	-0.02070243	-9.130774e-05	0.000154339	0.0153226	-0.0003737317	-0.0002961598	-0.0001616776
	-9.130774e-05	0.000154339	-0.1204139	-0.0186035	-1.377535e-06	4.860726e-06	0.01532513	5.817778e-05
	0.0153226	-0.0003737318	-1.377535e-06	4.860726e-06	-0.1207289	-0.01945308	-2.118719e-05	4.518454e-05
	-0.0002961598	-0.0001616776	0.01532513	5.817879e-05	-2.118719e-05	4.518454e-05	-0.1203797	-0.0183989
1.4e+08	-0.1218775	-0.005316378	-7.119384e-05	0.0001616972	0.01463026	-0.001991351	-0.000378361	-0.0001353959
	-7.119384e-05	0.0001616972	-0.1215187	-0.003197528	-1.020032e-06	4.779556e-06	0.0146929	-0.00153255
	0.01463026	-0.001991351	-1.020032e-06	4.779556e-06	-0.1219316	-0.004125241	-1.489681e-05	4.594503e-05
	-0.000378361	-0.0001353959	0.0146929	-0.001532549	-1.489681e-05	4.594503e-05	-0.1214684	-0.002978415
1.5e+08	-0.1195799	0.009729775	-5.093919e-05	0.0001662727	0.01354028	-0.003375358	-0.0004530503	-8.339586e-05
	-5.093919e-05	0.0001662727	-0.1189737	0.01181533	-6.951468e-07	4.683195e-06	0.0136659	-0.002905739
	0.01354028	-0.003375358	-6.951468e-07	4.683195e-06	-0.1195014	0.01084631	-9.001e-06	4.561665e-05
	-0.0004530503	-8.339586e-05	0.0136659	-0.002905738	-9.001e-06	4.561665e-05	-0.1189052	0.012045
1.6e+08	-0.1138462	0.02359342	-3.092797e-05	0.0001682065	0.01212186	-0.00443871	-0.0005131474	-9.009282e-06
	-3.092797e-05	0.0001682065	-0.1130051	0.02559	-4.072462e-07	4.583128e-06	0.01230909	-0.003975175
	0.01212186	-0.00443871	-4.072462e-07	4.583128e-06	-0.1136515	0.02462101	-3.730841e-06	4.441562e-05
	-0.0005131474	-9.009282e-06	0.01230909	-0.003975174	-3.730841e-06	4.441562e-05	-0.1129174	0.02582555
1.7e+08	-0.1050757	0.03550908	-1.151121e-05	0.0001677106	0.01046187	-0.005112383	-0.0005528923	8.244364e-05
	-1.151121e-05	0.0001677106	-0.1040267	0.03736229	-1.540544e-07	4.492841e-06	0.01070482	-0.004671515
	0.01046187	-0.005112383	-1.540544e-07	4.492841e-06	-0.104782	0.03643539	7.650471e-07	4.261209e-05
	-0.0005528923	8.244364e-05	0.01070482	-0.004671514	7.650471e-07	4.261209e-05	-0.1039201	0.03759863
1.8e+08	-0.09383187	0.04482748	7.025312e-06	0.0001650561	0.008661072	-0.005348732	-0.0005684567	0.0001841904
	7.025312e-06	0.0001650561	-0.09261658	0.04648826	7.328155e-08	4.42459e-06	0.008949375	-0.004945563
	0.008661072	-0.005348732	7.328154e-08	4.42459e-06	-0.09345771	0.04564237	4.434555e-06	4.050277e-05
	-0.0005684567	0.0001841904	0.008949375	-0.004945562	4.434555e-06	4.050277e-05	-0.09249284	0.04672031
1.9e+08	-0.08081254	0.05104951	2.448153e-05	0.0001605505	0.006829612	-0.005124404	-0.0005583218	0.0002887146
	2.448153e-05	0.0001605505	-0.07948591	0.05247815	2.889343e-07	4.386578e-06	0.007148849	-0.004771213
	0.006829612	-0.005124404	2.889343e-07	4.386578e-06	-0.08037786	0.05174537	7.327949e-06	3.837928e-05
	-0.0005583218	0.0002887146	0.007148849	-0.004771213	7.327949e-06	3.837928e-05	-0.07934836	0.05270126
2e+08	-0.06681286	0.0538535	4.075252e-05	0.0001545079	0.005081721	-0.004442621	-0.0005233937	0.0003885522
	4.075252e-05	0.0001545079	-0.06544096	0.05502344	5.101701e-07	4.380975e-06	0.005414147	-0.004147848
	0.005081721	-0.004442621	5.101701e-07	4.380975e-06	-0.06633869	0.05442572	9.593843e-06	3.649391e-05
	-0.0005233937	0.0003885522	0.005414148	-0.004147848	9.593843e-06	3.649391e-05	-0.06529423	0.05523378
2.1e+08	-0.05268237	0.05311434	5.582581e-05	0.0001472163	0.003529534	-0.003334465	-0.0004668406	0.0004770896
	5.582581e-05	0.0001472163	-0.05133903	0.05401529	7.545925e-07	4.403106e-06	0.003855102	-0.003101828
	0.003529534	-0.003334465	7.545925e-07	4.403106e-06	-0.05219049	0.0535617	1.14633e-05	3.502561e-05
	-0.0004668406	0.0004770896	0.003855102	-0.003101828	1.14633e-05	3.502561e-05	-0.05118888	0.05421026
2.2e+08	-0.03927778	0.04891266	6.976465e-05	0.0001389051	0.00227618	-0.001858729	-0.0003936643	0.0005492657
	6.976465e-05	0.0001389051	-0.03804033	0.04955289	1.03741e-06	4.441851e-06	0.002573789	-0.001686609
	0.00227618	-0.001858729	1.03741e-06	4.441851e-06	-0.03879013	0.0492377	1.322079e-05	3.405096e-05
	-0.0003936643	0.0005492657	0.002573789	-0.001686609	1.322079e-05	3.405096e-05	-0.03789332	0.04973144
2.3e+08	-0.02741353	0.04153284	8.267817e-05	0.0001297216	0.001408522	-9.987264e-05	-0.0003100472	0.00060209
	8.267817e-05	0.0001297216	-0.02635789	0.04194031	1.369227e-06	4.481066e-06	0.001657436	1.896165e-05
	0.001408522	-9.987264e-05	1.369227e-06	4.481066e-06	-0.02695143	0.04174207	1.51632e-05	3.352616e-05
	-0.0003100472	0.00060209	0.001657436	1.89616e-05	1.51632e-05	3.352616e-05	-0.02622094	0.04210312
2.4e+08	-0.01781297	0.03144878	9.46821e-05	0.0001197193	0.0009901786	0.001836197	-0.0002225439	0.000634904
	9.46821e-05	0.0001197193	-0.01700844	0.03167093	1.754705e-06	4.501656e-06	0.001171504	0.001914489
	0.0009901785	0.001836197	1.754705e-06	4.501656e-06	-0.01739633	0.03155271	1.755159e-05	3.328578e-05
	-0.0002225439	0.000634904	0.001171504	0.001914489	1.755159e-05	3.328578e-05	-0.01688838	0.03182057
2.5e+08	-0.01106357	0.01929747	0.0001058557	0.0001088659	0.001055626	0.003828567	-0.0001372317	0.0006493308
	0.0001058557	0.0001088659	-0.0105676	0.01939951	2.192133e-06	4.483754e-06	0.001153767	0.003884085
	0.001055626	0.003828567	2.192133e-06	4.483754e-06	-0.01070994	0.01931034	2.056291e-05	3.306199e-05
	-0.0001372317	0.0006493308	0.001153767	0.003884085	2.056291e-05	3.306199e-05	-0.01047063	0.01954038
2.6e+08	-0.007579341	0.005841195	0.0001162052	9.706922e-05	0.001606219	0.005749666	-5.892352e-05	0.0006489183
	0.0001162052	9.706922e-05	-0.007432826	0.00590301	2.673759e-06	4.408707e-06	0.001610202	0.005804331
	0.001606219	0.005749666	2.673759e-06	4.408707e-06	-0.007303074	0.005780524	2.425161e-05	3.252392e-05
	-5.892352e-05	0.0006489183	0.001610202	0.005804331	2.425161e-05	3.252392e-05	-0.00736406	0.006041223
2.7e+08	-0.007573978	-0.00807942	0.0001256409	8.421887e-05	0.002608857	0.007474841	9.426198e-06	0.0006385114
	0.0001256409	8.421887e-05	-0.007797408	-0.007967668	3.186578e-06	4.260639e-06	0.002513418	0.007553505
	0.002608857	0.007474841	3.186578e-06	4.260639e-06	-0.007385489	-0.008193559	2.853e-05	3.133181e-05
	9.426198e-06	0.0006385114	0.002513418	0.007553505	2.853e-05	3.133181e-05	-0.007760394	-0.007824614
2.8e+08	-0.01104707	-0.02159839	0.0001339767	7.023411e-05	0.003997703	0.008892192	6.704802e-05	0.0006234461
	0.0001339767	7.023411e-05	-0.01163792	-0.02134168	3.713375e-06	4.027657e-06	0.003804049	0.009021125
	0.003997703	0.008892192	3.713375e-06	4.027657e-06	-0.01095228	-0.02174428	3.317336e-05	2.919631e-05
	6.704802e-05	0.0006234461	0.003804049	0.009021125	3.317336e-05	2.919631e-05	-0.01163427	-0.0211853
2.9e+08	-0.01778488	-0.03387934	0.0001409494	5.510868e-05	0.005678967	0.009911547	0.0001153444	0.0006086817
	0.0001409494	5.510868e-05	-0.01871651	-0.03338387	4.233844e-06	3.702786e-06	0.005395133	0.01011674
	0.005678967	0.009911547	4.233844e-06	3.702786e-06	-0.01778491	-0.0340347	3.785012e-05	2.593125e-05
	0.0001153444	0.0006086817	0.005395133	0.01011674	3.785012e-05	2.593125e-05	-0.01874563	-0.03320521
3e+08	-0.02737564	-0.04416831	0.0001462582	3.894197e-05	0.007538299	0.01047154	0.00015755	0.0005980102
	0.0001462582	3.894197e-05	-0.02859788	-0.04334774	4.725897e-06	3.284758e-06	0.007179049	0.01077689
	0.007538299	0.01047154	4.725897e-06	3.284758e-06	-0.02746678	-0.04431133	4.217193e-05	2.148883e-05
	0.00015755	0.0005980102	0.007179049	0.01077689	4.217193e-05	2.148883e-05	-0.02865686	-0.04313795
3.1e+08	-0.03923821	-0.05184003	0.0001496128	2.194961e-05	0.009449954	0.010544	0.0001981341	0.0005934529
	0.0001496128	2.194961e-05	-0.04067955	-0.05062154	5.167312e-06	2.778558e-06	0.0090362	0.01096957
	0.009449954	0.010544	5.167312e-06	2.778558e-06	-0.03941217	-0.05195054	4.575354e-05	1.59703e-05
	0.0001981341	0.0005934529	0.0090362	0.01096957	4.575354e-05	1.59703e-05	-0.0407632	-0.05037248
3.2e+08	-0.05266131	-0.05643467	0.0001507807	4.452233e-06	0.01128667	0.01013522	0.0002420141	0.000594941
	0.0001507807	4.452233e-06	-0.05423269	-0.0547642	5.537674e-06	2.195507e-06	0.01084442	0.01069565
	0.01128667	0.01013522	5.537674e-06	2.195507e-06	-0.05290568	-0.05649507	4.827034e-05	9.61079e-06
	0.0002420141	0.000594941	0.01084442	0.01069565	4.827034e-05	9.61079e-06	-0.05433372	-0.05446903
3.3e+08	-0.06685003	-0.05768238	0.0001496256	-1.315466e-05	0.01292913	0.009284271	0.0002936986	0.0006003484
	0.0001496256	-1.315466e-05	-0.06844992	-0.05552875	5.820533e-06	1.552606e-06	0.01248805	0.009987486
	0.01292913	0.009284271	5.820533e-06	1.552606e-06	-0.06714905	-0.05767846	4.95032e-05	2.742823e-06
	0.0002936986	0.0006003484	0.01248805	0.009987486	4.95032e-05	2.742823e-06	-0.06855929	-0.05518253
3.4e+08	-0.0809759	-0.05551485	0.000146017	-3.038445e-05	0.01427414	0.008058657	0.0003649186	0.0005920941
	0.000146017	-3.038445e-05	-0.08249626	-0.05287257	6.005429e-06	8.71716e-07	0.01386574	0.008904975
	0.01427414	0.008058657	6.005429e-06	8.71716e-07	-0.08131129	-0.05543642	4.925727e-05	-4.192819e-06
	0.0003649186	0.0005920941	0.01386574	0.008904975	4.925727e-05	-4.192819e-06	-0.08260369	-0.05247268
3.5e+08	-0.09422667	-0.05006378	0.0001401481	-4.684782e-05	0.01524081	0.006548224	0.0004465554	0.000574941
	0.0001401481	-4.684782e-05	-0.09555949	-0.04695427	6.089597e-06	1.756732e-07	0.01489648	0.007529959
	0.01524081	0.006548224	6.089597e-06	1.756732e-07	-0.09457862	-0.04990514	4.767028e-05	-1.085366e-05
	0.0004465554	0.000574941	0.01489648	0.007529959	4.767028e-05	-1.085366e-05	-0.09565408	-0.04650067
3.6e+08	-0.1058527	-0.04164783	0.0001322332	-6.217075e-05	0.01577449	0.004858014	0.0005365574	0.0005457522
	0.0001322332	-6.217075e-05	-0.1068967	-0.03811892	6.077227e-06	-5.142407e-07	0.01552343	0.005959605
	0.01577449	0.004858014	6.077227e-06	-5.142407e-07	-0.1062009	-0.04140787	4.491633e-05	-1.691234e-05
	0.0005365574	0.0005457522	0.01552343	0.005959605	4.491633e-05	-1.691234e-05	-0.1069676	-0.03761427
3.7e+08	-0.1152077	-0.03074939	0.0001225534	-7.604358e-05	0.01584857	0.003100922	0.0006323234	0.0004997331
	0.0001225534	-7.604358e-05	-0.1158747	-0.02687321	5.978468e-06	-1.180514e-06	0.01571579	0.004299595
	0.01584857	0.003100922	5.978468e-06	-1.180514e-06	-0.1155323	-0.03043158	4.124431e-05	-2.211383e-05
	0.0006323234	0.0004997331	0.01571579	0.004299595	4.124431e-05	-2.211383e-05	-0.1159117	-0.02632292
3.8e+08	-0.1217813	-0.01798377	0.0001114432	-8.824584e-05	0.01546433	0.001390737	0.0007294102	0.000433045
	0.0001114432	-8.824584e-05	-0.122002	-0.01385317	5.807325e-06	-1.811373e-06	0.01546889	0.002657672
	0.01546433	0.001390737	5.807325e-06	-1.811373e-06	-0.122064	-0.01759589	3.695809e-05	-2.630407e-05
	0.0007294102	0.000433045	0.01546889	0.002657672	3.695809e-05	-2.630407e-05	-0.1219964	-0.0132651
3.9e+08	-0.1252239	-0.004062857	9.926034e-05	-9.865218e-05	0.01464943	-0.0001640596	0.0008219603	0.0003434072
	9.926034e-05	-9.865218e-05	-0.1249524	0.0002135244	5.578909e-06	-2.40161e-06	0.01480297	0.001137863
	0.01464943	-0.0001640596	5.578909e-06	-2.40161e-06	-0.1254487	-0.00361652	3.237913e-05	-2.943667e-05
	0.0008219603	0.0003434072	0.01480297	0.001137863	3.237913e-05	-2.943667e-05	-0.1248976	0.0008293568
4e+08	-0.1253619	0.01024459	8.635818e-05	-0.0001072293	0.01345525	-0.001465584	0.0009033004	0.0002305193
	8.635818e-05	-0.0001072293	-0.1245796	0.01454822	5.306628e-06	-2.95212e-06	0.01376101	-0.0001644731
	0.01345525	-0.001465584	5.306628e-06	-2.95212e-06	-0.1255159	0.01073451	2.781187e-05	-3.156785e-05
	0.0009033004	0.0002305193	0.01376101	-0.000164473	2.781187e-05	-3.156785e-05	-0.1244712	0.01518023
4.1e+08	-0.122204	0.0241541	7.306151e-05	-0.0001140264	0.01195371	-0.002430961	0.0009666403	9.625402e-05
	7.306151e-05	-0.0001140264	-0.1209214	0.02836323	4.999886e-06	-3.468327e-06	0.01240599	-0.001166847
	0.01195371	-0.002430961	4.999886e-06	-3.468327e-06	-0.122278	0.02467022	2.351426e-05	-3.284275e-05
	0.0009666403	9.625402e-05	0.01240599	-0.001166847	2.351426e-05	-3.284275e-05	-0.1207582	0.02899889
4.2e+08	-0.1159395	0.03690651	5.964689e-05	-0.0001191613	0.01023345	-0.002995967	0.001005793	-5.538437e-05
	5.964689e-05	-0.0001191613	-0.1141967	0.04090327	4.662737e-06	-3.957777e-06	0.01081768	-0.001803198
	0.01023345	-0.002995967	4.662737e-06	-3.957777e-06	-0.1159285	0.03742979	1.967415e-05	-3.347518e-05
	0.001005793	-5.538437e-05	0.01081768	-0.001803198	1.967415e-05	-3.347518e-05	-0.1139805	0.04152983
4.3e+08	-0.1069273	0.0478074	4.632719e-05	-0.0001228018	0.008395771	-0.003118033	0.001015849	-0.0002185303
	4.632719e-05	-0.0001228018	-0.1047928	0.05148491	4.293743e-06	-4.42746e-06	0.009089064	-0.002026951
	0.008395771	-0.003118033	4.293743e-06	-4.42746e-06	-0.1068308	0.04831809	1.639201e-05	-3.372236e-05
	0.001015849	-0.0002185303	0.009089064	-0.002026951	1.639201e-05	-3.372236e-05	-0.1045285	0.05209016
4.4e+08	-0.09567784	0.05626356	3.324043e-05	-0.0001251439	0.006549985	-0.002778661	0.0009937264	-0.0003859344
	3.324043e-05	-0.0001251439	-0.09324553	0.05953271	3.886999e-06	-4.881413e-06	0.007322243	-0.001813609
	0.006549985	-0.002778661	3.886999e-06	-4.881413e-06	-0.09549991	0.0567422	1.367059e-05	-3.385538e-05
	0.0009937264	-0.0003859344	0.007322243	-0.001813609	1.367059e-05	-3.385538e-05	-0.09294112	0.06010579
4.5e+08	-0.0828266	0.06181509	2.044479e-05	-0.0001263861	0.004808305	-0.001985167	0.0009385485	-0.0005495977
	2.044479e-05	-0.0001263861	-0.08021148	0.06461064	3.434059e-06	-5.319087e-06	0.005623791	-0.001162805
	0.004808305	-0.001985167	3.434059e-06	-5.319087e-06	-0.0825757	0.06224354	1.141298e-05	-3.412633e-05
	0.0009385485	-0.0005495977	0.005623791	-0.001162805	1.141298e-05	-3.412633e-05	-0.07987745	0.0651427
4.6e+08	-0.06910176	0.06416167	7.921489e-06	-0.0001267011	0.00328008	-0.000771555	0.0008517972	-0.0007015051
	7.921489e-06	-0.0001267011	-0.06643381	0.06644722	2.926274e-06	-5.734771e-06	0.004099363	-9.957386e-05
	0.00328008	-0.000771555	2.926274e-06	-5.734771e-06	-0.0687905	0.06452409	9.43109e-06	-3.473388e-05
	0.0008517972	-0.0007015051	0.004099363	-9.957386e-05	9.43109e-06	-3.473388e-05	-0.06608275	0.06693211
4.7e+08	-0.05528551	0.06318143	-4.4114e-06	-0.0001262074	0.002065497	0.0008018027	0.0007372196	-0.0008343784
	-4.4114e-06	-0.0001262074	-0.0527025	0.06495295	2.357083e-06	-6.118067e-06	0.002847682	0.001325482
	0.002065497	0.0008018027	2.357083e-06	-6.118067e-06	-0.05492998	0.06346524	7.466601e-06	-3.579068e-05
	0.0007372196	-0.0008343784	0.002847682	0.001325482	7.466601e-06	-3.579068e-05	-0.05234845	0.06538765
4.8e+08	-0.04217116	0.05894093	-1.66742e-05	-0.0001249455	0.001248959	0.002650054	0.0006004834	-0.0009423719
