!$
! Info: Touchstone file created by Circ.  Input file=Tx_14in_Rx_100ohms_TxVia_60mils_RxVia_70mils.circ
!$
# Hz S RI R 50
0	0.01448963	1.829483e-25	1.327404e-09	2.249844e-27	9.402688e-05	2.863605e-23	1.196371e-09	9.723637e-28
	1.327412e-09	2.249847e-27	0.01448483	2.164518e-25	9.117801e-10	3.246581e-27	9.423342e-05	3.53628e-23
	9.500582e-05	2.913803e-23	9.117691e-10	3.246552e-27	0.01450331	1.750949e-25	-3.246074e-09	4.464752e-25
	1.196369e-09	9.722467e-28	9.450274e-05	3.551445e-23	-3.245671e-09	4.464258e-25	0.01449909	2.155186e-25
1e+07	0.020263	0.008643184	2.91511e-09	3.121631e-09	0.0005170352	0.002527385	2.566288e-09	2.979691e-08
	2.91511e-09	3.121631e-09	0.02163879	0.008229165	1.880015e-09	2.354462e-09	0.001004655	0.002571164
	0.0005170444	0.002527352	1.880015e-09	2.354462e-09	0.02102793	0.008226206	-3.403507e-09	1.797919e-08
	2.566288e-09	2.979691e-08	0.001004658	0.002571162	-3.403508e-09	1.797919e-08	0.02144364	0.008267554
2e+07	0.02787922	0.01160992	5.690598e-09	4.822703e-09	0.001581022	0.004875755	1.98783e-08	1.749157e-08
	5.690598e-09	4.822703e-09	0.02847066	0.01053398	3.597301e-09	3.913335e-09	0.001914505	0.005163651
	0.001580995	0.004875754	3.597301e-09	3.913335e-09	0.02800799	0.01074704	-1.960348e-09	7.189395e-09
	1.98783e-08	1.749157e-08	0.001914502	0.005163651	-1.960347e-09	7.189396e-09	0.02835151	0.01066868
3e+07	0.0342292	0.01091654	9.119588e-09	4.511957e-09	0.003220522	0.006764516	3.170944e-08	1.454912e-08
	9.119588e-09	4.511957e-09	0.03419988	0.009788795	5.428929e-09	4.441044e-09	0.003446099	0.007144442
	0.00322052	0.00676452	5.428929e-09	4.441044e-09	0.03388649	0.0100618	9.192409e-09	4.700999e-09
	3.170944e-08	1.454912e-08	0.003446099	0.007144444	9.192409e-09	4.700999e-09	0.03414577	0.00995363
4e+07	0.03947291	0.008215489	1.253342e-08	2.76848e-09	0.005286948	0.008089522	4.334043e-08	7.762309e-09
	1.253342e-08	2.76848e-09	0.03894852	0.007259368	7.438643e-09	4.118181e-09	0.005463622	0.008518441
	0.005286948	0.008089517	7.438643e-09	4.118181e-09	0.03878523	0.007527662	1.341448e-08	3.019593e-09
	4.334043e-08	7.762309e-09	0.005463623	0.008518442	1.341448e-08	3.019593e-09	0.03895135	0.007429604
5e+07	0.04347348	0.004078052	1.543351e-08	-5.524921e-10	0.007601386	0.00876499	5.312246e-08	-4.024063e-09
	1.543351e-08	-5.524921e-10	0.042582	0.003428187	9.164716e-09	2.929117e-09	0.007909055	0.009082167
	0.007601383	0.008764988	9.164716e-09	2.929117e-09	0.04256137	0.003641088	1.63636e-08	-4.894296e-10
	5.312246e-08	-4.024063e-09	0.007909056	0.009082168	1.63636e-08	-4.894295e-10	0.04263192	0.003587827
6e+07	0.04607806	-0.001052761	1.720749e-08	-5.265642e-09	0.009969597	0.008755466	5.900297e-08	-2.04133e-08
	1.720749e-08	-5.265642e-09	0.04495626	-0.001314387	1.028746e-08	9.664112e-10	0.01034565	0.008945285
	0.009969598	0.008755469	1.028746e-08	9.664112e-10	0.04505676	-0.001201506	1.808735e-08	-5.380202e-09
	5.900297e-08	-2.04133e-08	0.01034565	0.008945285	1.808735e-08	-5.380202e-09	0.04504213	-0.001176128
7e+07	0.04718026	-0.006759672	1.731719e-08	-1.094077e-08	0.012207	0.008063791	5.916214e-08	-4.001727e-08
	1.731719e-08	-1.094077e-08	0.04596748	-0.006596465	1.0519e-08	-1.545981e-09	0.01258638	0.008145092
	0.01220701	0.008063797	1.0519e-08	-1.545981e-09	0.04615632	-0.006618247	1.817104e-08	-1.124867e-08
	5.916214e-08	-4.001727e-08	0.01258638	0.008145092	1.817104e-08	-1.124867e-08	0.04607727	-0.006486209
8e+07	0.04674615	-0.0126336	1.53988e-08	-1.695631e-08	0.01411886	0.006774312	5.235701e-08	-6.074676e-08
	1.53988e-08	-1.695631e-08	0.04557749	-0.01204921	9.654094e-09	-4.281245e-09	0.01445984	0.00676672
	0.01411887	0.006774315	9.654094e-09	-4.281245e-09	0.04581394	-0.01222797	1.624254e-08	-1.754663e-08
	5.235701e-08	-6.074676e-08	0.01445984	0.00676672	1.624253e-08	-1.754663e-08	0.04569881	-0.01196968
9e+07	0.0448233	-0.01828101	1.133496e-08	-2.259126e-08	0.01555126	0.005011295	3.813726e-08	-8.009387e-08
	1.133496e-08	-2.259126e-08	0.04382567	-0.01731401	7.615165e-09	-6.848844e-09	0.01582301	0.004937916
	0.01555127	0.005011294	7.615165e-09	-6.848844e-09	0.04406435	-0.01765837	1.210489e-08	-2.360662e-08
	3.813726e-08	-8.009387e-08	0.01582301	0.004937916	1.210489e-08	-2.360662e-08	0.04394643	-0.0172643
1e+08	0.04153352	-0.02333962	5.263262e-09	-2.710739e-08	0.01639893	0.00293208	1.695738e-08	-9.544545e-08
	5.263262e-09	-2.710739e-08	0.04084737	-0.02205628	4.45424e-09	-8.8261e-09	0.01656505	0.002819119
	0.01639893	0.00293208	4.45424e-09	-8.8261e-09	0.04104003	-0.02256096	5.767483e-09	-2.869528e-08
	1.695738e-08	-9.544545e-08	0.01656505	0.002819119	5.767483e-09	-2.869528e-08	0.04095477	-0.02203242
1.1e+08	0.03711218	-0.02744498	-2.394494e-09	-2.9994e-08	0.01658656	0.0006925666	-9.640647e-09	-1.049534e-07
	-2.394494e-09	-2.9994e-08	0.0367827	-0.02608223	4.24099e-10	-9.887827e-09	0.01665252	0.0006368869
	0.01658656	0.0006925665	4.24099e-10	-9.887827e-09	0.03688734	-0.0267152	-2.361032e-09	-3.177443e-08
	-9.640647e-09	-1.049534e-07	0.01665252	0.0006368871	-2.361032e-09	-3.177443e-08	0.03687112	-0.02606806
1.2e+08	0.03186507	-0.03040747	-1.127659e-08	-3.055298e-08	0.01609112	-0.001484425	-4.013754e-08	-1.064111e-07
	-1.127659e-08	-3.055298e-08	0.03182023	-0.0290408	-4.262456e-09	-9.780352e-09	0.01611299	-0.00146949
	0.01609112	-0.001484425	-4.262456e-09	-9.780352e-09	0.03181247	-0.02976995	-1.172505e-08	-3.235945e-08
	-4.013754e-08	-1.064111e-07	0.01611299	-0.001469489	-1.172505e-08	-3.235945e-08	0.03189225	-0.02903054
1.3e+08	0.02609597	-0.03206498	-2.059603e-08	-2.835787e-08	0.01496999	-0.0034097	-7.18825e-08	-9.850027e-08
	-2.059603e-08	-2.835787e-08	0.02629536	-0.03075073	-9.204301e-09	-8.195622e-09	0.01498159	-0.003327068
	0.01496999	-0.0034097	-9.204301e-09	-8.195622e-09	0.02615828	-0.03153688	-2.154431e-08	-3.004281e-08
	-7.18825e-08	-9.850027e-08	0.01498158	-0.003327067	-2.154431e-08	-3.004281e-08	0.02635202	-0.03073954
1.4e+08	0.02014809	-0.03233716	-2.948342e-08	-2.324096e-08	0.01332488	-0.004918209	-1.019314e-07	-8.073613e-08
	-2.948342e-08	-2.324096e-08	0.02055083	-0.03112215	-1.393207e-08	-5.041254e-09	0.01335052	-0.004779861
	0.01332488	-0.00491821	-1.393207e-08	-5.041254e-09	0.02027972	-0.0319214	-3.090277e-08	-2.464973e-08
	-1.019314e-07	-8.073613e-08	0.01335052	-0.00477986	-3.090277e-08	-2.464973e-08	0.02059375	-0.03110568
1.5e+08	0.01437284	-0.03123288	-3.701539e-08	-1.53104e-08	0.01129848	-0.005880744	-1.271934e-07	-5.356516e-08
	-3.701539e-08	-1.53104e-08	0.01493342	-0.0301547	-1.794888e-08	-3.736514e-10	0.01135366	-0.00570436
	0.01129848	-0.005880744	-1.794888e-08	-3.736514e-10	0.01453739	-0.03092239	-3.882809e-08	-1.629557e-08
	-1.271934e-07	-5.356516e-08	0.01135366	-0.005704359	-3.882809e-08	-1.629557e-08	0.01496504	-0.0301293
1.6e+08	0.009106031	-0.0288493	-4.230326e-08	-4.966706e-09	0.009063229	-0.006214006	-1.447268e-07	-1.840256e-08
	-4.230326e-08	-4.966706e-09	0.009773801	-0.02793524	-2.077808e-08	5.594173e-09	0.009154589	-0.006019972
	0.009063229	-0.006214006	-2.077808e-08	5.594173e-09	0.00927592	-0.02863025	-4.438511e-08	-5.403705e-09
	-1.447268e-07	-1.840256e-08	0.009154589	-0.006019972	-4.438511e-08	-5.403705e-09	0.009797274	-0.02789811
1.7e+08	0.004645793	-0.02536486	-4.458676e-08	7.109835e-09	0.006807297	-0.005887075	-1.520417e-07	2.242404e-08
	-4.458676e-08	7.109835e-09	0.005366031	-0.02463041	-2.201273e-08	1.250078e-08	0.006932987	-0.005695655
	0.006807296	-0.005887075	-2.201273e-08	1.250078e-08	0.00480203	-0.02521947	-4.677448e-08	7.30803e-09
	-1.520417e-07	2.242404e-08	0.006932986	-0.005695655	-4.677448e-08	7.30803e-09	0.005385006	-0.0245798
1.8e+08	0.001233101	-0.02102668	-4.332264e-08	2.000277e-08	0.004719142	-0.004923594	-1.473815e-07	6.582586e-08
	-4.332264e-08	2.000277e-08	0.001949121	-0.02047427	-2.136146e-08	1.986029e-08	0.004869744	-0.00475235
	0.004719142	-0.004923594	-2.136146e-08	1.986029e-08	0.001364768	-0.02093576	-4.542583e-08	2.087352e-08
	-1.473815e-07	6.582586e-08	0.004869744	-0.00475235	-4.542583e-08	2.087352e-08	0.00196747	-0.02040959
1.9e+08	-0.0009637668	-0.01613339	-3.825535e-08	3.26346e-08	0.002972097	-0.003399449	-1.299521e-07	1.081912e-07
	-3.825535e-08	3.26346e-08	-0.0003077569	-0.01575169	-1.868509e-08	2.710172e-08	0.003132161	-0.003261082
	0.002972097	-0.003399449	-1.868509e-08	2.710172e-08	-0.0008604111	-0.01607851	-4.007228e-08	3.415743e-08
	-1.299521e-07	1.081912e-07	0.003132161	-0.003261082	-4.007228e-08	3.415743e-08	-0.000286273	-0.01567348
2e+08	-0.001859732	-0.01101443	-2.94676e-08	4.38532e-08	0.001710277	-0.001436161	-1.000709e-07	1.456921e-07
	-2.94676e-08	4.38532e-08	-0.00131537	-0.01077837	-1.402155e-08	3.36151e-08	0.001860349	-0.001336917
	0.001710277	-0.001436161	-1.402155e-08	3.36151e-08	-0.001782538	-0.01097965	-3.080326e-08	4.594688e-08
	-1.000709e-07	1.456921e-07	0.001860349	-0.001336917	-3.080326e-08	4.594688e-08	-0.001287402	-0.01068828
2.1e+08	-0.001457649	-0.006007336	-1.739849e-08	5.254439e-08	0.001037005	0.0008094375	-5.921705e-08	1.746324e-07
	-1.739849e-08	5.254439e-08	-0.001068985	-0.00587914	-7.595409e-09	3.880878e-08	0.001155997	0.0008706653
	0.001037005	0.0008094375	-7.595409e-09	3.880878e-08	-0.001400119	-0.005980471	-1.808325e-08	5.506971e-08
	-5.921705e-08	1.746324e-07	0.001155997	0.0008706653	-1.808325e-08	5.506971e-08	-0.001031888	-0.005779685
2.2e+08	0.0001531056	-0.001434683	-2.819332e-09	5.774531e-08	0.001006711	0.003158319	-9.969637e-09	1.918019e-07
	-2.819332e-09	5.774531e-08	0.0003528551	-0.001365772	1.934152e-10	4.216729e-08	0.001074396	0.00319013
	0.001006711	0.003158319	1.934152e-10	4.216729e-08	0.0002001236	-0.001408001	-2.726309e-09	6.051371e-08
	-9.969637e-09	1.918019e-07	0.001074396	0.00319013	-2.726309e-09	6.051371e-08	0.000400802	-0.001260122
2.3e+08	0.00280404	0.002417789	1.321988e-08	5.874107e-08	0.001620923	0.005424044	4.416189e-08	1.948032e-07
	1.321988e-08	5.874107e-08	0.002795256	0.002483889	8.796274e-09	4.330207e-08	0.001620334	0.005441906
	0.001620923	0.005424044	8.796274e-09	4.330207e-08	0.002850653	0.002447396	1.416064e-08	6.152846e-08
	4.416189e-08	1.948032e-07	0.001620334	0.005441906	1.416064e-08	6.152846e-08	0.002854715	0.002592214
2.4e+08	0.006260382	0.005320176	2.947383e-08	5.51428e-08	0.002828602	0.007427948	9.900343e-08	1.823147e-07
	2.947383e-08	5.51428e-08	0.006039036	0.005444171	1.755743e-08	4.199312e-08	0.002748119	0.007452883
	0.002828602	0.007427948	1.755743e-08	4.199312e-08	0.006316091	0.005351504	3.12658e-08	5.770727e-08
	9.900343e-08	1.823147e-07	0.002748119	0.007452883	3.12658e-08	5.770727e-08	0.006109558	0.005551633
2.5e+08	0.01023837	0.007113288	4.460546e-08	4.693659e-08	0.004530702	0.009013514	1.500532e-07	1.542653e-07
	4.460546e-08	4.693659e-08	0.009817017	0.007355888	2.576668e-08	3.821656e-08	0.004365647	0.0090702
	0.004530702	0.009013514	2.576668e-08	3.821656e-08	0.01031077	0.007141549	4.718177e-08	4.903848e-08
	1.500532e-07	1.542653e-07	0.004365647	0.0090702	4.718177e-08	4.903848e-08	0.009897092	0.007459254
2.6e+08	0.01442572	0.007718366	5.729949e-08	3.44991e-08	0.006588515	0.01005878	1.928595e-07	1.11901e-07
	5.729949e-08	3.44991e-08	0.0138333	0.008135797	3.27181e-08	3.215586e-08	0.0063421	0.01017325
	0.006588515	0.01005878	3.27181e-08	3.215586e-08	0.01451951	0.007736237	6.052509e-08	3.592148e-08
	1.928595e-07	1.11901e-07	0.0063421	0.01017325	6.052509e-08	3.592148e-08	0.0139205	0.00823244
2.7e+08	0.01850371	0.007141066	6.63749e-08	1.857929e-08	0.008835043	0.01048585	2.23404e-07	5.773882e-08
	6.63749e-08	1.857929e-08	0.01778415	0.007780658	3.777001e-08	2.419563e-08	0.008518589	0.01068302
	0.008835043	0.01048585	3.777001e-08	2.419563e-08	0.01862018	0.007139916	7.00547e-08	1.914717e-08
	2.23404e-07	5.773882e-08	0.008518589	0.01068302	7.00547e-08	1.914717e-08	0.01787534	0.007868796
2.8e+08	0.02216943	0.005469506	7.088719e-08	2.491455e-10	0.01108847	0.01026685	2.384595e-07	-4.589497e-09
	7.088719e-08	2.491455e-10	0.02137899	0.006365707	4.040112e-08	1.489864e-08	0.01072087	0.01056803
	0.01108847	0.01026685	4.040112e-08	1.489864e-08	0.02230631	0.005440697	7.477926e-08	-1.542723e-10
	2.384595e-07	-4.589497e-09	0.01072087	0.01056803	7.477926e-08	-1.542724e-10	0.02147062	0.006444584
2.9e+08	0.02515649	0.002866639	7.021248e-08	-1.917157e-08	0.01316669	0.009425943	2.358891e-07	-7.058961e-08
	7.021248e-08	-1.917157e-08	0.02436008	0.004037797	4.025857e-08	4.967932e-09	0.01277314	0.009846587
	0.01316669	0.009425943	4.025857e-08	4.967932e-09	0.02530823	0.002802744	7.404551e-08	-2.059292e-08
	2.358891e-07	-7.058961e-08	0.01277314	0.009846587	7.404551e-08	-2.059292e-08	0.02444849	0.004107749
3e+08	0.02725299	-0.0004424421	6.410821e-08	-3.82103e-08	0.01490169	0.008037223	2.148666e-07	-1.352325e-07
	6.410821e-08	-3.82103e-08	0.02651957	0.001003765	3.719431e-08	-4.803398e-09	0.01451183	0.008585181
	0.01490169	0.008037223	3.719431e-08	-4.803398e-09	0.02741141	-0.0005465944	6.760173e-08	-4.061909e-08
	2.148666e-07	-1.352325e-07	0.01451183	0.008585181	6.760173e-08	-4.061909e-08	0.02660133	0.001066223
3.1e+08	0.02831534	-0.004187288	5.274705e-08	-5.534949e-08	0.0161529	0.006218827	1.760001e-07	-1.933338e-07
	5.274705e-08	-5.534949e-08	0.02771285	-0.002485063	3.128692e-08	-1.359125e-08	0.01579842	0.006893134
	0.0161529	0.006218827	3.128692e-08	-1.359125e-08	0.02847055	-0.004333847	5.563305e-08	-5.863691e-08
	1.760001e-07	-1.933338e-07	0.01579842	0.006893134	5.563305e-08	-5.863691e-08	0.02778506	-0.002427689
3.2e+08	0.02827724	-0.00807183	3.672196e-08	-6.914065e-08	0.01681827	0.004123597	1.213482e-07	-2.399571e-07
	3.672196e-08	-6.914065e-08	0.02786732	-0.006151178	2.284687e-08	-2.060453e-08	0.01653028	0.004914017
	0.01681827	0.004123597	2.284687e-08	-2.060453e-08	0.02841877	-0.008259498	3.876653e-08	-7.312416e-08
	1.213482e-07	-2.399571e-07	0.01653028	0.004914017	3.876653e-08	-7.312416e-08	0.02792789	-0.006095681
3.3e+08	0.02715322	-0.01179563	1.702189e-08	-7.831807e-08	0.0168425	0.001927045	5.432743e-08	-2.708138e-07
	1.702189e-08	-7.831807e-08	0.02698613	-0.009710676	1.240431e-08	-2.514982e-08	0.01664878	0.002814401
	0.0168425	0.001927045	1.240431e-08	-2.514982e-08	0.02727119	-0.01201962	1.804524e-08	-8.275187e-08
	5.432743e-08	-2.708138e-07	0.01664878	0.002814401	1.804524e-08	-8.275187e-08	0.02703398	-0.009653324
3.4e+08	0.02503644	-0.01507524	-5.022116e-09	-8.190548e-08	0.01622155	-0.0001865034	-2.048789e-08	-2.82632e-07
	-5.022116e-09	-8.190548e-08	0.02514665	-0.01289323	6.789591e-10	-2.66921e-08	0.01614399	0.0007707992
	0.01622155	-0.0001865034	6.789591e-10	-2.66921e-08	0.02512268	-0.01532758	-5.128538e-09	-8.649625e-08
	-2.048789e-08	-2.82632e-07	0.01614399	0.0007707992	-5.128538e-09	-8.649625e-08	0.02518183	-0.01283007
3.5e+08	0.02209105	-0.01766419	-2.781898e-08	-7.930855e-08	0.01500325	-0.002038539	-9.766342e-08	-2.734663e-07
	-2.781898e-08	-7.930855e-08	0.02249381	-0.0154609	-1.146667e-08	-2.490667e-08	0.01505568	-0.001044245
	0.01500325	-0.002038539	-1.146667e-08	-2.490667e-08	0.02214009	-0.01793444	-2.907989e-08	-8.373593e-08
	-9.766342e-08	-2.734663e-07	0.01505568	-0.001044245	-2.907989e-08	-8.373593e-08	0.02251753	-0.01538812
3.6e+08	0.01853957	-0.01937022	-4.962537e-08	-7.038572e-08	0.01328378	-0.003470674	-1.712832e-07	-2.429197e-07
	-4.962537e-08	-7.038572e-08	0.01922886	-0.0172245	-2.308938e-08	-1.971707e-08	0.01347031	-0.002475848
	0.01328378	-0.003470674	-2.308938e-08	-1.971707e-08	0.01854936	-0.01964638	-5.197382e-08	-7.432425e-08
	-1.712832e-07	-2.429197e-07	0.01347031	-0.002475848	-5.197382e-08	-7.432425e-08	0.01924343	-0.01713871
3.7e+08	0.01464618	-0.02006861	-6.867435e-08	-5.548937e-08	0.01120025	-0.004357476	-2.353975e-07	-1.922767e-07
	-6.867435e-08	-5.548937e-08	0.01559419	-0.01805634	-3.323478e-08	-1.131736e-08	0.01151445	-0.003399206
	0.01120025	-0.004357476	-3.323478e-08	-1.131736e-08	0.01461849	-0.02033827	-7.195218e-08	-5.863881e-08
	-2.353975e-07	-1.922767e-07	0.01151445	-0.003399206	-7.195218e-08	-5.863881e-08	0.01560284	-0.01795496
3.8e+08	0.01069715	-0.0197105	-8.331666e-08	-3.547061e-08	0.00891997	-0.004616788	-2.844962e-07	-1.244832e-07
	-8.331666e-08	-3.547061e-08	0.01185545	-0.01789864	-4.101757e-08	-1.706145e-10	0.009344877	-0.003729718
	0.00891997	-0.004616788	-4.101757e-08	-1.706145e-10	0.01063759	-0.01996206	-8.728288e-08	-3.758032e-08
	-2.844962e-07	-1.244832e-07	0.009344877	-0.003729718	-8.728288e-08	-3.758032e-08	0.01186207	-0.01778006
3.9e+08	0.006979648	-0.0183258	-9.216454e-08	-1.164231e-08	0.006627124	-0.004216659	-3.139776e-07	-4.400559e-08
	-9.216454e-08	-1.164231e-08	0.00828204	-0.01676672	-4.569806e-08	1.301424e-08	0.00713612	-0.003429976
	0.006627124	-0.004216659	-4.569806e-08	1.301424e-08	0.006897286	-0.01854963	-9.651049e-08	-1.253415e-08
	-3.139776e-07	-4.400559e-08	0.00713612	-0.003429976	-9.651049e-08	-1.253415e-08	0.008290893	-0.01663054
4e+08	0.003760663	-0.01602021	-9.42246e-08	1.430115e-08	0.004507981	-0.003178248	-3.205753e-07	4.344722e-08
	-9.42246e-08	1.430115e-08	0.005127538	-0.01474704	-4.675133e-08	2.732825e-08	0.005066559	-0.002513001
	0.004507981	-0.003178248	-4.675133e-08	2.732825e-08	0.00366736	-0.01620969	-9.859609e-08	1.471418e-08
	-3.205753e-07	4.344722e-08	0.005066559	-0.002513001	-9.859609e-08	1.471418e-08	0.005142881	-0.01459409
4.1e+08	0.001267438	-0.01296675	-8.900581e-08	4.040445e-08	0.002735799	-0.001574423	-3.026989e-07	1.313266e-07
	-8.900581e-08	4.040445e-08	0.002611398	-0.01198995	-4.392182e-08	4.172849e-08	0.003304064	-0.001041405
	0.002735799	-0.001574423	-4.392182e-08	4.172849e-08	0.001176826	-0.01311906	-9.303049e-08	4.210657e-08
	-3.026989e-07	1.313266e-07	0.003304064	-0.001041405	-9.303049e-08	4.210657e-08	0.002637131	-0.01182228
4.2e+08	-0.0003290028	-0.009392292	-7.658902e-08	6.460394e-08	0.001456706	0.0004759001	-2.606505e-07	2.127433e-07
	-7.658902e-08	6.460394e-08	0.0009033155	-0.008697935	-3.7257e-08	5.511921e-08	0.001992429	0.0008774858
	0.001456706	0.0004759001	-3.7257e-08	5.511921e-08	-0.0004027164	-0.00950882	-7.990684e-08	6.747343e-08
	-2.606505e-07	2.127433e-07	0.001992429	0.0008774858	-7.990684e-08	6.747343e-08	0.0009426312	-0.008518665
4.3e+08	-0.000926035	-0.00556018	-5.76482e-08	8.489928e-08	0.000777734	0.002817204	-1.966888e-07	2.810227e-07
	-5.76482e-08	8.489928e-08	0.0001113993	-0.005110017	-2.7116e-08	6.644127e-08	0.001239725	0.003100174
	0.000777734	0.002817204	-2.7116e-08	6.644127e-08	-0.0009693604	-0.005646615	-5.994201e-08	8.871459e-08
	-1.966888e-07	2.810227e-07	0.001239725	0.003100174	-5.994201e-08	8.871459e-08	0.0001664976	-0.004923103
4.4e+08	-0.0004964096	-0.001750225	-3.341786e-08	9.952735e-08	0.0007580346	0.005269854	-1.149259e-07	3.302688e-07
	-3.341786e-08	9.952735e-08	0.0002750411	-0.001483712	-1.415109e-08	7.476155e-08	0.001109553	0.00545848
	0.0007580346	0.005269854	-1.415109e-08	7.476155e-08	-0.0004978552	-0.001816219	-3.444127e-08	1.039824e-07
	-1.149259e-07	3.302688e-07	0.001109553	0.00545848	-3.444127e-08	1.039824e-07	0.0003469116	-0.001293629
4.5e+08	0.0009105021	0.001762327	-5.608035e-09	1.071209e-07	0.001403993	0.007644549	-2.105749e-08	3.55882e-07
	-5.608035e-09	1.071209e-07	0.001362956	0.001924215	7.367095e-10	7.935402e-08	0.001615908	0.007773032
	0.001403993	0.007644549	7.367095e-10	7.935402e-08	0.0009592962	0.001703859	-5.207738e-09	1.118479e-07
	-2.105749e-08	3.55882e-07	0.001615908	0.007773032	-5.207738e-09	1.118479e-07	0.001451267	0.002112835
4.6e+08	0.003173215	0.004727276	2.372595e-08	1.068354e-07	0.002668638	0.009757536	7.805186e-08	3.549821e-07
	2.372595e-08	1.068354e-07	0.003276499	0.004876642	1.646417e-08	7.976483e-08	0.002722066	0.009867623
	0.002668638	0.009757536	1.646417e-08	7.976483e-08	0.003276588	0.004661174	2.559557e-08	1.114337e-07
	7.805186e-08	3.549821e-07	0.002722066	0.009867623	2.559557e-08	1.114337e-07	0.003379591	0.005059401
4.7e+08	0.006108052	0.006937822	5.233191e-08	9.842006e-08	0.004455356	0.01144534	1.748575e-07	3.266285e-07
	5.233191e-08	9.842006e-08	0.005857908	0.007173263	3.184553e-08	7.585374e-08	0.004343554	0.01158325
	0.004455356	0.01144534	3.184553e-08	7.585374e-08	0.006265698	0.00684794	5.5603e-08	1.024868e-07
	1.748575e-07	3.266285e-07	0.004343554	0.01158325	5.5603e-08	1.024868e-07	0.005972962	0.007346353
