!$
! Info: Touchstone file created by Circ.  Input file=Tx_16in_Rx_100ohms_TxVia_60mils_RxVia_70mils.circ
!$
# Hz S RI R 50
0	0.01650288	2.21965e-25	0.9833567	-2.190488e-25	0.0001076747	3.609947e-23	-0.0001030351	2.255985e-21
	0.9833566	-2.21433e-25	0.01649821	2.420484e-25	-0.0001035115	2.314415e-21	0.0001044699	4.030028e-23
	0.000108902	3.507307e-23	-0.0001028277	2.23066e-21	0.0165132	2.201043e-25	0.9833353	-2.137501e-25
	-0.000103302	2.28866e-21	0.0001047391	4.04731e-23	0.9833354	-2.237175e-25	0.01651242	2.410115e-25
1e+07	0.02478943	0.008831622	0.9625705	-0.1633321	0.001196139	0.002863057	-0.0007679284	-0.0002034263
	0.9625705	-0.1633321	0.02477953	0.008831406	-0.0007680273	-0.0002033573	0.001191073	0.002864864
	0.00119621	0.002863025	-0.0007679959	-0.0002033797	0.02456788	0.008878696	0.9627815	-0.1634559
	-0.000767897	-0.0002034488	0.001191076	0.002864862	0.9627815	-0.1634559	0.02455679	0.008879072
2e+07	0.0327164	0.0105899	0.9181113	-0.315379	0.002390759	0.005683197	-0.0007410018	-0.0006523223
	0.9181113	-0.315379	0.03267755	0.01059708	-0.0007410264	-0.000652217	0.002371989	0.005691945
	0.002390745	0.005683159	-0.000741037	-0.0006522346	0.03259015	0.01074432	0.9181944	-0.3156842
	-0.0007410012	-0.0006523587	0.002371986	0.005691944	0.9181944	-0.3156842	0.0325466	0.01075366
3e+07	0.03914649	0.008647344	0.8520604	-0.4561675	0.004331632	0.007688347	-0.0007964999	-0.0008141979
	0.8520604	-0.4561675	0.03906435	0.008679713	-0.0007965472	-0.0008141053	0.004293624	0.007712739
	0.004331628	0.007688347	-0.0007965488	-0.0008141045	0.03910311	0.008828348	0.8520052	-0.4565655
	-0.0007965029	-0.0008142009	0.004293623	0.00771274	0.8520052	-0.4565655	0.03901148	0.008866785
4e+07	0.04410231	0.004554001	0.7657258	-0.5837714	0.006795507	0.008856518	-0.0009167999	-0.0008567154
	0.7657258	-0.5837714	0.04397155	0.004634663	-0.0009168631	-0.0008565518	0.006737093	0.008907332
	0.006795513	0.008856518	-0.0009168596	-0.0008565526	0.04413087	0.004728858	0.7655212	-0.5842169
	-0.0009167907	-0.0008567129	0.006737093	0.008907333	0.7655212	-0.5842169	0.04398538	0.004822001
5e+07	0.04735962	-0.0009975759	0.6612177	-0.695567	0.009619611	0.008953829	-0.001216279	-0.0006417104
	0.6612177	-0.695567	0.04718582	-0.0008436946	-0.001216281	-0.0006414516	0.009544467	0.009041704
	0.009619614	0.008953828	-0.001216279	-0.0006414531	0.04744532	-0.0008508655	0.6608577	-0.6960193
	-0.001216273	-0.000641712	0.009544468	0.009041705	0.6608577	-0.6960193	0.04725236	-0.0006751439
6e+07	0.0487407	-0.007398569	0.5411309	-0.7891283	0.01225328	0.00816465	-0.001414108	-0.0003773342
	0.5411309	-0.7891283	0.04854048	-0.007149936	-0.001413987	-0.0003770143	0.01216982	0.008298507
	0.01225328	0.008164652	-0.001413987	-0.0003770135	0.04886571	-0.007294179	0.5406161	-0.7895484
	-0.001414113	-0.0003773312	0.01216982	0.008298507	0.5406161	-0.7895484	0.04864413	-0.007011958
7e+07	0.04817452	-0.01405858	0.4084458	-0.8623919	0.01443689	0.006602891	-0.001522972	-0.0001022411
	0.4084458	-0.8623919	0.04797315	-0.01370146	-0.001522697	-0.000101918	0.01435716	0.00678799
	0.01443689	0.006602897	-0.001522696	-0.0001019147	0.04831946	-0.01400352	0.407784	-0.8627422
	-0.001522981	-0.0001022269	0.01435716	0.00678799	0.407784	-0.8627422	0.04809769	-0.01359979
8e+07	0.04572459	-0.02040871	0.2664427	-0.9137464	0.01595755	0.004455353	-0.001563659	0.0001587941
	0.2664427	-0.9137464	0.04555233	-0.01993997	-0.001563228	0.0001590589	0.01589567	0.004692029
	0.01595755	0.00445536	-0.001563227	0.000159063	0.04587024	-0.02040324	0.2656488	-0.9139916
	-0.001563665	0.000158816	0.01589567	0.004692029	0.2656488	-0.9139916	0.04568206	-0.01987484
9e+07	0.04159444	-0.02592954	0.1186179	-0.9420868	0.01666999	0.001964586	-0.001558	0.0003954299
	0.1186179	-0.9420868	0.04148228	-0.02535805	-0.001557436	0.0003955816	0.0166402	0.002247612
	0.01666999	0.001964592	-0.001557435	0.0003955844	0.04172335	-0.02596782	0.1177142	-0.9421948
	-0.001557999	0.000395448	0.0166402	0.002247613	0.1177142	-0.9421948	0.04160323	-0.02532491
1e+08	0.03613206	-0.03018669	-0.03142887	-0.9468461	0.016504	-0.0005942477	-0.001510061	0.0006085175
	-0.03142887	-0.9468461	0.03610722	-0.02953318	-0.001509407	0.0006085154	0.0165185	-0.0002755389
	0.016504	-0.0005942478	-0.001509407	0.0006085154	0.03622826	-0.03025765	-0.03240954	-0.9467902
	-0.001510061	0.0006085175	0.0165185	-0.000275539	-0.03240954	-0.9467902	0.03620646	-0.02952351
1.1e+08	0.02970086	-0.03294017	-0.1799062	-0.927873	0.01551624	-0.002903743	-0.001476882	0.0007415543
	-0.1799062	-0.927873	0.02978327	-0.03223584	-0.001476228	0.000741346	0.01558331	-0.002564689
	0.01551624	-0.002903743	-0.001476228	0.0007413461	0.02975995	-0.03302066	-0.1809357	-0.927648
	-0.001476882	0.0007415544	0.0155833	-0.002564689	-0.1809357	-0.927648	0.0298587	-0.03223054
1.2e+08	0.02276799	-0.03387338	-0.3230871	-0.8859405	0.01383791	-0.004766655	-0.001496724	0.000898168
	-0.3230871	-0.8859405	0.02296551	-0.03315616	-0.001496155	0.0008977711	0.01395999	-0.004425637
	0.01383791	-0.004766655	-0.001496155	0.0008977712	0.02279407	-0.03395211	-0.324141	-0.885528
	-0.001496724	0.0008981681	0.01395999	-0.004425636	-0.324141	-0.885528	0.02302181	-0.03314865
1.3e+08	0.01590822	-0.03294248	-0.4575138	-0.8222135	0.01163658	-0.005984121	-0.001533632	0.001106492
	-0.4575138	-0.8222135	0.01621481	-0.03225313	-0.001533218	0.001105964	0.01180947	-0.005660335
	0.01163658	-0.005984121	-0.001533217	0.001105964	0.01590579	-0.03300916	-0.4585586	-0.8216
	-0.001533632	0.001106492	0.01180947	-0.005660334	-0.4585586	-0.8216	0.01625537	-0.03223799
1.4e+08	0.00965515	-0.03026593	-0.5799207	-0.7383844	0.009144497	-0.006423782	-0.001554602	0.001381916
	-0.5799207	-0.7383844	0.01005005	-0.0296428	-0.001554375	0.001381343	0.009357091	-0.00613483
	0.009144497	-0.006423782	-0.001554375	0.001381343	0.00963118	-0.03031193	-0.5809184	-0.7375627
	-0.001554602	0.001381916	0.00935709	-0.006134829	-0.5809184	-0.7375627	0.01007898	-0.02961589
1.5e+08	0.004476073	-0.0261087	-0.6873469	-0.6366355	0.006625155	-0.006035269	-0.001522674	0.001724539
	-0.6873469	-0.6366355	0.004925	-0.02558252	-0.00152262	0.001724012	0.006860166	-0.005794721
	0.006625155	-0.006035269	-0.00152262	0.001724012	0.004439794	-0.02612795	-0.6882567	-0.6356061
	-0.001522674	0.001724538	0.006860165	-0.00579472	-0.6882567	-0.6356061	0.004947081	-0.02554121
1.6e+08	0.0007353744	-0.02085636	-0.7772159	-0.5195844	0.004344231	-0.004855557	-0.001402671	0.002117977
	-0.7772159	-0.5195844	0.001193438	-0.02044553	-0.001402729	0.002117571	0.004579711	-0.004670817
	0.004344231	-0.004855556	-0.001402729	0.002117571	0.0006974687	-0.02084606	-0.7779961	-0.5183559
	-0.001402671	0.002117977	0.00457971	-0.004670817	-0.7779961	-0.5183559	0.00121373	-0.02038885
1.7e+08	-0.00133455	-0.01497922	-0.8474021	-0.3902156	0.00254103	-0.003004689	-0.001167844	0.002531192
	-0.8474021	-0.3902156	-0.0009182905	-0.01468632	-0.001167922	0.002530939	0.002752624	-0.002875466
	0.00254103	-0.003004689	-0.001167922	0.002530939	-0.001362997	-0.01494021	-0.8480114	-0.3888049
	-0.001167844	0.002531192	0.002752624	-0.002875466	-0.8480114	-0.3888049	-0.0008949287	-0.01461498
1.8e+08	-0.001650872	-0.008989543	-0.8962831	-0.2518012	0.001403191	-0.0006725487	-0.0008053471	0.002923154
	-0.8962831	-0.2518012	-0.001327773	-0.008799508	-0.0008053435	0.002923033	0.001566864	-0.0005901549
	0.001403192	-0.0006725486	-0.0008053436	0.002923033	-0.001659561	-0.008926312	-0.8966831	-0.2502336
	-0.0008053472	0.002923154	0.001566864	-0.0005901546	-0.8966831	-0.2502336	-0.001297172	-0.008715717
1.9e+08	-0.0002845828	-0.003395546	-0.9227782	-0.1078147	0.001047239	0.001901732	-0.0003192175	0.003249448
	-0.9227782	-0.1078147	-0.0001003057	-0.003275868	-0.000319052	0.003249383	0.001142171	0.00195411
	0.001047239	0.001901732	-0.0003190521	0.003249383	-0.0002651724	-0.003315863	-0.9229341	-0.1061231
	-0.0003192176	0.003249448	0.001142171	0.00195411	-0.9229341	-0.1061231	-5.941137e-05	-0.003183035
2e+08	0.002548992	0.00134349	-0.9263691	0.03816043	0.001506958	0.004455341	0.0002697317	0.003469493
	-0.9263691	0.03816043	0.002560351	0.001440467	0.0002700929	0.003469371	0.001518265	0.004501377
	0.001506958	0.004455341	0.0002700928	0.003469371	0.002601893	0.001429357	-0.9262521	0.03993583
	0.0002697317	0.003469493	0.001518265	0.004501377	-0.9262521	0.03993583	0.002613179	0.001538179
2.1e+08	0.006512461	0.004856975	-0.9071061	0.1825215	0.00273066	0.006729486	0.0009270707	0.003552954
	-0.9071061	0.1825215	0.006333292	0.004989803	0.0009275981	0.003552649	0.002651599	0.006797553
	0.00273066	0.006729486	0.0009275981	0.003552649	0.006600581	0.004937327	-0.9066942	0.1843348
	0.0009270706	0.003552954	0.002651599	0.006797553	-0.9066942	0.1843348	0.006398136	0.005087992
2.2e+08	0.01117918	0.00689403	-0.8655983	0.3217366	0.004587396	0.008496245	0.001610254	0.003484097
	-0.8655983	0.3217366	0.01081169	0.007126362	0.001610854	0.003483504	0.00442077	0.008616576
	0.004587396	0.008496245	0.001610854	0.003483504	0.01130025	0.006956998	-0.8648776	0.323537
	0.001610254	0.003484097	0.00442077	0.008616576	-0.8648776	0.323537	0.01088711	0.007220911
2.3e+08	0.0160734	0.007343121	-0.8029904	0.4524288	0.006881242	0.009581824	0.002275301	0.003263313
	-0.8029904	0.4524288	0.01554094	0.007736948	0.002275829	0.003262378	0.006639817	0.009783275
	0.006881242	0.009581824	0.002275829	0.003262378	0.01622127	0.007377992	-0.8019559	0.4541626
	0.002275301	0.003263313	0.006639817	0.009783275	-0.8019559	0.4541626	0.01562414	0.007824511
2.4e+08	0.02071403	0.006238747	-0.7209276	0.5714549	0.009372004	0.009883949	0.002883285	0.00290564
	-0.7209276	0.5714549	0.02006003	0.006847384	0.002883577	0.002904382	0.009077822	0.01019073
	0.009372004	0.009883949	0.002883577	0.002904382	0.02087916	0.006237205	-0.7195838	0.5730665
	0.002883285	0.00290564	0.009077822	0.01019073	-0.7195838	0.5730665	0.02014724	0.006925783
2.5e+08	0.02465788	0.00375493	-0.6215103	0.6759747	0.01180012	0.009381813	0.003405349	0.002436743
	-0.6215103	0.6759747	0.02394256	0.004616537	0.003405256	0.002435259	0.01148276	0.009810519
	0.01180012	0.009381813	0.003405256	0.002435259	0.02482825	0.003712078	-0.6198715	0.6774089
	0.003405349	0.002436743	0.01148276	0.009810519	-0.6198715	0.6774089	0.02402946	0.004685014
2.6e+08	0.02753861	0.0001863261	-0.5072405	0.7635142	0.01391324	0.008137743	0.00382533	0.001887303
	-0.5072405	0.7635142	0.0268336	0.001318697	0.003824754	0.001885755	0.01360717	0.008695067
	0.01391324	0.008137743	0.003824754	0.001885755	0.02770099	0.0001013735	-0.5053308	0.7647171
	0.00382533	0.001887303	0.01360717	0.008695067	-0.5053308	0.7647171	0.02691585	0.001378018
2.7e+08	0.02909814	-0.00408105	-0.3809611	0.8320178	0.01549193	0.006290556	0.004139589	0.001287073
	-0.3809611	0.8320178	0.02847952	-0.002683773	0.004138513	0.001285658	0.01523312	0.00697191
	0.01549193	0.006290556	0.004138513	0.001285658	0.02923938	-0.00420451	-0.3788143	0.8329393
	0.004139589	0.001287073	0.01523312	0.00697191	-0.3788143	0.8329393	0.02855322	-0.002631394
2.8e+08	0.02920763	-0.00860672	-0.2457897	0.8798933	0.01637195	0.004041315	0.004354266	0.0006598729
	-0.2457897	0.8798933	0.02874806	-0.00697497	0.00435276	0.000658783	0.01619419	0.004830588
	0.01637195	0.004041315	0.00435276	0.000658783	0.02931619	-0.008760895	-0.2434486	0.8804882
	0.004354266	0.0006598729	0.01619419	0.004830588	-0.2434486	0.8804882	0.02881027	-0.006926091
2.9e+08	0.0278767	-0.01293693	-0.1050466	0.9060468	0.01646104	0.001632864	0.004480688	2.055092e-05
	-0.1050466	0.9060468	0.02763751	-0.01112403	0.004478903	1.993301e-05	0.01639226	0.002503385
	0.01646104	0.001632864	0.004478903	1.993299e-05	0.02794388	-0.01311048	-0.1025623	0.9062767
	0.004480688	2.05509e-05	0.01639226	0.002503385	-0.1025623	0.9062767	0.02768655	-0.01107437
3e+08	0.02524998	-0.01664645	0.03782118	0.909908	0.01574855	-0.0006749101	0.004530071	-0.0006254964
	0.03782118	0.909908	0.02527392	-0.01472437	0.004528209	-0.0006255749	0.01580752	0.0002417769
	0.01574855	-0.0006749101	0.004528209	-0.0006255749	0.02527105	-0.01682554	0.04039024	0.9097425
	0.004530071	-0.0006254964	0.01580752	0.0002417769	0.04039024	0.9097425	0.02530965	-0.01466926
3.1e+08	0.02159148	-0.01937724	0.1793203	0.8914454	0.0143069	-0.002631683	0.004508745	-0.001280245
	0.1793203	0.8914454	0.02189714	-0.01743012	0.004507018	-0.001279813	0.01450068	-0.001709169
	0.0143069	-0.002631683	0.004507018	-0.001279813	0.02156633	-0.01954691	0.1819096	0.8908637
	0.004508745	-0.001280245	0.01450068	-0.001709169	0.1819096	0.8908637	0.02192097	-0.01736504
3.2e+08	0.01725822	-0.02087067	0.3159931	0.8511694	0.01228448	-0.004022565	0.004415029	-0.00194895
	0.3159931	0.8511694	0.01783665	-0.01898667	0.004413614	-0.001948128	0.01260704	-0.003135913
	0.01228448	-0.004022565	0.004413614	-0.001948128	0.0171916	-0.02101635	0.3185338	0.8501614
	0.004415029	-0.00194895	0.01260704	-0.003135913	0.3185338	0.8501614	0.01785146	-0.01890774
3.3e+08	0.01266553	-0.02099023	0.4445022	0.7901232	0.009890799	-0.004690576	0.004238498	-0.002635041
	0.4445022	0.7901232	0.01347966	-0.0192525	0.004237493	-0.002634014	0.01032286	-0.003878548
	0.009890799	-0.004690576	0.004237493	-0.002634014	0.01256678	-0.02109934	0.4469227	0.7886904
	0.004238498	-0.002635041	0.01032286	-0.003878548	0.4469227	0.7886904	0.01348948	-0.01915697
3.4e+08	0.008247193	-0.01973273	0.561713	0.70986	0.007375013	-0.00455333	0.003961831	-0.003335227
	0.561713	0.70986	0.009234134	-0.01821043	0.003961237	-0.003334203	0.007885319	-0.00384755
	0.007375013	-0.00455333	0.003961237	-0.003334203	0.008129404	-0.01979609	0.563941	0.7080163
	0.003961831	-0.003335227	0.007885319	-0.00384755	0.563941	0.7080163	0.009243761	-0.01809699
3.5e+08	0.004414067	-0.01722687	0.6647738	0.612407	0.005000145	-0.003612062	0.003564878	-0.004036003
	0.6647738	0.612407	0.005490355	-0.01596723	0.003564597	-0.004035162	0.005548104	-0.003033333
	0.005000145	-0.003612062	0.003564597	-0.004035162	0.004292911	-0.01723982	0.6667386	0.6101785
	0.003564878	-0.004036003	0.005548104	-0.003033333	0.6667386	0.6101785	0.005504816	-0.01583622
3.6e+08	0.001515272	-0.01371935	0.7511892	0.5002146	0.003015627	-0.001951921	0.003030043	-0.004712438
	0.7511892	0.5002146	0.002584487	-0.0127416	0.003029899	-0.004711887	0.003555036	-0.001507492
	0.003015627	-0.001951921	0.003029899	-0.004711887	0.001407426	-0.0136824	0.7528235	0.49764
	0.003030043	-0.004712438	0.003555036	-0.001507492	0.7528235	0.49764	0.002608497	-0.01259499
3.7e+08	-0.0001944661	-0.00954968	0.8188846	0.3760942	0.001631105	0.0002666291	0.002347794	-0.005329626
	0.8188846	0.3760942	0.0007676799	-0.008841682	0.002347579	-0.00532937	0.002114681	0.0005844921
	0.001631105	0.0002666291	0.002347579	-0.00532937	-0.0002730281	-0.009468727	0.8201273	0.3732239
	0.002347794	-0.005329626	0.002114681	0.0005844921	0.8201273	0.3732239	0.0008051047	-0.008682929
3.8e+08	-0.0005780456	-0.005116458	0.8662592	0.2431446	0.0009943702	0.00282441	0.001521052	-0.005846576
	0.8662592	0.2431446	0.0001836367	-0.004634459	0.001520578	-0.005846509	0.001378603	0.003038336
	0.0009943702	0.00282441	0.001520578	-0.005846509	-0.0006137598	-0.005002317	0.8670573	0.24004
	0.001521052	-0.005846576	0.001378603	0.003038336	0.8670573	0.24004	0.0002370415	-0.004468144
3.9e+08	0.000372383	-0.0008381571	0.8922252	0.1046706	0.001175817	0.005466365	0.0005674579	-0.006221783
	0.8922252	0.1046706	0.0008567469	-0.0005098394	0.00056661	-0.006221713	0.001425636	0.005612219
	0.001175817	0.005466365	0.00056661	-0.006221713	0.0003891626	-0.0007056441	0.8925355	0.1014025
	0.000567458	-0.006221783	0.001425636	0.005612219	0.8925355	0.1014025	0.0009270817	-0.0003411972
4e+08	0.002536456	0.002887431	0.8962316	-0.03590327	0.002161079	0.007928134	-0.0004810211	-0.006419347
	0.8962316	-0.03590327	0.002691821	0.003156804	-0.0004822487	-0.006419035	0.002253828	0.008051908
	0.002161079	0.007928134	-0.0004822487	-0.006419035	0.002610311	0.003020908	0.8960227	-0.03925637
	-0.0004810211	-0.006419347	0.002253828	0.008051908	0.8960227	-0.03925637	0.002778276	0.003322451
4.1e+08	0.005679022	0.005721219	0.8782733	-0.1751214	0.003852574	0.009963506	-0.001581119	-0.006414371
	0.8782733	-0.1751214	0.005485261	0.006040084	-0.00158261	-0.006413589	0.003780845	0.01011704
	0.003852574	0.009963506	-0.00158261	-0.006413589	0.005808817	0.005837373	0.8775266	-0.1784752
	-0.001581119	-0.006414371	0.003780845	0.01011704	0.8775266	-0.1784752	0.005585313	0.006197901
4.2e+08	0.009474439	0.007414557	0.8388842	-0.3095834	0.006079682	0.01136982	-0.002683317	-0.006196551
	0.8388842	-0.3095834	0.008946355	0.007894589	-0.002684847	-0.006195141	0.005852682	0.01160576
	0.006079682	0.01136982	-0.002684847	-0.006195141	0.009653244	0.007496083	0.8375953	-0.3128503
	-0.002683317	-0.006196551	0.005852682	0.01160576	0.8375953	-0.3128503	0.009056001	0.008040772
4.3e+08	0.01353916	0.007831772	0.7791179	-0.4360276	0.008616372	0.01200874	-0.003737884	-0.005771267
	0.7791179	-0.4360276	0.01272642	0.008576692	-0.003739163	-0.005769186	0.008259639	0.01237526
	0.008616372	0.01200874	-0.003739163	-0.005769186	0.01375478	0.007864162	0.7772967	-0.4391188
	-0.003737884	-0.005771267	0.008259639	0.01237526	0.7772967	-0.4391188	0.01284058	0.008708907
4.4e+08	0.01746932	0.006961504	0.700515	-0.5514078	0.01120436	0.01182031	-0.004700691	-0.005158017
	0.700515	-0.5514078	0.01645283	0.008056295	-0.004701425	-0.005155359	0.01075782	0.0123561
	0.01120436	0.01182031	-0.004701425	-0.005155359	0.01770535	0.006934623	0.6981861	-0.5542356
	-0.004700691	-0.005158017	0.01075782	0.0123561	0.6981861	-0.5542356	0.01656586	0.008173962
4.5e+08	0.02087958	0.00491604	0.6050608	-0.6529627	0.01357939	0.01082904	-0.005537672	-0.004386621
	0.6050608	-0.6529627	0.01976458	0.006417661	-0.005537624	-0.004383611	0.0130939	0.01155909
	0.01357939	0.01082904	-0.005537624	-0.004383611	0.021117	0.004825302	0.6022633	-0.6554432
	-0.005537672	-0.004386621	0.0130939	0.01155909	0.6022633	-0.6554432	0.0198709	0.006522064
4.6e+08	0.02343969	0.001918942	0.4951346	-0.7382772	0.01549801	0.009141499	-0.006227091	-0.003492056
	0.4951346	-0.7382772	0.02234612	0.003849542	-0.006226137	-0.003489008	0.0150307	0.0100741
	0.01549801	0.009141499	-0.006226137	-0.003489008	0.02365864	0.001765953	0.4919212	-0.7403325
	-0.006227091	-0.003492056	0.0150307	0.0100741	0.4919212	-0.7403325	0.02244077	0.003943739
4.7e+08	0.0249052	-0.001717625	0.3734511	-0.8053358	0.01676222	0.00693571	-0.006759306	-0.002509064
	0.3734511	-0.8053358	0.0239563	0.0006257634	-0.006757471	-0.002506327	0.01637106	0.008061027
	0.01676222	0.00693571	-0.006757471	-0.002506327	0.025087	-0.001925087	0.3698877	-0.8068961
	-0.006759306	-0.002509064	0.01637106	0.008061027	0.3698877	-0.8068961	0.02403546	0.0007142528
4.8e+08	0.02513984	-0.00562362	0.2429968	-0.8525659	0.01723961	0.004443478	-0.007134248	-0.001467678
	0.2429968	-0.8525659	0.02444993	-0.002921787	-0.007131701	-0.001465563	0.01697772	0.005733849
	0.01723961	0.004443478	-0.007131701	-0.001465563	0.02526892	-0.005872071	0.2391608	-0.8535718
	-0.007134248	-0.001467678	0.01697772	0.005733849	0.2391608	-0.8535718	0.02451141	-0.002833378
4.9e+08	0.02412744	-0.009406971	0.106961	-0.8788731	0.01687716	0.001927276	-0.007357297	-0.0003905815
	0.106961	-0.8788731	0.02379021	-0.006435174	-0.007354328	-0.000389296	0.01678735	0.003339299
	0.01687716	0.001927276	-0.007354328	-0.000389296	0.02419305	-0.009678463	0.1029397	-0.8792773
	-0.007357297	-0.0003905815	0.01678735	0.003339299	0.1029397	-0.8792773	0.02383375	-0.006340712
5e+08	0.02197242	-0.01269122	-0.03133806	-0.8836668	0.0157071	-0.0003460858	-0.007434623	0.0007072172
	-0.03133806	-0.8836668	0.02205086	-0.009564499	-0.00743158	0.0007076094	0.01581727	0.001132164
	0.0157071	-0.0003460858	-0.00743158	0.0007076094	0.02196985	-0.01296503	-0.03544911	-0.8834357
	-0.007434623	0.0007072172	0.01581727	0.001132164	-0.03544911	-0.8834357	0.0220782	-0.009457995
5.1e+08	0.01888889	-0.01515147	-0.1685299	-0.8668751	0.01384438	-0.002132475	-0.007369113	0.001816421
	-0.1685299	-0.8668751	0.0194079	-0.0120009	-0.007366334	0.001816015	0.01416421	-0.0006503971
