!$
! Info: Touchstone file created by Circ.  Input file=Tx_14in_Rx_100ohms_TxVia_60mils_RxVia_70mils.circ
!$
# Hz S RI R 50
0	0.01448932	1.752696e-25	-7.475938e-05	-4.633063e-26	9.451671e-05	2.794093e-23	-7.475686e-05	-1.018064e-25
	-7.475937e-05	-4.708225e-26	0.01448483	2.164518e-25	-7.475837e-05	-4.374383e-26	9.423342e-05	3.53628e-23
	9.55996e-05	2.812758e-23	-7.475837e-05	-4.395832e-26	0.01450459	1.753146e-25	-7.475798e-05	7.758146e-26
	-7.475685e-05	-1.033443e-25	9.450274e-05	3.551445e-23	-7.475798e-05	7.701055e-26	0.01449909	2.155186e-25
1e+07	0.02100863	0.00821098	-4.492976e-06	-1.423803e-05	0.0005188154	0.002539585	-4.125428e-06	-1.98214e-05
	-4.492976e-06	-1.423803e-05	0.02163879	0.008229165	-2.249996e-06	-4.082927e-06	0.001004655	0.002571164
	0.000518847	0.00253959	-2.249996e-06	-4.082927e-06	0.02028275	0.008662189	-5.062771e-06	-5.322607e-06
	-4.125429e-06	-1.98214e-05	0.001004658	0.002571162	-5.062771e-06	-5.322607e-06	0.02144364	0.008267554
2e+07	0.0279764	0.01072218	-6.776704e-06	1.05074e-06	0.001587138	0.004898988	-3.2748e-06	-6.851713e-06
	-6.776705e-06	1.05074e-06	0.02847066	0.01053398	-2.970959e-05	-2.710124e-05	0.001914505	0.005163651
	0.001587153	0.004898969	-2.970959e-05	-2.710124e-05	0.02792227	0.01163474	-3.566801e-05	-2.600482e-05
	-3.2748e-06	-6.851712e-06	0.001914502	0.005163651	-3.566801e-05	-2.600482e-05	0.02835151	0.01066868
3e+07	0.03383832	0.01003309	-1.128676e-05	8.857598e-08	0.003233639	0.006796734	-2.959538e-06	-3.471741e-06
	-1.128677e-05	8.857607e-08	0.03419988	0.009788795	-5.169909e-05	-2.27692e-05	0.003446099	0.007144442
	0.00323364	0.006796732	-5.169909e-05	-2.27692e-05	0.03429248	0.01093407	-5.734819e-05	-2.058663e-05
	-2.959538e-06	-3.471741e-06	0.003446099	0.007144444	-5.734819e-05	-2.058663e-05	0.03414577	0.00995363
4e+07	0.03871838	0.007502015	-1.433057e-05	1.988313e-06	0.005309006	0.008128265	-2.534698e-06	-1.636587e-06
	-1.433057e-05	1.988313e-06	0.03894852	0.007259368	-6.722955e-05	-1.000368e-05	0.005463622	0.008518441
	0.00530901	0.008128269	-6.722955e-05	-1.000368e-05	0.03955265	0.008217603	-7.244337e-05	-6.889477e-06
	-2.534698e-06	-1.636588e-06	0.005463623	0.008518442	-7.244337e-05	-6.889477e-06	0.03895135	0.007429604
5e+07	0.04247626	0.003625619	-1.601546e-05	5.199629e-06	0.007633544	0.00880746	-1.988132e-06	-4.79139e-07
	-1.601546e-05	5.199628e-06	0.042582	0.003428187	-7.664751e-05	7.303095e-06	0.007909055	0.009082167
	0.007633547	0.008807462	-7.664751e-05	7.303095e-06	0.04356414	0.004058658	-8.131097e-05	1.125501e-05
	-1.988133e-06	-4.791391e-07	0.007909056	0.009082168	-8.131097e-05	1.125501e-05	0.04263192	0.003587827
6e+07	0.04495625	-0.001200301	-1.639863e-05	9.030389e-06	0.01001219	0.008798707	-1.362779e-06	2.428078e-07
	-1.639863e-05	9.030389e-06	0.04495626	-0.001314387	-8.010353e-05	2.699694e-05	0.01034565	0.008945285
	0.01001219	0.008798705	-8.010353e-05	2.699694e-05	0.04617266	-0.001097609	-8.410131e-05	3.170575e-05
	-1.362779e-06	2.428079e-07	0.01034565	0.008945285	-8.410131e-05	3.170575e-05	0.04504213	-0.001176128
7e+07	0.04604523	-0.006595215	-1.553063e-05	1.304614e-05	0.01226148	0.008101857	-7.13945e-07	6.241078e-07
	-1.553063e-05	1.304614e-05	0.04596748	-0.006596465	-7.765788e-05	4.749538e-05	0.01258638	0.008145092
	0.01226146	0.008101856	-7.765788e-05	4.749538e-05	0.04727084	-0.006831545	-8.09152e-05	5.289617e-05
	-7.139443e-07	6.241075e-07	0.01258638	0.008145092	-8.09152e-05	5.289617e-05	0.04607727	-0.006486209
8e+07	0.04569876	-0.01217983	-1.34612e-05	1.692869e-05	0.01418165	0.006807243	-1.074599e-07	7.244853e-07
	-1.34612e-05	1.692868e-05	0.04557749	-0.01204921	-6.940729e-05	6.749879e-05	0.01445984	0.00676672
	0.01418164	0.006807246	-6.940729e-05	6.749879e-05	0.04682457	-0.01273148	-7.180701e-05	7.35213e-05
	-1.074592e-07	7.244846e-07	0.01445984	0.00676672	-7.180701e-05	7.35213e-05	0.04569881	-0.01196968
9e+07	0.04395234	-0.01758419	-1.020754e-05	2.04329e-05	0.01562033	0.00503708	3.939931e-07	5.993325e-07
	-1.020754e-05	2.04329e-05	0.04382567	-0.01731401	-5.527488e-05	8.589443e-05	0.01582301	0.004937916
	0.01562032	0.005037084	-5.527488e-05	8.589443e-05	0.04488171	-0.01840134	-5.665718e-05	9.244362e-05
	3.939935e-07	5.993317e-07	0.01582301	0.004937916	-5.665718e-05	9.244362e-05	0.04394643	-0.0172643
1e+08	0.04093849	-0.02246224	-5.343657e-06	2.335022e-05	0.01647174	0.002949372	7.297081e-07	2.92925e-07
	-5.343657e-06	2.335022e-05	0.04084737	-0.02205628	-3.307795e-05	0.0001016998	0.01656505	0.002819119
	0.01647174	0.002949372	-3.307795e-05	0.0001016998	0.04156444	-0.02347653	-3.320461e-05	0.0001086667
	7.297081e-07	2.92925e-07	0.01656505	0.002819119	-3.320461e-05	0.0001086667	0.04095477	-0.02203242
1.1e+08	0.03680279	-0.02659586	-3.348828e-09	2.322185e-05	0.01666047	0.0007008984	8.110574e-07	8.078262e-08
	-3.348825e-09	2.322185e-05	0.0367827	-0.02608223	-7.994785e-06	0.0001028358	0.01665252	0.0006368869
	0.01666047	0.0007008981	-7.994785e-06	0.0001028358	0.03711211	-0.02758684	-6.732654e-06	0.0001096659
	8.110574e-07	8.078262e-08	0.01665252	0.0006368871	-6.732654e-06	0.0001096659	0.03687112	-0.02606806
1.2e+08	0.03174987	-0.02963593	1.693567e-06	2.256241e-05	0.01616348	-0.001484974	6.249136e-07	-6.508605e-09
	1.693567e-06	2.256241e-05	0.03182023	-0.0290408	1.160911e-05	9.996399e-05	0.01611299	-0.00146949
	0.01616348	-0.001484975	1.160911e-05	9.996399e-05	0.03183511	-0.03054614	9.574735e-06	0.0001068281
	6.249136e-07	-6.50861e-09	0.01611299	-0.001469489	9.574735e-06	0.0001068281	0.03189225	-0.02903054
1.3e+08	0.02612054	-0.03139555	3.582732e-06	2.192048e-05	0.0150382	-0.003418299	4.30894e-07	1.975564e-08
	3.582732e-06	2.192048e-05	0.02629536	-0.03075073	1.940728e-05	9.664175e-05	0.01498159	-0.003327068
	0.0150382	-0.003418299	1.940728e-05	9.664175e-05	0.02603826	-0.0321925	1.80751e-05	0.0001036296
	4.30894e-07	1.975564e-08	0.01498158	-0.003327067	1.80751e-05	0.0001036296	0.02635202	-0.03073954
1.4e+08	0.02026729	-0.03178082	5.545239e-06	2.115347e-05	0.01338669	-0.004933335	2.739142e-07	1.010096e-07
	5.545239e-06	2.115347e-05	0.02055083	-0.03112215	2.759462e-05	9.28438e-05	0.01335052	-0.004779861
	0.01338669	-0.004933336	2.759462e-05	9.28438e-05	0.02006676	-0.0324461	2.699168e-05	9.988735e-05
	2.739142e-07	1.010096e-07	0.01335052	-0.00477986	2.699168e-05	9.988735e-05	0.02059375	-0.03110568
1.5e+08	0.01454818	-0.03079057	7.522567e-06	2.022547e-05	0.01135214	-0.005900307	1.672288e-07	2.257923e-07
	7.522567e-06	2.022547e-05	0.01493342	-0.0301547	3.586242e-05	8.839509e-05	0.01135366	-0.00570436
	0.01135214	-0.005900307	3.586242e-05	8.839509e-05	0.01427397	-0.03131694	3.600778e-05	9.541673e-05
	1.672288e-07	2.257923e-07	0.01135366	-0.005704359	3.600778e-05	9.541673e-05	0.01496504	-0.0301293
1.6e+08	0.009305356	-0.02851435	9.471705e-06	1.911275e-05	0.009107643	-0.006235515	1.203769e-07	3.780688e-07
	9.471705e-06	1.911275e-05	0.009773801	-0.02793524	4.39959e-05	8.319262e-05	0.009154589	-0.006019972
	0.009107643	-0.006235516	4.39959e-05	8.319262e-05	0.008997451	-0.02890389	4.489372e-05	9.010971e-05
	1.203769e-07	3.780688e-07	0.009154589	-0.006019972	4.489372e-05	9.010971e-05	0.009797274	-0.02789811
1.7e+08	0.004843412	-0.02512505	1.135356e-05	1.780018e-05	0.006842109	-0.005907839	1.378216e-07	5.391584e-07
	1.135356e-05	1.780018e-05	0.005366031	-0.02463041	5.181187e-05	7.718205e-05	0.006932987	-0.005695655
	0.006842108	-0.005907839	5.181187e-05	7.718205e-05	0.004536557	-0.0253876	5.345218e-05	8.391022e-05
	1.378216e-07	5.391584e-07	0.006932986	-0.005695655	5.345218e-05	8.391022e-05	0.005385006	-0.0245798
1.8e+08	0.001409812	-0.0208662	1.312911e-05	1.628074e-05	0.004744758	-0.004940934	2.182993e-07	6.897553e-07
	1.312911e-05	1.628074e-05	0.001949121	-0.02047427	5.914119e-05	7.03484e-05	0.004869744	-0.00475235
	0.004744757	-0.004940934	5.914119e-05	7.03484e-05	0.001132878	-0.02101776	6.150067e-05	7.680441e-05
	2.182993e-07	6.897553e-07	0.004869744	-0.00475235	6.150067e-05	7.680441e-05	0.00196747	-0.02040959
1.9e+08	-0.0008208653	-0.01603458	1.475983e-05	1.455476e-05	0.002989649	-0.003410911	3.549432e-07	8.119078e-07
	1.475983e-05	1.455476e-05	-0.0003077569	-0.01575169	6.582348e-05	6.271279e-05	0.003132161	-0.003261082
	0.002989649	-0.003410911	6.582348e-05	6.271279e-05	-0.001045438	-0.01609573	6.886659e-05	6.881719e-05
	3.549432e-07	8.119078e-07	0.003132161	-0.003261082	6.886659e-05	6.881719e-05	-0.000286273	-0.01567348
2e+08	-0.001757707	-0.01095932	1.620538e-05	1.263335e-05	0.001721527	-0.001439709	5.360756e-07	8.909408e-07
	1.620538e-05	1.263335e-05	-0.00131537	-0.01077837	7.17082e-05	5.433055e-05	0.001860349	-0.001336917
	0.001721527	-0.001439709	7.17082e-05	5.433055e-05	-0.001914232	-0.01095363	7.538866e-05	6.000977e-05
	5.360756e-07	8.909408e-07	0.001860349	-0.001336917	7.538866e-05	6.000977e-05	-0.001287402	-0.01068828
2.1e+08	-0.001398429	-0.005978949	1.74275e-05	1.053826e-05	0.001044205	0.0008152654	7.466581e-07	9.166866e-07
	1.74275e-05	1.053826e-05	-0.001068985	-0.00587914	7.665854e-05	4.528917e-05	0.001155997	0.0008706653
	0.001044205	0.0008152654	7.665854e-05	4.528917e-05	-0.001478039	-0.005931399	8.092115e-05	5.047728e-05
	7.466581e-07	9.166866e-07	0.001155997	0.0008706653	8.092115e-05	5.047728e-05	-0.001031888	-0.005779685
2.2e+08	0.0001718417	-0.001418043	1.839353e-05	8.298875e-06	0.001012422	0.003174301	9.700198e-07	8.840966e-07
	1.839353e-05	8.298875e-06	0.0003528551	-0.001365772	8.055651e-05	3.570491e-05	0.001074396	0.00319013
	0.001012422	0.003174301	8.055651e-05	3.570491e-05	0.0001714156	-0.001353484	8.53393e-05	4.034452e-05
	9.700198e-07	8.840966e-07	0.001074396	0.00319013	8.53393e-05	4.034452e-05	0.000400802	-0.001260122
2.3e+08	0.002787856	0.002434937	1.907722e-05	5.952042e-06	0.001627812	0.005450217	1.189622e-06	7.932923e-07
	1.907722e-05	5.952042e-06	0.002795256	0.002483889	8.3308e-05	2.571797e-05	0.001620334	0.005441906
	0.001627812	0.005450217	8.3308e-05	2.571797e-05	0.002862781	0.002493195	8.85442e-05	2.976054e-05
	1.189622e-06	7.932923e-07	0.001620334	0.005441906	8.85442e-05	2.976054e-05	0.002854715	0.002592214
2.4e+08	0.006217038	0.005346962	1.946046e-05	3.540186e-06	0.002839231	0.007463614	1.390651e-06	6.489658e-07
	1.946046e-05	3.540186e-06	0.006039036	0.005444171	8.484707e-05	1.548691e-05	0.002748119	0.007452883
	0.002839231	0.007463614	8.484707e-05	1.548691e-05	0.006358127	0.005378385	9.046687e-05	1.889243e-05
	1.390651e-06	6.489658e-07	0.002748119	0.007452883	9.046687e-05	1.889243e-05	0.006109558	0.005551633
2.5e+08	0.0101768	0.007155589	1.953427e-05	1.108896e-06	0.004547337	0.009057298	1.561213e-06	4.592783e-07
	1.953427e-05	1.108896e-06	0.009817017	0.007355888	8.513857e-05	5.181153e-06	0.004365647	0.0090702
	0.004547337	0.009057298	8.513857e-05	5.181153e-06	0.01037049	0.007143456	9.107038e-05	7.917436e-06
	1.561213e-06	4.592783e-07	0.004365647	0.0090702	9.107038e-05	7.917436e-06	0.009897092	0.007459254
2.6e+08	0.01435509	0.007778933	1.92991e-05	-1.295537e-06	0.006612947	0.01010874	1.693007e-06	2.345103e-07
	1.92991e-05	-1.295537e-06	0.0138333	0.008135797	8.417912e-05	-5.026076e-06	0.0063421	0.01017325
	0.006612947	0.01010874	8.417912e-05	-5.026076e-06	0.01458456	0.007711114	9.035019e-05	-2.984289e-06
	1.693007e-06	2.345103e-07	0.0063421	0.01017325	9.035019e-05	-2.984289e-06	0.0139205	0.00823244
2.7e+08	0.01843262	0.007219858	1.876427e-05	-3.628535e-06	0.008868454	0.01053963	1.781444e-06	-1.4352e-08
	1.876427e-05	-3.628535e-06	0.01778415	0.007780658	8.199581e-05	-1.496512e-05	0.008518589	0.01068302
	0.008868454	0.01053963	8.199581e-05	-1.496512e-05	0.01867911	0.007089306	8.833242e-05	-1.363687e-05
	1.781444e-06	-1.4352e-08	0.008518589	0.01068302	8.833242e-05	-1.363687e-05	0.01787534	0.007868796
2.8e+08	0.0221053	0.005564182	1.794697e-05	-5.849228e-06	0.01113135	0.01032188	1.825264e-06	-2.768587e-07
	1.794697e-05	-5.849228e-06	0.02137899	0.006365707	7.864378e-05	-2.447605e-05	0.01072087	0.01056803
	0.01113135	0.01032188	7.864378e-05	-2.447605e-05	0.02234936	0.005369128	8.507102e-05	-2.387452e-05
	1.825264e-06	-2.768587e-07	0.01072087	0.01056803	8.507102e-05	-2.387452e-05	0.02147062	0.006444584
2.9e+08	0.02510513	0.002973141	1.687052e-05	-7.921946e-06	0.01321879	0.009479603	1.825782e-06	-5.440344e-07
	1.687052e-05	-7.921946e-06	0.02436008	0.004037797	7.420177e-05	-3.341375e-05	0.01277314	0.009846587
	0.01321879	0.009479603	7.420177e-05	-3.341375e-05	0.02532797	0.002716979	8.064318e-05	-3.354626e-05
	1.825782e-06	-5.440344e-07	0.01277314	0.009846587	8.064318e-05	-3.354626e-05	0.02444849	0.004107749
3e+08	0.0272183	-0.0003292649	1.55626e-05	-9.817034e-06	0.01496206	0.008087078	1.785907e-06	-8.088998e-07
	1.55626e-05	-9.817034e-06	0.02651957	0.001003765	6.876712e-05	-4.165129e-05	0.01451183	0.008585181
	0.01496206	0.008087078	6.876712e-05	-4.165129e-05	0.02740303	-0.0006383813	7.514441e-05	-4.251876e-05
	1.785907e-06	-8.088998e-07	0.01451183	0.008585181	7.514441e-05	-4.251876e-05	0.02660133	0.001066223
3.1e+08	0.02829932	-0.004073056	1.405344e-05	-1.151105e-05	0.01621994	0.006262802	1.709141e-06	-1.06655e-06
	1.405344e-05	-1.151105e-05	0.02771285	-0.002485063	6.245085e-05	-4.908164e-05	0.01579842	0.006893134
	0.01621994	0.006262802	6.245085e-05	-4.908164e-05	0.02843199	-0.004422903	6.868392e-05	-5.067776e-05
	1.709141e-06	-1.06655e-06	0.01579842	0.006893134	6.868392e-05	-5.067776e-05	0.02778506	-0.002427689
3.2e+08	0.02828008	-0.007962072	1.237418e-05	-1.298636e-05	0.0168899	0.004160136	1.598695e-06	-1.313855e-06
	1.237418e-05	-1.298636e-05	0.02786732	-0.006151178	5.537256e-05	-5.561778e-05	0.01653028	0.004914017
	0.0168899	0.004160136	5.537256e-05	-5.561778e-05	0.02835062	-0.008337275	6.137987e-05	-5.792796e-05
	1.598695e-06	-1.313855e-06	0.01653028	0.004914017	6.137987e-05	-5.792796e-05	0.02792789	-0.006095681
3.3e+08	0.02717351	-0.01169531	1.055567e-05	-1.423035e-05	0.01691627	0.001955235	1.456869e-06	-1.548849e-06
	1.055567e-05	-1.423035e-05	0.02698613	-0.009710676	4.765633e-05	-6.119156e-05	0.01664878	0.002814401
	0.01691627	0.001955235	4.765633e-05	-6.119156e-05	0.02717636	-0.01207844	5.335581e-05	-6.419184e-05
	1.456869e-06	-1.548849e-06	0.01664878	0.002814401	5.335581e-05	-6.419184e-05	0.02703398	-0.009653324
3.4e+08	0.02507154	-0.01498839	8.627798e-06	-1.523447e-05	0.01629486	-0.000166862	1.284777e-06	-1.76997e-06
	8.627798e-06	-1.523447e-05	0.02514665	-0.01289323	3.942805e-05	-6.57521e-05	0.01614399	0.0007707992
	0.01629486	-0.000166862	3.942805e-05	-6.57521e-05	0.02500597	-0.0153612	4.473835e-05	-6.940827e-05
	1.284777e-06	-1.76997e-06	0.01614399	0.0007707992	4.473835e-05	-6.940827e-05	0.02518183	-0.01283007
3.5e+08	0.02213745	-0.01759369	6.619167e-06	-1.599318e-05	0.01507355	-0.002026918	1.08243e-06	-1.975286e-06
	6.619167e-06	-1.599318e-05	0.02249381	-0.0154609	3.081318e-05	-6.926342e-05	0.01505568	-0.001044245
	0.01507355	-0.002026918	3.081318e-05	-6.926342e-05	0.02200763	-0.01793838	3.565536e-05	-7.353036e-05
	1.08243e-06	-1.975286e-06	0.01505568	-0.001044245	3.565536e-05	-7.353036e-05	0.02251753	-0.01538812
3.6e+08	0.01859333	-0.0193177	4.557353e-06	-1.650313e-05	0.01334876	-0.003465858	8.491478e-07	-2.161842e-06
	4.557353e-06	-1.650313e-05	0.01922886	-0.0172245	2.193605e-05	-7.170275e-05	0.01347031	-0.002475848
	0.01334876	-0.003465858	2.193605e-05	-7.170275e-05	0.01840803	-0.01961816	2.623556e-05	-7.652419e-05
	8.491478e-07	-2.161842e-06	0.01347031	-0.002475848	2.623556e-05	-7.652419e-05	0.01924343	-0.01713871
3.7e+08	0.01470334	-0.02003446	2.469199e-06	-1.676272e-05	0.01125805	-0.004357658	5.842093e-07	-2.325298e-06
	2.469199e-06	-1.676272e-05	0.01559419	-0.01805634	1.291961e-05	-7.305885e-05	0.01151445	-0.003399206
	0.01125805	-0.004357658	1.291961e-05	-7.305885e-05	0.01447533	-0.02027741	1.660843e-05	-7.836765e-05
	5.842093e-07	-2.325298e-06	0.01151445	-0.003399206	1.660843e-05	-7.836765e-05	0.01560284	-0.01795496
3.8e+08	0.01075403	-0.01969401	3.814667e-07	-1.677179e-05	0.008969277	-0.004619714	2.876256e-07	-2.459827e-06
	3.814667e-07	-1.677179e-05	0.01185545	-0.01789864	3.885776e-06	-7.333123e-05	0.009344877	-0.003729718
	0.008969277	-0.004619714	3.885776e-06	-7.333123e-05	0.01049924	-0.01986998	6.904586e-06	-7.905025e-05
	2.876256e-07	-2.459827e-06	0.009344877	-0.003729718	6.904586e-06	-7.905025e-05	0.01186207	-0.01778006
3.9e+08	0.007033163	-0.01832535	-1.678656e-06	-1.65319e-05	0.006667324	-0.004219803	-3.910847e-08	-2.5584e-06
	-1.678656e-06	-1.65319e-05	0.00828204	-0.01676672	-5.044162e-06	-7.253008e-05	0.00713612	-0.003429976
	0.006667324	-0.004219803	-5.044162e-06	-7.253008e-05	0.006769556	-0.01842936	-2.744018e-06	-7.857359e-05
	-3.910847e-08	-2.5584e-06	0.00713612	-0.003429976	-2.744018e-06	-7.857359e-05	0.008290893	-0.01663054
4e+08	0.003808465	-0.01603357	-3.683243e-06	-1.604676e-05	0.004539179	-0.003179015	-3.924223e-07	-2.613353e-06
	-3.683243e-06	-1.604676e-05	0.005127538	-0.01474704	-1.37494e-05	-7.067674e-05	0.005066559	-0.002513001
	0.004539179	-0.003179015	-1.37494e-05	-7.067674e-05	0.003554821	-0.01606555	-1.220426e-05	-7.69524e-05
	-3.924223e-07	-2.613353e-06	0.005066559	-0.002513001	-1.220426e-05	-7.69524e-05	0.005142881	-0.01459409
4.1e+08	0.001308037	-0.01299133	-5.603609e-06	-1.532302e-05	0.002758818	-0.001570352	-7.663416e-07	-2.617183e-06
	-5.603609e-06	-1.532302e-05	0.002611398	-0.01198995	-2.210992e-05	-6.780481e-05	0.003304064	-0.001041405
	0.002758818	-0.001570352	-2.210992e-05	-6.780481e-05	0.001082611	-0.01295621	-2.134273e-05	-7.421607e-05
	-7.663416e-07	-2.617183e-06	0.003304064	-0.001041405	-2.134273e-05	-7.421607e-05	0.002637131	-0.01182228
4.2e+08	-0.0002962564	-0.00942543	-7.410655e-06	-1.437092e-05	0.001473014	0.00048694	-1.152494e-06	-2.563425e-06
	-7.410655e-06	-1.437092e-05	0.0009033155	-0.008697935	-3.000745e-05	-6.396133e-05	0.001992429	0.0008774858
	0.001473014	0.00048694	-3.000745e-05	-6.396133e-05	-0.0004770317	-0.009332817	-3.002742e-05	-7.041e-05
	-1.152494e-06	-2.563425e-06	0.001992429	0.0008774858	-3.002742e-05	-7.041e-05	0.0009426312	-0.008518665
4.3e+08	-0.0009010253	-0.005599391	-9.075551e-06	-1.320495e-05	0.0007893312	0.002836853	-1.540452e-06	-2.447486e-06
	-9.075551e-06	-1.320495e-05	0.0001113993	-0.005110017	-3.732716e-05	-5.920794e-05	0.001239725	0.003100174
	0.0007893312	0.002836853	-3.732716e-05	-5.920794e-05	-0.001023743	-0.005462987	-3.81301e-05	-6.559673e-05
	-1.540452e-06	-2.447486e-06	0.001239725	0.003100174	-3.81301e-05	-6.559673e-05	0.0001664976	-0.004923103
4.4e+08	-0.0004784004	-0.001793387	-1.057071e-05	-1.184424e-05	0.0007672908	0.005299131	-1.918369e-06	-2.267303e-06
	-1.057071e-05	-1.184424e-05	0.0002750411	-0.001483712	-4.396002e-05	-5.362169e-05	0.001109553	0.00545848
	0.0007672909	0.005299131	-4.396002e-05	-5.362169e-05	-0.0005336764	-0.001630061	-4.552936e-05	-5.985635e-05
	-1.918369e-06	-2.267303e-06	0.001109553	0.00545848	-4.552936e-05	-5.985635e-05	0.0003469116	-0.001293629
4.5e+08	0.0009226894	0.001716834	-1.187092e-05	-1.031254e-05	0.001413462	0.007683777	-2.273812e-06	-2.023726e-06
	-1.187092e-05	-1.031254e-05	0.001362956	0.001924215	-4.980581e-05	-4.72952e-05	0.001615908	0.007773032
	0.001413462	0.007683777	-4.980581e-05	-4.72952e-05	0.0009394779	0.001888219	-5.211398e-05	-5.328616e-05
	-2.273812e-06	-2.023726e-06	0.001615908	0.007773032	-5.211398e-05	-5.328616e-05	0.001451267	0.002112835
4.6e+08	0.003181002	0.004680516	-1.295456e-05	-8.637935e-06	0.002680859	0.009806324	-2.594675e-06	-1.72058e-06
	-1.295456e-05	-8.637935e-06	0.003276499	0.004876642	-5.477616e-05	-4.033604e-05	0.002722066	0.009867623
	0.002680859	0.009806324	-5.477616e-05	-4.033604e-05	0.003269333	0.004840421	-5.77864e-05	-4.599928e-05
	-2.594675e-06	-1.72058e-06	0.002722066	0.009867623	-5.77864e-05	-4.599928e-05	0.003379591	0.005059401
4.7e+08	0.00611285	0.006890312	-1.38046e-05	-6.852027e-06	0.004472655	0.01150262	-2.86995e-06	-1.364372e-06
	-1.38046e-05	-6.852027e-06	0.005857908	0.007173263	-5.879749e-05	-3.286517e-05	0.004343554	0.01158325
	0.004472655	0.01150262	-5.879749e-05	-3.286517e-05	0.006267047	0.007019902	-6.246514e-05	-3.812219e-05
	-2.86995e-06	-1.364372e-06	0.004343554	0.01158325	-6.246514e-05	-3.812219e-05	0.005972962	0.007346353
