!$
! Info: Touchstone file created by Circ.  Input file=Tx_14in_Rx_85ohms_TxVia_60mils_RxVia_70mils.circ
!$
# Hz S RI R 50
0	0.01128605	1.842558e-25	1.335997e-09	1.947133e-27	9.46874e-05	2.227778e-23	1.204114e-09	8.389236e-28
	1.336005e-09	1.947136e-27	0.01128128	2.180153e-25	9.176616e-10	2.823623e-27	9.489331e-05	2.750721e-23
	9.566748e-05	2.266829e-23	9.176505e-10	2.823595e-27	0.01129988	1.763444e-25	-3.267266e-09	4.490544e-25
	1.204112e-09	8.388059e-28	9.516281e-05	2.762516e-23	-3.26686e-09	4.490047e-25	0.01129564	2.170748e-25
1e+07	0.01572619	-0.01360613	2.934495e-09	3.141257e-09	0.0004757689	0.002568139	2.878332e-09	2.988534e-08
	2.934495e-09	3.141257e-09	0.01384916	-0.01369128	1.839895e-09	2.344668e-09	0.0005781004	0.002570988
	0.0004757775	0.002568106	1.839895e-09	2.344668e-09	0.0138782	-0.01392937	-3.248196e-09	1.82125e-08
	2.878332e-09	2.988534e-08	0.0005781032	0.002570986	-3.248197e-09	1.82125e-08	0.01381936	-0.0136759
2e+07	0.01289664	-0.03121343	5.714602e-09	4.872958e-09	0.00158861	0.004893446	2.02583e-08	1.715624e-08
	5.714602e-09	4.872958e-09	0.01124776	-0.0306652	3.459422e-09	3.91132e-09	0.001722203	0.004806826
	0.001588583	0.004893446	3.459422e-09	3.91132e-09	0.01106342	-0.03103887	-1.848549e-09	7.468214e-09
	2.02583e-08	1.715624e-08	0.0017222	0.004806826	-1.848548e-09	7.468214e-09	0.01123132	-0.03062302
3e+07	0.003893536	-0.04805949	9.148547e-09	4.546759e-09	0.003348807	0.006672978	3.218971e-08	1.363553e-08
	9.148547e-09	4.546759e-09	0.002423678	-0.04721609	5.202069e-09	4.448511e-09	0.003415426	0.00657541
	0.003348804	0.006672982	5.202069e-09	4.448511e-09	0.002108578	-0.04760309	9.366388e-09	4.771e-09
	3.218971e-08	1.363553e-08	0.003415425	0.006575412	9.366388e-09	4.771e-09	0.00241617	-0.04715904
4e+07	-0.009915348	-0.06177968	1.256822e-08	2.768717e-09	0.005488936	0.007828917	4.371195e-08	6.045926e-09
	1.256822e-08	2.768717e-09	-0.01122392	-0.06071103	7.128405e-09	4.18147e-09	0.005492166	0.007748157
	0.005488935	0.007828913	7.128405e-09	4.18147e-09	-0.01161281	-0.06108315	1.360322e-08	2.985683e-09
	4.371195e-08	6.045926e-09	0.005492167	0.007748158	1.360322e-08	2.985683e-09	-0.01122547	-0.06064198
5e+07	-0.02711767	-0.0710881	1.541313e-08	-6.303398e-10	0.007805745	0.008293534	5.293419e-08	-6.682327e-09
	1.541313e-08	-6.303398e-10	-0.02827076	-0.06982334	8.74476e-09	3.066345e-09	0.007753465	0.008251272
	0.007805743	0.008293532	8.74476e-09	3.066345e-09	-0.02869234	-0.07017994	1.645904e-08	-6.396267e-10
	5.293419e-08	-6.682327e-09	0.007753466	0.008251272	1.645904e-08	-6.396267e-10	-0.02826872	-0.06974246
6e+07	-0.04616549	-0.07525539	1.701178e-08	-5.432611e-09	0.01008731	0.008062008	5.7672e-08	-2.390734e-08
	1.701178e-08	-5.432611e-09	-0.04715808	-0.07381041	9.719091e-09	1.215762e-09	0.009992024	0.008075553
	0.01008731	0.008062012	9.719091e-09	1.215762e-09	-0.04758644	-0.07416348	1.7953e-08	-5.630442e-09
	5.7672e-08	-2.390734e-08	0.009992025	0.008075553	1.7953e-08	-5.630443e-09	-0.04715359	-0.0737166
7e+07	-0.06546308	-0.07405293	1.680199e-08	-1.114213e-08	0.01213558	0.007191295	5.611853e-08	-4.393181e-08
	1.680199e-08	-1.114213e-08	-0.06628128	-0.07244154	9.773332e-09	-1.11849e-09	0.01201381	0.007273103
	0.01213559	0.007191299	9.773332e-09	-1.11849e-09	-0.06670381	-0.07280693	1.765956e-08	-1.151849e-08
	5.611853e-08	-4.393181e-08	0.01201381	0.007273103	1.765956e-08	-1.151849e-08	-0.06627428	-0.07233337
8e+07	-0.08348054	-0.06771406	1.443491e-08	-1.70576e-08	0.01378393	0.005790367	4.720064e-08	-6.437369e-08
	1.443491e-08	-1.70576e-08	-0.08410449	-0.06595423	8.730721e-09	-3.585322e-09	0.01365504	0.005947333
	0.01378395	0.005790369	8.730721e-09	-3.585322e-09	-0.08451865	-0.06634567	1.52289e-08	-1.767609e-08
	4.720064e-08	-6.437369e-08	0.01365505	0.005947333	1.52289e-08	-1.767609e-08	-0.08409392	-0.06583035
9e+07	-0.09886154	-0.0568774	9.838918e-09	-2.237116e-08	0.01490896	0.004006292	3.077017e-08	-8.252312e-08
	9.838918e-09	-2.237116e-08	-0.09926939	-0.05499508	6.546857e-09	-5.779963e-09	0.01479394	0.004239294
	0.01490897	0.004006291	6.546857e-09	-5.779963e-09	-0.09967748	-0.05541998	1.051793e-08	-2.334781e-08
	3.077017e-08	-8.252312e-08	0.01479394	0.004239294	1.051793e-08	-2.334781e-08	-0.09925333	-0.05485468
1e+08	-0.110513	-0.04251045	3.243261e-09	-2.628376e-08	0.01543771	0.002009075	7.657056e-09	-9.570439e-08
	3.243261e-09	-2.628376e-08	-0.1106883	-0.04054228	3.320218e-09	-7.29137e-09	0.0153594	0.002313494
	0.01543771	0.002009075	3.320218e-09	-7.29137e-09	-0.11108	-0.04099655	3.645339e-09	-2.773605e-08
	7.657056e-09	-9.570439e-08	0.0153594	0.002313494	3.645339e-09	-2.773605e-08	-0.1106646	-0.04038548
1.1e+08	-0.117667	-0.0258134	-4.848245e-09	-2.821653e-08	0.0153442	-3.0123e-05	-2.024977e-08	-1.020798e-07
	-4.848245e-09	-2.821653e-08	-0.1175941	-0.02378836	-7.072911e-10	-7.788386e-09	0.01532158	0.0003232999
	0.0153442	-3.012316e-05	-7.072911e-10	-7.788386e-09	-0.1179777	-0.02433472	-4.854516e-09	-2.981353e-08
	-2.024977e-08	-1.020798e-07	0.01532158	0.0003233001	-4.854516e-09	-2.981353e-08	-0.1175595	-0.02361507
1.2e+08	-0.1199197	-0.008133742	-1.381555e-08	-2.7571e-08	0.0146476	-0.001931513	-5.093804e-08	-9.977734e-08
	-1.381555e-08	-2.7571e-08	-0.1195806	-0.006105878	-5.199156e-09	-6.999354e-09	0.01468592	-0.001547208
	0.0146476	-0.001931513	-5.199156e-09	-6.999354e-09	-0.1200148	-0.006729932	-1.427997e-08	-2.91789e-08
	-5.093804e-08	-9.977734e-08	0.01468592	-0.001547207	-1.427997e-08	-2.91789e-08	-0.1195313	-0.005918821
1.3e+08	-0.1172515	0.009147632	-2.281403e-08	-2.405848e-08	0.01341776	-0.003536709	-8.16391e-08	-8.78376e-08
	-2.281403e-08	-2.405848e-08	-0.1166482	0.011115	-9.73845e-09	-4.763425e-09	0.01351967	-0.00314072
	0.01341776	-0.003536709	-9.73845e-09	-4.763425e-09	-0.1171606	0.01044801	-2.374489e-08	-2.552863e-08
	-8.16391e-08	-8.78376e-08	0.01351967	-0.003140719	-2.374489e-08	-2.552863e-08	-0.1165818	0.01131159
1.4e+08	-0.1100114	0.02471146	-3.09176e-08	-1.766177e-08	0.01176056	-0.004712704	-1.092975e-07	-6.617389e-08
	-3.09176e-08	-1.766177e-08	-0.1091652	0.02655249	-1.386177e-08	-1.056595e-09	0.01192337	-0.004324928
	0.01176056	-0.004712704	-1.386177e-08	-1.056595e-09	-0.1097636	0.02588525	-3.227565e-08	-1.884226e-08
	-1.092975e-07	-6.617389e-08	0.01192337	-0.004324927	-3.227565e-08	-1.884226e-08	-0.1090808	0.02675341
1.5e+08	-0.09888507	0.03739112	-3.720648e-08	-8.659707e-09	0.009812342	-0.005358993	-1.308348e-07	-3.565357e-08
	-3.720648e-08	-8.659707e-09	-0.09783745	0.03904365	-1.710152e-08	3.999266e-09	0.01002738	-0.004998362
	0.009812342	-0.005358993	-1.710152e-08	3.999266e-09	-0.09851071	0.03841984	-3.890366e-08	-9.410095e-09
	-1.308348e-07	-3.565357e-08	0.01002738	-0.004998361	-3.890366e-08	-9.410095e-09	-0.09773597	0.03924329
1.6e+08	-0.08484319	0.0462535	-4.085949e-08	2.381336e-09	0.007731924	-0.005414149	-1.43437e-07	1.895262e-09
	-4.085949e-08	2.381336e-09	-0.08365485	0.04766556	-1.902988e-08	1.013693e-08	0.007984791	-0.005096778
	0.007731923	-0.005414149	-1.902988e-08	1.013693e-08	-0.08437438	0.04712361	-4.276252e-08	2.174467e-09
	-1.43437e-07	1.895262e-09	0.007984791	-0.005096777	-4.276252e-08	2.174467e-09	-0.08353917	0.0478585
1.7e+08	-0.06907059	0.05066582	-4.124126e-08	1.464381e-08	0.005690989	-0.004861345	-1.4485e-07	4.376025e-08
	-4.124126e-08	1.464381e-08	-0.06781857	0.05180183	-1.930248e-08	1.695658e-08	0.005962409	-0.004598755
	0.005690989	-0.004861345	-1.930248e-08	1.695658e-08	-0.06854108	0.0513693	-4.318021e-08	1.505232e-08
	-1.4485e-07	4.376025e-08	0.005962409	-0.004598755	-4.318021e-08	1.505232e-08	-0.0676934	0.05198353
1.8e+08	-0.05287983	0.05034387	-3.797618e-08	2.712084e-08	0.003862401	-0.003732058	-1.33658e-07	8.651182e-08
	-3.797618e-08	2.712084e-08	-0.05165265	0.05118997	-1.769874e-08	2.395115e-08	0.004129648	-0.003529704
	0.003862401	-0.003732058	-1.769874e-08	2.395115e-08	-0.05232431	0.05087896	-3.975784e-08	2.816324e-08
	-1.33658e-07	8.651182e-08	0.004129649	-0.003529703	-3.975784e-08	2.816324e-08	-0.05152425	0.05135733
1.9e+08	-0.03761266	0.04537703	-3.100197e-08	3.869888e-08	0.002406597	-0.002106855	-1.09517e-07	1.262622e-07
	-3.100197e-08	3.869888e-08	-0.03650369	0.04594489	-1.415539e-08	3.054412e-08	0.002645386	-0.001963094
	0.002406597	-0.002106855	-1.415539e-08	3.054412e-08	-0.03706564	0.04574884	-3.242705e-08	4.033293e-08
	-1.09517e-07	1.262622e-07	0.002645386	-0.001963094	-3.242705e-08	4.033293e-08	-0.03637939	0.04609681
2e+08	-0.02453533	0.03622604	-2.059736e-08	4.825467e-08	0.00145689	-0.0001119728	-7.330851e-08	1.590062e-07
	-2.059736e-08	4.825467e-08	-0.02363493	0.03655458	-8.788888e-09	3.61383e-08	0.001643568	-1.764389e-05
	0.00145689	-0.0001119728	-8.788888e-09	3.61383e-08	-0.0240296	0.03644682	-2.148021e-08	5.037573e-08
	-7.330851e-08	1.590062e-07	0.001643568	-1.764384e-05	-2.148021e-08	5.037573e-08	-0.0235225	0.03669224
2.1e+08	-0.01473558	0.02369078	-7.380476e-09	5.475857e-08	0.001105283	0.002089168	-2.718133e-08	1.810194e-07
	-7.380476e-09	5.475857e-08	-0.01412272	0.02384528	-1.902758e-09	4.017271e-08	0.001219132	0.002150499
	0.001105283	0.002089168	-1.902758e-09	4.017271e-08	-0.01430049	0.0237797	-7.569074e-09	5.720451e-08
	-2.718133e-08	1.810194e-07	0.001219132	0.002150499	-7.569074e-09	5.720451e-08	-0.01402963	0.02397232
2.2e+08	-0.009030819	0.008848098	7.723334e-09	5.737572e-08	0.001390967	0.004309647	2.554368e-08	1.89273e-07
	7.723334e-09	5.737572e-08	-0.008764986	0.008916683	6.02379e-09	4.218271e-08	0.001416417	0.004360722
	0.001390967	0.004309647	6.02379e-09	4.218271e-08	-0.008690462	0.00883049	8.329293e-09	5.993856e-08
	2.554368e-08	1.89273e-07	0.001416417	0.004360722	8.329293e-09	5.993856e-08	-0.008697616	0.00903907
2.3e+08	-0.007897145	-0.007036687	2.354303e-08	5.55567e-08	0.002293773	0.006356873	8.061276e-08	1.818137e-07
	2.354303e-08	5.55567e-08	-0.008011453	-0.0069492	1.436753e-08	4.185663e-08	0.002222297	0.006425113
	0.002293773	0.006356873	1.436753e-08	4.185663e-08	-0.007668839	-0.007130718	2.497838e-08	5.799995e-08
	8.061276e-08	1.818137e-07	0.002222297	0.006425113	2.497838e-08	5.799995e-08	-0.007974392	-0.006823482
2.4e+08	-0.01142782	-0.02261727	3.874986e-08	4.910942e-08	0.003734285	0.008052447	1.332075e-07	1.580546e-07
	3.874986e-08	4.910942e-08	-0.01192422	-0.02239758	2.241223e-08	3.908151e-08	0.003565772	0.00816774
	0.003734285	0.008052447	2.241223e-08	3.908151e-08	-0.01132095	-0.02275466	4.097636e-08	5.118954e-08
	1.332075e-07	1.580546e-07	0.003565772	0.00816774	4.097636e-08	5.118954e-08	-0.01191963	-0.02225912
2.5e+08	-0.01932658	-0.03658233	5.196672e-08	3.824461e-08	0.005581235	0.009251176	1.784046e-07	1.189297e-07
	5.196672e-08	3.824461e-08	-0.02017375	-0.03611826	2.941474e-08	3.397061e-08	0.005324658	0.00944327
	0.005581235	0.009251176	2.941474e-08	3.397061e-08	-0.01934201	-0.0367292	5.487282e-08	3.973405e-08
	1.784046e-07	1.189297e-07	0.005324658	0.00944327	5.487282e-08	3.973405e-08	-0.02020094	-0.03595697
2.6e+08	-0.03093698	-0.04776783	6.189161e-08	2.358794e-08	0.007665356	0.009856295	2.116712e-07	6.688409e-08
	6.189161e-08	2.358794e-08	-0.0320713	-0.04695833	3.467909e-08	2.686766e-08	0.007338626	0.01015201
	0.007665356	0.009856295	3.467909e-08	2.686766e-08	-0.03106714	-0.04789176	6.529951e-08	2.429731e-08
	2.116712e-07	6.688409e-08	0.007338626	0.01015201	6.529951e-08	2.429731e-08	-0.03212652	-0.04676434
2.7e+08	-0.04530437	-0.05525392	6.742476e-08	6.153486e-09	0.009797629	0.009828598	2.293332e-07	5.698074e-09
	6.742476e-08	6.153486e-09	-0.04663396	-0.05401847	3.76294e-08	1.83256e-08	0.009426581	0.01024913
	0.009797629	0.009828598	3.76294e-08	1.83256e-08	-0.04553398	-0.05532607	7.110415e-08	5.95047e-09
	2.293332e-07	5.698074e-09	0.009426581	0.01024913	7.110415e-08	5.95047e-09	-0.04671053	-0.05378305
2.8e+08	-0.06126303	-0.05843688	6.778689e-08	-1.272318e-08	0.01178907	0.009188417	2.289597e-07	-5.983342e-08
	6.778689e-08	-1.272318e-08	-0.06267452	-0.05672339	3.787287e-08	9.061935e-09	0.01140562	0.009747017
	0.01178907	0.009188417	3.787287e-08	9.061935e-09	-0.06157036	-0.05843383	7.147368e-08	-1.390012e-08
	2.289597e-07	-5.983342e-08	0.01140562	0.009747017	7.147368e-08	-1.390012e-08	-0.06276318	-0.05643984
2.9e+08	-0.07753828	-0.05707045	6.261439e-08	-3.148945e-08	0.01346913	0.008010745	2.096213e-07	-1.243235e-07
	6.261439e-08	-3.148945e-08	-0.0789057	-0.05486079	3.524477e-08	-1.045688e-10	0.01310877	0.008710978
	0.01346913	0.008010745	3.524477e-08	-1.045688e-10	-0.07789685	-0.05697558	6.603251e-08	-3.36235e-08
	2.096213e-07	-1.243235e-07	0.01310877	0.008710978	6.603251e-08	-3.36235e-08	-0.07899526	-0.05452522
3e+08	-0.09285287	-0.05127472	5.201876e-08	-4.850895e-08	0.01470045	0.006414999	1.720013e-07	-1.822671e-07
	5.201876e-08	-4.850895e-08	-0.09404789	-0.04858749	2.983084e-08	-8.327974e-09	0.01439925	0.007249865
	0.01470045	0.006414999	2.983084e-08	-8.327974e-09	-0.09323341	-0.05107904	5.490303e-08	-5.150398e-08
	1.720013e-07	-1.822671e-07	0.01439925	0.007249865	5.490303e-08	-5.150398e-08	-0.09412611	-0.04819932
3.1e+08	-0.1060277	-0.04151481	3.66013e-08	-6.221023e-08	0.01538866	0.00455155	1.183598e-07	-2.285152e-07
	3.66013e-08	-6.221023e-08	-0.1069303	-0.03840503	2.196518e-08	-1.481185e-08	0.01518007	0.005503514
	0.01538866	0.00455155	2.196518e-08	-1.481185e-08	-0.1064003	-0.04121733	3.871957e-08	-6.589622e-08
	1.183598e-07	-2.285152e-07	0.01518007	0.005503514	3.871957e-08	-6.589622e-08	-0.1069849	-0.03796728
3.2e+08	-0.1160694	-0.02855403	1.741999e-08	-7.123498e-08	0.01548714	0.002587171	5.236794e-08	-2.58707e-07
	1.741999e-08	-7.123498e-08	-0.1165779	-0.0251098	1.220533e-08	-1.888059e-08	0.01539892	0.003629169
	0.01548714	0.002587172	1.220533e-08	-1.888059e-08	-0.1164051	-0.0281615	1.859288e-08	-7.537909e-08
	5.236794e-08	-2.58707e-07	0.01539892	0.003629169	1.859288e-08	-7.537909e-08	-0.1165975	-0.02462905
3.3e+08	-0.1222386	-0.0133878	-4.088594e-09	-7.456976e-08	0.01499727	0.0006911426	-2.11644e-08	-2.696312e-07
	-4.088594e-09	-7.456976e-08	-0.1222787	-0.009724224	1.288122e-09	-2.003921e-08	0.01504879	0.001788474
	0.01499727	0.0006911426	1.288122e-09	-2.003921e-08	-0.1225119	-0.01291407	-3.971398e-09	-7.889218e-08
	-2.11644e-08	-2.696312e-07	0.01504879	0.001788474	-3.971398e-09	-7.889218e-08	-0.1222542	-0.009210257
3.4e+08	-0.1240978	0.002835343	-2.625339e-08	-7.165575e-08	0.01396543	-0.0009769776	-9.663502e-08	-2.594602e-07
	-2.625339e-08	-7.165575e-08	-0.1236294	0.006584432	-9.92675e-09	-1.801458e-08	0.01416562	0.0001359968
	0.01396543	-0.0009769776	-9.92675e-09	-1.801458e-08	-0.1242879	0.003370357	-2.722146e-08	-7.584882e-08
	-9.663502e-08	-2.594602e-07	0.01416562	0.0001359968	-2.722146e-08	-7.584882e-08	-0.1235546	0.007119301
3.5e+08	-0.1215364	0.01889944	-4.723032e-08	-6.242118e-08	0.01247774	-0.002277571	-1.680381e-07	-2.280374e-07
	-4.723032e-08	-6.242118e-08	-0.1205584	0.02259153	-2.052743e-08	-1.278799e-08	0.01282385	-0.001190476
	0.01247774	-0.002277571	-2.052743e-08	-1.278799e-08	-0.1216284	0.01947118	-4.922515e-08	-6.617364e-08
	-1.680381e-07	-2.280374e-07	0.01282385	-0.001190476	-4.922515e-08	-6.617364e-08	-0.1204307	0.02313339
3.6e+08	-0.114774	0.0336086	-6.521567e-08	-4.733596e-08	0.01065339	-0.003099314	-2.294349e-07	-1.768509e-07
	-6.521567e-08	-4.733596e-08	-0.1133256	0.03710355	-2.961776e-08	-4.594988e-09	0.01113074	-0.002078031
	0.01065339	-0.003099314	-2.961776e-08	-4.594988e-09	-0.1147601	0.0341895	-6.809074e-08	-5.03571e-08
	-2.294349e-07	-1.768509e-07	0.01113074	-0.002078031	-6.809074e-08	-5.03571e-08	-0.1131464	0.03763795
3.7e+08	-0.1043424	0.04587167	-7.858878e-08	-2.737904e-08	0.008636908	-0.003365998	-2.753816e-07	-1.090166e-07
	-7.858878e-08	-2.737904e-08	-0.102502	0.04904309	-3.638557e-08	6.084136e-09	0.009219617	-0.002445462
	0.008636908	-0.003365998	-3.638557e-08	6.084136e-09	-0.1042223	0.04643305	-8.2116e-08	-2.942343e-08
	-2.753816e-07	-1.090166e-07	0.009219617	-0.002445462	-8.2116e-08	-2.942343e-08	-0.1022769	0.04955624
3.8e+08	-0.0910481	0.0547802	-8.604784e-08	-3.971141e-09	0.006589294	-0.003042003	-3.013674e-07	-2.914165e-08
	-8.604784e-08	-3.971141e-09	-0.08892873	0.05752623	-4.016674e-08	1.855151e-08	0.007241946	-0.002249044
	0.006589294	-0.003042003	-4.016674e-08	1.855151e-08	-0.09082938	0.0552942	-8.993091e-08	-4.861855e-09
	-3.013674e-07	-2.914165e-08	0.007241946	-0.002249044	-8.993091e-08	-4.861855e-09	-0.08866733	0.05800615
3.9e+08	-0.07591603	0.0596754	-8.672665e-08	2.112762e-08	0.004677838	-0.002136263	-3.042233e-07	5.693362e-08
	-8.672665e-08	2.112762e-08	-0.07365791	0.06192821	-4.050154e-08	3.193427e-08	0.005357997	-0.001487048
	0.004677838	-0.002136263	-4.050154e-08	3.193427e-08	-0.07561346	0.06011699	-9.06214e-08	2.147946e-08
	-3.042233e-07	5.693362e-08	0.005357997	-0.001487048	-9.06214e-08	2.147946e-08	-0.07337292	0.06236582
4e+08	-0.06011696	0.06020005	-8.027948e-08	4.594935e-08	0.003064389	-0.000704154	-2.824734e-07	1.425098e-07
	-8.027948e-08	4.594935e-08	-0.05787737	0.0619331	-3.718053e-08	4.524113e-08	0.003725776	-0.0002023964
	0.003064389	-0.000704154	-3.718053e-08	4.524113e-08	-0.05975173	0.06054895	-8.382024e-08	4.753097e-08
	-2.824734e-07	1.425098e-07	0.003725776	-0.0002023964	-8.382024e-08	4.753097e-08	-0.05758398	0.06232317
4.1e+08	-0.04488183	0.05633076	-6.692732e-08	6.846996e-08	0.001892352	0.001153611	-2.365887e-07	2.205133e-07
	-6.692732e-08	6.846996e-08	-0.04282303	0.05756319	-3.027676e-08	5.743144e-08	0.002488466	0.001517516
	0.001892352	0.001153611	-3.027676e-08	5.743144e-08	-0.04448016	0.05657306	-6.975753e-08	7.116137e-08
	-2.365887e-07	2.205133e-07	0.002488466	0.001517516	-6.975753e-08	7.116137e-08	-0.0425377	0.05790492
4.2e+08	-0.03140788	0.04838654	-4.746119e-08	8.676967e-08	0.001273233	0.003296058	-1.69103e-07	2.840701e-07
	-4.746119e-08	8.676967e-08	-0.02968377	0.04918393	-2.016013e-08	6.749465e-08	0.001761156	0.003544859
	0.001273233	0.003296058	-2.016013e-08	6.749465e-08	-0.03099909	0.04851599	-4.926576e-08	9.034778e-08
	-1.69103e-07	2.840701e-07	0.001761156	0.003544859	-4.926576e-08	9.034778e-08	-0.02942294	0.04948127
4.3e+08	-0.02076303	0.03701056	-2.32013e-08	9.919098e-08	0.001274226	0.005551626	-8.455203e-08	3.27128e-07
	-2.32013e-08	9.919098e-08	-0.01950576	0.0374818	-7.489635e-09	7.453604e-08	0.001618308	0.00571997
	0.001274226	0.005551626	-7.489635e-09	7.453604e-08	-0.02037733	0.03702927	-2.373733e-08	1.033439e-07
	-8.455203e-08	3.27128e-07	0.001618308	0.00571997	-2.373733e-08	1.033439e-07	-0.01928446	0.03774338
4.4e+08	-0.01379692	0.02312425	4.086219e-09	1.044825e-07	0.001908768	0.007732373	1.078829e-08	3.450669e-07
	4.086219e-09	1.044825e-07	-0.01310455	0.02341439	6.820218e-09	7.786247e-08	0.002083919	0.007864526
	0.001908768	0.007732373	6.820218e-09	7.786247e-08	-0.013463	0.02304271	4.96389e-09	1.088337e-07
	1.078829e-08	3.450669e-07	0.00208392	0.007864526	4.96389e-09	1.088337e-07	-0.01293511	0.02365303
4.5e+08	-0.01106735	0.007855594	3.231079e-08	1.01918e-07	0.003132056	0.009651639	1.093662e-07	3.352231e-07
	3.231079e-08	1.01918e-07	-0.01099387	0.008135129	2.166069e-08	7.705947e-08	0.003126341	0.009798292
	0.003132056	0.009651639	2.166069e-08	7.705947e-08	-0.01080999	0.007692009	3.463245e-08	1.060576e-07
	1.093662e-07	3.352231e-07	0.003126341	0.009798292	3.463245e-08	1.060576e-07	-0.0108847	0.008366996
4.6e+08	-0.01279044	-0.007552965	5.921073e-08	9.13812e-08	0.004842986	0.01114313	2.029881e-07	2.972544e-07
	5.921073e-08	9.13812e-08	-0.01333921	-0.007101667	3.581566e-08	7.204927e-08	0.004659258	0.0113575
	0.004842986	0.01114313	3.581566e-08	7.204927e-08	-0.01262841	-0.007774072	6.28853e-08	9.490218e-08
	2.029881e-07	2.972544e-07	0.004659258	0.0113575	6.28853e-08	9.490218e-08	-0.01329395	-0.006858264
4.7e+08	-0.01882072	-0.02184871	8.252979e-08	7.340719e-08	0.006892966	0.01207875	2.835604e-07	2.332828e-07
	8.252979e-08	7.340719e-08	-0.01994227	-0.02104663	4.806781e-08	6.312021e-08	0.006549345	0.01241224
	0.006892966	0.01207875	4.806781e-08	6.312021e-08	-0.0187652	-0.0220985	8.735007e-08	7.594152e-08
	2.835604e-07	2.332828e-07	0.006549345	0.01241224	8.735007e-08	7.594152e-08	-0.0199592	-0.02077266
4.8e+08	-0.02866404	-0.03387446	1.002059e-07	4.917322e-08	0.009100744	0.01238237	3.438541e-07	1.477863e-07
