!$
! Info: Touchstone file created by Circ.  Input file=Tx_14in_Rx_85ohms_TxVia_60mils_RxVia_70mils.circ
!$
# Hz S RI R 50
0	0.01128576	1.765189e-25	-7.527651e-05	-4.708999e-26	9.518103e-05	2.173684e-23	-7.527399e-05	-1.027433e-25
	-7.52765e-05	-4.784681e-26	0.01128128	2.180153e-25	-7.52755e-05	-4.449597e-26	9.489331e-05	2.750721e-23
	9.626434e-05	2.188206e-23	-7.527549e-05	-4.471195e-26	0.01130112	1.76564e-25	-7.52751e-05	7.722583e-26
	-7.527397e-05	-1.042919e-25	9.516281e-05	2.762516e-23	-7.52751e-05	7.665096e-26	0.01129564	2.170748e-25
1e+07	0.01386438	-0.01392225	-9.271952e-06	-1.852571e-05	0.0004778369	0.00258303	-5.917594e-06	-2.188205e-05
	-9.271952e-06	-1.852571e-05	0.01384916	-0.01369128	-1.32095e-05	-3.486334e-08	0.0005781004	0.002570988
	0.0004778684	0.002583034	-1.32095e-05	-3.486349e-08	0.01574071	-0.01360528	-2.877103e-05	4.05933e-06
	-5.917594e-06	-2.188205e-05	0.0005781032	0.002570986	-2.877103e-05	4.05933e-06	0.01381936	-0.0136759
2e+07	0.011053	-0.03102323	-8.205e-06	-6.462832e-06	0.001604503	0.004916393	-3.837733e-06	-1.124755e-05
	-8.205001e-06	-6.462831e-06	0.01124776	-0.0306652	-3.54792e-05	-1.670254e-05	0.001722203	0.004806826
	0.001604517	0.004916373	-3.54792e-05	-1.670254e-05	0.01291829	-0.03121932	-4.325763e-05	-4.880852e-06
	-3.837733e-06	-1.124755e-05	0.0017222	0.004806826	-4.325762e-05	-4.880852e-06	0.01123132	-0.03062302
3e+07	0.002105019	-0.04758014	-7.704188e-06	-3.150815e-06	0.003375805	0.00669634	-4.647414e-06	-8.370619e-06
	-7.704188e-06	-3.150815e-06	0.002423678	-0.04721609	-5.169309e-05	-1.292007e-05	0.003415426	0.00657541
	0.003375805	0.006696337	-5.169309e-05	-1.292007e-05	0.003913753	-0.04807739	-5.324722e-05	3.962542e-07
	-4.647414e-06	-8.370619e-06	0.003415425	0.006575412	-5.324722e-05	3.962542e-07	0.00241617	-0.04715904
4e+07	-0.01160654	-0.06105508	-7.193421e-06	-1.202934e-06	0.005524806	0.00784914	-6.223221e-06	-5.933328e-06
	-7.193421e-06	-1.202934e-06	-0.01122392	-0.06071103	-6.366913e-05	-2.600683e-06	0.005492166	0.007748157
	0.00552481	0.007849144	-6.366913e-05	-2.600683e-06	-0.009903467	-0.061809	-5.995873e-05	1.009062e-05
	-6.223221e-06	-5.933328e-06	0.005492167	0.007748158	-5.995873e-05	1.009062e-05	-0.01122547	-0.06064198
5e+07	-0.02867399	-0.0701499	-6.621729e-06	1.864916e-07	0.007848148	0.008308282	-7.314129e-06	-3.610807e-06
	-6.621729e-06	1.864915e-07	-0.02827076	-0.06982334	-7.150456e-05	1.172314e-05	0.007753465	0.008251272
	0.007848151	0.008308284	-7.150456e-05	1.172314e-05	-0.02711975	-0.07112568	-6.343317e-05	2.237775e-05
	-7.314129e-06	-3.610807e-06	0.007753466	0.008251272	-6.343317e-05	2.237775e-05	-0.02826872	-0.06974246
6e+07	-0.04755478	-0.07413532	-5.981368e-06	1.246579e-06	0.01013376	0.00806979	-7.895815e-06	-1.267255e-06
	-5.981368e-06	1.246579e-06	-0.04715808	-0.07381041	-7.493356e-05	2.872661e-05	0.009992024	0.008075553
	0.01013375	0.008069789	-7.493356e-05	2.872661e-05	-0.04618552	-0.07529637	-6.347808e-05	3.626911e-05
	-7.895815e-06	-1.267255e-06	0.009992025	0.008075553	-6.347808e-05	3.626911e-05	-0.04715359	-0.0737166
7e+07	-0.06665885	-0.07278481	-5.282658e-06	2.061576e-06	0.01218352	0.007191336	-7.933549e-06	1.094325e-06
	-5.282657e-06	2.061576e-06	-0.06628128	-0.07244154	-7.354764e-05	4.734597e-05	0.01201381	0.007273103
	0.0121835	0.007191337	-7.354764e-05	4.734597e-05	-0.06550313	-0.07409147	-5.982204e-05	5.095004e-05
	-7.933548e-06	1.094324e-06	0.01201381	0.007273103	-5.982204e-05	5.095004e-05	-0.06627428	-0.07233337
8e+07	-0.08446172	-0.06633366	-4.544726e-06	2.668329e-06	0.01383076	0.005782544	-7.38468e-06	3.413942e-06
	-4.544725e-06	2.668329e-06	-0.08410449	-0.06595423	-6.687078e-05	6.651715e-05	0.01365504	0.005947333
	0.01383075	0.005782548	-6.687078e-05	6.651715e-05	-0.08354075	-0.06774403	-5.21658e-05	6.560341e-05
	-7.384679e-06	3.413942e-06	0.01365505	0.005947333	-5.21658e-05	6.560341e-05	-0.08409392	-0.06583035
9e+07	-0.0996111	-0.05542169	-3.791009e-06	3.084501e-06	0.01495211	0.003991056	-6.186395e-06	5.598464e-06
	-3.791008e-06	3.084501e-06	-0.09926939	-0.05499508	-5.428275e-05	8.509156e-05	0.01479394	0.004239294
	0.0149521	0.00399106	-5.428275e-05	8.509156e-05	-0.09894029	-0.05689301	-4.012273e-05	7.935614e-05
	-6.186395e-06	5.598464e-06	0.01479394	0.004239294	-4.012273e-05	7.935614e-05	-0.09925333	-0.05485468
1e+08	-0.1110077	-0.0410147	-3.038287e-06	3.313056e-06	0.01547403	0.00198724	-4.057061e-06	7.541779e-06
	-3.038287e-06	3.313056e-06	-0.1106883	-0.04054228	-3.339456e-05	0.0001019603	0.0153594	0.002313494
	0.01547403	0.00198724	-3.339456e-05	0.0001019603	-0.1106079	-0.04250694	-2.202498e-05	9.13671e-05
	-4.057061e-06	7.541779e-06	0.0153594	0.002313494	-2.202498e-05	9.13671e-05	-0.1106646	-0.04038548
1.1e+08	-0.1179038	-0.02437083	-2.421987e-06	3.571061e-06	0.0153719	-5.348831e-05	-1.445109e-06	7.922146e-06
	-2.421987e-06	3.571061e-06	-0.1175941	-0.02378836	-8.021666e-06	0.0001052774	0.01532158	0.0003232999
	0.0153719	-5.348855e-05	-8.021666e-06	0.0001052774	-0.1177731	-0.02578351	-1.118617e-05	9.219599e-05
	-1.445109e-06	7.922146e-06	0.01532158	0.0003233001	-1.118617e-05	9.219599e-05	-0.1175595	-0.02361507
1.2e+08	-0.119944	-0.006784399	-1.756507e-06	3.82012e-06	0.01466806	-0.001954576	6.80508e-07	7.761908e-06
	-1.756507e-06	3.82012e-06	-0.1195806	-0.006105878	3.754568e-06	0.0001043198	0.01468592	-0.001547208
	0.01466806	-0.001954576	3.754568e-06	0.0001043198	-0.1200285	-0.008075469	-2.667604e-06	9.204443e-05
	6.80508e-07	7.761908e-06	0.01468592	-0.001547207	-2.667604e-06	9.204443e-05	-0.1195313	-0.005918821
1.3e+08	-0.1170977	0.01037626	-1.078232e-06	3.973033e-06	0.0134316	-0.003558141	2.104387e-06	7.287179e-06
	-1.078232e-06	3.973033e-06	-0.1166482	0.011115	1.393897e-05	0.0001024118	0.01351967	-0.00314072
	0.0134316	-0.003558142	1.393897e-05	0.0001024118	-0.1173556	0.009233735	6.820233e-06	9.113603e-05
	2.104387e-06	7.287179e-06	0.01351967	-0.003140719	6.820233e-06	9.113603e-05	-0.1165818	0.01131159
1.4e+08	-0.1097128	0.02579869	-4.062922e-07	4.02093e-06	0.0117684	-0.004731336	2.474826e-06	6.920992e-06
	-4.062921e-07	4.02093e-06	-0.1091652	0.02655249	2.459804e-05	9.938241e-05	0.01192337	-0.004324928
	0.0117684	-0.004731336	2.459804e-05	9.938241e-05	-0.110104	0.02482276	1.67417e-05	8.914165e-05
	2.474826e-06	6.920992e-06	0.01192337	-0.004324927	1.67417e-05	8.914165e-05	-0.1090808	0.02675341
1.5e+08	-0.09847548	0.03832219	2.396979e-07	3.966835e-06	0.009814906	-0.005373773	2.87038e-06	6.562407e-06
	2.396979e-07	3.966835e-06	-0.09783745	0.03904365	3.52977e-05	9.505488e-05	0.01002738	-0.004998362
	0.009814906	-0.005373773	3.52977e-05	9.505488e-05	-0.0989606	0.0375232	2.67166e-05	8.590538e-05
	2.87038e-06	6.562407e-06	0.01002738	-0.004998361	2.67166e-05	8.590538e-05	-0.09773597	0.03924329
1.6e+08	-0.08435705	0.04701952	8.490987e-07	3.820142e-06	0.007730076	-0.005424162	3.277265e-06	6.198591e-06
	8.490987e-07	3.820142e-06	-0.08365485	0.04766556	4.568033e-05	8.936942e-05	0.007984791	-0.005096778
	0.007730076	-0.005424163	4.568033e-05	8.936942e-05	-0.08489766	0.04640058	3.64349e-05	8.137768e-05
	3.277265e-06	6.198591e-06	0.007984791	-0.005096777	3.64349e-05	8.137768e-05	-0.08353917	0.0478585
1.7e+08	-0.06854252	0.05126407	1.412581e-06	3.590855e-06	0.005685756	-0.004865846	3.686629e-06	5.82098e-06
	1.412581e-06	3.590855e-06	-0.06781857	0.05180183	5.543316e-05	8.235427e-05	0.005962409	-0.004598755
	0.005685756	-0.004865846	5.543316e-05	8.235427e-05	-0.06910184	0.0508212	4.561818e-05	7.558373e-05
	3.686629e-06	5.82098e-06	0.005962409	-0.004598755	4.561818e-05	7.558373e-05	-0.0676934	0.05198353
1.8e+08	-0.05234381	0.05077804	1.922575e-06	3.289251e-06	0.003854951	-0.003730524	4.092192e-06	5.423163e-06
	1.922575e-06	3.289251e-06	-0.05165265	0.05118997	6.428448e-05	7.410842e-05	0.004129648	-0.003529704
	0.003854951	-0.003730524	6.428448e-05	7.410842e-05	-0.05288779	0.05050047	5.401949e-05	6.861089e-05
	4.092192e-06	5.423163e-06	0.004129649	-0.003529703	5.401949e-05	6.861089e-05	-0.05152425	0.05135733
1.9e+08	-0.03710083	0.04565737	2.373227e-06	2.92539e-06	0.002398203	-0.00209903	4.488773e-06	4.999781e-06
	2.373227e-06	2.92539e-06	-0.03650369	0.04594489	7.200724e-05	6.47877e-05	0.002645386	-0.001963094
	0.002398203	-0.00209903	7.200724e-05	6.47877e-05	-0.03759937	0.04552801	6.142873e-05	6.059802e-05
	4.488773e-06	4.999781e-06	0.002645386	-0.001963094	6.142873e-05	6.059802e-05	-0.03637939	0.04609681
2e+08	-0.02407659	0.03636912	2.760002e-06	2.508771e-06	0.001448867	-9.791215e-05	4.871246e-06	4.546009e-06
	2.760002e-06	2.508771e-06	-0.02363493	0.03655458	7.842471e-05	5.459073e-05	0.001643568	-1.764389e-05
	0.001448867	-9.791216e-05	7.842471e-05	5.459073e-05	-0.02450481	0.0363654	6.767907e-05	5.172362e-05
	4.871246e-06	4.546009e-06	0.001643568	-1.764384e-05	6.767907e-05	5.172362e-05	-0.0235225	0.03669224
2.1e+08	-0.01435413	0.02371885	3.079151e-06	2.048259e-06	0.001098905	0.002109083	5.233745e-06	4.057616e-06
	3.079151e-06	2.048259e-06	-0.01412272	0.02384528	8.341461e-05	4.374416e-05	0.001219132	0.002150499
	0.001098905	0.002109083	8.341461e-05	4.374416e-05	-0.01469357	0.02381395	7.265192e-05	4.219302e-05
	5.233745e-06	4.057616e-06	0.001219132	0.002150499	7.265192e-05	4.219302e-05	-0.01402963	0.02397232
2.2e+08	-0.008744764	0.008787886	3.327227e-06	1.55234e-06	0.001387375	0.00433471	5.569212e-06	3.531348e-06
	3.327227e-06	1.55234e-06	-0.008764986	0.008916683	8.691047e-05	3.248705e-05	0.001416417	0.004360722
	0.001387374	0.00433471	8.691047e-05	3.248705e-05	-0.008984281	0.008952422	7.627895e-05	3.222435e-05
	5.569212e-06	3.531348e-06	0.001416417	0.004360722	7.627895e-05	3.222435e-05	-0.008697616	0.00903907
2.3e+08	-0.007717491	-0.00715554	3.500834e-06	1.029594e-06	0.002293878	0.0063861	5.869329e-06	2.965535e-06
	3.500834e-06	1.029594e-06	-0.008011453	-0.0069492	8.889879e-05	2.105589e-05	0.002222297	0.006425113
	0.002293878	0.0063861	8.889879e-05	2.105589e-05	-0.00785364	-0.006951624	7.854025e-05	2.203493e-05
	5.869329e-06	2.965535e-06	0.002222297	0.006425113	7.854025e-05	2.203493e-05	-0.007974392	-0.006823482
2.4e+08	-0.01135793	-0.02276411	3.596706e-06	4.892278e-07	0.003738694	0.008084643	6.124919e-06	2.360777e-06
	3.596706e-06	4.892278e-07	-0.01192422	-0.02239758	8.941268e-05	9.671977e-06	0.003565772	0.00816774
	0.003738694	0.008084643	8.941268e-05	9.671977e-06	-0.0113948	-0.02254951	7.945906e-05	1.182946e-05
	6.124919e-06	2.360777e-06	0.003565772	0.00816774	7.945906e-05	1.182946e-05	-0.01191963	-0.02225912
2.5e+08	-0.01936219	-0.03672752	3.612101e-06	-5.849093e-08	0.005590195	0.009285037	6.326614e-06	1.720234e-06
	3.612101e-06	-5.849093e-08	-0.02017375	-0.03611826	8.852181e-05	-1.468735e-06	0.005324658	0.00944327
	0.005590195	0.009285037	8.852181e-05	-1.468735e-06	-0.01931063	-0.03652767	7.909308e-05	1.790594e-06
	6.326614e-06	1.720234e-06	0.005324658	0.00944327	7.909308e-05	1.790594e-06	-0.02020094	-0.03595697
2.6e+08	-0.03106684	-0.04788464	3.545397e-06	-6.020791e-07	0.007678735	0.009890514	6.465737e-06	1.049724e-06
	3.545397e-06	-6.020791e-07	-0.0320713	-0.04695833	8.632089e-05	-1.220073e-05	0.007338626	0.01015201
	0.007678735	0.009890514	8.632089e-05	-1.220073e-05	-0.03094317	-0.04772017	7.752433e-05	-7.926355e-06
	6.465737e-06	1.049724e-06	0.007338626	0.01015201	7.752433e-05	-7.926355e-06	-0.03212652	-0.04676434
2.7e+08	-0.04551136	-0.05532017	3.396743e-06	-1.128995e-06	0.009814939	0.009861983	6.535092e-06	3.57344e-07
	3.396743e-06	-1.128995e-06	-0.04663396	-0.05401847	8.29179e-05	-2.238986e-05	0.009426581	0.01024913
	0.009814939	0.009861983	8.29179e-05	-2.238986e-05	-0.04533572	-0.05520579	7.484831e-05	-1.719483e-05
	6.535092e-06	3.57344e-07	0.009426581	0.01024913	7.484831e-05	-1.719483e-05	-0.04671053	-0.05378305
2.8e+08	-0.06152567	-0.05843618	3.168601e-06	-1.626098e-06	0.01180952	0.009219986	6.52963e-06	-3.471529e-07
	3.168601e-06	-1.626098e-06	-0.06267452	-0.05672339	7.842444e-05	-3.19301e-05	0.01140562	0.009747017
	0.01180952	0.009219986	7.842444e-05	-3.19301e-05	-0.06132015	-0.05838018	7.116502e-05	-2.591468e-05
	6.52963e-06	-3.471529e-07	0.01140562	0.009747017	7.116502e-05	-2.591468e-05	-0.06276318	-0.05643984
2.9e+08	-0.07783245	-0.05699291	2.866068e-06	-2.080313e-06	0.0134917	0.008039798	6.446697e-06	-1.053167e-06
	2.866068e-06	-2.080313e-06	-0.0789057	-0.05486079	7.294852e-05	-4.073765e-05	0.01310877	0.008710978
	0.0134917	0.008039798	7.294852e-05	-4.073765e-05	-0.07761931	-0.05699716	6.657174e-05	-3.400716e-05
	6.446697e-06	-1.053167e-06	0.01310877	0.008710978	6.657174e-05	-3.400716e-05	-0.07899526	-0.05452522
3e+08	-0.09315359	-0.0511172	2.496939e-06	-2.479371e-06	0.01472399	0.006441164	6.285999e-06	-1.750039e-06
	2.496939e-06	-2.479371e-06	-0.09404789	-0.04858749	6.659103e-05	-4.874377e-05	0.01439925	0.007249865
	0.01472399	0.006441164	6.659103e-05	-4.874377e-05	-0.09295363	-0.05117769	6.115914e-05	-4.140841e-05
	6.285999e-06	-1.750039e-06	0.01439925	0.007249865	6.115914e-05	-4.140841e-05	-0.09412611	-0.04819932
3.1e+08	-0.1063109	-0.04128068	2.071488e-06	-2.812533e-06	0.01541201	0.004574792	6.049337e-06	-2.427729e-06
	2.071488e-06	-2.812533e-06	-0.1069303	-0.03840503	5.944515e-05	-5.588736e-05	0.01518007	0.005503514
	0.01541201	0.004574792	5.944515e-05	-5.588736e-05	-0.1061421	-0.04138838	5.501071e-05	-4.806295e-05
	6.049337e-06	-2.427729e-06	0.01518007	0.005503514	5.501071e-05	-4.806295e-05	-0.1069849	-0.03796728
3.2e+08	-0.1163132	-0.02825258	1.602095e-06	-3.071222e-06	0.01550918	0.002607776	5.74009e-06	-3.077258e-06
	1.602095e-06	-3.071222e-06	-0.1165779	-0.0251098	5.159957e-05	-6.210966e-05	0.01539892	0.003629169
	0.01550918	0.002607776	5.159957e-05	-6.210966e-05	-0.1161897	-0.02839454	4.820439e-05	-5.391796e-05
	5.74009e-06	-3.077258e-06	0.01539892	0.003629169	4.820439e-05	-5.391796e-05	-0.1165975	-0.02462905
3.3e+08	-0.1224249	-0.01303332	1.102733e-06	-3.249562e-06	0.01501702	0.0007096815	5.362668e-06	-3.690925e-06
	1.102733e-06	-3.249562e-06	-0.1222787	-0.009724224	4.314424e-05	-6.735328e-05	0.01504879	0.001788474
	0.01501702	0.0007096816	4.314424e-05	-6.735328e-05	-0.1223565	-0.0131939	4.08164e-05	-5.89195e-05
	5.362668e-06	-3.690925e-06	0.01504879	0.001788474	4.08164e-05	-5.89195e-05	-0.1222542	-0.009210257
3.4e+08	-0.1242132	0.003224655	5.881758e-07	-3.344656e-06	0.01398212	-0.0009597005	4.92194e-06	-4.262153e-06
	5.881758e-07	-3.344656e-06	-0.1236294	0.006584432	3.417186e-05	-7.155723e-05	0.01416562	0.0001359968
	0.01398212	-0.0009597005	3.417186e-05	-7.155723e-05	-0.1242049	0.003062552	3.292592e-05	-6.300984e-05
	4.92194e-06	-4.262153e-06	0.01416562	0.0001359968	3.292592e-05	-6.300984e-05	-0.1235546	0.007119301
3.5e+08	-0.1215728	0.0193028	7.326481e-08	-3.356708e-06	0.01249085	-0.00226058	4.422983e-06	-4.785825e-06
	7.326481e-08	-3.356708e-06	-0.1205584	0.02259153	2.478497e-05	-7.466094e-05	0.01282385	-0.001190476
	0.01249085	-0.00226058	2.478497e-05	-7.466094e-05	-0.1216249	0.01915651	2.462107e-05	-6.613117e-05
	4.422983e-06	-4.785825e-06	0.01282385	-0.001190476	2.462107e-05	-6.613117e-05	-0.1204307	0.02313339
3.6e+08	-0.114729	0.03400402	-4.278533e-07	-3.288939e-06	0.01066268	-0.003081533	3.870485e-06	-5.257516e-06
	-4.278533e-07	-3.288939e-06	-0.1133256	0.03710355	1.50992e-05	-7.660695e-05	0.01113074	-0.002078031
	0.01066268	-0.003081533	1.50992e-05	-7.660695e-05	-0.1148371	0.03388996	1.6002e-05	-6.822634e-05
	3.870485e-06	-5.257516e-06	0.01113074	-0.002078031	1.6002e-05	-6.822634e-05	-0.1131464	0.03763795
3.7e+08	-0.1042196	0.04623749	-9.024573e-07	-3.147283e-06	0.008642432	-0.00334632	3.268642e-06	-5.673139e-06
	-9.024573e-07	-3.147283e-06	-0.102502	0.04904309	5.245825e-06	-7.734446e-05	0.009219617	-0.002445462
	0.008642432	-0.00334632	5.245825e-06	-7.734446e-05	-0.1043752	0.04617006	7.184025e-06	-6.924326e-05
	3.268642e-06	-5.673139e-06	0.009219617	-0.002445462	7.184025e-06	-6.924326e-05	-0.1022769	0.04955624
3.8e+08	-0.09085673	0.0550965	-1.339888e-06	-2.939853e-06	0.00659141	-0.003019365	2.621196e-06	-6.028498e-06
	-1.339888e-06	-2.939853e-06	-0.08892873	0.05752623	-4.627073e-06	-7.683588e-05	0.007241946	-0.002249044
	0.00659141	-0.003019365	-4.627073e-06	-7.683588e-05	-0.09104791	0.05508714	-1.701047e-06	-6.914103e-05
	2.621196e-06	-6.028498e-06	0.007241946	-0.002249044	-1.701047e-06	-6.914103e-05	-0.08866733	0.05800615
3.9e+08	-0.07567031	0.05992544	-1.731989e-06	-2.676217e-06	0.004677188	-0.002109727	1.931675e-06	-6.318843e-06
	-1.731989e-06	-2.676217e-06	-0.07365791	0.06192821	-1.435576e-05	-7.506323e-05	0.005357997	-0.001487048
	0.004677188	-0.002109727	-1.435576e-05	-7.506323e-05	-0.07588253	0.05998185	-1.050598e-05	-6.789622e-05
	1.931675e-06	-6.318843e-06	0.005357997	-0.001487048	-1.050598e-05	-6.789622e-05	-0.07337292	0.06236582
4e+08	-0.05983518	0.06037151	-2.073273e-06	-2.366558e-06	0.003061865	-0.0006729831	1.203857e-06	-6.538518e-06
	-2.073273e-06	-2.366558e-06	-0.05787737	0.0619331	-2.376445e-05	-7.203443e-05	0.003725776	-0.0002023964
	0.003061865	-0.0006729831	-2.376445e-05	-7.203443e-05	-0.06005243	0.0604971	-1.907142e-05	-6.550882e-05
	1.203857e-06	-6.538518e-06	0.003725776	-0.0002023964	-1.907142e-05	-6.550882e-05	-0.05758398	0.06232317
4.1e+08	-0.04458504	0.05641677	-2.360771e-06	-2.020813e-06	0.001889036	0.001189885	4.424116e-07	-6.680861e-06
	-2.360771e-06	-2.020813e-06	-0.04282303	0.05756319	-3.267122e-05	-6.778865e-05	0.002488466	0.001517516
	0.001889036	0.001189885	-3.267122e-05	-6.778865e-05	-0.04479104	0.05661032	-2.72315e-05	-6.200735e-05
	4.424116e-07	-6.680861e-06	0.002488466	0.001517516	-2.72315e-05	-6.200735e-05	-0.0425377	0.05790492
4.2e+08	-0.03111829	0.04838624	-2.593563e-06	-1.647955e-06	0.001270321	0.003337581	-3.46381e-07	-6.738376e-06
	-2.593563e-06	-1.647955e-06	-0.02968377	0.04918393	-4.089603e-05	-6.239971e-05	0.001761156	0.003544859
	0.001270321	0.003337581	-4.089603e-05	-6.239971e-05	-0.03129783	0.04864206	-3.482113e-05	-5.745185e-05
	-3.46381e-07	-6.738376e-06	0.001761156	0.003544859	-3.482113e-05	-5.745185e-05	-0.02942294	0.04948127
4.3e+08	-0.02050228	0.03692932	-2.772052e-06	-1.255527e-06	0.001272927	0.005598189	-1.15395e-06	-6.703276e-06
	-2.772052e-06	-1.255527e-06	-0.01950576	0.0374818	-4.827004e-05	-5.59768e-05	0.001618308	0.00571997
	0.001272927	0.005598189	-4.827004e-05	-5.59768e-05	-0.02064249	0.03723764	-4.168452e-05	-5.193459e-05
	-1.15395e-06	-6.703276e-06	0.001618308	0.00571997	-4.168452e-05	-5.193459e-05	-0.01928446	0.03774338
4.4e+08	-0.01358431	0.02297325	-2.897136e-06	-8.495604e-07	0.001910194	0.007783412	-1.96899e-06	-6.568356e-06
	-2.897136e-06	-8.495604e-07	-0.01310455	0.02341439	-5.464523e-05	-4.866191e-05	0.002083919	0.007864526
	0.001910194	0.007783412	-5.464523e-05	-4.866191e-05	-0.01367577	0.02332114	-4.768375e-05	-4.557779e-05
	-1.96899e-06	-6.568356e-06	0.00208392	0.007864526	-4.768375e-05	-4.557779e-05	-0.01293511	0.02365303
4.5e+08	-0.01091823	0.007650936	-2.96945e-06	-4.348773e-07	0.003137115	0.009706275	-2.777413e-06	-6.328089e-06
	-2.96945e-06	-4.348773e-07	-0.01099387	0.008135129	-5.990316e-05	-4.06241e-05	0.003126341	0.009798292
	0.003137115	0.009706275	-5.990316e-05	-4.06241e-05	-0.01095578	0.008023495	-5.270645e-05	-3.852859e-05
	-2.777413e-06	-6.328089e-06	0.003126341	0.009798292	-5.270645e-05	-3.852859e-05	-0.0108847	0.008366996
4.6e+08	-0.01271496	-0.007791608	-2.988875e-06	-1.570838e-08	0.004852288	0.01120025	-3.56279e-06	-5.979748e-06
	-2.988875e-06	-1.570838e-08	-0.01333921	-0.007101667	-6.396122e-05	-3.205084e-05	0.004659258	0.0113575
	0.004852288	0.01120025	-6.396122e-05	-3.205084e-05	-0.01269809	-0.007409867	-5.667158e-05	-3.095164e-05
	-3.56279e-06	-5.979748e-06	0.004659258	0.0113575	-5.667158e-05	-3.095164e-05	-0.01329395	-0.006858264
4.7e+08	-0.01882306	-0.0220998	-2.95442e-06	4.03531e-07	0.006906756	0.01213709	-4.307224e-06	-5.524322e-06
	-2.95442e-06	4.03531e-07	-0.01994227	-0.02104663	-6.677567e-05	-2.313769e-05	0.006549345	0.01241224
	0.006906756	0.01213709	-6.677567e-05	-2.313769e-05	-0.01875576	-0.02172347	-5.953227e-05	-2.302012e-05
	-4.307224e-06	-5.524322e-06	0.006549345	0.01241224	-5.953227e-05	-2.302012e-05	-0.0199592	-0.02077266
