!$
! Info: Touchstone file created by Circ.  Input file=Tx_14in_Rx_93ohms_TxVia_60mils_RxVia_70mils.circ
!$
# Hz S RI R 50
0	0.012828	1.777425e-25	-7.490884e-05	7.32129e-24	9.526137e-05	2.513981e-23	-7.487165e-05	2.845779e-24
	-7.490884e-05	7.321238e-24	0.01282372	2.16818e-25	-7.49438e-05	1.179693e-23	9.439746e-05	3.128951e-23
	9.439375e-05	2.502737e-23	-7.49438e-05	1.179764e-23	0.01284164	1.796857e-25	-7.490593e-05	7.235312e-24
	-7.487165e-05	2.84494e-24	9.466687e-05	3.142368e-23	-7.490592e-05	7.233812e-24	0.01283803	2.158828e-25
1e+07	0.01820082	-0.002027168	-0.0003452965	2.568883e-05	0.0005732329	0.002593503	-6.915118e-05	-6.114845e-06
	-0.0003452965	2.568883e-05	0.01856623	-0.002072722	-0.0001768018	0.0001023075	0.0005670536	0.002585697
	0.0005732171	0.002593517	-0.0001768018	0.0001023075	0.0185906	-0.002089246	-0.0003448108	2.885499e-05
	-6.915118e-05	-6.114845e-06	0.0005670565	0.002585695	-0.0003448108	2.885499e-05	0.01819831	-0.002062517
2e+07	0.02054722	-0.00880969	-0.0002951263	-2.752899e-05	0.001591193	0.005015929	-4.166396e-05	-7.095631e-05
	-0.0002951263	-2.752899e-05	0.02075639	-0.00900515	-0.0001683752	8.271268e-05	0.001574057	0.005005745
	0.0015912	0.005015938	-0.0001683752	8.271268e-05	0.02080928	-0.009047582	-0.0002940131	-3.357983e-05
	-4.166396e-05	-7.095631e-05	0.001574054	0.005005745	-0.0002940131	-3.357983e-05	0.02048988	-0.008868387
3e+07	0.01955698	-0.01694804	-0.0002664848	-4.767163e-05	0.003305524	0.006884041	-5.679538e-05	-8.252298e-05
	-0.0002664848	-4.767163e-05	0.01961207	-0.01716263	-0.0001499413	9.066833e-05	0.003251104	0.006890263
	0.003305525	0.006884042	-0.0001499413	9.066833e-05	0.01970667	-0.01724881	-0.0002645853	-5.536891e-05
	-5.679538e-05	-8.252298e-05	0.003251103	0.006890265	-0.0002645853	-5.536891e-05	0.01941797	-0.01700198
4e+07	0.01586884	-0.02469568	-0.0002460141	-5.21405e-05	0.005480373	0.008119058	-9.783152e-05	-6.422714e-05
	-0.0002460141	-5.21405e-05	0.01577388	-0.02486639	-0.0001270072	9.39573e-05	0.005398442	0.008150412
	0.005480372	0.008119059	-0.0001270072	9.39573e-05	0.01591486	-0.02501933	-0.0002438058	-6.121609e-05
	-9.783152e-05	-6.422714e-05	0.005398443	0.008150413	-0.0002438058	-6.121609e-05	0.01563189	-0.02471015
5e+07	0.01000322	-0.03120888	-0.0002295256	-5.012201e-05	0.00785971	0.008670579	-0.0001279082	-3.438832e-05
	-0.0002295256	-5.012201e-05	0.009773858	-0.0312831	-0.0001046488	8.766458e-05	0.007753289	0.008739073
	0.007859709	0.008670579	-0.0001046488	8.766458e-05	0.00995539	-0.03152807	-0.0002273574	-6.044523e-05
	-0.0001279082	-3.438832e-05	0.00775329	0.008739074	-0.0002273574	-6.044523e-05	0.009665388	-0.03114382
6e+07	0.002541334	-0.03592482	-0.0002144345	-4.503425e-05	0.01024226	0.00851778	-0.0001466703	3.104512e-06
	-0.0002144345	-4.503425e-05	0.002206159	-0.03585892	-8.834551e-05	7.142389e-05	0.01011865	0.008634082
	0.01024226	0.008517779	-8.834551e-05	7.142389e-05	0.00241144	-0.03621856	-0.0002125816	-5.650463e-05
	-0.0001466703	3.104512e-06	0.01011865	0.008634082	-0.0002125816	-5.650463e-05	0.002114834	-0.03574069
7e+07	-0.005874842	-0.03849828	-0.0001990325	-3.891476e-05	0.01242918	0.007696628	-0.000153496	4.530481e-05
	-0.0001990325	-3.891476e-05	-0.006276096	-0.03826013	-8.310596e-05	4.775155e-05	0.01229941	0.007868695
	0.01242917	0.007696627	-8.310596e-05	4.775155e-05	-0.006072944	-0.03875027	-0.0001977103	-5.142903e-05
	-0.000153496	4.530481e-05	0.01229941	0.007868695	-0.0001977103	-5.142903e-05	-0.006364109	-0.03816153
8e+07	-0.01457551	-0.03878673	-0.0001820624	-3.334366e-05	0.01424109	0.006297158	-0.000147609	8.952763e-05
	-0.0001820624	-3.334366e-05	-0.01499519	-0.03835807	-9.266152e-05	2.128318e-05	0.01411899	0.006529026
	0.01424108	0.006297157	-9.266152e-05	2.128318e-05	-0.01482613	-0.03898486	-0.0001814178	-4.67873e-05
	-0.000147609	8.952763e-05	0.01411899	0.006529026	-0.0001814178	-4.67873e-05	-0.01509083	-0.03827382
9e+07	-0.02290414	-0.03683892	-0.0001620826	-2.967397e-05	0.0155328	0.004455324	-0.0001277125	0.0001330348
	-0.0001620826	-2.967397e-05	-0.02329035	-0.03621694	-0.0001190303	-2.112858e-06	0.01543366	0.004746286
	0.0155328	0.004455324	-0.0001190303	-2.112858e-06	-0.0231899	-0.03697508	-0.0001662012	-3.20913e-05
	-0.0001277125	0.0001330348	0.01543366	0.004746286	-0.0001662012	-3.209131e-05	-0.02340166	-0.03613935
1e+08	-0.03024317	-0.03287481	-0.0001401426	1.111729e-05	0.0162037	0.00234035	-8.770376e-05	0.0001726858
	-0.0001401426	1.111729e-05	-0.03054073	-0.03207222	-0.0001650553	-1.707581e-05	0.01614309	0.002684617
	0.0162037	0.00234035	-0.0001650553	-1.707581e-05	-0.03054195	-0.03294427	-0.0001460754	2.504077e-05
	-8.770376e-05	0.0001726858	0.01614309	0.002684617	-0.0001460754	2.504077e-05	-0.03067596	-0.031993
1.1e+08	-0.03613801	-0.0273736	-0.0001099167	3.182626e-05	0.01620678	0.0001489519	-3.87735e-05	0.0001808868
	-0.0001099167	3.182626e-05	-0.03630415	-0.02643805	-0.0002192185	-3.17787e-05	0.0161975	0.0005334853
	0.01620678	0.0001489519	-0.0002192185	-3.17787e-05	-0.03643543	-0.02739483	-0.0001123557	4.633129e-05
	-3.87735e-05	0.0001808868	0.0161975	0.0005334855	-0.0001123557	4.633129e-05	-0.036461	-0.02633137
1.2e+08	-0.04029531	-0.02070048	-8.861988e-05	4.454874e-05	0.01555865	-0.001929695	8.709476e-07	0.0001798419
	-8.861988e-05	4.454874e-05	-0.04031048	-0.01967179	-0.0002739955	-2.596481e-05	0.0156085	-0.001519806
	0.01555865	-0.001929695	-0.0002739955	-2.596481e-05	-0.04059055	-0.02067468	-8.812229e-05	5.90069e-05
	8.709476e-07	0.0001798419	0.0156085	-0.001519805	-8.812229e-05	5.90069e-05	-0.04047214	-0.01953221
1.3e+08	-0.04246014	-0.01338861	-7.037061e-05	5.236538e-05	0.01432142	-0.003717456	3.606808e-05	0.0001721772
	-7.037061e-05	5.236538e-05	-0.04231139	-0.01231289	-0.0003274666	4.546076e-07	0.01443415	-0.003299776
	0.01432142	-0.003717456	-0.0003274666	4.546076e-07	-0.0427466	-0.01331652	-6.718839e-05	6.629667e-05
	3.606808e-05	0.0001721772	0.01443415	-0.003299775	-6.718839e-05	6.629667e-05	-0.04246563	-0.01214039
1.4e+08	-0.04256038	-0.006012218	-5.454263e-05	5.657743e-05	0.01260504	-0.005061563	6.392566e-05	0.0001603045
	-5.454263e-05	5.657743e-05	-0.04224791	-0.00493968	-0.0003738954	4.641146e-05	0.01277898	-0.004654971
	0.01260504	-0.005061563	-0.0003738954	4.641146e-05	-0.04283013	-0.005896093	-4.891455e-05	6.955371e-05
	6.392566e-05	0.0001603045	0.01277898	-0.00465497	-4.891455e-05	6.955371e-05	-0.04238444	-0.004737944
1.5e+08	-0.04068724	0.0008652608	-4.092159e-05	5.822271e-05	0.0105571	-0.005847038	7.793038e-05	0.000150484
	-4.092159e-05	5.822271e-05	-0.04022637	0.001884518	-0.000407703	0.0001088767	0.0107847	-0.005469978
	0.0105571	-0.005847038	-0.000407703	0.0001088767	-0.0409322	0.001021191	-3.311933e-05	6.985565e-05
	7.793038e-05	0.000150484	0.0107847	-0.005469978	-3.311933e-05	6.985565e-05	-0.0403371	0.00210892
1.6e+08	-0.03708149	0.006734174	-2.950677e-05	5.82205e-05	0.008350654	-0.006005291	9.146246e-05	0.0001392782
	-2.950677e-05	5.82205e-05	-0.03650276	0.007654948	-0.0004245335	0.0001831308	0.008618648	-0.005673904
	0.008350654	-0.006005291	-0.0004245335	0.0001831308	-0.03729425	0.006923644	-1.985048e-05	6.817348e-05
	9.146246e-05	0.0001392782	0.008618647	-0.005673904	-1.985048e-05	6.817348e-05	-0.03658234	0.007893319
1.7e+08	-0.03211079	0.01117594	-1.998332e-05	5.738099e-05	0.006170405	-0.005519115	0.0001041129	0.0001266769
	-1.998332e-05	5.738099e-05	-0.03145842	0.01196264	-0.0004218737	0.000263375	0.006460533	-0.005245453
	0.006170405	-0.005519115	-0.0004218737	0.000263375	-0.0322853	0.01139081	-8.841678e-06	6.537824e-05
	0.0001041129	0.0001266769	0.006460533	-0.005245452	-8.841678e-06	6.537824e-05	-0.0315046	0.01220505
1.8e+08	-0.0262388	0.01389267	-1.187262e-05	5.629521e-05	0.00419808	-0.00442381	0.0001155539	0.0001127576
	-1.187262e-05	5.629521e-05	-0.02556764	0.01452346	-0.0003993112	0.0003435116	0.004488418	-0.004214322
	0.00419808	-0.00442381	-0.0003993112	0.0003435116	-0.02637096	0.01412326	3.444587e-07	6.213529e-05
	0.0001155539	0.0001127576	0.004488418	-0.004214322	3.444587e-07	6.213529e-05	-0.02558142	0.01475972
1.9e+08	-0.01998797	0.01472728	-4.598929e-06	5.528287e-05	0.002598027	-0.002804366	0.0001255194	9.766173e-05
	-4.598929e-06	5.528287e-05	-0.01935925	0.01519723	-0.0003584472	0.0004179421	0.002864732	-0.00265882
	0.002598027	-0.002804366	-0.0003584472	0.0004179421	-0.02007609	0.01496294	8.257055e-06	5.885016e-05
	0.0001255194	9.766173e-05	0.002864732	-0.00265882	8.257055e-06	5.885016e-05	-0.01934476	0.01541784
2e+08	-0.01389871	0.01367297	2.410692e-06	5.437526e-05	0.00150398	-0.0007888028	0.0001337988	8.157666e-05
	2.410692e-06	5.437526e-05	-0.01337476	0.01399587	-0.0003025028	0.0004822497	0.001723348	-0.0006997611
	0.00150398	-0.0007888028	-0.0003025028	0.0004822497	-0.0139438	0.01390273	1.546239e-05	5.564671e-05
	0.0001337988	8.157666e-05	0.001723348	-0.000699761	1.546239e-05	5.564671e-05	-0.01333897	0.01419291
2.1e+08	-0.008487686	0.01087128	9.618718e-06	5.334211e-05	0.001008041	0.001461962	0.0001402329	6.472201e-05
	9.618718e-06	5.334211e-05	-0.008126307	0.01107975	-0.0002356941	0.0005336581	0.001158686	0.001509032
	0.001008041	0.001461962	-0.0002356941	0.0005336581	-0.008493543	0.01108456	2.243926e-05	5.238717e-05
	0.0001402329	6.472201e-05	0.001158686	0.001509032	2.243926e-05	5.238717e-05	-0.008078376	0.01124767
2.2e+08	-0.004208401	0.006599001	1.728447e-05	5.176278e-05	0.001152797	0.003767089	0.0001447112	4.73375e-05
	1.728447e-05	5.176278e-05	-0.004057162	0.0067429	-0.0001624952	0.0005711977	0.001217761	0.003793044
	0.001152797	0.003767089	-0.0001624952	0.0005711977	-0.004181498	0.006786341	2.948619e-05	4.873568e-05
	0.0001447112	4.73375e-05	0.001217761	0.003793044	2.948619e-05	4.873568e-05	-0.004007674	0.006879079
2.3e+08	-0.001416973	0.001244775	2.54061e-05	4.913116e-05	0.001927374	0.005940693	0.0001471689	2.967293e-05
	2.54061e-05	4.913116e-05	-0.001508136	0.001387955	-8.691643e-05	0.0005955604	0.001895978	0.005971328
	0.001927374	0.005940693	-8.691643e-05	0.0005955604	-0.001366134	0.001398598	3.666025e-05	4.425583e-05
	0.0001471689	2.967293e-05	0.001895978	0.005971328	3.666025e-05	4.425583e-05	-0.00146818	0.001493008
2.4e+08	-0.0003457675	-0.004722592	3.370989e-05	4.4976e-05	0.003267931	0.007807445	0.0001475834	1.198107e-05
	3.370989e-05	4.4976e-05	-0.000692271	-0.00450709	-1.190322e-05	0.0006086805	0.003137176	0.00787157
	0.003267931	0.007807445	-1.190322e-05	0.0006086805	-0.0002816394	-0.004607394	4.376037e-05	3.852515e-05
	0.0001475834	1.198107e-05	0.003137176	0.00787157	4.376037e-05	3.852515e-05	-0.000672455	-0.004429264
2.5e+08	-0.001086908	-0.01079183	4.169145e-05	3.897812e-05	0.005062727	0.009217527	0.0001459699	-5.490367e-06
	4.169145e-05	3.897812e-05	-0.001679858	-0.01042768	6.097593e-05	0.0006131307	0.00483811	0.009344656
	0.005062727	0.009217527	6.097593e-05	0.0006131307	-0.001021268	-0.01071743	5.036071e-05	3.124923e-05
	0.0001459699	-5.490367e-06	0.00483811	0.009344656	5.036071e-05	3.124923e-05	-0.001689351	-0.01037015
2.6e+08	-0.003586948	-0.01644978	4.854611e-05	3.108744e-05	0.007161441	0.01005956	0.0001423775	-2.250365e-05
	4.854611e-05	3.108744e-05	-0.004394908	-0.01586397	0.0001477378	0.0006023467	0.006857068	0.01027739
	0.007161441	0.01005956	0.0001477378	0.0006023467	-0.003531859	-0.01641517	5.573088e-05	2.237537e-05
	0.0001423775	-2.250365e-05	0.006857068	0.01027739	5.573088e-05	2.237537e-05	-0.004440617	-0.01581726
2.7e+08	-0.007653009	-0.02122156	5.374091e-05	2.151963e-05	0.009387981	0.01027024	0.0001368816	-3.883135e-05
	5.374091e-05	2.151963e-05	-0.008623376	-0.02035101	0.0002327539	0.0005812784	0.009025934	0.01060213
	0.009387981	0.01027024	0.0002327539	0.0005812784	-0.007620028	-0.02122252	5.940359e-05	1.210293e-05
	0.0001368816	-3.883135e-05	0.009025934	0.01060213	5.940359e-05	1.210293e-05	-0.008709205	-0.02030392
2.8e+08	-0.01296977	-0.02470724	5.672369e-05	1.075148e-05	0.01155561	0.009839768	0.0001295851	-5.426065e-05
	5.672369e-05	1.075148e-05	-0.014032	-0.0235049	0.0003142026	0.0005525865	0.01116457	0.01030244
	0.01155561	0.009839768	0.0003142026	0.0005525865	-0.01296904	-0.0247365	6.087529e-05	8.753409e-07
	0.0001295851	-5.426065e-05	0.01116457	0.01030244	6.087529e-05	8.753409e-07	-0.01415847	-0.02344542
2.9e+08	-0.01912574	-0.02661199	5.712305e-05	-5.212628e-07	0.01348297	0.008812506	0.0001206135	-6.859445e-05
	5.712305e-05	-5.212628e-07	-0.02019634	-0.02505195	0.0003934817	0.0005164905	0.0130962	0.009414192
	0.01348297	0.008812506	0.0003934817	0.0005164905	-0.01916517	-0.02665972	5.980322e-05	-1.065176e-05
	0.0001206135	-6.859445e-05	0.0130962	0.009414192	5.980322e-05	-1.065176e-05	-0.02036049	-0.02496828
3e+08	-0.02564656	-0.02676763	5.48504e-05	-1.148929e-05	0.01500951	0.007282888	0.0001101126	-8.165221e-05
	5.48504e-05	-1.148929e-05	-0.02663554	-0.02484854	0.0004716243	0.0004719573	0.01466227	0.008022106
	0.01500951	0.007282888	0.0004716243	0.0004719573	-0.0257312	-0.0268221	5.610836e-05	-2.170663e-05
	0.0001101126	-8.165221e-05	0.01466227	0.008022106	5.610836e-05	-2.170663e-05	-0.02683109	-0.02473009
3.1e+08	-0.03203255	-0.02514395	5.01237e-05	-2.135454e-05	0.01600889	0.005387033	9.824791e-05	-9.327147e-05
	5.01237e-05	-2.135454e-05	-0.03285072	-0.02289052	0.0005487296	0.0004170153	0.01573558	0.006252129
	0.01600889	0.005387033	0.0005487296	0.0004170153	-0.03216416	-0.02519236	5.000324e-05	-3.151888e-05
	9.824791e-05	-9.327147e-05	0.01573558	0.006252129	5.000324e-05	-3.151888e-05	-0.03306852	-0.02272885
3.2e+08	-0.03779754	-0.02184931	4.343801e-05	-2.945234e-05	0.01639922	0.003290941	8.520231e-05	-0.0001033099
	4.343801e-05	-2.945234e-05	-0.03836407	-0.01931164	0.0006235758	0.0003492964	0.01623044	0.004260499
	0.01639922	0.003290941	0.0006235758	0.0003492964	-0.03797433	-0.0218787	4.196931e-05	-3.94367e-05
	8.520231e-05	-0.0001033099	0.01623044	0.004260499	4.196931e-05	-3.94367e-05	-0.03859286	-0.01910118
3.3e+08	-0.04250593	-0.01712068	3.54888e-05	-3.53496e-05	0.01614939	0.001176424	7.11742e-05	-0.0001116475
	3.54888e-05	-3.53496e-05	-0.04275562	-0.01437136	0.0006935045	0.0002666863	0.01610912	0.002220538
	0.01614939	0.001176424	0.0006935045	0.0002666863	-0.04272267	-0.0171189	3.268843e-05	-4.502353e-05
	7.11742e-05	-0.0001116475	0.01610912	0.002220538	3.268843e-05	-4.502353e-05	-0.04298289	-0.01410996
3.4e+08	-0.04580538	-0.01130421	2.706274e-05	-3.890227e-05	0.01528107	-0.0007739565	5.63747e-05	-0.0001181892
	2.706274e-05	-3.890227e-05	-0.04569484	-0.008433397	0.000754587	0.0001679687	0.01538434	0.0003083877
	0.01528107	-0.0007739565	0.000754587	0.0001679687	-0.04605365	-0.01126083	2.294171e-05	-4.811762e-05
	5.63747e-05	-0.0001181892	0.01538434	0.0003083877	2.294171e-05	-4.811762e-05	-0.04590791	-0.008122533
3.5e+08	-0.04745272	-0.004827909	1.89171e-05	-4.026351e-05	0.01386642	-0.002391681	4.102366e-05	-0.0001228656
	1.89171e-05	-4.026351e-05	-0.0469651	-0.00193673	0.0008020477	5.335995e-05	0.01411758	-0.001311138
	0.01386642	-0.002391681	0.0008020477	5.335995e-05	-0.04772152	-0.00473505	1.349527e-05	-4.884567e-05
	4.102366e-05	-0.0001228656	0.01411758	-0.001311138	1.349527e-05	-4.884567e-05	-0.04715209	-0.001581441
3.6e+08	-0.04733149	0.00183132	1.166712e-05	-3.984323e-05	0.01202186	-0.003535665	2.534638e-05	-0.0001256335
	1.166712e-05	-3.984323e-05	-0.04647906	0.004638627	0.0008308758	-7.51729e-05	0.01241375	-0.002497506
	0.01202186	-0.003535665	0.0008308758	-7.51729e-05	-0.04760792	0.00197838	4.991151e-06	-4.759018e-05
	2.534638e-05	-0.0001256335	0.01241375	-0.002497506	4.991151e-06	-4.759018e-05	-0.04662993	0.005030094
3.7e+08	-0.04545984	0.008183974	5.700603e-06	-3.822721e-05	0.009898562	-0.004103305	9.570481e-06	-0.0001264753
	5.700603e-06	-3.822721e-05	-0.04428441	0.01080846	0.0008365269	-0.0002138566	0.01041257	-0.003145332
	0.009898562	-0.004103305	0.0008365269	-0.0002138566	-0.04573006	0.008386355	-2.138237e-06	-4.491732e-05
	9.570481e-06	-0.0001264753	0.01041257	-0.003145332	-2.138237e-06	-4.491732e-05	-0.0443918	0.01122528
3.8e+08	-0.04198857	0.01376482	1.132128e-06	-3.60702e-05	0.007670377	-0.004038461	-6.07603e-06	-0.0001253978
	1.132128e-06	-3.60702e-05	-0.04055938	0.01612117	0.0008156003	-0.0003573397	0.008277445	-0.003192466
	0.007670377	-0.004038461	0.0008156003	-0.0003573397	-0.04223875	0.01401986	-7.719918e-06	-4.147824e-05
	-6.07603e-06	-0.0001253978	0.008277445	-0.003192466	-7.719918e-06	-4.147824e-05	-0.04061922	0.01655078
3.9e+08	-0.03718929	0.0181678	-2.196487e-06	-3.398067e-05	0.005520111	-0.003335886	-2.136597e-05	-0.0001224327
	-2.196487e-06	-3.398067e-05	-0.03559861	0.02019192	0.0007663852	-0.0004991693	0.00618271	-0.002624791
	0.005520111	-0.003335886	0.0007663852	-0.0004991693	-0.03740664	0.01846916	-1.18471e-05	-3.789975e-05
	-2.136597e-05	-0.0001224327	0.00618271	-0.002624791	-1.18471e-05	-3.789975e-05	-0.03561055	0.02062101
4e+08	-0.03143375	0.02107646	-4.669908e-06	-3.241606e-05	0.003625147	-0.002041804	-3.607414e-05	-0.0001176364
	-4.669908e-06	-3.241606e-05	-0.02979042	0.02273161	0.0006891886	-0.0006324462	0.004299965	-0.001477436
	0.003625147	-0.002041804	0.0006891886	-0.0006324462	-0.03160751	0.02141449	-1.484235e-05	-3.468219e-05
	-3.607414e-05	-0.0001176364	0.004299965	-0.001477436	-1.484235e-05	-3.468219e-05	-0.02975787	0.02314722
4.1e+08	-0.02516578	0.02228774	-6.815298e-06	-3.160524e-05	0.002143356	-0.0002506001	-4.997915e-05	-0.0001110925
	-6.815298e-06	-3.160524e-05	-0.02358706	0.02356875	0.0005863914	-0.000750561	0.002784572	0.0001677158
	0.002143356	-0.0002506001	0.0005863914	-0.000750561	-0.02528806	0.02265005	-1.718363e-05	-3.212039e-05
	-4.997915e-05	-0.0001110925	0.002784572	0.0001677158	-1.718363e-05	-3.212039e-05	-0.02351702	0.02395927
4.2e+08	-0.01886773	0.02172727	-9.193837e-06	-3.151121e-05	0.001200321	0.001902234	-6.286665e-05	-0.0001029134
	-9.193837e-06	-3.151121e-05	-0.01747021	0.02266234	0.0004622216	-0.0008478985	0.001763207	0.002188118
	0.001200322	0.001902234	0.0004622216	-0.0008478985	-0.01893419	0.02209965	-1.94048e-05	-3.026078e-05
	-6.286665e-05	-0.0001029134	0.001763207	0.002188118	-1.94048e-05	-3.026078e-05	-0.01737274	0.02301854
4.3e+08	-0.01302399	0.01945516	-1.22856e-05	-3.184133e-05	0.0008788567	0.0042505	-7.453431e-05	-9.324187e-05
	-1.22856e-05	-3.184133e-05	-0.01191407	0.02010499	0.0003222827	-0.0009204035	0.0013234	0.004429932
	0.0008788567	0.0042505	0.0003222827	-0.0009204035	-0.01303427	0.01982252	-2.198667e-05	-2.890257e-05
	-7.453431e-05	-9.324187e-05	0.0013234	0.004429932	-2.198667e-05	-2.890257e-05	-0.01180157	0.02042076
4.4e+08	-0.008084174	0.01566149	-1.638764e-05	-3.210394e-05	0.001211686	0.006610359	-8.479797e-05	-8.225085e-05
	-1.638764e-05	-3.210394e-05	-0.007349094	0.01611577	0.0001729053	-0.0009659222	0.001505981	0.006720092
	0.001211686	0.006610359	0.0001729053	-0.0009659222	-0.008042069	0.01600901	-2.525732e-05	-2.764341e-05
	-8.479797e-05	-8.225085e-05	0.001505981	0.006720092	-2.525732e-05	-2.764341e-05	-0.007235289	0.01638872
4.5e+08	-0.004428902	0.01065196	-2.154357e-05	-3.170351e-05	0.002178028	0.008795156	-9.349852e-05	-7.014149e-05
	-2.154357e-05	-3.170351e-05	-0.004128831	0.01102335	2.042844e-05	-0.0009842711	0.002301137	0.008880212
	0.002178028	0.008795156	2.042844e-05	-0.0009842711	-0.004342174	0.01096621	-2.931933e-05	-2.59631e-05
	-9.349852e-05	-7.014149e-05	0.002301137	0.008880212	-2.931933e-05	-2.59631e-05	-0.00402774	0.01125507
4.6e+08	-0.002340662	0.004824634	-2.751817e-05	-3.005768e-05	0.003704537	0.01063085	-0.0001005078	-5.713818e-05
	-2.751817e-05	-3.005768e-05	-0.00250279	0.005240583	-0.0001294783	-0.0009770254	0.003648589	0.01074126
	0.003704537	0.01063085	-0.0001294783	-0.0009770254	-0.002220598	0.005094661	-3.401704e-05	-2.333072e-05
	-0.0001005078	-5.713818e-05	0.003648589	0.01074126	-3.401704e-05	-2.333072e-05	-0.002427491	0.005436612
4.7e+08	-0.00198227	-0.001360525	-3.382407e-05	-2.671662e-05	0.005670708	0.0119707	-0.0001057339	-4.34827e-05
	-3.382407e-05	-2.671662e-05	-0.002597292	-0.0007673943	-0.0002723416	-0.0009470711	0.005442046	0.01215774
	0.005670708	0.0119707	-0.0002723416	-0.0009470711	-0.00184292	-0.001142281	-3.89552e-05	-1.931858e-05
