!$
! Info: Touchstone file created by Circ.  Input file=Tx_10in_Rx_93ohms_TxVia_60mils_RxVia_70mils.circ
!$
# Hz S RI R 50
0	0.009241776	1.363913e-25	1.647212e-09	3.15972e-27	7.443825e-05	1.807746e-23	-1.445165e-10	6.347994e-26
	1.647226e-09	3.159725e-27	0.00923751	1.647461e-25	4.490135e-09	1.081454e-26	7.356788e-05	2.249485e-23
	7.35703e-05	1.799663e-23	4.490135e-09	1.081454e-26	0.009255528	1.378987e-25	3.707075e-09	3.342074e-27
	-1.442273e-10	6.344454e-26	7.383749e-05	2.259131e-23	3.706993e-09	3.342058e-27	0.009251926	1.640221e-25
1e+07	0.01321197	-0.0008431809	2.06585e-09	3.645016e-09	0.0003503855	0.001957183	-2.908164e-09	1.167001e-08
	2.06585e-09	3.645016e-09	0.01347761	-0.0008652435	6.360313e-09	1.312676e-08	0.0003461271	0.001951011
	0.0003503698	0.001957197	6.360313e-09	1.312676e-08	0.01350015	-0.0008738273	-1.288673e-09	1.240848e-08
	-2.908164e-09	1.167001e-08	0.0003461297	0.001951009	-1.288672e-09	1.240848e-08	0.01321593	-0.0008669104
2e+07	0.01544883	-0.005026829	2.85761e-09	6.581106e-09	0.0008945974	0.003861616	1.665625e-09	3.656753e-09
	2.85761e-09	6.581106e-09	0.01561236	-0.005156877	8.349878e-09	2.336421e-08	0.0008826599	0.003852507
	0.0008946042	0.003861625	8.349878e-09	2.336421e-08	0.01565881	-0.005179686	-2.610928e-10	6.528883e-09
	1.665625e-09	3.656753e-09	0.0008826571	0.003852507	-2.610928e-10	6.528883e-09	0.01541643	-0.005069622
3e+07	0.01582479	-0.01041221	3.528053e-09	9.110057e-09	0.001875879	0.005502275	2.797836e-09	5.416582e-09
	3.528053e-09	9.110057e-09	0.01588397	-0.01056485	9.441401e-09	3.325938e-08	0.001835392	0.00550099
	0.00187588	0.005502275	9.441401e-09	3.325938e-08	0.01596768	-0.01061255	3.182759e-09	9.221789e-09
	2.797836e-09	5.416582e-09	0.001835392	0.005500992	3.182759e-09	9.221789e-09	0.01573551	-0.01045945
4e+07	0.01469577	-0.01597891	4.139413e-09	1.152113e-08	0.003190648	0.006858117	3.51746e-09	6.645942e-09
	4.139413e-09	1.152113e-08	0.01464587	-0.01611678	1.0234e-08	4.310637e-08	0.003126344	0.006870141
	0.003190647	0.006858118	1.0234e-08	4.310637e-08	0.01477669	-0.01620384	3.838305e-09	1.18698e-08
	3.51746e-09	6.645942e-09	0.003126345	0.006870142	3.838305e-09	1.18698e-08	0.01453283	-0.01601244
5e+07	0.0122544	-0.02129949	4.69361e-09	1.379807e-08	0.004726846	0.007896375	4.128053e-09	7.669305e-09
	4.69361e-09	1.379807e-08	0.01209474	-0.02138985	1.078548e-08	5.298482e-08	0.004637148	0.00792967
	0.004726845	0.007896376	1.078548e-08	5.298482e-08	0.01227763	-0.02153435	4.164927e-09	1.432285e-08
	4.128053e-09	7.669305e-09	0.004637149	0.007929671	4.164927e-09	1.432285e-08	0.01200614	-0.02129608
6e+07	0.008680864	-0.0260745	5.158443e-09	1.593958e-08	0.006414434	0.008582064	4.626886e-09	8.513992e-09
	5.158443e-09	1.593958e-08	0.008416882	-0.02608662	1.116298e-08	6.295734e-08	0.006299894	0.008644947
	0.006414432	0.008582063	1.116298e-08	6.295734e-08	0.00865074	-0.02630801	4.370982e-09	1.672163e-08
	4.626886e-09	8.513992e-09	0.006299895	0.008644947	4.370982e-09	1.672163e-08	0.008342652	-0.02600815
7e+07	0.004170033	-0.03007569	5.495732e-09	1.79654e-08	0.008176753	0.008894335	4.973738e-09	9.205647e-09
	5.495732e-09	1.79654e-08	0.003813449	-0.0299813	1.143414e-08	7.30751e-08	0.008040147	0.008994984
	0.00817675	0.008894333	1.143414e-08	7.30751e-08	0.00409138	-0.0302985	4.494505e-09	1.909962e-08
	4.973738e-09	9.205647e-09	0.008040148	0.008994984	4.494505e-09	1.909962e-08	0.003744259	-0.02991987
8e+07	-0.001063925	-0.03313096	5.670734e-09	1.991073e-08	0.009934221	0.008828269	5.127831e-09	9.785619e-09
	5.670733e-09	1.991073e-08	-0.001495383	-0.03290504	1.166704e-08	8.337179e-08	0.009780523	0.008974193
	0.009934216	0.008828269	1.166704e-08	8.337179e-08	-0.001185537	-0.03333504	4.545137e-09	2.146776e-08
	5.127831e-09	9.785619e-09	0.009780524	0.008974192	4.545137e-09	2.146776e-08	-0.001568243	-0.03286013
9e+07	-0.006789277	-0.03511957	5.656704e-09	2.182379e-08	0.01160794	0.008395357	5.044135e-09	1.031629e-08
	5.656704e-09	2.182379e-08	-0.007272047	-0.03474104	1.191564e-08	9.385689e-08	0.01144418	0.008592892
	0.01160794	0.008395358	1.191564e-08	9.385689e-08	-0.006947138	-0.03529782	4.511826e-09	2.382968e-08
	5.044135e-09	1.031629e-08	0.01144418	0.008592891	4.511826e-09	2.382968e-08	-0.007356782	-0.03471043
1e+08	-0.01274908	-0.03596309	5.399702e-09	2.377261e-08	0.01312282	0.007622412	4.62697e-09	1.094942e-08
	5.399702e-09	2.377261e-08	-0.01325166	-0.03541433	1.214989e-08	1.044984e-07	0.01295814	0.007876424
	0.01312282	0.007622412	1.214989e-08	1.044984e-07	-0.01293251	-0.03610771	4.354123e-09	2.619955e-08
	4.62697e-09	1.094942e-08	0.01295814	0.007876424	4.354123e-09	2.619955e-08	-0.01335831	-0.03539594
1.1e+08	-0.01869829	-0.03574409	5.027959e-09	2.577724e-08	0.01440995	0.006556538	4.08086e-09	1.164423e-08
	5.027959e-09	2.577724e-08	-0.0191841	-0.03503198	1.259318e-08	1.15343e-07	0.0142549	0.006867733
	0.01440995	0.006556538	1.259318e-08	1.15343e-07	-0.01889535	-0.03586629	4.087085e-09	2.869469e-08
	4.08086e-09	1.164423e-08	0.01425489	0.006867733	4.087085e-09	2.869469e-08	-0.01932172	-0.03500627
1.2e+08	-0.02449698	-0.03442912	4.484407e-09	2.788047e-08	0.01541863	0.005252376	3.309199e-09	1.24274e-08
	4.484407e-09	2.788047e-08	-0.02494417	-0.03355606	1.326476e-08	1.26324e-07	0.01528263	0.005620331
	0.01541863	0.005252376	1.326476e-08	1.26324e-07	-0.02471159	-0.03452984	3.734475e-09	3.1281e-08
	3.309199e-09	1.24274e-08	0.01528263	0.005620332	3.734475e-09	3.1281e-08	-0.02510536	-0.03351327
1.3e+08	-0.02990678	-0.0320689	3.782685e-09	3.01426e-08	0.01610593	0.0037739	2.343552e-09	1.337863e-08
	3.782685e-09	3.01426e-08	-0.03028915	-0.03104075	1.42058e-08	1.374034e-07	0.01599903	0.004196081
	0.01610593	0.0037739	1.42058e-08	1.374034e-07	-0.03013876	-0.03214597	3.309988e-09	3.399856e-08
	2.343552e-09	1.337863e-08	0.01599903	0.004196082	3.309988e-09	3.399856e-08	-0.0304685	-0.03097482
1.4e+08	-0.03472604	-0.02876841	2.957959e-09	3.261189e-08	0.01644395	0.002192879	1.220404e-09	1.455014e-08
	2.957959e-09	3.261189e-08	-0.03501738	-0.027597	1.545206e-08	1.485272e-07	0.01637591	0.002664308
	0.01644395	0.002192879	1.545206e-08	1.485272e-07	-0.03497377	-0.02881909	2.84355e-09	3.687469e-08
	1.220404e-09	1.455014e-08	0.01637591	0.002664309	2.84355e-09	3.687469e-08	-0.03520917	-0.02750363
1.5e+08	-0.03878355	-0.02467009	2.058981e-09	3.53211e-08	0.01642052	0.0005849478	-1.800415e-11	1.598253e-08
	2.058981e-09	3.53211e-08	-0.03895958	-0.02337348	1.702615e-08	1.596319e-07	0.01640013	0.001098236
	0.01642052	0.0005849478	1.702615e-08	1.596319e-07	-0.03904433	-0.02469164	2.373708e-09	3.992243e-08
	-1.800415e-11	1.598253e-08	0.01640013	0.001098236	2.373708e-09	3.992243e-08	-0.03915773	-0.02324988
1.6e+08	-0.04194277	-0.01994595	1.147123e-09	3.832427e-08	0.01603941	-0.0009737839	-1.303102e-09	1.77186e-08
	1.147123e-09	3.832427e-08	-0.04198284	-0.01854805	1.893668e-08	1.706472e-07	0.01607393	-0.0004282263
	0.01603941	-0.0009737839	1.893668e-08	1.706472e-07	-0.04221306	-0.01993595	1.946996e-09	4.317822e-08
	-1.303102e-09	1.77186e-08	0.01607393	-0.0004282257	1.946996e-09	4.317822e-08	-0.04218106	-0.01839292
1.7e+08	-0.04410575	-0.01478973	2.986261e-10	4.163792e-08	0.01532001	-0.002410012	-2.567167e-09	1.977665e-08
	2.986261e-10	4.163792e-08	-0.04399436	-0.01331949	2.117517e-08	1.815004e-07	0.01541457	-0.001843615
	0.01532001	-0.002410012	2.117517e-08	1.815004e-07	-0.04438129	-0.01474631	1.620651e-09	4.664453e-08
	-2.567167e-09	1.977665e-08	0.01541457	-0.001843614	1.620651e-09	4.664453e-08	-0.04418637	-0.01313297
1.8e+08	-0.04521573	-0.009408674	-4.040472e-10	4.525826e-08	0.01429628	-0.003656322	-3.737908e-09	2.216026e-08
	-4.040472e-10	4.525826e-08	-0.04494375	-0.007898903	2.371578e-08	1.921196e-07	0.01445346	-0.00308187
	0.01429628	-0.003656322	2.371578e-08	1.921196e-07	-0.04549173	-0.009330703	1.454827e-09	5.030788e-08
	-3.737908e-09	2.216026e-08	0.01445346	-0.00308187	1.454827e-09	5.030788e-08	-0.04512355	-0.007682576
1.9e+08	-0.04525834	-0.004015217	-8.780637e-10	4.915913e-08	0.01301514	-0.004653973	-4.741402e-09	2.485727e-08
	-8.780637e-10	4.915913e-08	-0.04482396	-0.002501177	2.651532e-08	2.024379e-07	0.01323465	-0.004085018
	0.01301514	-0.004653973	2.651532e-08	2.024379e-07	-0.04552965	-0.003902432	1.507737e-09	5.413743e-08
	-4.741402e-09	2.485727e-08	0.01323465	-0.004085018	1.507737e-09	5.413743e-08	-0.0449861	-0.002257893
2e+08	-0.04426128	0.001181283	-1.046703e-09	5.329178e-08	0.01153447	-0.00535529	-5.505289e-09	2.78392e-08
	-1.046703e-09	5.329178e-08	-0.04367062	0.002663578	2.951407e-08	2.123974e-07	0.01181293	-0.004805487
	0.01153447	-0.00535529	2.951407e-08	2.123974e-07	-0.04452258	0.001328205	1.830316e-09	5.808534e-08
	-5.505289e-09	2.78392e-08	0.01181293	-0.004805486	1.830316e-09	5.808534e-08	-0.04381044	0.002929817
2.1e+08	-0.04229247	0.005982563	-8.458009e-10	5.758669e-08	0.009920522	-0.00572559	-5.962224e-09	3.106127e-08
	-8.458009e-10	5.758669e-08	-0.04155981	0.007398138	3.263775e-08	2.219534e-07	0.01025145	-0.005207991
	0.009920522	-0.00572559	3.263775e-08	2.219534e-07	-0.04253847	0.006161948	2.461022e-09	6.208881e-08
	-5.962224e-09	3.106127e-08	0.01025145	-0.005207991	2.461022e-09	6.208881e-08	-0.04167364	0.007682376
2.2e+08	-0.03945685	0.01020889	-2.294901e-10	6.195739e-08	0.0082452	-0.005744578	-6.053471e-09	3.44631e-08
	-2.294901e-10	6.195739e-08	-0.0386044	0.01152565	3.580044e-08	2.310778e-07	0.008619118	-0.005270926
	0.0082452	-0.005744578	3.580044e-08	2.310778e-07	-0.03968251	0.01041807	3.421385e-09	6.607386e-08
	-6.053471e-09	3.44631e-08	0.008619118	-0.005270927	3.421385e-09	6.607386e-08	-0.03868976	0.01182222
2.3e+08	-0.03589179	0.0137057	8.253694e-10	6.630582e-08	0.006582986	-0.005407172	-5.732518e-09	3.797019e-08
	8.253694e-10	6.630582e-08	-0.0349491	0.01489622	3.890857e-08	2.397625e-07	0.006987712	-0.004987221
	0.006582987	-0.005407172	3.890857e-08	2.397625e-07	-0.0360925	0.01394104	4.712852e-09	6.996038e-08
	-5.732518e-09	3.797019e-08	0.006987712	-0.004987221	4.712852e-09	6.996038e-08	-0.03500481	0.015199
2.4e+08	-0.03176143	0.01634926	2.316602e-09	7.052889e-08	0.005007847	-0.004723724	-4.96853e-09	4.149631e-08
	2.316602e-09	7.052889e-08	-0.0307644	0.01739244	4.186561e-08	2.48021e-07	0.005428928	-0.004364627
	0.005007847	-0.004723724	4.186561e-08	2.48021e-07	-0.03193324	0.01660624	6.315413e-09	7.366817e-08
	-4.96853e-09	4.149631e-08	0.005428928	-0.004364627	6.315413e-09	7.366817e-08	-0.03079063	0.01769515
2.5e+08	-0.0272501	0.01805107	4.216001e-09	7.45255e-08	0.003590106	-0.003719623	-3.749407e-09	4.494675e-08
	4.216001e-09	7.45255e-08	-0.02623954	0.01893358	4.457736e-08	2.558894e-07	0.00401139	-0.003425421
	0.003590106	-0.003719623	4.457736e-08	2.558894e-07	-0.02738986	0.01832441	8.18796e-09	7.712303e-08
	-3.749407e-09	4.494675e-08	0.00401139	-0.003425421	8.18796e-09	7.712303e-08	-0.02623786	0.01923007
2.6e+08	-0.02255494	0.018761	6.527151e-09	7.816547e-08	0.00239345	-0.002434291	-2.085549e-09	4.822281e-08
	6.527151e-09	7.816547e-08	-0.02157488	0.01947841	4.697583e-08	2.63414e-07	0.002797768	-0.002205529
	0.00239345	-0.002434291	4.697583e-08	2.63414e-07	-0.02266047	0.01904486	1.032733e-08	8.022422e-08
	-2.085549e-09	4.822281e-08	0.002797768	-0.002205529	1.032733e-08	8.022422e-08	-0.02154819	0.01976292
2.7e+08	-0.01787814	0.01846889	9.11363e-09	8.137686e-08	0.001472171	-0.0009195842	-7.197663e-12	5.12263e-08
	9.11363e-09	8.137686e-08	-0.01697395	0.01902633	4.896697e-08	2.706717e-07	0.001842096	-0.0007530803
	0.001472171	-0.0009195842	4.896697e-08	2.706717e-07	-0.01794836	0.01875694	1.259604e-08	8.293158e-08
	-7.197663e-12	5.12263e-08	0.001842096	-0.0007530803	1.259604e-08	8.293158e-08	-0.01692635	0.01929383
2.8e+08	-0.01341904	0.0172046	1.186636e-08	8.411059e-08	0.0008687551	0.0007623385	2.431643e-09	5.386444e-08
	1.186636e-08	8.411059e-08	-0.01263529	0.01761713	5.048814e-08	2.777601e-07	0.001187419	0.0008735584
	0.0008687552	0.0007623385	5.048814e-08	2.777601e-07	-0.0134541	0.0174903	1.489119e-08	8.522808e-08
	2.431643e-09	5.386444e-08	0.001187419	0.0008735584	1.489119e-08	8.522808e-08	-0.01257192	0.01786355
2.9e+08	-0.009366357	0.01503663	1.467717e-08	8.633804e-08	0.0006119441	0.002541626	5.154933e-09	5.605585e-08
	1.467717e-08	8.633804e-08	-0.008744648	0.01532907	5.150219e-08	2.847893e-07	0.0008638547	0.002608217
	0.0006119441	0.002541626	5.150219e-08	2.847893e-07	-0.009367624	0.01531346	1.711782e-08	8.71158e-08
	5.154933e-09	5.605585e-08	0.0008638547	0.002608217	1.711782e-08	8.71158e-08	-0.008671461	0.01555151
3e+08	-0.005890779	0.01206909	1.743506e-08	8.805584e-08	0.0007153471	0.004343717	8.067372e-09	5.773589e-08
	1.743506e-08	8.805584e-08	-0.005467627	0.01227542	5.199694e-08	2.918776e-07	0.0008871885	0.004379728
	0.0007153471	0.004343717	5.199694e-08	2.918776e-07	-0.005860892	0.01233081	1.918487e-08	8.861942e-08
	8.067372e-09	5.773589e-08	0.0008871885	0.004379728	1.918487e-08	8.861942e-08	-0.005391144	0.01247228
3.1e+08	-0.00313839	0.00843742	2.003213e-08	8.928491e-08	0.001176698	0.006092587	1.105836e-08	5.886143e-08
	2.003213e-08	8.928491e-08	-0.002943226	0.008599689	5.198666e-08	2.991448e-07	0.001258062	0.006114997
	0.001176698	0.006092587	5.198666e-08	2.991448e-07	-0.003081191	0.008678285	2.10105e-08	8.978363e-08
	1.105836e-08	5.886143e-08	0.001258062	0.006114997	2.10105e-08	8.978363e-08	-0.002870237	0.008770785
3.2e+08	-0.001225036	0.004302808	2.236855e-08	9.0068e-08	0.001977805	0.007714108	1.400719e-08	5.94145e-08
	2.236855e-08	9.0068e-08	-0.001278446	0.0044696	5.151188e-08	3.067071e-07	0.001961827	0.007742213
	0.001977805	0.007714108	5.151188e-08	3.067071e-07	-0.001145473	0.004517842	2.252621e-08	9.066946e-08
	1.400719e-08	5.94145e-08	0.001961827	0.007742213	2.252621e-08	9.066946e-08	-0.001215713	0.004616213
3.3e+08	-0.0002319034	-0.000154373	2.435637e-08	9.046653e-08	0.003085225	0.009139384	1.678918e-08	5.940466e-08
	2.435637e-08	9.046653e-08	-0.0005442151	7.017984e-05	5.063797e-08	3.146707e-07	0.002969081	0.009194046
	0.003085225	0.009139384	5.063797e-08	3.146707e-07	-0.0001358804	3.083161e-05	2.367935e-08	9.134989e-08
	1.678918e-08	5.940466e-08	0.002969081	0.009194046	2.367935e-08	9.134989e-08	-0.000498155	0.0001950172
3.4e+08	-0.0002025135	-0.004741844	2.592203e-08	9.055703e-08	0.004451635	0.01030789	1.928228e-08	5.886966e-08
	2.592203e-08	9.055703e-08	-0.0007727856	-0.004403845	4.945232e-08	3.231266e-07	0.004236886	0.01041068
	0.004451635	0.01030789	4.945232e-08	3.231266e-07	-9.669957e-05	-0.004589297	2.443424e-08	9.190542e-08
	1.928228e-08	5.886966e-08	0.004236886	0.01041068	2.443424e-08	9.190542e-08	-0.0007491763	-0.004296735
3.5e+08	-0.001141231	-0.009263157	2.700786e-08	9.042778e-08	0.006017877	0.01117028	2.137374e-08	5.787445e-08
	2.700786e-08	9.042778e-08	-0.001956728	-0.008755997	4.806063e-08	3.321468e-07	0.005710623	0.01134255
	0.006017877	0.01117028	4.806063e-08	3.321468e-07	-0.001032826	-0.009144778	2.477197e-08	9.242021e-08
	2.137374e-08	5.787445e-08	0.005710623	0.01134255	2.477197e-08	9.242021e-08	-0.001960429	-0.008661378
3.6e+08	-0.003013346	-0.01352555	2.75728e-08	9.017592e-08	0.007715556	0.01169068	2.296632e-08	5.650845e-08
	2.75728e-08	9.017592e-08	-0.004049528	-0.01279599	4.658243e-08	3.417805e-07	0.007326399	0.01195258
	0.007715556	0.01169068	4.658243e-08	3.417805e-07	-0.002909813	-0.01344142	2.468938e-08	9.297897e-08
	2.296632e-08	5.650845e-08	0.007326399	0.01195258	2.468938e-08	9.297897e-08	-0.00408424	-0.01270765
3.7e+08	-0.005746713	-0.01734759	2.759294e-08	8.990503e-08	0.009470106	0.01184837	2.398355e-08	5.488149e-08
	2.759294e-08	8.990503e-08	-0.00696778	-0.01634741	4.514621e-08	3.520523e-07	0.009013905	0.01221794
	0.009470106	0.01184837	4.514621e-08	3.520523e-07	-0.005655497	-0.01729631	2.419778e-08	9.36648e-08
	2.398355e-08	5.488149e-08	0.009013905	0.01221794	2.419778e-08	9.36648e-08	-0.007035851	-0.01625841
3.8e+08	-0.009234878	-0.0205663	2.706206e-08	8.972324e-08	0.01120415	0.01163881	2.437387e-08	5.311857e-08
	2.706206e-08	8.972324e-08	-0.01059484	-0.01925465	4.388438e-08	3.629605e-07	0.01069957	0.01213104
	0.01120415	0.01163881	4.388438e-08	3.629605e-07	-0.009163109	-0.02054503	2.33218e-08	9.455785e-08
	2.437387e-08	5.311857e-08	0.01069957	0.01213104	2.33218e-08	9.455785e-08	-0.01069713	-0.01915763
3.9e+08	-0.01334154	-0.02304353	2.599255e-08	8.974132e-08	0.012841	0.01107384	2.411324e-08	5.13539e-08
	2.599255e-08	8.974132e-08	-0.01478579	-0.02138911	4.292827e-08	3.744774e-07	0.01230988	0.01169988
	0.012841	0.01107384	4.292827e-08	3.744774e-07	-0.01329574	-0.02304801	2.209866e-08	9.573446e-08
	2.411324e-08	5.13539e-08	0.01230988	0.01169988	2.209866e-08	9.573446e-08	-0.01492161	-0.0212766
4e+08	-0.01790615	-0.02467122	2.441679e-08	9.007056e-08	0.01430811	0.01018119	2.320632e-08	4.972474e-08
	2.441679e-08	9.007056e-08	-0.01937351	-0.02265405	4.240333e-08	3.865497e-07	0.01377464	0.01094767
	0.01430811	0.01018119	4.240333e-08	3.865497e-07	-0.01789196	-0.02469593	2.057826e-08	9.726631e-08
	2.320632e-08	4.972474e-08	0.01377464	0.01094767	2.057826e-08	9.726631e-08	-0.01954061	-0.02251882
4.1e+08	-0.02275042	-0.02537548	2.23887e-08	9.081985e-08	0.01554037	0.009003194	2.16862e-08	4.836524e-08
	2.23887e-08	9.081985e-08	-0.02417554	-0.02298827	4.242457e-08	3.990995e-07	0.01503016	0.009911753
	0.01554037	0.009003194	4.242457e-08	3.990995e-07	-0.02277236	-0.0254138	1.882363e-08	9.921916e-08
	2.16862e-08	4.836524e-08	0.01503016	0.009911753	1.882363e-08	9.921916e-08	-0.02437016	-0.02282362
4.2e+08	-0.02768546	-0.02511923	1.998522e-08	9.209181e-08	0.01648294	0.007594901	1.961294e-08	4.740077e-08
	1.998522e-08	9.209181e-08	-0.02900148	-0.02236825	4.309221e-08	4.120268e-07	0.01602195	0.00864186
	0.01648294	0.007594901	4.309221e-08	4.120268e-07	-0.02774669	-0.02516372	1.691177e-08	1.016507e-07
	1.961294e-08	4.740077e-08	0.01602195	0.00864186	1.691177e-08	1.016507e-07	-0.02921853	-0.02216835
4.3e+08	-0.03251923	-0.02390346	1.730706e-08	9.397765e-08	0.01709373	0.006021564	1.707103e-08	4.694285e-08
	1.730706e-08	9.397765e-08	-0.03366064	-0.02080879	4.448771e-08	4.252114e-07	0.01670715	0.007197886
	0.01709373	0.006021564	4.448771e-08	4.252114e-07	-0.03262143	-0.02394609	1.493409e-08	1.046075e-07
	1.707103e-08	4.694285e-08	0.01670715	0.007197886	1.493409e-08	1.046075e-07	-0.03389385	-0.02056892
4.4e+08	-0.03706409	-0.02176692	1.447822e-08	9.655115e-08	0.01734516	0.004355752	1.416613e-08	4.708485e-08
	1.447822e-08	9.655115e-08	-0.03796959	-0.0183621	4.666992e-08	4.385165e-07	0.01705631	0.005647202
	0.01734516	0.004355752	4.666992e-08	4.385165e-07	-0.03720733	-0.02179937	1.299603e-08	1.081208e-07
	1.416613e-08	4.708485e-08	0.01705631	0.005647202	1.299603e-08	1.081208e-07	-0.03821181	-0.01807891
4.5e+08	-0.04114402	-0.01878441	1.164366e-08	9.986188e-08	0.01722532	0.002674137	1.102118e-08	4.789839e-08
	1.164366e-08	9.986188e-08	-0.04175935	-0.01511554	4.967169e-08	4.517922e-07	0.01705454	0.004061695
	0.01722532	0.002674137	4.967169e-08	4.517922e-07	-0.04132673	-0.01879841	1.121529e-08	1.122016e-07
	1.102118e-08	4.789839e-08	0.01705454	0.004061695	1.121529e-08	1.122016e-07	-0.04200279	-0.01478719
4.6e+08	-0.04460146	-0.01506366	8.964722e-09	1.039286e-07	0.01673845	0.001054163	7.772209e-09	4.943048e-08
	8.964722e-09	1.039286e-07	-0.04488191	-0.01118791	5.349677e-08	4.648801e-07	0.01670212	0.002514658
	0.01673845	0.001054163	5.349677e-08	4.648801e-07	-0.04482043	-0.01505132	9.718144e-09	1.168359e-07
	7.772209e-09	4.943048e-08	0.01670212	0.002514658	9.718144e-09	1.168359e-07	-0.04511856	-0.0108142
4.7e+08	-0.04730324	-0.01074105	6.612245e-09	1.087334e-07	0.01590466	-0.0004292896	4.563711e-09	5.170156e-08
	6.612245e-09	1.087334e-07	-0.04721595	-0.00672458	5.811741e-08	4.776187e-07	0.01601435	0.001077665
	0.01590466	-0.0004292896	5.811741e-08	4.776187e-07	-0.04755371	-0.01069517	8.63389e-09	1.219806e-07
	4.563711e-09	5.170156e-08	0.01601435	0.001077665	8.63389e-09	1.219806e-07	-0.04743781	-0.006306961
4.8e+08	-0.04914561	-0.005976237	4.757598e-09	1.142177e-07	0.01475902	-0.001707082	1.543924e-09	5.4704e-08
	4.757598e-09	1.142177e-07	-0.04867139	-0.001891744	6.347281e-08	4.898496e-07	0.01502081	-0.0001824339
