!$
! Info: Touchstone file created by Circ.  Input file=Tx_12in_Rx_85ohms_TxVia_60mils_RxVia_70mils.circ
!$
# Hz S RI R 50
0	0.009711536	1.57915e-25	1.643624e-09	3.412459e-27	8.528906e-05	1.900279e-23	-1.464772e-10	6.351845e-26
	1.643639e-09	3.412464e-27	0.009707269	1.918378e-25	4.48387e-09	1.150922e-26	8.441952e-05	2.364713e-23
	8.442115e-05	1.891782e-23	4.483871e-09	1.150922e-26	0.009725274	1.596498e-25	3.701479e-09	3.606739e-27
	-1.461884e-10	6.348308e-26	8.46891e-05	2.374853e-23	3.701397e-09	3.606724e-27	0.009721672	1.910036e-25
1e+07	0.01216745	-0.01147908	2.044453e-09	3.711132e-09	0.0004622	0.002252128	-2.407671e-09	1.189062e-08
	2.044452e-09	3.711132e-09	0.01219264	-0.01148414	6.13925e-09	1.335688e-08	0.0004584103	0.002258245
	0.0004621844	0.002252142	6.13925e-09	1.335688e-08	0.01222374	-0.01145862	-8.989932e-10	1.262652e-08
	-2.407671e-09	1.189062e-08	0.000458413	0.002258243	-8.98993e-10	1.262652e-08	0.01216894	-0.01147055
2e+07	0.01088358	-0.02596885	2.641533e-09	6.724233e-09	0.001349067	0.004264308	1.553487e-09	3.744036e-09
	2.641533e-09	6.724234e-09	0.01085716	-0.02598226	7.371617e-09	2.403158e-08	0.001334717	0.004279662
	0.001349074	0.004264316	7.371617e-09	2.403158e-08	0.01093624	-0.02594375	-5.074487e-10	6.991927e-09
	1.553487e-09	3.744036e-09	0.001334714	0.004279663	-5.074487e-10	6.991926e-09	0.01084429	-0.02594492
3e+07	0.004803607	-0.04069916	3.029567e-09	9.382132e-09	0.002682014	0.005954753	2.541244e-09	5.438497e-09
	3.029567e-09	9.382132e-09	0.004705414	-0.04069036	7.428522e-09	3.469742e-08	0.0026519	0.005984993
	0.002682015	0.005954753	7.428522e-09	3.469742e-08	0.004857356	-0.04066174	2.604638e-09	9.587879e-09
	2.541244e-09	5.438497e-09	0.0026519	0.005984995	2.604638e-09	9.587879e-09	0.004699514	-0.0406393
4e+07	-0.005168012	-0.05366529	3.318862e-09	1.202583e-08	0.004362487	0.007228155	3.019396e-09	6.666541e-09
	3.318862e-09	1.202583e-08	-0.005350969	-0.05360403	7.031459e-09	4.575491e-08	0.004313819	0.007280848
	0.004362486	0.007228156	7.031459e-09	4.575491e-08	-0.00511026	-0.05361568	2.920837e-09	1.250237e-08
	3.019396e-09	6.666541e-09	0.00431382	0.007280849	2.920837e-09	1.250237e-08	-0.005352504	-0.05354171
5e+07	-0.01819236	-0.06385476	3.529313e-09	1.46349e-08	0.006266834	0.008016118	3.308778e-09	7.747399e-09
	3.529313e-09	1.46349e-08	-0.01846292	-0.06370729	6.408357e-09	5.734766e-08	0.006199782	0.008099791
	0.006266832	0.008016118	6.408357e-09	5.734766e-08	-0.01812888	-0.06379458	2.890115e-09	1.538881e-08
	3.308778e-09	7.747399e-09	0.006199783	0.008099791	2.890115e-09	1.538881e-08	-0.01846238	-0.0636339
6e+07	-0.03334773	-0.07060112	3.650696e-09	1.721241e-08	0.008259352	0.008286183	3.415421e-09	8.735535e-09
	3.650696e-09	1.721241e-08	-0.03369716	-0.07033366	5.80726e-09	6.954421e-08	0.008177209	0.008409285
	0.00825935	0.008286183	5.807259e-09	6.954421e-08	-0.03327785	-0.07053236	2.774958e-09	1.835652e-08
	3.415421e-09	8.735535e-09	0.00817721	0.008409285	2.774958e-09	1.835652e-08	-0.03369593	-0.07024823
7e+07	-0.04964773	-0.07352279	3.664466e-09	1.978116e-08	0.01020377	0.008042893	3.317106e-09	9.687644e-09
	3.664466e-09	1.978116e-08	-0.05005645	-0.07310525	5.47904e-09	8.234514e-08	0.01011281	0.0082128
	0.01020376	0.008042892	5.47904e-09	8.234514e-08	-0.0495716	-0.07344734	2.647264e-09	2.141543e-08
	3.317106e-09	9.687644e-09	0.01011281	0.008212799	2.647264e-09	2.141543e-08	-0.05005504	-0.07300635
8e+07	-0.06608875	-0.07250491	3.555706e-09	2.238032e-08	0.0119733	0.007325256	3.003295e-09	1.067233e-08
	3.555706e-09	2.238032e-08	-0.06652795	-0.07191385	5.661997e-09	9.567404e-08	0.01188237	0.007547363
	0.0119733	0.007325256	5.661996e-09	9.567404e-08	-0.06600709	-0.07242431	2.535863e-09	2.455358e-08
	3.003295e-09	1.067233e-08	0.01188237	0.007547363	2.535863e-09	2.455358e-08	-0.06652612	-0.07179985
9e+07	-0.08170348	-0.06768192	3.321057e-09	2.506194e-08	0.01345908	0.006201788	2.485477e-09	1.176234e-08
	3.321057e-09	2.506194e-08	-0.08213735	-0.06690287	6.561777e-09	1.093797e-07	0.01337893	0.006478745
	0.01345908	0.006201788	6.561777e-09	1.093797e-07	-0.08161735	-0.06759723	2.449366e-09	2.775518e-08
	2.485477e-09	1.176234e-08	0.01337893	0.006478745	2.449366e-09	2.775518e-08	-0.08213408	-0.06677222
1e+08	-0.09561485	-0.05941379	2.965747e-09	2.78816e-08	0.01457855	0.004764976	1.79931e-09	1.30269e-08
	2.965747e-09	2.78816e-08	-0.096003	-0.05844292	8.327647e-09	1.232411e-07	0.01452102	0.005096123
	0.01457855	0.004764976	8.327647e-09	1.232411e-07	-0.09552512	-0.0593254	2.373386e-09	3.100104e-08
	1.79931e-09	1.30269e-08	0.01452102	0.005096123	2.373386e-09	3.100104e-08	-0.09599679	-0.05829451
1.1e+08	-0.1070701	-0.04822586	2.602163e-09	3.082626e-08	0.01527284	0.003103713	1.018735e-09	1.450597e-08
	2.602163e-09	3.082626e-08	-0.10737	-0.04707319	1.10816e-08	1.36997e-07	0.01524973	0.003484733
	0.01527284	0.003103713	1.10816e-08	1.36997e-07	-0.1069777	-0.04813531	2.336219e-09	3.441361e-08
	1.018735e-09	1.450597e-08	0.01524973	0.003484733	2.336219e-09	3.441361e-08	-0.1073583	-0.04690524
1.2e+08	-0.1154626	-0.03483354	2.245266e-09	3.398628e-08	0.01549593	0.001343899	1.854665e-10	1.622692e-08
	2.245266e-09	3.398628e-08	-0.115636	-0.03352006	1.479232e-08	1.503784e-07	0.01551801	0.001766925
	0.01549593	0.001343898	1.479232e-08	1.503784e-07	-0.1153696	-0.03474084	2.40292e-09	3.796663e-08
	1.854665e-10	1.622692e-08	0.01551801	0.001766926	2.40292e-09	3.796663e-08	-0.1156149	-0.03333291
1.3e+08	-0.1203998	-0.02004572	1.957817e-09	3.737313e-08	0.01524917	-0.0003957031	-6.34621e-10	1.82068e-08
	1.957817e-09	3.737313e-08	-0.1204139	-0.0186035	1.936678e-08	1.630943e-07	0.01532513	5.817778e-05
	0.01524917	-0.0003957032	1.936678e-08	1.630943e-07	-0.1203076	-0.01995027	2.61598e-09	4.164336e-08
	-6.34621e-10	1.82068e-08	0.01532513	5.817879e-05	2.61598e-09	4.164336e-08	-0.1203797	-0.0183989
1.4e+08	-0.1216878	-0.004726856	1.820592e-09	4.097403e-08	0.01455744	-0.002003458	-1.377126e-09	2.044472e-08
	1.820592e-09	4.097403e-08	-0.1215187	-0.003197528	2.462669e-08	1.748899e-07	0.0146929	-0.00153255
	0.01455744	-0.002003458	2.462669e-08	1.748899e-07	-0.1215976	-0.004627704	3.028337e-09	4.540861e-08
	-1.377126e-09	2.044472e-08	0.0146929	-0.001532549	3.028337e-09	4.540861e-08	-0.1214684	-0.002978415
1.5e+08	-0.1193387	0.0102476	1.916025e-09	4.476344e-08	0.01346913	-0.00337805	-1.969995e-09	2.292791e-08
	1.916025e-09	4.476344e-08	-0.1189737	0.01181533	3.031856e-08	1.855664e-07	0.0136659	-0.002905739
	0.01346913	-0.00337805	3.031856e-08	1.855664e-07	-0.1192511	0.01035155	3.688466e-09	4.922204e-08
	-1.969995e-09	2.292791e-08	0.0136659	-0.002905738	3.688466e-09	4.922204e-08	-0.1189052	0.012045
1.6e+08	-0.1135651	0.02403647	2.317028e-09	4.867353e-08	0.01205353	-0.004432548	-2.350298e-09	2.562391e-08
	2.317028e-09	4.867353e-08	-0.1130051	0.02559	3.613192e-08	1.95003e-07	0.01230909	-0.003975175
	0.01205353	-0.004432548	3.613192e-08	1.95003e-07	-0.1134804	0.02414637	4.631269e-09	5.301029e-08
	-2.350298e-09	2.562391e-08	0.01230909	-0.003975174	4.631269e-09	5.301029e-08	-0.1129174	0.02582555
1.7e+08	-0.1047663	0.03587575	3.072715e-09	5.260964e-08	0.01039753	-0.005098105	-2.461939e-09	2.848604e-08
	3.072715e-09	5.260964e-08	-0.1040267	0.03736229	4.172457e-08	2.03171e-07	0.01070482	-0.004671515
	0.01039753	-0.005098105	4.172457e-08	2.03171e-07	-0.1046846	0.03599271	5.866258e-09	5.668344e-08
	-2.461939e-09	2.848604e-08	0.01070482	-0.004671514	5.866258e-09	5.668344e-08	-0.1039201	0.03759863
1.8e+08	-0.09350585	0.04511776	4.198344e-09	5.645989e-08	0.008601841	-0.005327282	-2.258126e-09	3.145409e-08
	4.198344e-09	5.645989e-08	-0.09261658	0.04648826	4.675108e-08	2.101408e-07	0.008949375	-0.004945563
	0.008601841	-0.005327282	4.675108e-08	2.101408e-07	-0.0934267	0.04524276	7.370161e-09	6.014494e-08
	-2.258126e-09	3.145409e-08	0.008949375	-0.004945562	7.370161e-09	6.014494e-08	-0.09249284	0.04672031
1.9e+08	-0.0804814	0.05126502	5.669628e-09	6.010848e-08	0.006776474	-0.005096945	-1.704317e-09	3.445508e-08
	5.669628e-09	6.010848e-08	-0.07948591	0.05247815	5.089157e-08	2.160787e-07	0.007148849	-0.004771213
	0.006776474	-0.005096945	5.089157e-08	2.160787e-07	-0.08040429	0.05139889	9.084029e-09	6.330478e-08
	-1.704317e-09	3.445508e-08	0.007148849	-0.004771213	9.084029e-09	6.330478e-08	-0.07934836	0.05270126
2e+08	-0.06648764	0.05399757	7.422786e-09	6.345079e-08	0.005035468	-0.004410518	-7.818812e-10	3.740467e-08
	7.422786e-09	6.345079e-08	-0.06544096	0.05502344	5.387811e-08	2.212362e-07	0.005414147	-0.004147848
	0.005035468	-0.004410518	5.387811e-08	2.212362e-07	-0.06641185	0.05414092	1.091606e-08	6.609354e-08
	-7.818812e-10	3.740467e-08	0.005414148	-0.004147848	1.091606e-08	6.609354e-08	-0.06529423	0.05523378
2.1e+08	-0.0523734	0.05319197	9.360745e-09	6.640748e-08	0.003490693	-0.003299255	5.076277e-10	4.020969e-08
	9.360745e-09	6.640748e-08	-0.05133903	0.05401529	5.5516e-08	2.259314e-07	0.003855102	-0.003101828
	0.003490693	-0.003299255	5.5516e-08	2.259314e-07	-0.0522981	0.05334518	1.275036e-08	6.84749e-08
	5.076277e-10	4.020969e-08	0.003855102	-0.003101828	1.275036e-08	6.84749e-08	-0.05118888	0.05421026
2.2e+08	-0.03899433	0.0489305	1.136464e-08	6.893515e-08	0.00224496	-0.001822056	2.138129e-09	4.27727e-08
	1.136464e-08	6.893515e-08	-0.03804033	0.04955289	5.569842e-08	2.305272e-07	0.002573789	-0.001686609
	0.00224496	-0.001822056	5.569842e-08	2.305272e-07	-0.03891865	0.04909369	1.446063e-08	7.045381e-08
	2.138129e-09	4.27727e-08	0.002573789	-0.001686609	1.446063e-08	7.045381e-08	-0.03789332	0.04973144
2.3e+08	-0.02716346	0.041499	1.330863e-08	7.103128e-08	0.001384771	-6.341201e-05	4.05557e-09	4.499869e-08
	1.330863e-08	7.103128e-08	-0.02635789	0.04194031	5.441382e-08	2.354059e-07	0.001657436	1.896165e-05
	0.001384771	-6.341203e-05	5.441382e-08	2.354059e-07	-0.02708655	0.041672	1.592655e-08	7.207843e-08
	4.05557e-09	4.499869e-08	0.001657436	1.89616e-05	1.592655e-08	7.207843e-08	-0.02622094	0.04210312
2.4e+08	-0.01760245	0.0313726	1.507522e-08	7.273257e-08	0.0009733747	0.001870831	6.176606e-09	4.680403e-08
	1.507522e-08	7.273257e-08	-0.01700844	0.03167093	5.174651e-08	2.409452e-07	0.001171504	0.001914489
	0.0009733748	0.001870831	5.174651e-08	2.409452e-07	-0.0175236	0.03155502	1.704981e-08	7.343496e-08
	6.176606e-09	4.680403e-08	0.001171504	0.001914489	1.704981e-08	7.343496e-08	-0.01688838	0.03182057
2.5e+08	-0.01089677	0.01918915	1.656783e-08	7.41073e-08	0.001044889	0.003859917	8.39057e-09	4.812654e-08
	1.656783e-08	7.41073e-08	-0.0105676	0.01939951	4.78717e-08	2.474959e-07	0.001153767	0.003884085
	0.001044889	0.003859917	4.78717e-08	2.474959e-07	-0.01081546	0.01938038	1.776647e-08	7.463614e-08
	8.39057e-09	4.812654e-08	0.001153767	0.003884085	1.776647e-08	7.463614e-08	-0.01047063	0.01954038
2.6e+08	-0.007458281	0.005711371	1.77183e-08	7.524354e-08	0.00160036	0.005776524	1.056549e-08	4.893546e-08
	1.77183e-08	7.524354e-08	-0.007432826	0.00590301	4.304647e-08	2.553623e-07	0.001610202	0.005804331
	0.00160036	0.005776524	4.304647e-08	2.553623e-07	-0.007374243	0.00591069	1.805302e-08	7.580581e-08
	1.056549e-08	4.893546e-08	0.001610202	0.005804331	1.805302e-08	7.580581e-08	-0.00736406	0.006041223
2.7e+08	-0.00749845	-0.008220161	1.8488e-08	7.623658e-08	0.002606445	0.00749632	1.255816e-08	4.923934e-08
	1.8488e-08	7.623658e-08	-0.007797408	-0.007967668	3.75979e-08	2.647854e-07	0.002513418	0.007553505
	0.002606445	0.00749632	3.75979e-08	2.647854e-07	-0.007411727	-0.008013511	1.792513e-08	7.706289e-08
	1.255816e-08	4.923934e-08	0.002513418	0.007553505	1.792513e-08	7.706289e-08	-0.007760394	-0.007824614
2.8e+08	-0.0110147	-0.02174	1.886334e-08	7.717863e-08	0.003997159	0.008907777	1.422725e-08	4.909002e-08
	1.886334e-08	7.717863e-08	-0.01163792	-0.02134168	3.190921e-08	2.759292e-07	0.003804049	0.009021125
	0.003997159	0.008907777	3.190921e-08	2.759292e-07	-0.01092564	-0.02152669	1.742963e-08	7.850851e-08
	1.422725e-08	4.909002e-08	0.003804049	0.009021125	1.742963e-08	7.850851e-08	-0.01163427	-0.0211853
2.9e+08	-0.01779132	-0.03401281	1.88479e-08	7.815343e-08	0.00567866	0.009921116	1.544784e-08	4.85817e-08
	1.88479e-08	7.815343e-08	-0.01871651	-0.03338387	2.640365e-08	2.888675e-07	0.005395133	0.01011674
	0.00567866	0.009921116	2.640365e-08	2.888675e-07	-0.01770051	-0.03379329	1.663253e-08	8.021907e-08
	1.544784e-08	4.85817e-08	0.005395133	0.01011674	1.663253e-08	8.021907e-08	-0.01874563	-0.03320521
3e+08	-0.02741487	-0.04428601	1.845461e-08	7.923651e-08	0.007536649	0.01047536	1.612496e-08	4.784449e-08
	1.845461e-08	7.923651e-08	-0.02859788	-0.04334774	2.152577e-08	3.035743e-07	0.007179049	0.01077689
	0.007536649	0.01047536	2.152577e-08	3.035743e-07	-0.02732311	-0.04406047	1.560665e-08	8.224615e-08
	1.612496e-08	4.784449e-08	0.007179049	0.01077689	1.560665e-08	8.224615e-08	-0.02865686	-0.04313795
3.1e+08	-0.03930295	-0.05193611	1.766582e-08	8.049273e-08	0.009445517	0.01054267	1.620459e-08	4.703375e-08
	1.766582e-08	8.049273e-08	-0.04067955	-0.05062154	1.770465e-08	3.199127e-07	0.0090362	0.01096957
	0.009445517	0.01054267	1.770465e-08	3.199127e-07	-0.03921105	-0.05170436	1.438682e-08	8.461513e-08
	1.620459e-08	4.703375e-08	0.0090362	0.01096957	1.438682e-08	8.461513e-08	-0.0407632	-0.05037248
3.2e+08	-0.05274344	-0.05650517	1.646327e-08	8.202402e-08	0.01127821	0.01012967	1.567941e-08	4.631543e-08
	1.646327e-08	8.202402e-08	-0.05423269	-0.0547642	1.534008e-08	3.376472e-07	0.01084442	0.01069565
	0.01127821	0.01012967	1.534008e-08	3.376472e-07	-0.05265214	-0.05626669	1.299624e-08	8.737547e-08
	1.567941e-08	4.631543e-08	0.01084442	0.01069565	1.299624e-08	8.737547e-08	-0.05433372	-0.05446903
3.3e+08	-0.06694109	-0.05772534	1.496271e-08	8.394528e-08	0.01291568	0.009275634	1.458769e-08	4.585087e-08
	1.496271e-08	8.394528e-08	-0.06844992	-0.05552875	1.482705e-08	3.564371e-07	0.01248805	0.009987486
	0.01291568	0.009275634	1.482705e-08	3.564371e-07	-0.06685093	-0.05747925	1.157863e-08	9.057928e-08
	1.458769e-08	4.585087e-08	0.01248805	0.009987486	1.157863e-08	9.057928e-08	-0.06855929	-0.05518253
3.4e+08	-0.08106753	-0.05553027	1.323574e-08	8.634298e-08	0.01425503	0.008048246	1.301148e-08	4.578449e-08
	1.323574e-08	8.634298e-08	-0.08249626	-0.05287257	1.644862e-08	3.758307e-07	0.01386574	0.008904975
	0.01425503	0.008048246	1.644862e-08	3.758307e-07	-0.0809787	-0.05527543	1.021633e-08	9.424425e-08
	1.301148e-08	4.578449e-08	0.01386574	0.008904975	1.021633e-08	9.424425e-08	-0.08260369	-0.05247268
3.5e+08	-0.09431102	-0.05005351	1.138208e-08	8.929925e-08	0.01521567	0.006537438	1.106749e-08	4.623218e-08
	1.138208e-08	8.929925e-08	-0.09555949	-0.04695427	2.037368e-08	3.952975e-07	0.01489648	0.007529959
	0.01521567	0.006537438	2.037368e-08	3.952975e-07	-0.09422328	-0.0497887	9.002127e-09	9.838229e-08
	1.106749e-08	4.623218e-08	0.01489648	0.007529959	9.002127e-09	9.838229e-08	-0.09565408	-0.04650067
3.6e+08	-0.1059228	-0.04161529	9.534504e-09	9.28803e-08	0.01574329	0.00484828	8.896628e-09	4.727409e-08
	9.534504e-09	9.28803e-08	-0.1068967	-0.03811892	2.663303e-08	4.142578e-07	0.01552343	0.005959605
	0.01574329	0.00484828	2.663303e-08	4.142578e-07	-0.1058355	-0.04133934	8.044388e-09	1.029925e-07
	8.896628e-09	4.727409e-08	0.01552343	0.005959605	8.044388e-09	1.029925e-07	-0.1069676	-0.03761427
3.7e+08	-0.1152577	-0.03069935	7.858196e-09	9.712119e-08	0.01581157	0.003093629	6.652787e-09	4.895141e-08
	7.858196e-09	9.712119e-08	-0.1158747	-0.02687321	3.510381e-08	4.321208e-07	0.01571579	0.004299595
	0.01581157	0.003093629	3.510381e-08	4.321208e-07	-0.1151697	-0.03041129	7.467637e-09	1.0805e-07
	6.652787e-09	4.895141e-08	0.01571579	0.004299595	7.467637e-09	1.0805e-07	-0.1159117	-0.02632292
3.8e+08	-0.1218067	-0.01792201	6.542426e-09	1.020099e-07	0.01542209	0.00138718	4.492231e-09	5.126653e-08
	6.542426e-09	1.020099e-07	-0.122002	-0.01385317	4.550538e-08	4.483273e-07	0.01546889	0.002657672
	0.01542209	0.00138718	4.550538e-08	4.483273e-07	-0.1217166	-0.01762122	7.406566e-09	1.134942e-07
	4.492231e-09	5.126653e-08	0.01546889	0.002657672	7.406566e-09	1.134942e-07	-0.1219964	-0.0132651
3.9e+08	-0.1252217	-0.003995881	5.784895e-09	1.074749e-07	0.01460276	-0.000162733	2.564694e-09	5.418595e-08
	5.784895e-09	1.074749e-07	-0.1249524	0.0002135244	5.740831e-08	4.623949e-07	0.01480297	0.001137863
	0.01460276	-0.000162733	5.740831e-08	4.623949e-07	-0.1251279	-0.003682144	7.993364e-09	1.192186e-07
	2.564694e-09	5.418595e-08	0.01480297	0.001137863	7.993364e-09	1.192186e-07	-0.1248976	0.0008293568
4e+08	-0.1253306	0.01030991	5.770228e-09	1.133783e-07	0.01340522	-0.001458426	1.006534e-09	5.764451e-08
	5.770228e-09	1.133783e-07	-0.1245796	0.01454822	7.025693e-08	4.739588e-07	0.01376101	-0.0001644731
	0.01340522	-0.001458426	7.025693e-08	4.739588e-07	-0.1252314	0.01063633	9.339789e-09	1.250673e-07
	1.006534e-09	5.764451e-08	0.01376101	-0.000164473	9.339789e-09	1.250673e-07	-0.1244712	0.01518023
4.1e+08	-0.1221438	0.02421085	6.645591e-09	1.195187e-07	0.01190156	-0.002417268	-6.410621e-11	6.155025e-08
	6.645591e-09	1.195187e-07	-0.1209214	0.02836323	8.340417e-08	4.828065e-07	0.01240599	-0.001166847
	0.01190156	-0.002417268	8.340417e-08	4.828065e-07	-0.1220375	0.02454921	1.151671e-08	1.30838e-07
	-6.410631e-11	6.155025e-08	0.01240599	-0.001166847	1.151671e-08	1.30838e-07	-0.1207582	0.02899889
4.2e+08	-0.1158521	0.03694803	8.497118e-09	1.256429e-07	0.01018059	-0.002975321	-5.506194e-10	6.578895e-08
	8.497118e-09	1.256429e-07	-0.1141967	0.04090327	9.615591e-08	4.889003e-07	0.01081768	-0.001803198
	0.01018059	-0.002975321	9.615591e-08	4.889003e-07	-0.1157373	0.03729715	1.453462e-08	1.36295e-07
	-5.506194e-10	6.578895e-08	0.01081768	-0.001803198	1.453462e-08	1.36295e-07	-0.1139805	0.04152983
4.3e+08	-0.1068158	0.04782763	1.133102e-08	1.314668e-07	0.008343675	-0.003090338	-3.804966e-10	7.022792e-08
	1.133102e-08	1.314668e-07	-0.1047928	0.05148491	1.078207e-07	4.923859e-07	0.009089064	-0.002026951
	0.008343675	-0.003090338	1.078207e-07	4.923859e-07	-0.1066914	0.04818594	1.832897e-08	1.411897e-07
	-3.804966e-10	7.022792e-08	0.009089064	-0.002026951	1.832897e-08	1.411897e-07	-0.1045285	0.05209016
4.4e+08	-0.09554671	0.05625733	1.506291e-08	1.367036e-07	0.006500144	-0.00274416	4.920662e-10	7.471934e-08
	1.506291e-08	1.367036e-07	-0.09324553	0.05953271	1.177602e-07	4.935865e-07	0.007322243	-0.001813609
	0.006500144	-0.00274416	1.177602e-07	4.935865e-07	-0.09541195	0.05662296	2.275346e-08	1.452874e-07
	4.920662e-10	7.471934e-08	0.007322243	-0.001813609	2.275346e-08	1.452874e-07	-0.09294112	0.06010579
4.5e+08	-0.08268132	0.06177837	1.951776e-08	1.410952e-07	0.004762141	-0.001944451	2.082884e-09	7.910346e-08
	1.951776e-08	1.410952e-07	-0.08021148	0.06461064	1.254351e-07	4.929818e-07	0.005623791	-0.001162805
	0.004762141	-0.001944451	1.254351e-07	4.929818e-07	-0.08253593	0.06214928	2.758394e-08	1.483966e-07
	2.082884e-09	7.910346e-08	0.005623791	-0.001162805	2.758394e-08	1.483966e-07	-0.07987745	0.0651427
4.6e+08	-0.06894865	0.06409181	2.444176e-08	1.444427e-07	0.003238864	-0.0007255502	4.37362e-09	8.321286e-08
	2.444176e-08	1.444427e-07	-0.06643381	0.06644722	1.30443e-07	4.911751e-07	0.004099363	-9.957386e-05
	0.003238864	-0.0007255502	1.30443e-07	4.911751e-07	-0.06879285	0.06446589	3.253366e-08	1.503966e-07
	4.37362e-09	8.321286e-08	0.004099363	-9.957386e-05	3.253366e-08	1.503966e-07	-0.06608275	0.06693211
4.7e+08	-0.05513135	0.06307733	2.95251e-08	1.466319e-07	0.002030263	0.0008518758	7.307142e-09	8.687857e-08
	2.95251e-08	1.466319e-07	-0.0527025	0.06495295	1.325437e-07	4.888527e-07	0.002847682	0.001325482
	0.002030263	0.0008518758	1.325437e-07	4.888527e-07	-0.05496587	0.06345249	3.727895e-08	1.512595e-07
	7.307142e-09	8.687857e-08	0.002847682	0.001325482	3.727895e-08	1.512595e-07	-0.05234845	0.06538765
4.8e+08	-0.04202283	0.05880313	3.443312e-08	1.476482e-07	0.00122043	0.002702738	1.078347e-08	8.993903e-08
	3.443312e-08	1.476482e-07	-0.03981061	0.06022849	1.316722e-07	4.867385e-07	0.001954089	0.003037532
	0.00122043	0.002702738	1.316722e-07	4.867385e-07	-0.04184893	0.05917742	4.149249e-08	1.510603e-07
	1.078347e-08	8.993903e-08	0.001954089	0.003037532	4.149249e-08	1.510603e-07	-0.03946823	0.06061348
