!$
! Info: Touchstone file created by Circ.  Input file=Tx_16in_Rx_100ohms_TxVia_60mils_RxVia_70mils.circ
!$
# Hz S RI R 50
0	0.0165027	1.953265e-25	-8.508492e-05	-6.950766e-26	0.0001047504	3.184025e-23	-8.508226e-05	-1.247623e-25
	-8.508491e-05	-7.03631e-26	0.01649821	2.420484e-25	-8.508378e-05	-6.69719e-26	0.0001044699	4.030028e-23
	0.000105833	3.205295e-23	-8.508377e-05	-6.721612e-26	0.01651793	1.953881e-25	-8.508324e-05	5.418495e-26
	-8.508224e-05	-1.265126e-25	0.0001047391	4.04731e-23	-8.508324e-05	5.353518e-26	0.01651242	2.410115e-25
1e+07	0.02406418	0.008826121	-5.453769e-06	-1.605533e-05	0.0006391905	0.002841089	-5.170333e-06	-2.240714e-05
	-5.453769e-06	-1.605533e-05	0.02477953	0.008831406	-2.642598e-06	-4.580932e-06	0.001191073	0.002864864
	0.0006392222	0.002841094	-2.642598e-06	-4.580932e-06	0.02324914	0.009355206	-5.873275e-06	-5.917159e-06
	-5.170333e-06	-2.240714e-05	0.001191076	0.002864862	-5.873275e-06	-5.917158e-06	0.02455679	0.008879072
2e+07	0.03212851	0.0108325	-7.632005e-06	1.52934e-06	0.001990611	0.005408644	-4.030659e-06	-7.588173e-06
	-7.632006e-06	1.52934e-06	0.03267755	0.01059708	-3.492282e-05	-2.927015e-05	0.002371989	0.005691945
	0.001990626	0.005408625	-3.492282e-05	-2.927015e-05	0.03210755	0.01186378	-4.163753e-05	-2.775291e-05
	-4.03066e-06	-7.588173e-06	0.002371986	0.005691944	-4.163753e-05	-2.775291e-05	0.0325466	0.01075366
3e+07	0.03867597	0.008977662	-1.27387e-05	9.108734e-07	0.004032633	0.007337398	-3.563304e-06	-3.682368e-06
	-1.27387e-05	9.108735e-07	0.03906435	0.008679713	-5.996241e-05	-2.211391e-05	0.004293624	0.007712739
	0.004032634	0.007337395	-5.996241e-05	-2.211391e-05	0.03924271	0.009954176	-6.621681e-05	-1.927481e-05
	-3.563304e-06	-3.682367e-06	0.004293623	0.00771274	-6.621681e-05	-1.927481e-05	0.03901148	0.008866785
4e+07	0.04373779	0.004923452	-1.593935e-05	3.567027e-06	0.00653179	0.008487378	-2.95133e-06	-1.577384e-06
	-1.593935e-05	3.567027e-06	0.04397155	0.004634663	-7.661792e-05	-5.1662e-06	0.006737093	0.008907332
	0.006531794	0.008487383	-7.661792e-05	-5.1662e-06	0.04472192	0.005641188	-8.224837e-05	-1.206845e-06
	-2.95133e-06	-1.577385e-06	0.006737093	0.008907333	-8.224837e-05	-1.206845e-06	0.04398538	0.004822001
5e+07	0.04709181	-0.0006171784	-1.736961e-05	7.640097e-06	0.009213671	0.00876902	-2.199751e-06	-3.019753e-07
	-1.736961e-05	7.640096e-06	0.04718582	-0.0008436946	-8.527131e-05	1.673198e-05	0.009544467	0.009041704
	0.009213675	0.008769021	-8.527131e-05	1.673198e-05	0.04832425	-0.0002622317	-9.012655e-05	2.167842e-05
	-2.199751e-06	-3.019754e-07	0.009544468	0.009041705	-9.012655e-05	2.167842e-05	0.04725236	-0.0006751439
6e+07	0.04855591	-0.007029009	-1.712999e-05	1.226731e-05	0.01179193	0.00818026	-1.386676e-06	4.208842e-07
	-1.712999e-05	1.226731e-05	0.04854048	-0.007149936	-8.618477e-05	4.077392e-05	0.01216982	0.008298507
	0.01179193	0.008180259	-8.618477e-05	4.077392e-05	0.04987366	-0.007073162	-9.011159e-05	4.658464e-05
	-1.386676e-06	4.208841e-07	0.01216982	0.008298507	-9.011159e-05	4.658464e-05	0.04864413	-0.007011958
7e+07	0.0480569	-0.01371507	-1.532708e-05	1.689529e-05	0.01400662	0.006785785	-6.01709e-07	7.155283e-07
	-1.532708e-05	1.689529e-05	0.04797315	-0.01370146	-7.958756e-05	6.483236e-05	0.01435716	0.00678799
	0.01400661	0.006785785	-7.958756e-05	6.483236e-05	0.04931218	-0.0141412	-8.247751e-05	7.14071e-05
	-6.017083e-07	7.155279e-07	0.01435716	0.00678799	-8.247751e-05	7.14071e-05	0.04809769	-0.01359979
8e+07	0.04565799	-0.02010064	-1.207357e-05	2.11152e-05	0.01561273	0.004774512	6.380852e-08	6.801447e-07
	-1.207357e-05	2.111519e-05	0.04555233	-0.01993997	-6.581413e-05	8.714061e-05	0.01589567	0.004692029
	0.01561272	0.004774515	-6.581413e-05	8.714061e-05	0.04672673	-0.02084959	-6.750482e-05	9.435195e-05
	6.38092e-08	6.801438e-07	0.01589567	0.004692029	-6.750482e-05	9.435195e-05	0.04568206	-0.01987484
9e+07	0.04156282	-0.02566148	-7.446212e-06	2.460315e-05	0.01645032	0.00237844	5.381145e-07	4.147459e-07
	-7.446212e-06	2.460315e-05	0.04148228	-0.02535805	-4.504627e-05	0.0001061277	0.0166402	0.002247612
	0.01645031	0.002378444	-4.504627e-05	0.0001061277	0.04234906	-0.02664326	-4.53342e-05	0.0001137905
	5.381148e-07	4.14745e-07	0.0166402	0.002247613	-4.53342e-05	0.0001137905	0.04160323	-0.02532491
1e+08	0.03611811	-0.02995913	-1.032288e-06	2.697842e-05	0.01644729	-0.0001353474	7.64182e-07	9.792641e-09
	-1.032288e-06	2.697842e-05	0.03610722	-0.02953318	-1.517117e-05	0.000119895	0.0165185	-0.0002755389
	0.01644729	-0.0001353475	-1.517117e-05	0.000119895	0.03653272	-0.03106136	-1.377885e-05	0.0001277688
	7.64182e-07	9.792635e-09	0.0165185	-0.000275539	-1.377885e-05	0.0001277688	0.03620646	-0.02952351
1.1e+08	0.02969496	-0.03273855	5.325822e-06	2.568171e-05	0.01559773	-0.002510685	7.477983e-07	-1.882294e-07
	5.325822e-06	2.568171e-05	0.02978327	-0.03223584	1.509298e-05	0.0001157539	0.01558331	-0.002564689
	0.01559773	-0.002510686	1.509298e-05	0.0001157539	0.02978412	-0.03372506	1.818061e-05	0.0001231004
	7.477983e-07	-1.882295e-07	0.0155833	-0.002564689	1.818061e-05	0.0001231004	0.0298587	-0.03223054
1.2e+08	0.02276974	-0.03369531	7.522856e-06	2.450399e-05	0.01399487	-0.004454671	5.016004e-07	-1.794711e-07
	7.522856e-06	2.450399e-05	0.02296551	-0.03315616	3.82623e-05	0.0001074556	0.01395999	-0.004425637
	0.01399487	-0.004454672	3.82623e-05	0.0001074556	0.02265466	-0.03452308	3.787357e-05	0.0001156151
	5.016004e-07	-1.794711e-07	0.01395999	-0.004425636	3.787357e-05	0.0001156151	0.02302181	-0.03314865
1.3e+08	0.01591485	-0.03278613	9.928944e-06	2.319304e-05	0.01182926	-0.005754456	3.05204e-07	-4.438988e-08
	9.928944e-06	2.319304e-05	0.01621481	-0.03225313	4.809323e-05	0.0001010487	0.01180947	-0.005660335
	0.01182926	-0.005754456	4.809323e-05	0.0001010487	0.01567427	-0.03343748	4.868109e-05	0.0001091332
	3.05204e-07	-4.438988e-08	0.01180947	-0.005660334	4.868109e-05	0.0001091332	0.01625537	-0.03223799
1.4e+08	0.009663913	-0.03012943	1.235518e-05	2.161983e-05	0.009342221	-0.006268493	1.930369e-07	1.389885e-07
	1.235518e-05	2.161983e-05	0.01005005	-0.0296428	5.803478e-05	9.360404e-05	0.009357091	-0.00613483
	0.009342221	-0.006268493	5.803478e-05	9.360404e-05	0.009363259	-0.03060464	5.959871e-05	0.0001014921
	1.930369e-07	1.389885e-07	0.00935709	-0.006134829	5.959871e-05	0.0001014921	0.01007898	-0.02961589
1.5e+08	0.004484587	-0.02599016	1.470404e-05	1.97522e-05	0.006805331	-0.005940154	1.738719e-07	3.406773e-07
	1.470404e-05	1.97522e-05	0.004925	-0.02558252	6.761682e-05	8.499601e-05	0.006860166	-0.005794721
	0.006805331	-0.005940155	6.761682e-05	8.499601e-05	0.00417806	-0.02630347	7.013696e-05	9.256056e-05
	1.738719e-07	3.406773e-07	0.006860165	-0.00579472	7.013696e-05	9.256056e-05	0.004947081	-0.02554121
1.6e+08	0.0007415898	-0.02075392	1.689326e-05	1.757764e-05	0.004492164	-0.004802767	2.45403e-07	5.291509e-07
	1.689326e-05	1.757764e-05	0.001193438	-0.02044553	7.647942e-05	7.519175e-05	0.004579711	-0.004670817
	0.004492164	-0.004802767	7.647942e-05	7.519175e-05	0.0004719455	-0.02093	7.99112e-05	8.23096e-05
	2.45403e-07	5.291509e-07	0.00457971	-0.004670817	7.99112e-05	8.23096e-05	0.00121373	-0.02038885
1.7e+08	-0.001332395	-0.01489109	1.884601e-05	1.510306e-05	0.002649574	-0.002975129	3.948916e-07	6.760132e-07
	1.884601e-05	1.510306e-05	-0.0009182905	-0.01468632	8.431038e-05	6.423938e-05	0.002752624	-0.002875466
	0.002649574	-0.002975129	8.431038e-05	6.423938e-05	-0.001534325	-0.0149616	8.858806e-05	7.079602e-05
	3.948916e-07	6.760132e-07	0.002752624	-0.002875466	8.858806e-05	7.079602e-05	-0.0008949287	-0.01461498
1.8e+08	-0.001654339	-0.008913973	2.049067e-05	1.235487e-05	0.001471994	-0.0006479906	6.014093e-07	7.596732e-07
	2.049067e-05	1.235487e-05	-0.001327773	-0.008799508	9.083542e-05	5.225905e-05	0.001566864	-0.0005901549
	0.001471994	-0.0006479907	9.083542e-05	5.225905e-05	-0.001769717	-0.008914286	9.587592e-05	5.815249e-05
	6.014093e-07	7.596732e-07	0.001566864	-0.0005901546	9.587592e-05	5.815249e-05	-0.001297172	-0.008715717
1.9e+08	-0.0002950979	-0.003330776	2.176472e-05	9.376451e-06	0.001081588	0.001936916	8.392296e-07	7.675817e-07
	2.176472e-05	9.376451e-06	-0.0001003057	-0.003275868	9.582208e-05	3.943498e-05	0.001142171	0.00195411
	0.001081588	0.001936916	9.582208e-05	3.943498e-05	-0.000316618	-0.003296855	0.0001015292	4.457813e-05
	8.392296e-07	7.675817e-07	0.001142171	0.00195411	0.0001015292	4.457813e-05	-5.941137e-05	-0.003183035
2e+08	0.002530117	0.001399308	2.26168e-05	6.229639e-06	0.001516325	0.004512918	1.081642e-06	6.970157e-07
	2.26168e-05	6.229639e-06	0.002560351	0.001440467	9.908855e-05	2.600422e-05	0.001518265	0.004501377
	0.001516325	0.004512918	9.908855e-05	2.600422e-05	0.002599276	0.001433713	0.0001053569	3.032589e-05
	1.081642e-06	6.970157e-07	0.001518265	0.004501377	0.0001053569	3.032589e-05	0.002613179	0.001538179
2.1e+08	0.006484053	0.004905857	2.301232e-05	2.989329e-06	0.002727056	0.006816616	1.304562e-06	5.540511e-07
	2.301232e-05	2.989329e-06	0.006333292	0.004989803	0.000100512	1.22427e-05	0.002651599	0.006797553
	0.002727056	0.006816616	0.000100512	1.22427e-05	0.006631797	0.004911586	0.0001072308	1.568731e-05
	1.304562e-06	5.540511e-07	0.002651599	0.006797553	0.0001072308	1.568731e-05	0.006398136	0.005087992
2.2e+08	0.01114028	0.006938221	2.293603e-05	-2.646626e-07	0.004583704	0.008615265	1.489203e-06	3.512632e-07
	2.293603e-05	-2.646626e-07	0.01081169	0.007126362	0.0001000338	-1.551445e-06	0.00442077	0.008616576
	0.004583704	0.008615265	0.0001000338	-1.551445e-06	0.01134759	0.006892541	0.0001070892	9.749163e-07
	1.489203e-06	3.512632e-07	0.00442077	0.008616576	0.0001070892	9.749163e-07	0.01088711	0.007220911
2.3e+08	0.01602339	0.007385114	2.23916e-05	-3.451744e-06	0.006889657	0.009730525	1.62348e-06	1.048681e-07
	2.23916e-05	-3.451744e-06	0.01554094	0.007736948	9.766034e-05	-1.507521e-05	0.006639817	0.009783275
	0.006889657	0.009730525	9.766034e-05	-1.507521e-05	0.01626661	0.007272957	0.0001049369	-1.349533e-05
	1.62348e-06	1.048681e-07	0.006639817	0.009783275	0.0001049369	-1.349533e-05	0.01562414	0.007824511
2.4e+08	0.02065274	0.006281246	2.140019e-05	-6.495756e-06	0.009402705	0.01005627	1.702072e-06	-1.68252e-07
	2.140019e-05	-6.495756e-06	0.02006003	0.006847384	9.345913e-05	-2.803651e-05	0.009077822	0.01019073
	0.009402705	0.01005627	9.345913e-05	-2.803651e-05	0.02090598	0.0060958	0.0001008406	-2.741952e-05
	1.702072e-06	-1.68252e-07	0.009077822	0.01019073	0.0001008406	-2.741952e-05	0.02014724	0.006925783
2.5e+08	0.02458571	0.003800748	1.999741e-05	-9.329243e-06	0.01186028	0.009568857	1.725302e-06	-4.530625e-07
	1.999741e-05	-9.329243e-06	0.02394256	0.004616537	8.755061e-05	-4.016809e-05	0.01148276	0.009810519
	0.01186028	0.009568857	8.755061e-05	-4.016809e-05	0.02482329	0.003543406	9.491942e-05	-4.051907e-05
	1.725302e-06	-4.530625e-07	0.01148276	0.009810519	9.491942e-05	-4.051907e-05	0.02402946	0.004685014
2.6e+08	0.02745665	0.0002382213	1.822936e-05	-1.189608e-05	0.01400642	0.008328998	1.697237e-06	-7.379794e-07
	1.822936e-05	-1.189608e-05	0.0268336	0.001318697	8.009737e-05	-5.123687e-05	0.01360717	0.008695067
	0.01400642	0.008328998	8.009737e-05	-5.123687e-05	0.02765529	-8.207452e-05	8.733466e-05	-5.254909e-05
	1.697237e-06	-7.379794e-07	0.01360717	0.008695067	8.733466e-05	-5.254909e-05	0.02691585	0.001378018
2.7e+08	0.02900815	-0.004020559	1.614848e-05	-1.415245e-05	0.0156179	0.00647518	1.623485e-06	-1.015417e-06
	1.614848e-05	-1.415245e-05	0.02847952	-0.002683773	7.129195e-05	-6.104908e-05	0.01523312	0.00697191
	0.0156179	0.00647518	7.129195e-05	-6.104908e-05	0.02914892	-0.004388525	7.827777e-05	-6.330298e-05
	1.623485e-06	-1.015417e-06	0.01523312	0.00697191	7.827777e-05	-6.330298e-05	0.02855322	-0.002631394
2.8e+08	0.02911206	-0.008535577	1.380979e-05	-1.606639e-05	0.01652692	0.004209368	1.509176e-06	-1.2813e-06
	1.380979e-05	-1.606639e-05	0.02874806	-0.00697497	6.134593e-05	-6.94513e-05	0.01619419	0.004830588
	0.01652692	0.004209368	6.134593e-05	-6.94513e-05	0.02918188	-0.008931226	6.796016e-05	-7.261295e-05
	1.509176e-06	-1.2813e-06	0.01619419	0.004830588	6.796016e-05	-7.261295e-05	0.02881027	-0.006926091
2.9e+08	0.02777853	-0.01285375	1.126805e-05	-1.761607e-05	0.01663825	0.001776366	1.357536e-06	-1.533796e-06
	1.126805e-05	-1.761607e-05	0.02763751	-0.01112403	5.04802e-05	-7.632819e-05	0.01639226	0.002503385
	0.01663825	0.001776366	5.04802e-05	-7.632819e-05	0.02777113	-0.01325435	5.660435e-05	-8.034783e-05
	1.357536e-06	-1.533796e-06	0.01639226	0.002503385	5.660435e-05	-8.034783e-05	0.02768655	-0.01107437
3e+08	0.02515253	-0.0165507	8.576074e-06	-1.878768e-05	0.01593912	-0.0005611849	1.169294e-06	-1.771627e-06
	8.576074e-06	-1.878768e-05	0.02527392	-0.01472437	3.891827e-05	-8.159818e-05	0.01580752	0.0002417769
	0.01593912	-0.0005611849	3.891827e-05	-8.159818e-05	0.02506887	-0.01693287	4.443804e-05	-8.640909e-05
	1.169294e-06	-1.771627e-06	0.01580752	0.0002417769	4.443804e-05	-8.640909e-05	0.02530965	-0.01466926
3.1e+08	0.02149818	-0.01926933	5.784338e-06	-1.957321e-05	0.01450086	-0.002549748	9.429885e-07	-1.992371e-06
	5.784338e-06	-1.957321e-05	0.02189714	-0.01743012	2.68828e-05	-8.520899e-05	0.01450068	-0.001709169
	0.01450086	-0.002549748	2.68828e-05	-8.520899e-05	0.02134621	-0.01961119	3.169125e-05	-9.072705e-05
	9.429885e-07	-1.992371e-06	0.01450068	-0.001709169	3.169125e-05	-9.072705e-05	0.02192097	-0.01736504
3.2e+08	0.01717232	-0.02075202	2.941466e-06	-1.996879e-05	0.01247193	-0.003971122	6.760556e-07	-2.191176e-06
	2.941466e-06	-1.996879e-05	0.01783665	-0.01898667	1.459394e-05	-8.713335e-05	0.01260704	-0.003135913
	0.01247193	-0.003971122	1.459394e-05	-8.713335e-05	0.01696618	-0.02103513	1.859512e-05	-9.325745e-05
	6.760556e-07	-2.191176e-06	0.01260704	-0.003135913	1.859512e-05	-9.325745e-05	0.01785146	-0.01890774
3.3e+08	0.0125898	-0.02086318	9.534036e-08	-1.997382e-05	0.01006289	-0.004665268	3.664163e-07	-2.360157e-06
	9.534036e-08	-1.997382e-05	0.01347966	-0.0192525	2.269745e-06	-8.736647e-05	0.01032286	-0.003878548
	0.01006289	-0.004665268	2.269745e-06	-8.736647e-05	0.01234853	-0.02107421	5.382306e-06	-9.397996e-05
	3.664163e-07	-2.360157e-06	0.01032286	-0.003878548	5.382306e-06	-9.397996e-05	0.01348948	-0.01915697
3.4e+08	0.008183633	-0.01960041	-2.705692e-06	-1.959116e-05	0.007524893	-0.004547307	1.420277e-08	-2.488641e-06
	-2.705692e-06	-1.959116e-05	0.009234134	-0.01821043	-9.872952e-06	-8.59257e-05	0.007885319	-0.00384755
	0.007524893	-0.004547307	-9.872952e-06	-8.59257e-05	0.007929419	-0.01973231	-7.712309e-06	-9.289897e-05
	1.420277e-08	-2.488641e-06	0.007885319	-0.00384755	-7.712309e-06	-9.289897e-05	0.009243761	-0.01809699
3.5e+08	0.0043637	-0.01709294	-5.412027e-06	-1.882804e-05	0.005123577	-0.003616786	-3.767928e-07	-2.564215e-06
	-5.412027e-06	-1.882804e-05	0.005490355	-0.01596723	-2.161824e-05	-8.285135e-05	0.005548104	-0.003033333
	0.005123577	-0.003616786	-2.161824e-05	-8.285135e-05	0.004119863	-0.01714561	-2.045205e-05	-9.00454e-05
	-3.767928e-07	-2.564215e-06	0.005548104	-0.003033333	-2.045205e-05	-9.00454e-05	0.005504816	-0.01583622
3.6e+08	0.001477978	-0.01358768	-7.972653e-06	-1.769754e-05	0.00311135	-0.001958113	-7.982522e-07	-2.574369e-06
	-7.972653e-06	-1.769754e-05	0.002584487	-0.0127416	-3.275199e-05	-7.820931e-05	0.003555036	-0.001507492
	0.00311135	-0.001958113	-3.275199e-05	-7.820931e-05	0.001266864	-0.01356799	-3.260038e-05	-8.548007e-05
	-7.982522e-07	-2.574369e-06	0.003555036	-0.001507492	-3.260038e-05	-8.548007e-05	0.002608497	-0.01259499
3.7e+08	-0.0002199888	-0.009424047	-1.033615e-05	-1.622028e-05	0.001700861	0.0002679954	-1.237319e-06	-2.508423e-06
	-1.033615e-05	-1.622028e-05	0.0007676799	-0.008841682	-4.306456e-05	-7.209374e-05	0.002114681	0.0005844921
	0.001700861	0.0002679954	-4.306456e-05	-7.209374e-05	-0.0003790426	-0.009345251	-4.392489e-05	-7.929676e-05
	-1.237319e-06	-2.508423e-06	0.002114681	0.0005844921	-4.392489e-05	-7.929676e-05	0.0008051047	-0.008682929
3.8e+08	-0.0005942284	-0.005000126	-1.245222e-05	-1.44256e-05	0.001042613	0.002841185	-1.677364e-06	-2.359288e-06
	-1.245222e-05	-1.44256e-05	0.0001836367	-0.004634459	-5.235531e-05	-6.462958e-05	0.001378603	0.003038336
	0.001042613	0.002841185	-5.235531e-05	-6.462958e-05	-0.0006866748	-0.004880677	-5.420329e-05	-7.162441e-05
	-1.677364e-06	-2.359288e-06	0.001378603	0.003038336	-5.420329e-05	-7.162441e-05	0.0002370415	-0.004468144
3.9e+08	0.0003621665	-0.0007335686	-1.427407e-05	-1.235227e-05	0.001209157	0.00550445	-2.099475e-06	-2.124769e-06
	-1.427407e-05	-1.235227e-05	0.0008567469	-0.0005098394	-6.043889e-05	-5.597364e-05	0.001425636	0.005612219
	0.001209157	0.00550445	-6.043889e-05	-5.597364e-05	0.0003447247	-0.000595472	-6.323076e-05	-6.262748e-05
	-2.099475e-06	-2.124769e-06	0.001425636	0.005612219	-6.323076e-05	-6.262748e-05	0.0009270817	-0.0003411972
4e+08	0.002528169	0.002978943	-1.576111e-05	-1.004805e-05	0.002187528	0.007990942	-2.484331e-06	-1.808136e-06
	-1.576111e-05	-1.004805e-05	0.002691821	0.003156804	-6.71525e-05	-4.631362e-05	0.002253828	0.008051908
	0.002187528	0.007990942	-6.71525e-05	-4.631362e-05	0.002587172	0.003112122	-7.082792e-05	-5.250373e-05
	-2.484331e-06	-1.808136e-06	0.002253828	0.008051908	-7.082792e-05	-5.250373e-05	0.002778276	0.003322451
4.1e+08	0.005668332	0.005799592	-1.688147e-05	-7.568377e-06	0.003880671	0.01005169	-2.814114e-06	-1.417889e-06
	-1.688147e-05	-7.568377e-06	0.005485261	0.006040084	-7.236341e-05	-3.586472e-05	0.003780845	0.01011704
	0.003880671	0.01005169	-7.236341e-05	-3.586472e-05	0.00579808	0.005904893	-7.684834e-05	-4.147962e-05
	-2.814114e-06	-1.417889e-06	0.003780845	0.01011704	-7.684834e-05	-4.147962e-05	0.005585313	0.006197901
4.2e+08	0.009457117	0.007481062	-1.761399e-05	-4.974108e-06	0.006117596	0.01148128	-3.074116e-06	-9.668029e-07
	-1.761399e-05	-4.974108e-06	0.008946355	0.007894589	-7.597549e-05	-2.486362e-05	0.005852682	0.01160576
	0.006117596	0.01148128	-7.597549e-05	-2.486362e-05	0.009645253	0.007538245	-8.118456e-05	-2.980331e-05
	-3.074116e-06	-9.668029e-07	0.005852682	0.01160576	-8.118456e-05	-2.980331e-05	0.009056001	0.008040772
4.3e+08	0.0135115	0.007888935	-1.794927e-05	-2.328651e-06	0.008671068	0.01213893	-3.253761e-06	-4.704848e-07
	-1.794927e-05	-2.328651e-06	0.01272642	0.008576692	-7.793389e-05	-1.356049e-05	0.008259639	0.01237526
	0.008671068	0.01213893	-7.793389e-05	-1.356049e-05	0.0137401	0.007882376	-8.377188e-05	-1.773616e-05
	-3.253761e-06	-4.704848e-07	0.008259639	0.01237526	-8.377188e-05	-1.773616e-05	0.01284058	0.008708907
4.4e+08	0.0174285	0.007012899	-1.788978e-05	3.050083e-07	0.01128091	0.01196277	-3.346947e-06	5.424906e-08
	-1.788978e-05	3.050083e-07	0.01645283	0.008056295	-7.822714e-05	-2.209733e-06	0.01075782	0.0123561
	0.01128091	0.01196277	-7.822714e-05	-2.209733e-06	0.01767569	0.006933085	-8.45896e-05	-5.543578e-06
	-3.346947e-06	5.424906e-08	0.01075782	0.0123561	-8.45896e-05	-5.543578e-06	0.01656586	0.008173962
4.5e+08	0.02082398	0.004965981	-1.744894e-05	2.867059e-06	0.0136805	0.01097611	-3.351727e-06	5.908596e-07
	-1.744894e-05	2.867059e-06	0.01976458	0.006417661	-7.688655e-05	8.939337e-06	0.0130939	0.01155909
	0.0136805	0.01097611	-7.688655e-05	8.939337e-06	0.02106595	0.004810446	-8.365977e-05	6.513695e-06
	-3.351727e-06	5.908596e-07	0.0130939	0.01155909	-8.365977e-05	6.513695e-06	0.0198709	0.006522064
4.6e+08	0.02336902	0.001972086	-1.66495e-05	5.303012e-06	0.01562377	0.009285129	-3.269489e-06	1.124188e-06
	-1.66495e-05	5.303012e-06	0.02234612	0.003849542	-7.398279e-05	1.965067e-05	0.0150307	0.0100741
	0.01562377	0.009285129	-7.398279e-05	1.965067e-05	0.02358222	0.001745708	-8.104381e-05	1.818723e-05
	-3.269489e-06	1.124188e-06	0.0150307	0.0100741	-8.104381e-05	1.818723e-05	0.02244077	0.003943739
4.7e+08	0.02482063	-0.00165671	-1.552142e-05	7.565042e-06	0.01691016	0.007068308	-3.103792e-06	1.640976e-06
	-1.552142e-05	7.565042e-06	0.0239563	0.0006257634	-6.962081e-05	2.970748e-05	0.01637106	0.008061027
	0.01691016	0.007068308	-6.962081e-05	2.970748e-05	0.02498394	-0.001942099	-7.683709e-05	2.924639e-05
