!$
! Info: Touchstone file created by Circ.  Input file=Tx_12in_Rx_100ohms_TxVia_60mils_RxVia_70mils.circ
!$
# Hz S RI R 50
0	0.01246746	1.569438e-25	-6.440636e-05	7.347458e-24	8.477524e-05	2.442956e-23	-6.436929e-05	2.870251e-24
	-6.440636e-05	7.347414e-24	0.01246318	1.906396e-25	-6.44415e-05	1.182485e-23	8.391069e-05	3.040506e-23
	8.390758e-05	2.43203e-23	-6.44415e-05	1.182546e-23	0.01248111	1.586672e-25	-6.440376e-05	7.261405e-24
	-6.436929e-05	2.86953e-24	8.418012e-05	3.053544e-23	-6.440375e-05	7.260115e-24	0.01247751	1.898111e-25
1e+07	0.01833038	0.007513368	-0.0002258267	2.866408e-05	0.0008332222	0.002269955	-8.66119e-05	-3.64693e-06
	-0.0002258267	2.866408e-05	0.01850707	0.007493816	-1.227932e-05	0.0001473068	0.0008289209	0.002268015
	0.0008332063	0.002269969	-1.227932e-05	0.0001473068	0.01853064	0.00749762	-0.0002258215	2.864976e-05
	-8.66119e-05	-3.64693e-06	0.0008289238	0.002268013	-0.0002258215	2.864976e-05	0.01834023	0.007524074
2e+07	0.02415415	0.01021937	-0.0001867265	-5.668212e-05	0.001514024	0.00459594	-6.929213e-05	-9.556874e-06
	-0.0001867265	-5.668212e-05	0.0242521	0.01012754	-4.813165e-05	0.00024994	0.001497801	0.004595376
	0.001514031	0.004595948	-4.813165e-05	0.00024994	0.02430293	0.01012791	-0.0001867315	-5.670035e-05
	-6.929213e-05	-9.556874e-06	0.001497798	0.004595377	-0.0001867315	-5.670035e-05	0.02414678	0.01024117
3e+07	0.02918009	0.0104106	-0.0001620189	-8.138396e-05	0.002700364	0.006465698	-6.004684e-05	-1.857686e-05
	-0.0001620189	-8.138396e-05	0.02919589	0.01030992	-0.0001099278	0.0003094635	0.002666036	0.006472298
	0.002700365	0.006465698	-0.0001099278	0.0003094635	0.02928811	0.01029346	-0.000162037	-8.143224e-05
	-6.004684e-05	-1.857686e-05	0.002666036	0.0064723	-0.000162037	-8.143224e-05	0.02914342	0.0104522
4e+07	0.03359188	0.00914721	-0.0001455523	-9.340888e-05	0.004312991	0.00790473	-5.331276e-05	-2.279016e-05
	-0.0001455523	-9.340888e-05	0.03352255	0.009069376	-0.0001519314	0.0003603122	0.004256636	0.007926236
	0.00431299	0.007904731	-0.0001519314	0.0003603122	0.03366519	0.009018324	-0.0001455933	-9.350145e-05
	-5.331276e-05	-2.279016e-05	0.004256637	0.007926237	-0.0001455933	-9.350145e-05	0.03351728	0.009220591
5e+07	0.03732417	0.006767218	-0.0001335061	-9.965642e-05	0.006360664	0.008751072	-4.80078e-05	-2.51489e-05
	-0.0001335061	-9.965642e-05	0.03717219	0.006740855	-0.0001798777	0.0004085475	0.0062811	0.008796152
	0.006360662	0.008751072	-0.0001798777	0.0004085475	0.03736759	0.006634098	-0.0001335889	-9.980348e-05
	-4.80078e-05	-2.51489e-05	0.006281101	0.008796152	-0.0001335889	-9.980348e-05	0.03720745	0.006888108
6e+07	0.04027269	0.003514459	-0.0001237102	-0.0001026214	0.008500393	0.009069111	-4.362264e-05	-2.66717e-05
	-0.0001237102	-0.0001026214	0.04004744	0.003565741	-0.0001970937	0.0004553493	0.00839947	0.009146824
	0.008500391	0.00906911	-0.0001970937	0.0004553493	0.04029022	0.003381786	-0.0001238604	-0.0001028254
	-4.362264e-05	-2.66717e-05	0.008399471	0.009146824	-0.0001238604	-0.0001028254	0.04011573	0.003699792
7e+07	0.04233748	-0.0003885753	-0.0001349921	-7.963763e-05	0.01060627	0.00885798	-3.922799e-05	-2.773541e-05
	-0.0001349921	-7.963763e-05	0.04205485	-0.00023727	-0.000205823	0.000500483	0.01048878	0.008976713
	0.01060626	0.008857979	-0.000205823	0.000500483	0.04233248	-0.0005176658	-0.0001352262	-7.987253e-05
	-3.922798e-05	-2.773541e-05	0.01048878	0.008976713	-0.0001352262	-7.987253e-05	0.04214779	-0.0001229618
8e+07	0.04344396	-0.004718869	-0.0001506103	-3.445065e-05	0.01255413	0.008145129	-4.19579e-05	-1.769606e-05
	-0.0001506103	-3.445065e-05	0.04312536	-0.004450189	-0.0002094799	0.000542848	0.01242753	0.008311749
	0.01255413	0.008145128	-0.0002094799	0.000542848	0.04341933	-0.00484212	-0.000150929	-3.469733e-05
	-4.19579e-05	-1.769606e-05	0.01242753	0.008311748	-0.000150929	-3.469733e-05	0.04323387	-0.004359628
9e+07	0.04355481	-0.009249812	-0.0001513885	1.351077e-05	0.01422837	0.006985761	-4.302982e-05	-3.676146e-06
	-0.0001513885	1.351077e-05	0.04322615	-0.008852482	-0.0002141055	0.0005813062	0.01410227	0.007204875
	0.01422837	0.006985761	-0.0002141055	0.0005813062	0.0435133	-0.009365389	-0.0001518064	1.327448e-05
	-4.302982e-05	-3.676146e-06	0.01410227	0.007204874	-0.0001518064	1.327448e-05	0.04334068	-0.008787215
1e+08	0.04268961	-0.01375165	-0.000131478	6.295759e-05	0.01552188	0.005458192	-3.789963e-05	1.062511e-05
	-0.000131478	6.295759e-05	0.04238157	-0.01322098	-0.0002406212	0.0006110754	0.01540737	0.005731571
	0.01552188	0.005458192	-0.0002406212	0.0006110754	0.04263572	-0.01385743	-0.000132004	6.27554e-05
	-3.789963e-05	1.062511e-05	0.01540737	0.005731571	-0.000132004	6.27554e-05	0.04249088	-0.0131807
1.1e+08	0.04087125	-0.01809887	-9.728387e-05	8.381829e-05	0.01636776	0.003709576	-2.884774e-05	1.580418e-05
	-9.728387e-05	8.381829e-05	0.04061377	-0.01744866	-0.000242377	0.000580374	0.01627667	0.004035676
	0.01636776	0.003709576	-0.000242377	0.000580374	0.04080681	-0.01820305	-9.793794e-05	8.367676e-05
	-2.884774e-05	1.580418e-05	0.01627667	0.004035677	-9.793794e-05	8.367676e-05	0.04071017	-0.01742078
1.2e+08	0.03811545	-0.02200682	-7.050227e-05	9.544315e-05	0.01675226	0.001817329	-2.256067e-05	1.877344e-05
	-7.050227e-05	9.544315e-05	0.03792885	-0.02124879	-0.0002217742	0.0005619375	0.01669598	0.002191108
	0.01675226	0.001817329	-0.0002217742	0.0005619375	0.0380346	-0.02210774	-7.126788e-05	9.541572e-05
	-2.256067e-05	1.877344e-05	0.01669598	0.002191108	-7.126788e-05	9.541572e-05	0.03801363	-0.02122875
1.3e+08	0.03457409	-0.02527886	-4.613098e-05	0.0001013463	0.01664319	-0.0001035156	-1.71914e-05	2.060213e-05
	-4.613098e-05	0.0001013463	0.03447873	-0.02443022	-0.0001979957	0.0005466336	0.0166318	0.0003096301
	0.01664319	-0.0001035157	-0.0001979957	0.0005466336	0.03447441	-0.02537259	-4.697585e-05	0.0001014745
	-1.71914e-05	2.060213e-05	0.0166318	0.0003096312	-4.697585e-05	0.0001014745	0.03455143	-0.02441444
1.4e+08	0.03041679	-0.02776144	-2.383688e-05	0.000102573	0.01604653	-0.001931512	-1.242972e-05	2.159911e-05
	-2.383688e-05	0.000102573	0.03042919	-0.02684514	-0.0001752514	0.0005330529	0.01608787	-0.001490225
	0.01604653	-0.001931512	-0.0001752514	0.0005330529	0.03029769	-0.02784308	-2.471573e-05	0.0001028854
	-1.242972e-05	2.159911e-05	0.01608787	-0.001490224	-2.471573e-05	0.0001028854	0.03048963	-0.02683017
1.5e+08	0.02583766	-0.02934296	-3.827442e-06	9.991401e-05	0.01499917	-0.003550093	-8.141736e-06	2.195074e-05
	-3.827442e-06	9.991401e-05	0.02596852	-0.02838673	-0.0001553164	0.0005215239	0.01509808	-0.003094181
	0.01499917	-0.003550093	-0.0001553164	0.0005215239	0.02570024	-0.02940725	-4.686455e-06	0.0001004229
	-8.141736e-06	2.195074e-05	0.01509808	-0.00309418	-4.686455e-06	0.0001004229	0.02601708	-0.02836922
1.6e+08	0.02104765	-0.02995761	1.35968e-05	9.414017e-05	0.01356599	-0.004855205	-4.259507e-06	2.178075e-05
	1.35968e-05	9.414017e-05	0.0213004	-0.02899229	-0.0001386797	0.0005130765	0.01372361	-0.004399637
	0.01356599	-0.004855205	-0.0001386797	0.0005130765	0.02089469	-0.02999942	1.281374e-05	9.483895e-05
	-4.259507e-06	2.178075e-05	0.01372361	-0.004399636	1.281374e-05	9.483895e-05	0.02133811	-0.02896916
1.7e+08	0.01626492	-0.02958768	2.820892e-05	8.604798e-05	0.01183564	-0.005761859	-7.443465e-07	2.117845e-05
	2.820892e-05	8.604798e-05	0.01663482	-0.02864528	-0.0001248857	0.0005089309	0.01204906	-0.005322046
	0.01183564	-0.005761859	-0.0001248857	0.0005089309	0.01610078	-0.02960247	2.755333e-05	8.691133e-05
	-7.443465e-07	2.117845e-05	0.01204906	-0.005322046	2.755333e-05	8.691133e-05	0.01666332	-0.02861383
1.8e+08	0.01170455	-0.02826387	3.993173e-05	7.643881e-05	0.009915026	-0.006209422	2.427042e-06	2.021205e-05
	3.993173e-05	7.643881e-05	0.01217831	-0.02737535	-0.0001127314	0.0005101468	0.01017718	-0.005800118
	0.009915026	-0.006209422	-0.0001127314	0.0005101468	0.01153498	-0.02824814	3.944395e-05	7.742527e-05
	2.427042e-06	2.021205e-05	0.01017718	-0.005800118	3.944395e-05	7.742527e-05	0.01219982	-0.02733339
1.9e+08	0.007568148	-0.02606333	4.88667e-05	6.607015e-05	0.007922751	-0.006165389	5.268767e-06	1.893601e-05
	4.88667e-05	6.607015e-05	0.008124237	-0.02525629	-0.0001004653	0.0005173667	0.008222562	-0.005799562
	0.007922751	-0.006165389	-0.0001004653	0.0005173667	0.007399959	-0.02601498	4.857051e-05	6.712709e-05
	5.268767e-06	1.893601e-05	0.008222563	-0.005799562	4.857051e-05	6.712709e-05	0.008141346	-0.0252023
2e+08	0.004034058	-0.02310543	5.52872e-05	5.559954e-05	0.005981755	-0.005627398	7.788879e-06	1.739553e-05
	5.52872e-05	5.559954e-05	0.004643548	-0.02240194	-8.601197e-05	0.0005306411	0.006304639	-0.005315159
	0.005981755	-0.005627398	-8.601197e-05	0.0005306411	0.003874763	-0.02302408	5.518666e-05	5.666987e-05
	7.788879e-06	1.739553e-05	0.006304639	-0.005315159	5.518666e-05	5.666987e-05	0.004659134	-0.02233512
2.1e+08	0.001248666	-0.01954549	5.960455e-05	4.55342e-05	0.004211763	-0.004623359	9.991026e-06	1.562971e-05
	5.960455e-05	4.55342e-05	0.001876739	-0.01896011	-6.721887e-05	0.0005493397	0.004540389	-0.004371034
	0.004211763	-0.004623359	-6.721887e-05	0.0005493397	0.001106019	-0.01943263	5.968337e-05	4.656398e-05
	9.991026e-06	1.562971e-05	0.004540389	-0.004371034	5.968337e-05	4.656398e-05	0.001893728	-0.01888041
2.2e+08	-0.000680676	-0.0155666	6.231337e-05	3.619658e-05	0.002721912	-0.003209714	1.187548e-05	1.367378e-05
	6.231337e-05	3.619658e-05	-7.275848e-05	-0.01510487	-4.21056e-05	0.0005721481	0.003037212	-0.003019125
	0.002721912	-0.003209714	-4.21056e-05	0.0005721481	-0.0007991755	-0.01542567	6.253736e-05	3.714248e-05
	1.187548e-05	1.367378e-05	0.003037212	-0.003019125	6.253736e-05	3.714248e-05	-5.156253e-05	-0.01501301
2.3e+08	-0.001690741	-0.01137013	6.392627e-05	2.771181e-05	0.001604066	-0.001467915	1.343987e-05	1.156102e-05
	6.392627e-05	2.771181e-05	-0.001143265	-0.01102755	-9.095115e-06	0.0005971468	0.001886421	-0.001335936
	0.001604066	-0.001467915	-9.095115e-06	0.0005971468	-0.001778348	-0.01120647	6.424833e-05	2.854734e-05
	1.343987e-05	1.156102e-05	0.001886421	-0.001335936	6.424833e-05	2.854734e-05	-0.001115365	-0.01092494
2.4e+08	-0.00176524	-0.007165274	6.490744e-05	2.00184e-05	0.0009272247	0.0005006276	1.467996e-05	9.32453e-06
	6.490744e-05	2.00184e-05	-0.001317431	-0.006926921	3.28009e-05	0.000621968	0.001157758	0.0005821982
	0.0009272247	0.0005006275	3.28009e-05	0.000621968	-0.001816458	-0.00698594	6.527479e-05	2.073785e-05
	1.467996e-05	9.32453e-06	0.001157758	0.0005821982	6.52748e-05	2.073785e-05	-0.001280804	-0.00681559
2.5e+08	-0.000935171	-0.003158234	6.561336e-05	1.290352e-05	0.0007333714	0.002580807	1.559068e-05	6.998642e-06
	6.561336e-05	1.290352e-05	-0.000622502	-0.002999121	8.3857e-05	0.0006439945	0.0008952616	0.002625033
	0.0007333714	0.002580807	8.3857e-05	0.0006439945	-0.0009461841	-0.002971678	6.597591e-05	1.352309e-05
	1.559068e-05	6.998642e-06	0.0008952616	0.002625033	6.597591e-05	1.352309e-05	-0.0005757338	-0.00288153
2.6e+08	0.0007232872	0.0004583161	6.625033e-05	6.055432e-06	0.001035008	0.004650881	1.616748e-05	4.620084e-06
	6.625033e-05	6.055432e-06	0.0008716692	0.0005722698	0.0001435866	0.0006605962	0.001114732	0.004675137
	0.001035008	0.004650881	0.0001435866	0.0006605962	0.0007542586	0.0006426724	6.656906e-05	6.611096e-06
	1.616748e-05	4.620084e-06	0.001114732	0.004675137	6.656906e-05	6.611096e-06	0.0009292928	0.0006933705
2.7e+08	0.003093237	0.003515037	6.685332e-05	-8.717006e-07	0.001814504	0.006589893	1.640803e-05	2.228562e-06
	6.685332e-05	-8.717006e-07	0.003056806	0.003625338	0.0002107703	0.0006693626	0.001802923	0.006614999
	0.001814504	0.006589893	0.0002107703	0.0006693626	0.003165694	0.003687307	6.710754e-05	-3.294229e-07
	1.640803e-05	2.228562e-06	0.001802923	0.006614998	6.710754e-05	-3.294229e-07	0.003125247	0.003747099
2.8e+08	0.006023609	0.005874387	6.728951e-05	-8.191335e-06	0.00302528	0.008284981	1.631415e-05	-1.331892e-07
	6.728951e-05	-8.191335e-06	0.005792303	0.006027733	0.0002835659	0.0006683158	0.002918491	0.008334064
	0.00302528	0.008284981	0.0002835659	0.0006683158	0.006134657	0.006024784	6.748181e-05	-7.605106e-06
	1.631415e-05	-1.331892e-07	0.002918491	0.008334064	6.748181e-05	-7.605106e-06	0.005870775	0.006147404
2.9e+08	0.009337427	0.007437332	6.728509e-05	-1.612333e-05	0.00459472	0.009638143	1.589354e-05	-2.420316e-06
	6.728509e-05	-1.612333e-05	0.008912911	0.007682933	0.0003596714	0.0006560708	0.004394608	0.009735304
	0.00459472	0.009638143	0.0003596714	0.0006560708	0.009481811	0.007556762	6.744325e-05	-1.54383e-05
	1.589354e-05	-2.420316e-06	0.004394608	0.009735304	6.744325e-05	-1.54383e-05	0.008999922	0.007798051
3e+08	0.01284135	0.008147963	6.647217e-05	-2.474689e-05	0.006428618	0.01057206	1.516122e-05	-4.587375e-06
	6.647217e-05	-2.474689e-05	0.01223757	0.008534573	0.0004365312	0.0006319349	0.006143064	0.01074091
	0.006428618	0.01057206	0.0004365312	0.0006319349	0.01301162	0.008228604	6.66475e-05	-2.392036e-05
	1.516122e-05	-4.587375e-06	0.006143064	0.01074091	6.66475e-05	-2.392036e-05	0.01233103	0.008643134
3.1e+08	0.01633592	0.007995814	6.444905e-05	-3.39744e-05	0.008416865	0.01103467	1.41404e-05	-6.590329e-06
	6.444905e-05	-3.39744e-05	0.01557894	0.008568647	0.0005115659	0.0005959328	0.008059581	0.01129683
	0.008416865	0.01103467	0.0005115659	0.0005959328	0.01652277	0.008031647	6.471118e-05	-3.29845e-05
	1.41404e-05	-6.590329e-06	0.008059581	0.01129683	6.471118e-05	-3.29845e-05	0.01567626	0.008669248
3.2e+08	0.01962605	0.007015767	6.084598e-05	-4.354761e-05	0.01044003	0.01100216	1.286231e-05	-8.388934e-06
	6.084598e-05	-4.354761e-05	0.01875304	0.007813496	0.0005823826	0.0005487577	0.01003003	0.01137584
	0.01044003	0.01100216	0.0005823826	0.0005487577	0.01981874	0.007003029	6.127465e-05	-4.239983e-05
	1.286231e-05	-8.388934e-06	0.01003003	0.01137584	6.127465e-05	-4.239983e-05	0.01885136	0.007905441
3.3e+08	0.0225311	0.005285622	5.538798e-05	-5.305812e-05	0.01237647	0.0104804	1.136546e-05	-9.94893e-06
	5.538798e-05	-5.305812e-05	0.0215887	0.006337646	0.0006469593	0.0004916589	0.01193718	0.01097908
	0.01237647	0.0104804	0.0006469593	0.0004916589	0.02271803	0.005223136	5.606274e-05	-5.178857e-05
	1.136546e-05	-9.94893e-06	0.01193718	0.01097908	5.606274e-05	-5.178857e-05	0.02168502	0.006420999
3.4e+08	0.02489413	0.002921453	4.79463e-05	-6.19894e-05	0.0141095	0.009504536	9.69405e-06	-1.124384e-05
	4.79463e-05	-6.19894e-05	0.02393602	0.00424562	0.000703782	0.0004262756	0.01366757	0.01013593
	0.0141095	0.009504536	0.000703782	0.0004262756	0.02506345	0.002810831	4.893528e-05	-6.066418e-05
	9.69405e-06	-1.124384e-05	0.01366757	0.01013593	4.893528e-05	-6.066418e-05	0.02402742	0.004321224
3.5e+08	0.02658977	7.103673e-05	3.857222e-05	-6.977384e-05	0.0155343	0.008136953	7.895873e-06	-1.225625e-05
	3.857222e-05	-6.977384e-05	0.02567381	0.001671973	0.0007519074	0.0003544449	0.01511814	0.008902262
	0.0155343	0.008136953	0.0007519074	0.0003544449	0.0267301	-8.32748e-05	3.99216e-05	-6.848452e-05
	7.895873e-06	-1.225625e-05	0.01511814	0.008902262	3.99216e-05	-6.848452e-05	0.02575765	0.001741407
3.6e+08	0.02753044	-0.003094279	2.750853e-05	-7.58593e-05	0.0165641	0.00646366	6.02008e-06	-1.297825e-05
	2.750853e-05	-7.58593e-05	0.02671535	-0.001226105	0.0007909657	0.0002780004	0.01620231	0.00735716
	0.0165641	0.00646366	0.0007909657	0.0002780004	0.02763149	-0.003285133	2.923388e-05	-7.471467e-05
	6.02008e-06	-1.297825e-05	0.01620231	0.00735716	2.923388e-05	-7.471467e-05	0.02678943	-0.001160608
3.7e+08	0.02767047	-0.006388868	1.517723e-05	-7.977566e-05	0.01713537	0.004589285	4.114875e-06	-1.341133e-05
	1.517723e-05	-7.977566e-05	0.02701234	-0.00427725	0.0008210911	0.0001985916	0.01685501	0.005598345
	0.01713537	0.004589285	0.0008210911	0.0001985916	0.02772373	-0.006606692	1.725812e-05	-7.88907e-05
	4.114875e-06	-1.341133e-05	0.01685501	0.005598345	1.725812e-05	-7.88907e-05	0.0270751	-0.004212937
3.8e+08	0.02700808	-0.00962277	2.144334e-06	-8.119382e-05	0.01721166	0.002630983	2.225503e-06	-1.356562e-05
	2.144334e-06	-8.119382e-05	0.02655689	-0.007305019	0.0008427987	0.0001175391	0.01703658	0.003736488
	0.01721166	0.002630983	0.0008427987	0.0001175391	0.0270074	-0.009856017	4.522985e-06	-8.067721e-05
	2.225503e-06	-1.356562e-05	0.01703658	0.003736488	4.522985e-06	-8.067721e-05	0.02660748	-0.007238776
3.9e+08	0.02558504	-0.0126118	-1.093408e-05	-7.996928e-05	0.01678589	0.0007115878	3.925752e-07	-1.345864e-05
	-1.093408e-05	-7.996928e-05	0.0253814	-0.01013714	0.0008568232	3.574517e-05	0.01673519	0.001888762
	0.01678589	0.0007115878	0.0008568232	3.574517e-05	0.02552707	-0.01284753	-8.349676e-06	-7.99108e-05
	3.925752e-07	-1.345864e-05	0.01673519	0.001888762	-8.349676e-06	-7.99108e-05	0.02541976	-0.01006569
4e+08	0.02348402	-0.01518732	-2.337803e-05	-7.616477e-05	0.01588099	-0.001047626	-1.34921e-06	-1.311388e-05
	-2.337803e-05	-7.616477e-05	0.02355632	-0.01261448	0.0008639387	-4.633048e-05	0.01596763	0.0001719863
	0.01588099	-0.001047626	0.0008639387	-4.633048e-05	0.02336852	-0.01541186	-2.070677e-05	-7.662434e-05
	-1.34921e-06	-1.311388e-05	0.01596763	0.0001719863	-2.070677e-05	-7.662434e-05	0.02358326	-0.01253459
4.1e+08	0.02082388	-0.01720509	-3.455448e-05	-7.004876e-05	0.01454869	-0.00253415	-2.971909e-06	-1.255909e-05
	-3.455448e-05	-7.004876e-05	0.02118604	-0.01459926	0.0008647849	-0.0001286325	0.01477849	-0.001304264
	0.01454869	-0.00253415	0.0008647849	-0.0001286325	0.0206539	-0.01740484	-3.193121e-05	-7.104836e-05
	-2.971909e-06	-1.255909e-05	0.01477849	-0.001304264	-3.193121e-05	-7.104836e-05	0.02120314	-0.01450794
4.2e+08	0.01775295	-0.01855287	-4.394375e-05	-6.206934e-05	0.01286675	-0.003651008	-4.454778e-06	-1.182453e-05
	-4.394375e-05	-6.206934e-05	0.01840299	-0.01598212	0.0008597194	-0.0002114102	0.01323769	-0.002444177
	0.01286675	-0.003651008	0.0008597194	-0.0002114102	0.01753474	-0.01871507	-4.150604e-05	-6.35892e-05
	-4.454778e-06	-1.182453e-05	0.01323769	-0.002444177	-4.150604e-05	-6.35892e-05	0.01841259	-0.01587683
4.3e+08	0.01444081	-0.01915629	-5.119321e-05	-5.280677e-05	0.01093443	-0.004322672	-5.784294e-06	-1.094111e-05
	-5.119321e-05	-5.280677e-05	0.0153603	-0.01668761	0.0008487176	-0.0002950698	0.01143648	-0.003171473
	0.01093443	-0.004322672	0.0008487176	-0.0002950698	0.01418366	-0.01926976	-4.906735e-05	-5.478615e-05
	-5.784294e-06	-1.094111e-05	0.01143648	-0.003171473	-4.906735e-05	-5.478615e-05	0.01536532	-0.01656644
4.4e+08	0.01106899	-0.01898259	-5.61517e-05	-4.290978e-05	0.008866835	-0.00449976	-6.953688e-06	-9.938606e-06
	-5.61517e-05	-4.290978e-05	0.01222344	-0.01667796	0.0008313327	-0.0003800015	0.009482132	-0.003434063
	0.008866835	-0.00449976	0.0008313327	-0.0003800015	0.01078476	-0.01903848	-5.44396e-05	-4.525272e-05
	-6.953688e-06	-9.938606e-06	0.009482132	-0.003434063	-5.44396e-05	-4.525272e-05	0.01222724	-0.01653976
4.5e+08	0.007820909	-0.01804221	-5.887966e-05	-3.30239e-05	0.006788035	-0.00416222	-7.961988e-06	-8.844071e-06
	-5.887966e-05	-3.30239e-05	0.009161155	-0.01595467	0.0008067214	-0.0004664014	0.007491683	-0.003207313
	0.006788035	-0.00416222	0.0008067214	-0.0004664014	0.007523482	-0.01803461	-5.764836e-05	-3.560911e-05
	-7.961988e-06	-8.844071e-06	0.007491683	-0.003207313	-5.764836e-05	-3.560911e-05	0.009167343	-0.01579916
4.6e+08	0.004871853	-0.01638793	-5.963376e-05	-2.372013e-05	0.004823741	-0.003320769	-8.812548e-06	-7.680398e-06
	-5.963376e-05	-2.372013e-05	0.006336379	-0.01455816	0.00077373	-0.0005541151	0.005584955	-0.002495679
	0.004823741	-0.003320769	0.00077373	-0.0005541151	0.004576371	-0.01631429	-5.890898e-05	-2.641425e-05
	-8.812548e-06	-7.680398e-06	0.005584955	-0.002495679	-5.890898e-05	-2.641425e-05	0.006348557	-0.01438595
4.7e+08	0.002379323	-0.01411168	-5.882749e-05	-1.543379e-05	0.003093714	-0.00201648	-9.510921e-06	-6.464739e-06
	-5.882749e-05	-1.543379e-05	0.003897393	-0.01256514	0.000731042	-0.0006425117	0.003877418	-0.001332607
	0.003093714	-0.00201648	0.000731042	-0.0006425117	0.002101383	-0.01397317	-5.859193e-05	-1.810573e-05
	-9.510921e-06	-6.464739e-06	0.003877418	-0.001332607	-5.859193e-05	-1.810573e-05	0.00391896	-0.01237768
