!$
! Info: Touchstone file created by Circ.  Input file=Tx_14in_Rx_93ohms_TxVia_60mils_RxVia_70mils.circ
!$
# Hz S RI R 50
0	0.0128285	1.83259e-25	-7.490986e-05	7.398224e-24	9.419124e-05	2.533915e-23	-7.494523e-05	1.192027e-23
	-7.490985e-05	7.397272e-24	0.01282372	2.16818e-25	-7.487205e-05	2.940054e-24	9.439746e-05	3.128951e-23
	9.517077e-05	2.578333e-23	-7.487204e-05	2.938401e-24	0.01284226	1.753917e-25	-7.49029e-05	6.909553e-24
	-7.494521e-05	1.191853e-23	9.466687e-05	3.142368e-23	-7.490291e-05	6.910414e-24	0.01283803	2.158828e-25
1e+07	0.01889968	-0.001267845	-0.0003720834	-7.277218e-05	0.0005407582	0.002364798	-0.0001918016	0.0001896169
	-0.0003720834	-7.277218e-05	0.01856623	-0.002072722	-5.351478e-06	-1.088582e-05	0.0005670536	0.002585697
	0.0005407671	0.002364765	-5.35148e-06	-1.088582e-05	0.01756261	-0.001878385	-2.057071e-05	2.233722e-06
	-0.0001918016	0.0001896169	0.0005670565	0.002585695	-2.057072e-05	2.233719e-06	0.01819831	-0.002062517
2e+07	0.02199036	-0.00795833	-0.0003710172	5.342988e-05	0.001665108	0.004584931	-0.0002205036	0.0002367052
	-0.0003710172	5.342988e-05	0.02075639	-0.00900515	-6.482036e-06	-5.683064e-06	0.001574057	0.005005745
	0.00166508	0.00458493	-6.482031e-06	-5.683065e-06	0.0202248	-0.008373782	-1.172094e-05	-3.469916e-05
	-0.0002205036	0.0002367052	0.001574054	0.005005745	-1.172094e-05	-3.469916e-05	0.02048988	-0.008868387
3e+07	0.02151527	-0.01636299	-0.0003607773	0.000131113	0.003334917	0.006383014	-0.0002197677	0.0002853318
	-0.0003607773	0.000131113	0.01961207	-0.01716263	-1.47171e-05	-6.665816e-06	0.003251104	0.006890263
	0.003334915	0.006383018	-1.47171e-05	-6.665817e-06	0.01947473	-0.01648242	-3.654757e-05	-3.621151e-05
	-0.0002197677	0.0002853318	0.003251103	0.006890265	-3.654757e-05	-3.621151e-05	0.01941797	-0.01700198
4e+07	0.01815561	-0.02452851	-0.0003387724	0.0002015577	0.005408008	0.007620484	-0.0002028212	0.0003228021
	-0.0003387724	0.0002015577	0.01577388	-0.02486639	-2.067123e-05	-3.58323e-06	0.005398442	0.008150412
	0.005408007	0.007620479	-2.067123e-05	-3.58323e-06	0.01597113	-0.02428586	-5.668604e-05	-2.743557e-05
	-0.0002028212	0.0003228021	0.005398443	0.008150413	-5.668604e-05	-2.743557e-05	0.01563189	-0.02471015
5e+07	0.01244287	-0.03153358	-0.0003065174	0.0002651599	0.007703632	0.008207627	-0.0001782972	0.0003471209
	-0.0003065174	0.0002651599	0.009773858	-0.0312831	-2.454265e-05	1.567711e-06	0.007753289	0.008739073
	0.007703629	0.008207625	-2.454265e-05	1.567711e-06	0.01023584	-0.03090265	-7.152768e-05	-1.201805e-05
	-0.0001782972	0.0003471209	0.00775329	0.008739074	-7.152768e-05	-1.201805e-05	0.009665388	-0.03114382
6e+07	0.004968591	-0.03676035	-0.0002842765	0.0003039001	0.01002384	0.008112972	-0.0001538017	0.0003589412
	-0.0002842765	0.0003039001	0.002206159	-0.03585892	-2.640603e-05	8.06151e-06	0.01011865	0.008634082
	0.01002384	0.008112975	-2.640603e-05	8.061509e-06	0.002850963	-0.03574723	-8.030784e-05	7.859029e-06
	-0.0001538017	0.0003589412	0.01011865	0.008634082	-8.030784e-05	7.859029e-06	0.002114834	-0.03574069
7e+07	-0.003610843	-0.03981988	-0.0002563909	0.0003413848	0.01217217	0.007364295	-0.0001358259	0.0003608755
	-0.0002563909	0.0003413848	-0.006276096	-0.03826013	-2.615603e-05	1.515988e-05	0.01229941	0.007868695
	0.01217218	0.0073643	-2.615603e-05	1.515988e-05	-0.005539094	-0.03845724	-8.237234e-05	3.027413e-05
	-0.0001358259	0.0003608755	0.01229941	0.007868695	-8.237234e-05	3.027413e-05	-0.006364109	-0.03816153
8e+07	-0.01260755	-0.04053474	-0.0002233467	0.0003762634	0.01397104	0.006044662	-0.0001297224	0.0003576185
	-0.0002233467	0.0003762634	-0.01499519	-0.03835807	-2.373411e-05	2.236072e-05	0.01411899	0.006529026
	0.01397105	0.006044664	-2.373411e-05	2.236072e-05	-0.01426046	-0.03887633	-7.729107e-05	5.334654e-05
	-0.0001297224	0.0003576185	0.01411899	0.006529026	-7.729107e-05	5.334653e-05	-0.01509083	-0.03827382
9e+07	-0.02134754	-0.03892746	-0.0001864358	0.0004073392	0.01527762	0.004284031	-0.0001400523	0.0003551868
	-0.0001864358	0.0004073392	-0.02329035	-0.03621694	-1.899736e-05	2.92037e-05	0.01543366	0.004746286
	0.01527763	0.00428403	-1.899736e-05	2.92037e-05	-0.02265217	-0.03704251	-6.475321e-05	7.524976e-05
	-0.0001400523	0.0003551868	0.01543366	0.004746286	-6.475321e-05	7.524976e-05	-0.02340166	-0.03613935
1e+08	-0.02923493	-0.0352055	-0.0001506837	0.0004333926	0.01600618	0.002249308	-0.0001797378	0.0003590051
	-0.0001506837	0.0004333926	-0.03054073	-0.03207222	-1.098524e-05	3.529143e-05	0.01614309	0.002684617
	0.01600618	0.002249308	-1.098524e-05	3.529143e-05	-0.03010338	-0.03316964	-4.277628e-05	9.446679e-05
	-0.0001797378	0.0003590051	0.01614309	0.002684617	-4.277628e-05	9.446679e-05	-0.03067596	-0.031993
1.1e+08	-0.03569767	-0.02960926	-0.0001091978	0.0004408256	0.01607101	0.0001690164	-0.0002196182	0.000333838
	-0.0001091978	0.0004408256	-0.03630415	-0.02643805	-1.719596e-06	3.588074e-05	0.0161975	0.0005334853
	0.01607101	0.0001690162	-1.719596e-06	3.588074e-05	-0.03612297	-0.02766361	-1.675471e-05	9.928695e-05
	-0.0002196182	0.000333838	0.0161975	0.0005334855	-1.675471e-05	9.928695e-05	-0.036461	-0.02633137
1.2e+08	-0.04026382	-0.02274379	-6.05965e-05	0.000444156	0.01547366	-0.001831031	-0.0002474408	0.0003315052
	-6.05965e-05	0.000444156	-0.04031048	-0.01967179	5.669688e-06	3.47586e-05	0.0156085	-0.001519806
	0.01547366	-0.001831031	5.669688e-06	3.47586e-05	-0.04036442	-0.02095862	5.196162e-06	9.823183e-05
	-0.0002474408	0.0003315052	0.0156085	-0.001519805	5.196162e-06	9.823183e-05	-0.04047214	-0.01953221
1.3e+08	-0.04273504	-0.015189	-1.028042e-05	0.0004416994	0.01428906	-0.00356506	-0.000270347	0.000348491
	-1.028042e-05	0.0004416994	-0.04231139	-0.01231289	1.207159e-05	3.2472e-05	0.01443415	-0.003299776
	0.01428906	-0.00356506	1.207159e-05	3.2472e-05	-0.04258879	-0.0136009	2.451341e-05	9.280069e-05
	-0.000270347	0.000348491	0.01443415	-0.003299775	2.451341e-05	9.280069e-05	-0.04246563	-0.01214039
1.4e+08	-0.04305305	-0.007544039	3.97721e-05	0.000433166	0.01262545	-0.004877902	-0.0002847175	0.0003824752
	3.97721e-05	0.000433166	-0.04224791	-0.00493968	1.490922e-05	3.031564e-05	0.01277898	-0.004654971
	0.01262545	-0.004877902	1.490922e-05	3.031564e-05	-0.04272713	-0.006171429	4.089097e-05	8.397432e-05
	-0.0002847175	0.0003824752	0.01277898	-0.00465497	4.089097e-05	8.397432e-05	-0.04238444	-0.004737944
1.5e+08	-0.0413191	-0.0003911881	8.813849e-05	0.000418792	0.01062693	-0.005652333	-0.0002862314	0.0004298042
	8.813849e-05	0.000418792	-0.04022637	0.001884518	1.757764e-05	2.796493e-05	0.0107847	-0.005469978
	0.01062693	-0.005652333	1.757764e-05	2.796493e-05	-0.04087277	0.0007610625	5.397725e-05	7.275444e-05
	-0.0002862314	0.0004298042	0.0107847	-0.005469978	5.397725e-05	7.275444e-05	-0.0403371	0.00210892
1.6e+08	-0.03778372	0.005745008	0.0001338275	0.000399132	0.0084629	-0.005816969	-0.0002715045	0.0004854734
	0.0001338275	0.000399132	-0.03650276	0.007654948	2.006249e-05	2.540563e-05	0.008618648	-0.005673904
	0.0084629	-0.005816969	2.006249e-05	2.540563e-05	-0.03726871	0.006682545	6.368645e-05	6.016945e-05
	-0.0002715045	0.0004854734	0.008618647	-0.005673904	6.368645e-05	6.016945e-05	-0.03658234	0.007893319
1.7e+08	-0.03282481	0.01043432	0.0001761918	0.0003748807	0.006314815	-0.005351136	-0.0002388469	0.0005436408
	0.0001761918	0.0003748807	-0.03145842	0.01196264	2.232285e-05	2.264434e-05	0.006460533	-0.005245453
	0.006314815	-0.005351136	2.232285e-05	2.264434e-05	-0.03228521	0.01117083	7.021126e-05	4.716247e-05
	-0.0002388469	0.0005436408	0.006460533	-0.005245452	7.021126e-05	4.716247e-05	-0.0315046	0.01220505
1.8e+08	-0.02691669	0.01337011	0.000214877	0.0003467404	0.004361985	-0.004286088	-0.0001885598	0.0005983496
	0.000214877	0.0003467404	-0.02556764	0.01452346	2.432805e-05	1.969067e-05	0.004488418	-0.004214322
	0.004361984	-0.004286087	2.432805e-05	1.969067e-05	-0.02638887	0.01392519	7.398806e-05	3.449417e-05
	-0.0001885598	0.0005983496	0.004488418	-0.004214322	7.398806e-05	3.449417e-05	-0.02558142	0.01475972
1.9e+08	-0.02059271	0.01438927	0.0002497487	0.0003153228	0.002767359	-0.002702397	-0.0001228547	0.0006442874
	0.0002497487	0.0003153228	-0.01935925	0.01519723	2.605048e-05	1.655547e-05	0.002864732	-0.00265882
	0.002767359	-0.002702397	2.605048e-05	1.655547e-05	-0.02010545	0.01478652	7.561493e-05	2.266918e-05
	-0.0001228547	0.0006442874	0.002864732	-0.00265882	7.561493e-05	2.266918e-05	-0.01934476	0.01541784
2e+08	-0.01440411	0.01348143	0.0002807982	0.0002810883	0.001664425	-0.0007235647	-4.545657e-05	0.0006774332
	0.0002807982	0.0002810883	-0.01337476	0.01399587	2.746132e-05	1.325185e-05	0.001723348	-0.0006997611
	0.001664425	-0.0007235647	2.746132e-05	1.325185e-05	-0.01397883	0.01374685	7.574171e-05	1.190281e-05
	-4.545657e-05	0.0006774332	0.001723348	-0.000699761	7.574171e-05	1.190281e-05	-0.01333897	0.01419291
2.1e+08	-0.008877233	0.01078706	0.0003080422	0.0002443339	0.001141944	0.001490524	3.902126e-05	0.0006954877
	0.0003080422	0.0002443339	-0.008126307	0.01107975	2.851939e-05	9.794794e-06	0.001158686	0.001509032
	0.001141944	0.001490524	2.851939e-05	9.794794e-06	-0.008528485	0.01094758	7.489076e-05	2.104149e-06
	3.902126e-05	0.0006954877	0.001158686	0.001509032	7.489076e-05	2.104149e-06	-0.008078376	0.01124767
2.2e+08	-0.004475257	0.006583059	0.0003314316	0.0002052227	0.001248109	0.003765498	0.0001258176	0.0006980056
	0.0003314316	0.0002052227	-0.004057162	0.0067429	2.918885e-05	6.213168e-06	0.001217761	0.003793044
	0.001248109	0.003765498	2.918885e-05	6.213168e-06	-0.004211258	0.006665345	7.346676e-05	-6.973398e-06
	0.0001258176	0.0006980056	0.001217761	0.003793044	7.346676e-05	-6.973398e-06	-0.004007674	0.006879079
2.3e+08	-0.001564246	0.001260377	0.0003507876	0.0001638522	0.001981746	0.00592138	0.0002107416	0.0006862266
	0.0003507876	0.0001638522	-0.001508136	0.001387955	2.944637e-05	2.548611e-06	0.001895978	0.005971328
	0.001981746	0.00592138	2.944637e-05	2.548611e-06	-0.001387603	0.00128979	7.173908e-05	-1.567558e-05
	0.0002107416	0.0006862266	0.001895978	0.005971328	7.173908e-05	-1.567558e-05	-0.00146818	0.001493008
2.4e+08	-0.0003843249	-0.004707768	0.0003657756	0.0001203453	0.003282035	0.007782396	0.0002907554	0.0006626396
	0.0003657756	0.0001203453	-0.000692271	-0.00450709	2.926123e-05	-1.150189e-06	0.003137176	0.00787157
	0.003282035	0.007782396	2.926123e-05	-1.150189e-06	-0.0002927929	-0.004707958	6.964845e-05	-2.44003e-05
	0.0002907554	0.0006626396	0.003137176	0.00787157	6.964845e-05	-2.44003e-05	-0.000672455	-0.004429264
2.5e+08	-0.001033784	-0.01080439	0.0003759261	7.494215e-05	0.005039987	0.009197628	0.0003643132	0.0006303487
	0.0003759261	7.494215e-05	-0.001679858	-0.01042768	2.861048e-05	-4.823064e-06	0.00483811	0.009344656
	0.005039987	0.009197628	2.861048e-05	-4.823064e-06	-0.001021083	-0.01081363	6.691001e-05	-3.343111e-05
	0.0003643132	0.0006303487	0.00483811	0.009344656	6.691001e-05	-3.343111e-05	-0.001689351	-0.01037015
2.6e+08	-0.00346358	-0.01650974	0.000380697	2.807635e-05	0.007107615	0.01005402	0.0004314122	0.0005923725
	0.000380697	2.807635e-05	-0.004394908	-0.01586397	2.748261e-05	-8.400204e-06	0.006857068	0.01027739
	0.007107615	0.01005402	2.748261e-05	-8.400204e-06	-0.003520227	-0.01651063	6.309161e-05	-4.284635e-05
	0.0004314122	0.0005923725	0.006857068	0.01027739	6.309161e-05	-4.284635e-05	-0.004440617	-0.01581726
2.7e+08	-0.007483403	-0.02134193	0.0003795694	-1.958605e-05	0.009310623	0.01028614	0.000493342	0.000550997
	0.0003795694	-1.958605e-05	-0.008623376	-0.02035101	2.588143e-05	-1.18056e-05	0.009025934	0.01060213
	0.009310623	0.01028614	2.588143e-05	-1.18056e-05	-0.007597533	-0.02132046	5.772431e-05	-5.247078e-05
	0.000493342	0.000550997	0.009025934	0.01060213	5.772431e-05	-5.247078e-05	-0.008709205	-0.02030392
2.8e+08	-0.01277869	-0.024894	0.0003721507	-6.715136e-05	0.01146345	0.009881783	0.0005521981	0.0005072986
	0.0003721507	-6.715136e-05	-0.014032	-0.0235049	2.382747e-05	-1.496098e-05	0.01116457	0.01030244
	0.01146345	0.009881783	2.382747e-05	-1.496098e-05	-0.01293684	-0.02483971	5.042297e-05	-6.188069e-05
	0.0005521981	0.0005072986	0.01116457	0.01030244	5.042297e-05	-6.188069e-05	-0.01415847	-0.02344542
2.9e+08	-0.01893706	-0.02686454	0.0003582702	-0.0001135498	0.01338525	0.008882745	0.0006102378	0.0004609234
	0.0003582702	-0.0001135498	-0.02019634	-0.02505195	2.135909e-05	-1.779057e-05	0.0130962	0.009414192
	0.01338525	0.008882745	2.135909e-05	-1.779057e-05	-0.01912488	-0.02677044	4.099306e-05	-7.046046e-05
	0.0006102378	0.0004609234	0.0130962	0.009414192	4.099306e-05	-7.046046e-05	-0.02036049	-0.02496828
3e+08	-0.02548179	-0.02707952	0.0003380455	-0.0001576237	0.01491534	0.007380947	0.0006692079	0.0004101594
	0.0003380455	-0.0001576237	-0.02663554	-0.02484854	1.853198e-05	-2.022616e-05	0.01466227	0.008022106
	0.01491534	0.007380947	1.853198e-05	-2.022616e-05	-0.02568471	-0.02694202	2.950298e-05	-7.750014e-05
	0.0006692079	0.0004101594	0.01466227	0.008022106	2.950298e-05	-7.750014e-05	-0.02683109	-0.02473009
3.1e+08	-0.03190969	-0.02550391	0.0003119084	-0.0001982382	0.01592664	0.005510183	0.0007297697	0.0003522788
	0.0003119084	-0.0001982382	-0.03285072	-0.02289052	1.541718e-05	-2.221227e-05	0.01573558	0.006252129
	0.01592664	0.005510183	1.541718e-05	-2.221227e-05	-0.03211351	-0.02532262	1.630755e-05	-8.231475e-05
	0.0007297697	0.0003522788	0.01573558	0.006252129	1.630755e-05	-8.231475e-05	-0.03306852	-0.02272885
3.2e+08	-0.03773023	-0.02224247	0.0002805821	-0.0002343911	0.01633598	0.003434451	0.0007911108	0.0002841002
	0.0002805821	-0.0002343911	-0.03836407	-0.01931164	1.209698e-05	-2.371054e-05	0.01623044	0.004260499
	0.01633598	0.003434451	1.209698e-05	-2.371054e-05	-0.03792162	-0.02201991	2.019524e-06	-8.436204e-05
	0.0007911108	0.0002841002	0.01623044	0.004260499	2.019524e-06	-8.436204e-05	-0.03859286	-0.01910118
3.3e+08	-0.04250297	-0.01752987	0.0002450181	-0.0002653061	0.01611059	0.001333992	0.0008508257	0.0002026609
	0.0002450181	-0.0002653061	-0.04275562	-0.01437136	8.659417e-06	-2.470266e-05	0.01610912	0.002220538
	0.01611059	0.001333992	8.659417e-06	-2.470266e-05	-0.04266993	-0.01727121	-1.256508e-05	-8.333774e-05
	0.0008508257	0.0002026609	0.01610912	0.002220538	-1.256508e-05	-8.333774e-05	-0.04298289	-0.01410996
3.4e+08	-0.04587051	-0.01171128	0.0002063034	-0.0002904933	0.01527012	-0.0006096923	0.0009050813	0.0001058801
	0.0002063034	-0.0002904933	-0.04569484	-0.008433397	5.191695e-06	-2.519122e-05	0.01538434	0.0003083877
	0.01527012	-0.0006096923	5.191695e-06	-2.519122e-05	-0.04600279	-0.01142396	-2.65737e-05	-7.923168e-05
	0.0009050813	0.0001058801	0.01538434	0.0003083877	-2.65737e-05	-7.923168e-05	-0.04590791	-0.008122533
3.5e+08	-0.04758483	-0.005214997	0.0001655526	-0.0003097668	0.01388461	-0.002228589	0.0009490366	-6.882077e-06
	0.0001655526	-0.0003097668	-0.0469651	-0.00193673	1.773627e-06	-2.519765e-05	0.01411758	-0.001311138
	0.01388461	-0.002228589	1.773627e-06	-2.519765e-05	-0.04767424	-0.004908341	-3.917621e-05	-7.233592e-05
	0.0009490366	-6.882077e-06	0.01411758	-0.001311138	-3.917621e-05	-7.233592e-05	-0.04715209	-0.001581441
3.6e+08	-0.04752494	0.001480659	0.0001238054	-0.0003232218	0.0120683	-0.00338155	0.000977454	-0.0001344845
	0.0001238054	-0.0003232218	-0.04647906	0.004638627	-1.52755e-06	-2.475792e-05	0.01241375	-0.002497506
	0.0120683	-0.00338155	-1.52755e-06	-2.475792e-05	-0.04756569	0.001795871	-4.969663e-05	-6.320538e-05
	0.000977454	-0.0001344845	0.01241375	-0.002497506	-4.969663e-05	-6.320538e-05	-0.04662993	0.005030094
3.7e+08	-0.04570518	0.007883788	8.194286e-05	-0.0003311747	0.009970344	-0.003965361	0.0009854042	-0.00027392
	8.194286e-05	-0.0003311747	-0.04428441	0.01080846	-4.660048e-06	-2.391638e-05	0.01041257	-0.003145332
	0.009970344	-0.003965361	-4.660048e-06	-2.391638e-05	-0.04569406	0.008195818	-5.769923e-05	-5.257841e-05
	0.0009854042	-0.00027392	0.01041257	-0.003145332	-5.769923e-05	-5.257841e-05	-0.0443918	0.01122528
3.8e+08	-0.04227328	0.01352599	4.063593e-05	-0.0003340781	0.007762788	-0.003922776	0.0009689517	-0.0004205137
	4.063593e-05	-0.0003340781	-0.04055938	0.01612117	-7.587442e-06	-2.271927e-05	0.008277445	-0.003192466
	0.007762788	-0.003922776	-7.587442e-06	-2.271927e-05	-0.04220987	0.01382267	-6.303626e-05	-4.127102e-05
	0.0009689517	-0.0004205137	0.008277445	-0.003192466	-6.303626e-05	-4.127102e-05	-0.04061922	0.01655078
3.9e+08	-0.03749876	0.01799747	3.31775e-07	-0.0003324263	0.005627024	-0.003247019	0.0009257156	-0.0005683709
	3.31775e-07	-0.0003324263	-0.03559861	0.02019192	-1.028584e-05	-2.120932e-05	0.00618271	-0.002624791
	0.005627024	-0.003247019	-1.028584e-05	-2.120932e-05	-0.03738546	0.01826681	-6.58507e-05	-3.0062e-05
	0.0009257156	-0.0005683709	0.00618271	-0.002624791	-6.58507e-05	-3.0062e-05	-0.03561055	0.02062101
4e+08	-0.03175232	0.02097777	-3.872117e-05	-0.0003266653	0.003739477	-0.001982484	0.0008552222	-0.0007110013
	-3.872117e-05	-0.0003266653	-0.02979042	0.02273161	-1.27392e-05	-1.942242e-05	0.004299965	-0.001477436
	0.003739477	-0.001982484	-1.27392e-05	-1.942242e-05	-0.03159429	0.02120851	-6.653415e-05	-1.958693e-05
	0.0008552222	-0.0007110013	0.004299965	-0.001477436	-6.653415e-05	-1.958693e-05	-0.02975787	0.02314722
4.1e+08	-0.02547774	0.02225972	-7.641511e-05	-0.0003171231	0.002257585	-0.0002215497	0.0007589899	-0.0008420347
	-7.641511e-05	-0.0003171231	-0.02358706	0.02356875	-1.493399e-05	-1.738715e-05	0.002784572	0.0001677158
	0.002257585	-0.0002215497	-1.493399e-05	-1.738715e-05	-0.02528272	0.02244202	-6.564714e-05	-1.025765e-05
	0.0007589899	-0.0008420347	0.002784572	0.0001677158	-6.564714e-05	-1.025765e-05	-0.02351702	0.02395927
4.2e+08	-0.01915837	0.02176509	-0.0001127019	-0.000303971	0.001307057	0.001902336	0.0006403385	-0.0009559077
	-0.0001127019	-0.000303971	-0.01747021	0.02266234	-1.685478e-05	-1.512667e-05	0.001763207	0.002188118
	0.001307057	0.001902336	-1.685478e-05	-1.512667e-05	-0.01893635	0.02189106	-6.381421e-05	-2.220003e-06
	0.0006403385	-0.0009559077	0.001763207	0.002188118	-6.381421e-05	-2.220003e-06	-0.01737274	0.02301854
4.3e+08	-0.0132805	0.01955052	-0.0001475034	-0.0002872238	0.0009713726	0.004224895	0.0005039598	-0.001048421
	-0.0001475034	-0.0002872238	-0.01191407	0.02010499	-1.848148e-05	-1.266255e-05	0.0013234	0.004429932
	0.0009713726	0.004224895	-1.848148e-05	-1.266255e-05	-0.01304326	0.01961478	-6.161126e-05	4.64278e-06
	0.0005039598	-0.001048421	0.0013234	0.004429932	-6.161126e-05	4.64278e-06	-0.01180157	0.02042076
4.4e+08	-0.008296459	0.0158033	-0.0001806305	-0.0002667786	0.001284418	0.006563949	0.0003553133	-0.001117083
	-0.0001806305	-0.0002667786	-0.007349094	0.01611577	-1.978894e-05	-1.001905e-05	0.001505981	0.006720092
	0.001284418	0.006563949	-1.978894e-05	-1.001905e-05	-0.00805694	0.01580334	-5.946363e-05	1.066126e-05
	0.0003553133	-0.001117083	0.001505981	0.006720092	-5.946363e-05	1.066126e-05	-0.007235289	0.01638872
4.5e+08	-0.004590131	0.01082714	-0.0002117274	-0.000242488	0.002226976	0.008734116	0.0002001055	-0.001161198
	-0.0002117274	-0.000242488	-0.004128831	0.01102335	-2.074868e-05	-7.226999e-06	0.002301137	0.008880212
	0.002226976	0.008734116	-2.074868e-05	-7.226999e-06	-0.004361723	0.01076364	-5.757468e-05	1.629249e-05
	0.0002001055	-0.001161198	0.002301137	0.008880212	-5.757468e-05	1.629249e-05	-0.00402774	0.01125507
4.6e+08	-0.002447599	0.00501907	-0.0002400345	-0.0002141843	0.003727542	0.01056214	2.144652e-05	-0.001178049
	-0.0002400345	-0.0002141843	-0.00250279	0.005240583	-2.133398e-05	-4.326071e-06	0.003648589	0.01074126
	0.003727542	0.01056214	-2.133398e-05	-4.326071e-06	-0.002243425	0.004895958	-5.568468e-05	2.207471e-05
	2.144652e-05	-0.001178049	0.003648589	0.01074126	-5.568468e-05	2.207471e-05	-0.002427491	0.005436612
4.7e+08	-0.002035489	-0.001161021	-0.0002650263	-0.0001820292	0.005667587	0.01190154	-0.0001555209	-0.001166762
	-0.0002650263	-0.0001820292	-0.002597292	-0.0007673943	-2.151707e-05	-1.366222e-06	0.005442046	0.01215774
	0.005667587	0.01190154	-2.151707e-05	-1.366222e-06	-0.001867467	-0.001336641	-5.368764e-05	2.827394e-05
