!$
! Info: Touchstone file created by Circ.  Input file=Tx_14in_Rx_85ohms_TxVia_60mils_RxVia_70mils.circ
!$
# Hz S RI R 50
0	0.01128555	1.787046e-25	-7.533606e-05	7.332039e-24	9.576002e-05	2.210254e-23	-7.529876e-05	2.849535e-24
	-7.533606e-05	7.331987e-24	0.01128128	2.180153e-25	-7.537113e-05	1.181467e-23	9.489331e-05	2.750721e-23
	9.489226e-05	2.20037e-23	-7.537114e-05	1.181538e-23	0.01129924	1.806586e-25	-7.533314e-05	7.245928e-24
	-7.529875e-05	2.848692e-24	9.516281e-05	2.762516e-23	-7.533313e-05	7.244419e-24	0.01129564	2.170748e-25
1e+07	0.0138202	-0.01368489	-0.0001596548	-2.707032e-05	0.0005823168	0.002563579	-1.165076e-05	-2.20962e-06
	-0.0001596548	-2.707032e-05	0.01384916	-0.01369128	-4.454381e-05	0.0001158209	0.0005781004	0.002570988
	0.0005823013	0.002563593	-4.454381e-05	0.0001158209	0.01388327	-0.01366375	-0.0001596546	-2.706795e-05
	-1.165076e-05	-2.20962e-06	0.0005781032	0.002570986	-0.0001596546	-2.706795e-05	0.01381936	-0.0136759
2e+07	0.01127899	-0.03065122	-0.0001422656	3.905083e-05	0.001737929	0.004787977	-1.172737e-05	-2.149737e-05
	-0.0001422656	3.905083e-05	0.01124776	-0.0306652	-3.774799e-05	0.0001552902	0.001722203	0.004806826
	0.001737936	0.004787985	-3.774799e-05	0.0001552902	0.01133761	-0.03062686	-0.0001422594	3.900224e-05
	-1.172738e-05	-2.149737e-05	0.0017222	0.004806826	-0.0001422594	3.900225e-05	0.01123132	-0.03062302
3e+07	0.002535851	-0.04723346	-0.0001386417	4.126201e-05	0.003447613	0.006537968	-2.93769e-05	-2.199706e-05
	-0.0001386417	4.126201e-05	0.002423678	-0.04721609	-5.52486e-06	0.0001785482	0.003415426	0.00657541
	0.003447614	0.006537969	-5.52486e-06	0.0001785482	0.00259576	-0.04719715	-0.0001386417	4.11747e-05
	-2.93769e-05	-2.199706e-05	0.003415425	0.006575412	-0.0001386417	4.11747e-05	0.00241617	-0.04715904
4e+07	-0.01102135	-0.06079816	-0.0001349855	4.9962e-05	0.005542266	0.007682922	-4.315733e-05	-1.530618e-05
	-0.0001349855	4.9962e-05	-0.01122392	-0.06071103	3.710047e-05	0.0001765088	0.005492166	0.007748157
	0.005542265	0.007682924	3.710047e-05	0.0001765088	-0.01095684	-0.06075045	-0.0001350081	4.982489e-05
	-4.315733e-05	-1.530618e-05	0.005492167	0.007748158	-0.0001350081	4.982489e-05	-0.01122547	-0.06064198
5e+07	-0.02798303	-0.07002065	-0.0001301705	6.176312e-05	0.007818824	0.008148556	-5.32233e-05	-4.234123e-06
	-0.0001301705	6.176312e-05	-0.02827076	-0.06982334	7.621971e-05	0.0001483827	0.007753465	0.008251272
	0.007818823	0.008148556	7.621971e-05	0.0001483827	-0.02791228	-0.06996374	-0.0001302418	6.157351e-05
	-5.32233e-05	-4.234123e-06	0.007753466	0.008251272	-0.0001302418	6.157351e-05	-0.02826872	-0.06974246
6e+07	-0.04680585	-0.07415479	-0.0001233593	7.514085e-05	0.01006593	0.007926786	-5.933765e-05	9.864899e-06
	-0.0001233593	7.514085e-05	-0.04715808	-0.07381041	9.93278e-05	9.864475e-05	0.009992024	0.008075553
	0.01006593	0.007926785	9.93278e-05	9.864475e-05	-0.04672866	-0.07409115	-0.00012351	7.490962e-05
	-5.933765e-05	9.864899e-06	0.009992025	0.008075553	-0.00012351	7.490962e-05	-0.04715359	-0.0737166
7e+07	-0.06589838	-0.07296099	-0.0001140654	8.892544e-05	0.0120861	0.007072301	-6.10983e-05	2.597179e-05
	-0.0001140654	8.892544e-05	-0.06628128	-0.07244154	9.690833e-05	3.621235e-05	0.01201381	0.007273103
	0.01208609	0.0070723	9.690833e-05	3.621235e-05	-0.06581555	-0.07289272	-0.0001143233	8.867908e-05
	-6.10983e-05	2.597179e-05	0.01201381	0.007273103	-0.0001143233	8.867907e-05	-0.06627428	-0.07233337
8e+07	-0.08373409	-0.06666386	-0.0001021683	0.0001020781	0.01371313	0.005692277	-5.801624e-05	4.309623e-05
	-0.0001021683	0.0001020781	-0.08410449	-0.06595423	6.360953e-05	-2.711154e-05	0.01365504	0.005947333
	0.01371312	0.005692276	6.360953e-05	-2.711154e-05	-0.08364709	-0.0665924	-0.0001025511	0.0001018572
	-5.801624e-05	4.309623e-05	0.01365505	0.005947333	-0.0001025511	0.0001018572	-0.08409392	-0.06583035
9e+07	-0.09895935	-0.05589461	-8.787918e-05	0.0001137115	0.01482421	0.003932317	-4.94493e-05	6.017453e-05
	-8.787918e-05	0.0001137115	-0.09926939	-0.05499508	-1.747779e-06	-7.861514e-05	0.01479394	0.004239294
	0.0148242	0.003932317	-1.747779e-06	-7.861514e-05	-0.09886984	-0.05582065	-8.838802e-05	0.0001135659
	-4.94493e-05	6.017453e-05	0.01479394	0.004239294	-8.838802e-05	0.0001135659	-0.09925333	-0.05485468
1e+08	-0.1104862	-0.04161511	-7.167949e-05	0.0001231726	0.01534883	0.001961786	-3.307842e-05	7.618017e-05
	-7.167949e-05	0.0001231726	-0.1106883	-0.04054228	-0.0001024226	-0.0001075198	0.0153594	0.002313494
	0.01534882	0.001961786	-0.0001024226	-0.0001075198	-0.1103955	-0.04153854	-7.229657e-05	0.0001231541
	-3.307842e-05	7.618017e-05	0.0153594	0.002313494	-7.229657e-05	0.0001231541	-0.1106646	-0.04038548
1.1e+08	-0.1175423	-0.02499998	-5.436237e-05	0.0001299805	0.01525949	-6.132573e-05	-1.243214e-05	7.990279e-05
	-5.436237e-05	0.0001299805	-0.1175941	-0.02378836	-0.0002116162	-0.0001310823	0.01532158	0.0003232999
	0.01525949	-6.132579e-05	-0.0002116162	-0.0001310823	-0.1174517	-0.02492179	-5.504841e-05	0.0001301309
	-1.243214e-05	7.990279e-05	0.01532158	0.0003233001	-5.504841e-05	0.0001301309	-0.1175595	-0.02361507
1.2e+08	-0.1197084	-0.007409618	-3.633769e-05	0.0001339283	0.01456546	-0.00194923	4.869115e-06	7.94466e-05
	-3.633769e-05	0.0001339283	-0.1195806	-0.006105878	-0.0003134961	-0.0001142093	0.01468592	-0.001547208
	0.01456546	-0.00194923	-0.0003134961	-0.0001142093	-0.1196203	-0.007328901	-3.703338e-05	0.0001342729
	4.869115e-06	7.94466e-05	0.01468592	-0.001547207	-3.703338e-05	0.0001342729	-0.1195313	-0.005918821
1.3e+08	-0.1169702	0.00977547	-1.829981e-05	0.000135053	0.01333904	-0.003542167	1.896013e-05	7.622104e-05
	-1.829981e-05	0.000135053	-0.1166482	0.011115	-0.0004038139	-6.089075e-05	0.01351967	-0.00314072
	0.01333904	-0.003542168	-0.0004038139	-6.089075e-05	-0.1168858	0.009860189	-1.89388e-05	0.0001355936
	1.896013e-05	7.622104e-05	0.01351967	-0.003140719	-1.89388e-05	0.0001355936	-0.1165818	0.01131159
1.4e+08	-0.1096776	0.02523829	-8.024631e-07	0.0001335636	0.01168658	-0.004707073	2.640695e-05	7.275508e-05
	-8.024632e-07	0.0001335636	-0.1091652	0.02655249	-0.0004727858	2.283306e-05	0.01192337	-0.004324928
	0.01168658	-0.004707073	-0.0004727858	2.283306e-05	-0.1095977	0.0253287	-1.322004e-06	0.0001342755
	2.640695e-05	7.275508e-05	0.01192337	-0.004324927	-1.322005e-06	0.0001342755	-0.1090808	0.02675341
1.5e+08	-0.09851713	0.03781485	1.563145e-05	0.0001297817	0.009744522	-0.005343629	3.377298e-05	6.843103e-05
	1.563145e-05	0.0001297817	-0.09783745	0.03904365	-0.0005124642	0.0001278073	0.01002738	-0.004998362
	0.009744522	-0.005343629	-0.0005124642	0.0001278073	-0.09844176	0.03791268	1.528037e-05	0.0001306188
	3.377298e-05	6.843103e-05	0.01002738	-0.004998361	1.528037e-05	0.0001306188	-0.09773597	0.03924329
1.6e+08	-0.08445937	0.04657495	3.070195e-05	0.0001241552	0.007671596	-0.005390691	4.079036e-05	6.322741e-05
	3.070195e-05	0.0001241552	-0.08365485	0.04766556	-0.0005184262	0.0002427616	0.007984791	-0.005096778
	0.007671596	-0.005390691	-0.0005184262	0.0002427616	-0.08438808	0.04668176	3.054673e-05	0.0001250562
	4.079036e-05	6.322741e-05	0.007984791	-0.005096777	3.054673e-05	0.0001250562	-0.08353917	0.0478585
1.7e+08	-0.06868875	0.0508889	4.429215e-05	0.0001171545	0.005639238	-0.004831729	4.724458e-05	5.718572e-05
	4.429215e-05	0.0001171545	-0.06781857	0.05180183	-0.0004904876	0.0003558325	0.005962409	-0.004598755
	0.005639239	-0.004831729	-0.0004904876	0.0003558325	-0.06862065	0.05100601	4.433355e-05	0.0001180532
	4.724458e-05	5.718572e-05	0.005962409	-0.004598755	4.433355e-05	0.0001180532	-0.0676934	0.05198353
1.8e+08	-0.05251675	0.05047563	5.645975e-05	0.0001091999	0.003819927	-0.003698476	5.296278e-05	5.039156e-05
	5.645975e-05	0.0001091999	-0.05165265	0.05118997	-0.0004326566	0.0004562327	0.004129648	-0.003529704
	0.003819927	-0.003698476	-0.0004326566	0.0004562327	-0.05245064	0.05060398	5.667171e-05	0.0001100368
	5.296278e-05	5.039156e-05	0.004129649	-0.003529703	5.667171e-05	0.0001100368	-0.05152425	0.05135733
1.9e+08	-0.03728336	0.04542759	6.73982e-05	0.0001005928	0.002373598	-0.002071656	5.780929e-05	4.296193e-05
	6.73982e-05	0.0001005928	-0.03650369	0.04594489	-0.0003523904	0.0005357829	0.002645386	-0.001963094
	0.002373598	-0.002071656	-0.0003523904	0.0005357829	-0.03721784	0.04556769	6.773316e-05	0.000101327
	5.780929e-05	4.296193e-05	0.002645386	-0.001963094	6.773316e-05	0.000101327	-0.03637939	0.04609681
2e+08	-0.0242523	0.03620831	7.736769e-05	9.146728e-05	0.001432994	-7.752071e-05	6.168415e-05	3.503515e-05
	7.736769e-05	9.146728e-05	-0.02363493	0.03655458	-0.0002592699	0.0005900299	0.001643568	-1.764389e-05
	0.001432994	-7.752071e-05	-0.0002592699	0.0005900299	-0.02418591	0.03636017	7.776673e-05	9.208456e-05
	6.168415e-05	3.503515e-05	0.001643568	-1.764384e-05	7.776673e-05	9.208456e-05	-0.0235225	0.03669224
2.1e+08	-0.01450811	0.02361985	8.660581e-05	8.177671e-05	0.00108953	0.002120669	6.452215e-05	2.676233e-05
	8.660581e-05	8.177671e-05	-0.01412272	0.02384528	-0.0001633025	0.0006187348	0.001219132	0.002150499
	0.00108953	0.002120669	-0.0001633025	0.0006187348	-0.01443953	0.02378303	8.7012e-05	8.229256e-05
	6.452215e-05	2.676233e-05	0.001219132	0.002150499	8.7012e-05	8.229256e-05	-0.01402963	0.02397232
2.2e+08	-0.008864439	0.008740505	9.523745e-05	7.132696e-05	0.00138186	0.004336323	6.629166e-05	1.829885e-05
	9.523745e-05	7.132696e-05	-0.008764986	0.008916683	-7.315431e-05	0.0006256046	0.001416417	0.004360722
	0.00138186	0.004336323	-7.315431e-05	0.0006256046	-0.008792632	0.008914143	9.560971e-05	7.178331e-05
	6.629166e-05	1.829885e-05	0.001416417	0.004360722	9.560971e-05	7.178331e-05	-0.008697616	0.00903907
2.3e+08	-0.007793317	-0.007163977	0.0001032091	5.985274e-05	0.002289388	0.006377338	6.69917e-05	9.796428e-06
	0.0001032091	5.985274e-05	-0.008011453	-0.0069492	5.348223e-06	0.0006172939	0.002222297	0.006425113
	0.002289388	0.006377338	5.348223e-06	0.0006172939	-0.007717663	-0.006981001	0.0001035337	6.030836e-05
	6.69917e-05	9.796428e-06	0.002222297	0.006425113	0.0001035337	6.030836e-05	-0.007974392	-0.006823482
2.4e+08	-0.01138394	-0.0227479	0.0001102697	4.71206e-05	0.003732432	0.008065902	6.66474e-05	1.396798e-06
	0.0001102697	4.71206e-05	-0.01192422	-0.02239758	7.015281e-05	0.0006018516	0.003565772	0.00816774
	0.003732432	0.008065902	7.015281e-05	0.0006018516	-0.01130432	-0.02255678	0.0001105664	4.763685e-05
	6.66474e-05	1.396798e-06	0.003565772	0.00816774	0.0001105664	4.763685e-05	-0.01191963	-0.02225912
2.5e+08	-0.01933627	-0.0367016	0.0001160062	3.30305e-05	0.005579642	0.00925746	6.530345e-05	-6.773122e-06
	0.0001160062	3.30305e-05	-0.02017375	-0.03611826	0.0001231328	0.0005869185	0.005324658	0.00944327
	0.005579642	0.00925746	0.0001231328	0.0005869185	-0.01925305	-0.03650339	0.0001163275	3.365515e-05
	6.530345e-05	-6.773122e-06	0.005324658	0.00944327	0.0001163275	3.365515e-05	-0.02020094	-0.03595697
2.6e+08	-0.03099074	-0.04786357	0.0001199272	1.768634e-05	0.007661854	0.009855863	6.301738e-05	-1.460228e-05
	0.0001199272	1.768634e-05	-0.0320713	-0.04695833	0.0001694471	0.0005780509	0.007338626	0.01015201
	0.007661854	0.009855863	0.0001694471	0.0005780509	-0.03090465	-0.04765902	0.0001203503	1.843885e-05
	6.301738e-05	-1.460228e-05	0.007338626	0.01015201	0.0001203503	1.843885e-05	-0.03212652	-0.04676434
2.7e+08	-0.04539039	-0.05531716	0.00012157	1.4156e-06	0.009790316	0.009822449	5.985373e-05	-2.199407e-05
	0.00012157	1.4156e-06	-0.04663396	-0.05401847	0.000216232	0.0005775137	0.009426581	0.01024913
	0.009790316	0.009822449	0.000216232	0.0005775137	-0.04530239	-0.05510654	0.0001221824	2.27709e-06
	5.985373e-05	-2.199407e-05	0.009426581	0.01024913	0.0001221824	2.27709e-06	-0.04671053	-0.05378305
2.8e+08	-0.06136815	-0.05846224	0.000120602	-1.526604e-05	0.01177643	0.009177981	5.588109e-05	-2.886292e-05
	0.000120602	-1.526604e-05	-0.06267452	-0.05672339	0.0002709351	0.0005837677	0.01140562	0.009747017
	0.01177643	0.009177981	0.0002709351	0.0005837677	-0.06127917	-0.05824534	0.0001214837	-1.43558e-05
	5.588109e-05	-2.886292e-05	0.01140562	0.009747017	0.0001214837	-1.43558e-05	-0.06276318	-0.05643984
2.9e+08	-0.07764895	-0.05705623	0.0001168893	-3.173142e-05	0.01345011	0.007997751	5.11713e-05	-3.513109e-05
	0.0001168893	-3.173142e-05	-0.0789057	-0.05486079	0.0003396125	0.0005917334	0.01310877	0.008710978
	0.01345011	0.007997751	0.0003396125	0.0005917334	-0.0775597	-0.05683239	0.000118095	-3.086902e-05
	5.11713e-05	-3.513109e-05	0.01310877	0.008710978	0.000118095	-3.086902e-05	-0.07899526	-0.05452522
3e+08	-0.09295614	-0.05122272	0.0001105201	-4.733669e-05	0.01467449	0.006401342	4.580078e-05	-4.072679e-05
	0.0001105201	-4.733669e-05	-0.09404789	-0.04858749	0.0004255294	0.0005937495	0.01439925	0.007249865
	0.01467449	0.006401342	0.0004255294	0.0005937495	-0.09286694	-0.05099099	0.000112065	-4.664285e-05
	4.580078e-05	-4.072679e-05	0.01439925	0.007249865	0.000112065	-4.664285e-05	-0.09412611	-0.04819932
3.1e+08	-0.106112	-0.04142995	0.0001017424	-6.147555e-05	0.01535573	0.004539158	3.985285e-05	-4.558379e-05
	0.0001017424	-6.147555e-05	-0.1069303	-0.03840503	0.0005304022	0.0005742892	0.01518007	0.005503514
	0.01535573	0.004539158	0.0005304022	0.0005742892	-0.1060227	-0.04118928	0.0001035918	-6.107845e-05
	3.985285e-05	-4.558379e-05	0.01518007	0.005503514	0.0001035918	-6.107845e-05	-0.1069849	-0.03796728
3.2e+08	-0.1161251	-0.02844382	9.096013e-05	-7.365574e-05	0.01544767	0.002577896	3.341919e-05	-4.964361e-05
	9.096013e-05	-7.365574e-05	-0.1165779	-0.0251098	0.0006483442	0.0005174997	0.01539892	0.003629169
	0.01544767	0.002577896	0.0006483442	0.0005174997	-0.1160351	-0.02819327	9.302835e-05	-7.367086e-05
	3.341919e-05	-4.964361e-05	0.01539892	0.003629169	9.302835e-05	-7.367086e-05	-0.1165975	-0.02462905
3.3e+08	-0.1222587	-0.0132617	7.8792e-05	-8.366362e-05	0.01495215	0.0006866513	2.659675e-05	-5.285923e-05
	7.8792e-05	-8.366362e-05	-0.1222787	-0.009724224	0.0007656899	0.0004308173	0.01504879	0.001788474
	0.01495215	0.0006866513	0.0007656899	0.0004308173	-0.1221669	-0.01300057	8.095438e-05	-8.417221e-05
	2.659675e-05	-5.285923e-05	0.01504879	0.001788474	8.095438e-05	-8.417221e-05	-0.1222542	-0.009210257
3.4e+08	-0.1240781	0.002966611	6.579095e-05	-9.140394e-05	0.01391593	-0.0009752909	1.94876e-05	-5.519303e-05
	6.579095e-05	-9.140394e-05	-0.1236294	0.006584432	0.0008725943	0.0003119104	0.01416562	0.0001359968
	0.01391593	-0.0009752909	0.0008725943	0.0003119104	-0.1239832	0.003238582	6.789578e-05	-9.243961e-05
	1.94876e-05	-5.519303e-05	0.01416562	0.0001359968	6.789578e-05	-9.243961e-05	-0.1235546	0.007119301
3.5e+08	-0.1214756	0.01902463	5.247284e-05	-9.694803e-05	0.01242545	-0.00226867	1.219805e-05	-5.662072e-05
	5.247284e-05	-9.694803e-05	-0.1205584	0.02259153	0.0009583455	0.0001622695	0.01282385	-0.001190476
	0.01242545	-0.00226867	0.0009583455	0.0001622695	-0.1213762	0.01930718	5.436141e-05	-9.848955e-05
	1.219805e-05	-5.662072e-05	0.01282385	-0.001190476	5.436141e-05	-9.848955e-05	-0.1204307	0.02313339
3.6e+08	-0.1146738	0.03371663	3.926685e-05	-0.000100504	0.01060014	-0.003082596	4.83582e-06	-5.712908e-05
	3.926685e-05	-0.000100504	-0.1133256	0.03710355	0.001012882	-1.269294e-05	0.01113074	-0.002078031
	0.01060014	-0.003082596	0.001012882	-1.269294e-05	-0.1145685	0.03400904	4.079487e-05	-0.0001024748
	4.83582e-06	-5.712908e-05	0.01113074	-0.002078031	4.079487e-05	-0.0001024748	-0.1131464	0.03763795
3.7e+08	-0.1042073	0.04595238	2.647857e-05	-0.0001023752	0.00858465	-0.003341351	-2.490348e-06	-5.671483e-05
	2.647857e-05	-0.0001023752	-0.102502	0.04904309	0.001028242	-0.0002040855	0.009219617	-0.002445462
	0.00858465	-0.003341351	0.001028242	-0.0002040855	-0.1040951	0.04625349	2.753663e-05	-0.0001046524
	-2.490348e-06	-5.671483e-05	0.009219617	-0.002445462	2.753663e-05	-0.0001046524	-0.1022769	0.04955624
3.8e+08	-0.0908851	0.05482499	1.426687e-05	-0.0001029097	0.006539984	-0.00300984	-9.670056e-06	-5.538488e-05
	1.426687e-05	-0.0001029097	-0.08892873	0.05752623	0.0009997546	-0.000400502	0.007241946	-0.002249044
	0.006539984	-0.00300984	0.0009997546	-0.000400502	-0.09076538	0.05513332	1.4796e-05	-0.0001053407
	-9.670056e-06	-5.538488e-05	0.007241946	-0.002249044	1.4796e-05	-0.0001053407	-0.08866733	0.05800615
3.9e+08	-0.07573428	0.05967786	2.637284e-06	-0.0001024421	0.004633287	-0.002097524	-1.659045e-05	-5.315738e-05
	2.637284e-06	-0.0001024421	-0.07365791	0.06192821	0.0009267881	-0.0005893717	0.005357997	-0.001487048
	0.004633287	-0.002097524	0.0009267881	-0.0005893717	-0.07560674	0.05999172	2.636974e-06	-0.0001048661
	-1.659045e-05	-5.315738e-05	0.005357997	-0.001487048	2.636974e-06	-0.0001048661	-0.07337292	0.06236582
4e+08	-0.05992701	0.06015644	-8.542233e-06	-0.000101231	0.003026115	-0.0006602694	-2.313613e-05	-5.006414e-05
	-8.542233e-06	-0.000101231	-0.05787737	0.0619331	0.0008129564	-0.0007585172	0.003725776	-0.0002023964
	0.003026115	-0.0006602694	0.0008129564	-0.0007585172	-0.05979187	0.06047406	-9.01536e-06	-0.0001035029
	-2.313613e-05	-5.006414e-05	0.003725776	-0.0002023964	-9.01536e-06	-0.0001035029	-0.05758398	0.06232317
4.1e+08	-0.04469491	0.05624037	-1.949888e-05	-9.940299e-05	0.001861437	0.001200814	-2.919066e-05	-4.615407e-05
	-1.949888e-05	-9.940299e-05	-0.04282303	0.05756319	0.0006657029	-0.0008977019	0.002488466	0.001517516
	0.001861437	0.001200814	0.0006657029	-0.0008977019	-0.04455292	0.05656002	-2.034209e-05	-0.0001014149
	-2.919066e-05	-4.615407e-05	0.002488466	0.001517516	-2.034209e-05	-0.0001014149	-0.0425377	0.05790492
4.2e+08	-0.03123503	0.04825177	-3.048606e-05	-9.691448e-05	0.001250214	0.003344486	-3.464045e-05	-4.149627e-05
	-3.048606e-05	-9.691448e-05	-0.02968377	0.04918393	0.0004953069	-0.0009999209	0.001761156	0.003544859
	0.001250214	0.003344486	0.0004953069	-0.0009999209	-0.03108743	0.04857187	-3.156991e-05	-9.861111e-05
	-3.464045e-05	-4.149627e-05	0.001761156	0.003544859	-3.156991e-05	-9.861111e-05	-0.02942294	0.04948127
4.3e+08	-0.02061421	0.03683683	-4.169705e-05	-9.35489e-05	0.001259022	0.005599095	-3.938053e-05	-3.618153e-05
	-4.169705e-05	-9.35489e-05	-0.01950576	0.0374818	0.0003134406	-0.001062211	0.001618308	0.00571997
	0.001259022	0.005599095	0.0003134406	-0.001062211	-0.02046275	0.0371561	-4.288997e-05	-9.493394e-05
	-3.938053e-05	-3.618153e-05	0.001618308	0.00571997	-4.288997e-05	-9.493394e-05	-0.01928446	0.03774338
4.4e+08	-0.0136802	0.02291954	-5.317936e-05	-8.895639e-05	0.001900672	0.007776791	-4.33213e-05	-3.032096e-05
	-5.317936e-05	-8.895639e-05	-0.01310455	0.02341439	0.0001315002	-0.001085813	0.002083919	0.007864526
	0.001900672	0.007776791	0.0001315002	-0.001085813	-0.01352707	0.02323717	-5.43732e-05	-9.008749e-05
	-4.33213e-05	-3.032096e-05	0.00208392	0.007864526	-5.43732e-05	-9.008749e-05	-0.01293511	0.02365303
4.5e+08	-0.01098816	0.007629823	-6.477364e-05	-8.273576e-05	0.003129787	0.009691199	-4.639449e-05	-2.404182e-05
	-6.477364e-05	-8.273576e-05	-0.01099387	0.008135129	-4.099361e-05	-0.00107564	0.003126341	0.009798292
	0.003129787	0.009691199	-4.099361e-05	-0.00107564	-0.0108359	0.007945603	-6.590505e-05	-8.370884e-05
	-4.639449e-05	-2.404182e-05	0.003126341	0.009798292	-6.590505e-05	-8.370884e-05	-0.0108847	0.008366996
4.6e+08	-0.01275118	-0.007788821	-7.609816e-05	-7.454215e-05	0.004844802	0.01117647	-4.85569e-05	-1.748104e-05
	-7.609816e-05	-7.454215e-05	-0.01333921	-0.007101667	-0.0001976272	-0.001039113	0.004659258	0.0113575
	0.004844802	0.01117647	-0.0001976272	-0.001039113	-0.01260251	-0.007474316	-7.716139e-05	-7.546747e-05
	-4.85569e-05	-1.748104e-05	0.004659258	0.0113575	-7.716139e-05	-7.546747e-05	-0.01329395	-0.006858264
4.7e+08	-0.01882058	-0.02208358	-8.658901e-05	-6.419429e-05	0.006896817	0.01210506	-4.979107e-05	-1.077817e-05
	-8.658901e-05	-6.419429e-05	-0.01994227	-0.02104663	-0.0003357097	-0.0009846021	0.006549345	0.01241224
	0.006896817	0.01210506	-0.0003357097	-0.0009846021	-0.01867816	-0.02176889	-8.763705e-05	-6.516885e-05
	-4.979107e-05	-1.077817e-05	0.006549345	0.01241224	-8.763705e-05	-6.516885e-05	-0.0199592	-0.02077266
