!$
! Info: Touchstone file created by Circ.  Input file=Tx_12in_Rx_100ohms_TxVia_60mils_RxVia_70mils.circ
!$
# Hz S RI R 50
0	0.01246785	1.766569e-25	3.043068e-08	4.817713e-26	8.713929e-05	2.72397e-23	6.473726e-08	1.135157e-26
	3.043068e-08	4.81769e-26	0.01246318	1.906396e-25	6.263101e-08	1.568074e-25	8.391069e-05	3.040506e-23
	8.836461e-05	2.646533e-23	6.263102e-08	1.568062e-25	0.01247835	1.751932e-25	2.361179e-08	6.429362e-26
	6.473728e-08	1.13519e-26	8.418012e-05	3.053544e-23	2.361209e-08	6.429919e-26	0.01247751	1.898111e-25
1e+07	0.01851455	0.007494286	5.39858e-08	9.021429e-08	0.000832798	0.00226681	1.46053e-07	2.589156e-07
	5.398581e-08	9.02143e-08	0.01850707	0.007493816	8.516026e-08	2.83818e-07	0.0008289209	0.002268015
	0.0008328689	0.002266778	8.516026e-08	2.83818e-07	0.01834864	0.007524132	4.305834e-08	1.257569e-07
	1.46053e-07	2.589156e-07	0.0008289238	0.002268013	4.305833e-08	1.257568e-07	0.01834023	0.007524074
2e+07	0.02428213	0.01012449	9.661396e-08	1.516896e-07	0.001512591	0.004589878	3.330505e-07	3.840195e-07
	9.661398e-08	1.516896e-07	0.0242521	0.01012754	1.408841e-07	4.840011e-07	0.001497801	0.004595376
	0.001512577	0.004589841	1.408841e-07	4.840011e-07	0.02418054	0.01023677	1.006654e-07	1.713884e-07
	3.330505e-07	3.840195e-07	0.001497798	0.004595377	1.006654e-07	1.713884e-07	0.02414678	0.01024117
3e+07	0.0292617	0.0102926	1.476038e-07	1.94457e-07	0.002697311	0.006457108	5.660056e-07	4.30174e-07
	1.476038e-07	1.94457e-07	0.02919589	0.01030992	1.843524e-07	6.775316e-07	0.002666036	0.006472298
	0.002697307	0.006457107	1.843524e-07	6.775316e-07	0.02921705	0.01043109	1.615102e-07	2.147448e-07
	5.660056e-07	4.30174e-07	0.002666036	0.0064723	1.615102e-07	2.147448e-07	0.02914342	0.0104522
4e+07	0.03363329	0.009023029	2.015396e-07	2.170756e-07	0.00430787	0.007894148	8.203267e-07	3.854746e-07
	2.015396e-07	2.170756e-07	0.03352255	0.009069376	2.197946e-07	8.649403e-07	0.004256636	0.007926236
	0.004307876	0.007894148	2.197946e-07	8.649403e-07	0.03364092	0.009166403	2.214281e-07	2.39104e-07
	8.203267e-07	3.854746e-07	0.004256637	0.007926237	2.214281e-07	2.39104e-07	0.03351728	0.009220591
5e+07	0.03733149	0.006647332	2.523334e-07	2.18922e-07	0.006353201	0.008739104	1.068578e-06	2.423814e-07
	2.523334e-07	2.18922e-07	0.03717219	0.006740855	2.481938e-07	1.044627e-06	0.0062811	0.008796152
	0.006353204	0.008739102	2.481938e-07	1.044627e-06	0.0373851	0.006780458	2.769903e-07	2.415855e-07
	1.068578e-06	2.423814e-07	0.006281101	0.008796152	2.769903e-07	2.415855e-07	0.03720745	0.006888108
6e+07	0.04025233	0.003406068	2.93843e-07	2.013964e-07	0.008490479	0.009056427	1.278529e-06	1.590583e-09
	2.93843e-07	2.013963e-07	0.04004744	0.003565741	2.690917e-07	1.21787e-06	0.00839947	0.009146824
	0.008490478	0.009056428	2.690917e-07	1.21787e-06	0.04034383	0.003517457	3.222947e-07	2.231285e-07
	1.278529e-06	1.590581e-09	0.008399471	0.009146824	3.222947e-07	2.231285e-07	0.04011573	0.003699792
7e+07	0.04229612	-0.000480601	3.199388e-07	1.675368e-07	0.01059398	0.008845253	1.417604e-06	-3.254168e-07
	3.199388e-07	1.675368e-07	0.04205485	-0.00023727	2.817176e-07	1.386593e-06	0.01048878	0.008976713
	0.01059397	0.008845258	2.817176e-07	1.386593e-06	0.04241585	-0.0003994041	3.508791e-07	1.867646e-07
	1.417604e-06	-3.254168e-07	0.01048878	0.008976713	3.508791e-07	1.867646e-07	0.04214779	-0.0001229618
8e+07	0.04338848	-0.004791583	3.254206e-07	1.222085e-07	0.01253972	0.008132986	1.45707e-06	-7.165939e-07
	3.254205e-07	1.222085e-07	0.04312536	-0.004450189	2.855288e-07	1.553085e-06	0.01242753	0.008311749
	0.01253972	0.008132992	2.855288e-07	1.553085e-06	0.04352559	-0.004746101	3.570853e-07	1.375925e-07
	1.45707e-06	-7.165939e-07	0.01242753	0.008311748	3.570853e-07	1.375925e-07	0.04323387	-0.004359628
9e+07	0.04349226	-0.009301921	3.066035e-07	7.179637e-08	0.01421225	0.006974743	1.375408e-06	-1.140983e-06
	3.066035e-07	7.179637e-08	0.04322615	-0.008852482	2.804585e-07	1.719853e-06	0.01410227	0.007204875
	0.01421225	0.006974748	2.804585e-07	1.719853e-06	0.04363501	-0.009294769	3.367732e-07	8.243911e-08
	1.375408e-06	-1.140983e-06	0.01410227	0.007204874	3.367732e-07	8.243911e-08	0.04334068	-0.008787215
1e+08	0.04262877	-0.01378287	2.617593e-07	2.37146e-08	0.0155046	0.005448717	1.160827e-06	-1.561305e-06
	2.617593e-07	2.37146e-08	0.04238157	-0.01322098	2.670831e-07	1.889428e-06	0.01540737	0.005731571
	0.0155046	0.005448717	2.670831e-07	1.889428e-06	0.04276332	-0.01381424	2.878527e-07	2.93708e-08
	1.160827e-06	-1.561305e-06	0.01540737	0.005731571	2.878527e-07	2.93708e-08	0.04249088	-0.0131807
1.1e+08	0.04081785	-0.0181206	1.915155e-07	-1.487865e-08	0.01634997	0.00370189	8.178125e-07	-1.940456e-06
	1.915155e-07	-1.487865e-08	0.04061377	-0.01744866	2.441199e-07	2.066581e-06	0.01627667	0.004035676
	0.01634997	0.00370189	2.441199e-07	2.066581e-06	0.04093346	-0.01817734	2.110404e-07	-1.265419e-08
	8.178125e-07	-1.940456e-06	0.01627667	0.004035677	2.110404e-07	-1.265419e-08	0.04071017	-0.01742078
1.2e+08	0.03806659	-0.02202177	9.799356e-08	-3.618733e-08	0.01673466	0.001811498	3.536066e-07	-2.239424e-06
	9.799356e-08	-3.618733e-08	0.03792885	-0.02124879	2.149099e-07	2.253016e-06	0.01669598	0.002191108
	0.01673466	0.001811498	2.149099e-07	2.253016e-06	0.0381618	-0.022098	1.08738e-07	-3.574913e-08
	3.536066e-07	-2.239424e-06	0.01669598	0.002191108	1.08738e-07	-3.574913e-08	0.03801363	-0.02122875
1.3e+08	0.03452919	-0.02528837	-1.427359e-08	-3.326818e-08	0.01662646	-0.0001076097	-2.10912e-07	-2.422556e-06
	-1.427359e-08	-3.326818e-08	0.03447873	-0.02443022	1.82022e-07	2.450666e-06	0.0166318	0.0003096301
	0.01662646	-0.0001076095	1.82022e-07	2.450666e-06	0.03460116	-0.02537839	-1.409075e-08	-3.231467e-08
	-2.10912e-07	-2.422556e-06	0.0166318	0.0003096312	-1.409075e-08	-3.231467e-08	0.03455143	-0.02441444
1.4e+08	0.0303757	-0.02776647	-1.388057e-07	-4.285777e-10	0.01603132	-0.00193417	-8.448266e-07	-2.460049e-06
	-1.388057e-07	-4.285795e-10	0.03042919	-0.02684514	1.485471e-07	2.660861e-06	0.01608787	-0.001490225
	0.01603132	-0.00193417	1.485471e-07	2.660861e-06	0.03042242	-0.02786402	-1.503494e-07	3.879666e-09
	-8.448266e-07	-2.460049e-06	0.01608787	-0.001490224	-1.503494e-07	3.879665e-09	0.03048963	-0.02683017
1.5e+08	0.02580036	-0.02934433	-2.675166e-07	6.624827e-08	0.01498603	-0.003551781	-1.508941e-06	-2.330678e-06
	-2.675166e-07	6.624827e-08	0.02596852	-0.02838673	1.179562e-07	2.884125e-06	0.01509808	-0.003094181
	0.01498603	-0.003551781	1.179562e-07	2.884125e-06	0.02582116	-0.02944273	-2.911854e-07	7.711849e-08
	-1.508941e-06	-2.330678e-06	0.01509808	-0.00309418	-2.911854e-07	7.71185e-08	0.02601708	-0.02836922
1.6e+08	0.02101419	-0.02995607	-3.912006e-07	1.684637e-07	0.01355532	-0.004856528	-2.158194e-06	-2.023985e-06
	-3.912006e-07	1.684637e-07	0.0213004	-0.02899229	9.389006e-08	3.120053e-06	0.01372361	-0.004399637
	0.01355532	-0.004856528	9.389006e-08	3.120053e-06	0.02100995	-0.03004852	-4.265243e-07	1.892607e-07
	-2.158194e-06	-2.023985e-06	0.01372361	-0.004399636	-4.265243e-07	1.892607e-07	0.02133811	-0.02896916
1.7e+08	0.01623537	-0.02958393	-5.001416e-07	3.053959e-07	0.01182769	-0.005763515	-2.744633e-06	-1.541799e-06
	-5.001416e-07	3.053959e-07	0.01663482	-0.02864528	7.990882e-08	3.367255e-06	0.01204906	-0.005322046
	0.01182769	-0.005763515	7.990882e-08	3.367255e-06	0.01620859	-0.02966397	-5.457369e-07	3.394049e-07
	-2.744633e-06	-1.541799e-06	0.01204906	-0.005322046	-5.457369e-07	3.394049e-07	0.01666332	-0.02861383
1.8e+08	0.01167894	-0.02825859	-5.848084e-07	4.735603e-07	0.009909846	-0.006212163	-3.220762e-06	-8.989254e-07
	-5.848084e-07	4.735603e-07	0.01217831	-0.02737535	7.922031e-08	3.623361e-06	0.01017718	-0.005800118
	0.009909847	-0.006212163	7.922031e-08	3.623361e-06	0.0116337	-0.02832049	-6.383994e-07	5.237397e-07
	-3.220762e-06	-8.989254e-07	0.01017718	-0.005800118	-6.383994e-07	5.237397e-07	0.01219982	-0.02733339
1.9e+08	0.007546472	-0.02605721	-6.365877e-07	6.668644e-07	0.007920196	-0.006169964	-3.543033e-06	-1.229372e-07
	-6.365877e-07	6.668644e-07	0.008124237	-0.02525629	9.440763e-08	3.885121e-06	0.008222562	-0.005799562
	0.007920196	-0.006169964	9.440763e-08	3.885121e-06	0.007488243	-0.02609633	-6.950935e-07	7.356058e-07
	-3.543033e-06	-1.229372e-07	0.008222563	-0.005799562	-6.950935e-07	7.356058e-07	0.008141346	-0.0252023
2e+08	0.00401623	-0.02309915	-6.484997e-07	8.768689e-07	0.005981486	-0.005634504	-3.675246e-06	7.469784e-07
	-6.484997e-07	8.768689e-07	0.004643548	-0.02240194	1.271817e-07	4.148569e-06	0.006304639	-0.005315159
	0.005981486	-0.005634504	1.271817e-07	4.148569e-06	0.003951577	-0.02311233	-7.081859e-07	9.657822e-07
	-3.675246e-06	7.469784e-07	0.006304639	-0.005315159	-7.081859e-07	9.657822e-07	0.004659134	-0.02233512
2.1e+08	0.001234528	-0.01953969	-6.158354e-07	1.093248e-06	0.004213264	-0.004633592	-3.591592e-06	1.662065e-06
	-6.158354e-07	1.093248e-06	0.001876739	-0.01896011	1.781834e-07	4.409269e-06	0.004540389	-0.004371034
	0.004213264	-0.004633592	1.781834e-07	4.409269e-06	0.001170726	-0.01952549	-6.725208e-07	1.202988e-06
	-3.591592e-06	1.662065e-06	0.004540389	-0.004371034	-6.725208e-07	1.202988e-06	0.001893728	-0.01888041
2.2e+08	-0.0006913666	-0.01556191	-5.366565e-07	1.304422e-06	0.002724522	-0.003223525	-3.279114e-06	2.56683e-06
	-5.366565e-07	1.304422e-06	-7.275848e-05	-0.01510487	2.468588e-07	4.662617e-06	0.003037212	-0.003019125
	0.002724523	-0.003223525	2.468588e-07	4.662617e-06	-0.0007467749	-0.01552078	-5.85966e-07	1.434575e-06
	-3.279114e-06	2.56683e-06	0.003037212	-0.003019125	-5.85966e-07	1.434575e-06	-5.156253e-05	-0.01501301
2.3e+08	-0.001698312	-0.01136712	-4.12112e-07	1.498328e-06	0.001607021	-0.001485578	-2.739376e-06	3.402498e-06
	-4.12112e-07	1.498328e-06	-0.001143265	-0.01102755	3.314226e-07	4.904171e-06	0.001886421	-0.001335936
	0.001607021	-0.001485578	3.314226e-07	4.904171e-06	-0.001737994	-0.01130145	-4.497558e-07	1.647359e-06
	-2.739376e-06	3.402498e-06	0.001886421	-0.001335936	-4.497558e-07	1.647359e-06	-0.001115365	-0.01092494
2.4e+08	-0.001770104	-0.007164455	-2.465339e-07	1.663254e-06	0.000929702	0.0004790413	-1.9892e-06	4.110845e-06
	-2.465339e-07	1.663254e-06	-0.001317431	-0.006926921	4.289193e-07	5.129988e-06	0.001157758	0.0005821982
	0.000929702	0.0004790412	4.289193e-07	5.129988e-06	-0.00178743	-0.007078462	-2.685984e-07	1.828537e-06
	-1.9892e-06	4.110845e-06	0.001157758	0.0005821982	-2.685984e-07	1.828537e-06	-0.001280804	-0.00681559
2.5e+08	-0.0009378172	-0.00316005	-4.730054e-08	1.788693e-06	0.0007345456	0.002555436	-1.060371e-06	4.638175e-06
	-4.730054e-08	1.788693e-06	-0.000622502	-0.002999121	5.353789e-07	5.336936e-06	0.0008952616	0.002625033
	0.0007345456	0.002555436	5.353789e-07	5.336936e-06	-0.0009273153	-0.003059621	-5.052868e-08	1.966608e-06
	-1.060371e-06	4.638175e-06	0.0008952616	0.002625033	-5.052868e-08	1.966608e-06	-0.0005757338	-0.00288153
2.6e+08	0.0007223058	0.0004535176	1.755293e-07	1.86613e-06	0.001034103	0.004622072	1.678841e-09	4.939153e-06
	1.755293e-07	1.86613e-06	0.0008716692	0.0005722698	6.460556e-07	5.52295e-06	0.001114732	0.004675137
	0.001034103	0.004622072	6.460556e-07	5.52295e-06	0.0007645447	0.000561174	1.934871e-07	2.052238e-06
	1.678841e-09	4.939153e-06	0.001114732	0.004675137	1.934871e-07	2.052238e-06	0.0009292928	0.0006933705
2.7e+08	0.003093316	0.003507013	4.097852e-07	1.889712e-06	0.001810844	0.006558181	1.14017e-06	4.980232e-06
	4.097852e-07	1.889712e-06	0.003056806	0.003625338	7.55729e-07	5.687213e-06	0.001802923	0.006614999
	0.001810844	0.006558181	7.55729e-07	5.687213e-06	0.003169325	0.003613768	4.501666e-07	2.078991e-06
	1.14017e-06	4.980232e-06	0.001802923	0.006614998	4.501666e-07	2.078991e-06	0.003125247	0.003747099
2.8e+08	0.006024109	0.005863011	6.419134e-07	1.856752e-06	0.003018337	0.008251064	2.290111e-06	4.742422e-06
	6.419134e-07	1.856752e-06	0.005792303	0.006027733	8.590421e-07	5.830249e-06	0.002918491	0.008334064
	0.003018337	0.008251064	8.590421e-07	5.830249e-06	0.00613384	0.005960302	7.047028e-07	2.04388e-06
	2.290111e-06	4.742422e-06	0.002918491	0.008334064	7.047028e-07	2.04388e-06	0.005870775	0.006147404
2.9e+08	0.009337699	0.007422597	8.578132e-07	1.768021e-06	0.00458415	0.009602839	3.382084e-06	4.223224e-06
	8.578132e-07	1.768021e-06	0.008912911	0.007682933	9.508488e-07	5.953923e-06	0.004394608	0.009735304
	0.00458415	0.009602839	9.508488e-07	5.953923e-06	0.009478941	0.007501961	9.416739e-07	1.947692e-06
	3.382084e-06	4.223224e-06	0.004394608	0.009735304	9.416739e-07	1.947692e-06	0.008999922	0.007798051
3e+08	0.01284075	0.008129989	1.043721e-06	1.627817e-06	0.006414287	0.01053626	4.346461e-06	3.437556e-06
	1.043721e-06	1.627817e-06	0.01223757	0.008534573	1.026545e-06	6.061346e-06	0.006143064	0.01074091
	0.006414287	0.01053626	1.026545e-06	6.061346e-06	0.01300919	0.008183602	1.146008e-06	1.795076e-06
	4.346461e-06	3.437556e-06	0.006143064	0.01074091	1.146008e-06	1.795076e-06	0.01233103	0.008643134
3.1e+08	0.01633385	0.007974844	1.187084e-06	1.443823e-06	0.008398863	0.01099928	5.117772e-06	2.41762e-06
	1.187084e-06	1.443823e-06	0.01557894	0.008568647	1.08236e-06	6.156713e-06	0.008059581	0.01129683
	0.008398863	0.01099928	1.08236e-06	6.156713e-06	0.01652324	0.00799604	1.303941e-06	1.594385e-06
	5.117772e-06	2.41762e-06	0.008059581	0.01129683	1.303941e-06	1.594385e-06	0.01567626	0.008669248
3.2e+08	0.01962196	0.006992165	1.277373e-06	1.226742e-06	0.01041868	0.01096807	5.638973e-06	1.211671e-06
	1.277373e-06	1.226742e-06	0.01875304	0.007813496	1.115595e-06	6.245068e-06	0.01003003	0.01137584
	0.01041868	0.01096807	1.115595e-06	6.245068e-06	0.01982446	0.006975902	1.403904e-06	1.35729e-06
	5.638973e-06	1.211671e-06	0.01003003	0.01137584	1.403904e-06	1.35729e-06	0.01885136	0.007905441
3.3e+08	0.02252454	0.005259855	1.306784e-06	9.897575e-07	0.01235229	0.01044838	5.86534e-06	-1.18241e-07
	1.306784e-06	9.897575e-07	0.0215887	0.006337646	1.124799e-06	6.332032e-06	0.01193718	0.01097908
	0.01235229	0.01044838	1.124799e-06	6.332032e-06	0.02273112	0.005203089	1.4373e-06	1.098193e-06
	5.86534e-06	-1.18241e-07	0.01193718	0.01097908	1.4373e-06	1.098193e-06	0.02168502	0.006420999
3.4e+08	0.02488473	0.00289408	1.270793e-06	7.478397e-07	0.01408321	0.009475217	5.767755e-06	-1.49946e-06
	1.270793e-06	7.478397e-07	0.02393602	0.00424562	1.109872e-06	6.423504e-06	0.01366757	0.01013593
	0.01408321	0.009475217	1.109872e-06	6.423504e-06	0.02508571	0.002796041	1.399121e-06	8.334661e-07
	5.767755e-06	-1.49946e-06	0.01366757	0.01013593	1.399121e-06	8.334661e-07	0.02402742	0.004321224
3.5e+08	0.02657731	4.268411e-05	1.168551e-06	5.169377e-07	0.01550676	0.008110795	5.335159e-06	-2.852665e-06
	1.168551e-06	5.169377e-07	0.02567381	0.001671973	1.072111e-06	6.525341e-06	0.01511814	0.008902262
	0.01550676	0.008110795	1.072111e-06	6.525341e-06	0.02676289	-9.49952e-05	1.288377e-06	5.805741e-07
	5.335159e-06	-2.852665e-06	0.01511814	0.008902262	1.288377e-06	5.805741e-07	0.02575765	0.001741407
3.6e+08	0.02751482	-0.003122944	1.003074e-06	3.130947e-07	0.01653627	0.006440895	4.576024e-06	-4.096372e-06
	1.003074e-06	3.130947e-07	0.02671535	-0.001226105	1.014174e-06	6.643049e-06	0.01620231	0.00735716
	0.01653627	0.006440895	1.014174e-06	6.643049e-06	0.02767572	-0.003296228	1.108316e-06	3.570981e-07
	4.576024e-06	-4.096372e-06	0.01620231	0.00735716	1.108316e-06	3.570981e-07	0.02678943	-0.001160608
3.7e+08	0.02765175	-0.006417168	7.812375e-07	1.515271e-07	0.01710827	0.004569901	3.518711e-06	-5.151737e-06
	7.812375e-07	1.515271e-07	0.02701234	-0.00427725	9.400024e-07	6.781474e-06	0.01685501	0.005598345
	0.01710827	0.004569901	9.400024e-07	6.781474e-06	0.02777976	-0.006619772	8.664225e-07	1.797252e-07
	3.518711e-06	-5.151737e-06	0.01685501	0.005598345	8.664225e-07	1.797252e-07	0.0270751	-0.004212937
3.8e+08	0.02698647	-0.00965005	5.135639e-07	4.570869e-08	0.01718628	0.002614721	2.21065e-06	-5.947402e-06
	5.135639e-07	4.570869e-08	0.02655689	-0.007305019	8.546564e-07	6.944514e-06	0.01703658	0.003736488
	0.01718628	0.002614721	8.546564e-07	6.944514e-06	0.02707502	-0.009873736	5.741813e-07	6.324176e-08
	2.21065e-06	-5.947402e-06	0.01703658	0.003736488	5.741813e-07	6.324176e-08	0.02660748	-0.007238776
3.9e+08	0.02556089	-0.01263747	2.1379e-07	6.50397e-09	0.01676315	0.0006979437	7.163577e-07	-6.424098e-06
	2.1379e-07	6.50397e-09	0.0253814	-0.01013714	7.641077e-07	7.13486e-06	0.01673519	0.001888762
	0.01676315	0.0006979437	7.641077e-07	7.13486e-06	0.02560549	-0.01287247	2.466063e-07	1.958038e-08
	7.163577e-07	-6.424098e-06	0.01673519	0.001888762	2.466063e-07	1.958038e-08	0.02541976	-0.01006569
4e+08	0.02345783	-0.01521085	-1.017646e-07	4.139677e-08	0.01586166	-0.001059376	-8.85658e-07	-6.538735e-06
	-1.017646e-07	4.139677e-08	0.02355632	-0.01261448	6.749622e-07	7.353779e-06	0.01596763	0.0001719863
	0.01586166	-0.001059376	6.749622e-07	7.353779e-06	0.02345645	-0.01544641	-9.845422e-08	5.697362e-08
	-8.85658e-07	-6.538735e-06	0.01596763	0.0001719863	-9.845422e-08	5.697362e-08	0.02358326	-0.01253459
4.1e+08	0.02079624	-0.0172261	-4.150204e-07	1.538651e-07	0.01453338	-0.002544915	-2.506974e-06	-6.267698e-06
	-4.150204e-07	1.538651e-07	0.02118604	-0.01459926	5.941282e-07	7.600954e-06	0.01477849	-0.001304264
	0.01453338	-0.002544915	5.941282e-07	7.600954e-06	0.02074948	-0.01745106	-4.412198e-07	1.792689e-07
	-2.506974e-06	-6.267698e-06	0.01477849	-0.001304264	-4.412198e-07	1.792689e-07	0.02120314	-0.01450794
4.2e+08	0.01772453	-0.01857112	-7.071194e-07	3.429502e-07	0.0128558	-0.003661831	-4.054104e-06	-5.609123e-06
	-7.071194e-07	3.429502e-07	0.01840299	-0.01598212	5.284377e-07	7.874394e-06	0.01323769	-0.002444177
	0.0128558	-0.003661831	5.284377e-07	7.874394e-06	0.01763574	-0.01877462	-7.610547e-07	3.854584e-07
	-4.054104e-06	-5.609123e-06	0.01323769	-0.002444177	-7.610547e-07	3.854584e-07	0.01841259	-0.01587683
4.3e+08	0.01441234	-0.01917168	-9.595237e-07	6.030664e-07	0.01092795	-0.004334673	-5.43388e-06	-4.583957e-06
	-9.595237e-07	6.030664e-07	0.0153603	-0.01668761	4.842346e-07	8.17044e-06	0.01143648	-0.003171473
	0.01092795	-0.004334673	4.842346e-07	8.17044e-06	0.01428748	-0.01934378	-1.03767e-06	6.694724e-07
	-5.43388e-06	-4.583957e-06	0.01143648	-0.003171473	-1.03767e-06	6.694724e-07	0.01536532	-0.01656644
4.4e+08	0.01104122	-0.01899521	-1.155169e-06	9.240864e-07	0.008864644	-0.004514069	-6.559056e-06	-3.235682e-06
	-1.155169e-06	9.240864e-07	0.01222344	-0.01667796	4.669535e-07	8.483871e-06	0.009482132	-0.003434063
	0.008864644	-0.004514069	4.669535e-07	8.483871e-06	0.01088859	-0.01912755	-1.252383e-06	1.020276e-06
	-6.559056e-06	-3.235682e-06	0.009482132	-0.003434063	-1.252383e-06	1.020276e-06	0.01222724	-0.01653976
4.5e+08	0.007794543	-0.01805231	-1.279601e-06	1.291726e-06	0.006789679	-0.004179907	-7.353802e-06	-1.628646e-06
	-1.279601e-06	1.291726e-06	0.009161155	-0.01595467	4.80719e-07	8.808131e-06	0.007491683	-0.003207313
	0.006789679	-0.004179907	4.80719e-07	8.808131e-06	0.007624406	-0.01813866	-1.389362e-06	1.42229e-06
	-7.353802e-06	-1.628646e-06	0.007491683	-0.003207313	-1.389362e-06	1.42229e-06	0.009167343	-0.01579916
4.6e+08	0.004847534	-0.01639593	-1.322018e-06	1.688224e-06	0.004828507	-0.003342777	-7.758717e-06	1.549596e-07
	-1.322018e-06	1.688224e-06	0.006336379	-0.01455816	5.279987e-07	9.135662e-06	0.005584955	-0.002495679
	0.004828507	-0.003342777	5.279987e-07	9.135662e-06	0.004671531	-0.01643265	-1.436756e-06	1.856135e-06
	-7.758717e-06	1.549596e-07	0.005584955	-0.002495679	-1.436756e-06	1.856135e-06	0.006348557	-0.01438595
4.7e+08	0.002357581	-0.0141182	-1.276123e-06	2.093293e-06	0.00310067	-0.002043566	-7.73505e-06	2.01934e-06
	-1.276123e-06	2.093293e-06	0.003897393	-0.01256514	6.093478e-07	9.45833e-06	0.003877418	-0.001332607
	0.00310067	-0.002043566	6.093478e-07	9.45833e-06	0.002188102	-0.01410444	-1.38762e-06	2.299665e-06
	-7.73505e-06	2.01934e-06	0.003877418	-0.001332607	-1.38762e-06	2.299665e-06	0.00391896	-0.01237768
4.8e+08	0.0004556581	-0.0113451	-1.140729e-06	2.485296e-06	0.001712552	-0.0003511994	-7.267795e-06	3.860347e-06
	-1.140729e-06	2.485296e-06	0.0019699	-0.01008415	7.23263e-07	9.767939e-06	0.002473235	0.0002213267
