!$
! Info: Touchstone file created by Circ.  Input file=Tx_14in_Rx_100ohms_TxVia_60mils_RxVia_70mils.circ
!$
# Hz S RI R 50
0	0.0144895	1.99406e-25	0.98537	-1.95088e-25	9.745013e-05	3.167865e-23	-9.280406e-05	2.260604e-21
	0.98537	-1.972399e-25	0.01448483	2.164518e-25	-9.328154e-05	2.319154e-21	9.423342e-05	3.53628e-23
	9.867645e-05	3.077802e-23	-9.259632e-05	2.235228e-21	0.01449991	1.97743e-25	0.9853486	-1.903133e-25
	-9.30715e-05	2.293346e-21	9.450274e-05	3.551445e-23	0.9853487	-1.993019e-25	0.01449909	2.155186e-25
1e+07	0.02164748	0.008229533	0.9685712	-0.1439147	0.001009134	0.00256967	-0.0006758823	-0.0002145146
	0.9685712	-0.1439147	0.02163879	0.008229165	-0.0006759821	-0.0002144487	0.001004655	0.002571164
	0.001009205	0.002569638	-0.0006759502	-0.0002144706	0.0214534	0.008267422	0.9687557	-0.1440308
	-0.0006758504	-0.0002145365	0.001004658	0.002571162	0.9687557	-0.1440308	0.02144364	0.008267554
2e+07	0.0285052	0.01052904	0.9335135	-0.278953	0.001931358	0.005156604	-0.0006419709	-0.0006462299
	0.9335135	-0.278953	0.02847066	0.01053398	-0.0006419973	-0.00064613	0.001914505	0.005163651
	0.001931344	0.005156566	-0.0006420072	-0.000646148	0.02839028	0.01066201	0.9335894	-0.27924
	-0.0006419689	-0.0006462664	0.001914502	0.005163651	0.9335894	-0.27924	0.02835151	0.01066868
3e+07	0.03427434	0.00976441	0.8816096	-0.4057829	0.003481032	0.007124836	-0.00069154	-0.0008265811
	0.8816096	-0.4057829	0.03419988	0.009788795	-0.0006915913	-0.0008265025	0.003446099	0.007144442
	0.003481029	0.007124835	-0.0006915929	-0.0008265019	0.03422896	0.009924364	0.8815661	-0.4061662
	-0.0006915428	-0.0008265843	0.003446099	0.007144444	0.8815661	-0.4061662	0.03414577	0.00995363
4e+07	0.03907068	0.007196584	0.813527	-0.5233129	0.005519212	0.008477234	-0.0008123236	-0.0009002529
	0.813527	-0.5233129	0.03894852	0.007259368	-0.000812405	-0.0009001134	0.005463622	0.008518441
	0.005519218	0.008477234	-0.0008124014	-0.000900114	0.03908752	0.007356721	0.813352	-0.523756
	-0.0008123145	-0.0009002496	0.005463623	0.008518442	0.813352	-0.523756	0.03895135	0.007429604
5e+07	0.04275159	0.003305054	0.7305196	-0.6297342	0.007984222	0.009009778	-0.001119735	-0.000753001
	0.7305196	-0.6297342	0.042582	0.003428187	-0.001119783	-0.0007527658	0.007909055	0.009082167
	0.007984225	0.009009777	-0.001119781	-0.0007527672	0.04282065	0.003446733	0.7302042	-0.6302039
	-0.001119729	-0.000753002	0.007909056	0.009082168	0.7302042	-0.6302039	0.04263192	0.003587827
6e+07	0.04516411	-0.00151906	0.6341694	-0.7232848	0.01043546	0.00883259	-0.001351219	-0.0005445308
	0.6341694	-0.7232848	0.04495626	-0.001314387	-0.001351176	-0.0005442144	0.01034565	0.008945285
	0.01043546	0.008832591	-0.001351176	-0.0005442137	0.04527291	-0.001409065	0.6337094	-0.723749
	-0.001351224	-0.0005445283	0.01034565	0.008945285	0.6337094	-0.723749	0.04504213	-0.001176128
7e+07	0.0461966	-0.006899797	0.5263199	-0.802376	0.0126825	0.007984887	-0.001507849	-0.00030487
	0.5263199	-0.802376	0.04596748	-0.006596465	-0.00150768	-0.0003045071	0.01258638	0.008145092
	0.0126825	0.007984892	-0.00150768	-0.0003045038	0.04633091	-0.006829885	0.5257164	-0.8028027
	-0.001507861	-0.0003048572	0.01258638	0.008145092	0.5257164	-0.8028027	0.04607727	-0.006486209
8e+07	0.04580503	-0.01246188	0.4090281	-0.8656555	0.01455133	0.006554827	-0.001597174	-5.756321e-05
	0.4090281	-0.8656555	0.04557749	-0.01204921	-0.001596856	-5.719482e-05	0.01445984	0.00676672
	0.01455133	0.006554833	-0.001596856	-5.719055e-05	0.04594973	-0.01243578	0.4082876	-0.8660136
	-0.001597184	-5.754239e-05	0.01445984	0.00676672	0.4082876	-0.8660136	0.04569881	-0.01196968
9e+07	0.04402524	-0.01783864	0.2845194	-0.912046	0.01589738	0.004673996	-0.001630067	0.0001814014
	0.2845194	-0.912046	0.04382567	-0.01731401	-0.001629593	0.000181731	0.01582301	0.004937916
	0.01589738	0.004674001	-0.001629592	0.0001817341	0.04416521	-0.01785555	0.2836544	-0.9123059
	-0.00163007	0.0001814194	0.01582301	0.004937916	0.2836544	-0.9123059	0.04394643	-0.0172643
1e+08	0.04099177	-0.02268643	0.155121	-0.9407734	0.01660962	0.002507097	-0.001606691	0.0004048977
	0.155121	-0.9407734	0.04084737	-0.02205628	-0.001606066	0.000405143	0.01656505	0.002819119
	0.01660962	0.002507097	-0.001606066	0.0004051429	0.04111107	-0.02274155	0.1541528	-0.9409074
	-0.001606691	0.0004048977	0.01656505	0.002819119	0.1541528	-0.9409074	0.04095477	-0.02203242
1.1e+08	0.03684609	-0.02680192	0.0233436	-0.9512326	0.01665575	0.0002850463	-0.00156674	0.0005458456
	0.0233436	-0.9512326	0.0367827	-0.02608223	-0.001566012	0.000545922	0.01665252	0.0006368869
	0.01665575	0.0002850463	-0.001566012	0.0005459221	0.03693595	-0.02687685	0.02229247	-0.9512315
	-0.00156674	0.0005458457	0.01665252	0.0006368871	0.02229247	-0.9512315	0.03687112	-0.02606806
1.2e+08	0.03178242	-0.02982591	-0.1082213	-0.9434553	0.01606609	-0.001848958	-0.001566068	0.0006764464
	-0.1082213	-0.9434553	0.03182023	-0.0290408	-0.001565303	0.0006763209	0.01611299	-0.00146949
	0.01606609	-0.001848958	-0.001565302	0.000676321	0.0318432	-0.02991175	-0.1093409	-0.9432984
	-0.001566067	0.0006764465	0.01611299	-0.001469489	-0.1093409	-0.9432984	0.03189225	-0.02903054
1.3e+08	0.02614393	-0.03157035	-0.2371283	-0.9176881	0.01487967	-0.003719079	-0.001590735	0.0008201999
	-0.2371283	-0.9176881	0.02629536	-0.03075073	-0.001590011	0.0008198698	0.01498159	-0.003327068
	0.01487967	-0.003719079	-0.001590011	0.0008198698	0.02617544	-0.03165838	-0.2382936	-0.9173562
	-0.001590735	0.0008201999	0.01498158	-0.003327067	-0.2382936	-0.9173562	0.02635202	-0.03073954
1.4e+08	0.02028329	-0.03194121	-0.3609573	-0.8745028	0.01319352	-0.005167688	-0.001630505	0.0009959562
	-0.3609573	-0.8745028	0.02055083	-0.03112215	-0.001629895	0.0009954524	0.01335052	-0.004779861
	0.01319352	-0.005167688	-0.001629894	0.0009954523	0.02028717	-0.03202281	-0.3621409	-0.8739804
	-0.001630505	0.0009959561	0.01335052	-0.00477986	-0.3621409	-0.8739804	0.02059375	-0.03110568
1.5e+08	0.01455843	-0.03093722	-0.4773848	-0.8147965	0.01114676	-0.006071171	-0.001668908	0.00121797
	-0.4773848	-0.8147965	0.01493342	-0.0301547	-0.001668465	0.001217353	0.01135366	-0.00570436
	0.01114676	-0.006071171	-0.001668465	0.001217352	0.01453849	-0.03100444	-0.4785554	-0.8140725
	-0.001668908	0.001217969	0.01135366	-0.005704359	-0.4785554	-0.8140725	0.01496504	-0.0301293
1.6e+08	0.009311377	-0.02864789	-0.5842317	-0.739776	0.008908289	-0.006350509	-0.001684151	0.001493359
	-0.5842317	-0.739776	0.009773801	-0.02793524	-0.001683898	0.001492708	0.009154589	-0.006019972
	0.008908289	-0.006350509	-0.001683898	0.001492708	0.009273501	-0.02869405	-0.585355	-0.7388446
	-0.001684151	0.001493359	0.009154589	-0.006019972	-0.585355	-0.7388446	0.009797274	-0.02789811
1.7e+08	0.004846605	-0.02524603	-0.6795072	-0.6509362	0.006662537	-0.005977878	-0.001651852	0.001820237
	-0.6795072	-0.6509362	0.005366031	-0.02463041	-0.001651774	0.001819634	0.006932987	-0.005695655
	0.006662537	-0.005977878	-0.001651774	0.001819634	0.004798381	-0.02526636	-0.6805472	-0.6497976
	-0.001651852	0.001820237	0.006932986	-0.005695655	-0.6805472	-0.6497976	0.005385006	-0.0245798
1.8e+08	0.001411526	-0.02097509	-0.7614485	-0.5500308	0.004594119	-0.004978894	-0.00154857	0.002187088
	-0.7614485	-0.5500308	0.001949121	-0.02047427	-0.001548615	0.002186602	0.004869744	-0.00475235
	0.004594119	-0.004978894	-0.001548615	0.002186602	0.00136171	-0.02096717	-0.7623683	-0.5486913
	-0.00154857	0.002187088	0.004869744	-0.00475235	-0.7623683	-0.5486913	0.00196747	-0.02040959
1.9e+08	-0.0008192643	-0.01613183	-0.8285557	-0.4390373	0.002872582	-0.003430369	-0.001355409	0.002573592
	-0.8285557	-0.4390373	-0.0003077569	-0.01575169	-0.001355496	0.002573259	0.003132161	-0.003261082
	0.002872582	-0.003430369	-0.001355496	0.002573259	-0.0008614658	-0.01609586	-0.8293189	-0.4375097
	-0.00135541	0.002573592	0.003132161	-0.003261082	-0.8293189	-0.4375097	-0.000286273	-0.01567348
2e+08	-0.001754797	-0.01104539	-0.8796207	-0.3201167	0.001638496	-0.001453791	-0.001061089	0.002952791
	-0.8796207	-0.3201167	-0.00131537	-0.01077837	-0.001061127	0.002952608	0.001860349	-0.001336917
	0.001638496	-0.001453791	-0.001061127	0.002952608	-0.001780492	-0.01098433	-0.8801923	-0.3184204
	-0.001061089	0.002952791	0.001860349	-0.001336917	-0.8801923	-0.3184204	-0.001287402	-0.01068828
2.1e+08	-0.001392706	-0.006054418	-0.9137497	-0.1955699	0.0009920534	0.0007948584	-0.0006639711	0.003294288
	-0.9137497	-0.1955699	-0.001068985	-0.00587914	-0.0006638749	0.003294207	0.001155997	0.0008706653
	0.0009920534	0.0007948584	-0.0006638749	0.003294207	-0.001394111	-0.005973765	-0.9140972	-0.1937303
	-0.0006639711	0.003294288	0.001155997	0.0008706653	-0.9140972	-0.1937303	-0.001031888	-0.005779685
2.2e+08	0.0001819535	-0.001483654	-0.930378	-0.06779099	0.0009851052	0.003138066	-0.0001727186	0.003567979
	-0.930378	-0.06779099	0.0003528551	-0.001365772	-0.0001724317	0.003567914	0.001074396	0.00319013
	0.0009851053	0.003138066	-0.0001724318	0.003567914	0.0002107972	-0.001391094	-0.9304726	-0.06583934
	-0.0001727186	0.003567979	0.001074396	0.00319013	-0.9304726	-0.06583934	0.000400802	-0.001260122
2.3e+08	0.002803961	0.002378175	-0.9292778	0.06078068	0.00161725	0.005391378	0.0003945036	0.003747729
	-0.9292778	0.06078068	0.002795256	0.002483889	0.0003949947	0.00374757	0.001620334	0.005441906
	0.00161725	0.005391378	0.0003949947	0.00374757	0.002866598	0.00247337	-0.9290955	0.06280791
	0.0003945036	0.003747729	0.001620334	0.005441906	-0.9290955	0.06280791	0.002854715	0.002592214
2.4e+08	0.006240691	0.00529772	-0.9105591	0.1877079	0.002836218	0.0073784	0.001012144	0.003814445
	-0.9105591	0.1877079	0.006039036	0.005444171	0.001012802	0.003814077	0.002748119	0.007452883
	0.002836218	0.0073784	0.001012802	0.003814077	0.006337845	0.005385433	-0.9100813	0.1897698
	0.001012144	0.003814445	0.002748119	0.007452883	-0.9100813	0.1897698	0.006109558	0.005551633
2.5e+08	0.0102094	0.007112181	-0.8746629	0.3106022	0.004542445	0.008944968	0.001650341	0.003758076
	-0.8746629	0.3106022	0.009817017	0.007355888	0.001651076	0.003757407	0.004365647	0.0090702
	0.004542445	0.008944968	0.001651076	0.003757407	0.01033881	0.007182295	-0.8738772	0.3126543
	0.001650341	0.003758076	0.004365647	0.0090702	-0.8738772	0.3126543	0.009897092	0.007459254
2.6e+08	0.01439778	0.007739329	-0.822349	0.4271676	0.006597366	0.009971378	0.002278455	0.003578287
	-0.822349	0.4271676	0.0138333	0.008135797	0.002279137	0.003577263	0.0063421	0.01017325
	0.006597366	0.009971377	0.002279137	0.003577263	0.01455424	0.007782594	-0.82125	0.429163
	0.002278455	0.003578287	0.0063421	0.01017325	-0.82125	0.429163	0.0139205	0.00823244
2.7e+08	0.01848615	0.007181721	-0.7546777	0.5352422	0.008834712	0.01038175	0.002868502	0.003283734
	-0.7546777	0.5352422	0.01778415	0.007780658	0.002868983	0.00328236	0.008518589	0.01068302
	0.008834712	0.01038175	0.002868983	0.00328236	0.01866188	0.007190582	-0.7532672	0.5371323
	0.002868502	0.003283734	0.008518589	0.01068302	-0.7532672	0.5371323	0.01787534	0.007868796
2.8e+08	0.02216992	0.005524957	-0.6729872	0.6328352	0.01107387	0.01014984	0.003397963	0.002890131
	-0.6729872	0.6328352	0.02137899	0.006365707	0.003398099	0.002888473	0.01072087	0.01056803
	0.01107387	0.01014984	0.003398099	0.002888473	0.02235508	0.005494275	-0.6712745	0.6345712
	0.003397964	0.002890131	0.01072087	0.01056803	-0.6712745	0.6345712	0.02147062	0.006444584
2.9e+08	0.0251805	0.002930182	-0.5788668	0.7181613	0.01313426	0.009300969	0.003851552	0.002417468
	-0.5788668	0.7181613	0.02436008	0.004037797	0.003851229	0.00241565	0.01277314	0.009846587
	0.01313426	0.009300969	0.003851229	0.00241565	0.02536395	0.002857757	-0.5768687	0.7196949
	0.003851552	0.002417468	0.01277314	0.009846587	-0.5768687	0.7196949	0.02444849	0.004107749
3e+08	0.02730349	-0.0003785413	-0.4741261	0.7896695	0.01484961	0.007909886	0.00422172	0.001886865
	-0.4741261	0.7896695	0.02651957	0.001003765	0.004220879	0.001885054	0.01451183	0.008585181
	0.01484961	0.007909886	0.004220879	0.001885054	0.02747366	-0.0004916492	-0.4718672	0.7909547
	0.00422172	0.001886865	0.01451183	0.008585181	-0.4718672	0.7909547	0.02660133	0.001066223
3.1e+08	0.02839276	-0.00413101	-0.3607627	0.8460699	0.0160811	0.006094848	0.004507886	0.001317601
	-0.3607627	0.8460699	0.02771285	-0.002485063	0.004506537	0.001315977	0.01579842	0.006893134
	0.0160811	0.006094848	0.004506537	0.001315977	0.02853859	-0.004280433	-0.3582748	0.8470634
	0.004507886	0.001317601	0.01579842	0.006893134	-0.3582748	0.8470634	0.02778506	-0.002427689
3.2e+08	0.02837963	-0.00803067	-0.2409258	0.8863542	0.01672835	0.004008323	0.004714578	0.0007247945
	-0.2409258	0.8863542	0.02786732	-0.006151178	0.004712802	0.0007235292	0.01653028	0.004914017
	0.01672835	0.004008323	0.004712802	0.0007235292	0.02849154	-0.008208947	-0.2382474	0.8870171
	0.004714578	0.0007247945	0.01653028	0.004914017	-0.2382474	0.8870171	0.02792789	-0.006095681
3.3e+08	0.02727658	-0.01177597	-0.1168783	0.9098136	0.01673748	0.001825017	0.004848872	0.0001181208
	-0.1168783	0.9098136	0.02698613	-0.009710676	0.004846811	0.0001173416	0.01664878	0.002814401
	0.01673748	0.001825017	0.004846811	0.0001173416	0.02734727	-0.01197304	-0.1140547	0.9101121
	0.004848872	0.0001181208	0.01664878	0.002814401	-0.1140547	0.9101121	0.02703398	-0.009653324
3.4e+08	0.02517518	-0.01508185	0.009042744	0.9160512	0.01610556	-0.0002718874	0.004917584	-0.0004982697
	0.009042744	0.9160512	0.02514665	-0.01289323	0.00491542	-0.0004984989	0.01614399	0.0007707992
	0.01610556	-0.0002718873	0.00491542	-0.0004984989	0.0252004	-0.01528576	0.01196089	0.9159579
	0.004917584	-0.0004982697	0.01614399	0.0007707992	0.01196089	0.9159579	0.02518183	-0.01283007
3.5e+08	0.02223859	-0.01769994	0.1344683	0.9049903	0.01488115	-0.002105254	0.004924769	-0.001124636
	0.1344683	0.9049903	0.02249381	-0.0154609	0.004922697	-0.001124328	0.01505568	-0.001044245
	0.01488115	-0.002105254	0.004922697	-0.001124328	0.02221756	-0.01789774	0.1374253	0.9044848
	0.004924769	-0.001124636	0.01505568	-0.001044245	0.1374253	0.9044848	0.02251753	-0.01538812
3.6e+08	0.01868895	-0.01943592	0.2570399	0.8768768	0.01316068	-0.00351817	0.004869945	-0.001763574
	0.2570399	0.8768768	0.01922886	-0.0172245	0.004868137	-0.001762817	0.01347031	-0.002475848
	0.01316068	-0.00351817	0.004868137	-0.001762817	0.01862458	-0.0196147	0.2599763	0.8759468
	0.004869945	-0.001763574	0.01347031	-0.002475848	0.2599763	0.8759468	0.01924343	-0.01713871
3.7e+08	0.01479069	-0.02016305	0.3744536	0.8322763	0.01108113	-0.004386659	0.004747409	-0.00241737
	0.3744536	0.8322763	0.01559419	-0.01805634	0.004745986	-0.002416313	0.01151445	-0.003399206
	0.01108113	-0.004386659	0.004745986	-0.002416313	0.01468951	-0.02031098	0.3773073	0.8309183
	0.004747409	-0.00241737	0.01151445	-0.003399206	0.3773073	0.8309183	0.01560284	-0.01795496
3.8e+08	0.01083082	-0.01983069	0.4845035	0.7720655	0.008809262	-0.004629887	0.00454676	-0.003085287
	0.4845035	0.7720655	0.01185545	-0.01789864	0.004545769	-0.003084116	0.009344877	-0.003729718
	0.008809262	-0.004629887	0.004545769	-0.003084116	0.01070261	-0.01993803	0.4872111	0.7702852
	0.00454676	-0.003085287	0.009344877	-0.003729718	0.4872111	0.7702852	0.01186207	-0.01778006
3.9e+08	0.007097746	-0.01846727	0.5851246	0.6974169	0.006528391	-0.00421699	0.004254573	-0.003761284
	0.5851246	0.6974169	0.00828204	-0.01676672	0.00425398	-0.003760184	0.00713612	-0.003429976
	0.006528391	-0.00421699	0.00425398	-0.003760184	0.006954823	-0.01852725	0.5876226	0.6952294
	0.004254573	-0.003761284	0.00713612	-0.003429976	0.5876226	0.6952294	0.008290893	-0.01663054
4e+08	0.003860015	-0.01617749	0.6744334	0.6097769	0.004423668	-0.003169906	0.003856949	-0.004432618
	0.6744334	0.6097769	0.005127538	-0.01474704	0.003856642	-0.00443174	0.005066559	-0.002513001
	0.004423668	-0.003169906	0.003856642	-0.00443174	0.003716362	-0.01618697	0.6766599	0.6072073
	0.003856949	-0.004432618	0.005066559	-0.002513001	0.6766599	0.6072073	0.005142881	-0.01459409
4.1e+08	0.001346597	-0.01313385	0.7507655	0.5108387	0.002667085	-0.001561926	0.003342502	-0.005079613
	0.7507655	0.5108387	0.002611398	-0.01198995	0.003342312	-0.005079045	0.003304064	-0.001041405
	0.002667085	-0.001561926	0.003342312	-0.005079045	0.001216791	-0.01309372	0.7526616	0.5079213
	0.003342502	-0.005079613	0.003304064	-0.001041405	0.7526616	0.5079213	0.002637131	-0.01182228
4.2e+08	-0.0002697175	-0.009563245	0.8127088	0.4025083	0.001403465	0.0004879825	0.002705269	-0.005676699
	0.8127088	0.4025083	0.0009033155	-0.008697935	0.002705004	-0.005676443	0.001992429	0.0008774858
	0.001403465	0.0004879825	0.002705004	-0.005676443	-0.0003716744	-0.009478498	0.8142202	0.3992868
	0.002705269	-0.005676699	0.001992429	0.0008774858	0.8142202	0.3992868	0.0009426312	-0.008518665
4.3e+08	-0.0008846692	-0.005729511	0.8591314	0.2868667	0.0007385991	0.002824614	0.001947042	-0.00619458
	0.8591314	0.2868667	0.0001113993	-0.005110017	0.001946523	-0.006194549	0.001239725	0.003100174
	0.0007385991	0.002824614	0.001946523	-0.006194549	-0.000946487	-0.005608974	0.8602097	0.2833932
	0.001947042	-0.00619458	0.001239725	0.003100174	0.8602097	0.2833932	0.0001664976	-0.004923103
4.4e+08	-0.0004696135	-0.001913396	0.8892029	0.1661276	0.0007305581	0.005268965	0.001078684	-0.006603214
	0.8892029	0.1661276	0.0002750411	-0.001483712	0.001077784	-0.006603246	0.001109553	0.00545848
	0.0007305581	0.005268965	0.001077784	-0.006603246	-0.0004817719	-0.001769161	0.8898071	0.1624619
	0.001078684	-0.006603214	0.001109553	0.00545848	0.8898071	0.1624619	0.0003469116	-0.001293629
4.5e+08	0.0009271165	0.001608596	0.9024092	0.04259251	0.001384881	0.007632626	0.0001202021	-0.00687514
	0.9024092	0.04259251	0.001362956	0.001924215	0.0001188758	-0.00687502	0.001615908	0.007773032
	0.001384881	0.007632626	0.0001188758	-0.00687502	0.0009705189	0.001762035	0.902507	0.03880085
	0.0001202021	-0.00687514	0.001615908	0.007773032	0.902507	0.03880085	0.001451267	0.002112835
4.6e+08	0.003184656	0.004584795	0.8985605	-0.08139481	0.002654043	0.009732916	-0.0009004667	-0.00698861
	0.8985605	-0.08139481	0.003276499	0.004876642	-0.0009021669	-0.006988113	0.002722066	0.009867623
	0.002654043	0.009732916	-0.0009021668	-0.006988113	0.003285311	0.004731624	0.8981287	-0.08524095
	-0.0009004667	-0.00698861	0.002722066	0.009867623	0.8981287	-0.08524095	0.003379591	0.005059401
4.7e+08	0.006119435	0.006806865	0.877791	-0.2034948	0.004441201	0.01140753	-0.001949784	-0.006930047
	0.877791	-0.2034948	0.005857908	0.007173263	-0.001951708	-0.00692898	0.004343554	0.01158325
	0.004441201	0.01140753	-0.001951708	-0.00692898	0.00627462	0.006931153	0.8768173	-0.2073201
	-0.001949784	-0.006930047	0.004343554	0.01158325	0.8768173	-0.2073201	0.005972962	0.007346353
4.8e+08	0.009499557	0.008124822	0.8405539	-0.3214166	0.006607876	0.01252747	-0.002991681	-0.006695444
	0.8405539	-0.3214166	0.008902781	0.008664749	-0.002993599	-0.006693681	0.0063549	0.01279072
	0.006607876	0.01252747	-0.002993599	-0.006693681	0.009702091	0.008211776	0.8390364	-0.3251435
	-0.002991681	-0.006695444	0.0063549	0.01279072	0.8390364	-0.3251435	0.009025898	0.008825287
4.9e+08	0.01306259	0.008457516	0.7876082	-0.4329608	0.008984903	0.01300736	-0.003990896	-0.006290497
	0.7876082	-0.4329608	0.01217575	0.009262939	-0.003992534	-0.006288014	0.008599589	0.01340083
	0.008984903	0.01300736	-0.003992534	-0.006288014	0.01330132	0.008494711	0.7855565	-0.4365111
	-0.003990896	-0.006290497	0.008599589	0.01340083	0.7855565	-0.4365111	0.01230231	0.009409251
5e+08	0.01653537	0.007797869	0.720002	-0.5360593	0.01138576	0.01281216	-0.004916055	-0.005729493
	0.720002	-0.5360593	0.01542819	0.00894638	-0.004917136	-0.005726377	0.0109024	0.01337131
	0.01138576	0.01281216	-0.004917136	-0.005726377	0.01679594	0.007776295	0.7174369	-0.5393558
	-0.004916055	-0.005729493	0.0109024	0.01337131	0.7174369	-0.5393558	0.01555321	0.009078175
5.1e+08	0.01965433	0.006212559	0.6390497	-0.6288114	0.01362118	0.01196009	-0.00574204	-0.005033166
	0.6390497	-0.6288114	0.0184165	0.007760891	-0.005742334	-0.005029612	0.01308312	0.01271018
