!$
! Info: Touchstone file created by Circ.  Input file=Tx_12in_Rx_93ohms_TxVia_60mils_RxVia_70mils.circ
!$
# Hz S RI R 50
0	0.01103814	1.571437e-25	1.639267e-09	3.776705e-27	8.488852e-05	2.161504e-23	-1.460373e-10	6.34742e-26
	1.639281e-09	3.77671e-27	0.01103387	1.908788e-25	4.471973e-09	1.292975e-26	8.402139e-05	2.690015e-23
	8.402073e-05	2.151838e-23	4.471974e-09	1.292975e-26	0.01105184	1.588698e-25	3.69161e-09	3.994654e-27
	-1.457493e-10	6.343893e-26	8.42909e-05	2.701551e-23	3.691528e-09	3.994639e-27	0.01104823	1.900488e-25
1e+07	0.01572545	-0.001384634	2.058719e-09	3.585452e-09	0.0004555147	0.002278509	-2.489172e-09	1.171751e-08
	2.058719e-09	3.585451e-09	0.0160415	-0.001417456	6.298425e-09	1.302789e-08	0.0004503097	0.002271495
	0.000455499	0.002278522	6.298425e-09	1.302789e-08	0.01606503	-0.001430001	-9.188648e-10	1.243497e-08
	-2.489172e-09	1.171751e-08	0.0004503125	0.002271493	-9.188646e-10	1.243497e-08	0.01572628	-0.001414257
2e+07	0.01808451	-0.006819575	2.867798e-09	6.436374e-09	0.001220277	0.004455078	1.671095e-09	3.514739e-09
	2.867798e-09	6.436374e-09	0.01827237	-0.006981624	8.210081e-09	2.318638e-08	0.001205753	0.004445317
	0.001220284	0.004455087	8.210081e-09	2.318638e-08	0.01832245	-0.007014144	-2.529932e-10	6.648135e-09
	1.671095e-09	3.514739e-09	0.00120575	0.004445317	-2.529931e-10	6.648135e-09	0.01803992	-0.006870858
3e+07	0.01789848	-0.01357852	3.514363e-09	8.860467e-09	0.002551084	0.00623975	2.817377e-09	5.084923e-09
	3.514363e-09	8.860467e-09	0.01795751	-0.01376255	9.169326e-09	3.305925e-08	0.002503365	0.006241807
	0.002551085	0.00623975	9.169326e-09	3.305925e-08	0.01804786	-0.01382923	3.124841e-09	9.031306e-09
	2.817377e-09	5.084923e-09	0.002503364	0.006241808	3.124841e-09	9.031306e-09	0.01778444	-0.01363065
4e+07	0.01563938	-0.02030884	4.063224e-09	1.11495e-08	0.004289211	0.007584689	3.470256e-09	6.121737e-09
	4.063224e-09	1.11495e-08	0.01556809	-0.02046519	9.796863e-09	4.295109e-08	0.00421526	0.00760571
	0.00428921	0.00758469	9.796863e-09	4.295109e-08	0.0157067	-0.02058492	3.71601e-09	1.157213e-08
	3.470256e-09	6.121737e-09	0.004215261	0.007605711	3.71601e-09	1.157213e-08	0.0154385	-0.02033581
5e+07	0.01162554	-0.02639256	4.505552e-09	1.329914e-08	0.006261755	0.008444552	3.936527e-09	6.944764e-09
	4.505552e-09	1.329914e-08	0.01142987	-0.02647845	1.018177e-08	5.295867e-08	0.006161864	0.008494698
	0.006261753	0.008444553	1.018177e-08	5.295867e-08	0.01161717	-0.0266735	3.931367e-09	1.396591e-08
	3.936527e-09	6.944764e-09	0.006161865	0.008494698	3.931367e-09	1.396591e-08	0.01132915	-0.02636273
6e+07	0.00619261	-0.03139884	4.797348e-09	1.532436e-08	0.008342892	0.008782677	4.200756e-09	7.60323e-09
	4.797348e-09	1.532436e-08	0.005887886	-0.03137609	1.042351e-08	6.314875e-08	0.008220545	0.008871876
	0.00834289	0.008782676	1.042351e-08	6.314875e-08	0.00611578	-0.03166871	3.99241e-09	1.63397e-08
	4.200756e-09	7.60323e-09	0.008220546	0.008871876	3.99241e-09	1.63397e-08	0.00580287	-0.03127866
7e+07	-0.0002857604	-0.03502228	4.893451e-09	1.726825e-08	0.01040097	0.008593351	4.217651e-09	8.154874e-09
	4.893451e-09	1.726825e-08	-0.0006752124	-0.03485869	1.062391e-08	7.356562e-08	0.01026275	0.008730414
	0.01040097	0.00859335	1.062391e-08	7.356562e-08	-0.000422641	-0.03526815	3.941567e-09	1.87292e-08
	4.217651e-09	8.154874e-09	0.01026276	0.008730414	3.941567e-09	1.87292e-08	-0.0007562759	-0.03477999
8e+07	-0.007404997	-0.0370688	4.760201e-09	1.919534e-08	0.01230718	0.007902963	3.953823e-09	8.677184e-09
	4.7602e-09	1.919534e-08	-0.007847118	-0.03673976	1.088378e-08	8.422506e-08	0.01216244	0.008094692
	0.01230717	0.007902962	1.088378e-08	8.422506e-08	-0.007592191	-0.03728017	3.789252e-09	2.115295e-08
	3.953823e-09	8.677184e-09	0.01216244	0.008094692	3.789253e-09	2.115295e-08	-0.007934445	-0.03667709
9e+07	-0.01474447	-0.03745073	4.383443e-09	2.118677e-08	0.01394364	0.006768338	3.386777e-09	9.274063e-09
	4.383442e-09	2.118676e-08	-0.01520092	-0.03694064	1.128231e-08	9.510973e-08	0.01380392	0.007018783
	0.01394364	0.006768338	1.128231e-08	9.510973e-08	-0.01497066	-0.03761921	3.52354e-09	2.363102e-08
	3.386777e-09	9.274063e-09	0.01380392	0.007018783	3.52354e-09	2.363102e-08	-0.0153032	-0.03688905
1e+08	-0.02187087	-0.03617714	3.737459e-09	2.335637e-08	0.01521005	0.005272283	2.488617e-09	1.017135e-08
	3.737459e-09	2.335637e-08	-0.02229592	-0.03547956	1.179535e-08	1.06168e-07	0.01508864	0.005582277
	0.01521005	0.005272284	1.179535e-08	1.06168e-07	-0.02212002	-0.03629534	3.109242e-09	2.621016e-08
	2.488617e-09	1.017135e-08	0.01508864	0.005582277	3.109242e-09	2.621016e-08	-0.02242313	-0.03543368
1.1e+08	-0.02841628	-0.03346956	2.980845e-09	2.570517e-08	0.01602968	0.003525734	1.484525e-09	1.124667e-08
	2.980845e-09	2.570517e-08	-0.02876593	-0.03260901	1.268051e-08	1.173719e-07	0.01593989	0.003890129
	0.01602968	0.003525734	1.268051e-08	1.173719e-07	-0.02867514	-0.03355184	2.638623e-09	2.901347e-08
	1.484525e-09	1.124667e-08	0.01593988	0.003890129	2.638623e-09	2.901347e-08	-0.02892232	-0.03254489
1.2e+08	-0.03412957	-0.02943271	2.101428e-09	2.831198e-08	0.0163627	0.001646128	2.990971e-10	1.257842e-08
	2.101428e-09	2.831198e-08	-0.03437789	-0.02842837	1.394442e-08	1.286108e-07	0.01631525	0.002057873
	0.0163627	0.001646128	1.394442e-08	1.286108e-07	-0.03440015	-0.02947925	2.139325e-09	3.200985e-08
	2.990971e-10	1.257842e-08	0.01631525	0.002057874	2.139324e-09	3.200985e-08	-0.03455123	-0.02833706
1.3e+08	-0.03870322	-0.02430925	1.171628e-09	3.124096e-08	0.0161935	-0.0002424536	-9.755047e-10	1.424114e-08
	1.171628e-09	3.124096e-08	-0.03882395	-0.02318669	1.560912e-08	1.39797e-07	0.01619793	0.0002065383
	0.0161935	-0.0002424537	1.560912e-08	1.39797e-07	-0.03898224	-0.0243181	1.667262e-09	3.523695e-08
	-9.755047e-10	1.424114e-08	0.01619792	0.0002065393	1.667262e-09	3.523695e-08	-0.03900489	-0.02306388
1.4e+08	-0.04192222	-0.01840887	2.899595e-10	3.45211e-08	0.01553815	-0.002016159	-2.250218e-09	1.626986e-08
	2.899595e-10	3.45211e-08	-0.04189469	-0.01720099	1.767489e-08	1.508272e-07	0.01560143	-0.001542832
	0.01553815	-0.002016159	1.767489e-08	1.508272e-07	-0.04220465	-0.01837839	1.296334e-09	3.870142e-08
	-2.250218e-09	1.626986e-08	0.01560142	-0.001542831	1.296334e-09	3.870142e-08	-0.04207428	-0.01704519
1.5e+08	-0.04365668	-0.01207926	-4.360522e-10	3.814321e-08	0.01444231	-0.00355957	-3.432917e-09	1.867697e-08
	-4.360522e-10	3.814321e-08	-0.04346857	-0.01082482	2.011222e-08	1.615966e-07	0.014568	-0.003076918
	0.01444231	-0.00355957	2.011222e-08	1.615966e-07	-0.04393643	-0.01200872	1.10334e-09	4.237855e-08
	-3.432917e-09	1.867697e-08	0.014568	-0.003076917	1.10334e-09	4.237855e-08	-0.0436383	-0.01063702
1.6e+08	-0.04386473	-0.005684521	-8.887992e-10	4.209367e-08	0.01297809	-0.004772513	-4.407293e-09	2.145075e-08
	-8.887992e-10	4.209367e-08	-0.04351389	-0.004425864	2.286227e-08	1.720063e-07	0.0131657	-0.004296684
	0.01297809	-0.004772513	2.286227e-08	1.720063e-07	-0.04413513	-0.00557446	1.170952e-09	4.624744e-08
	-4.407293e-09	2.145075e-08	0.0131657	-0.004296683	1.170952e-09	4.624744e-08	-0.04366612	-0.004209267
1.7e+08	-0.0425919	0.0004158076	-9.625324e-10	4.629941e-08	0.01123933	-0.005575786	-5.072933e-09	2.454577e-08
	-9.625324e-10	4.629941e-08	-0.04208746	0.001635552	2.583694e-08	1.819734e-07	0.011484	-0.005122954
	0.01123933	-0.005575786	2.583694e-08	1.819734e-07	-0.04284613	0.0005634117	1.568041e-09	5.023739e-08
	-5.072933e-09	2.454577e-08	0.011484	-0.005122953	1.568041e-09	5.023739e-08	-0.04221586	0.00187584
1.8e+08	-0.03996635	0.005886686	-5.749228e-10	5.065383e-08	0.009335936	-0.005915623	-5.339973e-09	2.788971e-08
	-5.749228e-10	5.065383e-08	-0.03932895	0.007026645	2.892378e-08	1.914389e-07	0.009628439	-0.005500783
	0.009335936	-0.005915623	2.892378e-08	1.914389e-07	-0.04019782	0.00606835	2.340707e-09	5.425409e-08
	-5.339973e-09	2.788971e-08	0.009628439	-0.005500783	2.340707e-09	5.425409e-08	-0.03942884	0.007284014
1.9e+08	-0.03618989	0.01043564	3.221946e-10	5.502551e-08	0.007387276	-0.005766674	-5.136133e-09	3.138555e-08
	3.221946e-10	5.502551e-08	-0.03545112	0.01146031	3.19927e-08	2.003754e-07	0.007714308	-0.005402462
	0.007387276	-0.005766674	3.19927e-08	2.003754e-07	-0.03639267	0.01064642	3.504168e-09	5.818808e-08
	-5.136133e-09	3.138555e-08	0.007714308	-0.005402462	3.504168e-09	5.818808e-08	-0.03551978	0.01172712
2e+08	-0.03152543	0.01382822	1.735743e-09	5.927025e-08	0.005515127	-0.0051334	-4.41358e-09	3.491556e-08
	1.735743e-09	5.927025e-08	-0.03072637	0.01471035	3.490518e-08	2.087915e-07	0.00585997	-0.004829001
	0.005515127	-0.0051334	3.490518e-08	2.087915e-07	-0.0316946	0.01406184	5.038226e-09	6.192591e-08
	-4.41358e-09	3.491556e-08	0.00585997	-0.004829001	5.038226e-09	6.192591e-08	-0.0307632	0.01497847
2.1e+08	-0.02628134	0.01590004	3.629056e-09	6.324503e-08	0.003836476	-0.0040498	-3.155039e-09	3.834741e-08
	3.629056e-09	6.324503e-08	-0.02547039	0.0166232	3.75248e-08	2.167348e-07	0.004179913	-0.003810048
	0.003836476	-0.0040498	3.75248e-08	2.167348e-07	-0.02641335	0.01614915	6.887191e-09	6.536242e-08
	-3.155039e-09	3.834741e-08	0.004179914	-0.003810048	6.887191e-09	6.536242e-08	-0.02547699	0.01688454
2.2e+08	-0.0207936	0.01656499	5.924475e-09	6.682156e-08	0.002456541	-0.002577461	-1.378462e-09	4.154216e-08
	5.924475e-09	6.682156e-08	-0.0200236	0.01712543	3.972861e-08	2.242908e-07	0.002778012	-0.002402186
	0.002456541	-0.002577461	3.972861e-08	2.242908e-07	-0.02088652	0.01682145	8.964339e-09	6.841226e-08
	-1.378462e-09	4.154216e-08	0.002778012	-0.002402186	8.964339e-09	6.841226e-08	-0.02000363	0.01737252
2.3e+08	-0.01540665	0.01581899	8.510322e-09	6.9898e-08	0.001462393	-0.0008019981	8.604878e-10	4.436402e-08
	8.510322e-09	6.9898e-08	-0.01473149	0.0162268	4.141778e-08	2.31578e-07	0.001741308	-0.0006856852
	0.001462393	-0.0008019981	4.141778e-08	2.31578e-07	-0.01546031	0.01607426	1.116015e-08	7.101888e-08
	8.604878e-10	4.436402e-08	0.001741308	-0.0006856852	1.116015e-08	7.101888e-08	-0.01469053	0.01645328
2.4e+08	-0.01045384	0.01373929	1.125101e-08	7.240704e-08	0.000917548	0.001171978	3.468795e-09	4.669101e-08
	1.125101e-08	7.240704e-08	-0.009924921	0.01401864	4.252677e-08	2.38741e-07	0.001134678	0.001240179
	0.000917548	0.001171978	4.252677e-08	2.38741e-07	-0.01047004	0.01398484	1.335302e-08	7.315969e-08
	3.468795e-09	4.669101e-08	0.001134678	0.001240179	1.335302e-08	7.315969e-08	-0.009870071	0.01421973
2.5e+08	-0.006238816	0.0104792	1.399846e-08	7.432012e-08	0.0008578777	0.003227115	6.319721e-09	4.842577e-08
	1.399846e-08	7.432012e-08	-0.005901307	0.01066763	4.302969e-08	2.459403e-07	0.0009967343	0.003263025
	0.0008578778	0.003227115	4.302969e-08	2.459403e-07	-0.006221229	0.01070694	1.542044e-08	7.484719e-08
	6.319721e-09	4.842577e-08	0.0009967343	0.003263025	1.542044e-08	7.484719e-08	-0.005840776	0.01084048
2.6e+08	-0.003018476	0.006258611	1.659854e-08	7.556756e-08	0.001289144	0.005240485	9.259429e-09	4.950666e-08
	1.659854e-08	7.556756e-08	-0.002907868	0.00640537	4.293878e-08	2.5331e-07	0.00133725	0.005264171
	0.001289144	0.005240485	4.293878e-08	2.5331e-07	-0.002972547	0.006461384	1.724425e-08	7.604547e-08
	9.259429e-09	4.950666e-08	0.00133725	0.005264171	1.724425e-08	7.604547e-08	-0.002850493	0.006549293
2.7e+08	-0.0009888438	0.00135079	1.887234e-08	7.626449e-08	0.002186372	0.007091223	1.211866e-08	4.991144e-08
	1.887234e-08	7.626449e-08	-0.001128023	0.001514278	4.230108e-08	2.610332e-07	0.002136336	0.00712596
	0.002186372	0.007091223	4.230108e-08	2.610332e-07	-0.0009216454	0.001522723	1.86904e-08	7.689523e-08
	1.211866e-08	4.991144e-08	0.002136336	0.00712596	1.86904e-08	7.689523e-08	-0.001082615	0.001630875
2.8e+08	-0.0002744109	-0.003933761	2.069349e-08	7.651695e-08	0.003495168	0.008668175	1.472263e-08	4.966468e-08
	2.069349e-08	7.651695e-08	-0.00067133	-0.00368929	4.121561e-08	2.692603e-07	0.00334549	0.008739132
	0.003495168	0.008668175	4.121561e-08	2.692603e-07	-0.0001943046	-0.003796848	1.96839e-08	7.751604e-08
	1.472263e-08	4.966468e-08	0.00334549	0.008739132	1.96839e-08	7.751604e-08	-0.0006461217	-0.0035962
2.9e+08	-0.0009216962	-0.00926549	2.196354e-08	7.644272e-08	0.005134971	0.009877029	1.690496e-08	4.883797e-08
	2.196354e-08	7.644272e-08	-0.001567934	-0.008873793	3.981707e-08	2.781091e-07	0.004890501	0.01000977
	0.005134971	0.009877029	3.981707e-08	2.781091e-07	-0.0008379139	-0.009165791	2.018091e-08	7.802582e-08
	1.690496e-08	4.883797e-08	0.004890501	0.01000977	2.018091e-08	7.802582e-08	-0.00157004	-0.008798365
3e+08	-0.002897327	-0.01431491	2.261212e-08	7.617768e-08	0.007004045	0.01064644	1.852073e-08	4.754618e-08
	2.261212e-08	7.617768e-08	-0.003767676	-0.01371196	3.826709e-08	2.876613e-07	0.00667606	0.0108653
	0.007004045	0.01064644	3.826709e-08	2.876613e-07	-0.002819499	-0.01425245	2.016543e-08	7.854658e-08
	1.852073e-08	4.754618e-08	0.00667606	0.0108653	2.016543e-08	7.854658e-08	-0.0038026	-0.01364667
3.1e+08	-0.006090754	-0.01877154	2.259834e-08	7.587041e-08	0.008985916	0.01093269	1.945781e-08	4.594025e-08
	2.259834e-08	7.587041e-08	-0.007143889	-0.01789982	3.674446e-08	2.979575e-07	0.008591782	0.01125915
	0.008985916	0.01093269	3.674446e-08	2.979575e-07	-0.006028388	-0.01874408	1.964708e-08	7.919927e-08
	1.945781e-08	4.594025e-08	0.008591782	0.01125915	1.964708e-08	7.919927e-08	-0.007215135	-0.01783586
3.2e+08	-0.01032137	-0.02236152	2.191206e-08	7.5678e-08	0.01095681	0.01072254	1.964552e-08	4.419713e-08
	2.191206e-08	7.5678e-08	-0.01150162	-0.02117405	3.543495e-08	3.089942e-07	0.01051923	0.01117371
	0.01095681	0.01072254	3.543495e-08	3.089942e-07	-0.01028332	-0.02236464	1.865886e-08	8.010064e-08
	1.964552e-08	4.419713e-08	0.01051923	0.01117371	1.865886e-08	8.010064e-08	-0.01161041	-0.02110195
3.3e+08	-0.01534957	-0.02486296	2.057596e-08	7.576192e-08	0.01279357	0.01003405	1.905983e-08	4.250786e-08
	2.057596e-08	7.576192e-08	-0.0165897	-0.0233269	3.452105e-08	3.207241e-07	0.01233947	0.01062133
	0.01279357	0.01003405	3.452105e-08	3.207241e-07	-0.01534354	-0.02489022	1.7256e-08	8.136126e-08
	1.905983e-08	4.250786e-08	0.01233947	0.01062133	1.7256e-08	8.136126e-08	-0.01673487	-0.02323702
3.4e+08	-0.02089105	-0.02611807	1.86484e-08	7.628309e-08	0.01438153	0.008915408	1.772515e-08	4.106506e-08
	1.86484e-08	7.628309e-08	-0.02211592	-0.0242175	3.41724e-08	3.330572e-07	0.01394056	0.009643477
	0.01438153	0.008915408	3.41724e-08	3.330572e-07	-0.0209231	-0.02616132	1.551634e-08	8.308336e-08
	1.772515e-08	4.106506e-08	0.01394056	0.009643477	1.551634e-08	8.308336e-08	-0.02229391	-0.0241007
3.5e+08	-0.02663342	-0.0260415	1.62266e-08	7.739491e-08	0.01562171	0.007441712	1.571274e-08	4.005091e-08
	1.62266e-08	7.739491e-08	-0.02776435	-0.02377926	3.453671e-08	3.458644e-07	0.01522457	0.00830785
	0.01562171	0.007441712	3.453671e-08	3.458644e-07	-0.02670762	-0.02609128	1.354158e-08	8.535733e-08
	1.571274e-08	4.005091e-08	0.01522457	0.00830785	1.354158e-08	8.535733e-08	-0.0279694	-0.02362748
3.6e+08	-0.03225423	-0.02462448	1.344859e-08	7.923357e-08	0.01643701	0.005710111	1.313629e-08	3.962631e-08
	1.344859e-08	7.923357e-08	-0.03321369	-0.02202293	3.573157e-08	3.589825e-07	0.01611355	0.006704012
	0.01643701	0.005710111	3.573157e-08	3.589825e-07	-0.03237236	-0.02467051	1.145853e-08	8.825587e-08
	1.313629e-08	3.962631e-08	0.01611355	0.006704012	1.145853e-08	8.825587e-08	-0.03343815	-0.02182969
3.7e+08	-0.03743921	-0.02193456	1.04925e-08	8.190596e-08	0.01677682	0.003833597	1.014552e-08	3.992189e-08
	1.04925e-08	8.190596e-08	-0.03815574	-0.01903507	3.78368e-08	3.722203e-07	0.01655416	0.004937632
	0.01677682	0.003833597	3.78368e-08	3.722203e-07	-0.03760061	-0.02196632	9.41839e-09	9.182586e-08
	1.014552e-08	3.992189e-08	0.01655416	0.004937632	9.41839e-09	9.182586e-08	-0.03839053	-0.01879593
3.8e+08	-0.04189987	-0.0181112	7.571474e-09	8.547606e-08	0.01662001	0.001933909	6.918267e-09	4.10309e-08
	7.571474e-09	8.547606e-08	-0.04231275	-0.01497247	4.088785e-08	3.853664e-07	0.01652073	0.003123872
	0.01662001	0.001933909	4.088785e-08	3.853664e-07	-0.04210142	-0.01811846	7.592839e-09	9.607858e-08
	6.918267e-09	4.10309e-08	0.01652073	0.003123872	7.592839e-09	9.607858e-08	-0.04254788	-0.01468531
3.9e+08	-0.04538945	-0.01335736	4.923193e-09	8.995186e-08	0.01597598	0.0001340139	3.651644e-09	4.30039e-08
	4.923193e-09	8.995186e-08	-0.0454529	-0.01005257	4.487017e-08	3.981987e-07	0.0160165	0.001380326
	0.01597598	0.0001340139	4.487017e-08	3.981987e-07	-0.04562568	-0.01333079	6.165586e-09	1.009801e-07
	3.651644e-09	4.30039e-08	0.0160165	0.001380326	6.165586e-09	1.009801e-07	-0.04567807	-0.009717793
4e+08	-0.04771632	-0.007927757	2.793986e-09	9.527503e-08	0.01488385	-0.001449346	5.525631e-10	4.584527e-08
	2.793986e-09	9.527503e-08	-0.04740293	-0.00454069	4.971543e-08	4.104963e-07	0.01507317	-0.0001800515
	0.01488385	-0.001449346	4.971543e-08	4.104963e-07	-0.04797968	-0.007859433	5.319304e-09	1.064439e-07
	5.525631e-10	4.584527e-08	0.01507317	-0.0001800515	5.319304e-09	1.064439e-07	-0.04760817	-0.004161214
4.1e+08	-0.04875433	-0.002114388	1.418445e-09	1.013159e-07	0.01340999	-0.002712622	-2.172256e-09	4.951135e-08
	1.418445e-09	1.013159e-07	-0.0480575	0.00126519	5.530021e-08	4.22052e-07	0.01374881	-0.001455605
	0.01340999	-0.002712622	5.530021e-08	4.22052e-07	-0.04903549	-0.001998293	5.218747e-09	1.123281e-07
	-2.172256e-09	4.951135e-08	0.01374881	-0.001455605	5.218747e-09	1.123281e-07	-0.04823376	0.001684061
4.2e+08	-0.04844943	0.003769773	9.966851e-10	1.078757e-07	0.01164388	-0.003571554	-4.326744e-09	5.391039e-08
	9.966851e-10	1.078757e-07	-0.04738459	0.007051326	6.144804e-08	4.32687e-07	0.01212425	-0.002361892
	0.01164388	-0.003571554	6.144804e-08	4.32687e-07	-0.04873781	0.003937398	5.991941e-09	1.184384e-07
	-4.326744e-09	5.391039e-08	0.01212425	-0.002361892	5.991941e-09	1.184384e-07	-0.04752434	0.007502195
4.3e+08	-0.04682238	0.009408178	1.672058e-09	1.146963e-07	0.009692822	-0.003966101	-5.736312e-09	5.890434e-08
	1.672058e-09	1.146963e-07	-0.04542698	0.01250584	6.79354e-08	4.422652e-07	0.01029826	-0.002836544
	0.009692822	-0.003966101	6.79354e-08	4.422652e-07	-0.04710668	0.009628559	7.712073e-09	1.245393e-07
	-5.736312e-09	5.890434e-08	0.01029826	-0.002836544	7.712073e-09	1.245393e-07	-0.04552465	0.01297962
4.4e+08	-0.04396743	0.01449816	3.512517e-09	1.214787e-07	0.00767556	-0.003863955	-6.258791e-09	6.431312e-08
	3.512517e-09	1.214787e-07	-0.04229953	0.01733607	7.450217e-08	4.507063e-07	0.008381757	-0.002842858
	0.00767556	-0.003863955	7.450217e-08	4.507063e-07	-0.04423621	0.01476987	1.038304e-08	1.303707e-07
	-6.258791e-09	6.431312e-08	0.008381757	-0.002842858	1.038304e-08	1.303707e-07	-0.0423519	0.01782252
4.5e+08	-0.04004696	0.01876764	6.498494e-09	1.279071e-07	0.005715378	-0.003262488	-5.795006e-09	6.99215e-08
	6.498494e-09	1.279071e-07	-0.03818255	0.02128488	8.086619e-08	4.579967e-07	0.006491378	-0.002371942
	0.005715378	-0.003262488	8.086619e-08	4.579967e-07	-0.04028929	0.01908658	1.393131e-08	1.356711e-07
	-5.795006e-09	6.99215e-08	0.006491378	-0.002371942	1.393131e-08	1.356711e-07	-0.03818898	0.02177319
4.6e+08	-0.03528252	0.0219901	1.051945e-08	1.336764e-07	0.003932877	-0.002189043	-4.298315e-09	7.548894e-08
	1.051945e-08	1.336764e-07	-0.03331166	0.02414494	8.674128e-08	4.641959e-07	0.004742693	-0.001443329
	0.003932877	-0.002189043	8.674128e-08	4.641959e-07	-0.03548858	0.02234966	1.8206e-08	1.40202e-07
	-4.298315e-09	7.548894e-08	0.004742693	-0.001443329	1.8206e-08	1.40202e-07	-0.03327415	0.02462444
4.7e+08	-0.02994252	0.02399715	1.537996e-08	1.385203e-07	0.00243887	-0.000699539	-1.781731e-09	8.076237e-08
	1.537996e-08	1.385203e-07	-0.02796453	0.02577021	9.185722e-08	4.694375e-07	0.003243462	-0.0001040044
	0.00243887	-0.000699539	9.185722e-08	4.694375e-07	-0.0301042	0.02438847	2.298798e-08	1.43773e-07
	-1.781731e-09	8.076237e-08	0.003243462	-0.0001040044	2.298798e-08	1.43773e-07	-0.02788765	0.02623088
4.8e+08	-0.02432751	0.02468777	2.081497e-08	1.422355e-07	0.001327747	0.001124564	1.677834e-09	8.549139e-08
	2.081497e-08	1.422355e-07	-0.02244533	0.02608414	9.598003e-08	4.739248e-07	0.002087238	0.001574128
	0.001327747	0.001124564	9.598003e-08	4.739248e-07	-0.02443889	0.02510028	2.800701e-08	1.46262e-07
