!$
! Info: Touchstone file created by Circ.  Input file=Tx_16in_Rx_93ohms_TxVia_60mils_RxVia_70mils.circ
!$
# Hz S RI R 50
0	0.01461191	2.045201e-25	-8.528805e-05	7.36105e-24	0.0001044902	2.887889e-23	-8.532314e-05	1.187508e-23
	-8.528803e-05	7.359966e-24	0.01460711	2.425654e-25	-8.525012e-05	2.911412e-24	0.0001046967	3.566299e-23
	0.0001054691	2.938512e-23	-8.52501e-05	2.909529e-24	0.01462558	1.957215e-25	-8.528068e-05	6.873658e-24
	-8.532312e-05	1.18731e-23	0.0001049661	3.581592e-23	-8.52807e-05	6.874639e-24	0.01462137	2.415259e-25
1e+07	0.02144507	-0.001923152	-0.0004245759	-7.394745e-05	0.0006612418	0.002642888	-0.0002131514	0.0002211788
	-0.0004245759	-7.394745e-05	0.02104782	-0.00282878	-6.313594e-06	-1.217627e-05	0.0006960301	0.00289315
	0.0006612506	0.002642855	-6.313596e-06	-1.217627e-05	0.01991058	-0.002585354	-2.333451e-05	3.097708e-06
	-0.0002131514	0.0002211788	0.0006960332	0.002893147	-2.333451e-05	3.097704e-06	0.02062808	-0.002809489
2e+07	0.02449021	-0.01008448	-0.0004186815	7.761878e-05	0.002069012	0.005050324	-0.0002373291	0.000280567
	-0.0004186815	7.761878e-05	0.02304998	-0.01121113	-7.525375e-06	-6.04315e-06	0.001984511	0.005530424
	0.002068984	0.005050323	-7.52537e-06	-6.04315e-06	0.02247464	-0.01047495	-1.489792e-05	-3.858632e-05
	-0.0002373291	0.000280567	0.001984508	0.005530424	-1.489792e-05	-3.858631e-05	0.022752	-0.01104611
3e+07	0.02301567	-0.01993894	-0.0004002815	0.0001731743	0.004127563	0.006861991	-0.0002251687	0.0003390701
	-0.0004002815	0.0001731743	0.02082944	-0.02071128	-1.693908e-05	-6.463171e-06	0.004066241	0.007438017
	0.00412756	0.006861996	-1.693908e-05	-6.463172e-06	0.02071579	-0.01994021	-4.379264e-05	-3.80282e-05
	-0.0002251687	0.0003390701	0.004066241	0.007438019	-4.379264e-05	-3.80282e-05	0.02061804	-0.02052009
4e+07	0.01794541	-0.0290313	-0.0003657063	0.0002590345	0.00660854	0.007900734	-0.0001940851	0.0003810845
	-0.0003657063	0.0002590345	0.0152703	-0.02920441	-2.343683e-05	-2.188204e-06	0.00664317	0.008493133
	0.00660854	0.007900729	-2.343683e-05	-2.188203e-06	0.01553379	-0.0285767	-6.62425e-05	-2.510992e-05
	-0.0001940851	0.0003810845	0.006643171	0.008493134	-6.62425e-05	-2.510993e-05	0.01512022	-0.02902015
5e+07	0.01011884	-0.03616708	-0.000316888	0.0003349503	0.009234071	0.00807679	-0.000156342	0.0004047666
	-0.000316888	0.0003349503	0.007212749	-0.03561512	-2.724125e-05	4.398435e-06	0.009345342	0.008659002
	0.009234068	0.008076788	-2.724125e-05	4.398435e-06	0.00775347	-0.03524536	-8.124087e-05	-4.508394e-06
	-0.000156342	0.0004047666	0.009345343	0.008659002	-8.124087e-05	-4.508394e-06	0.007101051	-0.03545154
6e+07	0.0004918908	-0.040606	-0.0002794747	0.0003822641	0.01171481	0.007398644	-0.0001223646	0.0004128096
	-0.0002794747	0.0003822641	-0.002391703	-0.03929374	-2.840306e-05	1.23898e-05	0.01188444	0.007955465
	0.01171481	0.007398648	-2.840306e-05	1.23898e-05	-0.001687326	-0.03925057	-8.781833e-05	2.064631e-05
	-0.0001223646	0.0004128096	0.01188444	0.007955465	-8.781833e-05	2.064631e-05	-0.002484576	-0.03915391
7e+07	-0.009902742	-0.04198544	-0.0002338601	0.0004256697	0.01378384	0.005968886	-0.0001000191	0.0004110894
	-0.0002338601	0.0004256697	-0.01252803	-0.03995486	-2.683546e-05	2.079707e-05	0.01399515	0.006491812
	0.01378385	0.005968891	-2.683546e-05	2.079707e-05	-0.01177942	-0.04026479	-8.540346e-05	4.748577e-05
	-0.0001000191	0.0004110894	0.01399515	0.006491812	-8.540345e-05	4.748577e-05	-0.0126175	-0.03983512
8e+07	-0.02003769	-0.04029347	-0.0001811951	0.0004631258	0.01522602	0.003969813	-9.413287e-05	0.0004081581
	-0.0001811951	0.0004631258	-0.02219961	-0.03765139	-2.252148e-05	2.891011e-05	0.01546347	0.004454167
	0.01522604	0.003969816	-2.252148e-05	2.891011e-05	-0.0215227	-0.03830153	-7.394962e-05	7.325643e-05
	-9.413287e-05	0.0004081581	0.01546347	0.004454167	-7.394962e-05	7.325643e-05	-0.02229648	-0.03754385
9e+07	-0.02898059	-0.03583359	-0.0001237281	0.0004931273	0.015901	0.001640926	-0.0001069286	0.0004136835
	-0.0001237281	0.0004931273	-0.03051227	-0.03273793	-1.538801e-05	3.603582e-05	0.01614792	0.002084166
	0.01590101	0.001640925	-1.538801e-05	3.603582e-05	-0.03001151	-0.03368035	-5.375898e-05	9.539153e-05
	-0.0001069286	0.0004136835	0.01614792	0.002084166	-5.375898e-05	9.539153e-05	-0.03062279	-0.03263269
1e+08	-0.03599285	-0.02917045	-6.799307e-05	0.0005152873	0.01576728	-0.0007483957	-0.0001489705	0.0004377869
	-6.799307e-05	0.0005152873	-0.03672909	-0.02581635	-4.48271e-06	4.134876e-05	0.01599155	-0.00034816
	0.01576728	-0.0007483959	-4.482709e-06	4.134876e-05	-0.03650515	-0.02697406	-2.333297e-05	0.0001114171
	-0.0001489705	0.0004377869	0.01599155	-0.0003481601	-2.333297e-05	0.0001114171	-0.03685856	-0.02570335
1.1e+08	-0.04047225	-0.0209533	-1.022954e-05	0.0005131699	0.01482838	-0.00287961	-0.0001932793	0.00043467
	-1.022954e-05	0.0005131699	-0.04045255	-0.01777706	6.692057e-06	3.985223e-05	0.01502696	-0.002565537
	0.01482838	-0.00287961	6.692057e-06	3.985223e-05	-0.04052448	-0.01897464	7.982608e-06	0.0001093487
	-0.0001932793	0.00043467	0.01502696	-0.002565537	7.982608e-06	0.0001093487	-0.04059164	-0.01763195
1.2e+08	-0.04210799	-0.01219007	5.352302e-05	0.000502689	0.01318681	-0.004572234	-0.000212641	0.0004565896
	5.352302e-05	0.000502689	-0.04153948	-0.009323676	1.526845e-05	3.656185e-05	0.01337707	-0.004327643
	0.01318681	-0.004572234	1.526845e-05	3.656185e-05	-0.04185542	-0.01048294	3.240532e-05	0.0001011097
	-0.000212641	0.0004565896	0.01337707	-0.004327642	3.240532e-05	0.0001011097	-0.04166864	-0.009147008
1.3e+08	-0.04097601	-0.003776688	0.0001164975	0.0004834996	0.01104643	-0.005629725	-0.0002142607	0.0004975653
	0.0001164975	0.0004834996	-0.04001079	-0.00130511	2.230504e-05	3.197621e-05	0.01122678	-0.005445019
	0.01104643	-0.005629726	2.230504e-05	3.197621e-05	-0.04052413	-0.002360276	5.187191e-05	8.865105e-05
	-0.0002142607	0.0004975653	0.01122677	-0.005445018	5.187191e-05	8.865105e-05	-0.04011757	-0.001103056
1.4e+08	-0.03739217	0.003471321	0.0001762417	0.0004561688	0.008645577	-0.005929161	-0.0001948309	0.0005502257
	0.0001762417	0.0004561688	-0.03617757	0.005498592	2.533463e-05	2.841888e-05	0.00881029	-0.005796825
	0.008645577	-0.005929161	2.533463e-05	2.841888e-05	-0.03682854	0.004599809	6.649801e-05	7.361073e-05
	-0.0001948309	0.0005502257	0.008810289	-0.005796824	6.649801e-05	7.361073e-05	-0.03625382	0.005716269
1.5e+08	-0.03189533	0.008888348	0.0002312249	0.0004216973	0.006245187	-0.005429946	-0.0001524415	0.0006059282
	0.0002312249	0.0004216973	-0.03057635	0.01045626	2.803319e-05	2.460463e-05	0.006386512	-0.00534257
	0.006245187	-0.005429946	2.803319e-05	2.460463e-05	-0.03129257	0.009747766	7.654112e-05	5.747462e-05
	-0.0001524415	0.0006059282	0.006386511	-0.00534257	7.654112e-05	5.747462e-05	-0.03061844	0.01067774
1.6e+08	-0.02519086	0.01201677	0.0002805889	0.0003812041	0.004103608	-0.004176549	-8.810574e-05	0.0006559329
	0.0002805889	0.0003812041	-0.02390621	0.01314455	3.03684e-05	2.051737e-05	0.004212845	-0.004125523
	0.004103608	-0.004176549	3.03684e-05	2.051737e-05	-0.0246072	0.01263745	8.264003e-05	4.143152e-05
	-8.810574e-05	0.0006559329	0.004212845	-0.004125522	8.264003e-05	4.143152e-05	-0.02391522	0.0133575
1.7e+08	-0.01807827	0.01264485	0.0003239098	0.000335712	0.002450611	-0.002293421	-5.802712e-06	0.000692784
	0.0003239098	0.000335712	-0.01695395	0.01338482	3.227567e-05	1.617633e-05	0.0025192	-0.002268076
	0.002450611	-0.002293421	3.227567e-05	1.617633e-05	-0.01755785	0.01306464	8.566608e-05	2.624173e-05
	-5.802712e-06	0.000692784	0.0025192	-0.002268076	8.566608e-05	2.624173e-05	-0.0169354	0.01357801
1.8e+08	-0.0113709	0.01082079	0.0003610019	0.0002860306	0.001463717	2.790087e-05	8.82962e-05	0.0007114496
	0.0003610019	0.0002860306	-0.01051271	0.01125534	3.36945e-05	1.161006e-05	0.001484439	4.067735e-05
	0.001463717	2.790088e-05	3.36945e-05	1.161006e-05	-0.01094438	0.01108167	8.653173e-05	1.219285e-05
	8.82962e-05	0.0007114496	0.001484439	4.067761e-05	8.653173e-05	1.219285e-05	-0.0104759	0.01142004
1.9e+08	-0.005815458	0.006841653	0.0003917268	0.0002327413	0.001249356	0.002548639	0.0001870808	0.0007099463
	0.0003917268	0.0002327413	-0.005301655	0.007077848	3.456431e-05	6.860934e-06	0.00121758	0.002564291
	0.001249356	0.002548639	3.456431e-05	6.860934e-06	-0.005500924	0.006986673	8.598806e-05	-8.472121e-07
	0.0001870808	0.0007099463	0.00121758	0.002564291	8.598806e-05	-8.472121e-07	-0.005258582	0.007208922
2e+08	-0.002019227	0.001218153	0.0004158377	0.0001762715	0.001831039	0.005007952	0.000283904	0.0006893107
	0.0004158377	0.0001762715	-0.001894312	0.001379941	3.482644e-05	1.989706e-06	0.001745886	0.005043625
	0.001831038	0.005007952	3.482644e-05	1.989706e-06	-0.001823428	0.001288927	8.44654e-05	-1.328678e-05
	0.000283904	0.0006893107	0.001745886	0.005043625	8.44654e-05	-1.328678e-05	-0.001858302	0.001476612
2.1e+08	-0.0003914151	-0.00538165	0.0004328951	0.000117037	0.003146178	0.007149202	0.000373804	0.0006529386
	0.0004328951	0.000117037	-0.0006626628	-0.005162753	3.441782e-05	-2.921964e-06	0.003011454	0.007224439
	0.003146178	0.007149202	3.441782e-05	-2.921964e-06	-0.0003113367	-0.005347048	8.192459e-05	-2.56108e-05
	0.000373804	0.0006529386	0.003011454	0.007224439	8.192459e-05	-2.56108e-05	-0.0006468207	-0.005096685
2.2e+08	-0.001107547	-0.0122029	0.0004422755	5.560464e-05	0.005057388	0.008750548	0.0004542677	0.0006054489
	0.0004422755	5.560464e-05	-0.001742641	-0.01179875	3.330153e-05	-7.768043e-06	0.004877093	0.008884942
	0.005057388	0.008750548	3.330153e-05	-7.768043e-06	-0.001132185	-0.01217154	7.803421e-05	-3.813019e-05
	0.0004542677	0.0006054489	0.004877093	0.008884942	7.803421e-05	-3.813019e-05	-0.001758308	-0.0117552
2.3e+08	-0.004095729	-0.01848098	0.0004432706	-7.169541e-06	0.007358056	0.009649305	0.0005253729	0.0005513519
	0.0004432706	-7.169541e-06	-0.005024427	-0.01777958	3.14796e-05	-1.242931e-05	0.007141142	0.009860083
	0.007358056	0.009649305	3.14796e-05	-1.242931e-05	-0.004207985	-0.01842615	7.232733e-05	-5.08692e-05
	0.0005253729	0.0005513519	0.007141142	0.009860083	7.232733e-05	-5.08692e-05	-0.005079812	-0.01774696
2.4e+08	-0.009047318	-0.02352108	0.0004352509	-7.007031e-05	0.009797235	0.009757844	0.0005892946	0.0004938331
	0.0004352509	-7.007031e-05	-0.01016828	-0.02243696	2.896763e-05	-1.677867e-05	0.009559671	0.01005957
	0.009797235	0.009757844	2.896763e-05	-1.677867e-05	-0.009225938	-0.02342299	6.420683e-05	-6.347056e-05
	0.0005892946	0.0004938331	0.009559671	0.01005957	6.420683e-05	-6.347056e-05	-0.01026742	-0.02240141
2.5e+08	-0.0154539	-0.02676751	0.0004178518	-0.0001315474	0.01210979	0.009075535	0.0006492988	0.0004339296
	0.0004178518	-0.0001315474	-0.01664376	-0.0252503	2.581293e-05	-2.068832e-05	0.01187345	0.009477415
	0.01210979	0.009075535	2.581293e-05	-2.068832e-05	-0.01567534	-0.02661344	5.325474e-05	-7.520064e-05
	0.0006492988	0.0004339296	0.01187345	0.009477415	5.325474e-05	-7.520064e-05	-0.01678598	-0.02519717
2.6e+08	-0.02266292	-0.02785757	0.0003911327	-0.0001898303	0.01404582	0.007688161	0.0007084851	0.000370292
	0.0003911327	-0.0001898303	-0.02378785	-0.02589761	2.20949e-05	-2.403932e-05	0.01383641	0.008191834
	0.01404582	0.007688161	2.20949e-05	-2.403932e-05	-0.02290308	-0.02764169	3.941157e-05	-8.507716e-05
	0.0007084851	0.000370292	0.01383641	0.008191834	3.941157e-05	-8.507716e-05	-0.02396762	-0.02581303
2.7e+08	-0.02994657	-0.02665473	0.0003556673	-0.0002431131	0.01539799	0.005757591	0.000768569	0.0002995778
	0.0003556673	-0.0002431131	-0.03087517	-0.02428474	1.792295e-05	-2.673241e-05	0.01524219	0.006355761
	0.01539799	0.005757591	1.792295e-05	-2.673241e-05	-0.0301823	-0.02637759	2.307202e-05	-9.20684e-05
	0.000768569	0.0002995778	0.01524219	0.006355761	2.307202e-05	-9.20684e-05	-0.03108269	-0.02415729
2.8e+08	-0.03657662	-0.0232583	0.0003125394	-0.0002897603	0.01602349	0.00350318	0.000829001	0.0002173691
	0.0003125394	-0.0002897603	-0.03719299	-0.02055121	1.342929e-05	-2.869685e-05	0.0159457	0.004179335
	0.01602349	0.00350318	1.342929e-05	-2.869685e-05	-0.03678703	-0.0229261	5.073263e-06	-9.531494e-05
	0.000829001	0.0002173691	0.0159457	0.004179335	5.073263e-06	-9.531494e-05	-0.03741518	-0.02037317
2.9e+08	-0.04189755	-0.01798953	0.0002632464	-0.0003284909	0.0158585	0.00117736	0.000886612	0.0001194119
	0.0002632464	-0.0003284909	-0.04211328	-0.01505221	8.758726e-06	-2.989705e-05	0.01587754	0.001906692
	0.0158585	0.00117736	8.758726e-06	-2.989705e-05	-0.04206503	-0.01761314	-1.34191e-05	-9.431948e-05
	0.000886612	0.0001194119	0.01587754	0.001906692	-1.34191e-05	-9.431948e-05	-0.04233511	-0.01482042
3e+08	-0.0453908	-0.01135608	0.0002095351	-0.0003585013	0.01492375	-0.0009616264	0.0009358753	2.887557e-06
	0.0002095351	-0.0003585013	-0.0451546	-0.008319538	4.056124e-06	-3.033474e-05	0.01505	-0.0002101439
	0.01492375	-0.0009616264	4.056124e-06	-3.033474e-05	-0.04550183	-0.01095003	-3.109922e-05	-8.90624e-05
	0.0009358753	2.887557e-06	0.01505	-0.0002101439	-3.109922e-05	-8.90624e-05	-0.04536072	-0.008035881
3.1e+08	-0.04672445	-0.003999099	0.0001532053	-0.0003795057	0.01332122	-0.002676872	0.0009697272	-0.0001325696
	0.0001532053	-0.0003795057	-0.04602843	-0.001006016	-5.461966e-07	-3.004552e-05	0.01355459	-0.001937438
	0.01332122	-0.002676872	-5.461966e-07	-3.004552e-05	-0.04677013	-0.003580426	-4.673989e-05	-8.001927e-05
	0.0009697272	-0.0001325696	0.01355459	-0.001937438	-4.673989e-05	-8.001927e-05	-0.04620477	-0.0006772258
3.2e+08	-0.04578379	0.003371704	9.59208e-05	-0.0003916869	0.01122258	-0.003777083	0.0009807676	-0.0002843109
	9.59208e-05	-0.0003916869	-0.04466561	0.006181001	-4.9383e-06	-2.909011e-05	0.01155161	-0.003083408
	0.01122258	-0.003777083	-4.9383e-06	-2.909011e-05	-0.04576015	0.003784633	-5.939357e-05	-6.807944e-05
	0.0009807676	-0.0002843109	0.01155161	-0.003083408	-5.939357e-05	-6.807944e-05	-0.04480093	0.006543959
3.3e+08	-0.04268059	0.01004861	3.906644e-05	-0.0003955773	0.008850988	-0.00413583	0.0009625999	-0.0004467051
	3.906644e-05	-0.0003955773	-0.04122124	0.01255043	-9.037145e-06	-2.754245e-05	0.009253242	-0.003517276
	0.008850988	-0.00413583	-9.037145e-06	-2.754245e-05	-0.04258869	0.0104373	-6.853531e-05	-5.438619e-05
	0.0009625999	-0.0004467051	0.009253242	-0.003517276	-6.853531e-05	-5.438619e-05	-0.04130833	0.01293346
3.4e+08	-0.03774048	0.01539548	-1.63253e-05	-0.0003918979	0.006458042	-0.003704168	0.0009110264	-0.0006117605
	-1.63253e-05	-0.0003918979	-0.03605755	0.01749588	-1.278491e-05	-2.547802e-05	0.006901813	-0.003182149
	0.006458042	-0.003704168	-1.278491e-05	-2.547802e-05	-0.03758622	0.01574253	-7.412035e-05	-4.01329e-05
	0.0009110264	-0.0006117605	0.006901813	-0.003182149	-7.412035e-05	-4.01329e-05	-0.03609406	0.0178832
3.5e+08	-0.03146981	0.01890997	-6.956779e-05	-0.0003813869	0.004298084	-0.0025156	0.0008248682	-0.0007701935
	-6.956779e-05	-0.0003813869	-0.0297069	0.02055533	-1.614222e-05	-2.296503e-05	0.00474527	-0.002100684
	0.004298084	-0.0025156	-1.614222e-05	-2.296503e-05	-0.03126351	0.01920018	-7.654636e-05	-2.63572e-05
	0.0008248682	-0.0007701935	0.00474527	-0.002100684	-7.654636e-05	-2.63572e-05	-0.02969567	0.02093112
3.6e+08	-0.02450514	0.02027246	-0.00012024	-0.0003646592	0.002602179	-0.0006829895	0.0007062374	-0.0009127554
	-0.00012024	-0.0003646592	-0.02281824	0.02145647	-1.907877e-05	-2.006111e-05	0.003012013	-0.0003730487
	0.002602179	-0.0006829895	-1.907877e-05	-2.006111e-05	-0.02426084	0.02049392	-7.653057e-05	-1.377471e-05
	0.0007062374	-0.0009127554	0.003012013	-0.0003730487	-7.653057e-05	-1.377471e-05	-0.0227671	0.0218065
3.7e+08	-0.01755022	0.01937731	-0.0001680522	-0.0003421217	0.001554097	0.001612438	0.0005602214	-0.001031533
	-0.0001680522	-0.0003421217	-0.01609229	0.02014331	-2.156458e-05	-1.681541e-05	0.001887378	0.001832786
	0.001554097	0.001612438	-2.156458e-05	-1.681541e-05	-0.01728472	0.01952222	-7.492687e-05	-2.685882e-06
	0.0005602214	-0.001031533	0.001887378	0.001832786	-7.492687e-05	-2.685882e-06	-0.01601331	0.0204565
3.8e+08	-0.0113062	0.01634296	-0.0002126917	-0.0003139675	0.001270649	0.004139201	0.0003940414	-0.001120976
	-0.0002126917	-0.0003139675	-0.01021151	0.01678144	-2.356457e-05	-1.327477e-05	0.001494018	0.004297755
	0.001270649	0.004139201	-2.356457e-05	-1.327477e-05	-0.01103795	0.01640834	-7.2522e-05	7.024433e-06
	0.0003940414	-0.001120976	0.001494018	0.004297755	-7.2522e-05	7.024433e-06	-0.01011981	0.01705109
3.9e+08	-0.006402114	0.01150014	-0.0002536839	-0.0002802468	0.001788498	0.006639267	0.0002158678	-0.001178443
	-0.0002536839	-0.0002802468	-0.005771775	0.01174117	-2.503775e-05	-9.491416e-06	0.00187832	0.006774045
	0.001788498	0.006639267	-2.503775e-05	-9.491416e-06	-0.006149808	0.01148804	-6.985482e-05	1.579389e-05
	0.0002158678	-0.001178443	0.00187832	0.006774045	-6.985482e-05	1.579389e-05	-0.005684018	0.01196575
4e+08	-0.003332219	0.005358691	-0.000290309	-0.0002410028	0.003059123	0.008855174	3.3549e-05	-0.001204176
	-0.000290309	-0.0002410028	-0.003222721	0.005560081	-2.594069e-05	-5.529629e-06	0.003004552	0.009011026
	0.003059123	0.008855174	-2.594069e-05	-5.529629e-06	-0.003113475	0.005276215	-6.710028e-05	2.421588e-05
	3.3549e-05	-0.001204176	0.003004552	0.009011026	-6.710028e-05	2.421588e-05	-0.003155349	0.005743523
4.1e+08	-0.002406904	-0.001443473	-0.0003215969	-0.0001964376	0.004952882	0.01055776	-0.000146488	-0.001200713
	-0.0003215969	-0.0001964376	-0.002822733	-0.001111356	-2.623398e-05	-1.469623e-06	0.004757765	0.01078208
	0.004952882	0.01055776	-2.623398e-05	-1.469623e-06	-0.002236865	-0.001584623	-6.404629e-05	3.283728e-05
	-0.000146488	-0.001200713	0.004757765	0.01078208	-6.404629e-05	3.283728e-05	-0.002790232	-0.0009599644
4.2e+08	-0.00372204	-0.008204358	-0.0003464098	-0.0001470657	0.007272112	0.01157137	-0.0003199254	-0.001171901
	-0.0003464098	-0.0001470657	-0.004613473	-0.007575637	-2.588989e-05	2.592045e-06	0.006955467	0.01190931
	0.007272112	0.01157137	-2.588989e-05	2.592045e-06	-0.00361217	-0.008388697	-6.017095e-05	4.196883e-05
	-0.0003199254	-0.001171901	0.006955467	0.01190931	-6.017095e-05	4.196883e-05	-0.004626782	-0.007442897
4.3e+08	-0.00715006	-0.01422822	-0.0003635974	-9.381369e-05	0.009772086	0.01179361	-0.000484694	-0.00112174
	-0.0003635974	-9.381369e-05	-0.00841651	-0.01315866	-2.48997e-05	6.545402e-06	0.009367027	0.01228323
	0.009772086	0.01179361	-2.48997e-05	6.545402e-06	-0.007107182	-0.01443761	-5.480317e-05	5.155587e-05
	-0.000484694	-0.00112174	0.009367027	0.01228323	-5.480317e-05	5.155587e-05	-0.008481772	-0.01302818
4.4e+08	-0.01235363	-0.01889492	-0.0003721898	-3.803563e-05	0.01218751	0.01120693	-0.0006405619	-0.001053327
	-0.0003721898	-3.803563e-05	-0.01385238	-0.01727738	-2.327959e-05	1.02728e-05	0.01173863	0.01187482
	0.01218751	0.01120693	-2.327959e-05	1.02728e-05	-0.01237931	-0.01910996	-4.73273e-05	6.114281e-05
	-0.0006405619	-0.001053327	0.01173863	0.01187482	-4.73273e-05	6.114281e-05	-0.01397018	-0.0171315
4.5e+08	-0.01882029	-0.02172129	-0.0003715857	1.856753e-05	0.01426152	0.009880867	-0.0007881793	-0.0009682904
	-0.0003715857	1.856753e-05	-0.02037987	-0.01949779	-2.107444e-05	1.365698e-05	0.01382089	0.01073869
	0.01426152	0.009880867	-2.107444e-05	1.365698e-05	-0.01891065	-0.02192284	-3.738255e-05	6.994243e-05
	-0.0007881793	-0.0009682904	0.01382089	0.01073869	-3.738255e-05	6.994243e-05	-0.02054506	-0.01931937
4.6e+08	-0.02591441	-0.02240822	-0.0003614715	7.399554e-05	0.0157736	0.007964317	-0.0009402381	-0.0008445496
	-0.0003614715	7.399554e-05	-0.02735129	-0.0195772	-1.835973e-05	1.658881e-05	0.01539577	0.009006777
	0.0157736	0.007964317	-1.835973e-05	1.658881e-05	-0.02606033	-0.02257886	-2.479577e-05	7.688361e-05
	-0.0009402381	-0.0008445496	0.01539577	0.009006777	-2.479577e-05	7.688361e-05	-0.02755346	-0.01935156
4.7e+08	-0.03294068	-0.0208688	-0.00034251	0.0001264179	0.01656335	0.005669165	-0.001078125	-0.0006965758
	-0.00034251	0.0001264179	-0.03407771	-0.01748695	-1.523667e-05	1.898243e-05	0.01629977	0.006873634
	0.01656335	0.005669165	-1.523667e-05	1.898243e-05	-0.03312847	-0.02099441	-1.025485e-05	8.107003e-05
