!$
! Info: Touchstone file created by Circ.  Input file=Tx_16in_Rx_93ohms_TxVia_60mils_RxVia_70mils.circ
!$
# Hz S RI R 50
0	0.01461159	1.957456e-25	-3.994064e-11	9.40531e-27	0.0001049799	2.817788e-23	-3.161577e-09	3.919512e-25
	-3.99414e-11	9.405417e-27	0.01460711	2.425654e-25	3.11411e-11	2.790244e-27	0.0001046967	3.566299e-23
	0.0001060628	2.836612e-23	3.113695e-11	2.790747e-27	0.01462687	1.958071e-25	-2.002998e-11	8.484611e-27
	-3.161452e-09	3.919359e-25	0.0001049661	3.581592e-23	-2.012297e-11	8.495951e-27	0.01462137	2.415259e-25
1e+07	0.0198999	-0.002553769	4.541069e-11	1.49909e-10	0.0006642845	0.002661264	-2.935547e-09	8.289952e-09
	4.541069e-11	1.49909e-10	0.02104782	-0.00282878	4.633203e-11	1.57432e-10	0.0006960301	0.00289315
	0.0006643162	0.002661269	4.633203e-11	1.57432e-10	0.02145737	-0.001943813	-2.801207e-09	1.040592e-08
	-2.935547e-09	8.289952e-09	0.0006960332	0.002893147	-2.801207e-09	1.040592e-08	0.02062808	-0.002809489
2e+07	0.02247609	-0.01041189	3.227924e-12	2.834979e-10	0.002062183	0.005084892	-2.186103e-10	1.793973e-11
	3.22793e-12	2.834979e-10	0.02304998	-0.01121113	-1.397544e-12	3.083292e-10	0.001984511	0.005530424
	0.002062198	0.005084873	-1.397548e-12	3.083292e-10	0.02449733	-0.01012847	8.764051e-11	6.010388e-10
	-2.186103e-10	1.793973e-11	0.001984508	0.005530424	8.764052e-11	6.010388e-10	0.022752	-0.01104611
3e+07	0.02073807	-0.01984992	-9.332549e-11	4.588823e-10	0.004115548	0.00690469	-1.191481e-10	5.572703e-10
	-9.332549e-11	4.588823e-10	0.02082944	-0.02071128	-9.396566e-11	4.972722e-10	0.004066241	0.007438017
	0.004115548	0.006904687	-9.396566e-11	4.972722e-10	0.02300922	-0.02000547	-1.023373e-10	5.626119e-10
	-1.191481e-10	5.572703e-10	0.004066241	0.007438019	-1.023373e-10	5.626119e-10	0.02061804	-0.02052009
4e+07	0.01558408	-0.02846588	-2.123602e-10	6.8508e-10	0.006593984	0.007949378	-2.024634e-10	8.46088e-10
	-2.123602e-10	6.8508e-10	0.0152703	-0.02920441	-2.035405e-10	7.334422e-10	0.00664317	0.008493133
	0.006593988	0.007949383	-2.035405e-10	7.334422e-10	0.01791819	-0.0291163	-2.494474e-10	8.184543e-10
	-2.024634e-10	8.46088e-10	0.006643171	0.008493134	-2.494474e-10	8.184543e-10	0.01512022	-0.02902015
5e+07	0.007836834	-0.03512276	-3.29234e-10	9.785846e-10	0.00921863	0.008130092	-3.037954e-10	1.178813e-09
	-3.29234e-10	9.785846e-10	0.007212749	-0.03561512	-3.102409e-10	1.027324e-09	0.009345342	0.008659002
	0.009218633	0.008130094	-3.102409e-10	1.027324e-09	0.01006511	-0.03626413	-3.716295e-10	1.163799e-09
	-3.037954e-10	1.178813e-09	0.009345343	0.008659002	-3.716295e-10	1.163799e-09	0.007101051	-0.03545154
6e+07	-0.001568559	-0.03912632	-4.116448e-10	1.340041e-09	0.01169957	0.007455619	-3.653299e-10	1.574436e-09
	-4.116448e-10	1.340041e-09	-0.002391703	-0.03929374	-3.877863e-10	1.376911e-09	0.01188444	0.007955465
	0.01169957	0.007455618	-3.877863e-10	1.376911e-09	0.0004080536	-0.04070694	-4.511741e-10	1.577846e-09
	-3.653299e-10	1.574436e-09	0.01188444	0.007955465	-4.511741e-10	1.577846e-09	-0.002484576	-0.03915391
7e+07	-0.01162606	-0.04014951	-4.274865e-10	1.755259e-09	0.01376948	0.006028687	-3.521233e-10	2.012788e-09
	-4.274865e-10	1.755259e-09	-0.01252803	-0.03995486	-4.12088e-10	1.770534e-09	0.01399515	0.006491812
	0.01376947	0.006028687	-4.12088e-10	1.770534e-09	-0.01001766	-0.04208112	-4.606229e-10	2.045152e-09
	-3.521233e-10	2.012788e-09	0.01399515	0.006491812	-4.606229e-10	2.045152e-09	-0.0126175	-0.03983512
8e+07	-0.02133876	-0.03820533	-3.50882e-10	2.196095e-09	0.01521288	0.004031693	-2.461444e-10	2.459059e-09
	-3.50882e-10	2.196095e-09	-0.02219961	-0.03765139	-3.641782e-10	2.186328e-09	0.01546347	0.004454167
	0.01521286	0.004031697	-3.641782e-10	2.186328e-09	-0.0201818	-0.0403746	-3.745217e-10	2.538648e-09
	-2.461444e-10	2.459059e-09	0.01546347	0.004454167	-3.745217e-10	2.538648e-09	-0.02229648	-0.03754385
9e+07	-0.02980395	-0.03361186	-1.672867e-10	2.623273e-09	0.01588897	0.001704235	-5.095739e-11	2.872941e-09
	-1.672867e-10	2.623273e-09	-0.03051227	-0.03273793	-2.338153e-10	2.591242e-09	0.01614792	0.002084166
	0.01588896	0.00170424	-2.338153e-10	2.591242e-09	-0.0291492	-0.03589165	-1.788475e-10	3.017965e-09
	-5.095739e-11	2.872941e-09	0.01614792	0.002084166	-1.788475e-10	3.017965e-09	-0.03062279	-0.03263269
1e+08	-0.03628332	-0.02693954	1.268178e-10	2.990317e-09	0.01575488	-0.0006841959	2.231977e-10	3.220992e-09
	1.268178e-10	2.990317e-09	-0.03672909	-0.02581635	-2.474415e-11	2.955993e-09	0.01599155	-0.00034816
	0.01575488	-0.000684196	-2.474415e-11	2.955993e-09	-0.03617893	-0.02919852	1.327543e-10	3.438523e-09
	2.231977e-10	3.220992e-09	0.01599155	-0.0003481601	1.327543e-10	3.438523e-09	-0.03685856	-0.02570335
1.1e+08	-0.04029962	-0.01897715	4.867263e-10	3.219204e-09	0.01481665	-0.002819278	5.450103e-10	3.471994e-09
	4.867263e-10	3.219204e-09	-0.04045255	-0.01777706	2.541483e-10	3.232706e-09	0.01502696	-0.002565537
	0.01481665	-0.002819278	2.541483e-10	3.232706e-09	-0.04066636	-0.02094609	5.188618e-10	3.708264e-09
	5.450103e-10	3.471994e-09	0.01502696	-0.002565537	5.188618e-10	3.708264e-09	-0.04059164	-0.01763195
1.2e+08	-0.0416393	-0.0105223	8.304029e-10	3.334286e-09	0.01317767	-0.004515271	8.757496e-10	3.616793e-09
	8.304029e-10	3.334286e-09	-0.04153948	-0.009323676	5.420417e-10	3.416408e-09	0.01337707	-0.004327643
	0.01317767	-0.004515272	5.420417e-10	3.416408e-09	-0.04229924	-0.0121464	8.933326e-10	3.857288e-09
	8.757496e-10	3.616793e-09	0.01337707	-0.004327642	8.933326e-10	3.857288e-09	-0.04166864	-0.009147008
1.3e+08	-0.04032803	-0.002432654	1.132388e-09	3.349546e-09	0.01104016	-0.005576079	1.174547e-09	3.663648e-09
	1.132388e-09	3.349546e-09	-0.04001079	-0.00130511	8.112444e-10	3.506891e-09	0.01122678	-0.005445019
	0.01104016	-0.005576079	8.112444e-10	3.506891e-09	-0.0411537	-0.00369867	1.228981e-09	3.896703e-09
	1.174547e-09	3.663648e-09	0.01122677	-0.005445018	1.228981e-09	3.896703e-09	-0.04011757	-0.001103056
1.4e+08	-0.03666227	0.004501604	1.377586e-09	3.268287e-09	0.008642066	-0.005878938	1.416769e-09	3.616422e-09
	1.377586e-09	3.268287e-09	-0.03617757	0.005498592	1.039765e-09	3.513152e-09	0.00881029	-0.005796825
	0.008642066	-0.005878939	1.039765e-09	3.513152e-09	-0.03754664	0.003578428	1.503974e-09	3.828627e-09
	1.416769e-09	3.616422e-09	0.008810289	-0.005796824	1.503974e-09	3.828627e-09	-0.03625382	0.005716269
1.5e+08	-0.03116338	0.009633709	1.532203e-09	3.11072e-09	0.006244112	-0.005383316	1.569923e-09	3.49455e-09
	1.532203e-09	3.11072e-09	-0.03057635	0.01045626	1.198159e-09	3.450597e-09	0.006386512	-0.00534257
	0.006244111	-0.005383316	1.198159e-09	3.450597e-09	-0.03201883	0.009016526	1.680025e-09	3.6747e-09
	1.569923e-09	3.49455e-09	0.006386511	-0.00534257	1.680025e-09	3.6747e-09	-0.03061844	0.01067774
1.6e+08	-0.02451904	0.01251943	1.569962e-09	2.9088e-09	0.004104491	-0.004133681	1.608684e-09	3.329931e-09
	1.569962e-09	2.9088e-09	-0.02390621	0.01314455	1.262741e-09	3.344515e-09	0.004212845	-0.004125523
	0.004104491	-0.004133681	1.262741e-09	3.344515e-09	-0.02527837	0.0121559	1.728327e-09	3.470759e-09
	1.608684e-09	3.329931e-09	0.004212845	-0.004125522	1.728327e-09	3.470759e-09	-0.02391522	0.0133575
1.7e+08	-0.0175109	0.01295539	1.476321e-09	2.703172e-09	0.002452849	-0.002254439	1.519222e-09	3.162589e-09
	1.476321e-09	2.703172e-09	-0.01695395	0.01338482	1.219325e-09	3.228279e-09	0.0025192	-0.002268076
	0.002452849	-0.002254439	1.219325e-09	3.228279e-09	-0.01812802	0.01278359	1.632583e-09	3.261439e-09
	1.519222e-09	3.162589e-09	0.0025192	-0.002268076	1.632583e-09	3.261439e-09	-0.0169354	0.01357801
1.8e+08	-0.01093486	0.01099355	1.251131e-09	2.538805e-09	0.001466612	6.295857e-05	1.301824e-09	3.036617e-09
	1.251131e-09	2.538805e-09	-0.01051271	0.01125534	1.065777e-09	3.139593e-09	0.001484439	4.067735e-05
	0.001466612	6.295852e-05	1.065777e-09	3.139593e-09	-0.01138467	0.01094764	1.392362e-09	3.096193e-09
	1.301824e-09	3.036617e-09	0.001484439	4.067761e-05	1.392362e-09	3.096193e-09	-0.0104759	0.01142004
1.9e+08	-0.005521343	0.006930483	9.097021e-10	2.459865e-09	0.001252157	0.002579871	9.719017e-10	2.995183e-09
	9.097021e-10	2.459865e-09	-0.005301655	0.007077848	8.131581e-10	3.116089e-09	0.00121758	0.002564291
	0.001252157	0.002579871	8.131581e-10	3.116089e-09	-0.005798549	0.006946018	1.024271e-09	3.023621e-09
	9.719017e-10	2.995183e-09	0.00121758	0.002564291	1.024271e-09	3.023621e-09	-0.005258582	0.007208922
2e+08	-0.001861655	0.00127229	4.820422e-10	2.504562e-09	0.001829272	0.005031244	5.592379e-10	3.075529e-09
	4.820422e-10	2.504562e-09	-0.001894312	0.001379941	4.85233e-10	3.190849e-09	0.001745886	0.005043625
	0.001829272	0.005031244	4.85233e-10	3.190849e-09	-0.001978494	0.001290982	5.610889e-10	3.085774e-09
	5.592379e-10	3.075529e-09	0.001745886	0.005043625	5.610889e-10	3.085774e-09	-0.001858302	0.001476612
2.1e+08	-0.0003558349	-0.005320155	1.0449e-11	2.699867e-09	0.003146321	0.007167857	1.055883e-10	3.303743e-09
	1.0449e-11	2.699867e-09	-0.0006626628	-0.005162753	1.165793e-10	3.387647e-09	0.003011454	0.007224439
	0.003146321	0.007167857	1.165793e-10	3.387647e-09	-0.00033886	-0.005346582	4.910878e-11	3.312365e-09
	1.055883e-10	3.303743e-09	0.003011454	0.007224439	4.910878e-11	3.312365e-09	-0.0006468207	-0.005096685
2.2e+08	-0.001170343	-0.01210024	-4.547876e-10	3.058184e-09	0.005060076	0.008766035	-3.394973e-10	3.691589e-09
	-4.547876e-10	3.058184e-09	-0.001742641	-0.01179875	-2.511898e-10	3.718078e-09	0.004877093	0.008884942
	0.005060076	0.008766035	-2.511898e-10	3.718078e-09	-0.001056462	-0.01220722	-4.566069e-10	3.717108e-09
	-3.394973e-10	3.691589e-09	0.004877093	0.008884942	-4.566069e-10	3.717108e-09	-0.001758308	-0.0117552
2.3e+08	-0.004226593	-0.01831409	-8.604454e-10	3.574993e-09	0.007361615	0.009661108	-7.236257e-10	4.234133e-09
	-8.604454e-10	3.574993e-09	-0.005024427	-0.01777958	-5.737437e-10	4.179497e-09	0.007141142	0.009860083
	0.007361615	0.009661108	-5.737437e-10	4.179497e-09	-0.004058661	-0.01852264	-8.977967e-10	4.295166e-09
	-7.236257e-10	4.234133e-09	0.007141142	0.009860083	-8.977967e-10	4.295166e-09	-0.005079812	-0.01774696
2.4e+08	-0.009213418	-0.02327781	-1.156063e-09	4.228402e-09	0.009799972	0.009766003	-9.971864e-10	4.90926e-09
	-1.156063e-09	4.228402e-09	-0.01016828	-0.02243696	-8.088945e-10	4.754639e-09	0.009559671	0.01005957
	0.009799972	0.009766003	-8.088945e-10	4.754639e-09	-0.009035732	-0.02359419	-1.219227e-09	5.022692e-09
	-9.971864e-10	4.90926e-09	0.009559671	0.01005957	-1.219227e-09	5.022692e-09	-0.01026742	-0.02240141
2.5e+08	-0.01562295	-0.02644612	-1.299546e-09	4.9806e-09	0.01211015	0.009080607	-1.118941e-09	5.679065e-09
	-1.299546e-09	4.9806e-09	-0.01664376	-0.0252503	-9.213263e-10	5.412894e-09	0.01187345	0.009477415
	0.01211015	0.009080607	-9.213263e-10	5.412894e-09	-0.01547702	-0.02686283	-1.374813e-09	5.858421e-09
	-1.118941e-09	5.679065e-09	0.01187345	0.009477415	-1.374813e-09	5.858421e-09	-0.01678598	-0.02519717
2.6e+08	-0.02280582	-0.02746549	-1.262371e-09	5.78115e-09	0.01404255	0.007691143	-1.060972e-09	6.493032e-09
	-1.262371e-09	5.78115e-09	-0.02378785	-0.02589761	-8.868975e-10	6.113082e-09	0.01383641	0.008191834
	0.01404255	0.007691143	-8.868975e-10	6.113082e-09	-0.02272674	-0.02796331	-1.332965e-09	6.747179e-09
	-1.060972e-09	6.493032e-09	0.01383641	0.008191834	-1.332965e-09	6.747179e-09	-0.02396762	-0.02581303
2.7e+08	-0.0300395	-0.02620683	-1.032413e-09	6.57151e-09	0.01539022	0.005759804	-8.124484e-10	7.292715e-09
	-1.032413e-09	6.57151e-09	-0.03087517	-0.02428474	-6.949948e-10	6.807224e-09	0.01524219	0.006355761
	0.01539022	0.005759804	-6.949948e-10	6.807224e-09	-0.0300532	-0.02675765	-1.080698e-09	7.62494e-09
	-8.124484e-10	7.292715e-09	0.01524219	0.006355761	-1.080698e-09	7.62494e-09	-0.03108269	-0.02415729
2.8e+08	-0.0366025	-0.02277473	-6.168499e-10	7.290678e-09	0.01601081	0.003506133	-3.817602e-10	8.017516e-09
	-6.168499e-10	7.290678e-09	-0.03719299	-0.02055121	-3.50808e-10	7.445245e-09	0.0159457	0.004179335
	0.01601081	0.003506133	-3.50808e-10	7.445245e-09	-0.03672398	-0.02334502	-6.259112e-10	8.425066e-09
	-3.817602e-10	8.017516e-09	0.0159457	0.004179335	-6.259112e-10	8.425066e-09	-0.03741518	-0.02037317
2.9e+08	-0.04184676	-0.01749341	-4.227313e-11	7.881435e-09	0.01584098	0.001182606	2.032884e-10	8.610987e-09
	-4.227313e-11	7.881435e-09	-0.04211328	-0.01505221	1.245751e-10	7.979962e-09	0.01587754	0.001906692
	0.01584098	0.001182606	1.245751e-10	7.979962e-09	-0.04207951	-0.01804778	2.326406e-12	9.08505e-09
	2.032884e-10	8.610987e-09	0.01587754	0.001906692	2.326406e-12	9.08505e-09	-0.04233511	-0.01482042
3e+08	-0.04526129	-0.01087125	6.470795e-10	8.296426e-09	0.01490196	-0.0009526467	8.973304e-10	9.02702e-09
	6.470795e-10	8.296426e-09	-0.0451546	-0.008319538	6.955147e-10	8.371986e-09	0.01505	-0.0002101439
	0.01490196	-0.0009526467	6.955147e-10	8.371986e-09	-0.04559765	-0.01137594	7.556323e-10	9.553178e-09
	8.973304e-10	9.02702e-09	0.01505	-0.0002101439	7.556323e-10	9.553178e-09	-0.04536072	-0.008035881
3.1e+08	-0.04652122	-0.003547987	1.392911e-09	8.503547e-09	0.01329612	-0.002662956	1.641248e-09	9.235272e-09
	1.392911e-09	8.503547e-09	-0.04602843	-0.001006016	1.31458e-09	8.594125e-09	0.01355459	-0.001937438
	0.01329612	-0.002662956	1.31458e-09	8.594125e-09	-0.04694375	-0.003973993	1.570234e-09	9.794441e-09
	1.641248e-09	9.235272e-09	0.01355459	-0.001937438	1.570234e-09	9.794441e-09	-0.04620477	-0.0006772258
3.2e+08	-0.04551794	0.003769821	2.128079e-09	8.490046e-09	0.01119546	-0.003757379	2.367643e-09	9.225192e-09
	2.128079e-09	8.490046e-09	-0.04466561	0.006181001	1.926615e-09	8.634878e-09	0.01155161	-0.003083408
	0.01119546	-0.003757379	1.926615e-09	8.634878e-09	-0.04600152	0.003444262	2.372692e-09	9.79506e-09
	2.367643e-09	9.225192e-09	0.01155161	-0.003083408	2.372692e-09	9.79506e-09	-0.04480093	0.006543959
3.3e+08	-0.04236797	0.01037903	2.782989e-09	8.264887e-09	0.008823346	-0.004109921	3.007471e-09	9.008168e-09
	2.782989e-09	8.264887e-09	-0.04122124	0.01255043	2.473866e-09	8.500645e-09	0.009253242	-0.003517276
	0.008823346	-0.004109921	2.473866e-09	8.500645e-09	-0.04288247	0.0101667	3.086943e-09	9.565077e-09
	3.007471e-09	9.008168e-09	0.009253242	-0.003517276	3.086943e-09	9.565077e-09	-0.04130833	0.01293346
3.4e+08	-0.03740007	0.01564902	3.292602e-09	7.859014e-09	0.006431423	-0.003672102	3.497174e-09	8.617445e-09
	3.292602e-09	7.859014e-09	-0.03605755	0.01749588	2.901774e-09	8.216284e-09	0.006901813	-0.003182149
	0.006431423	-0.003672102	2.901774e-09	8.216284e-09	-0.03791333	0.01555284	3.642022e-09	9.138617e-09
	3.497174e-09	8.617445e-09	0.006901813	-0.003182149	3.642022e-09	9.138617e-09	-0.03609406	0.0178832
3.5e+08	-0.03112197	0.01908342	3.603371e-09	7.323351e-09	0.004273957	-0.002477893	3.785578e-09	8.105723e-09
	3.603371e-09	7.323351e-09	-0.0297069	0.02055533	3.164929e-09	7.823775e-09	0.00474527	-0.002100684
	0.004273957	-0.002477893	3.164929e-09	7.823775e-09	-0.03160281	0.01909647	3.979691e-09	8.571648e-09
	3.785578e-09	8.105723e-09	0.00474527	-0.002100684	3.979691e-09	8.571648e-09	-0.02969567	0.02093112
3.6e+08	-0.02416989	0.0203686	3.679374e-09	6.724616e-09	0.002581791	-0.0006405787	3.8398e-09	7.540595e-09
	3.679374e-09	6.724616e-09	-0.02281824	0.02145647	3.232529e-09	7.378918e-09	0.003012013	-0.0003730487
	0.002581791	-0.0006405787	3.232529e-09	7.378918e-09	-0.02459103	0.02047501	4.061163e-09	7.937309e-09
	3.8398e-09	7.540595e-09	0.003012013	-0.0003730487	4.061163e-09	7.937309e-09	-0.0227671	0.0218065
3.7e+08	-0.01724555	0.01940437	3.506945e-09	6.139241e-09	0.001538358	0.00165828	3.649471e-09	6.998218e-09
	3.506945e-09	6.139241e-09	-0.01609229	0.02014331	3.092641e-09	6.946213e-09	0.001887378	0.001832786
	0.001538358	0.00165828	3.092641e-09	6.946213e-09	-0.01758603	0.01958097	3.872115e-09	7.319156e-09
	3.649471e-09	6.998218e-09	0.001887378	0.001832786	3.872115e-09	7.319156e-09	-0.01601331	0.0204565
3.8e+08	-0.01104667	0.01631375	3.097213e-09	5.645933e-09	0.001260043	0.004186981	3.228786e-09	6.555824e-09
	3.097213e-09	5.645933e-09	-0.01021151	0.01678144	2.754639e-09	6.592395e-09	0.001494018	0.004297755
	0.001260043	0.004186981	2.754639e-09	6.592395e-09	-0.01129373	0.01653243	3.425367e-09	6.802965e-09
	3.228786e-09	6.555824e-09	0.001494018	0.004297755	3.425367e-09	6.802965e-09	-0.01011981	0.01705109
3.9e+08	-0.00619776	0.01143075	2.486122e-09	5.317603e-09	0.001783035	0.006687415	2.616075e-09	6.283843e-09
	2.486122e-09	5.317603e-09	-0.005771775	0.01174117	2.249348e-09	6.379284e-09	0.00187832	0.006774045
	0.001783035	0.006687415	2.249348e-09	6.379284e-09	-0.006347855	0.01166121	2.760783e-09	6.467884e-09
	2.616075e-09	6.283843e-09	0.00187832	0.006774045	2.760783e-09	6.467884e-09	-0.005684018	0.01196575
4e+08	-0.003187896	0.00526699	1.731824e-09	5.213533e-09	0.003058334	0.008902184	1.87086e-09	6.238422e-09
	1.731824e-09	5.213533e-09	-0.003222721	0.005560081	1.626738e-09	6.356837e-09	0.003004552	0.009011026
	0.003058334	0.008902184	1.626738e-09	6.356837e-09	-0.003246886	0.005479699	1.942272e-09	6.377922e-09
	1.87086e-09	6.238422e-09	0.003004552	0.009011026	1.942272e-09	6.377922e-09	-0.003155349	0.005743523
4.1e+08	-0.002322098	-0.001539418	9.095715e-10	5.372645e-09	0.004955858	0.01060234	1.068642e-09	6.455148e-09
	9.095715e-10	5.372645e-09	-0.002822733	-0.001111356	9.513364e-10	6.557248e-09	0.004757765	0.01078208
	0.004955858	0.01060234	9.513364e-10	6.557248e-09	-0.002304469	-0.001370406	1.052118e-09	6.574699e-09
	1.068642e-09	6.455148e-09	0.004757765	0.01078208	1.052118e-09	6.574699e-09	-0.002790232	-0.0009599644
4.2e+08	-0.003691162	-0.00828787	1.045977e-10	5.808688e-09	0.007277593	0.01161257	2.938625e-10	6.944641e-09
	1.045977e-10	5.808688e-09	-0.004613473	-0.007575637	2.958578e-10	6.990855e-09	0.006955467	0.01190931
	0.007277593	0.01161257	2.958578e-10	6.990855e-09	-0.003618426	-0.008182438	1.831551e-10	7.072336e-09
	2.938625e-10	6.944641e-09	0.006955467	0.01190931	1.831551e-10	7.072336e-09	-0.004626782	-0.007442897
4.3e+08	-0.007163173	-0.01428537	-5.963011e-10	6.50792e-09	0.009778573	0.0118309	-3.682877e-10	7.690521e-09
	-5.963011e-10	6.50792e-09	-0.00841651	-0.01315866	-2.66217e-10	7.644368e-09	0.009367027	0.01228323
	0.009778573	0.0118309	-2.66217e-10	7.644368e-09	-0.007061595	-0.01425553	-5.703983e-10	7.85506e-09
	-3.682877e-10	7.690521e-09	0.009367027	0.01228323	-5.703983e-10	7.85506e-09	-0.008481772	-0.01302818
4.4e+08	-0.01239754	-0.01891564	-1.113591e-09	7.429609e-09	0.01219342	0.01124028	-8.404265e-10	8.65004e-09
	-1.113591e-09	7.429609e-09	-0.01385238	-0.01727738	-6.68258e-10	8.481611e-09	0.01173863	0.01187482
	0.01219342	0.01124028	-6.68258e-10	8.481611e-09	-0.01229541	-0.0189645	-1.122496e-09	8.877865e-09
	-8.404265e-10	8.65004e-09	0.01173863	0.01187482	-1.122496e-09	8.877865e-09	-0.01397018	-0.0171315
4.5e+08	-0.01887988	-0.02169999	-1.383301e-09	8.509333e-09	0.0142653	0.009910731	-1.061064e-09	9.757385e-09
	-1.383301e-09	8.509333e-09	-0.02037987	-0.01949779	-8.574604e-10	9.446666e-09	0.01382089	0.01073869
	0.0142653	0.009910731	-8.574604e-10	9.446666e-09	-0.01880466	-0.0218217	-1.404211e-09	1.007018e-08
	-1.061064e-09	9.757385e-09	0.01382089	0.01073869	-1.404211e-09	1.007018e-08	-0.02054506	-0.01931937
4.6e+08	-0.02597401	-0.02234403	-1.363915e-09	9.664795e-09	0.01577395	0.007991606	-9.91356e-10	1.092944e-08
	-1.363915e-09	9.664795e-09	-0.02735129	-0.0195772	-8.005587e-10	1.046917e-08	0.01539577	0.009006777
	0.01577395	0.007991606	-8.005587e-10	1.046917e-08	-0.0259496	-0.02252457	-1.371287e-09	1.134231e-08
	-9.91356e-10	1.092944e-08	0.01539577	0.009006777	-1.371287e-09	1.134231e-08	-0.02755346	-0.01935156
4.7e+08	-0.03298553	-0.0207655	-1.041137e-09	1.080354e-08	0.01655928	0.00569516	-6.198943e-10	1.207348e-08
	-1.041137e-09	1.080354e-08	-0.03407771	-0.01748695	-4.873172e-10	1.147092e-08	0.01629977	0.006873634
	0.01655928	0.00569516	-4.873172e-10	1.147092e-08	-0.03303	-0.02098429	-1.009059e-09	1.259387e-08
	-6.198943e-10	1.207348e-08	0.01629977	0.006873634	-1.009059e-09	1.259387e-08	-0.03430214	-0.01720334
4.8e+08	-0.03923037	-0.017101	-4.30079e-10	1.18318e-08	0.01653818	0.003273409	3.514814e-11	1.309613e-08
