!$
! Info: Touchstone file created by Circ.  Input file=Tx_16in_Rx_100ohms_TxVia_60mils_RxVia_70mils.circ
!$
# Hz S RI R 50
0	0.01650249	1.977649e-25	1.617304e-09	5.525731e-27	0.0001053272	3.237569e-23	-1.484551e-10	6.34034e-26
	1.617318e-09	5.525737e-27	0.01649821	2.420484e-25	4.419053e-09	1.916609e-26	0.0001044699	4.030028e-23
	0.0001044599	3.223087e-23	4.419054e-09	1.916609e-26	0.01651603	1.999185e-25	3.646911e-09	5.848425e-27
	-1.481702e-10	6.336852e-26	0.0001047391	4.04731e-23	3.64683e-09	5.848412e-27	0.01651242	2.410115e-25
1e+07	0.02454873	0.008867141	2.104649e-09	3.468205e-09	0.001196785	0.002866796	-1.644179e-09	1.172253e-08
	2.104649e-09	3.468205e-09	0.02477953	0.008831406	6.445062e-09	1.268704e-08	0.001191073	0.002864864
	0.001196769	0.00286681	6.445062e-09	1.268704e-08	0.02480551	0.008832534	-1.470378e-10	1.240087e-08
	-1.644179e-09	1.172253e-08	0.001191076	0.002864862	-1.470377e-10	1.240087e-08	0.02455679	0.008879072
2e+07	0.03256067	0.01072692	2.990233e-09	6.090248e-09	0.002392997	0.005690221	1.800586e-09	3.199811e-09
	2.990233e-09	6.090248e-09	0.03267755	0.01059708	8.761878e-09	2.222416e-08	0.002371989	0.005691945
	0.002393003	0.00569023	8.761878e-09	2.222416e-08	0.0327369	0.01058769	-5.103909e-11	6.780604e-09
	1.800586e-09	3.199811e-09	0.002371986	0.005691944	-5.103908e-11	6.780604e-09	0.0325466	0.01075366
3e+07	0.0390609	0.008810694	3.657167e-09	8.162587e-09	0.004336295	0.007697898	3.033428e-09	4.310334e-09
	3.657167e-09	8.162587e-09	0.03906435	0.008679713	1.015594e-08	3.119983e-08	0.004293624	0.007712739
	0.004336296	0.007697899	1.015594e-08	3.119983e-08	0.03917115	0.008638576	3.232743e-09	8.434642e-09
	3.033428e-09	4.310334e-09	0.004293623	0.00771274	3.232743e-09	8.434642e-09	0.03901148	0.008866785
4e+07	0.04407577	0.004717354	4.1524e-09	1.004482e-08	0.006803082	0.0088676	3.622903e-09	4.858768e-09
	4.1524e-09	1.004482e-08	0.04397155	0.004634663	1.114945e-08	3.992256e-08	0.006737093	0.008907332
	0.00680308	0.008867601	1.114945e-08	3.992256e-08	0.04412906	0.004535305	3.791361e-09	1.057674e-08
	3.622903e-09	4.858768e-09	0.006737093	0.008907333	3.791361e-09	1.057674e-08	0.04398538	0.004822001
5e+07	0.04738004	-0.0008502545	4.39521e-09	1.176454e-08	0.009630199	0.008965385	3.828181e-09	5.156348e-09
	4.39521e-09	1.176454e-08	0.04718582	-0.0008436946	1.172702e-08	4.854873e-08	0.009544467	0.009041704
	0.009630198	0.008965385	1.172702e-08	4.854873e-08	0.04738468	-0.001028682	3.859737e-09	1.263358e-08
	3.828181e-09	5.156348e-09	0.009544468	0.009041705	3.859737e-09	1.263358e-08	0.04725236	-0.0006751439
6e+07	0.04879524	-0.0072771	4.33368e-09	1.342246e-08	0.01226662	0.008175636	3.601548e-09	5.333844e-09
	4.33368e-09	1.342246e-08	0.04854048	-0.007149936	1.192336e-08	5.72313e-08	0.01216982	0.008298507
	0.01226661	0.008175635	1.192336e-08	5.72313e-08	0.04875904	-0.007442937	3.687211e-09	1.474573e-08
	3.601548e-09	5.333844e-09	0.01216982	0.008298507	3.687211e-09	1.474573e-08	0.04864413	-0.007011958
7e+07	0.04825028	-0.0139679	3.91175e-09	1.515766e-08	0.01445235	0.006612421	2.810624e-09	5.640748e-09
	3.91175e-09	1.515766e-08	0.04797315	-0.01370146	1.170866e-08	6.608581e-08	0.01435716	0.00678799
	0.01445235	0.00661242	1.170866e-08	6.608581e-08	0.04818056	-0.01411497	3.306749e-09	1.69941e-08
	2.810624e-09	5.640748e-09	0.01435716	0.00678799	3.306749e-09	1.69941e-08	0.04809769	-0.01359979
8e+07	0.04580935	-0.02034964	3.148959e-09	1.71216e-08	0.01597426	0.004462807	1.547306e-09	6.330412e-09
	3.148959e-09	1.71216e-08	0.04555233	-0.01993997	1.119742e-08	7.527454e-08	0.01589567	0.004692029
	0.01597426	0.004462806	1.119742e-08	7.527454e-08	0.04571309	-0.02047361	2.760179e-09	1.944244e-08
	1.547306e-09	6.330412e-09	0.01589567	0.004692029	2.760179e-09	1.944244e-08	0.04568206	-0.01987484
9e+07	0.04167729	-0.02589952	2.16463e-09	1.944527e-08	0.01668691	0.001969685	4.292792e-11	7.497791e-09
	2.16463e-09	1.944527e-08	0.04148228	-0.02535805	1.060385e-08	8.491541e-08	0.0166402	0.002247612
	0.01668691	0.001969685	1.060385e-08	8.491541e-08	0.04156137	-0.02599736	2.135575e-09	2.2131e-08
	4.29279e-11	7.497791e-09	0.0166402	0.002247613	2.135575e-09	2.2131e-08	0.04160323	-0.02532491
1e+08	0.03620215	-0.03018033	1.059872e-09	2.224691e-08	0.01652002	-0.0005914091	-1.480221e-09	9.204612e-09
	1.059872e-09	2.224691e-08	0.03610722	-0.02953318	1.008659e-08	9.506163e-08	0.0165185	-0.0002755389
	0.01652002	-0.000591409	1.008659e-08	9.506163e-08	0.03607534	-0.03025025	1.451473e-09	2.511061e-08
	-1.480221e-09	9.204612e-09	0.0165185	-0.000275539	1.451473e-09	2.511061e-08	0.03620646	-0.02952351
1.1e+08	0.02975663	-0.03294194	5.478452e-12	2.53268e-08	0.01553038	-0.002902673	-2.944562e-09	1.130204e-08
	5.478452e-12	2.53268e-08	0.02978327	-0.03223584	9.933009e-09	1.055683e-07	0.01558331	-0.002564689
	0.01553038	-0.002902673	9.933009e-09	1.055683e-07	0.02962098	-0.03299134	8.775416e-10	2.832828e-08
	-2.944562e-09	1.130204e-08	0.0155833	-0.002564689	8.775415e-10	2.832828e-08	0.0298587	-0.03223054
1.2e+08	0.02281337	-0.03388041	-8.018765e-10	2.88802e-08	0.01384938	-0.00476655	-4.267647e-09	1.396006e-08
	-8.018765e-10	2.88802e-08	0.02296551	-0.03315616	1.021866e-08	1.164308e-07	0.01395999	-0.004425637
	0.01384938	-0.00476655	1.021866e-08	1.164308e-07	0.02266841	-0.03390417	5.570577e-10	3.185617e-08
	-4.267647e-09	1.396006e-08	0.01395999	-0.004425636	5.570577e-10	3.185617e-08	0.02302181	-0.03314865
1.3e+08	0.01594452	-0.03295259	-1.213687e-09	3.286185e-08	0.01164494	-0.005983954	-5.212674e-09	1.713858e-08
	-1.213687e-09	3.286185e-08	0.01621481	-0.03225313	1.107008e-08	1.275289e-07	0.01180947	-0.005660335
	0.01164494	-0.005983954	1.107008e-08	1.275289e-07	0.01579517	-0.03294609	5.807522e-10	3.564786e-08
	-5.212674e-09	1.713858e-08	0.01180947	-0.005660334	5.807522e-10	3.564786e-08	0.01625537	-0.03223799
1.4e+08	0.009683291	-0.03027728	-1.056326e-09	3.714397e-08	0.009149651	-0.006422418	-5.582372e-09	2.07166e-08
	-1.056326e-09	3.714397e-08	0.01005005	-0.0296428	1.259047e-08	1.386816e-07	0.009357091	-0.00613483
	0.009149651	-0.006422418	1.259047e-08	1.386816e-07	0.009537174	-0.03023767	1.064681e-09	3.959478e-08
	-5.582372e-09	2.07166e-08	0.00935709	-0.006134829	1.064681e-09	3.959478e-08	0.01007898	-0.02961589
1.5e+08	0.004496964	-0.02611972	-1.976222e-10	4.152363e-08	0.006627425	-0.006031598	-5.225219e-09	2.450241e-08
	-1.976222e-10	4.152363e-08	0.004925	-0.02558252	1.482055e-08	1.496649e-07	0.006860166	-0.005794721
	0.006627425	-0.006031598	1.482055e-08	1.496649e-07	0.004363309	-0.02604679	2.091158e-09	4.353315e-08
	-5.225219e-09	2.450241e-08	0.006860165	-0.00579472	2.091158e-09	4.353315e-08	0.004947081	-0.02554121
1.6e+08	0.0007499878	-0.02086569	1.416617e-09	4.573823e-08	0.004344294	-0.004848629	-4.05907e-09	2.82474e-08
	1.416617e-09	4.573823e-08	0.001193438	-0.02044553	1.77181e-08	1.602343e-07	0.004579711	-0.004670817
	0.004344294	-0.004848629	1.77181e-08	1.602343e-07	0.0006385026	-0.02076242	3.679016e-09	4.725619e-08
	-4.05907e-09	2.82474e-08	0.00457971	-0.004670817	3.679016e-09	4.725619e-08	0.00121373	-0.02038885
1.7e+08	-0.001325138	-0.01498577	3.734379e-09	4.949979e-08	0.002539857	-0.002993827	-2.092883e-09	3.167212e-08
	3.734379e-09	4.949979e-08	-0.0009182905	-0.01468632	2.114798e-08	1.701593e-07	0.002752624	-0.002875466
	0.002539857	-0.002993827	2.114798e-08	1.701593e-07	-0.001405464	-0.01485841	5.760778e-09	5.054298e-08
	-2.092883e-09	3.167212e-08	0.002752624	-0.002875466	5.760778e-09	5.054298e-08	-0.0008949287	-0.01461498
1.8e+08	-0.001645483	-0.008992467	6.586874e-09	5.254211e-08	0.001401939	-0.000657435	5.619546e-10	3.45017e-08
	6.586874e-09	5.254211e-08	-0.001327773	-0.008799508	2.488766e-08	1.792611e-07	0.001566864	-0.0005901549
	0.001401939	-0.000657435	2.488766e-08	1.792611e-07	-0.001687564	-0.008850302	8.175423e-09	5.319848e-08
	5.619546e-10	3.45017e-08	0.001566864	-0.0005901546	8.175423e-09	5.319848e-08	-0.001297172	-0.008715717
1.9e+08	-0.0002819715	-0.003394281	9.700956e-09	5.467093e-08	0.001047119	0.001921013	3.695239e-09	3.65054e-08
	9.700956e-09	5.467093e-08	-0.0001003057	-0.003275868	2.865013e-08	1.874475e-07	0.001142171	0.00195411
	0.001047119	0.001921013	2.865013e-08	1.874475e-07	-0.0002816502	-0.003248918	1.068162e-08	5.509569e-08
	3.695239e-09	3.65054e-08	0.001142171	0.00195411	1.068162e-08	5.509569e-08	-5.941137e-05	-0.003183035
2e+08	0.002550095	0.001349217	1.273418e-08	5.580536e-08	0.001509103	0.004478304	7.017933e-09	3.753337e-08
	1.273418e-08	5.580536e-08	0.002560351	0.001440467	3.212112e-08	1.947359e-07	0.001518265	0.004501377
	0.001509103	0.004478304	3.212112e-08	1.947359e-07	0.002593276	0.001484849	1.299086e-08	5.6209e-08
	7.017933e-09	3.753337e-08	0.001518265	0.004501377	1.299086e-08	5.6209e-08	0.002613179	0.001538179
2.1e+08	0.006513294	0.004867145	1.532586e-08	5.60001e-08	0.002735993	0.006755288	1.019613e-08	3.754306e-08
	1.532586e-08	5.60001e-08	0.006333292	0.004989803	3.500389e-08	2.012585e-07	0.002651599	0.006797553
	0.002735993	0.006755288	3.500389e-08	2.012585e-07	0.006595691	0.004980042	1.481394e-08	5.662929e-08
	1.019613e-08	3.754306e-08	0.002651599	0.006797553	1.481394e-08	5.662929e-08	0.006398136	0.005087992
2.2e+08	0.01118089	0.006908343	1.715298e-08	5.544321e-08	0.004596522	0.008523771	1.289316e-08	3.661017e-08
	1.715298e-08	5.544321e-08	0.01081169	0.007126362	3.706247e-08	2.072481e-07	0.00442077	0.008616576
	0.004596522	0.008523771	3.706247e-08	2.072481e-07	0.01129478	0.006986773	1.591006e-08	5.655622e-08
	1.289316e-08	3.661017e-08	0.00442077	0.008616576	1.591006e-08	5.655622e-08	0.01088711	0.007220911
2.3e+08	0.016077	0.007361024	1.797896e-08	5.443033e-08	0.006894375	0.009609804	1.481237e-08	3.492226e-08
	1.797896e-08	5.443033e-08	0.01554094	0.007736948	3.815455e-08	2.130079e-07	0.006639817	0.009783275
	0.006894375	0.009609804	3.815455e-08	2.130079e-07	0.01621105	0.007395836	1.612708e-08	5.626955e-08
	1.481237e-08	3.492226e-08	0.006639817	0.009783275	1.612708e-08	5.626955e-08	0.01562414	0.007824511
2.4e+08	0.02072033	0.006259477	1.768546e-08	5.332251e-08	0.009388927	0.009911093	1.573305e-08	3.275708e-08
	1.768546e-08	5.332251e-08	0.02006003	0.006847384	3.824864e-08	2.188716e-07	0.009077822	0.01019073
	0.009388927	0.009911093	3.824864e-08	2.188716e-07	0.02086049	0.006245226	1.542419e-08	5.608678e-08
	1.573305e-08	3.275708e-08	0.009077822	0.01019073	1.542419e-08	5.608678e-08	0.02014724	0.006925783
2.5e+08	0.02466743	0.003777557	1.628333e-08	5.249788e-08	0.0118202	0.009406951	1.553472e-08	3.045065e-08
	1.628333e-08	5.249788e-08	0.02394256	0.004616537	3.7424e-08	2.251631e-07	0.01148276	0.009810519
	0.0118202	0.009406951	3.7424e-08	2.251631e-07	0.02479817	0.003713319	1.387379e-08	5.631788e-08
	1.553472e-08	3.045065e-08	0.01148276	0.009810519	1.387379e-08	5.631788e-08	0.02402946	0.004685014
2.6e+08	0.02755171	0.0002098162	1.390429e-08	5.230741e-08	0.01393549	0.008159954	1.420794e-08	2.836125e-08
	1.390429e-08	5.230741e-08	0.0268336	0.001318697	3.585657e-08	2.321614e-07	0.01360717	0.008695067
	0.01393549	0.008159954	3.585657e-08	2.321614e-07	0.02765748	9.958426e-05	1.164551e-08	5.722689e-08
	1.420794e-08	2.836125e-08	0.01360717	0.008695067	1.164551e-08	5.722689e-08	0.02691585	0.001378018
2.7e+08	0.02911478	-0.004057752	1.077981e-08	5.30416e-08	0.01551508	0.006309281	1.185288e-08	2.683482e-08
	1.077981e-08	5.30416e-08	0.02847952	-0.002683773	3.379622e-08	2.400772e-07	0.01523312	0.00697191
	0.01551508	0.006309281	3.379622e-08	2.400772e-07	0.02918157	-0.004205167	8.979399e-09	5.900686e-08
	1.185288e-08	2.683482e-08	0.01523312	0.00697191	8.979399e-09	5.900686e-08	0.02855322	-0.002631394
2.8e+08	0.02922751	-0.008584623	7.214849e-09	5.49096e-08	0.0163946	0.004056431	8.669068e-09	2.617508e-08
	7.214849e-09	5.49096e-08	0.02874806	-0.00697497	3.154144e-08	2.49038e-07	0.01619419	0.004830588
	0.0163946	0.004056431	3.154144e-08	2.49038e-07	0.02924441	-0.008756166	6.157035e-09	6.176892e-08
	8.669068e-09	2.617508e-08	0.01619419	0.004830588	6.157035e-09	6.176892e-08	0.02881027	-0.006926091
2.9e+08	0.02789925	-0.01291692	3.562984e-09	5.802812e-08	0.0164818	0.001644711	4.939588e-09	2.661905e-08
	3.562984e-09	5.802812e-08	0.02763751	-0.01112403	2.941551e-08	2.590832e-07	0.01639226	0.002503385
	0.0164818	0.001644711	2.941551e-08	2.590832e-07	0.02785967	-0.01309637	3.477264e-09	6.554167e-08
	4.939588e-09	2.661905e-08	0.01639226	0.002503385	3.477264e-09	6.554167e-08	0.02768655	-0.01107437
3e+08	0.02527439	-0.01662919	2.048488e-10	6.241473e-08	0.01576619	-0.0006655441	1.011907e-09	2.831698e-08
	2.048488e-10	6.241473e-08	0.02527392	-0.01472437	2.774537e-08	2.701615e-07	0.01580752	0.0002417769
	0.01576619	-0.0006655441	2.774537e-08	2.701615e-07	0.02517701	-0.0167986	1.238707e-09	7.02744e-08
	1.011907e-09	2.831698e-08	0.01580752	0.0002417769	1.238707e-09	7.02744e-08	0.02530965	-0.01466926
3.1e+08	0.02161677	-0.01936316	-2.472249e-09	6.798096e-08	0.01432048	-0.002623631	-2.724768e-09	3.131546e-08
	-2.472249e-09	6.798096e-08	0.02189714	-0.01743012	2.684132e-08	2.821302e-07	0.01450068	-0.001709169
	0.01432048	-0.002623631	2.684132e-08	2.821302e-07	0.02146598	-0.01950458	-2.733847e-10	7.583865e-08
	-2.724768e-09	3.131546e-08	0.01450068	-0.001709169	-2.733847e-10	7.583865e-08	0.02192097	-0.01736504
3.2e+08	0.01728332	-0.02085988	-4.098549e-09	7.452446e-08	0.01229349	-0.004014396	-5.867123e-09	3.554357e-08
	-4.098549e-09	7.452446e-08	0.01783665	-0.01898667	2.697463e-08	2.947567e-07	0.01260704	-0.003135913
	0.01229349	-0.004014396	2.697463e-08	2.947567e-07	0.01708905	-0.02095716	-8.016283e-10	8.202598e-08
	-5.867123e-09	3.554357e-08	0.01260704	-0.003135913	-8.016283e-10	8.202598e-08	0.01785146	-0.01890774
3.3e+08	0.01268938	-0.02098252	-4.35471e-09	8.172387e-08	0.009895202	-0.004680737	-8.032066e-09	4.080467e-08
	-4.35471e-09	8.172387e-08	0.01347966	-0.0192525	2.835078e-08	3.07723e-07	0.01032286	-0.003878548
	0.009895202	-0.004680737	2.835078e-08	3.07723e-07	0.01246644	-0.02102304	-1.380705e-10	8.854532e-08
	-8.032066e-09	4.080467e-08	0.01032286	-0.003878548	-1.380705e-10	8.854532e-08	0.01348948	-0.01915697
3.4e+08	0.008268824	-0.01972758	-3.014271e-09	8.91443e-08	0.00737529	-0.004540312	-8.897603e-09	4.677815e-08
	-3.014271e-09	8.91443e-08	0.009234134	-0.01821043	3.107885e-08	3.206404e-07	0.007885319	-0.00384755
	0.00737529	-0.004540312	3.107885e-08	3.206404e-07	0.008035626	-0.0197037	1.845069e-09	9.502704e-08
	-8.897603e-09	4.677815e-08	0.007885319	-0.00384755	1.845069e-09	9.502704e-08	0.009243761	-0.01809699
3.5e+08	0.0044327	-0.01722351	9.041336e-12	9.626144e-08	0.004997249	-0.003594566	-8.246865e-09	5.303625e-08
	9.041336e-12	9.626144e-08	0.005490355	-0.01596723	3.514185e-08	3.330775e-07	0.005548104	-0.003033333
	0.004997249	-0.003594566	3.514185e-08	3.330775e-07	0.004209593	-0.01713361	5.158983e-09	1.010419e-07
	-8.246865e-09	5.303625e-08	0.005548104	-0.003033333	5.158983e-09	1.010419e-07	0.005504816	-0.01583622
3.6e+08	0.001530384	-0.01371676	4.619741e-09	1.025093e-07	0.003010898	-0.001929003	-6.00828e-09	5.907925e-08
	4.619741e-09	1.025093e-07	0.002584487	-0.0127416	4.03757e-08	3.446043e-07	0.003555036	-0.001507492
	0.003010898	-0.001929003	4.03757e-08	3.446043e-07	0.001337682	-0.01356568	9.665593e-09	1.061403e-07
	-6.00828e-09	5.907925e-08	0.003555036	-0.001507492	9.665593e-09	1.061403e-07	0.002608497	-0.01259499
3.7e+08	-0.0001830819	-0.009546747	1.051813e-08	1.0735e-07	0.001626141	0.000295442	-2.282745e-09	6.438812e-08
	1.051813e-08	1.0735e-07	0.0007676799	-0.008841682	4.646572e-08	3.548469e-07	0.002114681	0.0005844921
	0.001626141	0.000295442	4.646572e-08	3.548469e-07	-0.0003271452	-0.009345599	1.506096e-08	1.099111e-07
	-2.282745e-09	6.438812e-08	0.002114681	0.0005844921	1.506096e-08	1.099111e-07	0.0008051047	-0.008682929
3.8e+08	-0.0005702603	-0.005112038	1.720884e-08	1.103548e-07	0.0009908607	0.002859059	2.650809e-09	6.848877e-08
	1.720884e-08	1.103548e-07	0.0001836367	-0.004634459	5.296714e-08	3.635459e-07	0.001378603	0.003038336
	0.0009908607	0.002859059	5.296714e-08	3.635459e-07	-0.0006514624	-0.004877347	2.088591e-08	1.120499e-07
	2.650809e-09	6.848877e-08	0.001378603	0.003038336	2.088591e-08	1.120499e-07	0.0002370415	-0.004468144
3.9e+08	0.0003770325	-0.0008311816	2.404576e-08	1.112814e-07	0.001175369	0.005506249	8.356513e-09	7.101726e-08
	2.404576e-08	1.112814e-07	0.0008567469	-0.0005098394	5.935079e-08	3.706054e-07	0.001425636	0.005612219
	0.001175369	0.005506249	5.935079e-08	3.706054e-07	0.000367304	-0.0005834697	2.656903e-08	1.124238e-07
	8.356513e-09	7.101726e-08	0.001425636	0.005612219	2.656903e-08	1.124238e-07	0.0009270817	-0.0003411972
4e+08	0.002538732	0.002897867	3.030964e-08	1.101289e-07	0.002165045	0.007972164	1.428851e-08	7.177373e-08
	3.030964e-08	1.101289e-07	0.002691821	0.003156804	6.506845e-08	3.761209e-07	0.002253828	0.008051908
	0.002165045	0.007972164	6.506845e-08	3.761209e-07	0.002602392	0.00313598	3.149822e-08	1.111142e-07
	1.428851e-08	7.177373e-08	0.002253828	0.008051908	3.149822e-08	1.111142e-07	0.002778276	0.003322451
4.1e+08	0.00567993	0.005735762	3.530539e-08	1.071564e-07	0.003861909	0.0100102	1.985674e-08	7.075408e-08
	3.530539e-08	1.071564e-07	0.005485261	0.006040084	6.962661e-08	3.80378e-07	0.003780845	0.01011704
	0.003861909	0.0100102	6.962661e-08	3.80378e-07	0.005811741	0.005941741	3.510837e-08	1.084262e-07
	1.985674e-08	7.075408e-08	0.003780845	0.01011704	3.510837e-08	1.084262e-07	0.005585313	0.006197901
4.2e+08	0.009475143	0.007433539	3.846007e-08	1.02859e-07	0.006094832	0.01141745	2.449987e-08	6.815324e-08
	3.846007e-08	1.02859e-07	0.008946355	0.007894589	7.265442e-08	3.83821e-07	0.005852682	0.01160576
	0.006094832	0.01141745	7.265442e-08	3.83821e-07	0.009662973	0.00758718	3.696718e-08	1.048583e-07
	2.449987e-08	6.815324e-08	0.005852682	0.01160576	3.696718e-08	1.048583e-07	0.009056001	0.008040772
4.3e+08	0.01354089	0.007855169	3.940257e-08	9.790637e-08	0.00863722	0.01205551	2.775249e-08	6.434053e-08
	3.940257e-08	9.790637e-08	0.01272642	0.008576692	7.395299e-08	3.869974e-07	0.008259639	0.01237526
	0.00863722	0.01205551	7.395299e-08	3.869974e-07	0.01376666	0.007940695	3.684094e-08	1.010392e-07
	2.775249e-08	6.434053e-08	0.008259639	0.01237526	3.684094e-08	1.010392e-07	0.01284058	0.008708907
4.4e+08	0.01747325	0.006988932	3.801039e-08	9.305622e-08	0.01123022	0.01186451	2.929578e-08	5.981305e-08
	3.801039e-08	9.305622e-08	0.01645283	0.008056295	7.351803e-08	3.904887e-07	0.01075782	0.0123561
	0.01123022	0.01186451	7.351803e-08	3.904887e-07	0.01771453	0.006996705	3.472741e-08	9.764352e-08
	2.929578e-08	5.981305e-08	0.01075782	0.0123561	3.472741e-08	9.764352e-08	0.01656586	0.008173962
4.5e+08	0.02088674	0.004946771	3.44182e-08	8.90605e-08	0.01360907	0.01086926	2.898583e-08	5.513764e-08
	3.44182e-08	8.90605e-08	0.01976458	0.006417661	7.153424e-08	3.948414e-07	0.0130939	0.01155909
	0.01360907	0.01086926	7.153424e-08	3.948414e-07	0.02111881	0.004874466	3.085161e-08	9.530479e-08
	2.898583e-08	5.513764e-08	0.0130939	0.01155909	3.085161e-08	9.530479e-08	0.0198709	0.006522064
4.6e+08	0.02345085	0.001951954	2.899179e-08	8.658163e-08	0.0155299	0.009176742	2.685935e-08	5.089143e-08
	2.899179e-08	8.658163e-08	0.02234612	0.003849542	6.83465e-08	4.005097e-07	0.0150307	0.0100741
	0.0155299	0.009176742	6.83465e-08	4.005097e-07	0.02364903	0.001805045	2.562962e-08	9.45424e-08
	2.685935e-08	5.089143e-08	0.0150307	0.0100741	2.562962e-08	9.45424e-08	0.02244077	0.003943739
4.7e+08	0.02492077	-0.001683588	2.22783e-08	8.612984e-08	0.01679446	0.006965529	2.312149e-08	4.760938e-08
	2.22783e-08	8.612984e-08	0.0239563	0.0006257634	6.441681e-08	4.078149e-07	0.01637106	0.008061027
	0.01679446	0.006965529	6.441681e-08	4.078149e-07	0.02506293	-0.001892074	1.961233e-08	9.57122e-08
	2.312149e-08	4.760938e-08	0.01637106	0.008061027	1.961233e-08	9.57122e-08	0.02403546	0.0007142528
4.8e+08	0.02515985	-0.005589827	1.494571e-08	8.802541e-08	0.01727027	0.004468029	1.812177e-08	4.57423e-08
	1.494571e-08	8.802541e-08	0.02444993	-0.002921787	6.027613e-08	4.169248e-07	0.01697772	0.005733849
	0.01727027	0.004468029	6.027613e-08	4.169248e-07	0.02522861	-0.005840448	1.342293e-08	9.898379e-08
