!$
! Info: Touchstone file created by Circ.  Input file=Tx_16in_Rx_100ohms_TxVia_60mils_RxVia_70mils.circ
!$
# Hz S RI R 50
0	0.01650249	1.977649e-25	-8.514384e-05	7.270577e-24	0.0001053272	3.237569e-23	-8.510678e-05	2.811788e-24
	-8.514385e-05	7.270518e-24	0.01649821	2.420484e-25	-8.517838e-05	1.172944e-23	0.0001044699	4.030028e-23
	0.0001044599	3.223087e-23	-8.517839e-05	1.173025e-23	0.01651603	1.999185e-25	-8.514065e-05	7.184964e-24
	-8.510677e-05	2.810835e-24	0.0001047391	4.04731e-23	-8.514064e-05	7.183258e-24	0.01651242	2.410115e-25
1e+07	0.02454873	0.008867141	-0.0002955799	5.071132e-05	0.001196785	0.002866796	-0.0001140127	3.255151e-07
	-0.0002955799	5.071132e-05	0.02477953	0.008831406	-7.939284e-06	0.000197608	0.001191073	0.002864864
	0.001196769	0.00286681	-7.939283e-06	0.000197608	0.02480551	0.008832534	-0.0002955704	5.070072e-05
	-0.0001140127	3.255146e-07	0.001191076	0.002864862	-0.0002955704	5.070072e-05	0.02455679	0.008879072
2e+07	0.03256067	0.01072692	-0.000250537	-5.325966e-05	0.002392997	0.005690221	-9.154217e-05	-4.498531e-06
	-0.000250537	-5.325966e-05	0.03267755	0.01059708	-3.493322e-05	0.000340057	0.002371989	0.005691945
	0.002393003	0.00569023	-3.493322e-05	0.000340057	0.0327369	0.01058769	-0.0002505379	-5.326796e-05
	-9.154217e-05	-4.498532e-06	0.002371986	0.005691944	-0.0002505379	-5.326796e-05	0.0325466	0.01075366
3e+07	0.0390609	0.008810694	-0.0002234481	-7.874862e-05	0.004336295	0.007697898	-8.077718e-05	-1.401647e-05
	-0.0002234481	-7.874862e-05	0.03906435	0.008679713	-8.887041e-05	0.0004323693	0.004293624	0.007712739
	0.004336296	0.007697899	-8.887041e-05	0.0004323693	0.03917115	0.008638576	-0.0002234686	-7.878952e-05
	-8.077718e-05	-1.401647e-05	0.004293623	0.00771274	-0.0002234686	-7.878952e-05	0.03901148	0.008866785
4e+07	0.04407577	0.004717354	-0.0002064857	-8.810028e-05	0.006803082	0.0088676	-7.315581e-05	-1.767292e-05
	-0.0002064857	-8.810028e-05	0.04397155	0.004634663	-0.0001090278	0.000512223	0.006737093	0.008907332
	0.00680308	0.008867601	-0.0001090278	0.000512223	0.04412906	0.004535305	-0.0002065478	-8.818744e-05
	-7.315581e-05	-1.767292e-05	0.006737093	0.008907333	-0.0002065478	-8.818744e-05	0.04398538	0.004822001
5e+07	0.04738004	-0.0008502545	-0.0001942163	-9.05015e-05	0.009630199	0.008965385	-6.728522e-05	-1.924717e-05
	-0.0001942163	-9.05015e-05	0.04718582	-0.0008436946	-0.0001037573	0.0005840198	0.009544467	0.009041704
	0.009630198	0.008965385	-0.0001037573	0.0005840198	0.04738468	-0.001028682	-0.0001943535	-9.063428e-05
	-6.728522e-05	-1.924717e-05	0.009544468	0.009041705	-0.0001943535	-9.063428e-05	0.04725236	-0.0006751439
6e+07	0.04879524	-0.0072771	-0.0001838053	-8.967935e-05	0.01226662	0.008175636	-6.259187e-05	-2.001872e-05
	-0.0001838053	-8.967935e-05	0.04854048	-0.007149936	-7.954849e-05	0.0006467268	0.01216982	0.008298507
	0.01226661	0.008175635	-7.954849e-05	0.0006467268	0.04875904	-0.007442937	-0.0001840536	-8.98372e-05
	-6.259187e-05	-2.001872e-05	0.01216982	0.008298507	-0.0001840536	-8.98372e-05	0.04864413	-0.007011958
7e+07	0.04825028	-0.0139679	-0.0001908331	-5.082179e-05	0.01445235	0.006612421	-5.78402e-05	-2.081414e-05
	-0.0001908331	-5.082179e-05	0.04797315	-0.01370146	-4.2257e-05	0.0006986175	0.01435716	0.00678799
	0.01445235	0.00661242	-4.2257e-05	0.0006986175	0.04818056	-0.01411497	-0.0001911982	-5.094592e-05
	-5.78402e-05	-2.081414e-05	0.01435716	0.00678799	-0.0001911982	-5.094592e-05	0.04809769	-0.01359979
8e+07	0.04580935	-0.02034964	-0.0001921587	1.647405e-05	0.01597426	0.004462807	-5.788026e-05	-5.647126e-06
	-0.0001921587	1.647405e-05	0.04555233	-0.01993997	5.163002e-08	0.0007391764	0.01589567	0.004692029
	0.01597426	0.004462806	5.163008e-08	0.0007391764	0.04571309	-0.02047361	-0.0001926155	1.64258e-05
	-5.788026e-05	-5.647126e-06	0.01589567	0.004692029	-0.0001926155	1.642579e-05	0.04568206	-0.01987484
9e+07	0.04167729	-0.02589952	-0.0001702071	7.962428e-05	0.01668691	0.001969685	-5.342296e-05	1.364184e-05
	-0.0001702071	7.962428e-05	0.04148228	-0.02535805	3.652169e-05	0.000771236	0.0166402	0.002247612
	0.01668691	0.001969685	3.652169e-05	0.000771236	0.04156137	-0.02599736	-0.0001707325	7.969422e-05
	-5.342296e-05	1.364184e-05	0.0166402	0.002247613	-0.0001707325	7.969422e-05	0.04160323	-0.02532491
1e+08	0.03620215	-0.03018033	-0.0001193443	0.0001323309	0.01652002	-0.000591409	-4.027617e-05	3.014028e-05
	-0.0001193443	0.0001323309	0.03610722	-0.02953318	3.787598e-05	0.0008025576	0.0165185	-0.0002755389
	0.01652002	-0.000591409	3.787598e-05	0.0008025576	0.03607534	-0.03025025	-0.0001198981	0.0001325467
	-4.027617e-05	3.014028e-05	0.0165185	-0.000275539	-0.0001198981	0.0001325467	0.03620646	-0.02952351
1.1e+08	0.02975663	-0.03294194	-6.42597e-05	0.0001398558	0.01553038	-0.002902673	-2.606234e-05	3.310907e-05
	-6.42597e-05	0.0001398558	0.02978327	-0.03223584	3.285128e-05	0.0007533989	0.01558331	-0.002564689
	0.01553038	-0.002902673	3.285128e-05	0.0007533989	0.02962098	-0.03299134	-6.481708e-05	0.0001402327
	-2.606234e-05	3.310907e-05	0.0155833	-0.002564689	-6.481708e-05	0.0001402327	0.0298587	-0.03223054
1.2e+08	0.02281337	-0.03388041	-2.435495e-05	0.0001375348	0.01384938	-0.00476655	-1.605415e-05	3.416467e-05
	-2.435495e-05	0.0001375348	0.02296551	-0.03315616	5.309306e-05	0.0007138438	0.01395999	-0.004425637
	0.01384938	-0.00476655	5.309306e-05	0.0007138438	0.02266841	-0.03390417	-2.484281e-05	0.0001380785
	-1.605415e-05	3.416467e-05	0.01395999	-0.004425636	-2.484281e-05	0.0001380785	0.02302181	-0.03314865
1.3e+08	0.01594452	-0.03295259	7.763721e-06	0.0001286623	0.01164494	-0.005983954	-7.629959e-06	3.383865e-05
	7.763721e-06	0.0001286623	0.01621481	-0.03225313	7.460299e-05	0.000683791	0.01180947	-0.005660335
	0.01164494	-0.005983954	7.460299e-05	0.000683791	0.01579517	-0.03294609	7.409522e-06	0.000129341
	-7.629959e-06	3.383865e-05	0.01180947	-0.005660334	7.409522e-06	0.000129341	0.01625537	-0.03223799
1.4e+08	0.009683291	-0.03027728	3.318078e-05	0.0001155412	0.009149651	-0.006422418	-3.510887e-07	3.241071e-05
	3.318078e-05	0.0001155412	0.01005005	-0.0296428	9.616194e-05	0.0006644178	0.009357091	-0.00613483
	0.009149651	-0.006422418	9.616194e-05	0.0006644178	0.009537174	-0.03023767	3.300243e-05	0.0001162965
	-3.510887e-07	3.241071e-05	0.00935709	-0.006134829	3.300243e-05	0.0001162965	0.01007898	-0.02961589
1.5e+08	0.004496964	-0.02611972	5.267374e-05	0.0001000868	0.006627425	-0.006031598	5.959741e-06	3.006874e-05
	5.267374e-05	0.0001000868	0.004925	-0.02558252	0.0001206257	0.0006559906	0.006860166	-0.005794721
	0.006627425	-0.006031598	0.0001206257	0.0006559906	0.004363309	-0.02604679	5.268182e-05	0.0001008472
	5.959741e-06	3.006874e-05	0.006860165	-0.00579472	5.268182e-05	0.0001008472	0.004947081	-0.02554121
1.6e+08	0.0007499878	-0.02086569	6.718241e-05	8.376417e-05	0.004344294	-0.004848629	1.136645e-05	2.69566e-05
	6.718241e-05	8.376417e-05	0.001193438	-0.02044553	0.0001521519	0.000656953	0.004579711	-0.004670817
	0.004344294	-0.004848629	0.0001521519	0.000656953	0.0006385026	-0.02076242	6.735293e-05	8.446209e-05
	1.136645e-05	2.69566e-05	0.00457971	-0.004670817	6.735293e-05	8.446209e-05	0.00121373	-0.02038885
1.7e+08	-0.001325138	-0.01498577	7.778992e-05	6.749635e-05	0.002539857	-0.002993827	1.587825e-05	2.320173e-05
	7.778992e-05	6.749635e-05	-0.0009182905	-0.01468632	0.000194647	0.0006637636	0.002752624	-0.002875466
	0.002539857	-0.002993827	0.000194647	0.0006637636	-0.001405464	-0.01485841	7.807002e-05	6.808481e-05
	1.587825e-05	2.320173e-05	0.002752624	-0.002875466	7.807002e-05	6.808481e-05	-0.0008949287	-0.01461498
1.8e+08	-0.001645483	-0.008992467	8.554713e-05	5.164729e-05	0.001401939	-0.000657435	1.947718e-05	1.893155e-05
	8.554713e-05	5.164729e-05	-0.001327773	-0.008799508	0.0002506588	0.0006712675	0.001566864	-0.0005901549
	0.001401939	-0.000657435	0.0002506588	0.0006712675	-0.001687564	-0.008850302	8.586851e-05	5.211227e-05
	1.947718e-05	1.893155e-05	0.001566864	-0.0005901546	8.586851e-05	5.211227e-05	-0.001297172	-0.008715717
1.9e+08	-0.0002819715	-0.003394281	9.126926e-05	3.610795e-05	0.001047119	0.001921013	2.213595e-05	1.428302e-05
	9.126926e-05	3.610795e-05	-0.0001003057	-0.003275868	0.0003206719	0.0006734556	0.001142171	0.00195411
	0.001047119	0.001921013	0.0003206719	0.0006734556	-0.0002816502	-0.003248918	9.156649e-05	3.647289e-05
	2.213595e-05	1.428302e-05	0.001142171	0.00195411	9.156649e-05	3.647289e-05	-5.941137e-05	-0.003183035
2e+08	0.002550095	0.001349217	9.537977e-05	2.047579e-05	0.001509103	0.004478304	2.383252e-05	9.406886e-06
	9.537977e-05	2.047579e-05	0.002560351	0.001440467	0.0004028568	0.0006644208	0.001518265	0.004501377
	0.001509103	0.004478304	0.0004028568	0.0006644208	0.002593276	0.001484849	9.560918e-05	2.079647e-05
	2.383252e-05	9.406886e-06	0.001518265	0.004501377	9.560918e-05	2.079647e-05	0.002613179	0.001538179
2.1e+08	0.006513294	0.004867145	9.784941e-05	4.287805e-06	0.002735993	0.006755288	2.456266e-05	4.46696e-06
	9.784941e-05	4.287805e-06	0.006333292	0.004989803	0.0004932821	0.0006393087	0.002651599	0.006797553
	0.002735993	0.006755288	0.0004932821	0.0006393087	0.006595691	0.004980042	9.80038e-05	4.638341e-06
	2.456266e-05	4.46696e-06	0.002651599	0.006797553	9.80038e-05	4.638341e-06	0.006398136	0.005087992
2.2e+08	0.01118089	0.006908343	9.824759e-05	-1.274454e-05	0.004596522	0.008523771	2.435007e-05	-3.656964e-07
	9.824759e-05	-1.274454e-05	0.01081169	0.007126362	0.0005865152	0.0005950668	0.00442077	0.008616576
	0.004596522	0.008523771	0.0005865152	0.0005950668	0.01129478	0.006986773	9.836267e-05	-1.229189e-05
	2.435007e-05	-3.656964e-07	0.00442077	0.008616576	9.836267e-05	-1.229189e-05	0.01088711	0.007220911
2.3e+08	0.016077	0.007361024	9.589527e-05	-3.055315e-05	0.006894375	0.009609804	2.325252e-05	-4.922432e-06
	9.589527e-05	-3.055315e-05	0.01554094	0.007736948	0.0006764772	0.0005308564	0.006639817	0.009783275
	0.006894375	0.009609804	0.0006764772	0.0005308564	0.01621105	0.007395836	9.604575e-05	-2.994967e-05
	2.325252e-05	-4.922432e-06	0.006639817	0.009783275	9.604575e-05	-2.994967e-05	0.01562414	0.007824511
2.4e+08	0.02072033	0.006259477	9.008324e-05	-4.86257e-05	0.009388927	0.009911093	2.1363e-05	-9.048641e-06
	9.008324e-05	-4.86257e-05	0.02006003	0.006847384	0.0007573818	0.0004480589	0.009077822	0.01019073
	0.009388927	0.009911093	0.0007573818	0.0004480589	0.02086049	0.006245226	9.036853e-05	-4.78643e-05
	2.1363e-05	-9.048641e-06	0.009077822	0.01019073	9.036853e-05	-4.78643e-05	0.02014724	0.006925783
2.5e+08	0.02466743	0.003777557	8.030712e-05	-6.602839e-05	0.0118202	0.009406951	1.880535e-05	-1.261513e-05
	8.030712e-05	-6.602839e-05	0.02394256	0.004616537	0.0008245548	0.0003498872	0.01148276	0.009810519
	0.0118202	0.009406951	0.0008245548	0.0003498872	0.02479817	0.003713319	8.082936e-05	-6.515348e-05
	1.880535e-05	-1.261513e-05	0.01148276	0.009810519	8.082936e-05	-6.515348e-05	0.02402946	0.004685014
2.6e+08	0.02755171	0.0002098162	6.646487e-05	-8.153834e-05	0.01393549	0.008159954	1.572556e-05	-1.552656e-05
	6.646487e-05	-8.153834e-05	0.0268336	0.001318697	0.0008749998	0.0002407027	0.01360717	0.008695067
	0.01393549	0.008159954	0.0008749998	0.0002407027	0.02765748	9.958426e-05	6.730386e-05	-8.064434e-05
	1.572556e-05	-1.552656e-05	0.01360717	0.008695067	6.730386e-05	-8.064434e-05	0.02691585	0.001378018
2.7e+08	0.02911478	-0.004057752	4.897363e-05	-9.385363e-05	0.01551508	0.006309281	1.228059e-05	-1.772569e-05
	4.897363e-05	-9.385363e-05	0.02847952	-0.002683773	0.000907597	0.0001251859	0.01523312	0.00697191
	0.01551508	0.006309281	0.000907597	0.0001251859	0.02918157	-0.004205167	5.016426e-05	-9.307172e-05
	1.228059e-05	-1.772569e-05	0.01523312	0.00697191	5.016426e-05	-9.307172e-05	0.02855322	-0.002631394
2.8e+08	0.02922751	-0.008584624	2.877699e-05	-0.0001018386	0.0163946	0.004056431	8.627087e-06	-1.919305e-05
	2.877699e-05	-0.0001018386	0.02874806	-0.00697497	0.0009229314	7.525346e-06	0.01619419	0.004830588
	0.0163946	0.004056431	0.0009229314	7.525346e-06	0.02924441	-0.008756166	3.029456e-05	-0.0001013138
	8.627087e-06	-1.919305e-05	0.01619419	0.004830588	3.029456e-05	-0.0001013138	0.02881027	-0.006926091
2.9e+08	0.02789925	-0.01291692	7.240144e-06	-0.0001047494	0.0164818	0.001644711	4.91161e-06	-1.994279e-05
	7.240144e-06	-0.0001047494	0.02763751	-0.01112403	0.0009227869	-0.0001092016	0.01639226	0.002503385
	0.0164818	0.001644711	0.0009227869	-0.0001092016	0.02785967	-0.01309637	8.99747e-06	-0.0001046125
	4.91161e-06	-1.994279e-05	0.01639226	0.002503385	8.99747e-06	-0.0001046125	0.02768655	-0.01107437
3e+08	0.02527439	-0.01662919	-1.404819e-05	-0.0001023922	0.01576619	-0.0006655441	1.263603e-06	-2.001631e-05
	-1.404819e-05	-0.0001023922	0.02527392	-0.01472437	0.0009094392	-0.000223342	0.01580752	0.0002417769
	0.01576619	-0.0006655441	0.0009094392	-0.000223342	0.02517701	-0.0167986	-1.219048e-05	-0.0001027326
	1.263603e-06	-2.001631e-05	0.01580752	0.0002417769	-1.219048e-05	-0.0001027326	0.02530965	-0.01466926
3.1e+08	0.02161677	-0.01936316	-3.35283e-05	-9.517809e-05	0.01432048	-0.002623631	-2.208631e-06	-1.947473e-05
	-3.35283e-05	-9.517809e-05	0.02189714	-0.01743012	0.000884906	-0.0003346291	0.01450068	-0.001709169
	0.01432048	-0.002623631	0.000884906	-0.0003346291	0.02146598	-0.01950458	-3.173966e-05	-9.602308e-05
	-2.208631e-06	-1.947473e-05	0.01450068	-0.001709169	-3.173966e-05	-9.602308e-05	0.02192097	-0.01736504
3.2e+08	0.01728332	-0.02085988	-4.992205e-05	-8.405926e-05	0.01229349	-0.004014396	-5.419624e-06	-1.839142e-05
	-4.992205e-05	-8.405926e-05	0.01783665	-0.01898667	0.0008503096	-0.0004437909	0.01260704	-0.003135913
	0.01229349	-0.004014396	0.0008503096	-0.0004437909	0.01708905	-0.02095716	-4.837245e-05	-8.536578e-05
	-5.419624e-06	-1.839142e-05	0.01260704	-0.003135913	-4.837245e-05	-8.536578e-05	0.01785146	-0.01890774
3.3e+08	0.01268938	-0.02098252	-6.243326e-05	-7.035927e-05	0.009895202	-0.004680737	-8.306096e-06	-1.684498e-05
	-6.243326e-05	-7.035927e-05	0.01347966	-0.0192525	0.0008055037	-0.0005519184	0.01032286	-0.003878548
	0.009895202	-0.004680737	0.0008055037	-0.0005519184	0.01246644	-0.02102304	-6.126212e-05	-7.201935e-05
	-8.306096e-06	-1.684498e-05	0.01032286	-0.003878548	-6.126212e-05	-7.201935e-05	0.01348948	-0.01915697
3.4e+08	0.008268824	-0.01972758	-7.085241e-05	-5.553025e-05	0.00737529	-0.004540312	-1.082434e-05	-1.491332e-05
	-7.085241e-05	-5.553025e-05	0.009234134	-0.01821043	0.0007490388	-0.0006597344	0.007885319	-0.00384755
	0.00737529	-0.004540312	0.0007490388	-0.0006597344	0.008035626	-0.0197037	-7.014294e-05	-5.739038e-05
	-1.082434e-05	-1.491332e-05	0.007885319	-0.00384755	-7.014294e-05	-5.739038e-05	0.009243761	-0.01809699
3.5e+08	0.0044327	-0.01722351	-7.554061e-05	-4.088979e-05	0.004997249	-0.003594566	-1.2946e-05	-1.266903e-05
	-7.554061e-05	-4.088979e-05	0.005490355	-0.01596723	0.0006784822	-0.0007669116	0.005548104	-0.003033333
	0.004997249	-0.003594566	0.0006784822	-0.0007669116	0.004209593	-0.01713361	-7.53053e-05	-4.278022e-05
	-1.2946e-05	-1.266903e-05	0.005548104	-0.003033333	-7.53053e-05	-4.278022e-05	0.005504816	-0.01583622
3.6e+08	0.001530384	-0.01371676	-7.729796e-05	-2.739441e-05	0.003010898	-0.001929003	-1.465251e-05	-1.017719e-05
	-7.729796e-05	-2.739441e-05	0.002584487	-0.0127416	0.0005910242	-0.0008716184	0.003555036	-0.001507492
	0.003010898	-0.001929003	0.0005910242	-0.0008716184	0.001337682	-0.01356568	-7.747892e-05	-2.916226e-05
	-1.465251e-05	-1.017719e-05	0.003555036	-0.001507492	-7.747892e-05	-2.916226e-05	0.002608497	-0.01259499
3.7e+08	-0.0001830819	-0.009546747	-7.714468e-05	-1.549951e-05	0.001626141	0.000295442	-1.592938e-05	-7.496003e-06
	-7.714468e-05	-1.549951e-05	0.0007676799	-0.008841682	0.000484247	-0.0009703816	0.002114681	0.0005844921
	0.001626141	0.000295442	0.000484247	-0.0009703816	-0.0003271452	-0.009345599	-7.762921e-05	-1.703847e-05
	-1.592938e-05	-7.496003e-06	0.002114681	0.0005844921	-7.762921e-05	-1.703847e-05	0.0008051047	-0.008682929
3.8e+08	-0.0005702603	-0.005112038	-7.606573e-05	-5.135811e-06	0.0009908607	0.002859059	-1.676188e-05	-4.680289e-06
	-7.606573e-05	-5.135811e-06	0.0001836367	-0.004634459	0.0003568894	-0.001058317	0.001378603	0.003038336
	0.0009908607	0.002859059	0.0003568894	-0.001058317	-0.0006514624	-0.004877347	-7.671403e-05	-6.405672e-06
	-1.676188e-05	-4.680289e-06	0.001378603	0.003038336	-7.671403e-05	-6.405672e-06	0.0002370415	-0.004468144
3.9e+08	0.0003770325	-0.0008311816	-7.477674e-05	4.194199e-06	0.001175369	0.005506249	-1.713357e-05	-1.78703e-06
	-7.477674e-05	4.194199e-06	0.0008567469	-0.0005098394	0.0002094445	-0.001129686	0.001425636	0.005612219
	0.001175369	0.005506249	0.0002094445	-0.001129686	0.000367304	-0.0005834697	-7.545589e-05	3.162916e-06
	-1.713357e-05	-1.78703e-06	0.001425636	0.005612219	-7.545589e-05	3.162916e-06	0.0009270817	-0.0003411972
4e+08	0.002538732	0.002897867	-7.35644e-05	1.322403e-05	0.002165045	0.007972164	-1.702869e-05	1.119091e-06
	-7.35644e-05	1.322403e-05	0.002691821	0.003156804	4.44646e-05	-0.00117867	0.002253828	0.008051908
	0.002165045	0.007972164	4.44646e-05	-0.00117867	0.002602392	0.00313598	-7.418107e-05	1.234179e-05
	-1.702869e-05	1.119091e-06	0.002253828	0.008051908	-7.418107e-05	1.234179e-05	0.002778276	0.003322451
4.1e+08	0.00567993	0.005735762	-7.223652e-05	2.26816e-05	0.003861909	0.0100102	-1.64379e-05	3.962221e-06
	-7.223652e-05	2.26816e-05	0.005485261	0.006040084	-0.0001334982	-0.001200207	0.003780845	0.01011704
	0.003861909	0.0100102	-0.0001334982	-0.001200207	0.005811741	0.005941741	-7.276092e-05	2.182576e-05
	-1.64379e-05	3.962221e-06	0.003780845	0.01011704	-7.276092e-05	2.182576e-05	0.005585313	0.006197901
4.2e+08	0.009475143	0.007433539	-7.019104e-05	3.305462e-05	0.006094832	0.01141745	-1.53659e-05	6.655789e-06
	-7.019104e-05	3.305462e-05	0.008946355	0.007894589	-0.0003182998	-0.001190732	0.005852682	0.01160576
	0.006094832	0.01141745	-0.0003182998	-0.001190732	0.009662973	0.00758718	-7.066624e-05	3.21041e-05
	-1.53659e-05	6.655789e-06	0.005852682	0.01160576	-7.066624e-05	3.21041e-05	0.009056001	0.008040772
4.3e+08	0.01354089	0.007855169	-6.65865e-05	4.441692e-05	0.00863722	0.01205551	-1.383827e-05	9.107346e-06
	-6.65865e-05	4.441692e-05	0.01272642	0.008576692	-0.0005028777	-0.001148674	0.008259639	0.01237526
	0.00863722	0.01205551	-0.0005028777	-0.001148674	0.01376666	0.007940695	-6.71206e-05	4.328795e-05
	-1.383827e-05	9.107346e-06	0.008259639	0.01237526	-6.71206e-05	4.328795e-05	0.01284058	0.008708907
4.4e+08	0.01747325	0.006988932	-6.057358e-05	5.635501e-05	0.01123022	0.01186451	-1.190551e-05	1.122687e-05
	-6.057358e-05	5.635501e-05	0.01645283	0.008056295	-0.0006800612	-0.001074626	0.01075782	0.0123561
	0.01123022	0.01186451	-0.0006800612	-0.001074626	0.01771453	0.006996705	-6.131563e-05	5.502992e-05
	-1.190551e-05	1.122687e-05	0.01075782	0.0123561	-6.131563e-05	5.502992e-05	0.01656586	0.008173962
4.5e+08	0.02088674	0.004946771	-5.153501e-05	6.801097e-05	0.01360907	0.01086926	-9.642565e-06	1.293652e-05
	-5.153501e-05	6.801097e-05	0.01976458	0.006417661	-0.0008433589	-0.0009711609	0.0130939	0.01155909
	0.01360907	0.01086926	-0.0008433589	-0.0009711609	0.02111881	0.004874466	-5.263964e-05	6.655313e-05
	-9.642565e-06	1.293652e-05	0.0130939	0.01155909	-5.263964e-05	6.655313e-05	0.0198709	0.006522064
4.6e+08	0.02345085	0.001951954	-3.927943e-05	7.823207e-05	0.0155299	0.009176742	-7.143763e-06	1.417929e-05
	-3.927943e-05	7.823207e-05	0.02234612	0.003849542	-0.0009875805	-0.000842354	0.0150307	0.0100741
	0.0155299	0.009176742	-0.0009875805	-0.000842354	0.02364903	0.001805045	-4.086764e-05	7.678306e-05
	-7.143763e-06	1.417929e-05	0.0150307	0.0100741	-4.086764e-05	7.678306e-05	0.02244077	0.003943739
4.7e+08	0.02492077	-0.001683588	-2.414671e-05	8.579419e-05	0.01679446	0.006965529	-4.513355e-06	1.492405e-05
	-2.414671e-05	8.579419e-05	0.0239563	0.0006257634	-0.001109173	-0.0006931217	0.01637106	0.008061027
	0.01679446	0.006965529	-0.001109173	-0.0006931217	0.02506293	-0.001892074	-2.62706e-05	8.45527e-05
	-4.513355e-06	1.492405e-05	0.01637106	0.008061027	-2.62706e-05	8.45527e-05	0.02403546	0.0007142528
