!$
! Info: Touchstone file created by Circ.  Input file=Tx_10in_Rx_85ohms_TxVia_60mils_RxVia_70mils.circ
!$
# Hz S RI R 50
0	0.008132705	1.353534e-25	-5.411975e-05	2.809888e-28	7.416902e-05	1.563025e-23	-5.411754e-05	-5.576987e-26
	-5.411975e-05	-2.63113e-28	0.008128236	1.654887e-25	-5.411903e-05	2.976717e-27	7.387701e-05	1.977474e-23
	7.525275e-05	1.57347e-23	-5.411902e-05	2.821649e-27	0.008148157	1.353645e-25	-5.411895e-05	1.249245e-25
	-5.411753e-05	-5.688319e-26	7.414668e-05	1.985954e-23	-5.411895e-05	1.245112e-25	0.008142685	1.647614e-25
1e+07	0.01045235	-0.009505637	-6.157319e-06	-1.360315e-05	0.0002791877	0.00194612	-3.650757e-06	-1.592694e-05
	-6.157319e-06	-1.360315e-05	0.01043496	-0.009339881	-9.525655e-06	-4.12825e-07	0.0003517797	0.001939332
	0.000279219	0.001946124	-9.525655e-06	-4.128251e-07	0.01180236	-0.009222471	-2.084385e-05	2.109417e-06
	-3.650758e-06	-1.592694e-05	0.0003517822	0.00193933	-2.084385e-05	2.109417e-06	0.0104175	-0.009327845
2e+07	0.00994615	-0.02158871	-5.543115e-06	-5.11173e-06	0.0009007891	0.003792875	-2.152092e-06	-8.316565e-06
	-5.543116e-06	-5.11173e-06	0.01006775	-0.02131981	-2.463551e-05	-1.397476e-05	0.0009915217	0.003718167
	0.000900803	0.003792856	-2.463551e-05	-1.397476e-05	0.0113152	-0.02162638	-3.084501e-05	-5.882949e-06
	-2.152093e-06	-8.316565e-06	0.0009915188	0.003718168	-3.084501e-05	-5.882949e-06	0.01005885	-0.02128707
3e+07	0.005960633	-0.03416603	-5.264317e-06	-2.911209e-06	0.001926598	0.005384779	-2.669993e-06	-6.395694e-06
	-5.264317e-06	-2.911209e-06	0.006163108	-0.03387757	-3.60019e-05	-1.344611e-05	0.001963938	0.005297314
	0.001926599	0.005384776	-3.60019e-05	-1.344611e-05	0.007326653	-0.03437946	-3.814463e-05	-4.035526e-06
	-2.669993e-06	-6.395694e-06	0.001963938	0.005297316	-3.814463e-05	-4.035526e-06	0.006159521	-0.03383236
4e+07	-0.0009347885	-0.04583724	-5.005832e-06	-1.670904e-06	0.003234838	0.006697187	-3.823132e-06	-4.913641e-06
	-5.005832e-06	-1.670904e-06	-0.0006926686	-0.04554872	-4.499766e-05	-8.678235e-06	0.00321924	0.006616236
	0.003234843	0.006697191	-4.499766e-05	-8.678235e-06	0.0004043504	-0.04620538	-4.367141e-05	7.218048e-07
	-3.823133e-06	-4.913641e-06	0.003219241	0.006616237	-4.367141e-05	7.218048e-07	-0.0006931655	-0.04549314
5e+07	-0.01027849	-0.05590981	-4.733346e-06	-8.017682e-07	0.004758639	0.007682665	-4.718058e-06	-3.544084e-06
	-4.733346e-06	-8.017683e-07	-0.01002901	-0.05562197	-5.188889e-05	-1.322085e-06	0.004692025	0.007623714
	0.004758642	0.007682667	-5.188889e-05	-1.322085e-06	-0.008988643	-0.05642157	-4.759555e-05	7.220069e-06
	-4.718058e-06	-3.544084e-06	0.004692026	0.007623714	-4.759555e-05	7.220069e-06	-0.01002854	-0.05555631
6e+07	-0.02157629	-0.063888	-4.434861e-06	-1.308707e-07	0.006420675	0.008307699	-5.355047e-06	-2.161695e-06
	-4.434861e-06	-1.308706e-07	-0.02134344	-0.06359169	-5.668213e-05	7.901564e-06	0.006307221	0.00828459
	0.006420671	0.008307698	-5.668213e-05	7.901564e-06	-0.02035675	-0.06453305	-4.991234e-05	1.49419e-05
	-5.355047e-06	-2.161695e-06	0.006307223	0.00828459	-4.991234e-05	1.49419e-05	-0.0213435	-0.06351524
7e+07	-0.03428962	-0.06942029	-4.107369e-06	4.075417e-07	0.008138607	0.008556425	-5.722873e-06	-7.340742e-07
	-4.107368e-06	4.075416e-07	-0.03408981	-0.0691011	-5.925486e-05	1.855358e-05	0.007984999	0.008581584
	0.008138595	0.008556426	-5.925486e-05	1.855358e-05	-0.0331599	-0.07018715	-5.053102e-05	2.356392e-05
	-5.722873e-06	-7.340743e-07	0.007985	0.008581584	-5.053102e-05	2.356392e-05	-0.03409134	-0.06901268
8e+07	-0.04784754	-0.07228731	-3.752409e-06	8.417398e-07	0.009829819	0.008431342	-5.798882e-06	7.406564e-07
	-3.752409e-06	8.417395e-07	-0.0476906	-0.07192868	-5.937587e-05	3.031074e-05	0.009645289	0.00851557
	0.009829805	0.008431346	-5.937587e-05	3.031074e-05	-0.04682587	-0.07316317	-4.928749e-05	3.284187e-05
	-5.798881e-06	7.406561e-07	0.009645289	0.008515569	-4.928749e-05	3.284187e-05	-0.04769406	-0.07182681
9e+07	-0.06166581	-0.07239676	-3.373119e-06	1.183418e-06	0.01141577	0.007952586	-5.538118e-06	2.257264e-06
	-3.373119e-06	1.183417e-06	-0.06155672	-0.07198298	-5.66261e-05	4.294656e-05	0.01121211	0.008104829
	0.01141576	0.007952591	-5.66261e-05	4.294656e-05	-0.06076993	-0.07336815	-4.588507e-05	4.259905e-05
	-5.538117e-06	2.257264e-06	0.01121211	0.008104829	-4.588507e-05	4.259905e-05	-0.06156206	-0.07186594
1e+08	-0.07516248	-0.06977411	-2.963226e-06	1.434582e-06	0.01282615	0.00715634	-4.744905e-06	3.875981e-06
	-2.963226e-06	1.434582e-06	-0.07511194	-0.06929859	-4.937414e-05	5.688026e-05	0.0126192	0.007384645
	0.01282615	0.00715634	-4.937414e-05	5.688026e-05	-0.07441761	-0.07083229	-3.913908e-05	5.312542e-05
	-4.744905e-06	3.875981e-06	0.0126192	0.007384645	-3.913908e-05	5.312542e-05	-0.07511869	-0.06916478
1.1e+08	-0.08778844	-0.06460908	-2.659531e-06	1.676574e-06	0.01400123	0.006089132	-3.343246e-06	4.692695e-06
	-2.659531e-06	1.676574e-06	-0.08780948	-0.06400523	-3.673102e-05	6.421556e-05	0.01381057	0.006386215
	0.01400123	0.006089132	-3.673102e-05	6.421556e-05	-0.08722424	-0.06569236	-3.47597e-05	5.501421e-05
	-3.343246e-06	4.692695e-06	0.01381057	0.006386215	-3.47597e-05	5.501421e-05	-0.08781634	-0.06385199
1.2e+08	-0.09909389	-0.05712449	-2.365921e-06	1.938047e-06	0.01489115	0.004811936	-2.161065e-06	5.141903e-06
	-2.365921e-06	1.938047e-06	-0.09913564	-0.05636577	-3.19697e-05	6.571749e-05	0.01472471	0.005173526
	0.01489115	0.004811935	-3.19697e-05	6.571749e-05	-0.09868825	-0.05819932	-3.184543e-05	5.604001e-05
	-2.161065e-06	5.141903e-06	0.01472471	0.005173526	-3.184543e-05	5.604001e-05	-0.09913961	-0.05619169
1.3e+08	-0.108645	-0.04764543	-2.063383e-06	2.168002e-06	0.01546356	0.003391416	-1.339814e-06	5.26801e-06
	-2.063383e-06	2.168002e-06	-0.1086667	-0.04672619	-2.810461e-05	6.669599e-05	0.01533143	0.003812982
	0.01546356	0.003391416	-2.810461e-05	6.669599e-05	-0.1083834	-0.04869016	-2.831355e-05	5.736622e-05
	-1.339814e-06	5.26801e-06	0.01533143	0.003812983	-2.831355e-05	5.736622e-05	-0.1086646	-0.04653084
1.4e+08	-0.1160943	-0.03657542	-1.751345e-06	2.359722e-06	0.01570014	0.001897557	-1.190934e-06	5.138568e-06
	-1.751345e-06	2.359722e-06	-0.1160585	-0.03550179	-2.372075e-05	6.775058e-05	0.01561221	0.002372426
	0.01570014	0.001897557	-2.372075e-05	6.775058e-05	-0.115963	-0.03757283	-2.434081e-05	5.871266e-05
	-1.190934e-06	5.138568e-06	0.01561221	0.002372427	-2.434081e-05	5.871266e-05	-0.1160472	-0.0352856
1.5e+08	-0.1211859	-0.02437316	-1.433402e-06	2.510007e-06	0.01559685	0.0004011067	-1.020029e-06	5.04562e-06
	-1.433402e-06	2.510007e-06	-0.1210591	-0.02316116	-1.893715e-05	6.869111e-05	0.01556196	0.0009203078
	0.01559685	0.0004011065	-1.893715e-05	6.869111e-05	-0.1211708	-0.02530923	-2.002066e-05	5.991959e-05
	-1.020029e-06	5.04562e-06	0.01556195	0.0009203086	-2.002066e-05	5.991959e-05	-0.1210352	-0.02292547
1.6e+08	-0.1237606	-0.01153328	-1.111977e-06	2.620734e-06	0.0151634	-0.001028973	-8.324694e-07	4.976948e-06
	-1.111977e-06	2.620734e-06	-0.123515	-0.01020736	-1.383763e-05	6.939048e-05	0.01518859	-0.0004765267
	0.0151634	-0.001028973	-1.383763e-05	6.939048e-05	-0.1238475	-0.01239668	-1.541819e-05	6.088544e-05
	-8.324694e-07	4.976948e-06	0.01518859	-0.000476526	-1.541819e-05	6.088544e-05	-0.1234757	-0.009954372
1.7e+08	-0.12376	0.001432925	-7.899426e-07	2.693302e-06	0.01442233	-0.002327777	-6.312254e-07	4.9242e-06
	-7.899426e-07	2.693302e-06	-0.1233748	0.002841457	-8.4952e-06	6.975689e-05	0.01451232	-0.001754912
	0.01442233	-0.002327777	-8.4952e-06	6.975689e-05	-0.1239345	0.0006511761	-1.059209e-05	6.153485e-05
	-6.312254e-07	4.9242e-06	0.01451232	-0.001754911	-1.059209e-05	6.153485e-05	-0.1233176	0.003108755
1.8e+08	-0.1212257	0.01401649	-4.704315e-07	2.72905e-06	0.01340793	-0.003436474	-4.180726e-07	4.881252e-06
	-4.704315e-07	2.72905e-06	-0.1206884	0.01547127	-2.979959e-06	6.972259e-05	0.0135646	-0.002857226
	0.01340793	-0.003436475	-2.979959e-06	6.972259e-05	-0.1214731	0.01332317	-5.600424e-06	6.181068e-05
	-4.180726e-07	4.881252e-06	0.0135646	-0.002857226	-5.600424e-06	6.181068e-05	-0.1206116	0.01574921
1.9e+08	-0.1162965	0.02572914	-1.566694e-07	2.729482e-06	0.01216486	-0.004304098	-1.941925e-07	4.843379e-06
	-1.566694e-07	2.729482e-06	-0.115604	0.02719075	2.637901e-06	6.923854e-05	0.01238698	-0.003733076
	0.01216486	-0.004304098	2.637901e-06	6.923854e-05	-0.1166022	0.02512895	-5.027581e-07	6.167044e-05
	-1.941925e-07	4.843379e-06	0.01238698	-0.003733076	-5.027581e-07	6.167044e-05	-0.1155066	0.02747516
2e+08	-0.109202	0.03612066	1.481771e-07	2.696374e-06	0.01074671	-0.004889161	3.957873e-08	4.806767e-06
	1.481771e-07	2.696374e-06	-0.1083611	0.03754885	8.28756e-06	6.827163e-05	0.01102979	-0.004340839
	0.01074671	-0.004889161	8.28756e-06	6.827163e-05	-0.1095517	0.03561632	4.639614e-06	6.108448e-05
	3.957873e-08	4.806767e-06	0.01102979	-0.004340839	4.639614e-06	6.108448e-05	-0.1082433	0.03783527
2.1e+08	-0.1002544	0.04479508	4.411359e-07	2.631804e-06	0.009214343	-0.005161122	2.825828e-07	4.768219e-06
	4.411359e-07	2.631804e-06	-0.09928177	0.04615102	1.389791e-05	6.680308e-05	0.009550595	-0.004649095
	0.009214342	-0.005161122	1.389791e-05	6.680308e-05	-0.1006337	0.04438736	9.764144e-06	6.003513e-05
	2.825828e-07	4.768219e-06	0.009550595	-0.004649095	9.764144e-06	6.003513e-05	-0.09914466	0.04643492
2.2e+08	-0.08983621	0.05142505	7.195355e-07	2.53812e-06	0.007633953	-0.005101689	5.342733e-07	4.724931e-06
	7.195355e-07	2.53812e-06	-0.08875813	0.05267368	1.939865e-05	6.482722e-05	0.008012491	-0.004637928
	0.007633953	-0.005101689	1.939865e-05	6.482722e-05	-0.09023141	0.05111287	1.48081e-05	5.851593e-05
	5.342733e-07	4.724931e-06	0.008012491	-0.004637928	1.48081e-05	5.851593e-05	-0.08860396	0.05295073
2.3e+08	-0.07838661	0.05576428	9.810779e-07	2.417871e-06	0.00607487	-0.004705905	7.941377e-07	4.674318e-06
	9.810779e-07	2.417871e-06	-0.07723812	0.05687649	2.472151e-05	6.235049e-05	0.006482054	-0.004300057
	0.00607487	-0.004705905	2.472151e-05	6.235049e-05	-0.07878463	0.05554471	1.970979e-05	5.653112e-05
	7.941377e-07	4.674318e-06	0.006482054	-0.004300057	1.970979e-05	5.653112e-05	-0.07707017	0.0571428
2.4e+08	-0.06638528	0.05765735	1.223883e-06	2.27371e-06	0.004607045	-0.003982919	1.061593e-06	4.613952e-06
	1.223883e-06	2.27371e-06	-0.06520873	0.05861202	2.980148e-05	5.939071e-05	0.005026979	-0.003641679
	0.004607045	-0.003982919	2.980148e-05	5.939071e-05	-0.06677388	0.05752573	2.440982e-05	5.409515e-05
	1.061593e-06	4.613952e-06	0.005026979	-0.003641679	2.440982e-05	5.409515e-05	-0.06503122	0.05886438
2.5e+08	-0.05433413	0.05704657	1.446476e-06	2.108303e-06	0.003298223	-0.002956329	1.335936e-06	4.541439e-06
	1.446476e-06	2.108303e-06	-0.05317738	0.05783227	3.457829e-05	5.597577e-05	0.003713402	-0.002682925
	0.003298223	-0.002956329	3.457829e-05	5.597577e-05	-0.05470218	0.05699661	2.885255e-05	5.12317e-05
	1.335936e-06	4.541439e-06	0.003713402	-0.002682925	2.885255e-05	5.12317e-05	-0.05299533	0.0580684
2.6e+08	-0.04273786	0.05397537	1.647748e-06	1.924229e-06	0.002210896	-0.001663939	1.616236e-06	4.454424e-06
	1.647748e-06	1.924229e-06	-0.04165208	0.05459168	3.899768e-05	5.214266e-05	0.002602959	-0.001457757
	0.002210896	-0.001663939	3.899768e-05	5.214266e-05	-0.04307558	0.0539993	3.298741e-05	4.797289e-05
	1.616236e-06	4.454424e-06	0.002602959	-0.001457757	3.298741e-05	4.797289e-05	-0.04147109	0.05481038
2.7e+08	-0.03208364	0.04858776	1.826885e-06	1.723923e-06	0.001399146	-0.0001568168	1.901254e-06	4.350564e-06
	1.826885e-06	1.723923e-06	-0.03112078	0.04904607	4.301255e-05	4.793588e-05	0.001749717	-1.319029e-05
	0.001399146	-0.0001568168	4.301255e-05	4.793588e-05	-0.03238282	0.04867657	3.677003e-05	4.435794e-05
	1.901254e-06	4.350564e-06	0.001749717	-1.319031e-05	3.677003e-05	4.435794e-05	-0.03094682	0.04924741
2.8e+08	-0.02282093	0.04112372	1.983277e-06	1.509636e-06	0.000905581	0.001502444	2.189377e-06	4.227626e-06
	1.983277e-06	1.509636e-06	-0.02203101	0.04144749	4.658399e-05	4.340619e-05	0.001197165	0.001592257
	0.000905581	0.001502444	4.658399e-05	4.340619e-05	-0.02307514	0.04126739	4.016335e-05	4.043198e-05
	2.189377e-06	4.227626e-06	0.001197165	0.001592257	4.016335e-05	4.043198e-05	-0.02187011	0.04163288
2.9e+08	-0.01534218	0.03191029	2.116426e-06	1.28344e-06	0.0007586115	0.003242278	2.478564e-06	4.083542e-06
	2.116426e-06	1.28344e-06	-0.01477054	0.03213467	4.968198e-05	3.860875e-05	0.0009754931	0.003290926
	0.0007586115	0.003242278	4.968198e-05	3.860875e-05	-0.01554693	0.03209813	4.313824e-05	3.624439e-05
	2.478564e-06	4.083542e-06	0.0009754931	0.003290926	4.313824e-05	3.624439e-05	-0.01462849	0.03230685
3e+08	-0.00996552	0.02134854	2.225864e-06	1.047266e-06	0.0009703137	0.004985463	2.766328e-06	3.916515e-06
	2.225864e-06	1.047266e-06	-0.0096501	0.02151933	5.228566e-05	3.360121e-05	0.001099424	0.005009126
	0.0009703137	0.004985463	5.228566e-05	3.360121e-05	-0.01011836	0.02156955	4.567391e-05	3.184713e-05
	2.766328e-06	3.916515e-06	0.001099424	0.005009126	4.567391e-05	3.184713e-05	-0.009532166	0.0216824
3.1e+08	-0.00692043	0.009896864	2.311087e-06	8.029582e-07	0.001535133	0.006653027	3.049791e-06	3.72516e-06
	2.311086e-06	8.029582e-07	-0.006889322	0.01006891	5.43831e-05	2.844201e-05	0.00156684	0.006670855
	0.001535133	0.006653027	5.43831e-05	2.844201e-05	-0.00702097	0.01014013	4.775805e-05	2.729316e-05
	3.049791e-06	3.72516e-06	0.00156684	0.006670855	4.775805e-05	2.729316e-05	-0.006799945	0.01022815
3.2e+08	-0.00633721	-0.001948707	2.371529e-06	5.523684e-07	0.002429619	0.00816851	3.325736e-06	3.508592e-06
	2.371529e-06	5.523684e-07	-0.006606563	-0.00171375	5.597111e-05	2.318861e-05	0.002358395	0.00820188
	0.002429619	0.00816851	5.597111e-05	2.318861e-05	-0.006387065	-0.001693648	4.93864e-05	2.26347e-05
	3.325736e-06	3.508592e-06	0.002358395	0.00820188	4.93864e-05	2.26347e-05	-0.006549088	-0.001552012
3.3e+08	-0.008241003	-0.01367625	2.406607e-06	2.974817e-07	0.0036133	0.009462261	3.590711e-06	3.266516e-06
	2.406607e-06	2.974817e-07	-0.008813507	-0.0133126	5.70559e-05	1.789627e-05	0.003438224	0.009533884
	0.0036133	0.009462261	5.70559e-05	1.789627e-05	-0.008243632	-0.01341899	5.056202e-05	1.792179e-05
	3.590711e-06	3.266516e-06	0.003438224	0.009533884	5.056202e-05	1.792179e-05	-0.008789899	-0.01314123
3.4e+08	-0.01255079	-0.02478057	2.415734e-06	4.042804e-08	0.005030684	0.01047543	3.841092e-06	2.999296e-06
	2.415734e-06	4.042804e-08	-0.0134147	-0.02422134	5.764936e-05	1.261594e-05	0.004755752	0.01060835
	0.005030684	0.01047543	5.764936e-05	1.261594e-05	-0.01251124	-0.02452953	5.129389e-05	1.320125e-05
	3.841092e-06	2.999296e-06	0.004755752	0.01060835	5.129389e-05	1.320125e-05	-0.01342536	-0.02403273
3.5e+08	-0.01908346	-0.03478555	2.398395e-06	-2.164416e-07	0.00661427	0.01116334	4.073533e-06	2.707949e-06
	2.398395e-06	-2.164416e-07	-0.02021236	-0.03396595	5.776946e-05	7.393887e-06	0.006248478	0.01137982
	0.00661427	0.01116334	5.776946e-05	7.393887e-06	-0.01900812	-0.03454767	5.159733e-05	8.515517e-06
	4.073533e-06	2.707949e-06	0.006248478	0.01137982	5.159733e-05	8.515517e-06	-0.02025609	-0.03375233
3.6e+08	-0.02756273	-0.04326482	2.354245e-06	-4.705352e-07	0.00828834	0.01149787	4.284834e-06	2.39409e-06
	2.354245e-06	-4.705352e-07	-0.02891603	-0.04212546	5.743861e-05	2.270949e-06	0.007845521	0.01181835
	0.00828834	0.01149787	5.743861e-05	2.270949e-06	-0.02745895	-0.04304538	5.149139e-05	3.902124e-06
	4.284834e-06	2.39409e-06	0.007845521	0.01181835	5.149139e-05	3.902124e-06	-0.02898993	-0.04187927
3.7e+08	-0.03763234	-0.04985994	2.283205e-06	-7.190337e-07	0.009973217	0.01146888	4.472123e-06	2.05986e-06
	2.283205e-06	-7.190337e-07	-0.03915647	-0.04834992	5.668157e-05	-2.717665e-06	0.009471638	0.01191086
	0.009973217	0.01146888	5.668157e-05	-2.717665e-06	-0.03750805	-0.0496624	5.09975e-05	-6.064364e-07
	4.472123e-06	2.05986e-06	0.009471638	0.01191086	5.09975e-05	-6.064364e-07	-0.03925604	-0.04806413
3.8e+08	-0.04887271	-0.05429485	2.185546e-06	-9.589358e-07	0.01158964	0.01108431	4.632969e-06	1.707814e-06
	2.185546e-06	-9.589358e-07	-0.05050306	-0.0523746	5.552449e-05	-7.542075e-06	0.01105136	0.01166142
	0.01158964	0.01108431	5.552449e-05	-7.542075e-06	-0.04873599	-0.05412089	5.013847e-05	-4.982567e-06
	4.632969e-06	1.707814e-06	0.01105136	0.01166142	5.013847e-05	-4.982567e-06	-0.05062225	-0.05204313
3.9e+08	-0.06081999	-0.05638628	2.061958e-06	-1.187129e-06	0.01306296	0.01036932	4.765451e-06	1.340792e-06
	2.061958e-06	-1.187129e-06	-0.06248344	-0.0540299	5.399375e-05	-1.217719e-05	0.01251296	0.01109047
	0.01306296	0.01036932	5.399375e-05	-1.217719e-05	-0.06067873	-0.05623584	4.893743e-05	-9.20313e-06
	4.765451e-06	1.340792e-06	0.01251296	0.01109047	4.893743e-05	-9.20313e-06	-0.06261487	-0.05364791
4e+08	-0.07298659	-0.05604964	1.913595e-06	-1.400479e-06	0.01432675	0.009364342	4.868163e-06	9.617883e-07
	1.913595e-06	-1.400479e-06	-0.07460445	-0.05324664	5.211513e-05	-1.660195e-05	0.01379191	0.01023313
	0.01432675	0.009364342	5.211513e-05	-1.660195e-05	-0.07284812	-0.05592104	4.741694e-05	-1.324878e-05
	4.868163e-06	9.617883e-07	0.01379191	0.01023313	4.741694e-05	-1.324878e-05	-0.07473972	-0.05281085
4.1e+08	-0.08488186	-0.05330032	1.742104e-06	-1.595925e-06	0.01532581	0.008122502	4.940204e-06	5.738149e-07
	1.742104e-06	-1.595925e-06	-0.08637327	-0.05005676	4.991332e-05	-2.079849e-05	0.01483375	0.0091368
	0.01532581	0.008122502	4.991332e-05	-2.079849e-05	-0.08475268	-0.05319049	4.55985e-05	-1.710319e-05
	4.940204e-06	5.738149e-07	0.01483375	0.0091368	4.55985e-05	-1.710319e-05	-0.08650325	-0.04956564
4.2e+08	-0.09603217	-0.04825084	1.549612e-06	-1.770586e-06	0.01601827	0.006706491	4.98112e-06	1.797984e-07
	1.549612e-06	-1.770586e-06	-0.09731761	-0.04458968	4.741161e-05	-2.475125e-05	0.01559607	0.007858325
	0.01601827	0.006706491	4.741161e-05	-2.475125e-05	-0.09591772	-0.0481556	4.350221e-05	-2.075219e-05
	4.98112e-06	1.797984e-07	0.01559607	0.007858325	4.350221e-05	-2.075219e-05	-0.09743284	-0.04404361
4.3e+08	-0.1059994	-0.04110408	1.338705e-06	-1.921855e-06	0.01637682	0.005185268	4.990822e-06	-2.174994e-07
	1.338705e-06	-1.921855e-06	-0.1070043	-0.0370648	4.463196e-05	-2.844618e-05	0.01604982	0.006460974
	0.01637682	0.005185268	4.463196e-05	-2.844618e-05	-0.1059039	-0.04101839	4.114671e-05	-2.418296e-05
	4.990822e-06	-2.174994e-07	0.01604982	0.006460974	4.114671e-05	-2.418296e-05	-0.1070953	-0.03646613
4.4e+08	-0.1143974	-0.03214332	1.11238e-06	-2.047486e-06	0.01638925	0.00363077	4.969504e-06	-6.155311e-07
	1.11238e-06	-2.047486e-06	-0.1150553	-0.02778075	4.159518e-05	-3.187004e-05	0.01617979	0.00501141
	0.01638925	0.00363077	4.159518e-05	-3.187004e-05	-0.1143238	-0.03206158	3.85494e-05	-2.738327e-05
	4.969504e-06	-6.155311e-07	0.01617979	0.00501141	3.85494e-05	-2.738327e-05	-0.1151134	-0.0271338
4.5e+08	-0.1209054	-0.02171957	8.739773e-07	-2.145675e-06	0.01605815	0.002114813	4.917548e-06	-1.011987e-06
	8.739773e-07	-2.145675e-06	-0.1211616	-0.01710212	3.832134e-05	-3.500983e-05	0.01598452	0.003576852
	0.01605815	0.002114813	3.832134e-05	-3.500983e-05	-0.1208552	-0.02163593	3.572684e-05	-3.034092e-05
	4.917548e-06	-1.011987e-06	0.01598452	0.003576852	3.572684e-05	-3.034092e-05	-0.1211786	-0.01641305
4.6e+08	-0.1252793	-0.01023705	6.271057e-07	-2.215122e-06	0.01540019	0.0007062976	4.835436e-06	-1.404802e-06
	6.271057e-07	-2.215122e-06	-0.125093	-0.005444237	3.483028e-05	-3.785253e-05	0.01547566	0.002222506
	0.01540019	0.0007062976	3.483028e-05	-3.785253e-05	-0.1252528	-0.01014564	3.269528e-05	-3.304333e-05
	4.835436e-06	-1.404802e-06	0.01547566	0.002222506	3.269528e-05	-3.304333e-05	-0.1250623	-0.004720851
4.7e+08	-0.1273588	0.00186276	3.755475e-07	-2.25508e-06	0.01444495	-0.0005312162	4.723672e-06	-1.792101e-06
	3.755475e-07	-2.25508e-06	-0.1267059	0.006743294	3.11421e-05	-4.038479e-05	0.01467704	0.001009323
	0.01444495	-0.0005312162	3.11421e-05	-4.038479e-05	-0.1273551	0.001967553	2.94712e-05	-3.54773e-05
	4.723672e-06	-1.792101e-06	0.01467704	0.001009323	2.94712e-05	-3.54773e-05	-0.1266224	0.007491829
4.8e+08	-0.1270728	0.01411786	1.231608e-07	-2.265381e-06	0.01323345	-0.001541582	4.582716e-06	-2.172194e-06
