!$
! Info: Touchstone file created by Circ.  Input file=Tx_12in_Rx_85ohms_TxVia_60mils_RxVia_70mils.circ
!$
# Hz S RI R 50
0	0.009711742	1.560034e-25	-3.655383e-11	9.205801e-27	8.470938e-05	1.868841e-23	-3.189107e-09	3.95682e-25
	-3.65546e-11	9.205909e-27	0.009707269	1.918378e-25	3.544097e-11	2.353786e-27	8.441952e-05	2.364713e-23
	8.57929e-05	1.881327e-23	3.543678e-11	2.354294e-27	0.009727151	1.560316e-25	-1.616486e-11	8.245536e-27
	-3.188981e-09	3.956665e-25	8.46891e-05	2.374853e-23	-1.625876e-11	8.256986e-27	0.009721672	1.910036e-25
1e+07	0.01220957	-0.01168267	3.884518e-11	1.560458e-10	0.0003718715	0.002267441	-3.616049e-09	8.155431e-09
	3.884518e-11	1.560458e-10	0.01219264	-0.01148414	4.230996e-11	1.703589e-10	0.0004584103	0.002258245
	0.0003719029	0.002267446	4.230996e-11	1.703589e-10	0.0138237	-0.01137734	-3.650158e-09	1.030443e-08
	-3.616049e-09	8.155431e-09	0.000458413	0.002258243	-3.650158e-09	1.030443e-08	0.01216894	-0.01147055
2e+07	0.01070047	-0.02629736	-1.054009e-12	3.066792e-10	0.001229793	0.00437146	-1.653586e-10	-7.251006e-12
	-1.054002e-12	3.066792e-10	0.01085716	-0.02598226	3.316968e-12	3.293396e-10	0.001334717	0.004279662
	0.001229807	0.00437144	3.316963e-12	3.293396e-10	0.01232223	-0.02640526	5.084362e-11	6.338594e-10
	-1.653586e-10	-7.251007e-12	0.001334714	0.004279663	5.084363e-11	6.338594e-10	0.01084429	-0.02594492
3e+07	0.004446615	-0.04102004	-8.919554e-11	4.900851e-10	0.002612569	0.006089347	-1.114387e-10	5.539147e-10
	-8.919554e-11	4.900851e-10	0.004705414	-0.04069036	-8.325994e-11	5.171049e-10	0.0026519	0.005984993
	0.002612569	0.006089344	-8.325993e-11	5.171049e-10	0.006043617	-0.04136403	-9.297802e-11	5.795015e-10
	-1.114387e-10	5.539147e-10	0.0026519	0.005984995	-9.297802e-11	5.795015e-10	0.004699514	-0.0406393
4e+07	-0.005661632	-0.0539255	-1.985769e-10	7.072612e-10	0.004337466	0.007372653	-2.073365e-10	8.263577e-10
	-1.985769e-10	7.072612e-10	-0.005350969	-0.05360403	-1.920264e-10	7.391069e-10	0.004313819	0.007280848
	0.00433747	0.007372657	-1.920264e-10	7.391069e-10	-0.00412476	-0.05447479	-2.337081e-10	8.111876e-10
	-2.073365e-10	8.263577e-10	0.00431382	0.007280849	-2.337081e-10	8.111876e-10	-0.005352504	-0.05354171
5e+07	-0.0187876	-0.06402134	-3.186149e-10	9.721027e-10	0.006281004	0.008159162	-3.381014e-10	1.124238e-09
	-3.186149e-10	9.721027e-10	-0.01846292	-0.06370729	-3.13035e-10	1.005871e-09	0.006199782	0.008099791
	0.006281007	0.008159164	-3.13035e-10	1.005871e-09	-0.01734325	-0.06475533	-3.737612e-10	1.1194e-09
	-3.381014e-10	1.124238e-09	0.006199783	0.008099791	-3.737612e-10	1.1194e-09	-0.01846238	-0.0636339
6e+07	-0.03400995	-0.070653	-4.321783e-10	1.29051e-09	0.008307084	0.008419386	-4.630186e-10	1.481986e-09
	-4.321783e-10	1.29051e-09	-0.03369716	-0.07033366	-4.311105e-10	1.32278e-09	0.008177209	0.008409285
	0.00830708	0.008419385	-4.311105e-10	1.32278e-09	-0.03268706	-0.07155066	-5.050613e-10	1.488997e-09
	-4.630186e-10	1.481986e-09	0.00817721	0.008409285	-5.050613e-10	1.488997e-09	-0.03369593	-0.07024823
7e+07	-0.05034244	-0.07344788	-5.199265e-10	1.662187e-09	0.01027893	0.008159888	-5.535705e-10	1.899343e-09
	-5.199265e-10	1.662187e-09	-0.05005645	-0.07310525	-5.293455e-10	1.690002e-09	0.01011281	0.0082128
	0.01027892	0.008159888	-5.293455e-10	1.690002e-09	-0.04916617	-0.07448587	-6.105044e-10	1.918917e-09
	-5.535705e-10	1.899343e-09	0.01011281	0.008212799	-6.105044e-10	1.918917e-09	-0.05005504	-0.07300635
8e+07	-0.06678155	-0.07229836	-5.623734e-10	2.08046e-09	0.01206925	0.00742127	-5.873017e-10	2.364225e-09
	-5.623734e-10	2.08046e-09	-0.06652795	-0.07191385	-5.908973e-10	2.102495e-09	0.01188237	0.007547363
	0.01206924	0.007421274	-5.908973e-10	2.102495e-09	-0.06577336	-0.07345126	-6.691853e-10	2.404824e-09
	-5.873017e-10	2.364225e-09	0.01188237	0.007547363	-6.691853e-10	2.404824e-09	-0.06652612	-0.07179985
9e+07	-0.08235913	-0.0673445	-5.41601e-10	2.532576e-09	0.01356848	0.006273302	-5.473875e-10	2.857797e-09
	-5.41601e-10	2.532576e-09	-0.08213735	-0.06690287	-6.005055e-10	2.550474e-09	0.01337893	0.006478745
	0.01356847	0.006273307	-6.005055e-10	2.550474e-09	-0.08153788	-0.06858573	-6.593072e-10	2.936089e-09
	-5.473875e-10	2.857797e-09	0.01337893	0.006478745	-6.593072e-10	2.936089e-09	-0.08213408	-0.06677222
1e+08	-0.09618567	-0.05894591	-4.402422e-10	3.001809e-09	0.01469118	0.004808427	-4.210513e-10	3.358105e-09
	-4.402422e-10	3.001809e-09	-0.096003	-0.05844292	-5.455277e-10	3.023196e-09	0.01452102	0.005096123
	0.01469118	0.004808427	-5.455277e-10	3.023196e-09	-0.09557732	-0.06025243	-5.573385e-10	3.498155e-09
	-4.210513e-10	3.358105e-09	0.01452102	0.005096123	-5.573385e-10	3.498155e-09	-0.09599679	-0.05829451
1.1e+08	-0.107515	-0.04770653	-2.480731e-10	3.441906e-09	0.01537821	0.003131167	-2.302204e-10	3.82557e-09
	-2.480731e-10	3.441906e-09	-0.10737	-0.04707319	-3.959052e-10	3.474473e-09	0.01524973	0.003484733
	0.01537821	0.003131167	-3.959052e-10	3.474473e-09	-0.1071376	-0.04899613	-3.4014e-10	4.013134e-09
	-2.302204e-10	3.82557e-09	0.01524973	0.003484733	-3.4014e-10	4.013134e-09	-0.1073583	-0.04690524
1.2e+08	-0.1158063	-0.0342924	-1.159312e-11	3.83171e-09	0.01559661	0.001359182	2.469825e-11	4.253385e-09
	-1.159312e-11	3.83171e-09	-0.115636	-0.03352006	-1.891379e-10	3.880731e-09	0.01551801	0.001766925
	0.01559661	0.001359182	-1.891379e-10	3.880731e-09	-0.1156241	-0.03552574	-6.935207e-11	4.470511e-09
	2.469825e-11	4.253385e-09	0.01551801	0.001766926	-6.935207e-11	4.470511e-09	-0.1156149	-0.03333291
1.3e+08	-0.1206532	-0.01949966	2.767772e-10	4.168136e-09	0.01534498	-0.000390956	3.400562e-10	4.624805e-09
	2.767772e-10	4.168136e-09	-0.1204139	-0.0186035	6.945788e-11	4.242152e-09	0.01532513	5.817778e-05
	0.01534498	-0.0003909563	6.945788e-11	4.242152e-09	-0.12064	-0.02065089	2.619216e-10	4.867587e-09
	3.400562e-10	4.624805e-09	0.01532513	5.817879e-05	2.619216e-10	4.867587e-09	-0.1203797	-0.0183989
1.4e+08	-0.1218596	-0.004188999	6.075398e-10	4.43574e-09	0.01464768	-0.002007967	6.99786e-10	4.921842e-09
	6.075398e-10	4.43574e-09	-0.1215187	-0.003197528	3.701727e-10	4.544844e-09	0.0146929	-0.00153255
	0.01464768	-0.002007967	3.701727e-10	4.544844e-09	-0.1219905	-0.00523854	6.433296e-10	5.1858e-09
	6.99786e-10	4.921842e-09	0.0146929	-0.001532549	6.433296e-10	5.1858e-09	-0.1214684	-0.002978415
1.5e+08	-0.119437	0.01076634	9.62043e-10	4.623643e-09	0.01355294	-0.003390573	1.084409e-09	5.131988e-09
	9.62043e-10	4.623643e-09	-0.1189737	0.01181533	6.969804e-10	4.77616e-09	0.0136659	-0.002905739
	0.01355294	-0.003390573	6.969804e-10	4.77616e-09	-0.119687	0.009833123	1.053391e-09	5.412396e-09
	1.084409e-09	5.131988e-09	0.0136659	-0.002905738	1.053391e-09	5.412396e-09	-0.1189052	0.012045
1.6e+08	-0.1135981	0.02452679	1.31849e-09	4.724469e-09	0.01213003	-0.004451762	1.470073e-09	5.247691e-09
	1.31849e-09	4.724469e-09	-0.1130051	0.02559	1.03028e-09	4.928206e-09	0.01230909	-0.003975175
	0.01213003	-0.004451762	1.03028e-09	4.928206e-09	-0.1139424	0.02372016	1.46693e-09	5.538468e-09
	1.470073e-09	5.247691e-09	0.01230909	-0.003975174	1.46693e-09	5.538468e-09	-0.1129174	0.02582555
1.7e+08	-0.1047427	0.03632975	1.653084e-09	4.736957e-09	0.01046592	-0.005122548	1.830915e-09	5.268117e-09
	1.653084e-09	4.736957e-09	-0.1040267	0.03736229	1.348276e-09	4.99864e-09	0.01070482	-0.004671515
	0.01046592	-0.005122548	1.348276e-09	4.99864e-09	-0.1051564	0.03565588	1.856367e-09	5.562241e-09
	1.830915e-09	5.268117e-09	0.01070482	-0.004671514	1.856367e-09	5.562241e-09	-0.1039201	0.03759863
1.8e+08	-0.09343472	0.04552888	1.941712e-09	4.666433e-09	0.008661463	-0.005355337	2.140944e-09	5.199606e-09
	1.941712e-09	4.666433e-09	-0.09261658	0.04648826	1.62852e-09	4.991211e-09	0.008949375	-0.004945563
	0.008661463	-0.005355337	1.62852e-09	4.991211e-09	-0.09389373	0.04499003	2.193704e-09	5.489629e-09
	2.140944e-09	5.199606e-09	0.008949375	-0.004945562	2.193704e-09	5.489629e-09	-0.09249284	0.04672031
1.9e+08	-0.08037245	0.05162815	2.161749e-09	4.524824e-09	0.006826936	-0.005126853	2.376015e-09	5.055594e-09
	2.161749e-09	4.524824e-09	-0.07948591	0.05247815	1.849596e-09	4.9159e-09	0.007148849	-0.004771213
	0.006826936	-0.005126853	1.849596e-09	4.9159e-09	-0.08085323	0.05122275	2.452644e-09	5.334253e-09
	2.376015e-09	5.055594e-09	0.007148849	-0.004771213	2.452644e-09	5.334253e-09	-0.07934836	0.05270126
2e+08	-0.06635108	0.05430918	2.293843e-09	4.330184e-09	0.005076677	-0.004440419	2.515732e-09	4.856003e-09
	2.293843e-09	4.330184e-09	-0.06544096	0.05502344	1.99285e-09	4.788592e-09	0.005414147	-0.004147848
	0.005076677	-0.004440419	1.99285e-09	4.788592e-09	-0.06683141	0.05403194	2.61068e-09	5.116869e-09
	2.515732e-09	4.856003e-09	0.005414148	-0.004147848	2.61068e-09	5.116869e-09	-0.06529423	0.05523378
2.1e+08	-0.05221975	0.05345027	2.323542e-09	4.105745e-09	0.003522921	-0.003327256	2.545149e-09	4.626127e-09
	2.323542e-09	4.105745e-09	-0.05133903	0.05401529	2.044005e-09	4.630265e-09	0.003855102	-0.003101828
	0.003522921	-0.003327256	2.044005e-09	4.630265e-09	-0.05267927	0.05329234	2.651003e-09	4.86425e-09
	2.545149e-09	4.626127e-09	0.003855102	-0.003101828	2.651003e-09	4.86425e-09	-0.05118888	0.05421026
2.2e+08	-0.03883417	0.04913554	2.242642e-09	3.878534e-09	0.00226887	-0.001846316	2.456115e-09	4.395086e-09
	2.242642e-09	3.878534e-09	-0.03804033	0.04955289	1.994545e-09	4.465736e-09	0.002573789	-0.001686609
	0.00226887	-0.001846317	1.994545e-09	4.465736e-09	-0.03925492	0.04908485	2.564053e-09	4.607555e-09
	2.456115e-09	4.395086e-09	0.002573789	-0.001686609	2.564053e-09	4.607555e-09	-0.03789332	0.04973144
2.3e+08	-0.02700709	0.04165276	2.050135e-09	3.67766e-09	0.001401428	-8.224969e-05	2.248187e-09	4.193976e-09
	2.050135e-09	3.67766e-09	-0.02635789	0.04194031	1.842713e-09	4.322024e-09	0.001657436	1.896165e-05
	0.001401428	-8.224969e-05	1.842713e-09	4.322024e-09	-0.02737416	0.04169442	2.348606e-09	4.380319e-09
	2.248187e-09	4.193976e-09	0.001657436	1.89616e-05	2.348606e-09	4.380319e-09	-0.02622094	0.04210312
2.4e+08	-0.01745954	0.03147896	1.752686e-09	3.532368e-09	0.0009842083	0.001858834	1.929028e-09	4.053817e-09
	1.752686e-09	3.532368e-09	-0.01700844	0.03167093	1.594041e-09	4.226464e-09	0.001171504	0.001914489
	0.0009842083	0.001858834	1.594041e-09	4.226464e-09	-0.01776157	0.03159593	2.012289e-09	4.216194e-09
	1.929028e-09	4.053817e-09	0.001171504	0.001914489	2.012289e-09	4.216194e-09	-0.01688838	0.03182057
2.5e+08	-0.01077593	0.01925377	1.364575e-09	3.470007e-09	0.00105163	0.003855816	1.514271e-09	4.003458e-09
	1.364575e-09	3.470007e-09	-0.0105676	0.01939951	1.261324e-09	4.204708e-09	0.001153767	0.003884085
	0.00105163	0.003855816	1.261324e-09	4.204708e-09	-0.01100551	0.01942759	1.571474e-09	4.146595e-09
	1.514271e-09	4.003458e-09	0.001153767	0.003884085	1.571474e-09	4.146595e-09	-0.01047063	0.01954038
2.6e+08	-0.007366692	0.00574147	9.070893e-10	3.514051e-09	0.001604938	0.005780934	1.026836e-09	4.067562e-09
	9.070893e-10	3.514051e-09	-0.007432826	0.00590301	8.64045e-10	4.278784e-09	0.001610202	0.005804331
	0.001604938	0.005780934	8.64045e-10	4.278784e-09	-0.007520596	0.005953179	1.050563e-09	4.198445e-09
	1.026836e-09	4.067562e-09	0.001610202	0.005804331	1.050563e-09	4.198445e-09	-0.00736406	0.006041223
2.7e+08	-0.007441544	-0.008216151	4.074326e-10	3.682323e-09	0.002610874	0.00750937	4.958017e-10	4.264816e-09
	4.074326e-10	3.682323e-09	-0.007797408	-0.007967668	4.272797e-10	4.465372e-09	0.002513418	0.007553505
	0.002610874	0.00750937	4.272797e-10	4.465372e-09	-0.007520717	-0.007985072	4.806826e-10	4.39216e-09
	4.958017e-10	4.264816e-09	0.002513418	0.007553505	4.806826e-10	4.39216e-09	-0.007760394	-0.007824614
2.8e+08	-0.01099593	-0.02175284	-1.02826e-10	3.985542e-09	0.0040034	0.008929106	-4.517796e-11	4.606438e-09
	-1.02826e-10	3.985542e-09	-0.01163792	-0.02134168	-1.983731e-11	4.774423e-09	0.003804049	0.009021125
	0.0040034	0.008929106	-1.983731e-11	4.774423e-09	-0.01100521	-0.02151953	-1.020949e-10	4.740014e-09
	-4.517796e-11	4.606438e-09	0.003804049	0.009021125	-1.020949e-10	4.740014e-09	-0.01163427	-0.0211853
2.9e+08	-0.017812	-0.0340329	-5.896368e-10	4.426304e-09	0.005688498	0.009949907	-5.597895e-10	5.095096e-09
	-5.896368e-10	4.426304e-09	-0.01871651	-0.03338387	-4.459593e-10	5.208249e-09	0.005395133	0.01011674
	0.005688498	0.009949907	-4.459593e-10	5.208249e-09	-0.01775964	-0.0338123	-6.5891e-10	5.245014e-09
	-5.597895e-10	5.095096e-09	0.005395133	0.01011674	-6.5891e-10	5.245014e-09	-0.01874563	-0.03320521
3e+08	-0.02747421	-0.04430391	-1.018574e-09	4.998568e-09	0.007551581	0.01051041	-1.011221e-09	5.724309e-09
	-1.018574e-09	4.998568e-09	-0.02859788	-0.04334774	-8.195509e-10	5.761109e-09	0.007179049	0.01077689
	0.007551581	0.01051041	-8.195509e-10	5.761109e-09	-0.02737117	-0.04410806	-1.150501e-09	5.900341e-09
	-1.011221e-09	5.724309e-09	0.007179049	0.01077689	-1.150501e-09	5.900341e-09	-0.02865686	-0.04313795
3.1e+08	-0.03939813	-0.05194298	-1.357114e-09	5.687658e-09	0.009466676	0.01058249	-1.36446e-09	6.478379e-09
	-1.357114e-09	5.687658e-09	-0.04067955	-0.05062154	-1.111001e-09	6.419352e-09	0.0090362	0.01096957
	0.009466676	0.01058249	-1.111001e-09	6.419352e-09	-0.03925723	-0.0517806	-1.539678e-09	6.689391e-09
	-1.36446e-09	6.478379e-09	0.0090362	0.01096957	-1.539678e-09	6.689391e-09	-0.0407632	-0.05037248
3.2e+08	-0.05286985	-0.05649323	-1.5767e-09	6.470911e-09	0.01130631	0.01017257	-1.588594e-09	7.332892e-09
	-1.5767e-09	6.470911e-09	-0.05423269	-0.0547642	-1.294524e-09	7.162041e-09	0.01084442	0.01069565
	0.01130631	0.01017257	-1.294524e-09	7.162041e-09	-0.0527049	-0.05636945	-1.793729e-09	7.586426e-09
	-1.588594e-09	7.332892e-09	0.01084442	0.01069565	-1.793729e-09	7.586426e-09	-0.05433372	-0.05446903
3.3e+08	-0.06709262	-0.0576882	-1.654383e-09	7.31873e-09	0.01295102	0.009319874	-1.65898e-09	8.255796e-09
	-1.654383e-09	7.31873e-09	-0.06844992	-0.05552875	-1.349707e-09	7.962071e-09	0.01248805	0.009987486
	0.01295102	0.009319874	-1.349707e-09	7.962071e-09	-0.06691753	-0.05760464	-1.886627e-09	8.557794e-09
	-1.65898e-09	8.255796e-09	0.01248805	0.009987486	-1.886627e-09	8.557794e-09	-0.06855929	-0.05518253
3.4e+08	-0.08123694	-0.05546317	-1.57495e-09	8.196066e-09	0.01429749	0.008092113	-1.559145e-09	9.209022e-09
	-1.57495e-09	8.196066e-09	-0.08249626	-0.05287257	-1.263344e-09	8.787688e-09	0.01386574	0.008904975
	0.01429749	0.008092113	-1.263344e-09	8.787688e-09	-0.08106492	-0.05541818	-1.801083e-09	9.563737e-09
	-1.559145e-09	9.209022e-09	0.01386574	0.008904975	-1.801083e-09	9.563737e-09	-0.08260369	-0.05247268
3.5e+08	-0.09449038	-0.04995354	-1.332006e-09	9.064397e-09	0.01526476	0.006579339	-1.282277e-09	1.015059e-08
	-1.332006e-09	9.064397e-09	-0.09555949	-0.04695427	-1.029961e-09	9.604207e-09	0.01489648	0.007529959
	0.01526476	0.006579339	-1.029961e-09	9.604207e-09	-0.09433322	-0.04994257	-1.529555e-09	1.056051e-08
	-1.282277e-09	1.015059e-08	0.01489648	0.007529959	-1.529555e-09	1.056051e-08	-0.09565408	-0.04650067
3.6e+08	-0.1061039	-0.04148147	-9.287371e-10	9.883955e-09	0.0157982	0.004886807	-8.321325e-10	1.10371e-08
	-9.287371e-10	9.883955e-09	-0.1068967	-0.03811892	-6.525492e-10	1.037594e-08	0.01552343	0.005959605
	0.0157982	0.004886807	-6.525492e-10	1.037594e-08	-0.1059715	-0.04149756	-1.075333e-09	1.150283e-08
	-8.321325e-10	1.10371e-08	0.01552343	0.005959605	-1.075333e-09	1.150283e-08	-0.1069676	-0.03761427
3.7e+08	-0.1154325	-0.03053256	-3.781128e-10	1.061612e-08	0.01587122	0.003127616	-2.233219e-10	1.18264e-08
	-3.781128e-10	1.061612e-08	-0.1158747	-0.02687321	-1.428637e-10	1.106828e-08	0.01571579	0.004299595
	0.01587122	0.003127616	-1.428637e-10	1.106828e-08	-0.1153324	-0.03056701	-4.529479e-10	1.234666e-08
	-2.233219e-10	1.18264e-08	0.01571579	0.004299595	-4.529479e-10	1.234666e-08	-0.1159117	-0.02632292
3.8e+08	-0.1219677	-0.01772492	2.975108e-10	1.122581e-08	0.0154852	0.001415737	5.191249e-10	1.24804e-08
	2.975108e-10	1.122581e-08	-0.122002	-0.01385317	4.790352e-10	1.164976e-08	0.01546889	0.002657672
	0.0154852	0.001415737	4.790352e-10	1.164976e-08	-0.1219049	-0.01776787	3.123519e-10	1.305196e-08
	5.191249e-10	1.24804e-08	0.01546889	0.002657672	3.123519e-10	1.305196e-08	-0.1219964	-0.0132651
3.9e+08	-0.1253623	-0.003772709	1.067367e-09	1.168377e-08	0.01466791	-0.0001401969	1.360894e-09	1.296759e-08
	1.067367e-09	1.168377e-08	-0.1249524	0.0002135244	1.185582e-09	1.209395e-08	0.01480297	0.001137863
	0.01466791	-0.0001401969	1.185582e-09	1.209395e-08	-0.1253393	-0.003813768	1.185696e-09	1.358523e-08
	1.360894e-09	1.296759e-08	0.01480297	0.001137863	1.185696e-09	1.358523e-08	-0.1248976	0.0008293568
4e+08	-0.1254454	0.01055362	1.893805e-09	1.196856e-08	0.01347091	-0.001442182	2.260182e-09	1.326536e-08
	1.893805e-09	1.196856e-08	-0.1245796	0.01454822	1.942956e-09	1.238129e-08	0.01376101	-0.0001644731
	0.01347091	-0.001442182	1.942956e-09	1.238129e-08	-0.1254622	0.0105248	2.124316e-09	1.392189e-08
	2.260182e-09	1.326536e-08	0.01376101	-0.000164473	2.124316e-09	1.392189e-08	-0.1244712	0.01518023
4.1e+08	-0.1222289	0.02446852	2.73429e-09	1.206817e-08	0.01196625	-0.002407261	3.170044e-09	1.336176e-08
	2.73429e-09	1.206817e-08	-0.1209214	0.02836323	2.712733e-09	1.250053e-08	0.01240599	-0.001166847
	0.01196625	-0.002407261	2.712733e-09	1.250053e-08	-0.1222829	0.02446172	3.079821e-09	1.404804e-08
	3.170044e-09	1.336176e-08	0.01240599	-0.001166847	3.079821e-09	1.404804e-08	-0.1207582	0.02899889
4.2e+08	-0.1159052	0.03721244	3.543766e-09	1.198111e-08	0.0102428	-0.002971165	4.041145e-09	1.325661e-08
	3.543766e-09	1.198111e-08	-0.1141967	0.04090327	3.453905e-09	1.244983e-08	0.01081768	-0.001803198
	0.0102428	-0.002971165	3.453905e-09	1.244983e-08	-0.1159918	0.03723638	4.000901e-09	1.396183e-08
	4.041145e-09	1.325661e-08	0.01081768	-0.001803198	4.000901e-09	1.396183e-08	-0.1139805	0.04152983
4.3e+08	-0.1068363	0.04809125	4.277256e-09	1.171687e-08	0.008402009	-0.003091321	4.82474e-09	1.29619e-08
	4.277256e-09	1.171687e-08	-0.1047928	0.05148491	4.125171e-09	1.223741e-08	0.009089064	-0.002026951
	0.008402009	-0.003091321	4.125171e-09	1.223741e-08	-0.1069491	0.04815319	4.836304e-09	1.367393e-08
	4.82474e-09	1.29619e-08	0.009089064	-0.002026951	4.836304e-09	1.367393e-08	-0.1045285	0.05209016
4.4e+08	-0.09553578	0.0565127	4.892544e-09	1.129583e-08	0.006553399	-0.002749266	5.475696e-09	1.250149e-08
	4.892544e-09	1.129583e-08	-0.09324553	0.05953271	4.687408e-09	1.188161e-08	0.007322243	-0.001813609
	0.006553399	-0.002749266	4.687408e-09	1.188161e-08	-0.09566681	0.05661809	5.537918e-09	1.320747e-08
	5.475696e-09	1.250149e-08	0.007322243	-0.001813609	5.537918e-09	1.320747e-08	-0.09294112	0.06010579
4.5e+08	-0.0826418	0.06201852	5.352793e-09	1.074846e-08	0.004809357	-0.001952394	5.955342e-09	1.190992e-08
	5.352793e-09	1.074846e-08	-0.08021148	0.06461064	5.106181e-09	1.141034e-08	0.005623791	-0.001162805
	0.004809357	-0.001952394	5.106181e-09	1.141034e-08	-0.08278219	0.06217075	6.063777e-09	1.259705e-08
	5.955342e-09	1.190992e-08	0.005623791	-0.001162805	6.063777e-09	1.259705e-08	-0.07987745	0.0651427
4.6e+08	-0.06888495	0.0643106	5.628944e-09	1.011388e-08	0.003279395	-0.00073483	6.23399e-09	1.123073e-08
	5.628944e-09	1.011388e-08	-0.06643381	0.06644722	5.354138e-09	1.085993e-08	0.004099363	-9.957386e-05
	0.003279395	-0.00073483	5.354138e-09	1.085993e-08	-0.06902528	0.06451078	6.380798e-09	1.188718e-08
	6.23399e-09	1.123073e-08	0.004099363	-9.957386e-05	6.380798e-09	1.188718e-08	-0.06608275	0.06693211
4.7e+08	-0.05504919	0.06326981	5.701745e-09	9.437889e-09	0.002063832	0.0008428974	6.292959e-09	1.051404e-08
	5.701745e-09	9.437889e-09	-0.0527025	0.06495295	5.413115e-09	1.027329e-08	0.002847682	0.001325482
	0.002063832	0.0008428974	5.413115e-09	1.027329e-08	-0.05518012	0.06351675	6.467098e-09	1.112992e-08
	6.292959e-09	1.051404e-08	0.002847682	0.001325482	6.467098e-09	1.112992e-08	-0.05234845	0.06538765
4.8e+08	-0.04192896	0.05896581	5.563285e-09	8.770535e-09	0.001247168	0.002695743	6.125975e-09	9.813807e-09
	5.563285e-09	8.770535e-09	-0.03981061	0.06022849	5.275769e-09	9.697587e-09	0.001954089	0.003037532
	0.001247168	0.002695743	5.275769e-09	9.697587e-09	-0.04204176	0.05925606	6.31373e-09	1.038216e-08
