!$
! Info: Touchstone file created by Circ.  Input file=Tx_14in_Rx_93ohms_TxVia_60mils_RxVia_70mils.circ
!$
# Hz S RI R 50
0	0.0128285	1.83259e-25	1.331889e-09	2.090841e-27	9.419124e-05	2.533915e-23	1.200416e-09	9.02303e-28
	1.331897e-09	2.090844e-27	0.01282372	2.16818e-25	9.148601e-10	3.024153e-27	9.439746e-05	3.128951e-23
	9.517077e-05	2.578333e-23	9.14849e-10	3.024124e-27	0.01284226	1.753917e-25	-3.257019e-09	4.478093e-25
	1.200414e-09	9.021856e-28	9.466687e-05	3.142368e-23	-3.256615e-09	4.477597e-25	0.01283803	2.158828e-25
1e+07	0.01889968	-0.001267845	2.917651e-09	3.12797e-09	0.0005407582	0.002364798	2.68699e-09	2.978938e-08
	2.917651e-09	3.12797e-09	0.01856623	-0.002072722	1.851257e-09	2.320892e-09	0.0005670536	0.002585697
	0.0005407671	0.002364765	1.851257e-09	2.320892e-09	0.01756261	-0.001878385	-3.348836e-09	1.811816e-08
	2.686991e-09	2.978938e-08	0.0005670565	0.002585695	-3.348836e-09	1.811816e-08	0.01819831	-0.002062517
2e+07	0.02199036	-0.00795833	5.621411e-09	4.845171e-09	0.001665108	0.004584931	1.995272e-08	1.731889e-08
	5.621411e-09	4.845171e-09	0.02075639	-0.00900515	3.483786e-09	3.84879e-09	0.001574057	0.005005745
	0.00166508	0.00458493	3.483786e-09	3.848789e-09	0.0202248	-0.008373782	-1.92257e-09	7.363928e-09
	1.995272e-08	1.731889e-08	0.001574054	0.005005745	-1.92257e-09	7.363928e-09	0.02048988	-0.008868387
3e+07	0.02151527	-0.01636299	8.967975e-09	4.54446e-09	0.003334917	0.006383014	3.173272e-08	1.417224e-08
	8.967975e-09	4.54446e-09	0.01961207	-0.01716263	5.201655e-09	4.346212e-09	0.003251104	0.006890263
	0.003334915	0.006383018	5.201655e-09	4.346212e-09	0.01947473	-0.01648242	9.253835e-09	4.799426e-09
	3.173272e-08	1.417224e-08	0.003251103	0.006890265	9.253835e-09	4.799426e-09	0.01941797	-0.01700198
4e+07	0.01815561	-0.02452851	1.232606e-08	2.834266e-09	0.005408008	0.007620484	4.328216e-08	7.128424e-09
	1.232606e-08	2.834266e-09	0.01577388	-0.02486639	7.108601e-09	4.050877e-09	0.005398442	0.008150412
	0.005408007	0.007620479	7.108601e-09	4.050877e-09	0.01597113	-0.02428586	1.347083e-08	3.078662e-09
	4.328216e-08	7.128424e-09	0.005398443	0.008150413	1.347083e-08	3.078662e-09	0.01563189	-0.02471015
5e+07	0.01244287	-0.03153358	1.517331e-08	-4.649942e-10	0.007703632	0.008207627	5.284058e-08	-4.978077e-09
	1.517331e-08	-4.649942e-10	0.009773858	-0.0312831	8.72676e-09	2.908441e-09	0.007753289	0.008739073
	0.007703629	0.008207625	8.72676e-09	2.908441e-09	0.01023584	-0.03090265	1.637047e-08	-4.8253e-10
	5.284058e-08	-4.978077e-09	0.00775329	0.008739074	1.637047e-08	-4.8253e-10	0.009665388	-0.03114382
6e+07	0.004968591	-0.03676035	1.686659e-08	-5.192233e-09	0.01002384	0.008112972	5.827522e-08	-2.171099e-08
	1.686659e-08	-5.192233e-09	0.002206159	-0.03585892	9.748012e-09	9.873407e-10	0.01011865	0.008634082
	0.01002384	0.008112975	9.748012e-09	9.873407e-10	0.002850963	-0.03574723	1.798317e-08	-5.428728e-09
	5.827522e-08	-2.171099e-08	0.01011865	0.008634082	1.798317e-08	-5.428728e-09	0.002114834	-0.03574069
7e+07	-0.003610843	-0.03981988	1.683753e-08	-1.087912e-08	0.01217217	0.007364295	5.772697e-08	-4.153157e-08
	1.683753e-08	-1.087912e-08	-0.006276096	-0.03826013	9.864676e-09	-1.460078e-09	0.01229941	0.007868695
	0.01217218	0.0073643	9.864676e-09	-1.460078e-09	-0.005539094	-0.03845724	1.788512e-08	-1.132931e-08
	5.772697e-08	-4.153157e-08	0.01229941	0.007868695	1.788512e-08	-1.132931e-08	-0.006364109	-0.03816153
8e+07	-0.01260755	-0.04053474	1.47149e-08	-1.687166e-08	0.01397104	0.006044662	4.998467e-08	-6.22063e-08
	1.47149e-08	-1.687166e-08	-0.01499519	-0.03835807	8.879224e-09	-4.095977e-09	0.01411899	0.006529026
	0.01397105	0.006044664	8.879224e-09	-4.095977e-09	-0.01426046	-0.03887633	1.570628e-08	-1.760103e-08
	4.998467e-08	-6.22063e-08	0.01411899	0.006529026	1.570628e-08	-1.760103e-08	-0.01509083	-0.03827382
9e+07	-0.02134754	-0.03892746	1.038097e-08	-2.239769e-08	0.01527762	0.004284031	3.470066e-08	-8.109601e-08
	1.038097e-08	-2.239769e-08	-0.02329035	-0.03621694	6.71972e-09	-6.517873e-09	0.01543366	0.004746286
	0.01527763	0.00428403	6.71972e-09	-6.517874e-09	-0.02265217	-0.03704251	1.125995e-08	-2.352444e-08
	3.470066e-08	-8.109601e-08	0.01543366	0.004746286	1.125995e-08	-2.352444e-08	-0.02340166	-0.03613935
1e+08	-0.02923493	-0.0352055	4.002811e-09	-2.668125e-08	0.01600618	0.002249308	1.247976e-08	-9.550475e-08
	4.002811e-09	-2.668125e-08	-0.03054073	-0.03207222	3.45769e-09	-8.307406e-09	0.01614309	0.002684617
	0.01600618	0.002249308	3.45769e-09	-8.307406e-09	-0.03010338	-0.03316964	4.605244e-09	-2.83238e-08
	1.247976e-08	-9.550475e-08	0.01614309	0.002684617	4.605244e-09	-2.83238e-08	-0.03067596	-0.031993
1.1e+08	-0.03569767	-0.02960926	-3.917656e-09	-2.913722e-08	0.01607101	0.0001690164	-1.490497e-08	-1.035602e-07
	-3.917656e-09	-2.913722e-08	-0.03630415	-0.02643805	-6.326502e-10	-9.103756e-09	0.0161975	0.0005334853
	0.01607101	0.0001690162	-6.326502e-10	-9.103756e-09	-0.03612297	-0.02766361	-3.759895e-09	-3.096085e-08
	-1.490497e-08	-1.035602e-07	0.0161975	0.0005334855	-3.759895e-09	-3.096085e-08	-0.036461	-0.02633137
1.2e+08	-0.04026382	-0.02274379	-1.287437e-08	-2.908524e-08	0.01547366	-0.001831031	-4.560015e-08	-1.031649e-07
	-1.287437e-08	-2.908524e-08	-0.04031048	-0.01967179	-5.278306e-09	-8.602754e-09	0.0156085	-0.001519806
	0.01547366	-0.001831031	-5.278306e-09	-8.602754e-09	-0.04036442	-0.02095862	-1.323256e-08	-3.095763e-08
	-4.560015e-08	-1.031649e-07	0.0156085	-0.001519805	-1.323256e-08	-3.095763e-08	-0.04047214	-0.01953221
1.3e+08	-0.04273504	-0.015189	-2.205726e-08	-2.61923e-08	0.01428906	-0.00356506	-7.691228e-08	-9.319092e-08
	-2.205726e-08	-2.61923e-08	-0.04231139	-0.01231289	-1.005932e-08	-6.616856e-09	0.01443415	-0.003299776
	0.01428906	-0.00356506	-1.005932e-08	-6.616856e-09	-0.04258879	-0.0136009	-2.29578e-08	-2.795277e-08
	-7.691228e-08	-9.319092e-08	0.01443415	-0.003299775	-2.29578e-08	-2.795277e-08	-0.04246563	-0.01214039
1.4e+08	-0.04305305	-0.007544039	-3.05565e-08	-2.036936e-08	0.01262545	-0.004877902	-1.057965e-07	-7.337739e-08
	-3.05565e-08	-2.036936e-08	-0.04224791	-0.00493968	-1.450094e-08	-3.093264e-09	0.01277898	-0.004654971
	0.01262545	-0.004877902	-1.450094e-08	-3.093264e-09	-0.04272713	-0.006171429	-3.197369e-08	-2.18466e-08
	-1.057965e-07	-7.337739e-08	0.01277898	-0.00465497	-3.197369e-08	-2.18466e-08	-0.04238444	-0.004737944
1.5e+08	-0.0413191	-0.0003911881	-3.743145e-08	-1.183171e-08	0.01062693	-0.005652333	-1.291463e-07	-4.443002e-08
	-3.743145e-08	-1.183171e-08	-0.04022637	0.001884518	-1.811033e-08	1.866531e-09	0.0107847	-0.005469978
	0.01062693	-0.005652333	-1.811033e-08	1.866531e-09	-0.04087277	0.0007610625	-3.928441e-08	-1.286085e-08
	-1.291463e-07	-4.443002e-08	0.0107847	-0.005469978	-3.928441e-08	-1.286085e-08	-0.0403371	0.00210892
1.6e+08	-0.03778372	0.005745008	-4.182849e-08	-1.086012e-09	0.0084629	-0.005816969	-1.440966e-07	-8.025558e-09
	-4.182849e-08	-1.086012e-09	-0.03650276	0.007654948	-2.043561e-08	8.006883e-09	0.008618648	-0.005673904
	0.0084629	-0.005816969	-2.043561e-08	8.006883e-09	-0.03726871	0.006682545	-4.398356e-08	-1.52649e-09
	-1.440966e-07	-8.025558e-09	0.008618647	-0.005673904	-4.398356e-08	-1.52649e-09	-0.03658234	0.007893319
1.7e+08	-0.03282481	0.01043432	-4.306421e-08	1.109954e-08	0.006314815	-0.005351136	-1.483219e-07	3.327683e-08
	-4.306421e-08	1.109954e-08	-0.03145842	0.01196264	-2.110922e-08	1.493365e-08	0.006460533	-0.005245453
	0.006314815	-0.005351136	-2.110922e-08	1.493365e-08	-0.03228521	0.01117083	-4.534303e-08	1.134715e-08
	-1.483219e-07	3.327683e-08	0.006460533	-0.005245452	-4.534303e-08	1.134715e-08	-0.0315046	0.01220505
1.8e+08	-0.02691669	0.01337011	-4.070268e-08	2.37548e-08	0.004361985	-0.004286088	-1.403025e-07	7.621388e-08
	-4.070268e-08	2.37548e-08	-0.02556764	0.01452346	-1.988889e-08	2.214287e-08	0.004488418	-0.004214322
	0.004361984	-0.004286087	-1.988889e-08	2.214287e-08	-0.02638887	0.01392519	-4.289557e-08	2.473486e-08
	-1.403025e-07	7.621388e-08	0.004488418	-0.004214322	-4.289557e-08	2.473486e-08	-0.02558142	0.01475972
1.9e+08	-0.02059271	0.01438927	-3.461121e-08	3.578893e-08	0.002767359	-0.002702397	-1.195315e-07	1.170752e-07
	-3.461121e-08	3.578893e-08	-0.01935925	0.01519723	-1.668891e-08	2.906092e-08	0.002864732	-0.00265882
	0.002767359	-0.002702397	-1.668891e-08	2.906092e-08	-0.02010545	0.01478652	-3.649484e-08	3.74813e-08
	-1.195315e-07	1.170752e-07	0.002864732	-0.00265882	-3.649484e-08	3.74813e-08	-0.01934476	0.01541784
2e+08	-0.01440411	0.01348143	-2.498956e-08	4.608527e-08	0.001664425	-0.0007235647	-8.66399e-08	1.5202e-07
	-2.498956e-08	4.608527e-08	-0.01337476	0.01399587	-1.159864e-08	3.509321e-08	0.001723348	-0.0006997611
	0.001664425	-0.0007235647	-1.159864e-08	3.509321e-08	-0.01397883	0.01374685	-2.634722e-08	4.840168e-08
	-8.66399e-08	1.5202e-07	0.001723348	-0.000699761	-2.634722e-08	4.840168e-08	-0.01333897	0.01419291
2.1e+08	-0.008877233	0.01078706	-1.236954e-08	5.36003e-08	0.001141944	0.001490524	-4.342298e-08	1.774263e-07
	-1.236954e-08	5.36003e-08	-0.008126307	0.01107975	-4.885588e-09	3.967484e-08	0.001158686	0.001509032
	0.001141944	0.001490524	-4.885588e-09	3.967484e-08	-0.008528485	0.01094758	-1.301045e-08	5.638049e-08
	-4.342298e-08	1.774263e-07	0.001158686	0.001509032	-1.301045e-08	5.638049e-08	-0.008078376	0.01124767
2.2e+08	-0.004475257	0.006583059	2.412389e-09	5.74618e-08	0.001248109	0.003765498	7.240373e-09	1.902469e-07
	2.412389e-09	5.74618e-08	-0.004057162	0.0067429	3.013441e-09	4.23275e-08	0.001217761	0.003793044
	0.001248109	0.003765498	3.013441e-09	4.23275e-08	-0.004211258	0.006665345	2.625859e-09	6.048709e-08
	7.240373e-09	1.902469e-07	0.001217761	0.003793044	2.625859e-09	6.048709e-08	-0.004007674	0.006879079
2.3e+08	-0.001564246	0.001260377	1.827211e-08	5.70561e-08	0.001981746	0.00592138	6.157956e-08	1.883343e-07
	1.827211e-08	5.70561e-08	-0.001508136	0.001387955	1.152273e-08	4.271137e-08	0.001895978	0.005971328
	0.001981746	0.00592138	1.152273e-08	4.271137e-08	-0.001387603	0.00128979	1.940891e-08	6.00777e-08
	6.157956e-08	1.883343e-07	0.001895978	0.005971328	1.940891e-08	6.00777e-08	-0.00146818	0.001493008
2.4e+08	-0.0003843249	-0.004707768	3.39571e-08	5.209264e-08	0.003282035	0.007782396	1.152192e-07	1.706937e-07
	3.39571e-08	5.209264e-08	-0.000692271	-0.00450709	1.997097e-08	4.065836e-08	0.003137176	0.00787157
	0.003282035	0.007782396	1.997097e-08	4.065836e-08	-0.0002927929	-0.004707958	3.601186e-08	5.484489e-08
	1.152192e-07	1.706937e-07	0.003137176	0.00787157	3.601186e-08	5.484489e-08	-0.000672455	-0.004429264
2.5e+08	-0.001033784	-0.01080439	4.81418e-08	4.264966e-08	0.005039987	0.009197628	1.635374e-07	1.376492e-07
	4.81418e-08	4.264966e-08	-0.001679858	-0.01042768	2.764293e-08	3.620144e-08	0.00483811	0.009344656
	0.005039987	0.009197628	2.764293e-08	3.620144e-08	-0.001021083	-0.01081363	5.103141e-08	4.487255e-08
	1.635374e-07	1.376492e-07	0.00483811	0.009344656	5.103141e-08	4.487255e-08	-0.001689351	-0.01037015
2.6e+08	-0.00346358	-0.01650974	5.953489e-08	2.919142e-08	0.007107615	0.01005402	2.02068e-07	9.08954e-08
	5.953489e-08	2.919142e-08	-0.004394908	-0.01586397	3.383989e-08	2.958542e-08	0.006857068	0.01027739
	0.007107615	0.01005402	3.383989e-08	2.958542e-08	-0.003520227	-0.01651063	6.310201e-08	3.065334e-08
	2.02068e-07	9.08954e-08	0.006857068	0.01027739	6.310201e-08	3.065334e-08	-0.004440617	-0.01581726
2.7e+08	-0.007483403	-0.02134193	6.699129e-08	1.255513e-08	0.009310623	0.01028614	2.269083e-07	3.342515e-08
	6.699129e-08	1.255513e-08	-0.008623376	-0.02035101	3.794297e-08	2.125961e-08	0.009025934	0.01060213
	0.009310623	0.01028614	3.794297e-08	2.125961e-08	-0.007597533	-0.02132046	7.101411e-08	1.307381e-08
	2.269083e-07	3.342515e-08	0.009025934	0.01060213	7.101411e-08	1.307381e-08	-0.008709205	-0.02030392
2.8e+08	-0.01277869	-0.024894	6.96196e-08	-6.094495e-09	0.01146345	0.009881783	2.350944e-07	-3.06638e-08
	6.96196e-08	-6.094495e-09	-0.014032	-0.0235049	3.947309e-08	1.185131e-08	0.01116457	0.01030244
	0.01146345	0.009881783	3.947309e-08	1.185131e-08	-0.01293684	-0.02483971	7.38276e-08	-6.634419e-09
	2.350944e-07	-3.06638e-08	0.01116457	0.01030244	7.38276e-08	-6.634419e-09	-0.01415847	-0.02344542
2.9e+08	-0.01893706	-0.02686454	6.687672e-08	-2.534178e-08	0.01338525	0.008882745	2.249096e-07	-9.646944e-08
	6.687672e-08	-2.534178e-08	-0.02019634	-0.02505195	3.81423e-08	2.121485e-09	0.0130962	0.009414192
	0.01338525	0.008882745	3.81423e-08	2.121485e-09	-0.01912488	-0.02677044	7.097087e-08	-2.697619e-08
	2.249096e-07	-9.646944e-08	0.0130962	0.009414192	7.097087e-08	-2.697619e-08	-0.02036049	-0.02496828
3e+08	-0.02548179	-0.02707952	5.863955e-08	-4.362485e-08	0.01491534	0.007380947	1.96094e-07	-1.586689e-07
	5.863955e-08	-4.362485e-08	-0.02663554	-0.02484854	3.389083e-08	-7.094268e-09	0.01466227	0.008022106
	0.01491534	0.007380947	3.389083e-08	-7.094268e-09	-0.02568471	-0.02694202	6.231555e-08	-4.630364e-08
	1.96094e-07	-1.586689e-07	0.01466227	0.008022106	6.231555e-08	-4.630364e-08	-0.02683109	-0.02473009
3.1e+08	-0.03190969	-0.02550391	4.524505e-08	-5.936188e-08	0.01592664	0.005510183	1.499368e-07	-2.119531e-07
	4.524505e-08	-5.936188e-08	-0.03285072	-0.02289052	2.690561e-08	-1.495519e-08	0.01573558	0.006252129
	0.01592664	0.005510183	2.690561e-08	-1.495519e-08	-0.03211351	-0.02532262	4.821786e-08	-6.294906e-08
	1.499368e-07	-2.119531e-07	0.01573558	0.006252129	4.821786e-08	-6.294906e-08	-0.03306852	-0.02272885
3.2e+08	-0.03773023	-0.02224247	2.749142e-08	-7.108888e-08	0.01633598	0.003434451	8.923934e-08	-2.514761e-07
	2.749142e-08	-7.108888e-08	-0.03836407	-0.01931164	1.761726e-08	-2.068891e-08	0.01623044	0.004260499
	0.01633598	0.003434451	1.761726e-08	-2.068891e-08	-0.03792162	-0.02201991	2.951923e-08	-7.536954e-08
	8.923934e-08	-2.514761e-07	0.01623044	0.004260499	2.951923e-08	-7.536954e-08	-0.03859286	-0.01910118
3.3e+08	-0.04250297	-0.01752987	6.596796e-09	-7.759672e-08	0.01611059	0.001333992	1.814936e-08	-2.732818e-07
	6.596796e-09	-7.759672e-08	-0.04275562	-0.01437136	6.674799e-09	-2.366253e-08	0.01610912	0.002220538
	0.01611059	0.001333992	6.674799e-09	-2.366253e-08	-0.04266993	-0.01727121	7.502715e-09	-8.229054e-08
	1.814936e-08	-2.732818e-07	0.01610912	0.002220538	7.502715e-09	-8.229054e-08	-0.04298289	-0.01410996
3.4e+08	-0.04587051	-0.01171128	-1.588404e-08	-7.805325e-08	0.01527012	-0.0006096923	-5.812229e-08	-2.746731e-07
	-1.588404e-08	-7.805325e-08	-0.04569484	-0.008433397	-5.100353e-09	-2.344418e-08	0.01538434	0.0003083877
	0.01527012	-0.0006096923	-5.100353e-09	-2.344418e-08	-0.04600279	-0.01142396	-1.61944e-08	-8.283392e-08
	-5.812229e-08	-2.746731e-07	0.01538434	0.0003083877	-1.61944e-08	-8.283392e-08	-0.04590791	-0.008122533
3.5e+08	-0.04758483	-0.005214997	-3.81792e-08	-7.20973e-08	0.01388461	-0.002228589	-1.336836e-07	-2.544909e-07
	-3.81792e-08	-7.20973e-08	-0.0469651	-0.00193673	-1.677766e-08	-1.984903e-08	0.01411758	-0.001311138
	0.01388461	-0.002228589	-1.677766e-08	-1.984903e-08	-0.04767424	-0.004908341	-3.970578e-08	-7.661668e-08
	-1.336836e-07	-2.544909e-07	0.01411758	-0.001311138	-3.970578e-08	-7.661668e-08	-0.04715209	-0.001581441
3.6e+08	-0.04752494	0.001480659	-5.844543e-08	-5.989338e-08	0.0120683	-0.00338155	-2.024142e-07	-2.132786e-07
	-5.844543e-08	-5.989338e-08	-0.04647906	0.004638627	-2.73925e-08	-1.29651e-08	0.01241375	-0.002497506
	0.0120683	-0.00338155	-2.73925e-08	-1.29651e-08	-0.04756569	0.001795871	-6.108883e-08	-6.380886e-08
	-2.024142e-07	-2.132786e-07	0.01241375	-0.002497506	-6.108883e-08	-6.380886e-08	-0.04662993	0.005030094
3.7e+08	-0.04570518	0.007883788	-7.492646e-08	-4.213989e-08	0.009970344	-0.003965361	-2.584549e-07	-1.533157e-07
	-7.492646e-08	-4.213989e-08	-0.04428441	0.01080846	-3.60263e-08	-3.156062e-09	0.01041257	-0.003145332
	0.009970344	-0.003965361	-3.60263e-08	-3.156062e-09	-0.04569406	0.008195818	-7.849096e-08	-4.514291e-08
	-2.584549e-07	-1.533157e-07	0.01041257	-0.003145332	-7.849096e-08	-4.514291e-08	-0.0443918	0.01122528
3.8e+08	-0.04227328	0.01352599	-8.610852e-08	-2.00289e-08	0.007762788	-0.003922776	-2.966985e-07	-7.85106e-08
	-8.610852e-08	-2.00289e-08	-0.04055938	0.01612117	-4.188485e-08	8.959405e-09	0.008277445	-0.003192466
	0.007762788	-0.003922776	-4.188485e-08	8.959405e-09	-0.04220987	0.01382267	-9.031343e-08	-2.187226e-08
	-2.966985e-07	-7.85106e-08	0.008277445	-0.003192466	-9.031343e-08	-2.187226e-08	-0.04061922	0.01655078
3.9e+08	-0.03749876	0.01799747	-9.0858e-08	4.839466e-09	0.005627024	-0.003247019	-3.132401e-07	5.842295e-09
	-9.0858e-08	4.839466e-09	-0.03559861	0.02019192	-4.436795e-08	2.255004e-08	0.00618271	-0.002624791
	0.005627024	-0.003247019	-4.436795e-08	2.255004e-08	-0.03738546	0.01826681	-9.535691e-08	4.317968e-09
	-3.132401e-07	5.842295e-09	0.00618271	-0.002624791	-9.535691e-08	4.317968e-09	-0.03561055	0.02062101
4e+08	-0.03175232	0.02097777	-8.852817e-08	3.058001e-08	0.003739477	-0.001982484	-3.057518e-07	9.343112e-08
	-8.852817e-08	3.058001e-08	-0.02979042	0.02273161	-4.312459e-08	3.663276e-08	0.004299965	-0.001477436
	0.003739477	-0.001982484	-4.312459e-08	3.663276e-08	-0.03159429	0.02120851	-9.293494e-08	3.143999e-08
	-3.057518e-07	9.343112e-08	0.004299965	-0.001477436	-9.293494e-08	3.143999e-08	-0.02975787	0.02314722
4.1e+08	-0.02547774	0.02225972	-7.902561e-08	5.517136e-08	0.002257585	-0.0002215497	-2.737449e-07	1.773952e-07
	-7.902561e-08	5.517136e-08	-0.02358706	0.02356875	-3.808942e-08	5.014691e-08	0.002784572	0.0001677158
	0.002257585	-0.0002215497	-3.808942e-08	5.014691e-08	-0.02528272	0.02244202	-8.294513e-08	5.736039e-08
	-2.737449e-07	1.773952e-07	0.002784572	0.0001677158	-8.294513e-08	5.736039e-08	-0.02351702	0.02395927
4.2e+08	-0.01915837	0.02176509	-6.283107e-08	7.661742e-08	0.001307057	0.001902336	-2.186942e-07	2.508619e-07
	-6.283107e-08	7.661742e-08	-0.01747021	0.02266234	-2.949739e-08	6.203626e-08	0.001763207	0.002188118
	0.001307057	0.001902336	-2.949739e-08	6.203626e-08	-0.01893635	0.02189106	-6.58922e-08	7.997103e-08
	-2.186942e-07	2.508619e-07	0.001763207	0.002188118	-6.58922e-08	7.997103e-08	-0.01737274	0.02301854
4.3e+08	-0.0132805	0.01955052	-4.097432e-08	9.310785e-08	0.0009713726	0.004224895	-1.44004e-07	3.075098e-07
	-4.097432e-08	9.310785e-08	-0.01191407	0.02010499	-1.78756e-08	7.133294e-08	0.0013234	0.004429932
	0.0009713726	0.004224895	-1.78756e-08	7.133294e-08	-0.01304326	0.01961478	-4.286195e-08	9.735929e-08
	-1.44004e-07	3.075098e-07	0.0013234	0.004429932	-4.286195e-08	9.735929e-08	-0.01180157	0.02042076
4.4e+08	-0.008296459	0.0158033	-1.496592e-08	1.031649e-07	0.001284418	0.006563949	-5.481262e-08	3.421123e-07
	-1.496592e-08	1.031649e-07	-0.007349094	0.01611577	-4.012329e-09	7.723698e-08	0.001505981	0.006720092
	0.001284418	0.006563949	-4.012329e-09	7.723698e-08	-0.00805694	0.01580334	-1.544914e-08	1.079644e-07
	-5.481262e-08	3.421123e-07	0.001505981	0.006720092	-1.544914e-08	1.079644e-07	-0.007235289	0.01638872
4.5e+08	-0.004590131	0.01082714	1.330801e-08	1.057665e-07	0.002226976	0.008734116	4.235839e-08	3.510142e-07
	1.330801e-08	1.057665e-07	-0.004128831	0.01102335	1.109513e-08	7.918589e-08	0.002301137	0.008880212
	0.002226976	0.008734116	1.109513e-08	7.918589e-08	-0.004361723	0.01076364	1.435442e-08	1.107079e-07
	4.235839e-08	3.510142e-07	0.002301137	0.008880212	1.435442e-08	1.107079e-07	-0.00402774	0.01125507
4.6e+08	-0.002447599	0.00501907	4.171121e-08	1.004403e-07	0.003727542	0.01056214	1.40058e-07	3.324336e-07
	4.171121e-08	1.004403e-07	-0.00250279	0.005240583	2.630805e-08	7.690628e-08	0.003648589	0.01074126
	0.003727542	0.01056214	2.630805e-08	7.690628e-08	-0.002243425	0.004895958	4.429403e-08	1.050924e-07
	1.40058e-07	3.324336e-07	0.003648589	0.01074126	4.429403e-08	1.050924e-07	-0.002427491	0.005436612
4.7e+08	-0.002035489	-0.001161021	6.803655e-08	8.730388e-08	0.005667587	0.01190154	2.305273e-07	2.868679e-07
	6.803655e-08	8.730388e-08	-0.002597292	-0.0007673943	4.043721e-08	7.045638e-08	0.005442046	0.01215774
	0.005667587	0.01190154	4.043721e-08	7.045638e-08	-0.001867467	-0.001336641	7.20403e-08	9.124673e-08
	2.305273e-07	2.868679e-07	0.005442046	0.01215774	7.20403e-08	9.124673e-08	-0.002558963	-0.0005979734
