!$
! Info: Touchstone file created by Circ.  Input file=Tx_12in_Rx_93ohms_TxVia_60mils_RxVia_70mils.circ
!$
# Hz S RI R 50
0	0.01103835	1.552417e-25	-3.640854e-11	9.193972e-27	8.43094e-05	2.125754e-23	-3.18052e-09	3.946387e-25
	-3.640931e-11	9.19408e-27	0.01103387	1.908788e-25	3.539508e-11	2.363412e-27	8.402139e-05	2.690015e-23
	8.539275e-05	2.139956e-23	3.53909e-11	2.363919e-27	0.01105372	1.552697e-25	-1.607366e-11	8.240656e-27
	-3.180394e-09	3.946232e-25	8.42909e-05	2.701551e-23	-1.61673e-11	8.252076e-27	0.01104823	1.900488e-25
1e+07	0.01516188	-0.001244207	4.872289e-11	1.53061e-10	0.0004331689	0.002094946	-3.636677e-09	8.099952e-09
	4.872289e-11	1.53061e-10	0.0160415	-0.001417456	5.289978e-11	1.639414e-10	0.0004503097	0.002271495
	0.0004332003	0.00209495	5.289978e-11	1.639414e-10	0.01632872	-0.0007309281	-3.682058e-09	1.024582e-08
	-3.636677e-09	8.099952e-09	0.0004503125	0.002271493	-3.682058e-09	1.024582e-08	0.01572628	-0.001414257
2e+07	0.01778616	-0.006405505	2.411738e-11	2.859738e-10	0.00129147	0.004111386	-1.390084e-10	-1.990665e-11
	2.411739e-11	2.859738e-10	0.01827237	-0.006981624	2.382898e-11	3.14131e-10	0.001205753	0.004445317
	0.001291484	0.004111367	2.382898e-11	3.14131e-10	0.01931749	-0.006063268	7.074599e-11	6.185412e-10
	-1.390083e-10	-1.990666e-11	0.00120575	0.004445317	7.0746e-11	6.185412e-10	0.01803992	-0.006870858
3e+07	0.01781046	-0.01310682	-4.705789e-11	4.426614e-10	0.002588835	0.005839	-6.891642e-11	5.251864e-10
	-4.705789e-11	4.426614e-10	0.01795751	-0.01376255	-4.497281e-11	4.858868e-10	0.002503365	0.006241807
	0.002588836	0.005838997	-4.497281e-11	4.858868e-10	0.01957912	-0.01301855	-4.952431e-11	5.448898e-10
	-6.891642e-11	5.251864e-10	0.002503364	0.006241808	-4.952431e-11	5.448898e-10	0.01778444	-0.01363065
4e+07	0.0157247	-0.01985188	-1.423101e-10	6.253945e-10	0.004242665	0.007182331	-1.413705e-10	7.718112e-10
	-1.423101e-10	6.253945e-10	0.01556809	-0.02046519	-1.337436e-10	6.835475e-10	0.00421526	0.00760571
	0.004242669	0.007182336	-1.337436e-10	6.835475e-10	0.01762542	-0.02007474	-1.673008e-10	7.470536e-10
	-1.413705e-10	7.718112e-10	0.004215261	0.007605711	-1.673008e-10	7.470536e-10	0.0154385	-0.02033581
5e+07	0.01184882	-0.02599462	-2.538917e-10	8.490427e-10	0.00614424	0.008066529	-2.48607e-10	1.032562e-09
	-2.538917e-10	8.490427e-10	0.01142987	-0.02647845	-2.360068e-10	9.17555e-10	0.006161864	0.008494698
	0.006144243	0.008066531	-2.360068e-10	9.17555e-10	0.01378406	-0.02655586	-2.863238e-10	1.015688e-09
	-2.48607e-10	1.032562e-09	0.006161865	0.008494698	-2.863238e-10	1.015688e-09	0.01132915	-0.02636273
6e+07	0.006518092	-0.03108886	-3.668667e-10	1.12176e-09	0.008169756	0.008447442	-3.544282e-10	1.342165e-09
	-3.668667e-10	1.12176e-09	0.005887886	-0.03137609	-3.38644e-10	1.193088e-09	0.008220545	0.008871876
	0.008169752	0.008447441	-3.38644e-10	1.193088e-09	0.008396223	-0.03199155	-4.014976e-10	1.335724e-09
	-3.544282e-10	1.342165e-09	0.008220546	0.008871876	-4.014976e-10	1.335724e-09	0.00580287	-0.03127866
7e+07	0.0001057273	-0.03481801	-4.632935e-10	1.44608e-09	0.0101894	0.008313916	-4.342856e-10	1.701853e-09
	-4.632935e-10	1.44608e-09	-0.0006752124	-0.03485869	-4.275953e-10	1.511752e-09	0.01026275	0.008730414
	0.01018938	0.008313916	-4.275953e-10	1.511752e-09	0.001841932	-0.03604508	-4.991896e-10	1.707442e-09
	-4.342856e-10	1.701853e-09	0.01026276	0.008730414	-4.991896e-10	1.707442e-09	-0.0007562759	-0.03477999
8e+07	-0.006983788	-0.03697892	-5.241409e-10	1.818549e-09	0.01207614	0.007687917	-4.69405e-10	2.101589e-09
	-5.241409e-10	1.818549e-09	-0.007847118	-0.03673976	-4.881571e-10	1.870308e-09	0.01216244	0.008094692
	0.01207613	0.00768792	-4.881571e-10	1.870308e-09	-0.005466653	-0.03849669	-5.617802e-10	2.128583e-09
	-4.69405e-10	2.101589e-09	0.01216244	0.008094692	-5.617802e-10	2.128583e-09	-0.007934445	-0.03667709
9e+07	-0.01433042	-0.03747654	-5.308515e-10	2.229879e-09	0.01371484	0.006622803	-4.490229e-10	2.522859e-09
	-5.308515e-10	2.229879e-09	-0.01520092	-0.03694064	-5.05257e-10	2.257962e-09	0.01380392	0.007018783
	0.01371483	0.006622808	-5.05257e-10	2.257962e-09	-0.01310332	-0.0392389	-5.712208e-10	2.589368e-09
	-4.490229e-10	2.522859e-09	0.01380392	0.007018783	-5.712208e-10	2.589368e-09	-0.0153032	-0.03688905
1e+08	-0.02151217	-0.0363177	-4.640955e-10	2.668204e-09	0.01501858	0.005203084	-3.647495e-10	2.9513e-09
	-4.640955e-10	2.668204e-09	-0.02229592	-0.03547956	-4.704204e-10	2.666234e-09	0.01508864	0.005582277
	0.01501858	0.005203084	-4.704204e-10	2.666234e-09	-0.02066596	-0.03827812	-5.074552e-10	3.081346e-09
	-3.647495e-10	2.9513e-09	0.01508864	0.005582277	-5.074552e-10	3.081346e-09	-0.02242313	-0.03543368
1.1e+08	-0.02814587	-0.03364949	-3.040534e-10	3.080377e-09	0.01587295	0.003563635	-2.17502e-10	3.365938e-09
	-3.040534e-10	3.080377e-09	-0.02876593	-0.03260901	-3.577166e-10	3.069242e-09	0.01593989	0.003890129
	0.01587295	0.003563635	-3.577166e-10	3.069242e-09	-0.02773173	-0.0355923	-3.37678e-10	3.543643e-09
	-2.17502e-10	3.365938e-09	0.01593988	0.003890129	-3.37678e-10	3.543643e-09	-0.02892232	-0.03254489
1.2e+08	-0.03392272	-0.02962846	-1.010025e-10	3.444925e-09	0.01623532	0.001765424	-1.534204e-11	3.749337e-09
	-1.010025e-10	3.444925e-09	-0.03437789	-0.02842837	-1.982184e-10	3.44163e-09	0.01631525	0.002057873
	0.01623532	0.001765423	-1.982184e-10	3.44163e-09	-0.03384849	-0.03146936	-1.195372e-10	3.95883e-09
	-1.534204e-11	3.749337e-09	0.01631525	0.002057874	-1.195372e-10	3.95883e-09	-0.03455123	-0.02833706
1.3e+08	-0.0385494	-0.02450885	1.354111e-10	3.758056e-09	0.0161013	-5.932393e-05	2.262456e-10	4.087838e-09
	1.354111e-10	3.758056e-09	-0.03882395	-0.02318669	1.476842e-12	3.7721e-09	0.01619793	0.0002065383
	0.0161013	-5.932422e-05	1.476842e-12	3.7721e-09	-0.03875352	-0.02619774	1.389962e-10	4.322443e-09
	2.262456e-10	4.087838e-09	0.01619792	0.0002065393	1.389962e-10	4.322443e-09	-0.03900489	-0.02306388
1.4e+08	-0.04181354	-0.01860409	4.105182e-10	4.019506e-09	0.0154865	-0.001785411	5.056588e-10	4.373212e-09
	4.105182e-10	4.019506e-09	-0.04189469	-0.01720099	2.379082e-10	4.059702e-09	0.01560143	-0.001542832
	0.0154865	-0.001785411	2.379082e-10	4.059702e-09	-0.04223895	-0.02010734	4.411888e-10	4.629558e-09
	5.056588e-10	4.373212e-09	0.01560142	-0.001542831	4.411888e-10	4.629558e-09	-0.04207428	-0.01704519
1.5e+08	-0.04358643	-0.01226413	7.109076e-10	4.218175e-09	0.01443456	-0.003296821	8.097149e-10	4.594374e-09
	7.109076e-10	4.218175e-09	-0.04346857	-0.01082482	4.997694e-10	4.294338e-09	0.014568	-0.003076918
	0.01443456	-0.003296821	4.997694e-10	4.294338e-09	-0.04417851	-0.01356105	7.718371e-10	4.866804e-09
	8.097149e-10	4.594374e-09	0.014568	-0.003076917	7.718371e-10	4.866804e-09	-0.0436383	-0.01063702
1.6e+08	-0.04382689	-0.005854627	1.019872e-09	4.346429e-09	0.01301496	-0.004492685	1.121422e-09	4.744305e-09
	1.019872e-09	4.346429e-09	-0.04351389	-0.004425864	7.729908e-10	4.468551e-09	0.0131657	-0.004296684
	0.01301496	-0.004492685	7.729908e-10	4.468551e-09	-0.0445337	-0.006935702	1.112595e-09	5.026682e-09
	1.121422e-09	4.744305e-09	0.0131657	-0.004296683	1.112595e-09	5.026682e-09	-0.04366612	-0.004209267
1.7e+08	-0.04258093	0.0002636878	1.31868e-09	4.401237e-09	0.01131888	-0.005292764	1.421837e-09	4.820397e-09
	1.31868e-09	4.401237e-09	-0.04208746	0.001635552	1.041459e-09	4.578838e-09	0.011484	-0.005122954
	0.01131888	-0.005292764	1.041459e-09	4.578838e-09	-0.04335406	-0.0006017359	1.442837e-09	5.105736e-09
	1.421837e-09	4.820397e-09	0.011484	-0.005122953	1.442837e-09	5.105736e-09	-0.04221586	0.00187584
1.8e+08	-0.03997709	0.00575484	1.587791e-09	4.384646e-09	0.009453675	-0.005641816	1.691317e-09	4.825161e-09
	1.587791e-09	4.384646e-09	-0.03932895	0.007026645	1.28811e-09	4.626072e-09	0.009628439	-0.005500783
	0.009453675	-0.005641816	1.28811e-09	4.626072e-09	-0.04077253	0.005096448	1.741021e-09	5.106116e-09
	1.691317e-09	4.825161e-09	0.009628439	-0.005500783	1.741021e-09	5.106116e-09	-0.03942884	0.007284014
1.9e+08	-0.0362175	0.01032558	1.808211e-09	4.303944e-09	0.007536478	-0.005512538	1.910888e-09	4.766362e-09
	1.808211e-09	4.303944e-09	-0.03545112	0.01146031	1.496094e-09	4.615723e-09	0.007714308	-0.005402462
	0.007536478	-0.005512538	1.496094e-09	4.615723e-09	-0.03699657	0.009858504	1.986189e-09	5.035766e-09
	1.910888e-09	4.766362e-09	0.007714308	-0.005402462	1.986189e-09	5.035766e-09	-0.03551978	0.01172712
2e+08	-0.03156474	0.01374234	1.962699e-09	4.17153e-09	0.005673899	-0.004926224	2.063447e-09	4.656896e-09
	1.962699e-09	4.17153e-09	-0.03072637	0.01471035	1.649827e-09	4.557824e-09	0.00585997	-0.004829001
	0.005673899	-0.004926224	1.649827e-09	4.557824e-09	-0.03229478	0.0134451	2.159322e-09	4.908283e-09
	2.063447e-09	4.656896e-09	0.00585997	-0.004829001	2.159322e-09	4.908283e-09	-0.0307632	0.01497847
2.1e+08	-0.02632739	0.01583824	2.037627e-09	4.004233e-09	0.003995189	-0.003888407	2.135679e-09	4.513982e-09
	2.037627e-09	4.004233e-09	-0.02547039	0.0166232	1.73674e-09	4.466494e-09	0.004179913	-0.003810048
	0.003995189	-0.003888407	1.73674e-09	4.466494e-09	-0.02698232	0.01568503	2.245366e-09	4.742158e-09
	2.135679e-09	4.513982e-09	0.004179914	-0.003810048	2.245366e-09	4.742158e-09	-0.02547699	0.01688454
2.2e+08	-0.02084188	0.0165263	2.023611e-09	3.822482e-09	0.002607349	-0.002457963	2.118593e-09	4.35837e-09
	2.023611e-09	3.822482e-09	-0.0200236	0.01712543	1.74784e-09	4.359206e-09	0.002778012	-0.002402186
	0.002607349	-0.002457963	1.74784e-09	4.359206e-09	-0.02140251	0.01648835	2.233969e-09	4.559863e-09
	2.118593e-09	4.35837e-09	0.002778012	-0.002402186	2.233969e-09	4.559863e-09	-0.02000363	0.01737252
2.3e+08	-0.0154531	0.01580178	1.916572e-09	3.649128e-09	0.001598597	-0.0007193937	2.008584e-09	4.213122e-09
	1.916572e-09	3.649128e-09	-0.01473149	0.0162268	1.67874e-09	4.255792e-09	0.001741308	-0.0006856852
	0.001598597	-0.0007193937	1.67874e-09	4.255792e-09	-0.01590724	0.01584882	2.120642e-09	4.386527e-09
	2.008584e-09	4.213122e-09	0.001741308	-0.0006856852	2.120642e-09	4.386527e-09	-0.01469053	0.01645328
2.4e+08	-0.01049501	0.01374137	1.718335e-09	3.508029e-09	0.001033736	0.001223575	1.807997e-09	4.10218e-09
	1.718335e-09	3.508029e-09	-0.009924921	0.01401864	1.53026e-09	4.177184e-09	0.001134678	0.001240179
	0.001033736	0.001223575	1.53026e-09	4.177184e-09	-0.01083734	0.01384299	1.907411e-09	4.248366e-09
	1.807997e-09	4.10218e-09	0.001134678	0.001240179	1.907411e-09	4.248366e-09	-0.009870071	0.01421973
2.5e+08	-0.006271859	0.01049791	1.436834e-09	3.422507e-09	0.0009500358	0.003254229	1.525295e-09	4.048821e-09
	1.436834e-09	3.422507e-09	-0.005901307	0.01066763	1.308674e-09	4.144028e-09	0.0009967343	0.003263025
	0.0009500358	0.003254229	1.308674e-09	4.144028e-09	-0.00650356	0.01062487	1.603025e-09	4.170974e-09
	1.525295e-09	4.048821e-09	0.0009967343	0.003263025	1.603025e-09	4.170974e-09	-0.005840776	0.01084048
2.6e+08	-0.003041231	0.006290948	1.085842e-09	3.41363e-09	0.001354719	0.00525	1.174834e-09	4.074088e-09
	1.085842e-09	3.41363e-09	-0.002907868	0.00640537	1.02542e-09	4.175235e-09	0.00133725	0.005264171
	0.001354719	0.00525	1.02542e-09	4.175235e-09	-0.003169386	0.006416404	1.222721e-09	4.177606e-09
	1.174834e-09	4.074088e-09	0.00133725	0.005264171	1.222721e-09	4.177606e-09	-0.002850493	0.006549293
2.7e+08	-0.0009998549	0.001393559	6.844817e-10	3.49912e-09	0.002224284	0.007090097	7.762379e-10	4.195324e-09
	6.844817e-10	3.49912e-09	-0.001128023	0.001514278	6.969831e-10	4.286612e-09	0.002136336	0.00712596
	0.002224284	0.007090097	6.969831e-10	4.286612e-09	-0.001036651	0.001494079	7.875584e-10	4.287516e-09
	7.762379e-10	4.195324e-09	0.002136336	0.00712596	7.875584e-10	4.287516e-09	-0.001082615	0.001630875
2.8e+08	-0.0002729405	-0.003883825	2.56248e-10	3.691741e-09	0.003505765	0.008663152	3.534099e-10	4.424856e-09
	2.56248e-10	3.691741e-09	-0.00067133	-0.00368929	3.436951e-10	4.489693e-09	0.00334549	0.008739132
	0.003505765	0.008663152	3.436951e-10	4.489693e-09	-0.0002346883	-0.0038274	3.233185e-10	4.514536e-09
	3.534099e-10	4.424856e-09	0.00334549	0.008739132	3.233185e-10	4.514536e-09	-0.0006461217	-0.0035962
2.9e+08	-0.000907703	-0.009211581	-1.723177e-10	3.998276e-09	0.005119923	0.009874372	-6.677183e-11	4.768976e-09
	-1.723177e-10	3.998276e-09	-0.001567934	-0.008873793	-1.137236e-11	4.790759e-09	0.004890501	0.01000977
	0.005119923	0.009874372	-1.137236e-11	4.790759e-09	-0.0008137299	-0.009213519	-1.409261e-10	4.865951e-09
	-6.677183e-11	4.768976e-09	0.004890501	0.01000977	-1.409261e-10	4.865951e-09	-0.00157004	-0.008798365
3e+08	-0.00287142	-0.01426002	-5.731545e-10	4.418856e-09	0.006966193	0.01065169	-4.559959e-10	5.227248e-09
	-5.731545e-10	4.418856e-09	-0.003767676	-0.01371196	-3.437721e-10	5.190228e-09	0.00667606	0.0108653
	0.006966193	0.01065169	-3.437721e-10	5.190228e-09	-0.002742877	-0.01432933	-5.744975e-10	5.341755e-09
	-4.559959e-10	5.227248e-09	0.00667606	0.0108653	-5.744975e-10	5.341755e-09	-0.0038026	-0.01364667
3.1e+08	-0.006054119	-0.01871832	-9.183646e-10	4.946656e-09	0.008929066	0.01095044	-7.862081e-10	5.792215e-09
	-9.183646e-10	4.946656e-09	-0.007143889	-0.01789982	-6.291883e-10	5.682394e-09	0.008591782	0.01125915
	0.008929066	0.01095044	-6.291883e-10	5.682394e-09	-0.005912763	-0.01885866	-9.469508e-10	5.934344e-09
	-7.862081e-10	5.792215e-09	0.008591782	0.01125915	-9.469508e-10	5.934344e-09	-0.007215135	-0.01783586
3.2e+08	-0.01027568	-0.02231222	-1.181936e-09	5.56803e-09	0.0108855	0.01075632	-1.031352e-09	6.449531e-09
	-1.181936e-09	5.56803e-09	-0.01150162	-0.02117405	-8.449629e-10	6.255579e-09	0.01051923	0.01117371
	0.0108855	0.01075632	-8.449629e-10	6.255579e-09	-0.01014268	-0.02252204	-1.229951e-09	6.628676e-09
	-1.031352e-09	6.449531e-09	0.01051923	0.01117371	-1.229951e-09	6.628676e-09	-0.01161041	-0.02110195
3.3e+08	-0.01529686	-0.0248193	-1.341403e-09	6.263053e-09	0.01271281	0.01008621	-1.169053e-09	7.178514e-09
	-1.341403e-09	6.263053e-09	-0.0165897	-0.0233269	-9.715438e-10	6.892641e-09	0.01233947	0.01062133
	0.01271281	0.01008621	-9.715438e-10	6.892641e-09	-0.01519172	-0.02509228	-1.399075e-09	7.402879e-09
	-1.169053e-09	7.178514e-09	0.01233947	0.01062133	-1.399075e-09	7.402879e-09	-0.01673487	-0.02323702
3.4e+08	-0.0208336	-0.02608123	-1.379344e-09	7.00647e-09	0.01429653	0.00898707	-1.182151e-09	7.953115e-09
	-1.379344e-09	7.00647e-09	-0.02211592	-0.0242175	-9.937682e-10	7.571828e-09	0.01394056	0.009643477
	0.01429653	0.00898707	-9.937682e-10	7.571828e-09	-0.02077316	-0.02640687	-1.435437e-09	8.229299e-09
	-1.182151e-09	7.953115e-09	0.01394056	0.009643477	-1.435437e-09	8.229299e-09	-0.02229391	-0.0241007
3.5e+08	-0.02657363	-0.02601208	-1.284615e-09	7.768992e-09	0.01553762	0.007532805	-1.059972e-09	8.743243e-09
	-1.284615e-09	7.768992e-09	-0.02776435	-0.02377926	-9.01905e-10	8.267915e-09	0.01522457	0.00830785
	0.01553762	0.007532805	-9.01905e-10	8.267915e-09	-0.02657134	-0.02637652	-1.327026e-09	9.075905e-09
	-1.059972e-09	8.743243e-09	0.01522457	0.00830785	-1.327026e-09	9.075905e-09	-0.0279694	-0.02362748
3.6e+08	-0.03219446	-0.02460249	-1.053264e-09	8.518862e-09	0.01635867	0.005819434	-7.992611e-10	9.516394e-09
	-1.053264e-09	8.518862e-09	-0.03321369	-0.02202293	-6.924061e-10	8.95356e-09	0.01611355	0.006704012
	0.01635867	0.005819434	-6.924061e-10	8.95356e-09	-0.03225977	-0.02498945	-1.069696e-09	9.90801e-09
	-7.992611e-10	9.516394e-09	0.01611355	0.006704012	-1.069696e-09	9.90801e-09	-0.03343815	-0.02182969
3.7e+08	-0.03738169	-0.02191952	-6.890444e-10	9.223626e-09	0.01670856	0.00395894	-4.04715e-10	1.023949e-08
	-6.890444e-10	9.223626e-09	-0.03815574	-0.01903507	-3.683261e-10	9.600798e-09	0.01655416	0.004937632
	0.01670856	0.00395894	-3.683261e-10	9.600798e-09	-0.03751974	-0.02231129	-6.677202e-10	1.06902e-08
	-4.04715e-10	1.023949e-08	0.01655416	0.004937632	-6.677202e-10	1.06902e-08	-0.03839053	-0.01879593
3.8e+08	-0.04184661	-0.01810213	-2.035016e-10	9.851991e-09	0.01656543	0.002072212	1.109509e-10	1.088083e-08
	-2.035016e-10	9.851991e-09	-0.04231275	-0.01497247	6.060629e-11	1.018261e-08	0.01652073	0.003123872
	0.01656543	0.002072212	6.060629e-11	1.018261e-08	-0.04205808	-0.01848062	-1.338896e-10	1.138837e-08
	1.109509e-10	1.088083e-08	0.01652073	0.003123872	-1.338896e-10	1.138837e-08	-0.04254788	-0.01468531
3.9e+08	-0.04534209	-0.01335288	3.843828e-10	1.037569e-08	0.0159378	0.0002815573	7.274064e-10	1.141204e-08
	3.843828e-10	1.037569e-08	-0.0454529	-0.01005257	5.782721e-10	1.067449e-08	0.0160165	0.001380326
	0.0159378	0.0002815573	5.782721e-10	1.067449e-08	-0.04562339	-0.01370063	5.108847e-10	1.197175e-08
	7.274064e-10	1.141204e-08	0.0160165	0.001380326	5.108847e-10	1.197175e-08	-0.04567807	-0.009717793
4e+08	-0.04767614	-0.007926196	1.04899e-09	1.077126e-08	0.01486384	-0.001296727	1.417586e-09	1.180988e-08
	1.04899e-09	1.077126e-08	-0.04740293	-0.00454069	1.162795e-09	1.105591e-08	0.01507317	-0.0001800515
	0.01486384	-0.001296727	1.162795e-09	1.105591e-08	-0.04801967	-0.008227299	1.238448e-09	1.241488e-08
	1.417586e-09	1.180988e-08	0.01507317	-0.0001800515	1.238448e-09	1.241488e-08	-0.04760817	-0.004161214
4.1e+08	-0.04872213	-0.00211388	1.759273e-09	1.102153e-08	0.01340889	-0.002559308	2.14901e-09	1.20579e-08
	1.759273e-09	1.102153e-08	-0.0480575	0.00126519	1.787507e-09	1.131167e-08	0.01374881	-0.001455605
	0.01340889	-0.002559308	1.787507e-09	1.131167e-08	-0.04911689	-0.002354823	2.014735e-09	1.269923e-08
	2.14901e-09	1.20579e-08	0.01374881	-0.001455605	2.014735e-09	1.269923e-08	-0.04823376	0.001684061
4.2e+08	-0.04842557	0.003771197	2.480318e-09	1.111695e-08	0.01166142	-0.003421917	2.88548e-09	1.214761e-08
	2.480318e-09	1.111695e-08	-0.04738459	0.007051326	2.422218e-09	1.143301e-08	0.01212425	-0.002361892
	0.01166142	-0.003421917	2.422218e-09	1.143301e-08	-0.04885776	0.00360086	2.801495e-09	1.281464e-08
	2.88548e-09	1.214761e-08	0.01212425	-0.002361892	2.801495e-09	1.281464e-08	-0.04752434	0.007502195
4.3e+08	-0.04680676	0.009412473	3.1752e-09	1.105639e-08	0.009727712	-0.003824274	3.589076e-09	1.207941e-08
	3.1752e-09	1.105639e-08	-0.04542698	0.01250584	3.034756e-09	1.141847e-08	0.01029826	-0.002836544
	0.009727712	-0.003824274	3.034756e-09	1.141847e-08	-0.04726061	0.009319615	3.558345e-09	1.276022e-08
	3.589076e-09	1.207941e-08	0.01029826	-0.002836544	3.558345e-09	1.276022e-08	-0.04552465	0.01297962
4.4e+08	-0.0439595	0.01450718	3.80702e-09	1.084759e-08	0.007725633	-0.003733626	4.222318e-09	1.186281e-08
	3.80702e-09	1.084759e-08	-0.04229953	0.01733607	3.592704e-09	1.127428e-08	0.008381757	-0.002842858
	0.007725633	-0.003733626	3.592704e-09	1.127428e-08	-0.04441816	0.01449478	4.245021e-09	1.254482e-08
	4.222318e-09	1.186281e-08	0.008381757	-0.002842858	4.245021e-09	1.254482e-08	-0.0423519	0.01782252
4.5e+08	-0.04004577	0.01878303	4.341036e-09	1.050704e-08	0.005777698	-0.003146716	4.7504e-09	1.151633e-08
	4.341036e-09	1.050704e-08	-0.03818255	0.02128488	4.065275e-09	1.101453e-08	0.006491378	-0.002371942
	0.005777698	-0.003146716	4.065275e-09	1.101453e-08	-0.04049224	0.01885007	4.823731e-09	1.218687e-08
	4.7504e-09	1.151633e-08	0.006491378	-0.002371942	4.823731e-09	1.218687e-08	-0.03818898	0.02177319
4.6e+08	-0.0352868	0.02201322	4.746761e-09	1.005946e-08	0.004003907	-0.002090108	5.143316e-09	1.106663e-08
	4.746761e-09	1.005946e-08	-0.03331166	0.02414494	4.425215e-09	1.066064e-08	0.004742693	-0.001443329
	0.004003907	-0.002090108	4.425215e-09	1.066064e-08	-0.03570481	0.02215477	5.261523e-09	1.171375e-08
	5.143316e-09	1.106663e-08	0.004742693	-0.001443329	5.261523e-09	1.171375e-08	-0.03327415	0.02462444
4.7e+08	-0.02995075	0.02402898	4.999891e-09	9.536625e-09	0.002514672	-0.0006188306	5.377828e-09	1.054737e-08
	4.999891e-09	9.536625e-09	-0.02796453	0.02577021	4.650552e-09	1.024049e-08	0.003243462	-0.0001040044
	0.002514672	-0.0006188306	4.650552e-09	1.024049e-08	-0.03032567	0.02423655	5.532348e-09	1.116039e-08
	5.377828e-09	1.054737e-08	0.003243462	-0.0001040044	5.532348e-09	1.116039e-08	-0.02788765	0.02623088
4.8e+08	-0.024338	0.02472897	5.083963e-09	8.975904e-09	0.001404197	0.001186606	5.439042e-09	9.997394e-09
	5.083963e-09	8.975904e-09	-0.02244533	0.02608414	4.726265e-09	9.787317e-09	0.002087238	0.001574128
