!$
! Info: Touchstone file created by Circ.  Input file=Tx_10in_Rx_93ohms_TxVia_60mils_RxVia_70mils.circ
!$
# Hz S RI R 50
0	0.009242165	1.538535e-25	3.063115e-08	3.574131e-26	7.68154e-05	2.015721e-23	6.516125e-08	8.450273e-27
	3.063114e-08	3.57411e-26	0.00923751	1.647461e-25	6.298247e-08	1.161043e-25	7.356788e-05	2.249485e-23
	7.803914e-05	1.958433e-23	6.298248e-08	1.161031e-25	0.009252816	1.525897e-25	2.382448e-08	4.767693e-26
	6.516128e-08	8.450625e-27	7.383749e-05	2.259131e-23	2.382479e-08	4.768252e-26	0.009251926	1.640221e-25
1e+07	0.01348622	-0.000865411	5.196337e-08	9.292376e-08	0.0003495869	0.00194996	1.373753e-07	2.665462e-07
	5.196337e-08	9.292377e-08	0.01347761	-0.0008652435	8.1794e-08	2.88577e-07	0.0003461271	0.001951011
	0.0003496571	0.001949928	8.1794e-08	2.88577e-07	0.01322532	-0.0008674297	4.05626e-08	1.286387e-07
	1.373753e-07	2.665462e-07	0.0003461297	0.001951009	4.05626e-08	1.286387e-07	0.01321593	-0.0008669104
2e+07	0.01564676	-0.005161402	8.95068e-08	1.602769e-07	0.0008960807	0.003848066	3.070582e-07	4.122729e-07
	8.950681e-08	1.602769e-07	0.01561236	-0.005156877	1.276095e-07	4.970808e-07	0.0008826599	0.003852507
	0.000896066	0.003848029	1.276095e-07	4.970808e-07	0.01545399	-0.005075167	9.27968e-08	1.807474e-07
	3.070582e-07	4.122729e-07	0.0008826571	0.003852507	9.27968e-08	1.807474e-07	0.01541643	-0.005069622
3e+07	0.0159596	-0.01058437	1.348172e-07	2.131925e-07	0.001864249	0.005489001	5.223471e-07	4.965417e-07
	1.348172e-07	2.131925e-07	0.01588397	-0.01056485	1.574187e-07	7.054617e-07	0.001835392	0.00550099
	0.001864245	0.005489001	1.574187e-07	7.054617e-07	0.0158179	-0.0104818	1.474872e-07	2.352748e-07
	5.223471e-07	4.965417e-07	0.001835392	0.005500992	1.474872e-07	2.352748e-07	0.01573551	-0.01045945
4e+07	0.01477482	-0.016166	1.847628e-07	2.505882e-07	0.003174724	0.006844862	7.676792e-07	5.090083e-07
	1.847628e-07	2.505882e-07	0.01464587	-0.01611678	1.785003e-07	9.134253e-07	0.003126344	0.006870141
	0.003174729	0.006844861	1.785003e-07	9.134253e-07	0.01467321	-0.01606749	2.030375e-07	2.758331e-07
	7.676792e-07	5.090083e-07	0.003126345	0.006870142	2.030375e-07	2.758331e-07	0.01453283	-0.01601244
5e+07	0.01228439	-0.02148744	2.359774e-07	2.716395e-07	0.004707269	0.007884192	1.025755e-06	4.405508e-07
	2.359774e-07	2.716395e-07	0.01209474	-0.02138985	1.935873e-07	1.119797e-06	0.004637148	0.00792967
	0.004707272	0.007884191	1.935873e-07	1.119797e-06	0.01221254	-0.02140429	2.589878e-07	2.993418e-07
	1.025755e-06	4.405508e-07	0.004637149	0.007929671	2.589878e-07	2.993418e-07	0.01200614	-0.02129608
6e+07	0.008668601	-0.02625314	2.841646e-07	2.760969e-07	0.006391909	0.008571782	1.273945e-06	2.859342e-07
	2.841646e-07	2.760969e-07	0.008416882	-0.02608662	2.041514e-07	1.325456e-06	0.006299894	0.008644947
	0.006391908	0.008571784	2.041514e-07	1.325456e-06	0.00861643	-0.02619199	3.114906e-07	3.049849e-07
	1.273945e-06	2.859342e-07	0.006299895	0.008644947	3.114906e-07	3.049849e-07	0.008342652	-0.02600815
7e+07	0.004122751	-0.03023731	3.24788e-07	2.648035e-07	0.008152068	0.008886611	1.487428e-06	4.677461e-08
	3.24788e-07	2.648035e-07	0.003813449	-0.0299813	2.113393e-07	1.531381e-06	0.008040147	0.008994984
	0.008152066	0.008886616	2.113393e-07	1.531381e-06	0.004080372	-0.03020166	3.558426e-07	2.934136e-07
	1.487428e-06	4.677461e-08	0.008040148	0.008994984	3.558426e-07	2.934136e-07	0.003744259	-0.02991987
8e+07	-0.001138471	-0.03326975	3.53473e-07	2.398132e-07	0.009908256	0.008823594	1.641794e-06	-2.680496e-07
	3.53473e-07	2.398132e-07	-0.001495383	-0.03290504	2.162085e-07	1.73834e-06	0.009780523	0.008974193
	0.009908255	0.008823601	2.162085e-07	1.73834e-06	-0.001180695	-0.03326069	3.873233e-07	2.666637e-07
	1.641794e-06	-2.680496e-07	0.009780524	0.008974192	3.873233e-07	2.666637e-07	-0.001568243	-0.03286013
9e+07	-0.006882553	-0.03523116	3.663943e-07	2.043474e-07	0.01158168	0.008394076	1.715245e-06	-6.428468e-07
	3.663943e-07	2.043474e-07	-0.007272047	-0.03474104	2.198205e-07	1.946866e-06	0.01144418	0.008592892
	0.01158168	0.008394081	2.198205e-07	1.946866e-06	-0.006934134	-0.03524792	4.016893e-07	2.280828e-07
	1.715245e-06	-6.428468e-07	0.01144418	0.008592891	4.016893e-07	2.280828e-07	-0.007356782	-0.03471043
1e+08	-0.01284912	-0.03604287	3.60606e-07	1.625929e-07	0.01309768	0.007624908	1.690386e-06	-1.056179e-06
	3.60606e-07	1.625929e-07	-0.01325166	-0.03541433	2.2331e-07	2.157176e-06	0.01295814	0.007876424
	0.01309768	0.007624908	2.2331e-07	2.157176e-06	-0.01292182	-0.03608462	3.955631e-07	1.821445e-07
	1.690386e-06	-1.056179e-06	0.01295814	0.007876424	3.955631e-07	1.821445e-07	-0.01335831	-0.03539594
1.1e+08	-0.01879244	-0.03580665	3.345073e-07	1.190289e-07	0.01438745	0.006561035	1.561487e-06	-1.483344e-06
	3.345073e-07	1.190289e-07	-0.0191841	-0.03503198	2.246371e-07	2.371862e-06	0.0142549	0.006867733
	0.01438745	0.006561035	2.246371e-07	2.371862e-06	-0.01889772	-0.03585439	3.67167e-07	1.349378e-07
	1.561487e-06	-1.483344e-06	0.01425489	0.006867733	3.67167e-07	1.349378e-07	-0.01932172	-0.03500627
1.2e+08	-0.02458901	-0.03447912	2.872555e-07	7.908746e-08	0.01539845	0.005258184	1.320537e-06	-1.898026e-06
	2.872555e-07	7.908746e-08	-0.02494417	-0.03355606	2.266796e-07	2.590453e-06	0.01528263	0.005620331
	0.01539845	0.005258185	2.266796e-07	2.590453e-06	-0.02472185	-0.03452315	3.15683e-07	9.168608e-08
	1.320537e-06	-1.898026e-06	0.01528263	0.005620332	3.15683e-07	9.168607e-08	-0.02510536	-0.03351327
1.3e+08	-0.02999715	-0.03210802	2.194099e-07	4.812594e-08	0.01608813	0.003780632	9.687565e-07	-2.272281e-06
	2.194099e-07	4.812594e-08	-0.03028915	-0.03104075	2.306295e-07	2.812804e-06	0.01599903	0.004196081
	0.01608813	0.003780632	2.306295e-07	2.812804e-06	-0.03015453	-0.03214175	2.417224e-07	5.823409e-08
	9.687565e-07	-2.272281e-06	0.01599903	0.004196082	2.417224e-07	5.823409e-08	-0.0304685	-0.03097482
1.4e+08	-0.03481455	-0.02879768	1.328492e-07	3.140398e-08	0.01642867	0.002200178	5.141724e-07	-2.578405e-06
	1.328492e-07	3.140398e-08	-0.03501738	-0.027597	2.375877e-07	3.038566e-06	0.01637591	0.002664308
	0.01642867	0.002200178	2.375877e-07	3.038566e-06	-0.03499309	-0.02881565	1.473328e-07	4.031663e-08
	5.141724e-07	-2.578405e-06	0.01637591	0.002664309	1.473328e-07	4.031663e-08	-0.03520917	-0.02750363
1.5e+08	-0.0388697	-0.02469029	3.073367e-08	3.373984e-08	0.01640789	0.0005924397	-2.85633e-08	-2.790586e-06
	3.073366e-08	3.373984e-08	-0.03895958	-0.02337348	2.48539e-07	3.267134e-06	0.01640013	0.001098236
	0.01640789	0.0005924399	2.48539e-07	3.267134e-06	-0.0390654	-0.02468801	3.595685e-08	4.318749e-08
	-2.85633e-08	-2.790586e-06	0.01640013	0.001098236	3.595685e-08	4.318749e-08	-0.03915773	-0.02324988
1.6e+08	-0.04202592	-0.01995782	-8.260831e-08	5.920269e-08	0.01602954	-0.0009665051	-6.3867e-07	-2.886429e-06
	-8.260831e-08	5.920269e-08	-0.04198284	-0.01854805	2.642916e-07	3.497668e-06	0.01607393	-0.0004282263
	0.01602954	-0.0009665049	2.642916e-07	3.497668e-06	-0.04223418	-0.01993174	-8.76916e-08	7.128636e-08
	-6.3867e-07	-2.886429e-06	0.01607393	-0.0004282257	-8.76916e-08	7.128636e-08	-0.04218106	-0.01839292
1.7e+08	-0.0441852	-0.01479398	-2.018665e-07	1.108377e-07	0.01531298	-0.002403386	-1.290071e-06	-2.848346e-06
	-2.018665e-07	1.108377e-07	-0.04399436	-0.01331949	2.85425e-07	3.729143e-06	0.01541457	-0.001843615
	0.01531298	-0.002403386	2.85425e-07	3.729143e-06	-0.04440094	-0.0147416	-2.178298e-07	1.279401e-07
	-1.290071e-06	-2.848346e-06	0.01541457	-0.001843614	-2.178298e-07	1.279401e-07	-0.04418637	-0.01313297
1.8e+08	-0.04529077	-0.009406094	-3.209988e-07	1.904396e-07	0.01429208	-0.003650817	-1.952524e-06	-2.664729e-06
	-3.209988e-07	1.904396e-07	-0.04494375	-0.007898903	3.122502e-07	3.960411e-06	0.01445346	-0.00308187
	0.01429208	-0.003650817	3.122502e-07	3.960411e-06	-0.0455086	-0.009325982	-3.478763e-07	2.151177e-07
	-1.952524e-06	-2.664729e-06	0.01445346	-0.00308187	-3.478763e-07	2.151177e-07	-0.04512355	-0.007682576
1.9e+08	-0.04532831	-0.004006672	-4.335308e-07	2.983899e-07	0.01301372	-0.004650072	-2.592995e-06	-2.330881e-06
	-4.335308e-07	2.983899e-07	-0.04482396	-0.002501177	3.447891e-07	4.190273e-06	0.01323465	-0.004085018
	0.01301372	-0.004650072	3.447891e-07	4.190273e-06	-0.04554267	-0.003898516	-4.707754e-07	3.332523e-07
	-2.592995e-06	-2.330881e-06	0.01323465	-0.004085018	-4.707754e-07	3.332523e-07	-0.0449861	-0.002257893
2e+08	-0.04432558	0.001194851	-5.328896e-07	4.335668e-07	0.01153566	-0.005353478	-3.177234e-06	-1.849608e-06
	-5.328896e-07	4.335668e-07	-0.04367062	0.002663578	3.827724e-07	4.417547e-06	0.01181293	-0.004805487
	0.01153566	-0.005353478	3.827724e-07	4.417547e-06	-0.04453099	0.001330233	-5.793581e-07	4.811429e-07
	-3.177234e-06	-1.849608e-06	0.01181293	-0.004805486	-5.793581e-07	4.811429e-07	-0.04381044	0.002929817
2.1e+08	-0.04235062	0.006000134	-6.127521e-07	5.933355e-07	0.009924088	-0.005726335	-3.671456e-06	-1.231484e-06
	-6.127521e-07	5.933355e-07	-0.04155981	0.007398138	4.256565e-07	4.641141e-06	0.01025145	-0.005207991
	0.009924088	-0.005726335	4.256565e-07	4.641141e-06	-0.04254186	0.006160827	-6.667191e-07	6.559405e-07
	-3.671456e-06	-1.231484e-06	0.01025145	-0.005207991	-6.667191e-07	6.559405e-07	-0.04167364	0.007682376
2.2e+08	-0.03950849	0.01022938	-6.673894e-07	7.736182e-07	0.008250802	-0.005748309	-4.044079e-06	-4.947306e-07
	-6.673894e-07	7.736182e-07	-0.0386044	0.01152565	4.726572e-07	4.860113e-06	0.008619118	-0.005270926
	0.008250802	-0.005748309	4.726572e-07	4.860113e-06	-0.03968081	0.01041243	-7.265918e-07	8.532215e-07
	-4.044079e-06	-4.947306e-07	0.008619118	-0.005270927	-7.265918e-07	8.532215e-07	-0.03868976	0.01182222
2.3e+08	-0.0359367	0.01372798	-6.919882e-07	9.690416e-07	0.006590206	-0.005414263	-4.267427e-06	3.352787e-07
	-6.919882e-07	9.690416e-07	-0.0349491	0.01489622	5.227945e-07	5.073718e-06	0.006987712	-0.004987221
	0.006590206	-0.005414263	5.227945e-07	5.073718e-06	-0.03608602	0.01392952	-7.536985e-07	1.067145e-06
	-4.267427e-06	3.352787e-07	0.006987712	-0.004987221	-7.536985e-07	1.067145e-06	-0.03500481	0.015199
2.4e+08	-0.03179958	0.01637217	-6.829335e-07	1.173153e-06	0.005016189	-0.004734471	-4.319312e-06	1.226882e-06
	-6.829335e-07	1.173153e-06	-0.0307644	0.01739244	5.749459e-07	5.281439e-06	0.005428928	-0.004364627
	0.005016189	-0.004734471	5.749459e-07	5.281439e-06	-0.03192264	0.01658754	-7.440603e-07	1.290683e-06
	-4.319312e-06	1.226882e-06	0.005428928	-0.004364627	-7.440603e-07	1.290683e-06	-0.03079063	0.01769515
2.5e+08	-0.02728161	0.01807346	-6.380373e-07	1.378696e-06	0.003599015	-0.003734231	-4.18443e-06	2.143341e-06
	-6.380373e-07	1.378696e-06	-0.02623954	0.01893358	6.279019e-07	5.483013e-06	0.00401139	-0.003425421
	0.003599015	-0.003734231	6.279019e-07	5.483013e-06	-0.02737614	0.01829738	-6.952503e-07	1.51592e-06
	-4.18443e-06	2.143341e-06	0.00401139	-0.003425421	-6.952503e-07	1.51592e-06	-0.02623786	0.01923007
2.6e+08	-0.02258009	0.01878181	-5.567025e-07	1.577925e-06	0.002402329	-0.002452857	-3.855492e-06	3.044354e-06
	-5.567025e-07	1.577925e-06	-0.02157488	0.01947841	6.804213e-07	5.678428e-06	0.002797768	-0.002205529
	0.002402329	-0.002452857	6.804213e-07	5.678428e-06	-0.02264492	0.01900854	-6.065785e-07	1.734397e-06
	-3.855492e-06	3.044354e-06	0.002797768	-0.002205529	-6.065785e-07	1.734397e-06	-0.02154819	0.01976292
2.7e+08	-0.01789741	0.01848704	-4.400234e-07	1.762962e-06	0.001480401	-0.0009420911	-3.334014e-06	3.887819e-06
	-4.400234e-07	1.762962e-06	-0.01697395	0.01902633	7.312778e-07	5.867922e-06	0.001842096	-0.0007530803
	0.001480401	-0.0009420911	7.312778e-07	5.867922e-06	-0.01793253	0.01871071	-4.791994e-07	1.937494e-06
	-3.334014e-06	3.887819e-06	0.001842096	-0.0007530803	-4.791994e-07	1.937494e-06	-0.01692635	0.01929383
2.8e+08	-0.01343306	0.01721913	-2.907995e-07	1.926156e-06	0.0008757222	0.0007360294	-2.630731e-06	4.631766e-06
	-2.907995e-07	1.926156e-06	-0.01263529	0.01761713	7.793075e-07	6.051974e-06	0.001187419	0.0008735584
	0.0008757222	0.0007360293	7.793075e-07	6.051974e-06	-0.01343966	0.01743389	-3.161372e-07	2.116827e-06
	-2.630731e-06	4.631766e-06	0.001187419	0.0008735584	-3.161372e-07	2.116827e-06	-0.01257192	0.01786355
2.9e+08	-0.009375916	0.01504668	-1.134798e-07	2.060445e-06	0.0006170603	0.002511773	-1.765575e-06	5.236386e-06
	-1.134798e-07	2.060445e-06	-0.008744648	0.01532907	8.234453e-07	6.231278e-06	0.0008638547	0.002608217
	0.0006170603	0.002511773	8.234453e-07	6.231278e-06	-0.00935634	0.01524697	-1.222286e-07	2.264649e-06
	-1.765575e-06	5.236386e-06	0.0008638547	0.002608217	-1.222286e-07	2.264649e-06	-0.008671461	0.01555151
3e+08	-0.005896804	0.01207397	8.596694e-08	2.159707e-06	0.0007180773	0.004310696	-7.672135e-07	5.666053e-06
	8.596694e-08	2.159707e-06	-0.005467627	0.01227542	8.62759e-07	6.40673e-06	0.0008871885	0.004379728
	0.0007180772	0.004310696	8.62759e-07	6.40673e-06	-0.005854514	0.01225473	9.601847e-08	2.374234e-06
	-7.672135e-07	5.666053e-06	0.0008871885	0.004379728	9.601847e-08	2.374234e-06	-0.005391144	0.01247228
3.1e+08	-0.003141917	0.00843659	3.002527e-07	2.219078e-06	0.001176582	0.006056877	3.278652e-07	5.891241e-06
	3.002527e-07	2.219078e-06	-0.002943226	0.008599689	8.964793e-07	6.579405e-06	0.001258062	0.006114997
	0.001176582	0.006056877	8.964793e-07	6.579405e-06	-0.003081374	0.0085935	3.30643e-07	2.440229e-06
	3.278652e-07	5.891241e-06	0.001258062	0.006114997	3.30643e-07	2.440229e-06	-0.002870237	0.008770785
3.2e+08	-0.001227176	0.004295932	5.21035e-07	2.235227e-06	0.001974481	0.007676277	1.476684e-06	5.890236e-06
	5.21035e-07	2.235227e-06	-0.001278446	0.0044696	9.240296e-07	6.750534e-06	0.001961827	0.007742213
	0.001974481	0.007676277	9.240296e-07	6.750534e-06	-0.001153685	0.004425595	5.725216e-07	2.458962e-06
	1.476684e-06	5.890236e-06	0.001961827	0.007742213	5.725216e-07	2.458962e-06	-0.001215713	0.004616213
3.3e+08	-0.0002338096	-0.0001674252	7.392378e-07	2.206583e-06	0.003078446	0.009100071	2.631492e-06	5.650557e-06
	7.392378e-07	2.206583e-06	-0.0005442151	7.017984e-05	9.450566e-07	6.921477e-06	0.002969081	0.009194046
	0.003078446	0.009100071	9.450566e-07	6.921477e-06	-0.00015333	-6.73145e-05	8.117222e-07	2.428688e-06
	2.631492e-06	5.650557e-06	0.002969081	0.009194046	8.117222e-07	2.428688e-06	-0.000498155	0.0001950172
3.4e+08	-0.0002053428	-0.004760989	9.454192e-07	2.133492e-06	0.004441284	0.01026778	3.741784e-06	5.169982e-06
	9.454192e-07	2.133492e-06	-0.0007727856	-0.004403845	9.594615e-07	7.093691e-06	0.004236886	0.01041068
	0.004441284	0.01026778	9.594615e-07	7.093691e-06	-0.000124261	-0.004691521	1.03791e-06	2.349768e-06
	3.741784e-06	5.169982e-06	0.004236886	0.01041068	1.03791e-06	2.349768e-06	-0.0007491763	-0.004296735
3.5e+08	-0.001146104	-0.009288101	1.130175e-06	2.018302e-06	0.006003973	0.01113008	4.756542e-06	4.45713e-06
	1.130175e-06	2.018302e-06	-0.001956728	-0.008755997	9.674301e-07	7.268693e-06	0.005710623	0.01134255
	0.006003973	0.01113008	9.674301e-07	7.268693e-06	-0.001070985	-0.009249073	1.24079e-06	2.224754e-06
	4.756542e-06	4.45713e-06	0.005710623	0.01134255	1.24079e-06	2.224754e-06	-0.001960429	-0.008661378
3.6e+08	-0.003021304	-0.01355579	1.284561e-06	1.865366e-06	0.007698264	0.01165108	5.626592e-06	3.531541e-06
	1.284561e-06	1.865366e-06	-0.004049528	-0.01279599	9.694597e-07	7.448001e-06	0.007326399	0.01195258
	0.007698264	0.01165108	9.694597e-07	7.448001e-06	-0.002958629	-0.01354568	1.410575e-06	2.058396e-06
	5.626592e-06	3.531541e-06	0.007326399	0.01195258	1.410575e-06	2.058396e-06	-0.00408424	-0.01270765
3.7e+08	-0.005758687	-0.01738244	1.400524e-06	1.680952e-06	0.00944973	0.01181003	6.306964e-06	2.423241e-06
	1.400524e-06	1.680952e-06	-0.00696778	-0.01634741	9.663774e-07	7.633077e-06	0.009013905	0.01221794
	0.00944973	0.01181003	9.663774e-07	7.633077e-06	-0.005714582	-0.01739843	1.538456e-06	1.857537e-06
	6.306964e-06	2.423241e-06	0.009013905	0.01221794	1.538456e-06	1.857537e-06	-0.007035851	-0.01625841
3.8e+08	-0.009251648	-0.02060492	1.471316e-06	1.473063e-06	0.01118113	0.01160233	6.759139e-06	1.171784e-06
	1.471316e-06	1.473063e-06	-0.01059484	-0.01925465	9.59345e-07	7.825246e-06	0.01069957	0.01213104
	0.01118113	0.01160233	9.59345e-07	7.825246e-06	-0.009231632	-0.02064298	1.617052e-06	1.630915e-06
	6.759139e-06	1.171784e-06	0.01069957	0.01213104	1.617052e-06	1.630915e-06	-0.01069713	-0.01915763
3.9e+08	-0.01336371	-0.02308493	1.491875e-06	1.251168e-06	0.01281588	0.01103971	6.953063e-06	-1.751824e-07
	1.491875e-06	1.251168e-06	-0.01478579	-0.02138911	9.498446e-07	8.02562e-06	0.01230988	0.01169988
	0.01281588	0.01103971	9.498446e-07	8.02562e-06	-0.01337245	-0.02313995	1.640829e-06	1.388865e-06
	6.953063e-06	-1.751824e-07	0.01230988	0.01169988	1.640829e-06	1.388865e-06	-0.01492161	-0.0212766
4e+08	-0.01793412	-0.02471433	1.459146e-06	1.025836e-06	0.01428156	0.0101498	6.868836e-06	-1.563779e-06
	1.459146e-06	1.025836e-06	-0.01937351	-0.02265405	9.396421e-07	8.235008e-06	0.01377464	0.01094767
	0.01428156	0.0101498	9.396421e-07	8.235008e-06	-0.01797523	-0.02478031	1.606442e-06	1.142917e-06
	6.868836e-06	-1.563779e-06	0.01377464	0.01094767	1.606442e-06	1.142917e-06	-0.01954061	-0.02251882
4.1e+08	-0.02278439	-0.02541915	1.372331e-06	8.083125e-07	0.0155131	0.008974793	6.497973e-06	-2.9361e-06
	1.372331e-06	8.083125e-07	-0.02417554	-0.02298827	9.307257e-07	8.45384e-06	0.01503016	0.009911753
	0.0155131	0.008974793	9.307257e-07	8.45384e-06	-0.02286023	-0.02548942	1.513009e-06	9.053321e-07
	6.497973e-06	-2.9361e-06	0.01503016	0.009911753	1.513009e-06	9.053321e-07	-0.02437016	-0.02282362
4.2e+08	-0.02772538	-0.02516232	1.233041e-06	6.100176e-07	0.01645574	0.007569578	5.844179e-06	-4.232665e-06
	1.233041e-06	6.100176e-07	-0.02900148	-0.02236825	9.252194e-07	8.682099e-06	0.01602195	0.00864186
	0.01645574	0.007569578	9.252194e-07	8.682099e-06	-0.02783699	-0.02522979	1.362266e-06	6.885612e-07
	5.844179e-06	-4.232665e-06	0.01602195	0.00864186	1.362266e-06	6.885612e-07	-0.02921853	-0.02216835
4.3e+08	-0.03256485	-0.02394485	1.045333e-06	4.420249e-07	0.01706738	0.005999253	4.923595e-06	-5.395009e-06
	1.045333e-06	4.420249e-07	-0.03366064	-0.02080879	9.252761e-07	8.919279e-06	0.01670715	0.007197886
	0.01706738	0.005999253	9.252761e-07	8.919279e-06	-0.03271182	-0.02400228	1.158611e-06	5.046751e-07
	4.923595e-06	-5.395009e-06	0.01670715	0.007197886	1.158611e-06	5.046751e-07	-0.03389385	-0.02056892
4.4e+08	-0.03711494	-0.02180555	8.156328e-07	3.145217e-07	0.01732044	0.004336221	3.764485e-06	-6.368287e-06
	8.156328e-07	3.145217e-07	-0.03796959	-0.0183621	9.329561e-07	9.16437e-06	0.01705631	0.005647202
	0.01732044	0.004336221	9.329561e-07	9.16437e-06	-0.03729543	-0.02184586	9.090123e-07	3.647836e-07
	3.764485e-06	-6.368287e-06	0.01705631	0.005647202	9.090123e-07	3.647836e-07	-0.03821181	-0.01807891
4.5e+08	-0.04119943	-0.01881934	5.525298e-07	2.362915e-07	0.01720295	0.002656998	2.406385e-06	-7.103784e-06
	5.525298e-07	2.362915e-07	-0.04175935	-0.01511554	9.500991e-07	9.415871e-06	0.01705454	0.004061695
	0.01720295	0.002656998	9.500991e-07	9.415871e-06	-0.04141022	-0.01883586	6.227917e-07	2.784762e-07
	2.406385e-06	-7.103784e-06	0.01705454	0.004061695	6.227917e-07	2.784762e-07	-0.04200279	-0.01478719
4.6e+08	-0.04466059	-0.0150941	2.664608e-07	2.142461e-07	0.01671907	0.00103888	8.987326e-07	-7.561216e-06
	2.664608e-07	2.142461e-07	-0.04488191	-0.01118791	9.782019e-07	9.671853e-06	0.01670212	0.002514658
	0.01671907	0.00103888	9.782019e-07	9.671853e-06	-0.04489718	-0.01508087	3.112773e-07	2.533228e-07
	8.987326e-07	-7.561216e-06	0.01670212	0.002514658	3.112773e-07	2.533228e-07	-0.04511856	-0.0108142
4.7e+08	-0.04736507	-0.01076639	-3.071527e-08	2.53034e-07	0.01588877	-0.0004433796	-7.009552e-07	-7.710712e-06
	-3.071527e-08	2.53034e-07	-0.04721595	-0.00672458	1.018311e-06	9.930034e-06	0.01601435	0.001077665
	0.01588877	-0.0004433796	1.018311e-06	9.930034e-06	-0.04762182	-0.0107184	-1.264476e-08	2.944328e-07
	-7.009552e-07	-7.710712e-06	0.01601435	0.001077665	-1.264476e-08	2.944328e-07	-0.04743781	-0.006306961
4.8e+08	-0.04920905	-0.00599607	-3.262236e-07	3.547499e-07	0.01474702	-0.001720747	-2.329301e-06	-7.534406e-06
