!$
! Info: Touchstone file created by Circ.  Input file=Tx_12in_Rx_100ohms_TxVia_60mils_RxVia_70mils.circ
!$
# Hz S RI R 50
0	0.01246796	1.616349e-25	1.334794e-09	1.935719e-27	8.370453e-05	2.462342e-23	1.203261e-09	8.357041e-28
	1.334802e-09	1.935722e-27	0.01246318	1.906396e-25	9.17462e-10	2.791746e-27	8.391069e-05	3.040506e-23
	8.468419e-05	2.505505e-23	9.17451e-10	2.791718e-27	0.01248174	1.547151e-25	-3.257343e-09	4.47975e-25
	1.203259e-09	8.355854e-28	8.418012e-05	3.053544e-23	-3.256938e-09	4.479254e-25	0.01247751	1.898111e-25
1e+07	0.01731239	0.007825533	2.821299e-09	3.262911e-09	0.0004088905	0.002220917	1.356305e-09	3.005538e-08
	2.821299e-09	3.26291e-09	0.01850707	0.007493816	1.827139e-09	2.426445e-09	0.0008289209	0.002268015
	0.0004088998	0.002220884	1.827139e-09	2.426445e-09	0.01798221	0.007480271	-4.143527e-09	1.792684e-08
	1.356305e-09	3.005538e-08	0.0008289238	0.002268013	-4.143528e-09	1.792684e-08	0.01834023	0.007524074
2e+07	0.02370109	0.01103837	5.360132e-09	5.306052e-09	0.001219002	0.004333787	1.854146e-08	1.91921e-08
	5.360132e-09	5.306052e-09	0.0242521	0.01012754	3.40917e-09	4.163611e-09	0.001497801	0.004595376
	0.001218975	0.004333786	3.40917e-09	4.163611e-09	0.02384634	0.01029588	-2.509008e-09	7.049669e-09
	1.854146e-08	1.91921e-08	0.001497798	0.004595377	-2.509008e-09	7.04967e-09	0.02414678	0.01024117
3e+07	0.02916145	0.01129379	8.646047e-09	5.616837e-09	0.00248932	0.006129681	2.999502e-08	1.841612e-08
	8.646047e-09	5.616837e-09	0.02919589	0.01030992	5.142026e-09	4.999901e-09	0.002666036	0.006472298
	0.002489317	0.006129685	5.142026e-09	4.999901e-09	0.02891162	0.01053145	8.706198e-09	5.800842e-09
	2.999502e-08	1.841612e-08	0.002666036	0.0064723	8.706198e-09	5.800842e-09	0.02914342	0.0104522
4e+07	0.03391468	0.009944996	1.214165e-08	4.759131e-09	0.004131289	0.007538628	4.196797e-08	1.469418e-08
	1.214165e-08	4.759131e-09	0.03352255	0.009069376	7.172301e-09	5.154714e-09	0.004256636	0.007926236
	0.004131289	0.007538623	7.172301e-09	5.154714e-09	0.033364	0.009293558	1.298686e-08	5.126785e-09
	4.196797e-08	1.469418e-08	0.004256637	0.007926237	1.298686e-08	5.126785e-09	0.03351728	0.009220591
5e+07	0.03790198	0.007394412	1.552609e-08	2.508869e-09	0.006036473	0.008490141	5.34429e-08	6.59721e-09
	1.552609e-08	2.508869e-09	0.03717219	0.006740855	9.130812e-09	4.550508e-09	0.0062811	0.008796152
	0.00603647	0.008490139	9.130812e-09	4.550508e-09	0.03713855	0.006927596	1.643503e-08	2.724206e-09
	5.34429e-08	6.59721e-09	0.006281101	0.008796152	1.643503e-08	2.724206e-09	0.03720745	0.006888108
6e+07	0.04101899	0.003919487	1.832502e-08	-1.114573e-09	0.008083529	0.008939538	6.286388e-08	-6.052038e-09
	1.832502e-08	-1.114573e-09	0.04004744	0.003565741	1.077695e-08	3.192844e-09	0.00839947	0.009146824
	0.008083531	0.008939542	1.077695e-08	3.192844e-09	0.04012803	0.003677732	1.92078e-08	-1.056628e-09
	6.286388e-08	-6.052038e-09	0.008399471	0.009146824	1.92078e-08	-1.056628e-09	0.04011573	0.003699792
7e+07	0.04316708	-0.0002310832	2.006765e-08	-5.916137e-09	0.01015619	0.008858712	6.865022e-08	-2.267926e-08
	2.006765e-08	-5.916137e-09	0.04205485	-0.00023727	1.186498e-08	1.180111e-09	0.01048878	0.008976713
	0.0101562	0.008858718	1.186498e-08	1.180111e-09	0.04223025	-0.0002321196	2.096427e-08	-6.022704e-09
	6.865022e-08	-2.267926e-08	0.01048878	0.008976713	2.096427e-08	-6.022705e-09	0.04214779	-0.0001229618
8e+07	0.04427476	-0.00481269	2.03581e-08	-1.154689e-08	0.01211455	0.008273027	6.945021e-08	-4.213805e-08
	2.03581e-08	-1.154689e-08	0.04312536	-0.004450189	1.217936e-08	-1.309991e-09	0.01242753	0.008311749
	0.01211456	0.00827303	1.217936e-08	-1.309991e-09	0.04336904	-0.004577191	2.132568e-08	-1.189437e-08
	6.945021e-08	-4.213805e-08	0.01242753	0.008311748	2.132568e-08	-1.189437e-08	0.04323387	-0.004359628
9e+07	0.04430716	-0.009581339	1.893618e-08	-1.75491e-08	0.0138382	0.007232631	6.431085e-08	-6.285121e-08
	1.893618e-08	-1.75491e-08	0.04322615	-0.008852482	1.157079e-08	-4.035448e-09	0.01410227	0.007204875
	0.01383821	0.007232631	1.157079e-08	-4.035448e-09	0.04350572	-0.009129054	1.998551e-08	-1.828731e-08
	6.431085e-08	-6.285121e-08	0.01410227	0.007204874	1.998551e-08	-1.828731e-08	0.04334068	-0.008787215
1e+08	0.04326342	-0.01429943	1.568971e-08	-2.340111e-08	0.01523026	0.005812415	5.279747e-08	-8.296887e-08
	1.568971e-08	-2.340111e-08	0.04238157	-0.01322098	9.956983e-09	-6.702139e-09	0.01540737	0.005731571
	0.01523026	0.005812415	9.956983e-09	-6.702139e-09	0.04265878	-0.01365632	1.673303e-08	-2.473476e-08
	5.279747e-08	-8.296887e-08	0.01540737	0.005731571	1.673303e-08	-2.473476e-08	0.04249088	-0.0131807
1.1e+08	0.04121085	-0.01868555	1.07772e-08	-2.870678e-08	0.01620251	0.004081382	3.546463e-08	-1.009601e-07
	1.07772e-08	-2.870678e-08	0.04061377	-0.01744866	7.419826e-09	-9.044978e-09	0.01627667	0.004035676
	0.01620251	0.004081382	7.419826e-09	-9.044978e-09	0.0408489	-0.01802982	1.151953e-08	-3.03757e-08
	3.546463e-08	-1.009601e-07	0.01627667	0.004035677	1.151953e-08	-3.03757e-08	0.04071017	-0.01742078
1.2e+08	0.03828676	-0.02257796	4.143285e-09	-3.287869e-08	0.01667947	0.002178003	1.241016e-08	-1.149065e-07
	4.143285e-09	-3.287869e-08	0.03792885	-0.02124879	3.973021e-09	-1.085655e-08	0.01669598	0.002191108
	0.01667947	0.002178003	3.973021e-09	-1.085655e-08	0.03809444	-0.02196203	4.528539e-09	-3.476762e-08
	1.241016e-08	-1.149065e-07	0.01669598	0.002191108	4.528539e-09	-3.476762e-08	0.03801363	-0.02122875
1.3e+08	0.03461258	-0.02580537	-3.879127e-09	-3.538864e-08	0.01664391	0.0002303457	-1.522317e-08	-1.231036e-07
	-3.879127e-09	-3.538864e-08	0.03447873	-0.02443022	-2.371124e-10	-1.178423e-08	0.0166318	0.0003096301
	0.01664391	0.0002303456	-2.371124e-10	-1.178423e-08	0.03454835	-0.02525495	-3.920202e-09	-3.74085e-08
	-1.522317e-08	-1.231036e-07	0.0166318	0.0003096312	-3.920202e-09	-3.74085e-08	0.03455143	-0.02441444
1.4e+08	0.03035245	-0.02822481	-1.285264e-08	-3.582455e-08	0.01610444	-0.001634556	-4.591591e-08	-1.24191e-07
	-1.285264e-08	-3.582455e-08	0.03042919	-0.02684514	-4.97402e-09	-1.160265e-08	0.01608787	-0.001490225
	0.01610444	-0.001634556	-4.97402e-09	-1.160265e-08	0.0303817	-0.02775368	-1.336549e-08	-3.786573e-08
	-4.591591e-08	-1.24191e-07	0.01608787	-0.001490224	-1.336549e-08	-3.786573e-08	0.03048963	-0.02683017
1.5e+08	0.0256976	-0.02973235	-2.22236e-08	-3.389116e-08	0.01509932	-0.003296028	-7.776901e-08	-1.172218e-07
	-2.22236e-08	-3.389116e-08	0.02596852	-0.02838673	-9.938275e-09	-1.015039e-08	0.01509808	-0.003094181
	0.01509932	-0.003296028	-9.938275e-09	-1.015039e-08	0.02579029	-0.02934572	-2.322413e-08	-3.582944e-08
	-7.776901e-08	-1.172218e-07	0.01509808	-0.00309418	-2.322413e-08	-3.582944e-08	0.02601708	-0.02836922
1.6e+08	0.02085651	-0.03026833	-3.135366e-08	-2.944253e-08	0.0136946	-0.004646669	-1.086182e-07	-1.01764e-07
	-3.135366e-08	-2.944253e-08	0.0213004	-0.02899229	-1.478529e-08	-7.347704e-09	0.01372361	-0.004399637
	0.0136946	-0.004646669	-1.478529e-08	-7.347704e-09	0.02098693	-0.02996479	-3.282413e-08	-3.11473e-08
	-1.086182e-07	-1.01764e-07	0.01372361	-0.004399636	-3.282413e-08	-3.11473e-08	0.02133811	-0.02896916
1.7e+08	0.0160447	-0.0298201	-3.956037e-08	-2.250608e-08	0.01198028	-0.005598698	-1.361738e-07	-7.797102e-08
	-3.956037e-08	-2.250608e-08	0.01663482	-0.02864528	-1.914779e-08	-3.208799e-09	0.01204906	-0.005322046
	0.01198028	-0.005598698	-1.914779e-08	-3.208799e-09	0.0161917	-0.02959327	-4.144757e-08	-2.384958e-08
	-1.361738e-07	-7.797102e-08	0.01204906	-0.005322046	-4.144757e-08	-2.384958e-08	0.01666332	-0.02861383
1.8e+08	0.01147431	-0.02842246	-4.616471e-08	-1.329528e-08	0.01006482	-0.00608919	-1.581792e-07	-4.66145e-08
	-4.616471e-08	-1.329528e-08	0.01217831	-0.02737535	-2.26615e-08	2.152226e-09	0.01017718	-0.005800118
	0.01006482	-0.00608919	-2.26615e-08	2.152226e-09	0.01162148	-0.02826244	-4.838051e-08	-1.416226e-08
	-1.581792e-07	-4.66145e-08	0.01017718	-0.005800118	-4.838051e-08	-1.416226e-08	0.01219982	-0.02733339
1.9e+08	0.007343687	-0.02615572	-5.05425e-08	-2.205875e-09	0.008068524	-0.00608382	-1.725775e-07	-9.074189e-09
	-5.05425e-08	-2.205875e-09	0.008124237	-0.02525629	-2.499278e-08	8.523582e-09	0.008222562	-0.005799562
	0.008068524	-0.00608382	-2.499278e-08	8.523582e-09	0.007479429	-0.02605049	-5.296718e-08	-2.50323e-09
	-1.725775e-07	-9.074189e-09	0.008222563	-0.005799562	-5.296718e-08	-2.50323e-09	0.008141346	-0.0252023
2e+08	0.003827742	-0.02314157	-5.217273e-08	1.01921e-08	0.006116194	-0.005578876	-1.776746e-07	3.271736e-08
	-5.217273e-08	1.01921e-08	0.004643548	-0.02240194	-2.586353e-08	1.560234e-08	0.006304639	-0.005315159
	0.006116194	-0.005578876	-2.586353e-08	1.560234e-08	0.003945108	-0.02307823	-5.466086e-08	1.052677e-08
	-1.776746e-07	3.271736e-08	0.006304639	-0.005315159	-5.466086e-08	1.052677e-08	0.004659134	-0.02233512
2.1e+08	0.00106936	-0.01953672	-5.068793e-08	2.31853e-08	0.004329465	-0.004601382	-1.722869e-07	7.637419e-08
	-5.068793e-08	2.31853e-08	0.001876739	-0.01896011	-2.507716e-08	2.301056e-08	0.004540389	-0.004371034
	0.004329465	-0.004601382	-2.507716e-08	2.301056e-08	0.001165686	-0.01950271	-5.307665e-08	2.417669e-08
	-1.722869e-07	7.637419e-08	0.004540389	-0.004371034	-5.307665e-08	2.417669e-08	0.001893728	-0.01888041
2.2e+08	-0.0008275235	-0.01552488	-4.591191e-08	3.596407e-08	0.002819377	-0.003207329	-1.558607e-07	1.191958e-07
	-4.591191e-08	3.596407e-08	-7.275848e-05	-0.01510487	-2.253809e-08	3.031934e-08	0.003037212	-0.003019125
	0.002819377	-0.003207329	-2.253809e-08	3.031934e-08	-0.0007512009	-0.01550891	-4.803105e-08	3.75945e-08
	-1.558607e-07	1.191958e-07	0.003037212	-0.003019125	-4.803105e-08	3.75945e-08	-5.156253e-05	-0.01501301
2.3e+08	-0.001802894	-0.0113073	-3.788449e-08	4.767305e-08	0.001679609	-0.001478129	-1.285527e-07	1.583377e-07
	-3.788449e-08	4.767305e-08	-0.001143265	-0.01102755	-1.826417e-08	3.707564e-08	0.001886421	-0.001335936
	0.001679609	-0.001478129	-1.826417e-08	3.707564e-08	-0.001742574	-0.01130011	-3.956794e-08	4.988062e-08
	-1.285527e-07	1.583377e-07	0.001886421	-0.001335936	-3.956794e-08	4.988062e-08	-0.001115365	-0.01092494
2.4e+08	-0.001843342	-0.007092384	-2.687181e-08	5.747029e-08	0.000980831	0.0004844871	-9.126345e-08	1.910013e-07
	-2.687181e-08	5.747029e-08	-0.001317431	-0.006926921	-1.239199e-08	4.283279e-08	0.001157758	0.0005821982
	0.000980831	0.0004844871	-1.239199e-08	4.283279e-08	-0.001792914	-0.00708733	-2.796928e-08	6.015019e-08
	-9.126345e-08	1.910013e-07	0.001157758	0.0005821982	-2.796928e-08	6.015019e-08	-0.001280804	-0.00681559
2.5e+08	-0.0009823186	-0.003085041	-1.335993e-08	6.458823e-08	0.0007664856	0.002564777	-4.561791e-08	2.146311e-07
	-1.335993e-08	6.458823e-08	-0.000622502	-0.002999121	-5.173686e-09	4.718188e-08	0.0008952616	0.002625033
	0.0007664856	0.002564777	-5.173686e-09	4.718188e-08	-0.0009344664	-0.003078341	-1.374811e-08	6.759716e-08
	-4.561791e-08	2.146311e-07	0.0008952616	0.002625033	-1.374811e-08	6.759716e-08	-0.0005757338	-0.00288153
2.6e+08	0.0007020473	0.0005237784	1.968411e-09	6.839132e-08	0.001050283	0.004640118	6.105601e-09	2.271028e-07
	1.968411e-09	6.839132e-08	0.0008716692	0.0005722698	3.034476e-09	4.978155e-08	0.001114732	0.004675137
	0.001050283	0.004640118	3.034476e-09	4.978155e-08	0.0007549334	0.0005329862	2.375943e-09	7.155498e-08
	6.105601e-09	2.271028e-07	0.001114732	0.004675137	2.375943e-09	7.155498e-08	0.0009292928	0.0006933705
2.7e+08	0.003091454	0.003566726	1.827199e-08	6.842584e-08	0.001815519	0.006588486	6.109633e-08	2.268887e-07
	1.827199e-08	6.842584e-08	0.003056806	0.003625338	1.179122e-08	5.03841e-08	0.001802923	0.006614999
	0.001815519	0.006588486	1.179122e-08	5.03841e-08	0.003156433	0.003576572	1.951716e-08	7.154876e-08
	6.109633e-08	2.268887e-07	0.001802923	0.006614998	1.951716e-08	7.154876e-08	0.003125247	0.003747099
2.8e+08	0.006033987	0.005908394	3.460159e-08	6.445779e-08	0.003016239	0.008295842	1.161728e-07	2.131879e-07
	3.460159e-08	6.445779e-08	0.005792303	0.006027733	2.059562e-08	4.885593e-08	0.002918491	0.008334064
	0.003016239	0.008295842	2.059562e-08	4.885593e-08	0.006116832	0.005914669	3.667695e-08	6.733508e-08
	1.161728e-07	2.131879e-07	0.002918491	0.008334064	3.667695e-08	6.733508e-08	0.005870775	0.006147404
2.9e+08	0.009352383	0.007451891	4.995882e-08	5.649636e-08	0.004580152	0.009662963	1.679749e-07	1.86011e-07
	4.995882e-08	5.649636e-08	0.008912911	0.007682933	2.891714e-08	4.519089e-08	0.004394608	0.009735304
	0.004580152	0.009662963	2.891714e-08	4.519089e-08	0.009456998	0.007448602	5.280575e-08	5.892637e-08
	1.679749e-07	1.86011e-07	0.004394608	0.009735304	5.280575e-08	5.892637e-08	0.008999922	0.007798051
3e+08	0.01285352	0.008143346	6.335882e-08	4.480124e-08	0.006413087	0.01061133	2.13173e-07	1.46213e-07
	6.335882e-08	4.480124e-08	0.01223757	0.008534573	3.622815e-08	3.951578e-08	0.006143064	0.01074091
	0.006413086	0.01061133	3.622815e-08	3.951578e-08	0.01298154	0.008123385	6.686916e-08	4.659839e-08
	2.13173e-07	1.46213e-07	0.006143064	0.01074091	6.686916e-08	4.659839e-08	0.01233103	0.008643134
3.1e+08	0.01633861	0.007974121	7.389272e-08	2.987404e-08	0.0084047	0.01108775	2.486801e-07	9.547233e-08
	7.389272e-08	2.987404e-08	0.01557894	0.008568647	4.203707e-08	3.208751e-08	0.008059581	0.01129683
	0.0084047	0.01108775	4.203707e-08	3.208751e-08	0.01648922	0.007930004	7.791343e-08	3.088089e-08
	2.486801e-07	9.547233e-08	0.008059581	0.01129683	7.791343e-08	3.088089e-08	0.01567626	0.008669248
3.2e+08	0.01961361	0.006980628	8.078561e-08	1.24345e-08	0.0104351	0.01106744	2.718534e-07	3.621745e-08
	8.078561e-08	1.24345e-08	0.01875304	0.007813496	4.591992e-08	2.328233e-08	0.01003003	0.01137584
	0.0104351	0.01106744	4.591992e-08	2.328233e-08	0.01978356	0.006905239	8.512634e-08	1.25324e-08
	2.718534e-07	3.621745e-08	0.01003003	0.01137584	8.512634e-08	1.25324e-08	0.01885136	0.007905441
3.3e+08	0.02249921	0.00524184	8.3447e-08	-6.616293e-09	0.01238199	0.01055543	2.806721e-07	-2.849447e-08
	8.3447e-08	-6.616293e-09	0.0215887	0.006337646	4.754866e-08	1.357761e-08	0.01193718	0.01097908
	0.01238199	0.01055543	4.754866e-08	1.357761e-08	0.02268301	0.005129135	8.789004e-08	-7.498646e-09
	2.806721e-07	-2.849447e-08	0.01193718	0.01097908	8.789004e-08	-7.498646e-09	0.02168502	0.006420999
3.4e+08	0.02483998	0.002874609	8.151099e-08	-2.624337e-08	0.01412788	0.009586262	2.738827e-07	-9.513908e-08
	8.151099e-08	-2.624337e-08	0.02393602	0.00424562	4.671459e-08	3.527282e-09	0.01366757	0.01013593
	0.01412788	0.009586262	4.671459e-08	3.527282e-09	0.02503032	0.002720218	8.582306e-08	-2.812392e-08
	2.738827e-07	-9.513908e-08	0.01366757	0.01013593	8.582306e-08	-2.812392e-08	0.02402742	0.004321224
3.5e+08	0.02651215	2.707986e-05	7.48646e-08	-4.533324e-08	0.01556707	0.008221916	2.51101e-07	-1.599174e-07
	7.48646e-08	-4.533324e-08	0.02567381	0.001671973	4.334553e-08	-6.267866e-09	0.01511814	0.008902262
	0.01556707	0.008221916	4.334553e-08	-6.267866e-09	0.02670044	-0.0001712113	7.880981e-08	-4.817344e-08
	2.51101e-07	-1.599174e-07	0.01511814	0.008902262	7.880981e-08	-4.817344e-08	0.02575765	0.001741407
3.6e+08	0.0274297	-0.00312944	6.366306e-08	-6.275446e-08	0.01661188	0.006548229	2.128643e-07	-2.189655e-07
	6.366306e-08	-6.275446e-08	0.02671535	-0.001226105	3.75148e-08	-1.519359e-08	0.01620231	0.00735716
	0.01661188	0.006548229	3.75148e-08	-1.519359e-08	0.02760671	-0.003371388	6.701458e-08	-6.645777e-08
	2.128643e-07	-2.189655e-07	0.01620231	0.00735716	6.701458e-08	-6.645777e-08	0.02678943	-0.001160608
3.7e+08	0.02754843	-0.006409735	4.833127e-08	-7.74208e-08	0.01719788	0.004669874	1.606477e-07	-2.685846e-07
	4.833127e-08	-7.74208e-08	0.02701234	-0.00427725	2.944642e-08	-2.265725e-08	0.01685501	0.005598345
	0.01719788	0.004669874	2.944642e-08	-2.265725e-08	0.02770501	-0.006692512	5.088878e-08	-8.183736e-08
	1.606477e-07	-2.685846e-07	0.01685501	0.005598345	5.088878e-08	-8.183736e-08	0.0270751	-0.004212937
3.8e+08	0.02686784	-0.009624586	2.955144e-08	-8.835394e-08	0.01728778	0.002704254	9.680525e-08	-3.05458e-07
	2.955144e-08	-8.835394e-08	0.02655689	-0.007305019	1.950635e-08	-2.812413e-08	0.01703658	0.003736488
	0.01728778	0.002704254	1.950635e-08	-2.812413e-08	0.02699564	-0.009942855	3.115228e-08	-9.328686e-08
	9.680525e-08	-3.05458e-07	0.01703658	0.003736488	3.115228e-08	-9.328686e-08	0.02660748	-0.007238776
3.9e+08	0.02543073	-0.01259081	8.236692e-09	-9.474356e-08	0.01687377	0.0007746281	2.447446e-08	-3.268582e-07
	8.236692e-09	-9.474356e-08	0.0253814	-0.01013714	8.188144e-09	-3.115133e-08	0.01673519	0.001888762
	0.01687377	0.0007746281	8.188144e-09	-3.115133e-08	0.02552286	-0.012937	8.766559e-09	-9.995782e-08
	2.447446e-08	-3.268582e-07	0.01673519	0.001888762	8.766559e-09	-9.995782e-08	0.02541976	-0.01006569
4e+08	0.0233205	-0.01514096	-1.450899e-08	-9.600153e-08	0.01597817	-0.00099716	-5.256931e-08	-3.308313e-07
	-1.450899e-08	-9.600153e-08	0.02355632	-0.01261448	-3.909609e-09	-3.141838e-08	0.01596763	0.0001719863
	0.01597817	-0.00099716	-3.909609e-09	-3.141838e-08	0.02337214	-0.01550569	-1.510701e-08	-1.012357e-07
	-5.256931e-08	-3.308313e-07	0.01596763	0.0001719863	-1.510701e-08	-1.012357e-07	0.02358326	-0.01253459
4.1e+08	0.0206564	-0.01713209	-3.744369e-08	-9.180752e-08	0.01465228	-0.002497928	-1.301015e-07	-3.163463e-07
	-3.744369e-08	-9.180752e-08	0.02118604	-0.01459926	-1.611353e-08	-2.875239e-08	0.01477849	-0.001304264
	0.01465228	-0.002497928	-1.611353e-08	-2.875239e-08	0.02066524	-0.01750477	-3.916286e-08	-9.67878e-08
	-1.301015e-07	-3.163463e-07	0.01477849	-0.001304264	-3.916286e-08	-9.67878e-08	0.02120314	-0.01450794
4.2e+08	0.01758682	-0.01845332	-5.925175e-08	-8.214248e-08	0.01297359	-0.003629959	-2.036726e-07	-2.833992e-07
	-5.925175e-08	-8.214248e-08	0.01840299	-0.01598212	-2.771186e-08	-2.314581e-08	0.01323769	-0.002444177
	0.01297359	-0.003629959	-2.771186e-08	-2.314581e-08	0.01755336	-0.01882283	-6.201878e-08	-8.659805e-08
	-2.036726e-07	-2.833992e-07	0.01323769	-0.002444177	-6.201878e-08	-8.659805e-08	0.01841259	-0.01587683
4.3e+08	0.0142811	-0.01903153	-7.861703e-08	-6.730716e-08	0.01104131	-0.004316964	-2.688578e-07	-2.330642e-07
	-7.861703e-08	-6.730716e-08	0.0153603	-0.01668761	-3.799538e-08	-1.47653e-08	0.01143648	-0.003171473
	0.01104131	-0.004316964	-3.799538e-08	-1.47653e-08	0.01420874	-0.01938698	-8.229295e-08	-7.09867e-08
	-2.688578e-07	-2.330642e-07	0.01143648	-0.003171473	-8.229295e-08	-7.09867e-08	0.01536532	-0.01656644
4.4e+08	0.0109202	-0.01883512	-9.430151e-08	-4.792271e-08	0.008970603	-0.004508817	-3.215197e-07	-1.674836e-07
	-9.430151e-08	-4.792271e-08	0.01222344	-0.01667796	-4.630055e-08	-3.950252e-09	0.009482132	-0.003434063
	0.008970603	-0.004508817	-4.630055e-08	-3.950252e-09	0.01081515	-0.01916662	-9.868673e-08	-5.061056e-08
	-3.215197e-07	-1.674836e-07	0.009482132	-0.003434063	-9.868673e-08	-5.061056e-08	0.01222724	-0.01653976
4.5e+08	0.007686749	-0.01787549	-1.052251e-07	-2.491138e-08	0.006885825	-0.004184781	-3.580693e-07	-8.979318e-08
	-1.052251e-07	-2.491138e-08	0.009161155	-0.01595467	-5.205228e-08	8.79956e-09	0.007491683	-0.003207313
	0.006885825	-0.004184781	-5.205228e-08	8.79956e-09	0.00755772	-0.01817486	-1.100685e-07	-2.644251e-08
	-3.580693e-07	-8.979318e-08	0.007491683	-0.003207313	-1.100685e-07	-2.644251e-08	0.009167343	-0.01579916
4.6e+08	0.004755029	-0.01620615	-1.105407e-07	5.434596e-10	0.004913084	-0.003354975	-3.757089e-07	-3.982454e-09
	-1.105407e-07	5.434596e-10	0.006336379	-0.01455816	-5.480338e-08	2.284727e-08	0.005584955	-0.002495679
	0.004913084	-0.003354975	-5.480338e-08	2.284727e-08	0.00461274	-0.01646755	-1.155529e-07	2.707855e-10
	-3.757089e-07	-3.982454e-09	0.005584955	-0.002495679	-1.155529e-07	2.707855e-10	0.006348557	-0.01438595
4.7e+08	0.002281423	-0.01391947	-1.097063e-07	2.706915e-08	0.003172662	-0.002059995	-3.725826e-07	8.529816e-08
	-1.097063e-07	2.706915e-08	0.003897393	-0.01256514	-5.426501e-08	3.744968e-08	0.003877418	-0.001332607
	0.003172662	-0.002059995	-5.426501e-08	3.744968e-08	0.00213797	-0.01413997	-1.145745e-07	2.808468e-08
	-3.725826e-07	8.529816e-08	0.003877418	-0.001332607	-1.145745e-07	2.808468e-08	0.00391896	-0.01237768
