!$
! Info: Touchstone file created by Circ.  Input file=Tx_12in_Rx_85ohms_TxVia_60mils_RxVia_70mils.circ
!$
# Hz S RI R 50
0	0.009711536	1.57915e-25	-6.479242e-05	7.367505e-24	8.528906e-05	1.900279e-23	-6.475515e-05	2.877803e-24
	-6.479242e-05	7.36746e-24	0.009707269	1.918378e-25	-6.482776e-05	1.185739e-23	8.441952e-05	2.364713e-23
	8.442115e-05	1.891782e-23	-6.482776e-05	1.185801e-23	0.009725274	1.596498e-25	-6.47898e-05	7.281212e-24
	-6.475515e-05	2.877077e-24	8.46891e-05	2.374853e-23	-6.478979e-05	7.279915e-24	0.009721672	1.910036e-25
1e+07	0.01216745	-0.01147908	-0.0001369325	-2.600586e-05	0.0004622	0.002252128	-1.00041e-05	-2.148237e-06
	-0.0001369325	-2.600586e-05	0.01219264	-0.01148414	-4.106011e-05	9.83225e-05	0.0004584103	0.002258245
	0.0004621844	0.002252142	-4.106011e-05	9.83225e-05	0.01222374	-0.01145862	-0.0001369334	-2.600798e-05
	-1.00041e-05	-2.148237e-06	0.000458413	0.002258243	-0.0001369334	-2.600798e-05	0.01216894	-0.01147055
2e+07	0.01088358	-0.02596885	-0.0001235715	2.878593e-05	0.001349067	0.004264308	-9.453796e-06	-1.89491e-05
	-0.0001235715	2.878593e-05	0.01085716	-0.02598226	-4.07156e-05	0.0001322735	0.001334717	0.004279662
	0.001349074	0.004264316	-4.07156e-05	0.0001322735	0.01093624	-0.02594375	-0.0001235666	2.873675e-05
	-9.453796e-06	-1.89491e-05	0.001334714	0.004279663	-0.0001235666	2.873675e-05	0.01084429	-0.02594492
3e+07	0.004803607	-0.04069916	-0.0001209473	2.830581e-05	0.002682014	0.005954753	-2.426914e-05	-2.039395e-05
	-0.0001209473	2.830581e-05	0.004705414	-0.04069036	-1.943516e-05	0.0001560198	0.0026519	0.005984993
	0.002682015	0.005954753	-1.943516e-05	0.0001560198	0.004857356	-0.04066174	-0.0001209452	2.822029e-05
	-2.426914e-05	-2.039395e-05	0.0026519	0.005984995	-0.0001209452	2.822029e-05	0.004699514	-0.0406393
4e+07	-0.005168012	-0.05366529	-0.0001188346	3.332538e-05	0.004362487	0.007228155	-3.611427e-05	-1.596115e-05
	-0.0001188346	3.332538e-05	-0.005350969	-0.05360403	1.28956e-05	0.0001623729	0.004313819	0.007280848
	0.004362486	0.007228156	1.28956e-05	0.0001623729	-0.00511026	-0.05361568	-0.000118846	3.319229e-05
	-3.611427e-05	-1.596115e-05	0.00431382	0.007280849	-0.000118846	3.319229e-05	-0.005352504	-0.05354171
5e+07	-0.01819236	-0.06385476	-0.0001164313	4.107386e-05	0.006266834	0.008016118	-4.524046e-05	-7.970761e-06
	-0.0001164313	4.107386e-05	-0.01846292	-0.06370729	4.736639e-05	0.0001493773	0.006199782	0.008099791
	0.006266832	0.008016118	4.736639e-05	0.0001493773	-0.01812888	-0.06379458	-0.0001164752	4.08859e-05
	-4.524046e-05	-7.970761e-06	0.006199783	0.008099791	-0.0001164752	4.08859e-05	-0.01846238	-0.0636339
6e+07	-0.03334773	-0.07060112	-0.0001130913	5.048559e-05	0.008259352	0.008286183	-5.15689e-05	2.548283e-06
	-0.0001130913	5.048559e-05	-0.03369716	-0.07033366	7.535617e-05	0.0001179056	0.008177209	0.008409285
	0.00825935	0.008286183	7.535617e-05	0.0001179056	-0.03327785	-0.07053236	-0.0001131929	5.024344e-05
	-5.15689e-05	2.548283e-06	0.00817721	0.008409285	-0.0001131929	5.024344e-05	-0.03369593	-0.07024823
7e+07	-0.04964773	-0.07352279	-0.0001083426	6.083247e-05	0.01020377	0.008042893	-5.486256e-05	1.491871e-05
	-0.0001083426	6.083247e-05	-0.05005645	-0.07310525	8.914877e-05	7.157044e-05	0.01011281	0.0082128
	0.01020376	0.008042892	8.914877e-05	7.157044e-05	-0.0495716	-0.07344734	-0.0001085295	6.054765e-05
	-5.486256e-05	1.491871e-05	0.01011281	0.008212799	-0.0001085295	6.054765e-05	-0.05005504	-0.07300635
8e+07	-0.06608875	-0.07250491	-0.0001019066	7.146408e-05	0.0119733	0.007325256	-5.476514e-05	2.856449e-05
	-0.0001019066	7.146408e-05	-0.06652795	-0.07191385	8.258348e-05	1.625097e-05	0.01188237	0.007547363
	0.0119733	0.007325256	8.258348e-05	1.625097e-05	-0.06600709	-0.07242431	-0.0001022042	7.116011e-05
	-5.476514e-05	2.856449e-05	0.01188237	0.007547363	-0.0001022042	7.11601e-05	-0.06652612	-0.07179985
9e+07	-0.08170348	-0.06768192	-9.370367e-05	8.17752e-05	0.01345908	0.006201788	-5.072011e-05	4.294297e-05
	-9.370367e-05	8.17752e-05	-0.08213735	-0.06690287	5.116704e-05	-4.076953e-05	0.01337893	0.006478745
	0.01345908	0.006201788	5.116704e-05	-4.076953e-05	-0.08161735	-0.06759723	-9.413036e-05	8.148678e-05
	-5.072011e-05	4.294297e-05	0.01337893	0.006478745	-9.413036e-05	8.148678e-05	-0.08213408	-0.06677222
1e+08	-0.09561485	-0.05941379	-8.385721e-05	9.124913e-05	0.01457855	0.004764976	-4.070983e-05	5.790634e-05
	-8.385721e-05	9.124913e-05	-0.096003	-0.05844292	-1.247403e-05	-9.352309e-05	0.01452102	0.005096123
	0.01457855	0.004764976	-1.247403e-05	-9.352309e-05	-0.09552512	-0.0593254	-8.442102e-05	9.101938e-05
	-4.070983e-05	5.790634e-05	0.01452102	0.005096123	-8.442102e-05	9.101938e-05	-0.09599679	-0.05829451
1.1e+08	-0.1070701	-0.04822586	-7.273828e-05	9.935511e-05	0.01527284	0.003103713	-2.559375e-05	6.397827e-05
	-7.273828e-05	9.935511e-05	-0.10737	-0.04707319	-8.643597e-05	-0.0001528972	0.01524973	0.003484733
	0.01527284	0.003103713	-8.643597e-05	-0.0001528972	-0.1069777	-0.04813531	-7.343049e-05	9.922907e-05
	-2.559375e-05	6.397827e-05	0.01524973	0.003484733	-7.343049e-05	9.922907e-05	-0.1073583	-0.04690524
1.2e+08	-0.1154626	-0.03483354	-6.046486e-05	0.0001058405	0.01549593	0.001343899	-1.267626e-05	6.666231e-05
	-6.046486e-05	0.0001058405	-0.115636	-0.03352006	-0.0001675247	-0.0001855693	0.01551801	0.001766925
	0.01549593	0.001343898	-0.0001675247	-0.0001855693	-0.1153696	-0.03474084	-6.125776e-05	0.000105862
	-1.267626e-05	6.666231e-05	0.01551801	0.001766926	-6.125776e-05	0.000105862	-0.1156149	-0.03333291
1.3e+08	-0.1203998	-0.02004572	-4.746507e-05	0.0001105217	0.01524917	-0.0003957031	-1.875001e-06	6.700563e-05
	-4.746507e-05	0.0001105217	-0.1204139	-0.0186035	-0.0002553554	-0.0001913522	0.01532513	5.817778e-05
	0.01524917	-0.0003957032	-0.0002553554	-0.0001913522	-0.1203076	-0.01995027	-4.831682e-05	0.0001107254
	-1.875001e-06	6.700563e-05	0.01532513	5.817879e-05	-4.831682e-05	0.0001107254	-0.1203797	-0.0183989
1.4e+08	-0.1216878	-0.004726856	-3.412766e-05	0.0001133433	0.01455744	-0.002003458	3.600544e-06	6.606819e-05
	-3.412766e-05	0.0001133433	-0.1215187	-0.003197528	-0.0003432687	-0.0001694061	0.0146929	-0.00153255
	0.01455744	-0.002003458	-0.0003432687	-0.0001694061	-0.1215976	-0.004627704	-3.498566e-05	0.0001137484
	3.600544e-06	6.606819e-05	0.0146929	-0.001532549	-3.498566e-05	0.0001137484	-0.1214684	-0.002978415
1.5e+08	-0.1193387	0.0102476	-2.088438e-05	0.0001143118	0.01346913	-0.00337805	9.322926e-06	6.469839e-05
	-2.088438e-05	0.0001143118	-0.1189737	0.01181533	-0.0004237608	-0.0001208805	0.0136659	-0.002905739
	0.01346913	-0.00337805	-0.0004237608	-0.0001208805	-0.1192511	0.01035155	-2.169155e-05	0.0001149204
	9.322926e-06	6.469839e-05	0.0136659	-0.002905738	-2.169155e-05	0.0001149204	-0.1189052	0.012045
1.6e+08	-0.1135651	0.02403647	-8.082779e-06	0.0001135778	0.01205353	-0.004432548	1.512491e-05	6.280026e-05
	-8.082779e-06	0.0001135778	-0.1130051	0.02559	-0.0004897466	-4.914575e-05	0.01230909	-0.003975175
	0.01205353	-0.004432548	-0.0004897466	-4.914575e-05	-0.1134804	0.02414637	-8.783147e-06	0.0001143731
	1.512491e-05	6.280026e-05	0.01230909	-0.003975174	-8.783147e-06	0.0001143731	-0.1129174	0.02582555
1.7e+08	-0.1047663	0.03587575	4.004197e-06	0.0001113696	0.01039753	-0.005098105	2.086579e-05	6.032745e-05
	4.004197e-06	0.0001113696	-0.1040267	0.03736229	-0.0005354245	4.045682e-05	0.01070482	-0.004671515
	0.01039753	-0.005098105	-0.0005354245	4.045682e-05	-0.1046846	0.03599271	3.45874e-06	0.0001123172
	2.086579e-05	6.032745e-05	0.01070482	-0.004671514	3.45874e-06	0.0001123172	-0.1039201	0.03759863
1.8e+08	-0.09350585	0.04511776	1.51951e-05	0.0001079661	0.008601841	-0.005327282	2.642257e-05	5.726864e-05
	1.51951e-05	0.0001079661	-0.09261658	0.04648826	-0.000556903	0.0001411359	0.008949375	-0.004945563
	0.008601841	-0.005327282	-0.000556903	0.0001411359	-0.0934267	0.04524276	1.483868e-05	0.0001090174
	2.642257e-05	5.726864e-05	0.008949375	-0.004945562	1.483868e-05	0.0001090174	-0.09249284	0.04672031
1.9e+08	-0.0804814	0.05126502	2.540969e-05	0.0001036654	0.006776474	-0.005096945	3.168704e-05	5.363887e-05
	2.540969e-05	0.0001036654	-0.07948591	0.05247815	-0.0005525895	0.0002453516	0.007148849	-0.004771213
	0.006776474	-0.005096945	-0.0005525895	0.0002453516	-0.08040429	0.05139889	2.525794e-05	0.0001047636
	3.168704e-05	5.363887e-05	0.007148849	-0.004771213	2.525794e-05	0.0001047636	-0.07934836	0.05270126
2e+08	-0.06648764	0.05399757	3.466908e-05	9.875006e-05	0.005035468	-0.004410518	3.656497e-05	4.94733e-05
	3.466908e-05	9.875006e-05	-0.06544096	0.05502344	-0.0005233116	0.0003456073	0.005414147	-0.004147848
	0.005035468	-0.004410518	-0.0005233116	0.0003456073	-0.06641185	0.05414092	3.471702e-05	9.983724e-05
	3.656497e-05	4.94733e-05	0.005414148	-0.004147848	3.471702e-05	9.983724e-05	-0.06529423	0.05523378
2.1e+08	-0.0523734	0.05319197	4.30843e-05	9.345177e-05	0.003490693	-0.003299255	4.097578e-05	4.482274e-05
	4.30843e-05	9.345177e-05	-0.05133903	0.05401529	-0.0004721598	0.0004352468	0.003855102	-0.003101828
	0.003490693	-0.003299255	-0.0004721598	0.0004352468	-0.0522981	0.05334518	4.330709e-05	9.447701e-05
	4.097578e-05	4.482274e-05	0.003855102	-0.003101828	4.330709e-05	9.447701e-05	-0.05118888	0.05421026
2.2e+08	-0.03899433	0.0489305	5.083142e-05	8.792039e-05	0.00224496	-0.001822056	4.485268e-05	3.974995e-05
	5.083142e-05	8.792039e-05	-0.03804033	0.04955289	-0.0004040625	0.0005091557	0.002573789	-0.001686609
	0.00224496	-0.001822056	-0.0004040625	0.0005091557	-0.03891865	0.04909369	5.118821e-05	8.884689e-05
	4.485268e-05	3.974995e-05	0.002573789	-0.001686609	5.118821e-05	8.884689e-05	-0.03789332	0.04973144
2.3e+08	-0.02716346	0.041499	5.811449e-05	8.220295e-05	0.001384771	-6.341202e-05	4.814274e-05	3.432661e-05
	5.811449e-05	8.220295e-05	-0.02635789	0.04194031	-0.0003251367	0.0005642806	0.001657436	1.896165e-05
	0.001384771	-6.341203e-05	-0.0003251367	0.0005642806	-0.02708655	0.041672	5.855487e-05	8.301352e-05
	4.814274e-05	3.432661e-05	0.001657436	1.89616e-05	5.855487e-05	8.301352e-05	-0.02622094	0.04210312
2.4e+08	-0.01760245	0.0313726	6.512055e-05	7.623858e-05	0.0009733747	0.001870831	5.080724e-05	2.863088e-05
	6.512055e-05	7.623858e-05	-0.01700844	0.03167093	-0.0002418816	0.0005998924	0.001171504	0.001914489
	0.0009733748	0.001870831	-0.0002418816	0.0005998924	-0.0175236	0.03155502	6.559299e-05	7.69383e-05
	5.080724e-05	2.863088e-05	0.001171504	0.001914489	6.559299e-05	7.69383e-05	-0.01688838	0.03182057
2.5e+08	-0.01089677	0.01918915	7.197343e-05	6.987317e-05	0.001044889	0.003859917	5.282178e-05	2.274417e-05
	7.197343e-05	6.987317e-05	-0.0105676	0.01939951	-0.0001603313	0.0006175378	0.001153767	0.003884085
	0.001044889	0.003859917	-0.0001603313	0.0006175378	-0.01081546	0.01938038	7.24344e-05	7.048859e-05
	5.282178e-05	2.274417e-05	0.001153767	0.003884085	7.24344e-05	7.048859e-05	-0.01047063	0.01954038
2.6e+08	-0.007458281	0.005711371	7.869649e-05	6.289358e-05	0.00160036	0.005776524	5.417604e-05	1.674834e-05
	7.869649e-05	6.289358e-05	-0.007432826	0.00590301	-8.526844e-05	0.0006206854	0.001610202	0.005804331
	0.00160036	0.005776524	-8.526844e-05	0.0006206854	-0.007374243	0.00591069	7.911884e-05	6.346829e-05
	5.417604e-05	1.674834e-05	0.001610202	0.005804331	7.911884e-05	6.346829e-05	-0.00736406	0.006041223
2.7e+08	-0.00749845	-0.008220161	8.519239e-05	5.507675e-05	0.002606445	0.00749632	5.487256e-05	1.072259e-05
	8.519239e-05	5.507675e-05	-0.007797408	-0.007967668	-1.963112e-05	0.0006141011	0.002513418	0.007553505
	0.002606445	0.00749632	-1.963112e-05	0.0006141011	-0.007411727	-0.008013511	8.557165e-05	5.566377e-05
	5.487256e-05	1.072259e-05	0.002513418	0.007553505	8.557165e-05	5.566377e-05	-0.007760394	-0.007824614
2.8e+08	-0.0110147	-0.02174	9.124668e-05	4.624434e-05	0.003997159	0.008907777	5.492504e-05	4.74124e-06
	9.124668e-05	4.624434e-05	-0.01163792	-0.02134168	3.581595e-05	0.0006030447	0.003804049	0.009021125
	0.003997159	0.008907777	3.581595e-05	0.0006030447	-0.01092564	-0.02152669	9.160395e-05	4.689631e-05
	5.492504e-05	4.74124e-06	0.003804049	0.009021125	9.160395e-05	4.689631e-05	-0.01163427	-0.0211853
2.9e+08	-0.01779132	-0.03401281	9.655478e-05	3.631149e-05	0.00567866	0.009921116	5.435568e-05	-1.128044e-06
	9.655478e-05	3.631149e-05	-0.01871651	-0.03338387	8.246991e-05	0.0005924042	0.005395133	0.01011674
	0.00567866	0.009921116	8.246991e-05	0.0005924042	-0.01770051	-0.03379329	9.693566e-05	3.707019e-05
	5.435568e-05	-1.128044e-06	0.005395133	0.01011674	9.693566e-05	3.707019e-05	-0.01874563	-0.03320521
3e+08	-0.02741487	-0.04428601	0.0001007683	2.531941e-05	0.007536649	0.01047536	5.319245e-05	-6.824654e-06
	0.0001007683	2.531941e-05	-0.02859788	-0.04334774	0.0001235439	0.0005859113	0.007179049	0.01077689
	0.007536649	0.01047536	0.0001235439	0.0005859113	-0.02732311	-0.04406047	0.0001012377	2.620612e-05
	5.319245e-05	-6.824654e-06	0.007179049	0.01077689	0.0001012377	2.620612e-05	-0.02865686	-0.04313795
3.1e+08	-0.03930295	-0.05193611	0.0001035057	1.345985e-05	0.009445517	0.01054267	5.146711e-05	-1.229454e-05
	0.0001035057	1.345985e-05	-0.04067955	-0.05062154	0.0001683156	0.0005817639	0.0090362	0.01096957
	0.009445517	0.01054267	0.0001683156	0.0005817639	-0.03921105	-0.05170436	0.0001041379	1.446711e-05
	5.146711e-05	-1.229454e-05	0.0090362	0.01096957	0.0001041379	1.446711e-05	-0.0407632	-0.05037248
3.2e+08	-0.05274344	-0.05650517	0.000104461	1.054452e-06	0.01127821	0.01012967	4.921338e-05	-1.748823e-05
	0.000104461	1.054452e-06	-0.05423269	-0.0547642	0.0002243875	0.0005740188	0.01084442	0.01069565
	0.01127821	0.01012967	0.0002243875	0.0005740188	-0.05265214	-0.05626669	0.0001053287	2.143059e-06
	4.921338e-05	-1.748823e-05	0.01084442	0.01069565	0.0001053287	2.143059e-06	-0.05433372	-0.05446903
3.3e+08	-0.06694109	-0.05772534	0.0001035605	-1.154309e-05	0.01291568	0.009275634	4.646748e-05	-2.235982e-05
	0.0001035605	-1.154309e-05	-0.06844992	-0.05552875	0.0002851589	0.0005675744	0.01248805	0.009987486
	0.01291568	0.009275634	0.0002851589	0.0005675744	-0.06685093	-0.05747925	0.0001047259	-1.044013e-05
	4.646748e-05	-2.235982e-05	0.01248805	0.009987486	0.0001047259	-1.044013e-05	-0.06855929	-0.05518253
3.4e+08	-0.08106753	-0.05553027	0.0001007613	-2.391149e-05	0.01425503	0.008048246	4.326759e-05	-2.686675e-05
	0.0001007613	-2.391149e-05	-0.08249626	-0.05287257	0.0003537161	0.0005591099	0.01386574	0.008904975
	0.01425503	0.008048246	0.0003537161	0.0005591099	-0.0809787	-0.05527543	0.0001022631	-2.288605e-05
	4.326759e-05	-2.686675e-05	0.01386574	0.008904975	0.0001022631	-2.288605e-05	-0.08260369	-0.05247268
3.5e+08	-0.09431102	-0.05005351	9.615277e-05	-3.563706e-05	0.01521567	0.006537438	3.965608e-05	-3.097028e-05
	9.615277e-05	-3.563706e-05	-0.09555949	-0.04695427	0.0004315054	0.0005440857	0.01489648	0.007529959
	0.01521567	0.006537438	0.0004315054	0.0005440857	-0.09422328	-0.0497887	9.799801e-05	-3.479704e-05
	3.965608e-05	-3.097028e-05	0.01489648	0.007529959	9.799801e-05	-3.479704e-05	-0.09565408	-0.04650067
3.6e+08	-0.1059228	-0.04161529	8.994077e-05	-4.635801e-05	0.01574329	0.00484828	3.567849e-05	-3.463525e-05
	8.994077e-05	-4.635801e-05	-0.1068967	-0.03811892	0.0005180022	0.000517428	0.01552343	0.005959605
	0.01574329	0.00484828	0.0005180022	0.000517428	-0.1058355	-0.04133934	9.209927e-05	-4.58151e-05
	3.567849e-05	-3.463525e-05	0.01552343	0.005959605	9.209927e-05	-4.58151e-05	-0.1069676	-0.03761427
3.7e+08	-0.1152577	-0.03069935	8.241805e-05	-5.579668e-05	0.01581157	0.003093629	3.13835e-05	-3.783073e-05
	8.241805e-05	-5.579668e-05	-0.1158747	-0.02687321	0.0006106369	0.0004742955	0.01571579	0.004299595
	0.01581157	0.003093629	0.0006106369	0.0004742955	-0.1151697	-0.03041129	8.482234e-05	-5.565337e-05
	3.13835e-05	-3.783073e-05	0.01571579	0.004299595	8.482234e-05	-5.565337e-05	-0.1159117	-0.02632292
3.8e+08	-0.1218067	-0.01792201	7.392925e-05	-6.377829e-05	0.01542209	0.00138718	2.682262e-05	-4.053112e-05
	7.392925e-05	-6.377829e-05	-0.122002	-0.01385317	0.0007049941	0.0004108034	0.01546889	0.002657672
	0.01542209	0.00138718	0.0007049941	0.0004108034	-0.1217166	-0.01762122	7.647877e-05	-6.411527e-05
	2.682262e-05	-4.053112e-05	0.01546889	0.002657672	7.647877e-05	-6.411527e-05	-0.1219964	-0.0132651
3.9e+08	-0.1252217	-0.003995881	6.48345e-05	-7.023606e-05	0.01460276	-0.000162733	2.20492e-05	-4.271662e-05
	6.48345e-05	-7.023606e-05	-0.1249524	0.0002135244	0.0007952407	0.0003246251	0.01480297	0.001137863
	0.01460276	-0.000162733	0.0007952407	0.0003246251	-0.1251279	-0.003682144	6.740401e-05	-7.11016e-05
	2.20492e-05	-4.271662e-05	0.01480297	0.001137863	6.740401e-05	-7.11016e-05	-0.1248976	0.0008293568
4e+08	-0.1253306	0.01030991	5.54764e-05	-7.520516e-05	0.01340522	-0.001458426	1.711724e-05	-4.437317e-05
	5.54764e-05	-7.520516e-05	-0.1245796	0.01454822	0.0008747252	0.0002154124	0.01376101	-0.0001644731
	0.01340522	-0.001458426	0.0008747252	0.0002154124	-0.1252314	0.01063633	5.792768e-05	-7.660794e-05
	1.711724e-05	-4.437317e-05	0.01376101	-0.000164473	5.792768e-05	-7.660794e-05	-0.1244712	0.01518023
4.1e+08	-0.1221438	0.02421085	4.615218e-05	-7.88087e-05	0.01190156	-0.002417268	1.208055e-05	-4.549186e-05
	4.615218e-05	-7.88087e-05	-0.1209214	0.02836323	0.0009366761	8.498932e-05	0.01240599	-0.001166847
	0.01190156	-0.002417268	0.0009366761	8.498932e-05	-0.1220375	0.02454921	4.834767e-05	-8.07149e-05
	1.208055e-05	-4.549186e-05	0.01240599	-0.001166847	4.834767e-05	-8.07149e-05	-0.1207582	0.02899889
4.2e+08	-0.1158521	0.03694803	3.709171e-05	-8.123774e-05	0.01018059	-0.002975321	6.992286e-06	-4.606807e-05
	3.709171e-05	-8.123774e-05	-0.1141967	0.04090327	0.0009749229	-6.269109e-05	0.01081768	-0.001803198
	0.01018059	-0.002975321	0.0009749229	-6.269109e-05	-0.1157373	0.03729715	3.890859e-05	-8.35729e-05
	6.992286e-06	-4.606807e-05	0.01081768	-0.001803198	3.890859e-05	-8.35729e-05	-0.1139805	0.04152983
4.3e+08	-0.1068158	0.04782763	2.844189e-05	-8.272686e-05	0.008343675	-0.003090338	1.905225e-06	-4.610058e-05
	2.844189e-05	-8.272686e-05	-0.1047928	0.05148491	0.0009845673	-0.0002218176	0.009089064	-0.002026951
	0.008343675	-0.003090338	0.0009845673	-0.0002218176	-0.1066914	0.04818594	2.978492e-05	-8.538253e-05
	1.905225e-06	-4.610058e-05	0.009089064	-0.002026951	2.978492e-05	-8.538253e-05	-0.1045285	0.05209016
4.4e+08	-0.09554671	0.05625733	2.025737e-05	-8.352603e-05	0.006500144	-0.00274416	-3.127444e-06	-4.559115e-05
	2.025737e-05	-8.352603e-05	-0.09324553	0.05953271	0.0009625351	-0.0003851982	0.007322243	-0.001813609
	0.006500144	-0.00274416	0.0009625351	-0.0003851982	-0.09541195	0.05662296	2.10689e-05	-8.63705e-05
	-3.127444e-06	-4.559115e-05	0.007322243	-0.001813609	2.10689e-05	-8.63705e-05	-0.09294112	0.06010579
4.5e+08	-0.08268132	0.06177837	1.249949e-05	-8.386962e-05	0.004762141	-0.001944451	-8.051137e-06	-4.454491e-05
	1.249949e-05	-8.386962e-05	-0.08021148	0.06461064	0.0009079512	-0.0005448944	0.005623791	-0.001162805
	0.004762141	-0.001944451	0.0009079512	-0.0005448944	-0.08253593	0.06214928	1.276538e-05	-8.676173e-05
	-8.051137e-06	-4.454491e-05	0.005623791	-0.001162805	1.276538e-05	-8.676173e-05	-0.07987745	0.0651427
4.6e+08	-0.06894865	0.06409181	5.044809e-06	-8.39442e-05	0.003238864	-0.0007255502	-1.28091e-05	-4.297146e-05
	5.044809e-06	-8.39442e-05	-0.06643381	0.06644722	0.0008222911	-0.0006929537	0.004099363	-9.957386e-05
	0.003238864	-0.0007255502	0.0008222911	-0.0006929537	-0.06879285	0.06446589	4.795234e-06	-8.674857e-05
	-1.28091e-05	-4.297146e-05	0.004099363	-9.957386e-05	4.795234e-06	-8.674857e-05	-0.06608275	0.06693211
4.7e+08	-0.05513135	0.06307733	-2.294438e-06	-8.385816e-05	0.002030263	0.0008518758	-1.73423e-05	-4.088657e-05
	-2.294438e-06	-8.385816e-05	-0.0527025	0.06495295	0.0007092875	-0.0008221623	0.002847682	0.001325482
	0.002030263	0.0008518758	0.0007092875	-0.0008221623	-0.05496587	0.06345249	-2.989586e-06	-8.646014e-05
	-1.73423e-05	-4.088657e-05	0.002847682	0.001325482	-2.989586e-06	-8.646014e-05	-0.05234845	0.06538765
4.8e+08	-0.04202283	0.05880313	-9.738299e-06	-8.361858e-05	0.00122043	0.002702738	-2.159036e-05	-3.831427e-05
