!$
! Info: Touchstone file created by Circ.  Input file=Tx_16in_Rx_85ohms_TxVia_60mils_RxVia_70mils.circ
!$
# Hz S RI R 50
0	0.01285496	2.237602e-25	3.040392e-08	4.982652e-26	0.0001085251	2.809023e-23	6.468505e-08	1.178244e-26
	3.040391e-08	4.982629e-26	0.01285029	2.440225e-25	6.258691e-08	1.618678e-25	0.0001052989	3.135502e-23
	0.0001097506	2.729168e-23	6.258692e-08	1.618667e-25	0.01286544	2.218841e-25	2.358335e-08	6.648034e-26
	6.468507e-08	1.178276e-26	0.0001055683	3.148947e-23	2.358365e-08	6.648592e-26	0.0128646	2.429765e-25
1e+07	0.01542018	-0.01595969	5.57049e-08	8.833467e-08	0.000716326	0.002874909	1.681145e-07	2.444322e-07
	5.57049e-08	8.833468e-08	0.01540239	-0.01595667	7.513233e-08	2.893707e-07	0.0007105348	0.00287703
	0.000716396	0.002874876	7.513233e-08	2.893707e-07	0.01538557	-0.01594282	4.6894e-08	1.24501e-07
	1.681145e-07	2.444322e-07	0.0007105378	0.002877028	4.6894e-08	1.24501e-07	0.01536661	-0.01593927
2e+07	0.01130928	-0.03535661	9.977227e-08	1.428965e-07	0.002172231	0.005285995	3.916086e-07	3.16246e-07
	9.977228e-08	1.428965e-07	0.0112416	-0.03533481	1.039498e-07	5.024182e-07	0.002150657	0.005296143
	0.002172215	0.005285958	1.039497e-07	5.024182e-07	0.01129439	-0.03531144	1.049206e-07	1.622676e-07
	3.916086e-07	3.16246e-07	0.002150654	0.005296143	1.049206e-07	1.622676e-07	0.01122203	-0.03528759
3e+07	-0.0004937278	-0.05342864	1.475737e-07	1.726545e-07	0.004284336	0.007032082	6.459975e-07	2.610639e-07
	1.475737e-07	1.726545e-07	-0.0006333712	-0.05335614	1.065575e-07	7.276975e-07	0.004240883	0.007060421
	0.004284332	0.007032081	1.065575e-07	7.276975e-07	-0.0004927048	-0.05337153	1.615101e-07	1.9083e-07
	6.459975e-07	2.610639e-07	0.004240883	0.007060423	1.615101e-07	1.9083e-07	-0.0006417828	-0.05329304
4e+07	-0.01790982	-0.0668549	1.888372e-07	1.780993e-07	0.006785014	0.007950006	8.745772e-07	7.272744e-08
	1.888372e-07	1.780993e-07	-0.01812663	-0.06669153	9.797532e-08	9.664561e-07	0.006718908	0.008009074
	0.00678502	0.007950005	9.797533e-08	9.664561e-07	-0.01789586	-0.0667918	2.071755e-07	1.963032e-07
	8.745772e-07	7.272744e-08	0.006718909	0.008009075	2.071755e-07	1.963032e-07	-0.01812719	-0.06661592
5e+07	-0.03872592	-0.07405008	2.139178e-07	1.629976e-07	0.009367713	0.007978598	1.020827e-06	-2.345592e-07
	2.139178e-07	1.629976e-07	-0.03900587	-0.0737548	8.603948e-08	1.219245e-06	0.009284166	0.008080741
	0.009367716	0.007978596	8.603948e-08	1.219245e-06	-0.03870245	-0.07398417	2.344652e-07	1.803554e-07
	1.020827e-06	-2.345592e-07	0.009284167	0.008080741	2.344652e-07	1.803554e-07	-0.03900098	-0.07366692
6e+07	-0.06057775	-0.07435746	2.144204e-07	1.3496e-07	0.01173317	0.00716507	1.033951e-06	-6.232233e-07
	2.144204e-07	1.3496e-07	-0.06088849	-0.07389715	7.931669e-08	1.486531e-06	0.01164284	0.007319917
	0.01173317	0.007165073	7.931669e-08	1.486531e-06	-0.06054806	-0.07428994	2.349733e-07	1.50565e-07
	1.033951e-06	-6.232233e-07	0.01164284	0.007319917	2.349733e-07	1.50565e-07	-0.06087895	-0.07379598
7e+07	-0.08115389	-0.06794164	1.853208e-07	1.047848e-07	0.01362639	0.005649752	8.807116e-07	-1.03556e-06
	1.853208e-07	1.047848e-07	-0.08144963	-0.06729829	8.614529e-08	1.765537e-06	0.0135439	0.005862138
	0.01362639	0.005649759	8.614529e-08	1.765537e-06	-0.08112059	-0.06787238	2.03344e-07	1.183643e-07
	8.807116e-07	-1.03556e-06	0.0135439	0.005862138	2.03344e-07	1.183643e-07	-0.08143478	-0.06718271
8e+07	-0.09840871	-0.05567968	1.26184e-07	8.488196e-08	0.01486145	0.003640371	5.528296e-07	-1.40257e-06
	1.26184e-07	8.488194e-08	-0.09863726	-0.05485473	1.131108e-07	2.049916e-06	0.01480331	0.003908964
	0.01486145	0.003640378	1.131108e-07	2.049916e-06	-0.0983736	-0.05560778	1.390105e-07	9.712931e-08
	5.528296e-07	-1.40257e-06	0.01480331	0.003908964	1.390105e-07	9.712931e-08	-0.09861534	-0.05472417
9e+07	-0.1107391	-0.03901261	4.155412e-08	8.731282e-08	0.015334	0.001382878	6.972772e-08	-1.654642e-06
	4.15541e-08	8.73128e-08	-0.1108497	-0.03802839	1.635042e-07	2.33064e-06	0.01531604	0.001699684
	0.015334	0.001382882	1.635042e-07	2.33064e-06	-0.1107031	-0.03893685	4.676829e-08	1.00038e-07
	6.972773e-08	-1.654642e-06	0.01531604	0.001699684	4.676829e-08	1.00038e-07	-0.1108182	-0.03788334
1e+08	-0.1171108	-0.01976614	-5.950702e-08	1.218573e-07	0.01502602	-0.0008659419	-5.229619e-07	-1.732075e-06
	-5.950702e-08	1.218573e-07	-0.117062	-0.01866452	2.363238e-07	2.597716e-06	0.01506084	-0.0005151117
	0.01502602	-0.0008659419	2.363238e-07	2.597716e-06	-0.1170743	-0.01968549	-6.359513e-08	1.379625e-07
	-5.229619e-07	-1.732075e-06	0.01506084	-0.0005151117	-6.359513e-08	1.379625e-07	-0.1170188	-0.01850685
1.1e+08	-0.1171042	6.696181e-05	-1.650818e-07	1.942016e-07	0.0139855	-0.002881121	-1.15931e-06	-1.600066e-06
	-1.650818e-07	1.942016e-07	-0.1168698	0.001228227	3.229137e-07	2.845525e-06	0.01408007	-0.00251522
	0.0139855	-0.002881121	3.229137e-07	2.845525e-06	-0.1170664	0.0001548181	-1.786952e-07	2.172243e-07
	-1.15931e-06	-1.600066e-06	0.01408007	-0.00251522	-1.786952e-07	2.172243e-07	-0.1168122	0.001396537
1.2e+08	-0.1109358	0.01845197	-2.609973e-07	3.061359e-07	0.01232295	-0.00443109	-1.763668e-06	-1.238949e-06
	-2.609973e-07	3.061359e-07	-0.1105121	0.01960589	4.166866e-07	3.067102e-06	0.01247711	-0.004071536
	0.01232295	-0.00443109	4.166866e-07	3.067102e-06	-0.1108945	0.01854671	-2.833802e-07	3.396417e-07
	-1.763668e-06	-1.238949e-06	0.01247711	-0.004071536	-2.833802e-07	3.396417e-07	-0.110438	0.01977984
1.3e+08	-0.09944201	0.03356637	-3.329204e-07	4.540831e-07	0.01022331	-0.005348275	-2.253322e-06	-6.596614e-07
	-3.329204e-07	4.540831e-07	-0.09885013	0.03464488	5.073347e-07	3.260851e-06	0.01042896	-0.00501629
	0.01022331	-0.005348275	5.073347e-07	3.260851e-06	-0.09939592	0.03366676	-3.620487e-07	5.014073e-07
	-2.253322e-06	-6.596614e-07	0.01042896	-0.005016289	-3.620487e-07	5.014073e-07	-0.09875998	0.03481855
1.4e+08	-0.08396472	0.04394538	-3.680182e-07	6.294284e-07	0.007909216	-0.005527323	-2.549921e-06	9.751012e-08
	-3.680182e-07	6.294284e-07	-0.08325059	0.04488842	5.846882e-07	3.429378e-06	0.008150545	-0.005241009
	0.007909216	-0.005527323	5.846882e-07	3.429378e-06	-0.08391325	0.04404962	-4.006692e-07	6.932356e-07
	-2.549921e-06	9.751012e-08	0.008150544	-0.005241008	-4.006692e-07	6.932356e-07	-0.0831472	0.04505596
1.5e+08	-0.06622564	0.04861561	-3.566617e-07	8.191296e-07	0.005627014	-0.004934678	-2.589637e-06	9.644253e-07
	-3.566617e-07	8.191296e-07	-0.06545677	0.04938	6.403993e-07	3.578927e-06	0.005881787	-0.004706281
	0.005627014	-0.004934677	6.403993e-07	3.578927e-06	-0.06616907	0.0487216	-3.886343e-07	9.009823e-07
	-2.589637e-06	9.644253e-07	0.005881786	-0.00470628	-3.886343e-07	9.009823e-07	-0.06534532	0.04953655
1.6e+08	-0.04816181	0.04718992	-2.939092e-07	1.006876e-06	0.003625856	-0.003615672	-2.333121e-06	1.850112e-06
	-2.939092e-07	1.006876e-06	-0.04742096	0.04775703	6.690776e-07	3.718175e-06	0.003867632	-0.003449373
	0.003625856	-0.003615672	6.690776e-07	3.718175e-06	-0.04810133	0.04729567	-3.204072e-07	1.106867e-06
	-2.333121e-06	1.850112e-06	0.003867632	-0.003449372	-3.204072e-07	1.106867e-06	-0.04730853	0.04789963
1.7e+08	-0.03173507	0.03991142	-1.806046e-07	1.174746e-06	0.002132514	-0.001695664	-1.773928e-06	2.649547e-06
	-1.806046e-07	1.174746e-06	-0.03111114	0.04029236	6.68695e-07	3.856828e-06	0.002333604	-0.001586214
	0.002132514	-0.001695664	6.68695e-07	3.856828e-06	-0.03167271	0.04001539	-1.9677e-07	1.291264e-06
	-1.773928e-06	2.649547e-06	0.002333604	-0.001586213	-1.9677e-07	1.291264e-06	-0.03100598	0.04042059
1.8e+08	-0.01873064	0.02763645	-2.391231e-08	1.305243e-06	0.001324184	0.0006277923	-9.43783e-07	3.255836e-06
	-2.391231e-08	1.305243e-06	-0.01830791	0.0278739	6.403538e-07	4.004405e-06	0.00145901	0.0006953499
	0.001324184	0.0006277924	6.403538e-07	4.004405e-06	-0.01866912	0.02773786	-2.54599e-08	1.434945e-06
	-9.43783e-07	3.255836e-06	0.00145901	0.0006953502	-2.54599e-08	1.434945e-06	-0.01821848	0.02799033
1.9e+08	-0.01056568	0.01175156	1.628661e-07	1.383551e-06	0.001303362	0.003103609	8.68934e-08	3.574614e-06
	1.628661e-07	1.383551e-06	-0.01041251	0.01191763	5.877311e-07	4.169489e-06	0.001351846	0.003153031
	0.001303362	0.003103609	5.877311e-07	4.169489e-06	-0.01050808	0.01185065	1.789992e-07	1.52158e-06
	8.68934e-08	3.574614e-06	0.001351846	0.003153031	1.789992e-07	1.52158e-06	-0.0103464	0.01202787
2e+08	-0.008131721	-0.005972024	3.612941e-07	1.399722e-06	0.002080176	0.005456111	1.214269e-06	3.538583e-06
	3.612941e-07	1.399722e-06	-0.008290265	-0.005782058	5.165736e-07	4.359392e-06	0.002030738	0.005517866
	0.002080176	0.005456111	5.165736e-07	4.359392e-06	-0.008081087	-0.005873866	3.963955e-07	1.540192e-06
	1.214269e-06	3.538583e-06	0.002030738	0.005517866	3.963955e-07	1.540192e-06	-0.008253078	-0.005669727
2.1e+08	-0.0116938	-0.02357294	5.496216e-07	1.350503e-06	0.003567105	0.007420609	2.312174e-06	3.119608e-06
	5.496216e-07	1.350503e-06	-0.0121723	-0.02325045	4.344778e-07	4.579995e-06	0.003418853	0.007528784
	0.003567105	0.007420609	4.344778e-07	4.579995e-06	-0.01165275	-0.02347316	6.028593e-07	1.487189e-06
	2.312174e-06	3.119608e-06	0.003418853	0.007528784	6.028593e-07	1.487189e-06	-0.01216675	-0.02312578
2.2e+08	-0.02086295	-0.03911941	7.052919e-07	1.240457e-06	0.005588714	0.00877939	3.247667e-06	2.335873e-06
	7.052919e-07	1.240457e-06	-0.02163184	-0.03855477	3.509111e-07	4.835375e-06	0.005352498	0.008967887
	0.005588714	0.00877939	3.509111e-07	4.835375e-06	-0.02083323	-0.03901444	7.736606e-07	1.367593e-06
	3.247667e-06	2.335873e-06	0.005352498	0.008967887	7.736606e-07	1.367593e-06	-0.02165708	-0.03840662
2.3e+08	-0.03464722	-0.0509248	8.078457e-07	1.082101e-06	0.007905445	0.009391053	3.898627e-06	1.252445e-06
	8.078457e-07	1.082101e-06	-0.0356398	-0.05002074	2.771513e-07	5.127032e-06	0.007603547	0.009689509
	0.007905445	0.009391053	2.771513e-07	5.127032e-06	-0.03462929	-0.05081042	8.864253e-07	1.195153e-06
	3.898627e-06	1.252445e-06	0.007603547	0.009689509	8.864253e-07	1.195153e-06	-0.03569115	-0.04983833
2.4e+08	-0.0515735	-0.05772989	8.417998e-07	8.94905e-07	0.01024693	0.009207509	4.170382e-06	-2.507414e-08
	8.417998e-07	8.94905e-07	-0.05269137	-0.056414	2.257246e-07	5.452789e-06	0.009911321	0.009637435
	0.01024693	0.009207509	2.257246e-07	5.452789e-06	-0.05156632	-0.05760166	9.242888e-07	9.911919e-07
	4.170382e-06	-2.507414e-08	0.009911321	0.009637435	9.242888e-07	9.911919e-07	-0.0527605	-0.05618826
2.5e+08	-0.06986131	-0.0588288	7.990224e-07	7.032126e-07	0.01234812	0.00827611	4.008621e-06	-1.362673e-06
	7.990224e-07	7.032126e-07	-0.07098393	-0.05706365	2.090636e-07	5.805799e-06	0.01201742	0.008847744
	0.01234812	0.00827611	2.090636e-07	5.805799e-06	-0.06986223	-0.05868263	8.784537e-07	7.822841e-07
	4.008621e-06	-1.362673e-06	0.01201742	0.008847744	8.784537e-07	7.822841e-07	-0.07105952	-0.05678845
2.6e+08	-0.08762285	-0.05412628	6.801807e-07	5.333575e-07	0.01398159	0.006728037	3.406775e-06	-2.613652e-06
	6.801807e-07	5.333575e-07	-0.08862018	-0.05191579	2.374531e-07	6.174199e-06	0.01369701	0.00743837
	0.01398159	0.006728037	2.374531e-07	6.174199e-06	-0.08762781	-0.05395903	7.497071e-07	5.970929e-07
	3.406775e-06	-2.613652e-06	0.01369701	0.00743837	7.497071e-07	5.970929e-07	-0.08868903	-0.05158891
2.7e+08	-0.1030631	-0.04412572	4.950062e-07	4.104248e-07	0.01498114	0.00475697	2.407289e-06	-3.635428e-06
	4.950062e-07	4.104248e-07	-0.1038098	-0.04151693	3.167015e-07	6.541868e-06	0.0147819	0.005589237
	0.01498114	0.00475697	3.167015e-07	6.541868e-06	-0.103067	-0.04393569	5.486496e-07	4.628654e-07
	2.407289e-06	-3.635428e-06	0.0147819	0.005589237	5.486496e-07	4.628654e-07	-0.1038582	-0.04114064
2.8e+08	-0.1146576	-0.02985628	2.613601e-07	3.551594e-07	0.01525491	0.002593163	1.097326e-06	-4.305155e-06
	2.613601e-07	3.551594e-07	-0.1150472	-0.02693641	4.462088e-07	6.890391e-06	0.01517362	0.003517935
	0.01525491	0.002593163	4.462088e-07	6.890391e-06	-0.1146547	-0.0296436	2.946469e-07	4.02126e-07
	1.097326e-06	-4.305155e-06	0.01517362	0.003517935	2.946469e-07	4.02126e-07	-0.1150624	-0.0265175
2.9e+08	-0.1212925	-0.01275373	3.290322e-09	3.814582e-07	0.01478871	0.0004775167	-3.99912e-07	-4.532648e-06
	3.290322e-09	3.814582e-07	-0.12125	-0.009642618	6.18079e-07	7.201932e-06	0.01484732	0.001455315
	0.01478871	0.0004775167	6.18079e-07	7.201932e-06	-0.1212773	-0.01252043	1.373082e-08	4.300123e-07
	-3.99912e-07	-4.532648e-06	0.01484732	0.001455315	1.373082e-08	4.300123e-07	-0.1212219	-0.009191964
3e+08	-0.122359	0.005489185	-2.51582e-07	4.94723e-07	0.01364182	-0.00136144	-1.93685e-06	-4.269813e-06
	-2.51582e-07	4.94723e-07	-0.1218506	0.008650313	8.1767e-07	7.462364e-06	0.01384862	-0.0003762604
	0.01364182	-0.00136144	8.1767e-07	7.462364e-06	-0.1223268	0.005739229	-2.641883e-07	5.525271e-07
	-1.93685e-06	-4.269813e-06	0.01384862	-0.0003762604	-2.641883e-07	5.525271e-07	-0.1217728	0.009118707
3.1e+08	-0.1177985	0.02308758	-4.749827e-07	6.911799e-07	0.01193798	-0.002726596	-3.355061e-06	-3.516384e-06
	-4.749827e-07	6.911799e-07	-0.1168373	0.02615009	1.025573e-06	7.663914e-06	0.01228597	-0.001781113
	0.01193798	-0.002726596	1.025573e-06	7.663914e-06	-0.1177459	0.02334897	-5.084221e-07	7.657953e-07
	-3.355061e-06	-3.516384e-06	0.01228597	-0.001781113	-5.084221e-07	7.657953e-07	-0.1167082	0.02662045
3.2e+08	-0.1081001	0.03833157	-6.408901e-07	9.581239e-07	0.009853272	-0.003467608	-4.4998e-06	-2.321919e-06
	-6.408901e-07	9.581239e-07	-0.1067475	0.04115489	1.22061e-06	7.80665e-06	0.01032015	-0.002605242
	0.009853272	-0.003467608	1.22061e-06	7.80665e-06	-0.1080257	0.0385979	-6.905993e-07	1.056284e-06
	-4.4998e-06	-2.321919e-06	0.01032015	-0.002605242	-6.905993e-07	1.056284e-06	-0.1065707	0.04161124
3.3e+08	-0.09425225	0.0497447	-7.281949e-07	1.274985e-06	0.007601625	-0.003493228	-5.23493e-06	-7.839714e-07
	-7.281949e-07	1.274985e-06	-0.09261389	0.05221175	1.383158e-06	7.898457e-06	0.008151524	-0.002748841
	0.007601624	-0.003493228	1.383158e-06	7.898457e-06	-0.09415674	0.05000929	-7.875254e-07	1.401877e-06
	-5.23493e-06	-7.839714e-07	0.008151524	-0.002748841	-7.875254e-07	1.401877e-06	-0.09239827	0.05263975
3.4e+08	-0.07765222	0.05622357	-7.229282e-07	1.615099e-06	0.005417713	-0.002780801	-5.457578e-06	9.578861e-07
	-7.229282e-07	1.615099e-06	-0.07586952	0.05825467	1.498043e-06	7.953585e-06	0.006004364	-0.00217651
	0.005417713	-0.002780801	1.498043e-06	7.953585e-06	-0.0775385	0.05648016	-7.836344e-07	1.773699e-06
	-5.457578e-06	9.578861e-07	0.006004364	-0.00217651	-7.836344e-07	1.773699e-06	-0.07562841	0.05864329
3.5e+08	-0.05997719	0.0571478	-6.199444e-07	1.948036e-06	0.003536613	-0.00138208	-5.111475e-06	2.732564e-06
	-6.199444e-07	1.948036e-06	-0.05821426	0.05871159	1.556348e-06	7.990171e-06	0.004107832	-0.000924243
	0.003536613	-0.00138208	1.556348e-06	7.990171e-06	-0.0598501	0.05739121	-6.729153e-07	2.138581e-06
	-5.111475e-06	2.732564e-06	0.004107832	-0.000924243	-6.729153e-07	2.138581e-06	-0.05796426	0.0590544
3.6e+08	-0.04302496	0.05244974	-4.239304e-07	2.242379e-06	0.002170412	0.0005765406	-4.19742e-06	4.35263e-06
	-4.239304e-07	2.242379e-06	-0.04145217	0.05356958	1.555898e-06	8.027475e-06	0.0026734	0.0008987986
	0.002170412	0.0005765406	1.555898e-06	8.027475e-06	-0.04289095	0.05267644	-4.601111e-07	2.462081e-06
	-4.19742e-06	4.35263e-06	0.0026734	0.0008987986	-4.601111e-07	2.462081e-06	-0.04121161	0.05386575
3.7e+08	-0.02853529	0.04263316	-1.496094e-07	2.468821e-06	0.001483319	0.002901684	-2.77889e-06	5.6336e-06
	-1.496094e-07	2.468821e-06	-0.02731098	0.04338798	1.500535e-06	8.083503e-06	0.001870299	0.003116194
	0.001483319	0.002901684	1.500535e-06	8.083503e-06	-0.0284018	0.0428418	-1.610458e-07	2.711902e-06
	-2.77889e-06	5.6336e-06	0.001870299	0.003116194	-1.610458e-07	2.711902e-06	-0.02709799	0.04364274
3.8e+08	-0.01800833	0.02873373	1.789944e-07	2.603364e-06	0.00156859	0.005350218	-9.807781e-07	6.415727e-06
	1.789944e-07	2.603364e-06	-0.01726061	0.0292527	1.398706e-06	8.173537e-06	0.00180221	0.005499661
	0.00156859	0.005350218	1.398706e-06	8.173537e-06	-0.01788314	0.0289254	1.981182e-07	2.861485e-06
	-9.807781e-07	6.415727e-06	0.00180221	0.005499661	1.981182e-07	2.861485e-06	-0.01709117	0.02947708
3.9e+08	-0.01254077	0.01221965	5.303374e-07	2.630354e-06	0.002431844	0.007655832	1.020093e-06	6.585524e-06
	5.303374e-07	2.630354e-06	-0.01235145	0.01267067	1.262038e-06	8.309594e-06	0.002489753	0.007793927
	0.002431844	0.007655832	1.262038e-06	8.309594e-06	-0.01243113	0.01239796	5.828361e-07	2.893432e-06
	1.020093e-06	6.585524e-06	0.002489753	0.007793927	5.828361e-07	2.893432e-06	-0.01223749	0.0128807
4e+08	-0.01270119	-0.005160683	8.682092e-07	2.544984e-06	0.003985284	0.009562146	3.012685e-06	6.093471e-06
	8.682092e-07	2.544984e-06	-0.01309415	-0.004587615	1.104416e-06	8.500474e-06	0.00386335	0.009748418
	0.003985284	0.009562146	1.104416e-06	8.500474e-06	-0.01261309	-0.004989791	9.533686e-07	2.802318e-06
	3.012685e-06	6.093471e-06	0.00386335	0.009748418	9.533686e-07	2.802318e-06	-0.01304204	-0.004372414
4.1e+08	-0.01846368	-0.02156762	1.155525e-06	2.35482e-06	0.006055699	0.01085708	4.775909e-06	4.964394e-06
	1.155525e-06	2.35482e-06	-0.01939936	-0.02068059	9.416764e-07	8.751778e-06	0.005769412	0.01115069
	0.006055699	0.01085708	9.416764e-07	8.751778e-06	-0.01840104	-0.02139634	1.269027e-06	2.59637e-06
	4.775909e-06	4.964394e-06	0.005769412	0.01115069	1.269027e-06	2.59637e-06	-0.0194089	-0.02043912
4.2e+08	-0.02921072	-0.03527232	1.35871e-06	2.079932e-06	0.008406073	0.01140196	6.105802e-06	3.298027e-06
	1.35871e-06	2.079932e-06	-0.03058769	-0.03389877	7.915818e-07	9.065377e-06	0.007989856	0.01185523
	0.008406073	0.01140196	7.915818e-07	9.065377e-06	-0.02917483	-0.03509168	1.493043e-06	2.297554e-06
	6.105802e-06	3.298027e-06	0.007989856	0.01185523	1.493043e-06	2.297554e-06	-0.03065175	-0.03361061
4.3e+08	-0.04380573	-0.0448449	1.452102e-06	1.75135e-06	0.01076726	0.01114966	6.841342e-06	1.259124e-06
	1.452102e-06	1.75135e-06	-0.04546953	-0.04285157	6.734156e-07	9.438239e-06	0.01027161	0.01180201
	0.01076726	0.01114966	6.734156e-07	9.438239e-06	-0.04379488	-0.04464566	1.597397e-06	1.939788e-06
	6.841342e-06	1.259124e-06	0.01027161	0.01180201	1.597397e-06	1.939788e-06	-0.04557453	-0.04249918
4.4e+08	-0.06072462	-0.04930424	1.421647e-06	1.407853e-06	0.01287367	0.01014843	6.884681e-06	-9.413698e-07
	1.421647e-06	1.407853e-06	-0.06248289	-0.04661306	6.066211e-07	9.861013e-06	0.01236036	0.01102147
	0.01287367	0.01014843	6.066211e-07	9.861013e-06	-0.06073408	-0.04907794	1.5668e-06	1.565356e-06
	6.884681e-06	-9.413698e-07	0.01236036	0.01102147	1.5668e-06	1.565356e-06	-0.06260994	-0.0461839
4.5e+08	-0.07822682	-0.04821181	1.267196e-06	1.091454e-06	0.01449641	0.008531755	6.212853e-06	-3.070904e-06
	1.267196e-06	1.091454e-06	-0.07986903	-0.04481002	6.083039e-07	1.031715e-05	0.01403217	0.009626157
	0.01449641	0.008531755	6.083039e-07	1.031715e-05	-0.07824917	-0.04795172	1.401097e-06	1.219955e-06
	6.212853e-06	-3.070904e-06	0.01403217	0.009626157	1.401097e-06	1.219955e-06	-0.07999577	-0.04429806
4.6e+08	-0.09454237	-0.04170179	1.002931e-06	8.422772e-07	0.01546839	0.006497448	4.879814e-06	-4.901681e-06
	1.002931e-06	8.422772e-07	-0.09586184	-0.03764507	6.899927e-07	1.078335e-05	0.01511781	0.007792104
	0.01546839	0.006497448	6.899927e-07	1.078335e-05	-0.09456815	-0.04140381	1.115636e-06	9.471514e-07
	4.879814e-06	-4.901681e-06	0.01511781	0.007792104	1.115636e-06	9.471514e-07	-0.09596465	-0.03705172
4.7e+08	-0.108052	-0.03044965	6.558316e-07	6.936462e-07	0.01569882	0.004281009	3.009573e-06	-6.235086e-06
	6.558316e-07	6.936462e-07	-0.1088677	-0.02585791	8.545183e-07	1.123172e-05	0.01551725	0.005734583
	0.01569882	0.004281009	8.545183e-07	1.123172e-05	-0.1080707	-0.0301129	7.39555e-07	7.831389e-07
	3.009573e-06	-6.235086e-06	0.01551725	0.005734583	7.39555e-07	7.831389e-07	-0.1089243	-0.02519217
4.8e+08	-0.1174419	-0.01558861	2.624997e-07	6.681609e-07	0.0151771	0.002128237	7.823618e-07	-6.921531e-06
	2.624997e-07	6.681609e-07	-0.1176181	-0.01063506	1.094017e-06	1.163355e-05	0.01520443	0.003683013
	0.0151771	0.002128237	1.094017e-06	1.163355e-05	-0.117443	-0.01521567	3.12353e-07	7.525758e-07
