!$
! Info: Touchstone file created by Circ.  Input file=Tx_10in_Rx_100ohms_TxVia_60mils_RxVia_70mils.circ
!$
# Hz S RI R 50
0	0.0104377	1.346475e-25	-3.453553e-11	9.079749e-27	7.378966e-05	2.009416e-23	-3.182367e-09	3.950539e-25
	-3.45363e-11	9.079857e-27	0.01043322	1.646099e-25	3.745748e-11	2.161798e-27	7.350085e-05	2.542693e-23
	7.487309e-05	2.022841e-23	3.74533e-11	2.162305e-27	0.01045309	1.346587e-25	-1.403923e-11	8.116461e-27
	-3.182241e-09	3.950385e-25	7.37704e-05	2.553596e-23	-1.413298e-11	8.127892e-27	0.0104476	1.638868e-25
1e+07	0.01493455	0.006592277	5.310537e-11	1.539664e-10	0.0003137605	0.0019176	-3.991128e-09	7.955164e-09
	5.310537e-11	1.539665e-10	0.0153899	0.006624998	6.276811e-11	1.732716e-10	0.0006643306	0.001955765
	0.0003137918	0.001917605	6.276811e-11	1.732716e-10	0.01440009	0.006897632	-4.142776e-09	1.011874e-08
	-3.991128e-09	7.955164e-09	0.0006643332	0.001955763	-4.142776e-09	1.011874e-08	0.01525204	0.006648316
2e+07	0.01967889	0.009482515	4.055638e-11	2.924824e-10	0.0009028734	0.003777854	-7.702099e-11	-3.912306e-11
	4.055639e-11	2.924824e-10	0.02004974	0.009375293	6.086602e-11	3.1907e-10	0.001125361	0.003990166
	0.0009028881	0.003777835	6.086602e-11	3.190701e-10	0.01958909	0.01014619	8.089202e-11	6.224413e-10
	-7.702098e-11	-3.912306e-11	0.001125358	0.003990166	8.089203e-11	6.224412e-10	0.01996024	0.009468844
3e+07	0.02383659	0.01037251	-2.572464e-12	4.404678e-10	0.00184116	0.005431028	-7.394332e-12	4.915614e-10
	-2.572463e-12	4.404678e-10	0.02412325	0.01022539	2.779023e-11	4.682218e-10	0.001966136	0.005704142
	0.001841161	0.005431025	2.779023e-11	4.682218e-10	0.02409426	0.01107812	1.869777e-11	5.242526e-10
	-7.394334e-12	4.915614e-10	0.001966136	0.005704144	1.869776e-11	5.242526e-10	0.02407534	0.01034514
4e+07	0.02762636	0.01015583	-6.193686e-11	5.993569e-10	0.003080139	0.006836526	-5.376615e-11	6.978203e-10
	-6.193686e-11	5.993569e-10	0.02782534	0.01000282	-2.604461e-11	6.239235e-10	0.003148442	0.007141791
	0.003080143	0.006836531	-2.604462e-11	6.239235e-10	0.0281649	0.01079054	-5.845572e-11	6.859559e-10
	-5.376615e-11	6.978203e-10	0.003148442	0.007141792	-5.845572e-11	6.859559e-10	0.02781519	0.01013358
5e+07	0.03104562	0.009076251	-1.371285e-10	7.796769e-10	0.00456002	0.007943827	-1.389114e-10	8.973237e-10
	-1.371285e-10	7.796769e-10	0.03115483	0.008943089	-9.954429e-11	7.973917e-10	0.004725278	0.008187993
	0.004560023	0.007943829	-9.954429e-11	7.973917e-10	0.0318029	0.009570119	-1.44586e-10	8.957575e-10
	-1.389114e-10	8.973237e-10	0.004725279	0.008187993	-1.44586e-10	8.957575e-10	0.03117813	0.009074907
6e+07	0.0340414	0.007281246	-2.214764e-10	9.885209e-10	0.006212512	0.008713544	-2.381651e-10	1.129592e-09
	-2.214764e-10	9.885209e-10	0.03406391	0.007192524	-1.874898e-10	9.963341e-10	0.006438711	0.00888176
	0.006212508	0.008713543	-1.874898e-10	9.963341e-10	0.03495533	0.007587779	-2.400546e-10	1.138786e-09
	-2.381651e-10	1.129592e-09	0.006438713	0.00888176	-2.400546e-10	1.138786e-09	0.03411592	0.007317988
7e+07	0.03654824	0.004892356	-3.064197e-10	1.230051e-09	0.007976864	0.009108332	-3.347761e-10	1.402739e-09
	-3.064198e-10	1.230051e-09	0.03649191	0.004870563	-2.836957e-10	1.225332e-09	0.00821743	0.00920704
	0.007976852	0.009108332	-2.836957e-10	1.225332e-09	0.03755591	0.004982139	-3.391426e-10	1.417806e-09
	-3.347761e-10	1.402739e-09	0.008217431	0.009207039	-3.391426e-10	1.417806e-09	0.03656727	0.004983901
8e+07	0.03850411	0.002026898	-3.815448e-10	1.506086e-09	0.009759322	0.009128444	-4.141865e-10	1.71648e-09
	-3.815448e-10	1.506086e-09	0.038381	0.002091868	-3.79115e-10	1.488337e-09	0.00998688	0.009160791
	0.009759306	0.009128446	-3.79115e-10	1.488337e-09	0.03954158	0.001884394	-4.324227e-10	1.73656e-09
	-4.141865e-10	1.71648e-09	0.009986881	0.00916079	-4.324227e-10	1.73656e-09	0.03847357	0.002188795
9e+07	0.03985909	-0.001195079	-4.347661e-10	1.816064e-09	0.01148227	0.008781618	-4.625849e-10	2.066498e-09
	-4.347661e-10	1.816064e-09	0.03968538	-0.001026387	-4.628924e-10	1.787803e-09	0.01167193	0.008753836
	0.01148226	0.008781622	-4.628924e-10	1.787803e-09	0.04085973	-0.001574406	-5.065251e-10	2.097872e-09
	-4.625849e-10	2.066498e-09	0.01167193	0.008753835	-5.065251e-10	2.097872e-09	0.03978834	-0.000948708
1e+08	0.04059241	-0.004643636	-4.521943e-10	2.158809e-09	0.01307666	0.008092163	-4.655844e-10	2.448198e-09
	-4.521943e-10	2.158809e-09	0.04038963	-0.004356772	-5.254486e-10	2.128482e-09	0.01319422	0.008007863
	0.01307666	0.008092163	-5.254486e-10	2.128482e-09	0.04146582	-0.005265139	-5.443177e-10	2.50589e-09
	-4.655844e-10	2.448198e-09	0.01319422	0.008007863	-5.443177e-10	2.50589e-09	0.04049413	-0.004300488
1.1e+08	0.04068333	-0.008279487	-4.129187e-10	2.505185e-09	0.01447421	0.007071253	-4.164189e-10	2.833888e-09
	-4.129187e-10	2.505185e-09	0.04047814	-0.007875353	-5.238985e-10	2.494237e-09	0.01448894	0.007004095
	0.01447421	0.007071253	-5.238985e-10	2.494237e-09	0.04134614	-0.008999822	-4.99874e-10	2.918407e-09
	-4.164189e-10	2.833888e-09	0.01448893	0.007004095	-4.99874e-10	2.918407e-09	0.04057589	-0.007831531
1.2e+08	0.04005736	-0.01191829	-3.400399e-10	2.842589e-09	0.01559371	0.005786774	-3.393976e-10	3.203385e-09
	-3.400399e-10	2.842589e-09	0.03986729	-0.01139668	-4.812171e-10	2.842247e-09	0.01553901	0.00576626
	0.01559371	0.005786774	-4.812171e-10	2.842247e-09	0.04055358	-0.01268183	-4.161911e-10	3.314016e-09
	-3.393976e-10	3.203385e-09	0.01553901	0.005766261	-4.161911e-10	3.314016e-09	0.0399589	-0.01136196
1.3e+08	0.03875491	-0.01541872	-2.478699e-10	3.162647e-09	0.01639429	0.004305153	-2.350408e-10	3.560232e-09
	-2.478699e-10	3.162647e-09	0.03860013	-0.01478244	-4.092049e-10	3.169052e-09	0.01629229	0.0043456
	0.01639429	0.004305153	-4.092049e-10	3.169052e-09	0.03910366	-0.01619461	-3.121383e-10	3.683997e-09
	-2.350408e-10	3.560232e-09	0.01629229	0.004345601	-3.121383e-10	3.683997e-09	0.03868457	-0.01475464
1.4e+08	0.03682388	-0.01865729	-1.213467e-10	3.473101e-09	0.01684467	0.002697557	-9.282947e-11	3.906173e-09
	-1.213467e-10	3.473101e-09	0.03672456	-0.01791372	-3.057256e-10	3.49085e-09	0.01671578	0.002806458
	0.01684467	0.002697556	-3.057256e-10	3.49085e-09	0.03704078	-0.01942224	-1.693323e-10	4.043753e-09
	-9.282947e-11	3.906173e-09	0.01671577	0.002806459	-1.693323e-10	4.043753e-09	0.03680077	-0.01789071
1.5e+08	0.03433015	-0.02152302	3.776521e-11	3.765825e-09	0.01692807	0.001039607	8.529267e-11	4.232313e-09
	3.776521e-11	3.765825e-09	0.0343051	-0.02068423	-1.716183e-10	3.799965e-09	0.01679152	0.001219058
	0.01692807	0.001039607	-1.716183e-10	3.799965e-09	0.03442999	-0.02225844	1.03377e-11	4.384016e-09
	8.529267e-11	4.232313e-09	0.01679151	0.001219059	1.03377e-11	4.384016e-09	0.03437225	-0.02066378
1.6e+08	0.0313568	-0.02391965	2.259732e-10	4.033237e-09	0.01664328	-0.0005914592	2.954796e-10	4.530319e-09
	2.259732e-10	4.033237e-09	0.03142222	-0.02300219	-9.425059e-12	4.089247e-09	0.01651678	-0.0003440288
	0.01664328	-0.0005914594	-9.425059e-12	4.089247e-09	0.03135433	-0.0246106	2.23036e-10	4.696171e-09
	2.954796e-10	4.530319e-09	0.01651678	-0.0003440281	2.23036e-10	4.696171e-09	0.03147984	-0.022982
1.7e+08	0.0280018	-0.02576833	4.381279e-10	4.268589e-09	0.01600486	-0.002119946	5.320604e-10	4.792746e-09
	4.381279e-10	4.268589e-09	0.02817025	-0.02479257	1.767438e-10	4.352266e-09	0.01590401	-0.001811153
	0.01600486	-0.002119946	1.767438e-10	4.352266e-09	0.02791193	-0.02640292	4.630603e-10	4.972541e-09
	5.320604e-10	4.792746e-09	0.01590401	-0.001811153	4.630603e-10	4.972541e-09	0.02821828	-0.02477032
1.8e+08	0.02437498	-0.02700981	6.675983e-10	4.466278e-09	0.01504249	-0.003474864	7.877158e-10	5.013391e-09
	6.675983e-10	4.466278e-09	0.02465442	-0.02599918	3.813887e-10	4.583579e-09	0.01498023	-0.003114721
	0.01504249	-0.003474864	3.813887e-10	4.583579e-09	0.02421278	-0.02757895	7.230338e-10	5.206724e-09
	7.877158e-10	5.013391e-09	0.01498023	-0.00311472	7.230338e-10	5.206724e-09	0.02469326	-0.0259726
1.9e+08	0.02059445	-0.02760632	9.064917e-10	4.622095e-09	0.01379981	-0.004592938	1.053729e-09	5.187622e-09
	9.064917e-10	4.622095e-09	0.02098754	-0.02658622	5.97844e-10	4.778988e-09	0.01378584	-0.004194124
	0.01379981	-0.004592938	5.97844e-10	4.778988e-09	0.02037504	-0.02810351	9.941715e-10	5.393922e-09
	1.053729e-09	5.187622e-09	0.01378584	-0.004194123	9.941715e-10	5.393922e-09	0.02101801	-0.02655321
2e+08	0.01678262	-0.02754267	1.146023e-09	4.733588e-09	0.01233252	-0.00542131	1.320352e-09	5.312667e-09
	1.146023e-09	4.733588e-09	0.01728625	-0.02653929	8.185549e-10	4.935739e-09	0.01237291	-0.004998363
	0.01233252	-0.00542131	8.185549e-10	4.935739e-09	0.01652102	-0.02796385	1.266615e-09	5.531215e-09
	1.320352e-09	5.312667e-09	0.01237291	-0.004998363	1.266615e-09	5.531215e-09	0.01730959	-0.02649799
2.1e+08	0.01306206	-0.02682666	1.376846e-09	4.800203e-09	0.01070597	-0.005919804	1.577153e-09	5.387853e-09
	1.376846e-09	4.800203e-09	0.01366716	-0.0258657	1.035379e-09	5.052682e-09	0.01080295	-0.005488255
	0.01070597	-0.005919804	1.035379e-09	5.052682e-09	0.01277294	-0.02717012	1.529825e-09	5.617782e-09
	1.577153e-09	5.387853e-09	0.01080295	-0.005488255	1.529825e-09	5.617782e-09	0.01368495	-0.02581455
2.2e+08	0.009551266	-0.02548872	1.589414e-09	4.82332e-09	0.008992391	-0.006062663	1.813464e-09	5.414721e-09
	1.589414e-09	4.82332e-09	0.01024288	-0.02459401	1.239911e-09	5.130387e-09	0.009144215	-0.005638135
	0.008992391	-0.006062663	1.239911e-09	5.130387e-09	0.009248769	-0.02575494	1.773013e-09	5.655032e-09
	1.813464e-09	5.414721e-09	0.009144215	-0.005638135	1.773013e-09	5.655032e-09	0.01025699	-0.02453185
2.3e+08	0.006360581	-0.02358077	1.774399e-09	4.806336e-09	0.007267742	-0.005839654	2.018851e-09	5.397096e-09
	1.774399e-09	4.806336e-09	0.007118289	-0.02277295	1.423835e-09	5.17118e-09	0.007468813	-0.005436968
	0.007267742	-0.005839654	1.423835e-09	5.17118e-09	0.00605806	-0.02377229	1.985602e-09	5.646667e-09
	2.018851e-09	5.397096e-09	0.007468813	-0.005436968	1.985602e-09	5.646667e-09	0.007130786	-0.02269906
2.4e+08	0.003588277	-0.02117427	1.923112e-09	4.75463e-09	0.005608414	-0.00525651	2.183592e-09	5.341052e-09
	1.923112e-09	4.75463e-09	0.004386867	-0.0204696	1.579264e-09	5.179122e-09	0.005849576	-0.004888834
	0.005608414	-0.00525651	1.579264e-09	5.179122e-09	0.003298084	-0.02129554	2.1577e-09	5.598642e-09
	2.183592e-09	5.341052e-09	0.005849576	-0.004888834	2.1577e-09	5.598642e-09	0.004399915	-0.02038372
2.5e+08	0.001317153	-0.01835764	2.027905e-09	4.675436e-09	0.004087922	-0.004334673	2.299154e-09	5.254772e-09
	2.027905e-09	4.675436e-09	0.002127608	-0.0177669	1.699093e-09	5.159926e-09	0.00435692	-0.004012746
	0.004087922	-0.004334673	1.699093e-09	5.159926e-09	0.001050414	-0.01841484	2.280568e-09	5.519037e-09
	2.299154e-09	5.254772e-09	0.00435692	-0.004012746	2.280568e-09	5.519037e-09	0.00214337	-0.01766925
2.6e+08	-0.0003883908	-0.01523299	2.082561e-09	4.577641e-09	0.002773711	-0.00311035	2.358644e-09	5.148315e-09
	2.082561e-09	4.577641e-09	0.0004023038	-0.01476062	1.777326e-09	5.120815e-09	0.003055811	-0.002841831
	0.002773711	-0.00311035	1.777326e-09	5.120815e-09	-0.0006219737	-0.01523379	2.347066e-09	5.41783e-09
	2.358644e-09	5.148315e-09	0.003055811	-0.002841831	2.347066e-09	5.41783e-09	0.0004228366	-0.01465191
2.7e+08	-0.001484568	-0.01191238	2.082637e-09	4.471507e-09	0.001724231	-0.001632925	2.35722e-09	5.033281e-09
	2.082637e-09	4.471507e-09	-0.0007464901	-0.01155591	1.809386e-09	5.070314e-09	0.002002966	-0.001421883
	0.001724231	-0.001632925	1.809386e-09	5.070314e-09	-0.001676907	-0.01186572	2.352061e-09	5.306588e-09
	2.35722e-09	5.033281e-09	0.002002966	-0.001421883	2.352061e-09	5.306588e-09	-0.0007193326	-0.01143727
2.8e+08	-0.001949695	-0.008513702	2.025768e-09	4.368316e-09	0.0009864095	3.720249e-05	2.292423e-09	4.922393e-09
	2.025768e-09	4.368316e-09	-0.001296808	-0.008263481	1.792395e-09	5.017979e-09	0.001244425	0.0001906207
	0.0009864095	3.72025e-05	1.792395e-09	5.017979e-09	-0.002094464	-0.008429529	2.292773e-09	5.198057e-09
	2.292423e-09	4.922393e-09	0.001244425	0.0001906207	2.292773e-09	5.198057e-09	-0.001261462	-0.00813644
2.9e+08	-0.00178485	-0.005156357	1.911891e-09	4.279955e-09	0.0005936365	0.001831248	2.164442e-09	4.828998e-09
	1.911891e-09	4.279955e-09	-0.001247883	-0.004995589	1.725403e-09	4.974074e-09	0.0008135914	0.001930962
	0.0005936365	0.001831248	1.725403e-09	4.974074e-09	-0.001877608	-0.005045333	2.169046e-09	5.105689e-09
	2.164442e-09	4.828998e-09	0.0008135914	0.001930962	2.169046e-09	5.105689e-09	-0.001203157	-0.004861977
3e+08	-0.00101369	-0.001956884	1.743401e-09	4.218445e-09	0.0005643414	0.003675038	1.976253e-09	4.766511e-09
	1.743401e-09	4.218445e-09	-0.000619974	-0.001862025	1.609567e-09	4.949182e-09	0.0007298198	0.003728978
	0.0005643414	0.003675038	1.609567e-09	4.949182e-09	-0.001051949	-0.001830076	1.983516e-09	5.043093e-09
	1.976253e-09	4.766511e-09	0.0007298198	0.003728978	1.983516e-09	5.043093e-09	-0.0005651076	-0.001723907
3.1e+08	0.0003185861	0.0009752861	1.525201e-09	4.195431e-09	0.0009012239	0.005492216	1.733661e-09	4.747825e-09
	1.525201e-09	4.195431e-09	0.000546568	0.001033809	1.448246e-09	4.953777e-09	0.0009976229	0.005512068
	0.0009012239	0.005492216	1.448246e-09	4.953777e-09	0.0003353238	0.001106732	1.741673e-09	5.023454e-09
	1.733661e-09	4.747825e-09	0.0009976229	0.005512068	1.741673e-09	5.023454e-09	0.0006118643	0.001174238
3.2e+08	0.002147048	0.0035418	1.264649e-09	4.221651e-09	0.001591169	0.007207533	1.445194e-09	4.784707e-09
	1.264649e-09	4.221651e-09	0.002192961	0.003598547	1.247019e-09	4.99776e-09	0.001606514	0.007208298
	0.001591169	0.007207533	1.247019e-09	4.99776e-09	0.002217314	0.003666984	1.451795e-09	5.058921e-09
	1.445194e-09	4.784707e-09	0.001606514	0.007208298	1.451795e-09	5.058921e-09	0.002268487	0.003739067
3.3e+08	0.004389593	0.005658905	9.71392e-10	4.306414e-09	0.002605837	0.008750077	1.121881e-09	4.887216e-09
	9.71392e-10	4.306414e-09	0.00424432	0.005752117	1.013595e-09	5.08998e-09	0.002531489	0.008749457
	0.002605837	0.008750077	1.013595e-09	5.08998e-09	0.004510024	0.005767494	1.12475e-09	5.160011e-09
	1.121881e-09	4.887216e-09	0.002531489	0.008749457	1.12475e-09	5.160011e-09	0.004329384	0.005890589
3.4e+08	0.006950116	0.007260411	6.570835e-10	4.457099e-09	0.003902901	0.01005629	7.768945e-10	5.063162e-09
	6.570835e-10	4.457099e-09	0.006612537	0.007430475	7.576167e-10	5.237761e-09	0.003734122	0.01007393
	0.003902901	0.01005629	7.576167e-10	5.237761e-09	0.007115581	0.007342954	7.736609e-10	5.335047e-09
	7.768945e-10	5.063162e-09	0.003734122	0.01007393	7.736609e-10	5.335047e-09	0.00670599	0.007564944
3.5e+08	0.00972218	0.008299964	3.349867e-10	4.678718e-09	0.005427873	0.01107267	4.250758e-10	5.317656e-09
	3.349867e-10	4.678718e-09	0.009199632	0.008587727	4.903538e-10	5.446469e-09	0.005164216	0.0111293
	0.005427873	0.01107267	4.903538e-10	5.446469e-09	0.009925957	0.008348189	4.134538e-10	5.589667e-09
	4.250758e-10	5.317656e-09	0.005164216	0.0111293	4.134538e-10	5.589667e-09	0.009299908	0.00871652
3.6e+08	0.01259304	0.008752582	1.946348e-11	4.973554e-09	0.007116423	0.01175801	8.235076e-11	5.652741e-09
	1.946348e-11	4.973554e-09	0.01190141	0.009197564	2.242926e-10	5.719136e-09	0.006761939	0.01187451
	0.007116423	0.01175801	2.242926e-10	5.719136e-09	0.01282705	0.00875965	6.028432e-11	5.926427e-09
	8.235076e-11	5.652741e-09	0.006761939	0.01187451	6.028432e-11	5.926427e-09	0.0120066	0.009319374
3.7e+08	0.01544786	0.00861537	-2.745591e-10	5.340933e-09	0.008897111	0.01208518	-2.348827e-10	6.067194e-09
	-2.745591e-10	5.340933e-09	0.01461131	0.009253971	-2.736401e-11	6.05618e-09	0.008460348	0.01228157
	0.008897111	0.01208518	-2.736401e-11	6.05618e-09	0.01570293	0.008576098	-2.691137e-10	6.344543e-09
	-2.348827e-10	6.067194e-09	0.008460348	0.01228157	-2.691137e-10	6.344543e-09	0.01471924	0.009367927
3.8e+08	0.01817401	0.007907414	-5.322585e-10	5.77708e-09	0.01069439	0.01204219	-5.104749e-10	6.556413e-09
	-5.322585e-10	5.77708e-09	0.01722431	0.008771188	-2.512667e-10	6.45524e-09	0.01018819	0.01233674
	0.01069439	0.01204219	-2.512667e-10	6.45524e-09	0.01844018	0.007818451	-5.58143e-10	6.839763e-09
	-5.104749e-10	6.556413e-09	0.01018819	0.01233674	-5.58143e-10	6.839763e-09	0.01733263	0.008876904
3.9e+08	0.02066515	0.006668875	-7.395672e-10	6.275153e-09	0.01243179	0.01163277	-7.292236e-10	7.112487e-09
	-7.395672e-10	6.275153e-09	0.01964069	0.00778294	-4.345271e-10	6.911135e-09	0.01187289	0.01204106
	0.01243179	0.01163277	-4.345271e-10	6.911135e-09	0.02093205	0.006528814	-7.910775e-10	7.404409e-09
	-7.292236e-10	7.112487e-09	0.01187289	0.01204106	-7.910775e-10	7.404409e-09	0.019747	0.007880547
4e+08	0.02282518	0.004959294	-8.838205e-10	6.825406e-09	0.01403511	0.01087623	-8.775565e-10	7.724413e-09
	-8.838205e-10	6.825406e-09	0.0217696	0.006340977	-5.653314e-10	7.415974e-09	0.01344353	0.01141031
	0.01403511	0.01087623	-5.653314e-10	7.415974e-09	0.02308235	0.004768734	-9.537839e-10	8.027573e-09
	-8.775565e-10	7.724413e-09	0.01344353	0.01141031	-9.537839e-10	8.027573e-09	0.02187156	0.006431123
4.1e+08	0.02457167	0.002855231	-9.543659e-10	7.415499e-09	0.01543551	0.009806623	-9.441616e-10	8.378453e-09
	-9.543659e-10	7.415499e-09	0.02353226	0.004512967	-6.335253e-10	7.959399e-09	0.01483383	0.01047437
	0.01543551	0.009806623	-6.335253e-10	7.959399e-09	0.02480894	0.002616758	-1.034391e-09	8.695474e-09
	-9.441616e-10	8.378453e-09	0.01483383	0.01047437	-1.034391e-09	8.695474e-09	0.02362768	0.004596805
4.2e+08	0.02583881	0.0004472469	-9.430947e-10	8.030938e-09	0.01657243	0.00847144	-9.205328e-10	9.058614e-09
	-9.430947e-10	8.030938e-09	0.02486467	0.002379851	-6.311354e-10	8.528958e-09	0.01598488	0.009276049
	0.01657243	0.00847144	-6.311354e-10	8.528958e-09	0.02604667	0.0001653678	-1.023874e-09	9.39195e-09
	-9.205328e-10	9.058614e-09	0.01598488	0.009276049	-1.023874e-09	9.39195e-09	0.02495163	0.002458995
4.3e+08	0.02657975	-0.002163548	-8.448729e-10	8.655622e-09	0.01739615	0.006929641	-8.014072e-10	9.747246e-09
	-8.448729e-10	8.655622e-09	0.0257198	3.274034e-05	-5.527967e-10	9.110594e-09	0.01684761	0.007869266
	0.01739615	0.006929641	-5.527967e-10	9.110594e-09	0.0267497	-0.002482559	-9.165199e-10	1.009907e-08
	-8.014072e-10	9.747246e-09	0.01684761	0.007869266	-9.165199e-10	1.009907e-08	0.02579674	0.0001092097
4.4e+08	0.02676818	-0.004869376	-6.57846e-10	9.272474e-09	0.01786985	0.005249259	-5.850732e-10	1.042571e-08
	-6.57846e-10	9.272474e-09	0.0260691	-0.00243052	-3.960638e-10	9.689219e-09	0.01738484	0.006316915
	0.01786985	0.005249259	-3.960638e-10	9.689219e-09	0.02689305	-0.005217675	-7.10262e-10	1.079785e-08
	-5.850732e-10	1.042571e-08	0.01738484	0.006316915	-7.10262e-10	1.079785e-08	0.02613491	-0.002354392
4.5e+08	0.02639919	-0.007559844	-3.836056e-10	9.864126e-09	0.01797131	0.003504619	-2.735387e-10	1.107508e-08
	-3.836056e-10	9.864126e-09	0.02590339	-0.004909017	-1.615886e-10	1.024933e-08	0.01757287	0.004688272
	0.01797131	0.003504619	-1.615886e-10	1.024933e-08	0.02647342	-0.007928294	-4.068535e-10	1.146895e-08
	-2.735387e-10	1.107508e-08	0.01757287	0.004688272	-4.068535e-10	1.146895e-08	0.02595748	-0.004830672
4.6e+08	0.02548932	-0.01012613	-2.72075e-11	1.041362e-08	0.01769386	0.001773269	1.274496e-10	1.167694e-08
	-2.72075e-11	1.041362e-08	0.02523302	-0.007302503	1.467909e-10	1.077575e-08	0.01740252	0.003056161
	0.01769386	0.001773269	1.467909e-10	1.077575e-08	0.02550918	-0.01050461	-1.193797e-11	1.209362e-08
	1.274496e-10	1.167694e-08	0.01740252	0.003056161	-1.193797e-11	1.209362e-08	0.02527532	-0.007219272
4.7e+08	0.02407579	-0.01246505	4.029575e-10	1.090511e-08	0.0170468	0.0001327664	6.085408e-10	1.221405e-08
	4.029575e-10	1.090511e-08	0.02408726	-0.009515103	5.221708e-10	1.125435e-08	0.01687962	0.001493952
	0.0170468	0.0001327664	5.221708e-10	1.125435e-08	0.02403956	-0.01284283	4.651192e-10	1.26545e-08
	6.085408e-10	1.221405e-08	0.01687962	0.001493952	4.651192e-10	1.26545e-08	0.02411824	-0.009424322
4.8e+08	0.02221504	-0.01448296	8.954033e-10	1.132448e-08	0.0160551	-0.001342568	1.157018e-09	1.26711e-08
	8.954033e-10	1.132448e-08	0.02251312	-0.01145883	9.551992e-10	1.167188e-08	0.01602482	7.250786e-05
