!$
! Info: Touchstone file created by Circ.  Input file=Tx_12in_Rx_100ohms_TxVia_60mils_RxVia_70mils.circ
!$
# Hz S RI R 50
0	0.01246785	1.766569e-25	0.9873917	-1.709253e-25	8.713929e-05	2.72397e-23	-8.248674e-05	2.265243e-21
	0.9873917	-1.72843e-25	0.01246318	1.906396e-25	-8.296528e-05	2.323912e-21	8.391069e-05	3.040506e-23
	8.836461e-05	2.646533e-23	-8.227864e-05	2.239814e-21	0.01247835	1.751932e-25	0.9873702	-1.66679e-25
	-8.275472e-05	2.298051e-21	8.418012e-05	3.053544e-23	0.9873702	-1.746805e-25	0.01247751	1.898111e-25
1e+07	0.01851455	0.007494286	0.9741963	-0.1243144	0.000832798	0.00226681	-0.000582837	-0.000219602
	0.9741963	-0.1243144	0.01850707	0.007493816	-0.0005829376	-0.0002195392	0.0008289209	0.002268015
	0.0008328689	0.002266778	-0.0005829051	-0.0002195605	0.01834864	0.007524132	0.9743537	-0.124424
	-0.0005828045	-0.0002196233	0.0008289238	0.002268013	0.9743537	-0.124424	0.01834023	0.007524074
2e+07	0.02428213	0.01012449	0.947495	-0.2417901	0.001512591	0.004589878	-0.000542521	-0.0006270833
	0.947495	-0.2417901	0.0242521	0.01012754	-0.0005425483	-0.0006269885	0.001497801	0.004595376
	0.001512577	0.004589841	-0.0005425575	-0.000627007	0.02418054	0.01023677	0.947562	-0.2420597
	-0.0005425174	-0.0006271198	0.001497798	0.004595377	0.947562	-0.2420597	0.02414678	0.01024117
3e+07	0.0292617	0.0102926	0.9082109	-0.3534901	0.002697311	0.006457108	-0.0005817728	-0.0008202324
	0.9082109	-0.3534901	0.02919589	0.01030992	-0.0005818251	-0.0008201677	0.002666036	0.006472298
	0.002697307	0.006457107	-0.0005818267	-0.0008201672	0.02921705	0.01043109	0.9081771	-0.3538585
	-0.0005817754	-0.0008202358	0.002666036	0.0064723	0.9081771	-0.3538585	0.02914342	0.0104522
4e+07	0.03363329	0.009023029	0.8565908	-0.4589468	0.00430787	0.007894148	-0.0006937588	-0.0009231714
	0.8565908	-0.4589468	0.03352255	0.009069376	-0.0006938516	-0.0009230586	0.004256636	0.007926236
	0.004307876	0.007894148	-0.0006938479	-0.0009230589	0.03364092	0.009166403	0.8564437	-0.4593852
	-0.0006937499	-0.0009231673	0.004256637	0.007926237	0.8564437	-0.4593852	0.03351728	0.009220591
5e+07	0.03733149	0.006647332	0.7933055	-0.5570139	0.006353201	0.008739104	-0.0009919291	-0.0008463875
	0.7933055	-0.5570139	0.03717219	0.006740855	-0.0009920129	-0.0008461862	0.0062811	0.008796152
	0.006353204	0.008739102	-0.0009920109	-0.0008461873	0.0373851	0.006780458	0.7930348	-0.5574964
	-0.0009919229	-0.0008463878	0.006281101	0.008796152	0.7930348	-0.5574964	0.03720745	0.006888108
6e+07	0.04025233	0.003406068	0.7192383	-0.6465107	0.008490479	0.009056427	-0.00124079	-0.0007065395
	0.7192383	-0.6465107	0.04004744	0.003565741	-0.001240818	-0.0007062501	0.00839947	0.009146824
	0.008490478	0.009056428	-0.001240818	-0.0007062494	0.04034383	0.003517457	0.7188366	-0.6470118
	-0.001240795	-0.0007065377	0.008399471	0.009146824	0.7188366	-0.6470118	0.04011573	0.003699792
7e+07	0.04229612	-0.000480601	0.6354375	-0.7263189	0.01059398	0.008845253	-0.00143584	-0.0005237504
	0.6354375	-0.7263189	0.04205485	-0.00023727	-0.001435779	-0.0005233876	0.01048878	0.008976713
	0.01059397	0.008845258	-0.00143578	-0.0005233843	0.04241585	-0.000399404	0.634901	-0.7268128
	-0.001435854	-0.0005237392	0.01048878	0.008976713	0.634901	-0.7268128	0.04214779	-0.0001229618
8e+07	0.04338848	-0.004791583	0.5430879	-0.7954266	0.01253972	0.008132986	-0.001576196	-0.0003155471
	0.5430879	-0.7954266	0.04312536	-0.004450189	-0.001576018	-0.0003151293	0.01242753	0.008311749
	0.01253972	0.008132992	-0.001576018	-0.000315125	0.04352559	-0.004746101	0.5424169	-0.7958874
	-0.001576209	-0.0003155279	0.01242753	0.008311748	0.5424169	-0.7958874	0.04323387	-0.004359628
9e+07	0.04349226	-0.009301921	0.4434886	-0.8529545	0.01421225	0.006974743	-0.001663476	-9.630978e-05
	0.4434886	-0.8529545	0.04322615	-0.008852482	-0.001663157	-9.585944e-05	0.01410227	0.007204875
	0.01421225	0.006974748	-0.001663156	-9.585619e-05	0.04363501	-0.009294769	0.4426875	-0.8533564
	-0.001663482	-9.629248e-05	0.01410227	0.007204874	0.4426875	-0.8533564	0.04334068	-0.008787215
1e+08	0.04262877	-0.01378287	0.3380119	-0.8981787	0.0155046	0.005448717	-0.001691727	0.0001259658
	0.3380119	-0.8981787	0.04238157	-0.01322098	-0.001691244	0.0001264191	0.01540737	0.005731571
	0.0155046	0.005448717	-0.001691244	0.000126419	0.04276332	-0.01381424	0.3370922	-0.8984959
	-0.001691727	0.0001259657	0.01540737	0.005731571	0.3370922	-0.8984959	0.04249088	-0.0131807
1.1e+08	0.04081785	-0.0181206	0.228163	-0.9303945	0.01634997	0.00370189	-0.001679145	0.0002839444
	0.228163	-0.9303945	0.04061377	-0.01744866	-0.0016785	0.0002843145	0.01627667	0.004035676
	0.01634997	0.00370189	-0.0016785	0.0002843146	0.04093346	-0.01817734	0.2271379	-0.9306164
	-0.001679145	0.0002839445	0.01627667	0.004035677	0.2271379	-0.9306164	0.04071017	-0.01742078
1.2e+08	0.03806659	-0.02202177	0.1155867	-0.9493164	0.01673466	0.001811498	-0.001682635	0.0004214192
	0.1155867	-0.9493164	0.03792885	-0.02124879	-0.001681855	0.0004216519	0.01669598	0.002191108
	0.01673466	0.001811498	-0.001681855	0.000421652	0.0381618	-0.022098	0.114462	-0.949423
	-0.001682635	0.0004214193	0.01669598	0.002191108	0.114462	-0.949423	0.03801363	-0.02122875
1.3e+08	0.03452919	-0.02528837	0.00182755	-0.9547563	0.01662646	-0.0001076097	-0.001697217	0.0005519255
	0.00182755	-0.9547563	0.03447873	-0.02443022	-0.001696348	0.0005519773	0.0166318	0.0003096301
	0.01662646	-0.0001076095	-0.001696347	0.0005519774	0.03460116	-0.02537839	0.000615742	-0.954727
	-0.001697217	0.0005519255	0.0166318	0.0003096312	0.000615742	-0.954727	0.03455143	-0.02441444
1.4e+08	0.0303757	-0.02776647	-0.1115325	-0.9466966	0.01603132	-0.00193417	-0.001724394	0.0006861717
	-0.1115325	-0.9466966	0.03042919	-0.02684514	-0.001723496	0.000686018	0.01608787	-0.001490225
	0.01603132	-0.00193417	-0.001723496	0.0006860179	0.03042242	-0.02786402	-0.1128147	-0.9465122
	-0.001724394	0.0006861717	0.01608787	-0.001490224	-0.1128147	-0.9465122	0.03048963	-0.02683017
1.5e+08	0.02580036	-0.02934433	-0.2229159	-0.9253025	0.01498603	-0.003551781	-0.001762842	0.0008353391
	-0.2229159	-0.9253025	0.02596852	-0.02838673	-0.001761983	0.000834979	0.01509808	-0.003094181
	0.01498603	-0.003551781	-0.001761983	0.0008349789	0.02582116	-0.02944273	-0.2242481	-0.924946
	-0.001762842	0.000835339	0.01509808	-0.00309418	-0.2242481	-0.924946	0.02601708	-0.02836922
1.6e+08	0.02101419	-0.02995607	-0.3307731	-0.8909221	0.01355532	-0.004856528	-0.001807207	0.001010062
	-0.3307731	-0.8909221	0.0213004	-0.02899229	-0.001806453	0.00100952	0.01372361	-0.004399637
	0.01355532	-0.004856528	-0.001806453	0.00100952	0.02100995	-0.03004852	-0.3321318	-0.8903793
	-0.001807207	0.001010062	0.01372361	-0.004399636	-0.3321318	-0.8903793	0.02133811	-0.02896916
1.7e+08	0.01623537	-0.02958393	-0.4336056	-0.8440832	0.01182769	-0.005763515	-0.001848087	0.001218975
	-0.4336056	-0.8440832	0.01663482	-0.02864528	-0.001847489	0.001218299	0.01204906	-0.005322046
	0.01182769	-0.005763515	-0.001847489	0.001218299	0.01620859	-0.02966397	-0.4349643	-0.8433431
	-0.001848087	0.001218975	0.01204906	-0.005322046	-0.4349643	-0.8433431	0.01666332	-0.02861383
1.8e+08	0.01167894	-0.02825859	-0.529987	-0.7854865	0.009909846	-0.006212163	-0.001872724	0.001467307
	-0.529987	-0.7854865	0.01217831	-0.02737535	-0.001872312	0.001466563	0.01017718	-0.005800118
	0.009909847	-0.006212163	-0.001872312	0.001466563	0.0116337	-0.02832049	-0.5313171	-0.7845418
	-0.001872724	0.001467307	0.01017718	-0.005800118	-0.5313171	-0.7845418	0.01219982	-0.02733339
1.9e+08	0.007546472	-0.02605721	-0.6185848	-0.7159963	0.007920196	-0.006169964	-0.001866229	0.001755785
	-0.6185848	-0.7159963	0.008124237	-0.02525629	-0.001866006	0.001755046	0.008222562	-0.005799562
	0.007920196	-0.006169964	-0.001866006	0.001755045	0.007488243	-0.02609633	-0.6198559	-0.7148442
	-0.001866229	0.001755785	0.008222563	-0.005799562	-0.6198559	-0.7148442	0.008141346	-0.0252023
2e+08	0.00401623	-0.02309915	-0.6981788	-0.6366287	0.005981486	-0.005634504	-0.001813167	0.002080006
	-0.6981788	-0.6366287	0.004643548	-0.02240194	-0.001813108	0.002079341	0.006304639	-0.005315159
	0.005981486	-0.005634504	-0.001813108	0.002079341	0.003951577	-0.02311233	-0.6993595	-0.6352706
	-0.001813167	0.002080006	0.006304639	-0.005315159	-0.6993595	-0.6352706	0.004659134	-0.02233512
2.1e+08	0.001234528	-0.01953969	-0.7676801	-0.5485365	0.004213264	-0.004633592	-0.001699294	0.002430384
	-0.7676801	-0.5485365	0.001876739	-0.01896011	-0.001699344	0.002429848	0.004540389	-0.004371034
	0.004213264	-0.004633592	-0.001699344	0.002429848	0.001170726	-0.01952549	-0.7687386	-0.5469786
	-0.001699294	0.002430384	0.004540389	-0.004371034	-0.7687386	-0.5469786	0.001893728	-0.01888041
2.2e+08	-0.0006913666	-0.01556191	-0.8261463	-0.4529925	0.002724522	-0.003223525	-0.001513238	0.002792693
	-0.8261463	-0.4529925	-7.275848e-05	-0.01510487	-0.001513326	0.002792315	0.003037212	-0.003019125
	0.002724523	-0.003223525	-0.001513326	0.002792315	-0.0007467749	-0.01552078	-0.8270511	-0.4512459
	-0.001513238	0.002792693	0.003037212	-0.003019125	-0.8270511	-0.4512459	-5.156253e-05	-0.01501301
2.3e+08	-0.001698312	-0.01136712	-0.8727952	-0.3513703	0.001607021	-0.001485578	-0.001247924	0.003149145
	-0.8727952	-0.3513703	-0.001143265	-0.01102755	-0.001247967	0.003148924	0.001886421	-0.001335936
	0.001607021	-0.001485578	-0.001247967	0.003148924	-0.001737994	-0.01130145	-0.8735158	-0.3494505
	-0.001247924	0.003149145	0.001886421	-0.001335936	-0.8735158	-0.3494505	-0.001115365	-0.01092494
2.4e+08	-0.001770104	-0.007164455	-0.9070156	-0.2451235	0.000929702	0.0004790413	-0.0009015617	0.003479895
	-0.9070156	-0.2451235	-0.001317431	-0.006926921	-0.000901482	0.003479796	0.001157758	0.0005821982
	0.000929702	0.0004790412	-0.000901482	0.003479796	-0.00178743	-0.007078462	-0.9075234	-0.2430512
	-0.0009015617	0.003479895	0.001157758	0.0005821982	-0.9075234	-0.2430512	-0.001280804	-0.00681559
2.5e+08	-0.0009378172	-0.00316005	-0.9283754	-0.1357646	0.0007345456	0.002555436	-0.0004780876	0.00376479
	-0.9283754	-0.1357646	-0.000622502	-0.002999121	-0.0004778244	0.003764745	0.0008952616	0.002625033
	0.0007345456	0.002555436	-0.0004778244	0.003764745	-0.0009273153	-0.003059621	-0.9286441	-0.1335644
	-0.0004780876	0.00376479	0.0008952616	0.002625033	-0.9286441	-0.1335644	-0.0005757338	-0.00288153
2.6e+08	0.0007223058	0.0004535176	-0.9366263	-0.0248416	0.001034103	0.004622072	1.299631e-05	0.003985161
	-0.9366263	-0.0248416	0.0008716692	0.0005722698	1.347491e-05	0.003985078	0.001114732	0.004675137
	0.001034103	0.004622072	1.347492e-05	0.003985078	0.0007645447	0.000561174	-0.9366328	-0.02254256
	1.299632e-05	0.003985161	0.001114732	0.004675137	-0.9366328	-0.02254256	0.0009292928	0.0006933705
2.7e+08	0.003093316	0.003507013	-0.9317058	0.08608384	0.001810844	0.006558181	0.00055736	0.004125459
	-0.9317058	0.08608384	0.003056806	0.003625338	0.0005580486	0.004125236	0.001802923	0.006614999
	0.001810844	0.006558181	0.0005580486	0.004125236	0.003169325	0.003613768	-0.9314306	0.08844919
	0.00055736	0.004125459	0.001802923	0.006614998	-0.9314306	0.08844919	0.003125247	0.003747099
2.8e+08	0.006024109	0.005863011	-0.9137366	0.1954593	0.003018337	0.008251064	0.001137068	0.004174543
	-0.9137366	0.1954593	0.005792303	0.006027733	0.001137921	0.00417408	0.002918491	0.008334064
	0.003018337	0.008251064	0.001137921	0.00417408	0.00613384	0.005960302	-0.9131644	0.1978552
	0.001137068	0.004174543	0.002918491	0.008334064	-0.9131644	0.1978552	0.005870775	0.006147404
2.9e+08	0.009337699	0.007422597	-0.8830222	0.3017632	0.00458415	0.009602839	0.001732137	0.004126485
	-0.8830222	0.3017632	0.008912911	0.007682933	0.001733069	0.004125699	0.004394608	0.009735304
	0.00458415	0.009602839	0.001733069	0.004125699	0.009478941	0.007501961	-0.8821426	0.3041513
	0.001732137	0.004126485	0.004394608	0.009735304	-0.8821426	0.3041513	0.008999922	0.007798051
3e+08	0.01284075	0.008129989	-0.8400417	0.4035255	0.006414287	0.01053626	0.002322244	0.003980803
	-0.8400417	0.4035255	0.01223757	0.008534573	0.002323139	0.003979646	0.006143064	0.01074091
	0.006414287	0.01053626	0.002323139	0.003979646	0.01300919	0.008183602	-0.838849	0.4058655
	0.002322244	0.003980803	0.006143064	0.01074091	-0.838849	0.4058655	0.01233103	0.008643134
3.1e+08	0.01633385	0.007974844	-0.7854404	0.4993475	0.008398863	0.01099928	0.002888376	0.003742133
	-0.7854404	0.4993475	0.01557894	0.008568647	0.002889102	0.003740599	0.008059581	0.01129683
	0.008398863	0.01099928	0.002889102	0.003740599	0.01652324	0.00799604	-0.7839345	0.501598
	0.002888376	0.003742133	0.008059581	0.01129683	-0.7839345	0.501598	0.01567626	0.008669248
3.2e+08	0.01962196	0.006992165	-0.7200199	0.5879199	0.01041868	0.01096807	0.003414245	0.00341938
	-0.7200199	0.5879199	0.01875304	0.007813496	0.003414669	0.00341751	0.01003003	0.01137584
	0.01041868	0.01096807	0.003414669	0.00341751	0.01982446	0.006975902	-0.7182063	0.5900386
	0.003414245	0.00341938	0.01003003	0.01137584	-0.7182063	0.5900386	0.01885136	0.007905441
3.3e+08	0.02252454	0.005259855	-0.644726	0.668039	0.01235229	0.01044838	0.003887305	0.003024477
	-0.644726	0.668039	0.0215887	0.006337646	0.003887308	0.00302236	0.01193718	0.01097908
	0.01235229	0.01044838	0.003887308	0.00302236	0.02273112	0.005203089	-0.6426156	0.669984
	0.003887305	0.003024477	0.01193718	0.01097908	-0.6426156	0.669984	0.02168502	0.006420999
3.4e+08	0.02488473	0.00289408	-0.5606346	0.7386224	0.01408321	0.009475217	0.004299258	0.002570914
	-0.5606346	0.7386224	0.02393602	0.00424562	0.004298756	0.002568679	0.01366757	0.01013593
	0.01408321	0.009475217	0.004298756	0.002568679	0.02508571	0.002796041	-0.5582441	0.7403525
	0.004299258	0.002570914	0.01366757	0.01013593	-0.5582441	0.7403525	0.02402742	0.004321224
3.5e+08	0.02657731	4.268411e-05	-0.4689374	0.7987214	0.01550676	0.008110795	0.004646034	0.002072236
	-0.4689374	0.7987214	0.02567381	0.001671973	0.004644988	0.002070038	0.01511814	0.008902262
	0.01550676	0.008110795	0.004644988	0.002070038	0.02676289	-9.49952e-05	-0.466289	0.8001973
	0.004646034	0.002072236	0.01511814	0.008902262	-0.466289	0.8001973	0.02575765	0.001741407
3.6e+08	0.02751482	-0.003122944	-0.3709252	0.8475334	0.01653627	0.006440895	0.004927247	0.00154068
	-0.3709252	0.8475334	0.02671535	-0.001226105	0.004925674	0.001538683	0.01620231	0.00735716
	0.01653627	0.006440895	0.004925674	0.001538683	0.02767572	-0.003296228	-0.3680465	0.8487178
	0.004927247	0.00154068	0.01620231	0.00735716	-0.3680465	0.8487178	0.02678943	-0.001160608
3.7e+08	0.02765175	-0.006417168	-0.2679714	0.8844114	0.01710827	0.004569901	0.005145238	0.0009861343
	-0.2679714	0.8844114	0.02701234	-0.00427725	0.005143209	0.0009844912	0.01685501	0.005598345
	0.01710827	0.004569901	0.005143209	0.0009844912	0.02777976	-0.006619772	-0.2648953	0.8852703
	0.005145238	0.0009861343	0.01685501	0.005598345	-0.2648953	0.8852703	0.0270751	-0.004212937
3.8e+08	0.02698647	-0.00965005	-0.1615138	0.9088722	0.01718628	0.002614721	0.005303831	0.0004155336
	-0.1615138	0.9088722	0.02655689	-0.007305019	0.005301467	0.000414366	0.01703658	0.003736488
	0.01718628	0.002614721	0.005301467	0.000414366	0.02707502	-0.009873736	-0.1582779	0.9093753
	0.005303831	0.0004155336	0.01703658	0.003736488	-0.1582779	0.9093753	0.02660748	-0.007238776
3.9e+08	0.02556089	-0.01263747	-0.05303592	0.9206029	0.01676315	0.0006979437	0.005406988	-0.0001672402
	-0.05303592	0.9206029	0.0253814	-0.01013714	0.005404443	-0.0001678565	0.01673519	0.001888762
	0.01676315	0.0006979437	0.005404443	-0.0001678565	0.02560549	-0.01287247	-0.04968231	0.9207244
	0.005406988	-0.0001672402	0.01673519	0.001888762	-0.04968231	0.9207244	0.02541976	-0.01006569
4e+08	0.02345783	-0.01521085	0.05595251	0.9194653	0.01586166	-0.001059376	0.005457541	-0.00076095
	0.05595251	0.9194653	0.02355632	-0.01261448	0.005454989	-0.0007609966	0.01596763	0.0001719863
	0.01586166	-0.001059376	0.005454989	-0.0007609966	0.02345645	-0.01544641	0.05937787	0.9191843
	0.005457541	-0.00076095	0.01596763	0.0001719863	0.05937787	0.9191843	0.02358326	-0.01253459
4.1e+08	0.02079624	-0.0172261	0.1639356	0.9054983	0.01453338	-0.002544915	0.005456189	-0.001366154
	0.1639356	0.9054983	0.02118604	-0.01459926	0.005453799	-0.001365673	0.01477849	-0.001304264
	0.01453338	-0.002544915	0.005453799	-0.001365673	0.02074948	-0.01745106	0.1673834	0.9047995
	0.005456189	-0.001366154	0.01477849	-0.001304264	0.1673834	0.9047995	0.02120314	-0.01450794
4.2e+08	0.01772453	-0.01857112	0.2694116	0.8789182	0.0128558	-0.003661831	0.005400885	-0.001984037
	0.2694116	0.8789182	0.01840299	-0.01598212	0.0053988	-0.001983127	0.01323769	-0.002444177
	0.0128558	-0.003661831	0.0053988	-0.001983127	0.01763574	-0.01877462	0.27283	0.8777925
	0.005400885	-0.001984037	0.01323769	-0.002444177	0.27283	0.8777925	0.01841259	-0.01587683
4.3e+08	0.01441234	-0.01917168	0.3709139	0.8401163	0.01092795	-0.004334673	0.005286716	-0.002615081
	0.3709139	0.8401163	0.0153603	-0.01668761	0.005285035	-0.002613883	0.01143648	-0.003171473
	0.01092795	-0.004334673	0.005285035	-0.002613883	0.01428748	-0.01934378	0.3742491	0.8385613
	0.005286716	-0.002615081	0.01143648	-0.003171473	0.3742491	0.8385613	0.01536532	-0.01656644
4.4e+08	0.01104122	-0.01899521	0.4670315	0.7896549	0.008864644	-0.004514069	0.005106296	-0.003257772
	0.4670315	0.7896549	0.01222344	-0.01667796	0.005105058	-0.003256454	0.009482132	-0.003434063
	0.008864644	-0.004514069	0.005105058	-0.003256454	0.01088859	-0.01912755	0.4702288	0.7876749
	0.005106296	-0.003257772	0.009482132	-0.003434063	0.4702288	0.7876749	0.01222724	-0.01653976
4.5e+08	0.007794543	-0.01805231	0.5564293	0.7282596	0.006789679	-0.004179907	0.004850634	-0.003907518
	0.5564293	0.7282596	0.009161155	-0.01595467	0.004849815	-0.003906249	0.007491683	-0.003207313
	0.006789679	-0.004179907	0.004849815	-0.003906249	0.007624406	-0.01813866	0.5594337	0.7258659
	0.004850634	-0.003907518	0.007491683	-0.003207313	0.5594337	0.7258659	0.009167343	-0.01579916
4.6e+08	0.004847534	-0.01639593	0.6378674	0.6568097	0.004828507	-0.003342777	0.004510376	-0.004555938
	0.6378674	0.6568097	0.006336379	-0.01455816	0.004509888	-0.004554865	0.005584955	-0.002495679
	0.004828507	-0.003342777	0.004509888	-0.004554865	0.004671531	-0.01643265	0.6406249	0.6540208
	0.004510376	-0.004555938	0.005584955	-0.002495679	0.6406249	0.6540208	0.006348557	-0.01438595
4.7e+08	0.002357581	-0.0141182	0.7102198	0.5763259	0.00310067	-0.002043566	0.004077251	-0.005190643
	0.7102198	0.5763259	0.003897393	-0.01256514	0.004076957	-0.005189869	0.003877418	-0.001332607
	0.00310067	-0.002043566	0.004076957	-0.005189869	0.002188102	-0.01410444	0.7126782	0.5731678
	0.004077251	-0.005190643	0.003877418	-0.001332607	0.7126782	0.5731678	0.00391896	-0.01237768
4.8e+08	0.0004556581	-0.0113451	0.7724908	0.4879558	0.001712552	-0.0003511994	0.003545557	-0.005795551
	0.7724908	0.4879558	0.0019699	-0.01008415	0.00354529	-0.00579512	0.002473235	0.0002213267
	0.001712552	-0.0003511994	0.00354529	-0.00579512	0.0003051438	-0.01128312	0.7746004	0.4844611
	0.003545557	-0.005795551	0.002473235	0.0002213267	0.7746004	0.4844611	0.002003845	-0.00988376
4.9e+08	-0.000760775	-0.00822925	0.8238296	0.3929567	0.0007508826	0.001641331	0.002913481	-0.00635172
	0.8238296	0.3929567	0.0006503794	-0.007249276	0.002913062	-0.006351605	0.001458973	0.002081926
	0.0007508826	0.001641331	0.002913062	-0.006351605	-0.0008806049	-0.008124305	0.8255447	0.3891648
	0.002913481	-0.00635172	0.001458973	0.002081926	0.8255447	0.3891648	0.0006990523	-0.00703901
5e+08	-0.001232991	-0.004941257	0.8635429	0.2926769	0.0002774042	0.003822437	0.002184069	-0.006838618
	0.8635429	0.2926769	1.071514e-06	-0.004212593	0.002183342	-0.006838722	0.0008983421	0.00414633
	0.0002774042	0.003822437	0.002183342	-0.006838722	-0.001311857	-0.004801376	0.8648222	0.2886334
	0.002184069	-0.006838618	0.0008983421	0.00414633	0.8648222	0.2886334	6.601905e-05	-0.003996024
5.1e+08	-0.0009439555	-0.001660073	0.8911045	0.1885355	0.000325035	0.006068556	0.001365741	-0.007235674
	0.8911045	0.1885355	4.696239e-05	-0.001135588	0.001364592	-0.007235842	0.0008283177	0.006299116
