!$
! Info: Touchstone file created by Circ.  Input file=Tx_10in_Rx_93ohms_TxVia_60mils_RxVia_70mils.circ
!$
# Hz S RI R 50
0	0.009241982	1.34763e-25	-3.461115e-11	9.087165e-27	7.385834e-05	1.77785e-23	-3.190053e-09	3.959933e-25
	-3.461192e-11	9.087273e-27	0.00923751	1.647461e-25	3.755721e-11	2.147743e-27	7.356788e-05	2.249485e-23
	7.494193e-05	1.789729e-23	3.755302e-11	2.148251e-27	0.009257403	1.34774e-25	-1.406243e-11	8.117433e-27
	-3.189927e-09	3.959778e-25	7.383749e-05	2.259131e-23	-1.41564e-11	8.128892e-27	0.009251926	1.640221e-25
1e+07	0.01273731	-0.000735007	5.018523e-11	1.54765e-10	0.0003347026	0.001802989	-3.983638e-09	7.982396e-09
	5.018523e-11	1.54765e-10	0.01347761	-0.0008652435	5.594872e-11	1.67497e-10	0.0003461271	0.001951011
	0.0003347339	0.001802994	5.594872e-11	1.67497e-10	0.01370914	-0.0002833031	-4.120444e-09	1.013766e-08
	-3.983638e-09	7.982397e-09	0.0003461297	0.001951009	-4.120444e-09	1.013766e-08	0.01321593	-0.0008669104
2e+07	0.01518445	-0.00468833	3.39801e-11	2.885733e-10	0.0009656853	0.003575441	-9.717111e-11	-3.378953e-11
	3.398011e-11	2.885733e-10	0.01561236	-0.005156877	3.603248e-11	3.187785e-10	0.0008826599	0.003852507
	0.0009656996	0.003575422	3.603247e-11	3.187785e-10	0.01646379	-0.004346943	6.07265e-11	6.264276e-10
	-9.71711e-11	-3.378954e-11	0.0008826571	0.003852507	6.072651e-11	6.264276e-10	0.01541643	-0.005069622
3e+07	0.01572774	-0.010018	-2.367192e-11	4.392623e-10	0.001927277	0.005166852	-4.184424e-11	5.144052e-10
	-2.367192e-11	4.392623e-10	0.01588397	-0.01056485	-1.972913e-11	4.850766e-10	0.001835392	0.00550099
	0.001927278	0.005166849	-1.972913e-11	4.850766e-10	0.0172203	-0.009853041	-2.271435e-11	5.415908e-10
	-4.184424e-11	5.144052e-10	0.001835392	0.005500992	-2.271435e-11	5.415908e-10	0.01573551	-0.01045945
4e+07	0.014739	-0.01558537	-1.025295e-10	6.058351e-10	0.003177462	0.006515425	-1.035767e-10	7.440487e-10
	-1.025295e-10	6.058351e-10	0.01464587	-0.01611678	-9.361007e-11	6.680886e-10	0.003126344	0.006870141
	0.003177466	0.006515429	-9.361007e-11	6.680886e-10	0.01637066	-0.01564676	-1.200294e-10	7.235763e-10
	-1.035767e-10	7.440487e-10	0.003126345	0.006870142	-1.200294e-10	7.235763e-10	0.01453283	-0.01601244
5e+07	0.01241336	-0.02094148	-2.004698e-10	8.004817e-10	0.004657922	0.007566524	-2.012592e-10	9.725432e-10
	-2.004698e-10	8.004817e-10	0.01209474	-0.02138985	-1.83811e-10	8.765079e-10	0.004637148	0.00792967
	0.004657925	0.007566526	-1.83811e-10	8.765079e-10	0.01411606	-0.02125932	-2.250302e-10	9.601213e-10
	-2.012592e-10	9.725432e-10	0.004637149	0.007929671	-2.250302e-10	9.601213e-10	0.01200614	-0.02129608
6e+07	0.008931144	-0.02577617	-3.091625e-10	1.031197e-09	0.006299863	0.008279835	-3.086551e-10	1.237687e-09
	-3.091625e-10	1.031197e-09	0.008416882	-0.02608662	-2.825741e-10	1.115946e-09	0.006299894	0.008644947
	0.006299859	0.008279833	-2.825741e-10	1.115946e-09	0.01063975	-0.02636511	-3.367667e-10	1.235301e-09
	-3.086551e-10	1.237687e-09	0.006299895	0.008644947	-3.367667e-10	1.235301e-09	0.008342652	-0.02600815
7e+07	0.00448672	-0.0298539	-4.17587e-10	1.303135e-09	0.008028003	0.008630993	-4.079476e-10	1.545863e-09
	-4.17587e-10	1.303135e-09	0.003813449	-0.0299813	-3.811003e-10	1.390352e-09	0.008040147	0.008994984
	0.008027992	0.008630993	-3.811003e-10	1.390352e-09	0.006138403	-0.03071585	-4.481821e-10	1.55134e-09
	-4.079476e-10	1.545863e-09	0.008040148	0.008994984	-4.481821e-10	1.55134e-09	0.003744259	-0.02991987
8e+07	-0.0007065626	-0.03299701	-5.130322e-10	1.618385e-09	0.009764388	0.008612528	-4.844903e-10	1.894303e-09
	-5.130322e-10	1.618385e-09	-0.001495383	-0.03290504	-4.692843e-10	1.700982e-09	0.009780523	0.008974193
	0.009764373	0.008612531	-4.692843e-10	1.700982e-09	0.000827309	-0.03412336	-5.483955e-10	1.911108e-09
	-4.844903e-10	1.894303e-09	0.009780524	0.008974192	-5.483955e-10	1.911108e-09	-0.001568243	-0.03286013
9e+07	-0.006418729	-0.03508065	-5.818118e-10	1.976064e-09	0.01143278	0.008234422	-5.275143e-10	2.272945e-09
	-5.818118e-10	1.976064e-09	-0.007272047	-0.03474104	-5.350204e-10	2.044018e-09	0.01144418	0.008592892
	0.01143277	0.008234427	-5.350204e-10	2.044018e-09	-0.005063757	-0.03645519	-6.244008e-10	2.313249e-09
	-5.275143e-10	2.272945e-09	0.01144418	0.008592891	-6.244008e-10	2.313249e-09	-0.007356782	-0.03471043
1e+08	-0.01240404	-0.03602848	-6.086957e-10	2.375852e-09	0.01296978	0.007528408	-5.282229e-10	2.675789e-09
	-6.086957e-10	2.375852e-09	-0.01325166	-0.03541433	-5.714619e-10	2.418249e-09	0.01295814	0.007876424
	0.01296978	0.007528408	-5.714619e-10	2.418249e-09	-0.01131184	-0.03764164	-6.614965e-10	2.760646e-09
	-5.282229e-10	2.675789e-09	0.01295814	0.007876424	-6.614965e-10	2.760646e-09	-0.01335831	-0.03539594
1.1e+08	-0.01841882	-0.03585598	-5.629162e-10	2.786217e-09	0.01426799	0.006559406	-4.839384e-10	3.090196e-09
	-5.629162e-10	2.786217e-09	-0.0191841	-0.03503198	-5.495479e-10	2.812262e-09	0.0142549	0.006867733
	0.01426799	0.006559406	-5.495479e-10	2.812262e-09	-0.01767432	-0.03754251	-6.136917e-10	3.219233e-09
	-4.839384e-10	3.090196e-09	0.01425489	0.006867733	-6.136917e-10	3.219233e-09	-0.01932172	-0.03500627
1.2e+08	-0.02426517	-0.0345653	-4.76694e-10	3.178766e-09	0.01528419	0.005331497	-3.938805e-10	3.50361e-09
	-4.76694e-10	3.178766e-09	-0.02494417	-0.03355606	-4.8797e-10	3.200806e-09	0.01528263	0.005620331
	0.01528419	0.005331496	-4.8797e-10	3.200806e-09	-0.0238105	-0.03624826	-5.219728e-10	3.662496e-09
	-3.938805e-10	3.50361e-09	0.01528263	0.005620332	-5.219728e-10	3.662496e-09	-0.02510536	-0.03351327
1.3e+08	-0.02971588	-0.032219	-3.537318e-10	3.549822e-09	0.01598525	0.00391787	-2.634911e-10	3.903348e-09
	-3.537318e-10	3.549822e-09	-0.03028915	-0.03104075	-3.868668e-10	3.575387e-09	0.01599903	0.004196081
	0.01598525	0.00391787	-3.868668e-10	3.575387e-09	-0.02951709	-0.03385212	-3.884703e-10	4.087508e-09
	-2.634911e-10	3.903348e-09	0.01599903	0.004196082	-3.884703e-10	4.087508e-09	-0.0304685	-0.03097482
1.4e+08	-0.03457133	-0.02892529	-1.865623e-10	3.905811e-09	0.0163438	0.002391651	-8.834649e-11	4.286225e-09
	-1.865623e-10	3.905811e-09	-0.03501738	-0.027597	-2.454842e-10	3.938612e-09	0.01637591	0.002664308
	0.0163438	0.00239165	-2.454842e-10	3.938612e-09	-0.03459685	-0.03047354	-2.058057e-10	4.496448e-09
	-8.834649e-11	4.286225e-09	0.01637591	0.002664309	-2.058057e-10	4.496448e-09	-0.03520917	-0.02750363
1.5e+08	-0.03866111	-0.02482844	2.223461e-11	4.236417e-09	0.01634691	0.0008286944	1.29118e-10	4.641778e-09
	2.223461e-11	4.236417e-09	-0.03895958	-0.02337348	-6.589375e-11	4.281291e-09	0.01640013	0.001098236
	0.01634691	0.0008286942	-6.589375e-11	4.281291e-09	-0.03887957	-0.02626479	2.309266e-11	4.8768e-09
	1.29118e-10	4.641778e-09	0.01640013	0.001098236	2.309266e-11	4.8768e-09	-0.03915773	-0.02324988
1.6e+08	-0.04184913	-0.02010166	2.675222e-10	4.531575e-09	0.0159971	-0.0006949343	3.83372e-10	4.960141e-09
	2.675222e-10	4.531575e-09	-0.04198284	-0.01854805	1.4781e-10	4.594298e-09	0.01607393	-0.0004282263
	0.0159971	-0.0006949344	1.4781e-10	4.594298e-09	-0.04222903	-0.02140586	2.924165e-10	5.218411e-09
	3.83372e-10	4.960141e-09	0.01607393	-0.0004282257	2.924165e-10	5.218411e-09	-0.04218106	-0.01839292
1.7e+08	-0.04403774	-0.01493954	5.418519e-10	4.782437e-09	0.01531224	-0.002105958	6.665746e-10	5.232479e-09
	5.418519e-10	4.782437e-09	-0.04399436	-0.01331949	3.893907e-10	4.869515e-09	0.01541457	-0.001843615
	0.01531224	-0.002105958	3.893907e-10	4.869515e-09	-0.04454771	-0.01609738	5.940057e-10	5.511497e-09
	6.665746e-10	5.232479e-09	0.01541457	-0.001843614	5.940057e-10	5.511497e-09	-0.04418637	-0.01313297
1.8e+08	-0.04517042	-0.009549999	8.357305e-10	4.981852e-09	0.01432468	-0.00333684	9.688268e-10	5.451728e-09
	8.357305e-10	4.981852e-09	-0.04494375	-0.007898903	6.507428e-10	5.100235e-09	0.01445346	-0.00308187
	0.01432468	-0.00333684	6.507428e-10	5.100235e-09	-0.04577959	-0.01055279	9.174317e-10	5.748131e-09
	9.688268e-10	5.451728e-09	0.01445346	-0.00308187	9.174317e-10	5.748131e-09	-0.04512355	-0.007682576
1.9e+08	-0.04523296	-0.004145999	1.137994e-09	5.124799e-09	0.01307974	-0.004328448	1.278569e-09	5.613042e-09
	1.137994e-09	5.124799e-09	-0.04482396	-0.002501177	9.222003e-10	5.281562e-09	0.01323465	-0.004085018
	0.01307974	-0.004328448	9.222003e-10	5.281562e-09	-0.04591154	-0.004990111	1.250411e-09	5.922741e-09
	1.278569e-09	5.613042e-09	0.01323465	-0.004085018	1.250411e-09	5.922741e-09	-0.0449861	-0.002257893
2e+08	-0.04425362	0.001064135	1.436112e-09	5.208741e-09	0.01162533	-0.005060186	1.582881e-09	5.714162e-09
	1.436112e-09	5.208741e-09	-0.04367062	0.002663578	1.192773e-09	5.410715e-09	0.01181293	-0.004805487
	0.01162533	-0.005060186	1.192773e-09	5.410715e-09	-0.04497332	0.0003777198	1.579153e-09	6.032496e-09
	1.582881e-09	5.714162e-09	0.01181293	-0.004805486	1.579153e-09	6.032496e-09	-0.04381044	0.002929817
2.1e+08	-0.04229956	0.005880502	1.717241e-09	5.233964e-09	0.0100313	-0.005464043	1.86865e-09	5.755723e-09
	1.717241e-09	5.233964e-09	-0.04155981	0.007398138	1.451073e-09	5.487424e-09	0.01025145	-0.005207991
	0.0100313	-0.005464043	1.451073e-09	5.487424e-09	-0.04303411	0.00534666	1.889495e-09	6.077673e-09
	1.86865e-09	5.755723e-09	0.01025145	-0.005207991	1.889495e-09	6.077673e-09	-0.04167364	0.007682376
2.2e+08	-0.03947572	0.01012284	1.96838e-09	5.203597e-09	0.008370118	-0.005517062	2.122658e-09	5.741277e-09
	1.96838e-09	5.203597e-09	-0.0386044	0.01152565	1.685436e-09	5.513931e-09	0.008619118	-0.005270926
	0.008370118	-0.005517062	1.685436e-09	5.513931e-09	-0.04020129	0.009732801	2.167104e-09	6.061709e-09
	2.122658e-09	5.741277e-09	0.008619118	-0.005270927	2.167104e-09	6.061709e-09	-0.03868976	0.01182222
2.3e+08	-0.0359196	0.01363619	2.17713e-09	5.123663e-09	0.006716525	-0.005213397	2.332389e-09	5.677321e-09
	2.17713e-09	5.123663e-09	-0.0349491	0.01489622	1.884601e-09	5.495085e-09	0.006987712	-0.004987221
	0.006716525	-0.005213397	1.884601e-09	5.495085e-09	-0.03661514	0.01337804	2.398319e-09	5.991236e-09
	2.332389e-09	5.677321e-09	0.006987712	-0.004987221	2.398319e-09	5.991236e-09	-0.03500481	0.015199
2.4e+08	-0.03179546	0.01629643	2.332346e-09	5.002944e-09	0.005144801	-0.004562693	2.486692e-09	5.573141e-09
	2.332346e-09	5.002944e-09	-0.0307644	0.01739244	2.038302e-09	5.438267e-09	0.005428928	-0.004364627
	0.005144801	-0.004562693	2.038302e-09	5.438267e-09	-0.03244304	0.01615569	2.570874e-09	5.875936e-09
	2.486692e-09	5.573141e-09	0.005428928	-0.004364627	2.570874e-09	5.875936e-09	-0.03079063	0.01769515
2.5e+08	-0.02728776	0.01801471	2.424742e-09	4.8527e-09	0.003725656	-0.00358968	2.576392e-09	5.4405e-09
	2.424742e-09	4.8527e-09	-0.02623954	0.01893358	2.137835e-09	5.35317e-09	0.00401139	-0.003425421
	0.003725656	-0.00358968	2.137835e-09	5.35317e-09	-0.02787276	0.0179749	2.674565e-09	5.728223e-09
	2.576392e-09	5.4405e-09	0.00401139	-0.003425421	2.674565e-09	5.728223e-09	-0.02623786	0.01923007
2.6e+08	-0.02259382	0.01874057	2.447469e-09	4.686247e-09	0.002523231	-0.002333183	2.594835e-09	5.293197e-09
	2.447469e-09	4.686247e-09	-0.02157488	0.01947841	2.176451e-09	5.251535e-09	0.002797768	-0.002205529
	0.002523231	-0.002333183	2.176451e-09	5.251535e-09	-0.02310513	0.01878379	2.701851e-09	5.562782e-09
	2.594835e-09	5.293197e-09	0.002797768	-0.002205529	2.701851e-09	5.562782e-09	-0.02154819	0.01976292
2.7e+08	-0.01791604	0.01846355	2.396447e-09	4.518395e-09	0.001592338	-0.0008445357	2.538314e-09	5.146528e-09
	2.396447e-09	4.518395e-09	-0.01697395	0.01902633	2.150165e-09	5.14643e-09	0.001842096	-0.0007530803
	0.001592338	-0.0008445357	2.150165e-09	5.14643e-09	-0.01834608	0.01857106	2.648351e-09	5.395989e-09
	2.538314e-09	5.146528e-09	0.001842096	-0.0007530803	2.648351e-09	5.395989e-09	-0.01692635	0.01929383
2.8e+08	-0.01345401	0.01721326	2.270791e-09	4.364943e-09	0.0009760464	0.0008145451	2.406395e-09	5.01663e-09
	2.270791e-09	4.364943e-09	-0.01263529	0.01761713	2.057741e-09	5.051967e-09	0.001187419	0.0008735584
	0.0009760464	0.0008145451	2.057741e-09	5.051967e-09	-0.01379873	0.01736611	2.513201e-09	5.245208e-09
	2.406395e-09	5.01663e-09	0.001187419	0.0008735584	2.513201e-09	5.245208e-09	-0.01257192	0.01786355
2.9e+08	-0.009396681	0.01505796	2.072996e-09	4.24193e-09	0.0007037276	0.002574555	2.202093e-09	4.919781e-09
	2.072996e-09	4.24193e-09	-0.008744648	0.01532907	1.900988e-09	4.982597e-09	0.0008638547	0.002608217
	0.0007037276	0.002574555	1.900988e-09	4.982597e-09	-0.009655475	0.01523753	2.299254e-09	5.12803e-09
	2.202093e-09	4.919781e-09	0.0008638547	0.002608217	2.299254e-09	5.12803e-09	-0.008671461	0.01555151
3e+08	-0.005915035	0.01210157	1.80898e-09	4.164908e-09	0.0007896585	0.004361179	1.931882e-09	4.871657e-09
	1.80898e-09	4.164908e-09	-0.005467627	0.01227542	1.684851e-09	4.952416e-09	0.0008871885	0.004379728
	0.0007896585	0.004361179	1.684851e-09	4.952416e-09	-0.006090529	0.01229016	2.013124e-09	5.061466e-09
	1.931882e-09	4.871657e-09	0.0008871885	0.004379728	2.013124e-09	5.061466e-09	-0.005391144	0.01247228
3.1e+08	-0.003155459	0.008479405	1.487971e-09	4.148205e-09	0.00123226	0.006098526	1.605568e-09	4.886599e-09
	1.487971e-09	4.148205e-09	-0.002943226	0.008599689	1.41732e-09	4.974472e-09	0.001258062	0.006114997
	0.00123226	0.006098526	1.41732e-09	4.974472e-09	-0.003253245	0.008660683	1.66504e-09	5.061144e-09
	1.605568e-09	4.886599e-09	0.001258062	0.006114997	1.66504e-09	5.061144e-09	-0.002870237	0.008770785
3.2e+08	-0.001234114	0.004352544	1.122233e-09	4.204223e-09	0.002014034	0.007712493	1.235989e-09	4.97691e-09
	1.122233e-09	4.204223e-09	-0.001278446	0.0044696	1.109185e-09	5.060107e-09	0.001961827	0.007742213
	0.002014034	0.007712493	1.109185e-09	5.060107e-09	-0.001262396	0.004512049	1.268541e-09	5.140539e-09
	1.235989e-09	4.97691e-09	0.001961827	0.007742213	1.268541e-09	5.140539e-09	-0.001215713	0.004616213
3.3e+08	-0.0002325077	-9.86758e-05	7.266453e-10	4.342798e-09	0.003102208	0.009134094	8.385816e-10	5.152223e-09
	7.266453e-10	4.342798e-09	-0.0005442151	7.017984e-05	7.736539e-10	5.218359e-09	0.002969081	0.009194046
	0.003102208	0.009134094	7.736539e-10	5.218359e-09	-0.0002016851	2.682484e-05	8.399956e-10	5.310284e-09
	8.385816e-10	5.152223e-09	0.002969081	0.009194046	8.399956e-10	5.310284e-09	-0.000498155	0.0001950172
3.4e+08	-0.0001944787	-0.004681964	3.181511e-10	4.57066e-09	0.004450102	0.01030261	4.308076e-10	5.418959e-09
	3.181511e-10	4.57066e-09	-0.0007727856	-0.004403845	4.258357e-10	5.455453e-09	0.004236886	0.01041068
	0.004450102	0.01030261	4.258357e-10	5.455453e-09	-0.0001166736	-0.004600168	3.979934e-10	5.577581e-09
	4.308076e-10	5.418959e-09	0.004236886	0.01041068	3.979934e-10	5.577581e-09	-0.0007491763	-0.004296735
3.5e+08	-0.0011247	-0.009200815	-8.490821e-11	4.891005e-09	0.005999139	0.01116839	3.148181e-11	5.77992e-09
	-8.490821e-11	4.891005e-09	-0.001956728	-0.008755997	8.212381e-11	5.774423e-09	0.005710623	0.01134255
	0.005999139	0.01116839	8.212381e-11	5.774423e-09	-0.001013239	-0.009169674	-3.739245e-11	5.945757e-09
	3.148181e-11	5.77992e-09	0.005710623	0.01134255	-3.739245e-11	5.945757e-09	-0.001960429	-0.008661378
3.6e+08	-0.002988743	-0.01346235	-4.635384e-10	5.30323e-09	0.007681443	0.01169518	-3.39988e-10	6.234011e-09
	-4.635384e-10	5.30323e-09	-0.004049528	-0.01279599	-2.404927e-10	6.174858e-09	0.007326399	0.01195258
	0.007681443	0.01169518	-2.404927e-10	6.174858e-09	-0.002857625	-0.01348596	-4.454214e-10	6.413977e-09
	-3.39988e-10	6.234011e-09	0.007326399	0.01195258	-4.454214e-10	6.413977e-09	-0.00408424	-0.01270765
3.7e+08	-0.005714723	-0.01728497	-7.988884e-10	5.802806e-09	0.009422876	0.0118618	-6.644099e-10	6.776131e-09
	-7.988884e-10	5.802806e-09	-0.00696778	-0.01634741	-5.251581e-10	6.652813e-09	0.009013905	0.01221794
	0.009422876	0.0118618	-5.251581e-10	6.652813e-09	-0.005578066	-0.01736456	-8.055545e-10	6.977126e-09
	-6.644099e-10	6.776131e-09	0.009013905	0.01221794	-8.055545e-10	6.977126e-09	-0.007035851	-0.01625841
3.8e+08	-0.009196404	-0.02050553	-1.073062e-09	6.381338e-09	0.0111464	0.01166318	-9.236355e-10	7.397227e-09
	-1.073062e-09	6.381338e-09	-0.01059484	-0.01925465	-7.558858e-10	7.200872e-09	0.01069957	0.01213104
	0.0111464	0.01166318	-7.558858e-10	7.200872e-09	-0.009067921	-0.02063951	-1.098337e-09	7.625875e-09
	-9.236355e-10	7.397227e-09	0.01069957	0.01213104	-1.098337e-09	7.625875e-09	-0.01069713	-0.01915763
3.9e+08	-0.01329766	-0.02298563	-1.269909e-09	7.026775e-09	0.01277555	0.01111062	-1.101371e-09	8.084522e-09
	-1.269909e-09	7.026775e-09	-0.01478579	-0.02138911	-9.182675e-10	7.808357e-09	0.01230988	0.01169988
	0.01277555	0.01111062	-9.182675e-10	7.808357e-09	-0.01319016	-0.02316984	-1.306257e-09	8.346933e-09
	-1.101371e-09	8.084522e-09	0.01230988	0.01169988	-1.306257e-09	8.346933e-09	-0.01492161	-0.0212766
4e+08	-0.01785808	-0.02461697	-1.375768e-09	7.723794e-09	0.01423793	0.01023127	-1.183941e-09	8.821902e-09
	-1.375768e-09	7.723794e-09	-0.01937351	-0.02265405	-1.000125e-09	8.461683e-09	0.01377464	0.01094767
	0.01423793	0.01023127	-1.000125e-09	8.461683e-09	-0.017783	-0.02484487	-1.414547e-09	9.123457e-09
	-1.183941e-09	8.821902e-09	0.01377464	0.01094767	-1.414547e-09	9.123457e-09	-0.01954061	-0.02251882
4.1e+08	-0.02269945	-0.02532538	-1.38012e-09	8.454321e-09	0.01546843	0.009066889	-1.160963e-09	9.59046e-09
	-1.38012e-09	8.454321e-09	-0.02417554	-0.02298827	-9.920776e-10	9.144836e-09	0.01503016	0.009911753
	0.01546843	0.009066889	-9.920776e-10	9.144836e-09	-0.0226665	-0.02558844	-1.411892e-09	9.935639e-09
	-1.160963e-09	9.59046e-09	0.01503016	0.009911753	-1.411892e-09	9.935639e-09	-0.02437016	-0.02282362
4.2e+08	-0.0276329	-0.02507354	-1.276129e-09	9.198186e-09	0.01641216	0.007671958	-1.025915e-09	1.036918e-08
	-1.276129e-09	9.198186e-09	-0.02900148	-0.02236825	-8.880101e-10	9.83996e-09	0.01602195	0.00864186
	0.01641216	0.007671958	-8.880101e-10	9.83996e-09	-0.02764971	-0.02536162	-1.291016e-09	1.076141e-08
	-1.025915e-09	1.036918e-08	0.01602195	0.00864186	-1.291016e-09	1.076141e-08	-0.02921853	-0.02216835
4.3e+08	-0.03246638	-0.02386217	-1.061053e-09	9.933879e-09	0.01702683	0.006111212	-7.765576e-10	1.113573e-08
	-1.061053e-09	9.933879e-09	-0.03366064	-0.02080879	-6.854117e-10	1.052802e-08	0.01670715	0.007197886
	0.01702683	0.006111212	-6.854117e-10	1.052802e-08	-0.03253829	-0.02416395	-1.049121e-09	1.157727e-08
	-7.765576e-10	1.113573e-08	0.01670715	0.007197886	-1.049121e-09	1.157727e-08	-0.03389385	-0.02056892
4.4e+08	-0.03701218	-0.02172978	-7.364935e-10	1.063938e-08	0.0172846	0.004456745	-4.151939e-10	1.186735e-08
	-7.364935e-10	1.063938e-08	-0.03796959	-0.0183621	-3.855887e-10	1.11895e-08	0.01705631	0.005647202
	0.0172846	0.004456745	-3.855887e-10	1.11895e-08	-0.03714208	-0.02203327	-6.881565e-10	1.235922e-08
	-4.151939e-10	1.186735e-08	0.01705631	0.005647202	-6.881565e-10	1.235922e-08	-0.03821181	-0.01807891
4.5e+08	-0.04109417	-0.01875095	-3.084767e-10	1.129306e-08	0.01717326	0.00278482	5.125204e-11	1.254175e-08
	-3.084767e-10	1.129306e-08	-0.04175935	-0.01511554	6.264941e-12	1.180521e-08	0.01705454	0.004061695
	0.01717326	0.00278482	6.264941e-12	1.180521e-08	-0.04128248	-0.01904393	-2.149064e-10	1.308367e-08
	5.125204e-11	1.254175e-08	0.01705454	0.004061695	-2.149064e-10	1.308367e-08	-0.04200279	-0.01478719
4.6e+08	-0.04455464	-0.01503322	2.1264e-10	1.187451e-08	0.01669661	0.001172544	6.113539e-10	1.313807e-08
	2.1264e-10	1.187451e-08	-0.04488191	-0.01118791	4.810682e-10	1.235707e-08	0.01670212	0.002514658
	0.01669661	0.001172544	4.810682e-10	1.235707e-08	-0.04479933	-0.01530377	3.590611e-10	1.372855e-08
	6.113539e-10	1.313807e-08	0.01670212	0.002514658	3.590611e-10	1.372855e-08	-0.04511856	-0.0108142
4.7e+08	-0.04726023	-0.01071282	8.124373e-10	1.236547e-08	0.01587435	-0.0003054575	1.249467e-09	1.363782e-08
	8.124373e-10	1.236547e-08	-0.04721595	-0.00672458	1.026171e-09	1.282883e-08	0.01601435	0.001077665
	0.01587435	-0.0003054575	1.026171e-09	1.282883e-08	-0.04755697	-0.01094974	1.017791e-09	1.427421e-08
	1.249467e-09	1.363782e-08	0.01601435	0.001077665	1.017791e-09	1.427421e-08	-0.04743781	-0.006306961
4.8e+08	-0.049107	-0.0059493	1.472851e-09	1.275059e-08	0.01474106	-0.001580212	1.946215e-09	1.40257e-08
