!$
! Info: Touchstone file created by Circ.  Input file=Tx_10in_Rx_100ohms_TxVia_60mils_RxVia_70mils.circ
!$
# Hz S RI R 50
0	0.0104377	1.346475e-25	-5.384679e-05	6.072213e-28	7.378966e-05	2.009416e-23	-5.384458e-05	-5.531486e-26
	-5.384678e-05	6.586382e-29	0.01043322	1.646099e-25	-5.384607e-05	3.297322e-27	7.350085e-05	2.542693e-23
	7.487309e-05	2.022841e-23	-5.384606e-05	3.143038e-27	0.01045309	1.346587e-25	-5.384599e-05	1.249606e-25
	-5.384457e-05	-5.642257e-26	7.37704e-05	2.553596e-23	-5.384599e-05	1.245494e-25	0.0104476	1.638868e-25
1e+07	0.01493455	0.006592277	-2.794999e-06	-1.043083e-05	0.0003137605	0.0019176	-2.358281e-06	-1.444951e-05
	-2.794999e-06	-1.043083e-05	0.0153899	0.006624998	-1.513011e-06	-3.022469e-06	0.0006643306	0.001955765
	0.0003137918	0.001917605	-1.513011e-06	-3.02247e-06	0.01440009	0.006897632	-3.498732e-06	-4.008973e-06
	-2.358281e-06	-1.444951e-05	0.0006643332	0.001955763	-3.498732e-06	-4.008973e-06	0.01525204	0.006648316
2e+07	0.01967889	0.009482515	-4.953309e-06	3.234528e-07	0.0009028734	0.003777854	-1.949014e-06	-5.179208e-06
	-4.95331e-06	3.234528e-07	0.02004974	0.009375293	-1.984014e-05	-2.14459e-05	0.001125361	0.003990166
	0.0009028881	0.003777835	-1.984014e-05	-2.14459e-05	0.01958909	0.01014619	-2.4197e-05	-2.100566e-05
	-1.949015e-06	-5.179208e-06	0.001125358	0.003990166	-2.4197e-05	-2.100566e-05	0.01996024	0.009468844
3e+07	0.02383659	0.01037251	-8.159967e-06	-9.909554e-07	0.00184116	0.005431028	-1.838384e-06	-2.826992e-06
	-8.159967e-06	-9.909553e-07	0.02412325	0.01022539	-3.532341e-05	-2.11475e-05	0.001966136	0.005704142
	0.001841161	0.005431025	-3.532341e-05	-2.11475e-05	0.02409426	0.01107812	-3.958031e-05	-2.004962e-05
	-1.838384e-06	-2.826992e-06	0.001966136	0.005704144	-3.958031e-05	-2.004962e-05	0.02407534	0.01034514
4e+07	0.02762636	0.01015583	-1.057946e-05	-3.115163e-07	0.003080139	0.006836526	-1.67818e-06	-1.552454e-06
	-1.057946e-05	-3.115165e-07	0.02782534	0.01000282	-4.729958e-05	-1.519388e-05	0.003148442	0.007141791
	0.003080143	0.006836531	-4.729958e-05	-1.519388e-05	0.0281649	0.01079054	-5.139129e-05	-1.352305e-05
	-1.67818e-06	-1.552454e-06	0.003148442	0.007141792	-5.139129e-05	-1.352305e-05	0.02781519	0.01013358
5e+07	0.03104562	0.009076251	-1.229425e-05	1.345811e-06	0.00456002	0.007943827	-1.449915e-06	-7.095262e-07
	-1.229425e-05	1.345811e-06	0.03115483	0.008943089	-5.610698e-05	-5.952958e-06	0.004725278	0.008187993
	0.004560023	0.007943829	-5.610698e-05	-5.952958e-06	0.0318029	0.009570119	-5.997494e-05	-3.749928e-06
	-1.449915e-06	-7.095263e-07	0.004725279	0.008187993	-5.997494e-05	-3.749928e-06	0.03117813	0.009074907
6e+07	0.0340414	0.007281246	-1.332775e-05	3.571973e-06	0.006212512	0.008713544	-1.15971e-06	-1.1401e-07
	-1.332775e-05	3.571973e-06	0.03406391	0.007192524	-6.183585e-05	5.422238e-06	0.006438711	0.00888176
	0.006212508	0.008713543	-6.183585e-05	5.422238e-06	0.03495533	0.007587779	-6.542243e-05	8.128735e-06
	-1.15971e-06	-1.1401e-07	0.006438713	0.00888176	-6.542243e-05	8.128735e-06	0.03411592	0.007317988
7e+07	0.03654824	0.004892356	-1.368085e-05	6.133571e-06	0.007976864	0.009108332	-8.189381e-07	3.007832e-07
	-1.368085e-05	6.133571e-06	0.03649191	0.004870563	-6.444136e-05	1.818002e-05	0.00821743	0.00920704
	0.007976852	0.009108332	-6.444136e-05	1.818002e-05	0.03755591	0.004982139	-6.771397e-05	2.136402e-05
	-8.189375e-07	3.007831e-07	0.008217431	0.009207039	-6.771397e-05	2.136402e-05	0.03656727	0.004983901
8e+07	0.03850411	0.002026898	-1.334108e-05	8.872362e-06	0.009759322	0.009128444	-4.473143e-07	5.622183e-07
	-1.334108e-05	8.872362e-06	0.038381	0.002091868	-6.382914e-05	3.175241e-05	0.00998688	0.009160791
	0.009759306	0.009128446	-6.382914e-05	3.175241e-05	0.03954158	0.001884394	-6.673703e-05	3.539713e-05
	-4.473136e-07	5.62218e-07	0.009986881	0.00916079	-6.673703e-05	3.539713e-05	0.03847357	0.002188795
9e+07	0.03985909	-0.001195079	-1.226669e-05	1.168185e-05	0.01148227	0.008781618	-6.864748e-08	6.825857e-07
	-1.226669e-05	1.168185e-05	0.03968538	-0.001026387	-5.974e-05	4.57397e-05	0.01167193	0.008753836
	0.01148226	0.008781622	-5.974e-05	4.57397e-05	0.04085973	-0.001574406	-6.22089e-05	4.983508e-05
	-6.864703e-08	6.825852e-07	0.01167193	0.008753835	-6.22089e-05	4.983508e-05	0.03978834	-0.000948708
1e+08	0.04059241	-0.004643636	-1.011197e-05	1.460474e-05	0.01307666	0.008092163	2.933991e-07	6.564842e-07
	-1.011197e-05	1.460474e-05	0.04038963	-0.004356772	-5.046668e-05	6.044497e-05	0.01319422	0.008007863
	0.01307666	0.008092163	-5.046668e-05	6.044497e-05	0.04146582	-0.005265139	-5.237464e-05	6.501004e-05
	2.933991e-07	6.564842e-07	0.01319422	0.008007863	-5.237464e-05	6.501004e-05	0.04049413	-0.004300488
1.1e+08	0.04068333	-0.008279487	-6.934646e-06	1.573874e-05	0.01447421	0.007071253	5.005568e-07	5.831084e-07
	-6.934646e-06	1.573874e-05	0.04047814	-0.007875353	-3.601783e-05	6.675564e-05	0.01448894	0.007004095
	0.01447421	0.007071253	-3.601783e-05	6.675564e-05	0.04134614	-0.008999822	-3.71776e-05	7.1538e-05
	5.005568e-07	5.831084e-07	0.01448893	0.007004095	-3.71776e-05	7.1538e-05	0.04057589	-0.007831531
1.2e+08	0.04005736	-0.01191829	-6.093019e-06	1.555489e-05	0.01559371	0.005786774	4.782714e-07	4.785784e-07
	-6.093019e-06	1.555489e-05	0.03986729	-0.01139668	-2.452152e-05	6.969554e-05	0.01553901	0.00576626
	0.01559371	0.005786774	-2.452152e-05	6.969554e-05	0.04055358	-0.01268183	-2.805416e-05	7.337553e-05
	4.782714e-07	4.785784e-07	0.01553901	0.005766261	-2.805416e-05	7.337553e-05	0.0399589	-0.01136196
1.3e+08	0.03875491	-0.01541872	-5.168871e-06	1.55042e-05	0.01639429	0.004305153	4.012358e-07	4.188942e-07
	-5.168871e-06	1.55042e-05	0.03860013	-0.01478244	-2.082198e-05	6.913454e-05	0.01629229	0.0043456
	0.01639429	0.004305153	-2.082198e-05	6.913454e-05	0.03910366	-0.01619461	-2.411649e-05	7.299176e-05
	4.012358e-07	4.188942e-07	0.01629229	0.004345601	-2.411649e-05	7.299176e-05	0.03868457	-0.01475464
1.4e+08	0.03682388	-0.01865729	-4.179547e-06	1.546855e-05	0.01684467	0.002697557	3.236828e-07	3.787469e-07
	-4.179547e-06	1.546855e-05	0.03672456	-0.01791372	-1.676546e-05	6.874036e-05	0.01671578	0.002806458
	0.01684467	0.002697556	-1.676546e-05	6.874036e-05	0.03704078	-0.01942224	-1.980309e-05	7.277332e-05
	3.236828e-07	3.787469e-07	0.01671577	0.002806459	-1.980309e-05	7.277332e-05	0.03680077	-0.01789071
1.5e+08	0.03433015	-0.02152302	-3.15335e-06	1.541838e-05	0.01692807	0.001039607	2.470147e-07	3.592695e-07
	-3.15335e-06	1.541838e-05	0.0343051	-0.02068423	-1.249379e-05	6.834698e-05	0.01679152	0.001219058
	0.01692807	0.001039607	-1.249379e-05	6.834698e-05	0.03442999	-0.02225844	-1.525289e-05	7.254967e-05
	2.470147e-07	3.592695e-07	0.01679151	0.001219059	-1.525289e-05	7.254967e-05	0.03437225	-0.02066378
1.6e+08	0.0313568	-0.02391965	-2.105777e-06	1.533696e-05	0.01664328	-0.0005914592	1.738658e-07	3.609542e-07
	-2.105777e-06	1.533696e-05	0.03142222	-0.02300219	-8.084515e-06	6.785768e-05	0.01651678	-0.0003440288
	0.01664328	-0.0005914594	-8.084515e-06	6.785768e-05	0.03135433	-0.0246106	-1.054549e-05	7.221911e-05
	1.738658e-07	3.609542e-07	0.01651678	-0.0003440281	-1.054549e-05	7.221911e-05	0.03147984	-0.022982
1.7e+08	0.0280018	-0.02576833	-1.046613e-06	1.521367e-05	0.01600486	-0.002119946	1.076512e-07	3.835612e-07
	-1.046613e-06	1.521367e-05	0.02817025	-0.02479257	-3.5903e-06	6.720928e-05	0.01590401	-0.001811153
	0.01600486	-0.002119946	-3.5903e-06	6.720928e-05	0.02791193	-0.02640292	-5.735294e-06	7.171443e-05
	1.076512e-07	3.835612e-07	0.01590401	-0.001811153	-5.735294e-06	7.171443e-05	0.02821828	-0.02477032
1.8e+08	0.02437498	-0.02700981	1.723287e-08	1.504095e-05	0.01504249	-0.003474864	5.220718e-08	4.259696e-07
	1.723287e-08	1.504095e-05	0.02465442	-0.02599918	9.487216e-07	6.635767e-05	0.01498023	-0.003114721
	0.01504249	-0.003474864	9.487216e-07	6.635767e-05	0.02421278	-0.02757895	-8.642534e-07	7.098813e-05
	5.220718e-08	4.259696e-07	0.01498023	-0.00311472	-8.642534e-07	7.098813e-05	0.02469326	-0.0259726
1.9e+08	0.02059445	-0.02760632	1.081574e-06	1.481304e-05	0.01379981	-0.004592938	1.147768e-08	4.860643e-07
	1.081574e-06	1.481304e-05	0.02098754	-0.02658622	5.498539e-06	6.52706e-05	0.01378584	-0.004194124
	0.01379981	-0.004592938	5.498539e-06	6.52706e-05	0.02037504	-0.02810351	4.031652e-06	7.000506e-05
	1.147768e-08	4.860643e-07	0.01378584	-0.004194123	4.031652e-06	7.000506e-05	0.02101801	-0.02655321
2e+08	0.01678262	-0.02754267	2.140915e-06	1.452452e-05	0.01233252	-0.00542131	-1.094115e-08	5.607982e-07
	2.140915e-06	1.452452e-05	0.01728625	-0.02653929	1.002809e-05	6.392395e-05	0.01237291	-0.004998363
	0.01233252	-0.00542131	1.002809e-05	6.392395e-05	0.01652102	-0.02796385	8.919155e-06	6.873854e-05
	-1.094115e-08	5.607982e-07	0.01237291	-0.004998363	8.919155e-06	6.873854e-05	0.01730959	-0.02649799
2.1e+08	0.01306206	-0.02682666	3.188755e-06	1.417108e-05	0.01070597	-0.005919804	-1.201345e-08	6.46269e-07
	3.188755e-06	1.417108e-05	0.01366716	-0.0258657	1.450726e-05	6.229971e-05	0.01080295	-0.005488255
	0.01070597	-0.005919804	1.450726e-05	6.229971e-05	0.01277294	-0.02717012	1.376566e-05	6.716844e-05
	-1.201345e-08	6.46269e-07	0.01080295	-0.005488255	1.376566e-05	6.716844e-05	0.01368495	-0.02581455
2.2e+08	0.009551266	-0.02548872	4.219376e-06	1.374919e-05	0.008992391	-0.006062663	1.052138e-08	7.378305e-07
	4.219376e-06	1.374919e-05	0.01024288	-0.02459401	1.890592e-05	6.038496e-05	0.009144215	-0.005638135
	0.008992391	-0.006062663	1.890592e-05	6.038496e-05	0.009248769	-0.02575494	1.853833e-05	6.528009e-05
	1.052138e-08	7.378305e-07	0.009144215	-0.005638135	1.853833e-05	6.528009e-05	0.01025699	-0.02453185
2.3e+08	0.006360581	-0.02358077	5.226435e-06	1.325603e-05	0.007267742	-0.005839654	5.791824e-08	8.303313e-07
	5.226435e-06	1.325603e-05	0.007118289	-0.02277295	2.319337e-05	5.817126e-05	0.007468813	-0.005436968
	0.007267742	-0.005839654	2.319337e-05	5.817126e-05	0.00605806	-0.02377229	2.32035e-05	6.306378e-05
	5.791824e-08	8.303313e-07	0.007468813	-0.005436968	2.32035e-05	6.306378e-05	0.007130786	-0.02269906
2.4e+08	0.003588277	-0.02117427	6.202861e-06	1.268966e-05	0.005608414	-0.00525651	1.303e-07	9.183832e-07
	6.202861e-06	1.268966e-05	0.004386867	-0.0204696	2.733796e-05	5.565493e-05	0.005849576	-0.004888834
	0.005608414	-0.00525651	2.733796e-05	5.565493e-05	0.003298084	-0.02129555	2.772642e-05	6.051502e-05
	1.303e-07	9.183832e-07	0.005849576	-0.004888834	2.772642e-05	6.051502e-05	0.004399915	-0.02038372
2.5e+08	0.001317153	-0.01835764	7.140909e-06	1.204914e-05	0.004087922	-0.004334673	2.266234e-07	9.966396e-07
	7.140909e-06	1.204914e-05	0.002127608	-0.0177669	3.130739e-05	5.283674e-05	0.00435692	-0.004012746
	0.004087922	-0.004334673	3.130739e-05	5.283674e-05	0.001050414	-0.01841484	3.207163e-05	5.76343e-05
	2.266234e-07	9.966396e-07	0.00435692	-0.004012746	3.207163e-05	5.76343e-05	0.00214337	-0.01766925
2.6e+08	-0.0003883908	-0.01523299	8.032272e-06	1.133479e-05	0.002773711	-0.00311035	3.447123e-07	1.060083e-06
	8.032272e-06	1.133479e-05	0.0004023038	-0.01476062	3.506894e-05	4.972229e-05	0.003055811	-0.002841831
	0.002773711	-0.00311035	3.506894e-05	4.972229e-05	-0.0006219737	-0.01523379	3.620324e-05	5.442742e-05
	3.447123e-07	1.060083e-06	0.003055811	-0.002841831	3.620324e-05	5.442742e-05	0.0004228366	-0.01465191
2.7e+08	-0.001484568	-0.01191238	8.86828e-06	1.054828e-05	0.001724231	-0.001632925	4.813731e-07	1.104281e-06
	8.86828e-06	1.054828e-05	-0.0007464901	-0.01155591	3.858997e-05	4.632191e-05	0.002002966	-0.001421883
	0.001724231	-0.001632925	3.858997e-05	4.632191e-05	-0.001676907	-0.01186572	4.008557e-05	5.090544e-05
	4.813731e-07	1.104281e-06	0.002002966	-0.001421883	4.008557e-05	5.090544e-05	-0.0007193326	-0.01143727
2.8e+08	-0.001949695	-0.008513702	9.640172e-06	9.692825e-06	0.0009864095	3.720249e-05	6.325637e-07	1.125607e-06
	9.640172e-06	9.692825e-06	-0.001296808	-0.008263481	4.183858e-05	4.265099e-05	0.001244425	0.0001906207
	0.0009864095	3.720249e-05	4.183858e-05	4.265099e-05	-0.002094464	-0.008429529	4.368394e-05	4.708492e-05
	6.325637e-07	1.125607e-06	0.001244425	0.0001906207	4.368394e-05	4.708492e-05	-0.001261462	-0.00813644
2.9e+08	-0.00178485	-0.005156357	1.033938e-05	8.77317e-06	0.0005936365	0.001831248	7.936201e-07	1.121404e-06
	1.033938e-05	8.77317e-06	-0.001247883	-0.004995589	4.478429e-05	3.872972e-05	0.0008135914	0.001930962
	0.0005936365	0.001831248	4.478429e-05	3.872972e-05	-0.001877608	-0.005045333	4.696538e-05	4.298758e-05
	7.936201e-07	1.121404e-06	0.0008135914	0.001930962	4.696538e-05	4.298758e-05	-0.001203157	-0.004861977
3e+08	-0.00101369	-0.001956884	1.095785e-05	7.795566e-06	0.0005643414	0.003675038	9.59508e-07	1.090076e-06
	1.095785e-05	7.795566e-06	-0.000619974	-0.001862025	4.739876e-05	3.458288e-05	0.0007298198	0.003728978
	0.0005643414	0.003675038	4.739876e-05	3.458288e-05	-0.001051949	-0.001830076	4.989948e-05	3.863998e-05
	9.59508e-07	1.090076e-06	0.0007298198	0.003728978	4.989948e-05	3.863998e-05	-0.0005651076	-0.001723907
3.1e+08	0.0003185861	0.0009752861	1.148834e-05	6.767698e-06	0.0009012239	0.005492216	1.12508e-06	1.031122e-06
	1.148834e-05	6.767698e-06	0.000546568	0.001033809	4.965668e-05	3.023968e-05	0.0009976229	0.005512068
	0.0009012239	0.005492216	4.965668e-05	3.023968e-05	0.0003353238	0.001106732	5.245922e-05	3.407329e-05
	1.12508e-06	1.031122e-06	0.0009976229	0.005512068	5.245922e-05	3.407329e-05	0.0006118643	0.001174238
3.2e+08	0.002147048	0.0035418	1.192473e-05	5.698476e-06	0.001591169	0.007207533	1.285334e-06	9.450918e-07
	1.192473e-05	5.698476e-06	0.002192961	0.003598547	5.153629e-05	2.573307e-05	0.001606514	0.007208298
	0.001591169	0.007207533	5.153629e-05	2.573307e-05	0.002217314	0.003666984	5.462159e-05	2.932238e-05
	1.285334e-06	9.450918e-07	0.001606514	0.007208298	5.462159e-05	2.932238e-05	0.002268487	0.003739067
3.3e+08	0.004389593	0.005658905	1.226217e-05	4.597808e-06	0.002605837	0.008750077	1.435635e-06	8.334865e-07
	1.226217e-05	4.597808e-06	0.00424432	0.005752117	5.302001e-05	2.109915e-05	0.002531489	0.008749457
	0.002605837	0.008750077	5.302001e-05	2.109915e-05	0.004510024	0.005767494	5.636804e-05	2.442523e-05
	1.435635e-06	8.334865e-07	0.002531489	0.008749457	5.636804e-05	2.442523e-05	0.004329384	0.005890589
3.4e+08	0.006950116	0.007260411	1.249735e-05	3.476334e-06	0.003902901	0.01005629	1.571897e-06	6.986115e-07
	1.249735e-05	3.476334e-06	0.006612537	0.007430475	5.409508e-05	1.637654e-05	0.003734122	0.01007393
	0.003902901	0.01005629	5.409508e-05	1.637654e-05	0.007115581	0.007342954	5.768518e-05	1.942214e-05
	1.571897e-06	6.986115e-07	0.003734122	0.01007393	5.768518e-05	1.942214e-05	0.00670599	0.007564944
3.5e+08	0.00972218	0.008299964	1.262855e-05	2.3451e-06	0.005427873	0.01107267	1.690725e-06	5.433911e-07
	1.262855e-05	2.3451e-06	0.009199632	0.008587727	5.475372e-05	1.160542e-05	0.005164216	0.0111293
	0.005427873	0.01107267	5.475372e-05	1.160542e-05	0.009925957	0.008348189	5.856469e-05	1.435477e-05
	1.690725e-06	5.433911e-07	0.005164216	0.0111293	5.856469e-05	1.435477e-05	0.009299908	0.00871652
3.6e+08	0.01259304	0.008752582	1.265564e-05	1.215259e-06	0.007116423	0.01175801	1.789476e-06	3.711714e-07
	1.265564e-05	1.215259e-06	0.01190141	0.009197564	5.499338e-05	6.826732e-06	0.006761939	0.01187451
	0.007116423	0.01175801	5.499338e-05	6.826732e-06	0.01282705	0.00875965	5.900359e-05	9.265313e-06
	1.789476e-06	3.711714e-07	0.006761939	0.01187451	5.900359e-05	9.265313e-06	0.0120066	0.009319374
3.7e+08	0.01544786	0.00861537	1.258011e-05	9.772289e-08	0.008897111	0.01208518	1.866305e-06	1.855087e-07
	1.258011e-05	9.772289e-08	0.01461131	0.009253971	5.481667e-05	2.081278e-06	0.008460348	0.01228157
	0.008897111	0.01208518	5.481667e-05	2.081278e-06	0.01570293	0.008576098	5.9004e-05	4.195599e-06
	1.866305e-06	1.855087e-07	0.008460348	0.01228157	5.9004e-05	4.195599e-06	0.01471924	0.009367927
3.8e+08	0.01817401	0.007907414	1.240487e-05	-9.970852e-07	0.01069439	0.01204219	1.920114e-06	-1.001498e-08
	1.240487e-05	-9.970852e-07	0.01722431	0.008771188	5.423118e-05	-2.591126e-06	0.01018819	0.01233674
	0.01069439	0.01204219	5.423118e-05	-2.591126e-06	0.01844018	0.007818451	5.857289e-05	-8.13656e-07
	1.920114e-06	-1.001498e-08	0.01018819	0.01233674	5.857289e-05	-8.13656e-07	0.01733263	0.008876904
3.9e+08	0.02066515	0.006668875	1.213415e-05	-2.059476e-06	0.01243179	0.01163277	1.950479e-06	-2.119575e-07
	1.213415e-05	-2.059476e-06	0.01964069	0.00778294	5.324912e-05	-7.152381e-06	0.01187289	0.01204106
	0.01243179	0.01163277	5.324912e-05	-7.152381e-06	0.02093205	0.006528814	5.772166e-05	-5.723516e-06
	1.950479e-06	-2.119575e-07	0.01187289	0.01204106	5.772166e-05	-5.723516e-06	0.019747	0.007880547
4e+08	0.02282518	0.004959294	1.177321e-05	-3.080675e-06	0.01403511	0.01087623	1.957542e-06	-4.171461e-07
	1.177321e-05	-3.080675e-06	0.0217696	0.006340977	5.18868e-05	-1.156674e-05	0.01344353	0.01141031
	0.01403511	0.01087623	5.18868e-05	-1.156674e-05	0.02308235	0.004768734	5.646561e-05	-1.049737e-05
	1.957542e-06	-4.171461e-07	0.01344353	0.01141031	5.646561e-05	-1.049737e-05	0.02187156	0.006431123
4.1e+08	0.02457167	0.002855231	1.132819e-05	-4.052945e-06	0.01543551	0.009806623	1.941876e-06	-6.227634e-07
	1.132819e-05	-4.052945e-06	0.02353226	0.004512967	5.016417e-05	-1.580133e-05	0.01483383	0.01047437
	0.01543551	0.009806623	5.016417e-05	-1.580133e-05	0.02480894	0.002616758	5.482345e-05	-1.510133e-05
	1.941876e-06	-6.227634e-07	0.01483383	0.01047437	5.482345e-05	-1.510133e-05	0.02362768	0.004596805
4.2e+08	0.02583881	0.0004472469	1.080581e-05	-4.969644e-06	0.01657243	0.00847144	1.904349e-06	-8.263918e-07
	1.080581e-05	-4.969644e-06	0.02486467	0.002379851	4.810407e-05	-1.982649e-05	0.01598488	0.009276049
	0.01657243	0.00847144	4.810407e-05	-1.982649e-05	0.02604667	0.0001653678	5.281667e-05	-1.950452e-05
	1.904349e-06	-8.263918e-07	0.01598488	0.009276049	5.281667e-05	-1.950452e-05	0.02495163	0.002458995
4.3e+08	0.02657975	-0.002163548	1.021314e-05	-5.825219e-06	0.01739615	0.006929641	1.845979e-06	-1.026013e-06
	1.021314e-05	-5.825219e-06	0.0257198	3.274034e-05	4.573166e-05	-2.361596e-05	0.01684761	0.007869266
	0.01739615	0.006929641	4.573166e-05	-2.361596e-05	0.0267497	-0.002482559	5.046891e-05	-2.367917e-05
	1.845979e-06	-1.026013e-06	0.01684761	0.007869266	5.046891e-05	-2.367917e-05	0.02579674	0.0001092097
4.4e+08	0.02676818	-0.004869376	9.557428e-06	-6.615148e-06	0.01786985	0.005249259	1.767818e-06	-1.21997e-06
	9.557428e-06	-6.615148e-06	0.0260691	-0.00243052	4.307374e-05	-2.714692e-05	0.01738484	0.006316915
	0.01786985	0.005249259	4.307374e-05	-2.714692e-05	0.02689305	-0.005217675	4.780547e-05	-2.760061e-05
	1.767818e-06	-1.21997e-06	0.01738484	0.006316915	4.780547e-05	-2.760061e-05	0.02613491	-0.002354392
4.5e+08	0.02639919	-0.007559844	8.84589e-06	-7.335847e-06	0.01797131	0.003504619	1.670851e-06	-1.406899e-06
	8.84589e-06	-7.335847e-06	0.02590339	-0.004909017	4.015821e-05	-3.039995e-05	0.01757287	0.004688272
	0.01797131	0.003504619	4.015821e-05	-3.039995e-05	0.02647342	-0.007928294	4.48528e-05	-3.124717e-05
	1.670851e-06	-1.406899e-06	0.01757287	0.004688272	4.48528e-05	-3.124717e-05	0.02595748	-0.004830672
4.6e+08	0.02548932	-0.01012613	8.085611e-06	-7.984551e-06	0.01769386	0.001773269	1.55593e-06	-1.585639e-06
	8.085611e-06	-7.984551e-06	0.02523302	-0.007302503	3.701371e-05	-3.335868e-05	0.01740252	0.003056161
	0.01769386	0.001773269	3.701371e-05	-3.335868e-05	0.02550918	-0.01050461	4.163817e-05	-3.460004e-05
	1.55593e-06	-1.585639e-06	0.01740252	0.003056161	4.163817e-05	-3.460004e-05	0.02527532	-0.007219272
4.7e+08	0.02407579	-0.01246505	7.283442e-06	-8.559164e-06	0.0170468	0.0001327664	1.423718e-06	-1.755092e-06
	7.283442e-06	-8.559164e-06	0.02408726	-0.009515103	3.366938e-05	-3.600928e-05	0.01687962	0.001493952
	0.0170468	0.0001327664	3.366938e-05	-3.600928e-05	0.02403956	-0.01284283	3.818924e-05	-3.764272e-05
	1.423718e-06	-1.755092e-06	0.01687962	0.001493952	3.818924e-05	-3.764272e-05	0.02411824	-0.009424322
4.8e+08	0.02221504	-0.01448296	6.445983e-06	-9.058125e-06	0.0160551	-0.001342568	1.274771e-06	-1.914222e-06
