!$
! Info: Touchstone file created by Circ.  Input file=Tx_12in_Rx_85ohms_TxVia_60mils_RxVia_70mils.circ
!$
# Hz S RI R 50
0	0.009712017	1.626384e-25	1.342216e-09	1.674629e-27	8.42139e-05	1.915359e-23	1.209951e-09	7.206468e-28
	1.342224e-09	1.674632e-27	0.009707269	1.918378e-25	9.225475e-10	2.426867e-27	8.441952e-05	2.364713e-23
	8.519455e-05	1.948934e-23	9.225364e-10	2.426839e-27	0.009725931	1.55674e-25	-3.27559e-09	4.501977e-25
	1.209949e-09	7.205275e-28	8.46891e-05	2.374853e-23	-3.275183e-09	4.501478e-25	0.009721672	1.910036e-25
1e+07	0.01380893	-0.01137909	2.837001e-09	3.281239e-09	0.0003703251	0.002254413	1.618766e-09	3.014389e-08
	2.837001e-09	3.281239e-09	0.01219264	-0.01148414	1.791981e-09	2.417763e-09	0.0004584103	0.002258245
	0.0003703338	0.00225438	1.791981e-09	2.417763e-09	0.01222385	-0.01168816	-4.019639e-09	1.813376e-08
	1.618767e-09	3.014389e-08	0.000458413	0.002258243	-4.019639e-09	1.813376e-08	0.01216894	-0.01147055
2e+07	0.01230047	-0.02640216	5.377486e-09	5.356137e-09	0.00121675	0.004350778	1.889071e-08	1.893822e-08
	5.377486e-09	5.356137e-09	0.01085716	-0.02598226	3.289334e-09	4.160915e-09	0.001334717	0.004279662
	0.001216723	0.004350778	3.289334e-09	4.160915e-09	0.01071265	-0.02631	-2.432134e-09	7.299865e-09
	1.889071e-08	1.893822e-08	0.001334714	0.004279663	-2.432134e-09	7.299866e-09	0.01084429	-0.02594492
3e+07	0.006021557	-0.04135106	8.672219e-09	5.66494e-09	0.002590128	0.006067275	3.050951e-08	1.770178e-08
	8.672219e-09	5.66494e-09	0.004705414	-0.04069036	4.946853e-09	5.0053e-09	0.0026519	0.005984993
	0.002590126	0.006067279	4.946853e-09	5.0053e-09	0.004453996	-0.04103928	8.856813e-09	5.891308e-09
	3.050951e-08	1.770178e-08	0.0026519	0.005984995	8.856813e-09	5.891308e-09	0.004699514	-0.0406393
4e+07	-0.004141639	-0.05445155	1.219104e-08	4.796168e-09	0.004307206	0.007352067	4.255268e-08	1.33099e-08
	1.219104e-08	4.796168e-09	-0.005350969	-0.05360403	6.911044e-09	5.208263e-09	0.004313819	0.007280848
	0.004307205	0.007352063	6.911044e-09	5.208263e-09	-0.005661511	-0.05395013	1.317751e-08	5.151621e-09
	4.255268e-08	1.33099e-08	0.00431382	0.007280849	1.317751e-08	5.151621e-09	-0.005352504	-0.05354171
5e+07	-0.01735012	-0.06472339	1.557139e-08	2.493439e-09	0.006244524	0.008142039	5.380924e-08	4.338152e-09
	1.557139e-08	2.493439e-09	-0.01846292	-0.06370729	8.787671e-09	4.660826e-09	0.006199782	0.008099791
	0.006244522	0.008142037	8.787671e-09	4.660826e-09	-0.01879691	-0.06404943	1.659657e-08	2.661427e-09
	5.380924e-08	4.338152e-09	0.006199783	0.008099791	1.659657e-08	2.661427e-09	-0.01846238	-0.0636339
6e+07	-0.03268	-0.07151299	1.829178e-08	-1.218437e-09	0.008266092	0.008407137	6.257673e-08	-9.262371e-09
	1.829178e-08	-1.218437e-09	-0.03369716	-0.07033366	1.032182e-08	3.37628e-09	0.008177209	0.008409285
	0.008266094	0.008407141	1.032182e-08	3.37628e-09	-0.03403032	-0.07068196	1.924848e-08	-1.22456e-09
	6.257673e-08	-9.262371e-09	0.00817721	0.008409285	1.924848e-08	-1.22456e-09	-0.03369593	-0.07024823
7e+07	-0.04914234	-0.07444645	1.985048e-08	-6.113291e-09	0.01023525	0.008153466	6.719974e-08	-2.671812e-08
	1.985048e-08	-6.113291e-09	-0.05005645	-0.07310525	1.126599e-08	1.4701e-09	0.01011281	0.0082128
	0.01023526	0.00815347	1.126599e-08	1.4701e-09	-0.05037476	-0.07347466	2.077111e-08	-6.281948e-09
	6.719974e-08	-2.671812e-08	0.01011281	0.008212799	2.077111e-08	-6.281948e-09	-0.05005504	-0.07300635
8e+07	-0.06573116	-0.07341465	1.983782e-08	-1.179417e-08	0.0120248	0.007421213	6.634579e-08	-4.665171e-08
	1.983782e-08	-1.179417e-08	-0.06652795	-0.07191385	1.141397e-08	-8.595858e-10	0.01188237	0.007547363
	0.01202481	0.007421215	1.141397e-08	-8.595859e-10	-0.06682587	-0.07231969	2.077654e-08	-1.218221e-08
	6.634579e-08	-4.665171e-08	0.01188237	0.007547363	2.077654e-08	-1.218221e-08	-0.06652612	-0.07179985
9e+07	-0.08147689	-0.06855669	1.798901e-08	-1.773861e-08	0.01352529	0.006279786	5.91817e-08	-6.726757e-08
	1.798901e-08	-1.773861e-08	-0.08213735	-0.06690287	1.062725e-08	-3.35228e-09	0.01337893	0.006478745
	0.0135253	0.006279785	1.062725e-08	-3.35228e-09	-0.08241461	-0.0673571	1.895803e-08	-1.84736e-08
	5.91817e-08	-6.726757e-08	0.01337893	0.006478745	1.895803e-08	-1.84736e-08	-0.08213408	-0.06677222
1e+08	-0.09549768	-0.06023531	1.42199e-08	-2.33588e-08	0.01465199	0.004821534	4.54767e-08	-8.655046e-08
	1.42199e-08	-2.33588e-08	-0.096003	-0.05844292	8.850503e-09	-5.707884e-09	0.01452102	0.005096123
	0.01465199	0.004821533	8.850503e-09	-5.707884e-09	-0.09625055	-0.05894674	1.514379e-08	-2.461421e-08
	4.54767e-08	-8.655046e-08	0.01452102	0.005096123	1.514379e-08	-2.461421e-08	-0.09599679	-0.05829451
1.1e+08	-0.1070411	-0.04899852	8.687261e-09	-2.816895e-08	0.01534532	0.003146966	2.59834e-08	-1.028337e-07
	8.687261e-09	-2.816895e-08	-0.10737	-0.04707319	6.137829e-09	-7.640318e-09	0.01524973	0.003484733
	0.01534532	0.003146966	6.137829e-09	-7.640318e-09	-0.1075868	-0.04769318	9.344891e-09	-2.970274e-08
	2.59834e-08	-1.028337e-07	0.01524973	0.003484733	9.344891e-09	-2.970274e-08	-0.1073583	-0.04690524
1.2e+08	-0.1155164	-0.03555163	1.54768e-09	-3.156048e-08	0.01556909	0.001376173	1.241784e-09	-1.142363e-07
	1.54768e-09	-3.156048e-08	-0.115636	-0.03352006	2.605767e-09	-8.87174e-09	0.01551801	0.001766925
	0.01556909	0.001376173	2.605767e-09	-8.87174e-09	-0.1158819	-0.03426294	1.85646e-09	-3.330023e-08
	1.241784e-09	-1.142363e-07	0.01551801	0.001766926	1.85646e-09	-3.330023e-08	-0.1156149	-0.03333291
1.3e+08	-0.1205268	-0.02070243	-6.801118e-09	-3.305778e-08	0.0153226	-0.0003737317	-2.742171e-08	-1.192122e-07
	-6.801118e-09	-3.305778e-08	-0.1204139	-0.0186035	-1.551001e-09	-9.156164e-09	0.01532513	5.817778e-05
	0.0153226	-0.0003737318	-1.551001e-09	-9.156164e-09	-0.1207289	-0.01945308	-6.904898e-09	-3.490923e-08
	-2.742171e-08	-1.192122e-07	0.01532513	5.817879e-05	-6.904898e-09	-3.490923e-08	-0.1203797	-0.0183989
1.4e+08	-0.1218775	-0.005316378	-1.582977e-08	-3.229703e-08	0.01463026	-0.001991351	-5.82623e-08	-1.165857e-07
	-1.582977e-08	-3.229703e-08	-0.1215187	-0.003197528	-6.07032e-09	-8.306643e-09	0.0146929	-0.00153255
	0.01463026	-0.001991351	-6.07032e-09	-8.306643e-09	-0.1219316	-0.004125241	-1.638416e-08	-3.414735e-08
	-5.82623e-08	-1.165857e-07	0.0146929	-0.001532549	-1.638416e-08	-3.414735e-08	-0.1214684	-0.002978415
1.5e+08	-0.1195799	0.009729775	-2.490984e-08	-2.90657e-08	0.01354028	-0.003375358	-8.921795e-08	-1.056574e-07
	-2.490984e-08	-2.90657e-08	-0.1189737	0.01181533	-1.06401e-08	-6.20977e-09	0.0136659	-0.002905739
	0.01354028	-0.003375358	-1.06401e-08	-6.20977e-09	-0.1195014	0.01084631	-2.592195e-08	-3.079005e-08
	-8.921795e-08	-1.056574e-07	0.0136659	-0.002905738	-2.592195e-08	-3.079005e-08	-0.1189052	0.012045
1.6e+08	-0.1138462	0.02359342	-3.335711e-08	-2.332735e-08	0.01212186	-0.00443871	-1.180339e-07	-8.628193e-08
	-3.335711e-08	-2.332735e-08	-0.1130051	0.02559	-1.491835e-08	-2.837493e-09	0.01230909	-0.003975175
	0.01212186	-0.00443871	-1.491835e-08	-2.837493e-09	-0.1136515	0.02462101	-3.479966e-08	-2.479725e-08
	-1.180339e-07	-8.628193e-08	0.01230909	-0.003975174	-3.479966e-08	-2.479725e-08	-0.1129174	0.02582555
1.7e+08	-0.1050757	0.03550908	-4.04804e-08	-1.523415e-08	0.01046187	-0.005112383	-1.424054e-07	-5.891801e-08
	-4.04804e-08	-1.523415e-08	-0.1040267	0.03736229	-1.855557e-08	1.746017e-09	0.01070482	-0.004671515
	0.01046187	-0.005112383	-1.855557e-08	1.746017e-09	-0.104782	0.03643539	-4.229048e-08	-1.632688e-08
	-1.424054e-07	-5.891801e-08	0.01070482	-0.004671514	-4.229048e-08	-1.632688e-08	-0.1039201	0.03759863
1.8e+08	-0.09383187	0.04482748	-4.563256e-08	-5.126148e-09	0.008661072	-0.005348732	-1.601337e-07	-2.464378e-08
	-4.563256e-08	-5.126148e-09	-0.09261658	0.04648826	-2.121869e-08	7.382862e-09	0.008949375	-0.004945563
	0.008661072	-0.005348732	-2.121869e-08	7.382862e-09	-0.09345771	0.04564237	-4.771297e-08	-5.734507e-09
	-1.601337e-07	-2.464378e-08	0.008949375	-0.004945562	-4.771297e-08	-5.734507e-09	-0.09249284	0.04672031
1.9e+08	-0.08081254	0.05104951	-4.82603e-08	6.48282e-09	0.006829612	-0.005124404	-1.692888e-07	1.486524e-08
	-4.82603e-08	6.48282e-09	-0.07948591	0.05247815	-2.261529e-08	1.382566e-08	0.007148849	-0.004771213
	0.006829612	-0.005124404	-2.261529e-08	1.382566e-08	-0.08037786	0.05174537	-5.048346e-08	6.440947e-09
	-1.692888e-07	1.486524e-08	0.007148849	-0.004771213	-5.048346e-08	6.440947e-09	-0.07934836	0.05270126
2e+08	-0.06681286	0.0538535	-4.794933e-08	1.893202e-08	0.005081721	-0.004442621	-1.683705e-07	5.740016e-08
	-4.794933e-08	1.893202e-08	-0.06544096	0.05502344	-2.251705e-08	2.074774e-08	0.005414147	-0.004147848
	0.005081721	-0.004442621	-2.251705e-08	2.074774e-08	-0.06633869	0.05442572	-5.016401e-08	1.950511e-08
	-1.683705e-07	5.740016e-08	0.005414148	-0.004147848	-5.016401e-08	1.950511e-08	-0.06529423	0.05523378
2.1e+08	-0.05268237	0.05311434	-4.446193e-08	3.1452e-08	0.003529534	-0.003334465	-1.564571e-07	1.00327e-07
	-4.446193e-08	3.1452e-08	-0.05133903	0.05401529	-2.078095e-08	2.775935e-08	0.003855102	-0.003101828
	0.003529534	-0.003334465	-2.078095e-08	2.775935e-08	-0.05219049	0.0535617	-4.650235e-08	3.264811e-08
	-1.564571e-07	1.00327e-07	0.003855102	-0.003101828	-4.650235e-08	3.264811e-08	-0.05118888	0.05421026
2.2e+08	-0.03927778	0.04891266	-3.776393e-08	4.321187e-08	0.00227618	-0.001858729	-1.333285e-07	1.407386e-07
	-3.776393e-08	4.321187e-08	-0.03804033	0.04955289	-1.73668e-08	3.442964e-08	0.002573789	-0.001686609
	0.00227618	-0.001858729	-1.73668e-08	3.442964e-08	-0.03879013	0.0492377	-3.946092e-08	4.499441e-08
	-1.333285e-07	1.407386e-07	0.002573789	-0.001686609	-3.946092e-08	4.499441e-08	-0.03789332	0.04973144
2.3e+08	-0.02741353	0.04153284	-2.803933e-08	5.337297e-08	0.001408522	-9.987264e-05	-9.955011e-08	1.756447e-07
	-2.803933e-08	5.337297e-08	-0.02635789	0.04194031	-1.234933e-08	4.031378e-08	0.001657436	1.896165e-05
	0.001408522	-9.987264e-05	-1.234933e-08	4.031378e-08	-0.02695143	0.04174207	-2.923267e-08	5.565962e-08
	-9.955011e-08	1.756447e-07	0.001657436	1.89616e-05	-2.923267e-08	5.565962e-08	-0.02622094	0.04210312
2.4e+08	-0.01781297	0.03144878	-1.569092e-08	6.114559e-08	0.0009901786	0.001836197	-5.650251e-08	2.021901e-07
	-1.569092e-08	6.114559e-08	-0.01700844	0.03167093	-5.923141e-09	4.498394e-08	0.001171504	0.001914489
	0.0009901785	0.001836197	-5.923141e-09	4.498394e-08	-0.01739633	0.03155271	-1.62421e-08	6.381082e-08
	-5.650251e-08	2.021901e-07	0.001171504	0.001914489	-1.62421e-08	6.381082e-08	-0.01688838	0.03182057
2.5e+08	-0.01106357	0.01929747	-1.326637e-09	6.584535e-08	0.001055626	0.003828567	-6.348383e-09	2.178849e-07
	-1.326637e-09	6.584535e-08	-0.0105676	0.01939951	1.600962e-09	4.806242e-08	0.001153767	0.003884085
	0.001055626	0.003828567	1.600962e-09	4.806242e-08	-0.01070994	0.01931034	-1.130761e-09	6.872658e-08
	-6.348383e-09	2.178849e-07	0.001153767	0.003884085	-1.130761e-09	6.872658e-08	-0.01047063	0.01954038
2.6e+08	-0.007579341	0.005841194	1.426823e-08	6.694585e-08	0.001606219	0.005749666	4.807011e-08	2.20826e-07
	1.426823e-08	6.694585e-08	-0.007432826	0.00590301	9.809117e-09	4.925408e-08	0.001610202	0.005804331
	0.001606219	0.005749666	9.809117e-09	4.925408e-08	-0.007303074	0.005780524	1.527244e-08	6.985306e-08
	4.807011e-08	2.20826e-07	0.001610202	0.005804331	1.527244e-08	6.985306e-08	-0.00736406	0.006041223
2.7e+08	-0.007573978	-0.00807942	3.01721e-08	6.412429e-08	0.002608857	0.007474841	1.034002e-07	2.098873e-07
	3.01721e-08	6.412429e-08	-0.007797408	-0.007967668	1.820723e-08	4.837533e-08	0.002513418	0.007553505
	0.002608857	0.007474841	1.820723e-08	4.837533e-08	-0.007385489	-0.008193559	3.199526e-08	6.685226e-08
	1.034002e-07	2.098873e-07	0.002513418	0.007553505	3.199526e-08	6.685226e-08	-0.007760394	-0.007824614
2.8e+08	-0.01104707	-0.02159839	4.537987e-08	5.729676e-08	0.003997703	0.008892192	1.560027e-07	1.848572e-07
	4.537987e-08	5.729676e-08	-0.01163792	-0.02134168	2.625237e-08	4.537646e-08	0.003804049	0.009021125
	0.003997703	0.008892192	2.625237e-08	4.537646e-08	-0.01095228	-0.02174428	4.797849e-08	5.963913e-08
	1.560027e-07	1.848572e-07	0.003804049	0.009021125	4.797849e-08	5.963913e-08	-0.01163427	-0.0211853
2.9e+08	-0.01778488	-0.03387934	5.886511e-08	4.664023e-08	0.005678967	0.009911547	2.022135e-07	1.465065e-07
	5.886511e-08	4.664023e-08	-0.01871651	-0.03338387	3.33906e-08	4.035449e-08	0.005395133	0.01011674
	0.005678967	0.009911547	3.33906e-08	4.035449e-08	-0.01778491	-0.0340347	6.214225e-08	4.840409e-08
	2.022135e-07	1.465065e-07	0.005395133	0.01011674	6.214225e-08	4.840409e-08	-0.01874563	-0.03320521
3e+08	-0.02737564	-0.04416831	6.964859e-08	3.259829e-08	0.007538299	0.01047154	2.386173e-07	9.657645e-08
	6.964859e-08	3.259829e-08	-0.02859788	-0.04334774	3.909818e-08	3.355466e-08	0.007179049	0.01077689
	0.007538299	0.01047154	3.909818e-08	3.355466e-08	-0.02746678	-0.04431133	7.345851e-08	3.361811e-08
	2.386173e-07	9.657645e-08	0.007179049	0.01077689	7.345851e-08	3.361811e-08	-0.02865686	-0.04313795
3.1e+08	-0.03923821	-0.05184003	7.68688e-08	1.586858e-08	0.009449954	0.010544	2.623093e-07	3.768821e-08
	7.68688e-08	1.586858e-08	-0.04067955	-0.05062154	4.292226e-08	2.535981e-08	0.0090362	0.01096957
	0.009449954	0.010544	4.292226e-08	2.535981e-08	-0.03941217	-0.05195054	8.102527e-08	1.601839e-08
	2.623093e-07	3.768821e-08	0.0090362	0.01096957	8.102527e-08	1.601839e-08	-0.0407632	-0.05037248
3.2e+08	-0.05266131	-0.05643467	7.984944e-08	-2.629259e-09	0.01128667	0.01013522	2.711193e-07	-2.681934e-08
	7.984944e-08	-2.629259e-09	-0.05423269	-0.0547642	4.451747e-08	1.626819e-08	0.01084442	0.01069565
	0.01128667	0.01013522	4.451747e-08	1.626819e-08	-0.05290568	-0.05649507	8.413683e-08	-3.426355e-09
	2.711193e-07	-2.681934e-08	0.01084442	0.01069565	8.413683e-08	-3.426355e-09	-0.05433372	-0.05446903
3.3e+08	-0.06685003	-0.05768238	7.815799e-08	-2.180428e-08	0.01292913	0.009284271	2.637815e-07	-9.310628e-08
	7.815799e-08	-2.180428e-08	-0.06844992	-0.05552875	4.367502e-08	6.861491e-09	0.01248805	0.009987486
	0.01292913	0.009284271	4.367502e-08	6.861491e-09	-0.06714905	-0.05767846	8.234433e-08	-2.356982e-08
	2.637815e-07	-9.310628e-08	0.01248805	0.009987486	8.234433e-08	-2.356982e-08	-0.06855929	-0.05518253
3.4e+08	-0.0809759	-0.05551485	7.163928e-08	-4.047332e-08	0.01427414	0.008058657	2.400001e-07	-1.570678e-07
	7.163928e-08	-4.047332e-08	-0.08249626	-0.05287257	4.034022e-08	-2.232274e-09	0.01386574	0.008904975
	0.01427414	0.008058657	4.034022e-08	-2.232274e-09	-0.08131129	-0.05543642	7.548977e-08	-4.317056e-08
	2.400001e-07	-1.570678e-07	0.01386574	0.008904975	7.548977e-08	-4.317056e-08	-0.08260369	-0.05247268
3.5e+08	-0.09422667	-0.05006378	6.046195e-08	-5.740678e-08	0.01524081	0.006548224	2.005907e-07	-2.14627e-07
	6.046195e-08	-5.740678e-08	-0.09555949	-0.04695427	3.462415e-08	-1.038538e-08	0.01489648	0.007529959
	0.01524081	0.006548224	3.462415e-08	-1.038538e-08	-0.09457862	-0.04990514	6.375458e-08	-6.09413e-08
	2.005907e-07	-2.14627e-07	0.01489648	0.007529959	6.375458e-08	-6.09413e-08	-0.09565408	-0.04650067
3.6e+08	-0.1058527	-0.04164783	4.510716e-08	-7.143618e-08	0.01577449	0.004858014	1.473411e-07	-2.619872e-07
	4.510716e-08	-7.143618e-08	-0.1068967	-0.03811892	2.679486e-08	-1.701015e-08	0.01552343	0.005959605
	0.01577449	0.004858014	2.679486e-08	-1.701015e-08	-0.1062009	-0.04140787	4.764603e-08	-7.566017e-08
	1.473411e-07	-2.619872e-07	0.01552343	0.005959605	4.764603e-08	-7.566017e-08	-0.1069676	-0.03761427
3.7e+08	-0.1152077	-0.03074939	2.634912e-08	-8.15333e-08	0.01584857	0.003100922	8.293457e-08	-2.958609e-07
	2.634912e-08	-8.15333e-08	-0.1158747	-0.02687321	1.726311e-08	-2.15982e-08	0.01571579	0.004299595
	0.01584857	0.003100922	1.726311e-08	-2.15982e-08	-0.1155323	-0.03043158	2.797665e-08	-8.625269e-08
	8.293457e-08	-2.958609e-07	0.01571579	0.004299595	2.797665e-08	-8.625269e-08	-0.1159117	-0.02632292
3.8e+08	-0.1217813	-0.01798377	5.213874e-09	-8.688274e-08	0.01546433	0.001390737	1.080751e-08	-3.136715e-07
	5.213874e-09	-8.688274e-08	-0.122002	-0.01385317	6.558226e-09	-2.375393e-08	0.01546889	0.002657672
	0.01546433	0.001390737	6.558226e-09	-2.375393e-08	-0.122064	-0.01759589	5.821335e-09	-9.18669e-08
	1.080751e-08	-3.136715e-07	0.01546889	0.002657672	5.821335e-09	-9.18669e-08	-0.1219964	-0.0132651
3.9e+08	-0.1252239	-0.004062857	-1.708113e-08	-8.694222e-08	0.01464943	-0.0001640596	-6.503577e-08	-3.137123e-07
	-1.708113e-08	-8.694222e-08	-0.1249524	0.0002135244	-4.703354e-09	-2.322021e-08	0.01480297	0.001137863
	0.01464943	-0.0001640596	-4.703354e-09	-2.322021e-08	-0.1254487	-0.00361652	-1.754541e-08	-9.193591e-08
	-6.503577e-08	-3.137123e-07	0.01480297	0.001137863	-1.754541e-08	-9.193591e-08	-0.1248976	0.0008293568
4e+08	-0.1253619	0.01024459	-3.920117e-08	-8.14852e-08	0.01345525	-0.001465584	-1.402362e-07	-2.9526e-07
	-3.920117e-08	-8.14852e-08	-0.1245796	0.01454822	-1.585398e-08	-1.989531e-08	0.01376101	-0.0001644731
	0.01345525	-0.001465584	-1.585398e-08	-1.989531e-08	-0.1255159	0.01073451	-4.07263e-08	-8.622232e-08
	-1.402362e-07	-2.9526e-07	0.01376101	-0.000164473	-4.07263e-08	-8.622232e-08	-0.1244712	0.01518023
4.1e+08	-0.122204	0.0241541	-5.97765e-08	-7.062318e-08	0.01195371	-0.002430961	-2.103109e-07	-2.58641e-07
	-5.97765e-08	-7.062318e-08	-0.1209214	0.02836323	-2.621298e-08	-1.38409e-08	0.01240599	-0.001166847
	0.01195371	-0.002430961	-2.621298e-08	-1.38409e-08	-0.122278	0.02467022	-6.228666e-08	-7.484178e-08
	-2.103109e-07	-2.58641e-07	0.01240599	-0.001166847	-6.228666e-08	-7.484178e-08	-0.1207582	0.02899889
4.2e+08	-0.1159395	0.03690651	-7.748745e-08	-5.480679e-08	0.01023345	-0.002995967	-2.708943e-07	-2.05249e-07
	-7.748745e-08	-5.480679e-08	-0.1141967	0.04090327	-3.512507e-08	-5.281243e-09	0.01081768	-0.001803198
	0.01023345	-0.002995967	-3.512507e-08	-5.281243e-09	-0.1159285	0.03742979	-8.08429e-08	-5.826469e-08
	-2.708943e-07	-2.05249e-07	0.01081768	-0.001803198	-8.08429e-08	-5.826469e-08	-0.1139805	0.04152983
4.3e+08	-0.1069273	0.0478074	-9.114704e-08	-3.480606e-08	0.008395771	-0.003118033	-3.179827e-07	-1.375128e-07
	-9.114704e-08	-3.480606e-08	-0.1047928	0.05148491	-4.199734e-08	5.405695e-09	0.009089064	-0.002026951
	0.008395771	-0.003118033	-4.199734e-08	5.405695e-09	-0.1068308	0.04831809	-9.514893e-08	-3.729653e-08
	-3.179827e-07	-1.375128e-07	0.009089064	-0.002026951	-9.514893e-08	-3.729653e-08	-0.1045285	0.05209016
4.4e+08	-0.09567784	0.05626356	-9.977653e-08	-1.167134e-08	0.006549985	-0.002778661	-3.481738e-07	-5.881302e-08
	-9.977653e-08	-1.167134e-08	-0.09324553	0.05953271	-4.633356e-08	1.770466e-08	0.007322243	-0.001813609
	0.006549985	-0.002778661	-4.633356e-08	1.770466e-08	-0.09549991	0.0567422	-1.041755e-07	-1.303774e-08
	-3.481738e-07	-5.881302e-08	0.007322243	-0.001813609	-1.041755e-07	-1.303774e-08	-0.09294112	0.06010579
4.5e+08	-0.0828266	0.06181509	-1.026696e-07	1.332277e-08	0.004808305	-0.001985167	-3.588932e-07	2.66559e-08
	-1.026696e-07	1.332277e-08	-0.08021148	0.06461064	-4.776466e-08	3.098639e-08	0.005623791	-0.001162805
	0.004808305	-0.001985167	-4.776466e-08	3.098639e-08	-0.0825757	0.06224354	-1.071783e-07	1.317419e-08
	-3.588932e-07	2.66559e-08	0.005623791	-0.001162805	-1.071783e-07	1.317419e-08	-0.07987745	0.0651427
4.6e+08	-0.06910176	0.06416167	-9.944195e-08	3.87474e-08	0.00328008	-0.000771555	-3.48595e-07	1.140779e-07
	-9.944195e-08	3.87474e-08	-0.06643381	0.06644722	-4.607459e-08	4.453717e-08	0.004099363	-9.957386e-05
	0.00328008	-0.000771555	-4.607459e-08	4.453717e-08	-0.0687905	0.06452409	-1.03751e-07	3.983782e-08
	-3.48595e-07	1.140779e-07	0.004099363	-9.957386e-05	-1.03751e-07	3.983782e-08	-0.06608275	0.06693211
4.7e+08	-0.05528551	0.06318143	-9.006299e-08	6.309963e-08	0.002065497	0.0008018027	-3.169232e-07	1.982616e-07
	-9.006299e-08	6.309963e-08	-0.0527025	0.06495295	-4.122011e-08	5.759425e-08	0.002847682	0.001325482
	0.002065497	0.0008018027	-4.122011e-08	5.759425e-08	-0.05492998	0.06346524	-9.38595e-08	6.537201e-08
	-3.169232e-07	1.982616e-07	0.002847682	0.001325482	-9.38595e-08	6.537201e-08	-0.05234845	0.06538765
4.8e+08	-0.04217116	0.05894093	-7.486862e-08	8.488878e-08	0.001248959	0.002650054	-2.648156e-07	2.739345e-07
