!$
! Info: Touchstone file created by Circ.  Input file=Tx_10in_Rx_100ohms_TxVia_60mils_RxVia_70mils.circ
!$
# Hz S RI R 50
0	0.01043798	1.401419e-25	1.342242e-09	1.619789e-27	7.329508e-05	2.059428e-23	1.210206e-09	6.983027e-28
	1.34225e-09	1.619792e-27	0.01043322	1.646099e-25	9.231919e-10	2.334275e-27	7.350085e-05	2.542693e-23
	7.427547e-05	2.095529e-23	9.231808e-10	2.334248e-27	0.01045186	1.341635e-25	-3.268669e-09	4.494842e-25
	1.210204e-09	6.981824e-28	7.37704e-05	2.553596e-23	-3.268262e-09	4.494344e-25	0.0104476	1.638868e-25
1e+07	0.01438194	0.006881746	2.720804e-09	3.401382e-09	0.0003128066	0.001908439	1.288421e-10	3.026582e-08
	2.720804e-09	3.401382e-09	0.0153899	0.006624998	1.770814e-09	2.496744e-09	0.0006643306	0.001955765
	0.0003128159	0.001908406	1.770814e-09	2.496744e-09	0.01495246	0.00660466	-4.885579e-09	1.784405e-08
	1.288424e-10	3.026582e-08	0.0006643332	0.001955763	-4.885579e-09	1.784405e-08	0.01525204	0.006648316
2e+07	0.01955405	0.01012292	4.987744e-09	5.765508e-09	0.0008996854	0.003760044	1.705881e-08	2.079224e-08
	4.987744e-09	5.765508e-09	0.02004974	0.009375293	3.199492e-09	4.399891e-09	0.001125361	0.003990166
	0.0008996583	0.003760043	3.199492e-09	4.399891e-09	0.01970542	0.009503499	-3.049372e-09	6.865756e-09
	1.705881e-08	2.079224e-08	0.001125358	0.003990166	-3.049372e-09	6.865756e-09	0.01996024	0.009468844
3e+07	0.02404317	0.01105605	8.036208e-09	6.668203e-09	0.001834132	0.005405483	2.780717e-08	2.208428e-08
	8.036208e-09	6.668203e-09	0.02412325	0.01022539	4.786478e-09	5.525505e-09	0.001966136	0.005704142
	0.001834129	0.005405488	4.786478e-09	5.525505e-09	0.02387505	0.01039887	8.085259e-09	6.846032e-09
	2.780717e-08	2.208428e-08	0.001966136	0.005704144	8.08526e-09	6.846032e-09	0.02407534	0.01034514
4e+07	0.02809853	0.01077518	1.143018e-08	6.685638e-09	0.003067941	0.006804314	3.948489e-08	2.139221e-08
	1.143018e-08	6.685638e-09	0.02782534	0.01000282	6.74024e-09	6.146632e-09	0.003148442	0.007141791
	0.003067941	0.006804309	6.74024e-09	6.146632e-09	0.02767923	0.01018359	1.222273e-08	7.163809e-09
	3.948489e-08	2.139221e-08	0.003148442	0.007141792	1.222273e-08	7.163809e-09	0.02781519	0.01013358
5e+07	0.0317229	0.009566264	1.500819e-08	5.568557e-09	0.004541591	0.007906195	5.164259e-08	1.719805e-08
	1.500819e-08	5.568557e-09	0.03115483	0.008943089	8.774607e-09	6.151942e-09	0.004725278	0.008187993
	0.004541589	0.007906193	8.774607e-09	6.151942e-09	0.0311142	0.009100999	1.586833e-08	5.929533e-09
	5.164259e-08	1.719805e-08	0.004725279	0.008187993	1.586833e-08	5.929533e-09	0.03117813	0.009074907
6e+07	0.03486427	0.007599575	1.844162e-08	3.242317e-09	0.00618707	0.008671902	6.324852e-08	9.003616e-09
	1.844162e-08	3.242317e-09	0.03406391	0.007192524	1.073041e-08	5.499479e-09	0.006438711	0.00888176
	0.006187072	0.008671906	1.073041e-08	5.499479e-09	0.03412582	0.007298436	1.928901e-08	3.467771e-09
	6.324852e-08	9.003616e-09	0.006438713	0.00888176	1.928901e-08	3.467771e-09	0.03411592	0.007317988
7e+07	0.03745728	0.005013036	2.137159e-08	-2.544949e-10	0.007941791	0.009066125	7.311895e-08	-3.154827e-09
	2.137159e-08	-2.544949e-10	0.03649191	0.004870563	1.242638e-08	4.206399e-09	0.00821743	0.00920704
	0.0079418	0.009066131	1.242638e-08	4.206399e-09	0.03664748	0.004897595	2.225648e-08	-1.581921e-10
	7.311895e-08	-3.154827e-09	0.008217431	0.009207039	2.225648e-08	-1.581923e-10	0.03656727	0.004983901
8e+07	0.03943962	0.001936946	2.345661e-08	-4.777441e-09	0.009716666	0.009085693	8.009905e-08	-1.883626e-08
	2.345661e-08	-4.777441e-09	0.038381	0.002091868	1.368265e-08	2.341279e-09	0.00998688	0.009160791
	0.009716679	0.009085696	1.368265e-08	2.341278e-09	0.038616	0.002016148	2.446767e-08	-4.859652e-09
	8.009905e-08	-1.883626e-08	0.009986881	0.00916079	2.446767e-08	-4.859652e-09	0.03847357	0.002188795
9e+07	0.04075941	-0.001498599	2.441739e-08	-1.009386e-08	0.0114323	0.008739851	8.317796e-08	-3.726334e-08
	2.441739e-08	-1.009386e-08	0.03968538	-0.001026387	1.43464e-08	2.20716e-11	0.01167193	0.008753836
	0.01143231	0.008739851	1.43464e-08	2.207149e-11	0.03998051	-0.001225184	2.563211e-08	-1.048013e-08
	8.317796e-08	-3.726334e-08	0.01167193	0.008753835	2.563211e-08	-1.048013e-08	0.03978834	-0.000948708
1e+08	0.04137322	-0.005165287	2.40446e-08	-1.590685e-08	0.01301998	0.008052826	8.157799e-08	-5.739085e-08
	2.40446e-08	-1.590685e-08	0.04038963	-0.004356772	1.4288e-08	-2.587181e-09	0.01319422	0.008007863
	0.01301998	0.008052825	1.4288e-08	-2.587181e-09	0.04071944	-0.004695603	2.548576e-08	-1.680365e-08
	8.157799e-08	-5.739085e-08	0.01319422	0.008007863	2.548576e-08	-1.680365e-08	0.04049413	-0.004300488
1.1e+08	0.04126725	-0.008880231	2.23823e-08	-2.197303e-08	0.01441162	0.00703546	7.536976e-08	-7.818697e-08
	2.23823e-08	-2.197303e-08	0.04047814	-0.007875353	1.350303e-08	-5.312506e-09	0.01448894	0.007004095
	0.01441162	0.00703546	1.350303e-08	-5.312506e-09	0.04081155	-0.008354795	2.371669e-08	-2.324689e-08
	7.536976e-08	-7.818697e-08	0.01448893	0.007004095	2.371669e-08	-2.324689e-08	0.04057589	-0.007831531
1.2e+08	0.04049085	-0.01254525	1.915378e-08	-2.79409e-08	0.01552615	0.005755608	6.386391e-08	-9.848489e-08
	1.915378e-08	-2.79409e-08	0.03986729	-0.01139668	1.190543e-08	-8.054071e-09	0.01553901	0.00576626
	0.01552615	0.005755608	1.190543e-08	-8.054071e-09	0.04018207	-0.01201723	2.03131e-08	-2.952808e-08
	6.386391e-08	-9.848489e-08	0.01553901	0.005766261	2.03131e-08	-2.952808e-08	0.0399589	-0.01136196
1.3e+08	0.03906001	-0.016044	1.438037e-08	-3.339472e-08	0.01632294	0.004279493	4.714782e-08	-1.169348e-07
	1.438037e-08	-3.339472e-08	0.03860013	-0.01478244	9.467231e-09	-1.053432e-08	0.01629229	0.0043456
	0.01632294	0.004279493	9.467231e-09	-1.053432e-08	0.03887142	-0.01554048	1.528662e-08	-3.526663e-08
	4.714782e-08	-1.169348e-07	0.01629229	0.004345601	1.528662e-08	-3.526663e-08	0.03868457	-0.01475464
1.4e+08	0.03701877	-0.01926121	8.154472e-09	-3.79587e-08	0.01677086	0.002678027	2.556352e-08	-1.322599e-07
	8.154472e-09	-3.79587e-08	0.03672456	-0.01791372	6.237012e-09	-1.254775e-08	0.01671578	0.002806458
	0.01677086	0.002678027	6.237012e-09	-1.254775e-08	0.03692774	-0.01879995	8.73526e-09	-4.006767e-08
	2.556352e-08	-1.322599e-07	0.01671577	0.002806459	8.73526e-09	-4.006767e-08	0.03680077	-0.01789071
1.5e+08	0.03443156	-0.02209118	6.564014e-10	-4.127455e-08	0.01685325	0.001026545	-2.460311e-10	-1.432556e-07
	6.564014e-10	-4.127455e-08	0.0343051	-0.02068423	2.311575e-09	-1.389821e-08	0.01679152	0.001219058
	0.01685325	0.001026545	2.311575e-09	-1.389821e-08	0.03441745	-0.02168362	8.493133e-10	-4.355458e-08
	-2.460311e-10	-1.432556e-07	0.01679151	0.001219059	8.493133e-10	-4.355458e-08	0.03437225	-0.02066378
1.6e+08	0.03138062	-0.02444182	-7.849079e-09	-4.302194e-08	0.01656894	-0.000598015	-2.935442e-08	-1.488583e-07
	-7.849079e-09	-4.302194e-08	0.03142222	-0.02300219	-2.166003e-09	-1.441064e-08	0.01651678	-0.0003440288
	0.01656894	-0.000598015	-2.166003e-09	-1.441064e-08	0.03142432	-0.02409435	-8.092155e-09	-4.5391e-08
	-2.935442e-08	-1.488583e-07	0.01651678	-0.0003440281	-8.092155e-09	-4.5391e-08	0.03147984	-0.022982
1.7e+08	0.02796312	-0.02623765	-1.702082e-08	-4.293814e-08	0.01593244	-0.002120261	-6.058379e-08	-1.482106e-07
	-1.702082e-08	-4.293814e-08	0.02817025	-0.02479257	-7.011089e-09	-1.394183e-08	0.01590401	-0.001811153
	0.01593244	-0.002120261	-7.011089e-09	-1.394183e-08	0.02804724	-0.02595256	-1.772991e-08	-4.530147e-08
	-6.058379e-08	-1.482106e-07	0.01590401	-0.001811153	-1.772991e-08	-4.530147e-08	0.02821828	-0.02477032
1.8e+08	0.02428803	-0.02742235	-2.645382e-08	-4.083593e-08	0.01497338	-0.003469493	-9.255096e-08	-1.407177e-07
	-2.645382e-08	-4.083593e-08	0.02465442	-0.02599918	-1.200467e-08	-1.239005e-08	0.01498023	-0.003114721
	0.01497338	-0.003469493	-1.200467e-08	-1.239005e-08	0.02439712	-0.02719851	-2.76378e-08	-4.30901e-08
	-9.255096e-08	-1.407177e-07	0.01498023	-0.00311472	-2.76378e-08	-4.30901e-08	0.02469326	-0.0259726
1.9e+08	0.02047239	-0.02796062	-3.569797e-08	-3.661694e-08	0.01373523	-0.004582707	-1.237262e-07	-1.260948e-07
	-3.569797e-08	-3.661694e-08	0.02098754	-0.02658622	-1.690374e-08	-9.702743e-09	0.01378584	-0.004194124
	0.01373523	-0.004582707	-1.690374e-08	-9.702743e-09	0.02059323	-0.02779416	-3.734235e-08	-3.865464e-08
	-1.237262e-07	-1.260948e-07	0.01378584	-0.004194123	-3.734235e-08	-3.865464e-08	0.02101801	-0.02655321
2e+08	0.01663742	-0.0278394	-4.427279e-08	-3.028608e-08	0.01227351	-0.005407274	-1.525026e-07	-1.044011e-07
	-4.427279e-08	-3.028608e-08	0.01728625	-0.02653929	-2.144987e-08	-5.882528e-09	0.01237291	-0.004998363
	0.01227351	-0.005407274	-2.144987e-08	-5.882528e-09	0.01675919	-0.02772432	-4.633867e-08	-3.200143e-08
	-1.525026e-07	-1.044011e-07	0.01237291	-0.004998363	-4.633867e-08	-3.200143e-08	0.01730959	-0.02649799
2.1e+08	0.01290434	-0.02706822	-5.169364e-08	-2.195915e-08	0.01065333	-0.005903209	-1.772734e-07	-7.605823e-08
	-5.169364e-08	-2.195915e-08	0.01366716	-0.0258657	-2.538309e-08	-9.913451e-10	0.01080295	-0.005488255
	0.01065333	-0.005903209	-2.538309e-08	-9.913451e-10	0.01301878	-0.02699706	-5.411778e-08	-2.325328e-08
	-1.772734e-07	-7.605823e-08	0.01080295	-0.005488255	-5.411778e-08	-2.325328e-08	0.01368495	-0.02581455
2.2e+08	0.009390197	-0.02567891	-5.749898e-08	-1.186156e-08	0.008946649	-0.006044889	-1.965137e-07	-4.185162e-08
	-5.749898e-08	-1.186156e-08	0.01024288	-0.02459401	-2.845647e-08	4.849864e-09	0.009144215	-0.005638135
	0.008946649	-0.006044889	-2.845647e-08	4.849864e-09	0.00949163	-0.02564337	-6.019519e-08	-1.264821e-08
	-1.965137e-07	-4.185162e-08	0.009144215	-0.005638135	-6.019519e-08	-1.264821e-08	0.01025699	-0.02453185
2.3e+08	0.006203801	-0.02372444	-6.127419e-08	-3.250514e-10	0.007229134	-0.005822156	-2.088622e-07	-2.913408e-09
	-6.127419e-08	-3.250514e-10	0.007118289	-0.02277295	-3.044881e-08	1.146379e-08	0.007468813	-0.005436968
	0.007229134	-0.005822156	-3.044881e-08	1.146379e-08	0.006289082	-0.02371595	-6.4136e-08	-5.358816e-10
	-2.088622e-07	-2.913408e-09	0.007468813	-0.005436968	-6.4136e-08	-5.358816e-10	0.007130786	-0.02269906
2.4e+08	0.003441896	-0.02127702	-6.267617e-08	1.222263e-08	0.005576875	-0.005240762	-2.132e-07	3.93135e-08
	-6.267617e-08	1.222263e-08	0.004386867	-0.0204696	-3.117739e-08	1.862253e-08	0.005849576	-0.004888834
	0.005576875	-0.005240762	-3.117739e-08	1.862253e-08	0.003510226	-0.02128726	-6.558075e-08	1.26333e-08
	-2.132e-07	3.93135e-08	0.005849576	-0.004888834	-6.558075e-08	1.26333e-08	0.004399915	-0.02038372
2.5e+08	0.00118577	-0.01842547	-6.145565e-08	2.527383e-08	0.004063091	-0.004322103	-2.087211e-07	8.312909e-08
	-6.145565e-08	2.527383e-08	0.002127608	-0.0177669	-3.050951e-08	2.605637e-08	0.00435692	-0.004012746
	0.004063091	-0.004322103	-3.050951e-08	2.605637e-08	0.001238461	-0.0184469	-6.426882e-08	2.632522e-08
	-2.087211e-07	8.312909e-08	0.00435692	-0.004012746	-6.426882e-08	2.632522e-08	0.00214337	-0.01766925
2.6e+08	-0.0005016099	-0.01527207	-5.747556e-08	3.826243e-08	0.002754945	-0.003102279	-1.949902e-07	1.266461e-07
	-5.747556e-08	3.826243e-08	0.0004023038	-0.01476062	-2.837178e-08	3.346508e-08	0.003055811	-0.002841831
	0.002754945	-0.003102279	-2.837178e-08	3.346508e-08	-0.0004614789	-0.01529829	-6.005773e-08	3.994458e-08
	-1.949902e-07	1.266461e-07	0.003055811	-0.002841831	-6.005773e-08	3.994458e-08	0.0004228366	-0.01465191
2.7e+08	-0.001577793	-0.01192876	-5.07244e-08	5.058953e-08	0.001710632	-0.001630515	-1.719849e-07	1.678728e-07
	-5.07244e-08	5.058953e-08	-0.0007464901	-0.01155591	-2.475691e-08	4.053135e-08	0.002002966	-0.001421883
	0.001710632	-0.001630515	-2.475691e-08	4.053135e-08	-0.001545763	-0.01195485	-5.293707e-08	5.286203e-08
	-1.719849e-07	1.678728e-07	0.002002966	-0.001421883	-5.293707e-08	5.286203e-08	-0.0007193326	-0.01143727
2.8e+08	-0.002022293	-0.008513138	-4.132332e-08	6.165209e-08	0.0009768663	3.299491e-05	-1.401186e-07	2.048056e-07
	-4.132332e-08	6.165209e-08	-0.001296808	-0.008263481	-1.972726e-08	4.693564e-08	0.001244425	0.0001906207
	0.0009768663	3.299491e-05	-1.972726e-08	4.693564e-08	-0.00199296	-0.00853584	-4.303593e-08	6.44443e-08
	-1.401186e-07	2.048056e-07	0.001244425	0.0001906207	-4.303593e-08	6.44443e-08	-0.001261462	-0.00813644
2.9e+08	-0.001837225	-0.005144116	-2.952656e-08	7.087303e-08	0.0005868688	0.001819715	-1.002425e-07	2.355252e-07
	-2.952656e-08	7.087303e-08	-0.001247883	-0.004995589	-1.341498e-08	5.237168e-08	0.0008135914	0.001930962
	0.0005868687	0.001819715	-1.341498e-08	5.237168e-08	-0.001804696	-0.005161972	-3.062318e-08	7.408583e-08
	-1.002425e-07	2.355252e-07	0.0008135914	0.001930962	-3.062318e-08	7.408583e-08	-0.001203157	-0.004861977
3e+08	-0.001047101	-0.001937618	-1.571471e-08	7.773099e-08	0.0005589544	0.003655743	-5.36253e-08	2.582941e-07
	-1.571471e-08	7.773099e-08	-0.000619974	-0.001862025	-6.018728e-09	5.656178e-08	0.0007298198	0.003728978
	0.0005589544	0.003655743	-6.018728e-09	5.656178e-08	-0.001005451	-0.001950967	-1.610034e-08	8.12401e-08
	-5.36253e-08	2.582941e-07	0.0007298198	0.003728978	-1.610034e-08	8.12401e-08	-0.0005651076	-0.001723907
3.1e+08	0.0003022023	0.0009976347	-3.813399e-10	8.178809e-08	0.0008957666	0.005465016	-1.911466e-09	2.716467e-07
	-3.813399e-10	8.178809e-08	0.000546568	0.001033809	2.203121e-09	5.927127e-08	0.0009976229	0.005512068
	0.0008957666	0.005465016	2.203121e-09	5.927127e-08	0.0003584944	0.0009867497	1.271383e-11	8.544874e-08
	-1.911466e-09	2.716467e-07	0.0009976229	0.005512068	1.271383e-11	8.544874e-08	0.0006118643	0.001174238
3.2e+08	0.002145268	0.003564052	1.588661e-08	8.271412e-08	0.001584193	0.00717258	5.29403e-08	2.744709e-07
	1.588661e-08	8.271412e-08	0.002192961	0.003598547	1.094223e-08	6.032109e-08	0.001606514	0.007208298
	0.001584193	0.00717258	1.094223e-08	6.032109e-08	0.002220928	0.003552063	1.709835e-08	8.636691e-08
	5.29403e-08	2.744709e-07	0.001606514	0.007208298	1.709835e-08	8.636691e-08	0.002268487	0.003739067
3.3e+08	0.004399686	0.005678658	3.24334e-08	8.030582e-08	0.002595958	0.008707809	1.087359e-07	2.660733e-07
	3.24334e-08	8.030582e-08	0.00424432	0.005752117	1.985273e-08	5.959814e-08	0.002531489	0.008749457
	0.002595958	0.008707809	1.985273e-08	5.959814e-08	0.004498306	0.005660739	3.44672e-08	8.378341e-08
	1.087359e-07	2.660733e-07	0.002531489	0.008749457	3.44672e-08	8.378341e-08	0.004329384	0.005890589
3.4e+08	0.006969211	0.007276023	4.85628e-08	7.450027e-08	0.003888854	0.01000742	1.631379e-07	2.462272e-07
	4.85628e-08	7.450027e-08	0.006612537	0.007430475	2.856566e-08	5.70627e-08	0.003734122	0.01007393
	0.003888854	0.01000742	2.856566e-08	5.70627e-08	0.007092988	0.007246413	5.138794e-08	7.763463e-08
	1.631379e-07	2.462272e-07	0.003734122	0.01007393	5.138794e-08	7.763463e-08	0.00670599	0.007564944
3.5e+08	0.009747418	0.008310513	6.356862e-08	6.538172e-08	0.00540856	0.01101813	2.137665e-07	2.151993e-07
	6.356862e-08	6.538172e-08	0.009199632	0.008587727	3.670466e-08	5.275267e-08	0.005164216	0.0111293
	0.00540856	0.01101813	3.670466e-08	5.275267e-08	0.009896972	0.008262891	6.711947e-08	6.801157e-08
	2.137665e-07	2.151993e-07	0.005164216	0.0111293	6.711947e-08	6.801157e-08	0.009299908	0.00871652
3.6e+08	0.01262171	0.00875779	7.676597e-08	5.318178e-08	0.007090964	0.01169896	2.58301e-07	1.737519e-07
	7.676597e-08	5.318178e-08	0.01190141	0.009197564	4.390179e-08	4.678403e-08	0.006761939	0.01187451
	0.007090964	0.01169896	4.390179e-08	4.678403e-08	0.01279599	0.008685674	8.094208e-08	5.515874e-08
	2.58301e-07	1.737519e-07	0.006761939	0.01187451	8.094208e-08	5.515874e-08	0.0120066	0.009319374
3.7e+08	0.01547749	0.008615517	8.752177e-08	3.827296e-08	0.008864873	0.01202291	2.945923e-07	1.231337e-07
	8.752177e-08	3.827296e-08	0.01461131	0.009253971	4.981513e-08	3.934939e-08	0.008460348	0.01228157
	0.008864873	0.01202291	4.981513e-08	3.934939e-08	0.0156738	0.008512671	9.219342e-08	3.947091e-08
	2.945923e-07	1.231337e-07	0.008460348	0.01228157	9.219342e-08	3.947091e-08	0.01471924	0.009367927
3.8e+08	0.01820247	0.007903238	9.528304e-08	2.115617e-08	0.01065502	0.0119781	3.207561e-07	6.503215e-08
	9.528304e-08	2.115617e-08	0.01722431	0.008771188	5.41433e-08	3.071134e-08	0.01018819	0.01233674
	0.01065502	0.0119781	5.41433e-08	3.071134e-08	0.01841652	0.007764069	1.002954e-07	2.147621e-08
	3.207561e-07	6.503215e-08	0.01018819	0.01233674	1.002954e-07	2.147621e-08	0.01733263	0.008876904
3.9e+08	0.0206907	0.006661465	9.960207e-08	2.442894e-09	0.01238521	0.01156831	3.352617e-07	1.516805e-09
	9.960207e-08	2.442894e-09	0.01964069	0.00778294	5.663958e-08	2.119362e-08	0.01187289	0.01204106
	0.01238521	0.01156831	5.663958e-08	2.119362e-08	0.02091684	0.006481374	1.047808e-07	1.817954e-09
	3.352617e-07	1.516805e-09	0.01187289	0.01204106	1.047808e-07	1.817954e-09	0.019747	0.007880547
4e+08	0.0228465	0.004949983	1.001575e-07	-1.716732e-08	0.01398154	0.0108128	3.370079e-07	-6.503631e-08
	1.001575e-07	-1.716732e-08	0.0217696	0.006340977	5.712413e-08	1.116969e-08	0.01344353	0.01141031
	0.01398154	0.0108128	5.712413e-08	1.116969e-08	0.02307793	0.00472569	1.053151e-07	-1.876871e-08
	3.370079e-07	-6.503631e-08	0.01344353	0.01141031	1.053151e-07	-1.876871e-08	0.02187156	0.006431123
4.1e+08	0.02458787	0.00284548	9.67707e-08	-3.691286e-08	0.01537545	0.009745581	3.253819e-07	-1.320343e-07
	9.67707e-08	-3.691286e-08	0.02353226	0.004512967	5.549366e-08	1.048914e-09	0.01483383	0.01047437
	0.01537545	0.009745581	5.549366e-08	1.048914e-09	0.02481699	0.00257526	1.017139e-07	-3.948422e-08
	3.253819e-07	-1.320343e-07	0.01483383	0.01047437	1.017139e-07	-3.948422e-08	0.02362768	0.004596805
4.2e+08	0.02584941	0.0004385585	8.941677e-08	-5.599877e-08	0.01650665	0.008414004	3.003001e-07	-1.967676e-07
	8.941677e-08	-5.599877e-08	0.02486467	0.002379851	5.172836e-08	-8.73903e-09	0.01598488	0.009276049
	0.01650665	0.008414004	5.172836e-08	-8.73903e-09	0.02606818	0.0001224149	9.395399e-08	-5.949466e-08
	3.003001e-07	-1.967676e-07	0.01598488	0.009276049	9.395399e-08	-5.949466e-08	0.02495163	0.002458995
4.3e+08	0.02658466	-0.00216973	7.823029e-08	-7.362718e-08	0.01732564	0.00687685	2.622275e-07	-2.565173e-07
	7.823029e-08	-7.362718e-08	0.0257198	3.274034e-05	4.589573e-08	-1.776105e-08	0.01684761	0.007869266
	0.01732564	0.00687685	4.589573e-08	-1.776105e-08	0.026785	-0.002529979	8.217941e-08	-7.79637e-08
	2.622275e-07	-2.565173e-07	0.01684761	0.007869266	8.217941e-08	-7.79637e-08	0.02579674	0.0001092097
4.4e+08	0.02676763	-0.004871732	6.350521e-08	-8.902852e-08	0.01779579	0.005201933	2.121779e-07	-3.086648e-07
	6.350521e-08	-8.902852e-08	0.0260691	-0.00243052	3.815108e-08	-2.559819e-08	0.01738484	0.006316915
	0.01779579	0.005201933	3.815108e-08	-2.559819e-08	0.02694183	-0.005272463	6.670118e-08	-9.408527e-08
	2.121779e-07	-3.086648e-07	0.01738484	0.006316915	6.670118e-08	-9.408527e-08	0.02613491	-0.002354392
4.5e+08	0.0263937	-0.007557246	4.568902e-08	-1.014927e-07	0.01789502	0.003463321	1.516908e-07	-3.508011e-07
	4.568902e-08	-1.014927e-07	0.02590339	-0.004909017	2.873459e-08	-3.18633e-08	0.01757287	0.004688272
	0.01789502	0.003463321	2.873459e-08	-3.18633e-08	0.02653484	-0.007993127	4.79911e-08	-1.071161e-07
	1.516908e-07	-3.508011e-07	0.01757287	0.004688272	4.79911e-08	-1.071161e-07	0.02595748	-0.004830672
4.6e+08	0.0254796	-0.01011767	2.537138e-08	-1.103993e-07	0.01761675	0.001738284	8.278904e-08	-3.808316e-07
	2.537138e-08	-1.103993e-07	0.02523302	-0.007302503	1.796488e-08	-3.621817e-08	0.01740252	0.003056161
	0.01761675	0.001738284	1.796488e-08	-3.621817e-08	0.0255819	-0.01058185	2.666974e-08	-1.164075e-07
	8.278904e-08	-3.808316e-07	0.01740252	0.003056161	2.666974e-08	-1.164075e-07	0.02527532	-0.007219272
4.7e+08	0.02406267	-0.01245009	3.236682e-09	-1.152353e-07	0.01697031	0.0001040907	7.903374e-09	-3.970159e-07
	3.236682e-09	-1.152353e-07	0.02408726	-0.009515103	6.231166e-09	-3.838692e-08	0.01687962	0.001493952
	0.01697031	0.0001040907	6.231166e-09	-3.838692e-08	0.02412188	-0.01293445	3.457697e-09	-1.214232e-07
	7.903374e-09	-3.970159e-07	0.01687962	0.001493952	3.457697e-09	-1.214232e-07	0.02411824	-0.009424322
4.8e+08	0.02219944	-0.01446109	-1.986999e-08	-1.156446e-07	0.01598064	-0.001365232	-7.015429e-08	-3.982091e-07
