!$
! Info: Touchstone file created by Circ.  Input file=Tx_10in_Rx_100ohms_TxVia_60mils_RxVia_70mils.circ
!$
# Hz S RI R 50
0	0.01043788	1.537159e-25	3.055729e-08	4.03207e-26	7.674138e-05	2.278248e-23	6.50042e-08	9.509735e-27
	3.055729e-08	4.032048e-26	0.01043322	1.646099e-25	6.285242e-08	1.311583e-25	7.350085e-05	2.542693e-23
	7.796571e-05	2.213491e-23	6.285243e-08	1.311572e-25	0.01044848	1.524532e-25	2.374615e-08	5.379923e-26
	6.500422e-08	9.510077e-27	7.37704e-05	2.553596e-23	2.374645e-08	5.380481e-26	0.0104476	1.638868e-25
1e+07	0.01539615	0.00662552	5.239873e-08	9.221105e-08	0.0006675898	0.001954827	1.364952e-07	2.661059e-07
	5.239874e-08	9.221105e-08	0.0153899	0.006624998	8.501817e-08	2.859499e-07	0.0006643306	0.001955765
	0.0006676604	0.001954794	8.501817e-08	2.859499e-07	0.01525909	0.006648509	4.079135e-08	1.276962e-07
	1.364952e-07	2.661059e-07	0.0006643332	0.001955763	4.079135e-08	1.276962e-07	0.01525204	0.006648316
2e+07	0.02007509	0.009373769	9.143615e-08	1.584236e-07	0.001137952	0.003986055	3.046005e-07	4.123165e-07
	9.143616e-08	1.584236e-07	0.02004974	0.009375293	1.399141e-07	4.895213e-07	0.001125361	0.003990166
	0.001137938	0.003986018	1.399141e-07	4.895213e-07	0.01998878	0.009466326	9.478793e-08	1.785957e-07
	3.046005e-07	4.123165e-07	0.001125358	0.003990166	9.478792e-08	1.785957e-07	0.01996024	0.009468844
3e+07	0.02417954	0.01021409	1.388773e-07	2.097523e-07	0.001993211	0.00569293	5.178623e-07	4.985575e-07
	1.388773e-07	2.097523e-07	0.02412325	0.01022539	1.83617e-07	6.879501e-07	0.001966136	0.005704142
	0.001993207	0.005692929	1.83617e-07	6.879501e-07	0.02413841	0.01033104	1.518967e-07	2.314839e-07
	5.178623e-07	4.985575e-07	0.001966136	0.005704144	1.518967e-07	2.314839e-07	0.02407534	0.01034514
4e+07	0.02792206	0.00997102	1.914511e-07	2.449734e-07	0.00319387	0.007118089	7.61457e-07	5.148136e-07
	1.914511e-07	2.449734e-07	0.02782534	0.01000282	2.209099e-07	8.811215e-07	0.003148442	0.007141791
	0.003193875	0.007118089	2.209099e-07	8.811215e-07	0.02792335	0.01009601	2.103734e-07	2.696929e-07
	7.61457e-07	5.148136e-07	0.003148442	0.007141792	2.103734e-07	2.696929e-07	0.02781519	0.01013358
5e+07	0.03129804	0.008876836	2.452918e-07	2.629378e-07	0.00479128	0.008145524	1.018843e-06	4.519757e-07
	2.452918e-07	2.629378e-07	0.03115483	0.008943089	2.534151e-07	1.06705e-06	0.004725278	0.008187993
	0.004791283	0.008145523	2.534152e-07	1.06705e-06	0.03133814	0.008998166	2.692534e-07	2.898336e-07
	1.018843e-06	4.519757e-07	0.004725279	0.008187993	2.692534e-07	2.898336e-07	0.03117813	0.009074907
6e+07	0.03425517	0.007076355	2.961783e-07	2.636422e-07	0.006525589	0.008813557	1.268459e-06	3.046386e-07
	2.961783e-07	2.636422e-07	0.03406391	0.007192524	2.811378e-07	1.246253e-06	0.006438711	0.00888176
	0.006525588	0.008813559	2.811378e-07	1.246253e-06	0.03432934	0.007184729	3.247635e-07	2.91353e-07
	1.268459e-06	3.046385e-07	0.006438713	0.00888176	3.247635e-07	2.913531e-07	0.03411592	0.007317988
7e+07	0.03672844	0.004688971	3.394898e-07	2.479358e-07	0.008323524	0.009106061	1.48641e-06	7.374054e-08
	3.394898e-07	2.479358e-07	0.03649191	0.004870563	3.035245e-07	1.419675e-06	0.00821743	0.00920704
	0.008323522	0.009106066	3.035245e-07	1.419675e-06	0.03683081	0.004776865	3.721234e-07	2.74912e-07
	1.48641e-06	7.374053e-08	0.008217431	0.009207039	3.721234e-07	2.74912e-07	0.03656727	0.004983901
8e+07	0.03865598	0.001830227	3.707809e-07	2.178574e-07	0.0101086	0.009020408	1.648964e-06	-2.329014e-07
	3.707809e-07	2.178574e-07	0.038381	0.002091868	3.199127e-07	1.588494e-06	0.00998688	0.009160791
	0.01010859	0.009020414	3.199127e-07	1.588494e-06	0.03877957	0.001891739	4.065505e-07	2.425163e-07
	1.648964e-06	-2.329014e-07	0.009986881	0.00916079	4.065505e-07	2.425163e-07	0.03847357	0.002188795
9e+07	0.03998829	-0.001381046	3.861473e-07	1.765915e-07	0.01180387	0.008568302	1.734627e-06	-6.00942e-07
	3.861473e-07	1.765915e-07	0.03968538	-0.001026387	3.297382e-07	1.7541e-06	0.01167193	0.008753836
	0.01180387	0.008568306	3.297382e-07	1.7541e-06	0.04012502	-0.001350235	4.237234e-07	1.97446e-07
	1.734627e-06	-6.00942e-07	0.01167193	0.008753835	4.237234e-07	1.97446e-07	0.03978834	-0.000948708
1e+08	0.04070655	-0.004814914	3.8254e-07	1.283043e-07	0.01332941	0.007772733	1.725841e-06	-1.010403e-06
	3.8254e-07	1.283043e-07	0.04038963	-0.004356772	3.327007e-07	1.918011e-06	0.01319422	0.008007863
	0.01332941	0.007772733	3.327007e-07	1.918011e-06	0.04084594	-0.004818224	4.201451e-07	1.441133e-07
	1.725841e-06	-1.010403e-06	0.01319422	0.008007863	4.201451e-07	1.441133e-07	0.04049413	-0.004300488
1.1e+08	0.04079149	-0.008443652	3.584355e-07	7.729551e-08	0.01461909	0.006716647	1.616344e-06	-1.437976e-06
	3.584355e-07	7.729551e-08	0.04047814	-0.007875353	3.264037e-07	2.084272e-06	0.01448894	0.007004095
	0.01461909	0.006716647	3.264037e-07	2.084272e-06	0.04092289	-0.00847278	3.939096e-07	8.851238e-08
	1.616344e-06	-1.437976e-06	0.01448893	0.007004095	3.939096e-07	8.851238e-08	0.04057589	-0.007831531
1.2e+08	0.04015813	-0.01207796	3.125165e-07	2.883073e-08	0.01565508	0.005425864	1.396807e-06	-1.858742e-06
	3.125165e-07	2.883073e-08	0.03986729	-0.01139668	3.125824e-07	2.254022e-06	0.01553901	0.00576626
	0.01565508	0.005425864	3.125824e-07	2.254022e-06	0.04027985	-0.0121297	3.437905e-07	3.568712e-08
	1.396807e-06	-1.858742e-06	0.01553901	0.005766261	3.437905e-07	3.568712e-08	0.0399589	-0.01136196
1.3e+08	0.03884848	-0.01557481	2.450183e-07	-1.168027e-08	0.01638494	0.003953799	1.066886e-06	-2.245637e-06
	2.450183e-07	-1.168028e-08	0.03860013	-0.01478244	2.920589e-07	2.42913e-06	0.01629229	0.0043456
	0.01638494	0.003953799	2.920589e-07	2.42913e-06	0.03895709	-0.01564657	2.700408e-07	-8.440585e-09
	1.066886e-06	-2.245637e-06	0.01629229	0.004345601	2.700408e-07	-8.440585e-09	0.03868457	-0.01475464
1.4e+08	0.0369106	-0.01881038	1.574507e-07	-3.886403e-08	0.01677586	0.002367066	6.327329e-07	-2.571405e-06
	1.574507e-07	-3.886403e-08	0.03672456	-0.01791372	2.660479e-07	2.611361e-06	0.01671578	0.002806458
	0.01677586	0.002367066	2.660479e-07	2.611361e-06	0.03700269	-0.01889903	1.743115e-07	-3.798504e-08
	6.327329e-07	-2.571405e-06	0.01671577	0.002806459	1.743115e-07	-3.798504e-08	0.03680077	-0.01789071
1.5e+08	0.03441032	-0.02167352	5.259236e-08	-4.766711e-08	0.01681066	0.0007381169	1.069661e-07	-2.810146e-06
	5.259236e-08	-4.766711e-08	0.0343051	-0.02068423	2.361609e-07	2.802235e-06	0.01679152	0.001219058
	0.01681066	0.0007381171	2.361609e-07	2.802235e-06	0.03448293	-0.02177527	5.964453e-08	-4.741124e-08
	1.069661e-07	-2.810146e-06	0.01679151	0.001219059	5.964453e-08	-4.741124e-08	0.03437225	-0.02066378
1.6e+08	0.03143063	-0.02406788	-6.55777e-08	-3.364552e-08	0.01648789	-0.0008584163	-4.916632e-07	-2.938799e-06
	-6.55777e-08	-3.364552e-08	0.03142222	-0.02300219	2.043624e-07	3.002936e-06	0.01651678	-0.0003440288
	0.01648789	-0.0008584161	2.043624e-07	3.002936e-06	0.03148148	-0.02417832	-6.960327e-08	-3.185276e-08
	-4.916632e-07	-2.938799e-06	0.01651678	-0.0003440281	-6.960327e-08	-3.185276e-08	0.03147984	-0.022982
1.7e+08	0.02806939	-0.02591448	-1.92014e-07	6.75861e-09	0.01582174	-0.002349111	-1.138941e-06	-2.938548e-06
	-1.92014e-07	6.758611e-09	0.02817025	-0.02479257	1.729025e-07	3.214219e-06	0.01590401	-0.001811153
	0.01582174	-0.002349111	1.729025e-07	3.214219e-06	0.0280971	-0.02602872	-2.079078e-07	1.258506e-08
	-1.138941e-06	-2.938548e-06	0.01590401	-0.001811153	-2.079078e-07	1.258506e-08	0.02821828	-0.02477032
1.8e+08	0.02443636	-0.02715396	-3.208017e-07	7.596823e-08	0.01484142	-0.003665001	-1.80617e-06	-2.796063e-06
	-3.208017e-07	7.596823e-08	0.02465442	-0.02599918	1.442282e-07	3.436348e-06	0.01498023	-0.003114721
	0.01484143	-0.003665001	1.442282e-07	3.436348e-06	0.02444055	-0.02726683	-3.487949e-07	8.855333e-08
	-1.80617e-06	-2.796063e-06	0.01498023	-0.00311472	-3.487949e-07	8.855333e-08	0.02469326	-0.0259726
1.9e+08	0.02064957	-0.02774839	-4.454127e-07	1.750657e-07	0.01358987	-0.004744602	-2.461428e-06	-2.504512e-06
	-4.454127e-07	1.750657e-07	0.02098754	-0.02658622	1.208744e-07	3.669034e-06	0.01378584	-0.004194124
	0.01358987	-0.004744602	1.208744e-07	3.669034e-06	0.02063095	-0.02785467	-4.851214e-07	1.972356e-07
	-2.461428e-06	-2.504512e-06	0.01378584	-0.004194123	-4.851214e-07	1.972356e-07	0.02101801	-0.02655321
2e+08	0.01683142	-0.02768244	-5.590103e-07	3.036445e-07	0.01212188	-0.005536607	-3.071049e-06	-2.064292e-06
	-5.590103e-07	3.036445e-07	0.01728625	-0.02653929	1.053411e-07	3.911412e-06	0.01237291	-0.004998363
	0.01212188	-0.005536607	1.053411e-07	3.911412e-06	0.01679184	-0.02777708	-6.094087e-07	3.381869e-07
	-3.071049e-06	-2.064292e-06	0.01237291	-0.004998363	-6.094087e-07	3.381869e-07	0.01730959	-0.02649799
2.1e+08	0.01310451	-0.02696377	-6.547904e-07	4.597307e-07	0.01050175	-0.006002144	-3.601255e-06	-1.483417e-06
	-6.547904e-07	4.597307e-07	0.01366716	-0.0258657	9.996063e-08	4.162041e-06	0.01080295	-0.005488255
	0.01050175	-0.006002144	9.996063e-08	4.162041e-06	0.01304687	-0.02704211	-7.142161e-07	5.092494e-07
	-3.601255e-06	-1.483417e-06	0.01080295	-0.005488255	-7.142161e-07	5.092494e-07	0.01368495	-0.02581455
2.2e+08	0.009587406	-0.02562268	-7.263432e-07	6.397838e-07	0.008800523	-0.006116493	-4.019881e-06	-7.775368e-07
	-7.263432e-07	6.397838e-07	0.01024288	-0.02459401	1.067624e-07	4.418936e-06	0.009144215	-0.005638135
	0.008800523	-0.006116493	1.067624e-07	4.418936e-06	0.009515608	-0.02568072	-7.925349e-07	7.065544e-07
	-4.019881e-06	-7.775368e-07	0.009144215	-0.005638135	-7.925349e-07	7.065544e-07	0.01025699	-0.02453185
2.3e+08	0.006390533	-0.02371096	-7.680152e-07	8.387822e-07	0.007092856	-0.005870194	-4.298084e-06	3.042941e-08
	-7.680152e-07	8.387822e-07	0.007118289	-0.02277295	1.273442e-07	4.679629e-06	0.007468813	-0.005436968
	0.007092856	-0.005870194	1.273442e-07	4.679629e-06	0.006309338	-0.02374555	-8.381827e-07	9.246165e-07
	-4.298084e-06	3.042941e-08	0.007468813	-0.005436968	-8.381827e-07	9.246165e-07	0.007130786	-0.02269906
2.4e+08	0.003612302	-0.02129999	-7.752517e-07	1.050394e-06	0.005453809	-0.005269473	-4.411972e-06	9.11044e-07
	-7.752517e-07	1.050394e-06	0.004386867	-0.0204696	1.627574e-07	4.941274e-06	0.005849576	-0.004888834
	0.005453809	-0.005269473	1.627574e-07	4.941274e-06	0.00352713	-0.02130904	-8.461769e-07	1.15652e-06
	-4.411972e-06	9.11044e-07	0.005849576	-0.004888834	-8.461769e-07	1.15652e-06	0.004399915	-0.02038372
2.5e+08	0.001335676	-0.01847815	-7.448981e-07	1.26723e-06	0.003955557	-0.004335999	-4.344045e-06	1.829462e-06
	-7.448981e-07	1.26723e-06	0.002127608	-0.0177669	2.13416e-07	5.200766e-06	0.00435692	-0.004012746
	0.003955557	-0.004335999	2.13416e-07	5.200766e-06	0.001252391	-0.01846073	-8.130625e-07	1.394195e-06
	-4.344045e-06	1.829462e-06	0.00435692	-0.004012746	-8.130625e-07	1.394195e-06	0.00214337	-0.01766925
2.6e+08	-0.0003747594	-0.01534753	-6.754422e-07	1.481161e-06	0.002664244	-0.003105946	-4.084386e-06	2.746858e-06
	-6.754422e-07	1.481161e-06	0.0004023038	-0.01476062	2.790364e-07	5.454893e-06	0.003055811	-0.002841831
	0.002664244	-0.003105946	2.790364e-07	5.454893e-06	-0.0004501139	-0.01530399	-7.371747e-07	1.628764e-06
	-4.084386e-06	2.746858e-06	0.003055811	-0.002841831	-7.371747e-07	1.628764e-06	0.0004228366	-0.01465191
2.7e+08	-0.001475032	-0.01202024	-5.671775e-07	1.683699e-06	0.001637105	-0.001628429	-3.631527e-06	3.62211e-06
	-5.671775e-07	1.683699e-06	-0.0007464901	-0.01155591	3.586132e-07	5.700498e-06	0.002002966	-0.001421883
	0.001637105	-0.001628429	3.586132e-07	5.700498e-06	-0.001536501	-0.01195221	-6.188184e-07	1.850954e-06
	-3.631527e-06	3.62211e-06	0.002002966	-0.001421883	-6.188184e-07	1.850954e-06	-0.0007193326	-0.01143727
2.8e+08	-0.001943273	-0.008614244	-4.222785e-07	1.866405e-06	0.0009199748	3.66333e-05	-2.992931e-06	4.41366e-06
	-4.222785e-07	1.866405e-06	-0.001296808	-0.008263481	4.504349e-07	5.934644e-06	0.001244425	0.0001906207
	0.0009199748	3.663328e-05	4.504349e-07	5.934644e-06	-0.001985264	-0.008524655	-4.6035e-07	2.051541e-06
	-2.992931e-06	4.41366e-06	0.001244425	0.0001906207	-4.6035e-07	2.051541e-06	-0.001261462	-0.00813644
2.9e+08	-0.001780387	-0.005249091	-2.447793e-07	2.021312e-06	0.0005453033	0.001821119	-2.185062e-06	5.081468e-06
	-2.447793e-07	2.021312e-06	-0.001247883	-0.004995589	5.521399e-07	6.154774e-06	0.0008135914	0.001930962
	0.0005453032	0.001821119	5.521399e-07	6.154774e-06	-0.001797953	-0.005142059	-2.661553e-07	2.221814e-06
	-2.185062e-06	5.081468e-06	0.0008135914	0.001930962	-2.661553e-07	2.221814e-06	-0.001203157	-0.004861977
3e+08	-0.001009881	-0.002041496	-4.045444e-08	2.141343e-06	0.0005307582	0.003651657	-1.233022e-06	5.588969e-06
	-4.045444e-08	2.141343e-06	-0.000619974	-0.001862025	6.608096e-07	6.35886e-06	0.0007298198	0.003728978
	0.0005307582	0.003651657	6.608096e-07	6.35886e-06	-0.0009989633	-0.00192219	-4.252139e-08	2.354023e-06
	-1.233022e-06	5.588969e-06	0.0007298198	0.003728978	-4.252139e-08	2.354023e-06	-0.0005651076	-0.001723907
3.1e+08	0.0003231526	0.0008988918	1.833922e-07	2.220682e-06	0.0008784747	0.005452802	-1.697698e-07	5.904925e-06
	1.833922e-07	2.220682e-06	0.000546568	0.001033809	7.730937e-07	6.545516e-06	0.0009976229	0.005512068
	0.0008784747	0.005452802	7.730937e-07	6.545516e-06	0.0003655037	0.001024449	2.025912e-07	2.44179e-06
	-1.697698e-07	5.904925e-06	0.0009976229	0.005512068	2.025912e-07	2.44179e-06	0.0006118643	0.001174238
3.2e+08	0.002153853	0.00347347	4.182196e-07	2.255104e-06	0.001574979	0.007150276	9.650597e-07	6.005094e-06
	4.182196e-07	2.255104e-06	0.002192961	0.003598547	8.853603e-07	6.71409e-06	0.001606514	0.007208298
	0.001574979	0.007150276	8.853603e-07	6.71409e-06	0.0022293	0.003598641	4.598654e-07	2.48047e-06
	9.650597e-07	6.005094e-06	0.001606514	0.007208298	4.598654e-07	2.48047e-06	0.002268487	0.003739067
3.3e+08	0.004400132	0.005598216	6.546088e-07	2.242225e-06	0.002591783	0.008674157	2.126683e-06	5.873628e-06
	6.546088e-07	2.242225e-06	0.00424432	0.005752117	9.938613e-07	6.864712e-06	0.002531489	0.008749457
	0.002591783	0.008674157	9.938613e-07	6.864712e-06	0.004508928	0.005716024	7.190166e-07	2.467419e-06
	2.126683e-06	5.873628e-06	0.002531489	0.008749457	7.190166e-07	2.467419e-06	0.004329384	0.005890589
3.4e+08	0.006965842	0.00720666	8.826688e-07	2.181673e-06	0.003886612	0.009961862	3.266978e-06	5.50413e-06
	8.826688e-07	2.181673e-06	0.006612537	0.007430475	1.094904e-06	6.998305e-06	0.003734122	0.01007393
	0.003886612	0.009961862	1.094904e-06	6.998305e-06	0.007106766	0.007310089	9.692347e-07	2.402189e-06
	3.266978e-06	5.50413e-06	0.003734122	0.01007393	9.692347e-07	2.402189e-06	0.00670599	0.007564944
3.5e+08	0.009744444	0.008252174	1.09247e-06	2.07516e-06	0.005405222	0.0109608	4.336501e-06	4.900316e-06
	1.09247e-06	2.07516e-06	0.009199632	0.008587727	1.185019e-06	7.116561e-06	0.005164216	0.0111293
	0.005405222	0.0109608	1.185019e-06	7.116561e-06	0.009914803	0.00833448	1.199656e-06	2.286614e-06
	4.336501e-06	4.900316e-06	0.005164216	0.0111293	1.199656e-06	2.286614e-06	0.009299908	0.00871652
3.6e+08	0.01262303	0.008709518	1.274482e-06	1.926473e-06	0.007083699	0.0116306	5.28662e-06	4.076238e-06
	1.274482e-06	1.926473e-06	0.01190141	0.009197564	1.261119e-06	7.221878e-06	0.006761939	0.01187451
	0.007083699	0.0116306	1.261119e-06	7.221878e-06	0.01281872	0.008764538	1.399843e-06	2.12479e-06
	5.28662e-06	4.076238e-06	0.006761939	0.01187451	1.399843e-06	2.12479e-06	0.0120066	0.009319374
3.7e+08	0.01548657	0.008575564	1.420007e-06	1.741362e-06	0.008851165	0.01194482	6.07168e-06	3.056069e-06
	1.420007e-06	1.741362e-06	0.01461131	0.009253971	1.320632e-06	7.317266e-06	0.008460348	0.01228157
	0.008851165	0.01194482	1.320632e-06	7.317266e-06	0.01570221	0.008598009	1.560253e-06	1.922969e-06
	6.07168e-06	3.056069e-06	0.008460348	0.01228157	1.560253e-06	1.922969e-06	0.01471924	0.009367927
3.8e+08	0.01822214	0.007869214	1.521565e-06	1.527351e-06	0.01063276	0.01189204	6.651093e-06	1.873431e-06
	1.521565e-06	1.527351e-06	0.01722431	0.008771188	1.361624e-06	7.406237e-06	0.01018819	0.01233674
	0.01063276	0.01189204	1.361624e-06	7.406237e-06	0.01845125	0.007854929	1.672672e-06	1.68935e-06
	6.651093e-06	1.873431e-06	0.01018819	0.01233674	1.672672e-06	1.68935e-06	0.01733263	0.008876904
3.9e+08	0.02072313	0.006630486	1.573252e-06	1.293472e-06	0.01235276	0.01147641	6.991281e-06	5.703021e-07
	1.573252e-06	1.293472e-06	0.01964069	0.00778294	1.382879e-06	7.492666e-06	0.01187289	0.01204106
	0.01235276	0.01147641	1.382879e-06	7.492666e-06	0.0209584	0.006576676	1.730599e-06	1.433791e-06
	6.991281e-06	5.703021e-07	0.01187289	0.01204106	1.730599e-06	1.433791e-06	0.019747	0.007880547
4e+08	0.0228931	0.004918851	1.57103e-06	1.04993e-06	0.01393779	0.01071743	7.067371e-06	-8.044718e-07
	1.57103e-06	1.04993e-06	0.0217696	0.006340977	1.383966e-06	7.580645e-06	0.01344353	0.01141031
	0.01393779	0.01071743	1.383966e-06	7.580645e-06	0.02312663	0.004824245	1.729568e-06	1.167445e-06
	7.067371e-06	-8.044718e-07	0.01344353	0.01141031	1.729568e-06	1.167445e-06	0.02187156	0.006431123
4.1e+08	0.02464926	0.002810846	1.512947e-06	8.077258e-07	0.01531984	0.009649249	6.864575e-06	-2.196998e-06
	1.512947e-06	8.077258e-07	0.02353226	0.004512967	1.365271e-06	7.674331e-06	0.01483383	0.01047437
	0.01531984	0.009649249	1.365271e-06	7.674331e-06	0.02487295	0.002675812	1.667398e-06	9.023475e-07
	6.864575e-06	-2.196998e-06	0.01483383	0.01047437	1.667398e-06	9.023475e-07	0.02362768	0.004596805
4.2e+08	0.02592548	0.0003970972	1.399285e-06	5.782333e-07	0.01643918	0.008319221	6.379188e-06	-3.550429e-06
	1.399285e-06	5.782333e-07	0.02486467	0.002379851	1.328e-06	7.777787e-06	0.01598488	0.009276049
	0.01643918	0.008319221	1.328e-06	7.777787e-06	0.0261313	0.0002236746	1.544354e-06	6.509505e-07
	6.379188e-06	-3.550429e-06	0.01598488	0.009276049	1.544354e-06	6.509505e-07	0.02495163	0.002458995
4.3e+08	0.02667454	-0.002221174	1.23263e-06	3.727517e-07	0.01724681	0.006786037	5.619159e-06	-4.807242e-06
	1.23263e-06	3.727517e-07	0.0257198	3.274034e-05	1.274157e-06	7.89483e-06	0.01684761	0.007869266
	0.01724681	0.006786037	1.274157e-06	7.89483e-06	0.02685493	-0.002429292	1.363224e-06	4.256357e-07
	5.619159e-06	-4.807242e-06	0.01684761	0.007869266	1.363224e-06	4.256357e-07	0.02579674	0.0001092097
4.4e+08	0.02686984	-0.004935992	1.017852e-06	2.020492e-07	0.01770663	0.005117311	4.604193e-06	-5.911634e-06
	1.017852e-06	2.020492e-07	0.0260691	-0.00243052	1.206498e-06	8.028877e-06	0.01738484	0.006316915
	0.01770663	0.005117311	1.206498e-06	8.028877e-06	0.02701801	-0.00517357	1.129302e-06	2.382103e-07
	4.604193e-06	-5.911634e-06	0.01738484	0.006316915	1.129302e-06	2.382103e-07	0.02613491	-0.002354392
4.5e+08	0.02650619	-0.007636726	7.619953e-07	7.590749e-08	0.01779695	0.003386822	3.365362e-06	-6.811917e-06
	7.619953e-07	7.590749e-08	0.02590339	-0.004909017	1.128453e-06	8.182802e-06	0.01757287	0.004688272
	0.01779695	0.003386822	1.128453e-06	8.182802e-06	0.02661645	-0.007897149	8.502687e-07	9.940704e-08
	3.365362e-06	-6.811917e-06	0.01757287	0.004688272	8.502687e-07	9.940704e-08	0.02595748	-0.004830672
4.6e+08	0.02559989	-0.01021425	4.740917e-07	2.685329e-09	0.01751156	0.001671478	1.944242e-06	-7.462835e-06
	4.740917e-07	2.685329e-09	0.02523302	-0.007302503	1.04403e-06	8.358806e-06	0.01740252	0.003056161
	0.01751156	0.001671478	1.04403e-06	8.358806e-06	0.02566795	-0.01048976	5.359849e-07	1.84041e-08
	1.944242e-06	-7.462835e-06	0.01740252	0.003056161	5.359849e-07	1.84041e-08	0.02527532	-0.007219272
4.7e+08	0.02418803	-0.01256504	1.648748e-07	-1.108468e-08	0.01686003	4.812505e-05	3.915652e-07	-7.827697e-06
	1.648748e-07	-1.108468e-08	0.02408726	-0.009515103	9.576853e-07	8.558299e-06	0.01687962	0.001493952
	0.01686003	4.812504e-05	9.576853e-07	8.558299e-06	0.02421113	-0.01284703	1.981785e-07	2.390202e-09
	3.915652e-07	-7.827697e-06	0.01687962	0.001493952	1.981785e-07	2.390202e-09	0.02411824	-0.009424322
4.8e+08	0.02232692	-0.01459508	-1.535808e-07	3.895258e-08	0.0158675	-0.001409665	-1.23455e-06	-7.88023e-06
	-1.535808e-07	3.895258e-08	0.02251312	-0.01145883	8.741752e-07	8.781802e-06	0.01602482	7.250786e-05
