!$
! Info: Touchstone file created by Circ.  Input file=Tx_16in_Rx_93ohms_TxVia_60mils_RxVia_70mils.circ
!$
# Hz S RI R 50
0	0.01461159	1.957456e-25	-8.522782e-05	-6.95953e-26	0.0001049799	2.817788e-23	-8.522516e-05	-1.249565e-25
	-8.522781e-05	-7.045218e-26	0.01460711	2.425654e-25	-8.522667e-05	-6.705458e-26	0.0001046967	3.566299e-23
	0.0001060628	2.836612e-23	-8.522667e-05	-6.72992e-26	0.01462687	1.958071e-25	-8.522613e-05	5.43351e-26
	-8.522514e-05	-1.267097e-25	0.0001049661	3.581592e-23	-8.522613e-05	5.368424e-26	0.01462137	2.415259e-25
1e+07	0.0198999	-0.002553769	-6.051923e-06	-3.098815e-05	0.0006642845	0.002661264	-6.16172e-06	-3.179761e-05
	-6.051923e-06	-3.098815e-05	0.02104782	-0.00282878	-1.043402e-05	-4.994738e-06	0.0006960301	0.00289315
	0.0006643162	0.002661269	-1.043403e-05	-4.994738e-06	0.02145737	-0.001943813	-3.420344e-05	-5.012393e-06
	-6.161721e-06	-3.179761e-05	0.0006960332	0.002893147	-3.420344e-05	-5.012393e-06	0.02062808	-0.002809489
2e+07	0.02247609	-0.01041189	-1.441332e-05	-1.868888e-05	0.002062183	0.005084892	-1.550806e-05	-1.985144e-05
	-1.441332e-05	-1.868888e-05	0.02304998	-0.01121113	-4.378456e-05	-2.560556e-05	0.001984511	0.005530424
	0.002062198	0.005084873	-4.378456e-05	-2.560556e-05	0.02449733	-0.01012847	-3.422484e-05	1.182649e-05
	-1.550806e-05	-1.985144e-05	0.001984508	0.005530424	-3.422484e-05	1.182649e-05	0.022752	-0.01104611
3e+07	0.02073807	-0.01984992	-2.085207e-05	-1.221865e-05	0.004115548	0.00690469	-2.271147e-05	-1.3137e-05
	-2.085207e-05	-1.221865e-05	0.02082944	-0.02071128	-6.721504e-05	-1.777623e-05	0.004066241	0.007438017
	0.004115548	0.006904687	-6.721504e-05	-1.777623e-05	0.02300922	-0.02000547	-3.52168e-05	1.637657e-05
	-2.271147e-05	-1.3137e-05	0.004066241	0.007438019	-3.52168e-05	1.637657e-05	0.02061804	-0.02052009
4e+07	0.01558408	-0.02846588	-2.515976e-05	-5.270848e-06	0.006593984	0.007949378	-2.760784e-05	-5.686757e-06
	-2.515977e-05	-5.270848e-06	0.0152703	-0.02920441	-8.31862e-05	-6.475525e-07	0.00664317	0.008493133
	0.006593988	0.007949383	-8.31862e-05	-6.475526e-07	0.01791819	-0.0291163	-3.421077e-05	2.2607e-05
	-2.760784e-05	-5.686757e-06	0.006643171	0.008493134	-3.421077e-05	2.2607e-05	0.01512022	-0.02902015
5e+07	0.007836834	-0.03512276	-2.734183e-05	2.268157e-06	0.00921863	0.008130092	-3.019589e-05	2.550829e-06
	-2.734183e-05	2.268157e-06	0.007212749	-0.03561512	-9.18472e-05	2.16827e-05	0.009345342	0.008659002
	0.009218633	0.008130094	-9.18472e-05	2.16827e-05	0.01006511	-0.03626413	-3.134166e-05	2.924558e-05
	-3.019589e-05	2.550829e-06	0.009345343	0.008659002	-3.134166e-05	2.924558e-05	0.007101051	-0.03545154
6e+07	-0.001568559	-0.03912632	-2.737811e-05	1.008403e-05	0.01169957	0.007455619	-3.041904e-05	1.122088e-05
	-2.737811e-05	1.008403e-05	-0.002391703	-0.03929374	-9.300848e-05	4.683571e-05	0.01188444	0.007955465
	0.01169957	0.007455618	-9.300848e-05	4.683571e-05	0.0004080536	-0.04070694	-2.670563e-05	3.563619e-05
	-3.041904e-05	1.122088e-05	0.01188444	0.007955465	-2.670563e-05	3.563619e-05	-0.002484576	-0.03915391
7e+07	-0.01162606	-0.04014951	-2.526172e-05	1.776818e-05	0.01376948	0.006028687	-2.821962e-05	1.986596e-05
	-2.526172e-05	1.776818e-05	-0.01252803	-0.03995486	-8.642385e-05	7.281046e-05	0.01399515	0.006491812
	0.01376947	0.006028687	-8.642385e-05	7.281046e-05	-0.01001766	-0.04208112	-2.042693e-05	4.129265e-05
	-2.821962e-05	1.986596e-05	0.01399515	0.006491812	-2.042693e-05	4.129265e-05	-0.0126175	-0.03983512
8e+07	-0.02133876	-0.03820533	-2.100167e-05	2.487777e-05	0.01521288	0.004031693	-2.355258e-05	2.79759e-05
	-2.100167e-05	2.487777e-05	-0.02219961	-0.03765139	-7.189514e-05	9.767854e-05	0.01546347	0.004454167
	0.01521286	0.004031697	-7.189514e-05	9.767854e-05	-0.0201818	-0.0403746	-1.30844e-05	4.567363e-05
	-2.355258e-05	2.79759e-05	0.01546347	0.004454167	-1.30844e-05	4.567363e-05	-0.02229648	-0.03754385
9e+07	-0.02980395	-0.03361186	-1.457866e-05	3.093455e-05	0.01588897	0.001704235	-1.632557e-05	3.499922e-05
	-1.457866e-05	3.093455e-05	-0.03051227	-0.03273793	-4.91376e-05	0.0001194602	0.01614792	0.002084166
	0.01588896	0.00170424	-4.91376e-05	0.0001194602	-0.0291492	-0.03589165	-7.787847e-06	4.816906e-05
	-1.632557e-05	3.499922e-05	0.01614792	0.002084166	-7.787847e-06	4.816906e-05	-0.03062279	-0.03263269
1e+08	-0.03628332	-0.02693954	-5.347123e-06	3.531872e-05	0.01575488	-0.0006841959	-5.743677e-06	4.018395e-05
	-5.347123e-06	3.531872e-05	-0.03672909	-0.02581635	-1.562837e-05	0.0001356289	0.01599155	-0.00034816
	0.01575488	-0.000684196	-1.562837e-05	0.0001356289	-0.03617893	-0.02919852	-3.222659e-06	4.997483e-05
	-5.743677e-06	4.018395e-05	0.01599155	-0.0003481601	-3.222659e-06	4.997483e-05	-0.03685856	-0.02570335
1.1e+08	-0.04029962	-0.01897715	4.063118e-06	3.420841e-05	0.01481665	-0.002819278	5.205165e-06	3.894746e-05
	4.063118e-06	3.420841e-05	-0.04045255	-0.01777706	1.93391e-05	0.0001317845	0.01502696	-0.002565537
	0.01481665	-0.002819278	1.93391e-05	0.0001317845	-0.04066636	-0.02094609	1.341787e-06	4.934228e-05
	5.205165e-06	3.894746e-05	0.01502696	-0.002565537	1.341787e-06	4.934228e-05	-0.04059164	-0.01763195
1.2e+08	-0.0416393	-0.0105223	1.160886e-05	3.160065e-05	0.01317767	-0.004515271	1.209971e-05	3.64588e-05
	1.160886e-05	3.160065e-05	-0.04153948	-0.009323676	4.013145e-05	0.0001244977	0.01337707	-0.004327643
	0.01317767	-0.004515272	4.013145e-05	0.0001244977	-0.04229924	-0.0121464	6.992238e-06	4.827977e-05
	1.209971e-05	3.64588e-05	0.01337707	-0.004327642	6.992238e-06	4.827977e-05	-0.04166864	-0.009147008
1.3e+08	-0.04032803	-0.002432654	1.480536e-05	2.949793e-05	0.01104016	-0.005576079	1.54192e-05	3.439508e-05
	1.480536e-05	2.949793e-05	-0.04001079	-0.00130511	5.300344e-05	0.0001173148	0.01122678	-0.005445019
	0.01104016	-0.005576079	5.300344e-05	0.0001173148	-0.0411537	-0.00369867	1.293242e-05	4.651426e-05
	1.54192e-05	3.439508e-05	0.01122677	-0.005445018	1.293242e-05	4.651426e-05	-0.04011757	-0.001103056
1.4e+08	-0.03666227	0.004501604	1.767024e-05	2.720613e-05	0.008642066	-0.005878938	1.878819e-05	3.19636e-05
	1.767024e-05	2.720613e-05	-0.03617757	0.005498592	6.573323e-05	0.0001084901	0.00881029	-0.005796825
	0.008642066	-0.005878939	6.573323e-05	0.0001084901	-0.03754664	0.003578428	1.875889e-05	4.394306e-05
	1.878819e-05	3.19636e-05	0.008810289	-0.005796824	1.875889e-05	4.394306e-05	-0.03625382	0.005716269
1.5e+08	-0.03116338	0.009633709	2.040406e-05	2.457565e-05	0.006244112	-0.005383316	2.20273e-05	2.912854e-05
	2.040406e-05	2.457565e-05	-0.03057635	0.01045626	7.770467e-05	9.799427e-05	0.006386512	-0.00534257
	0.006244111	-0.005383316	7.770467e-05	9.799427e-05	-0.03201883	0.009016526	2.429242e-05	4.056031e-05
	2.20273e-05	2.912854e-05	0.006386511	-0.00534257	2.429242e-05	4.056031e-05	-0.03061844	0.01067774
1.6e+08	-0.02451904	0.01251943	2.289916e-05	2.16098e-05	0.004104491	-0.004133681	2.500851e-05	2.589531e-05
	2.289916e-05	2.16098e-05	-0.02390621	0.01314455	8.845956e-05	8.593131e-05	0.004212845	-0.004125523
	0.004104491	-0.004133681	8.845956e-05	8.593131e-05	-0.02527837	0.0121559	2.933913e-05	3.642122e-05
	2.500851e-05	2.589531e-05	0.004212845	-0.004125522	2.933913e-05	3.642122e-05	-0.02391522	0.0133575
1.7e+08	-0.0175109	0.01295539	2.506875e-05	1.833541e-05	0.002452849	-0.002254439	2.763063e-05	2.229648e-05
	2.506875e-05	1.833541e-05	-0.01695395	0.01338482	9.764165e-05	7.249958e-05	0.0025192	-0.002268076
	0.002452849	-0.002254439	9.764165e-05	7.249958e-05	-0.01812802	0.01278359	3.376125e-05	3.160813e-05
	2.763063e-05	2.229648e-05	0.0025192	-0.002268076	3.376125e-05	3.160813e-05	-0.0169354	0.01357801
1.8e+08	-0.01093486	0.01099355	2.684294e-05	1.479709e-05	0.001466612	6.295857e-05	2.981388e-05	1.838501e-05
	2.684294e-05	1.479709e-05	-0.01051271	0.01125534	0.0001049828	5.796244e-05	0.001484439	4.067735e-05
	0.001466612	6.295852e-05	0.0001049828	5.796244e-05	-0.01138467	0.01094764	3.744658e-05	2.622832e-05
	2.981388e-05	1.838501e-05	0.001484439	4.067761e-05	3.744658e-05	2.622832e-05	-0.0104759	0.01142004
1.9e+08	-0.005521343	0.006930483	2.816766e-05	1.105283e-05	0.001252157	0.002579871	3.149839e-05	1.42282e-05
	2.816766e-05	1.105283e-05	-0.005301655	0.007077848	0.0001102965	4.262429e-05	0.00121758	0.002564291
	0.001252157	0.002579871	0.0001102965	4.262429e-05	-0.005798549	0.006946018	4.030993e-05	2.040708e-05
	3.149839e-05	1.42282e-05	0.00121758	0.002564291	4.030993e-05	2.040708e-05	-0.005258582	0.007208922
2e+08	-0.001861655	0.00127229	2.899782e-05	7.17024e-06	0.001829272	0.005031244	3.264082e-05	9.901915e-06
	2.899782e-05	7.17024e-06	-0.001894312	0.001379941	0.0001134709	2.680964e-05	0.001745886	0.005043625
	0.001829272	0.005031244	0.0001134709	2.680964e-05	-0.001978494	0.001290982	4.229193e-05	1.428075e-05
	3.264082e-05	9.901915e-06	0.001745886	0.005043625	4.229193e-05	1.428075e-05	-0.001858302	0.001476612
2.1e+08	-0.0003558349	-0.005320155	2.931703e-05	3.223345e-06	0.003146321	0.007167857	3.322058e-05	5.487019e-06
	2.931703e-05	3.223345e-06	-0.0006626628	-0.005162753	0.0001144658	1.084618e-05	0.003011454	0.007224439
	0.003146321	0.007167857	0.0001144658	1.084618e-05	-0.00033886	-0.005346582	4.336418e-05	7.99084e-06
	3.322058e-05	5.487019e-06	0.003011454	0.007224439	4.336418e-05	7.99084e-06	-0.0006468207	-0.005096685
2.2e+08	-0.001170343	-0.01210024	2.911736e-05	-7.130227e-07	0.005060076	0.008766035	3.323069e-05	1.063606e-06
	2.911736e-05	-7.130227e-07	-0.001742641	-0.01179875	0.0001132991	-4.949366e-06	0.004877093	0.008884942
	0.005060076	0.008766035	0.0001132991	-4.949366e-06	-0.001056462	-0.01220722	4.352202e-05	1.677475e-06
	3.323069e-05	1.063606e-06	0.004877093	0.008884942	4.352202e-05	1.677475e-06	-0.001758308	-0.0117552
2.3e+08	-0.004226593	-0.01831409	2.840403e-05	-4.564823e-06	0.007361615	0.009661108	3.267756e-05	-3.291124e-06
	2.840403e-05	-4.564823e-06	-0.005024427	-0.01777958	0.0001100374	-2.027978e-05	0.007141142	0.009860083
	0.007361615	0.009661108	0.0001100374	-2.027978e-05	-0.004058661	-0.01852264	4.278345e-05	-4.524622e-06
	3.267756e-05	-3.291124e-06	0.007141142	0.009860083	4.278345e-05	-4.524622e-06	-0.005079812	-0.01774696
2.4e+08	-0.009213418	-0.02327781	2.719457e-05	-8.26104e-06	0.009799972	0.009766003	3.157883e-05	-7.504524e-06
	2.719457e-05	-8.26104e-06	-0.01016828	-0.02243696	0.0001047866	-3.487173e-05	0.009559671	0.01005957
	0.009799972	0.009766003	0.0001047866	-3.487173e-05	-0.009035732	-0.02359419	4.118628e-05	-1.048937e-05
	3.157883e-05	-7.504524e-06	0.009559671	0.01005957	4.118628e-05	-1.048937e-05	-0.01026742	-0.02240141
2.5e+08	-0.01562295	-0.02644612	2.551704e-05	-1.173565e-05	0.01211015	0.009080607	2.996088e-05	-1.150953e-05
	2.551704e-05	-1.173565e-05	-0.01664376	-0.0252503	9.768315e-05	-4.847749e-05	0.01187345	0.009477415
	0.01211015	0.009080607	9.768315e-05	-4.847749e-05	-0.01547702	-0.02686283	3.878478e-05	-1.610149e-05
	2.996088e-05	-1.150953e-05	0.01187345	0.009477415	3.878478e-05	-1.610149e-05	-0.01678598	-0.02519717
2.6e+08	-0.02280582	-0.02746549	2.3408e-05	-1.492827e-05	0.01404255	0.007691143	2.785706e-05	-1.524467e-05
	2.3408e-05	-1.492827e-05	-0.02378785	-0.02589761	8.888351e-05	-6.087051e-05	0.01383641	0.008191834
	0.01404255	0.007691143	8.888351e-05	-6.087051e-05	-0.02272674	-0.02796331	3.564675e-05	-2.125759e-05
	2.785706e-05	-1.524467e-05	0.01383641	0.008191834	3.564675e-05	-2.125759e-05	-0.02396762	-0.02581303
2.7e+08	-0.0300395	-0.02620683	2.091196e-05	-1.778614e-05	0.01539022	0.005759804	2.530638e-05	-1.865374e-05
	2.091196e-05	-1.778614e-05	-0.03087517	-0.02428474	7.857444e-05	-7.185243e-05	0.01524219	0.006355761
	0.01539022	0.005759804	7.857444e-05	-7.185243e-05	-0.0300532	-0.02675765	3.185095e-05	-2.586659e-05
	2.530638e-05	-1.865374e-05	0.01524219	0.006355761	3.185095e-05	-2.586659e-05	-0.03108269	-0.02415729
2.8e+08	-0.0366025	-0.02277473	1.807894e-05	-2.026345e-05	0.01601081	0.003506133	2.235302e-05	-2.168539e-05
	1.807894e-05	-2.026345e-05	-0.03719299	-0.02055121	6.695907e-05	-8.124644e-05	0.0159457	0.004179335
	0.01601081	0.003506133	6.695907e-05	-8.124644e-05	-0.03672399	-0.02334502	2.748538e-05	-2.984983e-05
	2.235302e-05	-2.168539e-05	0.0159457	0.004179335	2.748538e-05	-2.984983e-05	-0.03741518	-0.02037317
2.9e+08	-0.04184676	-0.01749341	1.496359e-05	-2.232156e-05	0.01584098	0.001182606	1.904616e-05	-2.429281e-05
	1.496359e-05	-2.232156e-05	-0.04211328	-0.01505221	5.425927e-05	-8.889841e-05	0.01587754	0.001906692
	0.01584098	0.001182606	5.425927e-05	-8.889841e-05	-0.04207951	-0.01804778	2.264582e-05	-3.314112e-05
	1.904616e-05	-2.429281e-05	0.01587754	0.001906692	2.264582e-05	-3.314112e-05	-0.04233511	-0.01482042
3e+08	-0.04526129	-0.01087125	1.162437e-05	-2.39291e-05	0.01490196	-0.0009526467	1.544029e-05	-2.643387e-05
	1.162437e-05	-2.39291e-05	-0.0451546	-0.008319538	4.071654e-05	-9.467958e-05	0.01505	-0.0002101439
	0.01490196	-0.0009526467	4.071654e-05	-9.467958e-05	-0.04559765	-0.01137594	1.74349e-05	-3.568701e-05
	1.544029e-05	-2.643387e-05	0.01505	-0.0002101439	1.74349e-05	-3.568701e-05	-0.04536072	-0.008035881
3.1e+08	-0.04652122	-0.003547987	8.123022e-06	-2.506222e-05	0.01329612	-0.002662956	1.159563e-05	-2.807185e-05
	8.123022e-06	-2.506222e-05	-0.04602843	-0.001006016	2.659138e-05	-9.849068e-05	0.01355459	-0.001937438
	0.01329612	-0.002662956	2.659138e-05	-9.849068e-05	-0.04694375	-0.003973993	1.196122e-05	-3.744758e-05
	1.159563e-05	-2.807185e-05	0.01355459	-0.001937438	1.196122e-05	-3.744758e-05	-0.04620477	-0.0006772258
3.2e+08	-0.04551794	0.003769821	4.523895e-06	-2.570476e-05	0.01119546	-0.003757379	7.57822e-06	-2.917652e-05
	4.523895e-06	-2.570476e-05	-0.04466561	0.006181001	1.216074e-05	-0.0001002662	0.01155161	-0.003083408
	0.01119546	-0.003757379	1.216074e-05	-0.0001002662	-0.04600152	0.003444262	6.338131e-06	-3.839727e-05
	7.57822e-06	-2.917652e-05	0.01155161	-0.003083408	6.338131e-06	-3.839727e-05	-0.04480093	0.006543959
3.3e+08	-0.04236797	0.01037903	8.932607e-07	-2.584865e-05	0.008823346	-0.004109921	3.45963e-06	-2.972563e-05
	8.932607e-07	-2.584865e-05	-0.04122124	0.01255043	-2.286006e-06	-9.997922e-05	0.009253242	-0.003517276
	0.008823346	-0.004109921	-2.286006e-06	-9.997922e-05	-0.04288247	0.0101667	6.822512e-07	-3.852605e-05
	3.45963e-06	-2.972563e-05	0.009253242	-0.003517276	6.822512e-07	-3.852605e-05	-0.04130833	0.01293346
3.4e+08	-0.03740007	0.01564902	-2.701503e-06	-2.549452e-05	0.006431423	-0.003672102	-6.838709e-07	-2.970665e-05
	-2.701503e-06	-2.549452e-05	-0.03605755	0.01749588	-1.64529e-05	-9.764567e-05	0.006901813	-0.003182149
	0.006431423	-0.003672102	-1.64529e-05	-9.764567e-05	-0.03791333	0.01555284	-4.888593e-06	-3.78405e-05
	-6.838709e-07	-2.970665e-05	0.006901813	-0.003182149	-4.888593e-06	-3.78405e-05	-0.03609406	0.0178832
3.5e+08	-0.03112197	0.01908342	-6.192985e-06	-2.465194e-05	0.004273957	-0.002477893	-4.772849e-06	-2.911816e-05
	-6.192985e-06	-2.465194e-05	-0.0297069	0.02055533	-3.004483e-05	-9.332699e-05	0.00474527	-0.002100684
	0.004273957	-0.002477893	-3.004483e-05	-9.332699e-05	-0.03160281	0.01909647	-1.025792e-05	-3.636438e-05
	-4.772849e-06	-2.911816e-05	0.00474527	-0.002100684	-1.025792e-05	-3.636438e-05	-0.02969567	0.02093112
3.6e+08	-0.02416989	0.0203686	-9.514985e-06	-2.333978e-05	0.002581791	-0.0006405787	-8.726765e-06	-2.797109e-05
	-9.514985e-06	-2.333978e-05	-0.02281824	0.02145647	-4.277607e-05	-8.713135e-05	0.003012013	-0.0003730487
	0.002581791	-0.0006405787	-4.277607e-05	-8.713135e-05	-0.02459103	0.02047501	-1.531345e-05	-3.413881e-05
	-8.726765e-06	-2.797109e-05	0.003012013	-0.0003730487	-1.531345e-05	-3.413881e-05	-0.0227671	0.0218065
3.7e+08	-0.01724555	0.01940437	-1.26039e-05	-2.158624e-05	0.001538358	0.00165828	-1.246643e-05	-2.628915e-05
	-1.26039e-05	-2.158624e-05	-0.01609229	0.02014331	-5.437932e-05	-7.921252e-05	0.001887378	0.001832786
	0.001538358	0.00165828	-5.437932e-05	-7.921252e-05	-0.01758603	0.01958097	-1.995014e-05	-3.122168e-05
	-1.246643e-05	-2.628915e-05	0.001887378	0.001832786	-1.995014e-05	-3.122168e-05	-0.01601331	0.0204565
3.8e+08	-0.01104667	0.01631375	-1.540018e-05	-1.942861e-05	0.001260043	0.004186981	-1.591663e-05	-2.410879e-05
	-1.540018e-05	-1.942861e-05	-0.01021151	0.01678144	-6.461474e-05	-6.976649e-05	0.001494018	0.004297755
	0.001260043	0.004186981	-6.461474e-05	-6.976649e-05	-0.01129373	0.01653243	-2.407304e-05	-2.768635e-05
	-1.591663e-05	-2.410879e-05	0.001494018	0.004297755	-2.407304e-05	-2.768635e-05	-0.01011981	0.01705109
3.9e+08	-0.00619776	0.01143075	-1.784987e-05	-1.691285e-05	0.001783035	0.006687415	-1.900868e-05	-2.147827e-05
	-1.784987e-05	-1.691285e-05	-0.005771775	0.01174117	-7.32781e-05	-5.902583e-05	0.00187832	0.006774045
	0.001783035	0.006687415	-7.32781e-05	-5.902583e-05	-0.006347855	0.01166121	-2.759992e-05	-2.361984e-05
	-1.900868e-05	-2.147827e-05	0.00187832	0.006774045	-2.759992e-05	-2.361984e-05	-0.005684018	0.01196575
4e+08	-0.003187896	0.00526699	-1.990604e-05	-1.409272e-05	0.003058334	0.008902184	-2.168263e-05	-1.845614e-05
	-1.990604e-05	-1.409272e-05	-0.003222721	0.005560081	-8.020726e-05	-4.725189e-05	0.003004552	0.009011026
	0.003058334	0.008902184	-8.020726e-05	-4.725189e-05	-0.003246886	0.005479699	-3.04634e-05	-1.912035e-05
	-2.168263e-05	-1.845614e-05	0.003004552	0.009011026	-3.04634e-05	-1.912035e-05	-0.003155349	0.005743523
4.1e+08	-0.002322098	-0.001539418	-2.153015e-05	-1.102871e-05	0.004955858	0.01060234	-2.388906e-05	-1.510924e-05
	-2.153015e-05	-1.102871e-05	-0.002822733	-0.001111356	-8.52866e-05	-3.472573e-05	0.004757765	0.01078208
	0.004955858	0.01060234	-8.52866e-05	-3.472573e-05	-0.002304469	-0.001370406	-3.261259e-05	-1.429457e-05
	-2.388906e-05	-1.510924e-05	0.004757765	0.01078208	-3.261259e-05	-1.429457e-05	-0.002790232	-0.0009599644
4.2e+08	-0.003691162	-0.00828787	-2.269327e-05	-7.786621e-06	0.007277593	0.01161257	-2.559011e-05	-1.15104e-05
	-2.269327e-05	-7.786621e-06	-0.004613473	-0.007575637	-8.844861e-05	-2.173843e-05	0.006955467	0.01190931
	0.007277593	0.01161257	-8.844861e-05	-2.173843e-05	-0.003618426	-0.008182438	-3.4014e-05	-9.254651e-06
	-2.559011e-05	-1.15104e-05	0.006955467	0.01190931	-3.4014e-05	-9.254651e-06	-0.004626782	-0.007442897
4.3e+08	-0.007163173	-0.01428537	-2.337687e-05	-4.435845e-06	0.009778573	0.0118309	-2.675995e-05	-7.736004e-06
	-2.337687e-05	-4.435845e-06	-0.00841651	-0.01315866	-8.967318e-05	-8.581756e-06	0.009367027	0.01228323
	0.009778573	0.0118309	-8.967318e-05	-8.581756e-06	-0.007061595	-0.01425553	-3.4652e-05	-4.115191e-06
	-2.675995e-05	-7.736004e-06	0.009367027	0.01228323	-3.4652e-05	-4.115191e-06	-0.008481772	-0.01302818
4.4e+08	-0.01239754	-0.01891564	-2.357334e-05	-1.047499e-06	0.01219342	0.01124028	-2.738465e-05	-3.863842e-06
	-2.357334e-05	-1.047499e-06	-0.01385238	-0.01727738	-8.898463e-05	4.459919e-06	0.01173863	0.01187482
	0.01219342	0.01124028	-8.898463e-05	4.459919e-06	-0.01229541	-0.0189645	-3.452849e-05	1.009694e-06
	-2.738465e-05	-3.863842e-06	0.01173863	0.01187482	-3.452849e-05	1.009694e-06	-0.01397018	-0.0171315
4.5e+08	-0.01887988	-0.02169999	-2.328607e-05	2.30751e-06	0.0142653	0.009910731	-2.746156e-05	2.884292e-08
	-2.328607e-05	2.30751e-06	-0.02037987	-0.01949779	-8.644761e-05	1.711608e-05	0.01382089	0.01073869
	0.0142653	0.009910731	-8.644761e-05	1.711608e-05	-0.01880466	-0.0218217	-3.366231e-05	6.009083e-06
	-2.746156e-05	2.884292e-08	0.01382089	0.01073869	-3.366231e-05	6.009083e-06	-0.02054506	-0.01931937
4.6e+08	-0.02597401	-0.02234403	-2.252907e-05	5.560374e-06	0.01577395	0.007991606	-2.699806e-05	3.866656e-06
	-2.252907e-05	5.560374e-06	-0.02735129	-0.0195772	-8.21621e-05	2.913467e-05	0.01539577	0.009006777
	0.01577395	0.007991606	-8.21621e-05	2.913467e-05	-0.0259496	-0.02252457	-3.208643e-05	1.077697e-05
	-2.699806e-05	3.866656e-06	0.01539577	0.009006777	-3.208643e-05	1.077697e-05	-0.02755346	-0.01935156
4.7e+08	-0.03298553	-0.0207655	-2.132619e-05	8.646049e-06	0.01655928	0.00569516	-2.601189e-05	7.5776e-06
	-2.132619e-05	8.646049e-06	-0.03407771	-0.01748695	-7.625894e-05	4.028526e-05	0.01629977	0.006873634
	0.01655928	0.00569516	-7.625894e-05	4.028526e-05	-0.03303	-0.02098429	-2.985041e-05	1.521515e-05
