!$
! Info: Touchstone file created by Circ.  Input file=Tx_12in_Rx_93ohms_TxVia_60mils_RxVia_70mils.circ
!$
# Hz S RI R 50
0	0.01103814	1.571437e-25	-6.445344e-05	7.358197e-24	8.488852e-05	2.161504e-23	-6.441627e-05	2.874508e-24
	-6.445344e-05	7.358153e-24	0.01103387	1.908788e-25	-6.448868e-05	1.184207e-23	8.402139e-05	2.690015e-23
	8.402073e-05	2.151838e-23	-6.448869e-05	1.184268e-23	0.01105184	1.588698e-25	-6.445084e-05	7.272019e-24
	-6.441627e-05	2.873787e-24	8.42909e-05	2.701551e-23	-6.445083e-05	7.270728e-24	0.01104823	1.900488e-25
1e+07	0.01572545	-0.001384634	-0.0002979184	1.595968e-05	0.0004555147	0.002278509	-5.950893e-05	-6.591597e-06
	-0.0002979184	1.595967e-05	0.0160415	-0.001417456	-0.0001544467	8.404799e-05	0.0004503097	0.002271495
	0.000455499	0.002278522	-0.0001544467	8.404799e-05	0.01606503	-0.001430001	-0.0002975566	1.86937e-05
	-5.950893e-05	-6.591598e-06	0.0004503125	0.002271493	-0.0002975566	1.86937e-05	0.01572628	-0.001414257
2e+07	0.01808451	-0.006819575	-0.0002532784	-3.405313e-05	0.001220277	0.004455078	-3.353385e-05	-6.275395e-05
	-0.0002532784	-3.405313e-05	0.01827237	-0.006981624	-0.0001494941	6.374376e-05	0.001205753	0.004445317
	0.001220284	0.004455087	-0.0001494941	6.374376e-05	0.01832245	-0.007014144	-0.0002521142	-3.923368e-05
	-3.353385e-05	-6.275395e-05	0.00120575	0.004445317	-0.0002521142	-3.923368e-05	0.01803992	-0.006870858
3e+07	0.01789848	-0.01357852	-0.0002269265	-5.502108e-05	0.002551084	0.00623975	-4.48441e-05	-7.416151e-05
	-0.0002269265	-5.502108e-05	0.01795751	-0.01376255	-0.0001373534	6.898427e-05	0.002503365	0.006241807
	0.002551085	0.00623975	-0.0001373534	6.898427e-05	0.01804786	-0.01382923	-0.0002249043	-6.155886e-05
	-4.48441e-05	-7.416151e-05	0.002503364	0.006241808	-0.0002249043	-6.155886e-05	0.01778444	-0.01363065
4e+07	0.01563938	-0.02030884	-0.0002080337	-6.216951e-05	0.004289211	0.007584689	-7.998982e-05	-6.19973e-05
	-0.0002080337	-6.216951e-05	0.01556809	-0.02046519	-0.0001213312	7.258794e-05	0.00421526	0.00760571
	0.00428921	0.00758469	-0.0001213312	7.258794e-05	0.0157067	-0.02058492	-0.00020553	-6.98319e-05
	-7.998982e-05	-6.19973e-05	0.004215261	0.007605711	-0.00020553	-6.98319e-05	0.0154385	-0.02033581
5e+07	0.01162554	-0.02639256	-0.0001931081	-6.340613e-05	0.006261755	0.008444552	-0.0001070818	-4.036173e-05
	-0.0001931081	-6.340613e-05	0.01142987	-0.02647845	-0.0001042762	7.017691e-05	0.006161864	0.008494698
	0.006261753	0.008444553	-0.0001042762	7.017691e-05	0.01161717	-0.0266735	-0.0001903872	-7.209154e-05
	-0.0001070818	-4.036173e-05	0.006161865	0.008494698	-0.0001903872	-7.209154e-05	0.01132915	-0.02636273
6e+07	0.00619261	-0.03139884	-0.0001799641	-6.150724e-05	0.008342892	0.008782677	-0.000126017	-1.215973e-05
	-0.0001799641	-6.150724e-05	0.005887886	-0.03137609	-8.95262e-05	6.045059e-05	0.008220545	0.008871876
	0.00834289	0.008782676	-8.95262e-05	6.045059e-05	0.00611578	-0.03166871	-0.0001772284	-7.115133e-05
	-0.000126017	-1.215973e-05	0.008220546	0.008871876	-0.0001772284	-7.115133e-05	0.00580287	-0.03127866
7e+07	-0.0002857604	-0.03502228	-0.0001670403	-5.796495e-05	0.01040097	0.008593351	-0.0001363867	2.059115e-05
	-0.0001670403	-5.796495e-05	-0.0006752124	-0.03485869	-8.055273e-05	4.386311e-05	0.01026275	0.008730414
	0.01040097	0.00859335	-8.055273e-05	4.386311e-05	-0.000422641	-0.03526815	-0.0001644453	-6.85097e-05
	-0.0001363867	2.059115e-05	0.01026276	0.008730414	-0.0001644453	-6.85097e-05	-0.0007562759	-0.03477999
8e+07	-0.007404997	-0.0370688	-0.000153025	-5.383245e-05	0.01230718	0.007902963	-0.0001375466	5.620703e-05
	-0.000153025	-5.383245e-05	-0.007847118	-0.03673976	-8.058212e-05	2.224808e-05	0.01216244	0.008094692
	0.01230717	0.007902962	-8.058212e-05	2.224808e-05	-0.00759219	-0.03728017	-0.0001506753	-6.521336e-05
	-0.0001375466	5.620703e-05	0.01216244	0.008094692	-0.0001506753	-6.521336e-05	-0.007934445	-0.03667709
9e+07	-0.01474447	-0.03745073	-0.0001363381	-4.989497e-05	0.01394364	0.006768338	-0.0001282688	9.316277e-05
	-0.0001363381	-4.989497e-05	-0.01520092	-0.03694064	-9.236278e-05	-1.559899e-06	0.01380392	0.007018783
	0.01394364	0.006768338	-9.236278e-05	-1.559899e-06	-0.01497066	-0.03761921	-0.0001394473	-5.263931e-05
	-0.0001282688	9.316277e-05	0.01380392	0.007018783	-0.0001394473	-5.263931e-05	-0.0153032	-0.03688905
1e+08	-0.02187087	-0.03617714	-0.0001241427	-1.335674e-05	0.01521005	0.005272283	-0.0001030452	0.0001306192
	-0.0001241427	-1.335674e-05	-0.02229592	-0.03547956	-0.0001200913	-2.520972e-05	0.01508864	0.005582277
	0.01521005	0.005272284	-0.0001200913	-2.520972e-05	-0.02212002	-0.03629534	-0.0001314739	-2.754735e-06
	-0.0001030452	0.0001306192	0.01508864	0.005582277	-0.0001314739	-2.754735e-06	-0.02242313	-0.03543368
1.1e+08	-0.02841628	-0.03346956	-0.0001024152	8.566438e-06	0.01602968	0.003525734	-6.620832e-05	0.0001443777
	-0.0001024152	8.566438e-06	-0.02876593	-0.03260901	-0.0001540607	-5.500407e-05	0.01593989	0.003890129
	0.01602968	0.003525734	-0.0001540607	-5.500407e-05	-0.02867514	-0.03355184	-0.0001071904	2.011397e-05
	-6.620832e-05	0.0001443777	0.01593988	0.003890129	-0.0001071904	2.011397e-05	-0.02892232	-0.03254489
1.2e+08	-0.03412957	-0.02943271	-8.690442e-05	2.301053e-05	0.0163627	0.001646128	-3.593208e-05	0.0001501566
	-8.690442e-05	2.301053e-05	-0.03437789	-0.02842837	-0.0001934011	-7.284285e-05	0.01631525	0.002057873
	0.0163627	0.001646128	-0.0001934011	-7.284285e-05	-0.03440015	-0.02947925	-8.952571e-05	3.499712e-05
	-3.593208e-05	0.0001501566	0.01631525	0.002057874	-8.952571e-05	3.499712e-05	-0.03455123	-0.02833706
1.3e+08	-0.03870322	-0.02430925	-7.284801e-05	3.322792e-05	0.0161935	-0.0002424536	-8.179173e-06	0.0001508358
	-7.284801e-05	3.322792e-05	-0.03882395	-0.02318669	-0.0002389115	-7.778312e-05	0.01619793	0.0002065383
	0.0161935	-0.0002424537	-0.0002389115	-7.778312e-05	-0.03898224	-0.0243181	-7.345274e-05	4.532366e-05
	-8.179173e-06	0.0001508358	0.01619792	0.0002065393	-7.345274e-05	4.532366e-05	-0.03900489	-0.02306388
1.4e+08	-0.04192222	-0.01840887	-5.979591e-05	4.010682e-05	0.01553815	-0.002016159	1.449882e-05	0.0001475683
	-5.979591e-05	4.010682e-05	-0.04189469	-0.01720099	-0.0002876642	-6.828426e-05	0.01560143	-0.001542832
	0.01553815	-0.002016159	-0.0002876642	-6.828426e-05	-0.04220465	-0.01837839	-5.848616e-05	5.202647e-05
	1.449882e-05	0.0001475683	0.01560142	-0.001542831	-5.848616e-05	5.202647e-05	-0.04207428	-0.01704519
1.5e+08	-0.04365668	-0.01207926	-4.776035e-05	4.426573e-05	0.01444231	-0.00355957	2.548419e-05	0.0001434858
	-4.776035e-05	4.426573e-05	-0.04346857	-0.01082482	-0.0003358444	-4.368537e-05	0.014568	-0.003076918
	0.01444231	-0.00355957	-0.0003358444	-4.368537e-05	-0.04393643	-0.01200872	-4.463839e-05	5.574318e-05
	2.548419e-05	0.0001434858	0.014568	-0.003076917	-4.463839e-05	5.574318e-05	-0.0436383	-0.01063702
1.6e+08	-0.04386473	-0.005684521	-3.70444e-05	4.620143e-05	0.01297809	-0.004772513	3.66825e-05	0.0001386673
	-3.70444e-05	4.620143e-05	-0.04351389	-0.004425864	-0.0003794002	-4.477646e-06	0.0131657	-0.004296684
	0.01297809	-0.004772513	-0.0003794002	-4.477646e-06	-0.04413513	-0.00557446	-3.2231e-05	5.698681e-05
	3.66825e-05	0.0001386673	0.0131657	-0.004296683	-3.2231e-05	5.698681e-05	-0.04366612	-0.004209267
1.7e+08	-0.0425919	0.0004158076	-2.779629e-05	4.649794e-05	0.01123933	-0.005575786	4.783003e-05	0.0001329755
	-2.779629e-05	4.649794e-05	-0.04208746	0.001635552	-0.0004145253	4.767471e-05	0.011484	-0.005122954
	0.01123933	-0.005575786	-0.0004145253	4.767471e-05	-0.04284613	0.0005634117	-2.14372e-05	5.635618e-05
	4.783003e-05	0.0001329755	0.011484	-0.005122953	-2.14372e-05	5.635618e-05	-0.04221586	0.00187584
1.8e+08	-0.03996635	0.005886686	-2.004809e-05	4.573094e-05	0.009335936	-0.005915623	5.870646e-05	0.0001263436
	-2.004809e-05	4.573094e-05	-0.03932895	0.007026645	-0.0004380558	0.0001100827	0.009628439	-0.005500783
	0.009335936	-0.005915623	-0.0004380558	0.0001100827	-0.04019782	0.00606835	-1.231914e-05	5.444606e-05
	5.870646e-05	0.0001263436	0.009628439	-0.005500783	-1.231914e-05	5.444606e-05	-0.03942884	0.007284014
1.9e+08	-0.03618989	0.01043564	-1.369393e-05	4.442911e-05	0.007387276	-0.005766674	6.911907e-05	0.000118757
	-1.369393e-05	4.442911e-05	-0.03545112	0.01146031	-0.0004477701	0.0001793025	0.007714308	-0.005402462
	0.007387276	-0.005766674	-0.0004477701	0.0001793025	-0.03639267	0.01064642	-4.802867e-06	5.181115e-05
	6.911907e-05	0.000118757	0.007714308	-0.005402462	-4.802867e-06	5.181115e-05	-0.03551978	0.01172712
2e+08	-0.03152543	0.01382822	-8.498244e-06	4.303021e-05	0.005515127	-0.0051334	7.889856e-05	0.0001102405
	-8.498244e-06	4.303021e-05	-0.03072637	0.01471035	-0.0004425708	0.000251484	0.00585997	-0.004829001
	0.005515127	-0.0051334	-0.0004425708	0.000251484	-0.0316946	0.01406184	1.316981e-06	4.892345e-05
	7.889856e-05	0.0001102405	0.00585997	-0.004829001	1.316981e-06	4.892345e-05	-0.0307632	0.01497847
2.1e+08	-0.02628134	0.01590004	-4.125858e-06	4.184228e-05	0.003836476	-0.0040498	8.789688e-05	0.0001008499
	-4.125858e-06	4.184228e-05	-0.02547039	0.0166232	-0.0004225316	0.0003227556	0.004179913	-0.003810048
	0.003836476	-0.0040498	-0.0004225316	0.0003227556	-0.02641335	0.01614915	6.350509e-06	4.613347e-05
	8.789688e-05	0.0001008499	0.004179914	-0.003810048	6.350509e-06	4.613347e-05	-0.02547699	0.01688454
2.2e+08	-0.0207936	0.01656499	-1.883163e-07	4.101818e-05	0.002456541	-0.002577461	9.598673e-05	9.066453e-05
	-1.883164e-07	4.101818e-05	-0.0200236	0.01712543	-0.0003888132	0.0003895949	0.002778012	-0.002402186
	0.002456541	-0.002577461	-0.0003888132	0.0003895949	-0.02088652	0.01682145	1.066951e-05	4.36435e-05
	9.598673e-05	9.066453e-05	0.002778012	-0.002402186	1.066951e-05	4.36435e-05	-0.02000363	0.01737252
2.3e+08	-0.01540665	0.01581899	3.70138e-06	4.054794e-05	0.001462393	-0.0008019981	0.000103061	7.978201e-05
	3.70138e-06	4.054794e-05	-0.01473149	0.0162268	-0.000343465	0.0004491412	0.001741308	-0.0006856852
	0.001462393	-0.0008019981	-0.000343465	0.0004491412	-0.01546031	0.01607426	1.465533e-05	4.149752e-05
	0.000103061	7.978201e-05	0.001741308	-0.0006856852	1.465533e-05	4.149752e-05	-0.01469053	0.01645328
2.4e+08	-0.01045384	0.01373929	7.873191e-06	4.027004e-05	0.000917548	0.001171978	0.0001090325	6.831469e-05
	7.873191e-06	4.027004e-05	-0.009924921	0.01401864	-0.0002891223	0.0004994246	0.001134678	0.001240179
	0.000917548	0.001171978	-0.0002891223	0.0004994246	-0.01047004	0.01398484	1.864501e-05	3.958908e-05
	0.0001090325	6.831469e-05	0.001134678	0.001240179	1.864501e-05	3.958908e-05	-0.009870071	0.01421973
2.5e+08	-0.006238816	0.0104792	1.255063e-05	3.990393e-05	0.0008578777	0.003227115	0.0001138335	5.638473e-05
	1.255063e-05	3.990393e-05	-0.005901307	0.01066763	-0.0002286956	0.0005394618	0.0009967343	0.003263025
	0.0008578777	0.003227115	-0.0002286956	0.0005394618	-0.006221229	0.01070694	2.288224e-05	3.769001e-05
	0.0001138335	5.638473e-05	0.0009967343	0.003263025	2.288224e-05	3.769001e-05	-0.005840776	0.01084048
2.6e+08	-0.003018476	0.006258611	1.766823e-05	3.905718e-05	0.001289144	0.005240485	0.0001174183	4.412138e-05
	1.766823e-05	3.905718e-05	-0.002907868	0.00640537	-0.000148871	0.0005692771	0.00133725	0.005264171
	0.001289144	0.005240485	-0.000148871	0.0005692771	-0.002972547	0.006461384	2.733413e-05	3.544928e-05
	0.0001174183	4.412138e-05	0.00133725	0.005264171	2.733413e-05	3.544928e-05	-0.002850493	0.006549293
2.7e+08	-0.0009888438	0.00135079	2.327451e-05	3.74339e-05	0.002186372	0.007091223	0.0001197547	3.165604e-05
	2.327451e-05	3.74339e-05	-0.001128023	0.001514278	-6.599716e-05	0.0005854883	0.002136336	0.00712596
	0.002186372	0.007091223	-6.599716e-05	0.0005854883	-0.0009216454	0.001522723	3.208985e-05	3.261038e-05
	0.0001197547	3.165604e-05	0.002136336	0.00712596	3.208985e-05	3.261038e-05	-0.001082615	0.001630875
2.8e+08	-0.0002744109	-0.003933761	2.916828e-05	3.471737e-05	0.003495168	0.008668175	0.0001208303	1.912273e-05
	2.916828e-05	3.471737e-05	-0.00067133	-0.00368929	1.475583e-05	0.0005894315	0.00334549	0.008739132
	0.003495168	0.008668175	1.475583e-05	0.0005894315	-0.0001943046	-0.003796848	3.699693e-05	2.888019e-05
	0.0001208303	1.912273e-05	0.00334549	0.008739132	3.699693e-05	2.888019e-05	-0.0006461217	-0.0035962
2.9e+08	-0.0009216962	-0.00926549	3.499489e-05	3.068358e-05	0.005134971	0.009877029	0.0001206502	6.653928e-06
	3.499489e-05	3.068358e-05	-0.001567934	-0.008873793	9.1802e-05	0.0005831707	0.004890501	0.01000977
	0.005134971	0.009877029	9.1802e-05	0.0005831707	-0.0008379139	-0.009165791	4.175162e-05	2.404324e-05
	0.0001206502	6.653928e-06	0.004890501	0.01000977	4.175162e-05	2.404324e-05	-0.00157004	-0.008798365
3e+08	-0.002897327	-0.01431491	4.031778e-05	2.525369e-05	0.007004045	0.01064644	0.0001192345	-5.621669e-06
	4.031778e-05	2.525369e-05	-0.003767676	-0.01371196	0.0001644538	0.0005688155	0.00667606	0.0108653
	0.007004045	0.01064644	0.0001644538	0.0005688155	-0.002819499	-0.01425245	4.596577e-05	1.801516e-05
	0.0001192345	-5.621669e-06	0.00667606	0.0108653	4.596577e-05	1.801516e-05	-0.0038026	-0.01364667
3.1e+08	-0.006090754	-0.01877154	4.467778e-05	1.8516e-05	0.008985916	0.01093269	0.0001166176	-1.758035e-05
	4.467778e-05	1.8516e-05	-0.007143889	-0.01789982	0.00023283	0.000548193	0.008591782	0.01125915
	0.008985916	0.01093269	0.00023283	0.000548193	-0.006028388	-0.01874408	4.922184e-05	1.086645e-05
	0.0001166176	-1.758035e-05	0.008591782	0.01125915	4.922184e-05	1.086645e-05	-0.007215135	-0.01783586
3.2e+08	-0.01032137	-0.02236152	4.765705e-05	1.072495e-05	0.01095681	0.01072254	0.0001128458	-2.910462e-05
	4.765705e-05	1.072495e-05	-0.01150162	-0.02117405	0.0002976428	0.0005225889	0.01051923	0.01117371
	0.01095681	0.01072254	0.0002976428	0.0005225889	-0.01028332	-0.02236464	5.113341e-05	2.824635e-06
	0.0001128458	-2.910462e-05	0.01051923	0.01117371	5.113341e-05	2.824635e-06	-0.01161041	-0.02110195
3.3e+08	-0.01534957	-0.02486296	4.893801e-05	2.276459e-06	0.01279357	0.01003405	0.0001079767	-4.008378e-05
	4.893801e-05	2.276459e-06	-0.0165897	-0.0233269	0.0003599165	0.0004925849	0.01233947	0.01062133
	0.01279357	0.01003405	0.0003599165	0.0004925849	-0.01534354	-0.02489022	5.140201e-05	-5.74612e-06
	0.0001079767	-4.008378e-05	0.01233947	0.01062133	5.140201e-05	-5.74612e-06	-0.01673487	-0.02323702
3.4e+08	-0.02089105	-0.02611807	4.834877e-05	-6.336909e-06	0.01438153	0.008915408	0.0001020783	-5.041448e-05
	4.834877e-05	-6.336909e-06	-0.02211592	-0.0242175	0.0004206726	0.00045801	0.01394056	0.009643477
	0.01438153	0.008915408	0.0004206726	0.00045801	-0.0209231	-0.02616132	4.986214e-05	-1.438531e-05
	0.0001020783	-5.041448e-05	0.01394056	0.009643477	4.986214e-05	-1.438531e-05	-0.02229391	-0.0241007
3.5e+08	-0.02663342	-0.0260415	4.588941e-05	-1.458383e-05	0.01562171	0.007441712	9.52279e-05	-6.000137e-05
	4.588941e-05	-1.458383e-05	-0.02776435	-0.02377926	0.0004806177	0.0004180174	0.01522457	0.00830785
	0.01562171	0.007441712	0.0004806177	0.0004180174	-0.02670762	-0.02609128	4.650868e-05	-2.258938e-05
	9.52279e-05	-6.000137e-05	0.01522457	0.00830785	4.650868e-05	-2.258938e-05	-0.0279694	-0.02362748
3.6e+08	-0.03225423	-0.02462448	4.1735e-05	-2.195757e-05	0.01643701	0.005710111	8.751201e-05	-6.875802e-05
	4.1735e-05	-2.195757e-05	-0.03321369	-0.02202293	0.0005398872	0.0003712656	0.01611355	0.006704012
	0.01643701	0.005710111	0.0005398872	0.0003712656	-0.03237236	-0.02467051	4.150266e-05	-2.987138e-05
	8.751201e-05	-6.875802e-05	0.01611355	0.006704012	4.150266e-05	-2.987138e-05	-0.03343815	-0.02182969
3.7e+08	-0.03743921	-0.02193456	3.621597e-05	-2.803558e-05	0.01677682	0.003833598	7.902488e-05	-7.660782e-05
	3.621597e-05	-2.803558e-05	-0.03815574	-0.01903507	0.0005978718	0.0003161842	0.01655416	0.004937632
	0.01677682	0.003833598	0.0005978718	0.0003161842	-0.03760061	-0.02196632	3.515553e-05	-3.5818e-05
	7.902488e-05	-7.660782e-05	0.01655416	0.004937632	3.515553e-05	-3.5818e-05	-0.03839053	-0.01879593
3.8e+08	-0.04189987	-0.0181112	2.977861e-05	-3.252779e-05	0.01662001	0.001933909	6.986755e-05	-8.348499e-05
	2.977861e-05	-3.252779e-05	-0.04231275	-0.01497247	0.0006531539	0.0002512846	0.01652073	0.003123872
	0.01662001	0.001933909	0.0006531539	0.0002512846	-0.04210142	-0.01811846	2.789424e-05	-4.013696e-05
	6.986755e-05	-8.348499e-05	0.01652073	0.003123872	2.789424e-05	-4.013696e-05	-0.04254788	-0.01468531
3.9e+08	-0.04538945	-0.01335736	2.293152e-05	-3.530728e-05	0.01597598	0.0001340139	6.014632e-05	-8.933525e-05
	2.293152e-05	-3.530728e-05	-0.0454529	-0.01005257	0.0007035598	0.0001754752	0.0160165	0.001380326
	0.01597598	0.0001340139	0.0007035598	0.0001754752	-0.04562568	-0.01333079	2.021221e-05	-4.268849e-05
	6.014632e-05	-8.933525e-05	0.0160165	0.001380326	2.021221e-05	-4.268849e-05	-0.04567807	-0.009717793
4e+08	-0.04771632	-0.007927757	1.618556e-05	-3.642004e-05	0.01488385	-0.001449346	4.997095e-05	-9.411605e-05
	1.618556e-05	-3.642004e-05	-0.04740293	-0.00454069	0.0007463236	8.834096e-05	0.01507317	-0.0001800515
	0.01488385	-0.001449346	0.0007463236	8.834096e-05	-0.04797968	-0.007859433	1.261334e-05	-4.349752e-05
	4.997095e-05	-9.411605e-05	0.01507317	-0.0001800515	1.261334e-05	-4.349752e-05	-0.04760817	-0.004161214
4.1e+08	-0.04875433	-0.002114388	9.994692e-06	-3.607313e-05	0.01340999	-0.002712622	3.945314e-05	-9.779642e-05
	9.994692e-06	-3.607313e-05	-0.0480575	0.00126519	0.0007783404	-9.649169e-06	0.01374881	-0.001455605
	0.01340999	-0.002712622	0.0007783404	-9.649169e-06	-0.04903549	-0.001998293	5.555737e-06	-4.274568e-05
	3.945314e-05	-9.779642e-05	0.01374881	-0.001455605	5.555737e-06	-4.274568e-05	-0.04823376	0.001684061
4.2e+08	-0.04844943	0.003769773	4.705291e-06	-3.460341e-05	0.01164388	-0.003571554	2.870516e-05	-0.0001003562
	4.705291e-06	-3.460341e-05	-0.04738459	0.007051326	0.0007964803	-0.0001170344	0.01212425	-0.002361892
	0.01164388	-0.003571554	0.0007964803	-0.0001170344	-0.04873781	0.003937398	-5.97738e-07	-4.074463e-05
	2.870516e-05	-0.0001003562	0.01212425	-0.002361892	-5.97738e-07	-4.074463e-05	-0.04752434	0.007502195
4.3e+08	-0.04682238	0.009408178	5.199744e-07	-3.243115e-05	0.009692822	-0.003966101	1.783907e-05	-0.0001017851
	5.199744e-07	-3.243115e-05	-0.04542698	0.01250584	0.0007979264	-0.000231366	0.01029826	-0.002836544
	0.009692822	-0.003966101	0.0007979264	-0.000231366	-0.04710668	0.009628559	-5.616068e-06	-3.789461e-05
	1.783907e-05	-0.0001017851	0.01029826	-0.002836544	-5.616068e-06	-3.789461e-05	-0.04552465	0.01297962
4.4e+08	-0.04396743	0.01449816	-2.520396e-06	-3.000442e-05	0.00767556	-0.003863955	6.966594e-06	-0.0001020821
	-2.520396e-06	-3.000442e-05	-0.04229953	0.01733607	0.0007804941	-0.0003493267	0.008381757	-0.002842858
	0.00767556	-0.003863955	0.0007804941	-0.0003493267	-0.04423621	0.01476987	-9.420361e-06	-3.46333e-05
	6.966594e-06	-0.0001020821	0.008381757	-0.002842858	-9.420361e-06	-3.46333e-05	-0.0423519	0.01782252
4.5e+08	-0.04004696	0.01876764	-4.534286e-06	-2.774112e-05	0.005715378	-0.003262488	-3.800674e-06	-0.0001012548
	-4.534286e-06	-2.774112e-05	-0.03818255	0.02128488	0.0007428973	-0.0004669521	0.006491378	-0.002371942
	0.005715378	-0.003262488	0.0007428973	-0.0004669521	-0.04028929	0.01908658	-1.208526e-05	-3.138142e-05
	-3.800674e-06	-0.0001012548	0.006491378	-0.002371942	-1.208526e-05	-3.138142e-05	-0.03818898	0.02177319
4.6e+08	-0.03528252	0.0219901	-5.777391e-06	-2.597524e-05	0.003932877	-0.002189043	-1.435078e-05	-9.931955e-05
	-5.77739e-06	-2.597524e-05	-0.03331166	0.02414494	0.0006849283	-0.0005799307	0.004742693	-0.001443329
	0.003932877	-0.002189043	0.0006849283	-0.0005799307	-0.03548858	0.02234966	-1.382166e-05	-2.84904e-05
	-1.435078e-05	-9.931955e-05	0.004742693	-0.001443329	-1.382166e-05	-2.84904e-05	-0.03327415	0.02462444
4.7e+08	-0.02994252	0.02399715	-6.603192e-06	-2.491462e-05	0.00243887	-0.000699539	-2.457135e-05	-9.630326e-05
	-6.603192e-06	-2.491462e-05	-0.02796453	0.02577021	0.0006075299	-0.0006839476	0.003243462	-0.0001040044
	0.00243887	-0.000699539	0.0006075299	-0.0006839476	-0.0301042	0.02438847	-1.494321e-05	-2.620213e-05
