!$
! Info: Touchstone file created by Circ.  Input file=Tx_16in_Rx_85ohms_TxVia_60mils_RxVia_70mils.circ
!$
# Hz S RI R 50
0	0.01285496	2.237602e-25	0.9870046	-2.209254e-25	0.0001085251	2.809023e-23	-0.0001038739	2.264354e-21
	0.9870046	-2.233288e-25	0.01285029	2.440225e-25	-0.0001043521	2.323e-21	0.0001052989	3.135502e-23
	0.0001097506	2.729168e-23	-0.0001036657	2.238935e-21	0.01286544	2.218841e-25	0.9869831	-2.155837e-25
	-0.0001041418	2.29715e-21	0.0001055683	3.148947e-23	0.9869831	-2.256317e-25	0.0128646	2.429765e-25
1e+07	0.01542018	-0.01595969	0.9663453	-0.1701687	0.000716326	0.002874909	-0.0001357805	0.0001054483
	0.9663453	-0.1701687	0.01540239	-0.01595667	-0.00013588	0.000105514	0.0007105348	0.00287703
	0.000716396	0.002874876	-0.0001358486	0.0001054912	0.01538557	-0.01594282	0.9663653	-0.1702661
	-0.0001357491	0.0001054255	0.0007105378	0.002877028	0.9663653	-0.1702661	0.01536661	-0.01593927
2e+07	0.01130928	-0.03535661	0.9180214	-0.328974	0.002172231	0.005285995	2.769307e-05	0.0002139469
	0.9180214	-0.328974	0.0112416	-0.03533481	2.767144e-05	0.0002140474	0.002150657	0.005296143
	0.002172215	0.005285958	2.766062e-05	0.0002140298	0.01129439	-0.03531144	0.9179783	-0.3291734
	2.769327e-05	0.0002139102	0.002150654	0.005296143	0.9179783	-0.3291734	0.01122203	-0.03528759
3e+07	-0.0004937278	-0.05342864	0.845795	-0.4747415	0.004284336	0.007032082	0.0003024426	0.0001688517
	0.845795	-0.4747415	-0.0006333712	-0.05335614	0.0003024023	0.0001689389	0.004240883	0.007060421
	0.004284332	0.007032081	0.0003024008	0.0001689396	-0.0004927048	-0.05337153	0.8456656	-0.4750121
	0.0003024396	0.0001688487	0.004240883	0.007060423	0.8456656	-0.4750121	-0.0006417828	-0.05329304
4e+07	-0.01790982	-0.0668549	0.7516493	-0.6049896	0.006785014	0.007950006	0.0005688989	-8.347303e-05
	0.7516493	-0.6049896	-0.01812663	-0.06669153	0.0005688502	-8.331785e-05	0.006718908	0.008009074
	0.00678502	0.007950005	0.0005688538	-8.331876e-05	-0.01789586	-0.0667918	0.7514134	-0.6053049
	0.0005689083	-8.347071e-05	0.006718909	0.008009075	0.7514134	-0.6053049	-0.01812719	-0.06661592
5e+07	-0.03872592	-0.07405008	0.6385628	-0.7167315	0.009367713	0.007978598	0.0007030262	-0.0005233714
	0.6385628	-0.7167315	-0.03900587	-0.0737548	0.0007030409	-0.0005231316	0.009284166	0.008080741
	0.009367716	0.007978596	0.0007030426	-0.0005231332	-0.03870245	-0.07398417	0.6382057	-0.7170614
	0.0007030322	-0.0005233732	0.009284167	0.008080741	0.6382057	-0.7170614	-0.03900098	-0.07366692
6e+07	-0.06057775	-0.07435746	0.510044	-0.8075133	0.01173317	0.00716507	0.0006077497	-0.001069107
	0.510044	-0.8075133	-0.06088849	-0.07389715	0.000607884	-0.001068821	0.01164284	0.007319917
	0.01173317	0.007165073	0.0006078839	-0.00106882	-0.06054806	-0.07428994	0.5095578	-0.8078247
	0.0006077452	-0.001069104	0.01164284	0.007319917	0.5095578	-0.8078247	-0.06087895	-0.07379598
7e+07	-0.08115389	-0.06794164	0.3698817	-0.8755571	0.01362639	0.005649752	0.0002380146	-0.001599714
	0.3698817	-0.8755571	-0.08144963	-0.06729829	0.0002382911	-0.001599439	0.0135439	0.005862138
	0.01362639	0.005649759	0.0002382913	-0.001599435	-0.08112059	-0.06787238	0.3692663	-0.875815
	0.0002380056	-0.001599699	0.0135439	0.005862138	0.3692663	-0.875815	-0.08143478	-0.06718271
8e+07	-0.09840871	-0.05567968	0.221959	-0.9197601	0.01486145	0.003640371	-0.0003887823	-0.001985252
	0.221959	-0.9197601	-0.09863726	-0.05485473	-0.0003883704	-0.001985046	0.01480331	0.003908964
	0.01486145	0.003640378	-0.0003883689	-0.001985041	-0.0983736	-0.05560778	0.2212222	-0.9199298
	-0.0003887872	-0.00198523	0.01480331	0.003908964	0.2212222	-0.9199298	-0.09861534	-0.05472417
9e+07	-0.1107391	-0.03901261	0.07012363	-0.9396349	0.015334	0.001382878	-0.001197935	-0.002116635
	0.07012363	-0.9396349	-0.1108497	-0.03802839	-0.001197417	-0.002116542	0.01531604	0.001699684
	0.015334	0.001382882	-0.001197415	-0.00211654	-0.1107031	-0.03893685	0.06928153	-0.9396835
	-0.001197934	-0.002116617	0.01531604	0.001699684	0.06928153	-0.9396835	-0.1108182	-0.03788334
1e+08	-0.1171108	-0.01976614	-0.08188287	-0.93523	0.01502602	-0.0008659419	-0.002079625	-0.001928201
	-0.08188287	-0.93523	-0.117062	-0.01866452	-0.002079043	-0.001928251	0.01506084	-0.0005151117
	0.01502602	-0.0008659419	-0.002079043	-0.001928252	-0.1170743	-0.01968549	-0.08280616	-0.9351279
	-0.002079625	-0.001928201	0.01506084	-0.0005151117	-0.08280616	-0.9351279	-0.1170188	-0.01850685
1.1e+08	-0.1171042	6.696181e-05	-0.2304958	-0.9070929	0.0139855	-0.002881121	-0.002882676	-0.001381366
	-0.2304958	-0.9070929	-0.1168698	0.001228227	-0.002882114	-0.001381598	0.01408007	-0.00251522
	0.0139855	-0.002881121	-0.002882114	-0.001381598	-0.1170664	0.0001548181	-0.2314711	-0.9068185
	-0.002882676	-0.001381366	0.01408007	-0.00251522	-0.2314711	-0.9068185	-0.1168122	0.001396537
1.2e+08	-0.1109358	0.01845197	-0.3723044	-0.8561022	0.01232295	-0.00443109	-0.003465259	-0.0005612692
	-0.3723044	-0.8561022	-0.1105121	0.01960589	-0.003464793	-0.0005616571	0.01247711	-0.004071536
	0.01232295	-0.00443109	-0.003464792	-0.0005616571	-0.1108945	0.01854671	-0.3732986	-0.8556367
	-0.003465259	-0.0005612692	0.01247711	-0.004071536	-0.3732986	-0.8556367	-0.110438	0.01977984
1.3e+08	-0.09944201	0.03356637	-0.5040137	-0.7835674	0.01022331	-0.005348275	-0.003746715	0.0004298526
	-0.5040137	-0.7835674	-0.09885013	0.03464488	-0.003746399	0.0004293712	0.01042896	-0.00501629
	0.01022331	-0.005348275	-0.003746399	0.0004293711	-0.09939592	0.03366676	-0.5049887	-0.7828987
	-0.003746715	0.0004298525	0.01042896	-0.005016289	-0.5049887	-0.7828987	-0.09875998	0.03481855
1.4e+08	-0.08396472	0.04394538	-0.6224915	-0.6912055	0.007909216	-0.005527323	-0.003691153	0.00146538
	-0.6224915	-0.6912055	-0.08325059	0.04488842	-0.003691003	0.001464888	0.008150545	-0.005241009
	0.007909216	-0.005527323	-0.003691003	0.001464888	-0.08391325	0.04404962	-0.6234059	-0.6903294
	-0.003691153	0.00146538	0.008150544	-0.005241008	-0.6234059	-0.6903294	-0.0831472	0.04505596
1.5e+08	-0.06622564	0.04861561	-0.7247944	-0.5811692	0.005627014	-0.004934678	-0.003317945	0.002418235
	-0.7247944	-0.5811692	-0.06545677	0.04938	-0.003317931	0.002417812	0.005881787	-0.004706281
	0.005627014	-0.004934677	-0.003317931	0.002417812	-0.06616907	0.0487216	-0.7256052	-0.5800895
	-0.003317945	0.002418235	0.005881786	-0.00470628	-0.7256052	-0.5800895	-0.06534532	0.04953655
1.6e+08	-0.04816181	0.04718992	-0.808234	-0.456075	0.003625856	-0.003615672	-0.002695997	0.003185414
	-0.808234	-0.456075	-0.04742096	0.04775703	-0.002696049	0.003185115	0.003867632	-0.003449373
	0.003625856	-0.003615672	-0.002696049	0.003185115	-0.04810133	0.04729567	-0.8088982	-0.4548043
	-0.002695997	0.003185414	0.003867632	-0.003449372	-0.8088982	-0.4548043	-0.04730853	0.04789963
1.7e+08	-0.03173507	0.03991142	-0.8704759	-0.3190149	0.002132514	-0.001695664	-0.001927052	0.003707241
	-0.8704759	-0.3190149	-0.03111114	0.04029236	-0.001927079	0.003707074	0.002333604	-0.001586214
	0.002132514	-0.001695664	-0.001927079	0.003707074	-0.03167271	0.04001539	-0.8709522	-0.3175744
	-0.001927052	0.003707241	0.002333604	-0.001586213	-0.8709522	-0.3175744	-0.03100598	0.04042059
1.8e+08	-0.01873064	0.02763645	-0.9096646	-0.173531	0.001324184	0.0006277923	-0.001121666	0.003976703
	-0.9096646	-0.173531	-0.01830791	0.0278739	-0.001121578	0.003976625	0.00145901	0.0006953499
	0.001324184	0.0006277924	-0.001121578	0.003976625	-0.01866912	0.02773786	-0.909915	-0.1719504
	-0.001121666	0.003976703	0.00145901	0.0006953502	-0.909915	-0.1719504	-0.01821848	0.02799033
1.9e+08	-0.01056568	0.01175156	-0.9245526	-0.02354152	0.001303362	0.003103609	-0.0003733695	0.004036202
	-0.9245526	-0.02354152	-0.01041251	0.01191763	-0.0003731104	0.004036121	0.001351846	0.003153031
	0.001303362	0.003103609	-0.0003731104	0.004036121	-0.01050808	0.01185065	-0.9245439	-0.0218584
	-0.0003733695	0.004036202	0.001351846	0.003153031	-0.9245439	-0.0218584	-0.0103464	0.01202787
2e+08	-0.008131721	-0.005972024	-0.9146137	0.1267852	0.002080176	0.005456111	0.0002624639	0.003962023
	-0.9146137	0.1267852	-0.008290265	-0.005782058	0.0002628945	0.003961822	0.002030738	0.005517866
	0.002080176	0.005456111	0.0002628945	0.003961822	-0.008081087	-0.005873866	-0.9143195	0.1285262
	0.0002624639	0.003962023	0.002030738	0.005517866	-0.9143195	0.1285262	-0.008253078	-0.005669727
2.1e+08	-0.0116938	-0.02357294	-0.8801156	0.2731992	0.003567105	0.007420609	0.0007792999	0.003840289
	-0.8801156	0.2731992	-0.0121723	-0.02325045	0.0007798376	0.003839855	0.003418853	0.007528784
	0.003567105	0.007420609	0.0007798376	0.003839855	-0.01165275	-0.02347316	-0.8795174	0.2749477
	0.0007792998	0.003840289	0.003418853	0.007528784	-0.8795174	0.2749477	-0.01216675	-0.02312578
2.2e+08	-0.02086295	-0.03911941	-0.8221351	0.4115622	0.005588714	0.00877939	0.001216555	0.003740827
	-0.8221351	0.4115622	-0.02163184	-0.03855477	0.001217078	0.003740087	0.005352498	0.008967887
	0.005588714	0.00877939	0.001217078	0.003740087	-0.02083323	-0.03901444	-0.8212237	0.4132633
	0.001216555	0.003740827	0.005352498	0.008967887	-0.8212237	0.4132633	-0.02165708	-0.03840662
2.3e+08	-0.03464722	-0.0509248	-0.7425092	0.5380374	0.007905445	0.009391053	0.001643915	0.003696246
	-0.7425092	0.5380374	-0.0356398	-0.05002074	0.001644271	0.003695193	0.007603547	0.009689509
	0.007905445	0.009391053	0.001644271	0.003695193	-0.03462929	-0.05081042	-0.7412857	0.5396335
	0.001643915	0.003696246	0.007603547	0.009689509	-0.7412857	0.5396335	-0.03569115	-0.04983833
2.4e+08	-0.0515735	-0.05772989	-0.6437296	0.6492523	0.01024693	0.009207509	0.002137417	0.003692023
	-0.6437296	0.6492523	-0.05269137	-0.056414	0.002137456	0.003690728	0.009911321	0.009637435
	0.01024693	0.009207509	0.002137456	0.003690728	-0.05156632	-0.05760166	-0.6422055	0.6506853
	0.002137417	0.003692023	0.009911321	0.009637435	-0.6422055	0.6506853	-0.0527605	-0.05618826
2.5e+08	-0.06986131	-0.0588288	-0.5287966	0.7424139	0.01234812	0.00827611	0.002754145	0.003670033
	-0.5287966	0.7424139	-0.07098393	-0.05706365	0.00275376	0.003668632	0.01201742	0.008847744
	0.01234812	0.00827611	0.00275376	0.003668633	-0.06986223	-0.05868263	-0.5269947	0.743627
	0.002754145	0.003670033	0.01201742	0.008847744	-0.5269947	0.743627	-0.07105952	-0.05678845
2.6e+08	-0.08762285	-0.05412628	-0.4010587	0.8153672	0.01398159	0.006728037	0.003512428	0.00354403
	-0.4010587	0.8153672	-0.08862018	-0.05191579	0.003511582	0.003542703	0.01369701	0.00743837
	0.01398159	0.006728037	0.003511582	0.003542703	-0.08762781	-0.05395903	-0.3990124	0.8163072
	0.003512428	0.00354403	0.01369701	0.00743837	-0.3990124	0.8163072	-0.08868903	-0.05158891
2.7e+08	-0.1030631	-0.04412572	-0.2640584	0.8666021	0.01498114	0.00475697	0.004382409	0.003222464
	-0.2640584	0.8666021	-0.1038098	-0.04151693	0.00438115	0.003221394	0.0147819	0.005589237
	0.01498114	0.00475697	0.00438115	0.003221394	-0.103067	-0.04393569	-0.2618109	0.8672213
	0.004382409	0.003222464	0.0147819	0.005589237	-0.2618109	0.8672213	-0.1038582	-0.04114064
2.8e+08	-0.1146576	-0.02985628	-0.1214047	0.8952188	0.01525491	0.002593163	0.005288726	0.002632547
	-0.1214047	0.8952188	-0.1150472	-0.02693641	0.005287181	0.00263188	0.01517362	0.003517935
	0.01525491	0.002593163	0.005287181	0.00263188	-0.1146547	-0.0296436	-0.1190085	0.8954766
	0.005288726	0.002632547	0.01517362	0.003517935	-0.1190085	0.8954766	-0.1150624	-0.0265175
2.9e+08	-0.1212925	-0.01275373	0.02331938	0.9008716	0.01478871	0.0004775167	0.006123943	0.001739875
	0.02331938	0.9008716	-0.12125	-0.009642618	0.006122291	0.001739685	0.01484732	0.001455315
	0.01478871	0.0004775167	0.006122291	0.001739685	-0.1212773	-0.01252043	0.02580428	0.9007367
	0.006123943	0.001739875	0.01484732	0.001455315	0.02580428	0.9007367	-0.1212219	-0.009191964
3e+08	-0.122359	0.005489185	0.1666141	0.8837094	0.01364182	-0.00136144	0.006769137	0.0005595247
	0.1666141	0.8837094	-0.1218506	0.008650313	0.00676757	0.0005597995	0.01384862	-0.0003762604
	0.01364182	-0.00136144	0.00676757	0.0005597995	-0.1223268	0.005739229	0.1691216	0.8831604
	0.006769137	0.0005595247	0.01384862	-0.0003762604	0.1691216	0.8831604	-0.1217728	0.009118707
3.1e+08	-0.1177985	0.02308758	0.3050925	0.8443261	0.01193798	-0.002726596	0.007116991	-0.0008432445
	0.3050925	0.8443261	-0.1168373	0.02615009	0.007115675	-0.0008426026	0.01228597	-0.001781113
	0.01193798	-0.002726596	0.007115675	-0.0008426026	-0.1177459	0.02334897	0.3075524	0.8433531
	0.007116991	-0.0008432445	0.01228597	-0.001781113	0.3075524	0.8433531	-0.1167082	0.02662045
3.2e+08	-0.1081001	0.03833157	0.4354955	0.7837332	0.009853272	-0.003467608	0.007092692	-0.002362447
	0.4354955	0.7837332	-0.1067475	0.04115489	0.007091726	-0.0023616	0.01032015	-0.002605242
	0.009853272	-0.003467608	0.007091726	-0.0023616	-0.1080257	0.0385979	0.4378348	0.7823382
	0.007092692	-0.002362447	0.01032015	-0.002605242	0.4378348	0.7823382	-0.1065707	0.04161124
3.3e+08	-0.09425225	0.0497447	0.5547058	0.7033544	0.007601625	-0.003493228	0.006668611	-0.00386896
	0.5547058	0.7033544	-0.09261389	0.05221175	0.006668004	-0.003868093	0.008151524	-0.002748841
	0.007601624	-0.003493228	0.006668004	-0.003868093	-0.09415674	0.05000929	0.5568514	0.7015518
	0.006668611	-0.00386896	0.008151524	-0.002748841	0.5568514	0.7015518	-0.09239827	0.05263975
3.4e+08	-0.07765222	0.05622357	0.6597771	0.6050378	0.005417713	-0.002780801	0.005869925	-0.005232834
	0.6597771	0.6050378	-0.07586952	0.05825467	0.005869594	-0.005232112	0.006004364	-0.00217651
	0.005417713	-0.002780801	0.005869594	-0.005232112	-0.0775385	0.05648016	0.6616573	0.6028549
	0.005869925	-0.005232834	0.006004364	-0.00217651	0.6616573	0.6028549	-0.07562841	0.05864329
3.5e+08	-0.05997719	0.0571478	0.7479854	0.4910759	0.003536613	-0.00138208	0.004769856	-0.006346049
	0.7479854	0.4910759	-0.05821426	0.05871159	0.004769645	-0.006345572	0.004107832	-0.000924243
	0.003536613	-0.00138208	0.004769645	-0.006345572	-0.0598501	0.05739121	0.7495325	0.4885523
	0.004769856	-0.006346049	0.004107832	-0.000924243	0.7495325	0.4885523	-0.05796426	0.0590544
3.6e+08	-0.04302496	0.05244974	0.8169102	0.3642167	0.002170412	0.0005765406	0.003475131	-0.007141013
	0.8169102	0.3642167	-0.04145217	0.05356958	0.003474851	-0.007140785	0.0026734	0.0008987986
	0.002170412	0.0005765406	0.003474851	-0.007140785	-0.04289095	0.05267644	0.8180624	0.3614045
	0.003475131	-0.007141013	0.0026734	0.0008987986	0.8180624	0.3614045	-0.04121161	0.05386575
3.7e+08	-0.02853529	0.04263316	0.8645383	0.2276518	0.001483319	0.002901684	0.002104319	-0.007600612
	0.8645383	0.2276518	-0.02731098	0.04338798	0.0021038	-0.007600535	0.001870299	0.003116194
	0.001483319	0.002901684	0.0021038	-0.007600535	-0.0284018	0.0428418	0.8652419	0.224614
	0.002104319	-0.007600612	0.001870299	0.003116194	0.8652419	0.224614	-0.02709799	0.04364274
3.8e+08	-0.01800833	0.02873373	0.8893817	0.08496538	0.00156859	0.005350218	0.0007636762	-0.007757048
	0.8893817	0.08496538	-0.01726061	0.0292527	0.0007628173	-0.007756937	0.00180221	0.005499661
	0.00156859	0.005350218	0.0007628173	-0.007756937	-0.01788314	0.0289254	0.8895932	0.08177512
	0.0007636762	-0.007757048	0.00180221	0.005499661	0.8895932	0.08177512	-0.01709117	0.02947708
3.9e+08	-0.01254077	0.01221965	0.8905889	-0.05996063	0.002431844	0.007655832	-0.0004737845	-0.007679188
	0.8905889	-0.05996063	-0.01235145	0.01267067	-0.0004749765	-0.00767882	0.002489753	0.007793927
	0.002431844	0.007655832	-0.0004749765	-0.00767882	-0.01243113	0.01239796	0.8902771	-0.0632218
	-0.0004737845	-0.007679188	0.002489753	0.007793927	0.8902771	-0.0632218	-0.01223749	0.0128807
4e+08	-0.01270119	-0.005160683	0.868032	-0.203085	0.003985284	0.009562146	-0.001580506	-0.00745121
	0.868032	-0.203085	-0.01309415	-0.004587615	-0.001581906	-0.007450376	0.00386335	0.009748418
	0.003985284	0.009562146	-0.001581906	-0.007450376	-0.01261309	-0.004989791	0.8671795	-0.2063293
	-0.001580506	-0.00745121	0.00386335	0.009748418	0.8671795	-0.2063293	-0.01304204	-0.004372414
4.1e+08	-0.01846368	-0.02156762	0.822349	-0.3403768	0.006055699	0.01085708	-0.002574414	-0.007147922
	0.822349	-0.3403768	-0.01939936	-0.02068059	-0.002575795	-0.00714649	0.005769412	0.01115069
	0.006055699	0.01085708	-0.002575795	-0.00714649	-0.01840104	-0.02139634	0.8209535	-0.3435126
	-0.002574414	-0.007147922	0.005769412	0.01115069	0.8209535	-0.3435126	-0.0194089	-0.02043912
4.2e+08	-0.02921072	-0.03527232	0.7549299	-0.4679959	0.008406073	0.01140196	-0.003506547	-0.006813464
	0.7549299	-0.4679959	-0.03058769	-0.03389877	-0.00350763	-0.006811421	0.007989856	0.01185523
	0.008406073	0.01140196	-0.00350763	-0.006811421	-0.02917483	-0.03509168	0.7530052	-0.4709304
	-0.003506547	-0.006813464	0.007989856	0.01185523	0.7530052	-0.4709304	-0.03065175	-0.03361061
4.3e+08	-0.04380573	-0.0448449	0.6678479	-0.5824615	0.01076726	0.01114966	-0.00443972	-0.006449269
	0.6678479	-0.5824615	-0.04546953	-0.04285157	-0.004440236	-0.006446738	0.01027161	0.01180201
	0.01076726	0.01114966	-0.004440236	-0.006446738	-0.04379488	-0.04464566	0.665424	-0.5851038
	-0.00443972	-0.006449269	0.01027161	0.01180201	0.665424	-0.5851038	-0.04557453	-0.04249918
4.4e+08	-0.06072462	-0.04930424	0.5637427	-0.6807872	0.01287367	0.01014843	-0.005424219	-0.006014518
	0.5637427	-0.6807872	-0.06248289	-0.04661306	-0.005423972	-0.006011739	0.01236036	0.01102147
	0.01287367	0.01014843	-0.005423972	-0.006011739	-0.06073408	-0.04907794	0.5608656	-0.6830515
	-0.005424219	-0.006014518	0.01236036	0.01102147	0.5608656	-0.6830515	-0.06260994	-0.0461839
4.5e+08	-0.07822682	-0.04821181	0.4456772	-0.7605695	0.01449641	0.008531755	-0.006477241	-0.005438652
	0.4456772	-0.7605695	-0.07986903	-0.04481002	-0.006476157	-0.005435935	0.01403217	0.009626157
	0.01449641	0.008531755	-0.006476157	-0.005435935	-0.07824917	-0.04795172	0.4424079	-0.7623774
	-0.006477241	-0.005438652	0.01403217	0.009626157	0.4424079	-0.7623774	-0.07999577	-0.04429806
4.6e+08	-0.09454237	-0.04170179	0.3169867	-0.8200241	0.01546839	0.006497448	-0.007571405	-0.004642223
	0.3169867	-0.8200241	-0.09586184	-0.03764507	-0.007569555	-0.004639884	0.01511781	0.007792104
	0.01546839	0.006497448	-0.007569555	-0.004639884	-0.09456815	-0.04140381	0.3133995	-0.8213076
	-0.007571405	-0.004642223	0.01511781	0.007792104	0.3133995	-0.8213076	-0.09596465	-0.03705172
4.7e+08	-0.108052	-0.03044965	0.1811411	-0.8579782	0.01569882	0.004281009	-0.008634888	-0.003560429
	0.1811411	-0.8579782	-0.1088677	-0.02585791	-0.008632474	-0.003558725	0.01551725	0.005734583
	0.01569882	0.004281009	-0.008632474	-0.003558725	-0.1080707	-0.0301129	0.177322	-0.8586822
	-0.008634888	-0.003560429	0.01551725	0.005734583	0.177322	-0.8586822	-0.1089243	-0.02519217
4.8e+08	-0.1174419	-0.01558861	0.04163488	-0.8738306	0.0151771	0.002128237	-0.009562616	-0.002163528
	0.04163488	-0.8738306	-0.1176181	-0.01063506	-0.009559928	-0.002162601	0.01520443	0.003683013
	0.0151771	0.002128237	-0.009559928	-0.002162601	-0.117443	-0.01521567	0.03767922	-0.8739143
	-0.009562616	-0.002163528	0.01520443	0.003683013	0.03767922	-0.8739143	-0.1176097	-0.009912793
4.9e+08	-0.1218212	0.001412553	-0.09809071	-0.8674968	0.01396817	0.000270706	-0.01023545	-0.0004696167
	-0.09809071	-0.8674968	-0.1212824	0.006517855	-0.0102328	-0.0004694637	0.01422409	0.001858307
	0.01396817	0.0002707059	-0.0102328	-0.0004694637	-0.1217954	0.001815775	-0.102081	-0.8669354
	-0.01023545	-0.0004696167	0.01422409	0.001858307	-0.102081	-0.8669354	-0.121196	0.007275333
5e+08	-0.1207954	0.01889564	-0.234695	-0.839355	0.01220203	-0.001094171	-0.01054289	0.001452638
	-0.234695	-0.839355	-0.1195354	0.02392626	-0.01054057	0.001452157	0.01268348	0.0004541865
	0.01220203	-0.001094171	-0.01054057	0.001452157	-0.1207356	0.01932044	-0.2386139	-0.8381404
	-0.01054289	0.001452638	0.01268348	0.0004541865	-0.2386139	-0.8381404	-0.1193654	0.02469422
5.1e+08	-0.1144941	0.03516997	-0.3649629	-0.7902047	0.01006012	-0.001818361	-0.01040464	0.003491521
	-0.3649629	-0.7902047	-0.1125791	0.03990553	-0.01040281	0.00349065	0.01074102	-0.0003775356
	0.01006012	-0.001818361	-0.01040281	0.00349065	-0.1143963	0.03560564	-0.3687029	-0.7883461
