!$
! Info: Touchstone file created by Circ.  Input file=Tx_14in_Rx_93ohms_TxVia_60mils_RxVia_70mils.circ
!$
# Hz S RI R 50
0	0.01282839	1.997534e-25	3.040704e-08	4.963981e-26	9.762388e-05	2.803158e-23	6.468929e-08	1.171415e-26
	3.040704e-08	4.963957e-26	0.01282372	2.16818e-25	6.259088e-08	1.614382e-25	9.439746e-05	3.128951e-23
	9.884938e-05	2.72347e-23	6.259089e-08	1.614371e-25	0.01283887	1.980874e-25	2.358668e-08	6.624008e-26
	6.468932e-08	1.171447e-26	9.466687e-05	3.142368e-23	2.358698e-08	6.624566e-26	0.01283803	2.158828e-25
1e+07	0.01857815	-0.002073453	5.493189e-08	8.91622e-08	0.0005718074	0.002584033	1.565367e-07	2.51868e-07
	5.493189e-08	8.916221e-08	0.01856623	-0.002072722	8.091329e-08	2.855078e-07	0.0005670536	0.002585697
	0.000571878	0.002584	8.091329e-08	2.855079e-07	0.01821129	-0.002063779	4.498946e-08	1.25039e-07
	1.565367e-07	2.51868e-07	0.0005670565	0.002585695	4.498946e-08	1.25039e-07	0.01819831	-0.002062517
2e+07	0.02080305	-0.009015282	9.879834e-08	1.472889e-07	0.001592019	0.004998129	3.623042e-07	3.52963e-07
	9.879835e-08	1.472889e-07	0.02075639	-0.00900515	1.253931e-07	4.90129e-07	0.001574057	0.005005745
	0.001592004	0.004998092	1.253931e-07	4.90129e-07	0.02054074	-0.008880293	1.034578e-07	1.668682e-07
	3.623042e-07	3.52963e-07	0.001574054	0.005005745	1.034578e-07	1.668682e-07	0.02048988	-0.008868387
3e+07	0.01971143	-0.01720149	1.494621e-07	1.834382e-07	0.003288313	0.006869246	6.105235e-07	3.524441e-07
	1.494621e-07	1.834382e-07	0.01961207	-0.01716263	1.512052e-07	6.949407e-07	0.003251104	0.006890263
	0.00328831	0.006869246	1.512052e-07	6.949407e-07	0.01952602	-0.01704579	1.636441e-07	2.026994e-07
	6.105235e-07	3.524441e-07	0.003251103	0.006890265	1.636441e-07	2.026994e-07	0.01941797	-0.01700198
4e+07	0.01593514	-0.02495962	1.99167e-07	1.965757e-07	0.005457541	0.008106341	8.626848e-07	2.384246e-07
	1.99167e-07	1.965757e-07	0.01577388	-0.02486639	1.663805e-07	9.008072e-07	0.005398442	0.008150412
	0.005457546	0.00810634	1.663805e-07	9.008072e-07	0.01580708	-0.02481361	2.187822e-07	2.166024e-07
	8.626848e-07	2.384246e-07	0.005398443	0.008150413	2.187822e-07	2.166024e-07	0.01563189	-0.02471015
5e+07	0.009995273	-0.0314597	2.401125e-07	1.876742e-07	0.007832797	0.008661475	1.077224e-06	9.639474e-09
	2.401125e-07	1.876742e-07	0.009773858	-0.0312831	1.738906e-07	1.107303e-06	0.007753289	0.008739073
	0.0078328	0.008661474	1.738906e-07	1.107303e-06	0.00990578	-0.03133862	2.634796e-07	2.073231e-07
	1.077224e-06	9.639477e-09	0.00775329	0.008739074	2.634796e-07	2.073231e-07	0.009665388	-0.03114382
6e+07	0.002474179	-0.03614641	2.641922e-07	1.603061e-07	0.01021295	0.008513272	1.209889e-06	-3.200329e-07
	2.641922e-07	1.603061e-07	0.002206159	-0.03585892	1.759352e-07	1.316193e-06	0.01011865	0.008634082
	0.01021295	0.008513274	1.759352e-07	1.316193e-06	0.002405429	-0.03605677	2.896814e-07	1.781395e-07
	1.209889e-06	-3.200329e-07	0.01011865	0.008634082	2.896814e-07	1.781395e-07	0.002114834	-0.03574069
7e+07	-0.005985314	-0.03868018	2.645623e-07	1.209053e-07	0.01239922	0.007697207	1.221864e-06	-7.199205e-07
	2.645623e-07	1.209053e-07	-0.006276096	-0.03826013	1.748359e-07	1.529079e-06	0.01229941	0.007868695
	0.01239922	0.007697213	1.748359e-07	1.529079e-06	-0.006049445	-0.03862228	2.901055e-07	1.35774e-07
	1.221864e-06	-7.199205e-07	0.01229941	0.007868695	2.901055e-07	1.35774e-07	-0.006364109	-0.03816153
8e+07	-0.0147131	-0.03892326	2.367617e-07	7.827642e-08	0.01421228	0.006302827	1.086341e-06	-1.145396e-06
	2.367617e-07	7.827641e-08	-0.01499519	-0.03835807	1.731389e-07	1.746886e-06	0.01411899	0.006529026
	0.01421228	0.006302834	1.731389e-07	1.746886e-06	-0.01478635	-0.03889273	2.598568e-07	8.96577e-08
	1.086341e-06	-1.145396e-06	0.01411899	0.006529026	2.598568e-07	8.965769e-08	-0.01509083	-0.03827382
9e+07	-0.02305265	-0.03692858	1.795517e-07	4.2665e-08	0.01550688	0.004465644	7.932101e-07	-1.542952e-06
	1.795517e-07	4.266499e-08	-0.02329035	-0.03621694	1.73501e-07	1.969699e-06	0.01543366	0.004746286
	0.01550688	0.004465649	1.73501e-07	1.969699e-06	-0.02314616	-0.03691772	1.974476e-07	5.091693e-08
	7.932101e-07	-1.542952e-06	0.01543366	0.004746286	1.974476e-07	5.091692e-08	-0.02340166	-0.03613935
1e+08	-0.03038353	-0.0329192	9.531829e-08	2.45303e-08	0.01618271	0.002354539	3.514244e-07	-1.85656e-06
	9.531829e-08	2.45303e-08	-0.03054073	-0.03207222	1.78473e-07	2.196623e-06	0.01614309	0.002684617
	0.01618271	0.002354539	1.78473e-07	2.196623e-06	-0.03050869	-0.03291869	1.053299e-07	3.106859e-08
	3.514244e-07	-1.85656e-06	0.01614309	0.002684617	1.053299e-07	3.106859e-08	-0.03067596	-0.031993
1.1e+08	-0.03626047	-0.0273965	-1.017833e-08	3.293186e-08	0.01619166	0.0001637155	-2.079371e-07	-2.039216e-06
	-1.017833e-08	3.293185e-08	-0.03630415	-0.02643805	1.868262e-07	2.428893e-06	0.0161975	0.0005334853
	0.01619166	0.0001637155	1.868262e-07	2.428893e-06	-0.03641803	-0.02737809	-9.840369e-09	4.0643e-08
	-2.079371e-07	-2.039216e-06	0.0161975	0.0005334855	-9.840369e-09	4.0643e-08	-0.036461	-0.02633137
1.2e+08	-0.04040501	-0.02070735	-1.280035e-07	7.539943e-08	0.01554858	-0.001915579	-8.44081e-07	-2.0491e-06
	-1.280035e-07	7.539943e-08	-0.04031048	-0.01967179	2.022978e-07	2.663967e-06	0.0156085	-0.001519806
	0.01554858	-0.001915579	2.022978e-07	2.663967e-06	-0.04058024	-0.02066229	-1.384779e-07	8.740158e-08
	-8.44081e-07	-2.0491e-06	0.0156085	-0.001519805	-1.384779e-07	8.740158e-08	-0.04047214	-0.01953221
1.3e+08	-0.04255762	-0.01338281	-2.470441e-07	1.561854e-07	0.01431598	-0.003704975	-1.501565e-06	-1.860129e-06
	-2.470441e-07	1.561854e-07	-0.04231139	-0.01231289	2.258483e-07	2.899438e-06	0.01443415	-0.003299776
	0.01431598	-0.003704975	2.258483e-07	2.899438e-06	-0.04273931	-0.01330712	-2.684706e-07	1.759912e-07
	-1.501565e-06	-1.860129e-06	0.01443415	-0.003299775	-2.684706e-07	1.759912e-07	-0.04246563	-0.01214039
1.4e+08	-0.04264552	-0.005996706	-3.549116e-07	2.758771e-07	0.01260375	-0.005051619	-2.116986e-06	-1.464271e-06
	-3.549116e-07	2.758771e-07	-0.04224791	-0.00493968	2.575894e-07	3.1328e-06	0.01277898	-0.004654971
	0.01260375	-0.005051619	2.575894e-07	3.1328e-06	-0.04282305	-0.005889721	-3.863143e-07	3.070735e-07
	-2.116986e-06	-1.464271e-06	0.01277898	-0.00465497	-3.863143e-07	3.070735e-07	-0.04238444	-0.004737944
1.5e+08	-0.04075988	0.0008876657	-4.391838e-07	4.310645e-07	0.01055936	-0.005840441	-2.624921e-06	-8.736925e-07
	-4.391838e-07	4.310645e-07	-0.04022637	0.001884518	2.967979e-07	3.361652e-06	0.0107847	-0.005469978
	0.01055936	-0.005840441	2.967979e-07	3.361652e-06	-0.04092349	0.001023614	-4.784557e-07	4.769613e-07
	-2.624921e-06	-8.736925e-07	0.0107847	-0.005469978	-4.784557e-07	4.769613e-07	-0.0403371	0.00210892
1.6e+08	-0.03714166	0.006760722	-4.88682e-07	6.144322e-07	0.008355714	-0.006002725	-2.964257e-06	-1.210314e-07
	-4.88682e-07	6.144322e-07	-0.03650276	0.007654948	3.420132e-07	3.583953e-06	0.008618648	-0.005673904
	0.008355714	-0.006002724	3.420132e-07	3.583953e-06	-0.03728298	0.006920657	-5.326765e-07	6.777106e-07
	-2.964257e-06	-1.210314e-07	0.008618647	-0.005673904	-5.326765e-07	6.777106e-07	-0.03658234	0.007893319
1.7e+08	-0.03215887	0.01120397	-4.946667e-07	8.152511e-07	0.006177372	-0.005521091	-3.084467e-06	7.422545e-07
	-4.946667e-07	8.152511e-07	-0.03145842	0.01196264	3.912099e-07	3.798216e-06	0.006460533	-0.005245453
	0.006177372	-0.00552109	3.912099e-07	3.798216e-06	-0.03227143	0.01138074	-5.393978e-07	8.976444e-07
	-3.084467e-06	7.422545e-07	0.006460533	-0.005245452	-5.393978e-07	8.976444e-07	-0.0315046	0.01220505
1.8e+08	-0.02627556	0.01391965	-4.518347e-07	1.02022e-06	0.004205961	-0.004430626	-2.951261e-06	1.649407e-06
	-4.518347e-07	1.02022e-06	-0.02556764	0.01452346	4.420122e-07	4.003636e-06	0.004488418	-0.004214322
	0.004205961	-0.004430626	4.420122e-07	4.003636e-06	-0.02635527	0.01410452	-4.927728e-07	1.122258e-06
	-2.951261e-06	1.649407e-06	0.004488418	-0.004214322	-4.927728e-07	1.122258e-06	-0.02558142	0.01475972
1.9e+08	-0.02001459	0.01475092	-3.590234e-07	1.214576e-06	0.002605772	-0.002816077	-2.551094e-06	2.52355e-06
	-3.590234e-07	1.214576e-06	-0.01935925	0.01519723	4.91915e-07	4.20013e-06	0.002864732	-0.00265882
	0.002605772	-0.002816077	4.91915e-07	4.20013e-06	-0.02006007	0.01493429	-3.914672e-07	1.335424e-06
	-2.551094e-06	2.52355e-06	0.002864732	-0.00265882	-3.914672e-07	1.335424e-06	-0.01934476	0.01541784
2e+08	-0.01391677	0.0136913	-2.195596e-07	1.383381e-06	0.001510548	-0.0008052013	-1.894014e-06	3.284162e-06
	-2.195596e-07	1.383381e-06	-0.01337476	0.01399587	5.384843e-07	4.388316e-06	0.001723348	-0.0006997611
	0.001510548	-0.0008052013	5.384843e-07	4.388316e-06	-0.01392946	0.01386345	-2.390557e-07	1.520792e-06
	-1.894014e-06	3.284162e-06	0.001723348	-0.000699761	-2.390557e-07	1.520792e-06	-0.01333897	0.01419291
2.1e+08	-0.008499093	0.01088275	-4.122244e-08	1.51286e-06	0.001012465	0.001441343	-1.014517e-06	3.85435e-06
	-4.122244e-08	1.51286e-06	-0.008126307	0.01107975	5.795243e-07	4.569449e-06	0.001158686	0.001509032
	0.001012465	0.001441343	5.795243e-07	4.569449e-06	-0.008483231	0.01103465	-4.399481e-08	1.663261e-06
	-1.014517e-06	3.85435e-06	0.001158686	0.001509032	-4.399481e-08	1.663261e-06	-0.008078376	0.01124767
2.2e+08	-0.004215316	0.006602525	1.641802e-07	1.591704e-06	0.001154254	0.003742954	2.985463e-08	4.16827e-06
	1.641802e-07	1.591704e-06	-0.004057162	0.0067429	6.132131e-07	4.745342e-06	0.001217761	0.003793044
	0.001154254	0.003742954	6.132131e-07	4.745342e-06	-0.004177608	0.006726577	1.808301e-07	1.750407e-06
	2.985463e-08	4.16827e-06	0.001217761	0.003793044	1.808301e-07	1.750407e-06	-0.004007674	0.006879079
2.3e+08	-0.001421696	0.001239816	3.815964e-07	1.612212e-06	0.001925248	0.005913946	1.162166e-06	4.178033e-06
	3.815964e-07	1.612212e-06	-0.001508136	0.001387955	6.382191e-07	4.918269e-06	0.001895978	0.005971328
	0.001925248	0.005913946	6.382191e-07	4.918269e-06	-0.001370864	0.001330522	4.189611e-07	1.773757e-06
	1.162166e-06	4.178033e-06	0.001895978	0.005971328	4.189611e-07	1.773757e-06	-0.00146818	0.001493008
2.4e+08	-0.0003506087	-0.004736008	5.938296e-07	1.571205e-06	0.003261862	0.00777913	2.29182e-06	3.859371e-06
	5.938296e-07	1.571205e-06	-0.000692271	-0.00450709	6.538107e-07	5.090867e-06	0.003137176	0.00787157
	0.003261862	0.00777913	6.538107e-07	5.090867e-06	-0.0002967384	-0.004681546	6.515756e-07	1.729788e-06
	2.29182e-06	3.859371e-06	0.003137176	0.00787157	6.515756e-07	1.729788e-06	-0.000672455	-0.004429264
2.5e+08	-0.001094055	-0.01081312	7.828853e-07	1.470602e-06	0.005052646	0.009188757	3.321937e-06	3.215445e-06
	7.828853e-07	1.470602e-06	-0.001679858	-0.01042768	6.599629e-07	5.266e-06	0.00483811	0.009344656
	0.005052646	0.009188757	6.599629e-07	5.266e-06	-0.001047821	-0.01079489	8.589695e-07	1.620572e-06
	3.321937e-06	3.215445e-06	0.00483811	0.009344656	8.589695e-07	1.620572e-06	-0.001689351	-0.01037015
2.6e+08	-0.003598306	-0.01647789	9.314751e-07	1.317617e-06	0.007147584	0.01003143	4.157765e-06	2.278306e-06
	9.314751e-07	1.317617e-06	-0.004394908	-0.01586397	6.574523e-07	5.446586e-06	0.006857068	0.01027739
	0.007147584	0.01003143	6.574523e-07	5.446586e-06	-0.003570158	-0.01649283	1.022219e-06	1.453987e-06
	4.157765e-06	2.278306e-06	0.006857068	0.01027739	1.022219e-06	1.453987e-06	-0.004440617	-0.01581726
2.7e+08	-0.007670163	-0.02125499	1.024588e-06	1.124516e-06	0.009370881	0.01024376	4.715363e-06	1.107748e-06
	1.024588e-06	1.124516e-06	-0.008623376	-0.02035101	6.479199e-07	5.635375e-06	0.009025934	0.01060213
	0.009370881	0.01024376	6.479199e-07	5.635375e-06	-0.007669409	-0.02129722	1.124893e-06	1.243436e-06
	4.715363e-06	1.107748e-06	0.009025934	0.01060213	1.124893e-06	1.243436e-06	-0.008709205	-0.02030392
2.8e+08	-0.01299385	-0.02474414	1.050968e-06	9.078935e-07	0.01153606	0.009815772	4.929718e-06	-2.124704e-07
	1.050968e-06	9.078935e-07	-0.014032	-0.0235049	6.338599e-07	5.834673e-06	0.01116457	0.01030244
	0.01153606	0.009815772	6.338599e-07	5.834673e-06	-0.01302792	-0.02480534	1.15468e-06	1.007053e-06
	4.929718e-06	-2.124704e-07	0.01116457	0.01030244	1.15468e-06	1.007053e-06	-0.01415847	-0.02344542
2.9e+08	-0.01915733	-0.02665032	1.004384e-06	6.8752e-07	0.01346199	0.008791574	4.761519e-06	-1.580759e-06
	1.004384e-06	6.8752e-07	-0.02019634	-0.02505195	6.185116e-07	6.04605e-06	0.0130962	0.009414192
	0.01346199	0.008791574	6.185116e-07	6.04605e-06	-0.01923118	-0.02672031	1.104764e-06	7.664328e-07
	4.761519e-06	-1.580759e-06	0.0130962	0.009414192	1.104764e-06	7.664328e-07	-0.02036049	-0.02496828
3e+08	-0.02568568	-0.02680528	8.84537e-07	4.847946e-07	0.01498823	0.007265305	4.20189e-06	-2.885709e-06
	8.84537e-07	4.847946e-07	-0.02663554	-0.02484854	6.056333e-07	6.270065e-06	0.01466227	0.008022106
	0.01498823	0.007265305	6.056333e-07	6.270065e-06	-0.02580131	-0.02687278	9.748033e-07	5.449318e-07
	4.20189e-06	-2.885709e-06	0.01466227	0.008022106	9.748033e-07	5.449318e-07	-0.02683109	-0.02473009
3.1e+08	-0.03207867	-0.0251789	6.974801e-07	3.209333e-07	0.01598851	0.005372752	3.274604e-06	-4.015279e-06
	6.974801e-07	3.209333e-07	-0.03285072	-0.02289052	5.991669e-07	6.506081e-06	0.01573558	0.006252129
	0.01598851	0.005372752	5.991669e-07	6.506081e-06	-0.03223492	-0.02523238	7.713803e-07	3.657001e-07
	3.274604e-06	-4.015279e-06	0.01573558	0.006252129	7.713803e-07	3.657001e-07	-0.03306852	-0.02272885
3.2e+08	-0.03784959	-0.02187977	4.554725e-07	2.150468e-07	0.01638089	0.003279576	2.035513e-06	-4.866359e-06
	4.554725e-07	2.150468e-07	-0.03836407	-0.01931164	6.028232e-07	6.752193e-06	0.01623044	0.004260499
	0.01638089	0.003279576	6.028232e-07	6.752193e-06	-0.03804218	-0.02190833	5.078276e-07	2.495918e-07
	2.035513e-06	-4.866359e-06	0.01623044	0.004260499	5.078276e-07	2.495918e-07	-0.03859286	-0.01910118
3.3e+08	-0.04256244	-0.01714522	1.762292e-07	1.822975e-07	0.01613414	0.00116727	5.692141e-07	-5.353885e-06
	1.762292e-07	1.822975e-07	-0.04275562	-0.01437136	6.196474e-07	7.005328e-06	0.01610912	0.002220538
	0.01613414	0.00116727	6.196474e-07	7.005328e-06	-0.0427842	-0.01713943	2.034133e-07	2.13172e-07
	5.692141e-07	-5.353885e-06	0.01610912	0.002220538	2.034133e-07	2.13172e-07	-0.04298289	-0.01410996
3.4e+08	-0.04586453	-0.01132185	-1.183864e-07	2.323335e-07	0.01526968	-0.0007818774	-1.016829e-06	-5.418719e-06
	-1.183864e-07	2.323335e-07	-0.04569484	-0.008433397	6.516304e-07	7.261497e-06	0.01538434	0.0003083877
	0.01526968	-0.0007818774	6.516304e-07	7.261497e-06	-0.04610594	-0.01127448	-1.180751e-07	2.670223e-07
	-1.016829e-06	-5.418719e-06	0.01538434	0.0003083877	-1.180751e-07	2.670223e-07	-0.04590791	-0.008122533
3.5e+08	-0.04751252	-0.004838206	-4.041204e-07	3.681732e-07	0.01385937	-0.002399547	-2.600243e-06	-5.033617e-06
	-4.041204e-07	3.681732e-07	-0.0469651	-0.00193673	6.994335e-07	7.516189e-06	0.01411758	-0.001311138
	0.01385937	-0.002399547	6.994335e-07	7.516189e-06	-0.04776233	-0.004744832	-4.302292e-07	4.145308e-07
	-2.600243e-06	-5.033617e-06	0.01411758	-0.001311138	-4.302292e-07	4.145308e-07	-0.04715209	-0.001581441
3.6e+08	-0.04738988	0.001828268	-6.563733e-07	5.856684e-07	0.0120193	-0.003544767	-4.053185e-06	-4.206782e-06
	-6.563733e-07	5.856684e-07	-0.04647906	0.004638627	7.62272e-07	7.76484e-06	0.01241375	-0.002497506
	0.0120193	-0.003544767	7.62272e-07	7.76484e-06	-0.04763594	0.001968885	-7.062278e-07	6.513008e-07
	-4.053185e-06	-4.206782e-06	0.01241375	-0.002497506	-7.062278e-07	6.513008e-07	-0.04662993	0.005030094
3.7e+08	-0.04551488	0.008187523	-8.523331e-07	8.736102e-07	0.009900268	-0.004114942	-5.252535e-06	-2.982658e-06
	-8.523331e-07	8.736102e-07	-0.04428441	0.01080846	8.379778e-07	8.003314e-06	0.01041257	-0.003145332
	0.009900268	-0.004114942	8.379778e-07	8.003314e-06	-0.04574504	0.008373284	-9.211448e-07	9.652494e-07
	-5.252535e-06	-2.982658e-06	0.01041257	-0.003145332	-9.211448e-07	9.652494e-07	-0.0443918	0.01122528
3.8e+08	-0.04203853	0.01377382	-9.729894e-07	1.214471e-06	0.007675753	-0.00405384	-6.090078e-06	-1.439849e-06
	-9.729894e-07	1.214471e-06	-0.04055938	0.01612117	9.232239e-07	8.228319e-06	0.008277445	-0.003192466
	0.007675753	-0.00405384	9.232239e-07	8.228319e-06	-0.04224155	0.01399938	-1.054139e-06	1.337389e-06
	-6.090078e-06	-1.439849e-06	0.008277445	-0.003192466	-1.054139e-06	1.337389e-06	-0.04061922	0.01655078
3.9e+08	-0.03723281	0.01818069	-1.004844e-06	1.585707e-06	0.00552824	-0.003356013	-6.481892e-06	3.137699e-07
	-1.004844e-06	1.585707e-06	-0.03559861	0.02019192	1.01387e-06	8.437707e-06	0.00618271	-0.002624791
	0.00552824	-0.003356013	1.01387e-06	8.437707e-06	-0.0373992	0.01843777	-1.090325e-06	1.743222e-06
	-6.481892e-06	3.137699e-07	0.00618271	-0.002624791	-1.090325e-06	1.743222e-06	-0.03561055	0.02062101
4e+08	-0.03146994	0.02109134	-9.411703e-07	1.961503e-06	0.003634848	-0.002067406	-6.376174e-06	2.148484e-06
	-9.411703e-07	1.961503e-06	-0.02979042	0.02273161	1.105364e-06	8.630626e-06	0.004299965	-0.001477436
	0.003634848	-0.002067406	1.105364e-06	8.630626e-06	-0.03159272	0.02136931	-1.022168e-06	2.154611e-06
	-6.376174e-06	2.148484e-06	0.004299965	-0.001477436	-1.022168e-06	2.154611e-06	-0.02975787	0.02314722
4.1e+08	-0.02519427	0.02230253	-7.8272e-07	2.314788e-06	0.002153272	-0.0002820547	-5.758853e-06	3.922238e-06
	-7.8272e-07	2.314788e-06	-0.02358706	0.02356875	1.193145e-06	8.80753e-06	0.002784572	0.0001677158
	0.002153272	-0.0002820547	1.193145e-06	8.80753e-06	-0.02526955	0.02258912	-8.502881e-07	2.541975e-06
	-5.758853e-06	3.922238e-06	0.002784572	0.0001677158	-8.502881e-07	2.541975e-06	-0.02351702	0.02395927
4.2e+08	-0.01888873	0.02173988	-5.37848e-07	2.619371e-06	0.001209025	0.00186494	-4.656426e-06	5.491575e-06
	-5.37848e-07	2.619371e-06	-0.01747021	0.02266234	1.272984e-06	8.97008e-06	0.001763207	0.002188118
	0.001209025	0.00186494	1.272984e-06	8.97008e-06	-0.01891609	0.02202208	-5.836291e-07	2.876617e-06
	-4.656426e-06	5.491575e-06	0.001763207	0.002188118	-5.836291e-07	2.876617e-06	-0.01737274	0.02301854
4.3e+08	-0.01303825	0.01946357	-2.220496e-07	2.852017e-06	0.000884957	0.004207778	-3.135637e-06	6.723209e-06
	-2.220496e-07	2.852017e-06	-0.01191407	0.02010499	1.341258e-06	9.120961e-06	0.0013234	0.004429932
	0.000884957	0.004207778	1.341258e-06	9.120961e-06	-0.01302085	0.0197286	-2.38982e-07	3.133011e-06
	-3.135637e-06	6.723209e-06	0.0013234	0.004429932	-2.38982e-07	3.133011e-06	-0.01180157	0.02042076
4.4e+08	-0.008093	0.01566397	1.430377e-07	2.994338e-06	0.001213941	0.006562998	-1.299856e-06	7.505336e-06
	1.430377e-07	2.994338e-06	-0.007349094	0.01611577	1.395137e-06	9.263687e-06	0.001505981	0.006720092
	0.001213941	0.006562998	1.395137e-06	9.263687e-06	-0.008037422	0.01590025	1.600876e-07	3.290893e-06
	-1.299856e-06	7.505336e-06	0.001505981	0.006720092	1.600876e-07	3.290893e-06	-0.007235289	0.01638872
4.5e+08	-0.004434001	0.01064717	5.311019e-07	3.034363e-06	0.002175447	0.008744274	7.177458e-07	7.757727e-06
	5.311019e-07	3.034363e-06	-0.004128831	0.01102335	1.432723e-06	9.402396e-06	0.002301137	0.008880212
	0.002175447	0.008744274	1.432723e-06	9.402396e-06	-0.004349866	0.01084526	5.848406e-07	3.337009e-06
	7.177458e-07	7.757727e-06	0.002301137	0.008880212	5.848406e-07	3.337009e-06	-0.00402774	0.01125507
4.6e+08	-0.002344081	0.004811751	9.130047e-07	2.967695e-06	0.003696466	0.01057781	2.763835e-06	7.439666e-06
	9.130047e-07	2.967695e-06	-0.00250279	0.005240583	1.453156e-06	9.541655e-06	0.003648589	0.01074126
	0.003696466	0.01057781	1.453156e-06	9.541655e-06	-0.002243298	0.004965089	1.003394e-06	3.266395e-06
	2.763835e-06	7.439666e-06	0.003648589	0.01074126	1.003394e-06	3.266395e-06	-0.002427491	0.005436612
4.7e+08	-0.001986242	-0.001381735	1.258911e-06	2.798161e-06	0.005656888	0.01191702	4.676684e-06	6.554944e-06
	1.258911e-06	2.798161e-06	-0.002597292	-0.0007673943	1.45672e-06	9.68626e-06	0.005442046	0.01215774
	0.005656888	0.01191702	1.45672e-06	9.68626e-06	-0.001882271	-0.00127622	1.383072e-06	3.08313e-06
	4.676684e-06	6.554944e-06	0.005442046	0.01215774	1.383072e-06	3.08313e-06	-0.002558963	-0.0005979734
4.8e+08	-0.003391308	-0.007445996	1.540575e-06	2.537899e-06	0.007899045	0.01265523	6.299156e-06	5.153309e-06
