!$
! Info: Touchstone file created by Circ.  Input file=Tx_16in_Rx_100ohms_TxVia_60mils_RxVia_70mils.circ
!$
# Hz S RI R 50
0	0.01650304	2.040836e-25	-8.514492e-05	7.346875e-24	0.0001042629	3.263229e-23	-8.517987e-05	1.185224e-23
	-8.51449e-05	7.345793e-24	0.01649821	2.420484e-25	-8.510713e-05	2.905779e-24	0.0001044699	4.030028e-23
	0.0001052412	3.320431e-23	-8.510711e-05	2.903899e-24	0.01651661	1.953045e-25	-8.513757e-05	6.860419e-24
	-8.517985e-05	1.185027e-23	0.0001047391	4.04731e-23	-8.513758e-05	6.861399e-24	0.01651242	2.410115e-25
1e+07	0.02322849	0.009334723	-0.0001390478	-4.596345e-05	0.0006369073	0.002827412	-0.0003439847	0.0002421715
	-0.0001390478	-4.596346e-05	0.02477953	0.008831406	-5.037019e-05	-1.618832e-05	0.001191073	0.002864864
	0.0006369165	0.002827378	-5.037019e-05	-1.618832e-05	0.02408424	0.008842713	-1.632749e-05	-1.92054e-05
	-0.0003439847	0.0002421715	0.001191076	0.002864862	-1.632749e-05	-1.920541e-05	0.02455679	0.008879072
2e+07	0.0320605	0.01183873	-9.63842e-05	-0.0001057884	0.001982728	0.005382926	-0.000384258	0.0002737311
	-9.63842e-05	-0.0001057884	0.03267755	0.01059708	-4.212361e-05	-1.535619e-05	0.002371989	0.005691945
	0.0019827	0.005382924	-4.212361e-05	-1.535619e-05	0.03216282	0.01085897	-1.423465e-05	5.936855e-06
	-0.000384258	0.0002737311	0.002371986	0.005691944	-1.423466e-05	5.936859e-06	0.0325466	0.01075366
3e+07	0.03917396	0.009939988	-7.860947e-05	-0.0001239199	0.004015957	0.007302479	-0.000395043	0.0003389226
	-7.860947e-05	-0.0001239199	0.03906435	0.008679713	-3.709317e-05	-1.46373e-05	0.004293624	0.007712739
	0.004015954	0.007302483	-3.709317e-05	-1.46373e-05	0.03872906	0.009006658	-1.711818e-05	7.636733e-06
	-0.000395043	0.0003389226	0.004293623	0.00771274	-1.711818e-05	7.636734e-06	0.03901148	0.008866785
4e+07	0.04463741	0.005647037	-0.0001362724	-7.852284e-05	0.006504225	0.008446662	-0.0003847623	0.0004081317
	-0.0001362724	-7.852284e-05	0.04397155	0.004634663	-3.30708e-05	-1.359145e-05	0.006737093	0.008907332
	0.006504225	0.008446658	-3.30708e-05	-1.359145e-05	0.04381112	0.004946453	-2.082297e-05	9.70438e-06
	-0.0003847623	0.0004081317	0.006737093	0.008907333	-2.082298e-05	9.704379e-06	0.04398538	0.004822001
5e+07	0.04823206	-0.0002302977	-0.00016948	-1.757525e-05	0.009174314	0.008726268	-0.0003567253	0.0004745513
	-0.00016948	-1.757525e-05	0.04718582	-0.0008436946	-2.964034e-05	-1.281909e-05	0.009544467	0.009041704
	0.009174311	0.008726266	-2.964034e-05	-1.281909e-05	0.0471834	-0.0006084934	-2.297952e-05	1.441013e-05
	-0.0003567253	0.0004745513	0.009544468	0.009041705	-2.297953e-05	1.441013e-05	0.04725236	-0.0006751439
6e+07	0.04978325	-0.007012418	-0.0001782911	5.054747e-05	0.01174109	0.008139257	-0.0003146471	0.0005334401
	-0.0001782911	5.054747e-05	0.04854048	-0.007149936	-2.661081e-05	-1.251848e-05	0.01216982	0.008298507
	0.0117411	0.008139261	-2.661081e-05	-1.251848e-05	0.04866073	-0.007041538	-2.280549e-05	2.057408e-05
	-0.0003146471	0.0005334401	0.01216982	0.008298507	-2.280549e-05	2.057408e-05	0.04864413	-0.007011958
7e+07	0.04923356	-0.01405245	-0.0001631089	0.0001187861	0.01394416	0.006753486	-0.0002635486	0.0005816369
	-0.0001631089	0.0001187861	0.04797315	-0.01370146	-2.521344e-05	-1.007233e-05	0.01435716	0.00678799
	0.01394417	0.006753491	-2.521344e-05	-1.007233e-05	0.04816772	-0.01375332	-1.990692e-05	2.688922e-05
	-0.0002635486	0.0005816369	0.01435716	0.00678799	-1.990692e-05	2.688922e-05	0.04809769	-0.01359979
8e+07	0.04666908	-0.02073717	-0.0001250109	0.00018083	0.01554327	0.004750492	-0.000209742	0.0006181471
	-0.0001250109	0.00018083	0.04555233	-0.01993997	-2.529209e-05	-1.065773e-06	0.01589567	0.004692029
	0.01554328	0.004750494	-2.529209e-05	-1.065772e-06	0.04576616	-0.02016609	-1.451973e-05	3.206991e-05
	-0.000209742	0.0006181471	0.01589567	0.004692029	-1.451973e-05	3.206991e-05	0.04568206	-0.01987484
9e+07	0.04231992	-0.02651461	-6.526211e-05	0.0002310025	0.0163771	0.002364342	-0.0001610016	0.0006447361
	-6.526211e-05	0.0002310025	0.04148228	-0.02535805	-2.247383e-05	7.270362e-06	0.0166402	0.002247612
	0.01637711	0.002364341	-2.247383e-05	7.270363e-06	0.04165966	-0.02575225	-7.530252e-06	3.516962e-05
	-0.0001610016	0.0006447361	0.0166402	0.002247613	-7.53025e-06	3.516961e-05	0.04160323	-0.02532491
1e+08	0.03653765	-0.03092645	2.10924e-05	0.0002632702	0.01637394	-0.0001390131	-0.0001357125	0.0006669813
	2.10924e-05	0.0002632702	0.03610722	-0.02953318	-1.589744e-05	1.418763e-05	0.0165185	-0.0002755389
	0.01637394	-0.0001390133	-1.589744e-05	1.418763e-05	0.03619605	-0.0300702	-2.707589e-07	3.579226e-05
	-0.0001357125	0.0006669813	0.0165185	-0.000275539	-2.707589e-07	3.579226e-05	0.03620646	-0.02952351
1.1e+08	0.02982233	-0.03359841	9.963212e-05	0.0002424186	0.01552763	-0.002504633	-0.0001182167	0.0006414326
	9.963212e-05	0.0002424186	0.02978327	-0.03223584	-8.997624e-06	1.485584e-05	0.01558331	-0.002564689
	0.01552763	-0.002504633	-8.997624e-06	1.485584e-05	0.02974871	-0.03286228	6.088673e-06	3.299315e-05
	-0.0001182167	0.0006414326	0.0155833	-0.002564689	6.088673e-06	3.299315e-05	0.0298587	-0.03223054
1.2e+08	0.02272055	-0.03441405	0.0001150793	0.0002228291	0.01393105	-0.004440446	-8.980905e-05	0.0006214385
	0.0001150793	0.0002228291	0.02296551	-0.03315616	-3.72049e-06	1.46455e-05	0.01395999	-0.004425637
	0.01393105	-0.004440447	-3.72049e-06	1.46455e-05	0.02279708	-0.03382245	1.105262e-05	2.820345e-05
	-8.980905e-05	0.0006214385	0.01395999	-0.004425636	1.105262e-05	2.820345e-05	0.02302181	-0.03314865
1.3e+08	0.01576057	-0.03335393	0.0001310243	0.0002019949	0.01177419	-0.005734511	-6.396225e-05	0.0006086662
	0.0001310243	0.0002019949	0.01621481	-0.03225313	5.293802e-07	1.358425e-05	0.01180947	-0.005660335
	0.01177419	-0.005734511	5.293802e-07	1.358425e-05	0.01591702	-0.03290701	1.371239e-05	2.249939e-05
	-6.396225e-05	0.0006086662	0.01180947	-0.005660334	1.371239e-05	2.249939e-05	0.01625537	-0.03223799
1.4e+08	0.009460555	-0.03055215	0.0001453296	0.000180307	0.009297442	-0.006245926	-3.964224e-05	0.000605302
	0.0001453296	0.000180307	0.01005005	-0.0296428	3.966171e-06	1.189956e-05	0.009357091	-0.00613483
	0.009297442	-0.006245926	3.966171e-06	1.189956e-05	0.009645571	-0.03023522	1.392912e-05	1.707177e-05
	-3.964224e-05	0.000605302	0.00935709	-0.006134829	1.392912e-05	1.707177e-05	0.01007898	-0.02961589
1.5e+08	0.004275416	-0.0262846	0.0001573753	0.0001584509	0.006771344	-0.00591839	-1.294305e-05	0.0006121357
	0.0001573753	0.0001584509	0.004925	-0.02558252	6.671993e-06	9.759466e-06	0.006860166	-0.005794721
	0.006771343	-0.00591839	6.671993e-06	9.759466e-06	0.004453352	-0.026074	1.216455e-05	1.300522e-05
	-1.294305e-05	0.0006121357	0.006860165	-0.00579472	1.216455e-05	1.300522e-05	0.004947081	-0.02554121
1.6e+08	0.0005578339	-0.02094381	0.000167298	0.0001370074	0.004468364	-0.004785203	2.091814e-05	0.0006278741
	0.000167298	0.0001370074	0.001193438	-0.02044553	8.691119e-06	7.301032e-06	0.004579711	-0.004670817
	0.004468364	-0.004785203	8.691119e-06	7.301032e-06	0.000707239	-0.0208119	9.342931e-06	1.102667e-05
	2.091814e-05	0.0006278741	0.00457971	-0.004670817	9.342931e-06	1.102667e-05	0.00121373	-0.02038885
1.7e+08	-0.001470895	-0.01500353	0.000175619	0.0001162276	0.002634323	-0.002964789	6.626421e-05	0.0006490744
	0.000175619	0.0001162276	-0.0009182905	-0.01468632	1.005473e-05	4.641318e-06	0.002752624	-0.002875466
	0.002634323	-0.002964789	1.005473e-05	4.641318e-06	-0.001359034	-0.01492283	6.623757e-06	1.133689e-05
	6.626421e-05	0.0006490744	0.002752624	-0.002875466	6.623757e-06	1.133689e-05	-0.0008949287	-0.01461498
1.8e+08	-0.001738038	-0.008976338	0.0001829375	9.594884e-05	0.001462796	-0.0006472228	0.000125927	0.0006705695
	0.0001829375	9.594884e-05	-0.001327773	-0.008799508	1.07888e-05	1.883525e-06	0.001566864	-0.0005901549
	0.001462796	-0.0006472228	1.07888e-05	1.883525e-06	-0.001662651	-0.008922858	5.126315e-06	1.356484e-05
	0.000125927	0.0006705695	0.001566864	-0.0005901546	5.126315e-06	1.356484e-05	-0.001297172	-0.008715717
1.9e+08	-0.0003232109	-0.00336823	0.0001896707	7.56379e-05	0.001075349	0.001926675	0.0002005753	0.0006862652
	0.0001896707	7.56379e-05	-0.0001003057	-0.003275868	1.076716e-05	2.178919e-07	0.001142171	0.00195411
	0.001075349	0.001926675	1.076716e-05	2.178919e-07	-0.0002759629	-0.003323753	5.671041e-06	1.684488e-05
	0.0002005753	0.0006862652	0.001142171	0.00195411	5.671041e-06	1.684488e-05	-5.941137e-05	-0.003183035
2e+08	0.002551512	0.001365663	0.0001958583	5.457124e-05	0.001509669	0.004491275	0.0002884812	0.0006901239
	0.0001958583	5.457124e-05	0.002560351	0.001440467	1.05305e-05	-6.419064e-07	0.001518265	0.004501377
	0.001509668	0.004491275	1.05305e-05	-6.419064e-07	0.002583168	0.001412389	8.576977e-06	2.003595e-05
	0.0002884812	0.0006901239	0.001518265	0.004501377	8.576977e-06	2.003595e-05	0.002613179	0.001538179
2.1e+08	0.0065441	0.004860138	0.0002010981	3.204936e-05	0.002716668	0.006784255	0.0003857431	0.0006771387
	0.0002010981	3.204936e-05	0.006333292	0.004989803	1.028408e-05	-1.552409e-06	0.002651599	0.006797553
	0.002716668	0.006784255	1.028408e-05	-1.552409e-06	0.006573954	0.004913245	1.359601e-05	2.197415e-05
	0.0003857431	0.0006771387	0.002651599	0.006797553	1.359601e-05	2.197415e-05	0.006398136	0.005087992
2.2e+08	0.01122544	0.006870254	0.0002045931	7.611974e-06	0.004566663	0.008573865	0.0004868983	0.000644103
	0.0002045931	7.611974e-06	0.01081169	0.007126362	9.978233e-06	-2.512183e-06	0.00442077	0.008616576
	0.004566663	0.008573865	9.978233e-06	-2.512183e-06	0.01126591	0.006927521	1.99668e-05	2.172531e-05
	0.0004868983	0.000644103	0.00442077	0.008616576	1.99668e-05	2.172531e-05	0.01088711	0.007220911
2.3e+08	0.01611937	0.007290318	0.0002052978	-1.877594e-05	0.006863721	0.009682586	0.0005857907	0.0005900363
	0.0002052978	-1.877594e-05	0.01554094	0.007736948	9.571122e-06	-3.499454e-06	0.006639817	0.009783275
	0.006863721	0.009682586	9.571122e-06	-3.499454e-06	0.01617951	0.00734467	2.65776e-05	1.880166e-05
	0.0005857907	0.0005900363	0.006639817	0.009783275	2.65776e-05	1.880166e-05	0.01562414	0.007824511
2.4e+08	0.02074617	0.00616003	0.0002021393	-4.663447e-05	0.00936653	0.01000486	0.0006765212	0.0005161982
	0.0002021393	-4.663447e-05	0.02006003	0.006847384	9.036679e-06	-4.477263e-06	0.009077822	0.01019073
	0.00936653	0.01000486	9.036679e-06	-4.477263e-06	0.02083038	0.00620149	3.220875e-05	1.327079e-05
	0.0006765212	0.0005161982	0.009077822	0.01019073	3.220875e-05	1.327079e-05	0.02014724	0.006925783
2.5e+08	0.0246654	0.003657533	0.0001942564	-7.499329e-05	0.01181355	0.009517293	0.0007542804	0.0004257055
	0.0001942564	-7.499329e-05	0.02394256	0.004616537	8.368321e-06	-5.40264e-06	0.01148276	0.009810519
	0.01181355	0.009517293	8.368321e-06	-5.40264e-06	0.02477298	0.003675373	3.579594e-05	5.742242e-06
	0.0007542804	0.0004257055	0.01148276	0.009810519	3.579594e-05	5.742242e-06	0.02402946	0.004685014
2.6e+08	0.02751444	8.025916e-05	0.0001812055	-0.0001025212	0.01394987	0.008280528	0.000815924	0.0003228495
	0.0001812055	-0.0001025212	0.0268336	0.001318697	7.578747e-06	-6.235423e-06	0.01360717	0.008695067
	0.01394987	0.008280528	7.578747e-06	-6.235423e-06	0.02763992	6.503891e-05	3.665747e-05	-2.763212e-06
	0.000815924	0.0003228495	0.01360717	0.008695067	3.665747e-05	-2.763212e-06	0.02691585	0.001378018
2.7e+08	0.0290393	-0.004184462	0.0001630883	-0.0001277371	0.01555325	0.00643265	0.0008601801	0.0002122637
	0.0001630883	-0.0001277371	0.02847952	-0.002683773	6.695455e-06	-6.945975e-06	0.01523312	0.00697191
	0.01555325	0.00643265	6.695455e-06	-6.945975e-06	0.02917349	-0.004239187	3.463656e-05	-1.103165e-05
	0.0008601801	0.0002122637	0.01523312	0.00697191	3.463656e-05	-1.103165e-05	0.02855322	-0.002631394
2.8e+08	0.02911524	-0.008696278	0.0001405736	-0.0001492577	0.01645668	0.004174941	0.0008874818	9.81086e-05
	0.0001405736	-0.0001492577	0.02874806	-0.00697497	5.754191e-06	-7.519649e-06	0.01619419	0.004830588
	0.01645668	0.004174941	5.754191e-06	-7.519649e-06	0.02924672	-0.008792778	3.012971e-05	-1.791429e-05
	0.0008874818	9.81086e-05	0.01619419	0.004830588	3.012971e-05	-1.791429e-05	0.02881027	-0.006926091
2.9e+08	0.02775546	-0.01300283	0.0001148069	-0.0001660305	0.01656547	0.001751306	0.0008994629	-1.655177e-05
	0.0001148069	-0.0001660305	0.02763751	-0.01112403	4.791232e-06	-7.957972e-06	0.01639226	0.002503385
	0.01656547	0.001751306	4.791232e-06	-7.957972e-06	0.02787239	-0.01313868	2.399502e-05	-2.256954e-05
	0.0008994629	-1.655177e-05	0.01639226	0.002503385	2.399502e-05	-2.256954e-05	0.02768655	-0.01107437
3e+08	0.0251074	-0.01668127	8.722471e-05	-0.0001775036	0.01586711	-0.0005766379	0.0008982515	-0.0001300664
	8.722471e-05	-0.0001775036	0.02527392	-0.01472437	3.836397e-06	-8.276576e-06	0.01580752	0.0002417769
	0.01586711	-0.0005766379	3.836397e-06	-8.276576e-06	0.02519932	-0.01684953	1.736097e-05	-2.463704e-05
	0.0008982515	-0.0001300664	0.01580752	0.0002417769	1.736097e-05	-2.463704e-05	0.02530965	-0.01466926
3.1e+08	0.02143681	-0.01937662	5.931532e-05	-0.0001836966	0.01443283	-0.002556403	0.0008857172	-0.0002421611
	5.931532e-05	-0.0001836966	0.02189714	-0.01743012	2.907839e-06	-8.500684e-06	0.01450068	-0.001709169
	0.01443283	-0.002556403	2.907839e-06	-8.500684e-06	0.02149635	-0.01956663	1.137678e-05	-2.430616e-05
	0.0008857172	-0.0002421611	0.01450068	-0.001709169	1.137678e-05	-2.430616e-05	0.02192097	-0.01736504
3.2e+08	0.01710137	-0.02083355	3.237078e-05	-0.0001851569	0.01241065	-0.003970753	0.000862831	-0.0003535465
	3.237078e-05	-0.0001851569	0.01783665	-0.01898667	2.008866e-06	-8.658786e-06	0.01260704	-0.003135913
	0.01241065	-0.003970753	2.008866e-06	-8.658786e-06	0.01712539	-0.0210323	6.958685e-06	-2.226215e-05
	0.000862831	-0.0003535465	0.01260704	-0.003135913	6.958685e-06	-2.226215e-05	0.01785146	-0.01890774
3.3e+08	0.01251592	-0.02091877	7.287297e-06	-0.0001828097	0.01001045	-0.004660431	0.0008292917	-0.0004652839
	7.287297e-06	-0.0001828097	0.01347966	-0.0192525	1.127714e-06	-8.775408e-06	0.01032286	-0.003878548
	0.01001045	-0.004660431	1.127714e-06	-8.775408e-06	0.01250623	-0.02111261	4.588772e-06	-1.952169e-05
	0.0008292917	-0.0004652839	0.01032286	-0.003878548	4.588772e-06	-1.952169e-05	0.01348948	-0.01915697
3.4e+08	0.008112775	-0.01963187	-1.554449e-05	-0.0001777369	0.007482452	-0.004541081	0.0007834887	-0.0005780506
	-1.554449e-05	-0.0001777369	0.009234134	-0.01821043	2.405899e-07	-8.864157e-06	0.007885319	-0.00384755
	0.007482452	-0.004541081	2.405899e-07	-8.864157e-06	0.008076092	-0.01980831	4.211231e-06	-1.719427e-05
	0.0007834887	-0.0005780506	0.007885319	-0.00384755	4.211231e-06	-1.719427e-05	0.009243761	-0.01809699
3.5e+08	0.004300604	-0.01710363	-3.623557e-05	-0.0001709298	0.005091282	-0.003612456	0.0007228253	-0.0006914525
	-3.623557e-05	-0.0001709298	0.005490355	-0.01596723	-6.822045e-07	-8.922263e-06	0.005548104	-0.003033333
	0.005091282	-0.003612456	-6.822045e-07	-8.922263e-06	0.004247931	-0.01725311	5.253496e-06	-1.621872e-05
	0.0007228253	-0.0006914525	0.005548104	-0.003033333	5.253496e-06	-1.621872e-05	0.005504816	-0.01583622
3.6e+08	0.001425839	-0.01358193	-5.528174e-05	-0.0001630749	0.003088304	-0.001958835	0.0006443323	-0.0008035597
	-5.528174e-05	-0.0001630749	0.002584487	-0.0127416	-1.662383e-06	-8.920908e-06	0.003555036	-0.001507492
	0.003088304	-0.001958835	-1.662383e-06	-8.920908e-06	0.001371213	-0.01369922	6.008245e-06	-1.765823e-05
	0.0006443323	-0.0008035597	0.003555036	-0.001507492	6.008245e-06	-1.765823e-05	0.002608497	-0.01259499
3.7e+08	-0.0002596218	-0.00940655	-7.336143e-05	-0.0001544194	0.001685221	0.0002595145	0.0005454316	-0.0009107872
	-7.336143e-05	-0.0001544194	0.0007676799	-0.008841682	-2.716867e-06	-8.830631e-06	0.002114681	0.0005844921
	0.001685221	0.0002595145	-2.716867e-06	-8.830631e-06	-0.0003007825	-0.009491651	5.823725e-06	-2.084885e-05
	0.0005454316	-0.0009107872	0.002114681	0.0005844921	5.823725e-06	-2.084885e-05	0.0008051047	-0.008682929
3.8e+08	-0.0006213515	-0.004975412	-9.10956e-05	-0.0001447481	0.001031788	0.002822957	0.000424716	-0.001008104
	-9.10956e-05	-0.0001447481	0.0001836367	-0.004634459	-3.841989e-06	-8.606437e-06	0.001378603	0.003038336
	0.001031788	0.002822957	-3.841989e-06	-8.606437e-06	-0.0006341549	-0.005033805	3.904237e-06	-2.512204e-05
	0.000424716	-0.001008104	0.001378603	0.003038336	3.904237e-06	-2.512204e-05	0.0002370415	-0.004468144
3.9e+08	0.0003462605	-0.0007055419	-0.000108826	-0.0001334762	0.001200071	0.005475405	0.0002825538	-0.001089597
	-0.000108826	-0.0001334762	0.0008567469	-0.0005098394	-5.009743e-06	-8.2028e-06	0.001425636	0.005612219
	0.001200071	0.005475405	-5.009743e-06	-8.2028e-06	0.0003742809	-0.0007477971	-3.25041e-07	-2.952003e-05
	0.0002825538	-0.001089597	0.001425636	0.005612219	-3.25041e-07	-2.952003e-05	0.0009270817	-0.0003411972
4e+08	0.002521254	0.003007317	-0.0001264633	-0.0001198345	0.002176934	0.007951026	0.0001214021	-0.001149247
	-0.0001264633	-0.0001198345	0.002691821	0.003156804	-6.170735e-06	-7.586818e-06	0.002253828	0.008051908
	0.002176934	0.007951026	-6.170735e-06	-7.586818e-06	0.002598475	0.002966577	-6.927093e-06	-3.288093e-05
	0.0001214021	-0.001149247	0.002253828	0.008051908	-6.927093e-06	-3.288093e-05	0.002778276	0.003322451
4.1e+08	0.00566766	0.005826453	-0.0001434408	-0.0001031063	0.003865477	0.01000186	-5.424876e-05	-0.001181779
	-0.0001434408	-0.0001031063	0.005485261	0.006040084	-7.261954e-06	-6.747485e-06	0.003780845	0.01011704
	0.003865477	0.01000186	-7.261954e-06	-6.747485e-06	0.005797132	0.005770125	-1.540985e-05	-3.409841e-05
	-5.424876e-05	-0.001181779	0.003780845	0.01011704	-1.540985e-05	-3.409841e-05	0.005585313	0.006197901
4.2e+08	0.009459836	0.00750566	-0.0001587832	-8.285772e-05	0.006095172	0.01142342	-0.0002382799	-0.001183403
	-0.0001587832	-8.285772e-05	0.008946355	0.007894589	-8.218239e-06	-5.700028e-06	0.005852682	0.01160576
	0.006095172	0.01142342	-8.218239e-06	-5.700028e-06	0.009638637	0.007416075	-2.480684e-05	-3.237236e-05
	-0.0002382799	-0.001183403	0.005852682	0.01160576	-2.480684e-05	-3.237236e-05	0.009056001	0.008040772
4.3e+08	0.01351501	0.007911511	-0.0001712757	-5.911251e-05	0.008639504	0.01207563	-0.0004236155	-0.001152325
	-0.0001712757	-5.911251e-05	0.01272642	0.008576692	-8.984397e-06	-4.484072e-06	0.008259639	0.01237526
	0.008639504	0.01207563	-8.984397e-06	-4.484072e-06	0.01373428	0.00777248	-3.386354e-05	-2.739509e-05
	-0.0004236155	-0.001152325	0.008259639	0.01237526	-3.386354e-05	-2.739509e-05	0.01284058	0.008708907
4.4e+08	0.01743074	0.007034463	-0.0001796955	-3.242983e-05	0.0112392	0.01189708	-0.0006030346	-0.001088921
	-0.0001796955	-3.242983e-05	0.01645283	0.008056295	-9.524767e-06	-3.156307e-06	0.01075782	0.0123561
	0.0112392	0.01189708	-9.524767e-06	-3.156307e-06	0.01767638	0.00683323	-4.128788e-05	-1.943227e-05
	-0.0006030346	-0.001088921	0.01075782	0.0123561	-4.128788e-05	-1.943227e-05	0.01656586	0.008173962
4.5e+08	0.02082359	0.004988026	-0.0001830555	-3.869117e-06	0.01362865	0.01091125	-0.0007699586	-0.0009955712
	-0.0001830555	-3.869117e-06	0.01976458	0.006417661	-9.827943e-06	-1.779768e-06	0.0130939	0.01155909
	0.01362865	0.01091125	-9.827943e-06	-1.779768e-06	0.02107763	0.004716893	-4.600981e-05	-9.282091e-06
	-0.0007699586	-0.0009955712	0.0130939	0.01155909	-4.600981e-05	-9.282091e-06	0.0198709	0.006522064
4.6e+08	0.02336541	0.001996288	-0.0001808085	2.5152e-05	0.01556277	0.009224133	-0.0009189812	-0.0008763311
	-0.0001808085	2.5152e-05	0.02234612	0.003849542	-9.905896e-06	-4.126301e-07	0.0150307	0.0100741
	0.01556277	0.009224133	-9.905896e-06	-4.126301e-07	0.02360781	0.001653739	-4.739576e-05	1.878514e-06
	-0.0009189812	-0.0008763311	0.0150307	0.0100741	-4.739576e-05	1.878514e-06	0.02244077	0.003943739
4.7e+08	0.02481386	-0.001628828	-0.0001727446	5.292043e-05	0.01684192	0.007013761	-0.001057212	-0.0007133743
	-0.0001727446	5.292043e-05	0.0239563	0.0006257634	-9.790312e-06	8.992282e-07	0.01637106	0.008061027
	0.01684192	0.007013761	-9.790312e-06	8.992282e-07	0.02502467	-0.002037607	-4.51534e-05	1.256926e-05
	-0.001057212	-0.0007133743	0.01637106	0.008061027	-4.51534e-05	1.256926e-05	0.02403546	0.0007142528
