!$
! Info: Touchstone file created by Circ.  Input file=Tx_14in_Rx_100ohms_TxVia_60mils_RxVia_70mils.circ
!$
# Hz S RI R 50
0	0.01448932	1.752696e-25	-3.806061e-11	9.289041e-27	9.451671e-05	2.794093e-23	-3.160372e-09	3.91991e-25
	-3.806137e-11	9.289148e-27	0.01448483	2.164518e-25	3.313918e-11	2.595801e-27	9.423342e-05	3.53628e-23
	9.55996e-05	2.812758e-23	3.313503e-11	2.596303e-27	0.01450459	1.753146e-25	-1.80103e-11	8.360981e-27
	-3.160247e-09	3.919757e-25	9.450274e-05	3.551445e-23	-1.81033e-11	8.372322e-27	0.01449909	2.155186e-25
1e+07	0.02100863	0.00821098	5.10879e-11	1.499507e-10	0.0005188154	0.002539585	-3.301481e-09	8.165422e-09
	5.10879e-11	1.499507e-10	0.02163879	0.008229165	5.92341e-11	1.678388e-10	0.001004655	0.002571164
	0.000518847	0.00253959	5.92341e-11	1.678388e-10	0.02028275	0.008662189	-3.276307e-09	1.031124e-08
	-3.301481e-09	8.165423e-09	0.001004658	0.002571162	-3.276307e-09	1.031124e-08	0.02144364	0.008267554
2e+07	0.0279764	0.01072218	2.368612e-11	2.887209e-10	0.001587138	0.004898988	-1.526132e-10	-1.308861e-11
	2.368613e-11	2.887209e-10	0.02847066	0.01053398	4.477289e-11	3.081675e-10	0.001914505	0.005163651
	0.001587153	0.004898969	4.477289e-11	3.081675e-10	0.02792227	0.01163474	1.063842e-10	6.019055e-10
	-1.526132e-10	-1.308861e-11	0.001914502	0.005163651	1.063842e-10	6.019055e-10	0.02835151	0.01066868
3e+07	0.03383832	0.01003309	-4.134741e-11	4.470067e-10	0.003233639	0.006796734	-5.379684e-11	5.022744e-10
	-4.134741e-11	4.470067e-10	0.03419988	0.009788795	-9.82171e-12	4.599905e-10	0.003446099	0.007144442
	0.00323364	0.006796732	-9.82171e-12	4.599905e-10	0.03429248	0.01093407	-2.487568e-11	5.209609e-10
	-5.379684e-11	5.022744e-10	0.003446099	0.007144444	-2.487569e-11	5.209609e-10	0.03414577	0.00995363
4e+07	0.03871838	0.007502015	-1.264405e-10	6.343045e-10	0.005309006	0.008128265	-1.226265e-10	7.345025e-10
	-1.264405e-10	6.343045e-10	0.03894852	0.007259368	-9.240282e-11	6.345988e-10	0.005463622	0.008518441
	0.00530901	0.008128269	-9.240282e-11	6.345988e-10	0.03955265	0.008217603	-1.405788e-10	7.161213e-10
	-1.226265e-10	7.345025e-10	0.005463623	0.008518442	-1.405788e-10	7.161213e-10	0.03895135	0.007429604
5e+07	0.04247626	0.003625619	-2.201005e-10	8.651548e-10	0.007633544	0.00880746	-2.287428e-10	9.916622e-10
	-2.201005e-10	8.651548e-10	0.042582	0.003428187	-1.914791e-10	8.481529e-10	0.007909055	0.009082167
	0.007633547	0.008807462	-1.914791e-10	8.481529e-10	0.04356414	0.004058658	-2.528282e-10	9.82523e-10
	-2.287428e-10	9.916622e-10	0.007909056	0.009082168	-2.528282e-10	9.82523e-10	0.04263192	0.003587827
6e+07	0.04495625	-0.001200301	-3.030422e-10	1.145057e-09	0.01001219	0.008798707	-3.261166e-10	1.306812e-09
	-3.030422e-10	1.145057e-09	0.04495626	-0.001314387	-2.905206e-10	1.108112e-09	0.01034565	0.008945285
	0.01001219	0.008798705	-2.905206e-10	1.108112e-09	0.04617266	-0.001097609	-3.522312e-10	1.306307e-09
	-3.261166e-10	1.306812e-09	0.01034565	0.008945285	-3.522312e-10	1.306307e-09	0.04504213	-0.001176128
7e+07	0.04604523	-0.006595215	-3.548711e-10	1.470748e-09	0.01226148	0.008101857	-3.834375e-10	1.676324e-09
	-3.548711e-10	1.470748e-09	0.04596748	-0.006596465	-3.728643e-10	1.414008e-09	0.01258638	0.008145092
	0.01226146	0.008101856	-3.728643e-10	1.414008e-09	0.04727084	-0.006831545	-4.194291e-10	1.684027e-09
	-3.834375e-10	1.676324e-09	0.01258638	0.008145092	-4.194291e-10	1.684027e-09	0.04607727	-0.006486209
8e+07	0.04569876	-0.01217983	-3.560119e-10	1.831059e-09	0.01418165	0.006807243	-3.772497e-10	2.083024e-09
	-3.560119e-10	1.831059e-09	0.04557749	-0.01204921	-4.202081e-10	1.76014e-09	0.01445984	0.00676672
	0.01418164	0.006807246	-4.202081e-10	1.76014e-09	0.04682457	-0.01273148	-4.326557e-10	2.106077e-09
	-3.772497e-10	2.083024e-09	0.01445984	0.00676672	-4.326557e-10	2.106077e-09	0.04569881	-0.01196968
9e+07	0.04395234	-0.01758419	-2.897682e-10	2.20757e-09	0.01562033	0.00503708	-2.914084e-10	2.501774e-09
	-2.897682e-10	2.20757e-09	0.04382567	-0.01731401	-4.15573e-10	2.135022e-09	0.01582301	0.004937916
	0.01562032	0.005037084	-4.15573e-10	2.135022e-09	0.04488171	-0.01840134	-3.6984e-10	2.554975e-09
	-2.914084e-10	2.501774e-09	0.01582301	0.004937916	-3.6984e-10	2.554975e-09	0.04394643	-0.0172643
1e+08	0.04093849	-0.02246224	-1.419858e-10	2.576074e-09	0.01647174	0.002949372	-1.142767e-10	2.903077e-09
	-1.419858e-10	2.576074e-09	0.04084737	-0.02205628	-3.458636e-10	2.526646e-09	0.01656505	0.002819119
	0.01647174	0.002949372	-3.458636e-10	2.526646e-09	0.04156444	-0.02347653	-2.086075e-10	3.006325e-09
	-1.142767e-10	2.903077e-09	0.01656505	0.002819119	-2.086075e-10	3.006325e-09	0.04095477	-0.02203242
1.1e+08	0.03680279	-0.02659586	7.577111e-11	2.878359e-09	0.01666047	0.0007008984	1.318955e-10	3.236301e-09
	7.577111e-11	2.878359e-09	0.0367827	-0.02608223	-1.835323e-10	2.885573e-09	0.01665252	0.0006368869
	0.01666047	0.0007008981	-1.835323e-10	2.885573e-09	0.03711211	-0.02758684	4.905166e-11	3.370478e-09
	1.318955e-10	3.236301e-09	0.01665252	0.0006368871	4.905166e-11	3.370478e-09	0.03687112	-0.02606806
1.2e+08	0.03174987	-0.02963593	3.202725e-10	3.117564e-09	0.01616348	-0.001484974	3.923547e-10	3.504242e-09
	3.202725e-10	3.117564e-09	0.03182023	-0.0290408	1.718686e-11	3.174893e-09	0.01611299	-0.00146949
	0.01616348	-0.001484975	1.718686e-11	3.174893e-09	0.03183511	-0.03054614	3.35e-10	3.654963e-09
	3.923547e-10	3.504242e-09	0.01611299	-0.001469489	3.35e-10	3.654963e-09	0.03189225	-0.02903054
1.3e+08	0.02612054	-0.03139555	5.609761e-10	3.301966e-09	0.0150382	-0.003418299	6.610549e-10	3.711026e-09
	5.609761e-10	3.301966e-09	0.02629536	-0.03075073	2.306241e-10	3.401102e-09	0.01498159	-0.003327068
	0.0150382	-0.003418299	2.306241e-10	3.401102e-09	0.02603826	-0.0321925	6.126033e-10	3.87303e-09
	6.610549e-10	3.711026e-09	0.01498158	-0.003327067	6.126033e-10	3.87303e-09	0.02635202	-0.03073954
1.4e+08	0.02026729	-0.03178082	8.095176e-10	3.422271e-09	0.01338669	-0.004933335	9.384499e-10	3.846364e-09
	8.095176e-10	3.422271e-09	0.02055083	-0.03112215	4.57113e-10	3.573755e-09	0.01335052	-0.004779861
	0.01338669	-0.004933336	4.57113e-10	3.573755e-09	0.02006676	-0.0324461	9.000446e-10	4.018027e-09
	9.384499e-10	3.846364e-09	0.01335052	-0.00477986	9.000446e-10	4.018027e-09	0.02059375	-0.03110568
1.5e+08	0.01454818	-0.03079057	1.046246e-09	3.475609e-09	0.01135214	-0.005900307	1.202642e-09	3.906986e-09
	1.046246e-09	3.475609e-09	0.01493342	-0.0301547	6.802013e-10	3.688447e-09	0.01135366	-0.00570436
	0.01135214	-0.005900307	6.802013e-10	3.688447e-09	0.01427397	-0.03131694	1.17486e-09	4.086207e-09
	1.202642e-09	3.906986e-09	0.01135366	-0.005704359	1.17486e-09	4.086207e-09	0.01496504	-0.0301293
1.6e+08	0.009305356	-0.02851435	1.250931e-09	3.465064e-09	0.009107643	-0.006235515	1.430971e-09	3.89629e-09
	1.250931e-09	3.465064e-09	0.009773801	-0.02793524	8.824635e-10	3.745999e-09	0.009154589	-0.006019972
	0.009107643	-0.006235516	8.824635e-10	3.745999e-09	0.008997451	-0.02890389	1.413795e-09	4.080684e-09
	1.430971e-09	3.89629e-09	0.009154589	-0.006019972	1.413795e-09	4.080684e-09	0.009797274	-0.02789811
1.7e+08	0.004843412	-0.02512505	1.404372e-09	3.399765e-09	0.006842109	-0.005907839	1.601865e-09	3.82451e-09
	1.404372e-09	3.399765e-09	0.005366031	-0.02463041	1.046909e-09	3.75249e-09	0.006932987	-0.005695655
	0.006842108	-0.005907839	1.046909e-09	3.75249e-09	0.004536557	-0.0253876	1.594634e-09	4.011564e-09
	1.601865e-09	3.82451e-09	0.006932986	-0.005695655	1.594634e-09	4.011564e-09	0.005385006	-0.0245798
1.8e+08	0.001409812	-0.0208662	1.490107e-09	3.294535e-09	0.004744758	-0.004940934	1.696826e-09	3.70836e-09
	1.490107e-09	3.294535e-09	0.001949121	-0.02047427	1.158434e-09	3.719016e-09	0.004869744	-0.00475235
	0.004744757	-0.004940934	1.158434e-09	3.719016e-09	0.001132877	-0.02101776	1.698187e-09	3.89559e-09
	1.696826e-09	3.70836e-09	0.004869744	-0.00475235	1.698187e-09	3.89559e-09	0.00196747	-0.02040959
1.9e+08	-0.0008208653	-0.01603458	1.49602e-09	3.169049e-09	0.002989649	-0.003410911	1.702334e-09	3.570094e-09
	1.49602e-09	3.169049e-09	-0.0003077569	-0.01575169	1.205228e-09	3.661102e-09	0.003132161	-0.003261082
	0.002989649	-0.003410911	1.205228e-09	3.661102e-09	-0.001045438	-0.01609573	1.710212e-09	3.755228e-09
	1.702334e-09	3.570094e-09	0.003132161	-0.003261082	1.710212e-09	3.755228e-09	-0.000286273	-0.01567348
2e+08	-0.001757707	-0.01095932	1.415801e-09	3.046575e-09	0.001721527	-0.001439709	1.611469e-09	3.435982e-09
	1.415801e-09	3.046575e-09	-0.00131537	-0.01077837	1.180013e-09	3.597729e-09	0.001860349	-0.001336917
	0.001721527	-0.001439709	1.180013e-09	3.597729e-09	-0.001914232	-0.01095363	1.623086e-09	3.617197e-09
	1.611469e-09	3.435982e-09	0.001860349	-0.001336917	1.623086e-09	3.617197e-09	-0.001287402	-0.01068828
2.1e+08	-0.001398429	-0.005978949	1.249955e-09	2.952274e-09	0.001044205	0.0008152654	1.425112e-09	3.33436e-09
	1.249955e-09	2.952274e-09	-0.001068985	-0.00587914	1.081048e-09	3.550037e-09	0.001155997	0.0008706653
	0.001044205	0.0008152654	1.081048e-09	3.550037e-09	-0.001478039	-0.005931399	1.437061e-09	3.510496e-09
	1.425112e-09	3.33436e-09	0.001155997	0.0008706653	1.437061e-09	3.510496e-09	-0.001031888	-0.005779685
2.2e+08	0.0001718417	-0.001418043	1.006318e-09	2.911162e-09	0.001012422	0.003174301	1.152504e-09	3.293251e-09
	1.006318e-09	2.911162e-09	0.0003528551	-0.001365772	9.127903e-10	3.53971e-09	0.001074396	0.00319013
	0.001012422	0.003174301	9.127903e-10	3.53971e-09	0.0001714156	-0.001353484	1.16093e-09	3.464052e-09
	1.152504e-09	3.293251e-09	0.001074396	0.00319013	1.16093e-09	3.464052e-09	0.000400802	-0.001260122
2.3e+08	0.002787856	0.002434937	7.000342e-10	2.945956e-09	0.001627812	0.005450217	8.111083e-10	3.337856e-09
	7.000342e-10	2.945956e-09	0.002795256	0.002483889	6.86074e-10	3.587143e-09	0.001620334	0.005441906
	0.001627812	0.005450217	6.86074e-10	3.587143e-09	0.002862781	0.002493195	8.119725e-10	3.504161e-09
	8.111083e-10	3.337856e-09	0.001620334	0.005441906	8.119725e-10	3.504161e-09	0.002854715	0.002592214
2.4e+08	0.006217038	0.005346962	3.52859e-10	3.074902e-09	0.002839231	0.007463614	4.256869e-10	3.488122e-09
	3.52859e-10	3.074902e-09	0.006039036	0.005444171	4.177371e-10	3.70952e-09	0.002748119	0.007452883
	0.002839231	0.007463614	4.177371e-10	3.70952e-09	0.006358127	0.005378385	4.151264e-10	3.651952e-09
	4.256869e-10	3.488122e-09	0.002748119	0.007452883	4.151264e-10	3.651952e-09	0.006109558	0.005551633
2.5e+08	0.0101768	0.007155589	-8.213861e-12	3.309831e-09	0.004547337	0.009057298	2.664642e-11	3.756609e-09
	-8.213861e-12	3.309831e-09	0.009817017	0.007355888	1.296465e-10	3.919005e-09	0.004365647	0.0090702
	0.004547337	0.009057298	1.296465e-10	3.919005e-09	0.01037049	0.007143456	1.367575e-12	3.921138e-09
	2.664642e-11	3.756609e-09	0.004365647	0.0090702	1.367575e-12	3.921138e-09	0.009897092	0.007459254
2.6e+08	0.01435509	0.007778933	-3.529057e-10	3.654639e-09	0.006612947	0.01010874	-3.522419e-10	4.14692e-09
	-3.529057e-10	3.654639e-09	0.0138333	0.008135797	-1.528508e-10	4.221229e-09	0.0063421	0.01017325
	0.006612947	0.01010874	-1.528508e-10	4.221229e-09	0.01458456	0.007711114	-3.945777e-10	4.316279e-09
	-3.522419e-10	4.14692e-09	0.0063421	0.01017325	-3.945777e-10	4.316279e-09	0.0139205	0.00823244
2.7e+08	0.01843262	0.007219858	-6.500574e-10	4.104392e-09	0.008868454	0.01053963	-6.7655e-10	4.652853e-09
	-6.500574e-10	4.104392e-09	0.01778415	0.007780658	-4.029519e-10	4.614288e-09	0.008518589	0.01068302
	0.008868454	0.01053963	-4.029519e-10	4.614288e-09	0.01867911	0.007089306	-7.370193e-10	4.831802e-09
	-6.7655e-10	4.652853e-09	0.008518589	0.01068302	-7.370193e-10	4.831802e-09	0.01787534	0.007868796
2.8e+08	0.0221053	0.005564182	-8.702678e-10	4.645193e-09	0.01113135	0.01032188	-9.140866e-10	5.25839e-09
	-8.702678e-10	4.645193e-09	0.02137899	0.006365707	-5.947151e-10	5.088395e-09	0.01072087	0.01056803
	0.01113135	0.01032188	-5.947151e-10	5.088395e-09	0.02234936	0.005369128	-9.923311e-10	5.451887e-09
	-9.140866e-10	5.25839e-09	0.01072087	0.01056803	-9.923311e-10	5.451887e-09	0.02147062	0.006444584
2.9e+08	0.02510513	0.002973141	-9.885166e-10	5.254855e-09	0.01321879	0.009479603	-1.037708e-09	5.938564e-09
	-9.885166e-10	5.254855e-09	0.02436008	0.004037797	-7.054377e-10	5.626285e-09	0.01277314	0.009846587
	0.01321879	0.009479603	-7.054377e-10	5.626285e-09	0.02532797	0.002716979	-1.131929e-09	6.151286e-09
	-1.037708e-09	5.938564e-09	0.01277314	0.009846587	-1.131929e-09	6.151286e-09	0.02444849	0.004107749
3e+08	0.0272183	-0.0003292649	-9.865088e-10	5.904358e-09	0.01496206	0.008087078	-1.027783e-09	6.661115e-09
	-9.865088e-10	5.904358e-09	0.02651957	0.001003765	-7.178379e-10	6.20436e-09	0.01451183	0.008585181
	0.01496206	0.008087078	-7.178379e-10	6.20436e-09	0.02740303	-0.0006383813	-1.134907e-09	6.897014e-09
	-1.027783e-09	6.661115e-09	0.01451183	0.008585181	-1.134907e-09	6.897014e-09	0.02660133	0.001066223
3.1e+08	0.02829932	-0.004073056	-8.545112e-10	6.559963e-09	0.01621994	0.006262802	-8.740961e-10	7.388807e-09
	-8.545112e-10	6.559963e-09	0.02771285	-0.002485063	-6.218045e-10	6.794471e-09	0.01579842	0.006893134
	0.01621994	0.006262802	-6.218045e-10	6.794471e-09	0.02843199	-0.004422903	-9.90081e-10	7.650765e-09
	-8.740961e-10	7.388807e-09	0.01579842	0.006893134	-9.90081e-10	7.650765e-09	0.02778506	-0.002427689
3.2e+08	0.02828008	-0.007962072	-5.924904e-10	7.185804e-09	0.0168899	0.004160136	-5.770122e-10	8.082213e-09
	-5.924904e-10	7.185804e-09	0.02786732	-0.006151178	-4.15523e-10	7.366168e-09	0.01653028	0.004914017
	0.0168899	0.004160136	-4.15523e-10	7.366168e-09	0.02835062	-0.008337275	-6.972469e-10	8.371828e-09
	-5.770122e-10	8.082213e-09	0.01653028	0.004914017	-6.972469e-10	8.371828e-09	0.02792789	-0.006095681
3.3e+08	0.02717351	-0.01169531	-2.104578e-10	7.746697e-09	0.01691627	0.001955235	-1.478273e-10	8.702723e-09
	-2.104578e-10	7.746697e-09	0.02698613	-0.009710676	-1.058728e-10	7.889189e-09	0.01664878	0.002814401
	0.01691627	0.001955235	-1.058728e-10	7.889189e-09	0.02717636	-0.01207844	-2.675473e-10	9.020259e-09
	-1.478273e-10	8.702723e-09	0.01664878	0.002814401	-2.675473e-10	9.020259e-09	0.02703398	-0.009653324
3.4e+08	0.02507154	-0.01498839	2.720052e-10	8.210952e-09	0.01629486	-0.000166862	3.917253e-10	9.215539e-09
	2.720052e-10	8.210952e-09	0.02514665	-0.01289323	2.919268e-10	8.335933e-09	0.01614399	0.0007707992
	0.01629486	-0.000166862	2.919268e-10	8.335933e-09	0.02500597	-0.0153612	2.770598e-10	9.560009e-09
	3.917253e-10	9.215539e-09	0.01614399	0.0007707992	2.770598e-10	9.560009e-09	0.02518183	-0.01283007
3.5e+08	0.02213745	-0.01759369	8.269897e-10	8.552918e-09	0.01507355	-0.002026918	1.010768e-09	9.592441e-09
	8.269897e-10	8.552918e-09	0.02249381	-0.0154609	7.553636e-10	8.683705e-09	0.01505568	-0.001044245
	0.01507355	-0.002026918	7.553636e-10	8.683705e-09	0.02200763	-0.01793838	9.051803e-10	9.961794e-09
	1.010768e-09	9.592441e-09	0.01505568	-0.001044245	9.051803e-10	9.961794e-09	0.02251753	-0.01538812
3.6e+08	0.01859333	-0.0193177	1.420146e-09	8.755108e-09	0.01334876	-0.003465858	1.671267e-09	9.814135e-09
	1.420146e-09	8.755108e-09	0.01922886	-0.0172245	1.256242e-09	8.916543e-09	0.01347031	-0.002475848
	0.01334876	-0.003465858	1.256242e-09	8.916543e-09	0.01840803	-0.01961816	1.578075e-09	1.020547e-08
	1.671267e-09	9.814135e-09	0.01347031	-0.002475848	1.578075e-09	1.020547e-08	0.01924343	-0.01713871
3.7e+08	0.01470334	-0.02003446	2.01306e-09	8.809672e-09	0.01125805	-0.004357658	2.330584e-09	9.871956e-09
	2.01306e-09	8.809672e-09	0.01559419	-0.01805634	1.762693e-09	9.026513e-09	0.01151445	-0.003399206
	0.01125805	-0.004357658	1.762693e-09	9.026513e-09	0.01447533	-0.02027741	2.252303e-09	1.028177e-08
	2.330584e-09	9.871956e-09	0.01151445	-0.003399206	2.252303e-09	1.028177e-08	0.01560284	-0.01795496
3.8e+08	0.01075403	-0.01969401	2.565926e-09	8.719288e-09	0.008969277	-0.004619714	2.944409e-09	9.768945e-09
	2.565926e-09	8.719288e-09	0.01185545	-0.01789864	2.241407e-09	9.014422e-09	0.009344877	-0.003729718
	0.008969277	-0.004619714	2.241407e-09	9.014422e-09	0.01049924	-0.01986998	2.88272e-09	1.019331e-08
	2.944409e-09	9.768945e-09	0.009344877	-0.003729718	2.88272e-09	1.019331e-08	0.01186207	-0.01778006
3.9e+08	0.007033163	-0.01832535	3.04036e-09	8.497272e-09	0.006667324	-0.004219803	3.469932e-09	9.5201e-09
	3.04036e-09	8.497272e-09	0.00828204	-0.01676672	2.659946e-09	8.889944e-09	0.00713612	-0.003429976
	0.006667324	-0.004219803	2.659946e-09	8.889944e-09	0.006769556	-0.01842936	3.425661e-09	9.954768e-09
	3.469932e-09	9.5201e-09	0.00713612	-0.003429976	3.425661e-09	9.954768e-09	0.008290893	-0.01663054
4e+08	0.003808465	-0.01603357	3.402168e-09	8.167007e-09	0.004539179	-0.003179015	3.869022e-09	9.151797e-09
	3.402168e-09	8.167007e-09	0.005127538	-0.01474704	2.988983e-09	8.671198e-09	0.005066559	-0.002513001
	0.004539179	-0.003179015	2.988983e-09	8.671198e-09	0.003554821	-0.01606555	3.84209e-09	9.592331e-09
	3.869022e-09	9.151797e-09	0.005066559	-0.002513001	3.84209e-09	9.592331e-09	0.005142881	-0.01459409
4.1e+08	0.001308037	-0.01299133	3.623921e-09	7.760684e-09	0.002758818	-0.001570352	4.111235e-09	8.700386e-09
	3.623921e-09	7.760684e-09	0.002611398	-0.01198995	3.204409e-09	8.383819e-09	0.003304064	-0.001041405
	0.002758818	-0.001570352	3.204409e-09	8.383819e-09	0.001082611	-0.01295621	4.100571e-09	9.142269e-09
	4.111235e-09	8.700386e-09	0.003304064	-0.001041405	4.100571e-09	9.142269e-09	0.002637131	-0.01182228
4.2e+08	-0.0002962564	-0.00942543	3.687192e-09	7.317414e-09	0.001473014	0.0004869401	4.176427e-09	8.210001e-09
	3.687192e-09	7.317414e-09	0.0009033155	-0.008697935	3.289188e-09	8.059553e-09	0.001992429	0.0008774858
	0.001473014	0.00048694	3.289188e-09	8.059553e-09	-0.0004770316	-0.009332817	4.17985e-09	8.648822e-09
	4.176427e-09	8.210001e-09	0.001992429	0.0008774858	4.17985e-09	8.648822e-09	0.0009426312	-0.008518665
4.3e+08	-0.0009010253	-0.005599391	3.584299e-09	6.880785e-09	0.0007893312	0.002836853	4.056762e-09	7.729672e-09
	3.584299e-09	6.880785e-09	0.0001113993	-0.005110017	3.234909e-09	7.734412e-09	0.001239725	0.003100174
	0.0007893312	0.002836853	3.234909e-09	7.734412e-09	-0.001023743	-0.005462987	4.070896e-09	8.161402e-09
	4.056762e-09	7.729672e-09	0.001239725	0.003100174	4.070896e-09	8.161402e-09	0.0001664976	-0.004923103
4.4e+08	-0.0004784004	-0.001793387	3.319431e-09	6.495953e-09	0.0007672908	0.005299131	3.757926e-09	7.309889e-09
	3.319431e-09	6.495953e-09	0.0002750411	-0.001483712	3.042911e-09	7.446419e-09	0.001109553	0.00545848
	0.0007672908	0.005299131	3.042911e-09	7.446419e-09	-0.0005336764	-0.001630061	3.778192e-09	7.731263e-09
	3.757926e-09	7.309889e-09	0.001109553	0.00545848	3.778192e-09	7.731263e-09	0.0003469116	-0.001293629
4.5e+08	0.0009226894	0.001716834	2.909003e-09	6.206419e-09	0.001413462	0.007683777	3.29938e-09	6.998855e-09
	2.909003e-09	6.206419e-09	0.001362956	0.001924215	2.724853e-09	7.232996e-09	0.001615908	0.007773032
	0.001413462	0.007683777	2.724853e-09	7.232996e-09	0.0009394779	0.001888219	3.320148e-09	7.407788e-09
	3.29938e-09	6.998855e-09	0.001615908	0.007773032	3.320148e-09	7.407788e-09	0.001451267	0.002112835
4.6e+08	0.003181002	0.004680516	2.381132e-09	6.050687e-09	0.002680859	0.009806324	2.713552e-09	6.838673e-09
	2.381132e-09	6.050687e-09	0.003276499	0.004876642	2.302497e-09	7.128059e-09	0.002722066	0.009867623
	0.002680859	0.009806324	2.302497e-09	7.128059e-09	0.003269333	0.004840421	2.728425e-09	7.234575e-09
	2.713552e-09	6.838673e-09	0.002722066	0.009867623	2.728425e-09	7.234575e-09	0.003379591	0.005059401
4.7e+08	0.00611285	0.006890312	1.774161e-09	6.059044e-09	0.004472655	0.01150262	2.043927e-09	6.861823e-09
	1.774161e-09	6.059044e-09	0.005857908	0.007173263	1.806471e-09	7.159169e-09	0.004343554	0.01158325
	0.004472655	0.01150262	1.806471e-09	7.159169e-09	0.006267047	0.007019902	2.045972e-09	7.245701e-09
	2.043927e-09	6.861823e-09	0.004343554	0.01158325	2.045972e-09	7.245701e-09	0.005972962	0.007346353
4.8e+08	0.009486496	0.008197235	1.134286e-09	6.250772e-09	0.006649879	0.01264192	1.342225e-09	7.08819e-09
	1.134286e-09	6.250772e-09	0.008902781	0.008664749	1.2758e-09	7.34555e-09	0.0063549	0.01279072
