!$
! Info: Touchstone file created by Circ.  Input file=Tx_16in_Rx_85ohms_TxVia_60mils_RxVia_70mils.circ
!$
# Hz S RI R 50
0	0.01285508	2.057324e-25	1.329817e-09	2.21837e-27	0.0001050927	2.539204e-23	1.198314e-09	9.566843e-28
	1.329825e-09	2.218374e-27	0.01285029	2.440225e-25	9.128089e-10	3.218521e-27	0.0001052989	3.135502e-23
	0.0001060722	2.583715e-23	9.127979e-10	3.218492e-27	0.01286883	1.968803e-25	-3.258972e-09	4.479167e-25
	1.198312e-09	9.565681e-28	0.0001055683	3.148947e-23	-3.258568e-09	4.478671e-25	0.0128646	2.429765e-25
1e+07	0.01753665	-0.01590139	3.025434e-09	2.998202e-09	0.0005941216	0.002875627	4.119421e-09	2.957517e-08
	3.025434e-09	2.998202e-09	0.01540239	-0.01595667	1.884552e-09	2.270071e-09	0.0007105348	0.00287703
	0.00059413	0.002875594	1.884552e-09	2.27007e-09	0.01542794	-0.01622841	-2.477407e-09	1.825817e-08
	4.119422e-09	2.957517e-08	0.0007105378	0.002877028	-2.477407e-09	1.825817e-08	0.01536661	-0.01593927
2e+07	0.01308322	-0.03602495	6.008253e-09	4.366822e-09	0.002002738	0.005399087	2.146134e-08	1.527849e-08
	6.008253e-09	4.366822e-09	0.0112416	-0.03533481	3.607251e-09	3.64975e-09	0.002150657	0.005296143
	0.002002711	0.005399087	3.607251e-09	3.64975e-09	0.01101451	-0.03575077	-1.25555e-09	7.586196e-09
	2.146134e-08	1.527849e-08	0.002150654	0.005296143	-1.25555e-09	7.586196e-09	0.01122203	-0.03528759
3e+07	0.0009667524	-0.05439556	9.479466e-09	3.386883e-09	0.004170962	0.007173344	3.333391e-08	9.427265e-09
	9.479466e-09	3.386883e-09	-0.0006333712	-0.05335614	5.384488e-09	3.867901e-09	0.004240883	0.007060421
	0.00417096	0.007173349	5.384488e-09	3.867901e-09	-0.001015279	-0.05377356	9.730321e-09	3.603945e-09
	3.333391e-08	9.427265e-09	0.004240883	0.007060423	9.730321e-09	3.603945e-09	-0.0006417828	-0.05329304
4e+07	-0.01675376	-0.06798993	1.26051e-08	7.242768e-10	0.006719884	0.008098512	4.364557e-08	-1.232182e-09
	1.26051e-08	7.242768e-10	-0.01812663	-0.06669153	7.172114e-09	3.141281e-09	0.006718908	0.008009074
	0.006719883	0.008098508	7.172114e-09	3.141281e-09	-0.01859615	-0.0670779	1.366539e-08	7.962918e-10
	4.364557e-08	-1.232182e-09	0.006718909	0.008009075	1.366539e-08	7.962919e-10	-0.01812719	-0.06661592
5e+07	-0.03785888	-0.07526724	1.46242e-08	-3.626393e-09	0.009342972	0.008121732	4.984251e-08	-1.715386e-08
	1.46242e-08	-3.626393e-09	-0.03900587	-0.0737548	8.378153e-09	1.530202e-09	0.009284166	0.008080741
	0.009342969	0.008121731	8.378153e-09	1.530202e-09	-0.03951603	-0.0741099	1.565463e-08	-3.81422e-09
	4.984251e-08	-1.715386e-08	0.009284167	0.008080741	1.565463e-08	-3.81422e-09	-0.03900098	-0.07366692
6e+07	-0.05997699	-0.07559168	1.476204e-08	-9.164458e-09	0.0117408	0.007294548	4.944348e-08	-3.671794e-08
	1.476204e-08	-9.164458e-09	-0.06088849	-0.07389715	8.618349e-09	-7.082231e-10	0.01164284	0.007319917
	0.0117408	0.007294551	8.618349e-09	-7.082231e-10	-0.06141154	-0.07423416	1.56419e-08	-9.546147e-09
	4.944348e-08	-3.671794e-08	0.01164284	0.007319917	1.56419e-08	-9.546147e-09	-0.06087895	-0.07379598
7e+07	-0.08079083	-0.06914249	1.250176e-08	-1.505014e-08	0.01365837	0.005760224	4.085936e-08	-5.709026e-08
	1.250176e-08	-1.505014e-08	-0.08144963	-0.06729829	7.637566e-09	-3.149985e-09	0.0135439	0.005862138
	0.01365838	0.005760228	7.637566e-09	-3.149985e-09	-0.0819737	-0.06763232	1.323992e-08	-1.561059e-08
	4.085936e-08	-5.709026e-08	0.0135439	0.005862138	1.323992e-08	-1.561059e-08	-0.08143478	-0.06718271
8e+07	-0.09825086	-0.05680865	7.713226e-09	-2.025382e-08	0.01490985	0.003728658	2.379168e-08	-7.48437e-08
	7.713226e-09	-2.025382e-08	-0.09863726	-0.05485473	5.366268e-09	-5.27989e-09	0.01480331	0.003908964
	0.01490986	0.00372866	5.366268e-09	-5.27989e-09	-0.09916079	-0.05519566	8.295196e-09	-2.104748e-08
	2.379168e-08	-7.48437e-08	0.01480331	0.003908964	8.295196e-09	-2.104748e-08	-0.09861534	-0.05472417
9e+07	-0.1107514	-0.04004131	7.028649e-10	-2.373717e-08	0.01539078	0.001447492	-6.434173e-10	-8.65598e-08
	7.028649e-10	-2.373717e-08	-0.1108497	-0.03802839	1.94441e-09	-6.574976e-09	0.01531604	0.001699684
	0.01539079	0.001447491	1.94441e-09	-6.574976e-09	-0.1113735	-0.03837713	1.023032e-09	-2.483936e-08
	-6.434173e-10	-8.65598e-08	0.01531604	0.001699684	1.023032e-09	-2.483936e-08	-0.1108182	-0.03788334
1e+08	-0.1172535	-0.02067465	-7.813858e-09	-2.463841e-08	0.01508082	-0.0008253493	-3.002109e-08	-8.938775e-08
	-7.813858e-09	-2.463841e-08	-0.117062	-0.01866452	-2.28959e-09	-6.583237e-09	0.01506084	-0.0005151117
	0.01508082	-0.0008253494	-2.28959e-09	-6.583237e-09	-0.1175692	-0.0190117	-7.97042e-09	-2.607019e-08
	-3.002109e-08	-8.938775e-08	0.01506084	-0.0005151117	-7.97042e-09	-2.607019e-08	-0.1170188	-0.01850685
1.1e+08	-0.1173462	-0.000726711	-1.686182e-08	-2.250078e-08	0.0140323	-0.002851227	-6.096687e-08	-8.198019e-08
	-1.686182e-08	-2.250078e-08	-0.1168698	0.001228227	-6.846202e-09	-5.035885e-09	0.01408007	-0.00251522
	0.0140323	-0.002851227	-6.846202e-09	-5.035885e-09	-0.1173719	0.0008260542	-1.749813e-08	-2.387308e-08
	-6.096687e-08	-8.198019e-08	0.01408007	-0.00251522	-1.749813e-08	-2.387308e-08	-0.1168122	0.001396537
1.2e+08	-0.1112576	0.01778123	-2.531482e-08	-1.705112e-08	0.01236509	-0.00440921	-8.981775e-08	-6.345045e-08
	-2.531482e-08	-1.705112e-08	-0.1105121	0.01960589	-1.114354e-08	-1.813923e-09	0.01247711	-0.004071536
	0.01236509	-0.00440921	-1.114354e-08	-1.813923e-09	-0.111054	0.01918025	-2.640769e-08	-1.818455e-08
	-8.981775e-08	-6.345045e-08	0.01247711	-0.004071536	-2.640769e-08	-1.818455e-08	-0.110438	0.01977984
1.3e+08	-0.09981908	0.03302396	-3.196678e-08	-8.534224e-09	0.01026123	-0.005333109	-1.125658e-07	-3.45353e-08
	-3.196678e-08	-8.534224e-09	-0.09885013	0.03464488	-1.457292e-08	2.989998e-09	0.01042896	-0.00501629
	0.01026123	-0.005333109	-1.457292e-08	2.989998e-09	-0.09943563	0.03423849	-3.342961e-08	-9.259714e-09
	-1.125658e-07	-3.45353e-08	0.01042896	-0.005016289	-3.342961e-08	-9.259714e-09	-0.09875998	0.03481855
1.4e+08	-0.08437132	0.0435324	-3.572526e-08	2.380922e-09	0.007942775	-0.005517811	-1.25494e-07	2.609671e-09
	-3.572526e-08	2.380922e-09	-0.08325059	0.04488842	-1.656756e-08	9.064339e-09	0.008150545	-0.005241009
	0.007942775	-0.005517811	-1.656756e-08	9.064339e-09	-0.08385815	0.04454116	-3.741049e-08	2.200396e-09
	-1.25494e-07	2.609671e-09	0.008150544	-0.005241008	-3.741049e-08	2.200396e-09	-0.0831472	0.04505596
1.5e+08	-0.06663605	0.0483283	-3.575901e-08	1.464889e-08	0.005655869	-0.004929753	-1.256691e-07	4.451487e-08
	-3.575901e-08	1.464889e-08	-0.06545677	0.04938	-1.667689e-08	1.589913e-08	0.005881787	-0.004706281
	0.005655869	-0.004929753	-1.667689e-08	1.589913e-08	-0.06604488	0.04911992	-3.746995e-08	1.509655e-08
	-1.256691e-07	4.451487e-08	0.005881786	-0.00470628	-3.746995e-08	1.509655e-08	-0.06534532	0.04953655
1.6e+08	-0.04855155	0.04701937	-3.16224e-08	2.695006e-08	0.00364967	-0.003614173	-1.114067e-07	8.667412e-08
	-3.16224e-08	2.695006e-08	-0.04742096	0.04775703	-1.463454e-08	2.282817e-08	0.003867632	-0.003449373
	0.00364967	-0.003614173	-1.463454e-08	2.282817e-08	-0.04793473	0.04759347	-3.313339e-08	2.80378e-08
	-1.114067e-07	8.667412e-08	0.003867632	-0.003449372	-3.313339e-08	2.80378e-08	-0.04730853	0.04789963
1.7e+08	-0.03208222	0.03984357	-2.334076e-08	3.783215e-08	0.002151104	-0.001696327	-8.264613e-08	1.239946e-07
	-2.334076e-08	3.783215e-08	-0.03111114	0.04029236	-1.041261e-08	2.90947e-08	0.002333604	-0.001586214
	0.002151104	-0.001696327	-1.041261e-08	2.90947e-08	-0.03149056	0.04021156	-2.44237e-08	3.949075e-08
	-8.264613e-08	1.239946e-07	0.002333604	-0.001586213	-2.44237e-08	3.949075e-08	-0.03100598	0.04042059
1.8e+08	-0.01901732	0.02765263	-1.144485e-08	4.587653e-08	0.001337613	0.0006262703	-4.116253e-08	1.513942e-07
	-1.144485e-08	4.587653e-08	-0.01830791	0.0278739	-4.253376e-09	3.393707e-08	0.00145901	0.0006953499
	0.001337613	0.0006262703	-4.253376e-09	3.393707e-08	-0.01849712	0.02783775	-1.189912e-08	4.795606e-08
	-4.116253e-08	1.513942e-07	0.00145901	0.0006953502	-1.189912e-08	4.795606e-08	-0.01821848	0.02799033
1.9e+08	-0.01077935	0.01182957	3.051957e-09	4.987167e-08	0.001311984	0.003102477	9.45054e-09	1.644843e-07
	3.051957e-09	4.987167e-08	-0.01041251	0.01191763	3.330288e-09	3.668703e-08	0.001351846	0.003153031
	0.001311984	0.003102477	3.330288e-09	3.668703e-08	-0.01036919	0.01186586	3.370406e-09	5.215325e-08
	9.45054e-09	1.644843e-07	0.001351846	0.003153031	3.370406e-09	5.215325e-08	-0.0103464	0.01202787
2e+08	-0.008266144	-0.005856409	1.873424e-08	4.897489e-08	0.002084627	0.005456463	6.406789e-08	1.602411e-07
	1.873424e-08	4.897489e-08	-0.008290265	-0.005782058	1.159186e-08	3.686858e-08	0.002030738	0.005517866
	0.002084627	0.005456463	1.159186e-08	3.686858e-08	-0.007993811	-0.005926372	1.988921e-08	5.119324e-08
	6.406789e-08	1.602411e-07	0.002030738	0.005517866	1.988921e-08	5.119324e-08	-0.008253078	-0.005669727
2.1e+08	-0.01174947	-0.02344405	3.391833e-08	4.284429e-08	0.00356824	0.007423293	1.165801e-07	1.375484e-07
	3.391833e-08	4.284429e-08	-0.0121723	-0.02325045	1.962622e-08	3.428148e-08	0.003418853	0.007528784
	0.00356824	0.007423293	1.962622e-08	3.428148e-08	-0.01162975	-0.02357247	3.587919e-08	4.471824e-08
	1.165801e-07	1.375484e-07	0.003418853	0.007528784	3.587919e-08	4.471824e-08	-0.01216675	-0.02312578
2.2e+08	-0.02084683	-0.0389997	4.682962e-08	3.172356e-08	0.005587521	0.00878496	1.606365e-07	9.75039e-08
	4.682962e-08	3.172356e-08	-0.02163184	-0.03855477	2.647578e-08	2.905375e-08	0.005352498	0.008967887
	0.005587521	0.00878496	2.647578e-08	2.905375e-08	-0.02088042	-0.03913756	4.946911e-08	3.29904e-08
	1.606365e-07	9.75039e-08	0.005352498	0.008967887	4.946911e-08	3.29904e-08	-0.02165708	-0.03840662
2.3e+08	-0.03457184	-0.05083311	5.580786e-08	1.646446e-08	0.007902946	0.009399757	1.904704e-07	4.341921e-08
	5.580786e-08	1.646446e-08	-0.0356398	-0.05002074	3.125351e-08	2.165072e-08	0.007603547	0.009689509
	0.007902946	0.009399757	3.125351e-08	2.165072e-08	-0.03474567	-0.05093443	5.891261e-08	1.691311e-08
	1.904704e-07	4.341921e-08	0.007603547	0.009689509	5.891261e-08	1.691311e-08	-0.03569115	-0.04983833
2.4e+08	-0.05145552	-0.05768005	5.951869e-08	-1.524045e-09	0.01024409	0.009219316	2.01673e-07	-1.949576e-08
	5.951869e-08	-1.524045e-09	-0.05269137	-0.056414	3.326347e-08	1.283629e-08	0.009911321	0.009637435
	0.01024409	0.009219316	3.326347e-08	1.283629e-08	-0.05174438	-0.0577057	6.281073e-08	-2.025686e-09
	2.01673e-07	-1.949576e-08	0.009911321	0.009637435	6.281073e-08	-2.025686e-09	-0.0527605	-0.05618826
2.5e+08	-0.06971978	-0.05882882	5.714339e-08	-2.040293e-08	0.0123458	0.008290754	1.917935e-07	-8.471266e-08
	5.714339e-08	-2.040293e-08	-0.07098393	-0.05706365	3.209985e-08	3.590643e-09	0.01201742	0.008847744
	0.0123458	0.008290754	3.209985e-08	3.590643e-09	-0.07008909	-0.05874965	6.030973e-08	-2.188969e-08
	1.917935e-07	-8.471266e-08	0.01201742	0.008847744	6.030973e-08	-2.188969e-08	-0.07105952	-0.05678845
2.6e+08	-0.08747744	-0.05417819	4.851723e-08	-3.809682e-08	0.01398048	0.006745073	1.606843e-07	-1.451324e-07
	4.851723e-08	-3.809682e-08	-0.08862018	-0.05191579	2.770894e-08	-5.002824e-09	0.01369701	0.00743837
	0.01398048	0.006745073	2.770894e-08	-5.002824e-09	-0.08788668	-0.05397707	5.124348e-08	-4.049895e-08
	1.606843e-07	-1.451324e-07	0.01369701	0.00743837	5.124348e-08	-4.049895e-08	-0.08868903	-0.05158891
2.7e+08	-0.1029324	-0.04422586	3.419183e-08	-5.253187e-08	0.01498176	0.004775824	1.105626e-07	-1.938885e-07
	3.419183e-08	-5.253187e-08	-0.1038098	-0.04151693	2.040628e-08	-1.188465e-08	0.0147819	0.005589237
	0.01498176	0.004775824	2.040628e-08	-1.188465e-08	-0.1033389	-0.04389855	3.619624e-08	-5.567892e-08
	1.105626e-07	-1.938885e-07	0.0147819	0.005589237	3.619624e-08	-5.567892e-08	-0.1038582	-0.04114064
2.8e+08	-0.1145575	-0.02999608	1.540836e-08	-6.18857e-08	0.0152576	0.002613178	4.580568e-08	-2.251031e-07
	1.540836e-08	-6.18857e-08	-0.1150472	-0.02693641	1.08487e-08	-1.614257e-08	0.01517362	0.003517935
	0.0152576	0.002613178	1.08487e-08	-1.614257e-08	-0.1149204	-0.02955102	1.647271e-08	-6.55206e-08
	4.580568e-08	-2.251031e-07	0.01517362	0.003517935	1.647271e-08	-6.55206e-08	-0.1150624	-0.0265175
2.9e+08	-0.1212356	-0.01292068	-6.016907e-09	-6.481469e-08	0.0147936	0.0004979967	-2.747073e-08	-2.345219e-07
	-6.016907e-09	-6.481469e-08	-0.12125	-0.009642618	-3.229354e-11	-1.711606e-08	0.01484732	0.001455315
	0.0147936	0.0004979967	-3.229354e-11	-1.711606e-08	-0.1215187	-0.01237781	-6.021825e-09	-6.861669e-08
	-2.747073e-08	-2.345219e-07	0.01484732	0.001455315	-6.021825e-09	-6.861669e-08	-0.1212219	-0.009191964
3e+08	-0.1223532	0.005310263	-2.787931e-08	-6.062899e-08	0.01364885	-0.001341186	-1.019913e-07	-2.199823e-07
	-2.787931e-08	-6.062899e-08	-0.1218506	0.008650313	-1.112538e-08	-1.447195e-08	0.01384862	-0.0003762604
	0.01364885	-0.001341186	-1.112538e-08	-1.447195e-08	-0.1225286	0.00592159	-2.897591e-08	-6.424337e-08
	-1.019913e-07	-2.199823e-07	0.01384862	-0.0003762604	-2.897591e-08	-6.424337e-08	-0.1217728	0.009118707
3.1e+08	-0.1178468	0.02291321	-4.782084e-08	-4.939435e-08	0.01194688	-0.002707202	-1.700015e-07	-1.816934e-07
	-4.782084e-08	-4.939435e-08	-0.1168373	0.02615009	-2.125077e-08	-8.245975e-09	0.01228597	-0.001781113
	0.01194688	-0.002707202	-2.125077e-08	-8.245975e-09	-0.1178967	0.02355686	-4.991627e-08	-5.246707e-08
	-1.700015e-07	-1.816934e-07	0.01228597	-0.001781113	-4.991627e-08	-5.246707e-08	-0.1167082	0.02662045
3.2e+08	-0.1082005	0.03817824	-6.358582e-08	-3.195131e-08	0.009863599	-0.003449595	-2.240023e-07	-1.223205e-07
	-6.358582e-08	-3.195131e-08	-0.1067475	0.04115489	-2.927729e-08	1.150603e-09	0.01032015	-0.002605242
	0.009863599	-0.003449595	-2.927729e-08	1.150603e-09	-0.1081189	0.0388145	-6.647407e-08	-3.416586e-08
	-2.240023e-07	-1.223205e-07	0.01032015	-0.002605242	-6.647407e-08	-3.416586e-08	-0.1065707	0.04161124
3.3e+08	-0.09439822	0.04962756	-7.326972e-08	-9.851002e-09	0.007612792	-0.003476948	-2.57499e-07	-4.686374e-08
	-7.326972e-08	-9.851002e-09	-0.09261389	0.05221175	-3.423632e-08	1.295795e-08	0.008151524	-0.002748841
	0.007612792	-0.003476948	-3.423632e-08	1.295795e-08	-0.09419117	0.05021661	-7.664529e-08	-1.09645e-08
	-2.57499e-07	-4.686374e-08	0.008151524	-0.002748841	-7.664529e-08	-1.09645e-08	-0.09239827	0.05263975
3.4e+08	-0.07783278	0.05615512	-7.556504e-08	1.479853e-08	0.005429051	-0.002766394	-2.656829e-07	3.767727e-08
	-7.556504e-08	1.479853e-08	-0.07586952	0.05825467	-3.542191e-08	2.612475e-08	0.006004364	-0.00217651
	0.005429051	-0.002766394	-3.542191e-08	2.612475e-08	-0.07751849	0.05666064	-7.904788e-08	1.492384e-08
	-2.656829e-07	3.767727e-08	0.006004364	-0.00217651	-7.904788e-08	1.492384e-08	-0.07562841	0.05864329
3.5e+08	-0.06017805	0.05713665	-6.983426e-08	3.950602e-08	0.003547444	-0.001369451	-2.461676e-07	1.228356e-07
	-6.983426e-08	3.950602e-08	-0.05821426	0.05871159	-3.248555e-08	3.939728e-08	0.004107832	-0.000924243
	0.003547444	-0.001369451	-3.248555e-08	3.939728e-08	-0.05978521	0.05752943	-7.300726e-08	4.08781e-08
	-2.461676e-07	1.228356e-07	0.004107832	-0.000924243	-7.300726e-08	4.08781e-08	-0.05796426	0.0590544
3.6e+08	-0.04322978	0.05249971	-5.629109e-08	6.165933e-08	0.002180138	0.0005877065	-1.993696e-07	1.99511e-07
	-5.629109e-08	6.165933e-08	-0.04145217	0.05356958	-2.548812e-08	5.143263e-08	0.0026734	0.0008987986
	0.002180138	0.0005877065	-2.548812e-08	5.143263e-08	-0.04279508	0.05276064	-5.874451e-08	6.414656e-08
	-1.993696e-07	1.99511e-07	0.0026734	0.0008987986	-5.874451e-08	6.414656e-08	-0.04121161	0.05386575
3.7e+08	-0.02872724	0.04274279	-3.599352e-08	7.879739e-08	0.001491493	0.002911883	-1.287264e-07	2.589011e-07
	-3.599352e-08	7.879739e-08	-0.02731098	0.04338798	-1.492816e-08	6.093109e-08	0.001870299	0.003116194
	0.001491493	0.002911883	-1.492816e-08	6.093109e-08	-0.02829195	0.0428651	-3.737276e-08	8.213415e-08
	-1.287264e-07	2.589011e-07	0.001870299	0.003116194	-3.737276e-08	8.213415e-08	-0.02709799	0.04364274
3.8e+08	-0.01817187	0.02889637	-1.07659e-08	8.887415e-08	0.001574974	0.005360055	-4.057305e-08	2.935395e-07
	-1.07659e-08	8.887415e-08	-0.01726061	0.0292527	-1.725713e-09	6.678133e-08	0.00180221	0.005499661
	0.001574974	0.005360055	-1.725713e-09	6.678133e-08	-0.01777763	0.02888665	-1.081639e-08	9.26836e-08
	-4.057305e-08	2.935395e-07	0.00180221	0.005499661	-1.081639e-08	9.26836e-08	-0.01709117	0.02947708
3.9e+08	-0.01266321	0.01242405	1.695575e-08	9.049348e-08	0.002436423	0.007665934	5.637167e-08	2.982924e-07
	1.695575e-08	9.049348e-08	-0.01235145	0.01267067	1.284488e-08	6.82024e-08	0.002489753	0.007793927
	0.002436423	0.007665934	1.284488e-08	6.82024e-08	-0.01234776	0.01230185	1.835328e-08	9.432592e-08
	5.637167e-08	2.982924e-07	0.002489753	0.007793927	1.835328e-08	9.432592e-08	-0.01223749	0.0128807
4e+08	-0.01277413	-0.004929132	4.434887e-08	8.308999e-08	0.00398825	0.00957308	1.518882e-07	2.711485e-07
	4.434887e-08	8.308999e-08	-0.01309415	-0.004587615	2.727435e-08	6.486268e-08	0.00386335	0.009748418
	0.00398825	0.00957308	2.727435e-08	6.486268e-08	-0.01256714	-0.005133168	4.715852e-08	8.647258e-08
	1.518882e-07	2.711485e-07	0.00386335	0.009748418	4.715852e-08	8.647258e-08	-0.01304204	-0.004372414
4.1e+08	-0.01848387	-0.0213253	6.848334e-08	6.70354e-08	0.006057402	0.01086928	2.354162e-07	2.136524e-07
	6.848334e-08	6.70354e-08	-0.01939936	-0.02068059	3.998165e-08	5.695366e-08	0.005769412	0.01115069
	0.006057402	0.01086928	3.998165e-08	5.695366e-08	-0.01840372	-0.02157264	7.251312e-08	6.952644e-08
	2.354162e-07	2.136524e-07	0.005769412	0.01115069	7.251312e-08	6.952644e-08	-0.0194089	-0.02043912
4.2e+08	-0.02918025	-0.03503552	8.66318e-08	4.365312e-08	0.008406961	0.01141572	2.973283e-07	1.30879e-07
	8.66318e-08	4.365312e-08	-0.03058769	-0.03389877	4.950181e-08	4.520062e-08	0.007989856	0.01185523
	0.008406961	0.01141572	4.950181e-08	4.520062e-08	-0.0292321	-0.03528393	9.155201e-08	4.489338e-08
	2.973283e-07	1.30879e-07	0.007989856	0.01185523	9.155201e-08	4.489338e-08	-0.03065175	-0.03361061
4.3e+08	-0.04373165	-0.04462814	9.658202e-08	1.512896e-08	0.01076781	0.01116509	3.301234e-07	3.093265e-08
	9.658202e-08	1.512896e-08	-0.04546953	-0.04285157	5.467122e-08	3.080156e-08	0.01027161	0.01180201
	0.01076781	0.01116509	5.467122e-08	3.080156e-08	-0.043907	-0.04483616	1.0196e-07	1.488315e-08
	3.301234e-07	3.093265e-08	0.01027161	0.01180201	1.0196e-07	1.488315e-08	-0.04557453	-0.04249918
4.4e+08	-0.06061792	-0.04911879	9.691427e-08	-1.568457e-08	0.01287434	0.0101655	3.293526e-07	-7.595501e-08
	9.691427e-08	-1.568457e-08	-0.06248289	-0.04661306	5.478085e-08	1.529948e-08	0.01236036	0.01102147
	0.01287434	0.0101655	5.478085e-08	1.529948e-08	-0.06089577	-0.04925013	1.022608e-07	-1.750092e-08
	3.293526e-07	-7.595501e-08	0.01236036	0.01102147	1.022608e-07	-1.750092e-08	-0.06260994	-0.0461839
4.5e+08	-0.07810113	-0.04806469	8.720432e-08	-4.555763e-08	0.0144976	0.00855031	2.941535e-07	-1.785855e-07
	8.720432e-08	-4.555763e-08	-0.07986903	-0.04481002	4.967265e-08	4.058771e-10	0.01403217	0.009626157
	0.0144976	0.00855031	4.967265e-08	4.058771e-10	-0.07845046	-0.04809182	9.202471e-08	-4.886829e-08
	2.941535e-07	-1.785855e-07	0.01403217	0.009626157	9.202471e-08	-4.886829e-08	-0.07999577	-0.04429806
4.6e+08	-0.0944124	-0.0415954	6.811673e-08	-7.123587e-08	0.01547041	0.006517232	2.273411e-07	-2.660362e-07
	6.811673e-08	-7.123587e-08	-0.09586184	-0.03764507	3.976532e-08	-1.219786e-08	0.01511781	0.007792104
	0.01547041	0.006517232	3.976532e-08	-1.219786e-08	-0.09479558	-0.04150205	7.1962e-08	-7.581063e-08
	2.273411e-07	-2.660362e-07	0.01511781	0.007792104	7.1962e-08	-7.581063e-08	-0.09596465	-0.03705172
4.7e+08	-0.1079321	-0.03038178	4.136864e-08	-8.981151e-08	0.0157019	0.004301703	1.350858e-07	-3.288229e-07
	4.136864e-08	-8.981151e-08	-0.1088677	-0.02585791	2.600835e-08	-2.10521e-08	0.01551725	0.005734583
	0.0157019	0.004301703	2.600835e-08	-2.10521e-08	-0.1083088	-0.03016426	4.388081e-08	-9.528774e-08
	1.350858e-07	-3.288229e-07	0.01551725	0.005734583	4.388081e-08	-9.528774e-08	-0.1089243	-0.02519217
4.8e+08	-0.1173447	-0.01555293	9.564887e-09	-9.906233e-08	0.01518136	0.002149484	2.625747e-08	-3.598595e-07
