!$
! Info: Touchstone file created by Circ.  Input file=Tx_14in_Rx_85ohms_TxVia_60mils_RxVia_70mils.circ
!$
# Hz S RI R 50
0	0.01128605	1.842558e-25	-7.533709e-05	7.409082e-24	9.46874e-05	2.227778e-23	-7.537257e-05	1.19382e-23
	-7.533708e-05	7.408125e-24	0.01128128	2.180153e-25	-7.529916e-05	2.94396e-24	9.489331e-05	2.750721e-23
	9.566748e-05	2.266829e-23	-7.529914e-05	2.942297e-24	0.01129988	1.763444e-25	-7.53301e-05	6.919659e-24
	-7.537255e-05	1.193645e-23	9.516281e-05	2.762516e-23	-7.533011e-05	6.920526e-24	0.01129564	2.170748e-25
1e+07	0.01572619	-0.01360613	-0.0003266847	-2.157754e-05	0.0004757689	0.002568139	-0.0002094911	0.0001545429
	-0.0003266847	-2.157754e-05	0.01384916	-0.01369128	-1.086361e-05	-2.066125e-05	0.0005781004	0.002570988
	0.0004757775	0.002568106	-1.086361e-05	-2.066124e-05	0.0138782	-0.01392937	-7.006486e-05	-1.867345e-05
	-0.0002094911	0.0001545429	0.0005781032	0.002570986	-7.006486e-05	-1.867345e-05	0.01381936	-0.0136759
2e+07	0.01289664	-0.03121343	-0.0002889486	4.799531e-05	0.00158861	0.004893446	-0.0001852452	0.0001581888
	-0.0002889486	4.799531e-05	0.01124776	-0.0306652	-9.020201e-06	-4.789254e-06	0.001722203	0.004806826
	0.001588583	0.004893446	-9.020198e-06	-4.789254e-06	0.01106342	-0.03103887	-6.087045e-05	1.401818e-05
	-0.0001852452	0.0001581888	0.0017222	0.004806826	-6.087045e-05	1.401818e-05	0.01123132	-0.03062302
3e+07	0.003893536	-0.04805949	-0.0002736935	4.82859e-05	0.003348807	0.006672978	-0.0001400337	0.0001778893
	-0.0002736935	4.82859e-05	0.002423678	-0.04721609	-7.84898e-06	-1.168822e-07	0.003415426	0.00657541
	0.003348804	0.006672982	-7.84898e-06	-1.168828e-07	0.002108578	-0.04760309	-6.035073e-05	1.164828e-05
	-0.0001400337	0.0001778893	0.003415425	0.006575412	-6.035073e-05	1.164828e-05	0.00241617	-0.04715904
4e+07	-0.009915348	-0.06177968	-0.0002606711	6.005369e-05	0.005488936	0.007828917	-8.716233e-05	0.0001775698
	-0.0002606711	6.005369e-05	-0.01122392	-0.06071103	-6.583414e-06	2.630919e-06	0.005492166	0.007748157
	0.005488935	0.007828913	-6.583414e-06	2.630919e-06	-0.01161281	-0.06108315	-6.022714e-05	1.396567e-05
	-8.716233e-05	0.0001775698	0.005492167	0.007748158	-6.022714e-05	1.396567e-05	-0.01122547	-0.06064198
5e+07	-0.02711767	-0.0710881	-0.0002475732	7.673864e-05	0.007805745	0.008293534	-3.920738e-05	0.0001530424
	-0.0002475732	7.673864e-05	-0.02827076	-0.06982334	-5.194125e-06	4.516209e-06	0.007753465	0.008251272
	0.007805743	0.008293532	-5.194125e-06	4.51621e-06	-0.02869234	-0.07017994	-5.95568e-05	1.878867e-05
	-3.920738e-05	0.0001530424	0.007753466	0.008251272	-5.955681e-05	1.878867e-05	-0.02826872	-0.06974246
6e+07	-0.04616549	-0.07525539	-0.000232844	9.575647e-05	0.01008731	0.008062008	-7.887269e-06	0.0001076439
	-0.000232844	9.575647e-05	-0.04715808	-0.07381041	-3.684734e-06	5.854174e-06	0.009992024	0.008075553
	0.01008731	0.008062012	-3.684734e-06	5.854173e-06	-0.04758644	-0.07416348	-5.76415e-05	2.504108e-05
	-7.88727e-06	0.0001076439	0.009992025	0.008075553	-5.76415e-05	2.504108e-05	-0.04715359	-0.0737166
7e+07	-0.06546308	-0.07405293	-0.0002154742	0.0001154134	0.01213558	0.007191295	-2.157099e-06	4.973078e-05
	-0.0002154742	0.0001154134	-0.06628128	-0.07244154	-2.835292e-06	6.19197e-06	0.01201381	0.007273103
	0.01213559	0.007191299	-2.835293e-06	6.19197e-06	-0.06670381	-0.07280693	-5.408347e-05	3.184045e-05
	-2.157099e-06	4.973078e-05	0.01201381	0.007273103	-5.408347e-05	3.184045e-05	-0.06627428	-0.07233337
8e+07	-0.08348054	-0.06771406	-0.0001948814	0.0001342905	0.01378393	0.005790367	-2.687191e-05	-9.278878e-06
	-0.0001948814	0.0001342905	-0.08410449	-0.06595423	-2.339806e-06	6.201711e-06	0.01365504	0.005947333
	0.01378395	0.005790369	-2.339807e-06	6.201711e-06	-0.08451865	-0.06634567	-4.878751e-05	3.837973e-05
	-2.687191e-05	-9.278878e-06	0.01365505	0.005947333	-4.878751e-05	3.837973e-05	-0.08409392	-0.06583035
9e+07	-0.09886154	-0.0568774	-0.0001707093	0.0001511529	0.01490896	0.004006292	-8.256334e-05	-5.701366e-05
	-0.0001707093	0.0001511529	-0.09926939	-0.05499508	-1.841695e-06	6.205942e-06	0.01479394	0.004239294
	0.01490897	0.004006291	-1.841696e-06	6.205943e-06	-0.09967748	-0.05541998	-4.190978e-05	4.398417e-05
	-8.256334e-05	-5.701366e-05	0.01479394	0.004239294	-4.190978e-05	4.398417e-05	-0.09925333	-0.05485468
1e+08	-0.110513	-0.04251045	-0.000141375	0.0001651852	0.01543771	0.002009075	-0.0001699685	-8.281379e-05
	-0.000141375	0.0001651852	-0.1106883	-0.04054228	-1.397463e-06	6.163101e-06	0.0153594	0.002313494
	0.01543771	0.002009075	-1.397463e-06	6.163101e-06	-0.11108	-0.04099655	-3.360472e-05	4.82245e-05
	-0.0001699685	-8.281379e-05	0.0153594	0.002313494	-3.360472e-05	4.82245e-05	-0.1106646	-0.04038548
1.1e+08	-0.117667	-0.0258134	-0.0001115589	0.0001813928	0.0153442	-3.0123e-05	-0.0002671639	-9.690944e-05
	-0.0001115589	0.0001813928	-0.1175941	-0.02378836	-9.037779e-07	5.957836e-06	0.01532158	0.0003232999
	0.0153442	-3.012317e-05	-9.037779e-07	5.957836e-06	-0.1179777	-0.02433472	-2.50018e-05	5.149585e-05
	-0.0002671639	-9.690944e-05	0.01532158	0.0003233001	-2.50018e-05	5.149585e-05	-0.1175595	-0.02361507
1.2e+08	-0.1199197	-0.008133742	-8.279077e-05	0.0001923298	0.0146476	-0.001931513	-0.0003596038	-7.310706e-05
	-8.279077e-05	0.0001923298	-0.1195806	-0.006105878	-4.092102e-07	5.747504e-06	0.01468592	-0.001547208
	0.0146476	-0.001931513	-4.092102e-07	5.747504e-06	-0.1200148	-0.006729932	-1.665276e-05	5.28512e-05
	-0.0003596038	-7.310706e-05	0.01468592	-0.001547207	-1.665276e-05	5.28512e-05	-0.1195313	-0.005918821
1.3e+08	-0.1172515	0.009147632	-5.406817e-05	0.000198632	0.01341776	-0.003536709	-0.0004408452	-1.45637e-05
	-5.406817e-05	0.000198632	-0.1166482	0.011115	3.726629e-08	5.518086e-06	0.01351967	-0.00314072
	0.01341776	-0.003536709	3.726628e-08	5.518086e-06	-0.1171606	0.01044801	-8.828234e-06	5.258339e-05
	-0.0004408452	-1.45637e-05	0.01351967	-0.003140719	-8.828234e-06	5.258339e-05	-0.1165818	0.01131159
1.4e+08	-0.1100114	0.02471146	-2.584897e-05	0.0002006068	0.01176056	-0.004712704	-0.0005008344	7.288225e-05
	-2.584897e-05	0.0002006068	-0.1091652	0.02655249	4.236092e-07	5.28464e-06	0.01192337	-0.004324928
	0.01176056	-0.004712704	4.236092e-07	5.28464e-06	-0.1097636	0.02588525	-1.86946e-06	5.103884e-05
	-0.0005008344	7.288225e-05	0.01192337	-0.004324927	-1.86946e-06	5.103884e-05	-0.1090808	0.02675341
1.5e+08	-0.09888507	0.03739112	1.31643e-06	0.0001986367	0.009812342	-0.005358993	-0.0005316176	0.0001801661
	1.31643e-06	0.0001986367	-0.09783745	0.03904365	7.528632e-07	5.068261e-06	0.01002738	-0.004998362
	0.009812342	-0.005358993	7.528631e-07	5.068261e-06	-0.09851071	0.03841984	4.012101e-06	4.864601e-05
	-0.0005316176	0.0001801661	0.01002738	-0.004998361	4.012101e-06	4.864601e-05	-0.09773597	0.03924329
1.6e+08	-0.08484319	0.0462535	2.695445e-05	0.0001931975	0.007731924	-0.005414149	-0.0005288592	0.0002960839
	2.695445e-05	0.0001931975	-0.08365485	0.04766556	1.041016e-06	4.887645e-06	0.007984791	-0.005096778
	0.007731923	-0.005414149	1.041016e-06	4.887645e-06	-0.08437438	0.04712361	8.773809e-06	4.586523e-05
	-0.0005288592	0.0002960839	0.007984791	-0.005096777	8.773809e-06	4.586523e-05	-0.08353917	0.0478585
1.7e+08	-0.06907059	0.05066582	5.073599e-05	0.0001848199	0.005690989	-0.004861345	-0.0004925005	0.0004088429
	5.073599e-05	0.0001848199	-0.06781857	0.05180183	1.313197e-06	4.752968e-06	0.005962409	-0.004598755
	0.005690989	-0.004861345	1.313197e-06	4.752968e-06	-0.06854108	0.0513693	1.255068e-05	4.312399e-05
	-0.0004925005	0.0004088429	0.005962409	-0.004598755	1.255068e-05	4.312399e-05	-0.0676934	0.05198353
1.8e+08	-0.05287983	0.05034387	7.249845e-05	0.0001740298	0.003862401	-0.003732058	-0.0004266881	0.0005077437
	7.249845e-05	0.0001740298	-0.05165265	0.05118997	1.598235e-06	4.66234e-06	0.004129648	-0.003529704
	0.003862401	-0.003732058	1.598235e-06	4.66234e-06	-0.05232431	0.05087896	1.563656e-05	4.074733e-05
	-0.0004266881	0.0005077437	0.004129649	-0.003529703	1.563656e-05	4.074733e-05	-0.05152425	0.05135733
1.9e+08	-0.03761266	0.04537703	9.223066e-05	0.0001612804	0.002406597	-0.002106855	-0.0003390143	0.0005847154
	9.223066e-05	0.0001612804	-0.03650369	0.04594489	1.922563e-06	4.601323e-06	0.002645386	-0.001963094
	0.002406597	-0.002106855	1.922563e-06	4.601323e-06	-0.03706564	0.04574884	1.843466e-05	3.889466e-05
	-0.0003390143	0.0005847154	0.002645386	-0.001963094	1.843466e-05	3.889466e-05	-0.03637939	0.04609681
2e+08	-0.02453533	0.03622604	0.0001100226	0.0001468979	0.00145689	-0.0001119728	-0.0002391811	0.0006354325
	0.0001100226	0.0001468979	-0.02363493	0.03655458	2.304944e-06	4.545249e-06	0.001643568	-1.764389e-05
	0.00145689	-0.0001119728	2.304944e-06	4.545249e-06	-0.0240296	0.03644682	2.137861e-05	3.751901e-05
	-0.0002391811	0.0006354325	0.001643568	-1.764384e-05	2.137861e-05	3.751901e-05	-0.0235225	0.03669224
2.1e+08	-0.01473558	0.02369078	0.0001259894	0.0001310552	0.001105283	0.002089168	-0.0001372951	0.0006598
	0.0001259894	0.0001310552	-0.01412272	0.02384528	2.753085e-06	4.463404e-06	0.001219132	0.002150499
	0.001105283	0.002089168	2.753085e-06	4.463404e-06	-0.01430049	0.0237797	2.483534e-05	3.636458e-05
	-0.0001372951	0.0006598	0.001219132	0.002150499	2.483534e-05	3.636458e-05	-0.01402963	0.02397232
2.2e+08	-0.009030819	0.008848098	0.0001401884	0.0001137883	0.001390967	0.004309647	-4.209581e-05	0.0006616793
	0.0001401884	0.0001137883	-0.008764986	0.008916683	3.262487e-06	4.323819e-06	0.001416417	0.004360722
	0.001390967	0.004309647	3.262487e-06	4.323819e-06	-0.008690462	0.00883049	2.901038e-05	3.501224e-05
	-4.209581e-05	0.0006616793	0.001416417	0.004360722	2.901038e-05	3.501224e-05	-0.008697616	0.00903907
2.3e+08	-0.007897145	-0.007036687	0.0001525526	9.505513e-05	0.002293773	0.006356873	4.054629e-05	0.000647883
	0.0001525526	9.505513e-05	-0.008011453	-0.0069492	3.817157e-06	4.097644e-06	0.002222297	0.006425113
	0.002293773	0.006356873	3.817157e-06	4.097644e-06	-0.007668839	-0.007130718	3.388163e-05	3.296949e-05
	4.054629e-05	0.000647883	0.002222297	0.006425113	3.388163e-05	3.296949e-05	-0.007974392	-0.006823482
2.4e+08	-0.01142782	-0.02261727	0.0001628641	7.482158e-05	0.003734285	0.008052447	0.0001085624	0.0006266143
	0.0001628641	7.482158e-05	-0.01192422	-0.02239758	4.391561e-06	3.762683e-06	0.003565772	0.00816774
	0.003734285	0.008052447	4.391561e-06	3.762683e-06	-0.01132095	-0.02275466	3.918364e-05	2.97862e-05
	0.0001085624	0.0006266143	0.003565772	0.00816774	3.918364e-05	2.97862e-05	-0.01191963	-0.02225912
2.5e+08	-0.01932658	-0.03658233	0.0001707763	5.315235e-05	0.005581235	0.009251176	0.0001638352	0.0006056587
	0.0001707763	5.315235e-05	-0.02017375	-0.03611826	4.953217e-06	3.306032e-06	0.005324658	0.00944327
	0.005581235	0.009251176	4.953217e-06	3.306032e-06	-0.01934201	-0.0367292	4.445088e-05	2.516673e-05
	0.0001638352	0.0006056587	0.005324658	0.00944327	4.445088e-05	2.516673e-05	-0.02020094	-0.03595697
2.6e+08	-0.03093698	-0.04776783	0.0001758811	3.027638e-05	0.007665356	0.009856295	0.0002115528	0.0005907029
	0.0001758811	3.027638e-05	-0.0320713	-0.04695833	5.465934e-06	2.726055e-06	0.007338626	0.01015201
	0.007665356	0.009856295	5.465934e-06	2.726055e-06	-0.03106714	-0.04789176	4.911121e-05	1.904747e-05
	0.0002115528	0.0005907029	0.007338626	0.01015201	4.911121e-05	1.904747e-05	-0.03212652	-0.04676434
2.7e+08	-0.04530437	-0.05525392	0.0001778	6.608781e-06	0.009797629	0.009828598	0.000258896	0.0005841243
	0.0001778	6.608781e-06	-0.04663396	-0.05401847	5.89373e-06	2.033482e-06	0.009426581	0.01024913
	0.009797629	0.009828598	5.89373e-06	2.033482e-06	-0.04553398	-0.05532607	5.260403e-05	1.161924e-05
	0.000258896	0.0005841243	0.009426581	0.01024913	5.260403e-05	1.161924e-05	-0.04671053	-0.05378305
2.8e+08	-0.06126303	-0.05843688	0.0001762728	-1.727638e-05	0.01178907	0.009188417	0.0003133651	0.0005844795
	0.0001762728	-1.727638e-05	-0.06267452	-0.05672339	6.205449e-06	1.251092e-06	0.01140562	0.009747017
	0.01178907	0.009188417	6.205449e-06	1.251092e-06	-0.06157036	-0.05843383	5.449191e-05	3.290825e-06
	0.0003133651	0.0005844795	0.01140562	0.009747017	5.449191e-05	3.290825e-06	-0.06276318	-0.05643984
2.9e+08	-0.07753828	-0.05707045	0.0001712188	-4.071071e-05	0.01346913	0.008010745	0.0003810713	0.0005867699
	0.0001712188	-4.071071e-05	-0.0789057	-0.05486079	6.379319e-06	4.114204e-07	0.01310877	0.008710978
	0.01346913	0.008010745	6.379319e-06	4.114204e-07	-0.07789685	-0.05697558	5.453767e-05	-5.392206e-06
	0.0003810713	0.0005867699	0.01310877	0.008710978	5.453767e-05	-5.392206e-06	-0.07899526	-0.05452522
3e+08	-0.09285287	-0.05127472	0.0001627588	-6.301299e-05	0.01470045	0.006414999	0.0004653401	0.0005833947
	0.0001627588	-6.301299e-05	-0.09404789	-0.04858749	6.406424e-06	-4.476207e-07	0.01439925	0.007249865
	0.01470045	0.006414999	6.406424e-06	-4.476207e-07	-0.09323341	-0.05107904	5.273326e-05	-1.384873e-05
	0.0004653401	0.0005833947	0.01439925	0.007249865	5.273326e-05	-1.384873e-05	-0.09412611	-0.04819932
3.1e+08	-0.1060277	-0.04151481	0.0001511986	-8.356616e-05	0.01538866	0.00455155	0.0005658688	0.0005655532
	0.0001511986	-8.356616e-05	-0.1069303	-0.03840503	6.291946e-06	-1.288588e-06	0.01518007	0.005503514
	0.01538866	0.00455155	6.291946e-06	-1.288588e-06	-0.1064003	-0.04121733	4.928122e-05	-2.155775e-05
	0.0005658688	0.0005655532	0.01518007	0.005503514	4.928122e-05	-2.155775e-05	-0.1069849	-0.03796728
3.2e+08	-0.1160694	-0.02855403	0.0001369855	-0.0001018735	0.01548714	0.002587171	0.0006785306	0.0005248503
	0.0001369855	-0.0001018735	-0.1165779	-0.0251098	6.053477e-06	-2.080438e-06	0.01539892	0.003629169
	0.01548714	0.002587172	6.053477e-06	-2.080438e-06	-0.1164051	-0.0281615	4.454158e-05	-2.812918e-05
	0.0006785306	0.0005248503	0.01539892	0.003629169	4.454158e-05	-2.812918e-05	-0.1165975	-0.02462905
3.3e+08	-0.1222386	-0.0133878	0.0001206528	-0.00011759	0.01499727	0.0006911426	0.0007958317	0.000454853
	0.0001206528	-0.00011759	-0.1222787	-0.009724224	5.716705e-06	-2.803098e-06	0.01504879	0.001788474
	0.01499727	0.0006911426	5.716705e-06	-2.803098e-06	-0.1225119	-0.01291407	3.896231e-05	-3.334278e-05
	0.0007958317	0.000454853	0.01504879	0.001788474	3.896231e-05	-3.334278e-05	-0.1222542	-0.009210257
3.4e+08	-0.1240978	0.002835343	0.0001026683	-0.0001303844	0.01396543	-0.0009769776	0.0009058243	0.0003338514
	0.0001026683	-0.0001303844	-0.1236294	0.006584432	5.312081e-06	-3.449498e-06	0.01416562	0.0001359968
	0.01396543	-0.0009769776	5.312081e-06	-3.449498e-06	-0.1242879	0.003370357	3.29195e-05	-3.701105e-05
	0.0009058243	0.0003338514	0.01416562	0.0001359968	3.29195e-05	-3.701105e-05	-0.1235546	0.007119301
3.5e+08	-0.1215364	0.01889944	8.369391e-05	-0.0001402931	0.01247774	-0.002277571	0.0009940231	0.0001790059
	8.369391e-05	-0.0001402931	-0.1205584	0.02259153	4.861583e-06	-4.025778e-06	0.01282385	-0.001190476
	0.01247774	-0.002277571	4.861583e-06	-4.025778e-06	-0.1216284	0.01947118	2.69452e-05	-3.933461e-05
	0.0009940231	0.0001790059	0.01282385	-0.001190476	2.69452e-05	-3.933461e-05	-0.1204307	0.02313339
3.6e+08	-0.114774	0.0336086	6.425353e-05	-0.0001474224	0.01065339	-0.003099314	0.001050258	-1.420252e-06
	6.425353e-05	-0.0001474224	-0.1133256	0.03710355	4.379227e-06	-4.544647e-06	0.01113074	-0.002078031
	0.01065339	-0.003099314	4.379227e-06	-4.544647e-06	-0.1147601	0.0341895	2.139701e-05	-4.058606e-05
	0.001050258	-1.420252e-06	0.01113074	-0.002078031	2.139701e-05	-4.058606e-05	-0.1131464	0.03763795
3.7e+08	-0.1043424	0.04587167	4.476693e-05	-0.0001519648	0.008636908	-0.003365998	0.001066534	-0.000198442
	4.476693e-05	-0.0001519648	-0.102502	0.04904309	3.868671e-06	-5.02073e-06	0.009219617	-0.002445462
	0.008636908	-0.003365998	3.868671e-06	-5.02073e-06	-0.1042223	0.04643305	1.648355e-05	-4.111314e-05
	0.001066534	-0.000198442	0.009219617	-0.002445462	1.648355e-05	-4.111314e-05	-0.1022769	0.04955624
3.8e+08	-0.0910481	0.0547802	2.553994e-05	-0.00015418	0.006589294	-0.003042003	0.00103815	-0.0004005498
	2.553994e-05	-0.00015418	-0.08892873	0.05752623	3.323856e-06	-5.465166e-06	0.007241946	-0.002249044
	0.006589294	-0.003042003	3.323856e-06	-5.465166e-06	-0.09082938	0.0552942	1.225344e-05	-4.130274e-05
	0.00103815	-0.0004005498	0.007241946	-0.002249044	1.225344e-05	-4.130274e-05	-0.08866733	0.05800615
3.9e+08	-0.07591603	0.0596754	6.750499e-06	-0.0001543477	0.004677838	-0.002136263	0.0009644618	-0.0005950605
	6.750499e-06	-0.0001543477	-0.07365791	0.06192821	2.732386e-06	-5.881463e-06	0.005357997	-0.001487048
	0.004677838	-0.002136263	2.732386e-06	-5.881463e-06	-0.07561346	0.06011699	8.587629e-06	-4.151721e-05
	0.0009644618	-0.0005950605	0.005357997	-0.001487048	8.587629e-06	-4.151721e-05	-0.07337292	0.06236582
4e+08	-0.06011696	0.06020005	-1.154725e-05	-0.0001527139	0.003064389	-0.0007041539	0.0008490846	-0.000769674
	-1.154725e-05	-0.0001527139	-0.05787737	0.0619331	2.080277e-06	-6.263643e-06	0.003725776	-0.0002023964
	0.003064389	-0.0007041539	2.080277e-06	-6.263643e-06	-0.05975173	0.06054895	5.216101e-06	-4.202621e-05
	0.0008490846	-0.000769674	0.003725776	-0.0002023964	5.216101e-06	-4.202621e-05	-0.05758398	0.06232317
4.1e+08	-0.04488183	0.05633076	-2.939496e-05	-0.0001494384	0.001892352	0.001153611	0.0006994843	-0.0009140261
	-2.939496e-05	-0.0001494384	-0.04282303	0.05756319	1.356675e-06	-6.596901e-06	0.002488466	0.001517516
	0.001892352	0.001153611	1.356675e-06	-6.596901e-06	-0.04448016	0.05657306	1.763472e-06	-4.294441e-05
	0.0006994843	-0.0009140261	0.002488466	0.001517516	1.763472e-06	-4.294441e-05	-0.0425377	0.05790492
4.2e+08	-0.03140788	0.04838654	-4.687623e-05	-0.0001445544	0.001273233	0.003296058	0.0005259867	-0.001020983
	-4.687623e-05	-0.0001445544	-0.02968377	0.04918393	5.573753e-07	-6.860223e-06	0.001761156	0.003544859
	0.001273233	0.003296058	5.573753e-07	-6.860223e-06	-0.03099909	0.04851599	-2.176592e-06	-4.418914e-05
	0.0005259867	-0.001020983	0.001761156	0.003544859	-2.176592e-06	-4.418914e-05	-0.02942294	0.04948127
4.3e+08	-0.02076303	0.03701056	-6.404363e-05	-0.0001379578	0.001274226	0.005551626	0.0003403373	-0.001087459
	-6.404363e-05	-0.0001379578	-0.01950576	0.0374818	-3.134782e-07	-7.029908e-06	0.001618308	0.00571997
	0.001274226	0.005551626	-3.134782e-07	-7.029908e-06	-0.02037733	0.03702927	-6.94757e-06	-4.547409e-05
	0.0003403373	-0.001087459	0.001618308	0.00571997	-6.94757e-06	-4.547409e-05	-0.01928446	0.03774338
4.4e+08	-0.01379692	0.02312425	-8.084223e-05	-0.000129434	0.001908768	0.007732373	0.0001540308	-0.001114587
	-8.084223e-05	-0.000129434	-0.01310455	0.02341439	-1.243415e-06	-7.082939e-06	0.002083919	0.007864526
	0.001908768	0.007732373	-1.243415e-06	-7.082939e-06	-0.013463	0.02304271	-1.273586e-05	-4.634888e-05
	0.0001540308	-0.001114587	0.00208392	0.007864526	-1.273586e-05	-4.634888e-05	-0.01293511	0.02365303
4.5e+08	-0.01106735	0.007855594	-9.705188e-05	-0.0001187247	0.003132056	0.009651639	-2.329123e-05	-0.001107187
	-9.705188e-05	-0.0001187247	-0.01099387	0.008135129	-2.212701e-06	-6.999529e-06	0.003126341	0.009798292
	0.003132056	0.009651639	-2.212701e-06	-6.999529e-06	-0.01080999	0.007692009	-1.950079e-05	-4.628365e-05
	-2.329123e-05	-0.001107187	0.003126341	0.009798292	-1.950079e-05	-4.628365e-05	-0.0108847	0.008366996
4.6e+08	-0.01279044	-0.007552965	-0.0001122684	-0.0001056207	0.004842986	0.01114313	-0.000185078	-0.001072618
	-0.0001122684	-0.0001056207	-0.01333921	-0.007101667	-3.195719e-06	-6.764843e-06	0.004659258	0.0113575
	0.004842986	0.01114313	-3.195719e-06	-6.764843e-06	-0.01262841	-0.007774072	-2.695146e-05	-4.478265e-05
	-0.000185078	-0.001072618	0.004659258	0.0113575	-2.695146e-05	-4.478265e-05	-0.01329395	-0.006858264
4.7e+08	-0.01882072	-0.02184871	-0.0001259346	-9.00573e-05	0.006892966	0.01207875	-0.0003284924	-0.001019217
	-0.0001259346	-9.00573e-05	-0.01994227	-0.02104663	-4.16223e-06	-6.370383e-06	0.006549345	0.01241224
	0.006892966	0.01207875	-4.16223e-06	-6.370383e-06	-0.0187652	-0.0220985	-3.45816e-05	-4.149986e-05
	-0.0003284924	-0.001019217	0.006549345	0.01241224	-3.45816e-05	-4.149986e-05	-0.0199592	-0.02077266
4.8e+08	-0.02866404	-0.03387446	-0.0001374182	-7.218458e-05	0.009100744	0.01238237	-0.0004543081	-0.0009546454
