!$
! Info: Touchstone file created by Circ.  Input file=Tx_12in_Rx_93ohms_TxVia_60mils_RxVia_70mils.circ
!$
# Hz S RI R 50
0	0.01103863	1.618395e-25	1.338669e-09	1.798553e-27	8.381551e-05	2.178657e-23	1.206757e-09	7.752838e-28
	1.338677e-09	1.798556e-27	0.01103387	1.908788e-25	9.20126e-10	2.599827e-27	8.402139e-05	2.690015e-23
	8.479568e-05	2.216847e-23	9.201149e-10	2.599799e-27	0.01105248	1.549105e-25	-3.26677e-09	4.491251e-25
	1.206755e-09	7.751648e-28	8.42909e-05	2.701551e-23	-3.266364e-09	4.490753e-25	0.01104823	1.900488e-25
1e+07	0.0163148	-0.0007170328	2.823079e-09	3.268709e-09	0.0004313946	0.002080606	1.459004e-09	3.00531e-08
	2.823079e-09	3.268709e-09	0.0160415	-0.001417456	1.802466e-09	2.396991e-09	0.0004503097	0.002271495
	0.0004314036	0.002080573	1.802466e-09	2.396991e-09	0.01517487	-0.001267027	-4.101739e-09	1.804845e-08
	1.459004e-09	3.00531e-08	0.0004503125	0.002271493	-4.101739e-09	1.804845e-08	0.01572628	-0.001414257
2e+07	0.01930454	-0.006032522	5.298128e-09	5.324176e-09	0.001298629	0.004084802	1.861522e-08	1.905183e-08
	5.298128e-09	5.324176e-09	0.01827237	-0.006981624	3.312154e-09	4.10472e-09	0.001205753	0.004445317
	0.001298602	0.004084801	3.312154e-09	4.10472e-09	0.01779358	-0.006452534	-2.4875e-09	7.203706e-09
	1.861522e-08	1.905183e-08	0.00120575	0.004445317	-2.4875e-09	7.203706e-09	0.01803992	-0.006870858
3e+07	0.0195719	-0.01296996	8.511373e-09	5.640976e-09	0.002601549	0.005806328	3.005149e-08	1.810534e-08
	8.511373e-09	5.640976e-09	0.01795751	-0.01376255	4.948149e-09	4.909461e-09	0.002503365	0.006241807
	0.002601547	0.005806332	4.948149e-09	4.909461e-09	0.01780726	-0.01317694	8.752564e-09	5.899321e-09
	3.005149e-08	1.810534e-08	0.002503364	0.006241808	8.752564e-09	5.899321e-09	0.01778444	-0.01363065
4e+07	0.01762837	-0.020009	1.195788e-08	4.813372e-09	0.004259106	0.007145118	4.200752e-08	1.416638e-08
	1.195788e-08	4.813372e-09	0.01556809	-0.02046519	6.890266e-09	5.082105e-09	0.00421526	0.00760571
	0.004259105	0.007145114	6.890266e-09	5.082105e-09	0.01570614	-0.0199429	1.3036e-08	5.203547e-09
	4.200752e-08	1.416638e-08	0.004215261	0.007605711	1.3036e-08	5.203547e-09	0.0154385	-0.02033581
5e+07	0.01380151	-0.02647487	1.530318e-08	2.586182e-09	0.006163278	0.008025556	5.338257e-08	5.773956e-09
	1.530318e-08	2.586182e-09	0.01142987	-0.02647845	8.757734e-09	4.509756e-09	0.006161864	0.008494698
	0.006163276	0.008025554	8.757734e-09	4.509756e-09	0.01181055	-0.02610324	1.646011e-08	2.766238e-09
	5.338257e-08	5.773956e-09	0.006161865	0.008494698	1.646011e-08	2.766238e-09	0.01132915	-0.02636273
6e+07	0.008432065	-0.03189834	1.805602e-08	-1.050934e-09	0.00819065	0.008403218	6.255603e-08	-7.249846e-09
	1.805602e-08	-1.050934e-09	0.005887886	-0.03137609	1.032314e-08	3.174247e-09	0.008220545	0.008871876
	0.008190652	0.008403222	1.032314e-08	3.174247e-09	0.006456481	-0.03121073	1.917112e-08	-1.063119e-09
	6.255603e-08	-7.249846e-09	0.008220546	0.008871876	1.917112e-08	-1.063119e-09	0.00580287	-0.03127866
7e+07	0.001899373	-0.03594367	1.971826e-08	-5.884141e-09	0.01021167	0.008266832	6.788507e-08	-2.42411e-08
	1.971826e-08	-5.884141e-09	-0.0006752124	-0.03485869	1.131975e-08	1.192738e-09	0.01026275	0.008730414
	0.01021168	0.008266837	1.131975e-08	1.192738e-09	1.810553e-05	-0.03494793	2.081877e-08	-6.081091e-09
	6.788507e-08	-2.42411e-08	0.01026276	0.008730414	2.081877e-08	-6.081091e-09	-0.0007562759	-0.03477999
8e+07	-0.00538533	-0.03839193	1.988002e-08	-1.155155e-08	0.01209957	0.007638305	6.799509e-08	-4.395883e-08
	1.988002e-08	-1.155155e-08	-0.007847118	-0.03673976	1.153322e-08	-1.251044e-09	0.01216244	0.008094692
	0.01209959	0.007638307	1.153322e-08	-1.251044e-09	-0.007098903	-0.03711101	2.101681e-08	-1.19915e-08
	6.799509e-08	-4.395883e-08	0.01216244	0.008094692	2.101681e-08	-1.19915e-08	-0.007934445	-0.03667709
9e+07	-0.01299693	-0.03913619	1.825981e-08	-1.756702e-08	0.01373953	0.00657099	6.195059e-08	-6.47189e-08
	1.825981e-08	-1.756702e-08	-0.01520092	-0.03694064	1.080956e-08	-3.907656e-09	0.01380392	0.007018783
	0.01373954	0.00657099	1.080956e-08	-3.907656e-09	-0.01447317	-0.0376046	1.944494e-08	-1.83785e-08
	6.195059e-08	-6.47189e-08	0.01380392	0.007018783	1.944494e-08	-1.83785e-08	-0.0153032	-0.03688905
1e+08	-0.02053443	-0.0381832	1.474221e-08	-2.338233e-08	0.01504588	0.00514975	4.936858e-08	-8.457627e-08
	1.474221e-08	-2.338233e-08	-0.02229592	-0.03547956	9.074157e-09	-6.484742e-09	0.01508864	0.005582277
	0.01504588	0.00514975	9.074157e-09	-6.484742e-09	-0.02168126	-0.03643548	1.590368e-08	-2.473764e-08
	4.936858e-08	-8.457627e-08	0.01508864	0.005582277	1.590368e-08	-2.473764e-08	-0.02242313	-0.03543368
1.1e+08	-0.02757655	-0.03551168	9.506289e-09	-2.851665e-08	0.01590051	0.003512544	3.092848e-08	-1.019027e-07
	9.506289e-09	-2.851665e-08	-0.02876593	-0.03260901	6.409271e-09	-8.674156e-09	0.01593989	0.003890129
	0.01590051	0.003512544	6.409271e-09	-8.674156e-09	-0.02833836	-0.03375114	1.039456e-08	-3.018242e-08
	3.092848e-08	-1.019027e-07	0.01593988	0.003890129	1.039456e-08	-3.018242e-08	-0.02892232	-0.03254489
1.2e+08	-0.03367315	-0.03140835	2.595953e-09	-3.233413e-08	0.01626144	0.001715315	6.975312e-09	-1.147191e-07
	2.595953e-09	-3.233413e-08	-0.03437789	-0.02842837	2.862317e-09	-1.019169e-08	0.01631525	0.002057873
	0.01626144	0.001715315	2.862317e-09	-1.019169e-08	-0.03413443	-0.02970865	3.114252e-09	-3.424998e-08
	6.975312e-09	-1.147191e-07	0.01631525	0.002057874	3.114252e-09	-3.424998e-08	-0.03455123	-0.02833706
1.3e+08	-0.0385625	-0.02616081	-5.63251e-09	-3.435409e-08	0.0161255	-0.0001088925	-2.12898e-08	-1.214007e-07
	-5.63251e-09	-3.435409e-08	-0.03882395	-0.02318669	-1.384157e-09	-1.077616e-08	0.01619793	0.0002065383
	0.0161255	-0.0001088926	-1.384157e-09	-1.077616e-08	-0.03877496	-0.02456333	-5.563886e-09	-3.642694e-08
	-2.12898e-08	-1.214007e-07	0.01619792	0.0002065393	-5.563886e-09	-3.642694e-08	-0.03900489	-0.02306388
1.4e+08	-0.0420377	-0.02009785	-1.469155e-08	-3.417894e-08	0.01550854	-0.001834639	-5.220368e-08	-1.206552e-07
	-1.469155e-08	-3.417894e-08	-0.04189469	-0.01720099	-6.076209e-09	-1.021764e-08	0.01560143	-0.001542832
	0.01550854	-0.00183464	-6.076209e-09	-1.021764e-08	-0.04204663	-0.0186299	-1.512687e-08	-3.629098e-08
	-5.220368e-08	-1.206552e-07	0.01560142	-0.001542831	-1.512687e-08	-3.629098e-08	-0.04207428	-0.01704519
1.5e+08	-0.04397318	-0.01358111	-2.396768e-08	-3.155165e-08	0.01445428	-0.003345778	-8.374623e-08	-1.116539e-07
	-2.396768e-08	-3.155165e-08	-0.04346857	-0.01082482	-1.089535e-08	-8.376417e-09	0.014568	-0.003076918
	0.01445428	-0.003345779	-1.089535e-08	-8.376417e-09	-0.04382009	-0.01225983	-2.492893e-08	-3.356766e-08
	-8.374623e-08	-1.116539e-07	0.014568	-0.003076917	-2.492893e-08	-3.356766e-08	-0.0436383	-0.01063702
1.6e+08	-0.04433083	-0.006985974	-3.278443e-08	-2.638685e-08	0.01303228	-0.004541356	-1.136702e-07	-9.412347e-08
	-3.278443e-08	-2.638685e-08	-0.04351389	-0.004425864	-1.548881e-08	-5.203322e-09	0.0131657	-0.004296684
	0.01303228	-0.004541356	-1.548881e-08	-5.203322e-09	-0.04405389	-0.005820399	-3.425629e-08	-2.81633e-08
	-1.136702e-07	-9.412347e-08	0.0131657	-0.004296683	-3.425629e-08	-2.81633e-08	-0.04366612	-0.004209267
1.7e+08	-0.0431603	-0.0006813921	-4.044394e-08	-1.878706e-08	0.01133375	-0.005341068	-1.396534e-07	-6.840347e-08
	-4.044394e-08	-1.878706e-08	-0.04208746	0.001635552	-1.949139e-08	-7.462796e-10	0.011484	-0.005122954
	0.01133375	-0.005341068	-1.949139e-08	-7.462796e-10	-0.0427942	0.0003259819	-4.23714e-08	-2.018253e-08
	-1.396534e-07	-6.840347e-08	0.011484	-0.005122953	-4.23714e-08	-2.018253e-08	-0.04221586	0.00187584
1.8e+08	-0.04059428	0.004989762	-4.627931e-08	-9.04606e-09	0.009466066	-0.00568962	-1.594642e-07	-3.546132e-08
	-4.627931e-08	-9.04606e-09	-0.03932895	0.007026645	-2.255192e-08	4.847549e-09	0.009628439	-0.005500783
	0.009466066	-0.00568962	-2.255192e-08	4.847549e-09	-0.04017003	0.00584171	-4.856816e-08	-9.932259e-09
	-1.594642e-07	-3.546132e-08	0.009628439	-0.005500783	-4.856816e-08	-9.932259e-09	-0.03942884	0.007284014
1.9e+08	-0.0368396	0.009728586	-4.970651e-08	2.362587e-09	0.007546392	-0.005559718	-1.711285e-07	3.135545e-09
	-4.970651e-08	2.362587e-09	-0.03545112	0.01146031	-2.435973e-08	1.133674e-08	0.007714308	-0.005402462
	0.007546392	-0.005559718	-2.435973e-08	1.133674e-08	-0.03638439	0.01043205	-5.222689e-08	2.089969e-09
	-1.711285e-07	3.135545e-09	0.007714308	-0.005402462	-5.222689e-08	2.089969e-09	-0.03551978	0.01172712
2e+08	-0.03216452	0.0132955	-5.027177e-08	1.48108e-08	0.005694719	-0.004953505	-1.730885e-07	4.529158e-08
	-5.027177e-08	1.48108e-08	-0.03072637	0.01471035	-2.466936e-08	1.839748e-08	0.00585997	-0.004829001
	0.005694719	-0.004953505	-2.466936e-08	1.839748e-08	-0.03170169	0.0138606	-5.286464e-08	1.522229e-08
	-1.730885e-07	4.529158e-08	0.00585997	-0.004829001	-5.286464e-08	1.522229e-08	-0.0307632	0.01497847
2.1e+08	-0.02688258	0.01552291	-4.768987e-08	2.755296e-08	0.004020518	-0.003909811	-1.643396e-07	8.849549e-08
	-4.768987e-08	2.755296e-08	-0.02547039	0.0166232	-2.331974e-08	2.564076e-08	0.004179913	-0.003810048
	0.004020518	-0.003909811	-2.331974e-08	2.564076e-08	-0.02643161	0.01596208	-5.017082e-08	2.867453e-08
	-1.643396e-07	8.849549e-08	0.004179914	-0.003810048	-5.017082e-08	2.867453e-08	-0.02547699	0.01688454
2.2e+08	-0.02133501	0.01632166	-4.187422e-08	3.977242e-08	0.00262879	-0.002483532	-1.445411e-07	1.299696e-07
	-4.187422e-08	3.977242e-08	-0.0200236	0.01712543	-2.025433e-08	3.263579e-08	0.002778012	-0.002402186
	0.00262879	-0.002483532	-2.025433e-08	3.263579e-08	-0.02091168	0.01664886	-4.405131e-08	4.157824e-08
	-1.445411e-07	1.299696e-07	0.002778012	-0.002402186	-4.405131e-08	4.157824e-08	-0.02000363	0.01737252
2.3e+08	-0.01587238	0.01568498	-3.295248e-08	5.063565e-08	0.001615755	-0.0007480153	-1.140835e-07	1.668484e-07
	-3.295248e-08	5.063565e-08	-0.01473149	0.0162268	-1.553141e-08	3.894022e-08	0.001741308	-0.0006856852
	0.001615755	-0.0007480153	-1.553141e-08	3.894022e-08	-0.01548896	0.01591508	-3.464685e-08	5.305329e-08
	-1.140835e-07	1.668484e-07	0.001741308	-0.0006856852	-3.464685e-08	5.305329e-08	-0.01469053	0.01645328
2.4e+08	-0.01083377	0.01368944	-2.126568e-08	5.934628e-08	0.001046465	0.001193026	-7.410537e-08	1.963692e-07
	-2.126568e-08	5.934628e-08	-0.009924921	0.01401864	-9.321731e-09	4.412651e-08	0.001134678	0.001240179
	0.001046465	0.001193026	-9.321731e-09	4.412651e-08	-0.01049929	0.01383763	-2.231749e-08	6.225701e-08
	-7.410537e-08	1.963692e-07	0.001134678	0.001240179	-2.231749e-08	6.225701e-08	-0.009870071	0.01421973
2.5e+08	-0.006528203	0.01048865	-7.356847e-09	6.51993e-08	0.0009584375	0.003222846	-2.646358e-08	2.160697e-07
	-7.356847e-09	6.51993e-08	-0.005901307	0.01066763	-1.9061e-09	4.781196e-08	0.0009967343	0.003263025
	0.0009584375	0.003222846	-1.9061e-09	4.781196e-08	-0.006248699	0.01056999	-7.637372e-09	6.844353e-08
	-2.646358e-08	2.160697e-07	0.0009967343	0.003263025	-7.637372e-09	6.844353e-08	-0.005840776	0.01084048
2.6e+08	-0.003217551	0.006303751	8.054361e-09	6.763084e-08	0.001359125	0.005218797	2.634958e-08	2.239746e-07
	8.054361e-09	6.763084e-08	-0.002907868	0.00640537	6.336754e-09	4.968667e-08	0.00133725	0.005264171
	0.001359125	0.005218797	6.336754e-09	4.968667e-08	-0.002996422	0.006332806	8.63234e-09	7.101679e-08
	2.634958e-08	2.239746e-07	0.00133725	0.005264171	8.63234e-09	7.101679e-08	-0.002850493	0.006549293
2.7e+08	-0.001102235	0.001410041	2.410871e-08	6.626126e-08	0.00222523	0.007059963	8.13385e-08	2.187593e-07
	2.410871e-08	6.626126e-08	-0.001128023	0.001514278	1.494935e-08	4.953851e-08	0.002136336	0.00712596
	0.00222523	0.007059963	1.494935e-08	4.953851e-08	-0.0009405413	0.001400584	2.558303e-08	6.957596e-08
	8.13385e-08	2.187593e-07	0.002136336	0.00712596	2.558303e-08	6.957596e-08	-0.001082615	0.001630875
2.8e+08	-0.0003104734	-0.003879277	3.985433e-08	6.092825e-08	0.003503957	0.008634814	1.35178e-07	1.998756e-07
	3.985433e-08	6.092825e-08	-0.00067133	-0.00368929	2.342089e-08	4.727271e-08	0.00334549	0.008739132
	0.003503957	0.008634814	2.342089e-08	4.727271e-08	-0.0002072567	-0.003914482	4.220861e-08	6.395065e-08
	1.35178e-07	1.998756e-07	0.00334549	0.008739132	4.220861e-08	6.395065e-08	-0.0006461217	-0.0035962
2.9e+08	-0.0008917515	-0.009231441	5.430121e-08	5.17087e-08	0.005116199	0.009848363	1.844183e-07	1.676316e-07
	5.430121e-08	5.17087e-08	-0.001567934	-0.008873793	3.12176e-08	4.292505e-08	0.004890501	0.01000977
	0.005116199	0.009848363	3.12176e-08	4.292505e-08	-0.0008443417	-0.009280798	5.746347e-08	5.422363e-08
	1.844183e-07	1.676316e-07	0.004890501	0.01000977	5.746347e-08	5.422363e-08	-0.00157004	-0.008798365
3e+08	-0.002814854	-0.01431342	6.648067e-08	3.89273e-08	0.006961472	0.01062832	2.257078e-07	1.232144e-07
	6.648067e-08	3.89273e-08	-0.003767676	-0.01371196	3.781625e-08	3.666722e-08	0.00667606	0.0108653
	0.006961472	0.01062832	3.781625e-08	3.666722e-08	-0.002819152	-0.01436659	7.032568e-08	4.07395e-08
	2.257078e-07	1.232144e-07	0.00667606	0.0108653	7.032568e-08	4.07395e-08	-0.0038026	-0.01364667
3.1e+08	-0.005970556	-0.01881099	7.550709e-08	2.31508e-08	0.008924303	0.01092983	2.560191e-07	6.865662e-08
	7.550709e-08	2.31508e-08	-0.007143889	-0.01789982	4.273908e-08	2.880351e-08	0.008591782	0.01125915
	0.008924303	0.01092983	4.273908e-08	2.880351e-08	-0.006021295	-0.018859	7.986209e-08	2.409802e-08
	2.560191e-07	6.865662e-08	0.008591782	0.01125915	7.986209e-08	2.409802e-08	-0.007215135	-0.01783586
3.2e+08	-0.01017876	-0.0224466	8.063833e-08	5.167009e-09	0.01088163	0.01073832	2.728613e-07	6.7427e-09
	8.063833e-08	5.167009e-09	-0.01150162	-0.02117405	4.558755e-08	1.975846e-08	0.01051923	0.01117371
	0.01088163	0.01073832	4.558755e-08	1.975846e-08	-0.01026974	-0.02248179	8.529196e-08	5.131389e-09
	2.728613e-07	6.7427e-09	0.01051923	0.01117371	8.529196e-08	5.131389e-09	-0.01161041	-0.02110195
3.3e+08	-0.0151996	-0.02499477	8.13313e-08	-1.405128e-08	0.01271071	0.01007048	2.744659e-07	-5.913667e-08
	8.13313e-08	-1.405128e-08	-0.0165897	-0.0233269	4.607285e-08	1.005576e-08	0.01233947	0.01062133
	0.01271071	0.01007048	4.607285e-08	1.005576e-08	-0.01532389	-0.02501091	8.60451e-08	-1.513431e-08
	2.744659e-07	-5.913667e-08	0.01233947	0.01062133	8.60451e-08	-1.513431e-08	-0.01673487	-0.02323702
3.4e+08	-0.02074782	-0.02629445	7.728878e-08	-3.339678e-08	0.01429697	0.008973084	2.599306e-07	-1.251753e-07
	7.728878e-08	-3.339678e-08	-0.02211592	-0.0242175	4.404065e-08	2.894357e-10	0.01394056	0.009643477
	0.01429697	0.008973084	4.404065e-08	2.894357e-10	-0.02089795	-0.02628667	8.181064e-08	-3.553249e-08
	2.599306e-07	-1.251753e-07	0.01394056	0.009643477	8.181064e-08	-3.553249e-08	-0.02229391	-0.0241007
3.5e+08	-0.0265095	-0.02625744	6.849346e-08	-5.169034e-08	0.01554121	0.007519866	2.293132e-07	-1.873753e-07
	6.849346e-08	-5.169034e-08	-0.02776435	-0.02377926	3.948809e-08	-8.911341e-09	0.01522457	0.00830785
	0.01554121	0.007519866	3.948809e-08	-8.911341e-09	-0.02667765	-0.02622225	7.257229e-08	-5.482212e-08
	2.293132e-07	-1.873753e-07	0.01522457	0.00830785	7.257229e-08	-5.482212e-08	-0.0279694	-0.02362748
3.6e+08	-0.03216018	-0.02487261	5.522585e-08	-6.77529e-08	0.01636585	0.005806726	1.836672e-07	-2.417901e-07
	5.522585e-08	-6.77529e-08	-0.03321369	-0.02202293	3.257146e-08	-1.692146e-08	0.01611355	0.006704012
	0.01636585	0.005806726	3.257146e-08	-1.692146e-08	-0.0323383	-0.02480791	5.862661e-08	-7.176312e-08
	1.836672e-07	-2.417901e-07	0.01611355	0.006704012	5.862661e-08	-7.176312e-08	-0.03343815	-0.02182969
3.7e+08	-0.03738324	-0.02220574	3.806315e-08	-8.048203e-08	0.01671956	0.003945567	1.250157e-07	-2.847719e-07
	3.806315e-08	-8.048203e-08	-0.03815574	-0.01903507	2.360347e-08	-2.316069e-08	0.01655416	0.004937632
	0.01671956	0.003945567	2.360347e-08	-2.316069e-08	-0.03756326	-0.02211082	4.058156e-08	-8.519659e-08
	1.250157e-07	-2.847719e-07	0.01655416	0.004937632	4.058156e-08	-8.519659e-08	-0.03839053	-0.01879593
3.8e+08	-0.04188766	-0.01839509	1.785794e-08	-8.892821e-08	0.01658027	0.002057244	5.626495e-08	-3.132089e-07
	1.785794e-08	-8.892821e-08	-0.04231275	-0.01497247	1.303989e-08	-2.713311e-08	0.01652073	0.003123872
	0.01658027	0.002057244	1.303989e-08	-2.713311e-08	-0.04206164	-0.0182706	1.933395e-08	-9.412444e-08
	5.626495e-08	-3.132089e-07	0.01652073	0.003123872	1.933395e-08	-9.412444e-08	-0.04254788	-0.01468531
3.9e+08	-0.04542403	-0.01364301	-4.303536e-09	-9.236481e-08	0.01595628	0.0002640839	-1.893913e-08	-3.247366e-07
	-4.303536e-09	-9.236481e-08	-0.0454529	-0.01005257	1.456147e-09	-2.846257e-08	0.0160165	0.001380326
	0.01595628	0.0002640839	1.456147e-09	-2.846257e-08	-0.04558435	-0.01349096	-3.974224e-09	-9.778262e-08
	-1.893913e-08	-3.247366e-07	0.0160165	0.001380326	-3.974224e-09	-9.778262e-08	-0.04567807	-0.009717793
4e+08	-0.04779816	-0.008204177	-2.716129e-08	-9.034634e-08	0.01488557	-0.001317551	-9.640416e-08	-3.179111e-07
	-2.716129e-08	-9.034634e-08	-0.04740293	-0.00454069	-1.048489e-08	-2.69213e-08	0.01507317	-0.0001800515
	0.01488557	-0.001317551	-1.048489e-08	-2.69213e-08	-0.04793771	-0.008027917	-2.801845e-08	-9.570212e-08
	-9.640416e-08	-3.179111e-07	0.01507317	-0.0001800515	-2.801845e-08	-9.570212e-08	-0.04760817	-0.004161214
4.1e+08	-0.04888143	-0.00237111	-4.93563e-08	-8.27499e-08	0.01343327	-0.002584217	-1.71624e-07	-2.923328e-07
	-4.93563e-08	-8.27499e-08	-0.0480575	0.00126519	-2.207183e-08	-2.244965e-08	0.01374881	-0.001455605
	0.01343327	-0.002584217	-2.207183e-08	-2.244965e-08	-0.04899382	-0.002175232	-5.13698e-08	-8.775248e-08
	-1.71624e-07	-2.923328e-07	0.01374881	-0.001455605	-5.13698e-08	-8.775248e-08	-0.04823376	0.001684061
4.2e+08	-0.0486176	0.003542259	-6.951502e-08	-6.979594e-08	0.0116877	-0.003451494	-2.400386e-07	-2.487116e-07
	-6.951502e-08	-6.979594e-08	-0.04738459	0.007051326	-3.258781e-08	-1.516547e-08	0.01212425	-0.002361892
	0.0116877	-0.003451494	-3.258781e-08	-1.516547e-08	-0.04869739	0.003751992	-7.258336e-08	-7.416391e-08
	-2.400386e-07	-2.487116e-07	0.01212425	-0.002361892	-7.258336e-08	-7.416391e-08	-0.04752434	0.007502195
4.3e+08	-0.04702554	0.009218013	-8.63375e-08	-5.204629e-08	0.009755029	-0.003858918	-2.973066e-07	-1.888678e-07
	-8.63375e-08	-5.204629e-08	-0.04542698	0.01250584	-4.135503e-08	-5.362278e-09	0.01029826	-0.002836544
	0.009755029	-0.003858918	-4.135503e-08	-5.362278e-09	-0.04706845	0.009434822	-9.029075e-08	-5.552565e-08
	-2.973066e-07	-1.888678e-07	0.01029826	-0.002836544	-9.029075e-08	-5.552565e-08	-0.04552465	0.01297962
4.4e+08	-0.044198	0.0143518	-9.8683e-08	-3.037908e-08	0.007753042	-0.003773528	-3.395756e-07	-1.156674e-07
	-9.8683e-08	-3.037908e-08	-0.04229953	0.01733607	-4.777753e-08	6.503637e-09	0.008381757	-0.002842858
	0.007753042	-0.003773528	-4.777753e-08	6.503637e-09	-0.04420113	0.01456808	-1.032901e-07	-3.276011e-08
	-3.395756e-07	-1.156674e-07	0.008381757	-0.002842858	-1.032901e-07	-3.276011e-08	-0.0423519	0.01782252
4.5e+08	-0.04029627	0.01866961	-1.056465e-07	-5.942205e-09	0.005804229	-0.003191849	-3.637335e-07	-3.289097e-08
	-1.056465e-07	-5.942205e-09	-0.03818255	0.02128488	-5.137987e-08	1.983643e-08	0.006491378	-0.002371942
	0.005804229	-0.003191849	-5.137987e-08	1.983643e-08	-0.04025826	0.01887719	-1.106267e-07	-7.074422e-09
	-3.637335e-07	-3.289097e-08	0.006491378	-0.002371942	-1.106267e-07	-7.074422e-09	-0.03818898	0.02177319
4.6e+08	-0.03554127	0.02194293	-1.066415e-07	1.99257e-08	0.004028617	-0.002140222	-3.675747e-07	5.495454e-08
	-1.066415e-07	1.99257e-08	-0.03331166	0.02414494	-5.18358e-08	3.39305e-08	0.004742693	-0.001443329
	0.004028617	-0.002140222	-5.18358e-08	3.39305e-08	-0.03546244	0.02213327	-1.116792e-07	2.012224e-08
	-3.675747e-07	5.495454e-08	0.004742693	-0.001443329	-1.116792e-07	2.012224e-08	-0.03327415	0.02462444
4.7e+08	-0.03020124	0.02400115	-1.01381e-07	4.573351e-08	0.002536691	-0.0006734639	-3.501177e-07	1.428579e-07
	-1.01381e-07	4.573351e-08	-0.02796453	0.02577021	-4.900203e-08	4.801453e-08	0.003243462	-0.0001040044
	0.002536691	-0.0006734639	-4.900203e-08	4.801453e-08	-0.03008371	0.02416585	-1.061453e-07	4.725879e-08
