!$
! Info: Touchstone file created by Circ.  Input file=Tx_14in_Rx_100ohms_TxVia_60mils_RxVia_70mils.circ
!$
# Hz S RI R 50
0	0.01448911	1.774399e-25	1.625879e-09	4.850867e-27	9.509433e-05	2.841076e-23	-1.470507e-10	6.341568e-26
	1.625893e-09	4.850872e-27	0.01448483	2.164518e-25	4.439016e-09	1.682115e-26	9.423342e-05	3.53628e-23
	9.422686e-05	2.828368e-23	4.439016e-09	1.682115e-26	0.0145027	1.793794e-25	3.663862e-09	5.13406e-27
	-1.467646e-10	6.338066e-26	9.450274e-05	3.551445e-23	3.663781e-09	5.134046e-27	0.01449909	2.155186e-25
1e+07	0.0214347	0.008256252	2.108037e-09	3.526504e-09	0.001009663	0.002573115	-2.059253e-09	1.171281e-08
	2.108037e-09	3.526504e-09	0.02163879	0.008229165	6.482824e-09	1.280159e-08	0.001004655	0.002571164
	0.001009647	0.002573129	6.482824e-09	1.280159e-08	0.02166359	0.008231652	-5.164751e-10	1.240903e-08
	-2.059253e-09	1.171281e-08	0.001004658	0.002571162	-5.164749e-10	1.240903e-08	0.02144364	0.008267554
2e+07	0.02836234	0.01064454	2.987478e-09	6.238445e-09	0.001933176	0.005163164	1.804414e-09	3.346042e-09
	2.987478e-09	6.238445e-09	0.02847066	0.01053398	8.846158e-09	2.247649e-08	0.001914505	0.005163651
	0.001933182	0.005163173	8.846158e-09	2.247649e-08	0.02852596	0.01052963	-9.393568e-11	6.677633e-09
	1.804414e-09	3.346042e-09	0.001914502	0.005163651	-9.393566e-11	6.677633e-09	0.02835151	0.01066868
3e+07	0.03418928	0.00990514	3.706798e-09	8.418563e-09	0.003484865	0.007133956	3.071329e-09	4.657014e-09
	3.706798e-09	8.418563e-09	0.03419988	0.009788795	1.03623e-08	3.157512e-08	0.003446099	0.007144442
	0.003484866	0.007133956	1.03623e-08	3.157512e-08	0.03430016	0.009760381	3.30908e-09	8.628698e-09
	3.071329e-09	4.657014e-09	0.003446099	0.007144444	3.30908e-09	8.628698e-09	0.03414577	0.00995363
4e+07	0.03903513	0.00734115	4.311954e-09	1.040587e-08	0.005525545	0.008488164	3.802627e-09	5.391186e-09
	4.311954e-09	1.040587e-08	0.03894852	0.007259368	1.155547e-08	4.038252e-08	0.005463622	0.008518441
	0.005525544	0.008488165	1.155547e-08	4.038252e-08	0.03910055	0.007184643	3.970822e-09	1.086317e-08
	3.802627e-09	5.391186e-09	0.005463623	0.008518442	3.970822e-09	1.086317e-08	0.03895135	0.007429604
5e+07	0.04275685	0.003440237	4.731807e-09	1.219855e-08	0.007993274	0.009021695	4.261921e-09	5.843759e-09
	4.731807e-09	1.219855e-08	0.042582	0.003428187	1.239647e-08	4.901534e-08	0.007909055	0.009082167
	0.007993273	0.009021695	1.239647e-08	4.901534e-08	0.04278303	0.003282287	4.187952e-09	1.293468e-08
	4.261921e-09	5.843759e-09	0.007909056	0.009082168	4.187952e-09	1.293468e-08	0.04263192	0.003587827
6e+07	0.04520092	-0.00140193	4.907106e-09	1.386285e-08	0.0104472	0.008844624	4.402717e-09	6.096321e-09
	4.907106e-09	1.386285e-08	0.04495626	-0.001314387	1.289226e-08	5.759453e-08	0.01034565	0.008945285
	0.01044719	0.008844623	1.289226e-08	5.759453e-08	0.04519336	-0.001554607	4.18388e-09	1.499006e-08
	4.402717e-09	6.096321e-09	0.01034565	0.008945285	4.18388e-09	1.499006e-08	0.04504213	-0.001176128
7e+07	0.04625544	-0.006805949	4.759606e-09	1.549657e-08	0.01269661	0.007996228	4.062255e-09	6.308786e-09
	4.759606e-09	1.549657e-08	0.04596748	-0.006596465	1.298231e-08	6.620322e-08	0.01258638	0.008145092
	0.01269661	0.007996226	1.298231e-08	6.620322e-08	0.04621906	-0.006948684	3.96886e-09	1.709854e-08
	4.062255e-09	6.308786e-09	0.01258638	0.008145092	3.96886e-09	1.709854e-08	0.04607727	-0.006486209
8e+07	0.04587644	-0.01239364	4.265837e-09	1.722059e-08	0.01456727	0.006564796	3.247018e-09	6.685389e-09
	4.265836e-09	1.722059e-08	0.04557749	-0.01204921	1.272119e-08	7.498793e-08	0.01445984	0.00676672
	0.01456726	0.006564795	1.272119e-08	7.498793e-08	0.04581571	-0.01252301	3.557398e-09	1.931764e-08
	3.247018e-09	6.685389e-09	0.01445984	0.00676672	3.557398e-09	1.931764e-08	0.04569881	-0.01196968
9e+07	0.04410011	-0.0177958	3.488318e-09	1.915746e-08	0.01591443	0.004682109	2.10527e-09	7.340559e-09
	3.488318e-09	1.915746e-08	0.04382567	-0.01731401	1.225264e-08	8.408154e-08	0.01582301	0.004937916
	0.01591443	0.004682109	1.225264e-08	8.408154e-08	0.04401943	-0.01790913	3.011059e-09	2.169175e-08
	2.10527e-09	7.340559e-09	0.01582301	0.004937916	3.011059e-09	2.169175e-08	0.04394643	-0.0172643
1e+08	0.04105986	-0.02266682	2.464078e-09	2.141595e-08	0.01662693	0.002513108	7.763162e-10	8.379633e-09
	2.464078e-09	2.141595e-08	0.04084737	-0.02205628	1.167122e-08	9.35629e-08	0.01656505	0.002819119
	0.01662693	0.002513108	1.167122e-08	9.35629e-08	0.04096558	-0.02276178	2.322719e-09	2.42536e-08
	7.763162e-10	8.379633e-09	0.01656505	0.002819119	2.322719e-09	2.42536e-08	0.04095477	-0.02203242
1.1e+08	0.03690336	-0.0267918	1.385806e-09	2.385771e-08	0.01667242	0.0002890011	-6.517608e-10	9.699192e-09
	1.385806e-09	2.385771e-08	0.0367827	-0.02608223	1.124903e-08	1.033778e-07	0.01665252	0.0006368869
	0.01667242	0.000289001	1.124903e-08	1.033778e-07	0.03679696	-0.02687616	1.638481e-09	2.701291e-08
	-6.517608e-10	9.699192e-09	0.01665252	0.0006368871	1.638481e-09	2.701291e-08	0.03687112	-0.02606806
1.2e+08	0.03183224	-0.02982251	3.130498e-10	2.671138e-08	0.01608129	-0.001846748	-2.199947e-09	1.14644e-08
	3.130498e-10	2.671138e-08	0.03182023	-0.0290408	1.099873e-08	1.135762e-07	0.01611299	-0.00146949
	0.01608129	-0.001846749	1.099873e-08	1.135762e-07	0.03170977	-0.02989218	1.026018e-09	3.007014e-08
	-2.199947e-09	1.14644e-08	0.01611299	-0.001469489	1.026017e-09	3.007014e-08	0.03189225	-0.02903054
1.3e+08	0.02618711	-0.03157192	-6.61411e-10	3.000102e-08	0.01489269	-0.003718059	-3.700461e-09	1.373386e-08
	-6.61411e-10	3.000102e-08	0.02629536	-0.03075073	1.102993e-08	1.241296e-07	0.01498159	-0.003327068
	0.01489269	-0.003718059	1.102993e-08	1.241296e-07	0.02604929	-0.03162154	5.425411e-10	3.342811e-08
	-3.700461e-09	1.373386e-08	0.01498158	-0.003327067	5.425411e-10	3.342811e-08	0.02635202	-0.03073954
1.4e+08	0.0203202	-0.03194634	-1.396463e-09	3.371765e-08	0.01320384	-0.005167102	-4.989764e-09	1.650897e-08
	-1.396463e-09	3.371765e-08	0.02055083	-0.03112215	1.146312e-08	1.349725e-07	0.01335052	-0.004779861
	0.01320384	-0.005167102	1.146312e-08	1.349725e-07	0.02017038	-0.03197058	2.868421e-10	3.706777e-08
	-4.989764e-09	1.650897e-08	0.01335052	-0.00477986	2.868421e-10	3.706777e-08	0.02059375	-0.03110568
1.5e+08	0.01458934	-0.03094467	-1.743601e-09	3.780573e-08	0.01115411	-0.006070131	-5.90552e-09	1.974058e-08
	-1.743601e-09	3.780573e-08	0.01493342	-0.0301547	1.240407e-08	1.460005e-07	0.01135366	-0.00570436
	0.01115411	-0.006070131	1.240407e-08	1.460005e-07	0.01443305	-0.0309391	3.622255e-10	4.093686e-08
	-5.90552e-09	1.974058e-08	0.01135366	-0.005704359	3.622255e-10	4.093686e-08	0.01496504	-0.0301293
1.6e+08	0.009336571	-0.02865651	-1.564691e-09	4.215602e-08	0.008912691	-0.006348075	-6.298415e-09	2.332746e-08
	-1.564691e-09	4.215602e-08	0.009773801	-0.02793524	1.392998e-08	1.570725e-07	0.009154589	-0.006019972
	0.008912691	-0.006348075	1.392998e-08	1.570725e-07	0.00918106	-0.02861831	8.630137e-10	4.494352e-08
	-6.298415e-09	2.332746e-08	0.009154589	-0.006019972	8.630136e-10	4.494352e-08	0.009797274	-0.02789811
1.7e+08	0.004866427	-0.02525475	-7.536552e-10	4.660658e-08	0.006664284	-0.005973143	-6.048654e-09	2.711916e-08
	-7.536552e-10	4.660658e-08	0.005366031	-0.02463041	1.607505e-08	1.680178e-07	0.006932987	-0.005695655
	0.006664284	-0.005973143	1.607505e-08	1.680178e-07	0.004720093	-0.02518323	1.85718e-09	4.895648e-08
	-6.048654e-09	2.711916e-08	0.006932986	-0.005695655	1.857179e-09	4.895648e-08	0.005385006	-0.0245798
1.8e+08	0.001426421	-0.02098296	7.417937e-10	5.095298e-08	0.004593773	-0.004971072	-5.082709e-09	3.092464e-08
	7.417937e-10	5.095298e-08	0.001949121	-0.02047427	1.881828e-08	1.786501e-07	0.004869744	-0.00475235
	0.004593773	-0.004971072	1.881828e-08	1.786501e-07	0.001298098	-0.02087989	3.368599e-09	5.281342e-08
	-5.082709e-09	3.092464e-08	0.004869744	-0.00475235	3.368599e-09	5.281342e-08	0.00196747	-0.02040959
1.9e+08	-0.0008087432	-0.01613797	2.902499e-09	5.49681e-08	0.002870923	-0.003418865	-3.387641e-09	3.452717e-08
	2.902499e-09	5.49681e-08	-0.0003077569	-0.01575169	2.207646e-08	1.887869e-07	0.003132161	-0.003261082
	0.002870923	-0.003418865	2.207646e-08	1.887869e-07	-0.0009105675	-0.01600775	5.3627e-09	5.633755e-08
	-3.387641e-09	3.452717e-08	0.003132161	-0.003261082	5.3627e-09	5.633755e-08	-0.000286273	-0.01567348
2e+08	-0.001747989	-0.01104906	5.628627e-09	5.84294e-08	0.00163646	-0.001438263	-1.020184e-09	3.770485e-08
	5.628627e-09	5.84294e-08	-0.00131537	-0.01077837	2.570478e-08	1.982717e-07	0.001860349	-0.001336917
	0.00163646	-0.001438263	2.570478e-08	1.982717e-07	-0.00181597	-0.01089857	7.739506e-09	5.936088e-08
	-1.020184e-09	3.770485e-08	0.001860349	-0.001336917	7.739506e-09	5.936088e-08	-0.001287402	-0.01068828
2.1e+08	-0.001388856	-0.00605501	8.741991e-09	6.114957e-08	0.0009906486	0.0008144667	1.891739e-09	4.025441e-08
	8.741991e-09	6.114957e-08	-0.001068985	-0.00587914	2.950626e-08	2.069962e-07	0.001155997	0.0008706653
	0.0009906486	0.0008144667	2.950626e-08	2.069962e-07	-0.001417539	-0.005893277	1.033698e-08	6.175019e-08
	1.891739e-09	4.025441e-08	0.001155997	0.0008706653	1.033698e-08	6.175019e-08	-0.001031888	-0.005779685
2.2e+08	0.000183677	-0.001480737	1.200088e-08	6.300523e-08	0.0009853274	0.00316151	5.156366e-09	4.201521e-08
	1.200088e-08	6.300523e-08	0.0003528551	-0.001365772	3.324989e-08	2.149184e-07	0.001074396	0.00319013
	0.0009853274	0.00316151	3.324989e-08	2.149184e-07	0.0001972196	-0.001318361	1.294548e-08	6.343092e-08
	5.156366e-09	4.201521e-08	0.001074396	0.00319013	1.294548e-08	6.343092e-08	0.000400802	-0.001260122
2.3e+08	0.002804437	0.002384864	1.512572e-08	6.39583e-08	0.001619994	0.005418127	8.534007e-09	4.288977e-08
	1.512572e-08	6.39583e-08	0.002795256	0.002483889	3.669481e-08	2.220724e-07	0.001620334	0.005441906
	0.001619994	0.005418127	3.669481e-08	2.220724e-07	0.00286016	0.002536443	1.533158e-08	6.440386e-08
	8.534007e-09	4.288977e-08	0.001620334	0.005441906	1.533158e-08	6.440386e-08	0.002854715	0.002592214
2.4e+08	0.006240811	0.005308255	1.783159e-08	6.406592e-08	0.002842198	0.007407677	1.175963e-08	4.285762e-08
	1.783159e-08	6.406592e-08	0.006039036	0.005444171	3.961724e-08	2.285688e-07	0.002748119	0.007452883
	0.002842198	0.007407677	3.961724e-08	2.285688e-07	0.006335469	0.005437631	1.726748e-08	6.475106e-08
	1.175963e-08	4.285762e-08	0.002748119	0.007452883	1.726748e-08	6.475106e-08	0.006109558	0.005551633
2.5e+08	0.01021004	0.007126451	1.986205e-08	6.347712e-08	0.004552129	0.008975808	1.456904e-08	4.198029e-08
	1.986205e-08	6.347712e-08	0.009817017	0.007355888	4.183556e-08	2.345858e-07	0.004365647	0.0090702
	0.004552129	0.008975808	4.183556e-08	2.345858e-07	0.01033722	0.007223169	1.856052e-08	6.462955e-08
	1.456904e-08	4.198029e-08	0.004365647	0.0090702	1.856052e-08	6.462955e-08	0.009897092	0.007459254
2.6e+08	0.01439975	0.007757035	2.101867e-08	6.241722e-08	0.006610927	0.01000271	1.672486e-08	4.039705e-08
	2.101867e-08	6.241722e-08	0.0138333	0.008135797	4.323004e-08	2.403505e-07	0.0063421	0.01017325
	0.006610927	0.01000271	4.323004e-08	2.403505e-07	0.01455014	0.007812492	1.907773e-08	6.425396e-08
	1.672486e-08	4.039705e-08	0.0063421	0.01017325	1.907773e-08	6.425396e-08	0.0139205	0.00823244
2.7e+08	0.01849017	0.007202398	2.118192e-08	6.11632e-08	0.008852008	0.01041247	1.803895e-08	3.831225e-08
	2.118192e-08	6.11632e-08	0.01778415	0.007780658	4.37543e-08	2.461162e-07	0.008518589	0.01068302
	0.008852008	0.01041247	4.37543e-08	2.461162e-07	0.01865216	0.007210637	1.876118e-08	6.387173e-08
	1.803895e-08	3.831225e-08	0.008518589	0.01068302	1.876118e-08	6.387173e-08	0.01787534	0.007868796
2.8e+08	0.02217657	0.005547992	2.03211e-08	6.001468e-08	0.01109445	0.01017893	1.838872e-08	3.597687e-08
	2.03211e-08	6.001468e-08	0.02137899	0.006365707	4.343793e-08	2.521381e-07	0.01072087	0.01056803
	0.01109445	0.01017893	4.343793e-08	2.521381e-07	0.02233699	0.005506345	1.763249e-08	6.37355e-08
	1.838872e-08	3.597687e-08	0.01072087	0.01056803	1.763249e-08	6.37355e-08	0.02147062	0.006444584
2.9e+08	0.02519021	0.002954843	1.849342e-08	5.926566e-08	0.01315737	0.009327559	1.772621e-08	3.366704e-08
	1.849342e-08	5.926566e-08	0.02436008	0.004037797	4.238095e-08	2.586511e-07	0.01277314	0.009846587
	0.01315737	0.009327559	4.238095e-08	2.586511e-07	0.02533528	0.002864324	1.578702e-08	6.407776e-08
	1.772621e-08	3.366704e-08	0.01277314	0.009846587	1.578702e-08	6.407776e-08	0.02444849	0.004107749
3e+08	0.02731649	-0.0003530645	1.583473e-08	5.918056e-08	0.01487428	0.007933342	1.608026e-08	3.166235e-08
	1.583473e-08	5.918056e-08	0.02651957	0.001003765	4.074264e-08	2.658522e-07	0.01451183	0.008585181
	0.01487428	0.007933342	4.074264e-08	2.658522e-07	0.02743285	-0.0004876196	1.338063e-08	6.509129e-08
	1.608026e-08	3.166235e-08	0.01451183	0.008585181	1.338063e-08	6.509129e-08	0.02660133	0.001066223
3.1e+08	0.02840907	-0.004105561	1.254522e-08	5.997675e-08	0.0161062	0.006114834	1.355301e-08	3.022619e-08
	1.254522e-08	5.997675e-08	0.02771285	-0.002485063	3.872715e-08	2.73888e-07	0.01579842	0.006893134
	0.0161062	0.006114834	3.872715e-08	2.73888e-07	0.02848486	-0.004275667	1.061269e-08	6.691705e-08
	1.355301e-08	3.022619e-08	0.01579842	0.006893134	1.061269e-08	6.691705e-08	0.02778506	-0.002427689
3.2e+08	0.02839907	-0.008006075	8.873639e-09	6.18134e-08	0.01675267	0.004024837	1.031257e-08	2.958882e-08
	8.873639e-09	6.18134e-08	0.02786732	-0.006151178	3.65687e-08	2.828487e-07	0.01653028	0.004914017
	0.01675267	0.004024837	3.65687e-08	2.828487e-07	0.02842494	-0.008200059	7.709355e-09	6.963909e-08
	1.031257e-08	2.958882e-08	0.01653028	0.004914017	7.709355e-09	6.963909e-08	0.02792789	-0.006095681
3.3e+08	0.02729875	-0.01175299	5.102567e-09	6.478479e-08	0.01675985	0.001838406	6.58317e-09	2.993325e-08
	5.102567e-09	6.478479e-08	0.02698613	-0.009710676	3.451769e-08	2.927636e-07	0.01664878	0.002814401
	0.01675985	0.001838406	3.451769e-08	2.927636e-07	0.0272687	-0.01195673	4.909477e-09	7.328409e-08
	6.58317e-09	2.993325e-08	0.01664878	0.002814401	4.909477e-09	7.328409e-08	0.02703398	-0.009653324
3.4e+08	0.02519951	-0.01506112	1.535161e-09	6.891571e-08	0.01612493	-0.0002609435	2.63376e-09	3.138335e-08
	1.535161e-09	6.891571e-08	0.02514665	-0.01289323	3.282811e-08	3.036006e-07	0.01614399	0.0007707992
	0.01612493	-0.0002609435	3.282811e-08	3.036006e-07	0.02511155	-0.01525903	2.453968e-09	7.782273e-08
	2.63376e-09	3.138335e-08	0.01614399	0.0007707992	2.453968e-09	7.782273e-08	0.02518183	-0.01283007
3.5e+08	0.02226435	-0.01768192	-1.517481e-09	7.415685e-08	0.01489667	-0.002095787	-1.235208e-09	3.399325e-08
	-1.517481e-09	7.415685e-08	0.02249381	-0.0154609	3.174534e-08	3.152654e-07	0.01505568	-0.001044245
	0.01489667	-0.002095787	3.174534e-08	3.152654e-07	0.02212085	-0.01785807	5.772866e-10	8.317009e-08
	-1.235208e-09	3.399325e-08	0.01505568	-0.001044245	5.772866e-10	8.317009e-08	0.02251753	-0.01538812
3.6e+08	0.0187153	-0.01942089	-3.750804e-09	8.03798e-08	0.01317183	-0.003508995	-4.707619e-09	3.773828e-08
	-3.750804e-09	8.03798e-08	0.01922886	-0.0172245	3.149296e-08	3.276008e-07	0.01347031	-0.002475848
	0.01317183	-0.003508995	3.149296e-08	3.276008e-07	0.01852301	-0.01956025	-5.01488e-10	8.918439e-08
	-4.707619e-09	3.773828e-08	0.01347031	-0.002475848	-5.01488e-10	8.918439e-08	0.01924343	-0.01713871
3.7e+08	0.01481672	-0.02015105	-4.885385e-09	8.737274e-08	0.01108772	-0.004376462	-7.471125e-09	4.250826e-08
	-4.885385e-09	8.737274e-08	0.01559419	-0.01805634	3.225748e-08	3.403896e-07	0.01151445	-0.003399206
	0.01108772	-0.004376462	3.225748e-08	3.403896e-07	0.01458647	-0.0202407	-5.907561e-10	9.566486e-08
	-7.471125e-09	4.250826e-08	0.01151445	-0.003399206	-5.907561e-10	9.566486e-08	0.01560284	-0.01795496
3.8e+08	0.01085567	-0.01982151	-4.690832e-09	9.484032e-08	0.008811491	-0.004617331	-9.240526e-09	4.810504e-08
	-4.690832e-09	9.484032e-08	0.01185545	-0.01789864	3.417051e-08	3.533591e-07	0.009344877	-0.003729718
	0.008811491	-0.004617331	3.417051e-08	3.533591e-07	0.01060169	-0.01985174	4.566705e-10	1.023517e-07
	-9.240526e-09	4.810504e-08	0.009344877	-0.003729718	4.566705e-10	1.023517e-07	0.01186207	-0.01778006
3.9e+08	0.007120613	-0.01846049	-3.013946e-09	1.024115e-07	0.006526838	-0.004200826	-9.784227e-09	5.424703e-08
	-3.013946e-09	1.024115e-07	0.00828204	-0.01676672	3.729e-08	3.66194e-07	0.00713612	-0.003429976
	0.006526838	-0.004200826	3.729e-08	3.66194e-07	0.006859598	-0.01842569	2.722277e-09	1.089323e-07
	-9.784227e-09	5.424703e-08	0.00713612	-0.003429976	2.722277e-09	1.089323e-07	0.008290893	-0.01663054
4e+08	0.003880208	-0.01617247	1.923815e-10	1.096587e-07	0.004419251	-0.003149081	-8.951301e-09	6.058276e-08
	1.923815e-10	1.096587e-07	0.005127538	-0.01474704	4.158317e-08	3.785559e-07	0.005066559	-0.002513001
	0.004419251	-0.003149081	4.158317e-08	3.785559e-07	0.003630127	-0.01607178	6.199155e-09	1.150566e-07
	-8.951301e-09	6.058276e-08	0.005066559	-0.002513001	6.199155e-09	1.150566e-07	0.005142881	-0.01459409
4.1e+08	0.001363625	-0.0131298	4.845162e-09	1.161301e-07	0.002661003	-0.001535673	-6.695281e-09	6.671479e-08
	4.845162e-09	1.161301e-07	0.002611398	-0.01198995	4.691531e-08	3.901109e-07	0.003304064	-0.001041405
	0.002661003	-0.001535673	4.691531e-08	3.901109e-07	0.001142361	-0.01296734	1.077302e-08	1.203639e-07
	-6.695281e-09	6.671479e-08	0.003304064	-0.001041405	1.077302e-08	1.203639e-07	0.002637131	-0.01182228
4.2e+08	-0.000256129	-0.009559241	1.071855e-08	1.213931e-07	0.001397104	0.0005200686	-3.090165e-09	7.223285e-08
	1.071855e-08	1.213931e-07	0.0009033155	-0.008697935	5.304841e-08	4.005638e-07	0.001992429	0.0008774858
	0.001397104	0.0005200686	5.304841e-08	4.005638e-07	-0.0004321739	-0.009344027	1.621287e-08	1.245198e-07
	-3.090165e-09	7.223285e-08	0.001992429	0.0008774858	1.621287e-08	1.245198e-07	0.0009426312	-0.008518665
4.3e+08	-0.0008745458	-0.005724586	1.744775e-08	1.250839e-07	0.0007334235	0.002862538	1.665498e-09	7.67533e-08
	1.744775e-08	1.250839e-07	0.0001113993	-0.005110017	5.965251e-08	4.096931e-07	0.001239725	0.003100174
	0.0007334235	0.002862538	5.965251e-08	4.096931e-07	-0.0009917725	-0.00547	2.217628e-08	1.272583e-07
	1.665498e-09	7.67533e-08	0.001239725	0.003100174	2.217628e-08	1.272583e-07	0.0001664976	-0.004923103
4.4e+08	-0.0004627257	-0.001906597	2.455247e-08	1.26956e-07	0.0007279951	0.005312317	7.258944e-09	7.995974e-08
	2.455247e-08	1.26956e-07	0.0002750411	-0.001483712	6.633061e-08	4.173819e-07	0.001109553	0.00545848
	0.0007279951	0.005312317	6.633061e-08	4.173819e-07	-0.0005115104	-0.001629511	2.823219e-08	1.284224e-07
	7.258944e-09	7.995974e-08	0.001109553	0.00545848	2.823219e-08	1.284224e-07	0.0003469116	-0.001293629
4.5e+08	0.0009312439	0.001618145	3.147883e-08	1.269194e-07	0.001386205	0.007680607	1.328804e-08	8.163891e-08
	3.147883e-08	1.269194e-07	0.001362956	0.001924215	7.265506e-08	4.236398e-07	0.001615908	0.007773032
	0.001386205	0.007680607	7.265506e-08	4.236398e-07	0.0009556683	0.001898537	3.389992e-08	1.279963e-07
	1.328804e-08	8.163891e-08	0.001615908	0.007773032	3.389992e-08	1.279963e-07	0.001451267	0.002112835
4.6e+08	0.003186732	0.004597827	3.76549e-08	1.25062e-07	0.002660269	0.009784391	1.929799e-08	8.170612e-08
	3.76549e-08	1.25062e-07	0.003276499	0.004876642	7.821087e-08	4.286096e-07	0.002722066	0.009867623
	0.002660269	0.009784391	7.821087e-08	4.286096e-07	0.003283721	0.004861415	3.869987e-08	1.261199e-07
	1.929799e-08	8.170612e-08	0.002722066	0.009867623	3.869987e-08	1.261199e-07	0.003379591	0.005059401
4.7e+08	0.006120383	0.006823896	4.255178e-08	1.216495e-07	0.004453002	0.01146111	2.482495e-08	8.021645e-08
	4.255178e-08	1.216495e-07	0.005857908	0.007173263	8.263967e-08	4.325585e-07	0.004343554	0.01158325
	0.004453002	0.01146111	8.263967e-08	4.325585e-07	0.006283724	0.00705119	4.220801e-08	1.230847e-07
	2.482495e-08	8.021645e-08	0.004343554	0.01158325	4.220801e-08	1.230847e-07	0.005972962	0.007346353
4.8e+08	0.009500356	0.008146115	4.5741e-08	1.171033e-07	0.006625517	0.01258162	2.944048e-08	7.73597e-08
	4.5741e-08	1.171033e-07	0.008902781	0.008664749	8.567771e-08	4.358537e-07	0.0063549	0.01279072
