!$
! Info: Touchstone file created by Circ.  Input file=Tx_14in_Rx_100ohms_TxVia_60mils_RxVia_70mils.circ
!$
# Hz S RI R 50
0	0.01448911	1.774399e-25	-7.481855e-05	7.308889e-24	9.509433e-05	2.841076e-23	-7.478148e-05	2.84091e-24
	-7.481855e-05	7.308838e-24	0.01448483	2.164518e-25	-7.485338e-05	1.1777e-23	9.423342e-05	3.53628e-23
	9.422686e-05	2.828368e-23	-7.485339e-05	1.177771e-23	0.0145027	1.793794e-25	-7.481565e-05	7.223057e-24
	-7.478148e-05	2.840073e-24	9.450274e-05	3.551445e-23	-7.481564e-05	7.221558e-24	0.01449909	2.155186e-25
1e+07	0.0214347	0.008256252	-0.0002610982	3.896573e-05	0.001009663	0.002573115	-0.000100428	-1.962941e-06
	-0.0002610982	3.896573e-05	0.02163879	0.008229165	-1.064891e-05	0.0001724335	0.001004655	0.002571164
	0.001009647	0.002573129	-1.064891e-05	0.0001724335	0.02166359	0.008231652	-0.0002610909	3.895335e-05
	-0.000100428	-1.962941e-06	0.001004658	0.002571162	-0.0002610909	3.895335e-05	0.02144364	0.008267554
2e+07	0.02836234	0.01064454	-0.0002187535	-5.631179e-05	0.001933176	0.005163164	-8.055238e-05	-7.505378e-06
	-0.0002187535	-5.631179e-05	0.02847066	0.01053398	-4.348633e-05	0.0002948928	0.001914505	0.005163651
	0.001933182	0.005163173	-4.348633e-05	0.0002948928	0.02852596	0.01052963	-0.0002187566	-5.632482e-05
	-8.055238e-05	-7.505378e-06	0.001914502	0.005163651	-0.0002187566	-5.632482e-05	0.02835151	0.01066868
3e+07	0.03418928	0.00990514	-0.0001927253	-8.191676e-05	0.003484865	0.007133956	-7.052952e-05	-1.693116e-05
	-0.0001927253	-8.191676e-05	0.03419988	0.009788795	-0.0001034462	0.0003706775	0.003446099	0.007144442
	0.003484866	0.007133956	-0.0001034462	0.0003706775	0.03430016	0.009760381	-0.0001927444	-8.196117e-05
	-7.052952e-05	-1.693116e-05	0.003446099	0.007144444	-0.0001927444	-8.196117e-05	0.03414577	0.00995363
4e+07	0.03903513	0.00734115	-0.0001759999	-9.30767e-05	0.005525545	0.008488164	-6.335657e-05	-2.09946e-05
	-0.0001759999	-9.30767e-05	0.03894852	0.007259368	-0.0001371589	0.0004365194	0.005463622	0.008518441
	0.005525544	0.008488165	-0.0001371589	0.0004365194	0.03910055	0.007184643	-0.0001760507	-9.316723e-05
	-6.335657e-05	-2.09946e-05	0.005463623	0.008518442	-0.0001760507	-9.316723e-05	0.03895135	0.007429604
5e+07	0.04275685	0.003440237	-0.0001639467	-9.779176e-05	0.007993274	0.009021695	-5.778674e-05	-2.306834e-05
	-0.0001639467	-9.779176e-05	0.042582	0.003428187	-0.0001513929	0.0004979939	0.007909055	0.009082167
	0.007993273	0.009021695	-0.0001513929	0.0004979939	0.04278303	0.003282287	-0.0001640556	-9.793476e-05
	-5.778674e-05	-2.306834e-05	0.007909056	0.009082168	-0.0001640556	-9.793476e-05	0.04263192	0.003587827
6e+07	0.04520092	-0.00140193	-0.0001540076	-9.912007e-05	0.0104472	0.008844624	-5.326701e-05	-2.430893e-05
	-0.0001540076	-9.912007e-05	0.04495626	-0.001314387	-0.0001506267	0.0005553174	0.01034565	0.008945285
	0.01044719	0.008844623	-0.0001506267	0.0005553174	0.04519336	-0.001554607	-0.0001542069	-9.930841e-05
	-5.326701e-05	-2.430893e-05	0.01034565	0.008945285	-0.0001542069	-9.930841e-05	0.04504213	-0.001176128
7e+07	0.04625544	-0.006805949	-0.0001640046	-6.830922e-05	0.01269661	0.007996228	-4.868778e-05	-2.529433e-05
	-0.0001640046	-6.830922e-05	0.04596748	-0.006596465	-0.0001384244	0.0006074158	0.01258638	0.008145092
	0.01269661	0.007996226	-0.0001384244	0.0006074158	0.04621906	-0.006948684	-0.0001643089	-6.850131e-05
	-4.868778e-05	-2.529433e-05	0.01258638	0.008145092	-0.0001643089	-6.850131e-05	0.04607727	-0.006486209
8e+07	0.04587644	-0.01239364	-0.0001738824	-1.16577e-05	0.01456727	0.006564796	-5.035274e-05	-1.268237e-05
	-0.0001738824	-1.16577e-05	0.04557749	-0.01204921	-0.000120139	0.0006530486	0.01445984	0.00676672
	0.01456726	0.006564795	-0.000120139	0.0006530486	0.04581571	-0.01252301	-0.000174284	-1.182171e-05
	-5.035274e-05	-1.268237e-05	0.01445984	0.00676672	-0.000174284	-1.182172e-05	0.04569881	-0.01196968
9e+07	0.04410011	-0.0177958	-0.0001645274	4.499029e-05	0.01591443	0.004682109	-4.903453e-05	4.124312e-06
	-0.0001645274	4.499029e-05	0.04382567	-0.01731401	-0.0001041789	0.0006923231	0.01582301	0.004937916
	0.01591443	0.004682109	-0.0001041789	0.0006923231	0.04401943	-0.01790913	-0.0001650274	4.489056e-05
	-4.903453e-05	4.124312e-06	0.01582301	0.004937916	-0.0001650274	4.489056e-05	0.04394643	-0.0172643
1e+08	0.04105986	-0.02266682	-0.0001298161	9.799042e-05	0.01662693	0.002513108	-4.019309e-05	1.988048e-05
	-0.0001298161	9.799042e-05	0.04084737	-0.02205628	-0.0001163307	0.0007254332	0.01656505	0.002819119
	0.01662693	0.002513108	-0.0001163307	0.0007254332	0.04096558	-0.02276178	-0.0001304025	9.798826e-05
	-4.019309e-05	1.988048e-05	0.01656505	0.002819119	-0.0001304025	9.798826e-05	0.04095477	-0.02203242
1.1e+08	0.03690336	-0.0267918	-8.44995e-05	0.0001138867	0.01667242	0.0002890011	-2.858147e-05	2.425606e-05
	-8.44995e-05	0.0001138867	0.0367827	-0.02608223	-0.0001169976	0.0006854995	0.01665252	0.0006368869
	0.01667242	0.000289001	-0.0001169976	0.0006854995	0.03679696	-0.02687616	-8.517012e-05	0.0001140127
	-2.858147e-05	2.425606e-05	0.01665252	0.0006368871	-8.517012e-05	0.0001140127	0.03687112	-0.02606806
1.2e+08	0.03183224	-0.02982251	-5.012332e-05	0.0001196462	0.01608129	-0.001846748	-2.046577e-05	2.651177e-05
	-5.012332e-05	0.0001196462	0.03182023	-0.0290408	-9.384999e-05	0.0006555112	0.01611299	-0.00146949
	0.01608129	-0.001846749	-9.384999e-05	0.0006555112	0.03170977	-0.02989218	-5.08273e-05	0.0001199421
	-2.046577e-05	2.651177e-05	0.01611299	-0.001469489	-5.08273e-05	0.0001199421	0.03189225	-0.02903054
1.3e+08	0.02618711	-0.03157192	-2.062252e-05	0.0001187119	0.01489269	-0.003718059	-1.358453e-05	2.750833e-05
	-2.062252e-05	0.0001187119	0.02629536	-0.03075073	-6.969763e-05	0.0006304173	0.01498159	-0.003327068
	0.01489269	-0.003718059	-6.969763e-05	0.0006304173	0.02604929	-0.03162154	-2.129865e-05	0.0001191926
	-1.358453e-05	2.750833e-05	0.01498158	-0.003327067	-2.129865e-05	0.0001191926	0.02635202	-0.03073954
1.4e+08	0.0203202	-0.03194634	4.457953e-06	0.0001127324	0.01320384	-0.005167102	-7.553246e-06	2.755187e-05
	4.457953e-06	0.0001127324	0.02055083	-0.03112215	-4.822485e-05	0.0006106712	0.01335052	-0.004779861
	0.01320384	-0.005167102	-4.822485e-05	0.0006106712	0.02017038	-0.03197058	3.872468e-06	0.0001133867
	-7.553246e-06	2.755187e-05	0.01335052	-0.00477986	3.872468e-06	0.0001133867	0.02059375	-0.03110568
1.5e+08	0.01458934	-0.03094467	2.513276e-05	0.0001031531	0.01115411	-0.006070131	-2.203118e-06	2.683425e-05
	2.513276e-05	0.0001031531	0.01493342	-0.0301547	-2.951791e-05	0.000597687	0.01135366	-0.00570436
	0.01115411	-0.006070131	-2.951791e-05	0.000597687	0.01443305	-0.0309391	2.469206e-05	0.0001039454
	-2.203118e-06	2.683425e-05	0.01135366	-0.005704359	2.469206e-05	0.0001039454	0.01496504	-0.0301293
1.6e+08	0.009336571	-0.02865651	4.150797e-05	9.131407e-05	0.008912691	-0.006348075	2.546744e-06	2.548635e-05
	4.150797e-05	9.131407e-05	0.009773801	-0.02793524	-1.180528e-05	0.0005926546	0.009154589	-0.006019972
	0.008912691	-0.006348075	-1.180528e-05	0.0005926546	0.00918106	-0.02861831	4.124794e-05	9.218965e-05
	2.546744e-06	2.548635e-05	0.009154589	-0.006019972	4.124794e-05	9.218965e-05	0.009797274	-0.02789811
1.7e+08	0.004866427	-0.02525475	5.39241e-05	7.839511e-05	0.006664284	-0.005973143	6.735081e-06	2.360615e-05
	5.39241e-05	7.839511e-05	0.005366031	-0.02463041	7.732365e-06	0.0005959185	0.006932987	-0.005695655
	0.006664284	-0.005973143	7.732365e-06	0.0005959185	0.004720093	-0.02518323	5.385565e-05	7.928981e-05
	6.735081e-06	2.360615e-05	0.006932986	-0.005695655	5.385565e-05	7.928981e-05	0.005385006	-0.0245798
1.8e+08	0.001426421	-0.02098296	6.295269e-05	6.532813e-05	0.004593773	-0.004971072	1.037666e-05	2.127363e-05
	6.295269e-05	6.532813e-05	0.001949121	-0.02047427	3.231379e-05	0.0006066554	0.004869744	-0.00475235
	0.004593773	-0.004971072	3.231379e-05	0.0006066554	0.001298098	-0.02087989	6.305961e-05	6.617963e-05
	1.037666e-05	2.127363e-05	0.004869744	-0.00475235	6.305961e-05	6.617963e-05	0.00196747	-0.02040959
1.9e+08	-0.0008087432	-0.01613797	6.931709e-05	5.272659e-05	0.002870923	-0.003418865	1.347138e-05	1.85599e-05
	6.931709e-05	5.272659e-05	-0.0003077569	-0.01575169	6.495554e-05	0.0006228079	0.003132161	-0.003261082
	0.002870923	-0.003418865	6.495554e-05	0.0006228079	-0.0009105675	-0.01600775	6.955906e-05	5.348619e-05
	1.347138e-05	1.85599e-05	0.003132161	-0.003261082	6.955906e-05	5.348619e-05	-0.000286273	-0.01567348
2e+08	-0.001747989	-0.01104906	7.377312e-05	4.085856e-05	0.00163646	-0.001438263	1.601003e-05	1.553354e-05
	7.377312e-05	4.085856e-05	-0.00131537	-0.01077837	0.0001079458	0.0006412404	0.001860349	-0.001336917
	0.00163646	-0.001438263	0.0001079458	0.0006412404	-0.00181597	-0.01089857	7.409363e-05	4.15007e-05
	1.601003e-05	1.553354e-05	0.001860349	-0.001336917	7.409363e-05	4.15007e-05	-0.001287402	-0.01068828
2.1e+08	-0.001388856	-0.00605501	7.698147e-05	2.967311e-05	0.0009906486	0.0008144667	1.797893e-05	1.226514e-05
	7.698147e-05	2.967311e-05	-0.001068985	-0.00587914	0.0001624463	0.0006580823	0.001155997	0.0008706653
	0.0009906486	0.0008144667	0.0001624463	0.0006580823	-0.001417539	-0.005893277	7.731941e-05	3.020078e-05
	1.797893e-05	1.226514e-05	0.001155997	0.0008706653	7.731941e-05	3.020078e-05	-0.001031888	-0.005779685
2.2e+08	0.000183677	-0.001480737	7.939847e-05	1.887849e-05	0.0009853274	0.00316151	1.936443e-05	8.830407e-06
	7.939847e-05	1.887849e-05	0.0003528551	-0.001365772	0.0002282677	0.0006691871	0.001074396	0.00319013
	0.0009853274	0.00316151	0.0002282677	0.0006691871	0.0001972196	-0.001318362	7.970131e-05	1.932319e-05
	1.936443e-05	8.830407e-06	0.001074396	0.00319013	7.970131e-05	1.932319e-05	0.000400802	-0.001260122
2.3e+08	0.002804437	0.002384864	8.120746e-05	8.058007e-06	0.001619994	0.005418127	2.015767e-05	5.311533e-06
	8.120746e-05	8.058007e-06	0.002795256	0.002483889	0.0003038427	0.0006706399	0.001620334	0.005441906
	0.001619994	0.005418127	0.0003038427	0.0006706399	0.00286016	0.002536443	8.144352e-05	8.473911e-06
	2.015767e-05	5.311533e-06	0.001620334	0.005441906	8.144352e-05	8.473911e-06	0.002854715	0.002592214
2.4e+08	0.006240811	0.005308255	8.230331e-05	-3.198177e-06	0.002842198	0.007407677	2.035937e-05	1.796938e-06
	8.230331e-05	-3.198177e-06	0.006039036	0.005444171	0.000386401	0.0006592356	0.002748119	0.007452883
	0.002842198	0.007407677	0.000386401	0.0006592356	0.006335469	0.005437631	8.24708e-05	-2.745097e-06
	2.035937e-05	1.796938e-06	0.002748119	0.007452883	8.24708e-05	-2.745097e-06	0.006109558	0.005551633
2.5e+08	0.01021004	0.007126451	8.233227e-05	-1.516559e-05	0.004552129	0.008975808	1.998405e-05	-1.621202e-06
	8.233227e-05	-1.516559e-05	0.009817017	0.007355888	0.0004723008	0.0006328442	0.004365647	0.0090702
	0.004552129	0.008975808	0.0004723008	0.0006328442	0.01033722	0.007223169	8.246297e-05	-1.461168e-05
	1.998405e-05	-1.621202e-06	0.004365647	0.0090702	8.246297e-05	-1.461168e-05	0.009897092	0.007459254
2.6e+08	0.01439975	0.007757035	8.078003e-05	-2.788866e-05	0.006610927	0.01000271	1.906297e-05	-4.850984e-06
	8.078003e-05	-2.788866e-05	0.0138333	0.008135797	0.0005574757	0.0005906258	0.0063421	0.01017325
	0.006610927	0.01000271	0.0005574757	0.0005906258	0.01455014	0.007812492	8.09367e-05	-2.718753e-05
	1.906297e-05	-4.850984e-06	0.0063421	0.01017325	8.09367e-05	-2.718753e-05	0.0139205	0.00823244
2.7e+08	0.01849017	0.007202398	7.709175e-05	-4.112824e-05	0.008852008	0.01041247	1.764518e-05	-7.806009e-06
	7.709175e-05	-4.112824e-05	0.01778415	0.007780658	0.0006379131	0.0005330592	0.008518589	0.01068302
	0.008852008	0.01041247	0.0006379131	0.0005330592	0.01865216	0.007210637	7.735915e-05	-4.026377e-05
	1.764518e-05	-7.806009e-06	0.008518589	0.01068302	7.735915e-05	-4.026377e-05	0.01787534	0.007868796
2.8e+08	0.02217657	0.005547992	7.080243e-05	-5.436486e-05	0.01109445	0.01017893	1.579644e-05	-1.041068e-05
	7.080243e-05	-5.436486e-05	0.02137899	0.006365707	0.0007101079	0.00046179	0.01072087	0.01056803
	0.01109445	0.01017893	0.0007101079	0.00046179	0.02233699	0.005506345	7.127341e-05	-5.335968e-05
	1.579644e-05	-1.041068e-05	0.01072087	0.01056803	7.127341e-05	-5.335968e-05	0.02147062	0.006444584
2.9e+08	0.02519021	0.002954843	6.165521e-05	-6.685471e-05	0.01315737	0.009327559	1.359597e-05	-1.260493e-05
	6.165521e-05	-6.685471e-05	0.02436008	0.004037797	0.0007714052	0.000379328	0.01277314	0.009846587
	0.01315737	0.009327559	0.0007714052	0.000379328	0.02533528	0.002864324	6.241375e-05	-6.577236e-05
	1.359597e-05	-1.260493e-05	0.01277314	0.009846587	6.241375e-05	-6.577236e-05	0.02444849	0.004107749
3e+08	0.02731649	-0.0003530644	4.968707e-05	-7.773019e-05	0.01487428	0.007933342	1.113179e-05	-1.434735e-05
	4.968707e-05	-7.773019e-05	0.02651957	0.001003765	0.0008201982	0.0002886487	0.01451183	0.008585181
	0.01487428	0.007933342	0.0008201982	0.0002886487	0.02743285	-0.0004876196	5.079143e-05	-7.667004e-05
	1.113179e-05	-1.434735e-05	0.01451183	0.008585181	5.079143e-05	-7.667004e-05	0.02660133	0.001066223
3.1e+08	0.02840907	-0.004105561	3.526617e-05	-8.612849e-05	0.0161062	0.006114834	8.495445e-06	-1.561645e-05
	3.526617e-05	-8.612849e-05	0.02771285	-0.002485063	0.000855961	0.0001927577	0.01579842	0.006893134
	0.0161062	0.006114834	0.000855961	0.0001927577	0.02848486	-0.004275667	3.67349e-05	-8.521393e-05
	8.495445e-06	-1.561645e-05	0.01579842	0.006893134	3.67349e-05	-8.521393e-05	0.02778506	-0.002427689
3.2e+08	0.02839907	-0.008006075	1.907485e-05	-9.132535e-05	0.01675267	0.004024837	5.776685e-06	-1.641013e-05
	1.907485e-05	-9.132535e-05	0.02786732	-0.006151178	0.0008791032	9.429821e-05	0.01653028	0.004914017
	0.01675267	0.004024837	0.0008791032	9.429821e-05	0.02842494	-0.008200059	2.087846e-05	-9.068678e-05
	5.776685e-06	-1.641013e-05	0.01653028	0.004914017	2.087846e-05	-9.068678e-05	0.02792789	-0.006095681
3.3e+08	0.02729875	-0.01175299	2.03954e-06	-9.28529e-05	0.01675985	0.001838406	3.059011e-06	-1.674365e-05
	2.03954e-06	-9.28529e-05	0.02698613	-0.009710676	0.0008906939	-4.746402e-06	0.01664878	0.002814401
	0.01675985	0.001838406	0.0008906939	-4.746402e-06	0.0272687	-0.01195673	4.099553e-06	-9.260825e-05
	3.059011e-06	-1.674365e-05	0.01664878	0.002814401	4.099553e-06	-9.260825e-05	0.02703398	-0.009653324
3.4e+08	0.02519951	-0.01506112	-1.478242e-05	-9.058133e-05	0.01612493	-0.0002609435	4.163329e-07	-1.664657e-05
	-1.478242e-05	-9.058133e-05	0.02514665	-0.01289323	0.0008921003	-0.0001032137	0.01614399	0.0007707992
	0.01612493	-0.0002609435	0.0008921003	-0.0001032137	0.02511155	-0.01525903	-1.258647e-05	-9.081719e-05
	4.163329e-07	-1.664657e-05	0.01614399	0.0007707992	-1.258647e-05	-9.081719e-05	0.02518183	-0.01283007
3.5e+08	0.02226435	-0.01768192	-3.033985e-05	-8.474922e-05	0.01489667	-0.002095787	-2.089383e-06	-1.615923e-05
	-3.033985e-05	-8.474922e-05	0.02249381	-0.0154609	0.0008845963	-0.0002007501	0.01505568	-0.001044245
	0.01489667	-0.002095787	0.0008845963	-0.0002007501	0.02212085	-0.01785807	-2.815611e-05	-8.550594e-05
	-2.089383e-06	-1.615923e-05	0.01505568	-0.001044245	-2.815611e-05	-8.550594e-05	0.02251753	-0.01538812
3.6e+08	0.0187153	-0.01942089	-4.372787e-05	-7.593742e-05	0.01317183	-0.003508995	-4.409218e-06	-1.532896e-05
	-4.372787e-05	-7.593742e-05	0.01922886	-0.0172245	0.0008690191	-0.0002976509	0.01347031	-0.002475848
	0.01317183	-0.003508995	0.0008690191	-0.0002976509	0.01852301	-0.01956025	-4.171273e-05	-7.720081e-05
	-4.409218e-06	-1.532896e-05	0.01347031	-0.002475848	-4.171273e-05	-7.720081e-05	0.01924343	-0.01713871
3.7e+08	0.01481672	-0.02015105	-5.430677e-05	-6.498898e-05	0.01108772	-0.004376462	-6.507505e-06	-1.420638e-05
	-5.430677e-05	-6.498898e-05	0.01559419	-0.01805634	0.0008455254	-0.0003945659	0.01151445	-0.003399206
	0.01108772	-0.004376462	0.0008455254	-0.0003945659	0.01458647	-0.0202407	-5.26033e-05	-6.669037e-05
	-6.507505e-06	-1.420638e-05	0.01151445	-0.003399206	-5.26033e-05	-6.669037e-05	0.01560284	-0.01795496
3.8e+08	0.01085567	-0.01982151	-6.178042e-05	-5.288794e-05	0.008811491	-0.004617331	-8.360961e-06	-1.284183e-05
	-6.178042e-05	-5.288794e-05	0.01185545	-0.01789864	0.0008134925	-0.000492133	0.009344877	-0.003729718
	0.008811491	-0.004617331	0.0008134925	-0.000492133	0.01060169	-0.01985174	-6.04982e-05	-5.491287e-05
	-8.360961e-06	-1.284183e-05	0.009344877	-0.003729718	-6.04982e-05	-5.491287e-05	0.01186207	-0.01778006
3.9e+08	0.007120613	-0.01846049	-6.621995e-05	-4.06165e-05	0.006526838	-0.004200826	-9.95683e-06	-1.128228e-05
	-6.621995e-05	-4.06165e-05	0.00828204	-0.01676672	0.0007715814	-0.000590601	0.00713612	-0.003429976
	0.006526838	-0.004200826	0.0007715814	-0.000590601	0.006859598	-0.01842569	-6.541976e-05	-4.282104e-05
	-9.95683e-06	-1.128228e-05	0.00713612	-0.003429976	-6.541976e-05	-4.282104e-05	0.008290893	-0.01663054
4e+08	0.003880208	-0.01617247	-6.802843e-05	-2.901484e-05	0.004419251	-0.003149081	-1.12901e-05	-9.569115e-06
	-6.802843e-05	-2.901484e-05	0.005127538	-0.01474704	0.0007179556	-0.0006895044	0.005066559	-0.002513001
	0.004419251	-0.003149081	0.0007179556	-0.0006895044	0.003630127	-0.01607178	-6.77146e-05	-3.124679e-05
	-1.12901e-05	-9.569115e-06	0.005066559	-0.002513001	-6.77146e-05	-3.124679e-05	0.005142881	-0.01459409
4.1e+08	0.001363625	-0.0131298	-6.785251e-05	-1.866712e-05	0.002661003	-0.001535673	-1.236007e-05	-7.737092e-06
	-6.785251e-05	-1.866712e-05	0.002611398	-0.01198995	0.0006506169	-0.0007874557	0.003304064	-0.001041405
	0.002661003	-0.001535673	0.0006506169	-0.0007874557	0.001142361	-0.01296734	-6.797441e-05	-2.078887e-05
	-1.236007e-05	-7.737092e-06	0.003304064	-0.001041405	-6.797441e-05	-2.078887e-05	0.002637131	-0.01182228
4.2e+08	-0.000256129	-0.009559241	-6.645612e-05	-9.833406e-06	0.001397104	0.0005200686	-1.31668e-05	-5.814941e-06
	-6.645612e-05	-9.833406e-06	0.0009033155	-0.008697935	0.0005678075	-0.0008820858	0.001992429	0.0008774858
	0.001397104	0.0005200686	0.0005678075	-0.0008820858	-0.0004321739	-0.009344027	-6.691881e-05	-1.174242e-05
	-1.31668e-05	-5.814941e-06	0.001992429	0.0008774858	-6.691881e-05	-1.174242e-05	0.0009426312	-0.008518665
4.3e+08	-0.0008745458	-0.005724586	-6.457838e-05	-2.439217e-06	0.0007334235	0.002862538	-1.370829e-05	-3.82748e-06
	-6.457838e-05	-2.439217e-06	0.0001113993	-0.005110017	0.0004684128	-0.0009701526	0.001239725	0.003100174
	0.0007334235	0.002862538	0.0004684128	-0.0009701526	-0.0009917725	-0.00547	-6.526081e-05	-4.082676e-06
	-1.370829e-05	-3.82748e-06	0.001239725	0.003100174	-6.526081e-05	-4.082676e-06	0.0001664976	-0.004923103
4.4e+08	-0.0004627257	-0.001906597	-6.280089e-05	3.87629e-06	0.0007279951	0.005312317	-1.397899e-05	-1.798944e-06
	-6.280089e-05	3.87629e-06	0.0002750411	-0.001483712	0.0003522963	-0.001047802	0.001109553	0.00545848
	0.0007279951	0.005312317	0.0003522963	-0.001047802	-0.0005115104	-0.001629511	-6.35787e-05	2.495514e-06
	-1.397899e-05	-1.798944e-06	0.001109553	0.00545848	-6.35787e-05	2.495514e-06	0.0003469116	-0.001293629
4.5e+08	0.0009312439	0.001618145	-6.144764e-05	9.662529e-06	0.001386205	0.007680607	-1.397037e-05	2.433075e-07
	-6.144764e-05	9.662529e-06	0.001362956	0.001924215	0.0002205121	-0.001110945	0.001615908	0.007773032
	0.001386205	0.007680607	0.0002205121	-0.001110945	0.0009556683	0.001898537	-6.221666e-05	8.489706e-06
	-1.397037e-05	2.433075e-07	0.001615908	0.007773032	-6.221666e-05	8.489706e-06	0.001451267	0.002112835
4.6e+08	0.003186732	0.004597827	-6.053454e-05	1.552834e-05	0.002660269	0.009784391	-1.367311e-05	2.265806e-06
	-6.053454e-05	1.552834e-05	0.003276499	0.004876642	7.535399e-05	-0.001155695	0.002722066	0.009867623
	0.002660269	0.009784391	7.535399e-05	-0.001155695	0.003283721	0.004861415	-6.123105e-05	1.447008e-05
	-1.367311e-05	2.265806e-06	0.002722066	0.009867623	-6.123105e-05	1.447008e-05	0.003379591	0.005059401
4.7e+08	0.006120383	0.006823896	-5.977696e-05	2.200429e-05	0.004453002	0.01146111	-1.307998e-05	4.227883e-06
	-5.977696e-05	2.200429e-05	0.005857908	0.007173263	-7.974772e-05	-0.00117879	0.004343554	0.01158325
	0.004453002	0.01146111	-7.974772e-05	-0.00117879	0.006283724	0.00705119	-6.039045e-05	2.094942e-05
