!$
! Info: Touchstone file created by Circ.  Input file=Tx_12in_Rx_93ohms_TxVia_60mils_RxVia_70mils.circ
!$
# Hz S RI R 50
0	0.01103863	1.618395e-25	-6.445441e-05	7.435622e-24	8.381551e-05	2.178657e-23	-6.449006e-05	1.196571e-23
	-6.44544e-05	7.434803e-24	0.01103387	1.908788e-25	-6.441673e-05	2.968888e-24	8.402139e-05	2.690015e-23
	8.479568e-05	2.216847e-23	-6.441672e-05	2.967465e-24	0.01105248	1.549105e-25	-6.444785e-05	6.945666e-24
	-6.449005e-05	1.196421e-23	8.42909e-05	2.701551e-23	-6.444786e-05	6.946407e-24	0.01104823	1.900488e-25
1e+07	0.0163148	-0.0007170328	-0.0003192907	-6.936865e-05	0.0004313946	0.002080606	-0.000168874	0.0001590238
	-0.0003192907	-6.936865e-05	0.0160415	-0.001417456	-4.432362e-06	-9.531092e-06	0.0004503097	0.002271495
	0.0004314036	0.002080573	-4.432363e-06	-9.531088e-06	0.01517487	-0.001267027	-1.77582e-05	1.49272e-06
	-0.000168874	0.0001590238	0.0004503125	0.002271493	-1.77582e-05	1.492717e-06	0.01572628	-0.001414257
2e+07	0.01930454	-0.006032522	-0.0003215752	3.310377e-05	0.001298629	0.004084802	-0.0001996875	0.0001946805
	-0.0003215752	3.310377e-05	0.01827237	-0.006981624	-5.448757e-06	-5.220136e-06	0.001205753	0.004445317
	0.001298602	0.004084801	-5.448754e-06	-5.220136e-06	0.01779358	-0.006452534	-8.869006e-06	-3.051758e-05
	-0.0001996875	0.0001946805	0.00120575	0.004445317	-8.869009e-06	-3.051757e-05	0.01803992	-0.006870858
3e+07	0.0195719	-0.01296996	-0.0003173256	9.423567e-05	0.002601549	0.005806328	-0.0002073737	0.0002330935
	-0.0003173256	9.423567e-05	0.01795751	-0.01376255	-1.246807e-05	-6.607388e-06	0.002503365	0.006241807
	0.002601547	0.005806332	-1.246807e-05	-6.607389e-06	0.01780726	-0.01317694	-2.960659e-05	-3.350726e-05
	-0.0002073737	0.0002330935	0.002503364	0.006241808	-2.960659e-05	-3.350726e-05	0.01778444	-0.01363065
4e+07	0.01762837	-0.020009	-0.0003048724	0.0001499293	0.004259106	0.007145118	-0.0002019333	0.0002643067
	-0.0003048724	0.0001499293	0.01556809	-0.02046519	-1.77537e-05	-4.56727e-06	0.00421526	0.00760571
	0.004259105	0.007145114	-1.77537e-05	-4.56727e-06	0.01570614	-0.0199429	-4.70204e-05	-2.820318e-05
	-0.0002019333	0.0002643067	0.004215261	0.007605711	-4.702041e-05	-2.820318e-05	0.0154385	-0.02033581
5e+07	0.01380151	-0.02647487	-0.0002854267	0.0002009005	0.006163278	0.008025556	-0.0001892458	0.0002867091
	-0.0002854267	0.0002009005	0.01142987	-0.02647845	-2.148486e-05	-7.397821e-07	0.006161864	0.008494698
	0.006163276	0.008025554	-2.148486e-05	-7.39782e-07	0.01181055	-0.02610324	-6.084032e-05	-1.744208e-05
	-0.0001892458	0.0002867091	0.006161865	0.008494698	-6.084032e-05	-1.744208e-05	0.01132915	-0.02636273
6e+07	0.008432065	-0.03189834	-0.0002744269	0.0002302806	0.00819065	0.008403218	-0.000174458	0.0003000327
	-0.0002744269	0.0002302806	0.005887886	-0.03137609	-2.375104e-05	4.300919e-06	0.008220545	0.008871876
	0.008190652	0.008403222	-2.375104e-05	4.300919e-06	0.006456481	-0.03121073	-7.056138e-05	-2.709154e-06
	-0.000174458	0.0003000327	0.008220546	0.008871876	-7.056138e-05	-2.709153e-06	0.00580287	-0.03127866
7e+07	0.001899373	-0.03594367	-0.0002600115	0.0002598077	0.01021167	0.008266832	-0.0001622564	0.0003049549
	-0.0002600115	0.0002598077	-0.0006752124	-0.03485869	-2.445144e-05	1.002258e-05	0.01026275	0.008730414
	0.01021168	0.008266837	-2.445144e-05	1.002258e-05	1.810553e-05	-0.03494793	-7.563025e-05	1.479822e-05
	-0.0001622564	0.0003049549	0.01026276	0.008730414	-7.563024e-05	1.479822e-05	-0.0007562759	-0.03477999
8e+07	-0.00538533	-0.03839193	-0.000242379	0.0002886724	0.01209957	0.007638305	-0.0001571838	0.0003033778
	-0.000242379	0.0002886724	-0.007847118	-0.03673976	-2.351662e-05	1.608708e-05	0.01216244	0.008094692
	0.01209959	0.007638307	-2.351663e-05	1.608708e-05	-0.007098903	-0.03711101	-7.55249e-05	3.393706e-05
	-0.0001571838	0.0003033778	0.01216244	0.008094692	-7.55249e-05	3.393706e-05	-0.007934445	-0.03667709
9e+07	-0.01299693	-0.03913619	-0.0002222721	0.0003160307	0.01373953	0.00657099	-0.0001640768	0.0002980272
	-0.0002222721	0.0003160307	-0.01520092	-0.03694064	-2.078839e-05	2.221741e-05	0.01380392	0.007018783
	0.01373954	0.00657099	-2.078839e-05	2.221741e-05	-0.01447317	-0.0376046	-6.96761e-05	5.360435e-05
	-0.0001640768	0.0002980272	0.01380392	0.007018783	-6.96761e-05	5.360435e-05	-0.0153032	-0.03688905
1e+08	-0.02053443	-0.0381832	-0.0002034384	0.0003402672	0.01504588	0.00514975	-0.0001955273	0.0002895809
	-0.0002034384	0.0003402672	-0.02229592	-0.03547956	-1.541079e-05	2.834752e-05	0.01508864	0.005582277
	0.01504588	0.00514975	-1.541079e-05	2.834752e-05	-0.02168126	-0.03643548	-5.603891e-05	7.322433e-05
	-0.0001955273	0.0002895809	0.01508864	0.005582277	-5.603891e-05	7.322433e-05	-0.02242313	-0.03543368
1.1e+08	-0.02757655	-0.03551168	-0.0001771679	0.000351151	0.01590051	0.003512544	-0.000221896	0.0002518716
	-0.0001771679	0.000351151	-0.02876593	-0.03260901	-8.214579e-06	3.027462e-05	0.01593989	0.003890129
	0.01590051	0.003512544	-8.214579e-06	3.027462e-05	-0.02833836	-0.03375114	-3.67681e-05	8.236313e-05
	-0.000221896	0.0002518716	0.01593988	0.003890129	-3.67681e-05	8.236313e-05	-0.02892232	-0.03254489
1.2e+08	-0.03367315	-0.03140835	-0.000144221	0.0003614918	0.01626144	0.001715315	-0.0002433451	0.0002310851
	-0.000144221	0.0003614918	-0.03437789	-0.02842837	-2.314799e-06	3.067433e-05	0.01631525	0.002057873
	0.01626144	0.001715315	-2.314799e-06	3.067433e-05	-0.03413443	-0.02970865	-1.951618e-05	8.675671e-05
	-0.0002433451	0.0002310851	0.01631525	0.002057874	-1.951618e-05	8.675671e-05	-0.03455123	-0.02833706
1.3e+08	-0.0385625	-0.02616081	-0.0001085358	0.000368939	0.0161255	-0.0001088925	-0.0002676777	0.000223854
	-0.0001085358	0.000368939	-0.03882395	-0.02318669	3.003311e-06	3.01158e-05	0.01619793	0.0002065383
	0.0161255	-0.0001088926	3.003311e-06	3.01158e-05	-0.03877496	-0.02456333	-3.035099e-06	8.760062e-05
	-0.0002676777	0.000223854	0.01619792	0.0002065393	-3.035099e-06	8.760062e-05	-0.03900489	-0.02306388
1.4e+08	-0.0420377	-0.02009785	-7.142579e-05	0.0003727314	0.01550854	-0.001834639	-0.0002933913	0.000230411
	-7.142579e-05	0.0003727314	-0.04189469	-0.01720099	5.371345e-06	2.901599e-05	0.01560143	-0.001542832
	0.01550854	-0.00183464	5.371345e-06	2.901599e-05	-0.04204663	-0.0186299	1.240304e-05	8.531478e-05
	-0.0002933913	0.000230411	0.01560142	-0.001542831	1.240304e-05	8.531478e-05	-0.04207428	-0.01704519
1.5e+08	-0.04397318	-0.01358111	-3.391364e-05	0.0003725506	0.01445428	-0.003345778	-0.0003174254	0.0002507057
	-3.391364e-05	0.0003725506	-0.04346857	-0.01082482	7.679845e-06	2.778577e-05	0.014568	-0.003076918
	0.01445428	-0.003345779	7.679845e-06	2.778577e-05	-0.04382009	-0.01225983	2.633276e-05	8.030346e-05
	-0.0003174254	0.0002507057	0.014568	-0.003076917	2.633276e-05	8.030346e-05	-0.0436383	-0.01063702
1.6e+08	-0.04433083	-0.006985974	3.164359e-06	0.0003683984	0.01303228	-0.004541356	-0.0003362765	0.000283804
	3.164359e-06	0.0003683984	-0.04351389	-0.004425864	9.918932e-06	2.640937e-05	0.0131657	-0.004296684
	0.01303228	-0.004541356	9.918932e-06	2.640937e-05	-0.04405389	-0.005820399	3.834882e-05	7.308307e-05
	-0.0003362765	0.000283804	0.0131657	-0.004296683	3.834882e-05	7.308307e-05	-0.04366612	-0.004209267
1.7e+08	-0.0431603	-0.0006813921	3.91242e-05	0.0003604873	0.01133375	-0.005341068	-0.0003466061	0.000327767
	3.91242e-05	0.0003604873	-0.04208746	0.001635552	1.205396e-05	2.488445e-05	0.011484	-0.005122954
	0.01133375	-0.005341068	1.205396e-05	2.488445e-05	-0.0427942	0.0003259819	4.816828e-05	6.424698e-05
	-0.0003466061	0.000327767	0.011484	-0.005122953	4.816828e-05	6.424698e-05	-0.04221586	0.00187584
1.8e+08	-0.04059428	0.004989762	7.344427e-05	0.0003491685	0.009466066	-0.00568962	-0.0003456778	0.0003797533
	7.344427e-05	0.0003491685	-0.03932895	0.007026645	1.406151e-05	2.321579e-05	0.009628439	-0.005500783
	0.009466066	-0.00568962	1.406151e-05	2.321579e-05	-0.04017003	0.00584171	5.566937e-05	5.442304e-05
	-0.0003456778	0.0003797533	0.009628439	-0.005500783	5.566937e-05	5.442304e-05	-0.03942884	0.007284014
1.9e+08	-0.0368396	0.009728586	0.00010577	0.0003348661	0.007546392	-0.005559718	-0.0003316702	0.0004362653
	0.00010577	0.0003348661	-0.03545112	0.01146031	1.592553e-05	2.141088e-05	0.007714308	-0.005402462
	0.007546392	-0.005559718	1.592553e-05	2.141088e-05	-0.03638439	0.01043205	6.090284e-05	4.421965e-05
	-0.0003316702	0.0004362653	0.007714308	-0.005402462	6.090284e-05	4.421965e-05	-0.03551978	0.01172712
2e+08	-0.03216452	0.0132955	0.000135905	0.0003180154	0.005694719	-0.004953505	-0.0003038578	0.0004934828
	0.000135905	0.0003180154	-0.03072637	0.01471035	1.763446e-05	1.947728e-05	0.00585997	-0.004829001
	0.005694719	-0.004953505	1.763446e-05	1.947728e-05	-0.03170169	0.0138606	6.407891e-05	3.417163e-05
	-0.0003038578	0.0004934828	0.00585997	-0.004829001	6.407891e-05	3.417163e-05	-0.0307632	0.01497847
2.1e+08	-0.02688258	0.01552291	0.0001637863	0.000299011	0.004020518	-0.003909811	-0.0002626565	0.0005476357
	0.0001637863	0.000299011	-0.02547039	0.0166232	1.917232e-05	1.74164e-05	0.004179913	-0.003810048
	0.004020518	-0.003909811	1.917232e-05	1.74164e-05	-0.02643161	0.01596208	6.549674e-05	2.464177e-05
	-0.0002626565	0.0005476357	0.004179914	-0.003810048	6.549674e-05	2.464177e-05	-0.02547699	0.01688454
2.2e+08	-0.02133501	0.01632166	0.0001894474	0.0002781672	0.00262879	-0.002483532	-0.0002095297	0.0005953616
	0.0001894474	0.0002781672	-0.0200236	0.01712543	2.052737e-05	1.52352e-05	0.002778012	-0.002402186
	0.00262879	-0.002483532	2.052737e-05	1.52352e-05	-0.02091168	0.01664886	6.554651e-05	1.590557e-05
	-0.0002095297	0.0005953616	0.002778012	-0.002402186	6.554651e-05	1.590557e-05	-0.02000363	0.01737252
2.3e+08	-0.01587238	0.01568498	0.0002129719	0.0002556965	0.001615755	-0.0007480153	-0.0001467826	0.0006340054
	0.0002129719	0.0002556965	-0.01473149	0.0162268	2.169479e-05	1.294545e-05	0.001741308	-0.0006856852
	0.001615755	-0.0007480153	2.169479e-05	1.294545e-05	-0.01548896	0.01591508	6.471118e-05	8.132577e-06
	-0.0001467826	0.0006340054	0.001741308	-0.0006856852	6.471118e-05	8.132577e-06	-0.01469053	0.01645328
2.4e+08	-0.01083377	0.01368944	0.0002344423	0.0002317063	0.001046465	0.001193026	-7.726844e-05	0.000661838
	0.0002344423	0.0002317063	-0.009924921	0.01401864	2.265953e-05	1.055355e-05	0.001134678	0.001240179
	0.001046465	0.001193026	2.265953e-05	1.055355e-05	-0.01049929	0.01383763	6.340047e-05	1.261548e-06
	-7.726844e-05	0.000661838	0.001134678	0.001240179	6.340047e-05	1.261548e-06	-0.009870071	0.01421973
2.5e+08	-0.006528203	0.01048865	0.000253895	0.0002062151	0.0009584375	0.003222846	-4.04021e-06	0.0006781465
	0.000253895	0.0002062151	-0.005901307	0.01066763	2.340368e-05	8.069215e-06	0.0009967343	0.003263025
	0.0009584375	0.003222846	2.340368e-05	8.069215e-06	-0.006248699	0.01056999	6.193419e-05	-4.901939e-06
	-4.04021e-06	0.0006781465	0.0009967343	0.003263025	6.193419e-05	-4.901939e-06	-0.005840776	0.01084048
2.6e+08	-0.003217551	0.006303751	0.0002712836	0.0001791845	0.001359125	0.005218797	7.000407e-05	0.0006832045
	0.0002712836	0.0001791845	-0.002907868	0.00640537	2.390733e-05	5.507148e-06	0.00133725	0.005264171
	0.001359125	0.005218797	2.390733e-05	5.507148e-06	-0.002996422	0.006332806	6.050268e-05	-1.064073e-05
	7.000407e-05	0.0006832045	0.00133725	0.005264171	6.050268e-05	-1.064073e-05	-0.002850493	0.006549293
2.7e+08	-0.001102235	0.001410041	0.0002864603	0.0001505638	0.00222523	0.007059963	0.0001424342	0.0006781201
	0.0002864603	0.0001505638	-0.001128023	0.001514278	2.415082e-05	2.888114e-06	0.002136336	0.00712596
	0.00222523	0.007059963	2.415082e-05	2.888114e-06	-0.0009405413	0.001400584	5.914609e-05	-1.626944e-05
	0.0001424342	0.0006781201	0.002136336	0.00712596	5.914609e-05	-1.626944e-05	-0.001082615	0.001630875
2.8e+08	-0.0003104734	-0.003879277	0.000299174	0.0001203386	0.003503957	0.008634814	0.0002115303	0.0006645888
	0.000299174	0.0001203386	-0.00067133	-0.00368929	2.411618e-05	2.392119e-07	0.00334549	0.008739132
	0.003503957	0.008634814	2.411618e-05	2.392119e-07	-0.0002072567	-0.003914482	5.775598e-05	-2.207463e-05
	0.0002115303	0.0006645888	0.00334549	0.008739132	5.775598e-05	-2.207463e-05	-0.0006461217	-0.0035962
2.9e+08	-0.0008917515	-0.009231441	0.0003090885	8.857726e-05	0.005116199	0.009848363	0.0002764102	0.0006445792
	0.0003090885	8.857726e-05	-0.001567934	-0.008873793	2.378923e-05	-2.406455e-06	0.004890501	0.01000977
	0.005116199	0.009848363	2.378923e-05	-2.406455e-06	-0.0008443417	-0.009280798	5.609892e-05	-2.825924e-05
	0.0002764102	0.0006445792	0.004890501	0.01000977	5.609892e-05	-2.825924e-05	-0.00157004	-0.008798365
3e+08	-0.002814854	-0.01431342	0.0003158182	5.546736e-05	0.006961472	0.01062832	0.0003370383	0.0006200004
	0.0003158182	5.546736e-05	-0.003767676	-0.01371196	2.316133e-05	-5.010669e-06	0.00667606	0.0108653
	0.006961472	0.01062832	2.316133e-05	-5.010669e-06	-0.002819152	-0.01436659	5.38593e-05	-3.489996e-05
	0.0003370383	0.0006200004	0.00667606	0.0108653	5.38593e-05	-3.489996e-05	-0.0038026	-0.01364667
3.1e+08	-0.005970556	-0.01881099	0.0003189774	2.133588e-05	0.008924303	0.01092983	0.0003941186	0.0005923903
	0.0003189774	2.133588e-05	-0.007143889	-0.01789982	2.223102e-05	-7.531429e-06	0.008591782	0.01125915
	0.008924303	0.01092983	2.223102e-05	-7.531429e-06	-0.006021295	-0.018859	5.06951e-05	-4.192401e-05
	0.0003941186	0.0005923903	0.008591782	0.01125915	5.06951e-05	-4.192401e-05	-0.007215135	-0.01783586
3.2e+08	-0.01017876	-0.0224466	0.0003182327	-1.335019e-05	0.01088163	0.01073832	0.0004488753	0.0005626708
	0.0003182327	-1.335019e-05	-0.01150162	-0.02117405	2.100497e-05	-9.924697e-06	0.01051923	0.01117371
	0.01088163	0.01073832	2.100497e-05	-9.924697e-06	-0.01026974	-0.02248179	4.629841e-05	-4.910819e-05
	0.0004488753	0.0005626708	0.01051923	0.01117371	4.629841e-05	-4.910819e-05	-0.01161041	-0.02110195
3.3e+08	-0.0151996	-0.02499477	0.0003133542	-4.800337e-05	0.01271071	0.01007048	0.0005027653	0.0005310004
	0.0003133542	-4.800337e-05	-0.0165897	-0.0233269	1.949879e-05	-1.214641e-05	0.01233947	0.01062133
	0.01271071	0.01007048	1.949879e-05	-1.214641e-05	-0.01532389	-0.02501091	4.045212e-05	-5.610098e-05
	0.0005027653	0.0005310004	0.01233947	0.01062133	4.045212e-05	-5.610098e-05	-0.01673487	-0.02323702
3.4e+08	-0.02074782	-0.02629445	0.000304257	-8.195364e-05	0.01429697	0.008973084	0.000557162	0.0004967384
	0.000304257	-8.195364e-05	-0.02211592	-0.0242175	1.77372e-05	-1.415474e-05	0.01394056	0.009643477
	0.01429697	0.008973084	1.77372e-05	-1.415474e-05	-0.02089795	-0.02628667	3.307404e-05	-6.246443e-05
	0.000557162	0.0004967384	0.01394056	0.009643477	3.307404e-05	-6.246443e-05	-0.02229391	-0.0241007
3.5e+08	-0.0265095	-0.02625744	0.0002910249	-0.0001144983	0.01554121	0.007519866	0.00061304	0.0004585337
	0.0002910249	-0.0001144983	-0.02776435	-0.02377926	1.575361e-05	-1.591245e-05	0.01522457	0.00830785
	0.01554121	0.007519866	1.575361e-05	-1.591245e-05	-0.02667765	-0.02622225	2.424258e-05	-6.772917e-05
	0.00061304	0.0004585337	0.01522457	0.00830785	2.424258e-05	-6.772917e-05	-0.0279694	-0.02362748
3.6e+08	-0.03216018	-0.02487261	0.0002739161	-0.0001449586	0.01636585	0.005806726	0.0006707196	0.0004145152
	0.0002739161	-0.0001449586	-0.03321369	-0.02202293	1.358894e-05	-1.738925e-05	0.01611355	0.006704012
	0.01636585	0.005806726	1.358894e-05	-1.738925e-05	-0.0323383	-0.02480791	1.420021e-05	-7.145516e-05
	0.0006707196	0.0004145152	0.01611355	0.006704012	1.420021e-05	-7.145516e-05	-0.03343815	-0.02182969
3.7e+08	-0.03738324	-0.02220574	0.0002533484	-0.000172733	0.01671956	0.003945567	0.000729692	0.0003625688
	0.0002533484	-0.000172733	-0.03815574	-0.01903507	1.128973e-05	-1.856382e-05	0.01655416	0.004937632
	0.01671956	0.003945567	1.128973e-05	-1.856382e-05	-0.03756326	-0.02211082	3.33472e-06	-7.328927e-05
	0.000729692	0.0003625688	0.01655416	0.004937632	3.33472e-06	-7.328927e-05	-0.03839053	-0.01879593
3.8e+08	-0.04188766	-0.01839509	0.0002298668	-0.0001973433	0.01658027	0.002057244	0.0007885551	0.0003006564
	0.0002298668	-0.0001973433	-0.04231275	-0.01497247	8.905485e-06	-1.942519e-05	0.01652073	0.003123872
	0.01658027	0.002057244	8.905485e-06	-1.942519e-05	-0.04206164	-0.0182706	-7.858972e-06	-7.301212e-05
	0.0007885551	0.0003006564	0.01652073	0.003123872	-7.858972e-06	-7.301212e-05	-0.04254788	-0.01468531
3.9e+08	-0.04542403	-0.01364301	0.0002040977	-0.0002184656	0.01595628	0.0002640839	0.0008450654	0.0002271404
	0.0002040977	-0.0002184656	-0.0454529	-0.01005257	6.485647e-06	-1.997322e-05	0.0160165	0.001380326
	0.01595628	0.0002640839	6.485647e-06	-1.997322e-05	-0.04558435	-0.01349096	-1.883079e-05	-7.056809e-05
	0.0008450654	0.0002271404	0.0160165	0.001380326	-1.883079e-05	-7.056809e-05	-0.04567807	-0.009717793
4e+08	-0.04779816	-0.008204177	0.0001766968	-0.0002359432	0.01488557	-0.001317551	0.0008963009	0.0001410759
	0.0001766968	-0.0002359432	-0.04740293	-0.00454069	4.076414e-06	-2.021792e-05	0.01507317	-0.0001800515
	0.01488557	-0.001317551	4.076414e-06	-2.021792e-05	-0.04793771	-0.008027917	-2.903434e-05	-6.607502e-05
	0.0008963009	0.0001410759	0.01507317	-0.0001800515	-2.903434e-05	-6.607502e-05	-0.04760817	-0.004161214
4.1e+08	-0.04888143	-0.00237111	0.0001482962	-0.0002497821	0.01343327	-0.002584217	0.0009389154	4.242668e-05
	0.0001482962	-0.0002497821	-0.0480575	0.00126519	1.718027e-06	-2.01777e-05	0.01374881	-0.001455605
	0.01343327	-0.002584217	1.718027e-06	-2.01777e-05	-0.04899382	-0.002175232	-3.798505e-05	-5.981295e-05
	0.0009389154	4.242668e-05	0.01374881	-0.001455605	-3.798505e-05	-5.981295e-05	-0.04823376	0.001684061
4.2e+08	-0.0486176	0.003542259	0.000119457	-0.0002601285	0.0116877	-0.003451494	0.0009694532	-6.781482e-05
	0.000119457	-0.0002601285	-0.04738459	0.007051326	-5.571437e-07	-1.987676e-05	0.01212425	-0.002361892
	0.0116877	-0.003451494	-5.571437e-07	-1.987676e-05	-0.04869739	0.003751992	-4.531038e-05	-5.219372e-05
	0.0009694532	-6.781482e-05	0.01212425	-0.002361892	-4.531038e-05	-5.219372e-05	-0.04752434	0.007502195
4.3e+08	-0.04702554	0.009218013	9.06343e-05	-0.0002672328	0.009755029	-0.003858918	0.0009846908	-0.0001876154
	9.06343e-05	-0.0002672328	-0.04542698	0.01250584	-2.725341e-06	-1.93419e-05	0.01029826	-0.002836544
	0.009755029	-0.003858918	-2.725341e-06	-1.93419e-05	-0.04706845	0.009434822	-5.078632e-05	-4.371557e-05
	0.0009846908	-0.0001876154	0.01029826	-0.002836544	-5.078632e-05	-4.371557e-05	-0.04552465	0.01297962
4.4e+08	-0.044198	0.0143518	6.215594e-05	-0.0002714043	0.007753042	-0.003773529	0.0009819634	-0.0003140058
	6.215594e-05	-0.0002714043	-0.04229953	0.01733607	-4.770886e-06	-1.859946e-05	0.008381757	-0.002842858
	0.007753042	-0.003773529	-4.770886e-06	-1.859946e-05	-0.04420113	0.01456808	-5.435615e-05	-3.490854e-05
	0.0009819634	-0.0003140058	0.008381757	-0.002842858	-5.435615e-05	-3.490854e-05	-0.0423519	0.01782252
4.5e+08	-0.04029627	0.01866961	3.421863e-05	-0.0002729646	0.005804229	-0.003191849	0.0009595311	-0.0004431849
	3.421863e-05	-0.0002729646	-0.03818255	0.02128488	-6.684523e-06	-1.767277e-05	0.006491378	-0.002371942
	0.005804229	-0.003191849	-6.684523e-06	-1.767277e-05	-0.04025826	0.01887719	-5.612986e-05	-2.627841e-05
	0.0009595311	-0.0004431849	0.006491378	-0.002371942	-5.612986e-05	-2.627841e-05	-0.03818898	0.02177319
4.6e+08	-0.03554127	0.02194293	6.96463e-06	-0.0002719963	0.004028617	-0.002140222	0.0009024155	-0.000584089
	6.96463e-06	-0.0002719963	-0.03331166	0.02414494	-8.461121e-06	-1.658446e-05	0.004742693	-0.001443329
	0.004028616	-0.002140222	-8.461121e-06	-1.658446e-05	-0.03546244	0.02213327	-5.629743e-05	-1.805347e-05
	0.0009024155	-0.000584089	0.004742693	-0.001443329	-5.629743e-05	-1.805347e-05	-0.03327415	0.02462444
4.7e+08	-0.03020124	0.02400115	-1.961984e-05	-0.0002689135	0.002536691	-0.0006734639	0.0008206176	-0.0007170218
	-1.961984e-05	-0.0002689135	-0.02796453	0.02577021	-1.009828e-05	-1.534461e-05	0.003243462	-0.0001040044
	0.002536691	-0.0006734639	-1.009828e-05	-1.534461e-05	-0.03008371	0.02416585	-5.523028e-05	-1.073494e-05
	0.0008206176	-0.0007170218	0.003243462	-0.0001040044	-5.523028e-05	-1.073494e-05	-0.02788765	0.02623088
