!$
! Info: Touchstone file created by Circ.  Input file=Tx_10in_Rx_93ohms_TxVia_60mils_RxVia_70mils.circ
!$
# Hz S RI R 50
0	0.009241776	1.363913e-25	-5.392013e-05	7.395327e-24	7.443825e-05	1.807746e-23	-5.388299e-05	2.903431e-24
	-5.392013e-05	7.39529e-24	0.00923751	1.647461e-25	-5.395567e-05	1.188746e-23	7.356788e-05	2.249485e-23
	7.35703e-05	1.799663e-23	-5.395567e-05	1.188798e-23	0.009255528	1.378987e-25	-5.391784e-05	7.308948e-24
	-5.388299e-05	2.902828e-24	7.383749e-05	2.259131e-23	-5.391783e-05	7.307868e-24	0.009251926	1.640221e-25
1e+07	0.01321197	-0.0008431809	-0.0002498042	8.165561e-06	0.0003503855	0.001957183	-4.97647e-05	-6.637119e-06
	-0.0002498042	8.165559e-06	0.01347761	-0.0008652435	-0.0001310542	6.689616e-05	0.0003461271	0.001951011
	0.0003503698	0.001957197	-0.0001310542	6.689616e-05	0.01350015	-0.0008738273	-0.0002495494	1.045861e-05
	-4.976469e-05	-6.63712e-06	0.0003461297	0.001951009	-0.0002495494	1.045861e-05	0.01321593	-0.0008669104
2e+07	0.01544883	-0.005026829	-0.0002109881	-3.718843e-05	0.0008945974	0.003861616	-2.604049e-05	-5.386354e-05
	-0.0002109881	-3.718843e-05	0.01561236	-0.005156877	-0.0001285754	4.677919e-05	0.0008826599	0.003852507
	0.0008946042	0.003861625	-0.0001285754	4.677919e-05	0.01565881	-0.005179686	-0.0002098424	-4.149655e-05
	-2.604049e-05	-5.386354e-05	0.0008826571	0.003852507	-0.0002098424	-4.149655e-05	0.01541643	-0.005069622
3e+07	0.01582479	-0.01041221	-0.0001871539	-5.767894e-05	0.001875879	0.005502275	-3.396533e-05	-6.45247e-05
	-0.0001871539	-5.767894e-05	0.01588397	-0.01056485	-0.0001213197	4.924773e-05	0.001835392	0.00550099
	0.00187588	0.005502275	-0.0001213197	4.924773e-05	0.01596768	-0.01061255	-0.000185142	-6.306212e-05
	-3.396533e-05	-6.45247e-05	0.001835392	0.005500992	-0.000185142	-6.306212e-05	0.01573551	-0.01045945
4e+07	0.01469577	-0.01597891	-0.0001697964	-6.63011e-05	0.003190648	0.006858117	-6.296598e-05	-5.728703e-05
	-0.0001697964	-6.63011e-05	0.01464587	-0.01611678	-0.0001111627	5.204933e-05	0.003126344	0.006870141
	0.003190647	0.006858118	-0.0001111627	5.204933e-05	0.01477669	-0.01620384	-0.0001672076	-7.255546e-05
	-6.296598e-05	-5.728703e-05	0.003126345	0.006870142	-0.0001672076	-7.255547e-05	0.01453283	-0.01601244
5e+07	0.0122544	-0.02129949	-0.0001561028	-6.972977e-05	0.004726846	0.007896375	-8.624514e-05	-4.258613e-05
	-0.0001561028	-6.972977e-05	0.01209474	-0.02138985	-9.950512e-05	5.166883e-05	0.004637148	0.00792967
	0.004726845	0.007896376	-9.950512e-05	5.166883e-05	0.01227763	-0.02153435	-0.0001531308	-7.676954e-05
	-8.624514e-05	-4.258613e-05	0.004637149	0.007929671	-0.0001531308	-7.676954e-05	0.01200614	-0.02129608
6e+07	0.008680864	-0.0260745	-0.0001443278	-7.021309e-05	0.006414434	0.008582064	-0.0001038816	-2.255108e-05
	-0.0001443278	-7.021309e-05	0.008416882	-0.02608662	-8.809969e-05	4.668019e-05	0.006299894	0.008644947
	0.006414432	0.008582063	-8.809969e-05	4.668019e-05	0.00865074	-0.02630801	-0.000141114	-7.799093e-05
	-0.0001038816	-2.255108e-05	0.006299895	0.008644947	-0.000141114	-7.799093e-05	0.008342652	-0.02600815
7e+07	0.004170033	-0.03007569	-0.0001331837	-6.882481e-05	0.008176753	0.008894335	-0.0001156599	1.474923e-06
	-0.0001331837	-6.882481e-05	0.003813449	-0.0299813	-7.895933e-05	3.662671e-05	0.008040147	0.008994984
	0.00817675	0.008894333	-7.895933e-05	3.662671e-05	0.00409138	-0.0302985	-0.000129832	-7.730449e-05
	-0.0001156599	1.474923e-06	0.008040148	0.008994984	-0.000129832	-7.730449e-05	0.003744259	-0.02991987
8e+07	-0.001063925	-0.03313096	-0.0001215185	-6.618993e-05	0.009934221	0.008828269	-0.0001211252	2.850135e-05
	-0.0001215185	-6.618993e-05	-0.001495383	-0.03290504	-7.42369e-05	2.177267e-05	0.009780523	0.008974193
	0.009934216	0.008828269	-7.42369e-05	2.177267e-05	-0.001185537	-0.03333504	-0.0001180943	-7.533227e-05
	-0.0001211252	2.850135e-05	0.009780524	0.008974192	-0.0001180943	-7.533228e-05	-0.001568243	-0.03286013
9e+07	-0.006789277	-0.03511957	-0.0001079007	-6.259092e-05	0.01160794	0.008395357	-0.0001193019	5.783173e-05
	-0.0001079007	-6.259092e-05	-0.007272047	-0.03474104	-7.617708e-05	2.914425e-06	0.01144418	0.008592892
	0.01160794	0.008395358	-7.617708e-05	2.914425e-06	-0.006947138	-0.03529782	-0.0001100356	-6.536308e-05
	-0.0001193019	5.783173e-05	0.01144418	0.008592891	-0.0001100356	-6.536308e-05	-0.007356782	-0.03471043
1e+08	-0.01274908	-0.03596309	-0.0001033954	-3.214613e-05	0.01312282	0.007622412	-0.0001057729	9.019597e-05
	-0.0001033954	-3.214613e-05	-0.01325166	-0.03541433	-8.859271e-05	-1.997147e-05	0.01295814	0.007876424
	0.01312282	0.007622412	-8.859271e-05	-1.997147e-05	-0.01293251	-0.03610771	-0.0001110821	-2.474566e-05
	-0.0001057729	9.019597e-05	0.01295814	0.007876424	-0.0001110821	-2.474566e-05	-0.01335831	-0.03539594
1.1e+08	-0.01869829	-0.03574409	-8.963917e-05	-1.148067e-05	0.01440995	0.006556538	-7.995568e-05	0.0001057822
	-8.963917e-05	-1.148067e-05	-0.0191841	-0.03503198	-0.0001027254	-5.179974e-05	0.0142549	0.006867733
	0.01440995	0.006556538	-0.0001027254	-5.179974e-05	-0.01889535	-0.03586629	-9.557548e-05	-3.05791e-06
	-7.995568e-05	0.0001057822	0.01425489	0.006867733	-9.557548e-05	-3.05791e-06	-0.01932172	-0.03500627
1.2e+08	-0.02449698	-0.03442912	-8.008551e-05	2.761874e-06	0.01541863	0.005252376	-5.866994e-05	0.0001146881
	-8.008551e-05	2.761874e-06	-0.02494417	-0.03355606	-0.0001217301	-7.845637e-05	0.01528263	0.005620331
	0.01541863	0.005252376	-0.0001217301	-7.845637e-05	-0.02471159	-0.03452984	-8.456709e-05	1.179363e-05
	-5.866994e-05	0.0001146881	0.01528263	0.005620332	-8.456709e-05	1.179363e-05	-0.02510536	-0.03351327
1.3e+08	-0.02990678	-0.0320689	-7.102414e-05	1.390205e-05	0.01610593	0.0037739	-3.879659e-05	0.000119879
	-7.102414e-05	1.390205e-05	-0.03028915	-0.03104075	-0.0001478917	-9.997247e-05	0.01599903	0.004196081
	0.01610593	0.0037739	-0.0001478917	-9.997247e-05	-0.03013876	-0.03214597	-7.41424e-05	2.33203e-05
	-3.879659e-05	0.000119879	0.01599903	0.004196082	-7.41424e-05	2.33203e-05	-0.0304685	-0.03097482
1.4e+08	-0.03472604	-0.02876841	-6.199044e-05	2.260712e-05	0.01644395	0.002192879	-2.235838e-05	0.0001216477
	-6.199044e-05	2.260712e-05	-0.03501738	-0.027597	-0.0001807532	-0.0001147917	0.01637591	0.002664308
	0.01644395	0.002192879	-0.0001807532	-0.0001147917	-0.03497377	-0.02881909	-6.380001e-05	3.223791e-05
	-2.235838e-05	0.0001216477	0.01637591	0.002664309	-6.380001e-05	3.223791e-05	-0.03520917	-0.02750363
1.5e+08	-0.03878355	-0.02467009	-5.293574e-05	2.920837e-05	0.01642052	0.0005849478	-1.511843e-05	0.0001206687
	-5.293574e-05	2.920837e-05	-0.03895958	-0.02337348	-0.00021903	-0.0001213343	0.01640013	0.001098236
	0.01642052	0.0005849478	-0.00021903	-0.0001213343	-0.03904433	-0.02469164	-5.347681e-05	3.889883e-05
	-1.511843e-05	0.0001206687	0.01640013	0.001098236	-5.347681e-05	3.889883e-05	-0.03915773	-0.02324988
1.6e+08	-0.04194277	-0.01994595	-4.408431e-05	3.382797e-05	0.01603941	-0.0009737839	-7.475076e-06	0.0001195371
	-4.408431e-05	3.382797e-05	-0.04198284	-0.01854805	-0.0002608833	-0.0001183202	0.01607393	-0.0004282263
	0.01603941	-0.0009737839	-0.0002608833	-0.0001183202	-0.04221306	-0.01993595	-4.339538e-05	4.343673e-05
	-7.475076e-06	0.0001195371	0.01607393	-0.0004282257	-4.339538e-05	4.343673e-05	-0.04218106	-0.01839292
1.7e+08	-0.04410575	-0.01478973	-3.566215e-05	3.667991e-05	0.01532001	-0.002410012	4.32305e-07	0.0001180895
	-3.566215e-05	3.667991e-05	-0.04399436	-0.01331949	-0.0003041017	-0.000104942	0.01541457	-0.001843615
	0.01532001	-0.002410012	-0.0003041017	-0.000104942	-0.04438129	-0.01474631	-3.378334e-05	4.607099e-05
	4.32305e-07	0.0001180895	0.01541457	-0.001843614	-3.378334e-05	4.607099e-05	-0.04418637	-0.01313297
1.8e+08	-0.04521573	-0.009408674	-2.789331e-05	3.801118e-05	0.01429628	-0.003656322	8.489118e-06	0.0001162155
	-2.789331e-05	3.801118e-05	-0.04494375	-0.007898903	-0.0003462773	-8.096041e-05	0.01445346	-0.00308187
	0.01429628	-0.003656322	-0.0003462773	-8.096041e-05	-0.04549173	-0.009330704	-2.487086e-05	4.705104e-05
	8.489118e-06	0.0001162155	0.01445346	-0.00308187	-2.487086e-05	4.705104e-05	-0.04512355	-0.007682576
1.9e+08	-0.04525834	-0.004015217	-2.096385e-05	3.810622e-05	0.01301514	-0.004653973	1.659242e-05	0.0001138415
	-2.096385e-05	3.810622e-05	-0.04482396	-0.002501177	-0.0003849837	-4.674014e-05	0.01323465	-0.004085018
	0.01301514	-0.004653973	-0.0003849837	-4.674014e-05	-0.04552965	-0.003902432	-1.685413e-05	4.666287e-05
	1.659242e-05	0.0001138415	0.01323465	-0.004085018	-1.685413e-05	4.666287e-05	-0.0449861	-0.002257893
2e+08	-0.04426128	0.001181283	-1.499843e-05	3.727743e-05	0.01153447	-0.00535529	2.464749e-05	0.0001109211
	-1.499843e-05	3.727743e-05	-0.04367062	0.002663578	-0.0004179478	-3.233593e-06	0.01181293	-0.004805487
	0.01153447	-0.00535529	-0.0004179478	-3.233593e-06	-0.04452258	0.001328205	-9.871365e-06	4.522129e-05
	2.464749e-05	0.0001109211	0.01181293	-0.004805486	-9.871365e-06	4.522129e-05	-0.04381044	0.002929817
2.1e+08	-0.04229247	0.005982563	-1.004625e-05	3.58476e-05	0.009920522	-0.00572559	3.256604e-05	0.0001074298
	-1.004625e-05	3.58476e-05	-0.04155981	0.007398138	-0.0004432041	4.808592e-05	0.01025145	-0.005207991
	0.009920522	-0.00572559	-0.0004432041	4.808592e-05	-0.04253847	0.006161948	-3.988124e-06	4.305381e-05
	3.256604e-05	0.0001074298	0.01025145	-0.005207991	-3.988124e-06	4.305381e-05	-0.04167364	0.007682376
2.2e+08	-0.03945685	0.01020889	-6.076647e-06	3.412866e-05	0.0082452	-0.005744578	4.026622e-05	0.0001033606
	-6.076647e-06	3.412866e-05	-0.0386044	0.01152565	-0.000459222	0.000105328	0.008619118	-0.005270926
	0.0082452	-0.005744578	-0.000459222	0.000105328	-0.03968251	0.01041807	8.081976e-07	4.048056e-05
	4.026622e-05	0.0001033606	0.008619118	-0.005270927	8.081976e-07	4.048056e-05	-0.03868976	0.01182222
2.3e+08	-0.03589179	0.0137057	-2.982688e-06	3.239969e-05	0.006582987	-0.005407172	4.767261e-05	9.871996e-05
	-2.982688e-06	3.239969e-05	-0.0349491	0.01489622	-0.000464998	0.0001663176	0.006987712	-0.004987221
	0.006582987	-0.005407172	-0.000464998	0.0001663176	-0.0360925	0.01394104	4.605961e-06	3.779313e-05
	4.767261e-05	9.871996e-05	0.006987712	-0.004987221	4.605961e-06	3.779313e-05	-0.03500481	0.015199
2.4e+08	-0.03176143	0.01634926	-5.917582e-07	3.088599e-05	0.005007847	-0.004723724	5.471566e-05	9.352673e-05
	-5.917582e-07	3.088599e-05	-0.0307644	0.01739244	-0.0004600995	0.0002287558	0.005428928	-0.004364627
	0.005007847	-0.004723724	-0.0004600995	0.0002287558	-0.03193324	0.01660624	7.560232e-06	3.523405e-05
	5.471566e-05	9.352673e-05	0.005428928	-0.004364627	7.560232e-06	3.523405e-05	-0.03079063	0.01769515
2.5e+08	-0.0272501	0.01805107	1.316632e-06	2.974353e-05	0.003590106	-0.003719623	6.133241e-05	8.78088e-05
	1.316632e-06	2.974353e-05	-0.02623954	0.01893358	-0.0004446896	0.0002903582	0.00401139	-0.003425421
	0.003590106	-0.003719623	-0.0004446896	0.0002903582	-0.02738986	0.01832441	9.876454e-06	3.298107e-05
	6.133241e-05	8.78088e-05	0.00401139	-0.003425421	9.876454e-06	3.298107e-05	-0.02623786	0.01923007
2.6e+08	-0.02255494	0.018761	2.889419e-06	2.894061e-05	0.00239345	-0.002434291	6.746742e-05	8.160443e-05
	2.889419e-06	2.894061e-05	-0.02157488	0.01947841	-0.0004076771	0.000355826	0.002797768	-0.002205529
	0.00239345	-0.002434291	-0.0004076771	0.000355826	-0.02266047	0.01904486	1.169369e-05	3.102509e-05
	6.746742e-05	8.160443e-05	0.002797768	-0.002205529	1.169369e-05	3.102509e-05	-0.02154819	0.01976292
2.7e+08	-0.01787814	0.01846889	4.438716e-06	2.858954e-05	0.001472171	-0.0009195842	7.307003e-05	7.495336e-05
	4.438716e-06	2.858954e-05	-0.01697395	0.01902633	-0.0003588519	0.0004149319	0.001842096	-0.0007530803
	0.001472171	-0.0009195842	-0.0003588519	0.0004149319	-0.01794836	0.01875694	1.33145e-05	2.95092e-05
	7.307003e-05	7.495336e-05	0.001842096	-0.0007530803	1.33145e-05	2.95092e-05	-0.01692635	0.01929383
2.8e+08	-0.01341904	0.0172046	6.212421e-06	2.862139e-05	0.0008687551	0.0007623385	7.809582e-05	6.790317e-05
	6.212421e-06	2.862139e-05	-0.01263529	0.01761713	-0.00030204	0.0004648526	0.001187419	0.0008735584
	0.0008687551	0.0007623385	-0.00030204	0.0004648526	-0.0134541	0.0174903	1.49866e-05	2.839592e-05
	7.809582e-05	6.790317e-05	0.001187419	0.0008735584	1.49866e-05	2.839592e-05	-0.01257192	0.01786355
2.9e+08	-0.009366357	0.01503663	8.395673e-06	2.887544e-05	0.0006119441	0.002541626	8.250697e-05	6.050655e-05
	8.395673e-06	2.887544e-05	-0.008744648	0.01532907	-0.0002394044	0.000504662	0.0008638547	0.002608217
	0.0006119441	0.002541626	-0.0002394044	0.000504662	-0.009367624	0.01531346	1.690251e-05	2.75554e-05
	8.250697e-05	6.050655e-05	0.0008638547	0.002608217	1.690251e-05	2.75554e-05	-0.008671461	0.01555151
3e+08	-0.005890779	0.01206909	1.110628e-05	2.913802e-05	0.0007153471	0.004343717	8.627232e-05	5.281986e-05
	1.110628e-05	2.913802e-05	-0.005467627	0.01227542	-0.0001731557	0.0005340006	0.0008871885	0.004379728
	0.0007153471	0.004343717	-0.0001731557	0.0005340006	-0.005860892	0.01233081	1.919431e-05	2.68028e-05
	8.627232e-05	5.281986e-05	0.0008871885	0.004379728	1.919431e-05	2.68028e-05	-0.005391144	0.01247228
3.1e+08	-0.00313839	0.00843742	1.438157e-05	2.91656e-05	0.001176698	0.006092587	8.93677e-05	4.490265e-05
	1.438157e-05	2.91656e-05	-0.002943226	0.008599689	-0.0001053913	0.0005530485	0.001258062	0.006114997
	0.001176698	0.006092587	-0.0001053913	0.0005530485	-0.003081191	0.008678285	2.191998e-05	2.591959e-05
	8.93677e-05	4.490265e-05	0.001258062	0.006114997	2.191998e-05	2.591959e-05	-0.002870237	0.008770785
3.2e+08	-0.001225036	0.004302808	1.817295e-05	2.871168e-05	0.001977805	0.007714108	9.177583e-05	3.681631e-05
	1.817295e-05	2.871168e-05	-0.001278446	0.0044696	-3.796394e-05	0.0005624538	0.001961827	0.007742213
	0.001977805	0.007714108	-3.796394e-05	0.0005624538	-0.001145473	0.004517842	2.505669e-05	2.467874e-05
	9.177583e-05	3.681631e-05	0.001961827	0.007742213	2.505669e-05	2.467874e-05	-0.001215713	0.004616213
3.3e+08	-0.0002319034	-0.000154373	2.234888e-05	2.755414e-05	0.003085225	0.009139384	9.348624e-05	2.862318e-05
	2.234888e-05	2.755414e-05	-0.0005442151	7.017984e-05	2.762756e-05	0.0005632283	0.002969081	0.009194046
	0.003085225	0.009139384	2.762756e-05	0.0005632283	-0.0001358804	3.083161e-05	2.850226e-05	2.287075e-05
	9.348624e-05	2.862318e-05	0.002969081	0.009194046	2.850226e-05	2.287075e-05	-0.000498155	0.0001950172
3.4e+08	-0.0002025135	-0.004741844	2.670608e-05	2.552012e-05	0.004451635	0.01030789	9.449539e-05	2.03859e-05
	2.670608e-05	2.552012e-05	-0.0007727856	-0.004403845	9.031363e-05	0.0005566174	0.004236886	0.01041068
	0.004451635	0.01030789	9.031363e-05	0.0005566174	-9.669957e-05	-0.004589297	3.20844e-05	2.032781e-05
	9.449539e-05	2.03859e-05	0.004236886	0.01041068	3.20844e-05	2.032781e-05	-0.0007491763	-0.004296735
3.5e+08	-0.001141231	-0.009263157	3.098828e-05	2.250685e-05	0.006017877	0.01117028	9.4806e-05	1.216637e-05
	3.098828e-05	2.250685e-05	-0.001956728	-0.008755997	0.0001494799	0.000543957	0.005710623	0.01134255
	0.006017877	0.01117028	0.0001494799	0.000543957	-0.001032826	-0.009144778	3.557728e-05	1.694438e-05
	9.4806e-05	1.216637e-05	0.005710623	0.01134255	3.557728e-05	1.694438e-05	-0.001960429	-0.008661378
3.6e+08	-0.003013346	-0.01352555	3.491037e-05	1.849541e-05	0.007715556	0.01169068	9.442695e-05	4.025195e-06
	3.491037e-05	1.849541e-05	-0.004049528	-0.01279599	0.0002049543	0.0005265305	0.007326399	0.01195258
	0.007715556	0.01169068	0.0002049543	0.0005265305	-0.002909813	-0.01344142	3.872354e-05	1.269146e-05
	9.442695e-05	4.025195e-06	0.007326399	0.01195258	3.872354e-05	1.269146e-05	-0.00408424	-0.01270765
3.7e+08	-0.005746713	-0.01734759	3.818597e-05	1.355651e-05	0.009470106	0.01184837	9.337261e-05	-3.978907e-06
	3.818597e-05	1.355651e-05	-0.00696778	-0.01634741	0.0002569496	0.0005054411	0.009013905	0.01221794
	0.009470106	0.01184837	0.0002569496	0.0005054411	-0.005655497	-0.01729631	4.125994e-05	7.623441e-06
	9.337261e-05	-3.978907e-06	0.009013905	0.01221794	4.125994e-05	7.623441e-06	-0.007035851	-0.01625841
3.8e+08	-0.009234878	-0.0205663	4.055541e-05	7.847315e-06	0.01120415	0.01163881	9.166251e-05	-1.17895e-05
	4.055541e-05	7.847315e-06	-0.01059484	-0.01925465	0.000305972	0.0004815068	0.01069957	0.01213104
	0.01120415	0.01163881	0.000305972	0.0004815068	-0.009163109	-0.02054503	4.294383e-05	1.876473e-06
	9.166251e-05	-1.17895e-05	0.01069957	0.01213104	4.294383e-05	1.876473e-06	-0.01069713	-0.01915763
3.9e+08	-0.01334154	-0.02304353	4.181135e-05	1.599598e-06	0.012841	0.01107384	8.9321e-05	-1.935272e-05
	4.181135e-05	1.599598e-06	-0.01478579	-0.02138911	0.0003527049	0.0004551912	0.01230988	0.01169988
	0.012841	0.01107384	0.0003527049	0.0004551912	-0.01329574	-0.02304801	4.357768e-05	-4.341263e-06
	8.9321e-05	-1.935272e-05	0.01230988	0.01169988	4.357768e-05	-4.341263e-06	-0.01492161	-0.0212766
4e+08	-0.01790615	-0.02467122	4.181961e-05	-4.899243e-06	0.01430811	0.01018119	8.637685e-05	-2.661761e-05
	4.181961e-05	-4.899243e-06	-0.01937351	-0.02265405	0.0003978761	0.0004265741	0.01377464	0.01094767
	0.01430811	0.01018119	0.0003978761	0.0004265741	-0.01789196	-0.02469593	4.302961e-05	-1.076639e-05
	8.637685e-05	-2.661761e-05	0.01377464	0.01094767	4.302961e-05	-1.076639e-05	-0.01954061	-0.02251882
4.1e+08	-0.02275042	-0.02537548	4.053293e-05	-1.133084e-05	0.01554037	0.009003194	8.28631e-05	-3.353643e-05
	4.053293e-05	-1.133084e-05	-0.02417554	-0.02298827	0.0004421259	0.0003953635	0.01503016	0.009911753
	0.01554037	0.009003194	0.0004421259	0.0003953635	-0.02277236	-0.0254138	4.124744e-05	-1.710268e-05
	8.28631e-05	-3.353643e-05	0.01503016	0.009911753	4.124744e-05	-1.710268e-05	-0.02437016	-0.02282362
4.2e+08	-0.02768546	-0.02511923	3.799654e-05	-1.737342e-05	0.01648294	0.007594901	7.881676e-05	-4.006507e-05
	3.799654e-05	-1.737342e-05	-0.02900148	-0.02236825	0.0004858847	0.0003609478	0.01602195	0.00864186
	0.01648294	0.007594901	0.0004858847	0.0003609478	-0.02774669	-0.02516372	3.826523e-05	-2.304661e-05
	7.881676e-05	-4.006507e-05	0.01602195	0.00864186	3.826523e-05	-2.304661e-05	-0.02921853	-0.02216835
4.3e+08	-0.03251923	-0.02390346	3.434508e-05	-2.272952e-05	0.01709373	0.006021564	7.427834e-05	-4.616346e-05
	3.434508e-05	-2.272952e-05	-0.03366064	-0.02080879	0.0005292742	0.0003224846	0.01670715	0.007197886
	0.01709373	0.006021564	0.0005292742	0.0003224846	-0.03262143	-0.02394609	3.420178e-05	-2.831334e-05
	7.427834e-05	-4.616346e-05	0.01670715	0.007197886	3.420178e-05	-2.831334e-05	-0.03389385	-0.02056892
4.4e+08	-0.03706409	-0.02176692	2.979123e-05	-2.715145e-05	0.01734516	0.004355752	6.929143e-05	-5.179593e-05
	2.979123e-05	-2.715145e-05	-0.03796959	-0.0183621	0.000572039	0.000279013	0.01705631	0.005647202
	0.01734516	0.004355752	0.000572039	0.000279013	-0.03720733	-0.02179937	2.925126e-05	-3.266106e-05
	6.929143e-05	-5.179593e-05	0.01705631	0.005647202	2.925126e-05	-3.266106e-05	-0.03821181	-0.01807891
4.5e+08	-0.04114402	-0.01878441	2.460736e-05	-3.046188e-05	0.01722532	0.002674137	6.390205e-05	-5.69316e-05
	2.460736e-05	-3.046188e-05	-0.04175935	-0.01511554	0.000613517	0.0002295838	0.01705454	0.004061695
	0.01722532	0.002674137	0.000613517	0.0002295838	-0.04132673	-0.01879841	2.36671e-05	-3.59111e-05
	6.390205e-05	-5.69316e-05	0.01705454	0.004061695	2.36671e-05	-3.59111e-05	-0.04200279	-0.01478719
4.6e+08	-0.04460146	-0.01506366	1.910179e-05	-3.256772e-05	0.01673845	0.001054163	5.815784e-05	-6.154439e-05
	1.910179e-05	-3.256772e-05	-0.04488191	-0.01118791	0.0006526503	0.000173392	0.01670212	0.002514658
	0.01673845	0.001054163	0.0006526503	0.000173392	-0.04482043	-0.01505132	1.774042e-05	-3.796182e-05
	5.815784e-05	-6.154439e-05	0.01670212	0.002514658	1.774042e-05	-3.796182e-05	-0.04511856	-0.0108142
4.7e+08	-0.04730324	-0.01074105	1.35926e-05	-3.34665e-05	0.01590466	-0.0004292896	5.210754e-05	-6.561333e-05
	1.35926e-05	-3.34665e-05	-0.04721595	-0.00672458	0.000688035	0.0001099022	0.01601435	0.001077665
	0.01590466	-0.0004292896	0.000688035	0.0001099022	-0.04755371	-0.01069517	1.177679e-05	-3.879686e-05
	5.210754e-05	-6.561333e-05	0.01601435	0.001077665	1.177679e-05	-3.879686e-05	-0.04743781	-0.006306961
