!$
! Info: Touchstone file created by Circ.  Input file=Tx_12in_Rx_93ohms_TxVia_60mils_RxVia_70mils.circ
!$
# Hz S RI R 50
0	0.01103853	1.768887e-25	3.051878e-08	4.270332e-26	8.725834e-05	2.410154e-23	6.492463e-08	1.008523e-26
	3.051878e-08	4.270309e-26	0.01103387	1.908788e-25	6.27861e-08	1.388125e-25	8.402139e-05	2.690015e-23
	8.848296e-05	2.341645e-23	6.278611e-08	1.388114e-25	0.0110491	1.754231e-25	2.370528e-08	5.69755e-26
	6.492466e-08	1.008557e-26	8.42909e-05	2.701551e-23	2.370558e-08	5.698108e-26	0.01104823	1.900488e-25
1e+07	0.01605177	-0.001417872	5.349086e-08	9.106784e-08	0.0004544247	0.00227015	1.471342e-07	2.593857e-07
	5.349086e-08	9.106785e-08	0.0160415	-0.001417456	8.13833e-08	2.870273e-07	0.0004503097	0.002271495
	0.0004544951	0.002270118	8.13833e-08	2.870273e-07	0.01573748	-0.001415111	4.281947e-08	1.26879e-07
	1.471342e-07	2.593857e-07	0.0004503125	0.002271493	4.281946e-08	1.26879e-07	0.01572628	-0.001414257
2e+07	0.01831303	-0.006988709	9.443412e-08	1.539499e-07	0.001221517	0.004439377	3.359911e-07	3.836547e-07
	9.443414e-08	1.539499e-07	0.01827237	-0.006981624	1.266354e-07	4.935463e-07	0.001205753	0.004445317
	0.001221503	0.004439339	1.266354e-07	4.935463e-07	0.01808428	-0.00687932	9.842925e-08	1.740018e-07
	3.359911e-07	3.836547e-07	0.00120575	0.004445317	9.842924e-08	1.740019e-07	0.01803992	-0.006870858
3e+07	0.01804564	-0.01379105	1.430738e-07	1.987038e-07	0.002536691	0.006225542	5.710161e-07	4.269176e-07
	1.430738e-07	1.987038e-07	0.01795751	-0.01376255	1.546128e-07	6.999958e-07	0.002503365	0.006241807
	0.002536687	0.006225542	1.546128e-07	6.999958e-07	0.01788038	-0.01366299	1.565891e-07	2.194173e-07
	5.710161e-07	4.269176e-07	0.002503364	0.006241808	1.565891e-07	2.194173e-07	0.01778444	-0.01363065
4e+07	0.01571506	-0.0205352	1.941807e-07	2.240522e-07	0.004269785	0.007571431	8.263919e-07	3.769975e-07
	1.941807e-07	2.240522e-07	0.01556809	-0.02046519	1.729205e-07	9.066138e-07	0.00421526	0.00760571
	0.004269791	0.00757143	1.729205e-07	9.066138e-07	0.01559833	-0.02041376	2.133413e-07	2.467326e-07
	8.263919e-07	3.769975e-07	0.004215261	0.007605711	2.133413e-07	2.467326e-07	0.0154385	-0.02033581
5e+07	0.01163948	-0.02661413	2.422958e-07	2.296792e-07	0.006238328	0.00843356	1.073469e-06	2.266717e-07
	2.422958e-07	2.296792e-07	0.01142987	-0.02647845	1.843339e-07	1.112551e-06	0.006161864	0.008494698
	0.006238331	0.008433558	1.843339e-07	1.112551e-06	0.01155702	-0.02651272	2.658953e-07	2.533549e-07
	1.073469e-06	2.266717e-07	0.006161865	0.008494698	2.658953e-07	2.533549e-07	0.01132915	-0.02636273
6e+07	0.006155143	-0.03160243	2.811499e-07	2.167181e-07	0.008316602	0.008774907	1.278574e-06	-2.254685e-08
	2.811499e-07	2.167181e-07	0.005887886	-0.03137609	1.905685e-07	1.319115e-06	0.008220545	0.008871876
	0.008316601	0.008774908	1.905685e-07	1.319115e-06	0.006093132	-0.03152796	3.08227e-07	2.399387e-07
	1.278574e-06	-2.254685e-08	0.008220546	0.008871876	3.08227e-07	2.399387e-07	0.00580287	-0.03127866
7e+07	-0.0003636145	-0.0351985	3.047076e-07	1.882325e-07	0.01037306	0.008589455	1.408191e-06	-3.576099e-07
	3.047076e-07	1.882325e-07	-0.0006752124	-0.03485869	1.932137e-07	1.527644e-06	0.01026275	0.008730414
	0.01037306	0.008589461	1.932137e-07	1.527644e-06	-0.0004182808	-0.03515329	3.339673e-07	2.095411e-07
	1.408191e-06	-3.576099e-07	0.01026276	0.008730414	3.339673e-07	2.095411e-07	-0.0007562759	-0.03477999
8e+07	-0.007511639	-0.03721138	3.07887e-07	1.491625e-07	0.01227897	0.007903285	1.433325e-06	-7.54445e-07
	3.07887e-07	1.491625e-07	-0.007847118	-0.03673976	1.939325e-07	1.739112e-06	0.01216244	0.008094692
	0.01227897	0.007903292	1.939325e-07	1.739112e-06	-0.00757103	-0.03719421	3.37581e-07	1.673566e-07
	1.433325e-06	-7.54445e-07	0.01216244	0.008094692	3.37581e-07	1.673566e-07	-0.007934445	-0.03667709
9e+07	-0.01486767	-0.03755607	2.871923e-07	1.05992e-07	0.01391654	0.006772943	1.333057e-06	-1.179924e-06
	2.871923e-07	1.05992e-07	-0.01520092	-0.03694064	1.944936e-07	1.954035e-06	0.01380392	0.007018783
	0.01391654	0.006772948	1.944936e-07	1.954035e-06	-0.01494276	-0.03756299	3.151402e-07	1.203441e-07
	1.333057e-06	-1.179924e-06	0.01380392	0.007018783	3.151402e-07	1.203441e-07	-0.0153032	-0.03688905
1e+08	-0.02199482	-0.03624292	2.411682e-07	6.617986e-08	0.01518585	0.005281088	1.097058e-06	-1.594835e-06
	2.411682e-07	6.617986e-08	-0.02229592	-0.03547956	1.967422e-07	2.172339e-06	0.01508864	0.005582277
	0.01518585	0.005281088	1.967422e-07	2.172339e-06	-0.02209821	-0.03626896	2.648779e-07	7.664669e-08
	1.097058e-06	-1.594835e-06	0.01508864	0.005582277	2.648779e-07	7.664669e-08	-0.02242313	-0.03543368
1.1e+08	-0.02852908	-0.03351505	1.706451e-07	3.70812e-08	0.0160098	0.003536209	7.31871e-07	-1.960669e-06
	1.706451e-07	3.70812e-08	-0.02876593	-0.03260901	1.991331e-07	2.3962e-06	0.01593989	0.003890129
	0.0160098	0.003536209	1.991331e-07	2.3962e-06	-0.02866814	-0.03353553	1.879285e-07	4.52526e-08
	7.31871e-07	-1.960669e-06	0.01593988	0.003890129	1.879285e-07	4.52526e-08	-0.02892232	-0.03254489
1.2e+08	-0.03423567	-0.0294629	7.854695e-08	2.637143e-08	0.01634664	0.001657321	2.477423e-07	-2.237745e-06
	7.854695e-08	2.637143e-08	-0.03437789	-0.02842837	2.052239e-07	2.624404e-06	0.01631525	0.002057873
	0.01634664	0.001657321	2.052239e-07	2.624404e-06	-0.03440084	-0.02946739	8.743121e-08	3.393125e-08
	2.477423e-07	-2.237745e-06	0.01631525	0.002057874	8.743121e-08	3.393125e-08	-0.03455123	-0.02833706
1.3e+08	-0.03880296	-0.02432646	-3.006661e-08	4.055434e-08	0.01618121	-0.0002312357	-3.314983e-07	-2.390844e-06
	-3.006661e-08	4.055434e-08	-0.03882395	-0.02318669	2.164644e-07	2.855845e-06	0.01619793	0.0002065383
	0.01618121	-0.0002312355	2.164644e-07	2.855845e-06	-0.03898723	-0.02430839	-3.109828e-08	4.977555e-08
	-3.314983e-07	-2.390844e-06	0.01619792	0.0002065393	-3.109828e-08	4.977555e-08	-0.03900489	-0.02306388
1.4e+08	-0.04201521	-0.01841491	-1.482721e-07	8.46807e-08	0.01552956	-0.002005582	-9.720941e-07	-2.391562e-06
	-1.482721e-07	8.46807e-08	-0.04189469	-0.01720099	2.339153e-07	3.089124e-06	0.01560143	-0.001542832
	0.01552956	-0.002005582	2.339153e-07	3.089124e-06	-0.04221127	-0.01836983	-1.601177e-07	9.829593e-08
	-9.720941e-07	-2.391562e-06	0.01560142	-0.001542831	-1.601177e-07	9.829593e-08	-0.04207428	-0.01704519
1.5e+08	-0.0437423	-0.0120758	-2.677397e-07	1.618173e-07	0.01443733	-0.003550304	-1.632467e-06	-2.220988e-06
	-2.677397e-07	1.618173e-07	-0.04346857	-0.01082482	2.581823e-07	3.322586e-06	0.014568	-0.003076918
	0.01443733	-0.003550303	2.581823e-07	3.322586e-06	-0.04394253	-0.01200122	-2.905529e-07	1.828473e-07
	-1.632467e-06	-2.220988e-06	0.014568	-0.003076917	-2.905529e-07	1.828473e-07	-0.0436383	-0.01063702
1.6e+08	-0.04394231	-0.005673199	-3.793144e-07	2.7268e-07	0.01297651	-0.004765219	-2.265904e-06	-1.871706e-06
	-3.793144e-07	2.7268e-07	-0.04351389	-0.004425864	2.893643e-07	3.554462e-06	0.0131657	-0.004296684
	0.01297651	-0.004765219	2.893643e-07	3.554462e-06	-0.04413898	-0.0055686	-4.124255e-07	3.042299e-07
	-2.265904e-06	-1.871706e-06	0.0131657	-0.004296683	-4.124255e-07	3.042299e-07	-0.04366612	-0.004209267
1.7e+08	-0.04266089	0.0004332953	-4.736841e-07	4.154405e-07	0.01124083	-0.005571103	-2.823715e-06	-1.349061e-06
	-4.736841e-07	4.154405e-07	-0.04208746	0.001635552	3.27046e-07	3.783017e-06	0.011484	-0.005122954
	0.01124083	-0.005571103	3.27046e-07	3.783017e-06	-0.04284654	0.0005665616	-5.155772e-07	4.60477e-07
	-2.823715e-06	-1.349061e-06	0.011484	-0.005122953	-5.155772e-07	4.60477e-07	-0.04221586	0.00187584
1.8e+08	-0.04002634	0.005908592	-5.420823e-07	5.857243e-07	0.009340083	-0.005914136	-3.258673e-06	-6.715683e-07
	-5.420823e-07	5.857243e-07	-0.03932895	0.007026645	3.703389e-07	4.006693e-06	0.009628439	-0.005500783
	0.009340084	-0.005914136	3.703389e-07	4.006693e-06	-0.04019414	0.006067388	-5.904317e-07	6.468476e-07
	-3.258673e-06	-6.715683e-07	0.009628439	-0.005500783	-5.904317e-07	6.468476e-07	-0.03942884	0.007284014
1.9e+08	-0.03624072	0.01046018	-5.769729e-07	7.768005e-07	0.007393504	-0.005768882	-3.528517e-06	1.295752e-07
	-5.769729e-07	7.768005e-07	-0.03545112	0.01146031	4.179595e-07	4.22423e-06	0.007714308	-0.005402462
	0.007393504	-0.005768882	4.179595e-07	4.22423e-06	-0.03638483	0.01063979	-6.287395e-07	8.560273e-07
	-3.528517e-06	1.295752e-07	0.007714308	-0.005402462	-6.287395e-07	8.560273e-07	-0.03551978	0.01172712
2e+08	-0.03156719	0.01385361	-5.726636e-07	9.799502e-07	0.005522767	-0.005139685	-3.599288e-06	1.01189e-06
	-5.726636e-07	9.799502e-07	-0.03072637	0.01471035	4.683345e-07	4.43475e-06	0.00585997	-0.004829001
	0.005522767	-0.005139685	4.683345e-07	4.43475e-06	-0.0316831	0.01404798	-6.242482e-07	1.078523e-06
	-3.599288e-06	1.01189e-06	0.00585997	-0.004829001	-6.242482e-07	1.078523e-06	-0.0307632	0.01497847
2.1e+08	-0.02631442	0.01592455	-5.258051e-07	1.184987e-06	0.003844777	-0.004060402	-3.448271e-06	1.923871e-06
	-5.258051e-07	1.184987e-06	-0.02547039	0.0166232	5.197171e-07	4.637808e-06	0.004179913	-0.003810048
	0.003844777	-0.004060402	5.197171e-07	4.637808e-06	-0.0263992	0.01612669	-5.732527e-07	1.303222e-06
	-3.448271e-06	1.923871e-06	0.004179914	-0.003810048	-5.732527e-07	1.303222e-06	-0.02547699	0.01688454
2.2e+08	-0.02081867	0.01658699	-4.357417e-07	1.380893e-06	0.002464704	-0.002592453	-3.066326e-06	2.808001e-06
	-4.357417e-07	1.380893e-06	-0.0200236	0.01712543	5.703024e-07	4.833401e-06	0.002778012	-0.002402186
	0.002464704	-0.002592453	5.703024e-07	4.833401e-06	-0.02087119	0.0167893	-4.749851e-07	1.518088e-06
	-3.066326e-06	2.808001e-06	0.002778012	-0.002402186	-4.749851e-07	1.518088e-06	-0.02000363	0.01737252
2.3e+08	-0.01542463	0.01583702	-3.046908e-07	1.556531e-06	0.001469607	-0.0008212727	-2.459417e-06	3.604352e-06
	-3.046908e-07	1.556531e-06	-0.01473149	0.0162268	6.183309e-07	5.021962e-06	0.001741308	-0.0006856852
	0.001469607	-0.0008212728	6.183309e-07	5.021962e-06	-0.01544565	0.01603175	-3.318188e-07	1.71093e-06
	-2.459417e-06	3.604352e-06	0.001741308	-0.0006856852	-3.318188e-07	1.71093e-06	-0.01469053	0.01645328
2.4e+08	-0.01046594	0.0137521	-1.377391e-07	1.701379e-06	0.0009230316	0.001148708	-1.649181e-06	4.254569e-06
	-1.377391e-07	1.701379e-06	-0.009924921	0.01401864	6.621773e-07	5.204321e-06	0.001134678	0.001240179
	0.0009230316	0.001148708	6.621773e-07	5.204321e-06	-0.01045808	0.01393183	-1.492739e-07	1.870215e-06
	-1.649181e-06	4.254569e-06	0.001134678	0.001240179	-1.492739e-07	1.870215e-06	-0.009870071	0.01421973
2.5e+08	-0.006246413	0.01048581	5.734337e-08	1.806259e-06	0.0008609253	0.003200315	-6.724522e-07	4.705984e-06
	5.734337e-08	1.806259e-06	-0.005901307	0.01066763	7.004252e-07	5.381669e-06	0.0009967343	0.003263025
	0.0008609253	0.003200315	7.004252e-07	5.381669e-06	-0.006214087	0.01064385	6.418155e-08	1.985866e-06
	-6.724522e-07	4.705984e-06	0.0009967343	0.003263025	6.418155e-08	1.985866e-06	-0.005840776	0.01084048
2.6e+08	-0.003023075	0.006258352	2.704645e-07	1.864002e-06	0.001289165	0.005210776	4.203047e-07	4.915577e-06
	2.704645e-07	1.864002e-06	-0.002907868	0.00640537	7.319307e-07	5.555511e-06	0.00133725	0.005264171
	0.001289165	0.005210776	7.319307e-07	5.555511e-06	-0.002972301	0.006389177	2.975235e-07	2.050004e-06
	4.203047e-07	4.915577e-06	0.00133725	0.005264171	2.975235e-07	2.050004e-06	-0.002850493	0.006549293
2.7e+08	-0.0009920759	0.001343305	4.897304e-07	1.870024e-06	0.002182928	0.007059354	1.567598e-06	4.853498e-06
	4.897304e-07	1.870024e-06	-0.001128023	0.001514278	7.558829e-07	5.727619e-06	0.002136336	0.00712596
	0.002182928	0.007059354	7.558829e-07	5.727619e-06	-0.0009300859	0.001442955	5.377436e-07	2.057574e-06
	1.567598e-06	4.853498e-06	0.002136336	0.00712596	5.377436e-07	2.057574e-06	-0.001082615	0.001630875
2.8e+08	-0.0002779396	-0.003948477	7.021054e-07	1.822772e-06	0.003488004	0.008634989	2.700421e-06	4.505871e-06
	7.021054e-07	1.822772e-06	-0.00067133	-0.00368929	7.718653e-07	5.89997e-06	0.00334549	0.008739132
	0.003488004	0.008634989	7.718653e-07	5.89997e-06	-0.0002128163	-0.003882163	7.705732e-07	2.006842e-06
	2.700421e-06	4.505871e-06	0.00334549	0.008739132	7.705732e-07	2.006842e-06	-0.0006461217	-0.0035962
2.9e+08	-0.0009271321	-0.009287085	8.941769e-07	1.723995e-06	0.005124033	0.009843417	3.74648e-06	3.876636e-06
	8.941769e-07	1.723995e-06	-0.001567934	-0.008873793	7.799152e-07	6.074679e-06	0.004890501	0.01000977
	0.005124033	0.009843417	7.799152e-07	6.074679e-06	-0.0008673655	-0.009254284	9.813272e-07	1.899701e-06
	3.74648e-06	3.876636e-06	0.004890501	0.01000977	9.813272e-07	1.899701e-06	-0.00157004	-0.008798365
3e+08	-0.002906152	-0.01434269	1.052992e-06	1.578844e-06	0.006989494	0.01061329	4.634858e-06	2.988262e-06
	1.052992e-06	1.578844e-06	-0.003767676	-0.01371196	7.805789e-07	6.253899e-06	0.00667606	0.0108653
	0.006989494	0.01061329	7.805789e-07	6.253899e-06	-0.002860155	-0.01434154	1.155825e-06	1.741771e-06
	4.634858e-06	2.988262e-06	0.00667606	0.0108653	1.155825e-06	1.741771e-06	-0.0038026	-0.01364667
3.1e+08	-0.006104248	-0.01880451	1.16692e-06	1.395751e-06	0.008968122	0.01090085	5.300811e-06	1.881206e-06
	1.16692e-06	1.395751e-06	-0.007143889	-0.01789982	7.749504e-07	6.439703e-06	0.008591782	0.01125915
	0.008968122	0.01090085	7.749504e-07	6.439703e-06	-0.006079859	-0.01883114	1.28134e-06	1.542262e-06
	5.300811e-06	1.881206e-06	0.008591782	0.01125915	1.28134e-06	1.542262e-06	-0.007215135	-0.01783586
3.2e+08	-0.01034055	-0.02239843	1.226495e-06	1.186092e-06	0.01093634	0.01069273	5.690345e-06	6.121329e-07
	1.226495e-06	1.186092e-06	-0.01150162	-0.02117405	7.646797e-07	6.633936e-06	0.01051923	0.01117371
	0.01093634	0.01069273	7.646797e-07	6.633936e-06	-0.01034456	-0.02244716	1.347517e-06	1.313601e-06
	5.690345e-06	6.121329e-07	0.01051923	0.01117371	1.347517e-06	1.313601e-06	-0.01161041	-0.02110195
3.3e+08	-0.01537513	-0.02490237	1.225166e-06	9.636263e-07	0.01277116	0.01000686	5.764269e-06	-7.490417e-07
	1.225166e-06	9.636263e-07	-0.0165897	-0.0233269	7.519374e-07	6.838053e-06	0.01233947	0.01062133
	0.01277116	0.01000686	7.519374e-07	6.838053e-06	-0.01541288	-0.02496599	1.347192e-06	1.070817e-06
	5.764269e-06	-7.490417e-07	0.01233947	0.01062133	1.347192e-06	1.070817e-06	-0.01673487	-0.02323702
3.4e+08	-0.02092334	-0.02615842	1.159916e-06	7.43744e-07	0.01435805	0.008891241	5.501386e-06	-2.123107e-06
	1.159916e-06	7.43744e-07	-0.02211592	-0.0242175	7.393247e-07	7.052953e-06	0.01394056	0.009643477
	0.01435805	0.008891241	7.393247e-07	7.052953e-06	-0.02099835	-0.02622856	1.27706e-06	8.307049e-07
	5.501386e-06	-2.123107e-06	0.01394056	0.009643477	1.27706e-06	8.307049e-07	-0.02229391	-0.0241007
3.5e+08	-0.02667243	-0.02608122	1.031669e-06	5.425375e-07	0.01559811	0.007420745	4.900628e-06	-3.42626e-06
	1.031669e-06	5.425375e-07	-0.02776435	-0.02377926	7.297255e-07	7.278843e-06	0.01522457	0.00830785
	0.01559811	0.007420745	7.297255e-07	7.278843e-06	-0.02678617	-0.0261488	1.138114e-06	6.108201e-07
	4.900628e-06	-3.42626e-06	0.01522457	0.00830785	1.138114e-06	6.108201e-07	-0.0279694	-0.02362748
3.6e+08	-0.03229957	-0.02466203	8.454594e-07	3.757721e-07	0.01641427	0.005692287	3.981928e-06	-4.575262e-06
	8.454594e-07	3.757721e-07	-0.03321369	-0.02202293	7.261072e-07	7.515137e-06	0.01611355	0.006704012
	0.01641427	0.005692287	7.261072e-07	7.515137e-06	-0.03245133	-0.02471778	9.358173e-07	4.283577e-07
	3.981928e-06	-4.575262e-06	0.01611355	0.006704012	9.358173e-07	4.283577e-07	-0.03343815	-0.02182969
3.7e+08	-0.03749015	-0.02196855	6.103126e-07	2.578135e-07	0.01675591	0.003818618	2.785774e-06	-5.492714e-06
	6.103126e-07	2.578135e-07	-0.03815574	-0.01903507	7.312859e-07	7.760425e-06	0.01655416	0.004937632
	0.01675591	0.003818618	7.312859e-07	7.760425e-06	-0.03767705	-0.02200353	6.799755e-07	2.989899e-07
	2.785774e-06	-5.492714e-06	0.01655416	0.004937632	6.799755e-07	2.989899e-07	-0.03839053	-0.01879593
3.8e+08	-0.0419554	-0.01814044	3.388426e-07	2.005974e-07	0.01660179	0.001921245	1.371449e-06	-6.112109e-06
	3.388426e-07	2.005974e-07	-0.04231275	-0.01497247	7.476793e-07	8.012515e-06	0.01652073	0.003123872
	0.01660179	0.001921245	7.476793e-07	8.012515e-06	-0.04217248	-0.01814655	3.842953e-07	2.357525e-07
	1.371449e-06	-6.112109e-06	0.01652073	0.003123872	3.842953e-07	2.357525e-07	-0.04254788	-0.01468531
3.9e+08	-0.04544829	-0.01338093	4.657386e-08	2.127226e-07	0.01596116	0.0001229285	-1.859553e-07	-6.382341e-06
	4.657386e-08	2.127226e-07	-0.0454529	-0.01005257	7.770778e-07	8.268558e-06	0.0160165	0.001380326
	0.01596116	0.0001229285	7.770778e-07	8.268558e-06	-0.04568877	-0.01335137	6.565155e-08	2.480641e-07
	-1.859553e-07	-6.382341e-06	0.0160165	0.001380326	6.565155e-08	2.480641e-07	-0.04567807	-0.009717793
4e+08	-0.04777703	-0.007945052	-2.489697e-07	2.987419e-07	0.01487298	-0.001459757	-1.79958e-06	-6.271394e-06
	-2.489697e-07	2.987419e-07	-0.04740293	-0.00454069	8.204601e-07	8.52525e-06	0.01507317	-0.0001800515
	0.01487298	-0.001459757	8.204601e-07	8.52525e-06	-0.04803266	-0.007874744	-2.56895e-07	3.409585e-07
	-1.79958e-06	-6.271394e-06	0.01507317	-0.0001800515	-2.56895e-07	3.409585e-07	-0.04760817	-0.004161214
4.1e+08	-0.04881535	-0.002125163	-5.29346e-07	4.587137e-07	0.01340336	-0.00272338	-3.375664e-06	-5.768962e-06
	-5.29346e-07	4.587137e-07	-0.0480575	0.00126519	8.778789e-07	8.779077e-06	0.01374881	-0.001455605
	0.01340336	-0.00272338	8.778789e-07	8.779077e-06	-0.04907682	-0.00201106	-5.632632e-07	5.14595e-07
	-3.375664e-06	-5.768962e-06	0.01374881	-0.001455605	-5.632632e-07	5.14595e-07	-0.04823376	0.001684061
4.2e+08	-0.04850918	0.0037654	-7.763676e-07	6.88051e-07	0.01164155	-0.003583743	-4.818957e-06	-4.887847e-06
	-7.763676e-07	6.88051e-07	-0.04738459	0.007051326	9.484318e-07	9.026591e-06	0.01212425	-0.002361892
	0.01164155	-0.003583743	9.484318e-07	9.026591e-06	-0.04876663	0.003924107	-8.336173e-07	7.640866e-07
	-4.818957e-06	-4.887847e-06	0.01212425	-0.002361892	-8.336173e-07	7.640866e-07	-0.04752434	0.007502195
4.3e+08	-0.04687937	0.009409733	-9.732816e-07	9.776837e-07	0.009694568	-0.0039808	-6.038396e-06	-3.664012e-06
	-9.732816e-07	9.776837e-07	-0.04542698	0.01250584	1.030318e-06	9.264682e-06	0.01029826	-0.002836544
	0.009694568	-0.0039808	1.030318e-06	9.264682e-06	-0.04712291	0.009611515	-1.049645e-06	1.079664e-06
	-6.038396e-06	-3.664012e-06	0.01029826	-0.002836544	-1.049645e-06	1.079664e-06	-0.04552465	0.01297962
4.4e+08	-0.04402028	0.01450483	-1.10587e-06	1.31452e-06	0.007680903	-0.003882174	-6.95269e-06	-2.155273e-06
	-1.10587e-06	1.31452e-06	-0.04229953	0.01733607	1.120975e-06	9.490811e-06	0.008381757	-0.002842858
	0.007680903	-0.003882174	1.120975e-06	9.490811e-06	-0.04424056	0.01474587	-1.195751e-06	1.447161e-06
	-6.95269e-06	-2.155273e-06	0.008381757	-0.002842858	-1.195751e-06	1.447161e-06	-0.0423519	0.01782252
4.5e+08	-0.04009452	0.01877831	-1.163396e-06	1.682176e-06	0.005723599	-0.003285107	-7.495534e-06	-4.386579e-07
	-1.163396e-06	1.682176e-06	-0.03818255	0.02128488	1.217275e-06	9.703184e-06	0.006491378	-0.002371942
	0.005723599	-0.003285107	1.217275e-06	9.703184e-06	-0.04028325	0.01905265	-1.2601e-06	1.848792e-06
	-7.495534e-06	-4.386579e-07	0.006491378	-0.002371942	-1.2601e-06	1.848792e-06	-0.03818898	0.02177319
4.6e+08	-0.03532391	0.02200339	-1.139336e-06	2.061911e-06	0.003943055	-0.002216754	-7.62011e-06	1.393459e-06
	-1.139336e-06	2.061911e-06	-0.03331166	0.02414494	1.315757e-06	9.900859e-06	0.004742693	-0.001443329
	0.003943055	-0.002216754	1.315757e-06	9.900859e-06	-0.03547435	0.02230328	-1.235414e-06	2.264159e-06
	-7.62011e-06	1.393459e-06	0.004742693	-0.001443329	-1.235414e-06	2.264159e-06	-0.03327415	0.02462444
4.7e+08	-0.02997723	0.02401147	-1.031856e-06	2.433715e-06	0.002449928	-0.0007328005	-7.302619e-06	3.23827e-06
	-1.031856e-06	2.433715e-06	-0.02796453	0.02577021	1.412851e-06	1.008377e-05	0.003243462	-0.0001040044
	0.002449928	-0.0007328005	1.412851e-06	1.008377e-05	-0.03008454	0.02432765	-1.119531e-06	2.67142e-06
	-7.302619e-06	3.23827e-06	0.003243462	-0.0001040044	-1.119531e-06	2.67142e-06	-0.02788765	0.02623088
4.8e+08	-0.02435538	0.02470151	-8.440119e-07	2.777474e-06	0.001338515	0.001085559	-6.544583e-06	4.988253e-06
