!$
! Info: Touchstone file created by Circ.  Input file=Tx_12in_Rx_100ohms_TxVia_60mils_RxVia_70mils.circ
!$
# Hz S RI R 50
0	0.01246796	1.616349e-25	-6.440733e-05	7.42477e-24	8.370453e-05	2.462342e-23	-6.444287e-05	1.194831e-23
	-6.440732e-05	7.423952e-24	0.01246318	1.906396e-25	-6.436975e-05	2.964495e-24	8.391069e-05	3.040506e-23
	8.468419e-05	2.505505e-23	-6.436973e-05	2.963073e-24	0.01248174	1.547151e-25	-6.440077e-05	6.935525e-24
	-6.444286e-05	1.194681e-23	8.418012e-05	3.053544e-23	-6.440078e-05	6.936265e-24	0.01247751	1.898111e-25
1e+07	0.01731239	0.007825533	-0.0001039584	-3.958704e-05	0.0004088905	0.002220917	-0.0002683448	0.0001701341
	-0.0001039584	-3.958704e-05	0.01850707	0.007493816	-3.767138e-05	-1.398783e-05	0.0008289209	0.002268015
	0.0004088998	0.002220884	-3.767138e-05	-1.398783e-05	0.01798221	0.007480271	-1.176756e-05	-1.528088e-05
	-0.0002683448	0.0001701341	0.0008289238	0.002268013	-1.176757e-05	-1.528088e-05	0.01834023	0.007524074
2e+07	0.02370109	0.01103837	-6.637364e-05	-8.698448e-05	0.001219002	0.004333787	-0.0003088858	0.0001775446
	-6.637364e-05	-8.698448e-05	0.0242521	0.01012754	-3.099036e-05	-1.442422e-05	0.001497801	0.004595376
	0.001218975	0.004333786	-3.099036e-05	-1.442422e-05	0.02384634	0.01029588	-1.109377e-05	3.069424e-06
	-0.0003088858	0.0001775446	0.001497798	0.004595377	-1.109377e-05	3.069426e-06	0.02414678	0.01024117
3e+07	0.02916145	0.01129379	-4.800369e-05	-0.0001024497	0.00248932	0.006129681	-0.0003332136	0.0002102242
	-4.800369e-05	-0.0001024497	0.02919589	0.01030992	-2.674587e-05	-1.468631e-05	0.002666036	0.006472298
	0.002489317	0.006129685	-2.674587e-05	-1.468631e-05	0.02891162	0.01053145	-1.359929e-05	3.08112e-06
	-0.0003332136	0.0002102242	0.002666036	0.0064723	-1.359929e-05	3.081121e-06	0.02914342	0.0104522
4e+07	0.03391468	0.009944996	-9.367534e-05	-7.794406e-05	0.004131289	0.007538628	-0.0003476752	0.000248037
	-9.367534e-05	-7.794406e-05	0.03352255	0.009069376	-2.341621e-05	-1.451208e-05	0.004256636	0.007926236
	0.004131289	0.007538623	-2.341621e-05	-1.451208e-05	0.033364	0.009293558	-1.713517e-05	2.895511e-06
	-0.0003476752	0.000248037	0.004256637	0.007926237	-1.713517e-05	2.89551e-06	0.03351728	0.009220591
5e+07	0.03790198	0.007394412	-0.0001259143	-4.144526e-05	0.006036473	0.008490141	-0.0003539446	0.000288255
	-0.0001259143	-4.144526e-05	0.03717219	0.006740855	-2.05813e-05	-1.431192e-05	0.0062811	0.008796152
	0.00603647	0.008490139	-2.05813e-05	-1.431192e-05	0.03713855	0.006927596	-2.044546e-05	4.663879e-06
	-0.0003539446	0.000288255	0.006281101	0.008796152	-2.044546e-05	4.663879e-06	0.03720745	0.006888108
6e+07	0.04101899	0.003919487	-0.0001446236	2.729037e-06	0.008083529	0.008939538	-0.0003530205	0.0003290977
	-0.0001446236	2.729037e-06	0.04004744	0.003565741	-1.800564e-05	-1.423547e-05	0.00839947	0.009146824
	0.008083531	0.008939542	-1.800564e-05	-1.423547e-05	0.04012803	0.003677732	-2.303611e-05	8.001779e-06
	-0.0003530205	0.0003290977	0.008399471	0.009146824	-2.303611e-05	8.001779e-06	0.04011573	0.003699792
7e+07	0.04316708	-0.0002310832	-0.0001494018	5.120249e-05	0.01015619	0.008858712	-0.000346167	0.0003688987
	-0.0001494018	5.120249e-05	0.04205485	-0.00023727	-1.705512e-05	-1.263199e-05	0.01048878	0.008976713
	0.0101562	0.008858718	-1.705512e-05	-1.263199e-05	0.04223025	-0.0002321196	-2.442969e-05	1.249603e-05
	-0.000346167	0.0003688987	0.01048878	0.008976713	-2.442968e-05	1.249602e-05	0.04214779	-0.0001229618
8e+07	0.04427476	-0.00481269	-0.0001397893	0.000101005	0.01211455	0.008273027	-0.0003354204	0.000406148
	-0.0001397893	0.000101005	0.04312536	-0.004450189	-1.873895e-05	-6.453856e-06	0.01242753	0.008311749
	0.01211456	0.00827303	-1.873895e-05	-6.453856e-06	0.04336904	-0.004577191	-2.43156e-05	1.763014e-05
	-0.0003354204	0.000406148	0.01242753	0.008311748	-2.431559e-05	1.763013e-05	0.04323387	-0.004359628
9e+07	0.04430716	-0.009581339	-0.0001149988	0.0001495053	0.0138382	0.007232631	-0.0003243842	0.000439561
	-0.0001149988	0.0001495053	0.04322615	-0.008852482	-1.849142e-05	-1.658553e-07	0.01410227	0.007204875
	0.01383821	0.007232631	-1.849142e-05	-1.658547e-07	0.04350572	-0.009129054	-2.266382e-05	2.283322e-05
	-0.0003243842	0.000439561	0.01410227	0.007204874	-2.266381e-05	2.283321e-05	0.04334068	-0.008787215
1e+08	0.04326342	-0.01429943	-6.925686e-05	0.0001955469	0.01523026	0.005812415	-0.0003255953	0.0004659797
	-6.925686e-05	0.0001955469	0.04238157	-0.01322098	-1.551419e-05	6.092143e-06	0.01540737	0.005731571
	0.01523026	0.005812415	-1.551419e-05	6.092143e-06	0.04265878	-0.01365632	-1.976739e-05	2.756838e-05
	-0.0003255953	0.0004659797	0.01540737	0.005731571	-1.976739e-05	2.756838e-05	0.04249088	-0.0131807
1.1e+08	0.04121085	-0.01868555	-1.511556e-05	0.0002059328	0.01620251	0.004081382	-0.0003130661	0.0004559035
	-1.511556e-05	0.0002059328	0.04061377	-0.01744866	-1.086106e-05	8.089456e-06	0.01627667	0.004035676
	0.01620251	0.004081382	-1.086106e-05	8.089456e-06	0.0408489	-0.01802982	-1.553741e-05	3.054626e-05
	-0.0003130661	0.0004559035	0.01627667	0.004035677	-1.553741e-05	3.054626e-05	0.04071017	-0.01742078
1.2e+08	0.03828676	-0.02257796	-4.285183e-06	0.0002004208	0.01667947	0.002178003	-0.0002883838	0.0004512385
	-4.285183e-06	0.0002004208	0.03792885	-0.02124879	-7.334616e-06	9.262456e-06	0.01669598	0.002191108
	0.01667947	0.002178003	-7.334616e-06	9.262456e-06	0.03809444	-0.02196203	-1.01726e-05	3.222198e-05
	-0.0002883838	0.0004512385	0.01669598	0.002191108	-1.01726e-05	3.222198e-05	0.03801363	-0.02122875
1.3e+08	0.03461258	-0.02580537	9.21714e-06	0.0001948866	0.01664391	0.0002303457	-0.0002633361	0.0004467695
	9.21714e-06	0.0001948866	0.03447873	-0.02443022	-4.318438e-06	9.721189e-06	0.0166318	0.0003096301
	0.01664391	0.0002303456	-4.318438e-06	9.721189e-06	0.03454835	-0.02525495	-4.444188e-06	3.235822e-05
	-0.0002633361	0.0004467695	0.0166318	0.0003096312	-4.444188e-06	3.235822e-05	0.03455143	-0.02441444
1.4e+08	0.03035245	-0.02822481	2.366285e-05	0.0001883318	0.01610444	-0.001634556	-0.0002407369	0.000442349
	2.366285e-05	0.0001883318	0.03042919	-0.02684514	-1.679932e-06	9.656516e-06	0.01608787	-0.001490225
	0.01610444	-0.001634556	-1.679932e-06	9.656516e-06	0.0303817	-0.02775368	1.040593e-06	3.093808e-05
	-0.0002407369	0.000442349	0.01608787	-0.001490224	1.040593e-06	3.093808e-05	0.03048963	-0.02683017
1.5e+08	0.0256976	-0.02973235	3.802111e-05	0.0001804373	0.01509932	-0.003296028	-0.0002217638	0.0004389555
	3.802111e-05	0.0001804373	0.02596852	-0.02838673	6.239114e-07	9.184321e-06	0.01509808	-0.003094181
	0.01509932	-0.003296028	6.239114e-07	9.184321e-06	0.02579029	-0.02934572	5.741921e-06	2.815346e-05
	-0.0002217638	0.0004389555	0.01509808	-0.00309418	5.741921e-06	2.815346e-05	0.02601708	-0.02836922
1.6e+08	0.02085651	-0.03026833	5.157308e-05	0.0001712475	0.0136946	-0.004646669	-0.0002065746	0.000438013
	5.157308e-05	0.0001712475	0.0213004	-0.02899229	2.609388e-06	8.390605e-06	0.01372361	-0.004399637
	0.0136946	-0.004646669	2.609388e-06	8.390605e-06	0.02098693	-0.02996479	9.237697e-06	2.437239e-05
	-0.0002065746	0.000438013	0.01372361	-0.004399636	9.237697e-06	2.437239e-05	0.02133811	-0.02896916
1.7e+08	0.0160447	-0.0298201	6.384074e-05	0.0001610323	0.01198028	-0.005598698	-0.000194496	0.000441
	6.384074e-05	0.0001610323	0.01663482	-0.02864528	4.2842e-06	7.346087e-06	0.01204906	-0.005322046
	0.01198028	-0.005598698	4.2842e-06	7.346087e-06	0.0161917	-0.02959327	1.127221e-05	2.008683e-05
	-0.000194496	0.000441	0.01204906	-0.005322046	1.127221e-05	2.008683e-05	0.01666332	-0.02861383
1.8e+08	0.01147431	-0.02842246	7.457365e-05	0.0001501855	0.01006482	-0.00608919	-0.0001841645	0.0004491514
	7.457365e-05	0.0001501855	0.01217831	-0.02737535	5.654894e-06	6.111812e-06	0.01017718	-0.005800118
	0.01006482	-0.00608919	5.654894e-06	6.111812e-06	0.01162148	-0.02826244	1.178667e-05	1.584552e-05
	-0.0001841645	0.0004491514	0.01017718	-0.005800118	1.178667e-05	1.584552e-05	0.01219982	-0.02733339
1.9e+08	0.007343687	-0.02615572	8.374391e-05	0.0001391315	0.008068524	-0.00608382	-0.0001736996	0.0004632282
	8.374391e-05	0.0001391315	0.008124237	-0.02525629	6.088808e-06	5.277157e-06	0.008222562	-0.005799562
	0.008068524	-0.00608382	6.088808e-06	5.277157e-06	0.007479429	-0.02605049	1.093365e-05	1.217627e-05
	-0.0001736996	0.0004632282	0.008222563	-0.005799562	1.093365e-05	1.217627e-05	0.008141346	-0.0252023
2e+08	0.003827742	-0.02314157	9.149714e-05	0.0001282537	0.006116194	-0.005578876	-0.0001609163	0.0004833569
	9.149714e-05	0.0001282537	0.004643548	-0.02240194	6.010395e-06	4.880562e-06	0.006304639	-0.005315159
	0.006116194	-0.005578876	6.010395e-06	4.880562e-06	0.003945108	-0.02307823	9.034091e-06	9.520456e-06
	-0.0001609163	0.0004833569	0.006304639	-0.005315159	9.034091e-06	9.520456e-06	0.004659134	-0.02233512
2.1e+08	0.00106936	-0.01953672	9.811959e-05	0.0001178344	0.004329465	-0.004601382	-0.0001435664	0.0005089505
	9.811959e-05	0.0001178344	0.001876739	-0.01896011	5.981853e-06	4.54487e-06	0.004540389	-0.004371034
	0.004329465	-0.004601382	5.981853e-06	4.54487e-06	0.001165686	-0.01950271	6.544872e-06	8.176229e-06
	-0.0001435664	0.0005089505	0.004540389	-0.004371034	6.544872e-06	8.176229e-06	0.001893728	-0.01888041
2.2e+08	-0.0008275235	-0.01552488	0.000103989	0.0001080047	0.002819377	-0.003207329	-0.0001195866	0.0005387107
	0.000103989	0.0001080047	-7.275848e-05	-0.01510487	6.011115e-06	4.25077e-06	0.003037212	-0.003019125
	0.002819377	-0.003207329	6.011115e-06	4.25077e-06	-0.0007512009	-0.01550891	4.005921e-06	8.25182e-06
	-0.0001195866	0.0005387107	0.003037212	-0.003019125	4.005921e-06	8.25182e-06	-5.156253e-05	-0.01501301
2.3e+08	-0.001802894	-0.0113073	0.0001094998	9.872843e-05	0.001679609	-0.001478129	-8.732919e-05	0.0005707132
	0.0001094998	9.872843e-05	-0.001143265	-0.01102755	6.102446e-06	3.975833e-06	0.001886421	-0.001335936
	0.001679609	-0.001478129	6.102446e-06	3.975833e-06	-0.001742574	-0.01130011	1.960212e-06	9.652922e-06
	-8.732919e-05	0.0005707132	0.001886421	-0.001335936	1.960212e-06	9.652922e-06	-0.001115365	-0.01092494
2.4e+08	-0.001843342	-0.007092384	0.0001149953	8.981049e-05	0.000980831	0.0004844871	-4.574717e-05	0.0006025664
	0.0001149953	8.981049e-05	-0.001317431	-0.006926921	6.254397e-06	3.6963e-06	0.001157758	0.0005821982
	0.000980831	0.0004844871	6.254397e-06	3.6963e-06	-0.001792914	-0.00708733	8.810914e-07	1.209516e-05
	-4.574717e-05	0.0006025664	0.001157758	0.0005821982	8.810914e-07	1.209516e-05	-0.001280804	-0.00681559
2.5e+08	-0.0009823186	-0.003085041	0.0001207093	8.092726e-05	0.0007664856	0.002564777	5.479537e-06	0.0006316167
	0.0001207093	8.092726e-05	-0.000622502	-0.002999121	6.458967e-06	3.388777e-06	0.0008952616	0.002625033
	0.0007664856	0.002564777	6.458967e-06	3.388777e-06	-0.0009344664	-0.003078341	1.108804e-06	1.514157e-05
	5.479537e-06	0.0006316167	0.0008952616	0.002625033	1.108804e-06	1.514157e-05	-0.0005757338	-0.00288153
2.6e+08	0.0007020473	0.0005237784	0.0001267238	7.167761e-05	0.001050283	0.004640118	6.589658e-05	0.0006551872
	0.0001267238	7.167761e-05	0.0008716692	0.0005722698	6.701492e-06	3.033005e-06	0.001114732	0.004675137
	0.001050283	0.004640118	6.701492e-06	3.033005e-06	0.0007549334	0.0005329862	2.805003e-06	1.82601e-05
	6.589658e-05	0.0006551872	0.001114732	0.004675137	2.805003e-06	1.82601e-05	0.0009292928	0.0006933705
2.7e+08	0.003091454	0.003566726	0.000132948	6.164445e-05	0.001815519	0.006588486	0.0001343035	0.0006708145
	0.000132948	6.164445e-05	0.003056806	0.003625338	6.96176e-06	2.614038e-06	0.001802923	0.006614999
	0.001815519	0.006588486	6.96176e-06	2.614038e-06	0.003156433	0.003576572	5.930595e-06	2.089338e-05
	0.0001343035	0.0006708145	0.001802923	0.006614998	5.930595e-06	2.089338e-05	0.003125247	0.003747099
2.8e+08	0.006033987	0.005908394	0.0001391219	5.046093e-05	0.003016239	0.008295842	0.0002088641	0.0006764639
	0.0001391219	5.046093e-05	0.005792303	0.006027733	7.216075e-06	2.124206e-06	0.002918491	0.008334064
	0.003016239	0.008295842	7.216075e-06	2.124206e-06	0.006116832	0.005914669	1.025014e-05	2.253136e-05
	0.0002088641	0.0006764639	0.002918491	0.008334064	1.025014e-05	2.253136e-05	0.005870775	0.006147404
2.9e+08	0.009352383	0.007451891	0.0001448432	3.786977e-05	0.004580152	0.009662963	0.0002872704	0.0006706933
	0.0001448432	3.786977e-05	0.008912911	0.007682933	7.439878e-06	1.563851e-06	0.004394608	0.009735304
	0.004580152	0.009662963	7.439878e-06	1.563851e-06	0.009456998	0.007448602	1.536125e-05	2.277753e-05
	0.0002872704	0.0006706933	0.004394608	0.009735304	1.536125e-05	2.277753e-05	0.008999922	0.007798051
3e+08	0.01285352	0.008143346	0.0001496132	2.376961e-05	0.006413087	0.01061133	0.0003669501	0.0006527553
	0.0001496132	2.376961e-05	0.01223757	0.008534573	7.610501e-06	9.410778e-07	0.006143064	0.01074091
	0.006413086	0.01061133	7.610501e-06	9.410778e-07	0.01298154	0.008123385	2.074528e-05	2.140024e-05
	0.0003669501	0.0006527553	0.006143064	0.01074091	2.074528e-05	2.140024e-05	0.01233103	0.008643134
3.1e+08	0.01633861	0.007974121	0.0001528987	8.242398e-06	0.0084047	0.01108775	0.0004452981	0.0006226228
	0.0001528987	8.242398e-06	0.01557894	0.008568647	7.709717e-06	2.705847e-07	0.008059581	0.01129683
	0.0084047	0.01108775	7.709717e-06	2.705847e-07	0.01648922	0.007930004	2.583286e-05	1.836259e-05
	0.0004452981	0.0006226228	0.008059581	0.01129683	2.583286e-05	1.836259e-05	0.01567626	0.008669248
3.2e+08	0.01961361	0.006980628	0.0001541965	-8.442816e-06	0.0104351	0.01106744	0.000519888	0.000580943
	0.0001541965	-8.442816e-06	0.01875304	0.007813496	7.725473e-06	-4.284628e-07	0.01003003	0.01137584
	0.0104351	0.01106744	7.725473e-06	-4.284628e-07	0.01978356	0.006905239	3.007498e-05	1.382768e-05
	0.000519888	0.000580943	0.01003003	0.01137584	3.007498e-05	1.382768e-05	0.01885136	0.007905441
3.3e+08	0.02249921	0.00524184	0.0001530977	-2.584895e-05	0.01238199	0.01055543	0.0005886592	0.0005289252
	0.0001530977	-2.584895e-05	0.0215887	0.006337646	7.652776e-06	-1.134914e-06	0.01193718	0.01097908
	0.01238199	0.01055543	7.652776e-06	-1.134914e-06	0.02268301	0.005129135	3.301125e-05	8.138741e-06
	0.0005886592	0.0005289252	0.01193718	0.01097908	3.301125e-05	8.138741e-06	0.02168502	0.006420999
3.4e+08	0.02483998	0.002874609	0.0001493416	-4.34111e-05	0.01412788	0.009586262	0.0006500545	0.0004681743
	0.0001493416	-4.34111e-05	0.02393602	0.00424562	7.493697e-06	-1.828156e-06	0.01366757	0.01013593
	0.01412788	0.009586262	7.493697e-06	-1.828156e-06	0.02503032	0.002720218	3.432724e-05	1.776415e-06
	0.0006500545	0.0004681743	0.01366757	0.01013593	3.432724e-05	1.776415e-06	0.02402742	0.004321224
3.5e+08	0.02651215	2.707986e-05	0.0001428512	-6.049279e-05	0.01556707	0.008221916	0.0007030856	0.0004005
	0.0001428512	-6.049279e-05	0.02567381	0.001671973	7.256398e-06	-2.490402e-06	0.01511814	0.008902262
	0.01556707	0.008221916	7.256398e-06	-2.490402e-06	0.02670044	-0.0001712113	3.389135e-05	-4.698531e-06
	0.0007030856	0.0004005	0.01511814	0.008902262	3.389135e-05	-4.698531e-06	0.02575765	0.001741407
3.6e+08	0.0274297	-0.00312944	0.000133749	-7.645155e-05	0.01661188	0.006548229	0.0007473309	0.0003277183
	0.000133749	-7.645155e-05	0.02671535	-0.001226105	6.947934e-06	-3.103859e-06	0.01620231	0.00735716
	0.01661188	0.006548229	6.947934e-06	-3.103859e-06	0.02760671	-0.003371388	3.205768e-05	-1.135848e-05
	0.0007473309	0.0003277183	0.01620231	0.00735716	3.205768e-05	-1.135848e-05	0.02678943	-0.001160608
3.7e+08	0.02754843	-0.006409735	0.000122348	-9.070584e-05	0.01719788	0.004669874	0.0007828835	0.0002514597
	0.000122348	-9.070584e-05	0.02701234	-0.00427725	6.589243e-06	-3.662867e-06	0.01685501	0.005598345
	0.01719788	0.004669874	6.589243e-06	-3.662867e-06	0.02770501	-0.006692512	2.868394e-05	-1.723647e-05
	0.0007828835	0.0002514597	0.01685501	0.005598345	2.868394e-05	-1.723647e-05	0.0270751	-0.004212937
3.8e+08	0.02686784	-0.009624586	0.0001091212	-0.0001027951	0.01728778	0.002704254	0.0008102142	0.0001730315
	0.0001091212	-0.0001027951	0.02655689	-0.007305019	6.197643e-06	-4.166558e-06	0.01703658	0.003736488
	0.01728778	0.002704254	6.197643e-06	-4.166558e-06	0.02699564	-0.009942855	2.410869e-05	-2.179442e-05
	0.0008102142	0.0001730315	0.01703658	0.003736488	2.410869e-05	-2.179442e-05	0.02660748	-0.007238776
3.9e+08	0.02543073	-0.01259081	9.465185e-05	-0.0001124258	0.01687377	0.0007746281	0.0008300127	9.332653e-05
	9.465185e-05	-0.0001124258	0.0253814	-0.01013714	5.787642e-06	-4.618941e-06	0.01673519	0.001888762
	0.01687377	0.0007746281	5.787642e-06	-4.618941e-06	0.02552286	-0.012937	1.885051e-05	-2.478428e-05
	0.0008300127	9.332653e-05	0.01673519	0.001888762	1.885051e-05	-2.478428e-05	0.02541976	-0.01006569
4e+08	0.0233205	-0.01514096	7.957135e-05	-0.0001194977	0.01597817	-0.00099716	0.0008430087	1.279852e-05
	7.957135e-05	-0.0001194977	0.02355632	-0.01261448	5.3703e-06	-5.028641e-06	0.01596763	0.0001719863
	0.01597817	-0.00099716	5.3703e-06	-5.028641e-06	0.02337214	-0.01550569	1.347019e-05	-2.615352e-05
	0.0008430087	1.279852e-05	0.01596763	0.0001719863	1.347019e-05	-2.615352e-05	0.02358326	-0.01253459
4.1e+08	0.0206564	-0.01713209	6.449134e-05	-0.0001241074	0.01465228	-0.002497928	0.000849798	-6.850094e-05
	6.449134e-05	-0.0001241074	0.02118604	-0.01459926	4.951843e-06	-5.407401e-06	0.01477849	-0.001304264
	0.01465228	-0.002497928	4.951843e-06	-5.407401e-06	0.02066524	-0.01750477	8.49969e-06	-2.604662e-05
	0.000849798	-6.850094e-05	0.01477849	-0.001304264	8.49969e-06	-2.604662e-05	0.02120314	-0.01450794
4.2e+08	0.01758682	-0.01845332	4.993908e-05	-0.0001265275	0.01297359	-0.003629959	0.0008506942	-0.0001508234
	4.993908e-05	-0.0001265275	0.01840299	-0.01598212	4.532793e-06	-5.768158e-06	0.01323769	-0.002444177
	0.01297359	-0.003629959	4.532793e-06	-5.768158e-06	0.01755336	-0.01882283	4.374931e-06	-2.478107e-05
	0.0008506942	-0.0001508234	0.01323769	-0.002444177	4.374931e-06	-2.478107e-05	0.01841259	-0.01587683
4.3e+08	0.0142811	-0.01903153	3.630382e-05	-0.0001271657	0.01104131	-0.004316964	0.0008456283	-0.000234575
	3.630382e-05	-0.0001271657	0.0153603	-0.01668761	4.107743e-06	-6.122882e-06	0.01143648	-0.003171473
	0.01104131	-0.004316964	4.107743e-06	-6.122882e-06	0.01420874	-0.01938698	1.381399e-06	-2.280123e-05
	0.0008456283	-0.000234575	0.01143648	-0.003171473	1.381399e-06	-2.280123e-05	0.01536532	-0.01656644
4.4e+08	0.0109202	-0.01883512	2.380119e-05	-0.0001265064	0.008970603	-0.004508817	0.0008341082	-0.0003201433
	2.380119e-05	-0.0001265064	0.01222344	-0.01667796	3.665898e-06	-6.480364e-06	0.009482132	-0.003434063
	0.008970603	-0.004508817	3.665898e-06	-6.480364e-06	0.01081515	-0.01916662	-3.80602e-07	-2.061588e-05
	0.0008341082	-0.0003201433	0.009482132	-0.003434063	-3.80602e-07	-2.061588e-05	0.01222724	-0.01653976
4.5e+08	0.007686749	-0.01787549	1.246011e-05	-0.0001250448	0.006885825	-0.004184781	0.0008152469	-0.0004077149
	1.246011e-05	-0.0001250448	0.009161155	-0.01595467	3.1924e-06	-6.844212e-06	0.007491683	-0.003207313
	0.006885825	-0.004184781	3.1924e-06	-6.844212e-06	0.00755772	-0.01817486	-1.0062e-06	-1.872736e-05
	0.0008152469	-0.0004077149	0.007491683	-0.003207313	-1.0062e-06	-1.872736e-05	0.009167343	-0.01579916
4.6e+08	0.004755029	-0.01620615	2.133487e-06	-0.0001232217	0.004913084	-0.003354975	0.0007879466	-0.0004970204
	2.133487e-06	-0.0001232217	0.006336379	-0.01455816	2.670388e-06	-7.211331e-06	0.005584955	-0.002495679
	0.004913084	-0.003354975	2.670388e-06	-7.211331e-06	0.00461274	-0.01646755	-7.70869e-07	-1.756279e-05
	0.0007879466	-0.0004970204	0.005584955	-0.002495679	-7.70869e-07	-1.756279e-05	0.006348557	-0.01438595
4.7e+08	0.002281423	-0.01391947	-7.375401e-06	-0.0001211814	0.003172662	-0.002059995	0.0007360103	-0.0005997742
	-7.375401e-06	-0.0001211814	0.003897393	-0.01256514	2.082581e-06	-7.574832e-06	0.003877418	-0.001332607
	0.003172662	-0.002059995	2.082581e-06	-7.574832e-06	0.00213797	-0.01413997	6.391272e-09	-1.723663e-05
	0.0007360103	-0.0005997742	0.003877418	-0.001332607	6.391272e-09	-1.723663e-05	0.00391896	-0.01237768
4.8e+08	0.0003958898	-0.01114153	-1.648403e-05	-0.0001192765	0.001771721	-0.0003686699	0.0006681695	-0.0007002086
