!$
! Info: Touchstone file created by Circ.  Input file=Tx_10in_Rx_85ohms_TxVia_60mils_RxVia_70mils.circ
!$
# Hz S RI R 50
0	0.0081325	1.369891e-25	1.650869e-09	2.854877e-27	7.474939e-05	1.589315e-23	-1.448781e-10	6.351707e-26
	1.650883e-09	2.854882e-27	0.008128236	1.654887e-25	4.500106e-09	9.626306e-27	7.387701e-05	1.977474e-23
	7.388134e-05	1.58221e-23	4.500107e-09	9.626309e-27	0.008146284	1.385032e-25	3.715349e-09	3.017442e-27
	-1.445883e-10	6.348159e-26	7.414668e-05	1.985954e-23	3.715266e-09	3.017426e-27	0.008142685	1.647614e-25
1e+07	0.01041366	-0.009336026	2.050981e-09	3.750729e-09	0.0003550844	0.001934494	-2.845807e-09	1.181871e-08
	2.050981e-09	3.750729e-09	0.01043496	-0.009339881	6.221387e-09	1.340027e-08	0.0003517797	0.001939332
	0.0003550689	0.001934508	6.221387e-09	1.340027e-08	0.01046315	-0.009316514	-1.27767e-09	1.25707e-08
	-2.845807e-09	1.181871e-08	0.0003517822	0.00193933	-1.27767e-09	1.25707e-08	0.0104175	-0.009327845
2e+07	0.01008938	-0.02130744	2.654275e-09	6.81574e-09	0.001004193	0.003706202	1.554321e-09	3.845996e-09
	2.654275e-09	6.81574e-09	0.01006775	-0.02131981	7.617318e-09	2.404719e-08	0.0009915217	0.003718167
	0.0010042	0.003706211	7.617318e-09	2.404719e-08	0.01013602	-0.02128205	-4.91833e-10	6.808571e-09
	1.554321e-09	3.845996e-09	0.0009915188	0.003718168	-4.91833e-10	6.80857e-09	0.01005885	-0.02128707
3e+07	0.006246193	-0.03387963	3.08526e-09	9.525673e-09	0.001991067	0.005274022	2.539697e-09	5.700187e-09
	3.08526e-09	9.525673e-09	0.006163108	-0.03387757	7.893633e-09	3.455434e-08	0.001963938	0.005297314
	0.001991068	0.005274022	7.893633e-09	3.455434e-08	0.006293711	-0.03384182	2.707701e-09	9.664339e-09
	2.539697e-09	5.700187e-09	0.001963938	0.005297316	2.707701e-09	9.664339e-09	0.006159521	-0.03383236
4e+07	-0.0005336488	-0.04558755	3.436896e-09	1.221492e-08	0.003264393	0.006575799	3.089429e-09	7.073605e-09
	3.436896e-09	1.221492e-08	-0.0006926686	-0.04554872	7.711316e-09	4.529556e-08	0.00321924	0.006616236
	0.003264392	0.0065758	7.711316e-09	4.529556e-08	-0.0004828335	-0.04553717	3.088057e-09	1.260482e-08
	3.089429e-09	7.073605e-09	0.003219241	0.006616237	3.088057e-09	1.260482e-08	-0.0006931655	-0.04549314
5e+07	-0.009785911	-0.05572373	3.731199e-09	1.485935e-08	0.004756822	0.00755924	3.515176e-09	8.290597e-09
	3.731199e-09	1.485935e-08	-0.01002901	-0.05562197	7.218409e-09	5.639999e-08	0.004692025	0.007623714
	0.004756821	0.007559241	7.218409e-09	5.639999e-08	-0.009730179	-0.05566187	3.137341e-09	1.545134e-08
	3.515176e-09	8.290597e-09	0.004692026	0.007623714	3.137341e-09	1.545134e-08	-0.01002854	-0.05555631
6e+07	-0.02101594	-0.06378431	3.962472e-09	1.745535e-08	0.00639113	0.008188704	3.827065e-09	9.384876e-09
	3.962473e-09	1.745535e-08	-0.02134344	-0.06359169	6.580977e-09	6.795452e-08	0.006307221	0.00828459
	0.006391128	0.008188703	6.580977e-09	6.795452e-08	-0.02095441	-0.06371244	3.096423e-09	1.833896e-08
	3.827065e-09	9.384876e-09	0.006307223	0.00828459	3.096423e-09	1.833896e-08	-0.0213435	-0.06351524
7e+07	-0.03368537	-0.06941205	4.115779e-09	2.001337e-08	0.008085281	0.008447017	3.998701e-09	1.038548e-08
	4.115779e-09	2.001337e-08	-0.03408981	-0.0691011	5.971138e-09	8.001007e-08	0.007984999	0.008581584
	0.008085277	0.008447016	5.971138e-09	8.001007e-08	-0.03361776	-0.0693317	3.029657e-09	2.128875e-08
	3.998701e-09	1.038548e-08	0.007985	0.008581584	3.029657e-09	2.128875e-08	-0.03409134	-0.06901268
8e+07	-0.04722395	-0.0723832	4.175074e-09	2.255407e-08	0.009757073	0.008335735	4.003802e-09	1.133321e-08
	4.175074e-09	2.255407e-08	-0.0476906	-0.07192868	5.563003e-09	9.257257e-08	0.009645289	0.00851557
	0.009757069	0.008335735	5.563003e-09	9.257257e-08	-0.04715044	-0.07229573	2.966433e-09	2.429362e-08
	4.003802e-09	1.133321e-08	0.009645289	0.008515569	2.966434e-09	2.429362e-08	-0.04769406	-0.07182681
9e+07	-0.06104921	-0.07260249	4.127059e-09	2.510646e-08	0.01132859	0.007874366	3.826972e-09	1.227836e-08
	4.127059e-09	2.510646e-08	-0.06155672	-0.07198298	5.525017e-09	1.056013e-07	0.01121211	0.008104829
	0.01132859	0.007874367	5.525017e-09	1.056013e-07	-0.06097026	-0.072509	2.920034e-09	2.733528e-08
	3.826972e-09	1.227836e-08	0.01121211	0.008104829	2.920034e-09	2.733528e-08	-0.06156206	-0.07186594
1e+08	-0.07459075	-0.07009937	3.958612e-09	2.770067e-08	0.01273198	0.007099913	3.467908e-09	1.327729e-08
	3.958612e-09	2.770067e-08	-0.07511194	-0.06929859	6.00958e-09	1.190044e-07	0.0126192	0.007384645
	0.01273198	0.007099913	6.00958e-09	1.190044e-07	-0.0745068	-0.07000048	2.88553e-09	3.038191e-08
	3.467908e-09	1.327729e-08	0.0126192	0.007384645	2.88553e-09	3.038191e-08	-0.07511869	-0.06916478
1.1e+08	-0.08730741	-0.06499506	3.758666e-09	3.034246e-08	0.01391012	0.006045751	2.96383e-09	1.438017e-08
	3.758666e-09	3.034246e-08	-0.08780948	-0.06400523	7.184379e-09	1.326702e-07	0.01381057	0.006386215
	0.01391012	0.006045751	7.184379e-09	1.326702e-07	-0.08721876	-0.06489244	2.819472e-09	3.354396e-08
	2.96383e-09	1.438017e-08	0.01381057	0.006386215	2.819472e-09	3.354396e-08	-0.08781634	-0.06385199
1.2e+08	-0.09868599	-0.05754539	3.48725e-09	3.309782e-08	0.01480092	0.004778236	2.325148e-09	1.561774e-08
	3.48725e-09	3.309782e-08	-0.09913564	-0.05636577	9.111755e-09	1.464458e-07	0.01472471	0.005173526
	0.01480092	0.004778236	9.111755e-09	1.464458e-07	-0.09859429	-0.0574397	2.774745e-09	3.680718e-08
	2.325148e-09	1.561774e-08	0.01472471	0.005173526	2.774745e-09	3.680718e-08	-0.09913961	-0.05619169
1.3e+08	-0.1083037	-0.0480882	3.163411e-09	3.599111e-08	0.01537417	0.003366341	1.584976e-09	1.702539e-08
	3.163411e-09	3.599111e-08	-0.1086667	-0.04672619	1.184421e-08	1.601399e-07	0.01533143	0.003812982
	0.01537417	0.003366341	1.184421e-08	1.601399e-07	-0.1082103	-0.04797946	2.768678e-09	4.017299e-08
	1.584976e-09	1.702539e-08	0.01533143	0.003812983	2.768678e-09	4.017299e-08	-0.1086646	-0.04653084
1.4e+08	-0.1158151	-0.03703032	2.823221e-09	3.904464e-08	0.01561201	0.001880483	7.80762e-10	1.862686e-08
	2.823221e-09	3.904464e-08	-0.1160585	-0.03550179	1.538554e-08	1.73553e-07	0.01561221	0.002372426
	0.01561201	0.001880483	1.538554e-08	1.73553e-07	-0.115721	-0.03691825	2.830231e-09	4.364141e-08
	7.80762e-10	1.862686e-08	0.01561221	0.002372427	2.830231e-09	4.364141e-08	-0.1160472	-0.0352856
1.5e+08	-0.1209648	-0.02483222	2.510652e-09	4.228818e-08	0.01551061	0.0003915405	-3.955079e-11	2.044447e-08
	2.510652e-09	4.228818e-08	-0.1210591	-0.02316116	1.968811e-08	1.864846e-07	0.01556196	0.0009203078
	0.01551061	0.0003915405	1.968811e-08	1.864846e-07	-0.1208709	-0.02471632	2.990996e-09	4.722151e-08
	-3.955079e-11	2.044447e-08	0.01556195	0.0009203086	2.990996e-09	4.722151e-08	-0.1210352	-0.02292547
1.6e+08	-0.123594	-0.01198966	2.282544e-09	4.572853e-08	0.01507977	-0.001031515	-8.279891e-10	2.248477e-08
	2.282544e-09	4.572853e-08	-0.123515	-0.01020736	2.465236e-08	1.987463e-07	0.01518859	-0.0004765267
	0.01507977	-0.001031515	2.465236e-08	1.987463e-07	-0.1235009	-0.01186925	3.290574e-09	5.090232e-08
	-8.279891e-10	2.248477e-08	0.01518859	-0.000476526	3.290574e-09	5.090232e-08	-0.1234757	-0.009954372
1.7e+08	-0.1236441	0.0009852992	2.20023e-09	4.935526e-08	0.0143421	-0.002323832	-1.535972e-09	2.474464e-08
	2.20023e-09	4.935526e-08	-0.1233748	0.002841457	3.013063e-08	2.101746e-07	0.01451232	-0.001754912
	0.0143421	-0.002323832	3.013063e-08	2.101746e-07	-0.1235523	0.001110926	3.768936e-09	5.465964e-08
	-1.535972e-09	2.474464e-08	0.01451232	-0.001754911	3.768936e-09	5.465964e-08	-0.1233176	0.003108755
1.8e+08	-0.1211568	0.01358309	2.32377e-09	5.313881e-08	0.01333187	-0.003426666	-2.115865e-09	2.721148e-08
	2.32377e-09	5.313881e-08	-0.1206884	0.01547127	3.59342e-08	2.206432e-07	0.0135646	-0.002857226
	0.01333187	-0.003426666	3.59342e-08	2.206432e-07	-0.1210663	0.01371465	4.461537e-09	5.845488e-08
	-2.115865e-09	2.721148e-08	0.0135646	-0.002857226	4.461537e-09	5.845488e-08	-0.1206116	0.01574921
1.9e+08	-0.1162705	0.02531489	2.705556e-09	5.703061e-08	0.01209372	-0.004289156	-2.522318e-09	2.986364e-08
	2.705556e-09	5.703061e-08	-0.115604	0.02719075	4.184334e-08	2.300727e-07	0.01238698	-0.003733076
	0.01209372	-0.004289156	4.184334e-08	2.300727e-07	-0.1161813	0.02545307	5.393983e-09	6.223601e-08
	-2.522318e-09	2.986364e-08	0.01238698	-0.003733076	5.393983e-09	6.223601e-08	-0.1155066	0.02747516
2e+08	-0.1092146	0.03573001	3.384068e-09	6.096556e-08	0.01068119	-0.004869933	-2.713523e-09	3.267064e-08
	3.384068e-09	6.096556e-08	-0.1083611	0.03754885	4.761966e-08	2.384375e-07	0.01102979	-0.004340839
	0.01068119	-0.004869933	4.761966e-08	2.384375e-07	-0.1091266	0.03587541	6.57699e-09	6.594044e-08
	-2.713523e-09	3.267064e-08	0.01102979	-0.004340839	6.57699e-09	6.594044e-08	-0.1082433	0.03783527
2.1e+08	-0.1003009	0.04443193	4.378588e-09	6.486654e-08	0.009155035	-0.005138573	-2.652522e-09	3.559347e-08
	4.378588e-09	6.486654e-08	-0.09928177	0.04615102	5.301989e-08	2.457694e-07	0.009550595	-0.004649095
	0.009155035	-0.005138573	5.301989e-08	2.457694e-07	-0.1002137	0.04458503	8.002387e-09	6.94998e-08
	-2.652522e-09	3.559347e-08	0.009550595	-0.004649095	8.002387e-09	6.94998e-08	-0.09914466	0.04643492
2.2e+08	-0.08991155	0.05109273	5.68558e-09	6.865074e-08	0.007581321	-0.005076895	-2.308722e-09	3.85848e-08
	5.68558e-09	6.865074e-08	-0.08875813	0.05267368	5.781012e-08	2.521579e-07	0.008012491	-0.004637928
	0.007581322	-0.005076895	5.781012e-08	2.521579e-07	-0.08982478	0.05125392	9.640866e-09	7.284622e-08
	-2.308722e-09	3.85848e-08	0.008012491	-0.004637928	9.640866e-09	7.284622e-08	-0.08860396	0.05295073
2.3e+08	-0.07848538	0.05546547	7.277311e-09	7.223693e-08	0.006029214	-0.004680035	-1.659715e-09	4.158947e-08
	7.277311e-09	7.223693e-08	-0.07723812	0.05687649	6.177937e-08	2.577455e-07	0.006482054	-0.004300057
	0.006029214	-0.004680035	6.177937e-08	2.577455e-07	-0.07839856	0.05563499	1.144197e-08	7.591935e-08
	-1.659715e-09	4.158947e-08	0.006482054	-0.004300057	1.144197e-08	7.591935e-08	-0.07707017	0.0571428
2.4e+08	-0.06650177	0.057394	9.103045e-09	7.555313e-08	0.004568471	-0.003957208	-6.934013e-10	4.454535e-08
	9.103045e-09	7.555313e-08	-0.06520873	0.05861202	6.475153e-08	2.627216e-07	0.005026979	-0.003641679
	0.004568471	-0.003957208	6.475153e-08	2.627216e-07	-0.06641441	0.05757196	1.333663e-08	7.867337e-08
	-6.934013e-10	4.454535e-08	0.005026979	-0.003641679	1.333663e-08	7.867337e-08	-0.06503122	0.05886438
2.5e+08	-0.05446242	0.05681981	1.109275e-08	7.85434e-08	0.003266621	-0.002932042	5.896708e-10	4.738487e-08
	1.109275e-08	7.85434e-08	-0.05317738	0.05783227	6.659509e-08	2.673129e-07	0.003713402	-0.002682925
	0.003266621	-0.002932042	6.659509e-08	2.673129e-07	-0.05437402	0.05700618	1.524209e-08	8.108286e-08
	5.896708e-10	4.738487e-08	0.003713402	-0.002682925	1.524209e-08	8.108286e-08	-0.05299533	0.0580684
2.6e+08	-0.04287192	0.05378546	1.316299e-08	8.117307e-08	0.002185922	-0.001642326	2.17401e-09	5.003745e-08
	1.316299e-08	8.117307e-08	-0.04165208	0.05459168	6.722994e-08	2.717718e-07	0.002602959	-0.001457757
	0.002185922	-0.001642326	6.722994e-08	2.717718e-07	-0.04278201	0.05398005	1.706886e-08	8.314692e-08
	2.17401e-09	5.003745e-08	0.002602959	-0.001457757	1.706886e-08	8.314692e-08	-0.04147109	0.05481038
2.7e+08	-0.03221746	0.04843402	1.522422e-08	8.343165e-08	0.001380219	-0.0001390635	4.027279e-09	5.243283e-08
	1.522422e-08	8.343165e-08	-0.03112078	0.04904607	6.663127e-08	2.763646e-07	0.001749717	-1.319029e-05
	0.001380219	-0.0001390635	6.663127e-08	2.763646e-07	-0.03212567	0.04863654	1.872883e-08	8.489051e-08
	4.027279e-09	5.243283e-08	0.001749717	-1.319031e-05	1.872883e-08	8.489051e-08	-0.03094682	0.04924741
2.8e+08	-0.02294869	0.04100455	1.718857e-08	8.533292e-08	0.0008918934	0.001515272	6.09923e-09	5.450547e-08
	1.718857e-08	8.533292e-08	-0.02203101	0.04144749	6.48306e-08	2.813597e-07	0.001197165	0.001592257
	0.0008918934	0.001515272	6.48306e-08	2.813597e-07	-0.02285474	0.0412146	2.014353e-08	8.636293e-08
	6.09923e-09	5.450547e-08	0.001197165	0.001592257	2.014353e-08	8.636293e-08	-0.02187011	0.04163288
2.9e+08	-0.01545841	0.03182315	1.897694e-08	8.691233e-08	0.0007491513	0.003249285	8.321908e-09	5.619956e-08
	1.897694e-08	8.691233e-08	-0.01477054	0.03213467	6.191436e-08	2.870158e-07	0.0009754931	0.003290926
	0.0007491513	0.003249285	6.191436e-08	2.870158e-07	-0.01536215	0.03204023	2.12513e-08	8.763338e-08
	8.321908e-09	5.619956e-08	0.0009754931	0.003290926	2.12513e-08	8.763338e-08	-0.01462849	0.03230685
3e+08	-0.01006526	0.02129003	2.052438e-08	8.822229e-08	0.0009639036	0.004985971	1.061149e-08	5.747432e-08
	2.052438e-08	8.822229e-08	-0.0096501	0.02151933	5.802053e-08	2.935723e-07	0.001099424	0.005009126
	0.0009639037	0.004985971	5.802053e-08	2.935723e-07	-0.009966733	0.0215136	2.201239e-08	8.878435e-08
	1.061149e-08	5.747432e-08	0.001099424	0.005009126	2.201239e-08	8.878435e-08	-0.009532166	0.0216824
3.1e+08	-0.006999423	0.009862797	2.177934e-08	8.929516e-08	0.00153048	0.006646611	1.287179e-08	5.83095e-08
	2.177934e-08	8.929516e-08	-0.006889322	0.01006891	5.333122e-08	3.012285e-07	0.00156684	0.006670855
	0.00153048	0.006646611	5.333122e-08	3.012285e-07	-0.006898829	0.01009234	2.240726e-08	8.987258e-08
	1.287179e-08	5.83095e-08	0.00156684	0.006670855	2.240726e-08	8.987258e-08	-0.006799945	0.01022815
3.2e+08	-0.006392009	-0.001963157	2.268204e-08	9.017082e-08	0.002425376	0.008155017	1.500017e-08	5.870876e-08
	2.268204e-08	9.017082e-08	-0.006606563	-0.00171375	4.805994e-08	3.101478e-07	0.002358395	0.00820188
	0.002425376	0.008155017	4.805994e-08	3.101478e-07	-0.006289734	-0.001728108	2.241362e-08	9.095531e-08
	1.500017e-08	5.870876e-08	0.002358395	0.00820188	2.241362e-08	9.095531e-08	-0.006549088	-0.001552012
3.3e+08	-0.0082691	-0.0136764	2.321424e-08	9.098937e-08	0.003608124	0.009441823	1.68937e-08	5.86999e-08
	2.321424e-08	9.098937e-08	-0.008813507	-0.0133126	4.246771e-08	3.20486e-07	0.003438224	0.009533884
	0.003608124	0.009441823	4.246771e-08	3.20486e-07	-0.008165741	-0.01343618	2.205531e-08	9.218223e-08
	1.68937e-08	5.86999e-08	0.003438224	0.009533884	2.205531e-08	9.218223e-08	-0.008789899	-0.01314123
3.4e+08	-0.01255067	-0.02477205	2.337815e-08	9.18251e-08	0.005023303	0.01044845	1.845594e-08	5.833824e-08
	2.337815e-08	9.18251e-08	-0.0134147	-0.02422134	3.684327e-08	3.323276e-07	0.004755752	0.01060835
	0.005023303	0.01044845	3.684327e-08	3.323276e-07	-0.01244699	-0.02452681	2.137852e-08	9.362733e-08
	1.845594e-08	5.833824e-08	0.004755752	0.01060835	2.137852e-08	9.362733e-08	-0.01342536	-0.02403273
3.5e+08	-0.01905469	-0.03477409	2.318696e-08	9.274561e-08	0.00660354	0.01113046	1.960466e-08	5.77031e-08
	2.318696e-08	9.274561e-08	-0.02021236	-0.03396595	3.149519e-08	3.457007e-07	0.006248478	0.01137982
	0.00660354	0.01113046	3.149519e-08	3.457007e-07	-0.01895152	-0.03452372	2.044034e-08	9.534802e-08
	1.960466e-08	5.77031e-08	0.006248478	0.01137982	2.044034e-08	9.534802e-08	-0.02025609	-0.03375233
3.6e+08	-0.02750596	-0.04325607	2.26609e-08	9.381213e-08	0.008273289	0.01145994	2.027825e-08	5.689369e-08
	2.26609e-08	9.381213e-08	-0.02891603	-0.04212546	2.674195e-08	3.605728e-07	0.007845521	0.01181835
	0.008273289	0.01145994	2.674195e-08	3.605728e-07	-0.02740413	-0.04300017	1.930245e-08	9.738559e-08
	2.027825e-08	5.689369e-08	0.007845521	0.01181835	1.930245e-08	9.738559e-08	-0.02898993	-0.04187927
3.7e+08	-0.03754922	-0.04985921	2.182483e-08	9.508167e-08	0.009953084	0.01142691	2.044051e-08	5.602288e-08
	2.182483e-08	9.508167e-08	-0.03915647	-0.04834992	2.290049e-08	3.768459e-07	0.009471638	0.01191086
	0.009953084	0.01142691	2.290049e-08	3.768459e-07	-0.03744949	-0.04959713	1.802654e-08	9.976805e-08
	2.044051e-08	5.602288e-08	0.009471638	0.01191086	1.802654e-08	9.976805e-08	-0.03925604	-0.04806413
3.8e+08	-0.04876581	-0.05430699	2.070799e-08	9.660982e-08	0.0115639	0.01103943	2.008345e-08	5.521003e-08
	2.070799e-08	9.660982e-08	-0.05050306	-0.0523746	2.027321e-08	3.943556e-07	0.01105136	0.01166142
	0.0115639	0.01103943	2.027321e-08	3.943556e-07	-0.04866877	-0.0540378	1.667203e-08	1.02514e-07
	2.008345e-08	5.521003e-08	0.01105136	0.01166142	1.667203e-08	1.02514e-07	-0.05062225	-0.05204313
3.9e+08	-0.0606927	-0.05641549	1.934589e-08	9.845298e-08	0.01303131	0.01032269	1.922772e-08	5.457338e-08
	1.934589e-08	9.845298e-08	-0.06248344	-0.0540299	1.913364e-08	4.128717e-07	0.01251296	0.01109047
	0.01303131	0.01032269	1.913364e-08	4.128717e-07	-0.06059872	-0.05613804	1.529627e-08	1.056367e-07
	1.922772e-08	5.457338e-08	0.01251296	0.01109047	1.529627e-08	1.056367e-07	-0.06261487	-0.05364791
4e+08	-0.07284296	-0.05609933	1.778392e-08	1.006689e-07	0.01428915	0.009317143	1.792098e-08	5.422291e-08
	1.778392e-08	1.006689e-07	-0.07460445	-0.05324664	1.971135e-08	4.321017e-07	0.01379191	0.01023313
	0.01428915	0.009317143	1.971135e-08	4.321017e-07	-0.07275208	-0.05581231	1.395692e-08	1.091464e-07
	1.792098e-08	5.422291e-08	0.01379191	0.01023313	1.395692e-08	1.091464e-07	-0.07473972	-0.05281085
4.1e+08	-0.08472643	-0.05337304	1.608151e-08	1.033151e-07	0.01528242	0.00807587	1.623443e-08	5.425416e-08
	1.608151e-08	1.033151e-07	-0.08637327	-0.05005676	2.217703e-08	4.516994e-07	0.01483375	0.0091368
	0.01528242	0.00807587	2.217703e-08	4.516994e-07	-0.08463835	-0.05307506	1.271534e-08	1.130507e-07
	1.623443e-08	5.425416e-08	0.01483375	0.0091368	1.271534e-08	1.130507e-07	-0.08650325	-0.04956564
4.2e+08	-0.0958698	-0.04834818	1.43158e-08	1.064442e-07	0.01596945	0.006661486	1.425797e-08	5.474359e-08
	1.43158e-08	1.064442e-07	-0.09731761	-0.04458968	2.662878e-08	4.712765e-07	0.01559607	0.007858325
	0.01596945	0.006661486	2.662878e-08	4.712765e-07	-0.09578385	-0.0480379	1.164005e-08	1.173531e-07
	1.425797e-08	5.474359e-08	0.01559607	0.007858325	1.164005e-08	1.173531e-07	-0.09743284	-0.04404361
4.3e+08	-0.1058351	-0.04122669	1.25835e-08	1.100979e-07	0.01632313	0.005142844	1.209479e-08	5.574545e-08
	1.25835e-08	1.100979e-07	-0.1070043	-0.0370648	3.308091e-08	4.904181e-07	0.01604982	0.006460974
	0.01632313	0.005142844	3.308091e-08	4.904181e-07	-0.1057502	-0.04090288	1.080885e-08	1.220481e-07
	1.209479e-08	5.574545e-08	0.01604982	0.006460974	1.080885e-08	1.220481e-07	-0.1070953	-0.03646613
4.4e+08	-0.1142361	-0.03229087	1.100012e-08	1.14299e-07	0.01633138	0.00359175	9.855615e-09	5.729047e-08
	1.100012e-08	1.14299e-07	-0.1150553	-0.02778075	4.145639e-08	5.08702e-07	0.01617979	0.00501141
	0.01633138	0.00359175	4.145639e-08	5.08702e-07	-0.1141509	-0.03195254	1.030875e-08	1.271158e-07
	9.855615e-09	5.729047e-08	0.01617979	0.00501141	1.030875e-08	1.271158e-07	-0.1151134	-0.0271338
4.5e+08	-0.1207518	-0.02189083	9.695995e-09	1.190434e-07	0.01599691	0.002079872	7.653404e-09	5.938579e-08
	9.695995e-09	1.190434e-07	-0.1211616	-0.01710212	5.158388e-08	5.257199e-07	0.01598452	0.003576852
	0.01599691	0.002079872	5.158388e-08	5.257199e-07	-0.1206647	-0.0215373	1.023315e-08	1.32516e-07
	7.653404e-09	5.938579e-08	0.01598452	0.003576852	1.023315e-08	1.32516e-07	-0.1211786	-0.01641305
4.6e+08	-0.1251377	-0.01042992	8.809078e-09	1.242934e-07	0.01533651	0.0006759511	5.5986e-09	6.20162e-08
	8.809078e-09	1.242934e-07	-0.125093	-0.005444237	6.320027e-08	5.410994e-07	0.01547566	0.002222506
	0.01533651	0.0006759511	6.320027e-08	5.410994e-07	-0.1250467	-0.0100609	1.06761e-08	1.381826e-07
	5.5986e-09	6.20162e-08	0.01547566	0.002222506	1.06761e-08	1.381826e-07	-0.1250623	-0.004720851
4.7e+08	-0.1272331	0.001651129	8.475117e-09	1.299732e-07	0.01437981	-0.000556625	3.79526e-09	6.514605e-08
	8.475117e-09	1.299732e-07	-0.1267059	0.006743294	7.595882e-08	5.545262e-07	0.01467704	0.001009323
	0.01437981	-0.000556625	7.595882e-08	5.545262e-07	-0.1271364	0.002035524	1.172415e-08	1.440207e-07
	3.79526e-09	6.514605e-08	0.01467704	0.001009323	1.172415e-08	1.440207e-07	-0.1266224	0.007491829
4.8e+08	-0.1269661	0.01389097	8.815966e-09	1.359679e-07	0.01316788	-0.00156189	2.338053e-09	6.872164e-08
	8.815966e-09	1.359679e-07	-0.1259469	0.01899373	8.944293e-08	5.657637e-07	0.01362343	-7.929482e-06
	0.01316788	-0.00156189	8.944293e-08	5.657637e-07	-0.1268617	0.01429017	1.344653e-08	1.499064e-07
	2.338053e-09	6.872164e-08	0.01362343	-7.929482e-06	1.344653e-08	1.499064e-07	-0.1258074	0.01975722
