!$
! Info: Touchstone file created by Circ.  Input file=Tx_14in_Rx_85ohms_TxVia_60mils_RxVia_70mils.circ
!$
# Hz S RI R 50
0	0.01128594	2.008325e-25	0.9885736	-1.965766e-25	9.812875e-05	2.464506e-23	-9.347254e-05	2.267954e-21
	0.9885736	-1.987439e-25	0.01128128	2.180153e-25	-9.395157e-05	2.326693e-21	9.489331e-05	2.750721e-23
	9.93535e-05	2.394451e-23	-9.32641e-05	2.242494e-21	0.0112965	1.991571e-25	0.9885521	-1.917677e-25
	-9.374083e-05	2.300802e-21	9.516281e-05	2.762516e-23	0.9885521	-2.008206e-25	0.01129564	2.170748e-25
1e+07	0.01386484	-0.0136936	0.9720401	-0.1497921	0.0005832206	0.002569236	-0.0001319249	7.2782e-05
	0.9720401	-0.1497921	0.01384916	-0.01369128	-0.0001320251	7.284494e-05	0.0005781004	0.002570988
	0.0005832905	0.002569202	-0.0001319931	7.282281e-05	0.01383608	-0.01367866	0.9720559	-0.1498886
	-0.0001318929	7.275987e-05	0.0005781032	0.002570986	0.9720559	-0.1498886	0.01381936	-0.0136759
2e+07	0.01130823	-0.03068191	0.9340496	-0.2908057	0.001741583	0.004798673	-1.71019e-05	0.0001659973
	0.9340496	-0.2908057	0.01124776	-0.0306652	-1.712534e-05	0.0001660931	0.001722203	0.004806826
	0.001741566	0.004798636	-1.713545e-05	0.000166075	0.01129601	-0.03064136	0.9340103	-0.2910041
	-1.710015e-05	0.0001659606	0.0017222	0.004806826	0.9340102	-0.2910041	0.01123132	-0.03062302
3e+07	0.00255133	-0.04727269	0.8773715	-0.4223927	0.003455442	0.006552677	0.0001969152	0.0001580105
	0.8773715	-0.4223927	0.002423678	-0.04721609	0.0001968705	0.0001580846	0.003415426	0.00657541
	0.003455438	0.006552677	0.0001968688	0.0001580853	0.002552515	-0.04722044	0.8772556	-0.4226675
	0.0001969123	0.0001580074	0.003415425	0.006575412	0.8772556	-0.4226675	0.00241617	-0.04715904
4e+07	-0.01101868	-0.060841	0.8030696	-0.5430694	0.005555375	0.007700279	0.0004338743	-1.145042e-06
	0.8030696	-0.5430694	-0.01122392	-0.06071103	0.0004338061	-1.011642e-06	0.005492166	0.007748157
	0.00555538	0.007700278	0.0004338098	-1.012256e-06	-0.01100635	-0.06078206	0.802858	-0.5433995
	0.0004338835	-1.141936e-06	0.005492167	0.007748158	0.802858	-0.5433995	-0.01122547	-0.06064198
5e+07	-0.02799199	-0.0700637	0.7129369	-0.6506966	0.007837867	0.008166974	0.0006083707	-0.0003167975
	0.7129369	-0.6506966	-0.02827076	-0.06982334	0.0006083392	-0.0003165767	0.007753465	0.008251272
	0.00783787	0.008166972	0.0006083411	-0.0003165781	-0.02797122	-0.07000092	0.7126137	-0.6510579
	0.0006083768	-0.0003167987	0.007753466	0.008251272	0.7126137	-0.6510579	-0.02826872	-0.06974246
6e+07	-0.04682502	-0.07419543	0.6091637	-0.7433707	0.01009111	0.007944611	0.0006421654	-0.0007532583
	0.6091637	-0.7433707	-0.04715808	-0.07381041	0.0006422239	-0.0007529682	0.009992024	0.008075553
	0.01009111	0.007944613	0.0006422238	-0.0007529675	-0.04679848	-0.07413009	0.6087183	-0.7437361
	0.0006421605	-0.0007532557	0.009992025	0.008075553	0.6087183	-0.7437361	-0.04715359	-0.0737166
7e+07	-0.06592603	-0.0729972	0.4941878	-0.8195614	0.01211715	0.007087929	0.0004804716	-0.001242469
	0.4941878	-0.8195614	-0.06628128	-0.07244154	0.0004806519	-0.001242147	0.01201381	0.007273103
	0.01211715	0.007087936	0.0004806517	-0.001242143	-0.06589605	-0.07292946	0.4936147	-0.8199017
	0.0004804606	-0.001242456	0.01201381	0.007273103	0.4936147	-0.8199017	-0.06627428	-0.07233337
8e+07	-0.0837683	-0.06669415	0.3705801	-0.8781451	0.01374942	0.005704265	0.0001024989	-0.001697965
	0.3705801	-0.8781451	-0.08410449	-0.06595423	0.0001028154	-0.001697651	0.01365504	0.005947333
	0.01374943	0.005704273	0.0001028162	-0.001697646	-0.08373666	-0.06662341	0.3698801	-0.8784302
	0.0001024904	-0.001697944	0.01365505	0.005947333	0.3698801	-0.8784302	-0.08409392	-0.06583035
9e+07	-0.09899801	-0.05591801	0.2409569	-0.9183944	0.01486479	0.003939468	-0.0004753008	-0.002031127
	0.2409569	-0.9183944	-0.09926939	-0.05499508	-0.0004748468	-0.002030861	0.01479394	0.004239294
	0.01486479	0.003939473	-0.0004748455	-0.002030858	-0.09896587	-0.05584323	0.2401369	-0.9185941
	-0.0004753026	-0.002031109	0.01479394	0.004239294	0.2401369	-0.9185941	-0.09925333	-0.05485468
1e+08	-0.1105269	-0.04163105	0.1079205	-0.9399437	0.0153925	0.001963205	-0.001206906	-0.002167219
	0.1079205	-0.9399437	-0.1106883	-0.04054228	-0.001206325	-0.00216704	0.0153594	0.002313494
	0.0153925	0.001963205	-0.001206325	-0.00216704	-0.110495	-0.04155114	0.1069941	-0.9400291
	-0.001206906	-0.002167219	0.0153594	0.002313494	0.1069941	-0.9400291	-0.1106646	-0.04038548
1.1e+08	-0.1175829	-0.02501	-0.02600588	-0.9427853	0.01530491	-6.621049e-05	-0.002005257	-0.002027988
	-0.02600588	-0.9427853	-0.1175941	-0.02378836	-0.002004598	-0.002027969	0.01532158	0.0003232999
	0.01530491	-6.621048e-05	-0.002004598	-0.002027969	-0.117551	-0.0249223	-0.0270202	-0.9427326
	-0.002005257	-0.002027988	0.01532158	0.0003233001	-0.0270202	-0.9427326	-0.1175595	-0.02361507
1.2e+08	-0.1197483	-0.007414091	-0.1583958	-0.9271257	0.0146112	-0.001960661	-0.002757629	-0.00162369
	-0.1583958	-0.9271257	-0.1195806	-0.006105878	-0.002756957	-0.001623855	0.01468592	-0.001547208
	0.0146112	-0.001960661	-0.002756957	-0.001623855	-0.1197145	-0.007317976	-0.1594762	-0.9269118
	-0.002757629	-0.00162369	0.01468592	-0.001547207	-0.1594762	-0.9269118	-0.1195313	-0.005918821
1.3e+08	-0.1170084	0.009776134	-0.2868766	-0.8934484	0.01338367	-0.003560044	-0.00337969	-0.0009804055
	-0.2868766	-0.8934484	-0.1166482	0.011115	-0.003379077	-0.0009807472	0.01351967	-0.00314072
	0.01338367	-0.003560043	-0.003379076	-0.0009807472	-0.1169708	0.009880394	-0.2879959	-0.8930542
	-0.00337969	-0.0009804055	0.01351967	-0.003140719	-0.2879959	-0.8930542	-0.1165818	0.01131159
1.4e+08	-0.1097131	0.02524351	-0.4091659	-0.8424772	0.01172873	-0.004730954	-0.003797468	-0.000154023
	-0.4091659	-0.8424772	-0.1091652	0.02655249	-0.003796974	-0.0001545031	0.01192337	-0.004324928
	0.01172873	-0.004730954	-0.003796974	-0.0001545032	-0.1096704	0.02535494	-0.4102931	-0.8418882
	-0.003797468	-0.0001540231	0.01192337	-0.004324927	-0.4102931	-0.8418882	-0.1090808	0.02675341
1.5e+08	-0.09854899	0.03782384	-0.5230673	-0.7751725	0.009782943	-0.005372752	-0.0039624	0.000776685
	-0.5230673	-0.7751725	-0.09783745	0.03904365	-0.003962065	0.0007761294	0.01002738	-0.004998362
	0.009782943	-0.005372752	-0.003962065	0.0007761292	-0.09850012	0.03794088	-0.5241681	-0.7743797
	-0.0039624	0.0007766849	0.01002738	-0.004998361	-0.5241681	-0.7743797	-0.09773597	0.03924329
1.6e+08	-0.08448681	0.04658671	-0.6264769	-0.6927417	0.007705264	-0.005424001	-0.003858387	0.001721829
	-0.6264769	-0.6927417	-0.08365485	0.04766556	-0.003858218	0.001721272	0.007984791	-0.005096778
	0.007705264	-0.005424	-0.003858218	0.001721272	-0.08443143	0.04670743	-0.6275148	-0.691742
	-0.003858387	0.001721828	0.007984791	-0.005096777	-0.6275148	-0.691742	-0.08353917	0.0478585
1.7e+08	-0.06871122	0.05090225	-0.717404	-0.5966551	0.005667409	-0.004867921	-0.003503365	0.002593915
	-0.717404	-0.5966551	-0.06781857	0.05180183	-0.003503333	0.002593429	0.005962409	-0.004598755
	0.005667409	-0.004867921	-0.003503333	0.002593429	-0.06864968	0.05102454	-0.7183415	-0.5954519
	-0.003503365	0.002593914	0.005962409	-0.004598755	-0.7183415	-0.5954519	-0.0676934	0.05198353
1.8e+08	-0.05253398	0.05048925	-0.7940078	-0.4886615	0.003842204	-0.003736074	-0.002945332	0.003320919
	-0.7940078	-0.4886615	-0.05165265	0.05118997	-0.002945377	0.003320556	0.004129648	-0.003529704
	0.003842204	-0.003736074	-0.002945377	0.003320556	-0.05246741	0.05061112	-0.794807	-0.4872647
	-0.002945332	0.003320918	0.004129649	-0.003529703	-0.794807	-0.4872647	-0.05152425	0.05135733
1.9e+08	-0.03729541	0.04544012	-0.854649	-0.3707953	0.002389987	-0.002109098	-0.002253366	0.003856731
	-0.854649	-0.3707953	-0.03650369	0.04594489	-0.002253405	0.003856507	0.002645386	-0.001963094
	0.002389987	-0.002109098	-0.002253405	0.003856507	-0.03722563	0.0455599	-0.8552732	-0.3692214
	-0.002253366	0.00385673	0.002645386	-0.001963094	-0.8552732	-0.3692214	-0.03637939	0.04609681
2e+08	-0.0242596	0.03621838	-0.8979538	-0.2453673	0.001443924	-0.0001132761	-0.00150502	0.00418705
	-0.8979538	-0.2453673	-0.02363493	0.03655458	-0.00150497	0.004186941	0.001643568	-1.764389e-05
	0.001443925	-0.0001132761	-0.00150497	0.004186941	-0.02418904	0.03633502	-0.8983683	-0.2436396
	-0.00150502	0.00418705	0.001643568	-1.764384e-05	-0.8983683	-0.2436396	-0.0235225	0.03669224
2.1e+08	-0.01451144	0.02362628	-0.9228827	-0.1149345	0.001095845	0.002087977	-0.0007722726	0.004329454
	-0.9228827	-0.1149345	-0.01412272	0.02384528	-0.0007720655	0.004329393	0.001219132	0.002150499
	0.001095845	0.002087977	-0.0007720656	0.004329393	-0.01444294	0.02373948	-0.9230562	-0.1130823
	-0.0007722727	0.004329454	0.001219132	0.002150499	-0.9230562	-0.1130823	-0.01402963	0.02397232
2.2e+08	-0.008864886	0.008742326	-0.9287959	0.01775498	0.00138476	0.0043078	-0.0001086971	0.004327385
	-0.9287959	0.01775498	-0.008764986	0.008916683	-0.0001083022	0.004327274	0.001416417	0.004360722
	0.001384761	0.0043078	-0.0001083022	0.004327274	-0.008801422	0.008852697	-0.9287013	0.0196963
	-0.0001086972	0.004327385	0.001416417	0.004360722	-0.9287013	0.0196963	-0.008697616	0.00903907
2.3e+08	-0.007792198	-0.007167396	-0.9155045	0.1498389	0.002290346	0.006353718	0.0004595106	0.004239074
	-0.9155045	0.1498389	-0.008011453	-0.0069492	0.0004600757	0.004238803	0.002222297	0.006425113
	0.002290347	0.006353718	0.0004600757	0.004238803	-0.007736632	-0.007058256	-0.9151201	0.1518287
	0.0004595106	0.004239074	0.002222297	0.006425113	-0.9151201	0.1518287	-0.007974392	-0.006823482
2.4e+08	-0.0113827	-0.0227568	-0.8833	0.2784351	0.003733073	0.008047484	0.000936662	0.004123592
	-0.8833	0.2784351	-0.01192422	-0.02239758	0.0009373275	0.004123065	0.003565772	0.00816774
	0.003733073	0.008047484	0.0009373275	0.004123065	-0.01133744	-0.02264636	-0.8826105	0.2804286
	0.000936662	0.004123592	0.003565772	0.00816774	-0.8826105	0.2804286	-0.01191963	-0.02225912
2.5e+08	-0.01933637	-0.03671581	-0.8329555	0.4007442	0.005581607	0.009244081	0.001354111	0.004026993
	-0.8329555	0.4007442	-0.02017375	-0.03611826	0.001354764	0.004026145	0.005324658	0.00944327
	0.005581607	0.009244081	0.001354764	0.004026145	-0.01930306	-0.03660072	-0.8319527	0.4026931
	0.001354111	0.004026993	0.005324658	0.00944327	-0.8319527	0.4026931	-0.02020094	-0.03595697
2.6e+08	-0.03099351	-0.04788253	-0.7656974	0.5141489	0.007666668	0.009846917	0.00176094	0.003971559
	-0.7656974	0.5141489	-0.0320713	-0.04695833	0.001761439	0.00397038	0.007338626	0.01015201
	0.007666668	0.009846917	0.001761439	0.00397038	-0.03097279	-0.04775888	-0.7643811	0.5160028
	0.00176094	0.003971559	0.007338626	0.01015201	-0.7643811	0.5160028	-0.03212652	-0.04676434
2.7e+08	-0.04539696	-0.05533997	-0.6831509	0.6163002	0.009799272	0.009816947	0.002210876	0.003950466
	-0.6831509	0.6163002	-0.04663396	-0.05401847	0.002211083	0.003949007	0.009426581	0.01024913
	0.009799272	0.009816947	0.002211083	0.003949007	-0.04538823	-0.0552036	-0.6815291	0.618008
	0.002210876	0.003950466	0.009426581	0.01024913	-0.6815291	0.618008	-0.04671053	-0.05378305
2.8e+08	-0.06137934	-0.05848774	-0.587266	0.705183	0.0117905	0.009174635	0.002748366	0.003928911
	-0.587266	0.705183	-0.06267452	-0.05672339	0.002748167	0.003927279	0.01140562	0.009747017
	0.0117905	0.009174635	0.002748167	0.003927279	-0.0613807	-0.05833464	-0.5853552	0.7066941
	0.002748366	0.003928911	0.01140562	0.009747017	-0.5853552	0.7066941	-0.06276318	-0.05643984
2.9e+08	-0.07766526	-0.05708309	-0.4802335	0.7791549	0.01346988	0.007995079	0.003396758	0.003851236
	-0.4802335	0.7791549	-0.0789057	-0.05486079	0.00339609	0.003849583	0.01310877	0.008710978
	0.01346988	0.007995079	0.00339609	0.003849583	-0.07767358	-0.05690981	-0.4780585	0.7804207
	0.003396758	0.003851236	0.01310877	0.008710978	-0.4780585	0.7804207	-0.07899526	-0.05452522
3e+08	-0.09297766	-0.05124955	-0.3644013	0.8369605	0.01470016	0.006397772	0.004150936	0.003652361
	-0.3644013	0.8369605	-0.09404789	-0.04858749	0.004149799	0.003650856	0.01439925	0.007249865
	0.01470016	0.006397772	0.004149799	0.003650856	-0.09298875	-0.05105361	-0.361995	0.837936
	0.004150936	0.003652361	0.01439925	0.007249865	-0.361995	0.837936	-0.09412611	-0.04819932
3.1e+08	-0.1061385	-0.0414554	-0.2421988	0.8777238	0.01538708	0.004533137	0.004975639	0.00327106
	-0.2421988	0.8777238	-0.1069303	-0.03840503	0.004974101	0.003269862	0.01518007	0.005503514
	0.01538708	0.004533137	0.004974101	0.003269862	-0.1061474	-0.04123557	-0.2396016	0.8783686
	0.004975639	0.00327106	0.01518007	0.005503514	-0.2396016	0.8783686	-0.1069849	-0.03796728
3.2e+08	-0.116156	-0.02846665	-0.1160759	0.9009237	0.01548409	0.002567981	0.005809475	0.0026625
	-0.1160759	0.9009237	-0.1165779	-0.0251098	0.005807664	0.00266173	0.01539892	0.003629169
	0.01548409	0.002567981	0.005807664	0.00266173	-0.1161574	-0.02822323	-0.1133349	0.9012034
	0.005809475	0.0026625	0.01539892	0.003629169	-0.1133349	0.9012034	-0.1165975	-0.02462905
3.3e+08	-0.1222931	-0.01328084	0.01154152	0.9063638	0.01499271	0.0006715964	0.006573626	0.001807855
	0.01154152	0.9063638	-0.1222787	-0.009724224	0.006571707	0.001807575	0.01504879	0.001788474
	0.01499271	0.0006715964	0.006571707	0.001807575	-0.1222819	-0.01301569	0.01437354	0.9062509
	0.006573626	0.001807855	0.01504879	0.001788474	0.01437354	0.9062509	-0.1222542	-0.009210257
3.4e+08	-0.1241148	0.002951965	0.1382799	0.8941399	0.0139594	-0.0009964656	0.007183522	0.0007195257
	0.1382799	0.8941399	-0.1236294	0.006584432	0.007181671	0.0007197268	0.01416562	0.0001359968
	0.0139594	-0.0009964656	0.007181671	0.0007197268	-0.1240865	0.003235481	0.1411453	0.8936147
	0.007183522	0.0007195257	0.01416562	0.0001359968	0.1411453	0.8936147	-0.1235546	0.007119301
3.5e+08	-0.1215133	0.01901494	0.2618332	0.8646136	0.0124704	-0.002296617	0.007561501	-0.0005586849
	0.2618332	0.8646136	-0.1205584	0.02259153	0.007559874	-0.0005580812	0.01282385	-0.001190476
	0.0124704	-0.002296617	0.007559874	-0.0005580812	-0.1214644	0.01931219	0.2646708	0.8636652
	0.007561501	-0.0005586849	0.01282385	-0.001190476	0.2646708	0.8636652	-0.1204307	0.02313339
3.6e+08	-0.1147109	0.033712	0.3799705	0.8183956	0.010645	-0.003117594	0.007648463	-0.001956287
	0.3799705	0.8183956	-0.1133256	0.03710355	0.007647168	-0.001955415	0.01113074	-0.002078031
	0.010645	-0.003117594	0.007647168	-0.001955415	-0.1146394	0.03401742	0.3827169	0.8170221
	0.007648463	-0.001956287	0.01113074	-0.002078031	0.3827169	0.8170221	-0.1131464	0.03763795
3.7e+08	-0.1042425	0.04595252	0.4905427	0.7563393	0.008627797	-0.003383274	0.007412808	-0.003384927
	0.4905427	0.7563393	-0.102502	0.04904309	0.007411887	-0.003383953	0.009219617	-0.002445462
	0.008627797	-0.003383274	0.007411887	-0.003383953	-0.1041479	0.04626002	0.4931335	0.7545482
	0.007412808	-0.003384927	0.009219617	-0.002445462	0.4931335	0.7545482	-0.1022769	0.04955624
3.8e+08	-0.09091709	0.05482924	0.5914919	0.6795438	0.00657986	-0.003058146	0.006855329	-0.00474999
	0.5914919	0.6795438	-0.08892873	0.05752623	0.006854747	-0.004749079	0.007241946	-0.002249044
	0.00657986	-0.003058146	0.006854747	-0.004749079	-0.09080066	0.05513269	0.5938633	0.6773524
	0.006855329	-0.00474999	0.007241946	-0.002249044	0.5938633	0.6773524	-0.08866733	0.05800615
3.9e+08	-0.07576186	0.05968517	0.6808715	0.5893636	0.004668496	-0.002151269	0.006009273	-0.005963284
	0.6808715	0.5893636	-0.07365791	0.06192821	0.006008925	-0.005962569	0.005357997	-0.001487048
	0.004668496	-0.002151269	0.006008925	-0.005962569	-0.07562667	0.05997892	0.6829612	0.586799
	0.006009273	-0.005963284	0.005357997	-0.001487048	0.6829612	0.586799	-0.07337292	0.06236582
4e+08	-0.05994934	0.06016547	0.7568771	0.4874193	0.003055535	-0.0007181504	0.00493543	-0.00695489
	0.7568771	0.4874193	-0.05787737	0.0619331	0.00493516	-0.006954442	0.003725776	-0.0002023964
	0.003055535	-0.0007181504	0.00493516	-0.006954442	-0.0598	0.0604448	0.7586262	0.484518
	0.00493543	-0.00695489	0.003725776	-0.0002023964	0.7586262	0.484518	-0.05758398	0.06232317
4.1e+08	-0.04471155	0.05624956	0.8178917	0.375602	0.001884315	0.001140382	0.003712824	-0.007682231
	0.8178917	0.375602	-0.04282303	0.05756319	0.003712456	-0.007682041	0.002488466	0.001517516
	0.001884315	0.001140382	0.003712456	-0.007682041	-0.04455395	0.0565111	0.819246	0.37241
	0.003712824	-0.007682231	0.002488466	0.001517516	0.819246	0.37241	-0.0425377	0.05790492
4.2e+08	-0.03124598	0.04825945	0.8625404	0.2560666	0.001266248	0.003283266	0.002426374	-0.008134695
	0.8625404	0.2560666	-0.02968377	0.04918393	0.002425749	-0.008134669	0.001761156	0.003544859
	0.001266248	0.003283266	0.002425749	-0.008134669	-0.03108691	0.04850159	0.8634521	0.2526384
	0.002426374	-0.008134695	0.001761156	0.003544859	0.8634521	0.2526384	-0.02942294	0.04948127
4.3e+08	-0.02061997	0.03684137	0.8897529	0.131207	0.001268403	0.005538892	0.001153569	-0.008332775
	0.8897529	0.131207	-0.01950576	0.0374818	0.001152584	-0.00833275	0.001618308	0.00571997
	0.001268403	0.005538892	0.001152584	-0.00833275	-0.02046661	0.03706439	0.8901816	0.1276052
	0.001153569	-0.008332775	0.001618308	0.00571997	0.8901816	0.1276052	-0.01928446	0.03774338
4.4e+08	-0.01368172	0.02291948	0.8988233	0.003610825	0.001904089	0.007719316	-4.739271e-05	-0.008321617
	0.8988233	0.003610825	-0.01310455	0.02341439	-4.87567e-05	-0.008321387	0.002083919	0.007864526
	0.001904089	0.007719316	-4.875669e-05	-0.008321387	-0.01354109	0.02312576	0.8987377	-9.501146e-05
	-4.73927e-05	-0.008321617	0.00208392	0.007864526	0.8987377	-9.501146e-05	-0.01293511	0.02365303
4.5e+08	-0.0109868	0.007624038	0.8894617	-0.1240064	0.003128388	0.009637918	-0.00114562	-0.008160005
	0.8894617	-0.1240064	-0.01099387	0.008135129	-0.001147288	-0.008159362	0.003126341	0.009798292
	0.003128388	0.009637918	-0.001147288	-0.008159362	-0.01086522	0.007817918	0.8888406	-0.1277413
	-0.00114562	-0.008160005	0.003126341	0.009798292	0.8888406	-0.1277413	-0.0108847	0.008366996
4.6e+08	-0.01274858	-0.007801038	0.8618274	-0.2488849	0.004840107	0.01112848	-0.002139942	-0.007906879
	0.8618274	-0.2488849	-0.01333921	-0.007101667	-0.002141744	-0.007905657	0.004659258	0.0113575
	0.004840107	0.01112848	-0.002141744	-0.007905657	-0.01265105	-0.007613423	0.8606608	-0.2525698
	-0.002139942	-0.007906879	0.004659258	0.0113575	0.8606608	-0.2525698	-0.01329395	-0.006858264
4.7e+08	-0.01881853	-0.02210243	0.8165387	-0.3683135	0.006890598	0.01206301	-0.00305507	-0.00760815
	0.8165387	-0.3683135	-0.01994227	-0.02104663	-0.003056769	-0.007606264	0.006549345	0.01241224
	0.006890598	0.01206301	-0.003056769	-0.007606264	-0.01874824	-0.02191355	0.8148288	-0.3718672
	-0.00305507	-0.00760815	0.006549345	0.01241224	0.8148288	-0.3718672	-0.0199592	-0.02077266
4.8e+08	-0.02869939	-0.03412328	0.7546565	-0.4797252	0.009098595	0.01236546	-0.003932273	-0.007286649
	0.7546565	-0.4797252	-0.03025841	-0.03256137	-0.003933604	-0.007284117	0.008629803	0.01288016
	0.009098595	0.01236546	-0.003933604	-0.007284117	-0.02865734	-0.03392476	0.7524179	-0.4830659
	-0.003932273	-0.007286649	0.008629803	0.01288016	0.7524179	-0.4830659	-0.0303304	-0.03223864
4.9e+08	-0.04158994	-0.04289962	0.6776415	-0.5807824	0.01126901	0.01201939	-0.004816564	-0.006937363
	0.6776415	-0.5807824	-0.04344574	-0.04071374	-0.00481728	-0.006934314	0.01071788	0.01273441
	0.01126901	0.01201939	-0.00481728	-0.006934314	-0.04157467	-0.04268286	0.6749014	-0.5838303
	-0.004816564	-0.006937363	0.01071788	0.01273441	0.6749014	-0.5838303	-0.04356058	-0.04032646
5e+08	-0.05645603	-0.04773774	0.5872915	-0.6694477	0.01321291	0.01106836	-0.00574319	-0.006528952
	0.5872915	-0.6694477	-0.05843991	-0.04485273	-0.005743106	-0.00652561	0.01263367	0.01200477
	0.01321291	0.01106836	-0.005743106	-0.00652561	-0.05646362	-0.04749468	0.5840893	-0.6721264
	-0.00574319	-0.006528952	0.01263367	0.01200477	0.5840893	-0.6721264	-0.0585811	-0.04438893
5.1e+08	-0.07212002	-0.04826562	0.4856651	-0.7440305	0.01476581	0.009609554	-0.006726305	-0.006011088
	0.4856651	-0.7440305	-0.07404632	-0.04465644	-0.006725338	-0.006007738	0.01421745	0.01077236
	0.01476581	0.009609554	-0.006725338	-0.006007738	-0.07214426	-0.04798943	0.4820523	-0.7462695
