!$
! Info: Touchstone file created by Circ.  Input file=Tx_12in_Rx_85ohms_TxVia_60mils_RxVia_70mils.circ
!$
# Hz S RI R 50
0	0.009711925	1.777544e-25	0.9901476	-1.720684e-25	8.766423e-05	2.118891e-23	-8.300295e-05	2.271565e-21
	0.9901476	-1.739979e-25	0.009707269	1.918378e-25	-8.348283e-05	2.330398e-21	8.441952e-05	2.364713e-23
	8.88882e-05	2.058668e-23	-8.279426e-05	2.246065e-21	0.009722555	1.762813e-25	0.990126	-1.677956e-25
	-8.327166e-05	2.304465e-21	8.46891e-05	2.374853e-23	0.990126	-1.758469e-25	0.009721672	1.910036e-25
1e+07	0.01220617	-0.01148585	0.9773084	-0.1292577	0.0004628412	0.002256833	-0.0001249802	4.094788e-05
	0.9773084	-0.1292577	0.01219264	-0.01148414	-0.000125081	4.100805e-05	0.0004584103	0.002258245
	0.0004629111	0.0022568	-0.0001250485	4.098655e-05	0.01218338	-0.01147262	0.9773199	-0.1293537
	-0.0001249476	4.092637e-05	0.000458413	0.002258243	0.9773199	-0.1293537	0.01216894	-0.01147055
2e+07	0.01090998	-0.02599448	0.9484756	-0.2518804	0.001351727	0.004273324	-5.194122e-05	0.0001126056
	0.9484756	-0.2518804	0.01085716	-0.02598226	-5.196573e-05	0.0001126967	0.001334717	0.004279662
	0.001351711	0.004273287	-5.19751e-05	0.0001126782	0.01090081	-0.02595838	0.9484397	-0.2520777
	-5.193793e-05	0.0001125689	0.001334714	0.004279663	0.9484397	-0.2520777	0.01084429	-0.02594492
3e+07	0.00481907	-0.04073259	0.9056651	-0.3679366	0.002687777	0.005967433	0.0001024479	0.0001240375
	0.9056651	-0.3679366	0.004705414	-0.04069036	0.0001024016	0.0001240985	0.0026519	0.005984993
	0.002687773	0.005967433	0.0001023999	0.000124099	0.004820972	-0.04068522	0.9055628	-0.368215
	0.0001024452	0.0001240342	0.0026519	0.005984995	0.9055628	-0.368215	0.004699514	-0.0406393
4e+07	-0.00516282	-0.05370269	0.849335	-0.4767131	0.004372284	0.007243619	0.0002934149	3.46046e-05
	0.849335	-0.4767131	-0.005350969	-0.05360403	0.0002933336	3.471317e-05	0.004313819	0.007280848
	0.004372289	0.007243618	0.0002933374	3.471286e-05	-0.005151527	-0.0536482	0.8491485	-0.4770562
	0.0002934238	3.460847e-05	0.00431382	0.007280849	0.8491485	-0.4770562	-0.005352504	-0.05354171
5e+07	-0.01819672	-0.06389355	0.7804586	-0.5768067	0.006281338	0.008033305	0.0004680535	-0.0001712151
	0.7804586	-0.5768067	-0.01846292	-0.06370729	0.0004679849	-0.000171024	0.006199782	0.008099791
	0.00628134	0.008033303	0.0004679869	-0.0001710252	-0.01817809	-0.06383441	0.7801722	-0.577196
	0.0004680598	-0.0001712156	0.006199783	0.008099791	0.7801722	-0.577196	-0.01846238	-0.0636339
6e+07	-0.03336077	-0.07063927	0.7002826	-0.6668709	0.00827896	0.008303932	0.0005720822	-0.0004851654
	0.7002826	-0.6668709	-0.03369716	-0.07033366	0.0005720712	-0.0004848953	0.008177209	0.008409285
	0.00827896	0.008303934	0.0005720709	-0.0004848946	-0.03333693	-0.07057674	0.6998838	-0.6672852
	0.000572077	-0.0004851634	0.00817721	0.008409285	0.6998838	-0.6672852	-0.03369593	-0.07024823
7e+07	-0.04966842	-0.07355862	0.6102384	-0.7457311	0.0102286	0.008060008	0.0005585839	-0.000877504
	0.6102384	-0.7457311	-0.05005645	-0.07310525	0.0005586616	-0.000877172	0.01011281	0.0082128
	0.0102286	0.008060014	0.0005586608	-0.0008771687	-0.04964133	-0.07349311	0.6097186	-0.7461471
	0.000558571	-0.0008774924	0.01011281	0.008212799	0.6097186	-0.7461471	-0.05005504	-0.07300635
8e+07	-0.06611586	-0.07253709	0.511881	-0.8124245	0.01200321	0.007340569	0.0003949957	-0.001302012
	0.511881	-0.8124245	-0.06652795	-0.07191385	0.0003951847	-0.001301638	0.01188237	0.007547363
	0.01200321	0.007340577	0.0003951848	-0.001301633	-0.0660872	-0.07246835	0.5112356	-0.8128175
	0.0003949838	-0.001301992	0.01188237	0.007547363	0.5112356	-0.8128175	-0.06652612	-0.07179985
9e+07	-0.08173562	-0.0677094	0.406838	-0.8662115	0.01349365	0.006214224	6.740403e-05	-0.001702888
	0.406838	-0.8662115	-0.08213735	-0.06690287	6.772419e-05	-0.001702494	0.01337893	0.006478745
	0.01349365	0.006214229	6.772496e-05	-0.00170249	-0.08170671	-0.06763672	0.4060671	-0.8665559
	6.739888e-05	-0.00170287	0.01337893	0.006478745	0.4060671	-0.8665559	-0.08213408	-0.06677222
1e+08	-0.09565023	-0.0594357	0.2967729	-0.9065684	0.01461719	0.004773598	-0.0004212148	-0.002023653
	0.2967729	-0.9065684	-0.096003	-0.05844292	-0.0004207466	-0.002023266	0.01452102	0.005096123
	0.01461719	0.004773598	-0.0004207467	-0.002023267	-0.09562221	-0.05935819	0.2958811	-0.9068385
	-0.0004212149	-0.002023653	0.01452102	0.005096123	0.2958811	-0.9068385	-0.09599679	-0.05829451
1.1e+08	-0.107107	-0.04824323	0.1833391	-0.9332088	0.01531477	0.003107747	-0.001040684	-0.002186717
	0.1833391	-0.9332088	-0.10737	-0.04707319	-0.001040074	-0.002186419	0.01524973	0.003484733
	0.01531477	0.003107747	-0.001040074	-0.002186419	-0.1070803	-0.0481582	0.1823356	-0.9333814
	-0.001040684	-0.002186717	0.01524973	0.003484733	0.1823356	-0.9333814	-0.1073583	-0.04690524
1.2e+08	-0.1155006	-0.03484647	0.06814147	-0.9459776	0.01554026	0.001342748	-0.001724807	-0.002169221
	0.06814147	-0.9459776	-0.115636	-0.03352006	-0.001724085	-0.00216906	0.01551801	0.001766925
	0.01554026	0.001342748	-0.001724085	-0.00216906	-0.1154738	-0.03475266	0.06703772	-0.9460295
	-0.001724806	-0.002169221	0.01551801	0.001766926	0.06703772	-0.9460295	-0.1156149	-0.03333291
1.3e+08	-0.1204382	-0.02005421	-0.04722217	-0.9449002	0.01529491	-0.0004024339	-0.002421445	-0.001953454
	-0.04722217	-0.9449002	-0.1204139	-0.0186035	-0.00242066	-0.001953465	0.01532513	5.817778e-05
	0.01529491	-0.0004024337	-0.002420659	-0.001953465	-0.1204099	-0.01995101	-0.0484101	-0.9448096
	-0.002421445	-0.001953454	0.01532513	5.817879e-05	-0.0484101	-0.9448096	-0.1203797	-0.0183989
1.4e+08	-0.1217259	-0.004730982	-0.161202	-0.9301531	0.01460354	-0.002015959	-0.003070403	-0.001539081
	-0.161202	-0.9301531	-0.1215187	-0.003197528	-0.003069613	-0.001539278	0.0146929	-0.00153255
	0.01460354	-0.002015959	-0.003069613	-0.001539278	-0.1216944	-0.004618331	-0.1624542	-0.9299005
	-0.003070403	-0.001539081	0.0146929	-0.001532549	-0.1624542	-0.9299005	-0.1214684	-0.002978415
1.5e+08	-0.1193756	0.01024764	-0.2722941	-0.9020501	0.01351454	-0.0033963	-0.003613631	-0.0009452953
	-0.2722941	-0.9020501	-0.1189737	0.01181533	-0.003612898	-0.000945671	0.0136659	-0.002905739
	0.01351454	-0.0033963	-0.003612898	-0.0009456711	-0.1193395	0.01036924	-0.2735873	-0.901619
	-0.00361363	-0.0009452954	0.0136659	-0.002905738	-0.2735873	-0.901619	-0.1189052	0.012045
1.6e+08	-0.1136001	0.02404033	-0.3790395	-0.8610357	0.01209722	-0.004456313	-0.004002	-0.0002088841
	-0.3790395	-0.8610357	-0.1130051	0.02559	-0.00400138	-0.0002094067	0.01230909	-0.003975175
	0.01209722	-0.004456313	-0.00400138	-0.0002094068	-0.1135579	0.02416986	-0.3803474	-0.8604131
	-0.004002	-0.0002088842	0.01230909	-0.003975174	-0.3803474	-0.8604131	-0.1129174	0.02582555
1.7e+08	-0.1047986	0.03588296	-0.4800236	-0.8076846	0.01043852	-0.005126943	-0.004200697	0.0006198517
	-0.4800236	-0.8076846	-0.1040267	0.03736229	-0.004200229	0.0006192334	0.01070482	-0.004671515
	0.01043852	-0.005126942	-0.004200229	0.0006192332	-0.1047495	0.03601894	-0.4813177	-0.8068613
	-0.004200697	0.0006198516	0.01070482	-0.004671514	-0.4813177	-0.8068613	-0.1039201	0.03759863
1.8e+08	-0.09353486	0.04512767	-0.5738798	-0.7427053	0.008639249	-0.005360548	-0.004192834	0.001482707
	-0.5738798	-0.7427053	-0.09261658	0.04648826	-0.004192534	0.001482057	0.008949375	-0.004945563
	0.008639249	-0.005360548	-0.004192534	0.001482057	-0.0934782	0.0452683	-0.5751293	-0.7416764
	-0.004192834	0.001482707	0.008949375	-0.004945562	-0.5751293	-0.7416764	-0.09249284	0.04672031
1.9e+08	-0.08050654	0.05127686	-0.6592963	-0.666948	0.006809573	-0.005133811	-0.003980945	0.002320062
	-0.6592963	-0.666948	-0.07948591	0.05247815	-0.003980804	0.002319446	0.007148849	-0.004771213
	0.006809573	-0.005133811	-0.003980804	0.002319446	-0.08044237	0.05142016	-0.6604695	-0.6657132
	-0.003980945	0.002320062	0.007148849	-0.004771213	-0.6604695	-0.6657132	-0.07934836	0.05270126
2e+08	-0.06650853	0.05401044	-0.7350302	-0.5814127	0.005063709	-0.00445	-0.003586182	0.003077509
	-0.7350302	-0.5814127	-0.06544096	0.05502344	-0.003586162	0.003076986	0.005414147	-0.004147848
	0.005063709	-0.00445	-0.003586162	0.003076985	-0.06643746	0.0541544	-0.7360947	-0.5799762
	-0.003586182	0.003077509	0.005414148	-0.004147848	-0.7360947	-0.5799762	-0.06529423	0.05523378
2.1e+08	-0.05238985	0.05320491	-0.799928	-0.487255	0.003513754	-0.003340252	-0.003045251	0.003711836
	-0.799928	-0.487255	-0.05133903	0.05401529	-0.003045293	0.003711444	0.003855102	-0.003101828
	0.003513754	-0.003340252	-0.003045293	0.003711444	-0.05231309	0.05334765	-0.8008513	-0.4856262
	-0.003045251	0.003711836	0.003855102	-0.003101828	-0.8008513	-0.4856262	-0.05118888	0.05421026
2.2e+08	-0.03900637	0.04894249	-0.8529515	-0.3857889	0.00226277	-0.001863401	-0.002405406	0.004195594
	-0.8529515	-0.3857889	-0.03804033	0.04955289	-0.002405436	0.004195346	0.002573789	-0.001686609
	0.00226277	-0.001863401	-0.002405436	0.004195346	-0.03892568	0.04908246	-0.8537022	-0.3839819
	-0.002405406	0.004195594	0.002573789	-0.001686609	-0.8537022	-0.3839819	-0.03789332	0.04973144
2.3e+08	-0.02717135	0.04150902	-0.8932093	-0.2784811	0.001397533	-0.0001039326	-0.001718083	0.004519602
	-0.8932093	-0.2784811	-0.02635789	0.04194031	-0.001718025	0.004519476	0.001657436	1.896165e-05
	0.001397533	-0.0001039326	-0.001718025	0.004519476	-0.02708896	0.04164514	-0.8937571	-0.2765151
	-0.001718083	0.004519602	0.001657436	1.89616e-05	-0.8937571	-0.2765151	-0.02622094	0.04210312
2.4e+08	-0.0176067	0.03137972	-0.9199889	-0.1669376	0.0009815638	0.001832245	-0.001031988	0.004692956
	-0.9199889	-0.1669376	-0.01700844	0.03167093	-0.001031778	0.004692899	0.001171504	0.001914489
	0.0009815638	0.001832245	-0.001031778	0.004692899	-0.01752519	0.03151148	-0.9203058	-0.1648364
	-0.001031988	0.004692956	0.001171504	0.001914489	-0.9203058	-0.1648364	-0.01688838	0.03182057
2.5e+08	-0.01089808	0.01919256	-0.9327888	-0.05287976	0.001049238	0.003824248	-0.0003866263	0.004740454
	-0.9327888	-0.05287976	-0.0105676	0.01939951	-0.0003862237	0.004740386	0.001153767	0.003884085
	0.001049238	0.003824248	-0.0003862237	0.004740386	-0.01082022	0.01932017	-0.9328499	-0.05067174
	-0.0003866263	0.004740454	0.001153767	0.003884085	-0.9328499	-0.05067174	-0.01047063	0.01954038
2.6e+08	-0.007457555	0.005710449	-0.9313461	0.06188888	0.001601819	0.005744558	0.0001927575	0.004697724
	-0.9313461	0.06188888	-0.007432826	0.00590301	0.0001933581	0.004697549	0.001610202	0.005804331
	0.001601819	0.005744557	0.0001933582	0.004697549	-0.007386109	0.005834877	-0.9311299	0.06417128
	0.0001927575	0.004697724	0.001610202	0.005804331	-0.9311299	0.06417128	-0.00736406	0.006041223
2.7e+08	-0.007496711	-0.008225819	-0.9156553	0.1755242	0.002606135	0.007468599	0.0006979898	0.004604762
	-0.9156553	0.1755242	-0.007797408	-0.007967668	0.0006987541	0.004604381	0.002513418	0.007553505
	0.002606135	0.007468599	0.0006987541	0.004604381	-0.007434248	-0.008102837	-0.9151447	0.1778448
	0.0006979898	0.004604762	0.002513418	0.007553505	-0.9151447	0.1778448	-0.007760394	-0.007824614
2.8e+08	-0.01101305	-0.02175053	-0.8859782	0.2861882	0.003996299	0.008884563	0.00113805	0.004498857
	-0.8859782	0.2861882	-0.01163792	-0.02134168	0.001138905	0.004498189	0.003804049	0.009021125
	0.003996299	0.008884563	0.001138905	0.004498189	-0.01096172	-0.02162654	-0.885161	0.2885078
	0.00113805	0.004498857	0.003804049	0.009021125	-0.885161	0.2885078	-0.01163427	-0.0211853
2.9e+08	-0.01779084	-0.03402809	-0.8428408	0.3920979	0.005678499	0.009902375	0.001536378	0.00440806
	-0.8428408	0.3920979	-0.01871651	-0.03338387	0.001537216	0.004407052	0.005395133	0.01011674
	0.005678499	0.009902375	0.001537216	0.004407052	-0.01775217	-0.03389999	-0.8417099	0.3943748
	0.001536378	0.00440806	0.005395133	0.01011674	-0.8417099	0.3943748	-0.01874563	-0.03320521
3e+08	-0.02741662	-0.04430566	-0.7870182	0.4915725	0.007538388	0.01046076	0.001925831	0.004346248
	-0.7870182	0.4915725	-0.02859788	-0.04334774	0.001926528	0.004344887	0.007179049	0.01077689
	0.007538388	0.01046076	0.001926528	0.004344887	-0.02739134	-0.04416991	-0.7855728	0.4937635
	0.001925832	0.004346248	0.007179049	0.01077689	-0.7855728	0.4937635	-0.02865686	-0.04313795
3.1e+08	-0.03930783	-0.05195952	-0.7195099	0.5830746	0.009450246	0.01053163	0.002342156	0.004310581
	-0.7195099	0.5830746	-0.04067955	-0.05062154	0.002342583	0.004308902	0.0090362	0.01096957
	0.009450246	0.01053163	0.002342583	0.004308902	-0.03929573	-0.0518123	-0.7177549	0.5851355
	0.002342156	0.004310581	0.0090362	0.01096957	-0.7177549	0.5851355	-0.0407632	-0.05037248
3.2e+08	-0.05275218	-0.05653156	-0.6415052	0.6652433	0.01128684	0.01012136	0.002817017	0.004281728
	-0.6415052	0.6652433	-0.05423269	-0.0547642	0.002817062	0.004279814	0.01084442	0.01069565
	0.01128684	0.01012136	0.002817062	0.004279814	-0.05275206	-0.05636906	-0.6394519	0.6671302
	0.002817017	0.004281728	0.01084442	0.01069565	-0.6394519	0.6671302	-0.05433372	-0.05446903
3.3e+08	-0.06695423	-0.05775376	-0.5543446	0.7369171	0.01292892	0.009269043	0.00337174	0.004226757
	-0.5543446	0.7369171	-0.06844992	-0.05552875	0.003371322	0.004224728	0.01248805	0.009987486
	0.01292892	0.009269043	0.003371322	0.004224728	-0.06696384	-0.05757248	-0.5520105	0.738587
	0.00337174	0.004226757	0.01248805	0.009987486	-0.5520105	0.738587	-0.06855929	-0.05518253
3.4e+08	-0.08108537	-0.05555964	-0.4594789	0.7971461	0.01427334	0.008042246	0.004012679	0.004104154
	-0.4594789	0.7971461	-0.08249626	-0.05287257	0.004011763	0.004102156	0.01386574	0.008904975
	0.01427334	0.008042246	0.004011763	0.004102156	-0.08110153	-0.05535666	-0.4568879	0.798558
	0.004012679	0.004104154	0.01386574	0.008904975	-0.4568879	0.798558	-0.08260369	-0.05247268
3.5e+08	-0.09433359	-0.05008274	-0.3584309	0.8451939	0.01523925	0.006530832	0.004728875	0.003870138
	-0.3584309	0.8451939	-0.09555949	-0.04695427	0.004727478	0.003868322	0.01489648	0.007529959
	0.01523925	0.006530832	0.004727478	0.003868322	-0.09435237	-0.04985594	-0.3556126	0.8463095
	0.004728875	0.003870138	0.01489648	0.007529959	-0.3556126	0.8463095	-0.09565408	-0.04650067
3.6e+08	-0.1059499	-0.04164333	-0.2527606	0.8805314	0.01577205	0.004839859	0.005492215	0.003485318
	-0.2527606	0.8805314	-0.1068967	-0.03811892	0.005490405	0.003483826	0.01552343	0.005959605
	0.01577205	0.004839859	0.005490405	0.003483826	-0.1059668	-0.04139157	-0.2497501	0.8813163
	0.005492215	0.003485318	0.01552343	0.005959605	-0.2497501	0.8813163	-0.1069676	-0.03761427
3.7e+08	-0.1152888	-0.03072522	-0.1440365	0.9028255	0.01584519	0.003082232	0.006259977	0.00292075
	-0.1440365	0.9028255	-0.1158747	-0.02687321	0.006257868	0.00291969	0.01571579	0.004299595
	0.01584519	0.003082232	0.006257868	0.00291969	-0.1152991	-0.03044853	-0.140874	0.9032494
	0.006259977	0.00292075	0.01571579	0.004299595	-0.140874	0.9032494	-0.1159117	-0.02632292
3.8e+08	-0.1218413	-0.01794487	-0.03381508	0.9119231	0.01546	0.001371738	0.006979315	0.002162623
	-0.03381508	0.9119231	-0.122002	-0.01385317	0.006977051	0.00216206	0.01546889	0.002657672
	0.01546	0.001371738	0.006977051	0.00216206	-0.1218401	-0.01764449	-0.03054505	0.9119609
	0.006979314	0.002162623	0.01546889	0.002657672	-0.03054505	0.9119609	-0.1219964	-0.0132651
3.9e+08	-0.1252589	-0.004015023	0.07637461	0.9078363	0.01464418	-0.0001831464	0.00759303	0.001215057
	0.07637461	0.9078363	-0.1249524	0.0002135244	0.00759077	0.001215	0.01480297	0.001137863
	0.01464418	-0.0001831464	0.00759077	0.001215	-0.1252419	-0.003693411	0.07970391	0.9074686
	0.00759303	0.001215057	0.01480297	0.001137863	0.07970391	0.9074686	-0.1248976	0.0008293568
4e+08	-0.1253695	0.01029497	0.1850395	0.890728	0.01344917	-0.001484553	0.008045899	0.0001007384
	0.1850395	0.890728	-0.1245796	0.01454822	0.008043792	0.0001011432	0.01376101	-0.0001644731
	0.01344917	-0.001484553	0.008043792	0.0001011432	-0.1253327	0.01063429	0.1883768	0.8899413
	0.008045899	0.0001007384	0.01376101	-0.000164473	0.1883768	0.8899413	-0.1244712	0.01518023
4.1e+08	-0.1221832	0.02420039	0.2907274	0.8609012	0.01194691	-0.002449632	0.008290799	-0.001140601
	0.2907274	0.8609012	-0.1209214	0.02836323	0.00828897	-0.00113983	0.01240599	-0.001166847
	0.01194691	-0.002449632	0.00828897	-0.00113983	-0.1221239	0.02455293	0.2940193	0.8596889
	0.008290799	-0.001140601	0.01240599	-0.001166847	0.2940193	0.8596889	-0.1207582	0.02899889
4.2e+08	-0.115891	0.03694208	0.3920298	0.8187933	0.01022612	-0.003014197	0.008293963	-0.002455653
	0.3920298	0.8187933	-0.1141967	0.04090327	0.008292491	-0.002454649	0.01081768	-0.001803198
	0.01022612	-0.003014197	0.008292491	-0.002454649	-0.1158073	0.0373027	0.3952213	0.8171551
	0.008293963	-0.002455653	0.01081768	-0.001803198	0.3952213	0.8171551	-0.1139805	0.04152983
4.3e+08	-0.1068531	0.04782597	0.4875844	0.7649731	0.008388104	-0.00313573	0.00803879	-0.003782547
	0.4875844	0.7649731	-0.1047928	0.05148491	0.0080377	-0.003781461	0.009089064	-0.002026951
	0.008388104	-0.00313573	0.0080377	-0.003781461	-0.1067447	0.04818912	0.4906201	0.7629163
	0.00803879	-0.003782547	0.009089064	-0.002026951	0.4906201	0.7629163	-0.1045285	0.05209016
4.4e+08	-0.09558128	0.05625946	0.5760802	0.7001438	0.006542208	-0.002795787	0.007527797	-0.005056863
	0.5760802	0.7001438	-0.09324553	0.05953271	0.007527054	-0.005055845	0.007322243	-0.001813609
	0.006542208	-0.002795787	0.007527054	-0.005055845	-0.09544888	0.05661951	0.5789049	0.6976825
	0.007527797	-0.005056863	0.007322243	-0.001813609	0.5789049	0.6976825	-0.09294112	0.06010579
4.5e+08	-0.08271225	0.06178355	0.6562659	0.6251465	0.004800644	-0.002001752	0.006782463	-0.006218002
	0.6562659	0.6251465	-0.08021148	0.06461064	0.006781975	-0.006217174	0.005623791	-0.001162805
	0.004800644	-0.002001752	0.006781975	-0.006217174	-0.08255815	0.06213515	0.6588254	0.6223022
	0.006782463	-0.006218002	0.005623791	-0.001162805	0.6588254	0.6223022	-0.07987745	0.0651427
4.6e+08	-0.06897518	0.06409909	0.726963	0.5409663	0.003272747	-0.0007876922	0.005840926	-0.00721519
	0.726963	0.5409663	-0.06643381	0.06644722	0.005840561	-0.007214634	0.004099363	-9.957386e-05
	0.003272747	-0.0007876922	0.005840561	-0.007214634	-0.06880293	0.06443743	0.7292056	0.5377675
	0.005840926	-0.00721519	0.004099363	-9.957386e-05	0.7292056	0.5377675	-0.06608275	0.06693211
4.7e+08	-0.05515295	0.06308556	0.7870854	0.4487351	0.002058666	0.0007859622	0.004753735	-0.008012419
	0.7870854	0.4487351	-0.0527025	0.06495295	0.004753334	-0.008012152	0.002847682	0.001325482
	0.002058666	0.0007859622	0.004753334	-0.008012152	-0.05496724	0.06340675	0.788962	0.4452176
	0.004753735	-0.008012419	0.002847682	0.001325482	0.788962	0.4452176	-0.05234845	0.06538765
4.8e+08	-0.04203928	0.05881104	0.8356625	0.3497327	0.001242752	0.002634314	0.003578081	-0.008591642
	0.8356625	0.3497327	-0.03981061	0.06022849	0.003577486	-0.008591618	0.001954089	0.003037532
	0.001242752	0.002634314	0.003577486	-0.008591618	-0.04184571	0.05911233	0.8371283	0.3459386
	0.003578081	-0.008591642	0.001954089	0.003037532	0.8371283	0.3459386	-0.03946823	0.06061348
4.9e+08	-0.03039335	0.05153179	0.8718673	0.2453798	0.0008870848	0.004651751	0.002371181	-0.00895377
	0.8718673	0.2453798	-0.02850859	0.0525623	0.00237026	-0.008953877	0.001484107	0.004940685
	0.0008870848	0.004651751	0.00237026	-0.008953877	-0.0301982	0.05181183	0.8728822	0.2413579
	0.002371181	-0.00895377	0.001484107	0.004940685	0.8728822	0.2413579	-0.02819229	0.05290169
5e+08	-0.02089479	0.04168079	0.895046	0.1372251	0.00102579	0.006717696	0.001183672	-0.009117198
	0.895046	0.1372251	-0.01945926	0.04241716	0.001182342	-0.009117274	0.001477647	0.006923148
	0.00102579	0.006717696	0.001182342	-0.009117274	-0.02070463	0.04193974	0.8955757	0.1330298
	0.001183672	-0.009117198	0.001477647	0.006923148	0.8955757	0.1330298	-0.01918234	0.04271858
5.1e+08	-0.01410166	0.02984492	0.904746	0.02692282	0.001660881	0.008704214	5.392661e-05	-0.009113981
	0.904746	0.02692282	-0.01319655	0.03040526	5.21736e-05	-0.009113834	0.001944613	0.008864267
	0.001660881	0.008704214	5.21736e-05	-0.009113834	-0.01392301	0.03008457	0.9047629	0.02261375
	5.392661e-05	-0.009113981	0.001944613	0.008864267	0.9047629	0.02261375	-0.01297028	0.03067956
