!$
! Info: Touchstone file created by Circ.  Input file=Tx_12in_Rx_100ohms_TxVia_60mils_RxVia_70mils.circ
!$
# Hz S RI R 50
0	0.01246766	1.550438e-25	-6.434694e-05	-2.295961e-26	8.419673e-05	2.402559e-23	-6.434457e-05	-7.865785e-26
	-6.434693e-05	-2.360654e-26	0.01246318	1.906396e-25	-6.434608e-05	-2.032137e-26	8.391069e-05	3.040506e-23
	8.527989e-05	2.41861e-23	-6.434607e-05	-2.050588e-26	0.012483	1.55072e-25	-6.434584e-05	1.011727e-25
	-6.434456e-05	-7.998156e-26	8.418012e-05	3.053544e-23	-6.434584e-05	1.006813e-25	0.01247751	1.898111e-25
1e+07	0.01796363	0.007466449	-3.605663e-06	-1.236259e-05	0.0004102272	0.00223161	-3.186764e-06	-1.716792e-05
	-3.605662e-06	-1.236259e-05	0.01850707	0.007493816	-1.873126e-06	-3.563411e-06	0.0008289209	0.002268015
	0.0004102586	0.002231615	-1.873126e-06	-3.563411e-06	0.01733131	0.007843005	-4.270664e-06	-4.686546e-06
	-3.186764e-06	-1.716792e-05	0.0008289238	0.002268013	-4.270664e-06	-4.686546e-06	0.01834023	0.007524074
2e+07	0.02381734	0.01027285	-5.882099e-06	6.475381e-07	0.001223548	0.004354379	-2.578878e-06	-6.047806e-06
	-5.8821e-06	6.475381e-07	0.0242521	0.01012754	-2.467099e-05	-2.449179e-05	0.001497801	0.004595376
	0.001223563	0.00435436	-2.467099e-05	-2.449179e-05	0.02374011	0.0110626	-2.984236e-05	-2.375519e-05
	-2.578878e-06	-6.047806e-06	0.001497798	0.004595377	-2.984236e-05	-2.375519e-05	0.02414678	0.01024117
3e+07	0.02886835	0.01050363	-9.754515e-06	-5.490861e-07	0.002499203	0.006158761	-2.381463e-06	-3.186648e-06
	-9.754515e-06	-5.49086e-07	0.02919589	0.01030992	-4.345446e-05	-2.245197e-05	0.002666036	0.006472298
	0.002499204	0.006158758	-4.345446e-05	-2.245197e-05	0.02921882	0.01131397	-4.843601e-05	-2.085177e-05
	-2.381463e-06	-3.186648e-06	0.002666036	0.0064723	-4.843601e-05	-2.085177e-05	0.02914342	0.0104522
4e+07	0.03330402	0.009266304	-1.25329e-05	6.857877e-07	0.004148178	0.007574518	-2.106996e-06	-1.630479e-06
	-1.25329e-05	6.857875e-07	0.03352255	0.009069376	-5.739866e-05	-1.337148e-05	0.004256636	0.007926236
	0.004148182	0.007574522	-5.739866e-05	-1.337148e-05	0.03398832	0.009954253	-6.209726e-05	-1.102352e-05
	-2.106996e-06	-1.630479e-06	0.004256637	0.007926237	-6.209726e-05	-1.102352e-05	0.03351728	0.009220591
5e+07	0.0370612	0.006906692	-1.430883e-05	3.081937e-06	0.00606156	0.00853089	-1.736608e-06	-6.199322e-07
	-1.430883e-05	3.081937e-06	0.03717219	0.006740855	-6.684241e-05	-3.218274e-07	0.0062811	0.008796152
	0.006061563	0.008530892	-6.684241e-05	-3.218274e-07	0.03798853	0.007387122	-7.117376e-05	2.710388e-06
	-1.736608e-06	-6.199323e-07	0.006281101	0.008796152	-7.117376e-05	2.710388e-06	0.03720745	0.006888108
6e+07	0.04003443	0.003668834	-1.511565e-05	6.099089e-06	0.0081175	0.008983011	-1.289792e-06	5.775674e-08
	-1.511565e-05	6.099089e-06	0.04004744	0.003565741	-7.188609e-05	1.509357e-05	0.00839947	0.009146824
	0.008117496	0.00898301	-7.188609e-05	1.509357e-05	0.04111385	0.003891279	-7.576655e-05	1.875974e-05
	-1.289792e-06	5.775677e-08	0.008399471	0.009146824	-7.576655e-05	1.875974e-05	0.04011573	0.003699792
7e+07	0.0421231	-0.0002239631	-1.496984e-05	9.410759e-06	0.01020132	0.008900186	-7.952705e-07	4.80155e-07
	-1.496984e-05	9.410758e-06	0.04205485	-0.00023727	-7.250557e-05	3.175225e-05	0.01048878	0.008976713
	0.01020131	0.008900186	-7.250557e-05	3.175225e-05	0.04326456	-0.0002831728	-7.588519e-05	3.601063e-05
	-7.952699e-07	4.801548e-07	0.01048878	0.008976713	-7.588519e-05	3.601063e-05	0.04214779	-0.0001229618
8e+07	0.04325253	-0.004547897	-1.38798e-05	1.27836e-05	0.01216812	0.008312438	-2.930836e-07	6.849817e-07
	-1.38798e-05	1.27836e-05	0.04312536	-0.004450189	-6.866054e-05	4.875653e-05	0.01242753	0.008311749
	0.0121681	0.00831244	-6.866054e-05	4.875653e-05	0.04436853	-0.004889962	-7.146005e-05	5.357102e-05
	-2.930829e-07	6.849811e-07	0.01242753	0.008311748	-7.146005e-05	5.357102e-05	0.04323387	-0.004359628
9e+07	0.04338511	-0.009075932	-1.182311e-05	1.604545e-05	0.01389922	0.007268061	1.731858e-07	6.987421e-07
	-1.182311e-05	1.604545e-05	0.04322615	-0.008852482	-6.013419e-05	6.538564e-05	0.01410227	0.007204875
	0.01389921	0.007268065	-6.013419e-05	6.538564e-05	0.04439041	-0.009683368	-6.223972e-05	7.071635e-05
	1.731862e-07	6.987415e-07	0.01410227	0.007204874	-6.223972e-05	7.071635e-05	0.04334068	-0.008787215
1e+08	0.04253993	-0.01357829	-8.398524e-06	1.91291e-05	0.01529726	0.005842255	5.580207e-07	5.322217e-07
	-8.398524e-06	1.91291e-05	0.04238157	-0.01322098	-4.490027e-05	8.13957e-05	0.01540737	0.005731571
	0.01529726	0.005842255	-4.490027e-05	8.13957e-05	0.04332867	-0.01442416	-4.613162e-05	8.721756e-05
	5.580207e-07	5.322217e-07	0.01540737	0.005731571	-4.613162e-05	8.721756e-05	0.04249088	-0.0131807
1.1e+08	0.04073784	-0.01792756	-4.139662e-06	1.980119e-05	0.01627382	0.004104583	7.258714e-07	3.698636e-07
	-4.139662e-06	1.980119e-05	0.04061377	-0.01744866	-2.521199e-05	8.594958e-05	0.01627667	0.004035676
	0.01627382	0.004104583	-2.521199e-05	8.594958e-05	0.0412524	-0.01882509	-2.538538e-05	9.187422e-05
	7.258714e-07	3.698636e-07	0.01627667	0.004035677	-2.538538e-05	9.187422e-05	0.04071017	-0.01742078
1.2e+08	0.03799682	-0.02183799	-2.901571e-06	1.945164e-05	0.01675325	0.002193762	6.288082e-07	2.463938e-07
	-2.901571e-06	1.945164e-05	0.03792885	-0.02124879	-9.641944e-06	8.675759e-05	0.01669598	0.002191108
	0.01675325	0.002193761	-9.641944e-06	8.675759e-05	0.03830301	-0.02272678	-1.272954e-05	9.205751e-05
	6.288082e-07	2.463937e-07	0.01669598	0.002191108	-1.272954e-05	9.205751e-05	0.03801363	-0.02122875
1.3e+08	0.03446899	-0.02511309	-1.524139e-06	1.920333e-05	0.01671815	0.0002383261	4.888124e-07	2.035316e-07
	-1.524139e-06	1.920333e-05	0.03447873	-0.02443022	-3.996003e-06	8.528362e-05	0.0166318	0.0003096301
	0.01671815	0.0002383258	-3.996003e-06	8.528362e-05	0.0346021	-0.02595759	-6.641008e-06	9.07794e-05
	4.888124e-07	2.035316e-07	0.0166318	0.0003096312	-6.641008e-06	9.07794e-05	0.03455143	-0.02441444
1.4e+08	0.03032421	-0.02759923	-6.947018e-08	1.89187e-05	0.01617707	-0.001634192	3.566724e-07	1.992641e-07
	-6.947019e-08	1.89187e-05	0.03042919	-0.02684514	2.076623e-06	8.373427e-05	0.01608787	-0.001490225
	0.01617707	-0.001634192	2.076623e-06	8.373427e-05	0.03031498	-0.02837415	-9.663633e-08	8.939986e-05
	3.566724e-07	1.992641e-07	0.01608787	-0.001490224	-9.663634e-08	8.939986e-05	0.03048963	-0.02683017
1.5e+08	0.02575679	-0.02918482	1.423458e-06	1.856587e-05	0.01516839	-0.003302627	2.399654e-07	2.326331e-07
	1.423458e-06	1.856587e-05	0.02596852	-0.02838673	8.36863e-06	8.193338e-05	0.01509808	-0.003094181
	0.01516839	-0.003302627	8.36863e-06	8.193338e-05	0.02563432	-0.02987238	6.695956e-06	8.773464e-05
	2.399654e-07	2.326331e-07	0.01509808	-0.00309418	6.695956e-06	8.773464e-05	0.02601708	-0.02836922
1.6e+08	0.02097782	-0.02980408	2.931278e-06	1.812476e-05	0.01375838	-0.004659126	1.467048e-07	2.999081e-07
	2.931278e-06	1.812476e-05	0.0213004	-0.02899229	1.475456e-05	7.977362e-05	0.01372361	-0.004399637
	0.01375838	-0.004659126	1.475456e-05	7.977362e-05	0.02077015	-0.03039282	1.360467e-05	8.566984e-05
	1.467048e-07	2.999081e-07	0.01372361	-0.004399636	1.360467e-05	8.566984e-05	0.02133811	-0.02896916
1.7e+08	0.01620557	-0.02943939	4.436456e-06	1.758093e-05	0.01203734	-0.005615522	8.430948e-08	3.94878e-07
	4.436456e-06	1.758093e-05	0.01663482	-0.02864528	2.113835e-05	7.718398e-05	0.01204906	-0.005322046
	0.01203734	-0.005615522	2.113835e-05	7.718398e-05	0.01593954	-0.02992343	2.052701e-05	8.31295e-05
	8.430949e-08	3.94878e-07	0.01204906	-0.005322046	2.052701e-05	8.31295e-05	0.01666332	-0.02861383
1.8e+08	0.01165511	-0.02812158	5.923273e-06	1.692333e-05	0.01011414	-0.006108591	5.873889e-08	5.092142e-07
	5.923273e-06	1.692333e-05	0.01217831	-0.02737535	2.743663e-05	7.411652e-05	0.01017718	-0.005800118
	0.01011414	-0.006108591	2.743663e-05	7.411652e-05	0.01135601	-0.02850003	2.737301e-05	8.006209e-05
	5.873889e-08	5.092142e-07	0.01017718	-0.005800118	2.737301e-05	8.006209e-05	0.01219982	-0.02733339
1.9e+08	0.007527988	-0.0259279	7.377294e-06	1.61429e-05	0.00810956	-0.006103821	7.382694e-08	6.329882e-07
	7.377294e-06	1.61429e-05	0.008124237	-0.02525629	3.35706e-05	7.054071e-05	0.008222562	-0.005799562
	0.00810956	-0.006103821	3.35706e-05	7.054071e-05	0.007219069	-0.0262043	3.405718e-05	7.643488e-05
	7.382694e-08	6.329882e-07	0.008222563	-0.005799562	3.405718e-05	7.643488e-05	0.008141346	-0.0252023
2e+08	0.004002414	-0.02297784	8.780753e-06	1.523372e-05	0.006148879	-0.005597427	1.307436e-07	7.555178e-07
	8.780753e-06	1.523372e-05	0.004643548	-0.02240194	3.946285e-05	6.64411e-05	0.006304639	-0.005315159
	0.006148879	-0.005597427	3.946285e-05	6.64411e-05	0.003704453	-0.02315959	4.049523e-05	7.223138e-05
	1.307436e-07	7.555178e-07	0.006304639	-0.005315159	4.049523e-05	7.223138e-05	0.004659134	-0.02233512
2.1e+08	0.001224575	-0.01942674	1.011398e-05	1.419395e-05	0.004354231	-0.004616481	2.278982e-07	8.661251e-07
	1.011398e-05	1.419395e-05	0.001876739	-0.01896011	4.503618e-05	6.18166e-05	0.004540389	-0.004371034
	0.004354231	-0.004616481	4.503618e-05	6.18166e-05	0.0009554425	-0.0195245	4.660319e-05	6.745078e-05
	2.278982e-07	8.661251e-07	0.004540389	-0.004371034	4.660319e-05	6.745078e-05	0.001893728	-0.01888041
2.2e+08	-0.0006984198	-0.01545769	1.135774e-05	1.302486e-05	0.002837124	-0.003217143	3.61053e-07	9.548838e-07
	1.135774e-05	1.302486e-05	-7.275848e-05	-0.01510487	5.021417e-05	5.668018e-05	0.003037212	-0.003019125
	0.002837124	-0.003217143	5.021417e-05	5.668018e-05	-0.0009240995	-0.01548472	5.229816e-05	6.210753e-05
	3.61053e-07	9.548838e-07	0.003037212	-0.003019125	5.229816e-05	6.210753e-05	-5.156253e-05	-0.01501301
2.3e+08	-0.001703606	-0.01127196	1.249243e-05	1.173157e-05	0.00169165	-0.001481098	5.236401e-07	1.013381e-06
	1.249243e-05	1.173157e-05	-0.001143265	-0.01102755	5.492247e-05	5.105868e-05	0.001886421	-0.001335936
	0.00169165	-0.001481098	5.492247e-05	5.105868e-05	-0.001874729	-0.01124347	5.749986e-05	5.623103e-05
	5.236401e-07	1.013381e-06	0.001886421	-0.001335936	5.749986e-05	5.623103e-05	-0.001115365	-0.01092494
2.4e+08	-0.001774958	-0.007078556	1.349885e-05	1.032333e-05	0.0009888101	0.0004895581	7.073087e-07	1.035293e-06
	1.349885e-05	1.032333e-05	-0.001317431	-0.006926921	5.909071e-05	4.499288e-05	0.001157758	0.0005821982
	0.0009888101	0.0004895581	5.909071e-05	4.499288e-05	-0.0018841	-0.007010958	6.213275e-05	4.986554e-05
	7.073087e-07	1.035293e-06	0.001157758	0.0005821982	6.213275e-05	4.986554e-05	-0.001280804	-0.00681559
2.5e+08	-0.000943708	-0.003083433	1.43591e-05	8.81339e-06	0.0007722812	0.002578653	9.026187e-07	1.016734e-06
	1.43591e-05	8.81339e-06	-0.000622502	-0.002999121	6.265476e-05	3.853629e-05	0.0008952616	0.002625033
	0.0007722812	0.002578653	6.265476e-05	3.853629e-05	-0.0009871707	-0.002993643	6.612843e-05	4.306865e-05
	9.026187e-07	1.016734e-06	0.0008952616	0.002625033	6.612843e-05	4.306865e-05	-0.0005757338	-0.00288153
2.6e+08	0.0007137806	0.0005210886	1.505753e-05	7.218662e-06	0.001055897	0.004663089	1.099781e-06	9.563842e-07
	1.505753e-05	7.218662e-06	0.0008716692	0.0005722698	6.555895e-05	3.175414e-05	0.001114732	0.004675137
	0.001055897	0.004663089	6.555895e-05	3.175414e-05	0.0007360427	0.000616367	6.942797e-05	3.591e-05
	1.099781e-06	9.563842e-07	0.001114732	0.004675137	6.942797e-05	3.591e-05	0.0009292928	0.0006933705
2.7e+08	0.003080503	0.003566077	1.55815e-05	5.559158e-06	0.001822959	0.006620357	1.289377e-06	8.55368e-07
	1.55815e-05	5.559158e-06	0.003056806	0.003625338	6.775806e-05	2.472136e-05	0.001802923	0.006614999
	0.001822959	0.006620357	6.775806e-05	2.472136e-05	0.003165074	0.003651038	7.198376e-05	2.846895e-05
	1.289377e-06	8.55368e-07	0.001802923	0.006614998	7.198376e-05	2.846895e-05	0.003125247	0.003747099
2.8e+08	0.006005377	0.005914443	1.592203e-05	3.85724e-06	0.003027403	0.008335944	1.462977e-06	7.169488e-07
	1.592203e-05	3.85724e-06	0.005792303	0.006027733	6.921913e-05	1.75206e-05	0.002918491	0.008334064
	0.003027403	0.008335944	6.921913e-05	1.75206e-05	0.006145689	0.005974815	7.376127e-05	2.083234e-05
	1.462977e-06	7.169488e-07	0.002918491	0.008334064	7.376127e-05	2.083234e-05	0.005870775	0.006147404
2.9e+08	0.009311522	0.007467625	1.607422e-05	2.136674e-06	0.004596719	0.009710194	1.61361e-06	5.460538e-07
	1.607422e-05	2.136674e-06	0.008912911	0.007682933	6.992249e-05	1.023945e-05	0.004394608	0.009735304
	0.004596719	0.009710194	6.992249e-05	1.023945e-05	0.009498282	0.007491236	7.473976e-05	1.309154e-05
	1.61361e-06	5.460538e-07	0.004394608	0.009735304	7.473976e-05	1.309154e-05	0.008999922	0.007798051
3e+08	0.01280581	0.008170178	1.603736e-05	4.216587e-07	0.00643642	0.01066423	1.736048e-06	3.487124e-07
	1.603736e-05	4.216587e-07	0.01223757	0.008534573	6.986218e-05	2.967662e-06	0.006143064	0.01074091
	0.00643642	0.01066423	6.986218e-05	2.967662e-06	0.01302751	0.008147431	7.491252e-05	5.339646e-06
	1.736048e-06	3.487124e-07	0.006143064	0.01074091	7.491252e-05	5.339646e-06	0.01233103	0.008643134
3.1e+08	0.0162891	0.008012064	1.581484e-05	-1.264106e-06	0.008435773	0.01114457	1.826891e-06	1.314777e-07
	1.581484e-05	-1.264106e-06	0.01557894	0.008568647	6.904614e-05	-4.205475e-06	0.008059581	0.01129683
	0.008435773	0.01114457	6.904614e-05	-4.205475e-06	0.01653264	0.007936299	7.428676e-05	-2.331167e-06
	1.826891e-06	1.314777e-07	0.008059581	0.01129683	7.428676e-05	-2.331167e-06	0.01567626	0.008669248
3.2e+08	0.01956674	0.007028525	1.541374e-05	-2.898278e-06	0.01047444	0.01112625	1.884473e-06	-9.912264e-08
	1.541374e-05	-2.898278e-06	0.01875304	0.007813496	6.749508e-05	-1.119381e-05	0.01003003	0.01137584
	0.01047444	0.01112625	6.749508e-05	-1.119381e-05	0.01981805	0.006896256	7.288228e-05	-9.832135e-06
	1.884473e-06	-9.912264e-08	0.01003003	0.01137584	7.288228e-05	-9.832135e-06	0.01885136	0.007905441
3.3e+08	0.02245861	0.00529762	1.484432e-05	-4.46055e-06	0.01242964	0.01061424	1.908613e-06	-3.370354e-07
	1.484432e-05	-4.46055e-06	0.0215887	0.006337646	6.52413e-05	-1.79165e-05	0.01193718	0.01097908
	0.01242964	0.01061424	6.52413e-05	-1.79165e-05	0.02270339	0.005108646	7.073018e-05	-1.707988e-05
	1.908613e-06	-3.370354e-07	0.01193718	0.01097908	7.073018e-05	-1.707988e-05	0.02168502	0.006420999
3.4e+08	0.02480835	0.002935576	1.411933e-05	-5.933127e-06	0.01418343	0.009643131	1.90026e-06	-5.76998e-07
	1.411933e-05	-5.933127e-06	0.02393602	0.00424562	6.232716e-05	-2.429975e-05	0.01366757	0.01013593
	0.01418343	0.009643131	6.232716e-05	-2.429975e-05	0.02503274	0.002692926	6.787131e-05	-2.399792e-05
	1.90026e-06	-5.76998e-07	0.01366757	0.01013593	6.787131e-05	-2.399792e-05	0.02402742	0.004321224
3.5e+08	0.02649122	9.018091e-05	1.325328e-05	-7.300969e-06	0.01562964	0.008275062	1.861091e-06	-8.147122e-07
	1.325328e-05	-7.300969e-06	0.02567381	0.001671973	5.880292e-05	-3.027796e-05	0.01511814	0.008902262
	0.01562964	0.008275062	5.880292e-05	-3.027796e-05	0.0266825	-0.0002000603	6.435418e-05	-3.051763e-05
	1.861091e-06	-8.147122e-07	0.01511814	0.008902262	6.435418e-05	-3.051763e-05	0.02575765	0.001741407
3.6e+08	0.02742025	-0.003067346	1.226173e-05	-8.551794e-06	0.0166802	0.006596131	1.7931e-06	-1.046851e-06
	1.226173e-05	-8.551794e-06	0.02671535	-0.001226105	5.472493e-05	-3.579443e-05	0.01620231	0.00735716
	0.0166802	0.006596131	5.472493e-05	-3.579443e-05	0.02756747	-0.003396371	6.023327e-05	-3.657875e-05
	1.7931e-06	-1.046851e-06	0.01620231	0.00735716	6.023327e-05	-3.657875e-05	0.02678943	-0.001160608
3.7e+08	0.02755038	-0.006351647	1.116071e-05	-9.676041e-06	0.01727035	0.004711359	1.698247e-06	-1.270963e-06
	1.116071e-05	-9.676041e-06	0.02701234	-0.00427725	5.015362e-05	-4.080138e-05	0.01685501	0.005598345
	0.01727035	0.004711359	5.015362e-05	-4.080138e-05	0.02764491	-0.006708375	5.55672e-05	-4.212929e-05
	1.698247e-06	-1.270963e-06	0.01685501	0.005598345	5.55672e-05	-4.212929e-05	0.0270751	-0.004212937
3.8e+08	0.02688037	-0.009573173	9.966129e-06	-1.066646e-05	0.01736256	0.002738568	1.57818e-06	-1.485231e-06
	9.966129e-06	-1.066646e-05	0.02655689	-0.007305019	4.51519e-05	-4.525969e-05	0.01703658	0.003736488
	0.01736256	0.002738568	4.51519e-05	-4.525969e-05	0.02691634	-0.009944816	5.041738e-05	-4.712524e-05
	1.57818e-06	-1.485231e-06	0.01703658	0.003736488	5.041738e-05	-4.712524e-05	0.02660748	-0.007238776
3.9e+08	0.02545242	-0.01254827	8.693514e-06	-1.151777e-05	0.0169489	0.0008014783	1.434083e-06	-1.688184e-06
	8.693514e-06	-1.151777e-05	0.0253814	-0.01013714	3.978384e-05	-4.913824e-05	0.01673519	0.001888762
	0.0169489	0.0008014783	3.978384e-05	-4.913824e-05	0.02542705	-0.01292098	4.484691e-05	-5.152994e-05
	1.434083e-06	-1.688184e-06	0.01673519	0.001888762	4.484691e-05	-5.152994e-05	0.02541976	-0.01006569
4e+08	0.02334953	-0.01510892	7.357797e-06	-1.22262e-05	0.01605167	-0.0009775878	1.266644e-06	-1.878386e-06
	7.357797e-06	-1.22262e-05	0.02355632	-0.01261448	3.411369e-05	-5.241312e-05	0.01596763	0.0001719863
	0.01605167	-0.0009775878	3.411369e-05	-5.241312e-05	0.02326329	-0.01546851	3.891977e-05	-5.531337e-05
	1.266644e-06	-1.878386e-06	0.01596763	0.0001719863	3.891977e-05	-5.531337e-05	0.02358326	-0.01253459
4.1e+08	0.02069071	-0.01711158	5.973326e-06	-1.278919e-05	0.01472229	-0.002484979	1.076148e-06	-2.054145e-06
	5.973326e-06	-1.278919e-05	0.02118604	-0.01459926	2.820535e-05	-5.506686e-05	0.01477849	-0.001304264
	0.01472229	-0.002484979	2.820535e-05	-5.506686e-05	0.02054736	-0.01744427	3.270053e-05	-5.84515e-05
	1.076148e-06	-2.054145e-06	0.01477849	-0.001304264	3.270053e-05	-5.84515e-05	0.02120314	-0.01450794
4.2e+08	0.01762431	-0.01844475	4.55396e-06	-1.320501e-05	0.01303845	-0.003622548	8.626785e-07	-2.213287e-06
	4.55396e-06	-1.320501e-05	0.01840299	-0.01598212	2.212201e-05	-5.708763e-05	0.01323769	-0.002444177
	0.01303845	-0.003622548	2.212201e-05	-5.708763e-05	0.0174307	-0.01873787	2.625408e-05	-6.092574e-05
	8.626785e-07	-2.213287e-06	0.01323769	-0.002444177	2.625408e-05	-6.092574e-05	0.01841259	-0.01587683
4.3e+08	0.01431977	-0.01903476	3.113268e-06	-1.347263e-05	0.01109966	-0.004313638	6.263814e-07	-2.353024e-06
	3.113268e-06	-1.347263e-05	0.0153603	-0.01668761	1.592612e-05	-5.846868e-05	0.01143648	-0.003171473
	0.01109966	-0.004313638	1.592612e-05	-5.846868e-05	0.01408556	-0.01927747	1.964577e-05	-6.272259e-05
	6.263814e-07	-2.353024e-06	0.01143648	-0.003171473	1.964577e-05	-6.272259e-05	0.01536532	-0.01656644
4.4e+08	0.01095828	-0.01884957	1.664753e-06	-1.359159e-05	0.009021486	-0.004507841	3.677772e-07	-2.469932e-06
	1.664753e-06	-1.359159e-05	0.01222344	-0.01667796	9.679507e-06	-5.920789e-05	0.009482132	-0.003434063
	0.009021486	-0.004507841	9.679507e-06	-5.920789e-05	0.01069548	-0.01903344	1.29415e-05	-6.383343e-05
	3.677772e-07	-2.469932e-06	0.009482132	-0.003434063	1.29415e-05	-6.383343e-05	0.01222724	-0.01653976
4.5e+08	0.007722792	-0.01790019	2.220799e-07	-1.356212e-05	0.006928724	-0.004184238	8.806112e-08	-2.560053e-06
	2.220799e-07	-1.356212e-05	0.009161155	-0.01595467	3.44355e-06	-5.930767e-05	0.007491683	-0.003207313
	0.006928724	-0.004184238	3.44355e-06	-5.930767e-05	0.007445133	-0.01801972	6.207886e-06	-6.42548e-05
	8.806112e-08	-2.560053e-06	0.007491683	-0.003207313	6.207886e-06	-6.42548e-05	0.009167343	-0.01579916
4.6e+08	0.004787969	-0.0162399	-1.200775e-06	-1.338525e-05	0.00494796	-0.003352884	-2.106436e-07	-2.619105e-06
	-1.200775e-06	-1.338525e-05	0.006336379	-0.01455816	-2.720466e-06	-5.877503e-05	0.005584955	-0.002495679
	0.00494796	-0.003352884	-2.720466e-06	-5.877503e-05	0.004510236	-0.01629284	-4.877148e-07	-6.398866e-05
	-2.106436e-07	-2.619105e-06	0.005584955	-0.002495679	-4.877148e-07	-6.398866e-05	0.006348557	-0.01438595
4.7e+08	0.002310589	-0.01396102	-2.589446e-06	-1.30631e-05	0.003199953	-0.002054423	-5.250997e-07	-2.642713e-06
	-2.589446e-06	-1.30631e-05	0.003897393	-0.01256514	-8.751087e-06	-5.762194e-05	0.003877418	-0.001332607
	0.003199953	-0.002054423	-8.751087e-06	-5.762194e-05	0.002047848	-0.01394854	-7.077221e-06	-6.304254e-05
	-5.250997e-07	-2.642713e-06	0.003877418	-0.001332607	-7.077221e-06	-6.304254e-05	0.00391896	-0.01237768
4.8e+08	0.0004209855	-0.01118958	-3.929203e-06	-1.259914e-05	0.001792314	-0.0003578455	-8.509216e-07	-2.626933e-06
