!$
! Info: Touchstone file created by Circ.  Input file=Tx_10in_Rx_85ohms_TxVia_60mils_RxVia_70mils.circ
!$
# Hz S RI R 50
0	0.008132967	1.408793e-25	-5.418062e-05	7.481164e-24	7.367169e-05	1.601943e-23	-5.421663e-05	1.20244e-23
	-5.418061e-05	7.480475e-24	0.008128236	1.654887e-25	-5.414298e-05	3.00083e-24	7.387701e-05	1.977474e-23
	7.46529e-05	1.630024e-23	-5.414296e-05	2.999634e-24	0.008146959	1.348681e-25	-5.417445e-05	6.989375e-24
	-5.421662e-05	1.202315e-23	7.414668e-05	1.985954e-23	-5.417445e-05	6.989996e-24	0.008142685	1.647614e-25
1e+07	0.01178738	-0.009225142	-0.0002346734	-2.479556e-05	0.0002780907	0.001934989	-0.0001565175	0.0001042764
	-0.0002346734	-2.479557e-05	0.01043496	-0.009339881	-7.266369e-06	-1.528316e-05	0.0003517797	0.001939332
	0.0002780995	0.001934957	-7.26637e-06	-1.528315e-05	0.010467	-0.009509469	-4.990227e-05	-1.553009e-05
	-0.0001565176	0.0001042764	0.0003517822	0.00193933	-4.990227e-05	-1.55301e-05	0.0104175	-0.009327845
2e+07	0.01129362	-0.02162609	-0.0002102462	1.845232e-05	0.0008904364	0.003774703	-0.0001472227	0.0001029898
	-0.0002102462	1.845231e-05	0.01006775	-0.02131981	-6.313409e-06	-4.099014e-06	0.0009915217	0.003718167
	0.0008904093	0.003774703	-6.313407e-06	-4.099014e-06	0.00995983	-0.02159819	-4.437095e-05	6.37678e-06
	-0.0001472227	0.0001029898	0.0009915188	0.003718168	-4.437095e-05	6.376782e-06	0.01005885	-0.02128707
3e+07	0.007303428	-0.03437169	-0.0001994931	1.17778e-05	0.001908588	0.005364539	-0.0001253441	0.0001197302
	-0.0001994931	1.17778e-05	0.006163108	-0.03387757	-5.752398e-06	-9.268547e-07	0.001963938	0.005297314
	0.001908586	0.005364543	-5.752398e-06	-9.268552e-07	0.005971359	-0.03418107	-4.389856e-05	2.641399e-06
	-0.0001253441	0.0001197302	0.001963938	0.005297316	-4.389856e-05	2.6414e-06	0.006159521	-0.03383236
4e+07	0.0003835632	-0.04618914	-0.0001913493	1.348365e-05	0.003210255	0.006677107	-9.568342e-05	0.0001296295
	-0.0001913493	1.348365e-05	-0.0006926686	-0.04554872	-5.168337e-06	9.305419e-07	0.00321924	0.006616236
	0.003210254	0.006677102	-5.168337e-06	9.305422e-07	-0.0009288921	-0.04585737	-4.417921e-05	2.03848e-06
	-9.568342e-05	0.0001296295	0.003219241	0.006616237	-4.417921e-05	2.03848e-06	-0.0006931655	-0.04549314
5e+07	-0.009003192	-0.05639724	-0.0001844766	1.892682e-05	0.004728518	0.007664309	-6.252262e-05	0.0001282594
	-0.0001844766	1.892682e-05	-0.01002901	-0.05562197	-4.537083e-06	2.244652e-06	0.004692025	0.007623714
	0.004728515	0.007664307	-4.537082e-06	2.244652e-06	-0.01027925	-0.05593405	-4.476347e-05	3.154182e-06
	-6.252262e-05	0.0001282594	0.004692026	0.007623714	-4.476347e-05	3.154182e-06	-0.01002854	-0.05555631
6e+07	-0.02036166	-0.06450208	-0.0001779717	2.657084e-05	0.006386105	0.00829227	-3.051599e-05	0.0001141265
	-0.0001779717	2.657084e-05	-0.02134344	-0.06359169	-3.852081e-06	3.252777e-06	0.006307221	0.00828459
	0.006386107	0.008292273	-3.852081e-06	3.252777e-06	-0.02158535	-0.06391489	-4.526929e-05	5.499263e-06
	-3.051599e-05	0.0001141265	0.006307223	0.00828459	-4.526929e-05	5.499263e-06	-0.0213435	-0.06351524
7e+07	-0.0331523	-0.07015177	-0.0001711461	3.565895e-05	0.008100769	0.008544855	-4.398354e-06	8.754113e-05
	-0.0001711461	3.565895e-05	-0.03408981	-0.0691011	-3.526078e-06	3.520273e-06	0.007984999	0.008581584
	0.008100778	0.008544859	-3.526079e-06	3.520273e-06	-0.03430825	-0.06944794	-4.537771e-05	8.772581e-06
	-4.398354e-06	8.754113e-05	0.007985	0.008581584	-4.537771e-05	8.77258e-06	-0.03409134	-0.06901268
8e+07	-0.04680349	-0.07312622	-0.0001634221	4.568457e-05	0.009790007	0.008424333	1.133606e-05	5.02632e-05
	-0.0001634221	4.568457e-05	-0.0476906	-0.07192868	-3.396679e-06	3.541434e-06	0.009645289	0.00851557
	0.009790021	0.008424335	-3.39668e-06	3.541434e-06	-0.0478766	-0.07231349	-4.48331e-05	1.269933e-05
	1.133606e-05	5.02632e-05	0.009645289	0.008515569	-4.483309e-05	1.269933e-05	-0.04769406	-0.07182681
9e+07	-0.06073115	-0.07333289	-0.000154225	5.62805e-05	0.01137544	0.007950662	1.253249e-05	5.101487e-06
	-0.000154225	5.62805e-05	-0.06155672	-0.07198298	-3.265123e-06	3.599353e-06	0.01121211	0.008104829
	0.01137545	0.007950661	-3.265124e-06	3.599354e-06	-0.06170563	-0.072419	-4.344693e-05	1.700931e-05
	1.253249e-05	5.101487e-06	0.01121211	0.008104829	-4.344693e-05	1.700931e-05	-0.06156206	-0.07186594
1e+08	-0.07436098	-0.07080186	-0.0001421678	6.771027e-05	0.01278739	0.007160163	-6.912599e-06	-4.606605e-05
	-0.0001421678	6.771027e-05	-0.07511194	-0.06929859	-3.148819e-06	3.654566e-06	0.0126192	0.007384645
	0.01278739	0.007160163	-3.148819e-06	3.654566e-06	-0.07521278	-0.06978985	-4.101079e-05	2.152614e-05
	-6.912599e-06	-4.606605e-05	0.0126192	0.007384645	-4.101079e-05	2.152614e-05	-0.07511869	-0.06916478
1.1e+08	-0.08714889	-0.06567326	-0.0001315447	8.217925e-05	0.01396651	0.006095878	-3.418523e-05	-0.0001072291
	-0.0001315447	8.217925e-05	-0.08780948	-0.06400523	-2.942966e-06	3.667203e-06	0.01381057	0.006386215
	0.01396651	0.006095878	-2.942966e-06	3.667203e-06	-0.08784833	-0.06461591	-3.811678e-05	2.622565e-05
	-3.418523e-05	-0.0001072291	0.01381057	0.006386215	-3.811678e-05	2.622565e-05	-0.08781634	-0.06385199
1.2e+08	-0.09859722	-0.05819601	-0.0001209935	9.44158e-05	0.01485981	0.004820416	-7.305372e-05	-0.0001579558
	-0.0001209935	9.44158e-05	-0.09913564	-0.05636577	-2.707444e-06	3.714788e-06	0.01472471	0.005173526
	0.01485981	0.004820416	-2.707444e-06	3.714788e-06	-0.09916198	-0.05712007	-3.461126e-05	3.028398e-05
	-7.305372e-05	-0.0001579558	0.01472471	0.005173526	-3.461126e-05	3.028398e-05	-0.09913961	-0.05619169
1.3e+08	-0.1082799	-0.04870592	-0.000109616	0.0001051097	0.01543552	0.003401017	-0.0001251095	-0.0001970178
	-0.000109616	0.0001051097	-0.1086667	-0.04672619	-2.459285e-06	3.764421e-06	0.01533143	0.003812982
	0.01543552	0.003401016	-2.459285e-06	3.764421e-06	-0.1087193	-0.04762775	-3.053102e-05	3.365466e-05
	-0.0001251095	-0.0001970178	0.01533143	0.003812983	-3.053102e-05	3.365466e-05	-0.1086646	-0.04653084
1.4e+08	-0.1158505	-0.03761012	-9.742228e-05	0.00011427	0.01567542	0.001907773	-0.000188044	-0.0002214728
	-9.742228e-05	0.00011427	-0.1160585	-0.03550179	-2.205728e-06	3.805113e-06	0.01561221	0.002372426
	0.01567542	0.001907773	-2.205728e-06	3.805113e-06	-0.1161724	-0.03654294	-2.604207e-05	3.624248e-05
	-0.000188044	-0.0002214728	0.01561221	0.002372427	-2.604207e-05	3.624248e-05	-0.1160472	-0.0352856
1.5e+08	-0.1210533	-0.02536969	-8.456422e-05	0.0001218473	0.01557548	0.0004114666	-0.0002582992	-0.0002288921
	-8.456422e-05	0.0001218473	-0.1210591	-0.02316116	-1.953977e-06	3.831735e-06	0.01556196	0.0009203078
	0.01557548	0.0004114666	-1.953977e-06	3.831735e-06	-0.1212649	-0.02432492	-2.134034e-05	3.799679e-05
	-0.0002582992	-0.0002288921	0.01556195	0.0009203086	-2.134034e-05	3.799679e-05	-0.1210352	-0.02292547
1.6e+08	-0.1237293	-0.01248105	-7.124947e-05	0.0001278077	0.01514541	-0.001018933	-0.0003315867	-0.0002178065
	-7.124947e-05	0.0001278077	-0.123515	-0.01020736	-1.711016e-06	3.843464e-06	0.01518859	-0.0004765267
	0.01514541	-0.001018933	-1.711016e-06	3.843464e-06	-0.1238377	-0.01146893	-1.662696e-05	3.892067e-05
	-0.0003315867	-0.0002178065	0.01518859	-0.000476526	-1.662696e-05	3.892067e-05	-0.1234757	-0.009954372
1.7e+08	-0.1238196	0.0005430012	-5.770571e-05	0.000132155	0.01440774	-0.002318528	-0.0004032839	-0.000187898
	-5.770571e-05	0.000132155	-0.1233748	0.002841457	-1.482789e-06	3.843021e-06	0.01451232	-0.001754912
	0.01440774	-0.002318528	-1.482789e-06	3.843021e-06	-0.123832	0.001513055	-1.209111e-05	3.906943e-05
	-0.0004032839	-0.000187898	0.01451232	-0.001754911	-1.209111e-05	3.906943e-05	-0.1233176	0.003108755
1.8e+08	-0.1213656	0.01319218	-4.41593e-05	0.0001349363	0.01339667	-0.003428493	-0.000468802	-0.0001400539
	-4.41593e-05	0.0001349363	-0.1206884	0.01547127	-1.273222e-06	3.835873e-06	0.0135646	-0.002857226
	0.01339667	-0.003428493	-1.273222e-06	3.835873e-06	-0.1212897	0.01411142	-7.896506e-06	3.854442e-05
	-0.000468802	-0.0001400539	0.0135646	-0.002857226	-7.896506e-06	3.854442e-05	-0.1206116	0.01574921
1.9e+08	-0.1165058	0.02497694	-3.08198e-05	0.000136241	0.01215684	-0.004297864	-0.0005239284	-7.631183e-05
	-3.08198e-05	0.000136241	-0.115604	0.02719075	-1.083478e-06	3.829201e-06	0.01238698	-0.003733076
	0.01215684	-0.004297864	-1.083478e-06	3.829201e-06	-0.1163497	0.02583725	-4.170689e-06	3.748421e-05
	-0.0005239284	-7.631183e-05	0.01238698	-0.003733076	-4.170689e-06	3.748421e-05	-0.1155066	0.02747516
2e+08	-0.1094697	0.03544585	-1.786804e-05	0.0001361949	0.01074177	-0.004885149	-0.0005651309	2.861659e-07
	-1.786804e-05	0.0001361949	-0.1083611	0.03754885	-9.115499e-07	3.830677e-06	0.01102979	-0.004340839
	0.01074177	-0.004885149	-9.115499e-07	3.830677e-06	-0.1092422	0.03623974	-9.969925e-07	3.605388e-05
	-0.0005651309	2.861659e-07	0.01102979	-0.004340839	-9.969925e-07	3.605388e-05	-0.1082433	0.03783527
2.1e+08	-0.100569	0.04420161	-5.446757e-06	0.0001349521	0.009212238	-0.005159794	-0.0005898045	8.591791e-05
	-5.446757e-06	0.0001349521	-0.09928177	0.04615102	-7.523161e-07	3.847211e-06	0.009550595	-0.004649095
	0.009212238	-0.005159794	-7.523161e-07	3.847211e-06	-0.1002796	0.0449224	1.591103e-06	3.443277e-05
	-0.0005898045	8.591791e-05	0.009550595	-0.004649095	1.591103e-06	3.443277e-05	-0.09914466	0.04643492
2.2e+08	-0.09018586	0.05091554	6.345884e-06	0.0001326841	0.007634375	-0.005103477	-0.0005964469	0.0001762621
	6.345884e-06	0.0001326841	-0.08875813	0.05267368	-5.980191e-07	3.883795e-06	0.008012491	-0.004637928
	0.007634375	-0.005103477	-5.980191e-07	3.883795e-06	-0.08984507	0.0515575	3.61277e-06	3.280087e-05
	-0.0005964469	0.0001762621	0.008012491	-0.004637928	3.61277e-06	3.280087e-05	-0.08860396	0.05295073
2.3e+08	-0.07875947	0.05533989	1.745987e-05	0.000129567	0.006077434	-0.004711198	-0.0005847503	0.000266818
	1.745987e-05	0.000129567	-0.07723812	0.05687649	-4.391278e-07	3.94263e-06	0.006482054	-0.004300057
	0.006077434	-0.004711198	-4.391278e-07	3.94263e-06	-0.07837855	0.05589847	5.139341e-06	3.132418e-05
	-0.0005847503	0.000266818	0.006482054	-0.004300057	5.139341e-06	3.132418e-05	-0.07707017	0.0571428
2.4e+08	-0.06676943	0.05731771	2.789351e-05	0.000125768	0.004611293	-0.003992048	-0.0005555989	0.0003532437
	2.789351e-05	0.000125768	-0.06520873	0.05861202	-2.654351e-07	4.022659e-06	0.005026979	-0.003641679
	0.004611293	-0.003992048	-2.654351e-07	4.022659e-06	-0.0663604	0.05778975	6.289947e-06	3.013968e-05
	-0.0005555989	0.0003532437	0.005026979	-0.003641679	6.289947e-06	3.013968e-05	-0.06503122	0.05886438
2.5e+08	-0.05471785	0.0567897	3.768846e-05	0.0001214304	0.003303635	-0.002969547	-0.0005109744	0.0004316774
	3.768846e-05	0.0001214304	-0.05317738	0.05783227	-6.722207e-08	4.119494e-06	0.003713402	-0.002682925
	0.003303635	-0.002969547	-6.722207e-08	4.119494e-06	-0.05429332	0.05717368	7.22238e-06	2.934104e-05
	-0.0005109744	0.0004316774	0.003713402	-0.002682925	7.22238e-06	2.934104e-05	-0.05299533	0.0580684
2.6e+08	-0.04310984	0.05379764	4.692052e-05	0.0001166611	0.002216902	-0.001681408	-0.0004537684	0.000499027
	4.692052e-05	0.0001166611	-0.04165208	0.05459168	1.636767e-07	4.225802e-06	0.002602959	-0.001457757
	0.002216902	-0.001681408	1.636767e-07	4.225802e-06	-0.04268277	0.05409387	8.119375e-06	2.896674e-05
	-0.0004537684	0.000499027	0.002602959	-0.001457757	8.119375e-06	2.896674e-05	-0.04147109	0.05481038
2.7e+08	-0.03243328	0.04848391	5.568535e-05	0.0001115202	0.00140514	-0.0001785923	-0.0003875213	0.0005531906
	5.568535e-05	0.0001115202	-0.03112078	0.04904607	4.330427e-07	4.331974e-06	0.001749717	-1.319029e-05
	0.00140514	-0.0001785923	4.330427e-07	4.331974e-06	-0.03201664	0.04869469	9.170505e-06	2.899244e-05
	-0.0003875213	0.0005531906	0.001749717	-1.319031e-05	9.170505e-06	2.899244e-05	-0.03094682	0.04924741
2.8e+08	-0.0231386	0.04108697	6.408128e-05	0.000106017	0.0009109465	0.001476421	-0.0003160959	0.0005931981
	6.408128e-05	0.000106017	-0.02203101	0.04144749	7.437932e-07	4.427029e-06	0.001197165	0.001592257
	0.0009109465	0.001476421	7.437932e-07	4.427029e-06	-0.02274505	0.04121665	1.055137e-05	2.932938e-05
	-0.0003160959	0.0005931981	0.001197165	0.001592257	1.055137e-05	2.932938e-05	-0.02187011	0.04163288
2.9e+08	-0.01561949	0.03193243	7.218999e-05	0.0001001111	0.0007627427	0.003212188	-0.0002433279	0.0006192434
	7.218999e-05	0.0001001111	-0.01477054	0.03213467	1.095814e-06	4.499501e-06	0.0009754931	0.003290926
	0.0007627427	0.003212188	1.095814e-06	4.499501e-06	-0.01526097	0.03198746	1.240197e-05	2.983006e-05
	-0.0002433279	0.0006192434	0.0009754931	0.003290926	1.240197e-05	2.983006e-05	-0.01462849	0.03230685
3e+08	-0.01019562	0.02142019	8.005836e-05	9.372116e-05	0.0009726441	0.004951607	-0.0001726814	0.0006326106
	8.005836e-05	9.372116e-05	-0.0096501	0.02151933	1.48608e-06	4.538266e-06	0.001099424	0.005009126
	0.0009726441	0.004951607	1.48608e-06	4.538266e-06	-0.009882951	0.02140898	1.480725e-05	3.030172e-05
	-0.0001726814	0.0006326106	0.001099424	0.005009126	1.480725e-05	3.030172e-05	-0.009532166	0.0216824
3.1e+08	-0.0070982	0.01000771	8.768438e-05	8.674079e-05	0.001535162	0.006615818	-0.0001069283	0.0006354971
	8.768438e-05	8.674079e-05	-0.006889322	0.01006891	1.90898e-06	4.533201e-06	0.00156684	0.006670855
	0.001535162	0.006615818	1.90898e-06	4.533201e-06	-0.006840676	0.009940473	1.778299e-05	3.052642e-05
	-0.0001069283	0.0006354971	0.00156684	0.006670855	1.778299e-05	3.052642e-05	-0.006799945	0.01022815
3.2e+08	-0.00645942	-0.001809541	9.500926e-05	7.905825e-05	0.002426938	0.008128458	-4.791413e-05	0.0006307419
	9.500926e-05	7.905825e-05	-0.006606563	-0.00171375	2.356696e-06	4.475662e-06	0.002358395	0.00820188
	0.002426938	0.008128458	2.356696e-06	4.475662e-06	-0.006264463	-0.001921083	2.126916e-05	3.028594e-05
	-4.791413e-05	0.0006307419	0.002358395	0.00820188	2.126916e-05	3.028594e-05	-0.006549088	-0.001552012
3.3e+08	-0.008306404	-0.01351988	0.0001019186	7.057911e-05	0.003607613	0.009419956	3.549368e-06	0.0006215047
	0.0001019186	7.057911e-05	-0.008813507	-0.0133126	2.819618e-06	4.358839e-06	0.003438224	0.009533884
	0.003607613	0.009419956	2.819618e-06	4.358839e-06	-0.008179259	-0.01366284	2.513304e-05	2.938807e-05
	3.549368e-06	0.0006215047	0.003438224	0.009533884	2.513304e-05	2.938807e-05	-0.008789899	-0.01314123
3.4e+08	-0.01256009	-0.02461797	0.0001081277	6.125138e-05	0.005021824	0.01043151	6.072332e-05	0.0006061884
	0.0001081277	6.125138e-05	-0.0134147	-0.02422134	3.287555e-06	4.177299e-06	0.004755752	0.01060835
	0.005021824	0.01043151	3.287555e-06	4.177299e-06	-0.01250364	-0.02477871	2.906069e-05	2.770004e-05
	6.072332e-05	0.0006061884	0.004755752	0.01060835	2.906069e-05	2.770004e-05	-0.01342536	-0.02403273
3.5e+08	-0.01903932	-0.03462717	0.0001135598	5.108899e-05	0.006602211	0.01111846	0.0001124843	0.0005888347
	0.0001135598	5.108899e-05	-0.02021236	-0.03396595	3.746975e-06	3.929514e-06	0.006248478	0.01137982
	0.006602211	0.01111846	3.746975e-06	3.929514e-06	-0.01905389	-0.03479179	3.293462e-05	2.515903e-05
	0.0001124843	0.0005888347	0.006248478	0.01137982	3.293462e-05	2.515903e-05	-0.02025609	-0.03375233
3.6e+08	-0.02746958	-0.04312024	0.0001180287	4.014749e-05	0.008273195	0.01145268	0.0001586102	0.0005722937
	0.0001180287	4.014749e-05	-0.02891603	-0.04212546	4.18539e-06	3.616387e-06	0.007845521	0.01181835
	0.008273195	0.01145268	4.18539e-06	3.616387e-06	-0.02755295	-0.04327506	3.652349e-05	2.176243e-05
	0.0001586102	0.0005722937	0.007845521	0.01181835	3.652349e-05	2.176243e-05	-0.02898993	-0.04187927
3.7e+08	-0.03749618	-0.04973753	0.0001213391	2.85478e-05	0.009955232	0.01142398	0.0002015023	0.0005580229
	0.0001213391	2.85478e-05	-0.03915647	-0.04834992	4.590752e-06	3.241453e-06	0.009471638	0.01191086
	0.009955232	0.01142398	4.590752e-06	3.241453e-06	-0.03764365	-0.04986961	3.958667e-05	1.758749e-05
	0.0002015023	0.0005580229	0.009471638	0.01191086	3.958667e-05	1.758749e-05	-0.03925604	-0.04806413
3.8e+08	-0.04870077	-0.05420158	0.0001233279	1.647042e-05	0.01156919	0.01104023	0.0002438431	0.0005464575
	0.0001233279	1.647042e-05	-0.05050306	-0.0523746	4.95198e-06	2.810984e-06	0.01105136	0.01166142
	0.01156919	0.01104023	4.95198e-06	2.810984e-06	-0.04890539	-0.05429914	4.191902e-05	1.27829e-05
	0.0002438431	0.0005464575	0.01105136	0.01166142	4.191902e-05	1.27829e-05	-0.05062225	-0.05204313
3.9e+08	-0.06062049	-0.0563275	0.000123882	4.141399e-06	0.0130405	0.0103265	0.0002882461	0.0005369897
	0.000123882	4.141399e-06	-0.06248344	-0.0540299	5.25974e-06	2.333749e-06	0.01251296	0.01109047
	0.0130405	0.0103265	5.25974e-06	2.333749e-06	-0.06087327	-0.05638034	4.337137e-05	7.55195e-06
	0.0002882461	0.0005369897	0.01251296	0.01109047	4.337137e-05	7.55195e-06	-0.06261487	-0.05364791
4e+08	-0.07276837	-0.05602897	0.0001229502	-8.186244e-06	0.01430282	0.0093231	0.0003369222	0.0005280617
	0.0001229502	-8.186244e-06	-0.07460445	-0.05324664	5.507178e-06	1.820495e-06	0.01379191	0.01023313
	0.01430282	0.0093231	5.507178e-06	1.820495e-06	-0.07305866	-0.05602882	4.386351e-05	2.130503e-06
	0.0003369222	0.0005280617	0.01379191	0.01023313	4.386351e-05	2.130503e-06	-0.07473972	-0.05281085
4.1e+08	-0.08465404	-0.0533196	0.0001205464	-2.025326e-05	0.01530101	0.008083034	0.0003914	0.0005173503
	0.0001205464	-2.025326e-05	-0.08637327	-0.05005676	5.6905e-06	1.283118e-06	0.01483375	0.0091368
	0.01530101	0.008083034	5.6905e-06	1.283118e-06	-0.08496993	-0.0532604	4.338862e-05	-3.237061e-06
	0.0003914	0.0005173503	0.01483375	0.0091368	4.338862e-05	-3.237061e-06	-0.08650325	-0.04956564
4.2e+08	-0.09580385	-0.04831018	0.0001167475	-3.181381e-05	0.0159932	0.006668863	0.0004523193	0.0005020267
	0.0001167475	-3.181381e-05	-0.09731761	-0.04458968	5.809218e-06	7.336274e-07	0.01559607	0.007858325
	0.0159932	0.006668863	5.809218e-06	7.336274e-07	-0.09613257	-0.04818822	4.200963e-05	-8.320771e-06
	0.0004523193	0.0005020267	0.01559607	0.007858325	4.200963e-05	-8.320771e-06	-0.09743284	-0.04404361
4.3e+08	-0.1057793	-0.0412019	0.0001116842	-4.265201e-05	0.01635208	0.005149421	0.0005193171	0.0004790618
	0.0001116842	-4.265201e-05	-0.1070043	-0.0370648	5.865996e-06	1.830437e-07	0.01604982	0.006460974
	0.01635208	0.005149421	5.865996e-06	1.830437e-07	-0.1061078	-0.04101599	3.984894e-05	-1.292431e-05
	0.0005193171	0.0004790618	0.01604982	0.006460974	3.984894e-05	-1.292431e-05	-0.1070953	-0.03646613
4.4e+08	-0.1141936	-0.03227649	0.000105529	-5.259406e-05	0.0163654	0.003596523	0.0005910099	0.0004455439
	0.000105529	-5.259406e-05	-0.1150553	-0.02778075	5.866079e-06	-3.596037e-07	0.01617979	0.00501141
	0.0163654	0.003596523	5.866079e-06	-3.596037e-07	-0.1145087	-0.0320279	3.707364e-05	-1.689913e-05
	0.0005910099	0.0004455439	0.01617979	0.00501141	3.707364e-05	-1.689913e-05	-0.1151134	-0.0271338
4.5e+08	-0.1207252	-0.0218836	9.848126e-05	-6.151562e-05	0.01603571	0.002081877	0.0006650704	0.0003989836
	9.848126e-05	-6.151562e-05	-0.1211616	-0.01710212	5.816371e-06	-8.879976e-07	0.01598452	0.003576852
	0.01603571	0.002081877	5.816371e-06	-8.879976e-07	-0.1210145	-0.02157603	3.387845e-05	-2.015285e-05
	0.0006650704	0.0003989836	0.01598452	0.003576852	3.387845e-05	-2.015285e-05	-0.1211786	-0.01641305
4.6e+08	-0.1251287	-0.01042626	9.075323e-05	-6.934456e-05	0.0153796	0.0006742922	0.0007383863	0.000337578
	9.075323e-05	-6.934456e-05	-0.125093	-0.005444237	5.724302e-06	-1.39887e-06	0.01547566	0.002222506
	0.0153796	0.0006742922	5.724302e-06	-1.39887e-06	-0.1253807	-0.01006569	3.046815e-05	-2.265217e-05
	0.0007383863	0.000337578	0.01547566	0.002222506	3.046815e-05	-2.265217e-05	-0.1250623	-0.004720851
4.7e+08	-0.1272428	0.001655004	8.25559e-05	-7.605971e-05	0.01442657	-0.0005627496	0.000807285	0.0002604188
	8.25559e-05	-7.605971e-05	-0.1267059	0.006743294	5.596646e-06	-1.891827e-06	0.01467704	0.001009323
	0.01442657	-0.0005627496	5.596646e-06	-1.891827e-06	-0.1274472	0.002060558	2.704121e-05	-2.44209e-05
	0.000807285	0.0002604188	0.01467704	0.001009323	2.704121e-05	-2.44209e-05	-0.1266224	0.007491829
4.8e+08	-0.1269948	0.01389891	7.408716e-05	-8.168706e-05	0.01321751	-0.001573159	0.000867805	0.0001676245
