!$
! Info: Touchstone file created by Circ.  Input file=Tx_10in_Rx_85ohms_TxVia_60mils_RxVia_70mils.circ
!$
# Hz S RI R 50
0	0.008132705	1.353534e-25	-3.472622e-11	9.096826e-27	7.416902e-05	1.563025e-23	-3.197239e-09	3.968671e-25
	-3.472698e-11	9.096934e-27	0.008128236	1.654887e-25	3.760262e-11	2.139258e-27	7.387701e-05	1.977474e-23
	7.525275e-05	1.57347e-23	3.759842e-11	2.139767e-27	0.008148157	1.353645e-25	-1.413196e-11	8.121269e-27
	-3.197112e-09	3.968516e-25	7.414668e-05	1.985954e-23	-1.422615e-11	8.132755e-27	0.008142685	1.647614e-25
1e+07	0.01045235	-0.009505637	4.18446e-11	1.56998e-10	0.0002791877	0.00194612	-3.968692e-09	8.029705e-09
	4.18446e-11	1.56998e-10	0.01043496	-0.009339881	4.692548e-11	1.726533e-10	0.0003517797	0.001939332
	0.000279219	0.001946124	4.692548e-11	1.726533e-10	0.01180236	-0.009222471	-4.096264e-09	1.018807e-08
	-3.968692e-09	8.029705e-09	0.0003517822	0.00193933	-4.096264e-09	1.018807e-08	0.0104175	-0.009327845
2e+07	0.00994615	-0.02158871	1.193681e-11	3.049833e-10	0.0009007891	0.003792875	-1.19711e-10	-2.432532e-11
	1.193682e-11	3.049833e-10	0.01006775	-0.02131981	1.806804e-11	3.309086e-10	0.0009915217	0.003718167
	0.000900803	0.003792856	1.806803e-11	3.309086e-10	0.0113152	-0.02162638	4.338698e-11	6.387452e-10
	-1.19711e-10	-2.432532e-11	0.0009915188	0.003718168	4.338699e-11	6.387452e-10	0.01005885	-0.02128707
3e+07	0.005960633	-0.03416603	-6.216352e-11	4.769594e-10	0.001926598	0.005384779	-7.908703e-11	5.363886e-10
	-6.216352e-11	4.769594e-10	0.006163108	-0.03387757	-5.413261e-11	5.096541e-10	0.001963938	0.005297314
	0.001926599	0.005384776	-5.413261e-11	5.096541e-10	0.007326653	-0.03437946	-6.127337e-11	5.686102e-10
	-7.908703e-11	5.363886e-10	0.001963938	0.005297316	-6.127337e-11	5.686102e-10	0.006159521	-0.03383236
4e+07	-0.0009347885	-0.04583724	-1.567872e-10	6.713967e-10	0.003234838	0.006697187	-1.629065e-10	7.856864e-10
	-1.567872e-10	6.713967e-10	-0.0006926686	-0.04554872	-1.476651e-10	7.117579e-10	0.00321924	0.006616236
	0.003234843	0.006697191	-1.476651e-10	7.117579e-10	0.0004043504	-0.04620538	-1.808425e-10	7.735266e-10
	-1.629065e-10	7.856864e-10	0.003219241	0.006616237	-1.808425e-10	7.735266e-10	-0.0006931655	-0.04549314
5e+07	-0.01027849	-0.05590981	-2.676534e-10	9.00281e-10	0.004758639	0.007682665	-2.848021e-10	1.042735e-09
	-2.676534e-10	9.00281e-10	-0.01002901	-0.05562197	-2.582036e-10	9.463646e-10	0.004692025	0.007623714
	0.004758642	0.007682667	-2.582036e-10	9.463646e-10	-0.008988643	-0.05642157	-3.08466e-10	1.041279e-09
	-2.848021e-10	1.042735e-09	0.004692026	0.007623714	-3.08466e-10	1.041279e-09	-0.01002854	-0.05555631
6e+07	-0.02157629	-0.063888	-3.845649e-10	1.170437e-09	0.006420675	0.008307699	-4.154023e-10	1.345712e-09
	-3.845649e-10	1.170437e-09	-0.02134344	-0.06359169	-3.766421e-10	1.21974e-09	0.006307221	0.00828459
	0.006420671	0.008307698	-3.766421e-10	1.21974e-09	-0.02035675	-0.06453305	-4.41229e-10	1.356376e-09
	-4.154022e-10	1.345712e-09	0.006307223	0.00828459	-4.41229e-10	1.356376e-09	-0.0213435	-0.06351524
7e+07	-0.03428962	-0.06942029	-4.950364e-10	1.485392e-09	0.008138607	0.008556425	-5.340612e-10	1.700675e-09
	-4.950364e-10	1.485392e-09	-0.03408981	-0.0691011	-4.919607e-10	1.535323e-09	0.007984999	0.008581584
	0.008138595	0.008556426	-4.919607e-10	1.535323e-09	-0.0331599	-0.07018715	-5.696023e-10	1.720724e-09
	-5.340612e-10	1.700675e-09	0.007985	0.008581584	-5.696023e-10	1.720724e-09	-0.03409134	-0.06901268
8e+07	-0.04784754	-0.07228731	-5.853938e-10	1.845221e-09	0.009829819	0.008431342	-6.234439e-10	2.104396e-09
	-5.853938e-10	1.845221e-09	-0.0476906	-0.07192868	-5.92274e-10	1.893661e-09	0.009645289	0.00851557
	0.009829805	0.008431346	-5.92274e-10	1.893661e-09	-0.04682587	-0.07316317	-6.802735e-10	2.136606e-09
	-6.234439e-10	2.104396e-09	0.009645289	0.008515569	-6.802735e-10	2.136606e-09	-0.04769406	-0.07182681
9e+07	-0.06166581	-0.07239676	-6.415733e-10	2.246641e-09	0.01141577	0.007952586	-6.687265e-10	2.548848e-09
	-6.415733e-10	2.246641e-09	-0.06155672	-0.07198298	-6.656571e-10	2.292624e-09	0.01121211	0.008104829
	0.01141576	0.007952591	-6.656571e-10	2.292624e-09	-0.06076993	-0.07336815	-7.576514e-10	2.603774e-09
	-6.687265e-10	2.548848e-09	0.01121211	0.008104829	-7.576514e-10	2.603774e-09	-0.06156206	-0.07186594
1e+08	-0.07516248	-0.06977411	-6.483261e-10	2.685188e-09	0.01282615	0.00715634	-6.5647e-10	3.024438e-09
	-6.483261e-10	2.685188e-09	-0.07511194	-0.06929859	-7.013087e-10	2.730527e-09	0.0126192	0.007384645
	0.01282615	0.00715634	-7.013087e-10	2.730527e-09	-0.07441761	-0.07083229	-7.832726e-10	3.122185e-09
	-6.5647e-10	3.024438e-09	0.0126192	0.007384645	-7.832726e-10	3.122185e-09	-0.07511869	-0.06916478
1.1e+08	-0.08778844	-0.06460908	-5.849197e-10	3.133404e-09	0.01400123	0.006089132	-5.944537e-10	3.499239e-09
	-5.849197e-10	3.133404e-09	-0.08780948	-0.06400523	-6.634784e-10	3.179858e-09	0.01381057	0.006386215
	0.01400123	0.006089132	-6.634784e-10	3.179858e-09	-0.08722424	-0.06569236	-7.146536e-10	3.642408e-09
	-5.944537e-10	3.499239e-09	0.01381057	0.006386215	-7.146536e-10	3.642408e-09	-0.08781634	-0.06385199
1.2e+08	-0.09909389	-0.05712449	-4.784206e-10	3.564477e-09	0.01489115	0.004811936	-4.777215e-10	3.972015e-09
	-4.784206e-10	3.564477e-09	-0.09913564	-0.05636577	-5.744612e-10	3.616986e-09	0.01472471	0.005173526
	0.01489115	0.004811935	-5.744612e-10	3.616986e-09	-0.09868825	-0.05819932	-5.952929e-10	4.143548e-09
	-4.777215e-10	3.972015e-09	0.01472471	0.005173526	-5.952929e-10	4.143548e-09	-0.09913961	-0.05619169
1.3e+08	-0.108645	-0.04764543	-3.195694e-10	3.98251e-09	0.01546356	0.003391416	-3.012735e-10	4.433412e-09
	-3.195694e-10	3.98251e-09	-0.1086667	-0.04672619	-4.35219e-10	4.045925e-09	0.01533143	0.003812982
	0.01546356	0.003391416	-4.35219e-10	4.045925e-09	-0.1083834	-0.04869016	-4.160384e-10	4.630891e-09
	-3.012735e-10	4.433412e-09	0.01533143	0.003812983	-4.160384e-10	4.630891e-09	-0.1086646	-0.04653084
1.4e+08	-0.1160943	-0.03657542	-1.069431e-10	4.376343e-09	0.01570014	0.001897557	-6.726381e-11	4.868213e-09
	-1.069431e-10	4.376343e-09	-0.1160585	-0.03550179	-2.454448e-10	4.456452e-09	0.01561221	0.002372426
	0.01570014	0.001897557	-2.454448e-10	4.456452e-09	-0.115963	-0.03757283	-1.746217e-10	5.091335e-09
	-6.726381e-11	4.868213e-09	0.01561221	0.002372427	-1.746217e-10	5.091335e-09	-0.1160472	-0.0352856
1.5e+08	-0.1211859	-0.02437316	1.543436e-10	4.734331e-09	0.01559685	0.0004011067	2.195368e-10	5.263201e-09
	1.543436e-10	4.734331e-09	-0.1210591	-0.02316116	-8.639834e-12	4.836043e-09	0.01556196	0.0009203078
	0.01559685	0.0004011065	-8.639835e-12	4.836043e-09	-0.1211708	-0.02530923	1.232172e-10	5.51152e-09
	2.195368e-10	5.263201e-09	0.01556195	0.0009203086	1.232172e-10	5.51152e-09	-0.1210352	-0.02292547
1.6e+08	-0.1237606	-0.01153328	4.566874e-10	5.044443e-09	0.0151634	-0.001028973	5.505933e-10	5.605347e-09
	4.566874e-10	5.044443e-09	-0.123515	-0.01020736	2.686492e-10	5.17315e-09	0.01518859	-0.0004765267
	0.0151634	-0.001028973	2.686492e-10	5.17315e-09	-0.1238475	-0.01239668	4.689135e-10	5.877408e-09
	5.505933e-10	5.605347e-09	0.01518859	-0.000476526	4.689135e-10	5.877408e-09	-0.1234757	-0.009954372
1.7e+08	-0.12376	0.001432925	7.896214e-10	5.296439e-09	0.01442233	-0.002327777	9.142432e-10	5.88365e-09
	7.896214e-10	5.296439e-09	-0.1233748	0.002841457	5.771283e-10	5.457784e-09	0.01451232	-0.001754912
	0.01442233	-0.002327777	5.771283e-10	5.457784e-09	-0.1239345	0.0006511761	8.50549e-10	6.177016e-09
	9.142432e-10	5.88365e-09	0.01451232	-0.001754911	8.50549e-10	6.177016e-09	-0.1233176	0.003108755
1.8e+08	-0.1212257	0.01401649	1.14023e-09	5.482507e-09	0.01340793	-0.003436474	1.296184e-09	6.089846e-09
	1.14023e-09	5.482507e-09	-0.1206884	0.01547127	9.051143e-10	5.682108e-09	0.0135646	-0.002857226
	0.01340793	-0.003436475	9.051143e-10	5.682108e-09	-0.1214731	0.01332317	1.253332e-09	6.401157e-09
	1.296184e-09	6.089846e-09	0.0135646	-0.002857226	1.253332e-09	6.401157e-09	-0.1206116	0.01574921
1.9e+08	-0.1162965	0.02572914	1.493715e-09	5.597819e-09	0.01216486	-0.004304098	1.680128e-09	6.21901e-09
	1.493715e-09	5.597819e-09	-0.115604	0.02719075	1.239026e-09	5.840975e-09	0.01238698	-0.003733076
	0.01216486	-0.004304098	1.239026e-09	5.840975e-09	-0.1166022	0.02512895	1.660254e-09	6.544094e-09
	1.680128e-09	6.21901e-09	0.01238698	-0.003733076	1.660254e-09	6.544094e-09	-0.1155066	0.02747516
2e+08	-0.109202	0.03612066	1.834087e-09	5.64095e-09	0.01074671	-0.004889161	2.048595e-09	6.269995e-09
	1.834087e-09	5.64095e-09	-0.1083611	0.03754885	1.564e-09	5.93236e-09	0.01102979	-0.004340839
	0.01074671	-0.004889161	1.564e-09	5.93236e-09	-0.1095517	0.03561632	2.0529e-09	6.604028e-09
	2.048595e-09	6.269995e-09	0.01102979	-0.004340839	2.0529e-09	6.604028e-09	-0.1082433	0.03783527
2.1e+08	-0.1002544	0.04479508	2.144952e-09	5.614143e-09	0.009214343	-0.005161122	2.383797e-09	6.245687e-09
	2.144952e-09	5.614143e-09	-0.09928177	0.04615102	1.864603e-09	5.95766e-09	0.009550595	-0.004649095
	0.009214342	-0.005161122	1.864603e-09	5.95766e-09	-0.1006337	0.04438736	2.412367e-09	6.583412e-09
	2.383797e-09	6.245687e-09	0.009550595	-0.004649095	2.412367e-09	6.583412e-09	-0.09914466	0.04643492
2.2e+08	-0.08983621	0.05142505	2.410352e-09	5.523385e-09	0.007633953	-0.005101689	2.668567e-09	6.153039e-09
	2.410352e-09	5.523385e-09	-0.08875813	0.05267368	2.125624e-09	5.921831e-09	0.008012491	-0.004637928
	0.007633953	-0.005101689	2.125624e-09	5.921831e-09	-0.09023141	0.05111287	2.720245e-09	6.489041e-09
	2.668567e-09	6.153039e-09	0.008012491	-0.004637928	2.720245e-09	6.489041e-09	-0.08860396	0.05295073
2.3e+08	-0.07838661	0.05576428	2.615615e-09	5.378299e-09	0.00607487	-0.004705905	2.887286e-09	6.002906e-09
	2.615615e-09	5.378299e-09	-0.07723812	0.05687649	2.33289e-09	5.833344e-09	0.006482054	-0.004300057
	0.00607487	-0.004705905	2.33289e-09	5.833344e-09	-0.07878463	0.05554471	2.95961e-09	6.331917e-09
	2.887286e-09	6.002906e-09	0.006482054	-0.004300057	2.95961e-09	6.331917e-09	-0.07707017	0.0571428
2.4e+08	-0.06638528	0.05765735	2.748174e-09	5.191845e-09	0.004607045	-0.003982919	3.026756e-09	5.809658e-09
	2.748174e-09	5.191845e-09	-0.06520873	0.05861202	2.474083e-09	5.703951e-09	0.005026979	-0.003641679
	0.004607045	-0.003982919	2.474083e-09	5.703951e-09	-0.06677388	0.05752573	3.115977e-09	6.126892e-09
	3.026756e-09	5.809658e-09	0.005026979	-0.003641679	3.115977e-09	6.126892e-09	-0.06503122	0.05886438
2.5e+08	-0.05433413	0.05704657	2.79831e-09	4.979829e-09	0.003298223	-0.002956329	3.076966e-09	5.590619e-09
	2.79831e-09	4.979829e-09	-0.05317738	0.05783227	2.539497e-09	5.548257e-09	0.003713402	-0.002682925
	0.003298223	-0.002956329	2.539497e-09	5.548257e-09	-0.05470218	0.05699661	3.178159e-09	5.892094e-09
	3.076966e-09	5.590619e-09	0.003713402	-0.002682925	3.178159e-09	5.892094e-09	-0.05299533	0.0580684
2.6e+08	-0.04273786	0.05397537	2.759781e-09	4.760254e-09	0.002210896	-0.001663939	3.031718e-09	5.365311e-09
	2.759781e-09	4.760254e-09	-0.04165208	0.05459168	2.52269e-09	5.383119e-09	0.002602959	-0.001457757
	0.002210896	-0.001663939	2.52269e-09	5.383119e-09	-0.04307558	0.0539993	3.138984e-09	5.648166e-09
	3.031718e-09	5.365311e-09	0.002602959	-0.001457757	3.138984e-09	5.648166e-09	-0.04147109	0.05481038
2.7e+08	-0.03208364	0.04858776	2.630298e-09	4.552546e-09	0.001399146	-0.0001568168	2.889085e-09	5.154624e-09
	2.630298e-09	4.552546e-09	-0.03112078	0.04904607	2.421003e-09	5.226891e-09	0.001749717	-1.319029e-05
	0.001399146	-0.0001568168	2.421003e-09	5.226891e-09	-0.03238282	0.04867657	2.995833e-09	5.417357e-09
	2.889085e-09	5.154624e-09	0.001749717	-1.319031e-05	2.995833e-09	5.417357e-09	-0.03094682	0.04924741
2.8e+08	-0.02282093	0.04112372	2.411824e-09	4.376668e-09	0.000905581	0.001502444	2.651677e-09	4.979866e-09
	2.411824e-09	4.376668e-09	-0.02203101	0.04144749	2.235881e-09	5.098553e-09	0.001197165	0.001592257
	0.000905581	0.001502444	2.235881e-09	5.098553e-09	-0.02307514	0.04126739	2.750974e-09	5.222498e-09
	2.651677e-09	4.979866e-09	0.001197165	0.001592257	2.750974e-09	5.222498e-09	-0.02187011	0.04163288
2.9e+08	-0.01534218	0.03191029	2.110677e-09	4.252185e-09	0.0007586115	0.003242278	2.326693e-09	4.861782e-09
	2.110677e-09	4.252185e-09	-0.01477054	0.03213467	1.973003e-09	5.016775e-09	0.0009754931	0.003290926
	0.0007586115	0.003242278	1.973003e-09	5.016775e-09	-0.01554693	0.03209813	2.411653e-09	5.085923e-09
	2.326693e-09	4.861782e-09	0.0009754931	0.003290926	2.411653e-09	5.085923e-09	-0.01462849	0.03230685
3e+08	-0.00996552	0.02134854	1.737421e-09	4.197307e-09	0.0009703137	0.004985463	1.925773e-09	4.819579e-09
	1.737421e-09	4.197307e-09	-0.0096501	0.02151933	1.642181e-09	4.998956e-09	0.001099424	0.005009126
	0.0009703137	0.004985463	1.642181e-09	4.998956e-09	-0.01011836	0.02156955	1.989953e-09	5.028384e-09
	1.925773e-09	4.819579e-09	0.001099424	0.005009126	1.989953e-09	5.028384e-09	-0.009532166	0.0216824
3.1e+08	-0.00692043	0.009896864	1.306523e-09	4.227933e-09	0.001535133	0.006653027	1.464646e-09	4.86999e-09
	1.306523e-09	4.227933e-09	-0.006889322	0.01006891	1.256989e-09	5.060335e-09	0.00156684	0.006670855
	0.001535133	0.006653027	1.256989e-09	5.060335e-09	-0.00702097	0.01014013	1.502415e-09	5.068005e-09
	1.464646e-09	4.86999e-09	0.00156684	0.006670855	1.502415e-09	5.068005e-09	-0.006799945	0.01022815
3.2e+08	-0.00633721	-0.001948707	8.358224e-10	4.356843e-09	0.002429619	0.00816851	9.625916e-10	5.02643e-09
	8.358224e-10	4.356843e-09	-0.006606563	-0.00171375	8.34303e-10	5.213119e-09	0.002358395	0.00820188
	0.002429619	0.00816851	8.34303e-10	5.213119e-09	-0.006387065	-0.001693648	9.694398e-10	5.219346e-09
	9.625916e-10	5.02643e-09	0.002358395	0.00820188	9.694398e-10	5.219346e-09	-0.006549088	-0.001552012
3.3e+08	-0.008241003	-0.01367625	3.460079e-10	4.593132e-09	0.0036133	0.009462261	4.417399e-10	5.298264e-09
	3.460079e-10	4.593132e-09	-0.008813507	-0.0133126	3.937446e-10	5.465726e-09	0.003438224	0.009533884
	0.0036133	0.009462261	3.937446e-10	5.465726e-09	-0.008243632	-0.01341899	4.145061e-10	5.492599e-09
	4.417399e-10	5.298264e-09	0.003438224	0.009533884	4.145061e-10	5.492599e-09	-0.008789899	-0.01314123
3.4e+08	-0.01255079	-0.02478057	-1.40375e-10	4.941426e-09	0.005030684	0.01047543	-7.378722e-11	5.690223e-09
	-1.40375e-10	4.941426e-09	-0.0134147	-0.02422134	-4.354536e-11	5.822384e-09	0.004755752	0.01060835
	0.005030684	0.01047543	-4.354536e-11	5.822384e-09	-0.01251124	-0.02452953	-1.369149e-10	5.892896e-09
	-7.378722e-11	5.690223e-09	0.004755752	0.01060835	-1.369149e-10	5.892896e-09	-0.01342536	-0.02403273
3.5e+08	-0.01908346	-0.03478555	-5.998167e-10	5.401572e-09	0.00661427	0.01116334	-5.588359e-10	6.20197e-09
	-5.998167e-10	5.401572e-09	-0.02021236	-0.03396595	-4.554658e-10	6.282765e-09	0.006248478	0.01137982
	0.00661427	0.01116334	-4.554658e-10	6.282765e-09	-0.01900812	-0.03454767	-6.581777e-10	6.420077e-09
	-5.588359e-10	6.20197e-09	0.006248478	0.01137982	-6.581777e-10	6.420077e-09	-0.02025609	-0.03375233
3.6e+08	-0.02756273	-0.04326482	-1.008867e-09	5.968459e-09	0.00828834	0.01149787	-9.882791e-10	6.827903e-09
	-1.008867e-09	5.968459e-09	-0.02891603	-0.04212546	-8.20035e-10	6.841852e-09	0.007845521	0.01181835
	0.00828834	0.01149787	-8.20035e-10	6.841852e-09	-0.02745895	-0.04304538	-1.122647e-09	7.068396e-09
	-9.882791e-10	6.827903e-09	0.007845521	0.01181835	-1.122647e-09	7.068396e-09	-0.02898993	-0.04187927
3.7e+08	-0.03763234	-0.04985994	-1.345186e-09	6.632055e-09	0.009973217	0.01146888	-1.338118e-09	7.557148e-09
	-1.345186e-09	6.632055e-09	-0.03915647	-0.04834992	-1.116521e-09	7.490025e-09	0.009471638	0.01191086
	0.009973217	0.01146888	-1.116521e-09	7.490025e-09	-0.03750805	-0.0496624	-1.505017e-09	7.826506e-09
	-1.338118e-09	7.557148e-09	0.009471638	0.01191086	-1.505017e-09	7.826506e-09	-0.03925604	-0.04806413
3.8e+08	-0.04887271	-0.05429485	-1.588572e-09	7.377672e-09	0.01158964	0.01108431	-1.58659e-09	8.373786e-09
	-1.588572e-09	7.377672e-09	-0.05050306	-0.0523746	-1.326314e-09	8.213366e-09	0.01105136	0.01166142
	0.01158964	0.01108431	-1.326314e-09	8.213366e-09	-0.04873599	-0.05412089	-1.782399e-09	8.677795e-09
	-1.58659e-09	8.373786e-09	0.01105136	0.01166142	-1.782399e-09	8.677795e-09	-0.05062225	-0.05204313
3.9e+08	-0.06081999	-0.05638628	-1.721923e-09	8.186426e-09	0.01306296	0.01036932	-1.715233e-09	9.25731e-09
	-1.721923e-09	8.186426e-09	-0.06248344	-0.0540299	-1.433796e-09	8.994151e-09	0.01251296	0.01109047
	0.01306296	0.01036932	-1.433796e-09	8.994151e-09	-0.06067873	-0.05623584	-1.935405e-09	9.600917e-09
	-1.715233e-09	9.25731e-09	0.01251296	0.01109047	-1.935405e-09	9.600917e-09	-0.06261487	-0.05364791
4e+08	-0.07298659	-0.05604964	-1.732103e-09	9.035913e-09	0.01432675	0.009364342	-1.709866e-09	1.018332e-08
	-1.732103e-09	9.035913e-09	-0.07460445	-0.05324664	-1.42709e-09	9.811506e-09	0.01379191	0.01023313
	0.01432675	0.009364342	-1.42709e-09	9.811506e-09	-0.07284812	-0.05592104	-1.949118e-09	1.057053e-08
	-1.709866e-09	1.018332e-08	0.01379191	0.01023313	-1.949118e-09	1.057053e-08	-0.07473972	-0.05281085
4.1e+08	-0.08488186	-0.05330032	-1.610656e-09	9.901043e-09	0.01532581	0.008122502	-1.561415e-09	1.112442e-08
	-1.610656e-09	9.901043e-09	-0.08637327	-0.05005676	-1.298666e-09	1.064221e-08	0.01483375	0.0091368
	0.01532581	0.008122502	-1.298666e-09	1.064221e-08	-0.08475268	-0.05319049	-1.813911e-09	1.155826e-08
	-1.561415e-09	1.112442e-08	0.01483375	0.0091368	-1.813911e-09	1.155826e-08	-0.08650325	-0.04956564
4.2e+08	-0.09603217	-0.04825084	-1.354348e-09	1.075503e-08	0.01601827	0.006706491	-1.26656e-09	1.20513e-08
	-1.354348e-09	1.075503e-08	-0.09731761	-0.04458968	-1.045783e-09	1.146157e-08	0.01559607	0.007858325
	0.01601827	0.006706491	-1.045783e-09	1.146157e-08	-0.09591772	-0.0481556	-1.526059e-09	1.253377e-08
	-1.26656e-09	1.20513e-08	0.01559607	0.007858325	-1.526059e-09	1.253377e-08	-0.09743284	-0.04404361
4.3e+08	-0.1059994	-0.04110408	-9.654946e-10	1.15705e-08	0.01637682	0.005185268	-8.281332e-10	1.2934e-08
	-9.654946e-10	1.15705e-08	-0.1070043	-0.0370648	-6.707416e-10	1.224443e-08	0.01604982	0.006460974
	0.01637682	0.005185268	-6.707416e-10	1.224443e-08	-0.1059039	-0.04101839	-1.08812e-09	1.346606e-08
	-8.281332e-10	1.2934e-08	0.01604982	0.006460974	-1.08812e-09	1.346606e-08	-0.1070953	-0.03646613
4.4e+08	-0.1143974	-0.03214332	-4.520607e-10	1.232062e-08	0.01638925	0.00363077	-2.55253e-10	1.374317e-08
	-4.520607e-10	1.232062e-08	-0.1150553	-0.02778075	-1.809573e-10	1.296617e-08	0.01617979	0.00501141
	0.01638925	0.00363077	-1.809573e-10	1.296617e-08	-0.1143238	-0.03206158	-5.090635e-10	1.43247e-08
	-2.55253e-10	1.374317e-08	0.01617979	0.00501141	-5.090635e-10	1.43247e-08	-0.1151134	-0.0271338
4.5e+08	-0.1209054	-0.02171957	1.724802e-10	1.298028e-08	0.01605815	0.002114813	4.368326e-10	1.445145e-08
	1.724802e-10	1.298028e-08	-0.1211616	-0.01710212	4.111699e-10	1.36037e-08	0.01598452	0.003576852
	0.01605815	0.002114813	4.111699e-10	1.36037e-08	-0.1208552	-0.02163593	1.958881e-10	1.508123e-08
	4.368326e-10	1.445145e-08	0.01598452	0.003576852	1.958881e-10	1.508123e-08	-0.1211786	-0.01641305
4.6e+08	-0.1252793	-0.01023705	8.895326e-10	1.352724e-08	0.01540019	0.0007062976	1.227196e-09	1.503477e-08
	8.895326e-10	1.352724e-08	-0.125093	-0.005444237	1.088575e-09	1.413649e-08	0.01547566	0.002222506
	0.01540019	0.0007062976	1.088575e-09	1.413649e-08	-0.1252528	-0.01014564	1.005685e-09	1.57104e-08
	1.227196e-09	1.503477e-08	0.01547566	0.002222506	1.005685e-09	1.57104e-08	-0.1250623	-0.004720851
4.7e+08	-0.1273588	0.00186276	1.675998e-09	1.394314e-08	0.01444495	-0.0005312162	2.089963e-09	1.547352e-08
	1.675998e-09	1.394314e-08	-0.1267059	0.006743294	1.83004e-09	1.454749e-08	0.01467704	0.001009323
	0.01444495	-0.0005312162	1.83004e-09	1.454749e-08	-0.1273551	0.001967553	1.894155e-09	1.61914e-08
	2.089963e-09	1.547352e-08	0.01467704	0.001009323	1.894155e-09	1.61914e-08	-0.1266224	0.007491829
4.8e+08	-0.1270728	0.01411786	2.505104e-09	1.421446e-08	0.01323345	-0.001541582	2.995294e-09	1.575357e-08
	2.505104e-09	1.421446e-08	-0.1259469	0.01899373	2.610887e-09	1.482392e-08	0.01362343	-7.929482e-06
