!$
! Info: Touchstone file created by Circ.  Input file=Tx_10in_Rx_100ohms_TxVia_60mils_RxVia_70mils.circ
!$
# Hz S RI R 50
0	0.01043788	1.537159e-25	0.9894217	-1.465588e-25	7.674138e-05	2.278248e-23	-7.208233e-05	2.2699e-21
	0.9894216	-1.482403e-25	0.01043322	1.646099e-25	-7.256194e-05	2.32869e-21	7.350085e-05	2.542693e-23
	7.796571e-05	2.213491e-23	-7.187388e-05	2.244419e-21	0.01044848	1.524532e-25	0.9894001	-1.428454e-25
	-7.235085e-05	2.302776e-21	7.37704e-05	2.553596e-23	0.9894001	-1.498516e-25	0.0104476	1.638868e-25
1e+07	0.01539615	0.00662552	0.9794406	-0.1045378	0.0006675898	0.001954827	-0.0004891324	-0.000218586
	0.9794406	-0.1045378	0.0153899	0.006624998	-0.0004892336	-0.0002185264	0.0006643306	0.001955765
	0.0006676604	0.001954794	-0.0004892006	-0.000218547	0.01525909	0.006648509	0.9795703	-0.104642
	-0.0004890994	-0.0002186067	0.0006643332	0.001955763	0.9795703	-0.104642	0.01525204	0.006648316
2e+07	0.02007509	0.009373769	0.9600206	-0.2039433	0.001137952	0.003986055	-0.0004442592	-0.0005945471
	0.9600206	-0.2039433	0.02004974	0.009375293	-0.0004442867	-0.0005944573	0.001125361	0.003990166
	0.001137938	0.003986018	-0.0004442952	-0.0005944762	0.01998878	0.009466326	0.9600771	-0.2041966
	-0.0004442541	-0.0005945836	0.001125358	0.003990166	0.9600771	-0.2041966	0.01996024	0.009468844
3e+07	0.02417954	0.01021409	0.9317409	-0.2994566	0.001993211	0.00569293	-0.0004706909	-0.000793499
	0.9317409	-0.2994566	0.02412325	0.01022539	-0.0004707413	-0.0007934477	0.001966136	0.005704142
	0.001993207	0.005692929	-0.000470743	-0.0007934473	0.02413841	0.01033104	0.9317145	-0.29981
	-0.0004706933	-0.0007935025	0.001966136	0.005704144	0.9317145	-0.29981	0.02407534	0.01034514
4e+07	0.02792206	0.00997102	0.8945983	-0.3910359	0.00319387	0.007118089	-0.000566131	-0.0009204891
	0.8945983	-0.3910359	0.02782534	0.01000282	-0.0005662282	-0.000920404	0.003148442	0.007141791
	0.003193875	0.007118089	-0.0005662245	-0.0009204039	0.02792335	0.01009601	0.8944773	-0.3914676
	-0.0005661224	-0.0009204843	0.003148442	0.007141792	0.8944773	-0.3914676	0.02781519	0.01013358
5e+07	0.03129804	0.008876836	0.8488948	-0.4780389	0.00479128	0.008145524	-0.000837585	-0.0009105822
	0.8488948	-0.4780389	0.03115483	0.008943089	-0.0008376923	-0.0009104216	0.004725278	0.008187993
	0.004791283	0.008145523	-0.0008376902	-0.0009104226	0.03133814	0.008998166	0.8486684	-0.4785298
	-0.0008375787	-0.000910582	0.004725279	0.008187993	0.8486684	-0.4785298	0.03117813	0.009074907
6e+07	0.03425517	0.007076355	0.7950646	-0.5597552	0.006525589	0.008813557	-0.001083002	-0.0008443201
	0.7950646	-0.5597552	0.03406391	0.007192524	-0.001083085	-0.0008440766	0.006438711	0.00888176
	0.006525588	0.008813559	-0.001083085	-0.0008440759	0.03432934	0.007184729	0.7947237	-0.5602859
	-0.001083008	-0.0008443189	0.006438713	0.00888176	0.7947237	-0.5602859	0.03411592	0.007317988
7e+07	0.03672844	0.004688971	0.7336379	-0.6354789	0.008323524	0.009106061	-0.00129689	-0.0007333157
	0.7336379	-0.6354789	0.03649191	0.004870563	-0.001296923	-0.0007329905	0.00821743	0.00920704
	0.008323522	0.009106066	-0.001296924	-0.0007329874	0.03683081	0.004776865	0.7331757	-0.6360298
	-0.001296905	-0.0007333064	0.008217431	0.009207039	0.7331757	-0.6360298	0.03656727	0.004983901
8e+07	0.03865598	0.001830227	0.6652235	-0.7045403	0.0101086	0.009020408	-0.001474968	-0.0005880336
	0.6652235	-0.7045403	0.038381	0.002091868	-0.00147493	-0.0005876265	0.00998688	0.009160791
	0.01010859	0.009020414	-0.001474931	-0.0005876222	0.03877957	0.001891739	0.664636	-0.7050911
	-0.001474984	-0.0005880165	0.009986881	0.00916079	0.664636	-0.7050911	0.03847357	0.002188795
9e+07	0.03998829	-0.001381046	0.5904971	-0.7663226	0.01180387	0.008568302	-0.00161386	-0.0004177672
	0.5904971	-0.7663226	0.03968538	-0.001026387	-0.001613725	-0.0004172776	0.01167193	0.008753836
	0.01180387	0.008568306	-0.001613725	-0.0004172742	0.04012502	-0.001350235	0.589783	-0.7668525
	-0.001613869	-0.0004177511	0.01167193	0.008753835	0.589783	-0.7668525	0.03978834	-0.000948708
1e+08	0.04070655	-0.004814914	0.5101759	-0.820281	0.01332941	0.007772733	-0.001703989	-0.0002267283
	0.5101759	-0.820281	0.04038963	-0.004356772	-0.001703725	-0.0002261605	0.01319422	0.008007863
	0.01332941	0.007772733	-0.001703725	-0.0002261605	0.04084594	-0.004818224	0.509339	-0.820768
	-0.001703989	-0.0002267284	0.01319422	0.008007863	0.509339	-0.820768	0.04049413	-0.004300488
1.1e+08	0.04079149	-0.008443652	0.4250511	-0.8658149	0.01461909	0.006716647	-0.001745253	-7.297333e-05
	0.4250511	-0.8658149	0.04047814	-0.007875353	-0.00174483	-7.23927e-05	0.01448894	0.007004095
	0.01461909	0.006716647	-0.00174483	-7.239258e-05	0.04092289	-0.00847278	0.4240985	-0.866249
	-0.001745253	-7.297319e-05	0.01448893	0.007004095	0.4240985	-0.866249	0.04057589	-0.007831531
1.2e+08	0.04015813	-0.01207796	0.3360635	-0.9025878	0.01565508	0.005425864	-0.001786735	6.729836e-05
	0.3360635	-0.9025878	0.03986729	-0.01139668	-0.001786142	6.784657e-05	0.01553901	0.00576626
	0.01565508	0.005425864	-0.001786141	6.784673e-05	0.04027985	-0.0121297	0.3349945	-0.9029519
	-0.001786735	6.729855e-05	0.01553901	0.005766261	0.3349945	-0.9029519	0.0399589	-0.01136196
1.3e+08	0.03884848	-0.01557481	0.2440666	-0.9302976	0.01638494	0.003953799	-0.001824151	0.0002009838
	0.2440666	-0.9302976	0.03860013	-0.01478244	-0.001823393	0.0002014507	0.01629229	0.0043456
	0.01638494	0.003953799	-0.001823393	0.0002014508	0.03895709	-0.01564657	0.2428851	-0.9305731
	-0.001824151	0.0002009839	0.01629229	0.004345601	0.2428851	-0.9305731	0.03868457	-0.01475464
1.4e+08	0.0369106	-0.01881038	0.1499586	-0.9487136	0.01677586	0.002367066	-0.001860329	0.0003308379
	0.1499586	-0.9487136	0.03672456	-0.01791372	-0.001859427	0.0003311764	0.01671578	0.002806458
	0.01677586	0.002367066	-0.001859427	0.0003311764	0.03700269	-0.01889903	0.148672	-0.9488817
	-0.001860329	0.0003308379	0.01671577	0.002806459	0.148672	-0.9488817	0.03680077	-0.01789071
1.5e+08	0.03441032	-0.02167352	0.05465955	-0.9576907	0.01681066	0.0007381169	-0.001898281	0.0004604387
	0.05465955	-0.9576907	0.0343051	-0.02068423	-0.001897269	0.0004606085	0.01679152	0.001219058
	0.01681066	0.0007381171	-0.001897269	0.0004606085	0.03448293	-0.02177527	0.05327785	-0.9577332
	-0.001898281	0.0004604387	0.01679151	0.001219059	0.05327785	-0.9577332	0.03437225	-0.02066378
1.6e+08	0.03143063	-0.02406788	-0.04089953	-0.9571724	0.01648789	-0.0008584163	-0.001940023	0.0005944576
	-0.04089953	-0.9571724	0.03142222	-0.02300219	-0.001938949	0.0005944301	0.01651678	-0.0003440288
	0.01648789	-0.0008584161	-0.001938949	0.00059443	0.03148148	-0.02417832	-0.0423635	-0.9570721
	-0.001940023	0.0005944575	0.01651678	-0.0003440281	-0.0423635	-0.9570721	0.03147984	-0.022982
1.7e+08	0.02806939	-0.02591448	-0.1357854	-0.9471932	0.01582174	-0.002349111	-0.001985958	0.0007383683
	-0.1357854	-0.9471932	0.02817025	-0.02479257	-0.001984878	0.0007381307	0.01590401	-0.001811153
	0.01582174	-0.002349111	-0.001984878	0.0007381306	0.0280971	-0.02602872	-0.1373163	-0.9469343
	-0.001985957	0.0007383682	0.01590401	-0.001811153	-0.1373163	-0.9469343	0.02821828	-0.02477032
1.8e+08	0.02443636	-0.02715396	-0.229072	-0.927878	0.01484142	-0.003665001	-0.002034531	0.0008979319
	-0.229072	-0.927878	0.02465442	-0.02599918	-0.002033502	0.000897489	0.01498023	-0.003114721
	0.01484143	-0.003665001	-0.002033502	0.0008974889	0.02444055	-0.02726683	-0.2306519	-0.9274462
	-0.002034531	0.0008979318	0.01498023	-0.00311472	-0.2306519	-0.9274462	0.02469326	-0.0259726
1.9e+08	0.02064957	-0.02774839	-0.3198495	-0.8994419	0.01358987	-0.004744602	-0.00208211	0.001078575
	-0.3198495	-0.8994419	0.02098754	-0.02658622	-0.002081187	0.00107795	0.01378584	-0.004194124
	0.01358987	-0.004744602	-0.002081187	0.00107795	0.02063095	-0.02785467	-0.3214586	-0.8988252
	-0.00208211	0.001078575	0.01378584	-0.004194123	-0.3214586	-0.8988252	0.02101801	-0.02655321
2e+08	0.01683142	-0.02768244	-0.4072333	-0.8621885	0.01212188	-0.005536607	-0.00212308	0.001284747
	-0.4072333	-0.8621885	0.01728625	-0.02653929	-0.002122309	0.00128398	0.01237291	-0.004998363
	0.01212188	-0.005536607	-0.002122309	0.00128398	0.01679184	-0.02777708	-0.4088496	-0.8613772
	-0.00212308	0.001284747	0.01237291	-0.004998363	-0.4088496	-0.8613772	0.01730959	-0.02649799
2.1e+08	0.01310451	-0.02696377	-0.490373	-0.8165074	0.01050175	-0.006002144	-0.002150148	0.001519315
	-0.490373	-0.8165074	0.01366716	-0.0258657	-0.002149558	0.00151846	0.01080295	-0.005488255
	0.01050175	-0.006002144	-0.002149558	0.00151846	0.01304687	-0.02704211	-0.491973	-0.8154943
	-0.002150149	0.001519315	0.01080295	-0.005488255	-0.491973	-0.8154943	0.01368495	-0.02581455
2.2e+08	0.009587406	-0.02562268	-0.5684611	-0.7628703	0.008800523	-0.006116493	-0.002154816	0.001783073
	-0.5684611	-0.7628703	0.01024288	-0.02459401	-0.002154419	0.00178219	0.009144215	-0.005638135
	0.008800523	-0.006116493	-0.002154419	0.00178219	0.009515608	-0.02568072	-0.5700198	-0.761651
	-0.002154816	0.001783073	0.009144215	-0.005638135	-0.5700198	-0.761651	0.01025699	-0.02453185
2.3e+08	0.006390533	-0.02371096	-0.6407408	-0.7018268	0.007092856	-0.005870194	-0.002127997	0.002074394
	-0.6407408	-0.7018268	0.007118289	-0.02277295	-0.002127783	0.002073547	0.007468813	-0.005436968
	0.007092856	-0.005870194	-0.002127783	0.002073547	0.006309338	-0.02374555	-0.6422324	-0.7004002
	-0.002127997	0.002074394	0.007468813	-0.005436968	-0.6422324	-0.7004002	0.007130786	-0.02269906
2.4e+08	0.003612302	-0.02129999	-0.7065146	-0.6339988	0.005453809	-0.005269473	-0.002060715	0.002389079
	-0.7065146	-0.6339988	0.004386867	-0.0204696	-0.002060654	0.002388325	0.005849576	-0.004888834
	0.005453809	-0.005269473	-0.002060654	0.002388325	0.00352713	-0.02130904	-0.7079126	-0.6323668
	-0.002060715	0.002389079	0.005849576	-0.004888834	-0.7079126	-0.6323668	0.004399915	-0.02038372
2.5e+08	0.001335676	-0.01847815	-0.7651507	-0.5600742	0.003955557	-0.004335999	-0.001944834	0.002720405
	-0.7651507	-0.5600742	0.002127608	-0.0177669	-0.001944876	0.002719788	0.00435692	-0.004012746
	0.003955557	-0.004335999	-0.001944876	0.002719788	0.001252391	-0.01846073	-0.7664283	-0.5582421
	-0.001944834	0.002720405	0.00435692	-0.004012746	-0.7664283	-0.5582421	0.00214337	-0.01766925
2.6e+08	-0.0003747594	-0.01534753	-0.8160898	-0.4807999	0.002664244	-0.003105946	-0.001773749	0.003059387
	-0.8160898	-0.4807999	0.0004023038	-0.01476062	-0.001773831	0.003058934	0.003055811	-0.002841831
	0.002664244	-0.003105946	-0.001773831	0.003058934	-0.0004501139	-0.01530399	-0.8172206	-0.4787763
	-0.001773749	0.003059387	0.003055811	-0.002841831	-0.8172206	-0.4787763	0.0004228366	-0.01465191
2.7e+08	-0.001475032	-0.01202024	-0.8588511	-0.396974	0.001637105	-0.001628429	-0.001542984	0.003395227
	-0.8588511	-0.396974	-0.0007464901	-0.01155591	-0.001543034	0.00339494	0.002002966	-0.001421883
	0.001637105	-0.001628429	-0.001543034	0.00339494	-0.001536501	-0.01195221	-0.8598091	-0.3947707
	-0.001542984	0.003395227	0.002002966	-0.001421883	-0.8598091	-0.3947707	-0.0007193326	-0.01143727
2.8e+08	-0.001943273	-0.008614244	-0.8930364	-0.309437	0.0009199748	3.66333e-05	-0.001250645	0.003715915
	-0.8930364	-0.309437	-0.001296808	-0.008263481	-0.001250594	0.003715773	0.001244425	0.0001906207
	0.0009199748	3.663328e-05	-0.001250594	0.003715773	-0.001985264	-0.008524655	-0.8937968	-0.3070696
	-0.001250645	0.003715915	0.001244425	0.0001906207	-0.8937968	-0.3070696	-0.001261462	-0.00813644
2.9e+08	-0.001780387	-0.005249091	-0.9183343	-0.2190639	0.0005453033	0.001821119	-0.00089769	0.004008942
	-0.9183343	-0.2190639	-0.001247883	-0.004995589	-0.0008974743	0.004008897	0.0008135914	0.001930962
	0.0005453032	0.001821119	-0.0008974743	0.004008897	-0.001797953	-0.005142059	-0.9188736	-0.2165507
	-0.00089769	0.004008942	0.0008135914	0.001930962	-0.9188736	-0.2165507	-0.001203157	-0.004861977
3e+08	-0.001009881	-0.002041496	-0.9345228	-0.126754	0.0005307582	0.003651657	-0.0004879857	0.004262055
	-0.9345228	-0.126754	-0.000619974	-0.001862025	-0.0004875596	0.004262042	0.0007298198	0.003728978
	0.0005307582	0.003651657	-0.0004875596	0.004262042	-0.0009989633	-0.00192219	-0.9348196	-0.1241166
	-0.0004879857	0.004262055	0.0007298198	0.003728978	-0.9348196	-0.1241166	-0.0005651076	-0.001723907
3.1e+08	0.0003231526	0.0008988918	-0.9414713	-0.03342215	0.0008784747	0.005452802	-2.815813e-05	0.004464008
	-0.9414713	-0.03342215	0.000546568	0.001033809	-2.74988e-05	0.004463942	0.0009976229	0.005512068
	0.0008784747	0.005452802	-2.749878e-05	0.004463942	0.0003655037	0.001024449	-0.9415062	-0.030685
	-2.815811e-05	0.004464008	0.0009976229	0.005512068	-0.9415062	-0.030685	0.0006118643	0.001174238
3.2e+08	0.002153853	0.00347347	-0.9391408	0.06001061	0.001574979	0.007150276	0.0004727602	0.004605229
	-0.9391408	0.06001061	0.002192961	0.003598547	0.0004736478	0.004605019	0.001606514	0.007208298
	0.001574979	0.007150276	0.0004736478	0.004605019	0.0022293	0.003598641	-0.9388971	0.06282052
	0.0004727603	0.004605229	0.001606514	0.007208298	-0.9388971	0.06282052	0.002268487	0.003739067
3.3e+08	0.004400132	0.005598216	-0.9275839	0.1526267	0.002591783	0.008674157	0.001003851	0.004678367
	-0.9275839	0.1526267	0.00424432	0.005752117	0.001004932	0.004677923	0.002531489	0.008749457
	0.002591783	0.008674157	0.001004932	0.004677923	0.004508928	0.005716024	-0.9270478	0.1554801
	0.001003851	0.004678367	0.002531489	0.008749457	-0.9270478	0.1554801	0.004329384	0.005890589
3.4e+08	0.006965842	0.00720666	-0.9069435	0.2435208	0.003886612	0.009961862	0.001552956	0.004678667
	-0.9069435	0.2435208	0.006612537	0.007430475	0.001554165	0.00467791	0.003734122	0.01007393
	0.003886612	0.009961862	0.001554165	0.00467791	0.007106766	0.007310089	-0.9061043	0.2463863
	0.001552956	0.004678667	0.003734122	0.01007393	-0.9061043	0.2463863	0.00670599	0.007564944
3.5e+08	0.009744444	0.008252174	-0.8774504	0.3318087	0.005405222	0.0109608	0.002107392	0.004604153
	-0.8774504	0.3318087	0.009199632	0.008587727	0.002108639	0.004603022	0.005164216	0.0111293
	0.005405222	0.0109608	0.002108639	0.004603022	0.009914803	0.00833448	-0.8763008	0.3346536
	0.002107392	0.004604153	0.005164216	0.0111293	-0.8763008	0.3346536	0.009299908	0.00871652
3.6e+08	0.01262303	0.008709518	-0.8394204	0.416636	0.007083699	0.0116306	0.002654676	0.004455594
	-0.8394204	0.416636	0.01190141	0.009197564	0.002655852	0.004454058	0.006761939	0.01187451
	0.007083699	0.0116306	0.002655852	0.004454058	0.01281872	0.008764538	-0.8379568	0.4194261
	0.002654676	0.004455594	0.006761939	0.01187451	-0.8379568	0.4194261	0.0120066	0.009319374
3.7e+08	0.01548657	0.008575564	-0.7932505	0.4971854	0.008851165	0.01194482	0.003183201	0.004236283
	-0.7932505	0.4971854	0.01461131	0.009253971	0.003184187	0.004234344	0.008460348	0.01228157
	0.008851165	0.01194482	0.003184187	0.004234344	0.01570221	0.008598009	-0.7914731	0.4998857
	0.003183201	0.004236283	0.008460348	0.01228157	-0.7914731	0.4998857	0.01471924	0.009367927
3.8e+08	0.01822214	0.007869214	-0.7394144	0.5726847	0.01063276	0.01189204	0.003682813	0.003951637
	-0.7394144	0.5726847	0.01722431	0.008771188	0.003683489	0.003949333	0.01018819	0.01233674
	0.01063276	0.01189204	0.003683489	0.003949333	0.01845125	0.007854929	-0.7373272	0.5752598
	0.003682813	0.003951637	0.01018819	0.01233674	-0.7373272	0.5752598	0.01733263	0.008876904
3.9e+08	0.02072313	0.006630486	-0.6784576	0.6424134	0.01235276	0.01147641	0.004145228	0.00360866
	-0.6784576	0.6424134	0.01964069	0.00778294	0.004145487	0.003606064	0.01187289	0.01204106
	0.01235276	0.01147641	0.004145487	0.003606064	0.0209584	0.006576676	-0.6760686	0.6448279
	0.004145228	0.00360866	0.01187289	0.01204106	-0.6760686	0.6448279	0.019747	0.007880547
4e+08	0.0228931	0.004918851	-0.6109914	0.7057089	0.01393779	0.01071743	0.004564285	0.003215329
	-0.6109914	0.7057089	0.0217696	0.006340977	0.004564041	0.003212544	0.01344353	0.01141031
	0.01393779	0.01071743	0.004564041	0.003212544	0.02312663	0.004824245	-0.6083127	0.707928
	0.004564285	0.003215329	0.01344353	0.01141031	-0.6083127	0.707928	0.02187156	0.006431123
4.1e+08	0.02464926	0.002810846	-0.5376876	0.7619727	0.01531984	0.009649249	0.004935993	0.002779943
	-0.5376876	0.7619727	0.02353226	0.004512967	0.004935192	0.002777097	0.01483383	0.01047437
	0.01531984	0.009649249	0.004935192	0.002777097	0.02487295	0.002675812	-0.5347352	0.7639622
	0.004935993	0.002779943	0.01483383	0.01047437	-0.5347352	0.7639622	0.02362768	0.004596805
4.2e+08	0.02592548	0.0003970972	-0.4592716	0.8106746	0.01643918	0.008319221	0.005258398	0.00231051
	-0.4592716	0.8106746	0.02486467	0.002379851	0.005257022	0.002307745	0.01598488	0.009276049
	0.01643918	0.008319221	0.005257022	0.002307745	0.0261313	0.0002236746	-0.4560652	0.8124019
	0.005258398	0.00231051	0.01598488	0.009276049	-0.4560652	0.8124019	0.02495163	0.002458995
4.3e+08	0.02667454	-0.002221174	-0.3765154	0.8513585	0.01724681	0.006786037	0.005531268	0.001814214
	-0.3765154	0.8513585	0.0257198	3.274034e-05	0.005529343	0.001811675	0.01684761	0.007869266
	0.01724681	0.006786037	0.005529343	0.001811675	0.02685493	-0.002429292	-0.3730788	0.8527924
	0.005531268	0.001814214	0.01684761	0.007869266	-0.3730788	0.8527924	0.02579674	0.0001092097
4.4e+08	0.02686984	-0.004935992	-0.2902312	0.8836452	0.01770663	0.005117311	0.005755652	0.001297014
	-0.2902312	0.8836452	0.0260691	-0.00243052	0.005753241	0.001294835	0.01738484	0.006316915
	0.01770663	0.005117311	0.005753241	0.001294835	0.02701801	-0.00517357	-0.2865917	0.884757
	0.005755652	0.001297014	0.01738484	0.006316915	-0.2865917	0.884757	0.02613491	-0.002354392
4.5e+08	0.02650619	-0.007636725	-0.2012633	0.9072364	0.01779695	0.003386822	0.005933338	0.0007634086
	-0.2012633	0.9072364	0.02590339	-0.004909017	0.005930543	0.0007617012	0.01757287	0.004688272
	0.01779695	0.003386822	0.005930543	0.0007617012	0.02661646	-0.007897149	-0.1974517	0.9079998
	0.005933338	0.0007634086	0.01757287	0.004688272	-0.1974517	0.9079998	0.02595748	-0.004830672
4.6e+08	0.02559989	-0.01021425	-0.1104808	0.9219175	0.01751156	0.001671478	0.006066281	0.0002163784
	-0.1104808	0.9219175	0.02523302	-0.007302503	0.006063232	0.0002152218	0.01740252	0.003056161
	0.01751156	0.001671478	0.006063232	0.0002152218	0.02566795	-0.01048976	-0.1065311	0.9223092
	0.006066281	0.0002163784	0.01740252	0.003056161	-0.1065311	0.9223092	0.02527532	-0.007219272
4.7e+08	0.02418803	-0.01256504	-0.0187694	0.9275593	0.01686003	4.812505e-05	0.006156048	-0.0003424787
	-0.0187694	0.9275593	0.02408726	-0.009515103	0.006152894	-0.0003430458	0.01687962	0.001493952
	0.01686003	4.812505e-05	0.006152894	-0.0003430458	0.02421113	-0.01284703	-0.01471851	0.9275595
	0.006156048	-0.0003424787	0.01687962	0.001493952	-0.01471851	0.9275595	0.02411824	-0.009424322
4.8e+08	0.02232692	-0.01459508	0.07297655	0.9241197	0.0158675	-0.001409665	0.006203338	-0.0009126522
	0.07297655	0.9241197	0.02251312	-0.01145883	0.006200233	-0.0009126356	0.01602482	7.250786e-05
	0.0158675	-0.001409665	0.006200233	-0.0009126356	0.02230415	-0.01487441	0.07708908	0.923712
	0.006203338	-0.0009126522	0.01602482	7.250786e-05	0.07708908	0.923712	0.02253385	-0.01135794
4.9e+08	0.02008995	-0.01622339	0.1638625	0.9116442	0.01457372	-0.002634709	0.006207628	-0.001494275
	0.1638625	0.9116442	0.02057345	-0.01305681	0.006204716	-0.001493725	0.01487285	-0.001142777
	0.01457372	-0.002634709	0.006204716	-0.001493725	0.02002227	-0.01649076	0.167995	0.9108166
	0.006207628	-0.001494275	0.01487285	-0.001142777	0.167995	0.9108166	0.02058555	-0.0129435
5e+08	0.01756464	-0.01738503	0.2530024	0.8902661	0.01303149	-0.003569084	0.006166972	-0.002087589
	0.2530024	0.8902661	0.01834444	-0.01424607	0.006164378	-0.002086598	0.01347116	-0.002094749
	0.01303149	-0.003569084	0.006164378	-0.002086598	0.01745491	-0.01763141	0.2571112	0.8890107
	0.006166972	-0.002087589	0.01347116	-0.002094749	0.2571112	0.8890107	0.01834999	-0.01411837
5.1e+08	0.01484929	-0.01803357	0.339527	0.8602054	0.01130462	-0.004166659	0.006077996	-0.002692367
	0.339527	0.8602054	0.01591266	-0.0149798	0.006075808	-0.002691059	0.01187804	-0.002736951
