!$
! Info: Touchstone file created by Circ.  Input file=Tx_14in_Rx_93ohms_TxVia_60mils_RxVia_70mils.circ
!$
# Hz S RI R 50
0	0.012828	1.777425e-25	1.631376e-09	4.391011e-27	9.526137e-05	2.513981e-23	-1.475388e-10	6.346873e-26
	1.63139e-09	4.391017e-27	0.01282372	2.16818e-25	4.453922e-09	1.50366e-26	9.439746e-05	3.128951e-23
	9.439375e-05	2.502737e-23	4.453922e-09	1.503661e-26	0.01284164	1.796857e-25	3.676239e-09	4.644445e-27
	-1.472518e-10	6.343358e-26	9.466687e-05	3.142368e-23	3.676158e-09	4.644431e-27	0.01283803	2.158828e-25
1e+07	0.01820082	-0.002027168	2.048883e-09	3.527262e-09	0.0005732329	0.002593503	-2.071752e-09	1.174835e-08
	2.048883e-09	3.527262e-09	0.01856623	-0.002072722	6.233036e-09	1.293284e-08	0.0005670536	0.002585697
	0.0005732171	0.002593517	6.233036e-09	1.293284e-08	0.0185906	-0.002089246	-5.506551e-10	1.244677e-08
	-2.071752e-09	1.174835e-08	0.0005670565	0.002585695	-5.50655e-10	1.244677e-08	0.01819831	-0.002062517
2e+07	0.02054722	-0.00880969	2.865194e-09	6.29423e-09	0.001591193	0.005015929	1.661846e-09	3.375451e-09
	2.865194e-09	6.29423e-09	0.02075639	-0.00900515	8.057775e-09	2.302292e-08	0.001574057	0.005005745
	0.0015912	0.005015938	8.057775e-09	2.302292e-08	0.02080928	-0.009047582	-2.362307e-10	6.767566e-09
	1.661846e-09	3.375451e-09	0.001574054	0.005005745	-2.362307e-10	6.767566e-09	0.02048988	-0.008868387
3e+07	0.01955698	-0.01694804	3.469893e-09	8.619929e-09	0.003305524	0.006884041	2.790354e-09	4.758998e-09
	3.469893e-09	8.619929e-09	0.01961207	-0.01716263	8.878522e-09	3.289637e-08	0.003251104	0.006890263
	0.003305525	0.006884042	8.878522e-09	3.289637e-08	0.01970667	-0.01724881	3.043859e-09	8.854395e-09
	2.790354e-09	4.758998e-09	0.003251103	0.006890265	3.043859e-09	8.854395e-09	0.01941797	-0.01700198
4e+07	0.01586884	-0.02469568	3.929599e-09	1.080272e-08	0.005480373	0.008119058	3.330513e-09	5.622104e-09
	3.929599e-09	1.080272e-08	0.01577388	-0.02486639	9.346353e-09	4.286958e-08	0.005398442	0.008150412
	0.005480372	0.008119059	9.346353e-09	4.286958e-08	0.01591486	-0.02501933	3.548957e-09	1.130514e-08
	3.330513e-09	5.622104e-09	0.005398443	0.008150413	3.548957e-09	1.130514e-08	0.01563189	-0.02471015
5e+07	0.01000322	-0.03120888	4.225576e-09	1.285606e-08	0.00785971	0.008670579	3.593865e-09	6.289516e-09
	4.225576e-09	1.285606e-08	0.009773858	-0.0312831	9.592356e-09	5.305201e-08	0.007753289	0.008739073
	0.007859709	0.008670579	9.592356e-09	5.305201e-08	0.00995539	-0.03152807	3.635209e-09	1.366969e-08
	3.593865e-09	6.289516e-09	0.00775329	0.008739074	3.635209e-09	1.366969e-08	0.009665388	-0.03114382
6e+07	0.002541334	-0.03592482	4.305382e-09	1.481945e-08	0.01024226	0.00851778	3.560804e-09	6.844202e-09
	4.305382e-09	1.481945e-08	0.002206159	-0.03585892	9.75752e-09	6.350497e-08	0.01011865	0.008634082
	0.01024226	0.008517779	9.75752e-09	6.350497e-08	0.00241144	-0.03621856	3.538545e-09	1.606314e-08
	3.560804e-09	6.844202e-09	0.01011865	0.008634082	3.538545e-09	1.606314e-08	0.002114834	-0.03574069
7e+07	-0.005874842	-0.03849828	4.125152e-09	1.676892e-08	0.01242918	0.007696628	3.196341e-09	7.385278e-09
	4.125152e-09	1.676892e-08	-0.006276096	-0.03826013	9.983553e-09	7.425126e-08	0.01229941	0.007868695
	0.01242917	0.007696627	9.983553e-09	7.425126e-08	-0.006072944	-0.03875027	3.309263e-09	1.852673e-08
	3.196341e-09	7.385278e-09	0.01229941	0.007868695	3.309263e-09	1.852673e-08	-0.006364109	-0.03816153
8e+07	-0.01457551	-0.03878673	3.667733e-09	1.880674e-08	0.01424109	0.006297158	2.495461e-09	8.029582e-09
	3.667733e-09	1.880674e-08	-0.01499519	-0.03835807	1.04042e-08	8.527007e-08	0.01411899	0.006529026
	0.01424108	0.006297157	1.04042e-08	8.527007e-08	-0.01482613	-0.03898486	2.965714e-09	2.109183e-08
	2.495461e-09	8.029582e-09	0.01411899	0.006529026	2.965714e-09	2.109183e-08	-0.01509083	-0.03827382
9e+07	-0.02290414	-0.03683892	2.955157e-09	2.104978e-08	0.0155328	0.004455324	1.485346e-09	8.916682e-09
	2.955157e-09	2.104977e-08	-0.02329035	-0.03621694	1.111767e-08	9.649706e-08	0.01543366	0.004746286
	0.0155328	0.004455324	1.111767e-08	9.649706e-08	-0.0231899	-0.03697508	2.51023e-09	2.380042e-08
	1.485346e-09	8.916682e-09	0.01543366	0.004746286	2.51023e-09	2.380042e-08	-0.02340166	-0.03613935
1e+08	-0.03024317	-0.03287481	2.026627e-09	2.364815e-08	0.0162037	0.00234035	2.540688e-10	1.031491e-08
	2.026627e-09	2.364815e-08	-0.03054073	-0.03207222	1.20984e-08	1.078441e-07	0.01614309	0.002684617
	0.0162037	0.00234035	1.20984e-08	1.078441e-07	-0.03054195	-0.03294427	1.941501e-09	2.673095e-08
	2.540688e-10	1.031491e-08	0.01614309	0.002684617	1.941501e-09	2.673095e-08	-0.03067596	-0.031993
1.1e+08	-0.03613801	-0.0273736	1.082693e-09	2.656539e-08	0.01620678	0.0001489519	-9.820485e-10	1.200123e-08
	1.082693e-09	2.656539e-08	-0.03630415	-0.02643805	1.359959e-08	1.191838e-07	0.0161975	0.0005334853
	0.01620678	0.0001489519	1.359959e-08	1.191838e-07	-0.03643543	-0.02739483	1.438759e-09	2.997316e-08
	-9.820485e-10	1.200123e-08	0.0161975	0.0005334855	1.438759e-09	2.997316e-08	-0.036461	-0.02633137
1.2e+08	-0.04029531	-0.02070048	1.910781e-10	2.987797e-08	0.01555865	-0.001929695	-2.244217e-09	1.40877e-08
	1.910781e-10	2.987797e-08	-0.04031048	-0.01967179	1.558273e-08	1.30354e-07	0.0156085	-0.001519806
	0.01555865	-0.001929695	1.558273e-08	1.30354e-07	-0.04059055	-0.02067468	1.053699e-09	3.348046e-08
	-2.244217e-09	1.40877e-08	0.0156085	-0.001519805	1.053699e-09	3.348046e-08	-0.04047214	-0.01953221
1.3e+08	-0.04246014	-0.01338861	-5.041995e-10	3.359708e-08	0.01432142	-0.003717456	-3.3753e-09	1.65999e-08
	-5.041995e-10	3.359708e-08	-0.04231139	-0.01231289	1.800699e-08	1.412187e-07	0.01443415	-0.003299776
	0.01432142	-0.003717456	1.800699e-08	1.412187e-07	-0.0427466	-0.01331652	8.89795e-10	3.724312e-08
	-3.3753e-09	1.65999e-08	0.01443415	-0.003299775	8.89795e-10	3.724312e-08	-0.04246563	-0.01214039
1.4e+08	-0.04256038	-0.006012218	-8.535782e-10	3.766434e-08	0.01260504	-0.005061563	-4.239806e-09	1.951072e-08
	-8.535782e-10	3.766434e-08	-0.04224791	-0.00493968	2.078776e-08	1.516439e-07	0.01277898	-0.004654971
	0.01260504	-0.005061563	2.078776e-08	1.516439e-07	-0.04283013	-0.005896093	1.048804e-09	4.119469e-08
	-4.239806e-09	1.951072e-08	0.01277898	-0.00465497	1.048804e-09	4.119469e-08	-0.04238444	-0.004737944
1.5e+08	-0.04068724	0.0008652608	-7.331371e-10	4.196095e-08	0.0105571	-0.005847038	-4.713495e-09	2.275619e-08
	-7.331371e-10	4.196095e-08	-0.04022637	0.001884518	2.379546e-08	1.615231e-07	0.0107847	-0.005469978
	0.0105571	-0.005847038	2.379546e-08	1.615231e-07	-0.0409322	0.001021191	1.6047e-09	4.522344e-08
	-4.713495e-09	2.275619e-08	0.0107847	-0.005469978	1.6047e-09	4.522344e-08	-0.0403371	0.00210892
1.6e+08	-0.03708149	0.006734174	-4.677424e-11	4.634728e-08	0.008350654	-0.006005291	-4.675414e-09	2.622102e-08
	-4.677424e-11	4.634728e-08	-0.03650276	0.007654948	2.686507e-08	1.7079e-07	0.008618648	-0.005673904
	0.008350654	-0.006005291	2.686507e-08	1.7079e-07	-0.03729425	0.006923644	2.606201e-09	4.921215e-08
	-4.675414e-09	2.622102e-08	0.008618647	-0.005673904	2.6062e-09	4.921215e-08	-0.03658234	0.007893319
1.7e+08	-0.03211079	0.01117594	1.235858e-09	5.063474e-08	0.006170405	-0.005519115	-4.051474e-09	2.975635e-08
	1.235858e-09	5.063474e-08	-0.03145842	0.01196264	2.980993e-08	1.794338e-07	0.006460533	-0.005245453
	0.006170405	-0.005519115	2.980993e-08	1.794338e-07	-0.0322853	0.01139081	4.043575e-09	5.300933e-08
	-4.051474e-09	2.975635e-08	0.006460533	-0.005245452	4.043575e-09	5.300933e-08	-0.0315046	0.01220505
1.8e+08	-0.0262388	0.01389267	3.077731e-09	5.463004e-08	0.00419808	-0.00442381	-2.812605e-09	3.318874e-08
	3.077731e-09	5.463004e-08	-0.02556764	0.01452346	3.244089e-08	1.875045e-07	0.004488418	-0.004214322
	0.00419808	-0.00442381	3.244089e-08	1.875045e-07	-0.02637096	0.01412326	5.851422e-09	5.64709e-08
	-2.812605e-09	3.318874e-08	0.004488418	-0.004214322	5.851422e-09	5.64709e-08	-0.02558142	0.01475972
1.9e+08	-0.01998797	0.01472728	5.377152e-09	5.816016e-08	0.002598027	-0.002804366	-9.832903e-10	3.633387e-08
	5.377152e-09	5.816016e-08	-0.01935925	0.01519723	3.458707e-08	1.951131e-07	0.002864732	-0.00265882
	0.002598027	-0.002804366	3.458707e-08	1.951131e-07	-0.02007609	0.01496294	7.914941e-09	5.948141e-08
	-9.832903e-10	3.633387e-08	0.002864732	-0.00265882	7.914941e-09	5.948141e-08	-0.01934476	0.01541784
2e+08	-0.01389871	0.01367297	7.979917e-09	6.109362e-08	0.00150398	-0.0007888028	1.354136e-09	3.901357e-08
	7.979917e-09	6.109362e-08	-0.01337476	0.01399587	3.611581e-08	2.024236e-07	0.001723348	-0.0006997611
	0.00150398	-0.0007888028	3.611581e-08	2.024236e-07	-0.0139438	0.01390273	1.008447e-08	6.197054e-08
	1.354136e-09	3.901357e-08	0.001723348	-0.000699761	1.008447e-08	6.197054e-08	-0.01333897	0.01419291
2.1e+08	-0.008487686	0.01087128	1.069791e-08	6.335446e-08	0.001008041	0.001461962	4.060988e-09	4.107486e-08
	1.069791e-08	6.335446e-08	-0.008126307	0.01107975	3.694906e-08	2.096383e-07	0.001158686	0.001509032
	0.001008041	0.001461962	3.694906e-08	2.096383e-07	-0.008493543	0.01108456	1.219499e-08	6.392169e-08
	4.060988e-09	4.107486e-08	0.001158686	0.001509032	1.219499e-08	6.392169e-08	-0.008078376	0.01124767
2.2e+08	-0.004208401	0.006599001	1.333003e-08	6.49277e-08	0.001152797	0.003767089	6.950457e-09	4.240862e-08
	1.333003e-08	6.49277e-08	-0.004057162	0.0067429	3.707386e-08	2.169794e-07	0.001217761	0.003793044
	0.001152797	0.003767089	3.707386e-08	2.169794e-07	-0.004181498	0.006786341	1.408625e-08	6.537175e-08
	6.950457e-09	4.240862e-08	0.001217761	0.003793044	1.408625e-08	6.537175e-08	-0.004007674	0.006879079
2.3e+08	-0.001416973	0.001244775	1.568142e-08	6.585683e-08	0.001927374	0.005940693	9.802485e-09	4.296527e-08
	1.568142e-08	6.585683e-08	-0.001508136	0.001387955	3.654564e-08	2.246665e-07	0.001895978	0.005971328
	0.001927374	0.005940693	3.654564e-08	2.246665e-07	-0.001366134	0.001398598	1.561953e-08	6.640332e-08
	9.802485e-09	4.296527e-08	0.001895978	0.005971328	1.561953e-08	6.640332e-08	-0.00146818	0.001493008
2.4e+08	-0.0003457675	-0.004722592	1.757823e-08	6.623598e-08	0.003267931	0.007807445	1.238402e-08	4.276494e-08
	1.757823e-08	6.623598e-08	-0.000692271	-0.00450709	3.548418e-08	2.328958e-07	0.003137176	0.00787157
	0.003267931	0.007807445	3.548418e-08	2.328958e-07	-0.0002816394	-0.004607394	1.668833e-08	6.713237e-08
	1.238402e-08	4.276494e-08	0.003137176	0.00787157	1.668833e-08	6.713237e-08	-0.000672455	-0.004429264
2.5e+08	-0.001086908	-0.01079183	1.887736e-08	6.620031e-08	0.005062727	0.009217527	1.44723e-08	4.190007e-08
	1.887736e-08	6.620031e-08	-0.001679858	-0.01042768	3.406336e-08	2.418224e-07	0.00483811	0.009344656
	0.005062727	0.009217527	3.406336e-08	2.418224e-07	-0.001021268	-0.01071743	1.722267e-08	6.76955e-08
	1.44723e-08	4.190007e-08	0.00483811	0.009344656	1.722267e-08	6.76955e-08	-0.001689351	-0.01037015
2.6e+08	-0.003586948	-0.01644978	1.939104e-08	6.587428e-08	0.007161441	0.01005956	1.5879e-08	4.05309e-08
	1.939104e-08	6.587428e-08	-0.004394908	-0.01586397	3.246001e-08	2.515283e-07	0.006857068	0.01027739
	0.007161441	0.01005956	3.246001e-08	2.515283e-07	-0.003531859	-0.01641517	1.710665e-08	6.819669e-08
	1.5879e-08	4.05309e-08	0.006857068	0.01027739	1.710665e-08	6.819669e-08	-0.004440617	-0.01581726
2.7e+08	-0.007653009	-0.02122156	1.909661e-08	6.553517e-08	0.009387981	0.01027024	1.646796e-08	3.886843e-08
	1.909661e-08	6.553517e-08	-0.008623376	-0.02035101	3.092885e-08	2.620844e-07	0.009025934	0.01060213
	0.009387981	0.01027024	3.092885e-08	2.620844e-07	-0.007620028	-0.02122252	1.638379e-08	6.88721e-08
	1.646796e-08	3.886843e-08	0.009025934	0.01060213	1.638379e-08	6.88721e-08	-0.008709205	-0.02030392
2.8e+08	-0.01296977	-0.02470724	1.800672e-08	6.541377e-08	0.01155561	0.009839768	1.617056e-08	3.715906e-08
	1.800672e-08	6.541377e-08	-0.014032	-0.0235049	2.972266e-08	2.7347e-07	0.01116457	0.01030244
	0.01155561	0.009839768	2.972266e-08	2.7347e-07	-0.01296904	-0.0247365	1.511932e-08	6.989219e-08
	1.617056e-08	3.715906e-08	0.01116457	0.01030244	1.511932e-08	6.989219e-08	-0.01415847	-0.02344542
2.9e+08	-0.01912574	-0.02661199	1.61784e-08	6.5734e-08	0.01348297	0.008812506	1.499286e-08	3.566164e-08
	1.61784e-08	6.5734e-08	-0.02019634	-0.02505195	2.90773e-08	2.855919e-07	0.0130962	0.009414192
	0.01348297	0.008812506	2.90773e-08	2.855919e-07	-0.01916517	-0.02665972	1.340418e-08	7.1406e-08
	1.499286e-08	3.566164e-08	0.0130962	0.009414192	1.340418e-08	7.1406e-08	-0.02036049	-0.02496828
3e+08	-0.02564656	-0.02676763	1.372942e-08	6.671171e-08	0.01500951	0.007282888	1.301518e-08	3.462488e-08
	1.372942e-08	6.671171e-08	-0.02663554	-0.02484854	2.919965e-08	2.982941e-07	0.01466227	0.008022106
	0.01500951	0.007282888	2.919965e-08	2.982941e-07	-0.0257312	-0.0268221	1.136757e-08	7.354584e-08
	1.301518e-08	3.462488e-08	0.01466227	0.008022106	1.136757e-08	7.354584e-08	-0.02683109	-0.02473009
3.1e+08	-0.03203255	-0.02514395	1.084227e-08	6.853802e-08	0.01600889	0.005387033	1.038535e-08	3.426698e-08
	1.084227e-08	6.853802e-08	-0.03285072	-0.02289052	3.025214e-08	3.113657e-07	0.01573558	0.006252129
	0.01600889	0.005387033	3.025214e-08	3.113657e-07	-0.03216416	-0.02519236	9.178871e-09	7.641752e-08
	1.038535e-08	3.426698e-08	0.01573558	0.006252129	9.178871e-09	7.641752e-08	-0.03306852	-0.02272885
3.2e+08	-0.03779754	-0.02184931	7.762945e-09	7.135757e-08	0.01639922	0.003290941	7.307278e-09	3.475886e-08
	7.762945e-09	7.135757e-08	-0.03836407	-0.01931164	3.233904e-08	3.245519e-07	0.01623044	0.004260499
	0.01639922	0.003290941	3.233904e-08	3.245519e-07	-0.03797433	-0.0218787	7.046561e-09	8.008564e-08
	7.307278e-09	3.475886e-08	0.01623044	0.004260499	7.046561e-09	8.008564e-08	-0.03859286	-0.01910118
3.3e+08	-0.04250593	-0.01712068	4.790699e-09	7.52438e-08	0.01614939	0.001176424	4.026266e-09	3.62115e-08
	4.790699e-09	7.52438e-08	-0.04275562	-0.01437136	3.549454e-08	3.375692e-07	0.01610912	0.002220538
	0.01614939	0.001176424	3.549454e-08	3.375692e-07	-0.04272267	-0.0171189	5.21004e-09	8.455596e-08
	4.026266e-09	3.62115e-08	0.01610912	0.002220538	5.21004e-09	8.455596e-08	-0.04298289	-0.01410996
3.4e+08	-0.04580538	-0.01130421	2.256428e-09	8.017625e-08	0.01528107	-0.0007739565	8.12478e-10	3.866733e-08
	2.256428e-09	8.017625e-08	-0.04569484	-0.008433397	3.96736e-08	3.501227e-07	0.01538434	0.0003083877
	0.01528107	-0.0007739565	3.96736e-08	3.501227e-07	-0.04605365	-0.01126083	3.922101e-09	8.975873e-08
	8.12478e-10	3.866733e-08	0.01538434	0.0003083877	3.922101e-09	8.975873e-08	-0.04590791	-0.008122533
3.5e+08	-0.04745272	-0.004827909	4.902181e-10	8.602532e-08	0.01386642	-0.002391681	-2.056751e-09	4.209538e-08
	4.902181e-10	8.602532e-08	-0.0469651	-0.00193673	4.474693e-08	3.619284e-07	0.01411758	-0.001311138
	0.01386642	-0.002391681	4.474693e-08	3.619284e-07	-0.04772152	-0.00473505	3.422143e-09	9.553822e-08
	-2.056751e-09	4.209538e-08	0.01411758	-0.001311138	3.422143e-09	9.553822e-08	-0.04715209	-0.001581441
3.6e+08	-0.04733149	0.00183132	-2.184789e-10	9.255023e-08	0.01202186	-0.003535665	-4.315433e-09	4.639011e-08
	-2.184789e-10	9.255023e-08	-0.04647906	0.004638627	5.050209e-08	3.727379e-07	0.01241375	-0.002497506
	0.01202186	-0.003535665	5.050209e-08	3.727379e-07	-0.04760792	0.00197838	3.903189e-09	1.016538e-07
	-4.315433e-09	4.639011e-08	0.01241375	-0.002497506	3.903189e-09	1.016538e-07	-0.04662993	0.005030094
3.7e+08	-0.04545984	0.008183974	3.381402e-10	9.941333e-08	0.009898562	-0.004103305	-5.728075e-09	5.137418e-08
	3.381402e-10	9.941333e-08	-0.04428441	0.01080846	5.665239e-08	3.82364e-07	0.01041257	-0.003145332
	0.009898562	-0.004103305	5.665239e-08	3.82364e-07	-0.04573006	0.008386355	5.478395e-09	1.077952e-07
	-5.728075e-09	5.137418e-08	0.01041257	-0.003145332	5.478395e-09	1.077952e-07	-0.0443918	0.01122528
3.8e+08	-0.04198857	0.01376482	2.251556e-09	1.06211e-07	0.007670377	-0.004038461	-6.108969e-09	5.680575e-08
	2.251556e-09	1.06211e-07	-0.04055938	0.01612117	6.285468e-08	3.907045e-07	0.008277445	-0.003192466
	0.007670377	-0.004038461	6.285468e-08	3.907045e-07	-0.04223875	0.01401986	8.154019e-09	1.136125e-07
	-6.108969e-09	5.680575e-08	0.008277445	-0.003192466	8.154019e-09	1.136125e-07	-0.04061922	0.01655078
3.9e+08	-0.03718929	0.0181678	5.4757e-09	1.125176e-07	0.005520111	-0.003335886	-5.340615e-09	6.239124e-08
	5.4757e-09	1.125176e-07	-0.03559861	0.02019192	6.873569e-08	3.977607e-07	0.00618271	-0.002624791
	0.005520111	-0.003335886	6.873569e-08	3.977607e-07	-0.03740664	0.01846916	1.181539e-08	1.187569e-07
	-5.340615e-09	6.239124e-08	0.00618271	-0.002624791	1.181539e-08	1.187569e-07	-0.03561055	0.02062101
4e+08	-0.03143375	0.02107646	9.824084e-09	1.179358e-07	0.003625147	-0.002041804	-3.389537e-09	6.780388e-08
	9.824084e-09	1.179358e-07	-0.02979042	0.02273161	7.392497e-08	4.036469e-07	0.004299965	-0.001477436
	0.003625147	-0.002041804	7.392497e-08	4.036469e-07	-0.03160751	0.02141449	1.623027e-08	1.229259e-07
	-3.389537e-09	6.780388e-08	0.004299965	-0.001477436	1.623027e-08	1.229259e-07	-0.02975787	0.02314722
4.1e+08	-0.02516578	0.02228774	1.498672e-08	1.221448e-07	0.002143356	-0.0002506001	-3.172229e-10	7.270801e-08
	1.498672e-08	1.221448e-07	-0.02358706	0.02356875	7.809089e-08	4.085882e-07	0.002784572	0.0001677158
	0.002143356	-0.0002506001	7.809089e-08	4.085882e-07	-0.02528806	0.02265005	2.107047e-08	1.259051e-07
	-3.17223e-10	7.270801e-08	0.002784572	0.0001677158	2.107047e-08	1.259051e-07	-0.02351702	0.02395927
4.2e+08	-0.01886773	0.02172727	2.056425e-08	1.249393e-07	0.001200321	0.001902234	3.716261e-09	7.678773e-08
	2.056425e-08	1.249393e-07	-0.01747021	0.02266234	8.097521e-08	4.129063e-07	0.001763207	0.002188118
	0.001200322	0.001902234	8.097521e-08	4.129063e-07	-0.01893419	0.02209965	2.594878e-08	1.275984e-07
	3.716261e-09	7.678773e-08	0.001763207	0.002188118	2.594878e-08	1.275984e-07	-0.01737274	0.02301854
4.3e+08	-0.01302399	0.01945516	2.611338e-08	1.262506e-07	0.0008788567	0.0042505	8.458057e-09	7.977751e-08
	2.611338e-08	1.262506e-07	-0.01191407	0.02010499	8.242163e-08	4.169937e-07	0.0013234	0.004429932
	0.0008788567	0.0042505	8.242163e-08	4.169937e-07	-0.01303427	0.01982252	3.046491e-08	1.280419e-07
	8.458057e-09	7.977751e-08	0.0013234	0.004429932	3.046491e-08	1.280419e-07	-0.01180157	0.02042076
4.4e+08	-0.008084174	0.01566149	3.119552e-08	1.26151e-07	0.001211686	0.006610359	1.357873e-08	8.149117e-08
	3.119552e-08	1.26151e-07	-0.007349094	0.01611577	8.239448e-08	4.212797e-07	0.001505981	0.006720092
	0.001211686	0.006610359	8.239448e-08	4.212797e-07	-0.008042069	0.01600901	3.425211e-08	1.273978e-07
	1.357873e-08	8.149117e-08	0.001505981	0.006720092	3.425211e-08	1.273978e-07	-0.007235289	0.01638872
4.5e+08	-0.004428902	0.01065196	3.542071e-08	1.248385e-07	0.002178028	0.008795156	1.869837e-08	8.184521e-08
	3.542071e-08	1.248385e-07	-0.004128831	0.01102335	8.098526e-08	4.261921e-07	0.002301137	0.008880212
	0.002178028	0.008795156	8.098526e-08	4.261921e-07	-0.004342174	0.01096621	3.70167e-08	1.259327e-07
	1.869837e-08	8.184521e-08	0.002301137	0.008880212	3.70167e-08	1.259327e-07	-0.00402774	0.01125507
4.6e+08	-0.002340662	0.004824634	3.848063e-08	1.226107e-07	0.003704537	0.01063085	2.342038e-08	8.087287e-08
	3.848063e-08	1.226107e-07	-0.00250279	0.005240583	7.840658e-08	4.32119e-07	0.003648589	0.01074126
	0.003704537	0.01063085	7.840658e-08	4.32119e-07	-0.002220598	0.005094661	3.856424e-08	1.239835e-07
	2.342038e-08	8.087287e-08	0.003648589	0.01074126	3.856424e-08	1.239835e-07	-0.002427491	0.005436612
4.7e+08	-0.00198227	-0.001360525	4.016791e-08	1.19831e-07	0.005670708	0.0119707	2.736901e-08	7.872574e-08
	4.016791e-08	1.19831e-07	-0.002597292	-0.0007673943	7.497487e-08	4.393756e-07	0.005442046	0.01215774
	0.005670708	0.0119707	7.497487e-08	4.393756e-07	-0.00184292	-0.001142281	3.881031e-08	1.219202e-07
	2.736901e-08	7.872574e-08	0.005442046	0.01215774	3.881031e-08	1.219202e-07	-0.002558963	-0.0005979734
4.8e+08	-0.00338461	-0.007416835	4.038243e-08	1.168961e-07	0.007918444	0.01270801	3.022582e-08	7.56629e-08
	4.038243e-08	1.168961e-07	-0.004405968	-0.006519231	7.108465e-08	4.481781e-07	0.007537683	0.01302015
	0.007918444	0.01270801	7.108465e-08	4.481781e-07	-0.003241695	-0.007253867	3.777699e-08	1.201105e-07
