!$
! Info: Touchstone file created by Circ.  Input file=Tx_12in_Rx_93ohms_TxVia_60mils_RxVia_70mils.circ
!$
# Hz S RI R 50
0	0.01103835	1.552417e-25	-6.439385e-05	-2.289017e-26	8.43094e-05	2.125754e-23	-6.439149e-05	-7.866952e-26
	-6.439384e-05	-2.353758e-26	0.01103387	1.908788e-25	-6.439299e-05	-2.02479e-26	8.402139e-05	2.690015e-23
	8.539275e-05	2.139956e-23	-6.439298e-05	-2.043255e-26	0.01105372	1.552697e-25	-6.439275e-05	1.014217e-25
	-6.439148e-05	-7.999419e-26	8.42909e-05	2.701551e-23	-6.439275e-05	1.009299e-25	0.01104823	1.900488e-25
1e+07	0.01516188	-0.001244207	-3.61615e-06	-2.36615e-05	0.0004331689	0.002094946	-3.675763e-06	-2.427786e-05
	-3.61615e-06	-2.36615e-05	0.0160415	-0.001417456	-7.781481e-06	-4.137299e-06	0.0004503097	0.002271495
	0.0004332003	0.00209495	-7.781482e-06	-4.1373e-06	0.01632872	-0.0007309281	-2.577995e-05	-4.878069e-06
	-3.675763e-06	-2.427786e-05	0.0004503125	0.002271493	-2.577995e-05	-4.878068e-06	0.01572628	-0.001414257
2e+07	0.01778616	-0.006405505	-9.779261e-06	-1.505127e-05	0.00129147	0.004111386	-1.054857e-05	-1.598159e-05
	-9.779261e-06	-1.505127e-05	0.01827237	-0.006981624	-3.167833e-05	-2.208943e-05	0.001205753	0.004445317
	0.001291484	0.004111367	-3.167833e-05	-2.208943e-05	0.01931749	-0.006063268	-2.664651e-05	6.835417e-06
	-1.054857e-05	-1.598159e-05	0.00120575	0.004445317	-2.664651e-05	6.835417e-06	0.01803992	-0.006870858
3e+07	0.01781046	-0.01310682	-1.466924e-05	-1.113376e-05	0.002588835	0.005839	-1.599272e-05	-1.19563e-05
	-1.466924e-05	-1.113376e-05	0.01795751	-0.01376255	-4.926612e-05	-1.945197e-05	0.002503365	0.006241807
	0.002588836	0.005838997	-4.926612e-05	-1.945197e-05	0.01957912	-0.01301855	-2.807686e-05	9.141499e-06
	-1.599272e-05	-1.19563e-05	0.002503364	0.006241808	-2.807686e-05	9.141499e-06	0.01778444	-0.01363065
4e+07	0.0157247	-0.01985188	-1.832423e-05	-6.974936e-06	0.004242665	0.007182331	-2.009087e-05	-7.524339e-06
	-1.832423e-05	-6.974936e-06	0.01556809	-0.02046519	-6.250737e-05	-1.027245e-05	0.00421526	0.00760571
	0.004242669	0.007182336	-6.250737e-05	-1.027245e-05	0.01762542	-0.02007474	-2.842038e-05	1.285005e-05
	-2.009087e-05	-7.52434e-06	0.004215261	0.007605711	-2.842038e-05	1.285005e-05	0.0154385	-0.02033581
5e+07	0.01184882	-0.02599462	-2.079774e-05	-2.345917e-06	0.00614424	0.008066529	-2.290875e-05	-2.502199e-06
	-2.079774e-05	-2.345917e-06	0.01142987	-0.02647845	-7.171162e-05	2.784102e-06	0.006161864	0.008494698
	0.006144243	0.008066531	-7.171162e-05	2.784102e-06	0.01378406	-0.02655586	-2.775485e-05	1.712219e-05
	-2.290875e-05	-2.502199e-06	0.006161865	0.008494698	-2.775485e-05	1.712219e-05	0.01132915	-0.02636273
6e+07	0.006518092	-0.03108886	-2.208656e-05	2.658728e-06	0.008169756	0.008447442	-2.443723e-05	2.995774e-06
	-2.208656e-05	2.658728e-06	0.005887886	-0.03137609	-7.686877e-05	1.839401e-05	0.008220545	0.008871876
	0.008169752	0.008447441	-7.686877e-05	1.839401e-05	0.008396223	-0.03199155	-2.610677e-05	2.158235e-05
	-2.443723e-05	2.995773e-06	0.008220546	0.008871876	-2.610677e-05	2.158235e-05	0.00580287	-0.03127866
7e+07	0.0001057273	-0.03481801	-2.21653e-05	7.879552e-06	0.0101894	0.008313916	-2.463326e-05	8.797178e-06
	-2.21653e-05	7.879552e-06	-0.0006752124	-0.03485869	-7.782305e-05	3.560986e-05	0.01026275	0.008730414
	0.01018938	0.008313916	-7.782305e-05	3.560986e-05	0.001841932	-0.03604508	-2.349355e-05	2.597988e-05
	-2.463326e-05	8.797178e-06	0.01026276	0.008730414	-2.349355e-05	2.597988e-05	-0.0007562759	-0.03477999
8e+07	-0.006983788	-0.03697892	-2.098726e-05	1.314349e-05	0.01207614	0.007687917	-2.342308e-05	1.471635e-05
	-2.098726e-05	1.314348e-05	-0.007847118	-0.03673976	-7.431447e-05	5.363755e-05	0.01216244	0.008094692
	0.01207613	0.00768792	-7.431447e-05	5.363755e-05	-0.005466653	-0.03849669	-2.019974e-05	2.992319e-05
	-2.342308e-05	1.471635e-05	0.01216244	0.008094692	-2.019974e-05	2.992319e-05	-0.007934445	-0.03667709
9e+07	-0.01433042	-0.03747654	-1.84447e-05	1.828116e-05	0.01371484	0.006622803	-2.065378e-05	2.058511e-05
	-1.84447e-05	1.828115e-05	-0.01520092	-0.03694064	-6.584855e-05	7.179335e-05	0.01380392	0.007018783
	0.01371483	0.006622808	-6.584855e-05	7.179335e-05	-0.01310332	-0.0392389	-1.820333e-05	3.227663e-05
	-2.065378e-05	2.058511e-05	0.01380392	0.007018783	-1.820333e-05	3.227663e-05	-0.0153032	-0.03688905
1e+08	-0.02151217	-0.0363177	-1.39131e-05	2.323658e-05	0.01501858	0.005203084	-1.557472e-05	2.634907e-05
	-1.39131e-05	2.323658e-05	-0.02229592	-0.03547956	-5.003598e-05	8.982895e-05	0.01508864	0.005582277
	0.01501858	0.005203084	-5.003598e-05	8.982895e-05	-0.02066596	-0.03827812	-1.671384e-05	3.410934e-05
	-1.557472e-05	2.634907e-05	0.01508864	0.005582277	-1.671384e-05	3.410934e-05	-0.02242313	-0.03543368
1.1e+08	-0.02814587	-0.03364949	-7.988208e-06	2.482643e-05	0.01587295	0.003563635	-8.767366e-06	2.827657e-05
	-7.988208e-06	2.482643e-05	-0.02876593	-0.03260901	-2.863595e-05	9.606709e-05	0.01593989	0.003890129
	0.01587295	0.003563635	-2.863595e-05	9.606709e-05	-0.02773173	-0.0355923	-1.464912e-05	3.435713e-05
	-8.767366e-06	2.827657e-05	0.01593988	0.003890129	-1.464912e-05	3.435713e-05	-0.02892232	-0.03254489
1.2e+08	-0.03392272	-0.02962846	-3.013147e-06	2.528665e-05	0.01623532	0.001765424	-4.455791e-06	2.858243e-05
	-3.013147e-06	2.528665e-05	-0.03437789	-0.02842837	-1.620916e-05	9.709137e-05	0.01631525	0.002057873
	0.01623532	0.001765423	-1.620916e-05	9.709137e-05	-0.03384849	-0.03146936	-1.183664e-05	3.489532e-05
	-4.455791e-06	2.858243e-05	0.01631525	0.002057874	-1.183664e-05	3.489532e-05	-0.03455123	-0.02833706
1.3e+08	-0.0385494	-0.02450885	-1.156286e-06	2.491732e-05	0.0161013	-5.932392e-05	-2.698784e-06	2.825462e-05
	-1.156286e-06	2.491732e-05	-0.03882395	-0.02318669	-9.162003e-06	9.649224e-05	0.01619793	0.0002065383
	0.0161013	-5.932422e-05	-9.162003e-06	9.649224e-05	-0.03875352	-0.02619774	-8.702262e-06	3.538336e-05
	-2.698784e-06	2.825462e-05	0.01619792	0.0002065393	-8.702262e-06	3.538336e-05	-0.03900489	-0.02306388
1.4e+08	-0.04181354	-0.01860409	5.728583e-07	2.449801e-05	0.0154865	-0.001785411	-7.523041e-07	2.792436e-05
	5.728583e-07	2.449801e-05	-0.04189469	-0.01720099	-1.524328e-06	9.560544e-05	0.01560143	-0.001542832
	0.0154865	-0.001785411	-1.524328e-06	9.560544e-05	-0.04223895	-0.02010734	-5.407342e-06	3.564616e-05
	-7.523041e-07	2.792436e-05	0.01560142	-0.001542831	-5.407342e-06	3.564616e-05	-0.04207428	-0.01704519
1.5e+08	-0.04358643	-0.01226413	2.385674e-06	2.400752e-05	0.01443456	-0.003296821	1.309759e-06	2.751502e-05
	2.385674e-06	2.400752e-05	-0.04346857	-0.01082482	6.449021e-06	9.420974e-05	0.014568	-0.003076918
	0.01443456	-0.003296821	6.449021e-06	9.420974e-05	-0.04417851	-0.01356105	-2.002019e-06	3.563683e-05
	1.309759e-06	2.751502e-05	0.014568	-0.003076917	-2.002019e-06	3.563683e-05	-0.0436383	-0.01063702
1.6e+08	-0.04382689	-0.005854627	4.241306e-06	2.340911e-05	0.01301496	-0.004492685	3.438832e-06	2.698138e-05
	4.241306e-06	2.340911e-05	-0.04351389	-0.004425864	1.457284e-05	9.217401e-05	0.0131657	-0.004296684
	0.01301496	-0.004492685	1.457284e-05	9.217401e-05	-0.0445337	-0.006935702	1.442149e-06	3.531441e-05
	3.438832e-06	2.698138e-05	0.0131657	-0.004296683	1.442149e-06	3.531441e-05	-0.04366612	-0.004209267
1.7e+08	-0.04258093	0.0002636878	6.10677e-06	2.267896e-05	0.01131888	-0.005292764	5.595703e-06	2.629364e-05
	6.10677e-06	2.267896e-05	-0.04208746	0.001635552	2.268936e-05	8.942107e-05	0.011484	-0.005122954
	0.01131888	-0.005292764	2.268936e-05	8.942107e-05	-0.04335406	-0.0006017358	4.875764e-06	3.46613e-05
	5.595703e-06	2.629364e-05	0.011484	-0.005122953	4.875764e-06	3.46613e-05	-0.04221586	0.00187584
1.8e+08	-0.03997709	0.00575484	7.952857e-06	2.180206e-05	0.009453675	-0.005641816	7.745227e-06	2.543289e-05
	7.952857e-06	2.180206e-05	-0.03932895	0.007026645	3.065595e-05	8.591307e-05	0.009628439	-0.005500783
	0.009453675	-0.005641816	3.065595e-05	8.591307e-05	-0.04077253	0.005096448	8.25107e-06	3.366973e-05
	7.745227e-06	2.543289e-05	0.009628439	-0.005500783	8.25107e-06	3.366973e-05	-0.03942884	0.007284014
1.9e+08	-0.0362175	0.01032558	9.752388e-06	2.077027e-05	0.007536478	-0.005512538	9.854544e-06	2.438873e-05
	9.752388e-06	2.077027e-05	-0.03545112	0.01146031	3.834108e-05	8.164357e-05	0.007714308	-0.005402462
	0.007536478	-0.005512538	3.834108e-05	8.164357e-05	-0.03699657	0.009858504	1.152163e-05	3.234062e-05
	9.854544e-06	2.438873e-05	0.007714308	-0.005402462	1.152163e-05	3.234062e-05	-0.03551978	0.01172712
2e+08	-0.03156474	0.01374234	1.147633e-05	1.957849e-05	0.005673899	-0.004926224	1.189152e-05	2.315674e-05
	1.147633e-05	1.957849e-05	-0.03072637	0.01471035	4.562318e-05	7.663148e-05	0.00585997	-0.004829001
	0.005673899	-0.004926224	4.562318e-05	7.663148e-05	-0.03229478	0.0134451	1.46419e-05	3.068201e-05
	1.189152e-05	2.315674e-05	0.00585997	-0.004829001	1.46419e-05	3.068201e-05	-0.0307632	0.01497847
2.1e+08	-0.02632739	0.01583824	1.310342e-05	1.823262e-05	0.003995189	-0.003888407	1.382808e-05	2.174112e-05
	1.310342e-05	1.823262e-05	-0.02547039	0.0166232	5.239376e-05	7.091894e-05	0.004179913	-0.003810048
	0.003995189	-0.003888407	5.239376e-05	7.091894e-05	-0.02698232	0.01568503	1.757061e-05	2.871104e-05
	1.382808e-05	2.174112e-05	0.004179914	-0.003810048	1.757061e-05	2.871104e-05	-0.02547699	0.01688454
2.2e+08	-0.02084188	0.0165263	1.461138e-05	1.673964e-05	0.002607349	-0.002457963	1.563759e-05	2.015006e-05
	1.461138e-05	1.673964e-05	-0.0200236	0.01712543	5.855674e-05	6.45653e-05	0.002778012	-0.002402186
	0.002607349	-0.002457963	5.855674e-05	6.45653e-05	-0.02140251	0.01648835	2.026919e-05	2.645034e-05
	1.563759e-05	2.015006e-05	0.002778012	-0.002402186	2.026919e-05	2.645034e-05	-0.02000363	0.01737252
2.3e+08	-0.0154531	0.01580178	1.597968e-05	1.511013e-05	0.001598597	-0.0007193937	1.729609e-05	1.839607e-05
	1.597968e-05	1.511013e-05	-0.01473149	0.0162268	6.403019e-05	5.764406e-05	0.001741308	-0.0006856852
	0.001598597	-0.0007193937	6.403019e-05	5.764406e-05	-0.01590724	0.01584882	2.270321e-05	2.392806e-05
	1.729609e-05	1.839607e-05	0.001741308	-0.0006856852	2.270321e-05	2.392806e-05	-0.01469053	0.01645328
2.4e+08	-0.01049501	0.01374137	1.719005e-05	1.335804e-05	0.001033736	0.001223575	1.878268e-05	1.649549e-05
	1.719005e-05	1.335804e-05	-0.009924921	0.01401864	6.87472e-05	5.023987e-05	0.001134678	0.001240179
	0.001033736	0.001223575	6.87472e-05	5.023987e-05	-0.01083734	0.01384299	2.484315e-05	2.117705e-05
	1.878268e-05	1.649549e-05	0.001134678	0.001240179	2.484315e-05	2.117705e-05	-0.009870071	0.01421973
2.5e+08	-0.006271859	0.01049791	1.822678e-05	1.15e-05	0.0009500359	0.003254229	2.007983e-05	1.446746e-05
	1.822678e-05	1.15e-05	-0.005901307	0.01066763	7.265631e-05	4.244471e-05	0.0009967343	0.003263025
	0.0009500358	0.003254229	7.265631e-05	4.244471e-05	-0.00650356	0.01062487	2.666481e-05	1.823367e-05
	2.007983e-05	1.446746e-05	0.0009967343	0.003263025	2.666481e-05	1.823367e-05	-0.005840776	0.01084048
2.6e+08	-0.003041231	0.006290948	1.907664e-05	9.554874e-06	0.001354719	0.00525	2.117359e-05	1.233325e-05
	1.907664e-05	9.554874e-06	-0.002907868	0.00640537	7.571833e-05	3.435427e-05	0.00133725	0.005264171
	0.001354719	0.00525	7.571833e-05	3.435427e-05	-0.003169386	0.006416404	2.814966e-05	1.513686e-05
	2.117359e-05	1.233325e-05	0.00133725	0.005264171	2.814966e-05	1.513686e-05	-0.002850493	0.006549293
2.7e+08	-0.0009998549	0.001393559	1.972998e-05	7.543211e-06	0.002224284	0.007090097	2.205347e-05	1.011543e-05
	1.972998e-05	7.543211e-06	-0.001128023	0.001514278	7.791425e-05	2.606762e-05	0.002136336	0.00712596
	0.002224284	0.007090097	7.791425e-05	2.606762e-05	-0.001036651	0.001494079	2.928476e-05	1.192702e-05
	2.205347e-05	1.011543e-05	0.002136336	0.00712596	2.928476e-05	1.192702e-05	-0.001082615	0.001630875
2.8e+08	-0.0002729405	-0.003883825	2.018002e-05	5.486636e-06	0.003505765	0.008663152	2.271251e-05	7.837293e-06
	2.018002e-05	5.486636e-06	-0.00067133	-0.00368929	7.923671e-05	1.768212e-05	0.00334549	0.008739132
	0.003505765	0.008663152	7.923671e-05	1.768212e-05	-0.0002346883	-0.0038274	3.006282e-05	8.645164e-06
	2.271251e-05	7.837293e-06	0.00334549	0.008739132	3.006282e-05	8.645164e-06	-0.0006461217	-0.0035962
2.9e+08	-0.000907703	-0.009211581	2.042294e-05	3.407318e-06	0.005119923	0.009874372	2.314694e-05	5.522143e-06
	2.042294e-05	3.407318e-06	-0.001567934	-0.008873793	7.969002e-05	9.292182e-06	0.004890501	0.01000977
	0.005119923	0.009874372	7.969002e-05	9.292182e-06	-0.0008137299	-0.009213519	3.048187e-05	5.331996e-06
	2.314694e-05	5.522143e-06	0.004890501	0.01000977	3.048187e-05	5.331996e-06	-0.00157004	-0.008798365
3e+08	-0.00287142	-0.01426002	2.045788e-05	1.327482e-06	0.006966193	0.01065169	2.335587e-05	3.192858e-06
	2.045788e-05	1.327482e-06	-0.003767676	-0.01371196	7.928906e-05	9.879994e-07	0.00667606	0.0108653
	0.006966193	0.01065169	7.928906e-05	9.879994e-07	-0.002742877	-0.01432933	3.054486e-05	2.027198e-06
	2.335587e-05	3.192858e-06	0.00667606	0.0108653	3.054486e-05	2.027198e-06	-0.0038026	-0.01364667
3.1e+08	-0.006054119	-0.01871832	2.028687e-05	-7.310092e-07	0.008929066	0.01095044	2.3341e-05	8.715508e-07
	2.028687e-05	-7.310092e-07	-0.007143889	-0.01789982	7.805798e-05	-7.145229e-06	0.008591782	0.01125915
	0.008929066	0.01095044	7.805798e-05	-7.145229e-06	-0.005912763	-0.01885866	3.025926e-05	-1.23114e-06
	2.3341e-05	8.715508e-07	0.008591782	0.01125915	3.025926e-05	-1.23114e-06	-0.007215135	-0.01783586
3.2e+08	-0.01027568	-0.02231222	1.991443e-05	-2.74706e-06	0.0108855	0.01075632	2.310615e-05	-1.420683e-06
	1.991443e-05	-2.74706e-06	-0.01150162	-0.02117405	7.602836e-05	-1.502785e-05	0.01051923	0.01117371
	0.0108855	0.01075632	7.602836e-05	-1.502785e-05	-0.01014268	-0.02252204	2.963646e-05	-4.406976e-06
	2.310615e-05	-1.420683e-06	0.01051923	0.01117371	2.963646e-05	-4.406976e-06	-0.01161041	-0.02110195
3.3e+08	-0.01529686	-0.0248193	1.934741e-05	-4.700637e-06	0.01271281	0.01008621	2.265692e-05	-3.663851e-06
	1.934741e-05	-4.700637e-06	-0.0165897	-0.0233269	7.323806e-05	-2.258578e-05	0.01233947	0.01062133
	0.01271281	0.01008621	7.323806e-05	-2.258578e-05	-0.01519172	-0.02509228	2.869128e-05	-7.466591e-06
	2.265692e-05	-3.663851e-06	0.01233947	0.01062133	2.869128e-05	-7.466591e-06	-0.01673487	-0.02323702
3.4e+08	-0.0208336	-0.02608123	1.859469e-05	-6.572994e-06	0.01429653	0.00898707	2.200042e-05	-5.839088e-06
	1.859469e-05	-6.572994e-06	-0.02211592	-0.0242175	6.973042e-05	-2.975037e-05	0.01394056	0.009643477
	0.01429653	0.00898707	6.973042e-05	-2.975037e-05	-0.02077316	-0.02640687	2.744154e-05	-1.03788e-05
	2.200042e-05	-5.839088e-06	0.01394056	0.009643477	2.744154e-05	-1.03788e-05	-0.02229391	-0.0241007
3.5e+08	-0.02657363	-0.02601208	1.766683e-05	-8.346801e-06	0.01553762	0.007532805	2.114497e-05	-7.928567e-06
	1.766683e-05	-8.346801e-06	-0.02776435	-0.02377926	6.55534e-05	-3.645809e-05	0.01522457	0.00830785
	0.01553762	0.007532805	6.55534e-05	-3.645809e-05	-0.02657134	-0.02637652	2.590757e-05	-1.311499e-05
	2.114497e-05	-7.928567e-06	0.01522457	0.00830785	2.590757e-05	-1.311499e-05	-0.0279694	-0.02362748
3.6e+08	-0.03219446	-0.02460249	1.657586e-05	-1.000624e-05	0.01635867	0.005819434	2.010002e-05	-9.91542e-06
	1.657586e-05	-1.000624e-05	-0.03321369	-0.02202293	6.075936e-05	-4.265036e-05	0.01611355	0.006704012
	0.01635867	0.005819434	6.075936e-05	-4.265036e-05	-0.03225977	-0.02498945	2.411191e-05	-1.564919e-05
	2.010002e-05	-9.91542e-06	0.01611355	0.006704012	2.411191e-05	-1.564919e-05	-0.03343815	-0.02182969
3.7e+08	-0.03738169	-0.02191952	1.533498e-05	-1.153698e-05	0.01670856	0.00395894	1.887601e-05	-1.178361e-05
	1.533498e-05	-1.153698e-05	-0.03815574	-0.01903507	5.540485e-05	-4.827343e-05	0.01655416	0.004937632
	0.01670856	0.00395894	5.540485e-05	-4.827343e-05	-0.03751974	-0.02231129	2.207898e-05	-1.795803e-05
	1.887601e-05	-1.178361e-05	0.01655416	0.004937632	2.207898e-05	-1.795803e-05	-0.03839053	-0.01879593
3.8e+08	-0.04184661	-0.01810213	1.39584e-05	-1.292621e-05	0.01656543	0.002072212	1.748442e-05	-1.351782e-05
	1.39584e-05	-1.292621e-05	-0.04231275	-0.01497247	4.955058e-05	-5.327843e-05	0.01652073	0.003123872
	0.01656543	0.002072212	4.955058e-05	-5.327843e-05	-0.04205808	-0.01848062	1.98349e-05	-2.002072e-05
	1.748442e-05	-1.351782e-05	0.01652073	0.003123872	1.98349e-05	-2.002072e-05	-0.04254788	-0.01468531
3.9e+08	-0.04534209	-0.01335288	1.24612e-05	-1.416257e-05	0.0159378	0.0002815573	1.593782e-05	-1.510348e-05
	1.24612e-05	-1.416257e-05	-0.0454529	-0.01005257	4.326148e-05	-5.76217e-05	0.0160165	0.001380326
	0.0159378	0.0002815573	4.326148e-05	-5.76217e-05	-0.04562339	-0.01370063	1.740736e-05	-2.18191e-05
	1.593782e-05	-1.510348e-05	0.0160165	0.001380326	1.740736e-05	-2.18191e-05	-0.04567807	-0.009717793
4e+08	-0.04767614	-0.007926196	1.08592e-05	-1.523612e-05	0.01486384	-0.001296727	1.425001e-05	-1.652668e-05
	1.08592e-05	-1.523612e-05	-0.04740293	-0.00454069	3.660656e-05	-6.126515e-05	0.01507317	-0.0001800515
	0.01486384	-0.001296727	3.660656e-05	-6.126515e-05	-0.04801967	-0.008227299	1.482543e-05	-2.333768e-05
	1.425001e-05	-1.652668e-05	0.01507317	-0.0001800515	1.482543e-05	-2.333768e-05	-0.04760817	-0.004161214
4.1e+08	-0.04872213	-0.00211388	9.168952e-06	-1.613837e-05	0.01340889	-0.002559308	1.243613e-05	-1.777441e-05
	9.168952e-06	-1.613837e-05	-0.0480575	0.00126519	2.965882e-05	-6.417699e-05	0.01374881	-0.001455605
	0.01340889	-0.002559308	2.965882e-05	-6.417699e-05	-0.04911689	-0.002354823	1.211951e-05	-2.45638e-05
	1.243613e-05	-1.777441e-05	0.01374881	-0.001455605	1.211951e-05	-2.45638e-05	-0.04823376	0.001684061
4.2e+08	-0.04842557	0.003771197	7.407609e-06	-1.686229e-05	0.01166142	-0.003421917	1.051273e-05	-1.883463e-05
	7.407609e-06	-1.686229e-05	-0.04738459	0.007051326	2.249481e-05	-6.633231e-05	0.01212425	-0.002361892
	0.01166142	-0.003421917	2.249481e-05	-6.633231e-05	-0.04885776	0.00360086	9.321118e-06	-2.548773e-05
	1.051273e-05	-1.883463e-05	0.01212425	-0.002361892	9.321118e-06	-2.548773e-05	-0.04752434	0.007502195
4.3e+08	-0.04680676	0.009412473	5.592916e-06	-1.740236e-05	0.009727712	-0.003824274	8.497868e-06	-1.969658e-05
	5.592916e-06	-1.740236e-05	-0.04542698	0.01250584	1.519415e-05	-6.771376e-05	0.01029826	-0.002836544
	0.009727712	-0.003824274	1.519415e-05	-6.771376e-05	-0.04726061	0.009319615	6.462713e-06	-2.61029e-05
	8.497868e-06	-1.969658e-05	0.01029826	-0.002836544	6.462713e-06	-2.61029e-05	-0.04552465	0.01297962
4.4e+08	-0.0439595	0.01450718	3.743118e-06	-1.775459e-05	0.007725633	-0.003733626	6.411039e-06	-2.035102e-05
	3.743118e-06	-1.775459e-05	-0.04229953	0.01733607	7.838788e-06	-6.831217e-05	0.008381757	-0.002842858
	0.007725633	-0.003733626	7.838788e-06	-6.831217e-05	-0.04441816	0.01449478	3.57739e-06	-2.640607e-05
	6.411039e-06	-2.035102e-05	0.008381757	-0.002842858	3.57739e-06	-2.640607e-05	-0.0423519	0.01782252
4.5e+08	-0.04004577	0.01878303	1.87688e-06	-1.791668e-05	0.005777698	-0.003146716	4.273123e-06	-2.079054e-05
	1.87688e-06	-1.791668e-05	-0.03818255	0.02128488	5.121907e-07	-6.812715e-05	0.006491378	-0.002371942
	0.005777698	-0.003146716	5.121907e-07	-6.812715e-05	-0.04049224	0.01885007	6.985803e-07	-2.639749e-05
	4.273123e-06	-2.079054e-05	0.006491378	-0.002371942	6.985803e-07	-2.639749e-05	-0.03818898	0.02177319
4.6e+08	-0.0352868	0.02201322	1.315822e-08	-1.788809e-05	0.004003907	-0.002090108	2.106238e-06	-2.100965e-05
	1.315822e-08	-1.788809e-05	-0.03331166	0.02414494	-6.701614e-06	-6.716757e-05	0.004742693	-0.001443329
	0.004003907	-0.002090108	-6.701614e-06	-6.716757e-05	-0.03570481	0.02215477	-2.140144e-06	-2.607999e-05
	2.106238e-06	-2.100965e-05	0.004742693	-0.001443329	-2.140144e-06	-2.607999e-05	-0.03327415	0.02462444
4.7e+08	-0.02995075	0.02402898	-1.828931e-06	-1.767006e-05	0.002514672	-0.0006188306	-6.663121e-08	-2.100578e-05
	-1.828931e-06	-1.767006e-05	-0.02796453	0.02577021	-1.371928e-05	-6.545186e-05	0.003243462	-0.0001040044
	0.002514672	-0.0006188306	-1.371928e-05	-6.545186e-05	-0.03032567	0.02423655	-4.905603e-06	-2.546139e-05
	-6.663121e-08	-2.100578e-05	0.003243462	-0.0001040044	-4.905603e-06	-2.546139e-05	-0.02788765	0.02623088
