!$
! Info: Touchstone file created by Circ.  Input file=Tx_10in_Rx_85ohms_TxVia_60mils_RxVia_70mils.circ
!$
# Hz S RI R 50
0	0.0081325	1.369891e-25	-5.417969e-05	7.403164e-24	7.474939e-05	1.589315e-23	-5.414247e-05	2.906239e-24
	-5.41797e-05	7.403126e-24	0.008128236	1.654887e-25	-5.421531e-05	1.190033e-23	7.387701e-05	1.977474e-23
	7.388134e-05	1.58221e-23	-5.421531e-05	1.190084e-23	0.008146284	1.385032e-25	-5.417739e-05	7.316688e-24
	-5.414246e-05	2.905633e-24	7.414668e-05	1.985954e-23	-5.417738e-05	7.315603e-24	0.008142685	1.647614e-25
1e+07	0.01041366	-0.009336026	-0.0001141467	-2.403187e-05	0.0003550844	0.001934494	-8.347987e-06	-2.007446e-06
	-0.0001141467	-2.403187e-05	0.01043496	-0.009339881	-3.660294e-05	8.104145e-05	0.0003517797	0.001939332
	0.0003550689	0.001934508	-3.660294e-05	8.104145e-05	0.01046315	-0.009316514	-0.0001141486	-2.40385e-05
	-8.347986e-06	-2.007446e-06	0.0003517822	0.00193933	-0.0001141487	-2.40385e-05	0.0104175	-0.009327845
2e+07	0.01008938	-0.02130744	-0.000104213	2.001315e-05	0.001004193	0.003706202	-7.361115e-06	-1.622388e-05
	-0.000104213	2.001315e-05	0.01006775	-0.02131981	-4.093207e-05	0.0001089883	0.0009915217	0.003718167
	0.0010042	0.003706211	-4.093207e-05	0.0001089883	0.01013602	-0.02128205	-0.0001042095	1.996319e-05
	-7.361115e-06	-1.622388e-05	0.0009915188	0.003718168	-0.0001042095	1.996319e-05	0.01005885	-0.02128707
3e+07	0.006246193	-0.03387963	-0.0001022332	1.761037e-05	0.001991067	0.005274022	-1.940058e-05	-1.826375e-05
	-0.0001022332	1.761037e-05	0.006163108	-0.03387757	-2.904103e-05	0.0001310716	0.001963938	0.005297314
	0.001991068	0.005274022	-2.904103e-05	0.0001310716	0.006293711	-0.03384182	-0.0001022302	1.752665e-05
	-1.940058e-05	-1.826375e-05	0.001963938	0.005297316	-0.0001022302	1.752665e-05	0.006159521	-0.03383236
4e+07	-0.0005336488	-0.04558755	-0.000101007	1.970101e-05	0.003264393	0.006575799	-2.921547e-05	-1.564172e-05
	-0.000101007	1.970101e-05	-0.0006926686	-0.04554872	-7.211365e-06	0.0001421537	0.00321924	0.006616236
	0.003264392	0.0065758	-7.211365e-06	0.0001421537	-0.0004828335	-0.04553717	-0.0001010102	1.95736e-05
	-2.921547e-05	-1.564172e-05	0.003219241	0.006616237	-0.0001010102	1.95736e-05	-0.0006931655	-0.04549314
5e+07	-0.009785911	-0.05572373	-9.999945e-05	2.401691e-05	0.004756822	0.00755924	-3.709544e-05	-1.023116e-05
	-9.999945e-05	2.401691e-05	-0.01002901	-0.05562197	1.934746e-05	0.0001403539	0.004692025	0.007623714
	0.004756821	0.007559241	1.934746e-05	0.0001403539	-0.009730179	-0.05566187	-0.000100021	2.383682e-05
	-3.709544e-05	-1.023116e-05	0.004692026	0.007623714	-0.000100021	2.383682e-05	-0.01002854	-0.05555631
6e+07	-0.02101594	-0.06378431	-9.877067e-05	2.979494e-05	0.00639113	0.008188704	-4.306118e-05	-2.810253e-06
	-9.877067e-05	2.979494e-05	-0.02134344	-0.06359169	4.545018e-05	0.0001250184	0.006307221	0.00828459
	0.006391128	0.008188703	4.545018e-05	0.0001250184	-0.02095441	-0.06371244	-9.882814e-05	2.955679e-05
	-4.306118e-05	-2.810253e-06	0.006307223	0.00828459	-9.882814e-05	2.955679e-05	-0.0213435	-0.06351524
7e+07	-0.03368537	-0.06941205	-9.69611e-05	3.660186e-05	0.008085281	0.008447017	-4.700074e-05	6.170263e-06
	-9.69611e-05	3.660186e-05	-0.03408981	-0.0691011	6.598505e-05	9.681605e-05	0.007984999	0.008581584
	0.008085277	0.008447016	6.598505e-05	9.681605e-05	-0.03361776	-0.0693317	-9.707653e-05	3.630612e-05
	-4.700074e-05	6.170263e-06	0.007985	0.008581584	-9.707653e-05	3.630612e-05	-0.03409134	-0.06901268
8e+07	-0.04722395	-0.0723832	-9.429652e-05	4.40813e-05	0.009757073	0.008335735	-4.869259e-05	1.639284e-05
	-9.429652e-05	4.40813e-05	-0.0476906	-0.07192868	7.61126e-05	5.767026e-05	0.009645289	0.00851557
	0.009757069	0.008335735	7.61126e-05	5.767026e-05	-0.04715044	-0.07229573	-9.449413e-05	4.37361e-05
	-4.869259e-05	1.639284e-05	0.009645289	0.008515569	-9.449413e-05	4.37361e-05	-0.04769406	-0.07182681
9e+07	-0.06104921	-0.07260249	-9.059799e-05	5.189226e-05	0.01132859	0.007874366	-4.773299e-05	2.764155e-05
	-9.059799e-05	5.189226e-05	-0.06155672	-0.07198298	7.121456e-05	1.040768e-05	0.01121211	0.008104829
	0.01132859	0.007874367	7.121456e-05	1.040768e-05	-0.06097026	-0.072509	-9.090163e-05	5.151437e-05
	-4.773299e-05	2.764155e-05	0.01121211	0.008104829	-9.090162e-05	5.151437e-05	-0.06156206	-0.07186594
1e+08	-0.07459075	-0.07009937	-8.580836e-05	5.971328e-05	0.01273198	0.007099913	-4.257569e-05	4.031503e-05
	-8.580836e-05	5.971328e-05	-0.07511194	-0.06929859	4.356177e-05	-4.382141e-05	0.0126192	0.007384645
	0.01273198	0.007099913	4.356177e-05	-4.382141e-05	-0.0745068	-0.07000048	-8.62394e-05	5.932779e-05
	-4.257569e-05	4.031503e-05	0.0126192	0.007384645	-8.62394e-05	5.932779e-05	-0.07511869	-0.06916478
1.1e+08	-0.08730741	-0.06499506	-8.000404e-05	6.71144e-05	0.01391012	0.006045751	-3.234843e-05	4.69486e-05
	-8.000404e-05	6.71144e-05	-0.08780948	-0.06400523	1.128163e-05	-0.0001123271	0.01381057	0.006386215
	0.01391012	0.006045751	1.128163e-05	-0.0001123271	-0.08721876	-0.06489244	-8.057512e-05	6.675317e-05
	-3.234843e-05	4.69486e-05	0.01381057	0.006386215	-8.057512e-05	6.675317e-05	-0.08781634	-0.06385199
1.2e+08	-0.09868599	-0.05754539	-7.311095e-05	7.392984e-05	0.01480092	0.004778236	-2.357517e-05	5.091805e-05
	-7.311095e-05	7.392984e-05	-0.09913564	-0.05636577	-3.101681e-05	-0.0001683763	0.01472471	0.005173526
	0.01480092	0.004778236	-3.101681e-05	-0.0001683763	-0.09859429	-0.0574397	-7.382388e-05	7.363177e-05
	-2.357517e-05	5.091805e-05	0.01472471	0.005173526	-7.382388e-05	7.363177e-05	-0.09913961	-0.05619169
1.3e+08	-0.1083037	-0.0480882	-6.530752e-05	7.992966e-05	0.01537417	0.003366341	-1.619716e-05	5.301118e-05
	-6.530752e-05	7.992966e-05	-0.1086667	-0.04672619	-8.626053e-05	-0.0002119072	0.01533143	0.003812982
	0.01537417	0.003366341	-8.626053e-05	-0.0002119072	-0.1082103	-0.04797946	-6.615343e-05	7.973519e-05
	-1.619716e-05	5.301118e-05	0.01533143	0.003812983	-6.615343e-05	7.973519e-05	-0.1086646	-0.04653084
1.4e+08	-0.1158151	-0.03703032	-5.6776e-05	8.495539e-05	0.01561201	0.001880483	-1.28283e-05	5.323731e-05
	-5.6776e-05	8.495539e-05	-0.1160585	-0.03550179	-0.0001523709	-0.0002402351	0.01561221	0.002372426
	0.01561201	0.001880483	-0.0001523709	-0.0002402351	-0.115721	-0.03691825	-5.773414e-05	8.490222e-05
	-1.28283e-05	5.323731e-05	0.01561221	0.002372427	-5.773414e-05	8.490222e-05	-0.1160472	-0.0352856
1.5e+08	-0.1209648	-0.02483222	-4.77553e-05	8.885349e-05	0.01551061	0.0003915405	-9.161774e-06	5.338567e-05
	-4.77553e-05	8.885349e-05	-0.1210591	-0.02316116	-0.0002258766	-0.0002510365	0.01556196	0.0009203078
	0.01551061	0.0003915405	-0.0002258766	-0.0002510365	-0.1208709	-0.02471632	-4.879494e-05	8.897412e-05
	-9.161775e-06	5.338567e-05	0.01556195	0.0009203086	-4.879494e-05	8.897412e-05	-0.1210352	-0.02292547
1.6e+08	-0.123594	-0.01198966	-3.848106e-05	9.157414e-05	0.01507977	-0.001031515	-5.281518e-06	5.335017e-05
	-3.848106e-05	9.157414e-05	-0.123515	-0.01020736	-0.0003025227	-0.0002428897	0.01518859	-0.0004765267
	0.01507977	-0.001031515	-0.0003025227	-0.0002428897	-0.1235009	-0.01186925	-3.956231e-05	9.189259e-05
	-5.281518e-06	5.335017e-05	0.01518859	-0.000476526	-3.956231e-05	9.189259e-05	-0.1234757	-0.009954372
1.7e+08	-0.1236441	0.0009852992	-2.918259e-05	9.31279e-05	0.0143421	-0.002323832	-1.257777e-06	5.30602e-05
	-2.918259e-05	9.31279e-05	-0.1233748	0.002841457	-0.0003776936	-0.0002154975	0.01451232	-0.001754912
	0.0143421	-0.002323832	-0.0003776936	-0.0002154975	-0.1235523	0.001110926	-3.025914e-05	9.365704e-05
	-1.257777e-06	5.30602e-05	0.01451232	-0.001754911	-3.025914e-05	9.365704e-05	-0.1233176	0.003108755
1.8e+08	-0.1211568	0.01358309	-2.006939e-05	9.357933e-05	0.01333187	-0.003426666	2.845655e-06	5.246904e-05
	-2.006939e-05	9.357933e-05	-0.1206884	0.01547127	-0.0004467905	-0.000169755	0.0135646	-0.002857226
	0.01333187	-0.003426666	-0.0004467905	-0.000169755	-0.1210663	0.01371465	-2.109192e-05	9.431911e-05
	2.845655e-06	5.246904e-05	0.0135646	-0.002857226	-2.109192e-05	9.431911e-05	-0.1206116	0.01574921
1.9e+08	-0.1162705	0.02531489	-1.131975e-05	9.303838e-05	0.01209372	-0.004289156	6.969004e-06	5.154788e-05
	-1.131975e-05	9.303838e-05	-0.115604	0.02719075	-0.0005055808	-0.0001077019	0.01238698	-0.003733076
	0.01209372	-0.004289156	-0.0005055808	-0.0001077019	-0.1161813	0.02545307	-1.223994e-05	9.397521e-05
	6.969004e-06	5.154788e-05	0.01238698	-0.003733076	-1.223994e-05	9.397521e-05	-0.1155066	0.02747516
2e+08	-0.1092146	0.03573001	-3.071627e-06	9.164998e-05	0.01068119	-0.004869933	1.105623e-05	5.028198e-05
	-3.071627e-06	9.164998e-05	-0.1083611	0.03754885	-0.000550504	-3.238112e-05	0.01102979	-0.004340839
	0.01068119	-0.004869933	-0.000550504	-3.238112e-05	-0.1091266	0.03587541	-3.846192e-06	9.275736e-05
	1.105623e-05	5.028198e-05	0.01102979	-0.004340839	-3.846193e-06	9.275736e-05	-0.1082433	0.03783527
2.1e+08	-0.1003009	0.04443193	4.584182e-06	8.958215e-05	0.009155035	-0.005138573	1.505507e-05	4.866792e-05
	4.584182e-06	8.958215e-05	-0.09928177	0.04615102	-0.0005789222	5.23831e-05	0.009550595	-0.004649095
	0.009155035	-0.005138573	-0.0005789222	5.23831e-05	-0.1002137	0.04458503	3.989697e-06	9.082254e-05
	1.505507e-05	4.866792e-05	0.009550595	-0.004649095	3.989697e-06	9.082254e-05	-0.09914466	0.04643492
2.2e+08	-0.08991155	0.05109273	1.160817e-05	8.70125e-05	0.007581321	-0.005076895	1.891746e-05	4.671142e-05
	1.160817e-05	8.70125e-05	-0.08875813	0.05267368	-0.0005892967	0.0001422644	0.008012491	-0.004637928
	0.007581322	-0.005076895	-0.0005892967	0.0001422644	-0.08982478	0.05125392	1.121627e-05	8.834036e-05
	1.891746e-05	4.671142e-05	0.008012491	-0.004637928	1.121627e-05	8.834036e-05	-0.08860396	0.05295073
2.3e+08	-0.07848538	0.05546547	1.801297e-05	8.411359e-05	0.006029214	-0.004680035	2.259967e-05	4.442543e-05
	1.801297e-05	8.411359e-05	-0.07723812	0.05687649	-0.0005812818	0.0002327526	0.006482054	-0.004300057
	0.006029214	-0.004680035	-0.0005812818	0.0002327526	-0.07839856	0.05563499	1.783215e-05	8.547931e-05
	2.259967e-05	4.442543e-05	0.006482054	-0.004300057	1.783215e-05	8.547931e-05	-0.07707017	0.0571428
2.4e+08	-0.06650177	0.057394	2.386046e-05	8.103778e-05	0.004568471	-0.003957208	2.606222e-05	4.182904e-05
	2.386046e-05	8.103778e-05	-0.06520873	0.05861202	-0.0005557233	0.0003194924	0.005026979	-0.003641679
	0.004568471	-0.003957208	-0.0005557233	0.0003194924	-0.06641441	0.05757196	2.388439e-05	8.239226e-05
	2.606222e-05	4.182904e-05	0.005026979	-0.003641679	2.388439e-05	8.239226e-05	-0.06503122	0.05886438
2.5e+08	-0.05446242	0.05681981	2.925396e-05	7.790255e-05	0.003266621	-0.002932042	2.927009e-05	3.894613e-05
	2.925396e-05	7.790255e-05	-0.05317738	0.05783227	-0.000514566	0.0003986036	0.003713402	-0.002682925
	0.003266621	-0.002932042	-0.000514566	0.0003986036	-0.05437402	0.05700618	2.946222e-05	7.920187e-05
	2.927009e-05	3.894613e-05	0.003713402	-0.002682925	2.946222e-05	7.920187e-05	-0.05299533	0.0580684
2.6e+08	-0.04287192	0.05378546	3.432592e-05	7.477799e-05	0.002185922	-0.001642326	3.219264e-05	3.580474e-05
	3.432592e-05	7.477799e-05	-0.04165208	0.05459168	-0.0004606664	0.0004669712	0.002602959	-0.001457757
	0.002185922	-0.001642326	-0.0004606664	0.0004669712	-0.04278201	0.05398005	3.468621e-05	7.598776e-05
	3.219264e-05	3.580474e-05	0.002602959	-0.001457757	3.468621e-05	7.598776e-05	-0.04147109	0.05481038
2.7e+08	-0.03221746	0.04843402	3.9221e-05	7.167828e-05	0.001380219	-0.0001390635	3.480376e-05	3.243628e-05
	3.9221e-05	7.167828e-05	-0.03112078	0.04904607	-0.0003975337	0.0005224661	0.001749717	-1.319029e-05
	0.001380219	-0.0001390635	-0.0003975337	0.0005224661	-0.03212567	0.04863654	3.969274e-05	7.27772e-05
	3.480376e-05	3.243628e-05	0.001749717	-1.319031e-05	3.969274e-05	7.27772e-05	-0.03094682	0.04924741
2.8e+08	-0.02294869	0.04100455	4.40765e-05	6.855915e-05	0.0008918934	0.001515272	3.708213e-05	2.887507e-05
	4.40765e-05	6.855915e-05	-0.02203101	0.04144749	-0.000329003	0.0005640878	0.001197165	0.001592257
	0.0008918934	0.001515272	-0.000329003	0.0005640878	-0.02285474	0.0412146	4.461551e-05	6.954123e-05
	3.708213e-05	2.887507e-05	0.001197165	0.001592257	4.461551e-05	6.954123e-05	-0.02187011	0.04163288
2.9e+08	-0.01545841	0.03182315	4.90015e-05	6.532207e-05	0.0007491513	0.003249285	3.901147e-05	2.51575e-05
	4.90015e-05	6.532207e-05	-0.01477054	0.03213467	-0.0002588868	0.0005919972	0.0009754931	0.003290926
	0.0007491513	0.003249285	-0.0002588868	0.0005919972	-0.01536215	0.03204023	4.956534e-05	6.61973e-05
	3.901147e-05	2.51575e-05	0.0009754931	0.003290926	4.956534e-05	6.61973e-05	-0.01462849	0.03230685
3e+08	-0.01006526	0.02129003	5.405813e-05	6.182634e-05	0.0009639036	0.004985971	4.058069e-05	2.132115e-05
	5.405813e-05	6.182634e-05	-0.0096501	0.02151933	-0.0001906379	0.0006074427	0.001099424	0.005009126
	0.0009639037	0.004985971	-0.0001906379	0.0006074427	-0.009966733	0.0215136	5.461148e-05	6.261952e-05
	4.058069e-05	2.132115e-05	0.001099424	0.005009126	5.461148e-05	6.261952e-05	-0.009532166	0.0216824
3.1e+08	-0.006999423	0.009862797	5.919742e-05	5.789592e-05	0.00153048	0.006646611	4.178472e-05	1.740394e-05
	5.919742e-05	5.789592e-05	-0.006889322	0.01006891	-0.0001217421	0.0006124023	0.00156684	0.006670855
	0.00153048	0.006646611	-0.0001217421	0.0006124023	-0.006898829	0.01009234	5.971681e-05	5.864183e-05
	4.178472e-05	1.740394e-05	0.00156684	0.006670855	5.971681e-05	5.864183e-05	-0.006799945	0.01022815
3.2e+08	-0.006392009	-0.001963157	6.430764e-05	5.337761e-05	0.002425376	0.008155017	4.262307e-05	1.34425e-05
	6.430764e-05	5.337761e-05	-0.006606563	-0.00171375	-4.913631e-05	0.0006073031	0.002358395	0.00820188
	0.002425376	0.008155017	-4.913631e-05	0.0006073031	-0.006289734	-0.001728108	6.478425e-05	5.411689e-05
	4.262307e-05	1.34425e-05	0.002358395	0.00820188	6.478425e-05	5.411689e-05	-0.006549088	-0.001552012
3.3e+08	-0.0082691	-0.0136764	6.936559e-05	4.816034e-05	0.003608124	0.009441823	4.309757e-05	9.472528e-06
	6.936559e-05	4.816034e-05	-0.008813507	-0.0133126	1.518303e-05	0.0005947103	0.003438224	0.009533884
	0.003608124	0.009441823	1.518303e-05	0.0005947103	-0.008165741	-0.01343618	6.98088e-05	4.893939e-05
	4.309757e-05	9.472528e-06	0.003438224	0.009533884	6.98088e-05	4.893939e-05	-0.008789899	-0.01314123
3.4e+08	-0.01255067	-0.02477205	7.418878e-05	4.214266e-05	0.005023303	0.01044845	4.321496e-05	5.527893e-06
	7.418878e-05	4.214266e-05	-0.0134147	-0.02422134	7.110691e-05	0.0005779641	0.004755752	0.01060835
	0.005023303	0.01044845	7.110691e-05	0.0005779641	-0.01244699	-0.02452681	7.462633e-05	4.300345e-05
	4.321496e-05	5.527893e-06	0.004755752	0.01060835	7.462633e-05	4.300345e-05	-0.01342536	-0.02403273
3.5e+08	-0.01905469	-0.03477409	7.855741e-05	3.528778e-05	0.00660354	0.01113046	4.298613e-05	1.639897e-06
	7.855741e-05	3.528778e-05	-0.02021236	-0.03396595	0.0001195819	0.0005600609	0.006248478	0.01137982
	0.00660354	0.01113046	0.0001195819	0.0005600609	-0.01895152	-0.03452372	7.903392e-05	3.626151e-05
	4.298613e-05	1.639897e-06	0.006248478	0.01137982	7.903392e-05	3.626151e-05	-0.02025609	-0.03375233
3.6e+08	-0.02750596	-0.04325607	8.223869e-05	2.763357e-05	0.008273289	0.01145994	4.242397e-05	-2.162886e-06
	8.223869e-05	2.763357e-05	-0.02891603	-0.04212546	0.0001624414	0.000543337	0.007845521	0.01181835
	0.008273289	0.01145994	0.0001624414	0.000543337	-0.02740413	-0.04300017	8.281134e-05	2.873524e-05
	4.242397e-05	-2.162886e-06	0.007845521	0.01181835	8.281134e-05	2.873524e-05	-0.02898993	-0.04187927
3.7e+08	-0.03754922	-0.04985921	8.501302e-05	1.929319e-05	0.009953084	0.01142691	4.154253e-05	-5.854271e-06
	8.501302e-05	1.929319e-05	-0.03915647	-0.04834992	0.0002021257	0.0005292353	0.009471638	0.01191086
	0.009953084	0.01142691	0.0002021257	0.0005292353	-0.03744949	-0.04959713	8.574604e-05	2.051757e-05
	4.154253e-05	-5.854271e-06	0.009471638	0.01191086	8.574604e-05	2.051757e-05	-0.03925604	-0.04806413
3.8e+08	-0.04876581	-0.05430699	8.669882e-05	1.044612e-05	0.0115639	0.01103943	4.035698e-05	-9.410009e-06
	8.669882e-05	1.044612e-05	-0.05050306	-0.0523746	0.0002413517	0.0005181735	0.01105136	0.01166142
	0.0115639	0.01103943	0.0002413517	0.0005181735	-0.04866877	-0.0540378	8.765675e-05	1.176566e-05
	4.035698e-05	-9.410009e-06	0.01105136	0.01166142	8.765675e-05	1.176566e-05	-0.05062225	-0.05204313
3.9e+08	-0.0606927	-0.05641549	8.717191e-05	1.321472e-06	0.01303131	0.01032269	3.888351e-05	-1.280736e-05
	8.717191e-05	1.321472e-06	-0.06248344	-0.0540299	0.0002827634	0.0005095242	0.01251296	0.01109047
	0.01303131	0.01032269	0.0002827634	0.0005095242	-0.06059872	-0.05613804	8.841238e-05	2.686451e-06
	3.888351e-05	-1.280736e-05	0.01251296	0.01109047	8.841238e-05	2.686451e-06	-0.06261487	-0.05364791
4e+08	-0.07284296	-0.05609933	8.637736e-05	-7.823694e-06	0.01428915	0.009317143	3.713946e-05	-1.602484e-05
	8.637736e-05	-7.823694e-06	-0.07460445	-0.05324664	0.0003285994	0.0005017075	0.01379191	0.01023313
	0.01428915	0.009317143	0.0003285994	0.0005017075	-0.07275208	-0.05581231	8.794417e-05	-6.482732e-06
	3.713946e-05	-1.602484e-05	0.01379191	0.01023313	8.794417e-05	-6.482732e-06	-0.07473972	-0.05281085
4.1e+08	-0.08472643	-0.05337304	8.433322e-05	-1.672787e-05	0.01528242	0.00807587	3.514366e-05	-1.90422e-05
	8.433322e-05	-1.672787e-05	-0.08637327	-0.05005676	0.000380412	0.0004923777	0.01483375	0.0091368
	0.01528242	0.00807587	0.000380412	0.0004923777	-0.08463835	-0.05307506	8.625035e-05	-1.549562e-05
	3.514366e-05	-1.90422e-05	0.01483375	0.0091368	8.625035e-05	-1.549562e-05	-0.08650325	-0.04956564
4.2e+08	-0.0958698	-0.04834818	8.112615e-05	-2.514732e-05	0.01596945	0.006661486	3.291659e-05	-2.184067e-05
	8.112615e-05	-2.514732e-05	-0.09731761	-0.04458968	0.0004388624	0.0004786826	0.01559607	0.007858325
	0.01596945	0.006661486	0.0004388624	0.0004786826	-0.09578385	-0.0480379	8.339335e-05	-2.411752e-05
	3.291659e-05	-2.184067e-05	0.01559607	0.007858325	8.339335e-05	-2.411752e-05	-0.09743284	-0.04404361
4.3e+08	-0.1058351	-0.04122669	7.690086e-05	-3.287455e-05	0.01632313	0.005142844	3.048045e-05	-2.440337e-05
	7.690086e-05	-3.287455e-05	-0.1070043	-0.0370648	0.0005036061	0.0004575687	0.01604982	0.006460974
	0.01632313	0.005142844	0.0005036061	0.0004575687	-0.1057502	-0.04090288	7.949126e-05	-3.214263e-05
	3.048045e-05	-2.440337e-05	0.01604982	0.006460974	7.949126e-05	-3.214263e-05	-0.1070953	-0.03646613
4.4e+08	-0.1142361	-0.03229087	7.184513e-05	-3.975167e-05	0.01633138	0.00359175	2.785892e-05	-2.671574e-05
	7.184513e-05	-3.975167e-05	-0.1150553	-0.02778075	0.0005732761	0.0004260997	0.01617979	0.00501141
	0.01633138	0.00359175	0.0005732761	0.0004260997	-0.1141509	-0.03195254	7.470509e-05	-3.940692e-05
	2.785892e-05	-2.671574e-05	0.01617979	0.00501141	7.470509e-05	-3.940692e-05	-0.1151134	-0.0271338
4.5e+08	-0.1207518	-0.02189083	6.617281e-05	-4.56781e-05	0.01599691	0.002079872	2.507676e-05	-2.876595e-05
	6.617281e-05	-4.56781e-05	-0.1211616	-0.01710212	0.0006455594	0.0003817607	0.01598452	0.003576852
	0.01599691	0.002079872	0.0006455594	0.0003817607	-0.1206647	-0.0215373	6.922414e-05	-4.5796e-05
	2.507676e-05	-2.876595e-05	0.01598452	0.003576852	6.922414e-05	-4.5796e-05	-0.1211786	-0.01641305
4.6e+08	-0.1251377	-0.01042992	6.010654e-05	-5.061285e-05	0.01533651	0.0006759511	2.21592e-05	-3.054503e-05
	6.010654e-05	-5.061285e-05	-0.125093	-0.005444237	0.000717356	0.0003227229	0.01547566	0.002222506
	0.01533651	0.0006759511	0.000717356	0.0003227229	-0.1250467	-0.0100609	6.325083e-05	-5.124835e-05
	2.21592e-05	-3.054503e-05	0.01547566	0.002222506	6.325083e-05	-5.124835e-05	-0.1250623	-0.004720851
4.7e+08	-0.1272331	0.001651129	5.386171e-05	-5.457213e-05	0.01437981	-0.0005566251	1.913124e-05	-3.204671e-05
	5.386171e-05	-5.457213e-05	-0.1267059	0.006743294	0.0007850035	0.0002480514	0.01467704	0.001009323
	0.01437981	-0.0005566251	0.0007850035	0.0002480514	-0.1271364	0.002035524	5.69865e-05	-5.575428e-05
	1.913124e-05	-3.204671e-05	0.01467704	0.001009323	5.69865e-05	-5.575428e-05	-0.1266224	0.007491829
4.8e+08	-0.1269661	0.01389097	4.763246e-05	-5.762358e-05	0.01316788	-0.00156189	1.601724e-05	-3.326717e-05
