!$
! Info: Touchstone file created by Circ.  Input file=Tx_16in_Rx_85ohms_TxVia_60mils_RxVia_70mils.circ
!$
# Hz S RI R 50
0	0.01285478	1.969009e-25	-4.015318e-11	9.421701e-27	0.0001055845	2.477559e-23	-3.172931e-09	3.933285e-25
	-4.015394e-11	9.421809e-27	0.01285029	2.440225e-25	3.117981e-11	2.77887e-27	0.0001052989	3.135502e-23
	0.0001066676	2.494111e-23	3.117565e-11	2.779375e-27	0.0128701	1.969628e-25	-2.017185e-11	8.491842e-27
	-3.172806e-09	3.933131e-25	0.0001055683	3.148947e-23	-2.026517e-11	8.503222e-27	0.0128646	2.429765e-25
1e+07	0.01541463	-0.01621969	3.263477e-11	1.546708e-10	0.0005967814	0.002892342	-2.901206e-09	8.35994e-09
	3.263477e-11	1.546708e-10	0.01540239	-0.01595667	3.287071e-11	1.665602e-10	0.0007105348	0.00287703
	0.0005968129	0.002892346	3.287071e-11	1.665602e-10	0.01755087	-0.01590144	-2.751461e-09	1.047844e-08
	-2.901206e-09	8.35994e-09	0.0007105378	0.002877028	-2.751461e-09	1.047844e-08	0.01536661	-0.01593927
2e+07	0.01100608	-0.03573231	-2.678627e-11	3.134157e-10	0.002021618	0.005424046	-2.515768e-10	3.804177e-11
	-2.678626e-11	3.134157e-10	0.0112416	-0.03533481	-2.594154e-11	3.300269e-10	0.002150657	0.005296143
	0.002021631	0.005424027	-2.594154e-11	3.300269e-10	0.0131045	-0.03603358	6.347689e-11	6.226375e-10
	-2.515768e-10	3.804177e-11	0.002150654	0.005296143	6.347689e-11	6.226375e-10	0.01122203	-0.03528759
3e+07	-0.00101461	-0.05374745	-1.384623e-10	5.262982e-10	0.004202578	0.00719745	-1.695808e-10	6.009994e-10
	-1.384623e-10	5.262982e-10	-0.0006333712	-0.05335614	-1.369947e-10	5.422466e-10	0.004240883	0.007060421
	0.004202579	0.007197447	-1.369947e-10	5.422466e-10	0.0009844996	-0.05441801	-1.52512e-10	6.135027e-10
	-1.695808e-10	6.009994e-10	0.004240883	0.007060423	-1.52512e-10	6.135027e-10	-0.0006417828	-0.05329304
4e+07	-0.01858308	-0.06704754	-2.63899e-10	7.98414e-10	0.006761168	0.008117537	-2.753405e-10	9.286356e-10
	-2.63899e-10	7.98414e-10	-0.01812663	-0.06669153	-2.638605e-10	8.126579e-10	0.006718908	0.008009074
	0.006761172	0.008117541	-2.638605e-10	8.126579e-10	-0.01674777	-0.06802425	-3.199471e-10	9.12109e-10
	-2.753405e-10	9.286356e-10	0.006718909	0.008009075	-3.199471e-10	9.12109e-10	-0.01812719	-0.06661592
5e+07	-0.03948854	-0.07407983	-3.747654e-10	1.142562e-09	0.009390663	0.008133085	-3.922802e-10	1.315027e-09
	-3.747654e-10	1.142562e-09	-0.03900587	-0.0737548	-3.812715e-10	1.150158e-09	0.009284166	0.008080741
	0.009390666	0.008133087	-3.812715e-10	1.150158e-09	-0.03787071	-0.07530832	-4.537114e-10	1.31223e-09
	-3.922802e-10	1.315027e-09	0.009284167	0.008080741	-4.537114e-10	1.31223e-09	-0.03900098	-0.07366692
6e+07	-0.06136929	-0.07420949	-4.370264e-10	1.553876e-09	0.01179151	0.007296845	-4.551145e-10	1.775457e-09
	-4.370264e-10	1.553876e-09	-0.06088849	-0.07389715	-4.596972e-10	1.550883e-09	0.01164284	0.007319917
	0.0117915	0.007296845	-4.596972e-10	1.550883e-09	-0.06001005	-0.07563257	-5.308852e-10	1.790342e-09
	-4.551145e-10	1.775457e-09	0.01164284	0.007319917	-5.308852e-10	1.790342e-09	-0.06087895	-0.07379598
7e+07	-0.08191816	-0.06761812	-4.190812e-10	2.012176e-09	0.01370873	0.005753123	-4.234983e-10	2.283347e-09
	-4.190812e-10	2.012176e-09	-0.08144963	-0.06729829	-4.718414e-10	1.998541e-09	0.0135439	0.005862138
	0.01370872	0.005753124	-4.718414e-10	1.998541e-09	-0.08084569	-0.0691756	-5.192161e-10	2.325256e-09
	-4.234983e-10	2.283347e-09	0.0135439	0.005862138	-5.192161e-10	2.325256e-09	-0.08143478	-0.06718271
8e+07	-0.0990951	-0.05519628	-2.980136e-10	2.483646e-09	0.01495667	0.003712727	-2.760758e-10	2.795684e-09
	-2.980136e-10	2.483646e-09	-0.09863726	-0.05485473	-3.975433e-10	2.46598e-09	0.01480331	0.003908964
	0.01495666	0.003712731	-3.975433e-10	2.46598e-09	-0.09832543	-0.05682682	-3.904546e-10	2.882042e-09
	-2.760758e-10	2.795684e-09	0.01480331	0.003908964	-3.904546e-10	2.882042e-09	-0.09861534	-0.05472417
9e+07	-0.1113022	-0.03839571	-6.472737e-11	2.924582e-09	0.01543111	0.00142408	-1.121296e-11	3.262648e-09
	-6.472738e-11	2.924582e-09	-0.1108497	-0.03802839	-2.277811e-10	2.918456e-09	0.01531604	0.001699684
	0.0154311	0.001424085	-2.277811e-10	2.918456e-09	-0.1108414	-0.0400386	-1.289445e-10	3.41226e-09
	-1.121296e-11	3.262648e-09	0.01531604	0.001699684	-1.289445e-10	3.41226e-09	-0.1108182	-0.03788334
1e+08	-0.1174977	-0.01904973	2.761029e-10	3.285683e-09	0.01511141	-0.000854274	3.556261e-10	3.634411e-09
	2.761029e-10	3.285683e-09	-0.117062	-0.01866452	3.426509e-11	3.320475e-09	0.01506084	-0.0005151117
	0.01511141	-0.0008542741	3.426509e-11	3.320475e-09	-0.1173539	-0.02064707	2.669653e-10	3.85838e-09
	3.556261e-10	3.634411e-09	0.01506084	-0.0005151117	2.669653e-10	3.85838e-09	-0.1170188	-0.01850685
1.1e+08	-0.1173057	0.000768974	6.730544e-10	3.501377e-09	0.0140523	-0.002879542	7.498317e-10	3.880447e-09
	6.730544e-10	3.501377e-09	-0.1168698	0.001228227	3.722328e-10	3.600119e-09	0.01408007	-0.00251522
	0.0140523	-0.002879542	3.722328e-10	3.600119e-09	-0.1174491	-0.0006689151	7.287114e-10	4.118787e-09
	7.498317e-10	3.880447e-09	0.01408007	-0.00251522	7.287114e-10	4.118787e-09	-0.1168122	0.001396537
1.2e+08	-0.1109987	0.01910624	1.043963e-09	3.599356e-09	0.01237655	-0.004434804	1.144967e-09	3.999051e-09
	1.043963e-09	3.599356e-09	-0.1105121	0.01960589	7.120783e-10	3.761156e-09	0.01247711	-0.004071536
	0.01237655	-0.004434804	7.120783e-10	3.761156e-09	-0.1113529	0.01786776	1.164385e-09	4.239546e-09
	1.144967e-09	3.999051e-09	0.01247711	-0.004071536	1.164385e-09	4.239546e-09	-0.110438	0.01977984
1.3e+08	-0.09939574	0.03415148	1.374971e-09	3.576905e-09	0.01026546	-0.00535437	1.501861e-09	3.985411e-09
	1.374971e-09	3.576905e-09	-0.09885013	0.03464488	1.026382e-09	3.812594e-09	0.01042896	-0.00501629
	0.01026546	-0.00535437	1.026382e-09	3.812594e-09	-0.09989885	0.03313477	1.555153e-09	4.219762e-09
	1.501861e-09	3.985411e-09	0.01042896	-0.005016289	1.555153e-09	4.219762e-09	-0.09875998	0.03481855
1.4e+08	-0.08383676	0.04444653	1.626287e-09	3.443778e-09	0.00794113	-0.005533412	1.772112e-09	3.855419e-09
	1.626287e-09	3.443778e-09	-0.08325059	0.04488842	1.27756e-09	3.763174e-09	0.008150545	-0.005241009
	0.00794113	-0.005533412	1.27756e-09	3.763174e-09	-0.08442989	0.04366082	1.854314e-09	4.069613e-09
	1.772112e-09	3.855419e-09	0.008150544	-0.005241008	1.854314e-09	4.069613e-09	-0.0831472	0.04505596
1.5e+08	-0.0660432	0.04902394	1.75942e-09	3.231072e-09	0.005649904	-0.004938674	1.915431e-09	3.641149e-09
	1.75942e-09	3.231072e-09	-0.06545677	0.04938	1.429295e-09	3.636786e-09	0.005881787	-0.004706281
	0.005649904	-0.004938674	1.429295e-09	3.636786e-09	-0.06667034	0.04846624	2.016547e-09	3.825284e-09
	1.915431e-09	3.641149e-09	0.005881786	-0.00470628	2.016547e-09	3.825284e-09	-0.06534532	0.04953655
1.6e+08	-0.04795178	0.04750264	1.746965e-09	2.98171e-09	0.003641103	-0.003615763	1.903273e-09	3.388855e-09
	1.746965e-09	2.98171e-09	-0.04742096	0.04775703	1.454975e-09	3.47047e-09	0.003867632	-0.003449373
	0.003641103	-0.003615763	1.454975e-09	3.47047e-09	-0.04856139	0.04715816	2.00948e-09	3.536704e-09
	1.903273e-09	3.388855e-09	0.003867632	-0.003449372	2.00948e-09	3.536704e-09	-0.04730853	0.04789963
1.7e+08	-0.03152316	0.04013188	1.577528e-09	2.747542e-09	0.00214176	-0.001690377	1.724263e-09	3.153843e-09
	1.577528e-09	2.747542e-09	-0.03111114	0.04029236	1.342194e-09	3.310181e-09	0.002333604	-0.001586214
	0.00214176	-0.001690378	1.342194e-09	3.310181e-09	-0.03207042	0.03997498	1.819522e-09	3.264298e-09
	1.724263e-09	3.153843e-09	0.002333604	-0.001586213	1.819522e-09	3.264298e-09	-0.03100598	0.04042059
1.8e+08	-0.0185401	0.02777392	1.258368e-09	2.583313e-09	0.001329312	0.0006394743	1.386729e-09	2.994065e-09
	1.258368e-09	2.583313e-09	-0.01830791	0.0278739	1.095519e-09	3.205204e-09	0.00145901	0.0006953499
	0.001329312	0.0006394743	1.095519e-09	3.205204e-09	-0.01898938	0.02776979	1.454912e-09	3.07184e-09
	1.386729e-09	2.994065e-09	0.00145901	0.0006953502	1.454912e-09	3.07184e-09	-0.01821848	0.02799033
1.9e+08	-0.01041588	0.01182064	8.157808e-10	2.539925e-09	0.001306396	0.00312215	9.188977e-10	2.963168e-09
	8.157808e-10	2.539925e-09	-0.01041251	0.01191763	7.370404e-10	3.201792e-09	0.001351846	0.003153031
	0.001306396	0.003122149	7.370404e-10	3.201792e-09	-0.01074292	0.01192789	9.460693e-10	3.018549e-09
	9.188977e-10	2.963168e-09	0.001351846	0.003153031	9.460693e-10	3.018549e-09	-0.0103464	0.01202787
2e+08	-0.008036806	-0.005952648	2.930655e-10	2.65788e-09	0.002083111	0.005481363	3.667007e-10	3.103801e-09
	2.930655e-10	2.65788e-09	-0.008290265	-0.005782058	3.045258e-10	3.336954e-09	0.002030738	0.005517866
	0.002083111	0.005481363	3.045258e-10	3.336954e-09	-0.008230129	-0.005778627	3.430997e-10	3.15147e-09
	3.667007e-10	3.103801e-09	0.002030738	0.005517866	3.430997e-10	3.15147e-09	-0.008253078	-0.005669727
2.1e+08	-0.01166178	-0.02358209	-2.537226e-10	2.961753e-09	0.003571707	0.00745184	-2.1056e-10	3.44198e-09
	-2.537226e-10	2.961753e-09	-0.0121723	-0.02325045	-1.525911e-10	3.633297e-09	0.003418853	0.007528784
	0.003571707	0.00745184	-1.525911e-10	3.633297e-09	-0.01172294	-0.02338525	-2.892158e-10	3.499147e-09
	-2.1056e-10	3.44198e-09	0.003418853	0.007528784	-2.892158e-10	3.499147e-09	-0.01216675	-0.02312578
2.2e+08	-0.0208953	-0.03913531	-7.617135e-10	3.45642e-09	0.005596336	0.00881539	-7.462269e-10	3.983123e-09
	-7.617135e-10	3.45642e-09	-0.02163184	-0.03855477	-5.788048e-10	4.095636e-09	0.005352498	0.008967887
	0.005596336	0.00881539	-5.788048e-10	4.095636e-09	-0.02083788	-0.03895519	-8.783336e-10	4.067376e-09
	-7.462269e-10	3.983123e-09	0.005352498	0.008967887	-8.783336e-10	4.067376e-09	-0.02165708	-0.03840662
2.3e+08	-0.03473913	-0.05092704	-1.168142e-09	4.125492e-09	0.0079169	0.009430316	-1.173378e-09	4.710198e-09
	-1.168142e-09	4.125492e-09	-0.0356398	-0.05002074	-9.189262e-10	4.709787e-09	0.007603547	0.009689509
	0.0079169	0.009430316	-9.189262e-10	4.709787e-09	-0.03458647	-0.05079557	-1.351893e-09	4.837511e-09
	-1.173378e-09	4.710198e-09	0.007603547	0.009689509	-1.351893e-09	4.837511e-09	-0.03569115	-0.04983833
2.4e+08	-0.05171469	-0.05770112	-1.417439e-09	4.93213e-09	0.01026244	0.009248448	-1.432303e-09	5.584231e-09
	-1.417439e-09	4.93213e-09	-0.05269137	-0.056414	-1.124438e-09	5.443593e-09	0.009911321	0.009637435
	0.01026244	0.009248448	-1.124438e-09	5.443593e-09	-0.0514969	-0.05764043	-1.645799e-09	5.76746e-09
	-1.432303e-09	5.584231e-09	0.009911321	0.009637435	-1.645799e-09	5.76746e-09	-0.0527605	-0.05618826
2.5e+08	-0.07003733	-0.05875607	-1.467737e-09	5.822137e-09	0.01236738	0.008317257	-1.477618e-09	6.54727e-09
	-1.467737e-09	5.822137e-09	-0.07098393	-0.05706365	-1.159092e-09	6.249954e-09	0.01201742	0.008847744
	0.01236738	0.008317257	-1.159092e-09	6.249954e-09	-0.06978776	-0.05877745	-1.711593e-09	6.795227e-09
	-1.477618e-09	6.54727e-09	0.01201742	0.008847744	-1.711593e-09	6.795227e-09	-0.07105952	-0.05678845
2.6e+08	-0.08781668	-0.05400194	-1.296089e-09	6.72903e-09	0.01400385	0.006768204	-1.284226e-09	7.527634e-09
	-1.296089e-09	6.72903e-09	-0.08862018	-0.05191579	-1.003195e-09	7.071432e-09	0.01369701	0.00743837
	0.01400385	0.006768204	-1.003195e-09	7.071432e-09	-0.08756855	-0.05410595	-1.522408e-09	7.844645e-09
	-1.284226e-09	7.527634e-09	0.01369701	0.00743837	-1.522408e-09	7.844645e-09	-0.08868903	-0.05158891
2.7e+08	-0.1032568	-0.04394769	-9.018891e-10	7.580562e-09	0.01500534	0.004795347	-8.51398e-10	8.446992e-09
	-9.018891e-10	7.580562e-09	-0.1038098	-0.04151693	-6.562617e-10	7.845912e-09	0.0147819	0.005589237
	0.01500534	0.004795347	-6.562617e-10	7.845912e-09	-0.1030403	-0.04412525	-1.076895e-09	8.832784e-09
	-8.51398e-10	8.446992e-09	0.0147819	0.005589237	-1.076895e-09	8.832784e-09	-0.1038582	-0.04114064
2.8e+08	-0.114834	-0.02962795	-3.080962e-10	8.30615e-09	0.01527988	0.002629354	-2.04372e-10	9.228686e-09
	-3.080962e-10	8.30615e-09	-0.1150472	-0.02693641	-1.378415e-10	8.512804e-09	0.01517362	0.003517935
	0.01527988	0.002629354	-1.378415e-10	8.512804e-09	-0.1146737	-0.02986211	-4.007018e-10	9.678386e-09
	-2.04372e-10	9.228686e-09	0.01517362	0.003517935	-4.007018e-10	9.678386e-09	-0.1150624	-0.0265175
2.9e+08	-0.1214368	-0.01248331	4.399622e-10	8.844468e-09	0.01481325	0.0005115291	6.069035e-10	9.806353e-09
	4.399622e-10	8.844468e-09	-0.12125	-0.009642618	5.135067e-10	9.019282e-09	0.01484732	0.001455315
	0.01481325	0.0005115291	5.135067e-10	9.019282e-09	-0.1213503	-0.01275142	4.547821e-10	1.031054e-08
	6.069035e-10	9.806353e-09	0.01484732	0.001455315	4.547821e-10	1.031054e-08	-0.1212219	-0.009191964
3e+08	-0.1224595	0.00578957	1.278187e-09	9.15045e-09	0.01366483	-0.001329234	1.51191e-09	1.013188e-08
	1.278187e-09	9.15045e-09	-0.1218506	0.008650313	1.243071e-09	9.326083e-09	0.01384862	-0.0003762604
	0.01366483	-0.001329234	1.243071e-09	9.326083e-09	-0.1224565	0.005513515	1.416425e-09	1.067678e-08
	1.51191e-09	1.013188e-08	0.01384862	-0.0003762604	1.416425e-09	1.067678e-08	-0.1217728	0.009118707
3.1e+08	-0.1178481	0.02340306	2.12945e-09	9.201006e-09	0.01195855	-0.002695515	2.426248e-09	1.018168e-08
	2.12945e-09	9.201006e-09	-0.1168373	0.02615009	1.984477e-09	9.412376e-09	0.01228597	-0.001781113
	0.01195855	-0.002695515	1.984477e-09	9.412376e-09	-0.1179297	0.02314601	2.395872e-09	1.074963e-08
	2.426248e-09	1.018168e-08	0.01228597	-0.001781113	2.395872e-09	1.074963e-08	-0.1167082	0.02662045
3.2e+08	-0.1080965	0.03864592	2.911116e-09	8.998578e-09	0.009870724	-0.003436722	3.260199e-09	9.960556e-09
	2.911116e-09	8.998578e-09	-0.1067475	0.04115489	2.66581e-09	9.279211e-09	0.01032015	-0.002605242
	0.009870724	-0.003436722	2.66581e-09	9.279211e-09	-0.1082559	0.03843346	3.298028e-09	1.053097e-08
	3.260199e-09	9.960556e-09	0.01032015	-0.002605242	3.298028e-09	1.053097e-08	-0.1065707	0.04161124
3.3e+08	-0.09419824	0.05004187	3.543367e-09	8.572167e-09	0.007615613	-0.003461431	3.928244e-09	9.502485e-09
	3.543367e-09	8.572167e-09	-0.09261389	0.05221175	3.21701e-09	8.951106e-09	0.008151524	-0.002748841
	0.007615613	-0.003461431	3.21701e-09	8.951106e-09	-0.09442127	0.04989603	4.030762e-09	1.005353e-08
	3.928244e-09	9.502485e-09	0.008151524	-0.002748841	4.030762e-09	1.005353e-08	-0.09239827	0.05263975
3.4e+08	-0.07755544	0.05648916	3.95778e-09	7.976078e-09	0.005428247	-0.002746902	4.358506e-09	8.868299e-09
	3.95778e-09	7.976078e-09	-0.07586952	0.05825467	3.57712e-09	8.475176e-09	0.006004364	-0.00217651
	0.005428247	-0.002746902	3.57712e-09	8.475176e-09	-0.077822	0.0564265	4.514949e-09	9.379152e-09
	4.358506e-09	8.868299e-09	0.006004364	-0.00217651	4.514949e-09	9.379152e-09	-0.07562841	0.05864329
3.5e+08	-0.05984937	0.05737047	4.105281e-09	7.285472e-09	0.003544097	-0.001344915	4.50109e-09	8.140342e-09
	4.105281e-09	7.285472e-09	-0.05821426	0.05871159	3.702014e-09	7.917788e-09	0.004107832	-0.000924243
	0.003544097	-0.001344915	3.702014e-09	7.917788e-09	-0.06013527	0.05740049	4.693534e-09	8.593732e-09
	4.50109e-09	8.140342e-09	0.004107832	-0.000924243	4.693534e-09	8.593732e-09	-0.05796426	0.0590544
3.6e+08	-0.04288083	0.05262236	3.962506e-09	6.589543e-09	0.002175637	0.0006179736	4.334303e-09	7.414574e-09
	3.962506e-09	6.589543e-09	-0.04145217	0.05356958	3.57068e-09	7.358682e-09	0.0026734	0.0008987986
	0.002175637	0.0006179736	3.57068e-09	7.358682e-09	-0.04316017	0.05274646	4.538918e-09	7.799591e-09
	4.334303e-09	7.414574e-09	0.0026734	0.0008987986	4.538918e-09	7.799591e-09	-0.04121161	0.05386575
3.7e+08	-0.02839109	0.04275356	3.535769e-09	5.982737e-09	0.001487404	0.002948088	3.868115e-09	6.790996e-09
	3.535769e-09	5.982737e-09	-0.02731098	0.04338798	3.189231e-09	6.882719e-09	0.001870299	0.003116194
	0.001487404	0.002948088	3.189231e-09	6.882719e-09	-0.02863896	0.04296491	4.057674e-09	7.105309e-09
	3.868115e-09	6.790996e-09	0.001870299	0.003116194	4.057674e-09	7.105309e-09	-0.02709799	0.04364274
3.8e+08	-0.01788021	0.02880502	2.862038e-09	5.554844e-09	0.001572873	0.005401875	3.14442e-09	6.363318e-09
	2.862038e-09	5.554844e-09	-0.01726061	0.0292527	2.59205e-09	6.570429e-09	0.00180221	0.005499661
	0.001572873	0.005401875	2.59205e-09	6.570429e-09	-0.01807529	0.02908925	3.291676e-09	6.614257e-09
	3.14442e-09	6.363318e-09	0.00180221	0.005499661	3.291676e-09	6.614257e-09	-0.01709117	0.02947708
3.9e+08	-0.012443	0.01224989	2.006558e-09	5.380992e-09	0.002437711	0.007712531	2.233993e-09	6.208907e-09
	2.006558e-09	5.380992e-09	-0.01235145	0.01267067	1.839449e-09	6.488404e-09	0.002489753	0.007793927
	0.002437711	0.007712531	1.839449e-09	6.488404e-09	-0.01256995	0.0125867	2.315369e-09	6.413053e-09
	2.233993e-09	6.208907e-09	0.002489753	0.007793927	2.315369e-09	6.413053e-09	-0.01223749	0.0128807
4e+08	-0.01264471	-0.005159346	1.057159e-09	5.512695e-09	0.003993973	0.009623182	1.23036e-09	6.380013e-09
	1.057159e-09	5.512695e-09	-0.01309415	-0.004587615	1.011976e-09	6.680898e-09	0.00386335	0.009748418
	0.003993973	0.009623182	1.011976e-09	6.680898e-09	-0.01269575	-0.004793767	1.229217e-09	6.561262e-09
	1.23036e-09	6.380013e-09	0.00386335	0.009748418	1.229217e-09	6.561262e-09	-0.01304204	-0.004372414
4.1e+08	-0.01845491	-0.02158029	1.156901e-10	5.97112e-09	0.006068118	0.01092134	2.410508e-10	6.897213e-09
	1.156901e-10	5.97112e-09	-0.01939936	-0.02068059	2.019919e-10	7.163823e-09	0.005769412	0.01115069
	0.006068118	0.01092134	2.019919e-10	7.163823e-09	-0.01843052	-0.02121045	1.498544e-10	7.083667e-09
	2.410508e-10	6.897213e-09	0.005769412	0.01115069	1.498544e-10	7.083667e-09	-0.0194089	-0.02043912
4.2e+08	-0.02925097	-0.03528297	-7.125254e-10	6.743494e-09	0.008422667	0.01146808	-6.230144e-10	7.7458e-09
	-7.125254e-10	6.743494e-09	-0.03058769	-0.03389877	-4.964072e-10	7.922004e-09	0.007989856	0.01185523
	0.008422667	0.01146808	-4.964072e-10	7.922004e-09	-0.02915943	-0.03493124	-8.02012e-10	7.96615e-09
	-6.230144e-10	7.7458e-09	0.007989856	0.01185523	-8.02012e-10	7.96615e-09	-0.03065175	-0.03361061
4.3e+08	-0.04389117	-0.04483817	-1.330028e-09	7.783236e-09	0.01078795	0.01121621	-1.259048e-09	8.875697e-09
	-1.330028e-09	7.783236e-09	-0.04546953	-0.04285157	-9.978348e-10	8.910071e-09	0.01027161	0.01180201
	0.01078795	0.01121621	-9.978348e-10	8.910071e-09	-0.04374717	-0.04452234	-1.514595e-09	9.155843e-09
	-1.259048e-09	8.875697e-09	0.01027161	0.01180201	-1.514595e-09	9.155843e-09	-0.04557453	-0.04249918
4.4e+08	-0.06084684	-0.04926699	-1.658015e-09	9.013867e-09	0.01289789	0.01021414	-1.583672e-09	1.020514e-08
	-1.658015e-09	9.013867e-09	-0.06248289	-0.04661306	-1.235104e-09	1.005679e-08	0.01236036	0.01102147
	0.01289789	0.01021414	-1.235104e-09	1.005679e-08	-0.06066938	-0.0489986	-1.897381e-09	1.056561e-08
	-1.583672e-09	1.020514e-08	0.01236036	0.01102147	-1.897381e-09	1.056561e-08	-0.06260994	-0.0461839
4.5e+08	-0.07837391	-0.0481344	-1.645327e-09	1.033634e-08	0.0145232	0.008595665	-1.542697e-09	1.162797e-08
	-1.645327e-09	1.033634e-08	-0.07986903	-0.04481002	-1.166684e-09	1.127225e-08	0.01403217	0.009626157
	0.0145232	0.008595665	-1.166684e-09	1.127225e-08	-0.07818384	-0.04791796	-1.891421e-09	1.208241e-08
	-1.542697e-09	1.162797e-08	0.01403217	0.009626157	-1.891421e-09	1.208241e-08	-0.07999577	-0.04429806
4.6e+08	-0.09470023	-0.04157895	-1.274599e-09	1.163893e-08	0.01549654	0.006558987	-1.118165e-09	1.302406e-08
	-1.274599e-09	1.163893e-08	-0.09586184	-0.03764507	-7.813825e-10	1.245694e-08	0.01511781	0.007792104
	0.01549654	0.006558987	-7.813825e-10	1.245694e-08	-0.09451786	-0.04141205	-1.476375e-09	1.357863e-08
	-1.118165e-09	1.302406e-08	0.01511781	0.007792104	-1.476375e-09	1.357863e-08	-0.09596465	-0.03705172
4.7e+08	-0.1082058	-0.03028083	-5.648952e-10	1.280867e-08	0.01572706	0.00434005	-3.316808e-10	1.427165e-08
	-5.648952e-10	1.280867e-08	-0.1088677	-0.02585791	-9.992645e-11	1.35117e-08	0.01551725	0.005734583
	0.01572706	0.00434005	-9.992645e-11	1.35117e-08	-0.1080489	-0.03015501	-6.735401e-10	1.49251e-08
	-3.316808e-10	1.427165e-08	0.01551725	0.005734583	-6.735401e-10	1.49251e-08	-0.1089243	-0.02519217
4.8e+08	-0.1175778	-0.01537781	4.29455e-10	1.374307e-08	0.01520421	0.002185069	7.565489e-10	1.526043e-08
	4.29455e-10	1.374307e-08	-0.1176181	-0.01063506	8.265436e-10	1.434759e-08	0.01520443	0.003683013
