!$
! Info: Touchstone file created by Circ.  Input file=Tx_12in_Rx_100ohms_TxVia_60mils_RxVia_70mils.circ
!$
# Hz S RI R 50
0	0.01246746	1.569438e-25	1.634519e-09	4.172735e-27	8.477524e-05	2.442956e-23	-1.456252e-10	6.342835e-26
	1.634533e-09	4.172741e-27	0.01246318	1.906396e-25	4.459114e-09	1.446581e-26	8.391069e-05	3.040506e-23
	8.390758e-05	2.43203e-23	4.459114e-09	1.446581e-26	0.01248111	1.586672e-25	3.680931e-09	4.416288e-27
	-1.453379e-10	6.339318e-26	8.418012e-05	3.053544e-23	3.680849e-09	4.416273e-27	0.01247751	1.898111e-25
1e+07	0.01833038	0.007513368	2.108949e-09	3.585899e-09	0.0008332222	0.002269955	-2.476961e-09	1.168681e-08
	2.108948e-09	3.585899e-09	0.01850707	0.007493816	6.516059e-09	1.291902e-08	0.0008289209	0.002268015
	0.0008332063	0.002269969	6.516059e-09	1.291902e-08	0.01853064	0.00749762	-8.88415e-10	1.240272e-08
	-2.476962e-09	1.168681e-08	0.0008289238	0.002268013	-8.884149e-10	1.240272e-08	0.01834023	0.007524074
2e+07	0.02415415	0.01021937	2.972635e-09	6.389798e-09	0.001514024	0.00459594	1.793688e-09	3.494703e-09
	2.972635e-09	6.389798e-09	0.0242521	0.01012754	8.910432e-09	2.273913e-08	0.001497801	0.004595376
	0.001514031	0.004595948	8.910432e-09	2.273913e-08	0.02430293	0.01012791	-1.287649e-10	6.573549e-09
	1.793688e-09	3.494703e-09	0.001497798	0.004595377	-1.287648e-10	6.573548e-09	0.02414678	0.01024117
3e+07	0.02918009	0.0104106	3.726467e-09	8.68793e-09	0.002700364	0.006465698	3.062238e-09	5.011368e-09
	3.726467e-09	8.68793e-09	0.02919589	0.01030992	1.052495e-08	3.198107e-08	0.002666036	0.006472298
	0.002700365	0.006465698	1.052495e-08	3.198107e-08	0.02928811	0.01029346	3.362895e-09	8.839408e-09
	3.062238e-09	5.011368e-09	0.002666036	0.0064723	3.362895e-09	8.839408e-09	0.02914342	0.0104522
4e+07	0.03359188	0.00914721	4.417877e-09	1.080435e-08	0.004312991	0.00790473	3.888949e-09	5.954986e-09
	4.417877e-09	1.080435e-08	0.03352255	0.009069376	1.189139e-08	4.091432e-08	0.004256636	0.007926236
	0.00431299	0.007904731	1.189139e-08	4.091432e-08	0.03366519	0.009018324	4.108466e-09	1.119063e-08
	3.888949e-09	5.954986e-09	0.004256637	0.007926237	4.108466e-09	1.119063e-08	0.03351728	0.009220591
5e+07	0.03732417	0.006767218	4.991761e-09	1.271437e-08	0.006360664	0.008751072	4.545419e-09	6.617408e-09
	4.991761e-09	1.271437e-08	0.03717219	0.006740855	1.297779e-08	4.962082e-08	0.0062811	0.008796152
	0.006360662	0.008751072	1.297779e-08	4.962082e-08	0.03736759	0.006634098	4.466007e-09	1.331741e-08
	4.545419e-09	6.617408e-09	0.006281101	0.008796152	4.466008e-09	1.331741e-08	0.03720745	0.006888108
6e+07	0.04027269	0.003514459	5.391547e-09	1.44534e-08	0.008500393	0.009069111	4.998723e-09	7.043971e-09
	5.391547e-09	1.44534e-08	0.04004744	0.003565741	1.377722e-08	5.819001e-08	0.00839947	0.009146824
	0.008500391	0.00906911	1.377722e-08	5.819001e-08	0.04029022	0.003381786	4.639503e-09	1.537005e-08
	4.998723e-09	7.043971e-09	0.008399471	0.009146824	4.639503e-09	1.537005e-08	0.04011573	0.003699792
7e+07	0.04233748	-0.0003885753	5.532064e-09	1.607882e-08	0.01060627	0.00885798	5.087355e-09	7.315541e-09
	5.532064e-09	1.607882e-08	0.04205485	-0.00023727	1.421632e-08	6.667053e-08	0.01048878	0.008976713
	0.01060626	0.008857979	1.421632e-08	6.667053e-08	0.04233248	-0.0005176658	4.625409e-09	1.740183e-08
	5.087355e-09	7.315541e-09	0.01048878	0.008976713	4.625409e-09	1.740183e-08	0.04214779	-0.0001229618
8e+07	0.04344396	-0.004718869	5.363935e-09	1.767519e-08	0.01255413	0.008145129	4.767597e-09	7.575693e-09
	5.363935e-09	1.767519e-08	0.04312536	-0.004450189	1.430774e-08	7.518088e-08	0.01242753	0.008311749
	0.01255413	0.008145128	1.430774e-08	7.518088e-08	0.04341933	-0.00484212	4.418526e-09	1.945718e-08
	4.767597e-09	7.575693e-09	0.01242753	0.008311748	4.418526e-09	1.945718e-08	0.04323387	-0.004359628
9e+07	0.04355481	-0.009249812	4.907982e-09	1.934429e-08	0.01422837	0.006985761	4.122829e-09	7.931887e-09
	4.907981e-09	1.934429e-08	0.04322615	-0.008852482	1.413777e-08	8.384751e-08	0.01410227	0.007204875
	0.01422837	0.006985761	1.413777e-08	8.384751e-08	0.0435133	-0.009365389	4.058843e-09	2.15779e-08
	4.122829e-09	7.931887e-09	0.01410227	0.007204874	4.058843e-09	2.15779e-08	0.04334068	-0.008787215
1e+08	0.04268961	-0.01375165	4.15933e-09	2.116964e-08	0.01552188	0.005458192	3.219948e-09	8.495291e-09
	4.15933e-09	2.116964e-08	0.04238157	-0.01322098	1.374987e-08	9.274879e-08	0.01540737	0.005731571
	0.01552188	0.005458192	1.374987e-08	9.274879e-08	0.04263572	-0.01385743	3.530129e-09	2.377653e-08
	3.219948e-09	8.495291e-09	0.01540737	0.005731571	3.530129e-09	2.377653e-08	0.04249088	-0.0131807
1.1e+08	0.04087125	-0.01809887	3.319933e-09	2.307635e-08	0.01636776	0.003709576	2.14995e-09	9.200028e-09
	3.319933e-09	2.307635e-08	0.04061377	-0.01744866	1.338405e-08	1.018984e-07	0.01627667	0.004035676
	0.01636776	0.003709576	1.338405e-08	1.018984e-07	0.04080681	-0.01820305	2.938124e-09	2.611049e-08
	2.14995e-09	9.200028e-09	0.01627667	0.004035677	2.938124e-09	2.611049e-08	0.04071017	-0.01742078
1.2e+08	0.03811545	-0.02200682	2.340673e-09	2.52637e-08	0.01675226	0.001817329	8.220075e-10	1.01607e-08
	2.340673e-09	2.52637e-08	0.03792885	-0.02124879	1.299434e-08	1.113528e-07	0.01669598	0.002191108
	0.01675226	0.001817329	1.299434e-08	1.113528e-07	0.0380346	-0.02210774	2.294656e-09	2.867143e-08
	8.220075e-10	1.01607e-08	0.01669598	0.002191108	2.294656e-09	2.867143e-08	0.03801363	-0.02122875
1.3e+08	0.03457409	-0.02527886	1.261368e-09	2.777261e-08	0.01664319	-0.0001035157	-6.764638e-10	1.14725e-08
	1.261368e-09	2.777261e-08	0.03447873	-0.02443022	1.265121e-08	1.211291e-07	0.0166318	0.0003096301
	0.01664319	-0.0001035157	1.265121e-08	1.211291e-07	0.03447441	-0.02537259	1.625935e-09	3.147533e-08
	-6.764638e-10	1.14725e-08	0.0166318	0.0003096312	1.625935e-09	3.147533e-08	0.03455143	-0.02441444
1.4e+08	0.03041679	-0.02776144	1.620968e-10	3.064401e-08	0.01604653	-0.001931512	-2.249968e-09	1.319511e-08
	1.620968e-10	3.064401e-08	0.03042919	-0.02684514	1.244334e-08	1.312301e-07	0.01608787	-0.001490225
	0.01604653	-0.001931512	1.244334e-08	1.312301e-07	0.03029769	-0.02784308	9.913073e-10	3.454166e-08
	-2.249968e-09	1.319511e-08	0.01608787	-0.001490224	9.913072e-10	3.454166e-08	0.03048963	-0.02683017
1.5e+08	0.02583766	-0.02934296	-8.606483e-10	3.390137e-08	0.01499917	-0.003550093	-3.789857e-09	1.536247e-08
	-8.606483e-10	3.390137e-08	0.02596852	-0.02838673	1.246286e-08	1.416376e-07	0.01509808	-0.003094181
	0.01499917	-0.003550093	1.246286e-08	1.416376e-07	0.02570024	-0.02940725	4.605798e-10	3.787811e-08
	-3.789857e-09	1.536247e-08	0.01509808	-0.00309418	4.605798e-10	3.787811e-08	0.02601708	-0.02836922
1.6e+08	0.02104765	-0.02995761	-1.69777e-09	3.754358e-08	0.01356599	-0.004855205	-5.177144e-09	1.798014e-08
	-1.69777e-09	3.754358e-08	0.0213004	-0.02899229	1.28007e-08	1.5231e-07	0.01372361	-0.004399637
	0.01356599	-0.004855205	1.28007e-08	1.5231e-07	0.02089469	-0.02999942	1.118808e-10	4.147512e-08
	-5.177144e-09	1.798014e-08	0.01372361	-0.004399636	1.118807e-10	4.147512e-08	0.02133811	-0.02896916
1.7e+08	0.01626492	-0.02958768	-2.234313e-09	4.153897e-08	0.01183564	-0.005761859	-6.288969e-09	2.102215e-08
	-2.234313e-09	4.153897e-08	0.01663482	-0.02864528	1.354028e-08	1.631806e-07	0.01204906	-0.005322046
	0.01183564	-0.005761859	1.354028e-08	1.631806e-07	0.01610078	-0.02960247	2.693723e-11	4.530097e-08
	-6.288969e-09	2.102215e-08	0.01204906	-0.005322046	2.693715e-11	4.530097e-08	0.01666332	-0.02861383
1.8e+08	0.01170455	-0.02826387	-2.358615e-09	4.582124e-08	0.009915026	-0.006209422	-7.006627e-09	2.442899e-08
	-2.358615e-09	4.582124e-08	0.01217831	-0.02737535	1.475032e-08	1.741579e-07	0.01017718	-0.005800118
	0.009915026	-0.006209422	1.475032e-08	1.741579e-07	0.01153498	-0.02824814	2.841915e-10	4.929817e-08
	-7.006627e-09	2.442899e-08	0.01017718	-0.005800118	2.841915e-10	4.929817e-08	0.01219982	-0.02733339
1.9e+08	0.007568148	-0.02606333	-1.973552e-09	5.02883e-08	0.007922751	-0.00616539	-7.22476e-09	2.810768e-08
	-1.973552e-09	5.02883e-08	0.008124237	-0.02525629	1.647691e-08	1.851286e-07	0.008222562	-0.005799562
	0.007922751	-0.006165389	1.647691e-08	1.851286e-07	0.007399959	-0.02601498	9.499284e-10	5.338232e-08
	-7.22476e-09	2.810768e-08	0.008222563	-0.005799562	9.499285e-10	5.338232e-08	0.008141346	-0.0252023
2e+08	0.004034058	-0.02310543	-1.008788e-09	5.480531e-08	0.005981755	-0.005627398	-6.861113e-09	3.193454e-08
	-1.008788e-09	5.480531e-08	0.004643548	-0.02240194	1.873594e-08	1.959629e-07	0.006304639	-0.005315159
	0.005981755	-0.005627398	1.873594e-08	1.959629e-07	0.003874763	-0.02302408	2.068333e-09	5.744434e-08
	-6.861113e-09	3.193454e-08	0.006304639	-0.005315159	2.068333e-09	5.744434e-08	0.004659134	-0.02233512
2.1e+08	0.001248666	-0.01954549	5.675707e-10	5.921211e-08	0.004211763	-0.004623359	-5.865898e-09	3.576101e-08
	5.675707e-10	5.921211e-08	0.001876739	-0.01896011	2.150706e-08	2.065232e-07	0.004540389	-0.004371034
	0.004211763	-0.004623359	2.150706e-08	2.065232e-07	0.001106019	-0.01943263	3.651924e-09	6.135667e-08
	-5.865898e-09	3.576101e-08	0.004540389	-0.004371034	3.651924e-09	6.135667e-08	0.001893728	-0.01888041
2.2e+08	-0.000680676	-0.0155666	2.739753e-09	6.333522e-08	0.002721912	-0.003209714	-4.229644e-09	3.94226e-08
	2.739753e-09	6.333522e-08	-7.275848e-05	-0.01510487	2.473018e-08	2.166746e-07	0.003037212	-0.003019125
	0.002721912	-0.003209714	2.473018e-08	2.166746e-07	-0.0007991755	-0.01542567	5.674053e-09	6.49834e-08
	-4.229644e-09	3.94226e-08	0.003037212	-0.003019125	5.674053e-09	6.49834e-08	-5.156253e-05	-0.01501301
2.3e+08	-0.001690741	-0.01137013	5.439298e-09	6.700318e-08	0.001604066	-0.001467915	-1.988346e-09	4.275059e-08
	5.439298e-09	6.700318e-08	-0.001143265	-0.01102755	2.830568e-08	2.262975e-07	0.001886421	-0.001335936
	0.001604066	-0.001467915	2.830568e-08	2.262975e-07	-0.001778348	-0.01120647	8.065101e-09	6.81934e-08
	-1.988346e-09	4.275059e-08	0.001886421	-0.001335936	8.065101e-09	6.81934e-08	-0.001115365	-0.01092494
2.4e+08	-0.00176524	-0.007165274	8.545545e-09	7.006367e-08	0.0009272247	0.0005006276	7.75096e-10	4.55854e-08
	8.545545e-09	7.006367e-08	-0.001317431	-0.006926921	3.209888e-08	2.352999e-07	0.001157758	0.0005821982
	0.0009272247	0.0005006275	3.209888e-08	2.352999e-07	-0.001816458	-0.00698594	1.07136e-08	7.08749e-08
	7.75096e-10	4.55854e-08	0.001157758	0.0005821982	1.07136e-08	7.08749e-08	-0.001280804	-0.00681559
2.5e+08	-0.000935171	-0.003158234	1.189211e-08	7.240026e-08	0.0007333714	0.002580807	3.93373e-09	4.779035e-08
	1.189211e-08	7.240026e-08	-0.000622502	-0.002999121	3.594856e-08	2.436279e-07	0.0008952616	0.002625033
	0.0007333714	0.002580807	3.594856e-08	2.436279e-07	-0.0009461841	-0.002971678	1.34727e-08	7.294957e-08
	3.93373e-09	4.779035e-08	0.0008952616	0.002625033	1.34727e-08	7.294957e-08	-0.0005757338	-0.00288153
2.6e+08	0.0007232872	0.0004583161	1.527903e-08	7.394633e-08	0.001035008	0.004650881	7.323769e-09	4.926434e-08
	1.527903e-08	7.394633e-08	0.0008716692	0.0005722698	3.967897e-08	2.512737e-07	0.001114732	0.004675137
	0.001035008	0.004650881	3.967897e-08	2.512737e-07	0.0007542586	0.0006426724	1.617158e-08	7.438386e-08
	7.323769e-09	4.926434e-08	0.001114732	0.004675137	1.617158e-08	7.438386e-08	0.0009292928	0.0006933705
2.7e+08	0.003093237	0.003515037	1.848919e-08	7.46945e-08	0.001814504	0.006589893	1.07556e-08	4.995187e-08
	1.848919e-08	7.46945e-08	0.003056806	0.003625338	4.311405e-08	2.582788e-07	0.001802923	0.006614999
	0.001814504	0.006589893	4.311405e-08	2.582788e-07	0.003165694	0.003687307	1.863057e-08	7.519594e-08
	1.07556e-08	4.995187e-08	0.001802923	0.006614998	1.863057e-08	7.519594e-08	0.003125247	0.003747099
2.8e+08	0.006023609	0.005874387	2.130718e-08	7.469988e-08	0.00302528	0.008284981	1.402749e-08	4.984924e-08
	2.130718e-08	7.469988e-08	0.005792303	0.006027733	4.60921e-08	2.647326e-07	0.002918491	0.008334064
	0.00302528	0.008284981	4.60921e-08	2.647326e-07	0.006134657	0.006024784	2.067798e-08	7.545703e-08
	1.402749e-08	4.984924e-08	0.002918491	0.008334064	2.067798e-08	7.545703e-08	0.005870775	0.006147404
2.9e+08	0.009337427	0.007437332	2.353802e-08	7.407709e-08	0.00459472	0.009638143	1.694053e-08	4.900625e-08
	2.353802e-08	7.407709e-08	0.008912911	0.007682933	4.847929e-08	2.707667e-07	0.004394608	0.009735304
	0.00459472	0.009638143	4.847929e-08	2.707667e-07	0.009481811	0.007556762	2.216646e-08	7.528678e-08
	1.694053e-08	4.900625e-08	0.004394608	0.009735304	2.216646e-08	7.528678e-08	0.008999922	0.007798051
3e+08	0.01284135	0.008147963	2.50237e-08	7.299141e-08	0.006428618	0.01057206	1.931324e-08	4.752343e-08
	2.50237e-08	7.299141e-08	0.01223757	0.008534573	5.018043e-08	2.76545e-07	0.006143064	0.01074091
	0.006428618	0.01057206	5.018043e-08	2.76545e-07	0.01301162	0.008228604	2.298669e-08	7.484362e-08
	1.931324e-08	4.752343e-08	0.006143064	0.01074091	2.298669e-08	7.484362e-08	0.01233103	0.008643134
3.1e+08	0.01633592	0.007995814	2.565559e-08	7.164544e-08	0.008416865	0.01103467	2.099434e-08	4.554513e-08
	2.565559e-08	7.164544e-08	0.01557894	0.008568647	5.114597e-08	2.822512e-07	0.008059581	0.01129683
	0.008416865	0.01103467	5.114597e-08	2.822512e-07	0.01652277	0.008031647	2.30768e-08	7.431117e-08
	2.099434e-08	4.554513e-08	0.008059581	0.01129683	2.30768e-08	7.431117e-08	0.01567626	0.008669248
3.2e+08	0.01962605	0.007015767	2.538173e-08	7.026332e-08	0.01044003	0.01100216	2.187268e-08	4.324967e-08
	2.538173e-08	7.026332e-08	0.01875304	0.007813496	5.13748e-08	2.880757e-07	0.01003003	0.01137584
	0.01044003	0.01100216	5.13748e-08	2.880757e-07	0.01981874	0.007003029	2.242667e-08	7.388309e-08
	2.187268e-08	4.324967e-08	0.01003003	0.01137584	2.242667e-08	7.388309e-08	0.01885136	0.007905441
3.3e+08	0.0225311	0.005285622	2.420876e-08	6.907438e-08	0.01237647	0.0104804	2.188368e-08	4.083759e-08
	2.420876e-08	6.907438e-08	0.0215887	0.006337646	5.091301e-08	2.942026e-07	0.01193718	0.01097908
	0.01237647	0.0104804	5.091301e-08	2.942026e-07	0.02271803	0.005223136	2.107698e-08	7.374803e-08
	2.188368e-08	4.083759e-08	0.01193718	0.01097908	2.107698e-08	7.374803e-08	0.02168502	0.006420999
3.4e+08	0.02489413	0.002921453	2.21992e-08	6.829819e-08	0.0141095	0.009504536	2.101229e-08	3.851945e-08
	2.21992e-08	6.829819e-08	0.02393602	0.00424562	4.984933e-08	3.007985e-07	0.01366757	0.01013593
	0.0141095	0.009504536	4.984933e-08	3.007985e-07	0.02506345	0.002810831	1.911408e-08	7.407668e-08
	2.101229e-08	3.851945e-08	0.01366757	0.01013593	1.911408e-08	7.407668e-08	0.02402742	0.004321224
3.5e+08	0.02658977	7.103672e-05	1.946524e-08	6.813216e-08	0.0155343	0.008136953	1.929279e-08	3.650407e-08
	1.946524e-08	6.813216e-08	0.02567381	0.001671973	4.830842e-08	3.080037e-07	0.01511814	0.008902262
	0.0155343	0.008136953	4.830842e-08	3.080037e-07	0.0267301	-8.32748e-05	1.666181e-08	7.501203e-08
	1.929279e-08	3.650407e-08	0.01511814	0.008902262	1.666181e-08	7.501203e-08	0.02575765	0.001741407
3.6e+08	0.02753044	-0.003094279	1.616065e-08	6.874227e-08	0.0165641	0.006463661	1.680625e-08	3.498794e-08
	1.616065e-08	6.874227e-08	0.02671535	-0.001226105	4.64429e-08	3.159262e-07	0.01620231	0.00735716
	0.0165641	0.006463661	4.64429e-08	3.159262e-07	0.02763149	-0.003285133	1.387211e-08	7.666311e-08
	1.680625e-08	3.498794e-08	0.01620231	0.00735716	1.387211e-08	7.666311e-08	0.02678943	-0.001160608
3.7e+08	0.02767047	-0.006388868	1.247201e-08	7.02567e-08	0.01713537	0.004589285	1.367625e-08	3.414609e-08
	1.247201e-08	7.02567e-08	0.02701234	-0.00427725	4.442526e-08	3.246377e-07	0.01685501	0.005598345
	0.01713537	0.004589285	4.442526e-08	3.246377e-07	0.02772373	-0.006606692	1.09158e-08	7.910201e-08
	1.367625e-08	3.414609e-08	0.01685501	0.005598345	1.09158e-08	7.910201e-08	0.0270751	-0.004212937
3.8e+08	0.02700808	-0.00962277	8.610387e-09	7.276167e-08	0.01721166	0.002630983	1.006359e-08	3.412425e-08
	8.610387e-09	7.276167e-08	0.02655689	-0.007305019	4.244017e-08	3.341712e-07	0.01703658	0.003736488
	0.01721166	0.002630983	4.244017e-08	3.341712e-07	0.0270074	-0.009856017	7.974588e-09	8.236311e-08
	1.006359e-08	3.412425e-08	0.01703658	0.003736488	7.974588e-09	8.236311e-08	0.02660748	-0.007238776
3.9e+08	0.02558504	-0.0126118	4.803682e-09	7.629837e-08	0.01678589	0.0007115878	6.160223e-09	3.503202e-08
	4.803682e-09	7.629837e-08	0.0253814	-0.01013714	4.067738e-08	3.445205e-07	0.01673519	0.001888762
	0.01678589	0.0007115878	4.067738e-08	3.445205e-07	0.02552707	-0.01284753	5.234561e-09	8.644334e-08
	6.160223e-09	3.503202e-08	0.01673519	0.001888762	5.234561e-09	8.644334e-08	0.02541976	-0.01006569
4e+08	0.02348402	-0.01518732	1.289374e-09	8.086023e-08	0.01588099	-0.001047626	2.18249e-09	3.693674e-08
	1.289374e-09	8.086023e-08	0.02355632	-0.01261448	3.932488e-08	3.55639e-07	0.01596763	0.0001719863
	0.01588099	-0.001047626	3.932488e-08	3.55639e-07	0.02336852	-0.01541186	2.880951e-09	9.130241e-08
	2.18249e-09	3.693674e-08	0.01596763	0.0001719863	2.880951e-09	9.130241e-08	0.02358326	-0.01253459
4.1e+08	0.02082388	-0.01720509	-1.693166e-09	8.638994e-08	0.01454869	-0.00253415	-1.636824e-09	3.985783e-08
	-1.693166e-09	8.638994e-08	0.02118604	-0.01459926	3.856191e-08	3.674397e-07	0.01477849	-0.001304264
	0.01454869	-0.00253415	3.856191e-08	3.674397e-07	0.0206539	-0.01740484	1.093122e-09	9.68623e-08
	-1.636824e-09	3.985783e-08	0.01477849	-0.001304264	1.093122e-09	9.68623e-08	0.02120314	-0.01450794
4.2e+08	0.01775295	-0.01855287	-3.911777e-09	9.277654e-08	0.01286675	-0.003651008	-5.057936e-09	4.376185e-08
	-3.911777e-09	9.277654e-08	0.01840299	-0.01598212	3.85511e-08	3.797952e-07	0.01323769	-0.002444177
	0.01286675	-0.003651008	3.85511e-08	3.797952e-07	0.01753474	-0.01871507	3.872694e-11	1.030061e-07
	-5.057936e-09	4.376185e-08	0.01323769	-0.002444177	3.872694e-11	1.030061e-07	0.01841259	-0.01587683
4.3e+08	0.01444081	-0.01915629	-5.152914e-09	9.985329e-08	0.01093443	-0.004322672	-7.845513e-09	4.855895e-08
	-5.152914e-09	9.985329e-08	0.0153603	-0.01668761	3.942958e-08	3.925389e-07	0.01143648	-0.003171473
	0.01093443	-0.004322672	3.942958e-08	3.925389e-07	0.01418366	-0.01926976	-1.340477e-10	1.095768e-07
	-7.845513e-09	4.855895e-08	0.01143648	-0.003171473	-1.340477e-10	1.095768e-07	0.01536532	-0.01656644
4.4e+08	0.01106899	-0.01898259	-5.235611e-09	1.073979e-07	0.008866835	-0.00449976	-9.782142e-09	5.410157e-08
	-5.235611e-09	1.073979e-07	0.01222344	-0.01667796	4.129883e-08	4.054687e-07	0.009482132	-0.003434063
	0.008866835	-0.00449976	4.129883e-08	4.054687e-07	0.01078476	-0.01903848	6.93385e-10	1.163776e-07
	-9.782142e-09	5.410157e-08	0.009482132	-0.003434063	6.93385e-10	1.163776e-07	0.01222724	-0.01653976
4.5e+08	0.007820909	-0.01804221	-4.0275e-09	1.151368e-07	0.006788035	-0.00416222	-1.06834e-08	6.018663e-08
	-4.0275e-09	1.151368e-07	0.009161155	-0.01595467	4.421409e-08	4.183532e-07	0.007491683	-0.003207313
	0.006788035	-0.00416222	4.421409e-08	4.183532e-07	0.007523482	-0.01803461	2.597792e-09	1.231751e-07
	-1.06834e-08	6.018663e-08	0.007491683	-0.003207313	2.597792e-09	1.231751e-07	0.009167343	-0.01579916
4.6e+08	0.004871853	-0.01638793	-1.461367e-09	1.227548e-07	0.004823741	-0.003320769	-1.041345e-08	6.656213e-08
	-1.461367e-09	1.227548e-07	0.006336379	-0.01455816	4.81745e-08	4.309423e-07	0.005584955	-0.002495679
	0.004823741	-0.003320769	4.81745e-08	4.309423e-07	0.004576371	-0.01631429	5.601095e-09	1.297076e-07
	-1.041345e-08	6.656213e-08	0.005584955	-0.002495679	5.601095e-09	1.297076e-07	0.006348557	-0.01438595
4.7e+08	0.002379323	-0.01411168	2.449799e-09	1.299108e-07	0.003093714	-0.00201648	-8.899707e-09	7.293892e-08
	2.449799e-09	1.299108e-07	0.003897393	-0.01256514	5.311539e-08	4.429807e-07	0.003877418	-0.001332607
	0.003093714	-0.00201648	5.311539e-08	4.429807e-07	0.002101383	-0.01397317	9.658342e-09	1.356975e-07
	-8.899707e-09	7.293892e-08	0.003877418	-0.001332607	9.658342e-09	1.356975e-07	0.00391896	-0.01237768
4.8e+08	0.0004744517	-0.01133939	7.602382e-09	1.3626e-07	0.001704508	-0.0003185188	-6.144005e-09	7.900734e-08
	7.602382e-09	1.3626e-07	0.0019699	-0.01008415	5.89047e-08	4.542263e-07	0.002473235	0.0002213267
	0.001704508	-0.0003185188	5.89047e-08	4.542263e-07	0.0002291931	-0.01114082	1.46496e-08	1.408708e-07
