!$
! Info: Touchstone file created by Circ.  Input file=Tx_16in_Rx_85ohms_TxVia_60mils_RxVia_70mils.circ
!$
# Hz S RI R 50
0	0.01285457	1.993588e-25	-8.581113e-05	7.296763e-24	0.0001061628	2.519245e-23	-8.577378e-05	2.821436e-24
	-8.581113e-05	7.296704e-24	0.01285029	2.440225e-25	-8.584592e-05	1.177216e-23	0.0001052989	3.135502e-23
	0.0001052952	2.507977e-23	-8.584593e-05	1.177298e-23	0.01286821	2.015307e-25	-8.580791e-05	7.210834e-24
	-8.577378e-05	2.820475e-24	0.0001055683	3.148947e-23	-8.580789e-05	7.209115e-24	0.0128646	2.429765e-25
1e+07	0.01536974	-0.01594882	-0.0001822913	-2.723479e-05	0.0007151194	0.002868317	-1.328508e-05	-2.193078e-06
	-0.0001822913	-2.723479e-05	0.01540239	-0.01595667	-4.704652e-05	0.0001334877	0.0007105348	0.00287703
	0.0007151039	0.002868331	-4.704652e-05	0.0001334877	0.01543956	-0.01592726	-0.0001822899	-2.722793e-05
	-1.328508e-05	-2.193078e-06	0.0007105378	0.002877028	-0.0001822899	-2.722793e-05	0.01536661	-0.01593927
2e+07	0.01127763	-0.03532072	-0.00016022	5.077223e-05	0.002167448	0.005273722	-1.417087e-05	-2.386485e-05
	-0.00016022	5.077223e-05	0.0112416	-0.03533481	-3.211239e-05	0.0001777489	0.002150657	0.005296143
	0.002167455	0.00527373	-3.211239e-05	0.0001777489	0.01134212	-0.03529753	-0.0001602129	5.072414e-05
	-1.417087e-05	-2.386485e-05	0.002150654	0.005296143	-0.0001602129	5.072414e-05	0.01122203	-0.03528759
3e+07	-0.0005085654	-0.05338373	-0.0001551179	5.641041e-05	0.004274217	0.007015641	-3.468641e-05	-2.306201e-05
	-0.0001551179	5.641041e-05	-0.0006333712	-0.05335614	1.208307e-05	0.0001980307	0.004240883	0.007060421
	0.004274218	0.007015642	1.208307e-05	0.0001980307	-0.0004426567	-0.05334927	-0.0001551212	5.632166e-05
	-3.468641e-05	-2.306201e-05	0.004240883	0.007060423	-0.0001551212	5.632166e-05	-0.0006417828	-0.05329304
4e+07	-0.01790924	-0.06680717	-0.0001490701	6.944306e-05	0.006768364	0.007931361	-5.025251e-05	-1.365942e-05
	-0.0001490701	6.944306e-05	-0.01812663	-0.06669153	6.361558e-05	0.0001840115	0.006718908	0.008009074
	0.006768362	0.007931362	6.361558e-05	0.0001840115	-0.01783835	-0.06676247	-0.0001491064	6.930452e-05
	-5.025251e-05	-1.365942e-05	0.006718909	0.008009075	-0.0001491064	6.930452e-05	-0.01812719	-0.06661592
5e+07	-0.03871174	-0.07400379	-0.0001406018	8.569212e-05	0.009344045	0.007959926	-6.085276e-05	9.824052e-07
	-0.0001406018	8.569212e-05	-0.03900587	-0.0737548	0.0001025455	0.0001380777	0.009284166	0.008080741
	0.009344044	0.007959926	0.0001025455	0.0001380777	-0.03863456	-0.07395163	-0.0001407033	8.55088e-05
	-6.085276e-05	9.824052e-07	0.009284167	0.008080741	-0.0001407033	8.55088e-05	-0.03900098	-0.07366692
6e+07	-0.06055223	-0.07431577	-0.0001287733	0.0001029832	0.01170269	0.007148519	-6.602731e-05	1.907085e-05
	-0.0001287733	0.0001029832	-0.06088849	-0.07389715	0.0001129722	7.09854e-05	0.01164284	0.007319917
	0.01170269	0.007148518	0.0001129722	7.09854e-05	-0.06046924	-0.07425893	-0.000128972	0.0001027793
	-6.602731e-05	1.907085e-05	0.01164284	0.007319917	-0.000128972	0.0001027793	-0.06087895	-0.07379598
7e+07	-0.0811196	-0.06790681	-0.0001132723	0.0001195719	0.01358991	0.005637243	-6.519051e-05	3.907855e-05
	-0.0001132723	0.0001195719	-0.08144963	-0.06729829	8.585043e-05	-7.358408e-07	0.0135439	0.005862138
	0.0135899	0.005637242	8.585043e-05	-7.358409e-07	-0.08103248	-0.06784734	-0.0001135889	0.0001193902
	-6.519051e-05	3.907855e-05	0.0135439	0.005862138	-0.0001135889	0.0001193902	-0.08143478	-0.06718271
8e+07	-0.09836845	-0.05565315	-9.43732e-05	0.0001340012	0.01482026	0.003633452	-5.778205e-05	5.939833e-05
	-9.43732e-05	0.0001340012	-0.09863726	-0.05485473	2.03153e-05	-5.844819e-05	0.01480331	0.003908964
	0.01482026	0.003633452	2.03153e-05	-5.844819e-05	-0.09827942	-0.05559203	-9.480789e-05	0.0001338956
	-5.778205e-05	5.939833e-05	0.01480331	0.003908964	-9.480789e-05	0.0001338956	-0.09861534	-0.05472417
9e+07	-0.1106957	-0.03899503	-7.280168e-05	0.0001451786	0.01528975	0.001382629	-4.324245e-05	7.823078e-05
	-7.280168e-05	0.0001451787	-0.1108497	-0.03802839	-7.728508e-05	-8.513432e-05	0.01531604	0.001699684
	0.01528974	0.001382629	-7.728508e-05	-8.513432e-05	-0.110607	-0.03893222	-7.332886e-05	0.0001452039
	-4.324245e-05	7.823078e-05	0.01531604	0.001699684	-7.332886e-05	0.0001452039	-0.1108182	-0.03788334
1e+08	-0.1170674	-0.01975752	-4.955913e-05	0.000152471	0.01498053	-0.0008589598	-1.929538e-05	9.336834e-05
	-4.955913e-05	0.000152471	-0.117062	-0.01866452	-0.0002022649	-6.803343e-05	0.01506084	-0.0005151117
	0.01498053	-0.0008589597	-0.0002022649	-6.803343e-05	-0.1169805	-0.01969207	-5.013005e-05	0.0001526706
	-1.929538e-05	9.336834e-05	0.01506084	-0.0005151117	-5.013005e-05	0.0001526706	-0.1170188	-0.01850685
1.1e+08	-0.1170631	6.888298e-05	-2.591811e-05	0.0001556703	0.01394065	-0.002866865	6.902713e-06	9.250187e-05
	-2.591811e-05	0.0001556703	-0.1168698	0.001228227	-0.0003236556	-3.571903e-05	0.01408007	-0.00251522
	0.01394065	-0.002866865	-0.0003236556	-3.571903e-05	-0.1169796	0.0001368459	-2.646688e-05	0.0001560612
	6.902713e-06	9.250187e-05	0.01408007	-0.00251522	-2.646688e-05	0.0001560612	-0.1168122	0.001396537
1.2e+08	-0.1108977	0.01844808	-2.604278e-06	0.0001548074	0.01228056	-0.004410019	2.804724e-05	8.675694e-05
	-2.604278e-06	0.0001548074	-0.1105121	0.01960589	-0.0004124655	4.1182e-05	0.01247711	-0.004071536
	0.01228056	-0.004410019	-0.0004124655	4.1182e-05	-0.1108197	0.01852059	-3.056983e-06	0.000155374
	2.804724e-05	8.675694e-05	0.01247711	-0.004071536	-3.056983e-06	0.000155374	-0.110438	0.01977984
1.3e+08	-0.09940818	0.03355773	1.951102e-05	0.0001503282	0.01018501	-0.005321336	4.441768e-05	7.804454e-05
	1.951102e-05	0.0001503282	-0.09885013	0.03464488	-0.0004644032	0.0001496497	0.01042896	-0.00501629
	0.01018501	-0.005321336	-0.0004644032	0.0001496497	-0.09933613	0.03363719	1.921534e-05	0.0001510247
	4.441768e-05	7.804454e-05	0.01042896	-0.005016289	1.921534e-05	0.0001510247	-0.09875998	0.03481855
1.4e+08	-0.0839361	0.04393333	3.986679e-05	0.0001428379	0.007876323	-0.005495894	5.2942e-05	7.065093e-05
	3.986679e-05	0.0001428379	-0.08325059	0.04488842	-0.0004730664	0.0002733649	0.008150545	-0.005241009
	0.007876323	-0.005495894	-0.0004730664	0.0002733649	-0.08386979	0.0440221	3.976116e-05	0.0001435956
	5.2942e-05	7.065093e-05	0.008150544	-0.005241008	3.976116e-05	0.0001435956	-0.0831472	0.04505596
1.5e+08	-0.0662029	0.04860171	5.807582e-05	0.0001330312	0.005600408	-0.004900485	6.070439e-05	6.20781e-05
	5.807582e-05	0.0001330312	-0.06545677	0.04938	-0.0004382052	0.0003948549	0.005881787	-0.004706281
	0.005600408	-0.004900485	-0.0004382052	0.0003948549	-0.06614123	0.04870184	5.815928e-05	0.0001337763
	6.070439e-05	6.20781e-05	0.005881786	-0.00470628	5.815928e-05	0.0001337763	-0.06534532	0.04953655
1.6e+08	-0.04814519	0.04717594	7.412487e-05	0.000121569	0.00360588	-0.003580664	6.736131e-05	5.246836e-05
	7.412487e-05	0.000121569	-0.04742096	0.04775703	-0.0003662934	0.0004985301	0.003867632	-0.003449373
	0.00360588	-0.003580664	-0.0003662934	0.0004985301	-0.04808645	0.04728893	7.436281e-05	0.0001222383
	6.736131e-05	5.246836e-05	0.003867632	-0.003449372	7.436281e-05	0.0001222383	-0.04730853	0.04789963
1.7e+08	-0.03172432	0.03989915	8.822889e-05	0.0001089299	0.002118907	-0.001661841	7.266947e-05	4.203026e-05
	8.822889e-05	0.0001089299	-0.03111114	0.04029236	-0.0002691631	0.0005735026	0.002333604	-0.001586214
	0.002118907	-0.001661841	-0.0002691631	0.0005735026	-0.03166641	0.04002578	8.856218e-05	0.0001094869
	7.266947e-05	4.203026e-05	0.002333604	-0.001586213	8.856218e-05	0.0001094869	-0.03100598	0.04042059
1.8e+08	-0.01872499	0.02762755	0.0001007003	9.532552e-05	0.001316066	0.0006585731	7.64695e-05	3.101176e-05
	0.0001007003	9.532552e-05	-0.01830791	0.0278739	-0.0001613465	0.0006154466	0.00145901	0.0006953499
	0.001316066	0.0006585731	-0.0001613465	0.0006154466	-0.0186657	0.02776781	0.0001010618	9.577019e-05
	7.64695e-05	3.101176e-05	0.00145901	0.0006953502	0.0001010618	9.577019e-05	-0.01821848	0.02799033
1.9e+08	-0.01056389	0.01174744	0.0001117829	8.069509e-05	0.001299296	0.003129837	7.867725e-05	1.967855e-05
	0.0001117829	8.069509e-05	-0.01041251	0.01191763	-5.677013e-05	0.0006270025	0.001351846	0.003153031
	0.001299296	0.003129837	-5.677013e-05	0.0006270025	-0.01050125	0.01190051	0.0001121176	8.106401e-05
	7.867725e-05	1.967855e-05	0.001351846	0.003153031	0.0001121176	8.106401e-05	-0.0103464	0.01202787
2e+08	-0.008132138	-0.005970429	0.0001215022	6.479699e-05	0.002078306	0.005476797	7.927554e-05	8.294483e-06
	0.0001215022	6.479699e-05	-0.008290265	-0.005782058	3.439704e-05	0.0006165408	0.002030738	0.005517866
	0.002078306	0.005476797	3.439704e-05	0.0006165408	-0.008064698	-0.005805993	0.0001217858	6.515294e-05
	7.927554e-05	8.294483e-06	0.002030738	0.005517866	0.0001217858	6.515294e-05	-0.008253078	-0.005669727
2.1e+08	-0.01169458	-0.02356525	0.0001295896	4.737511e-05	0.003565349	0.007435404	7.830284e-05	-2.894377e-06
	0.0001295896	4.737511e-05	-0.0121723	-0.02325045	0.0001079257	0.0005955394	0.003418853	0.007528784
	0.00356535	0.007435404	0.0001079257	0.0005955394	-0.01162161	-0.02339123	0.0001298396	4.778781e-05
	7.830284e-05	-2.894377e-06	0.003418853	0.007528784	0.0001298396	4.778781e-05	-0.01216675	-0.02312578
2.2e+08	-0.02086224	-0.03910582	0.000135516	2.834463e-05	0.005584992	0.008788621	7.583848e-05	-1.367063e-05
	0.000135516	2.834463e-05	-0.02163184	-0.03855477	0.0001661408	0.0005752248	0.005352498	0.008967887
	0.005584992	0.008788621	0.0001661408	0.0005752248	-0.0207838	-0.038924	0.000135792	2.886744e-05
	7.583848e-05	-1.367063e-05	0.005352498	0.008967887	0.000135792	2.886744e-05	-0.02165708	-0.03840662
2.3e+08	-0.03464332	-0.0509061	0.0001386277	7.927645e-06	0.007897897	0.009395677	7.198689e-05	-2.384879e-05
	0.0001386277	7.927645e-06	-0.0356398	-0.05002074	0.0002168002	0.0005633722	0.007603547	0.009689509
	0.007897897	0.009395677	0.0002168002	0.0005633722	-0.03456018	-0.05071794	0.0001390192	8.576321e-06
	7.198689e-05	-2.384879e-05	0.007603547	0.009689509	0.0001390192	8.576321e-06	-0.03569115	-0.04983833
2.4e+08	-0.05156508	-0.05770734	0.000138335	-1.331203e-05	0.0102341	0.009208998	6.686542e-05	-3.327117e-05
	0.000138335	-1.331203e-05	-0.05269137	-0.056414	0.0002705731	0.0005621072	0.009911321	0.009637435
	0.0102341	0.009208997	0.0002705731	0.0005621072	-0.05147842	-0.05751368	0.0001389395	-1.257231e-05
	6.686542e-05	-3.327117e-05	0.009911321	0.009637435	0.0001389395	-1.257231e-05	-0.0527605	-0.05618826
2.5e+08	-0.06984749	-0.05880397	0.0001342848	-3.454269e-05	0.01232909	0.008276281	6.059737e-05	-4.180088e-05
	0.0001342848	-3.454269e-05	-0.07098393	-0.05706365	0.0003378059	0.0005672581	0.01201742	0.008847744
	0.01232909	0.008276281	0.0003378059	0.0005672581	-0.06975859	-0.05860497	0.0001351816	-3.379816e-05
	6.059737e-05	-4.180088e-05	0.01201742	0.008847744	0.0001351816	-3.379816e-05	-0.07105952	-0.05678845
2.6e+08	-0.08760328	-0.05410093	0.0001264609	-5.481358e-05	0.01395603	0.006728875	5.3312e-05	-4.931456e-05
	0.0001264609	-5.481358e-05	-0.08862018	-0.05191579	0.0004254621	0.0005693435	0.01369701	0.00743837
	0.01395603	0.006728875	0.0004254621	0.0005693435	-0.08751322	-0.05389612	0.0001276868	-5.418972e-05
	5.3312e-05	-4.931456e-05	0.01369701	0.00743837	0.0001276868	-5.418972e-05	-0.08868903	-0.05158891
2.7e+08	-0.103038	-0.04410159	0.0001151916	-7.322225e-05	0.01494931	0.004760443	4.514775e-05	-5.569929e-05
	0.0001151916	-7.322225e-05	-0.1038098	-0.04151693	0.0005349568	0.0005558617	0.0147819	0.005589237
	0.01494931	0.004760443	0.0005349568	0.0005558617	-0.1029473	-0.04389011	0.0001167248	-7.286105e-05
	4.514775e-05	-5.569929e-05	0.0147819	0.005589237	0.0001167248	-7.286105e-05	-0.1038582	-0.04114064
2.8e+08	-0.1146276	-0.02983498	0.00010108	-8.905069e-05	0.01521762	0.002601063	3.625641e-05	-6.085374e-05
	0.00010108	-8.905069e-05	-0.1150472	-0.02693641	0.0006613501	0.0005142362	0.01517362	0.003517935
	0.01521762	0.002601063	0.0006613501	0.0005142362	-0.1145364	-0.02961583	0.0001028359	-8.908237e-05
	3.625641e-05	-6.085374e-05	0.01517362	0.003517935	0.0001028359	-8.908237e-05	-0.1150624	-0.0265175
2.9e+08	-0.1212588	-0.01273657	8.489099e-05	-0.0001018426	0.01474724	0.0004913224	2.680447e-05	-6.469214e-05
	8.489099e-05	-0.0001018426	-0.12125	-0.009642618	0.0007939554	0.0004347454	0.01484732	0.001455315
	0.01474724	0.0004913224	0.0007939554	0.0004347454	-0.1211667	-0.01250889	8.67317e-05	-0.0001023579
	2.680447e-05	-6.469214e-05	0.01484732	0.001455315	8.67317e-05	-0.0001023579	-0.1212219	-0.009191964
3e+08	-0.1223231	0.005501267	6.743275e-05	-0.0001114219	0.01359783	-0.001340668	1.697181e-05	-6.714852e-05
	6.743275e-05	-0.0001114219	-0.1218506	0.008650313	0.0009181541	0.0003128337	0.01384862	-0.0003762604
	0.01359783	-0.001340668	0.0009181541	0.0003128337	-0.1222291	0.005737999	6.918806e-05	-0.000112451
	1.697181e-05	-6.714852e-05	0.01384862	-0.0003762604	6.918806e-05	-0.000112451	-0.1217728	0.009118707
3.1e+08	-0.1177621	0.0230941	4.942918e-05	-0.0001177945	0.01189335	-0.002698303	6.949963e-06	-6.818057e-05
	4.942918e-05	-0.0001177945	-0.1168373	0.02615009	0.001015586	0.0001427465	0.01228597	-0.001781113
	0.01189335	-0.002698303	0.001015586	0.0001427465	-0.1176651	0.02333996	5.092303e-05	-0.0001192974
	6.949963e-06	-6.818057e-05	0.01228597	-0.001781113	5.092303e-05	-0.0001192974	-0.1167082	0.02662045
3.2e+08	-0.1080649	0.03833254	3.151673e-05	-0.0001211383	0.009810004	-0.003431797	-3.062961e-06	-6.777179e-05
	3.151673e-05	-0.0001211383	-0.1067475	0.04115489	0.001064669	-7.2851e-05	0.01032015	-0.002605242
	0.009810004	-0.003431797	0.001064669	-7.2851e-05	-0.107964	0.03858717	3.259739e-05	-0.0001230064
	-3.062961e-06	-6.777179e-05	0.01032015	-0.002605242	3.259739e-05	-0.0001230064	-0.1065707	0.04161124
3.3e+08	-0.09422007	0.04974072	1.420783e-05	-0.0001220073	0.007561663	-0.003450487	-1.286802e-05	-6.592805e-05
	1.420783e-05	-0.0001220073	-0.09261389	0.05221175	0.00105813	-0.0003028308	0.008151524	-0.002748841
	0.007561663	-0.003450487	0.00105813	-0.0003028308	-0.09411439	0.05000335	1.478326e-05	-0.0001240818
	-1.286802e-05	-6.592805e-05	0.008151524	-0.002748841	1.478326e-05	-0.0001240818	-0.09239827	0.05263975
3.4e+08	-0.07762463	0.05621582	-2.28476e-06	-0.0001208765	0.005382781	-0.002732282	-2.225951e-05	-6.268008e-05
	-2.28476e-06	-0.0001208765	-0.07586952	0.05825467	0.0009926268	-0.0005290251	0.006004364	-0.00217651
	0.005382782	-0.002732282	0.0009926268	-0.0005290251	-0.07751358	0.0564853	-2.234526e-06	-0.0001229773
	-2.225951e-05	-6.268008e-05	0.006004364	-0.00217651	-2.234526e-06	-0.0001229773	-0.07562841	0.05864329
3.5e+08	-0.05995533	0.05713793	-1.797582e-05	-0.0001181642	0.003508046	-0.001329429	-3.102965e-05	-5.809137e-05
	-1.797582e-05	-0.0001181642	-0.05821426	0.05871159	0.0008718958	-0.0007330966	0.004107832	-0.000924243
	0.003508046	-0.001329429	0.0008718958	-0.0007330966	-0.05983876	0.05741291	-1.839688e-05	-0.0001201252
	-3.102965e-05	-5.809137e-05	0.004107832	-0.000924243	-1.839688e-05	-0.0001201252	-0.05796426	0.0590544
3.6e+08	-0.04300941	0.0524397	-3.305424e-05	-0.0001141254	0.002149	0.0006313058	-3.897306e-05	-5.226024e-05
	-3.305424e-05	-0.0001141254	-0.04145217	0.05356958	0.0007062209	-0.0008995317	0.0026734	0.0008987986
	0.002149	0.0006313058	0.0007062209	-0.0008995317	-0.04288761	0.05271876	-3.383251e-05	-0.0001158253
	-3.897306e-05	-5.226024e-05	0.0026734	0.0008987986	-3.383251e-05	-0.0001158253	-0.04121161	0.05386575
3.7e+08	-0.02852596	0.04262502	-4.777351e-05	-0.0001087753	0.001469196	0.002956359	-4.589479e-05	-4.532417e-05
	-4.777351e-05	-0.0001087753	-0.02731098	0.04338798	0.0005106419	-0.001018123	0.001870299	0.003116194
	0.001469196	0.002956359	0.0005106419	-0.001018123	-0.02839974	0.04290679	-4.876277e-05	-0.0001101607
	-4.589479e-05	-4.532417e-05	0.001870299	0.003116194	-4.876277e-05	-0.0001101607	-0.02709799	0.04364274
3.8e+08	-0.01800448	0.02872948	-6.230481e-05	-0.0001018782	0.001561189	0.005402628	-5.162265e-05	-3.746138e-05
	-6.230481e-05	-0.0001018782	-0.01726061	0.0292527	0.0003021954	-0.001085425	0.00180221	0.005499661
	0.001561189	0.005402628	0.0003021954	-0.001085425	-0.01787517	0.02901279	-6.336284e-05	-0.0001029701
	-5.162265e-05	-3.746138e-05	0.00180221	0.005499661	-6.336284e-05	-0.0001029701	-0.01709117	0.02947708
3.9e+08	-0.012541	0.01222096	-7.659262e-05	-9.302231e-05	0.002429927	0.007704066	-5.602041e-05	-2.888562e-05
	-7.659262e-05	-9.302231e-05	-0.01235145	0.01267067	9.676446e-05	-0.001104792	0.002489753	0.007793927
	0.002429927	0.007704066	9.676446e-05	-0.001104792	-0.01241044	0.01250502	-7.761709e-05	-9.390474e-05
	-5.602041e-05	-2.888562e-05	0.002489753	0.007793927	-7.761709e-05	-9.390474e-05	-0.01223749	0.0128807
4e+08	-0.01270362	-0.005152674	-9.026628e-05	-8.177261e-05	0.003987059	0.009604771	-5.899829e-05	-1.9835e-05
	-9.026628e-05	-8.177261e-05	-0.01309415	-0.004587615	-9.373212e-05	-0.001084938	0.00386335	0.009748418
	0.003987059	0.009604771	-9.373212e-05	-0.001084938	-0.01257407	-0.004868005	-9.122108e-05	-8.256415e-05
	-5.899829e-05	-1.9835e-05	0.00386335	0.009748418	-9.122108e-05	-8.256415e-05	-0.01304204	-0.004372414
4.1e+08	-0.01846616	-0.02155245	-0.0001026507	-6.785985e-05	0.006059001	0.01089329	-6.051754e-05	-1.055733e-05
	-0.0001026507	-6.785985e-05	-0.01939936	-0.02068059	-0.0002631222	-0.001037342	0.005769412	0.01115069
	0.006059001	0.01089329	-0.0002631222	-0.001037342	-0.01834008	-0.02126645	-0.0001035751	-6.867536e-05
	-6.051754e-05	-1.055733e-05	0.005769412	0.01115069	-0.0001035751	-6.867536e-05	-0.0194089	-0.02043912
4.2e+08	-0.02921105	-0.03525023	-0.0001128838	-5.134023e-05	0.008408596	0.01143169	-6.05885e-05	-1.295758e-06
	-0.0001128838	-5.134023e-05	-0.03058769	-0.03389877	-0.0004112767	-0.0009731605	0.007989856	0.01185523
	0.008408596	0.01143169	-0.0004112767	-0.0009731605	-0.02909073	-0.03496119	-0.0001138817	-5.2252e-05
	-6.05885e-05	-1.295758e-06	0.007989856	0.01185523	-0.0001138817	-5.2252e-05	-0.03065175	-0.03361061
4.3e+08	-0.04380192	-0.04481685	-0.0001201077	-3.266748e-05	0.01076679	0.01117355	-5.926427e-05	7.721997e-06
	-0.0001201077	-3.266748e-05	-0.04546953	-0.04285157	-0.0005428732	-0.0009004458	0.01027161	0.01180201
	0.01076679	0.01117355	-0.0005428732	-0.0009004458	-0.04368907	-0.04452209	-0.0001213182	-3.367624e-05
	-5.926427e-05	7.721997e-06	0.01027161	0.01180201	-0.0001213182	-3.367624e-05	-0.04557453	-0.04249918
4.4e+08	-0.06071508	-0.04927176	-0.0001236688	-1.265079e-05	0.01286833	0.01016777	-5.663266e-05	1.629021e-05
	-0.0001236688	-1.265079e-05	-0.06248289	-0.04661306	-0.0006650108	-0.0008223828	0.01236036	0.01102147
	0.01286833	0.01016777	-0.0006650108	-0.0008223828	-0.06061042	-0.04896785	-0.000125226	-1.367439e-05
	-5.663266e-05	1.629021e-05	0.01236036	0.01102147	-0.000125226	-1.367439e-05	-0.06260994	-0.0461839
4.5e+08	-0.07821055	-0.04817681	-0.0001232635	7.683381e-06	0.01448479	0.00854834	-5.28091e-05	2.42287e-05
	-0.0001232635	7.683381e-06	-0.07986903	-0.04481002	-0.000784347	-0.0007369534	0.01403217	0.009626157
	0.01448479	0.00854834	-0.000784347	-0.0007369534	-0.07811346	-0.04786003	-0.0001252545	6.800286e-06
	-5.28091e-05	2.42287e-05	0.01403217	0.009626157	-0.0001252545	6.800286e-06	-0.07999577	-0.04429806
4.6e+08	-0.09451898	-0.0416664	-0.0001189888	2.727586e-05	0.01544969	0.0065134	-4.793024e-05	3.138504e-05
	-0.0001189888	2.727586e-05	-0.09586184	-0.03764507	-0.000904516	-0.0006380188	0.01511781	0.007792104
	0.01544969	0.0065134	-0.000904516	-0.0006380188	-0.09442745	-0.04133322	-0.0001214216	2.673313e-05
	-4.793024e-05	3.138504e-05	0.01511781	0.007792104	-0.0001214216	2.673313e-05	-0.09596465	-0.03705172
4.7e+08	-0.1080218	-0.03041601	-0.000111299	4.520767e-05	0.01567293	0.00429858	-4.214763e-05	3.763614e-05
	-0.000111299	4.520767e-05	-0.1088677	-0.02585791	-0.001024444	-0.0005174635	0.01551725	0.005734583
	0.01567293	0.00429858	-0.001024444	-0.0005174635	-0.1079325	-0.03006369	-0.0001140869	4.520857e-05
	-4.214763e-05	3.763614e-05	0.01551725	0.005734583	-0.0001140869	4.520857e-05	-0.1089243	-0.02519217
