!$
! Info: Touchstone file created by Circ.  Input file=Tx_16in_Rx_100ohms_TxVia_60mils_RxVia_70mils.circ
!$
# Hz S RI R 50
0	0.01650288	2.21965e-25	3.017981e-08	6.379262e-26	0.0001076747	3.609947e-23	6.420829e-08	1.501222e-26
	3.01798e-08	6.379237e-26	0.01649821	2.420484e-25	6.219256e-08	2.077899e-25	0.0001044699	4.030028e-23
	0.000108902	3.507307e-23	6.219257e-08	2.077888e-25	0.0165132	2.201043e-25	2.334533e-08	8.515269e-26
	6.420831e-08	1.501252e-26	0.0001047391	4.04731e-23	2.334563e-08	8.515825e-26	0.01651242	2.410115e-25
1e+07	0.02478943	0.008831622	5.687443e-08	8.608162e-08	0.001196139	0.002863057	1.64076e-07	2.435436e-07
	5.687444e-08	8.608162e-08	0.02477953	0.008831406	8.517485e-08	2.796038e-07	0.001191073	0.002864864
	0.00119621	0.002863025	8.517485e-08	2.796038e-07	0.02456788	0.008878696	4.729731e-08	1.216558e-07
	1.64076e-07	2.435436e-07	0.001191076	0.002864862	4.729731e-08	1.216558e-07	0.02455679	0.008879072
2e+07	0.0327164	0.0105899	1.051383e-07	1.372741e-07	0.002390759	0.005683197	3.820896e-07	3.217483e-07
	1.051383e-07	1.372741e-07	0.03267755	0.01059708	1.4146e-07	4.730009e-07	0.002371989	0.005691945
	0.002390745	0.005683159	1.4146e-07	4.730009e-07	0.03259015	0.01074432	1.104485e-07	1.558779e-07
	3.820896e-07	3.217483e-07	0.002371986	0.005691944	1.104485e-07	1.558779e-07	0.0325466	0.01075366
3e+07	0.03914649	0.008647344	1.591015e-07	1.617909e-07	0.004331632	0.007688347	6.352279e-07	2.806371e-07
	1.591015e-07	1.617908e-07	0.03906435	0.008679713	1.821305e-07	6.57185e-07	0.004293624	0.007712739
	0.004331628	0.007688347	1.821305e-07	6.57185e-07	0.03910311	0.008828348	1.74218e-07	1.789665e-07
	6.352279e-07	2.806371e-07	0.004293623	0.00771274	1.74218e-07	1.789665e-07	0.03901148	0.008866785
4e+07	0.04410231	0.004554001	2.078642e-07	1.592288e-07	0.006795507	0.008856518	8.72725e-07	1.11168e-07
	2.078642e-07	1.592288e-07	0.04397155	0.004634663	2.102742e-07	8.34704e-07	0.006737093	0.008907332
	0.006795513	0.008856518	2.102742e-07	8.34704e-07	0.04413087	0.004728858	2.283485e-07	1.756691e-07
	8.72725e-07	1.111681e-07	0.006737093	0.008907333	2.283485e-07	1.756691e-07	0.04398538	0.004822001
5e+07	0.04735962	-0.0009975759	2.404098e-07	1.325502e-07	0.009619612	0.008953829	1.041702e-06	-1.789024e-07
	2.404098e-07	1.325502e-07	0.04718582	-0.0008436946	2.258257e-07	1.005714e-06	0.009544467	0.009041704
	0.009619614	0.008953828	2.258258e-07	1.005714e-06	0.04744532	-0.0008508655	2.639438e-07	1.468825e-07
	1.041702e-06	-1.789024e-07	0.009544468	0.009041705	2.639438e-07	1.468825e-07	0.04725236	-0.0006751439
6e+07	0.0487407	-0.007398569	2.475463e-07	8.906396e-08	0.01225328	0.00816465	1.091236e-06	-5.604238e-07
	2.475463e-07	8.906395e-08	0.04854048	-0.007149936	2.281679e-07	1.174024e-06	0.01216982	0.008298507
	0.01225328	0.008164652	2.281679e-07	1.174024e-06	0.04886571	-0.007294179	2.716923e-07	9.993182e-08
	1.091236e-06	-5.604238e-07	0.01216982	0.008298507	2.716923e-07	9.993182e-08	0.04864413	-0.007011958
7e+07	0.04817452	-0.01405858	2.225945e-07	3.938038e-08	0.01443689	0.006602891	9.828855e-07	-9.83559e-07
	2.225945e-07	3.938037e-08	0.04797315	-0.01370146	2.174444e-07	1.344337e-06	0.01435716	0.00678799
	0.01443689	0.006602897	2.174444e-07	1.344337e-06	0.04831946	-0.01400352	2.444543e-07	4.610896e-08
	9.828855e-07	-9.83559e-07	0.01435716	0.00678799	2.444543e-07	4.610896e-08	0.04809769	-0.01359979
8e+07	0.04572459	-0.02040871	1.631329e-07	-3.527379e-09	0.01595755	0.004455353	6.992581e-07	-1.38386e-06
	1.631329e-07	-3.52739e-09	0.04555233	-0.01993997	1.952476e-07	1.521501e-06	0.01589567	0.004692029
	0.01595755	0.00445536	1.952476e-07	1.521502e-06	0.04587024	-0.02040324	1.795237e-07	-5.662484e-10
	6.992581e-07	-1.38386e-06	0.01589567	0.004692029	1.795237e-07	-5.662528e-10	0.04568206	-0.01987484
9e+07	0.04159444	-0.02592954	7.181125e-08	-2.602972e-08	0.01666999	0.001964586	2.490315e-07	-1.691376e-06
	7.181124e-08	-2.602973e-08	0.04148228	-0.02535805	1.648043e-07	1.709875e-06	0.0166402	0.002247612
	0.01666999	0.001964592	1.648043e-07	1.709875e-06	0.04172335	-0.02596782	7.964651e-08	-2.519583e-08
	2.490315e-07	-1.691376e-06	0.0166402	0.002247613	7.96465e-08	-2.519583e-08	0.04160323	-0.02532491
1e+08	0.03613206	-0.03018669	-4.354381e-08	-1.579742e-08	0.016504	-0.0005942477	-3.320316e-07	-1.841065e-06
	-4.354381e-08	-1.579742e-08	0.03610722	-0.02953318	1.308771e-07	1.912636e-06	0.0165185	-0.0002755389
	0.016504	-0.0005942478	1.308771e-07	1.912636e-06	0.03622826	-0.03025765	-4.673758e-08	-1.41209e-08
	-3.320316e-07	-1.841065e-06	0.0165185	-0.000275539	-4.673758e-08	-1.41209e-08	0.03620646	-0.02952351
1.1e+08	0.02970086	-0.03294017	-1.709861e-07	3.581762e-08	0.01551624	-0.002903743	-9.832415e-07	-1.788689e-06
	-1.709861e-07	3.581762e-08	0.02978327	-0.03223584	9.656868e-08	2.133672e-06	0.01558331	-0.002564689
	0.01551624	-0.002903743	9.656868e-08	2.133672e-06	0.02975995	-0.03302066	-1.862473e-07	4.268077e-08
	-9.832415e-07	-1.788689e-06	0.0155833	-0.002564689	-1.862473e-07	4.268077e-08	0.0298587	-0.03223054
1.2e+08	0.02276799	-0.03387338	-2.953144e-07	1.338253e-07	0.01383791	-0.004766655	-1.631727e-06	-1.505614e-06
	-2.953144e-07	1.338253e-07	0.02296551	-0.03315616	7.000879e-08	2.372085e-06	0.01395999	-0.004425637
	0.01383791	-0.004766655	7.000879e-08	2.372085e-06	0.02279407	-0.03395211	-3.223305e-07	1.502838e-07
	-1.631727e-06	-1.505614e-06	0.01395999	-0.004425636	-3.223305e-07	1.502838e-07	0.02302181	-0.03314865
1.3e+08	0.01590822	-0.03294248	-3.996683e-07	2.772906e-07	0.01163658	-0.005984121	-2.194441e-06	-9.92697e-07
	-3.996683e-07	2.772906e-07	0.01621481	-0.03225313	5.755291e-08	2.625306e-06	0.01180947	-0.005660335
	0.01163658	-0.005984121	5.755291e-08	2.625306e-06	0.01590579	-0.03300916	-4.365421e-07	3.076494e-07
	-2.194441e-06	-9.92697e-07	0.01180947	-0.005660334	-4.365421e-07	3.076494e-07	0.01625537	-0.03223799
1.4e+08	0.00965515	-0.03026593	-4.677265e-07	4.591415e-07	0.009144497	-0.006423782	-2.589832e-06	-2.8073e-07
	-4.677265e-07	4.591415e-07	0.01005005	-0.0296428	6.460606e-08	2.888568e-06	0.009357091	-0.00613483
	0.009144497	-0.006423782	6.460606e-08	2.888568e-06	0.00963118	-0.03031193	-5.110344e-07	5.070343e-07
	-2.589832e-06	-2.8073e-07	0.00935709	-0.006134829	-5.110344e-07	5.070343e-07	0.01007898	-0.02961589
1.5e+08	0.004476073	-0.0261087	-4.859357e-07	6.664917e-07	0.006625155	-0.006035269	-2.748591e-06	5.709025e-07
	-4.859357e-07	6.664917e-07	0.004925	-0.02558252	9.480307e-08	3.155212e-06	0.006860166	-0.005794721
	0.006625155	-0.006035269	9.480307e-08	3.155212e-06	0.004439794	-0.02612795	-5.309903e-07	7.343481e-07
	-2.748591e-06	5.709025e-07	0.006860165	-0.00579472	-5.309903e-07	7.343481e-07	0.004947081	-0.02554121
1.6e+08	0.0007353744	-0.02085636	-4.455698e-07	8.817818e-07	0.004344231	-0.004855557	-2.623484e-06	1.479317e-06
	-4.455698e-07	8.817818e-07	0.001193438	-0.02044553	1.493377e-07	3.417368e-06	0.004579711	-0.004670817
	0.004344231	-0.004855556	1.493377e-07	3.417368e-06	0.0006974686	-0.02084606	-4.868641e-07	9.704015e-07
	-2.623484e-06	1.479317e-06	0.00457971	-0.004670817	-4.868641e-07	9.704015e-07	0.00121373	-0.02038885
1.7e+08	-0.00133455	-0.01497922	-3.44301e-07	1.084652e-06	0.00254103	-0.003004689	-2.197055e-06	2.34653e-06
	-3.44301e-07	1.084652e-06	-0.0009182905	-0.01468632	2.265743e-07	3.66688e-06	0.002752624	-0.002875466
	0.00254103	-0.003004689	2.265743e-07	3.66688e-06	-0.001362997	-0.01494021	-3.76092e-07	1.192947e-06
	-2.197055e-06	2.34653e-06	0.002752624	-0.002875466	-3.76092e-07	1.192947e-06	-0.0008949287	-0.01461498
1.8e+08	-0.001650872	-0.008989543	-1.870198e-07	1.254328e-06	0.001403191	-0.0006725487	-1.4861e-06	3.070274e-06
	-1.870198e-07	1.254328e-06	-0.001327773	-0.008799508	3.22032e-07	3.896351e-06	0.001566864	-0.0005901549
	0.001403192	-0.0006725486	3.22032e-07	3.896351e-06	-0.001659561	-0.008926312	-2.039861e-07	1.379273e-06
	-1.4861e-06	3.070274e-06	0.001566864	-0.0005901546	-2.039861e-07	1.379273e-06	-0.001297172	-0.008715717
1.9e+08	-0.0002845828	-0.003395546	1.425208e-08	1.372203e-06	0.001047239	0.001901732	-5.422061e-07	3.555984e-06
	1.425208e-08	1.372203e-06	-0.0001003057	-0.003275868	4.28765e-07	4.100139e-06	0.001142171	0.00195411
	0.001047239	0.001901732	4.28765e-07	4.100139e-06	-0.0002651724	-0.003315863	1.635494e-08	1.50902e-06
	-5.422061e-07	3.555984e-06	0.001142171	0.00195411	1.635494e-08	1.50902e-06	-5.941137e-05	-0.003183035
2e+08	0.002548992	0.00134349	2.413771e-07	1.424263e-06	0.001506958	0.004455341	5.518749e-07	3.728539e-06
	2.413771e-07	1.424263e-06	0.002560351	0.001440467	5.380927e-07	4.275157e-06	0.001518265	0.004501377
	0.001506958	0.004455341	5.380927e-07	4.275157e-06	0.002601893	0.001429357	2.651428e-07	1.566823e-06
	5.518749e-07	3.728539e-06	0.001518265	0.004501377	2.651428e-07	1.566823e-06	0.002613179	0.001538179
2.1e+08	0.006512461	0.004856975	4.719219e-07	1.403034e-06	0.00273066	0.006729486	1.689741e-06	3.542315e-06
	4.719219e-07	1.403034e-06	0.006333292	0.004989803	6.405701e-07	4.421351e-06	0.002651599	0.006797553
	0.00273066	0.006729486	6.405701e-07	4.421351e-06	0.006600581	0.004937327	5.178727e-07	1.544441e-06
	1.689741e-06	3.542315e-06	0.002651599	0.006797553	5.178727e-07	1.544441e-06	0.006398136	0.005087992
2.2e+08	0.01117918	0.00689403	6.815484e-07	1.308785e-06	0.004587396	0.008496245	2.751976e-06	2.988312e-06
	6.815484e-07	1.308785e-06	0.01081169	0.007126362	7.270562e-07	4.541809e-06	0.00442077	0.008616576
	0.004587396	0.008496245	7.270562e-07	4.541809e-06	0.01130025	0.006956998	7.479239e-07	1.442084e-06
	2.751976e-06	2.988312e-06	0.00442077	0.008616576	7.479239e-07	1.442084e-06	0.01088711	0.007220911
2.3e+08	0.0160734	0.007343121	8.466764e-07	1.149859e-06	0.006881242	0.009581824	3.618787e-06	2.097462e-06
	8.466764e-07	1.149859e-06	0.01554094	0.007736948	7.897342e-07	4.642496e-06	0.006639817	0.009783275
	0.006881242	0.009581824	7.897342e-07	4.642496e-06	0.01622127	0.007377992	9.294652e-07	1.268798e-06
	3.618787e-06	2.097462e-06	0.006639817	0.009783275	9.294652e-07	1.268798e-06	0.01562414	0.007824511
2.4e+08	0.02071403	0.006238747	9.471083e-07	9.4212e-07	0.009372004	0.009883949	4.183261e-06	9.396087e-07
	9.471083e-07	9.4212e-07	0.02006003	0.006847384	8.229671e-07	4.731681e-06	0.009077822	0.01019073
	0.009372004	0.009883949	8.229671e-07	4.731681e-06	0.02087916	0.006237205	1.040329e-06	1.041871e-06
	4.183261e-06	9.396087e-07	0.009077822	0.01019073	1.040329e-06	1.041871e-06	0.02014724	0.006925783
2.5e+08	0.02465788	0.00375493	9.683399e-07	7.075839e-07	0.01180012	0.009381813	4.363848e-06	-3.81821e-07
	9.683399e-07	7.075839e-07	0.02394256	0.004616537	8.239143e-07	4.81915e-06	0.01148276	0.009810519
	0.01180012	0.009381813	8.239143e-07	4.81915e-06	0.02482825	0.003712078	1.064554e-06	7.853625e-07
	4.363848e-06	-3.81821e-07	0.01148276	0.009810519	1.064554e-06	7.853625e-07	0.02402946	0.004685014
2.6e+08	0.02753861	0.0001863261	9.033395e-07	4.724003e-07	0.01391324	0.008137743	4.114671e-06	-1.739044e-06
	9.033395e-07	4.724003e-07	0.0268336	0.001318697	7.92876e-07	4.915288e-06	0.01360717	0.008695067
	0.01391324	0.008137743	7.92876e-07	4.915288e-06	0.02770099	0.0001013735	9.943494e-07	5.27892e-07
	4.114671e-06	-1.739044e-06	0.01360717	0.008695067	9.943494e-07	5.27892e-07	0.02691585	0.001378018
2.7e+08	0.02909814	-0.00408105	7.536411e-07	2.64366e-07	0.01549193	0.006290556	3.43254e-06	-2.992205e-06
	7.536411e-07	2.64366e-07	0.02847952	-0.002683773	7.333664e-07	5.030119e-06	0.01523312	0.00697191
	0.01549193	0.006290556	7.333664e-07	5.030119e-06	0.02923938	-0.00420451	8.313113e-07	2.999191e-07
	3.43254e-06	-2.992205e-06	0.01523312	0.00697191	8.313113e-07	2.999191e-07	0.02855322	-0.002631394
2.8e+08	0.02920763	-0.00860672	5.296541e-07	1.101822e-07	0.01637195	0.004041315	2.359787e-06	-4.003569e-06
	5.296541e-07	1.101822e-07	0.02874806	-0.00697497	6.519252e-07	5.172362e-06	0.01619419	0.004830588
	0.01637195	0.004041315	6.519252e-07	5.172362e-06	0.02931619	-0.008760895	5.867737e-07	1.307282e-07
	2.359787e-06	-4.003569e-06	0.01619419	0.004830588	5.867737e-07	1.307282e-07	0.02881027	-0.006926091
2.9e+08	0.0278767	-0.01293693	2.501346e-07	3.267346e-08	0.01646104	0.001632864	9.82457e-07	-4.652255e-06
	2.501346e-07	3.267346e-08	0.02763751	-0.01112403	5.576786e-07	5.348544e-06	0.01639226	0.002503385
	0.01646104	0.001632864	5.576786e-07	5.348544e-06	0.02794388	-0.01311048	2.812338e-07	4.53697e-08
	9.82457e-07	-4.652255e-06	0.01639226	0.002503385	2.812338e-07	4.53697e-08	0.02768655	-0.01107437
3e+08	0.02524998	-0.01664645	-5.918892e-08	4.82027e-08	0.01574855	-0.0006749101	-5.762281e-07	-4.848015e-06
	-5.918892e-08	4.82027e-08	0.02527392	-0.01472437	4.616535e-07	5.562239e-06	0.01580752	0.0002417769
	0.01574855	-0.0006749101	4.616535e-07	5.562239e-06	0.02527105	-0.01682554	-5.715729e-08	6.181845e-08
	-5.762281e-07	-4.848015e-06	0.01580752	0.0002417769	-5.715729e-08	6.181845e-08	0.02530965	-0.01466926
3.1e+08	0.02159148	-0.01937724	-3.677916e-07	1.645319e-07	0.0143069	-0.002631683	-2.166708e-06	-4.54257e-06
	-3.677916e-07	1.645319e-07	0.02189714	-0.01743012	3.758565e-07	5.813487e-06	0.01450068	-0.001709169
	0.0143069	-0.002631683	3.758565e-07	5.813487e-06	0.02156633	-0.01954691	-3.949861e-07	1.886269e-07
	-2.166708e-06	-4.54257e-06	0.01450068	-0.001709169	-3.949861e-07	1.886269e-07	0.02192097	-0.01736504
3.2e+08	0.01725822	-0.02087067	-6.432084e-07	3.793884e-07	0.01228448	-0.004022565	-3.627361e-06	-3.737156e-06
	-6.432084e-07	3.793884e-07	0.01783665	-0.01898667	3.1215e-07	6.098489e-06	0.01260704	-0.003135913
	0.01228448	-0.004022565	3.1215e-07	6.098489e-06	0.0171916	-0.02101635	-6.967109e-07	4.23359e-07
	-3.627361e-06	-3.737156e-06	0.01260704	-0.003135913	-6.967109e-07	4.23359e-07	0.01785146	-0.01890774
3.3e+08	0.01266553	-0.02099023	-8.543531e-07	6.799765e-07	0.009890799	-0.004690576	-4.800918e-06	-2.485229e-06
	-8.543531e-07	6.799765e-07	0.01347966	-0.0192525	2.810002e-07	6.409659e-06	0.01032286	-0.003878548
	0.009890799	-0.004690576	2.810002e-07	6.409659e-06	0.01256678	-0.02109934	-9.282977e-07	7.520633e-07
	-4.800918e-06	-2.485229e-06	0.01032286	-0.003878548	-9.282977e-07	7.520633e-07	0.01348948	-0.01915697
3.4e+08	0.008247193	-0.01973273	-9.749821e-07	1.04361e-06	0.007375013	-0.00455333	-5.551365e-06	-8.897112e-07
	-9.749821e-07	1.04361e-06	0.009234134	-0.01821043	2.902212e-07	6.736106e-06	0.007885319	-0.00384755
	0.007375013	-0.00455333	2.902212e-07	6.736106e-06	0.008129404	-0.01979609	-1.061004e-06	1.149973e-06
	-5.551365e-06	-8.897112e-07	0.007885319	-0.00384755	-1.061004e-06	1.149973e-06	0.009243761	-0.01809699
3.5e+08	0.004414067	-0.01722687	-9.869019e-07	1.439524e-06	0.005000145	-0.003612062	-5.7795e-06	9.052606e-07
	-9.869019e-07	1.439524e-06	0.005490355	-0.01596723	3.438823e-07	7.064573e-06	0.005548104	-0.003033333
	0.005000145	-0.003612062	3.438823e-07	7.064573e-06	0.004292911	-0.01723982	-1.074878e-06	1.58349e-06
	-5.7795e-06	9.052606e-07	0.005548104	-0.003033333	-1.074878e-06	1.58349e-06	0.005504816	-0.01583622
3.6e+08	0.001515272	-0.01371935	-8.824905e-07	1.831771e-06	0.003015627	-0.001951921	-5.435332e-06	2.727493e-06
	-8.824905e-07	1.831771e-06	0.002584487	-0.0127416	4.415595e-07	7.38076e-06	0.003555036	-0.001507492
	0.003015627	-0.001951921	4.415595e-07	7.38076e-06	0.001407426	-0.0136824	-9.615048e-07	2.013345e-06
	-5.435332e-06	2.727493e-06	0.003555036	-0.001507492	-9.615048e-07	2.013345e-06	0.002608497	-0.01259499
3.7e+08	-0.0001944661	-0.00954968	-6.661439e-07	2.182921e-06	0.001631105	0.0002666291	-4.525759e-06	4.393598e-06
	-6.661439e-07	2.182921e-06	0.0007676799	-0.008841682	5.78085e-07	7.6709e-06	0.002114681	0.0005844921
	0.001631105	0.0002666291	5.78085e-07	7.6709e-06	-0.0002730281	-0.009468727	-7.255812e-07	2.398628e-06
	-4.525759e-06	4.393598e-06	0.002114681	0.0005844921	-7.255812e-07	2.398628e-06	0.0008051047	-0.008682929
3.8e+08	-0.0005780456	-0.005116458	-3.543832e-07	2.458144e-06	0.0009943702	0.00282441	-3.116422e-06	5.727827e-06
	-3.543832e-07	2.458144e-06	0.0001836367	-0.004634459	7.438841e-07	7.923383e-06	0.001378603	0.003038336
	0.0009943702	0.00282441	7.438841e-07	7.923383e-06	-0.0006137598	-0.005002317	-3.850405e-07	2.701231e-06
	-3.116422e-06	5.727827e-06	0.001378603	0.003038336	-3.850405e-07	2.701231e-06	0.0002370415	-0.004468144
3.9e+08	0.000372383	-0.0008381571	2.545983e-08	2.629164e-06	0.001175817	0.005466365	-1.32731e-06	6.580855e-06
	2.545983e-08	2.629164e-06	0.0008567469	-0.0005098394	9.258861e-07	8.130177e-06	0.001425636	0.005612219
	0.001175817	0.005466365	9.258861e-07	8.130177e-06	0.0003891626	-0.0007056441	3.036699e-08	2.890159e-06
	-1.32731e-06	6.580855e-06	0.001425636	0.005612219	3.036699e-08	2.890159e-06	0.0009270817	-0.0003411972
4e+08	0.002536456	0.002887431	4.378516e-07	2.677575e-06	0.002161079	0.007928134	6.776179e-07	6.846413e-06
	4.378516e-07	2.677575e-06	0.002691821	0.003156804	1.108901e-06	8.287857e-06	0.002253828	0.008051908
	0.002161079	0.007928134	1.108901e-06	8.287857e-06	0.002610311	0.003020908	4.81899e-07	2.945148e-06
	6.776179e-07	6.846413e-06	0.002253828	0.008051908	4.81899e-07	2.945148e-06	0.002778276	0.003322451
4.1e+08	0.005679022	0.005721219	8.426477e-07	2.597101e-06	0.003852574	0.009963506	2.705806e-06	6.473905e-06
	8.426477e-07	2.597101e-06	0.005485261	0.006040084	1.277269e-06	8.39808e-06	0.003780845	0.01011704
	0.003852574	0.009963506	1.277269e-06	8.39808e-06	0.005808817	0.005837373	9.257169e-07	2.859146e-06
	2.705806e-06	6.473905e-06	0.003780845	0.01011704	9.257169e-07	2.859146e-06	0.005585313	0.006197901
4.2e+08	0.009474439	0.007414557	1.199224e-06	2.394536e-06	0.006079682	0.01136982	4.554902e-06	5.475553e-06
	1.199224e-06	2.394536e-06	0.008946355	0.007894589	1.41655e-06	8.467453e-06	0.005852682	0.01160576
	0.006079682	0.01136982	1.41655e-06	8.467453e-06	0.009653244	0.007496083	1.31738e-06	2.639368e-06
	4.554902e-06	5.475553e-06	0.005852682	0.01160576	1.31738e-06	2.639368e-06	0.009056001	0.008040772
4.3e+08	0.01353916	0.007831772	1.470666e-06	2.08929e-06	0.008616372	0.01200874	6.033085e-06	3.927251e-06
	1.470666e-06	2.08929e-06	0.01272642	0.008576692	1.515047e-06	8.506866e-06	0.008259639	0.01237526
	0.008616372	0.01200874	1.515047e-06	8.506866e-06	0.01375478	0.007864162	1.616421e-06	2.306841e-06
	6.033085e-06	3.927251e-06	0.008259639	0.01237526	1.616421e-06	2.306841e-06	0.01284058	0.008708907
4.4e+08	0.01746932	0.006961504	1.627567e-06	1.711656e-06	0.01120436	0.01182031	6.978815e-06	1.962953e-06
	1.627567e-06	1.711656e-06	0.01645283	0.008056295	1.564991e-06	8.530384e-06	0.01075782	0.0123561
	0.01120436	0.01182031	1.564991e-06	8.530384e-06	0.01770535	0.006934623	1.790503e-06	1.894536e-06
	6.978815e-06	1.962953e-06	0.01075782	0.0123561	1.790503e-06	1.894536e-06	0.01656586	0.008173962
4.5e+08	0.02087958	0.00491604	1.651068e-06	1.3e-06	0.01357939	0.01082904	7.278051e-06	-2.369185e-07
	1.651068e-06	1.3e-06	0.01976458	0.006417661	1.563288e-06	8.553868e-06	0.0130939	0.01155909
	0.01357939	0.01082904	1.563288e-06	8.553868e-06	0.021117	0.004825302	1.818781e-06	1.444329e-06
	7.278051e-06	-2.369185e-07	0.0130939	0.01155909	1.818781e-06	1.444329e-06	0.0198709	0.006522064
4.6e+08	0.02343969	0.001918942	1.534911e-06	8.971947e-07	0.01549801	0.009141499	6.877178e-06	-2.461985e-06
	1.534911e-06	8.971947e-07	0.02234612	0.003849542	1.511827e-06	8.593491e-06	0.0150307	0.0100741
	0.01549801	0.009141499	1.511827e-06	8.593491e-06	0.02365864	0.001765953	1.694172e-06	1.003116e-06
	6.877178e-06	-2.461985e-06	0.0150307	0.0100741	1.694172e-06	1.003116e-06	0.02244077	0.003943739
4.7e+08	0.0249052	-0.001717625	1.286339e-06	5.466242e-07	0.01676222	0.00693571	5.790356e-06	-4.491843e-06
	1.286339e-06	5.466242e-07	0.0239563	0.0006257634	1.417341e-06	8.664258e-06	0.01637106	0.008061027
	0.01676222	0.00693571	1.417341e-06	8.664258e-06	0.025087	-0.001925087	1.424377e-06	6.184352e-07
	5.790356e-06	-4.491843e-06	0.01637106	0.008061027	1.424377e-06	6.184352e-07	0.02403546	0.0007142528
4.8e+08	0.02513984	-0.00562362	9.258155e-07	2.880587e-07	0.01723961	0.004443478	4.10043e-06	-6.117594e-06
	9.258155e-07	2.880587e-07	0.02444993	-0.002921787	1.290902e-06	8.778635e-06	0.01697772	0.005733849
