!$
! Info: Touchstone file created by Circ.  Input file=Tx_2in_Rx_93ohms_TxVia_60mils_RxVia_70mils.circ
!$
# Hz S RI R 50
0	0.001990954	5.997796e-26	0.9978686	-4.699539e-26	3.425663e-05	4.235505e-24	-2.957051e-05	2.28928e-21
	0.9978686	-4.77117e-26	0.001986313	5.824879e-26	-3.005458e-05	2.348572e-21	3.096643e-05	4.712347e-24
	3.54768e-05	4.115539e-24	-2.936059e-05	2.263581e-21	0.002001939	5.95366e-26	0.9978467	-4.545916e-26
	-2.984127e-05	2.322437e-21	3.123644e-05	4.732556e-24	0.9978467	-4.839842e-26	0.002000943	5.795663e-26
1e+07	0.002916281	0.0002734898	0.9967244	-0.02406255	6.168314e-05	0.0006159685	-4.810766e-05	-0.0001228326
	0.9967244	-0.02406255	0.002914512	0.000273366	-4.820995e-05	-0.0001227851	6.098785e-05	0.000616112
	6.175268e-05	0.0006159363	-4.817489e-05	-0.0001228033	0.002875417	0.0002747468	0.9967631	-0.02415706
	-4.807259e-05	-0.0001228508	6.098988e-05	0.0006161095	0.9967631	-0.02415706	0.002873464	0.0002746849
2e+07	0.003555636	-0.0001295245	0.9951624	-0.04736373	9.675475e-05	0.001232791	-4.544739e-05	-0.0002492924
	0.9951624	-0.04736373	0.003548218	-0.0001299476	-4.54686e-05	-0.0002492173	9.387189e-05	0.001233236
	9.674015e-05	0.001232755	-4.547401e-05	-0.0002492377	0.003527196	-0.0001072186	0.9951821	-0.04757233
	-4.543634e-05	-0.0002493282	9.386837e-05	0.001233236	0.9951821	-0.04757233	0.003519033	-0.0001075885
3e+07	0.004005383	-0.0007786984	0.9932332	-0.07036257	0.0001748265	0.001829571	-6.213873e-05	-0.0003593307
	0.9932332	-0.07036257	0.003988908	-0.0007785276	-6.215667e-05	-0.000359317	0.0001684023	0.00183055
	0.0001748228	0.001829571	-6.215847e-05	-0.000359317	0.003986958	-0.0007487014	0.9932319	-0.07067119
	-6.214029e-05	-0.0003593348	0.000168402	0.001830552	0.9932319	-0.07067119	0.003968895	-0.0007482914
4e+07	0.004340259	-0.001527035	0.9908604	-0.09320318	0.000290669	0.002415448	-9.29944e-05	-0.0004629845
	0.9908604	-0.09320318	0.004310958	-0.001525903	-9.304372e-05	-0.0004629837	0.0002793145	0.002417282
	0.0002906743	0.002415448	-9.304012e-05	-0.0004629825	0.004330989	-0.001492903	0.990835	-0.09360788
	-9.298762e-05	-0.0004629772	0.0002793152	0.002417283	0.990835	-0.09360788	0.004298914	-0.001491387
5e+07	0.004587196	-0.002335759	0.9880191	-0.1159135	0.0004317257	0.002991626	-0.0001256746	-0.0005630198
	0.9880191	-0.1159135	0.004541161	-0.002332393	-0.0001257423	-0.0005630064	0.0004141001	0.002994756
	0.0004317283	0.002991625	-0.0001257399	-0.0005630065	0.004586379	-0.002299637	0.987966	-0.1164117
	-0.0001256688	-0.0005630171	0.000414101	0.002994757	0.987966	-0.1164117	0.004535965	-0.00229558
6e+07	0.004759696	-0.003185408	0.9846987	-0.1385026	0.0005978296	0.00355766	-0.0001606024	-0.000660342
	0.9846987	-0.1385026	0.004693555	-0.003178234	-0.0001606781	-0.0006603151	0.0005726388	0.003562614
	0.0005978289	0.003557662	-0.0001606788	-0.0006603146	0.004766767	-0.003148835	0.9846141	-0.1390919
	-0.000160608	-0.0006603434	0.0005726401	0.003562614	0.9846141	-0.1390919	0.004694359	-0.003140468
7e+07	0.004865544	-0.004064019	0.9808936	-0.1609714	0.0007886563	0.004112769	-0.000197979	-0.0007553085
	0.9808936	-0.1609714	0.004776084	-0.004051562	-0.0001980666	-0.0007552727	0.0007546463	0.004120156
	0.0007886547	0.004112774	-0.0001980694	-0.0007552707	0.004880022	-0.004028305	0.980774	-0.1616497
	-0.0001979969	-0.0007553083	0.000754648	0.004120156	0.980774	-0.1616497	0.004782149	-0.004014025
8e+07	0.00490961	-0.004962898	0.9766009	-0.1833171	0.001003786	0.004655989	-0.0002378059	-0.0008481079
	0.9766009	-0.1833171	0.004793467	-0.004943617	-0.0002379198	-0.0008480618	0.0009597444	0.004666503
	0.001003786	0.004655995	-0.0002379231	-0.0008480586	0.004931014	-0.0049293	0.9764426	-0.1840821
	-0.0002378292	-0.0008481031	0.0009597463	0.004666503	0.9764426	-0.1840821	0.004803981	-0.004907456
9e+07	0.004895378	-0.005874452	0.9718192	-0.205535	0.001242706	0.005186245	-0.0002799932	-0.000938913
	0.9718192	-0.205535	0.004749018	-0.005846481	-0.0002801523	-0.0009388455	0.001187464	0.005200662
	0.001242706	0.005186249	-0.0002801544	-0.0009388428	0.004923146	-0.005844308	0.9716187	-0.2063843
	-0.0002800109	-0.0009389063	0.001187465	0.005200661	0.9716187	-0.2063843	0.004763027	-0.005812864
1e+08	0.004826951	-0.006786882	0.9665469	-0.2276243	0.001504821	0.005702339	-0.000324461	-0.001027853
	0.9665469	-0.2276243	0.00464683	-0.006747884	-0.0003246836	-0.001027743	0.001437257	0.005721516
	0.001504821	0.005702339	-0.0003246836	-0.001027743	0.004860236	-0.006762358	0.966301	-0.2285545
	-0.000324461	-0.001027853	0.001437257	0.005721516	0.966301	-0.2285545	0.004663074	-0.006718709
1.1e+08	0.004728404	-0.007713367	0.9607657	-0.2495585	0.001788947	0.00620343	-0.0003714216	-0.001115385
	0.9607657	-0.2495585	0.004512165	-0.007661042	-0.0003716845	-0.001115241	0.001708011	0.006228294
	0.001788947	0.00620343	-0.0003716845	-0.001115241	0.004763303	-0.007693996	0.9604742	-0.2505685
	-0.0003714217	-0.001115385	0.001708009	0.006228294	0.9604742	-0.2505685	0.004526628	-0.007635586
1.2e+08	0.00457296	-0.008655147	0.954505	-0.2713242	0.002094685	0.006688634	-0.0004209495	-0.001201677
	0.954505	-0.2713242	0.004317696	-0.008586798	-0.0004212534	-0.001201492	0.001999369	0.006720186
	0.002094685	0.006688634	-0.0004212535	-0.001201492	0.004609497	-0.008639729	0.9541638	-0.2724138
	-0.0004209496	-0.001201676	0.001999367	0.006720187	0.9541638	-0.2724138	0.004330147	-0.008563613
1.3e+08	0.004363303	-0.009601563	0.9477661	-0.2929198	0.00242125	0.007156848	-0.0004731365	-0.001286708
	0.9477661	-0.2929198	0.004066342	-0.009514329	-0.0004734818	-0.001286478	0.00231061	0.007196163
	0.00242125	0.007156848	-0.0004734818	-0.001286477	0.004401318	-0.009589863	0.9473715	-0.2940875
	-0.0004731365	-0.001286708	0.002310608	0.007196164	0.9473715	-0.2940875	0.004076377	-0.009492903
1.4e+08	0.004100974	-0.01054786	0.9405517	-0.3143378	0.002767782	0.007607063	-0.0005280524	-0.001370508
	0.9405517	-0.3143378	0.003759832	-0.01043872	-0.0005284391	-0.001370224	0.002640938	0.007655281
	0.002767782	0.007607063	-0.000528439	-0.001370224	0.004140256	-0.01053983	0.9400999	-0.3155818
	-0.0005280524	-0.001370507	0.002640937	0.007655282	0.9400999	-0.3155818	0.003767017	-0.01041871
1.5e+08	0.003787279	-0.01149034	0.932865	-0.3355695	0.003133362	0.008038309	-0.0005857651	-0.001453095
	0.932865	-0.3355695	0.003399654	-0.01135612	-0.0005861924	-0.001452753	0.002989504	0.008096636
	0.003133362	0.008038309	-0.0005861923	-0.001452753	0.003827591	-0.011486	0.9323524	-0.3368878
	-0.000585765	-0.001453095	0.002989504	0.008096636	0.9323524	-0.3368878	0.003403547	-0.01133723
1.6e+08	0.003423437	-0.01242584	0.9247097	-0.3566058	0.003517016	0.008449657	-0.0006463425	-0.001534478
	0.9247097	-0.3566058	0.002987211	-0.01226318	-0.0006468091	-0.001534071	0.003355406	0.008519359
	0.003517016	0.008449657	-0.0006468089	-0.00153407	0.003464525	-0.01242524	0.9241328	-0.3579964
	-0.0006463423	-0.001534478	0.003355406	0.008519359	0.9241328	-0.3579964	0.002987372	-0.01224514
1.7e+08	0.003010625	-0.01335151	0.9160899	-0.3774374	0.003917718	0.008840223	-0.0007098534	-0.001614652
	0.9160899	-0.3774374	0.002523872	-0.01315692	-0.0007103572	-0.001614172	0.003737695	0.008922624
	0.003917718	0.008840223	-0.0007103571	-0.001614172	0.00305222	-0.01335471	0.9154451	-0.3788979
	-0.0007098533	-0.001614652	0.003737695	0.008922624	0.9154451	-0.3788979	0.002519867	-0.01313944
1.8e+08	0.002550001	-0.01426473	0.9070097	-0.3980549	0.004334396	0.009209173	-0.000776368	-0.001693598
	0.9070097	-0.3980549	0.002011002	-0.01403455	-0.0007769062	-0.001693039	0.004135376	0.009305649
	0.004334396	0.009209173	-0.0007769061	-0.001693039	0.002591824	-0.0142718	0.9062938	-0.3995829
	-0.0007763679	-0.001693598	0.004135376	0.009305649	0.9062938	-0.3995829	0.00200241	-0.01401735
1.9e+08	0.002042727	-0.01516307	0.897474	-0.4184487	0.00476593	0.009555723	-0.0008459574	-0.001771288
	0.897474	-0.4184487	0.001449976	-0.01489351	-0.0008465264	-0.001770643	0.004547412	0.009667699
	0.00476593	0.009555723	-0.0008465263	-0.001770643	0.002084492	-0.01517406	0.8966835	-0.4200417
	-0.0008459573	-0.001771288	0.004547412	0.009667699	0.8966835	-0.4200417	0.001436388	-0.01487627
2e+08	0.001489974	-0.01604424	0.8874875	-0.4386095	0.005211159	0.009879144	-0.0009186931	-0.001847679
	0.8874875	-0.4386095	0.0008421924	-0.01573137	-0.0009192889	-0.001846942	0.004972729	0.01000809
	0.005211159	0.009879145	-0.0009192888	-0.001846943	0.001531386	-0.01605922	0.8866192	-0.4402648
	-0.000918693	-0.001847679	0.004972729	0.01000809	0.8866192	-0.4402648	0.000823216	-0.01571378
2.1e+08	0.0008929323	-0.01690608	0.8770554	-0.4585277	0.005668886	0.01017877	-0.0009946472	-0.001922719
	0.8770554	-0.4585277	0.0001890759	-0.01654587	-0.0009952647	-0.001921885	0.005410215	0.0103262
	0.005668886	0.01017877	-0.0009952646	-0.001921885	0.0009336937	-0.01692508	0.8761063	-0.4602426
	-0.0009946471	-0.001922719	0.005410215	0.0103262	0.8761063	-0.4602426	0.0001643362	-0.01652758
2.2e+08	0.0002528167	-0.01774654	0.8661833	-0.4781939	0.006137876	0.01045398	-0.001073891	-0.001996344
	0.8661833	-0.4781939	-0.0005079182	-0.01733486	-0.001074525	-0.001995406	0.005858729	0.01062144
	0.006137876	0.01045398	-0.001074525	-0.001995406	0.0002926243	-0.01776961	0.8651501	-0.4799655
	-0.001073891	-0.001996344	0.005858729	0.01062144	0.8651501	-0.4799655	-0.000538775	-0.01731549
2.3e+08	-0.0004291264	-0.01856367	0.8548768	-0.4975987	0.006616865	0.01070424	-0.001156496	-0.002068479
	0.8548768	-0.4975987	-0.001247295	-0.01809629	-0.001157139	-0.002067431	0.006317097	0.01089329
	0.006616865	0.01070424	-0.001157139	-0.002067431	-0.0003905811	-0.01859082	0.8537566	-0.499424
	-0.001156496	-0.002068479	0.006317097	0.01089329	0.8537566	-0.499424	-0.001284604	-0.01807547
2.4e+08	-0.001151624	-0.01935561	0.8431417	-0.5167329	0.007104559	0.01092906	-0.00124253	-0.002139037
	0.8431417	-0.5167329	-0.002027529	-0.01882823	-0.001243176	-0.002137875	0.006784122	0.01114131
	0.007104559	0.01092906	-0.001243176	-0.002137875	-0.001114653	-0.01938685	0.8419317	-0.5186089
	-0.00124253	-0.002139037	0.006784122	0.01114131	0.8419317	-0.5186089	-0.002071603	-0.01880555
2.5e+08	-0.001913363	-0.02012058	0.8309844	-0.5355874	0.007599642	0.01112802	-0.001332061	-0.002207923
	0.8309844	-0.5355874	-0.00284705	-0.01952885	-0.001332703	-0.002206641	0.007258581	0.01136508
	0.007599642	0.01112802	-0.001332703	-0.002206642	-0.001878282	-0.02015591	0.8296816	-0.5375107
	-0.001332061	-0.002207923	0.007258581	0.01136508	0.8296816	-0.5375107	-0.00289818	-0.01950389
2.6e+08	-0.002713005	-0.02085688	0.8184111	-0.5541529	0.008100774	0.01130077	-0.001425153	-0.002275027
	0.8184111	-0.5541529	-0.003704255	-0.02019639	-0.001425783	-0.002273623	0.007739235	0.01156427
	0.008100774	0.01130077	-0.001425783	-0.002273623	-0.002680128	-0.02089628	0.817013	-0.5561204
	-0.001425154	-0.002275027	0.007739235	0.01156427	0.817013	-0.5561204	-0.003762705	-0.02016872
2.7e+08	-0.003549158	-0.02156289	0.8054286	-0.5724207	0.0086066	0.01144701	-0.001521868	-0.002340233
	0.8054286	-0.5724207	-0.004597492	-0.02082922	-0.001522476	-0.002338702	0.008224824	0.01173861
	0.0086066	0.01144701	-0.001522476	-0.002338702	-0.003518807	-0.02160632	0.8039324	-0.5744289
	-0.001521868	-0.002340233	0.008224824	0.01173861	0.8039324	-0.5744289	-0.004663505	-0.02079837
2.8e+08	-0.004420407	-0.02223706	0.7920436	-0.5903819	0.009115749	0.01156655	-0.001622261	-0.002403411
	0.7920436	-0.5903819	-0.005525076	-0.02142575	-0.001622838	-0.002401751	0.008714079	0.01188788
	0.009115749	0.01156655	-0.001622838	-0.002401751	-0.004392902	-0.02228448	0.7904469	-0.5924273
	-0.001622261	-0.002403411	0.008714079	0.01188788	0.7904469	-0.5924273	-0.00559887	-0.02139127
2.9e+08	-0.005325292	-0.0228779	0.7782631	-0.6080277	0.00962684	0.01165922	-0.001726384	-0.002464424
	0.7782631	-0.6080277	-0.006485282	-0.02198451	-0.001726921	-0.002462633	0.009205717	0.01201192
	0.00962684	0.01165922	-0.001726921	-0.002462633	-0.005300957	-0.02292924	0.7765636	-0.6101068
	-0.001726384	-0.002464424	0.009205717	0.01201192	0.7765636	-0.6101068	-0.00656705	-0.02194591
3e+08	-0.006262316	-0.02348401	0.7640945	-0.6253498	0.01013849	0.01172495	-0.001834282	-0.002523124
	0.7640945	-0.6253498	-0.007476345	-0.02250412	-0.001834771	-0.0025212	0.009698453	0.01211066
	0.01013849	0.01172495	-0.001834771	-0.0025212	-0.006241479	-0.02353921	0.7622898	-0.6274589
	-0.001834282	-0.002523124	0.009698453	0.01211066	0.7622898	-0.6274589	-0.007566256	-0.02246091
3.1e+08	-0.007229952	-0.02405405	0.7495452	-0.6423396	0.0106493	0.01176374	-0.001945997	-0.002579352
	0.7495452	-0.6423396	-0.008496466	-0.02298325	-0.001946425	-0.002577295	0.01019099	0.01218408
	0.0106493	0.01176374	-0.001946425	-0.002577295	-0.007212937	-0.02411301	0.7476332	-0.644475
	-0.001945997	-0.002579352	0.01019099	0.01218408	0.7476332	-0.644475	-0.008594663	-0.02293493
3.2e+08	-0.008226631	-0.02458675	0.7346228	-0.6589891	0.01115788	0.01177564	-0.002061559	-0.002632943
	0.7346228	-0.6589891	-0.009543812	-0.02342069	-0.002061917	-0.002630753	0.01068205	0.01223221
	0.01115788	0.01177564	-0.002061917	-0.002630753	-0.008213764	-0.02464936	0.7326014	-0.6611468
	-0.002061559	-0.002632943	0.01068205	0.01223221	0.7326014	-0.6611468	-0.009650411	-0.02336675
3.3e+08	-0.00925075	-0.02508092	0.7193352	-0.6752901	0.01166285	0.01176079	-0.002180993	-0.002683719
	0.7193352	-0.6752901	-0.01061651	-0.02381529	-0.002181271	-0.002681398	0.01117033	0.01225517
	0.01166285	0.01176079	-0.002181271	-0.002681398	-0.009242355	-0.02514705	0.7172025	-0.6774663
	-0.002180993	-0.002683719	0.01117033	0.01225517	0.7172025	-0.6774663	-0.0107316	-0.0237552
3.4e+08	-0.01030067	-0.02553541	0.7036904	-0.6912349	0.01216282	0.01171939	-0.002304315	-0.002731499
	0.7036904	-0.6912349	-0.01171267	-0.02416599	-0.002304501	-0.002729048	0.01165455	0.01225313
	0.01216282	0.01171939	-0.002304501	-0.002729048	-0.01029708	-0.02560493	0.7014446	-0.6934256
	-0.002304315	-0.002731499	0.01165455	0.01225313	0.7014446	-0.6934256	-0.01183631	-0.02409924
3.5e+08	-0.01137474	-0.02594918	0.6876966	-0.7068156	0.01265644	0.01165171	-0.002431531	-0.002776089
	0.6876966	-0.7068156	-0.01283036	-0.02447184	-0.002431615	-0.002773511	0.01213345	0.01222633
	0.01265644	0.01165171	-0.002431615	-0.002773511	-0.01137626	-0.02602192	0.6853361	-0.7090167
	-0.002431531	-0.002776089	0.01213345	0.01222633	0.6853361	-0.7090167	-0.01296259	-0.02439787
3.6e+08	-0.01247124	-0.02632122	0.6713622	-0.7220249	0.01314233	0.0115581	-0.002562637	-0.002817291
	0.6713622	-0.7220249	-0.01396762	-0.02473192	-0.002562609	-0.00281459	0.01260576	0.01217507
	0.01314233	0.0115581	-0.002562609	-0.00281459	-0.0124782	-0.02639701	0.6688853	-0.7242323
	-0.002562637	-0.002817291	0.01260576	0.01217507	0.6688853	-0.7242323	-0.01410845	-0.02465021
3.7e+08	-0.01358846	-0.02665062	0.6546958	-0.7368553	0.01361917	0.01143897	-0.002697619	-0.0028549
	0.6546958	-0.7368553	-0.01512248	-0.02494545	-0.002697468	-0.00285208	0.01307023	0.01209971
	0.01361917	0.01143897	-0.002697468	-0.00285208	-0.01360116	-0.02672927	0.6521011	-0.7390648
	-0.002697619	-0.0028549	0.01307023	0.01209971	0.6521011	-0.7390648	-0.01527188	-0.02485545
3.8e+08	-0.01472464	-0.02693652	0.6377059	-0.7512998	0.01408564	0.01129478	-0.002836451	-0.002888703
	0.6377059	-0.7512998	-0.01629294	-0.0251117	-0.002836167	-0.00288577	0.01352565	0.01200067
	0.01408564	0.01129478	-0.002836167	-0.00288577	-0.0147434	-0.02701782	0.6349922	-0.7535071
	-0.002836451	-0.002888703	0.01352565	0.01200067	0.6349922	-0.7535071	-0.01645087	-0.02501286
3.9e+08	-0.015878	-0.02717816	0.6204016	-0.7653514	0.01454045	0.01112609	-0.002979096	-0.002918484
	0.6204016	-0.7653514	-0.01747697	-0.02523003	-0.002978668	-0.002915444	0.01397081	0.01187845
	0.01454045	0.01112609	-0.002978668	-0.002915444	-0.01590312	-0.02726187	0.6175677	-0.7675523
	-0.002979096	-0.002918484	0.01397081	0.01187845	0.6175677	-0.7675523	-0.01764335	-0.02512181
4e+08	-0.01704673	-0.02737481	0.6027918	-0.7790034	0.01498233	0.0109335	-0.003125503	-0.00294402
	0.6027918	-0.7790034	-0.01867255	-0.02529991	-0.003124923	-0.002940881	0.01440453	0.01173358
	0.01498233	0.0109335	-0.003124923	-0.002940881	-0.01707852	-0.02746069	0.5998366	-0.7811935
	-0.003125503	-0.00294402	0.01440453	0.01173358	0.5998366	-0.7811935	-0.01884727	-0.02518176
4.1e+08	-0.01822903	-0.02752584	0.5848856	-0.7922494	0.01541005	0.01071767	-0.003275611	-0.002965086
	0.5848856	-0.7922494	-0.01987762	-0.02532085	-0.003274868	-0.002961856	0.01482567	0.01156668
	0.01541005	0.01071767	-0.003274868	-0.002961856	-0.01826776	-0.02761362	0.5818084	-0.7944242
	-0.003275611	-0.002965086	0.01482567	0.01156668	0.5818084	-0.7944242	-0.02006055	-0.02519222
4.2e+08	-0.01942303	-0.02763069	0.5666925	-0.8050829	0.01582242	0.01047936	-0.003429342	-0.002981454
	0.5666925	-0.8050829	-0.02109011	-0.02529248	-0.003428428	-0.002978141	0.01523311	0.01137841
	0.01582242	0.01047936	-0.003428428	-0.002978141	-0.019469	-0.02772009	0.5634923	-0.8072381
	-0.003429342	-0.002981454	0.01523311	0.01137841	0.5634923	-0.8072381	-0.02128109	-0.02515283
4.3e+08	-0.02062688	-0.02768886	0.5482218	-0.8174979	0.01621827	0.01021934	-0.003586606	-0.002992892
	0.5482218	-0.8174979	-0.02230798	-0.0252145	-0.003585514	-0.002989507	0.01562575	0.01116948
	0.01621827	0.01021934	-0.003585514	-0.002989507	-0.02068036	-0.02777959	0.5448982	-0.8196289
	-0.003586606	-0.002992892	0.01562575	0.01116948	0.5448982	-0.8196289	-0.02250682	-0.0250633
4.4e+08	-0.02183872	-0.02769993	0.529483	-0.8294886	0.01659648	0.009938464	-0.0037473	-0.002999169
	0.529483	-0.8294886	-0.02352913	-0.02508671	-0.003746021	-0.00299572	0.01600256	0.01094066
	0.01659648	0.009938464	-0.003746021	-0.00299572	-0.02189996	-0.02779167	0.5260355	-0.8315908
	-0.0037473	-0.002999169	0.01600256	0.01094066	0.5260355	-0.8315908	-0.02373561	-0.02492342
4.5e+08	-0.02305664	-0.02766356	0.510486	-0.8410491	0.01695597	0.009637645	-0.003911305	-0.00300005
	0.510486	-0.8410491	-0.0247515	-0.02490898	-0.003909833	-0.00299655	0.01636253	0.01069278
	0.01695597	0.009637645	-0.003909833	-0.00299655	-0.0231259	-0.02775598	0.5069143	-0.8431181
	-0.003911305	-0.00300005	0.01636253	0.01069278	0.5069143	-0.8431181	-0.02496537	-0.02473307
4.6e+08	-0.02427876	-0.02757949	0.4912406	-0.8521742	0.01729572	0.009317842	-0.004078488	-0.002995304
	0.4912406	-0.8521742	-0.025973	-0.02468126	-0.004076816	-0.002991765	0.01670468	0.01042671
	0.01729572	0.009317842	-0.004076816	-0.002991765	-0.02435628	-0.02767223	0.4875444	-0.8542053
	-0.004078488	-0.002995304	0.01670468	0.01042671	0.4875444	-0.8542053	-0.026194	-0.02449223
4.7e+08	-0.02550316	-0.0274475	0.4717565	-0.8628585	0.01761472	0.008980067	-0.0042487	-0.002984699
	0.4717565	-0.8628585	-0.02719157	-0.0244036	-0.004246824	-0.002981133	0.01702809	0.01014336
	0.01761472	0.008980067	-0.004246824	-0.002981133	-0.02558918	-0.0275402	0.4679359	-0.8648471
	-0.0042487	-0.002984699	0.01702809	0.01014336	0.4679359	-0.8648471	-0.0274194	-0.02420093
4.8e+08	-0.02672795	-0.02726747	0.452044	-0.8730971	0.01791206	0.008625382	-0.004421779	-0.002968006
	0.452044	-0.8730971	-0.02840515	-0.02407613	-0.004419695	-0.002964427	0.01733189	0.009843715
	0.01791206	0.008625382	-0.004419695	-0.002964427	-0.02682266	-0.02735975	0.448099	-0.8750386
	-0.004421779	-0.002968006	0.01733189	0.009843715	0.448099	-0.8750386	-0.02863947	-0.02385932
4.9e+08	-0.0279512	-0.02703936	0.4321131	-0.8828852	0.01818686	0.008254895	-0.004597548	-0.002945001
	0.4321131	-0.8828852	-0.02961167	-0.02369906	-0.004595252	-0.00294142	0.01761525	0.00952877
	0.01818686	0.008254895	-0.004595252	-0.00294142	-0.02805481	-0.02713081	0.4280441	-0.884775
	-0.004597548	-0.002945001	0.01761525	0.00952877	0.4280441	-0.884775	-0.02985214	-0.02346762
5e+08	-0.02917101	-0.02676318	0.4119741	-0.8922183	0.01843827	0.007869758	-0.004775812	-0.00291546
	0.4119741	-0.8922183	-0.03080911	-0.02327267	-0.004773302	-0.002911892	0.01787739	0.009199579
	0.01843827	0.007869758	-0.004773302	-0.002911892	-0.0292837	-0.0268534	0.4077814	-0.8940517
	-0.004775812	-0.00291546	0.01787739	0.009199579	0.4077814	-0.8940517	-0.03105534	-0.02302614
