!$
! Info: Touchstone file created by Circ.  Input file=Tx_2in_Rx_93ohms_TxVia_60mils_RxVia_70mils.circ
!$
# Hz S RI R 50
0	0.001990954	5.997796e-26	3.108686e-08	7.635295e-27	3.425663e-05	4.235505e-24	6.612082e-08	1.849294e-27
	3.108686e-08	7.635105e-27	0.001986313	5.824879e-26	6.377953e-08	2.443691e-26	3.096643e-05	4.712347e-24
	3.54768e-05	4.115539e-24	6.377954e-08	2.443558e-26	0.002001939	5.95366e-26	2.430735e-08	1.013913e-26
	6.612084e-08	1.849694e-27	3.123644e-05	4.732556e-24	2.430765e-08	1.014473e-26	0.002000943	5.795663e-26
1e+07	0.002916281	0.0002734898	4.50211e-08	9.977468e-08	6.168314e-05	0.0006159685	9.504753e-08	2.912967e-07
	4.502111e-08	9.977469e-08	0.002914512	0.000273366	8.280826e-08	2.950341e-07	6.098785e-05	0.000616112
	6.175268e-05	0.0006159363	8.280827e-08	2.950341e-07	0.002875417	0.0002747468	3.07238e-08	1.347959e-07
	9.504753e-08	2.912967e-07	6.098988e-05	0.0006161095	3.072379e-08	1.347959e-07	0.002873464	0.0002746849
2e+07	0.003555636	-0.0001295245	6.471918e-08	1.813304e-07	9.675475e-05	0.001232791	1.686438e-07	5.017802e-07
	6.47192e-08	1.813304e-07	0.003548218	-0.0001299476	1.286233e-07	5.119743e-07	9.387189e-05	0.001233236
	9.674015e-05	0.001232755	1.286233e-07	5.119743e-07	0.003527196	-0.0001072186	6.487248e-08	2.028707e-07
	1.686438e-07	5.017802e-07	9.386837e-05	0.001233236	6.487247e-08	2.028707e-07	0.003519033	-0.0001075885
3e+07	0.004005383	-0.0007786984	8.537162e-08	2.590232e-07	0.0001748265	0.001829571	2.499919e-07	7.052951e-07
	8.537162e-08	2.590232e-07	0.003988908	-0.0007785276	1.617659e-07	7.299719e-07	0.0001684023	0.00183055
	0.0001748228	0.001829571	1.617659e-07	7.299719e-07	0.003986958	-0.0007487014	9.312508e-08	2.853311e-07
	2.499919e-07	7.052951e-07	0.000168402	0.001830552	9.312508e-08	2.853311e-07	0.003968895	-0.0007482914
4e+07	0.004340259	-0.001527035	1.078827e-07	3.337133e-07	0.000290669	0.002415448	3.407839e-07	9.027995e-07
	1.078827e-07	3.337133e-07	0.004310958	-0.001525903	1.886017e-07	9.473356e-07	0.0002793145	0.002417282
	0.0002906743	0.002415448	1.886017e-07	9.473356e-07	0.004330989	-0.001492903	1.188119e-07	3.669876e-07
	3.407839e-07	9.027995e-07	0.0002793152	0.002417283	1.188119e-07	3.669876e-07	0.004298914	-0.001491387
5e+07	0.004587196	-0.002335759	1.328701e-07	4.059586e-07	0.0004317257	0.002991626	4.443956e-07	1.094169e-06
	1.328701e-07	4.059586e-07	0.004541161	-0.002332393	2.122382e-07	1.162614e-06	0.0004141001	0.002994756
	0.0004317283	0.002991625	2.122382e-07	1.162614e-06	0.004586379	-0.002299637	1.460144e-07	4.465266e-07
	4.443956e-07	1.094169e-06	0.000414101	0.002994757	1.460144e-07	4.465266e-07	0.004535965	-0.00229558
6e+07	0.004759696	-0.003185408	1.60494e-07	4.758398e-07	0.0005978296	0.00355766	5.623163e-07	1.277405e-06
	1.60494e-07	4.758398e-07	0.004693555	-0.003178234	2.342871e-07	1.375897e-06	0.0005726388	0.003562614
	0.0005978289	0.003557662	2.342871e-07	1.375897e-06	0.004766767	-0.003148835	1.758165e-07	5.236462e-07
	5.623163e-07	1.277405e-06	0.0005726401	0.003562614	1.758165e-07	5.236462e-07	0.004694359	-0.003140468
7e+07	0.004865544	-0.004064019	1.907572e-07	5.432835e-07	0.0007886563	0.004112769	6.948933e-07	1.450522e-06
	1.907572e-07	5.432835e-07	0.004776084	-0.004051562	2.557432e-07	1.587297e-06	0.0007546463	0.004120156
	0.0007886547	0.004112774	2.557432e-07	1.587297e-06	0.004880022	-0.004028305	2.085479e-07	5.981085e-07
	6.948933e-07	1.450522e-06	0.000754648	0.004120156	2.085479e-07	5.981085e-07	0.004782149	-0.004014025
8e+07	0.00490961	-0.004962898	2.235423e-07	6.081543e-07	0.001003786	0.004655989	8.417861e-07	1.611757e-06
	2.235422e-07	6.081543e-07	0.004793467	-0.004943617	2.772442e-07	1.796761e-06	0.0009597444	0.004666503
	0.001003786	0.004655995	2.772442e-07	1.796761e-06	0.004931014	-0.0049293	2.442815e-07	6.696511e-07
	8.417861e-07	1.611757e-06	0.0009597463	0.004666503	2.442815e-07	6.696511e-07	0.004803981	-0.004907456
9e+07	0.004895378	-0.005874452	2.586438e-07	6.703139e-07	0.001242706	0.005186245	1.002223e-06	1.759577e-06
	2.586438e-07	6.703139e-07	0.004749018	-0.005846481	2.991904e-07	2.004121e-06	0.001187464	0.005200662
	0.001242707	0.005186249	2.991904e-07	2.004121e-06	0.004923146	-0.005844308	2.829573e-07	7.379927e-07
	1.002223e-06	1.759577e-06	0.001187465	0.005200661	2.829574e-07	7.379927e-07	0.004763027	-0.005812864
1e+08	0.004826951	-0.006786882	2.958047e-07	7.296477e-07	0.001504821	0.005702339	1.175167e-06	1.892643e-06
	2.958047e-07	7.296477e-07	0.00464683	-0.006747884	3.218409e-07	2.209145e-06	0.001437257	0.005721516
	0.001504821	0.005702339	3.218409e-07	2.209145e-06	0.004860236	-0.006762358	3.244362e-07	8.028478e-07
	1.175167e-06	1.892643e-06	0.001437257	0.005721516	3.244362e-07	8.028478e-07	0.004663074	-0.006718709
1.1e+08	0.004728404	-0.007713367	3.35357e-07	7.864944e-07	0.001788947	0.00620343	1.359961e-06	2.016424e-06
	3.35357e-07	7.864944e-07	0.004512165	-0.007661042	3.427785e-07	2.414399e-06	0.001708011	0.006228294
	0.001788947	0.00620343	3.427785e-07	2.414399e-06	0.004763303	-0.007693996	3.677942e-07	8.654803e-07
	1.359961e-06	2.016424e-06	0.001708009	0.006228294	3.677942e-07	8.654803e-07	0.004526628	-0.007635586
1.2e+08	0.00457296	-0.008655147	3.769425e-07	8.405335e-07	0.002094685	0.006688634	1.556069e-06	2.126759e-06
	3.769425e-07	8.405335e-07	0.004317696	-0.008586798	3.634984e-07	2.618779e-06	0.001999369	0.006720186
	0.002094685	0.006688634	3.634984e-07	2.618779e-06	0.004609497	-0.008639729	4.133943e-07	9.250488e-07
	1.556069e-06	2.126759e-06	0.001999367	0.006720187	4.133943e-07	9.250488e-07	0.004330147	-0.008563613
1.3e+08	0.004363303	-0.009601563	4.204331e-07	8.916593e-07	0.00242125	0.007156848	1.762751e-06	2.222961e-06
	4.204331e-07	8.916593e-07	0.004066342	-0.009514329	3.840673e-07	2.822372e-06	0.00231061	0.007196163
	0.00242125	0.007156848	3.840673e-07	2.822372e-06	0.004401318	-0.009589863	4.610925e-07	9.81434e-07
	1.762751e-06	2.222961e-06	0.002310608	0.007196164	4.610925e-07	9.81434e-07	0.004076377	-0.009492903
1.4e+08	0.004100974	-0.01054786	4.656819e-07	9.397684e-07	0.002767782	0.007607063	1.979206e-06	2.304375e-06
	4.656819e-07	9.397684e-07	0.003759832	-0.01043872	4.045214e-07	3.025259e-06	0.002640938	0.007655281
	0.002767782	0.007607063	4.045214e-07	3.025259e-06	0.004140256	-0.01053983	5.107259e-07	1.034522e-06
	1.979206e-06	2.304375e-06	0.002640937	0.007655282	5.107259e-07	1.034522e-06	0.003767017	-0.01041871
1.5e+08	0.003787279	-0.01149034	5.125297e-07	9.847601e-07	0.003133362	0.008038309	2.204579e-06	2.370379e-06
	5.125297e-07	9.847601e-07	0.003399654	-0.01135612	4.24888e-07	3.227513e-06	0.002989504	0.008096636
	0.003133362	0.008038309	4.24888e-07	3.227513e-06	0.003827591	-0.011486	5.621191e-07	1.084201e-06
	2.204579e-06	2.370379e-06	0.002989504	0.008096636	5.621191e-07	1.084201e-06	0.003403547	-0.01133723
1.6e+08	0.003423437	-0.01242584	5.608067e-07	1.026538e-06	0.003517016	0.008449657	2.437974e-06	2.420387e-06
	5.608067e-07	1.026538e-06	0.002987211	-0.01226318	4.451887e-07	3.429198e-06	0.003355406	0.008519359
	0.003517016	0.008449657	4.451887e-07	3.429198e-06	0.003464525	-0.01242524	6.150857e-07	1.130369e-06
	2.437974e-06	2.420387e-06	0.003355406	0.008519359	6.150857e-07	1.130369e-06	0.002987372	-0.01224514
1.7e+08	0.003010625	-0.01335151	6.103336e-07	1.065013e-06	0.003917718	0.008840223	2.678454e-06	2.453857e-06
	6.103336e-07	1.065013e-06	0.002523872	-0.01315692	4.654406e-07	3.630375e-06	0.003737695	0.008922624
	0.003917718	0.008840223	4.654406e-07	3.630375e-06	0.00305222	-0.01335471	6.694294e-07	1.172926e-06
	2.678454e-06	2.453857e-06	0.003737695	0.008922624	6.694294e-07	1.172926e-06	0.002519867	-0.01313944
1.8e+08	0.002550001	-0.01426473	6.609223e-07	1.100103e-06	0.004334396	0.009209173	2.92504e-06	2.470291e-06
	6.609223e-07	1.100103e-06	0.002011002	-0.01403455	4.856576e-07	3.831094e-06	0.004135376	0.009305649
	0.004334396	0.009209173	4.856576e-07	3.831094e-06	0.002591824	-0.0142718	7.249447e-07	1.211785e-06
	2.92504e-06	2.470291e-06	0.004135376	0.009305649	7.249447e-07	1.211785e-06	0.00200241	-0.01401735
1.9e+08	0.002042727	-0.01516307	7.123767e-07	1.131734e-06	0.00476593	0.009555723	3.176719e-06	2.469242e-06
	7.123767e-07	1.131734e-06	0.001449976	-0.01489351	5.0585e-07	4.031406e-06	0.004547412	0.009667699
	0.00476593	0.009555723	5.0585e-07	4.031406e-06	0.002084492	-0.01517406	7.814178e-07	1.246865e-06
	3.176719e-06	2.469242e-06	0.004547412	0.009667699	7.814178e-07	1.246865e-06	0.001436388	-0.01487627
2e+08	0.001489974	-0.01604424	7.644943e-07	1.159843e-06	0.005211159	0.009879144	3.432449e-06	2.450316e-06
	7.644943e-07	1.159843e-06	0.0008421924	-0.01573137	5.260262e-07	4.231354e-06	0.004972729	0.01000809
	0.005211159	0.009879145	5.260262e-07	4.231354e-06	0.001531386	-0.01605922	8.386275e-07	1.278098e-06
	3.432449e-06	2.450316e-06	0.004972729	0.01000809	8.386275e-07	1.278098e-06	0.000823216	-0.01571378
2.1e+08	0.0008929323	-0.01690608	8.170661e-07	1.184379e-06	0.005668886	0.01017877	3.691158e-06	2.413178e-06
	8.170661e-07	1.184379e-06	0.0001890759	-0.01654587	5.461921e-07	4.430983e-06	0.005410215	0.0103262
	0.005668886	0.01017877	5.461921e-07	4.430983e-06	0.0009336937	-0.01692508	8.96346e-07	1.305427e-06
	3.691158e-06	2.413178e-06	0.005410215	0.0103262	8.96346e-07	1.305427e-06	0.0001643362	-0.01652758
2.2e+08	0.0002528167	-0.01774654	8.698784e-07	1.205299e-06	0.006137876	0.01045398	3.951748e-06	2.357547e-06
	8.698784e-07	1.205299e-06	-0.0005079182	-0.01733486	5.663522e-07	4.630333e-06	0.005858729	0.01062144
	0.006137876	0.01045398	5.663522e-07	4.630333e-06	0.0002926243	-0.01776961	9.543403e-07	1.328807e-06
	3.951748e-06	2.357547e-06	0.005858729	0.01062144	9.543403e-07	1.328807e-06	-0.000538775	-0.01731549
2.3e+08	-0.0004291264	-0.01856367	9.227131e-07	1.222575e-06	0.006616865	0.01070424	4.213104e-06	2.283205e-06
	9.227131e-07	1.222575e-06	-0.001247295	-0.01809629	5.865102e-07	4.829446e-06	0.006317097	0.01089329
	0.006616865	0.01070424	5.865102e-07	4.829446e-06	-0.0003905811	-0.01859082	1.012372e-06	1.348206e-06
	4.213104e-06	2.283205e-06	0.006317097	0.01089329	1.012372e-06	1.348206e-06	-0.001284604	-0.01807547
2.4e+08	-0.001151624	-0.01935561	9.753486e-07	1.236188e-06	0.007104559	0.01092906	4.474091e-06	2.189996e-06
	9.753486e-07	1.236188e-06	-0.002027529	-0.01882823	6.066687e-07	5.028361e-06	0.006784122	0.01114131
	0.007104559	0.01092906	6.066687e-07	5.028361e-06	-0.001114653	-0.01938685	1.070201e-06	1.363606e-06
	4.474091e-06	2.189996e-06	0.006784122	0.01114131	1.070201e-06	1.363606e-06	-0.002071603	-0.01880555
2.5e+08	-0.001913363	-0.02012058	1.027561e-06	1.246134e-06	0.007599642	0.01112802	4.733563e-06	2.077826e-06
	1.027561e-06	1.246134e-06	-0.00284705	-0.01952885	6.268306e-07	5.227118e-06	0.007258581	0.01136508
	0.007599642	0.01112802	6.268306e-07	5.227118e-06	-0.001878282	-0.02015591	1.127581e-06	1.375e-06
	4.733563e-06	2.077826e-06	0.007258581	0.01136508	1.127581e-06	1.375e-06	-0.00289818	-0.01950389
2.6e+08	-0.002713005	-0.02085688	1.079123e-06	1.252419e-06	0.008100774	0.01130077	4.990365e-06	1.946665e-06
	1.079123e-06	1.252419e-06	-0.003704255	-0.02019639	6.469981e-07	5.425755e-06	0.007739235	0.01156427
	0.008100774	0.01130077	6.469981e-07	5.425755e-06	-0.002680128	-0.02089628	1.184267e-06	1.382398e-06
	4.990365e-06	1.946665e-06	0.007739235	0.01156427	1.184267e-06	1.382398e-06	-0.003762705	-0.02016872
2.7e+08	-0.003549158	-0.02156289	1.129808e-06	1.255066e-06	0.0086066	0.01144701	5.243333e-06	1.796549e-06
	1.129808e-06	1.255066e-06	-0.004597492	-0.02082922	6.671745e-07	5.624312e-06	0.008224824	0.01173861
	0.0086066	0.01144701	6.671745e-07	5.624312e-06	-0.003518807	-0.02160632	1.240012e-06	1.385822e-06
	5.243333e-06	1.796549e-06	0.008224824	0.01173861	1.240012e-06	1.385822e-06	-0.004663505	-0.02079837
2.8e+08	-0.004420407	-0.02223706	1.179389e-06	1.254107e-06	0.009115749	0.01156655	5.491304e-06	1.627576e-06
	1.179389e-06	1.254107e-06	-0.005525076	-0.02142575	6.873637e-07	5.822829e-06	0.008714079	0.01188788
	0.009115749	0.01156655	6.873637e-07	5.822829e-06	-0.004392902	-0.02228448	1.294567e-06	1.385308e-06
	5.491304e-06	1.627576e-06	0.008714079	0.01188788	1.294567e-06	1.385308e-06	-0.00559887	-0.02139127
2.9e+08	-0.005325292	-0.0228779	1.227641e-06	1.249589e-06	0.00962684	0.01165922	5.733115e-06	1.439914e-06
	1.227641e-06	1.249589e-06	-0.006485282	-0.02198451	7.075702e-07	6.021344e-06	0.009205717	0.01201192
	0.00962684	0.01165922	7.075702e-07	6.021344e-06	-0.005300957	-0.02292924	1.347686e-06	1.380908e-06
	5.733115e-06	1.439914e-06	0.009205717	0.01201192	1.347686e-06	1.380908e-06	-0.00656705	-0.02194591
3e+08	-0.006262316	-0.02348401	1.274336e-06	1.241573e-06	0.01013849	0.01172495	5.967609e-06	1.233791e-06
	1.274336e-06	1.241573e-06	-0.007476345	-0.02250412	7.277999e-07	6.219899e-06	0.009698453	0.01211066
	0.01013849	0.01172495	7.277999e-07	6.219899e-06	-0.006241479	-0.02353921	1.399123e-06	1.372686e-06
	5.967609e-06	1.233791e-06	0.009698453	0.01211066	1.399123e-06	1.372686e-06	-0.007566256	-0.02246091
3.1e+08	-0.007229952	-0.02405405	1.319253e-06	1.23013e-06	0.0106493	0.01176374	6.193638e-06	1.009505e-06
	1.319253e-06	1.23013e-06	-0.008496466	-0.02298325	7.480598e-07	6.418532e-06	0.01019099	0.01218408
	0.0106493	0.01176374	7.480598e-07	6.418532e-06	-0.007212937	-0.02411301	1.448636e-06	1.360723e-06
	6.193638e-06	1.009505e-06	0.01019099	0.01218408	1.448636e-06	1.360723e-06	-0.008594663	-0.02293493
3.2e+08	-0.008226631	-0.02458675	1.36217e-06	1.215346e-06	0.01115788	0.01177564	6.410064e-06	7.674165e-07
	1.36217e-06	1.215346e-06	-0.009543812	-0.02342069	7.683583e-07	6.617283e-06	0.01068205	0.01223221
	0.01115788	0.01177564	7.683583e-07	6.617283e-06	-0.008213764	-0.02464936	1.495984e-06	1.345111e-06
	6.410064e-06	7.674165e-07	0.01068205	0.01223221	1.495984e-06	1.345111e-06	-0.009650411	-0.02336675
3.3e+08	-0.00925075	-0.02508092	1.402871e-06	1.197321e-06	0.01166285	0.01176079	6.615768e-06	5.079507e-07
	1.402871e-06	1.197321e-06	-0.01061651	-0.02381529	7.887055e-07	6.816192e-06	0.01117033	0.01225517
	0.01166285	0.01176079	7.887055e-07	6.816192e-06	-0.009242355	-0.02514705	1.540931e-06	1.325959e-06
	6.615768e-06	5.079507e-07	0.01117033	0.01225517	1.540931e-06	1.325959e-06	-0.0107316	-0.0237552
3.4e+08	-0.01030067	-0.02553541	1.441144e-06	1.176167e-06	0.01216282	0.01171939	6.809649e-06	2.315967e-07
	1.441144e-06	1.176167e-06	-0.01171267	-0.02416599	8.091133e-07	7.0153e-06	0.01165455	0.01225313
	0.01216282	0.01171939	8.091133e-07	7.0153e-06	-0.01029708	-0.02560493	1.583247e-06	1.303388e-06
	6.809649e-06	2.315967e-07	0.01165455	0.01225313	1.583247e-06	1.303388e-06	-0.01183631	-0.02409924
3.5e+08	-0.01137474	-0.02594917	1.476781e-06	1.152007e-06	0.01265644	0.01165171	6.990627e-06	-6.109375e-08
	1.476781e-06	1.152007e-06	-0.01283036	-0.02447184	8.29595e-07	7.214646e-06	0.01213345	0.01222633
	0.01265644	0.01165171	8.29595e-07	7.214646e-06	-0.01137626	-0.02602192	1.622705e-06	1.277533e-06
	6.990627e-06	-6.109375e-08	0.01213345	0.01222633	1.622705e-06	1.277533e-06	-0.01296259	-0.02439787
3.6e+08	-0.01247124	-0.02632122	1.50958e-06	1.124978e-06	0.01314233	0.0115581	7.157653e-06	-3.695071e-07
	1.50958e-06	1.124978e-06	-0.01396762	-0.02473192	8.501664e-07	7.414269e-06	0.01260576	0.01217507
	0.01314233	0.0115581	8.501664e-07	7.414269e-06	-0.0124782	-0.02639701	1.659087e-06	1.248543e-06
	7.157653e-06	-3.695071e-07	0.01260576	0.01217507	1.659087e-06	1.248543e-06	-0.01410845	-0.02465021
3.7e+08	-0.01358846	-0.02665062	1.539348e-06	1.09523e-06	0.01361917	0.01143897	7.309703e-06	-6.929696e-07
	1.539348e-06	1.09523e-06	-0.01512248	-0.02494545	8.708448e-07	7.61421e-06	0.01307023	0.01209971
	0.01361917	0.01143897	8.708448e-07	7.61421e-06	-0.01360116	-0.02672927	1.69218e-06	1.216581e-06
	7.309703e-06	-6.929696e-07	0.01307023	0.01209971	1.69218e-06	1.216581e-06	-0.01527188	-0.02485545
3.8e+08	-0.01472464	-0.02693652	1.565896e-06	1.062923e-06	0.01408564	0.01129478	7.445788e-06	-1.030749e-06
	1.565896e-06	1.062923e-06	-0.01629294	-0.0251117	8.916498e-07	7.814507e-06	0.01352565	0.01200067
	0.01408564	0.01129478	8.916498e-07	7.814507e-06	-0.0147434	-0.02701782	1.721781e-06	1.18182e-06
	7.445788e-06	-1.030749e-06	0.01352565	0.01200067	1.721781e-06	1.18182e-06	-0.01645087	-0.02501286
3.9e+08	-0.015878	-0.02717816	1.589044e-06	1.028229e-06	0.01454045	0.01112609	7.564955e-06	-1.382054e-06
	1.589044e-06	1.028229e-06	-0.01747697	-0.02523003	9.126031e-07	8.0152e-06	0.01397081	0.01187845
	0.01454045	0.01112609	9.126031e-07	8.0152e-06	-0.01590312	-0.02726187	1.747694e-06	1.144449e-06
	7.564955e-06	-1.382054e-06	0.01397081	0.01187845	1.747694e-06	1.144449e-06	-0.01764335	-0.02512181
4e+08	-0.01704673	-0.02737481	1.608622e-06	9.913318e-07	0.01498233	0.0109335	7.666291e-06	-1.746041e-06
	1.608622e-06	9.913318e-07	-0.01867255	-0.02529991	9.337284e-07	8.216325e-06	0.01440453	0.01173358
	0.01498233	0.0109335	9.337284e-07	8.216325e-06	-0.01707852	-0.02746069	1.769733e-06	1.104666e-06
	7.666291e-06	-1.746041e-06	0.01440453	0.01173358	1.769733e-06	1.104666e-06	-0.01884727	-0.02518176
4.1e+08	-0.01822903	-0.02752584	1.624468e-06	9.524253e-07	0.01541005	0.01071767	7.748924e-06	-2.12181e-06
	1.624468e-06	9.524253e-07	-0.01987762	-0.02532085	9.550519e-07	8.41792e-06	0.01482567	0.01156668
	0.01541005	0.01071767	9.550519e-07	8.41792e-06	-0.01826776	-0.02761362	1.787723e-06	1.062683e-06
	7.748924e-06	-2.12181e-06	0.01482567	0.01156668	1.787723e-06	1.062683e-06	-0.02006055	-0.02519222
4.2e+08	-0.01942303	-0.02763069	1.636431e-06	9.117141e-07	0.01582242	0.01047936	7.812027e-06	-2.50841e-06
	1.636431e-06	9.117141e-07	-0.02109011	-0.02529248	9.766018e-07	8.620022e-06	0.01523311	0.01137841
	0.01582242	0.01047936	9.766018e-07	8.620022e-06	-0.019469	-0.02772009	1.801499e-06	1.018721e-06
	7.812027e-06	-2.50841e-06	0.01523311	0.01137841	1.801499e-06	1.018721e-06	-0.02128109	-0.02515283
4.3e+08	-0.02062688	-0.02768886	1.644368e-06	8.69412e-07	0.01621827	0.01021934	7.854824e-06	-2.904843e-06
	1.644368e-06	8.69412e-07	-0.02230798	-0.0252145	9.984086e-07	8.822666e-06	0.01562575	0.01116948
	0.01621827	0.01021934	9.984086e-07	8.822666e-06	-0.02068036	-0.02777959	1.810906e-06	9.730125e-07
	7.854824e-06	-2.904843e-06	0.01562575	0.01116948	1.810906e-06	9.730125e-07	-0.02250682	-0.0250633
4.4e+08	-0.02183872	-0.02769993	1.64815e-06	8.257425e-07	0.01659648	0.009938464	7.876585e-06	-3.310063e-06
	1.64815e-06	8.257425e-07	-0.02352913	-0.02508671	1.020505e-06	9.025886e-06	0.01600256	0.01094066
	0.01659648	0.009938464	1.020505e-06	9.025886e-06	-0.02189996	-0.02779167	1.815804e-06	9.258006e-07
	7.876585e-06	-3.310063e-06	0.01600256	0.01094066	1.815804e-06	9.258006e-07	-0.02373561	-0.02492342
4.5e+08	-0.02305664	-0.02766356	1.647659e-06	7.809375e-07	0.01695597	0.009637645	7.876638e-06	-3.722978e-06
	1.647659e-06	7.809375e-07	-0.0247515	-0.02490898	1.042927e-06	9.229716e-06	0.01636253	0.01069278
	0.01695597	0.009637645	1.042927e-06	9.229716e-06	-0.0231259	-0.02775598	1.816064e-06	8.773368e-07
	7.876638e-06	-3.722978e-06	0.01636253	0.01069278	1.816064e-06	8.773368e-07	-0.02496537	-0.02473307
4.6e+08	-0.02427876	-0.02757949	1.642789e-06	7.352369e-07	0.01729572	0.009317842	7.854364e-06	-4.142459e-06
	1.642789e-06	7.352369e-07	-0.025973	-0.02468126	1.06571e-06	9.434187e-06	0.01670468	0.01042671
	0.01729572	0.009317842	1.06571e-06	9.434187e-06	-0.02435628	-0.02767223	1.811568e-06	8.278816e-07
	7.854364e-06	-4.142459e-06	0.01670468	0.01042671	1.811568e-06	8.278816e-07	-0.026194	-0.02449223
4.7e+08	-0.02550316	-0.0274475	1.633446e-06	6.888883e-07	0.01761472	0.008980067	7.809202e-06	-4.567333e-06
	1.633446e-06	6.888883e-07	-0.02719157	-0.0244036	1.088894e-06	9.63933e-06	0.01702809	0.01014336
	0.01761472	0.008980067	1.088894e-06	9.63933e-06	-0.02558918	-0.0275402	1.802216e-06	7.777036e-07
	7.809202e-06	-4.567333e-06	0.01702809	0.01014336	1.802216e-06	7.777036e-07	-0.0274194	-0.02420093
4.8e+08	-0.02672795	-0.02726747	1.619551e-06	6.421456e-07	0.01791206	0.008625382	7.740653e-06	-4.996396e-06
	1.619551e-06	6.421456e-07	-0.02840515	-0.02407613	1.112522e-06	9.845172e-06	0.01733189	0.009843715
