!$
! Info: Touchstone file created by Circ.  Input file=Tx_2in_Rx_85ohms_TxVia_60mils_RxVia_70mils.circ
!$
# Hz S RI R 50
0	0.001765852	5.138807e-26	-1.096703e-05	9.689413e-26	3.131035e-05	3.299424e-24	-1.096545e-05	4.003615e-26
	-1.096703e-05	9.678392e-26	0.0017614	5.83508e-26	-1.09669e-05	9.979713e-26	3.100965e-05	4.160825e-24
	3.239492e-05	3.32152e-24	-1.09669e-05	9.976629e-26	0.001781479	5.133002e-26	-1.096747e-05	2.221979e-25
	-1.096545e-05	3.981049e-26	3.127968e-05	4.178668e-24	-1.096747e-05	2.221142e-25	0.001776036	5.805816e-26
1e+07	0.002448893	-0.001513717	-1.034376e-06	-2.864559e-06	4.650603e-05	0.0006148068	-4.909382e-07	-3.293403e-06
	-1.034376e-06	-2.864559e-06	0.002442822	-0.001481419	-1.933712e-06	-2.454285e-07	6.135354e-05	0.0006130752
	4.6537e-05	0.0006148111	-1.933712e-06	-2.454285e-07	0.002731511	-0.001427661	-4.276359e-06	9.009865e-08
	-4.909383e-07	-3.293403e-06	6.135556e-05	0.0006130727	-4.276359e-06	9.009871e-08	0.002451388	-0.001473187
2e+07	0.002966492	-0.003609748	-9.592196e-07	-1.215258e-06	9.594399e-05	0.001223981	-1.779048e-07	-1.759609e-06
	-9.592196e-07	-1.215258e-06	0.002982785	-0.003553871	-4.55632e-06	-3.606893e-06	0.0001165221	0.00120861
	9.595779e-05	0.001223962	-4.55632e-06	-3.606893e-06	0.003260375	-0.003562272	-6.055623e-06	-2.161712e-06
	-1.779049e-07	-1.759609e-06	0.0001165186	0.001208611	-6.055623e-06	-2.161712e-06	0.002993581	-0.003536557
3e+07	0.003211217	-0.005971417	-9.14765e-07	-8.40913e-07	0.0001845937	0.001816597	-2.440415e-07	-1.41694e-06
	-9.14765e-07	-8.40913e-07	0.003238902	-0.005907678	-6.5843e-06	-4.347651e-06	0.0001957241	0.001796053
	0.0001845946	0.001816595	-6.5843e-06	-4.347651e-06	0.003514068	-0.005933892	-7.428951e-06	-2.567717e-06
	-2.440416e-07	-1.41694e-06	0.0001957238	0.001796054	-7.428951e-06	-2.567717e-06	0.003251238	-0.005882795
4e+07	0.00325949	-0.008424607	-8.785786e-07	-6.569641e-07	0.0002987894	0.002399738	-4.602615e-07	-1.216049e-06
	-8.785786e-07	-6.569642e-07	0.003290316	-0.008358012	-8.294478e-06	-4.41299e-06	0.0002997401	0.002376316
	0.0002987934	0.002399743	-8.294478e-06	-4.41299e-06	0.003570008	-0.008394081	-8.582248e-06	-2.501302e-06
	-4.602615e-07	-1.216049e-06	0.0002997408	0.002376317	-8.582248e-06	-2.501302e-06	0.003303983	-0.008326366
5e+07	0.003139357	-0.01092447	-8.467501e-07	-5.425377e-07	0.0004387121	0.002973489	-6.485561e-07	-1.054949e-06
	-8.467501e-07	-5.425377e-07	0.003166065	-0.01085698	-9.785007e-06	-4.096652e-06	0.0004285333	0.002948726
	0.0004387152	0.00297349	-9.785007e-06	-4.096652e-06	0.003456538	-0.0109007	-9.58183e-06	-2.168869e-06
	-6.485561e-07	-1.054949e-06	0.0004285342	0.002948726	-9.58183e-06	-2.168869e-06	0.00318059	-0.01081902
6e+07	0.002865374	-0.01344743	-8.173134e-07	-4.608647e-07	0.0006041012	0.003537167	-8.14457e-07	-9.018516e-07
	-8.173134e-07	-4.608646e-07	0.00288177	-0.01337981	-1.110195e-05	-3.504469e-06	0.000581762	0.003512388
	0.0006040974	0.003537166	-1.110195e-05	-3.504469e-06	0.003188293	-0.01343095	-1.045867e-05	-1.644029e-06
	-8.14457e-07	-9.018516e-07	0.0005817633	0.003512388	-1.045867e-05	-1.644029e-06	0.002896793	-0.0133358
7e+07	0.00244639	-0.01597802	-7.89023e-07	-3.96842e-07	0.0007945533	0.00408985	-9.606709e-07	-7.434647e-07
	-7.890229e-07	-3.96842e-07	0.002446731	-0.01591071	-1.226809e-05	-2.6788e-06	0.0007590069	0.004066342
	0.0007945421	0.00408985	-1.226809e-05	-2.6788e-06	0.002774134	-0.01596972	-1.122779e-05	-9.556637e-07
	-9.606708e-07	-7.434647e-07	0.0007590086	0.004066342	-1.122779e-05	-9.556637e-07	0.002461918	-0.01586093
8e+07	0.001888374	-0.0185044	-7.609095e-07	-3.430022e-07	0.001009578	0.004630491	-1.088083e-06	-5.713696e-07
	-7.609094e-07	-3.430022e-07	0.001866902	-0.01843771	-1.329168e-05	-1.624795e-06	0.0009597995	0.004609594
	0.001009564	0.004630494	-1.329168e-05	-1.624795e-06	0.00221998	-0.01850554	-1.189411e-05	-1.062052e-07
	-1.088083e-06	-5.713696e-07	0.0009598013	0.004609593	-1.189411e-05	-1.062052e-07	0.001881819	-0.01838248
9e+07	0.001195898	-0.02101642	-7.319145e-07	-2.948932e-07	0.001248599	0.005157983	-1.195522e-06	-3.753265e-07
	-7.319144e-07	-2.948932e-07	0.001146657	-0.02095075	-1.416514e-05	-2.996756e-07	0.001183618	0.005141194
	0.001248588	0.005157987	-1.416514e-05	-2.996756e-07	0.001530242	-0.02102881	-1.245111e-05	9.366247e-07
	-1.195522e-06	-3.753266e-07	0.001183619	0.005141193	-1.245111e-05	9.366247e-07	0.001160744	-0.0208903
1e+08	0.0003733482	-0.02350309	-6.994276e-07	-2.470163e-07	0.001510978	0.005671321	-1.271948e-06	-1.135759e-07
	-6.994276e-07	-2.470163e-07	0.0002895618	-0.02344163	-1.48072e-05	1.609187e-06	0.001430021	0.005660857
	0.001510978	0.005671321	-1.48072e-05	1.609187e-06	0.0007085354	-0.0235314	-1.283741e-05	2.403525e-06
	-1.271948e-06	-1.135759e-07	0.001430021	0.005660857	-1.283741e-05	2.403525e-06	0.0003021615	-0.02337614
1.1e+08	-0.0005670563	-0.0259632	-6.826268e-07	-2.057498e-07	0.001796387	0.00616907	-1.189014e-06	1.046784e-07
	-6.826268e-07	-2.057498e-07	-0.0007024292	-0.02589975	-1.414329e-05	3.221954e-06	0.001700984	0.006165474
	0.001796387	0.00616907	-1.414329e-05	3.221954e-06	-0.0002423771	-0.02600453	-1.258929e-05	2.271036e-06
	-1.189014e-06	1.046784e-07	0.001700982	0.006165474	-1.258929e-05	2.271036e-06	-0.0006919681	-0.02582907
1.2e+08	-0.001632659	-0.02839194	-6.736103e-07	-1.71537e-07	0.002103319	0.006649954	-1.11862e-06	2.489513e-07
	-6.736103e-07	-1.71537e-07	-0.001822221	-0.028317	-1.390659e-05	2.974379e-06	0.001992205	0.006653245
	0.002103319	0.006649954	-1.390659e-05	2.974379e-06	-0.00131772	-0.02844107	-1.244759e-05	1.825925e-06
	-1.11862e-06	2.489513e-07	0.001992203	0.006653246	-1.244759e-05	1.825925e-06	-0.001814363	-0.02824093
1.3e+08	-0.002819771	-0.03078019	-6.662297e-07	-1.414631e-07	0.002430925	0.007113113	-1.067217e-06	3.086871e-07
	-6.662297e-07	-1.414631e-07	-0.003066469	-0.03068787	-1.374669e-05	2.553365e-06	0.002303015	0.007124117
	0.002430925	0.007113113	-1.374669e-05	2.553365e-06	-0.002514333	-0.03083504	-1.230309e-05	1.520985e-06
	-1.067217e-06	3.086871e-07	0.002303013	0.007124118	-1.230309e-05	1.520985e-06	-0.003061687	-0.03060623
1.4e+08	-0.004125063	-0.03312136	-6.594511e-07	-1.144518e-07	0.002778267	0.007557571	-1.053572e-06	2.405187e-07
	-6.594511e-07	-1.144518e-07	-0.004431728	-0.03300637	-1.358701e-05	2.243804e-06	0.002632569	0.007577344
	0.002778267	0.007557571	-1.358701e-05	2.243804e-06	-0.003829009	-0.03318053	-1.216143e-05	1.299142e-06
	-1.053572e-06	2.405187e-07	0.002632568	0.007577345	-1.216143e-05	1.299142e-06	-0.004430487	-0.03291894
1.5e+08	-0.005545216	-0.03540945	-6.527328e-07	-8.993347e-08	0.003144344	0.007982371	-1.040601e-06	1.836862e-07
	-6.527328e-07	-8.993346e-08	-0.005914491	-0.0352667	-1.343075e-05	2.009742e-06	0.002979956	0.008012113
	0.003144344	0.007982371	-1.343075e-05	2.009742e-06	-0.005258486	-0.03547188	-1.202401e-05	1.133458e-06
	-1.040601e-06	1.836862e-07	0.002979955	0.008012114	-1.202401e-05	1.133458e-06	-0.00591724	-0.03517322
1.6e+08	-0.007076844	-0.03763889	-6.460576e-07	-6.737577e-08	0.003528095	0.008386591	-1.028485e-06	1.352592e-07
	-6.460576e-07	-6.737577e-08	-0.007511158	-0.03746331	-1.327905e-05	1.830595e-06	0.003344201	0.008427612
	0.003528095	0.008386591	-1.327905e-05	1.830595e-06	-0.006799415	-0.0377037	-1.189152e-05	1.008706e-06
	-1.028485e-06	1.352592e-07	0.003344201	0.008427612	-1.189152e-05	1.008706e-06	-0.007518327	-0.03736347
1.7e+08	-0.008716474	-0.03980444	-6.39408e-07	-4.640647e-08	0.003928408	0.008769359	-1.017291e-06	9.332838e-08
	-6.39408e-07	-4.640647e-08	-0.009218013	-0.03959091	-1.313228e-05	1.69319e-06	0.003724281	0.008823058
	0.003928408	0.008769359	-1.313228e-05	1.69319e-06	-0.00844834	-0.03987087	-1.176411e-05	9.151328e-07
	-1.017291e-06	9.332838e-08	0.003724281	0.008823058	-1.176411e-05	9.151328e-07	-0.009230013	-0.03948438
1.8e+08	-0.01046053	-0.04190113	-6.327681e-07	-2.675358e-08	0.00434412	0.00912986	-1.007035e-06	5.657237e-08
	-6.327681e-07	-2.675358e-08	-0.01103122	-0.04164446	-1.299039e-05	1.588546e-06	0.004119125	0.00919771
	0.00434412	0.00912986	-1.299039e-05	1.588546e-06	-0.0102017	-0.04196852	-1.164162e-05	8.46074e-07
	-1.007035e-06	5.657237e-08	0.004119125	0.00919771	-1.164162e-05	8.46074e-07	-0.01104843	-0.04153085
1.9e+08	-0.01230533	-0.04392426	-6.261241e-07	-8.211724e-09	0.004774023	0.009467335	-9.977048e-07	2.403052e-08
	-6.261241e-07	-8.211724e-09	-0.01294682	-0.04361915	-1.285321e-05	1.51022e-06	0.004527621	0.009550878
	0.004774023	0.009467335	-1.285321e-05	1.51022e-06	-0.01205581	-0.04399199	-1.152382e-05	7.96745e-07
	-9.977048e-07	2.403052e-08	0.004527621	0.009550878	-1.152382e-05	7.96745e-07	-0.0129696	-0.04349804
2e+08	-0.01424706	-0.04586937	-6.194636e-07	9.37793e-09	0.005216869	0.009781091	-9.892788e-07	-5.016136e-09
	-6.194636e-07	9.37793e-09	-0.0149607	-0.04551042	-1.272046e-05	1.453433e-06	0.004948619	0.009881925
	0.005216869	0.009781091	-1.272046e-05	1.453433e-06	-0.01400687	-0.04593686	-1.141043e-05	7.635931e-07
	-9.892788e-07	-5.016136e-09	0.004948619	0.009881925	-1.141043e-05	7.635931e-07	-0.01498938	-0.04538137
2.1e+08	-0.01628182	-0.04773222	-6.127762e-07	2.614075e-08	0.005671373	0.0100705	-9.817306e-07	-3.112247e-08
	-6.127762e-07	2.614075e-08	-0.01706867	-0.04731396	-1.259184e-05	1.414525e-06	0.005380933	0.01019027
	0.005671373	0.0100705	-1.259184e-05	1.414525e-06	-0.01605097	-0.04779895	-1.130113e-05	7.438965e-07
	-9.817306e-07	-3.112247e-08	0.005380933	0.01019027	-1.130113e-05	7.438965e-07	-0.01710353	-0.04717649
2.2e+08	-0.01840557	-0.0495088	-6.060528e-07	4.217694e-08	0.006136216	0.010335	-9.750307e-07	-5.472167e-08
	-6.060528e-07	4.217694e-08	-0.01926636	-0.04902567	-1.246704e-05	1.390643e-06	0.005823351	0.01047541
	0.006136216	0.010335	-1.246704e-05	1.390643e-06	-0.01818408	-0.04957425	-1.119564e-05	7.35534e-07
	-9.750307e-07	-5.472167e-08	0.005823351	0.01047541	-1.119564e-05	7.35534e-07	-0.01930767	-0.04887926
2.3e+08	-0.02061416	-0.05119533	-5.992857e-07	5.756728e-08	0.006610055	0.01057411	-9.691469e-07	-7.61562e-08
	-5.992857e-07	5.756728e-08	-0.02154932	-0.05064168	-1.234574e-05	1.379532e-06	0.006274632	0.01073687
	0.006610055	0.01057411	-1.234574e-05	1.379532e-06	-0.02040204	-0.051259	-1.109365e-05	7.368257e-07
	-9.691469e-07	-7.61562e-08	0.006274632	0.01073687	-1.109365e-05	7.368257e-07	-0.0215973	-0.05048581
2.4e+08	-0.02290335	-0.05278822	-5.924682e-07	7.237874e-08	0.007091518	0.0107874	-9.640532e-07	-9.570625e-08
	-5.924682e-07	7.237874e-08	-0.02391296	-0.05215836	-1.222767e-05	1.379346e-06	0.006733515	0.01097428
	0.007091518	0.0107874	-1.222767e-05	1.379346e-06	-0.0227006	-0.05284964	-1.099491e-05	7.464012e-07
	-9.640532e-07	-9.570625e-08	0.006733515	0.01097428	-1.099491e-05	7.464012e-07	-0.02396781	-0.05199248
2.5e+08	-0.02526879	-0.05428411	-5.855949e-07	8.666629e-08	0.007579218	0.01097454	-9.597208e-07	-1.13597e-07
	-5.855949e-07	8.666629e-08	-0.0263526	-0.05357231	-1.211253e-05	1.388589e-06	0.007198721	0.01118731
	0.007579218	0.01097454	-1.211253e-05	1.388589e-06	-0.0250754	-0.05434281	-1.089915e-05	7.63148e-07
	-9.597208e-07	-1.13597e-07	0.007198721	0.01118731	-1.089915e-05	7.63148e-07	-0.02641446	-0.05339584
2.6e+08	-0.02770601	-0.05567986	-5.78661e-07	1.004761e-07	0.00807175	0.01113525	-9.561243e-07	-1.300155e-07
	-5.78661e-07	1.004761e-07	-0.02886345	-0.05488035	-1.200008e-05	1.406012e-06	0.007668956	0.01137571
	0.00807175	0.01113525	-1.200008e-05	1.406012e-06	-0.02752198	-0.05573538	-1.080614e-05	7.861407e-07
	-9.561244e-07	-1.300155e-07	0.007668956	0.01137571	-1.080614e-05	7.861407e-07	-0.02893244	-0.0546927
2.7e+08	-0.03021047	-0.05697251	-5.716622e-07	1.138469e-07	0.008567699	0.01126934	-9.532362e-07	-1.451151e-07
	-5.716622e-07	1.138469e-07	-0.03144061	-0.05607954	-1.189003e-05	1.430576e-06	0.008142917	0.01153929
	0.008567699	0.01126934	-1.189003e-05	1.430576e-06	-0.03003578	-0.05702441	-1.071565e-05	8.146088e-07
	-9.532362e-07	-1.451151e-07	0.008142917	0.01153929	-1.071565e-05	8.146088e-07	-0.0315168	-0.0558801
2.8e+08	-0.03277753	-0.05815935	-5.645952e-07	1.268117e-07	0.009065642	0.0113767	-9.510345e-07	-1.590247e-07
	-5.645952e-07	1.268117e-07	-0.0340791	-0.05716716	-1.178218e-05	1.461394e-06	0.008619293	0.01167794
	0.009065642	0.0113767	-1.178218e-05	1.461394e-06	-0.03261216	-0.05820719	-1.062746e-05	8.478984e-07
	-9.510345e-07	-1.590247e-07	0.008619293	0.01167794	-1.062746e-05	8.478984e-07	-0.03416254	-0.05695531
2.9e+08	-0.03540248	-0.05923787	-5.574573e-07	1.393986e-07	0.009564155	0.01145726	-9.494977e-07	-1.718519e-07
	-5.574573e-07	1.393986e-07	-0.03677387	-0.05814072	-1.167629e-05	1.49771e-06	0.009096774	0.0117916
	0.009564155	0.01145726	-1.167629e-05	1.49771e-06	-0.03524639	-0.05928122	-1.054138e-05	8.854531e-07
	-9.494977e-07	-1.718519e-07	0.009096774	0.0117916	-1.054138e-05	8.854531e-07	-0.03686454	-0.05791583
3e+08	-0.03808051	-0.06020577	-5.502457e-07	1.516318e-07	0.01006181	0.01151108	-9.486024e-07	-1.836869e-07
	-5.502457e-07	1.516318e-07	-0.03951978	-0.05899798	-1.157216e-05	1.538875e-06	0.009574047	0.0118803
	0.01006181	0.01151108	-1.157216e-05	1.538875e-06	-0.03793367	-0.06024419	-1.045722e-05	9.267961e-07
	-9.486024e-07	-1.836869e-07	0.009574047	0.0118803	-1.045722e-05	9.267961e-07	-0.03961765	-0.05875942
3.1e+08	-0.04080678	-0.06106095	-5.429568e-07	1.635327e-07	0.0105572	0.01153825	-9.48331e-07	-1.946058e-07
	-5.429568e-07	1.635327e-07	-0.04231162	-0.05973691	-1.146957e-05	1.584322e-06	0.01004981	0.01194412
	0.0105572	0.01153825	-1.146957e-05	1.584322e-06	-0.04066912	-0.06109403	-1.037483e-05	9.715149e-07
	-9.48331e-07	-1.946058e-07	0.01004981	0.01194412	-1.037483e-05	9.715149e-07	-0.0424166	-0.05948403
3.2e+08	-0.04357637	-0.06180157	-5.355864e-07	1.751198e-07	0.0110489	0.01153894	-9.486643e-07	-2.046727e-07
	-5.355864e-07	1.751198e-07	-0.04514414	-0.06035573	-1.136828e-05	1.633554e-06	0.01052276	0.01198323
	0.0110489	0.01153894	-1.136828e-05	1.633554e-06	-0.04344784	-0.06182888	-1.029403e-05	1.01925e-06
	-9.486643e-07	-2.046727e-07	0.01052276	0.01198323	-1.029403e-05	1.01925e-06	-0.04525611	-0.06008789
3.3e+08	-0.0463843	-0.06242595	-5.281372e-07	1.864079e-07	0.01153553	0.01151343	-9.495815e-07	-2.139424e-07
	-5.281372e-07	1.864079e-07	-0.04801203	-0.06085289	-1.12682e-05	1.686132e-06	0.01099162	0.01199783
	0.01153553	0.01151343	-1.12682e-05	1.686132e-06	-0.04626483	-0.06244708	-1.021467e-05	1.069687e-06
	-9.495815e-07	-2.139424e-07	0.01099162	0.01199783	-1.021467e-05	1.069687e-06	-0.04813083	-0.06056944
3.4e+08	-0.04922556	-0.06293268	-5.206085e-07	1.974106e-07	0.0120157	0.01146202	-9.510601e-07	-2.224626e-07
	-5.206085e-07	1.974106e-07	-0.05090994	-0.06122707	-1.116914e-05	1.741664e-06	0.01145512	0.01198823
	0.0120157	0.01146202	-1.116914e-05	1.741664e-06	-0.04911507	-0.06294721	-1.013656e-05	1.122535e-06
	-9.510601e-07	-2.224626e-07	0.01145512	0.01198823	-1.013656e-05	1.122535e-06	-0.05103537	-0.06092737
3.5e+08	-0.0520951	-0.06332052	-5.129993e-07	2.081402e-07	0.01248806	0.01138512	-9.530877e-07	-2.302706e-07
	-5.129993e-07	2.081402e-07	-0.0538325	-0.06147719	-1.107094e-05	1.799801e-06	0.011912	0.01195477
	0.01248806	0.01138512	-1.107094e-05	1.799801e-06	-0.0519935	-0.06332805	-1.005961e-05	1.177555e-06
	-9.530877e-07	-2.302706e-07	0.011912	0.01195477	-1.005961e-05	1.177555e-06	-0.05396432	-0.06116059
3.6e+08	-0.05498785	-0.06358848	-5.053087e-07	2.186081e-07	0.01295128	0.01128319	-9.556497e-07	-2.373984e-07
	-5.053087e-07	2.186081e-07	-0.05677432	-0.06160239	-1.097352e-05	1.860233e-06	0.01236105	0.01189787
	0.01295128	0.01128319	-1.097352e-05	1.860233e-06	-0.05489504	-0.06358859	-9.983689e-06	1.234534e-06
	-9.556497e-07	-2.373984e-07	0.01236105	0.01189787	-9.983689e-06	1.234534e-06	-0.05691223	-0.06126827
3.7e+08	-0.05789871	-0.06373577	-4.975359e-07	2.28824e-07	0.01340404	0.01115676	-9.587294e-07	-2.438732e-07
	-4.975359e-07	2.28824e-07	-0.05972997	-0.06160208	-1.087674e-05	1.92268e-06	0.01280106	0.011818
	0.01340404	0.01115676	-1.087674e-05	1.92268e-06	-0.05781457	-0.06372806	-9.908691e-06	1.293275e-06
	-9.587294e-07	-2.438732e-07	0.01280106	0.011818	-9.908691e-06	1.293275e-06	-0.05987367	-0.0612498
3.8e+08	-0.06082257	-0.06376182	-4.896803e-07	2.387963e-07	0.01384509	0.01100644	-9.623103e-07	-2.497181e-07
	-4.896803e-07	2.387963e-07	-0.06269404	-0.06147586	-1.078049e-05	1.986885e-06	0.01323085	0.01171571
	0.01384509	0.01100644	-1.078049e-05	1.986885e-06	-0.06074698	-0.06374588	-9.834498e-06	1.353599e-06
	-9.623103e-07	-2.497181e-07	0.01323085	0.01171571	-9.834498e-06	1.353599e-06	-0.06284316	-0.0611048
3.9e+08	-0.06375433	-0.06366626	-4.817416e-07	2.485327e-07	0.01427317	0.01083288	-9.663765e-07	-2.54952e-07
	-4.817416e-07	2.485327e-07	-0.06566114	-0.06122358	-1.068465e-05	2.052612e-06	0.0136493	0.0115916
	0.01427317	0.01083288	-1.068465e-05	2.052612e-06	-0.06368714	-0.0636417	-9.761002e-06	1.415344e-06
	-9.663765e-07	-2.54952e-07	0.0136493	0.0115916	-9.761002e-06	1.415344e-06	-0.06581528	-0.06083314
4e+08	-0.06668887	-0.06344896	-4.737191e-07	2.580401e-07	0.01468709	0.01063682	-9.709109e-07	-2.595912e-07
	-4.737191e-07	2.580401e-07	-0.06862586	-0.06084533	-1.058911e-05	2.119644e-06	0.01405529	0.0114463
	0.01468709	0.01063682	-1.058911e-05	2.119644e-06	-0.06662994	-0.06341537	-9.688094e-06	1.478362e-06
	-9.709109e-07	-2.595912e-07	0.01405529	0.0114463	-9.688094e-06	1.478362e-06	-0.06878457	-0.06043491
4.1e+08	-0.06962111	-0.06310997	-4.656126e-07	2.673243e-07	0.01508569	0.01041904	-9.758978e-07	-2.636486e-07
	-4.656126e-07	2.673243e-07	-0.07158284	-0.0603414	-1.049376e-05	2.18778e-06	0.01444776	0.01128053
	0.01508569	0.01041904	-1.049376e-05	2.18778e-06	-0.06957027	-0.06306696	-9.615681e-06	1.542516e-06
	-9.758978e-07	-2.636486e-07	0.01444776	0.01128053	-9.615681e-06	1.542516e-06	-0.07174565	-0.05991044
4.2e+08	-0.07254597	-0.06264959	-4.574216e-07	2.76391e-07	0.01546786	0.01018037	-9.813218e-07	-2.67134e-07
	-4.574216e-07	2.76391e-07	-0.07452674	-0.05971234	-1.039853e-05	2.256834e-06	0.01482567	0.01109505
	0.01546786	0.01018037	-1.039853e-05	2.256834e-06	-0.07250304	-0.06259676	-9.543671e-06	1.607682e-06
	-9.813218e-07	-2.67134e-07	0.01482567	0.01109505	-9.543671e-06	1.607682e-06	-0.07469314	-0.05926027
4.3e+08	-0.07545841	-0.06206828	-4.491459e-07	2.852449e-07	0.01583252	0.00992173	-9.871669e-07	-2.700556e-07
	-4.491459e-07	2.852449e-07	-0.07745227	-0.0589589	-1.030333e-05	2.326632e-06	0.01518805	0.01089067
	0.01583252	0.00992173	-1.030333e-05	2.326632e-06	-0.07542321	-0.06200525	-9.471979e-06	1.673744e-06
	-9.871669e-07	-2.700556e-07	0.01518805	0.01089067	-9.471979e-06	1.673744e-06	-0.07762171	-0.05848518
4.4e+08	-0.07835343	-0.06136676	-4.407851e-07	2.938903e-07	0.01617866	0.009644052	-9.934167e-07	-2.724198e-07
	-4.407851e-07	2.938903e-07	-0.08035419	-0.05808205	-1.020808e-05	2.397009e-06	0.01553394	0.01066823
	0.01617866	0.009644052	-1.020808e-05	2.397009e-06	-0.07832575	-0.06129313	-9.400517e-06	1.740592e-06
	-9.934167e-07	-2.724198e-07	0.01553394	0.01066823	-9.400517e-06	1.740592e-06	-0.08052608	-0.05758617
4.5e+08	-0.08122606	-0.0605459	-4.323388e-07	3.023309e-07	0.0165053	0.009348339	-1.000054e-06	-2.742318e-07
	-4.323388e-07	3.023309e-07	-0.08322731	-0.05708299	-1.011269e-05	2.467809e-06	0.01586246	0.01042864
	0.0165053	0.009348339	-1.011269e-05	2.467809e-06	-0.08120569	-0.0604613	-9.329206e-06	1.808122e-06
	-1.000054e-06	-2.742318e-07	0.01586246	0.01042864	-9.329206e-06	1.808122e-06	-0.08340104	-0.05656446
4.6e+08	-0.0840714	-0.05960681	-4.238068e-07	3.1057e-07	0.01681154	0.009035636	-1.007064e-06	-2.754943e-07
	-4.238068e-07	3.1057e-07	-0.08606652	-0.05596313	-1.001712e-05	2.538887e-06	0.01617276	0.01017284
	0.01681154	0.009035636	-1.001712e-05	2.538887e-06	-0.0840581	-0.05951085	-9.257973e-06	1.87624e-06
	-1.007064e-06	-2.754943e-07	0.01617276	0.01017284	-9.257973e-06	1.87624e-06	-0.08624143	-0.05542149
4.7e+08	-0.0868846	-0.05855077	-4.151886e-07	3.186104e-07	0.01709651	0.008707031	-1.014427e-06	-2.762109e-07
	-4.151886e-07	3.186104e-07	-0.08886678	-0.05472409	-9.921287e-06	2.6101e-06	0.01646403	0.009901807
	0.01709651	0.008707031	-9.921287e-06	2.6101e-06	-0.08687812	-0.05844309	-9.186739e-06	1.944849e-06
