!$
! Info: Touchstone file created by Circ.  Input file=Tx_2in_Rx_85ohms_TxVia_60mils_RxVia_70mils.circ
!$
# Hz S RI R 50
0	0.00176604	6.007125e-26	0.9980935	-4.709263e-26	3.430117e-05	3.741693e-24	-2.961434e-05	2.289796e-21
	0.9980935	-4.780995e-26	0.0017614	5.83508e-26	-3.009851e-05	2.349101e-21	3.100965e-05	4.160825e-24
	3.552122e-05	3.635775e-24	-2.940437e-05	2.264091e-21	0.001777036	5.96291e-26	0.9980716	-4.555416e-26
	-2.988515e-05	2.32296e-21	3.127968e-05	4.178668e-24	0.9980716	-4.849764e-26	0.001776036	5.805816e-26
1e+07	0.002445158	-0.001481451	0.9971325	-0.02453645	6.210225e-05	0.0006129278	-4.674824e-05	-9.766147e-05
	0.9971325	-0.02453645	0.002442822	-0.001481419	-4.68504e-05	-9.761439e-05	6.135354e-05	0.0006130752
	6.217171e-05	0.0006128955	-4.681532e-05	-9.763256e-05	0.002453904	-0.001473268	0.9971215	-0.02463218
	-4.671316e-05	-9.767964e-05	6.135556e-05	0.0006130727	0.9971215	-0.02463218	0.002451388	-0.001473187
2e+07	0.00299241	-0.003553838	0.9954897	-0.04838454	0.0001196269	0.001208156	-6.139798e-05	-0.0001808324
	0.9954897	-0.04838454	0.002982785	-0.003553871	-6.141866e-05	-0.0001807578	0.0001165221	0.00120861
	0.0001196122	0.001208119	-6.142409e-05	-0.0001807782	0.003003948	-0.003536553	0.9954693	-0.0485767
	-6.138694e-05	-0.0001808682	0.0001165186	0.001208611	0.9954693	-0.0485767	0.002993581	-0.003536557
3e+07	0.003260325	-0.005908641	0.9934605	-0.07188075	0.0002026444	0.001795034	-7.459321e-05	-0.0002600203
	0.9934605	-0.07188075	0.003238902	-0.005907678	-7.461009e-05	-0.0002600073	0.0001957241	0.001796053
	0.0002026406	0.001795034	-7.46119e-05	-0.0002600073	0.003274247	-0.005883964	0.9934263	-0.07216689
	-7.459477e-05	-0.0002600244	0.0001957238	0.001796054	0.9934263	-0.07216689	0.003251238	-0.005882795
4e+07	0.003328387	-0.008360598	0.9909642	-0.09520337	0.0003119669	0.002374374	-8.726175e-05	-0.0003372723
	0.9909642	-0.09520337	0.003290316	-0.008358012	-8.730921e-05	-0.0003372724	0.0002997401	0.002376316
	0.0003119722	0.002374374	-8.730561e-05	-0.0003372712	0.003344826	-0.008329298	0.9909121	-0.09558231
	-8.725496e-05	-0.000337265	0.0002997408	0.002376317	0.9909121	-0.09558231	0.003303983	-0.008326366
5e+07	0.003225745	-0.0108628	0.9879748	-0.118384	0.0004475049	0.002945374	-9.965211e-05	-0.0004136791
	0.9879748	-0.118384	0.003166065	-0.01085698	-9.97168e-05	-0.0004136669	0.0004285333	0.002948726
	0.0004475076	0.002945373	-9.971441e-05	-0.000413667	0.003244642	-0.0108255	0.9879005	-0.1188546
	-9.964631e-05	-0.0004136764	0.0004285342	0.002948726	0.9879005	-0.1188546	0.00318059	-0.01081902
6e+07	0.002967456	-0.01339086	0.9844813	-0.1414319	0.0006088647	0.003507047	-0.0001121059	-0.0004899203
	0.9844813	-0.1414319	0.00288177	-0.01337981	-0.0001121771	-0.000489895	0.000581762	0.003512388
	0.000608864	0.003507048	-0.0001121778	-0.0004898945	0.002988728	-0.01334801	0.9843805	-0.1419928
	-0.0001121115	-0.0004899217	0.0005817633	0.003512388	0.9843805	-0.1419928	0.002896793	-0.0133358
7e+07	0.002562623	-0.01592897	0.9804782	-0.1643473	0.0007955818	0.004058342	-0.000124852	-0.0005663915
	0.9804782	-0.1643473	0.002446731	-0.01591071	-0.0001249334	-0.000566358	0.0007590069	0.004066342
	0.0007955803	0.004058347	-0.0001249361	-0.0005663559	0.002586194	-0.01588099	0.9803468	-0.1649972
	-0.0001248698	-0.0005663913	0.0007590086	0.004066342	0.9803468	-0.1649972	0.002461918	-0.01586093
8e+07	0.002017324	-0.01846528	0.9759629	-0.1871258	0.001007141	0.004598175	-0.0001379891	-0.000643456
	0.9759629	-0.1871258	0.001866902	-0.01843771	-0.0001380949	-0.000643413	0.0009597995	0.004609594
	0.001007141	0.004598182	-0.0001380981	-0.0006434099	0.002043082	-0.0184126	0.9757967	-0.1878631
	-0.0001380124	-0.0006434511	0.0009598013	0.004609593	0.9757967	-0.1878631	0.001881819	-0.01838248
9e+07	0.001336065	-0.02099014	0.9709348	-0.2097601	0.00124297	0.005125508	-0.0001515904	-0.0007216091
	0.9709348	-0.2097601	0.001146657	-0.02095075	-0.000151739	-0.0007215456	0.001183618	0.005141194
	0.00124297	0.005125512	-0.0001517412	-0.0007215429	0.001363835	-0.02093317	0.9707299	-0.2105832
	-0.0001516081	-0.0007216023	0.001183619	0.005141193	0.9707299	-0.2105832	0.001160744	-0.0208903
1e+08	0.0005223993	-0.02349587	0.965395	-0.2322407	0.001502571	0.005639966	-0.0001659288	-0.0008020802
	0.965395	-0.2322407	0.0002895618	-0.02344163	-0.0001661382	-0.0008019759	0.001430021	0.005660857
	0.001502572	0.005639966	-0.0001661382	-0.000801976	0.0005519254	-0.02343507	0.9651474	-0.2331479
	-0.0001659288	-0.0008020803	0.001430021	0.005660857	0.9651474	-0.2331479	0.0003021615	-0.02337614
1.1e+08	-0.0004229937	-0.02597199	0.9593508	-0.2545605	0.001787853	0.006138378	-0.0001846173	-0.0008831766
	0.9593508	-0.2545605	-0.0007024292	-0.02589975	-0.0001848643	-0.0008830396	0.001700984	0.006165474
	0.001787853	0.006138378	-0.0001848643	-0.0008830394	-0.0003922564	-0.02590746	0.959057	-0.2555499
	-0.0001846174	-0.0008831764	0.001700982	0.006165474	0.959057	-0.2555499	-0.0006919681	-0.02582907
1.2e+08	-0.001492542	-0.02841077	0.9527998	-0.2767109	0.002094467	0.00661885	-0.0002040283	-0.00096427
	0.9527998	-0.2767109	-0.001822221	-0.028317	-0.0002043134	-0.0009640949	0.001992205	0.006653245
	0.002094467	0.00661885	-0.0002043135	-0.0009640946	-0.001460805	-0.02834256	0.9524557	-0.2777809
	-0.0002040283	-0.0009642698	0.001992203	0.006653246	0.9524557	-0.2777809	-0.001814363	-0.02824093
1.3e+08	-0.002683178	-0.03080693	0.9457453	-0.2986806	0.00242167	0.007081249	-0.0002246061	-0.001046504
	0.9457453	-0.2986806	-0.003066469	-0.03068787	-0.0002249297	-0.001046285	0.002303015	0.007124117
	0.00242167	0.007081249	-0.0002249297	-0.001046285	-0.002650678	-0.03073513	0.9453473	-0.2998292
	-0.000224606	-0.001046504	0.002303013	0.007124118	0.9453473	-0.2998292	-0.003061687	-0.03060623
1.4e+08	-0.003991699	-0.03315469	0.9381912	-0.320459	0.002768547	0.007524758	-0.0002466893	-0.001130257
	0.9381912	-0.320459	-0.004431728	-0.03300637	-0.0002470511	-0.001129988	0.002632569	0.007577344
	0.002768547	0.007524758	-0.000247051	-0.001129988	-0.003958684	-0.03307939	0.9377356	-0.3216841
	-0.0002466892	-0.001130257	0.002632568	0.007577345	0.9377356	-0.3216841	-0.004430487	-0.03291894
1.5e+08	-0.005414843	-0.03544846	0.9301418	-0.3420354	0.003134107	0.007948492	-0.0002706108	-0.001215767
	0.9301418	-0.3420354	-0.005914491	-0.0352667	-0.0002710101	-0.001215442	0.002979956	0.008012113
	0.003134107	0.007948493	-0.00027101	-0.001215442	-0.005381567	-0.03536971	0.9296249	-0.3433348
	-0.0002706107	-0.001215766	0.002979955	0.008012114	0.9296249	-0.3433348	-0.00591724	-0.03517322
1.6e+08	-0.006949259	-0.0376829	0.9216018	-0.3633991	0.003517296	0.008351575	-0.0002967084	-0.001303192
	0.9216018	-0.3633991	-0.007511158	-0.03746331	-0.0002971437	-0.001302805	0.003344201	0.008427612
	0.003517296	0.008351575	-0.0002971435	-0.001302805	-0.006915977	-0.03760074	0.9210201	-0.3647705
	-0.0002967082	-0.001303192	0.003344201	0.008427612	0.9210201	-0.3647705	-0.007518327	-0.03736347
1.7e+08	-0.008591494	-0.03985293	0.9125764	-0.3845393	0.003917007	0.008733161	-0.0003253264	-0.001392641
	0.9125764	-0.3845393	-0.009218013	-0.03959091	-0.0003257955	-0.001392186	0.003724281	0.008823058
	0.003917007	0.008733161	-0.0003257954	-0.001392186	-0.00855846	-0.03976736	0.9119262	-0.3859803
	-0.0003253263	-0.001392641	0.003724281	0.008823058	0.9119262	-0.3859803	-0.009230013	-0.03948438
1.8e+08	-0.01033799	-0.04195368	0.9030708	-0.4054455	0.004332081	0.009092453	-0.0003568154	-0.001484175
	0.9030708	-0.4054455	-0.01103122	-0.04164446	-0.0003573155	-0.001483645	0.004119125	0.00919771
	0.004332081	0.009092453	-0.0003573154	-0.001483645	-0.01030545	-0.04186468	0.9023489	-0.4069534
	-0.0003568152	-0.001484175	0.004119125	0.00919771	0.9023489	-0.4069534	-0.01104843	-0.04153085
1.9e+08	-0.01218506	-0.04398054	0.8930909	-0.426107	0.004761313	0.009428708	-0.0003915306	-0.001577813
	0.8930909	-0.426107	-0.01294682	-0.04361915	-0.0003920584	-0.001577203	0.004527621	0.009550878
	0.004761313	0.009428708	-0.0003920583	-0.001577203	-0.01215327	-0.04388807	0.8922939	-0.4276793
	-0.0003915305	-0.001577813	0.004527621	0.009550878	0.8922939	-0.4276793	-0.0129696	-0.04349804
2e+08	-0.01412893	-0.0459291	0.8826427	-0.4465133	0.005203459	0.009741242	-0.0004298306	-0.00167354
	0.8826427	-0.4465133	-0.0149607	-0.04551042	-0.0004303818	-0.001672843	0.004948619	0.009881925
	0.005203459	0.009741242	-0.0004303817	-0.001672843	-0.01409813	-0.04583309	0.8817674	-0.4481472
	-0.0004298306	-0.00167354	0.004948619	0.009881925	0.8817674	-0.4481472	-0.01498938	-0.04538137
2.1e+08	-0.01616568	-0.04779518	0.8717328	-0.466654	0.005657235	0.01002944	-0.0004720747	-0.0017713
	0.8717328	-0.466654	-0.01706867	-0.04731396	-0.0004726445	-0.00177051	0.005380933	0.01019027
	0.005657236	0.01002944	-0.0004726444	-0.00177051	-0.01613609	-0.04769554	0.8707759	-0.4683466
	-0.0004720747	-0.0017713	0.005380933	0.01019027	0.8707759	-0.4683466	-0.01710353	-0.04717649
2.2e+08	-0.01829129	-0.0495748	0.8603676	-0.486519	0.006121329	0.01029274	-0.0005186213	-0.001871003
	0.8603676	-0.486519	-0.01926636	-0.04902567	-0.0005192041	-0.001870116	0.005823351	0.01047541
	0.006121329	0.01029274	-0.0005192041	-0.001870116	-0.01826314	-0.04947144	0.8593262	-0.4882673
	-0.0005186213	-0.001871003	0.005823351	0.01047541	0.8593262	-0.4882673	-0.01930767	-0.04887926
2.3e+08	-0.02050162	-0.05126421	0.8485542	-0.506098	0.006594397	0.01053066	-0.0005698254	-0.001972524
	0.8485542	-0.506098	-0.02154932	-0.05064168	-0.0005704152	-0.001971535	0.006274632	0.01073687
	0.006594397	0.01053066	-0.0005704152	-0.001971535	-0.02047513	-0.05115699	0.8474252	-0.507899
	-0.0005698254	-0.001972524	0.006274632	0.01073687	0.8474252	-0.507899	-0.0215973	-0.05048581
2.4e+08	-0.02279244	-0.05285986	0.8362999	-0.5253813	0.007075073	0.0107428	-0.0006260364	-0.002075706
	0.8362999	-0.5253813	-0.02391296	-0.05215836	-0.0006266266	-0.00207461	0.006733515	0.01097428
	0.007075073	0.0107428	-0.0006266266	-0.00207461	-0.02276781	-0.05274864	0.8350804	-0.5272317
	-0.0006260365	-0.002075706	0.006733515	0.01097428	0.8350804	-0.5272317	-0.02396781	-0.05199248
2.5e+08	-0.02515938	-0.05435841	0.8236121	-0.544359	0.00756197	0.0109288	-0.0006875962	-0.002180355
	0.8236121	-0.544359	-0.0263526	-0.05357231	-0.0006881795	-0.002179148	0.007198721	0.01118731
	0.00756197	0.0109288	-0.0006881795	-0.002179148	-0.02513681	-0.05424304	0.8222993	-0.5462556
	-0.0006875962	-0.002180355	0.007198721	0.01118731	0.8222993	-0.5462556	-0.02641446	-0.05339584
2.6e+08	-0.02759801	-0.05575672	0.8104985	-0.5630215	0.008053688	0.01108841	-0.0007548362	-0.002286247
	0.8104985	-0.5630215	-0.02886345	-0.05488035	-0.0007554049	-0.002284926	0.007668956	0.01137571
	0.008053688	0.01108841	-0.000755405	-0.002284926	-0.02757768	-0.05563702	0.8090897	-0.5649609
	-0.0007548362	-0.002286247	0.007668956	0.01137571	0.8090897	-0.5649609	-0.02893244	-0.0546927
2.7e+08	-0.03010378	-0.05705188	0.7969671	-0.5813596	0.008548814	0.01122143	-0.0008280758	-0.002393126
	0.7969671	-0.5813596	-0.03144061	-0.05607954	-0.0008286217	-0.002391687	0.008142917	0.01153929
	0.008548814	0.01122142	-0.0008286217	-0.002391687	-0.03008586	-0.05692767	0.7954598	-0.5833382
	-0.0008280758	-0.002393126	0.008142917	0.01153929	0.7954598	-0.5833382	-0.0315168	-0.0558801
2.8e+08	-0.03267205	-0.05824118	0.7830261	-0.599364	0.009045928	0.01132774	-0.0009076194	-0.002500704
	0.7830261	-0.599364	-0.0340791	-0.05716716	-0.000908134	-0.002499146	0.008619293	0.01167794
	0.009045928	0.01132774	-0.000908134	-0.002499146	-0.0326567	-0.05811224	0.7814179	-0.6013783
	-0.0009076195	-0.002500704	0.008619293	0.01167794	0.7814179	-0.6013783	-0.03416254	-0.05695531
2.9e+08	-0.03529813	-0.05932211	0.768684	-0.6170258	0.009543608	0.0114073	-0.0009937551	-0.002608667
	0.768684	-0.6170258	-0.03677387	-0.05814072	-0.0009942294	-0.002606988	0.009096774	0.0117916
	0.009543608	0.0114073	-0.0009942294	-0.002606988	-0.0352855	-0.05918824	0.7669723	-0.6190721
	-0.0009937551	-0.002608667	0.009096774	0.0117916	0.7669723	-0.6190721	-0.03686454	-0.05791583
3e+08	-0.03797721	-0.06029239	0.7539493	-0.6343363	0.01004043	0.01146014	-0.001086752	-0.00271667
	0.7539493	-0.6343363	-0.03951978	-0.05899798	-0.001087176	-0.002714869	0.009574047	0.0118803
	0.01004043	0.01146014	-0.001087176	-0.002714869	-0.03796744	-0.06015337	0.7521321	-0.6364108
	-0.001086752	-0.00271667	0.009574047	0.0118803	0.7521321	-0.6364108	-0.03961765	-0.05875942
3.1e+08	-0.04070446	-0.06114996	0.7388308	-0.651287	0.01053499	0.01148637	-0.001186857	-0.00282434
	0.7388308	-0.651287	-0.04231162	-0.05973691	-0.001187223	-0.002822418	0.01004981	0.01194412
	0.01053499	0.01148637	-0.001187223	-0.002822418	-0.04069766	-0.06100553	0.7369059	-0.6533859
	-0.001186857	-0.00282434	0.01004981	0.01194412	0.7369059	-0.6533859	-0.0424166	-0.05948403
3.2e+08	-0.04347495	-0.06189294	0.7233377	-0.6678697	0.01102587	0.01148617	-0.001294296	-0.002931283
	0.7233377	-0.6678697	-0.04514414	-0.06035573	-0.001294593	-0.002929239	0.01052276	0.01198323
	0.01102587	0.01148617	-0.001294593	-0.002929239	-0.04347124	-0.06174286	0.7213031	-0.669989
	-0.001294296	-0.002931283	0.01052276	0.01198323	0.7213031	-0.669989	-0.04525611	-0.06008789
3.3e+08	-0.04628373	-0.0625197	0.7074791	-0.6840763	0.01151168	0.01145978	-0.00140927	-0.003037076
	0.7074791	-0.6840763	-0.04801203	-0.06085289	-0.001409488	-0.003034913	0.01099162	0.01199783
	0.01151168	0.01145978	-0.001409488	-0.003034913	-0.04628319	-0.06236371	0.7053329	-0.686212
	-0.00140927	-0.003037076	0.01099162	0.01199783	0.7053329	-0.686212	-0.04813083	-0.06056944
3.4e+08	-0.04912578	-0.06302881	0.6912644	-0.6998991	0.01199104	0.01140754	-0.00153195	-0.003141279
	0.6912644	-0.6998991	-0.05090994	-0.06122707	-0.00153208	-0.003138999	0.01145512	0.01198823
	0.01199104	0.01140754	-0.00153208	-0.003138999	-0.04912851	-0.06286664	0.6890048	-0.7020472
	-0.00153195	-0.003141279	0.01145512	0.01198823	0.6890048	-0.7020472	-0.05103537	-0.06092737
3.5e+08	-0.05199607	-0.06341906	0.674703	-0.7153305	0.0124626	0.01132985	-0.001662483	-0.003243429
	0.674703	-0.7153305	-0.0538325	-0.06147719	-0.001662516	-0.003241035	0.011912	0.01195477
	0.0124626	0.01132985	-0.001662516	-0.003241035	-0.05200212	-0.06325042	0.6723285	-0.7174868
	-0.001662483	-0.003243429	0.011912	0.01195477	0.6723285	-0.7174868	-0.05396432	-0.06116059
3.6e+08	-0.05488952	-0.06368944	0.6578047	-0.7303634	0.01292504	0.01122716	-0.001800985	-0.003343045
	0.6578047	-0.7303634	-0.05677432	-0.06160239	-0.001800909	-0.003340541	0.01236105	0.01189787
	0.01292504	0.01122716	-0.001800909	-0.003340541	-0.05489895	-0.06351406	0.6553138	-0.7325236
	-0.001800985	-0.003343045	0.01236105	0.01189787	0.6553138	-0.7325236	-0.05691223	-0.06126827
3.7e+08	-0.05780104	-0.06383918	0.6405793	-0.7449906	0.01337704	0.01110001	-0.001947539	-0.003439631
	0.6405793	-0.7449906	-0.05972997	-0.06160208	-0.001947346	-0.003437022	0.01280106	0.011818
	0.01337704	0.01110001	-0.001947346	-0.003437022	-0.05781388	-0.06365675	0.6379707	-0.7471506
	-0.001947539	-0.003439631	0.01280106	0.011818	0.6379707	-0.7471506	-0.05987367	-0.0612498
3.8e+08	-0.06072554	-0.06386771	0.6230368	-0.7592054	0.01381734	0.01094899	-0.002102196	-0.003532677
	0.6230368	-0.7592054	-0.06269404	-0.06147586	-0.002101878	-0.003529968	0.01323085	0.01171571
	0.01381734	0.01094899	-0.002101878	-0.003529968	-0.0607418	-0.06367793	0.6203092	-0.7613608
	-0.002102196	-0.003532677	0.01323085	0.01171571	0.6203092	-0.7613608	-0.06284316	-0.0611048
3.9e+08	-0.0636579	-0.06377466	0.6051873	-0.7730014	0.0142447	0.01077477	-0.002264976	-0.003621659
	0.6051873	-0.7730014	-0.06566114	-0.06122358	-0.002264523	-0.003618857	0.0136493	0.0115916
	0.0142447	0.01077477	-0.002264523	-0.003618857	-0.06367759	-0.06357724	0.6023396	-0.7751478
	-0.002264976	-0.003621659	0.0136493	0.0115916	0.6023396	-0.7751478	-0.06581528	-0.06083314
4e+08	-0.06659303	-0.06355992	0.5870409	-0.7863724	0.01465792	0.01057808	-0.002435863	-0.003706048
	0.5870409	-0.7863724	-0.06862586	-0.06084533	-0.002435265	-0.00370316	0.01405529	0.0114463
	0.01465792	0.01057808	-0.002435265	-0.00370316	-0.06661612	-0.06335452	0.5840722	-0.7885053
	-0.002435863	-0.003706048	0.01405529	0.0114463	0.5840722	-0.7885053	-0.06878457	-0.06043491
4.1e+08	-0.06952584	-0.06322353	0.568608	-0.7993122	0.01505585	0.0103597	-0.002614803	-0.003785303
	0.568608	-0.7993122	-0.07158284	-0.0603414	-0.002614054	-0.003782338	0.01444776	0.01128053
	0.01505585	0.0103597	-0.002614054	-0.003782338	-0.06955231	-0.06300984	0.5655176	-0.8014272
	-0.002614803	-0.003785303	0.01444776	0.01128053	0.5655176	-0.8014272	-0.07174565	-0.05991044
4.2e+08	-0.07245127	-0.06276578	0.5498991	-0.8118153	0.01543738	0.01012046	-0.002801711	-0.003858883
	0.5498991	-0.8118153	-0.07452674	-0.05971234	-0.002800803	-0.003855848	0.01482567	0.01109505
	0.01543738	0.01012046	-0.002800803	-0.003855848	-0.07248105	-0.06254348	0.5466862	-0.8139079
	-0.002801711	-0.003858883	0.01482567	0.01109505	0.5466862	-0.8139079	-0.07469314	-0.05926027
4.3e+08	-0.07536428	-0.06218716	0.5309245	-0.8238763	0.01580142	0.00986127	-0.002996461	-0.003926242
	0.5309245	-0.8238763	-0.07745227	-0.0589589	-0.002995387	-0.003923148	0.01518805	0.01089067
	0.01580142	0.00986127	-0.002995387	-0.003923148	-0.07539731	-0.06195592	0.5275888	-0.8259418
	-0.002996461	-0.003926242	0.01518805	0.01089067	0.5275888	-0.8259418	-0.07762171	-0.05848518
4.4e+08	-0.07825987	-0.06148836	0.511695	-0.8354898	0.01614698	0.009583068	-0.003198895	-0.003986835
	0.511695	-0.8354898	-0.08035419	-0.05808205	-0.003197649	-0.003983692	0.01553394	0.01066823
	0.01614698	0.009583068	-0.003197649	-0.003983692	-0.07829605	-0.06124786	0.508236	-0.8375237
	-0.003198895	-0.003986835	0.01553394	0.01066823	0.508236	-0.8375237	-0.08052608	-0.05758617
4.5e+08	-0.08113308	-0.06067028	0.4922212	-0.8466511	0.01647307	0.009286854	-0.003408814	-0.004040121
	0.4922212	-0.8466511	-0.08322731	-0.05708299	-0.00340739	-0.004036939	0.01586246	0.01042864
	0.01647307	0.009286854	-0.00340739	-0.004036939	-0.08117232	-0.06042019	0.4886388	-0.8486488
	-0.003408814	-0.004040121	0.01586246	0.01042864	0.4886388	-0.8486488	-0.08340104	-0.05656446
4.6e+08	-0.08397902	-0.05973401	0.4725139	-0.8573554	0.01677879	0.00897367	-0.003625984	-0.004085563
	0.4725139	-0.8573554	-0.08606652	-0.05596313	-0.003624378	-0.004082353	0.01617276	0.01017284
	0.01677879	0.00897367	-0.003624378	-0.004082353	-0.08402118	-0.059474	0.4688079	-0.8593122
	-0.003625984	-0.004085563	0.01617276	0.01017284	0.4688079	-0.8593122	-0.08624143	-0.05542149
4.7e+08	-0.08679284	-0.05868084	0.4525838	-0.8675984	0.01706328	0.008644602	-0.003850136	-0.004122632
	0.4525838	-0.8675984	-0.08886678	-0.05472409	-0.003848343	-0.004119406	0.01646403	0.009901807
	0.01706328	0.008644602	-0.003848343	-0.004119406	-0.08683777	-0.05841058	0.4487545	-0.8695097
	-0.003850136	-0.004122632	0.01646403	0.009901807	0.4487545	-0.8695097	-0.08904218	-0.05415889
4.8e+08	-0.08956977	-0.05751227	0.4324419	-0.877376	0.01732574	0.008300777	-0.004080962	-0.004150811
	0.4324419	-0.877376	-0.09162312	-0.05336768	-0.00407898	-0.00414758	0.01673555	0.009616561
	0.01732574	0.008300777	-0.00407898	-0.00414758	-0.08961731	-0.05723144	0.4284894	-0.8792371
	-0.004080962	-0.004150811	0.01673555	0.009616561	0.4284894	-0.8792371	-0.09179831	-0.05277852
4.9e+08	-0.0923051	-0.05622996	0.4120991	-0.8866843	0.01756543	0.007943357	-0.00431812	-0.004169593
	0.4120991	-0.8866843	-0.09433068	-0.05189593	-0.004315947	-0.004166371	0.01698661	0.009318149
	0.01756543	0.007943357	-0.004315947	-0.004166371	-0.09235506	-0.05593824	0.4080238	-0.8884906
	-0.00431812	-0.004169593	0.01698661	0.009318149	0.4080238	-0.8884906	-0.09450491	-0.05128244
5e+08	-0.09499423	-0.0548358	0.3915663	-0.8955197	0.01778166	0.007573541	-0.004561233	-0.004178488
	0.3915663	-0.8955197	-0.09698471	-0.05031106	-0.004558868	-0.004175287	0.01721659	0.009007654
	0.01778166	0.007573541	-0.004558868	-0.004175287	-0.0950464	-0.05453286	0.3873688	-0.8972664
	-0.004561233	-0.004178488	0.01721659	0.009007654	0.3873688	-0.8972664	-0.09715721	-0.04967289
