!$
! Info: Touchstone file created by Circ.  Input file=Tx_2in_Rx_93ohms_TxVia_60mils_RxVia_70mils.circ
!$
# Hz S RI R 50
0	0.001990976	5.231904e-26	1.373303e-09	3.141116e-28	3.076224e-05	3.828564e-24	1.239153e-09	1.307862e-28
	1.373311e-09	3.141157e-28	0.001986313	5.824879e-26	9.470655e-10	4.445377e-28	3.096643e-05	4.712347e-24
	3.174565e-05	3.89568e-24	9.470542e-10	4.445125e-28	0.002005275	5.018735e-26	-3.316156e-09	4.558142e-25
	1.239151e-09	1.306589e-28	3.123644e-05	4.732556e-24	-3.315743e-09	4.557635e-25	0.002000943	5.795663e-26
1e+07	0.0029485	0.0004004309	2.253067e-09	3.922137e-09	6.102825e-05	0.0005835619	-4.902553e-09	3.061045e-08
	2.253067e-09	3.922137e-09	0.002914512	0.000273366	1.50782e-09	2.752281e-09	6.098785e-05	0.000616112
	6.103757e-05	0.0005835297	1.50782e-09	2.75228e-09	0.002776785	0.0002884985	-7.847213e-09	1.722492e-08
	-4.902553e-09	3.061045e-08	6.098988e-05	0.0006161095	-7.847213e-09	1.722492e-08	0.002873464	0.0002746849
2e+07	0.003691593	7.334518e-05	3.1025e-09	7.293378e-09	0.0001218998	0.001175957	9.848728e-09	2.592989e-08
	3.1025e-09	7.293378e-09	0.003548218	-0.0001299476	2.151828e-09	5.155568e-09	9.387189e-05	0.001233236
	0.0001218734	0.001175955	2.151828e-09	5.155568e-09	0.003462858	-4.763832e-05	-5.064681e-09	5.725713e-09
	9.848728e-09	2.592989e-08	9.386837e-05	0.001233236	-5.064681e-09	5.725713e-09	0.003519033	-0.0001075885
3e+07	0.004222029	-0.0005530665	4.351026e-09	1.000608e-08	0.0002069516	0.001763654	1.490425e-08	3.36111e-08
	4.351026e-09	1.000608e-08	0.003988908	-0.0007785276	2.736652e-09	7.108452e-09	0.0001684023	0.00183055
	0.0002069492	0.001763658	2.736652e-09	7.108452e-09	0.003949634	-0.0006750055	4.396712e-09	1.018135e-08
	1.490425e-08	3.36111e-08	0.000168402	0.001830552	4.396712e-09	1.018135e-08	0.003968895	-0.0007482914
4e+07	0.004625097	-0.001297685	5.660914e-09	1.274575e-08	0.0003176054	0.002346082	1.968451e-08	4.234938e-08
	5.660914e-09	1.274575e-08	0.004310958	-0.001525903	3.513437e-09	9.131035e-09	0.0002793145	0.002417282
	0.0003176049	0.002346077	3.513437e-09	9.131035e-09	0.004316676	-0.001413425	6.134067e-09	1.35902e-08
	1.968451e-08	4.234938e-08	0.0002793152	0.002417283	6.134067e-09	1.35902e-08	0.004298914	-0.001491387
5e+07	0.004931569	-0.002114963	7.184923e-09	1.540212e-08	0.0004540662	0.002921887	2.49211e-08	5.106405e-08
	7.184923e-09	1.540212e-08	0.004541161	-0.002332393	4.369261e-09	1.109056e-08	0.0004141001	0.002994756
	0.0004540637	0.002921885	4.369261e-09	1.109056e-08	0.004592511	-0.002219104	7.663091e-09	1.621637e-08
	2.49211e-08	5.106405e-08	0.000414101	0.002994757	7.663091e-09	1.621637e-08	0.004535965	-0.00229558
6e+07	0.005156722	-0.002982706	8.933433e-09	1.792919e-08	0.000616135	0.003489872	3.082351e-08	5.939386e-08
	8.933433e-09	1.792919e-08	0.004693555	-0.003178234	5.333494e-09	1.29684e-08	0.0005726388	0.003562614
	0.0006161367	0.003489875	5.333494e-09	1.29684e-08	0.004791382	-0.003070731	9.374138e-09	1.865016e-08
	3.082351e-08	5.939386e-08	0.0005726401	0.003562614	9.374138e-09	1.865016e-08	0.004694359	-0.003140468
7e+07	0.005309212	-0.003887832	1.088879e-08	2.029681e-08	0.0008035092	0.00404897	3.742665e-08	6.716418e-08
	1.088879e-08	2.029681e-08	0.004776084	-0.004051562	6.407143e-09	1.475828e-08	0.0007546463	0.004120156
	0.0008035179	0.004048975	6.407143e-09	1.475828e-08	0.004921412	-0.003955575	1.132253e-08	2.098289e-08
	3.742665e-08	6.716418e-08	0.000754648	0.004120156	1.132253e-08	2.098288e-08	0.004782149	-0.004014025
8e+07	0.005394228	-0.004821672	1.30296e-08	2.247904e-08	0.00101585	0.00459826	4.470498e-08	7.426149e-08
	1.30296e-08	2.247904e-08	0.004793467	-0.004943617	7.589055e-09	1.645202e-08	0.0009597444	0.004666503
	0.001015863	0.004598263	7.589055e-09	1.645202e-08	0.004987558	-0.004864741	1.352542e-08	2.32211e-08
	4.470498e-08	7.426149e-08	0.0009597463	0.004666503	1.352542e-08	2.32211e-08	0.004803981	-0.004907456
9e+07	0.005414954	-0.005778386	1.53321e-08	2.445326e-08	0.001252839	0.005137189	5.260313e-08	8.06019e-08
	1.53321e-08	2.445326e-08	0.004749018	-0.005846481	8.874962e-09	1.804098e-08	0.001187464	0.005200662
	0.00125285	0.005137189	8.874962e-09	1.804098e-08	0.004993156	-0.005791102	1.599191e-08	2.535303e-08
	5.260313e-08	8.06019e-08	0.001187465	0.005200661	1.599191e-08	2.535303e-08	0.004763027	-0.005812864
1e+08	0.005372275	-0.006758284	1.777552e-08	2.619862e-08	0.001514683	0.005668005	6.105264e-08	8.611894e-08
	1.777552e-08	2.619862e-08	0.00464683	-0.006747884	1.025907e-08	1.951653e-08	0.001437257	0.005721516
	0.001514683	0.005668004	1.025907e-08	1.951653e-08	0.004941161	-0.006726992	1.873216e-08	2.736142e-08
	6.105264e-08	8.611894e-08	0.001437257	0.005721516	1.873216e-08	2.736142e-08	0.004663074	-0.006718709
1.1e+08	0.005248742	-0.007739857	2.043705e-08	2.784096e-08	0.001786883	0.006186747	7.006786e-08	9.1332e-08
	2.043705e-08	2.784096e-08	0.004512165	-0.007661042	1.172275e-08	2.091924e-08	0.001708011	0.006228294
	0.001786883	0.006186747	1.172275e-08	2.091924e-08	0.004841135	-0.007673261	2.152439e-08	2.906797e-08
	7.006786e-08	9.1332e-08	0.001708009	0.006228294	2.152439e-08	2.906797e-08	0.004526628	-0.007635586
1.2e+08	0.005072035	-0.008714619	2.324581e-08	2.92931e-08	0.002080549	0.006684087	7.959537e-08	9.58858e-08
	2.324581e-08	2.92931e-08	0.004317696	-0.008586798	1.32683e-08	2.221807e-08	0.001999369	0.006720186
	0.002080549	0.006684087	1.32683e-08	2.221807e-08	0.004685295	-0.008627715	2.447246e-08	3.057417e-08
	7.959537e-08	9.58858e-08	0.001999367	0.006720187	2.447246e-08	3.057417e-08	0.004330147	-0.008563613
1.3e+08	0.004842451	-0.009685739	2.619585e-08	3.054478e-08	0.002395566	0.007162708	8.960196e-08	9.974903e-08
	2.619585e-08	3.054478e-08	0.004066342	-0.009514329	1.489093e-08	2.340831e-08	0.00231061	0.007196163
	0.002395566	0.007162708	1.489093e-08	2.340831e-08	0.004475487	-0.009584494	2.756917e-08	3.186962e-08
	8.960196e-08	9.974903e-08	0.002310608	0.007196164	2.756917e-08	3.186962e-08	0.004076377	-0.009492903
1.4e+08	0.004561054	-0.01065151	2.927787e-08	3.15865e-08	0.002731131	0.007622415	1.000496e-07	1.028928e-07
	2.927787e-08	3.15865e-08	0.003759832	-0.01043872	1.658571e-08	2.44851e-08	0.002640938	0.007655281
	0.002731131	0.007622415	1.658571e-08	2.44851e-08	0.004213072	-0.01053986	3.08046e-08	3.294437e-08
	1.000496e-07	1.028928e-07	0.002640937	0.007655282	3.08046e-08	3.294437e-08	0.003767017	-0.01041871
1.5e+08	0.004228954	-0.01160969	3.247953e-08	3.241077e-08	0.003086328	0.008062612	1.108977e-07	1.052897e-07
	3.247953e-08	3.241077e-08	0.003399654	-0.01135612	1.834575e-08	2.544472e-08	0.002989504	0.008096636
	0.003086328	0.008062612	1.834575e-08	2.544472e-08	0.003899278	-0.01149059	3.416574e-08	3.379051e-08
	1.108977e-07	1.052897e-07	0.002989504	0.008096636	3.416574e-08	3.379051e-08	0.003403547	-0.01133723
1.6e+08	0.003847265	-0.01255795	3.578875e-08	3.300974e-08	0.003460169	0.008482579	1.221038e-07	1.069137e-07
	3.578875e-08	3.300974e-08	0.002987211	-0.01226318	2.016464e-08	2.628311e-08	0.003355406	0.008519359
	0.003460168	0.008482579	2.016464e-08	2.628311e-08	0.003535276	-0.01243378	3.763982e-08	3.439981e-08
	1.221038e-07	1.069137e-07	0.003355406	0.008519359	3.763982e-08	3.439981e-08	0.002987372	-0.01224514
1.7e+08	0.003417104	-0.013494	3.919279e-08	3.337606e-08	0.003851611	0.008881557	1.336233e-07	1.077409e-07
	3.919279e-08	3.337606e-08	0.002523872	-0.01315692	2.203563e-08	2.699643e-08	0.003737695	0.008922624
	0.003851611	0.008881557	2.203563e-08	2.699643e-08	0.00312221	-0.01336673	4.121341e-08	3.476456e-08
	1.336233e-07	1.077409e-07	0.003737695	0.008922624	4.121341e-08	3.476456e-08	0.002519867	-0.01313944
1.8e+08	0.002939591	-0.01441561	4.267829e-08	3.350298e-08	0.004259564	0.009258793	1.454097e-07	1.077493e-07
	4.267829e-08	3.350298e-08	0.002011002	-0.01403455	2.395165e-08	2.758114e-08	0.004135376	0.009305649
	0.004259564	0.009258794	2.395165e-08	2.758114e-08	0.002661218	-0.01428693	4.487243e-08	3.48777e-08
	1.454097e-07	1.077493e-07	0.004135376	0.009305649	4.487243e-08	3.48777e-08	0.00200241	-0.01401735
1.9e+08	0.002415867	-0.01532062	4.623138e-08	3.338439e-08	0.004682895	0.00961356	1.574149e-07	1.069194e-07
	4.623138e-08	3.338439e-08	0.001449976	-0.01489351	2.590533e-08	2.8034e-08	0.004547412	0.009667699
	0.004682895	0.00961356	2.590533e-08	2.8034e-08	0.00215344	-0.01519203	4.860226e-08	3.473285e-08
	1.574149e-07	1.069194e-07	0.004547412	0.009667699	4.860226e-08	3.473285e-08	0.001436388	-0.01487627
2e+08	0.001847086	-0.01620697	4.983767e-08	3.30149e-08	0.005120425	0.009945167	1.695894e-07	1.052339e-07
	4.983767e-08	3.30149e-08	0.0008421924	-0.01573137	2.788902e-08	2.835218e-08	0.004972729	0.01000809
	0.005120425	0.009945167	2.788902e-08	2.835218e-08	0.001600035	-0.01607978	5.238776e-08	3.432438e-08
	1.695894e-07	1.052339e-07	0.004972729	0.01000809	5.238776e-08	3.432438e-08	0.000823216	-0.01571378
2.1e+08	0.001234377	-0.01707274	5.348218e-08	3.238969e-08	0.005576092	0.0102504	1.818821e-07	1.026781e-07
	5.348218e-08	3.238969e-08	0.0001890759	-0.01654587	2.98945e-08	2.853301e-08	0.005410215	0.0103262
	0.005576092	0.0102504	2.98945e-08	2.853301e-08	0.001002126	-0.01694814	5.62123e-08	3.364682e-08
	1.818821e-07	1.026781e-07	0.005410215	0.0103262	5.62123e-08	3.364682e-08	0.0001643362	-0.01652758
2.2e+08	0.0005789255	-0.01791603	5.714968e-08	3.15049e-08	0.006049219	0.01052795	1.942409e-07	9.924031e-08
	5.714968e-08	3.15049e-08	-0.0005079182	-0.01733486	3.191356e-08	2.857445e-08	0.005858729	0.01062144
	0.006049219	0.01052795	3.191356e-08	2.857445e-08	0.0003608922	-0.01779509	6.005952e-08	3.269613e-08
	1.942409e-07	9.924031e-08	0.005858729	0.01062144	6.005952e-08	3.269613e-08	-0.000538775	-0.01731549
2.3e+08	-0.0001179648	-0.01873492	6.082491e-08	3.035768e-08	0.006532256	0.01078027	2.066132e-07	9.491169e-08
	6.082491e-08	3.035768e-08	-0.001247295	-0.01809629	3.393829e-08	2.847515e-08	0.006317097	0.01089329
	0.006532256	0.01078027	3.393829e-08	2.847515e-08	-0.0003223678	-0.01861861	6.391438e-08	3.146996e-08
	2.066132e-07	9.491169e-08	0.006317097	0.01089329	6.391438e-08	3.146996e-08	-0.001284604	-0.01807547
2.4e+08	-0.0008550191	-0.01952766	6.449215e-08	2.894582e-08	0.007023916	0.01100689	2.189456e-07	8.968617e-08
	6.449215e-08	2.894582e-08	-0.002027529	-0.01882823	3.596028e-08	2.823398e-08	0.006784122	0.01114131
	0.007023916	0.01100689	3.596028e-08	2.823398e-08	-0.00104639	-0.01941686	6.776035e-08	2.996605e-08
	2.189456e-07	8.968617e-08	0.006784122	0.01114131	6.776035e-08	2.996605e-08	-0.002071603	-0.01880555
2.5e+08	-0.001630927	-0.02029252	6.813547e-08	2.7268e-08	0.007522883	0.01120742	2.311839e-07	8.356063e-08
	6.813547e-08	2.7268e-08	-0.00284705	-0.01952885	3.797098e-08	2.785027e-08	0.007258581	0.01136508
	0.007522883	0.01120742	3.797098e-08	2.785027e-08	-0.001809872	-0.02018807	7.158068e-08	2.818309e-08
	2.311839e-07	8.356063e-08	0.007258581	0.01136508	7.158068e-08	2.818309e-08	-0.00289818	-0.01950389
2.6e+08	-0.002444341	-0.02102791	7.173875e-08	2.532376e-08	0.008027817	0.01138151	2.432734e-07	7.653491e-08
	7.173875e-08	2.532376e-08	-0.003704255	-0.02019639	3.996176e-08	2.732383e-08	0.007739235	0.01156427
	0.008027817	0.01138151	3.996176e-08	2.732383e-08	-0.002611476	-0.02093055	7.535848e-08	2.612068e-08
	2.432734e-07	7.653491e-08	0.007739235	0.01156427	7.535848e-08	2.612068e-08	-0.003762705	-0.02016872
2.7e+08	-0.003293876	-0.02173225	7.528581e-08	2.311355e-08	0.008537361	0.01152891	2.551595e-07	6.86119e-08
	7.528581e-08	2.311355e-08	-0.004597492	-0.02082922	4.192396e-08	2.665498e-08	0.008224824	0.01173861
	0.008537361	0.01152891	4.192396e-08	2.665498e-08	-0.003449824	-0.02164266	7.907673e-08	2.377934e-08
	2.551595e-07	6.86119e-08	0.008224824	0.01173861	7.907673e-08	2.377934e-08	-0.004663505	-0.02079837
2.8e+08	-0.004178107	-0.02240404	7.876041e-08	2.063871e-08	0.009050146	0.0116494	2.667874e-07	5.979754e-08
	7.876041e-08	2.063871e-08	-0.005525076	-0.02142575	4.384888e-08	2.584449e-08	0.008714079	0.01188788
	0.009050146	0.0116494	4.384888e-08	2.584449e-08	-0.004323505	-0.02232285	8.271839e-08	2.116057e-08
	2.667874e-07	5.979754e-08	0.008714079	0.01188788	8.271839e-08	2.116057e-08	-0.00559887	-0.02139127
2.9e+08	-0.005095577	-0.02304186	8.214628e-08	1.79015e-08	0.00956479	0.01174286	2.781022e-07	5.01008e-08
	8.214628e-08	1.79015e-08	-0.006485282	-0.02198451	4.572784e-08	2.489365e-08	0.009205717	0.01201192
	0.00956479	0.01174286	4.572784e-08	2.489365e-08	-0.005231066	-0.02296965	8.62664e-08	1.82668e-08
	2.781022e-07	5.01008e-08	0.009205717	0.01201192	8.62664e-08	1.82668e-08	-0.00656705	-0.02194591
3e+08	-0.006044785	-0.02364435	8.542724e-08	1.490506e-08	0.0100799	0.01180922	2.890498e-07	3.953371e-08
	8.542724e-08	1.490506e-08	-0.007476345	-0.02250412	4.755215e-08	2.380424e-08	0.009698453	0.01211066
	0.0100799	0.01180922	4.755215e-08	2.380424e-08	-0.006171017	-0.02358164	8.970378e-08	1.510142e-08
	2.890498e-07	3.953371e-08	0.009698453	0.01211066	8.970378e-08	1.510142e-08	-0.007566256	-0.02246091
3.1e+08	-0.007024202	-0.02421021	8.858719e-08	1.165347e-08	0.0105941	0.01184848	2.995761e-07	2.811137e-08
	8.858719e-08	1.165347e-08	-0.008496466	-0.02298325	4.931323e-08	2.257852e-08	0.01019099	0.01218408
	0.0105941	0.01184848	4.931323e-08	2.257852e-08	-0.007141835	-0.02415748	9.301365e-08	1.166878e-08
	2.995761e-07	2.811137e-08	0.01019099	0.01218408	9.301365e-08	1.166878e-08	-0.008594663	-0.02293493
3.2e+08	-0.008032255	-0.02473822	9.161016e-08	8.151711e-09	0.01110598	0.01186071	3.096279e-07	1.585186e-08
	9.161016e-08	8.151711e-09	-0.009543812	-0.02342069	5.100256e-08	2.121925e-08	0.01068205	0.01223221
	0.01110598	0.01186071	5.100256e-08	2.121925e-08	-0.008141957	-0.02469589	9.617929e-08	7.974177e-09
	3.096279e-07	1.585186e-08	0.01068205	0.01223221	9.617929e-08	7.974177e-09	-0.009650411	-0.02336675
3.3e+08	-0.00906734	-0.0252272	9.448042e-08	4.405661e-09	0.01161416	0.01184606	3.191527e-07	2.776289e-09
	9.448042e-08	4.405661e-09	-0.01061651	-0.02381529	5.261174e-08	1.972967e-08	0.01117033	0.01225517
	0.01161416	0.01184606	5.261174e-08	1.972967e-08	-0.009169781	-0.02519565	9.918421e-08	4.023865e-09
	3.191527e-07	2.776289e-09	0.01117033	0.01225517	9.918421e-08	4.023865e-09	-0.0107316	-0.0237552
3.4e+08	-0.01012782	-0.02567606	9.718247e-08	4.220979e-10	0.01211726	0.01180473	3.28099e-07	-1.109129e-08
	9.718247e-08	4.220979e-10	-0.01171267	-0.02416599	5.413251e-08	1.811352e-08	0.01165455	0.01225313
	0.01211726	0.01180473	5.413251e-08	1.811352e-08	-0.01022368	-0.02565564	1.020122e-07	-1.749726e-10
	3.28099e-07	-1.109129e-08	0.01165455	0.01225313	1.020122e-07	-1.749726e-10	-0.01183631	-0.02409924
3.5e+08	-0.01121203	-0.02608378	9.97011e-08	-3.791315e-09	0.01261392	0.01173701	3.364164e-07	-2.572391e-08
	9.97011e-08	-3.791315e-09	-0.01283036	-0.02447184	5.55568e-08	1.637499e-08	0.01213345	0.01222633
	0.01261392	0.01173701	5.55568e-08	1.637499e-08	-0.01130198	-0.02607477	1.046473e-07	-4.614221e-09
	3.364164e-07	-2.572391e-08	0.01213345	0.01222633	1.046473e-07	-4.614221e-09	-0.01296259	-0.02439787
3.6e+08	-0.01231826	-0.02644939	1.020215e-07	-8.226041e-09	0.01310276	0.01164324	3.440559e-07	-4.109173e-08
	1.020215e-07	-8.226041e-09	-0.01396762	-0.02473192	5.687671e-08	1.451875e-08	0.01260576	0.01217507
	0.01310276	0.01164324	5.687671e-08	1.451875e-08	-0.012403	-0.02645204	1.07074e-07	-9.284853e-09
	3.440559e-07	-4.109173e-08	0.01260576	0.01217507	1.07074e-07	-9.284853e-09	-0.01410845	-0.02465021
3.7e+08	-0.0134448	-0.026772	1.041291e-07	-1.287269e-08	0.01358247	0.01152384	3.509696e-07	-5.716214e-08
	1.041291e-07	-1.287269e-08	-0.01512248	-0.02494545	5.808457e-08	1.254993e-08	0.01307023	0.01209971
	0.01358247	0.01152384	5.808457e-08	1.254993e-08	-0.01352501	-0.02678652	1.092772e-07	-1.417695e-08
	3.509696e-07	-5.716214e-08	0.01307023	0.01209971	1.092772e-07	-1.417695e-08	-0.01527188	-0.02485545
3.8e+08	-0.01458988	-0.02705079	1.0601e-07	-1.772102e-08	0.01405171	0.01137929	3.571117e-07	-7.389977e-08
	1.0601e-07	-1.772102e-08	-0.01629294	-0.0251117	5.917298e-08	1.04741e-08	0.01352565	0.01200067
	0.01405171	0.01137929	5.917298e-08	1.04741e-08	-0.01466624	-0.02707734	1.112422e-07	-1.92797e-08
	3.571117e-07	-7.389977e-08	0.01352565	0.01200067	1.112422e-07	-1.92797e-08	-0.01645087	-0.02501286
3.9e+08	-0.01575172	-0.027285	1.076506e-07	-2.275998e-08	0.01450921	0.01121015	3.624376e-07	-9.126664e-08
	1.076506e-07	-2.275998e-08	-0.01747697	-0.02523003	6.013479e-08	8.29728e-09	0.01397081	0.01187845
	0.01450921	0.01121015	6.013479e-08	8.29728e-09	-0.01582493	-0.02732371	1.12955e-07	-2.458145e-08
	3.624376e-07	-9.126664e-08	0.01397081	0.01187845	1.12955e-07	-2.458145e-08	-0.01764335	-0.02512181
4e+08	-0.01692854	-0.02747396	1.090379e-07	-2.797773e-08	0.01495369	0.01101702	3.669051e-07	-1.092222e-07
	1.090379e-07	-2.797773e-08	-0.01867255	-0.02529991	6.096315e-08	6.0259e-09	0.01440453	0.01173358
	0.01495369	0.01101702	6.096315e-08	6.0259e-09	-0.01699927	-0.02752491	1.144019e-07	-3.006972e-08
	3.669051e-07	-1.092222e-07	0.01440453	0.01173358	1.144019e-07	-3.006972e-08	-0.01884727	-0.02518176
4.1e+08	-0.01811849	-0.02761704	1.101595e-07	-3.336163e-08	0.01538392	0.01080057	3.704735e-07	-1.277233e-07
	1.101595e-07	-3.336163e-08	-0.01987762	-0.02532085	6.165153e-08	3.666798e-09	0.01482567	0.01156668
	0.01538392	0.01080057	6.165153e-08	3.666798e-09	-0.01818743	-0.02768028	1.1557e-07	-3.57312e-08
	3.704735e-07	-1.277233e-07	0.01482567	0.01156668	1.1557e-07	-3.57312e-08	-0.02006055	-0.02519222
4.2e+08	-0.01931975	-0.02771372	1.110037e-07	-3.889832e-08	0.01579871	0.01056156	3.731046e-07	-1.467247e-07
	1.110037e-07	-3.889832e-08	-0.02109011	-0.02529248	6.219377e-08	1.227209e-09	0.01523311	0.01137841
	0.01579871	0.01056156	6.219377e-08	1.227209e-09	-0.01938756	-0.02778924	1.16447e-07	-4.155184e-08
	3.731046e-07	-1.467247e-07	0.01523311	0.01137841	1.16447e-07	-4.155184e-08	-0.02128109	-0.02515283
4.3e+08	-0.02053045	-0.0277635	1.115593e-07	-4.457373e-08	0.01619689	0.01030077	3.747624e-07	-1.661787e-07
	1.115593e-07	-4.457373e-08	-0.02230798	-0.0252145	6.258404e-08	-1.285263e-09	0.01562575	0.01116948
	0.01619689	0.01030077	6.258404e-08	-1.285263e-09	-0.02059781	-0.02785129	1.170213e-07	-4.751681e-08
	3.747624e-07	-1.661787e-07	0.01562575	0.01116948	1.170213e-07	-4.751681e-08	-0.02250682	-0.0250633
4.4e+08	-0.02174872	-0.02776602	1.118158e-07	-5.037308e-08	0.01657733	0.01001907	3.754133e-07	-1.860354e-07
	1.118158e-07	-5.037308e-08	-0.02352913	-0.02508671	6.281691e-08	-3.862653e-09	0.01600256	0.01094066
	0.01657733	0.01001907	6.281691e-08	-3.862653e-09	-0.02181628	-0.02786599	1.172821e-07	-5.361059e-08
	3.754133e-07	-1.860354e-07	0.01600256	0.01094066	1.172821e-07	-5.361059e-08	-0.02373561	-0.02492342
4.5e+08	-0.02297268	-0.02772092	1.117638e-07	-5.628088e-08	0.01693898	0.009717353	3.750262e-07	-2.06243e-07
	1.117638e-07	-5.628088e-08	-0.0247515	-0.02490898	6.288738e-08	-6.496669e-09	0.01636253	0.01069278
	0.01693898	0.009717353	6.288738e-08	-6.496669e-09	-0.02304109	-0.02783298	1.172195e-07	-5.98169e-08
	3.750262e-07	-2.06243e-07	0.01636253	0.01069278	1.172195e-07	-5.98169e-08	-0.02496537	-0.02473307
4.6e+08	-0.02420044	-0.02762798	1.113702e-07	-6.229406e-08	0.01728078	0.0093966	3.735543e-07	-2.267462e-07
	1.113702e-07	-6.229406e-08	-0.025973	-0.02468126	6.279087e-08	-9.17781e-09	0.01670468	0.01042671
	0.01728078	0.0093966	6.279087e-08	-9.17781e-09	-0.02427034	-0.02775197	1.167997e-07	-6.613172e-08
	3.735543e-07	-2.267462e-07	0.01670468	0.01042671	1.167997e-07	-6.613172e-08	-0.026194	-0.02449223
4.7e+08	-0.0254301	-0.02748701	1.106473e-07	-6.838371e-08	0.01760176	0.009057823	3.709882e-07	-2.474895e-07
	1.106473e-07	-6.838371e-08	-0.02719157	-0.0244036	6.252329e-08	-1.18979e-08	0.01702809	0.01014336
	0.01760176	0.009057823	6.252329e-08	-1.18979e-08	-0.0255021	-0.02762275	1.16035e-07	-7.252542e-08
	3.709882e-07	-2.474895e-07	0.01702809	0.01014336	1.16035e-07	-7.252542e-08	-0.0274194	-0.02420093
4.8e+08	-0.02665975	-0.02729789	1.095905e-07	-7.453124e-08	0.01790098	0.008702088	3.67307e-07	-2.684159e-07
	1.095905e-07	-7.453124e-08	-0.02840515	-0.02407613	6.208096e-08	-1.464784e-08	0.01733189	0.009843715
