!$
! Info: Touchstone file created by Circ.  Input file=Tx_2in_Rx_100ohms_TxVia_60mils_RxVia_70mils.circ
!$
# Hz S RI R 50
0	0.002233456	5.183746e-26	-1.101301e-05	7.544231e-24	3.185681e-05	4.275897e-24	-1.097598e-05	3.020305e-24
	-1.101301e-05	7.544223e-24	0.002229204	5.827351e-26	-1.104971e-05	1.206862e-23	3.097381e-05	5.307954e-24
	3.098821e-05	4.256837e-24	-1.104971e-05	1.206873e-23	0.002247417	5.24533e-26	-1.101197e-05	7.457059e-24
	-1.097598e-05	3.020182e-24	3.124381e-05	5.330717e-24	-1.101197e-05	7.456838e-24	0.002243827	5.798133e-26
1e+07	0.003147686	0.001815672	-3.914622e-05	4.647377e-07	0.0001269956	0.000624939	-1.478574e-05	-2.376303e-06
	-3.914622e-05	4.647374e-07	0.003178782	0.001815658	-4.708368e-06	2.366873e-05	0.0001262606	0.0006234938
	0.0001269801	0.0006249526	-4.708368e-06	2.366873e-05	0.003195316	0.001825347	-3.914977e-05	4.383987e-07
	-1.478574e-05	-2.376303e-06	0.0001262627	0.0006234913	-3.914977e-05	4.383987e-07	0.003162521	0.001823956
2e+07	0.003947479	0.002950595	-2.954225e-05	-1.679211e-05	0.0001427967	0.001273956	-1.139328e-05	-4.38654e-06
	-2.954225e-05	-1.679211e-05	0.00396793	0.002938302	-1.651237e-05	3.76033e-05	0.0001399432	0.001271226
	0.0001428034	0.001273965	-1.651237e-05	3.76033e-05	0.00399091	0.002956475	-2.954991e-05	-1.68428e-05
	-1.139328e-05	-4.38654e-06	0.0001399396	0.001271227	-2.954991e-05	-1.68428e-05	0.00396004	0.002965109
3e+07	0.004613237	0.003795589	-2.241136e-05	-2.283762e-05	0.0001942058	0.001884203	-8.942323e-06	-6.610353e-06
	-2.241136e-05	-2.283762e-05	0.004621989	0.003779356	-3.352368e-05	4.043483e-05	0.000187861	0.001880428
	0.0001942068	0.001884204	-3.352368e-05	4.043483e-05	0.004654605	0.003804907	-2.24226e-05	-2.291508e-05
	-8.942323e-06	-6.610353e-06	0.0001878607	0.00188043	-2.24226e-05	-2.291508e-05	0.004621274	0.003816974
4e+07	0.005224555	0.004520073	-1.660981e-05	-2.624637e-05	0.0002829223	0.002479799	-6.925537e-06	-7.775735e-06
	-1.660981e-05	-2.624637e-05	0.005219471	0.004501885	-4.807721e-05	3.984862e-05	0.0002717232	0.00247531
	0.0002829211	0.0024798	-4.807721e-05	3.984862e-05	0.005265331	0.004534229	-1.662378e-05	-2.635224e-05
	-6.925537e-06	-7.775735e-06	0.0002717239	0.002475311	-1.662378e-05	-2.635224e-05	0.005225747	0.004547898
5e+07	0.005809597	0.005164624	-1.164204e-05	-2.834392e-05	0.0004377897	0.003059334	-5.174811e-06	-8.442071e-06
	-1.164204e-05	-2.834392e-05	0.005788172	0.005146444	-6.125557e-05	3.731939e-05	0.0004204138	0.003054522
	0.0004377883	0.003059334	-6.125557e-05	3.731939e-05	0.005851007	0.005184091	-1.165809e-05	-2.847994e-05
	-5.174811e-06	-8.442071e-06	0.0004204147	0.003054522	-1.165809e-05	-2.847994e-05	0.005801167	0.005199417
6e+07	0.006382118	0.005748097	-7.24326e-06	-2.958745e-05	0.0006163106	0.003626427	-3.600775e-06	-8.800924e-06
	-7.24326e-06	-2.958745e-05	0.006342228	0.005731799	-7.364598e-05	3.338497e-05	0.0005914752	0.003621799
	0.0006163082	0.003626427	-7.364598e-05	3.338497e-05	0.006425186	0.005772971	-7.260667e-06	-2.975543e-05
	-3.600775e-06	-8.800924e-06	0.0005914765	0.003621799	-7.260667e-06	-2.975543e-05	0.006361857	0.005790692
7e+07	0.006949632	0.006280798	-8.780456e-06	-2.921772e-05	0.0008183492	0.004180705	-2.134669e-06	-8.899724e-06
	-8.780456e-06	-2.921772e-05	0.006889215	0.006267976	-8.562697e-05	2.824288e-05	0.0007848111	0.004176847
	0.0008183454	0.004180704	-8.562697e-05	2.824288e-05	0.006995234	0.006311021	-8.798825e-06	-2.941556e-05
	-2.134669e-06	-8.899724e-06	0.0007848129	0.004176847	-8.798825e-06	-2.941556e-05	0.006915447	0.006331784
8e+07	0.007516404	0.00676931	-1.411218e-05	-2.724483e-05	0.00104356	0.004721329	-3.085479e-06	-8.302113e-06
	-1.411218e-05	-2.724483e-05	0.007433191	0.006761531	-9.751356e-05	2.178894e-05	0.001000116	0.004718908
	0.001043555	0.004721329	-9.751356e-05	2.178894e-05	0.007565319	0.006804769	-1.41281e-05	-2.747101e-05
	-3.085479e-06	-8.302113e-06	0.001000118	0.004718907	-1.41281e-05	-2.747101e-05	0.007465892	0.006829232
9e+07	0.008085042	0.007218758	-1.891571e-05	-2.417851e-05	0.001291385	0.005247014	-4.585917e-06	-7.212585e-06
	-1.891571e-05	-2.417851e-05	0.007976577	0.007217908	-0.0001096758	1.345413e-05	0.001236872	0.005246773
	0.001291382	0.005247014	-0.0001096758	1.345413e-05	0.008138001	0.007259383	-1.892743e-05	-2.443454e-05
	-4.585917e-06	-7.212585e-06	0.001236874	0.005246772	-1.892743e-05	-2.443454e-05	0.008015462	0.007288461
1e+08	0.008658268	0.00763701	-2.29048e-05	-1.898724e-05	0.00156064	0.005754519	-5.771264e-06	-5.422724e-06
	-2.29048e-05	-1.898724e-05	0.008522201	0.007645898	-0.0001231051	-1.34005e-07	0.001493933	0.00575728
	0.00156064	0.005754519	-0.0001231051	-1.34005e-07	0.0087161	0.007683226	-2.290919e-05	-1.927574e-05
	-5.771264e-06	-5.422724e-06	0.001493933	0.00575728	-2.290919e-05	-1.927574e-05	0.008566742	0.007717841
1.1e+08	0.009253336	0.008013166	-2.251051e-05	-1.480883e-05	0.001842948	0.006249247	-5.466346e-06	-3.999698e-06
	-2.251051e-05	-1.480883e-05	0.009090254	0.008032946	-0.0001241474	-1.613518e-05	0.001763006	0.006255931
	0.001842948	0.006249247	-0.0001241474	-1.613518e-05	0.009318572	0.008063815	-2.250729e-05	-1.513489e-05
	-5.466346e-06	-3.999698e-06	0.001763004	0.006255932	-2.250729e-05	-1.513489e-05	0.009138349	0.008106431
1.2e+08	0.009849547	0.008345149	-2.245113e-05	-1.241028e-05	0.002147576	0.00673195	-5.27771e-06	-3.180868e-06
	-2.245113e-05	-1.241028e-05	0.009657049	0.008376932	-0.0001244807	-2.625102e-05	0.002053395	0.006743519
	0.002147576	0.00673195	-0.0001244807	-2.625102e-05	0.009922294	0.00839871	-2.244259e-05	-1.277534e-05
	-5.27771e-06	-3.180868e-06	0.002053393	0.006743519	-2.244259e-05	-1.277534e-05	0.009708819	0.008452506
1.3e+08	0.01044795	0.008639498	-2.251194e-05	-1.059547e-05	0.002473301	0.00719913	-5.12364e-06	-2.569487e-06
	-2.251194e-05	-1.059547e-05	0.01022394	0.0086851	-0.0001248828	-3.418576e-05	0.002363934	0.007216619
	0.002473301	0.00719913	-0.0001248828	-3.418576e-05	0.01052839	0.008695035	-2.249927e-05	-1.100151e-05
	-5.12364e-06	-2.569487e-06	0.002363933	0.00721662	-2.249927e-05	-1.100151e-05	0.01027938	0.008762738
1.4e+08	0.01104859	0.008898342	-2.264751e-05	-9.10553e-06	0.002819194	0.007649268	-4.987746e-06	-2.080964e-06
	-2.264751e-05	-9.10553e-06	0.01079113	0.008959818	-0.0001254501	-4.075256e-05	0.002693759	0.00767378
	0.002819194	0.007649268	-0.0001254501	-4.075256e-05	0.01113686	0.008955047	-2.263193e-05	-9.554701e-06
	-4.987746e-06	-2.080964e-06	0.002693758	0.007673781	-2.263193e-05	-9.554701e-06	0.01085019	0.009039388
1.5e+08	0.0116512	0.009123007	-2.283687e-05	-7.818555e-06	0.003184322	0.008081163	-4.863635e-06	-1.675707e-06
	-2.283687e-05	-7.818555e-06	0.0113585	0.009202587	-0.000126206	-4.633314e-05	0.003042002	0.008113862
	0.003184322	0.008081163	-0.000126206	-4.633314e-05	0.01174742	0.009180135	-2.281974e-05	-8.313083e-06
	-4.863635e-06	-1.675707e-06	0.003042001	0.008113863	-2.281974e-05	-8.313083e-06	0.0114211	0.009283924
1.6e+08	0.01225534	0.009314441	-2.3067e-05	-6.664222e-06	0.003567717	0.008493757	-4.747987e-06	-1.331157e-06
	-2.3067e-05	-6.664222e-06	0.01192574	0.009414508	-0.0001271509	-5.114657e-05	0.003407765	0.008535867
	0.003567717	0.008493757	-0.0001271509	-5.114657e-05	0.01235961	0.009371282	-2.304989e-05	-7.206382e-06
	-4.747987e-06	-1.331157e-06	0.003407765	0.008535868	-2.304989e-05	-7.206382e-06	0.0119918	0.009497429
1.7e+08	0.01286046	0.009473363	-2.332828e-05	-5.597304e-06	0.003968369	0.008886085	-4.638845e-06	-1.032985e-06
	-2.332828e-05	-5.597304e-06	0.01249243	0.009596444	-0.0001282764	-5.533305e-05	0.003790111	0.008938884
	0.003968369	0.008886085	-0.0001282764	-5.533305e-05	0.01297283	0.009529233	-2.331302e-05	-6.189393e-06
	-4.638845e-06	-1.032985e-06	0.003790111	0.008938885	-2.331302e-05	-6.189393e-06	0.01256186	0.009680763
1.8e+08	0.01346589	0.009600351	-2.361289e-05	-4.586764e-06	0.004385226	0.009257256	-4.534952e-06	-7.714407e-07
	-2.361289e-05	-4.586764e-06	0.01305806	0.0097491	-0.0001295698	-5.898836e-05	0.004188062	0.009322074
	0.004385226	0.009257256	-0.0001295698	-5.898836e-05	0.01358638	0.009654581	-2.360156e-05	-5.231066e-06
	-4.534952e-06	-7.714407e-07	0.004188062	0.009322074	-2.360156e-05	-5.231066e-06	0.01313075	0.009834636
1.9e+08	0.01407088	0.00969589	-2.391392e-05	-3.610301e-06	0.004817194	0.009606445	-4.435446e-06	-5.395548e-07
	-2.391392e-05	-3.610301e-06	0.01362205	0.009873082	-0.0001310174	-6.218142e-05	0.004600602	0.009684659
	0.004817194	0.009606445	-0.0001310174	-6.218142e-05	0.01419949	0.009747824	-2.390888e-05	-4.309066e-06
	-4.435446e-06	-5.395548e-07	0.004600602	0.009684659	-2.390888e-05	-4.309066e-06	0.01369786	0.009959656
2e+08	0.01467464	0.009760399	-2.422508e-05	-2.651431e-06	0.00526314	0.009932892	-4.339706e-06	-3.321586e-07
	-2.422508e-05	-2.651431e-06	0.01418375	0.009968915	-0.0001326042	-6.496371e-05	0.00502668	0.01002592
	0.005263141	0.009932892	-0.0001326042	-6.496371e-05	0.01481132	0.009809392	-2.422896e-05	-3.406847e-06
	-4.339706e-06	-3.321586e-07	0.00502668	0.01002592	-2.422896e-05	-3.406847e-06	0.01426256	0.01005636
2.1e+08	0.01527628	0.009794258	-2.454041e-05	-1.697693e-06	0.005721895	0.0102359	-4.247263e-06	-1.45311e-07
	-2.454041e-05	-1.697693e-06	0.01474246	0.01003708	-0.0001343156	-6.737503e-05	0.005465209	0.0103452
	0.005721895	0.0102359	-0.0001343156	-6.737503e-05	0.01542097	0.009839672	-2.45561e-05	-2.511862e-06
	-4.247263e-06	-1.45311e-07	0.005465209	0.0103452	-2.45561e-05	-2.511862e-06	0.01482414	0.01012523
2.2e+08	0.01587491	0.009797826	-2.485421e-05	-7.396233e-07	0.006192255	0.01051483	-4.157754e-06	2.406409e-08
	-2.485421e-05	-7.396233e-07	0.01529745	0.01007801	-0.0001361371	-6.944698e-05	0.005915072	0.0106419
	0.006192255	0.01051483	-0.0001361371	-6.944698e-05	0.01602749	0.009839029	-2.488489e-05	-1.614532e-06
	-4.157754e-06	2.406409e-08	0.005915072	0.0106419	-2.488489e-05	-1.614532e-06	0.01538185	0.01016671
2.3e+08	0.01646956	0.009771461	-2.5161e-05	2.299275e-07	0.006672987	0.01076911	-4.070883e-06	1.784153e-07
	-2.5161e-05	2.299275e-07	0.01584795	0.01009215	-0.0001380542	-7.120526e-05	0.006375124	0.01091547
	0.006672987	0.01076911	-0.0001380542	-7.120526e-05	0.0166299	0.009807828	-2.521012e-05	-7.075701e-07
	-4.070883e-06	1.784153e-07	0.006375124	0.01091547	-2.521012e-05	-7.075701e-07	0.01593493	0.01018125
2.4e+08	0.01705925	0.009715517	-2.545544e-05	1.216433e-06	0.007162829	0.01099823	-3.986411e-06	3.197159e-07
	-2.545544e-05	1.216433e-06	0.01639317	0.0100799	-0.0001400532	-7.267148e-05	0.006844193	0.01116543
	0.007162829	0.01099823	-0.0001400532	-7.267148e-05	0.01722718	0.00974643	-2.55267e-05	2.146627e-07
	-3.986411e-06	3.197159e-07	0.006844193	0.01116543	-2.55267e-05	2.146627e-07	0.01648256	0.01016927
2.5e+08	0.01764297	0.009630362	-2.573234e-05	2.223862e-06	0.007660495	0.01120174	-3.904133e-06	4.495838e-07
	-2.573234e-05	2.223862e-06	0.01693228	0.01004168	-0.0001421207	-7.386407e-05	0.007321084	0.01139136
	0.007660495	0.01120174	-0.0001421207	-7.386407e-05	0.01781829	0.009655215	-2.582971e-05	1.156322e-06
	-3.904133e-06	4.495838e-07	0.007321084	0.01139136	-2.582971e-05	1.156322e-06	0.01702393	0.01013119
2.6e+08	0.01821971	0.009516382	-2.598667e-05	3.255033e-06	0.008164677	0.01137927	-3.823877e-06	5.693567e-07
	-2.598667e-05	3.255033e-06	0.01746445	0.009977934	-0.000144244	-7.479918e-05	0.007804581	0.01159288
	0.008164677	0.01137927	-0.000144244	-7.479918e-05	0.01840216	0.009534577	-2.611436e-05	2.120441e-06
	-3.823877e-06	5.693567e-07	0.007804581	0.01159288	-2.611436e-05	2.120441e-06	0.01755819	0.01006746
2.7e+08	0.0187884	0.009373991	-2.621356e-05	4.31171e-06	0.008674052	0.0115305	-3.745484e-06	6.801563e-07
	-2.621356e-05	4.31171e-06	0.01798883	0.009889088	-0.0001464105	-7.549128e-05	0.008293455	0.01176969
	0.008674052	0.0115305	-0.0001464105	-7.549128e-05	0.01897772	0.009384936	-2.637601e-05	3.109018e-06
	-3.745484e-06	6.801563e-07	0.008293454	0.01176969	-2.637601e-05	3.109018e-06	0.0180845	0.009978522
2.8e+08	0.01934801	0.009203626	-2.640829e-05	5.394845e-06	0.009187278	0.01165518	-3.668825e-06	7.829218e-07
	-2.640829e-05	5.394845e-06	0.01850456	0.0097756	-0.0001486087	-7.595351e-05	0.008786457	0.01192155
	0.009187278	0.01165518	-0.0001486087	-7.595351e-05	0.01954389	0.009206749	-2.661017e-05	4.123265e-06
	-3.668825e-06	7.829218e-07	0.008786457	0.01192155	-2.661017e-05	4.123265e-06	0.01860198	0.009864844
2.9e+08	0.01989747	0.00900576	-2.656631e-05	6.504631e-06	0.009703003	0.01175313	-3.593781e-06	8.784516e-07
	-2.656631e-05	6.504631e-06	0.0190108	0.009637952	-0.0001508274	-7.619808e-05	0.009282332	0.01204828
	0.009703003	0.01175313	-0.0001508274	-7.619808e-05	0.02009956	0.009000498	-2.681248e-05	5.163654e-06
	-3.593781e-06	8.784516e-07	0.009282332	0.01204828	-2.681248e-05	5.163654e-06	0.01910978	0.009726911
3e+08	0.02043573	0.008780896	-2.668331e-05	7.640558e-06	0.01021987	0.01182424	-3.520243e-06	9.674294e-07
	-2.668331e-05	7.640558e-06	0.01950667	0.009476641	-0.0001530558	-7.623655e-05	0.009779813	0.01214976
	0.01021987	0.01182424	-0.0001530558	-7.623655e-05	0.02064365	0.008766706	-2.697882e-05	6.229976e-06
	-3.520243e-06	9.674294e-07	0.009779813	0.01214976	-2.697882e-05	6.229976e-06	0.01960704	0.009565235
3.1e+08	0.02096172	0.00852958	-2.675514e-05	8.801576e-06	0.0107365	0.01186846	-3.448121e-06	1.050437e-06
	-2.675514e-05	8.801576e-06	0.01999132	0.009292199	-0.0001552841	-7.607979e-05	0.01027763	0.01222594
	0.0107365	0.01186846	-0.0001552841	-7.607979e-05	0.02117507	0.008505933	-2.710521e-05	7.321502e-06
	-3.448121e-06	1.050437e-06	0.01027763	0.01222594	-2.710521e-05	7.321502e-06	0.02009288	0.009380356
3.2e+08	0.0214744	0.008252389	-2.677789e-05	9.986082e-06	0.01125155	0.01188581	-3.377332e-06	1.127977e-06
	-2.677789e-05	9.986082e-06	0.0204639	0.009085175	-0.0001575029	-7.573835e-05	0.01077451	0.01227681
	0.01125155	0.01188581	-0.0001575029	-7.573835e-05	0.02169273	0.008218777	-2.718789e-05	8.436963e-06
	-3.377332e-06	1.127977e-06	0.01077451	0.01227681	-2.718789e-05	8.436963e-06	0.02056646	0.009172838
3.3e+08	0.02197273	0.007949944	-2.674793e-05	1.119197e-05	0.01176364	0.01187638	-3.307796e-06	1.200487e-06
	-2.674793e-05	1.119197e-05	0.02092356	0.008856156	-0.0001597032	-7.522267e-05	0.01126919	0.01230245
	0.01176364	0.01187638	-0.0001597032	-7.522267e-05	0.02219556	0.007905879	-2.722334e-05	9.574605e-06
	-3.307796e-06	1.200487e-06	0.01126919	0.01230245	-2.722334e-05	9.574605e-06	0.02102693	0.008943272
3.4e+08	0.02245568	0.007622908	-2.666185e-05	1.241673e-05	0.0122714	0.01184034	-3.239453e-06	1.268343e-06
	-2.666185e-05	1.241673e-05	0.02136948	0.008605756	-0.0001618769	-7.454269e-05	0.01176039	0.012303
	0.0122714	0.01184034	-0.0001618769	-7.454269e-05	0.0226825	0.007567925	-2.720825e-05	1.07323e-05
	-3.239453e-06	1.268343e-06	0.01176039	0.012303	-2.720825e-05	1.07323e-05	0.02147345	0.008692288
3.5e+08	0.02292224	0.00727198	-2.651654e-05	1.365748e-05	0.0127735	0.01177789	-3.172244e-06	1.331872e-06
	-2.651654e-05	1.365748e-05	0.02180083	0.008334615	-0.0001640165	-7.370842e-05	0.01224685	0.01227863
	0.0127735	0.01177789	-0.0001640165	-7.370842e-05	0.02315251	0.007205643	-2.713959e-05	1.190753e-05
	-3.172244e-06	1.331872e-06	0.01224685	0.01227863	-2.713959e-05	1.190753e-05	0.02190521	0.008420536
3.6e+08	0.02337141	0.006897904	-2.630917e-05	1.491096e-05	0.01326858	0.01168935	-3.106121e-06	1.39136e-06
	-2.630917e-05	1.491096e-05	0.02221682	0.008043408	-0.0001661151	-7.272953e-05	0.01272733	0.01222962
	0.01326858	0.01168935	-0.0001661151	-7.272953e-05	0.02360457	0.006819796	-2.701457e-05	1.309744e-05
	-3.106121e-06	1.39136e-06	0.01272733	0.01222962	-2.701457e-05	1.309744e-05	0.0223214	0.008128702
3.7e+08	0.02380223	0.006501462	-2.603722e-05	1.617362e-05	0.01375532	0.01157506	-3.041044e-06	1.447056e-06
	-2.603722e-05	1.617362e-05	0.02261666	0.007732839	-0.0001681665	-7.161568e-05	0.01320059	0.01215627
	0.01375532	0.01157506	-0.0001681665	-7.161568e-05	0.02403767	0.006411201	-2.68307e-05	1.429887e-05
	-3.041044e-06	1.447056e-06	0.01320059	0.01215627	-2.68307e-05	1.429887e-05	0.02272123	0.007817503
3.8e+08	0.02421375	0.006083481	-2.56985e-05	1.744162e-05	0.01423241	0.01143544	-2.97698e-06	1.49918e-06
	-2.56985e-05	1.744162e-05	0.0229996	0.007403642	-0.000170165	-7.037652e-05	0.0136654	0.01205897
	0.01423241	0.01143544	-0.000170165	-7.037652e-05	0.02445084	0.005980711	-2.658577e-05	1.550841e-05
	-2.97698e-06	1.49918e-06	0.0136654	0.01205897	-2.658577e-05	1.550841e-05	0.02310396	0.007487685
3.9e+08	0.02460505	0.005644826	-2.529114e-05	1.871089e-05	0.01469856	0.01127099	-2.913904e-06	1.547925e-06
	-2.529114e-05	1.871089e-05	0.02336489	0.007056582	-0.0001721057	-6.902148e-05	0.01412056	0.01193815
	0.01469856	0.01127099	-0.0001721057	-6.902148e-05	0.02484315	0.005529223	-2.627789e-05	1.672239e-05
	-2.913904e-06	1.547925e-06	0.01412056	0.01193815	-2.627789e-05	1.672239e-05	0.02346883	0.007140024
4e+08	0.02497524	0.005186399	-2.481363e-05	1.997713e-05	0.01515252	0.01108225	-2.851798e-06	1.593458e-06
	-2.481363e-05	1.997713e-05	0.02371183	0.006692455	-0.0001739841	-6.756012e-05	0.0145649	0.0117943
	0.01515252	0.01108225	-0.0001739841	-6.756012e-05	0.02521367	0.005057674	-2.590545e-05	1.793693e-05
	-2.851798e-06	1.593458e-06	0.0145649	0.0117943	-2.590545e-05	1.793693e-05	0.02381515	0.006775328
4.1e+08	0.02532347	0.004709147	-2.426479e-05	2.123589e-05	0.01559303	0.01086984	-2.79065e-06	1.635931e-06
	-2.426479e-05	2.123589e-05	0.02403973	0.006312083	-0.0001757965	-6.60018e-05	0.01499725	0.01162799
	0.01559303	0.01086984	-0.0001757965	-6.60018e-05	0.02556154	0.004567045	-2.546721e-05	1.9148e-05
	-2.79065e-06	1.635931e-06	0.01499725	0.01162799	-2.546721e-05	1.9148e-05	0.02414222	0.006394434
4.2e+08	0.02564893	0.004214051	-2.364381e-05	2.248256e-05	0.01601891	0.01063444	-2.730459e-06	1.675477e-06
	-2.364381e-05	2.248256e-05	0.02434794	0.005916319	-0.00017754	-6.435558e-05	0.01541649	0.01143982
	0.01601891	0.01063444	-0.00017754	-6.435558e-05	0.0258859	0.004058349	-2.496222e-05	2.035142e-05
	-2.730459e-06	1.675477e-06	0.01541649	0.01143982	-2.496222e-05	2.035142e-05	0.0244494	0.005998203
4.3e+08	0.02595082	0.003702125	-2.295024e-05	2.371241e-05	0.01642896	0.01037678	-2.671229e-06	1.712214e-06
	-2.295024e-05	2.371241e-05	0.02463584	0.00550604	-0.0001792122	-6.263052e-05	0.01582152	0.01123047
	0.01642896	0.01037678	-0.0001792122	-6.263052e-05	0.02618597	0.003532645	-2.438987e-05	2.154287e-05
	-2.671229e-06	1.712214e-06	0.01582152	0.01123047	-2.438987e-05	2.154287e-05	0.02473606	0.00558753
4.4e+08	0.02622841	0.003174426	-2.218402e-05	2.492064e-05	0.01682206	0.01009764	-2.612969e-06	1.746249e-06
	-2.218402e-05	2.492064e-05	0.02490283	0.005082151	-0.0001808114	-6.083551e-05	0.01621127	0.01100064
	0.01682206	0.01009764	-0.0001808114	-6.083551e-05	0.02646098	0.002991023	-2.374991e-05	2.271796e-05
	-2.612969e-06	1.746249e-06	0.01621127	0.01100064	-2.374991e-05	2.271796e-05	0.02500161	0.005163327
4.5e+08	0.02648099	0.002632036	-2.134543e-05	2.610237e-05	0.01719711	0.009797891	-2.555696e-06	1.777679e-06
	-2.134543e-05	2.610237e-05	0.02514836	0.004645582	-0.0001823363	-5.897949e-05	0.01658472	0.01075111
	0.01719711	0.009797891	-0.0001823363	-5.897949e-05	0.0267102	0.002434608	-2.30424e-05	2.387223e-05
	-2.555696e-06	1.777679e-06	0.01658472	0.01075111	-2.30424e-05	2.387223e-05	0.02524552	0.004726541
4.6e+08	0.0267079	0.002076077	-2.043514e-05	2.725273e-05	0.01755304	0.009478419	-2.499429e-06	1.80659e-06
	-2.043514e-05	2.725273e-05	0.02537192	0.004197288	-0.0001837867	-5.707065e-05	0.01694086	0.0104827
	0.01755304	0.009478419	-0.0001837867	-5.707065e-05	0.02693298	0.001864561	-2.226778e-05	2.500119e-05
	-2.499429e-06	1.80659e-06	0.01694086	0.0104827	-2.226778e-05	2.500119e-05	0.02546725	0.004278136
4.7e+08	0.02690854	0.001507694	-1.945418e-05	2.836681e-05	0.01788886	0.009140185	-2.444145e-06	1.833027e-06
	-1.945418e-05	2.836681e-05	0.02557302	0.003738243	-0.0001851622	-5.511781e-05	0.01727875	0.01019629
	0.01788886	0.009140185	-0.0001851622	-5.511781e-05	0.02712869	0.001282072	-2.142678e-05	2.61003e-05
	-2.444145e-06	1.833027e-06	0.01727875	0.01019629	-2.142678e-05	2.61003e-05	0.02566633	0.003819097
