!$
! Info: Touchstone file created by Circ.  Input file=Tx_2in_Rx_93ohms_TxVia_60mils_RxVia_70mils.circ
!$
# Hz S RI R 50
0	0.001990565	5.18195e-26	-1.099468e-05	7.546114e-24	3.184987e-05	3.797611e-24	-1.095764e-05	3.021087e-24
	-1.099468e-05	7.546107e-24	0.001986313	5.824879e-26	-1.10314e-05	1.207161e-23	3.096643e-05	4.712347e-24
	3.098125e-05	3.780692e-24	-1.10314e-05	1.207171e-23	0.002004533	5.243524e-26	-1.099365e-05	7.458921e-24
	-1.095764e-05	3.020964e-24	3.123644e-05	4.732556e-24	-1.099364e-05	7.4587e-24	0.002000943	5.795663e-26
1e+07	0.002859438	0.0002733542	-5.105813e-05	-2.75151e-06	6.178484e-05	0.0006184422	-1.006179e-05	-2.316931e-06
	-5.105813e-05	-2.75151e-06	0.002914512	0.000273366	-2.802756e-05	1.041951e-05	6.098785e-05	0.000616112
	6.176935e-05	0.0006184558	-2.802756e-05	1.041951e-05	0.002931323	0.0002803065	-5.104948e-05	-2.302167e-06
	-1.006179e-05	-2.316931e-06	6.098988e-05	0.0006161095	-5.104948e-05	-2.302167e-06	0.002873464	0.0002746849
2e+07	0.003510173	-0.0001085553	-4.14951e-05	-1.482927e-05	9.610854e-05	0.001237487	-3.530674e-06	-1.198664e-05
	-4.14951e-05	-1.482927e-05	0.003548218	-0.0001299476	-2.829624e-05	3.181335e-06	9.387189e-05	0.001233236
	9.611536e-05	0.001237496	-2.829624e-05	3.181335e-06	0.003572201	-0.0001172848	-4.112881e-05	-1.57082e-05
	-3.530674e-06	-1.198664e-05	9.386837e-05	0.001233236	-4.112881e-05	-1.57082e-05	0.003519033	-0.0001075885
3e+07	0.003968825	-0.0007500895	-3.449908e-05	-2.116422e-05	0.0001767656	0.001835817	-3.693873e-06	-1.484597e-05
	-3.449908e-05	-2.116422e-05	0.003988908	-0.0007785276	-2.842285e-05	9.323395e-07	0.0001684023	0.00183055
	0.0001767666	0.001835817	-2.842285e-05	9.323394e-07	0.00402381	-0.0007613015	-3.384733e-05	-2.220692e-05
	-3.693873e-06	-1.484597e-05	0.000168402	0.001830552	-3.384733e-05	-2.220692e-05	0.003968895	-0.0007482914
4e+07	0.004311363	-0.00149403	-2.880075e-05	-2.465581e-05	0.0002934047	0.002423131	-8.734947e-06	-1.558873e-05
	-2.880075e-05	-2.465581e-05	0.004310958	-0.001525903	-2.849078e-05	-6.09112e-07	0.0002793145	0.002417282
	0.0002934034	0.002423132	-2.849078e-05	-6.09112e-07	0.004360927	-0.001504822	-2.79111e-05	-2.579943e-05
	-8.734947e-06	-1.558873e-05	0.0002793152	0.002417283	-2.79111e-05	-2.579943e-05	0.004298914	-0.001491387
5e+07	0.004565101	-0.002300095	-2.392018e-05	-2.677401e-05	0.0004352323	0.003000626	-1.316002e-05	-1.527474e-05
	-2.392018e-05	-2.677401e-05	0.004541161	-0.002332393	-2.851197e-05	-1.945705e-06	0.0004141001	0.002994756
	0.0004352309	0.003000626	-2.851197e-05	-1.945705e-06	0.004610444	-0.002309121	-2.282116e-05	-2.798356e-05
	-1.316002e-05	-1.527474e-05	0.000414101	0.002994757	-2.282116e-05	-2.798356e-05	0.004535965	-0.00229558
6e+07	0.004743761	-0.003148265	-1.959698e-05	-2.801737e-05	0.0006020993	0.003567874	-1.71004e-05	-1.419308e-05
	-1.959698e-05	-2.801737e-05	0.004693555	-0.003178234	-2.849587e-05	-3.256946e-06	0.0005726388	0.003562614
	0.0006020969	0.003567874	-2.849587e-05	-3.256946e-06	0.004785798	-0.003154768	-1.830663e-05	-2.926808e-05
	-1.71004e-05	-1.419308e-05	0.0005726401	0.003562614	-1.830663e-05	-2.926808e-05	0.004694359	-0.003140468
7e+07	0.004855243	-0.00402635	-1.566222e-05	-2.858425e-05	0.0007936855	0.004124102	-2.062093e-05	-1.24637e-05
	-1.566222e-05	-2.858425e-05	0.004776084	-0.004051562	-2.845611e-05	-4.649461e-06	0.0007546463	0.004120156
	0.0007936817	0.004124101	-2.845611e-05	-4.649461e-06	0.004894706	-0.004029808	-1.419167e-05	-2.985509e-05
	-2.062093e-05	-1.24637e-05	0.000754648	0.004120156	-1.419167e-05	-2.985509e-05	0.004782149	-0.004014025
8e+07	0.004904463	-0.004925595	-1.198489e-05	-2.851987e-05	0.001009571	0.004668345	-2.374521e-05	-1.010768e-05
	-1.198489e-05	-2.851987e-05	0.004793467	-0.004943617	-2.841499e-05	-6.224888e-06	0.0009597444	0.004666503
	0.001009567	0.004668345	-2.841499e-05	-6.224888e-06	0.004941975	-0.004925549	-1.033969e-05	-2.978897e-05
	-2.374521e-05	-1.010768e-05	0.0009597463	0.004666503	-1.033969e-05	-2.978897e-05	0.004803981	-0.004907456
9e+07	0.004894886	-0.005838497	-8.431407e-06	-2.770501e-05	0.00124924	0.005199514	-2.645035e-05	-7.015192e-06
	-8.431407e-06	-2.770501e-05	0.004749018	-0.005846481	-2.841365e-05	-8.137435e-06	0.001187464	0.005200662
	0.001249237	0.005199515	-2.841365e-05	-8.137435e-06	0.004931036	-0.005834384	-8.410974e-06	-2.857062e-05
	-2.645035e-05	-7.015192e-06	0.001187465	0.005200661	-8.410974e-06	-2.857062e-05	0.004763027	-0.005812864
1e+08	0.004830366	-0.006754163	-1.045547e-05	-2.385723e-05	0.001512069	0.005716306	-2.849383e-05	-2.349754e-06
	-1.045547e-05	-2.385723e-05	0.00464683	-0.006747884	-2.859825e-05	-1.103539e-05	0.001437257	0.005721516
	0.001512069	0.005716306	-2.859825e-05	-1.103539e-05	0.004865951	-0.006744492	-1.262655e-05	-2.401525e-05
	-2.849383e-05	-2.349754e-06	0.001437257	0.005721516	-1.262655e-05	-2.401525e-05	0.004663074	-0.006718709
1.1e+08	0.004731775	-0.007683033	-1.053386e-05	-2.040043e-05	0.001796504	0.006218164	-2.71272e-05	1.5083e-06
	-1.053386e-05	-2.040043e-05	0.004512165	-0.007661042	-2.638293e-05	-1.441605e-05	0.001708011	0.006228294
	0.001796504	0.006218164	-2.638293e-05	-1.441605e-05	0.004770765	-0.007669073	-1.259322e-05	-2.033752e-05
	-2.71272e-05	1.5083e-06	0.001708009	0.006228294	-1.259322e-05	-2.033752e-05	0.004526628	-0.007635586
1.2e+08	0.004576574	-0.008625605	-1.090953e-05	-1.853855e-05	0.002102632	0.006704299	-2.600663e-05	3.925835e-06
	-1.090953e-05	-1.853855e-05	0.004317696	-0.008586798	-2.400693e-05	-1.674571e-05	0.001999369	0.006720186
	0.002102632	0.006704299	-2.400693e-05	-1.674571e-05	0.004618641	-0.008609342	-1.287406e-05	-1.834805e-05
	-2.600663e-05	3.925835e-06	0.001999367	0.006720187	-1.287406e-05	-1.834805e-05	0.004330147	-0.008563613
1.3e+08	0.004367261	-0.009572277	-1.138843e-05	-1.718284e-05	0.002429642	0.007173484	-2.496342e-05	5.820599e-06
	-1.138843e-05	-1.718284e-05	0.004066342	-0.009514329	-2.160702e-05	-1.875206e-05	0.00231061	0.007196163
	0.002429642	0.007173484	-2.160702e-05	-1.875206e-05	0.004412235	-0.00955461	-1.326403e-05	-1.690096e-05
	-2.496342e-05	5.820599e-06	0.002310608	0.007196164	-1.326403e-05	-1.690096e-05	0.004076377	-0.009492903
1.4e+08	0.00410534	-0.01051852	-1.19322e-05	-1.609796e-05	0.002776665	0.007624679	-2.411855e-05	6.916185e-06
	-1.19322e-05	-1.609796e-05	0.003759832	-0.01043872	-1.920096e-05	-2.060855e-05	0.002640938	0.007655281
	0.002776665	0.007624679	-1.920096e-05	-2.060855e-05	0.004153056	-0.0105001	-1.372291e-05	-1.574831e-05
	-2.411855e-05	6.916185e-06	0.002640937	0.007655282	-1.372291e-05	-1.574831e-05	0.003767017	-0.01041871
1.5e+08	0.003792107	-0.01146074	-1.252743e-05	-1.517097e-05	0.003142778	0.008056899	-2.386755e-05	6.230349e-06
	-1.252743e-05	-1.517097e-05	0.003399654	-0.01135612	-1.679586e-05	-2.240406e-05	0.002989504	0.008096636
	0.003142778	0.008056899	-1.679586e-05	-2.240406e-05	0.003842392	-0.0114421	-1.423674e-05	-1.477106e-05
	-2.386755e-05	6.230349e-06	0.002989504	0.008096636	-1.423674e-05	-1.477106e-05	0.003403547	-0.01133723
1.6e+08	0.003428776	-0.01239584	-1.31546e-05	-1.434365e-05	0.003527003	0.008469207	-2.36216e-05	5.686775e-06
	-1.31546e-05	-1.434365e-05	0.002987211	-0.01226318	-1.439664e-05	-2.419471e-05	0.003355406	0.008519359
	0.003527003	0.008469207	-1.439664e-05	-2.419471e-05	0.003481442	-0.01237742	-1.47856e-05	-1.390779e-05
	-2.36216e-05	5.686775e-06	0.003355406	0.008519359	-1.47856e-05	-1.390779e-05	0.002987372	-0.01224514
1.7e+08	0.003016518	-0.01332099	-1.380523e-05	-1.357607e-05	0.003928314	0.008860712	-2.338254e-05	5.250908e-06
	-1.380523e-05	-1.357607e-05	0.002523872	-0.01315692	-1.200835e-05	-2.601987e-05	0.003737695	0.008922624
	0.003928314	0.008860712	-1.200835e-05	-2.601987e-05	0.003071368	-0.01330319	-1.536098e-05	-1.311636e-05
	-2.338254e-05	5.250908e-06	0.003737695	0.008922624	-1.536098e-05	-1.311636e-05	0.002519867	-0.01313944
1.8e+08	0.002556493	-0.01423362	-1.44723e-05	-1.284109e-05	0.004345632	0.009230575	-2.315089e-05	4.899701e-06
	-1.44723e-05	-1.284109e-05	0.002011002	-0.01403455	-9.636672e-06	-2.790904e-05	0.004135376	0.009305649
	0.004345632	0.009230575	-9.636672e-06	-2.790904e-05	0.002613314	-0.01421678	-1.5956e-05	-1.236802e-05
	-2.315089e-05	4.899701e-06	0.004135376	0.009305649	-1.5956e-05	-1.236802e-05	0.00200241	-0.01401735
1.9e+08	0.002049857	-0.0151313	-1.51496e-05	-1.211939e-05	0.004777838	0.009578009	-2.292668e-05	4.616644e-06
	-1.51496e-05	-1.211939e-05	0.001449976	-0.01489351	-7.288263e-06	-2.988525e-05	0.004547412	0.009667699
	0.004777838	0.009578009	-7.288263e-06	-2.988525e-05	0.002108429	-0.01511573	-1.656461e-05	-1.164229e-05
	-2.292668e-05	4.616644e-06	0.004547412	0.009667699	-1.656461e-05	-1.164229e-05	0.001436388	-0.01487627
2e+08	0.001497783	-0.01601177	-1.583139e-05	-1.139686e-05	0.005223768	0.009902283	-2.270962e-05	4.389525e-06
	-1.583139e-05	-1.139686e-05	0.0008421924	-0.01573137	-4.970586e-06	-3.196695e-05	0.004972729	0.01000809
	0.005223768	0.009902283	-4.970586e-06	-3.196695e-05	0.001557872	-0.01599776	-1.718128e-05	-1.092414e-05
	-2.270962e-05	4.389525e-06	0.004972729	0.01000809	-1.718128e-05	-1.092414e-05	0.000823216	-0.01571378
2.1e+08	0.0009014621	-0.01687288	-1.651223e-05	-1.066297e-05	0.00568222	0.01020272	-2.24993e-05	4.208991e-06
	-1.651223e-05	-1.066297e-05	0.0001890759	-0.01654587	-2.692189e-06	-3.416908e-05	0.005410215	0.0103262
	0.005682221	0.01020272	-2.692189e-06	-3.416908e-05	0.0009628206	-0.01686068	-1.78008e-05	-1.020226e-05
	-2.24993e-05	4.208991e-06	0.005410215	0.0103262	-1.78008e-05	-1.020226e-05	0.0001643362	-0.01652758
2.2e+08	0.0002621056	-0.01771258	-1.718685e-05	-9.909862e-06	0.006151961	0.01047872	-2.229523e-05	4.06777e-06
	-1.718685e-05	-9.909862e-06	-0.0005079182	-0.01733486	-4.624167e-07	-3.650382e-05	0.005858729	0.01062144
	0.006151961	0.01047872	-4.624167e-07	-3.650382e-05	0.000324478	-0.01770244	-1.841818e-05	-9.468139e-06
	-2.229523e-05	4.06777e-06	0.005858729	0.01062144	-1.841818e-05	-9.468139e-06	-0.000538775	-0.01731549
2.3e+08	-0.0004190405	-0.01852894	-1.785022e-05	-9.131721e-06	0.00663172	0.01072972	-2.209687e-05	3.960127e-06
	-1.785022e-05	-9.131721e-06	-0.001247295	-0.01809629	1.70927e-06	-3.898142e-05	0.006317097	0.01089329
	0.00663172	0.01072972	1.70927e-06	-3.898142e-05	-0.0003559212	-0.01852107	-1.902862e-05	-8.715397e-06
	-2.209687e-05	3.960127e-06	0.006317097	0.01089329	-1.902862e-05	-8.715397e-06	-0.001284604	-0.01807547
2.4e+08	-0.001140702	-0.01932009	-1.849736e-05	-8.324229e-06	0.007120204	0.01095523	-2.190372e-05	3.881347e-06
	-1.849736e-05	-8.324229e-06	-0.002027529	-0.01882823	3.811818e-06	-4.16097e-05	0.006784122	0.01114131
	0.007120204	0.01095523	3.811818e-06	-4.16097e-05	-0.001077116	-0.01931469	-1.962743e-05	-7.939174e-06
	-2.190372e-05	3.881347e-06	0.006784122	0.01114131	-1.962743e-05	-7.939174e-06	-0.002071603	-0.01880555
2.5e+08	-0.00190157	-0.02008426	-1.912352e-05	-7.48442e-06	0.007616091	0.01115484	-2.171525e-05	3.827619e-06
	-1.912352e-05	-7.48442e-06	-0.00284705	-0.01952885	5.837966e-06	-4.439738e-05	0.007258581	0.01136508
	0.007616091	0.01115484	5.837966e-06	-4.439738e-05	-0.001837807	-0.02008152	-2.02101e-05	-7.136006e-06
	-2.171525e-05	3.827619e-06	0.007258581	0.01136508	-2.02101e-05	-7.136006e-06	-0.00289818	-0.01950389
2.6e+08	-0.002700297	-0.02081977	-1.97048e-05	-6.596932e-06	0.00811804	0.0113282	-2.153091e-05	3.795574e-06
	-1.97048e-05	-6.596932e-06	-0.003704255	-0.02019639	5.518368e-06	-4.588586e-05	0.007739235	0.01156427
	0.00811804	0.0113282	5.518368e-06	-4.588586e-05	-0.002636661	-0.02081985	-2.075384e-05	-6.290093e-06
	-2.153091e-05	3.795574e-06	0.007739235	0.01156427	-2.075384e-05	-6.290093e-06	-0.003762705	-0.02016872
2.7e+08	-0.003535499	-0.02152498	-2.025063e-05	-5.672632e-06	0.008624693	0.01147501	-2.135024e-05	3.782677e-06
	-2.025063e-05	-5.672632e-06	-0.004597492	-0.02082922	4.828784e-06	-4.721708e-05	0.008224824	0.01173861
	0.008624693	0.01147501	4.828784e-06	-4.721708e-05	-0.003472305	-0.02152802	-2.126769e-05	-5.411702e-06
	-2.135024e-05	3.782677e-06	0.008224824	0.01173861	-2.126769e-05	-5.411702e-06	-0.004663505	-0.02079837
2.8e+08	-0.004405757	-0.02219835	-2.075977e-05	-4.713699e-06	0.009134677	0.01159506	-2.117283e-05	3.786679e-06
	-2.075977e-05	-4.713699e-06	-0.005525076	-0.02142575	4.143176e-06	-4.863585e-05	0.008714079	0.01188788
	0.009134677	0.01159506	4.143176e-06	-4.863585e-05	-0.004343331	-0.02220449	-2.175051e-05	-4.502524e-06
	-2.117283e-05	3.786679e-06	0.008714079	0.01188788	-2.175051e-05	-4.502524e-06	-0.00559887	-0.02139127
2.9e+08	-0.005309617	-0.02283841	-2.122808e-05	-3.720673e-06	0.009646607	0.0116882	-2.099824e-05	3.805632e-06
	-2.122808e-05	-3.720673e-06	-0.006485282	-0.02198451	3.447947e-06	-5.01462e-05	0.009205717	0.01201192
	0.009646607	0.0116882	3.447947e-06	-5.01462e-05	-0.005248289	-0.02284775	-2.219838e-05	-3.562622e-06
	-2.099824e-05	3.805632e-06	0.009205717	0.01201192	-2.219838e-05	-3.562622e-06	-0.00656705	-0.02194591
3e+08	-0.006245579	-0.02344374	-2.165166e-05	-2.694701e-06	0.01015909	0.01175436	-2.082605e-05	3.837861e-06
	-2.165166e-05	-2.694701e-06	-0.007476345	-0.02250412	2.729901e-06	-5.175118e-05	0.009698453	0.01211066
	0.01015909	0.01175436	2.729901e-06	-5.175118e-05	-0.006185694	-0.02345639	-2.260759e-05	-2.592673e-06
	-2.082605e-05	3.837861e-06	0.009698453	0.01211066	-2.260759e-05	-2.592673e-06	-0.007566256	-0.02246091
3.1e+08	-0.007212117	-0.02401303	-2.202679e-05	-1.637408e-06	0.01067074	0.01179352	-2.065589e-05	3.881891e-06
	-2.202679e-05	-1.637408e-06	-0.008496466	-0.02298325	1.975263e-06	-5.345216e-05	0.01019099	0.01218408
	0.01067074	0.01179352	1.975263e-06	-5.345216e-05	-0.007154027	-0.02402903	-2.297459e-05	-1.59382e-06
	-2.065589e-05	3.881891e-06	0.01019099	0.01218408	-2.297459e-05	-1.59382e-06	-0.008594663	-0.02293493
3.2e+08	-0.008207661	-0.02454499	-2.235e-05	-5.508894e-07	0.01118016	0.01180575	-2.048741e-05	3.93643e-06
	-2.235e-05	-5.508894e-07	-0.009543812	-0.02342069	1.170719e-06	-5.524953e-05	0.01068205	0.01223221
	0.01118016	0.01180575	1.170719e-06	-5.524953e-05	-0.00815173	-0.02456442	-2.329606e-05	-5.676767e-07
	-2.048741e-05	3.93643e-06	0.01068205	0.01223221	-2.329606e-05	-5.676767e-07	-0.009650411	-0.02336675
3.3e+08	-0.009230612	-0.02503844	-2.261807e-05	5.623337e-07	0.01168596	0.01179118	-2.032024e-05	4.000332e-06
	-2.261807e-05	5.623337e-07	-0.01061651	-0.02381529	3.032598e-07	-5.71427e-05	0.01117033	0.01225517
	0.01168596	0.01179118	3.032598e-07	-5.71427e-05	-0.009177207	-0.02506131	-2.356893e-05	4.837223e-07
	-2.032024e-05	4.000332e-06	0.01117033	0.01225517	-2.356893e-05	4.837223e-07	-0.0107316	-0.0237552
3.4e+08	-0.01027933	-0.02549224	-2.282806e-05	1.6994e-06	0.01218675	0.01175001	-2.015409e-05	4.072573e-06
	-2.282806e-05	1.6994e-06	-0.01171267	-0.02416599	-6.402284e-07	-5.912977e-05	0.01165455	0.01225313
	0.01218675	0.01175001	-6.402284e-07	-5.912977e-05	-0.01022883	-0.02551857	-2.379034e-05	1.55801e-06
	-2.015409e-05	4.072573e-06	0.01165455	0.01225313	-2.379034e-05	1.55801e-06	-0.01183631	-0.02409924
3.5e+08	-0.01135216	-0.02590533	-2.297728e-05	2.857114e-06	0.01268116	0.01168252	-1.998865e-05	4.152226e-06
	-2.297728e-05	2.857114e-06	-0.01283036	-0.02447184	-1.672425e-06	-6.120785e-05	0.01213345	0.01222633
	0.01268116	0.01168252	-1.672425e-06	-6.120785e-05	-0.01130494	-0.02593512	-2.39577e-05	2.652487e-06
	-1.998865e-05	4.152226e-06	0.01213345	0.01222633	-2.39577e-05	2.652487e-06	-0.01296259	-0.02439787
3.6e+08	-0.01244739	-0.02627673	-2.306334e-05	4.032003e-06	0.01316785	0.01158904	-1.982368e-05	4.238456e-06
	-2.306334e-05	4.032003e-06	-0.01396762	-0.02473192	-2.80581e-06	-6.337294e-05	0.01260576	0.01217507
	0.01316785	0.01158904	-2.80581e-06	-6.337294e-05	-0.01240385	-0.02630994	-2.406865e-05	3.764181e-06
	-1.982368e-05	4.238456e-06	0.01260576	0.01217507	-2.406865e-05	3.764181e-06	-0.01410845	-0.02465021
3.7e+08	-0.01356331	-0.02660552	-2.308415e-05	5.220332e-06	0.01364546	0.01147	-1.965891e-05	4.330498e-06
	-2.308415e-05	5.220332e-06	-0.01512248	-0.02494545	-4.05243e-06	-6.562014e-05	0.01307023	0.01209971
	0.01364546	0.01147	-4.05243e-06	-6.562014e-05	-0.01352383	-0.0266421	-2.412113e-05	4.889861e-06
	-1.965891e-05	4.330498e-06	0.01307023	0.01209971	-2.412113e-05	4.889861e-06	-0.01527188	-0.02485545
3.8e+08	-0.01469815	-0.02689084	-2.303796e-05	6.418147e-06	0.01411267	0.01132586	-1.949412e-05	4.427655e-06
	-2.303796e-05	6.418147e-06	-0.01629294	-0.0251117	-5.423911e-06	-6.794359e-05	0.01352565	0.01200067
	0.01411267	0.01132586	-5.423911e-06	-6.794359e-05	-0.01466313	-0.02693071	-2.411337e-05	6.026078e-06
	-1.949412e-05	4.427655e-06	0.01352565	0.01200067	-2.411337e-05	6.026078e-06	-0.01645087	-0.02501286
3.9e+08	-0.01585015	-0.02713193	-2.292331e-05	7.621313e-06	0.0145682	0.01115717	-1.932911e-05	4.529277e-06
	-2.292331e-05	7.621313e-06	-0.01747697	-0.02523003	-6.931448e-06	-7.033644e-05	0.01397081	0.01187845
	0.0145682	0.01115717	-6.931448e-06	-7.033644e-05	-0.01581998	-0.02717499	-2.404388e-05	7.169198e-06
	-1.932911e-05	4.529277e-06	0.01397081	0.01187845	-2.404388e-05	7.169198e-06	-0.01764335	-0.02512181
4e+08	-0.01701749	-0.02732807	-2.273909e-05	8.825529e-06	0.01501078	0.01096453	-1.916368e-05	4.634764e-06
	-2.273909e-05	8.825529e-06	-0.01867255	-0.02529991	-8.585696e-06	-7.279106e-05	0.01440453	0.01173358
	0.01501078	0.01096453	-8.585696e-06	-7.279106e-05	-0.01699259	-0.0273742	-2.391148e-05	8.315425e-06
	-1.916368e-05	4.634764e-06	0.01440453	0.01173358	-2.391148e-05	8.315425e-06	-0.01884727	-0.02518176
4.1e+08	-0.01819837	-0.02747862	-2.248453e-05	1.002637e-05	0.01543917	0.01074863	-1.899767e-05	4.743559e-06
	-2.248453e-05	1.002637e-05	-0.01987762	-0.02532085	-1.039678e-05	-7.529893e-05	0.01482567	0.01156668
	0.01543917	0.01074863	-1.039678e-05	-7.529893e-05	-0.01817911	-0.02752768	-2.37153e-05	9.460835e-06
	-1.899767e-05	4.743559e-06	0.01482567	0.01156668	-2.37153e-05	9.460835e-06	-0.02006055	-0.02519222
4.2e+08	-0.01939092	-0.02758303	-2.215918e-05	1.121933e-05	0.01585218	0.01051019	-1.883093e-05	4.855139e-06
	-2.215918e-05	1.121933e-05	-0.02109011	-0.02529248	-1.237425e-05	-7.785065e-05	0.01523311	0.01137841
	0.01585218	0.01051019	-1.237425e-05	-7.785065e-05	-0.01937772	-0.02763485	-2.345474e-05	1.060141e-05
	-1.883093e-05	4.855139e-06	0.01523311	0.01137841	-2.345474e-05	1.060141e-05	-0.02128109	-0.02515283
4.3e+08	-0.02059331	-0.02764081	-2.176297e-05	1.239983e-05	0.01624863	0.01025001	-1.866334e-05	4.969017e-06
	-2.176297e-05	1.239983e-05	-0.02230798	-0.0252145	-1.452699e-05	-8.043616e-05	0.01562575	0.01116948
	0.01624863	0.01025001	-1.452699e-05	-8.043616e-05	-0.02058655	-0.02769518	-2.312957e-05	1.173304e-05
	-1.866334e-05	4.969017e-06	0.01562575	0.01116948	-2.312957e-05	1.173304e-05	-0.02250682	-0.0250633
4.4e+08	-0.02180365	-0.02765153	-2.129614e-05	1.356322e-05	0.0166274	0.009968934	-1.849479e-05	5.084731e-06
	-2.129614e-05	1.356322e-05	-0.02352913	-0.02508671	-1.686318e-05	-8.304463e-05	0.01600256	0.01094066
	0.0166274	0.009968934	-1.686318e-05	-8.304463e-05	-0.02180372	-0.02770825	-2.273983e-05	1.285159e-05
	-1.849479e-05	5.084731e-06	0.01600256	0.01094066	-2.273983e-05	1.285159e-05	-0.02373561	-0.02492342
4.5e+08	-0.02302005	-0.02761486	-2.075931e-05	1.470489e-05	0.01698742	0.009667881	-1.832519e-05	5.201846e-06
	-2.075931e-05	1.470489e-05	-0.0247515	-0.02490898	-1.939028e-05	-8.566461e-05	0.01636253	0.01069278
	0.01698742	0.009667881	-1.939028e-05	-8.566461e-05	-0.02302735	-0.02767368	-2.228591e-05	1.395288e-05
	-1.832519e-05	5.201846e-06	0.01636253	0.01069278	-2.228591e-05	1.395288e-05	-0.02496537	-0.02473307
4.6e+08	-0.02424064	-0.02753052	-2.015342e-05	1.58202e-05	0.01732765	0.009347811	-1.815446e-05	5.319946e-06
	-2.015342e-05	1.58202e-05	-0.025973	-0.02468126	-2.2115e-05	-8.828398e-05	0.01670468	0.01042671
	0.01732765	0.009347811	-2.2115e-05	-8.828398e-05	-0.02425553	-0.02759117	-2.176846e-05	1.503273e-05
	-1.815446e-05	5.319946e-06	0.01670468	0.01042671	-2.176846e-05	1.503273e-05	-0.026194	-0.02449223
4.7e+08	-0.0254635	-0.02739831	-1.947973e-05	1.690457e-05	0.01764709	0.009009738	-1.798253e-05	5.438641e-06
