!$
! Info: Touchstone file created by Circ.  Input file=Tx_2in_Rx_100ohms_TxVia_60mils_RxVia_70mils.circ
!$
# Hz S RI R 50
0	0.002233845	5.999624e-26	0.9976257	-4.701672e-26	3.426259e-05	4.768789e-24	-2.957724e-05	2.288723e-21
	0.9976257	-4.773318e-26	0.002229204	5.827351e-26	-3.006119e-05	2.348e-21	3.097381e-05	5.307954e-24
	3.548288e-05	4.633651e-24	-2.936737e-05	2.26303e-21	0.002244819	5.955471e-26	0.9976038	-4.548015e-26
	-2.984793e-05	2.321872e-21	3.124381e-05	5.330717e-24	0.9976038	-4.842003e-26	0.002243827	5.798133e-26
1e+07	0.003180067	0.001815881	0.9965079	-0.02380229	0.0001269143	0.0006233688	-0.0001148133	-0.0001521177
	0.9965079	-0.02380229	0.003178782	0.001815658	-0.0001149155	-0.0001520701	0.0001262606	0.0006234938
	0.0001269839	0.0006233367	-0.0001148805	-0.0001520883	0.00316399	0.001824121	0.9965221	-0.02389753
	-0.0001147782	-0.0001521358	0.0001262627	0.0006234913	0.9965222	-0.02389753	0.003162521	0.001823956
2e+07	0.003973434	0.002939019	0.9949208	-0.04683635	0.0001426506	0.001270816	-9.706174e-05	-0.0003307524
	0.9949208	-0.04683635	0.00396793	0.002938302	-9.708321e-05	-0.0003306772	0.0001399432	0.001271226
	0.0001426361	0.001270779	-9.708861e-05	-0.0003306976	0.003966294	0.002965777	0.9949205	-0.04703697
	-9.705067e-05	-0.0003307881	0.0001399396	0.001271227	0.9949205	-0.04703697	0.00396004	0.002965109
3e+07	0.004634195	0.003779831	0.9929907	-0.06954118	0.0001938938	0.001879499	-9.387765e-05	-0.0004737014
	0.9929907	-0.06954118	0.004621989	0.003779356	-9.389591e-05	-0.000473688	0.000187861	0.001880428
	0.0001938901	0.001879499	-9.389771e-05	-0.000473688	0.004635072	0.003817212	0.9929729	-0.06983864
	-9.387921e-05	-0.0004737055	0.0001878607	0.00188043	0.9929729	-0.06983864	0.004621274	0.003816974
4e+07	0.005241241	0.004501979	0.9906364	-0.09208013	0.0002823898	0.002473553	-0.0001069815	-0.0006057525
	0.9906364	-0.09208013	0.005219471	0.004501885	-0.0001070311	-0.0006057526	0.0002717232	0.00247531
	0.000282395	0.002473552	-0.0001070275	-0.0006057514	0.005250292	0.004547608	0.9905976	-0.09247178
	-0.0001069748	-0.0006057451	0.0002717239	0.002475311	0.9905976	-0.09247178	0.005225747	0.004547898
5e+07	0.00582253	0.005145171	0.9878315	-0.1144851	0.000436981	0.003051556	-0.0001654028	-0.0007267758
	0.9878315	-0.1144851	0.005788172	0.005146444	-0.0001654705	-0.0007267632	0.0004204138	0.003054522
	0.0004369837	0.003051555	-0.0001654681	-0.0007267633	0.005839899	0.005197455	0.9877678	-0.114969
	-0.0001653971	-0.0007267731	0.0004204147	0.003054522	0.9877678	-0.114969	0.005801167	0.005199417
6e+07	0.006391688	0.005727938	0.9845645	-0.136767	0.0006151657	0.003617137	-0.0002271113	-0.0008415274
	0.9845645	-0.136767	0.006342228	0.005731799	-0.0002271864	-0.0008415012	0.0005914752	0.003621799
	0.0006151651	0.003617139	-0.000227187	-0.0008415007	0.006417569	0.005785641	0.9844722	-0.1373414
	-0.0002271168	-0.0008415289	0.0005914765	0.003621799	0.9844722	-0.1373414	0.006361857	0.005790692
7e+07	0.006956156	0.00626046	0.9808294	-0.1589285	0.0008168119	0.004169925	-0.0002923897	-0.0009505448
	0.9808294	-0.1589285	0.006889215	0.006267976	-0.0002924759	-0.0009505096	0.0007848111	0.004176847
	0.0008168103	0.00416993	-0.0002924786	-0.0009505075	0.006990777	0.006322455	0.9807046	-0.1595914
	-0.0002924075	-0.0009505446	0.0007848129	0.004176847	0.9807046	-0.1595914	0.006915447	0.006331784
8e+07	0.007520175	0.006749287	0.9766231	-0.1809674	0.001041576	0.004709083	-0.000361188	-0.001053917
	0.9766231	-0.1809674	0.007433191	0.006761531	-0.0003612993	-0.001053871	0.001000116	0.004718908
	0.001041576	0.004709089	-0.0003613026	-0.001053868	0.00756373	0.006814445	0.976462	-0.1817171
	-0.0003612112	-0.001053912	0.001000118	0.004718907	0.976462	-0.1817171	0.007465892	0.006829232
9e+07	0.008086369	0.007199594	0.9719438	-0.2028799	0.001288903	0.005233325	-0.0004332258	-0.001151382
	0.9719438	-0.2028799	0.007976577	0.007217908	-0.0004333808	-0.001151315	0.001236872	0.005246773
	0.001288903	0.005233329	-0.000433383	-0.001151313	0.008138962	0.007266708	0.9717429	-0.2037142
	-0.0004332434	-0.001151375	0.001236874	0.005246772	0.9717429	-0.2037142	0.008015462	0.007288461
1e+08	0.008657609	0.007619752	0.9667901	-0.2246647	0.001557606	0.005739412	-0.0005076586	-0.001240803
	0.9667901	-0.2246647	0.008522201	0.007645898	-0.0005078754	-0.001240695	0.001493933	0.00575728
	0.001557606	0.005739412	-0.0005078753	-0.001240695	0.008719124	0.0076871	0.9665459	-0.2255811
	-0.0005076586	-0.001240803	0.001493933	0.00575728	0.9665459	-0.2255811	0.008566742	0.007717841
1.1e+08	0.009252936	0.007997287	0.9611473	-0.2462991	0.001839318	0.006232763	-0.0005772779	-0.001328764
	0.9611473	-0.2462991	0.009090254	0.008032946	-0.0005775333	-0.001328623	0.001763006	0.006255931
	0.001839318	0.006232763	-0.0005775333	-0.001328623	0.009321385	0.008064775	0.9608583	-0.2472962
	-0.000577278	-0.001328764	0.001763004	0.006255932	0.9608583	-0.2472962	0.009138349	0.008106431
1.2e+08	0.009849247	0.008329743	0.9550399	-0.2677715	0.002143297	0.006714118	-0.0006516722	-0.001416887
	0.9550399	-0.2677715	0.009657049	0.008376932	-0.000651967	-0.001416708	0.002053395	0.006743519
	0.002143296	0.006714118	-0.0006519671	-0.001416708	0.009925009	0.008397673	0.9547022	-0.2688485
	-0.0006516723	-0.001416887	0.002053393	0.006743519	0.9547022	-0.2688485	0.009708819	0.008452506
1.3e+08	0.01044771	0.008624246	0.9484691	-0.2890797	0.002468323	0.007179987	-0.000730285	-0.001502596
	0.9484691	-0.2890797	0.01022394	0.0086851	-0.0007306198	-0.001502372	0.002363934	0.007216619
	0.002468323	0.007179987	-0.0007306198	-0.001502372	0.01053102	0.008692325	0.9480789	-0.290235
	-0.000730285	-0.001502596	0.002363933	0.00721662	0.9480789	-0.290235	0.01027938	0.008762738
1.4e+08	0.01104837	0.008883052	0.9414373	-0.3102165	0.002813472	0.007628854	-0.0008128988	-0.001585271
	0.9414373	-0.3102165	0.01079113	0.008959818	-0.0008132735	-0.001584997	0.002693759	0.00767378
	0.002813472	0.007628854	-0.0008132735	-0.001584997	0.01113941	0.008950862	0.9409911	-0.3114483
	-0.0008128987	-0.001585271	0.002693758	0.007673781	0.9409911	-0.3114483	0.01085019	0.009039388
1.5e+08	0.01165099	0.009107544	0.9339476	-0.3311737	0.003177813	0.00805952	-0.0008993362	-0.001664579
	0.9339476	-0.3311737	0.0113585	0.009202587	-0.0008997503	-0.001664248	0.003042002	0.008113862
	0.003177813	0.00805952	-0.0008997502	-0.001664248	0.0117499	0.009174614	0.9334418	-0.33248
	-0.0008993361	-0.001664579	0.003042001	0.008113863	0.9334418	-0.33248	0.0114211	0.009283924
1.6e+08	0.01225512	0.009298702	0.9260035	-0.3519428	0.003560381	0.00847093	-0.0009894294	-0.001740293
	0.9260035	-0.3519428	0.01192574	0.009414508	-0.0009898817	-0.001739899	0.003407765	0.008535867
	0.003560381	0.00847093	-0.0009898815	-0.001739899	0.012362	0.00936453	0.9254346	-0.3533214
	-0.0009894293	-0.001740293	0.003407765	0.008535868	0.9254346	-0.3533214	0.0119918	0.009497429
1.7e+08	0.01286021	0.009457269	0.9176086	-0.372515	0.00396017	0.008862119	-0.001083012	-0.00181224
	0.9176086	-0.372515	0.01249243	0.009596444	-0.001083501	-0.001811776	0.003790111	0.008938884
	0.00396017	0.008862119	-0.0010835	-0.001811776	0.01297513	0.009521333	0.9169733	-0.3739637
	-0.001083012	-0.00181224	0.003790111	0.008938885	0.9169733	-0.3739637	0.01256186	0.009680763
1.8e+08	0.0134656	0.009583834	0.9087671	-0.3928815	0.004376128	0.009232198	-0.001179917	-0.00188028
	0.9087671	-0.3928815	0.01305806	0.0097491	-0.001180439	-0.001879741	0.004188062	0.009322074
	0.004376128	0.009232198	-0.001180439	-0.001879741	0.01358859	0.009645607	0.908062	-0.3943979
	-0.001179917	-0.00188028	0.004188062	0.009322074	0.908062	-0.3943979	0.01313075	0.009834636
1.9e+08	0.01407053	0.009678897	0.8994832	-0.4130332	0.004807166	0.009580345	-0.001279976	-0.001944296
	0.8994832	-0.4130332	0.01362205	0.009873082	-0.001280528	-0.001943675	0.004600602	0.009684659
	0.004807166	0.009580345	-0.001280528	-0.001943675	0.01420161	0.009737837	0.8987051	-0.4146149
	-0.001279975	-0.001944296	0.004600602	0.009684659	0.8987051	-0.4146149	0.01369786	0.009959656
2e+08	0.0146742	0.009742881	0.8897616	-0.4329613	0.005252151	0.009905801	-0.001383018	-0.002004188
	0.8897616	-0.4329613	0.01418375	0.009968915	-0.001383597	-0.002003478	0.00502668	0.01002592
	0.005252151	0.009905801	-0.001383597	-0.002003478	0.01481335	0.00979845	0.8889072	-0.4346057
	-0.001383018	-0.002004188	0.00502668	0.01002592	0.8889072	-0.4346057	0.01426256	0.01005636
2.1e+08	0.01527574	0.009776176	0.8796071	-0.4526568	0.005709918	0.01020787	-0.001488873	-0.002059867
	0.8796071	-0.4526568	0.01474246	0.01003708	-0.001489474	-0.002059064	0.005465209	0.0103452
	0.005709919	0.01020787	-0.001489474	-0.002059064	0.0154229	0.009827827	0.8786734	-0.4543611
	-0.001488873	-0.002059867	0.005465209	0.0103452	0.8786734	-0.4543611	0.01482414	0.01012523
2.2e+08	0.01587424	0.009779144	0.8690247	-0.4721108	0.006179266	0.01048591	-0.001597368	-0.00211126
	0.8690247	-0.4721108	0.01529745	0.01007801	-0.001597986	-0.002110357	0.005915072	0.0106419
	0.006179266	0.01048591	-0.001597986	-0.002110357	0.01602933	0.009826331	0.8680086	-0.4738723
	-0.001597368	-0.00211126	0.005915072	0.0106419	0.8680086	-0.4738723	0.01538185	0.01016671
2.3e+08	0.01646875	0.009752149	0.8580198	-0.4913144	0.006658964	0.01073936	-0.001708331	-0.002158303
	0.8580198	-0.4913144	0.01584795	0.01009215	-0.00170896	-0.002157294	0.006375124	0.01091547
	0.006658964	0.01073936	-0.00170896	-0.002157294	0.01663166	0.009794327	0.8569185	-0.4931302
	-0.001708331	-0.002158303	0.006375124	0.01091547	0.8569185	-0.4931302	0.01593493	0.01018125
2.4e+08	0.01705828	0.009695542	0.8465979	-0.5102589	0.007147754	0.0109677	-0.001821591	-0.00220094
	0.8465979	-0.5102589	0.01639317	0.0100799	-0.001822224	-0.002199821	0.006844193	0.01116543
	0.007147754	0.0109677	-0.001822224	-0.002199822	0.01722887	0.00973217	0.8454084	-0.512126
	-0.001821591	-0.00220094	0.006844193	0.01116543	0.8454084	-0.512126	0.01648256	0.01016927
2.5e+08	0.01764182	0.0096097	0.8347648	-0.5289355	0.007644352	0.0111705	-0.001936976	-0.002239128
	0.8347648	-0.5289355	0.01693228	0.01004168	-0.001937606	-0.002237895	0.007321084	0.01139136
	0.007644352	0.0111705	-0.001937606	-0.002237895	0.01781991	0.009640241	0.8334844	-0.5308508
	-0.001936977	-0.002239128	0.007321084	0.01139136	0.8334844	-0.5308508	0.01702393	0.01013119
2.6e+08	0.01821834	0.009495011	0.8225264	-0.5473357	0.008147454	0.01134737	-0.002054317	-0.002272829
	0.8225264	-0.5473357	0.01746445	0.009977934	-0.002054936	-0.002271477	0.007804581	0.01159288
	0.008147454	0.01134737	-0.002054936	-0.002271477	0.01840373	0.009518931	0.8211524	-0.549296
	-0.002054317	-0.002272829	0.007804581	0.01159288	0.8211524	-0.549296	0.01755819	0.01006746
2.7e+08	0.0187868	0.009351888	0.8098888	-0.5654509	0.008655737	0.011498	-0.002173446	-0.002302016
	0.8098888	-0.5654509	0.01798883	0.009889088	-0.002174046	-0.002300543	0.008293455	0.01176969
	0.008655737	0.011498	-0.002174046	-0.002300543	0.01897926	0.00936866	0.8084187	-0.567453
	-0.002173446	-0.002302016	0.008293454	0.01176969	0.8084187	-0.567453	0.0180845	0.009978522
2.8e+08	0.01934614	0.009180773	0.7968584	-0.5832728	0.009167866	0.01162213	-0.002294197	-0.002326669
	0.7968584	-0.5832728	0.01850456	0.0097756	-0.00229477	-0.00232507	0.008786457	0.01192155
	0.009167866	0.01162213	-0.00229477	-0.00232507	0.01954542	0.009189884	0.7952897	-0.5853132
	-0.002294197	-0.002326669	0.008786457	0.01192155	0.7952897	-0.5853132	0.01860198	0.009864844
2.9e+08	0.01989531	0.008982139	0.7834419	-0.600793	0.009682491	0.0117196	-0.002416408	-0.002346774
	0.7834419	-0.600793	0.0190108	0.009637952	-0.002416945	-0.002345048	0.009282332	0.01204828
	0.009682491	0.0117196	-0.002416945	-0.002345048	0.0201011	0.008983082	0.7817722	-0.6028684
	-0.002416408	-0.002346774	0.009282332	0.01204828	0.7817722	-0.6028684	0.01910978	0.009726911
3e+08	0.02043325	0.008756492	0.7696459	-0.6180036	0.01019825	0.01179028	-0.00253992	-0.002362324
	0.7696459	-0.6180036	0.01950667	0.009476641	-0.002540411	-0.00236047	0.009779813	0.01214976
	0.01019825	0.01179028	-0.002540411	-0.00236047	0.02064523	0.008748774	0.767873	-0.6201103
	-0.00253992	-0.002362324	0.009779813	0.01214976	0.767873	-0.6201103	0.01960704	0.009565235
3.1e+08	0.02095889	0.00850438	0.7554773	-0.6348963	0.01071379	0.01183414	-0.002664576	-0.002373321
	0.7554773	-0.6348963	0.01999132	0.009292199	-0.002665012	-0.002371338	0.01027763	0.01222594
	0.01071379	0.01183414	-0.002665012	-0.002371338	0.02117671	0.008487521	0.753599	-0.6370308
	-0.002664576	-0.002373321	0.01027763	0.01222594	0.753599	-0.6370308	0.02009288	0.009380356
3.2e+08	0.0214712	0.008226381	0.7409434	-0.6514635	0.01122775	0.01185118	-0.002790225	-0.00237977
	0.7409434	-0.6514635	0.0204639	0.009085175	-0.002790595	-0.002377658	0.01077451	0.01227681
	0.01122775	0.01185118	-0.002790595	-0.002377658	0.02169446	0.008199921	0.7389577	-0.653622
	-0.002790225	-0.00237977	0.01077451	0.01227681	0.7389577	-0.653622	0.02056646	0.009172838
3.3e+08	0.02196911	0.007923119	0.7260513	-0.6676973	0.01173875	0.01184151	-0.002916718	-0.002381683
	0.7260513	-0.6676973	0.02092356	0.008856156	-0.002917013	-0.002379443	0.01126919	0.01230245
	0.01173875	0.01184151	-0.002917013	-0.002379443	0.02219742	0.007886609	0.7239562	-0.6698761
	-0.002916718	-0.002381683	0.01126919	0.01230245	0.7239562	-0.6698761	0.02102693	0.008943272
3.4e+08	0.02245162	0.007595258	0.7108086	-0.6835903	0.01224545	0.01180528	-0.003043913	-0.002379077
	0.7108086	-0.6835903	0.02136948	0.008605756	-0.003044123	-0.002376709	0.01176039	0.012303
	0.01224545	0.01180528	-0.003044123	-0.002376709	0.02268453	0.007548273	0.7086023	-0.6857854
	-0.003043913	-0.002379077	0.01176039	0.012303	0.7086023	-0.6857854	0.02147345	0.008692288
3.5e+08	0.0229177	0.007243499	0.6952228	-0.699135	0.01274649	0.01174271	-0.003171671	-0.002371972
	0.6952228	-0.699135	0.02180083	0.008334615	-0.003171785	-0.00236948	0.01224685	0.01227863
	0.01274649	0.01174271	-0.003171785	-0.00236948	0.02315474	0.007185634	0.6929037	-0.7013426
	-0.003171671	-0.002371972	0.01224685	0.01227863	0.6929037	-0.7013426	0.02190521	0.008420536
3.6e+08	0.02336637	0.006868589	0.6793018	-0.7143241	0.01324053	0.01165409	-0.003299858	-0.002360394
	0.6793018	-0.7143241	0.02221682	0.008043408	-0.003299865	-0.002357782	0.01272733	0.01222962
	0.01324053	0.01165409	-0.003299865	-0.002357782	0.02360705	0.00679946	0.6768682	-0.7165402
	-0.003299858	-0.002360394	0.01272733	0.01222962	0.6768682	-0.7165402	0.0223214	0.008128702
3.7e+08	0.02379664	0.006471311	0.6630536	-0.7291506	0.01372626	0.01153978	-0.003428344	-0.002344372
	0.6630536	-0.7291506	0.02261666	0.007732839	-0.003428236	-0.002341643	0.01320059	0.01215627
	0.01372626	0.01153978	-0.003428236	-0.002341643	0.02404045	0.006390561	0.6605041	-0.7313712
	-0.003428344	-0.002344372	0.01320059	0.01215627	0.6605041	-0.7313712	0.02272123	0.007817503
3.8e+08	0.02420758	0.006052493	0.6464861	-0.7436076	0.01420236	0.0114002	-0.003557006	-0.002323938
	0.6464861	-0.7436076	0.0229996	0.007403642	-0.003556772	-0.002321098	0.0136654	0.01205897
	0.01420236	0.0114002	-0.003556772	-0.002321098	0.02445396	0.005959789	0.6438194	-0.7458285
	-0.003557006	-0.002323938	0.0136654	0.01205897	0.6438194	-0.7458285	0.02310396	0.007487685
3.9e+08	0.02459826	0.005613001	0.6296078	-0.7576884	0.01466755	0.01123584	-0.003685726	-0.002299127
	0.6296078	-0.7576884	0.02336489	0.007056582	-0.003685356	-0.002296181	0.01412056	0.01193815
	0.01466755	0.01123584	-0.003685356	-0.002296181	0.02484666	0.005508038	0.6268226	-0.7599055
	-0.003685726	-0.002299127	0.01412056	0.01193815	0.6268226	-0.7599055	0.02346883	0.007140024
4e+08	0.02496781	0.005153743	0.6124269	-0.7713864	0.01512057	0.01104725	-0.003814389	-0.002269976
	0.6124269	-0.7713864	0.02371183	0.006692455	-0.003813873	-0.002266931	0.0145649	0.0117943
	0.01512057	0.01104725	-0.003813873	-0.002266931	0.02521764	0.005036243	0.6095221	-0.7735954
	-0.003814388	-0.002269976	0.0145649	0.0117943	0.6095221	-0.7735954	0.02381515	0.006775328
4.1e+08	0.02531536	0.004675665	0.594952	-0.7846952	0.01556019	0.01083504	-0.003942886	-0.002236523
	0.594952	-0.7846952	0.02403973	0.006312083	-0.003942217	-0.002233387	0.01499725	0.01162799
	0.01556019	0.01083504	-0.003942217	-0.002233387	0.02556601	0.004545381	0.5919268	-0.7868919
	-0.003942886	-0.002236523	0.01499725	0.01162799	0.5919268	-0.7868919	0.02414222	0.006394434
4.2e+08	0.02564009	0.00417975	0.5771919	-0.7976087	0.01598521	0.01059989	-0.004071115	-0.002198809
	0.5771919	-0.7976087	0.02434794	0.005916319	-0.004070283	-0.002195589	0.01541649	0.01143982
	0.01598521	0.01059989	-0.004070283	-0.002195589	0.02589093	0.004036465	0.5740453	-0.7997888
	-0.004071115	-0.002198809	0.01541649	0.01143982	0.5740453	-0.7997888	0.0244494	0.005998203
4.3e+08	0.02594122	0.003667016	0.5591552	-0.8101208	0.01639444	0.01034252	-0.004198977	-0.002156874
	0.5591552	-0.8101208	0.02463584	0.00550604	-0.004197974	-0.00215358	0.01582152	0.01123047
	0.01639444	0.01034252	-0.004197974	-0.00215358	0.02619162	0.003510549	0.5558866	-0.8122799
	-0.004198977	-0.002156874	0.01582152	0.01123047	0.5558866	-0.8122799	0.02473606	0.00558753
4.4e+08	0.02621801	0.003138518	0.540851	-0.8222257	0.01678676	0.01006373	-0.004326378	-0.002110759
	0.540851	-0.8222257	0.02490283	0.005082151	-0.004325197	-0.0021074	0.01621127	0.01100064
	0.01678676	0.01006373	-0.004325197	-0.0021074	0.02646731	0.002968717	0.5374599	-0.8243595
	-0.004326378	-0.002110759	0.01621127	0.01100064	0.5374599	-0.8243595	0.02500161	0.005163327
4.5e+08	0.02646976	0.002595345	0.5222883	-0.8339179	0.01716107	0.009764356	-0.004453229	-0.002060505
	0.5222883	-0.8339179	0.02514836	0.004645582	-0.004451863	-0.002057093	0.01658472	0.01075111
	0.01716107	0.009764356	-0.004451863	-0.002057093	0.02671729	0.002412096	0.5187742	-0.8360219
	-0.004453229	-0.002060505	0.01658472	0.01075111	0.5187742	-0.8360219	0.02524552	0.004726541
4.6e+08	0.02669582	0.002038618	0.5034763	-0.8451918	0.01751632	0.009445309	-0.004579445	-0.002006153
	0.5034763	-0.8451918	0.02537192	0.004197288	-0.004577888	-0.002002698	0.01694086	0.0104827
	0.01751632	0.009445309	-0.004577888	-0.002002698	0.02694088	0.001841841	0.4998389	-0.8472617
	-0.004579445	-0.002006153	0.01694086	0.0104827	0.4998389	-0.8472617	0.02546725	0.004278136
4.7e+08	0.02689556	0.001469487	0.4844242	-0.8560423	0.01785149	0.009107539	-0.004704946	-0.001947743
	0.4844242	-0.8560423	0.02557302	0.003738243	-0.004703193	-0.001944257	0.01727875	0.01019629
	0.01785149	0.009107539	-0.004703193	-0.001944257	0.02713747	0.001259135	0.4806634	-0.8580736
	-0.004704946	-0.001947743	0.01727875	0.01019629	0.4806634	-0.8580736	0.02566633	0.003819097
4.8e+08	0.02706842	0.0008891294	0.4651416	-0.8664644	0.01816562	0.008752048	-0.004829657	-0.001885313
	0.4651416	-0.8664644	0.02575121	0.003269442	-0.004827702	-0.001881808	0.01759747	0.009892792
	0.01816562	0.008752048	-0.004827702	-0.001881808	0.02730647	0.0006651973	0.4612573	-0.8684525
	-0.004829657	-0.001885313	0.01759747	0.009892792	0.4612573	-0.8684525	0.02584232	0.003350435
4.9e+08	0.0272139	0.0002987543	0.4456378	-0.8764532	0.01845779	0.008379887	-0.004953503	-0.0018189
	0.4456378	-0.8764532	0.0259061	0.002791906	-0.004951344	-0.001815389	0.01789616	0.009573168
	0.01845779	0.008379887	-0.004951344	-0.001815389	0.02744738	6.12739e-05	0.4416303	-0.8783936
	-0.004953503	-0.0018189	0.01789616	0.009573168	0.4416303	-0.8783936	0.02599484	0.002873181
5e+08	0.02733153	-0.000300411	0.4259225	-0.8860042	0.01872715	0.007992153	-0.005076417	-0.001748538
	0.4259225	-0.8860042	0.02603733	0.002306665	-0.005074051	-0.001745034	0.018174	0.009238423
	0.01872715	0.007992153	-0.005074051	-0.001745034	0.02755973	-0.000551371	0.4217919	-0.8878924
	-0.005076417	-0.001748538	0.018174	0.009238423	0.4217919	-0.8878924	0.02612352	0.002388377
5.1e+08	0.02742089	-0.0009071144	0.4060055	-0.8951128	0.01897287	0.007589984	-0.005198331	-0.001674262
	0.4060055	-0.8951128	0.02614456	0.001814769	-0.005195756	-0.001670778	0.01843023	0.008889603
	0.01897287	0.007589984	-0.005195756	-0.001670778	0.02764309	-0.001171446	0.4017522	-0.8969443
