!$
! Info: Touchstone file created by Circ.  Input file=Tx_2in_Rx_93ohms_TxVia_60mils_RxVia_70mils.circ
!$
# Hz S RI R 50
0	0.001990565	5.18195e-26	1.67955e-09	6.646517e-28	3.184987e-05	3.797611e-24	-1.382348e-10	6.350562e-26
	1.679565e-09	6.64655e-28	0.001986313	5.824879e-26	4.563898e-09	2.26918e-27	3.096643e-05	4.712347e-24
	3.098125e-05	3.780692e-24	4.563899e-09	2.269183e-27	0.002004533	5.243524e-26	3.769902e-09	7.035204e-28
	-1.379414e-10	6.346969e-26	3.123644e-05	4.732556e-24	3.769819e-09	7.034998e-28	0.002000943	5.795663e-26
1e+07	0.002859438	0.0002733542	2.065117e-09	3.894624e-09	6.178484e-05	0.0006184422	-4.587237e-09	1.131016e-08
	2.065117e-09	3.894624e-09	0.002914512	0.000273366	6.568566e-09	1.355811e-08	6.098785e-05	0.000616112
	6.176935e-05	0.0006184558	6.568566e-09	1.355811e-08	0.002931323	0.0002803065	-2.772789e-09	1.215297e-08
	-4.587237e-09	1.131016e-08	6.098988e-05	0.0006161095	-2.772789e-09	1.215297e-08	0.002873464	0.0002746849
2e+07	0.003510173	-0.0001085553	2.680327e-09	7.162538e-09	9.610854e-05	0.001237487	1.489706e-09	4.222372e-09
	2.680327e-09	7.162538e-09	0.003548218	-0.0001299476	8.757088e-09	2.419984e-08	9.387189e-05	0.001233236
	9.611536e-05	0.001237496	8.757088e-09	2.419984e-08	0.003572201	-0.0001172848	-2.124649e-10	6.065569e-09
	1.489706e-09	4.222372e-09	9.386837e-05	0.001233236	-2.124649e-10	6.065569e-09	0.003519033	-0.0001075885
3e+07	0.003968825	-0.0007500895	3.245913e-09	1.011799e-08	0.0001767656	0.001835817	2.245938e-09	6.669079e-09
	3.245913e-09	1.011799e-08	0.003988908	-0.0007785276	1.024835e-08	3.438398e-08	0.0001684023	0.00183055
	0.0001767666	0.001835817	1.024835e-08	3.438398e-08	0.00402381	-0.0007613015	3.141765e-09	1.005605e-08
	2.245938e-09	6.669079e-09	0.000168402	0.001830552	3.141765e-09	1.005605e-08	0.003968895	-0.0007482914
4e+07	0.004311363	-0.00149403	3.791011e-09	1.306103e-08	0.0002934047	0.002423131	2.74073e-09	8.643457e-09
	3.791011e-09	1.306103e-08	0.004310958	-0.001525903	1.16104e-08	4.440078e-08	0.0002793145	0.002417282
	0.0002934034	0.002423132	1.16104e-08	4.440078e-08	0.004360927	-0.001504822	3.77613e-09	1.320954e-08
	2.74073e-09	8.643457e-09	0.0002793152	0.002417283	3.77613e-09	1.320954e-08	0.004298914	-0.001491387
5e+07	0.004565101	-0.002300095	4.346028e-09	1.596314e-08	0.0004352323	0.003000626	3.223919e-09	1.054281e-08
	4.346028e-09	1.596314e-08	0.004541161	-0.002332393	1.285975e-08	5.42682e-08	0.0004141001	0.002994756
	0.0004352309	0.003000626	1.285975e-08	5.42682e-08	0.004610444	-0.002309121	4.249221e-09	1.607933e-08
	3.223919e-09	1.054281e-08	0.000414101	0.002994757	4.249221e-09	1.607933e-08	0.004535965	-0.00229558
6e+07	0.004743761	-0.003148265	4.91801e-09	1.88122e-08	0.0006020993	0.003567874	3.734194e-09	1.239691e-08
	4.91801e-09	1.88122e-08	0.004693555	-0.003178234	1.402259e-08	6.401205e-08	0.0005726388	0.003562614
	0.0006020969	0.003567874	1.402259e-08	6.401205e-08	0.004785798	-0.003154768	4.711189e-09	1.887324e-08
	3.734194e-09	1.239691e-08	0.0005726401	0.003562614	4.711189e-09	1.887324e-08	0.004694359	-0.003140468
7e+07	0.004855243	-0.00402635	5.50596e-09	2.160458e-08	0.0007936855	0.004124102	4.279051e-09	1.420725e-08
	5.50596e-09	2.160458e-08	0.004776084	-0.004051562	1.511537e-08	7.365743e-08	0.0007546463	0.004120156
	0.0007936817	0.004124101	1.511537e-08	7.365743e-08	0.004894706	-0.004029808	5.185192e-09	2.163755e-08
	4.279051e-09	1.420725e-08	0.000754648	0.004120156	5.185192e-09	2.163755e-08	0.004782149	-0.004014025
8e+07	0.004904463	-0.004925595	6.106971e-09	2.434028e-08	0.001009571	0.004668345	4.857991e-09	1.597229e-08
	6.106971e-09	2.434028e-08	0.004793467	-0.004943617	1.614863e-08	8.322349e-08	0.0009597444	0.004666503
	0.001009567	0.004668345	1.614863e-08	8.322349e-08	0.004941975	-0.004925549	5.681595e-09	2.439019e-08
	4.857991e-09	1.597229e-08	0.0009597463	0.004666503	5.681595e-09	2.439019e-08	0.004803981	-0.004907456
9e+07	0.004894886	-0.005838497	6.717609e-09	2.70209e-08	0.00124924	0.005199514	5.465734e-09	1.768766e-08
	6.717609e-09	2.70209e-08	0.004749018	-0.005846481	1.712776e-08	9.272195e-08	0.001187464	0.005200662
	0.001249237	0.005199515	1.712776e-08	9.272195e-08	0.004931036	-0.005834384	6.210907e-09	2.714168e-08
	5.465734e-09	1.768766e-08	0.001187465	0.005200661	6.210908e-09	2.714168e-08	0.004763027	-0.005812864
1e+08	0.004830366	-0.006754163	7.328532e-09	2.964089e-08	0.001512069	0.005716306	6.079953e-09	1.933455e-08
	7.328532e-09	2.964089e-08	0.00464683	-0.006747884	1.804695e-08	1.02143e-07	0.001437257	0.005721516
	0.001512069	0.005716306	1.804695e-08	1.02143e-07	0.004865951	-0.006744492	6.785575e-09	2.98998e-08
	6.079953e-09	1.933455e-08	0.001437257	0.005721516	6.785575e-09	2.98998e-08	0.004663074	-0.006718709
1.1e+08	0.004731775	-0.007683033	7.964176e-09	3.22499e-08	0.001796504	0.006218164	6.712985e-09	2.096146e-08
	7.964176e-09	3.22499e-08	0.004512165	-0.007661042	1.892935e-08	1.115459e-07	0.001708011	0.006228294
	0.001796504	0.006218164	1.892935e-08	1.115459e-07	0.004770765	-0.007669073	7.308839e-09	3.25695e-08
	6.712985e-09	2.096146e-08	0.001708009	0.006228294	7.308839e-09	3.25695e-08	0.004526628	-0.007635586
1.2e+08	0.004576574	-0.008625605	8.615562e-09	3.482e-08	0.002102632	0.006704299	7.375159e-09	2.254039e-08
	8.615562e-09	3.482e-08	0.004317696	-0.008586798	1.978023e-08	1.209189e-07	0.001999369	0.006720186
	0.002102632	0.006704299	1.978023e-08	1.209189e-07	0.004618641	-0.008609342	7.839966e-09	3.520922e-08
	7.375159e-09	2.254039e-08	0.001999367	0.006720187	7.839966e-09	3.520922e-08	0.004330147	-0.008563613
1.3e+08	0.004367261	-0.009572277	9.28042e-09	3.73523e-08	0.002429642	0.007173484	8.059712e-09	2.407367e-08
	9.28042e-09	3.73523e-08	0.004066342	-0.009514329	2.060156e-08	1.302697e-07	0.00231061	0.007196163
	0.002429642	0.007173484	2.060156e-08	1.302697e-07	0.004412235	-0.00955461	8.377198e-09	3.782082e-08
	8.059712e-09	2.407367e-08	0.002310608	0.007196164	8.377198e-09	3.782082e-08	0.004076377	-0.009492903
1.4e+08	0.00410534	-0.01051852	9.958862e-09	3.984684e-08	0.002776665	0.007624679	8.764625e-09	2.55608e-08
	9.958862e-09	3.984684e-08	0.003759832	-0.01043872	2.139663e-08	1.396047e-07	0.002640938	0.007655281
	0.002776665	0.007624679	2.139663e-08	1.396047e-07	0.004153056	-0.0105001	8.921303e-09	4.040487e-08
	8.764625e-09	2.55608e-08	0.002640937	0.007655282	8.921303e-09	4.040487e-08	0.003767017	-0.01041871
1.5e+08	0.003792107	-0.01146074	1.065331e-08	4.230219e-08	0.003142778	0.008056899	9.489688e-09	2.699971e-08
	1.065331e-08	4.230219e-08	0.003399654	-0.01135612	2.216872e-08	1.489295e-07	0.002989504	0.008096636
	0.003142778	0.008056899	2.216872e-08	1.489295e-07	0.003842392	-0.0114421	9.475338e-09	4.296047e-08
	9.489688e-09	2.699971e-08	0.002989504	0.008096636	9.475338e-09	4.296047e-08	0.003403547	-0.01133723
1.6e+08	0.003428776	-0.01239584	1.135723e-08	4.472088e-08	0.003527003	0.008469207	1.022887e-08	2.839251e-08
	1.135723e-08	4.472088e-08	0.002987211	-0.01226318	2.2921e-08	1.582488e-07	0.003355406	0.008519359
	0.003527003	0.008469207	2.2921e-08	1.582488e-07	0.003481442	-0.01237742	1.003348e-08	4.549059e-08
	1.022887e-08	2.839251e-08	0.003355406	0.008519359	1.003348e-08	4.549059e-08	0.002987372	-0.01224514
1.7e+08	0.003016518	-0.01332099	1.20693e-08	4.710306e-08	0.003928314	0.008860712	1.09797e-08	2.973891e-08
	1.20693e-08	4.710306e-08	0.002523872	-0.01315692	2.365638e-08	1.675668e-07	0.003737695	0.008922624
	0.003928314	0.008860712	2.365638e-08	1.675668e-07	0.003071368	-0.01330319	1.059509e-08	4.799582e-08
	1.09797e-08	2.973891e-08	0.003737695	0.008922624	1.059509e-08	4.799582e-08	0.002519867	-0.01313944
1.8e+08	0.002556493	-0.01423362	1.278807e-08	4.944887e-08	0.004345632	0.009230575	1.173964e-08	3.103865e-08
	1.278807e-08	4.944887e-08	0.002011002	-0.01403455	2.437763e-08	1.768872e-07	0.004135376	0.009305649
	0.004345632	0.009230575	2.437763e-08	1.768872e-07	0.002613314	-0.01421678	1.115943e-08	5.047668e-08
	1.173964e-08	3.103865e-08	0.004135376	0.009305649	1.115943e-08	5.047668e-08	0.00200241	-0.01401735
1.9e+08	0.002049857	-0.0151313	1.351197e-08	5.175843e-08	0.004777838	0.009578009	1.25061e-08	3.229158e-08
	1.351197e-08	5.175843e-08	0.001449976	-0.01489351	2.508733e-08	1.862135e-07	0.004547412	0.009667699
	0.004777838	0.009578009	2.508733e-08	1.862135e-07	0.002108429	-0.01511573	1.172567e-08	5.293367e-08
	1.25061e-08	3.229158e-08	0.004547412	0.009667699	1.172567e-08	5.293367e-08	0.001436388	-0.01487627
2e+08	0.001497783	-0.01601177	1.423936e-08	5.403191e-08	0.005223768	0.009902283	1.327638e-08	3.349766e-08
	1.423936e-08	5.403191e-08	0.0008421924	-0.01573137	2.578796e-08	1.955486e-07	0.004972729	0.01000809
	0.005223768	0.009902283	2.578796e-08	1.955486e-07	0.001557872	-0.01599776	1.229289e-08	5.536728e-08
	1.327638e-08	3.349766e-08	0.004972729	0.01000809	1.229289e-08	5.536728e-08	0.000823216	-0.01571378
2.1e+08	0.0009014621	-0.01687288	1.496847e-08	5.626953e-08	0.00568222	0.01020272	1.404777e-08	3.465696e-08
	1.496847e-08	5.626953e-08	0.0001890759	-0.01654587	2.648187e-08	2.048953e-07	0.005410215	0.0103262
	0.005682221	0.01020272	2.648187e-08	2.048953e-07	0.0009628206	-0.01686068	1.286011e-08	5.777801e-08
	1.404777e-08	3.465696e-08	0.005410215	0.0103262	1.286011e-08	5.777801e-08	0.0001643362	-0.01652758
2.2e+08	0.0002621056	-0.01771258	1.569749e-08	5.847155e-08	0.006151961	0.01047872	1.481751e-08	3.576971e-08
	1.569749e-08	5.847155e-08	-0.0005079182	-0.01733486	2.717136e-08	2.142563e-07	0.005858729	0.01062144
	0.006151961	0.01047872	2.717136e-08	2.142563e-07	0.000324478	-0.01770244	1.342632e-08	6.016639e-08
	1.481751e-08	3.576971e-08	0.005858729	0.01062144	1.342632e-08	6.016639e-08	-0.000538775	-0.01731549
2.3e+08	-0.0004190405	-0.01852894	1.642455e-08	6.063833e-08	0.00663172	0.01072972	1.558281e-08	3.683626e-08
	1.642455e-08	6.063833e-08	-0.001247295	-0.01809629	2.785868e-08	2.236338e-07	0.006317097	0.01089329
	0.00663172	0.01072972	2.785868e-08	2.236338e-07	-0.0003559212	-0.01852107	1.399044e-08	6.253298e-08
	1.558281e-08	3.683626e-08	0.006317097	0.01089329	1.399044e-08	6.253298e-08	-0.001284604	-0.01807547
2.4e+08	-0.001140702	-0.01932009	1.714772e-08	6.277031e-08	0.007120204	0.01095523	1.634087e-08	3.785715e-08
	1.714772e-08	6.277031e-08	-0.002027529	-0.01882823	2.854604e-08	2.330303e-07	0.006784122	0.01114131
	0.007120204	0.01095523	2.854604e-08	2.330303e-07	-0.001077116	-0.01931469	1.455137e-08	6.487837e-08
	1.634087e-08	3.785715e-08	0.006784122	0.01114131	1.455137e-08	6.487837e-08	-0.002071603	-0.01880555
2.5e+08	-0.00190157	-0.02008426	1.786506e-08	6.486805e-08	0.007616091	0.01115484	1.708891e-08	3.883304e-08
	1.786506e-08	6.486805e-08	-0.00284705	-0.01952885	2.923566e-08	2.424477e-07	0.007258581	0.01136508
	0.007616091	0.01115484	2.923566e-08	2.424477e-07	-0.001837807	-0.02008152	1.5108e-08	6.720324e-08
	1.708891e-08	3.883304e-08	0.007258581	0.01136508	1.5108e-08	6.720324e-08	-0.00289818	-0.01950389
2.6e+08	-0.002700297	-0.02081977	1.856094e-08	6.692685e-08	0.00811804	0.0113282	1.782416e-08	3.976503e-08
	1.856094e-08	6.692685e-08	-0.003704255	-0.02019639	2.992101e-08	2.518822e-07	0.007739235	0.01156427
	0.00811804	0.0113282	2.992101e-08	2.518822e-07	-0.002636661	-0.02081985	1.564543e-08	6.950295e-08
	1.782416e-08	3.976503e-08	0.007739235	0.01156427	1.564543e-08	6.950295e-08	-0.003762705	-0.02016872
2.7e+08	-0.003535499	-0.02152498	1.924344e-08	6.895287e-08	0.008624693	0.01147501	1.85439e-08	4.065394e-08
	1.924344e-08	6.895287e-08	-0.004597492	-0.02082922	3.061072e-08	2.613408e-07	0.008224824	0.01173861
	0.008624693	0.01147501	3.061072e-08	2.613408e-07	-0.003472305	-0.02152802	1.617267e-08	7.17837e-08
	1.85439e-08	4.065394e-08	0.008224824	0.01173861	1.617267e-08	7.17837e-08	-0.004663505	-0.02079837
2.8e+08	-0.004405757	-0.02219835	1.991282e-08	7.094807e-08	0.009134677	0.01159506	1.924544e-08	4.15009e-08
	1.991282e-08	7.094807e-08	-0.005525076	-0.02142575	3.13084e-08	2.708264e-07	0.008714079	0.01188788
	0.009134677	0.01159506	3.13084e-08	2.708264e-07	-0.004343331	-0.02220449	1.669086e-08	7.404744e-08
	1.924544e-08	4.15009e-08	0.008714079	0.01188788	1.669086e-08	7.404744e-08	-0.00559887	-0.02139127
2.9e+08	-0.005309617	-0.02283841	2.056713e-08	7.291359e-08	0.009646607	0.0116882	1.992614e-08	4.230721e-08
	2.056713e-08	7.291359e-08	-0.006485282	-0.02198451	3.201632e-08	2.803407e-07	0.009205717	0.01201192
	0.009646607	0.0116882	3.201632e-08	2.803407e-07	-0.005248289	-0.02284775	1.719891e-08	7.629523e-08
	1.992614e-08	4.230721e-08	0.009205717	0.01201192	1.719891e-08	7.629523e-08	-0.00656705	-0.02194591
3e+08	-0.006245579	-0.02344374	2.12045e-08	7.485068e-08	0.01015909	0.01175436	2.058341e-08	4.307434e-08
	2.12045e-08	7.485068e-08	-0.007476345	-0.02250412	3.273677e-08	2.898851e-07	0.009698453	0.01211066
	0.01015909	0.01175436	3.273677e-08	2.898851e-07	-0.006185694	-0.02345639	1.769579e-08	7.85282e-08
	2.058341e-08	4.307434e-08	0.009698453	0.01211066	1.769579e-08	7.85282e-08	-0.007566256	-0.02246091
3.1e+08	-0.007212117	-0.02401303	2.182304e-08	7.676071e-08	0.01067074	0.01179352	2.121477e-08	4.380393e-08
	2.182304e-08	7.676071e-08	-0.008496466	-0.02298325	3.347209e-08	2.994613e-07	0.01019099	0.01218408
	0.01067074	0.01179352	3.347209e-08	2.994613e-07	-0.007154027	-0.02402903	1.818047e-08	8.074755e-08
	2.121477e-08	4.380393e-08	0.01019099	0.01218408	1.818047e-08	8.074755e-08	-0.008594663	-0.02293493
3.2e+08	-0.008207661	-0.02454499	2.242094e-08	7.864516e-08	0.01118016	0.01180575	2.181777e-08	4.449773e-08
	2.242094e-08	7.864516e-08	-0.009543812	-0.02342069	3.422461e-08	3.090704e-07	0.01068205	0.01223221
	0.01118016	0.01180575	3.422461e-08	3.090704e-07	-0.00815173	-0.02456442	1.865198e-08	8.295455e-08
	2.181777e-08	4.449773e-08	0.01068205	0.01223221	1.865198e-08	8.295455e-08	-0.009650411	-0.02336675
3.3e+08	-0.009230612	-0.02503844	2.299643e-08	8.050564e-08	0.01168596	0.01179118	2.23901e-08	4.515767e-08
	2.299643e-08	8.050564e-08	-0.01061651	-0.02381529	3.499672e-08	3.187139e-07	0.01117033	0.01225517
	0.01168596	0.01179118	3.499672e-08	3.187139e-07	-0.009177207	-0.02506131	1.910938e-08	8.515054e-08
	2.23901e-08	4.515767e-08	0.01117033	0.01225517	1.910938e-08	8.515054e-08	-0.0107316	-0.0237552
3.4e+08	-0.01027933	-0.02549224	2.354778e-08	8.234385e-08	0.01218675	0.01175001	2.292953e-08	4.578579e-08
	2.354778e-08	8.234385e-08	-0.01171267	-0.02416599	3.579086e-08	3.283927e-07	0.01165455	0.01225313
	0.01218675	0.01175001	3.579086e-08	3.283927e-07	-0.01022883	-0.02551857	1.955178e-08	8.733694e-08
	2.292953e-08	4.578579e-08	0.01165455	0.01225313	1.955178e-08	8.733694e-08	-0.01183631	-0.02409924
3.5e+08	-0.01135216	-0.02590533	2.407335e-08	8.416165e-08	0.01268116	0.01168252	2.343393e-08	4.638428e-08
	2.407335e-08	8.416165e-08	-0.01283036	-0.02447184	3.660948e-08	3.381079e-07	0.01213345	0.01222633
	0.01268116	0.01168252	3.660948e-08	3.381079e-07	-0.01130494	-0.02593512	1.997834e-08	8.951523e-08
	2.343393e-08	4.638428e-08	0.01213345	0.01222633	1.997834e-08	8.951523e-08	-0.01296259	-0.02439787
3.6e+08	-0.01244739	-0.02627673	2.457157e-08	8.596098e-08	0.01316785	0.01158904	2.390131e-08	4.695543e-08
	2.457157e-08	8.596098e-08	-0.01396762	-0.02473192	3.745506e-08	3.478604e-07	0.01260576	0.01217507
	0.01316785	0.01158904	3.745506e-08	3.478604e-07	-0.01240385	-0.02630994	2.038828e-08	9.168695e-08
	2.390131e-08	4.695543e-08	0.01260576	0.01217507	2.038828e-08	9.168695e-08	-0.01410845	-0.02465021
3.7e+08	-0.01356331	-0.02660552	2.504095e-08	8.77439e-08	0.01364546	0.01147	2.432978e-08	4.750169e-08
	2.504095e-08	8.77439e-08	-0.01512248	-0.02494545	3.833012e-08	3.57651e-07	0.01307023	0.01209971
	0.01364546	0.01147	3.833012e-08	3.57651e-07	-0.01352383	-0.0266421	2.07809e-08	9.385373e-08
	2.432978e-08	4.750169e-08	0.01307023	0.01209971	2.07809e-08	9.385373e-08	-0.01527188	-0.02485545
3.8e+08	-0.01469815	-0.02689084	2.548011e-08	8.951259e-08	0.01411267	0.01132586	2.47176e-08	4.802559e-08
	2.548011e-08	8.951259e-08	-0.01629294	-0.0251117	3.923723e-08	3.674803e-07	0.01352565	0.01200067
	0.01411267	0.01132586	3.923723e-08	3.674803e-07	-0.01466313	-0.02693071	2.115554e-08	9.601726e-08
	2.47176e-08	4.802559e-08	0.01352565	0.01200067	2.115554e-08	9.601726e-08	-0.01645087	-0.02501286
3.9e+08	-0.01585015	-0.02713193	2.588773e-08	9.126933e-08	0.0145682	0.01115717	2.506315e-08	4.852976e-08
	2.588773e-08	9.126933e-08	-0.01747697	-0.02523003	4.017895e-08	3.77349e-07	0.01397081	0.01187845
	0.0145682	0.01115717	4.017895e-08	3.77349e-07	-0.01581998	-0.02717499	2.151166e-08	9.817928e-08
	2.506315e-08	4.852976e-08	0.01397081	0.01187845	2.151166e-08	9.817928e-08	-0.01764335	-0.02512181
4e+08	-0.01701749	-0.02732807	2.626264e-08	9.30165e-08	0.01501078	0.01096453	2.536497e-08	4.901696e-08
	2.626264e-08	9.30165e-08	-0.01867255	-0.02529991	4.115791e-08	3.872574e-07	0.01440453	0.01173358
	0.01501078	0.01096453	4.115791e-08	3.872574e-07	-0.01699259	-0.0273742	2.184876e-08	1.003416e-07
	2.536497e-08	4.901696e-08	0.01440453	0.01173358	2.184876e-08	1.003416e-07	-0.01884727	-0.02518176
4.1e+08	-0.01819837	-0.02747862	2.660377e-08	9.475658e-08	0.01543917	0.01074863	2.562174e-08	4.949001e-08
	2.660377e-08	9.475658e-08	-0.01987762	-0.02532085	4.217674e-08	3.97206e-07	0.01482567	0.01156668
	0.01543917	0.01074863	4.217674e-08	3.97206e-07	-0.01817911	-0.02752768	2.216646e-08	1.025061e-07
	2.562174e-08	4.949001e-08	0.01482567	0.01156668	2.216646e-08	1.025061e-07	-0.02006055	-0.02519222
4.2e+08	-0.01939092	-0.02758303	2.691016e-08	9.649215e-08	0.01585218	0.01051019	2.583228e-08	4.995183e-08
	2.691016e-08	9.649215e-08	-0.02109011	-0.02529248	4.32381e-08	4.071948e-07	0.01523311	0.01137841
	0.01585218	0.01051019	4.32381e-08	4.071948e-07	-0.01937772	-0.02763485	2.246445e-08	1.046747e-07
	2.583228e-08	4.995183e-08	0.01523311	0.01137841	2.246445e-08	1.046747e-07	-0.02128109	-0.02515283
4.3e+08	-0.02059331	-0.02764081	2.7181e-08	9.822588e-08	0.01624863	0.01025001	2.599558e-08	5.04054e-08
	2.7181e-08	9.822588e-08	-0.02230798	-0.0252145	4.434466e-08	4.172241e-07	0.01562575	0.01116948
	0.01624863	0.01025001	4.434466e-08	4.172241e-07	-0.02058655	-0.02769518	2.274253e-08	1.068494e-07
	2.599558e-08	5.04054e-08	0.01562575	0.01116948	2.274253e-08	1.068494e-07	-0.02250682	-0.0250633
4.4e+08	-0.02180365	-0.02765153	2.741561e-08	9.996052e-08	0.0166274	0.009968934	2.611078e-08	5.085378e-08
	2.741561e-08	9.996052e-08	-0.02352913	-0.02508671	4.549912e-08	4.272937e-07	0.01600256	0.01094066
	0.0166274	0.009968934	4.549912e-08	4.272937e-07	-0.02180372	-0.02770825	2.30006e-08	1.090321e-07
	2.611078e-08	5.085378e-08	0.01600256	0.01094066	2.30006e-08	1.090321e-07	-0.02373561	-0.02492342
4.5e+08	-0.02302005	-0.02761486	2.761345e-08	1.016989e-07	0.01698742	0.009667881	2.617721e-08	5.130008e-08
	2.761345e-08	1.016989e-07	-0.0247515	-0.02490898	4.67042e-08	4.374036e-07	0.01636253	0.01069278
	0.01698742	0.009667881	4.67042e-08	4.374036e-07	-0.02302735	-0.02767368	2.323869e-08	1.112251e-07
	2.617721e-08	5.130008e-08	0.01636253	0.01069278	2.323869e-08	1.112251e-07	-0.02496537	-0.02473307
4.6e+08	-0.02424064	-0.02753052	2.777414e-08	1.034439e-07	0.01732765	0.009347811	2.61943e-08	5.174743e-08
	2.777414e-08	1.034439e-07	-0.025973	-0.02468126	4.796262e-08	4.475535e-07	0.01670468	0.01042671
	0.01732765	0.009347811	4.796262e-08	4.475535e-07	-0.02425553	-0.02759117	2.345689e-08	1.134303e-07
	2.61943e-08	5.174743e-08	0.01670468	0.01042671	2.345689e-08	1.134303e-07	-0.026194	-0.02449223
4.7e+08	-0.0254635	-0.02739831	2.789745e-08	1.051985e-07	0.01764709	0.009009738	2.616173e-08	5.219903e-08
	2.789745e-08	1.051985e-07	-0.02719157	-0.0244036	4.927709e-08	4.577428e-07	0.01702809	0.01014336
	0.01764709	0.009009738	4.927709e-08	4.577428e-07	-0.02548635	-0.02746051	2.365547e-08	1.1565e-07
	2.616173e-08	5.219903e-08	0.01702809	0.01014336	2.365547e-08	1.1565e-07	-0.0274194	-0.02420093
4.8e+08	-0.02668672	-0.02721812	2.798333e-08	1.069658e-07	0.01794483	0.008654726	2.60793e-08	5.265814e-08
	2.798333e-08	1.069658e-07	-0.02840515	-0.02407613	5.065037e-08	4.679713e-07	0.01733189	0.009843715
	0.01794483	0.008654726	5.065037e-08	4.679713e-07	-0.0267179	-0.02728155	2.383481e-08	1.178862e-07
