!$
! Info: Touchstone file created by Circ.  Input file=Tx_2in_Rx_100ohms_TxVia_60mils_RxVia_70mils.circ
!$
# Hz S RI R 50
0	0.00223387	5.233827e-26	-1.101372e-05	7.624139e-24	3.076957e-05	4.310644e-24	-1.105079e-05	1.219375e-23
	-1.101372e-05	7.624e-24	0.002229204	5.827351e-26	-1.09767e-05	3.115184e-24	3.097381e-05	5.307954e-24
	3.17529e-05	4.386211e-24	-1.09767e-05	3.114941e-24	0.002248156	5.020578e-26	-1.100923e-05	7.127788e-24
	-1.105079e-05	1.21935e-23	3.124381e-05	5.330717e-24	-1.100923e-05	7.127911e-24	0.002243827	5.798133e-26
1e+07	0.0029681	0.001852358	-1.706222e-05	-8.926321e-06	5.524225e-05	0.0006076605	-4.87467e-05	2.278942e-05
	-1.706222e-05	-8.926321e-06	0.003178782	0.001815658	-6.189714e-06	-3.170488e-06	0.0001262606	0.0006234938
	5.525162e-05	0.0006076283	-6.189714e-06	-3.170488e-06	0.003102046	0.001808132	-1.788827e-06	-3.071657e-06
	-4.87467e-05	2.278942e-05	0.0001262627	0.0006234913	-1.788827e-06	-3.071658e-06	0.003162521	0.001823956
2e+07	0.003840598	0.003078722	-8.035341e-06	-1.761173e-05	0.0001017417	0.001216668	-5.792876e-05	1.590274e-05
	-8.035341e-06	-1.761173e-05	0.00396793	0.002938302	-4.735103e-06	-3.697633e-06	0.0001399432	0.001271226
	0.0001017153	0.001216667	-4.735103e-06	-3.697633e-06	0.003907021	0.002960413	-1.982181e-06	-3.855036e-07
	-5.792876e-05	1.590274e-05	0.0001399396	0.001271227	-1.982181e-06	-3.855034e-07	0.00396004	0.002965109
3e+07	0.004562907	0.00395173	-2.307639e-06	-2.033766e-05	0.0001762231	0.001813486	-6.520257e-05	1.208173e-05
	-2.307639e-06	-2.033766e-05	0.004621989	0.003779356	-3.659235e-06	-4.039996e-06	0.000187861	0.001880428
	0.0001762207	0.00181349	-3.659235e-06	-4.039996e-06	0.004577933	0.003812755	-2.279849e-06	-1.033463e-06
	-6.520257e-05	1.208173e-05	0.0001878607	0.00188043	-2.279849e-06	-1.033463e-06	0.004621274	0.003816974
4e+07	0.005222124	0.004686938	-9.259034e-06	-2.025676e-05	0.0002783057	0.002402696	-7.169977e-05	8.091497e-06
	-9.259034e-06	-2.025676e-05	0.005219471	0.004501885	-2.771484e-06	-4.223405e-06	0.0002717232	0.00247531
	0.0002783052	0.002402692	-2.771484e-06	-4.223405e-06	0.005194803	0.00454237	-2.651226e-06	-1.956424e-06
	-7.169977e-05	8.091497e-06	0.0002717239	0.002475311	-2.651226e-06	-1.956424e-06	0.005225747	0.004547898
5e+07	0.005849159	0.005332325	-1.534814e-05	-1.885743e-05	0.0004074563	0.002983938	-7.784752e-05	3.772746e-06
	-1.534814e-05	-1.885743e-05	0.005788172	0.005146444	-1.997335e-06	-4.30345e-06	0.0004204138	0.003054522
	0.0004074538	0.002983936	-1.997335e-06	-4.30345e-06	0.005785889	0.005190888	-3.078175e-06	-2.772626e-06
	-7.784752e-05	3.772746e-06	0.0004204147	0.003054522	-3.078175e-06	-2.772627e-06	0.005801167	0.005199417
6e+07	0.006458972	0.005909345	-2.075671e-05	-1.645282e-05	0.0005630813	0.003556393	-8.387711e-05	-9.001859e-07
	-2.075671e-05	-1.645282e-05	0.006342228	0.005731799	-1.29599e-06	-4.301834e-06	0.0005914752	0.003621799
	0.000563083	0.003556396	-1.29599e-06	-4.301834e-06	0.006364925	0.005777331	-3.564123e-06	-3.523563e-06
	-8.387711e-05	-9.001859e-07	0.0005914765	0.003621799	-3.564123e-06	-3.523562e-06	0.006361857	0.005790692
7e+07	0.007059669	0.006429474	-2.557093e-05	-1.317051e-05	0.0007480294	0.00411856	-8.994605e-05	-5.980039e-06
	-2.557093e-05	-1.317051e-05	0.006889215	0.006267976	-1.045098e-06	-4.157839e-06	0.0007848111	0.004176847
	0.0007480381	0.004118565	-1.045098e-06	-4.157839e-06	0.006939368	0.006312096	-4.110012e-06	-4.223607e-06
	-8.994605e-05	-5.980039e-06	0.0007848129	0.004176847	-4.110012e-06	-4.223607e-06	0.006915447	0.006331784
8e+07	0.00765576	0.006899583	-2.981976e-05	-9.019059e-06	0.0009589211	0.004669794	-9.619269e-05	-1.160443e-05
	-2.981976e-05	-9.019059e-06	0.007433191	0.006761531	-1.77572e-06	-3.731156e-06	0.001000116	0.004718908
	0.000958934	0.004669797	-1.77572e-06	-3.731156e-06	0.007513424	0.006801832	-4.716876e-06	-4.879696e-06
	-9.619269e-05	-1.160443e-05	0.001000118	0.004718907	-4.716875e-06	-4.879696e-06	0.007465892	0.006829232
9e+07	0.008249705	0.007323924	-3.347218e-05	-3.846091e-06	0.00119438	0.005209394	-0.000102794	-1.813286e-05
	-3.347218e-05	-3.846091e-06	0.007976577	0.007217908	-2.41199e-06	-3.155323e-06	0.001236872	0.005246773
	0.00119439	0.005209394	-2.41199e-06	-3.155324e-06	0.008089644	0.007251711	-5.38881e-06	-5.504249e-06
	-0.000102794	-1.813286e-05	0.001236874	0.005246772	-5.388809e-06	-5.504248e-06	0.008015462	0.007288461
1e+08	0.008842232	0.007703218	-3.621303e-05	3.465912e-06	0.001454208	0.005737691	-0.0001102925	-2.752294e-05
	-3.621303e-05	3.465912e-06	0.008522201	0.007645898	-2.903248e-06	-2.270838e-06	0.001493933	0.00575728
	0.001454208	0.00573769	-2.903248e-06	-2.270838e-06	0.008670726	0.007669623	-6.144695e-06	-6.145004e-06
	-0.0001102925	-2.752294e-05	0.001493933	0.00575728	-6.144695e-06	-6.145004e-06	0.008566742	0.007717841
1.1e+08	0.009425769	0.008047665	-3.450713e-05	8.594209e-06	0.0017424	0.006249619	-0.0001108649	-3.816883e-05
	-3.450713e-05	8.594209e-06	0.009090254	0.008032946	-2.713381e-06	-1.566959e-06	0.001763006	0.006255931
	0.0017424	0.006249619	-2.713381e-06	-1.566959e-06	0.009273821	0.008044576	-6.772611e-06	-6.788641e-06
	-0.0001108649	-3.816883e-05	0.001763004	0.006255932	-6.772611e-06	-6.788641e-06	0.009138349	0.008106431
1.2e+08	0.01001253	0.008360916	-3.487252e-05	5.90266e-06	0.002051867	0.006743054	-0.0001111937	-4.532068e-05
	-3.487252e-05	5.90266e-06	0.009657049	0.008376932	-2.60242e-06	-1.137407e-06	0.002053395	0.006743519
	0.002051867	0.006743054	-2.60242e-06	-1.137407e-06	0.009878149	0.008374674	-7.425249e-06	-7.288412e-06
	-0.0001111937	-4.532068e-05	0.002053393	0.006743519	-7.425249e-06	-7.288412e-06	0.009708819	0.008452506
1.3e+08	0.01060206	0.008641242	-3.521774e-05	3.942167e-06	0.002382123	0.007218614	-0.0001116835	-5.111815e-05
	-3.521774e-05	3.942167e-06	0.01022394	0.0086851	-2.505349e-06	-8.099736e-07	0.002363934	0.007216619
	0.002382123	0.007218614	-2.505349e-06	-8.099736e-07	0.01048476	0.008666459	-8.116406e-06	-7.696426e-06
	-0.0001116835	-5.111815e-05	0.002363933	0.00721662	-8.116406e-06	-7.696426e-06	0.01027938	0.008762738
1.4e+08	0.01119413	0.00888898	-3.558001e-05	2.437062e-06	0.002732381	0.007675677	-0.0001123788	-5.603193e-05
	-3.558001e-05	2.437062e-06	0.01079113	0.008959818	-2.416098e-06	-5.439155e-07	0.002693759	0.00767378
	0.002732381	0.007675677	-2.416098e-06	-5.439155e-07	0.01109365	0.008922073	-8.84414e-06	-8.022729e-06
	-0.0001123788	-5.603193e-05	0.002693758	0.007673781	-8.84414e-06	-8.022729e-06	0.01085019	0.009039388
1.5e+08	0.01178834	0.00910461	-3.597008e-05	1.260461e-06	0.003101767	0.008113463	-0.0001132825	-6.028458e-05
	-3.597008e-05	1.260461e-06	0.0113585	0.009202587	-2.332082e-06	-3.200317e-07	0.003042002	0.008113862
	0.003101767	0.008113462	-2.332082e-06	-3.200317e-07	0.01170454	0.009142857	-9.604599e-06	-8.271093e-06
	-0.0001132825	-6.028458e-05	0.003042001	0.008113863	-9.604599e-06	-8.271093e-06	0.0114211	0.009283924
1.6e+08	0.01238421	0.009288597	-3.638997e-05	3.404102e-07	0.003489344	0.008531156	-0.0001143854	-6.400461e-05
	-3.638997e-05	3.404102e-07	0.01192574	0.009414508	-2.251891e-06	-1.272234e-07	0.003407765	0.008535867
	0.003489343	0.008531156	-2.251891e-06	-1.272234e-07	0.01231696	0.009329765	-1.039323e-05	-8.443048e-06
	-0.0001143854	-6.400461e-05	0.003407765	0.008535868	-1.039323e-05	-8.443048e-06	0.0119918	0.009497429
1.7e+08	0.01298114	0.009441351	-3.683813e-05	-3.686815e-07	0.003894117	0.008927949	-0.0001156736	-6.727468e-05
	-3.683813e-05	-3.686815e-07	0.01249243	0.009596444	-2.174647e-06	4.162576e-08	0.003790111	0.008938884
	0.003894117	0.008927949	-2.174647e-06	4.162576e-08	0.01293032	0.00948353	-1.120512e-05	-8.539165e-06
	-0.0001156736	-6.727468e-05	0.003790111	0.008938885	-1.120512e-05	-8.539165e-06	0.01256186	0.009680763
1.8e+08	0.01357845	0.009563242	-3.731117e-05	-8.976135e-07	0.004315046	0.009303057	-0.0001171318	-7.01516e-05
	-3.731117e-05	-8.976135e-07	0.01305806	0.0097491	-2.099734e-06	1.914364e-07	0.004188062	0.009322074
	0.004315046	0.009303057	-2.099734e-06	1.914364e-07	0.01354392	0.00960474	-1.203515e-05	-8.559614e-06
	-0.0001171318	-7.01516e-05	0.004188062	0.009322074	-1.203515e-05	-8.559614e-06	0.01313075	0.009834636
1.9e+08	0.01417538	0.0096546	-3.780552e-05	-1.267671e-06	0.004751043	0.009655733	-0.0001187443	-7.26765e-05
	-3.780552e-05	-1.267671e-06	0.01362205	0.009873082	-2.091209e-06	1.899915e-07	0.004600602	0.009684659
	0.004751043	0.009655733	-2.091209e-06	1.899915e-07	0.01415699	0.00969389	-1.287881e-05	-8.503778e-06
	-0.0001187443	-7.26765e-05	0.004600602	0.009684659	-1.287881e-05	-8.503778e-06	0.01369786	0.009959656
2e+08	0.01477112	0.009715734	-3.831606e-05	-1.495251e-06	0.005200978	0.009985277	-0.0001204953	-7.488036e-05
	-3.831606e-05	-1.495251e-06	0.01418375	0.009968915	-2.132768e-06	9.441922e-08	0.00502668	0.01002592
	0.005200978	0.009985277	-2.132768e-06	9.441922e-08	0.0147687	0.009751408	-1.37305e-05	-8.37186e-06
	-0.0001204953	-7.488036e-05	0.00502668	0.01002592	-1.37305e-05	-8.37186e-06	0.01426256	0.01005636
2.1e+08	0.0153648	0.009746934	-3.883708e-05	-1.593467e-06	0.005663685	0.01029103	-0.0001223695	-7.678739e-05
	-3.883708e-05	-1.593467e-06	0.01474246	0.01003708	-2.175647e-06	1.146925e-08	0.005465209	0.0103452
	0.005663684	0.01029103	-2.175647e-06	1.146925e-08	0.01537815	0.009777681	-1.458426e-05	-8.1646e-06
	-0.0001223695	-7.678739e-05	0.005465209	0.0103452	-1.458426e-05	-8.1646e-06	0.01482414	0.01012523
2.2e+08	0.01595551	0.009748491	-3.936327e-05	-1.572354e-06	0.00613796	0.0105724	-0.0001243519	-7.841707e-05
	-3.936327e-05	-1.572354e-06	0.01529745	0.01007801	-2.219678e-06	-6.034049e-08	0.005915072	0.0106419
	0.00613796	0.0105724	-2.219678e-06	-6.034049e-08	0.01598439	0.009773081	-1.543465e-05	-7.882472e-06
	-0.0001243519	-7.841707e-05	0.005915072	0.0106419	-1.543465e-05	-7.882472e-06	0.01538185	0.01016671
2.3e+08	0.0165423	0.009720707	-3.988923e-05	-1.440134e-06	0.006622571	0.01082884	-0.000126428	-7.978561e-05
	-3.988923e-05	-1.440134e-06	0.01584795	0.01009215	-2.264661e-06	-1.221793e-07	0.006375124	0.01091547
	0.006622571	0.01082884	-2.264661e-06	-1.221793e-07	0.01658644	0.009737974	-1.627625e-05	-7.526213e-06
	-0.000126428	-7.978561e-05	0.006375124	0.01091547	-1.627625e-05	-7.526213e-06	0.01593493	0.01018125
2.4e+08	0.01712419	0.00966389	-4.040964e-05	-1.203901e-06	0.007116256	0.01105986	-0.0001285841	-8.090685e-05
	-4.040964e-05	-1.203901e-06	0.01639317	0.0100799	-2.310413e-06	-1.750434e-07	0.006844193	0.01116543
	0.007116256	0.01105986	-2.310413e-06	-1.750434e-07	0.0171833	0.00967272	-1.710369e-05	-7.096836e-06
	-0.0001285841	-8.090685e-05	0.006844193	0.01116543	-1.710369e-05	-7.096836e-06	0.01648256	0.01016927
2.5e+08	0.01770018	0.009578373	-4.091915e-05	-8.698219e-07	0.007617729	0.01126504	-0.0001308066	-8.179297e-05
	-4.091915e-05	-8.698219e-07	0.01693228	0.01004168	-2.356727e-06	-2.197359e-07	0.007321084	0.01139136
	0.007617729	0.01126504	-2.356727e-06	-2.197359e-07	0.01777392	0.009577706	-1.791163e-05	-6.595665e-06
	-0.0001308066	-8.179297e-05	0.007321084	0.01139136	-1.791163e-05	-6.595665e-06	0.01702393	0.01013119
2.6e+08	0.01826923	0.009464507	-4.141254e-05	-4.435082e-07	0.008125681	0.01144401	-0.0001330831	-8.245491e-05
	-4.141254e-05	-4.435082e-07	0.01746445	0.009977934	-2.403408e-06	-2.569504e-07	0.007804581	0.01159288
	0.008125681	0.01144401	-2.403408e-06	-2.569504e-07	0.01835724	0.009453327	-1.869483e-05	-6.024336e-06
	-0.0001330831	-8.245491e-05	0.007804581	0.01159288	-1.869483e-05	-6.024336e-06	0.01755819	0.01006746
2.7e+08	0.01883032	0.009322679	-4.188461e-05	6.985601e-08	0.008638785	0.01159647	-0.0001354008	-8.290289e-05
	-4.188461e-05	6.985601e-08	0.01798883	0.009889088	-2.450249e-06	-2.872756e-07	0.008293455	0.01176969
	0.008638785	0.01159647	-2.450249e-06	-2.872756e-07	0.01893219	0.009300008	-1.944815e-05	-5.384813e-06
	-0.0001354008	-8.290289e-05	0.008293454	0.01176969	-1.944815e-05	-5.384813e-06	0.0180845	0.009978522
2.8e+08	0.0193824	0.009153302	-4.233038e-05	6.65316e-07	0.009155701	0.01172219	-0.0001377485	-8.314639e-05
	-4.233038e-05	6.65316e-07	0.01850456	0.0097756	-2.497063e-06	-3.11238e-07	0.008786457	0.01192155
	0.009155701	0.01172219	-2.497063e-06	-3.11238e-07	0.0194977	0.009118207	-2.016659e-05	-4.679371e-06
	-0.0001377485	-8.314639e-05	0.008786457	0.01192155	-2.016659e-05	-4.679371e-06	0.01860198	0.009864844
2.9e+08	0.01992442	0.008956827	-4.274502e-05	1.33807e-06	0.009675075	0.011821	-0.0001401149	-8.319448e-05
	-4.274502e-05	1.33807e-06	0.0190108	0.009637952	-2.543669e-06	-3.293046e-07	0.009282332	0.01204828
	0.009675075	0.011821	-2.543669e-06	-3.293046e-07	0.02005267	0.008908409	-2.084532e-05	-3.910603e-06
	-0.0001401149	-8.319448e-05	0.009282332	0.01204828	-2.084532e-05	-3.910603e-06	0.01910978	0.009726911
3e+08	0.02045532	0.008733739	-4.312382e-05	2.083399e-06	0.01019554	0.0118928	-0.0001424895	-8.305615e-05
	-4.312382e-05	2.083399e-06	0.01950667	0.009476641	-2.589884e-06	-3.418927e-07	0.009779813	0.01214976
	0.01019554	0.0118928	-2.589884e-06	-3.418927e-07	0.02059601	0.008671135	-2.147966e-05	-3.08143e-06
	-0.0001424895	-8.305615e-05	0.009779813	0.01214976	-2.147966e-05	-3.08143e-06	0.01960704	0.009565235
3.1e+08	0.02097405	0.008484566	-4.346235e-05	2.896595e-06	0.01071574	0.01193754	-0.0001448626	-8.273995e-05
	-4.346235e-05	2.896595e-06	0.01999132	0.009292199	-2.635547e-06	-3.493884e-07	0.01027763	0.01222594
	0.01071574	0.01193754	-2.635547e-06	-3.493884e-07	0.02112664	0.008406951	-2.206515e-05	-2.195051e-06
	-0.0001448626	-8.273995e-05	0.01027763	0.01222594	-2.206515e-05	-2.195051e-06	0.02009288	0.009380356
3.2e+08	0.02147957	0.00820987	-4.375635e-05	3.772925e-06	0.0112343	0.01195526	-0.0001472249	-8.225444e-05
	-4.375635e-05	3.772925e-06	0.0204639	0.009085175	-2.680504e-06	-3.521468e-07	0.01077451	0.01227681
	0.0112343	0.01195526	-2.680504e-06	-3.521468e-07	0.02164348	0.008116456	-2.259758e-05	-1.254965e-06
	-0.0001472249	-8.225444e-05	0.01077451	0.01227681	-2.259758e-05	-1.254965e-06	0.02056646	0.009172838
3.3e+08	0.02197084	0.007910259	-4.400178e-05	4.707599e-06	0.01174986	0.01194606	-0.0001495674	-8.160837e-05
	-4.400178e-05	4.707599e-06	0.02092356	0.008856156	-2.724605e-06	-3.504979e-07	0.01126919	0.01230245
	0.01174986	0.01194606	-2.724605e-06	-3.504979e-07	0.02214547	0.007800295	-2.307293e-05	-2.649816e-07
	-0.0001495674	-8.160837e-05	0.01126919	0.01230245	-2.307293e-05	-2.649816e-07	0.02102693	0.008943272
3.4e+08	0.02244685	0.007586379	-4.419489e-05	5.695761e-06	0.01226104	0.01191009	-0.0001518823	-8.081016e-05
	-4.419489e-05	5.695761e-06	0.02136948	0.008605756	-2.767719e-06	-3.447534e-07	0.01176039	0.012303
	0.01226104	0.01191009	-2.767719e-06	-3.447534e-07	0.02263154	0.007459151	-2.348748e-05	7.708648e-07
	-0.0001518823	-8.081016e-05	0.01176039	0.012303	-2.348748e-05	7.708648e-07	0.02147345	0.008692288
3.5e+08	0.02290659	0.007238921	-4.433218e-05	6.732459e-06	0.01276651	0.0118476	-0.0001541619	-7.986848e-05
	-4.433218e-05	6.732459e-06	0.02180083	0.008334615	-2.809731e-06	-3.3521e-07	0.01224685	0.01227863
	0.01276651	0.0118476	-2.809731e-06	-3.3521e-07	0.02310068	0.007093754	-2.383751e-05	1.847975e-06
	-0.0001541619	-7.986848e-05	0.01224685	0.01227863	-2.383751e-05	1.847975e-06	0.02190521	0.008420536
3.6e+08	0.02334907	0.006868614	-4.441046e-05	7.812643e-06	0.01326491	0.01175887	-0.0001563982	-7.879147e-05
	-4.441046e-05	7.812643e-06	0.02221682	0.008043408	-2.849123e-06	-3.218135e-07	0.01272733	0.01222962
	0.01326491	0.01175887	-2.849123e-06	-3.218135e-07	0.02355184	0.006704869	-2.420458e-05	3.054202e-06
	-0.0001563982	-7.879147e-05	0.01272733	0.01222962	-2.420458e-05	3.054202e-06	0.0223214	0.008128702
3.7e+08	0.02377332	0.00647623	-4.442682e-05	8.931196e-06	0.01375491	0.01164427	-0.000158586	-7.758811e-05
	-4.442682e-05	8.931196e-06	0.02261666	0.007732839	-2.886859e-06	-3.051995e-07	0.01320059	0.01215627
	0.01375491	0.01164427	-2.886859e-06	-3.051995e-07	0.02398404	0.006293314	-2.451228e-05	4.313577e-06
	-0.000158586	-7.758811e-05	0.01320059	0.01215627	-2.451228e-05	4.313577e-06	0.02272123	0.007817503
3.8e+08	0.02417841	0.006062582	-4.437864e-05	1.00829e-05	0.01423521	0.01150422	-0.00016072	-7.626716e-05
	-4.437864e-05	1.00829e-05	0.0229996	0.007403642	-2.923136e-06	-2.85707e-07	0.0136654	0.01205897
	0.01423521	0.01150422	-2.923136e-06	-2.85707e-07	0.02439633	0.005859942	-2.474089e-05	5.602969e-06
	-0.00016072	-7.626716e-05	0.0136654	0.01205897	-2.474089e-05	5.602969e-06	0.02310396	0.007487685
3.9e+08	0.02456343	0.005628527	-4.426366e-05	1.126247e-05	0.01470452	0.01133923	-0.0001627954	-7.483719e-05
	-4.426366e-05	1.126247e-05	0.02336489	0.007056582	-2.957893e-06	-2.635898e-07	0.01412056	0.01193815
	0.01470452	0.01133923	-2.957893e-06	-2.635898e-07	0.02478774	0.005405645	-2.48883e-05	6.917117e-06
	-0.0001627954	-7.483719e-05	0.01412056	0.01193815	-2.48883e-05	6.917117e-06	0.02346883	0.007140024
4e+08	0.0249275	0.005174958	-4.407991e-05	1.246452e-05	0.01516158	0.01114984	-0.0001648077	-7.330706e-05
	-4.407991e-05	1.246452e-05	0.02371183	0.006692455	-2.991082e-06	-2.390925e-07	0.0145649	0.0117943
	0.01516158	0.01114984	-2.991082e-06	-2.390925e-07	0.02515739	0.004931366	-2.495273e-05	8.250577e-06
	-0.0001648077	-7.330706e-05	0.0145649	0.0117943	-2.495273e-05	8.250577e-06	0.02381515	0.006775328
4.1e+08	0.02526976	0.004702811	-4.382578e-05	1.368362e-05	0.01560513	0.01093668	-0.0001667533	-7.168546e-05
	-4.382578e-05	1.368362e-05	0.02403973	0.006312083	-3.022669e-06	-2.124491e-07	0.01499725	0.01162799
	0.01560513	0.01093668	-3.022669e-06	-2.124491e-07	0.0255044	0.004438083	-2.493277e-05	9.5978e-06
	-0.0001667533	-7.168546e-05	0.01499725	0.01162799	-2.493277e-05	9.5978e-06	0.02414222	0.006394434
4.2e+08	0.0255894	0.004213054	-4.350001e-05	1.49143e-05	0.01603399	0.01070043	-0.0001686294	-6.99808e-05
	-4.350001e-05	1.49143e-05	0.02434794	0.005916319	-3.052633e-06	-1.838848e-07	0.01541649	0.01143982
	0.01603399	0.01070043	-3.052633e-06	-1.838848e-07	0.02582792	0.003926807	-2.482739e-05	1.095315e-05
	-0.0001686294	-6.99808e-05	0.01541649	0.01143982	-2.482739e-05	1.095315e-05	0.0244494	0.005998203
4.3e+08	0.02588564	0.003706697	-4.310169e-05	1.615107e-05	0.01644696	0.01044181	-0.0001704335	-6.820155e-05
	-4.310169e-05	1.615107e-05	0.02463584	0.00550604	-3.080966e-06	-1.536149e-07	0.01582152	0.01123047
	0.01644696	0.01044181	-3.080966e-06	-1.536149e-07	0.02612718	0.003398598	-2.463593e-05	1.23109e-05
	-0.0001704335	-6.820155e-05	0.01582152	0.01123047	-2.463593e-05	1.23109e-05	0.02473606	0.00558753
4.4e+08	0.02615775	0.00318478	-4.263027e-05	1.738842e-05	0.01684292	0.01016163	-0.000172164	-6.635614e-05
	-4.263027e-05	1.738842e-05	0.02490283	0.005082151	-3.107674e-06	-1.218463e-07	0.01621127	0.01100064
	0.01684292	0.01016163	-3.107674e-06	-1.218463e-07	0.02640141	0.002854541	-2.43581e-05	1.366531e-05
	-0.000172164	-6.635614e-05	0.01621127	0.01100064	-2.43581e-05	1.366531e-05	0.02500161	0.005163327
4.5e+08	0.02640503	0.002648384	-4.208554e-05	1.862083e-05	0.01722077	0.009860746	-0.0001738191	-6.445382e-05
	-4.208554e-05	1.862083e-05	0.02514836	0.004645582	-3.132771e-06	-8.877575e-08	0.01658472	0.01075111
	0.01722077	0.009860746	-3.132771e-06	-8.877575e-08	0.0266499	0.002295764	-2.399404e-05	1.501058e-05
	-0.0001738191	-6.445382e-05	0.01658472	0.01075111	-2.399404e-05	1.501058e-05	0.02524552	0.004726541
4.6e+08	0.02662683	0.002098616	-4.146805e-05	1.984289e-05	0.01757943	0.009540056	-0.0001753854	-6.252549e-05
	-4.146805e-05	1.984289e-05	0.02537192	0.004197288	-3.156283e-06	-5.458563e-08	0.01694086	0.0104827
	0.01757943	0.009540056	-3.156283e-06	-5.458563e-08	0.02687198	0.001723421	-2.354462e-05	1.634102e-05
	-0.0001753854	-6.252549e-05	0.01694086	0.0104827	-2.354462e-05	1.634102e-05	0.02546725	0.004278136
4.7e+08	0.02682253	0.001536614	-4.073001e-05	2.104211e-05	0.01791791	0.009200521	-0.0001785229	-5.753651e-05
	-4.073001e-05	2.104211e-05	0.02557302	0.003738243	-3.178724e-06	-2.001048e-08	0.01727875	0.01019629
	0.01791791	0.009200521	-3.178724e-06	-2.001048e-08	0.02706704	0.0011387	-2.296122e-05	1.764189e-05
