!$
! Info: Touchstone file created by Circ.  Input file=Tx_2in_Rx_100ohms_TxVia_60mils_RxVia_70mils.circ
!$
# Hz S RI R 50
0	0.002233657	5.132405e-26	-2.719744e-11	8.650896e-27	3.127386e-05	4.205387e-24	-3.227027e-09	4.012939e-25
	-2.719821e-11	8.651005e-27	0.002229204	5.827351e-26	4.641957e-11	1.272995e-27	3.097381e-05	5.307954e-24
	3.235837e-05	4.233533e-24	4.641532e-11	1.273509e-27	0.002249272	5.126609e-26	-5.792668e-12	7.616088e-27
	-3.226899e-09	4.012782e-25	3.124381e-05	5.330717e-24	-5.887927e-12	7.627706e-27	0.002243827	5.798133e-26
1e+07	0.003086212	0.001801821	5.522314e-11	1.621587e-10	5.530092e-05	0.0006104808	-5.333176e-09	7.357333e-09
	5.522314e-11	1.621587e-10	0.003178782	0.001815658	6.762488e-11	1.84934e-10	0.0001262606	0.0006234938
	5.533189e-05	0.0006104852	6.762488e-11	1.84934e-10	0.002983865	0.001861416	-5.845821e-09	9.51304e-09
	-5.333176e-09	7.357333e-09	0.0001262627	0.0006234913	-5.845821e-09	9.51304e-09	0.003162521	0.001823956
2e+07	0.003888578	0.002949551	6.868796e-11	3.07694e-10	0.0001018436	0.001222296	8.112552e-11	-5.401885e-11
	6.868797e-11	3.07694e-10	0.00396793	0.002938302	8.470888e-11	3.493834e-10	0.0001399432	0.001271226
	0.0001018575	0.001222277	8.470887e-11	3.493834e-10	0.003860583	0.003094591	1.531824e-11	6.497479e-10
	8.112553e-11	-5.401885e-11	0.0001399396	0.001271227	1.531825e-11	6.497479e-10	0.00396004	0.002965109
3e+07	0.004556252	0.003797807	6.576866e-11	4.559489e-10	0.0001765249	0.001821887	7.659642e-11	5.048864e-10
	6.576866e-11	4.559489e-10	0.004621989	0.003779356	8.683752e-11	5.138478e-10	0.000187861	0.001880428
	0.0001765257	0.001821884	8.683752e-11	5.138478e-10	0.004587347	0.003973051	8.487183e-11	5.622581e-10
	7.659642e-11	5.048864e-10	0.0001878607	0.00188043	8.487183e-11	5.622581e-10	0.004621274	0.003816974
4e+07	0.005169105	0.004523831	6.668823e-11	6.002849e-10	0.0002789242	0.002413831	8.098605e-11	7.005909e-10
	6.668823e-11	6.002849e-10	0.005219471	0.004501885	9.188723e-11	6.740072e-10	0.0002717232	0.00247531
	0.0002789282	0.002413835	9.188723e-11	6.740072e-10	0.005251606	0.004712878	8.977054e-11	7.140026e-10
	8.098605e-11	7.005909e-10	0.0002717239	0.002475311	8.977054e-11	7.140026e-10	0.005225747	0.004547898
5e+07	0.00575546	0.005169308	6.596505e-11	7.425724e-10	0.0004084986	0.002997778	8.064827e-11	8.552127e-10
	6.596506e-11	7.425724e-10	0.005788172	0.005146444	9.525324e-11	8.311696e-10	0.0004204138	0.003054522
	0.0004085016	0.002997779	9.525324e-11	8.311696e-10	0.005884232	0.005362111	9.056536e-11	8.903419e-10
	8.064827e-11	8.552127e-10	0.0004204147	0.003054522	9.056536e-11	8.903419e-10	0.005801167	0.005199417
6e+07	0.006329111	0.00575329	6.234025e-11	8.836251e-10	0.0005646545	0.003572906	7.56737e-11	1.005539e-09
	6.234025e-11	8.836251e-10	0.006342228	0.005731799	9.545929e-11	9.862046e-10	0.0005914752	0.003621799
	0.0005646507	0.003572905	9.545929e-11	9.862046e-10	0.006500145	0.005942236	8.89964e-11	1.067532e-09
	7.56737e-11	1.005539e-09	0.0005914765	0.003621799	8.89964e-11	1.067532e-09	0.006361857	0.005790692
7e+07	0.006897583	0.006286207	5.513591e-11	1.02408e-09	0.0007508839	0.004137599	6.68188e-11	1.159378e-09
	5.51359e-11	1.02408e-09	0.006889215	0.006267976	9.152598e-11	1.139616e-09	0.0007848111	0.004176847
	0.0007508727	0.004137599	9.152598e-11	1.139616e-09	0.007107403	0.006464713	8.363392e-11	1.241307e-09
	6.68188e-11	1.159378e-09	0.0007848129	0.004176847	8.363392e-11	1.241307e-09	0.006915447	0.006331784
8e+07	0.007465159	0.00677474	4.39698e-11	1.164721e-09	0.0009625738	0.004691394	5.475533e-11	1.319086e-09
	4.39698e-11	1.164721e-09	0.007433191	0.006761531	8.287042e-11	1.292392e-09	0.001000116	0.004718908
	0.0009625595	0.004691396	8.287041e-11	1.292392e-09	0.007710447	0.006936385	7.298925e-11	1.410937e-09
	5.475532e-11	1.319086e-09	0.001000118	0.004718907	7.298926e-11	1.410937e-09	0.007465892	0.006829232
9e+07	0.008034467	0.00722407	2.863647e-11	1.306583e-09	0.001198915	0.005233501	4.006216e-11	1.485765e-09
	2.863646e-11	1.306583e-09	0.007976577	0.007217908	6.902835e-11	1.44588e-09	0.001236872	0.005246773
	0.001198905	0.005233505	6.902834e-11	1.44588e-09	0.008311646	0.007361456	5.573447e-11	1.576966e-09
	4.006216e-11	1.485765e-09	0.001236874	0.005246772	5.573447e-11	1.576966e-09	0.008015462	0.007288461
1e+08	0.008608271	0.007642081	8.247473e-12	1.451057e-09	0.001459703	0.005764237	2.236687e-11	1.660475e-09
	8.247473e-12	1.451057e-09	0.008522201	0.007645898	4.806841e-11	1.601887e-09	0.001493933	0.00575728
	0.001459703	0.005764237	4.806841e-11	1.601887e-09	0.008911588	0.007740442	2.928538e-11	1.740814e-09
	2.236687e-11	1.660475e-09	0.001493933	0.00575728	2.928538e-11	1.740814e-09	0.008566742	0.007717841
1.1e+08	0.009203741	0.008017781	-1.243153e-11	1.600549e-09	0.001748913	0.006278575	8.755542e-13	1.831028e-09
	-1.243153e-11	1.600549e-09	0.009090254	0.008032946	2.750103e-11	1.766482e-09	0.001763006	0.006255931
	0.001748913	0.006278575	2.750103e-11	1.766482e-09	0.009501977	0.008084206	5.508724e-12	1.920783e-09
	8.755543e-13	1.831028e-09	0.001763004	0.006255932	5.508724e-12	1.920783e-09	0.009138349	0.008106431
1.2e+08	0.009800175	0.008349265	-3.308237e-11	1.750541e-09	0.002059481	0.006774381	-1.889309e-11	2.000867e-09
	-3.308237e-11	1.750541e-09	0.009657049	0.008376932	1.088547e-11	1.930089e-09	0.002053395	0.006743519
	0.002059481	0.006774381	1.088547e-11	1.930089e-09	0.01009591	0.008396537	-1.661675e-11	2.100528e-09
	-1.889309e-11	2.000867e-09	0.002053393	0.006743519	-1.661675e-11	2.100528e-09	0.009708819	0.008452506
1.3e+08	0.01039866	0.008643071	-5.205683e-11	1.899542e-09	0.002390918	0.007252262	-3.836234e-11	2.170748e-09
	-5.205683e-11	1.899542e-09	0.01022394	0.0086851	-1.990619e-12	2.092201e-09	0.002363934	0.007216619
	0.002390918	0.007252262	-1.990618e-12	2.092201e-09	0.01069286	0.008675468	-3.511629e-11	2.278121e-09
	-3.836234e-11	2.170748e-09	0.002363933	0.00721662	-3.511629e-11	2.278121e-09	0.01027938	0.008762738
1.4e+08	0.01099923	0.008901338	-7.321123e-11	2.050579e-09	0.002742438	0.00771159	-6.010599e-11	2.342876e-09
	-7.321123e-11	2.050579e-09	0.01079113	0.008959818	-1.710965e-11	2.256161e-09	0.002693759	0.00767378
	0.002742438	0.00771159	-1.710965e-11	2.256161e-09	0.01129254	0.008921283	-5.608265e-11	2.457972e-09
	-6.010599e-11	2.342876e-09	0.002693758	0.007673781	-5.608265e-11	2.457972e-09	0.01085019	0.009039388
1.5e+08	0.01160164	0.009125403	-9.63452e-11	2.203819e-09	0.003113163	0.008151581	-8.390297e-11	2.517442e-09
	-9.63452e-11	2.203819e-09	0.0113585	0.009202587	-3.42274e-11	2.422116e-09	0.003042002	0.008113862
	0.003113162	0.008151581	-3.42274e-11	2.422116e-09	0.01189452	0.009134442	-7.925786e-11	2.640258e-09
	-8.390297e-11	2.517442e-09	0.003042001	0.008113863	-7.925786e-11	2.640258e-09	0.0114211	0.009283924
1.6e+08	0.01220544	0.00931622	-1.212866e-10	2.359435e-09	0.003502152	0.008571415	-1.09557e-10	2.694639e-09
	-1.212866e-10	2.359435e-09	0.01192574	0.009414508	-5.315691e-11	2.590226e-09	0.003407765	0.008535867
	0.003502151	0.008571415	-5.315691e-11	2.590226e-09	0.01249828	0.009315395	-1.044291e-10	2.825165e-09
	-1.09557e-10	2.694639e-09	0.003407765	0.008535868	-1.044291e-10	2.825165e-09	0.0119918	0.009497429
1.7e+08	0.0128101	0.009474521	-1.478711e-10	2.517594e-09	0.003908409	0.008970278	-1.368794e-10	2.87465e-09
	-1.478711e-10	2.517594e-09	0.01249243	0.009596444	-7.373245e-11	2.760646e-09	0.003790111	0.008938884
	0.003908409	0.008970278	-7.373245e-11	2.760646e-09	0.01310318	0.009464545	-1.313991e-10	3.012875e-09
	-1.368794e-10	2.87465e-09	0.003790111	0.008938885	-1.313991e-10	3.012875e-09	0.01256186	0.009680763
1.8e+08	0.01341493	0.009600893	-1.759364e-10	2.678454e-09	0.004330888	0.009347384	-1.656831e-10	3.05765e-09
	-1.759364e-10	2.678454e-09	0.01305806	0.0097491	-9.579776e-11	2.933529e-09	0.004188062	0.009322074
	0.004330888	0.009347384	-9.579776e-11	2.933529e-09	0.01370851	0.009582254	-1.599765e-10	3.203564e-09
	-1.656831e-10	3.05765e-09	0.004188062	0.009322074	-1.599765e-10	3.203564e-09	0.01313075	0.009834636
1.9e+08	0.01401921	0.009695829	-2.052965e-10	2.842151e-09	0.004768498	0.009701983	-1.957726e-10	3.243795e-09
	-2.052965e-10	2.842151e-09	0.01362205	0.009873082	-1.192004e-10	3.109021e-09	0.004600602	0.009684659
	0.004768498	0.009701983	-1.192004e-10	3.109021e-09	0.01431349	0.00966885	-1.899715e-10	3.397397e-09
	-1.957726e-10	3.243795e-09	0.004600602	0.009684659	-1.899715e-10	3.397397e-09	0.01369786	0.009959656
2e+08	0.01462212	0.009759757	-2.357926e-10	3.008832e-09	0.005220106	0.01003337	-2.269618e-10	3.433245e-09
	-2.357926e-10	3.008832e-09	0.01418375	0.009968915	-1.43788e-10	3.287262e-09	0.00502668	0.01002592
	0.005220106	0.01003337	-1.43788e-10	3.287262e-09	0.01491727	0.009724639	-2.211935e-10	3.59453e-09
	-2.269618e-10	3.433245e-09	0.00502668	0.01002592	-2.211935e-10	3.59453e-09	0.01426256	0.01005636
2.1e+08	0.0152228	0.009793064	-2.672748e-10	3.178647e-09	0.00568454	0.01034089	-2.590623e-10	3.626148e-09
	-2.672748e-10	3.178647e-09	0.01474246	0.01003708	-1.69407e-10	3.468386e-09	0.005465209	0.0103452
	0.00568454	0.01034089	-1.69407e-10	3.468386e-09	0.01551894	0.009749912	-2.534496e-10	3.79511e-09
	-2.590623e-10	3.626148e-09	0.005465209	0.0103452	-2.534496e-10	3.79511e-09	0.01482414	0.01012523
2.2e+08	0.01582034	0.009796117	-2.99571e-10	3.351722e-09	0.006160594	0.01062394	-2.91877e-10	3.822641e-09
	-2.99571e-10	3.351722e-09	0.01529745	0.01007801	-1.959012e-10	3.65252e-09	0.005915072	0.0106419
	0.006160594	0.01062394	-1.959012e-10	3.65252e-09	0.01611756	0.00974496	-2.865438e-10	3.999277e-09
	-2.91877e-10	3.822641e-09	0.005915072	0.0106419	-2.865438e-10	3.999277e-09	0.01538185	0.01016671
2.3e+08	0.0164138	0.009769279	-3.32505e-10	3.52818e-09	0.00664703	0.01088196	-3.252046e-10	4.022852e-09
	-3.32505e-10	3.52818e-09	0.01584795	0.01009215	-2.231115e-10	3.839786e-09	0.006375124	0.01091547
	0.00664703	0.01088196	-2.231115e-10	3.839786e-09	0.01671216	0.009710086	-3.202767e-10	4.207159e-09
	-3.252046e-10	4.022852e-09	0.006375124	0.01091547	-3.202767e-10	4.207159e-09	0.01593493	0.01018125
2.4e+08	0.01700219	0.009712911	-3.658963e-10	3.708135e-09	0.007142582	0.01111449	-3.588396e-10	4.226897e-09
	-3.658963e-10	3.708135e-09	0.01639317	0.0100799	-2.508748e-10	4.030299e-09	0.006844193	0.01116543
	0.007142582	0.01111449	-2.508748e-10	4.030299e-09	0.01730171	0.009645601	-3.544445e-10	4.418879e-09
	-3.588396e-10	4.226897e-09	0.006844193	0.01116543	-3.544445e-10	4.418879e-09	0.01648256	0.01016927
2.5e+08	0.0175845	0.00962739	-3.995599e-10	3.891691e-09	0.00764596	0.01132108	-3.92572e-10	4.434886e-09
	-3.995599e-10	3.891691e-09	0.01693228	0.01004168	-2.790239e-10	4.224169e-09	0.007321084	0.01139136
	0.00764596	0.01132108	-2.790239e-10	4.224169e-09	0.01788518	0.009551841	-3.888394e-10	4.634548e-09
	-3.92572e-10	4.434886e-09	0.007321084	0.01139136	-3.888394e-10	4.634548e-09	0.01702393	0.01013119
2.6e+08	0.01815972	0.009513104	-4.333064e-10	4.078949e-09	0.00815585	0.01150137	-4.261875e-10	4.646918e-09
	-4.333064e-10	4.078949e-09	0.01746445	0.009977934	-3.07387e-10	4.421499e-09	0.007804581	0.01159288
	0.00815585	0.01150137	-3.07387e-10	4.421499e-09	0.01846152	0.009429166	-4.232492e-10	4.854272e-09
	-4.261875e-10	4.646918e-09	0.007804581	0.01159288	-4.232492e-10	4.854272e-09	0.01755819	0.01006746
2.7e+08	0.0187268	0.009370473	-4.669417e-10	4.269998e-09	0.008670922	0.01165507	-4.594673e-10	4.863085e-09
	-4.669417e-10	4.269998e-09	0.01798883	0.009889088	-3.357878e-10	4.622386e-09	0.008293455	0.01176969
	0.008670922	0.01165507	-3.357878e-10	4.622386e-09	0.01902964	0.009277967	-4.574569e-10	5.078145e-09
	-4.594673e-10	4.863085e-09	0.008293454	0.01176969	-4.574569e-10	5.078145e-09	0.0180845	0.009978522
2.8e+08	0.0192847	0.009199942	-5.002672e-10	4.46492e-09	0.00918983	0.01178193	-4.921882e-10	5.083466e-09
	-5.002672e-10	4.46492e-09	0.01850456	0.0097756	-3.640453e-10	4.826918e-09	0.008786457	0.01192155
	0.00918983	0.01178193	-3.640453e-10	4.826918e-09	0.01958849	0.009098671	-4.912414e-10	5.306252e-09
	-4.921882e-10	5.083466e-09	0.008786457	0.01192155	-4.912414e-10	5.306252e-09	0.01860198	0.009864844
2.9e+08	0.01983236	0.009001987	-5.330801e-10	4.66379e-09	0.009711215	0.01188178	-5.241231e-10	5.308133e-09
	-5.330801e-10	4.66379e-09	0.0190108	0.009637952	-3.919737e-10	5.035178e-09	0.009282332	0.01204828
	0.009711215	0.01188178	-3.919737e-10	5.035178e-09	0.02013696	0.008891734	-5.243773e-10	5.538669e-09
	-5.241231e-10	5.308133e-09	0.009282332	0.01204828	-5.243773e-10	5.538669e-09	0.01910978	0.009726911
3e+08	0.02036872	0.008777116	-5.651733e-10	4.866672e-09	0.01023371	0.01195452	-5.550408e-10	5.537147e-09
	-5.651733e-10	4.866672e-09	0.01950667	0.009476641	-4.193826e-10	5.247242e-09	0.009779813	0.01214976
	0.01023371	0.01195452	-4.193826e-10	5.247242e-09	0.02067398	0.008657659	-5.566348e-10	5.775465e-09
	-5.550408e-10	5.537147e-09	0.009779813	0.01214976	-5.566348e-10	5.775465e-09	0.01960704	0.009565235
3.1e+08	0.02089274	0.008525879	-5.963358e-10	5.073624e-09	0.01075595	0.01200011	-5.847067e-10	5.770559e-09
	-5.963358e-10	5.073624e-09	0.01999132	0.009292199	-4.460772e-10	5.463177e-09	0.01027763	0.01222594
	0.01075595	0.01200011	-4.460772e-10	5.463177e-09	0.02119845	0.008396988	-5.877805e-10	6.016694e-09
	-5.847067e-10	5.770559e-09	0.01027763	0.01222594	-5.877805e-10	6.016694e-09	0.02009288	0.009380356
3.2e+08	0.02140337	0.008248861	-6.263528e-10	5.284692e-09	0.01127655	0.01201858	-6.128825e-10	6.008409e-09
	-6.263528e-10	5.284692e-09	0.0204639	0.009085175	-4.718583e-10	5.683042e-09	0.01077451	0.01227681
	0.01127655	0.01201858	-4.718583e-10	5.683042e-09	0.02170931	0.008110296	-6.175773e-10	6.262404e-09
	-6.128825e-10	6.008409e-09	0.01077451	0.01227681	-6.175773e-10	6.262404e-09	0.02056646	0.009172838
3.3e+08	0.02189957	0.007946682	-6.550061e-10	5.499915e-09	0.01179415	0.01201004	-6.393271e-10	6.250728e-09
	-6.550061e-10	5.499915e-09	0.02092356	0.008856156	-4.965224e-10	5.906888e-09	0.01126919	0.01230245
	0.01179415	0.01201004	-4.965224e-10	5.906888e-09	0.02220549	0.007798213	-6.457844e-10	6.512631e-09
	-6.393271e-10	6.250728e-09	0.01126919	0.01230245	-6.457844e-10	6.512631e-09	0.02102693	0.008943272
3.4e+08	0.02238032	0.007620014	-6.820742e-10	5.719322e-09	0.01230738	0.01197463	-6.637966e-10	6.497535e-09
	-6.820742e-10	5.719322e-09	0.02136948	0.008605756	-5.198623e-10	6.134759e-09	0.01176039	0.012303
	0.01230738	0.01197463	-5.198623e-10	6.134759e-09	0.02268593	0.007461404	-6.721585e-10	6.7674e-09
	-6.637966e-10	6.497535e-09	0.01176039	0.012303	-6.721585e-10	6.7674e-09	0.02147345	0.008692288
3.5e+08	0.02284462	0.007269555	-7.073329e-10	5.94293e-09	0.01281487	0.0119126	-6.860447e-10	6.748838e-09
	-7.073329e-10	5.94293e-09	0.02180083	0.008334615	-5.41667e-10	6.366688e-09	0.01224685	0.01227863
	0.01281487	0.0119126	-5.41667e-10	6.366688e-09	0.02314961	0.007100582	-6.964532e-10	7.026726e-09
	-6.860447e-10	6.748838e-09	0.01224685	0.01227863	-6.964532e-10	7.026726e-09	0.02190521	0.008420536
3.6e+08	0.02329147	0.006896055	-7.305665e-10	6.170743e-09	0.01331529	0.01182423	-7.058313e-10	7.004632e-09
	-7.305665e-10	6.170743e-09	0.02221682	0.008043408	-5.617223e-10	6.6027e-09	0.01272733	0.01222962
	0.01331529	0.01182423	-5.617223e-10	6.6027e-09	0.02359549	0.006716498	-7.184205e-10	7.290613e-09
	-7.058313e-10	7.004632e-09	0.01272733	0.01222962	-7.184205e-10	7.290613e-09	0.0223214	0.008128702
3.7e+08	0.02371991	0.006500301	-7.515368e-10	6.402764e-09	0.0138073	0.01170991	-7.228999e-10	7.264905e-09
	-7.515368e-10	6.402764e-09	0.02261666	0.007732839	-5.798109e-10	6.84281e-09	0.01320059	0.01215627
	0.0138073	0.01170991	-5.798109e-10	6.84281e-09	0.02402261	0.006309953	-7.378099e-10	7.559053e-09
	-7.228999e-10	7.264905e-09	0.01320059	0.01215627	-7.378099e-10	7.559053e-09	0.02272123	0.007817503
3.8e+08	0.024129	0.00608312	-7.700123e-10	6.638983e-09	0.01428958	0.01157005	-7.369994e-10	7.529632e-09
	-7.700123e-10	6.638983e-09	0.0229996	0.007403642	-5.957127e-10	7.087024e-09	0.0136654	0.01205897
	0.01428958	0.01157005	-5.957127e-10	7.087024e-09	0.02442998	0.005881787	-7.543698e-10	7.832027e-09
	-7.369994e-10	7.529632e-09	0.0136654	0.01205897	-7.543698e-10	7.832027e-09	0.02310396	0.007487685
3.9e+08	0.02451783	0.005645381	-7.857616e-10	6.879377e-09	0.01476085	0.01140514	-7.478783e-10	7.798776e-09
	-7.857616e-10	6.879377e-09	0.02336489	0.007056582	-6.092056e-10	7.335338e-09	0.01412056	0.01193815
	0.01476085	0.01140514	-6.092056e-10	7.335338e-09	0.02481667	0.005432884	-7.678474e-10	8.109504e-09
	-7.478783e-10	7.798776e-09	0.01412056	0.01193815	-7.678474e-10	8.109504e-09	0.02346883	0.007140024
4e+08	0.02488551	0.005187986	-7.985517e-10	7.123913e-09	0.01521982	0.01121575	-7.552852e-10	8.07229e-09
	-7.985517e-10	7.123913e-09	0.02371183	0.006692455	-6.200652e-10	7.587738e-09	0.0145649	0.0117943
	0.01521982	0.01121575	-6.200652e-10	7.587738e-09	0.02518177	0.004964168	-7.779897e-10	8.391442e-09
	-7.552852e-10	8.07229e-09	0.0145649	0.0117943	-7.779897e-10	8.391442e-09	0.02381515	0.006775328
4.1e+08	0.0252312	0.004711891	-8.081498e-10	7.372547e-09	0.01566526	0.0110025	-7.589691e-10	8.350111e-09
	-8.081498e-10	7.372547e-09	0.02403973	0.006312083	-6.28066e-10	7.844199e-09	0.01499725	0.01162799
	0.01566526	0.0110025	-6.28066e-10	7.844199e-09	0.02552442	0.004476606	-7.845436e-10	8.677786e-09
	-7.589691e-10	8.350111e-09	0.01499725	0.01162799	-7.845436e-10	8.677786e-09	0.02414222	0.006394434
4.2e+08	0.02555408	0.004218069	-8.14323e-10	7.625224e-09	0.01609597	0.01076607	-7.586796e-10	8.632167e-09
	-8.14323e-10	7.625224e-09	0.02434794	0.005916319	-6.329812e-10	8.104686e-09	0.01541649	0.01143982
	0.01609597	0.01076607	-6.329812e-10	8.104686e-09	0.02584378	0.0039712	-7.872566e-10	8.968471e-09
	-7.586796e-10	8.632167e-09	0.01541649	0.01143982	-7.872566e-10	8.968471e-09	0.0244494	0.005998203
4.3e+08	0.02585338	0.003707546	-8.168389e-10	7.881877e-09	0.01651075	0.01050719	-7.541678e-10	8.918376e-09
	-8.168389e-10	7.881877e-09	0.02463584	0.00550604	-6.345836e-10	8.369154e-09	0.01582152	0.01123047
	0.01651075	0.01050719	-6.345836e-10	8.369154e-09	0.02613904	0.003448995	-7.858773e-10	9.263418e-09
	-7.541678e-10	8.918376e-09	0.01582152	0.01123047	-7.858773e-10	9.263418e-09	0.02473606	0.00558753
4.4e+08	0.02612836	0.003181371	-8.154661e-10	8.142431e-09	0.01690846	0.01022667	-7.451866e-10	9.208639e-09
	-8.154661e-10	8.142431e-09	0.02490283	0.005082151	-6.326457e-10	8.637547e-09	0.01621127	0.01100064
	0.01690846	0.01022667	-6.326457e-10	8.637547e-09	0.02640947	0.002911069	-7.801556e-10	9.562538e-09
	-7.451866e-10	9.208639e-09	0.01621127	0.01100064	-7.801556e-10	9.562538e-09	0.02500161	0.005163327
4.5e+08	0.02637832	0.002640637	-8.099747e-10	8.406796e-09	0.01728801	0.009925358	-7.314911e-10	9.50285e-09
	-8.099747e-10	8.406796e-09	0.02514836	0.004645582	-6.2694e-10	8.909799e-09	0.01658472	0.01075111
	0.01728801	0.009925358	-6.2694e-10	8.909799e-09	0.02665434	0.002358538	-7.698436e-10	9.865727e-09
	-7.314911e-10	9.50285e-09	0.01658472	0.01075111	-7.698436e-10	9.865727e-09	0.02524552	0.004726541
4.6e+08	0.02660262	0.00208646	-8.001364e-10	8.674874e-09	0.01764833	0.009604166	-7.128391e-10	9.800889e-09
	-8.001364e-10	8.674874e-09	0.02537192	0.004197288	-6.173111e-10	9.185813e-09	0.01694086	0.0104827
	0.01764833	0.009604166	-6.173111e-10	9.185813e-09	0.02687298	0.001792546	-7.54744e-10	1.017287e-08
	-7.128391e-10	9.800889e-09	0.01694086	0.0104827	-7.54744e-10	1.017287e-08	0.02546725	0.004278136
4.7e+08	0.02680064	0.001519988	-7.857232e-10	8.946559e-09	0.0179884	0.009264055	-6.889931e-10	1.010263e-08
	-7.857232e-10	8.946559e-09	0.02557302	0.003738243	-6.037813e-10	9.465454e-09	0.01727875	0.01019629
	0.0179884	0.009264055	-6.037813e-10	9.465454e-09	0.02706478	0.001214272	-7.347855e-10	1.048382e-08
	-6.889931e-10	1.010263e-08	0.01727875	0.01019629	-7.347855e-10	1.048382e-08	0.02566633	0.003819097
4.8e+08	0.02697183	0.0009424019	-7.665154e-10	9.221724e-09	0.01830725	0.008906037	-6.597176e-10	1.040791e-08
	-7.665154e-10	9.221724e-09	0.02575121	0.003269442	-5.858159e-10	9.748705e-09	0.01759747	0.009892792
	0.01830725	0.008906037	-5.858159e-10	9.748705e-09	0.02722916	0.0006249254	-7.095138e-10	1.079848e-08
