!$
! Info: Touchstone file created by Circ.  Input file=Tx_2in_Rx_85ohms_TxVia_60mils_RxVia_70mils.circ
!$
# Hz S RI R 50
0	0.00176606	5.240443e-26	1.373916e-09	2.928219e-28	3.08055e-05	3.382165e-24	1.239706e-09	1.214148e-28
	1.373925e-09	2.92826e-28	0.0017614	5.83508e-26	9.474865e-10	4.147924e-28	3.100965e-05	4.160825e-24
	3.1789e-05	3.441455e-24	9.474752e-10	4.147671e-28	0.00178037	5.026894e-26	-3.317657e-09	4.559975e-25
	1.239704e-09	1.212874e-28	3.127968e-05	4.178668e-24	-3.317244e-09	4.559468e-25	0.001776036	5.805816e-26
1e+07	0.002716137	-0.001433997	2.254784e-09	3.925097e-09	4.644569e-05	0.0006115755	-4.880592e-09	3.0632e-08
	2.254784e-09	3.925097e-09	0.002442822	-0.001481419	1.505359e-09	2.755985e-09	6.135354e-05	0.0006130752
	4.645496e-05	0.0006115433	1.505359e-09	2.755985e-09	0.002464345	-0.001510728	-7.837542e-09	1.724223e-08
	-4.880591e-09	3.0632e-08	6.135556e-05	0.0006130727	-7.837542e-09	1.724223e-08	0.002451388	-0.001473187
2e+07	0.003242235	-0.003572912	3.113207e-09	7.305079e-09	9.437221e-05	0.001218037	9.89875e-09	2.593466e-08
	3.113207e-09	7.305079e-09	0.002982785	-0.003553871	2.145371e-09	5.166771e-09	0.0001165221	0.00120861
	9.434584e-05	0.001218036	2.145371e-09	5.16677e-09	0.002983372	-0.003605439	-5.063551e-09	5.744962e-09
	9.89875e-09	2.593466e-08	0.0001165186	0.001208611	-5.063551e-09	5.744963e-09	0.002993581	-0.003536557
3e+07	0.003493576	-0.005947763	4.374399e-09	1.002903e-08	0.0001817647	0.001808739	1.500953e-08	3.360973e-08
	4.374399e-09	1.002903e-08	0.003238902	-0.005907678	2.730864e-09	7.131109e-09	0.0001957241	0.001796053
	0.0001817623	0.001808743	2.730864e-09	7.131109e-09	0.00322943	-0.005966119	4.413723e-09	1.019484e-08
	1.500953e-08	3.360973e-08	0.0001957238	0.001796054	4.413723e-09	1.019484e-08	0.003251238	-0.005882795
4e+07	0.003547247	-0.008410575	5.699136e-09	1.27826e-08	0.0002948327	0.002390262	1.98637e-08	4.233751e-08
	5.699136e-09	1.27826e-08	0.003290316	-0.008358012	3.50986e-09	9.167254e-09	0.0002997401	0.002376316
	0.0002948321	0.002390257	3.50986e-09	9.167254e-09	0.003279096	-0.008418648	6.162779e-09	1.361366e-08
	1.98637e-08	4.233751e-08	0.0002997408	0.002376317	6.162779e-09	1.361366e-08	0.003303983	-0.008326366
5e+07	0.003431625	-0.01091929	7.23976e-09	1.545413e-08	0.0004337074	0.00296258	2.519133e-08	5.103315e-08
	7.23976e-09	1.545413e-08	0.003166065	-0.01085698	4.368697e-09	1.114214e-08	0.0004285333	0.002948726
	0.0004337049	0.002962578	4.368697e-09	1.114214e-08	0.003160367	-0.01091819	7.702485e-09	1.625187e-08
	2.519133e-08	5.103315e-08	0.0004285342	0.002948726	7.702485e-09	1.625187e-08	0.00318059	-0.01081902
6e+07	0.003161372	-0.01345118	9.002502e-09	1.799836e-08	0.000598099	0.003524974	3.119468e-08	5.933438e-08
	9.002502e-09	1.799836e-08	0.00288177	-0.01337981	5.331109e-09	1.303821e-08	0.000581762	0.003512388
	0.0005981008	0.003524977	5.331109e-09	1.303821e-08	0.002887753	-0.01344117	9.424785e-09	1.869852e-08
	3.119468e-08	5.933438e-08	0.0005817633	0.003512388	9.424785e-09	1.869852e-08	0.002896793	-0.0133358
7e+07	0.002745378	-0.01599115	1.097234e-08	2.038357e-08	0.0007875937	0.004076512	3.791015e-08	6.706252e-08
	1.097234e-08	2.038357e-08	0.002446731	-0.01591071	6.402236e-09	1.48476e-08	0.0007590069	0.004066342
	0.0007876025	0.004076517	6.402236e-09	1.48476e-08	0.002470049	-0.01597209	1.138545e-08	2.104405e-08
	3.791015e-08	6.706252e-08	0.0007590086	0.004066342	1.138545e-08	2.104405e-08	0.002461918	-0.01586093
8e+07	0.002189618	-0.01852774	1.312705e-08	2.258364e-08	0.001001701	0.004616149	4.530931e-08	7.410211e-08
	1.312705e-08	2.258364e-08	0.001866902	-0.01843771	7.58059e-09	1.656193e-08	0.0009597995	0.004609594
	0.001001714	0.004616152	7.58059e-09	1.656193e-08	0.001913167	-0.01849913	1.36014e-08	2.329442e-08
	4.530931e-08	7.410211e-08	0.0009598013	0.004609593	1.36014e-08	2.329442e-08	0.001881819	-0.01838248
9e+07	0.00149857	-0.02105136	1.544159e-08	2.457618e-08	0.001239851	0.005142806	5.333326e-08	8.036816e-08
	1.544159e-08	2.457618e-08	0.001146657	-0.02095075	8.861371e-09	1.81725e-08	0.001183618	0.005141194
	0.001239861	0.005142805	8.861371e-09	1.81725e-08	0.001221619	-0.02101208	1.608114e-08	2.54374e-08
	5.333326e-08	8.036816e-08	0.001183619	0.005141193	1.608114e-08	2.54374e-08	0.001160744	-0.0208903
1e+08	0.0006759506	-0.02355372	1.7891e-08	2.634191e-08	0.001501454	0.00565565	6.190738e-08	8.579505e-08
	1.7891e-08	2.634191e-08	0.0002895618	-0.02344163	1.023727e-08	1.967102e-08	0.001430021	0.005660857
	0.001501454	0.00565565	1.023727e-08	1.967102e-08	0.0003997468	-0.02349991	1.883246e-08	2.74559e-08
	6.190738e-08	8.579505e-08	0.001430021	0.005660857	1.883246e-08	2.74559e-08	0.0003021615	-0.02337614
1.1e+08	-0.0002748886	-0.02602664	2.05503e-08	2.798783e-08	0.001786755	0.006152757	7.10426e-08	9.088216e-08
	2.05503e-08	2.798783e-08	-0.0007024292	-0.02589975	1.168687e-08	2.10857e-08	0.001700984	0.006165474
	0.001786755	0.006152757	1.168687e-08	2.10857e-08	-0.0005401967	-0.02596138	2.162759e-08	2.915858e-08
	7.10426e-08	9.088216e-08	0.001700982	0.006165474	2.162759e-08	2.915858e-08	-0.0006919681	-0.02582907
1.2e+08	-0.001349918	-0.02846315	2.336048e-08	2.943835e-08	0.0020935	0.006632719	8.069415e-08	9.528456e-08
	2.336048e-08	2.943835e-08	-0.001822221	-0.028317	1.32181e-08	2.23949e-08	0.001992205	0.006653245
	0.0020935	0.006632719	1.32181e-08	2.23949e-08	-0.001605633	-0.02839164	2.458027e-08	3.065632e-08
	8.069415e-08	9.528456e-08	0.001992203	0.006653246	2.458027e-08	3.065632e-08	-0.001814363	-0.02824093
1.3e+08	-0.002545933	-0.03085712	2.631206e-08	3.068442e-08	0.002420874	0.007094867	9.082352e-08	9.897173e-08
	2.631206e-08	3.068442e-08	-0.003066469	-0.03068787	1.482488e-08	2.359442e-08	0.002303015	0.007124117
	0.002420874	0.007094867	1.482488e-08	2.359442e-08	-0.002792881	-0.03078155	2.768112e-08	3.193935e-08
	9.082352e-08	9.897173e-08	0.002303013	0.007124118	2.768112e-08	3.193935e-08	-0.003061687	-0.03060623
1.4e+08	-0.003859716	-0.03320261	2.93939e-08	3.171745e-08	0.002767942	0.007538271	1.013895e-07	1.019145e-07
	2.93939e-08	3.171745e-08	-0.004431728	-0.03300637	1.650115e-08	2.468e-08	0.002632569	0.007577344
	0.002767942	0.007538271	1.650115e-08	2.468e-08	-0.004098617	-0.03312444	3.091852e-08	3.299854e-08
	1.013895e-07	1.019145e-07	0.002632568	0.007577345	3.091852e-08	3.299854e-08	-0.004430487	-0.03291894
1.5e+08	-0.005287998	-0.03549398	3.259408e-08	3.252911e-08	0.003133708	0.007961993	1.123487e-07	1.040852e-07
	3.259408e-08	3.252911e-08	-0.005914491	-0.0352667	1.824058e-08	2.564746e-08	0.002979956	0.008012113
	0.003133708	0.007961993	1.824058e-08	2.564746e-08	-0.005519524	-0.03541431	3.427996e-08	3.382515e-08
	1.123487e-07	1.040852e-07	0.002979955	0.008012114	3.427996e-08	3.382515e-08	-0.00591724	-0.03517322
1.6e+08	-0.006827426	-0.03772587	3.589996e-08	3.311154e-08	0.003517113	0.008365126	1.236555e-07	1.054579e-07
	3.589996e-08	3.311154e-08	-0.007511158	-0.03746331	2.003649e-08	2.649284e-08	0.003344201	0.008427612
	0.003517113	0.008365126	2.003649e-08	2.649284e-08	-0.00705222	-0.03764554	3.775214e-08	3.441089e-08
	1.236555e-07	1.054579e-07	0.003344201	0.008427612	3.775214e-08	3.441089e-08	-0.007518327	-0.03736347
1.7e+08	-0.008474549	-0.03989317	3.929827e-08	3.345737e-08	0.003917049	0.008746809	1.352625e-07	1.060088e-07
	3.929827e-08	3.345737e-08	-0.009218013	-0.03959091	2.188188e-08	2.72124e-08	0.003724281	0.008823058
	0.003917049	0.008746809	2.188188e-08	2.72124e-08	-0.008693227	-0.03981286	4.132106e-08	3.474806e-08
	1.352625e-07	1.060088e-07	0.003724281	0.008823058	4.132106e-08	3.474806e-08	-0.009230013	-0.03948438
1.8e+08	-0.01022581	-0.04199104	4.277513e-08	3.355985e-08	0.004332355	0.00910623	1.471202e-07	1.057165e-07
	4.277513e-08	3.355985e-08	-0.01103122	-0.04164446	2.376941e-08	2.780272e-08	0.004119125	0.00919771
	0.004332355	0.00910623	2.376941e-08	2.780272e-08	-0.01043897	-0.04191128	4.497213e-08	3.482963e-08
	1.471202e-07	1.057165e-07	0.004119125	0.00919771	4.497213e-08	3.482963e-08	-0.01104843	-0.04153085
1.9e+08	-0.01207752	-0.04401484	4.631611e-08	3.341292e-08	0.004761825	0.009442639	1.591778e-07	1.045621e-07
	4.631611e-08	3.341292e-08	-0.01294682	-0.04361915	2.569147e-08	2.826075e-08	0.004527621	0.009550878
	0.004761825	0.009442639	2.569147e-08	2.826075e-08	-0.01228574	-0.04393608	4.869016e-08	3.464928e-08
	1.591778e-07	1.045621e-07	0.004527621	0.009550878	4.869016e-08	3.464928e-08	-0.0129696	-0.04349804
2e+08	-0.01402591	-0.04596017	4.990631e-08	3.301127e-08	0.005204214	0.009755344	1.713828e-07	1.025295e-07
	4.990631e-08	3.301127e-08	-0.0149607	-0.04551042	2.764016e-08	2.85838e-08	0.004948619	0.009881925
	0.005204214	0.009755344	2.764016e-08	2.85838e-08	-0.01422975	-0.04588275	5.245947e-08	3.420149e-08
	1.713828e-07	1.025295e-07	0.004948619	0.009881925	5.245947e-08	3.420149e-08	-0.01498938	-0.04538137
2.1e+08	-0.01606705	-0.04782286	5.353038e-08	3.235038e-08	0.005658238	0.01004372	1.836816e-07	9.960542e-08
	5.353038e-08	3.235038e-08	-0.01706867	-0.04731396	2.960735e-08	2.876964e-08	0.005380933	0.01019027
	0.005658238	0.01004372	2.960735e-08	2.876964e-08	-0.01626707	-0.04774706	5.626394e-08	3.348157e-08
	1.836816e-07	9.960542e-08	0.005380933	0.01019027	5.626394e-08	3.348157e-08	-0.01710353	-0.04717649
2.2e+08	-0.01819693	-0.04959894	5.717262e-08	3.142656e-08	0.006122583	0.01030721	1.960196e-07	9.577957e-08
	5.717262e-08	3.142656e-08	-0.01926636	-0.04902567	3.158474e-08	2.881648e-08	0.005823351	0.01047541
	0.006122583	0.01030721	3.158474e-08	2.881648e-08	-0.01839365	-0.04952496	6.008706e-08	3.248572e-08
	1.960196e-07	9.577957e-08	0.005823351	0.01047541	6.008706e-08	3.248572e-08	-0.01930767	-0.04887926
2.3e+08	-0.02041141	-0.05128465	6.081699e-08	3.0237e-08	0.006595906	0.01054533	2.083413e-07	9.104479e-08
	6.081699e-08	3.0237e-08	-0.02154932	-0.05064168	3.356382e-08	2.872297e-08	0.006274632	0.01073687
	0.006595906	0.01054533	3.356382e-08	2.872297e-08	-0.02060535	-0.05121265	6.3912e-08	3.121106e-08
	2.083413e-07	9.104479e-08	0.006274632	0.01073687	6.3912e-08	3.121106e-08	-0.0215973	-0.05048581
2.4e+08	-0.02270624	-0.05287646	6.444721e-08	2.877977e-08	0.007076839	0.01075767	2.205906e-07	8.539704e-08
	6.444721e-08	2.877977e-08	-0.02391296	-0.05215836	3.553599e-08	2.848829e-08	0.006733515	0.01097428
	0.007076839	0.01075767	3.553599e-08	2.848829e-08	-0.0228979	-0.05280652	6.772165e-08	2.965564e-08
	2.205906e-07	8.539704e-08	0.006733515	0.01097428	6.772165e-08	2.965564e-08	-0.02396781	-0.05199248
2.5e+08	-0.02507708	-0.05437103	6.804679e-08	2.705388e-08	0.007563996	0.01094387	2.32711e-07	7.883546e-08
	6.804679e-08	2.705388e-08	-0.0263526	-0.05357231	3.749253e-08	2.811208e-08	0.007198721	0.01118731
	0.007563996	0.01094387	3.749253e-08	2.811208e-08	-0.02526693	-0.05430321	7.149871e-08	2.781848e-08
	2.32711e-07	7.883546e-08	0.007198721	0.01118731	7.149871e-08	2.781848e-08	-0.02641446	-0.05339584
2.6e+08	-0.02751947	-0.05576523	7.15991e-08	2.505926e-08	0.008055974	0.01110368	2.446457e-07	7.136243e-08
	7.15991e-08	2.505926e-08	-0.02886345	-0.05488035	3.942465e-08	2.759452e-08	0.007668956	0.01137571
	0.008055974	0.01110368	3.942465e-08	2.759452e-08	-0.02770799	-0.05569953	7.522572e-08	2.569956e-08
	2.446457e-07	7.136243e-08	0.007668956	0.01137571	7.522572e-08	2.569956e-08	-0.02893244	-0.0546927
2.7e+08	-0.03002888	-0.05705615	7.508741e-08	2.279677e-08	0.008551361	0.0112369	2.563382e-07	6.298356e-08
	7.508741e-08	2.279677e-08	-0.03144061	-0.05607954	4.132355e-08	2.693627e-08	0.008142917	0.01153929
	0.008551361	0.0112369	4.132355e-08	2.693627e-08	-0.0302165	-0.05699254	7.888515e-08	2.329991e-08
	2.563382e-07	6.298356e-08	0.008142917	0.01153929	7.888515e-08	2.329991e-08	-0.0315168	-0.0558801
2.8e+08	-0.03260066	-0.05824108	7.849496e-08	2.026827e-08	0.009048737	0.01134341	2.677316e-07	5.370769e-08
	7.849496e-08	2.026827e-08	-0.0340791	-0.05716716	4.318041e-08	2.613852e-08	0.008619293	0.01167794
	0.009048737	0.01134341	4.318041e-08	2.613852e-08	-0.03278782	-0.05817949	8.245942e-08	2.06215e-08
	2.677316e-07	5.370769e-08	0.008619293	0.01167794	8.245942e-08	2.06215e-08	-0.03416254	-0.05695531
2.9e+08	-0.03523012	-0.05931754	8.1805e-08	1.747654e-08	0.009546678	0.01142316	2.787699e-07	4.354692e-08
	8.1805e-08	1.747654e-08	-0.03677387	-0.05814072	4.498645e-08	2.520296e-08	0.009096774	0.0117916
	0.009546678	0.01142316	4.498645e-08	2.520296e-08	-0.03541722	-0.05925787	8.5931e-08	1.766737e-08
	2.787699e-07	4.354692e-08	0.009096774	0.0117916	8.5931e-08	1.766737e-08	-0.03686454	-0.05791583
3e+08	-0.03791245	-0.06028324	8.500089e-08	1.442537e-08	0.01004376	0.01147619	2.893973e-07	3.251655e-08
	8.500089e-08	1.442537e-08	-0.03951978	-0.05899798	4.673296e-08	2.413182e-08	0.009574047	0.0118803
	0.01004376	0.01147619	4.673296e-08	2.413182e-08	-0.03809989	-0.06022535	8.928243e-08	1.444153e-08
	2.893973e-07	3.251655e-08	0.009574047	0.0118803	8.928243e-08	1.444153e-08	-0.03961765	-0.05875942
3.1e+08	-0.04064281	-0.06113612	8.806609e-08	1.111948e-08	0.01053858	0.0115026	2.995589e-07	2.06351e-08
	8.806609e-08	1.111948e-08	-0.04231162	-0.05973691	4.841129e-08	2.292782e-08	0.01004981	0.01194412
	0.01053858	0.0115026	4.841129e-08	2.292782e-08	-0.04083096	-0.06107984	9.249641e-08	1.094903e-08
	2.995589e-07	2.06351e-08	0.01004981	0.01194412	9.249641e-08	1.094903e-08	-0.0424166	-0.05948403
3.2e+08	-0.04341629	-0.06187432	9.098425e-08	7.564558e-09	0.01102971	0.01150257	3.092005e-07	7.924202e-09
	9.098425e-08	7.564558e-09	-0.04514414	-0.06035573	5.001295e-08	2.159418e-08	0.01052276	0.01198323
	0.01102971	0.01150257	5.001295e-08	2.159418e-08	-0.0436055	-0.06181947	9.555585e-08	7.195908e-09
	3.092005e-07	7.924202e-09	0.01052276	0.01198323	9.555585e-08	7.195908e-09	-0.04525611	-0.06008789
3.3e+08	-0.04622792	-0.06249621	9.373932e-08	3.767304e-09	0.01151578	0.01147636	3.182692e-07	-5.591368e-09
	9.373932e-08	3.767304e-09	-0.04801203	-0.06085289	5.15296e-08	2.013466e-08	0.01099162	0.01199783
	0.01151578	0.01147636	5.15296e-08	2.013466e-08	-0.04641852	-0.06244256	9.844393e-08	3.189246e-09
	3.182692e-07	-5.591368e-09	0.01099162	0.01199783	9.844393e-08	3.189246e-09	-0.04813083	-0.06056944
3.4e+08	-0.0490727	-0.06300036	9.63036e-08	-2.775891e-10	0.01199539	0.01142429	3.267019e-07	-1.988821e-08
	9.63036e-08	-2.775891e-10	-0.05090994	-0.06122707	5.295288e-08	1.855384e-08	0.01145512	0.01198823
	0.01199539	0.01142429	5.295288e-08	1.855384e-08	-0.04926499	-0.06294767	1.01132e-07	-1.075825e-09
	3.267019e-07	-1.988821e-08	0.01145512	0.01198823	1.01132e-07	-1.075825e-09	-0.05103537	-0.06092737
3.5e+08	-0.05194558	-0.06338557	9.867073e-08	-4.550653e-09	0.0124672	0.01134676	3.344573e-07	-3.493116e-08
	9.867073e-08	-4.550653e-09	-0.0538325	-0.06147719	5.427502e-08	1.685617e-08	0.011912	0.01195477
	0.0124672	0.01134676	5.427502e-08	1.685617e-08	-0.05213985	-0.06333358	1.036133e-07	-5.579342e-09
	3.344573e-07	-3.493116e-08	0.011912	0.01195477	1.036133e-07	-5.579342e-09	-0.05396432	-0.06116059
3.6e+08	-0.05484149	-0.06365085	1.008274e-07	-9.040453e-09	0.01292988	0.01124422	3.414883e-07	-5.068579e-08
	1.008274e-07	-9.040453e-09	-0.05677432	-0.06160239	5.548832e-08	1.504679e-08	0.01236105	0.01189787
	0.01292988	0.01124422	5.548832e-08	1.504679e-08	-0.05503801	-0.06359926	1.058737e-07	-1.030935e-08
	3.414883e-07	-5.068579e-08	0.01236105	0.01189787	1.058737e-07	-1.030935e-08	-0.05691223	-0.06126827
3.7e+08	-0.05775534	-0.06379542	1.02759e-07	-1.373657e-08	0.01338212	0.01111722	3.477479e-07	-6.711556e-08
	1.02759e-07	-1.373657e-08	-0.05972997	-0.06160208	5.658534e-08	1.313135e-08	0.01280106	0.011818
	0.01338212	0.01111722	5.658534e-08	1.313135e-08	-0.05795435	-0.06374393	1.078981e-07	-1.525487e-08
	3.477479e-07	-6.711556e-08	0.01280106	0.011818	1.078981e-07	-1.525487e-08	-0.05987367	-0.0612498
3.8e+08	-0.06068203	-0.06381871	1.044515e-07	-1.862772e-08	0.01382266	0.01096634	3.531911e-07	-8.418122e-08
	1.044515e-07	-1.862772e-08	-0.06269404	-0.06147586	5.755892e-08	1.111593e-08	0.01323085	0.01171571
	0.01382266	0.01096634	5.755892e-08	1.111593e-08	-0.06088374	-0.063767	1.096718e-07	-2.040403e-08
	3.531911e-07	-8.418122e-08	0.01323085	0.01171571	1.096718e-07	-2.040403e-08	-0.06284316	-0.0611048
3.9e+08	-0.06361646	-0.06372037	1.058914e-07	-2.370176e-08	0.01425025	0.01079226	3.577748e-07	-1.018409e-07
	1.058914e-07	-2.370176e-08	-0.06566114	-0.06122358	5.840224e-08	9.007056e-09	0.0136493	0.0115916
	0.01425025	0.01079226	5.840224e-08	9.007056e-09	-0.06382106	-0.0636681	1.111808e-07	-2.574406e-08
	3.577748e-07	-1.018409e-07	0.0136493	0.0115916	1.111808e-07	-2.574406e-08	-0.06581528	-0.06083314
4e+08	-0.06655352	-0.06350028	1.070659e-07	-2.894572e-08	0.01466369	0.0105957	3.614583e-07	-1.200502e-07
	1.070659e-07	-2.894572e-08	-0.06862586	-0.06084533	5.91088e-08	6.811665e-09	0.01405529	0.0114463
	0.01466369	0.0105957	5.91088e-08	6.811665e-09	-0.06676119	-0.0634471	1.124116e-07	-3.126133e-08
	3.614583e-07	-1.200502e-07	0.01405529	0.0114463	1.124116e-07	-3.126133e-08	-0.06878457	-0.06043491
4.1e+08	-0.06948814	-0.0631585	1.079626e-07	-3.434585e-08	0.01506184	0.01037744	3.64203e-07	-1.387624e-07
	1.079626e-07	-3.434585e-08	-0.07158284	-0.0603414	5.967249e-08	4.537083e-09	0.01444776	0.01128053
	0.01506184	0.01037744	5.967249e-08	4.537083e-09	-0.06969901	-0.06310404	1.133514e-07	-3.69414e-08
	3.64203e-07	-1.387624e-07	0.01444776	0.01128053	1.133514e-07	-3.69414e-08	-0.07174565	-0.05991044
4.2e+08	-0.07241523	-0.06269532	1.085702e-07	-3.988764e-08	0.01544357	0.01013833	3.659727e-07	-1.579285e-07
	1.085702e-07	-3.988764e-08	-0.07452674	-0.05971234	6.008757e-08	2.191016e-09	0.01482567	0.01109505
	0.01544357	0.01013833	6.008757e-08	2.191016e-09	-0.07262943	-0.0626392	1.139885e-07	-4.276904e-08
	3.659727e-07	-1.579285e-07	0.01482567	0.01109505	1.139885e-07	-4.276904e-08	-0.07469314	-0.05926027
4.3e+08	-0.07532978	-0.06211124	1.088779e-07	-4.555586e-08	0.01580783	0.009879251	3.667341e-07	-1.774973e-07
	1.088779e-07	-4.555586e-08	-0.07745227	-0.0589589	6.034871e-08	-2.184816e-10	0.01518805	0.01089067
	0.01580783	0.009879251	6.034871e-08	-2.184816e-10	-0.07554739	-0.06205306	1.143115e-07	-4.872828e-08
	3.667341e-07	-1.774973e-07	0.01518805	0.01089067	1.143115e-07	-4.872828e-08	-0.07762171	-0.05848518
4.4e+08	-0.07822678	-0.06140694	1.088756e-07	-5.133459e-08	0.01615358	0.009601161	3.664563e-07	-1.974158e-07
	1.088756e-07	-5.133459e-08	-0.08035419	-0.05808205	6.045104e-08	-2.683018e-09	0.01553394	0.01066823
	0.01615358	0.009601161	6.045104e-08	-2.683018e-09	-0.07844787	-0.06134632	1.143101e-07	-5.480241e-08
	3.664563e-07	-1.974158e-07	0.01553394	0.01066823	1.143101e-07	-5.480241e-08	-0.08052608	-0.05758617
4.5e+08	-0.08110127	-0.06058334	1.085544e-07	-5.720728e-08	0.01647986	0.009305053	3.651112e-07	-2.176288e-07
	1.085544e-07	-5.720728e-08	-0.08322731	-0.05708299	6.03901e-08	-5.193899e-09	0.01586246	0.01042864
	0.01647986	0.009305053	6.03901e-08	-5.193899e-09	-0.08132589	-0.06051986	1.139749e-07	-6.097411e-08
	3.651112e-07	-2.176288e-07	0.01586246	0.01042864	1.139749e-07	-6.097411e-08	-0.08340104	-0.05656446
4.6e+08	-0.08394837	-0.05964152	1.07906e-07	-6.315678e-08	0.01678577	0.008991971	3.626737e-07	-2.380796e-07
	1.07906e-07	-6.315678e-08	-0.08606652	-0.05596313	6.016195e-08	-7.742142e-09	0.01617276	0.01017284
	0.01678577	0.008991971	6.016195e-08	-7.742142e-09	-0.08417651	-0.05957478	1.132973e-07	-6.722541e-08
	3.626737e-07	-2.380796e-07	0.01617276	0.01017284	1.132973e-07	-6.722541e-08	-0.08624143	-0.05542149
4.7e+08	-0.08676321	-0.0585828	1.069231e-07	-6.91654e-08	0.01707043	0.008663002	3.591216e-07	-2.587101e-07
	1.069231e-07	-6.91654e-08	-0.08886678	-0.05472409	5.976309e-08	-1.031851e-08	0.01646403	0.009901807
	0.01707043	0.008663002	5.976309e-08	-1.031851e-08	-0.08699487	-0.05851237	1.122698e-07	-7.353777e-08
	3.591216e-07	-2.587101e-07	0.01646403	0.009901807	1.122698e-07	-7.353777e-08	-0.08904218	-0.05415889
4.8e+08	-0.08954104	-0.05740866	1.055993e-07	-7.521493e-08	0.01733306	0.008319271	3.544357e-07	-2.794606e-07
	1.055993e-07	-7.521493e-08	-0.09162312	-0.05336768	5.919054e-08	-1.291353e-08	0.01673555	0.009616561
	0.01733306	0.008319271	5.919054e-08	-1.291353e-08	-0.08977618	-0.05733412	1.108857e-07	-7.989215e-08
