!$
! Info: Touchstone file created by Circ.  Input file=Tx_2in_Rx_85ohms_TxVia_60mils_RxVia_70mils.circ
!$
# Hz S RI R 50
0	0.00176606	5.240443e-26	-1.102847e-05	7.627693e-24	3.08055e-05	3.382165e-24	-1.106558e-05	1.219945e-23
	-1.102847e-05	7.627553e-24	0.0017614	5.83508e-26	-1.099143e-05	3.116623e-24	3.100965e-05	4.160825e-24
	3.1789e-05	3.441455e-24	-1.099142e-05	3.11638e-24	0.00178037	5.026894e-26	-1.102398e-05	7.131109e-24
	-1.106558e-05	1.21992e-23	3.127968e-05	4.178668e-24	-1.102398e-05	7.131232e-24	0.001776036	5.805816e-26
1e+07	0.002716137	-0.001433997	-4.734129e-05	-8.954513e-06	4.644569e-05	0.0006115755	-3.402763e-05	1.784601e-05
	-4.734129e-05	-8.954513e-06	0.002442822	-0.001481419	-1.259741e-06	-3.309047e-06	6.135354e-05	0.0006130752
	4.645496e-05	0.0006115433	-1.259741e-06	-3.309046e-06	0.002464345	-0.001510728	-9.939965e-06	-4.150818e-06
	-3.402763e-05	1.784601e-05	6.135556e-05	0.0006130727	-9.939965e-06	-4.150819e-06	0.002451388	-0.001473187
2e+07	0.003242235	-0.003572912	-4.306414e-05	-3.120244e-06	9.437221e-05	0.001218037	-3.512868e-05	1.472899e-05
	-4.306414e-05	-3.120244e-06	0.002982785	-0.003553871	-1.199882e-06	-1.18432e-06	0.0001165221	0.00120861
	9.434584e-05	0.001218036	-1.199881e-06	-1.18432e-06	0.002983372	-0.003605439	-9.158452e-06	-4.92082e-07
	-3.512868e-05	1.472899e-05	0.0001165186	0.001208611	-9.158452e-06	-4.920818e-07	0.002993581	-0.003536557
3e+07	0.003493576	-0.005947763	-4.022938e-05	-7.268641e-06	0.0001817647	0.001808739	-3.539062e-05	1.657854e-05
	-4.022938e-05	-7.268641e-06	0.003238902	-0.005907678	-1.169695e-06	-6.731489e-07	0.0001957241	0.001796053
	0.0001817623	0.001808743	-1.169695e-06	-6.73149e-07	0.00322943	-0.005966119	-8.776765e-06	-2.121225e-06
	-3.539062e-05	1.657854e-05	0.0001957238	0.001796054	-8.776765e-06	-2.121225e-06	0.003251238	-0.005882795
4e+07	0.003547247	-0.008410575	-3.797403e-05	-9.59059e-06	0.0002948327	0.002390262	-3.507247e-05	1.894632e-05
	-3.797403e-05	-9.59059e-06	0.003290316	-0.008358012	-1.146567e-06	-4.146938e-07	0.0002997401	0.002376316
	0.0002948321	0.002390257	-1.146567e-06	-4.146937e-07	0.003279096	-0.008418648	-8.543555e-06	-3.197656e-06
	-3.507247e-05	1.894632e-05	0.0002997408	0.002376317	-8.543555e-06	-3.197656e-06	0.003303983	-0.008326366
5e+07	0.003431625	-0.01091929	-3.610015e-05	-1.110179e-05	0.0004337074	0.00296258	-3.426255e-05	2.132686e-05
	-3.610015e-05	-1.110179e-05	0.003166065	-0.01085698	-1.127657e-06	-2.527675e-07	0.0004285333	0.002948726
	0.0004337049	0.002962578	-1.127657e-06	-2.527675e-07	0.003160367	-0.01091819	-8.422561e-06	-4.032089e-06
	-3.426255e-05	2.132686e-05	0.0004285342	0.002948726	-8.422561e-06	-4.032089e-06	0.00318059	-0.01081902
6e+07	0.003161372	-0.01345118	-3.450083e-05	-1.213783e-05	0.000598099	0.003524974	-3.301687e-05	2.35292e-05
	-3.450083e-05	-1.213783e-05	0.00288177	-0.01337981	-1.111585e-06	-1.387163e-07	0.000581762	0.003512388
	0.0005981008	0.003524977	-1.111585e-06	-1.387164e-07	0.002887753	-0.01344117	-8.393255e-06	-4.723186e-06
	-3.301687e-05	2.35292e-05	0.0005817633	0.003512388	-8.393255e-06	-4.723186e-06	0.002896793	-0.0133358
7e+07	0.002745378	-0.01599115	-3.310849e-05	-1.283944e-05	0.0007875937	0.004076512	-3.138388e-05	2.542602e-05
	-3.310849e-05	-1.283944e-05	0.002446731	-0.01591071	-1.117835e-06	-1.857321e-07	0.0007590069	0.004066342
	0.0007876025	0.004076517	-1.117835e-06	-1.857323e-07	0.002470049	-0.01597209	-8.442518e-06	-5.311285e-06
	-3.138388e-05	2.542602e-05	0.0007590086	0.004066342	-8.442518e-06	-5.311285e-06	0.002461918	-0.01586093
8e+07	0.002189618	-0.01852774	-3.187307e-05	-1.32636e-05	0.001001701	0.004616149	-2.94166e-05	2.688425e-05
	-3.187307e-05	-1.32636e-05	0.001866902	-0.01843771	-1.138381e-06	-2.909383e-07	0.0009597995	0.004609594
	0.001001714	0.004616152	-1.138381e-06	-2.909385e-07	0.001913167	-0.01849913	-8.560257e-06	-5.81382e-06
	-2.94166e-05	2.688425e-05	0.0009598013	0.004609593	-8.560257e-06	-5.81382e-06	0.001881819	-0.01838248
9e+07	0.00149857	-0.02105136	-3.074911e-05	-1.340457e-05	0.001239851	0.005142806	-2.719077e-05	2.769058e-05
	-3.074911e-05	-1.340457e-05	0.001146657	-0.02095075	-1.163149e-06	-3.859496e-07	0.001183618	0.005141194
	0.001239861	0.005142805	-1.163149e-06	-3.859497e-07	0.001221619	-0.02101208	-8.737812e-06	-6.235048e-06
	-2.719077e-05	2.769058e-05	0.001183619	0.005141193	-8.737812e-06	-6.235048e-06	0.001160744	-0.0208903
1e+08	0.0006759506	-0.02355372	-2.965601e-05	-1.302664e-05	0.001501454	0.00565565	-2.492657e-05	2.695488e-05
	-2.965601e-05	-1.302664e-05	0.0002895618	-0.02344163	-1.191697e-06	-4.782524e-07	0.001430021	0.005660857
	0.001501454	0.00565565	-1.191697e-06	-4.782524e-07	0.0003997468	-0.02349991	-8.965253e-06	-6.549945e-06
	-2.492657e-05	2.695488e-05	0.001430021	0.005660857	-8.965253e-06	-6.549945e-06	0.0003021615	-0.02337614
1.1e+08	-0.0002748886	-0.02602664	-2.960764e-05	-1.239703e-05	0.001786755	0.006152757	-1.930941e-05	2.540919e-05
	-2.960764e-05	-1.239703e-05	-0.0007024292	-0.02589975	-1.208327e-06	-5.624056e-07	0.001700984	0.006165474
	0.001786755	0.006152757	-1.208327e-06	-5.624056e-07	-0.0005401967	-0.02596138	-9.349347e-06	-6.799319e-06
	-1.930941e-05	2.540919e-05	0.001700982	0.006165474	-9.349347e-06	-6.799319e-06	-0.0006919681	-0.02582907
1.2e+08	-0.001349917	-0.02846315	-2.968942e-05	-1.212189e-05	0.0020935	0.006632719	-1.325285e-05	2.49658e-05
	-2.968942e-05	-1.212189e-05	-0.001822221	-0.028317	-1.228954e-06	-6.334429e-07	0.001992205	0.006653245
	0.0020935	0.006632719	-1.228954e-06	-6.334429e-07	-0.001605633	-0.02839164	-9.778742e-06	-7.043437e-06
	-1.325285e-05	2.49658e-05	0.001992203	0.006653246	-9.778742e-06	-7.043437e-06	-0.001814363	-0.02824093
1.3e+08	-0.002545933	-0.03085712	-2.984068e-05	-1.192624e-05	0.002420874	0.007094867	-6.945993e-06	2.467956e-05
	-2.984068e-05	-1.192624e-05	-0.003066469	-0.03068787	-1.253293e-06	-6.967258e-07	0.002303015	0.007124117
	0.002420874	0.007094867	-1.253293e-06	-6.967258e-07	-0.002792881	-0.03078155	-1.024534e-05	-7.250671e-06
	-6.945993e-06	2.467956e-05	0.002303013	0.007124118	-1.024534e-05	-7.250671e-06	-0.003061687	-0.03060623
1.4e+08	-0.003859716	-0.03320261	-3.004655e-05	-1.175258e-05	0.002767942	0.007538271	-4.309718e-07	2.431754e-05
	-3.004655e-05	-1.175258e-05	-0.004431728	-0.03300637	-1.281087e-06	-7.538503e-07	0.002632569	0.007577344
	0.002767942	0.007538271	-1.281087e-06	-7.538503e-07	-0.004098617	-0.03312444	-1.074414e-05	-7.413847e-06
	-4.309718e-07	2.431754e-05	0.002632568	0.007577345	-1.074414e-05	-7.413847e-06	-0.004430487	-0.03291894
1.5e+08	-0.005287998	-0.03549398	-3.029767e-05	-1.157479e-05	0.003133708	0.007961993	6.262799e-06	2.375583e-05
	-3.029767e-05	-1.157479e-05	-0.005914491	-0.0352667	-1.31211e-06	-8.057136e-07	0.002979956	0.008012113
	0.003133708	0.007961993	-1.31211e-06	-8.057136e-07	-0.005519524	-0.03541431	-1.127048e-05	-7.529281e-06
	6.262799e-06	2.375583e-05	0.002979955	0.008012114	-1.127048e-05	-7.529281e-06	-0.00591724	-0.03517322
1.6e+08	-0.006827426	-0.03772587	-3.058664e-05	-1.137826e-05	0.003517113	0.008365126	1.310822e-05	2.291361e-05
	-3.058664e-05	-1.137826e-05	-0.007511158	-0.03746331	-1.346156e-06	-8.528887e-07	0.003344201	0.008427612
	0.003517113	0.008365126	-1.346156e-06	-8.528887e-07	-0.00705222	-0.03764554	-1.18198e-05	-7.59463e-06
	1.310822e-05	2.291361e-05	0.003344201	0.008427612	-1.18198e-05	-7.59463e-06	-0.007518327	-0.03736347
1.7e+08	-0.008474549	-0.03989317	-3.0907e-05	-1.11539e-05	0.003917049	0.008746809	2.007766e-05	2.173248e-05
	-3.0907e-05	-1.11539e-05	-0.009218013	-0.03959091	-1.383029e-06	-8.957655e-07	0.003724281	0.008823058
	0.003917049	0.008746809	-1.383029e-06	-8.957655e-07	-0.008693227	-0.03981286	-1.238756e-05	-7.608283e-06
	2.007766e-05	2.173248e-05	0.003724281	0.008823058	-1.238756e-05	-7.608283e-06	-0.009230013	-0.03948438
1.8e+08	-0.01022581	-0.04199104	-3.125289e-05	-1.08957e-05	0.004332355	0.00910623	2.714232e-05	2.016789e-05
	-3.125289e-05	-1.08957e-05	-0.01103122	-0.04164446	-1.422543e-06	-9.346164e-07	0.004119125	0.00919771
	0.004332355	0.00910623	-1.422543e-06	-9.346164e-07	-0.01043897	-0.04191128	-1.296927e-05	-7.569139e-06
	2.714232e-05	2.016789e-05	0.004119125	0.00919771	-1.296927e-05	-7.569139e-06	-0.01104843	-0.04153085
1.9e+08	-0.01207752	-0.04401484	-3.161878e-05	-1.059955e-05	0.004761825	0.009442639	3.427194e-05	1.818479e-05
	-3.161878e-05	-1.059955e-05	-0.01294682	-0.04361915	-1.464517e-06	-9.696355e-07	0.004527621	0.009550878
	0.004761825	0.009442639	-1.464517e-06	-9.696355e-07	-0.01228574	-0.04393608	-1.356044e-05	-7.476506e-06
	3.427194e-05	1.818479e-05	0.004527621	0.009550878	-1.356044e-05	-7.476506e-06	-0.0129696	-0.04349804
2e+08	-0.01402591	-0.04596017	-3.199942e-05	-1.026268e-05	0.005204214	0.009755344	4.143496e-05	1.575532e-05
	-3.199942e-05	-1.026268e-05	-0.0149607	-0.04551042	-1.508773e-06	-1.000963e-06	0.004948619	0.009881925
	0.005204214	0.009755344	-1.508773e-06	-1.000963e-06	-0.01422975	-0.04588275	-1.415659e-05	-7.330055e-06
	4.143496e-05	1.575532e-05	0.004948619	0.009881925	-1.415659e-05	-7.330055e-06	-0.01498938	-0.04538137
2.1e+08	-0.01606705	-0.04782286	-3.238978e-05	-9.883234e-06	0.005658238	0.01004372	4.859846e-05	1.285735e-05
	-3.238978e-05	-9.883234e-06	-0.01706867	-0.04731396	-1.555136e-06	-1.028702e-06	0.005380933	0.01019027
	0.005658238	0.01004372	-1.555136e-06	-1.028702e-06	-0.01626707	-0.04774706	-1.475333e-05	-7.129794e-06
	4.859846e-05	1.285735e-05	0.005380933	0.01019027	-1.475333e-05	-7.129794e-06	-0.01710353	-0.04717649
2.2e+08	-0.01819693	-0.04959894	-3.278501e-05	-9.460101e-06	0.006122583	0.01030721	5.572848e-05	9.473642e-06
	-3.278501e-05	-9.460101e-06	-0.01926636	-0.04902567	-1.603431e-06	-1.052928e-06	0.005823351	0.01047541
	0.006122583	0.01030721	-1.603431e-06	-1.052928e-06	-0.01839365	-0.04952496	-1.534628e-05	-6.876055e-06
	5.572848e-05	9.473642e-06	0.005823351	0.01047541	-1.534628e-05	-6.876055e-06	-0.01930767	-0.04887926
2.3e+08	-0.02041141	-0.05128465	-3.318043e-05	-8.9928e-06	0.006595906	0.01054533	6.279038e-05	5.591149e-06
	-3.318043e-05	-8.9928e-06	-0.02154932	-0.05064168	-1.653486e-06	-1.073699e-06	0.006274632	0.01073687
	0.006595906	0.01054533	-1.653486e-06	-1.073699e-06	-0.02060535	-0.05121265	-1.593115e-05	-6.569491e-06
	6.279038e-05	5.591149e-06	0.006274632	0.01073687	-1.593115e-05	-6.569491e-06	-0.0215973	-0.05048581
2.4e+08	-0.02270624	-0.05287646	-3.357154e-05	-8.481305e-06	0.007076839	0.01075767	6.974844e-05	1.200833e-06
	-3.357154e-05	-8.481305e-06	-0.02391296	-0.05215836	-1.705127e-06	-1.09106e-06	0.006733515	0.01097428
	0.007076839	0.01075767	-1.705127e-06	-1.09106e-06	-0.0228979	-0.05280652	-1.650375e-05	-6.211048e-06
	6.974844e-05	1.200833e-06	0.006733515	0.01097428	-1.650375e-05	-6.211048e-06	-0.02396781	-0.05199248
2.5e+08	-0.02507708	-0.05437103	-3.3954e-05	-7.926062e-06	0.007563996	0.01094387	7.656669e-05	-3.702855e-06
	-3.3954e-05	-7.926062e-06	-0.0263526	-0.05357231	-1.758183e-06	-1.10505e-06	0.007198721	0.01118731
	0.007563996	0.01094387	-1.758183e-06	-1.10505e-06	-0.02526693	-0.05430321	-1.706e-05	-5.801976e-06
	7.656669e-05	-3.702855e-06	0.007198721	0.01118731	-1.706e-05	-5.801976e-06	-0.02641446	-0.05339584
2.6e+08	-0.02751947	-0.05576523	-3.432364e-05	-7.327884e-06	0.008055974	0.01110368	8.320867e-05	-9.12199e-06
	-3.432364e-05	-7.327884e-06	-0.02886345	-0.05488035	-1.812482e-06	-1.115701e-06	0.007668956	0.01137571
	0.008055974	0.01110368	-1.812482e-06	-1.115701e-06	-0.02770799	-0.05569953	-1.759592e-05	-5.343805e-06
	8.320867e-05	-9.12199e-06	0.007668956	0.01137571	-1.759592e-05	-5.343805e-06	-0.02893244	-0.0546927
2.7e+08	-0.03002888	-0.05705615	-3.467648e-05	-6.687958e-06	0.008551361	0.0112369	8.963822e-05	-1.505567e-05
	-3.467648e-05	-6.687958e-06	-0.03144061	-0.05607954	-1.867852e-06	-1.123046e-06	0.008142917	0.01153929
	0.008551361	0.0112369	-1.867852e-06	-1.123046e-06	-0.0302165	-0.05699254	-1.810773e-05	-4.838351e-06
	8.963822e-05	-1.505567e-05	0.008142917	0.01153929	-1.810773e-05	-4.838351e-06	-0.0315168	-0.0558801
2.8e+08	-0.03260066	-0.05824108	-3.500874e-05	-6.007766e-06	0.009048737	0.01134341	9.581875e-05	-2.14997e-05
	-3.500874e-05	-6.007766e-06	-0.0340791	-0.05716716	-1.924125e-06	-1.127119e-06	0.008619293	0.01167794
	0.009048737	0.01134341	-1.924125e-06	-1.127119e-06	-0.03278782	-0.05817949	-1.859176e-05	-4.287682e-06
	9.581875e-05	-2.14997e-05	0.008619293	0.01167794	-1.859176e-05	-4.287682e-06	-0.03416254	-0.05695531
2.9e+08	-0.03523012	-0.05931754	-3.531681e-05	-5.289078e-06	0.009546678	0.01142316	0.000101714	-2.844692e-05
	-3.531681e-05	-5.289078e-06	-0.03677387	-0.05814072	-1.981132e-06	-1.127954e-06	0.009096774	0.0117916
	0.009546678	0.01142316	-1.981132e-06	-1.127954e-06	-0.03541722	-0.05925787	-1.904457e-05	-3.694117e-06
	0.000101714	-2.844692e-05	0.009096774	0.0117916	-1.904457e-05	-3.694117e-06	-0.03686454	-0.05791583
3e+08	-0.03791245	-0.06028324	-3.559732e-05	-4.533952e-06	0.01004376	0.01147619	0.0001072887	-3.588774e-05
	-3.559732e-05	-4.533952e-06	-0.03951978	-0.05899798	-2.038706e-06	-1.125592e-06	0.009574047	0.0118803
	0.01004376	0.01147619	-2.038706e-06	-1.125592e-06	-0.03809989	-0.06022535	-1.94629e-05	-3.060221e-06
	0.0001072887	-3.588774e-05	0.009574047	0.0118803	-1.94629e-05	-3.060221e-06	-0.03961765	-0.05875942
3.1e+08	-0.04064281	-0.06113612	-3.584711e-05	-3.744657e-06	0.01053858	0.0115026	0.0001125071	-4.380924e-05
	-3.584711e-05	-3.744657e-06	-0.04231162	-0.05973691	-2.096684e-06	-1.120076e-06	0.01004981	0.01194412
	0.01053858	0.0115026	-2.096684e-06	-1.120076e-06	-0.04083096	-0.06107984	-1.984371e-05	-2.388762e-06
	0.0001125071	-4.380924e-05	0.01004981	0.01194412	-1.984371e-05	-2.388762e-06	-0.0424166	-0.05948403
3.2e+08	-0.04341629	-0.06187432	-3.606322e-05	-2.923694e-06	0.01102971	0.01150257	0.0001173348	-5.219588e-05
	-3.606322e-05	-2.923694e-06	-0.04514414	-0.06035573	-2.154906e-06	-1.111456e-06	0.01052276	0.01198323
	0.01102971	0.01150257	-2.154906e-06	-1.111456e-06	-0.0436055	-0.06181947	-2.018418e-05	-1.682718e-06
	0.0001173348	-5.219588e-05	0.01052276	0.01198323	-2.018418e-05	-1.682718e-06	-0.04525611	-0.06008789
3.3e+08	-0.04622792	-0.06249621	-3.624303e-05	-2.073796e-06	0.01151578	0.01147636	0.0001217432	-6.103408e-05
	-3.624303e-05	-2.073796e-06	-0.04801203	-0.06085289	-2.213214e-06	-1.099788e-06	0.01099162	0.01199783
	0.01151578	0.01147636	-2.213214e-06	-1.099788e-06	-0.04641852	-0.06244256	-2.048179e-05	-9.452854e-07
	0.0001217432	-6.103408e-05	0.01099162	0.01199783	-2.048179e-05	-9.452854e-07	-0.04813083	-0.06056944
3.4e+08	-0.0490727	-0.06300036	-3.636025e-05	-1.187212e-06	0.01199539	0.01142429	0.0001237388	-6.85972e-05
	-3.636025e-05	-1.187212e-06	-0.05090994	-0.06122707	-2.271438e-06	-1.08541e-06	0.01145512	0.01198823
	0.01199539	0.01142429	-2.271438e-06	-1.08541e-06	-0.04926499	-0.06294767	-2.070936e-05	-1.697877e-07
	0.0001237388	-6.85972e-05	0.01145512	0.01198823	-2.070936e-05	-1.697877e-07	-0.05103537	-0.06092737
3.5e+08	-0.05194558	-0.06338557	-3.643131e-05	-2.772355e-07	0.0124672	0.01134676	0.000125056	-7.624201e-05
	-3.643131e-05	-2.772355e-07	-0.0538325	-0.06147719	-2.329473e-06	-1.068188e-06	0.011912	0.01195477
	0.0124672	0.01134676	-2.329473e-06	-1.068188e-06	-0.05213985	-0.06333358	-2.088431e-05	6.303946e-07
	0.000125056	-7.624201e-05	0.011912	0.01195477	-2.088431e-05	6.303946e-07	-0.05396432	-0.06116059
3.6e+08	-0.05484149	-0.06365085	-3.645779e-05	6.511784e-07	0.01292988	0.01124422	0.0001259645	-8.419581e-05
	-3.645779e-05	6.511784e-07	-0.05677432	-0.06160239	-2.387189e-06	-1.048157e-06	0.01236105	0.01189787
	0.01292988	0.01124422	-2.387189e-06	-1.048157e-06	-0.05503801	-0.06359926	-2.100855e-05	1.449938e-06
	0.0001259645	-8.419581e-05	0.01236105	0.01189787	-2.100855e-05	1.449938e-06	-0.05691223	-0.06126827
3.7e+08	-0.05775534	-0.06379542	-3.643813e-05	1.594622e-06	0.01338212	0.01111722	0.0001264368	-9.243451e-05
	-3.643813e-05	1.594622e-06	-0.05972997	-0.06160208	-2.444456e-06	-1.025398e-06	0.01280106	0.011818
	0.01338212	0.01111722	-2.444456e-06	-1.025398e-06	-0.05795435	-0.06374393	-2.108069e-05	2.284998e-06
	0.0001264368	-9.243451e-05	0.01280106	0.011818	-2.108069e-05	2.284998e-06	-0.05987367	-0.0612498
3.8e+08	-0.06068203	-0.06381871	-3.637101e-05	2.5496e-06	0.01382266	0.01096634	0.0001264471	-0.0001009321
	-3.637101e-05	2.5496e-06	-0.06269404	-0.06147586	-2.501154e-06	-9.999983e-07	0.01323085	0.01171571
	0.01382266	0.01096634	-2.501154e-06	-9.999983e-07	-0.06088374	-0.063767	-2.109963e-05	3.131652e-06
	0.0001264471	-0.0001009321	0.01323085	0.01171571	-2.109963e-05	3.131652e-06	-0.06284316	-0.0611048
3.9e+08	-0.06361646	-0.06372037	-3.625541e-05	3.512557e-06	0.01425025	0.01079226	0.0001259711	-0.0001096606
	-3.625541e-05	3.512557e-06	-0.06566114	-0.06122358	-2.557169e-06	-9.72051e-07	0.0136493	0.0115916
	0.01425025	0.01079226	-2.557169e-06	-9.72051e-07	-0.06382106	-0.0636681	-2.106455e-05	3.985928e-06
	0.0001259711	-0.0001096606	0.0136493	0.0115916	-2.106455e-05	3.985928e-06	-0.06581528	-0.06083314
4e+08	-0.06655352	-0.06350028	-3.609058e-05	4.479884e-06	0.01466369	0.0105957	0.0001249867	-0.0001185904
	-3.609058e-05	4.479884e-06	-0.06862586	-0.06084533	-2.612396e-06	-9.416545e-07	0.01405529	0.0114463
	0.01466369	0.0105957	-2.612396e-06	-9.416545e-07	-0.06676119	-0.0634471	-2.097494e-05	4.843812e-06
	0.0001249867	-0.0001185904	0.01405529	0.0114463	-2.097494e-05	4.843812e-06	-0.06878457	-0.06043491
4.1e+08	-0.06948814	-0.0631585	-3.587603e-05	5.447953e-06	0.01506184	0.01037744	0.0001234736	-0.0001276904
	-3.587603e-05	5.447953e-06	-0.07158284	-0.0603414	-2.666742e-06	-9.08911e-07	0.01444776	0.01128053
	0.01506184	0.01037744	-2.666742e-06	-9.08911e-07	-0.06969901	-0.06310404	-2.083059e-05	5.701284e-06
	0.0001234736	-0.0001276904	0.01444776	0.01128053	-2.083059e-05	5.701284e-06	-0.07174565	-0.05991044
4.2e+08	-0.07241523	-0.06269532	-3.561157e-05	6.413142e-06	0.01544357	0.01013833	0.0001214135	-0.0001369279
	-3.561157e-05	6.413142e-06	-0.07452674	-0.05971234	-2.72012e-06	-8.739256e-07	0.01482567	0.01109505
	0.01544357	0.01013833	-2.72012e-06	-8.739256e-07	-0.07262943	-0.0626392	-2.063157e-05	6.554336e-06
	0.0001214135	-0.0001369279	0.01482567	0.01109505	-2.063157e-05	6.554336e-06	-0.07469314	-0.05926027
4.3e+08	-0.07532978	-0.06211124	-3.529727e-05	7.371834e-06	0.01580783	0.009879251	0.0001187905	-0.0001462691
	-3.529727e-05	7.371834e-06	-0.07745227	-0.0589589	-2.772458e-06	-8.368071e-07	0.01518805	0.01089067
	0.01580783	0.009879251	-2.772458e-06	-8.368071e-07	-0.07554739	-0.06205306	-2.037826e-05	7.398986e-06
	0.0001187905	-0.0001462691	0.01518805	0.01089067	-2.037826e-05	7.398986e-06	-0.07762171	-0.05848518
4.4e+08	-0.07822678	-0.06140694	-3.493347e-05	8.320446e-06	0.01615358	0.009601161	0.0001155908	-0.0001556791
	-3.493347e-05	8.320446e-06	-0.08035419	-0.05808205	-2.823691e-06	-7.976664e-07	0.01553394	0.01066823
	0.01615358	0.009601161	-2.823691e-06	-7.976664e-07	-0.07844787	-0.06134632	-2.00713e-05	8.231304e-06
	0.0001155908	-0.0001556791	0.01553394	0.01066823	-2.00713e-05	8.231304e-06	-0.08052608	-0.05758617
4.5e+08	-0.08110127	-0.06058334	-3.452075e-05	9.255444e-06	0.01647986	0.009305053	0.0001118029	-0.0001651219
	-3.452075e-05	9.255444e-06	-0.08322731	-0.05708299	-2.873766e-06	-7.566164e-07	0.01586246	0.01042864
	0.01647986	0.009305053	-2.873766e-06	-7.566164e-07	-0.08132589	-0.06051986	-1.971165e-05	9.047427e-06
	0.0001118029	-0.0001651219	0.01586246	0.01042864	-1.971165e-05	9.047427e-06	-0.08340104	-0.05656446
4.6e+08	-0.08394837	-0.05964152	-3.405996e-05	1.017337e-05	0.01678577	0.008991971	0.0001074176	-0.0001745606
	-3.405996e-05	1.017337e-05	-0.08606652	-0.05596313	-2.92264e-06	-7.13768e-07	0.01617276	0.01017284
	0.01678577	0.008991971	-2.92264e-06	-7.13768e-07	-0.08417651	-0.05957478	-1.93005e-05	9.843589e-06
	0.0001074176	-0.0001745606	0.01617276	0.01017284	-1.93005e-05	9.843589e-06	-0.08624143	-0.05542149
4.7e+08	-0.08676321	-0.0585828	-3.35522e-05	1.107085e-05	0.01707043	0.008663002	0.0001024281	-0.000183958
	-3.35522e-05	1.107085e-05	-0.08886678	-0.05472409	-2.970283e-06	-6.692348e-07	0.01646403	0.009901807
