!$
! Info: Touchstone file created by Circ.  Input file=Tx_2in_Rx_100ohms_TxVia_60mils_RxVia_70mils.circ
!$
# Hz S RI R 50
0	0.00223387	5.233827e-26	1.372631e-09	3.377225e-28	3.076957e-05	4.310644e-24	1.238546e-09	1.411702e-28
	1.372639e-09	3.377266e-28	0.002229204	5.827351e-26	9.46601e-10	4.776061e-28	3.097381e-05	5.307954e-24
	3.17529e-05	4.386211e-24	9.465896e-10	4.775809e-28	0.002248156	5.020578e-26	-3.314546e-09	4.556169e-25
	1.238544e-09	1.410429e-28	3.124381e-05	5.330717e-24	-3.314133e-09	4.555663e-25	0.002243827	5.798133e-26
1e+07	0.0029681	0.001852358	2.253169e-09	3.920957e-09	5.524225e-05	0.0006076605	-4.918624e-09	3.06077e-08
	2.253169e-09	3.920957e-09	0.003178782	0.001815658	1.511904e-09	2.757832e-09	0.0001262606	0.0006234938
	5.525162e-05	0.0006076283	1.511904e-09	2.757832e-09	0.003102046	0.001808132	-7.849686e-09	1.720325e-08
	-4.918623e-09	3.06077e-08	0.0001262627	0.0006234913	-7.849686e-09	1.720325e-08	0.003162521	0.001823956
2e+07	0.003840598	0.003078722	3.11515e-09	7.292457e-09	0.0001017417	0.001216668	9.830468e-09	2.594619e-08
	3.11515e-09	7.292457e-09	0.00396793	0.002938302	2.167391e-09	5.168777e-09	0.0001399432	0.001271226
	0.0001017153	0.001216667	2.167391e-09	5.168777e-09	0.003907021	0.002960413	-5.058512e-09	5.698989e-09
	9.830468e-09	2.594619e-08	0.0001399396	0.001271227	-5.058512e-09	5.69899e-09	0.00396004	0.002965109
3e+07	0.004562907	0.00395173	4.377664e-09	1.000869e-08	0.0001762231	0.001813486	1.487281e-08	3.36464e-08
	4.377664e-09	1.000869e-08	0.004621989	0.003779356	2.767177e-09	7.132406e-09	0.000187861	0.001880428
	0.0001762207	0.00181349	2.767177e-09	7.132406e-09	0.004577933	0.003812755	4.399417e-09	1.015713e-08
	1.487281e-08	3.36464e-08	0.0001878607	0.00188043	4.399417e-09	1.015713e-08	0.004621274	0.003816974
4e+07	0.005222124	0.004686938	5.700467e-09	1.274609e-08	0.0002783057	0.002402696	1.962723e-08	4.239942e-08
	5.700467e-09	1.274609e-08	0.005219471	0.004501885	3.559055e-09	9.157808e-09	0.0002717232	0.00247531
	0.0002783052	0.002402692	3.559055e-09	9.157808e-09	0.005194803	0.00454237	6.139725e-09	1.356161e-08
	1.962723e-08	4.239942e-08	0.0002717239	0.002475311	6.139725e-09	1.356161e-08	0.005225747	0.004547898
5e+07	0.005849159	0.005332325	7.236649e-09	1.539753e-08	0.0004074563	0.002983938	2.482758e-08	5.11325e-08
	7.236649e-09	1.539753e-08	0.005788172	0.005146444	4.430678e-09	1.111813e-08	0.0004204138	0.003054522
	0.0004074538	0.002983936	4.430678e-09	1.111813e-08	0.005785889	0.005190888	7.674033e-09	1.618333e-08
	2.482758e-08	5.11325e-08	0.0004204147	0.003054522	7.674033e-09	1.618333e-08	0.005801167	0.005199417
6e+07	0.006458972	0.005909345	8.99295e-09	1.792025e-08	0.0005630813	0.003556393	3.067908e-08	5.948875e-08
	8.99295e-09	1.792025e-08	0.006342228	0.005731799	5.405832e-09	1.299714e-08	0.0005914752	0.003621799
	0.000563083	0.003556396	5.405832e-09	1.299714e-08	0.006364925	0.005777331	9.391586e-09	1.861302e-08
	3.067908e-08	5.948875e-08	0.0005914765	0.003621799	9.391586e-09	1.861302e-08	0.006361857	0.005790692
7e+07	0.007059669	0.006429474	1.095391e-08	2.028278e-08	0.0007480294	0.00411856	3.722134e-08	6.729372e-08
	1.095391e-08	2.028278e-08	0.006889215	0.006267976	6.489078e-09	1.47872e-08	0.0007848111	0.004176847
	0.0007480381	0.004118565	6.489078e-09	1.47872e-08	0.006939368	0.006312096	1.134687e-08	2.094114e-08
	3.722134e-08	6.729372e-08	0.0007848129	0.004176847	1.134687e-08	2.094114e-08	0.006915447	0.006331784
8e+07	0.00765576	0.006899583	1.309695e-08	2.245853e-08	0.0009589211	0.004669794	4.442968e-08	7.443561e-08
	1.309695e-08	2.245853e-08	0.007433191	0.006761531	7.678338e-09	1.647969e-08	0.001000116	0.004718908
	0.000958934	0.004669797	7.678338e-09	1.647969e-08	0.007513424	0.006801832	1.355618e-08	2.317331e-08
	4.442968e-08	7.443561e-08	0.001000118	0.004718907	1.355618e-08	2.317331e-08	0.007465892	0.006829232
9e+07	0.008249705	0.007323924	1.539814e-08	2.442706e-08	0.00119438	0.005209394	5.224944e-08	8.083234e-08
	1.539814e-08	2.442706e-08	0.007976577	0.007217908	8.968949e-09	1.806772e-08	0.001236872	0.005246773
	0.00119439	0.005209394	8.968949e-09	1.806772e-08	0.008089644	0.007251711	1.602916e-08	2.52993e-08
	5.224944e-08	8.083234e-08	0.001236874	0.005246772	1.602916e-08	2.52993e-08	0.008015462	0.007288461
1e+08	0.008842232	0.007703218	1.783347e-08	2.616966e-08	0.001454208	0.005737691	6.061084e-08	8.642049e-08
	1.783347e-08	2.616966e-08	0.008522201	0.007645898	1.035157e-08	1.954444e-08	0.001493933	0.00575728
	0.001454208	0.00573769	1.035157e-08	1.954444e-08	0.008670726	0.007669623	1.877621e-08	2.730176e-08
	6.061084e-08	8.642049e-08	0.001493933	0.00575728	1.877621e-08	2.730176e-08	0.008566742	0.007717841
1.1e+08	0.009425769	0.008047665	2.048866e-08	2.781354e-08	0.0017424	0.006249619	6.953324e-08	9.171801e-08
	2.048866e-08	2.781354e-08	0.009090254	0.008032946	1.181545e-08	2.09498e-08	0.001763006	0.006255931
	0.0017424	0.006249619	1.181545e-08	2.09498e-08	0.009273821	0.008044576	2.157446e-08	2.899829e-08
	6.953324e-08	9.171801e-08	0.001763004	0.006255932	2.157446e-08	2.899829e-08	0.009138349	0.008106431
1.2e+08	0.01001253	0.008360916	2.330434e-08	2.925982e-08	0.002051867	0.006743054	7.898136e-08	9.635797e-08
	2.330434e-08	2.925982e-08	0.009657049	0.008376932	1.338093e-08	2.224279e-08	0.002053395	0.006743519
	0.002051867	0.006743054	1.338093e-08	2.224279e-08	0.009878149	0.008374674	2.452731e-08	3.049482e-08
	7.898136e-08	9.635797e-08	0.002053393	0.006743519	2.452731e-08	3.049482e-08	0.009708819	0.008452506
1.3e+08	0.01060206	0.008641242	2.626105e-08	3.050591e-08	0.002382123	0.007218614	8.890591e-08	1.003209e-07
	2.626105e-08	3.050591e-08	0.01022394	0.0086851	1.502374e-08	2.342665e-08	0.002363934	0.007216619
	0.002382123	0.007218614	1.502374e-08	2.342665e-08	0.01048476	0.008666459	2.762799e-08	3.178104e-08
	8.890591e-08	1.003209e-07	0.002363933	0.00721662	2.762799e-08	3.178104e-08	0.01027938	0.008762738
1.4e+08	0.01119413	0.00888898	2.934844e-08	3.154336e-08	0.002732381	0.007675677	9.927036e-08	1.035786e-07
	2.934844e-08	3.154336e-08	0.01079113	0.008959818	1.673858e-08	2.449696e-08	0.002693759	0.00767378
	0.002732381	0.007675677	1.673858e-08	2.449696e-08	0.01109365	0.008922073	3.08657e-08	3.284801e-08
	9.927036e-08	1.035786e-07	0.002693758	0.007673781	3.08657e-08	3.284801e-08	0.01085019	0.009039388
1.5e+08	0.01178834	0.00910461	3.255528e-08	3.236407e-08	0.003101767	0.008113463	1.100357e-07	1.061042e-07
	3.255528e-08	3.236407e-08	0.0113585	0.009202587	1.851952e-08	2.544949e-08	0.003042002	0.008113862
	0.003101767	0.008113463	1.851952e-08	2.544949e-08	0.01170454	0.009142857	3.422851e-08	3.368725e-08
	1.100357e-07	1.061042e-07	0.003042001	0.008113863	3.422851e-08	3.368725e-08	0.0114211	0.009283924
1.6e+08	0.01238421	0.009288597	3.586955e-08	3.296039e-08	0.003489344	0.008531156	1.211608e-07	1.078722e-07
	3.586955e-08	3.296039e-08	0.01192574	0.009414508	2.036024e-08	2.628022e-08	0.003407765	0.008535867
	0.003489343	0.008531156	2.036024e-08	2.628022e-08	0.01231696	0.009329765	3.770371e-08	3.429078e-08
	1.211608e-07	1.078722e-07	0.003407765	0.008535868	3.770371e-08	3.429078e-08	0.0119918	0.009497429
1.7e+08	0.01298114	0.009441351	3.927856e-08	3.332521e-08	0.003894117	0.008927949	1.326025e-07	1.088592e-07
	3.927856e-08	3.332521e-08	0.01249243	0.009596444	2.225407e-08	2.698535e-08	0.003790111	0.008938884
	0.003894117	0.008927949	2.225407e-08	2.698535e-08	0.01293032	0.00948353	4.127793e-08	3.465115e-08
	1.326025e-07	1.088592e-07	0.003790111	0.008938885	4.127793e-08	3.465115e-08	0.01256186	0.009680763
1.8e+08	0.01357845	0.009563242	4.276907e-08	3.345201e-08	0.004315046	0.009303057	1.44316e-07	1.090434e-07
	4.276907e-08	3.345201e-08	0.01305806	0.0097491	2.419397e-08	2.756138e-08	0.004188062	0.009322074
	0.004315046	0.009303057	2.419397e-08	2.756138e-08	0.01354392	0.00960474	4.49372e-08	3.476157e-08
	1.44316e-07	1.090434e-07	0.004188062	0.009322074	4.49372e-08	3.476157e-08	0.01313075	0.009834636
1.9e+08	0.01417538	0.0096546	4.632768e-08	3.333442e-08	0.004751043	0.009655733	1.562549e-07	1.084057e-07
	4.632768e-08	3.333442e-08	0.01362205	0.009873082	2.617299e-08	2.800478e-08	0.004600602	0.009684659
	0.004751043	0.009655733	2.617299e-08	2.800478e-08	0.01415699	0.00969389	4.866741e-08	3.461542e-08
	1.562549e-07	1.084057e-07	0.004600602	0.009684659	4.866741e-08	3.461542e-08	0.01369786	0.009959656
2e+08	0.01477112	0.009715734	4.994006e-08	3.296735e-08	0.005200978	0.009985277	1.683711e-07	1.069288e-07
	4.994006e-08	3.296735e-08	0.01418375	0.009968915	2.818342e-08	2.831279e-08	0.00502668	0.01002592
	0.005200978	0.009985277	2.818342e-08	2.831279e-08	0.0147687	0.009751408	5.245346e-08	3.420743e-08
	1.683711e-07	1.069288e-07	0.00502668	0.01002592	5.245346e-08	3.420743e-08	0.01426256	0.01005636
2.1e+08	0.0153648	0.009746934	5.359131e-08	3.234675e-08	0.005663685	0.01029103	1.806157e-07	1.045983e-07
	5.359131e-08	3.234675e-08	0.01474246	0.01003708	3.021721e-08	2.848322e-08	0.005465209	0.0103452
	0.005663684	0.01029103	3.021721e-08	2.848322e-08	0.01537815	0.009777681	5.627971e-08	3.353336e-08
	1.806157e-07	1.045983e-07	0.005465209	0.0103452	5.627971e-08	3.353336e-08	0.01482414	0.01012523
2.2e+08	0.01595551	0.009748491	5.726651e-08	3.146899e-08	0.00613796	0.0105724	1.929383e-07	1.014023e-07
	5.726651e-08	3.146899e-08	0.01529745	0.01007801	3.226637e-08	2.851404e-08	0.005915072	0.0106419
	0.00613796	0.0105724	3.226637e-08	2.851404e-08	0.01598439	0.009773081	6.013048e-08	3.258946e-08
	1.929383e-07	1.014023e-07	0.005915072	0.0106419	6.013048e-08	3.258946e-08	0.01538185	0.01016671
2.3e+08	0.0165423	0.009720707	6.095046e-08	3.033122e-08	0.006622571	0.01082884	2.05288e-07	9.733142e-08
	6.095046e-08	3.033122e-08	0.01584795	0.01009215	3.432272e-08	2.840365e-08	0.006375124	0.01091547
	0.006622571	0.01082884	3.432272e-08	2.840365e-08	0.01658644	0.009737974	6.39898e-08	3.137282e-08
	2.05288e-07	9.733142e-08	0.006375124	0.01091547	6.39898e-08	3.137282e-08	0.01593493	0.01018125
2.4e+08	0.01712419	0.00966389	6.462774e-08	2.893146e-08	0.007116256	0.01105986	2.176128e-07	9.237923e-08
	6.462774e-08	2.893146e-08	0.01639317	0.0100799	3.637795e-08	2.815091e-08	0.006844193	0.01116543
	0.007116256	0.01105986	3.637795e-08	2.815091e-08	0.0171833	0.00967272	6.784146e-08	2.988138e-08
	2.176128e-07	9.237923e-08	0.006844193	0.01116543	6.784146e-08	2.988138e-08	0.01648256	0.01016927
2.5e+08	0.01770018	0.009578373	6.828276e-08	2.726852e-08	0.007617729	0.01126504	2.298604e-07	8.654202e-08
	6.828276e-08	2.726852e-08	0.01693228	0.01004168	3.842364e-08	2.775513e-08	0.007321084	0.01139136
	0.007617729	0.01126504	3.842364e-08	2.775513e-08	0.01777392	0.009577706	7.166909e-08	2.811399e-08
	2.298604e-07	8.654202e-08	0.007321084	0.01139136	7.166909e-08	2.811399e-08	0.01702393	0.01013119
2.6e+08	0.01826923	0.009464507	7.189981e-08	2.534211e-08	0.008125681	0.01144401	2.419781e-07	7.981895e-08
	7.189981e-08	2.534211e-08	0.01746445	0.009977934	4.045132e-08	2.721607e-08	0.007804581	0.01159288
	0.008125681	0.01144401	4.045132e-08	2.721607e-08	0.01835724	0.009453327	7.545619e-08	2.607039e-08
	2.419781e-07	7.981895e-08	0.007804581	0.01159288	7.545619e-08	2.607039e-08	0.01755819	0.01006746
2.7e+08	0.01883032	0.009322679	7.546311e-08	2.315276e-08	0.008638785	0.01159647	2.539127e-07	7.221202e-08
	7.546311e-08	2.315276e-08	0.01798883	0.009889088	4.245242e-08	2.653398e-08	0.008293455	0.01176969
	0.008638785	0.01159647	4.245242e-08	2.653398e-08	0.01893219	0.009300008	7.91862e-08	2.375121e-08
	2.539127e-07	7.221202e-08	0.008293454	0.01176969	7.91862e-08	2.375121e-08	0.0180845	0.009978522
2.8e+08	0.0193824	0.009153302	7.895687e-08	2.07019e-08	0.009155701	0.01172219	2.656112e-07	6.372617e-08
	7.895687e-08	2.07019e-08	0.01850456	0.0097756	4.441839e-08	2.570955e-08	0.008786457	0.01192155
	0.009155701	0.01172219	4.441839e-08	2.570955e-08	0.0194977	0.009118207	8.284252e-08	2.115802e-08
	2.656112e-07	6.372617e-08	0.008786457	0.01192155	8.284252e-08	2.115802e-08	0.01860198	0.009864844
2.9e+08	0.01992442	0.008956827	8.236531e-08	1.79918e-08	0.009675075	0.011821	2.770206e-07	5.436922e-08
	8.236531e-08	1.79918e-08	0.0190108	0.009637952	4.634067e-08	2.474397e-08	0.009282332	0.01204828
	0.009675075	0.011821	4.634067e-08	2.474397e-08	0.02005267	0.008908409	8.640863e-08	1.829325e-08
	2.770206e-07	5.436922e-08	0.009282332	0.01204828	8.640863e-08	1.829325e-08	0.01910978	0.009726911
3e+08	0.02045532	0.008733739	8.567274e-08	1.502561e-08	0.01019554	0.0118928	2.880883e-07	4.415188e-08
	8.567274e-08	1.502561e-08	0.01950667	0.009476641	4.821074e-08	2.36389e-08	0.009779813	0.01214976
	0.01019554	0.0118928	4.821074e-08	2.36389e-08	0.02059601	0.008671135	8.986805e-08	1.516031e-08
	2.880883e-07	4.415188e-08	0.009779813	0.01214976	8.986805e-08	1.516031e-08	0.01960704	0.009565235
3.1e+08	0.02097405	0.008484566	8.886359e-08	1.180734e-08	0.01071574	0.01193754	2.987618e-07	3.308778e-08
	8.886359e-08	1.180734e-08	0.01999132	0.009292199	5.002014e-08	2.239647e-08	0.01027763	0.01222594
	0.01071574	0.01193754	5.002014e-08	2.239647e-08	0.02112664	0.008406951	9.320447e-08	1.176344e-08
	2.987618e-07	3.308778e-08	0.01027763	0.01222594	9.320447e-08	1.176344e-08	0.02009288	0.009380356
3.2e+08	0.02147957	0.00820987	9.192247e-08	8.341846e-09	0.0112343	0.01195526	3.089894e-07	2.119339e-08
	9.192247e-08	8.341846e-09	0.0204639	0.009085175	5.176049e-08	2.101926e-08	0.01077451	0.01227681
	0.0112343	0.01195526	5.176049e-08	2.101926e-08	0.02164348	0.008116456	9.640173e-08	8.107846e-09
	3.089894e-07	2.119339e-08	0.01077451	0.01227681	9.640173e-08	8.107846e-09	0.02056646	0.009172838
3.3e+08	0.02197084	0.007910259	9.48342e-08	4.63485e-09	0.01174986	0.01194606	3.187202e-07	8.488075e-09
	9.48342e-08	4.63485e-09	0.02092356	0.008856156	5.342352e-08	1.951034e-08	0.01126919	0.01230245
	0.01174986	0.01194606	5.342352e-08	1.951034e-08	0.02214547	0.007800295	9.944393e-08	4.199577e-09
	3.187202e-07	8.488075e-09	0.01126919	0.01230245	9.944393e-08	4.199577e-09	0.02102693	0.008943272
3.4e+08	0.02244685	0.007586379	9.758384e-08	6.928922e-10	0.01226104	0.01191009	3.279038e-07	-5.006029e-09
	9.758384e-08	6.928922e-10	0.02136948	0.008605756	5.500111e-08	1.787323e-08	0.01176039	0.012303
	0.01226104	0.01191009	5.500111e-08	1.787323e-08	0.02263154	0.007459151	1.023154e-07	4.557883e-11
	3.279038e-07	-5.006029e-09	0.01176039	0.012303	1.023154e-07	4.557883e-11	0.02147345	0.008692288
3.5e+08	0.02290659	0.007238921	1.001568e-07	-3.476654e-09	0.01276651	0.0118476	3.364913e-07	-1.926399e-08
	1.001568e-07	-3.476654e-09	0.02180083	0.008334615	5.648528e-08	1.611191e-08	0.01224685	0.01227863
	0.01276651	0.0118476	5.648528e-08	1.611191e-08	0.02310068	0.007093754	1.05001e-07	-4.346344e-09
	3.364913e-07	-1.926399e-08	0.01224685	0.01227863	1.05001e-07	-4.346344e-09	0.02190521	0.008420536
3.6e+08	0.02334907	0.006868614	1.025388e-07	-7.865591e-09	0.01326491	0.01175887	3.444336e-07	-3.425808e-08
	1.025388e-07	-7.865591e-09	0.02221682	0.008043408	5.786758e-08	1.42303e-08	0.01272733	0.01222962
	0.01326491	0.01175887	5.786758e-08	1.42303e-08	0.02355184	0.006704869	1.074849e-07	-8.967671e-09
	3.444336e-07	-3.425808e-08	0.01272733	0.01222962	1.074849e-07	-8.967671e-09	0.0223214	0.008128702
3.7e+08	0.02377332	0.00647623	1.047159e-07	-1.246496e-08	0.01375491	0.01164427	3.516848e-07	-4.995794e-08
	1.047159e-07	-1.246496e-08	0.02261666	0.007732839	5.914092e-08	1.223366e-08	0.01320059	0.01215627
	0.01375491	0.01164427	5.914092e-08	1.223366e-08	0.02398404	0.006293314	1.097532e-07	-1.380877e-08
	3.516848e-07	-4.995794e-08	0.01320059	0.01215627	1.097532e-07	-1.380877e-08	0.02272123	0.007817503
3.8e+08	0.02417841	0.006062582	1.066747e-07	-1.726504e-08	0.01423521	0.01150422	3.581999e-07	-6.633066e-08
	1.066747e-07	-1.726504e-08	0.0229996	0.007403642	6.029811e-08	1.012738e-08	0.0136654	0.01205897
	0.01423521	0.01150422	6.029811e-08	1.012738e-08	0.02439633	0.005859942	1.11792e-07	-1.885932e-08
	3.581999e-07	-6.633066e-08	0.0136654	0.01205897	1.11792e-07	-1.885932e-08	0.02310396	0.007487685
3.9e+08	0.02456343	0.005628527	1.084022e-07	-2.225532e-08	0.01470452	0.01133923	3.639352e-07	-8.334074e-08
	1.084022e-07	-2.225532e-08	0.02336489	0.007056582	6.133206e-08	7.917157e-09	0.01412056	0.01193815
	0.01470452	0.01133923	6.133206e-08	7.917157e-09	0.02478774	0.005405645	1.135876e-07	-2.410825e-08
	3.639352e-07	-8.334074e-08	0.01412056	0.01193815	1.135876e-07	-2.410825e-08	0.02346883	0.007140024
4e+08	0.0249275	0.005174958	1.09886e-07	-2.742458e-08	0.01516158	0.01114984	3.688488e-07	-1.009503e-07
	1.09886e-07	-2.742458e-08	0.02371183	0.006692455	6.223595e-08	5.609089e-09	0.0145649	0.0117943
	0.01516158	0.01114984	6.223595e-08	5.609089e-09	0.02515739	0.004931366	1.151271e-07	-2.954371e-08
	3.688488e-07	-1.009503e-07	0.0145649	0.0117943	1.151271e-07	-2.954371e-08	0.02381515	0.006775328
4.1e+08	0.02526976	0.004702811	1.111141e-07	-3.276091e-08	0.01560513	0.01093668	3.729007e-07	-1.19119e-07
	1.111141e-07	-3.276091e-08	0.02403973	0.006312083	6.300328e-08	3.209663e-09	0.01499725	0.01162799
	0.01560513	0.01093668	6.300328e-08	3.209663e-09	0.0255044	0.004438083	1.16398e-07	-3.515313e-08
	3.729007e-07	-1.19119e-07	0.01499725	0.01162799	1.16398e-07	-3.515313e-08	0.02414222	0.006394434
4.2e+08	0.0255894	0.004213054	1.120751e-07	-3.825171e-08	0.01603399	0.01070043	3.760528e-07	-1.378042e-07
	1.120751e-07	-3.825171e-08	0.02434794	0.005916319	6.362786e-08	7.257396e-10	0.01541649	0.01143982
	0.01603399	0.01070043	6.362786e-08	7.257396e-10	0.02582792	0.003926807	1.173884e-07	-4.092324e-08
	3.760528e-07	-1.378042e-07	0.01541649	0.01143982	1.173884e-07	-4.092324e-08	0.0244494	0.005998203
4.3e+08	0.02588564	0.003706697	1.127583e-07	-4.388372e-08	0.01644696	0.01044181	3.782689e-07	-1.569612e-07
	1.127583e-07	-4.388372e-08	0.02463584	0.00550604	6.410382e-08	-1.835462e-09	0.01582152	0.01123047
	0.01644696	0.01044181	6.410382e-08	-1.835462e-09	0.02612718	0.003398598	1.180872e-07	-4.684009e-08
	3.782689e-07	-1.569612e-07	0.01582152	0.01123047	1.180872e-07	-4.684009e-08	0.02473606	0.00558753
4.4e+08	0.02615775	0.00318478	1.131537e-07	-4.964308e-08	0.01684292	0.01016163	3.795154e-07	-1.765432e-07
	1.131537e-07	-4.964308e-08	0.02490283	0.005082151	6.442567e-08	-4.46638e-09	0.01621127	0.01100064
	0.01684292	0.01016163	6.442567e-08	-4.46638e-09	0.02640141	0.002854541	1.184839e-07	-5.288906e-08
	3.795154e-07	-1.765432e-07	0.01621127	0.01100064	1.184839e-07	-5.288906e-08	0.02500161	0.005163327
4.5e+08	0.02640503	0.002648384	1.132519e-07	-5.551533e-08	0.01722077	0.009860746	3.797608e-07	-1.965013e-07
	1.132519e-07	-5.551533e-08	0.02514836	0.004645582	6.458828e-08	-7.15913e-09	0.01658472	0.01075111
	0.01722077	0.009860746	6.458828e-08	-7.15913e-09	0.0266499	0.002295764	1.185686e-07	-5.905495e-08
	3.797608e-07	-1.965013e-07	0.01658472	0.01075111	1.185686e-07	-5.905495e-08	0.02524552	0.004726541
4.6e+08	0.02662683	0.002098616	1.130443e-07	-6.148539e-08	0.01757943	0.009540056	3.78976e-07	-2.167848e-07
	1.130443e-07	-6.148539e-08	0.02537192	0.004197288	6.458693e-08	-9.905526e-09	0.01694086	0.0104827
	0.01757943	0.009540056	6.458693e-08	-9.905526e-09	0.02687198	0.001723421	1.183327e-07	-6.532187e-08
	3.78976e-07	-2.167848e-07	0.01694086	0.0104827	1.183327e-07	-6.532187e-08	0.02546725	0.004278136
4.7e+08	0.02682253	0.001536614	1.124968e-07	-6.754828e-08	0.01791791	0.009200521	3.771155e-07	-2.373376e-07
	1.124968e-07	-6.754828e-08	0.02557302	0.003738243	6.441744e-08	-1.269617e-08	0.01727875	0.01019629
	0.01791791	0.009200521	6.441744e-08	-1.269617e-08	0.02706704	0.0011387	1.177413e-07	-7.168389e-08
	3.771155e-07	-2.373376e-07	0.01727875	0.01019629	1.177413e-07	-7.168389e-08	0.02566633	0.003819097
4.8e+08	0.02699158	0.000963547	1.11624e-07	-7.367787e-08	0.01823524	0.00884315	3.741717e-07	-2.581074e-07
	1.11624e-07	-7.367787e-08	0.02575121	0.003269442	6.407586e-08	-1.552305e-08	0.01759747	0.009892792
	0.01823524	0.00884315	6.407586e-08	-1.552305e-08	0.02723451	0.0005428202	1.168089e-07	-7.811417e-08
	3.741717e-07	-2.581074e-07	0.01759747	0.009892792	1.168089e-07	-7.811417e-08	0.02584232	0.003350435
4.9e+08	0.02713347	0.0003806108	1.104229e-07	-7.985616e-08	0.01853049	0.008469	3.701263e-07	-2.79039e-07
