!$
! Info: Touchstone file created by Circ.  Input file=Tx_2in_Rx_100ohms_TxVia_60mils_RxVia_70mils.circ
!$
# Hz S RI R 50
0	0.002233456	5.183746e-26	1.678728e-09	7.322464e-28	3.185681e-05	4.275897e-24	-1.381716e-10	6.349765e-26
	1.678742e-09	7.322497e-28	0.002229204	5.827351e-26	4.561684e-09	2.530669e-27	3.097381e-05	5.307954e-24
	3.098821e-05	4.256837e-24	4.561685e-09	2.530672e-27	0.002247417	5.24533e-26	3.768062e-09	7.754634e-28
	-1.378784e-10	6.346174e-26	3.124381e-05	5.330717e-24	3.767979e-09	7.754428e-28	0.002243827	5.798133e-26
1e+07	0.003147686	0.001815672	2.073008e-09	3.895569e-09	0.0001269956	0.000624939	-4.583902e-09	1.13051e-08
	2.073008e-09	3.895569e-09	0.003178782	0.001815658	6.607619e-09	1.354336e-08	0.0001262606	0.0006234938
	0.0001269801	0.0006249526	6.607619e-09	1.354336e-08	0.003195316	0.001825347	-2.766753e-09	1.214788e-08
	-4.583903e-09	1.13051e-08	0.0001262627	0.0006234913	-2.766753e-09	1.214788e-08	0.003162521	0.001823956
2e+07	0.003947479	0.002950595	2.697998e-09	7.155826e-09	0.0001427967	0.001273956	1.509883e-09	4.223467e-09
	2.697998e-09	7.155826e-09	0.00396793	0.002938302	8.892151e-09	2.414713e-08	0.0001399432	0.001271226
	0.0001428034	0.001273965	8.892151e-09	2.414713e-08	0.00399091	0.002956475	-1.900953e-10	6.055648e-09
	1.509883e-09	4.223467e-09	0.0001399396	0.001271227	-1.900952e-10	6.055648e-09	0.00396004	0.002965109
3e+07	0.004613237	0.003795589	3.290761e-09	1.009245e-08	0.0001942058	0.001884203	2.287896e-09	6.669236e-09
	3.290761e-09	1.009245e-08	0.004621989	0.003779356	1.053543e-08	3.42693e-08	0.000187861	0.001880428
	0.0001942068	0.001884204	1.053543e-08	3.42693e-08	0.004654605	0.003804907	3.191943e-09	1.002889e-08
	2.287896e-09	6.669236e-09	0.0001878607	0.00188043	3.191943e-09	1.002889e-08	0.004621274	0.003816974
4e+07	0.005224555	0.004520073	3.880356e-09	1.301231e-08	0.0002829223	0.002479799	2.815021e-09	8.644521e-09
	3.880356e-09	1.301231e-08	0.005219471	0.004501885	1.210577e-08	4.419995e-08	0.0002717232	0.00247531
	0.0002829211	0.0024798	1.210577e-08	4.419995e-08	0.005265331	0.004534229	3.874245e-09	1.315779e-08
	2.815021e-09	8.644521e-09	0.0002717239	0.002475311	3.874245e-09	1.315779e-08	0.005225747	0.004547898
5e+07	0.005809597	0.005164624	4.494781e-09	1.588037e-08	0.0004377897	0.003059334	3.338965e-09	1.054202e-08
	4.494781e-09	1.588037e-08	0.005788172	0.005146444	1.36165e-08	5.395339e-08	0.0004204138	0.003054522
	0.0004377883	0.003059334	1.36165e-08	5.395339e-08	0.005851007	0.005184091	4.411645e-09	1.599129e-08
	3.338965e-09	1.054202e-08	0.0004204147	0.003054522	4.411645e-09	1.599129e-08	0.005801167	0.005199417
6e+07	0.006382118	0.005748097	5.141274e-09	1.86853e-08	0.0006163106	0.003626427	3.898481e-09	1.239167e-08
	5.141274e-09	1.86853e-08	0.006342228	0.005731799	1.509209e-08	6.355368e-08	0.0005914752	0.003621799
	0.0006163082	0.003626427	1.509209e-08	6.355368e-08	0.006425186	0.005772971	4.954168e-09	1.873801e-08
	3.898481e-09	1.239167e-08	0.0005914765	0.003621799	4.954168e-09	1.873801e-08	0.006361857	0.005790692
7e+07	0.006949632	0.006280798	5.815783e-09	2.141646e-08	0.0008183492	0.004180705	4.492826e-09	1.417811e-08
	5.815782e-09	2.141645e-08	0.006889215	0.006267976	1.654127e-08	7.300591e-08	0.0007848111	0.004176847
	0.0008183454	0.004180704	1.654127e-08	7.300591e-08	0.006995234	0.006311021	5.521442e-09	2.143655e-08
	4.492826e-09	1.417811e-08	0.0007848129	0.004176847	5.521442e-09	2.143655e-08	0.006915447	0.006331784
8e+07	0.007516404	0.00676931	6.513397e-09	2.40686e-08	0.00104356	0.004721329	5.118159e-09	1.589721e-08
	6.513396e-09	2.40686e-08	0.007433191	0.006761531	1.797171e-08	8.232648e-08	0.001000116	0.004718908
	0.001043555	0.004721329	1.797171e-08	8.232648e-08	0.007565319	0.006804769	6.121599e-09	2.409978e-08
	5.118159e-09	1.589721e-08	0.001000118	0.004718907	6.121599e-09	2.409978e-08	0.007465892	0.006829232
9e+07	0.008085042	0.007218758	7.233465e-09	2.664779e-08	0.001291385	0.005247014	5.775963e-09	1.756088e-08
	7.233465e-09	2.664779e-08	0.007976577	0.007217908	1.939164e-08	9.153942e-08	0.001236872	0.005246773
	0.001291382	0.005247014	1.939164e-08	9.153942e-08	0.008138001	0.007259383	6.769191e-09	2.674587e-08
	5.775963e-09	1.756088e-08	0.001236874	0.005246772	6.769191e-09	2.674587e-08	0.008015462	0.007288461
1e+08	0.008658268	0.00763701	7.977164e-09	2.915302e-08	0.00156064	0.005754519	6.45765e-09	1.917246e-08
	7.977164e-09	2.915302e-08	0.008522201	0.007645898	2.080492e-08	1.006538e-07	0.001493933	0.00575728
	0.00156064	0.005754519	2.080492e-08	1.006538e-07	0.0087161	0.007683226	7.487076e-09	2.9387e-08
	6.45765e-09	1.917246e-08	0.001493933	0.00575728	7.487076e-09	2.9387e-08	0.008566742	0.007717841
1.1e+08	0.009253336	0.008013166	8.770397e-09	3.16522e-08	0.001842948	0.006249247	7.166098e-09	2.07615e-08
	8.770397e-09	3.16522e-08	0.009090254	0.008032946	2.223308e-08	1.097298e-07	0.001763006	0.006255931
	0.001842948	0.006249247	2.223308e-08	1.097298e-07	0.009318572	0.008063815	8.178295e-09	3.194023e-08
	7.166098e-09	2.07615e-08	0.001763004	0.006255932	8.178295e-09	3.194023e-08	0.009138349	0.008106431
1.2e+08	0.009849547	0.008345149	9.579853e-09	3.410398e-08	0.002147576	0.00673195	7.909043e-09	2.229706e-08
	9.579853e-09	3.410398e-08	0.009657049	0.008376932	2.366098e-08	1.187356e-07	0.002053395	0.006743519
	0.002147576	0.00673195	2.366098e-08	1.187356e-07	0.009922294	0.00839871	8.878352e-09	3.445408e-08
	7.909043e-09	2.229706e-08	0.002053393	0.006743519	8.878352e-09	3.445408e-08	0.009708819	0.008452506
1.3e+08	0.01044795	0.008639498	1.040787e-08	3.650562e-08	0.002473301	0.00719913	8.679628e-09	2.378103e-08
	1.040787e-08	3.650562e-08	0.01022394	0.0086851	2.509114e-08	1.276746e-07	0.002363934	0.007216619
	0.002473301	0.00719913	2.509114e-08	1.276746e-07	0.01052839	0.008695035	9.590115e-09	3.692641e-08
	8.679628e-09	2.378103e-08	0.002363933	0.00721662	9.590115e-09	3.692641e-08	0.01027938	0.008762738
1.4e+08	0.01104859	0.008898342	1.125303e-08	3.885681e-08	0.002819194	0.007649268	9.474416e-09	2.521335e-08
	1.125303e-08	3.885681e-08	0.01079113	0.008959818	2.652452e-08	1.365508e-07	0.002693759	0.00767378
	0.002819194	0.007649268	2.652452e-08	1.365508e-07	0.01113686	0.008955047	1.031276e-08	3.935743e-08
	9.474416e-09	2.521335e-08	0.002693758	0.007673781	1.031276e-08	3.935743e-08	0.01085019	0.009039388
1.5e+08	0.0116512	0.009123007	1.211351e-08	4.115729e-08	0.003184322	0.008081163	1.029055e-08	2.659353e-08
	1.211351e-08	4.115729e-08	0.0113585	0.009202587	2.79617e-08	1.453675e-07	0.003042002	0.008113862
	0.003184322	0.008081163	2.79617e-08	1.453675e-07	0.01174742	0.009180135	1.104506e-08	4.174731e-08
	1.029055e-08	2.659353e-08	0.003042001	0.008113863	1.104506e-08	4.174731e-08	0.0114211	0.009283924
1.6e+08	0.01225534	0.009314441	1.298718e-08	4.340682e-08	0.003567717	0.008493757	1.112523e-08	2.792099e-08
	1.298718e-08	4.340682e-08	0.01192574	0.009414508	2.940282e-08	1.541273e-07	0.003407765	0.008535867
	0.003567717	0.008493757	2.940282e-08	1.541273e-07	0.01235961	0.009371282	1.178546e-08	4.409625e-08
	1.112523e-08	2.792099e-08	0.003407765	0.008535868	1.178545e-08	4.409625e-08	0.0119918	0.009497429
1.7e+08	0.01286046	0.009473363	1.387168e-08	4.560525e-08	0.003968369	0.008886085	1.197557e-08	2.919515e-08
	1.387168e-08	4.560525e-08	0.01249243	0.009596444	3.084771e-08	1.628326e-07	0.003790111	0.008938884
	0.003968369	0.008886085	3.084771e-08	1.628326e-07	0.01297283	0.009529233	1.253222e-08	4.640447e-08
	1.197557e-08	2.919515e-08	0.003790111	0.008938885	1.253222e-08	4.640447e-08	0.01256186	0.009680763
1.8e+08	0.01346589	0.009600351	1.476452e-08	4.775247e-08	0.004385226	0.009257256	1.283864e-08	3.041553e-08
	1.476452e-08	4.775247e-08	0.01305806	0.0097491	3.229587e-08	1.714855e-07	0.004188062	0.009322074
	0.004385226	0.009257256	3.229587e-08	1.714855e-07	0.01358638	0.009654581	1.328346e-08	4.867224e-08
	1.283864e-08	3.041553e-08	0.004188062	0.009322074	1.328346e-08	4.867224e-08	0.01313075	0.009834636
1.9e+08	0.01407088	0.00969589	1.566308e-08	4.98485e-08	0.004817194	0.009606445	1.371142e-08	3.158172e-08
	1.566308e-08	4.98485e-08	0.01362205	0.009873082	3.374658e-08	1.800878e-07	0.004600602	0.009684659
	0.004817194	0.009606445	3.374658e-08	1.800878e-07	0.01419949	0.009747824	1.40372e-08	5.089989e-08
	1.371142e-08	3.158172e-08	0.004600602	0.009684659	1.40372e-08	5.089989e-08	0.01369786	0.009959656
2e+08	0.01467464	0.009760399	1.656463e-08	5.189342e-08	0.00526314	0.009932892	1.459084e-08	3.269344e-08
	1.656463e-08	5.189342e-08	0.01418375	0.009968915	3.519889e-08	1.886413e-07	0.00502668	0.01002592
	0.005263141	0.009932892	3.519889e-08	1.886413e-07	0.01481132	0.009809392	1.479138e-08	5.308784e-08
	1.459084e-08	3.269344e-08	0.00502668	0.01002592	1.479138e-08	5.308784e-08	0.01426256	0.01005636
2.1e+08	0.01527628	0.009794258	1.746637e-08	5.388751e-08	0.005721895	0.0102359	1.547376e-08	3.375056e-08
	1.746637e-08	5.388751e-08	0.01474246	0.01003708	3.665168e-08	1.971477e-07	0.005465209	0.0103452
	0.005721895	0.0102359	3.665168e-08	1.971477e-07	0.01542097	0.009839672	1.554386e-08	5.523662e-08
	1.547376e-08	3.375056e-08	0.005465209	0.0103452	1.554386e-08	5.523662e-08	0.01482414	0.01012523
2.2e+08	0.01587491	0.009797826	1.836546e-08	5.583112e-08	0.006192255	0.01051483	1.635698e-08	3.475311e-08
	1.836546e-08	5.583112e-08	0.01529745	0.01007801	3.810374e-08	2.056088e-07	0.005915072	0.0106419
	0.006192255	0.01051483	3.810374e-08	2.056088e-07	0.01602749	0.009839029	1.62925e-08	5.734683e-08
	1.635698e-08	3.475311e-08	0.005915072	0.0106419	1.62925e-08	5.734683e-08	0.01538185	0.01016671
2.3e+08	0.01646956	0.009771461	1.925901e-08	5.772482e-08	0.006672987	0.01076911	1.723729e-08	3.570129e-08
	1.925901e-08	5.772482e-08	0.01584795	0.01009215	3.955374e-08	2.140261e-07	0.006375124	0.01091547
	0.006672987	0.01076911	3.955374e-08	2.140261e-07	0.0166299	0.009807828	1.703513e-08	5.941923e-08
	1.723729e-08	3.570129e-08	0.006375124	0.01091547	1.703513e-08	5.941923e-08	0.01593493	0.01018125
2.4e+08	0.01705925	0.009715517	2.014412e-08	5.95693e-08	0.007162829	0.01099823	1.811147e-08	3.659545e-08
	2.014412e-08	5.95693e-08	0.01639317	0.0100799	4.100031e-08	2.224015e-07	0.006844193	0.01116543
	0.007162829	0.01099823	4.100031e-08	2.224015e-07	0.01722718	0.00974643	1.776956e-08	6.145468e-08
	1.811147e-08	3.659545e-08	0.006844193	0.01116543	1.776956e-08	6.145468e-08	0.01648256	0.01016927
2.5e+08	0.01764297	0.009630362	2.101789e-08	6.136543e-08	0.007660495	0.01120174	1.897628e-08	3.743616e-08
	2.101789e-08	6.136543e-08	0.01693228	0.01004168	4.244202e-08	2.307367e-07	0.007321084	0.01139136
	0.007660495	0.01120174	4.244202e-08	2.307367e-07	0.01781829	0.009655215	1.849363e-08	6.345416e-08
	1.897628e-08	3.743616e-08	0.007321084	0.01139136	1.849363e-08	6.345416e-08	0.01702393	0.01013119
2.6e+08	0.01821971	0.009516382	2.187744e-08	6.311423e-08	0.008164677	0.01137927	1.982851e-08	3.822412e-08
	2.187744e-08	6.311423e-08	0.01746445	0.009977934	4.387744e-08	2.390335e-07	0.007804581	0.01159288
	0.008164677	0.01137927	4.387744e-08	2.390335e-07	0.01840216	0.009534577	1.92052e-08	6.541881e-08
	1.982851e-08	3.822412e-08	0.007804581	0.01159288	1.92052e-08	6.541881e-08	0.01755819	0.01006746
2.7e+08	0.0187884	0.009373991	2.271991e-08	6.481692e-08	0.008674052	0.0115305	2.066497e-08	3.896025e-08
	2.271991e-08	6.481692e-08	0.01798883	0.009889088	4.530517e-08	2.47294e-07	0.008293455	0.01176969
	0.008674052	0.0115305	4.530517e-08	2.47294e-07	0.01897772	0.009384936	1.990217e-08	6.734986e-08
	2.066497e-08	3.896025e-08	0.008293454	0.01176969	1.990217e-08	6.734986e-08	0.0180845	0.009978522
2.8e+08	0.01934801	0.009203626	2.354249e-08	6.647486e-08	0.009187278	0.01165518	2.148251e-08	3.964563e-08
	2.354249e-08	6.647487e-08	0.01850456	0.0097756	4.672378e-08	2.5552e-07	0.008786457	0.01192155
	0.009187278	0.01165518	4.672378e-08	2.5552e-07	0.01954389	0.009206749	2.05825e-08	6.924868e-08
	2.148251e-08	3.964563e-08	0.008786457	0.01192155	2.05825e-08	6.924868e-08	0.01860198	0.009864844
2.9e+08	0.01989747	0.00900576	2.434245e-08	6.808959e-08	0.009703003	0.01175313	2.227802e-08	4.028154e-08
	2.434245e-08	6.808959e-08	0.0190108	0.009637952	4.813192e-08	2.637136e-07	0.009282332	0.01204828
	0.009703003	0.01175313	4.813192e-08	2.637136e-07	0.02009956	0.009000498	2.124418e-08	7.111676e-08
	2.227802e-08	4.028154e-08	0.009282332	0.01204828	2.124418e-08	7.111676e-08	0.01910978	0.009726911
3e+08	0.02043573	0.008780896	2.511709e-08	6.966279e-08	0.01021987	0.01182424	2.304846e-08	4.08694e-08
	2.511709e-08	6.966279e-08	0.01950667	0.009476641	4.952828e-08	2.718769e-07	0.009779813	0.01214976
	0.01021987	0.01182424	4.952828e-08	2.718769e-07	0.02064365	0.008766706	2.18853e-08	7.295573e-08
	2.304846e-08	4.08694e-08	0.009779813	0.01214976	2.18853e-08	7.295573e-08	0.01960704	0.009565235
3.1e+08	0.02096172	0.00852958	2.586383e-08	7.119631e-08	0.0107365	0.01186846	2.379088e-08	4.141082e-08
	2.586383e-08	7.119631e-08	0.01999132	0.009292199	5.091161e-08	2.800121e-07	0.01027763	0.01222594
	0.0107365	0.01186846	5.091161e-08	2.800121e-07	0.02117507	0.008505933	2.250402e-08	7.476731e-08
	2.379088e-08	4.141082e-08	0.01027763	0.01222594	2.250402e-08	7.476731e-08	0.02009288	0.009380356
3.2e+08	0.0214744	0.008252389	2.658016e-08	7.269217e-08	0.01125155	0.01188581	2.450238e-08	4.190759e-08
	2.658016e-08	7.269217e-08	0.0204639	0.009085175	5.228071e-08	2.881216e-07	0.01077451	0.01227681
	0.01125155	0.01188581	5.228071e-08	2.881216e-07	0.02169273	0.008218777	2.309859e-08	7.655334e-08
	2.450238e-08	4.190759e-08	0.01077451	0.01227681	2.309859e-08	7.655334e-08	0.02056646	0.009172838
3.3e+08	0.02197273	0.007949944	2.726368e-08	7.41525e-08	0.01176364	0.01187638	2.518017e-08	4.236164e-08
	2.726368e-08	7.41525e-08	0.02092356	0.008856156	5.36345e-08	2.962075e-07	0.01126919	0.01230245
	0.01176364	0.01187638	5.36345e-08	2.962075e-07	0.02219556	0.007905879	2.366734e-08	7.831576e-08
	2.518017e-08	4.236164e-08	0.01126919	0.01230245	2.366734e-08	7.831576e-08	0.02102693	0.008943272
3.4e+08	0.02245568	0.007622908	2.791208e-08	7.557959e-08	0.0122714	0.01184034	2.582157e-08	4.277507e-08
	2.791208e-08	7.557959e-08	0.02136948	0.008605756	5.497197e-08	3.042724e-07	0.01176039	0.012303
	0.0122714	0.01184034	5.497197e-08	3.042724e-07	0.0226825	0.007567925	2.420873e-08	8.005663e-08
	2.582157e-08	4.277507e-08	0.01176039	0.012303	2.420873e-08	8.005663e-08	0.02147345	0.008692288
3.5e+08	0.02292224	0.00727198	2.852321e-08	7.697588e-08	0.0127735	0.01177789	2.642401e-08	4.315012e-08
	2.852321e-08	7.697588e-08	0.02180083	0.008334615	5.629219e-08	3.123187e-07	0.01224685	0.01227863
	0.0127735	0.01177789	5.629219e-08	3.123187e-07	0.02315251	0.007205643	2.472131e-08	8.177807e-08
	2.642401e-08	4.315012e-08	0.01224685	0.01227863	2.472131e-08	8.177807e-08	0.02190521	0.008420536
3.6e+08	0.02337141	0.006897904	2.9095e-08	7.83439e-08	0.01326858	0.01168935	2.698501e-08	4.348918e-08
	2.9095e-08	7.83439e-08	0.02221682	0.008043408	5.759437e-08	3.203488e-07	0.01272733	0.01222962
	0.01326858	0.01168935	5.759437e-08	3.203488e-07	0.02360457	0.006819796	2.520374e-08	8.348232e-08
	2.698501e-08	4.348918e-08	0.01272733	0.01222962	2.520374e-08	8.348232e-08	0.0223214	0.008128702
3.7e+08	0.02380223	0.006501462	2.962555e-08	7.968632e-08	0.01375532	0.01157506	2.750224e-08	4.379477e-08
	2.962555e-08	7.968632e-08	0.02261666	0.007732839	5.887781e-08	3.283654e-07	0.01320059	0.01215627
	0.01375532	0.01157506	5.887781e-08	3.283654e-07	0.02403767	0.006411201	2.56548e-08	8.517168e-08
	2.750224e-08	4.379477e-08	0.01320059	0.01215627	2.56548e-08	8.517168e-08	0.02272123	0.007817503
3.8e+08	0.02421375	0.006083481	3.011307e-08	8.100593e-08	0.01423241	0.01143544	2.797351e-08	4.406956e-08
	3.011307e-08	8.100593e-08	0.0229996	0.007403642	6.01419e-08	3.363711e-07	0.0136654	0.01205897
	0.01423241	0.01143544	6.01419e-08	3.363711e-07	0.02445084	0.005980711	2.607342e-08	8.684853e-08
	2.797351e-08	4.406956e-08	0.0136654	0.01205897	2.607342e-08	8.684853e-08	0.02310396	0.007487685
3.9e+08	0.02460505	0.005644826	3.055594e-08	8.230562e-08	0.01469856	0.01127099	2.839675e-08	4.431632e-08
	3.055594e-08	8.230562e-08	0.02336489	0.007056582	6.13862e-08	3.443685e-07	0.01412056	0.01193815
	0.01469856	0.01127099	6.13862e-08	3.443685e-07	0.02484315	0.005529223	2.645861e-08	8.851532e-08
	2.839675e-08	4.431632e-08	0.01412056	0.01193815	2.645861e-08	8.851532e-08	0.02346883	0.007140024
4e+08	0.02497524	0.005186399	3.095268e-08	8.358835e-08	0.01515252	0.01108225	2.877005e-08	4.453794e-08
	3.095268e-08	8.358835e-08	0.02371183	0.006692455	6.261036e-08	3.523603e-07	0.0145649	0.0117943
	0.01515252	0.01108225	6.261036e-08	3.523603e-07	0.02521367	0.005057674	2.680956e-08	9.017454e-08
	2.877005e-08	4.453794e-08	0.0145649	0.0117943	2.680956e-08	9.017454e-08	0.02381515	0.006775328
4.1e+08	0.02532347	0.004709147	3.130196e-08	8.485722e-08	0.01559303	0.01086984	2.909164e-08	4.473743e-08
	3.130196e-08	8.485722e-08	0.02403973	0.006312083	6.381416e-08	3.603493e-07	0.01499725	0.01162799
	0.01559303	0.01086984	6.381416e-08	3.603493e-07	0.02556154	0.004567045	2.712556e-08	9.182877e-08
	2.909164e-08	4.473743e-08	0.01499725	0.01162799	2.712556e-08	9.182877e-08	0.02414222	0.006394434
4.2e+08	0.02564893	0.004214051	3.160263e-08	8.611535e-08	0.01601891	0.01063444	2.93599e-08	4.491787e-08
	3.160263e-08	8.611535e-08	0.02434794	0.005916319	6.499752e-08	3.683381e-07	0.01541649	0.01143982
	0.01601891	0.01063444	6.499752e-08	3.683381e-07	0.0258859	0.004058349	2.740604e-08	9.348061e-08
	2.93599e-08	4.491787e-08	0.01541649	0.01143982	2.740604e-08	9.348061e-08	0.0244494	0.005998203
4.3e+08	0.02595082	0.003702125	3.185367e-08	8.736599e-08	0.01642896	0.01037678	2.95734e-08	4.508248e-08
	3.185367e-08	8.736599e-08	0.02463584	0.00550604	6.616048e-08	3.763296e-07	0.01582152	0.01123047
	0.01642896	0.01037678	6.616048e-08	3.763296e-07	0.02618597	0.003532645	2.765058e-08	9.513269e-08
	2.95734e-08	4.508248e-08	0.01582152	0.01123047	2.765058e-08	9.513269e-08	0.02473606	0.00558753
4.4e+08	0.02622841	0.003174426	3.205426e-08	8.861241e-08	0.01682206	0.01009764	2.973083e-08	4.523451e-08
	3.205426e-08	8.861241e-08	0.02490283	0.005082151	6.730323e-08	3.843265e-07	0.01621127	0.01100064
	0.01682206	0.01009764	6.730323e-08	3.843265e-07	0.02646098	0.002991023	2.785889e-08	9.678769e-08
	2.973083e-08	4.523451e-08	0.01621127	0.01100064	2.785889e-08	9.678769e-08	0.02500161	0.005163327
4.5e+08	0.02648099	0.002632036	3.220373e-08	8.985797e-08	0.01719711	0.009797891	2.983109e-08	4.537732e-08
	3.220373e-08	8.985797e-08	0.02514836	0.004645582	6.842608e-08	3.923315e-07	0.01658472	0.01075111
	0.01719711	0.009797891	6.842608e-08	3.923315e-07	0.0267102	0.002434608	2.803082e-08	9.844831e-08
	2.983109e-08	4.537732e-08	0.01658472	0.01075111	2.803082e-08	9.844831e-08	0.02524552	0.004726541
4.6e+08	0.0267079	0.002076077	3.230158e-08	9.110604e-08	0.01755304	0.009478419	2.987322e-08	4.551433e-08
	3.230158e-08	9.110604e-08	0.02537192	0.004197288	6.952949e-08	4.003475e-07	0.01694086	0.0104827
	0.01755304	0.009478419	6.952949e-08	4.003475e-07	0.02693298	0.001864561	2.816637e-08	1.001173e-07
	2.987322e-08	4.551433e-08	0.01694086	0.0104827	2.816637e-08	1.001173e-07	0.02546725	0.004278136
4.7e+08	0.02690854	0.001507694	3.23475e-08	9.236005e-08	0.01788886	0.009140185	2.985642e-08	4.564897e-08
	3.23475e-08	9.236005e-08	0.02557302	0.003738243	7.061406e-08	4.083773e-07	0.01727875	0.01019629
	0.01788886	0.009140185	7.061406e-08	4.083773e-07	0.02712869	0.001282072	2.826566e-08	1.017973e-07
	2.985642e-08	4.564897e-08	0.01727875	0.01019629	2.826566e-08	1.017973e-07	0.02566633	0.003819097
4.8e+08	0.02708233	0.0009280672	3.234134e-08	9.362347e-08	0.01820357	0.008784194	2.978011e-08	4.578481e-08
	3.234134e-08	9.362347e-08	0.02575121	0.003269442	7.168051e-08	4.164235e-07	0.01759747	0.009892792
	0.01820357	0.008784194	7.168051e-08	4.164235e-07	0.02729676	0.0006883611	2.832896e-08	1.034911e-07
	2.978011e-08	4.578481e-08	0.01759747	0.009892792	2.832896e-08	1.034911e-07	0.02584232	0.003350435
4.9e+08	0.02722878	0.0003384005	3.228316e-08	9.489978e-08	0.01849628	0.008411498	2.964388e-08	4.59254e-08
