!$
! Info: Touchstone file created by Circ.  Input file=Tx_2in_Rx_85ohms_TxVia_60mils_RxVia_70mils.circ
!$
# Hz S RI R 50
0	0.001765651	5.190212e-26	1.680302e-09	6.026233e-28	3.18935e-05	3.354726e-24	-1.38303e-10	6.351325e-26
	1.680317e-09	6.026266e-28	0.0017614	5.83508e-26	4.56594e-09	2.027917e-27	3.100965e-05	4.160825e-24
	3.102486e-05	3.339789e-24	4.56594e-09	2.02792e-27	0.001779626	5.251882e-26	3.771597e-09	6.374814e-28
	-1.380095e-10	6.347731e-26	3.127968e-05	4.178668e-24	3.771513e-09	6.374608e-28	0.001776036	5.805816e-26
1e+07	0.002437919	-0.001480953	2.059614e-09	3.916345e-09	6.21457e-05	0.0006131609	-4.579696e-09	1.134297e-08
	2.059614e-09	3.916345e-09	0.002442822	-0.001481419	6.535637e-09	1.361193e-08	6.135354e-05	0.0006130752
	6.213023e-05	0.0006131745	6.535637e-09	1.361193e-08	0.002460224	-0.001467939	-2.77535e-09	1.218702e-08
	-4.579696e-09	1.134297e-08	6.135556e-05	0.0006130727	-2.77535e-09	1.218702e-08	0.002451388	-0.001473187
2e+07	0.00298643	-0.003550263	2.628206e-09	7.202979e-09	0.0001196278	0.001208631	1.456671e-09	4.256678e-09
	2.628206e-09	7.202979e-09	0.002982785	-0.003553871	8.585024e-09	2.431531e-08	0.0001165221	0.00120861
	0.0001196347	0.00120864	8.585024e-09	2.431531e-08	0.003009105	-0.00352826	-2.728476e-10	6.113075e-09
	1.456671e-09	4.256678e-09	0.0001165186	0.001208611	-2.728475e-10	6.113075e-09	0.002993581	-0.003536557
3e+07	0.003255323	-0.005903506	3.129433e-09	1.017718e-08	0.0002026375	0.001795755	2.173237e-09	6.710997e-09
	3.129433e-09	1.017718e-08	0.003238902	-0.005907678	9.870647e-09	3.457061e-08	0.0001957241	0.001796053
	0.0002026385	0.001795755	9.870647e-09	3.457061e-08	0.00327896	-0.005871301	3.017141e-09	1.011834e-08
	2.173237e-09	6.710997e-09	0.0001957238	0.001796054	3.017141e-09	1.011834e-08	0.003251238	-0.005882795
4e+07	0.003324241	-0.008354282	3.59329e-09	1.314732e-08	0.0003119375	0.002375331	2.618955e-09	8.694866e-09
	3.59329e-09	1.314732e-08	0.003290316	-0.008358012	1.096088e-08	4.467526e-08	0.0002997401	0.002376316
	0.0003119362	0.002375332	1.096088e-08	4.467526e-08	0.00334932	-0.008311842	3.565712e-09	1.329975e-08
	2.618955e-09	8.694866e-09	0.0002997408	0.002376317	3.565712e-09	1.329975e-08	0.003303983	-0.008326366
5e+07	0.003222349	-0.01085549	4.050241e-09	1.608314e-08	0.000447446	0.002946569	3.044347e-09	1.060441e-08
	4.050241e-09	1.608314e-08	0.003166065	-0.01085698	1.187523e-08	5.465218e-08	0.0004285333	0.002948726
	0.0004474446	0.002946569	1.187523e-08	5.465218e-08	0.003249302	-0.01080301	3.934031e-09	1.620489e-08
	3.044347e-09	1.060441e-08	0.0004285342	0.002948726	3.934032e-09	1.620489e-08	0.00318059	-0.01081902
6e+07	0.002964747	-0.01338265	4.508486e-09	1.897379e-08	0.0006087723	0.003508477	3.488919e-09	1.247001e-08
	4.508486e-09	1.897379e-08	0.00288177	-0.01337981	1.264268e-08	6.453123e-08	0.000581762	0.003512388
	0.00060877	0.003508477	1.264268e-08	6.453123e-08	0.002993902	-0.01332042	4.274215e-09	1.904271e-08
	3.488919e-09	1.247001e-08	0.0005817633	0.003512388	4.274215e-09	1.904271e-08	0.002896793	-0.0133358
7e+07	0.002560567	-0.01591993	4.968221e-09	2.181667e-08	0.0007954487	0.004060005	3.960878e-09	1.429352e-08
	4.968221e-09	2.181667e-08	0.002446731	-0.01591071	1.328246e-08	7.434145e-08	0.0007590069	0.004066342
	0.0007954449	0.004060004	1.328246e-08	7.434145e-08	0.002592158	-0.01584828	4.610998e-09	2.186049e-08
	3.960878e-09	1.429352e-08	0.0007590086	0.004066342	4.610998e-09	2.186049e-08	0.002461918	-0.01586093
8e+07	0.002015893	-0.01845552	5.42786e-09	2.461261e-08	0.001006958	0.00460007	4.460543e-09	1.607351e-08
	5.42786e-09	2.461261e-08	0.001866902	-0.01843771	1.380817e-08	8.410571e-08	0.0009597995	0.004609594
	0.001006954	0.004600069	1.380817e-08	8.410571e-08	0.002050087	-0.01837474	4.956394e-09	2.467697e-08
	4.460543e-09	1.607351e-08	0.0009598013	0.004609593	4.956394e-09	2.467697e-08	0.001881819	-0.01838248
9e+07	0.001335225	-0.02097972	5.885727e-09	2.736368e-08	0.001242729	0.005127635	4.985768e-09	1.78085e-08
	5.885727e-09	2.736368e-08	0.001146657	-0.02095075	1.42303e-08	9.384257e-08	0.001183618	0.005141194
	0.001242725	0.005127636	1.42303e-08	9.384257e-08	0.001372144	-0.02089011	5.324314e-09	2.750564e-08
	4.985768e-09	1.78085e-08	0.001183619	0.005141193	5.324314e-09	2.750564e-08	0.001160744	-0.0208903
1e+08	0.000522095	-0.02348497	6.341684e-09	3.007144e-08	0.001502265	0.00564233	5.53313e-09	1.949747e-08
	6.341684e-09	3.007144e-08	0.0002895618	-0.02344163	1.455935e-08	1.03567e-07	0.001430021	0.005660857
	0.001502265	0.00564233	1.455935e-08	1.03567e-07	0.0005618353	-0.02338671	5.737072e-09	3.036063e-08
	5.53313e-09	1.949747e-08	0.001430021	0.005660857	5.737072e-09	3.036063e-08	0.0003021615	-0.02337614
1.1e+08	-0.0004230656	-0.02596051	6.812395e-09	3.277874e-08	0.001787469	0.006140969	6.087781e-09	2.115687e-08
	6.812395e-09	3.277874e-08	-0.0007024292	-0.02589975	1.480531e-08	1.133159e-07	0.001700984	0.006165474
	0.001787469	0.006140969	1.480531e-08	1.133159e-07	-0.0003801985	-0.02585399	6.085298e-09	3.313579e-08
	6.087781e-09	2.115687e-08	0.001700982	0.006165474	6.085298e-09	3.313579e-08	-0.0006919681	-0.02582907
1.2e+08	-0.001492344	-0.0283986	7.283732e-09	3.546378e-08	0.002094001	0.006621668	6.658532e-09	2.277766e-08
	7.283732e-09	3.546378e-08	-0.001822221	-0.028317	1.497057e-08	1.230872e-07	0.001992205	0.006653245
	0.002094001	0.006621668	1.497057e-08	1.230872e-07	-0.001446388	-0.02828425	6.425398e-09	3.589887e-08
	6.658532e-09	2.277766e-08	0.001992203	0.006653246	6.425398e-09	3.589887e-08	-0.001814363	-0.02824093
1.3e+08	-0.002682688	-0.03079403	7.758019e-09	3.812683e-08	0.002421116	0.007084293	7.243595e-09	2.436006e-08
	7.758019e-09	3.812683e-08	-0.003066469	-0.03068787	1.506358e-08	1.328903e-07	0.002303015	0.007124117
	0.002421116	0.007084293	1.506358e-08	1.328903e-07	-0.002633695	-0.03067215	6.760512e-09	3.865085e-08
	7.243595e-09	2.436006e-08	0.002303013	0.007124118	6.760512e-09	3.865085e-08	-0.003061687	-0.03060623
1.4e+08	-0.003990899	-0.03314104	8.237251e-09	4.076828e-08	0.002767897	0.007528025	7.842157e-09	2.590348e-08
	8.237251e-09	4.076828e-08	-0.004431728	-0.03300637	1.509149e-08	1.427345e-07	0.002632569	0.007577344
	0.002767897	0.007528025	1.509149e-08	1.427345e-07	-0.003938941	-0.0330119	7.093396e-09	4.13927e-08
	7.842157e-09	2.590348e-08	0.002632568	0.007577345	7.093396e-09	4.13927e-08	-0.004430487	-0.03291894
1.5e+08	-0.005413713	-0.03543404	8.719352e-09	4.338985e-08	0.00313335	0.00795198	8.450803e-09	2.740893e-08
	8.719352e-09	4.338985e-08	-0.005914491	-0.0352667	1.506116e-08	1.526278e-07	0.002979956	0.008012113
	0.00313335	0.00795198	1.506116e-08	1.526278e-07	-0.00535888	-0.03529789	7.422769e-09	4.412669e-08
	8.450803e-09	2.740893e-08	0.002979955	0.008012114	7.422769e-09	4.412669e-08	-0.00591724	-0.03517322
1.6e+08	-0.006947776	-0.0376677	9.204357e-09	4.599226e-08	0.003516423	0.00835528	9.067609e-09	2.887645e-08
	9.204357e-09	4.599226e-08	-0.007511158	-0.03746331	1.497932e-08	1.625777e-07	0.003344201	0.008427612
	0.003516423	0.00835528	1.497932e-08	1.625777e-07	-0.006890171	-0.03752475	7.749443e-09	4.685406e-08
	9.067609e-09	2.887645e-08	0.003344201	0.008427612	7.749443e-09	4.685406e-08	-0.007518327	-0.03736347
1.7e+08	-0.008589635	-0.03983694	9.692146e-09	4.857613e-08	0.003916006	0.008737082	9.690562e-09	3.030614e-08
	9.692146e-09	4.857613e-08	-0.009218013	-0.03959091	1.485259e-08	1.725907e-07	0.003724281	0.008823058
	0.003916006	0.008737082	1.485259e-08	1.725907e-07	-0.008529369	-0.03968738	8.074094e-09	4.957588e-08
	9.690562e-09	3.030614e-08	0.003724281	0.008823058	8.074094e-09	4.957588e-08	-0.009230013	-0.03948438
1.8e+08	-0.01033573	-0.0419369	1.018248e-08	5.114197e-08	0.00433094	0.009096588	1.031757e-08	3.169814e-08
	1.018248e-08	5.114197e-08	-0.01103122	-0.04164446	1.468749e-08	1.826729e-07	0.004119125	0.00919771
	0.00433094	0.009096588	1.468749e-08	1.826729e-07	-0.01027292	-0.0417809	8.397295e-09	5.229308e-08
	1.031757e-08	3.169814e-08	0.004119125	0.00919771	8.397295e-09	5.229308e-08	-0.01104843	-0.04153085
1.9e+08	-0.01218238	-0.04396296	1.0675e-08	5.369022e-08	0.004760021	0.009433056	1.09465e-08	3.305266e-08
	1.0675e-08	5.369022e-08	-0.01294682	-0.04361915	1.449052e-08	1.928297e-07	0.004527621	0.009550878
	0.004760021	0.009433056	1.449052e-08	1.928297e-07	-0.01211715	-0.04380067	8.719538e-09	5.50065e-08
	1.09465e-08	3.305266e-08	0.004527621	0.009550878	8.719538e-09	5.50065e-08	-0.0129696	-0.04349804
2e+08	-0.0141258	-0.04591072	1.116928e-08	5.622128e-08	0.005202002	0.009745802	1.157513e-08	3.437004e-08
	1.116928e-08	5.622128e-08	-0.0149607	-0.04551042	1.426816e-08	2.03066e-07	0.004948619	0.009881925
	0.005202002	0.009745802	1.426816e-08	2.03066e-07	-0.01405827	-0.04574227	9.04124e-09	5.771687e-08
	1.157513e-08	3.437004e-08	0.004948619	0.009881925	9.04124e-09	5.771687e-08	-0.01498938	-0.04538137
2.1e+08	-0.01616207	-0.047776	1.166477e-08	5.873551e-08	0.005655603	0.01003421	1.220124e-08	3.565071e-08
	1.166477e-08	5.873551e-08	-0.01706867	-0.04731396	1.40269e-08	2.133865e-07	0.005380933	0.01019027
	0.005655603	0.01003421	1.40269e-08	2.133865e-07	-0.01609238	-0.0476015	9.362758e-09	6.042487e-08
	1.220124e-08	3.565071e-08	0.005380933	0.01019027	9.362758e-09	6.042487e-08	-0.01710353	-0.04717649
2.2e+08	-0.01828718	-0.04955483	1.216088e-08	6.123328e-08	0.006119507	0.01029772	1.282259e-08	3.689523e-08
	1.216088e-08	6.123328e-08	-0.01926636	-0.04902567	1.377328e-08	2.237951e-07	0.005823351	0.01047541
	0.006119507	0.01029772	1.377328e-08	2.237951e-07	-0.01821546	-0.04937438	9.684388e-09	6.31311e-08
	1.282259e-08	3.689523e-08	0.005823351	0.01047541	9.684388e-09	6.31311e-08	-0.01930767	-0.04887926
2.3e+08	-0.02049699	-0.05124345	1.265692e-08	6.371496e-08	0.006592372	0.01053585	1.343692e-08	3.810429e-08
	1.265692e-08	6.371496e-08	-0.02154932	-0.05064168	1.351388e-08	2.342957e-07	0.006274632	0.01073687
	0.006592372	0.01053585	1.351388e-08	2.342957e-07	-0.02042338	-0.05105714	1.000637e-08	6.583612e-08
	1.343692e-08	3.810429e-08	0.006274632	0.01073687	1.000637e-08	6.583612e-08	-0.0215973	-0.05048581
2.4e+08	-0.02278725	-0.05283832	1.315215e-08	6.618092e-08	0.007072831	0.0107482	1.4042e-08	3.927871e-08
	1.315215e-08	6.618092e-08	-0.02391296	-0.05215836	1.325532e-08	2.448917e-07	0.006733515	0.01097428
	0.007072831	0.0107482	1.325532e-08	2.448917e-07	-0.02271188	-0.05264622	1.032891e-08	6.854047e-08
	1.4042e-08	3.927871e-08	0.006733515	0.01097428	1.032891e-08	6.854047e-08	-0.02396781	-0.05199248
2.5e+08	-0.02515362	-0.05433609	1.364577e-08	6.86316e-08	0.007559497	0.01093441	1.463561e-08	4.041945e-08
	1.364577e-08	6.86316e-08	-0.0263526	-0.05357231	1.300433e-08	2.555859e-07	0.007198721	0.01118731
	0.007559497	0.01093441	1.300433e-08	2.555859e-07	-0.02507663	-0.05413825	1.065215e-08	7.124465e-08
	1.463561e-08	4.041945e-08	0.007198721	0.01118731	1.065215e-08	7.124465e-08	-0.02641446	-0.05339584
2.6e+08	-0.02759164	-0.05573363	1.413693e-08	7.106743e-08	0.008050968	0.01109423	1.521558e-08	4.152763e-08
	1.413693e-08	7.106743e-08	-0.02886345	-0.05488035	1.276767e-08	2.663811e-07	0.007668956	0.01137571
	0.008050968	0.01109423	1.276767e-08	2.663811e-07	-0.02751318	-0.05553011	1.097619e-08	7.394916e-08
	1.521558e-08	4.152763e-08	0.007668956	0.01137571	1.097619e-08	7.394916e-08	-0.02893244	-0.0546927
2.7e+08	-0.03009678	-0.05702803	1.462475e-08	7.348895e-08	0.008545833	0.01122746	1.577978e-08	4.260447e-08
	1.462475e-08	7.348895e-08	-0.03144061	-0.05607954	1.255218e-08	2.772795e-07	0.008142917	0.01153929
	0.008545833	0.01122746	1.255218e-08	2.772795e-07	-0.03001698	-0.05681885	1.130112e-08	7.665449e-08
	1.577978e-08	4.260447e-08	0.008142917	0.01153929	1.130112e-08	7.665449e-08	-0.0315168	-0.0558801
2.8e+08	-0.03266439	-0.05821657	1.51083e-08	7.589671e-08	0.009042669	0.01133399	1.632615e-08	4.365134e-08
	1.51083e-08	7.589671e-08	-0.0340791	-0.05716716	1.236479e-08	2.882831e-07	0.008619293	0.01167794
	0.00904267	0.01133399	1.236479e-08	2.882831e-07	-0.03258341	-0.05800176	1.162697e-08	7.936114e-08
	1.632615e-08	4.365134e-08	0.008619293	0.01167794	1.162697e-08	7.936114e-08	-0.03416254	-0.05695531
2.9e+08	-0.03528978	-0.05929677	1.558664e-08	7.829134e-08	0.009540056	0.01141377	1.685269e-08	4.466974e-08
	1.558664e-08	7.829134e-08	-0.03677387	-0.05814072	1.221246e-08	2.993933e-07	0.009096774	0.0117916
	0.009540056	0.01141377	1.221246e-08	2.993933e-07	-0.03520775	-0.05907632	1.195375e-08	8.20696e-08
	1.685269e-08	4.466974e-08	0.009096774	0.0117916	1.195375e-08	8.20696e-08	-0.03686454	-0.05791583
3e+08	-0.03796815	-0.06026632	1.605879e-08	8.067356e-08	0.01003657	0.01146683	1.735751e-08	4.566131e-08
	1.605879e-08	8.067356e-08	-0.03951978	-0.05899798	1.210222e-08	3.106115e-07	0.009574047	0.0118803
	0.01003657	0.01146683	1.210222e-08	3.106115e-07	-0.03788522	-0.06004024	1.228145e-08	8.478041e-08
	1.735751e-08	4.566131e-08	0.009574047	0.0118803	1.228145e-08	8.478041e-08	-0.03961765	-0.05875942
3.1e+08	-0.04069465	-0.06112317	1.651761e-08	8.304297e-08	0.0105308	0.01149328	1.78388e-08	4.66279e-08
	1.651761e-08	8.304297e-08	-0.04231162	-0.05973691	1.203724e-08	3.219364e-07	0.01004981	0.01194412
	0.0105308	0.01149329	1.203724e-08	3.219364e-07	-0.04061097	-0.06089143	1.260381e-08	8.749294e-08
	1.78388e-08	4.66279e-08	0.01004981	0.01194412	1.260381e-08	8.749294e-08	-0.0424166	-0.05948403
3.2e+08	-0.04346438	-0.06186545	1.69551e-08	8.540022e-08	0.01102133	0.01149331	1.829491e-08	4.757152e-08
	1.69551e-08	8.540022e-08	-0.04514414	-0.06035573	1.202011e-08	3.333667e-07	0.01052276	0.01198323
	0.01102133	0.01149331	1.202011e-08	3.333667e-07	-0.04338007	-0.06162803	1.291373e-08	9.020757e-08
	1.829491e-08	4.757152e-08	0.01052276	0.01198323	1.291373e-08	9.020757e-08	-0.04525611	-0.06008789
3.3e+08	-0.04627236	-0.06249153	1.738239e-08	8.774915e-08	0.01150678	0.01146716	1.872419e-08	4.849391e-08
	1.738239e-08	8.774915e-08	-0.04801203	-0.06085289	1.206561e-08	3.44907e-07	0.01099162	0.01199783
	0.01150678	0.01146716	1.206561e-08	3.44907e-07	-0.04618758	-0.06224838	1.322335e-08	9.292779e-08
	1.872419e-08	4.849391e-08	0.01099162	0.01199783	1.322335e-08	9.292779e-08	-0.04813083	-0.06056944
3.4e+08	-0.04911359	-0.06299997	1.779858e-08	9.009093e-08	0.01198576	0.01141516	1.912514e-08	4.939713e-08
	1.779858e-08	9.009093e-08	-0.05090994	-0.06122707	1.218091e-08	3.56557e-07	0.01145512	0.01198823
	0.01198576	0.01141516	1.218091e-08	3.56557e-07	-0.04902847	-0.06275103	1.353269e-08	9.565436e-08
	1.912514e-08	4.939713e-08	0.01145512	0.01198823	1.353269e-08	9.565436e-08	-0.05103537	-0.06092737
3.5e+08	-0.05198302	-0.06338957	1.820283e-08	9.242682e-08	0.01245692	0.01133771	1.949638e-08	5.028334e-08
	1.820283e-08	9.242682e-08	-0.0538325	-0.06147719	1.237321e-08	3.683163e-07	0.011912	0.01195477
	0.01245692	0.01133771	1.237321e-08	3.683163e-07	-0.0518977	-0.06313477	1.384179e-08	9.838809e-08
	1.949638e-08	5.028334e-08	0.011912	0.01195477	1.384179e-08	9.838809e-08	-0.05396432	-0.06116059
3.6e+08	-0.0548756	-0.06365933	1.859433e-08	9.475816e-08	0.01291894	0.01123527	1.983668e-08	5.115482e-08
	1.859433e-08	9.475816e-08	-0.05677432	-0.06160239	1.264968e-08	3.801838e-07	0.01236105	0.01189787
	0.01291894	0.01123527	1.264968e-08	3.801838e-07	-0.0547902	-0.06339859	1.415071e-08	1.011298e-07
	1.983668e-08	5.115482e-08	0.01236105	0.01189787	1.415071e-08	1.011298e-07	-0.05691223	-0.06126827
3.7e+08	-0.05778622	-0.06380847	1.897231e-08	9.708638e-08	0.0133705	0.01110838	2.014493e-08	5.201389e-08
	1.897231e-08	9.708638e-08	-0.05972997	-0.06160208	1.30175e-08	3.921582e-07	0.01280106	0.011818
	0.0133705	0.01110838	1.30175e-08	3.921582e-07	-0.05770086	-0.06354169	1.445954e-08	1.038805e-07
	2.014493e-08	5.201389e-08	0.01280106	0.011818	1.445954e-08	1.038805e-07	-0.05987367	-0.0612498
3.8e+08	-0.06070979	-0.06383641	1.933607e-08	9.941302e-08	0.01381034	0.01095763	2.042015e-08	5.286296e-08
	1.933607e-08	9.941302e-08	-0.06269404	-0.06147586	1.348378e-08	4.04238e-07	0.01323085	0.01171571
	0.01381034	0.01095763	1.348378e-08	4.04238e-07	-0.0606246	-0.06356349	1.476837e-08	1.066409e-07
	2.042015e-08	5.286296e-08	0.01323085	0.01171571	1.476837e-08	1.066409e-07	-0.06284316	-0.0611048
3.9e+08	-0.0636412	-0.06374281	1.968497e-08	1.017397e-07	0.01423722	0.0107837	2.066151e-08	5.370451e-08
	1.968497e-08	1.017397e-07	-0.06566114	-0.06122358	1.405561e-08	4.164209e-07	0.0136493	0.0115916
	0.01423722	0.0107837	1.405561e-08	4.164209e-07	-0.06355629	-0.06346363	1.507735e-08	1.094121e-07
	2.066151e-08	5.370451e-08	0.0136493	0.0115916	1.507735e-08	1.094121e-07	-0.06581528	-0.06083314
4e+08	-0.06657536	-0.06352753	2.001844e-08	1.040681e-07	0.01464995	0.01058729	2.086831e-08	5.454104e-08
	2.001844e-08	1.040681e-07	-0.06862586	-0.06084533	1.473998e-08	4.287046e-07	0.01405529	0.0114463
	0.01464995	0.01058729	1.473998e-08	4.287046e-07	-0.06649083	-0.06324196	1.538668e-08	1.121951e-07
	2.086831e-08	5.454104e-08	0.01405529	0.0114463	1.538668e-08	1.121951e-07	-0.06878457	-0.06043491
4.1e+08	-0.06950717	-0.06319063	2.0336e-08	1.064e-07	0.01504736	0.01036921	2.104001e-08	5.537514e-08
	2.0336e-08	1.064e-07	-0.07158284	-0.0603414	1.554381e-08	4.410863e-07	0.01444776	0.01128053
	0.01504736	0.01036921	1.554381e-08	4.410863e-07	-0.06942313	-0.06289853	1.569657e-08	1.14991e-07
	2.104001e-08	5.537514e-08	0.01444776	0.01128053	1.569657e-08	1.14991e-07	-0.07174565	-0.05991044
4.2e+08	-0.07243158	-0.06273241	2.063727e-08	1.087373e-07	0.01542834	0.01013029	2.117623e-08	5.62094e-08
	2.063727e-08	1.087373e-07	-0.07452674	-0.05971234	1.647392e-08	4.535628e-07	0.01482567	0.01109505
	0.01542834	0.01013029	1.647392e-08	4.535628e-07	-0.07234812	-0.06243362	1.600733e-08	1.178007e-07
	2.117623e-08	5.62094e-08	0.01482567	0.01109505	1.600733e-08	1.178007e-07	-0.07469314	-0.05926027
4.3e+08	-0.07534354	-0.06215334	2.092195e-08	1.11082e-07	0.01579182	0.009871426	2.127671e-08	5.704646e-08
	2.092195e-08	1.11082e-07	-0.07745227	-0.0589589	1.7537e-08	4.661305e-07	0.01518805	0.01089067
	0.01579182	0.009871426	1.7537e-08	4.661305e-07	-0.07526074	-0.0618477	1.631931e-08	1.206256e-07
	2.127671e-08	5.704646e-08	0.01518805	0.01089067	1.631931e-08	1.206256e-07	-0.07762171	-0.05848518
4.4e+08	-0.07823806	-0.06145412	2.118987e-08	1.13436e-07	0.01613679	0.009593569	2.134138e-08	5.788899e-08
	2.118987e-08	1.13436e-07	-0.08035419	-0.05808205	1.873961e-08	4.787854e-07	0.01553394	0.01066823
	0.01613679	0.009593569	1.873961e-08	4.787854e-07	-0.078156	-0.06114146	1.663292e-08	1.234667e-07
	2.134138e-08	5.788899e-08	0.01553394	0.01066823	1.663292e-08	1.234667e-07	-0.08052608	-0.05758617
4.5e+08	-0.08111019	-0.06063565	2.144099e-08	1.158015e-07	0.01646228	0.009297716	2.13703e-08	5.873963e-08
	2.144099e-08	1.158015e-07	-0.08322731	-0.05708299	2.008816e-08	4.915234e-07	0.01586246	0.01042864
	0.01646228	0.009297716	2.008816e-08	4.915234e-07	-0.08102892	-0.06031579	1.694867e-08	1.263252e-07
	2.13703e-08	5.873963e-08	0.01586246	0.01042864	1.694867e-08	1.263252e-07	-0.08340104	-0.05656446
4.6e+08	-0.08395503	-0.05969902	2.167537e-08	1.181807e-07	0.01676738	0.008984911	2.136368e-08	5.960107e-08
	2.167537e-08	1.181807e-07	-0.08606652	-0.05596313	2.158887e-08	5.043396e-07	0.01617276	0.01017284
	0.01676738	0.008984911	2.158887e-08	5.043396e-07	-0.0838746	-0.05937176	1.726714e-08	1.292024e-07
	2.136368e-08	5.960107e-08	0.01617276	0.01017284	1.726714e-08	1.292024e-07	-0.08624143	-0.05542149
4.7e+08	-0.08676772	-0.05864553	2.189325e-08	1.205756e-07	0.01705122	0.008656241	2.132191e-08	6.047596e-08
	2.189325e-08	1.205756e-07	-0.08886678	-0.05472409	2.324778e-08	5.172292e-07	0.01646403	0.009901807
	0.01705122	0.008656241	2.324778e-08	5.172292e-07	-0.08668818	-0.05831068	1.758901e-08	1.320995e-07
	2.132191e-08	6.047596e-08	0.01646403	0.009901807	1.758901e-08	1.320995e-07	-0.08904218	-0.05415889
4.8e+08	-0.08954351	-0.05747667	2.209497e-08	1.229887e-07	0.01731301	0.008312834	2.124551e-08	6.136695e-08
	2.209497e-08	1.229887e-07	-0.09162312	-0.05336768	2.507073e-08	5.301868e-07	0.01673555	0.009616561
	0.01731301	0.008312834	2.507073e-08	5.301868e-07	-0.08946488	-0.05713401	1.791505e-08	1.350178e-07
	2.124551e-08	6.136695e-08	0.01673555	0.009616561	1.791505e-08	1.350178e-07	-0.09179831	-0.05277852
