!$
! Info: Touchstone file created by Circ.  Input file=Tx_2in_Rx_85ohms_TxVia_60mils_RxVia_70mils.circ
!$
# Hz S RI R 50
0	0.001765852	5.138807e-26	-2.722503e-11	8.653973e-27	3.131035e-05	3.299424e-24	-3.230056e-09	4.016644e-25
	-2.722581e-11	8.654082e-27	0.0017614	5.83508e-26	4.646122e-11	1.267677e-27	3.100965e-05	4.160825e-24
	3.239492e-05	3.32152e-24	4.645697e-11	1.268192e-27	0.001781479	5.133002e-26	-5.799863e-12	7.616653e-27
	-3.229928e-09	4.016487e-25	3.127968e-05	4.178668e-24	-5.895212e-12	7.628282e-27	0.001776036	5.805816e-26
1e+07	0.002448893	-0.001513717	5.288375e-11	1.624375e-10	4.650603e-05	0.0006148068	-5.331721e-09	7.372968e-09
	5.288375e-11	1.624375e-10	0.002442822	-0.001481419	6.434148e-11	1.843913e-10	6.135354e-05	0.0006130752
	4.6537e-05	0.0006148111	6.434148e-11	1.843913e-10	0.002731511	-0.001427661	-5.839514e-09	9.528438e-09
	-5.331721e-09	7.372968e-09	6.135556e-05	0.0006130727	-5.839514e-09	9.528438e-09	0.002451388	-0.001473187
2e+07	0.002966492	-0.003609748	6.244215e-11	3.090964e-10	9.594399e-05	0.001223981	7.209442e-11	-5.293178e-11
	6.244216e-11	3.090964e-10	0.002982785	-0.003553871	7.525522e-11	3.502148e-10	0.0001165221	0.00120861
	9.595779e-05	0.001223962	7.525521e-11	3.502148e-10	0.003260375	-0.003562272	6.914273e-12	6.516473e-10
	7.209443e-11	-5.293178e-11	0.0001165186	0.001208611	6.914283e-12	6.516473e-10	0.002993581	-0.003536557
3e+07	0.003211217	-0.005971417	5.159111e-11	4.59899e-10	0.0001845937	0.001816597	5.946854e-11	5.097518e-10
	5.159112e-11	4.59899e-10	0.003238902	-0.005907678	6.717061e-11	5.178901e-10	0.0001957241	0.001796053
	0.0001845946	0.001816595	6.717061e-11	5.178901e-10	0.003514068	-0.005933892	6.586715e-11	5.665719e-10
	5.946854e-11	5.097518e-10	0.0001957238	0.001796054	6.586715e-11	5.665719e-10	0.003251238	-0.005882795
4e+07	0.00325949	-0.008424607	4.203202e-11	6.07698e-10	0.0002987894	0.002399738	5.20833e-11	7.100125e-10
	4.203202e-11	6.07698e-10	0.003290316	-0.008358012	5.96041e-11	6.832991e-10	0.0002997401	0.002376316
	0.0002987934	0.002399743	5.96041e-11	6.832991e-10	0.003570008	-0.008394081	5.797161e-11	7.224215e-10
	5.20833e-11	7.100125e-10	0.0002997408	0.002376317	5.797161e-11	7.224215e-10	0.003303983	-0.008326366
5e+07	0.003139357	-0.01092447	2.84317e-11	7.546766e-10	0.0004387121	0.002973489	3.730013e-11	8.706459e-10
	2.84317e-11	7.546766e-10	0.003166065	-0.01085698	4.801341e-11	8.474701e-10	0.0004285333	0.002948726
	0.0004387152	0.00297349	4.801341e-11	8.474701e-10	0.003456538	-0.0109007	4.340412e-11	9.044112e-10
	3.730013e-11	8.706459e-10	0.0004285342	0.002948726	4.340412e-11	9.044112e-10	0.00318059	-0.01081902
6e+07	0.002865374	-0.01344743	9.667528e-12	9.017551e-10	0.0006041012	0.003537167	1.555935e-11	1.028565e-09
	9.667528e-12	9.017551e-10	0.00288177	-0.01337981	3.115888e-11	1.011329e-09	0.000581762	0.003512388
	0.0006040974	0.003537166	3.115888e-11	1.011329e-09	0.003188293	-0.01343095	2.400413e-11	1.088852e-09
	1.555935e-11	1.028565e-09	0.0005817633	0.003512388	2.400413e-11	1.088852e-09	0.002896793	-0.0133358
7e+07	0.00244639	-0.01597802	-1.472293e-11	1.049835e-09	0.0007945533	0.00408985	-1.206998e-11	1.191753e-09
	-1.472293e-11	1.049835e-09	0.002446731	-0.01591071	8.475954e-12	1.175831e-09	0.0007590069	0.004066342
	0.0007945421	0.00408985	8.475951e-12	1.175831e-09	0.002774134	-0.01596972	-1.446287e-12	1.271691e-09
	-1.206998e-11	1.191753e-09	0.0007590086	0.004066342	-1.446284e-12	1.271691e-09	0.002461918	-0.01586093
8e+07	0.001888374	-0.0185044	-4.49327e-11	1.199838e-09	0.001009578	0.004630491	-4.461935e-11	1.362659e-09
	-4.49327e-11	1.199838e-09	0.001866902	-0.01843771	-2.031962e-11	1.341964e-09	0.0009597995	0.004609594
	0.001009564	0.004630494	-2.031963e-11	1.341964e-09	0.00221998	-0.01850554	-3.417609e-11	1.452458e-09
	-4.461935e-11	1.362659e-09	0.0009598013	0.004609593	-3.417609e-11	1.452458e-09	0.001881819	-0.01838248
9e+07	0.001195898	-0.02101642	-8.106256e-11	1.352711e-09	0.001248599	0.005157983	-8.126401e-11	1.542249e-09
	-8.106256e-11	1.352711e-09	0.001146657	-0.02095075	-5.541748e-11	1.510738e-09	0.001183618	0.005141194
	0.001248588	0.005157987	-5.541749e-11	1.510738e-09	0.001530242	-0.02102881	-7.536234e-11	1.631544e-09
	-8.126401e-11	1.542249e-09	0.001183619	0.005141193	-7.536233e-11	1.631544e-09	0.001160744	-0.0208903
1e+08	0.0003733482	-0.02350309	-1.236779e-10	1.509739e-09	0.001510978	0.005671321	-1.217241e-10	1.731214e-09
	-1.236779e-10	1.509739e-09	0.0002895618	-0.02344163	-9.771291e-11	1.683505e-09	0.001430021	0.005660857
	0.001510978	0.005671321	-9.771291e-11	1.683505e-09	0.0007085354	-0.0235314	-1.27087e-10	1.810071e-09
	-1.217241e-10	1.731214e-09	0.001430021	0.005660857	-1.27087e-10	1.810071e-09	0.0003021615	-0.02337614
1.1e+08	-0.0005670563	-0.0259632	-1.691229e-10	1.672503e-09	0.001796387	0.00616907	-1.661305e-10	1.914147e-09
	-1.691229e-10	1.672503e-09	-0.0007024292	-0.02589975	-1.397608e-10	1.861861e-09	0.001700984	0.006165474
	0.001796387	0.00616907	-1.397608e-10	1.861861e-09	-0.0002423771	-0.02600453	-1.766896e-10	2.003813e-09
	-1.661305e-10	1.914147e-09	0.001700982	0.006165474	-1.766896e-10	2.003813e-09	-0.0006919681	-0.02582907
1.2e+08	-0.001632659	-0.02839194	-2.146328e-10	1.836544e-09	0.002103319	0.006649954	-2.138835e-10	2.100418e-09
	-2.146328e-10	1.836544e-09	-0.001822221	-0.028317	-1.819705e-10	2.04203e-09	0.001992205	0.006653245
	0.002103319	0.006649954	-1.819705e-10	2.04203e-09	-0.00131772	-0.02844107	-2.261525e-10	2.198901e-09
	-2.138835e-10	2.100418e-09	0.001992203	0.006653246	-2.261525e-10	2.198901e-09	-0.001814363	-0.02824093
1.3e+08	-0.002819771	-0.03078019	-2.6317e-10	2.004113e-09	0.002430925	0.007113113	-2.656758e-10	2.291067e-09
	-2.6317e-10	2.004113e-09	-0.003066469	-0.03068787	-2.276731e-10	2.22594e-09	0.002303015	0.007124117
	0.002430925	0.007113113	-2.276731e-10	2.22594e-09	-0.002514333	-0.03083504	-2.790669e-10	2.39793e-09
	-2.656758e-10	2.291067e-09	0.002303013	0.007124118	-2.790669e-10	2.39793e-09	-0.003061687	-0.03060623
1.4e+08	-0.004125063	-0.03312136	-3.149498e-10	2.175927e-09	0.002778267	0.007557571	-3.209933e-10	2.486343e-09
	-3.149498e-10	2.175927e-09	-0.004431728	-0.03300637	-2.77089e-10	2.414243e-09	0.002632569	0.007577344
	0.002778267	0.007557571	-2.77089e-10	2.414243e-09	-0.003829009	-0.03318053	-3.356353e-10	2.601729e-09
	-3.209933e-10	2.486343e-09	0.002632568	0.007577345	-3.356353e-10	2.601729e-09	-0.004430487	-0.03291894
1.5e+08	-0.005545216	-0.03540945	-3.700102e-10	2.352421e-09	0.003144344	0.007982371	-3.797704e-10	2.686753e-09
	-3.700102e-10	2.352421e-09	-0.005914491	-0.0352667	-3.298596e-10	2.607245e-09	0.002979956	0.008012113
	0.003144344	0.007982371	-3.298596e-10	2.607245e-09	-0.005258486	-0.03547188	-3.959342e-10	2.810812e-09
	-3.797704e-10	2.686753e-09	0.002979955	0.008012114	-3.959342e-10	2.810812e-09	-0.00591724	-0.03517322
1.6e+08	-0.007076844	-0.03763889	-4.280301e-10	2.533883e-09	0.003528095	0.008386591	-4.416559e-10	2.892621e-09
	-4.280301e-10	2.533883e-09	-0.007511158	-0.03746331	-3.856495e-10	2.805237e-09	0.003344201	0.008427612
	0.003528095	0.008386591	-3.856495e-10	2.805237e-09	-0.006799415	-0.0377037	-4.595835e-10	3.025501e-09
	-4.416559e-10	2.892621e-09	0.003344201	0.008427612	-4.595835e-10	3.025501e-09	-0.007518327	-0.03736347
1.7e+08	-0.008716474	-0.03980444	-4.886864e-10	2.720585e-09	0.003928408	0.008769359	-5.062928e-10	3.104251e-09
	-4.886864e-10	2.720585e-09	-0.009218013	-0.03959091	-4.441257e-10	3.008496e-09	0.003724281	0.008823058
	0.003928408	0.008769359	-4.441257e-10	3.008496e-09	-0.00844834	-0.03987087	-5.262061e-10	3.246103e-09
	-5.062928e-10	3.104251e-09	0.003724281	0.008823058	-5.262061e-10	3.246103e-09	-0.009230013	-0.03948438
1.8e+08	-0.01046053	-0.04190113	-5.516504e-10	2.912782e-09	0.00434412	0.00912986	-5.733152e-10	3.321928e-09
	-5.516504e-10	2.912782e-09	-0.01103122	-0.04164446	-5.049526e-10	3.217279e-09	0.004119125	0.00919771
	0.00434412	0.00912986	-5.049526e-10	3.217279e-09	-0.0102017	-0.04196852	-5.954212e-10	3.472903e-09
	-5.733152e-10	3.321928e-09	0.004119125	0.00919771	-5.954212e-10	3.472903e-09	-0.01104843	-0.04153085
1.9e+08	-0.01230533	-0.04392426	-6.165855e-10	3.110711e-09	0.004774023	0.009467335	-6.423478e-10	3.545913e-09
	-6.165855e-10	3.110711e-09	-0.01294682	-0.04361915	-5.677885e-10	3.431826e-09	0.004527621	0.009550878
	0.004774023	0.009467335	-5.677885e-10	3.431826e-09	-0.01205581	-0.04399199	-6.668415e-10	3.706167e-09
	-6.423478e-10	3.545913e-09	0.004527621	0.009550878	-6.668415e-10	3.706167e-09	-0.0129696	-0.04349804
2e+08	-0.01424706	-0.04586937	-6.831475e-10	3.314593e-09	0.005216869	0.009781091	-7.130059e-10	3.776449e-09
	-6.831475e-10	3.314593e-09	-0.0149607	-0.04551042	-6.32285e-10	3.652357e-09	0.004948619	0.009881925
	0.005216869	0.009781091	-6.32285e-10	3.652357e-09	-0.01400687	-0.04593686	-7.400721e-10	3.946141e-09
	-7.130059e-10	3.776449e-09	0.004948619	0.009881925	-7.400721e-10	3.946141e-09	-0.01498938	-0.04538137
2.1e+08	-0.01628182	-0.04773222	-7.509837e-10	3.524627e-09	0.005671373	0.0100705	-7.848949e-10	4.013757e-09
	-7.509837e-10	3.524627e-09	-0.01706867	-0.04731396	-6.980865e-10	3.879075e-09	0.005380933	0.01019027
	0.005671373	0.0100705	-6.980865e-10	3.879075e-09	-0.01605097	-0.04779895	-8.147095e-10	4.19305e-09
	-7.848949e-10	4.013757e-09	0.005380933	0.01019027	-8.147095e-10	4.19305e-09	-0.01710353	-0.04717649
2.2e+08	-0.01840557	-0.0495088	-8.197333e-10	3.740998e-09	0.006136216	0.010335	-8.576113e-10	4.258036e-09
	-8.197333e-10	3.740998e-09	-0.01926636	-0.04902567	-7.648299e-10	4.112165e-09	0.005823351	0.01047541
	0.006136216	0.010335	-7.648299e-10	4.112165e-09	-0.01818408	-0.04957425	-8.903421e-10	4.447098e-09
	-8.576113e-10	4.258036e-09	0.005823351	0.01047541	-8.903421e-10	4.447098e-09	-0.01930767	-0.04887926
2.3e+08	-0.02061416	-0.05119533	-8.89028e-10	3.96387e-09	0.006610055	0.01057411	-9.307424e-10	4.509467e-09
	-8.89028e-10	3.96387e-09	-0.02154932	-0.05064168	-8.321453e-10	4.351793e-09	0.006274632	0.01073687
	0.006610055	0.01057411	-8.321453e-10	4.351793e-09	-0.02040204	-0.051259	-9.665499e-10	4.708468e-09
	-9.307424e-10	4.509467e-09	0.006274632	0.01073687	-9.665499e-10	4.708468e-09	-0.0215973	-0.05048581
2.4e+08	-0.02290335	-0.05278822	-9.584915e-10	4.193391e-09	0.007091518	0.0107874	-1.003867e-09	4.768208e-09
	-9.584915e-10	4.193391e-09	-0.02391296	-0.05215836	-8.996554e-10	4.598105e-09	0.006733515	0.01097428
	0.007091518	0.0107874	-8.996554e-10	4.598105e-09	-0.0227006	-0.05284964	-1.042905e-09	4.977323e-09
	-1.003867e-09	4.768208e-09	0.006733515	0.01097428	-1.042905e-09	4.977323e-09	-0.02396781	-0.05199248
2.5e+08	-0.02526879	-0.05428411	-1.027741e-09	4.429687e-09	0.007579218	0.01097454	-1.076557e-09	5.034395e-09
	-1.027741e-09	4.429687e-09	-0.0263526	-0.05357231	-9.669768e-10	4.851233e-09	0.007198721	0.01118731
	0.007579218	0.01097454	-9.669768e-10	4.851233e-09	-0.0250754	-0.05434281	-1.118973e-09	5.253803e-09
	-1.076557e-09	5.034395e-09	0.007198721	0.01118731	-1.118973e-09	5.253803e-09	-0.02641446	-0.05339584
2.6e+08	-0.02770601	-0.05567986	-1.096386e-09	4.672869e-09	0.00807175	0.01113525	-1.148377e-09	5.308145e-09
	-1.096386e-09	4.672869e-09	-0.02886345	-0.05488035	-1.03372e-09	5.111285e-09	0.007668956	0.01137571
	0.00807175	0.01113525	-1.03372e-09	5.111285e-09	-0.02752198	-0.05573538	-1.194311e-09	5.53803e-09
	-1.148377e-09	5.308145e-09	0.007668956	0.01137571	-1.194311e-09	5.53803e-09	-0.02893244	-0.0546927
2.7e+08	-0.03021047	-0.05697251	-1.164034e-09	4.923027e-09	0.008567699	0.01126934	-1.218884e-09	5.589552e-09
	-1.164034e-09	4.923027e-09	-0.03144061	-0.05607954	-1.099489e-09	5.378354e-09	0.008142917	0.01153929
	0.008567699	0.01126934	-1.099489e-09	5.378354e-09	-0.03003578	-0.05702441	-1.268471e-09	5.8301e-09
	-1.218884e-09	5.589552e-09	0.008142917	0.01153929	-1.268471e-09	5.8301e-09	-0.0315168	-0.0558801
2.8e+08	-0.03277753	-0.05815935	-1.230282e-09	5.180232e-09	0.009065642	0.0113767	-1.287631e-09	5.878689e-09
	-1.230282e-09	5.180232e-09	-0.0340791	-0.05716716	-1.163886e-09	5.652511e-09	0.008619293	0.01167794
	0.009065642	0.0113767	-1.163886e-09	5.652511e-09	-0.03261216	-0.05820719	-1.340999e-09	6.13009e-09
	-1.287631e-09	5.878689e-09	0.008619293	0.01167794	-1.340999e-09	6.13009e-09	-0.03416254	-0.05695531
2.9e+08	-0.03540248	-0.05923787	-1.294727e-09	5.444536e-09	0.009564155	0.01145726	-1.354165e-09	6.175605e-09
	-1.294727e-09	5.444536e-09	-0.03677387	-0.05814072	-1.226504e-09	5.93381e-09	0.009096774	0.0117916
	0.009564155	0.01145726	-1.226504e-09	5.93381e-09	-0.03524639	-0.05928122	-1.411437e-09	6.438054e-09
	-1.354165e-09	6.175605e-09	0.009096774	0.0117916	-1.411437e-09	6.438054e-09	-0.03686454	-0.05791583
3e+08	-0.03808051	-0.06020577	-1.356959e-09	5.715969e-09	0.01006181	0.01151108	-1.418028e-09	6.480328e-09
	-1.356959e-09	5.715969e-09	-0.03951978	-0.05899798	-1.286937e-09	6.222284e-09	0.009574047	0.0118803
	0.01006181	0.01151108	-1.286937e-09	6.222284e-09	-0.03793367	-0.06024419	-1.479321e-09	6.754022e-09
	-1.418028e-09	6.480328e-09	0.009574047	0.0118803	-1.479321e-09	6.754022e-09	-0.03961765	-0.05875942
3.1e+08	-0.04080678	-0.06106095	-1.416611e-09	5.994508e-09	0.0105572	0.01153825	-1.478762e-09	6.792861e-09
	-1.416611e-09	5.994508e-09	-0.04231162	-0.05973691	-1.344833e-09	6.517887e-09	0.01004981	0.01194412
	0.0105572	0.01153825	-1.344833e-09	6.517887e-09	-0.04066912	-0.06109403	-1.544187e-09	7.078005e-09
	-1.478762e-09	6.792861e-09	0.01004981	0.01194412	-1.544187e-09	7.078005e-09	-0.0424166	-0.05948403
3.2e+08	-0.04357637	-0.06180157	-1.473317e-09	6.280113e-09	0.0110489	0.01153894	-1.535904e-09	7.113187e-09
	-1.473317e-09	6.280113e-09	-0.04514414	-0.06035573	-1.399848e-09	6.820552e-09	0.01052276	0.01198323
	0.0110489	0.01153894	-1.399848e-09	6.820552e-09	-0.04344784	-0.06182888	-1.605566e-09	7.409988e-09
	-1.535904e-09	7.113187e-09	0.01052276	0.01198323	-1.605566e-09	7.409988e-09	-0.04525611	-0.06008789
3.3e+08	-0.0463843	-0.06242595	-1.526579e-09	6.572824e-09	0.01153553	0.01151343	-1.588991e-09	7.441263e-09
	-1.526579e-09	6.572824e-09	-0.04801203	-0.06085289	-1.451455e-09	7.130374e-09	0.01099162	0.01199783
	0.01153553	0.01151343	-1.451455e-09	7.130374e-09	-0.04626483	-0.06244708	-1.66299e-09	7.749931e-09
	-1.588991e-09	7.441263e-09	0.01099162	0.01199783	-1.66299e-09	7.749931e-09	-0.04813083	-0.06056944
3.4e+08	-0.04922556	-0.06293268	-1.575982e-09	6.872594e-09	0.0120157	0.01146202	-1.63756e-09	7.777022e-09
	-1.575982e-09	6.872594e-09	-0.05090994	-0.06122707	-1.499363e-09	7.447205e-09	0.01145512	0.01198823
	0.0120157	0.01146202	-1.499363e-09	7.447205e-09	-0.04911507	-0.06294721	-1.716076e-09	8.097715e-09
	-1.63756e-09	7.777022e-09	0.01145512	0.01198823	-1.716076e-09	8.097715e-09	-0.05103537	-0.06092737
3.5e+08	-0.0520951	-0.06332052	-1.621109e-09	7.179351e-09	0.01248806	0.01138512	-1.681147e-09	8.120376e-09
	-1.621109e-09	7.179351e-09	-0.0538325	-0.06147719	-1.54313e-09	7.771015e-09	0.011912	0.01195477
	0.01248806	0.01138512	-1.54313e-09	7.771015e-09	-0.0519935	-0.06332805	-1.764333e-09	8.453278e-09
	-1.681147e-09	8.120376e-09	0.011912	0.01195477	-1.764333e-09	8.453278e-09	-0.05396432	-0.06116059
3.6e+08	-0.05498785	-0.06358848	-1.661545e-09	7.493003e-09	0.01295128	0.01128319	-1.719292e-09	8.47121e-09
	-1.661545e-09	7.493003e-09	-0.05677432	-0.06160239	-1.582263e-09	8.101787e-09	0.01236105	0.01189787
	0.01295128	0.01128319	-1.582263e-09	8.101787e-09	-0.05489504	-0.06358859	-1.807239e-09	8.816552e-09
	-1.719292e-09	8.47121e-09	0.01236105	0.01189787	-1.807239e-09	8.816552e-09	-0.05691223	-0.06126827
3.7e+08	-0.05789871	-0.06373577	-1.696879e-09	7.813438e-09	0.01340404	0.01115676	-1.751538e-09	8.829389e-09
	-1.696879e-09	7.813438e-09	-0.05972997	-0.06160208	-1.616353e-09	8.439416e-09	0.01280106	0.011818
	0.01340404	0.01115676	-1.616353e-09	8.439416e-09	-0.05781457	-0.06372806	-1.844328e-09	9.187403e-09
	-1.751538e-09	8.829389e-09	0.01280106	0.011818	-1.844328e-09	9.187403e-09	-0.05987367	-0.0612498
3.8e+08	-0.06082257	-0.06376182	-1.726702e-09	8.140523e-09	0.01384509	0.01100644	-1.777429e-09	9.194752e-09
	-1.726702e-09	8.140523e-09	-0.06269404	-0.06147586	-1.64499e-09	8.783776e-09	0.01323085	0.01171571
	0.01384509	0.01100644	-1.64499e-09	8.783776e-09	-0.06074698	-0.06374588	-1.875141e-09	9.565677e-09
	-1.777429e-09	9.194752e-09	0.01323085	0.01171571	-1.875141e-09	9.565677e-09	-0.06284316	-0.0611048
3.9e+08	-0.06375433	-0.06366626	-1.750609e-09	8.474104e-09	0.01427317	0.01083288	-1.796518e-09	9.567113e-09
	-1.750609e-09	8.474104e-09	-0.06566114	-0.06122358	-1.667771e-09	9.134721e-09	0.0136493	0.0115916
	0.01427317	0.01083288	-1.667771e-09	9.134721e-09	-0.06368714	-0.0636417	-1.899222e-09	9.951194e-09
	-1.796518e-09	9.567113e-09	0.0136493	0.0115916	-1.899222e-09	9.951194e-09	-0.06581528	-0.06083314
4e+08	-0.06668887	-0.06344896	-1.768199e-09	8.814007e-09	0.01468709	0.01063682	-1.808362e-09	9.946266e-09
	-1.768199e-09	8.814007e-09	-0.06862586	-0.06084533	-1.684297e-09	9.492082e-09	0.01405529	0.0114463
	0.01468709	0.01063682	-1.684297e-09	9.492082e-09	-0.06662994	-0.06341537	-1.916121e-09	1.034375e-08
	-1.808362e-09	9.946266e-09	0.01405529	0.0114463	-1.916121e-09	1.034375e-08	-0.06878457	-0.06043491
4.1e+08	-0.06962111	-0.06310997	-1.779079e-09	9.160035e-09	0.01508569	0.01041904	-1.812528e-09	1.033198e-08
	-1.779079e-09	9.160035e-09	-0.07158284	-0.0603414	-1.694175e-09	9.855674e-09	0.01444776	0.01128053
	0.01508569	0.01041904	-1.694175e-09	9.855674e-09	-0.06957027	-0.06306696	-1.925397e-09	1.074312e-08
	-1.812528e-09	1.033198e-08	0.01444776	0.01128053	-1.925397e-09	1.074312e-08	-0.07174565	-0.05991044
4.2e+08	-0.07254597	-0.06264959	-1.782863e-09	9.511974e-09	0.01546786	0.01018037	-1.808589e-09	1.0724e-08
	-1.782863e-09	9.511974e-09	-0.07452674	-0.05971234	-1.697017e-09	1.022529e-08	0.01482567	0.01109505
	0.01546786	0.01018037	-1.697017e-09	1.022529e-08	-0.07250304	-0.06259676	-1.926615e-09	1.114906e-08
	-1.808589e-09	1.0724e-08	0.01482567	0.01109505	-1.926615e-09	1.114906e-08	-0.07469314	-0.05926027
4.3e+08	-0.07545841	-0.06206828	-1.779171e-09	9.869586e-09	0.01583252	0.00992173	-1.796128e-09	1.112204e-08
	-1.779171e-09	9.869586e-09	-0.07745227	-0.0589589	-1.692444e-09	1.06007e-08	0.01518805	0.01089067
	0.01583252	0.00992173	-1.692444e-09	1.06007e-08	-0.07542321	-0.06200525	-1.919351e-09	1.156129e-08
	-1.796128e-09	1.112204e-08	0.01518805	0.01089067	-1.919351e-09	1.156129e-08	-0.07762171	-0.05848518
4.4e+08	-0.07835343	-0.06136676	-1.767634e-09	1.023262e-08	0.01617866	0.009644052	-1.774741e-09	1.152581e-08
	-1.767634e-09	1.023262e-08	-0.08035419	-0.05808205	-1.680084e-09	1.098166e-08	0.01553394	0.01066823
	0.01617866	0.009644052	-1.680084e-09	1.098166e-08	-0.07832575	-0.06129313	-1.903192e-09	1.197951e-08
	-1.774741e-09	1.152581e-08	0.01553394	0.01066823	-1.903192e-09	1.197951e-08	-0.08052608	-0.05758617
4.5e+08	-0.08122606	-0.0605459	-1.747892e-09	1.060079e-08	0.0165053	0.009348339	-1.744034e-09	1.193499e-08
	-1.747892e-09	1.060079e-08	-0.08322731	-0.05708299	-1.659576e-09	1.136791e-08	0.01586246	0.01042864
	0.0165053	0.009348339	-1.659576e-09	1.136791e-08	-0.08120569	-0.0604613	-1.877735e-09	1.240342e-08
	-1.744034e-09	1.193499e-08	0.01586246	0.01042864	-1.877735e-09	1.240342e-08	-0.08340104	-0.05656446
4.6e+08	-0.0840714	-0.05960681	-1.719595e-09	1.09738e-08	0.01681154	0.009035636	-1.703627e-09	1.234923e-08
	-1.719595e-09	1.09738e-08	-0.08606652	-0.05596313	-1.630568e-09	1.175915e-08	0.01617276	0.01017284
	0.01681154	0.009035636	-1.630568e-09	1.175915e-08	-0.0840581	-0.05951085	-1.84259e-09	1.283266e-08
	-1.703627e-09	1.234923e-08	0.01617276	0.01017284	-1.84259e-09	1.283266e-08	-0.08624143	-0.05542149
4.7e+08	-0.0868846	-0.05855077	-1.682406e-09	1.135135e-08	0.01709651	0.008707031	-1.653154e-09	1.276817e-08
	-1.682406e-09	1.135135e-08	-0.08886678	-0.05472409	-1.592719e-09	1.215509e-08	0.01646403	0.009901807
	0.01709651	0.008707031	-1.592719e-09	1.215509e-08	-0.08687812	-0.05844309	-1.797383e-09	1.326688e-08
	-1.653154e-09	1.276817e-08	0.01646403	0.009901807	-1.797383e-09	1.326688e-08	-0.08904218	-0.05415889
