!$
! Info: Touchstone file created by Circ.  Input file=Tx_2in_Rx_100ohms_TxVia_60mils_RxVia_70mils.circ
!$
# Hz S RI R 50
0	0.002233845	5.999624e-26	3.107174e-08	8.56569e-27	3.426259e-05	4.768789e-24	6.608866e-08	2.064583e-27
	3.107174e-08	8.565499e-27	0.002229204	5.827351e-26	6.375286e-08	2.749508e-26	3.097381e-05	5.307954e-24
	3.548288e-05	4.633651e-24	6.375287e-08	2.749376e-26	0.002244819	5.955471e-26	2.429134e-08	1.138296e-26
	6.608869e-08	2.064981e-27	3.124381e-05	5.330717e-24	2.429164e-08	1.138856e-26	0.002243827	5.798133e-26
1e+07	0.003180067	0.001815881	4.51274e-08	9.963306e-08	0.0001269143	0.0006233688	9.489326e-08	2.911728e-07
	4.512741e-08	9.963307e-08	0.003178782	0.001815658	8.351327e-08	2.945524e-07	0.0001262606	0.0006234938
	0.0001269839	0.0006233367	8.351328e-08	2.945524e-07	0.00316399	0.001824121	3.07946e-08	1.346041e-07
	9.489327e-08	2.911728e-07	0.0001262627	0.0006234913	3.07946e-08	1.346041e-07	0.003162521	0.001823956
2e+07	0.003973434	0.002939019	6.519671e-08	1.810041e-07	0.0001426506	0.001270816	1.681984e-07	5.015938e-07
	6.519672e-08	1.810041e-07	0.00396793	0.002938302	1.313945e-07	5.10838e-07	0.0001399432	0.001271226
	0.0001426361	0.001270779	1.313945e-07	5.10838e-07	0.003966294	0.002965777	6.53753e-08	2.024836e-07
	1.681984e-07	5.015938e-07	0.0001399396	0.001271227	6.537529e-08	2.024836e-07	0.00396004	0.002965109
3e+07	0.004634195	0.003779831	8.641326e-08	2.584862e-07	0.0001938938	0.001879499	2.490655e-07	7.051245e-07
	8.641326e-08	2.584862e-07	0.004621989	0.003779356	1.679681e-07	7.27699e-07	0.000187861	0.001880428
	0.0001938901	0.001879499	1.679681e-07	7.27699e-07	0.004635072	0.003817212	9.425742e-08	2.847323e-07
	2.490655e-07	7.051245e-07	0.0001878607	0.00188043	9.425742e-08	2.847323e-07	0.004621274	0.003816974
4e+07	0.005241241	0.004501979	1.096735e-07	3.329248e-07	0.0002823898	0.002473553	3.391933e-07	9.027373e-07
	1.096735e-07	3.329248e-07	0.005219471	0.004501885	1.992887e-07	9.435804e-07	0.0002717232	0.00247531
	0.000282395	0.002473552	1.992887e-07	9.435804e-07	0.005250292	0.004547608	1.207683e-07	3.66118e-07
	3.391933e-07	9.027373e-07	0.0002717239	0.002475311	1.207683e-07	3.66118e-07	0.005225747	0.004547898
5e+07	0.00582253	0.005145171	1.355519e-07	4.047764e-07	0.000436981	0.003051556	4.419462e-07	1.0943e-06
	1.355519e-07	4.047764e-07	0.005788172	0.005146444	2.285054e-07	1.156944e-06	0.0004204138	0.003054522
	0.0004369837	0.003051555	2.285054e-07	1.156944e-06	0.005839899	0.005197455	1.489477e-07	4.452291e-07
	4.419462e-07	1.0943e-06	0.0004204147	0.003054522	1.489477e-07	4.452291e-07	0.005801167	0.005199417
6e+07	0.006391688	0.005727938	1.64219e-07	4.741774e-07	0.0006151657	0.003617137	5.588323e-07	1.277869e-06
	1.64219e-07	4.741774e-07	0.006342228	0.005731799	2.572123e-07	1.367818e-06	0.0005914752	0.003621799
	0.0006151651	0.003617139	2.572123e-07	1.367818e-06	0.006417569	0.005785641	1.798904e-07	5.218237e-07
	5.588323e-07	1.277869e-06	0.0005914765	0.003621799	1.798904e-07	5.218237e-07	0.006361857	0.005790692
7e+07	0.006956156	0.00626046	1.956686e-07	5.410479e-07	0.0008168119	0.004169925	6.902154e-07	1.451488e-06
	1.956686e-07	5.410479e-07	0.006889215	0.006267976	2.863586e-07	1.576235e-06	0.0007848111	0.004176847
	0.0008168103	0.00416993	2.863586e-07	1.576235e-06	0.006990777	0.006322455	2.139198e-07	5.956609e-07
	6.902154e-07	1.451488e-06	0.0007848129	0.004176847	2.139198e-07	5.956609e-07	0.006915447	0.006331784
8e+07	0.007520175	0.006749287	2.297738e-07	6.052459e-07	0.001041576	0.004709083	8.357757e-07	1.613422e-06
	2.297738e-07	6.052459e-07	0.007433191	0.006761531	3.165239e-07	1.782063e-06	0.001000116	0.004718908
	0.001041576	0.004709089	3.165239e-07	1.782063e-06	0.00756373	0.006814445	2.511033e-07	6.66474e-07
	8.357757e-07	1.613422e-06	0.001000118	0.004718907	2.511033e-07	6.66474e-07	0.007465892	0.006829232
9e+07	0.008086369	0.007199594	2.663176e-07	6.666273e-07	0.001288903	0.005233325	9.94766e-07	1.762165e-06
	2.663176e-07	6.666273e-07	0.007976577	0.007217908	3.480411e-07	1.985066e-06	0.001236872	0.005246773
	0.001288903	0.005233329	3.480411e-07	1.985066e-06	0.008138962	0.007266708	2.913754e-07	7.339771e-07
	9.94766e-07	1.762165e-06	0.001236874	0.005246772	2.913754e-07	7.339771e-07	0.008015462	0.007288461
1e+08	0.008657609	0.007619752	3.050216e-07	7.250772e-07	0.001557606	0.005739412	1.166171e-06	1.896405e-06
	3.050216e-07	7.250772e-07	0.008522201	0.007645898	3.810879e-07	2.184953e-06	0.001493933	0.00575728
	0.001557606	0.005739412	3.810879e-07	2.184953e-06	0.008719124	0.0076871	3.345827e-07	7.978839e-07
	1.166171e-06	1.896405e-06	0.001493933	0.00575728	3.345827e-07	7.978839e-07	0.008566742	0.007717841
1.1e+08	0.009252936	0.007997287	3.46254e-07	7.809769e-07	0.001839318	0.006232763	1.349351e-06	2.02165e-06
	3.46254e-07	7.809769e-07	0.009090254	0.008032946	4.133247e-07	2.384337e-06	0.001763006	0.006255931
	0.001839318	0.006232763	4.133247e-07	2.384337e-06	0.009321385	0.008064775	3.798008e-07	8.594818e-07
	1.349351e-06	2.02165e-06	0.001763004	0.006255932	3.798008e-07	8.594818e-07	0.009138349	0.008106431
1.2e+08	0.009849247	0.008329743	3.896486e-07	8.33944e-07	0.002143297	0.006714118	1.543816e-06	2.133728e-06
	3.896486e-07	8.33944e-07	0.009657049	0.008376932	4.461502e-07	2.581982e-06	0.002053395	0.006743519
	0.002143296	0.006714118	4.461502e-07	2.581982e-06	0.009925009	0.008397673	4.274034e-07	9.178788e-07
	1.543816e-06	2.133728e-06	0.002053393	0.006743519	4.274034e-07	9.178788e-07	0.009708819	0.008452506
1.3e+08	0.01044771	0.008624246	4.350594e-07	8.838721e-07	0.002468323	0.007179987	1.748846e-06	2.23197e-06
	4.350594e-07	8.838721e-07	0.01022394	0.0086851	4.795699e-07	2.777922e-06	0.002363934	0.007216619
	0.002468323	0.007179987	4.795699e-07	2.777922e-06	0.01053102	0.008692325	4.772285e-07	9.729541e-07
	1.748846e-06	2.23197e-06	0.002363933	0.00721662	4.772285e-07	9.729541e-07	0.01027938	0.008762738
1.4e+08	0.01104837	0.008883052	4.823301e-07	9.306538e-07	0.002813472	0.007628854	1.963669e-06	2.315736e-06
	4.823301e-07	9.306538e-07	0.01079113	0.008959818	5.135635e-07	2.972191e-06	0.002693759	0.00767378
	0.002813472	0.007628854	5.135635e-07	2.972191e-06	0.01113941	0.008950862	5.291033e-07	1.024589e-06
	1.963669e-06	2.315736e-06	0.002693758	0.007673781	5.291033e-07	1.024589e-06	0.01085019	0.009039388
1.5e+08	0.01165099	0.009107544	5.312932e-07	9.741846e-07	0.003177813	0.00805952	2.187461e-06	2.384416e-06
	5.312932e-07	9.741846e-07	0.0113585	0.009202587	5.481e-07	3.164813e-06	0.003042002	0.008113862
	0.003177813	0.00805952	5.481e-07	3.164813e-06	0.0117499	0.009174614	5.828434e-07	1.072668e-06
	2.187461e-06	2.384416e-06	0.003042001	0.008113863	5.828434e-07	1.072668e-06	0.0114211	0.009283924
1.6e+08	0.01225512	0.009298702	5.81771e-07	1.014365e-06	0.003560381	0.00847093	2.419361e-06	2.437434e-06
	5.81771e-07	1.014365e-06	0.01192574	0.009414508	5.831409e-07	3.355811e-06	0.003407765	0.008535867
	0.003560381	0.00847093	5.831409e-07	3.355811e-06	0.012362	0.00936453	6.382542e-07	1.117082e-06
	2.419361e-06	2.437434e-06	0.003407765	0.008535868	6.382542e-07	1.117082e-06	0.0119918	0.009497429
1.7e+08	0.01286021	0.009457269	6.335766e-07	1.051101e-06	0.00396017	0.008862119	2.658463e-06	2.474254e-06
	6.335766e-07	1.051101e-06	0.01249243	0.009596444	6.186411e-07	3.545199e-06	0.003790111	0.008938884
	0.00396017	0.008862119	6.186411e-07	3.545199e-06	0.01297513	0.009521333	6.951308e-07	1.157731e-06
	2.658463e-06	2.474254e-06	0.003790111	0.008938885	6.951308e-07	1.157731e-06	0.01256186	0.009680763
1.8e+08	0.0134656	0.009583834	6.865142e-07	1.08431e-06	0.004376128	0.009232198	2.903827e-06	2.494381e-06
	6.865142e-07	1.08431e-06	0.01305806	0.0097491	6.545499e-07	3.732994e-06	0.004188062	0.009322074
	0.004376128	0.009232198	6.545499e-07	3.732994e-06	0.01358859	0.009645607	7.532599e-07	1.194521e-06
	2.903827e-06	2.494381e-06	0.004188062	0.009322074	7.532599e-07	1.194521e-06	0.01313075	0.009834636
1.9e+08	0.01407053	0.009678897	7.403808e-07	1.113915e-06	0.004807166	0.009580345	3.154476e-06	2.49737e-06
	7.403808e-07	1.113915e-06	0.01362205	0.009873082	6.908117e-07	3.919209e-06	0.004600602	0.009684659
	0.004807166	0.009580345	6.908117e-07	3.919209e-06	0.01420161	0.009737837	8.124195e-07	1.22737e-06
	3.154476e-06	2.49737e-06	0.004600602	0.009684659	8.124195e-07	1.22737e-06	0.01369786	0.009959656
2e+08	0.0146742	0.009742881	7.949667e-07	1.139851e-06	0.005252151	0.009905801	3.409404e-06	2.482826e-06
	7.949667e-07	1.139851e-06	0.01418375	0.009968915	7.273668e-07	4.103856e-06	0.00502668	0.01002592
	0.005252151	0.009905801	7.273668e-07	4.103856e-06	0.01481335	0.00979845	8.723809e-07	1.256207e-06
	3.409404e-06	2.482826e-06	0.00502668	0.01002592	8.723809e-07	1.256207e-06	0.01426256	0.01005636
2.1e+08	0.01527574	0.009776176	8.500564e-07	1.162065e-06	0.005709918	0.01020787	3.667577e-06	2.450404e-06
	8.500564e-07	1.162065e-06	0.01474246	0.01003708	7.641515e-07	4.286952e-06	0.005465209	0.0103452
	0.005709919	0.01020787	7.641515e-07	4.286952e-06	0.0154229	0.009827827	9.32909e-07	1.280972e-06
	3.667577e-06	2.450404e-06	0.005465209	0.0103452	9.32909e-07	1.280972e-06	0.01482414	0.01012523
2.2e+08	0.01587424	0.009779144	9.054297e-07	1.180514e-06	0.006179266	0.01048591	3.927938e-06	2.399818e-06
	9.054297e-07	1.180514e-06	0.01529745	0.01007801	8.010995e-07	4.468513e-06	0.005915072	0.0106419
	0.006179266	0.01048591	8.010995e-07	4.468513e-06	0.01602933	0.009826331	9.937633e-07	1.30162e-06
	3.927938e-06	2.399818e-06	0.005915072	0.0106419	9.937633e-07	1.30162e-06	0.01538185	0.01016671
2.3e+08	0.01646875	0.009752149	9.608624e-07	1.195168e-06	0.006658964	0.01073936	4.189407e-06	2.330839e-06
	9.608624e-07	1.195168e-06	0.01584795	0.01009215	8.381421e-07	4.648558e-06	0.006375124	0.01091547
	0.006658964	0.01073936	8.381421e-07	4.648558e-06	0.01663166	0.009794327	1.054699e-06	1.318115e-06
	4.189407e-06	2.330839e-06	0.006375124	0.01091547	1.054699e-06	1.318115e-06	0.01593493	0.01018125
2.4e+08	0.01705828	0.009695542	1.016127e-06	1.206007e-06	0.007147754	0.0109677	4.45089e-06	2.243293e-06
	1.016127e-06	1.206007e-06	0.01639317	0.0100799	8.752088e-07	4.827109e-06	0.006844193	0.01116543
	0.007147754	0.0109677	8.752088e-07	4.827109e-06	0.01722887	0.00973217	1.115468e-06	1.330439e-06
	4.45089e-06	2.243293e-06	0.006844193	0.01116543	1.115468e-06	1.330439e-06	0.01648256	0.01016927
2.5e+08	0.01764182	0.0096097	1.070995e-06	1.213028e-06	0.007644352	0.0111705	4.711278e-06	2.137068e-06
	1.070995e-06	1.213028e-06	0.01693228	0.01004168	9.122278e-07	5.004193e-06	0.007321084	0.01139136
	0.007644352	0.0111705	9.122278e-07	5.004193e-06	0.01781991	0.009640241	1.17582e-06	1.338583e-06
	4.711278e-06	2.137068e-06	0.007321084	0.01139136	1.17582e-06	1.338583e-06	0.01702393	0.01013119
2.6e+08	0.01821834	0.009495011	1.125234e-06	1.216237e-06	0.008147454	0.01134737	4.969451e-06	2.012114e-06
	1.125234e-06	1.216237e-06	0.01746445	0.009977934	9.491269e-07	5.179837e-06	0.007804581	0.01159288
	0.008147454	0.01134737	9.491269e-07	5.179837e-06	0.01840373	0.009518931	1.235503e-06	1.342555e-06
	4.969451e-06	2.012114e-06	0.007804581	0.01159288	1.235503e-06	1.342555e-06	0.01755819	0.01006746
2.7e+08	0.0187868	0.009351888	1.178614e-06	1.215653e-06	0.008655737	0.011498	5.224283e-06	1.868439e-06
	1.178614e-06	1.215653e-06	0.01798883	0.009889088	9.858335e-07	5.354076e-06	0.008293455	0.01176969
	0.008655737	0.011498	9.858335e-07	5.354076e-06	0.01897926	0.00936866	1.294262e-06	1.342378e-06
	5.224283e-06	1.868439e-06	0.008293454	0.01176969	1.294262e-06	1.342378e-06	0.0180845	0.009978522
2.8e+08	0.01934614	0.009180773	1.230901e-06	1.21131e-06	0.009167866	0.01162213	5.474646e-06	1.706116e-06
	1.230901e-06	1.21131e-06	0.01850456	0.0097756	1.022275e-06	5.526946e-06	0.008786457	0.01192155
	0.009167866	0.01162213	1.022275e-06	5.526946e-06	0.01954542	0.009189884	1.351846e-06	1.338085e-06
	5.474646e-06	1.706116e-06	0.008786457	0.01192155	1.351846e-06	1.338085e-06	0.01860198	0.009864844
2.9e+08	0.01989531	0.008982139	1.281867e-06	1.203254e-06	0.009682491	0.0117196	5.71941e-06	1.525278e-06
	1.281867e-06	1.203254e-06	0.0190108	0.009637952	1.05838e-06	5.698488e-06	0.009282332	0.01204828
	0.009682491	0.0117196	1.05838e-06	5.698488e-06	0.0201011	0.008983082	1.408003e-06	1.329727e-06
	5.71941e-06	1.525278e-06	0.009282332	0.01204828	1.408003e-06	1.329727e-06	0.01910978	0.009726911
3e+08	0.02043325	0.008756492	1.331281e-06	1.191543e-06	0.01019825	0.01179028	5.957449e-06	1.32612e-06
	1.331281e-06	1.191543e-06	0.01950667	0.009476641	1.094078e-06	5.868747e-06	0.009779813	0.01214976
	0.01019825	0.01179028	1.094078e-06	5.868747e-06	0.02064523	0.008748774	1.462481e-06	1.317368e-06
	5.957449e-06	1.32612e-06	0.009779813	0.01214976	1.462481e-06	1.317368e-06	0.01960704	0.009565235
3.1e+08	0.02095889	0.00850438	1.378918e-06	1.17625e-06	0.01071379	0.01183414	6.187645e-06	1.108902e-06
	1.378918e-06	1.17625e-06	0.01999132	0.009292199	1.129299e-06	6.03777e-06	0.01027763	0.01222594
	0.01071379	0.01183414	1.129299e-06	6.03777e-06	0.02117671	0.008487521	1.515033e-06	1.301085e-06
	6.187645e-06	1.108902e-06	0.01027763	0.01222594	1.515033e-06	1.301085e-06	0.02009288	0.009380356
3.2e+08	0.0214712	0.008226381	1.424553e-06	1.157459e-06	0.01122775	0.01185118	6.408889e-06	8.739431e-07
	1.424553e-06	1.157459e-06	0.0204639	0.009085175	1.163976e-06	6.205611e-06	0.01077451	0.01227681
	0.01122775	0.01185118	1.163976e-06	6.205611e-06	0.02169446	0.008199921	1.565416e-06	1.28097e-06
	6.408889e-06	8.739431e-07	0.01077451	0.01227681	1.565416e-06	1.28097e-06	0.02056646	0.009172838
3.3e+08	0.02196911	0.007923119	1.467966e-06	1.135267e-06	0.01173875	0.01184151	6.620085e-06	6.216249e-07
	1.467966e-06	1.135267e-06	0.02092356	0.008856156	1.198043e-06	6.372327e-06	0.01126919	0.01230245
	0.01173875	0.01184151	1.198043e-06	6.372327e-06	0.02219742	0.007886609	1.613387e-06	1.25713e-06
	6.620085e-06	6.216249e-07	0.01126919	0.01230245	1.613387e-06	1.25713e-06	0.02102693	0.008943272
3.4e+08	0.02245162	0.007595258	1.508942e-06	1.109783e-06	0.01224545	0.01180528	6.820154e-06	3.523901e-07
	1.508942e-06	1.109783e-06	0.02136948	0.008605756	1.231436e-06	6.537976e-06	0.01176039	0.012303
	0.01224545	0.01180528	1.231436e-06	6.537976e-06	0.02268453	0.007548273	1.658712e-06	1.229683e-06
	6.820154e-06	3.523901e-07	0.01176039	0.012303	1.658712e-06	1.229683e-06	0.02147345	0.008692288
3.5e+08	0.0229177	0.007243499	1.54727e-06	1.081131e-06	0.01274649	0.01174271	7.008038e-06	6.674137e-08
	1.54727e-06	1.081131e-06	0.02180083	0.008334615	1.264095e-06	6.702623e-06	0.01224685	0.01227863
	0.01274649	0.01174271	1.264095e-06	6.702623e-06	0.02315474	0.007185634	1.70116e-06	1.198761e-06
	7.008038e-06	6.674137e-08	0.01224685	0.01227863	1.70116e-06	1.198761e-06	0.02190521	0.008420536
3.6e+08	0.02336637	0.006868589	1.582747e-06	1.049443e-06	0.01324053	0.01165409	7.182701e-06	-2.347591e-07
	1.582747e-06	1.049443e-06	0.02221682	0.008043408	1.295961e-06	6.866336e-06	0.01272733	0.01222962
	0.01324053	0.01165409	1.295961e-06	6.866336e-06	0.02360705	0.00679946	1.740509e-06	1.164511e-06
	7.182701e-06	-2.347591e-07	0.01272733	0.01222962	1.740509e-06	1.164511e-06	0.0223214	0.008128702
3.7e+08	0.02379664	0.006471311	1.615174e-06	1.014866e-06	0.01372626	0.01153978	7.343135e-06	-5.514911e-07
	1.615174e-06	1.014866e-06	0.02261666	0.007732839	1.326979e-06	7.029185e-06	0.01320059	0.01215627
	0.01372626	0.01153978	1.326979e-06	7.029185e-06	0.02404045	0.006390561	1.776541e-06	1.127091e-06
	7.343135e-06	-5.514911e-07	0.01320059	0.01215627	1.776541e-06	1.127091e-06	0.02272123	0.007817503
3.8e+08	0.02420758	0.006052493	1.644361e-06	9.775554e-07	0.01420236	0.0114002	7.488358e-06	-8.827774e-07
	1.644361e-06	9.775554e-07	0.0229996	0.007403642	1.357096e-06	7.191244e-06	0.0136654	0.01205897
	0.01420236	0.0114002	1.357096e-06	7.191244e-06	0.02445396	0.005959789	1.809047e-06	1.086673e-06
	7.488358e-06	-8.827774e-07	0.0136654	0.01205897	1.809047e-06	1.086673e-06	0.02310396	0.007487685
3.9e+08	0.02459826	0.005613001	1.670123e-06	9.376807e-07	0.01466755	0.01123584	7.617424e-06	-1.227885e-06
	1.670123e-06	9.376807e-07	0.02336489	0.007056582	1.386266e-06	7.35259e-06	0.01412056	0.01193815
	0.01466755	0.01123584	1.386266e-06	7.35259e-06	0.02484666	0.005508038	1.837828e-06	1.043439e-06
	7.617424e-06	-1.227885e-06	0.01412056	0.01193815	1.837828e-06	1.043439e-06	0.02346883	0.007140024
4e+08	0.02496781	0.005153743	1.692286e-06	8.954201e-07	0.01512057	0.01104725	7.729421e-06	-1.586028e-06
	1.692286e-06	8.954201e-07	0.02371183	0.006692455	1.414442e-06	7.513304e-06	0.0145649	0.0117943
	0.01512057	0.01104725	1.414442e-06	7.513304e-06	0.02521764	0.005036243	1.86269e-06	9.975836e-07
	7.729421e-06	-1.586028e-06	0.0145649	0.0117943	1.86269e-06	9.975836e-07	0.02381515	0.006775328
4.1e+08	0.02531536	0.004675665	1.710685e-06	8.509628e-07	0.01556019	0.01083504	7.823474e-06	-1.956367e-06
	1.710685e-06	8.509628e-07	0.02403973	0.006312083	1.441584e-06	7.673469e-06	0.01499725	0.01162799
	0.01556019	0.01083504	1.441584e-06	7.673469e-06	0.02556601	0.004545381	1.883454e-06	9.493135e-07
	7.823474e-06	-1.956367e-06	0.01499725	0.01162799	1.883454e-06	9.493135e-07	0.02414222	0.006394434
4.2e+08	0.02564009	0.00417975	1.725161e-06	8.045075e-07	0.01598521	0.01059989	7.898752e-06	-2.338012e-06
	1.725161e-06	8.045075e-07	0.02434794	0.005916319	1.467655e-06	7.833171e-06	0.01541649	0.01143982
	0.01598521	0.01059989	1.467655e-06	7.833171e-06	0.02589093	0.004036465	1.899947e-06	8.988452e-07
	7.898752e-06	-2.338012e-06	0.01541649	0.01143982	1.899947e-06	8.988452e-07	0.0244494	0.005998203
4.3e+08	0.02594122	0.003667016	1.73557e-06	7.562624e-07	0.01639444	0.01034252	7.954464e-06	-2.730027e-06
	1.73557e-06	7.562624e-07	0.02463584	0.00550604	1.492622e-06	7.992497e-06	0.01582152	0.01123047
	0.01639444	0.01034252	1.492622e-06	7.992497e-06	0.02619162	0.003510549	1.912008e-06	8.464057e-07
	7.954464e-06	-2.730027e-06	0.01582152	0.01123047	1.912008e-06	8.464057e-07	0.02473606	0.00558753
4.4e+08	0.02621801	0.003138518	1.741774e-06	7.064448e-07	0.01678676	0.01006373	7.989868e-06	-3.131425e-06
	1.741774e-06	7.064448e-07	0.02490283	0.005082151	1.516457e-06	8.151538e-06	0.01621127	0.01100064
	0.01678676	0.01006373	1.516457e-06	8.151538e-06	0.02646731	0.002968717	1.919488e-06	7.922318e-07
	7.989868e-06	-3.131425e-06	0.01621127	0.01100064	1.919488e-06	7.922318e-07	0.02500161	0.005163327
4.5e+08	0.02646976	0.002595345	1.743648e-06	6.552801e-07	0.01716107	0.009764356	8.004271e-06	-3.54118e-06
	1.743648e-06	6.552801e-07	0.02514836	0.004645582	1.539135e-06	8.310386e-06	0.01658472	0.01075111
	0.01716107	0.009764356	1.539135e-06	8.310386e-06	0.02671729	0.002412096	1.92225e-06	7.365693e-07
	8.004271e-06	-3.54118e-06	0.01658472	0.01075111	1.92225e-06	7.365693e-07	0.02524552	0.004726541
4.6e+08	0.02669582	0.002038618	1.741079e-06	6.030015e-07	0.01751632	0.009445309	7.997029e-06	-3.958221e-06
	1.741079e-06	6.030015e-07	0.02537192	0.004197288	1.560639e-06	8.469136e-06	0.01694086	0.0104827
	0.01751632	0.009445309	1.560639e-06	8.469136e-06	0.02694088	0.001841841	1.920169e-06	6.796727e-07
	7.997029e-06	-3.958221e-06	0.01694086	0.0104827	1.920169e-06	6.796727e-07	0.02546725	0.004278136
4.7e+08	0.02689556	0.001469487	1.733965e-06	5.498498e-07	0.01785149	0.009107539	7.967554e-06	-4.38144e-06
	1.733965e-06	5.498498e-07	0.02557302	0.003738243	1.580952e-06	8.627883e-06	0.01727875	0.01019629
	0.01785149	0.009107539	1.580952e-06	8.627883e-06	0.02713747	0.001259135	1.913131e-06	6.218048e-07
	7.967554e-06	-4.38144e-06	0.01727875	0.01019629	1.913131e-06	6.218048e-07	0.02566633	0.003819097
4.8e+08	0.02706842	0.0008891294	1.722215e-06	4.960721e-07	0.01816562	0.008752048	7.915311e-06	-4.809691e-06
	1.722215e-06	4.960721e-07	0.02575121	0.003269442	1.600065e-06	8.786725e-06	0.01759747	0.009892792
	0.01816562	0.008752048	1.600065e-06	8.786725e-06	0.02730647	0.0006651973	1.901039e-06	5.632351e-07
	7.915311e-06	-4.809691e-06	0.01759747	0.009892792	1.901039e-06	5.632351e-07	0.02584232	0.003350435
4.9e+08	0.0272139	0.0002987543	1.705753e-06	4.419218e-07	0.01845779	0.008379887	7.839825e-06	-5.241794e-06
	1.705753e-06	4.419218e-07	0.0259061	0.002791906	1.617975e-06	8.94576e-06	0.01789616	0.009573168
