!$
! Info: Touchstone file created by Circ.  Input file=Tx_2in_Rx_93ohms_TxVia_60mils_RxVia_70mils.circ
!$
# Hz S RI R 50
0	0.001990976	5.231904e-26	-1.099539e-05	7.626043e-24	3.076224e-05	3.828564e-24	-1.103248e-05	1.219677e-23
	-1.099539e-05	7.625904e-24	0.001986313	5.824879e-26	-1.095836e-05	3.115989e-24	3.096643e-05	4.712347e-24
	3.174565e-05	3.89568e-24	-1.095836e-05	3.115747e-24	0.002005275	5.018735e-26	-1.09909e-05	7.12957e-24
	-1.103248e-05	1.219652e-23	3.123644e-05	4.732556e-24	-1.09909e-05	7.129693e-24	0.002000943	5.795663e-26
1e+07	0.0029485	0.0004004309	-5.321417e-05	-1.769204e-05	6.102825e-05	0.0005835619	-3.178558e-05	2.295315e-05
	-5.321417e-05	-1.769204e-05	0.002914512	0.000273366	-6.149101e-07	-1.801674e-06	6.098785e-05	0.000616112
	6.103757e-05	0.0005835297	-6.149104e-07	-1.801673e-06	0.002776785	0.0002884985	-3.111772e-06	-2.781345e-07
	-3.178558e-05	2.295315e-05	6.098988e-05	0.0006161095	-3.111772e-06	-2.78135e-07	0.002873464	0.0002746849
2e+07	0.003691593	7.334518e-05	-5.542496e-05	-5.897441e-06	0.0001218998	0.001175957	-4.126579e-05	2.35517e-05
	-5.542496e-05	-5.897441e-06	0.003548218	-0.0001299476	-7.931935e-07	-1.25469e-06	9.387189e-05	0.001233236
	0.0001218734	0.001175955	-7.931929e-07	-1.254689e-06	0.003462858	-4.763832e-05	-4.608961e-07	-5.900948e-06
	-4.126579e-05	2.35517e-05	9.386837e-05	0.001233236	-4.608967e-07	-5.900948e-06	0.003519033	-0.0001075885
3e+07	0.004222029	-0.0005530665	-5.71088e-05	-1.101643e-06	0.0002069516	0.001763654	-4.830106e-05	2.44762e-05
	-5.71088e-05	-1.101643e-06	0.003988908	-0.0007785276	-1.81976e-06	-1.996226e-06	0.0001684023	0.00183055
	0.0002069492	0.001763658	-1.81976e-06	-1.996226e-06	0.003949634	-0.0006750055	-3.114886e-06	-7.77408e-06
	-4.830106e-05	2.44762e-05	0.000168402	0.001830552	-3.114886e-06	-7.774079e-06	0.003968895	-0.0007482914
4e+07	0.004625097	-0.001297685	-5.844567e-05	2.898535e-06	0.0003176054	0.002346082	-5.410752e-05	2.4658e-05
	-5.844567e-05	2.898536e-06	0.004310958	-0.001525903	-2.688884e-06	-2.258723e-06	0.0002793145	0.002417282
	0.0003176049	0.002346077	-2.688884e-06	-2.258723e-06	0.004316676	-0.001413426	-5.457063e-06	-8.739675e-06
	-5.410752e-05	2.4658e-05	0.0002793152	0.002417283	-5.457064e-06	-8.739676e-06	0.004298914	-0.001491387
5e+07	0.004931569	-0.002114963	-5.956698e-05	6.301369e-06	0.0004540662	0.002921887	-5.916077e-05	2.420256e-05
	-5.956698e-05	6.301369e-06	0.004541161	-0.002332393	-3.449841e-06	-2.276438e-06	0.0004141001	0.002994756
	0.0004540637	0.002921885	-3.449841e-06	-2.276438e-06	0.004592511	-0.002219104	-7.593298e-06	-9.191688e-06
	-5.916077e-05	2.420256e-05	0.000414101	0.002994757	-7.593299e-06	-9.191688e-06	0.004535965	-0.00229558
6e+07	0.005156722	-0.002982706	-6.107941e-05	5.370236e-06	0.000616135	0.003489872	-6.372961e-05	2.315816e-05
	-6.107941e-05	5.370236e-06	0.004693555	-0.003178234	-4.133523e-06	-2.127639e-06	0.0005726388	0.003562614
	0.0006161367	0.003489875	-4.133523e-06	-2.127639e-06	0.004791382	-0.003070731	-9.578247e-06	-9.26937e-06
	-6.372961e-05	2.315816e-05	0.0005726401	0.003562614	-9.578247e-06	-9.26937e-06	0.004694359	-0.003140468
7e+07	0.005309212	-0.003887832	-6.261585e-05	4.413213e-06	0.0008035092	0.00404897	-6.798672e-05	2.149174e-05
	-6.261585e-05	4.413213e-06	0.004776084	-0.004051562	-4.744986e-06	-1.846921e-06	0.0007546463	0.004120156
	0.0008035179	0.004048975	-4.744986e-06	-1.846921e-06	0.004921412	-0.003955575	-1.143842e-05	-9.028724e-06
	-6.798672e-05	2.149174e-05	0.000754648	0.004120156	-1.143842e-05	-9.028724e-06	0.004782149	-0.004014025
8e+07	0.005394228	-0.004821672	-6.421493e-05	3.347568e-06	0.00101585	0.00459826	-7.20873e-05	1.906823e-05
	-6.421493e-05	3.347568e-06	0.004793467	-0.004943617	-5.288337e-06	-1.44379e-06	0.0009597444	0.004666503
	0.001015863	0.004598263	-5.288337e-06	-1.44379e-06	0.004987558	-0.004864741	-1.318317e-05	-8.479669e-06
	-7.20873e-05	1.906823e-05	0.0009597463	0.004666503	-1.318317e-05	-8.479669e-06	0.004803981	-0.004907456
9e+07	0.005414954	-0.005778386	-6.592888e-05	2.038315e-06	0.001252839	0.005137189	-7.622049e-05	1.552387e-05
	-6.592888e-05	2.038315e-06	0.004749018	-0.005846481	-5.760148e-06	-9.027719e-07	0.001187464	0.005200662
	0.00125285	0.005137189	-5.760149e-06	-9.027719e-07	0.004993156	-0.005791102	-1.480425e-05	-7.577631e-06
	-7.622049e-05	1.552387e-05	0.001187465	0.005200661	-1.480425e-05	-7.577631e-06	0.004763027	-0.005812864
1e+08	0.005372275	-0.006758284	-6.79253e-05	-1.443285e-07	0.001514683	0.005668005	-8.091927e-05	8.906757e-06
	-6.79253e-05	-1.443285e-07	0.00464683	-0.006747884	-6.122555e-06	-8.320563e-08	0.001437257	0.005721516
	0.001514683	0.005668004	-6.122555e-06	-8.320563e-08	0.004941161	-0.006726992	-1.621689e-05	-5.986999e-06
	-8.091927e-05	8.906757e-06	0.001437257	0.005721516	-1.621689e-05	-5.986999e-06	0.004663074	-0.006718709
1.1e+08	0.005248742	-0.007739857	-6.773416e-05	-2.697133e-06	0.001786883	0.006186747	-7.846624e-05	8.842319e-07
	-6.773416e-05	-2.697133e-06	0.004512165	-0.007661042	-5.890714e-06	5.894609e-07	0.001708011	0.006228294
	0.001786883	0.006186747	-5.890714e-06	5.894609e-07	0.004841135	-0.007673261	-1.628086e-05	-4.69693e-06
	-7.846624e-05	8.842319e-07	0.001708009	0.006228294	-1.628086e-05	-4.69693e-06	0.004526628	-0.007635586
1.2e+08	0.005072035	-0.008714619	-6.745603e-05	-4.136241e-06	0.002080549	0.006684087	-7.551772e-05	-3.944146e-06
	-6.745603e-05	-4.136241e-06	0.004317696	-0.008586798	-5.701098e-06	1.009017e-06	0.001999369	0.006720186
	0.002080549	0.006684087	-5.701098e-06	1.009017e-06	0.004685295	-0.008627715	-1.646769e-05	-3.953838e-06
	-7.551772e-05	-3.944146e-06	0.001999367	0.006720187	-1.646769e-05	-3.953838e-06	0.004330147	-0.008563613
1.3e+08	0.004842451	-0.009685739	-6.722456e-05	-5.135742e-06	0.002395566	0.007162708	-7.250098e-05	-7.697973e-06
	-6.722456e-05	-5.135742e-06	0.004066342	-0.009514329	-5.526282e-06	1.336795e-06	0.00231061	0.007196163
	0.002395566	0.007162708	-5.526282e-06	1.336795e-06	0.004475487	-0.009584494	-1.671333e-05	-3.374723e-06
	-7.250098e-05	-7.697973e-06	0.002310608	0.007196164	-1.671333e-05	-3.374723e-06	0.004076377	-0.009492903
1.4e+08	0.004561054	-0.01065151	-6.705337e-05	-5.845484e-06	0.002731131	0.007622415	-6.947496e-05	-1.085618e-05
	-6.705337e-05	-5.845484e-06	0.003759832	-0.01043872	-5.487366e-06	1.216368e-06	0.002640938	0.007655281
	0.002731131	0.007622415	-5.487366e-06	1.216368e-06	0.004213072	-0.01053986	-1.700369e-05	-2.873851e-06
	-6.947496e-05	-1.085618e-05	0.002640937	0.007655282	-1.700369e-05	-2.873851e-06	0.003767017	-0.01041871
1.5e+08	0.004228954	-0.01160969	-6.694e-05	-6.338119e-06	0.003086328	0.008062612	-6.646093e-05	-1.365137e-05
	-6.694e-05	-6.338119e-06	0.003399654	-0.01135612	-5.450839e-06	1.123042e-06	0.002989504	0.008096636
	0.003086328	0.008062612	-5.450839e-06	1.123042e-06	0.003899278	-0.01149059	-1.732799e-05	-2.411343e-06
	-6.646093e-05	-1.365137e-05	0.002989504	0.008096636	-1.732799e-05	-2.411343e-06	0.003403547	-0.01133723
1.6e+08	0.003847265	-0.01255795	-6.688008e-05	-6.655216e-06	0.003460169	0.008482579	-6.346925e-05	-1.622221e-05
	-6.688008e-05	-6.655216e-06	0.002987211	-0.01226318	-5.41533e-06	1.054493e-06	0.003355406	0.008519359
	0.003460168	0.008482579	-5.41533e-06	1.054493e-06	0.003535276	-0.01243378	-1.767951e-05	-1.963105e-06
	-6.346925e-05	-1.622221e-05	0.003355406	0.008519359	-1.767951e-05	-1.963105e-06	0.002987372	-0.01224514
1.7e+08	0.003417104	-0.013494	-6.68679e-05	-6.823573e-06	0.003851611	0.008881557	-6.050698e-05	-1.866103e-05
	-6.68679e-05	-6.823573e-06	0.002523872	-0.01315692	-5.381071e-06	1.004959e-06	0.003737695	0.008922624
	0.003851611	0.008881557	-5.381071e-06	1.004959e-06	0.00312221	-0.01336673	-1.805247e-05	-1.513258e-06
	-6.050698e-05	-1.866103e-05	0.003737695	0.008922624	-1.805247e-05	-1.513258e-06	0.002519867	-0.01313944
1.8e+08	0.002939591	-0.01441561	-6.689726e-05	-6.86165e-06	0.004259564	0.009258794	-5.758024e-05	-2.103348e-05
	-6.689726e-05	-6.86165e-06	0.002011002	-0.01403455	-5.348088e-06	9.705474e-07	0.004135376	0.009305649
	0.004259564	0.009258794	-5.348088e-06	9.705474e-07	0.002661218	-0.01428693	-1.844155e-05	-1.0507e-06
	-5.758024e-05	-2.103348e-05	0.004135376	0.009305649	-1.844155e-05	-1.0507e-06	0.00200241	-0.01401735
1.9e+08	0.002415867	-0.01532062	-6.69618e-05	-6.782856e-06	0.004682895	0.00961356	-5.469535e-05	-2.338854e-05
	-6.69618e-05	-6.782856e-06	0.001449976	-0.01489351	-5.316304e-06	9.484834e-07	0.004547412	0.009667699
	0.004682895	0.00961356	-5.316304e-06	9.484834e-07	0.00215344	-0.01519203	-1.884168e-05	-5.673593e-07
	-5.469535e-05	-2.338854e-05	0.004547412	0.009667699	-1.884168e-05	-5.673593e-07	0.001436388	-0.01487627
2e+08	0.001847086	-0.01620697	-6.705517e-05	-6.597345e-06	0.005120425	0.009945167	-5.185908e-05	-2.576389e-05
	-6.705517e-05	-6.597345e-06	0.0008421924	-0.01573137	-5.285584e-06	9.36717e-07	0.004972729	0.01000809
	0.005120425	0.009945167	-5.285584e-06	9.36717e-07	0.001600035	-0.01607978	-1.924791e-05	-5.727501e-08
	-5.185908e-05	-2.576389e-05	0.004972729	0.01000809	-1.924791e-05	-5.727501e-08	0.000823216	-0.01571378
2.1e+08	0.001234377	-0.01707274	-6.717111e-05	-6.313142e-06	0.005576092	0.0102504	-4.907893e-05	-2.818923e-05
	-6.717111e-05	-6.313142e-06	0.0001890759	-0.01654587	-5.255374e-06	9.336809e-07	0.005410215	0.0103262
	0.005576092	0.0102504	-5.255374e-06	9.336809e-07	0.001002126	-0.01694814	-1.965279e-05	4.864718e-07
	-4.907893e-05	-2.818923e-05	0.005410215	0.0103262	-1.965279e-05	4.864718e-07	0.0001643362	-0.01652758
2.2e+08	0.0005789255	-0.01791603	-6.730349e-05	-5.936793e-06	0.006049219	0.01052795	-4.636321e-05	-3.068827e-05
	-6.730349e-05	-5.936793e-06	-0.0005079182	-0.01733486	-5.225438e-06	9.381426e-07	0.005858729	0.01062144
	0.006049219	0.01052795	-5.225438e-06	9.381426e-07	0.0003608922	-0.01779509	-2.00506e-05	1.067603e-06
	-4.636321e-05	-3.068827e-05	0.005858729	0.01062144	-2.00506e-05	1.067603e-06	-0.000538775	-0.01731549
2.3e+08	-0.0001179648	-0.01873492	-6.744634e-05	-5.473824e-06	0.006532256	0.01078027	-4.372092e-05	-3.328003e-05
	-6.744634e-05	-5.473824e-06	-0.001247295	-0.01809629	-5.196064e-06	9.491234e-07	0.006317097	0.01089329
	0.006532256	0.01078027	-5.196064e-06	9.491234e-07	-0.0003223678	-0.01861861	-2.043954e-05	1.685375e-06
	-4.372092e-05	-3.328003e-05	0.006317097	0.01089329	-2.043954e-05	1.685375e-06	-0.001284604	-0.01807547
2.4e+08	-0.0008550191	-0.01952766	-6.75939e-05	-4.929113e-06	0.007023916	0.01100689	-4.116196e-05	-3.597982e-05
	-6.75939e-05	-4.929113e-06	-0.002027529	-0.01882823	-5.167075e-06	9.658186e-07	0.006784122	0.01114131
	0.007023916	0.01100689	-5.167075e-06	9.658186e-07	-0.00104639	-0.01941686	-2.081497e-05	2.341221e-06
	-4.116196e-05	-3.597982e-05	0.006784122	0.01114131	-2.081497e-05	2.341221e-06	-0.002071603	-0.01880555
2.5e+08	-0.001630927	-0.02029253	-6.774053e-05	-4.307073e-06	0.007522883	0.01120742	-3.86966e-05	-3.879989e-05
	-6.774053e-05	-4.307073e-06	-0.00284705	-0.01952885	-5.13829e-06	9.875671e-07	0.007258581	0.01136508
	0.007522883	0.01120742	-5.13829e-06	9.875671e-07	-0.001809872	-0.02018807	-2.117237e-05	3.035853e-06
	-3.86966e-05	-3.879989e-05	0.007258581	0.01136508	-2.117237e-05	3.035853e-06	-0.00289818	-0.01950389
2.6e+08	-0.002444341	-0.02102791	-6.788079e-05	-3.611833e-06	0.008027817	0.01138151	-3.633574e-05	-4.174984e-05
	-6.788079e-05	-3.611833e-06	-0.003704255	-0.02019639	-5.109522e-06	1.013803e-06	0.007739235	0.01156427
	0.008027817	0.01138151	-5.109522e-06	1.013803e-06	-0.002611476	-0.02093055	-2.15073e-05	3.769397e-06
	-3.633574e-05	-4.174984e-05	0.007739235	0.01156427	-2.15073e-05	3.769397e-06	-0.003762705	-0.02016872
2.7e+08	-0.003293876	-0.02173225	-6.800939e-05	-2.84734e-06	0.008537361	0.01152891	-3.409042e-05	-4.48371e-05
	-6.800939e-05	-2.84734e-06	-0.004597492	-0.02082922	-5.080605e-06	1.044048e-06	0.008224824	0.01173861
	0.008537361	0.01152891	-5.080605e-06	1.044048e-06	-0.003449824	-0.02164266	-2.181546e-05	4.541415e-06
	-3.409042e-05	-4.48371e-05	0.008224824	0.01173861	-2.181546e-05	4.541415e-06	-0.004663505	-0.02079837
2.8e+08	-0.004178107	-0.02240404	-6.812136e-05	-2.017446e-06	0.009050146	0.0116494	-3.197245e-05	-4.806698e-05
	-6.812136e-05	-2.017446e-06	-0.005525076	-0.02142575	-5.051382e-06	1.07788e-06	0.008714079	0.01188788
	0.009050146	0.0116494	-5.051382e-06	1.07788e-06	-0.004323505	-0.02232285	-2.209269e-05	5.35101e-06
	-3.197245e-05	-4.806698e-05	0.008714079	0.01188788	-2.209269e-05	5.35101e-06	-0.00559887	-0.02139127
2.9e+08	-0.005095577	-0.02304186	-6.821189e-05	-1.125975e-06	0.00956479	0.01174286	-2.999381e-05	-5.144294e-05
	-6.821189e-05	-1.125975e-06	-0.006485282	-0.02198451	-5.021695e-06	1.114923e-06	0.009205717	0.01201192
	0.00956479	0.01174286	-5.021695e-06	1.114923e-06	-0.005231066	-0.02296965	-2.233499e-05	6.196835e-06
	-2.999381e-05	-5.144294e-05	0.009205717	0.01201192	-2.233499e-05	6.196835e-06	-0.00656705	-0.02194591
3e+08	-0.006044785	-0.02364435	-6.827633e-05	-1.767896e-07	0.0100799	0.01180922	-2.81664e-05	-5.496695e-05
	-6.827633e-05	-1.767896e-07	-0.007476345	-0.02250412	-4.991394e-06	1.154842e-06	0.009698453	0.01211066
	0.0100799	0.01180922	-4.991394e-06	1.154842e-06	-0.006171017	-0.02358164	-2.253855e-05	7.077118e-06
	-2.81664e-05	-5.496695e-05	0.009698453	0.01211066	-2.253855e-05	7.077118e-06	-0.007566256	-0.02246091
3.1e+08	-0.007024202	-0.02421021	-6.83104e-05	8.262269e-07	0.0105941	0.01184848	-2.650276e-05	-5.863919e-05
	-6.83104e-05	8.262269e-07	-0.008496466	-0.02298325	-4.960343e-06	1.197327e-06	0.01019099	0.01218408
	0.0105941	0.01184848	-4.960343e-06	1.197327e-06	-0.007141835	-0.02415748	-2.269975e-05	7.989742e-06
	-2.650276e-05	-5.863919e-05	0.01019099	0.01218408	-2.269975e-05	7.989742e-06	-0.008594663	-0.02293493
3.2e+08	-0.008032255	-0.02473822	-6.830998e-05	1.879103e-06	0.01110598	0.01186071	-2.501518e-05	-6.24585e-05
	-6.830998e-05	1.879103e-06	-0.009543812	-0.02342069	-4.928411e-06	1.242094e-06	0.01068205	0.01223221
	0.01110598	0.01186071	-4.928411e-06	1.242094e-06	-0.008141957	-0.02469589	-2.281517e-05	8.932228e-06
	-2.501518e-05	-6.24585e-05	0.01068205	0.01223221	-2.281517e-05	8.932228e-06	-0.009650411	-0.02336675
3.3e+08	-0.00906734	-0.0252272	-6.827118e-05	2.977758e-06	0.01161416	0.01184606	-2.371569e-05	-6.642254e-05
	-6.827118e-05	2.977758e-06	-0.01061651	-0.02381529	-4.895471e-06	1.288875e-06	0.01117033	0.01225517
	0.01161416	0.01184606	-4.895471e-06	1.288875e-06	-0.009169781	-0.02519565	-2.288166e-05	9.901776e-06
	-2.371569e-05	-6.642254e-05	0.01117033	0.01225517	-2.288166e-05	9.901776e-06	-0.0107316	-0.0237552
3.4e+08	-0.01012782	-0.02567606	-6.819047e-05	4.118048e-06	0.01211726	0.01180473	-2.261672e-05	-7.052741e-05
	-6.819047e-05	4.118048e-06	-0.01171267	-0.02416599	-4.861418e-06	1.337421e-06	0.01165455	0.01225313
	0.01211726	0.01180473	-4.861418e-06	1.337421e-06	-0.01022368	-0.02565564	-2.289629e-05	1.089531e-05
	-2.261672e-05	-7.052741e-05	0.01165455	0.01225313	-2.289629e-05	1.089531e-05	-0.01183631	-0.02409924
3.5e+08	-0.01121203	-0.02608378	-6.806453e-05	5.295705e-06	0.01261392	0.01173701	-2.173015e-05	-7.476821e-05
	-6.806453e-05	5.295705e-06	-0.01283036	-0.02447184	-4.826146e-06	1.387491e-06	0.01213345	0.01222633
	0.01261392	0.01173701	-4.826146e-06	1.387491e-06	-0.01130198	-0.02607477	-2.285641e-05	1.190949e-05
	-2.173015e-05	-7.476821e-05	0.01213345	0.01222633	-2.285641e-05	1.190949e-05	-0.01296259	-0.02439787
3.6e+08	-0.01231826	-0.02644939	-6.789038e-05	6.506388e-06	0.01310276	0.01164324	-2.106797e-05	-7.913863e-05
	-6.789038e-05	6.506388e-06	-0.01396762	-0.02473192	-4.789568e-06	1.438854e-06	0.01260576	0.01217507
	0.01310276	0.01164324	-4.789568e-06	1.438854e-06	-0.012403	-0.02645204	-2.275964e-05	1.294075e-05
	-2.106797e-05	-7.913863e-05	0.01260576	0.01217507	-2.275964e-05	1.294075e-05	-0.01410845	-0.02465021
3.7e+08	-0.0134448	-0.026772	-6.766532e-05	7.745649e-06	0.01358247	0.01152384	-2.064167e-05	-8.363139e-05
	-6.766532e-05	7.745649e-06	-0.01512248	-0.02494545	-4.751603e-06	1.491289e-06	0.01307023	0.01209971
	0.01358247	0.01152384	-4.751603e-06	1.491289e-06	-0.01352501	-0.02678652	-2.260388e-05	1.398528e-05
	-2.064167e-05	-8.363139e-05	0.01307023	0.01209971	-2.260388e-05	1.398528e-05	-0.01527188	-0.02485545
3.8e+08	-0.01458988	-0.02705079	-6.738693e-05	9.008952e-06	0.01405171	0.01137929	-2.046239e-05	-8.823819e-05
	-6.738693e-05	9.008952e-06	-0.01629294	-0.0251117	-4.712183e-06	1.544581e-06	0.01352565	0.01200067
	0.01405171	0.01137929	-4.712183e-06	1.544581e-06	-0.01466624	-0.02707734	-2.238736e-05	1.503912e-05
	-2.046239e-05	-8.823819e-05	0.01352565	0.01200067	-2.238736e-05	1.503912e-05	-0.01645087	-0.02501286
3.9e+08	-0.01575172	-0.027285	-6.705314e-05	1.029169e-05	0.01450921	0.01121015	-2.054092e-05	-9.29496e-05
	-6.705314e-05	1.029169e-05	-0.01747697	-0.02523003	-4.671252e-06	1.598519e-06	0.01397081	0.01187845
	0.01450921	0.01121015	-4.671252e-06	1.598519e-06	-0.01582493	-0.02732371	-2.210861e-05	1.609814e-05
	-2.054092e-05	-9.29496e-05	0.01397081	0.01187845	-2.210861e-05	1.609814e-05	-0.01764335	-0.02512181
4e+08	-0.01692854	-0.02747396	-6.666214e-05	1.158919e-05	0.01495369	0.01101702	-2.088734e-05	-9.775553e-05
	-6.666214e-05	1.158919e-05	-0.01867255	-0.02529991	-4.628761e-06	1.6529e-06	0.01440453	0.01173358
	0.01495369	0.01101702	-4.628761e-06	1.6529e-06	-0.01699927	-0.02752491	-2.176648e-05	1.715807e-05
	-2.088734e-05	-9.775553e-05	0.01440453	0.01173358	-2.176648e-05	1.715807e-05	-0.01884727	-0.02518176
4.1e+08	-0.01811849	-0.02761704	-6.621252e-05	1.289672e-05	0.01538392	0.01080057	-2.151134e-05	-0.0001026448
	-6.621252e-05	1.289672e-05	-0.01987762	-0.02532085	-4.58468e-06	1.707523e-06	0.01482567	0.01156668
	0.01538392	0.01080057	-4.58468e-06	1.707523e-06	-0.01818743	-0.02768028	-2.136014e-05	1.821453e-05
	-2.151134e-05	-0.0001026448	0.01482567	0.01156668	-2.136014e-05	1.821453e-05	-0.02006055	-0.02519222
4.2e+08	-0.01931975	-0.02771372	-6.570316e-05	1.420954e-05	0.01579871	0.01056156	-2.242218e-05	-0.0001076053
	-6.570316e-05	1.420954e-05	-0.02109011	-0.02529248	-4.538988e-06	1.762196e-06	0.01523311	0.01137841
	0.01579871	0.01056156	-4.538988e-06	1.762196e-06	-0.01938756	-0.02778924	-2.088912e-05	1.926309e-05
	-2.242218e-05	-0.0001076053	0.01523311	0.01137841	-2.088912e-05	1.926309e-05	-0.02128109	-0.02515283
4.3e+08	-0.02053045	-0.0277635	-6.513327e-05	1.55229e-05	0.01619689	0.01030077	-2.362836e-05	-0.0001126241
	-6.513327e-05	1.55229e-05	-0.02230798	-0.0252145	-4.491677e-06	1.816729e-06	0.01562575	0.01116948
	0.01619689	0.01030077	-4.491677e-06	1.816729e-06	-0.02059781	-0.02785129	-2.035325e-05	2.029921e-05
	-2.362836e-05	-0.0001126241	0.01562575	0.01116948	-2.035325e-05	2.029921e-05	-0.02250682	-0.0250633
4.4e+08	-0.02174872	-0.02776602	-6.450238e-05	1.683201e-05	0.01657733	0.01001907	-2.513746e-05	-0.0001176878
	-6.450238e-05	1.683201e-05	-0.02352913	-0.02508671	-4.44275e-06	1.870936e-06	0.01600256	0.01094066
	0.01657733	0.01001907	-4.44275e-06	1.870936e-06	-0.02181628	-0.02786599	-1.975274e-05	2.131838e-05
	-2.513746e-05	-0.0001176878	0.01600256	0.01094066	-1.975274e-05	2.131838e-05	-0.02373561	-0.02492342
4.5e+08	-0.02297268	-0.02772092	-6.381069e-05	1.813213e-05	0.01693898	0.009717353	-2.694328e-05	-0.0001228025
	-6.381069e-05	1.813213e-05	-0.0247515	-0.02490898	-4.392221e-06	1.924644e-06	0.01636253	0.01069278
	0.01693898	0.009717353	-4.392221e-06	1.924644e-06	-0.02304109	-0.02783298	-1.908844e-05	2.231605e-05
	-2.694328e-05	-0.0001228025	0.01636253	0.01069278	-1.908844e-05	2.231605e-05	-0.02496537	-0.02473307
4.6e+08	-0.02420044	-0.02762798	-6.301429e-05	1.941685e-05	0.01728078	0.0093966	-3.081045e-05	-0.0001251382
	-6.301429e-05	1.941685e-05	-0.025973	-0.02468126	-4.340455e-06	1.977133e-06	0.01670468	0.01042671
	0.01728078	0.0093966	-4.340455e-06	1.977133e-06	-0.02427034	-0.02775197	-1.831603e-05	2.328426e-05
	-3.081045e-05	-0.0001251382	0.01670468	0.01042671	-1.831603e-05	2.328426e-05	-0.026194	-0.02449223
4.7e+08	-0.0254301	-0.02748701	-6.215204e-05	2.067993e-05	0.01760176	0.009057823	-3.504008e-05	-0.0001271231
