!$
! Info: Touchstone file created by Circ.  Input file=Tx_2in_Rx_85ohms_TxVia_60mils_RxVia_70mils.circ
!$
# Hz S RI R 50
0	0.001765651	5.190212e-26	-1.102776e-05	7.547747e-24	3.18935e-05	3.354726e-24	-1.09907e-05	3.021699e-24
	-1.102776e-05	7.547739e-24	0.0017614	5.83508e-26	-1.10645e-05	1.207426e-23	3.100965e-05	4.160825e-24
	3.102486e-05	3.339789e-24	-1.10645e-05	1.207437e-23	0.001779626	5.251882e-26	-1.102672e-05	7.460534e-24
	-1.09907e-05	3.021577e-24	3.127968e-05	4.178668e-24	-1.102672e-05	7.460313e-24	0.001776036	5.805816e-26
1e+07	0.002437919	-0.001480953	-2.283634e-05	-6.85472e-06	6.21457e-05	0.0006131609	-1.690437e-06	-6.239654e-07
	-2.283634e-05	-6.85472e-06	0.002442822	-0.001481419	-9.281584e-06	1.505624e-05	6.135354e-05	0.0006130752
	6.213023e-05	0.0006131745	-9.281583e-06	1.505624e-05	0.002460224	-0.001467939	-2.284091e-05	-6.87938e-06
	-1.690437e-06	-6.239654e-07	6.135556e-05	0.0006130727	-2.284091e-05	-6.87938e-06	0.002451388	-0.001473187
2e+07	0.00298643	-0.003550263	-2.165472e-05	4.901156e-07	0.0001196278	0.001208631	-1.044208e-06	-3.651037e-06
	-2.165472e-05	4.901156e-07	0.002982785	-0.003553871	-1.381001e-05	1.926742e-05	0.0001165221	0.00120861
	0.0001196347	0.00120864	-1.381001e-05	1.926742e-05	0.003009105	-0.00352826	-2.165885e-05	4.34284e-07
	-1.044209e-06	-3.651037e-06	0.0001165186	0.001208611	-2.165885e-05	4.34284e-07	0.002993581	-0.003536557
3e+07	0.003255323	-0.005903506	-2.106802e-05	-1.676233e-06	0.0002026375	0.001795755	-3.114301e-06	-4.72901e-06
	-2.106802e-05	-1.676233e-06	0.003238902	-0.005907678	-1.666214e-05	2.326388e-05	0.0001957241	0.001796053
	0.0002026385	0.001795755	-1.666214e-05	2.326388e-05	0.00327896	-0.005871301	-2.107242e-05	-1.759003e-06
	-3.114301e-06	-4.72901e-06	0.0001957238	0.001796054	-2.107242e-05	-1.759003e-06	0.003251238	-0.005882795
4e+07	0.003324241	-0.008354282	-2.066956e-05	-2.992995e-06	0.0003119375	0.002375331	-4.8705e-06	-5.056908e-06
	-2.066955e-05	-2.992995e-06	0.003290316	-0.008358012	-1.848422e-05	2.67163e-05	0.0002997401	0.002376316
	0.0003119362	0.002375332	-1.848422e-05	2.67163e-05	0.00334932	-0.008311842	-2.067336e-05	-3.103331e-06
	-4.8705e-06	-5.056908e-06	0.0002997408	0.002376317	-2.067336e-05	-3.103331e-06	0.003303983	-0.008326366
5e+07	0.003222349	-0.01085549	-2.041008e-05	-3.952321e-06	0.000447446	0.002946569	-6.412551e-06	-4.974974e-06
	-2.041008e-05	-3.952321e-06	0.003166065	-0.01085698	-1.953671e-05	2.968017e-05	0.0004285333	0.002948726
	0.0004474446	0.002946569	-1.953671e-05	2.968017e-05	0.003249302	-0.01080301	-2.041274e-05	-4.091097e-06
	-6.412551e-06	-4.974974e-06	0.0004285342	0.002948726	-2.041274e-05	-4.091097e-06	0.00318059	-0.01081902
6e+07	0.002964747	-0.01338265	-2.026226e-05	-4.711852e-06	0.0006087723	0.003508477	-7.787322e-06	-4.604077e-06
	-2.026226e-05	-4.711852e-06	0.00288177	-0.01337981	-1.996781e-05	3.215596e-05	0.000581762	0.003512388
	0.00060877	0.003508477	-1.996781e-05	3.215596e-05	0.002993902	-0.01332042	-2.026327e-05	-4.880103e-06
	-7.787322e-06	-4.604077e-06	0.0005817633	0.003512388	-2.026327e-05	-4.880102e-06	0.002896793	-0.0133358
7e+07	0.002560567	-0.01591993	-2.020883e-05	-5.338869e-06	0.0007954487	0.004060005	-9.018323e-06	-3.993625e-06
	-2.020883e-05	-5.338869e-06	0.002446731	-0.01591071	-1.988489e-05	3.409455e-05	0.0007590069	0.004066342
	0.0007954449	0.004060004	-1.988489e-05	3.409455e-05	0.002592158	-0.01584828	-2.020776e-05	-5.537909e-06
	-9.018323e-06	-3.993625e-06	0.0007590086	0.004066342	-2.020776e-05	-5.537909e-06	0.002461918	-0.01586093
8e+07	0.002015893	-0.01845552	-2.023787e-05	-5.866989e-06	0.001006958	0.00460007	-1.011469e-05	-3.153517e-06
	-2.023787e-05	-5.866989e-06	0.001866902	-0.01843771	-1.938568e-05	3.538492e-05	0.0009597995	0.004609594
	0.001006954	0.004600069	-1.938568e-05	3.538492e-05	0.002050087	-0.01837474	-2.023446e-05	-6.098431e-06
	-1.011469e-05	-3.153517e-06	0.0009598013	0.004609593	-2.023446e-05	-6.098431e-06	0.001881819	-0.01838248
9e+07	0.001335225	-0.02097972	-2.03409e-05	-6.315269e-06	0.001242729	0.005127635	-1.107037e-05	-2.046519e-06
	-2.03409e-05	-6.315269e-06	0.001146657	-0.02095075	-1.859017e-05	3.5779e-05	0.001183618	0.005141194
	0.001242725	0.005127636	-1.859017e-05	3.5779e-05	0.001372144	-0.02089011	-2.033511e-05	-6.580992e-06
	-1.107037e-05	-2.046519e-06	0.001183619	0.005141193	-2.033511e-05	-6.580992e-06	0.001160744	-0.0208903
1e+08	0.000522095	-0.02348497	-2.05151e-05	-6.700767e-06	0.001502265	0.00564233	-1.181047e-05	-3.811012e-07
	-2.05151e-05	-6.700767e-06	0.0002895618	-0.02344163	-1.781478e-05	3.40713e-05	0.001430021	0.005660857
	0.001502265	0.00564233	-1.781478e-05	3.40713e-05	0.0005618353	-0.02338671	-2.050708e-05	-7.002958e-06
	-1.181047e-05	-3.811012e-07	0.001430021	0.005660857	-2.050708e-05	-7.002958e-06	0.0003021615	-0.02337614
1.1e+08	-0.0004230656	-0.02596051	-2.072358e-05	-7.041722e-06	0.001787469	0.006140969	-1.13219e-05	1.016753e-06
	-2.072358e-05	-7.041722e-06	-0.0007024292	-0.02589975	-1.243893e-05	3.130481e-05	0.001700984	0.006165474
	0.001787469	0.006140969	-1.243893e-05	3.130481e-05	-0.0003801986	-0.02585399	-2.071344e-05	-7.381986e-06
	-1.13219e-05	1.016753e-06	0.001700982	0.006165474	-2.071344e-05	-7.381986e-06	-0.0006919681	-0.02582907
1.2e+08	-0.001492344	-0.0283986	-2.097768e-05	-7.307884e-06	0.002094001	0.006621668	-1.091666e-05	1.894485e-06
	-2.097768e-05	-7.307884e-06	-0.001822221	-0.028317	-6.52245e-06	3.017449e-05	0.001992205	0.006653245
	0.002094001	0.006621668	-6.52245e-06	3.017449e-05	-0.001446388	-0.02828425	-2.096628e-05	-7.688119e-06
	-1.091666e-05	1.894485e-06	0.001992203	0.006653246	-2.096628e-05	-7.688119e-06	-0.001814363	-0.02824093
1.3e+08	-0.002682688	-0.03079403	-2.127628e-05	-7.508984e-06	0.002421116	0.007084293	-1.059628e-05	2.382376e-06
	-2.127628e-05	-7.508984e-06	-0.003066469	-0.03068787	-3.276842e-07	2.938108e-05	0.002303015	0.007124117
	0.002421116	0.007084293	-3.276842e-07	2.938108e-05	-0.002633695	-0.03067215	-2.126466e-05	-7.931244e-06
	-1.059628e-05	2.382376e-06	0.002303013	0.007124118	-2.126466e-05	-7.931244e-06	-0.003061687	-0.03060623
1.4e+08	-0.003990899	-0.03314104	-2.161651e-05	-7.646699e-06	0.002767897	0.007528025	-1.051063e-05	2.069791e-06
	-2.161651e-05	-7.646699e-06	-0.004431728	-0.03300637	6.091245e-06	2.861597e-05	0.002632569	0.007577344
	0.002767897	0.007528025	6.091245e-06	2.861597e-05	-0.003938941	-0.0330119	-2.160594e-05	-8.113057e-06
	-1.051063e-05	2.069791e-06	0.002632568	0.007577345	-2.160594e-05	-8.113057e-06	-0.004430487	-0.03291894
1.5e+08	-0.005413713	-0.03543404	-2.198997e-05	-7.724054e-06	0.00313335	0.00795198	-1.042731e-05	1.828321e-06
	-2.198997e-05	-7.724054e-06	-0.005914491	-0.0352667	1.269985e-05	2.772051e-05	0.002979956	0.008012113
	0.00313335	0.00795198	1.269985e-05	2.772051e-05	-0.00535888	-0.03529789	-2.198193e-05	-8.236716e-06
	-1.042731e-05	1.828321e-06	0.002979955	0.008012114	-2.198193e-05	-8.236716e-06	-0.00591724	-0.03517322
1.6e+08	-0.006947776	-0.0376677	-2.239155e-05	-7.741882e-06	0.003516423	0.00835528	-1.034758e-05	1.638799e-06
	-2.239155e-05	-7.741882e-06	-0.007511158	-0.03746331	1.946832e-05	2.659428e-05	0.003344201	0.008427612
	0.003516423	0.00835528	1.946832e-05	2.659428e-05	-0.006890171	-0.03752475	-2.23878e-05	-8.303075e-06
	-1.034758e-05	1.638799e-06	0.003344201	0.008427612	-2.23878e-05	-8.303075e-06	-0.007518327	-0.03736347
1.7e+08	-0.008589635	-0.03983694	-2.281619e-05	-7.700742e-06	0.003916006	0.008737082	-1.027188e-05	1.489111e-06
	-2.281619e-05	-7.700742e-06	-0.009218013	-0.03959091	2.63674e-05	2.516658e-05	0.003724281	0.008823058
	0.003916006	0.008737082	2.63674e-05	2.516658e-05	-0.008529369	-0.03968738	-2.281874e-05	-8.312683e-06
	-1.027188e-05	1.489111e-06	0.003724281	0.008823058	-2.281874e-05	-8.312683e-06	-0.009230013	-0.03948438
1.8e+08	-0.01033573	-0.0419369	-2.325884e-05	-7.601106e-06	0.00433094	0.009096588	-1.020026e-05	1.37105e-06
	-2.325884e-05	-7.601106e-06	-0.01103122	-0.04164446	3.336721e-05	2.338457e-05	0.004119125	0.00919771
	0.00433094	0.009096588	3.336721e-05	2.338457e-05	-0.01027292	-0.0417809	-2.327002e-05	-8.265974e-06
	-1.020026e-05	1.37105e-06	0.004119125	0.00919771	-2.327002e-05	-8.265974e-06	-0.01104843	-0.04153085
1.9e+08	-0.01218238	-0.04396296	-2.371457e-05	-7.443467e-06	0.004760021	0.009433056	-1.013259e-05	1.278756e-06
	-2.371457e-05	-7.443467e-06	-0.01294682	-0.04361915	4.043674e-05	2.120734e-05	0.004527621	0.009550878
	0.004760021	0.009433056	4.043674e-05	2.120734e-05	-0.01211715	-0.04380067	-2.373698e-05	-8.163381e-06
	-1.013259e-05	1.278756e-06	0.004527621	0.009550878	-2.373698e-05	-8.163381e-06	-0.0129696	-0.04349804
2e+08	-0.0141258	-0.04591072	-2.417848e-05	-7.228422e-06	0.005202002	0.009745802	-1.006864e-05	1.207906e-06
	-2.417848e-05	-7.228422e-06	-0.0149607	-0.04551042	4.754388e-05	1.860271e-05	0.004948619	0.009881925
	0.005202002	0.009745802	4.754388e-05	1.860271e-05	-0.01405827	-0.04574227	-2.421501e-05	-8.005409e-06
	-1.006864e-05	1.207906e-06	0.004948619	0.009881925	-2.421501e-05	-8.005409e-06	-0.01498938	-0.04538137
2.1e+08	-0.01616207	-0.047776	-2.464579e-05	-6.956715e-06	0.005655603	0.01003421	-1.000814e-05	1.155197e-06
	-2.464579e-05	-6.956715e-06	-0.01706867	-0.04731396	5.465531e-05	1.554528e-05	0.005380933	0.01019027
	0.005655603	0.01003421	5.465531e-05	1.554528e-05	-0.01609238	-0.0476015	-2.469962e-05	-7.792685e-06
	-1.000814e-05	1.155197e-06	0.005380933	0.01019027	-2.469962e-05	-7.792685e-06	-0.01710353	-0.04717649
2.2e+08	-0.01828718	-0.04955483	-2.511178e-05	-6.629279e-06	0.006119507	0.01029772	-9.950779e-06	1.118068e-06
	-2.511178e-05	-6.629279e-06	-0.01926636	-0.04902567	6.173674e-05	1.201528e-05	0.005823351	0.01047541
	0.006119507	0.01029772	6.173674e-05	1.201528e-05	-0.01821546	-0.04937438	-2.518637e-05	-7.525996e-06
	-9.950779e-06	1.118068e-06	0.005823351	0.01047541	-2.518637e-05	-7.525996e-06	-0.01930767	-0.04887926
2.3e+08	-0.02049699	-0.05124345	-2.557187e-05	-6.247264e-06	0.006592372	0.01053585	-9.896248e-06	1.094504e-06
	-2.557187e-05	-6.247264e-06	-0.02154932	-0.05064168	6.875332e-05	7.997638e-06	0.006274632	0.01073687
	0.006592372	0.01053585	6.875332e-05	7.997638e-06	-0.02042338	-0.05105714	-2.567094e-05	-7.20632e-06
	-9.896248e-06	1.094504e-06	0.006274632	0.01073687	-2.567094e-05	-7.20632e-06	-0.0215973	-0.05048581
2.4e+08	-0.02278725	-0.05283832	-2.602158e-05	-5.812034e-06	0.007072831	0.0107482	-9.844244e-06	1.08285e-06
	-2.602158e-05	-5.812034e-06	-0.02391296	-0.05215836	7.566908e-05	3.481699e-06	0.006733515	0.01097428
	0.007072831	0.0107482	7.566908e-05	3.481699e-06	-0.02271188	-0.05264622	-2.614914e-05	-6.834821e-06
	-9.844244e-06	1.08285e-06	0.006733515	0.01097428	-2.614914e-05	-6.834821e-06	-0.02396781	-0.05199248
2.5e+08	-0.02515362	-0.05433609	-2.645659e-05	-5.325195e-06	0.007559497	0.01093441	-9.794454e-06	1.08177e-06
	-2.645659e-05	-5.325195e-06	-0.0263526	-0.05357231	8.244791e-05	-1.53943e-06	0.007198721	0.01118731
	0.007559497	0.01093441	8.244791e-05	-1.53943e-06	-0.02507663	-0.05413825	-2.661689e-05	-6.412882e-06
	-9.794454e-06	1.08177e-06	0.007198721	0.01118731	-2.661689e-05	-6.412882e-06	-0.02641446	-0.05339584
2.6e+08	-0.02759164	-0.05573363	-2.687273e-05	-4.788582e-06	0.008050968	0.01109423	-9.746579e-06	1.090144e-06
	-2.687273e-05	-4.788582e-06	-0.02886345	-0.05488035	8.905316e-05	-7.068922e-06	0.007668956	0.01137571
	0.008050968	0.01109423	8.905316e-05	-7.068922e-06	-0.02751318	-0.05553011	-2.707024e-05	-5.942089e-06
	-9.746579e-06	1.090144e-06	0.007668956	0.01137571	-2.707024e-05	-5.942089e-06	-0.02893244	-0.0546927
2.7e+08	-0.03009678	-0.05702803	-2.726597e-05	-4.20428e-06	0.008545833	0.01122746	-9.70031e-06	1.107038e-06
	-2.726597e-05	-4.20428e-06	-0.03144061	-0.05607954	9.544864e-05	-1.310686e-05	0.008142917	0.01153929
	0.008545833	0.01122746	9.544864e-05	-1.310686e-05	-0.03001698	-0.05681885	-2.750541e-05	-5.424253e-06
	-9.70031e-06	1.107038e-06	0.008142917	0.01153929	-2.750541e-05	-5.424253e-06	-0.0315168	-0.0558801
2.8e+08	-0.03266439	-0.05821657	-2.763251e-05	-3.574594e-06	0.009042669	0.01133399	-9.655368e-06	1.131646e-06
	-2.763251e-05	-3.574594e-06	-0.0340791	-0.05716716	0.0001015976	-1.964986e-05	0.008619293	0.01167794
	0.00904267	0.01133399	0.0001015976	-1.964986e-05	-0.03258341	-0.05800176	-2.791878e-05	-4.861383e-06
	-9.655368e-06	1.131646e-06	0.008619293	0.01167794	-2.791878e-05	-4.861383e-06	-0.03416254	-0.05695531
2.9e+08	-0.03528978	-0.05929677	-2.796872e-05	-2.902049e-06	0.009540056	0.01141377	-9.611475e-06	1.163274e-06
	-2.796872e-05	-2.902049e-06	-0.03677387	-0.05814072	0.0001074637	-2.66914e-05	0.009096774	0.0117916
	0.009540056	0.01141377	0.0001074637	-2.66914e-05	-0.03520775	-0.05907632	-2.830692e-05	-4.255688e-06
	-9.611475e-06	1.163274e-06	0.009096774	0.0117916	-2.830692e-05	-4.255688e-06	-0.03686454	-0.05791583
3e+08	-0.03796815	-0.06026632	-2.827119e-05	-2.189407e-06	0.01003657	0.01146683	-9.568351e-06	1.201315e-06
	-2.827119e-05	-2.189407e-06	-0.03951978	-0.05899798	0.0001130123	-3.42232e-05	0.009574047	0.0118803
	0.01003657	0.01146683	0.0001130123	-3.42232e-05	-0.03788522	-0.06004024	-2.866659e-05	-3.609593e-06
	-9.568351e-06	1.201315e-06	0.009574047	0.0118803	-2.866659e-05	-3.609593e-06	-0.03961765	-0.05875942
3.1e+08	-0.04069465	-0.06112317	-2.852847e-05	-1.435241e-06	0.0105308	0.01149328	-9.525731e-06	1.245145e-06
	-2.852847e-05	-1.435241e-06	-0.04231162	-0.05973691	0.0001174292	-4.163778e-05	0.01004981	0.01194412
	0.0105308	0.01149328	0.0001174292	-4.163778e-05	-0.04061097	-0.06089143	-2.898681e-05	-2.92121e-06
	-9.525731e-06	1.245145e-06	0.01004981	0.01194412	-2.898681e-05	-2.92121e-06	-0.0424166	-0.05948403
3.2e+08	-0.04346438	-0.06186545	-2.872796e-05	-6.390466e-07	0.01102133	0.01149331	-9.483357e-06	1.29417e-06
	-2.872796e-05	-6.390466e-07	-0.04514414	-0.06035573	0.0001199622	-4.826749e-05	0.01052276	0.01198323
	0.01102133	0.01149331	0.0001199622	-4.826749e-05	-0.04338007	-0.06162803	-2.925547e-05	-2.18947e-06
	-9.483357e-06	1.29417e-06	0.01052276	0.01198323	-2.925547e-05	-2.18947e-06	-0.04525611	-0.06008789
3.3e+08	-0.04627236	-0.06249153	-2.888316e-05	1.865614e-07	0.01150678	0.01146716	-9.441023e-06	1.348116e-06
	-2.888316e-05	1.865614e-07	-0.04801203	-0.06085289	0.0001221814	-5.527009e-05	0.01099162	0.01199783
	0.01150678	0.01146716	0.0001221814	-5.527009e-05	-0.04618758	-0.06224838	-2.948547e-05	-1.426757e-06
	-9.441023e-06	1.348116e-06	0.01099162	0.01199783	-2.948547e-05	-1.426757e-06	-0.04813083	-0.06056944
3.4e+08	-0.04911359	-0.06299997	-2.899169e-05	1.037985e-06	0.01198576	0.01141516	-9.398475e-06	1.40657e-06
	-2.899169e-05	1.037985e-06	-0.05090994	-0.06122707	0.000124052	-6.262643e-05	0.01145512	0.01198823
	0.01198576	0.01141516	0.000124052	-6.262643e-05	-0.04902847	-0.06275103	-2.967447e-05	-6.362682e-07
	-9.398475e-06	1.40657e-06	0.01145512	0.01198823	-2.967447e-05	-6.362682e-07	-0.05103537	-0.06092737
3.5e+08	-0.05198302	-0.06338957	-2.905152e-05	1.911478e-06	0.01245692	0.01133771	-9.35552e-06	1.469162e-06
	-2.905152e-05	1.911478e-06	-0.0538325	-0.06147719	0.0001255433	-7.031701e-05	0.011912	0.01195477
	0.01245692	0.01133771	0.0001255433	-7.031701e-05	-0.0518977	-0.06313477	-2.982046e-05	1.78673e-07
	-9.35552e-06	1.469162e-06	0.011912	0.01195477	-2.982046e-05	1.78673e-07	-0.05396432	-0.06116059
3.6e+08	-0.0548756	-0.06365933	-2.90609e-05	2.803198e-06	0.01291894	0.01123527	-9.311977e-06	1.535549e-06
	-2.90609e-05	2.803198e-06	-0.05677432	-0.06160239	0.0001266258	-7.831984e-05	0.01236105	0.01189787
	0.01291894	0.01123527	0.0001266258	-7.831984e-05	-0.0547902	-0.06339859	-2.992168e-05	1.014643e-06
	-9.311977e-06	1.535549e-06	0.01236105	0.01189787	-2.992168e-05	1.014643e-06	-0.05691223	-0.06126827
3.7e+08	-0.05778622	-0.06380847	-2.901837e-05	3.709197e-06	0.0133705	0.01110838	-9.267657e-06	1.605398e-06
	-2.901837e-05	3.709197e-06	-0.05972997	-0.06160208	0.0001272716	-8.661105e-05	0.01280106	0.011818
	0.0133705	0.01110838	0.0001272716	-8.661105e-05	-0.05770086	-0.06354169	-2.997663e-05	1.868125e-06
	-9.267657e-06	1.605398e-06	0.01280106	0.011818	-2.997663e-05	1.868125e-06	-0.05987367	-0.0612498
3.8e+08	-0.06070979	-0.06383641	-2.892276e-05	4.625457e-06	0.01381034	0.01095763	-9.222383e-06	1.678398e-06
	-2.892276e-05	4.625457e-06	-0.06269404	-0.06147586	0.0001274548	-9.516481e-05	0.01323085	0.01171571
	0.01381034	0.01095763	0.0001274548	-9.516481e-05	-0.0606246	-0.06356349	-2.998407e-05	2.73553e-06
	-9.222383e-06	1.678398e-06	0.01323085	0.01171571	-2.998407e-05	2.73553e-06	-0.06284316	-0.0611048
3.9e+08	-0.0636412	-0.06374281	-2.877321e-05	5.547913e-06	0.01423722	0.0107837	-9.175992e-06	1.754244e-06
	-2.877321e-05	5.547913e-06	-0.06566114	-0.06122358	0.000127151	-0.0001039534	0.0136493	0.0115916
	0.01423722	0.0107837	0.000127151	-0.0001039534	-0.06355629	-0.06346363	-2.994302e-05	3.613225e-06
	-9.175992e-06	1.754244e-06	0.0136493	0.0115916	-2.994302e-05	3.613225e-06	-0.06581528	-0.06083314
4e+08	-0.06657536	-0.06352753	-2.856915e-05	6.47246e-06	0.01464995	0.01058729	-9.128329e-06	1.832647e-06
	-2.856915e-05	6.47246e-06	-0.06862586	-0.06084533	0.0001263379	-0.0001129473	0.01405529	0.0114463
	0.01464995	0.01058729	0.0001263379	-0.0001129473	-0.06649083	-0.06324196	-2.985279e-05	4.497538e-06
	-9.128329e-06	1.832647e-06	0.01405529	0.0114463	-2.985279e-05	4.497538e-06	-0.06878457	-0.06043491
4.1e+08	-0.06950717	-0.06319063	-2.831035e-05	7.394994e-06	0.01504736	0.01036921	-9.079263e-06	1.913324e-06
	-2.831035e-05	7.394994e-06	-0.07158284	-0.0603414	0.0001249951	-0.0001221157	0.01444776	0.01128053
	0.01504736	0.01036921	0.0001249951	-0.0001221157	-0.06942313	-0.06289853	-2.971295e-05	5.384789e-06
	-9.079263e-06	1.913324e-06	0.01444776	0.01128053	-2.971295e-05	5.384789e-06	-0.07174565	-0.05991044
4.2e+08	-0.07243158	-0.06273241	-2.799682e-05	8.311425e-06	0.01542834	0.01013029	-9.028672e-06	1.996004e-06
	-2.799682e-05	8.311425e-06	-0.07452674	-0.05971234	0.0001231041	-0.0001314261	0.01482567	0.01109505
	0.01542834	0.01013029	0.0001231041	-0.0001314261	-0.07234812	-0.06243362	-2.952334e-05	6.27131e-06
	-9.028672e-06	1.996004e-06	0.01482567	0.01109505	-2.952334e-05	6.27131e-06	-0.07469314	-0.05926027
4.3e+08	-0.07534354	-0.06215334	-2.762894e-05	9.217693e-06	0.01579182	0.009871426	-8.976451e-06	2.080421e-06
	-2.762894e-05	9.217693e-06	-0.07745227	-0.0589589	0.0001206488	-0.0001408447	0.01518805	0.01089067
	0.01579182	0.009871426	0.0001206488	-0.0001408447	-0.07526074	-0.0618477	-2.928408e-05	7.153452e-06
	-8.976451e-06	2.080421e-06	0.01518805	0.01089067	-2.928408e-05	7.153452e-06	-0.07762171	-0.05848518
4.4e+08	-0.07823806	-0.06145412	-2.720731e-05	1.010979e-05	0.01613679	0.009593569	-8.922508e-06	2.166315e-06
	-2.720731e-05	1.010979e-05	-0.08035419	-0.05808205	0.0001176152	-0.0001503367	0.01553394	0.01066823
	0.01613679	0.009593569	0.0001176152	-0.0001503367	-0.078156	-0.06114146	-2.899553e-05	8.027605e-06
	-8.922508e-06	2.166315e-06	0.01553394	0.01066823	-2.899553e-05	8.027605e-06	-0.08052608	-0.05758617
4.5e+08	-0.08111019	-0.06063565	-2.673288e-05	1.098377e-05	0.01646228	0.009297716	-8.866765e-06	2.253435e-06
	-2.673288e-05	1.098377e-05	-0.08322731	-0.05708299	0.0001139917	-0.0001598664	0.01586246	0.01042864
	0.01646228	0.009297716	0.0001139917	-0.0001598664	-0.08102892	-0.06031579	-2.865831e-05	8.890218e-06
	-8.866765e-06	2.253435e-06	0.01586246	0.01042864	-2.865831e-05	8.890218e-06	-0.08340104	-0.05656446
4.6e+08	-0.08395503	-0.05969902	-2.620683e-05	1.183581e-05	0.01676738	0.008984911	-8.809161e-06	2.341536e-06
	-2.620683e-05	1.183581e-05	-0.08606652	-0.05596313	0.0001097688	-0.0001693968	0.01617276	0.01017284
	0.01676738	0.008984911	0.0001097688	-0.0001693968	-0.0838746	-0.05937176	-2.82733e-05	9.737823e-06
	-8.809161e-06	2.341536e-06	0.01617276	0.01017284	-2.82733e-05	9.737823e-06	-0.08624143	-0.05542149
4.7e+08	-0.08676772	-0.05864553	-2.563064e-05	1.266216e-05	0.01705122	0.008656241	-8.749647e-06	2.430377e-06
	-2.563064e-05	1.266216e-05	-0.08886678	-0.05472409	0.0001049395	-0.0001788908	0.01646403	0.009901807
	0.01705122	0.008656241	0.0001049395	-0.0001788908	-0.08668818	-0.05831068	-2.784161e-05	1.056703e-05
