!$
! Info: Touchstone file created by Circ.  Input file=Tx_2in_Rx_85ohms_TxVia_60mils_RxVia_70mils.circ
!$
# Hz S RI R 50
0	0.00176604	6.007125e-26	3.110086e-08	6.774151e-27	3.430117e-05	3.741693e-24	6.615059e-08	1.650144e-27
	3.110086e-08	6.773963e-27	0.0017614	5.83508e-26	6.380423e-08	2.160551e-26	3.100965e-05	4.160825e-24
	3.552122e-05	3.635775e-24	6.380424e-08	2.160418e-26	0.001777036	5.96291e-26	2.432217e-08	8.987842e-27
	6.615062e-08	1.650546e-27	3.127968e-05	4.178668e-24	2.432247e-08	8.993443e-27	0.001776036	5.805816e-26
1e+07	0.002445158	-0.001481451	4.492151e-08	9.99206e-08	6.210225e-05	0.0006129278	9.533979e-08	2.914667e-07
	4.492151e-08	9.992061e-08	0.002442822	-0.001481419	8.203859e-08	2.956301e-07	6.135354e-05	0.0006130752
	6.217171e-05	0.0006128955	8.203859e-08	2.956301e-07	0.002453904	-0.001473268	3.066626e-08	1.349835e-07
	9.53398e-08	2.914667e-07	6.135556e-05	0.0006130727	3.066626e-08	1.349835e-07	0.002451388	-0.001473187
2e+07	0.00299241	-0.003553838	6.427138e-08	1.816181e-07	0.0001196269	0.001208156	1.695585e-07	5.018712e-07
	6.42714e-08	1.816181e-07	0.002982785	-0.003553871	1.255564e-07	5.132603e-07	0.0001165221	0.00120861
	0.0001196121	0.001208119	1.255564e-07	5.132603e-07	0.003003948	-0.003536553	6.439613e-08	2.032001e-07
	1.695585e-07	5.018712e-07	0.0001165186	0.001208611	6.439612e-08	2.032001e-07	0.002993581	-0.003536557
3e+07	0.003260325	-0.005908641	8.436599e-08	2.594927e-07	0.0002026444	0.001795034	2.51812e-07	7.051346e-07
	8.4366e-08	2.594927e-07	0.003238902	-0.005907678	1.548154e-07	7.32468e-07	0.0001957241	0.001796053
	0.0002026406	0.001795034	1.548154e-07	7.32468e-07	0.003274247	-0.005883964	9.201893e-08	2.858329e-07
	2.51812e-07	7.051346e-07	0.0001957238	0.001796054	9.201892e-08	2.858329e-07	0.003251238	-0.005882795
4e+07	0.003328387	-0.008360598	1.061213e-07	3.3443e-07	0.0003119669	0.002374374	3.437843e-07	9.02191e-07
	1.061213e-07	3.3443e-07	0.003290316	-0.008358012	1.76521e-07	9.514149e-07	0.0002997401	0.002376316
	0.0003119722	0.002374374	1.76521e-07	9.514149e-07	0.003344826	-0.008329298	1.168716e-07	3.67749e-07
	3.437843e-07	9.02191e-07	0.0002997408	0.002376317	1.168716e-07	3.67749e-07	0.003303983	-0.008326366
5e+07	0.003225745	-0.0108628	1.301585e-07	4.069808e-07	0.0004475049	0.002945374	4.4883e-07	1.092868e-06
	1.301585e-07	4.069808e-07	0.003166065	-0.01085698	1.937126e-07	1.168709e-06	0.0004285333	0.002948726
	0.0004475076	0.002945373	1.937126e-07	1.168709e-06	0.003244642	-0.0108255	1.430358e-07	4.476232e-07
	4.4883e-07	1.092868e-06	0.0004285342	0.002948726	1.430358e-07	4.476232e-07	0.00318059	-0.01081902
6e+07	0.002967456	-0.01339086	1.566417e-07	4.772326e-07	0.0006088647	0.003507047	5.684032e-07	1.275122e-06
	1.566417e-07	4.772326e-07	0.00288177	-0.01337981	2.080227e-07	1.38454e-06	0.000581762	0.003512388
	0.000608864	0.003507048	2.080227e-07	1.38454e-06	0.002988728	-0.01334801	1.715982e-07	5.251544e-07
	5.684032e-07	1.275122e-06	0.0005817633	0.003512388	1.715982e-07	5.251544e-07	0.002896793	-0.0133358
7e+07	0.002562623	-0.01592897	1.855763e-07	5.451205e-07	0.0007955818	0.004058342	7.028061e-07	1.446926e-06
	1.855763e-07	5.451205e-07	0.002446731	-0.01591071	2.20488e-07	1.599119e-06	0.0007590069	0.004066342
	0.0007955803	0.004058347	2.20488e-07	1.599119e-06	0.002586194	-0.01588099	2.028884e-07	6.001086e-07
	7.028061e-07	1.446926e-06	0.0007590086	0.004066342	2.028884e-07	6.001086e-07	0.002461918	-0.01586093
8e+07	0.002017324	-0.01846528	2.168476e-07	6.105194e-07	0.001007141	0.004598175	8.516442e-07	1.606484e-06
	2.168476e-07	6.105194e-07	0.001866902	-0.01843771	2.318005e-07	1.812487e-06	0.0009597995	0.004609594
	0.001007141	0.004598182	2.318005e-07	1.812487e-06	0.002043082	-0.0184126	2.369758e-07	6.722303e-07
	8.516442e-07	1.606484e-06	0.0009598013	0.004609593	2.369758e-07	6.722303e-07	0.001881819	-0.01838248
9e+07	0.001336065	-0.02099014	2.502526e-07	6.73303e-07	0.00124297	0.005125508	1.014084e-06	1.752238e-06
	2.502526e-07	6.73303e-07	0.001146657	-0.02095075	2.424209e-07	2.024565e-06	0.001183618	0.005141194
	0.00124297	0.005125512	2.424209e-07	2.024565e-06	0.001363835	-0.02093317	2.737958e-07	7.412484e-07
	1.014084e-06	1.752238e-06	0.001183619	0.005141193	2.737958e-07	7.412484e-07	0.001160744	-0.0208903
1e+08	0.0005223993	-0.02349587	2.855324e-07	7.333735e-07	0.001502571	0.005639966	1.189e-06	1.882851e-06
	2.855324e-07	7.333735e-07	0.0002895618	-0.02344163	2.526521e-07	2.235219e-06	0.001430021	0.005660857
	0.001502572	0.005639966	2.526521e-07	2.235219e-06	0.0005519254	-0.02343507	3.131978e-07	8.068937e-07
	1.189e-06	1.882851e-06	0.001430021	0.005660857	3.131978e-07	8.068937e-07	0.0003021615	-0.02337614
1.1e+08	-0.0004229937	-0.02597199	3.230482e-07	7.910867e-07	0.001787853	0.006138378	1.375854e-06	2.003848e-06
	3.230482e-07	7.910867e-07	-0.0007024292	-0.02589975	2.600997e-07	2.447091e-06	0.001700984	0.006165474
	0.001787853	0.006138378	2.600997e-07	2.447091e-06	-0.0003922564	-0.02590746	3.543268e-07	8.704647e-07
	1.375854e-06	2.003848e-06	0.001700982	0.006165474	3.543268e-07	8.704647e-07	-0.0006919681	-0.02582907
1.2e+08	-0.001492542	-0.02841077	3.624459e-07	8.461025e-07	0.002094467	0.00661885	1.574023e-06	2.110918e-06
	3.624459e-07	8.461025e-07	-0.001822221	-0.028317	2.663917e-07	2.659077e-06	0.001992205	0.006653245
	0.002094467	0.00661885	2.663917e-07	2.659077e-06	-0.001460805	-0.02834256	3.975294e-07	9.310921e-07
	1.574023e-06	2.110918e-06	0.001992203	0.006653246	3.975294e-07	9.310921e-07	-0.001814363	-0.02824093
1.3e+08	-0.002683178	-0.03080693	4.035944e-07	8.983258e-07	0.00242167	0.007081249	1.782686e-06	2.203369e-06
	4.035944e-07	8.983258e-07	-0.003066469	-0.03068787	2.716237e-07	2.871337e-06	0.002303015	0.007124117
	0.00242167	0.007081249	2.716237e-07	2.871337e-06	-0.002650678	-0.03073513	4.426588e-07	9.886683e-07
	1.782686e-06	2.203369e-06	0.002303013	0.007124118	4.426588e-07	9.886683e-07	-0.003061687	-0.03060623
1.4e+08	-0.003991699	-0.03315469	4.463492e-07	9.476614e-07	0.002768547	0.007524758	2.000978e-06	2.280541e-06
	4.463492e-07	9.476614e-07	-0.004431728	-0.03300637	2.758864e-07	3.084016e-06	0.002632569	0.007577344
	0.002768547	0.007524758	2.758864e-07	3.084016e-06	-0.003958684	-0.03307939	4.895545e-07	1.043088e-06
	2.000978e-06	2.280541e-06	0.002632568	0.007577345	4.895545e-07	1.043088e-06	-0.004430487	-0.03291894
1.5e+08	-0.005414843	-0.03544846	4.905545e-07	9.940164e-07	0.003134107	0.007948492	2.227983e-06	2.341805e-06
	4.905545e-07	9.940164e-07	-0.005914491	-0.0352667	2.792672e-07	3.297251e-06	0.002979956	0.008012113
	0.003134107	0.007948493	2.792672e-07	3.297251e-06	-0.005381567	-0.03536971	5.380445e-07	1.094251e-06
	2.227983e-06	2.341805e-06	0.002979955	0.008012114	5.380445e-07	1.094251e-06	-0.00591724	-0.03517322
1.6e+08	-0.006949259	-0.0376829	5.360441e-07	1.037302e-06	0.003517296	0.008351575	2.462745e-06	2.386578e-06
	5.360441e-07	1.037302e-06	-0.007511158	-0.03746331	2.818525e-07	3.511164e-06	0.003344201	0.008427612
	0.003517296	0.008351575	2.818525e-07	3.511164e-06	-0.006915977	-0.03760074	5.879462e-07	1.14206e-06
	2.462745e-06	2.386578e-06	0.003344201	0.008427612	5.879462e-07	1.14206e-06	-0.007518327	-0.03736347
1.7e+08	-0.008591494	-0.03985293	5.826426e-07	1.077438e-06	0.003917007	0.008733161	2.704261e-06	2.414324e-06
	5.826426e-07	1.077438e-06	-0.009218013	-0.03959091	2.837275e-07	3.725872e-06	0.003724281	0.008823058
	0.003917007	0.008733161	2.837275e-07	3.725872e-06	-0.00855846	-0.03976736	6.390674e-07	1.186428e-06
	2.704261e-06	2.414324e-06	0.003724281	0.008823058	6.390674e-07	1.186428e-06	-0.009230013	-0.03948438
1.8e+08	-0.01033799	-0.04195368	6.301658e-07	1.114348e-06	0.004332081	0.009092453	2.951493e-06	2.424559e-06
	6.301658e-07	1.114348e-06	-0.01103122	-0.04164446	2.849774e-07	3.94148e-06	0.004119125	0.00919771
	0.004332081	0.009092453	2.849774e-07	3.94148e-06	-0.01030545	-0.04186468	6.91207e-07	1.227275e-06
	2.951493e-06	2.424559e-06	0.004119125	0.00919771	6.91207e-07	1.227275e-06	-0.01104843	-0.04153085
1.9e+08	-0.01218506	-0.04398054	6.784222e-07	1.14797e-06	0.004761313	0.009428708	3.203366e-06	2.416855e-06
	6.784222e-07	1.14797e-06	-0.01294682	-0.04361915	2.856877e-07	4.158088e-06	0.004527621	0.009550878
	0.004761313	0.009428708	2.856877e-07	4.158088e-06	-0.01215327	-0.04388807	7.441558e-07	1.264531e-06
	3.203366e-06	2.416855e-06	0.004527621	0.009550878	7.441558e-07	1.264531e-06	-0.0129696	-0.04349804
2e+08	-0.01412893	-0.0459291	7.272135e-07	1.178247e-06	0.005203459	0.009741242	3.458776e-06	2.390843e-06
	7.272135e-07	1.178247e-06	-0.0149607	-0.04551042	2.859444e-07	4.375789e-06	0.004948619	0.009881925
	0.005203459	0.009741242	2.859444e-07	4.375789e-06	-0.01409813	-0.04583309	7.976977e-07	1.298138e-06
	3.458776e-06	2.390843e-06	0.004948619	0.009881925	7.976977e-07	1.298138e-06	-0.01498938	-0.04538137
2.1e+08	-0.01616568	-0.04779518	7.763358e-07	1.205136e-06	0.005657235	0.01002944	3.716592e-06	2.346219e-06
	7.763358e-07	1.205136e-06	-0.01706867	-0.04731396	2.858344e-07	4.59467e-06	0.005380933	0.01019027
	0.005657236	0.01002944	2.858344e-07	4.59467e-06	-0.01613609	-0.04769554	8.516104e-07	1.328049e-06
	3.716592e-06	2.346219e-06	0.005380933	0.01019027	8.516104e-07	1.328049e-06	-0.01710353	-0.04717649
2.2e+08	-0.01829129	-0.0495748	8.255804e-07	1.228605e-06	0.006121329	0.01029274	3.97566e-06	2.28274e-06
	8.255804e-07	1.228605e-06	-0.01926636	-0.04902567	2.854461e-07	4.814812e-06	0.005823351	0.01047541
	0.006121329	0.01029274	2.854461e-07	4.814812e-06	-0.01826314	-0.04947144	9.056666e-07	1.354229e-06
	3.97566e-06	2.28274e-06	0.005823351	0.01047541	9.056666e-07	1.354229e-06	-0.01930767	-0.04887926
2.3e+08	-0.02050162	-0.05126421	8.747347e-07	1.248632e-06	0.006594397	0.01053066	4.23481e-06	2.200231e-06
	8.747347e-07	1.248632e-06	-0.02154932	-0.05064168	2.848696e-07	5.036293e-06	0.006274632	0.01073687
	0.006594397	0.01053066	2.848696e-07	5.036293e-06	-0.02047513	-0.05115699	9.596347e-07	1.376657e-06
	4.23481e-06	2.200231e-06	0.006274632	0.01073687	9.596347e-07	1.376657e-06	-0.0215973	-0.05048581
2.4e+08	-0.02279244	-0.05285986	9.235831e-07	1.265211e-06	0.007075073	0.0107428	4.492856e-06	2.098585e-06
	9.235831e-07	1.265211e-06	-0.02391296	-0.05215836	2.841971e-07	5.259184e-06	0.006733515	0.01097428
	0.007075073	0.0107428	2.841971e-07	5.259184e-06	-0.02276781	-0.05274864	1.01328e-06	1.395324e-06
	4.492856e-06	2.098585e-06	0.006733515	0.01097428	1.01328e-06	1.395324e-06	-0.02396781	-0.05199248
2.5e+08	-0.02515938	-0.05435841	9.719077e-07	1.278345e-06	0.00756197	0.0109288	4.748606e-06	1.977762e-06
	9.719077e-07	1.278345e-06	-0.0263526	-0.05357231	2.835229e-07	5.483555e-06	0.007198721	0.01118731
	0.00756197	0.0109288	2.835229e-07	5.483555e-06	-0.02513681	-0.05424304	1.066366e-06	1.410236e-06
	4.748606e-06	1.977762e-06	0.007198721	0.01118731	1.066366e-06	1.410236e-06	-0.02641446	-0.05339584
2.6e+08	-0.02759801	-0.05575672	1.019489e-06	1.288051e-06	0.008053688	0.01108841	5.000859e-06	1.83779e-06
	1.019489e-06	1.288051e-06	-0.02886345	-0.05488035	2.829438e-07	5.709467e-06	0.007668956	0.01137571
	0.008053688	0.01108841	2.829438e-07	5.709467e-06	-0.02757768	-0.05563702	1.118654e-06	1.421413e-06
	5.000859e-06	1.83779e-06	0.007668956	0.01137571	1.118654e-06	1.421413e-06	-0.02893244	-0.0546927
2.7e+08	-0.03010378	-0.05705188	1.066109e-06	1.294359e-06	0.008548814	0.01122143	5.248414e-06	1.678769e-06
	1.066109e-06	1.294359e-06	-0.03144061	-0.05607954	2.825594e-07	5.93698e-06	0.008142917	0.01153929
	0.008548814	0.01122142	2.825594e-07	5.93698e-06	-0.03008586	-0.05692767	1.169906e-06	1.428889e-06
	5.248414e-06	1.678769e-06	0.008142917	0.01153929	1.169906e-06	1.428889e-06	-0.0315168	-0.0558801
2.8e+08	-0.03267205	-0.05824118	1.111546e-06	1.297314e-06	0.009045928	0.01132774	5.490074e-06	1.500866e-06
	1.111546e-06	1.297314e-06	-0.0340791	-0.05716716	2.824716e-07	6.166147e-06	0.008619293	0.01167794
	0.009045928	0.01132774	2.824716e-07	6.166147e-06	-0.0326567	-0.05811224	1.219883e-06	1.432711e-06
	5.490074e-06	1.500866e-06	0.008619293	0.01167794	1.219883e-06	1.432711e-06	-0.03416254	-0.05695531
2.9e+08	-0.03529813	-0.05932211	1.155584e-06	1.296971e-06	0.009543608	0.0114073	5.724649e-06	1.304319e-06
	1.155584e-06	1.296971e-06	-0.03677387	-0.05814072	2.827853e-07	6.397017e-06	0.009096774	0.0117916
	0.009543608	0.0114073	2.827853e-07	6.397017e-06	-0.0352855	-0.05918824	1.26835e-06	1.432942e-06
	5.724649e-06	1.304319e-06	0.009096774	0.0117916	1.26835e-06	1.432942e-06	-0.03686454	-0.05791583
3e+08	-0.03797721	-0.06029239	1.198006e-06	1.293401e-06	0.01004043	0.01146014	5.950957e-06	1.089433e-06
	1.198006e-06	1.293401e-06	-0.03951978	-0.05899798	2.836082e-07	6.629636e-06	0.009574047	0.0118803
	0.01004043	0.01146014	2.836082e-07	6.629636e-06	-0.03796744	-0.06015337	1.315071e-06	1.429658e-06
	5.950957e-06	1.089433e-06	0.009574047	0.0118803	1.315071e-06	1.429658e-06	-0.03961765	-0.05875942
3.1e+08	-0.04070446	-0.06114996	1.238598e-06	1.286685e-06	0.01053499	0.01148637	6.167833e-06	8.56583e-07
	1.238598e-06	1.286685e-06	-0.04231162	-0.05973691	2.850503e-07	6.864041e-06	0.01004981	0.01194412
	0.01053499	0.01148637	2.850503e-07	6.864041e-06	-0.04069766	-0.06100553	1.359816e-06	1.42295e-06
	6.167833e-06	8.56583e-07	0.01004981	0.01194412	1.359816e-06	1.42295e-06	-0.0424166	-0.05948403
3.2e+08	-0.04347495	-0.06189294	1.277151e-06	1.276921e-06	0.01102587	0.01148617	6.374132e-06	6.062097e-07
	1.277151e-06	1.276921e-06	-0.04514414	-0.06035573	2.872243e-07	7.100267e-06	0.01052276	0.01198323
	0.01102587	0.01148617	2.872243e-07	7.100267e-06	-0.04347124	-0.06174286	1.402357e-06	1.412924e-06
	6.374132e-06	6.062097e-07	0.01052276	0.01198323	1.402357e-06	1.412924e-06	-0.04525611	-0.06008789
3.3e+08	-0.04628373	-0.0625197	1.313461e-06	1.264217e-06	0.01151168	0.01145978	6.568729e-06	3.388213e-07
	1.313461e-06	1.264217e-06	-0.04801203	-0.06085289	2.902457e-07	7.338342e-06	0.01099162	0.01199783
	0.01151168	0.01145978	2.902457e-07	7.338342e-06	-0.04628319	-0.06236371	1.442474e-06	1.399697e-06
	6.568729e-06	3.388213e-07	0.01099162	0.01199783	1.442474e-06	1.399697e-06	-0.04813083	-0.06056944
3.4e+08	-0.04912578	-0.06302881	1.347327e-06	1.248694e-06	0.01199104	0.01140754	6.750526e-06	5.49904e-08
	1.347327e-06	1.248694e-06	-0.05090994	-0.06122707	2.942318e-07	7.578288e-06	0.01145512	0.01198823
	0.01199104	0.01140754	2.942318e-07	7.578288e-06	-0.04912851	-0.06286664	1.479948e-06	1.383402e-06
	6.750526e-06	5.49904e-08	0.01145512	0.01198823	1.479948e-06	1.383402e-06	-0.05103537	-0.06092737
3.5e+08	-0.05199607	-0.06341906	1.378555e-06	1.230487e-06	0.0124626	0.01132985	6.918455e-06	-2.446466e-07
	1.378555e-06	1.230487e-06	-0.0538325	-0.06147719	2.993026e-07	7.820121e-06	0.011912	0.01195477
	0.0124626	0.01132985	2.993026e-07	7.820121e-06	-0.05200212	-0.06325042	1.514571e-06	1.364184e-06
	6.918455e-06	-2.446466e-07	0.011912	0.01195477	1.514571e-06	1.364184e-06	-0.05396432	-0.06116059
3.6e+08	-0.05488952	-0.06368944	1.40696e-06	1.209743e-06	0.01292504	0.01122716	7.07148e-06	-5.593913e-07
	1.40696e-06	1.209743e-06	-0.05677432	-0.06160239	3.055797e-07	8.063852e-06	0.01236105	0.01189787
	0.01292504	0.01122716	3.055797e-07	8.063852e-06	-0.05489895	-0.06351406	1.546142e-06	1.342204e-06
	7.07148e-06	-5.593913e-07	0.01236105	0.01189787	1.546142e-06	1.342204e-06	-0.05691223	-0.06126827
3.7e+08	-0.05780104	-0.06383918	1.432362e-06	1.186618e-06	0.01337704	0.01110001	7.208605e-06	-8.884858e-07
	1.432362e-06	1.186618e-06	-0.05972997	-0.06160208	3.131865e-07	8.309486e-06	0.01280106	0.011818
	0.01337704	0.01110001	3.131865e-07	8.309486e-06	-0.05781388	-0.06365675	1.574466e-06	1.317632e-06
	7.208605e-06	-8.884858e-07	0.01280106	0.011818	1.574466e-06	1.317632e-06	-0.05987367	-0.0612498
3.8e+08	-0.06072554	-0.06386771	1.454589e-06	1.161283e-06	0.01381734	0.01094899	7.328869e-06	-1.231114e-06
	1.454589e-06	1.161283e-06	-0.06269404	-0.06147586	3.222477e-07	8.557019e-06	0.01323085	0.01171571
	0.01381734	0.01094899	3.222477e-07	8.557019e-06	-0.0607418	-0.06367793	1.599359e-06	1.290652e-06
	7.328869e-06	-1.231114e-06	0.01323085	0.01171571	1.599359e-06	1.290652e-06	-0.06284316	-0.0611048
3.9e+08	-0.0636579	-0.06377466	1.47348e-06	1.133918e-06	0.0142447	0.01077477	7.431359e-06	-1.586403e-06
	1.47348e-06	1.133918e-06	-0.06566114	-0.06122358	3.328893e-07	8.806442e-06	0.0136493	0.0115916
	0.0142447	0.01077477	3.328893e-07	8.806442e-06	-0.06367759	-0.06357724	1.620647e-06	1.26146e-06
	7.431359e-06	-1.586403e-06	0.0136493	0.0115916	1.620647e-06	1.26146e-06	-0.06581528	-0.06083314
4e+08	-0.06659303	-0.06355992	1.488882e-06	1.104713e-06	0.01465792	0.01057808	7.515204e-06	-1.953429e-06
	1.488882e-06	1.104713e-06	-0.06862586	-0.06084533	3.45238e-07	9.057739e-06	0.01405529	0.0114463
	0.01465792	0.01057808	3.45238e-07	9.057739e-06	-0.06661612	-0.06335452	1.638165e-06	1.230262e-06
	7.515204e-06	-1.953429e-06	0.01405529	0.0114463	1.638165e-06	1.230262e-06	-0.06878457	-0.06043491
4.1e+08	-0.06952584	-0.06322353	1.500653e-06	1.07387e-06	0.01505585	0.0103597	7.579585e-06	-2.331215e-06
	1.500653e-06	1.07387e-06	-0.07158284	-0.0603414	3.59421e-07	9.310887e-06	0.01444776	0.01128053
	0.01505585	0.0103597	3.59421e-07	9.310887e-06	-0.06955231	-0.06300984	1.65176e-06	1.197275e-06
	7.579585e-06	-2.331215e-06	0.01444776	0.01128053	1.65176e-06	1.197275e-06	-0.07174565	-0.05991044
4.2e+08	-0.07245127	-0.06276578	1.508663e-06	1.041599e-06	0.01543738	0.01012046	7.623732e-06	-2.718737e-06
	1.508663e-06	1.041599e-06	-0.07452674	-0.05971234	3.755658e-07	9.565856e-06	0.01482567	0.01109505
	0.01543738	0.01012046	3.755658e-07	9.565856e-06	-0.07248105	-0.06254348	1.66129e-06	1.162728e-06
	7.623732e-06	-2.718737e-06	0.01482567	0.01109505	1.66129e-06	1.162728e-06	-0.07469314	-0.05926027
4.3e+08	-0.07536428	-0.06218716	1.512791e-06	1.008119e-06	0.01580142	0.00986127	7.646932e-06	-3.114924e-06
	1.512791e-06	1.008119e-06	-0.07745227	-0.0589589	3.937994e-07	9.822608e-06	0.01518805	0.01089067
	0.01580142	0.00986127	3.937994e-07	9.822608e-06	-0.07539731	-0.06195592	1.666628e-06	1.126856e-06
	7.646932e-06	-3.114924e-06	0.01518805	0.01089067	1.666628e-06	1.126856e-06	-0.07762171	-0.05848518
4.4e+08	-0.07825987	-0.06148836	1.512931e-06	9.736571e-07	0.01614698	0.009583068	7.648527e-06	-3.518665e-06
	1.512931e-06	9.736571e-07	-0.08035419	-0.05808205	4.142485e-07	1.00811e-05	0.01553394	0.01066823
	0.01614698	0.009583068	4.142485e-07	1.00811e-05	-0.07829605	-0.06124786	1.667657e-06	1.089905e-06
	7.648527e-06	-3.518665e-06	0.01553394	0.01066823	1.667657e-06	1.089905e-06	-0.08052608	-0.05758617
4.5e+08	-0.08113308	-0.06067028	1.508988e-06	9.384481e-07	0.01647307	0.009286854	7.627917e-06	-3.928807e-06
	1.508988e-06	9.384481e-07	-0.08322731	-0.05708299	4.370388e-07	1.034128e-05	0.01586246	0.01042864
	0.01647307	0.009286854	4.370388e-07	1.034128e-05	-0.08117232	-0.06042019	1.664276e-06	1.052128e-06
	7.627917e-06	-3.928807e-06	0.01586246	0.01042864	1.664276e-06	1.052128e-06	-0.08340104	-0.05656446
4.6e+08	-0.08397902	-0.05973401	1.500881e-06	9.027337e-07	0.01677879	0.00897367	7.584566e-06	-4.344163e-06
	1.500881e-06	9.027337e-07	-0.08606652	-0.05596313	4.622944e-07	1.060308e-05	0.01617276	0.01017284
	0.01677879	0.00897367	4.622944e-07	1.060308e-05	-0.08402118	-0.059474	1.656397e-06	1.013786e-06
	7.584566e-06	-4.344163e-06	0.01617276	0.01017284	1.656397e-06	1.013786e-06	-0.08624143	-0.05542149
4.7e+08	-0.08679284	-0.05868084	1.488541e-06	8.667614e-07	0.01706328	0.008644602	7.517997e-06	-4.763511e-06
	1.488541e-06	8.667614e-07	-0.08886678	-0.05472409	4.901378e-07	1.086644e-05	0.01646403	0.009901807
	0.01706328	0.008644602	4.901378e-07	1.086644e-05	-0.08683777	-0.05841058	1.643947e-06	9.751458e-07
	7.517997e-06	-4.763511e-06	0.01646403	0.009901807	1.643947e-06	9.751458e-07	-0.08904218	-0.05415889
4.8e+08	-0.08956977	-0.05751227	1.471915e-06	8.307842e-07	0.01732574	0.008300777	7.427802e-06	-5.185601e-06
	1.471915e-06	8.307842e-07	-0.09162312	-0.05336768	5.206892e-07	1.113129e-05	0.01673555	0.009616561
	0.01732574	0.008300777	5.206892e-07	1.113129e-05	-0.08961731	-0.05723144	1.626868e-06	9.364799e-07
