!$
! Info: Touchstone file created by Circ.  Input file=Tx_2in_Rx_93ohms_TxVia_60mils_RxVia_70mils.circ
!$
# Hz S RI R 50
0	0.001990766	5.130644e-26	-2.720701e-11	8.652203e-27	3.126682e-05	3.734998e-24	-3.228595e-09	4.014861e-25
	-2.720778e-11	8.652312e-27	0.001986313	5.824879e-26	4.64462e-11	1.269755e-27	3.096643e-05	4.712347e-24
	3.235136e-05	3.760002e-24	4.644195e-11	1.27027e-27	0.002006387	5.124839e-26	-5.79132e-12	7.616074e-27
	-3.228466e-09	4.014704e-25	3.123644e-05	4.732556e-24	-5.886626e-12	7.627698e-27	0.002000943	5.795663e-26
1e+07	0.002761248	0.0002884492	5.461884e-11	1.622056e-10	6.109664e-05	0.0005870366	-5.332805e-09	7.36289e-09
	5.461884e-11	1.622056e-10	0.002914512	0.000273366	6.629325e-11	1.835299e-10	6.098785e-05	0.000616112
	6.112761e-05	0.000587041	6.629325e-11	1.835299e-10	0.002963984	0.0004040971	-5.842265e-09	9.517367e-09
	-5.332805e-09	7.36289e-09	6.098988e-05	0.0006161095	-5.842265e-09	9.517367e-09	0.002873464	0.0002746849
2e+07	0.003445591	-4.603379e-05	6.761677e-11	3.066523e-10	0.0001198091	0.001182259	7.692081e-11	-5.388244e-11
	6.761678e-11	3.066523e-10	0.003548218	-0.0001299476	7.95101e-11	3.483665e-10	9.387189e-05	0.001233236
	0.000119823	0.00118224	7.951009e-11	3.483665e-10	0.003709115	7.902821e-05	1.097797e-11	6.496672e-10
	7.692082e-11	-5.388243e-11	9.386837e-05	0.001233236	1.097798e-11	6.496672e-10	0.003519033	-0.0001075885
3e+07	0.003930558	-0.0006713625	6.170624e-11	4.545173e-10	0.0002032832	0.001771596	6.807326e-11	5.072587e-10
	6.170624e-11	4.545173e-10	0.003988908	-0.0007785276	7.588702e-11	5.146938e-10	0.0001684023	0.00183055
	0.0002032841	0.001771594	7.588702e-11	5.146938e-10	0.004241698	-0.0005458529	7.522568e-11	5.631132e-10
	6.807326e-11	5.072587e-10	0.000168402	0.001830552	7.522568e-11	5.631132e-10	0.003968895	-0.0007482914
4e+07	0.00429556	-0.001407354	5.822212e-11	5.986355e-10	0.0003126506	0.002355295	6.668509e-11	7.057094e-10
	5.822212e-11	5.986355e-10	0.004310958	-0.001525903	7.439144e-11	6.78213e-10	0.0002793145	0.002417282
	0.0003126546	0.002355299	7.439143e-11	6.78213e-10	0.004647232	-0.0012894	7.389273e-11	7.165949e-10
	6.668509e-11	7.057094e-10	0.0002793152	0.002417283	7.389273e-11	7.165949e-10	0.004298914	-0.001491387
5e+07	0.004569175	-0.002210188	5.170923e-11	7.410724e-10	0.0004480046	0.002932164	5.954803e-11	8.638905e-10
	5.170923e-11	7.410724e-10	0.004541161	-0.002332393	7.030794e-11	8.398583e-10	0.0004141001	0.002994756
	0.0004480076	0.002932166	7.030794e-11	8.398583e-10	0.004956403	-0.002106082	6.733147e-11	8.954457e-10
	5.954803e-11	8.638905e-10	0.000414101	0.002994757	6.733147e-11	8.954457e-10	0.004535965	-0.00229558
6e+07	0.004765703	-0.003058551	4.090261e-11	8.827311e-10	0.0006090916	0.003501059	4.692555e-11	1.018596e-09
	4.090261e-11	8.827311e-10	0.004693555	-0.003178234	6.252396e-11	1.000405e-09	0.0005726388	0.003562614
	0.0006090878	0.003501058	6.252396e-11	1.000405e-09	0.005184432	-0.002973692	5.739846e-11	1.075886e-09
	4.692555e-11	1.018596e-09	0.0005726401	0.003562614	5.739846e-11	1.075886e-09	0.004694359	-0.003140468
7e+07	0.00489332	-0.003939702	2.518365e-11	1.024512e-09	0.0007955697	0.00406093	2.976127e-11	1.177722e-09
	2.518365e-11	1.024512e-09	0.004776084	-0.004051562	5.035466e-11	1.160745e-09	0.0007546463	0.004120156
	0.0007955585	0.00406093	5.035466e-11	1.160745e-09	0.005339925	-0.003879153	4.278705e-11	1.253794e-09
	2.976127e-11	1.177722e-09	0.000754648	0.004120156	4.278706e-11	1.253794e-09	0.004782149	-0.004014025
8e+07	0.004957051	-0.004844748	4.182909e-12	1.167362e-09	0.001007066	0.004610846	9.010215e-12	1.343605e-09
	4.182905e-12	1.167362e-09	0.004793467	-0.004943617	3.347003e-11	1.321786e-09	0.0009597444	0.004666503
	0.001007052	0.004610848	3.347003e-11	1.321786e-09	0.005428005	-0.004813805	2.224193e-11	1.428602e-09
	9.010208e-12	1.343605e-09	0.0009597463	0.004666503	2.224194e-11	1.428602e-09	0.004803981	-0.004907456
9e+07	0.004960299	-0.005766581	-2.242809e-11	1.312296e-09	0.001243226	0.005150207	-1.391543e-11	1.516704e-09
	-2.24281e-11	1.312296e-09	0.004749018	-0.005846481	1.236788e-11	1.484203e-09	0.001187464	0.005200662
	0.001243215	0.005150211	1.236787e-11	1.484203e-09	0.005451782	-0.005771807	-4.954032e-12	1.600303e-09
	-1.391544e-11	1.516704e-09	0.001187465	0.005200661	-4.95403e-12	1.600303e-09	0.004763027	-0.005812864
1e+08	0.004906071	-0.006697564	-5.601314e-11	1.460794e-09	0.001504171	0.005680977	-3.906229e-11	1.697555e-09
	-5.601314e-11	1.460794e-09	0.00464683	-0.006747884	-1.425298e-11	1.648755e-09	0.001437257	0.005721516
	0.001504171	0.005680977	-1.425298e-11	1.648755e-09	0.005412051	-0.006753485	-4.12299e-11	1.769861e-09
	-3.906229e-11	1.697555e-09	0.001437257	0.005721516	-4.12299e-11	1.769861e-09	0.004663074	-0.006718709
1.1e+08	0.004803916	-0.007638589	-9.07722e-11	1.616382e-09	0.001776573	0.006199463	-6.949024e-11	1.873254e-09
	-9.07722e-11	1.616382e-09	0.004512165	-0.007661042	-4.206182e-11	1.819398e-09	0.001708011	0.006228294
	0.001776573	0.006199463	-4.206182e-11	1.819398e-09	0.005291237	-0.007737129	-7.617278e-11	1.95545e-09
	-6.949024e-11	1.873254e-09	0.001708009	0.006228294	-7.617278e-11	1.95545e-09	0.004526628	-0.007635586
1.2e+08	0.004646126	-0.008587478	-1.241369e-10	1.772278e-09	0.00207052	0.006697018	-1.022806e-10	2.051314e-09
	-1.241369e-10	1.772278e-09	0.004317696	-0.008586798	-7.026632e-11	1.991156e-09	0.001999369	0.006720186
	0.00207052	0.006697017	-7.026632e-11	1.991156e-09	0.005117169	-0.008714231	-1.103471e-10	2.141654e-09
	-1.022806e-10	2.051314e-09	0.001999367	0.006720187	-1.103471e-10	2.141654e-09	0.004330147	-0.008563613
1.3e+08	0.004434567	-0.0095384	-1.563201e-10	1.928576e-09	0.002385833	0.007176012	-1.361805e-10	2.231116e-09
	-1.563201e-10	1.928576e-09	0.004066342	-0.009514329	-9.837683e-11	2.164044e-09	0.00231061	0.007196163
	0.002385833	0.007176011	-9.837683e-11	2.164044e-09	0.004890104	-0.009687986	-1.444608e-10	2.328938e-09
	-1.361805e-10	2.231116e-09	0.002310608	0.007196164	-1.444608e-10	2.328938e-09	0.004076377	-0.009492903
1.4e+08	0.004170617	-0.01048764	-1.91278e-10	2.087963e-09	0.002721702	0.007636181	-1.728169e-10	2.41416e-09
	-1.91278e-10	2.087963e-09	0.003759832	-0.01043872	-1.291872e-10	2.339836e-09	0.002640938	0.007655281
	0.002721702	0.007636181	-1.291872e-10	2.339836e-09	0.004611085	-0.01065667	-1.816852e-10	2.519661e-09
	-1.728169e-10	2.41416e-09	0.002640937	0.007655282	-1.816852e-10	2.519661e-09	0.003767017	-0.01041871
1.5e+08	0.00385552	-0.01143201	-2.28865e-10	2.25073e-09	0.003077208	0.008076896	-2.120237e-10	2.600786e-09
	-2.28865e-10	2.25073e-09	0.003399654	-0.01135612	-1.625539e-10	2.518808e-09	0.002989504	0.008096636
	0.003077208	0.008076895	-1.625539e-10	2.518808e-09	0.004281202	-0.01161803	-2.215523e-10	2.713994e-09
	-2.120237e-10	2.600786e-09	0.002989504	0.008096636	-2.215523e-10	2.713994e-09	0.003403547	-0.01133723
1.6e+08	0.00349046	-0.01236861	-2.68827e-10	2.417093e-09	0.00345136	0.008497415	-2.536122e-10	2.791286e-09
	-2.68827e-10	2.417093e-09	0.002987211	-0.01226318	-1.982334e-10	2.701186e-09	0.003355406	0.008519359
	0.00345136	0.008497415	-1.982334e-10	2.701186e-09	0.003901554	-0.01256973	-2.640191e-10	2.912301e-09
	-2.536122e-10	2.791286e-09	0.003355406	0.008519359	-2.640191e-10	2.912301e-09	0.002987372	-0.01224514
1.7e+08	0.003076594	-0.01329478	-3.109198e-10	2.587262e-09	0.003843115	0.00889697	-2.973221e-10	2.985897e-09
	-3.109198e-10	2.587262e-09	0.002523872	-0.01315692	-2.359918e-10	2.887183e-09	0.003737695	0.008922624
	0.003843115	0.00889697	-2.359918e-10	2.887183e-09	0.003473242	-0.01350945	-3.08807e-10	3.114817e-09
	-2.973221e-10	2.985897e-09	0.003737695	0.008922624	-3.08807e-10	3.114817e-09	0.002519867	-0.01313944
1.8e+08	0.002615067	-0.01420802	-3.549006e-10	2.761434e-09	0.004251381	0.009274798	-3.428896e-10	3.184841e-09
	-3.549006e-10	2.761434e-09	0.002011002	-0.01403455	-2.755965e-10	3.076998e-09	0.004135376	0.009305649
	0.004251381	0.009274798	-2.755965e-10	3.076998e-09	0.002997375	-0.01443495	-3.556395e-10	3.321766e-09
	-3.428896e-10	3.184841e-09	0.004135376	0.009305649	-3.556395e-10	3.321766e-09	0.00200241	-0.01401735
1.9e+08	0.00210703	-0.01510599	-4.005244e-10	2.939797e-09	0.004674998	0.009630174	-3.900455e-10	3.388326e-09
	-4.005244e-10	2.939797e-09	0.001449976	-0.01489351	-3.168126e-10	3.270819e-09	0.004547412	0.009667699
	0.004674998	0.009630174	-3.168126e-10	3.270819e-09	0.00247508	-0.01534405	-4.042378e-10	3.533356e-09
	-3.900455e-10	3.388326e-09	0.004547412	0.009667699	-4.042378e-10	3.533356e-09	0.001436388	-0.01487627
2e+08	0.001553546	-0.01598662	-4.475572e-10	3.122489e-09	0.005123612	0.009957301	-4.385295e-10	3.596503e-09
	-4.475572e-10	3.122489e-09	0.0008421924	-0.01573137	-3.594147e-10	3.468791e-09	0.004972729	0.01000809
	0.005123612	0.009957301	-3.594147e-10	3.468791e-09	0.001907397	-0.01623482	-4.543352e-10	3.749746e-09
	-4.385295e-10	3.596503e-09	0.004972729	0.01000809	-4.543352e-10	3.749746e-09	0.000823216	-0.01571378
2.1e+08	0.0009558797	-0.01684766	-4.95734e-10	3.309704e-09	0.005585308	0.01026	-4.88049e-10	3.809584e-09
	-4.95734e-10	3.309704e-09	0.0001890759	-0.01654587	-4.0315e-10	3.671104e-09	0.005410215	0.0103262
	0.005585308	0.01026	-4.0315e-10	3.671104e-09	0.001295579	-0.01710513	-5.056325e-10	3.971147e-09
	-4.88049e-10	3.809584e-09	0.005410215	0.0103262	-5.056325e-10	3.971147e-09	0.0001643362	-0.01652758
2.2e+08	0.0003152501	-0.01768711	-5.447966e-10	3.501595e-09	0.006058186	0.01053799	-5.38317e-10	4.027734e-09
	-5.447966e-10	3.501595e-09	-0.0005079182	-0.01733486	-4.477706e-10	3.87791e-09	0.005858729	0.01062144
	0.006058186	0.01053799	-4.477706e-10	3.87791e-09	0.0006408343	-0.01795304	-5.578368e-10	4.197725e-09
	-5.38317e-10	4.027734e-09	0.005858729	0.01062144	-5.578368e-10	4.197725e-09	-0.000538775	-0.01731549
2.3e+08	-0.0003671019	-0.01850304	-5.944816e-10	3.6983e-09	0.00654098	0.01079076	-5.890407e-10	4.251102e-09
	-5.944816e-10	3.6983e-09	-0.001247295	-0.01809629	-4.930246e-10	4.08935e-09	0.006317097	0.01089329
	0.00654098	0.01079076	-4.930246e-10	4.08935e-09	-5.560436e-05	-0.0187767	-6.106508e-10	4.429635e-09
	-5.890407e-10	4.251102e-09	0.006317097	0.01089329	-6.106508e-10	4.429635e-09	-0.001284604	-0.01807547
2.4e+08	-0.001089905	-0.01929363	-6.445204e-10	3.899947e-09	0.007032399	0.01101784	-6.399213e-10	4.479822e-09
	-6.445204e-10	3.899947e-09	-0.002027529	-0.01882823	-5.386548e-10	4.305551e-09	0.006784122	0.01114131
	0.007032399	0.01101784	-5.386548e-10	4.305551e-09	-0.000792473	-0.01957433	-6.637718e-10	4.667011e-09
	-6.399213e-10	4.479822e-09	0.006784122	0.01114131	-6.637718e-10	4.667011e-09	-0.002071603	-0.01880555
2.5e+08	-0.001851851	-0.02005711	-6.946392e-10	4.106648e-09	0.007531124	0.01121883	-6.906546e-10	4.714012e-09
	-6.946392e-10	4.106648e-09	-0.00284705	-0.01952885	-5.843989e-10	4.52663e-09	0.007258581	0.01136508
	0.007531124	0.01121883	-5.843989e-10	4.52663e-09	-0.001568468	-0.02034422	-7.168915e-10	4.909979e-09
	-6.906546e-10	4.714012e-09	0.007258581	0.01136508	-7.168915e-10	4.909979e-09	-0.00289818	-0.01950389
2.6e+08	-0.002651596	-0.0207918	-7.44657e-10	4.318419e-09	0.008035816	0.0113934	-7.409312e-10	4.95378e-09
	-7.44657e-10	4.318419e-09	-0.003704255	-0.02019639	-6.30121e-10	4.752549e-09	0.007739235	0.01156427
	0.008035816	0.0113934	-6.30121e-10	4.752549e-09	-0.002382254	-0.02108473	-7.696971e-10	5.158648e-09
	-7.409312e-10	4.95378e-09	0.007739235	0.01156427	-7.696971e-10	5.158648e-09	-0.003762705	-0.02016872
2.7e+08	-0.003487757	-0.02149611	-7.942181e-10	4.535422e-09	0.008545116	0.01154127	-7.90436e-10	5.199215e-09
	-7.942181e-10	4.535422e-09	-0.004597492	-0.02082922	-6.754538e-10	4.983517e-09	0.008224824	0.01173861
	0.008545116	0.01154127	-6.754538e-10	4.983517e-09	-0.003232448	-0.02179427	-8.218698e-10	5.413112e-09
	-7.90436e-10	5.199215e-09	0.008224824	0.01173861	-8.218698e-10	5.413112e-09	-0.004663505	-0.02079837
2.8e+08	-0.004358918	-0.02216849	-8.430188e-10	4.757748e-09	0.009057654	0.01166225	-8.388497e-10	5.450392e-09
	-8.430188e-10	4.757748e-09	-0.005525076	-0.02142575	-7.201003e-10	5.21964e-09	0.008714079	0.01188788
	0.009057654	0.01166225	-7.201003e-10	5.21964e-09	-0.004117637	-0.02247136	-8.73087e-10	5.67345e-09
	-8.388497e-10	5.450392e-09	0.008714079	0.01188788	-8.73087e-10	5.67345e-09	-0.00559887	-0.02139127
2.9e+08	-0.005263624	-0.02280748	-8.907666e-10	4.985461e-09	0.009572047	0.01175619	-8.858488e-10	5.707372e-09
	-8.907666e-10	4.985461e-09	-0.006485282	-0.02198451	-7.6378e-10	5.460986e-09	0.009205717	0.01201192
	0.009572047	0.01175619	-7.6378e-10	5.460986e-09	-0.005036372	-0.02311453	-9.230216e-10	5.939727e-09
	-8.858488e-10	5.707372e-09	0.009205717	0.01201192	-9.230216e-10	5.939727e-09	-0.00656705	-0.02194591
3e+08	-0.006200379	-0.02341168	-9.371652e-10	5.218612e-09	0.01008691	0.01182304	-9.311061e-10	5.970199e-09
	-9.371652e-10	5.218612e-09	-0.007476345	-0.02250412	-8.06209e-10	5.707611e-09	0.009698453	0.01211066
	0.01008691	0.01182304	-8.06209e-10	5.707611e-09	-0.005987158	-0.02372242	-9.713429e-10	6.211992e-09
	-9.311061e-10	5.970199e-09	0.009698453	0.01211066	-9.713429e-10	6.211992e-09	-0.007566256	-0.02246091
3.1e+08	-0.007167656	-0.02397976	-9.819153e-10	5.457235e-09	0.01060084	0.01186279	-9.742913e-10	6.238904e-09
	-9.819153e-10	5.457235e-09	-0.008496466	-0.02298325	-8.470995e-10	5.959558e-09	0.01019099	0.01218408
	0.01060084	0.01186279	-8.470995e-10	5.959558e-09	-0.006968471	-0.0242937	-1.017717e-09	6.490279e-09
	-9.742913e-10	6.238904e-09	0.01019099	0.01218408	-1.017717e-09	6.490279e-09	-0.008594663	-0.02293493
3.2e+08	-0.00816389	-0.02451046	-1.024715e-09	5.701355e-09	0.01111245	0.01187552	-1.015071e-09	6.5135e-09
	-1.024715e-09	5.701355e-09	-0.009543812	-0.02342069	-8.861611e-10	6.216856e-09	0.01068205	0.01223221
	0.01111245	0.01187552	-8.861611e-10	6.216856e-09	-0.007978747	-0.02482715	-1.061807e-09	6.774607e-09
	-1.015071e-09	6.5135e-09	0.01068205	0.01223221	-1.061807e-09	6.774607e-09	-0.009650411	-0.02336675
3.3e+08	-0.00918748	-0.0250026	-1.065258e-09	5.950979e-09	0.01162036	0.01186136	-1.053111e-09	6.793985e-09
	-1.065258e-09	5.950979e-09	-0.01061651	-0.02381529	-9.231004e-10	6.479524e-09	0.01117033	0.01225517
	0.01162036	0.01186136	-9.231004e-10	6.479524e-09	-0.009016384	-0.02532156	-1.103275e-09	7.064979e-09
	-1.053111e-09	6.793985e-09	0.01117033	0.01225517	-1.103275e-09	7.064979e-09	-0.0107316	-0.0237552
3.4e+08	-0.01023679	-0.02545505	-1.10324e-09	6.206102e-09	0.01212318	0.01182053	-1.088075e-09	7.080343e-09
	-1.10324e-09	6.206102e-09	-0.01171267	-0.02416599	-9.576221e-10	6.747563e-09	0.01165455	0.01225313
	0.01212318	0.01182053	-9.576221e-10	6.747563e-09	-0.01007975	-0.02577583	-1.141779e-09	7.361382e-09
	-1.088075e-09	7.080343e-09	0.01165455	0.01225313	-1.141779e-09	7.361382e-09	-0.01183631	-0.02409924
3.5e+08	-0.01131016	-0.02586676	-1.138351e-09	6.466703e-09	0.01261953	0.01175331	-1.119625e-09	7.372538e-09
	-1.138351e-09	6.466703e-09	-0.01283036	-0.02447184	-9.894293e-10	7.020965e-09	0.01213345	0.01222633
	0.01261953	0.01175331	-9.894293e-10	7.020965e-09	-0.01116719	-0.02618892	-1.176979e-09	7.663786e-09
	-1.119625e-09	7.372538e-09	0.01213345	0.01222633	-1.176979e-09	7.663786e-09	-0.01296259	-0.02439787
3.6e+08	-0.0124059	-0.02623673	-1.170285e-09	6.732749e-09	0.01310808	0.01166005	-1.147424e-09	7.670522e-09
	-1.170285e-09	6.732749e-09	-0.01396762	-0.02473192	-1.018224e-09	7.299705e-09	0.01260576	0.01217507
	0.01310808	0.01166005	-1.018224e-09	7.299705e-09	-0.012277	-0.02655984	-1.208532e-09	7.972145e-09
	-1.147424e-09	7.670522e-09	0.01260576	0.01217507	-1.208532e-09	7.972145e-09	-0.01410845	-0.02465021
3.7e+08	-0.01352227	-0.02656407	-1.198731e-09	7.004191e-09	0.01358746	0.01154116	-1.171135e-09	7.974227e-09
	-1.198731e-09	7.004191e-09	-0.01512248	-0.02494545	-1.043707e-09	7.583746e-09	0.01307023	0.01209971
	0.01358746	0.01154116	-1.043707e-09	7.583746e-09	-0.01340745	-0.02688769	-1.236098e-09	8.2864e-09
	-1.171135e-09	7.974227e-09	0.01307023	0.01209971	-1.236098e-09	8.2864e-09	-0.01527188	-0.02485545
3.8e+08	-0.01465752	-0.02684791	-1.223382e-09	7.280964e-09	0.01405638	0.01139712	-1.190423e-09	8.283571e-09
	-1.223382e-09	7.280964e-09	-0.01629294	-0.0251117	-1.065581e-09	7.873036e-09	0.01352565	0.01200067
	0.01405638	0.01139712	-1.065581e-09	7.873036e-09	-0.01455679	-0.02717161	-1.259337e-09	8.60647e-09
	-1.190423e-09	8.283571e-09	0.01352565	0.01200067	-1.259337e-09	8.60647e-09	-0.01645087	-0.02501286
3.9e+08	-0.01580989	-0.02708749	-1.243931e-09	7.56299e-09	0.01451354	0.01122849	-1.204954e-09	8.598455e-09
	-1.243931e-09	7.56299e-09	-0.01747697	-0.02523003	-1.083546e-09	8.167511e-09	0.01397081	0.01187845
	0.01451354	0.01122849	-1.083546e-09	8.167511e-09	-0.01572325	-0.02741084	-1.277908e-09	8.932262e-09
	-1.204954e-09	8.598455e-09	0.01397081	0.01187845	-1.277908e-09	8.932262e-09	-0.01764335	-0.02512181
4e+08	-0.01697756	-0.02728211	-1.260072e-09	7.850176e-09	0.01495766	0.01103588	-1.214396e-09	8.918765e-09
	-1.260072e-09	7.850176e-09	-0.01867255	-0.02529991	-1.097305e-09	8.46709e-09	0.01440453	0.01173358
	0.01495766	0.01103588	-1.097305e-09	8.46709e-09	-0.01690502	-0.02760468	-1.291478e-09	9.263665e-09
	-1.214396e-09	8.918765e-09	0.01440453	0.01173358	-1.291478e-09	9.263665e-09	-0.01884727	-0.02518176
4.1e+08	-0.01815872	-0.02743112	-1.271502e-09	8.142415e-09	0.01538753	0.01081997	-1.218422e-09	9.244367e-09
	-1.271502e-09	8.142415e-09	-0.01987762	-0.02532085	-1.106563e-09	8.77168e-09	0.01482567	0.01156668
	0.01538753	0.01081997	-1.106563e-09	8.77168e-09	-0.01810028	-0.02775248	-1.299711e-09	9.600552e-09
	-1.218422e-09	9.244367e-09	0.01482567	0.01156668	-1.299711e-09	9.600552e-09	-0.02006055	-0.02519222
4.2e+08	-0.01935153	-0.02753397	-1.277921e-09	8.439582e-09	0.01580193	0.01058149	-1.216709e-09	9.575115e-09
	-1.277921e-09	8.439582e-09	-0.02109011	-0.02529248	-1.111027e-09	9.081173e-09	0.01523311	0.01137841
	0.01580193	0.01058149	-1.111027e-09	9.081173e-09	-0.01930718	-0.0278537	-1.302279e-09	9.942779e-09
	-1.216709e-09	9.575115e-09	0.01523311	0.01137841	-1.302279e-09	9.942779e-09	-0.02128109	-0.02515283
4.3e+08	-0.02055412	-0.02759017	-1.279033e-09	8.741542e-09	0.01619972	0.01032124	-1.208937e-09	9.910843e-09
	-1.279033e-09	8.741542e-09	-0.02230798	-0.0252145	-1.110406e-09	9.395449e-09	0.01562575	0.01116948
	0.01619972	0.01032124	-1.110406e-09	9.395449e-09	-0.02052386	-0.02790783	-1.298857e-09	1.029019e-08
	-1.208937e-09	9.910843e-09	0.01562575	0.01116948	-1.298857e-09	1.029019e-08	-0.02250682	-0.0250633
4.4e+08	-0.02176464	-0.02759931	-1.274545e-09	9.048142e-09	0.01657975	0.01004009	-1.194792e-09	1.025137e-08
	-1.274545e-09	9.048142e-09	-0.02352913	-0.02508671	-1.104412e-09	9.714371e-09	0.01600256	0.01094066
	0.01657975	0.01004009	-1.104412e-09	9.714371e-09	-0.02174845	-0.02791447	-1.289125e-09	1.06426e-08
	-1.194792e-09	1.025137e-08	0.01600256	0.01094066	-1.289125e-09	1.06426e-08	-0.02373561	-0.02492342
4.5e+08	-0.02298119	-0.02756105	-1.26417e-09	9.359214e-09	0.01694097	0.009738938	-1.173966e-09	1.059651e-08
	-1.26417e-09	9.359214e-09	-0.0247515	-0.02490898	-1.092763e-09	1.003779e-08	0.01636253	0.01069278
	0.01694097	0.009738938	-1.092763e-09	1.003779e-08	-0.02297905	-0.02787326	-1.27277e-09	1.099982e-08
	-1.173966e-09	1.059651e-08	0.01636253	0.01069278	-1.27277e-09	1.099982e-08	-0.02496537	-0.02473307
4.6e+08	-0.02420188	-0.02747511	-1.247625e-09	9.67458e-09	0.01728232	0.009418756	-1.146162e-09	1.094603e-08
	-1.247625e-09	9.67458e-09	-0.025973	-0.02468126	-1.075286e-09	1.036551e-08	0.01670468	0.01042671
	0.01728232	0.009418756	-1.075286e-09	1.036551e-08	-0.02421377	-0.02778394	-1.24956e-09	1.136163e-08
	-1.146162e-09	1.094603e-08	0.01670468	0.01042671	-1.24956e-09	1.136163e-08	-0.026194	-0.02449223
4.7e+08	-0.02542481	-0.02734129	-1.224634e-09	9.994047e-09	0.01760284	0.009080563	-1.111083e-09	1.129973e-08
	-1.224634e-09	9.994047e-09	-0.02719157	-0.0244036	-1.051868e-09	1.06973e-08	0.01702809	0.01014336
	0.01760284	0.009080563	-1.051868e-09	1.06973e-08	-0.0254507	-0.02764631	-1.219297e-09	1.17278e-08
	-1.111083e-09	1.129973e-08	0.01702809	0.01014336	-1.219297e-09	1.17278e-08	-0.0274194	-0.02420093
