!$
! Info: Touchstone file created by Circ.  Input file=Tx_2in_Rx_93ohms_TxVia_60mils_RxVia_70mils.circ
!$
# Hz S RI R 50
0	0.001990766	5.130644e-26	-1.093398e-05	9.694022e-26	3.126682e-05	3.734998e-24	-1.09324e-05	4.009473e-26
	-1.093397e-05	9.683034e-26	0.001986313	5.824879e-26	-1.093385e-05	9.984269e-26	3.096643e-05	4.712347e-24
	3.235136e-05	3.760002e-24	-1.093385e-05	9.981195e-26	0.002006387	5.124839e-26	-1.093441e-05	2.222157e-25
	-1.09324e-05	3.986976e-26	3.123644e-05	4.732556e-24	-1.093441e-05	2.221322e-25	0.002000943	5.795663e-26
1e+07	0.002761248	0.0002884492	-1.95004e-07	-4.097389e-06	6.109664e-05	0.0005870366	-1.965128e-07	-4.199506e-06
	-1.95004e-07	-4.097389e-06	0.002914512	0.000273366	-1.264668e-06	-8.597135e-07	6.098785e-05	0.000616112
	6.112761e-05	0.000587041	-1.264668e-06	-8.597136e-07	0.002963984	0.0004040971	-4.320724e-06	-1.300529e-06
	-1.965129e-07	-4.199506e-06	6.098988e-05	0.0006161095	-4.320724e-06	-1.300529e-06	0.002873464	0.0002746849
2e+07	0.003445591	-4.603379e-05	-1.125285e-06	-2.894199e-06	0.0001198091	0.001182259	-1.229416e-06	-3.072595e-06
	-1.125286e-06	-2.894199e-06	0.003548218	-0.0001299476	-4.606363e-06	-4.860336e-06	9.387189e-05	0.001233236
	0.000119823	0.00118224	-4.606363e-06	-4.860336e-06	0.003709115	7.902822e-05	-4.738011e-06	1.992541e-07
	-1.229416e-06	-3.072595e-06	9.386837e-05	0.001233236	-4.738011e-06	1.992541e-07	0.003519033	-0.0001075885
3e+07	0.003930558	-0.0006713625	-1.856227e-06	-2.615586e-06	0.0002032832	0.001771596	-2.042053e-06	-2.803709e-06
	-1.856227e-06	-2.615586e-06	0.003988908	-0.0007785276	-7.193557e-06	-5.762718e-06	0.0001684023	0.00183055
	0.0002032841	0.001771594	-7.193557e-06	-5.762718e-06	0.004241698	-0.0005458529	-5.106176e-06	3.347018e-08
	-2.042053e-06	-2.803709e-06	0.000168402	0.001830552	-5.106176e-06	3.347017e-08	0.003968895	-0.0007482914
4e+07	0.00429556	-0.001407354	-2.473317e-06	-2.378594e-06	0.0003126506	0.002355295	-2.727576e-06	-2.557712e-06
	-2.473317e-06	-2.378594e-06	0.004310958	-0.001525903	-9.375563e-06	-5.839477e-06	0.0002793145	0.002417282
	0.0003126546	0.002355299	-9.375563e-06	-5.839477e-06	0.004647232	-0.0012894	-5.408594e-06	9.612612e-08
	-2.727576e-06	-2.557712e-06	0.0002793152	0.002417283	-5.408594e-06	9.612612e-08	0.004298914	-0.001491387
5e+07	0.004569175	-0.002210188	-3.01016e-06	-2.110265e-06	0.0004480046	0.002932164	-3.323834e-06	-2.268034e-06
	-3.01016e-06	-2.110265e-06	0.004541161	-0.002332393	-1.12761e-05	-5.442389e-06	0.0004141001	0.002994756
	0.0004480076	0.002932166	-1.12761e-05	-5.442389e-06	0.004956403	-0.002106082	-5.66316e-06	2.704088e-07
	-3.323834e-06	-2.268034e-06	0.000414101	0.002994757	-5.66316e-06	2.704088e-07	0.004535965	-0.00229558
6e+07	0.004765703	-0.003058551	-3.482507e-06	-1.793991e-06	0.0006090916	0.003501059	-3.848687e-06	-1.920759e-06
	-3.482507e-06	-1.79399e-06	0.004693555	-0.003178234	-1.295347e-05	-4.69981e-06	0.0005726388	0.003562614
	0.0006090878	0.003501058	-1.295347e-05	-4.69981e-06	0.005184432	-0.002973692	-5.877817e-06	5.178995e-07
	-3.848687e-06	-1.920759e-06	0.0005726401	0.003562614	-5.877817e-06	5.178995e-07	0.004694359	-0.003140468
7e+07	0.00489332	-0.003939702	-3.897919e-06	-1.422701e-06	0.0007955697	0.00406093	-4.310824e-06	-1.509698e-06
	-3.897919e-06	-1.422701e-06	0.004776084	-0.004051562	-1.443576e-05	-3.664007e-06	0.0007546463	0.004120156
	0.0007955585	0.00406093	-1.443576e-05	-3.664007e-06	0.005339925	-0.003879153	-6.05589e-06	8.233931e-07
	-4.310824e-06	-1.509698e-06	0.000754648	0.004120156	-6.05589e-06	8.233931e-07	0.004782149	-0.004014025
8e+07	0.004957051	-0.004844748	-4.25874e-06	-9.877022e-07	0.001007066	0.004610846	-4.71325e-06	-1.025675e-06
	-4.258739e-06	-9.877021e-07	0.004793467	-0.004943617	-1.573268e-05	-2.341772e-06	0.0009597444	0.004666503
	0.001007052	0.004610848	-1.573268e-05	-2.341772e-06	0.005428005	-0.004813805	-6.208183e-06	1.126201e-06
	-4.71325e-06	-1.025675e-06	0.0009597463	0.004666503	-6.208183e-06	1.126201e-06	0.004803981	-0.004907456
9e+07	0.004960299	-0.005766581	-4.561364e-06	-4.684834e-07	0.001243226	0.005150207	-5.053434e-06	-4.451592e-07
	-4.561364e-06	-4.684834e-07	0.004749018	-0.005846481	-1.683473e-05	-6.802559e-07	0.001187464	0.005200662
	0.001243215	0.005150211	-1.683473e-05	-6.802559e-07	0.005451782	-0.005771807	-6.411746e-06	1.064167e-06
	-5.053434e-06	-4.451593e-07	0.001187465	0.005200661	-6.411746e-06	1.064167e-06	0.004763027	-0.005812864
1e+08	0.004906071	-0.006697564	-4.773405e-06	2.476339e-07	0.001504171	0.005680977	-5.296186e-06	3.601206e-07
	-4.773405e-06	2.476339e-07	0.00464683	-0.006747884	-1.763402e-05	1.709197e-06	0.001437257	0.005721516
	0.001504171	0.005680977	-1.763402e-05	1.709197e-06	0.005412051	-0.006753485	-6.636172e-06	8.674879e-07
	-5.296186e-06	3.601206e-07	0.001437257	0.005721516	-6.636172e-06	8.674879e-07	0.004663074	-0.006718709
1.1e+08	0.004803916	-0.007638589	-4.521529e-06	8.389471e-07	0.001776573	0.006199463	-5.013228e-06	1.030234e-06
	-4.521529e-06	8.389471e-07	0.004512165	-0.007661042	-1.679903e-05	3.705618e-06	0.001708011	0.006228294
	0.001776573	0.006199463	-1.679903e-05	3.705618e-06	0.005291237	-0.007737129	-6.56284e-06	6.016969e-07
	-5.013228e-06	1.030234e-06	0.001708009	0.006228294	-6.56284e-06	6.016969e-07	0.004526628	-0.007635586
1.2e+08	0.004646126	-0.008587478	-4.309322e-06	1.228029e-06	0.00207052	0.006697018	-4.831172e-06	1.23917e-06
	-4.309322e-06	1.228029e-06	0.004317696	-0.008586798	-1.633975e-05	4.05669e-06	0.001999369	0.006720186
	0.00207052	0.006697017	-1.633975e-05	4.05669e-06	0.005117169	-0.008714231	-6.478397e-06	4.745752e-07
	-4.831172e-06	1.23917e-06	0.001999367	0.006720187	-6.478397e-06	4.745752e-07	0.004330147	-0.008563613
1.3e+08	0.004434567	-0.009538399	-4.24553e-06	1.098598e-06	0.002385833	0.007176012	-4.772529e-06	1.032761e-06
	-4.24553e-06	1.098598e-06	0.004066342	-0.009514329	-1.614717e-05	3.537603e-06	0.00231061	0.007196163
	0.002385833	0.007176011	-1.614717e-05	3.537603e-06	0.004890104	-0.009687986	-6.399159e-06	3.974683e-07
	-4.772529e-06	1.032761e-06	0.002310608	0.007196164	-6.399159e-06	3.974683e-07	0.004076377	-0.009492903
1.4e+08	0.004170617	-0.01048764	-4.193915e-06	9.657016e-07	0.002721702	0.007636181	-4.714288e-06	8.741389e-07
	-4.193915e-06	9.657016e-07	0.003759832	-0.01043872	-1.595295e-05	3.157063e-06	0.002640938	0.007655281
	0.002721702	0.007636181	-1.595295e-05	3.157063e-06	0.004611085	-0.01065667	-6.321625e-06	3.48254e-07
	-4.714288e-06	8.741389e-07	0.002640937	0.007655282	-6.321625e-06	3.48254e-07	0.003767017	-0.01041871
1.5e+08	0.00385552	-0.01143201	-4.143137e-06	8.614987e-07	0.003077208	0.008076896	-4.657607e-06	7.481304e-07
	-4.143137e-06	8.614987e-07	0.003399654	-0.01135612	-1.576131e-05	2.870087e-06	0.002989504	0.008096636
	0.003077208	0.008076895	-1.576131e-05	2.870087e-06	0.004281202	-0.01161803	-6.246951e-06	3.182549e-07
	-4.657607e-06	7.481304e-07	0.002989504	0.008096636	-6.246951e-06	3.182549e-07	0.003403547	-0.01133723
1.6e+08	0.00349046	-0.01236861	-4.093724e-06	7.783023e-07	0.00345136	0.008497415	-4.603009e-06	6.460172e-07
	-4.093724e-06	7.783023e-07	0.002987211	-0.01226318	-1.557392e-05	2.650984e-06	0.003355406	0.008519359
	0.00345136	0.008497415	-1.557392e-05	2.650984e-06	0.003901554	-0.01256973	-6.174675e-06	3.018146e-07
	-4.603009e-06	6.460172e-07	0.003355406	0.008519359	-6.174675e-06	3.018146e-07	0.002987372	-0.01224514
1.7e+08	0.003076594	-0.01329478	-4.04588e-06	7.111388e-07	0.003843115	0.00889697	-4.550679e-06	5.621852e-07
	-4.04588e-06	7.111388e-07	0.002523872	-0.01315692	-1.539141e-05	2.483307e-06	0.003737695	0.008922624
	0.003843115	0.00889697	-1.539141e-05	2.483307e-06	0.003473242	-0.01350945	-6.10477e-06	2.956202e-07
	-4.550679e-06	5.621852e-07	0.003737695	0.008922624	-6.10477e-06	2.956202e-07	0.002519867	-0.01313944
1.8e+08	0.002615067	-0.01420802	-3.999653e-06	6.5659e-07	0.004251381	0.009274798	-4.500638e-06	4.927784e-07
	-3.999653e-06	6.5659e-07	0.002011002	-0.01403455	-1.521387e-05	2.355837e-06	0.004135376	0.009305649
	0.004251381	0.009274798	-1.521387e-05	2.355837e-06	0.002997375	-0.01443495	-6.037118e-06	2.97404e-07
	-4.500638e-06	4.927784e-07	0.004135376	0.009305649	-6.037118e-06	2.97404e-07	0.00200241	-0.01401735
1.9e+08	0.00210703	-0.01510599	-3.955021e-06	6.121864e-07	0.004674998	0.009630174	-4.452832e-06	4.350133e-07
	-3.955021e-06	6.121864e-07	0.001449976	-0.01489351	-1.504118e-05	2.260525e-06	0.004547412	0.009667699
	0.004674998	0.009630174	-1.504118e-05	2.260525e-06	0.00247508	-0.01534405	-5.97157e-06	3.055352e-07
	-4.452832e-06	4.350133e-07	0.004547412	0.009667699	-5.97157e-06	3.055352e-07	0.001436388	-0.01487627
2e+08	0.001553546	-0.01598662	-3.911748e-06	5.760374e-07	0.005123612	0.009957301	-4.407098e-06	3.868041e-07
	-3.911748e-06	5.760374e-07	0.0008421924	-0.01573137	-1.487303e-05	2.19138e-06	0.004972729	0.01000809
	0.005123612	0.009957301	-1.487303e-05	2.19138e-06	0.001907397	-0.01623482	-5.907915e-06	3.187879e-07
	-4.407098e-06	3.868041e-07	0.004972729	0.01000809	-5.907915e-06	3.187879e-07	0.000823216	-0.01571378
2.1e+08	0.0009558797	-0.01684766	-3.869936e-06	5.467718e-07	0.005585308	0.01026	-4.363404e-06	3.465671e-07
	-3.869936e-06	5.467718e-07	0.0001890759	-0.01654587	-1.470919e-05	2.143838e-06	0.005410215	0.0103262
	0.005585308	0.01026	-1.470919e-05	2.143838e-06	0.001295579	-0.01710513	-5.846051e-06	3.362429e-07
	-4.363404e-06	3.465671e-07	0.005410215	0.0103262	-5.846051e-06	3.362429e-07	0.0001643362	-0.01652758
2.2e+08	0.0003152501	-0.01768711	-3.829516e-06	5.232842e-07	0.006058186	0.01053799	-4.321643e-06	3.130584e-07
	-3.829516e-06	5.232842e-07	-0.0005079182	-0.01733486	-1.454935e-05	2.114331e-06	0.005858729	0.01062144
	0.006058186	0.01053799	-1.454935e-05	2.114331e-06	0.0006408343	-0.01795304	-5.785833e-06	3.571724e-07
	-4.321643e-06	3.130584e-07	0.005858729	0.01062144	-5.785833e-06	3.571724e-07	-0.000538775	-0.01731549
2.3e+08	-0.0003671019	-0.01850304	-3.790398e-06	5.046963e-07	0.00654098	0.01079076	-4.281698e-06	2.852927e-07
	-3.790398e-06	5.046963e-07	-0.001247295	-0.01809629	-1.439317e-05	2.100034e-06	0.006317097	0.01089329
	0.00654098	0.01079076	-1.439317e-05	2.100034e-06	-5.560436e-05	-0.0187767	-5.727119e-06	3.809968e-07
	-4.281698e-06	2.852927e-07	0.006317097	0.01089329	-5.727119e-06	3.809968e-07	-0.001284604	-0.01807547
2.4e+08	-0.001089905	-0.01929363	-3.752509e-06	4.902884e-07	0.007032399	0.01101784	-4.243472e-06	2.624638e-07
	-3.752509e-06	4.902884e-07	-0.002027529	-0.01882823	-1.424038e-05	2.098635e-06	0.006784122	0.01114131
	0.007032399	0.01101784	-1.424038e-05	2.098635e-06	-0.000792473	-0.01957433	-5.669786e-06	4.072442e-07
	-4.243472e-06	2.624638e-07	0.006784122	0.01114131	-5.669786e-06	4.072442e-07	-0.002071603	-0.01880555
2.5e+08	-0.001851851	-0.02005711	-3.715771e-06	4.794773e-07	0.007531124	0.01121883	-4.206859e-06	2.439192e-07
	-3.715771e-06	4.794773e-07	-0.00284705	-0.01952885	-1.409068e-05	2.10826e-06	0.007258581	0.01136508
	0.007531124	0.01121883	-1.409068e-05	2.10826e-06	-0.001568468	-0.02034422	-5.613715e-06	4.355293e-07
	-4.206859e-06	2.439192e-07	0.007258581	0.01136508	-5.613715e-06	4.355293e-07	-0.00289818	-0.01950389
2.6e+08	-0.002651596	-0.0207918	-3.680097e-06	4.717701e-07	0.008035816	0.0113934	-4.171768e-06	2.291159e-07
	-3.680097e-06	4.717701e-07	-0.003704255	-0.02019639	-1.394361e-05	2.127331e-06	0.007739235	0.01156427
	0.008035816	0.0113934	-1.394361e-05	2.127331e-06	-0.002382254	-0.02108473	-5.558801e-06	4.655302e-07
	-4.171768e-06	2.291159e-07	0.007739235	0.01156427	-5.558801e-06	4.655302e-07	-0.003762705	-0.02016872
2.7e+08	-0.003487757	-0.02149611	-3.645428e-06	4.667687e-07	0.008545116	0.01154127	-4.138102e-06	2.176036e-07
	-3.645428e-06	4.667687e-07	-0.004597492	-0.02082922	-1.379906e-05	2.154549e-06	0.008224824	0.01173861
	0.008545116	0.01154127	-1.379906e-05	2.154549e-06	-0.003232448	-0.02179427	-5.504939e-06	4.969793e-07
	-4.138102e-06	2.176036e-07	0.008224824	0.01173861	-5.504939e-06	4.969793e-07	-0.004663505	-0.02079837
2.8e+08	-0.004358918	-0.02216849	-3.611709e-06	4.641319e-07	0.009057654	0.01166225	-4.105781e-06	2.090011e-07
	-3.611709e-06	4.641319e-07	-0.005525076	-0.02142575	-1.365684e-05	2.188808e-06	0.008714079	0.01188788
	0.009057654	0.01166225	-1.365684e-05	2.188808e-06	-0.004117637	-0.02247136	-5.452042e-06	5.2965e-07
	-4.105781e-06	2.090011e-07	0.008714079	0.01188788	-5.452042e-06	5.2965e-07	-0.00559887	-0.02139127
2.9e+08	-0.005263624	-0.02280748	-3.578885e-06	4.635691e-07	0.009572047	0.01175619	-4.074729e-06	2.029853e-07
	-3.578885e-06	4.635691e-07	-0.006485282	-0.02198451	-1.351674e-05	2.22916e-06	0.009205717	0.01201192
	0.009572047	0.01175619	-1.351674e-05	2.22916e-06	-0.005036372	-0.02311453	-5.40003e-06	5.633489e-07
	-4.074729e-06	2.029853e-07	0.009205717	0.01201192	-5.40003e-06	5.633489e-07	-0.00656705	-0.02194591
3e+08	-0.006200379	-0.02341168	-3.546895e-06	4.648327e-07	0.01008691	0.01182304	-4.044866e-06	1.99281e-07
	-3.546895e-06	4.648327e-07	-0.007476345	-0.02250412	-1.337853e-05	2.274793e-06	0.009698453	0.01211066
	0.01008691	0.01182304	-1.337853e-05	2.274793e-06	-0.005987158	-0.02372242	-5.34882e-06	5.979092e-07
	-4.044866e-06	1.99281e-07	0.009698453	0.01211066	-5.34882e-06	5.979092e-07	-0.007566256	-0.02246091
3.1e+08	-0.007167656	-0.02397976	-3.515697e-06	4.677095e-07	0.01060084	0.01186279	-4.016131e-06	1.976521e-07
	-3.515697e-06	4.677095e-07	-0.008496466	-0.02298325	-1.324205e-05	2.325002e-06	0.01019099	0.01218408
	0.01060084	0.01186279	-1.324205e-05	2.325002e-06	-0.006968471	-0.0242937	-5.29835e-06	6.331884e-07
	-4.016131e-06	1.976521e-07	0.01019099	0.01218408	-5.29835e-06	6.331884e-07	-0.008594663	-0.02293493
3.2e+08	-0.00816389	-0.02451046	-3.485243e-06	4.720152e-07	0.01111245	0.01187552	-3.988459e-06	1.978944e-07
	-3.485243e-06	4.720152e-07	-0.009543812	-0.02342069	-1.310711e-05	2.379173e-06	0.01068205	0.01223221
	0.01111245	0.01187552	-1.310711e-05	2.379173e-06	-0.007978747	-0.02482715	-5.248556e-06	6.69062e-07
	-3.988459e-06	1.978944e-07	0.01068205	0.01223221	-5.248556e-06	6.69062e-07	-0.009650411	-0.02336675
3.3e+08	-0.00918748	-0.0250026	-3.455487e-06	4.775891e-07	0.01162036	0.01186136	-3.961784e-06	1.998301e-07
	-3.455487e-06	4.775891e-07	-0.01061651	-0.02381529	-1.297353e-05	2.436763e-06	0.01117033	0.01225517
	0.01162036	0.01186136	-1.297353e-05	2.436763e-06	-0.009016384	-0.02532156	-5.199372e-06	7.054197e-07
	-3.961784e-06	1.998301e-07	0.01117033	0.01225517	-5.199372e-06	7.054197e-07	-0.0107316	-0.0237552
3.4e+08	-0.01023679	-0.02545505	-3.426391e-06	4.842923e-07	0.01212318	0.01182053	-3.936054e-06	2.033057e-07
	-3.426391e-06	4.842923e-07	-0.01171267	-0.02416599	-1.284119e-05	2.497297e-06	0.01165455	0.01225313
	0.01212318	0.01182053	-1.284119e-05	2.497297e-06	-0.01007975	-0.02577583	-5.15075e-06	7.421671e-07
	-3.936054e-06	2.033057e-07	0.01165455	0.01225313	-5.15075e-06	7.421671e-07	-0.01183631	-0.02409924
3.5e+08	-0.01131016	-0.02586676	-3.397917e-06	4.920019e-07	0.01261953	0.01175331	-3.911213e-06	2.081857e-07
	-3.397917e-06	4.920019e-07	-0.01283036	-0.02447184	-1.270994e-05	2.56035e-06	0.01213345	0.01222633
	0.01261953	0.01175331	-1.270994e-05	2.56035e-06	-0.01116719	-0.02618892	-5.102636e-06	7.792191e-07
	-3.911213e-06	2.081857e-07	0.01213345	0.01222633	-5.102636e-06	7.792191e-07	-0.01296259	-0.02439787
3.6e+08	-0.0124059	-0.02623673	-3.370034e-06	5.006107e-07	0.01310808	0.01166005	-3.887214e-06	2.143519e-07
	-3.370034e-06	5.006107e-07	-0.01396762	-0.02473192	-1.257966e-05	2.625543e-06	0.01260576	0.01217507
	0.01310808	0.01166005	-1.257966e-05	2.625543e-06	-0.012277	-0.02655984	-5.054988e-06	8.165019e-07
	-3.887214e-06	2.143519e-07	0.01260576	0.01217507	-5.054988e-06	8.165019e-07	-0.01410845	-0.02465021
3.7e+08	-0.01352227	-0.02656407	-3.342708e-06	5.100243e-07	0.01358746	0.01154116	-3.864008e-06	2.216999e-07
	-3.342708e-06	5.100243e-07	-0.01512248	-0.02494545	-1.245022e-05	2.692537e-06	0.01307023	0.01209971
	0.01358746	0.01154116	-1.245022e-05	2.692537e-06	-0.01340745	-0.02688769	-5.007761e-06	8.53949e-07
	-3.864008e-06	2.216999e-07	0.01307023	0.01209971	-5.007761e-06	8.53949e-07	-0.01527188	-0.02485545
3.8e+08	-0.01465752	-0.02684791	-3.31591e-06	5.201586e-07	0.01405638	0.01139712	-3.84155e-06	2.301374e-07
	-3.31591e-06	5.201586e-07	-0.01629294	-0.0251117	-1.232152e-05	2.761023e-06	0.01352565	0.01200067
	0.01405638	0.01139712	-1.232152e-05	2.761023e-06	-0.01455679	-0.02717161	-4.960917e-06	8.915009e-07
	-3.84155e-06	2.301374e-07	0.01352565	0.01200067	-4.960917e-06	8.915009e-07	-0.01645087	-0.02501286
3.9e+08	-0.01580989	-0.02708749	-3.289612e-06	5.309397e-07	0.01451354	0.01122849	-3.819799e-06	2.395824e-07
	-3.289612e-06	5.309397e-07	-0.01747697	-0.02523003	-1.219346e-05	2.830723e-06	0.01397081	0.01187845
	0.01451354	0.01122849	-1.219346e-05	2.830723e-06	-0.01572325	-0.02741084	-4.914417e-06	9.291047e-07
	-3.819799e-06	2.395824e-07	0.01397081	0.01187845	-4.914417e-06	9.291047e-07	-0.01764335	-0.02512181
4e+08	-0.01697756	-0.02728211	-3.263785e-06	5.423005e-07	0.01495766	0.01103588	-3.798709e-06	2.499609e-07
	-3.263785e-06	5.423005e-07	-0.01867255	-0.02529991	-1.206595e-05	2.901382e-06	0.01440453	0.01173358
	0.01495766	0.01103588	-1.206595e-05	2.901382e-06	-0.01690502	-0.02760468	-4.868225e-06	9.667114e-07
	-3.798709e-06	2.499609e-07	0.01440453	0.01173358	-4.868225e-06	9.667114e-07	-0.01884727	-0.02518176
4.1e+08	-0.01815872	-0.02743112	-3.238405e-06	5.541827e-07	0.01538753	0.01081997	-3.778244e-06	2.612079e-07
	-3.238405e-06	5.541827e-07	-0.01987762	-0.02532085	-1.193889e-05	2.972767e-06	0.01482567	0.01156668
	0.01538753	0.01081997	-1.193889e-05	2.972767e-06	-0.01810028	-0.02775248	-4.82231e-06	1.004278e-06
	-3.778244e-06	2.612079e-07	0.01482567	0.01156668	-4.82231e-06	1.004278e-06	-0.02006055	-0.02519222
4.2e+08	-0.01935153	-0.02753397	-3.213449e-06	5.665339e-07	0.01580193	0.01058149	-3.758367e-06	2.732656e-07
	-3.213449e-06	5.665339e-07	-0.02109011	-0.02529248	-1.181222e-05	3.044665e-06	0.01523311	0.01137841
	0.01580193	0.01058149	-1.181222e-05	3.044665e-06	-0.01930718	-0.0278537	-4.776642e-06	1.041765e-06
	-3.758367e-06	2.732656e-07	0.01523311	0.01137841	-4.776642e-06	1.041765e-06	-0.02128109	-0.02515283
4.3e+08	-0.02055412	-0.02759017	-3.188897e-06	5.793076e-07	0.01619972	0.01032124	-3.739043e-06	2.86082e-07
	-3.188897e-06	5.793076e-07	-0.02230798	-0.0252145	-1.168587e-05	3.116881e-06	0.01562575	0.01116948
	0.01619972	0.01032124	-1.168587e-05	3.116881e-06	-0.02052386	-0.02790783	-4.731195e-06	1.079139e-06
	-3.739043e-06	2.86082e-07	0.01562575	0.01116948	-4.731195e-06	1.079139e-06	-0.02250682	-0.0250633
4.4e+08	-0.02176464	-0.02759931	-3.164725e-06	5.924614e-07	0.01657975	0.01004009	-3.720237e-06	2.996094e-07
	-3.164725e-06	5.924614e-07	-0.02352913	-0.02508671	-1.155977e-05	3.189231e-06	0.01600256	0.01094066
	0.01657975	0.01004009	-1.155977e-05	3.189231e-06	-0.02174845	-0.02791447	-4.68594e-06	1.116364e-06
	-3.720237e-06	2.996094e-07	0.01600256	0.01094066	-4.68594e-06	1.116364e-06	-0.02373561	-0.02492342
4.5e+08	-0.02298119	-0.02756105	-3.140913e-06	6.05957e-07	0.01694097	0.009738938	-3.701915e-06	3.138047e-07
	-3.140913e-06	6.05957e-07	-0.0247515	-0.02490898	-1.143386e-05	3.261544e-06	0.01636253	0.01069278
	0.01694097	0.009738938	-1.143386e-05	3.261544e-06	-0.02297905	-0.02787326	-4.640852e-06	1.153412e-06
	-3.701915e-06	3.138047e-07	0.01636253	0.01069278	-4.640852e-06	1.153412e-06	-0.02496537	-0.02473307
4.6e+08	-0.02420188	-0.02747511	-3.117444e-06	6.197613e-07	0.01728232	0.009418756	-3.684035e-06	3.286234e-07
	-3.117444e-06	6.197613e-07	-0.025973	-0.02468126	-1.130807e-05	3.333641e-06	0.01670468	0.01042671
	0.01728232	0.009418756	-1.130807e-05	3.333641e-06	-0.02421377	-0.02778394	-4.595863e-06	1.190231e-06
	-3.684035e-06	3.286234e-07	0.01670468	0.01042671	-4.595863e-06	1.190231e-06	-0.026194	-0.02449223
4.7e+08	-0.02542481	-0.02734129	-3.094298e-06	6.338418e-07	0.01760284	0.009080563	-3.666574e-06	3.44034e-07
	-3.094298e-06	6.338418e-07	-0.02719157	-0.0244036	-1.118232e-05	3.405335e-06	0.01702809	0.01014336
	0.01760284	0.009080563	-1.118232e-05	3.405335e-06	-0.0254507	-0.02764631	-4.550956e-06	1.226791e-06
