!$
! Info: Touchstone file created by Circ.  Input file=Tx_2in_Rx_100ohms_TxVia_60mils_RxVia_70mils.circ
!$
# Hz S RI R 50
0	0.002233657	5.132405e-26	-1.095233e-05	9.686995e-26	3.127386e-05	4.205387e-24	-1.095075e-05	4.003852e-26
	-1.095233e-05	9.675988e-26	0.002229204	5.827351e-26	-1.09522e-05	9.977162e-26	3.097381e-05	5.307954e-24
	3.235837e-05	4.233533e-24	-1.09522e-05	9.974083e-26	0.002249272	5.126609e-26	-1.095277e-05	2.22115e-25
	-1.095075e-05	3.981316e-26	3.124381e-05	5.330717e-24	-1.095277e-05	2.220314e-25	0.002243827	5.798133e-26
1e+07	0.003086212	0.001801821	-3.8189e-07	-2.183301e-06	5.530092e-05	0.0006104808	-2.238455e-07	-2.990926e-06
	-3.8189e-07	-2.183301e-06	0.003178782	0.001815658	-2.614749e-07	-6.47784e-07	0.0001262606	0.0006234938
	5.533189e-05	0.0006104852	-2.614749e-07	-6.47784e-07	0.002983865	0.001861416	-6.497503e-07	-8.861224e-07
	-2.238455e-07	-2.990926e-06	0.0001262627	0.0006234913	-6.497503e-07	-8.861224e-07	0.003162521	0.001823956
2e+07	0.003888578	0.002949551	-1.012044e-06	-1.20109e-07	0.0001018436	0.001222296	-2.11357e-07	-1.134461e-06
	-1.012044e-06	-1.20109e-07	0.00396793	0.002938302	-3.278645e-06	-5.074677e-06	0.0001399432	0.001271226
	0.0001018575	0.001222277	-3.278645e-06	-5.074677e-06	0.003860583	0.003094591	-4.176387e-06	-5.139561e-06
	-2.113571e-07	-1.134461e-06	0.0001399396	0.001271227	-4.176387e-06	-5.139561e-06	0.00396004	0.002965109
3e+07	0.004556252	0.003797807	-1.580339e-06	-6.431972e-07	0.0001765249	0.001821887	-2.178659e-07	-6.895087e-07
	-1.580339e-06	-6.431972e-07	0.004621989	0.003779356	-5.995788e-06	-6.107982e-06	0.000187861	0.001880428
	0.0001765257	0.001821884	-5.995788e-06	-6.107982e-06	0.004587347	0.003973051	-6.908903e-06	-6.104922e-06
	-2.178659e-07	-6.895086e-07	0.0001878607	0.00188043	-6.908903e-06	-6.104922e-06	0.004621274	0.003816974
4e+07	0.005169105	0.004523831	-2.058803e-06	-8.134699e-07	0.0002789242	0.002413831	-2.226268e-07	-4.628591e-07
	-2.058803e-06	-8.134699e-07	0.005219471	0.004501885	-8.28864e-06	-6.252705e-06	0.0002717232	0.00247531
	0.0002789282	0.002413835	-8.28864e-06	-6.252705e-06	0.005251606	0.004712878	-9.212875e-06	-6.193982e-06
	-2.226268e-07	-4.628591e-07	0.0002717239	0.002475311	-9.212875e-06	-6.193982e-06	0.005225747	0.004547898
5e+07	0.00575546	0.005169308	-2.474434e-06	-8.147935e-07	0.0004084986	0.002997778	-2.247701e-07	-3.173659e-07
	-2.474434e-06	-8.147935e-07	0.005788172	0.005146444	-1.028511e-05	-5.890934e-06	0.0004204138	0.003054522
	0.0004085016	0.002997779	-1.028511e-05	-5.890934e-06	0.005884232	0.005362111	-1.12171e-05	-5.779525e-06
	-2.247701e-07	-3.173659e-07	0.0004204147	0.003054522	-1.12171e-05	-5.779525e-06	0.005801167	0.005199417
6e+07	0.006329111	0.00575329	-2.839518e-06	-7.085154e-07	0.0005646545	0.003572906	-2.240859e-07	-2.111565e-07
	-2.839518e-06	-7.085154e-07	0.006342228	0.005731799	-1.20448e-05	-5.16275e-06	0.0005914752	0.003621799
	0.0005646507	0.003572905	-1.20448e-05	-5.16275e-06	0.006500145	0.005942236	-1.298157e-05	-4.998756e-06
	-2.240859e-07	-2.111565e-07	0.0005914765	0.003621799	-1.298157e-05	-4.998756e-06	0.006361857	0.005790692
7e+07	0.006897583	0.006286207	-3.159712e-06	-5.20016e-07	0.0007508839	0.004137599	-2.202448e-07	-1.269097e-07
	-3.159712e-06	-5.200159e-07	0.006889215	0.006267976	-1.359551e-05	-4.124977e-06	0.0007848111	0.004176847
	0.0007508727	0.004137599	-1.359551e-05	-4.124977e-06	0.007107403	0.006464713	-1.453493e-05	-3.907979e-06
	-2.202447e-07	-1.269096e-07	0.0007848129	0.004176847	-1.453493e-05	-3.907979e-06	0.006915447	0.006331784
8e+07	0.007465159	0.00677474	-3.436627e-06	-2.579395e-07	0.0009625738	0.004691394	-2.129321e-07	-5.62377e-08
	-3.436627e-06	-2.579394e-07	0.007433191	0.006761531	-1.494641e-05	-2.787695e-06	0.001000116	0.004718908
	0.0009625595	0.004691396	-1.494641e-05	-2.787695e-06	0.007710447	0.006936385	-1.588594e-05	-2.515574e-06
	-2.129319e-07	-5.623767e-08	0.001000118	0.004718907	-1.588594e-05	-2.515574e-06	0.007465892	0.006829232
9e+07	0.008034467	0.00722407	-3.667422e-06	8.442284e-08	0.001198915	0.005233501	-2.015708e-07	5.380882e-09
	-3.667421e-06	8.442284e-08	0.007976577	0.007217908	-1.60855e-05	-1.101147e-06	0.001236872	0.005246773
	0.001198905	0.005233505	-1.60855e-05	-1.101147e-06	0.008311646	0.007361456	-1.702212e-05	-7.691984e-07
	-2.015706e-07	5.380872e-09	0.001236874	0.005246772	-1.702212e-05	-7.691984e-07	0.008015462	0.007288461
1e+08	0.008608271	0.007642081	-3.826482e-06	5.864747e-07	0.001459703	0.005764237	-1.837166e-07	6.117516e-08
	-3.826482e-06	5.864747e-07	0.008522201	0.007645898	-1.689684e-05	1.32385e-06	0.001493933	0.00575728
	0.001459703	0.005764237	-1.689684e-05	1.32385e-06	0.008911588	0.007740442	-1.782558e-05	1.730193e-06
	-1.837166e-07	6.117516e-08	0.001493933	0.00575728	-1.782558e-05	1.730193e-06	0.008566742	0.007717841
1.1e+08	0.009203741	0.008017781	-3.6349e-06	9.985294e-07	0.001748913	0.006278575	-1.721347e-07	1.050838e-07
	-3.6349e-06	9.985294e-07	0.009090254	0.008032946	-1.604565e-05	3.324281e-06	0.001763006	0.006255931
	0.001748913	0.006278575	-1.604565e-05	3.324281e-06	0.009501977	0.008084206	-1.692762e-05	3.795288e-06
	-1.721347e-07	1.050838e-07	0.001763004	0.006255932	-1.692762e-05	3.795288e-06	0.009138349	0.008106431
1.2e+08	0.009800175	0.008349265	-3.584539e-06	8.739441e-07	0.002059481	0.006774381	-1.79728e-07	1.00899e-07
	-3.584539e-06	8.739441e-07	0.009657049	0.008376932	-1.535793e-05	4.506933e-06	0.002053395	0.006743519
	0.002059481	0.006774381	-1.535793e-05	4.506933e-06	0.01009591	0.008396537	-1.638265e-05	4.361456e-06
	-1.79728e-07	1.00899e-07	0.002053393	0.006743519	-1.638265e-05	4.361456e-06	0.009708819	0.008452506
1.3e+08	0.01039866	0.008643071	-3.541831e-06	7.835241e-07	0.002390918	0.007252262	-1.958039e-07	8.65361e-08
	-3.541831e-06	7.835241e-07	0.01022394	0.0086851	-1.517354e-05	3.989089e-06	0.002363934	0.007216619
	0.002390918	0.007252262	-1.517354e-05	3.989089e-06	0.01069286	0.008675468	-1.618815e-05	3.822991e-06
	-1.958039e-07	8.65361e-08	0.002363933	0.00721662	-1.618815e-05	3.822991e-06	0.01027938	0.008762738
1.4e+08	0.01099923	0.008901338	-3.497958e-06	7.207056e-07	0.002742438	0.00771159	-2.110568e-07	7.542398e-08
	-3.497958e-06	7.207056e-07	0.01079113	0.008959818	-1.49843e-05	3.612042e-06	0.002693759	0.00767378
	0.002742438	0.00771159	-1.49843e-05	3.612042e-06	0.01129254	0.008921283	-1.599015e-05	3.427944e-06
	-2.110568e-07	7.542398e-08	0.002693758	0.007673781	-1.599015e-05	3.427944e-06	0.01085019	0.009039388
1.5e+08	0.01160164	0.009125403	-3.454033e-06	6.76241e-07	0.003113163	0.008151581	-2.256501e-07	6.694623e-08
	-3.454033e-06	6.76241e-07	0.0113585	0.009202587	-1.47956e-05	3.328923e-06	0.003042002	0.008113862
	0.003113162	0.008151581	-1.47956e-05	3.328923e-06	0.01189452	0.009134442	-1.57937e-05	3.129612e-06
	-2.256501e-07	6.694623e-08	0.003042001	0.008113863	-1.57937e-05	3.129612e-06	0.0114211	0.009283924
1.6e+08	0.01220544	0.00931622	-3.41051e-06	6.448829e-07	0.003502151	0.008571415	-2.396725e-07	6.065893e-08
	-3.41051e-06	6.448829e-07	0.01192574	0.009414508	-1.460947e-05	3.113694e-06	0.003407765	0.008535867
	0.003502151	0.008571415	-1.460947e-05	3.113694e-06	0.01249828	0.009315395	-1.560082e-05	2.901283e-06
	-2.396725e-07	6.065893e-08	0.003407765	0.008535868	-1.560082e-05	2.901283e-06	0.0119918	0.009497429
1.7e+08	0.0128101	0.009474521	-3.36758e-06	6.233014e-07	0.003908409	0.008970278	-2.531793e-07	5.622604e-08
	-3.36758e-06	6.233014e-07	0.01249243	0.009596444	-1.442675e-05	2.949687e-06	0.003790111	0.008938884
	0.003908409	0.008970278	-1.442675e-05	2.949687e-06	0.01310318	0.009464545	-1.54123e-05	2.725851e-06
	-2.531793e-07	5.622604e-08	0.003790111	0.008938885	-1.54123e-05	2.725851e-06	0.01256186	0.009680763
1.8e+08	0.01341493	0.009600893	-3.325313e-06	6.092402e-07	0.004330888	0.009347384	-2.662074e-07	5.33878e-08
	-3.325313e-06	6.092402e-07	0.01305806	0.0097491	-1.424772e-05	2.825541e-06	0.004188062	0.009322074
	0.004330888	0.009347384	-1.424772e-05	2.825541e-06	0.01370851	0.009582254	-1.522838e-05	2.591649e-06
	-2.662074e-07	5.33878e-08	0.004188062	0.009322074	-1.522838e-05	2.591649e-06	0.01313075	0.009834636
1.9e+08	0.01401921	0.009695829	-3.283778e-06	6.011541e-07	0.004768498	0.009701983	-2.787841e-07	5.194194e-08
	-3.283778e-06	6.011541e-07	0.01362205	0.009873082	-1.407238e-05	2.733103e-06	0.004600602	0.009684659
	0.004768498	0.009701983	-1.407238e-05	2.733103e-06	0.01431349	0.00966885	-1.504902e-05	2.490305e-06
	-2.787841e-07	5.194194e-08	0.004600602	0.009684659	-1.504902e-05	2.490305e-06	0.01369786	0.009959656
2e+08	0.01462212	0.009759757	-3.242941e-06	5.978473e-07	0.005220106	0.01003337	-2.909274e-07	5.171974e-08
	-3.242941e-06	5.978473e-07	0.01418375	0.009968915	-1.39006e-05	2.666324e-06	0.00502668	0.01002592
	0.005220106	0.01003337	-1.39006e-05	2.666324e-06	0.01491727	0.009724639	-1.487404e-05	2.415604e-06
	-2.909274e-07	5.171974e-08	0.00502668	0.01002592	-1.487404e-05	2.415604e-06	0.01426256	0.01005636
2.1e+08	0.0152228	0.009793064	-3.202712e-06	5.983586e-07	0.00568454	0.01034089	-3.026522e-07	5.258075e-08
	-3.202712e-06	5.983586e-07	0.01474246	0.01003708	-1.373217e-05	2.620564e-06	0.005465209	0.0103452
	0.00568454	0.01034089	-1.373217e-05	2.620564e-06	0.01551894	0.009749912	-1.470321e-05	2.362786e-06
	-3.026522e-07	5.258075e-08	0.005465209	0.0103452	-1.470321e-05	2.362786e-06	0.01482414	0.01012523
2.2e+08	0.01582034	0.009796117	-3.163051e-06	6.019826e-07	0.006160594	0.01062394	-3.139704e-07	5.441082e-08
	-3.163051e-06	6.019826e-07	0.01529745	0.01007801	-1.356688e-05	2.592211e-06	0.005915072	0.0106419
	0.006160594	0.01062394	-1.356688e-05	2.592211e-06	0.01611756	0.00974496	-1.453628e-05	2.328141e-06
	-3.139704e-07	5.441082e-08	0.005915072	0.0106419	-1.453628e-05	2.328141e-06	0.01538185	0.01016671
2.3e+08	0.0164138	0.009769279	-3.12391e-06	6.081612e-07	0.00664703	0.01088196	-3.248913e-07	5.71143e-08
	-3.12391e-06	6.081612e-07	0.01584795	0.01009215	-1.340447e-05	2.578404e-06	0.006375124	0.01091547
	0.00664703	0.01088196	-1.340447e-05	2.578404e-06	0.01671216	0.009710086	-1.437295e-05	2.308734e-06
	-3.248913e-07	5.71143e-08	0.006375124	0.01091547	-1.437295e-05	2.308734e-06	0.01593493	0.01018125
2.4e+08	0.01700219	0.009712911	-3.08525e-06	6.164401e-07	0.007142582	0.01111449	-3.354234e-07	6.060869e-08
	-3.08525e-06	6.164401e-07	0.01639317	0.0100799	-1.324474e-05	2.576801e-06	0.006844193	0.01116543
	0.007142582	0.01111449	-1.324474e-05	2.576801e-06	0.01730171	0.009645601	-1.421298e-05	2.302166e-06
	-3.354234e-07	6.060869e-08	0.006844193	0.01116543	-1.421298e-05	2.302166e-06	0.01648256	0.01016927
2.5e+08	0.0175845	0.00962739	-3.047032e-06	6.264506e-07	0.00764596	0.01132108	-3.455735e-07	6.482371e-08
	-3.047032e-06	6.264505e-07	0.01693228	0.01004168	-1.308745e-05	2.585504e-06	0.007321084	0.01139136
	0.00764596	0.01132108	-1.308745e-05	2.585504e-06	0.01788518	0.009551841	-1.405613e-05	2.306492e-06
	-3.455735e-07	6.482371e-08	0.007321084	0.01139136	-1.405613e-05	2.306492e-06	0.01702393	0.01013119
2.6e+08	0.01815972	0.009513104	-3.00922e-06	6.378859e-07	0.00815585	0.01150137	-3.553478e-07	6.969805e-08
	-3.00922e-06	6.378859e-07	0.01746445	0.009977934	-1.29324e-05	2.602928e-06	0.007804581	0.01159288
	0.00815585	0.01150137	-1.29324e-05	2.602928e-06	0.01846152	0.009429166	-1.390216e-05	2.320092e-06
	-3.553478e-07	6.969805e-08	0.007804581	0.01159288	-1.390216e-05	2.320092e-06	0.01755819	0.01006746
2.7e+08	0.0187268	0.009370473	-2.971775e-06	6.504909e-07	0.008670922	0.01165507	-3.647515e-07	7.517851e-08
	-2.971775e-06	6.504909e-07	0.01798883	0.009889088	-1.277938e-05	2.627754e-06	0.008293455	0.01176969
	0.008670922	0.01165507	-1.277938e-05	2.627754e-06	0.01902964	0.009277967	-1.375084e-05	2.34162e-06
	-3.647515e-07	7.517851e-08	0.008293454	0.01176969	-1.375084e-05	2.34162e-06	0.0180845	0.009978522
2.8e+08	0.0192847	0.009199942	-2.934672e-06	6.640494e-07	0.00918983	0.01178193	-3.737895e-07	8.121779e-08
	-2.934672e-06	6.640494e-07	0.01850456	0.0097756	-1.262823e-05	2.65886e-06	0.008786457	0.01192155
	0.00918983	0.01178193	-1.262823e-05	2.65886e-06	0.01958849	0.009098671	-1.360199e-05	2.369931e-06
	-3.737895e-07	8.121779e-08	0.008786457	0.01192155	-1.360199e-05	2.369931e-06	0.01860198	0.009864844
2.9e+08	0.01983236	0.009001987	-2.897883e-06	6.783777e-07	0.009711215	0.01188178	-3.824665e-07	8.777414e-08
	-2.897883e-06	6.783777e-07	0.0190108	0.009637952	-1.247879e-05	2.695291e-06	0.009282332	0.01204828
	0.009711215	0.01188178	-1.247879e-05	2.695291e-06	0.02013696	0.008891734	-1.345542e-05	2.404054e-06
	-3.824665e-07	8.777414e-08	0.009282332	0.01204828	-1.345542e-05	2.404054e-06	0.01910978	0.009726911
3e+08	0.02036872	0.008777116	-2.861382e-06	6.933184e-07	0.01023371	0.01195452	-3.907864e-07	9.481054e-08
	-2.861382e-06	6.933184e-07	0.01950667	0.009476641	-1.23309e-05	2.736227e-06	0.009779813	0.01214976
	0.01023371	0.01195452	-1.23309e-05	2.736227e-06	0.02067398	0.008657659	-1.331095e-05	2.443158e-06
	-3.907864e-07	9.481054e-08	0.009779813	0.01214976	-1.331095e-05	2.443158e-06	0.01960704	0.009565235
3.1e+08	0.02089274	0.008525879	-2.825153e-06	7.087366e-07	0.01075595	0.01200011	-3.987532e-07	1.022935e-07
	-2.825153e-06	7.087366e-07	0.01999132	0.009292199	-1.218444e-05	2.780959e-06	0.01027763	0.01222594
	0.01075595	0.01200011	-1.218444e-05	2.780959e-06	0.02119845	0.008396988	-1.316844e-05	2.486527e-06
	-3.987532e-07	1.022935e-07	0.01027763	0.01222594	-1.316844e-05	2.486527e-06	0.02009288	0.009380356
3.2e+08	0.02140337	0.008248861	-2.789177e-06	7.24515e-07	0.01127655	0.01201858	-4.063707e-07	1.101932e-07
	-2.789177e-06	7.24515e-07	0.0204639	0.009085175	-1.203928e-05	2.82887e-06	0.01077451	0.01227681
	0.01127655	0.01201858	-1.203928e-05	2.82887e-06	0.02170931	0.008110296	-1.302775e-05	2.533537e-06
	-4.063707e-07	1.101932e-07	0.01077451	0.01227681	-1.302775e-05	2.533537e-06	0.02056646	0.009172838
3.3e+08	0.02189957	0.007946682	-2.753435e-06	7.405511e-07	0.01179415	0.01201004	-4.136423e-07	1.184826e-07
	-2.753435e-06	7.405511e-07	0.02092356	0.008856156	-1.18953e-05	2.87942e-06	0.01126919	0.01230245
	0.01179415	0.01201004	-1.18953e-05	2.87942e-06	0.02220549	0.007798213	-1.288874e-05	2.583645e-06
	-4.136423e-07	1.184826e-07	0.01126919	0.01230245	-1.288874e-05	2.583645e-06	0.02102693	0.008943272
3.4e+08	0.02238032	0.007620014	-2.717917e-06	7.567565e-07	0.01230738	0.01197463	-4.205713e-07	1.271372e-07
	-2.717917e-06	7.567565e-07	0.02136948	0.008605756	-1.175242e-05	2.932134e-06	0.01176039	0.012303
	0.01230738	0.01197463	-1.175242e-05	2.932134e-06	0.02268593	0.007461404	-1.27513e-05	2.636377e-06
	-4.205713e-07	1.271372e-07	0.01176039	0.012303	-1.27513e-05	2.636377e-06	0.02147345	0.008692288
3.5e+08	0.02284462	0.007269555	-2.682611e-06	7.730529e-07	0.01281487	0.0119126	-4.271609e-07	1.361348e-07
	-2.682611e-06	7.730529e-07	0.02180083	0.008334615	-1.161053e-05	2.986591e-06	0.01224685	0.01227863
	0.01281487	0.0119126	-1.161053e-05	2.986591e-06	0.02314961	0.007100582	-1.261532e-05	2.691314e-06
	-4.271609e-07	1.361348e-07	0.01224685	0.01227863	-1.261532e-05	2.691314e-06	0.02190521	0.008420536
3.6e+08	0.02329147	0.006896055	-2.647506e-06	7.893696e-07	0.01331529	0.01182423	-4.334138e-07	1.454547e-07
	-2.647506e-06	7.893696e-07	0.02221682	0.008043408	-1.146957e-05	3.04242e-06	0.01272733	0.01222962
	0.01331529	0.01182423	-1.146957e-05	3.04242e-06	0.02359549	0.006716498	-1.248071e-05	2.748087e-06
	-4.334138e-07	1.454547e-07	0.01272733	0.01222962	-1.248071e-05	2.748087e-06	0.0223214	0.008128702
3.7e+08	0.02371991	0.006500301	-2.612597e-06	8.056484e-07	0.0138073	0.01170991	-4.393332e-07	1.550789e-07
	-2.612597e-06	8.056484e-07	0.02261666	0.007732839	-1.132947e-05	3.09929e-06	0.01320059	0.01215627
	0.0138073	0.01170991	-1.132947e-05	3.09929e-06	0.02402261	0.006309953	-1.234738e-05	2.806368e-06
	-4.393332e-07	1.550789e-07	0.01320059	0.01215627	-1.234738e-05	2.806368e-06	0.02272123	0.007817503
3.8e+08	0.024129	0.00608312	-2.57788e-06	8.218365e-07	0.01428958	0.01157005	-4.449219e-07	1.649903e-07
	-2.57788e-06	8.218365e-07	0.0229996	0.007403642	-1.119016e-05	3.156904e-06	0.0136654	0.01205897
	0.01428958	0.01157005	-1.119016e-05	3.156904e-06	0.02442998	0.005881787	-1.221524e-05	2.865867e-06
	-4.449219e-07	1.649903e-07	0.0136654	0.01205897	-1.221524e-05	2.865867e-06	0.02310396	0.007487685
3.9e+08	0.02451783	0.005645381	-2.543349e-06	8.378871e-07	0.01476085	0.01140514	-4.501824e-07	1.751736e-07
	-2.543349e-06	8.378871e-07	0.02336489	0.007056582	-1.105158e-05	3.214995e-06	0.01412056	0.01193815
	0.01476085	0.01140514	-1.105158e-05	3.214995e-06	0.02481667	0.005432884	-1.208423e-05	2.926324e-06
	-4.501824e-07	1.751736e-07	0.01412056	0.01193815	-1.208423e-05	2.926324e-06	0.02346883	0.007140024
4e+08	0.02488551	0.005187986	-2.509e-06	8.537585e-07	0.01521982	0.01121575	-4.551173e-07	1.856146e-07
	-2.509e-06	8.537585e-07	0.02371183	0.006692455	-1.091369e-05	3.273321e-06	0.0145649	0.0117943
	0.01521982	0.01121575	-1.091369e-05	3.273321e-06	0.02518177	0.004964168	-1.195427e-05	2.987502e-06
	-4.551173e-07	1.856146e-07	0.0145649	0.0117943	-1.195427e-05	2.987502e-06	0.02381515	0.006775328
4.1e+08	0.0252312	0.004711891	-2.474833e-06	8.694144e-07	0.01566526	0.0110025	-4.597286e-07	1.963001e-07
	-2.474833e-06	8.694144e-07	0.02403973	0.006312083	-1.077645e-05	3.331668e-06	0.01499725	0.01162799
	0.01566526	0.0110025	-1.077645e-05	3.331668e-06	0.02552442	0.004476606	-1.182531e-05	3.049195e-06
	-4.597286e-07	1.963001e-07	0.01499725	0.01162799	-1.182531e-05	3.049195e-06	0.02414222	0.006394434
4.2e+08	0.02555408	0.004218069	-2.440845e-06	8.84823e-07	0.01609597	0.01076607	-4.640184e-07	2.072182e-07
	-2.440845e-06	8.84823e-07	0.02434794	0.005916319	-1.063981e-05	3.38984e-06	0.01541649	0.01143982
	0.01609597	0.01076607	-1.063981e-05	3.38984e-06	0.02584378	0.0039712	-1.169728e-05	3.111214e-06
	-4.640184e-07	2.072182e-07	0.01541649	0.01143982	-1.169728e-05	3.111214e-06	0.0244494	0.005998203
4.3e+08	0.02585338	0.003707546	-2.407038e-06	8.999563e-07	0.01651075	0.01050719	-4.679885e-07	2.183579e-07
	-2.407038e-06	8.999563e-07	0.02463584	0.00550604	-1.050376e-05	3.447661e-06	0.01582152	0.01123047
	0.01651075	0.01050719	-1.050376e-05	3.447661e-06	0.02613904	0.003448995	-1.157015e-05	3.173393e-06
	-4.679885e-07	2.183579e-07	0.01582152	0.01123047	-1.157015e-05	3.173393e-06	0.02473606	0.00558753
4.4e+08	0.02612836	0.003181371	-2.37341e-06	9.147891e-07	0.01690846	0.01022667	-4.716406e-07	2.297089e-07
	-2.37341e-06	9.147891e-07	0.02490283	0.005082151	-1.036826e-05	3.504968e-06	0.01621127	0.01100064
	0.01690846	0.01022667	-1.036826e-05	3.504968e-06	0.02640947	0.002911069	-1.144387e-05	3.235576e-06
	-4.716406e-07	2.297089e-07	0.01621127	0.01100064	-1.144387e-05	3.235576e-06	0.02500161	0.005163327
4.5e+08	0.02637832	0.002640637	-2.339964e-06	9.292998e-07	0.01728801	0.009925358	-4.74976e-07	2.412618e-07
	-2.339964e-06	9.292998e-07	0.02514836	0.004645582	-1.023329e-05	3.561615e-06	0.01658472	0.01075111
	0.01728801	0.009925358	-1.023329e-05	3.561615e-06	0.02665434	0.002358538	-1.131839e-05	3.297625e-06
	-4.74976e-07	2.412618e-07	0.01658472	0.01075111	-1.131839e-05	3.297625e-06	0.02524552	0.004726541
4.6e+08	0.02660262	0.00208646	-2.3067e-06	9.434699e-07	0.01764833	0.009604166	-4.77996e-07	2.530079e-07
	-2.3067e-06	9.434699e-07	0.02537192	0.004197288	-1.009883e-05	3.617446e-06	0.01694086	0.0104827
	0.01764833	0.009604166	-1.009883e-05	3.617446e-06	0.02687298	0.001792546	-1.119367e-05	3.359415e-06
	-4.77996e-07	2.530079e-07	0.01694086	0.0104827	-1.119367e-05	3.359415e-06	0.02546725	0.004278136
4.7e+08	0.02680064	0.001519988	-2.273622e-06	9.572823e-07	0.0179884	0.009264055	-4.806989e-07	2.649373e-07
	-2.273622e-06	9.572823e-07	0.02557302	0.003738243	-9.964817e-06	3.672252e-06	0.01727875	0.01019629
	0.0179884	0.009264055	-9.964817e-06	3.672252e-06	0.02706478	0.001214272	-1.106967e-05	3.42081e-06
	-4.806989e-07	2.649373e-07	0.01727875	0.01019629	-1.106967e-05	3.42081e-06	0.02566633	0.003819097
4.8e+08	0.02697183	0.0009424019	-2.240732e-06	9.707241e-07	0.01830725	0.008906037	-4.830875e-07	2.77044e-07
