!$
! Info: Touchstone file created by Circ.  Input file=Tx_4in_Rx_85ohms_TxVia_60mils_RxVia_70mils.circ
!$
# Hz S RI R 50
0	0.003365441	7.474103e-26	1.367494e-09	5.717823e-28	4.162768e-05	6.556675e-24	1.233678e-09	2.423179e-28
	1.367503e-09	5.717863e-28	0.003360763	8.539907e-26	9.424299e-10	8.210197e-28	4.183211e-05	8.083077e-24
	4.26106e-05	6.671612e-24	9.424186e-10	8.209939e-28	0.003379671	7.162706e-26	-3.309184e-09	4.548263e-25
	1.233676e-09	2.421921e-28	4.210206e-05	8.117739e-24	-3.308771e-09	4.547758e-25	0.003375352	8.499668e-26
1e+07	0.005125397	-0.003248977	2.383461e-09	3.804738e-09	8.330273e-05	0.0009481343	-3.561245e-09	3.064412e-08
	2.383461e-09	3.804738e-09	0.00457957	-0.003329509	1.568758e-09	2.692415e-09	0.0001130542	0.0009510927
	8.331189e-05	0.0009481019	1.568758e-09	2.692415e-09	0.004605841	-0.003394167	-7.083897e-09	1.748681e-08
	-3.561245e-09	3.064412e-08	0.0001130564	0.0009510903	-7.083897e-09	1.748681e-08	0.004581483	-0.003320704
2e+07	0.005842861	-0.007859416	3.634836e-09	6.988374e-09	0.0002125518	0.001886319	1.194862e-08	2.483198e-08
	3.634836e-09	6.988374e-09	0.005329757	-0.007795449	2.408724e-09	5.003311e-09	0.0002560106	0.001866984
	0.0002125252	0.001886318	2.408724e-09	5.003311e-09	0.005309403	-0.007907581	-4.588651e-09	6.145289e-09
	1.194862e-08	2.483198e-08	0.0002560072	0.001866985	-4.588651e-09	6.145289e-09	0.005335101	-0.007774795
3e+07	0.005798721	-0.0129024	5.453927e-09	9.371819e-09	0.00044469	0.002783225	1.892465e-08	3.121694e-08
	5.453927e-09	9.371819e-09	0.005299942	-0.01278518	3.279637e-09	6.819157e-09	0.0004712948	0.002758104
	0.0004446876	0.002783229	3.279637e-09	6.819157e-09	0.00525484	-0.01291315	5.517293e-09	9.55835e-09
	1.892465e-08	3.121694e-08	0.0004712945	0.002758106	5.517293e-09	9.55835e-09	0.005307359	-0.01275584
4e+07	0.005141396	-0.01805486	7.520673e-09	1.163672e-08	0.0007499007	0.003647147	2.633898e-08	3.812919e-08
	7.520673e-09	1.163672e-08	0.004643791	-0.01790046	4.44792e-09	8.615488e-09	0.0007581615	0.003620987
	0.0007499002	0.003647142	4.44792e-09	8.615488e-09	0.004590032	-0.0180356	8.116976e-09	1.241112e-08
	2.633898e-08	3.812919e-08	0.0007581622	0.003620988	8.116976e-09	1.241112e-08	0.004652506	-0.0178636
5e+07	0.003931142	-0.02320372	9.956751e-09	1.362491e-08	0.001125814	0.004473603	3.477636e-08	4.434315e-08
	9.956751e-09	1.362491e-08	0.003423409	-0.02301655	5.777656e-09	1.025478e-08	0.001114056	0.004449955
	0.001125811	0.004473601	5.777656e-09	1.025478e-08	0.003374655	-0.02315636	1.057839e-08	1.435034e-08
	3.477636e-08	4.434315e-08	0.001114057	0.004449955	1.057839e-08	1.435034e-08	0.003432414	-0.0229727
6e+07	0.002205399	-0.02827542	1.273277e-08	1.525746e-08	0.00156888	0.005257091	4.428922e-08	4.937498e-08
	1.273277e-08	1.525746e-08	0.001678048	-0.02805541	7.273179e-09	1.170018e-08	0.001535497	0.005239249
	0.001568882	0.005257094	7.273179e-09	1.170018e-08	0.001645936	-0.02820025	1.332393e-08	1.588079e-08
	4.428922e-08	4.937498e-08	0.001535499	0.005239249	1.332393e-08	1.588079e-08	0.001686495	-0.02800474
7e+07	-6.215294e-06	-0.03321278	1.579312e-08	1.647731e-08	0.002074843	0.005992054	5.475343e-08	5.295089e-08
	1.579312e-08	1.647731e-08	-0.0005615126	-0.03295766	8.919013e-09	1.292798e-08	0.00201841	0.005983337
	0.002074851	0.005992059	8.919013e-09	1.292798e-08	-0.0005665713	-0.03310933	1.639351e-08	1.704861e-08
	5.475343e-08	5.295089e-08	0.002018412	0.005983337	1.639351e-08	1.704861e-08	-0.000554417	-0.03290025
8e+07	-0.002676639	-0.0379673	1.907088e-08	1.724172e-08	0.002638841	0.006673156	6.596936e-08	5.488885e-08
	1.907088e-08	1.724172e-08	-0.003267497	-0.03767329	1.069071e-08	1.39177e-08	0.002558199	0.006677037
	0.002638854	0.006673158	1.069071e-08	1.39177e-08	-0.003235737	-0.03783446	1.977293e-08	1.782336e-08
	6.596936e-08	5.488885e-08	0.002558201	0.006677037	1.977293e-08	1.782336e-08	-0.003262627	-0.03760915
9e+07	-0.005778993	-0.0424961	2.249383e-08	1.752004e-08	0.00325547	0.007295487	7.769954e-08	5.50669e-08
	2.249383e-08	1.752004e-08	-0.006412425	-0.04215826	1.255876e-08	1.46523e-08	0.00314981	0.007315722
	0.003255481	0.007295486	1.255877e-08	1.46523e-08	-0.006334304	-0.04233173	2.343186e-08	1.816034e-08
	7.769954e-08	5.50669e-08	0.003149811	0.007315721	2.343186e-08	1.816034e-08	-0.006410746	-0.04208724
1e+08	-0.009285533	-0.04676091	2.598964e-08	1.729217e-08	0.003919051	0.007855123	8.968799e-08	5.341211e-08
	2.598964e-08	1.729217e-08	-0.009968357	-0.04637442	1.448962e-08	1.51191e-08	0.003788265	0.007896485
	0.003919051	0.007855122	1.448962e-08	1.51191e-08	-0.009832258	-0.04655798	2.733483e-08	1.801224e-08
	8.968799e-08	5.341211e-08	0.003788265	0.007896485	2.733483e-08	1.801224e-08	-0.009970922	-0.04629624
1.1e+08	-0.01316743	-0.05072563	2.962557e-08	1.662251e-08	0.004624903	0.008346181	1.01989e-07	5.034649e-08
	2.962557e-08	1.662251e-08	-0.01390873	-0.05027971	1.64511e-08	1.534166e-08	0.004472052	0.008410527
	0.004624903	0.008346181	1.64511e-08	1.534166e-08	-0.01368623	-0.050494	3.115411e-08	1.728805e-08
	1.01989e-07	5.034649e-08	0.00447205	0.008410527	3.115411e-08	1.728805e-08	-0.01391662	-0.05019344
1.2e+08	-0.01739199	-0.05435916	3.327218e-08	1.54515e-08	0.005363331	0.008765359	1.142841e-07	4.555324e-08
	3.327218e-08	1.54515e-08	-0.01819321	-0.05384215	1.842163e-08	1.529785e-08	0.005187564	0.008854408
	0.005363331	0.008765359	1.842163e-08	1.529785e-08	-0.01788659	-0.05410885	3.498293e-08	1.603884e-08
	1.142841e-07	4.555324e-08	0.005187562	0.008854409	3.498293e-08	1.603884e-08	-0.01820692	-0.05374677
1.3e+08	-0.02192681	-0.05763416	3.687409e-08	1.377309e-08	0.006127592	0.009110844	1.263733e-07	3.902325e-08
	3.687409e-08	1.377309e-08	-0.02278869	-0.05703568	2.03699e-08	1.498615e-08	0.005928736	0.009227418
	0.006127592	0.009110844	2.03699e-08	1.498615e-08	-0.02239918	-0.05736949	3.876408e-08	1.425769e-08
	1.263733e-07	3.902325e-08	0.005928734	0.009227419	3.876408e-08	1.425769e-08	-0.02280866	-0.05693021
1.4e+08	-0.02673795	-0.06052625	4.037308e-08	1.158787e-08	0.006910549	0.009380946	1.380544e-07	3.076871e-08
	4.037308e-08	1.158787e-08	-0.02766007	-0.05983603	2.2265e-08	1.440774e-08	0.006688878	0.009528137
	0.006910549	0.009380946	2.2265e-08	1.440774e-08	-0.02718969	-0.0602501	4.243668e-08	1.194522e-08
	1.380544e-07	3.076871e-08	0.006688877	0.009528138	4.243668e-08	1.194522e-08	-0.02768663	-0.05971946
1.5e+08	-0.03179013	-0.06301427	4.371036e-08	8.902509e-09	0.007704918	0.009574596	1.491259e-07	2.082304e-08
	4.371036e-08	8.902509e-09	-0.03277086	-0.06222207	2.407603e-08	1.356691e-08	0.007461127	0.009755603
	0.007704917	0.009574596	2.407603e-08	1.356691e-08	-0.03222263	-0.06272871	4.59391e-08	9.108547e-09
	1.491259e-07	2.082304e-08	0.007461126	0.009755604	4.59391e-08	9.108547e-09	-0.03280421	-0.06209332
1.6e+08	-0.03704693	-0.06508033	4.682728e-08	5.7299e-09	0.008503358	0.009691395	1.593892e-07	9.240902e-09
	4.682728e-08	5.7299e-09	-0.03808341	-0.06417604	2.577241e-08	1.24712e-08	0.008238554	0.009909442
	0.008503358	0.009691395	2.577241e-08	1.24712e-08	-0.03746147	-0.06478694	4.92099e-08	5.761348e-09
	1.593892e-07	9.240902e-09	0.008238554	0.009909442	4.92099e-08	5.761348e-09	-0.03812361	-0.06403398
1.7e+08	-0.04247101	-0.06670983	4.966609e-08	2.089228e-09	0.009298553	0.009731638	1.686509e-07	-3.90198e-09
	4.966609e-08	2.089228e-09	-0.04355916	-0.06568357	2.73242e-08	1.113137e-08	0.009014245	0.009989904
	0.009298553	0.009731638	2.73242e-08	1.113137e-08	-0.04286876	-0.06640981	5.21886e-08	1.923923e-09
	1.686509e-07	-3.90198e-09	0.009014245	0.009989904	5.21886e-08	1.923923e-09	-0.04360613	-0.06552704
1.8e+08	-0.04802437	-0.06789151	5.217064e-08	-1.994065e-09	0.01008328	0.0096963	1.767252e-07	-1.850929e-08
	5.217064e-08	-1.994065e-09	-0.04915887	-0.0667337	2.870243e-08	9.561397e-09	0.009781372	0.00999787
	0.01008328	0.0096963	2.870243e-08	9.561397e-09	-0.0484064	-0.06758575	5.481643e-08	-2.376878e-09
	1.767252e-07	-1.850929e-08	0.009781372	0.00999787	5.481643e-08	-2.376878e-09	-0.0492124	-0.06656154
1.9e+08	-0.05366857	-0.06861738	5.428705e-08	-6.488388e-09	0.01085048	0.009587028	1.834359e-07	-3.44649e-08
	5.428705e-08	-6.488388e-09	-0.05484292	-0.06731892	2.987948e-08	7.778404e-09	0.01053326	0.009934842
	0.01085048	0.009587028	2.987948e-08	7.778404e-09	-0.05403585	-0.06830654	5.703708e-08	-7.107777e-09
	1.834359e-07	-3.44649e-08	0.01053326	0.009934842	5.703708e-08	-7.107777e-09	-0.05490265	-0.06712996
2e+08	-0.059365	-0.06888274	5.596447e-08	-1.135621e-08	0.01159331	0.009406113	1.886184e-07	-5.163384e-08
	5.596447e-08	-1.135621e-08	-0.06057156	-0.06743512	3.082941e-08	5.802514e-09	0.01126344	0.009802919
	0.01159331	0.009406113	3.082941e-08	5.802514e-09	-0.0597184	-0.06856729	5.879738e-08	-1.222929e-08
	1.886184e-07	-5.163384e-08	0.01126344	0.009802919	5.879738e-08	-1.222929e-08	-0.06063698	-0.06722821
2.1e+08	-0.06507511	-0.06868613	5.715563e-08	-1.655433e-08	0.01230524	0.009156461	1.921218e-07	-6.986356e-08
	5.715563e-08	-1.655433e-08	-0.06630516	-0.06708153	3.152828e-08	3.656699e-09	0.01196571	0.009604772
	0.01230524	0.009156461	3.152828e-08	3.656699e-09	-0.06541541	-0.06836638	6.004799e-08	-1.769602e-08
	1.921218e-07	-6.986356e-08	0.01196571	0.009604772	6.004799e-08	-1.769602e-08	-0.0663756	-0.06685557
2.2e+08	-0.07076068	-0.06802928	5.781757e-08	-2.203423e-08	0.01298006	0.008841554	1.938108e-07	-8.898534e-08
	5.781757e-08	-2.203423e-08	-0.07200445	-0.06626072	3.195449e-08	1.366568e-09	0.0126342	0.009343612
	0.01298006	0.008841554	3.195449e-08	1.366568e-09	-0.07108854	-0.0677054	6.074407e-08	-2.345706e-08
	1.938108e-07	-8.898534e-08	0.0126342	0.009343612	6.074407e-08	-2.345706e-08	-0.07207913	-0.06601465
2.3e+08	-0.07638398	-0.066917	5.791213e-08	-2.774254e-08	0.01361196	0.008465413	1.93567e-07	-1.088159e-07
	5.791213e-08	-2.774254e-08	-0.07763083	-0.06497843	3.208902e-08	-1.039878e-09	0.01326338	0.009023145
	0.01361196	0.008465413	3.208902e-08	-1.039878e-09	-0.07669998	-0.06658906	6.084585e-08	-2.94564e-08
	1.93567e-07	-1.088159e-07	0.01326338	0.009023145	6.084585e-08	-2.94564e-08	-0.0777088	-0.06471126
2.4e+08	-0.08190812	-0.06535716	5.740656e-08	-3.362146e-08	0.01419556	0.008032547	1.912906e-07	-1.291592e-07
	5.740656e-08	-3.362146e-08	-0.08314653	-0.06324357	3.191571e-08	-3.532508e-09	0.01384814	0.008647538
	0.01419556	0.008032547	3.191571e-08	-3.532508e-09	-0.08221271	-0.06502515	6.031922e-08	-3.563347e-08
	1.912906e-07	-1.291592e-07	0.01384814	0.008647538	6.031922e-08	-3.563347e-08	-0.08322673	-0.0629544
2.5e+08	-0.08729718	-0.06336053	5.627394e-08	-3.960936e-08	0.01472595	0.007547912	1.869012e-07	-1.498081e-07
	5.627394e-08	-3.960936e-08	-0.0885149	-0.06106803	3.142148e-08	-6.079363e-09	0.01438379	0.00822137
	0.01472595	0.007547912	3.142148e-08	-6.079363e-09	-0.0875907	-0.06302437	5.913617e-08	-4.192372e-08
	1.869012e-07	-1.498081e-07	0.01438379	0.00822137	5.913617e-08	-4.192372e-08	-0.08859616	-0.06075606
2.6e+08	-0.09251643	-0.0609407	5.449365e-08	-4.564136e-08	0.01519873	0.007016853	1.803395e-07	-1.705467e-07
	5.449365e-08	-4.564136e-08	-0.09370061	-0.05846662	3.059652e-08	-8.646975e-09	0.01486613	0.007749587
	0.01519873	0.007016853	3.059652e-08	-8.646975e-09	-0.09279915	-0.06060026	5.72753e-08	-4.825922e-08
	1.803395e-07	-1.705467e-07	0.01486613	0.007749587	5.72753e-08	-4.825922e-08	-0.09378166	-0.05813115
2.7e+08	-0.09753256	-0.05811392	5.205169e-08	-5.164999e-08	0.01561004	0.006445059	1.715675e-07	-1.91152e-07
	5.205169e-08	-5.164999e-08	-0.09866987	-0.05545688	2.943441e-08	-1.12007e-08	0.01529143	0.007237451
	0.01561004	0.006445059	2.943441e-08	-1.12007e-08	-0.09780463	-0.05776904	5.472213e-08	-5.456936e-08
	1.715675e-07	-1.91152e-07	0.01529143	0.007237451	5.472213e-08	-5.456936e-08	-0.09874931	-0.05509733
2.8e+08	-0.1023139	-0.05489899	4.894099e-08	-5.756586e-08	0.01595655	0.005838506	1.605697e-07	-2.113964e-07
	4.894099e-08	-5.756586e-08	-0.1033906	-0.05205892	2.793229e-08	-1.370506e-08	0.01565648	0.006690497
	0.01595655	0.005838506	2.793229e-08	-1.370506e-08	-0.1025753	-0.05454949	5.14694e-08	-6.078154e-08
	1.605697e-07	-2.113964e-07	0.01565648	0.006690497	5.14694e-08	-6.078154e-08	-0.103467	-0.05167487
2.9e+08	-0.1068304	-0.05131709	4.516162e-08	-6.331834e-08	0.01623553	0.005203403	1.473528e-07	-2.310494e-07
	4.516162e-08	-6.331834e-08	-0.1078326	-0.04829532	2.609091e-08	-1.612412e-08	0.0159586	0.006114479
	0.01623553	0.005203403	2.609091e-08	-1.612412e-08	-0.1070812	-0.05096278	4.751732e-08	-6.682192e-08
	1.473528e-07	-2.310494e-07	0.0159586	0.006114479	4.751732e-08	-6.682192e-08	-0.1079044	-0.04788646
3e+08	-0.1110542	-0.0473916	4.072092e-08	-6.883636e-08	0.01644479	0.004546144	1.319468e-07	-2.498802e-07
	4.072092e-08	-6.883636e-08	-0.1119679	-0.04419087	2.391469e-08	-1.842185e-08	0.01619563	0.005515325
	0.01644479	0.004546144	2.391469e-08	-1.842185e-08	-0.1112942	-0.04703231	4.28737e-08	-7.261617e-08
	1.319468e-07	-2.498802e-07	0.01619563	0.005515325	4.28737e-08	-7.261617e-08	-0.1120334	-0.04375706
3.1e+08	-0.1149592	-0.04314795	3.563357e-08	-7.404908e-08	0.01658277	0.003873252	1.144043e-07	-2.676596e-07
	3.563357e-08	-7.404908e-08	-0.1157704	-0.03977243	2.141168e-08	-2.056243e-08	0.01636594	0.004899087
	0.01658277	0.003873252	2.141168e-08	-2.056243e-08	-0.1151883	-0.04278352	3.7554e-08	-7.809026e-08
	1.144043e-07	-2.676596e-07	0.01636594	0.004899087	3.7554e-08	-7.809026e-08	-0.1158281	-0.03931369
3.2e+08	-0.1185219	-0.03861345	2.992158e-08	-7.888667e-08	0.01664846	0.003191325	9.480061e-08	-2.841623e-07
	2.992158e-08	-7.888667e-08	-0.1192168	-0.03506874	1.859362e-08	-2.251071e-08	0.01646848	0.004271895
	0.01664846	0.003191325	1.859362e-08	-2.251071e-08	-0.1187396	-0.03824377	3.158131e-08	-8.317122e-08
	9.480061e-08	-2.841623e-07	0.01646848	0.004271895	3.158131e-08	-8.317122e-08	-0.119265	-0.03458524
3.3e+08	-0.1217207	-0.03381706	2.36143e-08	-8.328109e-08	0.01664145	0.002506994	7.323358e-08	-2.991687e-07
	2.36143e-08	-8.328109e-08	-0.1222859	-0.03011021	1.54758e-08	-2.423255e-08	0.01650269	0.003639913
	0.01664145	0.002506994	1.54758e-08	-2.423255e-08	-0.1219268	-0.03344205	2.498638e-08	-8.778793e-08
	7.323358e-08	-2.991687e-07	0.01650269	0.003639913	2.498638e-08	-8.778793e-08	-0.122323	-0.02960229
3.4e+08	-0.1245368	-0.02878925	1.671899e-08	-8.717312e-08	0.01656193	0.001826866	4.980913e-08	-3.124568e-07
	1.671899e-08	-8.717312e-08	-0.1249592	-0.02492868	1.207753e-08	-2.569413e-08	0.01646857	0.003009295
	0.01656193	0.001826866	1.207753e-08	-2.569413e-08	-0.1247307	-0.02840888	1.77779e-08	-9.187791e-08
	4.980913e-08	-3.124568e-07	0.01646857	0.003009295	1.77779e-08	-9.187791e-08	-0.1249835	-0.02439686
3.5e+08	-0.1269536	-0.02356177	9.302622e-09	-9.049264e-08	0.01641062	0.001157482	2.468136e-08	-3.238326e-07
	9.302622e-09	-9.049264e-08	-0.1272211	-0.01955728	8.420679e-09	-2.686514e-08	0.01636664	0.00238614
	0.01641062	0.001157482	8.420679e-09	-2.686514e-08	-0.1271349	-0.02317607	1.002509e-08	-9.536841e-08
	2.468136e-08	-3.238326e-07	0.01636664	0.00238614	1.002509e-08	-9.536841e-08	-0.127231	-0.01900222
3.6e+08	-0.1289574	-0.01816743	1.419452e-09	-9.317999e-08	0.01618883	0.0005052718	-1.986419e-09	-3.331086e-07
	1.419452e-09	-9.317999e-08	-0.1290583	-0.01403014	4.530484e-09	-2.771658e-08	0.01619792	0.001776456
	0.01618883	0.0005052718	4.530484e-09	-2.771658e-08	-0.1291255	-0.0177765	1.784566e-09	-9.819715e-08
	-1.986419e-09	-3.331086e-07	0.01619792	0.001776456	1.784566e-09	-9.819715e-08	-0.1290522	-0.0134527
3.7e+08	-0.130537	-0.01263995	-6.874376e-09	-9.518121e-08	0.0158984	-0.0001234915	-3.001396e-08	-3.401097e-07
	-6.874376e-09	-9.518121e-08	-0.1304606	-0.008382243	4.352458e-10	-2.822164e-08	0.01596395	0.00118612
	0.0158984	-0.0001234915	4.352458e-10	-2.822164e-08	-0.1306914	-0.01224397	-6.884976e-09	-1.003077e-07
	-3.001396e-08	-3.401097e-07	0.01596395	0.00118612	-6.884976e-09	-1.003077e-07	-0.130437	-0.007783403
3.8e+08	-0.1316839	-0.007013726	-1.551701e-08	-9.644755e-08	0.01554169	-0.0007227293	-5.920312e-08	-3.446766e-07
	-1.551701e-08	-9.644755e-08	-0.1314206	-0.002649141	-3.833977e-09	-2.835609e-08	0.01566674	0.0006208386
	0.01554169	-0.0007227293	-3.833977e-09	-2.835609e-08	-0.1318239	-0.006612946	-1.591885e-08	-1.016491e-07
	-5.920312e-08	-3.446766e-07	0.01566674	0.0006208387	-1.591885e-08	-1.016491e-07	-0.131378	-0.00203007
3.9e+08	-0.1323924	-0.001323612	-2.444138e-08	-9.693602e-08	0.01512156	-0.001286598	-8.933919e-08	-3.466672e-07
	-2.444138e-08	-9.693602e-08	-0.1319336	0.003133215	-8.243606e-09	-2.809856e-08	0.01530875	8.611894e-05
	0.01512156	-0.001286598	-8.243606e-09	-2.809856e-08	-0.1325173	-0.00091836	-2.524692e-08	-1.021764e-07
	-8.933919e-08	-3.466672e-07	0.01530875	8.611895e-05	-2.524692e-08	-1.021764e-07	-0.1318707	0.003771205
4e+08	-0.1326594	0.00439527	-3.357578e-08	-9.660995e-08	0.01464137	-0.001809526	-1.201925e-07	-3.459588e-07
	-3.357578e-08	-9.660995e-08	-0.131998	0.00892871	-1.275781e-08	-2.743076e-08	0.01489291	-0.00041277
	0.01464137	-0.001809526	-1.275781e-08	-2.743076e-08	-0.1327686	0.004804574	-3.47942e-08	-1.01851e-07
	-1.201925e-07	-3.459588e-07	0.01489291	-0.00041277	-3.47942e-08	-1.01851e-07	-0.1319135	0.009584165
4.1e+08	-0.1324847	0.01010774	-4.284446e-08	-9.54394e-08	0.01410491	-0.002286247	-1.515198e-07	-3.424485e-07
	-4.284446e-08	-9.54394e-08	-0.1316147	0.01470129	-1.733881e-08	-2.633773e-08	0.01442256	-0.0008708263
	0.01410491	-0.002286247	-1.733881e-08	-2.633773e-08	-0.1325776	0.01052059	-4.448146e-08	-1.006417e-07
	-1.515198e-07	-3.424485e-07	0.01442256	-0.0008708262	-4.448146e-08	-1.006417e-07	-0.1315076	0.01537262
4.2e+08	-0.1318709	0.01577877	-5.216829e-08	-9.340161e-08	0.01351643	-0.002711837	-1.830665e-07	-3.360555e-07
	-5.216829e-08	-9.340161e-08	-0.1307879	0.02041517	-2.194717e-08	-2.480797e-08	0.01390146	-0.001283345
	0.01351643	-0.002711837	-2.194717e-08	-2.480797e-08	-0.1319467	0.01619457	-5.42259e-08	-9.85246e-08
	-1.830665e-07	-3.360555e-07	0.01390146	-0.001283345	-5.42259e-08	-9.85246e-08	-0.130657	0.02110066
4.3e+08	-0.130823	0.02137367	-6.146543e-08	-9.048128e-08	0.01288056	-0.003081741	-2.14568e-07	-3.267216e-07
	-6.146543e-08	-9.048128e-08	-0.1295242	0.02603503	-2.65421e-08	-2.283364e-08	0.01333371	-0.001645947
	0.01288056	-0.003081741	-2.65421e-08	-2.283364e-08	-0.1308813	0.02179174	-6.394187e-08	-9.548351e-08
	-2.14568e-07	-3.267216e-07	0.01333371	-0.001645947	-6.394187e-08	-9.548351e-08	-0.1293688	0.02673285
4.4e+08	-0.1293491	0.02685831	-7.065207e-08	-8.667093e-08	0.01220232	-0.003391805	-2.457519e-07	-3.144128e-07
	-7.065207e-08	-8.667093e-08	-0.1278331	0.03152626	-3.108184e-08	-2.041068e-08	0.01272382	-0.001954606
	0.01220232	-0.003391805	-3.108184e-08	-2.041068e-08	-0.1293891	0.02727788	-7.354162e-08	-9.15105e-08
	-2.457519e-07	-3.144128e-07	0.01272382	-0.001954606	-7.354162e-08	-9.15105e-08	-0.1276525	0.03223449
4.5e+08	-0.1274596	0.0321993	-7.964315e-08	-8.197099e-08	0.01148705	-0.003638302	-2.763402e-07	-2.991194e-07
	-7.964315e-08	-8.197099e-08	-0.1257269	0.03685512	-3.552396e-08	-1.75389e-08	0.01207657	-0.002205675
	0.01148705	-0.003638302	-3.552396e-08	-1.75389e-08	-0.1274809	0.03261951	-8.293606e-08	-8.660592e-08
	-2.763402e-07	-2.991194e-07	0.01207657	-0.002205675	-8.293606e-08	-8.660592e-08	-0.1255206	0.03757175
4.6e+08	-0.1251677	0.03736422	-8.835311e-08	-7.639001e-08	0.01074042	-0.003817961	-3.060513e-07	-2.808575e-07
	-8.835311e-08	-7.639001e-08	-0.1232203	0.041989	-3.982574e-08	-1.422204e-08	0.01139707	-0.002395908
	0.01074042	-0.003817961	-3.982574e-08	-1.422204e-08	-0.1251696	0.03778412	-9.203556e-08	-8.077861e-08
	-3.060513e-07	-2.808575e-07	0.01139707	-0.002395908	-9.203556e-08	-8.077861e-08	-0.122988	0.04271194
4.7e+08	-0.1224888	0.04232173	-9.669667e-08	-6.99447e-08	0.009968373	-0.003927987	-3.346023e-07	-2.59669e-07
	-9.669667e-08	-6.99447e-08	-0.1203307	0.04689653	-4.394448e-08	-1.04678e-08	0.0106907	-0.002522485
	0.009968373	-0.003927987	-4.394448e-08	-1.04678e-08	-0.122471	0.0427403	-1.007507e-07	-7.404591e-08
	-3.346023e-07	-2.59669e-07	0.0106907	-0.002522485	-1.007507e-07	-7.404591e-08	-0.1200722	0.04762367
4.8e+08	-0.1194411	0.04704185	-1.045896e-07	-6.265989e-08	0.009177079	-0.003966086	-3.61711e-07	-2.356219e-07
