!$
! Info: Touchstone file created by Circ.  Input file=Tx_4in_Rx_85ohms_TxVia_60mils_RxVia_70mils.circ
!$
# Hz S RI R 50
0	0.003365406	8.391737e-26	0.9964941	-7.241636e-26	4.511421e-05	7.253512e-24	-4.043253e-05	2.286126e-21
	0.9964941	-7.337931e-26	0.003360763	8.539907e-26	-4.091584e-05	2.345336e-21	4.183211e-05	8.083077e-24
	4.633506e-05	7.047695e-24	-4.022281e-05	2.260463e-21	0.003376328	8.326631e-26	0.9964723	-7.032383e-26
	-4.070292e-05	2.319238e-21	4.210206e-05	8.117739e-24	0.9964723	-7.430231e-26	0.003375352	8.499668e-26
1e+07	0.00458419	-0.003329687	0.9940472	-0.04572366	0.0001145669	0.0009507535	-6.784605e-05	-7.342447e-05
	0.9940472	-0.04572366	0.00457957	-0.003329509	-6.794814e-05	-7.337489e-05	0.0001130542	0.0009510927
	0.0001146364	0.000950721	-6.791355e-05	-7.339374e-05	0.004586435	-0.00332098	0.9940408	-0.045819
	-6.781145e-05	-7.344333e-05	0.0001130564	0.0009510903	0.9940408	-0.045819	0.004581483	-0.003320704
2e+07	0.005348484	-0.00779641	0.9895215	-0.09002358	0.0002621115	0.001865818	-8.184984e-05	-0.0001241005
	0.9895215	-0.09002358	0.005329757	-0.007795449	-8.187226e-05	-0.0001240237	0.0002560106	0.001866984
	0.0002620965	0.001865781	-8.187851e-05	-0.0001240438	0.005355208	-0.007775928	0.9894983	-0.09021672
	-8.184035e-05	-0.0001241366	0.0002560072	0.001866985	0.9894983	-0.09021672	0.005335101	-0.007774795
3e+07	0.005341895	-0.01278971	0.983397	-0.1334746	0.0004848396	0.002755244	-8.661966e-05	-0.0001705428
	0.983397	-0.1334746	0.005299942	-0.01278518	-8.664642e-05	-0.0001705242	0.0004712948	0.002758104
	0.0004848358	0.002755244	-8.664821e-05	-0.0001705241	0.005352317	-0.01276095	0.9833494	-0.1337605
	-8.662148e-05	-0.0001705468	0.0004712945	0.002758106	0.9833494	-0.1337605	0.005307359	-0.01275584
4e+07	0.004718072	-0.0179119	0.9755393	-0.1763698	0.0007819174	0.003615179	-8.412616e-05	-0.0002177498
	0.9755393	-0.1763698	0.004643791	-0.01790046	-8.419162e-05	-0.0002177358	0.0007581615	0.003620987
	0.0007819228	0.003615178	-8.418794e-05	-0.0002177349	0.004732055	-0.01787619	0.9754597	-0.1767456
	-8.411882e-05	-0.0002177431	0.0007581622	0.003620988	0.9754597	-0.1767456	0.004652506	-0.0178636
5e+07	0.003538725	-0.02304011	0.9659166	-0.2187157	0.001150574	0.004439563	-7.563286e-05	-0.0002688495
	0.9659166	-0.2187157	0.003423409	-0.02301655	-7.572248e-05	-0.0002688116	0.001114056	0.004449955
	0.001150577	0.004439562	-7.572012e-05	-0.0002688119	0.003555936	-0.02299841	0.9657973	-0.2191785
	-7.562685e-05	-0.0002688474	0.001114057	0.004449955	0.9657973	-0.2191785	0.003432414	-0.0229727
6e+07	0.001841951	-0.02809741	0.9545279	-0.2604736	0.001587088	0.005222326	-6.271374e-05	-0.0003261827
	0.9545279	-0.2604736	0.001678048	-0.02805541	-6.281608e-05	-0.0003261169	0.001535497	0.005239249
	0.001587087	0.005222328	-6.281666e-05	-0.0003261164	0.001862012	-0.0280504	0.9543614	-0.2610197
	-6.271939e-05	-0.0003261834	0.001535499	0.005239249	0.9543614	-0.2610197	0.001686495	-0.02800474
7e+07	-0.0003423309	-0.03302504	0.9413864	-0.3015874	0.00208713	0.005957649	-4.705307e-05	-0.0003915331
	0.9413864	-0.3015874	-0.0005615126	-0.03295766	-4.717064e-05	-0.0003914395	0.00201841	0.005983337
	0.002087128	0.005957655	-4.717307e-05	-0.0003914371	-0.0003198089	-0.03297329	0.9411656	-0.3022131
	-4.70706e-05	-0.0003915303	0.002018412	0.005983337	0.9411656	-0.3022131	-0.000554417	-0.03290025
8e+07	-0.002986963	-0.03777372	0.9265145	-0.3419936	0.002645825	0.006640089	-3.043849e-05	-0.0004664149
	0.9265145	-0.3419936	-0.003267497	-0.03767329	-3.058244e-05	-0.0004662858	0.002558199	0.006677037
	0.002645824	0.006640096	-3.05851e-05	-0.0004662821	-0.002962425	-0.03771774	0.9262325	-0.3426947
	-3.046048e-05	-0.0004664064	0.002558201	0.006677037	0.9262325	-0.3426947	-0.003262627	-0.03760915
9e+07	-0.006065137	-0.04230027	0.9099412	-0.381625	0.003257816	0.007264783	-1.48899e-05	-0.0005522708
	0.9099412	-0.381625	-0.006412425	-0.04215826	-1.507243e-05	-0.000552087	0.00314981	0.007315722
	0.003257817	0.007264789	-1.507407e-05	-0.000552084	-0.006039108	-0.04224051	0.9095914	-0.3823968
	-1.490591e-05	-0.0005522609	0.003149811	0.007315721	0.9095914	-0.3823968	-0.006410746	-0.04208724
1e+08	-0.00954979	-0.04656747	0.8917022	-0.420412	0.003917795	0.007828624	-3.222654e-06	-0.0006515579
	0.8917022	-0.420412	-0.009968357	-0.04637442	-3.451557e-06	-0.0006512908	0.003788265	0.007896485
	0.003917796	0.007828624	-3.451538e-06	-0.0006512909	-0.009522929	-0.04650441	0.8912783	-0.4212493
	-3.222636e-06	-0.000651558	0.003788265	0.007896485	0.8912783	-0.4212493	-0.009970922	-0.04629624
1.1e+08	-0.01341656	-0.05053366	0.8718446	-0.458294	0.004623902	0.008322679	-3.16318e-06	-0.0007592704
	0.8718446	-0.458294	-0.01390873	-0.05027971	-3.40973e-06	-0.0007589285	0.004472052	0.008410527
	0.004623901	0.008322679	-3.40977e-06	-0.0007589284	-0.01338996	-0.05046706	0.8713411	-0.4591917
	-3.163232e-06	-0.0007592703	0.00447205	0.008410527	0.8713411	-0.4591917	-0.01391662	-0.05019344
1.2e+08	-0.0176256	-0.0541674	0.850402	-0.4952055	0.005362184	0.008743355	-9.251163e-06	-0.0008751214
	0.850402	-0.4952055	-0.01819321	-0.05384215	-9.506365e-06	-0.0008746964	0.005187564	0.008854408
	0.005362184	0.008743355	-9.506355e-06	-0.0008746962	-0.01759965	-0.05409698	0.849813	-0.4961582
	-9.251163e-06	-0.0008751211	0.005187562	0.008854409	0.849813	-0.4961582	-0.01820692	-0.05374677
1.3e+08	-0.02214508	-0.05744293	0.827422	-0.5310803	0.006126191	0.009089849	-2.442504e-05	-0.001000562
	0.827422	-0.5310803	-0.02278869	-0.05703568	-2.467841e-05	-0.001000047	0.005928736	0.009227418
	0.006126191	0.00908985	-2.467833e-05	-0.001000047	-0.02212021	-0.05736847	0.826742	-0.532082
	-2.442496e-05	-0.001000562	0.005928734	0.009227419	0.826742	-0.532082	-0.02280866	-0.05693021
1.4e+08	-0.02694115	-0.06033614	0.8029552	-0.5658556	0.006908844	0.009360692	-5.111489e-05	-0.001135269
	0.8029552	-0.5658556	-0.02766007	-0.05983603	-5.135446e-05	-0.001134658	0.006688878	0.009528137
	0.006908844	0.009360692	-5.135432e-05	-0.001134657	-0.02691779	-0.06025738	0.8021792	-0.5669001
	-5.111474e-05	-0.001135268	0.006688877	0.009528138	0.8021792	-0.5669001	-0.02768663	-0.05971946
1.5e+08	-0.0319786	-0.06282593	0.777055	-0.5994718	0.007702883	0.00955491	-9.158931e-05	-0.001278342
	0.777055	-0.5994718	-0.03277086	-0.06222207	-9.18018e-05	-0.00127763	0.007461127	0.009755603
	0.007702883	0.00955491	-9.180163e-05	-0.00127763	-0.03195712	-0.06274257	0.7761782	-0.6005524
	-9.158913e-05	-0.001278341	0.007461126	0.009755604	0.7761782	-0.6005524	-0.03280421	-0.06209332
1.6e+08	-0.03722104	-0.06489444	0.7497774	-0.6318718	0.008500983	0.009672164	-0.0001479479	-0.001428452
	0.7497774	-0.6318718	-0.03808341	-0.06417604	-0.0001481189	-0.001427638	0.008238554	0.009909442
	0.008500983	0.009672164	-0.0001481188	-0.001427638	-0.03720178	-0.0648061	0.7487955	-0.6329815
	-0.0001479477	-0.001428451	0.008238554	0.009909442	0.7487955	-0.6329815	-0.03812361	-0.06403398
1.7e+08	-0.04263116	-0.06652707	0.7211809	-0.6630015	0.009295832	0.009712779	-0.0002220871	-0.001583905
	0.7211809	-0.6630015	-0.04355916	-0.06568357	-0.0002222016	-0.00158299	0.009014245	0.009989904
	0.009295832	0.009712779	-0.0002222014	-0.00158299	-0.04261441	-0.06643335	0.7200902	-0.6641331
	-0.000222087	-0.001583905	0.009014245	0.009989904	0.7200902	-0.6641331	-0.04360613	-0.06552704
1.8e+08	-0.04817098	-0.06771253	0.6913263	-0.6928099	0.01008021	0.009677757	-0.0003156624	-0.001742691
	0.6913263	-0.6928099	-0.04915887	-0.0667337	-0.0003157046	-0.001741676	0.009781372	0.00999787
	0.01008022	0.009677757	-0.0003157045	-0.001741676	-0.04815698	-0.06761297	0.6901233	-0.6939558
	-0.0003156622	-0.001742691	0.009781372	0.00999787	0.6901233	-0.6939558	-0.0492124	-0.06656154
1.9e+08	-0.05380209	-0.0684428	0.6602762	-0.721249	0.01084708	0.009568757	-0.0004300519	-0.001902525
	0.6602762	-0.721249	-0.05484292	-0.06731892	-0.0004300063	-0.001901415	0.01053326	0.009934842
	0.01084708	0.009568757	-0.0004300062	-0.001901415	-0.05379101	-0.0683369	0.6589579	-0.7224015
	-0.0004300518	-0.001902525	0.01053326	0.009934842	0.6589579	-0.7224015	-0.05490265	-0.06712996
2e+08	-0.05948588	-0.06871316	0.6280948	-0.7482741	0.01158958	0.009388083	-0.0005663249	-0.002060891
	0.6280948	-0.7482741	-0.06057156	-0.06743512	-0.0005661762	-0.002059693	0.01126344	0.009802919
	0.01158958	0.009388083	-0.0005661761	-0.002059693	-0.05947784	-0.06860038	0.6266587	-0.7494253
	-0.0005663249	-0.002060891	0.01126344	0.009802919	0.6266587	-0.7494253	-0.06063698	-0.06722821
2.1e+08	-0.06518383	-0.0685221	0.594848	-0.7738437	0.0123012	0.009138648	-0.0007252148	-0.00221509
	0.594848	-0.7738437	-0.06630516	-0.06708153	-0.0007249483	-0.002213814	0.01196571	0.009604772
	0.0123012	0.009138648	-0.0007249482	-0.002213814	-0.06517887	-0.0684019	0.593292	-0.7749854
	-0.0007252148	-0.00221509	0.01196571	0.009604772	0.593292	-0.7749854	-0.0663756	-0.06685557
2.2e+08	-0.07085771	-0.0678713	0.5606026	-0.7979196	0.01297572	0.008823939	-0.0009070977	-0.002362287
	0.5606026	-0.7979196	-0.07200445	-0.06626072	-0.0009066999	-0.002360945	0.0126342	0.009343612
	0.01297572	0.008823939	-0.0009066999	-0.002360945	-0.0708558	-0.06774312	0.5589253	-0.7990435
	-0.0009070977	-0.002362287	0.0126342	0.009343612	0.5589253	-0.7990435	-0.07207913	-0.06601465
2.3e+08	-0.07646983	-0.06676557	0.5254269	-0.8204668	0.01360734	0.008447982	-0.001111978	-0.002499559
	0.5254269	-0.8204668	-0.07763083	-0.06497843	-0.001111437	-0.002498166	0.01326338	0.009023145
	0.01360734	0.008447982	-0.001111437	-0.002498166	-0.07647087	-0.06662882	0.5236271	-0.8215644
	-0.001111978	-0.00249956	0.01326338	0.009023145	0.5236271	-0.8215644	-0.0777088	-0.06471126
2.4e+08	-0.08198328	-0.06521271	0.4893896	-0.8414535	0.01419067	0.008015288	-0.001339479	-0.002623949
	0.4893896	-0.8414535	-0.08314653	-0.06324357	-0.001338784	-0.00262252	0.01384814	0.008647538
	0.01419067	0.008015288	-0.001338784	-0.00262252	-0.08198711	-0.06506683	0.4874669	-0.8425164
	-0.001339479	-0.002623949	0.01384814	0.008647538	0.4874669	-0.8425164	-0.08322673	-0.0629544
2.5e+08	-0.08736214	-0.06322346	0.4525603	-0.8608514	0.01472081	0.007530815	-0.001588841	-0.00273251
	0.4525603	-0.8608514	-0.0885149	-0.06106803	-0.001587985	-0.002731063	0.01438379	0.00822137
	0.01472081	0.007530815	-0.001587985	-0.002731063	-0.08736853	-0.0630679	0.4505146	-0.8618708
	-0.001588841	-0.00273251	0.01438379	0.00822137	0.4505146	-0.8618708	-0.08859616	-0.06075606
2.6e+08	-0.09257171	-0.06081138	0.4150092	-0.8786348	0.01519337	0.006999909	-0.001858925	-0.00282236
	0.4150092	-0.8786348	-0.09370061	-0.05846662	-0.001857902	-0.002820915	0.01486613	0.007749587
	0.01519337	0.006999909	-0.001857902	-0.002820915	-0.09258034	-0.06064558	0.412841	-0.8796022
	-0.001858925	-0.00282236	0.01486613	0.007749587	0.412841	-0.8796022	-0.09378166	-0.05813115
2.7e+08	-0.09757866	-0.05799268	0.3768066	-0.8947816	0.01560447	0.00642826	-0.002148224	-0.002890729
	0.3768066	-0.8947816	-0.09866987	-0.05545688	-0.002147031	-0.002889305	0.01529143	0.007237451
	0.01560447	0.00642826	-0.002147031	-0.002889305	-0.09758918	-0.05781612	0.3745168	-0.8956882
	-0.002148224	-0.002890729	0.01529143	0.007237451	0.3745168	-0.8956882	-0.09874931	-0.05509733
2.8e+08	-0.1023513	-0.05478613	0.338023	-0.9092726	0.0159508	0.005821843	-0.002454878	-0.002935003
	0.338023	-0.9092726	-0.1033906	-0.05205892	-0.002453515	-0.002933623	0.01565648	0.006690497
	0.0159508	0.005821843	-0.002453515	-0.002933623	-0.1023633	-0.05459832	0.3356133	-0.9101097
	-0.002454878	-0.002935003	0.01565648	0.006690497	0.3356133	-0.9101097	-0.103467	-0.05167487
2.9e+08	-0.1068597	-0.05121285	0.2987292	-0.9220914	0.0162296	0.005186869	-0.002776695	-0.002952774
	0.2987292	-0.9220914	-0.1078326	-0.04829532	-0.002775164	-0.002951457	0.0159586	0.006114479
	0.0162296	0.005186869	-0.002775164	-0.002951457	-0.1068726	-0.05101335	0.2962016	-0.9228504
	-0.002776695	-0.002952774	0.0159586	0.006114479	0.2962016	-0.9228504	-0.1079044	-0.04788646
3e+08	-0.1110758	-0.04729622	0.2589958	-0.9332246	0.01643872	0.004529731	-0.003111179	-0.002941871
	0.2589958	-0.9332246	-0.1119679	-0.04419087	-0.003109486	-0.002940639	0.01619563	0.005515325
	0.01643872	0.004529731	-0.003109486	-0.002940639	-0.1110891	-0.0470846	0.2563528	-0.9338969
	-0.003111179	-0.002941871	0.01619563	0.005515325	0.2563528	-0.9338969	-0.1120334	-0.04375706
3.1e+08	-0.1149736	-0.04306163	0.2188932	-0.9426618	0.01657657	0.003856951	-0.003455562	-0.002900405
	0.2188932	-0.9426618	-0.1157704	-0.03977243	-0.003453716	-0.002899279	0.01636594	0.004899087
	0.01657657	0.003856951	-0.003453716	-0.002899279	-0.1149867	-0.04283754	0.2161379	-0.9432389
	-0.003455562	-0.002900405	0.01636594	0.004899087	0.2161379	-0.9432389	-0.1158281	-0.03931369
3.2e+08	-0.1185296	-0.03853635	0.1784916	-0.9503949	0.01664216	0.003175129	-0.003806836	-0.002826798
	0.1784916	-0.9503949	-0.1192168	-0.03506874	-0.00380485	-0.002825796	0.01646848	0.004271895
	0.01664216	0.003175129	-0.00380485	-0.002825796	-0.1185418	-0.03829948	0.1756276	-0.9508685
	-0.003806836	-0.002826798	0.01646848	0.004271895	0.1756276	-0.9508685	-0.119265	-0.03458524
3.3e+08	-0.1217222	-0.03374933	0.1378608	-0.9564189	0.01663508	0.002490892	-0.004161799	-0.002719809
	0.1378608	-0.9564189	-0.1222859	-0.03011021	-0.004159686	-0.002718949	0.01650269	0.003639913
	0.01663508	0.002490892	-0.004159686	-0.002718949	-0.1217328	-0.03349943	0.1348923	-0.9567807
	-0.004161799	-0.002719809	0.01650269	0.003639913	0.1348923	-0.9567807	-0.122323	-0.02960229
3.4e+08	-0.1245325	-0.02873099	0.09707036	-0.9607311	0.01655549	0.001810849	-0.004517087	-0.002578558
	0.09707036	-0.9607311	-0.1249592	-0.02492868	-0.004514865	-0.002577856	0.01646857	0.003009295
	0.01655549	0.001810849	-0.004514865	-0.002577856	-0.1245408	-0.02846789	0.09400183	-0.9609731
	-0.004517087	-0.002578558	0.01646857	0.003009295	0.09400183	-0.9609731	-0.1249835	-0.02439686
3.5e+08	-0.126944	-0.02351305	0.05618924	-0.9633313	0.01640414	0.001141539	-0.004869228	-0.002402545
	0.05618924	-0.9633313	-0.1272211	-0.01955728	-0.004866916	-0.002402013	0.01636664	0.00238614
	0.01640414	0.001141539	-0.004866916	-0.002402013	-0.1269493	-0.02323663	0.05302582	-0.9634457
	-0.004869228	-0.002402545	0.01636664	0.00238614	0.05302582	-0.9634457	-0.127231	-0.01900222
3.6e+08	-0.1289429	-0.01812833	0.01528592	-0.9642219	0.01618233	0.0004893916	-0.00521468	-0.002191656
	0.01528592	-0.9642219	-0.1290583	-0.01403014	-0.005212299	-0.002191306	0.01619792	0.001776456
	0.01618233	0.0004893916	-0.005212299	-0.002191306	-0.1289445	-0.01783855	0.01203318	-0.964201
	-0.00521468	-0.002191656	0.01619792	0.001776456	0.01203318	-0.964201	-0.1290522	-0.0134527
3.7e+08	-0.1305181	-0.01261051	-0.02557165	-0.9634074	0.01589189	-0.0001393207	-0.005549883	-0.001946175
	-0.02557165	-0.9634074	-0.1304606	-0.008382243	-0.005547455	-0.001946014	0.01596395	0.00118612
	0.01589189	-0.0001393206	-0.005547455	-0.001946014	-0.130515	-0.0123074	-0.02890767	-0.963244
	-0.005549883	-0.001946175	0.01596395	0.00118612	-0.02890767	-0.963244	-0.130437	-0.007783403
3.8e+08	-0.1316609	-0.006993958	-0.06631613	-0.9608948	0.01553519	-0.00073852	-0.005871301	-0.001666781
	-0.06631613	-0.9608948	-0.1314206	-0.002649141	-0.005868851	-0.001666814	0.01566674	0.0006208386
	0.01553519	-0.00073852	-0.005868851	-0.001666814	-0.1316524	-0.006677622	-0.06972894	-0.9605817
	-0.005871301	-0.001666781	0.01566674	0.0006208387	-0.06972894	-0.9605817	-0.131378	-0.00203007
3.9e+08	-0.1323658	-0.001313513	-0.1068808	-0.9566932	0.01511509	-0.001302364	-0.006175471	-0.001354545
	-0.1068808	-0.9566932	-0.1319336	0.003133215	-0.006173023	-0.001354772	0.01530875	8.611894e-05
	0.01511509	-0.001302364	-0.006173023	-0.001354772	-0.132351	-0.0009841399	-0.1103634	-0.9562238
	-0.006175471	-0.001354545	0.01530875	8.611895e-05	-0.1103634	-0.9562238	-0.1318707	0.003771205
4e+08	-0.1326295	0.004395716	-0.1471994	-0.9508141	0.01463495	-0.001825281	-0.006459049	-0.001010916
	-0.1471994	-0.9508141	-0.131998	0.00892871	-0.006456629	-0.001011334	0.01489291	-0.00041277
	0.01463495	-0.001825281	-0.006456629	-0.001011334	-0.1326077	0.004737865	-0.1507446	-0.9501818
	-0.006459049	-0.001010916	0.01489291	-0.00041277	-0.1507446	-0.9501818	-0.1319135	0.009584165
4.1e+08	-0.1324519	0.01009857	-0.1872067	-0.9432707	0.01409857	-0.002302007	-0.006718853	-0.0006377092
	-0.1872067	-0.9432707	-0.1316147	0.01470129	-0.006716484	-0.0006383128	0.01442256	-0.0008708263
	0.01409857	-0.002302007	-0.006716484	-0.0006383128	-0.1324223	0.01045315	-0.1908067	-0.9424696
	-0.006718853	-0.0006377092	0.01442256	-0.0008708262	-0.1908067	-0.9424696	-0.1315076	0.01537262
4.2e+08	-0.1318355	0.01576003	-0.2268378	-0.9340789	0.01351017	-0.002727617	-0.006951903	-0.0002370824
	-0.2268378	-0.9340789	-0.1307879	0.02041517	-0.00694961	-0.0002378616	0.01390146	-0.001283345
	0.01351017	-0.002727617	-0.00694961	-0.0002378616	-0.1317973	0.01612663	-0.2304843	-0.9331032
	-0.006951903	-0.0002370824	0.01390146	-0.001283345	-0.2304843	-0.9331032	-0.130657	0.02110066
4.3e+08	-0.1307855	0.02134543	-0.2660286	-0.9232562	0.0128744	-0.003097559	-0.007155462	0.0001884882
	-0.2660286	-0.9232562	-0.1295242	0.02603503	-0.007153265	0.0001875468	0.01333371	-0.001645947
	0.0128744	-0.003097559	-0.007153265	0.0001875468	-0.1307379	0.02172354	-0.2697132	-0.9221006
	-0.007155462	0.0001884882	0.01333371	-0.001645947	-0.2697132	-0.9221006	-0.1293688	0.02673285
4.4e+08	-0.1293097	0.02682064	-0.3047157	-0.9108225	0.01219627	-0.003407678	-0.007327069	0.0006362385
	-0.3047157	-0.9108225	-0.1278331	0.03152626	-0.007324989	0.0006351514	0.01272382	-0.001954606
	0.01219627	-0.003407678	-0.007324989	0.0006351514	-0.129252	0.02720971	-0.3084295	-0.9094821
	-0.007327069	0.0006362385	0.01272382	-0.001954606	-0.3084295	-0.9094821	-0.1276525	0.03223449
4.5e+08	-0.1274187	0.0321523	-0.3428365	-0.8967995	0.01148114	-0.003654251	-0.007464572	0.00110315
	-0.3428365	-0.8967995	-0.1257269	0.03685512	-0.007462627	0.001101937	0.01207657	-0.002205675
	0.01148114	-0.003654251	-0.007462627	0.001101937	-0.1273502	0.03255167	-0.3465702	-0.8952699
	-0.007464572	0.00110315	0.01207657	-0.002205675	-0.3465702	-0.8952699	-0.1255206	0.03757175
4.6e+08	-0.1251255	0.03730796	-0.380329	-0.8812111	0.01073466	-0.003834006	-0.007566156	0.001585988
	-0.380329	-0.8812111	-0.1232203	0.041989	-0.007564362	0.001584672	0.01139707	-0.002395908
	0.01073466	-0.003834006	-0.007564362	0.001584672	-0.1250456	0.03771693	-0.3840731	-0.8794883
	-0.007566156	0.001585988	0.01139707	-0.002395908	-0.3840731	-0.8794883	-0.122988	0.04271194
4.7e+08	-0.1224456	0.04225633	-0.4171319	-0.8640832	0.009962766	-0.003944151	-0.007630366	0.002081341
	-0.4171319	-0.8640832	-0.1203307	0.04689653	-0.007628733	0.002079945	0.0106907	-0.002522485
	0.009962766	-0.003944151	-0.007628733	0.002079945	-0.1223539	0.04267412	-0.4208766	-0.8621636
	-0.007630366	0.002081341	0.0106907	-0.002522485	-0.4208766	-0.8621636	-0.1200722	0.04762367
4.8e+08	-0.1193971	0.04696741	-0.4531849	-0.8454438	0.009171643	-0.003982391	-0.007656123	0.002585664
	-0.4531849	-0.8454438	-0.1170778	0.05154786	-0.00765466	0.002584216	0.009963057	-0.002583034
	0.009171643	-0.003982391	-0.00765466	0.002584216	-0.1192929	0.04739319	-0.4569201	-0.8433245
	-0.007656123	0.002585664	0.009963057	-0.002583034	-0.4569201	-0.8433245	-0.1167932	0.05227702
4.9e+08	-0.1160001	0.05141269	-0.4884285	-0.825323	0.008367666	-0.003946954	-0.007642739	0.003095323
	-0.4884285	-0.825323	-0.1134837	0.05591477	-0.007641449	0.00309385	0.009219968	-0.002575649
	0.008367666	-0.003946954	-0.007641449	0.00309385	-0.1158831	0.05184557	-0.4921438	-0.8230014
	-0.007642739	0.003095323	0.009219968	-0.002575649	-0.4921438	-0.8230014	-0.1131732	0.05664375
5e+08	-0.1122772	0.05556534	-0.5228038	-0.803753	0.007557373	-0.003836606	-0.007589924	0.00360664
	-0.5228038	-0.803753	-0.1095726	0.05997087	-0.007588807	0.003605172	0.008467413	-0.002498909
	0.007557373	-0.003836606	-0.007588807	0.003605172	-0.1121469	0.05600438	-0.5264887	-0.801227
	-0.007589924	0.00360664	0.008467413	-0.002498909	-0.5264887	-0.801227	-0.1092366	0.0606975
