!$
! Info: Touchstone file created by Circ.  Input file=Tx_4in_Rx_100ohms_TxVia_60mils_RxVia_70mils.circ
!$
# Hz S RI R 50
0	0.004297628	7.456736e-26	1.364943e-09	6.610204e-28	4.153579e-05	8.406823e-24	1.231376e-09	2.815935e-28
	1.364951e-09	6.610244e-28	0.004292939	8.519442e-26	9.406742e-10	9.458342e-28	4.17404e-05	1.036892e-23
	4.251837e-05	8.554192e-24	9.40663e-10	9.458085e-28	0.004311811	7.14612e-26	-3.30299e-09	4.540692e-25
	1.231374e-09	2.81468e-28	4.201029e-05	1.041338e-23	-3.302578e-09	4.540188e-25	0.004307501	8.479315e-26
1e+07	0.005764688	0.003296581	2.379771e-09	3.796839e-09	0.0001000396	0.0009395216	-3.639971e-09	3.059902e-08
	2.379771e-09	3.796839e-09	0.006181641	0.00321747	1.581567e-09	2.695903e-09	0.0002418735	0.0009682255
	0.000100049	0.0009394892	1.581567e-09	2.695903e-09	0.006013415	0.003200551	-7.111769e-09	1.741028e-08
	-3.63997e-09	3.059902e-08	0.0002418757	0.0009682231	-7.111769e-09	1.741028e-08	0.006134229	0.003227533
2e+07	0.007581631	0.005335685	3.636323e-09	6.964298e-09	0.0002247451	0.001882246	1.181352e-08	2.486761e-08
	3.636323e-09	6.964298e-09	0.007822617	0.005052979	2.451814e-09	5.00644e-09	0.0003051223	0.001987853
	0.0002247185	0.001882244	2.451814e-09	5.00644e-09	0.007686101	0.005092667	-4.586005e-09	6.05362e-09
	1.181352e-08	2.486761e-08	0.0003051189	0.001987853	-4.586005e-09	6.05362e-09	0.007791776	0.00509409
3e+07	0.00913386	0.006628445	5.4555e-09	9.334571e-09	0.0004288685	0.002792777	1.866121e-08	3.132714e-08
	5.4555e-09	9.334571e-09	0.009230238	0.006289872	3.350061e-09	6.820126e-09	0.0004602637	0.002924688
	0.000428866	0.002792781	3.350061e-09	6.820126e-09	0.009127438	0.006348815	5.481532e-09	9.490367e-09
	1.866121e-08	3.132714e-08	0.0004602634	0.00292469	5.481532e-09	9.490367e-09	0.009213539	0.006346066
4e+07	0.01057921	0.007602078	7.513447e-09	1.157287e-08	0.0007095129	0.003675048	2.589264e-08	3.833695e-08
	7.513447e-09	1.157287e-08	0.0105458	0.007250936	4.541535e-09	8.595669e-09	0.0007085744	0.003820557
	0.0007095123	0.003675043	4.541535e-09	8.595669e-09	0.01048114	0.007318952	8.059148e-09	1.232365e-08
	2.589264e-08	3.833695e-08	0.0007085751	0.003820557	8.059147e-09	1.232365e-08	0.01054245	0.007317346
5e+07	0.01196888	0.008351691	9.933844e-09	1.353157e-08	0.001063343	0.004524147	3.410799e-08	4.470092e-08
	9.933844e-09	1.353157e-08	0.01181537	0.008015273	5.893424e-09	1.020849e-08	0.001103232	0.004661737
	0.001063341	0.004524145	5.893424e-09	1.020849e-08	0.01179374	0.008084812	1.050421e-08	1.424246e-08
	3.410799e-08	4.470092e-08	0.001103233	0.004661737	1.050421e-08	1.424246e-08	0.0118246	0.008088915
6e+07	0.01332418	0.008919659	1.268958e-08	1.513787e-08	0.001486655	0.005334568	4.337465e-08	4.994968e-08
	1.268958e-08	1.513787e-08	0.01305904	0.008619526	7.410895e-09	1.162482e-08	0.001558069	0.005457535
	0.001486657	0.005334571	7.410895e-09	1.162482e-08	0.01308458	0.008683285	1.323487e-08	1.575641e-08
	4.337465e-08	4.994968e-08	0.00155807	0.005457535	1.323487e-08	1.575641e-08	0.0130803	0.008698151
7e+07	0.0146538	0.009328948	1.572526e-08	1.63368e-08	0.001981869	0.00609882	5.358527e-08	5.381919e-08
	1.572526e-08	1.63368e-08	0.01428524	0.009083661	9.078018e-09	1.282205e-08	0.002069849	0.006204222
	0.001981878	0.006098826	9.078018e-09	1.282205e-08	0.0143615	0.009134583	1.62895e-08	1.691315e-08
	5.358527e-08	5.381919e-08	0.00206985	0.006204222	1.62895e-08	1.691315e-08	0.01431797	0.00916522
8e+07	0.01595995	0.009593732	1.897427e-08	1.708624e-08	0.00253907	0.006812891	6.455892e-08	5.613339e-08
	1.897427e-08	1.708624e-08	0.01549651	0.009420798	1.086987e-08	1.377984e-08	0.002634537	0.006897497
	0.002539083	0.006812894	1.086987e-08	1.377984e-08	0.01562669	0.009451748	1.965385e-08	1.768303e-08
	6.455892e-08	5.613339e-08	0.002634539	0.006897496	1.965385e-08	1.768303e-08	0.01553996	0.009503327
9e+07	0.01724106	0.00972332	2.236914e-08	1.73597e-08	0.003151997	0.007472738	7.607791e-08	5.677199e-08
	2.236914e-08	1.73597e-08	0.0166928	0.00964164	1.275892e-08	1.448455e-08	0.003247267	0.007532604
	0.003152008	0.007472739	1.275892e-08	1.448455e-08	0.0168796	0.009644974	2.330262e-08	1.802542e-08
	7.607791e-08	5.677199e-08	0.003247268	0.007532603	2.330262e-08	1.802542e-08	0.01674591	0.009723201
1e+08	0.01849152	0.00972081	2.584189e-08	1.713852e-08	0.003816811	0.0080763	8.790679e-08	5.565945e-08
	2.584189e-08	1.713852e-08	0.01787656	0.009762637	1.470964e-08	1.492688e-08	0.003900942	0.008101705
	0.003816811	0.0080763	1.470964e-08	1.492688e-08	0.01812163	0.009729232	2.720742e-08	1.789168e-08
	8.790679e-08	5.565945e-08	0.003900942	0.008101705	2.720742e-08	1.789168e-08	0.01793762	0.00984058
1.1e+08	0.01969365	0.0096111	2.949283e-08	1.651689e-08	0.004535195	0.008609801	1.001385e-07	5.323934e-08
	2.949283e-08	1.651689e-08	0.01907347	0.009753466	1.671607e-08	1.514735e-08	0.004578091	0.008616757
	0.004535195	0.008609801	1.671607e-08	1.514735e-08	0.01937357	0.00967776	3.105462e-08	1.720259e-08
	1.001385e-07	5.323934e-08	0.004578089	0.008616757	3.105462e-08	1.720259e-08	0.01913813	0.009828976
1.2e+08	0.02086653	0.009398773	3.318028e-08	1.538995e-08	0.005288329	0.009070184	1.124641e-07	4.913728e-08
	3.318028e-08	1.538995e-08	0.02023151	0.009620673	1.877188e-08	1.507996e-08	0.00529314	0.009074263
	0.005288329	0.009070184	1.877188e-08	1.507996e-08	0.02058819	0.009496937	3.491953e-08	1.600492e-08
	1.124641e-07	4.913728e-08	0.005293138	0.009074264	3.491953e-08	1.600492e-08	0.02030004	0.009694865
1.3e+08	0.02200284	0.009083118	3.683751e-08	1.376855e-08	0.006071035	0.009457571	1.246812e-07	4.336261e-08
	3.683751e-08	1.376855e-08	0.02134998	0.009380158	2.08159e-08	1.474321e-08	0.006038537	0.009466801
	0.006071035	0.009457571	2.08159e-08	1.474321e-08	0.02176356	0.009201409	3.875235e-08	1.428845e-08
	1.246812e-07	4.336261e-08	0.006038535	0.009466802	3.875235e-08	1.428845e-08	0.02142219	0.009453103
1.4e+08	0.02309662	0.008667672	4.041049e-08	1.165158e-08	0.006876983	0.009770314	1.366039e-07	3.591377e-08
	4.041049e-08	1.165158e-08	0.02242465	0.009039222	2.281918e-08	1.413621e-08	0.006807825	0.009791084
	0.006876983	0.009770314	2.281918e-08	1.413621e-08	0.02289456	0.008798186	4.249643e-08	1.205204e-08
	1.366039e-07	3.591377e-08	0.006807824	0.009791085	4.249643e-08	1.205204e-08	0.02250022	0.009110807
1.5e+08	0.02414201	0.008156704	4.384434e-08	9.04358e-09	0.007699531	0.01000699	1.480447e-07	2.680844e-08
	4.384434e-08	9.04358e-09	0.02345075	0.008603932	2.475204e-08	1.326118e-08	0.00759454	0.0100449
	0.007699531	0.01000699	2.475204e-08	1.326118e-08	0.02397557	0.008293249	4.609404e-08	9.300667e-09
	1.480447e-07	2.680844e-08	0.007594539	0.0100449	4.609404e-08	9.300667e-09	0.02352929	0.008673999
1.6e+08	0.02513326	0.007554887	4.708406e-08	5.954808e-09	0.008531853	0.01016664	1.588166e-07	1.608346e-08
	4.708406e-08	5.954808e-09	0.02442336	0.008079981	2.658473e-08	1.212339e-08	0.008392137	0.01022682
	0.008531852	0.01016664	2.658473e-08	1.212339e-08	0.02500083	0.007692312	4.948737e-08	6.045304e-09
	1.588166e-07	1.608346e-08	0.008392137	0.01022682	4.948737e-08	6.045304e-09	0.02450445	0.008148361
1.7e+08	0.02606472	0.006867227	5.007528e-08	2.401187e-09	0.009367023	0.01024885	1.687355e-07	3.794771e-09
	5.007528e-08	2.401187e-09	0.02533761	0.007472979	2.828775e-08	1.073116e-08	0.009194015	0.01033604
	0.009367023	0.01024885	2.828775e-08	1.073116e-08	0.02596466	0.007001113	5.261936e-08	2.302847e-09
	1.687355e-07	3.794771e-09	0.009194015	0.01033604	5.261936e-08	2.302847e-09	0.0254208	0.007539525
1.8e+08	0.02693096	0.006099072	5.276488e-08	-1.595759e-09	0.01019808	0.01025379	1.776217e-07	-9.982733e-09
	5.276488e-08	-1.595759e-09	0.02618878	0.006788603	2.983221e-08	9.095827e-09	0.009993554	0.01037245
	0.01019808	0.01025379	2.983221e-08	9.095827e-09	0.0268615	0.006225551	5.543431e-08	-1.903937e-09
	1.776217e-07	-9.982733e-09	0.009993554	0.01037245	5.543431e-08	-1.903937e-09	0.02627358	0.006853202
1.9e+08	0.02772675	0.005256096	5.510149e-08	-6.010202e-09	0.01101808	0.01018222	1.853022e-07	-2.51556e-08
	5.510149e-08	-6.010202e-09	0.02697232	0.006032678	3.119031e-08	7.230928e-09	0.01078416	0.01033651
	0.01101808	0.01018222	3.119031e-08	7.230928e-09	0.02768602	0.005371756	5.787837e-08	-6.547707e-09
	1.853022e-07	-2.51556e-08	0.01078416	0.01033651	5.787837e-08	-6.547707e-09	0.02705824	0.006095251
2e+08	0.02844716	0.004344302	5.703605e-08	-1.080949e-08	0.01182016	0.01003551	1.916126e-07	-4.161243e-08
	5.703605e-08	-1.080949e-08	0.02768395	0.005211199	3.233516e-08	5.15392e-09	0.01155932	0.01022931
	0.01182016	0.01003551	3.233516e-08	5.15392e-09	0.02843318	0.004446117	5.990018e-08	-1.159406e-08
	1.916126e-07	-4.161243e-08	0.01155932	0.01022931	5.990018e-08	-1.159406e-08	0.02777049	0.005271719
2.1e+08	0.02908761	0.003370011	5.85227e-08	-1.595528e-08	0.01259761	0.009815606	1.963988e-07	-5.922461e-08
	5.85227e-08	-1.595528e-08	0.02831971	0.004330364	3.324147e-08	2.885479e-09	0.01231264	0.01005251
	0.01259761	0.009815606	3.324147e-08	2.885479e-09	0.02909829	0.003455307	6.145174e-08	-1.700266e-08
	1.963988e-07	-5.922461e-08	0.01231264	0.01005251	6.145174e-08	-1.700266e-08	0.02840635	0.004388845
2.2e+08	0.0296439	0.002339856	5.951907e-08	-2.140529e-08	0.01334389	0.009525064	1.995187e-07	-7.784734e-08
	5.951907e-08	-2.140529e-08	0.02887598	0.003396576	3.388594e-08	4.483505e-10	0.01303791	0.009808343
	0.01334389	0.009525064	3.388594e-08	4.483505e-10	0.02967703	0.002406283	6.248873e-08	-2.272903e-08
	1.995187e-07	-7.784734e-08	0.01303791	0.009808343	6.248873e-08	-2.272903e-08	0.02896221	0.003453078
2.3e+08	0.03011227	0.001260765	5.998672e-08	-2.711279e-08	0.01405272	0.009166999	2.008441e-07	-9.732073e-08
	5.998672e-08	-2.711279e-08	0.02934953	0.002416444	3.424742e-08	-2.132228e-09	0.01372914	0.009499602
	0.01405272	0.009166999	3.424742e-08	-2.132228e-09	0.03016555	0.00130628	6.297098e-08	-2.872401e-08
	2.008441e-07	-9.732073e-08	0.01372914	0.009499602	6.297098e-08	-2.872401e-08	0.02943486	0.002471077
2.4e+08	0.0304894	0.0001399227	5.989163e-08	-3.302689e-08	0.0147181	0.008745073	2.002616e-07	-1.174711e-07
	5.989163e-08	-3.302689e-08	0.02973754	0.001396745	3.430713e-08	-4.828723e-09	0.01438062	0.009129598
	0.0147181	0.008745073	3.430713e-08	-4.828723e-09	0.03056045	0.0001627722	6.286298e-08	-3.493412e-08
	2.002616e-07	-1.174711e-07	0.01438062	0.009129598	6.286298e-08	-3.493412e-08	0.02982147	0.001449668
2.5e+08	0.03077249	-0.001015245	5.92046e-08	-3.909302e-08	0.01533438	0.008263469	1.976748e-07	-1.381123e-07
	5.92046e-08	-3.909302e-08	0.03003764	0.0003444378	3.40489e-08	-7.611531e-09	0.01498694	0.008702142
	0.01533438	0.008263469	3.40489e-08	-7.611531e-09	0.03085887	-0.001016522	6.213427e-08	-4.130203e-08
	1.976748e-07	-1.381123e-07	0.01498694	0.008702142	6.213427e-08	-4.130203e-08	0.03011972	0.0003958569
2.6e+08	0.03095927	-0.002197117	5.790159e-08	-4.525333e-08	0.01589632	0.007726861	1.930047e-07	-1.590476e-07
	5.790159e-08	-4.525333e-08	0.03024797	-0.0007333897	3.345941e-08	-1.044922e-08	0.01554306	0.008221518
	0.01589632	0.007726861	3.345941e-08	-1.044922e-08	0.03105848	-0.002223706	6.075983e-08	-4.776698e-08
	1.930047e-07	-1.590476e-07	0.01554306	0.008221518	6.075983e-08	-4.776698e-08	0.03032772	-0.0006832256
2.7e+08	0.03104803	-0.003397904	5.596409e-08	-5.144719e-08	0.01639907	0.007140374	1.861915e-07	-1.800709e-07
	5.596409e-08	-5.144719e-08	0.03036711	-0.001829542	3.252833e-08	-1.330882e-08	0.01604433	0.007692443
	0.01639907	0.007140374	3.252833e-08	-1.330882e-08	0.03115753	-0.003450717	5.872044e-08	-5.426533e-08
	1.861915e-07	-1.800709e-07	0.01604433	0.007692443	5.872044e-08	-5.426533e-08	0.0304441	-0.00178034
2.8e+08	0.0310376	-0.004609696	5.337935e-08	-5.761172e-08	0.01683829	0.006509552	1.771949e-07	-2.00969e-07
	5.337935e-08	-5.761172e-08	0.03039418	-0.00293674	3.124854e-08	-1.615606e-08	0.01648656	0.007120037
	0.01683829	0.006509552	3.124854e-08	-1.615606e-08	0.03115487	-0.004689374	5.600295e-08	-6.073108e-08
	1.771949e-07	-2.00969e-07	0.01648656	0.007120037	5.600295e-08	-6.073108e-08	0.03046803	-0.002888159
2.9e+08	0.03092746	-0.005824502	5.014067e-08	-6.368228e-08	0.01721012	0.00584031	1.659955e-07	-2.215228e-07
	5.014067e-08	-6.368228e-08	0.03032883	-0.004047669	2.961622e-08	-1.895571e-08	0.01686599	0.006509777
	0.01721012	0.00584031	2.961622e-08	-1.895571e-08	0.03104995	-0.005931424	5.260056e-08	-6.709643e-08
	1.659955e-07	-2.215228e-07	0.01686599	0.006509777	5.260056e-08	-6.709643e-08	0.03039916	-0.003999336
3e+08	0.03071764	-0.007034304	4.624756e-08	-6.959305e-08	0.01751125	0.005138888	1.525946e-07	-2.415099e-07
	4.624756e-08	-6.959305e-08	0.03017123	-0.005155014	2.763097e-08	-2.167189e-08	0.01717938	0.00586746
	0.01751125	0.005138888	2.763097e-08	-2.167189e-08	0.03084284	-0.007168589	4.851296e-08	-7.329236e-08
	1.525946e-07	-2.415099e-07	0.01717938	0.00586746	4.851296e-08	-7.329236e-08	0.03023771	-0.005106513
3.1e+08	0.03040882	-0.008231083	4.170588e-08	-7.527761e-08	0.01773892	0.004411811	1.370157e-07	-2.607063e-07
	4.170588e-08	-7.527761e-08	0.02992209	-0.006251484	2.529591e-08	-2.426837e-08	0.01742403	0.005199152
	0.01773892	0.004411811	2.529591e-08	-2.426837e-08	0.03053425	-0.008392602	4.374653e-08	-7.924923e-08
	1.370157e-07	-2.607063e-07	0.01742403	0.005199152	4.374653e-08	-7.924923e-08	0.02998443	-0.00620237
3.2e+08	0.03000228	-0.009406892	3.652795e-08	-8.066951e-08	0.01789099	0.003665827	1.193035e-07	-2.788881e-07
	3.652795e-08	-8.066951e-08	0.02958266	-0.007329879	2.26177e-08	-2.670892e-08	0.01759776	0.004511148
	0.01789099	0.003665827	2.26177e-08	-2.670892e-08	0.03012553	-0.009595271	3.831442e-08	-8.489741e-08
	1.193035e-07	-2.788881e-07	0.01759776	0.004511148	3.831442e-08	-8.489741e-08	0.02964062	-0.007279671
3.3e+08	0.02949992	-0.01055389	3.073256e-08	-8.570289e-08	0.01796591	0.002907866	9.952516e-08	-2.958342e-07
	3.073256e-08	-8.570289e-08	0.02915475	-0.008383106	1.960658e-08	-2.895765e-08	0.01769898	0.003809917
	0.01796591	0.002907866	1.960658e-08	-2.895765e-08	0.02961867	-0.01076852	3.223656e-08	-9.01679e-08
	9.952516e-08	-2.958342e-07	0.01769898	0.003809917	3.223656e-08	-9.01679e-08	0.02920811	-0.008331302
3.4e+08	0.02890425	-0.01166439	2.434499e-08	-9.031307e-08	0.01796273	0.002144975	7.776922e-08	-3.113278e-07
	2.434499e-08	-9.031307e-08	0.02864066	-0.009404227	1.627636e-08	-3.097932e-08	0.01772665	0.003102054
	0.01796273	0.002144975	1.627636e-08	-3.097932e-08	0.02901626	-0.01190444	2.55397e-08	-9.499295e-08
	7.776922e-08	-3.113278e-07	0.01772665	0.003102054	2.55397e-08	-9.499295e-08	0.02868928	-0.009350301
3.5e+08	0.02821837	-0.01273091	1.739693e-08	-9.443717e-08	0.01788117	0.001384272	5.414589e-08	-3.251586e-07
	1.739693e-08	-9.443717e-08	0.02804325	-0.01038651	1.264436e-08	-3.273973e-08	0.01768036	0.002394231
	0.01788117	0.001384272	1.264436e-08	-3.273973e-08	0.02832154	-0.01299533	1.825726e-08	-9.930675e-08
	5.414589e-08	-3.251586e-07	0.01768036	0.002394231	1.825726e-08	-9.930675e-08	0.02808702	-0.01032992
3.6e+08	0.02744598	-0.01374622	9.926367e-09	-9.801469e-08	0.01772158	0.0006328863	2.878612e-08	-3.371234e-07
	9.926367e-09	-9.801469e-08	0.02736586	-0.01132345	8.730163e-09	-3.420592e-08	0.01756025	0.00169314
	0.01772158	0.0006328863	8.730163e-09	-3.420592e-08	0.02753833	-0.01403378	1.042878e-08	-1.030452e-07
	2.878612e-08	-3.371234e-07	0.01756025	0.00169314	1.042878e-08	-1.030452e-07	0.02740473	-0.01126363
3.7e+08	0.02659135	-0.01470342	1.977364e-09	-1.009882e-07	0.01748491	-0.0001020992	1.841868e-09	-3.470323e-07
	1.977364e-09	-1.009882e-07	0.02661235	-0.01220884	4.558848e-09	-3.534671e-08	0.0173671	0.001005445
	0.01748491	-0.0001020992	4.558848e-09	-3.534671e-08	0.02667105	-0.01501267	2.101234e-09	-1.061488e-07
	1.841868e-09	-3.470323e-07	0.0173671	0.001005445	2.101234e-09	-1.061488e-07	0.02664633	-0.01214522
3.8e+08	0.02565927	-0.0155959	-6.400132e-09	-1.033037e-07	0.0171728	-0.0008137016	-2.651581e-08	-3.547072e-07
	-6.400132e-09	-1.033037e-07	0.02578703	-0.01303675	1.579873e-10	-3.613292e-08	0.01710225	0.0003377261
	0.0171728	-0.0008137016	1.579873e-10	-3.613292e-08	0.02572467	-0.01592525	-6.672682e-09	-1.085613e-07
	-2.651581e-08	-3.547072e-07	0.01710225	0.0003377261	-6.672682e-09	-1.085613e-07	0.02581617	-0.01296878
3.9e+08	0.02465508	-0.0164175	-1.515056e-08	-1.049115e-07	0.01678745	-0.001495095	-5.609751e-08	-3.599842e-07
	-1.515056e-08	-1.049115e-07	0.02489466	-0.01380165	-4.442055e-09	-3.653773e-08	0.01676764	-0.0003035689
	0.01678745	-0.001495095	-4.442055e-09	-3.653773e-08	0.02470469	-0.0167652	-1.58345e-08	-1.102308e-07
	-5.609751e-08	-3.599842e-07	0.01676764	-0.0003035689	-1.58345e-08	-1.102308e-07	0.02491908	-0.01372874
4e+08	0.02358459	-0.01716245	-2.421312e-08	-1.057666e-07	0.01633172	-0.002139664	-8.66966e-08	-3.627153e-07
	-2.421312e-08	-1.057666e-07	0.02394044	-0.01449836	-9.208074e-09	-3.653694e-08	0.01636576	-0.0009121791
	0.01633172	-0.002139664	-9.208074e-09	-3.653694e-08	0.02361713	-0.01752661	-2.532028e-08	-1.111102e-07
	-8.66966e-08	-3.627153e-07	0.01636576	-0.0009121791	-2.532028e-08	-1.111102e-07	0.02396031	-0.01441996
4.1e+08	0.02245409	-0.01782549	-3.352211e-08	-1.058292e-07	0.01580901	-0.002741059	-1.180906e-07	-3.627709e-07
	-3.352211e-08	-1.058292e-07	0.02292993	-0.01512214	-1.410425e-08	-3.610927e-08	0.01589968	-0.001482079
	0.01580901	-0.002741059	-1.410425e-08	-3.610927e-08	0.02246847	-0.01820409	-3.506095e-08	-1.111582e-07
	-1.180906e-07	-3.627709e-07	0.01589968	-0.001482079	-3.506095e-08	-1.111582e-07	0.02294548	-0.0150377
4.2e+08	0.02127026	-0.01840184	-4.300745e-08	-1.050653e-07	0.01522333	-0.003293246	-1.500428e-07	-3.600405e-07
	-4.300745e-08	-1.050653e-07	0.0218691	-0.0156687	-1.909242e-08	-3.523662e-08	0.01537298	-0.002007525
	0.01522333	-0.003293246	-1.909242e-08	-3.523662e-08	0.0212656	-0.01879278	-4.498287e-08	-1.103392e-07
	-1.500428e-07	-3.600405e-07	0.01537298	-0.002007525	-4.498287e-08	-1.103392e-07	0.0218806	-0.01557768
4.3e+08	0.02004016	-0.01888727	-5.25951e-08	-1.03447e-07	0.01457918	-0.003790556	-1.823037e-07	-3.544348e-07
	-5.25951e-08	-1.03447e-07	0.02076417	-0.01613421	-2.413233e-08	-3.390432e-08	0.01478975	-0.002483105
	0.01457918	-0.003790556	-2.413233e-08	-3.390432e-08	0.02001582	-0.01928837	-5.500827e-08	-1.086245e-07
	-1.823037e-07	-3.544348e-07	0.01478975	-0.002483105	-5.500827e-08	-1.086245e-07	0.02077197	-0.01603611
4.4e+08	0.0187712	-0.01927815	-6.220764e-08	-1.009531e-07	0.01388159	-0.004227732	-2.146133e-07	-3.458868e-07
	-6.220764e-08	-1.009531e-07	0.01962172	-0.01651538	-2.918195e-08	-3.210135e-08	0.01415455	-0.002903781
	0.01388159	-0.004227732	-2.918195e-08	-3.210135e-08	0.01872675	-0.01968718	-6.505583e-08	-1.05992e-07
	-2.146133e-07	-3.458868e-07	0.01415455	-0.002903781	-6.505583e-08	-1.05992e-07	0.0196262	-0.01640972
4.5e+08	0.01747107	-0.01957143	-7.176484e-08	-9.756943e-08	0.01313604	-0.004599975	-2.467026e-07	-3.34353e-07
	-7.176484e-08	-9.756943e-08	0.01844853	-0.01680941	-3.419784e-08	-2.982054e-08	0.0134724	-0.00326493
	0.01313604	-0.004599975	-3.419784e-08	-2.982054e-08	0.01740632	-0.0199861	-7.504134e-08	-1.024273e-07
	-2.467026e-07	-3.34353e-07	0.0134724	-0.00326493	-7.504134e-08	-1.024273e-07	0.01845012	-0.01669574
4.6e+08	0.0161477	-0.01976469	-8.118409e-08	-9.328919e-08	0.01234843	-0.00490298	-2.782961e-07	-3.198146e-07
	-8.118409e-08	-9.328919e-08	0.0172516	-0.01701408	-3.913547e-08	-2.705871e-08	0.01274871	-0.003562382
	0.01234843	-0.00490298	-3.913547e-08	-2.705871e-08	0.01606268	-0.02018273	-8.48781e-08	-9.792351e-08
	-2.782961e-07	-3.198146e-07	0.01274871	-0.003562382	-8.48781e-08	-9.792351e-08	0.01725079	-0.01689198
4.7e+08	0.01480919	-0.01985614	-9.040867e-08	-8.809815e-08	0.01152504	-0.005132977	-3.091077e-07	-3.022575e-07
	-9.040867e-08	-8.809815e-08	0.0160381	-0.01712771	-4.39478e-08	-2.381669e-08	0.01198924	-0.003792454
	0.01152504	-0.005132977	-4.39478e-08	-2.381669e-08	0.01470419	-0.0202753	-9.450521e-08	-9.246625e-08
	-3.091077e-07	-3.022575e-07	0.01198924	-0.003792454	-9.450521e-08	-9.246625e-08	0.01603538	-0.0169968
4.8e+08	0.0134638	-0.01984471	-9.932799e-08	-8.201622e-08	0.0106725	-0.005286761	-3.388565e-07	-2.817332e-07
