!$
! Info: Touchstone file created by Circ.  Input file=Tx_4in_Rx_100ohms_TxVia_60mils_RxVia_70mils.circ
!$
# Hz S RI R 50
0	0.004297584	8.372319e-26	3.094192e-08	1.655425e-26	4.501705e-05	9.300167e-24	6.581501e-08	3.937643e-27
	3.094191e-08	1.655405e-26	0.004292939	8.519442e-26	6.35255e-08	5.357229e-26	4.17404e-05	1.036892e-23
	4.623835e-05	9.036126e-24	6.352551e-08	5.357101e-26	0.004308464	8.307377e-26	2.415387e-08	2.205338e-26
	6.581504e-08	3.938027e-27	4.201029e-05	1.041338e-23	2.415418e-08	2.205898e-26	0.004307501	8.479315e-26
1e+07	0.006184173	0.003217845	4.708065e-08	9.787099e-08	0.0002431969	0.000967936	1.057737e-07	2.854926e-07
	4.708065e-08	9.7871e-08	0.006181641	0.00321747	8.403276e-08	2.923986e-07	0.0002418735	0.0009682255
	0.0002432667	0.0009679039	8.403277e-08	2.923987e-07	0.006137102	0.003227792	3.342779e-08	1.330137e-07
	1.057737e-07	2.854926e-07	0.0002418757	0.0009682231	3.342778e-08	1.330137e-07	0.006134229	0.003227533
2e+07	0.007833192	0.00505374	7.252278e-08	1.761107e-07	0.0003104342	0.001986814	2.053257e-07	4.832555e-07
	7.252279e-08	1.761107e-07	0.007822617	0.005052979	1.342184e-07	5.057038e-07	0.0003051223	0.001987853
	0.0003104199	0.001986777	1.342184e-07	5.057038e-07	0.007803743	0.005094638	7.354173e-08	1.97358e-07
	2.053257e-07	4.832555e-07	0.0003051189	0.001987853	7.354172e-08	1.97358e-07	0.007791776	0.00509409
3e+07	0.009254064	0.006289399	1.018767e-07	2.486138e-07	0.0004720575	0.002922137	3.26116e-07	6.654125e-07
	1.018767e-07	2.486138e-07	0.009230238	0.006289872	1.737637e-07	7.183702e-07	0.0004602637	0.002924688
	0.0004720538	0.002922137	1.737637e-07	7.183702e-07	0.009240378	0.00634495	1.112292e-07	2.739606e-07
	3.26116e-07	6.654125e-07	0.0004602634	0.00292469	1.112292e-07	2.739606e-07	0.009213539	0.006346066
4e+07	0.01058827	0.007247592	1.355732e-07	3.158325e-07	0.0007292803	0.003815421	4.685402e-07	8.31136e-07
	1.355732e-07	3.158325e-07	0.0105458	0.007250936	2.085651e-07	9.291619e-07	0.0007085744	0.003820557
	0.0007292855	0.003815421	2.085651e-07	9.291619e-07	0.0105902	0.007312798	1.491441e-07	3.473778e-07
	4.685402e-07	8.31136e-07	0.0007085751	0.003820557	1.491441e-07	3.473778e-07	0.01054245	0.007317346
5e+07	0.01188176	0.008006078	1.737648e-07	3.777101e-07	0.001135111	0.004652695	6.343824e-07	9.779738e-07
	1.737648e-07	3.777101e-07	0.01181537	0.008015273	2.416202e-07	1.136298e-06	0.001103232	0.004661737
	0.001135114	0.004652693	2.416202e-07	1.136298e-06	0.0118992	0.008077536	1.908221e-07	4.155866e-07
	6.343824e-07	9.779738e-07	0.001103233	0.004661737	1.908221e-07	4.155866e-07	0.0118246	0.008088915
6e+07	0.01315378	0.008600839	2.162023e-07	4.340325e-07	0.001603183	0.005442942	8.230048e-07	1.101804e-06
	2.162023e-07	4.340325e-07	0.01305904	0.008619526	2.743126e-07	1.339718e-06	0.001558069	0.005457535
	0.001603182	0.005442943	2.743126e-07	1.339718e-06	0.01318667	0.008675796	2.368856e-07	4.779255e-07
	8.230048e-07	1.101804e-06	0.00155807	0.005457535	2.368856e-07	4.779255e-07	0.0130803	0.008698151
7e+07	0.01441227	0.009051616	2.623692e-07	4.843772e-07	0.00213005	0.006182185	1.032197e-06	1.198749e-06
	2.623692e-07	4.843772e-07	0.01428524	0.009083661	3.073582e-07	1.539387e-06	0.002069849	0.006204222
	0.002130048	0.00618219	3.073582e-07	1.539387e-06	0.01446048	0.009127566	2.870932e-07	5.337517e-07
	1.032197e-06	1.198749e-06	0.00206985	0.006204222	2.870932e-07	5.337517e-07	0.01431797	0.00916522
8e+07	0.01565955	0.009371196	3.11582e-07	5.283416e-07	0.002711452	0.006865897	1.258754e-06	1.26553e-06
	3.11582e-07	5.283416e-07	0.01549651	0.009420798	3.410992e-07	1.735144e-06	0.002634537	0.006897497
	0.002711451	0.006865902	3.410992e-07	1.735144e-06	0.01572276	0.009445695	3.408879e-07	5.824756e-07
	1.258754e-06	1.26553e-06	0.002634539	0.006897496	3.408879e-07	5.824756e-07	0.01553996	0.009503327
9e+07	0.01689533	0.009569728	3.630396e-07	5.656134e-07	0.003342275	0.007489112	1.498812e-06	1.299524e-06
	3.630396e-07	5.656134e-07	0.0166928	0.00964164	3.756313e-07	1.926752e-06	0.003247267	0.007532604
	0.003342275	0.007489116	3.756313e-07	1.926752e-06	0.01697296	0.009640259	3.975295e-07	6.235781e-07
	1.498812e-06	1.299524e-06	0.003247268	0.007532603	3.975295e-07	6.235781e-07	0.01674591	0.009723201
1e+08	0.01812162	0.00966302	4.158691e-07	5.960043e-07	0.004015165	0.008043806	1.748087e-06	1.298752e-06
	4.158691e-07	5.960043e-07	0.01787656	0.009762637	4.109078e-07	2.113941e-06	0.003900942	0.008101705
	0.004015165	0.008043806	4.109078e-07	2.113941e-06	0.01821239	0.009726213	4.561517e-07	6.566375e-07
	1.748087e-06	1.298752e-06	0.003900942	0.008101705	4.561517e-07	6.566375e-07	0.01793762	0.00984058
1.1e+08	0.01936249	0.00962067	4.69971e-07	6.196313e-07	0.004712317	0.008541767	2.005139e-06	1.267581e-06
	4.69971e-07	6.196313e-07	0.01907347	0.009753466	4.44448e-07	2.299258e-06	0.004578091	0.008616757
	0.004712316	0.008541767	4.44448e-07	2.299258e-06	0.01946209	0.009677006	5.155166e-07	6.829086e-07
	2.005139e-06	1.267581e-06	0.004578089	0.008616757	5.155166e-07	6.829086e-07	0.01913813	0.009828976
1.2e+08	0.02056599	0.009448708	5.242823e-07	6.361795e-07	0.005447862	0.008979418	2.265227e-06	1.201859e-06
	5.242823e-07	6.361795e-07	0.02023151	0.009620673	4.773726e-07	2.481632e-06	0.00529314	0.009074263
	0.005447862	0.008979419	4.773726e-07	2.481632e-06	0.02067482	0.009498586	5.751369e-07	7.014354e-07
	2.265227e-06	1.201859e-06	0.005293138	0.009074264	5.751369e-07	7.014354e-07	0.02030004	0.009694865
1.3e+08	0.02173067	0.009162851	5.780278e-07	6.45605e-07	0.006213942	0.009349245	2.524492e-06	1.100994e-06
	5.780278e-07	6.45605e-07	0.02134998	0.009380158	5.094922e-07	2.661177e-06	0.006038537	0.009466801
	0.006213942	0.009349245	5.094922e-07	2.661177e-06	0.02184857	0.009205594	6.341624e-07	7.121638e-07
	2.524492e-06	1.100994e-06	0.006038535	0.009466802	6.341624e-07	7.121638e-07	0.02142219	0.009453103
1.4e+08	0.02285158	0.008770274	6.30422e-07	6.479361e-07	0.007003779	0.009647902	2.778987e-06	9.648018e-07
	6.30422e-07	6.479361e-07	0.02242465	0.009039222	5.405884e-07	2.838034e-06	0.006807825	0.009791084
	0.007003779	0.009647903	5.405884e-07	2.838034e-06	0.02297821	0.008805006	6.917309e-07	7.15122e-07
	2.778987e-06	9.648018e-07	0.006807824	0.009791085	6.917309e-07	7.15122e-07	0.02250022	0.009110807
1.5e+08	0.02392323	0.008276982	6.80675e-07	6.432778e-07	0.007810578	0.00987316	3.024721e-06	7.935001e-07
	6.80675e-07	6.432778e-07	0.02345075	0.008603932	5.704405e-07	3.012365e-06	0.00759454	0.0100449
	0.007810578	0.00987316	5.704405e-07	3.012365e-06	0.02405809	0.008302772	7.469765e-07	7.104231e-07
	3.024721e-06	7.935001e-07	0.007594539	0.0100449	7.469765e-07	7.104231e-07	0.02352929	0.008673999
1.6e+08	0.02494002	0.007688665	7.280008e-07	6.318143e-07	0.008627461	0.01002358	3.257709e-06	5.877135e-07
	7.280008e-07	6.318143e-07	0.02442336	0.008079981	5.988318e-07	3.18435e-06	0.008392137	0.01022682
	0.008627461	0.01002358	5.988318e-07	3.18435e-06	0.02508246	0.007704581	7.990376e-07	6.982677e-07
	3.257709e-06	5.877135e-07	0.008392137	0.01022682	7.990376e-07	6.982677e-07	0.02450445	0.008148361
1.7e+08	0.02589635	0.007011002	7.716259e-07	6.138099e-07	0.009447496	0.01009844	3.474005e-06	3.484765e-07
	7.716259e-07	6.138099e-07	0.02533761	0.007472979	6.25553e-07	3.354186e-06	0.009194015	0.01033604
	0.009447496	0.01009844	6.25553e-07	3.354186e-06	0.02604562	0.007016142	8.470673e-07	6.78944e-07
	3.474005e-06	3.484765e-07	0.009194015	0.01033604	8.470673e-07	6.78944e-07	0.0254208	0.007539525
1.8e+08	0.02678677	0.006249809	8.107981e-07	5.896087e-07	0.01026373	0.01009768	3.669753e-06	7.723152e-08
	8.107981e-07	5.896087e-07	0.02618878	0.006788603	6.504061e-07	3.522091e-06	0.009993554	0.01037245
	0.01026373	0.01009768	6.504061e-07	3.522091e-06	0.026942	0.006243329	8.902415e-07	6.528276e-07
	3.669753e-06	7.723152e-08	0.009993554	0.01037245	8.902415e-07	6.528276e-07	0.02627358	0.006853202
1.9e+08	0.02760605	0.005411125	8.44795e-07	5.59633e-07	0.01106925	0.01002188	3.841221e-06	-2.241773e-07
	8.44795e-07	5.59633e-07	0.02697232	0.006032678	6.732067e-07	3.688301e-06	0.01078416	0.01033651
	0.01106925	0.01002188	6.732067e-07	3.688301e-06	0.02776625	0.005392246	9.277692e-07	6.203798e-07
	3.841221e-06	-2.241773e-07	0.01078416	0.01033651	9.277692e-07	6.203798e-07	0.02705824	0.006095251
2e+08	0.02834921	0.004501233	8.72932e-07	5.24381e-07	0.01185723	0.009872282	3.984847e-06	-5.535152e-07
	8.72932e-07	5.24381e-07	0.02768395	0.005211199	6.937874e-07	3.85307e-06	0.01155932	0.01022931
	0.01185723	0.009872282	6.937874e-07	3.85307e-06	0.02851334	0.004469269	9.589004e-07	5.821448e-07
	3.984847e-06	-5.535152e-07	0.01155932	0.01022931	9.589004e-07	5.821448e-07	0.02777049	0.005271719
2.1e+08	0.02901163	0.003526691	8.945705e-07	4.844235e-07	0.01262097	0.009650724	4.097273e-06	-9.08172e-07
	8.945705e-07	4.844235e-07	0.02831971	0.004330364	7.12e-07	4.016671e-06	0.01231264	0.01005251
	0.01262098	0.009650724	7.12e-07	4.016671e-06	0.02917853	0.003481045	9.829354e-07	5.387461e-07
	4.097273e-06	-9.08172e-07	0.01231264	0.01005251	9.829354e-07	5.387461e-07	0.02840635	0.004388845
2.2e+08	0.02958907	0.002494331	9.091249e-07	4.403996e-07	0.013354	0.009359657	4.175391e-06	-1.285181e-06
	9.091249e-07	4.403996e-07	0.02887598	0.003396576	7.277183e-07	4.179391e-06	0.01303791	0.009808343
	0.013354	0.009359657	7.277183e-07	4.179391e-06	0.02975752	0.002434514	9.992328e-07	4.908823e-07
	4.175391e-06	-1.285181e-06	0.01303791	0.009808343	9.992328e-07	4.908823e-07	0.02896221	0.003453078
2.3e+08	0.0300777	0.001411261	9.160704e-07	3.930115e-07	0.01405004	0.009002106	4.216372e-06	-1.681244e-06
	9.160704e-07	3.930115e-07	0.02934953	0.002416444	7.408399e-07	4.341532e-06	0.01372914	0.009499602
	0.01405004	0.009002106	7.408399e-07	4.341532e-06	0.03024642	0.001336896	1.007217e-06	4.393208e-07
	4.216372e-06	-1.681244e-06	0.01372914	0.009499602	1.007217e-06	4.393208e-07	0.02943486	0.002471077
2.4e+08	0.03047418	0.0002848187	9.149486e-07	3.430193e-07	0.01470315	0.008581653	4.217702e-06	-2.092754e-06
	9.149486e-07	3.430193e-07	0.02973754	0.001396745	7.512886e-07	4.503409e-06	0.01438062	0.009129598
	0.01470315	0.008581653	7.512886e-07	4.503409e-06	0.03064183	0.0001956511	1.006386e-06	3.848928e-07
	4.217702e-06	-2.092754e-06	0.01438062	0.009129598	1.006386e-06	3.848928e-07	0.02982147	0.001449668
2.5e+08	0.03077564	-0.0008774202	9.05374e-07	2.912344e-07	0.01530771	0.008102405	4.177213e-06	-2.515829e-06
	9.05374e-07	2.912344e-07	0.03003764	0.0003444378	7.590159e-07	4.665346e-06	0.01498694	0.008702142
	0.01530771	0.008102405	7.590159e-07	4.665346e-06	0.03094087	-0.0009815155	9.963158e-07	3.284853e-07
	4.177213e-06	-2.515829e-06	0.01498694	0.008702142	9.963158e-07	3.284853e-07	0.03011972	0.0003958569
2.6e+08	0.03097979	-0.002067696	8.870393e-07	2.385131e-07	0.0158585	0.007568963	4.093112e-06	-2.946344e-06
	8.870393e-07	2.385131e-07	0.03024797	-0.0007333897	7.640027e-07	4.827675e-06	0.01554306	0.008221518
	0.0158585	0.007568963	7.640027e-07	4.827675e-06	0.03114117	-0.002186715	9.766695e-07	2.710348e-07
	4.093112e-06	-2.946344e-06	0.01554306	0.008221518	9.766695e-07	2.710348e-07	0.03032772	-0.0006832256
2.7e+08	0.03108486	-0.003278095	8.597195e-07	1.857488e-07	0.01635071	0.006986383	3.964003e-06	-3.379963e-06
	8.597195e-07	1.857488e-07	0.03036711	-0.001829542	7.662601e-07	4.990735e-06	0.01604433	0.007692443
	0.01635071	0.006986383	7.662601e-07	4.990735e-06	0.03124099	-0.003411898	9.471997e-07	2.135183e-07
	3.964003e-06	-3.379963e-06	0.01604433	0.007692443	9.471997e-07	2.135183e-07	0.0304441	-0.00178034
2.8e+08	0.03108968	-0.00450058	8.232767e-07	1.338644e-07	0.01678001	0.006360141	3.788913e-06	-3.812182e-06
	8.232767e-07	1.338644e-07	0.03039418	-0.00293674	7.65831e-07	5.154863e-06	0.01648656	0.007120037
	0.01678001	0.006360141	7.65831e-07	5.154863e-06	0.03123914	-0.004648882	9.07754e-07	1.569454e-07
	3.788913e-06	-3.812182e-06	0.01648656	0.007120037	9.07754e-07	1.569454e-07	0.03046803	-0.002888159
2.9e+08	0.03099367	-0.005727043	7.776627e-07	8.38044e-08	0.01714258	0.005696085	3.567305e-06	-4.238366e-06
	7.776627e-07	8.38044e-08	0.03032883	-0.004047669	7.627903e-07	5.320401e-06	0.01686599	0.006509777
	0.01714258	0.005696085	7.627903e-07	5.320401e-06	0.03113506	-0.005889426	8.582786e-07	1.023493e-07
	3.567305e-06	-4.238366e-06	0.01686599	0.006509777	8.582786e-07	1.023493e-07	0.03039916	-0.003999336
3e+08	0.03079687	-0.006949348	7.22922e-07	3.652629e-08	0.01743512	0.005000392	3.299097e-06	-4.65379e-06
	7.22922e-07	3.652629e-08	0.03017123	-0.005155014	7.572451e-07	5.487683e-06	0.01717938	0.00586746
	0.01743512	0.005000392	7.572451e-07	5.487683e-06	0.03092879	-0.00712525	7.988206e-07	5.077737e-08
	3.299097e-06	-4.65379e-06	0.01717938	0.00586746	7.988206e-07	5.077737e-08	0.03023771	-0.005106513
3.1e+08	0.03049992	-0.008159367	6.591933e-07	-7.008361e-09	0.01765489	0.004279521	2.984669e-06	-5.053685e-06
	6.591933e-07	-7.008361e-09	0.02992209	-0.006251484	7.493355e-07	5.657038e-06	0.01742403	0.005199152
	0.01765489	0.004279521	7.493355e-07	5.657038e-06	0.03062105	-0.008348087	7.295307e-07	3.281601e-09
	2.984669e-06	-5.053685e-06	0.01742403	0.005199152	7.295307e-07	3.281601e-09	0.02998443	-0.00620237
3.2e+08	0.03010409	-0.009349044	5.867107e-07	-4.584253e-08	0.01779976	0.00354016	2.62487e-06	-5.433279e-06
	5.867107e-07	-4.584253e-08	0.02958266	-0.007329879	7.392337e-07	5.828786e-06	0.01759776	0.004511148
	0.01779976	0.00354016	7.392337e-07	5.828786e-06	0.03021314	-0.009549744	6.506636e-07	-3.909099e-08
	2.62487e-06	-5.433279e-06	0.01759776	0.004511148	6.506636e-07	-3.909099e-08	0.02964062	-0.007279671
3.3e+08	0.02961129	-0.01051043	5.058037e-07	-7.903306e-08	0.01786817	0.002789174	2.221021e-06	-5.787843e-06
	5.058037e-07	-7.903306e-08	0.02915475	-0.008383106	7.271439e-07	6.003233e-06	0.01769898	0.003809917
	0.01786817	0.002789174	7.271439e-07	6.003233e-06	0.02970703	-0.01072215	5.625784e-07	-7.530845e-08
	2.221021e-06	-5.787843e-06	0.01769898	0.003809917	5.625784e-07	-7.530845e-08	0.02920811	-0.008331302
3.4e+08	0.02902401	-0.01163574	4.168968e-07	-1.056597e-07	0.01785922	0.002033553	1.774915e-06	-6.112739e-06
	4.168968e-07	-1.056597e-07	0.02864066	-0.009404227	7.133014e-07	6.18067e-06	0.01772665	0.003102054
	0.01785922	0.002033553	7.133014e-07	6.18067e-06	0.02910531	-0.01185737	4.657383e-07	-1.043639e-07
	1.774915e-06	-6.112739e-06	0.01772665	0.003102054	4.657383e-07	-1.043639e-07	0.02868928	-0.009350301
3.5e+08	0.02834539	-0.0127174	3.205077e-07	-1.248342e-07	0.01777259	0.001280353	1.288807e-06	-6.403459e-06
	3.205077e-07	-1.248342e-07	0.02804325	-0.01038651	6.979718e-07	6.361369e-06	0.01768036	0.002394231
	0.01777259	0.001280353	6.979718e-07	6.361369e-06	0.02841119	-0.01294772	3.607082e-07	-1.252855e-07
	1.288807e-06	-6.403459e-06	0.01768036	0.002394231	3.607082e-07	-1.252855e-07	0.02808702	-0.01032992
3.6e+08	0.02757912	-0.01374808	2.172453e-07	-1.357094e-07	0.01760864	0.0005366452	7.65406e-07	-6.655676e-06
	2.172453e-07	-1.357094e-07	0.02736586	-0.01132345	6.81449e-07	6.545579e-06	0.01756025	0.00169314
	0.01760864	0.0005366452	6.81449e-07	6.545579e-06	0.02762848	-0.01398577	2.481529e-07	-1.371463e-07
	7.65406e-07	-6.655676e-06	0.01756025	0.00169314	2.481529e-07	-1.371463e-07	0.02740473	-0.01126363
3.7e+08	0.02672948	-0.01472077	1.078062e-07	-1.374885e-07	0.01736833	-0.0001905432	2.078602e-07	-6.865283e-06
	1.078062e-07	-1.374885e-07	0.02661235	-0.01220884	6.640543e-07	6.733527e-06	0.0173671	0.001005445
	0.01736833	-0.0001905432	6.640543e-07	6.733527e-06	0.02676158	-0.01496439	1.288329e-07	-1.390742e-07
	2.078602e-07	-6.865283e-06	0.0173671	0.001005445	1.288329e-07	-1.390742e-07	0.02664633	-0.01214522
3.8e+08	0.0258013	-0.0156288	-7.029096e-09	-1.294332e-07	0.01705326	-0.0008942849	-3.802615e-07	-7.02844e-06
	-7.029096e-09	-1.294332e-07	0.02578703	-0.01303675	6.461338e-07	6.925409e-06	0.01710225	0.0003377261
	0.01705326	-0.0008942849	6.461338e-07	6.925409e-06	0.02581544	-0.01587682	3.600642e-09	-1.302614e-07
	-3.802615e-07	-7.02844e-06	0.01710225	0.0003377261	3.600642e-09	-1.302614e-07	0.02581617	-0.01296878
3.9e+08	0.02479995	-0.01646591	-1.26401e-07	-1.108725e-07	0.01666565	-0.001567807	-9.949924e-07	-7.141611e-06
	-1.26401e-07	-1.108725e-07	0.02489466	-0.01380165	6.280567e-07	7.121392e-06	0.01676764	-0.0003035689
	0.01666565	-0.001567807	6.280567e-07	7.121392e-06	0.02479555	-0.01671672	-1.266052e-07	-1.099734e-07
	-9.949924e-07	-7.141611e-06	0.01676764	-0.0003035689	-1.266052e-07	-1.099734e-07	0.02491908	-0.01372874
4e+08	0.02373127	-0.01722626	-2.493767e-07	-8.121095e-08	0.01620832	-0.002204546	-1.631995e-06	-7.201608e-06
	-2.493767e-07	-8.121095e-08	0.02394044	-0.01449836	6.102122e-07	7.321611e-06	0.01636576	-0.0009121791
	0.01620832	-0.002204546	6.102122e-07	7.321611e-06	0.02370793	-0.01747818	-2.607661e-07	-7.755831e-08
	-1.631995e-06	-7.201608e-06	0.01636576	-0.0009121791	-2.607661e-07	-7.755831e-08	0.02396031	-0.01441996
4.1e+08	0.02260158	-0.01790449	-3.749568e-07	-3.993563e-08	0.01568468	-0.002798202	-2.28659e-06	-7.205624e-06
	-3.749568e-07	-3.993563e-08	0.02292993	-0.01512214	5.930073e-07	7.526164e-06	0.01589968	-0.001482079
	0.01568468	-0.002798202	5.930073e-07	7.526164e-06	0.02255903	-0.01815579	-3.977903e-07	-3.245449e-08
	-2.28659e-06	-7.205624e-06	0.01589968	-0.001482079	-3.977903e-07	-3.245449e-08	0.02294548	-0.0150377
4.2e+08	0.0214176	-0.01849577	-5.02082e-07	1.337622e-08	0.01509868	-0.003342786	-2.953791e-06	-7.151267e-06
	-5.02082e-07	1.337622e-08	0.0218691	-0.0156687	5.76863e-07	7.735113e-06	0.01537298	-0.002007525
	0.01509868	-0.003342786	5.76863e-07	7.735113e-06	0.02135574	-0.01874467	-5.365212e-07	2.580134e-08
	-2.953791e-06	-7.151267e-06	0.01537298	-0.002007525	-5.365212e-07	2.580134e-08	0.0218806	-0.01557768
4.3e+08	0.02018646	-0.01899581	-6.29642e-07	7.905098e-08	0.01445483	-0.003832676	-3.628343e-06	-7.036595e-06
	-6.29642e-07	7.905098e-08	0.02076417	-0.01613421	5.622117e-07	7.948481e-06	0.01478975	-0.002483105
	0.01445483	-0.003832676	5.622117e-07	7.948481e-06	0.02010534	-0.0192405	-6.75746e-07	9.756715e-08
	-3.628343e-06	-7.036595e-06	0.01478975	-0.002483105	-6.75746e-07	9.756715e-08	0.02077197	-0.01603611
4.4e+08	0.0189156	-0.0194009	-7.564832e-07	1.573129e-07	0.0137581	-0.004262656	-4.30476e-06	-6.860142e-06
	-7.564832e-07	1.573129e-07	0.01962172	-0.01651538	5.494931e-07	8.166249e-06	0.01415455	-0.002903781
	0.0137581	-0.004262656	5.494931e-07	8.166249e-06	0.01881546	-0.01963956	-8.142052e-07	1.830894e-07
	-4.30476e-06	-6.860142e-06	0.01415455	-0.002903781	-8.142052e-07	1.830894e-07	0.0196262	-0.01640972
4.5e+08	0.01761277	-0.01970793	-8.814188e-07	2.482789e-07	0.01301397	-0.004627966	-4.977372e-06	-6.620941e-06
	-8.814188e-07	2.482789e-07	0.01844853	-0.01680941	5.391508e-07	8.388357e-06	0.0134724	-0.00326493
	0.01301397	-0.004627966	5.391508e-07	8.388357e-06	0.01749401	-0.01993875	-9.506027e-07	2.824975e-07
	-4.977372e-06	-6.620941e-06	0.0134724	-0.00326493	-9.506027e-07	2.824975e-07	0.01845012	-0.01669574
4.6e+08	0.01628595	-0.01991446	-1.003239e-06	3.519548e-07	0.01222829	-0.004924338	-5.640364e-06	-6.318547e-06
	-1.003239e-06	3.519548e-07	0.0172516	-0.01701408	5.31628e-07	8.614703e-06	0.01274871	-0.003562382
	0.01222829	-0.004924338	5.31628e-07	8.614703e-06	0.01614915	-0.02013563	-1.083617e-06	3.957994e-07
	-5.640364e-06	-6.318547e-06	0.01274871	-0.003562382	-1.083617e-06	3.957994e-07	0.01725079	-0.01689198
4.7e+08	0.01494332	-0.02001865	-1.120719e-06	4.682316e-07	0.01140732	-0.005148036	-6.287833e-06	-5.953051e-06
	-1.120719e-06	4.682316e-07	0.0160381	-0.01712771	5.273646e-07	8.84514e-06	0.01198924	-0.003792454
	0.01140732	-0.005148036	5.273646e-07	8.84514e-06	0.01478921	-0.02022839	-1.21191e-06	5.228808e-07
	-6.287833e-06	-5.953051e-06	0.01198924	-0.003792454	-1.21191e-06	5.228808e-07	0.01603538	-0.0169968
4.8e+08	0.01359319	-0.02001936	-1.232633e-06	5.968837e-07	0.01055764	-0.005295884	-6.913828e-06	-5.525096e-06
	-1.232633e-06	5.968837e-07	0.01481528	-0.01714921	5.267904e-07	9.079479e-06	0.01120008	-0.003951987
	0.01055764	-0.005295884	5.267904e-07	9.079479e-06	0.01342269	-0.02021596	-1.334144e-06	6.634946e-07
