!$
! Info: Touchstone file created by Circ.  Input file=Tx_4in_Rx_85ohms_TxVia_60mils_RxVia_70mils.circ
!$
# Hz S RI R 50
0	0.003365219	7.258618e-26	-2.912932e-11	8.765739e-27	4.213063e-05	6.396957e-24	-3.221808e-09	4.004565e-25
	-2.913009e-11	8.765848e-27	0.003360763	8.539907e-26	4.421436e-11	1.487612e-27	4.183211e-05	8.083077e-24
	4.321499e-05	6.439737e-24	4.421012e-11	1.488126e-27	0.003380803	7.254561e-26	-7.913359e-12	7.74395e-27
	-3.22168e-09	4.004408e-25	4.210206e-05	8.117739e-24	-8.008414e-12	7.755542e-27	0.003375352	8.499668e-26
1e+07	0.004590478	-0.003395427	5.028828e-11	1.608468e-10	8.350454e-05	0.0009533803	-4.999427e-09	7.559916e-09
	5.028828e-11	1.608468e-10	0.00457957	-0.003329509	6.017414e-11	1.810818e-10	0.0001130542	0.0009510927
	8.35356e-05	0.0009533846	6.017414e-11	1.810818e-10	0.005140743	-0.003243554	-5.411549e-09	9.722249e-09
	-4.999427e-09	7.559916e-09	0.0001130564	0.0009510903	-5.411549e-09	9.722249e-09	0.004581483	-0.003320704
2e+07	0.005292881	-0.007908321	5.022753e-11	3.064824e-10	0.0002159839	0.00189562	2.344744e-11	-5.186381e-11
	5.022753e-11	3.064824e-10	0.005329757	-0.007795449	6.146599e-11	3.434393e-10	0.0002560106	0.001866984
	0.0002159977	0.001895601	6.146599e-11	3.434393e-10	0.005862271	-0.007851406	1.692862e-11	6.495637e-10
	2.344745e-11	-5.186381e-11	0.0002560072	0.001866985	1.692863e-11	6.495637e-10	0.005335101	-0.007774795
3e+07	0.005237525	-0.01291299	2.322287e-11	4.588282e-10	0.0004508106	0.00279488	2.458278e-11	5.098127e-10
	2.322287e-11	4.588282e-10	0.005299942	-0.01278518	3.709369e-11	5.099479e-10	0.0004712948	0.002758104
	0.0004508114	0.002794877	3.709369e-11	5.09948e-10	0.005821032	-0.01289386	3.511652e-11	5.609905e-10
	2.458278e-11	5.098127e-10	0.0004712945	0.002758106	3.511652e-11	5.609905e-10	0.005307359	-0.01275584
4e+07	0.004572179	-0.01803417	-9.669208e-12	6.110091e-10	0.000758431	0.003660496	-4.227466e-12	7.151136e-10
	-9.669207e-12	6.110091e-10	0.004643791	-0.01790046	6.003902e-12	6.772422e-10	0.0007581615	0.003620987
	0.000758435	0.0036605	6.003901e-12	6.772422e-10	0.005165883	-0.01804677	-2.394335e-12	7.198564e-10
	-4.227465e-12	7.151136e-10	0.0007581622	0.003620988	-2.394335e-12	7.198564e-10	0.004652506	-0.0178636
5e+07	0.00335661	-0.02315331	-5.314968e-11	7.670432e-10	0.001136563	0.004488204	-5.265216e-11	8.872374e-10
	-5.314968e-11	7.670432e-10	0.003423409	-0.02301655	-3.576546e-11	8.478828e-10	0.001114056	0.004449955
	0.001136566	0.004488206	-3.576546e-11	8.478828e-10	0.003957054	-0.02319678	-5.042472e-11	9.098365e-10
	-5.265216e-11	8.872374e-10	0.001114057	0.004449955	-5.042472e-11	9.098365e-10	0.003432414	-0.0229727
6e+07	0.001628115	-0.02819531	-1.076348e-10	9.292751e-10	0.001581697	0.005272584	-1.152741e-10	1.064111e-09
	-1.076348e-10	9.292751e-10	0.001678048	-0.02805541	-8.878803e-11	1.024152e-09	0.001535497	0.005239249
	0.001581693	0.005272583	-8.878803e-11	1.024152e-09	0.002231954	-0.02827019	-1.092496e-10	1.108688e-09
	-1.152741e-10	1.064111e-09	0.001535499	0.005239249	-1.092496e-10	1.108688e-09	0.001686495	-0.02800474
7e+07	-0.0005836841	-0.03310228	-1.726939e-10	1.099906e-09	0.002089583	0.006008109	-1.883775e-10	1.254545e-09
	-1.726939e-10	1.099906e-09	-0.0005615126	-0.03295766	-1.528018e-10	1.208246e-09	0.00201841	0.005983337
	0.002089572	0.00600811	-1.528018e-10	1.208246e-09	2.016009e-05	-0.03320969	-1.80277e-10	1.314125e-09
	-1.883775e-10	1.254545e-09	0.002018412	0.005983337	-1.80277e-10	1.314125e-09	-0.000554417	-0.03290025
8e+07	-0.003251589	-0.03782515	-2.474607e-10	1.281069e-09	0.002655349	0.006689449	-2.689165e-10	1.461616e-09
	-2.474607e-10	1.281069e-09	-0.003267497	-0.03767329	-2.271348e-10	1.402311e-09	0.002558199	0.006677037
	0.002655334	0.006689452	-2.271348e-10	1.402311e-09	-0.002651333	-0.03796668	-2.643427e-10	1.527576e-09
	-2.689165e-10	1.461616e-09	0.002558201	0.006677037	-2.643427e-10	1.527576e-09	-0.003262627	-0.03760915
9e+07	-0.006348286	-0.04232012	-3.308515e-10	1.474916e-09	0.003273551	0.007311652	-3.542214e-10	1.68678e-09
	-3.308515e-10	1.474916e-09	-0.006412425	-0.04215826	-3.109553e-10	1.608494e-09	0.00314981	0.007315722
	0.00327354	0.007311656	-3.109553e-10	1.608494e-09	-0.005755726	-0.04249822	-3.619664e-10	1.75156e-09
	-3.542214e-10	1.68678e-09	0.003149811	0.007315721	-3.619664e-10	1.75156e-09	-0.006410746	-0.04208724
1e+08	-0.009843736	-0.04654413	-4.222748e-10	1.684579e-09	0.003938344	0.007870494	-4.424247e-10	1.931662e-09
	-4.222748e-10	1.684579e-09	-0.009968357	-0.04637442	-4.04564e-10	1.829902e-09	0.003788265	0.007896485
	0.003938344	0.007870493	-4.04564e-10	1.829902e-09	-0.009265478	-0.04676623	-4.747291e-10	1.990589e-09
	-4.424247e-10	1.931662e-09	0.003788265	0.007896485	-4.747291e-10	1.990589e-09	-0.009970922	-0.04629624
1.1e+08	-0.01369463	-0.05047804	-5.128014e-10	1.911995e-09	0.004644097	0.008361258	-5.33597e-10	2.180813e-09
	-5.128014e-10	1.911995e-09	-0.01390873	-0.05027971	-4.922771e-10	2.068191e-09	0.004472052	0.008410527
	0.004644097	0.008361258	-4.922771e-10	2.068191e-09	-0.01315268	-0.05073325	-5.759391e-10	2.255678e-09
	-5.33597e-10	2.180813e-09	0.00447205	0.008410527	-5.759391e-10	2.255678e-09	-0.01391662	-0.05019344
1.2e+08	-0.01789128	-0.05409103	-6.000005e-10	2.145736e-09	0.005382631	0.008780657	-6.258176e-10	2.442762e-09
	-6.000005e-10	2.145736e-09	-0.01819321	-0.05384215	-5.759915e-10	2.314637e-09	0.005187564	0.008854408
	0.005382631	0.008780657	-5.759915e-10	2.314637e-09	-0.01738305	-0.05436808	-6.730514e-10	2.527735e-09
	-6.258176e-10	2.442762e-09	0.005187562	0.008854409	-6.730514e-10	2.527735e-09	-0.01820692	-0.05374677
1.3e+08	-0.02239955	-0.05735016	-6.869603e-10	2.392068e-09	0.00614708	0.009126508	-7.186715e-10	2.71999e-09
	-6.869603e-10	2.392068e-09	-0.02278869	-0.05703568	-6.602367e-10	2.57431e-09	0.005928736	0.009227418
	0.00614708	0.009126508	-6.602367e-10	2.57431e-09	-0.02192427	-0.05764367	-7.700931e-10	2.813949e-09
	-7.186715e-10	2.71999e-09	0.005928734	0.009227419	-7.700931e-10	2.813949e-09	-0.02280866	-0.05693021
1.4e+08	-0.02718517	-0.06022969	-7.725985e-10	2.652488e-09	0.006930279	0.009397039	-8.101042e-10	3.012523e-09
	-7.725985e-10	2.652488e-09	-0.02766007	-0.05983603	-7.441162e-10	2.848456e-09	0.006688878	0.009528137
	0.006930279	0.009397038	-7.441162e-10	2.848456e-09	-0.02674238	-0.06053563	-8.657385e-10	3.116048e-09
	-8.101042e-10	3.012523e-09	0.006688877	0.009528138	-8.657385e-10	3.116048e-09	-0.02768663	-0.05971946
1.5e+08	-0.03221274	-0.06270775	-8.558453e-10	2.927538e-09	0.007724926	0.009591137	-8.986584e-10	3.321012e-09
	-8.558453e-10	2.927538e-09	-0.03277086	-0.06222207	-8.258643e-10	3.137224e-09	0.007461127	0.009755603
	0.007724926	0.009591137	-8.258643e-10	3.137224e-09	-0.03180202	-0.06302275	-9.588479e-10	3.434705e-09
	-8.986584e-10	3.321012e-09	0.007461126	0.009755604	-9.588479e-10	3.434705e-09	-0.03280421	-0.06209332
1.6e+08	-0.03744576	-0.06476601	-9.349924e-10	3.217228e-09	0.008523666	0.009708383	-9.824628e-10	3.645479e-09
	-9.349924e-10	3.217228e-09	-0.03808341	-0.06417604	-9.037658e-10	3.440624e-09	0.008238554	0.009909442
	0.008523666	0.009708383	-9.037658e-10	3.440624e-09	-0.03706671	-0.06508711	-1.04747e-09	3.769922e-09
	-9.824628e-10	3.645479e-09	0.008238554	0.009909442	-1.04747e-09	3.769922e-09	-0.03812361	-0.06403398
1.7e+08	-0.04284686	-0.06638956	-1.008342e-09	3.521409e-09	0.009319171	0.009749054	-1.059649e-09	3.985761e-09
	-1.008342e-09	3.521409e-09	-0.04355916	-0.06568357	-9.761271e-10	3.758513e-09	0.009014245	0.009989904
	0.009319171	0.009749054	-9.761271e-10	3.758513e-09	-0.04249905	-0.06671407	-1.129672e-09	4.121532e-09
	-1.059649e-09	3.985761e-09	0.009014245	0.009989904	-1.129672e-09	4.121532e-09	-0.04360613	-0.06552704
1.8e+08	-0.048378	-0.06756687	-1.074214e-09	3.839769e-09	0.01010421	0.009714117	-1.128364e-09	4.341514e-09
	-1.074214e-09	3.839769e-09	-0.04915887	-0.0667337	-1.041279e-09	4.090586e-09	0.009781372	0.00999787
	0.01010421	0.009714117	-1.041279e-09	4.090586e-09	-0.04806095	-0.06789232	-1.203545e-09	4.489186e-09
	-1.128364e-09	4.341514e-09	0.009781372	0.00999787	-1.203545e-09	4.489186e-09	-0.0492124	-0.06656154
1.9e+08	-0.05400074	-0.06828978	-1.130957e-09	4.171832e-09	0.0108717	0.009605214	-1.186785e-09	4.712203e-09
	-1.130957e-09	4.171832e-09	-0.05484292	-0.06731892	-1.097588e-09	4.436376e-09	0.01053326	0.009934842
	0.0108717	0.009605214	-1.097588e-09	4.436376e-09	-0.05371389	-0.06861383	-1.267217e-09	4.872347e-09
	-1.186785e-09	4.712203e-09	0.01053326	0.009934842	-1.267217e-09	4.872347e-09	-0.05490265	-0.06712996
2e+08	-0.05967644	-0.06855341	-1.176965e-09	4.516954e-09	0.01161481	0.009424633	-1.233136e-09	5.097107e-09
	-1.176965e-09	4.516954e-09	-0.06057156	-0.06743512	-1.143464e-09	4.795257e-09	0.01126344	0.009802919
	0.01161481	0.009424633	-1.143464e-09	4.795257e-09	-0.05941916	-0.06887389	-1.318862e-09	5.270292e-09
	-1.233136e-09	5.097107e-09	0.01126344	0.009802919	-1.318862e-09	5.270292e-09	-0.06063698	-0.06722821
2.1e+08	-0.06536654	-0.06835618	-1.210689e-09	4.874328e-09	0.01232699	0.009175279	-1.265708e-09	5.495322e-09
	-1.210689e-09	4.874328e-09	-0.06630516	-0.06708153	-1.177378e-09	5.166441e-09	0.01196571	0.009604772
	0.01232699	0.009175279	-1.177378e-09	5.166441e-09	-0.06513813	-0.06867102	-1.356726e-09	5.682113e-09
	-1.265708e-09	5.495322e-09	0.01196571	0.009604772	-1.356726e-09	5.682113e-09	-0.0663756	-0.06685557
2.2e+08	-0.07103278	-0.06769969	-1.230654e-09	5.242989e-09	0.01300203	0.008860637	-1.28287e-09	5.905763e-09
	-1.230654e-09	5.242989e-09	-0.07200445	-0.06626072	-1.197877e-09	5.54899e-09	0.0126342	0.009343612
	0.01300203	0.008860637	-1.197877e-09	5.54899e-09	-0.07083247	-0.06800694	-1.379135e-09	6.106721e-09
	-1.28287e-09	5.905763e-09	0.0126342	0.009343612	-1.379135e-09	6.106721e-09	-0.07207913	-0.06601465
2.3e+08	-0.07663745	-0.06658865	-1.235475e-09	5.62182e-09	0.0136341	0.008484729	-1.283094e-09	6.327177e-09
	-1.235475e-09	5.62182e-09	-0.07763083	-0.06497843	-1.20359e-09	5.941818e-09	0.01326338	0.009023145
	0.0136341	0.008484729	-1.20359e-09	5.941818e-09	-0.07646438	-0.06688647	-1.384514e-09	6.542857e-09
	-1.283094e-09	6.327177e-09	0.01326338	0.009023145	-1.384514e-09	6.542857e-09	-0.0777088	-0.06471126
2.4e+08	-0.08214361	-0.06503086	-1.223867e-09	6.009558e-09	0.01421782	0.008052068	-1.264967e-09	6.758145e-09
	-1.223867e-09	6.009558e-09	-0.08314653	-0.06324357	-1.19325e-09	6.3437e-09	0.01384814	0.008647538
	0.01421782	0.008052068	-1.19325e-09	6.3437e-09	-0.08199685	-0.06531748	-1.371407e-09	6.989095e-09
	-1.264967e-09	6.758145e-09	0.01384814	0.008647538	-1.371407e-09	6.989095e-09	-0.08322673	-0.0629544
2.5e+08	-0.08751532	-0.06303698	-1.194664e-09	6.404806e-09	0.01474828	0.007567615	-1.227208e-09	7.197096e-09
	-1.194664e-09	6.404806e-09	-0.0885149	-0.06106803	-1.165701e-09	6.753281e-09	0.01438379	0.00822137
	0.01474828	0.007567615	-1.165701e-09	6.753281e-09	-0.08739388	-0.06331076	-1.338488e-09	7.443856e-09
	-1.227208e-09	7.197096e-09	0.01438379	0.00822137	-1.338488e-09	7.443856e-09	-0.08859616	-0.06075606
2.6e+08	-0.09271784	-0.06062056	-1.146827e-09	6.806043e-09	0.01522107	0.00703672	-1.168682e-09	7.642323e-09
	-1.146827e-09	6.806043e-09	-0.09370061	-0.05846662	-1.119914e-09	7.169084e-09	0.01486613	0.007749587
	0.01522107	0.00703672	-1.119914e-09	7.169084e-09	-0.09262065	-0.06087993	-1.28458e-09	7.90542e-09
	-1.168682e-09	7.642323e-09	0.01486613	0.007749587	-1.28458e-09	7.90542e-09	-0.09378166	-0.05813115
2.7e+08	-0.09771785	-0.05779777	-1.079461e-09	7.211634e-09	0.01563232	0.006465077	-1.088416e-09	8.091988e-09
	-1.079461e-09	7.211634e-09	-0.09866987	-0.05545688	-1.054992e-09	7.589527e-09	0.01529143	0.007237451
	0.01563232	0.006465077	-1.054992e-09	7.589527e-09	-0.09764378	-0.05804129	-1.208664e-09	8.371935e-09
	-1.088416e-09	8.091988e-09	0.01529143	0.007237451	-1.208664e-09	8.371935e-09	-0.09874931	-0.05509733
2.8e+08	-0.1024836	-0.05458737	-9.918231e-10	7.619842e-09	0.01597872	0.00585867	-9.856096e-10	8.544145e-09
	-9.918231e-10	7.619842e-09	-0.1033906	-0.05205892	-9.701885e-10	8.012928e-09	0.01565648	0.006690497
	0.01597872	0.00585867	-9.701885e-10	8.012928e-09	-0.1024315	-0.05481366	-1.109898e-09	8.841436e-09
	-9.856096e-10	8.544145e-09	0.01565648	0.006690497	-1.109898e-09	8.841436e-09	-0.103467	-0.05167487
2.9e+08	-0.1069852	-0.05101047	-8.833333e-10	8.028847e-09	0.0162575	0.005223714	-8.596511e-10	8.996749e-09
	-8.833333e-10	8.028847e-09	-0.1078326	-0.04829532	-8.649095e-10	8.437519e-09	0.0159586	0.006114479
	0.0162575	0.005223714	-8.649095e-10	8.437519e-09	-0.1069537	-0.05121828	-9.876244e-10	9.311859e-09
	-8.596511e-10	8.996749e-09	0.0159586	0.006114479	-9.876244e-10	9.311859e-09	-0.1079044	-0.04788646
3e+08	-0.1111945	-0.04709044	-7.535838e-10	8.436755e-09	0.01646651	0.004566611	-7.101226e-10	9.447679e-09
	-7.535838e-10	8.436755e-09	-0.1119679	-0.04419087	-7.387256e-10	8.861468e-09	0.01619563	0.005515325
	0.01646651	0.004566611	-7.387256e-10	8.861468e-09	-0.1111823	-0.04727859	-8.413818e-10	9.781059e-09
	-7.101226e-10	9.447679e-09	0.01619563	0.005515325	-8.413818e-10	9.781059e-09	-0.1120334	-0.04375706
3.1e+08	-0.1150856	-0.04285265	-6.024309e-10	8.841618e-09	0.01660416	0.003893889	-5.368109e-10	9.894756e-09
	-6.024309e-10	8.841618e-09	-0.1157704	-0.03977243	-5.915145e-10	9.282852e-09	0.01636594	0.004899087
	0.01660416	0.003893889	-5.915145e-10	9.282852e-09	-0.1150914	-0.04302008	-6.709122e-10	1.024683e-08
	-5.368109e-10	9.894756e-09	0.01636594	0.004899087	-6.709122e-10	1.024683e-08	-0.1158281	-0.03931369
3.2e+08	-0.1186348	-0.0383244	-4.299156e-10	9.241468e-09	0.01666945	0.003212155	-3.397131e-10	1.033576e-08
	-4.299156e-10	9.241468e-09	-0.1192168	-0.03506874	-4.233382e-10	9.699735e-09	0.01646848	0.004271895
	0.01666945	0.003212155	-4.233382e-10	9.699735e-09	-0.1186572	-0.03847015	-4.761686e-10	1.070692e-08
	-3.397131e-10	1.033576e-08	0.01646848	0.004271895	-4.761686e-10	1.070692e-08	-0.119265	-0.03458524
3.3e+08	-0.1218206	-0.03353461	-2.360132e-10	9.634299e-09	0.01666198	0.002528047	-1.190447e-10	1.076845e-08
	-2.360132e-10	9.634299e-09	-0.1222859	-0.03011021	-2.340208e-10	1.011023e-08	0.01650269	0.003639913
	0.01666198	0.002528047	-2.340208e-10	1.011023e-08	-0.1218582	-0.03365782	-2.573254e-10	1.115905e-08
	-1.190447e-10	1.076845e-08	0.01650269	0.003639913	-2.573254e-10	1.115905e-08	-0.122323	-0.02960229
3.4e+08	-0.1246241	-0.02851373	-2.105795e-11	1.00181e-08	0.01658193	0.001848179	1.247602e-10	1.119058e-08
	-2.105795e-11	1.00181e-08	-0.1249592	-0.02492868	-2.408444e-11	1.051237e-08	0.01646857	0.003009295
	0.01658193	0.001848179	-2.408444e-11	1.051237e-08	-0.1246754	-0.02861364	-1.492162e-11	1.160097e-08
	1.247602e-10	1.119058e-08	0.01646857	0.003009295	-1.492162e-11	1.160097e-08	-0.1249835	-0.02439686
3.5e+08	-0.1270288	-0.02329349	2.144173e-10	1.039088e-08	0.01643002	0.001179099	3.910503e-10	1.159994e-08
	2.144173e-10	1.039088e-08	-0.1272211	-0.01955728	2.060876e-10	1.090423e-08	0.01636664	0.00238614
	0.01643002	0.001179099	2.060876e-10	1.090423e-08	-0.1270923	-0.02336944	2.50484e-10	1.203042e-08
	3.910503e-10	1.159994e-08	0.01636664	0.00238614	2.50484e-10	1.203042e-08	-0.127231	-0.01900222
3.6e+08	-0.129021	-0.0179067	4.696838e-10	1.075065e-08	0.01620757	0.000527242	6.789524e-10	1.199435e-08
	4.696838e-10	1.075065e-08	-0.1290583	-0.01403014	4.560141e-10	1.128388e-08	0.01619792	0.001776456
	0.01620757	0.000527242	4.560141e-10	1.128388e-08	-0.1290951	-0.01795814	5.381576e-10	1.244517e-08
	6.789524e-10	1.199435e-08	0.01619792	0.001776456	5.381576e-10	1.244517e-08	-0.1290522	-0.0134527
3.7e+08	-0.1305893	-0.01238705	7.438229e-10	1.109551e-08	0.01591643	-0.0001011101	9.873784e-10	1.237171e-08
	7.438229e-10	1.109551e-08	-0.1304606	-0.008382243	7.248623e-10	1.164943e-08	0.01596395	0.00118612
	0.01591643	-0.0001011101	7.248623e-10	1.164943e-08	-0.1306725	-0.01241355	8.470471e-10	1.284304e-08
	9.873784e-10	1.237171e-08	0.01596395	0.00118612	8.470471e-10	1.284304e-08	-0.130437	-0.007783403
3.8e+08	-0.1317253	-0.006768937	1.035728e-09	1.142362e-08	0.01555894	-0.0006998736	1.31503e-09	1.272998e-08
	1.035728e-09	1.142362e-08	-0.1314206	-0.002649141	1.011616e-09	1.199904e-08	0.01566674	0.0006208386
	0.01555894	-0.0006998736	1.011616e-09	1.199904e-08	-0.1318161	-0.006770146	1.175885e-09	1.322196e-08
	1.31503e-09	1.272998e-08	0.01566674	0.0006208387	1.175885e-09	1.322196e-08	-0.131378	-0.00203007
3.9e+08	-0.1324233	-0.001087199	1.344108e-09	1.17332e-08	0.015138	-0.001263199	1.660404e-09	1.306726e-08
	1.344108e-09	1.17332e-08	-0.1319336	0.003133215	1.315077e-09	1.233095e-08	0.01530875	8.611894e-05
	0.015138	-0.001263199	1.315077e-09	1.233095e-08	-0.1325201	-0.001062893	1.523197e-09	1.357993e-08
	1.660404e-09	1.306726e-08	0.01530875	8.611895e-05	1.523197e-09	1.357993e-08	-0.1318707	0.003771205
4e+08	-0.1326802	0.004623044	1.667497e-09	1.202261e-08	0.01465695	-0.001785509	2.021806e-09	1.338175e-08
	1.667497e-09	1.202261e-08	-0.131998	0.00892871	1.633877e-09	1.26435e-08	0.01489291	-0.00041277
	0.01465695	-0.001785509	1.633877e-09	1.26435e-08	-0.1327815	0.004672989	1.887308e-09	1.39151e-08
	2.021806e-09	1.338175e-08	0.01489291	-0.00041277	1.887308e-09	1.39151e-08	-0.1319135	0.009584165
4.1e+08	-0.1324958	0.01032662	2.004262e-09	1.22903e-08	0.0141196	-0.002261535	2.397354e-09	1.36718e-08
	2.004262e-09	1.22903e-08	-0.1316147	0.01470129	1.966474e-09	1.293512e-08	0.01442256	-0.0008708263
	0.0141196	-0.002261535	1.966474e-09	1.293512e-08	-0.1326	0.01040222	2.266351e-09	1.422574e-08
	2.397354e-09	1.36718e-08	0.01442256	-0.0008708262	2.266351e-09	1.422574e-08	-0.1315076	0.01537262
4.2e+08	-0.1318726	0.01598849	2.352614e-09	1.25349e-08	0.01353019	-0.002686345	2.785e-09	1.393594e-08
	2.352614e-09	1.25349e-08	-0.1307879	0.02041517	2.311172e-09	1.320438e-08	0.01390146	-0.001283345
	0.01353019	-0.002686345	2.311172e-09	1.320438e-08	-0.1319782	0.01608967	2.658285e-09	1.451028e-08
	2.785e-09	1.393594e-08	0.01390146	-0.001283345	2.658285e-09	1.451028e-08	-0.130657	0.02110066
4.3e+08	-0.1308157	0.021574	2.710617e-09	1.275514e-08	0.01289337	-0.003055382	3.182539e-09	1.417285e-08
	2.710617e-09	1.275514e-08	-0.1295242	0.02603503	2.666122e-09	1.344998e-08	0.01333371	-0.001645947
	0.01289337	-0.003055382	2.666122e-09	1.344998e-08	-0.1309213	0.02170055	3.060904e-09	1.476734e-08
	3.182539e-09	1.417285e-08	0.01333371	-0.001645947	3.060904e-09	1.476734e-08	-0.1293688	0.02673285
4.4e+08	-0.1293332	0.02704899	3.076205e-09	1.294996e-08	0.01221416	-0.003364489	3.587626e-09	1.438142e-08
	3.076205e-09	1.294996e-08	-0.1278331	0.03152626	3.029338e-09	1.367079e-08	0.01272382	-0.001954606
	0.01221416	-0.003364489	3.029338e-09	1.367079e-08	-0.1294372	0.02720063	3.471854e-09	1.499572e-08
	3.587626e-09	1.438142e-08	0.01272382	-0.001954606	3.471854e-09	1.499572e-08	-0.1276525	0.03223449
4.5e+08	-0.1274356	0.03238011	3.447195e-09	1.311846e-08	0.01149792	-0.003609937	3.997794e-09	1.456077e-08
	3.447195e-09	1.311846e-08	-0.1257269	0.03685512	3.398709e-09	1.386582e-08	0.01207657	-0.002205675
	0.01149792	-0.003609937	3.398709e-09	1.386582e-08	-0.1275365	0.03255644	3.888651e-09	1.519444e-08
	3.997794e-09	1.456077e-08	0.01207657	-0.002205675	3.888651e-09	1.519444e-08	-0.1255206	0.03757175
4.6e+08	-0.1251358	0.0375349	3.821303e-09	1.325993e-08	0.01075032	-0.003788451	4.410477e-09	1.47102e-08
	3.821303e-09	1.325993e-08	-0.1232203	0.041989	3.772011e-09	1.40343e-08	0.01139707	-0.002395908
	0.01075032	-0.003788451	3.772011e-09	1.40343e-08	-0.1252323	0.03773543	4.308698e-09	1.536273e-08
	4.410477e-09	1.47102e-08	0.01139707	-0.002395908	4.308698e-09	1.536273e-08	-0.122988	0.04271194
4.7e+08	-0.1224495	0.04248206	4.196159e-09	1.337387e-08	0.009977308	-0.003897236	4.823022e-09	1.482927e-08
	4.196159e-09	1.337387e-08	-0.1203307	0.04689653	4.146928e-09	1.417563e-08	0.0106907	-0.002522485
	0.009977308	-0.003897236	4.146928e-09	1.417563e-08	-0.1225402	0.0427062	4.729305e-09	1.550005e-08
	4.823022e-09	1.482927e-08	0.0106907	-0.002522485	4.729305e-09	1.550005e-08	-0.1200722	0.04762367
4.8e+08	-0.1193947	0.0471916	4.56933e-09	1.345999e-08	0.009185066	-0.003933998	5.232719e-09	1.491778e-08
