!$
! Info: Touchstone file created by Circ.  Input file=Tx_4in_Rx_85ohms_TxVia_60mils_RxVia_70mils.circ
!$
# Hz S RI R 50
0	0.003365017	7.338342e-26	1.672875e-09	1.169001e-27	4.271309e-05	6.504407e-24	-1.39974e-10	6.351395e-26
	1.672889e-09	1.169005e-27	0.003360763	8.539907e-26	4.549347e-09	3.937595e-27	4.183211e-05	8.083077e-24
	4.184459e-05	6.475374e-24	4.549347e-09	3.937598e-27	0.003378945	7.422668e-26	3.757418e-09	1.235913e-27
	-1.396814e-10	6.347812e-26	4.210206e-05	8.117739e-24	3.757335e-09	1.235893e-27	0.003375352	8.499668e-26
1e+07	0.004570442	-0.003328419	2.060198e-09	3.873997e-09	0.0001145591	0.0009499813	-4.150605e-09	1.14901e-08
	2.060198e-09	3.873997e-09	0.00457957	-0.003329509	6.459568e-09	1.355334e-08	0.0001130542	0.0009510927
	0.0001145436	0.0009499949	6.459568e-09	1.355334e-08	0.00459952	-0.003313371	-2.404812e-09	1.230694e-08
	-4.150605e-09	1.14901e-08	0.0001130564	0.0009510903	-2.404812e-09	1.230694e-08	0.004581483	-0.003320704
2e+07	0.005337637	-0.007788978	2.647028e-09	7.104142e-09	0.0002619094	0.001864295	1.496425e-09	4.155468e-09
	2.647028e-09	7.104142e-09	0.005329757	-0.007795449	8.348709e-09	2.421731e-08	0.0002560106	0.001866984
	0.0002619163	0.001864303	8.348709e-09	2.421731e-08	0.005366221	-0.007765454	-3.500848e-10	6.278413e-09
	1.496425e-09	4.155468e-09	0.0002560072	0.001866985	-3.500847e-10	6.278412e-09	0.005335101	-0.007774795
3e+07	0.00533342	-0.0127793	3.148251e-09	1.000636e-08	0.0004843828	0.00275299	2.317999e-09	6.47354e-09
	3.148251e-09	1.000636e-08	0.005299942	-0.01278518	9.372883e-09	3.447483e-08	0.0004712948	0.002758104
	0.0004843838	0.00275299	9.372883e-09	3.447483e-08	0.005362702	-0.01274466	2.960114e-09	9.984365e-09
	2.317999e-09	6.47354e-09	0.0004712945	0.002758106	2.960114e-09	9.984365e-09	0.005307359	-0.01275584
4e+07	0.004711745	-0.01789934	3.609242e-09	1.289557e-08	0.0007810971	0.003612206	2.848125e-09	8.318072e-09
	3.609242e-09	1.289557e-08	0.004643791	-0.01790046	1.010762e-08	4.46312e-08	0.0007581615	0.003620987
	0.0007810958	0.003612207	1.010762e-08	4.46312e-08	0.004742593	-0.01785338	3.486516e-09	1.308693e-08
	2.848125e-09	8.318072e-09	0.0007581622	0.003620988	3.486516e-09	1.308693e-08	0.004652506	-0.0178636
5e+07	0.003534382	-0.02302584	4.058367e-09	1.574202e-08	0.001149292	0.004435906	3.35972e-09	1.006482e-08
	4.058367e-09	1.574202e-08	0.003423409	-0.02301655	1.058171e-08	5.473075e-08	0.001114056	0.004449955
	0.00114929	0.004435906	1.058171e-08	5.473075e-08	0.003567509	-0.0229688	3.786538e-09	1.594263e-08
	3.35972e-09	1.006482e-08	0.001114057	0.004449955	3.786538e-09	1.594263e-08	0.003432414	-0.0229727
6e+07	0.001839493	-0.02808173	4.50073e-09	1.853511e-08	0.00158525	0.005218017	3.889837e-09	1.173771e-08
	4.50073e-09	1.853511e-08	0.001678048	-0.02805541	1.083275e-08	6.481858e-08	0.001535497	0.005239249
	0.001585248	0.005218016	1.083275e-08	6.481858e-08	0.001875419	-0.028014	4.033495e-09	1.874446e-08
	3.889837e-09	1.173771e-08	0.001535499	0.005239249	4.033495e-09	1.874446e-08	0.001686495	-0.02800474
7e+07	-0.0003429711	-0.03300819	4.933272e-09	2.127315e-08	0.002084642	0.005952726	4.440562e-09	1.333531e-08
	4.933272e-09	2.127315e-08	-0.0005615126	-0.03295766	1.089065e-08	7.493788e-08	0.00201841	0.005983337
	0.002084638	0.005952725	1.089065e-08	7.493788e-08	-0.00030388	-0.03293026	4.261164e-09	2.153607e-08
	4.440562e-09	1.333531e-08	0.002018412	0.005983337	4.261164e-09	2.153607e-08	-0.000554417	-0.03290025
8e+07	-0.00298585	-0.03775594	5.351194e-09	2.395831e-08	0.002642594	0.006634601	5.004886e-09	1.485483e-08
	5.351193e-09	2.395831e-08	-0.003267497	-0.03767329	1.078172e-08	8.512463e-08	0.002558199	0.006677037
	0.002642589	0.0066346	1.078172e-08	8.512463e-08	-0.002943343	-0.03766825	4.487761e-09	2.433227e-08
	5.004886e-09	1.485483e-08	0.002558201	0.006677037	4.487761e-09	2.433227e-08	-0.003262627	-0.03760915
9e+07	-0.006062351	-0.0422818	5.749817e-09	2.659436e-08	0.003253755	0.007258788	5.572866e-09	1.629518e-08
	5.749817e-09	2.659436e-08	-0.006412425	-0.04215826	1.053101e-08	9.540877e-08	0.00314981	0.007315722
	0.003253752	0.007258788	1.053101e-08	9.540877e-08	-0.006016262	-0.04218477	4.732924e-09	2.713935e-08
	5.572866e-09	1.629518e-08	0.003149811	0.007315721	4.732924e-09	2.713935e-08	-0.006410746	-0.04208724
1e+08	-0.009545485	-0.04654865	6.126556e-09	2.918293e-08	0.003912824	0.007822183	6.133048e-09	1.765774e-08
	6.126556e-09	2.918293e-08	-0.009968357	-0.04637442	1.016597e-08	1.058134e-07	0.003788265	0.007896485
	0.003912823	0.007822183	1.016597e-08	1.058134e-07	-0.00949567	-0.04644256	5.025396e-09	2.995638e-08
	6.133048e-09	1.765774e-08	0.003788265	0.007896485	5.025396e-09	2.995638e-08	-0.009970922	-0.04629624
1.1e+08	-0.0134113	-0.05051433	6.519851e-09	3.176748e-08	0.004617933	0.008315849	6.674837e-09	1.896479e-08
	6.519852e-09	3.176748e-08	-0.01390873	-0.05027971	9.722923e-09	1.163892e-07	0.004472052	0.008410527
	0.004617933	0.008315849	9.722923e-09	1.163892e-07	-0.01335727	-0.05039988	5.233828e-09	3.274038e-08
	6.674837e-09	1.896479e-08	0.00447205	0.008410527	5.233828e-09	3.274038e-08	-0.01391662	-0.05019344
1.2e+08	-0.01761927	-0.05414739	6.897025e-09	3.432939e-08	0.005355147	0.008736207	7.195869e-09	2.020569e-08
	6.897025e-09	3.432939e-08	-0.01819321	-0.05384215	9.213187e-09	1.271395e-07	0.005187564	0.008854408
	0.005355147	0.008736207	9.213187e-09	1.271395e-07	-0.01756125	-0.05402527	5.42485e-09	3.553023e-08
	7.195869e-09	2.020569e-08	0.005187562	0.008854409	5.42485e-09	3.553023e-08	-0.01820692	-0.05374677
1.3e+08	-0.02213762	-0.05742223	7.259807e-09	3.686729e-08	0.006118019	0.009082456	7.688627e-09	2.138431e-08
	7.259807e-09	3.686729e-08	-0.02278869	-0.05703568	8.665799e-09	1.38077e-07	0.005928736	0.009227418
	0.006118019	0.009082456	8.665799e-09	1.38077e-07	-0.02207583	-0.05729291	5.603748e-09	3.832503e-08
	7.688627e-09	2.138431e-08	0.005928734	0.009227419	5.603748e-09	3.832503e-08	-0.02280866	-0.05693021
1.4e+08	-0.02693252	-0.06031476	7.609746e-09	3.938081e-08	0.00689947	0.009353129	8.147284e-09	2.250327e-08
	7.609746e-09	3.938081e-08	-0.02766007	-0.05983603	8.108519e-09	1.492132e-07	0.006688878	0.009528137
	0.00689947	0.009353129	8.108519e-09	1.492132e-07	-0.02686722	-0.06017863	5.775567e-09	4.112453e-08
	8.147284e-09	2.250327e-08	0.006688877	0.009528138	5.775567e-09	4.112453e-08	-0.02768663	-0.05971946
1.5e+08	-0.03196875	-0.06280391	7.941325e-09	4.187429e-08	0.007692246	0.009547259	8.563168e-09	2.357046e-08
	7.941325e-09	4.187429e-08	-0.03277086	-0.06222207	7.569489e-09	1.605564e-07	0.007461127	0.009755603
	0.007692246	0.009547259	7.569489e-09	1.605564e-07	-0.03190022	-0.06266128	5.93833e-09	4.393278e-08
	8.563168e-09	2.357046e-08	0.007461126	0.009755604	5.93833e-09	4.393278e-08	-0.03280421	-0.06209332
1.6e+08	-0.03720994	-0.06487183	8.252727e-09	4.434979e-08	0.008489024	0.009664509	8.930377e-09	2.459177e-08
	8.252727e-09	4.434979e-08	-0.03808341	-0.06417604	7.077076e-09	1.721119e-07	0.008238554	0.009909442
	0.008489024	0.009664509	7.077076e-09	1.721119e-07	-0.03713848	-0.06472293	6.09367e-09	4.675119e-08
	8.930377e-09	2.459177e-08	0.008238554	0.009909442	6.09367e-09	4.675119e-08	-0.03812361	-0.06403398
1.7e+08	-0.04261877	-0.06650395	8.54186e-09	4.680971e-08	0.0092825	0.00970521	9.243606e-09	2.557372e-08
	8.54186e-09	4.680971e-08	-0.04355916	-0.06568357	6.659761e-09	1.83882e-07	0.009014245	0.009989904
	0.0092825	0.00970521	6.659761e-09	1.83882e-07	-0.04254469	-0.06634895	6.242872e-09	4.958112e-08
	9.243606e-09	2.557372e-08	0.009014245	0.009989904	6.242872e-09	4.958112e-08	-0.04360613	-0.06552704
1.8e+08	-0.04815727	-0.06768895	8.806466e-09	4.92568e-08	0.01006546	0.009670364	9.498234e-09	2.652336e-08
	8.806466e-09	4.92568e-08	-0.04915887	-0.0667337	6.345954e-09	1.958659e-07	0.009781372	0.00999787
	0.01006546	0.009670364	6.345954e-09	1.958659e-07	-0.04808088	-0.06752797	6.386947e-09	5.242395e-08
	9.498234e-09	2.652336e-08	0.009781372	0.00999787	6.386947e-09	5.242395e-08	-0.0492124	-0.06656154
1.9e+08	-0.05378703	-0.06841884	9.044214e-09	5.169424e-08	0.01083086	0.009561636	9.690388e-09	2.744822e-08
	9.044214e-09	5.169424e-08	-0.05484292	-0.06731892	6.163788e-09	2.080598e-07	0.01053326	0.009934842
	0.01083086	0.009561636	6.163788e-09	2.080598e-07	-0.05370863	-0.06825193	6.526692e-09	5.528116e-08
	9.690388e-09	2.744822e-08	0.01053326	0.009934842	6.526692e-09	5.528116e-08	-0.05490265	-0.06712996
2e+08	-0.05946946	-0.06868889	9.252804e-09	5.41257e-08	0.01157187	0.009381332	9.817002e-09	2.835624e-08
	9.252804e-09	5.41257e-08	-0.06057156	-0.06743512	6.140886e-09	2.204567e-07	0.01126344	0.009802919
	0.01157187	0.009381332	6.140886e-09	2.204567e-07	-0.05938935	-0.06851606	6.662763e-09	5.815434e-08
	9.817002e-09	2.835624e-08	0.01126344	0.009802919	6.662763e-09	5.815434e-08	-0.06063698	-0.06722821
2.1e+08	-0.06516604	-0.0684976	9.430074e-09	5.65554e-08	0.01228196	0.009132366	9.875858e-09	2.925565e-08
	9.430074e-09	5.65554e-08	-0.06630516	-0.06708153	6.304135e-09	2.330471e-07	0.01196571	0.009604772
	0.01228196	0.009132366	6.304135e-09	2.330471e-07	-0.0650845	-0.06831881	6.795748e-09	6.104534e-08
	9.875858e-09	2.925565e-08	0.01196571	0.009604772	6.795748e-09	6.104534e-08	-0.0663756	-0.06685557
2.2e+08	-0.07083853	-0.06784666	9.574122e-09	5.898807e-08	0.01295493	0.008818229	9.865614e-09	3.01549e-08
	9.574122e-09	5.898807e-08	-0.07200445	-0.06626072	6.679432e-09	2.458182e-07	0.0126342	0.009343612
	0.01295493	0.008818229	6.679432e-09	2.458182e-07	-0.07075581	-0.06766183	6.926254e-09	6.395623e-08
	9.865614e-09	3.01549e-08	0.0126342	0.009343612	6.926254e-09	6.395623e-08	-0.07207913	-0.06601465
2.3e+08	-0.07644927	-0.06674086	9.683428e-09	6.142901e-08	0.01358498	0.008442947	9.785821e-09	3.106254e-08
	9.683428e-09	6.142901e-08	-0.07763083	-0.06497843	7.291447e-09	2.587546e-07	0.01326338	0.009023145
	0.01358498	0.008442947	7.291447e-09	2.587546e-07	-0.07636561	-0.06654986	7.055004e-09	6.688937e-08
	9.785821e-09	3.106254e-08	0.01326338	0.009023145	7.055004e-09	6.688937e-08	-0.0777088	-0.06471126
2.4e+08	-0.08196134	-0.06518803	9.756971e-09	6.388405e-08	0.01416673	0.008011033	9.636925e-09	3.198715e-08
	9.756971e-09	6.388405e-08	-0.08314653	-0.06324357	8.163345e-09	2.718383e-07	0.01384814	0.008647538
	0.01416673	0.008011033	8.163345e-09	2.718383e-07	-0.08187694	-0.06499069	7.182921e-09	6.98474e-08
	9.636925e-09	3.198715e-08	0.01384814	0.008647538	7.182921e-09	6.98474e-08	-0.08322673	-0.0629544
2.5e+08	-0.08733883	-0.06319889	9.794353e-09	6.635948e-08	0.01469528	0.007527447	9.420263e-09	3.293725e-08
	9.794353e-09	6.635948e-08	-0.0885149	-0.06106803	9.316548e-09	2.850487e-07	0.01438379	0.00822137
	0.01469528	0.007527447	9.316548e-09	2.850487e-07	-0.08725388	-0.06299503	7.311233e-09	7.283322e-08
	9.420263e-09	3.293725e-08	0.01438379	0.00822137	7.311233e-09	7.283322e-08	-0.08859616	-0.06075606
2.6e+08	-0.09254703	-0.060787	9.795909e-09	6.886199e-08	0.01516625	0.006997536	9.138039e-09	3.392117e-08
	9.795909e-09	6.886199e-08	-0.09370061	-0.05846662	1.077048e-08	2.983625e-07	0.01486613	0.007749587
	0.01516625	0.006997536	1.077048e-08	2.983625e-07	-0.09246167	-0.0605764	7.44156e-09	7.584993e-08
	9.138039e-09	3.392117e-08	0.01486613	0.007749587	7.44156e-09	7.584993e-08	-0.09378166	-0.05813115
2.7e+08	-0.09755265	-0.05796858	9.762822e-09	7.13986e-08	0.01557577	0.00642699	8.793299e-09	3.4947e-08
	9.762822e-09	7.13986e-08	-0.09866987	-0.05545688	1.25423e-08	3.117546e-07	0.01529143	0.007237451
	0.01557577	0.00642699	1.25423e-08	3.117546e-07	-0.09746699	-0.057751	7.57601e-09	7.890083e-08
	8.793299e-09	3.4947e-08	0.01529143	0.007237451	7.57601e-09	7.890083e-08	-0.09874931	-0.05509733
2.8e+08	-0.102324	-0.05476239	9.697195e-09	7.397651e-08	0.01592052	0.005821786	8.389896e-09	3.602252e-08
	9.697195e-09	7.397651e-08	-0.1033906	-0.05205892	1.464673e-08	3.251976e-07	0.01565648	0.006690497
	0.01592052	0.005821786	1.464673e-08	3.251976e-07	-0.1022381	-0.05453756	7.717239e-09	8.198929e-08
	8.389896e-09	3.602252e-08	0.01565648	0.006690497	7.717239e-09	8.198929e-08	-0.103467	-0.05167487
2.9e+08	-0.1068311	-0.05118957	9.602132e-09	7.660302e-08	0.01619778	0.005188135	7.932443e-09	3.715509e-08
	9.602132e-09	7.660302e-08	-0.1078326	-0.04829532	1.709574e-08	3.386624e-07	0.0159586	0.006114479
	0.01619778	0.005188135	1.709574e-08	3.386624e-07	-0.106745	-0.05095721	7.868519e-09	8.511869e-08
	7.932443e-09	3.715509e-08	0.0159586	0.006114479	7.868519e-09	8.511869e-08	-0.1079044	-0.04788646
3e+08	-0.1110459	-0.04727347	9.481808e-09	7.928532e-08	0.01640537	0.004532429	7.42627e-09	3.835161e-08
	9.481808e-09	7.928532e-08	-0.1119679	-0.04419087	1.989848e-08	3.521182e-07	0.01619563	0.005515325
	0.01640537	0.004532429	1.989848e-08	3.521182e-07	-0.1109596	-0.04703329	8.033807e-09	8.829226e-08
	7.42627e-09	3.835161e-08	0.01619563	0.005515325	8.033807e-09	8.829226e-08	-0.1120334	-0.04375706
3.1e+08	-0.1149426	-0.04303949	9.334806e-09	8.204109e-08	0.01654172	0.003861191	6.877651e-09	3.961843e-08
	9.334806e-09	8.204109e-08	-0.1157704	-0.03977243	2.305477e-08	3.655365e-07	0.01636594	0.004899087
	0.01654172	0.003861191	2.305477e-08	3.655365e-07	-0.114856	-0.04279121	8.211056e-09	9.152385e-08
	6.877651e-09	3.961843e-08	0.01636594	0.004899087	8.211056e-09	9.152385e-08	-0.1158281	-0.03931369
3.2e+08	-0.1184974	-0.0385149	9.163794e-09	8.489089e-08	0.01660585	0.00318102	6.293494e-09	4.096117e-08
	9.163794e-09	8.489089e-08	-0.1192168	-0.03506874	2.656219e-08	3.788893e-07	0.01646848	0.004271895
	0.01660585	0.003181021	2.656219e-08	3.788893e-07	-0.1184105	-0.03825822	8.401954e-09	9.483024e-08
	6.293494e-09	4.096117e-08	0.01646848	0.004271895	8.401954e-09	9.483024e-08	-0.119265	-0.03458524
3.3e+08	-0.1216889	-0.03372865	8.991746e-09	8.782043e-08	0.01659735	0.002498544	5.680358e-09	4.238502e-08
	8.991746e-09	8.782043e-08	-0.1222859	-0.03011021	3.043348e-08	3.921374e-07	0.01650269	0.003639913
	0.01659735	0.002498544	3.043348e-08	3.921374e-07	-0.1216015	-0.03346328	8.628136e-09	9.819308e-08
	5.680358e-09	4.238502e-08	0.01650269	0.003639913	8.628136e-09	9.819308e-08	-0.122323	-0.02960229
3.4e+08	-0.1244981	-0.02871116	8.82783e-09	9.083444e-08	0.0165164	0.001820368	5.045801e-09	4.389446e-08
	8.82783e-09	9.083444e-08	-0.1249592	-0.02492868	3.46651e-08	4.052466e-07	0.01646857	0.003009295
	0.0165164	0.001820368	3.46651e-08	4.052466e-07	-0.1244101	-0.02843682	8.896994e-09	1.016134e-07
	5.045801e-09	4.389446e-08	0.01646857	0.003009295	8.896994e-09	1.016134e-07	-0.1249835	-0.02439686
3.5e+08	-0.1269087	-0.02349414	8.682146e-09	9.393664e-08	0.01636375	0.001153033	4.397857e-09	4.549332e-08
	8.682146e-09	9.393664e-08	-0.1272211	-0.01955728	3.924998e-08	4.18183e-07	0.01636664	0.00238614
	0.01636375	0.001153033	3.924998e-08	4.18183e-07	-0.1268198	-0.02321058	9.216501e-09	1.050913e-07
	4.397857e-09	4.549332e-08	0.01636664	0.00238614	9.216501e-09	1.050913e-07	-0.127231	-0.01900222
3.6e+08	-0.1289068	-0.0181104	8.565579e-09	9.712959e-08	0.0161407	0.0005029627	3.744921e-09	4.718469e-08
	8.565579e-09	9.712959e-08	-0.1290583	-0.01403014	4.417755e-08	4.309128e-07	0.01619792	0.001776456
	0.0161407	0.0005029627	4.417755e-08	4.309128e-07	-0.1288167	-0.01781737	9.595034e-09	1.086259e-07
	3.744921e-09	4.718469e-08	0.01619792	0.001776456	9.595034e-09	1.086259e-07	-0.1290522	-0.0134527
3.7e+08	-0.1304811	-0.01259362	8.48965e-09	1.004146e-07	0.0158491	-0.0001235702	3.095671e-09	4.897095e-08
	8.48965e-09	1.004146e-07	-0.1304606	-0.008382243	4.943368e-08	4.434029e-07	0.01596395	0.00118612
	0.0158491	-0.0001235702	4.943368e-08	4.434029e-07	-0.1303896	-0.0122909	1.004127e-08	1.122154e-07
	3.095671e-09	4.897095e-08	0.01596395	0.00118612	1.004127e-08	1.122154e-07	-0.130437	-0.007783403
3.8e+08	-0.1316233	-0.006978169	8.466366e-09	1.037914e-07	0.01549131	-0.0007204916	2.459029e-09	5.085367e-08
	8.466366e-09	1.037914e-07	-0.1314206	-0.002649141	5.500077e-08	4.556213e-07	0.01566674	0.0006208386
	0.01549131	-0.0007204916	5.500077e-08	4.556213e-07	-0.1315299	-0.006665567	1.056407e-08	1.158567e-07
	2.459029e-09	5.085367e-08	0.01566674	0.0006208387	1.056407e-08	1.158567e-07	-0.131378	-0.00203007
3.9e+08	-0.1323274	-0.001298877	8.508039e-09	1.072586e-07	0.01507022	-0.001281962	1.844097e-09	5.28337e-08
	8.508039e-09	1.072586e-07	-0.1319336	0.003133215	6.085783e-08	4.675375e-07	0.01530875	8.611894e-05
	0.01507022	-0.001281962	6.085783e-08	4.675375e-07	-0.132232	-0.0009762318	1.117226e-08	1.195454e-07
	1.844097e-09	5.28337e-08	0.01530875	8.611895e-05	1.117226e-08	1.195454e-07	-0.1318707	0.003771205
4e+08	-0.1325907	0.004409155	8.627097e-09	1.108127e-07	0.01458918	-0.001802415	1.260104e-09	5.491105e-08
	8.627097e-09	1.108127e-07	-0.131998	0.00892871	6.698058e-08	4.791228e-07	0.01489291	-0.00041277
	0.01458918	-0.001802415	6.698058e-08	4.791228e-07	-0.1324928	0.004741972	1.187455e-08	1.232761e-07
	1.260104e-09	5.491105e-08	0.01489291	-0.00041277	1.187455e-08	1.232761e-07	-0.1319135	0.009584165
4.1e+08	-0.1324127	0.01011077	8.835869e-09	1.144491e-07	0.014052	-0.00227659	7.163437e-10	5.7085e-08
	8.835869e-09	1.144491e-07	-0.1316147	0.01470129	7.334164e-08	4.903504e-07	0.01442256	-0.0008708263
	0.014052	-0.00227659	7.334164e-08	4.903504e-07	-0.1323119	0.01045385	1.267928e-08	1.270417e-07
	7.163436e-10	5.7085e-08	0.01442256	-0.0008708262	1.267928e-08	1.270417e-07	-0.1315076	0.01537262
4.2e+08	-0.131796	0.01577096	9.146374e-09	1.181612e-07	0.01346292	-0.002699569	2.221216e-10	5.935398e-08
	9.146374e-09	1.181612e-07	-0.1307879	0.02041517	7.991074e-08	5.011963e-07	0.01390146	-0.001283345
	0.01346292	-0.002699569	7.991074e-08	5.011963e-07	-0.1316918	0.01612436	1.359426e-08	1.308343e-07
	2.221216e-10	5.935398e-08	0.01390146	-0.001283345	1.359426e-08	1.308343e-07	-0.130657	0.02110066
4.3e+08	-0.1307457	0.02135507	9.570099e-09	1.219408e-07	0.01282659	-0.003066803	-2.133024e-10	6.171566e-08
	9.570099e-09	1.219408e-07	-0.1295242	0.02603503	8.665492e-08	5.116391e-07	0.01333371	-0.001645947
	0.01282659	-0.003066803	8.665492e-08	5.116391e-07	-0.1306378	0.02171879	1.46266e-08	1.346444e-07
	-2.133024e-10	6.171566e-08	0.01333371	-0.001645947	1.46266e-08	1.346444e-07	-0.1293688	0.02673285
4.4e+08	-0.1292699	0.02682897	1.011777e-08	1.257784e-07	0.01214802	-0.003374146	-5.8077e-10	6.416688e-08
	1.011777e-08	1.257784e-07	-0.1278331	0.03152626	9.353882e-08	5.216605e-07	0.01272382	-0.001954606
	0.01214802	-0.003374146	9.353882e-08	5.216605e-07	-0.1291578	0.02720298	1.578249e-08	1.384615e-07
	-5.8077e-10	6.416688e-08	0.01272382	-0.001954606	1.578249e-08	1.384615e-07	-0.1276525	0.03223449
4.5e+08	-0.1273789	0.03215931	1.079914e-08	1.296628e-07	0.01143257	-0.003617881	-8.712812e-10	6.67037e-08
	1.079914e-08	1.296628e-07	-0.1257269	0.03685512	1.00525e-07	5.312455e-07	0.01207657	-0.002205675
	0.01143257	-0.003617881	1.00525e-07	5.312455e-07	-0.1272621	0.03254353	1.706701e-08	1.422737e-07
	-8.712812e-10	6.67037e-08	0.01207657	-0.002205675	1.706701e-08	1.422737e-07	-0.1255206	0.03757175
4.6e+08	-0.1250858	0.03731367	1.162277e-08	1.335812e-07	0.01068592	-0.003794744	-1.076051e-09	6.932137e-08
	1.162277e-08	1.335812e-07	-0.1232203	0.041989	1.075742e-07	5.403827e-07	0.01139707	-0.002395908
	0.01068592	-0.003794744	1.075742e-07	5.403827e-07	-0.1249639	0.03770796	1.848399e-08	1.460685e-07
	-1.076051e-09	6.932137e-08	0.01139707	-0.002395908	1.848399e-08	1.460685e-07	-0.122988	0.04271194
4.7e+08	-0.1224062	0.04226073	1.259584e-08	1.375199e-07	0.009913995	-0.003901951	-1.186567e-09	7.201434e-08
	1.259584e-08	1.375199e-07	-0.1203307	0.04689653	1.146459e-07	5.490644e-07	0.0106907	-0.002522485
	0.009913995	-0.003901951	1.146459e-07	5.490644e-07	-0.1222787	0.04266494	2.003581e-08	1.498324e-07
	-1.186567e-09	7.201434e-08	0.0106907	-0.002522485	2.003581e-08	1.498324e-07	-0.1200722	0.04762367
4.8e+08	-0.1193581	0.04697053	1.372397e-08	1.414638e-07	0.00912299	-0.003937218	-1.194653e-09	7.477627e-08
	1.372397e-08	1.414638e-07	-0.1170778	0.05154786	1.216984e-07	5.572867e-07	0.009963057	-0.002583034
	0.00912299	-0.003937218	1.216984e-07	5.572867e-07	-0.1192246	0.04738443	2.17233e-08	1.535512e-07
	-1.194653e-09	7.477627e-08	0.009963057	-0.002583034	2.17233e-08	1.535512e-07	-0.1167932	0.05227702
