!$
! Info: Touchstone file created by Circ.  Input file=Tx_4in_Rx_100ohms_TxVia_60mils_RxVia_70mils.circ
!$
# Hz S RI R 50
0	0.004297195	7.321433e-26	-2.187214e-05	7.504345e-24	4.261968e-05	8.339991e-24	-2.183511e-05	2.989841e-24
	-2.187214e-05	7.50433e-24	0.004292939	8.519442e-26	-2.190852e-05	1.201926e-23	4.17404e-05	1.036892e-23
	4.175128e-05	8.302741e-24	-2.190852e-05	1.201947e-23	0.004311095	7.405545e-26	-2.187078e-05	7.417399e-24
	-2.18351e-05	2.989596e-24	4.201029e-05	1.041338e-23	-2.187078e-05	7.416961e-24	0.004307501	8.479315e-26
1e+07	0.00612044	0.003218843	-7.769972e-05	2.84358e-06	0.0002433216	0.0009698295	-2.944163e-05	-3.97917e-06
	-7.769972e-05	2.84358e-06	0.006181641	0.00321747	-8.26796e-06	4.801409e-05	0.0002418735	0.0009682255
	0.000243306	0.0009698431	-8.26796e-06	4.801409e-05	0.006199696	0.003226084	-7.770172e-05	2.819942e-06
	-2.944163e-05	-3.979171e-06	0.0002418757	0.0009682231	-7.770172e-05	2.819942e-06	0.006134229	0.003227533
2e+07	0.007783472	0.005078762	-5.991719e-05	-3.04152e-05	0.0003107453	0.001990585	-2.292971e-05	-7.556828e-06
	-5.991719e-05	-3.04152e-05	0.007822617	0.005052979	-2.96964e-05	7.761218e-05	0.0003051223	0.001987853
	0.0003107521	0.001990593	-2.96964e-05	7.761218e-05	0.0078518	0.00506847	-5.992547e-05	-3.045863e-05
	-2.292971e-05	-7.556828e-06	0.0003051189	0.001987853	-5.992547e-05	-3.045863e-05	0.007791776	0.00509409
3e+07	0.009215453	0.006322817	-4.711407e-05	-4.181727e-05	0.0004727314	0.002927753	-1.848683e-05	-1.172903e-05
	-4.711407e-05	-4.181727e-05	0.009230238	0.006289872	-6.163072e-05	8.682581e-05	0.0004602637	0.002924688
	0.0004727324	0.002927753	-6.163072e-05	8.682581e-05	0.009276862	0.006309902	-4.712751e-05	-4.188733e-05
	-1.848683e-05	-1.172903e-05	0.0004602634	0.00292469	-4.712751e-05	-4.188733e-05	0.009213539	0.006346066
4e+07	0.01055928	0.007285409	-3.704026e-05	-4.827863e-05	0.0007304456	0.003822824	-1.491286e-05	-1.392208e-05
	-3.704026e-05	-4.827863e-05	0.0105458	0.007250936	-8.885015e-05	9.031097e-05	0.0007085744	0.003820557
	0.0007304443	0.003822825	-8.885015e-05	9.031097e-05	0.01061632	0.007272993	-3.705789e-05	-4.837948e-05
	-1.491286e-05	-1.392208e-05	0.0007085751	0.003820557	-3.705789e-05	-4.837948e-05	0.01054245	0.007317346
5e+07	0.01186129	0.008046061	-2.864813e-05	-5.235925e-05	0.001136888	0.00466183	-1.185948e-05	-1.522361e-05
	-2.864813e-05	-5.235925e-05	0.01181537	0.008015273	-0.0001135521	9.093216e-05	0.001103232	0.004661737
	0.001136886	0.004661831	-0.0001135521	9.093216e-05	0.01191598	0.008035365	-2.866968e-05	-5.249542e-05
	-1.185948e-05	-1.522361e-05	0.001103233	0.004661737	-2.866968e-05	-5.249542e-05	0.0118246	0.008088915
6e+07	0.01314095	0.00864143	-2.136502e-05	-5.493015e-05	0.00160569	0.005453738	-9.141341e-06	-1.600717e-05
	-2.136502e-05	-5.493015e-05	0.01305904	0.008619526	-0.0001369458	8.973899e-05	0.001558069	0.005457535
	0.001605688	0.005453737	-0.0001369458	8.973899e-05	0.01319493	0.008632897	-2.139075e-05	-5.510655e-05
	-9.141341e-06	-1.600717e-05	0.00155807	0.005457535	-2.139075e-05	-5.510655e-05	0.0130803	0.008698151
7e+07	0.01440626	0.009091562	-2.535589e-05	-5.29415e-05	0.002133398	0.006194557	-6.581557e-06	-1.634569e-05
	-2.535589e-05	-5.29415e-05	0.01428524	0.009083661	-0.0001598105	8.716526e-05	0.002069849	0.006204222
	0.002133394	0.006194556	-0.0001598105	8.716526e-05	0.01446091	0.009085261	-2.538628e-05	-5.315539e-05
	-6.581557e-06	-1.634569e-05	0.00206985	0.006204222	-2.538628e-05	-5.315539e-05	0.01431797	0.00916522
8e+07	0.01565953	0.009409372	-3.612626e-05	-4.64421e-05	0.002715739	0.006879753	-8.500753e-06	-1.465377e-05
	-3.612626e-05	-4.64421e-05	0.01549651	0.009420798	-0.0001828732	8.306307e-05	0.002634537	0.006897497
	0.002715735	0.006879753	-0.0001828732	8.306307e-05	0.01571609	0.009405197	-3.615619e-05	-4.669286e-05
	-8.500753e-06	-1.465377e-05	0.002634539	0.006897496	-3.615619e-05	-4.669286e-05	0.01553996	0.009503327
9e+07	0.01690039	0.009604988	-4.518992e-05	-3.75739e-05	0.003347593	0.007504354	-1.12267e-05	-1.175714e-05
	-4.518992e-05	-3.75739e-05	0.0166928	0.00964164	-0.000207158	7.644186e-05	0.003247267	0.007532604
	0.00334759	0.007504354	-0.000207158	7.644186e-05	0.01695999	0.00960283	-4.5219e-05	-3.786648e-05
	-1.12267e-05	-1.175714e-05	0.003247268	0.007532603	-4.5219e-05	-3.786648e-05	0.01674591	0.009723201
1e+08	0.01813032	0.009693387	-5.146668e-05	-2.455113e-05	0.004021597	0.008060325	-1.293504e-05	-7.55999e-06
	-5.146668e-05	-2.455113e-05	0.01787656	0.009762637	-0.0002360501	6.123797e-05	0.003900942	0.008101705
	0.004021597	0.008060325	-0.0002360501	6.123797e-05	0.01819448	0.009693953	-5.149324e-05	-2.489331e-05
	-1.293504e-05	-7.55999e-06	0.003900942	0.008101705	-5.149324e-05	-2.489331e-05	0.01793762	0.00984058
1.1e+08	0.0193706	0.009647953	-4.926815e-05	-1.51366e-05	0.00471992	0.008559438	-1.180158e-05	-4.681773e-06
	-4.926815e-05	-1.51366e-05	0.01907347	0.009753466	-0.0002426175	3.730365e-05	0.004578091	0.008616757
	0.00471992	0.008559438	-0.0002426175	3.730365e-05	0.01944342	0.009648168	-4.929739e-05	-1.554018e-05
	-1.180158e-05	-4.681773e-06	0.004578089	0.008616757	-4.929739e-05	-1.554018e-05	0.01913813	0.009828976
1.2e+08	0.02057408	0.009474584	-4.81423e-05	-9.050353e-06	0.0054567	0.00899812	-1.107347e-05	-2.949689e-06
	-4.81423e-05	-9.050353e-06	0.02023151	0.009620673	-0.0002458815	2.463136e-05	0.00529314	0.009074263
	0.0054567	0.00899812	-0.0002458815	2.463136e-05	0.02065475	0.009471564	-4.818342e-05	-9.517423e-06
	-1.107347e-05	-2.949689e-06	0.005293138	0.009074264	-4.818342e-05	-9.517423e-06	0.02030004	0.009694865
1.3e+08	0.02173891	0.009187896	-4.726291e-05	-4.041662e-06	0.006224061	0.009368848	-1.045539e-05	-1.62743e-06
	-4.726291e-05	-4.041662e-06	0.02134998	0.009380158	-0.0002485318	1.629991e-05	0.006038537	0.009466801
	0.006224061	0.009368848	-0.0002485318	1.629991e-05	0.02182686	0.009179886	-4.73239e-05	-4.575238e-06
	-1.045539e-05	-1.62743e-06	0.006038535	0.009466802	-4.73239e-05	-4.575238e-06	0.02142219	0.009453103
1.4e+08	0.02286007	0.008794826	-4.645687e-05	3.719881e-07	0.00701521	0.009668273	-9.891909e-06	-5.575242e-07
	-4.645687e-05	3.719881e-07	0.02242465	0.009039222	-0.0002509339	1.073675e-05	0.006807825	0.009791084
	0.00701521	0.009668273	-0.0002509339	1.073675e-05	0.02295469	0.008780357	-4.654623e-05	-2.306384e-07
	-9.891909e-06	-5.575242e-07	0.006807824	0.009791085	-4.654623e-05	-2.306385e-07	0.02250022	0.009110807
1.5e+08	0.02393206	0.008301266	-4.56404e-05	4.411963e-06	0.007823337	0.00989416	-9.361723e-06	3.355115e-07
	-4.56404e-05	4.411963e-06	0.02345075	0.008603932	-0.0002531881	7.179144e-06	0.00759454	0.0100449
	0.007823337	0.00989416	-0.0002531881	7.179144e-06	0.02403262	0.008279045	-4.576733e-05	3.738568e-06
	-9.361723e-06	3.355115e-07	0.007594539	0.0100449	-4.576733e-05	3.738567e-06	0.02352929	0.008673999
1.6e+08	0.02494924	0.00771284	-4.476031e-05	8.198208e-06	0.008641553	0.01004507	-8.854264e-06	1.095013e-06
	-4.476031e-05	8.198208e-06	0.02442336	0.008079981	-0.0002553136	5.169054e-06	0.008392137	0.01022682
	0.008641553	0.01004507	-0.0002553136	5.169054e-06	0.0250549	0.007681712	-4.493466e-05	7.45335e-06
	-8.854264e-06	1.095013e-06	0.008392137	0.01022682	-4.493466e-05	7.45335e-06	0.02450445	0.008148361
1.7e+08	0.02590602	0.00703518	-4.377798e-05	1.179989e-05	0.009462907	0.01012029	-8.363704e-06	1.748685e-06
	-4.377798e-05	1.179989e-05	0.02533761	0.007472979	-0.0002572998	4.39557e-06	0.009194015	0.01033604
	0.009462907	0.01012029	-0.0002572998	4.39557e-06	0.02601585	0.006994115	-4.401017e-05	1.098406e-05
	-8.363704e-06	1.748685e-06	0.009194015	0.01033604	-4.401017e-05	1.098406e-05	0.0254208	0.007539525
1.8e+08	0.02679694	0.006274073	-4.26636e-05	1.525651e-05	0.01028044	0.01011974	-7.886637e-06	2.315509e-06
	-4.26636e-05	1.525651e-05	0.02618878	0.006788603	-0.0002591254	4.629993e-06	0.009993554	0.01037245
	0.01028044	0.01011974	-0.0002591254	4.629993e-06	0.02690991	0.00622216	-4.296445e-05	1.437151e-05
	-7.886637e-06	2.315509e-06	0.009993554	0.01037245	-4.296445e-05	1.437151e-05	0.02627358	0.006853202
1.9e+08	0.02761677	0.005435534	-4.139357e-05	1.858872e-05	0.01108722	0.01004403	-7.421027e-06	2.809152e-06
	-4.139357e-05	1.858872e-05	0.02697232	0.006032678	-0.0002607676	5.693378e-06	0.01078416	0.01033651
	0.01108722	0.01004403	-0.0002607676	5.693378e-06	0.02773175	0.005371983	-4.177416e-05	1.763775e-05
	-7.421027e-06	2.809152e-06	0.01078416	0.01033651	-4.177416e-05	1.763775e-05	0.02705824	0.006095251
2e+08	0.02836053	0.004525827	-3.994943e-05	2.180423e-05	0.0118764	0.009894386	-6.965651e-06	3.239841e-06
	-3.994943e-05	2.180423e-05	0.02768395	0.005211199	-0.0002622058	7.439235e-06	0.01155932	0.01022931
	0.0118764	0.009894386	-0.0002622058	7.439235e-06	0.02847631	0.004449973	-4.042088e-05	2.079201e-05
	-6.965651e-06	3.239841e-06	0.01155932	0.01022931	-4.042088e-05	2.079201e-05	0.02777049	0.005271719
2.1e+08	0.0290236	0.003551496	-3.831719e-05	2.490173e-05	0.01264129	0.00967266	-6.519816e-06	3.615459e-06
	-3.831719e-05	2.490173e-05	0.02831971	0.004330364	-0.0002634243	9.743565e-06	0.01231264	0.01005251
	0.01264129	0.00967266	-0.0002634243	9.743565e-06	0.02913889	0.003462802	-3.889049e-05	2.383448e-05
	-6.519816e-06	3.615459e-06	0.01231264	0.01005251	-3.889049e-05	2.383448e-05	0.02840635	0.004388845
2.2e+08	0.02960173	0.002519361	-3.648722e-05	2.787326e-05	0.01337537	0.009381304	-6.083173e-06	3.942245e-06
	-3.648722e-05	2.787326e-05	0.02887598	0.003396576	-0.0002644134	1.249903e-05	0.01303791	0.009808343
	0.01337537	0.009381304	-0.0002644134	1.249903e-05	0.02971517	0.00241742	-3.717301e-05	2.675878e-05
	-6.083173e-06	3.942245e-06	0.01303791	0.009808343	-3.717301e-05	2.675878e-05	0.02896221	0.003453078
2.3e+08	0.03009109	0.001436517	-3.445414e-05	3.070605e-05	0.01407239	0.009023355	-5.655602e-06	4.22525e-06
	-3.445414e-05	3.070605e-05	0.02934953	0.002416444	-0.0002651692	1.561118e-05	0.01372914	0.009499602
	0.01407239	0.009023355	-0.0002651692	1.561118e-05	0.03020128	0.001321063	-3.526249e-05	2.955365e-05
	-5.655602e-06	4.22525e-06	0.01372914	0.009499602	-3.526249e-05	2.955365e-05	0.02943486	0.002471077
2.4e+08	0.03048833	0.0003102976	-3.221652e-05	3.338412e-05	0.01472638	0.008602402	-5.237161e-06	4.46864e-06
	-3.221652e-05	3.338412e-05	0.02973754	0.001396745	-0.0002656955	1.89965e-05	0.01438062	0.009129598
	0.01472638	0.008602402	-0.0002656955	1.89965e-05	0.03059382	0.0001812079	-3.315673e-05	3.220462e-05
	-5.237161e-06	4.46864e-06	0.01438062	0.009129598	-3.315673e-05	3.220462e-05	0.02982147	0.001449668
2.5e+08	0.03079061	-0.0008517338	-2.97771e-05	3.588918e-05	0.01533171	0.008122562	-4.828017e-06	4.675919e-06
	-2.97771e-05	3.588918e-05	0.03003764	0.0003444378	-0.0002660016	2.258084e-05	0.01498694	0.008702142
	0.01533171	0.008122562	-0.0002660016	2.258084e-05	0.03088991	-0.0009944314	-3.085744e-05	3.469482e-05
	-4.828017e-06	4.675919e-06	0.01498694	0.008702142	-3.085744e-05	3.469482e-05	0.03011972	0.0003958569
2.6e+08	0.0309956	-0.002041827	-2.714245e-05	3.820174e-05	0.01588314	0.007588445	-4.428424e-06	4.850087e-06
	-2.714245e-05	3.820174e-05	0.03024797	-0.0007333897	-0.0002661038	2.629891e-05	0.01554306	0.008221518
	0.01588314	0.007588445	-0.0002661038	2.629891e-05	0.03108721	-0.002197952	-2.837004e-05	3.700606e-05
	-4.428424e-06	4.850087e-06	0.01554306	0.008221518	-2.837004e-05	3.700606e-05	0.03032772	-0.0006832256
2.7e+08	0.03110154	-0.00325207	-2.432308e-05	4.030179e-05	0.01637587	0.007005122	-4.038683e-06	4.993755e-06
	-2.432308e-05	4.030179e-05	0.03036711	-0.001829542	-0.0002660232	3.009329e-05	0.01604433	0.007692443
	0.01637587	0.007005122	-0.0002660232	3.009329e-05	0.03118395	-0.003421294	-2.570363e-05	3.911955e-05
	-4.038683e-06	4.993755e-06	0.01604433	0.007692443	-2.570363e-05	3.911955e-05	0.0304441	-0.00178034
2.8e+08	0.03110726	-0.004474436	-2.133305e-05	4.216973e-05	0.01680555	0.006378077	-3.659156e-06	5.109224e-06
	-2.133305e-05	4.216973e-05	0.03039418	-0.00293674	-0.0002657871	3.391527e-05	0.01648656	0.007120037
	0.01680555	0.006378077	-0.0002657871	3.391527e-05	0.03117898	-0.004656264	-2.287071e-05	4.10167e-05
	-3.659156e-06	5.109224e-06	0.01648656	0.007120037	-2.287071e-05	4.10167e-05	0.03046803	-0.002888159
2.9e+08	0.03101218	-0.005700821	-1.818984e-05	4.378688e-05	0.01716836	0.005713175	-3.290225e-06	5.198563e-06
	-1.818984e-05	4.378688e-05	0.03032883	-0.004047669	-0.0002654269	3.772413e-05	0.01686599	0.006509777
	0.01716836	0.005713175	-0.0002654269	3.772413e-05	0.03107173	-0.005894609	-1.988705e-05	4.267966e-05
	-3.290225e-06	5.198563e-06	0.01686599	0.006509777	-1.988705e-05	4.267966e-05	0.03039916	-0.003999336
3e+08	0.03081632	-0.006923095	-1.491419e-05	4.513601e-05	0.01746099	0.005016605	-2.932282e-06	5.263653e-06
	-1.491419e-05	4.513601e-05	0.03017123	-0.005155014	-0.0002649775	4.148677e-05	0.01717938	0.00586746
	0.01746099	0.005016605	-0.0002649775	4.148677e-05	0.03086228	-0.00712804	-1.677154e-05	4.409187e-05
	-2.932282e-06	5.263653e-06	0.01717938	0.00586746	-1.677154e-05	4.409187e-05	0.03023771	-0.005106513
3.1e+08	0.03052032	-0.008133134	-1.152959e-05	4.620203e-05	0.0176807	0.004294841	-2.585744e-06	5.306231e-06
	-1.152959e-05	4.620203e-05	0.02992209	-0.006251484	-0.0002644774	4.517914e-05	0.01742403	0.005199152
	0.0176807	0.004294841	-0.0002644774	4.517914e-05	0.03055132	-0.008348281	-1.354572e-05	4.523863e-05
	-2.585744e-06	5.306231e-06	0.01742403	0.005199152	-1.354572e-05	4.523863e-05	0.02998443	-0.00620237
3.2e+08	0.03012547	-0.009322887	-8.062054e-06	4.697224e-05	0.01782535	0.003554584	-2.251016e-06	5.32792e-06
	-8.062054e-06	4.697224e-05	0.02958266	-0.007329879	-0.0002639668	4.878486e-05	0.01759776	0.004511148
	0.01782535	0.003554584	-0.0002639668	4.878486e-05	0.03014019	-0.009547133	-1.023357e-05	4.610744e-05
	-2.251016e-06	5.32792e-06	0.01759776	0.004511148	-1.023357e-05	4.610744e-05	0.02964062	-0.007279671
3.3e+08	0.02963363	-0.01048441	-4.539778e-06	4.74368e-05	0.0178934	0.002802717	-1.928488e-06	5.330254e-06
	-4.539778e-06	4.74368e-05	0.02915475	-0.008383106	-0.0002634866	5.229514e-05	0.01769898	0.003809917
	0.0178934	0.002802717	-0.0002634866	5.229514e-05	0.02963087	-0.01071651	-6.861221e-06	4.668838e-05
	-1.928488e-06	5.330254e-06	0.01769898	0.003809917	-6.861221e-06	4.668838e-05	0.02920811	-0.008331302
3.4e+08	0.02904733	-0.01160992	-9.925503e-07	4.758909e-05	0.01788393	0.002046242	-1.618551e-06	5.314704e-06
	-9.925503e-07	4.758909e-05	0.02864066	-0.009404227	-0.0002630789	5.571023e-05	0.01772665	0.003102054
	0.01788393	0.002046242	-0.0002630789	5.571023e-05	0.02902596	-0.01184848	-3.45637e-06	4.697448e-05
	-1.618551e-06	5.314704e-06	0.01772665	0.003102054	-3.45637e-06	4.697448e-05	0.02868928	-0.009350301
3.5e+08	0.02836966	-0.01269183	2.548575e-06	4.742586e-05	0.01779663	0.001292232	-1.321563e-06	5.282687e-06
	2.548575e-06	4.742586e-05	0.02804325	-0.01038651	-0.0002627842	5.903747e-05	0.01768036	0.002394231
	0.01779663	0.001292232	-0.0002627842	5.903747e-05	0.02832869	-0.01293535	-4.800705e-08	4.696192e-05
	-1.321563e-06	5.282687e-06	0.01768036	0.002394231	-4.800705e-08	4.696192e-05	0.02808702	-0.01032992
3.6e+08	0.02760433	-0.01372284	6.051839e-06	4.694749e-05	0.01763185	0.0005477734	-1.037861e-06	5.235585e-06
	6.051839e-06	4.694749e-05	0.02736586	-0.01132345	-0.000262642	6.229246e-05	0.01756025	0.00169314
	0.01763185	0.0005477734	-0.000262642	6.229246e-05	0.02754288	-0.01396968	3.334121e-06	4.665021e-05
	-1.037861e-06	5.235585e-06	0.01756025	0.00169314	3.334121e-06	4.665021e-05	0.02740473	-0.01126363
3.7e+08	0.02675561	-0.01469591	9.485206e-06	4.615805e-05	0.01739057	-0.0001800924	-7.677417e-07	5.174754e-06
	9.485206e-06	4.615805e-05	0.02661235	-0.01220884	-0.0002626887	6.549772e-05	0.0173671	0.001005445
	0.01739057	-0.0001800924	-0.0002626887	6.549772e-05	0.02667294	-0.01494435	6.659902e-06	4.604233e-05
	-7.677417e-07	5.174754e-06	0.0173671	0.001005445	6.659902e-06	4.604233e-05	0.02664633	-0.01214522
3.8e+08	0.02582833	-0.0156044	1.281688e-05	4.506539e-05	0.0170744	-0.0008844235	-5.11459e-07	5.101529e-06
	1.281688e-05	4.506539e-05	0.02578703	-0.01303675	-0.0002629576	6.868247e-05	0.01710225	0.0003377261
	0.0170744	-0.0008844235	-0.0002629576	6.868247e-05	0.02572386	-0.01585258	9.899342e-06	4.514477e-05
	-5.11459e-07	5.101529e-06	0.01710225	0.0003377261	9.899342e-06	4.514477e-05	0.02581617	-0.01296878
3.9e+08	0.02482784	-0.01644203	1.601585e-05	4.36811e-05	0.01668555	-0.001558433	-2.69218e-07	5.017231e-06
	1.601585e-05	4.36811e-05	0.02489466	-0.01380165	-0.0002634773	7.188239e-05	0.01676764	-0.0003035689
	0.01668555	-0.001558433	-0.0002634773	7.188239e-05	0.02470114	-0.01668804	1.302307e-05	4.396753e-05
	-2.69218e-07	5.017231e-06	0.01676764	-0.0003035689	1.302307e-05	4.396753e-05	0.02491908	-0.01372874
4e+08	0.02375997	-0.01720296	1.905229e-05	4.202039e-05	0.01622686	-0.002195544	-4.116465e-08	4.923171e-06
	1.905229e-05	4.202039e-05	0.02394044	-0.01449836	-0.0002642715	7.513835e-05	0.01636576	-0.0009121791
	0.01622686	-0.002195544	-0.0002642715	7.513835e-05	0.02361079	-0.01744482	1.600273e-05	4.252406e-05
	-4.116465e-08	4.923171e-06	0.01636576	-0.0009121791	1.600273e-05	4.252406e-05	0.02396031	-0.01441996
4.1e+08	0.02263103	-0.01788183	2.189814e-05	4.010201e-05	0.01570174	-0.002789443	1.726154e-07	4.820651e-06
	2.189814e-05	4.010201e-05	0.02292993	-0.01512214	-0.0002653582	7.849647e-05	0.01589968	-0.001482079
	0.01570174	-0.002789443	-0.0002653582	7.849647e-05	0.02245932	-0.01811751	1.881151e-05	4.083111e-05
	1.726154e-07	4.820651e-06	0.01589968	-0.001482079	1.881151e-05	4.083111e-05	0.02294548	-0.0150377
4.2e+08	0.02144776	-0.01847382	2.452751e-05	3.794797e-05	0.01511416	-0.00333413	3.721056e-07	4.710963e-06
	2.452751e-05	3.794797e-05	0.0218691	-0.0156687	-0.0002667488	8.200731e-05	0.01537298	-0.002007525
	0.01511416	-0.00333413	-0.0002667488	8.200731e-05	0.02125362	-0.01870123	2.142453e-05	3.890856e-05
	3.721056e-07	4.710963e-06	0.01537298	-0.002007525	2.142453e-05	3.890856e-05	0.0218806	-0.01557768
4.3e+08	0.02021726	-0.01897461	2.691708e-05	3.55833e-05	0.01446863	-0.003823972	5.57367e-07	4.595389e-06
	2.691708e-05	3.55833e-05	0.02076417	-0.01613421	-0.0002684476	8.57245e-05	0.01478975	-0.002483105
	0.01446863	-0.003823972	-0.0002684476	8.57245e-05	0.020001	-0.01919167	2.381924e-05	3.677916e-05
	5.57367e-07	4.595389e-06	0.01478975	-0.002483105	2.381924e-05	3.677916e-05	0.02077197	-0.01603611
4.4e+08	0.01894697	-0.01938051	2.904651e-05	3.303569e-05	0.01377017	-0.004253744	7.285431e-07	4.475191e-06
	2.904651e-05	3.303569e-05	0.01962172	-0.01651538	-0.0002704515	8.970387e-05	0.01415455	-0.002903781
	0.01377017	-0.004253744	-0.0002704515	8.970387e-05	0.01870909	-0.01958511	2.597578e-05	3.446825e-05
	7.285431e-07	4.475191e-06	0.01415455	-0.002903781	2.597578e-05	3.446825e-05	0.0196262	-0.01640972
4.5e+08	0.01764462	-0.01968839	3.089875e-05	3.033517e-05	0.01302422	-0.004618675	8.858647e-07	4.351611e-06
	3.089875e-05	3.033517e-05	0.01844853	-0.01680941	-0.0002727499	9.400234e-05	0.0134724	-0.00326493
	0.01302422	-0.004618675	-0.0002727499	9.400234e-05	0.01738584	-0.01987847	2.78773e-05	3.200341e-05
	8.858647e-07	4.351611e-06	0.0134724	-0.00326493	2.78773e-05	3.200341e-05	0.01845012	-0.01669574
4.6e+08	0.01631821	-0.0198958	3.246038e-05	2.751361e-05	0.01223669	-0.004914492	1.02965e-06	4.225842e-06
	3.246038e-05	2.751361e-05	0.0172516	-0.01701408	-0.0002753239	9.86782e-05	0.01274871	-0.003562382
	0.01223669	-0.004914492	-0.0002753239	9.86782e-05	0.01603941	-0.02006931	2.951026e-05	2.94141e-05
	1.02965e-06	4.225842e-06	0.01274871	-0.003562382	2.951026e-05	2.94141e-05	0.01725079	-0.01689198
4.7e+08	0.01497588	-0.02000089	3.372176e-05	2.46043e-05	0.01141383	-0.005137451	1.160299e-06	4.098873e-06
	3.372176e-05	2.46043e-05	0.0160381	-0.01712771	-0.0002781469	0.0001037873	0.01198924	-0.003792454
	0.01141383	-0.005137451	-0.0002781469	0.0001037873	0.01467819	-0.02015587	3.086464e-05	2.67311e-05
	1.160299e-06	4.098873e-06	0.01198924	-0.003792454	3.086464e-05	2.67311e-05	0.01603538	-0.0169968
4.8e+08	0.01362597	-0.02000252	3.467729e-05	2.16416e-05	0.01056224	-0.005284374	1.278322e-06	3.972041e-06
