!$
! Info: Touchstone file created by Circ.  Input file=Tx_4in_Rx_100ohms_TxVia_60mils_RxVia_70mils.circ
!$
# Hz S RI R 50
0	0.004297584	8.372319e-26	0.9955619	-7.221765e-26	4.501705e-05	9.300167e-24	-4.033832e-05	2.283988e-21
	0.9955619	-7.317842e-26	0.004292939	8.519442e-26	-4.082118e-05	2.343142e-21	4.17404e-05	1.036892e-23
	4.623835e-05	9.036126e-24	-4.012881e-05	2.258348e-21	0.004308464	8.307377e-26	0.9955402	-7.012996e-26
	-4.060846e-05	2.317068e-21	4.201029e-05	1.041338e-23	0.9955402	-7.409932e-26	0.004307501	8.479315e-26
1e+07	0.006184173	0.003217845	0.9928376	-0.0442167	0.0002431969	0.000967936	-0.0002075914	-0.0001781825
	0.9928376	-0.0442167	0.006181641	0.00321747	-0.0002076936	-0.000178132	0.0002418735	0.0009682255
	0.0002432667	0.0009679039	-0.0002076591	-0.0001781508	0.006137102	0.003227792	0.9928813	-0.04431223
	-0.0002075568	-0.0001782013	0.0002418757	0.0009682231	0.9928813	-0.04431223	0.006134229	0.003227533
2e+07	0.007833192	0.00505374	0.9885358	-0.08685491	0.0003104342	0.001986814	-0.0001735278	-0.0004162025
	0.9885358	-0.08685491	0.007822617	0.005052979	-0.0001735516	-0.0004161245	0.0003051223	0.001987853
	0.0003104199	0.001986777	-0.0001735578	-0.0004161446	0.007803743	0.005094638	0.9885518	-0.08706657
	-0.0001735182	-0.0004162385	0.0003051189	0.001987853	0.9885518	-0.08706657	0.007791776	0.00509409
3e+07	0.009254064	0.006289399	0.9828002	-0.1287057	0.0004720575	0.002922137	-0.0001694962	-0.0005845801
	0.9828002	-0.1287057	0.009230238	0.006289872	-0.0001695255	-0.0005845606	0.0004602637	0.002924688
	0.0004720538	0.002922137	-0.0001695273	-0.0005845604	0.009240378	0.00634495	0.9827835	-0.1290161
	-0.000169498	-0.0005845841	0.0004602634	0.00292469	0.9827835	-0.1290161	0.009213539	0.006346066
4e+07	0.01058827	0.007247592	0.9754944	-0.1700436	0.0007292803	0.003815421	-0.00019804	-0.0007302731
	0.9754944	-0.1700436	0.0105458	0.007250936	-0.0001981096	-0.0007302589	0.0007085744	0.003820557
	0.0007292855	0.003815421	-0.000198106	-0.0007302579	0.0105902	0.007312798	0.9754387	-0.1704467
	-0.0001980327	-0.0007302663	0.0007085751	0.003820557	0.9754387	-0.1704467	0.01054245	0.007317346
5e+07	0.01188176	0.008006078	0.9665828	-0.2108865	0.001135111	0.004652695	-0.0003145967	-0.0008452025
	0.9665828	-0.2108865	0.01181537	0.008015273	-0.0003146921	-0.0008451634	0.001103232	0.004661737
	0.001135114	0.004652693	-0.0003146897	-0.0008451637	0.0118992	0.008077536	0.9664816	-0.2113775
	-0.0003145907	-0.0008452005	0.001103233	0.004661737	0.9664816	-0.2113775	0.0118246	0.008088915
6e+07	0.01315378	0.008600839	0.9560593	-0.2512098	0.001603183	0.005442942	-0.0004354769	-0.0009439504
	0.9560593	-0.2512098	0.01305904	0.008619526	-0.0004355866	-0.000943882	0.001558069	0.005457535
	0.001603182	0.005442943	-0.0004355872	-0.0009438815	0.01318667	0.008675796	0.9559061	-0.2517842
	-0.0004354825	-0.0009439512	0.00155807	0.005457535	0.9559061	-0.2517842	0.0130803	0.008698151
7e+07	0.01441227	0.009051616	0.9439305	-0.2909717	0.00213005	0.006182185	-0.0005604107	-0.001027653
	0.9439305	-0.2909717	0.01428524	0.009083661	-0.0005605373	-0.001027555	0.002069849	0.006204222
	0.002130048	0.00618219	-0.0005605398	-0.001027553	0.01446048	0.009127566	0.9437189	-0.2916247
	-0.0005604283	-0.001027651	0.00206985	0.006204222	0.9437189	-0.2916247	0.01431797	0.00916522
8e+07	0.01565955	0.009371196	0.9302102	-0.3301228	0.002711452	0.006865897	-0.0006885936	-0.00109667
	0.9302102	-0.3301228	0.01549651	0.009420798	-0.0006887482	-0.001096535	0.002634537	0.006897497
	0.002711451	0.006865902	-0.0006887509	-0.001096531	0.01572276	0.009445695	0.9299343	-0.3308493
	-0.0006886157	-0.001096662	0.002634539	0.006897496	0.9299343	-0.3308493	0.01553996	0.009503327
9e+07	0.01689533	0.009569728	0.9149173	-0.3686106	0.003342275	0.007489112	-0.0008187595	-0.001150727
	0.9149173	-0.3686106	0.0166928	0.00964164	-0.0008189543	-0.001150535	0.003247267	0.007532604
	0.003342275	0.007489116	-0.000818956	-0.001150532	0.01697296	0.009640259	0.9145715	-0.3694053
	-0.0008187756	-0.001150717	0.003247268	0.007532603	0.9145715	-0.3694053	0.01674591	0.009723201
1e+08	0.01812162	0.00966302	0.8980708	-0.4063883	0.004015165	0.008043806	-0.0009478179	-0.001186129
	0.8980708	-0.4063883	0.01787656	0.009762637	-0.000948061	-0.001185852	0.003900942	0.008101705
	0.004015165	0.008043806	-0.000948061	-0.001185852	0.01821239	0.009726213	0.8976501	-0.4072445
	-0.0009478179	-0.001186129	0.003900942	0.008101705	0.8976501	-0.4072445	0.01793762	0.00984058
1.1e+08	0.01936249	0.00962067	0.8796721	-0.4433623	0.004712317	0.008541767	-0.001063076	-0.001218861
	0.8796721	-0.4433623	0.01907347	0.009753466	-0.001063339	-0.001218507	0.004578091	0.008616757
	0.004712316	0.008541767	-0.001063339	-0.001218507	0.01946209	0.009677006	0.8791751	-0.4442767
	-0.001063077	-0.001218861	0.004578089	0.008616757	0.8791751	-0.4442767	0.01913813	0.009828976
1.2e+08	0.02056599	0.009448708	0.8598001	-0.4794774	0.005447862	0.008979418	-0.001183998	-0.001248887
	0.8598001	-0.4794774	0.02023151	0.009620673	-0.001184273	-0.001248448	0.00529314	0.009074263
	0.005447862	0.008979419	-0.001184273	-0.001248448	0.02067482	0.009498586	0.8592203	-0.4804464
	-0.001183998	-0.001248887	0.005293138	0.009074264	0.8592203	-0.4804464	0.02030004	0.009694865
1.3e+08	0.02173067	0.009162851	0.8384848	-0.5146891	0.006213942	0.009349245	-0.001308225	-0.001271582
	0.8384848	-0.5146891	0.02134998	0.009380158	-0.001308501	-0.001271049	0.006038537	0.009466801
	0.006213942	0.009349245	-0.001308501	-0.001271049	0.02184857	0.009205594	0.837817	-0.5157076
	-0.001308225	-0.001271581	0.006038535	0.009466802	0.837817	-0.5157076	0.02142219	0.009453103
1.4e+08	0.02285158	0.008770274	0.8157627	-0.5489447	0.007003779	0.009647902	-0.00143478	-0.001286059
	0.8157627	-0.5489447	0.02242465	0.009039222	-0.001435045	-0.001285426	0.006807825	0.009791084
	0.007003779	0.009647903	-0.001435045	-0.001285426	0.02297821	0.008805006	0.8150017	-0.5500072
	-0.00143478	-0.001286058	0.006807824	0.009791085	0.8150017	-0.5500072	0.02250022	0.009110807
1.5e+08	0.02392323	0.008276982	0.7916731	-0.5821917	0.007810578	0.00987316	-0.001562899	-0.00129202
	0.7916731	-0.5821917	0.02345075	0.008603932	-0.00156314	-0.001291283	0.00759454	0.0100449
	0.007810578	0.00987316	-0.00156314	-0.001291282	0.02405809	0.008302772	0.7908142	-0.583292
	-0.001562899	-0.00129202	0.007594539	0.0100449	0.7908142	-0.583292	0.02352929	0.008673999
1.6e+08	0.02494002	0.007688665	0.7662579	-0.614378	0.008627461	0.01002358	-0.001691919	-0.001289411
	0.7662579	-0.614378	0.02442336	0.008079981	-0.001692122	-0.001288566	0.008392137	0.01022682
	0.008627461	0.01002358	-0.001692122	-0.001288566	0.02508246	0.007704581	0.7652967	-0.6155098
	-0.001691919	-0.001289411	0.008392137	0.01022682	0.7652967	-0.6155098	0.02450445	0.008148361
1.7e+08	0.02589635	0.007011002	0.7395612	-0.645453	0.009447496	0.01009844	-0.001821249	-0.00127831
	0.7395612	-0.645453	0.02533761	0.007472979	-0.001821399	-0.001277355	0.009194015	0.01033604
	0.009447496	0.01009844	-0.001821398	-0.001277355	0.02604562	0.007016142	0.738494	-0.6466095
	-0.001821249	-0.00127831	0.009194015	0.01033604	0.738494	-0.6466095	0.0254208	0.007539525
1.8e+08	0.02678677	0.006249809	0.7116297	-0.6753675	0.01026373	0.01009768	-0.001950362	-0.001258877
	0.7116297	-0.6753675	0.02618878	0.006788603	-0.001950442	-0.001257814	0.009993554	0.01037245
	0.01026373	0.01009768	-0.001950441	-0.001257814	0.026942	0.006243329	0.7104528	-0.6765419
	-0.001950361	-0.001258877	0.009993554	0.01037245	0.7104528	-0.6765419	0.02627358	0.006853202
1.9e+08	0.02760605	0.005411125	0.6825118	-0.704074	0.01106925	0.01002188	-0.002078789	-0.001231329
	0.6825118	-0.704074	0.02697232	0.006032678	-0.002078783	-0.001230162	0.01078416	0.01033651
	0.01106925	0.01002188	-0.002078783	-0.001230162	0.02776625	0.005392246	0.681222	-0.705259
	-0.002078789	-0.001231329	0.01078416	0.01033651	0.681222	-0.705259	0.02705824	0.006095251
2e+08	0.02834921	0.004501233	0.652258	-0.7315269	0.01185723	0.009872282	-0.002206123	-0.001195917
	0.652258	-0.7315269	0.02768395	0.005211199	-0.002206014	-0.001194652	0.01155932	0.01022931
	0.01185723	0.009872282	-0.002206014	-0.001194652	0.02851334	0.004469269	0.6508527	-0.7327151
	-0.002206123	-0.001195917	0.01155932	0.01022931	0.6508527	-0.7327151	0.02777049	0.005271719
2.1e+08	0.02901163	0.003526691	0.6209208	-0.7576823	0.01262097	0.009650724	-0.00233201	-0.001152916
	0.6209208	-0.7576823	0.02831971	0.004330364	-0.002331783	-0.001151561	0.01231264	0.01005251
	0.01262098	0.009650724	-0.002331783	-0.001151561	0.02917853	0.003481045	0.6193977	-0.7588661
	-0.00233201	-0.001152916	0.01231264	0.01005251	0.6193977	-0.7588661	0.02840635	0.004388845
2.2e+08	0.02958907	0.002494331	0.5885544	-0.7824987	0.013354	0.009359657	-0.002456154	-0.001102609
	0.5885544	-0.7824987	0.02887598	0.003396576	-0.002455793	-0.001101175	0.01303791	0.009808343
	0.013354	0.009359657	-0.002455793	-0.001101175	0.02975752	0.002434514	0.5869116	-0.7836702
	-0.002456154	-0.001102609	0.01303791	0.009808343	0.5869116	-0.7836702	0.02896221	0.003453078
2.3e+08	0.0300777	0.001411261	0.5552146	-0.8059365	0.01405004	0.009002106	-0.002578311	-0.00104528
	0.5552146	-0.8059365	0.02934953	0.002416444	-0.002577803	-0.001043781	0.01372914	0.009499602
	0.01405004	0.009002106	-0.002577803	-0.001043781	0.03024642	0.001336896	0.5534507	-0.8070877
	-0.002578311	-0.00104528	0.01372914	0.009499602	0.5534507	-0.8070877	0.02943486	0.002471077
2.4e+08	0.03047418	0.0002848187	0.520959	-0.8279584	0.01470315	0.008581653	-0.002698285	-0.0009812036
	0.520959	-0.8279584	0.02973754	0.001396745	-0.002697618	-0.0009796551	0.01438062	0.009129598
	0.01470315	0.008581653	-0.002697618	-0.0009796552	0.03064183	0.0001956511	0.5190731	-0.8290812
	-0.002698285	-0.0009812036	0.01438062	0.009129598	0.5190731	-0.8290812	0.02982147	0.001449668
2.5e+08	0.03077564	-0.0008774202	0.4858464	-0.8485294	0.01530771	0.008102405	-0.002815928	-0.0009106376
	0.4858464	-0.8485294	0.03003764	0.0003444378	-0.002815091	-0.0009090575	0.01498694	0.008702142
	0.01530771	0.008102405	-0.002815091	-0.0009090575	0.03094087	-0.0009815155	0.483838	-0.8496156
	-0.002815929	-0.0009106376	0.01498694	0.008702142	0.483838	-0.8496156	0.03011972	0.0003958569
2.6e+08	0.03097979	-0.002067696	0.4499372	-0.8676168	0.0158585	0.007568963	-0.00293113	-0.0008338154
	0.4499372	-0.8676168	0.03024797	-0.0007333897	-0.002930115	-0.0008322232	0.01554306	0.008221518
	0.0158585	0.007568963	-0.002930115	-0.0008322232	0.03114117	-0.002186715	0.4478062	-0.8686581
	-0.00293113	-0.0008338154	0.01554306	0.008221518	0.4478062	-0.8686581	0.03032772	-0.0006832256
2.7e+08	0.03108486	-0.003278095	0.4132931	-0.8851904	0.01635071	0.006986383	-0.003043816	-0.0007509408
	0.4132931	-0.8851904	0.03036711	-0.001829542	-0.003042617	-0.0007493573	0.01604433	0.007692443
	0.01635071	0.006986383	-0.003042617	-0.0007493573	0.03124099	-0.003411898	0.41104	-0.8861785
	-0.003043816	-0.0007509408	0.01604433	0.007692443	0.41104	-0.8861785	0.0304441	-0.00178034
2.8e+08	0.03108968	-0.00450058	0.3759767	-0.9012225	0.01678001	0.006360141	-0.003153936	-0.0006621824
	0.3759767	-0.9012225	0.03039418	-0.00293674	-0.003152551	-0.0006606296	0.01648656	0.007120037
	0.01678001	0.006360141	-0.003152551	-0.0006606296	0.03123914	-0.004648882	0.3736024	-0.902149
	-0.003153936	-0.0006621824	0.01648656	0.007120037	0.3736024	-0.902149	0.03046803	-0.002888159
2.9e+08	0.03099367	-0.005727043	0.338052	-0.9156879	0.01714258	0.005696085	-0.003261465	-0.0005676701
	0.338052	-0.9156879	0.03032883	-0.004047669	-0.003259894	-0.0005661706	0.01686599	0.006509777
	0.01714258	0.005696085	-0.003259894	-0.0005661706	0.03113506	-0.005889426	0.335558	-0.9165444
	-0.003261465	-0.0005676701	0.01686599	0.006509777	0.335558	-0.9165444	0.03039916	-0.003999336
3e+08	0.03079687	-0.006949348	0.2995837	-0.9285639	0.01743512	0.005000392	-0.003366386	-0.0004674922
	0.2995837	-0.9285639	0.03017123	-0.005155014	-0.003364633	-0.0004660687	0.01717938	0.00586746
	0.01743512	0.005000392	-0.003364633	-0.0004660687	0.03092879	-0.00712525	0.296972	-0.929342
	-0.003366386	-0.0004674922	0.01717938	0.00586746	0.296972	-0.929342	0.03023771	-0.005106513
3.1e+08	0.03049992	-0.008159367	0.2606378	-0.9398305	0.01765489	0.004279521	-0.003468689	-0.0003616938
	0.2606378	-0.9398305	0.02992209	-0.006251484	-0.003466761	-0.0003603689	0.01742403	0.005199152
	0.01765489	0.004279521	-0.003466761	-0.0003603689	0.03062105	-0.008348087	0.2579105	-0.9405219
	-0.003468689	-0.0003616937	0.01742403	0.005199152	0.2579105	-0.9405219	0.02998443	-0.00620237
3.2e+08	0.03010409	-0.009349044	0.2212805	-0.9494705	0.01779976	0.00354016	-0.003568361	-0.0002502763
	0.2212805	-0.9494705	0.02958266	-0.007329879	-0.003566268	-0.0002490719	0.01759776	0.004511148
	0.01779976	0.00354016	-0.003566268	-0.0002490719	0.03021314	-0.009549744	0.2184407	-0.9500669
	-0.003568361	-0.0002502763	0.01759776	0.004511148	0.2184407	-0.9500669	0.02964062	-0.007279671
3.3e+08	0.02961129	-0.01051043	0.181579	-0.957469	0.01786817	0.002789174	-0.003665377	-0.0001331985
	0.181579	-0.957469	0.02915475	-0.008383106	-0.00366313	-0.0001321353	0.01769898	0.003809917
	0.01786817	0.002789174	-0.00366313	-0.0001321352	0.02970703	-0.01072215	0.1786301	-0.9579623
	-0.003665377	-0.0001331985	0.01769898	0.003809917	0.1786301	-0.9579623	0.02920811	-0.008331302
3.4e+08	0.02902401	-0.01163574	0.141601	-0.9638143	0.01785922	0.002033553	-0.003759691	-1.037801e-05
	0.141601	-0.9638143	0.02864066	-0.009404227	-0.003757308	-9.475013e-06	0.01772665	0.003102054
	0.01785922	0.002033553	-0.003757308	-9.475003e-06	0.02910531	-0.01185737	0.1385469	-0.9641964
	-0.003759691	-1.037801e-05	0.01772665	0.003102054	0.1385469	-0.9641964	0.02868928	-0.009350301
3.5e+08	0.02834539	-0.0127174	0.1014147	-0.968497	0.01777259	0.001280353	-0.003851233	0.000118305
	0.1014147	-0.968497	0.02804325	-0.01038651	-0.003848731	0.0001190308	0.01768036	0.002394231
	0.01777259	0.001280353	-0.003848731	0.0001190308	0.02841119	-0.01294772	0.09825956	-0.9687601
	-0.003851233	0.000118305	0.01768036	0.002394231	0.09825956	-0.9687601	0.02808702	-0.01032992
3.6e+08	0.02757912	-0.01374808	0.06108847	-0.9715108	0.01760864	0.0005366452	-0.003939895	0.000253004
	0.06108847	-0.9715108	0.02736586	-0.01132345	-0.003937296	0.000253538	0.01756025	0.00169314
	0.01760864	0.0005366452	-0.003937296	0.000253538	0.02762848	-0.01398577	0.05783716	-0.9716471
	-0.003939895	0.000253004	0.01756025	0.00169314	0.05783716	-0.9716471	0.02740473	-0.01126363
3.7e+08	0.02672948	-0.01472077	0.02069099	-0.972852	0.01736833	-0.0001905432	-0.00402553	0.0003939007
	0.02069099	-0.972852	0.02661235	-0.01220884	-0.004022857	0.0003942313	0.0173671	0.001005445
	0.01736833	-0.0001905432	-0.004022857	0.0003942313	0.02676158	-0.01496439	0.01734879	-0.9728539
	-0.00402553	0.0003939007	0.0173671	0.001005445	0.01734879	-0.9728539	0.02664633	-0.01214522
3.8e+08	0.0258013	-0.0156288	-0.01970895	-0.9725196	0.01705326	-0.0008942849	-0.004107944	0.0005411988
	-0.01970895	-0.9725196	0.02578703	-0.01303675	-0.004105222	0.0005413175	0.01710225	0.0003377261
	0.01705326	-0.0008942849	-0.004105222	0.0005413175	0.02581544	-0.01587682	-0.02313631	-0.9723799
	-0.004107944	0.0005411988	0.01710225	0.0003377261	-0.02313631	-0.9723799	0.02581617	-0.01296878
3.9e+08	0.02479995	-0.01646591	-0.06004256	-0.9705157	0.01666565	-0.001567807	-0.004186891	0.0006951168
	-0.06004256	-0.9705157	0.02489466	-0.01380165	-0.004184146	0.0006950185	0.01676764	-0.0003035689
	0.01666565	-0.001567807	-0.004184146	0.0006950185	0.02479555	-0.01671672	-0.0635489	-0.9702273
	-0.004186891	0.0006951168	0.01676764	-0.0003035689	-0.0635489	-0.9702273	0.02491908	-0.01372874
4e+08	0.02373127	-0.01722626	-0.1002412	-0.9668448	0.01620832	-0.002204546	-0.004262067	0.0008558802
	-0.1002412	-0.9668448	0.02394044	-0.01449836	-0.004259326	0.0008555636	0.01636576	-0.0009121791
	0.01620832	-0.002204546	-0.004259326	0.0008555636	0.02370793	-0.01747818	-0.1038199	-0.9664011
	-0.004262067	0.0008558802	0.01636576	-0.0009121791	-0.1038199	-0.9664011	0.02396031	-0.01441996
4.1e+08	0.02260158	-0.01790449	-0.1402364	-0.9615147	0.01568468	-0.002798202	-0.004333112	0.001023713
	-0.1402364	-0.9615147	0.02292993	-0.01512214	-0.004330402	0.00102318	0.01589968	-0.001482079
	0.01568468	-0.002798202	-0.004330402	0.00102318	0.02255903	-0.01815579	-0.1438804	-0.960909
	-0.004333112	0.001023713	0.01589968	-0.001482079	-0.1438804	-0.960909	0.02294548	-0.0150377
4.2e+08	0.0214176	-0.01849577	-0.1799601	-0.9545354	0.01509868	-0.003342786	-0.004399603	0.001198829
	-0.1799601	-0.9545354	0.0218691	-0.0156687	-0.004396952	0.001198087	0.01537298	-0.002007525
	0.01509868	-0.003342786	-0.004396952	0.001198087	0.02135574	-0.01874467	-0.1836619	-0.9537616
	-0.004399603	0.001198829	0.01537298	-0.002007525	-0.1836619	-0.9537616	0.0218806	-0.01557768
4.3e+08	0.02018646	-0.01899581	-0.2193446	-0.9459202	0.01445483	-0.003832676	-0.004461056	0.001381421
	-0.2193446	-0.9459202	0.02076417	-0.01613421	-0.004458489	0.001380479	0.01478975	-0.002483105
	0.01445483	-0.003832676	-0.004458489	0.001380479	0.02010534	-0.0192405	-0.2230965	-0.9449725
	-0.004461056	0.001381421	0.01478975	-0.002483105	-0.2230965	-0.9449725	0.02077197	-0.01603611
4.4e+08	0.0189156	-0.0194009	-0.2583229	-0.9356848	0.0137581	-0.004262656	-0.004516926	0.001571654
	-0.2583229	-0.9356848	0.01962172	-0.01651538	-0.004514467	0.001570527	0.01415455	-0.002903781
	0.0137581	-0.004262656	-0.004514467	0.001570527	0.01881546	-0.01963956	-0.2621165	-0.9345578
	-0.004516926	0.001571654	0.01415455	-0.002903781	-0.2621165	-0.9345578	0.0196262	-0.01640972
4.5e+08	0.01761277	-0.01970793	-0.2968285	-0.9238478	0.01301397	-0.004627966	-0.004566609	0.001769654
	-0.2968285	-0.9238478	0.01844853	-0.01680941	-0.004564282	0.001768358	0.0134724	-0.00326493
	0.01301397	-0.004627966	-0.004564282	0.001768358	0.01749401	-0.01993875	-0.3006553	-0.9225365
	-0.004566609	0.001769654	0.0134724	-0.00326493	-0.3006553	-0.9225365	0.01845012	-0.01669574
4.6e+08	0.01628595	-0.01991446	-0.334796	-0.9104307	0.01222829	-0.004924338	-0.004609446	0.001975497
	-0.334796	-0.9104307	0.0172516	-0.01701408	-0.004607271	0.001974054	0.01274871	-0.003562382
	0.01222829	-0.004924338	-0.004607271	0.001974054	0.01614915	-0.02013563	-0.338647	-0.9089303
	-0.004609446	0.001975497	0.01274871	-0.003562382	-0.338647	-0.9089303	0.01725079	-0.01689198
4.7e+08	0.01494332	-0.02001865	-0.3721605	-0.8954572	0.01140732	-0.005148036	-0.004644725	0.002189205
	-0.3721605	-0.8954572	0.0160381	-0.01712771	-0.00464272	0.002187639	0.01198924	-0.003792454
	0.01140732	-0.005148036	-0.00464272	0.002187639	0.01478921	-0.02022839	-0.3760264	-0.8937637
	-0.004644725	0.002189205	0.01198924	-0.003792454	-0.3760264	-0.8937637	0.01603538	-0.0169968
4.8e+08	0.01359319	-0.02001936	-0.4088585	-0.8789543	0.01055764	-0.005295884	-0.004671691	0.002410732
	-0.4088585	-0.8789543	0.01481528	-0.01714921	-0.00466987	0.002409069	0.01120008	-0.003951987
	0.01055764	-0.005295884	-0.00466987	0.002409069	0.01342269	-0.02021596	-0.4127298	-0.8770638
	-0.004671691	0.002410732	0.01120008	-0.003951987	-0.4127298	-0.8770638	0.01481124	-0.01700916
4.9e+08	0.01224396	-0.01991614	-0.4448274	-0.860951	0.009686087	-0.005365301	-0.004689549	0.002639961
	-0.4448274	-0.860951	0.01359051	-0.01707807	-0.004687921	0.00263823	0.0103876	-0.004038364
	0.009686087	-0.005365301	-0.004687921	0.00263823	0.01205816	-0.02009795	-0.4486942	-0.8588602
	-0.004689549	0.002639961	0.0103876	-0.004038364	-0.4486942	-0.8588602	0.01358574	-0.0169286
5e+08	0.01090405	-0.01970919	-0.480006	-0.8414793	0.00879975	-0.00535432	-0.004697474	0.002876692
	-0.480006	-0.8414793	0.01237115	-0.01691436	-0.004696045	0.002874923	0.009558387	-0.004049541
	0.00879975	-0.00535432	-0.004696045	0.002874923	0.0107042	-0.01987466	-0.4838581	-0.8391855
	-0.004697474	0.002876692	0.009558387	-0.004049541	-0.4838581	-0.8391855	0.01236628	-0.01675526
5.1e+08	0.009581856	-0.01939941	-0.5143343	-0.8205735	0.007905874	-0.005261608	-0.004694619	0.003120642
