!$
! Info: Touchstone file created by Circ.  Input file=Tx_4in_Rx_93ohms_TxVia_60mils_RxVia_70mils.circ
!$
# Hz S RI R 50
0	0.003813732	7.455075e-26	1.366277e-09	6.141036e-28	4.15317e-05	7.446415e-24	1.23258e-09	2.609532e-28
	1.366285e-09	6.141075e-28	0.003809049	8.517142e-26	9.41595e-10	8.801374e-28	4.173622e-05	9.182342e-24
	4.251446e-05	7.576948e-24	9.415837e-10	8.801116e-28	0.00382794	7.144522e-26	-3.306194e-09	4.544615e-25
	1.232579e-09	2.608275e-28	4.200614e-05	9.221719e-24	-3.305782e-09	4.54411e-25	0.003823625	8.477009e-26
1e+07	0.005665842	0.0004008954	2.379742e-09	3.799141e-09	0.0001107359	0.0008915814	-3.607316e-09	3.060336e-08
	2.379742e-09	3.799141e-09	0.005592786	0.0001528138	1.573373e-09	2.685077e-09	0.0001119801	0.0009567613
	0.0001107451	0.000891549	1.573373e-09	2.685077e-09	0.005304125	0.0001831847	-7.104973e-09	1.745325e-08
	-3.607316e-09	3.060336e-08	0.0001119823	0.0009567588	-7.104973e-09	1.745324e-08	0.005495774	0.0001499189
2e+07	0.007041406	-0.0006357434	3.611886e-09	6.967309e-09	0.0002621389	0.00180031	1.184821e-08	2.483214e-08
	3.611886e-09	6.967309e-09	0.006741265	-0.001020798	2.420308e-09	4.981492e-09	0.0002111362	0.00191714
	0.0002621124	0.001800309	2.420308e-09	4.981492e-09	0.006560896	-0.0008602464	-4.594383e-09	6.107375e-09
	1.184821e-08	2.483214e-08	0.0002111328	0.00191714	-4.594383e-09	6.107376e-09	0.00666772	-0.0009869806
3e+07	0.00791532	-0.002276763	5.403563e-09	9.333059e-09	0.0004853732	0.002691099	1.871747e-08	3.124904e-08
	5.403563e-09	9.333059e-09	0.007428919	-0.002685535	3.287842e-09	6.776138e-09	0.0004170534	0.002829488
	0.0004853707	0.002691104	3.287842e-09	6.776138e-09	0.007343541	-0.002489135	5.481299e-09	9.537107e-09
	1.871747e-08	3.124904e-08	0.0004170531	0.00282949	5.481299e-09	9.537107e-09	0.007372962	-0.002641893
4e+07	0.008445923	-0.004149983	7.437707e-09	1.157871e-08	0.0007811483	0.003557679	2.599402e-08	3.821807e-08
	7.437707e-09	1.157871e-08	0.007793685	-0.004538125	4.449095e-09	8.5489e-09	0.0007168722	0.003706122
	0.0007811477	0.003557675	4.449095e-09	8.5489e-09	0.007799625	-0.004333727	8.056198e-09	1.237758e-08
	2.599402e-08	3.821807e-08	0.0007168729	0.003706122	8.056198e-09	1.237758e-08	0.007752082	-0.004491792
5e+07	0.008689986	-0.006151883	9.837547e-09	1.354968e-08	0.001147617	0.004393145	3.427072e-08	4.452534e-08
	9.837547e-09	1.354968e-08	0.007885833	-0.006487897	5.769884e-09	1.016326e-08	0.001083512	0.004546697
	0.001147615	0.004393143	5.769884e-09	1.016326e-08	0.007982006	-0.006294545	1.049469e-08	1.43034e-08
	3.427072e-08	4.452534e-08	0.001083513	0.004546697	1.049469e-08	1.43034e-08	0.007855736	-0.006442746
6e+07	0.008676404	-0.008225835	1.258208e-08	1.516491e-08	0.001581844	0.005191183	4.361932e-08	4.96887e-08
	1.258208e-08	1.516491e-08	0.007732459	-0.008483648	7.265684e-09	1.157929e-08	0.00151416	0.005346775
	0.001581846	0.005191187	7.265684e-09	1.157929e-08	0.007917946	-0.008317235	1.321696e-08	1.582283e-08
	4.361932e-08	4.96887e-08	0.001514161	0.005346776	1.321696e-08	1.582283e-08	0.007711423	-0.008442229
7e+07	0.008423021	-0.01033349	1.561185e-08	1.637157e-08	0.002080287	0.005946024	5.392003e-08	5.344343e-08
	1.561185e-08	1.637157e-08	0.007351066	-0.01048972	8.913695e-09	1.277712e-08	0.00200529	0.006101527
	0.002080296	0.00594603	8.913695e-09	1.277712e-08	0.007624657	-0.01036464	1.626324e-08	1.698441e-08
	5.392003e-08	5.344343e-08	0.002005292	0.006101526	1.626324e-08	1.698441e-08	0.007336788	-0.01045405
8e+07	0.007942494	-0.01244566	1.886253e-08	1.712708e-08	0.002638964	0.006652507	6.498589e-08	5.560918e-08
	1.886253e-08	1.712708e-08	0.006754938	-0.01247735	1.069074e-08	1.373643e-08	0.002552801	0.006806105
	0.002638978	0.00665251	1.069074e-08	1.373643e-08	0.007114885	-0.01240771	1.962124e-08	1.775916e-08
	6.498589e-08	5.560918e-08	0.002552803	0.006806105	1.962124e-08	1.775916e-08	0.006745016	-0.01244915
9e+07	0.00724469	-0.01453919	2.226525e-08	1.739976e-08	0.003253696	0.007306528	7.659276e-08	5.606199e-08
	2.226525e-08	1.739976e-08	0.0059563	-0.01442053	1.256891e-08	1.443977e-08	0.003152051	0.007455833
	0.003253707	0.007306528	1.256891e-08	1.443977e-08	0.006399658	-0.01442158	2.326348e-08	1.810311e-08
	7.659276e-08	5.606199e-08	0.003152052	0.007455833	2.326348e-08	1.810311e-08	0.005948098	-0.01440144
1e+08	0.006334314	-0.01660279	2.575575e-08	1.716438e-08	0.003922046	0.007909474	8.850101e-08	5.471963e-08
	2.575575e-08	1.716438e-08	0.004971887	-0.0162866	1.451791e-08	1.487271e-08	0.003797925	0.008046191
	0.003922046	0.007909474	1.451791e-08	1.487271e-08	0.005491014	-0.01638136	2.716055e-08	1.796745e-08
	8.850101e-08	5.471963e-08	0.003797925	0.008046191	2.716055e-08	1.796745e-08	0.004961909	-0.01627944
1.1e+08	0.00519029	-0.01857675	2.941571e-08	1.651758e-08	0.004611607	0.008456921	1.007906e-07	5.203288e-08
	2.941571e-08	1.651758e-08	0.003848739	-0.01809996	1.651625e-08	1.508018e-08	0.004483959	0.00857384
	0.004611607	0.008456921	1.651625e-08	1.508018e-08	0.004410945	-0.01828163	3.100254e-08	1.728003e-08
	1.007906e-07	5.203288e-08	0.004483957	0.008573841	3.100254e-08	1.728003e-08	0.003829024	-0.01810125
1.2e+08	0.003875739	-0.02044464	3.309005e-08	1.538228e-08	0.005335594	0.008925793	1.131268e-07	4.766446e-08
	3.309005e-08	1.538228e-08	0.002540411	-0.01984287	1.852904e-08	1.502311e-08	0.005205006	0.009035879
	0.005335593	0.008925793	1.852904e-08	1.502311e-08	0.003151107	-0.0201054	3.486212e-08	1.607783e-08
	1.131268e-07	4.766446e-08	0.005205004	0.00903588	3.486212e-08	1.607783e-08	0.002510832	-0.01984905
1.3e+08	0.002397429	-0.02220354	3.673097e-08	1.374739e-08	0.006090018	0.009320003	1.253231e-07	4.159271e-08
	3.673097e-08	1.374739e-08	0.00106335	-0.0214863	2.052769e-08	1.469744e-08	0.00595497	0.009429351
	0.006090018	0.009320003	2.052769e-08	1.469744e-08	0.001723889	-0.02183283	3.868736e-08	1.435043e-08
	1.253231e-07	4.159271e-08	0.005954969	0.009429352	3.868736e-08	1.435043e-08	0.00102323	-0.02149551
1.4e+08	0.0007660952	-0.02384226	4.028396e-08	1.160897e-08	0.006868492	0.009638697	1.371865e-07	3.381932e-08
	4.028396e-08	1.160897e-08	-0.0005692327	-0.02301305	2.248305e-08	1.410135e-08	0.00672748	0.009752008
	0.006868492	0.009638696	2.248305e-08	1.410135e-08	0.0001409779	-0.02344878	4.242075e-08	1.209397e-08
	1.371865e-07	3.381932e-08	0.006727479	0.009752009	4.242075e-08	1.209397e-08	-0.0006205876	-0.02302372
1.5e+08	-0.001006484	-0.02534947	4.369131e-08	8.97379e-09	0.007664193	0.009880823	1.485229e-07	2.436609e-08
	4.369131e-08	8.97379e-09	-0.002344045	-0.02440885	2.43636e-08	1.323899e-08	0.007515977	0.0100022
	0.007664193	0.009880823	2.43636e-08	1.323899e-08	-0.001585524	-0.02493992	4.600156e-08	9.315508e-09
	1.485229e-07	2.436609e-08	0.007515976	0.0100022	4.600156e-08	9.315508e-09	-0.002407271	-0.02441951
1.6e+08	-0.002907799	-0.02671454	4.689621e-08	5.852263e-09	0.008470094	0.01004566	1.59139e-07	1.327495e-08
	4.689621e-08	5.852263e-09	-0.004247374	-0.02566138	2.6139e-08	1.211615e-08	0.008313773	0.01017887
	0.008470094	0.01004566	2.6139e-08	1.211615e-08	-0.003442982	-0.02629438	4.937007e-08	6.026113e-09
	1.59139e-07	1.327495e-08	0.008313773	0.01017887	4.937007e-08	6.026113e-09	-0.004323016	-0.02567057
1.7e+08	-0.004924729	-0.02792783	4.984238e-08	2.260783e-09	0.009279066	0.01013297	1.688447e-07	6.07988e-10
	4.984238e-08	2.260783e-09	-0.006265039	-0.02675995	2.777925e-08	1.074178e-08	0.00911411	0.01028159
	0.009279066	0.01013297	2.777925e-08	1.074178e-08	-0.005418238	-0.02750164	5.246711e-08	2.243089e-09
	1.688447e-07	6.07988e-10	0.00911411	0.0102816	5.246711e-08	2.243089e-09	-0.006353533	-0.02676622
1.8e+08	-0.007043635	-0.0289808	5.247473e-08	-1.778291e-09	0.01008396	0.01014311	1.774553e-07	-1.355278e-08
	5.247473e-08	-1.778291e-09	-0.008382414	-0.0276954	2.925505e-08	9.127955e-09	0.009910219	0.01031054
	0.01008396	0.01014311	2.925505e-08	9.127955e-09	-0.007497645	-0.02855248	5.523481e-08	-2.009985e-09
	1.774553e-07	-1.355278e-08	0.009910219	0.01031054	5.523481e-08	-2.009985e-09	-0.008484071	-0.02769727
1.9e+08	-0.009250428	-0.02986606	5.474002e-08	-6.236702e-09	0.01087765	0.010077	1.847937e-07	-2.910583e-08
	5.474002e-08	-6.236702e-09	-0.01058447	-0.02846	3.053809e-08	7.289906e-09	0.01069538	0.01026651
	0.01087765	0.010077	3.053809e-08	7.289906e-09	-0.009667132	-0.02943898	5.761726e-08	-6.70335e-09
	1.847937e-07	-2.910583e-08	0.01069538	0.01026651	5.761726e-08	-6.70335e-09	-0.01069948	-0.02845599
2e+08	-0.01153066	-0.0305774	5.658748e-08	-1.108045e-08	0.01165316	0.009936215	1.906921e-07	-4.59308e-08
	5.658748e-08	-1.108045e-08	-0.01285588	-0.02904741	3.160145e-08	5.245901e-09	0.01146296	0.01015089
	0.01165316	0.009936215	3.160145e-08	5.245901e-09	-0.01191226	-0.03015445	5.956122e-08	-1.180122e-08
	1.906921e-07	-4.59308e-08	0.01146296	0.01015089	5.956122e-08	-1.180122e-08	-0.01298429	-0.02903605
2.1e+08	-0.01386979	-0.03110986	5.796901e-08	-1.626996e-08	0.01241051	0.009715094	1.949936e-07	-6.388908e-08
	5.796901e-08	-1.626996e-08	-0.01518103	-0.02945271	3.241919e-08	3.017343e-09	0.01220651	0.009965673
	0.01241051	0.009715094	3.241919e-08	3.017343e-09	-0.01421851	-0.03069355	6.101434e-08	-1.72613e-08
	1.949936e-07	-6.388908e-08	0.01220651	0.009965673	6.101434e-08	-1.72613e-08	-0.01532276	-0.0294325
2.2e+08	-0.01625296	-0.03145962	5.884056e-08	-2.176035e-08	0.01314293	0.009414657	1.975551e-07	-8.282528e-08
	5.884056e-08	-2.176035e-08	-0.0175442	-0.02967232	3.296793e-08	6.284451e-10	0.01291977	0.00971343
	0.01314293	0.009414657	3.296793e-08	6.284451e-10	-0.01657101	-0.0310521	6.193008e-08	-2.303568e-08
	1.975551e-07	-8.282528e-08	0.01291977	0.00971343	6.193008e-08	-2.303568e-08	-0.01769902	-0.0296418
2.3e+08	-0.01866481	-0.03162396	5.916298e-08	-2.750192e-08	0.01383542	0.00904756	1.982495e-07	-1.02569e-07
	5.916298e-08	-2.750192e-08	-0.01992955	-0.02970399	3.322764e-08	-1.894394e-09	0.01359676	0.009397278
	0.01383542	0.00904756	3.322764e-08	-1.894394e-09	-0.01895441	-0.03122705	6.226971e-08	-2.907275e-08
	1.982495e-07	-1.02569e-07	0.01359676	0.009397278	6.226971e-08	-2.907275e-08	-0.0200971	-0.02966172
2.4e+08	-0.02109022	-0.0316015	5.890142e-08	-3.344049e-08	0.01448205	0.008617818	1.969655e-07	-1.229354e-07
	5.890142e-08	-3.344049e-08	-0.02232129	-0.02954683	3.318002e-08	-4.522256e-09	0.01423179	0.009020866
	0.01448205	0.008617818	3.318002e-08	-4.522256e-09	-0.02135357	-0.03121673	6.199683e-08	-3.531558e-08
	1.969655e-07	-1.229354e-07	0.01423179	0.009020866	6.199683e-08	-3.531558e-08	-0.02250108	-0.0294914
2.5e+08	-0.02351407	-0.03139203	5.802628e-08	-3.951784e-08	0.01507727	0.00812997	1.936099e-07	-1.437273e-07
	5.802628e-08	-3.951784e-08	-0.02470372	-0.02920122	3.280964e-08	-7.224131e-09	0.01481956	0.008588336
	0.01507727	0.00812997	3.280964e-08	-7.224131e-09	-0.02375335	-0.03102065	6.108055e-08	-4.170303e-08
	1.936099e-07	-1.437273e-07	0.01481956	0.008588336	6.108055e-08	-4.170303e-08	-0.02489512	-0.02913128
2.6e+08	-0.02592139	-0.03099654	5.651366e-08	-4.56722e-08	0.01561596	0.007589034	1.881088e-07	-1.647367e-07
	5.651366e-08	-4.56722e-08	-0.02706136	-0.02866884	3.210411e-08	-9.967169e-09	0.01535514	0.008104291
	0.01561596	0.007589034	3.210411e-08	-9.967169e-09	-0.02613874	-0.03063955	5.949603e-08	-4.817029e-08
	1.881088e-07	-1.647367e-07	0.01535514	0.008104291	5.949603e-08	-4.817029e-08	-0.0272636	-0.0285831
2.7e+08	-0.02829739	-0.0304172	5.434583e-08	-5.183887e-08	0.01609348	0.007000468	1.804088e-07	-1.857468e-07
	5.434583e-08	-5.183887e-08	-0.02937898	-0.02795262	3.105435e-08	-1.271704e-08	0.01583406	0.007573755
	0.01609348	0.007000468	3.105435e-08	-1.271704e-08	-0.0284949	-0.03007536	5.72248e-08	-5.464947e-08
	1.804088e-07	-1.857468e-07	0.01583406	0.007573755	5.72248e-08	-5.464947e-08	-0.02959119	-0.02784984
2.8e+08	-0.03062757	-0.02965731	5.151147e-08	-5.795076e-08	0.01650571	0.006370122	1.704778e-07	-2.065338e-07
	5.151147e-08	-5.795076e-08	-0.03164175	-0.02705668	2.965468e-08	-1.543822e-08	0.01625231	0.007002131
	0.01650571	0.006370122	2.965468e-08	-1.543822e-08	-0.03080727	-0.02933116	5.425517e-08	-6.10702e-08
	1.704778e-07	-2.065338e-07	0.01625231	0.007002131	5.425517e-08	-6.10702e-08	-0.03186292	-0.02693573
2.9e+08	-0.03289781	-0.02872129	4.800598e-08	-6.393905e-08	0.01684907	0.005704192	1.583058e-07	-2.268692e-07
	4.800598e-08	-6.393905e-08	-0.03383529	-0.02598633	2.790302e-08	-1.809434e-08	0.01660641	0.006395158
	0.01684907	0.005704192	2.790302e-08	-1.809434e-08	-0.03306165	-0.02841116	5.05825e-08	-6.736034e-08
	1.583058e-07	-2.268692e-07	0.01660641	0.006395158	5.05825e-08	-6.736034e-08	-0.03406433	-0.02584615
3e+08	-0.03509442	-0.02761463	4.383169e-08	-6.973385e-08	0.01712055	0.005009173	1.439055e-07	-2.46522e-07
	4.383169e-08	-6.973385e-08	-0.03594577	-0.02474799	2.580093e-08	-2.064853e-08	0.01689338	0.005758862
	0.01712055	0.005009173	2.580093e-08	-2.064853e-08	-0.03524427	-0.02732067	4.620939e-08	-7.344666e-08
	1.439055e-07	-2.46522e-07	0.01689338	0.005758862	4.620939e-08	-7.344666e-08	-0.03618147	-0.02458763
3.1e+08	-0.03720423	-0.02634388	3.899801e-08	-7.52649e-08	0.01731774	0.004291797	1.273126e-07	-2.652604e-07
	3.899801e-08	-7.52649e-08	-0.03795998	-0.02334914	2.335369e-08	-2.306379e-08	0.01711083	0.005099506
	0.01731774	0.004291797	2.335369e-08	-2.306379e-08	-0.03734187	-0.02606604	4.114587e-08	-7.925553e-08
	1.273126e-07	-2.652604e-07	0.01711083	0.005099506	4.114587e-08	-7.925553e-08	-0.03820105	-0.02316777
3.2e+08	-0.03921467	-0.02491656	3.352151e-08	-8.046226e-08	0.01743887	0.00355899	1.085858e-07	-2.828544e-07
	3.352151e-08	-8.046226e-08	-0.0398654	-0.02179831	2.057035e-08	-2.530338e-08	0.01725692	0.004423543
	0.01743887	0.00355899	2.057035e-08	-2.530338e-08	-0.03934177	-0.02465464	3.540944e-08	-8.47137e-08
	1.085858e-07	-2.828544e-07	0.01725692	0.004423543	3.540944e-08	-8.47137e-08	-0.04011048	-0.02159521
3.3e+08	-0.04111381	-0.02334113	2.74259e-08	-8.525704e-08	0.01748277	0.002817808	8.780676e-08	-2.990781e-07
	2.74259e-08	-8.525704e-08	-0.04165031	-0.02010495	1.746371e-08	-2.733116e-08	0.0173304	0.003737558
	0.01748277	0.002817808	1.746371e-08	-2.733116e-08	-0.04123194	-0.02309481	2.902511e-08	-8.974904e-08
	8.780676e-08	-2.990781e-07	0.0173304	0.003737558	2.902511e-08	-8.974904e-08	-0.04189794	-0.01987951
3.4e+08	-0.04289049	-0.02162697	2.0742e-08	-8.958211e-08	0.01744894	0.002075381	6.508005e-08	-3.137116e-07
	2.0742e-08	-8.958211e-08	-0.04330379	-0.01827939	1.405025e-08	-2.9112e-08	0.01733063	0.00304822
	0.01744894	0.002075381	1.405025e-08	-2.9112e-08	-0.04300109	-0.02139575	2.20253e-08	-9.429127e-08
	6.508005e-08	-3.137116e-07	0.01733063	0.00304822	2.20253e-08	-9.429127e-08	-0.04355247	-0.01803115
3.5e+08	-0.04453432	-0.01978423	1.350758e-08	-9.337284e-08	0.0173375	0.001338858	4.053231e-08	-3.265435e-07
	1.350758e-08	-9.337284e-08	-0.04481584	-0.01633279	1.035009e-08	-3.06121e-08	0.01725756	0.002362229
	0.0173375	0.001338858	1.035009e-08	-3.06121e-08	-0.0446387	-0.01956752	1.444971e-08	-9.827272e-08
	4.053231e-08	-3.265435e-07	0.01725756	0.002362229	1.444971e-08	-9.827272e-08	-0.04506403	-0.01606142
3.6e+08	-0.04603574	-0.01782387	5.767163e-09	-9.656777e-08	0.01714922	0.0006153495	1.431177e-08	-3.373728e-07
	5.767163e-09	-9.656777e-08	-0.0461774	-0.01427704	6.386833e-09	-3.179943e-08	0.01711174	0.001686258
	0.01714922	0.0006153495	6.386833e-09	-3.179943e-08	-0.04613509	-0.01762098	6.345093e-09	-1.016291e-07
	1.431177e-08	-3.373728e-07	0.01711174	0.001686258	6.345093e-09	-1.016291e-07	-0.04642352	-0.01398235
3.7e+08	-0.04738612	-0.01575752	-2.428285e-09	-9.910932e-08	0.01688551	-8.813074e-05	-1.341272e-08	-3.460111e-07
	-2.428285e-09	-9.910932e-08	-0.04738043	-0.01212468	2.18741e-09	-3.2644e-08	0.01689431	0.001026907
	0.01688551	-8.813074e-05	2.18741e-09	-3.2644e-08	-0.04748148	-0.01556766	-2.235043e-09	-1.043001e-07
	-1.341272e-08	-3.460111e-07	0.01689431	0.001026907	-2.235043e-09	-1.043001e-07	-0.04762287	-0.01180662
3.8e+08	-0.04857776	-0.01359742	-1.102168e-08	-1.009445e-07	0.01654841	-0.0007647202	-4.245281e-08	-3.522847e-07
	-1.102168e-08	-1.009445e-07	-0.04841793	-0.009888835	-2.218086e-09	-3.311824e-08	0.01660701	0.0003906454
	0.01654841	-0.0007647202	-2.218086e-09	-3.311824e-08	-0.04867003	-0.01341973	-1.12308e-08	-1.062304e-07
	-4.245281e-08	-3.522847e-07	0.01660701	0.0003906454	-1.12308e-08	-1.062304e-07	-0.04865508	-0.009547501
3.9e+08	-0.04960397	-0.01135638	-1.995025e-08	-1.020253e-07	0.01614056	-0.001407763	-7.260187e-08	-3.560366e-07
	-1.995025e-08	-1.020253e-07	-0.04928399	-0.007583111	-6.796647e-09	-3.31973e-08	0.01625214	-0.0002162357
	0.01614056	-0.001407763	-6.796647e-09	-3.31973e-08	-0.04969391	-0.01118996	-2.057632e-08	-1.073697e-07
	-7.260187e-08	-3.560366e-07	0.01625214	-0.0002162357	-2.057632e-08	-1.073697e-07	-0.04951424	-0.007218748
4e+08	-0.05045905	-0.009047655	-2.914602e-08	-1.023097e-07	0.01566519	-0.00201086	-1.036366e-07	-3.571278e-07
	-2.914602e-08	-1.023097e-07	-0.04997381	-0.005221522	-1.151259e-08	-3.285935e-08	0.01583254	-0.0007876727
	0.01566519	-0.00201086	-1.151259e-08	-3.285935e-08	-0.05054728	-0.008891557	-3.020031e-08	-1.07674e-07
	-1.036366e-07	-3.571278e-07	0.01583254	-0.0007876727	-3.020031e-08	-1.07674e-07	-0.05019557	-0.004834517
4.1e+08	-0.0511384	-0.006684909	-3.853634e-08	-1.017618e-07	0.0151261	-0.002567926	-1.353183e-07	-3.554395e-07
	-3.853634e-08	-1.017618e-07	-0.05048373	-0.002818387	-1.632786e-08	-3.208585e-08	0.01535161	-0.001317878
	0.0151261	-0.002567926	-1.632786e-08	-3.208585e-08	-0.05122538	-0.006538152	-4.002658e-08	-1.071059e-07
	-1.353183e-07	-3.554395e-07	0.01535161	-0.001317878	-4.002658e-08	-1.071059e-07	-0.05069545	-0.002409273
4.2e+08	-0.05163847	-0.004282099	-4.804451e-08	-1.003525e-07	0.0145276	-0.003073229	-1.673954e-07	-3.508744e-07
	-4.804451e-08	-1.003525e-07	-0.05081127	-0.0003882566	-2.120231e-08	-3.08618e-08	0.01481322	-0.001801383
	0.0145276	-0.003073229	-2.120231e-08	-3.08618e-08	-0.05172454	-0.004143697	-4.997469e-08	-1.056349e-07
	-1.673954e-07	-3.508744e-07	0.01481322	-0.001801383	-4.997469e-08	-1.056349e-07	-0.05101142	4.229541e-05
4.3e+08	-0.05195683	-0.001853405	-5.75904e-08	-9.805997e-08	0.01387453	-0.003521443	-1.996044e-07	-3.433583e-07
	-5.75904e-08	-9.805997e-08	-0.0509551	0.002054199	-2.609406e-08	-2.917592e-08	0.01422173	-0.002233083
	0.01387453	-0.003521443	-2.609406e-08	-2.917592e-08	-0.05204217	-0.001722377	-5.996062e-08	-1.032382e-07
	-1.996044e-07	-3.433583e-07	0.01422173	-0.002233083	-5.996062e-08	-1.032382e-07	-0.05114223	0.002505377
4.4e+08	-0.05209217	0.0005868528	-6.709115e-08	-9.486981e-08	0.01317217	-0.003907686	-2.316729e-07	-3.328409e-07
	-6.709115e-08	-9.486981e-08	-0.05091508	0.004494263	-3.095985e-08	-2.702089e-08	0.01358195	-0.002608276
	0.01317217	-0.003907686	-3.095985e-08	-2.702089e-08	-0.05217682	0.0007114708	-6.989746e-08	-9.990085e-08
	-2.316729e-07	-3.328409e-07	0.01358195	-0.002608276	-6.989746e-08	-9.990085e-08	-0.05108779	0.004965123
4.5e+08	-0.05204427	0.003024304	-7.646165e-08	-9.077564e-08	0.01242624	-0.004227563	-2.633213e-07	-3.192973e-07
	-7.646165e-08	-9.077564e-08	-0.05069224	0.006917277	-3.575542e-08	-2.439343e-08	0.01289907	-0.002922699
	0.01242624	-0.004227563	-3.575542e-08	-2.439343e-08	-0.05212816	0.003143443	-7.969599e-08	-9.561624e-08
	-2.633213e-07	-3.192973e-07	0.01289907	-0.002922699	-7.969599e-08	-9.561624e-08	-0.05084921	0.007406749
4.6e+08	-0.05181409	0.005444635	-8.564747e-08	-8.576687e-08	0.01164283	-0.004477196	-2.942618e-07	-3.027082e-07
	-8.564747e-08	-8.576687e-08	-0.05028876	0.009308731	-4.043399e-08	-2.12941e-08	0.01217866	-0.003172561
	0.01164283	-0.004477196	-4.043399e-08	-2.12941e-08	-0.05189699	0.005559158	-8.929759e-08	-9.037331e-08
	-2.942618e-07	-3.027082e-07	0.01217866	-0.003172561	-8.929759e-08	-9.037331e-08	-0.05042879	0.009815643
4.7e+08	-0.05140363	0.007833607	-9.453185e-08	-7.986203e-08	0.01082836	-0.004653262	-3.242066e-07	-2.831203e-07
	-9.453185e-08	-7.986203e-08	-0.04970798	0.01165434	-4.495197e-08	-1.772865e-08	0.01142661	-0.003354576
	0.01082836	-0.004653262	-4.495197e-08	-1.772865e-08	-0.05148521	0.007944341	-9.858119e-08	-8.419171e-08
