!$
! Info: Touchstone file created by Circ.  Input file=Tx_4in_Rx_100ohms_TxVia_60mils_RxVia_70mils.circ
!$
# Hz S RI R 50
0	0.004297628	7.456736e-26	-2.18729e-05	7.583727e-24	4.153579e-05	8.406823e-24	-2.190966e-05	1.214405e-23
	-2.18729e-05	7.583449e-24	0.004292939	8.519442e-26	-2.183577e-05	3.084592e-24	4.17404e-05	1.036892e-23
	4.251837e-05	8.554192e-24	-2.183577e-05	3.08411e-24	0.004311811	7.14612e-26	-2.186799e-05	7.088812e-24
	-2.190966e-05	1.214355e-23	4.201029e-05	1.041338e-23	-2.186799e-05	7.08906e-24	0.004307501	8.479315e-26
1e+07	0.005764688	0.003296581	-3.421616e-05	-1.677941e-05	0.0001000396	0.0009395216	-9.587762e-05	4.819063e-05
	-3.421616e-05	-1.677941e-05	0.006181641	0.00321747	-1.240843e-05	-5.955593e-06	0.0002418735	0.0009682255
	0.000100049	0.0009394892	-1.240843e-05	-5.955592e-06	0.006013415	0.003200551	-3.592184e-06	-5.78308e-06
	-9.587762e-05	4.819063e-05	0.0002418757	0.0009682231	-3.592185e-06	-5.783082e-06	0.006134229	0.003227533
2e+07	0.007581631	0.005335685	-1.734539e-05	-3.38375e-05	0.0002247451	0.001882246	-0.0001137117	3.808003e-05
	-1.734539e-05	-3.38375e-05	0.007822617	0.005052979	-9.661309e-06	-6.802238e-06	0.0003051223	0.001987853
	0.0002247185	0.001882244	-9.661309e-06	-6.802238e-06	0.007686101	0.005092667	-3.855632e-06	-1.349971e-07
	-0.0001137117	3.808003e-05	0.0003051189	0.001987853	-3.855634e-06	-1.349966e-07	0.007791776	0.00509409
3e+07	0.00913386	0.006628445	-7.04737e-06	-3.934334e-05	0.0004288685	0.002792777	-0.0001278808	3.467378e-05
	-7.04737e-06	-3.934334e-05	0.009230238	0.006289872	-7.69071e-06	-7.358995e-06	0.0004602637	0.002924688
	0.000428866	0.002792781	-7.69071e-06	-7.358995e-06	0.009127438	0.006348815	-4.543976e-06	-1.071697e-06
	-0.0001278808	3.467378e-05	0.0004602634	0.00292469	-4.543976e-06	-1.071697e-06	0.009213539	0.006346066
4e+07	0.01057921	0.007602078	-2.158464e-05	-3.761511e-05	0.0007095129	0.003675048	-0.0001407001	3.153948e-05
	-2.158464e-05	-3.761511e-05	0.0105458	0.007250936	-6.089512e-06	-7.64162e-06	0.0007085744	0.003820557
	0.0007095123	0.003675043	-6.089512e-06	-7.64162e-06	0.01048114	0.007318952	-5.482673e-06	-2.486336e-06
	-0.0001407001	3.153948e-05	0.0007085751	0.003820557	-5.482673e-06	-2.486336e-06	0.01054245	0.007317346
5e+07	0.01196888	0.008351691	-3.405717e-05	-3.287802e-05	0.001063343	0.004524147	-0.0001530092	2.83486e-05
	-3.405717e-05	-3.287802e-05	0.01181537	0.008015273	-4.702506e-06	-7.763621e-06	0.001103232	0.004661737
	0.001063341	0.004524145	-4.702506e-06	-7.763621e-06	0.01179374	0.008084812	-6.58005e-06	-3.608089e-06
	-0.0001530092	2.83486e-05	0.001103233	0.004661737	-6.58005e-06	-3.608089e-06	0.0118246	0.008088915
6e+07	0.01332418	0.008919659	-4.474789e-05	-2.583348e-05	0.001486655	0.005334568	-0.0001652562	2.506399e-05
	-4.474789e-05	-2.583348e-05	0.01305904	0.008619526	-3.44173e-06	-7.766221e-06	0.001558069	0.005457535
	0.001486657	0.005334571	-3.44173e-06	-7.766221e-06	0.01308458	0.008683285	-7.829331e-06	-4.50472e-06
	-0.0001652562	2.506399e-05	0.00155807	0.005457535	-7.829331e-06	-4.50472e-06	0.0130803	0.008698151
7e+07	0.0146538	0.009328948	-5.373971e-05	-1.680933e-05	0.001981869	0.00609882	-0.0001777545	2.160958e-05
	-5.373971e-05	-1.680933e-05	0.01428524	0.009083661	-3.018215e-06	-7.419021e-06	0.002069849	0.006204222
	0.001981878	0.006098826	-3.018215e-06	-7.419021e-06	0.0143615	0.009134583	-9.213905e-06	-5.190147e-06
	-0.0001777545	2.160958e-05	0.00206985	0.006204222	-9.213904e-06	-5.190146e-06	0.01431797	0.00916522
8e+07	0.01595995	0.009593732	-6.098556e-05	-5.906876e-06	0.00253907	0.006812891	-0.0001908144	1.775968e-05
	-6.098556e-05	-5.906877e-06	0.01549651	0.009420798	-4.395995e-06	-6.233639e-06	0.002634537	0.006897497
	0.002539083	0.006812894	-4.395995e-06	-6.233639e-06	0.01562669	0.009451748	-1.071687e-05	-5.66639e-06
	-0.0001908144	1.775968e-05	0.002634539	0.006897496	-1.071686e-05	-5.666389e-06	0.01553996	0.009503327
9e+07	0.01724106	0.00972332	-6.627184e-05	7.060815e-06	0.003151997	0.007472738	-0.000204919	1.289392e-05
	-6.627184e-05	7.060815e-06	0.0166928	0.00964164	-5.481175e-06	-4.750938e-06	0.003247267	0.007532604
	0.003152008	0.007472739	-5.481176e-06	-4.750938e-06	0.0168796	0.009644974	-1.233253e-05	-5.949397e-06
	-0.000204919	1.289392e-05	0.003247268	0.007532603	-1.233253e-05	-5.949397e-06	0.01674591	0.009723201
1e+08	0.01849152	0.00972081	-6.844046e-05	2.4022e-05	0.003816811	0.0080763	-0.0002219321	3.486938e-06
	-6.844046e-05	2.4022e-05	0.01787656	0.009762637	-6.096915e-06	-2.705002e-06	0.003900942	0.008101705
	0.003816811	0.0080763	-6.096915e-06	-2.705002e-06	0.01812163	0.009729232	-1.410016e-05	-6.110948e-06
	-0.0002219321	3.486938e-06	0.003900942	0.008101705	-1.410016e-05	-6.110948e-06	0.01793762	0.00984058
1.1e+08	0.01969365	0.0096111	-6.236961e-05	3.495774e-05	0.004535195	0.008609801	-0.0002264171	-1.05794e-05
	-6.236961e-05	3.495774e-05	0.01907347	0.009753466	-5.416706e-06	-1.294072e-06	0.004578091	0.008616757
	0.004535195	0.008609801	-5.416706e-06	-1.294072e-06	0.01937357	0.00967776	-1.560755e-05	-6.230493e-06
	-0.0002264171	-1.05794e-05	0.004578089	0.008616757	-1.560755e-05	-6.230493e-06	0.01913813	0.009828976
1.2e+08	0.02086653	0.009398773	-6.346489e-05	3.171722e-05	0.005288329	0.009070184	-0.0002292289	-1.783312e-05
	-6.346489e-05	3.171722e-05	0.02023151	0.009620673	-4.976488e-06	-3.768648e-07	0.00529314	0.009074263
	0.005288329	0.009070184	-4.976488e-06	-3.768648e-07	0.02058819	0.009496937	-1.704341e-05	-5.974632e-06
	-0.0002292289	-1.783312e-05	0.005293138	0.009074264	-1.704341e-05	-5.974632e-06	0.02030004	0.009694865
1.3e+08	0.02200284	0.009083118	-6.42428e-05	2.99513e-05	0.006071035	0.009457571	-0.0002318	-2.231808e-05
	-6.42428e-05	2.99513e-05	0.02134998	0.009380158	-4.577782e-06	3.306874e-07	0.006038537	0.009466801
	0.006071035	0.009457571	-4.577782e-06	3.306874e-07	0.02176356	0.009201409	-1.843485e-05	-5.439856e-06
	-0.0002318	-2.231808e-05	0.006038535	0.009466802	-1.843485e-05	-5.439856e-06	0.02142219	0.009453103
1.4e+08	0.02309662	0.008667672	-6.483105e-05	2.912671e-05	0.006876983	0.009770314	-0.0002343022	-2.495512e-05
	-6.483105e-05	2.912671e-05	0.02242465	0.009039222	-4.198987e-06	9.065985e-07	0.006807825	0.009791084
	0.006876983	0.009770314	-4.198987e-06	9.065985e-07	0.02289456	0.008798186	-1.976125e-05	-4.654564e-06
	-0.0002343022	-2.495512e-05	0.006807824	0.009791085	-1.976125e-05	-4.654564e-06	0.02250022	0.009110807
1.5e+08	0.02414201	0.008156704	-6.526265e-05	2.898903e-05	0.007699531	0.01000699	-0.0002367594	-2.620225e-05
	-6.526265e-05	2.898903e-05	0.02345075	0.008603932	-3.831438e-06	1.387686e-06	0.00759454	0.0100449
	0.007699531	0.01000699	-3.831438e-06	1.387686e-06	0.02397557	0.008293249	-2.099724e-05	-3.639251e-06
	-0.0002367594	-2.620225e-05	0.007594539	0.0100449	-2.099724e-05	-3.639251e-06	0.02352929	0.008673999
1.6e+08	0.02513326	0.007554887	-6.554046e-05	2.938511e-05	0.008531853	0.01016664	-0.0002391524	-2.63435e-05
	-6.554046e-05	2.938511e-05	0.02442336	0.008079981	-3.470836e-06	1.795153e-06	0.008392137	0.01022682
	0.008531852	0.01016664	-3.470836e-06	1.795153e-06	0.02500083	0.007692312	-2.211706e-05	-2.413412e-06
	-0.0002391524	-2.63435e-05	0.008392137	0.01022682	-2.211706e-05	-2.413412e-06	0.02450445	0.008148361
1.7e+08	0.02606472	0.006867227	-6.565591e-05	3.020948e-05	0.009367023	0.01024885	-0.0002414494	-2.557903e-05
	-6.565591e-05	3.020948e-05	0.02533761	0.007472979	-3.114884e-06	2.142502e-06	0.009194015	0.01033604
	0.009367023	0.01024885	-3.114884e-06	2.142502e-06	0.02596466	0.007001113	-2.309604e-05	-9.975993e-07
	-0.0002414494	-2.557903e-05	0.009194015	0.01033604	-2.309604e-05	-9.975993e-07	0.0254208	0.007539525
1.8e+08	0.02693096	0.006099072	-6.559584e-05	3.138253e-05	0.01019808	0.01025379	-0.0002436161	-2.406239e-05
	-6.559584e-05	3.138253e-05	0.02618878	0.006788603	-2.762283e-06	2.438963e-06	0.009993554	0.01037245
	0.01019808	0.01025379	-2.762283e-06	2.438963e-06	0.0268615	0.006225551	-2.391146e-05	5.858547e-07
	-0.0002436161	-2.406239e-05	0.009993554	0.01037245	-2.391146e-05	5.858547e-07	0.02627358	0.006853202
1.9e+08	0.02772675	0.005256096	-6.534666e-05	3.284218e-05	0.01101808	0.01018222	-0.0002456215	-2.191895e-05
	-6.534666e-05	3.284218e-05	0.02697232	0.006032678	-2.626328e-06	2.489849e-06	0.01078416	0.01033651
	0.01101808	0.01018222	-2.626328e-06	2.489849e-06	0.02768602	0.005371756	-2.454367e-05	2.315303e-06
	-0.0002456215	-2.191895e-05	0.01078416	0.01033651	-2.454367e-05	2.315303e-06	0.02705824	0.006095251
2e+08	0.02844716	0.004344302	-6.489421e-05	3.45322e-05	0.01182016	0.01003551	-0.0002474395	-1.925564e-05
	-6.489421e-05	3.45322e-05	0.02768395	0.005211199	-2.648174e-06	2.399053e-06	0.01155932	0.01022931
	0.01182016	0.01003551	-2.648174e-06	2.399053e-06	0.02843318	0.004446117	-2.497469e-05	4.163926e-06
	-0.0002474395	-1.925564e-05	0.01155932	0.01022931	-2.497469e-05	4.163926e-06	0.02777049	0.005271719
2.1e+08	0.02908761	0.003370011	-6.422635e-05	3.640064e-05	0.01259761	0.009815606	-0.0002490508	-1.616635e-05
	-6.422635e-05	3.640064e-05	0.02831971	0.004330364	-2.665238e-06	2.328718e-06	0.01231264	0.01005251
	0.01259761	0.009815606	-2.665238e-06	2.328718e-06	0.02909829	0.003455307	-2.518988e-05	6.101822e-06
	-0.0002490508	-1.616635e-05	0.01231264	0.01005251	-2.518988e-05	6.101822e-06	0.02840635	0.004388845
2.2e+08	0.0296439	0.002339856	-6.333406e-05	3.840159e-05	0.01334389	0.009525064	-0.0002504428	-1.273508e-05
	-6.333406e-05	3.840159e-05	0.02887598	0.003396576	-2.677664e-06	2.27539e-06	0.01303791	0.009808343
	0.01334389	0.009525064	-2.677664e-06	2.27539e-06	0.02967703	0.002406283	-2.517865e-05	8.099722e-06
	-0.0002504428	-1.273508e-05	0.01303791	0.009808343	-2.517865e-05	8.099722e-06	0.02896221	0.003453078
2.3e+08	0.03011227	0.001260765	-6.221114e-05	4.049206e-05	0.01405272	0.009166999	-0.00025161	-9.037929e-06
	-6.221114e-05	4.049206e-05	0.02934953	0.002416444	-2.685555e-06	2.23623e-06	0.01372914	0.009499602
	0.01405272	0.009166999	-2.685555e-06	2.23623e-06	0.03016555	0.00130628	-2.493415e-05	1.012739e-05
	-0.00025161	-9.037929e-06	0.01372914	0.009499602	-2.493415e-05	1.012739e-05	0.02943486	0.002471077
2.4e+08	0.0304894	0.0001399227	-6.085496e-05	4.263126e-05	0.0147181	0.008745073	-0.0002525544	-5.143481e-06
	-6.085496e-05	4.263126e-05	0.02973754	0.001396745	-2.689131e-06	2.208804e-06	0.01438062	0.009129598
	0.0147181	0.008745073	-2.689131e-06	2.208804e-06	0.03056045	0.0001627722	-2.445335e-05	1.215408e-05
	-0.0002525544	-5.143481e-06	0.01438062	0.009129598	-2.445335e-05	1.215408e-05	0.02982147	0.001449668
2.5e+08	0.03077249	-0.001015245	-5.926617e-05	4.478051e-05	0.01533438	0.008263469	-0.0002532845	-1.113819e-06
	-5.926617e-05	4.478051e-05	0.03003764	0.0003444378	-2.688589e-06	2.191075e-06	0.01498694	0.008702142
	0.01533438	0.008263469	-2.688589e-06	2.191075e-06	0.03085887	-0.001016522	-2.373714e-05	1.414899e-05
	-0.0002532845	-1.113819e-06	0.01498694	0.008702142	-2.373714e-05	1.414899e-05	0.03011972	0.0003958569
2.6e+08	0.03095927	-0.002197117	-5.744901e-05	4.690309e-05	0.01589632	0.007726861	-0.0002538156	2.995746e-06
	-5.744901e-05	4.690309e-05	0.03024797	-0.0007333897	-2.68421e-06	2.18129e-06	0.01554306	0.008221518
	0.01589632	0.007726861	-2.68421e-06	2.18129e-06	0.03105848	-0.002223706	-2.279029e-05	1.608171e-05
	-0.0002538156	2.995746e-06	0.01554306	0.008221518	-2.279029e-05	1.608171e-05	0.03032772	-0.0006832256
2.7e+08	0.03104803	-0.003397904	-5.541113e-05	4.896434e-05	0.01639907	0.007140374	-0.0002541682	7.136032e-06
	-5.541113e-05	4.896434e-05	0.03036711	-0.001829542	-2.676292e-06	2.177954e-06	0.01604433	0.007692443
	0.01639907	0.007140374	-2.676292e-06	2.177954e-06	0.03115753	-0.003450717	-2.162138e-05	1.792269e-05
	-0.0002541682	7.136032e-06	0.01604433	0.007692443	-2.162138e-05	1.792269e-05	0.0304441	-0.00178034
2.8e+08	0.0310376	-0.004609696	-5.316374e-05	5.093183e-05	0.01683829	0.006509552	-0.0002543691	1.126535e-05
	-5.316374e-05	5.093183e-05	0.03039418	-0.00293674	-2.665221e-06	2.179788e-06	0.01648656	0.007120037
	0.01683829	0.006509552	-2.665221e-06	2.179788e-06	0.03115487	-0.004689374	-2.024274e-05	1.964378e-05
	-0.0002543691	1.126535e-05	0.01648656	0.007120037	-2.024274e-05	1.964378e-05	0.03046803	-0.002888159
2.9e+08	0.03092746	-0.005824502	-5.072135e-05	5.277558e-05	0.01721012	0.00584031	-0.000254449	1.53489e-05
	-5.072135e-05	5.277558e-05	0.03032883	-0.004047669	-2.651423e-06	2.185708e-06	0.01686599	0.006509777
	0.01721012	0.00584031	-2.651423e-06	2.185708e-06	0.03104995	-0.005931424	-1.867016e-05	2.121862e-05
	-0.000254449	1.53489e-05	0.01686599	0.006509777	-1.867016e-05	2.121862e-05	0.03039916	-0.003999336
3e+08	0.03071764	-0.007034304	-4.810141e-05	5.446827e-05	0.01751125	0.005138888	-0.0002544426	1.935858e-05
	-4.810141e-05	5.446827e-05	0.03017123	-0.005155014	-2.635348e-06	2.194809e-06	0.01717938	0.00586746
	0.01751125	0.005138888	-2.635348e-06	2.194809e-06	0.03084284	-0.007168589	-1.692272e-05	2.262302e-05
	-0.0002544426	1.935858e-05	0.01717938	0.00586746	-1.692272e-05	2.262302e-05	0.03023771	-0.005106513
3.1e+08	0.03040882	-0.008231083	-4.532437e-05	5.598556e-05	0.01773892	0.004411811	-0.0002543879	2.32747e-05
	-4.532437e-05	5.598556e-05	0.02992209	-0.006251484	-2.617499e-06	2.206356e-06	0.01742403	0.005199152
	0.01773892	0.004411811	-2.617499e-06	2.206356e-06	0.03053425	-0.008392602	-1.502245e-05	2.38355e-05
	-0.0002543879	2.32747e-05	0.01742403	0.005199152	-1.502245e-05	2.38355e-05	0.02998443	-0.00620237
3.2e+08	0.03000228	-0.009406892	-4.24131e-05	5.730626e-05	0.01789099	0.003665827	-0.0002543246	2.708467e-05
	-4.24131e-05	5.730626e-05	0.02958266	-0.007329879	-2.598396e-06	2.219769e-06	0.01759776	0.004511148
	0.01789099	0.003665827	-2.598396e-06	2.219769e-06	0.03012553	-0.009595271	-1.2994e-05	2.483754e-05
	-0.0002543246	2.708467e-05	0.01759776	0.004511148	-1.2994e-05	2.483754e-05	0.02964062	-0.007279671
3.3e+08	0.02949992	-0.01055389	-3.939258e-05	5.841251e-05	0.01796591	0.002907866	-0.0002542936	3.078286e-05
	-3.939258e-05	5.841251e-05	0.02915475	-0.008383106	-2.578559e-06	2.23461e-06	0.01769898	0.003809917
	0.01796591	0.002907866	-2.578559e-06	2.23461e-06	0.02961867	-0.01076852	-1.086421e-05	2.561382e-05
	-0.0002542936	3.078286e-05	0.01769898	0.003809917	-1.086421e-05	2.561382e-05	0.02920811	-0.008331302
3.4e+08	0.02890425	-0.01166439	-3.628967e-05	5.929012e-05	0.01796273	0.002144975	-0.0002543363	3.437237e-05
	-3.628967e-05	5.929012e-05	0.02864066	-0.009404227	-2.558526e-06	2.25059e-06	0.01772665	0.003102054
	0.01796273	0.002144975	-2.558526e-06	2.25059e-06	0.02901626	-0.01190444	-8.661725e-06	2.615265e-05
	-0.0002543363	3.437237e-05	0.01772665	0.003102054	-8.661725e-06	2.615265e-05	0.02868928	-0.009350301
3.5e+08	0.02821837	-0.01273091	-3.313252e-05	5.992855e-05	0.01788117	0.001384272	-0.0002544932	3.786299e-05
	-3.313252e-05	5.992855e-05	0.02804325	-0.01038651	-2.538821e-06	2.267552e-06	0.01768036	0.002394231
	0.01788117	0.001384272	-2.538821e-06	2.267552e-06	0.02832154	-0.01299533	-6.416436e-06	2.644528e-05
	-0.0002544932	3.786299e-05	0.01768036	0.002394231	-6.416436e-06	2.644528e-05	0.02808702	-0.01032992
3.6e+08	0.02744598	-0.01374622	-2.995027e-05	6.032115e-05	0.01772158	0.0006328863	-0.0002548011	4.126991e-05
	-2.995027e-05	6.032115e-05	0.02736586	-0.01132345	-2.517792e-06	2.282946e-06	0.01756025	0.00169314
	0.01772158	0.0006328863	-2.517792e-06	2.282946e-06	0.02753833	-0.01403378	-4.172489e-06	2.673074e-05
	-0.0002548011	4.126991e-05	0.01756025	0.00169314	-4.172489e-06	2.673074e-05	0.02740473	-0.01126363
3.7e+08	0.02659135	-0.01470342	-2.677241e-05	6.046513e-05	0.01748491	-0.0001020992	-0.0002552984	4.461935e-05
	-2.677241e-05	6.046513e-05	0.02661235	-0.01220884	-2.497967e-06	2.298588e-06	0.0173671	0.001005445
	0.01748491	-0.0001020992	-2.497967e-06	2.298588e-06	0.02667105	-0.01501267	-1.928607e-06	2.681157e-05
	-0.0002552984	4.461935e-05	0.0173671	0.001005445	-1.928607e-06	2.681157e-05	0.02664633	-0.01214522
3.8e+08	0.02565927	-0.0155959	-2.362842e-05	6.036157e-05	0.0171728	-0.0008137016	-0.0002560183	4.794274e-05
	-2.362842e-05	6.036157e-05	0.02578703	-0.01303675	-2.480243e-06	2.31519e-06	0.01710225	0.0003377261
	0.0171728	-0.0008137016	-2.480243e-06	2.31519e-06	0.02572467	-0.01592525	2.883685e-07	2.66422e-05
	-0.0002560183	4.794274e-05	0.01710225	0.0003377261	2.883685e-07	2.66422e-05	0.02581617	-0.01296878
3.9e+08	0.02465508	-0.0164175	-2.054733e-05	6.00154e-05	0.01678745	-0.001495095	-0.0002569893	5.127735e-05
	-2.054733e-05	6.00154e-05	0.02489466	-0.01380165	-2.465003e-06	2.333095e-06	0.01676764	-0.0003035689
	0.01678745	-0.001495095	-2.465003e-06	2.333095e-06	0.02470469	-0.0167652	2.447635e-06	2.622935e-05
	-0.0002569893	5.127735e-05	0.01676764	-0.0003035689	2.447635e-06	2.622935e-05	0.02491908	-0.01372874
4e+08	0.0235846	-0.01716245	-1.75572e-05	5.943524e-05	0.01633172	-0.002139664	-0.0002582349	5.466526e-05
	-1.75572e-05	5.943524e-05	0.02394044	-0.01449836	-2.452547e-06	2.352738e-06	0.01636576	-0.0009121791
	0.01633172	-0.002139664	-2.452547e-06	2.352738e-06	0.02361713	-0.01752661	4.51953e-06	2.558347e-05
	-0.0002582349	5.466526e-05	0.01636576	-0.0009121791	4.51953e-06	2.558347e-05	0.02396031	-0.01441996
4.1e+08	0.02245409	-0.01782549	-1.46847e-05	5.863332e-05	0.01580901	-0.002741059	-0.0002597726	5.815368e-05
	-1.46847e-05	5.863332e-05	0.02292993	-0.01512214	-2.443091e-06	2.374634e-06	0.01589968	-0.001482079
	0.01580901	-0.002741059	-2.443091e-06	2.374634e-06	0.02246847	-0.01820409	6.476019e-06	2.471877e-05
	-0.0002597726	5.815368e-05	0.01589968	-0.001482079	6.476019e-06	2.471877e-05	0.02294548	-0.0150377
4.2e+08	0.02127026	-0.01840184	-1.195467e-05	5.76252e-05	0.01522333	-0.003293246	-0.0002616137	6.179432e-05
	-1.195467e-05	5.76252e-05	0.0218691	-0.0156687	-2.436755e-06	2.399366e-06	0.01537298	-0.002007525
	0.01522333	-0.003293246	-2.436755e-06	2.399366e-06	0.0212656	-0.01879278	8.291158e-06	2.36529e-05
	-0.0002616137	6.179432e-05	0.01537298	-0.002007525	8.291158e-06	2.36529e-05	0.0218806	-0.01557768
4.3e+08	0.02004016	-0.01888727	-9.389726e-06	5.642955e-05	0.01457918	-0.003790556	-0.0002637622	6.564177e-05
	-9.389726e-06	5.642955e-05	0.02076417	-0.01613421	-2.433546e-06	2.427569e-06	0.01478975	-0.002483105
	0.01457918	-0.003790556	-2.433546e-06	2.427569e-06	0.02001582	-0.01928837	9.941504e-06	2.240663e-05
	-0.0002637622	6.564177e-05	0.01478975	-0.002483105	9.941504e-06	2.240663e-05	0.02077197	-0.01603611
4.4e+08	0.0187712	-0.01927815	-7.009871e-06	5.506775e-05	0.01388159	-0.004227732	-0.0002662147	6.975259e-05
	-7.009871e-06	5.506775e-05	0.01962172	-0.01651538	-2.433363e-06	2.45991e-06	0.01415455	-0.002903781
	0.01388159	-0.004227732	-2.433363e-06	2.45991e-06	0.01872675	-0.01968718	1.140651e-05	2.100359e-05
	-0.0002662147	6.975259e-05	0.01415455	-0.002903781	1.140651e-05	2.100359e-05	0.0196262	-0.01640972
4.5e+08	0.01747107	-0.01957143	-4.832199e-06	5.356366e-05	0.01313604	-0.004599975	-0.000268961	7.418268e-05
	-4.832199e-06	5.356366e-05	0.01844853	-0.01680941	-2.435981e-06	2.497077e-06	0.0134724	-0.00326493
	0.01313604	-0.004599975	-2.435981e-06	2.497077e-06	0.01740632	-0.0199861	1.266887e-05	1.946984e-05
	-0.000268961	7.418268e-05	0.0134724	-0.00326493	1.266887e-05	1.946984e-05	0.01845012	-0.01669574
4.6e+08	0.0161477	-0.01976469	-2.870675e-06	5.194385e-05	0.01234843	-0.00490298	-0.0002719999	7.894236e-05
	-2.870675e-06	5.194385e-05	0.0172516	-0.01701408	-2.441047e-06	2.539752e-06	0.01274871	-0.003562382
	0.01234843	-0.00490298	-2.441047e-06	2.539752e-06	0.01606268	-0.02018273	1.371473e-05	1.783416e-05
	-0.0002719999	7.894236e-05	0.01274871	-0.003562382	1.371473e-05	1.783416e-05	0.01725079	-0.01689198
4.7e+08	0.01480919	-0.01985614	-1.129303e-06	5.014203e-05	0.01152504	-0.005132977	-0.0002727275	9.033602e-05
	-1.129303e-06	5.014203e-05	0.0160381	-0.01712771	-2.449115e-06	2.59007e-06	0.01198924	-0.003792454
	0.01152504	-0.005132977	-2.449115e-06	2.59007e-06	0.01470419	-0.0202753	1.453598e-05	1.603092e-05
	-0.0002727275	9.033602e-05	0.01198924	-0.003792454	1.453598e-05	1.603092e-05	0.01603538	-0.0169968
