!$
! Info: Touchstone file created by Circ.  Input file=Tx_4in_Rx_93ohms_TxVia_60mils_RxVia_70mils.circ
!$
# Hz S RI R 50
0	0.003813506	7.24044e-26	-2.178573e-05	7.261769e-26	4.203411e-05	7.265119e-24	-2.178399e-05	1.598782e-26
	-2.178572e-05	7.239869e-26	0.003809049	8.517142e-26	-2.178545e-05	7.546738e-26	4.173622e-05	9.182342e-24
	4.311841e-05	7.313698e-24	-2.178545e-05	7.54054e-26	0.003829077	7.236381e-26	-2.178585e-05	1.976993e-25
	-2.178398e-05	1.553962e-26	4.200614e-05	9.221719e-24	-2.178585e-05	1.975329e-25	0.003823625	8.477009e-26
1e+07	0.005288713	0.0001877883	-5.575384e-07	-8.136842e-06	0.0001109669	0.000897305	-5.624245e-07	-8.345061e-06
	-5.575384e-07	-8.136842e-06	0.005592786	0.0001528138	-2.544931e-06	-1.648566e-06	0.0001119801	0.0009567613
	0.000110998	0.0008973094	-2.544931e-06	-1.648566e-06	0.005681304	0.000400998	-8.63556e-06	-2.399596e-06
	-5.624247e-07	-8.345062e-06	0.0001119823	0.0009567588	-8.63556e-06	-2.399596e-06	0.005495774	0.0001499189
2e+07	0.006544083	-0.0008491823	-2.468332e-06	-5.643483e-06	0.0002583415	0.001810594	-2.687227e-06	-5.991518e-06
	-2.468332e-06	-5.643483e-06	0.006741265	-0.001020798	-9.526319e-06	-9.256275e-06	0.0002111362	0.00191714
	0.0002583555	0.001810575	-9.526319e-06	-9.256275e-06	0.00705922	-0.0006375394	-9.382609e-06	8.020385e-07
	-2.687227e-06	-5.991518e-06	0.0002111328	0.00191714	-9.382608e-06	8.020386e-07	0.00666772	-0.0009869806
3e+07	0.007325588	-0.002471106	-3.989206e-06	-4.942724e-06	0.0004786565	0.002703647	-4.376498e-06	-5.300711e-06
	-3.989206e-06	-4.942724e-06	0.007428919	-0.002685535	-1.492262e-05	-1.053493e-05	0.0004170534	0.002829488
	0.0004786573	0.002703645	-1.492262e-05	-1.053493e-05	0.007935275	-0.002281336	-1.010659e-05	7.097716e-07
	-4.376498e-06	-5.300711e-06	0.0004170531	0.00282949	-1.010659e-05	7.097715e-07	0.007372962	-0.002641893
4e+07	0.007780694	-0.004308223	-5.261032e-06	-4.288228e-06	0.0007720668	0.00357183	-5.788429e-06	-4.614855e-06
	-5.261032e-06	-4.288228e-06	0.007793685	-0.004538125	-1.943111e-05	-1.004609e-05	0.0007168722	0.003706122
	0.0007720707	0.003571835	-1.943111e-05	-1.004609e-05	0.00846799	-0.004158049	-1.066954e-05	1.087185e-06
	-5.788429e-06	-4.614856e-06	0.0007168729	0.003706122	-1.066954e-05	1.087185e-06	0.007752082	-0.004491792
5e+07	0.007962372	-0.006261055	-6.341637e-06	-3.542844e-06	0.001136498	0.004408544	-6.988916e-06	-3.811025e-06
	-6.341637e-06	-3.542844e-06	0.007885833	-0.006487897	-2.327422e-05	-8.515949e-06	0.001083512	0.004546697
	0.001136501	0.004408545	-2.327422e-05	-8.515949e-06	0.008714	-0.006164129	-1.110408e-05	1.696341e-06
	-6.988916e-06	-3.811025e-06	0.001083513	0.004546697	-1.110408e-05	1.696341e-06	0.007855736	-0.006442746
6e+07	0.00789798	-0.008275278	-7.255155e-06	-2.680617e-06	0.001568895	0.005207581	-8.005812e-06	-2.869e-06
	-7.255155e-06	-2.680617e-06	0.007732459	-0.008483648	-2.654634e-05	-6.221372e-06	0.00151416	0.005346775
	0.001568891	0.00520758	-2.654634e-05	-6.221372e-06	0.008702094	-0.008242899	-1.14223e-05	2.456036e-06
	-8.005812e-06	-2.869e-06	0.001514161	0.005346776	-1.14223e-05	2.456035e-06	0.007711423	-0.008442229
7e+07	0.007604828	-0.01031377	-8.009586e-06	-1.694688e-06	0.002065629	0.005963207	-8.84874e-06	-1.783805e-06
	-8.009586e-06	-1.694688e-06	0.007351066	-0.01048972	-2.927966e-05	-3.288413e-06	0.00200529	0.006101527
	0.002065618	0.005963206	-2.927966e-05	-3.288413e-06	0.008450015	-0.01035598	-1.162668e-05	3.330628e-06
	-8.84874e-06	-1.783805e-06	0.002005292	0.006101526	-1.162668e-05	3.330628e-06	0.007336788	-0.01045405
8e+07	0.007095764	-0.01234753	-8.601253e-06	-5.75789e-07	0.002622641	0.00667025	-9.514449e-06	-5.452088e-07
	-8.601253e-06	-5.757889e-07	0.006754938	-0.01247735	-3.146423e-05	2.448866e-07	0.002552801	0.006806105
	0.002622626	0.006670252	-3.146423e-05	2.448866e-07	0.007970308	-0.01247413	-1.175055e-05	4.198244e-06
	-9.514449e-06	-5.452089e-07	0.002552803	0.006806105	-1.175055e-05	4.198244e-06	0.006745016	-0.01244915
9e+07	0.00638191	-0.01435176	-9.009683e-06	7.062065e-07	0.003235657	0.007324529	-9.983274e-06	8.839889e-07
	-9.009683e-06	7.062064e-07	0.0059563	-0.01442053	-3.303473e-05	4.452247e-06	0.003152051	0.007455833
	0.003235646	0.007324533	-3.303473e-05	4.452247e-06	0.007272717	-0.01457417	-1.206718e-05	4.373655e-06
	-9.983274e-06	8.839888e-07	0.003152052	0.007455833	-1.206718e-05	4.373655e-06	0.005948098	-0.01440144
1e+08	0.005475376	-0.01630166	-9.120167e-06	2.347353e-06	0.003901958	0.007926926	-1.012815e-05	2.730011e-06
	-9.120167e-06	2.347353e-06	0.004971887	-0.0162866	-3.359721e-05	1.002035e-05	0.003797925	0.008046191
	0.003901958	0.007926926	-3.359721e-05	1.002035e-05	0.006361792	-0.01664477	-1.246811e-05	4.301801e-06
	-1.012815e-05	2.730011e-06	0.003797925	0.008046191	-1.246811e-05	4.301801e-06	0.004961909	-0.01627944
1.1e+08	0.004398132	-0.01819193	-8.331156e-06	3.553443e-06	0.0045914	0.008473091	-9.247404e-06	4.101315e-06
	-8.331156e-06	3.553443e-06	0.003848739	-0.01809996	-3.096568e-05	1.417483e-05	0.004483959	0.00857384
	0.0045914	0.008473091	-3.096568e-05	1.417483e-05	0.005216249	-0.01862581	-1.233689e-05	3.982315e-06
	-9.247404e-06	4.101315e-06	0.004483957	0.008573841	-1.233689e-05	3.982315e-06	0.003829024	-0.01810125
1.2e+08	0.00314194	-0.02000567	-7.672149e-06	4.36322e-06	0.005315527	0.008941568	-8.721501e-06	4.595378e-06
	-7.672149e-06	4.36322e-06	0.002540411	-0.01984287	-2.965463e-05	1.52282e-05	0.005205006	0.009035879
	0.005315527	0.008941568	-2.965463e-05	1.52282e-05	0.003899536	-0.02050081	-1.214383e-05	3.927982e-06
	-8.721501e-06	4.595378e-06	0.005205004	0.00903588	-1.214383e-05	3.927982e-06	0.002510832	-0.01984905
1.3e+08	0.001719202	-0.02172312	-7.52482e-06	4.229052e-06	0.006070131	0.00933569	-8.620217e-06	4.33436e-06
	-7.52482e-06	4.229052e-06	0.00106335	-0.0214863	-2.925077e-05	1.469703e-05	0.00595497	0.009429351
	0.00607013	0.00933569	-2.925077e-05	1.469703e-05	0.002418351	-0.02226685	-1.194629e-05	3.971824e-06
	-8.620217e-06	4.33436e-06	0.005954969	0.009429352	-1.194629e-05	3.971824e-06	0.00102323	-0.02149551
1.4e+08	0.0001416016	-0.02332925	-7.410688e-06	4.09026e-06	0.006848787	0.009654475	-8.508273e-06	4.163147e-06
	-7.410688e-06	4.09026e-06	-0.0005692327	-0.02301305	-2.880354e-05	1.442158e-05	0.00672748	0.009752008
	0.006848787	0.009654475	-2.880354e-05	1.442158e-05	0.0007834053	-0.0239127	-1.17408e-05	4.063647e-06
	-8.508273e-06	4.163147e-06	0.006727479	0.009752009	-1.17408e-05	4.063647e-06	-0.0006205876	-0.02302372
1.5e+08	-0.001578763	-0.02481081	-7.290349e-06	4.003269e-06	0.00764466	0.00989681	-8.391024e-06	4.052261e-06
	-7.290349e-06	4.003269e-06	-0.002344045	-0.02440885	-2.833106e-05	1.43153e-05	0.007515977	0.0100022
	0.00764466	0.00989681	-2.833106e-05	1.43153e-05	-0.0009935391	-0.02542693	-1.153175e-05	4.188263e-06
	-8.391024e-06	4.052261e-06	0.007515976	0.0100022	-1.153175e-05	4.188263e-06	-0.002407271	-0.02441951
1.6e+08	-0.003429269	-0.02615601	-7.166382e-06	3.953369e-06	0.008450713	0.01006194	-8.271157e-06	3.984957e-06
	-7.166382e-06	3.953369e-06	-0.004247374	-0.02566138	-2.784163e-05	1.432872e-05	0.008313773	0.01017887
	0.008450713	0.01006194	-2.784163e-05	1.432872e-05	-0.002899975	-0.02679884	-1.131913e-05	4.333164e-06
	-8.271157e-06	3.984957e-06	0.008313773	0.01017887	-1.131913e-05	4.333164e-06	-0.004323016	-0.02567057
1.7e+08	-0.005396778	-0.02735443	-7.040128e-06	3.931046e-06	0.009259812	0.0101496	-8.149978e-06	3.9505e-06
	-7.040128e-06	3.931046e-06	-0.006265039	-0.02675995	-2.733938e-05	1.443006e-05	0.00911411	0.01028159
	0.009259812	0.0101496	-2.733938e-05	1.443006e-05	-0.004922785	-0.02801873	-1.110361e-05	4.492048e-06
	-8.149978e-06	3.9505e-06	0.00911411	0.0102816	-1.110361e-05	4.492048e-06	-0.006353533	-0.02676622
1.8e+08	-0.007467677	-0.02839693	-6.912304e-06	3.929762e-06	0.0100648	0.01016014	-8.028112e-06	3.941523e-06
	-6.912304e-06	3.929762e-06	-0.008382414	-0.0276954	-2.682635e-05	1.459754e-05	0.009910219	0.01031054
	0.0100648	0.01016014	-2.682635e-05	1.459754e-05	-0.007048313	-0.02907797	-1.088547e-05	4.660583e-06
	-8.028112e-06	3.941523e-06	0.009910219	0.01031054	-1.088547e-05	4.660583e-06	-0.008484071	-0.02769727
1.9e+08	-0.009627924	-0.02927565	-6.78331e-06	3.944804e-06	0.01085853	0.01009451	-7.905845e-06	3.952719e-06
	-6.78331e-06	3.944804e-06	-0.01058447	-0.02846	-2.630357e-05	1.481545e-05	0.01069538	0.01026651
	0.01085853	0.01009451	-2.630357e-05	1.481545e-05	-0.009262459	-0.0299691	-1.066482e-05	4.835648e-06
	-7.905845e-06	3.952719e-06	0.01069538	0.01026651	-1.066482e-05	4.835648e-06	-0.01069948	-0.02845599
2e+08	-0.01186355	-0.02998416	-6.65286e-06	3.972191e-06	0.01164904	0.009938468	-7.783053e-06	3.979974e-06
	-6.65286e-06	3.972191e-06	-0.01285588	-0.02904741	-2.577133e-05	1.507189e-05	0.01146296	0.01015089
	0.01164904	0.009938468	-2.577133e-05	1.507189e-05	-0.01155117	-0.03068599	-1.044148e-05	5.014772e-06
	-7.783053e-06	3.979974e-06	0.01146296	0.01015089	-1.044148e-05	5.014772e-06	-0.01298429	-0.02903605
2.1e+08	-0.01415952	-0.03051691	-6.521604e-06	4.009678e-06	0.01241342	0.00970856	-7.659945e-06	4.020408e-06
	-6.521604e-06	4.009678e-06	-0.01518103	-0.02945271	-2.522994e-05	1.535788e-05	0.01220651	0.009965673
	0.01241342	0.00970856	-2.522994e-05	1.535788e-05	-0.01389932	-0.03122335	-1.021558e-05	5.196275e-06
	-7.659945e-06	4.020408e-06	0.01220651	0.009965673	-1.021558e-05	5.196275e-06	-0.01532276	-0.0294325
2.2e+08	-0.0165009	-0.03086979	-6.389627e-06	4.055198e-06	0.01314416	0.009408623	-7.536456e-06	4.071667e-06
	-6.389627e-06	4.055198e-06	-0.0175442	-0.02967232	-2.467937e-05	1.566624e-05	0.01291977	0.00971343
	0.01314416	0.009408623	-2.467937e-05	1.566624e-05	-0.01629187	-0.03157728	-9.987065e-06	5.378738e-06
	-7.536456e-06	4.071667e-06	0.01291977	0.00971343	-9.987065e-06	5.378738e-06	-0.01769902	-0.0296418
2.3e+08	-0.01887266	-0.03103992	-6.256931e-06	4.107092e-06	0.01383498	0.009042128	-7.412453e-06	4.13187e-06
	-6.256931e-06	4.107092e-06	-0.01992955	-0.02970399	-2.411949e-05	1.599114e-05	0.01359676	0.009397278
	0.01383498	0.009042128	-2.411949e-05	1.599114e-05	-0.0187137	-0.03174511	-9.755869e-06	5.561009e-06
	-7.412453e-06	4.13187e-06	0.01359676	0.009397278	-9.755869e-06	5.561009e-06	-0.0200971	-0.02966172
2.4e+08	-0.02125971	-0.03102566	-6.123526e-06	4.164016e-06	0.01447994	0.008613095	-7.28782e-06	4.199487e-06
	-6.123526e-06	4.164016e-06	-0.02232129	-0.02954683	-2.355022e-05	1.632779e-05	0.01423179	0.009020866
	0.01447994	0.008613095	-2.355022e-05	1.632779e-05	-0.02114961	-0.03172538	-9.521942e-06	5.742143e-06
	-7.28782e-06	4.199487e-06	0.01423179	0.009020866	-9.521942e-06	5.742143e-06	-0.02250108	-0.0294914
2.5e+08	-0.023647	-0.0308266	-5.989385e-06	4.22488e-06	0.01507349	0.008126059	-7.162405e-06	4.273265e-06
	-5.989385e-06	4.22488e-06	-0.02470372	-0.02920122	-2.297144e-05	1.667214e-05	0.01481956	0.008588336
	0.01507349	0.008126059	-2.297144e-05	1.667214e-05	-0.02358445	-0.03151782	-9.285235e-06	5.921346e-06
	-7.162405e-06	4.273265e-06	0.01481956	0.008588336	-9.285235e-06	5.921346e-06	-0.02489512	-0.02913128
2.6e+08	-0.02601958	-0.03044352	-5.854458e-06	4.288724e-06	0.01561054	0.007586037	-7.036065e-06	4.35216e-06
	-5.854458e-06	4.288724e-06	-0.02706136	-0.02866884	-2.238261e-05	1.702029e-05	0.01535514	0.008104291
	0.01561054	0.007586037	-2.238261e-05	1.702029e-05	-0.02600318	-0.03112339	-9.045723e-06	6.097947e-06
	-7.036065e-06	4.35216e-06	0.01535514	0.008104291	-9.045723e-06	6.097947e-06	-0.0272636	-0.0285831
2.7e+08	-0.02836269	-0.02987838	-5.718729e-06	4.354843e-06	0.01608643	0.006998485	-6.908638e-06	4.435285e-06
	-5.718729e-06	4.354843e-06	-0.02937898	-0.02795262	-2.178411e-05	1.736963e-05	0.01583406	0.007573755
	0.01608643	0.006998485	-2.178411e-05	1.736963e-05	-0.02839093	-0.03054418	-8.803369e-06	6.271363e-06
	-6.908638e-06	4.435285e-06	0.01583406	0.007573755	-8.803369e-06	6.271363e-06	-0.02959119	-0.02784984
2.8e+08	-0.03066187	-0.0291343	-5.582176e-06	4.422616e-06	0.01649705	0.006369253	-6.779987e-06	4.521892e-06
	-5.582176e-06	4.422616e-06	-0.03164175	-0.02705668	-2.117607e-05	1.771765e-05	0.01625231	0.007002131
	0.01649705	0.006369253	-2.117607e-05	1.771765e-05	-0.03073315	-0.02978345	-8.558172e-06	6.441091e-06
	-6.779987e-06	4.521892e-06	0.01625231	0.007002131	-8.558172e-06	6.441091e-06	-0.03186292	-0.02693573
2.9e+08	-0.032903	-0.02821551	-5.444764e-06	4.491507e-06	0.01683881	0.005704535	-6.649974e-06	4.611328e-06
	-5.444764e-06	4.491507e-06	-0.03383529	-0.02598633	-2.055857e-05	1.806208e-05	0.01660641	0.006395158
	0.01683881	0.005704535	-2.055857e-05	1.806208e-05	-0.03301562	-0.02884559	-8.310138e-06	6.606687e-06
	-6.649974e-06	4.611328e-06	0.01660641	0.006395158	-8.310138e-06	6.606687e-06	-0.03406433	-0.02584615
3e+08	-0.03507239	-0.02712735	-5.306446e-06	4.561049e-06	0.01710873	0.005010825	-6.518453e-06	4.703018e-06
	-5.306446e-06	4.561049e-06	-0.03594577	-0.02474799	-1.993173e-05	1.840086e-05	0.01689338	0.005758862
	0.01710873	0.005010825	-1.993173e-05	1.840086e-05	-0.03522458	-0.02773607	-8.059279e-06	6.767743e-06
	-6.518453e-06	4.703018e-06	0.01689338	0.005758862	-8.059279e-06	6.767743e-06	-0.03618147	-0.02458763
3.1e+08	-0.03715688	-0.02587618	-5.167194e-06	4.630849e-06	0.01730439	0.004294857	-6.385305e-06	4.796467e-06
	-5.167194e-06	4.630849e-06	-0.03795998	-0.02334914	-1.929575e-05	1.87322e-05	0.01711083	0.005099506
	0.01730439	0.004294857	-1.929575e-05	1.87322e-05	-0.03734678	-0.02646137	-7.805639e-06	6.923908e-06
	-6.385305e-06	4.796467e-06	0.01711083	0.005099506	-7.805639e-06	6.923908e-06	-0.03820105	-0.02316777
3.2e+08	-0.03914389	-0.02446938	-5.026971e-06	4.700555e-06	0.01742403	0.003563553	-6.250407e-06	4.89122e-06
	-5.026971e-06	4.700555e-06	-0.0398654	-0.02179831	-1.865091e-05	1.905444e-05	0.01725692	0.004423543
	0.01742403	0.003563553	-1.865091e-05	1.905444e-05	-0.03936954	-0.02502903	-7.549263e-06	7.07485e-06
	-6.250407e-06	4.89122e-06	0.01725692	0.004423543	-7.549263e-06	7.07485e-06	-0.04011048	-0.02159521
3.3e+08	-0.0410215	-0.02291527	-4.885733e-06	4.769853e-06	0.01746648	0.002823968	-6.113634e-06	4.986863e-06
	-4.885733e-06	4.769853e-06	-0.04165031	-0.02010495	-1.799749e-05	1.936609e-05	0.0173304	0.003737558
	0.01746648	0.002823968	-1.799749e-05	1.936609e-05	-0.04128088	-0.02344749	-7.290205e-06	7.220258e-06
	-6.113634e-06	4.986863e-06	0.0173304	0.003737558	-7.290205e-06	7.220258e-06	-0.04189794	-0.01987951
3.4e+08	-0.04277849	-0.02122305	-4.743454e-06	4.838471e-06	0.01743123	0.002083232	-5.974888e-06	5.083027e-06
	-4.743454e-06	4.838471e-06	-0.04330379	-0.01827939	-1.733588e-05	1.96658e-05	0.01733063	0.00304822
	0.01743123	0.002083232	-1.733588e-05	1.96658e-05	-0.0430695	-0.0217261	-7.028546e-06	7.359858e-06
	-5.974888e-06	5.083027e-06	0.01733063	0.00304822	-7.028546e-06	7.359858e-06	-0.04355247	-0.01803115
3.5e+08	-0.04440445	-0.01940276	-4.600098e-06	4.906155e-06	0.01731843	0.001348493	-5.834067e-06	5.179362e-06
	-4.600098e-06	4.906155e-06	-0.04481584	-0.01633279	-1.66665e-05	1.995235e-05	0.01725756	0.002362229
	0.01731843	0.001348493	-1.66665e-05	1.995235e-05	-0.04472493	-0.01987504	-6.764371e-06	7.493384e-06
	-5.834067e-06	5.179362e-06	0.01725756	0.002362229	-6.764371e-06	7.493384e-06	-0.04506403	-0.01606142
3.6e+08	-0.0458898	-0.01746523	-4.455643e-06	4.972682e-06	0.01712885	0.0006268587	-5.691084e-06	5.27555e-06
	-4.455643e-06	4.972682e-06	-0.0461774	-0.01427704	-1.598984e-05	2.022462e-05	0.01711174	0.001686258
	0.01712885	0.0006268587	-1.598984e-05	2.022462e-05	-0.04623753	-0.01790527	-6.497784e-06	7.620594e-06
	-5.691084e-06	5.27555e-06	0.01711174	0.001686258	-6.497784e-06	7.620594e-06	-0.04642352	-0.01398235
3.7e+08	-0.04722585	-0.01542196	-4.310062e-06	5.037842e-06	0.0168639	-7.465848e-05	-5.545859e-06	5.371286e-06
	-4.310062e-06	5.037842e-06	-0.04738043	-0.01212468	-1.530645e-05	2.048161e-05	0.01689431	0.001026907
	0.0168639	-7.465848e-05	-1.530645e-05	2.048161e-05	-0.04759855	-0.01582843	-6.228902e-06	7.741257e-06
	-5.545859e-06	5.371286e-06	0.01689431	0.001026907	-6.228902e-06	7.741257e-06	-0.04762287	-0.01180662
3.8e+08	-0.04840487	-0.01328507	-4.163334e-06	5.101437e-06	0.01652563	-0.0007491985	-5.398323e-06	5.466281e-06
	-4.163334e-06	5.101437e-06	-0.04841793	-0.009888835	-1.461689e-05	2.07224e-05	0.01660701	0.0003906454
	0.01652563	-0.0007491985	-1.461689e-05	2.07224e-05	-0.04880021	-0.01365681	-5.957852e-06	7.855154e-06
	-5.398323e-06	5.466281e-06	0.01660701	0.0003906454	-5.957852e-06	7.855154e-06	-0.04865508	-0.009547501
3.9e+08	-0.0494201	-0.01106727	-4.015444e-06	5.163284e-06	0.01611668	-0.001390108	-5.248414e-06	5.56026e-06
	-4.015444e-06	5.163284e-06	-0.04928399	-0.007583111	-1.392179e-05	2.094615e-05	0.01625214	-0.0002162357
	0.01611668	-0.001390108	-1.392179e-05	2.094615e-05	-0.04983571	-0.01140324	-5.684779e-06	7.96208e-06
	-5.248414e-06	5.56026e-06	0.01625214	-0.0002162357	-5.684779e-06	7.96208e-06	-0.04951424	-0.007218748
4e+08	-0.05026582	-0.00878171	-3.866379e-06	5.223205e-06	0.01564028	-0.001990992	-5.096083e-06	5.652953e-06
	-3.866379e-06	5.223205e-06	-0.04997381	-0.005221522	-1.322181e-05	2.115211e-05	0.01583254	-0.0007876727
	0.01564028	-0.001990992	-1.322181e-05	2.115211e-05	-0.05069926	-0.009081027	-5.409836e-06	8.061836e-06
	-5.096083e-06	5.652953e-06	0.01583254	-0.0007876727	-5.409836e-06	8.061836e-06	-0.05019557	-0.004834517
4.1e+08	-0.05093732	-0.006441955	-3.716134e-06	5.281034e-06	0.01510024	-0.002545767	-4.941293e-06	5.744104e-06
	-3.716134e-06	5.281034e-06	-0.05048373	-0.002818387	-1.251764e-05	2.133963e-05	0.01535161	-0.001317878
	0.01510024	-0.002545767	-1.251764e-05	2.133963e-05	-0.05138618	-0.006703885	-5.133196e-06	8.154241e-06
	-4.941293e-06	5.744104e-06	0.01535161	-0.001317878	-5.133196e-06	8.154241e-06	-0.05069545	-0.002409273
4.2e+08	-0.05143102	-0.004061873	-3.564712e-06	5.336613e-06	0.01450089	-0.003048707	-4.784018e-06	5.833468e-06
	-3.564712e-06	5.336613e-06	-0.05081127	-0.0003882566	-1.181001e-05	2.150812e-05	0.01481322	-0.001801383
	0.01450089	-0.003048707	-1.181001e-05	2.150812e-05	-0.05189282	-0.004285835	-4.855043e-06	8.239126e-06
	-4.784018e-06	5.833468e-06	0.01481322	-0.001801383	-4.855043e-06	8.239126e-06	-0.05101142	4.229541e-05
4.3e+08	-0.05174442	-0.001655565	-3.41212e-06	5.389788e-06	0.01384705	-0.003494489	-4.624244e-06	5.920804e-06
	-3.41212e-06	5.389788e-06	-0.0509551	0.002054199	-1.109969e-05	2.165709e-05	0.01422173	-0.002233083
	0.01384705	-0.003494489	-1.109969e-05	2.165709e-05	-0.05221667	-0.001841128	-4.575574e-06	8.316331e-06
	-4.624244e-06	5.920804e-06	0.01422173	-0.002233083	-4.575574e-06	8.316331e-06	-0.05114223	0.002505377
4.4e+08	-0.05187613	0.0007627265	-3.258373e-06	5.440408e-06	0.01314404	-0.003878237	-4.461969e-06	6.005875e-06
	-3.258373e-06	5.440408e-06	-0.05091508	0.004494263	-1.038745e-05	2.178609e-05	0.01358195	-0.002608276
	0.01314404	-0.003878237	-1.038745e-05	2.178609e-05	-0.05235633	0.0006158362	-4.294999e-06	8.385707e-06
	-4.461969e-06	6.005875e-06	0.01358195	-0.002608276	-4.294999e-06	8.385707e-06	-0.05108779	0.004965123
4.5e+08	-0.05182587	0.003178697	-3.103492e-06	5.488325e-06	0.01239755	-0.004195561	-4.297202e-06	6.08845e-06
	-3.103492e-06	5.488325e-06	-0.05069224	0.006917277	-9.67408e-06	2.189475e-05	0.01289907	-0.002922699
	0.01239755	-0.004195561	-9.67408e-06	2.189475e-05	-0.05231153	0.003070601	-4.01354e-06	8.447116e-06
	-4.297202e-06	6.08845e-06	0.01289907	-0.002922699	-4.01354e-06	8.447116e-06	-0.05084921	0.007406749
4.6e+08	-0.0515945	0.005578073	-2.947508e-06	5.533402e-06	0.0116137	-0.004442589	-4.129966e-06	6.168264e-06
	-2.947508e-06	5.533402e-06	-0.05028876	0.009308731	-8.960449e-06	2.198273e-05	0.01217866	-0.003172561
	0.0116137	-0.004442589	-8.960449e-06	2.198273e-05	-0.05208313	0.005508741	-3.731424e-06	8.500269e-06
	-4.129966e-06	6.168264e-06	0.01217866	-0.003172561	-3.731424e-06	8.500269e-06	-0.05042879	0.009815643
4.7e+08	-0.05118396	0.007946692	-2.790458e-06	5.575496e-06	0.0107989	-0.004616005	-3.960301e-06	6.245136e-06
	-2.790458e-06	5.575496e-06	-0.04970798	0.01165434	-8.247459e-06	2.204973e-05	0.01142661	-0.003354576
	0.0107989	-0.004616005	-8.247459e-06	2.204973e-05	-0.05167311	0.00791595	-3.448922e-06	8.545076e-06
