!$
! Info: Touchstone file created by Circ.  Input file=Tx_4in_Rx_93ohms_TxVia_60mils_RxVia_70mils.circ
!$
# Hz S RI R 50
0	0.003813693	8.370994e-26	0.9960458	-7.219975e-26	4.50157e-05	8.237752e-24	-4.033543e-05	2.285098e-21
	0.9960458	-7.316047e-26	0.003809049	8.517142e-26	-4.081853e-05	2.344281e-21	4.173622e-05	9.182342e-24
	4.623676e-05	8.003935e-24	-4.012582e-05	2.259446e-21	0.003824594	8.306067e-26	0.996024	-7.01122e-26
	-4.060571e-05	2.318194e-21	4.200614e-05	9.221719e-24	0.9960241	-7.408133e-26	0.003823625	8.477009e-26
1e+07	0.005596282	0.0001529718	0.9932589	-0.04475374	0.0001133859	0.0009564328	-7.274878e-05	-0.0001231006
	0.9932589	-0.04475374	0.005592786	0.0001528138	-7.285108e-05	-0.0001230502	0.0001119801	0.0009567613
	0.0001134557	0.0009564006	-7.281651e-05	-0.000123069	0.005499609	0.0001499514	0.9933513	-0.04484877
	-7.271419e-05	-0.0001231194	0.0001119823	0.0009567588	0.9933513	-0.04484877	0.005495774	0.0001499189
2e+07	0.006755628	-0.001020783	0.9889748	-0.08794694	0.0002167958	0.001916017	-6.026633e-05	-0.0002599621
	0.9889748	-0.08794694	0.006741265	-0.001020798	-6.028961e-05	-0.0002598843	0.0002111362	0.00191714
	0.0002167812	0.00191598	-6.029584e-05	-0.0002599043	0.006683466	-0.0009871862	0.98903	-0.08817604
	-6.025678e-05	-0.0002599981	0.0002111328	0.00191714	0.98903	-0.08817605	0.00666772	-0.0009869806
3e+07	0.007461144	-0.002687825	0.9831812	-0.1304053	0.0004296199	0.002826783	-8.37723e-05	-0.0003650654
	0.9831812	-0.1304053	0.007428919	-0.002685535	-8.380087e-05	-0.0003650454	0.0004170534	0.002829488
	0.0004296161	0.002826783	-8.380265e-05	-0.0003650453	0.007408193	-0.002644832	0.9831959	-0.1307398
	-8.37741e-05	-0.0003650694	0.0004170531	0.00282949	0.9831959	-0.1307398	0.007372962	-0.002641893
4e+07	0.007850863	-0.004545144	0.9757504	-0.1723613	0.0007389273	0.003700706	-0.0001323364	-0.0004572517
	0.9757504	-0.1723613	0.007793685	-0.004538125	-0.0001324052	-0.0004572359	0.0007168722	0.003706122
	0.0007389326	0.003700705	-0.0001324015	-0.0004572349	0.007814534	-0.004500023	0.9757192	-0.1727924
	-0.0001323291	-0.000457245	0.0007168729	0.003706122	0.9757192	-0.1727924	0.007752082	-0.004491792
5e+07	0.007974816	-0.006503628	0.9666499	-0.2138217	0.001117443	0.004537083	-0.0001814965	-0.0005431938
	0.9666499	-0.2138217	0.007885833	-0.006487897	-0.0001815915	-0.000543153	0.001083512	0.004546697
	0.001117445	0.004537082	-0.0001815891	-0.0005431533	0.00795294	-0.006460678	0.9665667	-0.2143431
	-0.0001814905	-0.0005431917	0.001083513	0.004546697	0.9665667	-0.2143431	0.007855736	-0.006442746
6e+07	0.007859118	-0.008512943	0.9558755	-0.2547539	0.001562139	0.005331187	-0.00023205	-0.0006249694
	0.9558755	-0.2547539	0.007732459	-0.008483648	-0.0002321604	-0.0006248992	0.00151416	0.005346775
	0.001562138	0.005331189	-0.000232161	-0.0006248987	0.007849736	-0.008475224	0.9557342	-0.2553599
	-0.0002320557	-0.0006249701	0.001514161	0.005346776	0.9557342	-0.2553599	0.007711423	-0.008442229
7e+07	0.007520614	-0.01053783	0.9434356	-0.2951103	0.002069262	0.006077924	-0.0002845511	-0.0007037212
	0.9434356	-0.2951103	0.007351066	-0.01048972	-0.0002846797	-0.0007036211	0.00200529	0.006101527
	0.002069261	0.006077929	-0.0002846821	-0.0007036187	0.007521842	-0.01050783	0.9432299	-0.2957952
	-0.0002845686	-0.0007037185	0.002005292	0.006101526	0.9432299	-0.2957952	0.007336788	-0.01045405
8e+07	0.006972192	-0.01255005	0.9293454	-0.3348362	0.002634463	0.006772204	-0.0003393955	-0.0007802215
	0.9293454	-0.3348362	0.006754938	-0.01247735	-0.0003395538	-0.000780083	0.002552801	0.006806105
	0.002634462	0.00677221	-0.0003395565	-0.0007800793	0.006982077	-0.01252998	0.9290699	-0.335594
	-0.0003394175	-0.0007802131	0.002552803	0.006806105	0.9290699	-0.335594	0.006745016	-0.01244915
9e+07	0.006225644	-0.01452428	0.9136258	-0.3738743	0.003252827	0.007409129	-0.0003969569	-0.0008550728
	0.9136258	-0.3738743	0.0059563	-0.01442053	-0.0003971575	-0.000854876	0.003152051	0.007455833
	0.003252828	0.007409134	-0.0003971591	-0.000854873	0.006242014	-0.01451637	0.9132749	-0.3746987
	-0.000396973	-0.0008550631	0.003152052	0.007455833	0.9132749	-0.3746987	0.005948098	-0.01440144
1e+08	0.005297056	-0.01642864	0.8962967	-0.4121757	0.003918949	0.007983984	-0.0004576954	-0.0009285947
	0.8962967	-0.4121757	0.004971887	-0.0162866	-0.0004579464	-0.0009283098	0.003797925	0.008046191
	0.003918949	0.007983984	-0.0004579463	-0.0009283099	0.005316845	-0.01643645	0.8958663	-0.4130584
	-0.0004576954	-0.0009285947	0.003797925	0.008046191	0.8958663	-0.4130584	0.004961909	-0.01627944
1.1e+08	0.004231644	-0.01828767	0.8773551	-0.4496347	0.004626026	0.008493289	-0.0005219186	-0.001001473
	0.8773551	-0.4496347	0.003848739	-0.01809996	-0.0005221905	-0.001001108	0.004483959	0.00857384
	0.004626026	0.008493289	-0.0005221905	-0.001001108	0.004246902	-0.01830845	0.8768463	-0.4505732
	-0.0005219187	-0.001001473	0.004483957	0.008573841	0.8768463	-0.4505732	0.003829024	-0.01810125
1.2e+08	0.002982798	-0.02008427	0.8568927	-0.4861913	0.005368603	0.00893402	-0.0005907341	-0.001074264
	0.8568927	-0.4861913	0.002540411	-0.01984287	-0.0005910175	-0.001073809	0.005205006	0.009035879
	0.005368602	0.00893402	-0.0005910175	-0.001073808	0.002993514	-0.02011518	0.8562989	-0.4871829
	-0.0005907341	-0.001074264	0.005205004	0.00903588	0.8562989	-0.4871829	0.002510832	-0.01984905
1.3e+08	0.001565969	-0.02178964	0.8349423	-0.5217996	0.00614024	0.009303125	-0.0006648911	-0.001146741
	0.8349423	-0.5217996	0.00106335	-0.0214863	-0.0006651752	-0.001146188	0.00595497	0.009429351
	0.00614024	0.009303125	-0.0006651751	-0.001146187	0.001571501	-0.02182957	0.8342577	-0.5228393
	-0.000664891	-0.001146741	0.005954969	0.009429352	0.8342577	-0.5228393	0.00102323	-0.02149551
1.4e+08	-6.590438e-06	-0.02338672	0.8115433	-0.556404	0.006934216	0.009598299	-0.0007451067	-0.001218696
	0.8115433	-0.556404	-0.0005692327	-0.02301305	-0.0007453787	-0.001218038	0.00672748	0.009752008
	0.006934216	0.009598299	-0.0007453786	-0.001218037	-6.997027e-06	-0.0234349	0.8107627	-0.5574861
	-0.0007451066	-0.001218696	0.006727479	0.009752009	0.8107627	-0.5574861	-0.0006205876	-0.02302372
1.5e+08	-0.001722552	-0.02486132	0.7867385	-0.5899489	0.007743611	0.009817873	-0.0008320795	-0.001289795
	0.7867385	-0.5899489	-0.002344045	-0.02440885	-0.0008323254	-0.001289027	0.007515977	0.0100022
	0.007743611	0.009817873	-0.0008323252	-0.001289027	-0.001729683	-0.02491704	0.7858572	-0.5910671
	-0.0008320794	-0.001289795	0.007515976	0.0100022	0.7858572	-0.5910671	-0.002407271	-0.02441951
1.6e+08	-0.003569169	-0.02620108	0.7605736	-0.6223794	0.008561376	0.009960815	-0.0009264753	-0.001359571
	0.7605736	-0.6223794	-0.004247374	-0.02566138	-0.0009266795	-0.00135869	0.008313773	0.01017887
	0.008561377	0.009960815	-0.0009266793	-0.00135869	-0.003583808	-0.02626366	0.7595872	-0.6235272
	-0.0009264751	-0.001359571	0.008313773	0.01017887	0.7595872	-0.6235272	-0.004323016	-0.02567057
1.7e+08	-0.005533228	-0.02739521	0.7330969	-0.6536423	0.009380393	0.01002675	-0.00102891	-0.001427423
	0.7330969	-0.6536423	-0.006265039	-0.02675995	-0.001029056	-0.001426428	0.00911411	0.01028159
	0.009380393	0.01002675	-0.001029056	-0.001426428	-0.005556145	-0.02746395	0.7320013	-0.6548127
	-0.00102891	-0.001427423	0.00911411	0.0102816	0.7320013	-0.6548127	-0.006353533	-0.02676622
1.8e+08	-0.007601062	-0.02843431	0.7043588	-0.6836862	0.01019353	0.01001594	-0.001139931	-0.001492625
	0.7043588	-0.6836862	-0.008382414	-0.0276954	-0.001140002	-0.001491518	0.009910219	0.01031054
	0.01019353	0.01001594	-0.001140002	-0.001491518	-0.007632991	-0.02850846	0.7031506	-0.6848719
	-0.001139931	-0.001492625	0.009910219	0.01031054	0.7031506	-0.6848719	-0.008484071	-0.02769727
1.9e+08	-0.009758589	-0.02931032	0.6744124	-0.7124617	0.01099373	0.009929317	-0.001260005	-0.001554332
	0.6744124	-0.7124617	-0.01058447	-0.02846	-0.001259983	-0.001553117	0.01069538	0.01026651
	0.01099373	0.009929317	-0.001259983	-0.001553117	-0.009800225	-0.0293891	0.6730884	-0.7136552
	-0.001260005	-0.001554332	0.01069538	0.01026651	0.6730884	-0.7136552	-0.01069948	-0.02845599
2e+08	-0.01199138	-0.0300165	0.6433124	-0.7399215	0.01177401	0.009768446	-0.001389495	-0.001611596
	0.6433124	-0.7399215	-0.01285588	-0.02904741	-0.001389364	-0.00161028	0.01146296	0.01015089
	0.01177401	0.009768446	-0.001389363	-0.00161028	-0.01204337	-0.03009908	0.6418701	-0.741115
	-0.001389494	-0.001611596	0.01146296	0.01015089	0.6418701	-0.741115	-0.01298429	-0.02903605
2.1e+08	-0.01428472	-0.03054739	0.6111159	-0.7660206	0.01252761	0.009535523	-0.001528651	-0.001663375
	0.6111159	-0.7660206	-0.01518103	-0.02945271	-0.001528394	-0.001661968	0.01220651	0.009965673
	0.01252761	0.009535523	-0.001528394	-0.001661968	-0.01434765	-0.03063287	0.6095531	-0.7672061
	-0.001528651	-0.001663375	0.01220651	0.009965673	0.6095531	-0.7672061	-0.01532276	-0.0294325
2.2e+08	-0.01662369	-0.03089879	0.5778817	-0.7907165	0.01324796	0.009233356	-0.001677599	-0.001708549
	0.5778817	-0.7907165	-0.0175442	-0.02967232	-0.0016772	-0.001707063	0.01291977	0.00971343
	0.01324796	0.009233356	-0.0016772	-0.001707063	-0.01669808	-0.03098624	0.5761966	-0.7918858
	-0.001677599	-0.001708549	0.01291977	0.00971343	0.5761966	-0.7918858	-0.01769902	-0.0296418
2.3e+08	-0.01899322	-0.03106775	0.5436701	-0.813969	0.0139288	0.008865337	-0.001836323	-0.001745939
	0.5436701	-0.813969	-0.01992955	-0.02970399	-0.001835767	-0.001744389	0.01359676	0.009397278
	0.0139288	0.008865337	-0.001835767	-0.001744389	-0.01907954	-0.03115621	0.5418616	-0.8151138
	-0.001836323	-0.001745939	0.01359676	0.009397278	0.5418616	-0.8151138	-0.0200971	-0.02966172
2.4e+08	-0.02137823	-0.0310526	0.5085433	-0.8357406	0.01456421	0.008435418	-0.002004662	-0.001774321
	0.5085433	-0.8357406	-0.02232129	-0.02954683	-0.002003939	-0.001772724	0.01423179	0.009020866
	0.01456421	0.008435418	-0.002003939	-0.001772724	-0.02147685	-0.03114103	0.5066107	-0.8368525
	-0.002004662	-0.001774321	0.01423179	0.009020866	0.5066107	-0.8368525	-0.02250108	-0.0294914
2.5e+08	-0.02376362	-0.03085284	0.4725648	-0.8559966	0.01514864	0.007948071	-0.002182304	-0.001792449
	0.4725648	-0.8559966	-0.02470372	-0.02920122	-0.002181402	-0.001790823	0.01481956	0.008588336
	0.01514864	0.007948071	-0.002181402	-0.001790823	-0.02387485	-0.0309402	0.4705078	-0.857067
	-0.002182304	-0.001792449	0.01481956	0.008588336	0.4705078	-0.857067	-0.02489512	-0.02913128
2.6e+08	-0.02613446	-0.03046925	0.4357994	-0.8747047	0.01567698	0.007408256	-0.002368777	-0.00179907
	0.4357994	-0.8747047	-0.02706136	-0.02866884	-0.002367688	-0.001797437	0.01535514	0.008104291
	0.01567698	0.007408256	-0.002367688	-0.001797437	-0.02625851	-0.03055442	0.4336184	-0.875725
	-0.002368777	-0.00179907	0.01535514	0.008104291	0.4336184	-0.875725	-0.0272636	-0.0285831
2.7e+08	-0.02847596	-0.02990373	0.3983131	-0.8918354	0.01614461	0.006821374	-0.00256345	-0.001792948
	0.3983131	-0.8918354	-0.02937898	-0.02795262	-0.002562169	-0.001791329	0.01583406	0.007573755
	0.01614461	0.006821374	-0.00256217	-0.001791329	-0.02861295	-0.02998562	0.3960089	-0.8927971
	-0.00256345	-0.001792948	0.01583406	0.007573755	0.3960089	-0.8927971	-0.02959119	-0.02784984
2.8e+08	-0.03077363	-0.02915938	0.3601731	-0.9073623	0.0165474	0.006193227	-0.002765534	-0.001772881
	0.3601731	-0.9073623	-0.03164175	-0.02705668	-0.00276406	-0.0017713	0.01625231	0.007002131
	0.0165474	0.006193227	-0.00276406	-0.0017713	-0.03092361	-0.02923684	0.357747	-0.9082566
	-0.002765534	-0.001772881	0.01625231	0.007002131	0.357747	-0.9082566	-0.03186292	-0.02693573
2.9e+08	-0.03301334	-0.02824041	0.3214473	-0.9212615	0.01688178	0.005529962	-0.002974085	-0.001737723
	0.3214473	-0.9212615	-0.03383529	-0.02598633	-0.002972419	-0.001736205	0.01660641	0.006395158
	0.01688178	0.005529962	-0.002972419	-0.001736205	-0.03317627	-0.0283123	0.3189011	-0.9220798
	-0.002974085	-0.001737723	0.01660641	0.006395158	0.3189011	-0.9220798	-0.03406433	-0.02584615
3e+08	-0.03518139	-0.02715214	0.2822046	-0.933512	0.01714475	0.004838029	-0.003188008	-0.001686405
	0.2822046	-0.933512	-0.03594577	-0.02474799	-0.003186155	-0.001684972	0.01689338	0.005758862
	0.01714475	0.004838029	-0.003186155	-0.001684972	-0.03535712	-0.0272173	0.2795408	-0.9342457
	-0.003188008	-0.001686405	0.01689338	0.005758862	0.2795408	-0.9342457	-0.03618147	-0.02458763
3.1e+08	-0.0372646	-0.0259009	0.2425146	-0.9440958	0.0173339	0.00412412	-0.003406068	-0.001617948
	0.2425146	-0.9440958	-0.03795998	-0.02334914	-0.003404036	-0.001616624	0.01711083	0.005099506
	0.0173339	0.00412412	-0.003404036	-0.001616624	-0.03745289	-0.02595819	0.2397359	-0.9447365
	-0.003406068	-0.001617948	0.01711083	0.005099506	0.2397359	-0.9447365	-0.03820105	-0.02316777
3.2e+08	-0.03925037	-0.02449408	0.2024473	-0.9529978	0.01744745	0.003395119	-0.003626898	-0.001531488
	0.2024473	-0.9529978	-0.0398654	-0.02179831	-0.003624697	-0.001530295	0.01725692	0.004423543
	0.01744745	0.003395119	-0.003624697	-0.001530295	-0.0394509	-0.02454234	0.1995572	-0.9535371
	-0.003626898	-0.001531488	0.01725692	0.004423543	0.1995572	-0.9535371	-0.04011048	-0.02159521
3.3e+08	-0.04112677	-0.02293997	0.1620733	-0.9602058	0.01748424	0.002658042	-0.00384901	-0.001426286
	0.1620733	-0.9602058	-0.04165031	-0.02010495	-0.003846655	-0.001425245	0.0173304	0.003737558
	0.01748424	0.002658042	-0.003846655	-0.001425245	-0.04133909	-0.02297808	0.1590757	-0.9606353
	-0.00384901	-0.001426286	0.0173304	0.003737558	0.1590757	-0.9606353	-0.04189794	-0.01987951
3.4e+08	-0.04288256	-0.02124778	0.1214635	-0.9657103	0.01744377	0.001919986	-0.004070814	-0.001301747
	0.1214635	-0.9657103	-0.04330379	-0.01827939	-0.004068323	-0.001300879	0.01733063	0.00304822
	0.01744377	0.001919986	-0.004068323	-0.001300879	-0.04310616	-0.02127464	0.1183628	-0.966022
	-0.004070814	-0.001301747	0.01733063	0.00304822	0.1183628	-0.966022	-0.04355247	-0.01803115
3.5e+08	-0.04450733	-0.01942754	0.08068895	-0.969505	0.01732615	0.001188063	-0.004290631	-0.001157434
	0.08068895	-0.969505	-0.04481584	-0.01633279	-0.004288024	-0.001156754	0.01725756	0.002362229
	0.01732615	0.001188063	-0.004288024	-0.001156754	-0.04474157	-0.01944209	0.07748993	-0.9696909
	-0.004290631	-0.001157434	0.01725756	0.002362229	0.07748993	-0.9696909	-0.04506403	-0.01606142
3.6e+08	-0.04599148	-0.01749007	0.03982082	-0.9715863	0.01713215	0.0004693508	-0.004506709	-0.0009930723
	0.03982082	-0.9715863	-0.0461774	-0.01427704	-0.004504008	-0.0009925957	0.01711174	0.001686258
	0.01713215	0.0004693508	-0.004504008	-0.0009925957	-0.04623565	-0.01749127	0.03652889	-0.9716388
	-0.004506709	-0.0009930723	0.01711174	0.001686258	0.03652889	-0.9716388	-0.04642352	-0.01398235
3.7e+08	-0.04732632	-0.01544688	-0.001069766	-0.9719537	0.01686318	-0.0002291691	-0.004717248	-0.0008085663
	-0.001069766	-0.9719537	-0.04738043	-0.01212468	-0.004714478	-0.0008083038	0.01689431	0.001026907
	0.01686318	-0.0002291691	-0.004714478	-0.0008083038	-0.0475796	-0.01543374	-0.004448772	-0.9718653
	-0.004717248	-0.0008085663	0.01689431	0.001026907	-0.004448772	-0.9718653	-0.04762287	-0.01180662
3.8e+08	-0.04850409	-0.01331009	-0.0419118	-0.9706093	0.01652127	-0.0009006649	-0.004920412	-0.0006040014
	-0.0419118	-0.9706093	-0.04841793	-0.009888835	-0.004917599	-0.0006039606	0.01660701	0.0003906454
	0.01652127	-0.0009006649	-0.004917599	-0.0006039606	-0.04876559	-0.0132817	-0.0453716	-0.9703729
	-0.004920412	-0.0006040014	0.01660701	0.0003906454	-0.0453716	-0.9703729	-0.04865508	-0.009547501
3.9e+08	-0.04951803	-0.0110924	-0.08263454	-0.9675584	0.01610905	-0.001538509	-0.005114356	-0.0003796495
	-0.08263454	-0.9675584	-0.04928399	-0.007583111	-0.005111529	-0.0003798344	0.01625214	-0.0002162357
	0.01610905	-0.001538509	-0.005111529	-0.0003798344	-0.04978676	-0.01104791	-0.08616839	-0.9671671
	-0.005114356	-0.0003796495	0.01625214	-0.0002162357	-0.08616839	-0.9671671	-0.04951424	-0.007218748
4e+08	-0.05036239	-0.008806979	-0.1231676	-0.9628089	0.01562974	-0.002136333	-0.005297246	-0.0001359704
	-0.1231676	-0.9628089	-0.04997381	-0.005221522	-0.005294432	-0.000136381	0.01583254	-0.0007876727
	0.01562974	-0.002136333	-0.005294432	-0.000136381	-0.0506373	-0.008745592	-0.1267684	-0.9622561
	-0.005297246	-0.0001359704	0.01583254	-0.0007876727	-0.1267684	-0.9622561	-0.05019557	-0.004834517
4.1e+08	-0.0510325	-0.006467388	-0.1634411	-0.9563716	0.01508713	-0.002688075	-0.005467277	0.0001263891
	-0.1634411	-0.9563716	-0.05048373	-0.002818387	-0.005464504	0.0001257566	0.01535161	-0.001317878
	0.01508713	-0.002688075	-0.005464504	0.0001257566	-0.05131244	-0.006388402	-0.1671012	-0.9556512
	-0.005467277	0.0001263891	0.01535161	-0.001317878	-0.1671012	-0.9556512	-0.05069545	-0.002409273
4.2e+08	-0.05152473	-0.004087507	-0.2033857	-0.9482602	0.01448553	-0.003188031	-0.005622696	0.0004065982
	-0.2033857	-0.9482602	-0.05081127	-0.0003882566	-0.005619991	0.0004057518	0.01481322	-0.001801383
	0.01448553	-0.003188031	-0.005619991	0.0004057518	-0.05180851	-0.003990301	-0.2070971	-0.9473662
	-0.005622696	0.0004065982	0.01481322	-0.001801383	-0.2070971	-0.9473662	-0.05101142	4.229541e-05
4.3e+08	-0.0518366	-0.001681438	-0.2429328	-0.938491	0.01382976	-0.003630898	-0.005761824	0.0007036486
	-0.2429328	-0.938491	-0.0509551	0.002054199	-0.005759215	0.0007026003	0.01422173	-0.002233083
	0.01382976	-0.003630898	-0.005759215	0.0007026003	-0.05212293	-0.001565489	-0.2466872	-0.9374179
	-0.005761824	0.0007036486	0.01422173	-0.002233083	-0.2466872	-0.9374179	-0.05114223	0.002505377
4.4e+08	-0.0519667	0.0007365646	-0.2820144	-0.9270831	0.0131251	-0.004011819	-0.005883072	0.001016362
	-0.2820144	-0.9270831	-0.05091508	0.004494263	-0.005880584	0.001015128	0.01358195	-0.002608276
	0.0131251	-0.004011819	-0.005880584	0.001015128	-0.05225425	0.0008716815	-0.2858031	-0.9258259
	-0.005883072	0.001016362	0.01358195	-0.002608276	-0.2858031	-0.9258259	-0.05108779	0.004965123
4.5e+08	-0.05191474	0.003152189	-0.3205637	-0.9140583	0.01237724	-0.004326418	-0.005984966	0.001343402
	-0.3205637	-0.9140583	-0.05069224	0.006917277	-0.00598262	0.001342001	0.01289907	-0.002922699
	0.01237724	-0.004326418	-0.00598262	0.001342001	-0.05220215	0.003306795	-0.3243776	-0.9126124
	-0.005984966	0.001343402	0.01289907	-0.002922699	-0.3243776	-0.9126124	-0.05084921	0.007406749
4.6e+08	-0.0516816	0.005551152	-0.3585146	-0.8994412	0.01159227	-0.00457084	-0.006066155	0.001683285
	-0.3585146	-0.8994412	-0.05028876	0.009308731	-0.006063972	0.00168174	0.01217866	-0.003172561
	0.01159227	-0.00457084	-0.006063972	0.00168174	-0.05196745	0.005725476	-0.3623443	-0.8978024
	-0.006066155	0.001683285	0.01217866	-0.003172561	-0.3623443	-0.8978024	-0.05042879	0.009815643
4.7e+08	-0.05126921	0.007919282	-0.3958022	-0.8832587	0.01077659	-0.004741779	-0.006125435	0.002034397
	-0.3958022	-0.8832587	-0.04970798	0.01165434	-0.006123431	0.002032733	0.01142661	-0.003354576
	0.01077659	-0.004741779	-0.006123431	0.002032733	-0.05155207	0.008113421	-0.3996381	-0.8814233
	-0.006125435	0.002034397	0.01142661	-0.003354576	-0.3996381	-0.8814233	-0.04982995	0.0121774
4.8e+08	-0.05068064	0.01024261	-0.4323628	-0.8655406	0.009936887	-0.00483651	-0.006161758	0.002395007
	-0.4323628	-0.8655406	-0.04895437	0.01394017	-0.006159947	0.002393253	0.01064908	-0.003465986
	0.009936887	-0.00483651	-0.006159947	0.002393253	-0.05095904	0.01045654	-0.436195	-0.8635053
	-0.006161758	0.002395007	0.01064908	-0.003465986	-0.436195	-0.8635053	-0.04905727	0.01447796
4.9e+08	-0.04992004	0.01250743	-0.4681341	-0.846319	0.009080093	-0.004852904	-0.006174246	0.002763289
	-0.4681341	-0.846319	-0.04803347	0.01615266	-0.006172636	0.002761475	0.009852457	-0.003504584
	0.009080093	-0.004852904	-0.006172636	0.002761475	-0.0501925	0.01274101	-0.4719523	-0.844081
	-0.006174246	0.002763289	0.009852457	-0.003504584	-0.4719523	-0.844081	-0.04811641	0.01670369
5e+08	-0.04899261	0.01470043	-0.5030548	-0.8256285	0.008213303	-0.004789457	-0.006162201	0.003137337
	-0.5030548	-0.8256285	-0.0469519	0.01827877	-0.006160795	0.003135495	0.009043326	-0.003468736
	0.008213303	-0.004789457	-0.006160795	0.003135495	-0.04925764	0.01495339	-0.5068487	-0.8231858
