!$
! Info: Touchstone file created by Circ.  Input file=Tx_4in_Rx_100ohms_TxVia_60mils_RxVia_70mils.circ
!$
# Hz S RI R 50
0	0.004297195	7.321433e-26	1.669749e-09	1.427068e-27	4.261968e-05	8.339991e-24	-1.397068e-10	6.348298e-26
	1.669764e-09	1.427072e-27	0.004292939	8.519442e-26	4.540889e-09	4.939056e-27	4.17404e-05	1.036892e-23
	4.175128e-05	8.302741e-24	4.540889e-09	4.939058e-27	0.004311095	7.405545e-26	3.750394e-09	1.510638e-27
	-1.394147e-10	6.344722e-26	4.201029e-05	1.041338e-23	3.750311e-09	1.510618e-27	0.004307501	8.479315e-26
1e+07	0.00612044	0.003218843	2.085895e-09	3.832334e-09	0.0002433216	0.0009698295	-4.162145e-09	1.141564e-08
	2.085894e-09	3.832334e-09	0.006181641	0.00321747	6.599866e-09	1.341419e-08	0.0002418735	0.0009682255
	0.000243306	0.0009698431	6.599866e-09	1.341419e-08	0.006199696	0.003226084	-2.390462e-09	1.222916e-08
	-4.162145e-09	1.141564e-08	0.0002418757	0.0009682231	-2.390462e-09	1.222916e-08	0.006134229	0.003227533
2e+07	0.007783472	0.005078762	2.780967e-09	7.005463e-09	0.0003107453	0.001990585	1.597763e-09	4.08482e-09
	2.780967e-09	7.005463e-09	0.007822617	0.005052979	8.944157e-09	2.385932e-08	0.0003051223	0.001987853
	0.0003107521	0.001990593	8.944157e-09	2.385932e-08	0.0078518	0.00506847	-1.919479e-10	6.157348e-09
	1.597763e-09	4.08482e-09	0.0003051189	0.001987853	-1.919478e-10	6.157347e-09	0.007791776	0.00509409
3e+07	0.009215453	0.006322817	3.454321e-09	9.820117e-09	0.0004727314	0.002927753	2.537696e-09	6.375594e-09
	3.454321e-09	9.820117e-09	0.009230238	0.006289872	1.065078e-08	3.380012e-08	0.0004602637	0.002924688
	0.0004727324	0.002927753	1.065078e-08	3.380012e-08	0.009276862	0.006309902	3.292187e-09	9.78666e-09
	2.537696e-09	6.375594e-09	0.0004602634	0.00292469	3.292187e-09	9.78666e-09	0.009213539	0.006346066
4e+07	0.01055928	0.007285409	4.146262e-09	1.258474e-08	0.0007304456	0.003822824	3.225023e-09	8.184277e-09
	4.146262e-09	1.258474e-08	0.0105458	0.007250936	1.228704e-08	4.351497e-08	0.0007085744	0.003820557
	0.0007304443	0.003822825	1.228704e-08	4.351497e-08	0.01061632	0.007272993	4.06462e-09	1.275824e-08
	3.225023e-09	8.184277e-09	0.0007085751	0.003820557	4.06462e-09	1.275824e-08	0.01054245	0.007317346
5e+07	0.01186129	0.008046061	4.875816e-09	1.525771e-08	0.001136888	0.00466183	3.926128e-09	9.878595e-09
	4.875816e-09	1.525771e-08	0.01181537	0.008015273	1.385897e-08	5.302088e-08	0.001103232	0.004661737
	0.001136886	0.004661831	1.385897e-08	5.302088e-08	0.01191598	0.008035365	4.666373e-09	1.542903e-08
	3.926128e-09	9.878595e-09	0.001103233	0.004661737	4.666373e-09	1.542903e-08	0.0118246	0.008088915
6e+07	0.01314095	0.00864143	5.641904e-09	1.782554e-08	0.00160569	0.005453738	4.67587e-09	1.148012e-08
	5.641904e-09	1.782554e-08	0.01305904	0.008619526	1.53835e-08	6.234248e-08	0.001558069	0.005457535
	0.001605688	0.005453737	1.53835e-08	6.234248e-08	0.01319493	0.008632897	5.26196e-09	1.798938e-08
	4.67587e-09	1.148012e-08	0.00155807	0.005457535	5.26196e-09	1.798938e-08	0.0130803	0.008698151
7e+07	0.01440626	0.009091562	6.425838e-09	2.027122e-08	0.002133398	0.006194557	5.449745e-09	1.295794e-08
	6.425838e-09	2.027122e-08	0.01428524	0.009083661	1.685178e-08	7.147123e-08	0.002069849	0.006204222
	0.002133394	0.006194556	1.685178e-08	7.147123e-08	0.01446091	0.009085261	5.867228e-09	2.046667e-08
	5.449745e-09	1.295794e-08	0.00206985	0.006204222	5.867228e-09	2.046667e-08	0.01431797	0.00916522
8e+07	0.01565953	0.009409372	7.209077e-09	2.258661e-08	0.002715739	0.006879753	6.228244e-09	1.430784e-08
	7.209077e-09	2.258661e-08	0.01549651	0.009420798	1.826211e-08	8.042669e-08	0.002634537	0.006897497
	0.002715735	0.006879753	1.826211e-08	8.042669e-08	0.01571609	0.009405197	6.485279e-09	2.286603e-08
	6.228244e-09	1.430784e-08	0.002634539	0.006897496	6.485279e-09	2.286603e-08	0.01553996	0.009503327
9e+07	0.01690039	0.009604988	7.984994e-09	2.478317e-08	0.003347593	0.007504354	7.013569e-09	1.555318e-08
	7.984993e-09	2.478317e-08	0.0166928	0.00964164	1.96219e-08	8.924565e-08	0.003247267	0.007532604
	0.00334759	0.007504354	1.96219e-08	8.924565e-08	0.01695999	0.00960283	7.13321e-09	2.520321e-08
	7.013569e-09	1.555318e-08	0.003247268	0.007532603	7.13321e-09	2.520321e-08	0.01674591	0.009723201
1e+08	0.01813032	0.009693387	8.746234e-09	2.685749e-08	0.004021597	0.008060325	7.787346e-09	1.670751e-08
	8.746234e-09	2.685749e-08	0.01787656	0.009762637	2.092793e-08	9.793896e-08	0.003900942	0.008101705
	0.004021597	0.008060325	2.092793e-08	9.793896e-08	0.01819448	0.009693953	7.833992e-09	2.7474e-08
	7.787346e-09	1.670751e-08	0.003900942	0.008101705	7.833992e-09	2.7474e-08	0.01793762	0.00984058
1.1e+08	0.0193706	0.009647953	9.561957e-09	2.889108e-08	0.00471992	0.008559438	8.581607e-09	1.780248e-08
	9.561957e-09	2.889108e-08	0.01907347	0.009753466	2.22356e-08	1.065918e-07	0.004578091	0.008616757
	0.00471992	0.008559438	2.22356e-08	1.065918e-07	0.01944342	0.009648168	8.490772e-09	2.96677e-08
	8.581607e-09	1.780248e-08	0.004578089	0.008616757	8.490772e-09	2.96677e-08	0.01913813	0.009828976
1.2e+08	0.02057408	0.009474584	1.034985e-08	3.084527e-08	0.0054567	0.00899812	9.374418e-09	1.878635e-08
	1.034985e-08	3.084527e-08	0.02023151	0.009620673	2.349546e-08	1.151614e-07	0.00529314	0.009074263
	0.0054567	0.00899812	2.349546e-08	1.151614e-07	0.02065475	0.009471564	9.117418e-09	3.180503e-08
	9.374418e-09	1.878635e-08	0.005293138	0.009074264	9.117417e-09	3.180503e-08	0.02030004	0.009694865
1.3e+08	0.02173891	0.009187896	1.110625e-08	3.271517e-08	0.006224061	0.009368848	1.014819e-08	1.966862e-08
	1.110625e-08	3.271517e-08	0.02134998	0.009380158	2.470586e-08	1.236536e-07	0.006038537	0.009466801
	0.006224061	0.009368848	2.470586e-08	1.236536e-07	0.02182686	0.009179886	9.71285e-09	3.388184e-08
	1.014819e-08	1.966862e-08	0.006038535	0.009466802	9.71285e-09	3.388184e-08	0.02142219	0.009453103
1.4e+08	0.02286007	0.008794826	1.182326e-08	3.45042e-08	0.00701521	0.009668273	1.089085e-08	2.045409e-08
	1.182326e-08	3.45042e-08	0.02242465	0.009039222	2.586415e-08	1.320773e-07	0.006807825	0.009791084
	0.00701521	0.009668273	2.586415e-08	1.320773e-07	0.02295469	0.008780357	1.027196e-08	3.590188e-08
	1.089085e-08	2.045409e-08	0.006807824	0.009791085	1.027196e-08	3.590188e-08	0.02250022	0.009110807
1.5e+08	0.02393206	0.008301266	1.249291e-08	3.621688e-08	0.007823337	0.00989416	1.159152e-08	2.114722e-08
	1.249291e-08	3.621688e-08	0.02345075	0.008603932	2.69678e-08	1.404411e-07	0.00759454	0.0100449
	0.007823337	0.00989416	2.69678e-08	1.404411e-07	0.02403262	0.008279045	1.078953e-08	3.786965e-08
	1.159152e-08	2.114722e-08	0.007594539	0.0100449	1.078953e-08	3.786965e-08	0.02352929	0.008673999
1.6e+08	0.02494924	0.00771284	1.310732e-08	3.785876e-08	0.008641553	0.01004507	1.223991e-08	2.175324e-08
	1.310732e-08	3.785876e-08	0.02442336	0.008079981	2.801446e-08	1.48754e-07	0.008392137	0.01022682
	0.008641553	0.01004507	2.801446e-08	1.48754e-07	0.0250549	0.007681712	1.126047e-08	3.979041e-08
	1.223991e-08	2.175324e-08	0.008392137	0.01022682	1.126047e-08	3.979041e-08	0.02450445	0.008148361
1.7e+08	0.02590602	0.00703518	1.365901e-08	3.943628e-08	0.009462907	0.01012029	1.282625e-08	2.22782e-08
	1.365901e-08	3.943628e-08	0.02533761	0.007472979	2.900207e-08	1.570247e-07	0.009194015	0.01033604
	0.009462907	0.01012029	2.900207e-08	1.570247e-07	0.02601585	0.006994115	1.168001e-08	4.167003e-08
	1.282625e-08	2.22782e-08	0.009194015	0.01033604	1.168001e-08	4.167003e-08	0.0254208	0.007539525
1.8e+08	0.02679694	0.006274073	1.414099e-08	4.095667e-08	0.01028044	0.01011974	1.334139e-08	2.272908e-08
	1.414099e-08	4.095667e-08	0.02618878	0.006788603	2.992892e-08	1.652621e-07	0.009993554	0.01037245
	0.01028044	0.01011974	2.992892e-08	1.652621e-07	0.02690991	0.00622216	1.204385e-08	4.351489e-08
	1.334139e-08	2.272908e-08	0.009993554	0.01037245	1.204385e-08	4.351489e-08	0.02627358	0.006853202
1.9e+08	0.02761677	0.005435534	1.454689e-08	4.242785e-08	0.01108722	0.01004403	1.377685e-08	2.311367e-08
	1.454689e-08	4.242785e-08	0.02697232	0.006032678	3.079375e-08	1.734751e-07	0.01078416	0.01033651
	0.01108722	0.01004403	3.079375e-08	1.734751e-07	0.02773175	0.005371983	1.234824e-08	4.533181e-08
	1.377685e-08	2.311367e-08	0.01078416	0.01033651	1.234824e-08	4.533181e-08	0.02705824	0.006095251
2e+08	0.02836053	0.004525827	1.487102e-08	4.385844e-08	0.0118764	0.009894386	1.412489e-08	2.344062e-08
	1.487102e-08	4.385844e-08	0.02768395	0.005211199	3.159582e-08	1.816727e-07	0.01155932	0.01022931
	0.0118764	0.009894386	3.159582e-08	1.816727e-07	0.02847631	0.004449973	1.258999e-08	4.712799e-08
	1.412489e-08	2.344062e-08	0.01155932	0.01022931	1.258999e-08	4.712799e-08	0.02777049	0.005271719
2.1e+08	0.0290236	0.003551496	1.510847e-08	4.52576e-08	0.01264129	0.00967266	1.437861e-08	2.371932e-08
	1.510847e-08	4.52576e-08	0.02831971	0.004330364	3.233498e-08	1.898639e-07	0.01231264	0.01005251
	0.01264129	0.00967266	3.233498e-08	1.898639e-07	0.02913889	0.003462802	1.276658e-08	4.891095e-08
	1.437861e-08	2.371932e-08	0.01231264	0.01005251	1.276658e-08	4.891095e-08	0.02840635	0.004388845
2.2e+08	0.02960173	0.002519361	1.525516e-08	4.663503e-08	0.01337537	0.009381305	1.453199e-08	2.395983e-08
	1.525516e-08	4.663503e-08	0.02887598	0.003396576	3.301167e-08	1.980579e-07	0.01303791	0.009808343
	0.01337537	0.009381304	3.301167e-08	1.980579e-07	0.02971517	0.00241742	1.287615e-08	5.06885e-08
	1.453199e-08	2.395983e-08	0.01303791	0.009808343	1.287615e-08	5.06885e-08	0.02896221	0.003453078
2.3e+08	0.03009109	0.001436517	1.530789e-08	4.800085e-08	0.01407239	0.009023355	1.457999e-08	2.417282e-08
	1.530789e-08	4.800085e-08	0.02934953	0.002416444	3.362702e-08	2.062636e-07	0.01372914	0.009499602
	0.01407239	0.009023355	3.362702e-08	2.062636e-07	0.03020128	0.001321063	1.291755e-08	5.246861e-08
	1.457999e-08	2.417282e-08	0.01372914	0.009499602	1.291755e-08	5.246861e-08	0.02943486	0.002471077
2.4e+08	0.03048833	0.0003102976	1.526436e-08	4.936553e-08	0.01472638	0.008602402	1.451856e-08	2.436947e-08
	1.526436e-08	4.936553e-08	0.02973754	0.001396745	3.418283e-08	2.144901e-07	0.01438062	0.009129598
	0.01472638	0.008602402	3.418283e-08	2.144901e-07	0.03059382	0.0001812079	1.289035e-08	5.425941e-08
	1.451856e-08	2.436947e-08	0.01438062	0.009129598	1.289035e-08	5.425941e-08	0.02982147	0.001449668
2.5e+08	0.03079061	-0.0008517338	1.512325e-08	5.073984e-08	0.01533171	0.008122562	1.434472e-08	2.456139e-08
	1.512325e-08	5.073984e-08	0.03003764	0.0003444378	3.46816e-08	2.227462e-07	0.01498694	0.008702142
	0.01533171	0.008122562	3.46816e-08	2.227462e-07	0.03088991	-0.0009944314	1.279484e-08	5.606908e-08
	1.434472e-08	2.456139e-08	0.01498694	0.008702142	1.279484e-08	5.606908e-08	0.03011972	0.0003958569
2.6e+08	0.0309956	-0.002041827	1.48842e-08	5.21347e-08	0.01588314	0.007588445	1.405658e-08	2.47605e-08
	1.48842e-08	5.21347e-08	0.03024797	-0.0007333897	3.512655e-08	2.310406e-07	0.01554306	0.008221518
	0.01588314	0.007588445	3.512655e-08	2.310406e-07	0.03108721	-0.002197952	1.263205e-08	5.790585e-08
	1.405658e-08	2.47605e-08	0.01554306	0.008221518	1.263205e-08	5.790585e-08	0.03032772	-0.0006832256
2.7e+08	0.03110154	-0.00325207	1.454784e-08	5.35612e-08	0.01637587	0.007005122	1.365334e-08	2.497896e-08
	1.454784e-08	5.35612e-08	0.03036711	-0.001829542	3.552162e-08	2.393819e-07	0.01604433	0.007692443
	0.01637587	0.007005122	3.552162e-08	2.393819e-07	0.03118395	-0.003421294	1.240373e-08	5.977788e-08
	1.365334e-08	2.497896e-08	0.01604433	0.007692443	1.240373e-08	5.977788e-08	0.0304441	-0.00178034
2.8e+08	0.03110726	-0.004474436	1.411582e-08	5.503044e-08	0.01680555	0.006378077	1.313535e-08	2.522906e-08
	1.411582e-08	5.503044e-08	0.03039418	-0.00293674	3.587144e-08	2.477781e-07	0.01648656	0.007120037
	0.01680555	0.006378077	3.587144e-08	2.477781e-07	0.03117898	-0.004656264	1.211237e-08	6.169325e-08
	1.313535e-08	2.522906e-08	0.01648656	0.007120037	1.211237e-08	6.169325e-08	0.03046803	-0.002888159
2.9e+08	0.03101218	-0.005700821	1.359079e-08	5.655346e-08	0.01716836	0.005713175	1.25041e-08	2.552313e-08
	1.359079e-08	5.655346e-08	0.03032883	-0.004047669	3.618137e-08	2.562372e-07	0.01686599	0.006509777
	0.01716836	0.005713175	3.618137e-08	2.562372e-07	0.03107173	-0.005894609	1.176118e-08	6.365989e-08
	1.25041e-08	2.552313e-08	0.01686599	0.006509777	1.176118e-08	6.365989e-08	0.03039916	-0.003999336
3e+08	0.03081632	-0.006923095	1.297644e-08	5.814121e-08	0.01746099	0.005016605	1.176224e-08	2.587345e-08
	1.297644e-08	5.814121e-08	0.03017123	-0.005155014	3.645742e-08	2.647665e-07	0.01717938	0.00586746
	0.01746099	0.005016605	3.645742e-08	2.647665e-07	0.03086228	-0.00712804	1.135409e-08	6.568553e-08
	1.176224e-08	2.587345e-08	0.01717938	0.00586746	1.135409e-08	6.568553e-08	0.03023771	-0.005106513
3.1e+08	0.03052032	-0.008133134	1.227746e-08	5.980442e-08	0.0176807	0.004294841	1.091353e-08	2.629215e-08
	1.227746e-08	5.980442e-08	0.02992209	-0.006251484	3.670631e-08	2.733732e-07	0.01742403	0.005199152
	0.0176807	0.004294841	3.670631e-08	2.733732e-07	0.03055132	-0.008348281	1.089574e-08	6.777763e-08
	1.091353e-08	2.629215e-08	0.01742403	0.005199152	1.089574e-08	6.777763e-08	0.02998443	-0.00620237
3.2e+08	0.03012547	-0.009322887	1.149956e-08	6.155354e-08	0.01782535	0.003554584	9.962901e-09	2.679112e-08
	1.149956e-08	6.155354e-08	0.02958266	-0.007329879	3.693537e-08	2.820637e-07	0.01759776	0.004511148
	0.01782535	0.003554584	3.693537e-08	2.820637e-07	0.03014019	-0.009547133	1.039145e-08	6.994338e-08
	9.962901e-09	2.679112e-08	0.01759776	0.004511148	1.039145e-08	6.994338e-08	0.02964062	-0.007279671
3.3e+08	0.02963363	-0.01048441	1.064946e-08	6.339866e-08	0.0178934	0.002802717	8.916378e-09	2.73819e-08
	1.064946e-08	6.339866e-08	0.02915475	-0.008383106	3.715258e-08	2.90844e-07	0.01769898	0.003809917
	0.0178934	0.002802717	3.715258e-08	2.90844e-07	0.02963087	-0.01071651	9.847253e-09	7.21896e-08
	8.916378e-09	2.73819e-08	0.01769898	0.003809917	9.847253e-09	7.21896e-08	0.02920811	-0.008331302
3.4e+08	0.02904733	-0.01160992	9.734869e-09	6.534942e-08	0.01788393	0.002046242	7.781104e-09	2.807563e-08
	9.734869e-09	6.534942e-08	0.02864066	-0.009404227	3.73665e-08	2.997194e-07	0.01772665	0.003102054
	0.01788393	0.002046242	3.73665e-08	2.997194e-07	0.02902596	-0.01184848	9.269835e-09	7.452272e-08
	7.781104e-09	2.807563e-08	0.01772665	0.003102054	9.269835e-09	7.452272e-08	0.02868928	-0.009350301
3.5e+08	0.02836966	-0.01269183	8.764475e-09	6.741494e-08	0.01779663	0.001292232	6.565296e-09	2.88829e-08
	8.764475e-09	6.741494e-08	0.02804325	-0.01038651	3.758625e-08	3.086946e-07	0.01768036	0.002394231
	0.01779663	0.001292232	3.758625e-08	3.086946e-07	0.02832869	-0.01293535	8.666552e-09	7.694868e-08
	6.565296e-09	2.88829e-08	0.01768036	0.002394231	8.666552e-09	7.694868e-08	0.02808702	-0.01032992
3.6e+08	0.02760433	-0.01372284	7.747919e-09	6.960372e-08	0.01763185	0.0005477734	5.278215e-09	2.98137e-08
	7.747919e-09	6.960372e-08	0.02736586	-0.01132345	3.782146e-08	3.177736e-07	0.01756025	0.00169314
	0.01763185	0.0005477734	3.782146e-08	3.177736e-07	0.02754288	-0.01396968	8.0454e-09	7.947295e-08
	5.278215e-09	2.98137e-08	0.01756025	0.00169314	8.0454e-09	7.947295e-08	0.02740473	-0.01126363
3.7e+08	0.02675561	-0.01469591	6.695776e-09	7.192357e-08	0.01739057	-0.0001800924	3.930141e-09	3.087734e-08
	6.695776e-09	7.192357e-08	0.02661235	-0.01220884	3.808227e-08	3.269595e-07	0.0173671	0.001005445
	0.01739057	-0.0001800924	3.808227e-08	3.269595e-07	0.02667294	-0.01494435	7.415006e-09	8.21004e-08
	3.930141e-09	3.087734e-08	0.0173671	0.001005445	7.415006e-09	8.21004e-08	0.02664633	-0.01214522
3.8e+08	0.02582833	-0.0156044	5.619513e-09	7.438147e-08	0.0170744	-0.0008844235	2.532317e-09	3.20823e-08
	5.619513e-09	7.438147e-08	0.02578703	-0.01303675	3.837922e-08	3.362547e-07	0.01710225	0.0003377261
	0.0170744	-0.0008844235	3.837922e-08	3.362547e-07	0.02572386	-0.01585258	6.784597e-09	8.483528e-08
	2.532317e-09	3.20823e-08	0.01710225	0.0003377261	6.784597e-09	8.483528e-08	0.02581617	-0.01296878
3.9e+08	0.02482784	-0.01644203	4.531451e-09	7.698355e-08	0.01668555	-0.001558433	1.096909e-09	3.343621e-08
	4.531451e-09	7.698355e-08	0.02489466	-0.01380165	3.872325e-08	3.456608e-07	0.01676764	-0.0003035689
	0.01668555	-0.001558433	3.872325e-08	3.456608e-07	0.02470114	-0.01668804	6.163975e-09	8.768113e-08
	1.096909e-09	3.343621e-08	0.01676764	-0.0003035689	6.163975e-09	8.768113e-08	0.02491908	-0.01372874
4e+08	0.02375997	-0.01720296	3.444713e-09	7.973495e-08	0.01622686	-0.002195544	-3.630548e-10	3.494569e-08
	3.444713e-09	7.973495e-08	0.02394044	-0.01449836	3.912561e-08	3.551782e-07	0.01636576	-0.0009121791
	0.01622686	-0.002195544	3.912561e-08	3.551782e-07	0.02361079	-0.01744482	5.563485e-09	9.064072e-08
	-3.630548e-10	3.494569e-08	0.01636576	-0.0009121791	5.563485e-09	9.064072e-08	0.02396031	-0.01441996
4.1e+08	0.02263103	-0.01788183	2.373167e-09	8.263972e-08	0.01570174	-0.002789443	-1.833748e-09	3.661633e-08
	2.373167e-09	8.263972e-08	0.02292993	-0.01512214	3.959779e-08	3.648066e-07	0.01589968	-0.001482079
	0.01570174	-0.002789443	3.959779e-08	3.648066e-07	0.02245932	-0.01811751	4.993968e-09	9.371601e-08
	-1.833748e-09	3.661633e-08	0.01589968	-0.001482079	4.993968e-09	9.371601e-08	0.02294548	-0.0150377
4.2e+08	0.02144776	-0.01847382	1.331352e-09	8.570076e-08	0.01511416	-0.00333413	-3.300618e-09	3.845255e-08
	1.331352e-09	8.570076e-08	0.0218691	-0.0156687	4.015149e-08	3.745445e-07	0.01537298	-0.002007525
	0.01511416	-0.00333413	4.015149e-08	3.745445e-07	0.02125362	-0.01870123	4.466719e-09	9.690803e-08
	-3.300618e-09	3.845255e-08	0.01537298	-0.002007525	4.466719e-09	9.690803e-08	0.0218806	-0.01557768
4.3e+08	0.02021726	-0.01897461	3.343973e-10	8.89197e-08	0.01446863	-0.003823972	-4.74847e-09	4.045752e-08
	3.343973e-10	8.89197e-08	0.02076417	-0.01613421	4.079849e-08	3.843895e-07	0.01478975	-0.002483105
	0.01446863	-0.003823972	4.079849e-08	3.843895e-07	0.020001	-0.01919167	3.993422e-09	1.002168e-07
	-4.74847e-09	4.045752e-08	0.01478975	-0.002483105	3.993422e-09	1.002168e-07	0.02077197	-0.01603611
4.4e+08	0.01894697	-0.01938051	-6.020736e-10	9.229679e-08	0.01377017	-0.004253744	-6.161561e-09	4.263311e-08
	-6.020736e-10	9.229679e-08	0.01962172	-0.01651538	4.15506e-08	3.943378e-07	0.01415455	-0.002903781
	0.01377017	-0.004253744	4.15506e-08	3.943378e-07	0.01870909	-0.01958511	3.586082e-09	1.036414e-07
	-6.161561e-09	4.263311e-08	0.01415455	-0.002903781	3.586082e-09	1.036414e-07	0.0196262	-0.01640972
4.5e+08	0.01764462	-0.01968839	-1.462056e-09	9.583088e-08	0.01302422	-0.004618675	-7.523704e-09	4.497979e-08
	-1.462056e-09	9.583088e-08	0.01844853	-0.01680941	4.241952e-08	4.043847e-07	0.0134724	-0.00326493
	0.01302422	-0.004618675	4.241952e-08	4.043847e-07	0.01738584	-0.01987847	3.256938e-09	1.071797e-07
	-7.523704e-09	4.497979e-08	0.0134724	-0.00326493	3.256938e-09	1.071797e-07	0.01845012	-0.01669574
4.6e+08	0.01631821	-0.0198958	-2.229281e-09	9.951927e-08	0.01223669	-0.004914492	-8.818388e-09	4.749653e-08
	-2.229281e-09	9.951927e-08	0.0172516	-0.01701408	4.34168e-08	4.145243e-07	0.01274871	-0.003562382
	0.01223669	-0.004914492	4.34168e-08	4.145243e-07	0.01603941	-0.02006931	3.018382e-09	1.108284e-07
	-8.818388e-09	4.749653e-08	0.01274871	-0.003562382	3.018382e-09	1.108284e-07	0.01725079	-0.01689198
4.7e+08	0.01497588	-0.02000089	-2.887384e-09	1.033577e-07	0.01141383	-0.005137451	-1.002895e-08	5.018079e-08
	-2.887384e-09	1.033577e-07	0.0160381	-0.01712771	4.455365e-08	4.247496e-07	0.01198924	-0.003792454
	0.01141383	-0.005137451	4.455365e-08	4.247496e-07	0.01467819	-0.02015587	2.882809e-09	1.145829e-07
	-1.002895e-08	5.018079e-08	0.01198924	-0.003792454	2.882809e-09	1.145829e-07	0.01603538	-0.0169968
4.8e+08	0.01362597	-0.02000252	-3.419944e-09	1.073401e-07	0.01056224	-0.005284374	-1.113854e-08	5.302845e-08
	-3.419944e-09	1.073401e-07	0.01481528	-0.01714921	4.584091e-08	4.350522e-07	0.01120008	-0.003951987
	0.01056224	-0.005284374	4.584091e-08	4.350522e-07	0.01331066	-0.02013706	2.862602e-09	1.184375e-07
	-1.113854e-08	5.302845e-08	0.01120008	-0.003951987	2.862602e-09	1.184375e-07	0.01481124	-0.01700916
