!$
! Info: Touchstone file created by Circ.  Input file=Tx_4in_Rx_85ohms_TxVia_60mils_RxVia_70mils.circ
!$
# Hz S RI R 50
0	0.003365219	7.258618e-26	-2.18614e-05	7.250408e-26	4.213063e-05	6.396957e-24	-2.185966e-05	1.58494e-26
	-2.18614e-05	7.228432e-26	0.003360763	8.539907e-26	-2.186112e-05	7.535477e-26	4.183211e-05	8.083077e-24
	4.321499e-05	6.439737e-24	-2.186112e-05	7.529257e-26	0.003380803	7.254561e-26	-2.186152e-05	1.976422e-25
	-2.185966e-05	1.539964e-26	4.210206e-05	8.117739e-24	-2.186152e-05	1.974752e-25	0.003375352	8.499668e-26
1e+07	0.004590478	-0.003395427	-2.169415e-06	-5.656851e-06	8.350454e-05	0.0009533803	-1.101976e-06	-6.536456e-06
	-2.169415e-06	-5.656851e-06	0.00457957	-0.003329509	-3.854543e-06	-4.063898e-07	0.0001130542	0.0009510927
	8.35356e-05	0.0009533846	-3.854543e-06	-4.063899e-07	0.005140743	-0.003243554	-8.498639e-06	3.515933e-07
	-1.101976e-06	-6.536456e-06	0.0001130564	0.0009510903	-8.498639e-06	3.515934e-07	0.004581483	-0.003320704
2e+07	0.005292881	-0.007908321	-1.997962e-06	-2.333044e-06	0.0002159839	0.00189562	-4.857235e-07	-3.473352e-06
	-1.997962e-06	-2.333044e-06	0.005329757	-0.007795449	-9.320182e-06	-6.808065e-06	0.0002560106	0.001866984
	0.0002159977	0.001895601	-9.320182e-06	-6.808065e-06	0.005862271	-0.007851406	-1.218979e-05	-3.817915e-06
	-4.857237e-07	-3.473351e-06	0.0002560072	0.001866985	-1.218979e-05	-3.817914e-06	0.005335101	-0.007774795
3e+07	0.005237525	-0.01291299	-1.908381e-06	-1.550886e-06	0.0004508106	0.00279488	-6.400728e-07	-2.770467e-06
	-1.908381e-06	-1.550886e-06	0.005299942	-0.01278518	-1.353948e-05	-7.872499e-06	0.0004712948	0.002758104
	0.0004508114	0.002794877	-1.353948e-05	-7.872499e-06	0.005821032	-0.01289386	-1.501809e-05	-4.238763e-06
	-6.400728e-07	-2.770467e-06	0.0004712945	0.002758106	-1.501809e-05	-4.238763e-06	0.005307359	-0.01275584
4e+07	0.004572179	-0.01803417	-1.835089e-06	-1.14981e-06	0.000758431	0.003660496	-1.086308e-06	-2.322737e-06
	-1.835089e-06	-1.14981e-06	0.004643791	-0.01790046	-1.706954e-05	-7.500775e-06	0.0007581615	0.003620987
	0.000758435	0.0036605	-1.706954e-05	-7.500775e-06	0.005165883	-0.01804677	-1.736025e-05	-3.658699e-06
	-1.086308e-06	-2.322737e-06	0.0007581622	0.003620988	-1.736025e-05	-3.658699e-06	0.004652506	-0.0178636
5e+07	0.00335661	-0.02315331	-1.768475e-06	-8.89036e-07	0.001136563	0.004488204	-1.46774e-06	-1.944755e-06
	-1.768475e-06	-8.89036e-07	0.003423409	-0.02301655	-2.008908e-05	-6.294836e-06	0.001114056	0.004449955
	0.001136566	0.004488206	-2.008908e-05	-6.294836e-06	0.003957054	-0.02319678	-1.933644e-05	-2.500736e-06
	-1.46774e-06	-1.944755e-06	0.001114057	0.004449955	-1.933644e-05	-2.500736e-06	0.003432414	-0.0229727
6e+07	0.001628115	-0.02819531	-1.703887e-06	-6.955937e-07	0.001581697	0.005272584	-1.792883e-06	-1.575448e-06
	-1.703887e-06	-6.955937e-07	0.001678048	-0.02805541	-2.267334e-05	-4.479387e-06	0.001535497	0.005239249
	0.001581693	0.005272583	-2.267334e-05	-4.479387e-06	0.002231954	-0.02827019	-2.099646e-05	-9.215648e-07
	-1.792883e-06	-1.575448e-06	0.001535499	0.005239249	-2.099646e-05	-9.215648e-07	0.001686495	-0.02800474
7e+07	-0.0005836841	-0.03310228	-1.638455e-06	-5.398571e-07	0.002089583	0.006008109	-2.064743e-06	-1.190477e-06
	-1.638455e-06	-5.39857e-07	-0.0005615126	-0.03295766	-2.484971e-05	-2.152205e-06	0.00201841	0.005983337
	0.002089572	0.00600811	-2.484971e-05	-2.152205e-06	2.016009e-05	-0.03320969	-2.235728e-05	1.011313e-06
	-2.064743e-06	-1.190477e-06	0.002018412	0.005983337	-2.235728e-05	1.011313e-06	-0.000554417	-0.03290025
8e+07	-0.003251589	-0.03782515	-1.569995e-06	-4.075834e-07	0.002655349	0.006689449	-2.282217e-06	-7.75437e-07
	-1.569995e-06	-4.075834e-07	-0.003267497	-0.03767329	-2.66116e-05	6.614538e-07	0.002558199	0.006677037
	0.002655334	0.006689452	-2.66116e-05	6.614537e-07	-0.002651333	-0.03796668	-2.341202e-05	3.281707e-06
	-2.282217e-06	-7.75437e-07	0.002558201	0.006677037	-2.341202e-05	3.281707e-06	-0.003262627	-0.03760915
9e+07	-0.006348286	-0.04232012	-1.496053e-06	-2.909084e-07	0.003273551	0.007311652	-2.438336e-06	-3.131066e-07
	-1.496053e-06	-2.909084e-07	-0.006412425	-0.04215826	-2.790621e-05	4.026228e-06	0.00314981	0.007315722
	0.00327354	0.007311656	-2.790621e-05	4.026228e-06	-0.005755726	-0.04249822	-2.412028e-05	5.938211e-06
	-2.438336e-06	-3.131066e-07	0.003149811	0.007315721	-2.412028e-05	5.938211e-06	-0.006410746	-0.04208724
1e+08	-0.009843736	-0.04654413	-1.409824e-06	-1.815073e-07	0.003938344	0.007870494	-2.493769e-06	2.711349e-07
	-1.409824e-06	-1.815073e-07	-0.009968357	-0.04637442	-2.843309e-05	8.507286e-06	0.003788265	0.007896485
	0.003938344	0.007870493	-2.843309e-05	8.507286e-06	-0.009265478	-0.04676623	-2.425782e-05	9.396343e-06
	-2.493769e-06	2.711349e-07	0.003788265	0.007896485	-2.425782e-05	9.396343e-06	-0.009970922	-0.04629624
1.1e+08	-0.01369463	-0.05047804	-1.356861e-06	-8.581932e-08	0.004644097	0.008361258	-2.238873e-06	7.121055e-07
	-1.356861e-06	-8.581932e-08	-0.01390873	-0.05027971	-2.63768e-05	1.193092e-05	0.004472052	0.008410527
	0.004644097	0.008361258	-2.63768e-05	1.193092e-05	-0.01315268	-0.05073325	-2.367222e-05	9.485629e-06
	-2.238873e-06	7.121055e-07	0.00447205	0.008410527	-2.367222e-05	9.485629e-06	-0.01391662	-0.05019344
1.2e+08	-0.01789128	-0.05409103	-1.322302e-06	2.315043e-09	0.005382631	0.008780657	-2.025384e-06	1.007065e-06
	-1.322302e-06	2.315044e-09	-0.01819321	-0.05384215	-2.583648e-05	1.184366e-05	0.005187564	0.008854408
	0.005382631	0.008780657	-2.583648e-05	1.184366e-05	-0.01738305	-0.05436808	-2.343822e-05	8.999332e-06
	-2.025384e-06	1.007065e-06	0.005187562	0.008854409	-2.343822e-05	8.999332e-06	-0.01820692	-0.05374677
1.3e+08	-0.02239955	-0.05735016	-1.290595e-06	8.272789e-08	0.00614708	0.009126508	-1.877652e-06	1.139014e-06
	-1.290595e-06	8.272789e-08	-0.02278869	-0.05703568	-2.553931e-05	1.144109e-05	0.005928736	0.009227418
	0.00614708	0.009126508	-2.553931e-05	1.144109e-05	-0.02192427	-0.05764367	-2.316208e-05	8.782551e-06
	-1.877652e-06	1.139014e-06	0.005928734	0.009227419	-2.316208e-05	8.782551e-06	-0.02280866	-0.05693021
1.4e+08	-0.02718517	-0.06022969	-1.259201e-06	1.565389e-07	0.006930279	0.009397039	-1.862973e-06	1.03626e-06
	-1.259201e-06	1.565389e-07	-0.02766007	-0.05983603	-2.521135e-05	1.125011e-05	0.006688878	0.009528137
	0.006930279	0.009397038	-2.521135e-05	1.125011e-05	-0.02674238	-0.06053563	-2.286723e-05	8.724126e-06
	-1.862973e-06	1.03626e-06	0.006688877	0.009528138	-2.286723e-05	8.724126e-06	-0.02768663	-0.05971946
1.5e+08	-0.03221274	-0.06270775	-1.226954e-06	2.242319e-07	0.007724926	0.009591137	-1.848016e-06	9.551172e-07
	-1.226954e-06	2.242319e-07	-0.03277086	-0.06222207	-2.486581e-05	1.120137e-05	0.007461127	0.009755603
	0.007724926	0.009591137	-2.486581e-05	1.120137e-05	-0.03180202	-0.06302275	-2.256115e-05	8.770955e-06
	-1.848016e-06	9.551172e-07	0.007461126	0.009755604	-2.256115e-05	8.770955e-06	-0.03280421	-0.06209332
1.6e+08	-0.03744576	-0.06476601	-1.193838e-06	2.868736e-07	0.008523666	0.009708383	-1.833654e-06	8.900115e-07
	-1.193838e-06	2.868736e-07	-0.03808341	-0.06417604	-2.45082e-05	1.125503e-05	0.008238554	0.009909442
	0.008523666	0.009708383	-2.45082e-05	1.125503e-05	-0.03706671	-0.06508711	-2.224756e-05	8.893682e-06
	-1.833654e-06	8.900115e-07	0.008238554	0.009909442	-2.224756e-05	8.893682e-06	-0.03812361	-0.06403398
1.7e+08	-0.04284686	-0.06638956	-1.159846e-06	3.452008e-07	0.009319171	0.009749054	-1.820319e-06	8.373405e-07
	-1.159846e-06	3.452008e-07	-0.04355916	-0.06568357	-2.414085e-05	1.138547e-05	0.009014245	0.009989904
	0.009319171	0.009749054	-2.414085e-05	1.138547e-05	-0.04249905	-0.06671407	-2.192786e-05	9.073436e-06
	-1.820319e-06	8.373405e-07	0.009014245	0.009989904	-2.192786e-05	9.073436e-06	-0.04360613	-0.06552704
1.8e+08	-0.048378	-0.06756687	-1.124983e-06	3.997445e-07	0.01010421	0.009714117	-1.808221e-06	7.946386e-07
	-1.124983e-06	3.997445e-07	-0.04915887	-0.0667337	-2.376457e-05	1.15751e-05	0.009781372	0.00999787
	0.01010421	0.009714117	-2.376457e-05	1.15751e-05	-0.04806095	-0.06789232	-2.160234e-05	9.297231e-06
	-1.808221e-06	7.946386e-07	0.009781372	0.00999787	-2.160234e-05	9.297231e-06	-0.0492124	-0.06656154
1.9e+08	-0.05400074	-0.06828978	-1.089257e-06	4.508998e-07	0.0108717	0.009605214	-1.797458e-06	7.6014e-07
	-1.089257e-06	4.508998e-07	-0.05484292	-0.06731892	-2.337942e-05	1.181114e-05	0.01053326	0.009934842
	0.0108717	0.009605214	-2.337942e-05	1.181114e-05	-0.05371389	-0.06861383	-2.127076e-05	9.555644e-06
	-1.797458e-06	7.6014e-07	0.01053326	0.009934842	-2.127076e-05	9.555644e-06	-0.05490265	-0.06712996
2e+08	-0.05967644	-0.06855341	-1.052684e-06	4.989666e-07	0.01161481	0.009424633	-1.788054e-06	7.325467e-07
	-1.052684e-06	4.989666e-07	-0.06057156	-0.06743512	-2.298502e-05	1.208394e-05	0.01126344	0.009802919
	0.01161481	0.009424633	-2.298502e-05	1.208394e-05	-0.05941916	-0.06887389	-2.093261e-05	9.841558e-06
	-1.788054e-06	7.325467e-07	0.01126344	0.009802919	-2.093261e-05	9.841558e-06	-0.06063698	-0.06722821
2.1e+08	-0.06536654	-0.06835618	-1.015281e-06	5.441769e-07	0.01232699	0.009175279	-1.779999e-06	7.108802e-07
	-1.015281e-06	5.441769e-07	-0.06630516	-0.06708153	-2.258086e-05	1.238595e-05	0.01196571	0.009604772
	0.01232699	0.009175279	-2.258086e-05	1.238595e-05	-0.06513813	-0.06867102	-2.058726e-05	1.01494e-05
	-1.779999e-06	7.108802e-07	0.01196571	0.009604772	-2.058726e-05	1.01494e-05	-0.0663756	-0.06685557
2.2e+08	-0.07103278	-0.06769969	-9.770716e-07	5.867112e-07	0.01300203	0.008860637	-1.773252e-06	6.943961e-07
	-9.770716e-07	5.867112e-07	-0.07200445	-0.06626072	-2.216631e-05	1.271112e-05	0.0126342	0.009343612
	0.01300203	0.008860637	-2.216631e-05	1.271112e-05	-0.07083247	-0.06800694	-2.023403e-05	1.047469e-05
	-1.773252e-06	6.943961e-07	0.0126342	0.009343612	-2.023403e-05	1.047469e-05	-0.07207913	-0.06601465
2.3e+08	-0.07663745	-0.06658865	-9.380815e-07	6.267099e-07	0.0136341	0.008484729	-1.767745e-06	6.825211e-07
	-9.380815e-07	6.267099e-07	-0.07763083	-0.06497843	-2.174071e-05	1.305443e-05	0.01326338	0.009023145
	0.0136341	0.008484729	-2.174071e-05	1.305443e-05	-0.07646438	-0.06688647	-1.987222e-05	1.081373e-05
	-1.767745e-06	6.825211e-07	0.01326338	0.009023145	-1.987222e-05	1.081373e-05	-0.0777088	-0.06471126
2.4e+08	-0.08214361	-0.06503086	-8.983396e-07	6.642854e-07	0.01421782	0.008052068	-1.763407e-06	6.748044e-07
	-8.983396e-07	6.642854e-07	-0.08314653	-0.06324357	-2.130347e-05	1.341166e-05	0.01384814	0.008647538
	0.01421782	0.008052068	-2.130347e-05	1.341166e-05	-0.08199685	-0.06531748	-1.95012e-05	1.116339e-05
	-1.763407e-06	6.748044e-07	0.01384814	0.008647538	-1.95012e-05	1.116339e-05	-0.08322673	-0.0629544
2.5e+08	-0.08751532	-0.06303698	-8.578777e-07	6.995249e-07	0.01474828	0.007567615	-1.760148e-06	6.708948e-07
	-8.578777e-07	6.995249e-07	-0.0885149	-0.06106803	-2.085404e-05	1.377918e-05	0.01438379	0.00822137
	0.01474828	0.007567615	-2.085404e-05	1.377918e-05	-0.08739388	-0.06331076	-1.912035e-05	1.152096e-05
	-1.760148e-06	6.708948e-07	0.01438379	0.00822137	-1.912035e-05	1.152096e-05	-0.08859616	-0.06075606
2.6e+08	-0.09271784	-0.06062056	-8.167302e-07	7.324977e-07	0.01522107	0.00703672	-1.757872e-06	6.705113e-07
	-8.167302e-07	7.324977e-07	-0.09370061	-0.05846662	-2.039195e-05	1.415378e-05	0.01486613	0.007749587
	0.01522107	0.00703672	-2.039195e-05	1.415378e-05	-0.09262065	-0.06087993	-1.872913e-05	1.188406e-05
	-1.757872e-06	6.705113e-07	0.01486613	0.007749587	-1.872913e-05	1.188406e-05	-0.09378166	-0.05813115
2.7e+08	-0.09771785	-0.05779777	-7.749342e-07	7.632567e-07	0.01563232	0.006465077	-1.756466e-06	6.73429e-07
	-7.749342e-07	7.632567e-07	-0.09866987	-0.05545688	-1.991677e-05	1.453261e-05	0.01529143	0.007237451
	0.01563232	0.006465077	-1.991677e-05	1.453261e-05	-0.09764378	-0.05804129	-1.832703e-05	1.225055e-05
	-1.756466e-06	6.73429e-07	0.01529143	0.007237451	-1.832703e-05	1.225055e-05	-0.09874931	-0.05509733
2.8e+08	-0.1024836	-0.05458737	-7.325305e-07	7.918437e-07	0.01597872	0.00585867	-1.755821e-06	6.794688e-07
	-7.325305e-07	7.918437e-07	-0.1033906	-0.05205892	-1.942821e-05	1.491313e-05	0.01565648	0.006690497
	0.01597872	0.00585867	-1.942821e-05	1.491313e-05	-0.1024315	-0.05481366	-1.791366e-05	1.26185e-05
	-1.755821e-06	6.794688e-07	0.01565648	0.006690497	-1.791366e-05	1.26185e-05	-0.103467	-0.05167487
2.9e+08	-0.1069852	-0.05101047	-6.895619e-07	8.182904e-07	0.0162575	0.005223714	-1.755816e-06	6.884843e-07
	-6.895619e-07	8.182904e-07	-0.1078326	-0.04829532	-1.892608e-05	1.529298e-05	0.0159586	0.006114479
	0.0162575	0.005223714	-1.892608e-05	1.529298e-05	-0.1069537	-0.05121828	-1.748869e-05	1.298612e-05
	-1.755816e-06	6.884843e-07	0.0159586	0.006114479	-1.748869e-05	1.298612e-05	-0.1079044	-0.04788646
3e+08	-0.1111945	-0.04709044	-6.460748e-07	8.4262e-07	0.01646651	0.004566611	-1.756321e-06	7.003517e-07
	-6.460748e-07	8.4262e-07	-0.1119679	-0.04419087	-1.841024e-05	1.567001e-05	0.01619563	0.005515325
	0.01646651	0.004566611	-1.841024e-05	1.567001e-05	-0.1111823	-0.04727859	-1.705183e-05	1.335176e-05
	-1.756321e-06	7.003517e-07	0.01619563	0.005515325	-1.705183e-05	1.335176e-05	-0.1120334	-0.04375706
3.1e+08	-0.1150856	-0.04285265	-6.021159e-07	8.648473e-07	0.01660416	0.003893889	-1.757209e-06	7.149717e-07
	-6.021159e-07	8.648473e-07	-0.1157704	-0.03977243	-1.78806e-05	1.604213e-05	0.01636594	0.004899087
	0.01660416	0.003893889	-1.78806e-05	1.604213e-05	-0.1150914	-0.04302008	-1.660293e-05	1.371386e-05
	-1.757209e-06	7.149717e-07	0.01636594	0.004899087	-1.660293e-05	1.371386e-05	-0.1158281	-0.03931369
3.2e+08	-0.1186348	-0.0383244	-5.57735e-07	8.849816e-07	0.01666945	0.003212155	-1.758344e-06	7.322561e-07
	-5.57735e-07	8.849816e-07	-0.1192168	-0.03506874	-1.733719e-05	1.640736e-05	0.01646848	0.004271895
	0.01666945	0.003212155	-1.733719e-05	1.640736e-05	-0.1186572	-0.03847014	-1.614188e-05	1.407097e-05
	-1.758344e-06	7.322561e-07	0.01646848	0.004271895	-1.614188e-05	1.407097e-05	-0.119265	-0.03458524
3.3e+08	-0.1218206	-0.03353461	-5.129953e-07	9.03037e-07	0.01666198	0.002528047	-1.759583e-06	7.521232e-07
	-5.129953e-07	9.03037e-07	-0.1222859	-0.03011021	-1.678037e-05	1.676418e-05	0.01650269	0.003639913
	0.01666198	0.002528047	-1.678037e-05	1.676418e-05	-0.1218582	-0.03365782	-1.566862e-05	1.442169e-05
	-1.759583e-06	7.521232e-07	0.01650269	0.003639913	-1.566862e-05	1.442169e-05	-0.122323	-0.02960229
3.4e+08	-0.1246241	-0.02851373	-4.679593e-07	9.190209e-07	0.01658193	0.001848179	-1.760773e-06	7.744821e-07
	-4.679593e-07	9.190209e-07	-0.1249592	-0.02492868	-1.621036e-05	1.711085e-05	0.01646857	0.003009295
	0.01658193	0.001848179	-1.621036e-05	1.711085e-05	-0.1246754	-0.02861364	-1.518316e-05	1.476457e-05
	-1.760773e-06	7.744821e-07	0.01646857	0.003009295	-1.518316e-05	1.476457e-05	-0.1249835	-0.02439686
3.5e+08	-0.1270288	-0.02329349	-4.226889e-07	9.329382e-07	0.01643002	0.001179099	-1.76178e-06	7.992826e-07
	-4.226889e-07	9.329382e-07	-0.1272211	-0.01955728	-1.562757e-05	1.744589e-05	0.01636664	0.00238614
	0.01643002	0.001179099	-1.562757e-05	1.744589e-05	-0.1270923	-0.02336944	-1.468567e-05	1.509843e-05
	-1.76178e-06	7.992826e-07	0.01636664	0.00238614	-1.468567e-05	1.509843e-05	-0.127231	-0.01900222
3.6e+08	-0.129021	-0.0179067	-3.772485e-07	9.447929e-07	0.01620757	0.000527242	-1.762462e-06	8.264643e-07
	-3.772485e-07	9.447929e-07	-0.1290583	-0.01403014	-1.503253e-05	1.776802e-05	0.01619792	0.001776456
	0.01620757	0.000527242	-1.503253e-05	1.776802e-05	-0.1290951	-0.01795814	-1.417638e-05	1.542215e-05
	-1.762462e-06	8.264643e-07	0.01619792	0.001776456	-1.417638e-05	1.542215e-05	-0.1290522	-0.0134527
3.7e+08	-0.1305893	-0.01238705	-3.317075e-07	9.545893e-07	0.01591643	-0.0001011101	-1.762668e-06	8.559617e-07
	-3.317075e-07	9.545893e-07	-0.1304606	-0.008382243	-1.442575e-05	1.807596e-05	0.01596395	0.00118612
	0.01591643	-0.0001011101	-1.442575e-05	1.807596e-05	-0.1306725	-0.01241355	-1.365556e-05	1.573456e-05
	-1.762668e-06	8.559617e-07	0.01596395	0.00118612	-1.365556e-05	1.573456e-05	-0.130437	-0.007783403
3.8e+08	-0.1317253	-0.006768937	-2.861385e-07	9.623327e-07	0.01555894	-0.0006998736	-1.762251e-06	8.877072e-07
	-2.861385e-07	9.623327e-07	-0.1314206	-0.002649141	-1.380785e-05	1.836848e-05	0.01566674	0.0006208386
	0.01555894	-0.0006998736	-1.380785e-05	1.836848e-05	-0.1318161	-0.006770146	-1.312355e-05	1.60346e-05
	-1.762251e-06	8.877072e-07	0.01566674	0.0006208387	-1.312355e-05	1.60346e-05	-0.131378	-0.00203007
3.9e+08	-0.1324233	-0.001087199	-2.406166e-07	9.6803e-07	0.015138	-0.001263199	-1.761062e-06	9.216318e-07
	-2.406166e-07	9.6803e-07	-0.1319336	0.003133215	-1.317949e-05	1.864448e-05	0.01530875	8.611894e-05
	0.015138	-0.001263199	-1.317949e-05	1.864448e-05	-0.1325201	-0.001062893	-1.258077e-05	1.632121e-05
	-1.761062e-06	9.216318e-07	0.01530875	8.611895e-05	-1.258077e-05	1.632121e-05	-0.1318707	0.003771205
4e+08	-0.1326802	0.004623044	-1.952194e-07	9.716904e-07	0.01465695	-0.001785509	-1.758954e-06	9.576601e-07
	-1.952194e-07	9.716904e-07	-0.131998	0.00892871	-1.25414e-05	1.890291e-05	0.01489291	-0.00041277
	0.01465695	-0.001785509	-1.25414e-05	1.890291e-05	-0.1327815	0.004672989	-1.202768e-05	1.659342e-05
	-1.758954e-06	9.576601e-07	0.01489291	-0.00041277	-1.202768e-05	1.659342e-05	-0.1319135	0.009584165
4.1e+08	-0.1324958	0.01032662	-1.50027e-07	9.733262e-07	0.0141196	-0.002261535	-1.75578e-06	9.957152e-07
	-1.50027e-07	9.733262e-07	-0.1316147	0.01470129	-1.189438e-05	1.914285e-05	0.01442256	-0.0008708263
	0.0141196	-0.002261535	-1.189438e-05	1.914285e-05	-0.1326	0.01040222	-1.146483e-05	1.68503e-05
	-1.75578e-06	9.957152e-07	0.01442256	-0.0008708262	-1.146483e-05	1.68503e-05	-0.1315076	0.01537262
4.2e+08	-0.1318726	0.01598849	-1.051208e-07	9.72953e-07	0.01353019	-0.002686345	-1.751396e-06	1.035716e-06
	-1.051208e-07	9.72953e-07	-0.1307879	0.02041517	-1.123928e-05	1.936344e-05	0.01390146	-0.001283345
	0.01353019	-0.002686345	-1.123928e-05	1.936344e-05	-0.1319782	0.01608967	-1.089283e-05	1.709098e-05
	-1.751396e-06	1.035716e-06	0.01390146	-0.001283345	-1.089283e-05	1.709098e-05	-0.130657	0.02110066
4.3e+08	-0.1308157	0.021574	-6.058392e-08	9.705904e-07	0.01289337	-0.003055382	-1.745662e-06	1.077577e-06
	-6.058392e-08	9.705904e-07	-0.1295242	0.02603503	-1.057698e-05	1.956392e-05	0.01333371	-0.001645947
	0.01289337	-0.003055382	-1.057698e-05	1.956392e-05	-0.1309213	0.02170055	-1.031234e-05	1.731466e-05
	-1.745662e-06	1.077577e-06	0.01333371	-0.001645947	-1.031234e-05	1.731466e-05	-0.1293688	0.02673285
4.4e+08	-0.1293332	0.02704899	-1.65e-08	9.662617e-07	0.01221416	-0.003364489	-1.738439e-06	1.121203e-06
	-1.65e-08	9.662617e-07	-0.1278331	0.03152626	-9.908404e-06	1.974358e-05	0.01272382	-0.001954606
	0.01221416	-0.003364489	-9.908404e-06	1.974358e-05	-0.1294372	0.02720063	-9.72406e-06	1.752058e-05
	-1.738439e-06	1.121203e-06	0.01272382	-0.001954606	-9.72406e-06	1.752058e-05	-0.1276525	0.03223449
4.5e+08	-0.1274356	0.03238011	2.704663e-08	9.599951e-07	0.01149792	-0.003609937	-1.729591e-06	1.166494e-06
	2.704663e-08	9.599951e-07	-0.1257269	0.03685512	-9.234526e-06	1.990184e-05	0.01207657	-0.002205675
	0.01149792	-0.003609937	-9.234526e-06	1.990184e-05	-0.1275365	0.03255644	-9.128765e-06	1.770805e-05
	-1.729591e-06	1.166494e-06	0.01207657	-0.002205675	-9.128765e-06	1.770805e-05	-0.1255206	0.03757175
4.6e+08	-0.1251358	0.0375349	6.997198e-08	9.518233e-07	0.01075032	-0.003788451	-1.718988e-06	1.213348e-06
	6.997198e-08	9.518233e-07	-0.1232203	0.041989	-8.556337e-06	2.003815e-05	0.01139707	-0.002395908
	0.01075032	-0.003788451	-8.556337e-06	2.003815e-05	-0.1252323	0.03773543	-8.527265e-06	1.787643e-05
	-1.718988e-06	1.213348e-06	0.01139707	-0.002395908	-8.527265e-06	1.787643e-05	-0.122988	0.04271194
4.7e+08	-0.1224495	0.04248206	1.121927e-07	9.41784e-07	0.009977308	-0.003897236	-1.706503e-06	1.26165e-06
	1.121927e-07	9.41784e-07	-0.1203307	0.04689653	-7.874853e-06	2.015207e-05	0.0106907	-0.002522485
	0.009977308	-0.003897236	-7.874853e-06	2.015207e-05	-0.1225402	0.0427062	-7.92041e-06	1.802514e-05
	-1.706503e-06	1.26165e-06	0.0106907	-0.002522485	-7.92041e-06	1.802514e-05	-0.1200722	0.04762367
