!$
! Info: Touchstone file created by Circ.  Input file=Tx_4in_Rx_100ohms_TxVia_60mils_RxVia_70mils.circ
!$
# Hz S RI R 50
0	0.004297398	7.241891e-26	-2.181172e-05	7.250118e-26	4.203762e-05	8.202237e-24	-2.180998e-05	1.589921e-26
	-2.181172e-05	7.228192e-26	0.004292939	8.519442e-26	-2.181144e-05	7.534933e-26	4.17404e-05	1.036892e-23
	4.312186e-05	8.257074e-24	-2.181144e-05	7.528727e-26	0.004312956	7.237847e-26	-2.181184e-05	1.975221e-25
	-2.180997e-05	1.545047e-26	4.201029e-05	1.041338e-23	-2.181184e-05	1.973556e-25	0.004307501	8.479315e-26
1e+07	0.00599715	0.00319268	-8.544885e-07	-4.318559e-06	0.0001002241	0.0009439538	-5.728855e-07	-5.936325e-06
	-8.544885e-07	-4.318559e-06	0.006181641	0.00321747	-5.438241e-07	-1.272633e-06	0.0002418735	0.0009682255
	0.0001002552	0.0009439583	-5.438241e-07	-1.272633e-06	0.005780939	0.003307412	-1.322393e-06	-1.728263e-06
	-5.728856e-07	-5.936325e-06	0.0002418757	0.0009682231	-1.322393e-06	-1.728263e-06	0.006134229	0.003227533
2e+07	0.007665928	0.005079012	-2.018829e-06	-1.422461e-07	0.0002252466	0.00189104	-5.166664e-07	-2.22195e-06
	-2.018829e-06	-1.422461e-07	0.007822617	0.005052979	-6.935454e-06	-9.770771e-06	0.0003051223	0.001987853
	0.0002252607	0.001891021	-6.935454e-06	-9.770771e-06	0.007605181	0.00535393	-8.720196e-06	-9.815572e-06
	-5.166666e-07	-2.22195e-06	0.0003051189	0.001987853	-8.720196e-06	-9.815571e-06	0.007791776	0.00509409
3e+07	0.009102056	0.00633024	-3.20957e-06	-1.057483e-06	0.0004300722	0.0028058	-5.195979e-07	-1.320135e-06
	-3.20957e-06	-1.057483e-06	0.009230238	0.006289872	-1.263383e-05	-1.130798e-05	0.0004602637	0.002924688
	0.0004300731	0.002805798	-1.263383e-05	-1.130798e-05	0.009164983	0.006651249	-1.443535e-05	-1.117924e-05
	-5.195979e-07	-1.320135e-06	0.0004602634	0.00292469	-1.443535e-05	-1.117924e-05	0.009213539	0.006346066
4e+07	0.0104492	0.007296466	-4.198064e-06	-1.240482e-06	0.0007117446	0.003692172	-5.167451e-07	-8.506578e-07
	-4.198064e-06	-1.240482e-06	0.0105458	0.007250936	-1.73932e-05	-1.093455e-05	0.0007085744	0.003820557
	0.0007117485	0.003692177	-1.73932e-05	-1.093455e-05	0.01061861	0.007627706	-1.919922e-05	-1.065756e-05
	-5.167451e-07	-8.506579e-07	0.0007085751	0.003820557	-1.919922e-05	-1.065756e-05	0.01054245	0.007317346
5e+07	0.01175405	0.008059565	-5.03291e-06	-1.064425e-06	0.001066905	0.004545243	-5.042286e-07	-5.425883e-07
	-5.03291e-06	-1.064425e-06	0.01181537	0.008015273	-2.144015e-05	-9.443153e-06	0.001103232	0.004661737
	0.001066908	0.004545245	-2.144015e-05	-9.443153e-06	0.01201719	0.008378539	-2.324035e-05	-9.024951e-06
	-5.042286e-07	-5.425883e-07	0.001103233	0.004661737	-2.324035e-05	-9.024951e-06	0.0118246	0.008088915
6e+07	0.01303613	0.008656528	-5.733331e-06	-6.579325e-07	0.001491834	0.005359484	-4.811118e-07	-3.138965e-07
	-5.733331e-06	-6.579324e-07	0.01305904	0.008619526	-2.486871e-05	-7.141364e-06	0.001558069	0.005457535
	0.00149183	0.005359482	-2.486871e-05	-7.141364e-06	0.01338188	0.008946168	-2.665339e-05	-6.583413e-06
	-4.811118e-07	-3.138965e-07	0.00155807	0.005457535	-2.665339e-05	-6.583413e-06	0.0130803	0.008698151
7e+07	0.01430345	0.00910765	-6.30496e-06	-7.802416e-08	0.001990158	0.006126988	-4.463578e-07	-1.313778e-07
	-6.30496e-06	-7.802408e-08	0.01428524	0.009083661	-2.770658e-05	-4.169483e-06	0.002069849	0.006204222
	0.001990147	0.006126988	-2.770658e-05	-4.169483e-06	0.01472122	0.00935353	-2.946949e-05	-3.473523e-06
	-4.463575e-07	-1.313778e-07	0.00206985	0.006204222	-2.946949e-05	-3.473523e-06	0.01431797	0.00916522
8e+07	0.0155584	0.009426061	-6.744487e-06	6.507998e-07	0.002549601	0.006844406	-3.994294e-07	2.019183e-08
	-6.744486e-06	6.507998e-07	0.01549651	0.009420798	-2.994161e-05	-5.796453e-07	0.002634537	0.006897497
	0.002549587	0.006844408	-2.994161e-05	-5.796453e-07	0.01603723	0.009614774	-3.167463e-05	2.564783e-07
	-3.994291e-07	2.019183e-08	0.002634539	0.006897496	-3.167463e-05	2.564783e-07	0.01553996	0.009503327
9e+07	0.01680062	0.009621989	-7.036749e-06	1.531972e-06	0.003164977	0.007507374	-3.394559e-07	1.479587e-07
	-7.036749e-06	1.531972e-06	0.0166928	0.00964164	-3.150362e-05	3.68392e-06	0.003247267	0.007532604
	0.003164966	0.007507377	-3.150362e-05	3.68392e-06	0.01732813	0.009739138	-3.319612e-05	4.668001e-06
	-3.394556e-07	1.479586e-07	0.003247268	0.007532603	-3.319612e-05	4.668001e-06	0.01674591	0.009723201
1e+08	0.0180317	0.009710421	-7.092645e-06	2.698409e-06	0.003832408	0.008113794	-2.611753e-07	2.543493e-07
	-7.092645e-06	2.698409e-06	0.01787656	0.009762637	-3.198066e-05	9.285062e-06	0.003900942	0.008101705
	0.003832408	0.008113794	-3.198066e-05	9.285062e-06	0.01858788	0.009729379	-3.361512e-05	1.044399e-05
	-2.611753e-07	2.543493e-07	0.003900942	0.008101705	-3.361512e-05	1.044399e-05	0.01793762	0.00984058
1.1e+08	0.01927255	0.009664597	-6.476041e-06	3.535473e-06	0.004553535	0.008649966	-2.017667e-07	3.306678e-07
	-6.476041e-06	3.535473e-06	0.01907347	0.009753466	-2.925578e-05	1.33545e-05	0.004578091	0.008616757
	0.004553535	0.008649966	-2.925578e-05	1.33545e-05	0.0197976	0.009611958	-3.075117e-05	1.465363e-05
	-2.017667e-07	3.306678e-07	0.004578089	0.008616757	-3.075117e-05	1.465363e-05	0.01913813	0.009828976
1.2e+08	0.02047616	0.009490856	-6.3532e-06	3.389806e-06	0.005309583	0.009112798	-2.027144e-07	3.266814e-07
	-6.3532e-06	3.389806e-06	0.02023151	0.009620673	-2.709254e-05	1.583894e-05	0.00529314	0.009074263
	0.005309583	0.009112797	-2.709254e-05	1.583894e-05	0.02097811	0.009391399	-2.911939e-05	1.605225e-05
	-2.027144e-07	3.266814e-07	0.005293138	0.009074264	-2.911939e-05	1.605225e-05	0.02030004	0.009694865
1.3e+08	0.02164074	0.009203816	-6.239061e-06	3.315549e-06	0.006095347	0.00950238	-2.268941e-07	3.114068e-07
	-6.239061e-06	3.315549e-06	0.02134998	0.009380158	-2.666101e-05	1.52683e-05	0.006038537	0.009466801
	0.006095347	0.00950238	-2.666101e-05	1.52683e-05	0.02212177	0.009066579	-2.867234e-05	1.54762e-05
	-2.268941e-07	3.114068e-07	0.006038535	0.009466802	-2.867234e-05	1.54762e-05	0.02142219	0.009453103
1.4e+08	0.02276132	0.008810451	-6.113326e-06	3.288813e-06	0.006904473	0.00981705	-2.482031e-07	3.01853e-07
	-6.113326e-06	3.288813e-06	0.02242465	0.009039222	-2.617776e-05	1.494963e-05	0.006807825	0.009791084
	0.006904473	0.00981705	-2.617776e-05	1.494963e-05	0.02322248	0.008640977	-2.817577e-05	1.515748e-05
	-2.482031e-07	3.01853e-07	0.006807824	0.009791085	-2.817577e-05	1.515748e-05	0.02250022	0.009110807
1.5e+08	0.02383239	0.008316691	-5.980689e-06	3.292057e-06	0.007730294	0.01005537	-2.671507e-07	2.968575e-07
	-5.980689e-06	3.292057e-06	0.02345075	0.008603932	-2.56652e-05	1.479377e-05	0.00759454	0.0100449
	0.007730294	0.01005537	-2.56652e-05	1.479377e-05	0.02427424	0.008118871	-2.765102e-05	1.500711e-05
	-2.671507e-07	2.968575e-07	0.007594539	0.0100449	-2.765102e-05	1.500711e-05	0.02352929	0.008673999
1.6e+08	0.02484835	0.007728193	-5.843455e-06	3.31529e-06	0.008565959	0.01021639	-2.8405e-07	2.955479e-07
	-5.843455e-06	3.31529e-06	0.02442336	0.008079981	-2.513334e-05	1.47509e-05	0.008392137	0.01022682
	0.008565959	0.01021639	-2.513334e-05	1.47509e-05	0.02527116	0.007504968	-2.710815e-05	1.4974e-05
	-2.8405e-07	2.955479e-07	0.008392137	0.01022682	-2.710815e-05	1.4974e-05	0.02450445	0.008148361
1.7e+08	0.02580364	0.007050626	-5.702937e-06	3.352174e-06	0.009404516	0.01029967	-2.991284e-07	2.972536e-07
	-5.702937e-06	3.352174e-06	0.02533761	0.007472979	-2.458767e-05	1.478907e-05	0.009194015	0.01033604
	0.009404516	0.01029967	-2.458767e-05	1.478907e-05	0.0262075	0.00680433	-2.655261e-05	1.502539e-05
	-2.991284e-07	2.972536e-07	0.009194015	0.01033604	-2.655261e-05	1.502539e-05	0.0254208	0.007539525
1.8e+08	0.02669283	0.006289808	-5.559954e-06	3.398424e-06	0.01023898	0.01030538	-3.125637e-07	3.014541e-07
	-5.559954e-06	3.398424e-06	0.02618878	0.006788603	-2.403137e-05	1.488645e-05	0.009993554	0.01037245
	0.01023898	0.01030538	-2.403137e-05	1.488645e-05	0.02707767	0.006022372	-2.598751e-05	1.513895e-05
	-3.125637e-07	3.014541e-07	0.009993554	0.01037245	-2.598751e-05	1.513895e-05	0.02627358	0.006853202
1.9e+08	0.02751069	0.005451779	-5.415122e-06	3.451331e-06	0.01106237	0.01023428	-3.24498e-07	3.077537e-07
	-5.415122e-06	3.451331e-06	0.02697232	0.006032678	-2.346648e-05	1.50274e-05	0.01078416	0.01033651
	0.01106237	0.01023428	-2.346648e-05	1.50274e-05	0.02787638	0.005164854	-2.541478e-05	1.529864e-05
	-3.24498e-07	3.077537e-07	0.01078416	0.01033651	-2.541478e-05	1.529864e-05	0.02705824	0.006095251
2e+08	0.0282523	0.004542828	-5.268791e-06	3.508623e-06	0.01186781	0.01008775	-3.350591e-07	3.158203e-07
	-5.268791e-06	3.508623e-06	0.02768395	0.005211199	-2.289435e-05	1.520032e-05	0.01155932	0.01022931
	0.01186781	0.01008775	-2.289435e-05	1.520032e-05	0.0285986	0.004237877	-2.483565e-05	1.549262e-05
	-3.350591e-07	3.158203e-07	0.01155932	0.01022931	-2.483565e-05	1.549262e-05	0.02777049	0.005271719
2.1e+08	0.02891305	0.00356952	-5.121227e-06	3.568351e-06	0.01264856	0.009867742	-3.443653e-07	3.253882e-07
	-5.121227e-06	3.568351e-06	0.02831971	0.004330364	-2.231599e-05	1.539636e-05	0.01231264	0.01005251
	0.01264856	0.009867742	-2.231599e-05	1.539636e-05	0.02923965	0.003247862	-2.425103e-05	1.571182e-05
	-3.443653e-07	3.253882e-07	0.01231264	0.01005251	-2.425103e-05	1.571182e-05	0.02840635	0.004388845
2.2e+08	0.02948873	0.00253869	-4.972696e-06	3.629241e-06	0.01339805	0.009576812	-3.525159e-07	3.36256e-07
	-4.972696e-06	3.629241e-06	0.02887598	0.003396576	-2.173216e-05	1.560864e-05	0.01303791	0.009808343
	0.01339805	0.009576812	-2.173216e-05	1.560864e-05	0.02979528	0.00220156	-2.366155e-05	1.594923e-05
	-3.525159e-07	3.36256e-07	0.01303791	0.009808343	-2.366155e-05	1.594923e-05	0.02896221	0.003453078
2.3e+08	0.02997554	0.001457447	-4.82342e-06	3.69031e-06	0.01410998	0.009218085	-3.595964e-07	3.482667e-07
	-4.82342e-06	3.69031e-06	0.02934953	0.002416444	-2.114344e-05	1.583174e-05	0.01372914	0.009499602
	0.01410998	0.009218085	-2.114344e-05	1.583174e-05	0.03026165	0.001106022	-2.306766e-05	1.619933e-05
	-3.595964e-07	3.482667e-07	0.01372914	0.009499602	-2.306766e-05	1.619933e-05	0.02943486	0.002471077
2.4e+08	0.03037017	0.0003331352	-4.673611e-06	3.750791e-06	0.01477832	0.008795236	-3.656827e-07	3.612982e-07
	-4.673611e-06	3.750791e-06	0.02973754	0.001396745	-2.055041e-05	1.606128e-05	0.01438062	0.009129598
	0.01477832	0.008795236	-2.055041e-05	1.606128e-05	0.03063539	-3.144165e-05	-2.246982e-05	1.645766e-05
	-3.656827e-07	3.612982e-07	0.01438062	0.009129598	-2.246982e-05	1.645766e-05	0.02982147	0.001449668
2.5e+08	0.0306698	-0.0008266704	-4.523449e-06	3.810086e-06	0.01539742	0.00831246	-3.70837e-07	3.752583e-07
	-4.523449e-06	3.810086e-06	0.03003764	0.0003444378	-1.995353e-05	1.629375e-05	0.01498694	0.008702142
	0.01539742	0.00831246	-1.995353e-05	1.629375e-05	0.03091368	-0.001203267	-2.186837e-05	1.672064e-05
	-3.70837e-07	3.752583e-07	0.01498694	0.008702142	-2.186837e-05	1.672064e-05	0.03011972	0.0003958569
2.6e+08	0.03087213	-0.00201422	-4.373103e-06	3.867727e-06	0.01596199	0.007774446	-3.751107e-07	3.900786e-07
	-4.373103e-06	3.867727e-06	0.03024797	-0.0007333897	-1.935326e-05	1.652624e-05	0.01554306	0.008221518
	0.01596199	0.007774446	-1.935326e-05	1.652624e-05	0.03109421	-0.002401694	-2.126363e-05	1.698533e-05
	-3.751107e-07	3.900786e-07	0.01554306	0.008221518	-2.126363e-05	1.698533e-05	0.03032772	-0.0006832256
2.7e+08	0.03097546	-0.0032216	-4.222719e-06	3.923349e-06	0.01646718	0.007186337	-3.785423e-07	4.057106e-07
	-4.222719e-06	3.923349e-06	0.03036711	-0.001829542	-1.874999e-05	1.675638e-05	0.01604433	0.007692443
	0.01646718	0.007186337	-1.874999e-05	1.675638e-05	0.03117525	-0.003618791	-2.065587e-05	1.72493e-05
	-3.785423e-07	4.057106e-07	0.01604433	0.007692443	-2.065587e-05	1.72493e-05	0.0304441	-0.00178034
2.8e+08	0.03097862	-0.004440782	-4.07244e-06	3.97667e-06	0.01690861	0.006553694	-3.811586e-07	4.221206e-07
	-4.07244e-06	3.97667e-06	0.03039418	-0.00293674	-1.814415e-05	1.69822e-05	0.01648656	0.007120037
	0.01690861	0.006553694	-1.814415e-05	1.69822e-05	0.03115566	-0.004846497	-2.004538e-05	1.751056e-05
	-3.811586e-07	4.221206e-07	0.01648656	0.007120037	-2.004538e-05	1.751056e-05	0.03046803	-0.002888159
2.9e+08	0.03088108	-0.005663668	-3.922391e-06	4.027476e-06	0.01728242	0.005882451	-3.829747e-07	4.392878e-07
	-3.922391e-06	4.027476e-06	0.03032883	-0.004047669	-1.753614e-05	1.720207e-05	0.01686599	0.006509777
	0.01728242	0.005882451	-1.753614e-05	1.720207e-05	0.0310349	-0.006076679	-1.943243e-05	1.776743e-05
	-3.829747e-07	4.392878e-07	0.01686599	0.006509777	-1.943243e-05	1.776743e-05	0.03039916	-0.003999336
3e+08	0.03068289	-0.006882138	-3.77268e-06	4.075602e-06	0.01758529	0.005178872	-3.83993e-07	4.572005e-07
	-3.77268e-06	4.075602e-06	0.03017123	-0.005155014	-1.692632e-05	1.74146e-05	0.01717938	0.00586746
	0.01758529	0.005178872	-1.692632e-05	1.74146e-05	0.03081307	-0.007301166	-1.881724e-05	1.801851e-05
	-3.83993e-07	4.572005e-07	0.01717938	0.00586746	-1.881724e-05	1.801851e-05	0.03023771	-0.005106513
3.1e+08	0.03038473	-0.008088077	-3.623415e-06	4.120932e-06	0.01781444	0.004449502	-3.842045e-07	4.758529e-07
	-3.623415e-06	4.120932e-06	0.02992209	-0.006251484	-1.63151e-05	1.761866e-05	0.01742403	0.005199152
	0.01781444	0.004449502	-1.63151e-05	1.761866e-05	0.03049086	-0.008511794	-1.820009e-05	1.826262e-05
	-3.842045e-07	4.758529e-07	0.01742403	0.005199152	-1.820009e-05	1.826262e-05	0.02998443	-0.00620237
3.2e+08	0.0299879	-0.009273446	-3.474682e-06	4.163383e-06	0.01796772	0.003701115	-3.835886e-07	4.952435e-07
	-3.474682e-06	4.163383e-06	0.02958266	-0.007329879	-1.570284e-05	1.781329e-05	0.01759776	0.004511148
	0.01796772	0.003701115	-1.570284e-05	1.781329e-05	0.03006963	-0.009700475	-1.758121e-05	1.849878e-05
	-3.835886e-07	4.952435e-07	0.01759776	0.004511148	-1.758121e-05	1.849878e-05	0.02964062	-0.007279671
3.3e+08	0.02949431	-0.01043032	-3.326554e-06	4.202892e-06	0.01804356	0.002940662	-3.821134e-07	5.153727e-07
	-3.326554e-06	4.202892e-06	0.02915475	-0.008383106	-1.508989e-05	1.799767e-05	0.01769898	0.003809917
	0.01804356	0.002940662	-1.508989e-05	1.799767e-05	0.02955134	-0.01085923	-1.696078e-05	1.872611e-05
	-3.821134e-07	5.153727e-07	0.01769898	0.003809917	-1.696078e-05	1.872611e-05	0.02920811	-0.008331302
3.4e+08	0.0289065	-0.01155093	-3.1791e-06	4.239429e-06	0.01804102	0.002175218	-3.797365e-07	5.362398e-07
	-3.1791e-06	4.239429e-06	0.02864066	-0.009404227	-1.447661e-05	1.817115e-05	0.01772665	0.003102054
	0.01804102	0.002175218	-1.447661e-05	1.817115e-05	0.0289386	-0.01198023	-1.633906e-05	1.89439e-05
	-3.797365e-07	5.362398e-07	0.01772665	0.003102054	-1.633906e-05	1.89439e-05	0.02868928	-0.009350301
3.5e+08	0.02822759	-0.01262772	-3.032374e-06	4.272972e-06	0.01795982	0.001411927	-3.764059e-07	5.578425e-07
	-3.032374e-06	4.272972e-06	0.02804325	-0.01038651	-1.386335e-05	1.833313e-05	0.01768036	0.002394231
	0.01795982	0.001411927	-1.386335e-05	1.833313e-05	0.02823461	-0.01305587	-1.571623e-05	1.915153e-05
	-3.764059e-07	5.578425e-07	0.01768036	0.002394231	-1.571623e-05	1.915153e-05	0.02808702	-0.01032992
3.6e+08	0.02746131	-0.0136534	-2.886426e-06	4.303505e-06	0.01780028	0.0006579411	-3.720608e-07	5.801725e-07
	-2.886426e-06	4.303505e-06	0.02736586	-0.01132345	-1.325045e-05	1.848317e-05	0.01756025	0.00169314
	0.01780028	0.0006579411	-1.325045e-05	1.848317e-05	0.02744317	-0.01407881	-1.509252e-05	1.934846e-05
	-3.720608e-07	5.801725e-07	0.01756025	0.00169314	-1.509252e-05	1.934846e-05	0.02740473	-0.01126363
3.7e+08	0.02661197	-0.01462097	-2.74129e-06	4.331043e-06	0.01756338	-7.962857e-05	-3.666319e-07	6.032189e-07
	-2.74129e-06	4.331043e-06	0.02661235	-0.01220884	-1.263825e-05	1.862086e-05	0.0173671	0.001005445
	0.01756338	-7.962857e-05	-1.263825e-05	1.862086e-05	0.02656869	-0.01504203	-1.446812e-05	1.953424e-05
	-3.666319e-07	6.032189e-07	0.0173671	0.001005445	-1.446812e-05	1.953424e-05	0.02664633	-0.01214522
3.8e+08	0.02568439	-0.0155238	-2.596994e-06	4.355595e-06	0.01725073	-0.0007937739	-3.60043e-07	6.269628e-07
	-2.596994e-06	4.355595e-06	0.02578703	-0.01303675	-1.202707e-05	1.874587e-05	0.01710225	0.0003377261
	0.01725073	-0.000793774	-1.202707e-05	1.874587e-05	0.02561611	-0.01593884	-1.384323e-05	1.970844e-05
	-3.60043e-07	6.269628e-07	0.01710225	0.0003377261	-1.384323e-05	1.970844e-05	0.02581617	-0.01296878
3.9e+08	0.02468395	-0.01635565	-2.453557e-06	4.377173e-06	0.01686457	-0.001477643	-3.522123e-07	6.513768e-07
	-2.453557e-06	4.377173e-06	0.02489466	-0.01380165	-1.141723e-05	1.885794e-05	0.01676764	-0.0003035689
	0.01686457	-0.001477643	-1.141723e-05	1.885794e-05	0.02459091	-0.01676297	-1.321804e-05	1.987072e-05
	-3.522123e-07	6.513768e-07	0.01676764	-0.0003035689	-1.321804e-05	1.987072e-05	0.02491908	-0.01372874
4e+08	0.02361651	-0.01711071	-2.310993e-06	4.395787e-06	0.01640775	-0.002124596	-3.430533e-07	6.764248e-07
	-2.310993e-06	4.395787e-06	0.02394044	-0.01449836	-1.080906e-05	1.895682e-05	0.01636576	-0.0009121791
	0.01640775	-0.002124596	-1.080906e-05	1.895682e-05	0.02349905	-0.0175086	-1.259275e-05	2.002072e-05
	-3.430533e-07	6.764248e-07	0.01636576	-0.0009121791	-1.259275e-05	2.002072e-05	0.02396031	-0.01441996
4.1e+08	0.02248838	-0.01778366	-2.169312e-06	4.411451e-06	0.01588368	-0.002728259	-3.324766e-07	7.020599e-07
	-2.169312e-06	4.411451e-06	0.02292993	-0.01512214	-1.020285e-05	1.904234e-05	0.01589968	-0.001482079
	0.01588368	-0.002728259	-1.020285e-05	1.904234e-05	0.02234699	-0.01817039	-1.196754e-05	2.015818e-05
	-3.324766e-07	7.020599e-07	0.01589968	-0.001482079	-1.196754e-05	2.015818e-05	0.02294548	-0.0150377
4.2e+08	0.02130629	-0.01836968	-2.02852e-06	4.424176e-06	0.01529638	-0.003282572	-3.203908e-07	7.282254e-07
	-2.02852e-06	4.424176e-06	0.0218691	-0.0156687	-9.598926e-06	1.911436e-05	0.01537298	-0.002007525
	0.01529638	-0.003282572	-9.598926e-06	1.911436e-05	0.02114159	-0.01874354	-1.134263e-05	2.028282e-05
	-3.203908e-07	7.282254e-07	0.01537298	-0.002007525	-1.134263e-05	2.028282e-05	0.0218806	-0.01557768
4.3e+08	0.02007736	-0.01886453	-1.88862e-06	4.433968e-06	0.01465036	-0.003781847	-3.067042e-07	7.548529e-07
	-1.88862e-06	4.433968e-06	0.02076417	-0.01613421	-8.99759e-06	1.917277e-05	0.01478975	-0.002483105
	0.01465036	-0.003781847	-8.99759e-06	1.917277e-05	0.01989008	-0.01922379	-1.071821e-05	2.039441e-05
	-3.067042e-07	7.548529e-07	0.01478975	-0.002483105	-1.071821e-05	2.039441e-05	0.02077197	-0.01603611
4.4e+08	0.01880903	-0.01926451	-1.749613e-06	4.440828e-06	0.01395068	-0.004220804	-2.913265e-07	7.818631e-07
	-1.749613e-06	4.440828e-06	0.01962172	-0.01651538	-8.399145e-06	1.921746e-05	0.01415455	-0.002903781
	0.01395068	-0.004220804	-8.399145e-06	1.921746e-05	0.01860007	-0.01960748	-1.00945e-05	2.049272e-05
	-2.913265e-07	7.818631e-07	0.01415455	-0.002903781	-1.00945e-05	2.049272e-05	0.0196262	-0.01640972
4.5e+08	0.01750906	-0.01956657	-1.611503e-06	4.444755e-06	0.01320281	-0.004594623	-2.741698e-07	8.091649e-07
	-1.611503e-06	4.444755e-06	0.01844853	-0.01680941	-7.803891e-06	1.924836e-05	0.0134724	-0.00326493
	0.01320281	-0.004594623	-7.803891e-06	1.924836e-05	0.01727943	-0.01989159	-9.471712e-06	2.057752e-05
	-2.741698e-07	8.091649e-07	0.0134724	-0.00326493	-9.471712e-06	2.057752e-05	0.01845012	-0.01669574
4.6e+08	0.0161854	-0.01976825	-1.474292e-06	4.445743e-06	0.0124127	-0.004898982	-2.551503e-07	8.366559e-07
	-1.474292e-06	4.445743e-06	0.0172516	-0.01701408	-7.212188e-06	1.926541e-05	0.01274871	-0.003562382
	0.0124127	-0.004898982	-7.212188e-06	1.926541e-05	0.01593626	-0.02007371	-8.850085e-06	2.064864e-05
	-2.551503e-07	8.366559e-07	0.01274871	-0.003562382	-8.850085e-06	2.064864e-05	0.01725079	-0.01689198
4.7e+08	0.01484623	-0.01986779	-1.337983e-06	4.443778e-06	0.01158663	-0.005130094	-2.341905e-07	8.642139e-07
	-1.337983e-06	4.443778e-06	0.0160381	-0.01712771	-6.624537e-06	1.926848e-05	0.01198924	-0.003792454
	0.01158663	-0.005130094	-6.624537e-06	1.926848e-05	0.01457888	-0.0201521	-8.229876e-06	2.07058e-05
	-2.341905e-07	8.642139e-07	0.01198924	-0.003792454	-8.229876e-06	2.07058e-05	0.01603538	-0.0169968
