!$
! Info: Touchstone file created by Circ.  Input file=Tx_4in_Rx_85ohms_TxVia_60mils_RxVia_70mils.circ
!$
# Hz S RI R 50
0	0.003365441	7.474103e-26	-2.19227e-05	7.590761e-24	4.162768e-05	6.556675e-24	-2.195953e-05	1.215536e-23
	-2.19227e-05	7.590483e-24	0.003360763	8.539907e-26	-2.18855e-05	3.087415e-24	4.183211e-05	8.083077e-24
	4.26106e-05	6.671612e-24	-2.18855e-05	3.086932e-24	0.003379671	7.162706e-26	-2.191778e-05	7.095384e-24
	-2.195952e-05	1.215485e-23	4.210206e-05	8.117739e-24	-2.191778e-05	7.095633e-24	0.003375352	8.499668e-26
1e+07	0.005125397	-0.003248977	-9.447357e-05	-1.576608e-05	8.330273e-05	0.0009481343	-6.663452e-05	3.751916e-05
	-9.447357e-05	-1.576608e-05	0.00457957	-0.003329509	-2.600447e-06	-6.451873e-06	0.0001130542	0.0009510927
	8.331189e-05	0.0009481019	-2.600448e-06	-6.451872e-06	0.004605841	-0.003394167	-1.985462e-05	-7.639225e-06
	-6.663452e-05	3.751916e-05	0.0001130564	0.0009510903	-1.985462e-05	-7.639226e-06	0.004581483	-0.003320704
2e+07	0.005842861	-0.007859416	-8.570473e-05	-2.565639e-06	0.0002125518	0.001886319	-6.74363e-05	3.3187e-05
	-8.570473e-05	-2.565639e-06	0.005329757	-0.007795449	-2.414703e-06	-2.110515e-06	0.0002560106	0.001866984
	0.0002125252	0.001886318	-2.414702e-06	-2.110515e-06	0.005309403	-0.007907581	-1.813647e-05	1.548451e-07
	-6.74363e-05	3.3187e-05	0.0002560072	0.001866985	-1.813647e-05	1.548456e-07	0.005335101	-0.007774795
3e+07	0.005798721	-0.0129024	-8.054789e-05	-9.388119e-06	0.00044469	0.002783225	-6.566439e-05	3.846926e-05
	-8.054789e-05	-9.388119e-06	0.005299942	-0.01278518	-2.317848e-06	-9.911524e-07	0.0004712948	0.002758104
	0.0004446876	0.002783229	-2.317848e-06	-9.911525e-07	0.00525484	-0.01291315	-1.756145e-05	-2.578634e-06
	-6.566439e-05	3.846926e-05	0.0004712945	0.002758106	-1.756145e-05	-2.578634e-06	0.005307359	-0.01275584
4e+07	0.005141396	-0.01805486	-7.659402e-05	-1.26762e-05	0.0007499007	0.003647147	-6.19622e-05	4.431366e-05
	-7.659402e-05	-1.26762e-05	0.004643791	-0.01790046	-2.232041e-06	-3.805447e-07	0.0007581615	0.003620987
	0.0007499002	0.003647142	-2.232041e-06	-3.805445e-07	0.004590032	-0.0180356	-1.732681e-05	-4.193592e-06
	-6.19622e-05	4.431366e-05	0.0007581622	0.003620988	-1.732681e-05	-4.193592e-06	0.004652506	-0.0178636
5e+07	0.003931142	-0.02320372	-7.342495e-05	-1.441156e-05	0.001125814	0.004473603	-5.661144e-05	4.952511e-05
	-7.342495e-05	-1.441156e-05	0.003423409	-0.02301655	-2.150031e-06	3.346152e-08	0.001114056	0.004449955
	0.001125811	0.004473601	-2.150031e-06	3.34616e-08	0.003374655	-0.02315636	-1.734782e-05	-5.290428e-06
	-5.661144e-05	4.952511e-05	0.001114057	0.004449955	-1.734782e-05	-5.290428e-06	0.003432414	-0.0229727
6e+07	0.002205399	-0.02827542	-7.080319e-05	-1.52352e-05	0.00156888	0.005257091	-4.986386e-05	5.355554e-05
	-7.080319e-05	-1.52352e-05	0.001678048	-0.02805541	-2.068692e-06	3.483612e-07	0.001535497	0.005239249
	0.001568882	0.005257094	-2.068692e-06	3.483611e-07	0.001645936	-0.02820025	-1.756907e-05	-6.05129e-06
	-4.986386e-05	5.355554e-05	0.001535499	0.005239249	-1.756907e-05	-6.05129e-06	0.001686495	-0.02800474
7e+07	-6.215295e-06	-0.03321278	-6.856827e-05	-1.540892e-05	0.002074843	0.005992054	-4.19917e-05	5.600858e-05
	-6.856827e-05	-1.540892e-05	-0.0005615126	-0.03295766	-2.059808e-06	3.465362e-07	0.00201841	0.005983337
	0.002074851	0.005992059	-2.059808e-06	3.46536e-07	-0.0005665713	-0.03310933	-1.794844e-05	-6.545363e-06
	-4.19917e-05	5.600858e-05	0.002018412	0.005983337	-1.794844e-05	-6.545363e-06	-0.000554417	-0.03290025
8e+07	-0.002676639	-0.0379673	-6.658989e-05	-1.50359e-05	0.002638841	0.006673156	-3.331663e-05	5.650716e-05
	-6.658989e-05	-1.50359e-05	-0.003267497	-0.03767329	-2.094753e-06	2.321923e-07	0.002558199	0.006677037
	0.002638854	0.006673158	-2.094753e-06	2.321921e-07	-0.003235737	-0.03783446	-1.844785e-05	-6.799833e-06
	-3.331663e-05	5.650716e-05	0.002558201	0.006677037	-1.844785e-05	-6.799833e-06	-0.003262627	-0.03760915
9e+07	-0.005778993	-0.0424961	-6.473478e-05	-1.410371e-05	0.00325547	0.007295487	-2.426665e-05	5.455715e-05
	-6.473478e-05	-1.410371e-05	-0.006412425	-0.04215826	-2.137623e-06	1.385245e-07	0.00314981	0.007315722
	0.003255481	0.007295486	-2.137623e-06	1.385243e-07	-0.006334304	-0.04233173	-1.902997e-05	-6.819033e-06
	-2.426665e-05	5.455715e-05	0.003149811	0.007315721	-1.902997e-05	-6.819033e-06	-0.006410746	-0.04208724
1e+08	-0.009285533	-0.04676091	-6.271947e-05	-1.216865e-05	0.003919051	0.007855123	-1.583713e-05	4.842722e-05
	-6.271947e-05	-1.216865e-05	-0.009968357	-0.04637442	-2.18867e-06	5.020495e-08	0.003788265	0.007896485
	0.003919051	0.007855122	-2.18867e-06	5.020495e-08	-0.009832258	-0.04655798	-1.964638e-05	-6.551851e-06
	-1.583713e-05	4.842722e-05	0.003788265	0.007896485	-1.964638e-05	-6.551851e-06	-0.009970922	-0.04629624
1.1e+08	-0.01316743	-0.05072563	-6.257338e-05	-9.370545e-06	0.004624903	0.008346181	-1.599058e-06	3.825621e-05
	-6.257338e-05	-9.370545e-06	-0.01390873	-0.05027971	-2.212601e-06	-2.507386e-08	0.004472052	0.008410527
	0.004624903	0.008346181	-2.212601e-06	-2.507386e-08	-0.01368623	-0.050494	-2.050468e-05	-6.04442e-06
	-1.599058e-06	3.825621e-05	0.00447205	0.008410527	-2.050468e-05	-6.04442e-06	-0.01391662	-0.05019344
1.2e+08	-0.01739199	-0.05435916	-6.270837e-05	-7.182876e-06	0.005363331	0.008765359	1.32518e-05	2.870006e-05
	-6.270837e-05	-7.182876e-06	-0.01819321	-0.05384215	-2.240789e-06	-7.280298e-08	0.005187564	0.008854408
	0.005363331	0.008765359	-2.240789e-06	-7.280298e-08	-0.01788659	-0.05410885	-2.138374e-05	-5.453222e-06
	1.32518e-05	2.870006e-05	0.005187562	0.008854409	-2.138374e-05	-5.453222e-06	-0.01820692	-0.05374677
1.3e+08	-0.02192681	-0.05763416	-6.290542e-05	-5.086448e-06	0.006127592	0.009110844	2.782955e-05	1.798766e-05
	-6.290542e-05	-5.086447e-06	-0.02278869	-0.05703568	-2.273183e-06	-1.040001e-07	0.005928736	0.009227418
	0.006127592	0.009110844	-2.273183e-06	-1.040001e-07	-0.02239918	-0.05736949	-2.22435e-05	-4.723017e-06
	2.782955e-05	1.798766e-05	0.005928734	0.009227419	-2.22435e-05	-4.723017e-06	-0.02280866	-0.05693021
1.4e+08	-0.02673795	-0.06052625	-6.310538e-05	-2.978885e-06	0.006910549	0.009380946	4.176143e-05	5.733417e-06
	-6.310538e-05	-2.978885e-06	-0.02766007	-0.05983603	-2.309031e-06	-1.218354e-07	0.006688878	0.009528137
	0.006910549	0.009380946	-2.309031e-06	-1.218354e-07	-0.02718969	-0.0602501	-2.305791e-05	-3.849921e-06
	4.176143e-05	5.733417e-06	0.006688877	0.009528138	-2.305791e-05	-3.849921e-06	-0.02768663	-0.05971946
1.5e+08	-0.03179013	-0.06301427	-6.327007e-05	-8.205775e-07	0.007704918	0.009574596	5.473316e-05	-8.204061e-06
	-6.327007e-05	-8.205775e-07	-0.03277086	-0.06222207	-2.347542e-06	-1.281154e-07	0.007461127	0.009755603
	0.007704917	0.009574596	-2.347542e-06	-1.281154e-07	-0.03222263	-0.06272871	-2.380404e-05	-2.839453e-06
	5.473316e-05	-8.204061e-06	0.007461126	0.009755604	-2.380404e-05	-2.839453e-06	-0.03280421	-0.06209332
1.6e+08	-0.03704693	-0.06508033	-6.336989e-05	1.403487e-06	0.008503358	0.009691395	6.645449e-05	-2.38495e-05
	-6.336989e-05	1.403487e-06	-0.03808341	-0.06417604	-2.387925e-06	-1.240562e-07	0.008238554	0.009909442
	0.008503358	0.009691395	-2.387925e-06	-1.240562e-07	-0.03746147	-0.06478694	-2.446136e-05	-1.701953e-06
	6.645449e-05	-2.38495e-05	0.008238554	0.009909442	-2.446136e-05	-1.701953e-06	-0.03812361	-0.06403398
1.7e+08	-0.04247101	-0.06670983	-6.338044e-05	3.695706e-06	0.009298553	0.009731638	7.665278e-05	-4.115207e-05
	-6.338044e-05	3.695706e-06	-0.04355916	-0.06568357	-2.429406e-06	-1.105814e-07	0.009014245	0.009989904
	0.009298553	0.009731638	-2.429406e-06	-1.105814e-07	-0.04286876	-0.06640981	-2.501178e-05	-4.510337e-07
	7.665278e-05	-4.115207e-05	0.009014245	0.009989904	-2.501178e-05	-4.510337e-07	-0.04360613	-0.06552704
1.8e+08	-0.04802437	-0.06789151	-6.328145e-05	6.05086e-06	0.01008328	0.0096963	8.507393e-05	-6.00041e-05
	-6.328145e-05	6.05086e-06	-0.04915887	-0.0667337	-2.471238e-06	-8.84569e-08	0.009781372	0.00999787
	0.01008328	0.0096963	-2.471238e-06	-8.84569e-08	-0.0484064	-0.06758575	-2.54398e-05	8.972211e-07
	8.507393e-05	-6.00041e-05	0.009781372	0.00999787	-2.54398e-05	8.972211e-07	-0.0492124	-0.06656154
1.9e+08	-0.05366857	-0.06861738	-6.305623e-05	8.458782e-06	0.01085048	0.009587028	9.148471e-05	-8.025186e-05
	-6.305623e-05	8.458782e-06	-0.05484292	-0.06731892	-2.512707e-06	-5.836938e-08	0.01053326	0.009934842
	0.01085048	0.009587028	-2.512707e-06	-5.836938e-08	-0.05403585	-0.06830654	-2.573265e-05	2.324848e-06
	9.148471e-05	-8.025186e-05	0.01053326	0.009934842	-2.573265e-05	2.324848e-06	-0.05490265	-0.06712996
2e+08	-0.059365	-0.06888274	-6.269145e-05	1.090591e-05	0.01159331	0.009406113	9.567612e-05	-0.0001017032
	-6.269145e-05	1.090591e-05	-0.06057156	-0.06743512	-2.553149e-06	-2.097141e-08	0.01126344	0.009802919
	0.01159331	0.009406113	-2.553149e-06	-2.097141e-08	-0.0597184	-0.06856729	-2.588041e-05	3.812493e-06
	9.567612e-05	-0.0001017032	0.01126344	0.009802919	-2.588041e-05	3.812493e-06	-0.06063698	-0.06722821
2.1e+08	-0.06507511	-0.06868613	-6.217701e-05	1.337642e-05	0.01230524	0.009156461	9.746604e-05	-0.0001241337
	-6.217701e-05	1.337642e-05	-0.06630516	-0.06708153	-2.591958e-06	2.30927e-08	0.01196571	0.009604772
	0.01230524	0.009156461	-2.591958e-06	2.30927e-08	-0.06541541	-0.06836638	-2.587607e-05	5.339881e-06
	9.746604e-05	-0.0001241337	0.01196571	0.009604772	-2.587607e-05	5.339881e-06	-0.0663756	-0.06685557
2.2e+08	-0.07076068	-0.06802928	-6.150598e-05	1.585296e-05	0.01298006	0.008841554	9.67023e-05	-0.0001472918
	-6.150598e-05	1.585296e-05	-0.07200445	-0.06626072	-2.628596e-06	7.317366e-08	0.0126342	0.009343612
	0.01298006	0.008841554	-2.628596e-06	7.317366e-08	-0.07108854	-0.0677054	-2.571556e-05	6.886241e-06
	9.67023e-05	-0.0001472918	0.0126342	0.009343612	-2.571556e-05	6.886241e-06	-0.07207913	-0.06601465
2.3e+08	-0.07638398	-0.066917	-6.067446e-05	1.83173e-05	0.01361196	0.008465413	9.326521e-05	-0.0001709044
	-6.067446e-05	1.83173e-05	-0.07763083	-0.06497843	-2.662605e-06	1.286116e-07	0.01326338	0.009023145
	0.01361196	0.008465413	-2.662605e-06	1.286116e-07	-0.07669998	-0.06658906	-2.539774e-05	8.430703e-06
	9.326521e-05	-0.0001709044	0.01326338	0.009023145	-2.539774e-05	8.430703e-06	-0.0777088	-0.06471126
2.4e+08	-0.08190812	-0.06535716	-5.968147e-05	2.075096e-05	0.01419556	0.008032547	8.706855e-05	-0.0001946813
	-5.968147e-05	2.075096e-05	-0.08314653	-0.06324357	-2.693621e-06	1.887399e-07	0.01384814	0.008647538
	0.01419556	0.008032547	-2.693621e-06	1.887399e-07	-0.08221271	-0.06502515	-2.49243e-05	9.952741e-06
	8.706855e-05	-0.0001946813	0.01384814	0.008647538	-2.49243e-05	9.952741e-06	-0.08322673	-0.0629544
2.5e+08	-0.08729718	-0.06336053	-5.852882e-05	2.313557e-05	0.01472595	0.007547912	7.806195e-05	-0.0002183203
	-5.852882e-05	2.313557e-05	-0.0885149	-0.06106803	-2.721371e-06	2.5289e-07	0.01438379	0.00822137
	0.01472595	0.007547912	-2.721371e-06	2.5289e-07	-0.0875907	-0.06302437	-2.429962e-05	1.143248e-05
	7.806195e-05	-0.0002183203	0.01438379	0.00822137	-2.429962e-05	1.143248e-05	-0.08859616	-0.06075606
2.6e+08	-0.09251643	-0.0609407	-5.722087e-05	2.545333e-05	0.01519873	0.007016853	6.623106e-05	-0.0002415119
	-5.722087e-05	2.545333e-05	-0.09370061	-0.05846662	-2.745684e-06	3.204034e-07	0.01486613	0.007749587
	0.01519873	0.007016853	-2.745684e-06	3.204034e-07	-0.09279915	-0.06060026	-2.353064e-05	1.285108e-05
	6.623106e-05	-0.0002415119	0.01486613	0.007749587	-2.353064e-05	1.285108e-05	-0.09378166	-0.05813115
2.7e+08	-0.09753256	-0.05811392	-5.576436e-05	2.768727e-05	0.01561004	0.006445059	5.159872e-05	-0.0002639445
	-5.576436e-05	2.768727e-05	-0.09866987	-0.05545688	-2.766489e-06	3.906405e-07	0.01529143	0.007237451
	0.01561004	0.006445059	-2.766489e-06	3.906405e-07	-0.09780463	-0.05776904	-2.262662e-05	1.419098e-05
	5.159872e-05	-0.0002639445	0.01529143	0.007237451	-2.262662e-05	1.419098e-05	-0.09874931	-0.05509733
2.8e+08	-0.1023139	-0.05489899	-5.416824e-05	2.982166e-05	0.01595655	0.005838506	3.422345e-05	-0.000285308
	-5.416824e-05	2.982166e-05	-0.1033906	-0.05205892	-2.783813e-06	4.630014e-07	0.01565648	0.006690497
	0.01595655	0.005838506	-2.783813e-06	4.630014e-07	-0.1025753	-0.05454949	-2.159893e-05	1.543622e-05
	3.422345e-05	-0.000285308	0.01565648	0.006690497	-2.159893e-05	1.543622e-05	-0.103467	-0.05167487
2.9e+08	-0.1068304	-0.05131709	-5.244333e-05	3.184221e-05	0.01623553	0.005203403	1.419969e-05	-0.0003052984
	-5.244333e-05	3.184221e-05	-0.1078326	-0.04829532	-2.797781e-06	5.369359e-07	0.0159586	0.006114479
	0.01623553	0.005203403	-2.797781e-06	5.369359e-07	-0.1070812	-0.05096278	-2.046077e-05	1.657264e-05
	1.419969e-05	-0.0003052984	0.0159586	0.006114479	-2.046077e-05	1.657264e-05	-0.1079044	-0.04788646
3e+08	-0.1110542	-0.0473916	-5.060209e-05	3.373618e-05	0.01644479	0.004546144	-8.343024e-06	-0.0003236239
	-5.060209e-05	3.373618e-05	-0.1119679	-0.04419087	-2.808596e-06	6.119552e-07	0.01619563	0.005515325
	0.01644479	0.004546144	-2.808596e-06	6.119552e-07	-0.1112942	-0.04703231	-1.92269e-05	1.758802e-05
	-8.343024e-06	-0.0003236239	0.01619563	0.005515325	-1.92269e-05	1.758802e-05	-0.1120334	-0.04375706
3.1e+08	-0.1149592	-0.04314795	-4.865838e-05	3.549269e-05	0.01658277	0.003873252	-3.324317e-05	-0.0003400053
	-4.865838e-05	3.549269e-05	-0.1157704	-0.03977243	-2.81654e-06	6.876522e-07	0.01636594	0.004899087
	0.01658277	0.003873252	-2.81654e-06	6.876522e-07	-0.1151883	-0.04278352	-1.791338e-05	1.847232e-05
	-3.324317e-05	-0.0003400053	0.01636594	0.004899087	-1.791338e-05	1.847232e-05	-0.1158281	-0.03931369
3.2e+08	-0.1185219	-0.03861345	-4.662714e-05	3.710269e-05	0.01664846	0.003191325	-6.030801e-05	-0.0003541818
	-4.662714e-05	3.710269e-05	-0.1192168	-0.03506874	-2.821952e-06	7.637052e-07	0.01646848	0.004271895
	0.01664846	0.003191325	-2.821952e-06	7.637052e-07	-0.1187396	-0.03824377	-1.653719e-05	1.92177e-05
	-6.030801e-05	-0.0003541818	0.01646848	0.004271895	-1.653719e-05	1.92177e-05	-0.119265	-0.03458524
3.3e+08	-0.1217207	-0.03381706	-4.452436e-05	3.855928e-05	0.01664145	0.002506994	-8.931262e-05	-0.0003659286
	-4.452436e-05	3.855928e-05	-0.1222859	-0.03011021	-2.825211e-06	8.39894e-07	0.01650269	0.003639913
	0.01664145	0.002506994	-2.825211e-06	8.39894e-07	-0.1219268	-0.03344205	-1.511619e-05	1.981864e-05
	-8.931262e-05	-0.0003659286	0.01650269	0.003639913	-1.511619e-05	1.981864e-05	-0.122323	-0.02960229
3.4e+08	-0.1245368	-0.02878925	-4.231091e-05	3.982411e-05	0.01656193	0.001826866	-0.0001211075	-0.0003696754
	-4.231091e-05	3.982411e-05	-0.1249592	-0.02492868	-2.827617e-06	9.157426e-07	0.01646857	0.003009295
	0.01656193	0.001826866	-2.827617e-06	9.157426e-07	-0.1247307	-0.02840888	-1.361405e-05	2.023563e-05
	-0.0001211075	-0.0003696754	0.01646857	0.003009295	-1.361405e-05	2.023563e-05	-0.1249835	-0.02439686
3.5e+08	-0.1269536	-0.02356177	-4.005362e-05	4.091496e-05	0.01641062	0.001157482	-0.0001539906	-0.000369732
	-4.005362e-05	4.091496e-05	-0.1272211	-0.01955728	-2.828959e-06	9.916872e-07	0.01636664	0.00238614
	0.01641062	0.001157482	-2.828959e-06	9.916872e-07	-0.1271349	-0.02317607	-1.209873e-05	2.049091e-05
	-0.0001539906	-0.000369732	0.01636664	0.00238614	-1.209873e-05	2.049091e-05	-0.127231	-0.01900222
3.6e+08	-0.1289574	-0.01816743	-3.777861e-05	4.183567e-05	0.01618883	0.0005052718	-0.0001874719	-0.0003667684
	-3.777861e-05	4.183567e-05	-0.1290583	-0.01403014	-2.829492e-06	1.067917e-06	0.01619792	0.001776456
	0.01618883	0.0005052718	-2.829492e-06	1.067917e-06	-0.1291255	-0.0177765	-1.059748e-05	2.059105e-05
	-0.0001874719	-0.0003667684	0.01619792	0.001776456	-1.059748e-05	2.059105e-05	-0.1290522	-0.0134527
3.7e+08	-0.130537	-0.01263995	-3.550332e-05	4.25877e-05	0.0158984	-0.0001234915	-0.0002212454	-0.0003606942
	-3.550332e-05	4.25877e-05	-0.1304606	-0.008382243	-2.829554e-06	1.144655e-06	0.01596395	0.00118612
	0.0158984	-0.0001234915	-2.829554e-06	1.144655e-06	-0.1306914	-0.01224397	-9.128741e-06	2.054005e-05
	-0.0002212454	-0.0003606942	0.01596395	0.00118612	-9.128741e-06	2.054005e-05	-0.130437	-0.007783403
3.8e+08	-0.1316839	-0.007013726	-3.324477e-05	4.317453e-05	0.01554169	-0.0007227293	-0.0002549946	-0.0003514526
	-3.324477e-05	4.317453e-05	-0.1314206	-0.002649141	-2.829424e-06	1.222214e-06	0.01566674	0.0006208386
	0.01554169	-0.0007227293	-2.829424e-06	1.222214e-06	-0.1318239	-0.006612946	-7.710232e-06	2.03441e-05
	-0.0002549946	-0.0003514526	0.01566674	0.0006208387	-7.710232e-06	2.03441e-05	-0.131378	-0.00203007
3.9e+08	-0.1323924	-0.001323612	-3.10193e-05	4.360153e-05	0.01512156	-0.001286598	-0.0002883966	-0.0003390211
	-3.10193e-05	4.360153e-05	-0.1319336	0.003133215	-2.829308e-06	1.300988e-06	0.01530875	8.611894e-05
	0.01512156	-0.001286598	-2.829308e-06	1.300988e-06	-0.1325173	-0.00091836	-6.358684e-06	2.001146e-05
	-0.0002883966	-0.0003390211	0.01530875	8.611895e-05	-6.358684e-06	2.001146e-05	-0.1318707	0.003771205
4e+08	-0.1326594	0.00439527	-2.88424e-05	4.38759e-05	0.01464137	-0.001809526	-0.0003211262	-0.000323413
	-2.88424e-05	4.38759e-05	-0.131998	0.00892871	-2.829322e-06	1.381431e-06	0.01489291	-0.00041277
	0.01464137	-0.001809526	-2.829322e-06	1.381431e-06	-0.1327686	0.004804574	-5.089643e-06	1.955232e-05
	-0.0003211262	-0.000323413	0.01489291	-0.00041277	-5.089643e-06	1.955232e-05	-0.1319135	0.009584165
4.1e+08	-0.1324847	0.01010774	-2.672851e-05	4.400652e-05	0.01410491	-0.002286247	-0.0003528596	-0.0003046768
	-2.672851e-05	4.400652e-05	-0.1316147	0.01470129	-2.829482e-06	1.464048e-06	0.01442256	-0.0008708263
	0.01410491	-0.002286247	-2.829482e-06	1.464048e-06	-0.1325776	0.01052059	-3.917257e-06	1.897863e-05
	-0.0003528596	-0.0003046768	0.01442256	-0.0008708262	-3.917257e-06	1.897863e-05	-0.1315076	0.01537262
4.2e+08	-0.1318709	0.01577877	-2.469083e-05	4.400386e-05	0.01351643	-0.002711837	-0.0003832781	-0.0002828953
	-2.469083e-05	4.400386e-05	-0.1307879	0.02041517	-2.829694e-06	1.54937e-06	0.01390146	-0.001283345
	0.01351643	-0.002711837	-2.829694e-06	1.54937e-06	-0.1319467	0.01619457	-2.854084e-06	1.830396e-05
	-0.0003832781	-0.0002828953	0.01390146	-0.001283345	-2.854084e-06	1.830396e-05	-0.130657	0.02110066
4.3e+08	-0.130823	0.02137367	-2.274119e-05	4.387975e-05	0.01288056	-0.003081741	-0.0004120726	-0.0002581862
	-2.274119e-05	4.387975e-05	-0.1295242	0.02603503	-2.829749e-06	1.63794e-06	0.01333371	-0.001645947
	0.01288056	-0.003081741	-2.829749e-06	1.63794e-06	-0.1308813	0.02179174	-1.91095e-06	1.754327e-05
	-0.0004120726	-0.0002581862	0.01333371	-0.001645947	-1.91095e-06	1.754327e-05	-0.1293688	0.02673285
4.4e+08	-0.1293491	0.02685831	-2.08899e-05	4.364724e-05	0.01220232	-0.003391805	-0.0004389467	-0.0002307001
	-2.08899e-05	4.364724e-05	-0.1278331	0.03152626	-2.829321e-06	1.730282e-06	0.01272382	-0.001954606
	0.01220232	-0.003391805	-2.829321e-06	1.730282e-06	-0.1293891	0.02727788	-1.096789e-06	1.67127e-05
	-0.0004389467	-0.0002307001	0.01272382	-0.001954606	-1.096789e-06	1.67127e-05	-0.1276525	0.03223449
4.5e+08	-0.1274596	0.0321993	-1.914563e-05	4.332047e-05	0.01148705	-0.003638302	-0.0004636205	-0.000200619
	-1.914563e-05	4.332047e-05	-0.1257269	0.03685512	-2.82797e-06	1.826886e-06	0.01207657	-0.002205675
	0.01148705	-0.003638302	-2.82797e-06	1.826886e-06	-0.1274809	0.03261951	-4.18537e-07	1.582938e-05
	-0.0004636205	-0.000200619	0.01207657	-0.002205675	-4.18537e-07	1.582938e-05	-0.1255206	0.03757175
4.6e+08	-0.1251677	0.03736422	-1.751528e-05	4.291443e-05	0.01074042	-0.003817961	-0.0004858341	-0.0001681542
	-1.751528e-05	4.291443e-05	-0.1232203	0.041989	-2.825147e-06	1.928193e-06	0.01139707	-0.002395908
	0.01074042	-0.003817961	-2.825147e-06	1.928193e-06	-0.1251696	0.03778412	1.189936e-07	1.491118e-05
	-0.0004858341	-0.0001681542	0.01139707	-0.002395908	1.189936e-07	1.491118e-05	-0.122988	0.04271194
4.7e+08	-0.1224888	0.04232173	-1.600394e-05	4.244477e-05	0.009968373	-0.003927987	-0.0005053505	-0.0001335445
	-1.600394e-05	4.244477e-05	-0.1203307	0.04689653	-2.820203e-06	2.034559e-06	0.0106907	-0.002522485
	0.009968373	-0.003927987	-2.820203e-06	2.034559e-06	-0.122471	0.0427403	5.131633e-07	1.397647e-05
