!$
! Info: Touchstone file created by Circ.  Input file=Tx_4in_Rx_93ohms_TxVia_60mils_RxVia_70mils.circ
!$
# Hz S RI R 50
0	0.003813506	7.24044e-26	-2.909072e-11	8.762116e-27	4.203411e-05	7.265119e-24	-3.218897e-09	4.001017e-25
	-2.909149e-11	8.762225e-27	0.003809049	8.517142e-26	4.418735e-11	1.491574e-27	4.173622e-05	9.182342e-24
	4.311841e-05	7.313698e-24	4.418311e-11	1.492087e-27	0.003829077	7.236381e-26	-7.893533e-12	7.742697e-27
	-3.218769e-09	4.00086e-25	4.200614e-05	9.221719e-24	-7.988503e-12	7.754279e-27	0.003823625	8.477009e-26
1e+07	0.005288713	0.0001877883	5.373137e-11	1.602726e-10	0.0001109669	0.000897305	-5.002574e-09	7.539992e-09
	5.373137e-11	1.602726e-10	0.005592786	0.0001528138	6.400789e-11	1.792693e-10	0.0001119801	0.0009567613
	0.000110998	0.0008973094	6.40079e-11	1.792693e-10	0.005681304	0.000400998	-5.418136e-09	9.700516e-09
	-5.002574e-09	7.539992e-09	0.0001119823	0.0009567588	-5.418136e-09	9.700516e-09	0.005495774	0.0001499189
2e+07	0.006544083	-0.0008491823	6.022598e-11	3.011275e-10	0.0002583415	0.001810594	3.29879e-11	-5.425497e-11
	6.022598e-11	3.011275e-10	0.006741265	-0.001020798	6.966047e-11	3.394101e-10	0.0002111362	0.00191714
	0.0002583555	0.001810575	6.966046e-11	3.394101e-10	0.00705922	-0.0006375394	2.476548e-11	6.453218e-10
	3.298791e-11	-5.425497e-11	0.0002111328	0.00191714	2.476549e-11	6.453218e-10	0.00666772	-0.0009869806
3e+07	0.007325588	-0.002471106	4.236463e-11	4.467799e-10	0.0004786565	0.002703647	4.131845e-11	5.037784e-10
	4.236463e-11	4.467799e-10	0.007428919	-0.002685535	5.368743e-11	5.025219e-10	0.0004170534	0.002829488
	0.0004786573	0.002703645	5.368743e-11	5.025219e-10	0.007935275	-0.002281336	5.310543e-11	5.529541e-10
	4.131845e-11	5.037784e-10	0.0004170531	0.00282949	5.310543e-11	5.529541e-10	0.007372962	-0.002641893
4e+07	0.007780694	-0.004308223	2.032569e-11	5.902862e-10	0.0007720668	0.00357183	2.389056e-11	7.04219e-10
	2.032569e-11	5.902862e-10	0.007793685	-0.004538125	3.381579e-11	6.647727e-10	0.0007168722	0.003706122
	0.0007720707	0.003571835	3.381579e-11	6.647727e-10	0.00846799	-0.004158049	2.784152e-11	7.0571e-10
	2.389056e-11	7.04219e-10	0.0007168729	0.003706122	2.784152e-11	7.0571e-10	0.007752082	-0.004491792
5e+07	0.007962372	-0.006261055	-1.099167e-11	7.353947e-10	0.001136498	0.004408544	-1.028707e-11	8.694343e-10
	-1.099167e-11	7.353947e-10	0.007885833	-0.006487897	5.597233e-12	8.284356e-10	0.001083512	0.004546697
	0.001136501	0.004408545	5.597233e-12	8.284356e-10	0.008714	-0.006164129	-5.609763e-12	8.873479e-10
	-1.028707e-11	8.694343e-10	0.001083513	0.004546697	-5.609762e-12	8.873479e-10	0.007855736	-0.006442746
6e+07	0.00789798	-0.008275278	-5.243101e-11	8.844168e-10	0.001568895	0.005207581	-5.631741e-11	1.037014e-09
	-5.243101e-11	8.844169e-10	0.007732459	-0.008483648	-3.146806e-11	9.953709e-10	0.00151416	0.005346775
	0.001568891	0.00520758	-3.146806e-11	9.953709e-10	0.008702094	-0.008242899	-4.765713e-11	1.075326e-09
	-5.631741e-11	1.037014e-09	0.001514161	0.005346776	-4.765713e-11	1.075326e-09	0.007711423	-0.008442229
7e+07	0.007604828	-0.01031377	-1.04e-10	1.039593e-09	0.002065629	0.005963207	-1.109078e-10	1.215526e-09
	-1.04e-10	1.039593e-09	0.007351066	-0.01048972	-7.752355e-11	1.167593e-09	0.00200529	0.006101527
	0.002065618	0.005963206	-7.752355e-11	1.167593e-09	0.008450015	-0.01035598	-1.000594e-10	1.267144e-09
	-1.109078e-10	1.215526e-09	0.002005292	0.006101526	-1.000594e-10	1.267144e-09	0.007336788	-0.01045405
8e+07	0.007095764	-0.01234753	-1.652818e-10	1.203191e-09	0.002622641	0.006670249	-1.712556e-10	1.407715e-09
	-1.652818e-10	1.203191e-09	0.006754938	-0.01247735	-1.321655e-10	1.347038e-09	0.002552801	0.006806105
	0.002622626	0.006670252	-1.321655e-10	1.347038e-09	0.007970308	-0.01247413	-1.639097e-10	1.463958e-09
	-1.712556e-10	1.407715e-09	0.002552803	0.006806105	-1.639097e-10	1.463958e-09	0.006745016	-0.01244915
9e+07	0.00638191	-0.01435176	-2.356939e-10	1.377632e-09	0.003235657	0.007324529	-2.341037e-10	1.613594e-09
	-2.356939e-10	1.377632e-09	0.0059563	-0.01442053	-1.935126e-10	1.534948e-09	0.003152051	0.007455833
	0.003235646	0.007324533	-1.935126e-10	1.534948e-09	0.007272717	-0.01457417	-2.392477e-10	1.667218e-09
	-2.341037e-10	1.613594e-09	0.003152052	0.007455833	-2.392477e-10	1.667218e-09	0.005948098	-0.01440144
1e+08	0.005475376	-0.01630166	-3.160458e-10	1.566893e-09	0.003901958	0.007926926	-2.985901e-10	1.834487e-09
	-3.160458e-10	1.566893e-09	0.004971887	-0.0162866	-2.629861e-10	1.733406e-09	0.003797925	0.008046191
	0.003901958	0.007926926	-2.629861e-10	1.733406e-09	0.006361792	-0.01664477	-3.286119e-10	1.881194e-09
	-2.985901e-10	1.834487e-09	0.003797925	0.008046191	-3.286119e-10	1.881194e-09	0.004961909	-0.01627944
1.1e+08	0.004398132	-0.01819193	-3.923853e-10	1.775258e-09	0.0045914	0.008473091	-3.686445e-10	2.061728e-09
	-3.923853e-10	1.775258e-09	0.003848739	-0.01809996	-3.30193e-10	1.949198e-09	0.004483959	0.00857384
	0.0045914	0.008473091	-3.30193e-10	1.949198e-09	0.005216249	-0.01862581	-4.084124e-10	2.122454e-09
	-3.686445e-10	2.061728e-09	0.004483957	0.008573841	-4.084124e-10	2.122454e-09	0.003829024	-0.01810125
1.2e+08	0.00314194	-0.02000567	-4.638626e-10	1.987337e-09	0.005315527	0.008941568	-4.392135e-10	2.29898e-09
	-4.638626e-10	1.987337e-09	0.002540411	-0.01984287	-3.954174e-10	2.171362e-09	0.005205006	0.009035879
	0.005315527	0.008941568	-3.954174e-10	2.171362e-09	0.003899536	-0.02050081	-4.841537e-10	2.368711e-09
	-4.392135e-10	2.29898e-09	0.005205004	0.00903588	-4.841537e-10	2.368711e-09	0.002510832	-0.01984905
1.3e+08	0.001719202	-0.02172312	-5.307421e-10	2.203217e-09	0.006070131	0.00933569	-5.081873e-10	2.544047e-09
	-5.307421e-10	2.203217e-09	0.00106335	-0.0214863	-4.57341e-10	2.399589e-09	0.00595497	0.009429351
	0.00607013	0.00933569	-4.57341e-10	2.399589e-09	0.002418351	-0.02226685	-5.566563e-10	2.621053e-09
	-5.081873e-10	2.544047e-09	0.005954969	0.009429352	-5.566563e-10	2.621053e-09	0.00102323	-0.02149551
1.4e+08	0.0001416016	-0.02332925	-5.976504e-10	2.430347e-09	0.006848787	0.009654475	-5.766736e-10	2.800764e-09
	-5.976504e-10	2.430347e-09	-0.0005692327	-0.02301305	-5.194473e-10	2.63855e-09	0.00672748	0.009752008
	0.006848787	0.009654475	-5.194473e-10	2.63855e-09	0.0007834053	-0.0239127	-6.292189e-10	2.885886e-09
	-5.766736e-10	2.800764e-09	0.006727479	0.009752009	-6.292189e-10	2.885886e-09	-0.0006205876	-0.02302372
1.5e+08	-0.001578763	-0.02481081	-6.63403e-10	2.669063e-09	0.00764466	0.00989681	-6.433683e-10	3.069548e-09
	-6.63403e-10	2.669063e-09	-0.002344045	-0.02440885	-5.80628e-10	2.888551e-09	0.007515977	0.0100022
	0.00764466	0.00989681	-5.80628e-10	2.888551e-09	-0.0009935391	-0.02542693	-7.000803e-10	3.163131e-09
	-6.433683e-10	3.069548e-09	0.007515976	0.0100022	-7.000803e-10	3.163131e-09	-0.002407271	-0.02441951
1.6e+08	-0.003429269	-0.02615601	-7.266544e-10	2.919412e-09	0.008450713	0.01006194	-7.069662e-10	3.350573e-09
	-7.266544e-10	2.919412e-09	-0.004247374	-0.02566138	-6.395942e-10	3.149676e-09	0.008313773	0.01017887
	0.008450713	0.01006194	-6.395942e-10	3.149676e-09	-0.002899975	-0.02679884	-7.681524e-10	3.453166e-09
	-7.069662e-10	3.350573e-09	0.008313773	0.01017887	-7.681524e-10	3.453166e-09	-0.004323016	-0.02567057
1.7e+08	-0.005396778	-0.02735443	-7.860796e-10	3.181341e-09	0.009259812	0.0101496	-7.66064e-10	3.643786e-09
	-7.860796e-10	3.181341e-09	-0.006265039	-0.02675995	-6.950843e-10	3.421901e-09	0.00911411	0.01028159
	0.009259812	0.0101496	-6.950843e-10	3.421901e-09	-0.004922785	-0.02801873	-8.319678e-10	3.75593e-09
	-7.66064e-10	3.643786e-09	0.00911411	0.0102816	-8.319678e-10	3.75593e-09	-0.006353533	-0.02676622
1.8e+08	-0.007467677	-0.02839693	-8.4037e-10	3.454678e-09	0.0100648	0.01016014	-8.192686e-10	3.948998e-09
	-8.4037e-10	3.454678e-09	-0.008382414	-0.0276954	-7.458512e-10	3.705086e-09	0.009910219	0.01031054
	0.0100648	0.01016014	-7.458512e-10	3.705086e-09	-0.007048313	-0.02907797	-8.900782e-10	4.071232e-09
	-8.192686e-10	3.948998e-09	0.009910219	0.01031054	-8.900782e-10	4.071232e-09	-0.008484071	-0.02769727
1.9e+08	-0.009627924	-0.02927565	-8.882379e-10	3.739135e-09	0.01085853	0.01009451	-8.652064e-10	4.265886e-09
	-8.882379e-10	3.739135e-09	-0.01058447	-0.02846	-7.906677e-10	3.998979e-09	0.01069538	0.01026651
	0.01085853	0.01009451	-7.906677e-10	3.998979e-09	-0.009262459	-0.0299691	-9.410598e-10	4.398748e-09
	-8.652064e-10	4.265886e-09	0.01069538	0.01026651	-9.410598e-10	4.398748e-09	-0.01069948	-0.02845599
2e+08	-0.01186355	-0.02998416	-9.284654e-10	4.034239e-09	0.01164904	0.009938468	-9.025798e-10	4.59392e-09
	-9.284654e-10	4.034239e-09	-0.01285588	-0.02904741	-8.283663e-10	4.303159e-09	0.01146296	0.01015089
	0.01164904	0.009938468	-8.283663e-10	4.303159e-09	-0.01155117	-0.03068599	-9.835653e-10	4.737958e-09
	-9.025798e-10	4.59392e-09	0.01146296	0.01015089	-9.835653e-10	4.737958e-09	-0.01298429	-0.02903605
2.1e+08	-0.01415952	-0.03051691	-9.598012e-10	4.339512e-09	0.01241342	0.00970856	-9.300541e-10	4.932571e-09
	-9.598012e-10	4.339512e-09	-0.01518103	-0.02945271	-8.577569e-10	4.617189e-09	0.01220651	0.009965673
	0.01241342	0.00970856	-8.577569e-10	4.617189e-09	-0.01389932	-0.03122335	-1.016214e-09	5.088325e-09
	-9.300541e-10	4.932571e-09	0.01220651	0.009965673	-1.016214e-09	5.088325e-09	-0.01532276	-0.0294325
2.2e+08	-0.0165009	-0.03086979	-9.810717e-10	4.654311e-09	0.01314416	0.009408623	-9.463792e-10	5.281128e-09
	-9.810717e-10	4.654311e-09	-0.0175442	-0.02967232	-8.777177e-10	4.940476e-09	0.01291977	0.00971343
	0.01314416	0.009408623	-8.777177e-10	4.940476e-09	-0.01629187	-0.03157728	-1.037713e-09	5.449128e-09
	-9.463792e-10	5.281128e-09	0.01291977	0.00971343	-1.037713e-09	5.449128e-09	-0.01769902	-0.0296418
2.3e+08	-0.01887266	-0.03103992	-9.911635e-10	4.977873e-09	0.01383498	0.009042128	-9.503721e-10	5.638745e-09
	-9.911635e-10	4.977873e-09	-0.01992955	-0.02970399	-8.871828e-10	5.27232e-09	0.01359676	0.009397278
	0.01383498	0.009042128	-8.871828e-10	5.27232e-09	-0.0187137	-0.03174511	-1.046835e-09	5.819519e-09
	-9.503721e-10	5.638745e-09	0.01359676	0.009397278	-1.046835e-09	5.819519e-09	-0.0200971	-0.02966172
2.4e+08	-0.02125971	-0.03102566	-9.890316e-10	5.309323e-09	0.01447994	0.008613095	-9.409264e-10	6.00446e-09
	-9.890316e-10	5.309323e-09	-0.02232129	-0.02954683	-8.851493e-10	5.611914e-09	0.01423179	0.009020866
	0.01447994	0.008613095	-8.851493e-10	5.611914e-09	-0.02114961	-0.03172538	-1.042431e-09	6.198526e-09
	-9.409264e-10	6.00446e-09	0.01423179	0.009020866	-1.042431e-09	6.198526e-09	-0.02250108	-0.0294914
2.5e+08	-0.023647	-0.0308266	-9.737086e-10	5.647687e-09	0.01507349	0.008126059	-9.170216e-10	6.377199e-09
	-9.737086e-10	5.647687e-09	-0.02470372	-0.02920122	-8.706856e-10	5.958354e-09	0.01481956	0.008588336
	0.01507349	0.008126059	-8.706856e-10	5.958354e-09	-0.02358445	-0.03151782	-1.023439e-09	6.585064e-09
	-9.170216e-10	6.377199e-09	0.01481956	0.008588336	-1.023439e-09	6.585064e-09	-0.02489512	-0.02913128
2.6e+08	-0.02601958	-0.03044352	-9.445205e-10	5.991863e-09	0.01561054	0.007586037	-8.777333e-10	6.755783e-09
	-9.445205e-10	5.991863e-09	-0.02706136	-0.02866884	-8.432455e-10	6.310544e-09	0.01535514	0.008104291
	0.01561054	0.007586037	-8.432455e-10	6.310544e-09	-0.02600318	-0.03112339	-9.888907e-10	6.977944e-09
	-8.777333e-10	6.755783e-09	0.01535514	0.008104291	-9.888907e-10	6.977944e-09	-0.0272636	-0.0285831
2.7e+08	-0.02836269	-0.02987838	-9.005166e-10	6.340731e-09	0.01608643	0.006998485	-8.222449e-10	7.138935e-09
	-9.005166e-10	6.340731e-09	-0.02937898	-0.02795262	-8.018272e-10	6.667515e-09	0.01583406	0.007573755
	0.01608643	0.006998485	-8.018272e-10	6.667515e-09	-0.02839093	-0.03054418	-9.379323e-10	7.37587e-09
	-8.222449e-10	7.138935e-09	0.01583406	0.007573755	-9.379323e-10	7.37587e-09	-0.02959119	-0.02784984
2.8e+08	-0.03066187	-0.0291343	-8.4098e-10	6.693052e-09	0.01649705	0.006369253	-7.49855e-10	7.525292e-09
	-8.4098e-10	6.693052e-09	-0.03164175	-0.02705668	-7.457101e-10	7.028127e-09	0.01625231	0.007002131
	0.01649705	0.006369253	-7.457101e-10	7.028127e-09	-0.03073315	-0.02978345	-8.698237e-10	7.777461e-09
	-7.49855e-10	7.525292e-09	0.01625231	0.007002131	-8.698237e-10	7.777461e-09	-0.03186292	-0.02693573
2.9e+08	-0.032903	-0.02821551	-7.6534e-10	7.047508e-09	0.01683881	0.005704535	-6.599856e-10	7.913414e-09
	-7.6534e-10	7.047508e-09	-0.03383529	-0.02598633	-6.743255e-10	7.391156e-09	0.01660641	0.006395158
	0.01683881	0.005704535	-6.743255e-10	7.391156e-09	-0.03301562	-0.02884559	-7.839493e-10	8.181256e-09
	-6.599856e-10	7.913414e-09	0.01660641	0.006395158	-7.839493e-10	8.181256e-09	-0.03406433	-0.02584615
3e+08	-0.03507239	-0.02712735	-6.73144e-10	7.402718e-09	0.01710873	0.005010825	-5.521896e-10	8.301794e-09
	-6.73144e-10	7.402718e-09	-0.03594577	-0.02474799	-5.87213e-10	7.755314e-09	0.01689338	0.005758862
	0.01710873	0.005010825	-5.87213e-10	7.755314e-09	-0.03522458	-0.02773607	-6.798256e-10	8.585726e-09
	-5.521896e-10	8.301794e-09	0.01689338	0.005758862	-6.798256e-10	8.585726e-09	-0.03618147	-0.02458763
3.1e+08	-0.03715688	-0.02587618	-5.640649e-10	7.757247e-09	0.01730439	0.004294857	-4.261576e-10	8.688874e-09
	-5.640649e-10	7.757247e-09	-0.03795998	-0.02334914	-4.84027e-10	8.119263e-09	0.01711083	0.005099506
	0.01730439	0.004294857	-4.84027e-10	8.119263e-09	-0.03734678	-0.02646137	-5.571083e-10	8.989284e-09
	-4.261576e-10	8.688874e-09	0.01711083	0.005099506	-5.571083e-10	8.989284e-09	-0.03820105	-0.02316777
3.2e+08	-0.03914389	-0.02446938	-4.379052e-10	8.109619e-09	0.01742403	0.003563553	-2.817231e-10	9.07305e-09
	-4.379052e-10	8.109619e-09	-0.0398654	-0.02179831	-3.645405e-10	8.48162e-09	0.01725692	0.004423543
	0.01742403	0.003563553	-3.645405e-10	8.48162e-09	-0.03936954	-0.02502903	-4.155975e-10	9.390299e-09
	-2.817231e-10	9.07305e-09	0.01725692	0.004423543	-4.155975e-10	9.390299e-09	-0.04011048	-0.02159521
3.3e+08	-0.0410215	-0.02291527	-2.946015e-10	8.458327e-09	0.01746648	0.002823968	-1.188669e-10	9.452691e-09
	-2.946015e-10	8.458327e-09	-0.04165031	-0.02010495	-2.286497e-10	8.840971e-09	0.0173304	0.003737558
	0.01746648	0.002823968	-2.286497e-10	8.840971e-09	-0.04128088	-0.02344749	-2.552426e-10	9.787108e-09
	-1.188669e-10	9.452691e-09	0.0173304	0.003737558	-2.552426e-10	9.787108e-09	-0.04189794	-0.01987951
3.4e+08	-0.04277849	-0.02122305	-1.342287e-10	8.801846e-09	0.01743123	0.002083232	6.227913e-11	9.826149e-09
	-1.342287e-10	8.801846e-09	-0.04330379	-0.01827939	-7.637797e-11	9.19588e-09	0.01733063	0.00304822
	0.01743123	0.002083232	-7.637797e-11	9.19588e-09	-0.0430695	-0.0217261	-7.614617e-11	1.017803e-08
	6.227913e-11	9.826149e-09	0.01733063	0.00304822	-7.614617e-11	1.017803e-08	-0.04355247	-0.01803115
3.5e+08	-0.04440445	-0.01940276	4.299838e-11	9.138642e-09	0.01731843	0.001348493	2.6143e-10	1.019177e-08
	4.299838e-11	9.138642e-09	-0.04481584	-0.01633279	9.212235e-11	9.544901e-09	0.01725756	0.002362229
	0.01731843	0.001348493	9.212235e-11	9.544901e-09	-0.04472493	-0.01987504	1.214341e-10	1.056137e-08
	2.6143e-10	1.019177e-08	0.01725756	0.002362229	1.214341e-10	1.056137e-08	-0.04506403	-0.01606142
3.6e+08	-0.0458898	-0.01746523	2.367234e-10	9.467189e-09	0.01712885	0.0006268587	4.781464e-10	1.054792e-08
	2.367234e-10	9.467189e-09	-0.0461774	-0.01427704	2.765676e-10	9.886585e-09	0.01711174	0.001686258
	0.01712885	0.0006268587	2.765676e-10	9.886585e-09	-0.04623753	-0.01790527	3.370832e-10	1.093545e-08
	4.781464e-10	1.054792e-08	0.01711174	0.001686258	3.370832e-10	1.093545e-08	-0.04642352	-0.01398235
3.7e+08	-0.04722585	-0.01542195	4.464483e-10	9.785977e-09	0.0168639	-7.465848e-05	7.118348e-10	1.089298e-08
	4.464483e-10	9.785977e-09	-0.04738043	-0.01212468	4.765421e-10	1.02195e-08	0.01689431	0.001026907
	0.0168639	-7.465848e-05	4.765421e-10	1.02195e-08	-0.04759855	-0.01582843	5.702295e-10	1.129862e-08
	7.118348e-10	1.089298e-08	0.01689431	0.001026907	5.702295e-10	1.129862e-08	-0.04762287	-0.01180662
3.8e+08	-0.04840487	-0.01328507	6.71534e-10	1.009353e-08	0.01652563	-0.0007491985	9.617489e-10	1.122537e-08
	6.71534e-10	1.009353e-08	-0.04841793	-0.009888835	6.914983e-10	1.054222e-08	0.01660701	0.0003906454
	0.01652563	-0.0007491985	6.914983e-10	1.054222e-08	-0.04880021	-0.01365681	8.201454e-10	1.164925e-08
	9.617489e-10	1.122537e-08	0.01660701	0.0003906454	8.201454e-10	1.164925e-08	-0.04865508	-0.009547501
3.9e+08	-0.0494201	-0.01106727	9.112022e-10	1.038841e-08	0.01611668	-0.001390108	1.226992e-09	1.154358e-08
	9.112022e-10	1.038841e-08	-0.04928399	-0.007583111	9.207575e-10	1.085337e-08	0.01625214	-0.0002162357
	0.01611668	-0.001390108	9.207575e-10	1.085337e-08	-0.04983571	-0.01140324	1.08595e-09	1.198578e-08
	1.226992e-09	1.154358e-08	0.01625214	-0.0002162357	1.08595e-09	1.198578e-08	-0.04951424	-0.007218748
4e+08	-0.05026582	-0.00878171	1.164538e-09	1.066924e-08	0.01564028	-0.001990992	1.50652e-09	1.184613e-08
	1.164538e-09	1.066924e-08	-0.04997381	-0.005221522	1.163512e-09	1.115163e-08	0.01583254	-0.0007876727
	0.01564028	-0.001990992	1.163512e-09	1.115163e-08	-0.05069926	-0.009081027	1.366611e-09	1.230669e-08
	1.50652e-09	1.184613e-08	0.01583254	-0.0007876727	1.366611e-09	1.230669e-08	-0.05019557	-0.004834517
4.1e+08	-0.05093732	-0.006441955	1.430496e-09	1.093472e-08	0.01510024	-0.002545767	1.799149e-09	1.213166e-08
	1.430496e-09	1.093472e-08	-0.05048373	-0.002818387	1.418826e-09	1.14357e-08	0.01535161	-0.001317878
	0.01510024	-0.002545767	1.418826e-09	1.14357e-08	-0.05138618	-0.006703885	1.660952e-09	1.261056e-08
	1.799149e-09	1.213166e-08	0.01535161	-0.001317878	1.660952e-09	1.261056e-08	-0.05069545	-0.002409273
4.2e+08	-0.05143102	-0.004061873	1.707901e-09	1.11836e-08	0.01450089	-0.003048707	2.103557e-09	1.239889e-08
	1.707901e-09	1.11836e-08	-0.05081127	-0.0003882566	1.685642e-09	1.170438e-08	0.01481322	-0.001801383
	0.01450089	-0.003048707	1.685642e-09	1.170438e-08	-0.05189282	-0.004285835	1.967656e-09	1.289605e-08
	2.103557e-09	1.239889e-08	0.01481322	-0.001801383	1.967656e-09	1.289605e-08	-0.05101142	4.229541e-05
4.3e+08	-0.05174442	-0.001655565	1.995459e-09	1.141476e-08	0.01384705	-0.003494489	2.418297e-09	1.264662e-08
	1.995459e-09	1.141476e-08	-0.0509551	0.002054199	1.962784e-09	1.195653e-08	0.01422173	-0.002233083
	0.01384705	-0.003494489	1.962784e-09	1.195653e-08	-0.05221667	-0.001841128	2.285275e-09	1.316194e-08
	2.418297e-09	1.264662e-08	0.01422173	-0.002233083	2.285275e-09	1.316194e-08	-0.05114223	0.002505377
4.4e+08	-0.05187613	0.0007627265	2.291762e-09	1.162715e-08	0.01314404	-0.003878237	2.741799e-09	1.287382e-08
	2.291762e-09	1.162715e-08	-0.05091508	0.004494263	2.248963e-09	1.219112e-08	0.01358195	-0.002608276
	0.01314404	-0.003878237	2.248963e-09	1.219112e-08	-0.05235633	0.0006158362	2.612235e-09	1.34071e-08
	2.741799e-09	1.287382e-08	0.01358195	-0.002608276	2.612235e-09	1.34071e-08	-0.05108779	0.004965123
4.5e+08	-0.05182587	0.003178697	2.595295e-09	1.181987e-08	0.01239755	-0.004195561	3.072387e-09	1.307953e-08
	2.595295e-09	1.181987e-08	-0.05069224	0.006917277	2.542785e-09	1.240721e-08	0.01289907	-0.002922699
	0.01239755	-0.004195561	2.542785e-09	1.240721e-08	-0.05231153	0.003070601	2.946848e-09	1.363055e-08
	3.072387e-09	1.307953e-08	0.01289907	-0.002922699	2.946848e-09	1.363055e-08	-0.05084921	0.007406749
4.6e+08	-0.0515945	0.005578073	2.904452e-09	1.199211e-08	0.0116137	-0.004442589	3.40828e-09	1.326298e-08
	2.904452e-09	1.199211e-08	-0.05028876	0.009308731	2.842665e-09	1.260402e-08	0.01217866	-0.003172561
	0.0116137	-0.004442589	2.842665e-09	1.260402e-08	-0.05208313	0.005508741	3.287285e-09	1.383151e-08
	3.40828e-09	1.326298e-08	0.01217866	-0.003172561	3.287285e-09	1.383151e-08	-0.05042879	0.009815643
4.7e+08	-0.05118396	0.007946692	3.21754e-09	1.214321e-08	0.0107989	-0.004616005	3.747619e-09	1.342352e-08
	3.21754e-09	1.214321e-08	-0.04970798	0.01165434	3.146914e-09	1.278096e-08	0.01142661	-0.003354576
	0.0107989	-0.004616005	3.146914e-09	1.278096e-08	-0.05167311	0.00791595	3.63163e-09	1.400935e-08
	3.747619e-09	1.342352e-08	0.01142661	-0.003354576	3.63163e-09	1.400935e-08	-0.04982995	0.0121774
