!$
! Info: Touchstone file created by Circ.  Input file=Tx_4in_Rx_85ohms_TxVia_60mils_RxVia_70mils.circ
!$
# Hz S RI R 50
0	0.003365017	7.338342e-26	-2.192194e-05	7.511306e-24	4.271309e-05	6.504407e-24	-2.188483e-05	2.992575e-24
	-2.192194e-05	7.511291e-24	0.003360763	8.539907e-26	-2.195838e-05	1.203045e-23	4.183211e-05	8.083077e-24
	4.184459e-05	6.475374e-24	-2.195839e-05	1.203066e-23	0.003378945	7.422668e-26	-2.192058e-05	7.424279e-24
	-2.188483e-05	2.99233e-24	4.210206e-05	8.117739e-24	-2.192057e-05	7.423839e-24	0.003375352	8.499668e-26
1e+07	0.004570442	-0.003328419	-4.564076e-05	-1.255933e-05	0.0001145591	0.0009499813	-3.353365e-06	-1.095238e-06
	-4.564076e-05	-1.255933e-05	0.00457957	-0.003329509	-1.75052e-05	3.098674e-05	0.0001130542	0.0009510927
	0.0001145436	0.0009499949	-1.75052e-05	3.098674e-05	0.00459952	-0.003313371	-4.564483e-05	-1.257947e-05
	-3.353365e-06	-1.095238e-06	0.0001130564	0.0009510903	-4.564484e-05	-1.257947e-05	0.004581483	-0.003320704
2e+07	0.005337637	-0.007788978	-4.290903e-05	2.974998e-06	0.0002619094	0.001864295	-2.289138e-06	-7.033296e-06
	-4.290903e-05	2.974998e-06	0.005329757	-0.007795449	-2.474819e-05	4.056372e-05	0.0002560106	0.001866984
	0.0002619163	0.001864303	-2.474819e-05	4.056372e-05	0.005366221	-0.007765454	-4.291102e-05	2.921161e-06
	-2.289138e-06	-7.033296e-06	0.0002560072	0.001866985	-4.291103e-05	2.921161e-06	0.005335101	-0.007774795
3e+07	0.00533342	-0.0127793	-4.192408e-05	-4.382018e-07	0.0004843828	0.00275299	-6.623752e-06	-8.83478e-06
	-4.192408e-05	-4.382017e-07	0.005299942	-0.01278518	-2.778185e-05	4.961169e-05	0.0004712948	0.002758104
	0.0004843838	0.00275299	-2.778185e-05	4.961169e-05	0.005362702	-0.01274466	-4.192525e-05	-5.196199e-07
	-6.623752e-06	-8.83478e-06	0.0004712945	0.002758106	-4.192525e-05	-5.196199e-07	0.005307359	-0.01275584
4e+07	0.004711745	-0.01789934	-4.135691e-05	-2.152111e-06	0.0007810971	0.003612206	-1.02858e-05	-9.047882e-06
	-4.135691e-05	-2.152111e-06	0.004643791	-0.01790046	-2.798441e-05	5.723216e-05	0.0007581615	0.003620987
	0.0007810958	0.003612207	-2.798441e-05	5.723216e-05	0.004742593	-0.01785338	-4.135619e-05	-2.263619e-06
	-1.02858e-05	-9.047882e-06	0.0007581622	0.003620988	-4.135619e-05	-2.263619e-06	0.004652506	-0.0178636
5e+07	0.003534382	-0.02302584	-4.109621e-05	-3.124887e-06	0.001149292	0.004435906	-1.345807e-05	-8.367103e-06
	-4.109621e-05	-3.124887e-06	0.003423409	-0.02301655	-2.599343e-05	6.332614e-05	0.001114056	0.004449955
	0.00114929	0.004435906	-2.599343e-05	6.332614e-05	0.003567509	-0.0229688	-4.109342e-05	-3.269674e-06
	-1.345807e-05	-8.367103e-06	0.001114057	0.004449955	-4.109342e-05	-3.269674e-06	0.003432414	-0.0229727
6e+07	0.001839493	-0.02808173	-4.107249e-05	-3.653797e-06	0.00158525	0.005218017	-1.621804e-05	-7.046384e-06
	-4.107249e-05	-3.653797e-06	0.001678048	-0.02805541	-2.225605e-05	6.771543e-05	0.001535497	0.005239249
	0.001585248	0.005218016	-2.225605e-05	6.771543e-05	0.001875419	-0.028014	-4.106817e-05	-3.835556e-06
	-1.621804e-05	-7.046384e-06	0.001535499	0.005239249	-4.106817e-05	-3.835556e-06	0.001686495	-0.02800474
7e+07	-0.0003429711	-0.03300819	-4.12353e-05	-3.860117e-06	0.002084642	0.005952726	-1.859512e-05	-5.196574e-06
	-4.12353e-05	-3.860117e-06	-0.0005615126	-0.03295766	-1.717446e-05	7.015392e-05	0.00201841	0.005983337
	0.002084638	0.005952725	-1.717446e-05	7.015392e-05	-0.00030388	-0.03293026	-4.123082e-05	-4.083044e-06
	-1.859512e-05	-5.196574e-06	0.002018412	0.005983337	-4.123082e-05	-4.083044e-06	-0.000554417	-0.03290025
8e+07	-0.00298585	-0.03775594	-4.154401e-05	-3.801514e-06	0.002642594	0.006634601	-2.058536e-05	-2.851167e-06
	-4.154401e-05	-3.801514e-06	-0.003267497	-0.03767329	-1.117659e-05	7.030861e-05	0.002558199	0.006677037
	0.002642589	0.0066346	-1.117659e-05	7.030861e-05	-0.002943343	-0.03766825	-4.154177e-05	-4.070184e-06
	-2.058536e-05	-2.851167e-06	0.002558201	0.006677037	-4.154177e-05	-4.070184e-06	-0.003262627	-0.03760915
9e+07	-0.006062351	-0.0422818	-4.196461e-05	-3.509514e-06	0.003253755	0.007258788	-2.214065e-05	4.515008e-08
	-4.196461e-05	-3.509514e-06	-0.006412425	-0.04215826	-4.810506e-06	6.76242e-05	0.00314981	0.007315722
	0.003253752	0.007258788	-4.810506e-06	6.76242e-05	-0.006016262	-0.04218477	-4.196815e-05	-3.828709e-06
	-2.214065e-05	4.515008e-08	0.003149811	0.007315721	-4.196815e-05	-3.828709e-06	-0.006410746	-0.04208724
1e+08	-0.009545485	-0.04654865	-4.247736e-05	-3.011172e-06	0.003912824	0.007822183	-2.298127e-05	4.020239e-06
	-4.247736e-05	-3.011172e-06	-0.009968357	-0.04637442	6.012408e-07	5.978372e-05	0.003788265	0.007896485
	0.003912823	0.007822183	6.012408e-07	5.978372e-05	-0.00949567	-0.04644256	-4.249138e-05	-3.385955e-06
	-2.298127e-05	4.020239e-06	0.003788265	0.007896485	-4.249138e-05	-3.385955e-06	-0.009970922	-0.04629624
1.1e+08	-0.0134113	-0.05051433	-4.300993e-05	-2.365132e-06	0.004617933	0.008315849	-2.138981e-05	7.029391e-06
	-4.300993e-05	-2.365132e-06	-0.01390873	-0.05027971	1.410744e-05	4.70314e-05	0.004472052	0.008410527
	0.004617933	0.008315849	1.410744e-05	4.70314e-05	-0.01335727	-0.05039988	-4.303953e-05	-2.799373e-06
	-2.138981e-05	7.029391e-06	0.00447205	0.008410527	-4.303953e-05	-2.799373e-06	-0.01391662	-0.05019344
1.2e+08	-0.01761927	-0.05414739	-4.354095e-05	-1.506326e-06	0.005355147	0.008736207	-2.007972e-05	9.010802e-06
	-4.354095e-05	-1.506326e-06	-0.01819321	-0.05384215	2.856828e-05	3.591772e-05	0.005187564	0.008854408
	0.005355147	0.008736207	2.856828e-05	3.591772e-05	-0.01756125	-0.05402527	-4.359308e-05	-2.003021e-06
	-2.007972e-05	9.010802e-06	0.005187562	0.008854409	-4.359308e-05	-2.003021e-06	-0.01820692	-0.05374677
1.3e+08	-0.02213762	-0.05742223	-4.405519e-05	-4.572311e-07	0.006118019	0.009082456	-1.904735e-05	1.023329e-05
	-4.405519e-05	-4.572311e-07	-0.02278869	-0.05703568	4.28456e-05	2.399752e-05	0.005928736	0.009227418
	0.006118019	0.009082456	4.28456e-05	2.399752e-05	-0.02207583	-0.05729291	-4.413775e-05	-1.018835e-06
	-1.904735e-05	1.023329e-05	0.005928734	0.009227419	-4.413775e-05	-1.018835e-06	-0.02280866	-0.05693021
1.4e+08	-0.02693252	-0.06031476	-4.45319e-05	7.725464e-07	0.00689947	0.009353129	-1.883069e-05	9.987181e-06
	-4.45319e-05	7.725464e-07	-0.02766007	-0.05983603	5.65239e-05	1.073861e-05	0.006688878	0.009528137
	0.00689947	0.009353129	5.65239e-05	1.073861e-05	-0.02686722	-0.06017863	-4.465352e-05	1.445394e-07
	-1.883069e-05	9.987181e-06	0.006688877	0.009528138	-4.465352e-05	1.445394e-07	-0.02768663	-0.05971946
1.5e+08	-0.03196875	-0.06280391	-4.494068e-05	2.160455e-06	0.007692246	0.009547259	-1.859388e-05	9.875743e-06
	-4.494068e-05	2.160455e-06	-0.03277086	-0.06222207	6.927089e-05	-4.068372e-06	0.007461127	0.009755603
	0.007692246	0.009547259	6.927089e-05	-4.068372e-06	-0.03190022	-0.06266128	-4.511076e-05	1.465338e-06
	-1.859388e-05	9.875743e-06	0.007461126	0.009755604	-4.511076e-05	1.465338e-06	-0.03280421	-0.06209332
1.6e+08	-0.03720994	-0.06487183	-4.525993e-05	3.690151e-06	0.008489024	0.009664509	-1.834229e-05	9.861594e-06
	-4.525993e-05	3.690151e-06	-0.03808341	-0.06417604	8.078669e-05	-2.048671e-05	0.008238554	0.009909442
	0.008489024	0.009664509	8.078669e-05	-2.048671e-05	-0.03713848	-0.06472293	-4.54885e-05	2.928414e-06
	-1.834229e-05	9.861594e-06	0.008238554	0.009909442	-4.54885e-05	2.928414e-06	-0.03812361	-0.06403398
1.7e+08	-0.04261877	-0.06650395	-4.547034e-05	5.34384e-06	0.0092825	0.00970521	-1.807816e-05	9.920831e-06
	-4.547034e-05	5.34384e-06	-0.04355916	-0.06568357	9.079273e-05	-3.849006e-05	0.009014245	0.009989904
	0.0092825	0.00970521	9.079273e-05	-3.849006e-05	-0.04254469	-0.06634895	-4.576787e-05	4.517302e-06
	-1.807816e-05	9.920831e-06	0.009014245	0.009989904	-4.576787e-05	4.517302e-06	-0.04360613	-0.06552704
1.8e+08	-0.04815727	-0.06768895	-4.555515e-05	7.102309e-06	0.01006546	0.009670364	-1.780221e-05	1.003697e-05
	-4.555515e-05	7.102309e-06	-0.04915887	-0.0667337	9.903084e-05	-5.798726e-05	0.009781372	0.00999787
	0.01006546	0.009670364	9.903084e-05	-5.798726e-05	-0.04808088	-0.06752797	-4.593241e-05	6.21422e-06
	-1.780221e-05	1.003697e-05	0.009781372	0.00999787	-4.593241e-05	6.21422e-06	-0.0492124	-0.06656154
1.9e+08	-0.05378703	-0.06841884	-4.550041e-05	8.945118e-06	0.01083086	0.009561636	-1.751445e-05	1.019796e-05
	-4.550041e-05	8.945118e-06	-0.05484292	-0.06731892	0.0001052648	-7.883637e-05	0.01053326	0.009934842
	0.01083086	0.009561636	0.0001052648	-7.883637e-05	-0.05370863	-0.06825193	-4.596826e-05	8.000238e-06
	-1.751445e-05	1.019796e-05	0.01053326	0.009934842	-4.596826e-05	8.000238e-06	-0.05490265	-0.06712996
2e+08	-0.05946946	-0.06868889	-4.529511e-05	1.085086e-05	0.01157187	0.009381332	-1.721449e-05	1.039457e-05
	-4.529511e-05	1.085086e-05	-0.06057156	-0.06743512	0.0001092834	-0.000100854	0.01126344	0.009802919
	0.01157187	0.009381332	0.0001092834	-0.000100854	-0.05938935	-0.06851606	-4.586425e-05	9.855504e-06
	-1.721449e-05	1.039457e-05	0.01126344	0.009802919	-4.586425e-05	9.855504e-06	-0.06063698	-0.06722821
2.1e+08	-0.06516604	-0.0684976	-4.493128e-05	1.279751e-05	0.01228196	0.009132366	-1.690181e-05	1.061945e-05
	-4.493128e-05	1.279751e-05	-0.06630516	-0.06708153	0.0001109025	-0.000123822	0.01196571	0.009604772
	0.01228196	0.009132366	0.0001109025	-0.000123822	-0.0650845	-0.06831881	-4.561208e-05	1.175955e-05
	-1.690181e-05	1.061945e-05	0.01196571	0.009604772	-4.561208e-05	1.175955e-05	-0.0663756	-0.06685557
2.2e+08	-0.07083853	-0.06784666	-4.4404e-05	1.476272e-05	0.01295493	0.008818229	-1.657586e-05	1.086659e-05
	-4.4404e-05	1.476272e-05	-0.07200445	-0.06626072	0.0001099682	-0.0001474941	0.0126342	0.009343612
	0.01295493	0.008818229	0.0001099682	-0.0001474941	-0.07075581	-0.06766183	-4.520622e-05	1.369161e-05
	-1.657586e-05	1.086659e-05	0.0126342	0.009343612	-4.520622e-05	1.369161e-05	-0.07207913	-0.06601465
2.3e+08	-0.07644927	-0.06674086	-4.371137e-05	1.672419e-05	0.01358498	0.008442947	-1.623605e-05	1.113091e-05
	-4.371137e-05	1.672419e-05	-0.07763083	-0.06497843	0.0001063596	-0.0001716012	0.01326338	0.009023145
	0.01358498	0.008442947	0.0001063596	-0.0001716012	-0.07636561	-0.06654986	-4.464396e-05	1.563087e-05
	-1.623605e-05	1.113091e-05	0.01326338	0.009023145	-4.464396e-05	1.563087e-05	-0.0777088	-0.06471126
2.4e+08	-0.08196134	-0.06518803	-4.285442e-05	1.86601e-05	0.01416673	0.008011033	-1.588198e-05	1.140802e-05
	-4.285442e-05	1.86601e-05	-0.08314653	-0.06324357	9.998896e-05	-0.0001958558	0.01384814	0.008647538
	0.01416673	0.008011033	9.998896e-05	-0.0001958558	-0.08187694	-0.06499069	-4.392534e-05	1.755693e-05
	-1.588198e-05	1.140802e-05	0.01384814	0.008647538	-4.392534e-05	1.755693e-05	-0.08322673	-0.0629544
2.5e+08	-0.08733883	-0.06319889	-4.183704e-05	2.054931e-05	0.01469528	0.007527447	-1.551331e-05	1.169404e-05
	-4.183704e-05	2.054931e-05	-0.0885149	-0.06106803	9.080478e-05	-0.0002199585	0.01438379	0.00822137
	0.01469528	0.007527447	9.080478e-05	-0.0002199585	-0.08725388	-0.06299503	-4.305299e-05	1.944997e-05
	-1.551331e-05	1.169404e-05	0.01438379	0.00822137	-4.305299e-05	1.944997e-05	-0.08859616	-0.06075606
2.6e+08	-0.09254703	-0.060787	-4.066572e-05	2.237181e-05	0.01516625	0.006997536	-1.512986e-05	1.198553e-05
	-4.066572e-05	2.237181e-05	-0.09370061	-0.05846662	7.87915e-05	-0.0002436012	0.01486613	0.007749587
	0.01516625	0.006997536	7.87915e-05	-0.0002436012	-0.09246167	-0.0605764	-4.203198e-05	2.129115e-05
	-1.512986e-05	1.198553e-05	0.01486613	0.007749587	-4.203198e-05	2.129115e-05	-0.09378166	-0.05813115
2.7e+08	-0.09755265	-0.05796858	-3.93494e-05	2.410889e-05	0.01557577	0.00642699	-1.47316e-05	1.227937e-05
	-3.93494e-05	2.410889e-05	-0.09866987	-0.05545688	6.397104e-05	-0.0002664742	0.01529143	0.007237451
	0.01557577	0.00642699	6.397104e-05	-0.0002664742	-0.09746699	-0.057751	-4.086963e-05	2.306275e-05
	-1.47316e-05	1.227937e-05	0.01529143	0.007237451	-4.086963e-05	2.306275e-05	-0.09874931	-0.05509733
2.8e+08	-0.102324	-0.05476239	-3.789923e-05	2.57435e-05	0.01592052	0.005821786	-1.431866e-05	1.257274e-05
	-3.789923e-05	2.57435e-05	-0.1033906	-0.05205892	4.640091e-05	-0.0002882683	0.01565648	0.006690497
	0.01592052	0.005821786	4.640091e-05	-0.0002882683	-0.1022381	-0.05453756	-3.957537e-05	2.474854e-05
	-1.431866e-05	1.257274e-05	0.01565648	0.006690497	-3.957537e-05	2.474854e-05	-0.103467	-0.05167487
2.9e+08	-0.1068311	-0.05118957	-3.632829e-05	2.726042e-05	0.01619778	0.005188135	-1.389138e-05	1.286308e-05
	-3.632829e-05	2.726042e-05	-0.1078326	-0.04829532	2.617451e-05	-0.0003086801	0.0159586	0.006114479
	0.01619778	0.005188135	2.617451e-05	-0.0003086801	-0.106745	-0.05095721	-3.816037e-05	2.63339e-05
	-1.389138e-05	1.286308e-05	0.0159586	0.006114479	-3.816037e-05	2.63339e-05	-0.1079044	-0.04788646
3e+08	-0.1110459	-0.04727347	-3.465134e-05	2.864642e-05	0.01640537	0.004532429	-1.345018e-05	1.314804e-05
	-3.465134e-05	2.864642e-05	-0.1119679	-0.04419087	3.421481e-06	-0.0003274207	0.01619563	0.005515325
	0.01640537	0.004532429	3.421481e-06	-0.0003274207	-0.1109596	-0.04703329	-3.663743e-05	2.780595e-05
	-1.345018e-05	1.314804e-05	0.01619563	0.005515325	-3.663743e-05	2.780595e-05	-0.1120334	-0.04375706
3.1e+08	-0.1149426	-0.04303949	-3.286308e-05	2.988121e-05	0.01654172	0.003861191	-1.299597e-05	1.342537e-05
	-3.286308e-05	2.988121e-05	-0.1157704	-0.03977243	-2.236049e-05	-0.0003422725	0.01636594	0.004899087
	0.01654172	0.003861191	-2.236049e-05	-0.0003422725	-0.114856	-0.04279121	-3.499908e-05	2.914542e-05
	-1.299597e-05	1.342537e-05	0.01636594	0.004899087	-3.499908e-05	2.914542e-05	-0.1158281	-0.03931369
3.2e+08	-0.1184974	-0.0385149	-3.096023e-05	3.094103e-05	0.01660585	0.003181021	-1.252983e-05	1.369304e-05
	-3.096023e-05	3.094103e-05	-0.1192168	-0.03506874	-5.130817e-05	-0.0003509399	0.01646848	0.004271895
	0.01660585	0.003181021	-5.130817e-05	-0.0003509399	-0.1184105	-0.03825822	-3.323956e-05	3.032942e-05
	-1.252983e-05	1.369304e-05	0.01646848	0.004271895	-3.323956e-05	3.032942e-05	-0.119265	-0.03458524
3.3e+08	-0.1216889	-0.03372865	-2.900523e-05	3.183539e-05	0.01659735	0.002498544	-1.205218e-05	1.394981e-05
	-2.900523e-05	3.183539e-05	-0.1222859	-0.03011021	-8.169076e-05	-0.0003570745	0.01650269	0.003639913
	0.01659735	0.002498544	-8.169076e-05	-0.0003570745	-0.1216015	-0.03346328	-3.141921e-05	3.136524e-05
	-1.205218e-05	1.394981e-05	0.01650269	0.003639913	-3.141921e-05	3.136524e-05	-0.122323	-0.02960229
3.4e+08	-0.1244981	-0.02871116	-2.701733e-05	3.256036e-05	0.0165164	0.001820368	-1.156389e-05	1.419413e-05
	-2.701733e-05	3.256036e-05	-0.1249592	-0.02492868	-0.0001132592	-0.0003604873	0.01646857	0.003009295
	0.0165164	0.001820368	-0.0001132592	-0.0003604873	-0.1244101	-0.02843682	-2.955519e-05	3.224816e-05
	-1.156389e-05	1.419413e-05	0.01646857	0.003009295	-2.955519e-05	3.224816e-05	-0.1249835	-0.02439686
3.5e+08	-0.1269087	-0.02349414	-2.501602e-05	3.311451e-05	0.01636375	0.001153033	-1.106605e-05	1.442487e-05
	-2.501602e-05	3.311451e-05	-0.1272211	-0.01955728	-0.0001457409	-0.0003610239	0.01636664	0.00238614
	0.01636375	0.001153033	-0.0001457409	-0.0003610239	-0.1268198	-0.02321058	-2.7665e-05	3.297581e-05
	-1.106605e-05	1.442487e-05	0.01636664	0.00238614	-2.7665e-05	3.297581e-05	-0.127231	-0.01900222
3.6e+08	-0.1289068	-0.0181104	-2.302065e-05	3.349886e-05	0.0161407	0.0005029627	-1.055979e-05	1.464106e-05
	-2.302065e-05	3.349886e-05	-0.1290583	-0.01403014	-0.0001788457	-0.0003585594	0.01619792	0.001776456
	0.0161407	0.0005029627	-0.0001788457	-0.0003585594	-0.1288167	-0.01781737	-2.576609e-05	3.354796e-05
	-1.055979e-05	1.464106e-05	0.01619792	0.001776456	-2.576609e-05	3.354796e-05	-0.1290522	-0.0134527
3.7e+08	-0.1304811	-0.01259362	-2.105015e-05	3.371672e-05	0.0158491	-0.0001235702	-1.004621e-05	1.484188e-05
	-2.105015e-05	3.371672e-05	-0.1304606	-0.008382243	-0.000212269	-0.000353002	0.01596395	0.00118612
	0.0158491	-0.0001235702	-0.000212269	-0.000353002	-0.1303896	-0.0122909	-2.387563e-05	3.39664e-05
	-1.004621e-05	1.484188e-05	0.01596395	0.00118612	-2.387563e-05	3.39664e-05	-0.130437	-0.007783403
3.8e+08	-0.1316233	-0.006978169	-1.912277e-05	3.377365e-05	0.01549131	-0.0007204916	-9.526414e-06	1.502669e-05
	-1.912277e-05	3.377365e-05	-0.1314206	-0.002649141	-0.0002456958	-0.0003442933	0.01566674	0.0006208386
	0.01549131	-0.0007204916	-0.0002456958	-0.0003442933	-0.1315299	-0.006665567	-2.201028e-05	3.423497e-05
	-9.526414e-06	1.502669e-05	0.01566674	0.0006208387	-2.201028e-05	3.423497e-05	-0.131378	-0.00203007
3.9e+08	-0.1323274	-0.001298877	-1.725582e-05	3.367733e-05	0.01507022	-0.001281962	-9.001519e-06	1.519501e-05
	-1.725582e-05	3.367733e-05	-0.1319336	0.003133215	-0.0002788046	-0.0003324096	0.01530875	8.611894e-05
	0.01507022	-0.001281962	-0.0002788046	-0.0003324096	-0.132232	-0.0009762318	-2.018597e-05	3.435943e-05
	-9.001519e-06	1.519501e-05	0.01530875	8.611895e-05	-2.018597e-05	3.435943e-05	-0.1318707	0.003771205
4e+08	-0.1325907	0.004409155	-1.546547e-05	3.343738e-05	0.01458918	-0.001802415	-8.472588e-06	1.534652e-05
	-1.546547e-05	3.343738e-05	-0.131998	0.00892871	-0.0003112713	-0.0003173622	0.01489291	-0.00041277
	0.01458918	-0.001802415	-0.0003112713	-0.0003173622	-0.1324928	0.004741972	-1.841773e-05	3.434731e-05
	-8.472588e-06	1.534652e-05	0.01489291	-0.00041277	-1.841773e-05	3.434731e-05	-0.1319135	0.009584165
4.1e+08	-0.1324127	0.01011077	-1.376656e-05	3.306531e-05	0.014052	-0.00227659	-7.940644e-06	1.548103e-05
	-1.376656e-05	3.306531e-05	-0.1316147	0.01470129	-0.0003427729	-0.0002991978	0.01442256	-0.0008708263
	0.014052	-0.00227659	-0.0003427729	-0.0002991978	-0.1323119	0.01045385	-1.671948e-05	3.420785e-05
	-7.940644e-06	1.548103e-05	0.01442256	-0.0008708262	-1.671948e-05	3.420785e-05	-0.1315076	0.01537262
4.2e+08	-0.131796	0.01577096	-1.217234e-05	3.257425e-05	0.01346292	-0.002699569	-7.406652e-06	1.55985e-05
	-1.217234e-05	3.257425e-05	-0.1307879	0.02041517	-0.0003729919	-0.0002779977	0.01390146	-0.001283345
	0.01346292	-0.002699569	-0.0003729919	-0.0002779977	-0.1316918	0.01612436	-1.510385e-05	3.395182e-05
	-7.406652e-06	1.55985e-05	0.01390146	-0.001283345	-1.510385e-05	3.395182e-05	-0.130657	0.02110066
4.3e+08	-0.1307457	0.02135507	-1.069441e-05	3.197878e-05	0.01282659	-0.003066803	-6.871499e-06	1.569895e-05
	-1.069441e-05	3.197878e-05	-0.1295242	0.02603503	-0.0004016195	-0.0002538773	0.01333371	-0.001645947
	0.01282659	-0.003066803	-0.0004016195	-0.0002538773	-0.1306378	0.02171879	-1.358209e-05	3.359137e-05
	-6.871499e-06	1.569895e-05	0.01333371	-0.001645947	-1.358209e-05	3.359137e-05	-0.1293688	0.02673285
4.4e+08	-0.1292699	0.02682897	-9.342455e-06	3.129473e-05	0.01214802	-0.003374146	-6.335991e-06	1.57825e-05
	-9.342455e-06	3.129473e-05	-0.1278331	0.03152626	-0.00042836	-0.0002269851	0.01272382	-0.001954606
	0.01214802	-0.003374146	-0.00042836	-0.0002269851	-0.1291578	0.02720298	-1.216384e-05	3.31398e-05
	-6.335991e-06	1.57825e-05	0.01272382	-0.001954606	-1.216384e-05	3.31398e-05	-0.1276525	0.03223449
4.5e+08	-0.1273789	0.03215931	-8.124212e-06	3.053897e-05	0.01143257	-0.003617881	-5.800854e-06	1.584932e-05
	-8.124212e-06	3.053897e-05	-0.1257269	0.03685512	-0.0004529338	-0.0001975011	0.01207657	-0.002205675
	0.01143257	-0.003617881	-0.0004529338	-0.0001975011	-0.1272621	0.03254353	-1.08571e-05	3.261148e-05
	-5.800854e-06	1.584932e-05	0.01207657	-0.002205675	-1.08571e-05	3.261148e-05	-0.1255206	0.03757175
4.6e+08	-0.1250858	0.03731367	-7.045306e-06	2.972916e-05	0.01068592	-0.003794744	-5.266727e-06	1.589964e-05
	-7.045306e-06	2.972916e-05	-0.1232203	0.041989	-0.0004750812	-0.0001656345	0.01139707	-0.002395908
	0.01068592	-0.003794744	-0.0004750812	-0.0001656345	-0.1249639	0.03770796	-9.668048e-06	3.202161e-05
	-5.266727e-06	1.589964e-05	0.01139707	-0.002395908	-9.668048e-06	3.202161e-05	-0.122988	0.04271194
4.7e+08	-0.1224062	0.04226073	-6.109203e-06	2.888352e-05	0.009913995	-0.003901951	-4.734168e-06	1.593368e-05
	-6.109203e-06	2.888352e-05	-0.1203307	0.04689653	-0.0004945651	-0.0001316218	0.0106907	-0.002522485
	0.009913995	-0.003901951	-0.0004945651	-0.0001316218	-0.1222787	0.04266494	-8.601033e-06	3.138598e-05
