!$
! Info: Touchstone file created by Circ.  Input file=Tx_4in_Rx_100ohms_TxVia_60mils_RxVia_70mils.circ
!$
# Hz S RI R 50
0	0.004297398	7.241891e-26	-2.906873e-11	8.759412e-27	4.203762e-05	8.202237e-24	-3.215777e-09	3.997194e-25
	-2.90695e-11	8.759521e-27	0.004292939	8.519442e-26	4.413751e-11	1.497836e-27	4.17404e-05	1.036892e-23
	4.312186e-05	8.257074e-24	4.413328e-11	1.498348e-27	0.004312956	7.237847e-26	-7.893164e-12	7.742619e-27
	-3.21565e-09	3.997038e-25	4.201029e-05	1.041338e-23	-7.988041e-12	7.75419e-27	0.004307501	8.479315e-26
1e+07	0.00599715	0.00319268	5.493425e-11	1.601211e-10	0.0001002241	0.0009439538	-5.003879e-09	7.528884e-09
	5.493425e-11	1.601211e-10	0.006181641	0.00321747	6.669603e-11	1.819505e-10	0.0002418735	0.0009682255
	0.0001002552	0.0009439583	6.669603e-11	1.819505e-10	0.005780939	0.003307412	-5.425712e-09	9.69209e-09
	-5.003879e-09	7.528884e-09	0.0002418757	0.0009682231	-5.425712e-09	9.69209e-09	0.006134229	0.003227533
2e+07	0.007665928	0.005079012	6.250575e-11	3.030908e-10	0.0002252466	0.00189104	4.135821e-11	-5.50063e-11
	6.250576e-11	3.030908e-10	0.007822617	0.005052979	7.998471e-11	3.409339e-10	0.0003051223	0.001987853
	0.0002252607	0.001891021	7.99847e-11	3.409339e-10	0.007605181	0.00535393	3.333605e-11	6.450106e-10
	4.135823e-11	-5.50063e-11	0.0003051189	0.001987853	3.333606e-11	6.450106e-10	0.007791776	0.00509409
3e+07	0.009102056	0.00633024	5.065297e-11	4.490371e-10	0.0004300722	0.0028058	5.769287e-11	4.977738e-10
	5.065297e-11	4.490371e-10	0.009230238	0.006289872	7.501208e-11	4.993996e-10	0.0004602637	0.002924688
	0.0004300731	0.002805798	7.501208e-11	4.993996e-10	0.009164983	0.006651249	7.189456e-11	5.497755e-10
	5.769286e-11	4.977738e-10	0.0004602634	0.00292469	7.189455e-11	5.497755e-10	0.009213539	0.006346066
4e+07	0.0104492	0.007296466	3.733302e-11	5.920139e-10	0.0007117446	0.003692172	5.065128e-11	6.913865e-10
	3.733302e-11	5.920139e-10	0.0105458	0.007250936	6.713542e-11	6.535341e-10	0.0007085744	0.003820557
	0.0007117485	0.003692177	6.713542e-11	6.535341e-10	0.01061861	0.007627706	5.821955e-11	6.975654e-10
	5.065128e-11	6.913865e-10	0.0007085751	0.003820557	5.821955e-11	6.975654e-10	0.01054245	0.007317346
5e+07	0.01175405	0.008059565	1.727713e-11	7.352468e-10	0.001066905	0.004545243	2.816627e-11	8.47642e-10
	1.727713e-11	7.352468e-10	0.01181537	0.008015273	5.198698e-11	8.063134e-10	0.001103232	0.004661737
	0.001066908	0.004545245	5.198698e-11	8.063134e-10	0.01201719	0.008378539	3.799162e-11	8.721227e-10
	2.816626e-11	8.47642e-10	0.001103233	0.004661737	3.799162e-11	8.721227e-10	0.0118246	0.008088915
6e+07	0.01303613	0.008656528	-1.046921e-11	8.807442e-10	0.001491834	0.005359484	-5.35029e-12	1.00417e-09
	-1.046921e-11	8.807442e-10	0.01305904	0.008619526	2.821656e-11	9.598476e-10	0.001558069	0.005457535
	0.00149183	0.005359482	2.821656e-11	9.598476e-10	0.01338188	0.008946168	1.045736e-11	1.050973e-09
	-5.35029e-12	1.00417e-09	0.00155807	0.005457535	1.045736e-11	1.050973e-09	0.0130803	0.008698151
7e+07	0.01430345	0.00910765	-4.622128e-11	1.030148e-09	0.001990158	0.006126988	-4.711458e-11	1.169483e-09
	-4.622129e-11	1.030148e-09	0.01428524	0.009083661	-5.134506e-12	1.115526e-09	0.002069849	0.006204222
	0.001990147	0.006126988	-5.134509e-12	1.115526e-09	0.01472122	0.00935353	-2.653071e-11	1.231377e-09
	-4.711458e-11	1.169483e-09	0.00206985	0.006204222	-2.65307e-11	1.231377e-09	0.01431797	0.00916522
8e+07	0.0155584	0.009426061	-8.978167e-11	1.185323e-09	0.002549601	0.006844406	-9.493411e-11	1.346582e-09
	-8.978167e-11	1.185323e-09	0.01549651	0.009420798	-4.827623e-11	1.275621e-09	0.002634537	0.006897497
	0.002549587	0.006844408	-4.827624e-11	1.275621e-09	0.01603723	0.009614774	-7.465383e-11	1.414296e-09
	-9.493411e-11	1.346582e-09	0.002634539	0.006897496	-7.465382e-11	1.414296e-09	0.01553996	0.009503327
9e+07	0.01680062	0.009621989	-1.404744e-10	1.348605e-09	0.003164977	0.007507374	-1.467487e-10	1.537346e-09
	-1.404744e-10	1.348605e-09	0.0166928	0.00964164	-1.010422e-10	1.443086e-09	0.003247267	0.007532604
	0.003164966	0.007507377	-1.010422e-10	1.443086e-09	0.01732813	0.009739138	-1.349111e-10	1.602577e-09
	-1.467487e-10	1.537346e-09	0.003247268	0.007532603	-1.349111e-10	1.602577e-09	0.01674591	0.009723201
1e+08	0.0180317	0.009710421	-1.983793e-10	1.523501e-09	0.003832408	0.008113794	-2.017328e-10	1.744569e-09
	-1.983793e-10	1.523501e-09	0.01787656	0.009762637	-1.655885e-10	1.622433e-09	0.003900942	0.008101705
	0.003832408	0.008113794	-1.655885e-10	1.622433e-09	0.01858788	0.009729379	-2.097578e-10	1.801562e-09
	-2.017328e-10	1.744569e-09	0.003900942	0.008101705	-2.097578e-10	1.801562e-09	0.01793762	0.00984058
1.1e+08	0.01927255	0.009664597	-2.521967e-10	1.712306e-09	0.004553535	0.008649966	-2.587405e-10	1.958952e-09
	-2.521967e-10	1.712306e-09	0.01907347	0.009753466	-2.245083e-10	1.822862e-09	0.004578091	0.008616757
	0.004553535	0.008649966	-2.245083e-10	1.822862e-09	0.0197976	0.009611958	-2.726102e-10	2.026715e-09
	-2.587405e-10	1.958952e-09	0.004578089	0.008616757	-2.726102e-10	2.026715e-09	0.01913813	0.009828976
1.2e+08	0.02047616	0.009490856	-3.041073e-10	1.905591e-09	0.005309583	0.009112798	-3.118259e-10	2.174441e-09
	-3.041073e-10	1.905591e-09	0.02023151	0.009620673	-2.749602e-10	2.023838e-09	0.00529314	0.009074263
	0.005309583	0.009112797	-2.749602e-10	2.023838e-09	0.02097811	0.009391399	-3.306712e-10	2.25471e-09
	-3.118259e-10	2.174441e-09	0.005293138	0.009074264	-3.306712e-10	2.25471e-09	0.02030004	0.009694865
1.3e+08	0.02164074	0.009203816	-3.527807e-10	2.098899e-09	0.006095347	0.00950238	-3.631461e-10	2.393219e-09
	-3.527807e-10	2.098899e-09	0.02134998	0.009380158	-3.182283e-10	2.223761e-09	0.006038537	0.009466801
	0.006095347	0.00950238	-3.182283e-10	2.223761e-09	0.02212177	0.009066579	-3.82656e-10	2.479851e-09
	-3.631461e-10	2.393219e-09	0.006038535	0.009466802	-3.82656e-10	2.479851e-09	0.02142219	0.009453103
1.4e+08	0.02276132	0.008810451	-4.020456e-10	2.300779e-09	0.006904473	0.00981705	-4.148631e-10	2.621334e-09
	-4.020456e-10	2.300779e-09	0.02242465	0.009039222	-3.62769e-10	2.431944e-09	0.006807825	0.009791084
	0.006904473	0.00981705	-3.62769e-10	2.431944e-09	0.02322248	0.008640977	-4.354452e-10	2.714558e-09
	-4.148631e-10	2.621334e-09	0.006807824	0.009791085	-4.354452e-10	2.714558e-09	0.02250022	0.009110807
1.5e+08	0.02383239	0.008316691	-4.508741e-10	2.511374e-09	0.007730294	0.01005537	-4.658537e-10	2.858937e-09
	-4.508741e-10	2.511374e-09	0.02345075	0.008603932	-4.075048e-10	2.648514e-09	0.00759454	0.0100449
	0.007730294	0.01005537	-4.075048e-10	2.648514e-09	0.02427424	0.008118871	-4.878465e-10	2.958949e-09
	-4.658537e-10	2.858937e-09	0.007594539	0.0100449	-4.878465e-10	2.958949e-09	0.02352929	0.008673999
1.6e+08	0.02484835	0.007728193	-4.982683e-10	2.73079e-09	0.008565959	0.01021639	-5.150213e-10	3.106129e-09
	-4.982683e-10	2.73079e-09	0.02442336	0.008079981	-4.514418e-10	2.873587e-09	0.008392137	0.01022682
	0.008565959	0.01021639	-4.514418e-10	2.873587e-09	0.02527116	0.007504968	-5.387254e-10	3.213116e-09
	-5.150213e-10	3.106129e-09	0.008392137	0.01022682	-5.387254e-10	3.213116e-09	0.02450445	0.008148361
1.7e+08	0.02580364	0.007050626	-5.432372e-10	2.959059e-09	0.009404516	0.01029967	-5.612784e-10	3.362927e-09
	-5.432372e-10	2.959059e-09	0.02533761	0.007472979	-4.936145e-10	3.107221e-09	0.009194015	0.01033604
	0.009404516	0.01029967	-4.936145e-10	3.107221e-09	0.0262075	0.00680433	-5.869678e-10	3.47708e-09
	-5.612784e-10	3.362927e-09	0.009194015	0.01033604	-5.869678e-10	3.47708e-09	0.0254208	0.007539525
1.8e+08	0.02669283	0.006289808	-5.847955e-10	3.19613e-09	0.01023898	0.01030538	-6.035458e-10	3.629255e-09
	-5.847955e-10	3.19613e-09	0.02618878	0.006788603	-5.330719e-10	3.349403e-09	0.009993554	0.01037245
	0.01023898	0.01030538	-5.330719e-10	3.349403e-09	0.02707767	0.006022372	-6.314728e-10	3.75077e-09
	-6.035458e-10	3.629255e-09	0.009993554	0.01037245	-6.314728e-10	3.75077e-09	0.02627358	0.006853202
1.9e+08	0.02751069	0.005451779	-6.219404e-10	3.441819e-09	0.01106237	0.01023428	-6.407521e-10	3.904921e-09
	-6.219404e-10	3.441819e-09	0.02697232	0.006032678	-5.688756e-10	3.600037e-09	0.01078416	0.01033651
	0.01106237	0.01023428	-5.688756e-10	3.600037e-09	0.02787638	0.005164854	-6.711544e-10	4.034021e-09
	-6.407521e-10	3.904921e-09	0.01078416	0.01033651	-6.711544e-10	4.034021e-09	0.02705824	0.006095251
2e+08	0.0282523	0.004542828	-6.537195e-10	3.695907e-09	0.01186781	0.01008775	-6.718501e-10	4.189661e-09
	-6.537195e-10	3.695907e-09	0.02768395	0.005211199	-6.000995e-10	3.858947e-09	0.01155932	0.01022931
	0.01186781	0.01008775	-6.000995e-10	3.858947e-09	0.0285986	0.004237877	-7.049462e-10	4.326567e-09
	-6.718501e-10	4.189661e-09	0.01155932	0.01022931	-7.049462e-10	4.326567e-09	0.02777049	0.005271719
2.1e+08	0.02891305	0.00356952	-6.792151e-10	3.958103e-09	0.01264856	0.009867742	-6.958222e-10	4.483112e-09
	-6.792151e-10	3.958103e-09	0.02831971	0.004330364	-6.258345e-10	4.125873e-09	0.01231264	0.01005251
	0.01264856	0.009867742	-6.258345e-10	4.125873e-09	0.02923965	0.003247862	-7.318085e-10	4.628044e-09
	-6.958222e-10	4.483112e-09	0.01231264	0.01005251	-7.318085e-10	4.628044e-09	0.02840635	0.004388845
2.2e+08	0.02948873	0.00253869	-6.975146e-10	4.227999e-09	0.01339805	0.009576812	-7.116793e-10	4.784805e-09
	-6.975146e-10	4.227999e-09	0.02887598	0.003396576	-6.45197e-10	4.40047e-09	0.01303791	0.009808343
	0.01339805	0.009576812	-6.45197e-10	4.40047e-09	0.02979528	0.00220156	-7.507359e-10	4.937992e-09
	-7.116793e-10	4.784805e-09	0.01303791	0.009808343	-7.507359e-10	4.937992e-09	0.02896221	0.003453078
2.3e+08	0.02997554	0.001457447	-7.077415e-10	4.505096e-09	0.01410998	0.009218085	-7.184743e-10	5.094175e-09
	-7.077415e-10	4.505096e-09	0.02934953	0.002416444	-6.573347e-10	4.68231e-09	0.01372914	0.009499602
	0.01410998	0.009218085	-6.573347e-10	4.68231e-09	0.03026165	0.001106022	-7.607648e-10	5.255854e-09
	-7.184743e-10	5.094175e-09	0.01372914	0.009499602	-7.607648e-10	5.255854e-09	0.02943486	0.002471077
2.4e+08	0.03037017	0.0003331352	-7.090634e-10	4.788812e-09	0.01477832	0.008795236	-7.153104e-10	5.410568e-09
	-7.090634e-10	4.788812e-09	0.02973754	0.001396745	-6.614327e-10	4.970885e-09	0.01438062	0.009129598
	0.01477832	0.008795236	-6.614327e-10	4.970885e-09	0.03063539	-3.144165e-05	-7.609822e-10	5.58098e-09
	-7.153104e-10	5.410568e-09	0.01438062	0.009129598	-7.609822e-10	5.58098e-09	0.02982147	0.001449668
2.5e+08	0.0306698	-0.0008266704	-7.006986e-10	5.078483e-09	0.01539742	0.00831246	-7.013483e-10	5.733241e-09
	-7.006986e-10	5.078483e-09	0.03003764	0.0003444378	-6.567207e-10	5.26561e-09	0.01498694	0.008702142
	0.01539742	0.00831246	-6.567207e-10	5.26561e-09	0.03091368	-0.001203267	-7.505324e-10	5.912635e-09
	-7.013483e-10	5.733241e-09	0.01498694	0.008702142	-7.505324e-10	5.912635e-09	0.03011972	0.0003958569
2.6e+08	0.03087213	-0.00201422	-6.819237e-10	5.373372e-09	0.01596199	0.007774446	-6.75814e-10	6.061371e-09
	-6.819237e-10	5.373372e-09	0.03024797	-0.0007333897	-6.4248e-10	5.565825e-09	0.01554306	0.008221518
	0.01596199	0.007774446	-6.4248e-10	5.565825e-09	0.03109421	-0.002401694	-7.286258e-10	6.249999e-09
	-6.75814e-10	6.061371e-09	0.01554306	0.008221518	-7.286258e-10	6.249999e-09	0.03032772	-0.0006832256
2.7e+08	0.03097546	-0.0032216	-6.520801e-10	5.672665e-09	0.01646718	0.007186337	-6.380056e-10	6.394056e-09
	-6.520801e-10	5.672665e-09	0.03036711	-0.001829542	-6.180492e-10	5.870799e-09	0.01604433	0.007692443
	0.01646718	0.007186337	-6.180492e-10	5.870799e-09	0.03117525	-0.003618791	-6.945444e-10	6.592175e-09
	-6.380056e-10	6.394056e-09	0.01604433	0.007692443	-6.945444e-10	6.592175e-09	0.0304441	-0.00178034
2.8e+08	0.03097862	-0.004440782	-6.105809e-10	5.975487e-09	0.01690861	0.006553694	-5.873007e-10	6.730328e-09
	-6.105809e-10	5.975487e-09	0.03039418	-0.00293674	-5.828313e-10	6.179739e-09	0.01648656	0.007120037
	0.01690861	0.006553694	-5.828313e-10	6.179739e-09	0.03115566	-0.004846497	-6.476506e-10	6.938195e-09
	-5.873007e-10	6.730328e-09	0.01648656	0.007120037	-6.476506e-10	6.938195e-09	0.03046803	-0.002888159
2.9e+08	0.03088108	-0.005663668	-5.569163e-10	6.2809e-09	0.01728242	0.005882451	-5.231618e-10	7.06915e-09
	-5.569163e-10	6.2809e-09	0.03032883	-0.004047669	-5.362989e-10	6.491792e-09	0.01686599	0.006509777
	0.01728242	0.005882451	-5.362989e-10	6.491792e-09	0.0310349	-0.006076679	-5.87392e-10	7.287028e-09
	-5.231618e-10	7.06915e-09	0.01686599	0.006509777	-5.87392e-10	7.287028e-09	0.03039916	-0.003999336
3e+08	0.03068289	-0.006882138	-4.90659e-10	6.587914e-09	0.01758529	0.005178872	-4.451421e-10	7.409435e-09
	-4.90659e-10	6.587914e-09	0.03017123	-0.005155014	-4.779996e-10	6.806049e-09	0.01717938	0.00586746
	0.01758529	0.005178872	-4.779996e-10	6.806049e-09	0.03081307	-0.007301166	-5.133076e-10	7.637584e-09
	-4.451421e-10	7.409435e-09	0.01717938	0.00586746	-5.133076e-10	7.637584e-09	0.03023771	-0.005106513
3.1e+08	0.03038473	-0.008088077	-4.114696e-10	6.895495e-09	0.01781444	0.004449502	-3.528911e-10	7.750043e-09
	-4.114696e-10	6.895495e-09	0.02992209	-0.006251484	-4.075613e-10	7.121559e-09	0.01742403	0.005199152
	0.01781444	0.004449502	-4.075613e-10	7.121559e-09	0.03049086	-0.008511794	-4.25033e-10	7.988725e-09
	-3.528911e-10	7.750043e-09	0.01742403	0.005199152	-4.25033e-10	7.988725e-09	0.02998443	-0.00620237
3.2e+08	0.0299879	-0.009273446	-3.191002e-10	7.202568e-09	0.01796772	0.003701115	-2.461583e-10	8.089797e-09
	-3.191002e-10	7.202568e-09	0.02958266	-0.007329879	-3.246955e-10	7.437328e-09	0.01759776	0.004511148
	0.01796772	0.003701115	-3.246955e-10	7.437328e-09	0.03006963	-0.009700475	-3.223047e-10	8.339274e-09
	-2.461583e-10	8.089797e-09	0.01759776	0.004511148	-3.223047e-10	8.339274e-09	0.02964062	-0.007279671
3.3e+08	0.02949431	-0.01043032	-2.133976e-10	7.508031e-09	0.01804356	0.002940662	-1.247969e-10	8.427487e-09
	-2.133976e-10	7.508031e-09	0.02915475	-0.008383106	-2.29201e-10	7.75233e-09	0.01769898	0.003809917
	0.01804356	0.002940662	-2.29201e-10	7.75233e-09	0.02955134	-0.01085923	-2.049632e-10	8.688021e-09
	-1.247969e-10	8.427487e-09	0.01769898	0.003809917	-2.049632e-10	8.688021e-09	0.02920811	-0.008331302
3.4e+08	0.0289065	-0.01155093	-9.430696e-11	7.810757e-09	0.01804102	0.002175218	1.123261e-11	8.761879e-09
	-9.430696e-11	7.810757e-09	0.02864066	-0.009404227	-1.209676e-10	8.065517e-09	0.01772665	0.003102054
	0.01804102	0.002175218	-1.209676e-10	8.065517e-09	0.0289386	-0.01198023	-7.295684e-11	9.033732e-09
	1.123261e-11	8.761879e-09	0.01772665	0.003102054	-7.295684e-11	9.033732e-09	0.02868928	-0.009350301
3.5e+08	0.02822759	-0.01262772	3.81268e-11	8.109608e-09	0.01795982	0.001411927	1.618608e-10	9.09173e-09
	3.81268e-11	8.109608e-09	0.02804325	-0.01038651	2.268256e-14	8.375822e-09	0.01768036	0.002394231
	0.01795982	0.001411927	2.268253e-14	8.375822e-09	0.02823461	-0.01305587	7.365656e-11	9.375161e-09
	1.618608e-10	9.09173e-09	0.01768036	0.002394231	7.365656e-11	9.375161e-09	0.02808702	-0.01032992
3.6e+08	0.02746131	-0.0136534	1.837421e-10	8.403446e-09	0.01780028	0.0006579411	3.268982e-10	9.415792e-09
	1.837421e-10	8.403446e-09	0.02736586	-0.01132345	1.336938e-10	8.682169e-09	0.01756025	0.00169314
	0.01780028	0.0006579411	1.336938e-10	8.682169e-09	0.02744317	-0.01407881	2.347081e-10	9.71106e-09
	3.268982e-10	9.415792e-09	0.01756025	0.00169314	2.347081e-10	9.71106e-09	0.02740473	-0.01126363
3.7e+08	0.02661197	-0.01462097	3.423053e-10	8.691127e-09	0.01756338	-7.962857e-05	5.060622e-10	9.732818e-09
	3.423053e-10	8.691127e-09	0.02661235	-0.01220884	2.798742e-10	8.983483e-09	0.0173671	0.001005445
	0.01756338	-7.962857e-05	2.798742e-10	8.983483e-09	0.02656869	-0.01504203	4.099176e-10	1.004018e-08
	5.060622e-10	9.732818e-09	0.0173671	0.001005445	4.099176e-10	1.004018e-08	0.02664633	-0.01214522
3.8e+08	0.02568439	-0.0155238	5.134678e-10	8.971525e-09	0.01725073	-0.0007937739	6.989505e-10	1.004158e-08
	5.134678e-10	8.971525e-09	0.02578703	-0.01303675	4.382977e-10	9.278694e-09	0.01710225	0.0003377261
	0.01725073	-0.0007937739	4.382977e-10	9.278694e-09	0.02561611	-0.01593884	5.988934e-10	1.03613e-08
	6.989505e-10	1.004158e-08	0.01710225	0.0003377261	5.988934e-10	1.03613e-08	0.02581617	-0.01296878
3.9e+08	0.02468395	-0.01635565	6.967787e-10	9.243535e-09	0.01686457	-0.001477643	9.050493e-10	1.034086e-08
	6.967787e-10	9.243535e-09	0.02489466	-0.01380165	6.086033e-10	9.566751e-09	0.01676764	-0.0003035689
	0.01686457	-0.001477643	6.086033e-10	9.566751e-09	0.02459091	-0.01676297	8.011336e-10	1.06732e-08
	9.050493e-10	1.034086e-08	0.01676764	-0.0003035689	8.011336e-10	1.06732e-08	0.02491908	-0.01372874
4e+08	0.02361651	-0.01711071	8.916878e-10	9.506083e-09	0.01640775	-0.002124596	1.123736e-09	1.06295e-08
	8.916878e-10	9.506083e-09	0.02394044	-0.01449836	7.903373e-10	9.846622e-09	0.01636576	-0.0009121791
	0.01640775	-0.002124596	7.903373e-10	9.846622e-09	0.02349905	-0.0175086	1.016028e-09	1.097472e-08
	1.123736e-09	1.06295e-08	0.01636576	-0.0009121791	1.016028e-09	1.097472e-08	0.02396031	-0.01441996
4.1e+08	0.02248838	-0.01778366	1.097548e-09	9.758131e-09	0.01588368	-0.002728259	1.354279e-09	1.090637e-08
	1.097548e-09	9.758131e-09	0.02292993	-0.01512214	9.829539e-10	1.011731e-08	0.01589968	-0.001482079
	0.01588368	-0.002728259	9.829539e-10	1.011731e-08	0.02234699	-0.01817039	1.242859e-09	1.126473e-08
	1.354279e-09	1.090637e-08	0.01589968	-0.001482079	1.242859e-09	1.126473e-08	0.02294548	-0.0150377
4.2e+08	0.02130629	-0.01836968	1.313616e-09	9.998689e-09	0.01529638	-0.003282572	1.595847e-09	1.117039e-08
	1.313616e-09	9.998689e-09	0.0218691	-0.0156687	1.185818e-09	1.037785e-08	0.01537298	-0.002007525
	0.01529638	-0.003282572	1.185818e-09	1.037785e-08	0.02114159	-0.01874354	1.480808e-09	1.154216e-08
	1.595847e-09	1.117039e-08	0.01537298	-0.002007525	1.480808e-09	1.154216e-08	0.0218806	-0.01557768
4.3e+08	0.02007736	-0.01886453	1.539062e-09	1.022682e-08	0.01465036	-0.003781847	1.847503e-09	1.142053e-08
	1.539062e-09	1.022682e-08	0.02076417	-0.01613421	1.39821e-09	1.062734e-08	0.01478975	-0.002483105
	0.01465036	-0.003781847	1.39821e-09	1.062734e-08	0.01989008	-0.01922379	1.728956e-09	1.180598e-08
	1.847503e-09	1.142053e-08	0.01478975	-0.002483105	1.728956e-09	1.180598e-08	0.02077197	-0.01603611
4.4e+08	0.01880903	-0.01926451	1.772966e-09	1.044166e-08	0.01395068	-0.004220804	2.10822e-09	1.165586e-08
	1.772966e-09	1.044166e-08	0.01962172	-0.01651538	1.619326e-09	1.086491e-08	0.01415455	-0.002903781
	0.01395068	-0.004220804	1.619326e-09	1.086491e-08	0.01860007	-0.01960748	1.986291e-09	1.205525e-08
	2.10822e-09	1.165586e-08	0.01415455	-0.002903781	1.986291e-09	1.205525e-08	0.0196262	-0.01640972
4.5e+08	0.01750906	-0.01956657	2.014327e-09	1.06424e-08	0.01320281	-0.004594623	2.376877e-09	1.187551e-08
	2.014327e-09	1.06424e-08	0.01844853	-0.01680941	1.848284e-09	1.108977e-08	0.0134724	-0.00326493
	0.01320281	-0.004594623	1.848284e-09	1.108977e-08	0.01727943	-0.01989159	2.25171e-09	1.22891e-08
	2.376877e-09	1.187551e-08	0.0134724	-0.00326493	2.25171e-09	1.22891e-08	0.01845012	-0.01669574
4.6e+08	0.0161854	-0.01976825	2.262071e-09	1.082832e-08	0.0124127	-0.004898982	2.65227e-09	1.20787e-08
	2.262071e-09	1.082832e-08	0.0172516	-0.01701408	2.084079e-09	1.130121e-08	0.01274871	-0.003562382
	0.0124127	-0.004898982	2.084079e-09	1.130121e-08	0.01593626	-0.02007371	2.52401e-09	1.250679e-08
	2.65227e-09	1.20787e-08	0.01274871	-0.003562382	2.52401e-09	1.250679e-08	0.01725079	-0.01689198
4.7e+08	0.01484623	-0.01986779	2.515055e-09	1.099876e-08	0.01158663	-0.005130094	2.933115e-09	1.226472e-08
	2.515055e-09	1.099876e-08	0.0160381	-0.01712771	2.325535e-09	1.149874e-08	0.01198924	-0.003792454
	0.01158663	-0.005130094	2.325535e-09	1.149874e-08	0.01457888	-0.0201521	2.801885e-09	1.270776e-08
	2.933115e-09	1.226472e-08	0.01198924	-0.003792454	2.801885e-09	1.270776e-08	0.01603538	-0.0169968
4.8e+08	0.01349983	-0.01986405	2.772061e-09	1.115318e-08	0.01073125	-0.00528474	3.218057e-09	1.243301e-08
	2.772061e-09	1.115318e-08	0.01481528	-0.01714921	2.571807e-09	1.168157e-08	0.01120008	-0.003951987
	0.01073125	-0.00528474	2.571807e-09	1.168157e-08	0.01321572	-0.02012574	3.084102e-09	1.289123e-08
