!$
! Info: Touchstone file created by Circ.  Input file=Tx_4in_Rx_93ohms_TxVia_60mils_RxVia_70mils.circ
!$
# Hz S RI R 50
0	0.003813693	8.370994e-26	3.097198e-08	1.470079e-26	4.50157e-05	8.237752e-24	6.587895e-08	3.508778e-27
	3.097198e-08	1.470059e-26	0.003809049	8.517142e-26	6.35785e-08	4.747984e-26	4.173622e-05	9.182342e-24
	4.623676e-05	8.003935e-24	6.357852e-08	4.747855e-26	0.003824594	8.306067e-26	2.418572e-08	1.957549e-26
	6.587897e-08	3.509166e-27	4.200614e-05	9.221719e-24	2.418602e-08	1.958109e-26	0.003823625	8.477009e-26
1e+07	0.005596282	0.0001529718	4.687789e-08	9.815535e-08	0.0001133859	0.0009564328	1.060946e-07	2.857235e-07
	4.687789e-08	9.815536e-08	0.005592786	0.0001528138	8.265237e-08	2.933857e-07	0.0001119801	0.0009567613
	0.0001134557	0.0009564006	8.265237e-08	2.933857e-07	0.005499609	0.0001499514	3.329904e-08	1.333964e-07
	1.060946e-07	2.857235e-07	0.0001119823	0.0009567588	3.329904e-08	1.333964e-07	0.005495774	0.0001499189
2e+07	0.006755628	-0.001020783	7.16131e-08	1.767918e-07	0.0002167958	0.001916017	2.062541e-07	4.83537e-07
	7.161311e-08	1.767918e-07	0.006741265	-0.001020798	1.288189e-07	5.081817e-07	0.0002111362	0.00191714
	0.0002167812	0.00191598	1.288189e-07	5.081817e-07	0.006683466	-0.0009871862	7.258817e-08	1.981608e-07
	2.062541e-07	4.83537e-07	0.0002111328	0.00191714	7.258816e-08	1.981608e-07	0.00666772	-0.0009869806
3e+07	0.007461144	-0.002687825	9.990405e-08	2.497862e-07	0.0004296199	0.002826783	3.280171e-07	6.654761e-07
	9.990405e-08	2.497862e-07	0.007428919	-0.002685535	1.617774e-07	7.236061e-07	0.0004170534	0.002829488
	0.0004296161	0.002826783	1.617774e-07	7.236061e-07	0.007408193	-0.002644832	1.090858e-07	2.752626e-07
	3.280171e-07	6.654761e-07	0.0004170531	0.00282949	1.090858e-07	2.752626e-07	0.007372962	-0.002641893
4e+07	0.007850863	-0.004545144	1.322058e-07	3.176349e-07	0.0007389273	0.003700706	4.717296e-07	8.30635e-07
	1.322058e-07	3.176349e-07	0.007793685	-0.004538125	1.881073e-07	9.382422e-07	0.0007168722	0.003706122
	0.0007389326	0.003700705	1.881073e-07	9.382422e-07	0.007814534	-0.004500023	1.454639e-07	3.49358e-07
	4.717296e-07	8.30635e-07	0.0007168729	0.003706122	1.454639e-07	3.49358e-07	0.007752082	-0.004491792
5e+07	0.007974816	-0.006503628	1.68793e-07	3.804779e-07	0.001117443	0.004537083	6.391568e-07	9.765249e-07
	1.68793e-07	3.804779e-07	0.007885833	-0.006487897	2.108192e-07	1.150583e-06	0.001083512	0.004546697
	0.001117445	0.004537082	2.108192e-07	1.150583e-06	0.00795294	-0.006460678	1.853784e-07	4.186149e-07
	6.391568e-07	9.765249e-07	0.001083513	0.004546697	1.853784e-07	4.186149e-07	0.007855736	-0.006442746
6e+07	0.007859118	-0.008512943	2.093986e-07	4.379993e-07	0.001562139	0.005331187	8.29554e-07	1.098881e-06
	2.093986e-07	4.379993e-07	0.007732459	-0.008483648	2.314356e-07	1.360778e-06	0.00151416	0.005346775
	0.001562138	0.005331189	2.314356e-07	1.360778e-06	0.007849736	-0.008475224	2.294331e-07	4.822617e-07
	8.29554e-07	1.098881e-06	0.001514161	0.005346776	2.294331e-07	4.822617e-07	0.007711423	-0.008442229
7e+07	0.007520614	-0.01053783	2.535373e-07	4.8979e-07	0.002069262	0.006077924	1.0406e-06	1.193745e-06
	2.535373e-07	4.8979e-07	0.007351066	-0.01048972	2.508871e-07	1.569023e-06	0.00200529	0.006101527
	0.002069261	0.006077929	2.508871e-07	1.569023e-06	0.007521842	-0.01050783	2.774133e-07	5.396632e-07
	1.0406e-06	1.193745e-06	0.002005292	0.006101526	2.774133e-07	5.396632e-07	0.007336788	-0.01045405
8e+07	0.006972192	-0.01255005	3.005575e-07	5.354583e-07	0.002634463	0.006772204	1.26896e-06	1.257777e-06
	3.005575e-07	5.354583e-07	0.006754938	-0.01247735	2.697679e-07	1.775355e-06	0.002552801	0.006806105
	0.002634462	0.00677221	2.697679e-07	1.775355e-06	0.006982077	-0.01252998	3.287844e-07	5.902384e-07
	1.26896e-06	1.257777e-06	0.002552803	0.006806105	3.287844e-07	5.902384e-07	0.006745016	-0.01244915
9e+07	0.006225644	-0.01452428	3.496915e-07	5.746976e-07	0.003252827	0.007409129	1.510626e-06	1.288315e-06
	3.496915e-07	5.746976e-07	0.0059563	-0.01442053	2.884533e-07	1.979697e-06	0.003152051	0.007455833
	0.003252828	0.007409134	2.884533e-07	1.979697e-06	0.006242014	-0.01451637	3.828284e-07	6.334758e-07
	1.510626e-06	1.288315e-06	0.003152052	0.007455833	3.828284e-07	6.334758e-07	0.005948098	-0.01440144
1e+08	0.005297056	-0.01642864	4.00113e-07	6.07308e-07	0.003918949	0.007983984	1.76117e-06	1.283356e-06
	4.00113e-07	6.07308e-07	0.004971887	-0.0162866	3.072086e-07	2.1819e-06	0.003797925	0.008046191
	0.003918949	0.007983984	3.072086e-07	2.1819e-06	0.005316845	-0.01643645	4.38712e-07	6.689482e-07
	1.76117e-06	1.283356e-06	0.003797925	0.008046191	4.38712e-07	6.689482e-07	0.004961909	-0.01627944
1.1e+08	0.004231644	-0.01828767	4.516372e-07	6.333467e-07	0.004626026	0.008493289	2.019002e-06	1.247231e-06
	4.516372e-07	6.333467e-07	0.003848739	-0.01809996	3.23526e-07	2.384456e-06	0.004483959	0.00857384
	0.004626026	0.008493289	3.23526e-07	2.384456e-06	0.004246902	-0.01830845	4.951931e-07	6.978741e-07
	2.019002e-06	1.247231e-06	0.004483957	0.008573841	4.951931e-07	6.978741e-07	0.003829024	-0.01810125
1.2e+08	0.002982798	-0.02008427	5.032539e-07	6.526114e-07	0.005368603	0.00893402	2.279213e-06	1.175894e-06
	5.032539e-07	6.526114e-07	0.002540411	-0.01984287	3.389039e-07	2.586524e-06	0.005205006	0.009035879
	0.005368602	0.00893402	3.389039e-07	2.586524e-06	0.002993514	-0.02011518	5.517973e-07	7.193959e-07
	2.279213e-06	1.175894e-06	0.005205004	0.00903588	5.517973e-07	7.193959e-07	0.002510832	-0.01984905
1.3e+08	0.001565969	-0.02178964	5.542257e-07	6.650495e-07	0.00614024	0.009303125	2.53781e-06	1.068801e-06
	5.542257e-07	6.650495e-07	0.00106335	-0.0214863	3.534385e-07	2.788269e-06	0.00595497	0.009429351
	0.00614024	0.009303125	3.534385e-07	2.788269e-06	0.001571501	-0.02182957	6.077139e-07	7.33454e-07
	2.53781e-06	1.068801e-06	0.005954969	0.009429352	6.077139e-07	7.33454e-07	0.00102323	-0.02149551
1.4e+08	-6.590438e-06	-0.02338672	6.037893e-07	6.706915e-07	0.006934216	0.009598299	2.790699e-06	9.258458e-07
	6.037893e-07	6.706915e-07	-0.0005692327	-0.02301305	3.671902e-07	2.989868e-06	0.00672748	0.009752008
	0.006934216	0.009598299	3.671902e-07	2.989868e-06	-6.997022e-06	-0.0234349	6.621064e-07	7.400809e-07
	2.790699e-06	9.258458e-07	0.006727479	0.009752009	6.621064e-07	7.400809e-07	-0.0006205876	-0.02302372
1.5e+08	-0.001722552	-0.02486132	6.511739e-07	6.696454e-07	0.007743611	0.009817873	3.033756e-06	7.473532e-07
	6.511739e-07	6.696454e-07	-0.002344045	-0.02440885	3.802195e-07	3.191489e-06	0.007515977	0.0100022
	0.007743611	0.009817873	3.802195e-07	3.191489e-06	-0.001729683	-0.02491704	7.14131e-07	7.393953e-07
	3.033756e-06	7.473532e-07	0.007515976	0.0100022	7.14131e-07	7.393953e-07	-0.002407271	-0.02441951
1.6e+08	-0.003569169	-0.02620108	6.956106e-07	6.620998e-07	0.008561376	0.009960815	3.26287e-06	5.340775e-07
	6.956106e-07	6.620998e-07	-0.004247374	-0.02566138	3.925918e-07	3.393295e-06	0.008313773	0.01017887
	0.008561377	0.009960815	3.925918e-07	3.393295e-06	-0.003583808	-0.02626366	7.629472e-07	7.316042e-07
	3.26287e-06	5.340775e-07	0.008313773	0.01017887	7.629472e-07	7.316042e-07	-0.004323016	-0.02567057
1.7e+08	-0.005533228	-0.02739521	7.363421e-07	6.483241e-07	0.009380393	0.01002675	3.473988e-06	2.872051e-07
	7.363421e-07	6.483241e-07	-0.006265039	-0.02675995	4.043797e-07	3.59544e-06	0.00911411	0.01028159
	0.009380393	0.01002675	4.043797e-07	3.59544e-06	-0.005556145	-0.02746395	8.07728e-07	7.170029e-07
	3.473988e-06	2.872051e-07	0.00911411	0.0102816	8.07728e-07	7.170029e-07	-0.006353533	-0.02676622
1.8e+08	-0.007601062	-0.02843431	7.726315e-07	6.286688e-07	0.01019353	0.01001594	3.663162e-06	8.351047e-09
	7.726315e-07	6.286688e-07	-0.008382414	-0.0276954	4.156638e-07	3.798069e-06	0.009910219	0.01031054
	0.01019353	0.01001594	4.156638e-07	3.798069e-06	-0.007632991	-0.02850846	8.476694e-07	6.959753e-07
	3.663162e-06	8.351047e-09	0.009910219	0.01031054	8.476694e-07	6.959753e-07	-0.008484071	-0.02769727
1.9e+08	-0.009758589	-0.02931032	8.037721e-07	6.035648e-07	0.01099373	0.009929317	3.826593e-06	-3.004501e-07
	8.037721e-07	6.035648e-07	-0.01058447	-0.02846	4.265337e-07	4.001321e-06	0.01069538	0.01026651
	0.01099373	0.009929317	4.265337e-07	4.001321e-06	-0.009800225	-0.0293891	8.820005e-07	6.689924e-07
	3.826593e-06	-3.004501e-07	0.01069538	0.01026651	8.820005e-07	6.689924e-07	-0.01069948	-0.02845599
2e+08	-0.01199138	-0.0300165	8.290956e-07	5.735202e-07	0.01177401	0.009768446	3.960673e-06	-6.36758e-07
	8.290956e-07	5.735202e-07	-0.01285588	-0.02904741	4.370881e-07	4.205324e-06	0.01146296	0.01015089
	0.01177401	0.009768446	4.370881e-07	4.205324e-06	-0.01204337	-0.03009908	9.09993e-07	6.366092e-07
	3.960673e-06	-6.36758e-07	0.01146296	0.01015089	9.09993e-07	6.366092e-07	-0.01298429	-0.02903605
2.1e+08	-0.01428472	-0.03054739	8.479813e-07	5.391177e-07	0.01252761	0.009535523	4.06203e-06	-9.977449e-07
	8.479813e-07	5.391177e-07	-0.01518103	-0.02945271	4.474353e-07	4.410199e-06	0.01220651	0.009965673
	0.01252761	0.009535523	4.474353e-07	4.410199e-06	-0.01434765	-0.03063287	9.309705e-07	5.994618e-07
	4.06203e-06	-9.977449e-07	0.01220651	0.009965673	9.309705e-07	5.994618e-07	-0.01532276	-0.0294325
2.2e+08	-0.01662369	-0.03089879	8.598641e-07	5.010097e-07	0.01324796	0.009233356	4.127566e-06	-1.380219e-06
	8.598641e-07	5.010097e-07	-0.0175442	-0.02967232	4.576932e-07	4.616055e-06	0.01291977	0.00971343
	0.01324796	0.009233356	4.576932e-07	4.616055e-06	-0.01669808	-0.03098624	9.443175e-07	5.582619e-07
	4.127566e-06	-1.380219e-06	0.01291977	0.00971343	9.443175e-07	5.582619e-07	-0.01769902	-0.0296418
2.3e+08	-0.01899322	-0.03106775	8.642422e-07	4.599133e-07	0.0139288	0.008865337	4.154496e-06	-1.78065e-06
	8.642422e-07	4.599133e-07	-0.01992955	-0.02970399	4.679898e-07	4.822992e-06	0.01359676	0.009397278
	0.0139288	0.008865337	4.679898e-07	4.822992e-06	-0.01907954	-0.03115621	9.494876e-07	5.137913e-07
	4.154496e-06	-1.78065e-06	0.01359676	0.009397278	9.494876e-07	5.137913e-07	-0.0200971	-0.02966172
2.4e+08	-0.02137823	-0.0310526	8.606845e-07	4.166042e-07	0.01456421	0.008435418	4.14038e-06	-2.195201e-06
	8.606845e-07	4.166042e-07	-0.02232129	-0.02954683	4.784616e-07	5.031098e-06	0.01423179	0.009020866
	0.01456421	0.008435418	4.784616e-07	5.031098e-06	-0.02147685	-0.03114103	9.460113e-07	4.668953e-07
	4.14038e-06	-2.195201e-06	0.01423179	0.009020866	9.460113e-07	4.668953e-07	-0.02250108	-0.0294914
2.5e+08	-0.02376362	-0.03085284	8.488371e-07	3.719095e-07	0.01514864	0.007948071	4.083158e-06	-2.619765e-06
	8.488371e-07	3.719095e-07	-0.02470372	-0.02920122	4.892546e-07	5.240449e-06	0.01481956	0.008588336
	0.01514864	0.007948071	4.892546e-07	5.240449e-06	-0.02387485	-0.0309402	9.335032e-07	4.18475e-07
	4.083158e-06	-2.619765e-06	0.01481956	0.008588336	9.335032e-07	4.18475e-07	-0.02489512	-0.02913128
2.6e+08	-0.02613446	-0.03046925	8.28427e-07	3.267006e-07	0.01567698	0.007408256	3.981173e-06	-3.049995e-06
	8.28427e-07	3.267006e-07	-0.02706136	-0.02866884	5.00522e-07	5.451107e-06	0.01535514	0.008104291
	0.01567698	0.007408256	5.00522e-07	5.451107e-06	-0.02625851	-0.03055442	9.116683e-07	3.694789e-07
	3.981173e-06	-3.049995e-06	0.01535514	0.008104291	9.116683e-07	3.694789e-07	-0.0272636	-0.0285831
2.7e+08	-0.02847596	-0.02990373	7.99273e-07	2.818843e-07	0.01614461	0.006821374	3.833201e-06	-3.481352e-06
	7.99273e-07	2.818843e-07	-0.02937898	-0.02795262	5.124249e-07	5.663117e-06	0.01583406	0.007573755
	0.01614461	0.006821374	5.124249e-07	5.663117e-06	-0.02861295	-0.02998562	8.803071e-07	3.208942e-07
	3.833201e-06	-3.481352e-06	0.01583406	0.007573755	8.803071e-07	3.208942e-07	-0.02959119	-0.02784984
2.8e+08	-0.03077363	-0.02915938	7.612847e-07	2.383938e-07	0.0165474	0.006193227	3.638467e-06	-3.909139e-06
	7.612847e-07	2.383938e-07	-0.03164175	-0.02705668	5.2513e-07	5.876511e-06	0.01625231	0.007002131
	0.0165474	0.006193227	5.2513e-07	5.876511e-06	-0.03092361	-0.02923684	8.393205e-07	2.737368e-07
	3.638467e-06	-3.909139e-06	0.01625231	0.007002131	8.393205e-07	2.737368e-07	-0.03186292	-0.02693573
2.9e+08	-0.03301334	-0.02824041	7.144672e-07	1.9718e-07	0.01688178	0.005529962	3.396663e-06	-4.328553e-06
	7.144672e-07	1.9718e-07	-0.03383529	-0.02598633	5.388086e-07	6.091304e-06	0.01660641	0.006395158
	0.01688178	0.005529962	5.388086e-07	6.091304e-06	-0.03317627	-0.0283123	7.887128e-07	2.290415e-07
	3.396663e-06	-4.328553e-06	0.01660641	0.006395158	7.887128e-07	2.290415e-07	-0.03406433	-0.02584615
3e+08	-0.03518139	-0.02715214	6.589232e-07	1.592015e-07	0.01714475	0.004838029	3.107958e-06	-4.734724e-06
	6.589232e-07	1.592015e-07	-0.03594577	-0.02474799	5.53635e-07	6.307491e-06	0.01689338	0.005758862
	0.01714475	0.004838029	5.53635e-07	6.307491e-06	-0.03535712	-0.0272173	7.285949e-07	1.878515e-07
	3.107958e-06	-4.734724e-06	0.01689338	0.005758862	7.285949e-07	1.878515e-07	-0.03618147	-0.02458763
3.1e+08	-0.0372646	-0.0259009	5.948546e-07	1.254146e-07	0.0173339	0.00412412	2.77301e-06	-5.122765e-06
	5.948546e-07	1.254146e-07	-0.03795998	-0.02334914	5.697847e-07	6.525053e-06	0.01711083	0.005099506
	0.0173339	0.00412412	5.697847e-07	6.525053e-06	-0.03745289	-0.02595819	6.59185e-07	1.512074e-07
	2.77301e-06	-5.122765e-06	0.01711083	0.005099506	6.59185e-07	1.512074e-07	-0.03820105	-0.02316777
3.2e+08	-0.03925037	-0.02449408	5.22563e-07	9.67631e-08	0.01744745	0.003395119	2.392964e-06	-5.487819e-06
	5.22563e-07	9.67631e-08	-0.0398654	-0.02179831	5.874331e-07	6.74395e-06	0.01725692	0.004423543
	0.01744745	0.003395119	5.874331e-07	6.74395e-06	-0.0394509	-0.02454234	5.808094e-07	1.201364e-07
	2.392964e-06	-5.487819e-06	0.01725692	0.004423543	5.808094e-07	1.201364e-07	-0.04011048	-0.02159521
3.3e+08	-0.04112677	-0.02293997	4.424486e-07	7.416839e-08	0.01748424	0.002658042	1.969454e-06	-5.825104e-06
	4.424486e-07	7.416839e-08	-0.04165031	-0.02010495	6.067532e-07	6.964123e-06	0.0173304	0.003737558
	0.01748424	0.002658042	6.067532e-07	6.964123e-06	-0.04133909	-0.02297808	4.939014e-07	9.564136e-08
	1.969454e-06	-5.825104e-06	0.0173304	0.003737558	4.939014e-07	9.564136e-08	-0.04189794	-0.01987951
3.4e+08	-0.04288256	-0.02124778	3.550085e-07	5.851889e-08	0.01744377	0.001919986	1.504594e-06	-6.129962e-06
	3.550085e-07	5.851889e-08	-0.04330379	-0.01827939	6.279139e-07	7.185496e-06	0.01733063	0.00304822
	0.01744377	0.001919986	6.279139e-07	7.185496e-06	-0.04310616	-0.02127464	3.989995e-07	7.868963e-08
	1.504594e-06	-6.129962e-06	0.01733063	0.00304822	3.989995e-07	7.868963e-08	-0.04355247	-0.01803115
3.5e+08	-0.04450733	-0.01942754	2.608338e-07	5.066028e-08	0.01732615	0.001188063	1.000973e-06	-6.397909e-06
	2.608338e-07	5.066028e-08	-0.04481584	-0.01633279	6.51078e-07	7.407975e-06	0.01725756	0.002362229
	0.01732615	0.001188063	6.51078e-07	7.407975e-06	-0.04474157	-0.01944209	2.967442e-07	7.020239e-08
	1.000973e-06	-6.397909e-06	0.01725756	0.002362229	2.967442e-07	7.020239e-08	-0.04506403	-0.01606142
3.6e+08	-0.04599148	-0.01749007	1.606061e-07	5.13857e-08	0.01713215	0.0004693508	4.61634e-07	-6.624675e-06
	1.606061e-07	5.13857e-08	-0.0461774	-0.01427704	6.764002e-07	7.631446e-06	0.01711174	0.001686258
	0.01713215	0.0004693508	6.764002e-07	7.631446e-06	-0.04623565	-0.01749127	1.878737e-07	7.104411e-08
	4.61634e-07	-6.624675e-06	0.01711174	0.001686258	1.878737e-07	7.104411e-08	-0.04642352	-0.01398235
3.7e+08	-0.04732632	-0.01544688	5.50919e-08	6.142642e-08	0.01686318	-0.0002291691	-1.09941e-07	-6.806252e-06
	5.50919e-08	6.142642e-08	-0.04738043	-0.01212468	7.040251e-07	7.855779e-06	0.01689431	0.001026907
	0.01686318	-0.0002291691	7.040251e-07	7.855779e-06	-0.0475796	-0.01543374	7.321918e-08	8.20125e-08
	-1.09941e-07	-6.806252e-06	0.01689431	0.001026907	7.321918e-08	8.20125e-08	-0.04762287	-0.01180662
3.8e+08	-0.04850409	-0.01331009	-5.486272e-08	8.144294e-08	0.01652127	-0.0009006648	-7.098554e-07	-6.938937e-06
	-5.486272e-08	8.144294e-08	-0.04841793	-0.009888835	7.340857e-07	8.080827e-06	0.01660701	0.0003906454
	0.01652127	-0.0009006648	7.340857e-07	8.080827e-06	-0.04876559	-0.0132817	-4.630231e-08	1.038289e-07
	-7.098554e-07	-6.938937e-06	0.01660701	0.0003906454	-4.630231e-08	1.038289e-07	-0.04865508	-0.009547501
3.9e+08	-0.04951803	-0.0110924	-1.683392e-07	1.120168e-07	0.01610905	-0.001538509	-1.333825e-06	-7.01937e-06
	-1.683392e-07	1.120168e-07	-0.04928399	-0.007583111	7.667011e-07	8.30643e-06	0.01625214	-0.0002162357
	0.01610905	-0.001538509	7.667011e-07	8.30643e-06	-0.04978676	-0.01104791	-1.696944e-07	1.371293e-07
	-1.333825e-06	-7.01937e-06	0.01625214	-0.0002162357	-1.696944e-07	1.371293e-07	-0.04951424	-0.007218748
4e+08	-0.05036239	-0.008806979	-2.843539e-07	1.536429e-07	0.01562974	-0.002136333	-1.977211e-06	-7.044576e-06
	-2.843539e-07	1.536429e-07	-0.04997381	-0.005221522	8.019753e-07	8.532411e-06	0.01583254	-0.0007876727
	0.01562974	-0.002136333	8.019753e-07	8.532411e-06	-0.0506373	-0.008745592	-2.958902e-07	1.824563e-07
	-1.977211e-06	-7.044576e-06	0.01583254	-0.0007876727	-2.958902e-07	1.824563e-07	-0.05019557	-0.004834517
4.1e+08	-0.0510325	-0.006467388	-4.018668e-07	2.067227e-07	0.01508713	-0.002688075	-2.63505e-06	-7.011996e-06
	-4.018668e-07	2.067227e-07	-0.05048373	-0.002818387	8.399951e-07	8.758582e-06	0.01535161	-0.001317878
	0.01508713	-0.002688075	8.399951e-07	8.758582e-06	-0.05131244	-0.006388402	-4.237609e-07	2.402514e-07
	-2.63505e-06	-7.011996e-06	0.01535161	-0.001317878	-4.237609e-07	2.402514e-07	-0.05069545	-0.002409273
4.2e+08	-0.05152473	-0.004087507	-5.197904e-07	2.715584e-07	0.01448553	-0.003188031	-3.302097e-06	-6.919523e-06
	-5.197904e-07	2.715584e-07	-0.05081127	-0.0003882566	8.808294e-07	8.984745e-06	0.01481322	-0.001801383
	0.01448553	-0.003188031	8.808294e-07	8.984745e-06	-0.05180851	-0.003990301	-5.521256e-07	3.108489e-07
	-3.302097e-06	-6.919523e-06	0.01481322	-0.001801383	-5.521256e-07	3.108489e-07	-0.05101142	4.229541e-05
4.3e+08	-0.0518366	-0.001681438	-6.369996e-07	3.483477e-07	0.01382976	-0.003630898	-3.972863e-06	-6.76553e-06
	-6.369996e-07	3.483477e-07	-0.0509551	0.002054199	9.245276e-07	9.210692e-06	0.01422173	-0.002233083
	0.01382976	-0.003630898	9.245276e-07	9.210692e-06	-0.05212293	-0.001565489	-6.79762e-07	3.944701e-07
	-3.972863e-06	-6.76553e-06	0.01422173	-0.002233083	-6.79762e-07	3.944701e-07	-0.05114223	0.002505377
4.4e+08	-0.0519667	0.0007365646	-7.523415e-07	4.371802e-07	0.0131251	-0.004011819	-4.641662e-06	-6.548891e-06
	-7.523415e-07	4.371802e-07	-0.05091508	0.004494263	9.711186e-07	9.43621e-06	0.01358195	-0.002608276
	0.0131251	-0.004011819	9.711186e-07	9.43621e-06	-0.05225425	0.0008716815	-8.05417e-07	4.91219e-07
	-4.641662e-06	-6.548891e-06	0.01358195	-0.002608276	-8.05417e-07	4.91219e-07	-0.05108779	0.004965123
4.5e+08	-0.05191474	0.003152189	-8.646466e-07	5.380335e-07	0.01237724	-0.004326418	-5.302654e-06	-6.269007e-06
	-8.646466e-07	5.380335e-07	-0.05069224	0.006917277	1.02061e-06	9.661078e-06	0.01289907	-0.002922699
	0.01237724	-0.004326418	1.02061e-06	9.661078e-06	-0.05220215	0.003306795	-9.278184e-07	6.010789e-07
	-5.302654e-06	-6.269007e-06	0.01289907	-0.002922699	-9.278184e-07	6.010789e-07	-0.05084921	0.007406749
4.6e+08	-0.0516816	0.005551152	-9.727393e-07	6.507724e-07	0.01159227	-0.00457084	-5.949892e-06	-5.925823e-06
	-9.727393e-07	6.507724e-07	-0.05028876	0.009308731	1.072989e-06	9.885077e-06	0.01217866	-0.003172561
	0.01159227	-0.00457084	1.072989e-06	9.885077e-06	-0.05196745	0.005725476	-1.045686e-06	7.239127e-07
	-5.949892e-06	-5.925823e-06	0.01217866	-0.003172561	-1.045686e-06	7.239127e-07	-0.05042879	0.009815643
4.7e+08	-0.05126921	0.007919282	-1.075449e-06	7.751471e-07	0.01077659	-0.004741779	-6.577379e-06	-5.519835e-06
	-1.075449e-06	7.751471e-07	-0.04970798	0.01165434	1.12822e-06	1.010798e-05	0.01142661	-0.003354576
	0.01077659	-0.004741779	1.12822e-06	1.010798e-05	-0.05155207	0.008113421	-1.157745e-06	8.594543e-07
	-6.577379e-06	-5.519835e-06	0.01142661	-0.003354576	-1.157745e-06	8.594543e-07	-0.04982995	0.0121774
4.8e+08	-0.05068064	0.01024261	-1.171621e-06	9.10794e-07	0.009936887	-0.00483651	-7.17911e-06	-5.052104e-06
	-1.171621e-06	9.10794e-07	-0.04895437	0.01394017	1.186244e-06	1.032957e-05	0.01064908	-0.003465986
