!$
! Info: Touchstone file created by Circ.  Input file=Tx_4in_Rx_85ohms_TxVia_60mils_RxVia_70mils.circ
!$
# Hz S RI R 50
0	0.003365406	8.391737e-26	3.099984e-08	1.298448e-26	4.511421e-05	7.253512e-24	6.59382e-08	3.111878e-27
	3.099984e-08	1.298428e-26	0.003360763	8.539907e-26	6.362763e-08	4.183653e-26	4.183211e-05	8.083077e-24
	4.633506e-05	7.047695e-24	6.362764e-08	4.183524e-26	0.003376328	8.326631e-26	2.421521e-08	1.728088e-26
	6.593822e-08	3.112269e-27	4.210206e-05	8.117739e-24	2.421551e-08	1.728648e-26	0.003375352	8.499668e-26
1e+07	0.00458419	-0.003329687	4.66872e-08	9.844648e-08	0.0001145669	0.0009507535	1.066919e-07	2.860309e-07
	4.66872e-08	9.844649e-08	0.00457957	-0.003329509	8.114471e-08	2.946017e-07	0.0001130542	0.0009510927
	0.0001146364	0.000950721	8.114471e-08	2.946017e-07	0.004586435	-0.00332098	3.319523e-08	1.337685e-07
	1.066919e-07	2.860309e-07	0.0001130564	0.0009510903	3.319523e-08	1.337685e-07	0.004581483	-0.003320704
2e+07	0.005348484	-0.00779641	7.074916e-08	1.773818e-07	0.0002621115	0.001865818	2.080838e-07	4.835298e-07
	7.074917e-08	1.773818e-07	0.005329757	-0.007795449	1.22827e-07	5.109719e-07	0.0002560106	0.001866984
	0.0002620965	0.001865781	1.22827e-07	5.109719e-07	0.005355208	-0.007775928	7.167134e-08	1.988342e-07
	2.080838e-07	4.835298e-07	0.0002560072	0.001866985	7.167133e-08	1.988342e-07	0.005335101	-0.007774795
3e+07	0.005341895	-0.01278971	9.796452e-08	2.507836e-07	0.0004848396	0.002755244	3.315536e-07	6.646006e-07
	9.796452e-08	2.507836e-07	0.005299942	-0.01278518	1.482893e-07	7.293471e-07	0.0004712948	0.002758104
	0.0004848358	0.002755244	1.482893e-07	7.293471e-07	0.005352317	-0.01276095	1.069489e-07	2.763303e-07
	3.315536e-07	6.646006e-07	0.0004712945	0.002758106	1.069489e-07	2.763303e-07	0.005307359	-0.01275584
4e+07	0.004718072	-0.0179119	1.288179e-07	3.192103e-07	0.0007819174	0.003615179	4.773445e-07	8.282178e-07
	1.288179e-07	3.192103e-07	0.004643791	-0.01790046	1.648504e-07	9.481254e-07	0.0007581615	0.003620987
	0.0007819228	0.003615178	1.648504e-07	9.481254e-07	0.004732055	-0.01787619	1.417232e-07	3.510369e-07
	4.773445e-07	8.282178e-07	0.0007581622	0.003620988	1.417232e-07	3.510369e-07	0.004652506	-0.0178636
5e+07	0.003538725	-0.02304011	1.635922e-07	3.828011e-07	0.001150574	0.004439563	6.470662e-07	9.717467e-07
	1.635922e-07	3.828011e-07	0.003423409	-0.02301655	1.75471e-07	1.166051e-06	0.001114056	0.004449955
	0.001150577	0.004439562	1.75471e-07	1.166051e-06	0.003555936	-0.02299841	1.796524e-07	4.211122e-07
	6.470662e-07	9.717467e-07	0.001114057	0.004449955	1.796524e-07	4.211122e-07	0.003432414	-0.0229727
6e+07	0.001841951	-0.02809741	2.020311e-07	4.41267e-07	0.001587088	0.005222326	8.397705e-07	1.090815e-06
	2.020311e-07	4.41267e-07	0.001678048	-0.02805541	1.81825e-07	1.383586e-06	0.001535497	0.005239249
	0.001587087	0.005222328	1.81825e-07	1.383586e-06	0.001862012	-0.0280504	2.213486e-07	4.858007e-07
	8.397705e-07	1.090815e-06	0.001535499	0.005239249	2.213486e-07	4.858007e-07	0.001686495	-0.02800474
7e+07	-0.0003423309	-0.03302504	2.436582e-07	4.942308e-07	0.00208713	0.005957649	1.0529e-06	1.181399e-06
	2.436582e-07	4.942308e-07	-0.0005615126	-0.03295766	1.850585e-07	1.601226e-06	0.00201841	0.005983337
	0.002087128	0.005957655	1.850585e-07	1.601226e-06	-0.0003198089	-0.03297329	2.665983e-07	5.444914e-07
	1.0529e-06	1.181399e-06	0.002018412	0.005983337	2.665983e-07	5.444914e-07	-0.000554417	-0.03290025
8e+07	-0.002986963	-0.03777372	2.878328e-07	5.413378e-07	0.002645825	0.006640089	1.282863e-06	1.240153e-06
	2.878327e-07	5.413378e-07	-0.003267497	-0.03767329	1.860241e-07	1.819278e-06	0.002558199	0.006677037
	0.002645824	0.006640096	1.860241e-07	1.819278e-06	-0.002962425	-0.03771774	3.148648e-07	5.966378e-07
	1.282863e-06	1.240153e-06	0.002558201	0.006677037	3.148648e-07	5.966378e-07	-0.003262627	-0.03760915
9e+07	-0.006065137	-0.04230027	3.338009e-07	5.823232e-07	0.003257816	0.007264783	1.525387e-06	1.264469e-06
	3.338008e-07	5.823232e-07	-0.006412425	-0.04215826	1.853873e-07	2.037912e-06	0.00314981	0.007315722
	0.003257817	0.007264789	1.853873e-07	2.037912e-06	-0.006039108	-0.04224051	3.654276e-07	6.417733e-07
	1.525387e-06	1.264469e-06	0.003149811	0.007315721	3.654276e-07	6.417733e-07	-0.006410746	-0.04208724
1e+08	-0.00954979	-0.04656747	3.807477e-07	6.17042e-07	0.003917795	0.007828624	1.775759e-06	1.252506e-06
	3.807477e-07	6.17042e-07	-0.009968357	-0.04637442	1.836919e-07	2.257215e-06	0.003788265	0.007896485
	0.003917796	0.007828624	1.836919e-07	2.257215e-06	-0.009522929	-0.04650441	4.174469e-07	6.795352e-07
	1.775759e-06	1.252506e-06	0.003788265	0.007896485	4.174469e-07	6.795352e-07	-0.009970922	-0.04629624
1.1e+08	-0.01341656	-0.05053366	4.285625e-07	6.455866e-07	0.004623902	0.008322679	2.032545e-06	1.208714e-06
	4.285625e-07	6.455866e-07	-0.01390873	-0.05027971	1.786735e-07	2.47988e-06	0.004472052	0.008410527
	0.004623901	0.008322679	1.786735e-07	2.47988e-06	-0.01338996	-0.05046706	4.698405e-07	7.111946e-07
	2.032545e-06	1.208714e-06	0.00447205	0.008410527	4.698405e-07	7.111946e-07	-0.01391662	-0.05019344
1.2e+08	-0.0176256	-0.0541674	4.762392e-07	6.677393e-07	0.005362184	0.008743355	2.29046e-06	1.128977e-06
	4.762392e-07	6.677393e-07	-0.01819321	-0.05384215	1.722759e-07	2.705047e-06	0.005187564	0.008854408
	0.005362184	0.008743355	1.722759e-07	2.705047e-06	-0.01759965	-0.05409698	5.220967e-07	7.358757e-07
	2.29046e-06	1.128977e-06	0.005187562	0.008854409	5.220967e-07	7.358757e-07	-0.01820692	-0.05374677
1.3e+08	-0.02214508	-0.05744293	5.230536e-07	6.834941e-07	0.006126191	0.009089849	2.54528e-06	1.012976e-06
	5.230536e-07	6.834941e-07	-0.02278869	-0.05703568	1.648777e-07	2.933024e-06	0.005928736	0.009227418
	0.006126191	0.00908985	1.648777e-07	2.933024e-06	-0.02212021	-0.05736847	5.73421e-07	7.535714e-07
	2.54528e-06	1.012976e-06	0.005928734	0.009227419	5.73421e-07	7.535714e-07	-0.02280866	-0.05693021
1.4e+08	-0.02694115	-0.06033614	5.682686e-07	6.929206e-07	0.006908844	0.009360692	2.792742e-06	8.608398e-07
	5.682686e-07	6.929206e-07	-0.02766007	-0.05983603	1.568799e-07	3.16408e-06	0.006688878	0.009528137
	0.006908844	0.009360692	1.568799e-07	3.16408e-06	-0.02691779	-0.06025738	6.230068e-07	7.643589e-07
	2.792742e-06	8.608398e-07	0.006688877	0.009528138	6.230068e-07	7.643588e-07	-0.02768663	-0.05971946
1.5e+08	-0.0319786	-0.06282593	6.111455e-07	6.961661e-07	0.007702883	0.00955491	3.028589e-06	6.73149e-07
	6.111455e-07	6.961661e-07	-0.03277086	-0.06222207	1.487045e-07	3.398438e-06	0.007461127	0.009755603
	0.007702883	0.00955491	1.487045e-07	3.398438e-06	-0.03195712	-0.06274257	6.700478e-07	7.684017e-07
	3.028589e-06	6.73149e-07	0.007461126	0.009755604	6.700478e-07	7.684016e-07	-0.03280421	-0.06209332
1.6e+08	-0.03722104	-0.06489444	6.509543e-07	6.934571e-07	0.008500983	0.009672164	3.248622e-06	4.509412e-07
	6.509543e-07	6.934571e-07	-0.03808341	-0.06417604	1.407927e-07	3.636281e-06	0.008238554	0.009909442
	0.008500983	0.009672164	1.407927e-07	3.636281e-06	-0.03720178	-0.0648061	7.137481e-07	7.659502e-07
	3.248622e-06	4.509412e-07	0.008238554	0.009909442	7.137481e-07	7.659502e-07	-0.03812361	-0.06403398
1.7e+08	-0.04263116	-0.06652707	6.869821e-07	6.851005e-07	0.009295832	0.009712779	3.448746e-06	1.957044e-07
	6.869821e-07	6.851005e-07	-0.04355916	-0.06568357	1.336034e-07	3.877744e-06	0.009014245	0.009989904
	0.009295832	0.009712779	1.336034e-07	3.877744e-06	-0.04261441	-0.06643335	7.533323e-07	7.573418e-07
	3.448746e-06	1.957044e-07	0.009014245	0.009989904	7.533323e-07	7.573418e-07	-0.04360613	-0.06552704
1.8e+08	-0.04817098	-0.06771253	7.185438e-07	6.714818e-07	0.01008021	0.009677757	3.625017e-06	-9.06338e-08
	7.185438e-07	6.714818e-07	-0.04915887	-0.0667337	1.2761e-07	4.12291e-06	0.009781372	0.00999787
	0.01008022	0.009677757	1.2761e-07	4.12291e-06	-0.04815698	-0.06761297	7.880562e-07	7.429994e-07
	3.625017e-06	-9.06338e-08	0.009781372	0.00999787	7.880562e-07	7.429994e-07	-0.0492124	-0.06656154
1.9e+08	-0.05380209	-0.0684428	7.449908e-07	6.530636e-07	0.01084708	0.009568757	3.773692e-06	-4.057231e-07
	7.449908e-07	6.530636e-07	-0.05484292	-0.06731892	1.232965e-07	4.371815e-06	0.01053326	0.009934842
	0.01084708	0.009568757	1.232965e-07	4.371815e-06	-0.05379101	-0.0683369	8.17216e-07	7.234288e-07
	3.773692e-06	-4.057231e-07	0.01053326	0.009934842	8.17216e-07	7.234288e-07	-0.05490265	-0.06712996
2e+08	-0.05948588	-0.06871316	7.657198e-07	6.303815e-07	0.01158958	0.009388083	3.891271e-06	-7.468123e-07
	7.657198e-07	6.303815e-07	-0.06057156	-0.06743512	1.211536e-07	4.624439e-06	0.01126344	0.009802919
	0.01158958	0.009388083	1.211536e-07	4.624439e-06	-0.05947784	-0.06860038	8.401582e-07	6.992148e-07
	3.891271e-06	-7.468123e-07	0.01126344	0.009802919	8.401582e-07	6.992148e-07	-0.06063698	-0.06722821
2.1e+08	-0.06518383	-0.0685221	7.801816e-07	6.040399e-07	0.0123012	0.009138648	3.974536e-06	-1.110776e-06
	7.801816e-07	6.040399e-07	-0.06630516	-0.06708153	1.216738e-07	4.880709e-06	0.01196571	0.009604772
	0.0123012	0.009138648	1.216738e-07	4.880709e-06	-0.06517887	-0.0684019	8.562884e-07	6.710158e-07
	3.974536e-06	-1.110776e-06	0.01196571	0.009604772	8.562884e-07	6.710158e-07	-0.0663756	-0.06685557
2.2e+08	-0.07085771	-0.0678713	7.878889e-07	5.747062e-07	0.01297572	0.008823939	4.020592e-06	-1.494143e-06
	7.878889e-07	5.747062e-07	-0.07200445	-0.06626072	1.253462e-07	5.140495e-06	0.0126342	0.009343612
	0.01297572	0.008823939	1.253462e-07	5.140495e-06	-0.0708558	-0.06774312	8.650798e-07	6.395579e-07
	4.020592e-06	-1.494143e-06	0.0126342	0.009343612	8.650798e-07	6.395579e-07	-0.07207913	-0.06601465
2.3e+08	-0.07646983	-0.06676557	7.884233e-07	5.431046e-07	0.01360734	0.008447982	4.026897e-06	-1.893136e-06
	7.884233e-07	5.431046e-07	-0.07763083	-0.06497843	1.326509e-07	5.403614e-06	0.01326338	0.009023145
	0.01360734	0.008447982	1.326509e-07	5.403614e-06	-0.07647087	-0.06662882	8.660801e-07	6.056277e-07
	4.026897e-06	-1.893136e-06	0.01326338	0.009023145	8.660801e-07	6.056277e-07	-0.0777088	-0.06471126
2.4e+08	-0.08198328	-0.06521271	7.814414e-07	5.100081e-07	0.01419067	0.008015288	3.991297e-06	-2.303702e-06
	7.814414e-07	5.100081e-07	-0.08314653	-0.06324357	1.440529e-07	5.669823e-06	0.01384814	0.008647538
	0.01419067	0.008015288	1.440529e-07	5.669823e-06	-0.08198711	-0.06506683	8.589192e-07	5.700644e-07
	3.991297e-06	-2.303702e-06	0.01384814	0.008647538	8.589192e-07	5.700644e-07	-0.08322673	-0.0629544
2.5e+08	-0.08736214	-0.06322346	7.666807e-07	4.762315e-07	0.01472081	0.007530815	3.912046e-06	-2.721556e-06
	7.666807e-07	4.762315e-07	-0.0885149	-0.06106803	1.599962e-07	5.938828e-06	0.01438379	0.00822137
	0.01472081	0.007530815	1.599962e-07	5.938828e-06	-0.08736853	-0.0630679	8.433139e-07	5.337513e-07
	3.912046e-06	-2.721556e-06	0.01438379	0.00822137	8.433139e-07	5.337513e-07	-0.08859616	-0.06075606
2.6e+08	-0.09257171	-0.06081138	7.439642e-07	4.426218e-07	0.01519337	0.006999909	3.78783e-06	-3.142223e-06
	7.439642e-07	4.426218e-07	-0.09370061	-0.05846662	1.808971e-07	6.210276e-06	0.01486613	0.007749587
	0.01519337	0.006999909	1.808971e-07	6.210276e-06	-0.09258034	-0.06064558	8.190734e-07	4.976061e-07
	3.78783e-06	-3.142223e-06	0.01486613	0.007749587	8.190734e-07	4.976061e-07	-0.09378166	-0.05813115
2.7e+08	-0.09757866	-0.05799268	7.132033e-07	4.1005e-07	0.01560447	0.00642826	3.617787e-06	-3.561076e-06
	7.132033e-07	4.1005e-07	-0.09866987	-0.05545688	2.071381e-07	6.483768e-06	0.01529143	0.007237451
	0.01560447	0.00642826	2.071381e-07	6.483768e-06	-0.09758918	-0.05781612	7.861025e-07	4.625718e-07
	3.617787e-06	-3.561076e-06	0.01529143	0.007237451	7.861025e-07	4.625718e-07	-0.09874931	-0.05509733
2.8e+08	-0.1023513	-0.05478613	6.744013e-07	3.794012e-07	0.0159508	0.005821843	3.401514e-06	-3.973389e-06
	6.744013e-07	3.794012e-07	-0.1033906	-0.05205892	2.390618e-07	6.758854e-06	0.01565648	0.006690497
	0.0159508	0.005821843	2.390618e-07	6.758854e-06	-0.1023633	-0.05459832	7.444047e-07	4.296061e-07
	3.401514e-06	-3.973389e-06	0.01565648	0.006690497	7.444047e-07	4.296061e-07	-0.103467	-0.05167487
2.9e+08	-0.1068597	-0.05121285	6.276543e-07	3.515652e-07	0.0162296	0.005186869	3.139079e-06	-4.374372e-06
	6.276543e-07	3.515652e-07	-0.1078326	-0.04829532	2.769646e-07	7.035038e-06	0.0159586	0.006114479
	0.0162296	0.005186869	2.769646e-07	7.035038e-06	-0.1068726	-0.05101335	6.940833e-07	3.996718e-07
	3.139079e-06	-4.374372e-06	0.0159586	0.006114479	6.940833e-07	3.996718e-07	-0.1079044	-0.04788646
3e+08	-0.1110758	-0.04729622	5.731519e-07	3.274268e-07	0.01643872	0.004529731	2.831028e-06	-4.759223e-06
	5.731519e-07	3.274268e-07	-0.1119679	-0.04419087	3.210915e-07	7.311787e-06	0.01619563	0.005515325
	0.01643872	0.004529731	3.210915e-07	7.311787e-06	-0.1110891	-0.0470846	6.353423e-07	3.737258e-07
	2.831028e-06	-4.759223e-06	0.01619563	0.005515325	6.353423e-07	3.737258e-07	-0.1120334	-0.04375706
3.1e+08	-0.1149736	-0.04306163	5.111762e-07	3.078563e-07	0.01657657	0.003856951	2.478379e-06	-5.123173e-06
	5.111762e-07	3.078563e-07	-0.1157704	-0.03977243	3.716307e-07	7.588534e-06	0.01636594	0.004899087
	0.01657657	0.003856951	3.716307e-07	7.588534e-06	-0.1149867	-0.04283754	5.684855e-07	3.527089e-07
	2.478379e-06	-5.123173e-06	0.01636594	0.004899087	5.684855e-07	3.527089e-07	-0.1158281	-0.03931369
3.2e+08	-0.1185296	-0.03853635	4.421008e-07	2.936997e-07	0.01664216	0.003175129	2.082622e-06	-5.461524e-06
	4.421008e-07	2.936997e-07	-0.1192168	-0.03506874	4.287092e-07	7.864683e-06	0.01646848	0.004271895
	0.01664216	0.003175129	4.287092e-07	7.864683e-06	-0.1185418	-0.03829948	4.939148e-07	3.375361e-07
	2.082622e-06	-5.461524e-06	0.01646848	0.004271895	4.939148e-07	3.375361e-07	-0.119265	-0.03458524
3.3e+08	-0.1217222	-0.03374933	3.663902e-07	2.857681e-07	0.01663508	0.002490892	1.645713e-06	-5.769701e-06
	3.663902e-07	2.857681e-07	-0.1222859	-0.03011021	4.923898e-07	8.139616e-06	0.01650269	0.003639913
	0.01663508	0.002490892	4.923898e-07	8.139616e-06	-0.1217328	-0.03349943	4.121276e-07	3.29086e-07
	1.645713e-06	-5.769701e-06	0.01650269	0.003639913	4.121276e-07	3.29086e-07	-0.122323	-0.02960229
3.4e+08	-0.1245325	-0.02873099	2.845931e-07	2.848302e-07	0.01655549	0.001810849	1.170059e-06	-6.043291e-06
	2.845931e-07	2.848302e-07	-0.1249592	-0.02492868	5.626668e-07	8.412703e-06	0.01646857	0.003009295
	0.01655549	0.001810849	5.626668e-07	8.412703e-06	-0.1245408	-0.02846789	3.237115e-07	3.28193e-07
	1.170059e-06	-6.043291e-06	0.01646857	0.003009295	3.237115e-07	3.28193e-07	-0.1249835	-0.02439686
3.5e+08	-0.126944	-0.02351305	1.97339e-07	2.916033e-07	0.01640414	0.001141539	6.585061e-07	-6.278082e-06
	1.97339e-07	2.916033e-07	-0.1272211	-0.01955728	6.394654e-07	8.683308e-06	0.01636664	0.00238614
	0.01640414	0.001141539	6.394654e-07	8.683308e-06	-0.1269493	-0.02323663	2.293445e-07	3.356341e-07
	6.585061e-07	-6.278082e-06	0.01636664	0.00238614	2.293445e-07	3.356341e-07	-0.127231	-0.01900222
3.6e+08	-0.1289429	-0.01812833	1.053334e-07	3.067449e-07	0.01618233	0.0004893916	1.143179e-07	-6.470109e-06
	1.053334e-07	3.067449e-07	-0.1290583	-0.01403014	7.226395e-07	8.950795e-06	0.01619792	0.001776456
	0.01618233	0.0004893916	7.226395e-07	8.950795e-06	-0.1289445	-0.01783855	1.297848e-07	3.521237e-07
	1.143179e-07	-6.470109e-06	0.01619792	0.001776456	1.297848e-07	3.521237e-07	-0.1290522	-0.0134527
3.7e+08	-0.1305181	-0.01261051	9.351401e-09	3.308453e-07	0.01589189	-0.0001393207	-4.588426e-07	-6.615688e-06
	9.351401e-09	3.308453e-07	-0.1304606	-0.008382243	8.119724e-07	9.214541e-06	0.01596395	0.00118612
	0.01589189	-0.0001393206	8.119724e-07	9.214541e-06	-0.130515	-0.0123074	2.58656e-08	3.783046e-07
	-4.588426e-07	-6.615688e-06	0.01596395	0.00118612	2.58656e-08	3.783046e-07	-0.130437	-0.007783403
3.8e+08	-0.1316609	-0.006993958	-8.976904e-08	3.644207e-07	0.01553519	-0.00073852	-1.056939e-06	-6.711453e-06
	-8.976904e-08	3.644207e-07	-0.1314206	-0.002649141	9.07177e-07	9.473939e-06	0.01566674	0.0006208386
	0.01553519	-0.00073852	9.07177e-07	9.473939e-06	-0.1316524	-0.006677622	-8.151182e-08	4.14741e-07
	-1.056939e-06	-6.711453e-06	0.01566674	0.0006208387	-8.151182e-08	4.14741e-07	-0.131378	-0.00203007
3.9e+08	-0.1323658	-0.001313513	-1.911342e-07	4.07907e-07	0.01511509	-0.001302364	-1.675591e-06	-6.754393e-06
	-1.911342e-07	4.07907e-07	-0.1319336	0.003133215	1.007898e-06	9.728411e-06	0.01530875	8.611894e-05
	0.01511509	-0.001302364	1.007898e-06	9.728411e-06	-0.132351	-0.0009841398	-1.913857e-07	4.619113e-07
	-1.675591e-06	-6.754393e-06	0.01530875	8.611895e-05	-1.913857e-07	4.619113e-07	-0.1318707	0.003771205
4e+08	-0.1326295	0.004395716	-2.938029e-07	4.616547e-07	0.01463495	-0.001825281	-2.310101e-06	-6.74188e-06
	-2.938029e-07	4.616547e-07	-0.131998	0.00892871	1.113717e-06	9.977411e-06	0.01489291	-0.00041277
	0.01463495	-0.001825281	1.113717e-06	9.977411e-06	-0.1326077	0.004737865	-3.027422e-07	5.202028e-07
	-2.310101e-06	-6.74188e-06	0.01489291	-0.00041277	-3.027422e-07	5.202028e-07	-0.1319135	0.009584165
4.1e+08	-0.1324519	0.01009857	-3.967944e-07	5.259236e-07	0.01409857	-0.002302007	-2.955488e-06	-6.671701e-06
	-3.967944e-07	5.259236e-07	-0.1316147	0.01470129	1.22415e-06	1.022044e-05	0.01442256	-0.0008708263
	0.01409857	-0.002302007	1.22415e-06	1.022044e-05	-0.1324223	0.01045315	-4.145241e-07	5.899066e-07
	-2.955488e-06	-6.671701e-06	0.01442256	-0.0008708262	-4.145241e-07	5.899066e-07	-0.1315076	0.01537262
4.2e+08	-0.1318355	0.01576003	-4.990976e-07	6.008801e-07	0.01351017	-0.002727617	-3.606528e-06	-6.542086e-06
	-4.990976e-07	6.008801e-07	-0.1307879	0.02041517	1.338662e-06	1.045703e-05	0.01390146	-0.001283345
	0.01351017	-0.002727617	1.338662e-06	1.045703e-05	-0.1317973	0.01612663	-5.256402e-07	6.712132e-07
	-3.606528e-06	-6.542086e-06	0.01390146	-0.001283345	-5.256402e-07	6.712132e-07	-0.130657	0.02110066
4.3e+08	-0.1307855	0.02134543	-5.996801e-07	6.865934e-07	0.0128744	-0.003097559	-4.257783e-06	-6.351728e-06
	-5.996801e-07	6.865934e-07	-0.1295242	0.02603503	1.456663e-06	1.068681e-05	0.01333371	-0.001645947
	0.0128744	-0.003097559	1.456663e-06	1.068681e-05	-0.1307379	0.02172354	-6.349745e-07	7.642097e-07
	-4.257783e-06	-6.351728e-06	0.01333371	-0.001645947	-6.349745e-07	7.642097e-07	-0.1293688	0.02673285
4.4e+08	-0.1293097	0.02682064	-6.974971e-07	7.830343e-07	0.01219627	-0.003407678	-4.903648e-06	-6.09981e-06
	-6.974971e-07	7.830343e-07	-0.1278331	0.03152626	1.577522e-06	1.090942e-05	0.01272382	-0.001954606
	0.01219627	-0.003407678	1.577522e-06	1.090942e-05	-0.129252	0.02720971	-7.413964e-07	8.688773e-07
	-4.903648e-06	-6.09981e-06	0.01272382	-0.001954606	-7.413964e-07	8.688773e-07	-0.1276525	0.03223449
4.5e+08	-0.1274187	0.0321523	-7.915008e-07	8.900734e-07	0.01148114	-0.003654251	-5.538387e-06	-5.786021e-06
	-7.915008e-07	8.900734e-07	-0.1257269	0.03685512	1.700568e-06	1.112459e-05	0.01207657	-0.002205675
	0.01148114	-0.003654251	1.700568e-06	1.112459e-05	-0.1273502	0.03255167	-8.437702e-07	9.850896e-07
	-5.538387e-06	-5.786021e-06	0.01207657	-0.002205675	-8.437702e-07	9.850896e-07	-0.1255206	0.03757175
4.6e+08	-0.1251255	0.03730796	-8.806503e-07	1.007481e-06	0.01073466	-0.003834006	-6.156182e-06	-5.410567e-06
	-8.806503e-07	1.007481e-06	-0.1232203	0.041989	1.825101e-06	1.133213e-05	0.01139707	-0.002395908
	0.01073466	-0.003834006	1.825101e-06	1.133213e-05	-0.1250456	0.03771693	-9.409651e-07	1.112613e-06
	-6.156182e-06	-5.410567e-06	0.01139707	-0.002395908	-9.409651e-07	1.112613e-06	-0.122988	0.04271194
4.7e+08	-0.1224456	0.04225633	-9.639202e-07	1.13493e-06	0.009962766	-0.003944151	-6.751174e-06	-4.974191e-06
	-9.639202e-07	1.13493e-06	-0.1203307	0.04689653	1.950403e-06	1.15319e-05	0.0106907	-0.002522485
	0.009962766	-0.003944151	1.950403e-06	1.15319e-05	-0.1223539	0.04267412	-1.031865e-06	1.251105e-06
	-6.751174e-06	-4.974191e-06	0.0106907	-0.002522485	-1.031865e-06	1.251105e-06	-0.1200722	0.04762367
4.8e+08	-0.1193971	0.04696741	-1.04031e-06	1.271991e-06	0.009171643	-0.003982391	-7.31751e-06	-4.478174e-06
	-1.04031e-06	1.271991e-06	-0.1170778	0.05154786	2.075737e-06	1.172385e-05	0.009963057	-0.002583034
	0.009171643	-0.003982391	2.075737e-06	1.172385e-05	-0.1192929	0.04739319	-1.11538e-06	1.400119e-06
