!$
! Info: Touchstone file created by Circ.  Input file=Tx_4in_Rx_93ohms_TxVia_60mils_RxVia_70mils.circ
!$
# Hz S RI R 50
0	0.003813732	7.455075e-26	-2.184697e-05	7.587496e-24	4.15317e-05	7.446415e-24	-2.188377e-05	1.215004e-23
	-2.184697e-05	7.587218e-24	0.003809049	8.517142e-26	-2.180981e-05	3.086173e-24	4.173622e-05	9.182342e-24
	4.251446e-05	7.576948e-24	-2.18098e-05	3.085691e-24	0.00382794	7.144522e-26	-2.184206e-05	7.092339e-24
	-2.188376e-05	1.214953e-23	4.200614e-05	9.221719e-24	-2.184206e-05	7.092587e-24	0.003823625	8.477009e-26
1e+07	0.005665842	0.0004008954	-0.0001064707	-3.275924e-05	0.0001107359	0.0008915814	-6.206564e-05	4.769484e-05
	-0.0001064707	-3.275924e-05	0.005592786	0.0001528138	-1.261484e-06	-3.473144e-06	0.0001119801	0.0009567613
	0.0001107451	0.000891549	-1.261485e-06	-3.473143e-06	0.005304125	0.0001831847	-6.104197e-06	-1.897804e-07
	-6.206564e-05	4.769484e-05	0.0001119823	0.0009567588	-6.104198e-06	-1.897815e-07	0.005495774	0.0001499189
2e+07	0.007041406	-0.0006357434	-0.0001103836	-6.853261e-06	0.0002621389	0.00180031	-7.95217e-05	5.154812e-05
	-0.0001103836	-6.853261e-06	0.006741265	-0.001020798	-1.617935e-06	-2.272966e-06	0.0002111362	0.00191714
	0.0002621124	0.001800309	-1.617934e-06	-2.272966e-06	0.006560896	-0.0008602464	-1.273727e-06	-1.123678e-05
	-7.95217e-05	5.154812e-05	0.0002111328	0.00191714	-1.273728e-06	-1.123678e-05	0.00666772	-0.0009869806
3e+07	0.00791532	-0.002276763	-0.0001131805	5.155711e-06	0.0004853732	0.002691099	-9.17258e-05	5.642674e-05
	-0.0001131805	5.155711e-06	0.007428919	-0.002685535	-3.757092e-06	-3.516745e-06	0.0004170534	0.002829488
	0.0004853707	0.002691104	-3.757092e-06	-3.516745e-06	0.007343541	-0.002489135	-6.977562e-06	-1.437478e-05
	-9.17258e-05	5.642674e-05	0.0004170531	0.00282949	-6.977562e-06	-1.437478e-05	0.007372962	-0.002641893
4e+07	0.008445923	-0.004149983	-0.0001150408	1.562512e-05	0.0007811483	0.003557679	-0.0001011918	6.005403e-05
	-0.0001150408	1.562512e-05	0.007793685	-0.004538125	-5.548203e-06	-3.757669e-06	0.0007168722	0.003706122
	0.0007811477	0.003557675	-5.548203e-06	-3.757669e-06	0.007799625	-0.004333727	-1.204957e-05	-1.552842e-05
	-0.0001011918	6.005403e-05	0.0007168729	0.003706122	-1.204957e-05	-1.552842e-05	0.007752082	-0.004491792
5e+07	0.008689986	-0.006151883	-0.0001162696	2.495372e-05	0.001147617	0.004393145	-0.0001089299	6.252834e-05
	-0.0001162696	2.495372e-05	0.007885833	-0.006487897	-7.081049e-06	-3.473289e-06	0.001083512	0.004546697
	0.001147615	0.004393143	-7.081049e-06	-3.473289e-06	0.007982006	-0.006294545	-1.666691e-05	-1.549347e-05
	-0.0001089299	6.252834e-05	0.001083513	0.004546697	-1.666691e-05	-1.549347e-05	0.007855736	-0.006442746
6e+07	0.008676404	-0.008225835	-0.0001189767	2.591725e-05	0.001581844	0.005191183	-0.0001155564	6.386929e-05
	-0.0001189767	2.591725e-05	0.007732459	-0.008483648	-8.414021e-06	-2.822249e-06	0.00151416	0.005346775
	0.001581846	0.005191187	-8.414021e-06	-2.822249e-06	0.007917946	-0.008317235	-2.090388e-05	-1.455486e-05
	-0.0001155564	6.386929e-05	0.001514161	0.005346776	-2.090388e-05	-1.455486e-05	0.007711423	-0.008442229
7e+07	0.008423021	-0.01033349	-0.0001217538	2.698646e-05	0.002080287	0.005946024	-0.0001215098	6.395068e-05
	-0.0001217538	2.698646e-05	0.007351066	-0.01048972	-9.543167e-06	-1.885432e-06	0.00200529	0.006101527
	0.002080296	0.00594603	-9.543168e-06	-1.885433e-06	0.007624657	-0.01036464	-2.477608e-05	-1.283297e-05
	-0.0001215098	6.395068e-05	0.002005292	0.006101526	-2.477608e-05	-1.283297e-05	0.007336788	-0.01045405
8e+07	0.007942494	-0.01244566	-0.0001246894	2.801964e-05	0.002638964	0.006652507	-0.0001272438	6.247781e-05
	-0.0001246894	2.801964e-05	0.006754938	-0.01247735	-1.046526e-05	-6.911554e-07	0.002552801	0.006806105
	0.002638978	0.00665251	-1.046526e-05	-6.911556e-07	0.007114885	-0.01240771	-2.825867e-05	-1.036036e-05
	-0.0001272438	6.247781e-05	0.002552803	0.006806105	-2.825867e-05	-1.036036e-05	0.006745016	-0.01244915
9e+07	0.00724469	-0.01453919	-0.0001279273	2.878368e-05	0.003253696	0.007306528	-0.0001333821	5.875647e-05
	-0.0001279273	2.878368e-05	0.0059563	-0.01442053	-1.11555e-05	7.791215e-07	0.003152051	0.007455833
	0.003253707	0.007306528	-1.11555e-05	7.791215e-07	0.006399658	-0.01442158	-3.127517e-05	-7.069432e-06
	-0.0001333821	5.875647e-05	0.003152052	0.007455833	-3.127516e-05	-7.069432e-06	0.005948098	-0.01440144
1e+08	0.006334314	-0.01660279	-0.0001320414	2.813966e-05	0.003922046	0.007909474	-0.0001418695	4.918044e-05
	-0.0001320414	2.813966e-05	0.004971887	-0.0162866	-1.147326e-05	2.774413e-06	0.003797925	0.008046191
	0.003922046	0.007909474	-1.147326e-05	2.774413e-06	0.005491014	-0.01638136	-3.34878e-05	-2.353882e-06
	-0.0001418695	4.918044e-05	0.003797925	0.008046191	-3.34878e-05	-2.353882e-06	0.004961909	-0.01627944
1.1e+08	0.00519029	-0.01857675	-0.0001321303	2.607415e-05	0.004611607	0.008456921	-0.000137459	3.390395e-05
	-0.0001321303	2.607415e-05	0.003848739	-0.01809996	-1.063799e-05	4.243926e-06	0.004483959	0.00857384
	0.004611607	0.008456921	-1.063799e-05	4.243926e-06	0.004410945	-0.01828163	-3.303217e-05	1.330604e-06
	-0.000137459	3.390395e-05	0.004483957	0.008573841	-3.303217e-05	1.330604e-06	0.003829024	-0.01810125
1.2e+08	0.003875739	-0.02044464	-0.0001316344	2.61672e-05	0.005335594	0.008925793	-0.000131309	2.403949e-05
	-0.0001316344	2.61672e-05	0.002540411	-0.01984287	-9.944889e-06	5.208698e-06	0.005205006	0.009035879
	0.005335593	0.008925793	-9.944889e-06	5.208698e-06	0.003151107	-0.0201054	-3.287841e-05	4.022157e-06
	-0.000131309	2.403949e-05	0.005205004	0.00903588	-3.287841e-05	4.022157e-06	0.002510832	-0.01984905
1.3e+08	0.002397429	-0.02220354	-0.0001310096	2.715209e-05	0.006090018	0.009320003	-0.0001250109	1.559616e-05
	-0.0001310096	2.715209e-05	0.00106335	-0.0214863	-9.290517e-06	5.976788e-06	0.00595497	0.009429351
	0.006090018	0.009320003	-9.290517e-06	5.976788e-06	0.001723889	-0.02183283	-3.276765e-05	6.449025e-06
	-0.0001250109	1.559616e-05	0.005954969	0.009429352	-3.276765e-05	6.449025e-06	0.00102323	-0.02149551
1.4e+08	0.0007660952	-0.02384226	-0.0001303018	2.87377e-05	0.006868492	0.009638697	-0.0001188942	7.667255e-06
	-0.0001303018	2.87377e-05	-0.0005692327	-0.02301305	-9.102107e-06	5.931544e-06	0.00672748	0.009752008
	0.006868492	0.009638696	-9.102107e-06	5.931544e-06	0.0001409779	-0.02344878	-3.263596e-05	8.769806e-06
	-0.0001188942	7.667255e-06	0.006727479	0.009752009	-3.263596e-05	8.769806e-06	-0.0006205876	-0.02302372
1.5e+08	-0.001006484	-0.02534947	-0.0001295045	3.077162e-05	0.007664193	0.009880823	-0.0001131476	-1.713526e-07
	-0.0001295045	3.077162e-05	-0.002344045	-0.02440885	-8.906306e-06	5.930805e-06	0.007515977	0.0100022
	0.007664193	0.009880823	-8.906306e-06	5.930805e-06	-0.001585524	-0.02493992	-3.243892e-05	1.104676e-05
	-0.0001131476	-1.713526e-07	0.007515976	0.0100022	-3.243892e-05	1.104676e-05	-0.002407271	-0.02441951
1.6e+08	-0.002907799	-0.02671454	-0.000128602	3.316047e-05	0.008470094	0.01004566	-0.000107915	-8.150307e-06
	-0.000128602	3.316047e-05	-0.004247374	-0.02566138	-8.699252e-06	5.968798e-06	0.008313773	0.01017887
	0.008470094	0.01004566	-8.699252e-06	5.968798e-06	-0.003442982	-0.02629438	-3.214599e-05	1.331146e-05
	-0.000107915	-8.150307e-06	0.008313773	0.01017887	-3.214599e-05	1.331146e-05	-0.004323016	-0.02567057
1.7e+08	-0.004924729	-0.02792783	-0.0001275745	3.583667e-05	0.009279066	0.01013297	-0.0001033215	-1.639735e-05
	-0.0001275745	3.583667e-05	-0.006265039	-0.02675995	-8.482693e-06	6.034046e-06	0.00911411	0.01028159
	0.009279066	0.01013297	-8.482693e-06	6.034046e-06	-0.005418238	-0.02750164	-3.173221e-05	1.55772e-05
	-0.0001033215	-1.639735e-05	0.00911411	0.0102816	-3.173221e-05	1.55772e-05	-0.006353533	-0.02676622
1.8e+08	-0.007043635	-0.0289808	-0.0001264018	3.874632e-05	0.01008396	0.01014311	-9.948147e-05	-2.497535e-05
	-0.0001264018	3.874632e-05	-0.008382414	-0.0276954	-8.257592e-06	6.118617e-06	0.009910219	0.01031054
	0.01008396	0.01014311	-8.257592e-06	6.118617e-06	-0.007497645	-0.02855248	-3.117673e-05	1.784581e-05
	-9.948147e-05	-2.497535e-05	0.009910219	0.01031054	-3.117673e-05	1.784581e-05	-0.008484071	-0.02769727
1.9e+08	-0.009250428	-0.02986606	-0.000125065	4.18433e-05	0.01087765	0.010077	-9.650047e-05	-3.390188e-05
	-0.000125065	4.18433e-05	-0.01058447	-0.02846	-8.024544e-06	6.216691e-06	0.01069538	0.01026651
	0.01087765	0.010077	-8.024544e-06	6.216691e-06	-0.009667132	-0.02943898	-3.046231e-05	2.011144e-05
	-9.650047e-05	-3.390188e-05	0.01069538	0.01026651	-3.046231e-05	2.011144e-05	-0.01069948	-0.02845599
2e+08	-0.01153066	-0.0305774	-0.0001235474	4.508607e-05	0.01165316	0.009936215	-9.447586e-05	-4.316037e-05
	-0.0001235474	4.508607e-05	-0.01285588	-0.02904741	-7.783948e-06	6.323821e-06	0.01146296	0.01015089
	0.01165316	0.009936215	-7.783948e-06	6.323821e-06	-0.01191226	-0.03015445	-2.957517e-05	2.236273e-05
	-9.447586e-05	-4.316037e-05	0.01146296	0.01015089	-2.957517e-05	2.236273e-05	-0.01298429	-0.02903605
2.1e+08	-0.01386979	-0.03110986	-0.0001218351	4.843595e-05	0.01241051	0.009715094	-9.349602e-05	-5.270758e-05
	-0.0001218351	4.843595e-05	-0.01518103	-0.02945271	-7.534885e-06	6.435682e-06	0.01220651	0.009965673
	0.01241051	0.009715094	-7.534885e-06	6.435682e-06	-0.01421851	-0.03069355	-2.849183e-05	2.458598e-05
	-9.349602e-05	-5.270758e-05	0.01220651	0.009965673	-2.849183e-05	2.458598e-05	-0.01532276	-0.0294325
2.2e+08	-0.01625296	-0.03145962	-0.0001199173	5.185631e-05	0.01314293	0.009414657	-9.363956e-05	-6.247797e-05
	-0.0001199173	5.185631e-05	-0.0175442	-0.02967232	-7.277583e-06	6.549145e-06	0.01291977	0.00971343
	0.01314293	0.009414657	-7.277583e-06	6.549145e-06	-0.01657101	-0.0310521	-2.720174e-05	2.676096e-05
	-9.363956e-05	-6.247797e-05	0.01291977	0.00971343	-2.720174e-05	2.676096e-05	-0.01769902	-0.0296418
2.3e+08	-0.01866481	-0.03162396	-0.0001177865	5.531216e-05	0.01383542	0.00904756	-9.497398e-05	-7.238735e-05
	-0.0001177865	5.531216e-05	-0.01992955	-0.02970399	-7.013906e-06	6.66271e-06	0.01359676	0.009397278
	0.01383542	0.00904756	-7.013906e-06	6.66271e-06	-0.01895441	-0.03122705	-2.571713e-05	2.886427e-05
	-9.497398e-05	-7.238735e-05	0.01359676	0.009397278	-2.571713e-05	2.886427e-05	-0.0200971	-0.02966172
2.4e+08	-0.02109022	-0.0316015	-0.0001154388	5.876972e-05	0.01448205	0.008617818	-9.755476e-05	-8.233661e-05
	-0.0001154388	5.876972e-05	-0.02232129	-0.02954683	-6.744249e-06	6.774329e-06	0.01423179	0.009020866
	0.01448205	0.008617818	-6.744249e-06	6.774329e-06	-0.02135357	-0.03121673	-2.403865e-05	3.087412e-05
	-9.755476e-05	-8.233661e-05	0.01423179	0.009020866	-2.403865e-05	3.087412e-05	-0.02250108	-0.0294914
2.5e+08	-0.02351407	-0.03139203	-0.0001128735	6.219655e-05	0.01507727	0.00812997	-0.0001014235	-9.221464e-05
	-0.0001128735	6.219655e-05	-0.02470372	-0.02920122	-6.469049e-06	6.882248e-06	0.01481956	0.008588336
	0.01507727	0.00812997	-6.469049e-06	6.882248e-06	-0.02375335	-0.03102065	-2.217055e-05	3.276816e-05
	-0.0001014235	-9.221464e-05	0.01481956	0.008588336	-2.217055e-05	3.276816e-05	-0.02489512	-0.02913128
2.6e+08	-0.02592139	-0.03099654	-0.0001100933	6.556152e-05	0.01561596	0.007589034	-0.0001066079	-0.0001019004
	-0.0001100933	6.556152e-05	-0.02706136	-0.02866884	-6.188798e-06	6.984915e-06	0.01535514	0.008104291
	0.01561596	0.007589034	-6.188798e-06	6.984915e-06	-0.02613874	-0.03063955	-2.012055e-05	3.452415e-05
	-0.0001066079	-0.0001019004	0.01535514	0.008104291	-2.012055e-05	3.452415e-05	-0.0272636	-0.0285831
2.7e+08	-0.02829739	-0.0304172	-0.0001071046	6.883523e-05	0.01609348	0.007000468	-0.00011312	-0.0001112661
	-0.0001071046	6.883523e-05	-0.02937898	-0.02795262	-5.904095e-06	7.081038e-06	0.01583406	0.007573755
	0.01609348	0.007000468	-5.904095e-06	7.081038e-06	-0.0284949	-0.03007536	-1.789972e-05	3.612044e-05
	-0.00011312	-0.0001112661	0.01583406	0.007573755	-1.789972e-05	3.612044e-05	-0.02959119	-0.02784984
2.8e+08	-0.03062757	-0.02965731	-0.0001039166	7.199016e-05	0.01650571	0.006370122	-0.000120957	-0.0001201783
	-0.0001039166	7.199016e-05	-0.03164175	-0.02705668	-5.615612e-06	7.169491e-06	0.01625231	0.007002131
	0.01650571	0.006370122	-5.615612e-06	7.169491e-06	-0.03080727	-0.02933116	-1.552229e-05	3.753657e-05
	-0.000120957	-0.0001201783	0.01625231	0.007002131	-1.552229e-05	3.753657e-05	-0.03186292	-0.02693573
2.9e+08	-0.03289781	-0.02872129	-0.0001005419	7.50008e-05	0.01684907	0.005704192	-0.0001300999	-0.000128501
	-0.0001005419	7.50008e-05	-0.03383529	-0.02598633	-5.324084e-06	7.249307e-06	0.01660641	0.006395158
	0.01684907	0.005704192	-5.324084e-06	7.249307e-06	-0.03306165	-0.02841116	-1.300541e-05	3.875368e-05
	-0.0001300999	-0.000128501	0.01660641	0.006395158	-1.300541e-05	3.875368e-05	-0.03406433	-0.02584615
3e+08	-0.03509442	-0.02761463	-9.699545e-05	7.78439e-05	0.01712055	0.005009173	-0.0001405133	-0.0001360979
	-9.699545e-05	7.78439e-05	-0.03594577	-0.02474799	-5.030302e-06	7.319682e-06	0.01689338	0.005758862
	0.01712055	0.005009173	-5.030302e-06	7.319682e-06	-0.03524427	-0.02732067	-1.03689e-05	3.975491e-05
	-0.0001405133	-0.0001360979	0.01689338	0.005758862	-1.03689e-05	3.975491e-05	-0.03618147	-0.02458763
3.1e+08	-0.03720423	-0.02634388	-9.329508e-05	8.049891e-05	0.01731774	0.004291797	-0.0001521467	-0.0001428336
	-9.329508e-05	8.049891e-05	-0.03795998	-0.02334914	-4.735127e-06	7.379976e-06	0.01711083	0.005099506
	0.01731774	0.004291797	-4.735127e-06	7.379976e-06	-0.03734187	-0.02606604	-7.634893e-06	4.052581e-05
	-0.0001521467	-0.0001428336	0.01711083	0.005099506	-7.634893e-06	4.052581e-05	-0.03820105	-0.02316777
3.2e+08	-0.03921467	-0.02491656	-8.946055e-05	8.294795e-05	0.01743887	0.00355899	-0.0001649332	-0.0001485764
	-8.946055e-05	8.294795e-05	-0.0398654	-0.02179831	-4.439456e-06	7.4297e-06	0.01725692	0.004423543
	0.01743887	0.00355899	-4.439456e-06	7.4297e-06	-0.03934177	-0.02465464	-4.827529e-06	4.10546e-05
	-0.0001649332	-0.0001485764	0.01725692	0.004423543	-4.827529e-06	4.10546e-05	-0.04011048	-0.02159521
3.3e+08	-0.04111381	-0.02334113	-8.551346e-05	8.517597e-05	0.01748277	0.002817808	-0.0001787909	-0.0001532011
	-8.551346e-05	8.517597e-05	-0.04165031	-0.02010495	-4.14421e-06	7.468515e-06	0.0173304	0.003737558
	0.01748277	0.002817808	-4.14421e-06	7.468515e-06	-0.04123194	-0.02309481	-1.972551e-06	4.133245e-05
	-0.0001787909	-0.0001532011	0.0173304	0.003737558	-1.972551e-06	4.133245e-05	-0.04189794	-0.01987951
3.4e+08	-0.04289049	-0.02162697	-8.147696e-05	8.717123e-05	0.01744894	0.002075381	-0.0001936239	-0.0001565882
	-8.147696e-05	8.717123e-05	-0.04330379	-0.01827939	-3.85034e-06	7.496245e-06	0.01733063	0.00304822
	0.01744894	0.002075381	-3.85034e-06	7.496245e-06	-0.04300109	-0.02139575	9.031418e-07	4.135369e-05
	-0.0001936239	-0.0001565882	0.01733063	0.00304822	9.031418e-07	4.135369e-05	-0.04355247	-0.01803115
3.5e+08	-0.04453432	-0.01978423	-7.737522e-05	8.892502e-05	0.0173375	0.001338858	-0.0002093221	-0.0001586286
	-7.737522e-05	8.892502e-05	-0.04481584	-0.01633279	-3.558784e-06	7.512855e-06	0.01725756	0.002362229
	0.0173375	0.001338858	-3.558784e-06	7.512855e-06	-0.0446387	-0.01956752	3.771871e-06	4.111592e-05
	-0.0002093221	-0.0001586286	0.01725756	0.002362229	3.771871e-06	4.111592e-05	-0.04506403	-0.01606142
3.6e+08	-0.04603574	-0.01782387	-7.323311e-05	9.043198e-05	0.01714922	0.0006153495	-0.0002257638	-0.0001592227
	-7.323311e-05	9.043198e-05	-0.0461774	-0.01427704	-3.27047e-06	7.518462e-06	0.01711174	0.001686258
	0.01714922	0.0006153495	-3.27047e-06	7.518462e-06	-0.04613509	-0.01762098	6.605658e-06	4.062013e-05
	-0.0002257638	-0.0001592227	0.01711174	0.001686258	6.605658e-06	4.062013e-05	-0.04642352	-0.01398235
3.7e+08	-0.04738612	-0.01575752	-6.907576e-05	9.168998e-05	0.01688551	-8.813075e-05	-0.0002428154	-0.0001582835
	-6.907576e-05	9.168998e-05	-0.04738043	-0.01212468	-2.986285e-06	7.513319e-06	0.01689431	0.001026907
	0.01688551	-8.813074e-05	-2.986285e-06	7.513319e-06	-0.04748148	-0.01556766	9.376637e-06	3.987071e-05
	-0.0002428154	-0.0001582835	0.01689431	0.001026907	9.376637e-06	3.987071e-05	-0.04762287	-0.01180662
3.8e+08	-0.04857776	-0.01359742	-6.492817e-05	9.270012e-05	0.01654841	-0.0007647202	-0.000260334	-0.0001557374
	-6.492817e-05	9.270012e-05	-0.04841793	-0.009888835	-2.70706e-06	7.497809e-06	0.01660701	0.0003906454
	0.01654841	-0.0007647202	-2.70706e-06	7.497809e-06	-0.04867003	-0.01341973	1.20575e-05	3.887539e-05
	-0.000260334	-0.0001557374	0.01660701	0.0003906454	1.20575e-05	3.887539e-05	-0.04865508	-0.009547501
3.9e+08	-0.04960397	-0.01135638	-6.08148e-05	9.346669e-05	0.01614056	-0.001407763	-0.0002781681	-0.0001515249
	-6.08148e-05	9.346669e-05	-0.04928399	-0.007583111	-2.433559e-06	7.472435e-06	0.01625214	-0.0002162357
	0.01614056	-0.001407763	-2.433559e-06	7.472435e-06	-0.04969391	-0.01118996	1.462194e-05	3.764521e-05
	-0.0002781681	-0.0001515249	0.01625214	-0.0002162357	1.462194e-05	3.764521e-05	-0.04951424	-0.007218748
4e+08	-0.05045905	-0.009047655	-5.675921e-05	9.399694e-05	0.01566519	-0.00201086	-0.0002961599	-0.0001456027
	-5.675921e-05	9.399694e-05	-0.04997381	-0.005221522	-2.166456e-06	7.437805e-06	0.01583254	-0.0007876727
	0.01566519	-0.00201086	-2.166456e-06	7.437805e-06	-0.05054728	-0.008891557	1.704506e-05	3.619431e-05
	-0.0002961599	-0.0001456027	0.01583254	-0.0007876727	1.704506e-05	3.619431e-05	-0.05019557	-0.004834517
4.1e+08	-0.0511384	-0.006684909	-5.278371e-05	9.430109e-05	0.0151261	-0.002567926	-0.0003141467	-0.000137943
	-5.278371e-05	9.430109e-05	-0.05048373	-0.002818387	-1.906326e-06	7.394621e-06	0.01535161	-0.001317878
	0.0151261	-0.002567926	-1.906326e-06	7.394621e-06	-0.05122538	-0.006538152	1.930373e-05	3.45398e-05
	-0.0003141467	-0.000137943	0.01535161	-0.001317878	1.930373e-05	3.45398e-05	-0.05069545	-0.002409273
4.2e+08	-0.05163847	-0.004282099	-4.890897e-05	9.4392e-05	0.0145276	-0.003073229	-0.0003319625	-0.0001285342
	-4.890897e-05	9.4392e-05	-0.05081127	-0.0003882566	-1.653633e-06	7.343659e-06	0.01481322	-0.001801383
	0.0145276	-0.003073229	-1.653633e-06	7.343659e-06	-0.05172454	-0.004143697	2.137702e-05	3.270147e-05
	-0.0003319625	-0.0001285342	0.01481322	-0.001801383	2.137702e-05	3.270147e-05	-0.05101142	4.229541e-05
4.3e+08	-0.05195683	-0.001853405	-4.515375e-05	9.428497e-05	0.01387453	-0.003521443	-0.0003494404	-0.0001173817
	-4.515375e-05	9.428497e-05	-0.0509551	0.002054199	-1.408718e-06	7.28575e-06	0.01422173	-0.002233083
	0.01387453	-0.003521443	-1.408718e-06	7.28575e-06	-0.05204217	-0.001722377	2.324646e-05	3.070152e-05
	-0.0003494404	-0.0001173817	0.01422173	-0.002233083	2.324646e-05	3.070152e-05	-0.05114223	0.002505377
4.4e+08	-0.05209217	0.0005868528	-4.153461e-05	9.399739e-05	0.01317217	-0.003907686	-0.0003664139	-0.0001045088
	-4.153461e-05	9.399739e-05	-0.05091508	0.004494263	-1.171794e-06	7.221758e-06	0.01358195	-0.002608276
	0.01317217	-0.003907686	-1.171794e-06	7.221758e-06	-0.05217682	0.0007114708	2.489635e-05	2.856424e-05
	-0.0003664139	-0.0001045088	0.01358195	-0.002608276	2.489635e-05	2.856424e-05	-0.05108779	0.004965123
4.5e+08	-0.05204427	0.003024304	-3.806585e-05	9.354915e-05	0.01242624	-0.004227563	-0.0003827337	-9.000205e-05
	-3.806585e-05	9.354915e-05	-0.05069224	0.006917277	-9.429325e-07	7.152552e-06	0.01289907	-0.002922699
	0.01242624	-0.004227563	-9.429325e-07	7.152552e-06	-0.05212816	0.003143443	2.631385e-05	2.631631e-05
	-0.0003827337	-9.000205e-05	0.01289907	-0.002922699	2.631385e-05	2.631631e-05	-0.05084921	0.007406749
4.6e+08	-0.05181409	0.005444635	-3.473829e-05	9.287112e-05	0.01164283	-0.004477196	-0.0003959938	-6.752669e-05
	-3.473829e-05	9.287112e-05	-0.05028876	0.009308731	-7.233269e-07	7.08021e-06	0.01217866	-0.003172561
	0.01164283	-0.004477196	-7.233269e-07	7.08021e-06	-0.05189699	0.005559158	2.750603e-05	2.389393e-05
	-0.0003959938	-6.752669e-05	0.01217866	-0.003172561	2.750603e-05	2.389393e-05	-0.05042879	0.009815643
4.7e+08	-0.05140363	0.007833607	-3.158949e-05	9.206339e-05	0.01082836	-0.004653262	-0.0004074917	-4.308572e-05
	-3.158949e-05	9.206339e-05	-0.04970798	0.01165434	-5.114866e-07	7.00474e-06	0.01142661	-0.003354576
