!$
! Info: Touchstone file created by Circ.  Input file=Tx_4in_Rx_93ohms_TxVia_60mils_RxVia_70mils.circ
!$
# Hz S RI R 50
0	0.003813304	7.319942e-26	-2.184621e-05	7.508074e-24	4.261638e-05	7.387142e-24	-2.180914e-05	2.991375e-24
	-2.184621e-05	7.508059e-24	0.003809049	8.517142e-26	-2.188262e-05	1.202518e-23	4.173622e-05	9.182342e-24
	4.174793e-05	7.354158e-24	-2.188263e-05	1.202539e-23	0.003827218	7.404055e-26	-2.184485e-05	7.421086e-24
	-2.180914e-05	2.991131e-24	4.200614e-05	9.221719e-24	-2.184485e-05	7.420648e-24	0.003823625	8.477009e-26
1e+07	0.00548389	0.000155058	-0.0001015747	-3.150282e-06	0.000113589	0.0009601213	-2.006529e-05	-4.090332e-06
	-0.0001015747	-3.150282e-06	0.005592786	0.0001528138	-5.510378e-05	2.261824e-05	0.0001119801	0.0009567613
	0.0001135735	0.0009601349	-5.510378e-05	2.261824e-05	0.005611281	0.0001559357	-0.0001015327	-2.228953e-06
	-2.006529e-05	-4.090332e-06	0.0001119823	0.0009567588	-0.0001015327	-2.228953e-06	0.005495774	0.0001499189
2e+07	0.006667887	-0.0009756547	-8.349166e-05	-2.573071e-05	0.0002156614	0.001922934	-7.927857e-06	-2.333497e-05
	-8.349166e-05	-2.573071e-05	0.006741265	-0.001020798	-5.541911e-05	1.006335e-05	0.0002111362	0.00191714
	0.0002156682	0.001922943	-5.541911e-05	1.006335e-05	0.006771999	-0.001016365	-8.282389e-05	-2.744937e-05
	-7.927857e-06	-2.333497e-05	0.0002111328	0.00191714	-8.282389e-05	-2.744937e-05	0.00666772	-0.0009869806
3e+07	0.007393061	-0.002627245	-7.082078e-05	-3.730166e-05	0.0004336947	0.002835252	-9.025025e-06	-2.873863e-05
	-7.082078e-05	-3.730166e-05	0.007428919	-0.002685535	-5.514573e-05	7.394736e-06	0.0004170534	0.002829488
	0.0004336957	0.002835252	-5.514573e-05	7.394735e-06	0.00747908	-0.00268234	-6.96342e-05	-3.936448e-05
	-9.025025e-06	-2.873863e-05	0.0004170531	0.00282949	-6.96342e-05	-3.936448e-05	0.007372962	-0.002641893
4e+07	0.007799927	-0.004476131	-6.079488e-05	-4.350279e-05	0.0007446586	0.003710592	-1.964121e-05	-2.916829e-05
	-6.079488e-05	-4.350279e-05	0.007793685	-0.004538125	-5.451553e-05	6.036926e-06	0.0007168722	0.003706122
	0.0007446573	0.003710593	-5.451553e-05	6.036926e-06	0.00787053	-0.004539087	-5.918622e-05	-4.579906e-05
	-1.964121e-05	-2.916829e-05	0.0007168729	0.003706122	-5.918622e-05	-4.579906e-05	0.007752082	-0.004491792
5e+07	0.007939237	-0.006430126	-5.241014e-05	-4.719705e-05	0.001124749	0.004548093	-2.8842e-05	-2.725255e-05
	-5.241014e-05	-4.719705e-05	0.007885833	-0.006487897	-5.357555e-05	4.922322e-06	0.001083512	0.004546697
	0.001124748	0.004548093	-5.357555e-05	4.922322e-06	0.007996278	-0.006497555	-5.043699e-05	-4.967011e-05
	-2.8842e-05	-2.725255e-05	0.001083513	0.004546697	-5.043699e-05	-4.967011e-05	0.007855736	-0.006442746
6e+07	0.007837442	-0.008437737	-4.510014e-05	-4.93373e-05	0.001570961	0.005343067	-3.683863e-05	-2.361379e-05
	-4.510014e-05	-4.93373e-05	0.007732459	-0.008483648	-5.238422e-05	3.632676e-06	0.00151416	0.005346775
	0.001570958	0.005343066	-5.238422e-05	3.632676e-06	0.007882316	-0.008507433	-4.279833e-05	-5.195037e-05
	-3.683863e-05	-2.361379e-05	0.001514161	0.005346776	-4.279833e-05	-5.195037e-05	0.007711423	-0.008442229
7e+07	0.007511527	-0.01046319	-3.847613e-05	-5.029924e-05	0.002079539	0.006090439	-4.370821e-05	-1.853667e-05
	-3.847613e-05	-5.029924e-05	0.007351066	-0.01048972	-5.102779e-05	1.90271e-06	0.00200529	0.006101527
	0.002079535	0.006090438	-5.102779e-05	1.902711e-06	0.007545367	-0.01053346	-3.586681e-05	-5.302286e-05
	-4.370821e-05	-1.853667e-05	0.002005292	0.006101526	-3.58668e-05	-5.302286e-05	0.007336788	-0.01045405
8e+07	0.006974376	-0.01247801	-3.220892e-05	-5.017344e-05	0.002646121	0.006785123	-4.943449e-05	-1.211438e-05
	-3.220892e-05	-5.017344e-05	0.006754938	-0.01247735	-4.96343e-05	-5.103267e-07	0.002552801	0.006806105
	0.002646117	0.006785123	-4.96343e-05	-5.103267e-07	0.006998211	-0.01254734	-2.930038e-05	-5.297717e-05
	-4.943449e-05	-1.211438e-05	0.002552803	0.006806105	-2.930038e-05	-5.297717e-05	0.006745016	-0.01244915
9e+07	0.006237628	-0.01445697	-2.591746e-05	-4.875347e-05	0.003265772	0.0074222	-5.386515e-05	-4.195128e-06
	-2.591746e-05	-4.875347e-05	0.0059563	-0.01442053	-4.840611e-05	-3.928909e-06	0.003152051	0.007455833
	0.003265769	0.0074222	-4.840611e-05	-3.928909e-06	0.006252544	-0.01452374	-2.609009e-05	-5.025691e-05
	-5.386515e-05	-4.195128e-06	0.003152052	0.007455833	-2.609009e-05	-5.025691e-05	0.005948098	-0.01440144
1e+08	0.005316473	-0.0163697	-2.926768e-05	-3.955424e-05	0.003932977	0.007996767	-5.610321e-05	6.706773e-06
	-2.926768e-05	-3.955424e-05	0.004971887	-0.0162866	-4.793851e-05	-9.563364e-06	0.003797925	0.008046191
	0.003932977	0.007996767	-4.793851e-05	-9.563364e-06	0.005324384	-0.01643067	-3.346254e-05	-3.884086e-05
	-5.610321e-05	6.706773e-06	0.003797925	0.008046191	-3.346254e-05	-3.884086e-05	0.004961909	-0.01627944
1.1e+08	0.004250993	-0.01823416	-2.86464e-05	-3.177996e-05	0.004640337	0.00850606	-5.168788e-05	1.470457e-05
	-2.86464e-05	-3.177996e-05	0.003848739	-0.01809996	-4.320097e-05	-1.750233e-05	0.004483959	0.00857384
	0.004640337	0.00850606	-4.320097e-05	-1.750233e-05	0.004258889	-0.01829272	-3.251687e-05	-3.05924e-05
	-5.168788e-05	1.470457e-05	0.004483957	0.008573841	-3.251687e-05	-3.05924e-05	0.003829024	-0.01810125
1.2e+08	0.003003094	-0.02003327	-2.89853e-05	-2.695567e-05	0.005383356	0.008947053	-4.812134e-05	1.987487e-05
	-2.89853e-05	-2.695567e-05	0.002540411	-0.01984287	-3.801271e-05	-2.405058e-05	0.005205006	0.009035879
	0.005383356	0.008947053	-3.801271e-05	-2.405058e-05	0.003009324	-0.02009267	-3.259197e-05	-2.547889e-05
	-4.812134e-05	1.987487e-05	0.005205004	0.00903588	-3.259197e-05	-2.547889e-05	0.002510832	-0.01984905
1.3e+08	0.001587538	-0.02174022	-2.95397e-05	-2.302401e-05	0.006155507	0.009316464	-4.478345e-05	2.395298e-05
	-2.95397e-05	-2.302401e-05	0.00106335	-0.0214863	-3.295918e-05	-3.058502e-05	0.00595497	0.009429351
	0.006155507	0.009316464	-3.295918e-05	-3.058502e-05	0.001591101	-0.02180162	-3.290466e-05	-2.133407e-05
	-4.478345e-05	2.395298e-05	0.005954969	0.009429352	-3.290466e-05	-2.133407e-05	0.00102323	-0.02149551
1.4e+08	1.644638e-05	-0.02333839	-3.015627e-05	-1.954183e-05	0.006950038	0.009611933	-4.210518e-05	2.648966e-05
	-3.015627e-05	-1.954183e-05	-0.0005692327	-0.02301305	-2.82126e-05	-3.743026e-05	0.00672748	0.009752008
	0.006950038	0.009611933	-2.82126e-05	-3.743026e-05	1.643071e-05	-0.02340245	-3.329567e-05	-1.768948e-05
	-4.210518e-05	2.648966e-05	0.006727479	0.009752009	-3.329567e-05	-1.768948e-05	-0.0006205876	-0.02302372
1.5e+08	-0.001697906	-0.02481378	-3.076556e-05	-1.629552e-05	0.007760014	0.009831763	-4.146905e-05	2.587222e-05
	-3.076556e-05	-1.629552e-05	-0.002344045	-0.02440885	-2.390273e-05	-4.473575e-05	0.007515977	0.0100022
	0.007760014	0.009831763	-2.390273e-05	-4.473575e-05	-0.001702382	-0.02488085	-3.369355e-05	-1.431851e-05
	-4.146905e-05	2.587222e-05	0.007515976	0.0100022	-3.369355e-05	-1.431851e-05	-0.002407271	-0.02441951
1.6e+08	-0.003542804	-0.02615416	-3.13019e-05	-1.320024e-05	0.00857837	0.009974909	-4.079572e-05	2.551355e-05
	-3.13019e-05	-1.320024e-05	-0.004247374	-0.02566138	-2.014724e-05	-5.257421e-05	0.008313773	0.01017887
	0.00857837	0.009974909	-2.014724e-05	-5.257421e-05	-0.003552612	-0.0262244	-3.403214e-05	-1.112909e-05
	-4.079572e-05	2.551355e-05	0.008313773	0.01017887	-3.403214e-05	-1.112909e-05	-0.004323016	-0.02567057
1.7e+08	-0.005505058	-0.02734881	-3.17287e-05	-1.019686e-05	0.009397976	0.01004098	-4.009482e-05	2.534645e-05
	-3.17287e-05	-1.019686e-05	-0.006265039	-0.02675995	-1.705847e-05	-6.097219e-05	0.00911411	0.01028159
	0.009397976	0.01004098	-1.705847e-05	-6.097219e-05	-0.005521052	-0.02742222	-3.427485e-05	-8.056391e-06
	-4.009482e-05	2.534645e-05	0.00911411	0.0102816	-3.427485e-05	-8.056391e-06	-0.006353533	-0.02676622
1.8e+08	-0.007571016	-0.0283884	-3.201736e-05	-7.253121e-06	0.01021169	0.01003025	-3.937091e-05	2.532566e-05
	-3.201736e-05	-7.253121e-06	-0.008382414	-0.0276954	-1.47443e-05	-6.992348e-05	0.009910219	0.01031054
	0.01021169	0.01003025	-1.47443e-05	-6.992348e-05	-0.007594034	-0.02846482	-3.439327e-05	-5.063673e-06
	-3.937091e-05	2.532566e-05	0.009910219	0.01031054	-3.439327e-05	-5.063673e-06	-0.008484071	-0.02769727
1.9e+08	-0.009726615	-0.0292649	-3.214504e-05	-4.353767e-06	0.01101243	0.00994363	-3.862641e-05	2.541849e-05
	-3.214504e-05	-4.353767e-06	-0.01058447	-0.02846	-1.330774e-05	-7.939603e-05	0.01069538	0.01026651
	0.01101243	0.00994363	-1.330774e-05	-7.939603e-05	-0.009757471	-0.02934408	-3.436475e-05	-2.131923e-06
	-3.862641e-05	2.541849e-05	0.01069538	0.01026651	-3.436475e-05	-2.131923e-06	-0.01069948	-0.02845599
2e+08	-0.01195744	-0.02997159	-3.209368e-05	-1.495085e-06	0.01179323	0.009782693	-3.786245e-05	2.560043e-05
	-3.209368e-05	-1.495085e-06	-0.01285588	-0.02904741	-1.284533e-05	-8.933645e-05	0.01146296	0.01015089
	0.01179323	0.009782693	-1.284533e-05	-8.933645e-05	-0.01199692	-0.03005316	-3.417134e-05	7.45874e-07
	-3.786245e-05	2.560043e-05	0.01146296	0.01015089	-3.417134e-05	7.45874e-07	-0.01298429	-0.02903605
2.1e+08	-0.01424878	-0.03050304	-3.184947e-05	1.31861e-06	0.01254729	0.009549634	-3.707962e-05	2.585243e-05
	-3.184947e-05	1.31861e-06	-0.01518103	-0.02945271	-1.34461e-05	-9.967267e-05	0.01220651	0.009965673
	0.01254729	0.009549634	-1.34461e-05	-9.967267e-05	-0.01429765	-0.03058652	-3.379921e-05	3.568377e-06
	-3.707962e-05	2.585243e-05	0.01220651	0.009965673	-3.379921e-05	3.568377e-06	-0.01532276	-0.0294325
2.2e+08	-0.01658574	-0.03085507	-3.140273e-05	4.077209e-06	0.01326805	0.009247265	-3.62781e-05	2.61594e-05
	-3.140273e-05	4.077209e-06	-0.0175442	-0.02967232	-1.518971e-05	-0.0001103166	0.01291977	0.00971343
	0.01326805	0.009247265	-1.518971e-05	-0.0001103166	-0.01664471	-0.0309399	-3.323847e-05	6.328207e-06
	-3.62781e-05	2.61594e-05	0.01291977	0.00971343	-3.323847e-05	6.328207e-06	-0.01769902	-0.0296418
2.3e+08	-0.01895326	-0.03102474	-3.074781e-05	6.766464e-06	0.01394923	0.008878982	-3.545784e-05	2.650911e-05
	-3.074781e-05	6.766464e-06	-0.01992955	-0.02970399	-1.814419e-05	-0.0001211673	0.01359676	0.009397278
	0.01394923	0.008878982	-1.814419e-05	-0.0001211673	-0.019023	-0.03111027	-3.248309e-05	9.013632e-06
	-3.545784e-05	2.650911e-05	0.01359676	0.009397278	-3.248309e-05	9.013632e-06	-0.0200971	-0.02966172
2.4e+08	-0.02133626	-0.03101039	-2.988277e-05	9.369454e-06	0.01458489	0.008448743	-3.461893e-05	2.689135e-05
	-2.988277e-05	9.369454e-06	-0.02232129	-0.02954683	-2.23668e-05	-0.0001321106	0.01423179	0.009020866
	0.01458489	0.008448743	-2.23668e-05	-0.0001321106	-0.0214174	-0.03109588	-3.153055e-05	1.161007e-05
	-3.461893e-05	2.689135e-05	0.01423179	0.009020866	-3.153055e-05	1.161007e-05	-0.02250108	-0.0294914
2.5e+08	-0.02371968	-0.03081153	-2.880962e-05	1.186745e-05	0.0151695	0.007961027	-3.376137e-05	2.729756e-05
	-2.880962e-05	1.186745e-05	-0.02470372	-0.02920122	-2.789609e-05	-0.0001430308	0.01481956	0.008588336
	0.0151695	0.007961027	-2.789609e-05	-0.0001430308	-0.02381277	-0.03089618	-3.03821e-05	1.410092e-05
	-3.376137e-05	2.729756e-05	0.01481956	0.008588336	-3.03821e-05	1.410092e-05	-0.02489512	-0.02913128
2.6e+08	-0.02608855	-0.03042893	-2.747488e-05	1.422964e-05	0.01569792	0.007420803	-3.288573e-05	2.771986e-05
	-2.747488e-05	1.422964e-05	-0.02706136	-0.02866884	-3.735768e-05	-0.0001490683	0.01535514	0.008104291
	0.01569792	0.007420803	-3.735768e-05	-0.0001490683	-0.02619411	-0.03051185	-2.898407e-05	1.645913e-05
	-3.288573e-05	2.771986e-05	0.01535514	0.008104291	-2.898407e-05	1.645913e-05	-0.0272636	-0.0285831
2.7e+08	-0.02842812	-0.02986451	-2.593646e-05	1.64371e-05	0.01616553	0.00683348	-3.1992e-05	2.81524e-05
	-2.593646e-05	1.64371e-05	-0.02937898	-0.02795262	-4.814192e-05	-0.0001538713	0.01583406	0.007573755
	0.01616553	0.00683348	-4.814192e-05	-0.0001538713	-0.02854659	-0.02994476	-2.739227e-05	1.866632e-05
	-3.1992e-05	2.81524e-05	0.01583406	0.007573755	-2.739227e-05	1.866632e-05	-0.02959119	-0.02784984
2.8e+08	-0.03072392	-0.02912137	-2.421766e-05	1.847185e-05	0.01656819	0.006204868	-3.108054e-05	2.858978e-05
	-2.421766e-05	1.847185e-05	-0.03164175	-0.02705668	-5.977356e-05	-0.0001581068	0.01625231	0.007002131
	0.0165682	0.006204868	-5.977356e-05	-0.0001581068	-0.03085565	-0.02919794	-2.562845e-05	2.070575e-05
	-3.108054e-05	2.858978e-05	0.01625231	0.007002131	-2.562845e-05	2.070575e-05	-0.03186292	-0.02693573
2.9e+08	-0.03296182	-0.02820372	-2.233496e-05	2.031586e-05	0.01690234	0.005541129	-3.015191e-05	2.902718e-05
	-2.233496e-05	2.031586e-05	-0.03383529	-0.02598633	-7.223351e-05	-0.0001616591	0.01660641	0.006395158
	0.01690234	0.005541129	-7.223351e-05	-0.0001616591	-0.03310708	-0.02827554	-2.370759e-05	2.256066e-05
	-3.015191e-05	2.902718e-05	0.01660641	0.006395158	-2.370759e-05	2.256066e-05	-0.03406433	-0.02584615
3e+08	-0.03512814	-0.02711687	-2.030769e-05	2.195288e-05	0.01716495	0.00484872	-2.920672e-05	2.946033e-05
	-2.030769e-05	2.195288e-05	-0.03594577	-0.02474799	-8.54869e-05	-0.0001644138	0.01689338	0.005758862
	0.01716495	0.00484872	-8.54869e-05	-0.0001644138	-0.03528711	-0.02718284	-2.164734e-05	2.421579e-05
	-2.920672e-05	2.946033e-05	0.01689338	0.005758862	-2.164734e-05	2.421579e-05	-0.03618147	-0.02458763
3.1e+08	-0.03720971	-0.02586717	-1.815743e-05	2.336879e-05	0.01735364	0.004134347	-2.824584e-05	2.988553e-05
	-1.815743e-05	2.336879e-05	-0.03795998	-0.02334914	-9.948425e-05	-0.0001662574	0.01711083	0.005099506
	0.01735364	0.004134347	-9.948425e-05	-0.0001662574	-0.03738248	-0.02592614	-1.946757e-05	2.565781e-05
	-2.824584e-05	2.988553e-05	0.01711083	0.005099506	-1.946757e-05	2.565781e-05	-0.03820105	-0.02316777
3.2e+08	-0.03919393	-0.02446198	-1.590787e-05	2.4552e-05	0.01746661	0.003404905	-2.727019e-05	3.029947e-05
	-1.590787e-05	2.4552e-05	-0.0398654	-0.02179831	-0.0001141609	-0.000167081	0.01725692	0.004423543
	0.01746661	0.003404905	-0.0001141609	-0.000167081	-0.03938051	-0.02451276	-1.719014e-05	2.687561e-05
	-2.727019e-05	3.029947e-05	0.01725692	0.004423543	-1.719014e-05	2.687561e-05	-0.04011048	-0.02159521
3.3e+08	-0.04106889	-0.02290961	-1.358434e-05	2.549371e-05	0.01750271	0.002667423	-2.628079e-05	3.069922e-05
	-1.358434e-05	2.549371e-05	-0.04165031	-0.02010495	-0.0001294377	-0.0001667826	0.0173304	0.003737558
	0.01750271	0.002667423	-0.0001294377	-0.0001667826	-0.04126915	-0.02295101	-1.483859e-05	2.78606e-05
	-2.628079e-05	3.069922e-05	0.0173304	0.003737558	-1.483859e-05	2.78606e-05	-0.04189794	-0.01987951
3.4e+08	-0.04282336	-0.02121924	-1.121336e-05	2.618815e-05	0.01746141	0.001929009	-2.527882e-05	3.108227e-05
	-1.121336e-05	2.618815e-05	-0.04330379	-0.01827939	-0.0001452225	-0.0001652667	0.01733063	0.00304822
	0.01746141	0.001929009	-0.0001452225	-0.0001652667	-0.0430371	-0.02125004	-1.243757e-05	2.860698e-05
	-2.527882e-05	3.108227e-05	0.01733063	0.00304822	-1.243757e-05	2.860698e-05	-0.04355247	-0.01803115
3.5e+08	-0.04444693	-0.01940091	-8.822206e-06	2.663277e-05	0.01734287	0.001196789	-2.42655e-05	3.144638e-05
	-8.822206e-06	2.663277e-05	-0.04481584	-0.01633279	-0.0001614103	-0.0001624478	0.01725756	0.002362229
	0.01734287	0.001196789	-0.0001614103	-0.0001624478	-0.04467384	-0.0194199	-1.001259e-05	2.911183e-05
	-2.42655e-05	3.144638e-05	0.01725756	0.002362229	-1.001259e-05	2.911183e-05	-0.04506403	-0.01606142
3.6e+08	-0.04593002	-0.01746543	-6.438476e-06	2.682826e-05	0.01714783	0.0004778518	-2.324218e-05	3.178969e-05
	-6.438476e-06	2.682826e-05	-0.0461774	-0.01427704	-0.000177885	-0.000158251	0.01711174	0.001686258
	0.01714783	0.0004778518	-0.000177885	-0.000158251	-0.04616965	-0.01747138	-7.589525e-06	2.93753e-05
	-2.324218e-05	3.178969e-05	0.01711174	0.001686258	-7.589525e-06	2.93753e-05	-0.04642352	-0.01398235
3.7e+08	-0.04726394	-0.01542429	-4.08966e-06	2.677867e-05	0.01687772	-0.0002208086	-2.221018e-05	3.211057e-05
	-4.08966e-06	2.677867e-05	-0.04738043	-0.01212468	-0.0001945202	-0.0001526135	0.01689431	0.001026907
	0.01687772	-0.0002208086	-0.0001945202	-0.0001526135	-0.04751577	-0.01541599	-5.194241e-06	2.940057e-05
	-2.221018e-05	3.211057e-05	0.01689431	0.001026907	-5.194241e-06	2.940057e-05	-0.04762287	-0.01180662
3.8e+08	-0.04844094	-0.01328962	-1.802691e-06	2.64913e-05	0.01653457	-0.000892349	-2.11709e-05	3.24077e-05
	-1.802691e-06	2.64913e-05	-0.04841793	-0.009888835	-0.0002111811	-0.0001454859	0.01660701	0.0003906454
	0.01653457	-0.000892349	-0.0002111811	-0.0001454859	-0.04870431	-0.0132659	-2.852197e-06	2.91939e-05
	-2.11709e-05	3.24077e-05	0.01660701	0.0003906454	-2.852197e-06	2.91939e-05	-0.04865508	-0.009547501
3.9e+08	-0.04945426	-0.01107409	3.965148e-07	2.597671e-05	0.01612101	-0.001530131	-2.012571e-05	3.267995e-05
	3.965148e-07	2.597671e-05	-0.04928399	-0.007583111	-0.0002277256	-0.0001368334	0.01625214	-0.0002162357
	0.01612101	-0.001530131	-0.0002277256	-0.0001368334	-0.04972843	-0.01103381	-5.879935e-07	2.876452e-05
	-2.012571e-05	3.267995e-05	0.01625214	-0.0002162357	-5.879935e-07	2.876452e-05	-0.04951424	-0.007218748
4e+08	-0.05029818	-0.008790875	2.48343e-06	2.524848e-05	0.01564029	-0.002127776	-1.9076e-05	3.292646e-05
	2.48343e-06	2.524848e-05	-0.04997381	-0.005221522	-0.0002440064	-0.0001266359	0.01583254	-0.0007876727
	0.01564029	-0.002127776	-0.0002440064	-0.0001266359	-0.05058228	-0.008732927	1.574958e-06	2.812455e-05
	-1.9076e-05	3.292646e-05	0.01583254	-0.0007876727	1.574958e-06	2.812455e-05	-0.05019557	-0.004834517
4.1e+08	-0.050968	-0.006453513	4.435335e-06	2.432309e-05	0.01509619	-0.002679211	-1.802311e-05	3.314655e-05
	4.435335e-06	2.432309e-05	-0.05048373	-0.002818387	-0.0002598727	-0.0001148893	0.01535161	-0.001317878
	0.01509619	-0.002679211	-0.0002598727	-0.0001148893	-0.05126106	-0.006376851	3.614836e-06	2.728882e-05
	-1.802311e-05	3.314655e-05	0.01535161	-0.001317878	3.614836e-06	2.728882e-05	-0.05069545	-0.002409273
4.2e+08	-0.05146013	-0.004075875	6.231696e-06	2.321964e-05	0.01449305	-0.003178725	-1.696835e-05	3.333975e-05
	6.231696e-06	2.321964e-05	-0.05081127	-0.0003882566	-0.0002751716	-0.0001016056	0.01481322	-0.001801383
	0.01449305	-0.003178725	-0.0002751716	-0.0001016056	-0.05176107	-0.003979514	5.511766e-06	2.627465e-05
	-1.696835e-05	3.333975e-05	0.01481322	-0.001801383	5.511766e-06	2.627465e-05	-0.05101142	4.229541e-05
4.3e+08	-0.05177206	-0.001672051	7.854436e-06	2.195956e-05	0.01383568	-0.003621007	-1.591299e-05	3.350576e-05
	7.854436e-06	2.195956e-05	-0.0509551	0.002054199	-0.0002897502	-8.681307e-05	0.01422173	-0.002233083
	0.01383568	-0.003621007	-0.0002897502	-8.681307e-05	-0.05207971	-0.001555082	7.24807e-06	2.510158e-05
	-1.591299e-05	3.350576e-05	0.01422173	-0.002233083	7.24807e-06	2.510158e-05	-0.05114223	0.002505377
4.4e+08	-0.0519024	0.0007437165	9.288258e-06	2.056632e-05	0.01312938	-0.004001192	-1.485819e-05	3.364437e-05
	9.288258e-06	2.056632e-05	-0.05091508	0.004494263	-0.0003034576	-7.055648e-05	0.01358195	-0.002608276
	0.01312938	-0.004001192	-0.0003034576	-7.055648e-05	-0.0522155	0.0008821217	8.808575e-06	2.379112e-05
	-1.485819e-05	3.364437e-05	0.01358195	-0.002608276	8.808575e-06	2.379112e-05	-0.05108779	0.004965123
4.5e+08	-0.05185087	0.003157132	1.052085e-05	1.906504e-05	0.01237987	-0.004314899	-1.380506e-05	3.375552e-05
	1.052085e-05	1.906504e-05	-0.05069224	0.006917277	-0.0003161466	-5.289672e-05	0.01289907	-0.002922699
	0.01237987	-0.004314899	-0.0003161466	-5.289672e-05	-0.05216807	0.003317707	1.018082e-05	2.236641e-05
	-1.380506e-05	3.375552e-05	0.01289907	-0.002922699	1.018082e-05	2.236641e-05	-0.05084921	0.007406749
4.6e+08	-0.05161833	0.005553931	1.154314e-05	1.748206e-05	0.01159323	-0.004558269	-1.275463e-05	3.38392e-05
	1.154314e-05	1.748206e-05	-0.05028876	0.009308731	-0.0003276753	-3.391024e-05	0.01217866	-0.003172561
	0.01159323	-0.004558269	-0.0003276753	-3.391024e-05	-0.05193819	0.005737303	1.135528e-05	2.085174e-05
	-1.275463e-05	3.38392e-05	0.01217866	-0.003172561	1.135528e-05	2.085174e-05	-0.05042879	0.009815643
4.7e+08	-0.05120673	0.007919966	1.234933e-05	1.584458e-05	0.01077589	-0.004727993	-1.170785e-05	3.38955e-05
	1.234933e-05	1.584458e-05	-0.04970798	0.01165434	-0.0003379094	-1.368878e-05	0.01142661	-0.003354576
