!$
! Info: Touchstone file created by Circ.  Input file=Tx_4in_Rx_93ohms_TxVia_60mils_RxVia_70mils.circ
!$
# Hz S RI R 50
0	0.003813304	7.319942e-26	1.671381e-09	1.292523e-27	4.261638e-05	7.387142e-24	-1.398354e-10	6.349879e-26
	1.671396e-09	1.292527e-27	0.003809049	8.517142e-26	4.545288e-09	4.418297e-27	4.173622e-05	9.182342e-24
	4.174793e-05	7.354158e-24	4.545288e-09	4.4183e-27	0.003827218	7.404055e-26	3.754049e-09	1.367429e-27
	-1.395431e-10	6.346299e-26	4.200614e-05	9.221719e-24	3.753966e-09	1.36741e-27	0.003823625	8.477009e-26
1e+07	0.00548389	0.000155058	2.069898e-09	3.83078e-09	0.000113589	0.0009601213	-4.168289e-09	1.142585e-08
	2.069898e-09	3.83078e-09	0.005592786	0.0001528138	6.522822e-09	1.344515e-08	0.0001119801	0.0009567613
	0.0001135735	0.0009601349	6.522822e-09	1.344515e-08	0.005611281	0.0001559357	-2.402157e-09	1.22395e-08
	-4.168289e-09	1.142585e-08	0.0001119823	0.0009567588	-2.402157e-09	1.22395e-08	0.005495774	0.0001499189
2e+07	0.006667887	-0.0009756547	2.745736e-09	7.019326e-09	0.0002156614	0.001922934	1.557133e-09	4.084436e-09
	2.745736e-09	7.019326e-09	0.006741265	-0.001020798	8.680624e-09	2.397459e-08	0.0002111362	0.00191714
	0.0002156682	0.001922943	8.680624e-09	2.397459e-08	0.006771999	-0.001016365	-2.361113e-10	6.178299e-09
	1.557133e-09	4.084436e-09	0.0002111328	0.00191714	-2.361113e-10	6.178299e-09	0.00666772	-0.0009869806
3e+07	0.007393061	-0.002627245	3.368654e-09	9.873492e-09	0.0004336947	0.002835252	2.45354e-09	6.38047e-09
	3.368654e-09	9.873492e-09	0.007428919	-0.002685535	1.009769e-08	3.406067e-08	0.0004170534	0.002829488
	0.0004336957	0.002835252	1.009769e-08	3.406067e-08	0.00747908	-0.00268234	3.196142e-09	9.844008e-09
	2.45354e-09	6.38047e-09	0.0004170531	0.00282949	3.196142e-09	9.844008e-09	0.007372962	-0.002641893
4e+07	0.007799927	-0.004476131	3.98031e-09	1.269006e-08	0.0007446586	0.003710592	3.075993e-09	8.194326e-09
	3.98031e-09	1.269006e-08	0.007793685	-0.004538125	1.134515e-08	4.398772e-08	0.0007168722	0.003706122
	0.0007446573	0.003710593	1.134515e-08	4.398772e-08	0.00787053	-0.004539087	3.881834e-09	1.287107e-08
	3.075993e-09	8.194326e-09	0.0007168729	0.003706122	3.881834e-09	1.287107e-08	0.007752082	-0.004491792
5e+07	0.007939237	-0.006430126	4.607488e-09	1.544115e-08	0.001124749	0.004548093	3.696201e-09	9.903382e-09
	4.607488e-09	1.544115e-08	0.007885833	-0.006487897	1.244098e-08	5.378443e-08	0.001083512	0.004546697
	0.001124748	0.004548093	1.244098e-08	5.378443e-08	0.007996278	-0.006497555	4.372292e-09	1.562583e-08
	3.696201e-09	9.903382e-09	0.001083513	0.004546697	4.372292e-09	1.562583e-08	0.007855736	-0.006442746
6e+07	0.007837442	-0.008437737	5.251028e-09	1.811271e-08	0.001570961	0.005343067	4.349462e-09	1.152982e-08
	5.251028e-09	1.811271e-08	0.007732459	-0.008483648	1.341145e-08	6.348273e-08	0.00151416	0.005346775
	0.001570958	0.005343066	1.341145e-08	6.348273e-08	0.007882316	-0.008507433	4.834785e-09	1.829813e-08
	4.349462e-09	1.152982e-08	0.001514161	0.005346776	4.834785e-09	1.829813e-08	0.007711423	-0.008442229
7e+07	0.007511527	-0.01046319	5.903361e-09	2.070043e-08	0.002079539	0.006090439	5.036322e-09	1.307099e-08
	5.903361e-09	2.070043e-08	0.007351066	-0.01048972	1.427441e-08	7.311385e-08	0.00200529	0.006101527
	0.002079535	0.006090438	1.427441e-08	7.311385e-08	0.007545367	-0.01053346	5.297631e-09	2.092911e-08
	5.036322e-09	1.307099e-08	0.002005292	0.006101526	5.297631e-09	2.092911e-08	0.007336788	-0.01045405
8e+07	0.006974376	-0.01247801	6.554892e-09	2.320484e-08	0.002646121	0.006785123	5.748139e-09	1.452357e-08
	6.554891e-09	2.320484e-08	0.006754938	-0.01247735	1.504269e-08	8.270307e-08	0.002552801	0.006806105
	0.002646117	0.006785123	1.504269e-08	8.270307e-08	0.006998211	-0.01254734	5.773504e-09	2.353218e-08
	5.748139e-09	1.452357e-08	0.002552803	0.006806105	5.773504e-09	2.353218e-08	0.006745016	-0.01244915
9e+07	0.006237628	-0.01445697	7.195468e-09	2.562939e-08	0.003265772	0.0074222	6.467236e-09	1.58824e-08
	7.195467e-09	2.562939e-08	0.0059563	-0.01442053	1.572233e-08	9.226546e-08	0.003152051	0.007455833
	0.003265769	0.0074222	1.572233e-08	9.226546e-08	0.006252544	-0.01452374	6.272195e-09	2.610957e-08
	6.467235e-09	1.58824e-08	0.003152052	0.007455833	6.272195e-09	2.610957e-08	0.005948098	-0.01440144
1e+08	0.005316473	-0.0163697	7.799813e-09	2.79681e-08	0.003932977	0.007996767	7.134264e-09	1.713026e-08
	7.799813e-09	2.79681e-08	0.004971887	-0.0162866	1.629298e-08	1.017808e-07	0.003797925	0.008046191
	0.003932977	0.007996767	1.629298e-08	1.017808e-07	0.005324384	-0.01643067	6.79876e-09	2.865503e-08
	7.134264e-09	1.713026e-08	0.003797925	0.008046191	6.79876e-09	2.865503e-08	0.004961909	-0.01627944
1.1e+08	0.004250993	-0.01823416	8.421349e-09	3.027493e-08	0.004640337	0.00850606	7.810366e-09	1.833069e-08
	8.421349e-09	3.027493e-08	0.003848739	-0.01809996	1.681433e-08	1.113378e-07	0.004483959	0.00857384
	0.004640337	0.00850606	1.681433e-08	1.113378e-07	0.004258889	-0.01829272	7.247419e-09	3.114102e-08
	7.810366e-09	1.833069e-08	0.004483957	0.008573841	7.247419e-09	3.114102e-08	0.003829024	-0.01810125
1.2e+08	0.003003094	-0.02003327	9.032185e-09	3.251692e-08	0.005383356	0.008947053	8.481583e-09	1.943531e-08
	9.032185e-09	3.251692e-08	0.002540411	-0.01984287	1.729042e-08	1.20919e-07	0.005205006	0.009035879
	0.005383356	0.008947053	1.729042e-08	1.20919e-07	0.003009324	-0.02009267	7.683708e-09	3.358759e-08
	8.481583e-09	1.943531e-08	0.005205004	0.00903588	7.683708e-09	3.358759e-08	0.002510832	-0.01984905
1.3e+08	0.001587538	-0.02174022	9.62384e-09	3.46976e-08	0.006155507	0.009316464	9.131451e-09	2.045446e-08
	9.62384e-09	3.46976e-08	0.00106335	-0.0214863	1.772764e-08	1.305369e-07	0.00595497	0.009429351
	0.006155507	0.009316464	1.772764e-08	1.305369e-07	0.001591101	-0.02180162	8.101975e-09	3.599915e-08
	9.131451e-09	2.045446e-08	0.005954969	0.009429352	8.101975e-09	3.599915e-08	0.00102323	-0.02149551
1.4e+08	1.644637e-05	-0.02333839	1.019233e-08	3.681837e-08	0.006950038	0.009611933	9.750659e-09	2.139117e-08
	1.019233e-08	3.681837e-08	-0.0005692327	-0.02301305	1.813556e-08	1.402014e-07	0.00672748	0.009752008
	0.006950038	0.009611933	1.813556e-08	1.402014e-07	1.643071e-05	-0.02340245	8.501311e-09	3.837733e-08
	9.750659e-09	2.139117e-08	0.006727479	0.009752009	8.501311e-09	3.837733e-08	-0.0006205876	-0.02302372
1.5e+08	-0.001697906	-0.02481378	1.07372e-08	3.887726e-08	0.007760014	0.009831763	1.033204e-08	2.224528e-08
	1.07372e-08	3.887726e-08	-0.002344045	-0.02440885	1.85243e-08	1.499204e-07	0.007515977	0.0100022
	0.007760014	0.009831763	1.85243e-08	1.499204e-07	-0.001702382	-0.02488085	8.884322e-09	4.072011e-08
	1.033204e-08	2.224528e-08	0.007515976	0.0100022	8.884322e-09	4.072011e-08	-0.002407271	-0.02441951
1.6e+08	-0.003542804	-0.02615416	1.124393e-08	4.088469e-08	0.00857837	0.009974909	1.086242e-08	2.302891e-08
	1.124393e-08	4.088469e-08	-0.004247374	-0.02566138	1.890442e-08	1.597006e-07	0.008313773	0.01017887
	0.00857837	0.009974909	1.890442e-08	1.597006e-07	-0.003552612	-0.0262244	9.239662e-09	4.303744e-08
	1.086242e-08	2.302891e-08	0.008313773	0.01017887	9.239661e-09	4.303744e-08	-0.004323016	-0.02567057
1.7e+08	-0.005505058	-0.02734881	1.170691e-08	4.284491e-08	0.009397976	0.01004098	1.133371e-08	2.374823e-08
	1.170691e-08	4.284491e-08	-0.006265039	-0.02675995	1.928646e-08	1.695473e-07	0.00911411	0.01028159
	0.009397976	0.01004098	1.928646e-08	1.695473e-07	-0.005521052	-0.02742222	9.564751e-09	4.533282e-08
	1.133371e-08	2.374823e-08	0.00911411	0.0102816	9.564751e-09	4.533282e-08	-0.006353533	-0.02676622
1.8e+08	-0.007571016	-0.0283884	1.212062e-08	4.47628e-08	0.01021169	0.01003025	1.173847e-08	2.441019e-08
	1.212062e-08	4.47628e-08	-0.008382414	-0.0276954	1.968096e-08	1.794645e-07	0.009910219	0.01031054
	0.01021169	0.01003025	1.968096e-08	1.794645e-07	-0.007594034	-0.02846482	9.857057e-09	4.761007e-08
	1.173847e-08	2.441019e-08	0.009910219	0.01031054	9.857057e-09	4.761007e-08	-0.008484071	-0.02769727
1.9e+08	-0.009726615	-0.0292649	1.247975e-08	4.664388e-08	0.01101243	0.00994363	1.206988e-08	2.502251e-08
	1.247975e-08	4.664388e-08	-0.01058447	-0.02846	2.009847e-08	1.894551e-07	0.01069538	0.01026651
	0.01101243	0.00994363	2.009847e-08	1.894551e-07	-0.009757471	-0.02934408	1.011416e-08	4.987334e-08
	1.206988e-08	2.502251e-08	0.01069538	0.01026651	1.011416e-08	4.987334e-08	-0.01069948	-0.02845599
2e+08	-0.01195744	-0.02997159	1.277933e-08	4.849436e-08	0.01179323	0.009782693	1.232193e-08	2.559356e-08
	1.277933e-08	4.849436e-08	-0.01285588	-0.02904741	2.054949e-08	1.995211e-07	0.01146296	0.01015089
	0.01179323	0.009782693	2.054949e-08	1.995211e-07	-0.01199692	-0.03005316	1.033382e-08	5.212713e-08
	1.232193e-08	2.559356e-08	0.01146296	0.01015089	1.033382e-08	5.212713e-08	-0.01298429	-0.02903605
2.1e+08	-0.01424878	-0.03050304	1.301478e-08	5.032109e-08	0.01254729	0.009549634	1.248939e-08	2.613235e-08
	1.301478e-08	5.032109e-08	-0.01518103	-0.02945271	2.10444e-08	2.096631e-07	0.01220651	0.009965673
	0.01254729	0.009549634	2.10444e-08	2.096631e-07	-0.01429765	-0.03058652	1.051406e-08	5.437634e-08
	1.248939e-08	2.613235e-08	0.01220651	0.009965673	1.051406e-08	5.437634e-08	-0.01532276	-0.0294325
2.2e+08	-0.01658574	-0.03085507	1.318202e-08	5.213159e-08	0.01326805	0.009247265	1.256794e-08	2.664844e-08
	1.318202e-08	5.213159e-08	-0.0175442	-0.02967232	2.159348e-08	2.198811e-07	0.01291977	0.00971343
	0.01326805	0.009247265	2.159348e-08	2.198811e-07	-0.01664471	-0.0309399	1.065321e-08	5.662625e-08
	1.256794e-08	2.664844e-08	0.01291977	0.00971343	1.065321e-08	5.662625e-08	-0.01769902	-0.0296418
2.3e+08	-0.01895326	-0.03102474	1.327763e-08	5.393404e-08	0.01394923	0.008878982	1.255421e-08	2.715183e-08
	1.327763e-08	5.393404e-08	-0.01992955	-0.02970399	2.220683e-08	2.301739e-07	0.01359676	0.009397278
	0.01394923	0.008878982	2.220683e-08	2.301739e-07	-0.019023	-0.03111027	1.075003e-08	5.888251e-08
	1.255421e-08	2.715183e-08	0.01359676	0.009397278	1.075003e-08	5.888251e-08	-0.0200971	-0.02966172
2.4e+08	-0.02133626	-0.03101039	1.329888e-08	5.573718e-08	0.01458489	0.008448743	1.24458e-08	2.765292e-08
	1.329888e-08	5.573718e-08	-0.02232129	-0.02954683	2.289432e-08	2.405395e-07	0.01423179	0.009020866
	0.01458489	0.008448743	2.289432e-08	2.405395e-07	-0.0214174	-0.03109588	1.080372e-08	6.115112e-08
	1.24458e-08	2.765292e-08	0.01423179	0.009020866	1.080372e-08	6.115112e-08	-0.02250108	-0.0294914
2.5e+08	-0.02371968	-0.03081153	1.32439e-08	5.75503e-08	0.0151695	0.007961027	1.224135e-08	2.816236e-08
	1.32439e-08	5.75503e-08	-0.02470372	-0.02920122	2.36656e-08	2.509749e-07	0.01481956	0.008588336
	0.0151695	0.007961027	2.36656e-08	2.509749e-07	-0.02381277	-0.03089618	1.08141e-08	6.34384e-08
	1.224135e-08	2.816236e-08	0.01481956	0.008588336	1.08141e-08	6.34384e-08	-0.02489512	-0.02913128
2.6e+08	-0.02608855	-0.03042893	1.308854e-08	5.939981e-08	0.01569792	0.007420803	1.194114e-08	2.869114e-08
	1.308854e-08	5.939981e-08	-0.02706136	-0.02866884	2.451284e-08	2.614798e-07	0.01535514	0.008104291
	0.01569792	0.007420803	2.451284e-08	2.614798e-07	-0.02619411	-0.03051185	1.075827e-08	6.576783e-08
	1.194114e-08	2.869114e-08	0.01535514	0.008104291	1.075827e-08	6.576783e-08	-0.0272636	-0.0285831
2.7e+08	-0.02842812	-0.02986451	1.285386e-08	6.128698e-08	0.01616553	0.00683348	1.154551e-08	2.924991e-08
	1.285386e-08	6.128698e-08	-0.02937898	-0.02795262	2.54595e-08	2.720491e-07	0.01583406	0.007573755
	0.01616553	0.00683348	2.54595e-08	2.720491e-07	-0.02854659	-0.02994476	1.065851e-08	6.813725e-08
	1.154551e-08	2.924991e-08	0.01583406	0.007573755	1.065851e-08	6.813725e-08	-0.02959119	-0.02784984
2.8e+08	-0.03072392	-0.02912137	1.254576e-08	6.321974e-08	0.01656819	0.006204868	1.105615e-08	2.984949e-08
	1.254576e-08	6.321974e-08	-0.03164175	-0.02705668	2.651739e-08	2.826769e-07	0.01625231	0.007002131
	0.01656819	0.006204868	2.651739e-08	2.826769e-07	-0.03085565	-0.02919794	1.05215e-08	7.055108e-08
	1.105615e-08	2.984949e-08	0.01625231	0.007002131	1.05215e-08	7.055108e-08	-0.03186292	-0.02693573
2.9e+08	-0.03296182	-0.02820372	1.216731e-08	6.520844e-08	0.01690234	0.005541129	1.047592e-08	3.050063e-08
	1.216731e-08	6.520844e-08	-0.03383529	-0.02598633	2.769498e-08	2.933569e-07	0.01660641	0.006395158
	0.01690234	0.005541129	2.769498e-08	2.933569e-07	-0.03310708	-0.02827554	1.035073e-08	7.301617e-08
	1.047592e-08	3.050063e-08	0.01660641	0.006395158	1.035073e-08	7.301617e-08	-0.03406433	-0.02584615
3e+08	-0.03512814	-0.02711687	1.172278e-08	6.72634e-08	0.01716495	0.00484872	9.8087e-09	3.121386e-08
	1.172278e-08	6.72634e-08	-0.03594577	-0.02474799	2.90002e-08	3.040818e-07	0.01689338	0.005758862
	0.01716495	0.00484872	2.90002e-08	3.040818e-07	-0.03528711	-0.02718284	1.015055e-08	7.55392e-08
	9.8087e-09	3.121386e-08	0.01689338	0.005758862	1.015055e-08	7.55392e-08	-0.03618147	-0.02458763
3.1e+08	-0.03720971	-0.02586717	1.121764e-08	6.939469e-08	0.01735364	0.004134347	9.059433e-09	3.199941e-08
	1.121764e-08	6.939469e-08	-0.03795998	-0.02334914	3.044039e-08	3.148436e-07	0.01711083	0.005099506
	0.01735364	0.004134347	3.044039e-08	3.148436e-07	-0.03738248	-0.02592614	9.926151e-09	7.812663e-08
	9.059433e-09	3.199941e-08	0.01711083	0.005099506	9.926151e-09	7.812663e-08	-0.03820105	-0.02316777
3.2e+08	-0.03919393	-0.02446198	1.065862e-08	7.161205e-08	0.01746661	0.003404905	8.234047e-09	3.286713e-08
	1.065862e-08	7.161205e-08	-0.0398654	-0.02179831	3.202221e-08	3.256335e-07	0.01725692	0.004423543
	0.01746661	0.003404905	3.202221e-08	3.256335e-07	-0.03938051	-0.02451276	9.683612e-09	8.078454e-08
	8.234047e-09	3.286713e-08	0.01725692	0.004423543	9.683612e-09	8.078454e-08	-0.04011048	-0.02159521
3.3e+08	-0.04106889	-0.02290961	1.005367e-08	7.392471e-08	0.01750271	0.002667423	7.339452e-09	3.382637e-08
	1.005367e-08	7.392471e-08	-0.04165031	-0.02010495	3.375159e-08	3.36442e-07	0.0173304	0.003737558
	0.01750271	0.002667423	3.375159e-08	3.36442e-07	-0.04126915	-0.02295101	9.429876e-09	8.351855e-08
	7.339452e-09	3.382637e-08	0.0173304	0.003737558	9.429876e-09	8.351855e-08	-0.04189794	-0.01987951
3.4e+08	-0.04282336	-0.02121924	9.411921e-09	7.63412e-08	0.01746141	0.001929009	6.383494e-09	3.488592e-08
	9.411921e-09	7.63412e-08	-0.04330379	-0.01827939	3.563369e-08	3.472588e-07	0.01733063	0.00304822
	0.01746141	0.001929009	3.563369e-08	3.472588e-07	-0.0430371	-0.02125004	9.172725e-09	8.633369e-08
	6.383494e-09	3.488592e-08	0.01733063	0.00304822	9.172725e-09	8.633369e-08	-0.04355247	-0.01803115
3.5e+08	-0.04444693	-0.01940091	8.743673e-09	7.886926e-08	0.01734287	0.001196789	5.37491e-09	3.605391e-08
	8.743673e-09	7.886926e-08	-0.04481584	-0.01633279	3.767277e-08	3.580732e-07	0.01725756	0.002362229
	0.01734287	0.001196789	3.767277e-08	3.580732e-07	-0.04467384	-0.0194199	8.920738e-09	8.923425e-08
	5.37491e-09	3.605391e-08	0.01725756	0.002362229	8.920738e-09	8.923425e-08	-0.04506403	-0.01606142
3.6e+08	-0.04593002	-0.01746543	8.060297e-09	8.151565e-08	0.01714783	0.0004778518	4.323282e-09	3.733775e-08
	8.060297e-09	8.151565e-08	-0.0461774	-0.01427704	3.987217e-08	3.688738e-07	0.01711174	0.001686258
	0.01714783	0.0004778518	3.987217e-08	3.688738e-07	-0.04616965	-0.01747138	8.683231e-09	9.22237e-08
	4.323282e-09	3.733775e-08	0.01711174	0.001686258	8.683231e-09	9.22237e-08	-0.04642352	-0.01398235
3.7e+08	-0.04726394	-0.01542429	7.374155e-09	8.4286e-08	0.01687772	-0.0002208086	3.238974e-09	3.874401e-08
	7.374155e-09	8.4286e-08	-0.04738043	-0.01212468	4.223426e-08	3.796488e-07	0.01689431	0.001026907
	0.01687772	-0.0002208086	4.223426e-08	3.796488e-07	-0.04751577	-0.01541599	8.47018e-09	9.530457e-08
	3.238974e-09	3.874401e-08	0.01689431	0.001026907	8.47018e-09	9.530457e-08	-0.04762287	-0.01180662
3.8e+08	-0.04844094	-0.01328962	6.698488e-09	8.718467e-08	0.01653457	-0.000892349	2.133077e-09	4.027842e-08
	6.698488e-09	8.718467e-08	-0.04841793	-0.009888835	4.476034e-08	3.903857e-07	0.01660701	0.0003906454
	0.01653457	-0.000892349	4.476034e-08	3.903857e-07	-0.04870431	-0.0132659	8.292124e-09	9.84783e-08
	2.133077e-09	4.027842e-08	0.01660701	0.0003906454	8.292124e-09	9.84783e-08	-0.04865508	-0.009547501
3.9e+08	-0.04945426	-0.01107409	6.047283e-09	9.021465e-08	0.01612101	-0.001530131	1.017334e-09	4.194572e-08
	6.047283e-09	9.021465e-08	-0.04928399	-0.007583111	4.745059e-08	4.010721e-07	0.01625214	-0.0002162357
	0.01612101	-0.001530131	4.745059e-08	4.010721e-07	-0.04972843	-0.01103381	8.160049e-09	1.017452e-07
	1.017334e-09	4.194572e-08	0.01625214	-0.0002162357	8.160049e-09	1.017452e-07	-0.04951424	-0.007218748
4e+08	-0.05029818	-0.008790875	5.435123e-09	9.337741e-08	0.01564029	-0.002127776	-9.593304e-11	4.374962e-08
	5.435123e-09	9.337741e-08	-0.04997381	-0.005221522	5.030406e-08	4.116949e-07	0.01583254	-0.0007876727
	0.01564029	-0.002127776	5.030406e-08	4.116949e-07	-0.05058228	-0.008732927	8.085263e-09	1.051043e-07
	-9.593304e-11	4.374962e-08	0.01583254	-0.0007876727	8.085263e-09	1.051043e-07	-0.05019557	-0.004834517
4.1e+08	-0.050968	-0.006453513	4.877023e-09	9.667282e-08	0.01509619	-0.002679211	-1.193901e-09	4.569278e-08
	4.877023e-09	9.667282e-08	-0.05048373	-0.002818387	5.331855e-08	4.222413e-07	0.01535161	-0.001317878
	0.01509619	-0.002679211	5.331855e-08	4.222413e-07	-0.05126106	-0.006376851	8.079248e-09	1.085534e-07
	-1.193901e-09	4.569278e-08	0.01535161	-0.001317878	8.079248e-09	1.085534e-07	-0.05069545	-0.002409273
4.2e+08	-0.05146013	-0.004075875	4.388244e-09	1.000991e-07	0.01449305	-0.003178725	-2.263338e-09	4.777667e-08
	4.388244e-09	1.000991e-07	-0.05081127	-0.0003882566	5.649067e-08	4.326981e-07	0.01481322	-0.001801383
	0.01449305	-0.003178725	5.649067e-08	4.326981e-07	-0.05176107	-0.003979514	8.15351e-09	1.120889e-07
	-2.263338e-09	4.777667e-08	0.01481322	-0.001801383	8.15351e-09	1.120889e-07	-0.05101142	4.229541e-05
4.3e+08	-0.05177206	-0.001672051	3.984102e-09	1.036526e-07	0.01383568	-0.003621007	-3.290692e-09	5.000161e-08
	3.984102e-09	1.036526e-07	-0.0509551	0.002054199	5.981571e-08	4.430523e-07	0.01422173	-0.002233083
	0.01383568	-0.003621007	5.981571e-08	4.430523e-07	-0.05207971	-0.001555082	8.319407e-09	1.157056e-07
	-3.290692e-09	5.000161e-08	0.01422173	-0.002233083	8.319407e-09	1.157056e-07	-0.05114223	0.002505377
4.4e+08	-0.0519024	0.0007437165	3.679763e-09	1.073282e-07	0.01312938	-0.004001192	-4.262196e-09	5.236665e-08
	3.679763e-09	1.073282e-07	-0.05091508	0.004494263	6.328771e-08	4.532912e-07	0.01358195	-0.002608276
	0.01312938	-0.004001192	6.328771e-08	4.532912e-07	-0.0522155	0.0008821217	8.58798e-09	1.193973e-07
	-4.262196e-09	5.236665e-08	0.01358195	-0.002608276	8.58798e-09	1.193973e-07	-0.05108779	0.004965123
4.5e+08	-0.05185087	0.003157132	3.490033e-09	1.111187e-07	0.01237987	-0.004314899	-5.163973e-09	5.486955e-08
	3.490033e-09	1.111187e-07	-0.05069224	0.006917277	6.689936e-08	4.634023e-07	0.01289907	-0.002922699
	0.01237987	-0.004314899	6.689936e-08	4.634023e-07	-0.05216807	0.003317707	8.969773e-09	1.231562e-07
	-5.163973e-09	5.486955e-08	0.01289907	-0.002922699	8.969773e-09	1.231562e-07	-0.05084921	0.007406749
4.6e+08	-0.05161833	0.005553931	3.429137e-09	1.150154e-07	0.01159323	-0.004558269	-5.982198e-09	5.750679e-08
	3.429137e-09	1.150154e-07	-0.05028876	0.009308731	7.064211e-08	4.733734e-07	0.01217866	-0.003172561
	0.01159323	-0.004558269	7.064211e-08	4.733734e-07	-0.05193819	0.005737303	9.474625e-09	1.269729e-07
	-5.982198e-09	5.750679e-08	0.01217866	-0.003172561	9.474625e-09	1.269729e-07	-0.05042879	0.009815643
4.7e+08	-0.05120673	0.007919966	3.510505e-09	1.190076e-07	0.01077589	-0.004727993	-6.703106e-09	6.027348e-08
	3.510505e-09	1.190076e-07	-0.04970798	0.01165434	7.450609e-08	4.831933e-07	0.01142661	-0.003354576
	0.01077589	-0.004727993	7.450609e-08	4.831933e-07	-0.05152774	0.008126643	1.011158e-08	1.308371e-07
	-6.703106e-09	6.027348e-08	0.01142661	-0.003354576	1.011158e-08	1.308371e-07	-0.04982995	0.0121774
4.8e+08	-0.05061913	0.01024126	3.74663e-09	1.230834e-07	0.009934546	-0.004821342	-7.313145e-09	6.316342e-08
	3.74663e-09	1.230834e-07	-0.04895437	0.01394017	7.848021e-08	4.928511e-07	0.01064908	-0.003465986
