!$
! Info: Touchstone file created by Circ.  Input file=Tx_6in_Rx_100ohms_TxVia_60mils_RxVia_70mils.circ
!$
# Hz S RI R 50
0	0.006352864	9.660982e-26	1.357316e-09	9.824542e-28	5.221154e-05	1.248608e-23	1.224263e-09	4.21253e-28
	1.357324e-09	9.82458e-28	0.006348153	1.118894e-25	9.347975e-10	1.411341e-27	5.241654e-05	1.540898e-23
	5.319339e-05	1.270496e-23	9.347863e-10	1.411314e-27	0.006366944	9.253818e-26	-3.291492e-09	4.525312e-25
	1.224261e-09	4.211292e-28	5.268632e-05	1.547506e-23	-3.291082e-09	4.52481e-25	0.006362654	1.113799e-25
1e+07	0.008602756	0.004616751	2.49997e-09	3.668661e-09	0.0001580841	0.001267268	-2.371196e-09	3.053858e-08
	2.49997e-09	3.668661e-09	0.009221558	0.004486623	1.647979e-09	2.631637e-09	0.000370371	0.001305468
	0.0001580935	0.001267235	1.647979e-09	2.631637e-09	0.008962602	0.0044645	-6.370937e-09	1.758598e-08
	-2.371196e-09	3.053858e-08	0.0003703734	0.001305465	-6.370937e-09	1.758598e-08	0.00914346	0.004499805
2e+07	0.01146614	0.007267015	4.123786e-09	6.598166e-09	0.0004001269	0.002530622	1.368601e-08	2.364176e-08
	4.123786e-09	6.598166e-09	0.01180662	0.006834788	2.719587e-09	4.823072e-09	0.0005261199	0.002682626
	0.0004001002	0.002530621	2.719587e-09	4.823071e-09	0.01159736	0.006898262	-4.091344e-09	6.367e-09
	1.368601e-08	2.364176e-08	0.0005261167	0.002682626	-4.091344e-09	6.367e-09	0.01175446	0.006891904
3e+07	0.01395391	0.008716774	6.432145e-09	8.543156e-09	0.000794565	0.00372612	2.210735e-08	2.8594e-08
	6.432145e-09	8.543156e-09	0.01406588	0.008211291	3.885243e-09	6.443467e-09	0.000853094	0.003918809
	0.0007945625	0.003726124	3.885243e-09	6.443467e-09	0.01390899	0.008302611	6.464114e-09	8.706534e-09
	2.210735e-08	2.8594e-08	0.0008530937	0.003918811	6.464114e-09	8.706534e-09	0.01403591	0.008287618
4e+07	0.01627879	0.009606804	9.09417e-09	1.014167e-08	0.001331966	0.004850651	3.136687e-08	3.338085e-08
	9.09417e-09	1.014167e-08	0.01618827	0.009099839	5.411483e-09	7.891745e-09	0.001348073	0.0050657
	0.001331966	0.004850647	5.411483e-09	7.891745e-09	0.01608956	0.009201217	9.735455e-09	1.081348e-08
	3.136687e-08	3.338085e-08	0.001348074	0.005065701	9.735455e-09	1.081348e-08	0.01617897	0.009187592
5e+07	0.01849733	0.01008231	1.217376e-08	1.119867e-08	0.002000983	0.005889231	4.183275e-08	3.665636e-08
	1.217376e-08	1.119867e-08	0.01822431	0.009620065	7.131352e-09	9.041507e-09	0.002079777	0.0060856
	0.002000981	0.005889229	7.131352e-09	9.041507e-09	0.01818962	0.009717877	1.286152e-08	1.18116e-08
	4.183275e-08	3.665636e-08	0.002079778	0.006085601	1.286152e-08	1.18116e-08	0.01823416	0.009714317
6e+07	0.02062378	0.01021071	1.557664e-08	1.161251e-08	0.002788602	0.006827118	5.332131e-08	3.784353e-08
	1.557664e-08	1.161251e-08	0.02018779	0.009829668	9.013714e-09	9.841717e-09	0.002914065	0.006994414
	0.002788604	0.006827122	9.013714e-09	9.841717e-09	0.02022119	0.009910434	1.625013e-08	1.212512e-08
	5.332131e-08	3.784353e-08	0.002914066	0.006994415	1.625013e-08	1.212512e-08	0.02021541	0.009926651
7e+07	0.02265509	0.01003201	1.917268e-08	1.131579e-08	0.003689171	0.007646655	6.545881e-08	3.662715e-08
	1.917268e-08	1.131579e-08	0.02207665	0.009762903	1.100307e-08	1.026006e-08	0.003837499	0.007782151
	0.00368918	0.00764666	1.100307e-08	1.026006e-08	0.02218057	0.009813379	1.988356e-08	1.176557e-08
	6.545881e-08	3.662715e-08	0.003837501	0.007782151	1.988356e-08	1.176557e-08	0.0221205	0.009859321
8e+07	0.02457997	0.009574815	2.281768e-08	1.027205e-08	0.004678711	0.008338781	7.779095e-08	3.283966e-08
	2.281768e-08	1.027205e-08	0.02388153	0.009445106	1.303245e-08	1.027525e-08	0.00483467	0.008439394
	0.004678724	0.008338785	1.303245e-08	1.027525e-08	0.02405685	0.009452067	2.36748e-08	1.068524e-08
	7.779095e-08	3.283966e-08	0.004834671	0.008439393	2.36748e-08	1.068524e-08	0.0239397	0.00953798
9e+07	0.02638266	0.008862262	2.637155e-08	8.477611e-09	0.005738027	0.00889546	8.983023e-08	2.642911e-08
	2.637155e-08	8.477611e-09	0.02559057	0.008899023	1.503389e-08	9.882008e-09	0.005888263	0.008957669
	0.005738038	0.00889546	1.503389e-08	9.882008e-09	0.02583646	0.008848929	2.752101e-08	8.839406e-09
	8.983023e-08	2.642911e-08	0.005888264	0.008957668	2.752101e-08	8.839406e-09	0.02566066	0.008985619
1e+08	0.02804176	0.00791083	2.969854e-08	5.951211e-09	0.006851463	0.009312385	1.010867e-07	1.744572e-08
	2.969854e-08	5.951211e-09	0.02719862	0.008155281	1.693091e-08	9.089478e-09	0.006976505	0.00932633
	0.006851463	0.009312385	1.693091e-08	9.089478e-09	0.02751152	0.008033245	3.131059e-08	6.185336e-09
	1.010867e-07	1.744572e-08	0.006976505	0.00932633	3.131059e-08	6.185336e-09	0.02727698	0.008232201
1.1e+08	0.02952703	0.006772655	3.287263e-08	2.774645e-09	0.008007162	0.009568649	1.116012e-07	6.327147e-09
	3.287263e-08	2.774645e-09	0.0287198	0.007173182	1.870697e-08	7.95088e-09	0.008068617	0.00956735
	0.008007162	0.009568649	1.870697e-08	7.95088e-09	0.02908973	0.006970908	3.465537e-08	2.800371e-09
	1.116012e-07	6.327147e-09	0.008068615	0.00956735	3.465537e-08	2.800371e-09	0.02880011	0.007243452
1.2e+08	0.03085678	0.005461024	3.564621e-08	-1.094515e-09	0.009167204	0.009666517	1.207209e-07	-7.080537e-09
	3.564621e-08	-1.094515e-09	0.03007113	0.005988084	2.030674e-08	6.406669e-09	0.009174945	0.009672929
	0.009167204	0.009666517	2.030674e-08	6.406669e-09	0.03049416	0.005696616	3.756164e-08	-1.273634e-09
	1.207209e-07	-7.080537e-09	0.009174943	0.00967293	3.756164e-08	-1.273634e-09	0.03015373	0.006053379
1.3e+08	0.03201171	0.003990157	3.789997e-08	-5.571554e-09	0.01031425	0.009610559	1.280617e-07	-2.253289e-08
	3.789997e-08	-5.571554e-09	0.03124691	0.004635753	2.163182e-08	4.526121e-09	0.01027338	0.009637158
	0.01031425	0.009610559	2.163182e-08	4.526121e-09	0.03171654	0.004245316	3.992186e-08	-5.985203e-09
	1.280617e-07	-2.253289e-08	0.01027338	0.009637159	3.992186e-08	-5.985203e-09	0.03133124	0.004696434
1.4e+08	0.03297741	0.002380974	3.953214e-08	-1.058486e-08	0.0114293	0.009404783	1.332763e-07	-3.977983e-08
	3.953214e-08	-1.058486e-08	0.03223616	0.003141593	2.262648e-08	2.347366e-09	0.01134479	0.009461293
	0.0114293	0.009404783	2.262648e-08	2.347366e-09	0.03274402	0.00264305	4.162937e-08	-1.125902e-08
	1.332763e-07	-3.977983e-08	0.01134479	0.009461294	4.162937e-08	-1.125902e-08	0.03232143	0.003197843
1.5e+08	0.03374177	0.0006562767	4.045046e-08	-1.604699e-08	0.01249368	0.009055166	1.360525e-07	-5.851782e-08
	4.045046e-08	-1.604699e-08	0.03302873	0.001530125	2.323988e-08	-8.255915e-11	0.01237089	0.009149647
	0.01249368	0.009055166	2.323988e-08	-8.255914e-11	0.03356488	0.0009153974	4.258732e-08	-1.700286e-08
	1.360525e-07	-5.851782e-08	0.01237089	0.009149648	4.258732e-08	-1.700286e-08	0.03311412	0.001582131
1.6e+08	0.03429497	-0.001159911	4.05746e-08	-2.185619e-08	0.01348947	0.008569861	1.361209e-07	-7.839556e-08
	4.05746e-08	-2.185619e-08	0.03361624	-0.0001740751	2.342757e-08	-2.70872e-09	0.0133343	0.008709056
	0.01348947	0.008569861	2.342757e-08	-2.70872e-09	0.03416931	-0.0009117317	4.271151e-08	-2.310959e-08
	1.361209e-07	-7.839556e-08	0.0133343	0.008709057	4.271151e-08	-2.310959e-08	0.03370087	-0.0001260717
1.7e+08	0.03462958	-0.003042676	3.983839e-08	-2.789818e-08	0.01439986	0.007959166	1.33262e-07	-9.902013e-08
	3.983839e-08	-2.789818e-08	0.03399236	-0.001946193	2.315278e-08	-5.469254e-09	0.01421877	0.008148629
	0.01439986	0.007959166	2.315278e-08	-5.469254e-09	0.0345498	-0.002811949	4.193274e-08	-2.945901e-08
	1.33262e-07	-9.902013e-08	0.01421877	0.008148629	4.193274e-08	-2.945901e-08	0.03407536	-0.001901863
1.8e+08	0.03474072	-0.004966465	3.819167e-08	-3.404822e-08	0.01520947	0.007235395	1.273122e-07	-1.19964e-07
	3.819167e-08	-3.404822e-08	0.03415306	-0.003761213	2.238745e-08	-8.296446e-09	0.01500938	0.007479532
	0.01520947	0.007235395	2.238745e-08	-8.296446e-09	0.03470135	-0.00475847	4.019865e-08	-3.591998e-08
	1.273122e-07	-1.19964e-07	0.01500938	0.007479533	4.019865e-08	-3.591998e-08	0.03423358	-0.003720123
1.9e+08	0.03462617	-0.006905374	3.560059e-08	-4.017444e-08	0.01590459	0.006412712	1.181685e-07	-1.407728e-07
	3.560059e-08	-4.017444e-08	0.03409672	-0.005594049	2.111271e-08	-1.111888e-08	0.01569281	0.006714785
	0.01590459	0.006412712	2.111271e-08	-1.111888e-08	0.03462167	-0.006724289	3.747414e-08	-4.235391e-08
	1.181685e-07	-1.407728e-07	0.01569281	0.006714785	3.747414e-08	-4.235391e-08	0.03417397	-0.005555671
2e+08	0.03428642	-0.008833421	3.205133e-08	-4.613723e-08	0.0164734	0.005506904	1.05793e-07	-1.609738e-07
	3.205133e-08	-4.613723e-08	0.03382423	-0.007419766	1.932028e-08	-1.386047e-08	0.01625753	0.005869024
	0.0164734	0.005506904	1.932028e-08	-1.386047e-08	0.0343112	-0.008682428	3.374507e-08	-4.861428e-08
	1.05793e-07	-1.609738e-07	0.01625753	0.005869024	3.374507e-08	-4.861428e-08	0.03389749	-0.007383467
2.1e+08	0.03372473	-0.01072484	2.755072e-08	-5.17934e-08	0.01690622	0.004535139	9.021503e-08	-1.80085e-07
	2.755072e-08	-5.17934e-08	0.03333902	-0.00921379	1.701311e-08	-1.644293e-08	0.01669399	0.004958261
	0.01690622	0.004535139	1.701311e-08	-1.644293e-08	0.03377323	-0.0106062	2.901897e-08	-5.455085e-08
	9.021503e-08	-1.80085e-07	0.01669399	0.004958261	2.901897e-08	-5.455085e-08	0.03340764	-0.009178852
2.2e+08	0.03294713	-0.0125544	2.212505e-08	-5.700012e-08	0.0171956	0.003515692	7.153332e-08	-1.97624e-07
	2.212505e-08	-5.700012e-08	0.03264702	-0.01095216	1.420509e-08	-1.878835e-08	0.01699478	0.003999613
	0.0171956	0.003515692	1.420509e-08	-1.878835e-08	0.0330139	-0.01246948	2.33238e-08	-6.001383e-08
	7.153332e-08	-1.97624e-07	0.01699478	0.003999613	2.33238e-08	-6.001383e-08	0.03271047	-0.01091779
2.3e+08	0.0319624	-0.01429765	1.582112e-08	-6.161683e-08	0.01733651	0.002467647	4.991585e-08	-2.131184e-07
	1.582112e-08	-6.161683e-08	0.0317567	-0.0126118	1.092137e-08	-2.082005e-08	0.01715474	0.003011022
	0.01733651	0.002467647	1.092137e-08	-2.082005e-08	0.03204213	-0.01424705	1.670908e-08	-6.485584e-08
	4.991585e-08	-2.131184e-07	0.01715474	0.003011022	1.670908e-08	-6.485584e-08	0.03181454	-0.01257711
2.4e+08	0.03078193	-0.0159313	8.706057e-09	-6.550799e-08	0.01732641	0.001410586	2.559911e-08	-2.261145e-07
	8.706057e-09	-6.550799e-08	0.03067889	-0.01417073	7.198267e-09	-2.246418e-08	0.01717106	0.002010961
	0.01732641	0.001410586	7.198267e-09	-2.246418e-08	0.03086957	-0.01591485	9.245628e-09	-6.893485e-08
	2.559911e-08	-2.261145e-07	0.01717106	0.002010961	9.245628e-09	-6.893485e-08	0.03073082	-0.01413483
2.5e+08	0.0294197	-0.01743348	8.668067e-10	-6.854597e-08	0.01716529	0.0003642764	-1.114246e-09	-2.361877e-07
	8.668067e-10	-6.854597e-08	0.02942677	-0.01560841	3.082967e-09	-2.365123e-08	0.01704333	0.001018128
	0.01716529	0.0003642764	3.082967e-09	-2.365123e-08	0.02951048	-0.01745032	1.025019e-09	-7.211719e-08
	-1.114246e-09	-2.361877e-07	0.01704333	0.001018128	1.025019e-09	-7.211719e-08	0.0294726	-0.01557032
2.6e+08	0.02789202	-0.01878401	-7.590803e-09	-7.061378e-08	0.01685568	-0.0006516604	-2.985895e-08	-2.429509e-07
	-7.590803e-09	-7.061378e-08	0.02801564	-0.01690588	-1.36703e-09	-2.431766e-08	0.01677352	5.114021e-05
	0.01685568	-0.0006516603	-1.36703e-09	-2.431766e-08	0.02798156	-0.01883266	-7.841365e-09	-7.428039e-08
	-2.985895e-08	-2.429509e-07	0.01677352	5.114017e-05	-7.841365e-09	-7.428039e-08	0.02805532	-0.01686463
2.7e+08	0.02621742	-0.0199647	-1.654334e-08	-7.160782e-08	0.01640262	-0.001618069	-6.02119e-08	-2.460642e-07
	-1.654334e-08	-7.160782e-08	0.02646279	-0.01804608	-6.084662e-09	-2.440732e-08	0.016366	-0.0008717726
	0.01640262	-0.001618069	-6.084662e-09	-2.440732e-08	0.02630176	-0.02004312	-1.722371e-08	-7.531611e-08
	-6.02119e-08	-2.460642e-07	0.016366	-0.0008717726	-1.722371e-08	-7.531611e-08	0.02649639	-0.0180007
2.8e+08	0.02441638	-0.02095958	-2.585146e-08	-7.144035e-08	0.0158136	-0.002516579	-9.169818e-08	-2.452425e-07
	-2.585146e-08	-7.144035e-08	0.02478728	-0.01901402	-1.099427e-08	-2.387284e-08	0.01582746	-0.001733069
	0.0158136	-0.002516579	-1.099427e-08	-2.387284e-08	0.02449205	-0.02106524	-2.697555e-08	-7.51327e-08
	-9.169818e-08	-2.452425e-07	0.01582746	-0.001733069	-2.697555e-08	-7.51327e-08	0.02481503	-0.01896352
2.9e+08	0.0225111	-0.0217551	-3.53619e-08	-7.00419e-08	0.01509839	-0.003329911	-1.237982e-07	-2.402632e-07
	-3.53619e-08	-7.00419e-08	0.02300969	-0.01979696	-1.601273e-08	-2.267694e-08	0.01516677	-0.002516188
	0.01509839	-0.003329911	-1.601273e-08	-2.267694e-08	0.02257514	-0.02188508	-3.693585e-08	-7.365771e-08
	-1.237982e-07	-2.402632e-07	0.01516677	-0.002516188	-3.693585e-08	-7.365771e-08	0.02303194	-0.01974042
3e+08	0.0205252	-0.02234039	-4.490986e-08	-6.736334e-08	0.01426895	-0.004042168	-1.559559e-07	-2.309728e-07
	-4.490986e-08	-6.736334e-08	0.0211519	-0.0203846	-2.105084e-08	-2.079346e-08	0.0143949	-0.003205823
	0.01426895	-0.004042168	-2.105084e-08	-2.079346e-08	0.02057521	-0.02249143	-4.693155e-08	-7.084007e-08
	-1.559559e-07	-2.309728e-07	0.0143949	-0.003205823	-4.693155e-08	-7.084007e-08	0.02116912	-0.02032114
3.1e+08	0.01848343	-0.02270732	-5.432172e-08	-6.337766e-08	0.01333922	-0.004639103	-1.875878e-07	-2.172925e-07
	-5.432172e-08	-6.337766e-08	0.01923678	-0.02076921	-2.601477e-08	-1.820836e-08	0.01352468	-0.003788181
	0.01333922	-0.004639103	-2.601477e-08	-1.820836e-08	0.01851761	-0.02287592	-5.678033e-08	-6.665198e-08
	-1.875878e-07	-2.172925e-07	0.01352468	-0.003788181	-5.678033e-08	-6.665198e-08	0.01924957	-0.020698
3.2e+08	0.01641133	-0.02285071	-6.341792e-08	-5.808145e-08	0.01232487	-0.005108362	-2.180932e-07	-1.992223e-07
	-6.341792e-08	-5.808145e-08	0.0172879	-0.02094571	-3.080774e-08	-1.492044e-08	0.01257065	-0.004251214
	0.01232487	-0.005108362	-3.080774e-08	-1.492044e-08	0.01642846	-0.02303322	-6.629379e-08	-6.109042e-08
	-2.180932e-07	-1.992223e-07	0.01257065	-0.004251214	-6.629379e-08	-6.109042e-08	0.01729697	-0.02086603
3.3e+08	0.0143349	-0.02276838	-7.201624e-08	-5.149596e-08	0.01124308	-0.005439698	-2.468645e-07	-1.768444e-07
	-7.201624e-08	-5.149596e-08	0.01532926	-0.02091178	-3.533176e-08	-1.094182e-08	0.0115488	-0.004584824
	0.01124308	-0.005439698	-3.533176e-08	-1.094182e-08	0.01433438	-0.02296107	-7.528075e-08	-5.41783e-08
	-2.468645e-07	-1.768444e-07	0.0115488	-0.004584824	-7.528075e-08	-5.41783e-08	0.01533541	-0.02082299
3.4e+08	0.01228025	-0.02246116	-7.993517e-08	-4.366772e-08	0.01011222	-0.005625151	-2.732984e-07	-1.503244e-07
	-7.993517e-08	-4.366772e-08	0.01338491	-0.02066784	-3.948948e-08	-6.298243e-09	0.0104763	-0.004781035
	0.01011222	-0.005625151	-3.948948e-08	-6.298243e-09	0.01226208	-0.02266031	-8.355085e-08	-4.596505e-08
	-2.732984e-07	-1.503244e-07	0.0104763	-0.004781035	-8.355085e-08	-4.596505e-08	0.01338905	-0.02056942
3.5e+08	0.01027323	-0.02193295	-8.699735e-08	-3.466872e-08	0.008951599	-0.00565919	-2.968077e-07	-1.19912e-07
	-8.699735e-08	-3.466872e-08	0.01147871	-0.0202171	-4.318606e-08	-1.029066e-09	0.009371264	-0.004834139
	0.008951599	-0.00565919	-4.318606e-08	-1.029066e-09	0.010238	-0.02213495	-9.091822e-08	-3.652682e-08
	-2.968077e-07	-1.19912e-07	0.009371264	-0.004834139	-9.091822e-08	-3.652682e-08	0.01148181	-0.02010864
3.6e+08	0.008339103	-0.02119066	-9.303324e-08	-2.459607e-08	0.007781109	-0.005538814	-3.1683e-07	-8.593799e-08
	-9.303324e-08	-2.459607e-08	0.009633954	-0.01956549	-4.633179e-08	4.813602e-09	0.008252388	-0.004740791
	0.007781109	-0.005538814	-4.633179e-08	4.813602e-09	0.008287948	-0.02139206	-9.720454e-08	-2.596562e-08
	-3.1683e-07	-8.593799e-08	0.008252388	-0.004740791	-9.720454e-08	-2.596562e-08	0.009637036	-0.01944671
3.7e+08	0.006502157	-0.02024409	-9.788465e-08	-1.357112e-08	0.006620904	-0.005263615	-3.328457e-07	-4.881479e-08
	-9.788465e-08	-1.357112e-08	0.007873082	-0.01872156	-4.884185e-08	1.116367e-08	0.007138693	-0.004500076
	0.006620904	-0.005263615	-4.884185e-08	1.116367e-08	0.006436756	-0.0204417	-1.022446e-07	-1.441007e-08
	-3.328457e-07	-4.881479e-08	0.007138693	-0.004500076	-1.022446e-07	-1.441007e-08	0.007877212	-0.01859235
3.8e+08	0.004785393	-0.01910587	-1.014082e-07	-1.738153e-09	0.005491067	-0.004835795	-3.443845e-07	-9.028217e-09
	-1.014082e-07	-1.738153e-09	0.006217379	-0.01769643	-5.064012e-08	1.794331e-08	0.006049191	-0.004113535
	0.005491067	-0.004835795	-5.064012e-08	1.794331e-08	0.004707899	-0.01929682	-1.058887e-07	-2.012346e-09
	-3.443845e-07	-9.028217e-09	0.006049191	-0.004113535	-1.058887e-07	-2.012346e-09	0.00622364	-0.01755681
3.9e+08	0.003210189	-0.01779124	-1.034787e-07	1.073749e-08	0.004411271	-0.00426014	-3.510357e-07	3.286766e-08
	-1.034787e-07	1.073749e-08	0.00468668	-0.01650359	-5.166047e-08	2.506383e-08	0.00500257	-0.003585143
	0.004411271	-0.00426014	-5.166047e-08	2.506383e-08	0.003123175	-0.01797303	-1.080059e-07	1.105349e-08
	-3.510357e-07	3.286766e-08	0.00500257	-0.003585143	-1.080059e-07	1.105349e-08	0.004696153	-0.01635371
4e+08	0.001795997	-0.01631786	-1.03992e-07	2.367175e-08	0.00340045	-0.003543949	-3.524595e-07	7.625822e-08
	-1.03992e-07	2.367175e-08	0.003299106	-0.01515874	-5.184822e-08	3.242676e-08	0.004016889	-0.002921256
	0.00340045	-0.003543949	-5.184822e-08	3.242676e-08	0.001702411	-0.01648845	-1.084881e-07	2.459379e-08
	-3.524595e-07	7.625822e-08	0.004016889	-0.002921256	-1.084881e-07	2.459379e-08	0.003312852	-0.0149989
4.1e+08	0.0005600634	-0.0147056	-1.028682e-07	3.686473e-08	0.002476477	-0.002696928	-3.483947e-07	1.204774e-07
	-1.028682e-07	3.686473e-08	0.002070812	-0.01367953	-5.116148e-08	3.992545e-08	0.003109267	-0.002130511
	0.002476477	-0.002696928	-5.116148e-08	3.992545e-08	0.0004631484	-0.01486342	-1.07252e-07	3.839836e-08
	-3.483947e-07	1.204774e-07	0.003109267	-0.002130511	-1.07252e-07	3.839836e-08	0.002089852	-0.01351021
4.2e+08	-0.0004828226	-0.01297622	-1.000536e-07	5.010384e-08	0.001655862	-0.001731029	-3.386674e-07	1.64818e-07
	-1.000536e-07	5.010384e-08	0.001015771	-0.01208541	-4.957241e-08	4.744674e-08	0.002295605	-0.001223691
	0.001655862	-0.001731029	-4.957241e-08	4.744674e-08	-0.0005795982	-0.01312022	-1.042423e-07	5.22438e-08
	-3.386674e-07	1.64818e-07	0.002295605	-0.001223691	-1.042423e-07	5.22438e-08	0.001041061	-0.01190719
4.3e+08	-0.001320536	-0.0111531	-9.552272e-08	6.316743e-08	0.0009534695	-0.0006602687	-3.23196e-07	2.085436e-07
	-9.552272e-08	6.316743e-08	0.0001455793	-0.01039726	-4.706811e-08	5.487289e-08	0.001590312	-0.0002135517
	0.0009534695	-0.0006602687	-4.706811e-08	5.487289e-08	-0.001413551	-0.01128279	-9.943351e-08	6.589737e-08
	-3.23196e-07	2.085436e-07	0.001590312	-0.0002135517	-9.943351e-08	6.589737e-08	0.000178002	-0.01021088
4.4e+08	-0.001943801	-0.009260881	-8.927984e-08	7.582864e-08	0.0003822649	0.0004995056	-3.019967e-07	2.509005e-07
	-8.927984e-08	7.582864e-08	-0.0005306947	-0.008637169	-4.365136e-08	6.208356e-08	0.001006066	0.0008853802
	0.0003822649	0.0004995056	-4.365136e-08	6.208356e-08	-0.002029368	-0.009376326	-9.283113e-08	7.9121e-08
	-3.019967e-07	2.509005e-07	0.001006066	0.0008853802	-9.283113e-08	7.9121e-08	-0.0004903587	-0.008443462
4.5e+08	-0.002346321	-0.007325162	-8.135973e-08	8.785952e-08	-4.691057e-05	0.001730868	-2.751857e-07	2.911312e-07
	-8.135973e-08	8.785952e-08	-0.001006639	-0.006828099	-3.9341e-08	6.895798e-08	0.0005535967	0.002057046
	-4.691057e-05	0.001730868	-3.9341e-08	6.895798e-08	-0.002420764	-0.007427	-8.447289e-08	9.167562e-08
	-2.751857e-07	2.911312e-07	0.0005535967	0.002057046	-8.447289e-08	9.167562e-08	-0.0009577195	-0.006628023
4.6e+08	-0.002524882	-0.005372101	-7.182792e-08	9.903511e-08	-0.0003255278	0.003015101	-2.429806e-07	3.284881e-07
	-7.182792e-08	9.903511e-08	-0.001278576	-0.004993572	-3.417201e-08	7.537711e-08	0.0002415016	0.003284114
	-0.0003255278	0.003015101	-3.417201e-08	7.537711e-08	-0.002584616	-0.005461531	-7.442879e-08	1.033255e-07
	-2.429806e-07	3.284881e-07	0.0002415016	0.003284114	-7.442879e-08	1.033255e-07	-0.001220534	-0.004788173
4.7e+08	-0.002479365	-0.003428032	-6.078395e-08	1.091448e-07	-0.0004475209	0.0043325	-2.056844e-07	3.622213e-07
	-6.078395e-08	1.091448e-07	-0.001345616	-0.003157344	-2.819528e-08	8.122382e-08	7.610119e-05	0.004548261
	-0.0004475209	0.0043325	-2.819528e-08	8.122382e-08	-0.002521004	-0.003506822	-6.280379e-08	1.138497e-07
