!$
! Info: Touchstone file created by Circ.  Input file=Tx_6in_Rx_93ohms_TxVia_60mils_RxVia_70mils.circ
!$
# Hz S RI R 50
0	0.005629839	9.661728e-26	-3.2618e-05	7.549182e-24	5.222109e-05	1.105107e-23	-3.26545e-05	1.210356e-23
	-3.261799e-05	7.548767e-24	0.005625136	1.118941e-25	-3.25807e-05	3.056556e-24	5.242595e-05	1.363603e-23
	5.32032e-05	1.124479e-23	-3.258069e-05	3.055836e-24	0.005643956	9.254516e-26	-3.261266e-05	7.055335e-24
	-3.265449e-05	1.210281e-23	5.269577e-05	1.369451e-23	-3.261267e-05	7.055707e-24	0.005639659	1.113844e-25
1e+07	0.008365689	0.0002878319	-0.0001597815	-4.542885e-05	0.0001728614	0.001195767	-9.095684e-05	7.373744e-05
	-0.0001597815	-4.542885e-05	0.008248989	-7.824297e-05	-1.970553e-06	-5.082595e-06	0.0001766763	0.001293141
	0.0001728706	0.001195735	-1.970554e-06	-5.082593e-06	0.007811752	-2.655307e-05	-9.069607e-06	3.373537e-08
	-9.095684e-05	7.373744e-05	0.0001766786	0.001293139	-9.069608e-06	3.373374e-08	0.00809649	-8.300841e-05
2e+07	0.01029795	-0.001612063	-0.0001647292	-3.318759e-06	0.0004519604	0.002407123	-0.0001147228	8.295329e-05
	-0.0001647292	-3.318759e-06	0.009829075	-0.002163215	-2.508034e-06	-3.1783e-06	0.0003829965	0.002584458
	0.0004519337	0.002407122	-2.508032e-06	-3.1783e-06	0.009561515	-0.001918128	-2.546346e-06	-1.639387e-05
	-0.0001147228	8.295329e-05	0.0003829933	0.002584458	-2.546348e-06	-1.639387e-05	0.009712799	-0.002114638
3e+07	0.01134112	-0.004421779	-0.0001677783	1.806846e-05	0.0008720251	0.003570944	-0.0001298642	9.405384e-05
	-0.0001677783	1.806846e-05	0.01058556	-0.004979761	-5.827506e-06	-4.735364e-06	0.0007828233	0.003783013
	0.0008720226	0.003570948	-5.827506e-06	-4.735365e-06	0.01046602	-0.004687251	-1.165676e-05	-2.031473e-05
	-0.0001298642	9.405384e-05	0.000782823	0.003783015	-1.165676e-05	-2.031473e-05	0.01049596	-0.004918887
4e+07	0.01172375	-0.007551223	-0.0001689264	3.717315e-05	0.001428914	0.004668891	-0.0001403123	0.0001033315
	-0.0001689264	3.717315e-05	0.01071862	-0.008042018	-8.558238e-06	-4.724073e-06	0.001351171	0.004896866
	0.001428913	0.004668887	-8.558238e-06	-4.724073e-06	0.01073896	-0.007748681	-1.974333e-05	-2.097488e-05
	-0.0001403123	0.0001033315	0.001351172	0.004896867	-1.974333e-05	-2.097488e-05	0.01064999	-0.007979777
5e+07	0.01153113	-0.01081345	-0.0001686822	5.458393e-05	0.002113359	0.005682924	-0.0001477338	0.0001107024
	-0.0001686822	5.458393e-05	0.01030608	-0.01118408	-1.082138e-05	-3.879332e-06	0.002041333	0.005919593
	0.002113356	0.005682922	-1.082138e-05	-3.879332e-06	0.01046064	-0.01092271	-2.699966e-05	-1.958807e-05
	-0.0001477338	0.0001107024	0.002041334	0.005919593	-2.699966e-05	-1.958807e-05	0.01025332	-0.01112629
6e+07	0.01081341	-0.01409365	-0.0001714733	5.995404e-05	0.002913259	0.006597023	-0.0001532566	0.0001160467
	-0.0001714733	5.995404e-05	0.009397057	-0.01430097	-1.269635e-05	-2.445147e-06	0.002841414	0.00683826
	0.002913261	0.006597027	-1.269635e-05	-2.445147e-06	0.009679333	-0.0140991	-3.346354e-05	-1.660703e-05
	-0.0001532566	0.0001160467	0.002841416	0.006838261	-3.346354e-05	-1.660703e-05	0.009355601	-0.01425122
7e+07	0.009609556	-0.01730637	-0.0001741844	6.569108e-05	0.003814514	0.007397282	-0.0001577854	0.0001190828
	-0.0001741844	6.569108e-05	0.008031719	-0.01731302	-1.415832e-05	-5.684877e-07	0.003737412	0.007640652
	0.003814523	0.007397287	-1.415832e-05	-5.68488e-07	0.008433524	-0.01719542	-3.908244e-05	-1.224887e-05
	-0.0001577854	0.0001190828	0.003737413	0.007640652	-3.908243e-05	-1.224887e-05	0.00799718	-0.01727382
8e+07	0.007955393	-0.02038226	-0.0001769362	7.160518e-05	0.004801497	0.008072152	-0.0001623273	0.0001193796
	-0.0001769362	7.160518e-05	0.006248665	-0.02015388	-1.518728e-05	1.686691e-06	0.004713589	0.008316001
	0.004801511	0.008072155	-1.518728e-05	1.686691e-06	0.006759596	-0.02014394	-4.373733e-05	-6.614782e-06
	-0.0001623273	0.0001193796	0.00471359	0.008316	-4.373733e-05	-6.614783e-06	0.006216584	-0.02012696
9e+07	0.005886319	-0.02326369	-0.0001799694	7.739138e-05	0.005857759	0.008613151	-0.0001682829	0.0001160628
	-0.0001799694	7.739138e-05	0.004089029	-0.022765	-1.572303e-05	4.319586e-06	0.005752758	0.0088554
	0.00585777	0.008613151	-1.572303e-05	4.319586e-06	0.004695349	-0.02288634	-4.721333e-05	3.186015e-07
	-0.0001682829	0.0001160628	0.005752758	0.008855399	-4.721333e-05	3.18601e-07	0.004054681	-0.02275164
1e+08	0.003431414	-0.02591206	-0.0001844356	8.15609e-05	0.006970246	0.009020635	-0.000179878	0.0001045011
	-0.0001844356	8.15609e-05	0.001606007	-0.02508388	-1.5469e-05	7.631792e-06	0.006836596	0.009251853
	0.006970246	0.009020635	-1.5469e-05	7.631792e-06	0.002284092	-0.02536844	-4.875822e-05	9.281263e-06
	-0.000179878	0.0001045011	0.006836596	0.009251853	-4.875822e-05	9.281263e-06	0.001563192	-0.02508656
1.1e+08	0.0006006372	-0.0282163	-0.0001833124	8.26279e-05	0.008082608	0.009296606	-0.000175491	8.055554e-05
	-0.0001833124	8.26279e-05	-0.001118261	-0.02714112	-1.359482e-05	9.807426e-06	0.007944654	0.009502102
	0.008082608	0.009296606	-1.359482e-05	9.807426e-06	-0.0004192947	-0.02757015	-4.633225e-05	1.597716e-05
	-0.000175491	8.055554e-05	0.007944652	0.009502102	-4.633225e-05	1.597716e-05	-0.001180219	-0.02715181
1.2e+08	-0.002484744	-0.03015534	-0.0001805176	8.660397e-05	0.00919687	0.009407186	-0.0001683968	6.328011e-05
	-0.0001805176	8.660397e-05	-0.00411999	-0.02888536	-1.202078e-05	1.122309e-05	0.009058853	0.009605175
	0.00919687	0.009407185	-1.202078e-05	1.122309e-05	-0.00339707	-0.02945039	-4.431162e-05	2.120541e-05
	-0.0001683968	6.328011e-05	0.009058851	0.009605176	-4.431162e-05	2.120541e-05	-0.004200167	-0.02889793
1.3e+08	-0.005785873	-0.03171682	-0.0001769997	9.171194e-05	0.01029801	0.009362351	-0.0001620873	4.742493e-05
	-0.0001769997	9.171194e-05	-0.007340422	-0.03026968	-1.052536e-05	1.230738e-05	0.01015991	0.009561664
	0.01029801	0.009362351	-1.052536e-05	1.230738e-05	-0.006598883	-0.03097365	-4.213467e-05	2.593664e-05
	-0.0001620873	4.742493e-05	0.01015991	0.009561665	-4.213467e-05	2.593664e-05	-0.00743888	-0.03028036
1.4e+08	-0.009254869	-0.03288192	-0.0001728707	9.748842e-05	0.01136699	0.009167613	-0.0001574015	3.198178e-05
	-0.0001728707	9.748842e-05	-0.01072687	-0.03126775	-9.984977e-06	1.234436e-05	0.01122882	0.009374925
	0.01136699	0.009167613	-9.984977e-06	1.234436e-05	-0.009975053	-0.03211525	-3.967567e-05	3.034514e-05
	-0.0001574015	3.198178e-05	0.01122882	0.009374926	-3.967567e-05	3.034514e-05	-0.01084355	-0.03127322
1.5e+08	-0.01284157	-0.03363623	-0.0001681506	0.000103652	0.01238494	0.008829927	-0.0001548264	1.666058e-05
	-0.0001681506	0.000103652	-0.01422646	-0.03186205	-9.419486e-06	1.241973e-05	0.01224721	0.009050782
	0.01238494	0.008829927	-9.419486e-06	1.241973e-05	-0.01347485	-0.03285765	-3.687149e-05	3.445892e-05
	-0.0001548264	1.666058e-05	0.01224721	0.009050783	-3.687149e-05	3.445892e-05	-0.01436105	-0.03185923
1.6e+08	-0.01649479	-0.03397106	-0.0001628445	0.0001100073	0.01333382	0.008358266	-0.0001546951	1.479327e-06
	-0.0001628445	0.0001100073	-0.01778609	-0.03204256	-8.823682e-06	1.252221e-05	0.01319766	0.008597395
	0.01333382	0.008358266	-8.823682e-06	1.252221e-05	-0.0170469	-0.03318998	-3.369538e-05	3.826673e-05
	-0.0001546951	1.479327e-06	0.01319766	0.008597395	-3.369538e-05	3.826673e-05	-0.01793795	-0.03202854
1.7e+08	-0.02016313	-0.03388365	-0.0001569596	0.0001163965	0.01419683	0.007763681	-0.0001572355	-1.337268e-05
	-0.0001569596	0.0001163965	-0.02135291	-0.03180626	-8.203913e-06	1.263473e-05	0.01406401	0.008025099
	0.01419683	0.007763681	-8.203913e-06	1.263473e-05	-0.02063972	-0.03310786	-3.014314e-05	4.173397e-05
	-0.0001572355	-1.337268e-05	0.01406401	0.0080251	-3.014314e-05	4.173397e-05	-0.02152108	-0.03177829
1.8e+08	-0.02379572	-0.03337726	-0.0001505113	0.0001226854	0.01495874	0.00705919	-0.0001625842	-2.760021e-05
	-0.0001505113	0.0001226854	-0.02487495	-0.03115678	-7.564972e-06	1.27454e-05	0.01483161	0.007346217
	0.01495874	0.00705919	-7.564972e-06	1.27454e-05	-0.02420238	-0.03261323	-2.622925e-05	4.481495e-05
	-0.0001625842	-2.760021e-05	0.01483161	0.007346218	-2.622925e-05	4.481495e-05	-0.02505814	-0.03111232
1.9e+08	-0.02734286	-0.03246104	-0.0001435264	0.0001287565	0.01560616	0.006259593	-0.0001707907	-4.084198e-05
	-0.0001435264	0.0001287565	-0.02830175	-0.03010409	-6.910965e-06	1.284551e-05	0.01548759	0.006574834
	0.01560616	0.006259593	-6.910965e-06	1.284551e-05	-0.02768517	-0.0317141	-2.198442e-05	4.746048e-05
	-0.0001707907	-4.084198e-05	0.01548759	0.006574834	-2.198442e-05	4.746048e-05	-0.02849836	-0.0300408
2e+08	-0.03075672	-0.03114982	-0.0001360434	0.0001345074	0.01612773	0.005381236	-0.0001818185	-5.269961e-05
	-0.0001360434	0.0001345074	-0.031585	-0.0286642	-6.245666e-06	1.292858e-05	0.01602102	0.005726547
	0.01612773	0.005381236	-6.245666e-06	1.292858e-05	-0.03104014	-0.03042432	-1.745367e-05	4.962311e-05
	-0.0001818185	-5.269961e-05	0.01602102	0.005726547	-1.745367e-05	4.962311e-05	-0.03179314	-0.02857999
2.1e+08	-0.03399232	-0.02946374	-0.0001281125	0.0001398494	0.01651884	0.004429199	-0.0001955479	-6.27612e-05
	-0.0001281125	0.0001398494	-0.03467916	-0.02685873	-5.57137e-06	1.298707e-05	0.01642313	0.004818192
	0.01651884	0.004429199	-5.57137e-06	1.298707e-05	-0.0342222	-0.02876315	-1.267071e-05	5.124837e-05
	-0.0001955479	-6.27612e-05	0.01642313	0.004818192	-1.267071e-05	5.124837e-05	-0.03489668	-0.02675179
2.2e+08	-0.03700735	-0.02742795	-0.0001197939	0.0001447083	0.01677091	0.003420453	-0.000211778	-7.06191e-05
	-0.0001197939	0.0001447083	-0.03754204	-0.02471448	-4.89205e-06	1.30169e-05	0.01668741	0.003867555
	0.01677091	0.003420453	-4.89205e-06	1.30169e-05	-0.03718887	-0.02675496	-7.700898e-06	5.229392e-05
	-0.000211778	-7.06191e-05	0.01668741	0.003867555	-7.700898e-06	5.229392e-05	-0.03776657	-0.02458333
2.3e+08	-0.03976247	-0.02507243	-0.0001111558	0.0001490247	0.01687364	0.002389705	-0.0002302311	-7.588684e-05
	-0.0001111558	0.0001490247	-0.04013528	-0.02226301	-4.21311e-06	1.301883e-05	0.01680973	0.002893068
	0.01687364	0.002389705	-4.21311e-06	1.301883e-05	-0.03990059	-0.02442903	-2.649312e-06	5.275031e-05
	-0.0002302311	-7.588684e-05	0.01680973	0.002893068	-2.649312e-06	5.275031e-05	-0.04036427	-0.02210648
2.4e+08	-0.04222283	-0.02243128	-0.0001022731	0.0001527541	0.01682568	0.0013568	-0.0002505609	-7.821556e-05
	-0.0001022731	0.0001527541	-0.04242491	-0.01954001	-3.538051e-06	1.299142e-05	0.01678836	0.001913501
	0.01682568	0.0013568	-3.538051e-06	1.299142e-05	-0.04232229	-0.02181885	2.402832e-06	5.260818e-05
	-0.0002505609	-7.821556e-05	0.01678836	0.001913501	2.402832e-06	5.260818e-05	-0.04265566	-0.01935731
2.5e+08	-0.04435801	-0.01954226	-9.322425e-05	0.0001558668	0.01662823	0.0003415644	-0.0002723596	-7.73071e-05
	-9.322425e-05	0.0001558668	-0.04438166	-0.01658485	-2.87021e-06	1.293404e-05	0.01662401	0.0009476489
	0.01662823	0.0003415644	-2.87021e-06	1.293404e-05	-0.04442325	-0.01896162	7.372026e-06	5.187171e-05
	-0.0002723596	-7.73071e-05	0.01662401	0.0009476488	7.372026e-06	5.187171e-05	-0.04461139	-0.01637554
2.6e+08	-0.04614239	-0.01644625	-8.408944e-05	0.0001583483	0.01628503	-0.0006365384	-0.0002951688	-7.292379e-05
	-8.408944e-05	0.0001583483	-0.04598141	-0.01343984	-2.212732e-06	1.284671e-05	0.01631978	1.402725e-05
	0.01628503	-0.0006365384	-2.212732e-06	1.284671e-05	-0.04617755	-0.01589774	1.217538e-05	5.05589e-05
	-0.0002951688	-7.292379e-05	0.01631978	1.402721e-05	1.217538e-05	5.05589e-05	-0.04620726	-0.01320389
2.7e+08	-0.04755542	-0.01318667	-7.494774e-05	0.0001601987	0.0158023	-0.001558716	-0.0003184906	-6.489854e-05
	-7.494774e-05	0.0001601987	-0.04720534	-0.01014973	-1.568477e-06	1.273026e-05	0.01588114	-0.0008694331
	0.0158023	-0.001558716	-1.568477e-06	1.273026e-05	-0.0475643	-0.01267024	1.673318e-05	4.870142e-05
	-0.0003184906	-6.489854e-05	0.01588114	-0.0008694331	1.673318e-05	4.870142e-05	-0.04742448	-0.009887473
2.8e+08	-0.04858185	-0.009808849	-6.58751e-05	0.000161432	0.0151886	-0.002407163	-0.0003418006	-5.313881e-05
	-6.58751e-05	0.000161432	-0.0480402	-0.006760961	-9.399655e-07	1.258597e-05	0.01531579	-0.001685672
	0.0151886	-0.002407163	-9.399655e-07	1.258597e-05	-0.04856792	-0.009324096	2.097161e-05	4.634383e-05
	-0.0003418006	-5.313881e-05	0.01531579	-0.001685672	2.097161e-05	4.634383e-05	-0.04824987	-0.006473118
2.9e+08	-0.04921193	-0.006359423	-5.694193e-05	0.0001620749	0.01445471	-0.003165338	-0.000364561	-3.76322e-05
	-5.694193e-05	0.0001620749	-0.04847849	-0.003321031	-3.292898e-07	1.241557e-05	0.01463353	-0.002418774
	0.01445471	-0.003165338	-3.292898e-07	1.241557e-05	-0.0491783	-0.005905665	2.482492e-05	4.354237e-05
	-0.000364561	-3.76322e-05	0.01463353	-0.002418774	2.482492e-05	4.354237e-05	-0.04867603	-0.003008688
3e+08	-0.04944145	-0.002885686	-4.821115e-05	0.0001621647	0.01361345	-0.003818235	-0.0003862342	-1.844854e-05
	-4.821115e-05	0.0001621647	-0.04851841	0.0001221924	2.619344e-07	1.22211e-05	0.01384613	-0.00305422
	0.01361345	-0.003818235	2.619344e-07	1.22211e-05	-0.04939085	-0.002462027	2.823753e-05	4.036336e-05
	-0.0003862342	-1.844854e-05	0.01384613	-0.00305422	2.823753e-05	4.036336e-05	-0.04870132	0.0004575986
3.1e+08	-0.04927177	0.0005650676	-3.973668e-05	0.0001617489	0.01267945	-0.004352627	-0.0004062962	4.263596e-06
	-3.973668e-05	0.0001617489	-0.04816391	0.003521153	8.325754e-07	1.20048e-05	0.0129671	-0.003579119
	0.01267945	-0.004352627	8.325754e-07	1.20048e-05	-0.04920659	0.0009596817	3.116575e-05	3.688128e-05
	-0.0004062962	4.263596e-06	0.0129671	-0.003579119	3.116575e-05	3.688128e-05	-0.04832987	0.003877853
3.2e+08	-0.04870976	0.003946155	-3.156189e-05	0.0001608818	0.0116689	-0.004757271	-0.0004242497	3.027738e-05
	-3.156189e-05	0.0001608818	-0.04742454	0.006829257	1.382013e-06	1.176897e-05	0.01201148	-0.003982414
	0.0116689	-0.004757271	1.382013e-06	1.176897e-05	-0.04863205	0.004312883	3.3579e-05	3.317647e-05
	-0.0004242497	3.027738e-05	0.01201148	-0.003982414	3.3579e-05	3.317647e-05	-0.04757151	0.007205181
3.3e+08	-0.04776772	0.007212153	-2.371876e-05	0.000159623	0.01059934	-0.005023097	-0.0004396368	5.929315e-05
	-2.371876e-05	0.000159623	-0.04631532	0.01000153	1.91012e-06	1.151588e-05	0.0109956	-0.004255056
	0.01059934	-0.005023097	1.91012e-06	1.151588e-05	-0.04767917	0.007552202	3.546069e-05	2.933275e-05
	-0.0004396368	5.929315e-05	0.0109956	-0.004255056	3.546069e-05	2.933275e-05	-0.0464415	0.01039434
3.4e+08	-0.04646312	0.01031951	-1.622728e-05	0.0001580354	0.009489307	-0.005143354	-0.0004520497	9.094841e-05
	-1.622728e-05	0.0001580354	-0.04485645	0.01299523	2.417207e-06	1.124763e-05	0.009936837	-0.004390149
	0.009489307	-0.005143354	2.417207e-06	1.124763e-05	-0.04636513	0.01063409	3.68087e-05	2.543488e-05
	-0.0004520497	9.094841e-05	0.009936837	-0.004390149	3.68087e-05	2.543488e-05	-0.04496038	0.01340235
3.5e+08	-0.04481837	0.01322711	-9.095331e-06	0.0001561819	0.008358098	-0.005113723	-0.0004611404	0.0001248239
	-9.095331e-06	0.0001561819	-0.04307304	0.01577047	2.90397e-06	1.096608e-05	0.008853302	-0.004383066
	0.008358098	-0.005113723	2.90397e-06	1.096608e-05	-0.04471205	0.0135174	3.76352e-05	2.156598e-05
	-0.0004611404	0.0001248239	0.008853302	-0.004383066	3.76352e-05	2.156598e-05	-0.04315359	0.01618914
3.6e+08	-0.04286051	0.01589684	-2.318844e-06	0.0001541245	0.007225419	-0.004932391	-0.0004666286	0.0001604564
	-2.318844e-06	0.0001541245	-0.04099468	0.01829069	3.371404e-06	1.067275e-05	0.007763579	-0.004231525
	0.007225419	-0.004932391	3.371404e-06	1.067275e-05	-0.0427467	0.01616393	3.796622e-05	1.780499e-05
	-0.0004666286	0.0001604564	0.007763579	-0.004231524	3.796622e-05	1.780499e-05	-0.0410511	0.01871801
3.7e+08	-0.0406208	0.0182941	4.117426e-06	0.0001519208	0.006111084	-0.004600091	-0.0004683081	0.0001973492
	4.117426e-06	0.0001519208	-0.03865506	0.02052324	3.820708e-06	1.036877e-05	0.006686416	-0.003935632
	0.006111084	-0.004600091	3.820708e-06	1.036877e-05	-0.04050011	0.01853897	3.784061e-05	1.422433e-05
	-0.0004683081	0.0001973492	0.006686416	-0.003935632	3.784061e-05	1.422433e-05	-0.03868696	0.0209562
3.8e+08	-0.03813428	0.02038823	1.023888e-05	0.0001496225	0.005034687	-0.0041201	-0.0004660503	0.0002349846
	1.023888e-05	0.0001496225	-0.03609141	0.02243977	4.253181e-06	1.005484e-05	0.005640428	-0.003497891
	0.005034687	-0.0041201	4.253181e-06	1.005484e-05	-0.03800715	0.02061173	3.730866e-05	1.08877e-05
	-0.0004660503	0.0002349846	0.005640428	-0.003497891	3.730866e-05	1.08877e-05	-0.03609883	0.02287533
3.9e+08	-0.03543932	0.02215299	1.607973e-05	0.000147274	0.004015288	-0.003498196	-0.0004598062	0.0002728377
	1.607973e-05	0.000147274	-0.03334404	0.02401664	4.670105e-06	9.731238e-06	0.004643798	-0.002923171
	0.004015288	-0.003498196	4.670105e-06	9.731238e-06	-0.03530602	0.02235581	3.643035e-05	7.848187e-06
	-0.0004598062	0.0002728377	0.004643798	-0.002923171	3.643035e-05	7.848187e-06	-0.03332739	0.02445175
4e+08	-0.03257702	0.02356682	2.168117e-05	0.0001449102	0.003071092	-0.002742578	-0.0004496066	0.0003103882
	2.168117e-05	0.0001449102	-0.03045568	0.02523521	5.072648e-06	9.39783e-06	0.003713975	-0.002218641
	0.003071092	-0.002742578	5.072648e-06	9.39783e-06	-0.0324377	0.02374949	3.527327e-05	5.146727e-06
	-0.0004496066	0.0003103882	0.003713975	-0.002218641	3.527327e-05	5.146727e-06	-0.03041578	0.0256669
4.1e+08	-0.02959069	0.02461321	2.708961e-05	0.0001425556	0.002219152	-0.001863751	-0.000435558	0.0003471343
	2.708961e-05	0.0001425556	-0.02747091	0.02608214	5.461766e-06	9.054113e-06	0.002867396	-0.001393665
	0.002219152	-0.001863751	5.461766e-06	9.054113e-06	-0.02944544	0.02477606	3.391028e-05	2.810951e-06
	-0.000435558	0.0003471343	0.002867396	-0.001393665	3.391028e-05	2.810951e-06	-0.02740899	0.02650753
4.2e+08	-0.02652524	0.02528088	3.235445e-05	0.0001402239	0.001475078	-0.0008743636	-0.0004178382	0.0003826048
	3.235445e-05	0.0001402239	-0.02443552	0.0265495	5.838116e-06	8.699285e-06	0.002119203	-0.0004596701
	0.001475078	-0.0008743636	5.838116e-06	8.699285e-06	-0.02637411	0.02542408	3.241697e-05	8.544579e-07
	-0.0004178382	0.0003826048	0.002119203	-0.0004596701	3.241697e-05	8.544579e-07	-0.02435316	0.02696589
4.3e+08	-0.02342654	0.02556393	3.752587e-05	0.0001379171	0.0008527691	0.0002109781	-0.00039669	0.0004163691
	3.752587e-05	0.0001379171	-0.02139585	0.02663494	6.201999e-06	8.332319e-06	0.001482993	0.0005700338
	0.0008527691	0.0002109781	6.201999e-06	8.332319e-06	-0.02326957	0.02568745	3.086912e-05	-7.234074e-07
	-0.00039669	0.0004163691	0.001482993	0.0005700338	3.086912e-05	-7.234074e-07	-0.02129501	0.02703981
4.4e+08	-0.02034079	0.02546192	4.265247e-05	0.0001356258	0.0003641709	0.001375941	-0.0003724134	0.0004480466
	4.265247e-05	0.0001356258	-0.01839811	0.02634164	6.553307e-06	7.952052e-06	0.0009705806	0.001680452
	0.0003641709	0.001375941	6.553307e-06	7.952052e-06	-0.02017808	0.02556558	2.933998e-05	-1.937315e-06
	-0.0003724134	0.0004480466	0.0009705806	0.001680452	2.933998e-05	-1.937315e-06	-0.01828105	0.02673275
4.5e+08	-0.01731388	0.02497988	4.777973e-05	0.0001333302	1.905919e-05	0.002602717	-0.0003454232	0.000477289
	4.777973e-05	0.0001333302	-0.01548772	0.02567831	6.891497e-06	7.557278e-06	0.00059179	0.002855142
	1.905919e-05	0.002602717	6.891497e-06	7.557278e-06	-0.01714558	0.02506335	2.789842e-05	-2.814719e-06
	-0.0003454232	0.000477289	0.00059179	0.002855142	2.789842e-05	-2.814719e-06	-0.01535703	0.02605372
4.6e+08	-0.01439072	0.02412825	5.285864e-05	0.0001309296	-0.0001751415	0.003872312	-0.0003064541	0.000506934
	5.285864e-05	0.0001309296	-0.01270871	0.02465902	7.21722e-06	7.147821e-06	0.0003542765	0.004076471
	-0.0001751415	0.003872312	7.21722e-06	7.147821e-06	-0.01421713	0.02419102	2.651608e-05	-3.461349e-06
	-0.0003064541	0.000506934	0.0003542766	0.004076471	2.651608e-05	-3.461349e-06	-0.01256718	0.02501714
4.7e+08	-0.01161468	0.02292265	5.799335e-05	0.0001284615	-0.0002135044	0.005164844	-0.0002642176	0.0005327508
	5.799335e-05	0.0001284615	-0.010103	0.02330301	7.527718e-06	6.721308e-06	0.0002633794	0.005325901
	-0.0002135044	0.005164844	7.527718e-06	6.721308e-06	-0.01143619	0.02296416	2.531912e-05	-3.855107e-06
