!$
! Info: Touchstone file created by Circ.  Input file=Tx_6in_Rx_85ohms_TxVia_60mils_RxVia_70mils.circ
!$
# Hz S RI R 50
0	0.004959468	9.364575e-26	-3.268463e-05	4.827264e-26	5.288016e-05	9.484574e-24	-3.268273e-05	-8.17975e-27
	-3.268463e-05	4.794406e-26	0.004955007	1.122706e-25	-3.26842e-05	5.107135e-26	5.258382e-05	1.199277e-23
	5.39643e-05	9.547974e-24	-3.26842e-05	5.097799e-26	0.004975007	9.362254e-26	-3.268444e-05	1.732455e-25
	-3.268273e-05	-8.852147e-27	5.285367e-05	1.20442e-23	-3.268444e-05	1.729959e-25	0.004969549	1.117592e-25
1e+07	0.00664017	-0.005357546	-3.403589e-06	-8.378521e-06	0.0001347602	0.001288515	-1.834229e-06	-9.724675e-06
	-3.403589e-06	-8.378521e-06	0.006625775	-0.005258144	-5.761584e-06	-4.869725e-07	0.0001788441	0.001285193
	0.0001347914	0.001288519	-5.761584e-06	-4.869726e-07	0.007457833	-0.005150966	-1.266975e-05	7.775276e-07
	-1.834229e-06	-9.724675e-06	0.0001788464	0.00128519	-1.266975e-05	7.775278e-07	0.006621126	-0.00524851
2e+07	0.007237376	-0.01236007	-3.112188e-06	-3.356717e-06	0.0003914457	0.002550672	-9.203603e-07	-5.140932e-06
	-3.112189e-06	-3.356717e-06	0.007298817	-0.01219252	-1.426978e-05	-9.604785e-06	0.0004496849	0.002507654
	0.0003914595	0.002550653	-1.426978e-05	-9.604785e-06	0.008078805	-0.0123146	-1.838219e-05	-4.987697e-06
	-9.203605e-07	-5.140932e-06	0.0004496817	0.002507655	-1.838219e-05	-4.987697e-06	0.007299048	-0.01216816
3e+07	0.006372294	-0.0200014	-2.971962e-06	-2.134735e-06	0.0008353536	0.003725063	-1.181709e-06	-4.057097e-06
	-2.971962e-06	-2.134735e-06	0.006475854	-0.01981439	-2.080257e-05	-1.05698e-05	0.0008633143	0.003671585
	0.0008353544	0.00372506	-2.080257e-05	-1.05698e-05	0.007228679	-0.02003128	-2.270861e-05	-5.037832e-06
	-1.181709e-06	-4.057097e-06	0.0008633141	0.003671587	-2.270861e-05	-5.037832e-06	0.006478951	-0.01978011
4e+07	0.004280476	-0.02764751	-2.85387e-06	-1.485114e-06	0.001416406	0.004817048	-1.865105e-06	-3.31512e-06
	-2.85387e-06	-1.485115e-06	0.004401699	-0.02745372	-2.619682e-05	-9.251454e-06	0.001412797	0.004762424
	0.00141641	0.004817053	-2.619682e-05	-9.251454e-06	0.005143553	-0.02774313	-2.621598e-05	-3.503424e-06
	-1.865105e-06	-3.315121e-06	0.001412797	0.004762425	-2.621598e-05	-3.503424e-06	0.004406359	-0.02741103
5e+07	0.001080196	-0.03505334	-2.741036e-06	-1.048677e-06	0.002123598	0.00581228	-2.434847e-06	-2.664149e-06
	-2.741036e-06	-1.048677e-06	0.001198639	-0.03485554	-3.069052e-05	-6.577736e-06	0.002087073	0.005763773
	0.002123601	0.005812281	-3.069052e-05	-6.577736e-06	0.001942261	-0.03521245	-2.906299e-05	-1.03722e-06
	-2.434848e-06	-2.664149e-06	0.002087074	0.005763773	-2.906299e-05	-1.03722e-06	0.001203386	-0.03480493
6e+07	-0.003131977	-0.04204541	-2.625776e-06	-7.173732e-07	0.002942774	0.006696162	-2.899733e-06	-2.017134e-06
	-2.625776e-06	-7.173732e-07	-0.00303341	-0.04184124	-3.436723e-05	-2.910024e-06	0.002872419	0.006660543
	0.00294277	0.006696161	-3.436723e-05	-2.910024e-06	-0.00227847	-0.04226745	-3.130335e-05	2.107393e-06
	-2.899732e-06	-2.017134e-06	0.00287242	0.006660544	-3.130335e-05	2.107393e-06	-0.0030298	-0.04178264
7e+07	-0.008260764	-0.04848358	-2.503782e-06	-4.481468e-07	0.003857535	0.007455636	-3.260635e-06	-1.341999e-06
	-2.503781e-06	-4.481468e-07	-0.008196664	-0.04826773	-3.723666e-05	1.578488e-06	0.003753116	0.007439602
	0.003857524	0.007455637	-3.723666e-05	1.578488e-06	-0.007423399	-0.04876843	-3.294017e-05	5.808713e-06
	-3.260635e-06	-1.341999e-06	0.003753118	0.007439602	-3.294017e-05	5.808713e-06	-0.008195274	-0.04820085
8e+07	-0.01420583	-0.05424975	-2.372186e-06	-2.211038e-07	0.004849709	0.008079816	-3.511739e-06	-6.221891e-07
	-2.372186e-06	-2.211039e-07	-0.01418892	-0.054015	-3.925055e-05	6.817047e-06	0.004711843	0.008090133
	0.004849694	0.008079819	-3.925055e-05	6.817047e-06	-0.01339246	-0.0545975	-3.393586e-05	1.0017e-05
	-3.511739e-06	-6.221892e-07	0.004711844	0.008090132	-3.393586e-05	1.0017e-05	-0.01419082	-0.05393934
9e+07	-0.02085955	-0.05924358	-2.22795e-06	-2.638084e-08	0.005899767	0.00856039	-3.636199e-06	1.611385e-07
	-2.22795e-06	-2.638098e-08	-0.02090134	-0.05898214	-4.027084e-05	1.28541e-05	0.005730121	0.008604048
	0.005899756	0.008560395	-4.027084e-05	1.28541e-05	-0.02007883	-0.05965507	-3.418783e-05	1.476784e-05
	-3.636198e-06	1.611384e-07	0.005730122	0.008604047	-3.418783e-05	1.476784e-05	-0.02090756	-0.05889691
1e+08	-0.02810404	-0.06337727	-2.060869e-06	1.439066e-07	0.006987483	0.008892147	-3.551617e-06	1.100905e-06
	-2.060869e-06	1.439066e-07	-0.02821941	-0.0630876	-3.964765e-05	2.040103e-05	0.006789697	0.008977568
	0.006987482	0.008892147	-3.964765e-05	2.040103e-05	-0.02736927	-0.06385925	-3.321501e-05	2.058079e-05
	-3.551617e-06	1.100905e-06	0.006789697	0.008977568	-3.321501e-05	2.058079e-05	-0.02823097	-0.06299189
1.1e+08	-0.03580445	-0.06661154	-1.948819e-06	2.951769e-07	0.008092819	0.009071036	-3.023184e-06	1.740321e-06
	-1.948819e-06	2.951769e-07	-0.03602541	-0.0662545	-3.526168e-05	2.563168e-05	0.007875761	0.00919939
	0.008092819	0.009071035	-3.526168e-05	2.563168e-05	-0.03514569	-0.06714005	-3.199011e-05	2.119543e-05
	-3.023184e-06	1.740321e-06	0.007875759	0.00919939	-3.199011e-05	2.119543e-05	-0.03604318	-0.06614639
1.2e+08	-0.04386769	-0.06889272	-1.862751e-06	4.45765e-07	0.009192808	0.009097756	-2.57927e-06	2.163116e-06
	-1.862751e-06	4.45765e-07	-0.04418016	-0.06843617	-3.406788e-05	2.60588e-05	0.008957697	0.009270967
	0.009192808	0.009097756	-3.406788e-05	2.60588e-05	-0.04327885	-0.06944941	-3.145923e-05	2.105754e-05
	-2.57927e-06	2.163116e-06	0.008957695	0.009270968	-3.145923e-05	2.105754e-05	-0.04420395	-0.06831383
1.3e+08	-0.05216368	-0.07018141	-1.778786e-06	5.847118e-07	0.01026734	0.008976014	-2.273966e-06	2.354648e-06
	-1.778786e-06	5.847118e-07	-0.05255565	-0.06960406	-3.333429e-05	2.608239e-05	0.01001711	0.009197578
	0.01026734	0.008976014	-3.333429e-05	2.608239e-05	-0.05164224	-0.07075616	-3.078295e-05	2.129802e-05
	-2.273966e-06	2.354648e-06	0.01001711	0.009197579	-3.078295e-05	2.129802e-05	-0.05258507	-0.06946582
1.4e+08	-0.06056405	-0.0704599	-1.693222e-06	7.11814e-07	0.01129694	0.008711839	-2.248139e-06	2.24316e-06
	-1.693222e-06	7.11814e-07	-0.06102185	-0.06974413	-3.2478e-05	2.639235e-05	0.01103549	0.008985214
	0.01129694	0.008711838	-3.2478e-05	2.639235e-05	-0.06010786	-0.07104462	-3.001413e-05	2.175356e-05
	-2.248139e-06	2.24316e-06	0.01103549	0.008985215	-3.001413e-05	2.175356e-05	-0.06105624	-0.0695884
1.5e+08	-0.06894153	-0.06972726	-1.604825e-06	8.267222e-07	0.01226329	0.008313698	-2.218396e-06	2.162524e-06
	-1.604825e-06	8.267222e-07	-0.06944957	-0.06885843	-3.152821e-05	2.688601e-05	0.0119953	0.008641956
	0.01226329	0.008313698	-3.152821e-05	2.688601e-05	-0.06854844	-0.07031503	-2.917141e-05	2.234331e-05
	-2.218396e-06	2.162524e-06	0.0119953	0.008641957	-2.917141e-05	2.234331e-05	-0.06948798	-0.06868368
1.6e+08	-0.07717147	-0.0679985	-1.513659e-06	9.309657e-07	0.01314957	0.0077923	-2.186666e-06	2.104921e-06
	-1.513659e-06	9.309657e-07	-0.07771237	-0.06696473	-3.049775e-05	2.75022e-05	0.0128804	0.008177923
	0.01314957	0.007792299	-3.049775e-05	2.75022e-05	-0.07683916	-0.06858317	-2.826339e-05	2.30219e-05
	-2.186666e-06	2.104921e-06	0.0128804	0.008177923	-2.826339e-05	2.30219e-05	-0.07775354	-0.06676961
1.7e+08	-0.08513351	-0.06530364	-1.419839e-06	1.025556e-06	0.01394072	0.007160331	-2.153887e-06	2.065322e-06
	-1.419839e-06	1.025556e-06	-0.08568829	-0.06409599	-2.939297e-05	2.819976e-05	0.01367628	0.007605074
	0.01394072	0.007160331	-2.939297e-05	2.819976e-05	-0.08485947	-0.06587969	-2.729396e-05	2.375861e-05
	-2.153887e-06	2.065322e-06	0.01367628	0.007605075	-2.729396e-05	2.375861e-05	-0.08573073	-0.06387928
1.8e+08	-0.09271311	-0.06168683	-1.323516e-06	1.111184e-06	0.01462363	0.006432175	-2.120476e-06	2.040297e-06
	-1.323516e-06	1.111184e-06	-0.09326156	-0.06029936	-2.821728e-05	2.894868e-05	0.01437027	0.006936955
	0.01462363	0.006432175	-2.821728e-05	2.894868e-05	-0.09249463	-0.06224926	-2.626491e-05	2.453083e-05
	-2.120476e-06	2.040297e-06	0.01437027	0.006936955	-2.626491e-05	2.453083e-05	-0.09330355	-0.0600601
1.9e+08	-0.09980305	-0.05720532	-1.224874e-06	1.188328e-06	0.01518734	0.005623607	-2.086569e-06	2.027394e-06
	-1.224874e-06	1.188328e-06	-0.1003241	-0.05563525	-2.697288e-05	2.972575e-05	0.01495167	0.006188419
	0.01518734	0.005623606	-2.697288e-05	2.972575e-05	-0.0996372	-0.05774962	-2.517725e-05	2.532089e-05
	-2.086569e-06	2.027394e-06	0.01495167	0.006188419	-2.517725e-05	2.532089e-05	-0.1003637	-0.05537272
2e+08	-0.1063047	-0.05192833	-1.124127e-06	1.257321e-06	0.01562312	0.004751481	-2.052123e-06	2.024797e-06
	-1.124127e-06	1.257321e-06	-0.1067769	-0.0501761	-2.566156e-05	3.051214e-05	0.0154119	0.005375348
	0.01562312	0.004751481	-2.566156e-05	3.051214e-05	-0.1061884	-0.05245042	-2.403173e-05	2.611428e-05
	-2.052123e-06	2.024797e-06	0.0154119	0.005375348	-2.403173e-05	2.611428e-05	-0.106812	-0.04988988
2.1e+08	-0.1121293	-0.04593575	-1.021518e-06	1.318398e-06	0.01592453	0.003833429	-2.016989e-06	2.03112e-06
	-1.021518e-06	1.318398e-06	-0.112531	-0.04400508	-2.428526e-05	3.129202e-05	0.01574453	0.004514365
	0.01592453	0.003833429	-2.428526e-05	3.129202e-05	-0.1120593	-0.04643199	-2.282929e-05	2.689866e-05
	-2.016989e-06	2.03112e-06	0.01574453	0.004514365	-2.282929e-05	2.689866e-05	-0.1125594	-0.04369507
2.2e+08	-0.1171988	-0.03931688	-9.173199e-07	1.37172e-06	0.0160875	0.002887554	-1.980939e-06	2.045274e-06
	-9.173199e-07	1.37172e-06	-0.117509	-0.03721475	-2.28462e-05	3.205183e-05	0.01594529	0.003622558
	0.0160875	0.002887554	-2.28462e-05	3.205183e-05	-0.1171716	-0.03978401	-2.157118e-05	2.766325e-05
	-1.980939e-06	2.045274e-06	0.01594529	0.003622558	-2.157118e-05	2.766325e-05	-0.1175285	-0.03688118
2.3e+08	-0.1214469	-0.03216891	-8.118342e-07	1.417406e-06	0.01611025	0.001932149	-1.943681e-06	2.066374e-06
	-8.118342e-07	1.417406e-06	-0.1216454	-0.02990552	-2.134699e-05	3.277965e-05	0.01601209	0.002717219
	0.01611025	0.001932149	-2.134699e-05	3.277965e-05	-0.121459	-0.03260411	-2.025901e-05	2.839845e-05
	-1.943681e-06	2.066374e-06	0.01601209	0.002717219	-2.025901e-05	2.839845e-05	-0.1216536	-0.02954897
2.4e+08	-0.1248195	-0.02459561	-7.053892e-07	1.455546e-06	0.01599329	0.0009854156	-1.904914e-06	2.093684e-06
	-7.053892e-07	1.455546e-06	-0.1248875	-0.0221842	-1.979089e-05	3.346497e-05	0.01594498	0.00181559
	0.01599329	0.0009854156	-1.979089e-05	3.346497e-05	-0.1248674	-0.02499641	-1.889498e-05	2.909565e-05
	-1.904914e-06	2.093684e-06	0.01594498	0.00181559	-1.889498e-05	2.909565e-05	-0.1248822	-0.02180562
2.5e+08	-0.1272756	-0.0167057	-5.983393e-07	1.486217e-06	0.01573937	6.521426e-05	-1.864293e-06	2.126564e-06
	-5.983393e-07	1.486217e-06	-0.1271959	-0.01416244	-1.818164e-05	3.409844e-05	0.01574608	0.0009346321
	0.01573937	6.521426e-05	-1.818164e-05	3.409844e-05	-0.1273554	-0.01707002	-1.748173e-05	2.974701e-05
	-1.864293e-06	2.126564e-06	0.01574608	0.000934632	-1.748173e-05	2.974701e-05	-0.127175	-0.01376309
2.6e+08	-0.128787	-0.008611439	-4.910605e-07	1.509496e-06	0.01535335	-0.0008111791	-1.821477e-06	2.164446e-06
	-4.910605e-07	1.509496e-06	-0.1285448	-0.0059551	-1.652355e-05	3.467173e-05	0.01541949	9.080372e-05
	0.01535335	-0.0008111791	-1.652355e-05	3.467173e-05	-0.1288951	-0.008937576	-1.602242e-05	3.034544e-05
	-1.821477e-06	2.164446e-06	0.01541949	9.080368e-05	-1.602242e-05	3.034544e-05	-0.1285064	-0.005536613
2.7e+08	-0.1293394	-0.0004270422	-3.839477e-07	1.525468e-06	0.01484214	-0.001627295	-1.776105e-06	2.206804e-06
	-3.839477e-07	1.525468e-06	-0.1289224	0.002321228	-1.482138e-05	3.517742e-05	0.01497126	-0.0007001403
	0.01484214	-0.001627295	-1.482138e-05	3.517742e-05	-0.1294719	-0.0007136559	-1.452072e-05	3.088447e-05
	-1.776105e-06	2.206804e-06	0.01497126	-0.0007001403	-1.452072e-05	3.088447e-05	-0.1288646	0.00275692
2.8e+08	-0.1289316	0.007732804	-2.774097e-07	1.534236e-06	0.01421456	-0.002367679	-1.72783e-06	2.25315e-06
	-2.774097e-07	1.534236e-06	-0.1283304	0.01054987	-1.308045e-05	3.560903e-05	0.0144092	-0.001423339
	0.01421456	-0.002367679	-1.308045e-05	3.560903e-05	-0.1290848	0.007486699	-1.298077e-05	3.135832e-05
	-1.72783e-06	2.25315e-06	0.0144092	-0.001423339	-1.298077e-05	3.135832e-05	-0.1282517	0.01100054
2.9e+08	-0.1275759	0.01575444	-1.718631e-07	1.535927e-06	0.0134812	-0.003018081	-1.676304e-06	2.303013e-06
	-1.718631e-07	1.535927e-06	-0.1267842	0.01861556	-1.13065e-05	3.59609e-05	0.01374282	-0.002065003
	0.0134812	-0.003018081	-1.13065e-05	3.59609e-05	-0.1277461	0.01554949	-1.140719e-05	3.176182e-05
	-1.676304e-06	2.303013e-06	0.01374282	-0.002065003	-1.140719e-05	3.176182e-05	-0.1266834	0.01907873
3e+08	-0.1252977	0.02352672	-6.772779e-08	1.530694e-06	0.01265428	-0.003565638	-1.621187e-06	2.355923e-06
	-6.772779e-08	1.530694e-06	-0.1243128	0.02640597	-9.505591e-06	3.622815e-05	0.01298321	-0.00261258
	0.01265428	-0.003565638	-9.505591e-06	3.622815e-05	-0.1254811	0.02336321	-9.804961e-06	3.209038e-05
	-1.621187e-06	2.355923e-06	0.01298321	-0.00261258	-9.804961e-06	3.209038e-05	-0.1241889	0.02687895
3.1e+08	-0.1221351	0.03094243	3.458095e-08	1.518716e-06	0.0117475	-0.003999039	-1.562155e-06	2.411423e-06
	3.458095e-08	1.518716e-06	-0.1209578	0.0338132	-7.684191e-06	3.640652e-05	0.01214284	-0.003054908
	0.0117475	-0.003999039	-7.684191e-06	3.640652e-05	-0.1223281	0.03082033	-8.179469e-06	3.23401e-05
	-1.562155e-06	2.411423e-06	0.01214284	-0.003054908	-8.179469e-06	3.23401e-05	-0.1208102	0.03429313
3.2e+08	-0.1181383	0.03789966	1.346577e-07	1.500205e-06	0.01077587	-0.00430868	-1.4989e-06	2.469046e-06
	1.346577e-07	1.500205e-06	-0.1167732	0.04073516	-5.849066e-06	3.64925e-05	0.0112355	-0.003382368
	0.01077587	-0.00430868	-5.849066e-06	3.64925e-05	-0.1183374	0.03781863	-6.5364e-06	3.250769e-05
	-1.4989e-06	2.469046e-06	0.0112355	-0.003382368	-6.5364e-06	3.250769e-05	-0.1166019	0.04121902
3.3e+08	-0.1133691	0.04430315	2.321084e-07	1.475418e-06	0.009755518	-0.004486807	-1.431128e-06	2.528307e-06
	2.321084e-07	1.475418e-06	-0.1118246	0.04707687	-4.00705e-06	3.648412e-05	0.01027606	-0.00358702
	0.009755518	-0.004486807	-4.00705e-06	3.648412e-05	-0.1135709	0.04426254	-4.881696e-06	3.259043e-05
	-1.431128e-06	2.528307e-06	0.01027606	-0.00358702	-4.881696e-06	3.259043e-05	-0.1116298	0.04756162
3.4e+08	-0.1079	0.05006556	3.265629e-07	1.444638e-06	0.008703484	-0.004527644	-1.358583e-06	2.588674e-06
	3.265629e-07	1.444638e-06	-0.1061883	0.05275181	-2.165264e-06	3.637944e-05	0.009280331	-0.003662729
	0.008703484	-0.004527644	-2.165264e-06	3.637944e-05	-0.1081012	0.05006442	-3.221626e-06	3.258601e-05
	-1.358583e-06	2.588674e-06	0.009280331	-0.003662729	-3.221626e-06	3.258601e-05	-0.1059706	0.05323443
3.5e+08	-0.1018132	0.05510859	4.17679e-07	1.408168e-06	0.007637516	-0.004427514	-1.281017e-06	2.649687e-06
	4.17679e-07	1.408168e-06	-0.09995017	0.05768306	-3.30765e-07	3.617754e-05	0.008264878	-0.003605285
	0.007637516	-0.004427514	-3.30765e-07	3.617754e-05	-0.1020106	0.05514571	-1.562485e-06	3.249327e-05
	-1.281017e-06	2.649687e-06	0.008264878	-0.003605285	-1.562485e-06	3.249327e-05	-0.09971077	0.05816055
3.6e+08	-0.09519946	0.05936409	5.051439e-07	1.366332e-06	0.006575836	-0.004184932	-1.198212e-06	2.710837e-06
	5.051439e-07	1.366332e-06	-0.09320467	0.06180435	1.489445e-06	3.587832e-05	0.007246792	-0.003412508
	0.006575836	-0.004184932	1.489445e-06	3.587832e-05	-0.09539027	0.05943798	8.934058e-08	3.231159e-05
	-1.198212e-06	2.710837e-06	0.007246792	-0.003412508	8.934058e-08	3.231159e-05	-0.09294511	0.06227382
3.7e+08	-0.08815735	0.06277504	5.886774e-07	1.319479e-06	0.005536883	-0.003800687	-1.109984e-06	2.771585e-06
	5.886774e-07	1.319479e-06	-0.08605357	0.06506105	3.288334e-06	3.548215e-05	0.006243471	-0.00308433
	0.005536883	-0.003800687	3.288334e-06	3.548215e-05	-0.08833879	0.06288394	1.727399e-06	3.204087e-05
	-1.109984e-06	2.771585e-06	0.006243471	-0.00308433	1.727399e-06	3.204087e-05	-0.08577581	0.0655198
3.8e+08	-0.08079144	0.06529635	6.680359e-07	1.26797e-06	0.00453905	-0.003277894	-1.016186e-06	2.831373e-06
	6.680359e-07	1.26797e-06	-0.07860457	0.06741095	5.05896e-06	3.499006e-05	0.005272372	-0.002622865
	0.00453905	-0.003277894	5.05896e-06	3.499006e-05	-0.08096103	0.0654383	3.345261e-06	3.168166e-05
	-1.016186e-06	2.831373e-06	0.005272372	-0.002622865	3.345261e-06	3.168166e-05	-0.07831096	0.06785649
3.9e+08	-0.07321118	0.06689563	7.430132e-07	1.212175e-06	0.003600395	-0.002622024	-9.167106e-07	2.889627e-06
	7.430132e-07	1.212175e-06	-0.07096978	0.06882497	6.794526e-06	3.440376e-05	0.004350745	-0.002032445
	0.003600395	-0.002622024	6.794526e-06	3.440376e-05	-0.07336667	0.06706843	4.936583e-06	3.123511e-05
	-9.167106e-07	2.889627e-06	0.004350745	-0.002032445	4.936583e-06	3.123511e-05	-0.07066307	0.06925511
4e+08	-0.06552934	0.06755368	8.134404e-07	1.152469e-06	0.002738346	-0.00184089	-8.114987e-07	2.945753e-06
	8.134404e-07	1.152469e-06	-0.06326426	0.06928762	8.488427e-06	3.372552e-05	0.003495357	-0.001319627
	0.002738346	-0.00184089	8.488427e-06	3.372552e-05	-0.06566877	0.06775496	6.49516e-06	3.070297e-05
	-8.114987e-07	2.945753e-06	0.003495357	-0.001319627	6.49516e-06	3.070297e-05	-0.06294749	0.06970051
4.1e+08	-0.05786044	0.0672649	8.791851e-07	1.089223e-06	0.001969394	-0.0009446071	-7.005383e-07	2.999146e-06
	8.791851e-07	1.089223e-06	-0.05560432	0.0687974	1.013431e-05	3.295825e-05	0.002722193	-0.0004931734
	0.001969394	-0.0009446071	1.013431e-05	3.295825e-05	-0.05798214	0.06749215	8.015e-06	3.008761e-05
	-7.005383e-07	2.999146e-06	0.002722193	-0.0004931734	8.015e-06	3.008761e-05	-0.05528085	0.06919158
4.2e+08	-0.05031915	0.06603753	9.401497e-07	1.022802e-06	0.001308772	5.449851e-05	-5.838701e-07	3.049193e-06
	9.401497e-07	1.022802e-06	-0.04810587	0.06736689	1.172614e-05	3.210543e-05	0.002046166	0.0004360249
	0.001308772	5.44985e-05	1.172614e-05	3.210543e-05	-0.05042175	0.06628809	9.490374e-06	2.939191e-05
	-5.838701e-07	3.049193e-06	0.002046166	0.0004360249	9.490374e-06	2.939191e-05	-0.04777931	0.06774134
4.3e+08	-0.04301862	0.06389361	9.962673e-07	9.535592e-07	0.0007701505	0.001142024	-4.61593e-07	3.095273e-06
	9.962673e-07	9.535592e-07	-0.04088275	0.06502269	1.32582e-05	3.117104e-05	0.001480806	0.001455054
	0.0007701505	0.001142024	1.32582e-05	3.117104e-05	-0.04310107	0.06416473	1.091587e-05	2.861931e-05
	-4.61593e-07	3.095273e-06	0.001480806	0.001455054	1.091587e-05	2.861931e-05	-0.04055686	0.06537686
4.4e+08	-0.03606877	0.0608688	1.047499e-06	8.8183e-07	0.0003653312	0.002301672	-3.338682e-07	3.136764e-06
	1.047499e-06	8.8183e-07	-0.03404494	0.06180521	1.472521e-05	3.015955e-05	0.001037974	0.002549139
	0.0003653312	0.002301672	1.472521e-05	3.015955e-05	-0.03613037	0.06115768	1.228644e-05	2.777368e-05
	-3.338682e-07	3.136764e-06	0.001037974	0.002549139	1.228644e-05	2.777368e-05	-0.03372364	0.06213903
4.5e+08	-0.02957468	0.057012	1.093827e-06	8.079337e-07	0.0001039612	0.003515485	-2.009218e-07	3.173052e-06
	1.093827e-06	8.079337e-07	-0.02769692	0.05776809	1.612229e-05	2.907588e-05	0.0007275754	0.003701847
	0.0001039612	0.003515485	1.612229e-05	2.907588e-05	-0.02961504	0.05731582	1.359745e-05	2.685932e-05
	-2.009218e-07	3.173052e-06	0.0007275754	0.003701847	1.359745e-05	2.685932e-05	-0.02738418	0.05808205
4.6e+08	-0.02363491	0.05238473	1.135254e-06	7.321687e-07	-6.724766e-06	0.004764122	-6.30394e-08	3.203539e-06
	1.135254e-06	7.321687e-07	-0.02193603	0.05297761	1.744509e-05	2.792534e-05	0.000557311	0.004895349
	-6.724762e-06	0.004764122	1.744509e-05	2.792534e-05	-0.02365401	0.05270069	1.484473e-05	2.588094e-05
	-6.30394e-08	3.203539e-06	0.000557311	0.004895349	1.484473e-05	2.588094e-05	-0.02163581	0.05327271
4.7e+08	-0.01833997	0.04706029	1.171793e-06	6.548125e-07	3.787421e-05	0.006027193	7.941922e-08	3.227646e-06
	1.171793e-06	6.548125e-07	-0.01685089	0.04751168	1.868973e-05	2.671357e-05	0.0005324487	0.006110711
	3.787421e-05	0.006027193	1.868973e-05	2.671357e-05	-0.01833811	0.04738563	1.602456e-05	2.48435e-05
	7.941922e-08	3.227646e-06	0.0005324487	0.006110711	1.602456e-05	2.48435e-05	-0.01656706	0.04778947
