!$
! Info: Touchstone file created by Circ.  Input file=Tx_6in_Rx_93ohms_TxVia_60mils_RxVia_70mils.circ
!$
# Hz S RI R 50
0	0.005629839	9.661728e-26	1.3593e-09	9.125326e-28	5.222109e-05	1.105107e-23	1.226055e-09	3.904822e-28
	1.359308e-09	9.125364e-28	0.005625136	1.118941e-25	9.361661e-10	1.31345e-27	5.242595e-05	1.363603e-23
	5.32032e-05	1.124479e-23	9.361549e-10	1.313424e-27	0.005643956	9.254516e-26	-3.296275e-09	4.531163e-25
	1.226053e-09	3.903582e-28	5.269577e-05	1.369451e-23	-3.295864e-09	4.53066e-25	0.005639659	1.113844e-25
1e+07	0.008365689	0.0002878319	2.500178e-09	3.672004e-09	0.0001728614	0.001195767	-2.321509e-09	3.054329e-08
	2.500177e-09	3.672004e-09	0.008248989	-7.824297e-05	1.63566e-09	2.615799e-09	0.0001766763	0.001293141
	0.0001728706	0.001195735	1.63566e-09	2.615799e-09	0.007811752	-2.655307e-05	-6.358e-09	1.764973e-08
	-2.321509e-09	3.054329e-08	0.0001766786	0.001293139	-6.358e-09	1.764972e-08	0.00809649	-8.300841e-05
2e+07	0.01029795	-0.001612063	4.088512e-09	6.604185e-09	0.0004519604	0.002407123	1.373493e-08	2.358423e-08
	4.088512e-09	6.604185e-09	0.009829075	-0.002163215	2.671881e-09	4.787773e-09	0.0003829965	0.002584458
	0.0004519337	0.002407122	2.671881e-09	4.787773e-09	0.009561515	-0.001918128	-4.097957e-09	6.447546e-09
	1.373493e-08	2.358423e-08	0.0003829933	0.002584458	-4.097957e-09	6.447546e-09	0.009712799	-0.002114638
3e+07	0.01134112	-0.004421779	6.356703e-09	8.545658e-09	0.0008720251	0.003570944	2.218027e-08	2.846595e-08
	6.356703e-09	8.545658e-09	0.01058556	-0.004979761	3.790593e-09	6.383093e-09	0.0007828233	0.003783013
	0.0008720226	0.003570948	3.790593e-09	6.383093e-09	0.01046602	-0.004687251	6.47098e-09	8.772903e-09
	2.218027e-08	2.846595e-08	0.000782823	0.003783015	6.47098e-09	8.772903e-09	0.01049596	-0.004918887
4e+07	0.01172375	-0.007551223	8.986441e-09	1.015797e-08	0.001428914	0.004668891	3.14939e-08	3.317575e-08
	8.986441e-09	1.015797e-08	0.01071862	-0.008042018	5.27178e-09	7.831002e-09	0.001351171	0.004896866
	0.001428913	0.004668887	5.27178e-09	7.831002e-09	0.01073896	-0.007748681	9.742101e-09	1.088666e-08
	3.14939e-08	3.317575e-08	0.001351172	0.004896867	9.742101e-09	1.088666e-08	0.01064999	-0.007979777
5e+07	0.01153113	-0.01081345	1.204074e-08	1.123418e-08	0.002113359	0.005682924	4.202689e-08	3.633937e-08
	1.204074e-08	1.123418e-08	0.01030608	-0.01118408	6.945855e-09	8.986939e-09	0.002041333	0.005919593
	0.002113356	0.005682922	6.945855e-09	8.986939e-09	0.01046064	-0.01092271	1.286257e-08	1.188984e-08
	4.202689e-08	3.633937e-08	0.002041334	0.005919593	1.286257e-08	1.188984e-08	0.01025332	-0.01112629
6e+07	0.01081341	-0.01409365	1.543164e-08	1.165773e-08	0.002913259	0.006597023	5.35927e-08	3.735777e-08
	1.543164e-08	1.165773e-08	0.009397057	-0.01430097	8.795336e-09	9.788855e-09	0.002841414	0.00683826
	0.002913261	0.006597027	8.795336e-09	9.788855e-09	0.009679333	-0.0140991	1.624222e-08	1.220368e-08
	5.35927e-08	3.735777e-08	0.002841416	0.006838261	1.624222e-08	1.220368e-08	0.009355601	-0.01425122
7e+07	0.009609556	-0.01730637	1.90221e-08	1.136356e-08	0.003814514	0.007397282	6.579224e-08	3.591796e-08
	1.90221e-08	1.136356e-08	0.008031719	-0.01731302	1.075428e-08	1.020881e-08	0.003737412	0.007640652
	0.003814523	0.007397287	1.075428e-08	1.020881e-08	0.008433524	-0.01719542	1.986526e-08	1.183969e-08
	6.579224e-08	3.591796e-08	0.003737413	0.007640652	1.986526e-08	1.183969e-08	0.00799718	-0.01727382
8e+07	0.007955393	-0.02038226	2.266928e-08	1.031236e-08	0.004801497	0.008072152	7.815364e-08	3.185035e-08
	2.266928e-08	1.031236e-08	0.006248665	-0.02015388	1.275742e-08	1.022475e-08	0.004713589	0.008316001
	0.004801511	0.008072155	1.275742e-08	1.022475e-08	0.006759596	-0.02014394	2.364637e-08	1.074956e-08
	7.815364e-08	3.185035e-08	0.00471359	0.008316	2.364637e-08	1.074956e-08	0.006216584	-0.02012696
9e+07	0.005886319	-0.02326369	2.622652e-08	8.49297e-09	0.005857759	0.008613151	9.01712e-08	2.510467e-08
	2.622652e-08	8.49297e-09	0.004089029	-0.022765	1.473401e-08	9.826299e-09	0.005752758	0.0088554
	0.00585777	0.008613151	1.473401e-08	9.826299e-09	0.004695349	-0.02288634	2.747621e-08	8.884322e-09
	9.01712e-08	2.510467e-08	0.005752758	0.008855399	2.747621e-08	8.884321e-09	0.004054681	-0.02275164
1e+08	0.003431414	-0.02591206	2.955716e-08	5.913884e-09	0.006970246	0.009020635	1.013386e-07	1.573019e-08
	2.955716e-08	5.913884e-09	0.001606007	-0.02508388	1.661185e-08	9.014495e-09	0.006836596	0.009251853
	0.006970246	0.009020635	1.661185e-08	9.014495e-09	0.002284092	-0.02536844	3.123935e-08	6.201871e-09
	1.013386e-07	1.573019e-08	0.006836596	0.009251853	3.123935e-08	6.201871e-09	0.001563192	-0.02508656
1.1e+08	0.0006006371	-0.0282163	3.270683e-08	2.67067e-09	0.008082608	0.009296606	1.116764e-07	4.189926e-09
	3.270683e-08	2.67067e-09	-0.001118261	-0.02714112	1.835283e-08	7.854725e-09	0.007944654	0.009502102
	0.008082608	0.009296606	1.835283e-08	7.854725e-09	-0.0004192947	-0.02757015	3.455367e-08	2.789202e-09
	1.116764e-07	4.189926e-09	0.007944652	0.009502102	3.455367e-08	2.789202e-09	-0.001180219	-0.02715181
1.2e+08	-0.002484744	-0.03015534	3.542181e-08	-1.23483e-09	0.00919687	0.009407186	1.205178e-07	-9.595371e-09
	3.542181e-08	-1.23483e-09	-0.00411999	-0.02888536	1.98719e-08	6.334762e-09	0.009058853	0.009605175
	0.00919687	0.009407185	1.98719e-08	6.334762e-09	-0.00339707	-0.02945039	3.741454e-08	-1.323236e-09
	1.205178e-07	-9.595371e-09	0.009058851	0.009605176	3.741454e-08	-1.323236e-09	-0.004200167	-0.02889793
1.3e+08	-0.005785873	-0.03171682	3.759632e-08	-5.75232e-09	0.01029801	0.009362351	1.274813e-07	-2.542054e-08
	3.759632e-08	-5.75232e-09	-0.007340422	-0.03026968	2.110874e-08	4.484862e-09	0.01015991	0.009561664
	0.01029801	0.009362351	2.110874e-08	4.484862e-09	-0.006598883	-0.03097365	3.970875e-08	-6.080377e-09
	1.274813e-07	-2.542054e-08	0.01015991	0.009561665	3.970875e-08	-6.080377e-09	-0.00743888	-0.03028036
1.4e+08	-0.009254869	-0.03288192	3.912402e-08	-1.080994e-08	0.01136699	0.009167613	1.32213e-07	-4.301425e-08
	3.912402e-08	-1.080994e-08	-0.01072687	-0.03126775	2.20068e-08	2.343681e-09	0.01122882	0.009374925
	0.01136699	0.009167613	2.20068e-08	2.343681e-09	-0.009975053	-0.03211525	4.132425e-08	-1.140628e-08
	1.32213e-07	-4.301425e-08	0.01122882	0.009374926	4.132425e-08	-1.140628e-08	-0.01084355	-0.03127322
1.5e+08	-0.01284157	-0.03363623	3.990921e-08	-1.631101e-08	0.01238494	0.008829927	1.343979e-07	-6.205004e-08
	3.990921e-08	-1.631101e-08	-0.01422646	-0.03186205	2.25143e-08	-3.635008e-11	0.01224721	0.009050782
	0.01238494	0.008829927	2.25143e-08	-3.635008e-11	-0.01347485	-0.03285765	4.216025e-08	-1.719942e-08
	1.343979e-07	-6.205004e-08	0.01224721	0.009050783	4.216025e-08	-1.719942e-08	-0.01436105	-0.03185923
1.6e+08	-0.01649479	-0.03397106	3.986925e-08	-2.214707e-08	0.01333382	0.008358266	1.337688e-07	-8.21524e-08
	3.986925e-08	-2.214707e-08	-0.01778609	-0.03204256	2.258746e-08	-2.597309e-09	0.01319766	0.008597395
	0.01333382	0.008358266	2.258746e-08	-2.597309e-09	-0.0170469	-0.03318998	4.212974e-08	-2.334575e-08
	1.337688e-07	-8.21524e-08	0.01319766	0.008597395	4.212974e-08	-2.334575e-08	-0.01793795	-0.03202854
1.7e+08	-0.02016313	-0.03388365	3.893697e-08	-2.819618e-08	0.01419683	0.007763681	1.301129e-07	-1.029037e-07
	3.893697e-08	-2.819618e-08	-0.02135291	-0.03180626	2.219092e-08	-5.274294e-09	0.01406401	0.008025099
	0.01419683	0.007763681	2.219092e-08	-5.274294e-09	-0.02063972	-0.03310786	4.116207e-08	-2.971708e-08
	1.301129e-07	-1.029037e-07	0.01406401	0.0080251	4.116207e-08	-2.971708e-08	-0.02152108	-0.03177829
1.8e+08	-0.02379572	-0.03337726	3.706293e-08	-3.432509e-08	0.01495874	0.00705919	1.232784e-07	-1.238521e-07
	3.706293e-08	-3.432509e-08	-0.02487495	-0.03115678	2.129877e-08	-7.996603e-09	0.01483161	0.007346217
	0.01495874	0.00705919	2.129877e-08	-7.996603e-09	-0.02420238	-0.03261323	3.92052e-08	-3.617336e-08
	1.232784e-07	-1.238521e-07	0.01483161	0.007346218	3.92052e-08	-3.617336e-08	-0.02505814	-0.03111232
1.9e+08	-0.02734286	-0.03246104	3.421723e-08	-4.039185e-08	0.01560616	0.006259593	1.131793e-07	-1.445202e-07
	3.421723e-08	-4.039185e-08	-0.02830175	-0.03010409	1.989551e-08	-1.068911e-08	0.01548759	0.006574834
	0.01560616	0.006259593	1.989551e-08	-1.068911e-08	-0.02768517	-0.0317141	3.622761e-08	-4.256544e-08
	1.131793e-07	-1.445202e-07	0.01548759	0.006574834	3.622761e-08	-4.256544e-08	-0.02849836	-0.0300408
2e+08	-0.03075672	-0.03114982	3.03909e-08	-4.624865e-08	0.01612773	0.005381236	9.979944e-08	-1.644148e-07
	3.03909e-08	-4.624865e-08	-0.031585	-0.0286642	1.797669e-08	-1.327378e-08	0.01602102	0.005726547
	0.01612773	0.005381236	1.797669e-08	-1.327378e-08	-0.03104014	-0.03042432	3.22198e-08	-4.873806e-08
	9.979944e-08	-1.644148e-07	0.01602102	0.005726547	3.22198e-08	-4.873806e-08	-0.03179314	-0.02857999
2.1e+08	-0.03399232	-0.02946374	2.559655e-08	-5.174448e-08	0.01651884	0.004429199	8.31946e-08	-1.830355e-07
	2.559655e-08	-5.174448e-08	-0.03467916	-0.02685873	1.554893e-08	-1.567033e-08	0.01642313	0.004818192
	0.01651884	0.004429199	1.554893e-08	-1.567033e-08	-0.0342222	-0.02876315	2.719372e-08	-5.452972e-08
	8.31946e-08	-1.830355e-07	0.01642313	0.004818192	2.719372e-08	-5.452972e-08	-0.03489668	-0.02675179
2.2e+08	-0.03700735	-0.02742795	1.986973e-08	-5.672901e-08	0.01677091	0.003420453	6.349415e-08	-1.99887e-07
	1.986973e-08	-5.672901e-08	-0.03754204	-0.02471448	1.263138e-08	-1.779937e-08	0.01668741	0.003867555
	0.01677091	0.003420453	1.263138e-08	-1.779937e-08	-0.03718887	-0.02675496	2.118733e-08	-5.978123e-08
	6.349415e-08	-1.99887e-07	0.01668741	0.003867555	2.118733e-08	-5.978123e-08	-0.03776657	-0.02458333
2.3e+08	-0.03976247	-0.02507243	1.326901e-08	-6.105645e-08	0.01687364	0.002389705	4.090039e-08	-2.144897e-07
	1.326901e-08	-6.105645e-08	-0.04013528	-0.02226301	9.255479e-09	-1.958521e-08	0.01680973	0.002893068
	0.01687364	0.002389705	9.255479e-09	-1.958521e-08	-0.03990059	-0.02442903	1.426396e-08	-6.434264e-08
	4.090039e-08	-2.144897e-07	0.01680973	0.002893068	1.426396e-08	-6.434264e-08	-0.04036427	-0.02210648
2.4e+08	-0.04222283	-0.02243128	5.874524e-09	-6.45877e-08	0.01682568	0.0013568	1.568604e-08	-2.263884e-07
	5.874524e-09	-6.45877e-08	-0.04242491	-0.01954001	5.463453e-09	-2.0955e-08	0.01678836	0.001913501
	0.01682568	0.0013568	5.463453e-09	-2.0955e-08	-0.04232229	-0.02181885	6.507789e-09	-6.806799e-08
	1.568604e-08	-2.263884e-07	0.01678836	0.001913501	6.507789e-09	-6.806799e-08	-0.04265566	-0.01935731
2.5e+08	-0.04435801	-0.01954226	-2.212497e-09	-6.719406e-08	0.01662823	0.0003415644	-1.18087e-08	-2.351624e-07
	-2.212497e-09	-6.719406e-08	-0.04438166	-0.01658485	1.308468e-09	-2.18414e-08	0.01662401	0.0009476489
	0.01662823	0.0003415644	1.308468e-09	-2.18414e-08	-0.04442325	-0.01896162	-1.974832e-09	-7.082228e-08
	-1.18087e-08	-2.351624e-07	0.01662401	0.0009476488	-1.974832e-09	-7.082228e-08	-0.04461139	-0.01637554
2.6e+08	-0.04614239	-0.01644625	-1.087113e-08	-6.876033e-08	0.01628503	-0.0006365384	-4.118077e-08	-2.404359e-07
	-1.087113e-08	-6.876033e-08	-0.04598141	-0.01343984	-3.146131e-09	-2.218418e-08	0.01631978	1.402725e-05
	0.01628503	-0.0006365384	-3.146131e-09	-2.218418e-08	-0.04617755	-0.01589774	-1.105694e-08	-7.248468e-08
	-4.118077e-08	-2.404359e-07	0.01631978	1.402721e-05	-1.105694e-08	-7.248468e-08	-0.04620726	-0.01320389
2.7e+08	-0.04755542	-0.01318667	-1.996266e-08	-6.918787e-08	0.0158023	-0.001558717	-7.197024e-08	-2.418866e-07
	-1.996266e-08	-6.918787e-08	-0.04720534	-0.01014973	-7.827827e-09	-2.193177e-08	0.01588114	-0.0008694331
	0.0158023	-0.001558717	-7.827827e-09	-2.193177e-08	-0.0475643	-0.01267024	-2.059291e-08	-7.295168e-08
	-7.197024e-08	-2.418866e-07	0.01588114	-0.0008694331	-2.059291e-08	-7.295168e-08	-0.04742448	-0.009887473
2.8e+08	-0.04858185	-0.009808849	-2.933295e-08	-6.839712e-08	0.0151886	-0.002407163	-1.036676e-07	-2.392537e-07
	-2.933295e-08	-6.839712e-08	-0.0480402	-0.006760961	-1.265615e-08	-2.104255e-08	0.01531579	-0.001685672
	0.0151886	-0.002407163	-1.265615e-08	-2.104255e-08	-0.04856792	-0.009324096	-3.042094e-08	-7.213978e-08
	-1.036676e-07	-2.392537e-07	0.01531579	-0.001685672	-3.042094e-08	-7.213978e-08	-0.04824987	-0.006473118
2.9e+08	-0.04921193	-0.006359423	-3.881512e-08	-6.632989e-08	0.01445471	-0.003165338	-1.357218e-07	-2.323451e-07
	-3.881512e-08	-6.632989e-08	-0.04847849	-0.003321031	-1.754404e-08	-1.948594e-08	0.01463353	-0.002418774
	0.01445471	-0.003165338	-1.754404e-08	-1.948594e-08	-0.0491783	-0.005905665	-4.036583e-08	-6.998793e-08
	-1.357218e-07	-2.323451e-07	0.01463353	-0.002418774	-4.036583e-08	-6.998793e-08	-0.04867603	-0.003008688
3e+08	-0.04944145	-0.002885686	-4.823261e-08	-6.295132e-08	0.01361345	-0.003818235	-1.6755e-07	-2.210439e-07
	-4.823261e-08	-6.295132e-08	-0.04851841	0.0001221924	-2.239947e-08	-1.724343e-08	0.01384613	-0.00305422
	0.01361345	-0.003818235	-2.239947e-08	-1.724343e-08	-0.04939085	-0.002462027	-5.024222e-08	-6.64595e-08
	-1.6755e-07	-2.210439e-07	0.01384613	-0.00305422	-5.024222e-08	-6.64595e-08	-0.04870132	0.0004575986
3.1e+08	-0.04927177	0.0005650676	-5.740248e-08	-5.825127e-08	0.01267945	-0.004352627	-1.985473e-07	-2.053124e-07
	-5.740248e-08	-5.825127e-08	-0.04816391	0.003521153	-2.712703e-08	-1.43093e-08	0.0129671	-0.003579119
	0.01267945	-0.004352627	-2.712703e-08	-1.43093e-08	-0.04920659	0.0009596817	-5.985802e-08	-6.154385e-08
	-1.985473e-07	-2.053124e-07	0.0129671	-0.003579119	-5.985802e-08	-6.154385e-08	-0.04832987	0.003877853
3.2e+08	-0.04870976	0.003946155	-6.613895e-08	-5.224528e-08	0.0116689	-0.004757271	-2.280978e-07	-1.851964e-07
	-6.613895e-08	-5.224528e-08	-0.04742454	0.006829257	-3.162979e-08	-1.069106e-08	0.01201148	-0.003982414
	0.0116689	-0.004757271	-3.162979e-08	-1.069106e-08	-0.04863205	0.004312883	-6.901812e-08	-5.525728e-08
	-2.280978e-07	-1.851964e-07	0.01201148	-0.003982414	-6.901812e-08	-5.525728e-08	-0.04757151	0.007205181
3.3e+08	-0.04776772	0.007212153	-7.4257e-08	-4.497506e-08	0.01059934	-0.005023097	-2.555857e-07	-1.608264e-07
	-7.4257e-08	-4.497506e-08	-0.04631532	0.01000153	-3.581112e-08	-6.409777e-09	0.0109956	-0.004255056
	0.01059934	-0.005023097	-3.581112e-08	-6.409777e-09	-0.04767917	0.007552202	-7.752821e-08	-4.764358e-08
	-2.555857e-07	-1.608264e-07	0.0109956	-0.004255056	-7.752821e-08	-4.764358e-08	-0.0464415	0.01039434
3.4e+08	-0.04646312	0.01031951	-8.157611e-08	-3.650839e-08	0.009489307	-0.005143354	-2.804071e-07	-1.324186e-07
	-8.157611e-08	-3.650839e-08	-0.04485645	0.01299523	-3.957656e-08	-1.499978e-09	0.009936837	-0.004390149
	0.009489307	-0.005143354	-3.957656e-08	-1.499978e-09	-0.04636513	0.01063409	-8.519861e-08	-3.877393e-08
	-2.804071e-07	-1.324186e-07	0.009936837	-0.004390149	-8.519861e-08	-3.877393e-08	-0.04496038	0.01340235
3.5e+08	-0.04481837	0.01322711	-8.792386e-08	-2.693852e-08	0.008358098	-0.005113723	-3.019816e-07	-1.002738e-07
	-8.792386e-08	-2.693852e-08	-0.04307304	0.01577047	-4.283565e-08	3.99056e-09	0.008853302	-0.004383066
	0.008358098	-0.005113723	-4.283565e-08	3.99056e-09	-0.04471205	0.0135174	-9.184819e-08	-2.874629e-08
	-3.019816e-07	-1.002738e-07	0.008853302	-0.004383066	-9.184819e-08	-2.874629e-08	-0.04315359	0.01618914
3.6e+08	-0.04286051	0.01589684	-9.313956e-08	-1.638307e-08	0.007225419	-0.004932391	-3.197642e-07	-6.477447e-08
	-9.313956e-08	-1.638307e-08	-0.04099468	0.01829069	-4.550381e-08	1.000136e-08	0.007763579	-0.004231525
	0.007225419	-0.004932391	-4.550381e-08	1.000136e-08	-0.0427467	0.01616393	-9.730805e-08	-1.768427e-08
	-3.197642e-07	-6.477447e-08	0.007763579	-0.004231524	-9.730805e-08	-1.768427e-08	-0.0410511	0.01871801
3.7e+08	-0.0406208	0.0182941	-9.707756e-08	-4.982411e-09	0.006111084	-0.004600091	-3.332562e-07	-2.638055e-08
	-9.707756e-08	-4.982411e-09	-0.03865506	0.02052324	-4.750404e-08	1.646e-08	0.006686416	-0.003935632
	0.006111084	-0.004600091	-4.750404e-08	1.646e-08	-0.04050011	0.01853897	-1.014251e-07	-5.735434e-09
	-3.332562e-07	-2.638055e-08	0.006686416	-0.003935632	-1.014251e-07	-5.735434e-09	-0.03868696	0.0209562
3.8e+08	-0.03813428	0.02038823	-9.961044e-08	7.102371e-09	0.005034687	-0.0041201	-3.420164e-07	1.437615e-08
	-9.961044e-08	7.102371e-09	-0.03609141	0.02243977	-4.876856e-08	2.328314e-08	0.005640428	-0.003497891
	0.005034687	-0.0041201	-4.876856e-08	2.328314e-08	-0.03800715	0.02061173	-1.040655e-07	6.930843e-09
	-3.420164e-07	1.437615e-08	0.005640428	-0.003497891	-1.040655e-07	6.930843e-09	-0.03609883	0.02287533
3.9e+08	-0.03543932	0.02215299	-1.006318e-07	1.969199e-08	0.004015288	-0.003498196	-3.456711e-07	5.689939e-08
	-1.006318e-07	1.969199e-08	-0.03334404	0.02401664	-4.924031e-08	3.037768e-08	0.004643798	-0.002923171
	0.004015288	-0.003498196	-4.924031e-08	3.037768e-08	-0.03530602	0.02235581	-1.051173e-07	2.012599e-08
	-3.456711e-07	5.689939e-08	0.004643798	-0.002923171	-1.051173e-07	2.012599e-08	-0.03332739	0.02445175
4e+08	-0.03257702	0.02356682	-1.000588e-07	3.259179e-08	0.003071092	-0.002742578	-3.43923e-07	1.005372e-07
	-1.000588e-07	3.259179e-08	-0.03045568	0.02523521	-4.88743e-08	3.764225e-08	0.003713975	-0.002218641
	0.003071092	-0.002742578	-4.88743e-08	3.764225e-08	-0.0324377	0.02374949	-1.044935e-07	3.364524e-08
	-3.43923e-07	1.005372e-07	0.003713975	-0.002218641	-1.044935e-07	3.364524e-08	-0.03041578	0.0256669
4.1e+08	-0.02959069	0.02461321	-9.783405e-08	4.559493e-08	0.002219152	-0.001863751	-3.365596e-07	1.445917e-07
	-9.783405e-08	4.559493e-08	-0.02747091	0.02608214	-4.76387e-08	4.496872e-08	0.002867396	-0.001393665
	0.002219152	-0.001863751	-4.76387e-08	4.496872e-08	-0.02944544	0.02477606	-1.021341e-07	4.727097e-08
	-3.365596e-07	1.445917e-07	0.002867396	-0.001393665	-1.021341e-07	4.727097e-08	-0.02740899	0.02650753
4.2e+08	-0.02652524	0.02528088	-9.392759e-08	5.848578e-08	0.001475078	-0.0008743636	-3.234598e-07	1.883306e-07
	-9.392759e-08	5.848578e-08	-0.02443552	0.0265495	-4.551584e-08	5.224396e-08	0.002119203	-0.0004596701
	0.001475078	-0.0008743636	-4.551584e-08	5.224396e-08	-0.02637411	0.02542408	-9.800769e-08	6.07763e-08
	-3.234598e-07	1.883306e-07	0.002119203	-0.0004596701	-9.800769e-08	6.07763e-08	-0.02435316	0.02696589
4.3e+08	-0.02342654	0.02556393	-8.83377e-08	7.104358e-08	0.0008527691	0.0002109781	-3.04599e-07	2.309986e-07
	-8.83377e-08	7.104358e-08	-0.02139585	0.02663494	-4.250286e-08	5.935169e-08	0.001482993	0.0005700338
	0.0008527691	0.0002109781	-4.250286e-08	5.935169e-08	-0.02326957	0.02568745	-9.211274e-08	7.392895e-08
	-3.04599e-07	2.309986e-07	0.001482993	0.0005700338	-9.211274e-08	7.392895e-08	-0.02129501	0.02703981
4.4e+08	-0.02034079	0.02546192	-8.109177e-08	8.304614e-08	0.0003641709	0.001375941	-2.800529e-07	2.718309e-07
	-8.109177e-08	8.304614e-08	-0.01839811	0.02634164	-3.86122e-08	6.617442e-08	0.0009705806	0.001680452
	0.0003641709	0.001375941	-3.86122e-08	6.617442e-08	-0.02017808	0.02556558	-8.447848e-08	8.649515e-08
	-2.800529e-07	2.718309e-07	0.0009705806	0.001680452	-8.447848e-08	8.649515e-08	-0.01828105	0.02673275
4.5e+08	-0.01731388	0.02497988	-7.22464e-08	9.427356e-08	1.905919e-05	0.002602717	-2.499997e-07	3.100666e-07
	-7.22464e-08	9.427356e-08	-0.01548772	0.02567831	-3.387186e-08	7.259544e-08	0.00059179	0.002855142
	1.905919e-05	0.002602717	-3.387186e-08	7.259544e-08	-0.01714558	0.02506335	-7.516494e-08	9.824363e-08
	-2.499997e-07	3.100666e-07	0.00059179	0.002855142	-7.516494e-08	9.824363e-08	-0.01535703	0.02605372
4.6e+08	-0.01439072	0.02412825	-6.189489e-08	1.045253e-07	-0.0001751415	0.003872312	-2.147052e-07	3.449401e-07
	-6.189489e-08	1.045253e-07	-0.01270871	0.02465902	-2.8325e-08	7.849884e-08	0.0003542765	0.004076471
	-0.0001751415	0.003872312	-2.8325e-08	7.849884e-08	-0.01421713	0.02419102	-6.426986e-08	1.089628e-07
	-2.147052e-07	3.449401e-07	0.0003542766	0.004076471	-6.426986e-08	1.089628e-07	-0.01256718	0.02501714
4.7e+08	-0.01161468	0.02292265	-5.014218e-08	1.135834e-07	-0.0002135044	0.005164844	-1.745688e-07	3.757521e-07
	-5.014218e-08	1.135834e-07	-0.010103	0.02330301	-2.203109e-08	8.377735e-08	0.0002633794	0.005325901
	-0.0002135044	0.005164844	-2.203109e-08	8.377735e-08	-0.01143619	0.02296416	-5.190526e-08	1.184241e-07
