!$
! Info: Touchstone file created by Circ.  Input file=Tx_6in_Rx_100ohms_TxVia_60mils_RxVia_70mils.circ
!$
# Hz S RI R 50
0	0.006352617	9.333666e-26	-3.09153e-11	8.867055e-27	5.271094e-05	1.218258e-23	-3.204584e-09	3.981547e-25
	-3.091607e-11	8.867163e-27	0.006348153	1.118894e-25	4.188337e-11	1.720906e-27	5.241654e-05	1.540898e-23
	5.379491e-05	1.2264e-23	4.187916e-11	1.721416e-27	0.006368118	9.33136e-26	-9.967541e-12	7.868185e-27
	-3.204457e-09	3.981391e-25	5.268632e-05	1.547506e-23	-1.006204e-11	7.879709e-27	0.006362654	1.113799e-25
1e+07	0.008945846	0.004455095	5.448536e-11	1.580682e-10	0.0001584606	0.001273296	-4.67002e-09	7.685742e-09
	5.448536e-11	1.580683e-10	0.009221558	0.004486623	6.557516e-11	1.790036e-10	0.000370371	0.001305468
	0.0001584917	0.0012733	6.557516e-11	1.790036e-10	0.008619568	0.004629313	-5.001319e-09	9.852732e-09
	-4.67002e-09	7.685742e-09	0.0003703734	0.001305465	-5.001319e-09	9.852732e-09	0.00914346	0.004499805
2e+07	0.01157525	0.006881979	5.572169e-11	2.989734e-10	0.0004012819	0.002542515	1.573707e-12	-5.28504e-11
	5.57217e-11	2.989734e-10	0.01180662	0.006834788	7.438993e-11	3.330071e-10	0.0005261199	0.002682626
	0.0004012963	0.002542496	7.438993e-11	3.330071e-10	0.0114934	0.00728729	5.033555e-11	6.387836e-10
	1.573717e-12	-5.28504e-11	0.0005261167	0.002682626	5.033556e-11	6.387836e-10	0.01175446	0.006891904
3e+07	0.01387954	0.008280903	3.403249e-11	4.439762e-10	0.0007972127	0.003743582	3.715711e-11	4.929896e-10
	3.403249e-11	4.439762e-10	0.01406588	0.008211291	6.101017e-11	4.867755e-10	0.000853094	0.003918809
	0.0007972136	0.003743579	6.101018e-11	4.867755e-10	0.01399178	0.008740189	5.633199e-11	5.38983e-10
	3.715711e-11	4.929896e-10	0.0008530937	0.003918811	5.633199e-11	5.38983e-10	0.01403591	0.008287618
4e+07	0.01605088	0.00917585	5.43778e-12	5.88732e-10	0.001336724	0.004873373	1.735813e-11	6.87422e-10
	5.437781e-12	5.88732e-10	0.01618827	0.009099839	3.851308e-11	6.379354e-10	0.001348073	0.0050657
	0.001336728	0.004873377	3.851308e-11	6.379354e-10	0.01632782	0.009630497	2.216939e-11	6.867775e-10
	1.735813e-11	6.87422e-10	0.001348074	0.005065701	2.216939e-11	6.867775e-10	0.01617897	0.009187592
5e+07	0.01814023	0.009690874	-3.453748e-11	7.384976e-10	0.002008411	0.005916864	-2.782537e-11	8.515768e-10
	-3.453748e-11	7.384976e-10	0.01822431	0.009620065	3.318962e-12	7.917966e-10	0.002079777	0.0060856
	0.002008414	0.005916865	3.318962e-12	7.917966e-10	0.01855785	0.01010365	-2.086162e-11	8.659717e-10
	-2.782537e-11	8.515768e-10	0.002079778	0.006085601	-2.086162e-11	8.659717e-10	0.01823416	0.009714317
6e+07	0.02015997	0.009883998	-8.569667e-11	8.970218e-10	0.002799205	0.006859256	-8.873101e-11	1.024169e-09
	-8.569667e-11	8.970218e-10	0.02018779	0.009829668	-4.50177e-11	9.522906e-10	0.002914065	0.006994414
	0.002799201	0.006859255	-4.50177e-11	9.522906e-10	0.02069579	0.01022716	-7.505284e-11	1.056319e-09
	-8.873101e-11	1.024169e-09	0.002914066	0.006994415	-7.505284e-11	1.056319e-09	0.02021541	0.009926651
7e+07	0.02210677	0.009789828	-1.469276e-10	1.067351e-09	0.003705078	0.00768202	-1.594447e-10	1.214527e-09
	-1.469276e-10	1.067351e-09	0.02207665	0.009762903	-1.064865e-10	1.122212e-09	0.003837499	0.007782151
	0.003705066	0.007682019	-1.064865e-10	1.122212e-09	0.02273823	0.01004108	-1.41925e-10	1.257339e-09
	-1.594447e-10	1.214527e-09	0.003837501	0.007782151	-1.41925e-10	1.257339e-09	0.0221205	0.009859321
8e+07	0.02397018	0.009433815	-2.161421e-10	1.252568e-09	0.00469872	0.008377483	-2.350036e-10	1.426135e-09
	-2.161421e-10	1.252568e-09	0.02388153	0.009445106	-1.796828e-10	1.305364e-09	0.00483467	0.008439394
	0.004698705	0.008377485	-1.796828e-10	1.305364e-09	0.0246735	0.009574086	-2.215985e-10	1.472166e-09
	-2.350036e-10	1.426135e-09	0.004834671	0.008439393	-2.215985e-10	1.472166e-09	0.0239397	0.00953798
9e+07	0.02573703	0.008838384	-2.901829e-10	1.456055e-09	0.005762401	0.008936937	-3.104322e-10	1.661094e-09
	-2.901829e-10	1.456055e-09	0.02559057	0.008899023	-2.622491e-10	1.506207e-09	0.005888263	0.008957669
	0.00576239	0.008936941	-2.622491e-10	1.506207e-09	0.02648538	0.008849357	-3.124178e-10	1.705981e-09
	-3.104322e-10	1.661094e-09	0.005888264	0.008957668	-3.124178e-10	1.705981e-09	0.02566066	0.008985619
1e+08	0.02739982	0.008032748	-3.658778e-10	1.682872e-09	0.006880368	0.009356033	-3.814231e-10	1.923079e-09
	-3.658778e-10	1.682872e-09	0.02719862	0.008155281	-3.541195e-10	1.731795e-09	0.006976505	0.00932633
	0.006880368	0.009356033	-3.541195e-10	1.731795e-09	0.0281517	0.007883113	-4.129104e-10	1.967721e-09
	-3.814231e-10	1.923079e-09	0.006976505	0.00932633	-4.129104e-10	1.967721e-09	0.02727698	0.008232201
1.1e+08	0.02896661	0.006982689	-4.24874e-10	1.930076e-09	0.008040679	0.009613974	-4.427873e-10	2.201713e-09
	-4.24874e-10	1.930076e-09	0.0287198	0.007173182	-4.266921e-10	1.988846e-09	0.008068617	0.00956735
	0.008040679	0.009613974	-4.266921e-10	1.988846e-09	0.02964091	0.006730189	-4.827575e-10	2.261268e-09
	-4.427873e-10	2.201713e-09	0.008068615	0.00956735	-4.827575e-10	2.261268e-09	0.02880011	0.007243452
1.2e+08	0.03036084	0.00572269	-4.744849e-10	2.184844e-09	0.00920544	0.009712962	-4.94057e-10	2.48223e-09
	-4.744849e-10	2.184844e-09	0.03007113	0.005988084	-4.821656e-10	2.246937e-09	0.009174945	0.009672929
	0.00920544	0.009712961	-4.821656e-10	2.246937e-09	0.03097373	0.005403405	-5.391543e-10	2.559464e-09
	-4.94057e-10	2.48223e-09	0.009174943	0.00967293	-5.391543e-10	2.559464e-09	0.03015373	0.006053379
1.3e+08	0.03157451	0.004287496	-5.161659e-10	2.439677e-09	0.01035722	0.009657537	-5.37042e-10	2.768253e-09
	-5.161659e-10	2.439677e-09	0.03124691	0.004635753	-5.238865e-10	2.503298e-09	0.01027338	0.009637158
	0.01035722	0.009657536	-5.238865e-10	2.503298e-09	0.0321303	0.003916606	-5.847523e-10	2.853032e-09
	-5.37042e-10	2.768253e-09	0.01027338	0.009637159	-5.847523e-10	2.853032e-09	0.03133124	0.004696434
1.4e+08	0.03259504	0.002702911	-5.489481e-10	2.707596e-09	0.01147695	0.009451705	-5.69993e-10	3.068389e-09
	-5.489481e-10	2.707596e-09	0.03223616	0.003141593	-5.584896e-10	2.772877e-09	0.01134479	0.009461293
	0.01147695	0.009451704	-5.584896e-10	2.772877e-09	0.03309595	0.002290811	-6.206583e-10	3.161385e-09
	-5.69993e-10	3.068389e-09	0.01134479	0.009461294	-6.206583e-10	3.161385e-09	0.03232143	0.003197843
1.5e+08	0.03341093	0.0009942407	-5.706276e-10	2.987383e-09	0.01254587	0.009101454	-5.905255e-10	3.381301e-09
	-5.706276e-10	2.987383e-09	0.03302873	0.001530125	-5.836835e-10	3.054549e-09	0.01237089	0.009149647
	0.01254587	0.009101454	-5.836835e-10	3.054549e-09	0.03385839	0.0005490219	-6.443654e-10	3.483098e-09
	-5.905255e-10	3.381301e-09	0.01237089	0.009149648	-6.443654e-10	3.483098e-09	0.03311412	0.001582131
1.6e+08	0.03401256	-0.0008129041	-5.791922e-10	3.277614e-09	0.01354599	0.00861496	-5.96463e-10	3.705412e-09
	-5.791922e-10	3.277614e-09	0.03361624	-0.0001740751	-5.974294e-10	3.347033e-09	0.0133343	0.008709056
	0.01354599	0.00861496	-5.974294e-10	3.347033e-09	0.03440766	-0.001284488	-6.536083e-10	3.816552e-09
	-5.96463e-10	3.705412e-09	0.0133343	0.008709057	-6.536083e-10	3.816552e-09	0.03370087	-0.0001260717
1.7e+08	0.03439258	-0.00269246	-5.728381e-10	3.57662e-09	0.01446044	0.008002548	-5.858584e-10	4.038876e-09
	-5.728381e-10	3.57662e-09	0.03399236	-0.001946193	-5.979083e-10	3.648828e-09	0.01421877	0.008148629
	0.01446044	0.008002548	-5.979083e-10	3.648828e-09	0.03473623	-0.003184528	-6.463679e-10	4.159871e-09
	-5.858584e-10	4.038876e-09	0.01421877	0.008148629	-6.463679e-10	4.159871e-09	0.03407536	-0.001901863
1.8e+08	0.03454608	-0.004617985	-5.499993e-10	3.882489e-09	0.01527376	0.007276576	-5.570262e-10	4.379589e-09
	-5.499993e-10	3.882489e-09	0.03415306	-0.003761213	-5.835304e-10	3.958211e-09	0.01500938	0.007479532
	0.01527376	0.007276576	-5.835304e-10	3.958211e-09	0.03483917	-0.005125246	-6.208956e-10	4.510923e-09
	-5.570262e-10	4.379589e-09	0.01500938	0.007479533	-6.208956e-10	4.510923e-09	0.03423358	-0.003720123
1.9e+08	0.03447082	-0.006562829	-5.093653e-10	4.193034e-09	0.01597218	0.006451253	-5.085774e-10	4.725194e-09
	-5.093653e-10	4.193034e-09	0.03409672	-0.005594049	-5.529594e-10	4.273254e-09	0.01569281	0.006714785
	0.01597218	0.006451253	-5.529594e-10	4.273254e-09	0.03471427	-0.007080421	-5.757437e-10	4.867341e-09
	-5.085774e-10	4.725194e-09	0.01569281	0.006714785	-5.757437e-10	4.867341e-09	0.03417397	-0.005555671
2e+08	0.03416725	-0.008500375	-4.499394e-10	4.505961e-09	0.01654385	0.005542423	-4.39433e-10	5.073166e-09
	-4.499394e-10	4.505961e-09	0.03382423	-0.007419766	-5.051286e-10	4.59185e-09	0.01625753	0.005869024
	0.01654385	0.005542423	-5.051286e-10	4.59185e-09	0.03436206	-0.009023755	-5.09793e-10	5.22656e-09
	-4.39433e-10	5.073166e-09	0.01625753	0.005869024	-5.09793e-10	5.22656e-09	0.03389749	-0.007383467
2.1e+08	0.03363862	-0.0104043	-3.7105e-10	4.81886e-09	0.01697901	0.004567315	-3.4887e-10	5.420824e-09
	-3.7105e-10	4.81886e-09	0.03333902	-0.00921379	-4.392628e-10	4.911743e-09	0.01669399	0.004958261
	0.01697901	0.004567315	-4.392628e-10	4.911743e-09	0.0337859	-0.01092918	-4.222787e-10	5.585854e-09
	-3.4887e-10	5.420824e-09	0.01669399	0.004958261	-4.222787e-10	5.585854e-09	0.03340764	-0.009178852
2.2e+08	0.03289096	-0.01224883	-2.723473e-10	5.129167e-09	0.0172702	0.00354427	-2.365299e-10	5.76536e-09
	-2.723473e-10	5.129167e-09	0.03264702	-0.01095216	-3.549011e-10	5.230572e-09	0.01699478	0.003999613
	0.0172702	0.00354427	-3.549011e-10	5.230572e-09	0.03299196	-0.01277113	-3.128095e-10	5.942384e-09
	-2.365299e-10	5.76536e-09	0.01699478	0.003999613	-3.128095e-10	5.942384e-09	0.03271047	-0.01091779
2.3e+08	0.03193306	-0.01400909	-1.538316e-10	5.434257e-09	0.01741236	0.00249244	-1.024355e-10	6.103899e-09
	-1.538316e-10	5.434257e-09	0.0317567	-0.0126118	-2.519056e-10	5.545907e-09	0.01715474	0.003011022
	0.01741236	0.00249244	-2.519056e-10	5.545907e-09	0.03198919	-0.01452489	-1.813805e-10	6.293246e-09
	-1.024355e-10	6.103899e-09	0.01715474	0.003011022	-1.813805e-10	6.293246e-09	0.03181454	-0.01257711
2.4e+08	0.03077637	-0.01566135	-1.586183e-11	5.731493e-09	0.01740293	0.001431484	5.299935e-11	6.433554e-09
	-1.586183e-11	5.731493e-09	0.03067889	-0.01417073	-1.304699e-10	5.855293e-09	0.01717106	0.002010961
	0.01740293	0.001431484	-1.304699e-10	5.855293e-09	0.03078923	-0.01616691	-2.838288e-11	6.635521e-09
	5.299935e-11	6.433554e-09	0.01717106	0.002010961	-2.838288e-11	6.635521e-09	0.03073082	-0.01413483
2.5e+08	0.02943492	-0.01718332	1.408445e-10	6.018268e-09	0.01724189	0.0003812412	2.289694e-10	6.75147e-09
	1.408445e-10	6.018268e-09	0.02942677	-0.01560841	8.880505e-12	6.156295e-09	0.01704333	0.001018128
	0.01724189	0.0003812412	8.880505e-12	6.156295e-09	0.0294063	-0.01767507	1.453971e-10	6.966325e-09
	2.289694e-10	6.75147e-09	0.01704333	0.001018128	1.453971e-10	6.966325e-09	0.0294726	-0.01557032
2.6e+08	0.02792512	-0.01855449	3.152156e-10	6.292053e-09	0.01693176	-0.0006385896	4.242812e-10	7.054877e-09
	3.152156e-10	6.292053e-09	0.02801564	-0.01690588	1.652919e-10	6.446537e-09	0.01677352	5.114021e-05
	0.01693176	-0.0006385896	1.652919e-10	6.446537e-09	0.02785703	-0.01902898	3.387821e-10	7.282864e-09
	4.242812e-10	7.054877e-09	0.01677352	5.114017e-05	3.387821e-10	7.282864e-09	0.02805532	-0.01686463
2.7e+08	0.0262656	-0.01975633	5.058364e-10	6.550447e-09	0.01647761	-0.001608779	6.373643e-10	7.341143e-09
	5.058364e-10	6.550447e-09	0.02646279	-0.01804608	3.375924e-10	6.723748e-09	0.016366	-0.0008717726
	0.01647761	-0.001608779	3.375924e-10	6.723748e-09	0.02616028	-0.0202103	5.502166e-10	7.582477e-09
	6.373643e-10	7.341143e-09	0.016366	-0.0008717726	5.502166e-10	7.582477e-09	0.02649639	-0.0180007
2.8e+08	0.024477	-0.02077256	7.109648e-10	6.791217e-09	0.01588692	-0.002510882	8.662875e-10	7.607817e-09
	7.109648e-10	6.791217e-09	0.02478728	-0.01901402	5.243056e-10	6.985798e-09	0.01582746	-0.001733069
	0.01588692	-0.002510882	5.243056e-10	6.985798e-09	0.02433689	-0.02120292	7.777834e-10	7.862694e-09
	8.662875e-10	7.607817e-09	0.01582746	-0.001733069	7.777834e-10	7.862694e-09	0.02481503	-0.01896352
2.9e+08	0.02258164	-0.02158938	9.285534e-10	7.01234e-09	0.01516951	-0.003327552	1.108781e-09	7.852681e-09
	9.285534e-10	7.01234e-09	0.02300969	-0.01979696	7.236707e-10	7.230741e-09	0.01516677	-0.002516188
	0.01516951	-0.003327552	7.236707e-10	7.230741e-09	0.02240944	-0.02199325	1.019228e-09	8.121272e-09
	1.108781e-09	7.852681e-09	0.01516677	-0.002516188	1.019228e-09	8.121272e-09	0.02303194	-0.01974042
3e+08	0.02060331	-0.02219565	1.156277e-09	7.212043e-09	0.01433738	-0.004042823	1.362267e-09	8.073789e-09
	1.156277e-09	7.212043e-09	0.0211519	-0.0203846	9.336665e-10	7.456846e-09	0.0143949	-0.003205823
	0.01433738	-0.004042823	9.336665e-10	7.456846e-09	0.02040194	-0.02257036	1.271988e-09	8.356247e-09
	1.362267e-09	8.073789e-09	0.0143949	-0.003205823	1.271988e-09	8.356247e-09	0.02116912	-0.02032114
3.1e+08	0.01856695	-0.02258305	1.391563e-09	7.388841e-09	0.0134045	-0.004642389	1.623889e-09	8.269511e-09
	1.391563e-09	7.388841e-09	0.01923678	-0.02076921	1.152038e-09	7.662632e-09	0.01352468	-0.003788181
	0.0134045	-0.004642389	1.152038e-09	7.662632e-09	0.01833956	-0.02292618	1.533226e-09	8.565965e-09
	1.623889e-09	8.269511e-09	0.01352468	-0.003788181	1.533226e-09	8.565965e-09	0.01924957	-0.020698
3.2e+08	0.01649827	-0.02274621	1.631626e-09	7.54156e-09	0.01238661	-0.00511384	1.890554e-09	8.438567e-09
	1.631626e-09	7.54156e-09	0.0172879	-0.02094571	1.376329e-09	7.846891e-09	0.01257065	-0.004251214
	0.01238661	-0.00511384	1.376329e-09	7.846891e-09	0.01624823	-0.0230556	1.799868e-09	8.749123e-09
	1.890554e-09	8.438567e-09	0.01257065	-0.004251214	1.799868e-09	8.749123e-09	0.01729697	-0.02086603
3.3e+08	0.01442348	-0.02268278	1.87351e-09	7.669372e-09	0.01130092	-0.005446883	2.158971e-09	8.580061e-09
	1.87351e-09	7.669372e-09	0.01532926	-0.02091178	1.603914e-09	8.008717e-09	0.0115488	-0.004584824
	0.01130092	-0.005446883	1.603914e-09	8.008717e-09	0.01415435	-0.02295658	2.068649e-09	8.904794e-09
	2.158971e-09	8.580061e-09	0.0115488	-0.004584824	2.068649e-09	8.904794e-09	0.01533541	-0.02082299
3.4e+08	0.01236889	-0.02239349	2.114126e-09	7.771814e-09	0.01016589	-0.005633518	2.425703e-09	8.693503e-09
	2.114126e-09	7.771814e-09	0.01338491	-0.02066784	1.832035e-09	8.147524e-09	0.0104763	-0.004781035
	0.01016589	-0.005633518	1.832035e-09	8.147524e-09	0.01208441	-0.02263016	2.336155e-09	9.032459e-09
	2.425703e-09	8.693503e-09	0.0104763	-0.004781035	2.336155e-09	9.032459e-09	0.01338905	-0.02056942
3.5e+08	0.01036053	-0.02188213	2.350296e-09	7.848805e-09	0.009000897	-0.005668181	2.687212e-09	8.778836e-09
	2.350296e-09	7.848805e-09	0.01147871	-0.0202171	2.057838e-09	8.263062e-09	0.009371264	-0.004834139
	0.009000897	-0.005668181	2.057838e-09	8.263062e-09	0.01006462	-0.02208048	2.598873e-09	9.132019e-09
	2.687212e-09	8.778836e-09	0.009371264	-0.004834139	2.598873e-09	9.132019e-09	0.01148181	-0.02010864
3.6e+08	0.008423875	-0.02115553	2.578798e-09	7.900666e-09	0.007825893	-0.00554785	2.939915e-09	8.836455e-09
	2.578798e-09	7.900666e-09	0.009633954	-0.01956549	2.278414e-09	8.355429e-09	0.008252388	-0.004740791
	0.007825893	-0.00554785	2.278414e-09	8.355429e-09	0.008120573	-0.02131474	2.853243e-09	9.203816e-09
	2.939915e-09	8.836455e-09	0.008252388	-0.004740791	2.853243e-09	9.203816e-09	0.009637036	-0.01944671
3.7e+08	0.006583412	-0.02022345	2.796425e-09	7.928107e-09	0.006661113	-0.005272104	3.180237e-09	8.867197e-09
	2.796425e-09	7.928107e-09	0.007873082	-0.01872156	2.490837e-09	8.425081e-09	0.007138693	-0.004500076
	0.006661113	-0.005272104	2.490837e-09	8.425081e-09	0.006276853	-0.0203431	3.095708e-09	9.248638e-09
	3.180237e-09	8.867197e-09	0.007138693	-0.004500076	3.095708e-09	9.248638e-09	0.007877212	-0.01859235
3.8e+08	0.004862325	-0.0190985	3.000021e-09	7.932246e-09	0.005526713	-0.004843142	3.404667e-09	8.872364e-09
	3.000021e-09	7.932246e-09	0.006217379	-0.01769643	2.692207e-09	8.472833e-09	0.006049191	-0.004113535
	0.005526714	-0.004843142	2.692207e-09	8.472833e-09	0.004556707	-0.01917857	3.322774e-09	9.267723e-09
	3.404667e-09	8.872364e-09	0.006049191	-0.004113535	3.322774e-09	9.267723e-09	0.00622364	-0.01755681
3.9e+08	0.003282178	-0.0177959	3.186527e-09	7.914604e-09	0.004442444	-0.004265755	3.609816e-09	8.853713e-09
	3.186527e-09	7.914604e-09	0.00468668	-0.01650359	2.879689e-09	8.49986e-09	0.00500257	-0.003585143
	0.004442444	-0.004265755	2.879689e-09	8.49986e-09	0.002981716	-0.01783682	3.531058e-09	9.262756e-09
	3.609816e-09	8.853713e-09	0.00500257	-0.003585143	3.531058e-09	9.262756e-09	0.004696153	-0.01635371
4e+08	0.001862589	-0.01633335	3.35304e-09	7.877097e-09	0.003427313	-0.003547259	3.792474e-09	8.813446e-09
	3.35304e-09	7.877097e-09	0.003299106	-0.01515874	3.050558e-09	8.507694e-09	0.004016889	-0.002921256
	0.003427313	-0.003547259	3.050558e-09	8.507694e-09	0.001571477	-0.01633598	3.717346e-09	9.235858e-09
	3.792474e-09	8.813446e-09	0.004016889	-0.002921256	3.717346e-09	9.235858e-09	0.003312852	-0.0149989
4.1e+08	0.0006209699	-0.01473075	3.496853e-09	7.822015e-09	0.002499264	-0.002697384	3.949669e-09	8.754191e-09
	3.496853e-09	7.822015e-09	0.002070812	-0.01367953	3.202238e-09	8.498213e-09	0.003109267	-0.002130511
	0.002499264	-0.002697384	3.202238e-09	8.498213e-09	0.0003433237	-0.01469637	3.878648e-09	9.189571e-09
	3.949669e-09	8.754191e-09	0.003109267	-0.002130511	3.878648e-09	9.189571e-09	0.002089852	-0.01351021
4.2e+08	-0.000427748	-0.0130099	3.615507e-09	7.75201e-09	0.001674874	-0.001728118	4.078718e-09	8.678981e-09
	3.615507e-09	7.75201e-09	0.001015771	-0.01208541	3.332344e-09	8.473634e-09	0.002295605	-0.001223691
	0.001674874	-0.001728118	3.332344e-09	8.473634e-09	-0.0006879277	-0.01294026	4.012251e-09	9.126838e-09
	4.078718e-09	8.678981e-09	0.002295605	-0.001223691	4.012251e-09	9.126838e-09	0.001041061	-0.01190719
4.3e+08	-0.001271304	-0.01119425	3.706836e-09	7.670069e-09	0.0009690713	-0.0006535159	4.177287e-09	8.591218e-09
	3.706836e-09	7.670069e-09	0.0001455793	-0.01039726	3.438725e-09	8.436489e-09	0.001590312	-0.0002135517
	0.0009690713	-0.0006535159	3.438725e-09	8.436489e-09	-0.001510193	-0.01109153	4.11577e-09	9.05097e-09
	4.177287e-09	8.591218e-09	0.001590312	-0.0002135517	4.11577e-09	9.05097e-09	0.000178002	-0.01021088
4.4e+08	-0.001900309	-0.009308529	3.769009e-09	7.57948e-09	0.0003948778	0.0005105226	4.243433e-09	8.494635e-09
	3.769009e-09	7.57948e-09	-0.0005306947	-0.008637169	3.519505e-09	8.389608e-09	0.001006066	0.0008853802
	0.0003948778	0.0005105226	3.519505e-09	8.389608e-09	-0.0021143	-0.009175331	4.187197e-09	8.965616e-09
	4.243433e-09	8.494635e-09	0.001006066	0.0008853802	4.187197e-09	8.965616e-09	-0.0004903587	-0.008443462
4.5e+08	-0.002308365	-0.007378418	3.800574e-09	7.483798e-09	-3.681541e-05	0.001746516	4.275656e-09	8.393254e-09
	3.800574e-09	7.483798e-09	-0.001006639	-0.006828099	3.57312e-09	8.33609e-09	0.0005535967	0.002057046
	-3.68154e-05	0.001746516	3.57312e-09	8.33609e-09	-0.002494126	-0.007217744	4.224944e-09	8.874715e-09
	4.275656e-09	8.393254e-09	0.0005535967	0.002057046	4.224944e-09	8.874715e-09	-0.0009577195	-0.006628023
4.6e+08	-0.002492172	-0.005430165	3.800491e-09	7.386805e-09	-0.0003174368	0.003035684	4.272939e-09	8.291332e-09
	3.800491e-09	7.386805e-09	-0.001278576	-0.004993572	3.59835e-09	8.27926e-09	0.0002415016	0.003284114
	-0.0003174368	0.003035684	3.59835e-09	8.27926e-09	-0.002646688	-0.005245394	4.227906e-09	8.782433e-09
	4.272939e-09	8.291332e-09	0.0002415016	0.003284114	4.227906e-09	8.782433e-09	-0.001220534	-0.004788173
4.7e+08	-0.002451573	-0.003490224	3.768171e-09	7.292455e-09	-0.0004408862	0.004358256	4.234774e-09	8.1933e-09
	3.768171e-09	7.292455e-09	-0.001345616	-0.003157344	3.594327e-09	8.222583e-09	7.610119e-05	0.004548261
	-0.0004408862	0.004358256	3.594327e-09	8.222583e-09	-0.002572174	-0.003285072	4.195484e-09	8.693028e-09
	4.234774e-09	8.1933e-09	7.610119e-05	0.004548261	4.195484e-09	8.693028e-09	-0.001278023	-0.002947717
4.8e+08	-0.002189553	-0.00158488	3.703498e-09	7.204843e-09	-0.0004036451	0.005693794	4.16121e-09	8.103714e-09
