!$
! Info: Touchstone file created by Circ.  Input file=Tx_6in_Rx_93ohms_TxVia_60mils_RxVia_70mils.circ
!$
# Hz S RI R 50
0	0.005629598	9.334561e-26	-3.095248e-11	8.871243e-27	5.272136e-05	1.078236e-23	-3.209241e-09	3.987248e-25
	-3.095325e-11	8.871352e-27	0.005625136	1.118941e-25	4.195308e-11	1.711837e-27	5.242595e-05	1.363603e-23
	5.380541e-05	1.085443e-23	4.194886e-11	1.712348e-27	0.005645119	9.332235e-26	-9.97262e-12	7.868459e-27
	-3.209114e-09	3.987092e-25	5.269577e-05	1.369451e-23	-1.006726e-11	7.88e-27	0.005639659	1.113844e-25
1e+07	0.00779666	-1.732852e-05	5.269412e-11	1.58381e-10	0.000173347	0.001203705	-4.667216e-09	7.702346e-09
	5.269412e-11	1.58381e-10	0.008248989	-7.824297e-05	6.151457e-11	1.751701e-10	0.0001766763	0.001293141
	0.0001733782	0.00120371	6.151457e-11	1.751701e-10	0.008380982	0.0002843907	-4.989266e-09	9.864987e-09
	-4.667216e-09	7.702346e-09	0.0001766786	0.001293139	-4.989266e-09	9.864987e-09	0.00809649	-8.300841e-05
2e+07	0.009545934	-0.001897731	5.211136e-11	2.962194e-10	0.0004468048	0.002421456	-1.087369e-11	-5.101681e-11
	5.211136e-11	2.962194e-10	0.009829075	-0.002163215	5.905919e-11	3.314573e-10	0.0003829965	0.002584458
	0.0004468189	0.002421437	5.905918e-11	3.314573e-10	0.01031544	-0.00162129	3.769152e-11	6.399274e-10
	-1.087368e-11	-5.101681e-11	0.0003829933	0.002584458	3.769153e-11	6.399274e-10	0.009712799	-0.002114638
3e+07	0.01045093	-0.004655179	2.144433e-11	4.41494e-10	0.0008628698	0.003588344	1.376432e-11	5.037318e-10
	2.144433e-11	4.41494e-10	0.01058556	-0.004979761	3.005352e-11	4.934422e-10	0.0007828233	0.003783013
	0.0008628707	0.003588342	3.005352e-11	4.934422e-10	0.01135993	-0.004437994	2.910101e-11	5.458005e-10
	1.376432e-11	5.037318e-10	0.000782823	0.003783015	2.910101e-11	5.458005e-10	0.01049596	-0.004918887
4e+07	0.01072531	-0.007704501	-1.991366e-11	5.884145e-10	0.001416585	0.004688461	-1.96285e-11	7.10047e-10
	-1.991366e-11	5.884145e-10	0.01071862	-0.008042018	-8.571647e-12	6.585295e-10	0.001351171	0.004896866
	0.001416589	0.004688466	-8.571649e-12	6.585295e-10	0.01174313	-0.007575265	-2.085788e-11	7.029605e-10
	-1.96285e-11	7.10047e-10	0.001351172	0.004896867	-2.085788e-11	7.029605e-10	0.01064999	-0.007979777
5e+07	0.01044953	-0.01086609	-7.595594e-11	7.431574e-10	0.002098339	0.005704204	-7.914064e-11	8.896839e-10
	-7.595594e-11	7.431574e-10	0.01030608	-0.01118408	-6.029419e-11	8.309201e-10	0.002041333	0.005919593
	0.002098342	0.005704206	-6.029419e-11	8.309201e-10	0.01155015	-0.01084601	-8.107711e-11	8.952267e-10
	-7.914064e-11	8.896839e-10	0.002041334	0.005919593	-8.107711e-11	8.952267e-10	0.01025332	-0.01112629
6e+07	0.009671975	-0.01402987	-1.460723e-10	9.100341e-10	0.002895842	0.006619711	-1.542066e-10	1.081071e-09
	-1.460723e-10	9.100341e-10	0.009397057	-0.01430097	-1.241226e-10	1.013954e-09	0.002841414	0.00683826
	0.002895838	0.00661971	-1.241226e-10	1.013954e-09	0.01083098	-0.01413526	-1.531768e-10	1.102142e-09
	-1.542066e-10	1.081071e-09	0.002841416	0.006838261	-1.531768e-10	1.102142e-09	0.009355601	-0.01425122
7e+07	0.008431238	-0.01711356	-2.283614e-10	1.092989e-09	0.003794861	0.007421132	-2.380365e-10	1.293306e-09
	-2.283614e-10	1.092989e-09	0.008031719	-0.01731302	-1.985732e-10	1.210988e-09	0.003737412	0.007640652
	0.00379485	0.007421132	-1.985732e-10	1.210988e-09	0.009624467	-0.01735739	-2.379355e-10	1.323396e-09
	-2.380365e-10	1.293306e-09	0.003737413	0.007640652	-2.379355e-10	1.323396e-09	0.00799718	-0.01727382
8e+07	0.006763782	-0.02004962	-3.2007e-10	1.295685e-09	0.004779644	0.008096919	-3.248511e-10	1.529077e-09
	-3.2007e-10	1.295685e-09	0.006248665	-0.02015388	-2.812784e-10	1.424959e-09	0.004713589	0.008316001
	0.00477963	0.008096922	-2.812784e-10	1.424959e-09	0.007966305	-0.02044288	-3.345073e-10	1.562142e-09
	-3.248511e-10	1.529077e-09	0.00471359	0.008316	-3.345073e-10	1.562142e-09	0.006216584	-0.02012696
9e+07	0.00470746	-0.02277993	-4.178655e-10	1.521703e-09	0.005833579	0.008638507	-4.089147e-10	1.787062e-09
	-4.178655e-10	1.521703e-09	0.004089029	-0.022765	-3.677958e-10	1.657235e-09	0.005752758	0.0088554
	0.005833568	0.008638511	-3.677958e-10	1.657235e-09	0.005891776	-0.02333392	-4.403334e-10	1.821152e-09
	-4.089147e-10	1.787062e-09	0.005752758	0.008855399	-4.403334e-10	1.821152e-09	0.004054681	-0.02275164
1e+08	0.002305585	-0.02525054	-5.191521e-10	1.777069e-09	0.006943066	0.009045628	-4.870777e-10	2.068602e-09
	-5.191521e-10	1.777069e-09	0.001606007	-0.02508388	-4.578972e-10	1.910977e-09	0.006836596	0.009251853
	0.006943066	0.009045628	-4.578972e-10	1.910977e-09	0.003429799	-0.02599173	-5.547102e-10	2.107824e-09
	-4.870777e-10	2.068602e-09	0.006836596	0.009251853	-5.547102e-10	2.107824e-09	0.001563192	-0.02508656
1.1e+08	-0.0003871054	-0.02744162	-6.00611e-10	2.060978e-09	0.008054895	0.00931979	-5.612532e-10	2.367523e-09
	-6.00611e-10	2.060978e-09	-0.001118261	-0.02714112	-5.334587e-10	2.191968e-09	0.007944654	0.009502102
	0.008054895	0.00931979	-5.334587e-10	2.191968e-09	0.0005901975	-0.02830452	-6.409278e-10	2.429571e-09
	-5.612532e-10	2.367523e-09	0.007944652	0.009502102	-6.409278e-10	2.429571e-09	-0.001180219	-0.02715181
1.2e+08	-0.003352844	-0.02931231	-6.679991e-10	2.350306e-09	0.009169172	0.009429781	-6.255043e-10	2.682932e-09
	-6.679991e-10	2.350306e-09	-0.00411999	-0.02888536	-5.981563e-10	2.483504e-09	0.009058853	0.009605175
	0.009169172	0.009429781	-5.981563e-10	2.483504e-09	-0.002505176	-0.03025116	-7.132211e-10	2.759114e-09
	-6.255043e-10	2.682932e-09	0.009058851	0.009605176	-7.132211e-10	2.759114e-09	-0.004200167	-0.02889793
1.3e+08	-0.006541411	-0.03082728	-7.215296e-10	2.644605e-09	0.01027043	0.009384805	-6.776918e-10	3.009877e-09
	-7.215296e-10	2.644605e-09	-0.007340422	-0.03026968	-6.496568e-10	2.783909e-09	0.01015991	0.009561664
	0.01027043	0.009384805	-6.496568e-10	2.783909e-09	-0.005817468	-0.03181921	-7.718727e-10	3.097523e-09
	-6.776918e-10	3.009877e-09	0.01015991	0.009561665	-7.718727e-10	3.097523e-09	-0.00743888	-0.03028036
1.4e+08	-0.009903281	-0.03196205	-7.625498e-10	2.9551e-09	0.01133956	0.009190198	-7.161431e-10	3.353056e-09
	-7.625498e-10	2.9551e-09	-0.01072687	-0.03126775	-6.898072e-10	3.09982e-09	0.01122882	0.009374925
	0.01133956	0.009190198	-6.898072e-10	3.09982e-09	-0.0092987	-0.03298969	-8.167427e-10	3.453971e-09
	-7.161431e-10	3.353056e-09	0.01122882	0.009374926	-8.167427e-10	3.453971e-09	-0.01084355	-0.03127322
1.5e+08	-0.01338791	-0.03269922	-7.883782e-10	3.280433e-09	0.01235766	0.008852835	-7.379417e-10	3.711116e-09
	-7.883782e-10	3.280433e-09	-0.01422646	-0.03186205	-7.16147e-10	3.429984e-09	0.01224721	0.009050782
	0.01235766	0.008852835	-7.16147e-10	3.429984e-09	-0.01289859	-0.03374805	-8.444642e-10	3.826191e-09
	-7.379417e-10	3.711116e-09	0.01224721	0.009050783	-8.444642e-10	3.826191e-09	-0.01436105	-0.03185923
1.6e+08	-0.01694409	-0.03302807	-7.964396e-10	3.61858e-09	0.01330667	0.008381645	-7.405407e-10	4.082099e-09
	-7.964396e-10	3.61858e-09	-0.01778609	-0.03204256	-7.262149e-10	3.772588e-09	0.01319766	0.008597395
	0.01330667	0.008381644	-7.262149e-10	3.772588e-09	-0.01656581	-0.03408545	-8.526396e-10	4.212524e-09
	-7.405407e-10	4.082099e-09	0.01319766	0.008597395	-8.526396e-10	4.212524e-09	-0.01793795	-0.03202854
1.7e+08	-0.02052057	-0.03294432	-7.84461e-10	3.96719e-09	0.0141698	0.007787651	-7.216033e-10	4.463518e-09
	-7.84461e-10	3.96719e-09	-0.02135291	-0.03180626	-7.178511e-10	4.125505e-09	0.01406401	0.008025099
	0.0141698	0.007787651	-7.178511e-10	4.125505e-09	-0.02024878	-0.03399901	-8.387603e-10	4.610384e-09
	-7.216033e-10	4.463518e-09	0.01406401	0.0080251	-8.387603e-10	4.610384e-09	-0.02152108	-0.03177829
1.8e+08	-0.02406666	-0.03244999	-7.505039e-10	4.323607e-09	0.01493181	0.007083859	-6.79145e-10	4.852542e-09
	-7.505039e-10	4.323607e-09	-0.02487495	-0.03115678	-6.892028e-10	4.486314e-09	0.01483161	0.007346217
	0.01493181	0.007083859	-6.892028e-10	4.486314e-09	-0.02389644	-0.03349188	-8.006875e-10	5.016844e-09
	-6.79145e-10	4.852542e-09	0.01483161	0.007346218	-8.006875e-10	5.016844e-09	-0.02505814	-0.03111232
1.9e+08	-0.02753284	-0.03155314	-6.930031e-10	4.684893e-09	0.01557927	0.006285115	-6.115794e-10	5.246046e-09
	-6.930031e-10	4.684893e-09	-0.02830175	-0.03010409	-6.387579e-10	4.852333e-09	0.01548759	0.006574834
	0.01557927	0.006285115	-6.387579e-10	4.852333e-09	-0.02745892	-0.03257313	-7.366952e-10	5.428667e-09
	-6.115794e-10	5.246046e-09	0.01548759	0.006574834	-7.366952e-10	5.428667e-09	-0.02849836	-0.0300408
2e+08	-0.03087227	-0.03026753	-6.108834e-10	5.047806e-09	0.01611182	0.005381681	-5.178535e-10	5.640573e-09
	-6.108834e-10	5.047806e-09	-0.031585	-0.0286642	-5.654413e-10	5.220593e-09	0.01602102	0.005726547
	0.01611182	0.005381681	-5.654413e-10	5.220593e-09	-0.03088897	-0.03125742	-6.455962e-10	5.842286e-09
	-5.178535e-10	5.640573e-09	0.01602102	0.005726547	-6.455962e-10	5.842286e-09	-0.03179314	-0.02857999
2.1e+08	-0.03403892	-0.02861247	-5.033709e-10	5.409069e-09	0.01650635	0.004416427	-3.972225e-10	6.032649e-09
	-5.033709e-10	5.409069e-09	-0.03467916	-0.02685873	-4.684668e-10	5.588085e-09	0.01642313	0.004818192
	0.01650635	0.004416427	-4.684668e-10	5.588085e-09	-0.03414023	-0.0295649	-5.2654e-10	6.254082e-09
	-3.972225e-10	6.032649e-09	0.01642313	0.004818192	-5.2654e-10	6.254082e-09	-0.03489668	-0.02675179
2.2e+08	-0.03699041	-0.02661242	-3.702125e-10	5.765219e-09	0.01675564	0.003409856	-2.495033e-10	6.4186e-09
	-3.702125e-10	5.765219e-09	-0.03754204	-0.02471448	-3.475163e-10	5.95162e-09	0.01668741	0.003867555
	0.01675564	0.003409856	-3.475163e-10	5.95162e-09	-0.03717	-0.02752086	-3.792533e-10	6.660234e-09
	-2.495033e-10	6.4186e-09	0.01668741	0.003867555	-3.792533e-10	6.660234e-09	-0.03776657	-0.02458333
2.3e+08	-0.03968791	-0.02429653	-2.116437e-10	6.112726e-09	0.01685579	0.002381511	-7.50373e-11	6.794692e-09
	-2.116437e-10	6.112726e-09	-0.04013528	-0.02226301	-2.027141e-10	6.307942e-09	0.01680973	0.002893068
	0.01685579	0.002381511	-2.027141e-10	6.307942e-09	-0.0399392	-0.02515524	-2.040024e-10	7.056849e-09
	-7.50373e-11	6.794692e-09	0.01680973	0.002893068	-2.040024e-10	7.056849e-09	-0.04036427	-0.02210648
2.4e+08	-0.04209658	-0.02169818	-2.839417e-11	6.448062e-09	0.01680545	0.001351227	1.253065e-10	7.157203e-09
	-2.839417e-11	6.448062e-09	-0.04242491	-0.01954001	-3.463441e-11	6.653782e-09	0.01678836	0.001913501
	0.01680545	0.001351227	-3.463441e-11	6.653782e-09	-0.04241274	-0.02250218	-1.60077e-12	7.440039e-09
	1.253065e-10	7.157203e-09	0.01678836	0.001913501	-1.60077e-12	7.440039e-09	-0.04265566	-0.01935731
2.5e+08	-0.04418594	-0.01885446	1.783129e-10	6.767771e-09	0.01660582	0.000338808	3.501331e-10	7.5025e-09
	1.783129e-10	6.767771e-09	-0.04438166	-0.01658485	1.556985e-10	6.985924e-09	0.01662401	0.0009476489
	0.01660582	0.000338808	1.556985e-10	6.985924e-09	-0.04455999	-0.01959954	2.265921e-10	7.805996e-09
	3.501331e-10	7.5025e-09	0.01662401	0.0009476488	2.265921e-10	7.805996e-09	-0.04461139	-0.01637554
2.6e+08	-0.04593027	-0.01580561	4.065841e-10	7.068633e-09	0.01626067	-0.0006363016	5.975339e-10	7.82711e-09
	4.065841e-10	7.068633e-09	-0.04598141	-0.01343984	3.664708e-10	7.301321e-09	0.01631978	1.402725e-05
	0.01626067	-0.0006363016	3.664708e-10	7.301321e-09	-0.0463551	-0.01648831	4.786831e-10	8.15106e-09
	5.975339e-10	7.82711e-09	0.01631978	1.402721e-05	4.786831e-10	8.15106e-09	-0.04620726	-0.01320389
2.7e+08	-0.04730889	-0.01259448	6.544212e-10	7.34747e-09	0.01577623	-0.001555332	8.650974e-10	8.127783e-09
	6.544212e-10	7.34747e-09	-0.04720534	-0.01014973	5.960838e-10	7.597021e-09	0.01588114	-0.0008694331
	0.01577623	-0.001555332	5.960838e-10	7.597021e-09	-0.0477773	-0.01321204	7.522482e-10	8.471803e-09
	8.650974e-10	8.127783e-09	0.01588114	-0.0008694331	7.522482e-10	8.471803e-09	-0.04742448	-0.009887473
2.8e+08	-0.0483064	-0.009265829	9.192354e-10	7.601408e-09	0.01516106	-0.002400498	1.149945e-09	8.401571e-09
	9.192354e-10	7.601408e-09	-0.0480402	-0.006760961	8.422805e-10	7.870297e-09	0.01531579	-0.001685672
	0.01516106	-0.002400498	8.422805e-10	7.870297e-09	-0.04881117	-0.009816237	1.044374e-09	8.76509e-09
	1.149945e-09	8.401571e-09	0.01531579	-0.001685672	1.044374e-09	8.76509e-09	-0.04824987	-0.006473118
2.9e+08	-0.04891282	-0.005865796	1.197991e-09	7.827916e-09	0.01442596	-0.003155282	1.448768e-09	8.645891e-09
	1.197991e-09	7.827916e-09	-0.04847849	-0.003321031	1.102354e-09	8.11871e-09	0.01463353	-0.002418774
	0.01442596	-0.003155282	1.102354e-09	8.11871e-09	-0.04944678	-0.006347723	1.351695e-09	9.028155e-09
	1.448768e-09	8.645891e-09	0.01463353	-0.002418774	1.351695e-09	9.028155e-09	-0.04867603	-0.003008688
3e+08	-0.04912371	-0.002441205	1.487282e-09	8.024844e-09	0.01358375	-0.003804702	1.757874e-09	8.858577e-09
	1.487282e-09	8.024844e-09	-0.04851841	0.0001221924	1.373242e-09	8.340155e-09	0.01384613	-0.00305422
	0.01358375	-0.003804702	1.373242e-09	8.340155e-09	-0.04967975	-0.002854008	1.670434e-09	9.258655e-09
	1.757874e-09	8.858577e-09	0.01384613	-0.00305422	1.670434e-09	9.258655e-09	-0.04870132	0.0004575986
3.1e+08	-0.04894017	0.0009610731	1.783377e-09	8.19048e-09	0.01264906	-0.004335553	2.073241e-09	9.037946e-09
	1.783377e-09	8.19048e-09	-0.04816391	0.003521153	1.651564e-09	8.532908e-09	0.0129671	-0.003579119
	0.01264906	-0.004335553	1.651564e-09	8.532908e-09	-0.04951133	0.0006173756	1.996462e-09	9.454736e-09
	2.073241e-09	9.037946e-09	0.0129671	-0.003579119	1.996462e-09	9.454736e-09	-0.04832987	0.003877853
3.2e+08	-0.04836881	0.004294743	2.082278e-09	8.323589e-09	0.0116381	-0.004736618	2.390581e-09	9.182834e-09
	2.082278e-09	8.323589e-09	-0.04742454	0.006829257	1.933671e-09	8.695677e-09	0.01201148	-0.003982414
	0.0116381	-0.004736618	1.933671e-09	8.695677e-09	-0.0489483	0.004019496	2.325359e-09	9.615078e-09
	2.390581e-09	9.182834e-09	0.01201148	-0.003982414	2.325359e-09	9.615078e-09	-0.04757151	0.007205181
3.3e+08	-0.04742162	0.007514728	2.379783e-09	8.423455e-09	0.0105684	-0.004998852	2.705406e-09	9.292641e-09
	2.379783e-09	8.423455e-09	-0.04631532	0.01000153	2.215696e-09	8.827635e-09	0.0109956	-0.004255056
	0.0105684	-0.004998852	2.215696e-09	8.827635e-09	-0.04800285	0.00730666	2.652484e-09	9.738936e-09
	2.705406e-09	9.292641e-09	0.0109956	-0.004255056	2.652484e-09	9.738936e-09	-0.0464415	0.01039434
3.4e+08	-0.04611574	0.01057777	2.67155e-09	8.489914e-09	0.009458498	-0.005115529	3.013105e-09	9.367359e-09
	2.67155e-09	8.489914e-09	-0.04485645	0.01299523	2.493619e-09	8.928457e-09	0.009936837	-0.004390149
	0.009458498	-0.005115529	2.493619e-09	8.928457e-09	-0.04669244	0.01043503	2.973049e-09	9.826177e-09
	3.013105e-09	9.367359e-09	0.009936837	-0.004390149	2.973049e-09	9.826177e-09	-0.04496038	0.01340235
3.5e+08	-0.04447328	0.01344303	2.953169e-09	8.523369e-09	0.008327692	-0.005082356	3.30902e-09	9.40759e-09
	2.953169e-09	8.523369e-09	-0.04307304	0.01577047	2.763323e-09	8.998345e-09	0.008853302	-0.004383066
	0.008327692	-0.005082356	2.763323e-09	8.998345e-09	-0.04503947	0.01336322	3.2822e-09	9.877301e-09
	3.30902e-09	9.40759e-09	0.008853302	-0.004383066	3.2822e-09	9.877301e-09	-0.04315359	0.01618914
3.6e+08	-0.04252092	0.0160726	3.220241e-09	8.524809e-09	0.007195681	-0.004897546	3.588527e-09	9.414559e-09
	3.220241e-09	8.524809e-09	-0.04099468	0.01829069	3.02067e-09	9.038046e-09	0.007763579	-0.004231525
	0.007195681	-0.004897546	3.02067e-09	9.038046e-09	-0.043071	0.0160528	3.575101e-09	9.893454e-09
	3.588527e-09	9.414559e-09	0.007763579	-0.004231524	3.575101e-09	9.893454e-09	-0.0410511	0.01871801
3.7e+08	-0.0402896	0.01843208	3.468447e-09	8.495809e-09	0.006082272	-0.004561858	3.847119e-09	9.390111e-09
	3.468447e-09	8.495809e-09	-0.03865506	0.02052324	3.261567e-09	9.048859e-09	0.006686416	-0.003935632
	0.006082272	-0.004561858	3.261567e-09	9.048859e-09	-0.04081836	0.01846889	3.847017e-09	9.876431e-09
	3.847119e-09	9.390111e-09	0.006686416	-0.003935632	3.847017e-09	9.876431e-09	-0.03868696	0.0209562
3.8e+08	-0.03781401	0.02049096	3.693633e-09	8.438523e-09	0.00500705	-0.004078592	4.080488e-09	9.3367e-09
	3.693633e-09	8.438523e-09	-0.03609141	0.02243977	3.482041e-09	9.032639e-09	0.005640428	-0.003497891
	0.00500705	-0.004078592	3.482041e-09	9.032639e-09	-0.03831669	0.02058056	4.093404e-09	9.828665e-09
	4.080488e-09	9.3367e-09	0.005640428	-0.003497891	4.093404e-09	9.828665e-09	-0.03609883	0.02287533
3.9e+08	-0.03513219	0.02222309	3.89188e-09	8.355668e-09	0.003989061	-0.003453553	4.284607e-09	9.257366e-09
	3.89188e-09	8.355668e-09	-0.03334404	0.02401664	3.678316e-09	8.991783e-09	0.004643798	-0.002923171
	0.003989061	-0.003453553	3.678316e-09	8.991783e-09	-0.03560449	0.02236125	4.309992e-09	9.753207e-09
	4.284607e-09	9.257366e-09	0.004643798	-0.002923171	4.309992e-09	9.753207e-09	-0.03332739	0.02445175
4e+08	-0.0322849	0.02360702	4.059584e-09	8.250498e-09	0.003046498	-0.002694962	4.455807e-09	9.155699e-09
	4.059584e-09	8.250498e-09	-0.03045568	0.02523521	3.846883e-09	8.929214e-09	0.003713975	-0.002218641
	0.003046498	-0.002694962	3.846883e-09	8.929214e-09	-0.03272303	0.02378917	4.492865e-09	9.653693e-09
	4.455807e-09	9.155699e-09	0.003713975	-0.002218641	4.492865e-09	9.653693e-09	-0.03041578	0.0256669
4.1e+08	-0.02931512	0.02462626	4.193525e-09	8.126763e-09	0.002196394	-0.001813346	4.590852e-09	9.035801e-09
	4.193525e-09	8.126763e-09	-0.02747091	0.02608214	3.984576e-09	8.848344e-09	0.002867396	-0.001393665
	0.002196394	-0.001813346	3.984576e-09	8.848344e-09	-0.02971585	0.02484756	4.638546e-09	9.534306e-09
	4.590852e-09	9.035801e-09	0.002867396	-0.001393665	4.638546e-09	9.534306e-09	-0.02740899	0.02650753
4.2e+08	-0.02626745	0.02526956	4.290938e-09	7.988668e-09	0.001454342	-0.000821375	4.687008e-09	8.902229e-09
	4.290938e-09	7.988668e-09	-0.02443552	0.0265495	4.088638e-09	8.753044e-09	0.002119203	-0.0004596701
	0.001454342	-0.000821375	4.088638e-09	8.753044e-09	-0.02662807	0.02552491	4.744068e-09	9.399715e-09
	4.687008e-09	8.902229e-09	0.002119203	-0.0004596701	4.744068e-09	9.399715e-09	-0.02435316	0.02696589
4.3e+08	-0.02318745	0.02553099	4.349569e-09	7.840815e-09	0.000834218	0.0002663267	4.742103e-09	8.75993e-09
	4.349569e-09	7.840815e-09	-0.02139585	0.02663494	4.156784e-09	8.647584e-09	0.001482993	0.0005700338
	0.000834218	0.0002663267	4.156784e-09	8.647584e-09	-0.02350584	0.02581511	4.807038e-09	9.255018e-09
	4.742103e-09	8.75993e-09	0.001482993	0.0005700338	4.807038e-09	9.255018e-09	-0.02129501	0.02703981
4.4e+08	-0.02012103	0.02541009	4.367737e-09	7.688137e-09	0.0003479435	0.001433409	4.754583e-09	8.614175e-09
	4.367737e-09	7.688137e-09	-0.01839811	0.02634164	4.187265e-09	8.53658e-09	0.0009705806	0.001680452
	0.0003479435	0.001433409	4.187265e-09	8.53658e-09	-0.02039566	0.02571758	4.825702e-09	9.105665e-09
	4.754583e-09	8.614175e-09	0.0009705806	0.001680452	4.825702e-09	9.105665e-09	-0.01828105	0.02673275
4.5e+08	-0.0171138	0.0249118	4.344375e-09	7.535832e-09	5.268698e-06	0.002662051	4.723557e-09	8.470479e-09
	4.344375e-09	7.535832e-09	-0.01548772	0.02567831	4.17891e-09	8.424924e-09	0.00059179	0.002855142
	5.268707e-06	0.002662051	4.17891e-09	8.424924e-09	-0.01734374	0.02523721	4.79899e-09	8.957381e-09
	4.723557e-09	8.470479e-09	0.00059179	0.002855142	4.79899e-09	8.957381e-09	-0.01535703	0.02605372
4.6e+08	-0.01421043	0.02404647	4.279073e-09	7.389275e-09	-0.0001864094	0.003933245	4.64882e-09	8.334518e-09
	4.279073e-09	7.389275e-09	-0.01270871	0.02465902	4.131145e-09	8.31771e-09	0.0003542765	0.004076471
	-0.0001864094	0.003933245	4.131145e-09	8.31771e-09	-0.01439534	0.02438432	4.72656e-09	8.816044e-09
	4.64882e-09	8.334518e-09	0.0003542766	0.004076471	4.72656e-09	8.816044e-09	-0.01256718	0.02501714
4.7e+08	-0.01145404	0.02282962	4.172099e-09	7.253944e-09	-0.000222193	0.005227103	4.530904e-09	8.212036e-09
	4.172099e-09	7.253944e-09	-0.010103	0.02330301	4.044025e-09	8.220127e-09	0.0002633794	0.005325901
	-0.000222193	0.005227103	4.044025e-09	8.220127e-09	-0.01159414	0.02317454	4.608818e-09	8.687587e-09
	4.530904e-09	8.212036e-09	0.0002633794	0.005325901	4.608818e-09	8.687587e-09	-0.009953684	0.0236426
4.8e+08	-0.008885558	0.02128181	4.024426e-09	7.135344e-09	-9.978998e-05	0.006523182	4.371071e-09	8.108764e-09
