!$
! Info: Touchstone file created by Circ.  Input file=Tx_6in_Rx_85ohms_TxVia_60mils_RxVia_70mils.circ
!$
# Hz S RI R 50
0	0.004959703	9.693166e-26	-3.274579e-05	7.55403e-24	5.237909e-05	9.721024e-24	-3.278234e-05	1.211148e-23
	-3.274578e-05	7.553614e-24	0.004955007	1.122706e-25	-3.270844e-05	3.058381e-24	5.258382e-05	1.199277e-23
	5.336144e-05	9.891429e-24	-3.270843e-05	3.057659e-24	0.004973853	9.284561e-26	-3.274044e-05	7.059854e-24
	-3.278233e-05	1.211073e-23	5.285367e-05	1.20442e-23	-3.274045e-05	7.060228e-24	0.004969549	1.117592e-25
1e+07	0.007442561	-0.005155472	-0.0001414379	-2.065912e-05	0.0001343373	0.001281279	-9.7943e-05	5.852732e-05
	-0.0001414379	-2.065912e-05	0.006625775	-0.005258144	-4.051857e-06	-9.496097e-06	0.0001788441	0.001285193
	0.0001343464	0.001281246	-4.051858e-06	-9.496096e-06	0.006655369	-0.005358	-2.982822e-05	-1.069683e-05
	-9.794301e-05	5.852732e-05	0.0001788464	0.00128519	-2.982822e-05	-1.069684e-05	0.006621126	-0.00524851
2e+07	0.008058396	-0.01231989	-0.0001278849	1.25314e-06	0.000385918	0.002538204	-9.697276e-05	5.427427e-05
	-0.0001278849	1.253139e-06	0.007298817	-0.01219252	-3.67932e-06	-2.904028e-06	0.0004496849	0.002507654
	0.0003858913	0.002538203	-3.679318e-06	-2.904028e-06	0.007253239	-0.01236284	-2.702485e-05	1.519024e-06
	-9.697276e-05	5.427427e-05	0.0004496817	0.002507655	-2.702485e-05	1.519025e-06	0.007299048	-0.01216816
3e+07	0.007205308	-0.02003437	-0.0001207591	-6.892712e-06	0.0008255665	0.003710056	-9.079832e-05	6.359579e-05
	-0.0001207591	-6.892712e-06	0.006475854	-0.01981439	-3.477968e-06	-1.135369e-06	0.0008633143	0.003671585
	0.0008255641	0.00371006	-3.477968e-06	-1.135369e-06	0.006388037	-0.02000683	-2.641346e-05	-1.946637e-06
	-9.079832e-05	6.359579e-05	0.0008633141	0.003671587	-2.641346e-05	-1.946637e-06	0.006478951	-0.01978011
4e+07	0.005118854	-0.0277428	-0.0001154368	-9.862893e-06	0.001402825	0.004800608	-8.075616e-05	7.25253e-05
	-0.0001154368	-9.862893e-06	0.004401699	-0.02745372	-3.285303e-06	-1.355599e-07	0.001412797	0.004762424
	0.001402825	0.004800604	-3.285303e-06	-1.355597e-07	0.004295386	-0.02765589	-2.633888e-05	-3.682721e-06
	-8.075616e-05	7.25253e-05	0.001412797	0.004762425	-2.633888e-05	-3.682721e-06	0.004406359	-0.02741103
5e+07	0.00191787	-0.035208	-0.0001112481	-1.055477e-05	0.002106586	0.005795173	-6.766582e-05	7.890045e-05
	-0.0001112481	-1.055477e-05	0.001198639	-0.03485554	-3.088685e-06	5.625964e-07	0.002087073	0.005763773
	0.002106584	0.005795171	-3.088685e-06	5.625965e-07	0.001093447	-0.03506481	-2.66417e-05	-4.559401e-06
	-6.766582e-05	7.890045e-05	0.002087074	0.005763773	-2.66417e-05	-4.559401e-06	0.001203386	-0.03480493
6e+07	-0.002300915	-0.04225856	-0.000107788	-9.891519e-06	0.002922663	0.006679015	-5.240129e-05	8.163201e-05
	-0.000107788	-9.891519e-06	-0.00303341	-0.04184124	-2.883176e-06	1.104868e-06	0.002872419	0.006660543
	0.002922665	0.006679019	-2.883176e-06	1.104868e-06	-0.003121271	-0.04205996	-2.720113e-05	-4.834279e-06
	-5.240129e-05	8.163201e-05	0.00287242	0.006660544	-2.720113e-05	-4.834279e-06	-0.0030298	-0.04178264
7e+07	-0.00744226	-0.04875508	-0.0001047638	-8.250902e-06	0.003834673	0.007439006	-3.59489e-05	7.998545e-05
	-0.0001047638	-8.250902e-06	-0.008196664	-0.04826773	-2.824435e-06	1.18229e-06	0.003753116	0.007439602
	0.003834682	0.007439011	-2.824435e-06	1.18229e-06	-0.00825353	-0.04850104	-2.791401e-05	-4.607296e-06
	-3.59489e-05	7.998545e-05	0.003753118	0.007439602	-2.7914e-05	-4.607296e-06	-0.008195274	-0.04820085
8e+07	-0.0134061	-0.05457993	-0.0001019226	-5.794576e-06	0.004824486	0.008064225	-1.943409e-05	7.340335e-05
	-0.0001019226	-5.794576e-06	-0.01418892	-0.054015	-2.851065e-06	1.098374e-06	0.004711843	0.008090133
	0.004824499	0.008064227	-2.851066e-06	1.098374e-06	-0.01420301	-0.05426977	-2.868244e-05	-3.927551e-06
	-1.943409e-05	7.340335e-05	0.004711844	0.008090132	-2.868244e-05	-3.927551e-06	-0.01419082	-0.05393934
9e+07	-0.02008558	-0.0596337	-9.899311e-05	-2.535705e-06	0.005872661	0.008546381	-4.210956e-06	6.132945e-05
	-9.899311e-05	-2.535705e-06	-0.02090134	-0.05898214	-2.886405e-06	1.045385e-06	0.005730121	0.008604048
	0.005872671	0.00854638	-2.886405e-06	1.045385e-06	-0.02086206	-0.0592656	-2.941034e-05	-2.821085e-06
	-4.210956e-06	6.132945e-05	0.005730122	0.008604047	-2.941034e-05	-2.821085e-06	-0.02090756	-0.05889691
1e+08	-0.02736726	-0.06383438	-9.536798e-05	2.090274e-06	0.006959307	0.008880612	7.159191e-06	4.169236e-05
	-9.536798e-05	2.090274e-06	-0.02821941	-0.0630876	-2.933269e-06	9.998611e-07	0.006789697	0.008977568
	0.006959307	0.008880612	-2.933269e-06	9.998611e-07	-0.02811274	-0.06340055	-2.997576e-05	-1.241957e-06
	7.159191e-06	4.169236e-05	0.006789697	0.008977568	-2.997576e-05	-1.241957e-06	-0.02823097	-0.06299189
1.1e+08	-0.03513218	-0.0671142	-9.400039e-05	8.431678e-06	0.008065443	0.009060907	2.350428e-05	1.318155e-05
	-9.400039e-05	8.431678e-06	-0.03602541	-0.0662545	-2.932575e-06	9.650083e-07	0.007875761	0.00919939
	0.008065443	0.009060907	-2.932575e-06	9.650083e-07	-0.03582	-0.06663523	-3.067631e-05	7.687317e-07
	2.350428e-05	1.318155e-05	0.007875759	0.00919939	-3.067631e-05	7.687316e-07	-0.03604318	-0.06614639
1.2e+08	-0.04325358	-0.0694249	-9.292918e-05	1.390555e-05	0.009165892	0.009088321	3.802186e-05	-1.565447e-05
	-9.292918e-05	1.390555e-05	-0.04418016	-0.06843617	-2.929177e-06	9.707804e-07	0.008957697	0.009270967
	0.009165892	0.009088321	-2.929177e-06	9.707804e-07	-0.04389073	-0.06891577	-3.120195e-05	2.887882e-06
	3.802186e-05	-1.565447e-05	0.008957695	0.009270968	-3.120195e-05	2.887882e-06	-0.04420395	-0.06831383
1.3e+08	-0.05160489	-0.07073487	-9.169684e-05	1.919193e-05	0.01024081	0.008967056	4.861786e-05	-4.666256e-05
	-9.169684e-05	1.919193e-05	-0.05255565	-0.06960406	-2.924323e-06	9.994498e-07	0.01001711	0.009197578
	0.01024081	0.008967056	-2.924323e-06	9.994498e-07	-0.05219464	-0.07020265	-3.14735e-05	5.152303e-06
	4.861786e-05	-4.666256e-05	0.01001711	0.009197579	-3.14735e-05	5.152303e-06	-0.05258507	-0.06946582
1.4e+08	-0.06005833	-0.07102841	-9.019301e-05	2.438826e-05	0.01127078	0.00870325	5.440093e-05	-7.967821e-05
	-9.019301e-05	2.438826e-05	-0.06102185	-0.06974413	-2.916769e-06	1.045354e-06	0.01103549	0.008985214
	0.01127078	0.00870325	-2.916769e-06	1.045354e-06	-0.06060317	-0.07047805	-3.145387e-05	7.521675e-06
	5.440093e-05	-7.967821e-05	0.01103549	0.008985215	-3.145387e-05	7.521675e-06	-0.06105624	-0.0695884
1.5e+08	-0.06848683	-0.07030574	-8.836095e-05	2.950278e-05	0.01223752	0.008305417	5.474341e-05	-0.0001141235
	-8.836095e-05	2.950278e-05	-0.06944957	-0.06885843	-2.905224e-06	1.104731e-06	0.0119953	0.008641956
	0.01223752	0.008305417	-2.905224e-06	1.104731e-06	-0.06898886	-0.06974102	-3.112192e-05	9.942528e-06
	5.474341e-05	-0.0001141235	0.0119953	0.008641957	-3.112192e-05	9.942528e-06	-0.06948798	-0.06868368
1.6e+08	-0.07676583	-0.06858259	-8.617054e-05	3.451014e-05	0.01312423	0.007784288	4.921498e-05	-0.0001492141
	-8.617054e-05	3.451014e-05	-0.07771237	-0.06696473	-2.888589e-06	1.174575e-06	0.0128804	0.008177923
	0.01312423	0.007784288	-2.888589e-06	1.174575e-06	-0.07722684	-0.06800652	-3.047005e-05	1.235715e-05
	4.921498e-05	-0.0001492141	0.0128804	0.008177923	-3.047005e-05	1.235715e-05	-0.07775354	-0.06676961
1.7e+08	-0.08477498	-0.06588955	-8.361028e-05	3.937046e-05	0.01391588	0.007152559	3.757182e-05	-0.0001840456
	-8.361028e-05	3.937046e-05	-0.08568829	-0.06409599	-2.866082e-06	1.252248e-06	0.01367628	0.007605074
	0.01391588	0.007152559	-2.866082e-06	1.252248e-06	-0.08519653	-0.06530461	-2.950312e-05	1.470783e-05
	3.757182e-05	-0.0001840456	0.01367628	0.007605075	-2.950312e-05	1.470783e-05	-0.08573073	-0.06387928
1.8e+08	-0.09239979	-0.06227122	-8.068354e-05	4.403817e-05	0.01459937	0.006424612	1.975596e-05	-0.0002176497
	-8.068354e-05	4.403817e-05	-0.09326156	-0.06029936	-2.837279e-06	1.335361e-06	0.01437027	0.006936955
	0.01459937	0.006424612	-2.837279e-06	1.335361e-06	-0.09278321	-0.06167948	-2.823725e-05	1.693968e-05
	1.975596e-05	-0.0002176497	0.01437027	0.006936955	-2.823725e-05	1.693968e-05	-0.09330355	-0.0600601
1.9e+08	-0.09953303	-0.05778522	-7.740609e-05	4.846722e-05	0.01516375	0.005616216	-4.106933e-06	-0.0002490382
	-7.740609e-05	4.846722e-05	-0.1003241	-0.05563525	-2.802144e-06	1.42175e-06	0.01495167	0.006188419
	0.01516375	0.005616216	-2.802144e-06	1.42175e-06	-0.09987945	-0.05718846	-2.669856e-05	1.900279e-05
	-4.106933e-06	-0.0002490382	0.01495167	0.006188419	-2.669856e-05	1.900279e-05	-0.1003637	-0.05537272
2e+08	-0.1060761	-0.05250105	-7.380398e-05	5.26143e-05	0.01560029	0.004744217	-3.371284e-05	-0.0002772412
	-7.380398e-05	5.26143e-05	-0.1067769	-0.0501761	-2.761024e-06	1.509506e-06	0.0154119	0.005375348
	0.01560029	0.004744217	-2.761024e-06	1.509506e-06	-0.1063865	-0.05190086	-2.492154e-05	2.085394e-05
	-3.371284e-05	-0.0002772412	0.0154119	0.005375348	-2.492154e-05	2.085394e-05	-0.106812	-0.04988988
2.1e+08	-0.1119403	-0.04649889	-6.991165e-05	5.644118e-05	0.01590258	0.003826235	-6.858977e-05	-0.0003013405
	-6.991165e-05	5.644118e-05	-0.112531	-0.04400508	-2.71462e-06	1.59703e-06	0.01574453	0.004514365
	0.01590258	0.003826235	-2.71462e-06	1.59703e-06	-0.1122153	-0.04589671	-2.294742e-05	2.245777e-05
	-6.858977e-05	-0.0003013405	0.01574453	0.004514365	-2.294742e-05	2.245777e-05	-0.1125594	-0.04369507
2.2e+08	-0.1170475	-0.03986822	-6.577003e-05	5.991608e-05	0.01606652	0.002880361	-0.0001081117	-0.0003204997
	-6.577003e-05	5.991608e-05	-0.117509	-0.03721475	-2.663924e-06	1.683087e-06	0.01594529	0.003622558
	0.01606652	0.002880361	-2.663924e-06	1.683087e-06	-0.1172878	-0.03926545	-2.082237e-05	2.378765e-05
	-0.0001081117	-0.0003204997	0.01594529	0.003622558	-2.082237e-05	2.378765e-05	-0.1175285	-0.03688118
2.3e+08	-0.1213315	-0.03270646	-6.142485e-05	6.301463e-05	0.01609034	0.001924872	-0.0001515166	-0.0003339905
	-6.142485e-05	6.301463e-05	-0.1216454	-0.02990552	-2.610136e-06	1.766852e-06	0.01601209	0.002717219
	0.01609034	0.001924872	-2.610136e-06	1.766852e-06	-0.1215375	-0.03210447	-1.859577e-05	2.482611e-05
	-0.0001515166	-0.0003339905	0.01601209	0.002717219	-1.859577e-05	2.482611e-05	-0.1216536	-0.02954897
2.4e+08	-0.1247382	-0.02511751	-5.692479e-05	6.572051e-05	0.01597455	0.0009779564	-0.0001979289	-0.0003412129
	-5.692479e-05	6.572051e-05	-0.1248875	-0.0221842	-2.554575e-06	1.84795e-06	0.01594498	0.00181559
	0.01597455	0.0009779564	-2.554575e-06	1.84795e-06	-0.1249102	-0.02451768	-1.631842e-05	2.556504e-05
	-0.0001979289	-0.0003412129	0.01594498	0.00181559	-1.631842e-05	2.556504e-05	-0.1248822	-0.02180562
2.5e+08	-0.1272264	-0.01721027	-5.232001e-05	6.802553e-05	0.01572188	5.746097e-05	-0.0002463828	-0.0003417138
	-5.232001e-05	6.802553e-05	-0.1271959	-0.01416244	-2.498561e-06	1.926458e-06	0.01574608	0.0009346321
	0.01572188	5.746097e-05	-2.498561e-06	1.926458e-06	-0.1273648	-0.01661403	-1.404095e-05	2.600548e-05
	-0.0002463828	-0.0003417138	0.01574608	0.000934632	-1.404095e-05	2.600548e-05	-0.127175	-0.01376309
2.6e+08	-0.1287683	-0.009097096	-4.766057e-05	6.992958e-05	0.01533721	-0.0008193519	-0.000295849	-0.0003351989
	-4.766057e-05	6.992958e-05	-0.1285448	-0.0059551	-2.443313e-06	2.002893e-06	0.01541949	9.080372e-05
	0.01533721	-0.0008193519	-2.443313e-06	2.002893e-06	-0.1288733	-0.008505975	-1.181225e-05	2.615729e-05
	-0.000295849	-0.0003351989	0.01541949	9.080368e-05	-1.181225e-05	2.615729e-05	-0.1285064	-0.005536613
2.7e+08	-0.1293493	-0.0008923383	-4.299515e-05	7.144022e-05	0.01482741	-0.001636025	-0.0003452623	-0.0003215419
	-4.299515e-05	7.144022e-05	-0.1289224	0.002321228	-2.38983e-06	2.078162e-06	0.01497126	-0.0007001403
	0.01482741	-0.001636025	-2.38983e-06	2.078162e-06	-0.1294211	-0.0003079486	-9.678114e-06	2.60385e-05
	-0.0003452623	-0.0003215419	0.01497126	-0.0007001403	-9.678114e-06	2.60385e-05	-0.1288646	0.00275692
2.8e+08	-0.1289683	0.007289217	-3.83698e-05	7.257244e-05	0.01420129	-0.002377115	-0.0003935498	-0.0003007852
	-3.83698e-05	7.257244e-05	-0.1283304	0.01054987	-2.338812e-06	2.15351e-06	0.0144092	-0.001423339
	0.01420129	-0.002377115	-2.338812e-06	2.15351e-06	-0.1290071	0.007865151	-7.679996e-06	2.567463e-05
	-0.0003935498	-0.0003007852	0.0144092	-0.001423339	-7.679996e-06	2.567463e-05	-0.1282517	0.01100054
2.9e+08	-0.1276375	0.01533381	-3.382681e-05	7.33478e-05	0.01346943	-0.003028382	-0.0004396589	-0.0002731398
	-3.382681e-05	7.33478e-05	-0.1267842	0.01861556	-2.290571e-06	2.230421e-06	0.01374282	-0.002065003
	0.01346943	-0.003028382	-2.290571e-06	2.230421e-06	-0.1276436	0.01589945	-5.853897e-06	2.509774e-05
	-0.0004396589	-0.0002731398	0.01374282	-0.002065003	-5.853897e-06	2.509774e-05	-0.1266834	0.01907873
3e+08	-0.1253823	0.02313019	-2.940382e-05	7.379376e-05	0.01264403	-0.003576972	-0.0004825843	-0.0002389817
	-2.940382e-05	7.379376e-05	-0.1243128	0.02640597	-2.24498e-06	2.310506e-06	0.01298321	-0.00261258
	0.01264403	-0.003576972	-2.24498e-06	2.310506e-06	-0.1253561	0.02368359	-4.229477e-06	2.43454e-05
	-0.0004825843	-0.0002389817	0.01298321	-0.00261258	-4.229477e-06	2.43454e-05	-0.1241889	0.02687895
3.1e+08	-0.1222407	0.03057105	-2.513293e-05	7.394281e-05	0.01173879	-0.004011578	-0.000521394	-0.0001988359
	-2.513293e-05	7.394281e-05	-0.1209578	0.0338132	-2.201454e-06	2.395405e-06	0.01214284	-0.003054908
	0.01173879	-0.004011578	-2.201454e-06	2.395405e-06	-0.1221828	0.03111015	-2.829216e-06	2.345966e-05
	-0.000521394	-0.0001988359	0.01214284	-0.003054908	-2.829216e-06	2.345966e-05	-0.1208102	0.03429313
3.2e+08	-0.1182631	0.03755437	-2.103996e-05	7.383146e-05	0.01076867	-0.004322602	-0.000555252	-0.0001533658
	-2.103996e-05	7.383146e-05	-0.1167732	0.04073516	-2.158943e-06	2.486658e-06	0.0112355	-0.003382368
	0.01076867	-0.004322602	-2.158943e-06	2.486658e-06	-0.1181741	0.03807705	-1.667822e-06	2.248571e-05
	-0.000555252	-0.0001533658	0.0112355	-0.003382368	-1.667822e-06	2.248571e-05	-0.1166019	0.04121902
3.3e+08	-0.113511	0.0439848	-1.714398e-05	7.349976e-05	0.009749802	-0.00450229	-0.0005834495	-0.0001033764
	-1.714398e-05	7.349976e-05	-0.1118246	0.04707687	-2.115962e-06	2.585589e-06	0.01027606	-0.00358702
	0.009749802	-0.00450229	-2.115962e-06	2.585589e-06	-0.1133918	0.04448884	-7.518238e-07	2.14709e-05
	-0.0005834495	-0.0001033764	0.01027606	-0.00358702	-7.518238e-07	2.14709e-05	-0.1116298	0.04756162
3.4e+08	-0.1080569	0.0497749	-1.344777e-05	7.288548e-05	0.008699192	-0.004544869	-0.0006013398	-4.227919e-05
	-1.344777e-05	7.288548e-05	-0.1061883	0.05275181	-2.071671e-06	2.694714e-06	0.009280331	-0.003662729
	0.008699192	-0.004544869	-2.071671e-06	2.694714e-06	-0.1079086	0.05025801	-7.521967e-08	2.035911e-05
	-0.0006013398	-4.227919e-05	0.009280331	-0.003662729	-7.521967e-08	2.035911e-05	-0.1059706	0.05323443
3.5e+08	-0.101983	0.05484622	-9.981881e-06	7.211809e-05	0.007634571	-0.004446655	-0.0006109514	2.194984e-05
	-9.981881e-06	7.211809e-05	-0.09995017	0.05768306	-2.022636e-06	2.81366e-06	0.008264878	-0.003605285
	0.007634571	-0.004446655	-2.022636e-06	2.81366e-06	-0.1018069	0.05530614	3.502746e-07	1.928555e-05
	-0.0006109514	2.194984e-05	0.008264878	-0.003605285	3.502746e-07	1.928555e-05	-0.09971077	0.05816055
3.6e+08	-0.0953801	0.05913049	-6.745245e-06	7.125761e-05	0.006574137	-0.004206159	-0.0006126268	8.704318e-05
	-6.745245e-06	7.125761e-05	-0.09320467	0.06180435	-1.966264e-06	2.942265e-06	0.007246792	-0.003412508
	0.006574137	-0.004206159	-1.966264e-06	2.942265e-06	-0.09517785	0.05956496	5.422388e-07	1.83132e-05
	-0.0006126268	8.704318e-05	0.007246792	-0.003412508	5.422388e-07	1.83132e-05	-0.09294511	0.06227382
3.7e+08	-0.0883466	0.06257053	-3.726113e-06	7.034672e-05	0.005536309	-0.003824162	-0.0006063505	0.0001518741
	-3.726113e-06	7.034672e-05	-0.08605357	0.06506105	-1.90009e-06	3.080038e-06	0.006243471	-0.00308433
	0.005536309	-0.003824162	-1.90009e-06	3.080038e-06	-0.08812001	0.06297735	5.288132e-07	1.748578e-05
	-0.0006063505	0.0001518741	0.006243471	-0.00308433	5.288132e-07	1.748578e-05	-0.08577581	0.0655198
3.8e+08	-0.08098707	0.06512111	-9.049806e-07	6.942459e-05	0.004539458	-0.003303766	-0.0005922828	0.0002153308
	-9.049806e-07	6.942459e-05	-0.07860457	0.06741095	-1.821713e-06	3.225968e-06	0.005272372	-0.002622865
	0.004539458	-0.003303766	-1.821713e-06	3.225968e-06	-0.08073827	0.06549817	3.461774e-07	1.684147e-05
	-0.0005922828	0.0002153308	0.005272372	-0.002622865	3.461774e-07	1.684147e-05	-0.07831096	0.06785649
3.9e+08	-0.07341095	0.06674966	1.744825e-06	6.85254e-05	0.003601622	-0.002650428	-0.0005707549	0.0002763455
	1.744825e-06	6.85254e-05	-0.07096978	0.06882497	-1.728919e-06	3.378553e-06	0.004350745	-0.002032445
	0.003601622	-0.002650428	-1.728919e-06	3.378553e-06	-0.07314233	0.06709499	3.763967e-08	1.641144e-05
	-0.0005707549	0.0002763455	0.004350745	-0.002032445	3.763967e-08	1.641144e-05	-0.07066307	0.06925511
4e+08	-0.06573099	0.06743681	4.256172e-06	6.767696e-05	0.002740211	-0.001871945	-0.0005422605	0.0003339215
	4.256172e-06	6.767696e-05	-0.06326426	0.06928762	-1.619782e-06	3.535846e-06	0.003495357	-0.001319627
	0.002740211	-0.001871945	-1.619782e-06	3.535846e-06	-0.06544523	0.06774861	-3.476089e-07	1.621845e-05
	-0.0005422605	0.0003339215	0.003495357	-0.001319627	-3.476089e-07	1.621845e-05	-0.06294749	0.06970051
4.1e+08	-0.05806172	0.06717679	6.666987e-06	6.689949e-05	0.001971698	-0.0009784098	-0.0005074407	0.0003871603
	6.666987e-06	6.689949e-05	-0.05560432	0.0687974	-1.492745e-06	3.695541e-06	0.002722193	-0.0004931734
	0.001971698	-0.0009784098	-1.492745e-06	3.695541e-06	-0.05776175	0.06745348	-7.559895e-07	1.627564e-05
	-0.0005074407	0.0003871603	0.002722193	-0.0004931734	-7.559895e-07	1.627564e-05	-0.05528085	0.06919158
4.2e+08	-0.05051783	0.06597762	9.01876e-06	6.620454e-05	0.001311301	1.787348e-05	-0.000467065	0.000435285
	9.01876e-06	6.620454e-05	-0.04810587	0.06736689	-1.346686e-06	3.855065e-06	0.002046166	0.0004360249
	0.001311301	1.787348e-05	-1.346686e-06	3.855065e-06	-0.05020682	0.06621789	-1.131337e-06	1.658558e-05
	-0.000467065	0.000435285	0.002046166	0.0004360249	-1.131337e-06	1.658558e-05	-0.04777931	0.06774134
4.3e+08	-0.04321251	0.06386117	1.135476e-05	6.559422e-05	0.0007726794	0.001102528	-0.0004220098	0.0004776598
	1.135476e-05	6.559422e-05	-0.04088275	0.06502269	-1.180954e-06	4.011672e-06	0.001480806	0.001455054
	0.0007726794	0.001102528	-1.180954e-06	4.011672e-06	-0.04289383	0.06406398	-1.41695e-06	1.713967e-05
	-0.0004220098	0.0004776598	0.001480806	0.001455054	-1.41695e-06	1.713967e-05	-0.04055686	0.06537686
4.4e+08	-0.03625576	0.0608629	1.371812e-05	6.506075e-05	0.0003676254	0.002259283	-0.0003732319	0.0005138061
	1.371812e-05	6.506075e-05	-0.03404494	0.06180521	-9.953788e-07	4.162553e-06	0.001037974	0.002549139
	0.0003676254	0.002259283	-9.953788e-07	4.162553e-06	-0.03593297	0.06102757	-1.557804e-06	1.79179e-05
	-0.0003732319	0.0005138061	0.001037974	0.002549139	-1.557804e-06	1.79179e-05	-0.03372364	0.06213903
4.5e+08	-0.02975272	0.05703152	1.614973e-05	6.45865e-05	0.0001057808	0.00347021	-0.0003217397	0.0005434143
	1.614973e-05	6.45865e-05	-0.02769692	0.05776809	-7.902602e-07	4.304931e-06	0.0007275754	0.003701847
	0.0001057808	0.00347021	-7.902602e-07	4.304931e-06	-0.02942953	0.05715773	-1.502854e-06	1.88891e-05
	-0.0003217397	0.0005434143	0.0007275754	0.003701847	-1.502854e-06	1.88891e-05	-0.02738418	0.05808205
4.6e+08	-0.02380206	0.05242834	1.86862e-05	6.414436e-05	-5.620698e-06	0.004716002	-0.0002685625	0.0005663494
	1.86862e-05	6.414436e-05	-0.02193603	0.05297761	-5.663172e-07	4.43615e-06	0.000557311	0.004895349
	-5.6207e-06	0.004716002	-5.663172e-07	4.43615e-06	-0.0234823	0.05251617	-1.207301e-06	2.001167e-05
	-0.0002685625	0.0005663494	0.000557311	0.004895349	-1.207301e-06	2.001167e-05	-0.02163581	0.05327271
4.7e+08	-0.01849444	0.0471265	2.13577e-05	6.369869e-05	3.802448e-05	0.005976295	-0.0002147201	0.0005826512
	2.13577e-05	6.369869e-05	-0.01685089	0.04751168	-3.246585e-07	4.553736e-06	0.0005324487	0.006110711
	3.802448e-05	0.005976295	-3.246585e-07	4.553736e-06	-0.01818196	0.04717643	-6.348403e-07	2.123479e-05
	-0.0002147201	0.0005826512	0.0005324487	0.006110711	-6.348403e-07	2.123479e-05	-0.01656706	0.04778947
