!$
! Info: Touchstone file created by Circ.  Input file=Tx_6in_Rx_100ohms_TxVia_60mils_RxVia_70mils.circ
!$
# Hz S RI R 50
0	0.006352413	9.441172e-26	-3.264019e-05	7.464727e-24	5.329212e-05	1.23873e-23	-3.260315e-05	2.959605e-24
	-3.264019e-05	7.464705e-24	0.006348153	1.118894e-25	-3.267625e-05	1.19702e-23	5.241654e-05	1.540898e-23
	5.24239e-05	1.233194e-23	-3.267626e-05	1.197051e-23	0.006366251	9.547622e-26	-3.263852e-05	7.378006e-24
	-3.260314e-05	2.95924e-24	5.268632e-05	1.547506e-23	-3.263851e-05	7.377352e-24	0.006362654	1.113799e-25
1e+07	0.009130695	0.004490668	-0.000115695	6.897941e-06	0.0003725334	0.0013072	-4.397605e-05	-4.891292e-06
	-0.000115695	6.89794e-06	0.009221558	0.004486623	-1.082141e-05	7.258426e-05	0.000370371	0.001305468
	0.0003725177	0.001307214	-1.082141e-05	7.258426e-05	0.009241078	0.004494109	-0.0001156954	6.876858e-06
	-4.397605e-05	-4.891292e-06	0.0003703734	0.001305465	-0.0001156954	6.876858e-06	0.00914346	0.004499805
2e+07	0.0117503	0.006875428	-9.103066e-05	-4.120601e-05	0.0005344819	0.002685136	-3.456877e-05	-9.640937e-06
	-9.103066e-05	-4.120601e-05	0.01180662	0.006834788	-3.96028e-05	0.000119073	0.0005261199	0.002682626
	0.0005344887	0.002685145	-3.96028e-05	0.000119073	0.01184173	0.006847128	-9.103892e-05	-4.124253e-05
	-3.456877e-05	-9.640937e-06	0.0005261167	0.002682626	-9.103892e-05	-4.124253e-05	0.01175446	0.006891904
3e+07	0.0140474	0.008261345	-7.38416e-05	-5.726253e-05	0.0008715015	0.003920443	-2.852648e-05	-1.549266e-05
	-7.38416e-05	-5.726253e-05	0.01406588	0.008211291	-8.391248e-05	0.0001375799	0.000853094	0.003918809
	0.0008715025	0.003920443	-8.391248e-05	0.0001375799	0.01412563	0.00822422	-7.385662e-05	-5.732601e-05
	-2.852648e-05	-1.549266e-05	0.0008530937	0.003918811	-7.385662e-05	-5.732601e-05	0.01403591	0.008287618
4e+07	0.01621278	0.009148787	-6.082582e-05	-6.629181e-05	0.001380027	0.005064108	-2.37866e-05	-1.854977e-05
	-6.082582e-05	-6.629181e-05	0.01618827	0.009099839	-0.000120993	0.0001490102	0.001348073	0.0050657
	0.001380025	0.005064109	-0.000120993	0.0001490102	0.01628129	0.009107954	-6.084748e-05	-6.63893e-05
	-2.37866e-05	-1.854977e-05	0.001348074	0.005065701	-6.084748e-05	-6.63893e-05	0.01617897	0.009187592
5e+07	0.0182967	0.00965811	-5.032987e-05	-7.200463e-05	0.002128297	0.006077928	-1.981507e-05	-2.040006e-05
	-5.032987e-05	-7.200463e-05	0.01822431	0.009620065	-0.0001540827	0.0001575059	0.002079777	0.0060856
	0.002128295	0.006077929	-0.0001540827	0.0001575059	0.01835813	0.009615747	-5.036004e-05	-7.214373e-05
	-1.981507e-05	-2.040006e-05	0.002079778	0.006085601	-5.036004e-05	-7.214373e-05	0.01823416	0.009714317
6e+07	0.02031158	0.009846935	-4.143182e-05	-7.5654e-05	0.002981607	0.006977206	-1.633171e-05	-2.159076e-05
	-4.143182e-05	-7.5654e-05	0.02018779	0.009829668	-0.0001849482	0.0001645648	0.002914065	0.006994414
	0.002981605	0.006977205	-0.0001849482	0.0001645648	0.02036806	0.009803998	-4.147425e-05	-7.584259e-05
	-1.633171e-05	-2.159076e-05	0.002914066	0.006994415	-4.147425e-05	-7.584259e-05	0.02021541	0.009926651
7e+07	0.02225409	0.009749494	-4.823087e-05	-7.057563e-05	0.003925902	0.007751528	-1.300977e-05	-2.22197e-05
	-4.823087e-05	-7.057563e-05	0.02207665	0.009762903	-0.0002146846	0.0001708325	0.003837499	0.007782151
	0.003925899	0.007751527	-0.0002146846	0.0001708325	0.02230734	0.009706316	-4.828908e-05	-7.080996e-05
	-1.300977e-05	-2.22197e-05	0.003837501	0.007782151	-4.828908e-05	-7.080996e-05	0.0221205	0.009859321
8e+07	0.02411367	0.009390899	-6.357592e-05	-5.703167e-05	0.004945104	0.008391151	-1.57384e-05	-1.896307e-05
	-6.357592e-05	-5.703167e-05	0.02388153	0.009445106	-0.0002444281	0.0001761263	0.00483467	0.008439394
	0.0049451	0.00839115	-0.0002444281	0.0001761263	0.02416516	0.009347486	-6.364599e-05	-5.731192e-05
	-1.57384e-05	-1.896307e-05	0.004834671	0.008439393	-6.364599e-05	-5.731192e-05	0.0239397	0.00953798
9e+07	0.02587709	0.008793422	-7.517321e-05	-3.991933e-05	0.006021193	0.008887372	-1.917683e-05	-1.368103e-05
	-7.517321e-05	-3.991933e-05	0.02559057	0.008899023	-0.0002760199	0.0001791876	0.005888263	0.008957669
	0.006021189	0.008887372	-0.0002760199	0.0001791876	0.02592815	0.008749711	-7.526028e-05	-4.025215e-05
	-1.917683e-05	-1.368103e-05	0.005888264	0.008957668	-7.526028e-05	-4.025215e-05	0.02566066	0.008985619
1e+08	0.02753677	0.007986308	-8.07536e-05	-1.718435e-05	0.007131666	0.009229408	-2.054918e-05	-6.746941e-06
	-8.07536e-05	-1.718435e-05	0.02719862	0.008155281	-0.0003162711	0.0001722552	0.006976505	0.00932633
	0.007131666	0.009229408	-0.0003162711	0.0001722552	0.02758946	0.007943189	-8.086295e-05	-1.757977e-05
	-2.054918e-05	-6.746941e-06	0.006976505	0.00932633	-8.086295e-05	-1.757977e-05	0.02727698	0.008232201
1.1e+08	0.0291015	0.006935394	-7.437494e-05	-2.193805e-06	0.008244901	0.009439209	-1.804108e-05	-2.608239e-06
	-7.437494e-05	-2.193805e-06	0.0287198	0.007173182	-0.0003270415	0.0001469973	0.008068617	0.00956735
	0.008244901	0.009439209	-0.0003270415	0.0001469973	0.02916036	0.006887596	-7.45231e-05	-2.665124e-06
	-1.804108e-05	-2.608239e-06	0.008068615	0.00956735	-7.45231e-05	-2.665124e-06	0.02880011	0.007243452
1.2e+08	0.03049434	0.005674401	-7.001742e-05	8.076887e-06	0.009370524	0.009509156	-1.637214e-05	-6.830437e-08
	-7.001742e-05	8.076887e-06	0.03007113	0.005988084	-0.000329881	0.0001369092	0.009174945	0.009672929
	0.009370524	0.009509156	-0.000329881	0.0001369092	0.03055676	0.005618415	-7.022322e-05	7.534558e-06
	-1.637214e-05	-6.830438e-08	0.009174943	0.00967293	-7.022322e-05	7.534557e-06	0.03015373	0.006053379
1.3e+08	0.03170712	0.004238083	-6.591883e-05	1.665963e-05	0.0104857	0.009433555	-1.493123e-05	1.859068e-06
	-6.591883e-05	1.665963e-05	0.03124691	0.004635753	-0.0003304095	0.0001325219	0.01027338	0.009637158
	0.0104857	0.009433555	-0.0003304095	0.0001325219	0.03177113	0.004172072	-6.619929e-05	1.605131e-05
	-1.493123e-05	1.859068e-06	0.01027338	0.009637159	-6.619929e-05	1.605131e-05	0.03133124	0.004696434
1.4e+08	0.0327272	0.002652175	-6.173392e-05	2.417041e-05	0.01157058	0.009213999	-1.360958e-05	3.388448e-06
	-6.173392e-05	2.417041e-05	0.03223616	0.003141593	-0.0003295172	0.0001315188	0.01134479	0.009461293
	0.01157058	0.009213999	-0.0003295172	0.0001315188	0.03279079	0.002574887	-6.21057e-05	2.35038e-05
	-1.360958e-05	3.388448e-06	0.01134479	0.009461294	-6.21057e-05	2.35038e-05	0.03232143	0.003197843
1.5e+08	0.03354299	0.0009419175	-5.731514e-05	3.086339e-05	0.01260624	0.008855245	-1.236593e-05	4.627047e-06
	-5.731514e-05	3.086339e-05	0.03302873	0.001530125	-0.0003275578	0.0001327087	0.01237089	0.009149647
	0.01260624	0.008855245	-0.0003275578	0.0001327087	0.03360405	0.0008525453	-5.779415e-05	3.014936e-05
	-1.236593e-05	4.627047e-06	0.01237089	0.009149648	-5.779415e-05	3.014936e-05	0.03311412	0.001582131
1.6e+08	0.03414482	-0.0008671308	-5.259092e-05	3.685036e-05	0.0135747	0.008364673	-1.118092e-05	5.637939e-06
	-5.259092e-05	3.685036e-05	0.03361624	-0.0001740751	-0.0003247316	0.0001353398	0.0133343	0.008709056
	0.0135747	0.008364673	-0.0003247316	0.0001353398	0.03420116	-0.0009689983	-5.319176e-05	3.6103e-05
	-1.118092e-05	5.637939e-06	0.0133343	0.008709057	-5.319176e-05	3.6103e-05	0.03370087	-0.0001260717
1.7e+08	0.03452523	-0.002748954	-4.753179e-05	4.217365e-05	0.01445918	0.007752026	-1.004476e-05	6.462598e-06
	-4.753179e-05	4.217365e-05	0.03399236	-0.001946193	-0.0003211918	0.0001388873	0.01421877	0.008148629
	0.01445918	0.007752026	-0.0003211918	0.0001388873	0.03457462	-0.002863346	-4.826705e-05	4.141015e-05
	-1.004476e-05	6.462598e-06	0.01421877	0.008148629	-4.826705e-05	4.141015e-05	0.03407536	-0.001901863
1.8e+08	0.03467924	-0.004677139	-4.213748e-05	4.683835e-05	0.01524436	0.007029187	-8.952392e-06	7.130405e-06
	-4.213748e-05	4.683835e-05	0.03415306	-0.003761213	-0.0003170806	0.000142967	0.01500938	0.007479532
	0.01524436	0.007029187	-0.0003170806	0.000142967	0.03471945	-0.004803718	-4.301717e-05	4.60787e-05
	-8.952392e-06	7.130405e-06	0.01500938	0.007479533	-4.301717e-05	4.60787e-05	0.03423358	-0.003720123
1.9e+08	0.03460452	-0.006625052	-3.643047e-05	5.082991e-05	0.01591659	0.006209953	-7.901324e-06	7.663355e-06
	-3.643047e-05	5.082991e-05	0.03409672	-0.005594049	-0.0003125435	0.0001472937	0.01569281	0.006714785
	0.01591659	0.006209953	-0.0003125435	0.0001472937	0.03463335	-0.00676312	-3.746138e-05	5.009648e-05
	-7.901324e-06	7.663355e-06	0.01569281	0.006714785	-3.746138e-05	5.009648e-05	0.03417397	-0.005555671
2e+08	0.03430144	-0.008566082	-3.045209e-05	5.412499e-05	0.01646414	0.005309794	-6.890496e-06	8.078651e-06
	-3.045209e-05	5.412499e-05	0.03382423	-0.007419766	-0.0003077326	0.0001516592	0.01625753	0.005869024
	0.01646414	0.005309794	-0.0003077326	0.0001516592	0.03431677	-0.008714586	-3.163733e-05	5.344193e-05
	-6.890496e-06	8.078651e-06	0.01625753	0.005869024	-3.163733e-05	5.344193e-05	0.03389749	-0.007383467
2.1e+08	0.03377317	-0.01047389	-2.42593e-05	5.669887e-05	0.01687736	0.004345591	-5.919683e-06	8.390235e-06
	-2.42593e-05	5.669887e-05	0.03333902	-0.00921379	-0.0003028065	0.0001559207	0.01669399	0.004958261
	0.01687736	0.004345591	-0.0003028065	0.0001559207	0.03377302	-0.01063144	-2.559788e-05	5.609148e-05
	-5.919683e-06	8.390235e-06	0.01669399	0.004958261	-2.559788e-05	5.609148e-05	0.03340764	-0.009178852
2.2e+08	0.03302565	-0.0123227	-1.792207e-05	5.853075e-05	0.01714888	0.003335348	-4.989119e-06	8.609747e-06
	-1.792207e-05	5.853075e-05	0.03264702	-0.01095216	-0.0002979261	0.0001599926	0.01699478	0.003999613
	0.01714888	0.003335348	-0.0002979261	0.0001599926	0.0330082	-0.01248759	-1.940867e-05	5.802471e-05
	-4.989119e-06	8.609747e-06	0.01699478	0.003999613	-1.940867e-05	5.802471e-05	0.03271047	-0.01091779
2.3e+08	0.03206761	-0.01408759	-1.152066e-05	5.960763e-05	0.01727371	0.002297898	-4.099267e-06	8.747155e-06
	-1.152066e-05	5.960763e-05	0.0317567	-0.0126118	-0.0002932488	0.0001638406	0.01715474	0.003011022
	0.01727371	0.002297898	-0.0002932488	0.0001638406	0.03203125	-0.01425781	-1.314548e-05	5.922821e-05
	-4.099267e-06	8.747155e-06	0.01715474	0.003011022	-1.314548e-05	5.922821e-05	0.03181454	-0.01257711
2.4e+08	0.03091043	-0.01574479	-5.142178e-06	5.992734e-05	0.01724932	0.001252588	-3.250717e-06	8.811186e-06
	-5.142178e-06	5.992734e-05	0.03067889	-0.01417073	-0.0002889253	0.0001674785	0.01717106	0.002010961
	0.01724932	0.001252588	-0.0002889253	0.0001674785	0.03085381	-0.01591805	-6.890996e-06	5.969855e-05
	-3.250717e-06	8.811186e-06	0.01717106	0.002010961	-6.890996e-06	5.969855e-05	0.03073082	-0.01413483
2.5e+08	0.02956807	-0.01727197	1.121911e-06	5.950035e-05	0.01707571	0.0002189562	-2.444045e-06	8.809623e-06
	1.121911e-06	5.950035e-05	0.02942677	-0.01560841	-0.0002850911	0.0001709618	0.01704333	0.001018128
	0.01707571	0.0002189562	-0.0002850911	0.0001709618	0.02949014	-0.01744577	-7.324586e-07	5.944412e-05
	-2.444045e-06	8.809623e-06	0.01704333	0.001018128	-7.324586e-07	5.944412e-05	0.0294726	-0.01557032
2.6e+08	0.0280569	-0.01864854	7.179272e-06	5.835101e-05	0.01675542	-0.0007835918	-1.679776e-06	8.749517e-06
	7.179272e-06	5.835101e-05	0.02801564	-0.01690588	-0.0002818622	0.0001743839	0.01677352	5.114021e-05
	0.01675542	-0.0007835919	-0.0002818622	0.0001743839	0.02795693	-0.01882016	5.241659e-06	5.848642e-05
	-1.679776e-06	8.749517e-06	0.01677352	5.114017e-05	5.241659e-06	5.848642e-05	0.02805532	-0.01686463
2.7e+08	0.0263955	-0.01985591	1.29395e-05	5.651795e-05	0.01629346	-0.001736106	-9.58298e-07	8.63734e-06
	1.29395e-05	5.651795e-05	0.02646279	-0.01804608	-0.0002793288	0.0001778695	0.016366	-0.0008717726
	0.01629346	-0.001736106	-0.0002793288	0.0001778695	0.02627314	-0.02002249	1.094431e-05	5.686051e-05
	-9.58298e-07	8.63734e-06	0.016366	-0.0008717726	1.094431e-05	5.686051e-05	0.02649639	-0.0180007
2.8e+08	0.02460446	-0.02087773	1.83175e-05	5.405393e-05	0.01569729	-0.002620412	-2.798769e-07	8.479107e-06
	1.83175e-05	5.405393e-05	0.02478728	-0.01901402	-0.0002775519	0.0001815707	0.01582746	-0.001733069
	0.01569729	-0.002620412	-0.0002775519	0.0001815707	0.02445973	-0.0210363	1.62931e-05	5.461495e-05
	-2.798769e-07	8.479107e-06	0.01582746	-0.001733069	1.62931e-05	5.461495e-05	0.02481503	-0.01896352
2.9e+08	0.02270611	-0.02170013	2.323614e-05	5.102489e-05	0.01497663	-0.003419413	3.554216e-07	8.280445e-06
	2.323614e-05	5.102489e-05	0.02300969	-0.01979696	-0.0002765578	0.000185659	0.01516677	-0.002516188
	0.01497663	-0.003419413	-0.0002765578	0.000185659	0.02253943	-0.02184765	2.121282e-05	5.181099e-05
	3.554216e-07	8.280445e-06	0.01516677	-0.002516188	2.121282e-05	5.181099e-05	0.02303194	-0.01974042
3e+08	0.02072421	-0.02231187	2.762872e-05	4.750855e-05	0.01414339	-0.004117385	9.477621e-07	8.046641e-06
	2.762872e-05	4.750855e-05	0.0211519	-0.0203846	-0.000276336	0.0001903177	0.0143949	-0.003205823
	0.01414339	-0.004117385	-0.000276336	0.0001903177	0.02053643	-0.02244533	2.563788e-05	4.852131e-05
	9.477621e-07	8.046641e-06	0.0143949	-0.003205823	2.563788e-05	4.852131e-05	0.02116912	-0.02032114
3.1e+08	0.01868369	-0.02270456	3.144153e-05	4.359248e-05	0.01321143	-0.00470024	1.497525e-06	7.782695e-06
	3.144153e-05	4.359248e-05	0.01923678	-0.02076921	-0.0002768377	0.0001957373	0.01352468	-0.003788181
	0.01321143	-0.00470024	-0.0002768377	0.0001957373	0.01847608	-0.02282099	2.951471e-05	4.482828e-05
	1.497525e-06	7.782695e-06	0.01352468	-0.003788181	2.951471e-05	4.482828e-05	0.01924957	-0.020698
3.2e+08	0.01661029	-0.02287274	3.463537e-05	3.937175e-05	0.01219632	-0.005155773	2.005371e-06	7.49331e-06
	3.463537e-05	3.937175e-05	0.0172879	-0.02094571	-0.000277974	0.0002021049	0.01257065	-0.004251214
	0.01219632	-0.005155773	-0.000277974	0.0002021049	0.01638453	-0.02296929	3.280332e-05	4.082175e-05
	2.005371e-06	7.49331e-06	0.01257065	-0.004251214	3.280332e-05	4.082175e-05	0.01729697	-0.02086603
3.3e+08	0.01453022	-0.02281399	3.718688e-05	3.49463e-05	0.01111517	-0.005473871	2.472238e-06	7.182887e-06
	3.718688e-05	3.49463e-05	0.01532926	-0.02091178	-0.0002796178	0.0002095977	0.0115488	-0.004584824
	0.01111517	-0.005473871	-0.0002796178	0.0002095977	0.01428839	-0.02288797	3.547859e-05	3.65966e-05
	2.472238e-06	7.182887e-06	0.0115488	-0.004584824	3.547859e-05	3.65966e-05	0.01533541	-0.02082299
3.4e+08	0.01246983	-0.02252893	3.908952e-05	3.041799e-05	0.009986231	-0.005646695	2.899324e-06	6.855539e-06
	3.908952e-05	3.041799e-05	0.01338491	-0.02066784	-0.0002816047	0.0002183774	0.0104763	-0.004781035
	0.009986232	-0.005646695	-0.0002816047	0.0002183774	0.01221441	-0.02257791	3.753134e-05	3.225003e-05
	2.899324e-06	6.855539e-06	0.0104763	-0.004781035	3.753134e-05	3.225003e-05	0.01338905	-0.02056942
3.5e+08	0.01045522	-0.02202131	4.035357e-05	2.588766e-05	0.00882871	-0.005668821	3.288108e-06	6.515038e-06
	4.035357e-05	2.588766e-05	0.01147871	-0.0202171	-0.0002837369	0.0002285809	0.009371264	-0.004834139
	0.00882871	-0.005668821	-0.0002837369	0.0002285809	0.01018905	-0.02204312	3.896835e-05	2.787868e-05
	3.288108e-06	6.515038e-06	0.009371264	-0.004834139	3.896835e-05	2.787868e-05	0.01148181	-0.02010864
3.6e+08	0.008511899	-0.02129786	4.10059e-05	2.145204e-05	0.007662376	-0.005537341	3.640311e-06	6.164806e-06
	4.10059e-05	2.145204e-05	0.009633954	-0.01956549	-0.0002857864	0.0002403161	0.008252388	-0.004740791
	0.007662376	-0.005537341	-0.0002857864	0.0002403161	0.008238122	-0.02129068	3.981226e-05	2.357583e-05
	3.640311e-06	6.164806e-06	0.008252388	-0.004740791	3.981226e-05	2.357583e-05	0.009637036	-0.01944671
3.7e+08	0.006664416	-0.02036829	4.108894e-05	1.720092e-05	0.006507263	-0.005251925	3.957879e-06	5.807871e-06
	4.108894e-05	1.720092e-05	0.007873082	-0.01872156	-0.000287501	0.0002536552	0.007138693	-0.004500076
	0.006507264	-0.005251925	-0.000287501	0.0002536552	0.006386488	-0.02033068	4.010066e-05	1.942861e-05
	3.957879e-06	5.807871e-06	0.007138693	-0.004500076	4.010066e-05	1.942861e-05	0.007877212	-0.01859235
3.8e+08	0.004936041	-0.01924515	4.065925e-05	1.321442e-05	0.005383329	-0.004814839	4.242932e-06	5.446844e-06
	4.065925e-05	1.321442e-05	0.006217379	-0.01769643	-0.0002886107	0.0002686305	0.006049191	-0.004113535
	0.005383329	-0.004814839	-0.0002886107	0.0002686305	0.00465764	-0.01917608	3.988483e-05	1.551543e-05
	4.242932e-06	5.446844e-06	0.006049191	-0.004113535	3.988483e-05	1.551543e-05	0.00622364	-0.01755681
3.9e+08	0.003348415	-0.01794362	3.978555e-05	9.56061e-06	0.004310119	-0.004230917	4.497711e-06	5.083894e-06
	3.978555e-05	9.56061e-06	0.00468668	-0.01650359	-0.0002888336	0.0002852314	0.00500257	-0.003585143
	0.004310119	-0.004230917	-0.0002888336	0.0002852314	0.003073405	-0.01784255	3.922797e-05	1.190364e-05
	4.497711e-06	5.083894e-06	0.00500257	-0.003585143	3.922797e-05	1.190364e-05	0.004696153	-0.01635371
4e+08	0.001921243	-0.01648136	3.854633e-05	6.293543e-06	0.003306438	-0.003507497	4.724511e-06	4.720735e-06
	3.854633e-05	6.293543e-06	0.003299106	-0.01515874	-0.0002878844	0.0003034013	0.004016889	-0.002921256
	0.003306438	-0.003507497	-0.0002878844	0.0003034013	0.001653612	-0.01634822	3.820298e-05	8.647614e-06
	4.724511e-06	4.720735e-06	0.004016889	-0.002921256	3.820298e-05	8.647614e-06	0.003312852	-0.0149989
4.1e+08	0.0006720321	-0.01487824	3.702717e-05	3.451717e-06	0.002390033	-0.002654303	4.925608e-06	4.358629e-06
	3.702717e-05	3.451717e-06	0.002070812	-0.01367953	-0.0002854813	0.0003230386	0.003109267	-0.002130511
	0.002390033	-0.002654303	-0.0002854813	0.0003230386	0.0004158291	-0.01471348	3.688996e-05	5.787263e-06
	4.925608e-06	4.358629e-06	0.003109267	-0.002130511	3.688996e-05	5.787263e-06	0.002089852	-0.01351021
4.2e+08	-0.0003841834	-0.01315607	3.531778e-05	1.057072e-06	0.001577287	-0.001683298	5.103188e-06	3.998401e-06
	3.531778e-05	1.057072e-06	0.001015771	-0.01208541	-0.0002813535	0.0003439959	0.002295605	-0.001223691
	0.001577287	-0.001683298	-0.0002813535	0.0003439959	-0.0006249223	-0.01296065	3.537351e-05	3.346943e-06
	5.103188e-06	3.998401e-06	0.002295605	-0.001223691	3.537351e-05	3.346943e-06	0.001041061	-0.01190719
4.3e+08	-0.001235051	-0.01133827	3.350884e-05	-8.853765e-07	0.0008829429	-0.0006084931	5.259265e-06	3.640462e-06
	3.350884e-05	-8.853765e-07	0.0001455793	-0.01039726	-0.0002752496	0.0003660825	0.001590312	-0.0002135517
	0.0008829429	-0.0006084931	-0.0002752496	0.0003660825	-0.001456356	-0.0111137	3.373973e-05	1.335035e-06
	5.259265e-06	3.640462e-06	0.001590312	-0.0002135517	3.373973e-05	1.335035e-06	0.000178002	-0.01021088
4.4e+08	-0.001871074	-0.009449603	3.168893e-05	-2.387412e-06	0.0003198466	0.0005542808	5.395616e-06	3.28486e-06
	3.168893e-05	-2.387412e-06	-0.0005306947	-0.008637169	-0.0002669441	0.0003890666	0.001006066	0.0008853802
	0.0003198466	0.0005542808	-0.0002669441	0.0003890666	-0.002069128	-0.009197898	3.207332e-05	-2.560297e-07
	5.395616e-06	3.28486e-06	0.001006066	0.0008853802	3.207332e-05	-2.560297e-07	-0.0004903587	-0.008443462
4.5e+08	-0.00228576	-0.007515763	2.994146e-05	-3.476839e-06	-0.0001012739	0.001787626	5.513717e-06	2.931343e-06
	2.994146e-05	-3.476839e-06	-0.001006639	-0.006828099	-0.0002562451	0.0004126805	0.0005535967	0.002057046
	-0.0001012739	0.001787626	-0.0002562451	0.0004126805	-0.002456955	-0.007239455	3.045469e-05	-1.449143e-06
	5.513717e-06	2.931343e-06	0.0005535967	0.002057046	3.045469e-05	-1.449143e-06	-0.0009577195	-0.006628023
4.6e+08	-0.002475703	-0.005563039	2.834181e-05	-4.196268e-06	-0.0003719968	0.003072864	5.614662e-06	2.579408e-06
	2.834181e-05	-4.196268e-06	-0.001278576	-0.004993572	-0.0002429977	0.0004366265	0.0002415016	0.003284114
	-0.0003719967	0.003072864	-0.0002429977	0.0004366265	-0.002616723	-0.005265146	2.895724e-05	-2.281448e-06
	5.614662e-06	2.579408e-06	0.0002415016	0.003284114	2.895724e-05	-2.281448e-06	-0.001220534	-0.004788173
4.7e+08	-0.002440633	-0.003617921	2.69547e-05	-4.60125e-06	-0.0004863563	0.004390339	5.698944e-06	2.228231e-06
	2.69547e-05	-4.60125e-06	-0.001345616	-0.003157344	-0.0002270928	0.0004605814	7.610119e-05	0.004548261
	-0.0004863563	0.004390339	-0.0002270928	0.0004605814	-0.002548527	-0.003301932	2.764474e-05	-2.802758e-06
	5.698944e-06	2.228231e-06	7.610119e-05	0.004548261	2.764474e-05	-2.802758e-06	-0.001278023	-0.002947717
