!$
! Info: Touchstone file created by Circ.  Input file=Tx_6in_Rx_85ohms_TxVia_60mils_RxVia_70mils.circ
!$
# Hz S RI R 50
0	0.004959265	9.472434e-26	1.665494e-09	1.733161e-27	5.346192e-05	9.644006e-24	-1.416267e-10	6.351482e-26
	1.665508e-09	1.733165e-27	0.004955007	1.122706e-25	4.532844e-09	5.840529e-27	5.258382e-05	1.199277e-23
	5.259357e-05	9.600921e-24	4.532844e-09	5.840531e-27	0.004973144	9.579266e-26	3.743317e-09	1.832041e-27
	-1.41335e-10	6.347911e-26	5.285367e-05	1.20442e-23	3.743235e-09	1.832023e-27	0.004969549	1.117592e-25
1e+07	0.006612502	-0.005256278	2.058915e-09	3.83223e-09	0.0001810057	0.00128286	-3.718065e-09	1.161846e-08
	2.058915e-09	3.83223e-09	0.006625775	-0.005258144	6.381719e-09	1.349852e-08	0.0001788441	0.001285193
	0.0001809902	0.001282874	6.381719e-09	1.349852e-08	0.006648375	-0.00523947	-2.031243e-09	1.24109e-08
	-3.718065e-09	1.161846e-08	0.0001788464	0.00128519	-2.031243e-09	1.24109e-08	0.006621126	-0.00524851
2e+07	0.007311137	-0.01218363	2.657413e-09	7.006243e-09	0.0004581185	0.002502048	1.525928e-09	4.052649e-09
	2.657413e-09	7.006243e-09	0.007298817	-0.01219252	8.107521e-09	2.413994e-08	0.0004496849	0.002507654
	0.0004581254	0.002502056	8.107521e-09	2.413994e-08	0.007345706	-0.01215903	-4.127285e-10	6.450358e-09
	1.525928e-09	4.052649e-09	0.0004496817	0.002507655	-4.127285e-10	6.450358e-09	0.007299048	-0.01216816
3e+07	0.006526315	-0.019809	3.146183e-09	9.839466e-09	0.0008818771	0.003660966	2.427961e-09	6.222663e-09
	3.146184e-09	9.839466e-09	0.006475854	-0.01981439	8.872649e-09	3.444096e-08	0.0008633143	0.003671585
	0.0008818781	0.003660966	8.872649e-09	3.444096e-08	0.006561513	-0.0197726	2.887876e-09	9.863243e-09
	2.427961e-09	6.222663e-09	0.0008633141	0.003671587	2.887875e-09	9.863243e-09	0.006478951	-0.01978011
4e+07	0.004502437	-0.02746081	3.585952e-09	1.265322e-08	0.001444943	0.004744272	3.004546e-09	7.913157e-09
	3.585952e-09	1.265322e-08	0.004401699	-0.02745372	9.267991e-09	4.472406e-08	0.001412797	0.004762424
	0.001444942	0.004744273	9.267991e-09	4.472406e-08	0.004539613	-0.0274123	3.376505e-09	1.289833e-08
	3.004546e-09	7.913158e-09	0.001412797	0.004762425	3.376505e-09	1.289833e-08	0.004406359	-0.02741103
5e+07	0.001360334	-0.03488648	4.002851e-09	1.541893e-08	0.002135704	0.0057349	3.545787e-09	9.479123e-09
	4.002851e-09	1.541893e-08	0.001198639	-0.03485554	9.344158e-09	5.506185e-08	0.002087073	0.005763773
	0.002135702	0.005734901	9.344158e-09	5.506185e-08	0.001400532	-0.03482625	3.596137e-09	1.572781e-08
	3.545787e-09	9.479123e-09	0.002087074	0.005763773	3.596137e-09	1.572781e-08	0.001203386	-0.03480493
6e+07	-0.002802503	-0.04190914	4.39871e-09	1.812718e-08	0.002939793	0.006617222	4.081635e-09	1.094064e-08
	4.39871e-09	1.812718e-08	-0.00303341	-0.04184124	9.161921e-09	6.551931e-08	0.002872419	0.006660543
	0.002939791	0.006617221	9.161921e-09	6.551931e-08	-0.002758552	-0.04183782	3.741979e-09	1.852798e-08
	4.081635e-09	1.094064e-08	0.00287242	0.006660544	3.741979e-09	1.852798e-08	-0.0030298	-0.04178264
7e+07	-0.007890631	-0.04838682	4.76705e-09	2.077824e-08	0.003840789	0.007377676	4.603844e-09	1.229749e-08
	4.76705e-09	2.077824e-08	-0.008196664	-0.04826773	8.778597e-09	7.615543e-08	0.003753116	0.007439602
	0.003840786	0.007377675	8.778597e-09	7.615543e-08	-0.007842449	-0.04830514	3.858075e-09	2.13376e-08
	4.603844e-09	1.229749e-08	0.003753118	0.007439602	3.858075e-09	2.13376e-08	-0.008195274	-0.04820085
8e+07	-0.01380409	-0.05420048	5.099647e-09	2.337705e-08	0.004820615	0.008005137	5.094779e-09	1.355185e-08
	5.099647e-09	2.337705e-08	-0.01418892	-0.054015	8.251501e-09	8.701725e-08	0.004711843	0.008090133
	0.004820611	0.008005137	8.251501e-09	8.701725e-08	-0.0137514	-0.05410916	3.968656e-09	2.416567e-08
	5.094779e-09	1.355185e-08	0.004711844	0.008090132	3.968656e-09	2.416567e-08	-0.01419082	-0.05393934
9e+07	-0.02043644	-0.05925002	5.388417e-09	2.593073e-08	0.005859998	0.00849132	5.534838e-09	1.471079e-08
	5.388417e-09	2.593073e-08	-0.02090134	-0.05898214	7.639564e-09	9.814013e-08	0.005730121	0.008604048
	0.005859994	0.00849132	7.639564e-09	9.814013e-08	-0.0203791	-0.05914972	4.096013e-09	2.700889e-08
	5.534838e-09	1.471079e-08	0.005730122	0.008604047	4.096013e-09	2.700889e-08	-0.02090756	-0.05889691
1e+08	-0.02767588	-0.06345463	5.626278e-09	2.844285e-08	0.006939849	0.008832372	5.904761e-09	1.57871e-08
	5.626278e-09	2.844285e-08	-0.02821941	-0.0630876	7.005742e-09	1.095447e-07	0.006789697	0.008977568
	0.006939849	0.008832372	7.005742e-09	1.095447e-07	-0.02761377	-0.06334577	4.26612e-09	2.984899e-08
	5.904761e-09	1.57871e-08	0.006789697	0.008977568	4.26612e-09	2.984899e-08	-0.02823097	-0.06299189
1.1e+08	-0.03540902	-0.0667363	5.872235e-09	3.09474e-08	0.008044523	0.009017092	6.199775e-09	1.681255e-08
	5.872235e-09	3.09474e-08	-0.03602541	-0.0662545	6.434116e-09	1.212749e-07	0.007875761	0.00919939
	0.008044523	0.009017092	6.434117e-09	1.212749e-07	-0.03534168	-0.06662002	4.35406e-09	3.270541e-08
	6.199775e-09	1.681255e-08	0.007875759	0.00919939	4.35406e-09	3.270541e-08	-0.03604318	-0.06614639
1.2e+08	-0.04349779	-0.06904807	6.076359e-09	3.34407e-08	0.009142606	0.009047098	6.40775e-09	1.778637e-08
	6.076359e-09	3.34407e-08	-0.04418016	-0.06843617	5.963925e-09	1.333245e-07	0.008957697	0.009270967
	0.009142606	0.009047098	5.963925e-09	1.333245e-07	-0.04342579	-0.06892527	4.425526e-09	3.558973e-08
	6.40775e-09	1.778637e-08	0.008957695	0.009270968	4.425526e-09	3.558973e-08	-0.04420395	-0.06831383
1.3e+08	-0.05181701	-0.07036062	6.236811e-09	3.592293e-08	0.0102149	0.008927993	6.520045e-09	1.872513e-08
	6.236811e-09	3.592293e-08	-0.05255565	-0.06960406	5.660312e-09	1.456842e-07	0.01001711	0.009197578
	0.0102149	0.008927993	5.660312e-09	1.456842e-07	-0.05174087	-0.07023185	4.48566e-09	3.849849e-08
	6.520045e-09	1.872513e-08	0.01001711	0.009197579	4.48566e-09	3.849849e-08	-0.05258507	-0.06946582
1.4e+08	-0.06023919	-0.07065854	6.352795e-09	3.839734e-08	0.01124212	0.00866622	6.531317e-09	1.964331e-08
	6.352795e-09	3.839734e-08	-0.06102185	-0.06974413	5.584888e-09	1.583382e-07	0.01103549	0.008985214
	0.01124212	0.00866622	5.584888e-09	1.583382e-07	-0.06015948	-0.07052418	4.540001e-09	4.143038e-08
	6.531317e-09	1.964331e-08	0.01103549	0.008985215	4.540001e-09	4.143038e-08	-0.06105624	-0.0695884
1.5e+08	-0.06863747	-0.06994211	6.416063e-09	4.087754e-08	0.01220607	0.008270432	6.437228e-09	2.056359e-08
	6.416063e-09	4.087754e-08	-0.06944957	-0.06885843	5.79645e-09	1.712611e-07	0.0119953	0.008641956
	0.01220607	0.008270432	5.79645e-09	1.712611e-07	-0.06855472	-0.06980239	4.58595e-09	4.439332e-08
	6.437228e-09	2.056359e-08	0.0119953	0.008641957	4.58595e-09	4.439332e-08	-0.06948798	-0.06868368
1.6e+08	-0.0768874	-0.068227	6.42427e-09	4.33741e-08	0.01309001	0.007751434	6.237935e-09	2.15043e-08
	6.42427e-09	4.33741e-08	-0.07771237	-0.06696473	6.349542e-09	1.844182e-07	0.0128804	0.008177923
	0.01309001	0.007751434	6.349542e-09	1.844182e-07	-0.07680216	-0.06808203	4.625887e-09	4.739143e-08
	6.237935e-09	2.15043e-08	0.0128804	0.008177923	4.625887e-09	4.739143e-08	-0.07775354	-0.06676961
1.7e+08	-0.08486877	-0.06554373	6.376517e-09	4.589917e-08	0.01387892	0.007121964	5.936349e-09	2.248351e-08
	6.376517e-09	4.589917e-08	-0.08568829	-0.06409599	7.293262e-09	1.977659e-07	0.01367628	0.007605074
	0.01387892	0.007121964	7.293262e-09	1.977659e-07	-0.08478151	-0.06539347	4.66265e-09	5.042962e-08
	5.936349e-09	2.248351e-08	0.01367628	0.007605075	4.66265e-09	5.042962e-08	-0.08573073	-0.06387928
1.8e+08	-0.09246713	-0.06193676	6.273903e-09	4.846614e-08	0.01455977	0.006396431	5.538035e-09	2.351866e-08
	6.273903e-09	4.846614e-08	-0.09326156	-0.06029936	8.66999e-09	2.112526e-07	0.01437027	0.006936955
	0.01455977	0.006396431	8.66999e-09	2.112526e-07	-0.0923783	-0.06178111	4.699993e-09	5.351353e-08
	5.538035e-09	2.351866e-08	0.01437027	0.006936955	4.699993e-09	5.351353e-08	-0.09330355	-0.0600601
1.9e+08	-0.09957535	-0.05746358	6.12e-09	5.108927e-08	0.01512161	0.005590615	5.05104e-09	2.462614e-08
	6.12e-09	5.108927e-08	-0.1003241	-0.05563525	1.051418e-08	2.248195e-07	0.01495167	0.006188419
	0.01512161	0.005590615	1.051418e-08	2.248195e-07	-0.09948531	-0.05730235	4.742991e-09	5.664921e-08
	5.05104e-09	2.462614e-08	0.01495167	0.006188419	4.742991e-09	5.664921e-08	-0.1003637	-0.05537272
2e+08	-0.1060949	-0.05219356	5.92123e-09	5.378314e-08	0.01555575	0.004721369	4.485675e-09	2.582104e-08
	5.92123e-09	5.378314e-08	-0.1067769	-0.0501761	1.285125e-08	2.38402e-07	0.0154119	0.005375348
	0.01555575	0.004721369	1.285125e-08	2.38402e-07	-0.1060039	-0.0520265	4.798357e-09	5.98428e-08
	4.485675e-09	2.582104e-08	0.0154119	0.005375348	4.798357e-09	5.98428e-08	-0.106812	-0.04988988
2.1e+08	-0.111937	-0.04620676	5.687108e-09	5.656202e-08	0.0158558	0.00380631	3.85427e-09	2.711681e-08
	5.687108e-09	5.656202e-08	-0.112531	-0.04400508	1.569668e-08	2.519305e-07	0.01574453	0.004514365
	0.0158558	0.00380631	1.569668e-08	2.519305e-07	-0.1118453	-0.04603355	4.874665e-09	6.310007e-08
	3.85427e-09	2.711681e-08	0.01574453	0.004514365	4.874665e-09	6.310007e-08	-0.1125594	-0.04369507
2.2e+08	-0.1170237	-0.03959252	5.430342e-09	5.94392e-08	0.01601768	0.002863526	3.1709e-09	2.85251e-08
	5.430342e-09	5.94392e-08	-0.117509	-0.03721475	1.905524e-08	2.653326e-07	0.01594529	0.003622558
	0.01601768	0.002863526	1.905524e-08	2.653326e-07	-0.1169315	-0.03941285	4.982437e-09	6.642587e-08
	3.1709e-09	2.85251e-08	0.01594529	0.003622558	4.982437e-09	6.642587e-08	-0.1175285	-0.03688118
2.3e+08	-0.1212886	-0.03244813	5.166771e-09	6.242624e-08	0.01603965	0.001911285	2.451108e-09	3.005555e-08
	5.166771e-09	6.242624e-08	-0.1216454	-0.02990552	2.292047e-08	2.785342e-07	0.01601209	0.002717219
	0.01603965	0.001911285	2.292047e-08	2.785342e-07	-0.1211959	-0.03226165	5.134101e-09	6.98236e-08
	2.451108e-09	3.005555e-08	0.01601209	0.002717219	5.134101e-09	6.98236e-08	-0.1216536	-0.02954897
2.4e+08	-0.1246779	-0.02487738	4.915118e-09	6.553223e-08	0.01592223	0.0009677661	1.711619e-09	3.171571e-08
	4.915118e-09	6.553223e-08	-0.1248875	-0.0221842	2.727441e-08	2.914616e-07	0.01594498	0.00181559
	0.01592223	0.0009677661	2.727441e-08	2.914616e-07	-0.1245846	-0.02468375	5.343779e-09	7.329465e-08
	1.711619e-09	3.171571e-08	0.01594498	0.00181559	5.343779e-09	7.329465e-08	-0.1248822	-0.02180562
2.5e+08	-0.1271502	-0.01698903	4.69658e-09	6.876312e-08	0.01566817	5.080057e-05	9.700742e-10	3.351093e-08
	4.69658e-09	6.876312e-08	-0.1271959	-0.01416244	3.208759e-08	3.040429e-07	0.01574608	0.0009346321
	0.01566817	5.080056e-05	3.208759e-08	3.040429e-07	-0.1270564	-0.01678792	5.626951e-09	7.683784e-08
	9.700742e-10	3.351093e-08	0.01574608	0.000934632	5.626951e-09	7.683784e-08	-0.127175	-0.01376309
2.6e+08	-0.1286778	-0.008895338	4.534262e-09	7.212111e-08	0.01528236	-0.0008223646	2.447601e-10	3.544429e-08
	4.534262e-09	7.212111e-08	-0.1285448	-0.0059551	3.731931e-08	3.162101e-07	0.01541949	9.080372e-05
	0.01528236	-0.0008223646	3.731931e-08	3.162101e-07	-0.1285831	-0.008686451	5.999956e-09	8.044902e-08
	2.447601e-10	3.544429e-08	0.01541949	9.080368e-05	5.999956e-09	8.044902e-08	-0.1285064	-0.005536613
2.7e+08	-0.129246	-0.000710535	4.45246e-09	7.560415e-08	0.0147717	-0.001635291	-4.456339e-10	3.751662e-08
	4.45246e-09	7.560415e-08	-0.1289224	0.002321228	4.291816e-08	3.279006e-07	0.01497126	-0.0007001403
	0.0147717	-0.001635291	4.291816e-08	3.279006e-07	-0.1291502	-0.0004936084	6.47939e-09	8.412067e-08
	-4.456339e-10	3.751662e-08	0.01497126	-0.0007001403	6.47939e-09	8.412067e-08	-0.1288646	0.00275692
2.8e+08	-0.1288536	0.007450696	4.475835e-09	7.92056e-08	0.01414501	-0.002372556	-1.082252e-09	3.972646e-08
	4.475835e-09	7.92056e-08	-0.1283304	0.01054987	4.882289e-08	3.39059e-07	0.0144092	-0.001423339
	0.01414501	-0.002372556	4.882289e-08	3.39059e-07	-0.1287566	0.007675877	7.081392e-09	8.784171e-08
	-1.082252e-09	3.972646e-08	0.0144092	-0.001423339	7.081392e-09	8.784171e-08	-0.1282517	0.01100054
2.9e+08	-0.1275131	0.0154747	4.62851e-09	8.291411e-08	0.01341288	-0.003019943	-1.646293e-09	4.207005e-08
	4.62851e-09	8.291411e-08	-0.1267842	0.01861556	5.496345e-08	3.496386e-07	0.01374282	-0.002065003
	0.01341288	-0.003019943	5.496345e-08	3.496386e-07	-0.1274144	0.01570829	7.820876e-09	9.159746e-08
	-1.646293e-09	4.207005e-08	0.01374282	-0.002065003	7.820876e-09	9.159746e-08	-0.1266834	0.01907873
3e+08	-0.1252496	0.02325032	4.933102e-09	8.671355e-08	0.01258752	-0.003564623	-2.119228e-09	4.454136e-08
	4.933102e-09	8.671355e-08	-0.1243128	0.02640597	6.126235e-08	3.596028e-07	0.01298321	-0.00261258
	0.01258752	-0.003564623	6.126235e-08	3.596028e-07	-0.1251489	0.02349243	8.710711e-09	9.536972e-08
	-2.119228e-09	4.454136e-08	0.01298321	-0.00261258	8.710711e-09	9.536972e-08	-0.1241889	0.02687895
3.1e+08	-0.1221013	0.03067034	5.42201e-09	9.059784e-08	0.01168264	-0.00399532	-2.483035e-09	4.713164e-08
	5.42201e-09	9.059784e-08	-0.1209578	0.0338132	6.76373e-08	3.689327e-07	0.01214284	-0.003054908
	0.01168264	-0.00399532	6.76373e-08	3.689327e-07	-0.1219981	0.03092101	9.773323e-09	9.915171e-08
	-2.483035e-09	4.713164e-08	0.01214284	-0.003054908	9.773323e-09	9.915171e-08	-0.1208102	0.03429313
3.2e+08	-0.1181183	0.03763286	6.13277e-09	9.455164e-08	0.01071323	-0.004302464	-2.720663e-09	4.982982e-08
	6.13277e-09	9.455164e-08	-0.1167732	0.04073516	7.40056e-08	3.776201e-07	0.0112355	-0.003382368
	0.01071323	-0.004302464	7.40056e-08	3.776201e-07	-0.1180123	0.03789208	1.103612e-08	1.029287e-07
	-2.720663e-09	4.982982e-08	0.0112355	-0.003382368	1.103612e-08	1.029287e-07	-0.1166019	0.04121902
3.3e+08	-0.1133622	0.04404261	7.056585e-09	9.851275e-08	0.009695379	-0.004478335	-2.815792e-09	5.262406e-08
	7.056585e-09	9.851275e-08	-0.1118246	0.04707687	8.027662e-08	3.856489e-07	0.01027606	-0.00358702
	0.009695379	-0.004478335	8.027662e-08	3.856489e-07	-0.1132531	0.04431027	1.247964e-08	1.066402e-07
	-2.815792e-09	5.262406e-08	0.01027606	-0.00358702	1.247964e-08	1.066402e-07	-0.1116298	0.04756162
3.4e+08	-0.1079056	0.04981222	8.199471e-09	1.024478e-07	0.008646127	-0.004517193	-2.753239e-09	5.549939e-08
	8.199471e-09	1.024478e-07	-0.1061883	0.05275181	8.635922e-08	3.9303e-07	0.009280331	-0.003662729
	0.008646127	-0.004517193	8.635922e-08	3.9303e-07	-0.1077928	0.05008815	1.409966e-08	1.102563e-07
	-2.753239e-09	5.549939e-08	0.009280331	-0.003662729	1.409966e-08	1.102563e-07	-0.1059706	0.05323443
3.5e+08	-0.1018305	0.05486337	9.561494e-09	1.06322e-07	0.007583192	-0.004415391	-2.519119e-09	5.843867e-08
	9.561494e-09	1.06322e-07	-0.09995017	0.05768306	9.216344e-08	3.997873e-07	0.008264878	-0.003605285
	0.007583192	-0.004415391	9.216344e-08	3.997873e-07	-0.1017137	0.0551473	1.588636e-08	1.137469e-07
	-2.519119e-09	5.843867e-08	0.008264878	-0.003605285	1.588636e-08	1.137469e-07	-0.09971077	0.05816055
3.6e+08	-0.09522776	0.05912786	1.11365e-08	1.101e-07	0.006524764	-0.004171475	-2.101261e-09	6.142261e-08
	1.11365e-08	1.101e-07	-0.09320467	0.06180435	9.760243e-08	4.059576e-07	0.007246792	-0.003412508
	0.006524764	-0.004171475	9.760243e-08	4.059576e-07	-0.0951066	0.0594195	1.782419e-08	1.17083e-07
	-2.101261e-09	6.142261e-08	0.007246792	-0.003412508	1.782419e-08	1.17083e-07	-0.09294511	0.06227382
3.7e+08	-0.08819565	0.06254859	1.291201e-08	1.137476e-07	0.005489246	-0.003786263	-1.489543e-09	6.442981e-08
	1.291201e-08	1.137476e-07	-0.08605357	0.06506105	1.025943e-07	4.115899e-07	0.006243471	-0.00308433
	0.005489246	-0.003786263	1.025943e-07	4.115899e-07	-0.08806981	0.06284758	1.989198e-08	1.202377e-07
	-1.489543e-09	6.442981e-08	0.006243471	-0.00308433	1.989198e-08	1.202377e-07	-0.08577581	0.0655198
3.8e+08	-0.08083873	0.06508044	1.486941e-08	1.172324e-07	0.004494993	-0.003262895	-6.762108e-10	6.743698e-08
	1.486941e-08	1.172324e-07	-0.07860457	0.06741095	1.070639e-07	4.167446e-07	0.005272372	-0.002622865
	0.004494993	-0.003262895	1.070639e-07	4.167446e-07	-0.08070795	0.06538635	2.206333e-08	1.231876e-07
	-6.762108e-10	6.743698e-08	0.005272372	-0.002622865	2.206333e-08	1.231876e-07	-0.07831096	0.06785649
3.9e+08	-0.07326637	0.06669092	1.698439e-08	1.205254e-07	0.00356002	-0.00260686	3.437576e-10	7.041905e-08
	1.698439e-08	1.205254e-07	-0.07096978	0.06882497	1.109442e-07	4.214927e-07	0.004350745	-0.002032445
	0.00356002	-0.00260686	1.109442e-07	4.214927e-07	-0.07313044	0.06700328	2.430723e-08	1.259136e-07
	3.437576e-10	7.041905e-08	0.004350745	-0.002032445	2.430723e-08	1.259136e-07	-0.07066307	0.06925511
4e+08	-0.06559127	0.06736073	1.922757e-08	1.23602e-07	0.002701708	-0.001825987	1.572276e-09	7.334947e-08
	1.922757e-08	1.23602e-07	-0.06326426	0.06928762	1.141781e-07	4.25914e-07	0.003495357	-0.001319627
	0.002701708	-0.001825987	1.141781e-07	4.25914e-07	-0.06545003	0.06767903	2.658882e-08	1.284017e-07
	1.572276e-09	7.334947e-08	0.003495357	-0.001319627	2.658882e-08	1.284017e-07	-0.06294749	0.06970051
4.1e+08	-0.05792788	0.06708419	2.156543e-08	1.264424e-07	0.001936496	-0.0009304016	3.007784e-09	7.620053e-08
	2.156543e-08	1.264424e-07	-0.05560432	0.0687974	1.167188e-07	4.300961e-07	0.002722193	-0.0004931734
	0.001936496	-0.0009304016	1.167188e-07	4.300961e-07	-0.05778127	0.06740788	2.887047e-08	1.306444e-07
	3.007784e-09	7.620053e-08	0.002722193	-0.0004931734	2.887047e-08	1.306444e-07	-0.05528085	0.06919158
4.2e+08	-0.05039082	0.06586941	2.39613e-08	1.290331e-07	0.001279567	6.756796e-05	4.644899e-09	7.894382e-08
	2.39613e-08	1.290331e-07	-0.04810587	0.06736689	1.185317e-07	4.341327e-07	0.002046166	0.0004360249
	0.001279567	6.756795e-05	1.185317e-07	4.341327e-07	-0.05023883	0.06619792	3.111296e-08	1.326405e-07
	4.644899e-09	7.894382e-08	0.002046166	0.0004360249	3.111296e-08	1.326405e-07	-0.04777931	0.06774134
4.3e+08	-0.04309317	0.06373831	2.637656e-08	1.313669e-07	0.0007445375	0.001153523	6.474124e-09	8.155072e-08
	2.637656e-08	1.313669e-07	-0.04088275	0.06502269	1.195942e-07	4.38122e-07	0.001480806	0.001455054
	0.0007445375	0.001153523	1.195942e-07	4.38122e-07	-0.0429359	0.06407104	3.327675e-08	1.343958e-07
	6.474124e-09	8.155072e-08	0.001480806	0.001455054	3.327675e-08	1.343958e-07	-0.04055686	0.06537686
4.4e+08	-0.03614486	0.06072643	2.877187e-08	1.33443e-07	0.000343155	0.002311176	8.481613e-09	8.399304e-08
	2.877187e-08	1.33443e-07	-0.03404494	0.06180521	1.198965e-07	4.421648e-07	0.001037974	0.002549139
	0.000343155	0.002311176	1.198965e-07	4.421648e-07	-0.03598247	0.06106278	3.532331e-08	1.35923e-07
	8.481613e-09	8.399304e-08	0.001037974	0.002549139	3.532331e-08	1.35923e-07	-0.03372364	0.06213903
4.5e+08	-0.0296509	0.05688253	3.110844e-08	1.352674e-07	8.501413e-05	0.003522589	1.064905e-08	8.624369e-08
	3.110844e-08	1.352674e-07	-0.02769692	0.05776809	1.194417e-07	4.463633e-07	0.0007275754	0.003701847
	8.501414e-05	0.003522589	1.194417e-07	4.463633e-07	-0.02948367	0.05722191	3.721649e-08	1.372414e-07
	1.064905e-08	8.624369e-08	0.0007275754	0.003701847	3.721649e-08	1.372414e-07	-0.02738418	0.05808205
4.6e+08	-0.02370989	0.05226798	3.334923e-08	1.368524e-07	-2.270072e-05	0.004768447	1.295362e-08	8.827745e-08
	3.334923e-08	1.368524e-07	-0.02193603	0.05297761	1.182458e-07	4.508189e-07	0.000557311	0.004895349
	-2.270072e-05	0.004768447	1.182458e-07	4.508189e-07	-0.02353816	0.05260982	3.892371e-08	1.383766e-07
	1.295362e-08	8.827745e-08	0.000557311	0.004895349	3.892371e-08	1.383766e-07	-0.02163581	0.05327271
4.7e+08	-0.01841233	0.04695594	3.546005e-08	1.382158e-07	2.456394e-05	0.006028392	1.536817e-08	9.007177e-08
	3.546005e-08	1.382158e-07	-0.01685089	0.04751168	1.163374e-07	4.55631e-07	0.0005324487	0.006110711
	2.456394e-05	0.006028392	1.163374e-07	4.55631e-07	-0.01823657	0.04729968	4.041708e-08	1.393591e-07
	1.536817e-08	9.007177e-08	0.0005324487	0.006110711	4.041708e-08	1.393591e-07	-0.01656706	0.04778947
4.8e+08	-0.01383925	0.04103032	3.741046e-08	1.393805e-07	0.0002285562	0.007281386	1.786145e-08	9.160756e-08
	3.741046e-08	1.393805e-07	-0.01251996	0.04145876	1.137573e-07	4.608957e-07	0.0006556456	0.007328244
	0.0002285562	0.007281386	1.137573e-07	4.608957e-07	-0.01366002	0.04137547	4.167428e-08	1.40224e-07
	1.786145e-08	9.160756e-08	0.0006556456	0.007328244	4.167428e-08	1.40224e-07	-0.01225623	0.04172133
