!$
! Info: Touchstone file created by Circ.  Input file=Tx_6in_Rx_93ohms_TxVia_60mils_RxVia_70mils.circ
!$
# Hz S RI R 50
0	0.005629395	9.442048e-26	1.663269e-09	1.917647e-27	5.330283e-05	1.096358e-23	-1.414157e-10	6.349223e-26
	1.663283e-09	1.917651e-27	0.005625136	1.118941e-25	4.526791e-09	6.558861e-27	5.242595e-05	1.363603e-23
	5.243455e-05	1.091459e-23	4.526792e-09	6.558864e-27	0.005643254	9.548534e-26	3.738294e-09	2.028479e-27
	-1.411245e-10	6.345657e-26	5.269577e-05	1.369451e-23	3.738211e-09	2.028461e-27	0.005639659	1.113844e-25
1e+07	0.008087002	-7.152969e-05	2.071546e-09	3.767806e-09	0.0001791343	0.001297485	-3.748361e-09	1.152431e-08
	2.071546e-09	3.767806e-09	0.008248989	-7.824297e-05	6.472725e-09	1.333552e-08	0.0001766763	0.001293141
	0.0001791187	0.001297499	6.472725e-09	1.333552e-08	0.008268999	-7.898622e-05	-2.03088e-09	1.231086e-08
	-3.748361e-09	1.152431e-08	0.0001766786	0.001293139	-2.03088e-09	1.231086e-08	0.00809649	-8.300841e-05
2e+07	0.009722907	-0.002091879	2.796938e-09	6.873809e-09	0.0003899145	0.00259158	1.608887e-09	3.943132e-09
	2.796938e-09	6.873809e-09	0.009829075	-0.002163215	8.586456e-09	2.37594e-08	0.0003829965	0.002584458
	0.0003899213	0.002591588	8.586456e-09	2.37594e-08	0.009865822	-0.00216748	-2.523365e-10	6.293412e-09
	1.608887e-09	3.943132e-09	0.0003829933	0.002584458	-2.523364e-10	6.293412e-09	0.009712799	-0.002114638
3e+07	0.01053791	-0.004890484	3.456312e-09	9.620886e-09	0.0008076582	0.003788257	2.61566e-09	6.071049e-09
	3.456312e-09	9.620886e-09	0.01058556	-0.004979761	9.910163e-09	3.376298e-08	0.0007828233	0.003783013
	0.0008076592	0.003788258	9.910163e-09	3.376298e-08	0.01064905	-0.004992239	3.220254e-09	9.631635e-09
	2.61566e-09	6.071049e-09	0.000782823	0.003783015	3.220254e-09	9.631635e-09	0.01049596	-0.004918887
4e+07	0.01073539	-0.007951868	4.100916e-09	1.230198e-08	0.001392109	0.004897798	3.320047e-09	7.69996e-09
	4.100916e-09	1.230198e-08	0.01071862	-0.008042018	1.101996e-08	4.362942e-08	0.001351171	0.004896866
	0.001392107	0.004897799	1.101996e-08	4.362942e-08	0.01081823	-0.008068856	3.92566e-09	1.252812e-08
	3.320047e-09	7.69996e-09	0.001351172	0.004896867	3.92566e-09	1.252812e-08	0.01064999	-0.007979777
5e+07	0.01039298	-0.01110783	4.751363e-09	1.48904e-08	0.002101159	0.005912668	4.009939e-09	9.186248e-09
	4.751363e-09	1.48904e-08	0.01030608	-0.01118408	1.193976e-08	5.340207e-08	0.002041333	0.005919593
	0.002101157	0.005912668	1.193976e-08	5.340207e-08	0.01044992	-0.01123388	4.395202e-09	1.51689e-08
	4.009939e-09	9.186248e-09	0.002041334	0.005919593	4.395203e-09	1.51689e-08	0.01025332	-0.01112629
6e+07	0.009558172	-0.01425305	5.399404e-09	1.737196e-08	0.002922332	0.006819491	4.711736e-09	1.054654e-08
	5.399404e-09	1.737196e-08	0.009397057	-0.01430097	1.270116e-08	6.312266e-08	0.002841414	0.00683826
	0.00292233	0.00681949	1.270116e-08	6.312266e-08	0.009591081	-0.01438381	4.810984e-09	1.772629e-08
	4.711736e-09	1.054654e-08	0.002841416	0.006838261	4.810984e-09	1.772629e-08	0.009355601	-0.01425122
7e+07	0.008269399	-0.01730782	6.028245e-09	1.974457e-08	0.003840962	0.007605666	5.413838e-09	1.177809e-08
	6.028245e-09	1.974457e-08	0.008031719	-0.01731302	1.332974e-08	7.28312e-08	0.003737412	0.007640652
	0.003840958	0.007605665	1.332974e-08	7.28312e-08	0.00827994	-0.01743976	5.205012e-09	2.023711e-08
	5.413838e-09	1.177809e-08	0.003737413	0.007640652	5.205012e-09	2.023711e-08	0.00799718	-0.01727382
8e+07	0.006563523	-0.02020601	6.619402e-09	2.201319e-08	0.004840578	0.008260124	6.095146e-09	1.288159e-08
	6.619402e-09	2.201319e-08	0.006248665	-0.02015388	1.384785e-08	8.256068e-08	0.004713589	0.008316001
	0.004840573	0.008260124	1.384785e-08	8.256068e-08	0.006553363	-0.02033599	5.590042e-09	2.27112e-08
	6.095146e-09	1.288159e-08	0.00471359	0.008316	5.590043e-09	2.27112e-08	0.006216584	-0.02012696
9e+07	0.004479595	-0.02288969	7.154536e-09	2.418795e-08	0.00590319	0.008773733	6.722205e-09	1.386107e-08
	7.154536e-09	2.418795e-08	0.004089029	-0.022765	1.426942e-08	9.233081e-08	0.005752758	0.0088554
	0.005903186	0.008773733	1.426942e-08	9.233081e-08	0.004450684	-0.02301453	5.970659e-09	2.514511e-08
	6.722205e-09	1.386107e-08	0.005752758	0.008855399	5.970659e-09	2.514511e-08	0.004054681	-0.02275164
1e+08	0.002067058	-0.0252986	7.59081e-09	2.627367e-08	0.007009479	0.009139173	7.198554e-09	1.473018e-08
	7.59081e-09	2.627367e-08	0.001606007	-0.02508388	1.45636e-08	1.021184e-07	0.006836596	0.009251853
	0.007009479	0.009139173	1.45636e-08	1.021184e-07	0.002023106	-0.02541323	6.336683e-09	2.752622e-08
	7.198554e-09	1.473018e-08	0.006836596	0.009251853	6.336683e-09	2.752622e-08	0.001563192	-0.02508656
1.1e+08	-0.0006004141	-0.02745197	8.009436e-09	2.831783e-08	0.008137534	0.009354454	7.63893e-09	1.554201e-08
	8.009436e-09	2.831783e-08	-0.001118261	-0.02714112	1.484096e-08	1.120252e-07	0.007944654	0.009502102
	0.008137534	0.009354454	1.484096e-08	1.120252e-07	-0.000650306	-0.02756233	6.600799e-09	2.988997e-08
	7.63893e-09	1.554201e-08	0.007944652	0.009502102	6.600799e-09	2.988997e-08	-0.001180219	-0.02715181
1.2e+08	-0.003548163	-0.02930074	8.360714e-09	3.029621e-08	0.009269898	0.009418494	7.992104e-09	1.624839e-08
	8.360714e-09	3.029621e-08	-0.00411999	-0.02888536	1.510955e-08	1.220274e-07	0.009058853	0.009605175
	0.009269898	0.009418494	1.510955e-08	1.220274e-07	-0.003607271	-0.02941019	6.819412e-09	3.222396e-08
	7.992104e-09	1.624839e-08	0.009058851	0.009605176	6.819412e-09	3.222396e-08	-0.004200167	-0.02889793
1.3e+08	-0.006721041	-0.0308	8.629751e-09	3.222249e-08	0.01038634	0.009331835	8.237331e-09	1.687971e-08
	8.629751e-09	3.222249e-08	-0.007340422	-0.03026968	1.538824e-08	1.321366e-07	0.01015991	0.009561664
	0.01038634	0.009331835	1.538824e-08	1.321366e-07	-0.006791136	-0.03090901	6.983782e-09	3.453959e-08
	8.237331e-09	1.687971e-08	0.01015991	0.009561665	6.983782e-09	3.453959e-08	-0.00743888	-0.03028036
1.4e+08	-0.01006864	-0.03192302	8.80858e-09	3.410751e-08	0.01146708	0.009098148	8.36166e-09	1.745397e-08
	8.80858e-09	3.410751e-08	-0.01072687	-0.03126775	1.570032e-08	1.423583e-07	0.01122882	0.009374925
	0.01146708	0.009098148	1.570032e-08	1.423583e-07	-0.01015114	-0.0320313	7.09183e-09	3.684391e-08
	8.36166e-09	1.745397e-08	0.01122882	0.009374926	7.09183e-09	3.684391e-08	-0.01084355	-0.03127322
1.5e+08	-0.01354006	-0.03265133	8.893594e-09	3.595753e-08	0.01249303	0.008723723	8.35462e-09	1.798508e-08
	8.893594e-09	3.595753e-08	-0.01422646	-0.03186205	1.606918e-08	1.52694e-07	0.01224721	0.009050782
	0.01249303	0.008723723	1.606918e-08	1.52694e-07	-0.01363616	-0.03275807	7.145235e-09	3.913851e-08
	8.35462e-09	1.798508e-08	0.01224721	0.009050783	7.145235e-09	3.913851e-08	-0.01436105	-0.03185923
1.6e+08	-0.01708391	-0.0329735	8.868557e-09	3.78018e-08	0.01344616	0.008217308	8.207462e-09	1.850581e-08
	8.868557e-09	3.78018e-08	-0.01778609	-0.03204256	1.65183e-08	1.631414e-07	0.01319766	0.008597395
	0.01344616	0.008217308	1.65183e-08	1.631414e-07	-0.01719459	-0.03307761	7.132484e-09	4.144701e-08
	8.207462e-09	1.850581e-08	0.01319766	0.008597395	7.132484e-09	4.144701e-08	-0.01793795	-0.03202854
1.7e+08	-0.02064883	-0.03288483	8.729169e-09	3.965909e-08	0.01430978	0.007589932	7.916924e-09	1.903892e-08
	8.729169e-09	3.965909e-08	-0.02135291	-0.03180626	1.707004e-08	1.736949e-07	0.01406401	0.008025099
	0.01430978	0.007589932	1.707004e-08	1.736949e-07	-0.02077487	-0.03298493	7.053087e-09	4.378188e-08
	7.916924e-09	1.903892e-08	0.01406401	0.0080251	7.053086e-09	4.378188e-08	-0.02152108	-0.03177829
1.8e+08	-0.02418405	-0.032387	8.473736e-09	4.15496e-08	0.01506881	0.006854697	7.48301e-09	1.960755e-08
	8.473736e-09	4.15496e-08	-0.02487495	-0.03115678	1.774553e-08	1.843456e-07	0.01483161	0.007346217
	0.01506881	0.006854697	1.774553e-08	1.843456e-07	-0.024326	-0.03248153	6.908232e-09	4.615645e-08
	7.48301e-09	1.960755e-08	0.01483161	0.007346218	6.908232e-09	4.615645e-08	-0.02505814	-0.03111232
1.9e+08	-0.02764002	-0.03148784	8.103576e-09	4.349463e-08	0.01571006	0.00602654	6.909018e-09	2.023488e-08
	8.103576e-09	4.349463e-08	-0.02830175	-0.03010409	1.856441e-08	1.950815e-07	0.01548759	0.006574834
	0.01571006	0.00602654	1.856441e-08	1.950815e-07	-0.0277982	-0.03157508	6.70112e-09	4.858464e-08
	6.909018e-09	2.023488e-08	0.01548759	0.006574834	6.70112e-09	4.858464e-08	-0.02849836	-0.0300408
2e+08	-0.030969	-0.03020101	7.62338e-09	4.551607e-08	0.01622243	0.005121962	6.201527e-09	2.094362e-08
	7.62338e-09	4.551607e-08	-0.031585	-0.0286642	1.954449e-08	2.058882e-07	0.01602102	0.005726547
	0.01622243	0.005121962	1.954449e-08	2.058882e-07	-0.0311435	-0.03027915	6.437249e-09	5.108068e-08
	6.201527e-09	2.094362e-08	0.01602102	0.005726547	6.437249e-09	5.108068e-08	-0.03179314	-0.02857999
2.1e+08	-0.03412568	-0.02854572	7.041474e-09	4.763586e-08	0.01659711	0.004158742	5.370321e-09	2.175568e-08
	7.041474e-09	4.763586e-08	-0.03467916	-0.02685873	2.070149e-08	2.167483e-07	0.01642313	0.004818192
	0.01659711	0.004158742	2.070149e-08	2.167483e-07	-0.03431634	-0.02861287	6.124631e-09	5.365866e-08
	5.370321e-09	2.175568e-08	0.01642313	0.004818192	6.124631e-09	5.365866e-08	-0.03489668	-0.02675179
2.2e+08	-0.03706774	-0.0265463	6.369989e-09	4.987535e-08	0.01682767	0.003155619	4.428272e-09	2.269167e-08
	6.369989e-09	4.987535e-08	-0.03754204	-0.02471448	2.204876e-08	2.276426e-07	0.01668741	0.003867555
	0.01682767	0.003155619	2.204876e-08	2.276426e-07	-0.03727416	-0.02660054	5.773944e-09	5.633207e-08
	4.428272e-09	2.269167e-08	0.01668741	0.003867555	5.773944e-09	5.633207e-08	-0.03776657	-0.02458333
2.3e+08	-0.03975634	-0.0242318	5.62491e-09	5.22546e-08	0.01691022	0.002131976	3.391177e-09	2.377059e-08
	5.62491e-09	5.22546e-08	-0.04013528	-0.02226301	2.359699e-08	2.385495e-07	0.01680973	0.002893068
	0.01691022	0.002131976	2.359699e-08	2.385495e-07	-0.03997785	-0.02427122	5.398572e-09	5.911328e-08
	3.391177e-09	2.377059e-08	0.01680973	0.002893068	5.398572e-09	5.911328e-08	-0.04036427	-0.02210648
2.4e+08	-0.04215662	-0.02163552	4.82598e-09	5.479171e-08	0.0168434	0.001107507	2.277549e-09	2.500942e-08
	4.82598e-09	5.479171e-08	-0.04242491	-0.01954001	2.535398e-08	2.494458e-07	0.01678836	0.001913501
	0.0168434	0.001107507	2.535398e-08	2.494458e-07	-0.0423923	-0.02165822	5.014526e-09	6.201298e-08
	2.277549e-09	2.500942e-08	0.01678836	0.001913501	5.014526e-09	6.201298e-08	-0.04265566	-0.01935731
2.5e+08	-0.0442381	-0.01879446	3.996471e-09	5.750197e-08	0.01662843	0.0001018854	1.108374e-09	2.642277e-08
	3.996471e-09	5.750197e-08	-0.04438166	-0.01658485	2.732442e-08	2.603068e-07	0.01662401	0.0009476489
	0.01662843	0.0001018854	2.732442e-08	2.603068e-07	-0.04448677	-0.01879863	4.64027e-09	6.503955e-08
	1.108374e-09	2.642277e-08	0.01662401	0.0009476488	4.64027e-09	6.503955e-08	-0.04461139	-0.01637554
2.6e+08	-0.04597506	-0.01574881	3.165895e-09	6.043907e-08	0.01626907	-0.0008655647	-9.261472e-11	2.802173e-08
	3.165895e-09	6.043907e-08	-0.04598141	-0.01343984	2.950121e-08	2.711245e-07	0.01631978	1.402725e-05
	0.01626907	-0.0008655647	2.950121e-08	2.711245e-07	-0.04623533	-0.01573271	4.299636e-09	6.82407e-08
	-9.261472e-11	2.802173e-08	0.01631978	1.402721e-05	4.299636e-09	6.82407e-08	-0.04620726	-0.01320389
2.7e+08	-0.04734681	-0.01254133	2.372104e-09	6.357711e-08	0.01577155	-0.001776186	-1.301063e-09	2.981572e-08
	2.372104e-09	6.357711e-08	-0.04720534	-0.01014973	3.189411e-08	2.818595e-07	0.01588114	-0.0008694331
	0.01577155	-0.001776186	3.189411e-08	2.818595e-07	-0.04761703	-0.01250338	4.023685e-09	7.158473e-08
	-1.301063e-09	2.981572e-08	0.01588114	-0.0008694331	4.023685e-09	7.158473e-08	-0.04742448	-0.009887473
2.8e+08	-0.04833793	-0.009216751	1.646961e-09	6.691013e-08	0.01514444	-0.002612298	-2.490564e-09	3.181065e-08
	1.646961e-09	6.691013e-08	-0.0480402	-0.006760961	3.449937e-08	2.924814e-07	0.01531579	-0.001685672
	0.01514444	-0.002612298	3.449937e-08	2.924814e-07	-0.04861623	-0.009155532	3.836668e-09	7.506095e-08
	-2.490564e-09	3.181065e-08	0.01531579	-0.001685672	3.836668e-09	7.506095e-08	-0.04824987	-0.006473118
2.9e+08	-0.04893846	-0.005821146	1.022761e-09	7.043382e-08	0.01439853	-0.00335748	-3.633447e-09	3.400883e-08
	1.022761e-09	7.043382e-08	-0.04847849	-0.003321031	3.73075e-08	3.029631e-07	0.01463353	-0.002418774
	0.01439853	-0.00335748	3.73075e-08	3.029631e-07	-0.04922276	-0.005735433	3.762565e-09	7.866144e-08
	-3.633447e-09	3.400883e-08	0.01463353	-0.002418774	3.762565e-09	7.866144e-08	-0.04867603	-0.003008688
3e+08	-0.04914394	-0.002401298	5.316499e-10	7.413847e-08	0.01354663	-0.003996844	-4.701308e-09	3.640889e-08
	5.316499e-10	7.413847e-08	-0.04851841	0.0001221924	4.030496e-08	3.13278e-07	0.01384613	-0.00305422
	0.01354663	-0.003996844	4.030496e-08	3.13278e-07	-0.049432	-0.00229009	3.824634e-09	8.237396e-08
	-4.701308e-09	3.640889e-08	0.01384613	-0.00305422	3.824634e-09	8.237396e-08	-0.04870132	0.0004575986
3.1e+08	-0.04895548	0.000995968	2.04692e-10	7.800896e-08	0.01260335	-0.004517276	-5.665456e-09	3.900569e-08
	2.04692e-10	7.800896e-08	-0.04816391	0.003521153	4.347424e-08	3.234009e-07	0.0129671	-0.003579119
	0.01260335	-0.004517276	4.347424e-08	3.234009e-07	-0.04924487	0.001133419	4.044623e-09	8.618208e-08
	-5.665456e-09	3.900569e-08	0.0129671	-0.003579119	4.044623e-09	8.618208e-08	-0.04832987	0.003877853
3.2e+08	-0.04837967	0.004324395	7.090044e-11	8.202487e-08	0.01158491	-0.004907644	-6.497402e-09	4.179011e-08
	7.090044e-11	8.202487e-08	-0.04742454	0.006829257	4.679388e-08	3.333086e-07	0.01201148	-0.003982414
	0.01158491	-0.004907644	4.679388e-08	3.333086e-07	-0.04866787	0.004488571	4.441963e-09	9.006532e-08
	-6.497402e-09	4.179011e-08	0.01201148	-0.003982414	4.441963e-09	9.006532e-08	-0.04757151	0.007205181
3.3e+08	-0.04742849	0.007538944	1.56301e-10	8.616076e-08	0.0105088	-0.005158987	-7.169375e-09	4.474908e-08
	1.56301e-10	8.616076e-08	-0.04631532	0.01000153	5.023874e-08	3.429805e-07	0.0109956	-0.004255056
	0.0105088	-0.005158987	5.023874e-08	3.429805e-07	-0.04771287	0.007730031	5.033003e-09	9.399952e-08
	-7.169375e-09	4.474908e-08	0.0109956	-0.004255056	5.033003e-09	9.399952e-08	-0.0464415	0.01039434
3.4e+08	-0.04611909	0.0105964	4.830578e-10	9.038674e-08	0.00939356	-0.00526466	-7.654862e-09	4.786552e-08
	4.830578e-10	9.038674e-08	-0.04485645	0.01299523	5.378027e-08	3.523992e-07	0.009936837	-0.004390149
	0.00939356	-0.00526466	5.378027e-08	3.523992e-07	-0.04639696	0.01081428	5.830312e-09	9.795734e-08
	-7.654862e-09	4.786552e-08	0.009936837	-0.004390149	5.830312e-09	9.795734e-08	-0.04496038	0.01340235
3.5e+08	-0.04447355	0.01345595	1.068679e-09	9.466906e-08	0.008258459	-0.005220449	-7.929172e-09	5.111846e-08
	1.068679e-09	9.466906e-08	-0.04307304	0.01577047	5.73869e-08	3.615506e-07	0.008853302	-0.004383066
	0.008258459	-0.005220449	5.73869e-08	3.615506e-07	-0.04474221	0.01370018	6.842057e-09	1.019089e-07
	-7.929172e-09	5.111846e-08	0.008853302	-0.004383066	6.842057e-09	1.019089e-07	-0.04315359	0.01618914
3.6e+08	-0.04251857	0.01607973	1.92536e-09	9.897092e-08	0.007123173	-0.005024642	-7.97e-09	5.44832e-08
	1.92536e-09	9.897092e-08	-0.04099468	0.01829069	6.102454e-08	3.704253e-07	0.007763579	-0.004231525
	0.007123173	-0.005024642	6.102454e-08	3.704253e-07	-0.04277532	0.01634956	8.071531e-09	1.058227e-07
	-7.97e-09	5.44832e-08	0.007763579	-0.004231524	8.071531e-09	1.058227e-07	-0.0410511	0.01871801
3.7e+08	-0.04028506	0.01843336	3.059464e-09	1.032534e-07	0.00600748	-0.004678073	-7.758002e-09	5.793152e-08
	3.059464e-09	1.032534e-07	-0.03865506	0.02052324	6.465714e-08	3.790183e-07	0.006686416	-0.003935632
	0.00600748	-0.004678073	6.465714e-08	3.790183e-07	-0.04052727	0.0187277	9.516803e-09	1.096661e-07
	-7.758002e-09	5.793152e-08	0.006686416	-0.003935632	9.516803e-09	1.096661e-07	-0.03868696	0.0209562
3.8e+08	-0.03780771	0.02048637	4.471186e-09	1.074765e-07	0.004930933	-0.004184114	-7.277346e-09	6.143203e-08
	4.471186e-09	1.074765e-07	-0.03609141	0.02243977	6.824735e-08	3.873294e-07	0.005640428	-0.003497891
	0.004930933	-0.004184114	6.824735e-08	3.873294e-07	-0.03803285	0.02080381	1.117056e-08	1.134068e-07
	-7.277346e-09	6.143203e-08	0.005640428	-0.003497891	1.117056e-08	1.134068e-07	-0.03609883	0.02287533
3.9e+08	-0.03512454	0.02221264	6.154405e-09	1.115999e-07	0.003912543	-0.003548638	-6.516236e-09	6.49506e-08
	6.154405e-09	1.115999e-07	-0.03334404	0.02401664	7.175722e-08	3.95364e-07	0.004643798	-0.002923171
	0.003912543	-0.003548638	7.175722e-08	3.95364e-07	-0.0353302	0.02255145	1.30201e-08	1.170132e-07
	-6.516236e-09	6.49506e-08	0.004643798	-0.002923171	1.30201e-08	1.170132e-07	-0.03332739	0.02445175
4e+08	-0.03227631	0.02359074	8.096717e-09	1.155847e-07	0.00297046	-0.002779935	-5.467386e-09	6.845088e-08
	8.096717e-09	1.155847e-07	-0.03045568	0.02523521	7.514902e-08	4.031327e-07	0.003713975	-0.002218641
	0.00297046	-0.002779935	7.514902e-08	4.031327e-07	-0.03246027	0.02394889	1.504755e-08	1.204559e-07
	-5.467386e-09	6.845088e-08	0.003713975	-0.002218641	1.504755e-08	1.204559e-07	-0.03041578	0.0256669
4.1e+08	-0.02930598	0.02460422	1.027967e-08	1.193935e-07	0.002121675	-0.001888594	-4.128439e-09	7.189486e-08
	1.027967e-08	1.193935e-07	-0.02747091	0.02608214	7.838597e-08	4.106516e-07	0.002867396	-0.001393665
	0.002121675	-0.001888594	7.838597e-08	4.106516e-07	-0.02946624	0.02497939	1.723019e-08	1.23708e-07
	-4.128439e-09	7.189486e-08	0.002867396	-0.001393665	1.723019e-08	1.23708e-07	-0.02740899	0.02650753
4.2e+08	-0.02625813	0.02524185	1.267919e-08	1.229922e-07	0.001381729	-0.0008873437	-2.502293e-09	7.52436e-08
	1.267919e-08	1.229922e-07	-0.02443552	0.0265495	8.143311e-08	4.17942e-07	0.002119203	-0.0004596701
	0.001381729	-0.0008873437	8.143311e-08	4.17942e-07	-0.02639294	0.02563146	1.954101e-08	1.267466e-07
	-2.502293e-09	7.52436e-08	0.002119203	-0.0004596701	1.954101e-08	1.267466e-07	-0.02435316	0.02696589
4.3e+08	-0.0231783	0.02549774	1.526611e-08	1.263505e-07	0.0007644459	0.0002091352	-5.973422e-10	7.845795e-08
	1.526611e-08	1.263505e-07	-0.02139585	0.02663494	8.425803e-08	4.250304e-07	0.001482993	0.0005700338
	0.0007644459	0.0002091352	8.425803e-08	4.250304e-07	-0.02328622	0.02589898	2.194939e-08	1.295529e-07
	-5.973422e-10	7.845795e-08	0.001482993	0.0005700338	2.194939e-08	1.295529e-07	-0.02129501	0.02703981
4.4e+08	-0.0201124	0.02537142	1.800695e-08	1.294426e-07	0.000281689	0.001384442	1.572406e-09	8.149936e-08
	1.800695e-08	1.294426e-07	-0.01839811	0.02634164	8.683168e-08	4.319481e-07	0.0009705806	0.001680452
	0.000281689	0.001384442	8.683168e-08	4.319481e-07	-0.02019229	0.02578128	2.442186e-08	1.32113e-07
	1.572406e-09	8.149936e-08	0.0009705806	0.001680452	2.442186e-08	1.32113e-07	-0.01828105	0.02673275
4.5e+08	-0.017106	0.02486789	2.086465e-08	1.322479e-07	-5.685297e-05	0.002620709	3.987328e-09	8.433074e-08
	2.086465e-08	1.322479e-07	-0.01548772	0.02567831	8.912906e-08	4.387305e-07	0.00059179	0.002855142
	-5.685296e-05	0.002620709	8.912906e-08	4.387305e-07	-0.01715709	0.02528319	2.692298e-08	1.344184e-07
	3.987328e-09	8.433074e-08	0.00059179	0.002855142	2.692298e-08	1.344184e-07	-0.01535703	0.02605372
4.6e+08	-0.01420376	0.0239975	2.379954e-08	1.347515e-07	-0.0002438476	0.003898889	6.622285e-09	8.691732e-08
	2.379954e-08	1.347515e-07	-0.01270871	0.02465902	9.112983e-08	4.45417e-07	0.0003542765	0.004076471
	-0.0002438476	0.003898889	9.112983e-08	4.45417e-07	-0.01422565	0.02441495	2.941623e-08	1.36466e-07
	6.622285e-09	8.691732e-08	0.0003542766	0.004076471	2.941623e-08	1.36466e-07	-0.01256718	0.02501714
4.7e+08	-0.01144875	0.02277583	2.677021e-08	1.369442e-07	-0.0002744649	0.00519906	9.44699e-09	8.92274e-08
	2.677021e-08	1.369442e-07	-0.010103	0.02330301	9.281885e-08	4.520498e-07	0.0002633794	0.005325901
	-0.0002744649	0.00519906	9.281885e-08	4.520498e-07	-0.01144146	0.02319202	3.186502e-08	1.382584e-07
	9.44699e-09	8.92274e-08	0.0002633794	0.005325901	3.186502e-08	1.382584e-07	-0.009953684	0.0236426
4.8e+08	-0.008881897	0.0212234	2.973451e-08	1.38823e-07	-0.0001464834	0.00650075	1.242638e-08	9.123323e-08
	2.973451e-08	1.38823e-07	-0.007709886	0.0216344	9.418663e-08	4.586736e-07	0.0003220137	0.006584289
