!$
! Info: Touchstone file created by Circ.  Input file=Tx_6in_Rx_85ohms_TxVia_60mils_RxVia_70mils.circ
!$
# Hz S RI R 50
0	0.004959654	1.076076e-25	3.089931e-08	1.917464e-26	5.585653e-05	1.075409e-23	6.572682e-08	4.568819e-27
	3.08993e-08	1.917444e-26	0.004955007	1.122706e-25	6.345194e-08	6.200252e-26	5.258382e-05	1.199277e-23
	5.707816e-05	1.044869e-23	6.345195e-08	6.200125e-26	0.004970502	1.06749e-25	2.410873e-08	2.55471e-26
	6.572685e-08	4.569199e-27	5.285367e-05	1.20442e-23	2.410903e-08	2.555269e-26	0.004969549	1.117592e-25
1e+07	0.00663266	-0.005258565	4.838151e-08	9.690645e-08	0.0001811081	0.00128463	1.17754e-07	2.801424e-07
	4.838151e-08	9.690646e-08	0.006625775	-0.005258144	8.021669e-08	2.936168e-07	0.0001788441	0.001285193
	0.0001811778	0.001284598	8.02167e-08	2.936168e-07	0.006628492	-0.005249086	3.566008e-08	1.32454e-07
	1.17754e-07	2.801424e-07	0.0001788464	0.00128519	3.566007e-08	1.32454e-07	0.006621126	-0.00524851
2e+07	0.007326474	-0.01219523	7.681575e-08	1.726457e-07	0.0004586933	0.002505534	2.44716e-07	4.62123e-07
	7.681576e-08	1.726457e-07	0.007298817	-0.01219252	1.19948e-07	5.089179e-07	0.0004496849	0.002507654
	0.0004586781	0.002505497	1.19948e-07	5.089179e-07	0.007328704	-0.01217124	7.85176e-08	1.939024e-07
	2.44716e-07	4.62123e-07	0.0004496817	0.002507655	7.851759e-08	1.939024e-07	0.007299048	-0.01216816
3e+07	0.006537584	-0.01982496	1.102925e-07	2.40516e-07	0.000883156	0.003666093	4.050737e-07	6.147133e-07
	1.102925e-07	2.40516e-07	0.006475854	-0.01981439	1.414943e-07	7.270181e-07	0.0008633143	0.003671585
	0.0008831522	0.003666093	1.414943e-07	7.270181e-07	0.006545037	-0.01979183	1.2049e-07	2.65113e-07
	4.050738e-07	6.147133e-07	0.0008633141	0.003671587	1.2049e-07	2.65113e-07	0.006478951	-0.01978011
4e+07	0.004509938	-0.02747976	1.485466e-07	3.005888e-07	0.001447197	0.00475095	5.958015e-07	7.338091e-07
	1.485466e-07	3.005888e-07	0.004401699	-0.02745372	1.528899e-07	9.466656e-07	0.001412797	0.004762424
	0.001447203	0.004750949	1.528899e-07	9.466656e-07	0.004522177	-0.02743942	1.633132e-07	3.30596e-07
	5.958015e-07	7.338091e-07	0.001412797	0.004762425	1.633132e-07	3.30596e-07	0.004406359	-0.02741103
5e+07	0.001364281	-0.03490761	1.911283e-07	3.525182e-07	0.002139181	0.005742998	8.14471e-07	8.137105e-07
	1.911283e-07	3.525182e-07	0.001198639	-0.03485554	1.571453e-07	1.166896e-06	0.002087073	0.005763773
	0.002139184	0.005742997	1.571453e-07	1.166896e-06	0.001380648	-0.03486137	2.097937e-07	3.879107e-07
	8.14471e-07	8.137105e-07	0.002087074	0.005763773	2.097937e-07	3.879107e-07	0.001203386	-0.03480493
6e+07	-0.002801961	-0.04193187	2.36914e-07	3.956791e-07	0.002944723	0.006626588	1.055108e-06	8.478045e-07
	2.36914e-07	3.956791e-07	-0.00303341	-0.04184124	1.561669e-07	1.388581e-06	0.002872419	0.006660543
	0.002944722	0.00662659	1.561669e-07	1.388581e-06	-0.002782197	-0.04188063	2.595795e-07	4.358896e-07
	1.055108e-06	8.478045e-07	0.00287242	0.006660544	2.595795e-07	4.358896e-07	-0.0030298	-0.04178264
7e+07	-0.007893365	-0.04841065	2.844749e-07	4.295496e-07	0.003847386	0.007388137	1.309508e-06	8.309418e-07
	2.844749e-07	4.295496e-07	-0.008196664	-0.04826773	1.514543e-07	1.612597e-06	0.003753116	0.007439602
	0.003847385	0.007388143	1.514543e-07	1.612597e-06	-0.007870959	-0.04835507	3.113937e-07	4.737312e-07
	1.309508e-06	8.309418e-07	0.003753118	0.007439602	3.113937e-07	4.737312e-07	-0.008195274	-0.04820085
8e+07	-0.01380995	-0.05422495	3.321812e-07	4.538451e-07	0.004829071	0.008016493	1.568127e-06	7.599069e-07
	3.321812e-07	4.53845e-07	-0.01418892	-0.054015	1.443157e-07	1.839572e-06	0.004711843	0.008090133
	0.004829071	0.008016501	1.443157e-07	1.839572e-06	-0.01378572	-0.0541655	3.63578e-07	5.009374e-07
	1.568127e-06	7.599069e-07	0.004711844	0.008090132	3.63578e-07	5.009374e-07	-0.01419082	-0.05393934
9e+07	-0.02044523	-0.05927467	3.783061e-07	4.685903e-07	0.005870477	0.008503351	1.820725e-06	6.335426e-07
	3.783061e-07	4.685903e-07	-0.02090134	-0.05898214	1.359599e-07	2.069918e-06	0.005730121	0.008604048
	0.005870478	0.008503357	1.359599e-07	2.069918e-06	-0.02042005	-0.05921167	4.142811e-07	5.173422e-07
	1.820725e-06	6.335426e-07	0.005730122	0.008604047	4.142811e-07	5.173422e-07	-0.02090756	-0.05889691
1e+08	-0.02768726	-0.06347889	4.211263e-07	4.74138e-07	0.006952488	0.008844845	2.05689e-06	4.52754e-07
	4.211263e-07	4.74138e-07	-0.02821941	-0.0630876	1.275454e-07	2.303863e-06	0.006789697	0.008977568
	0.006952488	0.008844845	1.275454e-07	2.303863e-06	-0.02766217	-0.06341262	4.615779e-07	5.231337e-07
	2.05689e-06	4.52754e-07	0.006789697	0.008977568	4.615779e-07	5.231337e-07	-0.02823097	-0.06299189
1.1e+08	-0.03542217	-0.06676044	4.596646e-07	4.709669e-07	0.008059444	0.009029772	2.271976e-06	2.23781e-07
	4.596646e-07	4.709669e-07	-0.03602541	-0.0662545	1.172789e-07	2.544057e-06	0.007875761	0.00919939
	0.008059444	0.009029772	1.172789e-07	2.544057e-06	-0.03539861	-0.06669007	5.038062e-07	5.201339e-07
	2.271976e-06	2.23781e-07	0.007875759	0.00919939	5.038062e-07	5.201339e-07	-0.03604318	-0.06614639
1.2e+08	-0.04351288	-0.06907223	4.921052e-07	4.59774e-07	0.009159892	0.009059731	2.454932e-06	-5.251999e-08
	4.921052e-07	4.59774e-07	-0.04418016	-0.06843617	1.078521e-07	2.78963e-06	0.008957697	0.009270967
	0.009159892	0.009059731	1.078521e-07	2.78963e-06	-0.0434912	-0.06899697	5.393898e-07	5.083908e-07
	2.454932e-06	-5.251999e-08	0.008957695	0.009270968	5.393898e-07	5.083908e-07	-0.04420395	-0.06831383
1.3e+08	-0.05183405	-0.07038471	5.170582e-07	4.41513e-07	0.01023461	0.008940323	2.597552e-06	-3.712487e-07
	5.170582e-07	4.41513e-07	-0.05255565	-0.06960406	1.003313e-07	3.040711e-06	0.01001711	0.009197578
	0.01023461	0.008940323	1.003313e-07	3.040711e-06	-0.05181461	-0.07030388	5.668143e-07	4.889461e-07
	2.597552e-06	-3.712487e-07	0.01001711	0.009197579	5.668143e-07	4.889461e-07	-0.05258507	-0.06946582
1.4e+08	-0.06025819	-0.07068244	5.332735e-07	4.173606e-07	0.01126429	0.008677988	2.692413e-06	-7.262529e-07
	5.332735e-07	4.173606e-07	-0.06102185	-0.06974413	9.581065e-08	3.297251e-06	0.01103549	0.008985214
	0.01126429	0.008677988	9.581065e-08	3.297251e-06	-0.06024123	-0.07059531	5.847204e-07	4.630847e-07
	2.692413e-06	-7.262529e-07	0.01103549	0.008985215	5.847204e-07	4.630847e-07	-0.06105624	-0.0695884
1.5e+08	-0.0686584	-0.06996567	5.396787e-07	3.886928e-07	0.01223072	0.008281378	2.733056e-06	-1.11025e-06
	5.396787e-07	3.886928e-07	-0.06944957	-0.06885843	9.538387e-08	3.559019e-06	0.0119953	0.008641956
	0.01223072	0.008281378	9.538387e-08	3.559019e-06	-0.06864403	-0.06987148	5.919447e-07	4.323076e-07
	2.733056e-06	-1.11025e-06	0.0119953	0.008641957	5.919447e-07	4.323076e-07	-0.06948798	-0.06868368
1.6e+08	-0.07691023	-0.06825007	5.354107e-07	3.570577e-07	0.01311711	0.007761299	2.714144e-06	-1.514982e-06
	5.354107e-07	3.570577e-07	-0.07771237	-0.06696473	1.001156e-07	3.825594e-06	0.0128804	0.008177923
	0.01311711	0.007761299	1.001156e-07	3.825594e-06	-0.07689842	-0.06814803	5.875533e-07	3.983009e-07
	2.714144e-06	-1.514982e-06	0.0128804	0.008177923	5.875533e-07	3.983009e-07	-0.07775354	-0.06676961
1.7e+08	-0.08489343	-0.06556614	5.198432e-07	3.241428e-07	0.01390844	0.007130493	2.631594e-06	-1.931383e-06
	5.198432e-07	3.241428e-07	-0.08568829	-0.06409599	1.110108e-07	4.09637e-06	0.01367628	0.007605074
	0.01390844	0.007130493	1.110108e-07	4.09637e-06	-0.08488399	-0.06545545	5.708701e-07	3.629001e-07
	2.631594e-06	-1.931383e-06	0.01367628	0.007605075	5.708701e-07	3.629001e-07	-0.08573073	-0.06387928
1.8e+08	-0.09249354	-0.06195835	4.926081e-07	2.917394e-07	0.01459164	0.006403374	2.48268e-06	-2.349774e-06
	4.926081e-07	2.917394e-07	-0.09326156	-0.06029936	1.28982e-07	4.370561e-06	0.01437027	0.006936955
	0.01459164	0.006403374	1.28982e-07	4.370561e-06	-0.09248616	-0.06183825	5.41499e-07	3.280505e-07
	2.48268e-06	-2.349774e-06	0.01437027	0.006936955	5.41499e-07	3.280505e-07	-0.09330355	-0.0600601
1.9e+08	-0.0996034	-0.05748421	4.536106e-07	2.617018e-07	0.01515574	0.00559573	2.266112e-06	-2.760059e-06
	4.536106e-07	2.617018e-07	-0.1003241	-0.05563525	1.548182e-07	4.647213e-06	0.01495167	0.006188419
	0.01515574	0.00559573	1.548182e-07	4.647213e-06	-0.0995976	-0.05735397	4.993403e-07	2.957644e-07
	2.266112e-06	-2.760059e-06	0.01495167	0.006188419	4.993403e-07	2.957644e-07	-0.1003637	-0.05537272
2e+08	-0.1061245	-0.05221308	4.030383e-07	2.359065e-07	0.01559204	0.004724422	1.982083e-06	-3.151931e-06
	4.030383e-07	2.359065e-07	-0.1067769	-0.0501761	1.891548e-07	4.925226e-06	0.0154119	0.005375348
	0.01559204	0.004724422	1.891548e-07	4.925226e-06	-0.1061196	-0.05207206	4.445985e-07	2.680762e-07
	1.982083e-06	-3.151931e-06	0.0154119	0.005375348	4.445985e-07	2.680762e-07	-0.106812	-0.04988988
2.1e+08	-0.111968	-0.04622502	3.413639e-07	2.16209e-07	0.01589412	0.003807079	1.632285e-06	-3.515082e-06
	3.413639e-07	2.16209e-07	-0.112531	-0.04400508	2.324462e-07	5.203376e-06	0.01574453	0.004514365
	0.01589412	0.003807079	2.324462e-07	5.203376e-06	-0.1119634	-0.04607265	3.777856e-07	2.469967e-07
	1.632285e-06	-3.515082e-06	0.01574453	0.004514365	3.777856e-07	2.469967e-07	-0.1125594	-0.04369507
2.2e+08	-0.1170559	-0.03960941	2.693404e-07	2.044018e-07	0.01605787	0.002861802	1.219903e-06	-3.839411e-06
	2.693404e-07	2.044018e-07	-0.117509	-0.03721475	2.849443e-07	5.480351e-06	0.01594529	0.003622558
	0.01605787	0.002861802	2.849443e-07	5.480351e-06	-0.1170507	-0.03944525	2.997153e-07	2.344685e-07
	1.219903e-06	-3.839411e-06	0.01594529	0.003622558	2.997153e-07	2.344685e-07	-0.1175285	-0.03688118
2.3e+08	-0.121322	-0.03246353	1.879911e-07	2.021728e-07	0.01608154	0.001906871	7.495768e-07	-4.115222e-06
	1.879911e-07	2.021728e-07	-0.1216454	-0.02990552	3.466816e-07	5.754781e-06	0.01601209	0.002717219
	0.01608154	0.001906871	3.466816e-07	5.754781e-06	-0.1213152	-0.03228726	2.114922e-07	2.323216e-07
	7.495768e-07	-4.115222e-06	0.01601209	0.002717219	2.114922e-07	2.323216e-07	-0.1216536	-0.02954897
2.4e+08	-0.1247121	-0.02489119	9.859324e-08	2.110666e-07	0.01596564	0.000960481	2.273431e-07	-4.333426e-06
	9.859324e-08	2.110666e-07	-0.1248875	-0.0221842	4.174606e-07	6.025279e-06	0.01594498	0.00181559
	0.01596564	0.000960481	4.174606e-07	6.025279e-06	-0.1247029	-0.02470263	1.144941e-07	2.422322e-07
	2.273431e-07	-4.333426e-06	0.01594498	0.00181559	1.144941e-07	2.422322e-07	-0.1248822	-0.02180562
2.5e+08	-0.1271852	-0.01700116	2.655728e-09	2.324478e-07	0.0157129	4.048034e-05	-3.394491e-07	-4.485717e-06
	2.655728e-09	2.324478e-07	-0.1271959	-0.01416244	4.968512e-07	6.290478e-06	0.01574608	0.0009346321
	0.0157129	4.04803e-05	4.968512e-07	6.290478e-06	-0.1271725	-0.01680028	1.034889e-08	2.656842e-07
	-3.394491e-07	-4.485717e-06	0.01574608	0.000934632	1.034889e-08	2.656842e-07	-0.127175	-0.01376309
2.6e+08	-0.1287133	-0.008905729	-9.810704e-08	2.67469e-07	0.01532817	-0.0008358662	-9.422426e-07	-4.564754e-06
	-9.810704e-08	2.67469e-07	-0.1285448	-0.0059551	5.841946e-07	6.549078e-06	0.01541949	9.080372e-05
	0.01532817	-0.0008358662	5.841946e-07	6.549078e-06	-0.128696	-0.008692664	-9.90937e-08	3.039343e-07
	-9.422426e-07	-4.564754e-06	0.01541949	9.080368e-05	-9.90937e-08	3.039343e-07	-0.1285064	-0.005536613
2.7e+08	-0.1292818	-0.0007191338	-2.018063e-07	3.170421e-07	0.01481837	-0.001652101	-1.571397e-06	-4.564315e-06
	-2.018063e-07	3.170421e-07	-0.1289224	0.002321228	6.786151e-07	6.799876e-06	0.01497126	-0.0007001403
	0.01481837	-0.001652101	6.786151e-07	6.799876e-06	-0.1292588	-0.0004941755	-2.117944e-07	3.57982e-07
	-1.571397e-06	-4.564315e-06	0.01497126	-0.0007001403	-2.117944e-07	3.57982e-07	-0.1288646	0.00275692
2.8e+08	-0.1288897	0.007443919	-3.064131e-07	3.818147e-07	0.01419228	-0.002392779	-2.216333e-06	-4.479445e-06
	-3.064131e-07	3.818147e-07	-0.1283304	0.01054987	7.790388e-07	7.041811e-06	0.0144092	-0.001423339
	0.01419228	-0.002392779	7.790388e-07	7.041811e-06	-0.1288599	0.007680318	-3.255606e-07	4.285437e-07
	-2.216333e-06	-4.479445e-06	0.0144092	-0.001423339	-3.255606e-07	4.285437e-07	-0.1282517	0.01100054
2.9e+08	-0.127549	0.01546975	-4.097956e-07	4.621512e-07	0.01346048	-0.003043662	-2.865688e-06	-4.306582e-06
	-4.097956e-07	4.621512e-07	-0.1267842	0.01861556	8.842193e-07	7.273993e-06	0.01374282	-0.002065003
	0.01346048	-0.003043662	8.842193e-07	7.273993e-06	-0.1275116	0.01571699	-4.380858e-07	5.160322e-07
	-2.865688e-06	-4.306582e-06	0.01374282	-0.002065003	-4.380858e-07	5.160322e-07	-0.1266834	0.01907873
3e+08	-0.1252852	0.02324719	-5.097582e-07	5.581192e-07	0.0126352	-0.003591897	-3.507496e-06	-4.043669e-06
	-5.097582e-07	5.581192e-07	-0.1243128	0.02640597	9.927683e-07	7.495729e-06	0.01298321	-0.00261258
	0.0126352	-0.003591897	9.927683e-07	7.495729e-06	-0.1252393	0.0235045	-5.469907e-07	6.205415e-07
	-3.507496e-06	-4.043669e-06	0.01298321	-0.00261258	-5.469907e-07	6.205415e-07	-0.1241889	0.02687895
3.1e+08	-0.1221364	0.03066901	-6.04082e-07	6.69482e-07	0.0117301	-0.00402618	-4.129378e-06	-3.690242e-06
	-6.04082e-07	6.69482e-07	-0.1209578	0.0338132	1.103192e-06	7.706552e-06	0.01214284	-0.003054908
	0.0117301	-0.00402618	1.103192e-06	7.706552e-06	-0.122081	0.03093548	-6.498663e-07	7.418368e-07
	-4.129378e-06	-3.690242e-06	0.01214284	-0.003054908	-6.498663e-07	7.418368e-07	-0.1208102	0.03429313
3.2e+08	-0.1181526	0.03763328	-6.905656e-07	7.956949e-07	0.01076017	-0.004336915	-4.718739e-06	-3.247505e-06
	-6.905656e-07	7.956949e-07	-0.1167732	0.04073516	1.213928e-06	7.906225e-06	0.0112355	-0.003382368
	0.01076017	-0.004336915	1.213928e-06	7.906225e-06	-0.1180872	0.03790788	-7.443181e-07	8.793508e-07
	-4.718739e-06	-3.247505e-06	0.0112355	-0.003382368	-7.443181e-07	8.793508e-07	-0.1166019	0.04121902
3.3e+08	-0.1133956	0.04404469	-7.670679e-07	9.35905e-07	0.009741528	-0.004516352	-5.262984e-06	-2.718367e-06
	-7.670679e-07	9.35905e-07	-0.1118246	0.04707687	1.323387e-06	8.094756e-06	0.01027606	-0.00358702
	0.009741528	-0.004516352	1.323387e-06	8.094756e-06	-0.1133195	0.04432627	-8.280102e-07	1.032184e-06
	-5.262984e-06	-2.718367e-06	0.01027606	-0.00358702	-8.280102e-07	1.032184e-06	-0.1116298	0.04756162
3.4e+08	-0.1079378	0.04981584	-8.315477e-07	1.088963e-06	0.008691183	-0.004558722	-5.749743e-06	-2.107475e-06
	-8.315477e-07	1.088963e-06	-0.1061883	0.05275181	1.429995e-06	8.272396e-06	0.009280331	-0.003662729
	0.008691183	-0.004558722	1.429995e-06	8.272396e-06	-0.1078507	0.0501032	-8.987084e-07	1.199116e-06
	-5.749743e-06	-2.107475e-06	0.009280331	-0.003662729	-8.987084e-07	1.199116e-06	-0.1059706	0.05323443
3.5e+08	-0.1018613	0.05486838	-8.821035e-07	1.253435e-06	0.007626862	-0.004460346	-6.167095e-06	-1.421199e-06
	-8.821035e-07	1.253435e-06	-0.09995017	0.05768306	1.532227e-06	8.43963e-06	0.008264878	-0.003605285
	0.007626862	-0.004460346	1.532227e-06	8.43963e-06	-0.1017628	0.05516021	-9.543254e-07	1.378607e-06
	-6.167095e-06	-1.421199e-06	0.008264878	-0.003605285	-9.543254e-07	1.378607e-06	-0.09971077	0.05816055
3.6e+08	-0.09525694	0.05913409	-9.170117e-07	1.427617e-06	0.006566761	-0.004219739	-6.503807e-06	-6.676052e-07
	-9.170117e-07	1.427617e-06	-0.09320467	0.06180435	1.628651e-06	8.597162e-06	0.007246792	-0.003412508
	0.006566761	-0.004219739	1.628651e-06	8.597162e-06	-0.09514708	0.05942903	-9.929613e-07	1.568825e-06
	-6.503807e-06	-6.676052e-07	0.007246792	-0.003412508	-9.929613e-07	1.568825e-06	-0.09294511	0.06227382
3.7e+08	-0.08822303	0.06255586	-9.347616e-07	1.609563e-06	0.005529294	-0.003837686	-6.749567e-06	1.436093e-07
	-9.347616e-07	1.609563e-06	-0.08605357	0.06506105	1.717955e-06	8.745898e-06	0.006243471	-0.00308433
	0.005529294	-0.003837686	1.717955e-06	8.745898e-06	-0.0881019	0.06285253	-1.012943e-06	1.767668e-06
	-6.749567e-06	1.436093e-07	0.006243471	-0.00308433	-1.012943e-06	1.767668e-06	-0.08577581	0.0655198
3.8e+08	-0.08086416	0.06508852	-9.340887e-07	1.797103e-06	0.004532826	-0.003317296	-6.895214e-06	1.001214e-06
	-9.340887e-07	1.797103e-06	-0.07860457	0.06741095	1.798976e-06	8.886915e-06	0.005272372	-0.002622865
	0.004532826	-0.003317296	1.798976e-06	8.886915e-06	-0.08073205	0.06538554	-1.012861e-06	1.972787e-06
	-6.895214e-06	1.001214e-06	0.005272372	-0.002622865	-1.012861e-06	1.972787e-06	-0.07831096	0.06785649
3.9e+08	-0.0732897	0.06669957	-9.140042e-07	1.987883e-06	0.00359539	-0.002664027	-6.932969e-06	1.892571e-06
	-9.140042e-07	1.987883e-06	-0.07096978	0.06882497	1.870723e-06	9.021438e-06	0.004350745	-0.002032445
	0.00359539	-0.002664027	1.870723e-06	9.021438e-06	-0.07314711	0.06699555	-9.916027e-07	2.181621e-06
	-6.932969e-06	1.892571e-06	0.004350745	-0.002032445	-9.916027e-07	2.181621e-06	-0.07066307	0.06925511
4e+08	-0.06561239	0.06736969	-8.738218e-07	2.179392e-06	0.002734388	-0.001885679	-6.856645e-06	2.8038e-06
	-8.738218e-07	2.179392e-06	-0.06326426	0.06928762	1.93239e-06	9.150803e-06	0.003495357	-0.001319627
	0.002734388	-0.001885679	1.93239e-06	9.150803e-06	-0.06545998	0.06766332	-9.483854e-07	2.391432e-06
	-6.856645e-06	2.8038e-06	0.003495357	-0.001319627	-9.483854e-07	2.391432e-06	-0.06294749	0.06970051
4.1e+08	-0.05794671	0.06709319	-8.131793e-07	2.369e-06	0.001966283	-0.0009923489	-6.661848e-06	3.71997e-06
	-8.131793e-07	2.369e-06	-0.05560432	0.0687974	1.983366e-06	9.276429e-06	0.002722193	-0.0004931734
	0.001966283	-0.0009923489	1.983366e-06	9.276429e-06	-0.05778536	0.0673832	-8.827789e-07	2.59935e-06
	-6.661848e-06	3.71997e-06	0.002722193	-0.0004931734	-8.827789e-07	2.59935e-06	-0.05528085	0.06919158
4.2e+08	-0.0504073	0.06587815	-7.320571e-07	2.554004e-06	0.001306287	3.660389e-06	-6.34615e-06	4.625334e-06
	-7.320571e-07	2.554004e-06	-0.04810587	0.06736689	2.023236e-06	9.399783e-06	0.002046166	0.0004360249
	0.001306287	3.660389e-06	2.023236e-06	9.399783e-06	-0.05023806	0.06616339	-7.947289e-07	2.802411e-06
	-6.34615e-06	4.625334e-06	0.002046166	0.0004360249	-7.947289e-07	2.802411e-06	-0.04777931	0.06774134
4.3e+08	-0.04310729	0.06374649	-6.307916e-07	2.731665e-06	0.000768047	0.001087972	-5.909236e-06	5.503578e-06
	-6.307916e-07	2.731665e-06	-0.04088275	0.06502269	2.051779e-06	9.522353e-06	0.001480806	0.001455054
	0.000768047	0.001087972	2.051779e-06	9.522353e-06	-0.04293138	0.06402592	-6.84573e-07	2.997607e-06
	-5.909236e-06	5.503578e-06	0.001480806	0.001455054	-6.84573e-07	2.997607e-06	-0.04055686	0.06537686
4.4e+08	-0.03615662	0.06073373	-5.100834e-07	2.899257e-06	0.0003633474	0.002244319	-5.353023e-06	6.338119e-06
	-5.100834e-07	2.899257e-06	-0.03404494	0.06180521	2.068959e-06	9.645623e-06	0.001037974	0.002549139
	0.0003633474	0.002244319	2.068959e-06	9.645623e-06	-0.03597542	0.06100646	-5.530513e-07	3.181941e-06
	-5.353023e-06	6.338119e-06	0.001037974	0.002549139	-5.530513e-07	3.181941e-06	-0.03372364	0.06213903
4.5e+08	-0.02966038	0.05688864	-3.71001e-07	3.05411e-06	0.0001018201	0.003454775	-4.681729e-06	7.112404e-06
	-3.71001e-07	3.05411e-06	-0.02769692	0.05776809	2.074911e-06	9.771046e-06	0.0007275754	0.003701847
	0.0001018201	0.003454775	2.074911e-06	9.771046e-06	-0.02947541	0.05715395	-4.013114e-07	3.352471e-06
	-4.681729e-06	7.112404e-06	0.0007275754	0.003701847	-4.013114e-07	3.352471e-06	-0.02738418	0.05808205
4.6e+08	-0.02371718	0.05227259	-2.149781e-07	3.193663e-06	-9.310117e-06	0.004700039	-3.901906e-06	7.810244e-06
	-2.149781e-07	3.193663e-06	-0.02193603	0.05297761	2.069932e-06	9.900031e-06	0.000557311	0.004895349
	-9.310108e-06	0.004700039	2.069932e-06	9.900031e-06	-0.02353007	0.05252995	-2.309063e-07	3.506371e-06
	-3.901906e-06	7.810244e-06	0.000557311	0.004895349	-2.309063e-07	3.506371e-06	-0.02163581	0.05327271
4.7e+08	-0.01841757	0.04695874	-4.380539e-08	3.31551e-06	3.455208e-05	0.005959755	-3.022423e-06	8.416148e-06
	-4.380539e-08	3.31551e-06	-0.01685089	0.04751168	2.054461e-06	1.003393e-05	0.0005324487	0.006110711
	3.455208e-05	0.005959755	2.054461e-06	1.003393e-05	-0.01823006	0.04720783	-4.378573e-08	3.640986e-06
	-3.022423e-06	8.416148e-06	0.0005324487	0.006110711	-4.378573e-08	3.640986e-06	-0.01656706	0.04778947
4.8e+08	-0.01384262	0.04103102	1.403841e-07	3.417449e-06	0.0002351978	0.007212888	-2.054396e-06	8.915667e-06
	1.403841e-07	3.417449e-06	-0.01251996	0.04145876	2.029066e-06	1.017403e-05	0.0006556456	0.007328244
