!$
! Info: Touchstone file created by Circ.  Input file=Tx_6in_Rx_100ohms_TxVia_60mils_RxVia_70mils.circ
!$
# Hz S RI R 50
0	0.006352413	9.441172e-26	1.66084e-09	2.118504e-27	5.329212e-05	1.23873e-23	-1.412194e-10	6.346872e-26
	1.660854e-09	2.118508e-27	0.006348153	1.118894e-25	4.520235e-09	7.336691e-27	5.241654e-05	1.540898e-23
	5.24239e-05	1.233194e-23	4.520235e-09	7.336694e-27	0.006366251	9.547622e-26	3.732847e-09	2.242283e-27
	-1.409286e-10	6.343311e-26	5.268632e-05	1.547506e-23	3.732765e-09	2.242265e-27	0.006362654	1.113799e-25
1e+07	0.009130695	0.004490668	2.095847e-09	3.769625e-09	0.0003725334	0.0013072	-3.739933e-09	1.150891e-08
	2.095847e-09	3.769625e-09	0.009221558	0.004486623	6.586657e-09	1.328697e-08	0.000370371	0.001305468
	0.0003725177	0.001307214	6.586657e-09	1.328697e-08	0.009241078	0.004494109	-2.013913e-09	1.229514e-08
	-3.739933e-09	1.150891e-08	0.0003703734	0.001305465	-2.013912e-09	1.229514e-08	0.00914346	0.004499805
2e+07	0.0117503	0.006875428	2.849634e-09	6.852374e-09	0.0005344819	0.002685136	1.670106e-09	3.941021e-09
	2.849634e-09	6.852374e-09	0.01180662	0.006834788	8.971231e-09	2.357255e-08	0.0005261199	0.002682626
	0.0005344887	0.002685145	8.971231e-09	2.357255e-08	0.01184173	0.006847128	-1.870365e-10	6.260393e-09
	1.670106e-09	3.941021e-09	0.0005261167	0.002682626	-1.870364e-10	6.260393e-09	0.01175446	0.006891904
3e+07	0.0140474	0.008261345	3.578794e-09	9.538173e-09	0.0008715015	0.003920443	2.741671e-09	6.056101e-09
	3.578794e-09	9.538173e-09	0.01406588	0.008211291	1.070516e-08	3.332917e-08	0.000853094	0.003918809
	0.0008715025	0.003920443	1.070516e-08	3.332917e-08	0.01412563	0.00822422	3.357785e-09	9.54194e-09
	2.74167e-09	6.056101e-09	0.0008530937	0.003918811	3.357785e-09	9.54194e-09	0.01403591	0.008287618
4e+07	0.01621278	0.009148787	4.330471e-09	1.213568e-08	0.001380027	0.005064108	3.542391e-09	7.666988e-09
	4.330471e-09	1.213568e-08	0.01618827	0.009099839	1.235037e-08	4.282497e-08	0.001348073	0.0050657
	0.001380025	0.005064109	1.235037e-08	4.282497e-08	0.01628129	0.009107954	4.17917e-09	1.234853e-08
	3.542391e-09	7.666988e-09	0.001348074	0.005065701	4.17917e-09	1.234853e-08	0.01617897	0.009187592
5e+07	0.0182967	0.00965811	5.109213e-09	1.459831e-08	0.002128297	0.006077928	4.350173e-09	9.115183e-09
	5.109213e-09	1.459831e-08	0.01822431	0.009620065	1.390246e-08	5.208287e-08	0.002079777	0.0060856
	0.002128295	0.006077929	1.390246e-08	5.208287e-08	0.01835813	0.009615747	4.788711e-09	1.485296e-08
	4.350173e-09	9.115183e-09	0.002079778	0.006085601	4.788711e-09	1.485296e-08	0.01823416	0.009714317
6e+07	0.02031158	0.009846935	5.900611e-09	1.691351e-08	0.002981607	0.006977206	5.189338e-09	1.041538e-08
	5.900611e-09	1.691351e-08	0.02018779	0.009829668	1.536816e-08	6.113254e-08	0.002914065	0.006994414
	0.002981605	0.006977205	1.536816e-08	6.113254e-08	0.02036806	0.009803998	5.360739e-09	1.722916e-08
	5.189338e-09	1.041538e-08	0.002914066	0.006994415	5.360739e-09	1.722916e-08	0.02021541	0.009926651
7e+07	0.02225409	0.009749494	6.665334e-09	1.906567e-08	0.003925902	0.007751528	6.000482e-09	1.153361e-08
	6.665334e-09	1.906567e-08	0.02207665	0.009762903	1.671578e-08	6.99617e-08	0.003837499	0.007782151
	0.003925899	0.007751527	1.671578e-08	6.99617e-08	0.02230734	0.009706316	5.902122e-09	1.949938e-08
	6.000482e-09	1.153361e-08	0.003837501	0.007782151	5.902122e-09	1.949938e-08	0.0221205	0.009859321
8e+07	0.02411367	0.009390899	7.366828e-09	2.10533e-08	0.004945104	0.008391151	6.743373e-09	1.247815e-08
	7.366828e-09	2.10533e-08	0.02388153	0.009445106	1.793299e-08	7.860218e-08	0.00483467	0.008439394
	0.0049451	0.00839115	1.793299e-08	7.860218e-08	0.02416516	0.009347486	6.406453e-09	2.166807e-08
	6.743373e-09	1.247815e-08	0.004834671	0.008439393	6.406453e-09	2.166807e-08	0.0239397	0.00953798
9e+07	0.02587709	0.008793422	7.991195e-09	2.290072e-08	0.006021193	0.008887372	7.422985e-09	1.328814e-08
	7.991194e-09	2.290072e-08	0.02559057	0.008899023	1.902895e-08	8.71096e-08	0.005888263	0.008957669
	0.006021189	0.008887372	1.902895e-08	8.71096e-08	0.02592815	0.008749711	6.88983e-09	2.375242e-08
	7.422985e-09	1.328814e-08	0.005888264	0.008957668	6.88983e-09	2.375242e-08	0.02566066	0.008985619
1e+08	0.02753677	0.007986308	8.517688e-09	2.461169e-08	0.007131666	0.009229408	8.016191e-09	1.39975e-08
	8.517688e-09	2.461169e-08	0.02719862	0.008155281	1.999382e-08	9.550545e-08	0.006976505	0.00932633
	0.007131666	0.009229408	1.999382e-08	9.550545e-08	0.02758946	0.007943189	7.364227e-09	2.573763e-08
	8.016191e-09	1.39975e-08	0.006976505	0.00932633	7.364227e-09	2.573763e-08	0.02727698	0.008232201
1.1e+08	0.0291015	0.006935394	9.063996e-09	2.62578e-08	0.008244901	0.009439209	8.581036e-09	1.462498e-08
	9.063996e-09	2.62578e-08	0.0287198	0.007173182	2.09264e-08	1.03885e-07	0.008068617	0.00956735
	0.008244901	0.009439209	2.09264e-08	1.03885e-07	0.02916035	0.006887596	7.764384e-09	2.767124e-08
	8.581036e-09	1.462498e-08	0.008068615	0.00956735	7.764384e-09	2.767124e-08	0.02880011	0.007243452
1.2e+08	0.03049434	0.005674401	9.505432e-09	2.783784e-08	0.009370524	0.009509156	9.05219e-09	1.512273e-08
	9.505432e-09	2.783784e-08	0.03007113	0.005988084	2.174587e-08	1.122184e-07	0.009174945	0.009672929
	0.009370524	0.009509156	2.174587e-08	1.122184e-07	0.03055676	0.005618415	8.078027e-09	2.957226e-08
	9.05219e-09	1.512273e-08	0.009174943	0.00967293	8.078027e-09	2.957226e-08	0.03015373	0.006053379
1.3e+08	0.03170712	0.004238083	9.831549e-09	2.935396e-08	0.0104857	0.009433555	9.405803e-09	1.552076e-08
	9.831549e-09	2.935396e-08	0.03124691	0.004635753	2.245051e-08	1.205207e-07	0.01027338	0.009637158
	0.0104857	0.009433555	2.245051e-08	1.205207e-07	0.03177113	0.004172072	8.300358e-09	3.144078e-08
	9.405803e-09	1.552076e-08	0.01027338	0.009637159	8.300358e-09	3.144078e-08	0.03133124	0.004696434
1.4e+08	0.0327272	0.002652175	1.003258e-08	3.082298e-08	0.01157058	0.009213999	9.625148e-09	1.58411e-08
	1.003258e-08	3.082298e-08	0.03223616	0.003141593	2.304104e-08	1.288123e-07	0.01134479	0.009461293
	0.01157058	0.009213999	2.304104e-08	1.288123e-07	0.03279079	0.002574887	8.427042e-09	3.329049e-08
	9.625148e-09	1.58411e-08	0.01134479	0.009461294	8.427042e-09	3.329049e-08	0.03232143	0.003197843
1.5e+08	0.03354299	0.0009419175	1.010069e-08	3.226372e-08	0.01260624	0.008855245	9.696809e-09	1.610573e-08
	1.010069e-08	3.226372e-08	0.03302873	0.001530125	2.352016e-08	1.371135e-07	0.01237089	0.009149647
	0.01260624	0.008855245	2.352016e-08	1.371135e-07	0.03360405	0.0008525453	8.455207e-09	3.513621e-08
	9.696809e-09	1.610573e-08	0.01237089	0.009149648	8.455207e-09	3.513621e-08	0.03311412	0.001582131
1.6e+08	0.03414482	-0.0008671308	1.003044e-08	3.369663e-08	0.0135747	0.008364673	9.610553e-09	1.633794e-08
	1.003044e-08	3.369663e-08	0.03361624	-0.0001740751	2.389254e-08	1.454439e-07	0.0133343	0.008709056
	0.0135747	0.008364673	2.389254e-08	1.454439e-07	0.03420116	-0.0009689984	8.383778e-09	3.699361e-08
	9.610553e-09	1.633794e-08	0.0133343	0.008709057	8.383778e-09	3.699361e-08	0.03370087	-0.0001260717
1.7e+08	0.03452523	-0.002748954	9.818983e-09	3.514314e-08	0.01445918	0.007752026	9.359418e-09	1.656226e-08
	9.818983e-09	3.514314e-08	0.03399236	-0.001946193	2.416486e-08	1.538229e-07	0.01421877	0.008148629
	0.01445918	0.007752026	2.416486e-08	1.538229e-07	0.03457462	-0.002863346	8.213596e-09	3.887869e-08
	9.359418e-09	1.656226e-08	0.01421877	0.008148629	8.213596e-09	3.887869e-08	0.03407536	-0.001901863
1.8e+08	0.03467924	-0.004677139	9.466237e-09	3.662533e-08	0.01524436	0.007029187	8.939823e-09	1.680406e-08
	9.466237e-09	3.662533e-08	0.03415306	-0.003761213	2.434582e-08	1.622687e-07	0.01500938	0.007479532
	0.01524436	0.007029187	2.434582e-08	1.622687e-07	0.03471945	-0.004803718	7.947469e-09	4.080751e-08
	8.939823e-09	1.680406e-08	0.01500938	0.007479533	7.947469e-09	4.080751e-08	0.03423358	-0.003720123
1.9e+08	0.03460452	-0.006625052	8.974944e-09	3.816552e-08	0.01591659	0.006209953	8.351658e-09	1.708927e-08
	8.974944e-09	3.816552e-08	0.03409672	-0.005594049	2.444606e-08	1.707986e-07	0.01569281	0.006714785
	0.01591659	0.006209953	2.444606e-08	1.707986e-07	0.03463335	-0.00676312	7.590177e-09	4.279592e-08
	8.351658e-09	1.708927e-08	0.01569281	0.006714785	7.590177e-09	4.279592e-08	0.03417397	-0.005555671
2e+08	0.03430144	-0.008566082	8.350733e-09	3.978597e-08	0.01646414	0.005309794	7.598324e-09	1.74439e-08
	8.350733e-09	3.978597e-08	0.03382423	-0.007419766	2.447818e-08	1.794288e-07	0.01625753	0.005869024
	0.01646414	0.005309794	2.447818e-08	1.794288e-07	0.03431677	-0.008714586	7.14846e-09	4.485936e-08
	7.598324e-09	1.74439e-08	0.01625753	0.005869024	7.14846e-09	4.485936e-08	0.03389749	-0.007383467
2.1e+08	0.03377317	-0.01047389	7.602156e-09	4.150857e-08	0.01687736	0.004345591	6.68675e-09	1.789363e-08
	7.602156e-09	4.150857e-08	0.03333902	-0.00921379	2.445664e-08	1.881738e-07	0.01669399	0.004958261
	0.01687736	0.004345591	2.445664e-08	1.881738e-07	0.03377302	-0.01063144	6.630998e-09	4.70127e-08
	6.68675e-09	1.789363e-08	0.01669399	0.004958261	6.630998e-09	4.70127e-08	0.03340764	-0.009178852
2.2e+08	0.03302565	-0.0123227	6.740693e-09	4.335446e-08	0.01714888	0.003335348	5.627354e-09	1.846346e-08
	6.740693e-09	4.335446e-08	0.03264702	-0.01095216	2.439767e-08	1.970469e-07	0.01699478	0.003999613
	0.01714888	0.003335348	2.439767e-08	1.970469e-07	0.0330082	-0.01248759	6.048392e-09	4.926996e-08
	5.627354e-09	1.846346e-08	0.01699478	0.003999613	6.048392e-09	4.926996e-08	0.03271047	-0.01091779
2.3e+08	0.03206761	-0.01408759	5.780748e-09	4.534375e-08	0.01727371	0.002297898	4.433973e-09	1.91772e-08
	5.780748e-09	4.534375e-08	0.0317567	-0.0126118	2.43192e-08	2.060593e-07	0.01715474	0.003011022
	0.01727371	0.002297898	2.43192e-08	2.060593e-07	0.03203125	-0.01425781	5.413138e-09	5.164423e-08
	4.433973e-09	1.91772e-08	0.01715474	0.003011022	5.413138e-09	5.164423e-08	0.03181454	-0.01257711
2.4e+08	0.03091043	-0.01574479	4.739606e-09	4.749513e-08	0.01724932	0.001252588	3.12376e-09	2.005716e-08
	4.739606e-09	4.749513e-08	0.03067889	-0.01417073	2.424069e-08	2.152203e-07	0.01717106	0.002010961
	0.01724932	0.001252588	2.424069e-08	2.152203e-07	0.03085381	-0.01591805	4.739598e-09	5.414737e-08
	3.12376e-09	2.005716e-08	0.01717106	0.002010961	4.739598e-09	5.414737e-08	0.03073082	-0.01413483
2.5e+08	0.02956807	-0.01727197	3.637377e-09	4.982555e-08	0.01707571	0.0002189562	1.71703e-09	2.112364e-08
	3.637377e-09	4.982555e-08	0.02942677	-0.01560841	2.418304e-08	2.245369e-07	0.01704333	0.001018128
	0.01707571	0.0002189562	2.418304e-08	2.245369e-07	0.02949014	-0.01744577	4.043966e-09	5.678982e-08
	1.71703e-09	2.112364e-08	0.01704333	0.001018128	4.043966e-09	5.678982e-08	0.0294726	-0.01557032
2.6e+08	0.0280569	-0.01864854	2.496893e-09	5.234975e-08	0.01675542	-0.0007835918	2.370796e-10	2.239462e-08
	2.496893e-09	5.234975e-08	0.02801564	-0.01690588	2.416833e-08	2.340139e-07	0.01677352	5.114021e-05
	0.01675542	-0.0007835918	2.416833e-08	2.340139e-07	0.02795693	-0.01882016	3.344209e-09	5.958039e-08
	2.370796e-10	2.239462e-08	0.01677352	5.114017e-05	3.344209e-09	5.958039e-08	0.02805532	-0.01686463
2.7e+08	0.0263955	-0.01985591	1.343555e-09	5.507993e-08	0.01629346	-0.001736106	-1.290045e-09	2.388529e-08
	1.343555e-09	5.507993e-08	0.02646279	-0.01804608	2.421969e-08	2.436532e-07	0.016366	-0.0008717726
	0.01629346	-0.001736106	2.421969e-08	2.436532e-07	0.02627314	-0.02002249	2.659985e-09	6.252589e-08
	-1.290045e-09	2.388529e-08	0.016366	-0.0008717726	2.659985e-09	6.252589e-08	0.02649639	-0.0180007
2.8e+08	0.02460446	-0.02087773	2.051238e-10	5.802526e-08	0.01569729	-0.002620412	-2.835823e-09	2.56077e-08
	2.051238e-10	5.802527e-08	0.02478728	-0.01901402	2.436096e-08	2.53454e-07	0.01582746	-0.001733069
	0.01569729	-0.002620412	2.436096e-08	2.53454e-07	0.02445973	-0.0210363	2.012513e-09	6.563091e-08
	-2.835823e-09	2.56077e-08	0.01582746	-0.001733069	2.012513e-09	6.563091e-08	0.02481503	-0.01896352
2.9e+08	0.02270611	-0.02170013	-8.88561e-10	6.119152e-08	0.01497663	-0.003419413	-4.369591e-09	2.757036e-08
	-8.88561e-10	6.119152e-08	0.02300969	-0.01979696	2.461648e-08	2.634123e-07	0.01516677	-0.002516188
	0.01497663	-0.003419413	2.461648e-08	2.634123e-07	0.02253943	-0.02184765	1.424395e-09	6.889747e-08
	-4.369591e-09	2.757036e-08	0.01516677	-0.002516188	1.424395e-09	6.889747e-08	0.02303194	-0.01974042
3e+08	0.02072421	-0.02231187	-1.905943e-09	6.458057e-08	0.01414339	-0.004117385	-5.858933e-09	2.977792e-08
	-1.905943e-09	6.458057e-08	0.0211519	-0.0203846	2.501067e-08	2.73521e-07	0.0143949	-0.003205823
	0.01414339	-0.004117385	2.501067e-08	2.73521e-07	0.02053643	-0.02244533	9.193658e-10	7.232466e-08
	-5.858933e-09	2.977792e-08	0.0143949	-0.003205823	9.193658e-10	7.232466e-08	0.02116912	-0.02032114
3.1e+08	0.01868369	-0.02270456	-2.814198e-09	6.819005e-08	0.01321143	-0.00470024	-7.270124e-09	3.223076e-08
	-2.814198e-09	6.819005e-08	0.01923678	-0.02076921	2.556764e-08	2.837695e-07	0.01352468	-0.003788181
	0.01321143	-0.00470024	2.556764e-08	2.837695e-07	0.01847608	-0.02282099	5.219791e-10	7.590839e-08
	-7.270124e-09	3.223076e-08	0.01352468	-0.003788181	5.219791e-10	7.590839e-08	0.01924957	-0.020698
3.2e+08	0.01661029	-0.02287274	-3.579779e-09	7.201296e-08	0.01219632	-0.005155773	-8.568653e-09	3.492479e-08
	-3.579779e-09	7.201296e-08	0.0172879	-0.02094571	2.631079e-08	2.941438e-07	0.01257065	-0.004251214
	0.01219632	-0.005155773	2.631079e-08	2.941438e-07	0.01638453	-0.02296929	2.571971e-10	7.964103e-08
	-8.568653e-09	3.492479e-08	0.01257065	-0.004251214	2.571971e-10	7.964103e-08	0.01729697	-0.02086603
3.3e+08	0.01453022	-0.02281399	-4.169055e-09	7.603736e-08	0.01111517	-0.005473871	-9.719798e-09	3.785115e-08
	-4.169055e-09	7.603736e-08	0.01532926	-0.02091178	2.726225e-08	3.046264e-07	0.0115488	-0.004584824
	0.01111517	-0.005473871	2.726225e-08	3.046264e-07	0.01428839	-0.02288797	1.499044e-10	8.351118e-08
	-9.719798e-09	3.785115e-08	0.0115488	-0.004584824	1.499044e-10	8.351118e-08	0.01533541	-0.02082299
3.4e+08	0.01246983	-0.02252893	-4.549025e-09	8.024616e-08	0.009986231	-0.005646695	-1.068926e-08	4.099606e-08
	-4.549025e-09	8.024616e-08	0.01338491	-0.02066784	2.844242e-08	3.151962e-07	0.0104763	-0.004781035
	0.009986231	-0.005646695	2.844242e-08	3.151962e-07	0.01221441	-0.02257791	2.243497e-10	8.750348e-08
	-1.068926e-08	4.099606e-08	0.0104763	-0.004781035	2.243497e-10	8.750348e-08	0.01338905	-0.02056942
3.5e+08	0.01045522	-0.02202131	-4.68812e-09	8.461702e-08	0.00882871	-0.005668821	-1.144389e-08	4.434075e-08
	-4.68812e-09	8.461702e-08	0.01147871	-0.0202171	2.986933e-08	3.258287e-07	0.009371264	-0.004834139
	0.00882871	-0.005668821	2.986933e-08	3.258287e-07	0.01018905	-0.02204312	5.034995e-10	9.15985e-08
	-1.144389e-08	4.434075e-08	0.009371264	-0.004834139	5.034995e-10	9.15985e-08	0.01148181	-0.02010864
3.6e+08	0.008511899	-0.02129786	-4.557059e-09	8.912236e-08	0.007662376	-0.005537341	-1.195236e-08	4.786146e-08
	-4.557059e-09	8.912236e-08	0.009633954	-0.01956549	3.155812e-08	3.364964e-07	0.008252388	-0.004740791
	0.007662376	-0.005537341	3.155812e-08	3.364964e-07	0.008238122	-0.02129068	1.008351e-09	9.577275e-08
	-1.195236e-08	4.786146e-08	0.008252388	-0.004740791	1.008351e-09	9.577275e-08	0.009637036	-0.01944671
3.7e+08	0.006664416	-0.02036829	-4.129731e-09	9.372954e-08	0.006507263	-0.005251925	-1.218601e-08	5.152958e-08
	-4.129731e-09	9.372954e-08	0.007873082	-0.01872156	3.352047e-08	3.471687e-07	0.007138693	-0.004500076
	0.006507264	-0.005251925	3.352047e-08	3.471687e-07	0.006386488	-0.02033068	1.757198e-09	9.999882e-08
	-1.218601e-08	5.152958e-08	0.007138693	-0.004500076	1.757198e-09	9.999882e-08	0.007877212	-0.01859235
3.8e+08	0.004936041	-0.01924515	-3.384105e-09	9.840116e-08	0.005383329	-0.004814839	-1.211957e-08	5.53119e-08
	-3.384105e-09	9.840116e-08	0.006217379	-0.01769643	3.576404e-08	3.578127e-07	0.006049191	-0.004113535
	0.005383329	-0.004814839	3.576404e-08	3.578127e-07	0.00465764	-0.01917608	2.764883e-09	1.042456e-07
	-1.211957e-08	5.53119e-08	0.006049191	-0.004113535	2.764883e-09	1.042456e-07	0.00622364	-0.01755681
3.9e+08	0.003348415	-0.01794362	-2.303095e-09	1.030956e-07	0.004310119	-0.004230917	-1.173193e-08	5.9171e-08
	-2.303095e-09	1.030956e-07	0.00468668	-0.01650359	3.829198e-08	3.683936e-07	0.00500257	-0.003585143
	0.004310119	-0.004230917	3.829198e-08	3.683936e-07	0.003073405	-0.01784255	4.042079e-09	1.084789e-07
	-1.173193e-08	5.9171e-08	0.00500257	-0.003585143	4.042079e-09	1.084789e-07	0.004696153	-0.01635371
4e+08	0.001921243	-0.01648136	-8.753802e-10	1.077677e-07	0.003306438	-0.003507497	-1.100687e-08	6.306578e-08
	-8.753802e-10	1.077677e-07	0.003299106	-0.01515874	4.110251e-08	3.788752e-07	0.004016889	-0.002921256
	0.003306438	-0.003507497	4.110251e-08	3.788752e-07	0.001653612	-0.01634822	5.594598e-09	1.126616e-07
	-1.100687e-08	6.306578e-08	0.004016889	-0.002921256	5.594598e-09	1.126616e-07	0.003312852	-0.0149989
4.1e+08	0.0006720321	-0.01487824	9.038795e-10	1.123694e-07	0.002390033	-0.002654303	-9.933728e-09	6.69521e-08
	9.038795e-10	1.123694e-07	0.002070812	-0.01367953	4.418861e-08	3.892208e-07	0.003109267	-0.002130511
	0.002390033	-0.002654303	4.418861e-08	3.892208e-07	0.0004158291	-0.01471348	7.422813e-09	1.167549e-07
	-9.933728e-09	6.69521e-08	0.003109267	-0.002130511	7.422813e-09	1.167549e-07	0.002089852	-0.01351021
4.2e+08	-0.0003841834	-0.01315607	3.032454e-09	1.168511e-07	0.001577287	-0.001683298	-8.507935e-09	7.078359e-08
	3.032454e-09	1.168511e-07	0.001015771	-0.01208541	4.753776e-08	3.99394e-07	0.002295605	-0.001223691
	0.001577287	-0.001683298	4.753776e-08	3.99394e-07	-0.0006249223	-0.01296065	9.521168e-09	1.207187e-07
	-8.507935e-09	7.078359e-08	0.002295605	-0.001223691	9.521168e-09	1.207187e-07	0.001041061	-0.01190719
4.3e+08	-0.001235051	-0.01133827	5.500606e-09	1.211624e-07	0.0008829429	-0.0006084931	-6.731482e-09	7.45125e-08
	5.500606e-09	1.211624e-07	0.0001455793	-0.01039726	5.113191e-08	4.093594e-07	0.001590312	-0.0002135517
	0.0008829429	-0.0006084931	5.113191e-08	4.093594e-07	-0.001456356	-0.0111137	1.187784e-08	1.245129e-07
	-6.731482e-09	7.45125e-08	0.001590312	-0.0002135517	1.187784e-08	1.245129e-07	0.000178002	-0.01021088
4.4e+08	-0.001871074	-0.009449603	8.290849e-09	1.252534e-07	0.0003198466	0.0005542808	-4.613221e-09	7.809073e-08
	8.290849e-09	1.252534e-07	-0.0005306947	-0.008637169	5.494751e-08	4.190837e-07	0.001006066	0.0008853802
	0.0003198466	0.0005542808	5.494751e-08	4.190837e-07	-0.002069128	-0.009197898	1.447456e-08	1.280982e-07
	-4.613221e-09	7.809073e-08	0.001006066	0.0008853802	1.447456e-08	1.280982e-07	-0.0004903587	-0.008443462
4.5e+08	-0.00228576	-0.007515763	1.137791e-08	1.290763e-07	-0.0001012739	0.001787626	-2.169002e-09	8.147083e-08
	1.137791e-08	1.290763e-07	-0.001006639	-0.006828099	5.895574e-08	4.285363e-07	0.0005535967	0.002057046
	-0.0001012739	0.001787626	5.895574e-08	4.285363e-07	-0.002456955	-0.007239455	1.728665e-08	1.314372e-07
	-2.169002e-09	8.147083e-08	0.0005535967	0.002057046	1.728665e-08	1.314372e-07	-0.0009577195	-0.006628023
4.6e+08	-0.002475703	-0.005563039	1.472894e-08	1.325859e-07	-0.0003719967	0.003072864	5.783408e-10	8.460714e-08
	1.472894e-08	1.325859e-07	-0.001278576	-0.004993572	6.312289e-08	4.376906e-07	0.0002415016	0.003284114
	-0.0003719967	0.003072864	6.312289e-08	4.376906e-07	-0.002616723	-0.005265146	2.028323e-08	1.34496e-07
	5.783408e-10	8.460714e-08	0.0002415016	0.003284114	2.028323e-08	1.34496e-07	-0.001220534	-0.004788173
4.7e+08	-0.002440633	-0.003617921	1.830387e-08	1.357419e-07	-0.0004863562	0.004390339	3.599182e-09	8.745685e-08
	1.830387e-08	1.357419e-07	-0.001345616	-0.003157344	6.741089e-08	4.465245e-07	7.610119e-05	0.004548261
	-0.0004863562	0.004390339	6.741089e-08	4.465245e-07	-0.002548527	-0.003301932	2.342765e-08	1.372443e-07
	3.599182e-09	8.745685e-08	7.610119e-05	0.004548261	2.342765e-08	1.372443e-07	-0.001278023	-0.002947717
4.8e+08	-0.002183471	-0.001706782	2.20562e-08	1.385091e-07	-0.0004409519	0.005719741	6.85763e-09	8.998099e-08
	2.20562e-08	1.385091e-07	-0.001209654	-0.001343069	7.1778e-08	4.550209e-07	6.132595e-05	0.005830475
