!$
! Info: Touchstone file created by Circ.  Input file=Tx_6in_Rx_100ohms_TxVia_60mils_RxVia_70mils.circ
!$
# Hz S RI R 50
0	0.006352617	9.333666e-26	-3.258002e-05	4.833574e-26	5.271094e-05	1.218258e-23	-3.257812e-05	-8.038198e-27
	-3.258002e-05	4.800821e-26	0.006348153	1.118894e-25	-3.257959e-05	5.113079e-26	5.241654e-05	1.540898e-23
	5.379491e-05	1.2264e-23	-3.257959e-05	5.103773e-26	0.006368118	9.33136e-26	-3.257983e-05	1.731334e-25
	-3.257811e-05	-8.708442e-27	5.268632e-05	1.547506e-23	-3.257983e-05	1.728846e-25	0.006362654	1.113799e-25
1e+07	0.008945846	0.004455095	-1.416274e-06	-6.406556e-06	0.0001584606	0.001273296	-1.04749e-06	-8.830333e-06
	-1.416274e-06	-6.406556e-06	0.009221558	0.004486623	-8.47273e-07	-1.876876e-06	0.000370371	0.001305468
	0.0001584917	0.0012733	-8.47273e-07	-1.876877e-06	0.008619568	0.004629313	-2.022718e-06	-2.529645e-06
	-1.04749e-06	-8.830333e-06	0.0003703734	0.001305465	-2.022718e-06	-2.529645e-06	0.00914346	0.004499805
2e+07	0.01157525	0.006881979	-3.015612e-06	-7.422246e-08	0.0004012819	0.002542515	-9.119056e-07	-3.261979e-06
	-3.015612e-06	-7.422249e-08	0.01180662	0.006834788	-1.093779e-05	-1.407446e-05	0.0005261199	0.002682626
	0.0004012963	0.002542496	-1.093779e-05	-1.407446e-05	0.0114934	0.00728729	-1.359748e-05	-1.402708e-05
	-9.119058e-07	-3.261979e-06	0.0005261167	0.002682626	-1.359748e-05	-1.402708e-05	0.01175446	0.006891904
3e+07	0.01387954	0.008280903	-4.865192e-06	-1.251439e-06	0.0007972127	0.003743582	-8.971249e-07	-1.890272e-06
	-4.865192e-06	-1.251439e-06	0.01406588	0.008211291	-1.980703e-05	-1.556497e-05	0.000853094	0.003918809
	0.0007972136	0.003743579	-1.980703e-05	-1.556497e-05	0.01399178	0.008740189	-2.246712e-05	-1.520839e-05
	-8.971249e-07	-1.890272e-06	0.0008530937	0.003918811	-2.246712e-05	-1.520839e-05	0.01403591	0.008287618
4e+07	0.01605088	0.00917585	-6.365644e-06	-1.292649e-06	0.001336724	0.004873373	-8.681515e-07	-1.163548e-06
	-6.365644e-06	-1.292649e-06	0.01618827	0.009099839	-2.708198e-05	-1.399616e-05	0.001348073	0.0050657
	0.001336728	0.004873377	-2.708198e-05	-1.399616e-05	0.01632782	0.009630497	-2.971763e-05	-1.337109e-05
	-8.681515e-07	-1.163548e-06	0.001348074	0.005065701	-2.971763e-05	-1.337109e-05	0.01617897	0.009187592
5e+07	0.01814023	0.009690874	-7.581183e-06	-7.697183e-07	0.002008411	0.005916864	-8.163002e-07	-6.806476e-07
	-7.581183e-06	-7.697184e-07	0.01822431	0.009620065	-3.305516e-05	-1.061576e-05	0.002079777	0.0060856
	0.002008414	0.005916865	-3.305516e-05	-1.061576e-05	0.01855785	0.01010365	-3.564472e-05	-9.735923e-06
	-8.163003e-07	-6.806477e-07	0.002079778	0.006085601	-3.564472e-05	-9.735923e-06	0.01823416	0.009714317
6e+07	0.02015997	0.009883998	-8.533212e-06	1.112161e-07	0.002799205	0.006859256	-7.401856e-07	-3.22048e-07
	-8.533212e-06	1.112161e-07	0.02018779	0.009829668	-3.78308e-05	-5.943714e-06	0.002914065	0.006994414
	0.002799201	0.006859255	-3.78308e-05	-5.943714e-06	0.02069579	0.01022716	-4.035337e-05	-4.814816e-06
	-7.401855e-07	-3.22048e-07	0.002914066	0.006994415	-4.035337e-05	-4.814816e-06	0.02021541	0.009926651
7e+07	0.02210677	0.009789828	-9.223461e-06	1.250408e-06	0.003705078	0.00768202	-6.389036e-07	-4.109519e-08
	-9.223461e-06	1.250408e-06	0.02207665	0.009762903	-4.141366e-05	-2.515164e-07	0.003837499	0.007782151
	0.003705066	0.007682019	-4.141366e-05	-2.515164e-07	0.02273823	0.01004108	-4.385699e-05	1.119669e-06
	-6.389032e-07	-4.109514e-08	0.003837501	0.007782151	-4.385699e-05	1.119669e-06	0.0221205	0.009859321
8e+07	0.02397018	0.009433815	-9.640448e-06	2.595014e-06	0.00469872	0.008377483	-5.134925e-07	1.820652e-07
	-9.640447e-06	2.595014e-06	0.02388153	0.009445106	-4.375157e-05	6.311983e-06	0.00483467	0.008439394
	0.004698705	0.008377485	-4.375157e-05	6.311983e-06	0.0246735	0.009574086	-4.60985e-05	7.92508e-06
	-5.13492e-07	1.820651e-07	0.004834671	0.008439393	-4.60985e-05	7.92508e-06	0.0239397	0.00953798
9e+07	0.02573703	0.008838384	-9.752954e-06	4.129447e-06	0.005762401	0.008936937	-3.654148e-07	3.550773e-07
	-9.752953e-06	4.129447e-06	0.02559057	0.008899023	-4.469165e-05	1.373808e-05	0.005888263	0.008957669
	0.00576239	0.008936941	-4.469165e-05	1.373808e-05	0.02648538	0.008849357	-4.691839e-05	1.560121e-05
	-3.654144e-07	3.550771e-07	0.005888264	0.008957668	-4.691839e-05	1.560121e-05	0.02566066	0.008985619
1e+08	0.02739982	0.008032748	-9.385463e-06	6.000683e-06	0.006880368	0.009356033	-1.90693e-07	4.755174e-07
	-9.385463e-06	6.000683e-06	0.02719862	0.008155281	-4.340655e-05	2.278645e-05	0.006976505	0.00932633
	0.006880368	0.009356033	-4.340655e-05	2.278645e-05	0.0281517	0.007883113	-4.547347e-05	2.493486e-05
	-1.90693e-07	4.755174e-07	0.006976505	0.00932633	-4.547347e-05	2.493486e-05	0.02727698	0.008232201
1.1e+08	0.02896661	0.006982689	-8.099439e-06	7.161572e-06	0.008040679	0.009613974	-6.19942e-08	5.456643e-07
	-8.099439e-06	7.161572e-06	0.0287198	0.007173182	-3.770198e-05	2.854143e-05	0.008068617	0.00956735
	0.008040679	0.009613974	-3.770198e-05	2.854143e-05	0.02964091	0.006730189	-3.948516e-05	3.089548e-05
	-6.199419e-08	5.456643e-07	0.008068615	0.00956735	-3.948516e-05	3.089548e-05	0.02880011	0.007243452
1.2e+08	0.03036084	0.00572269	-7.826101e-06	7.038097e-06	0.00920544	0.009712962	-4.845603e-08	5.252564e-07
	-7.826101e-06	7.038097e-06	0.03007113	0.005988084	-3.316496e-05	3.201869e-05	0.009174945	0.009672929
	0.00920544	0.009712961	-3.316496e-05	3.201869e-05	0.03097373	0.005403405	-3.604123e-05	3.302938e-05
	-4.845603e-08	5.252564e-07	0.009174943	0.00967293	-3.604123e-05	3.302938e-05	0.03015373	0.006053379
1.3e+08	0.03157451	0.004287496	-7.547684e-06	7.02125e-06	0.01035722	0.009657537	-7.355476e-08	5.02433e-07
	-7.547684e-06	7.02125e-06	0.03124691	0.004635753	-3.212395e-05	3.162464e-05	0.01027338	0.009637158
	0.01035722	0.009657536	-3.212395e-05	3.162464e-05	0.0321303	0.003916606	-3.496169e-05	3.26779e-05
	-7.355476e-08	5.02433e-07	0.01027338	0.009637159	-3.496169e-05	3.26779e-05	0.03133124	0.004696434
1.4e+08	0.03259504	0.002702911	-7.23992e-06	7.058096e-06	0.01147695	0.009451705	-9.468809e-08	4.861368e-07
	-7.23992e-06	7.058096e-06	0.03223616	0.003141593	-3.094292e-05	3.153867e-05	0.01134479	0.009461293
	0.01147695	0.009451704	-3.094292e-05	3.153867e-05	0.03309595	0.002290811	-3.374236e-05	3.264263e-05
	-9.468809e-08	4.861368e-07	0.01134479	0.009461294	-3.374236e-05	3.264263e-05	0.03232143	0.003197843
1.5e+08	0.03341093	0.0009942407	-6.913783e-06	7.124519e-06	0.01254587	0.009101454	-1.129782e-07	4.751047e-07
	-6.913783e-06	7.124519e-06	0.03302873	0.001530125	-2.967337e-05	3.163628e-05	0.01237089	0.009149647
	0.01254587	0.009101454	-2.967337e-05	3.163628e-05	0.03385839	0.0005490219	-3.243262e-05	3.279881e-05
	-1.129782e-07	4.751047e-07	0.01237089	0.009149648	-3.243262e-05	3.279881e-05	0.03311412	0.001582131
1.6e+08	0.03401256	-0.0008129041	-6.575152e-06	7.20687e-06	0.01354599	0.00861496	-1.291639e-07	4.684421e-07
	-6.575152e-06	7.20687e-06	0.03361624	-0.0001740751	-2.83405e-05	3.184733e-05	0.0133343	0.008709056
	0.01354599	0.00861496	-2.83405e-05	3.184733e-05	0.03440766	-0.001284488	-3.10578e-05	3.307441e-05
	-1.291639e-07	4.684421e-07	0.0133343	0.008709057	-3.10578e-05	3.307441e-05	0.03370087	-0.0001260717
1.7e+08	0.03439258	-0.00269246	-6.2277e-06	7.296643e-06	0.01446044	0.008002548	-1.437722e-07	4.655498e-07
	-6.2277e-06	7.296643e-06	0.03399236	-0.001946193	-2.695958e-05	3.212688e-05	0.01421877	0.008148629
	0.01446044	0.008002548	-2.695958e-05	3.212688e-05	0.03473623	-0.003184528	-2.963304e-05	3.342325e-05
	-1.437722e-07	4.655498e-07	0.01421877	0.008148629	-2.963304e-05	3.342325e-05	0.03407536	-0.001901863
1.8e+08	0.03454608	-0.004617985	-5.87393e-06	7.388251e-06	0.01527376	0.007276576	-1.571705e-07	4.660558e-07
	-5.87393e-06	7.388251e-06	0.03415306	-0.003761213	-2.554075e-05	3.244436e-05	0.01500938	0.007479532
	0.01527376	0.007276576	-2.554075e-05	3.244436e-05	0.03483917	-0.005125246	-2.816827e-05	3.381387e-05
	-1.571705e-07	4.660558e-07	0.01500938	0.007479533	-2.816827e-05	3.381387e-05	0.03423358	-0.003720123
1.9e+08	0.03447082	-0.006562829	-5.515398e-06	7.478508e-06	0.01597218	0.006451253	-1.695722e-07	4.697689e-07
	-5.515398e-06	7.478508e-06	0.03409672	-0.005594049	-2.409131e-05	3.277803e-05	0.01569281	0.006714785
	0.01597218	0.006451253	-2.409131e-05	3.277803e-05	0.03471427	-0.007080421	-2.667054e-05	3.422383e-05
	-1.695722e-07	4.697689e-07	0.01569281	0.006714785	-2.667054e-05	3.422383e-05	0.03417397	-0.005555671
2e+08	0.03416725	-0.008500375	-5.153409e-06	7.564577e-06	0.01654385	0.005542423	-1.811108e-07	4.765885e-07
	-5.153409e-06	7.564577e-06	0.03382423	-0.007419766	-2.261687e-05	3.311194e-05	0.01625753	0.005869024
	0.01654385	0.005542423	-2.261687e-05	3.311194e-05	0.03436206	-0.009023755	-2.514518e-05	3.463663e-05
	-1.811108e-07	4.765885e-07	0.01625753	0.005869024	-2.514518e-05	3.463663e-05	0.03389749	-0.007383467
2.1e+08	0.03363862	-0.0104043	-4.789268e-06	7.644036e-06	0.01697901	0.004567315	-1.91825e-07	4.86501e-07
	-4.789268e-06	7.644036e-06	0.03333902	-0.00921379	-2.112203e-05	3.343411e-05	0.01669399	0.004958261
	0.01697901	0.004567315	-2.112203e-05	3.343411e-05	0.0337859	-0.01092918	-2.359648e-05	3.503979e-05
	-1.91825e-07	4.86501e-07	0.01669399	0.004958261	-2.359648e-05	3.503979e-05	0.03340764	-0.009178852
2.2e+08	0.03289096	-0.01224883	-4.423859e-06	7.715555e-06	0.0172702	0.00354427	-2.016341e-07	4.995531e-07
	-4.423859e-06	7.715555e-06	0.03264702	-0.01095216	-1.96106e-05	3.373537e-05	0.01699478	0.003999613
	0.0172702	0.00354427	-1.96106e-05	3.373537e-05	0.03299196	-0.01277113	-2.202795e-05	3.542372e-05
	-2.016341e-07	4.995531e-07	0.01699478	0.003999613	-2.202795e-05	3.542372e-05	0.03271047	-0.01091779
2.3e+08	0.03193306	-0.01400909	-4.057879e-06	7.778185e-06	0.01741236	0.00249244	-2.103639e-07	5.158113e-07
	-4.057879e-06	7.778185e-06	0.0317567	-0.0126118	-1.808581e-05	3.400861e-05	0.01715474	0.003011022
	0.01741236	0.00249244	-1.808581e-05	3.400861e-05	0.03198919	-0.01452489	-2.044256e-05	3.578088e-05
	-2.103639e-07	5.158113e-07	0.01715474	0.003011022	-2.044256e-05	3.578088e-05	0.03181454	-0.01257711
2.4e+08	0.03077637	-0.01566135	-3.69191e-06	7.831248e-06	0.01740293	0.001431484	-2.177602e-07	5.353382e-07
	-3.69191e-06	7.831248e-06	0.03067889	-0.01417073	-1.655067e-05	3.424821e-05	0.01717106	0.002010961
	0.01740293	0.001431484	-1.655067e-05	3.424821e-05	0.03078923	-0.01616691	-1.884302e-05	3.610526e-05
	-2.177602e-07	5.353382e-07	0.01717106	0.002010961	-1.884302e-05	3.610526e-05	0.03073082	-0.01413483
2.5e+08	0.02943492	-0.01718332	-3.326406e-06	7.87425e-06	0.01724189	0.0003812412	-2.234935e-07	5.581719e-07
	-3.326406e-06	7.87425e-06	0.02942677	-0.01560841	-1.500779e-05	3.444971e-05	0.01704333	0.001018128
	0.01724189	0.0003812412	-1.500779e-05	3.444971e-05	0.0294063	-0.01767507	-1.723172e-05	3.639197e-05
	-2.234935e-07	5.581719e-07	0.01704333	0.001018128	-1.723172e-05	3.639197e-05	0.0294726	-0.01557032
2.6e+08	0.02792512	-0.01855449	-2.961738e-06	7.906824e-06	0.01693176	-0.0006385896	-2.271749e-07	5.843087e-07
	-2.961738e-06	7.906824e-06	0.02801564	-0.01690588	-1.345966e-05	3.46095e-05	0.01677352	5.114021e-05
	0.01693176	-0.0006385896	-1.345966e-05	3.46095e-05	0.02785703	-0.01902898	-1.561089e-05	3.663702e-05
	-2.271749e-07	5.843087e-07	0.01677352	5.114017e-05	-1.561089e-05	3.663702e-05	0.02805532	-0.01686463
2.7e+08	0.0262656	-0.01975633	-2.598199e-06	7.928671e-06	0.01647761	-0.001608779	-2.283658e-07	6.136894e-07
	-2.598199e-06	7.928671e-06	0.02646279	-0.01804608	-1.190855e-05	3.47246e-05	0.016366	-0.0008717726
	0.01647761	-0.001608779	-1.190855e-05	3.47246e-05	0.02616028	-0.0202103	-1.398259e-05	3.683699e-05
	-2.283658e-07	6.136894e-07	0.016366	-0.0008717726	-1.398259e-05	3.683699e-05	0.02649639	-0.0180007
2.8e+08	0.024477	-0.02077256	-2.236044e-06	7.939551e-06	0.01588692	-0.002510882	-2.265955e-07	6.46187e-07
	-2.236044e-06	7.939551e-06	0.02478728	-0.01901402	-1.03567e-05	3.47926e-05	0.01582746	-0.001733069
	0.01588692	-0.002510882	-1.03567e-05	3.47926e-05	0.02433689	-0.02120292	-1.23489e-05	3.698903e-05
	-2.265955e-07	6.46187e-07	0.01582746	-0.001733069	-1.23489e-05	3.698903e-05	0.02481503	-0.01896352
2.9e+08	0.02258164	-0.02158938	-1.875491e-06	7.939242e-06	0.01516951	-0.003327552	-2.213745e-07	6.816002e-07
	-1.875491e-06	7.939242e-06	0.02300969	-0.01979696	-8.806262e-06	3.481147e-05	0.01516677	-0.002516188
	0.01516951	-0.003327552	-8.806262e-06	3.481147e-05	0.02240944	-0.02199325	-1.071182e-05	3.709067e-05
	-2.213745e-07	6.816002e-07	0.01516677	-0.002516188	-1.071182e-05	3.709067e-05	0.02303194	-0.01974042
3e+08	0.02060331	-0.02219565	-1.516739e-06	7.927517e-06	0.01433738	-0.004042823	-2.122099e-07	7.196479e-07
	-1.516739e-06	7.927517e-06	0.0211519	-0.0203846	-7.259339e-06	3.477948e-05	0.0143949	-0.003205823
	0.01433738	-0.004042823	-7.259339e-06	3.477948e-05	0.02040194	-0.02257036	-9.073345e-06	3.713969e-05
	-2.122099e-07	7.196479e-07	0.0143949	-0.003205823	-9.073345e-06	3.713969e-05	0.02116912	-0.02032114
3.1e+08	0.01856695	-0.02258305	-1.159996e-06	7.904161e-06	0.0134045	-0.004642389	-1.986228e-07	7.599661e-07
	-1.159996e-06	7.904161e-06	0.01923678	-0.02076921	-5.718073e-06	3.469523e-05	0.01352468	-0.003788181
	0.0134045	-0.004642389	-5.718073e-06	3.469523e-05	0.01833956	-0.02292618	-7.435571e-06	3.713422e-05
	-1.986228e-07	7.599661e-07	0.01352468	-0.003788181	-7.435571e-06	3.713422e-05	0.01924957	-0.020698
3.2e+08	0.01649827	-0.02274621	-8.054797e-07	7.868933e-06	0.01238661	-0.00511384	-1.801623e-07	8.021111e-07
	-8.054797e-07	7.868933e-06	0.0172879	-0.02094571	-4.184605e-06	3.455749e-05	0.01257065	-0.004251214
	0.01238661	-0.00511384	-4.184605e-06	3.455749e-05	0.01624823	-0.0230556	-5.800626e-06	3.707253e-05
	-1.801623e-07	8.021111e-07	0.01257065	-0.004251214	-5.800626e-06	3.707253e-05	0.01729697	-0.02086603
3.3e+08	0.01442348	-0.02268278	-4.534374e-07	7.821574e-06	0.01130092	-0.005446883	-1.564208e-07	8.455616e-07
	-4.534374e-07	7.821574e-06	0.01532926	-0.02091178	-2.661108e-06	3.43652e-05	0.0115488	-0.004584824
	0.01130092	-0.005446883	-2.661108e-06	3.43652e-05	0.01415435	-0.02295658	-4.170728e-06	3.695306e-05
	-1.564208e-07	8.455616e-07	0.0115488	-0.004584824	-4.170728e-06	3.695306e-05	0.01533541	-0.02082299
3.4e+08	0.01236889	-0.02239349	-1.0416e-07	7.761828e-06	0.01016589	-0.005633518	-1.27049e-07	8.897242e-07
	-1.0416e-07	7.761828e-06	0.01338491	-0.02066784	-1.149838e-06	3.411753e-05	0.0104763	-0.004781035
	0.01016589	-0.005633518	-1.149838e-06	3.411753e-05	0.01208441	-0.02263016	-2.548234e-06	3.677449e-05
	-1.27049e-07	8.897242e-07	0.0104763	-0.004781035	-2.548234e-06	3.677449e-05	0.01338905	-0.02056942
3.5e+08	0.01036053	-0.02188213	2.420124e-07	7.689422e-06	0.009000897	-0.005668181	-9.176704e-08	9.339436e-07
	2.420124e-07	7.689422e-06	0.01147871	-0.0202171	3.468873e-07	3.381378e-05	0.009371264	-0.004834139
	0.009000897	-0.005668181	3.468873e-07	3.381378e-05	0.01006462	-0.02208048	-9.356202e-07	3.653561e-05
	-9.176704e-08	9.339436e-07	0.009371264	-0.004834139	-9.356202e-07	3.653561e-05	0.01148181	-0.02010864
3.6e+08	0.008423875	-0.02115553	5.846616e-07	7.604089e-06	0.007825893	-0.00554785	-5.037819e-08	9.775106e-07
	5.846616e-07	7.604089e-06	0.009633954	-0.01956549	1.826663e-06	3.345343e-05	0.008252388	-0.004740791
	0.007825893	-0.00554785	1.826663e-06	3.345343e-05	0.008120573	-0.02131474	6.644927e-07	3.623545e-05
	-5.037819e-08	9.775106e-07	0.008252388	-0.004740791	6.644927e-07	3.623545e-05	0.009637036	-0.01944671
3.7e+08	0.006583412	-0.02022345	9.23342e-07	7.505575e-06	0.006661113	-0.005272104	-2.772067e-09	1.019679e-06
	9.23342e-07	7.505575e-06	0.007873082	-0.01872156	3.286998e-06	3.303612e-05	0.007138693	-0.004500076
	0.006661113	-0.005272104	3.286998e-06	3.303612e-05	0.006276853	-0.0203431	2.249344e-06	3.58732e-05
	-2.772067e-09	1.019679e-06	0.007138693	-0.004500076	2.249344e-06	3.58732e-05	0.007877212	-0.01859235
3.8e+08	0.004862325	-0.0190985	1.257525e-06	7.393644e-06	0.005526714	-0.004843142	5.106366e-08	1.059673e-06
	1.257525e-06	7.393644e-06	0.006217379	-0.01769643	4.725312e-06	3.256165e-05	0.006049191	-0.004113535
	0.005526714	-0.004843142	4.725312e-06	3.256165e-05	0.004556707	-0.01917857	3.816027e-06	3.544822e-05
	5.106366e-08	1.059673e-06	0.006049191	-0.004113535	3.816027e-06	3.544822e-05	0.00622364	-0.01755681
3.9e+08	0.003282178	-0.0177959	1.586609e-06	7.268087e-06	0.004442444	-0.004265755	1.110401e-07	1.096708e-06
	1.586609e-06	7.268087e-06	0.00468668	-0.01650359	6.138928e-06	3.202999e-05	0.00500257	-0.003585143
	0.004442444	-0.004265755	6.138928e-06	3.202999e-05	0.002981716	-0.01783682	5.361495e-06	3.496014e-05
	1.110401e-07	1.096708e-06	0.00500257	-0.003585143	5.361495e-06	3.496014e-05	0.004696153	-0.01635371
4e+08	0.001862589	-0.01633335	1.909928e-06	7.128741e-06	0.003427313	-0.003547259	1.769656e-07	1.13e-06
	1.909928e-06	7.128741e-06	0.003299106	-0.01515874	7.525078e-06	3.144129e-05	0.004016889	-0.002921256
	0.003427313	-0.003547259	7.525078e-06	3.144129e-05	0.001571477	-0.01633598	6.882565e-06	3.440876e-05
	1.769656e-07	1.13e-06	0.004016889	-0.002921256	6.882565e-06	3.440876e-05	0.003312852	-0.0149989
4.1e+08	0.0006209699	-0.01473075	2.226748e-06	6.975498e-06	0.002499264	-0.002697384	2.485454e-07	1.158782e-06
	2.226748e-06	6.975498e-06	0.002070812	-0.01367953	8.88092e-06	3.079593e-05	0.003109267	-0.002130511
	0.002499264	-0.002697384	8.88092e-06	3.079593e-05	0.0003433237	-0.01469637	8.375948e-06	3.37942e-05
	2.485454e-07	1.158782e-06	0.003109267	-0.002130511	8.375948e-06	3.37942e-05	0.002089852	-0.01351021
4.2e+08	-0.000427748	-0.0130099	2.536282e-06	6.808319e-06	0.001674874	-0.001728118	3.253856e-07	1.182323e-06
	2.536282e-06	6.808319e-06	0.001015771	-0.01208541	1.020354e-05	3.009449e-05	0.002295605	-0.001223691
	0.001674874	-0.001728118	1.020354e-05	3.009449e-05	-0.0006879277	-0.01294026	9.83826e-06	3.311682e-05
	3.253856e-07	1.182323e-06	0.002295605	-0.001223691	9.83826e-06	3.311682e-05	0.001041061	-0.01190719
4.3e+08	-0.001271304	-0.01119425	2.837689e-06	6.627242e-06	0.0009690713	-0.0006535159	4.069975e-07	1.199935e-06
	2.837689e-06	6.627242e-06	0.0001455793	-0.01039726	1.148997e-05	2.933779e-05	0.001590312	-0.0002135517
	0.0009690714	-0.0006535159	1.148997e-05	2.933779e-05	-0.001510193	-0.01109153	1.126605e-05	3.237728e-05
	4.069975e-07	1.199935e-06	0.001590312	-0.0002135517	1.126605e-05	3.237728e-05	0.000178002	-0.01021088
4.4e+08	-0.001900309	-0.009308529	3.130088e-06	6.432387e-06	0.0003948778	0.0005105226	4.928061e-07	1.210993e-06
	3.130088e-06	6.432387e-06	-0.0005306947	-0.008637169	1.27372e-05	2.852685e-05	0.001006066	0.0008853802
	0.0003948778	0.0005105226	1.27372e-05	2.852685e-05	-0.0021143	-0.009175331	1.265582e-05	3.157653e-05
	4.928061e-07	1.210993e-06	0.001006066	0.0008853802	1.265582e-05	3.157653e-05	-0.0004903587	-0.008443462
4.5e+08	-0.002308365	-0.007378418	3.412568e-06	6.223967e-06	-3.681541e-05	0.001746516	5.821582e-07	1.214942e-06
	3.412568e-06	6.223967e-06	-0.001006639	-0.006828099	1.39422e-05	2.766298e-05	0.0005535967	0.002057046
	-3.681541e-05	0.001746516	1.39422e-05	2.766298e-05	-0.002494126	-0.007217744	1.400405e-05	3.071581e-05
	5.821582e-07	1.214942e-06	0.0005535967	0.002057046	1.400405e-05	3.071581e-05	-0.0009577195	-0.006628023
4.6e+08	-0.002492172	-0.005430165	3.684205e-06	6.002301e-06	-0.0003174368	0.003035684	6.74334e-07	1.211311e-06
	3.684205e-06	6.002301e-06	-0.001278576	-0.004993572	1.510189e-05	2.674776e-05	0.0002415016	0.003284114
	-0.0003174368	0.003035684	1.510189e-05	2.674776e-05	-0.002646688	-0.005245394	1.530725e-05	2.979672e-05
	6.74334e-07	1.211311e-06	0.0002415016	0.003284114	1.530725e-05	2.979672e-05	-0.001220534	-0.004788173
4.7e+08	-0.002451573	-0.003490224	3.944065e-06	5.767799e-06	-0.0004408862	0.004358256	7.685474e-07	1.199703e-06
	3.944065e-06	5.767799e-06	-0.001345616	-0.003157344	1.621314e-05	2.578311e-05	7.610119e-05	0.004548261
	-0.0004408862	0.004358256	1.621314e-05	2.578311e-05	-0.002572174	-0.003285072	1.656187e-05	2.882107e-05
	7.685474e-07	1.199703e-06	7.610119e-05	0.004548261	1.656187e-05	2.882107e-05	-0.001278023	-0.002947717
