!$
! Info: Touchstone file created by Circ.  Input file=Tx_6in_Rx_93ohms_TxVia_60mils_RxVia_70mils.circ
!$
# Hz S RI R 50
0	0.005629598	9.334561e-26	-3.255692e-05	4.847487e-26	5.272136e-05	1.078236e-23	-3.255502e-05	-7.94058e-27
	-3.255692e-05	4.814757e-26	0.005625136	1.118941e-25	-3.255649e-05	5.127216e-26	5.242595e-05	1.363603e-23
	5.380541e-05	1.085443e-23	-3.255649e-05	5.117916e-26	0.005645119	9.332235e-26	-3.255674e-05	1.733632e-25
	-3.255502e-05	-8.61035e-27	5.269577e-05	1.369451e-23	-3.255674e-05	1.731146e-25	0.005639659	1.113844e-25
1e+07	0.00779666	-1.732852e-05	-1.085064e-06	-1.211724e-05	0.000173347	0.001203705	-1.097587e-06	-1.243004e-05
	-1.085064e-06	-1.211724e-05	0.008248989	-7.824297e-05	-3.839374e-06	-2.369919e-06	0.0001766763	0.001293141
	0.0001733782	0.00120371	-3.839374e-06	-2.369919e-06	0.008380982	0.0002843907	-1.29449e-05	-3.303753e-06
	-1.097587e-06	-1.243004e-05	0.0001766786	0.001293139	-1.29449e-05	-3.303753e-06	0.00809649	-8.300841e-05
2e+07	0.009545934	-0.001897731	-4.018373e-06	-8.243144e-06	0.0004468048	0.002421456	-4.361559e-06	-8.751239e-06
	-4.018373e-06	-8.243144e-06	0.009829075	-0.002163215	-1.472703e-05	-1.318318e-05	0.0003829965	0.002584458
	0.0004468189	0.002421437	-1.472703e-05	-1.318318e-05	0.01031544	-0.00162129	-1.391627e-05	1.780395e-06
	-4.361559e-06	-8.751239e-06	0.0003829933	0.002584458	-1.391627e-05	1.780395e-06	0.009712799	-0.002114638
3e+07	0.01045093	-0.004655179	-6.369308e-06	-6.971765e-06	0.0008628698	0.003588344	-6.971905e-06	-7.478409e-06
	-6.369308e-06	-6.971765e-06	0.01058556	-0.004979761	-2.308989e-05	-1.430059e-05	0.0007828233	0.003783013
	0.0008628707	0.003588342	-2.308989e-05	-1.430059e-05	0.01135993	-0.004437994	-1.49529e-05	1.985089e-06
	-6.971905e-06	-7.478409e-06	0.000782823	0.003783015	-1.49529e-05	1.985089e-06	0.01049596	-0.004918887
4e+07	0.01072531	-0.007704501	-8.302465e-06	-5.715958e-06	0.001416585	0.004688461	-9.119228e-06	-6.154432e-06
	-8.302465e-06	-5.715958e-06	0.01071862	-0.008042018	-2.996553e-05	-1.259616e-05	0.001351171	0.004896866
	0.001416589	0.004688466	-2.996553e-05	-1.259616e-05	0.01174313	-0.007575265	-1.568991e-05	2.90731e-06
	-9.119228e-06	-6.154432e-06	0.001351172	0.004896867	-1.568991e-05	2.90731e-06	0.01064999	-0.007979777
5e+07	0.01044953	-0.01086609	-9.889553e-06	-4.286672e-06	0.002098339	0.005704204	-1.088657e-05	-4.612529e-06
	-9.889553e-06	-4.286672e-06	0.01030608	-0.01118408	-3.564635e-05	-9.202727e-06	0.002041333	0.005919593
	0.002098342	0.005704206	-3.564635e-05	-9.202727e-06	0.01155015	-0.01084601	-1.617158e-05	4.1805e-06
	-1.088657e-05	-4.612529e-06	0.002041334	0.005919593	-1.617158e-05	4.1805e-06	0.01025332	-0.01112629
6e+07	0.009671975	-0.01402987	-1.115559e-05	-2.659918e-06	0.002895842	0.006619711	-1.230354e-05	-2.837575e-06
	-1.115559e-05	-2.659918e-06	0.009397057	-0.01430097	-4.023833e-05	-4.57678e-06	0.002841414	0.00683826
	0.002895838	0.00661971	-4.023833e-05	-4.57678e-06	0.01083098	-0.01413526	-1.641112e-05	5.672597e-06
	-1.230354e-05	-2.837575e-06	0.002841416	0.006838261	-1.641112e-05	5.672597e-06	0.009355601	-0.01425122
7e+07	0.008431238	-0.01711356	-1.210277e-05	-8.409334e-07	0.003794861	0.007421132	-1.337333e-05	-8.377384e-07
	-1.210277e-05	-8.409334e-07	0.008031719	-0.01731302	-4.375388e-05	1.046742e-06	0.003737412	0.007640652
	0.00379485	0.007421131	-4.375388e-05	1.046742e-06	0.009624467	-0.01735739	-1.640779e-05	7.318211e-06
	-1.337333e-05	-8.377384e-07	0.003737413	0.007640652	-1.64078e-05	7.318211e-06	0.00799718	-0.01727382
8e+07	0.006763782	-0.02004962	-1.27151e-05	1.16661e-06	0.004779644	0.008096919	-1.40785e-05	1.384634e-06
	-1.27151e-05	1.16661e-06	0.006248665	-0.02015388	-4.613717e-05	7.557097e-06	0.004713589	0.008316001
	0.00477963	0.008096922	-4.613717e-05	7.557097e-06	0.007966305	-0.02044288	-1.623029e-05	8.932612e-06
	-1.40785e-05	1.384634e-06	0.00471359	0.008316	-1.623029e-05	8.932612e-06	0.006216584	-0.02012696
9e+07	0.00470746	-0.02277993	-1.294607e-05	3.38442e-06	0.005833579	0.008638507	-1.436992e-05	3.863114e-06
	-1.294607e-05	3.384419e-06	0.004089029	-0.022765	-4.722789e-05	1.499335e-05	0.005752758	0.0088554
	0.005833568	0.008638511	-4.722789e-05	1.499335e-05	0.005891776	-0.02333392	-1.64557e-05	9.570671e-06
	-1.436992e-05	3.863114e-06	0.005752758	0.008855399	-1.64557e-05	9.570671e-06	0.004054681	-0.02275164
1e+08	0.002305585	-0.02525054	-1.256157e-05	6.045089e-06	0.006943066	0.009045628	-1.398321e-05	6.871759e-06
	-1.256157e-05	6.045089e-06	0.001606007	-0.02508388	-4.619948e-05	2.418604e-05	0.006836596	0.009251853
	0.006943066	0.009045628	-4.619948e-05	2.418604e-05	0.003429799	-0.02599173	-1.685577e-05	9.870843e-06
	-1.398321e-05	6.871759e-06	0.006836596	0.009251853	-1.685577e-05	9.870843e-06	0.001563192	-0.02508656
1.1e+08	-0.0003871054	-0.02744162	-1.091852e-05	7.776964e-06	0.008054895	0.00931979	-1.214534e-05	8.859468e-06
	-1.091852e-05	7.776964e-06	-0.001118261	-0.02714112	-4.063358e-05	3.030712e-05	0.007944654	0.009502102
	0.008054895	0.00931979	-4.063358e-05	3.030712e-05	0.0005901975	-0.02830452	-1.657158e-05	9.659476e-06
	-1.214534e-05	8.859468e-06	0.007944652	0.009502102	-1.657158e-05	9.659476e-06	-0.001180219	-0.02715181
1.2e+08	-0.003352844	-0.02931231	-9.539437e-06	8.928115e-06	0.009169172	0.009429781	-1.104917e-05	9.628261e-06
	-9.539437e-06	8.928115e-06	-0.00411999	-0.02888536	-3.781355e-05	3.217793e-05	0.009058853	0.009605175
	0.009169172	0.009429781	-3.781355e-05	3.217793e-05	-0.002505176	-0.03025116	-1.612676e-05	9.816603e-06
	-1.104917e-05	9.628261e-06	0.009058851	0.009605176	-1.612676e-05	9.816603e-06	-0.004200167	-0.02889793
1.3e+08	-0.006541411	-0.03082728	-9.205626e-06	8.859325e-06	0.01027043	0.009384805	-1.081845e-05	9.425707e-06
	-9.205626e-06	8.859325e-06	-0.007340422	-0.03026968	-3.682604e-05	3.199998e-05	0.01015991	0.009561664
	0.01027043	0.009384805	-3.682604e-05	3.199998e-05	-0.005817468	-0.03181921	-1.56405e-05	1.011058e-05
	-1.081845e-05	9.425707e-06	0.01015991	0.009561665	-1.56405e-05	1.011058e-05	-0.00743888	-0.03028036
1.4e+08	-0.009903281	-0.03196205	-8.928345e-06	8.787598e-06	0.01133956	0.009190198	-1.054905e-05	9.34426e-06
	-8.928345e-06	8.787598e-06	-0.01072687	-0.03126775	-3.569494e-05	3.21516e-05	0.01122882	0.009374925
	0.01133956	0.009190198	-3.569494e-05	3.21516e-05	-0.0092987	-0.03298969	-1.51196e-05	1.045686e-05
	-1.054905e-05	9.34426e-06	0.01122882	0.009374926	-1.51196e-05	1.045686e-05	-0.01084355	-0.03127322
1.5e+08	-0.01338791	-0.03269922	-8.627272e-06	8.780197e-06	0.01235766	0.008852835	-1.02538e-05	9.341088e-06
	-8.627272e-06	8.780197e-06	-0.01422646	-0.03186205	-3.446202e-05	3.250759e-05	0.01224721	0.009050782
	0.01235766	0.008852835	-3.446202e-05	3.250759e-05	-0.01289859	-0.03374805	-1.457239e-05	1.083546e-05
	-1.02538e-05	9.341088e-06	0.01224721	0.009050783	-1.457239e-05	1.083546e-05	-0.01436105	-0.03185923
1.6e+08	-0.01694409	-0.03302807	-8.308653e-06	8.816098e-06	0.01330667	0.008381645	-9.939194e-06	9.391971e-06
	-8.308653e-06	8.816098e-06	-0.01778609	-0.03204256	-3.314771e-05	3.299509e-05	0.01319766	0.008597395
	0.01330667	0.008381644	-3.314771e-05	3.299509e-05	-0.01656581	-0.03408545	-1.400237e-05	1.122541e-05
	-9.939194e-06	9.391971e-06	0.01319766	0.008597395	-1.400237e-05	1.122541e-05	-0.01793795	-0.03202854
1.7e+08	-0.02052057	-0.03294432	-7.976041e-06	8.881588e-06	0.0141698	0.007787651	-9.608642e-06	9.481203e-06
	-7.976041e-06	8.881588e-06	-0.02135291	-0.03180626	-3.176352e-05	3.356613e-05	0.01406401	0.008025099
	0.0141698	0.007787651	-3.176352e-05	3.356613e-05	-0.02024878	-0.03399901	-1.341203e-05	1.161723e-05
	-9.608642e-06	9.481203e-06	0.01406401	0.0080251	-1.341203e-05	1.161723e-05	-0.02152108	-0.03177829
1.8e+08	-0.02406666	-0.03244999	-7.631599e-06	8.967158e-06	0.01493181	0.007083859	-9.264048e-06	9.597817e-06
	-7.631599e-06	8.967158e-06	-0.02487495	-0.03115678	-3.03166e-05	3.418685e-05	0.01483161	0.007346217
	0.01493181	0.007083859	-3.03166e-05	3.418685e-05	-0.02389644	-0.03349188	-1.2803e-05	1.200419e-05
	-9.264048e-06	9.597817e-06	0.01483161	0.007346218	-1.2803e-05	1.200419e-05	-0.02505814	-0.03111232
1.9e+08	-0.02753284	-0.03155314	-7.276771e-06	9.065879e-06	0.01557927	0.006285115	-8.906561e-06	9.733741e-06
	-7.276771e-06	9.065879e-06	-0.02830175	-0.03010409	-2.881203e-05	3.483194e-05	0.01548759	0.006574834
	0.01557927	0.006285115	-2.881203e-05	3.483194e-05	-0.02745892	-0.03257313	-1.21765e-05	1.23812e-05
	-8.906561e-06	9.733741e-06	0.01548759	0.006574834	-1.21765e-05	1.23812e-05	-0.02849836	-0.0300408
2e+08	-0.03087227	-0.03026753	-6.912079e-06	9.171176e-06	0.01611182	0.005381681	-8.536665e-06	9.882305e-06
	-6.912079e-06	9.171176e-06	-0.031585	-0.0286642	-2.725368e-05	3.548134e-05	0.01602102	0.005726547
	0.01611182	0.005381681	-2.725368e-05	3.548134e-05	-0.03088897	-0.03125742	-1.153339e-05	1.274388e-05
	-8.536665e-06	9.882305e-06	0.01602102	0.005726547	-1.153339e-05	1.274388e-05	-0.03179314	-0.02857999
2.1e+08	-0.03403892	-0.02861247	-6.538918e-06	9.280277e-06	0.01650635	0.004416427	-8.155141e-06	1.00391e-05
	-6.538918e-06	9.280277e-06	-0.03467916	-0.02685873	-2.564529e-05	3.611955e-05	0.01642313	0.004818192
	0.01650635	0.004416427	-2.564529e-05	3.611955e-05	-0.03414023	-0.0295649	-1.087481e-05	1.308936e-05
	-8.155141e-06	1.00391e-05	0.01642313	0.004818192	-1.087481e-05	1.308936e-05	-0.03489668	-0.02675179
2.2e+08	-0.03699041	-0.02661242	-6.157929e-06	9.390013e-06	0.01675564	0.003409856	-7.762367e-06	1.020017e-05
	-6.157929e-06	9.390013e-06	-0.03754204	-0.02471448	-2.399027e-05	3.673352e-05	0.01668741	0.003867555
	0.01675564	0.003409856	-2.399027e-05	3.673352e-05	-0.03717	-0.02752086	-1.020172e-05	1.341493e-05
	-7.762367e-06	1.020017e-05	0.01668741	0.003867555	-1.020172e-05	1.341493e-05	-0.03776657	-0.02458333
2.3e+08	-0.03968791	-0.02429653	-5.769607e-06	9.497728e-06	0.01685579	0.002381511	-7.358626e-06	1.036221e-05
	-5.769607e-06	9.497728e-06	-0.04013528	-0.02226301	-2.229206e-05	3.731226e-05	0.01680973	0.002893068
	0.01685579	0.002381511	-2.229206e-05	3.731226e-05	-0.0399392	-0.02515524	-9.515088e-06	1.371825e-05
	-7.358626e-06	1.036221e-05	0.01680973	0.002893068	-9.515088e-06	1.371825e-05	-0.04036427	-0.02210648
2.4e+08	-0.04209658	-0.02169818	-5.374444e-06	9.60121e-06	0.01680545	0.001351227	-6.944242e-06	1.05224e-05
	-5.374444e-06	9.60121e-06	-0.04242491	-0.01954001	-2.055438e-05	3.784641e-05	0.01678836	0.001913501
	0.01680545	0.001351227	-2.055438e-05	3.784641e-05	-0.04241274	-0.02250218	-8.815953e-06	1.399728e-05
	-6.944242e-06	1.05224e-05	0.01678836	0.001913501	-8.815953e-06	1.399728e-05	-0.04265566	-0.01935731
2.5e+08	-0.04418594	-0.01885446	-4.972878e-06	9.698581e-06	0.01660582	0.000338808	-6.519521e-06	1.067829e-05
	-4.972878e-06	9.698581e-06	-0.04438166	-0.01658485	-1.87811e-05	3.832796e-05	0.01662401	0.0009476489
	0.01660582	0.000338808	-1.87811e-05	3.832796e-05	-0.04455999	-0.01959954	-8.105431e-06	1.425022e-05
	-6.519521e-06	1.067829e-05	0.01662401	0.0009476488	-8.105431e-06	1.425022e-05	-0.04461139	-0.01637554
2.6e+08	-0.04593027	-0.01580561	-4.565383e-06	9.7881e-06	0.01626067	-0.0006363016	-6.084831e-06	1.082771e-05
	-4.565383e-06	9.7881e-06	-0.04598141	-0.01343984	-1.697623e-05	3.87487e-05	0.01631978	1.402725e-05
	0.01626067	-0.0006363015	-1.697623e-05	3.87487e-05	-0.0463551	-0.01648831	-7.384742e-06	1.447549e-05
	-6.084831e-06	1.082771e-05	0.01631978	1.402721e-05	-7.384742e-06	1.447549e-05	-0.04620726	-0.01320389
2.7e+08	-0.04730889	-0.01259448	-4.152403e-06	9.868445e-06	0.01577623	-0.001555332	-5.640565e-06	1.096873e-05
	-4.152403e-06	9.868445e-06	-0.04720534	-0.01014973	-1.514449e-05	3.910377e-05	0.01588114	-0.0008694331
	0.01577623	-0.001555332	-1.514449e-05	3.910377e-05	-0.0477773	-0.01321204	-6.655158e-06	1.467164e-05
	-5.640565e-06	1.096873e-05	0.01588114	-0.0008694331	-6.655158e-06	1.467164e-05	-0.04742448	-0.009887473
2.8e+08	-0.0483064	-0.009265829	-3.734431e-06	9.938387e-06	0.01516106	-0.002400498	-5.187208e-06	1.109962e-05
	-3.734431e-06	9.938387e-06	-0.0480402	-0.006760961	-1.329063e-05	3.938835e-05	0.01531579	-0.001685672
	0.01516106	-0.002400498	-1.329063e-05	3.938835e-05	-0.04881117	-0.009816237	-5.918074e-06	1.483744e-05
	-5.187208e-06	1.109962e-05	0.01531579	-0.001685672	-5.918074e-06	1.483744e-05	-0.04824987	-0.006473118
2.9e+08	-0.04891282	-0.005865796	-3.311989e-06	9.996803e-06	0.01442596	-0.003155282	-4.725309e-06	1.12188e-05
	-3.311989e-06	9.996803e-06	-0.04847849	-0.003321031	-1.141953e-05	3.959816e-05	0.01463353	-0.002418774
	0.01442596	-0.003155282	-1.141953e-05	3.959816e-05	-0.04944678	-0.006347723	-5.174974e-06	1.497175e-05
	-4.725309e-06	1.12188e-05	0.01463353	-0.002418774	-5.174974e-06	1.497175e-05	-0.04867603	-0.003008688
3e+08	-0.04912371	-0.002441205	-2.885632e-06	1.004267e-05	0.01358375	-0.003804702	-4.255478e-06	1.132483e-05
	-2.885632e-06	1.004267e-05	-0.04851841	0.0001221924	-9.536285e-06	3.972961e-05	0.01384613	-0.00305422
	0.01358375	-0.003804702	-9.536285e-06	3.972961e-05	-0.04967975	-0.002854008	-4.427428e-06	1.507363e-05
	-4.255478e-06	1.132483e-05	0.01384613	-0.00305422	-4.427428e-06	1.507363e-05	-0.04870132	0.0004575986
3.1e+08	-0.04894017	0.0009610731	-2.455971e-06	1.007509e-05	0.01264906	-0.004335553	-3.778419e-06	1.141642e-05
	-2.455971e-06	1.007509e-05	-0.04816391	0.003521153	-7.64616e-06	3.977989e-05	0.0129671	-0.003579119
	0.01264906	-0.004335553	-7.64616e-06	3.977989e-05	-0.04951133	0.0006173756	-3.677103e-06	1.514226e-05
	-3.778419e-06	1.141642e-05	0.0129671	-0.003579119	-3.677103e-06	1.514226e-05	-0.04832987	0.003877853
3.2e+08	-0.04836881	0.004294743	-2.023657e-06	1.009325e-05	0.0116381	-0.004736618	-3.294902e-06	1.149237e-05
	-2.023657e-06	1.009325e-05	-0.04742454	0.006829257	-5.754533e-06	3.974678e-05	0.01201148	-0.003982414
	0.0116381	-0.004736618	-5.754533e-06	3.974678e-05	-0.0489483	0.004019496	-2.925733e-06	1.517698e-05
	-3.294902e-06	1.149237e-05	0.01201148	-0.003982414	-2.925733e-06	1.517698e-05	-0.04757151	0.007205181
3.3e+08	-0.04742162	0.007514728	-1.589389e-06	1.009639e-05	0.0105684	-0.004998852	-2.805766e-06	1.15516e-05
	-1.589389e-06	1.009639e-05	-0.04631532	0.01000153	-3.86685e-06	3.962864e-05	0.0109956	-0.004255056
	0.0105684	-0.004998852	-3.86685e-06	3.962864e-05	-0.04800285	0.00730666	-2.175124e-06	1.517727e-05
	-2.805766e-06	1.15516e-05	0.0109956	-0.004255056	-2.175124e-06	1.517727e-05	-0.0464415	0.01039434
3.4e+08	-0.04611574	0.01057777	-1.153918e-06	1.008387e-05	0.009458498	-0.005115529	-2.311932e-06	1.159317e-05
	-1.153918e-06	1.008387e-05	-0.04485645	0.01299523	-1.988622e-06	3.942451e-05	0.009936837	-0.004390149
	0.009458498	-0.005115529	-1.988622e-06	3.942451e-05	-0.04669244	0.01043503	-1.427143e-06	1.514278e-05
	-2.311932e-06	1.159317e-05	0.009936837	-0.004390149	-1.427143e-06	1.514278e-05	-0.04496038	0.01340235
3.5e+08	-0.04447328	0.01344303	-7.18044e-07	1.005511e-05	0.008327692	-0.005082356	-1.81438e-06	1.16162e-05
	-7.18044e-07	1.005511e-05	-0.04307304	0.01577047	-1.253493e-07	3.913391e-05	0.008853302	-0.004383066
	0.008327692	-0.005082356	-1.253493e-07	3.913391e-05	-0.04503947	0.01336322	-6.836986e-07	1.50733e-05
	-1.81438e-06	1.16162e-05	0.008853302	-0.004383066	-6.836986e-07	1.50733e-05	-0.04315359	0.01618914
3.6e+08	-0.04252092	0.0160726	-2.826095e-07	1.000964e-05	0.007195681	-0.004897546	-1.314154e-06	1.161998e-05
	-2.826095e-07	1.000964e-05	-0.04099468	0.01829069	1.7175e-06	3.875696e-05	0.007763579	-0.004231525
	0.007195681	-0.004897546	1.7175e-06	3.875696e-05	-0.043071	0.0160528	5.326341e-08	1.496879e-05
	-1.314154e-06	1.161998e-05	0.007763579	-0.004231524	5.326341e-08	1.496879e-05	-0.0410511	0.01871801
3.7e+08	-0.0402896	0.01843208	1.515009e-07	9.947035e-06	0.006082272	-0.004561858	-8.123515e-07	1.160387e-05
	1.515009e-07	9.947035e-06	-0.03865506	0.02052324	3.534535e-06	3.829426e-05	0.006686416	-0.003935632
	0.006082272	-0.004561858	3.534535e-06	3.829426e-05	-0.04081836	0.01846889	7.817793e-07	1.482938e-05
	-8.123515e-07	1.160387e-05	0.006686416	-0.003935632	7.817793e-07	1.482938e-05	-0.03868696	0.0209562
3.8e+08	-0.03781401	0.02049096	5.833647e-07	9.866968e-06	0.00500705	-0.004078592	-3.101137e-07	1.156735e-05
	5.833647e-07	9.866968e-06	-0.03609141	0.02243977	5.320476e-06	3.774687e-05	0.005640428	-0.003497891
	0.00500705	-0.004078592	5.320476e-06	3.774687e-05	-0.03831669	0.02058056	1.499879e-06	1.465533e-05
	-3.101137e-07	1.156735e-05	0.005640428	-0.003497891	1.499879e-06	1.465533e-05	-0.03609883	0.02287533
3.9e+08	-0.03513219	0.02222309	1.012026e-06	9.769195e-06	0.003989061	-0.003453553	1.913778e-07	1.151002e-05
	1.012026e-06	9.769195e-06	-0.03334404	0.02401664	7.070177e-06	3.711632e-05	0.004643798	-0.002923171
	0.003989061	-0.003453553	7.070177e-06	3.711632e-05	-0.03560449	0.02236125	2.205599e-06	1.444708e-05
	1.913778e-07	1.151002e-05	0.004643798	-0.002923171	2.205599e-06	1.444708e-05	-0.03332739	0.02445175
4e+08	-0.0322849	0.02360702	1.4365e-06	9.653551e-06	0.003046498	-0.002694962	6.909108e-07	1.143158e-05
	1.4365e-06	9.653551e-06	-0.03045568	0.02523521	8.77866e-06	3.640455e-05	0.003713975	-0.002218641
	0.003046498	-0.002694962	8.77866e-06	3.640455e-05	-0.03272303	0.02378917	2.897e-06	1.420522e-05
	6.909108e-07	1.143158e-05	0.003713975	-0.002218641	2.897e-06	1.420522e-05	-0.03041578	0.0256669
4.1e+08	-0.02931512	0.02462626	1.855784e-06	9.519963e-06	0.002196394	-0.001813346	1.187256e-06	1.133185e-05
	1.855784e-06	9.519963e-06	-0.02747091	0.02608214	1.044115e-05	3.56139e-05	0.002867396	-0.001393665
	0.002196394	-0.001813346	1.044115e-05	3.56139e-05	-0.02971585	0.02484756	3.572178e-06	1.39305e-05
	1.187256e-06	1.133185e-05	0.002867396	-0.001393665	3.572178e-06	1.39305e-05	-0.02740899	0.02650753
4.2e+08	-0.02626745	0.02526956	2.268858e-06	9.368447e-06	0.001454342	-0.000821375	1.679175e-06	1.121077e-05
	2.268858e-06	9.368447e-06	-0.02443552	0.0265495	1.205308e-05	3.474709e-05	0.002119203	-0.0004596701
	0.001454342	-0.000821375	1.205308e-05	3.474709e-05	-0.02662807	0.02552491	4.229281e-06	1.362381e-05
	1.679175e-06	1.121077e-05	0.002119203	-0.0004596701	4.229281e-06	1.362381e-05	-0.02435316	0.02696589
4.3e+08	-0.02318745	0.02553099	2.6747e-06	9.199105e-06	0.000834218	0.0002663267	2.16543e-06	1.106837e-05
	2.6747e-06	9.199105e-06	-0.02139585	0.02663494	1.361016e-05	3.380718e-05	0.001482993	0.0005700338
	0.000834218	0.0002663267	1.361016e-05	3.380718e-05	-0.02350584	0.02581511	4.866523e-06	1.32862e-05
	2.16543e-06	1.106837e-05	0.001482993	0.0005700338	4.866523e-06	1.32862e-05	-0.02129501	0.02703981
4.4e+08	-0.02012103	0.02541009	3.072281e-06	9.012121e-06	0.0003479435	0.001433409	2.644792e-06	1.090482e-05
	3.072281e-06	9.012121e-06	-0.01839811	0.02634164	1.510832e-05	3.279752e-05	0.0009705806	0.001680452
	0.0003479435	0.001433409	1.510832e-05	3.279752e-05	-0.02039566	0.02571758	5.48219e-06	1.291881e-05
	2.644792e-06	1.090482e-05	0.0009705806	0.001680452	5.48219e-06	1.291881e-05	-0.01828105	0.02673275
4.5e+08	-0.0171138	0.0249118	3.460581e-06	8.807768e-06	5.268697e-06	0.002662051	3.116047e-06	1.072034e-05
	3.460581e-06	8.807768e-06	-0.01548772	0.02567831	1.654381e-05	3.172174e-05	0.00059179	0.002855142
	5.268702e-06	0.002662051	1.654381e-05	3.172174e-05	-0.01734374	0.02523721	6.074654e-06	1.252295e-05
	3.116047e-06	1.072034e-05	0.00059179	0.002855142	6.074654e-06	1.252295e-05	-0.01535703	0.02605372
4.6e+08	-0.01421043	0.02404647	3.8386e-06	8.586409e-06	-0.0001864094	0.003933245	3.577958e-06	1.051525e-05
	3.8386e-06	8.586409e-06	-0.01270871	0.02465902	1.791313e-05	3.058375e-05	0.0003542765	0.004076471
	-0.0001864094	0.003933245	1.791313e-05	3.058375e-05	-0.01439534	0.02438432	6.642159e-06	1.209983e-05
	3.577958e-06	1.051525e-05	0.0003542766	0.004076471	6.642159e-06	1.209983e-05	-0.01256718	0.02501714
4.7e+08	-0.01145404	0.02282962	4.205349e-06	8.348476e-06	-0.000222193	0.005227103	4.029424e-06	1.029004e-05
	4.205349e-06	8.348476e-06	-0.010103	0.02330301	1.921309e-05	2.938765e-05	0.0002633794	0.005325901
	-0.000222193	0.005227103	1.921309e-05	2.938765e-05	-0.01159414	0.02317454	7.183284e-06	1.165102e-05
	4.029424e-06	1.029004e-05	0.0002633794	0.005325901	7.183284e-06	1.165102e-05	-0.009953684	0.0236426
