!$
! Info: Touchstone file created by Circ.  Input file=Tx_6in_Rx_93ohms_TxVia_60mils_RxVia_70mils.circ
!$
# Hz S RI R 50
0	0.005629784	1.072655e-25	0.9942297	-9.721684e-26	5.569474e-05	1.22254e-23	-5.10203e-05	2.280931e-21
	0.9942297	-9.842016e-26	0.005625136	1.118941e-25	-5.150243e-05	2.340007e-21	5.242595e-05	1.363603e-23
	5.69167e-05	1.187815e-23	-5.081099e-05	2.255326e-21	0.005640601	1.064099e-25	0.994208	-9.458207e-26
	-5.12901e-05	2.313967e-21	5.269577e-05	1.369451e-23	0.994208	-9.957342e-26	0.005639659	1.113844e-25
1e+07	0.008254201	-7.812274e-05	0.9893797	-0.06531193	0.0001787805	0.001292599	-9.689759e-05	-0.0001206007
	0.9893797	-0.06531193	0.008248989	-7.824297e-05	-9.699975e-05	-0.0001205473	0.0001766763	0.001293141
	0.0001788504	0.001292567	-9.696567e-05	-0.0001205667	0.008102193	-8.308325e-05	0.9895252	-0.06540977
	-9.68635e-05	-0.0001206201	0.0001766786	0.001293139	0.9895253	-0.06540977	0.00809649	-8.300841e-05
2e+07	0.009850277	-0.002164171	0.9811591	-0.1281092	0.0003913492	0.002582436	-7.38889e-05	-0.0002656674
	0.9811591	-0.1281092	0.009829075	-0.002163215	-7.391373e-05	-0.0002655863	0.0003829965	0.002584458
	0.0003913346	0.002582399	-7.392074e-05	-0.000265606	0.009736004	-0.002116033	0.9812475	-0.1283617
	-7.388087e-05	-0.0002657037	0.0003829933	0.002584458	0.9812475	-0.1283617	0.009712799	-0.002114638
3e+07	0.01063304	-0.004986044	0.9695398	-0.1895004	0.0008012296	0.003777865	-0.0001005251	-0.0003637833
	0.9695398	-0.1895004	0.01058556	-0.004979761	-0.0001005625	-0.0003637546	0.0007828233	0.003783013
	0.0008012258	0.003777864	-0.0001005642	-0.0003637544	0.0105478	-0.004926396	0.9695668	-0.1898633
	-0.0001005271	-0.0003637872	0.000782823	0.003783015	0.9695668	-0.1898633	0.01049596	-0.004918887
4e+07	0.01080213	-0.008059257	0.9543756	-0.2497144	0.001383121	0.004886233	-0.000160113	-0.0004425931
	0.9543756	-0.2497144	0.01071862	-0.008042018	-0.0001601961	-0.0004425566	0.001351171	0.004896866
	0.001383127	0.004886233	-0.0001601924	-0.000442556	0.01074108	-0.00799944	0.9543337	-0.2501728
	-0.0001601052	-0.000442587	0.001351172	0.004896867	0.9543337	-0.2501728	0.01064999	-0.007979777
5e+07	0.01043428	-0.01122034	0.9356658	-0.3086464	0.002089798	0.00590045	-0.000216894	-0.0005146652
	0.9356658	-0.3086464	0.01030608	-0.01118408	-0.0002170053	-0.0005145876	0.002041333	0.005919593
	0.002089801	0.005900448	-0.000217003	-0.0005145881	0.01039317	-0.01116698	0.9355469	-0.3091892
	-0.0002168878	-0.0005146637	0.002041334	0.005919593	0.9355469	-0.3091892	0.01025332	-0.01112629
6e+07	0.009576636	-0.01436584	0.9134591	-0.366135	0.002908777	0.006807059	-0.0002728908	-0.0005840029
	0.9134591	-0.366135	0.009397057	-0.01430097	-0.0002730151	-0.0005838758	0.002841414	0.00683826
	0.002908777	0.006807061	-0.0002730156	-0.0005838752	0.009551418	-0.01432349	0.9132552	-0.3667515
	-0.0002728965	-0.0005840029	0.002841416	0.006838261	0.9132552	-0.3667515	0.009355601	-0.01425122
7e+07	0.008267583	-0.01741699	0.8878305	-0.4219997	0.00382541	0.007593422	-0.0003301032	-0.0006529931
	0.8878305	-0.4219997	0.008031719	-0.01731302	-0.0003302373	-0.0006528113	0.003737412	0.007640652
	0.003825408	0.007593427	-0.0003302393	-0.0006528086	0.008254232	-0.01738906	0.8875344	-0.4226793
	-0.0003301201	-0.000652988	0.003737413	0.007640652	0.8875344	-0.4226793	0.00799718	-0.01727382
8e+07	0.00654412	-0.02030817	0.8588746	-0.4760545	0.004823262	0.008248443	-0.0003905747	-0.0007231059
	0.8588746	-0.4760545	0.006248665	-0.02015388	-0.0003907211	-0.0007228559	0.004713589	0.008316001
	0.004823261	0.00824845	-0.0003907232	-0.0007228519	0.00653847	-0.02029739	0.8584798	-0.4767861
	-0.000390595	-0.0007230942	0.00471359	0.008316	0.8584798	-0.4767861	0.006216584	-0.02012696
9e+07	0.004445682	-0.02298159	0.8267008	-0.5281152	0.005884401	0.008762997	-0.0004564608	-0.0007951038
	0.8267008	-0.5281152	0.004089029	-0.022765	-0.0004566189	-0.0007947617	0.005752758	0.0088554
	0.005884401	0.008763002	-0.00045662	-0.0007947585	0.00444321	-0.02299031	0.8262019	-0.528887
	-0.0004564748	-0.0007950914	0.005752758	0.008855399	0.8262019	-0.528887	0.004054681	-0.02275164
1e+08	0.002023511	-0.02537529	0.7914229	-0.5780141	0.00698973	0.009129976	-0.0005300042	-0.0008688001
	0.7914229	-0.5780141	0.001606007	-0.02508388	-0.0005301644	-0.0008683349	0.006836596	0.009251853
	0.00698973	0.009129976	-0.0005301644	-0.000868335	0.002018059	-0.02540723	0.790817	-0.5788117
	-0.0005300042	-0.0008688002	0.006836596	0.009251853	0.790817	-0.5788117	0.001563192	-0.02508656
1.1e+08	-0.0006432977	-0.02751958	0.7531428	-0.6254985	0.008117983	0.009346172	-0.0006126684	-0.0009443694
	0.7531428	-0.6254985	-0.001118261	-0.02714112	-0.0006127901	-0.0009437975	0.007944654	0.009502102
	0.008117983	0.009346172	-0.0006127901	-0.0009437974	-0.0006629334	-0.02756782	0.7524339	-0.6263177
	-0.0006126685	-0.0009443692	0.007944652	0.009502102	0.7524339	-0.6263177	-0.001180219	-0.02715181
1.2e+08	-0.003592365	-0.0293631	0.7120993	-0.6704171	0.009250327	0.009410758	-0.0007078721	-0.001021313
	0.7120993	-0.6704171	-0.00411999	-0.02888536	-0.000707932	-0.001020635	0.009058853	0.009605175
	0.009250327	0.009410758	-0.0007079319	-0.001020635	-0.003625772	-0.02942259	0.7112798	-0.6712511
	-0.0007078721	-0.001021313	0.009058851	0.009605176	0.7112798	-0.6712511	-0.004200167	-0.02889793
1.3e+08	-0.00676709	-0.03085825	0.6684452	-0.7126308	0.01036672	0.00932458	-0.0008177105	-0.001097448
	0.6684452	-0.7126308	-0.007340422	-0.03026968	-0.0008176846	-0.001096667	0.01015991	0.009561664
	0.01036672	0.00932458	-0.0008176845	-0.001096667	-0.006815024	-0.03092625	0.6675099	-0.7134698
	-0.0008177104	-0.001097448	0.01015991	0.009561665	0.6675099	-0.7134698	-0.00743888	-0.03028036
1.4e+08	-0.01011678	-0.03197775	0.6223514	-0.7519961	0.01144743	0.009091373	-0.000943894	-0.001170342
	0.6223514	-0.7519961	-0.01072687	-0.03126775	-0.0009437585	-0.00116947	0.01122882	0.009374925
	0.01144743	0.009091373	-0.0009437583	-0.00116947	-0.01018006	-0.03205185	0.6212965	-0.752829
	-0.0009438938	-0.001170342	0.01122882	0.009374926	0.6212965	-0.752829	-0.01084355	-0.03127322
1.5e+08	-0.01359038	-0.0327028	0.5739989	-0.788378	0.01247342	0.008717452	-0.001087665	-0.00123714
	0.5739989	-0.788378	-0.01422646	-0.03186205	-0.001087397	-0.001236192	0.01224721	0.009050782
	0.01247342	0.008717452	-0.001087397	-0.001236192	-0.01366973	-0.03278074	0.5728215	-0.7891931
	-0.001087665	-0.00123714	0.01224721	0.009050783	0.5728215	-0.7891931	-0.01436105	-0.03185923
1.6e+08	-0.01713644	-0.03302185	0.5235769	-0.8216518	0.01342668	0.00821157	-0.001249714	-0.001294635
	0.5235769	-0.8216518	-0.01778609	-0.03204256	-0.001249295	-0.001293631	0.01319766	0.008597395
	0.01342668	0.00821157	-0.001249295	-0.001293631	-0.0172324	-0.03310136	0.5222755	-0.8224372
	-0.001249714	-0.001294635	0.01319766	0.008597395	0.5222755	-0.8224372	-0.01793795	-0.03202854
1.7e+08	-0.02070353	-0.03293009	0.4712821	-0.8517049	0.01429052	0.007584754	-0.001430115	-0.001339372
	0.4712821	-0.8517049	-0.02135291	-0.03180626	-0.001429529	-0.001338336	0.01406401	0.008025099
	0.01429052	0.007584754	-0.001429529	-0.001338336	-0.02081645	-0.03300891	0.4698562	-0.8524481
	-0.001430115	-0.001339372	0.01406401	0.0080251	0.4698562	-0.8524481	-0.02152108	-0.03177829
1.8e+08	-0.02424081	-0.03242914	0.4173175	-0.8784364	0.01504991	0.006850095	-0.001628282	-0.001367765
	0.4173175	-0.8784364	-0.02487495	-0.03115678	-0.001627517	-0.001366727	0.01483161	0.007346217
	0.01504991	0.006850095	-0.001627517	-0.001366727	-0.02437081	-0.032505	0.4157676	-0.879125
	-0.001628282	-0.001367765	0.01483161	0.007346218	0.4157676	-0.879125	-0.02505814	-0.03111232
1.9e+08	-0.0276987	-0.0315268	0.3618914	-0.9017583	0.01569167	0.006022516	-0.001842944	-0.001376227
	0.3618914	-0.9017583	-0.02830175	-0.03010409	-0.001841995	-0.001375218	0.01548759	0.006574834
	0.01569167	0.006022516	-0.001841995	-0.001375218	-0.02784565	-0.03159743	0.3602192	-0.9023797
	-0.001842944	-0.001376228	0.01548759	0.006574834	0.3602192	-0.9023797	-0.02849836	-0.0300408
2e+08	-0.03102942	-0.03023671	0.3052165	-0.9215953	0.0162047	0.005118499	-0.002072149	-0.001361296
	0.3052165	-0.9215953	-0.031585	-0.0286642	-0.002071016	-0.001360348	0.01602102	0.005726547
	0.0162047	0.0051185	-0.002071016	-0.001360348	-0.03119294	-0.03029988	0.3034249	-0.9221369
	-0.002072149	-0.001361296	0.01602102	0.005726547	0.3034249	-0.9221369	-0.03179314	-0.02857999
2.1e+08	-0.03418763	-0.02857807	0.2475093	-0.9378852	0.01658019	0.004155802	-0.002313288	-0.00131976
	0.2475093	-0.9378852	-0.03467916	-0.02685873	-0.002311978	-0.001318906	0.01642313	0.004818192
	0.01658019	0.004155802	-0.002311978	-0.001318906	-0.0343671	-0.02863162	0.2456022	-0.9383347
	-0.002313288	-0.00131976	0.01642313	0.004818192	0.2456022	-0.9383347	-0.03489668	-0.02675179
2.2e+08	-0.03713098	-0.02657523	0.1889889	-0.9505792	0.01681174	0.00315314	-0.002563143	-0.001248779
	0.1889889	-0.9505792	-0.03754204	-0.02471448	-0.002561671	-0.001248053	0.01668741	0.003867555
	0.01681174	0.00315314	-0.002561671	-0.001248053	-0.0373255	-0.02661705	0.1869714	-0.9509243
	-0.002563143	-0.001248779	0.01668741	0.003867555	0.1869714	-0.9509243	-0.03776657	-0.02458333
2.3e+08	-0.0398206	-0.02425724	0.1298765	-0.9596416	0.01689543	0.002129873	-0.002817959	-0.001145996
	0.1298765	-0.9596416	-0.04013528	-0.02226301	-0.002816345	-0.001145425	0.01680973	0.002893068
	0.01689543	0.002129873	-0.002816345	-0.001145425	-0.04002903	-0.02428535	0.1277547	-0.9598704
	-0.002817959	-0.001145996	0.01680973	0.002893068	0.1277547	-0.9598704	-0.04036427	-0.02210648
2.4e+08	-0.04222161	-0.02165742	0.07039435	-0.9650501	0.01682992	0.001105667	-0.003073525	-0.001009624
	0.07039435	-0.9650501	-0.04242491	-0.01954001	-0.003071794	-0.001009235	0.01678836	0.001913501
	0.01682992	0.001105667	-0.003071794	-0.001009235	-0.0424426	-0.02166997	0.06817539	-0.9651511
	-0.003073525	-0.001009624	0.01678836	0.001913501	0.06817539	-0.9651511	-0.04265566	-0.01935731
2.5e+08	-0.04430351	-0.01881279	0.01076494	-0.9667955	0.0166164	0.0001001716	-0.003325282	-0.000838534
	0.01076494	-0.9667955	-0.04438166	-0.01658485	-0.003323466	-0.0008383459	0.01662401	0.0009476489
	0.0166164	0.0001001716	-0.003323466	-0.0008383459	-0.04453546	-0.01880809	0.008457007	-0.9667578
	-0.003325282	-0.000838534	0.01662401	0.0009476488	0.008457007	-0.9667578	-0.04461139	-0.01637554
2.6e+08	-0.04604059	-0.01576355	-0.04878953	-0.9648822	0.01625863	-0.0008673122	-0.003568437	-0.0006323051
	-0.04878953	-0.9648822	-0.04598141	-0.01343984	-0.003566572	-0.0006323323	0.01631978	1.402725e-05
	0.01625863	-0.0008673122	-0.003566572	-0.0006323323	-0.04628169	-0.01574012	-0.0511773	-0.9646952
	-0.003568437	-0.0006323051	0.01631978	1.402721e-05	-0.0511773	-0.9646952	-0.04620726	-0.01320389
2.7e+08	-0.04741213	-0.0125525	-0.1080481	-0.9593272	0.01576282	-0.001778151	-0.003798087	-0.0003912641
	-0.1080481	-0.9593272	-0.04720534	-0.01014973	-0.00379621	-0.0003915134	0.01588114	-0.0008694331
	0.01576282	-0.001778151	-0.00379621	-0.0003915134	-0.04766039	-0.01250906	-0.1105056	-0.9589811
	-0.003798087	-0.0003912641	0.01588114	-0.0008694331	-0.1105056	-0.9589811	-0.04742448	-0.009887473
2.8e+08	-0.0484027	-0.009224405	-0.1667918	-0.9501608	0.01513751	-0.002614682	-0.004009348	-0.0001164992
	-0.1667918	-0.9501608	-0.0480402	-0.006760961	-0.004007499	-0.0001169695	0.01531579	-0.001685672
	0.01513751	-0.002614682	-0.004007499	-0.0001169695	-0.04865599	-0.009159903	-0.169308	-0.9496465
	-0.004009348	-0.0001164992	0.01531579	-0.001685672	-0.169308	-0.9496465	-0.04824987	-0.006473118
2.9e+08	-0.04900234	-0.00582537	-0.2248041	-0.9374257	0.01439347	-0.003360506	-0.004197482	0.0001901494
	-0.2248041	-0.9374257	-0.04847849	-0.003321031	-0.004195698	0.0001894668	0.01463353	-0.002418774
	0.01439347	-0.003360506	-0.004195698	0.0001894668	-0.04925839	-0.005739023	-0.2273672	-0.9367349
	-0.004197482	0.0001901494	0.01463353	-0.002418774	-0.2273672	-0.9367349	-0.04867603	-0.003008688
3e+08	-0.04920658	-0.00240221	-0.2818717	-0.9211775	0.01354348	-0.004000748	-0.004358024	0.0005261208
	-0.2818717	-0.9211775	-0.04851841	0.0001221924	-0.004356344	0.0005252427	0.01384613	-0.00305422
	0.01354348	-0.004000748	-0.004356344	0.0005252427	-0.04946303	-0.002293497	-0.2844692	-0.9203027
	-0.004358024	0.0005261208	0.01384613	-0.00305422	-0.2844692	-0.9203027	-0.04870132	0.0004575986
3.1e+08	-0.04901655	0.0009982109	-0.3377856	-0.9014838	0.01260214	-0.004522303	-0.004486901	0.0008881872
	-0.3377856	-0.9014838	-0.04816391	0.003521153	-0.004485356	0.0008871379	0.0129671	-0.003579119
	0.01260214	-0.004522303	-0.004485356	0.0008871379	-0.04927095	0.001129524	-0.3404042	-0.9004185
	-0.004486901	0.0008881873	0.0129671	-0.003579119	-0.3404042	-0.9004185	-0.04832987	0.003877853
3.2e+08	-0.04843885	0.004329604	-0.3923411	-0.8784244	0.01158562	-0.004914048	-0.004580534	0.001272527
	-0.3923411	-0.8784244	-0.04742454	0.006829257	-0.004579152	0.001271337	0.01201148	-0.003982414
	0.01158562	-0.004914048	-0.004579152	0.001271337	-0.04868873	0.004483458	-0.3949667	-0.8771629
	-0.004580534	0.001272527	0.01201148	-0.003982414	-0.3949667	-0.8771629	-0.04757151	0.007205181
3.3e+08	-0.04748547	0.007546893	-0.4453387	-0.8520907	0.01051138	-0.005167025	-0.004635934	0.001674813
	-0.4453387	-0.8520907	-0.04631532	0.01000153	-0.004634736	0.001673518	0.0109956	-0.004255056
	0.01051138	-0.005167025	-0.004634736	0.001673518	-0.04772833	0.007722929	-0.4479568	-0.8506285
	-0.004635934	0.001674813	0.0109956	-0.004255056	-0.4479568	-0.8506285	-0.0464415	0.01039434
3.4e+08	-0.04617358	0.01060683	-0.496585	-0.8225859	0.009397926	-0.005274585	-0.004650774	0.002090321
	-0.496585	-0.8225859	-0.04485645	0.01299523	-0.004649773	0.002088962	0.009936837	-0.004390149
	0.009397926	-0.005274585	-0.004649773	0.002088962	-0.04640698	0.01080439	-0.4991806	-0.8209194
	-0.004650774	0.002090321	0.009936837	-0.004390149	-0.4991806	-0.8209194	-0.04496038	0.01340235
3.5e+08	-0.04452529	0.01346857	-0.5458929	-0.7900238	0.008264493	-0.005232508	-0.004623444	0.002514042
	-0.5458929	-0.7900238	-0.04307304	0.01577047	-0.004622644	0.002512663	0.008853302	-0.004383066
	0.008264493	-0.005232508	-0.004622644	0.002512663	-0.04474684	0.01368669	-0.5484506	-0.7881506
	-0.004623444	0.002514042	0.008853302	-0.004383066	-0.5484506	-0.7881506	-0.04315359	0.01618914
3.6e+08	-0.04256732	0.01609422	-0.5930824	-0.7545294	0.007130725	-0.005039073	-0.004553082	0.002940808
	-0.5930824	-0.7545294	-0.04099468	0.01829069	-0.004552479	0.002939451	0.007763579	-0.004231525
	0.007130725	-0.005039073	-0.004552479	0.002939451	-0.04277474	0.01633165	-0.5955863	-0.7524483
	-0.004553082	0.002940808	0.007763579	-0.004231524	-0.5955863	-0.7524483	-0.0410511	0.01871801
3.7e+08	-0.04033061	0.01844937	-0.6379812	-0.7162379	0.006016367	-0.004695096	-0.004439591	0.003365417
	-0.6379812	-0.7162379	-0.03865506	0.02052324	-0.00443917	0.003364125	0.006686416	-0.003935632
	0.006016367	-0.004695096	-0.00443917	0.003364125	-0.04052177	0.01870457	-0.6404152	-0.7139486
	-0.004439591	0.003365417	0.006686416	-0.003935632	-0.6404152	-0.7139486	-0.03868696	0.0209562
3.8e+08	-0.0378499	0.02050354	-0.6804252	-0.6752944	0.004940942	-0.00420393	-0.004283621	0.003782759
	-0.6804252	-0.6752944	-0.03609141	0.02243977	-0.004283359	0.003781571	0.005640428	-0.003497891
	0.004940942	-0.00420393	-0.004283359	0.003781571	-0.03802283	0.0207747	-0.682773	-0.6727981
	-0.004283621	0.003782759	0.005640428	-0.003497891	-0.682773	-0.6727981	-0.03609883	0.02287533
3.9e+08	-0.03516322	0.02223057	-0.7202591	-0.6318537	0.003923433	-0.003571422	-0.004086539	0.004187938
	-0.7202591	-0.6318537	-0.03334404	0.02401664	-0.004086404	0.004186888	0.004643798	-0.002923171
	0.003923433	-0.003571422	-0.004086404	0.004186888	-0.03531617	0.02251564	-0.7225043	-0.6291526
	-0.004086539	0.004187938	0.004643798	-0.002923171	-0.7225043	-0.6291526	-0.03332739	0.02445175
4e+08	-0.0323114	0.02360902	-0.7573369	-0.5860795	0.002981966	-0.002805836	-0.003850375	0.004576387
	-0.7573369	-0.5860795	-0.03045568	0.02523521	-0.003850327	0.004575502	0.003713975	-0.002218641
	0.002981966	-0.002805836	-0.003850327	0.004575502	-0.03244285	0.02390574	-0.7594631	-0.5831771
	-0.003850375	0.004576387	0.003713975	-0.002218641	-0.7594631	-0.5831771	-0.03041578	0.0256669
4.1e+08	-0.02933743	0.02462244	-0.7915227	-0.5381441	0.002133509	-0.001917727	-0.003577748	0.004943963
	-0.7915227	-0.5381441	-0.02747091	0.02608214	-0.003577742	0.004943261	0.002867396	-0.001393665
	0.002133509	-0.001917727	-0.003577742	0.004943261	-0.02944614	0.02492832	-0.7935135	-0.5350451
	-0.003577748	0.004943963	0.002867396	-0.001393665	-0.7935135	-0.5350451	-0.02740899	0.02650753
4.2e+08	-0.02628593	0.02525957	-0.8226906	-0.4882279	0.001393587	-0.0009197916	-0.003271776	0.005287038
	-0.8226906	-0.4882279	-0.02443552	0.0265495	-0.003271762	0.005286528	0.002119203	-0.0004596701
	0.001393587	-0.0009197916	-0.003271762	0.005286528	-0.02637095	0.02557199	-0.8245299	-0.4849383
	-0.003271776	0.005287038	0.002119203	-0.0004596701	-0.8245299	-0.4849383	-0.02435316	0.02696589
4.3e+08	-0.02320251	0.02551452	-0.8507261	-0.4365185	0.0007760083	0.0001733289	-0.002935977	0.005602566
	-0.8507261	-0.4365185	-0.02139585	0.02663494	-0.002935904	0.005602246	0.001482993	0.0005700338
	0.0007760083	0.0001733289	-0.002935904	0.005602246	-0.0232632	0.02583071	-0.8523979	-0.4330457
	-0.002935977	0.005602566	0.001482993	0.0005700338	-0.8523979	-0.4330457	-0.02129501	0.02703981
4.4e+08	-0.0201331	0.02538685	-0.8755258	-0.3832108	0.0002926302	0.001345272	-0.002574153	0.005888127
	-0.8755258	-0.3832108	-0.01839811	0.02634164	-0.002573968	0.005887984	0.0009705806	0.001680452
	0.0002926302	0.001345272	-0.002573968	0.005887984	-0.02016916	0.02570395	-0.8770144	-0.379563
	-0.002574153	0.005888127	0.0009705806	0.001680452	-0.8770144	-0.379563	-0.01828105	0.02673275
4.5e+08	-0.01712334	0.02488155	-0.8969982	-0.3285052	-4.686263e-05	0.002578212	-0.002190275	0.006141956
	-0.8969982	-0.3285052	-0.01548772	0.02567831	-0.002189928	0.006141965	0.00059179	0.002855142
	-4.686263e-05	0.002578212	-0.002189928	0.006141965	-0.01713482	0.02519664	-0.8982883	-0.3246922
	-0.002190275	0.006141956	0.00059179	0.002855142	-0.8982883	-0.3246922	-0.01535703	0.02605372
4.6e+08	-0.01421793	0.02400897	-0.915064	-0.2726082	-0.0002351359	0.00385314	-0.00178836	0.006362947
	-0.915064	-0.2726082	-0.01270871	0.02465902	-0.001787805	0.006363072	0.0003542765	0.004076471
	-0.0002351359	0.00385314	-0.001787805	0.006363072	-0.0142052	0.02431916	-0.916141	-0.2686409
	-0.00178836	0.006362947	0.0003542766	0.004076471	-0.916141	-0.2686409	-0.01256718	0.02501714
4.7e+08	-0.01146	0.0227847	-0.9296566	-0.2157307	-0.000267353	0.005150177	-0.001372357	0.006550633
	-0.9296566	-0.2157307	-0.010103	0.02330301	-0.001371556	0.006550828	0.0002633794	0.005325901
	-0.000267353	0.005150177	-0.001371556	0.006550828	-0.01142383	0.0230871	-0.9305064	-0.2116211
	-0.001372357	0.006550633	0.0002633794	0.005325901	-0.9305064	-0.2116211	-0.009953684	0.0236426
4.8e+08	-0.008890509	0.02122934	-0.9407225	-0.1580876	-0.0001412799	0.006448893	-0.0009460323	0.006705149
	-0.9407225	-0.1580876	-0.007709886	0.0216344	-0.0009449552	0.006705359	0.0003220137	0.006584289
	-0.0001412799	0.006448893	-0.0009449552	0.006705359	-0.008832018	0.02152113	-0.9413316	-0.153849
	-0.0009460323	0.006705149	0.0003220137	0.006584289	-0.9413316	-0.153849	-0.007555978	0.02195459
4.9e+08	-0.006547668	0.01936816	-0.9482213	-0.0998972	0.0001426512	0.007728648	-0.0005128719	0.006827168
	-0.9482213	-0.0998972	-0.005565412	0.0196818	-0.0005114998	0.006827332	0.0005306002	0.007832204
	0.0001426512	0.007728648	-0.0005114998	0.006827332	-0.006468329	0.01964665	-0.9485771	-0.09554391
	-0.0005128719	0.006827168	0.0005306002	0.007832204	-0.9485771	-0.09554391	-0.005410237	0.01998217
5e+08	-0.00446639	0.01723082	-0.9521262	-0.04137996	0.0005813222	0.008968941	-7.59925e-05	0.006917831
	-0.9521262	-0.04137996	-0.003701891	0.01747793	-7.431861e-05	0.006917881	0.0008870358	0.00905025
	0.0005813222	0.008968941	-7.431861e-05	0.006917881	-0.004368016	0.0174935	-0.9522167	-0.03692737
