!$
! Info: Touchstone file created by Circ.  Input file=Tx_6in_Rx_85ohms_TxVia_60mils_RxVia_70mils.circ
!$
# Hz S RI R 50
0	0.004959654	1.076076e-25	0.9948999	-9.757458e-26	5.585653e-05	1.075409e-23	-5.117997e-05	2.282469e-21
	0.9948999	-9.878156e-26	0.004955007	1.122706e-25	-5.166242e-05	2.341584e-21	5.258382e-05	1.199277e-23
	5.707816e-05	1.044869e-23	-5.097051e-05	2.256846e-21	0.004970502	1.06749e-25	0.9948781	-9.493163e-26
	-5.144994e-05	2.315527e-21	5.285367e-05	1.20442e-23	0.9948781	-9.993834e-26	0.004969549	1.117592e-25
1e+07	0.00663266	-0.005258565	0.9905192	-0.06679853	0.0001811081	0.00128463	-8.633887e-05	-4.722832e-05
	0.9905192	-0.06679853	0.006625775	-0.005258144	-8.64408e-05	-4.717617e-05	0.0001788441	0.001285193
	0.0001811778	0.001284598	-8.640669e-05	-4.719571e-05	0.006628492	-0.005249086	0.9905173	-0.06689371
	-8.630476e-05	-4.724786e-05	0.0001788464	0.00128519	0.9905173	-0.06689371	0.006621126	-0.00524851
2e+07	0.007326474	-0.01219523	0.9818137	-0.1312665	0.0004586933	0.002505534	-9.124082e-05	-6.472694e-05
	0.9818137	-0.1312665	0.007298817	-0.01219252	-9.126456e-05	-6.464739e-05	0.0004496849	0.002507654
	0.0004586781	0.002505497	-9.127162e-05	-6.466714e-05	0.007328704	-0.01217124	0.9817875	-0.1314606
	-9.123286e-05	-6.476332e-05	0.0004496817	0.002507655	0.9817875	-0.1314606	0.007299048	-0.01216816
3e+07	0.006537584	-0.01982496	0.9695011	-0.19412	0.000883156	0.003666093	-7.34873e-05	-8.215314e-05
	0.9695011	-0.19412	0.006475854	-0.01981439	-7.352234e-05	-8.212648e-05	0.0008633143	0.003671585
	0.0008831522	0.003666093	-7.352411e-05	-8.212625e-05	0.006545037	-0.01979183	0.9694399	-0.1944051
	-7.348935e-05	-8.215699e-05	0.0008633141	0.003671587	0.9694399	-0.1944051	0.006478951	-0.01978011
4e+07	0.004509938	-0.02747976	0.9534328	-0.2556609	0.001447197	0.00475095	-3.784077e-05	-0.0001099564
	0.9534328	-0.2556609	0.004401699	-0.02745372	-3.791962e-05	-0.000109923	0.001412797	0.004762424
	0.001447203	0.004750949	-3.79159e-05	-0.0001099224	0.004522177	-0.02743942	0.9533258	-0.2560316
	-3.783293e-05	-0.0001099503	0.001412797	0.004762425	0.9533258	-0.2560316	0.004406359	-0.02741103
5e+07	0.001364281	-0.03490761	0.933621	-0.3157679	0.002139181	0.005742998	1.088457e-05	-0.0001551821
	0.933621	-0.3157679	0.001198639	-0.03485554	1.078037e-05	-0.0001551094	0.002087073	0.005763773
	0.002139184	0.005742997	1.078267e-05	-0.0001551099	0.001380648	-0.03486137	0.9334575	-0.3162184
	1.089074e-05	-0.0001551807	0.002087074	0.005763773	0.9334575	-0.3162184	0.001203386	-0.03480493
6e+07	-0.002801961	-0.04193187	0.9101342	-0.3742559	0.002944723	0.006626588	6.674544e-05	-0.0002229199
	0.9101342	-0.3742559	-0.00303341	-0.04184124	6.66317e-05	-0.0002228007	0.002872419	0.006660543
	0.002944722	0.00662659	6.663119e-05	-0.0002228001	-0.002782197	-0.04188063	0.9099043	-0.3747796
	6.673976e-05	-0.00022292	0.00287242	0.006660544	0.9099043	-0.3747796	-0.0030298	-0.04178264
7e+07	-0.007893365	-0.04841065	0.8830733	-0.4309218	0.003847386	0.007388137	0.0001230792	-0.0003165111
	0.8830733	-0.4309218	-0.008196664	-0.04826773	0.0001229592	-0.0003163416	0.003753116	0.007439602
	0.003847385	0.007388143	0.0001229572	-0.0003163389	-0.007870959	-0.04835507	0.8827676	-0.4315112
	0.0001230624	-0.0003165059	0.003753118	0.007439602	0.8827676	-0.4315112	-0.008195274	-0.04820085
8e+07	-0.01380995	-0.05422495	0.8525631	-0.4855593	0.004829071	0.008016493	0.0001727281	-0.0004377848
	0.8525631	-0.4855593	-0.01418892	-0.054015	0.0001725994	-0.0004375529	0.004711843	0.008090133
	0.004829071	0.008016501	0.0001725973	-0.0004375489	-0.01378572	-0.0541655	0.8521727	-0.4862062
	0.000172708	-0.0004377728	0.004711844	0.008090132	0.8521727	-0.4862062	-0.01419082	-0.05393934
9e+07	-0.02044523	-0.05927467	0.8187477	-0.5379665	0.005870477	0.008503351	0.0002081113	-0.0005872421
	0.8187477	-0.5379665	-0.02090134	-0.05898214	0.0002079741	-0.0005869259	0.005730121	0.008604048
	0.005870478	0.008503357	0.000207973	-0.0005869226	-0.02042005	-0.05921167	0.8182649	-0.5386618
	0.0002080975	-0.0005872296	0.005730122	0.008604047	0.8182649	-0.5386618	-0.02090756	-0.05889691
1e+08	-0.02768726	-0.06347889	0.7817893	-0.5879484	0.006952488	0.008844845	0.0002203708	-0.0007655194
	0.7817893	-0.5879484	-0.02821941	-0.0630876	0.0002202339	-0.0007650896	0.006789697	0.008977568
	0.006952488	0.008844845	0.0002202339	-0.0007650897	-0.02766217	-0.06341262	0.781207	-0.5886821
	0.0002203708	-0.0007655195	0.006789697	0.008977568	0.781207	-0.5886821	-0.02823097	-0.06299189
1.1e+08	-0.03542217	-0.06676044	0.741871	-0.6353364	0.008059444	0.009029772	0.000196249	-0.0009596246
	0.741871	-0.6353364	-0.03602541	-0.0662545	0.0001961504	-0.0009590992	0.007875761	0.00919939
	0.008059444	0.009029772	0.0001961504	-0.000959099	-0.03539861	-0.06669007	0.7411838	-0.6360989
	0.0001962489	-0.0009596244	0.007875759	0.00919939	0.7411838	-0.6360989	-0.03604318	-0.06614639
1.2e+08	-0.04351288	-0.06907223	0.6991638	-0.6799613	0.009159892	0.009059731	0.0001413411	-0.001166461
	0.6991638	-0.6799613	-0.04418016	-0.06843617	0.0001413022	-0.001165841	0.008957697	0.009270967
	0.009159892	0.009059731	0.0001413023	-0.001165841	-0.0434912	-0.06899697	0.6983659	-0.6807419
	0.0001413411	-0.001166461	0.008957695	0.009270968	0.6983659	-0.6807419	-0.04420395	-0.06831383
1.3e+08	-0.05183405	-0.07038471	0.6538645	-0.7216665	0.01023461	0.008940323	4.921643e-05	-0.001382636
	0.6538645	-0.7216665	-0.05255565	-0.06960406	4.925904e-05	-0.001381927	0.01001711	0.009197578
	0.01023461	0.008940323	4.925918e-05	-0.001381927	-0.05181461	-0.07030388	0.6529513	-0.722454
	4.921657e-05	-0.001382636	0.01001711	0.009197579	0.6529513	-0.722454	-0.05258507	-0.06946582
1.4e+08	-0.06025819	-0.07068244	0.6061768	-0.7603127	0.01126429	0.008677988	-8.4311e-05	-0.001601713
	0.6061768	-0.7603127	-0.06102185	-0.06974413	-8.41659e-05	-0.001600925	0.01103549	0.008985214
	0.01126429	0.008677988	-8.416571e-05	-0.001600925	-0.06024123	-0.07059531	0.6051448	-0.7610955
	-8.43108e-05	-0.001601713	0.01103549	0.008985215	0.6051448	-0.7610955	-0.06105624	-0.0695884
1.5e+08	-0.0686584	-0.06996567	0.5563106	-0.7957763	0.01223072	0.008281378	-0.0002618787	-0.001816142
	0.5563106	-0.7957763	-0.06944957	-0.06885843	-0.0002616118	-0.001815291	0.0119953	0.008641956
	0.01223072	0.008281378	-0.0002616116	-0.001815291	-0.06864403	-0.06987148	0.5551573	-0.7965421
	-0.0002618785	-0.001816142	0.0119953	0.008641957	0.5551573	-0.7965421	-0.06948798	-0.06868368
1.6e+08	-0.07691023	-0.06825007	0.5044804	-0.8279486	0.01311711	0.007761299	-0.0004845338	-0.002017734
	0.5044804	-0.8279486	-0.07771237	-0.06696473	-0.0004841285	-0.002016839	0.0128804	0.008177923
	0.01311711	0.007761299	-0.0004841283	-0.002016839	-0.07689842	-0.06814803	0.5032043	-0.828685
	-0.0004845336	-0.002017734	0.0128804	0.008177923	0.5032043	-0.828685	-0.07775354	-0.06676961
1.7e+08	-0.08489343	-0.06556614	0.4509042	-0.8567361	0.01390844	0.007130493	-0.0007516885	-0.002198024
	0.4509042	-0.8567361	-0.08568829	-0.06409599	-0.0007511319	-0.002197108	0.01367628	0.007605074
	0.01390844	0.007130493	-0.0007511318	-0.002197108	-0.08488399	-0.06545545	0.449505	-0.8574306
	-0.0007516883	-0.002198024	0.01367628	0.007605075	0.449505	-0.8574306	-0.08573073	-0.06387928
1.8e+08	-0.09249354	-0.06195835	0.3958021	-0.8820602	0.01459164	0.006403374	-0.001061118	-0.002348611
	0.3958021	-0.8820602	-0.09326156	-0.06029936	-0.001060402	-0.002347701	0.01437027	0.006936955
	0.01459164	0.006403374	-0.001060402	-0.002347701	-0.09248616	-0.06183825	0.3942806	-0.8827
	-0.001061118	-0.002348611	0.01437027	0.006936955	0.3942806	-0.8827	-0.09330355	-0.0600601
1.9e+08	-0.0996034	-0.05748421	0.3393953	-0.9038563	0.01515574	0.00559573	-0.001409013	-0.002461471
	0.3393953	-0.9038563	-0.1003241	-0.05563525	-0.001408135	-0.002460596	0.01495167	0.006188419
	0.01515574	0.00559573	-0.001408135	-0.002460596	-0.0995976	-0.05735397	0.3377535	-0.9044286
	-0.001409013	-0.002461471	0.01495167	0.006188419	0.3377535	-0.9044286	-0.1003637	-0.05537272
2e+08	-0.1061245	-0.05221308	0.2819051	-0.9220736	0.01559204	0.004724422	-0.001790085	-0.002529254
	0.2819051	-0.9220736	-0.1067769	-0.0501761	-0.001789047	-0.002528442	0.0154119	0.005375348
	0.01559204	0.004724422	-0.001789047	-0.002528442	-0.1061196	-0.05207206	0.280146	-0.9225658
	-0.001790085	-0.002529254	0.0154119	0.005375348	0.280146	-0.9225658	-0.106812	-0.04988988
2.1e+08	-0.111968	-0.04622502	0.2235522	-0.9366743	0.01589412	0.003807079	-0.002197716	-0.002545542
	0.2235522	-0.9366743	-0.112531	-0.04400508	-0.002196527	-0.002544823	0.01574453	0.004514365
	0.01589412	0.003807079	-0.002196527	-0.002544823	-0.1119634	-0.04607265	0.2216799	-0.9370738
	-0.002197716	-0.002545542	0.01574453	0.004514365	0.2216799	-0.9370738	-0.1125594	-0.04369507
2.2e+08	-0.1170559	-0.03960941	0.1645558	-0.9476332	0.01605787	0.002861802	-0.002624156	-0.002505084
	0.1645558	-0.9476332	-0.117509	-0.03721475	-0.002622831	-0.002504484	0.01594529	0.003622558
	0.01605787	0.002861802	-0.002622831	-0.002504484	-0.1170507	-0.03944525	0.1625757	-0.9479279
	-0.002624156	-0.002505084	0.01594529	0.003622558	0.1625757	-0.9479279	-0.1175285	-0.03688118
2.3e+08	-0.121322	-0.03246353	0.1051337	-0.9549371	0.01608154	0.001906871	-0.003060748	-0.002403975
	0.1051337	-0.9549371	-0.1216454	-0.02990552	-0.003059307	-0.002403519	0.01601209	0.002717219
	0.01608154	0.001906871	-0.003059307	-0.002403519	-0.1213152	-0.03228726	0.1030519	-0.9551149
	-0.003060748	-0.002403975	0.01601209	0.002717219	0.1030519	-0.9551149	-0.1216536	-0.02954897
2.4e+08	-0.1247121	-0.02489119	0.04550101	-0.9585838	0.01596564	0.000960481	-0.003498191	-0.0022398
	0.04550101	-0.9585838	-0.1248875	-0.0221842	-0.003496659	-0.002239509	0.01594498	0.00181559
	0.01596564	0.000960481	-0.003496659	-0.002239509	-0.1247029	-0.02470263	0.04332508	-0.9586333
	-0.003498191	-0.0022398	0.01594498	0.00181559	0.04332508	-0.9586333	-0.1248822	-0.02180562
2.5e+08	-0.1271852	-0.01700116	-0.01412928	-0.9585821	0.0157129	4.048034e-05	-0.003926804	-0.002011724
	-0.01412928	-0.9585821	-0.1271959	-0.01416244	-0.00392521	-0.002011613	0.01574608	0.0009346321
	0.0157129	4.04803e-05	-0.00392521	-0.002011613	-0.1271725	-0.01680028	-0.01639097	-0.9584924
	-0.003926804	-0.002011724	0.01574608	0.000934632	-0.01639097	-0.9584924	-0.127175	-0.01376309
2.6e+08	-0.1287133	-0.008905729	-0.07354696	-0.9549511	0.01532817	-0.0008358662	-0.004336816	-0.001720534
	-0.07354696	-0.9549511	-0.1285448	-0.0059551	-0.004335192	-0.001720611	0.01541949	9.080372e-05
	0.01532817	-0.0008358662	-0.004335192	-0.001720611	-0.128696	-0.008692664	-0.07588503	-0.9547117
	-0.004336816	-0.001720534	0.01541949	9.080368e-05	-0.07588503	-0.9547117	-0.1285064	-0.005536613
2.7e+08	-0.1292818	-0.0007191337	-0.1325446	-0.9477197	0.01481837	-0.001652101	-0.004718648	-0.001368628
	-0.1325446	-0.9477197	-0.1289224	0.002321228	-0.004717027	-0.001368897	0.01497126	-0.0007001403
	0.01481837	-0.001652101	-0.004717027	-0.001368897	-0.1292588	-0.0004941755	-0.1349487	-0.947321
	-0.004718648	-0.001368628	0.01497126	-0.0007001403	-0.1349487	-0.947321	-0.1288646	0.00275692
2.8e+08	-0.1288897	0.007443919	-0.1909176	-0.9369266	0.01419228	-0.002392779	-0.005063185	-0.0009599603
	-0.1909176	-0.9369266	-0.1283304	0.01054987	-0.005061602	-0.0009604163	0.0144092	-0.001423339
	0.01419228	-0.002392779	-0.005061602	-0.0009604163	-0.1288599	0.007680318	-0.1933766	-0.9363595
	-0.005063185	-0.0009599603	0.0144092	-0.001423339	-0.1933766	-0.9363595	-0.1282517	0.01100054
2.9e+08	-0.127549	0.01546975	-0.2484643	-0.9226197	0.01346048	-0.003043662	-0.005362041	-0.0004999333
	-0.2484643	-0.9226197	-0.1267842	0.01861556	-0.00536053	-0.0005005654	0.01374282	-0.002065003
	0.01346048	-0.003043662	-0.00536053	-0.0005005653	-0.1275116	0.01571699	-0.250966	-0.9218759
	-0.005362041	-0.0004999333	0.01374282	-0.002065003	-0.250966	-0.9218759	-0.1266834	0.01907873
3e+08	-0.1252852	0.02324719	-0.3049858	-0.9048561	0.0126352	-0.003591897	-0.005607796	4.745885e-06
	-0.3049858	-0.9048561	-0.1243128	0.02640597	-0.005606386	3.955936e-06	0.01298321	-0.00261258
	0.0126352	-0.003591897	-0.005606386	3.955952e-06	-0.1252393	0.0235045	-0.3075174	-0.9039285
	-0.005607796	4.745901e-06	0.01298321	-0.00261258	-0.3075174	-0.9039285	-0.1241889	0.02687895
3.1e+08	-0.1221364	0.03066901	-0.3602864	-0.8837025	0.0117301	-0.00402618	-0.0057942	0.0005462535
	-0.3602864	-0.8837025	-0.1209578	0.0338132	-0.005792918	0.00054533	0.01214284	-0.003054908
	0.0117301	-0.00402618	-0.005792918	0.00054533	-0.122081	0.03093548	-0.3628344	-0.8825846
	-0.0057942	0.0005462535	0.01214284	-0.003054908	-0.3628344	-0.8825846	-0.1208102	0.03429313
3.2e+08	-0.1181526	0.03763328	-0.4141732	-0.8592346	0.01076017	-0.004336915	-0.00591635	0.001115866
	-0.4141732	-0.8592346	-0.1167732	0.04073516	-0.005915217	0.001114839	0.0112355	-0.003382368
	0.01076017	-0.004336915	-0.005915217	0.001114839	-0.1180872	0.03790788	-0.4167234	-0.8579209
	-0.00591635	0.001115866	0.0112355	-0.003382368	-0.4167234	-0.8579209	-0.1166019	0.04121902
3.3e+08	-0.1133956	0.04404469	-0.4664567	-0.8315373	0.009741528	-0.004516352	-0.005970822	0.001704208
	-0.4664567	-0.8315373	-0.1118246	0.04707687	-0.005969852	0.001703111	0.01027606	-0.00358702
	0.009741528	-0.004516352	-0.005969852	0.001703111	-0.1133195	0.04432627	-0.4689943	-0.8300235
	-0.005970822	0.001704208	0.01027606	-0.00358702	-0.4689943	-0.8300235	-0.1116298	0.04756162
3.4e+08	-0.1079378	0.04981584	-0.5169508	-0.8007055	0.008691183	-0.004558722	-0.005955755	0.002301511
	-0.5169508	-0.8007055	-0.1061883	0.05275181	-0.005954955	0.002300381	0.009280331	-0.003662729
	0.008691183	-0.004558722	-0.005954955	0.002300381	-0.1078507	0.0501032	-0.5194604	-0.7989883
	-0.005955755	0.002301511	0.009280331	-0.003662729	-0.5194604	-0.7989883	-0.1059706	0.05323443
3.5e+08	-0.1018613	0.05486838	-0.5654728	-0.7668435	0.007626862	-0.004460346	-0.005870896	0.002897897
	-0.5654728	-0.7668435	-0.09995017	0.05768306	-0.005870266	0.002896773	0.008264878	-0.003605285
	0.007626862	-0.004460346	-0.005870266	0.002896773	-0.1017628	0.05516021	-0.5679387	-0.7649208
	-0.005870896	0.002897897	0.008264878	-0.003605285	-0.5679387	-0.7649208	-0.09971077	0.05816055
3.6e+08	-0.09525694	0.05913409	-0.6118443	-0.7300658	0.006566761	-0.004219739	-0.005717593	0.003483654
	-0.6118443	-0.7300658	-0.09320467	0.06180435	-0.005717122	0.003482574	0.007246792	-0.003412508
	0.006566761	-0.004219739	-0.005717122	0.003482574	-0.09514708	0.05942903	-0.6142504	-0.7279366
	-0.005717593	0.003483654	0.007246792	-0.003412508	-0.6142504	-0.7279366	-0.09294511	0.06227382
3.7e+08	-0.08822303	0.06255586	-0.6558914	-0.6904971	0.005529294	-0.003837686	-0.005498731	0.004049514
	-0.6558914	-0.6904971	-0.08605357	0.06506105	-0.005498402	0.004048513	0.006243471	-0.00308433
	0.005529294	-0.003837686	-0.005498402	0.004048513	-0.0881019	0.06285253	-0.6582213	-0.6881618
	-0.005498731	0.004049514	0.006243471	-0.00308433	-0.6582213	-0.6881618	-0.08577581	0.0655198
3.8e+08	-0.08086416	0.06508852	-0.6974452	-0.6482729	0.004532826	-0.003317296	-0.005218632	0.004586912
	-0.6974452	-0.6482729	-0.07860457	0.06741095	-0.005218418	0.004586023	0.005272372	-0.002622865
	0.004532826	-0.003317296	-0.005218418	0.004586023	-0.08073205	0.06538554	-0.6996824	-0.6457328
	-0.005218632	0.004586912	0.005272372	-0.002622865	-0.6996824	-0.6457328	-0.07831096	0.06785649
3.9e+08	-0.0732897	0.06669957	-0.7363429	-0.6035389	0.00359539	-0.002664027	-0.004882897	0.005088232
	-0.7363429	-0.6035389	-0.07096978	0.06882497	-0.004882766	0.00508748	0.004350745	-0.002032445
	0.00359539	-0.002664027	-0.004882766	0.00508748	-0.07314711	0.06699555	-0.7384706	-0.6007968
	-0.004882897	0.005088232	0.004350745	-0.002032445	-0.7384706	-0.6007968	-0.07066307	0.06925511
4e+08	-0.06561239	0.06736969	-0.7724279	-0.5564521	0.002734388	-0.001885679	-0.004498218	0.005547012
	-0.7724279	-0.5564521	-0.06326426	0.06928762	-0.00449813	0.005546417	0.003495357	-0.001319627
	0.002734388	-0.001885679	-0.00449813	0.005546417	-0.06545998	0.06766332	-0.7744295	-0.553512
	-0.004498218	0.005547012	0.003495357	-0.001319627	-0.7744295	-0.553512	-0.06294749	0.06970051
4.1e+08	-0.05794671	0.06709319	-0.8055516	-0.5071802	0.001966283	-0.0009923489	-0.004072139	0.005958119
	-0.8055516	-0.5071802	-0.05560432	0.0687974	-0.00407205	0.005957692	0.002722193	-0.0004931734
	0.001966283	-0.0009923489	-0.00407205	0.005957692	-0.05778536	0.0673832	-0.8074105	-0.5040474
	-0.004072139	0.005958119	0.002722193	-0.0004931734	-0.8074105	-0.5040474	-0.05528085	0.06919158
4.2e+08	-0.0504073	0.06587815	-0.8355736	-0.4559017	0.001306287	3.660387e-06	-0.0036128	0.006317878
	-0.8355736	-0.4559017	-0.04810587	0.06736689	-0.003612663	0.006317619	0.002046166	0.0004360249
	0.001306287	3.660387e-06	-0.003612663	0.006317619	-0.05023806	0.06616339	-0.8372734	-0.452583
	-0.0036128	0.006317878	0.002046166	0.0004360249	-0.8372734	-0.452583	-0.04777931	0.06774134
4.3e+08	-0.04310729	0.06374649	-0.8623632	-0.4028061	0.000768047	0.001087972	-0.003128654	0.006624143
	-0.8623632	-0.4028061	-0.04088275	0.06502269	-0.00312842	0.006624043	0.001480806	0.001455054
	0.000768047	0.001087972	-0.00312842	0.006624043	-0.04293138	0.06402592	-0.8638878	-0.3993093
	-0.003128654	0.006624143	0.001480806	0.001455054	-0.8638878	-0.3993093	-0.04055686	0.06537686
4.4e+08	-0.03615662	0.06073373	-0.8858006	-0.3480929	0.0003633474	0.002244319	-0.002628169	0.006876326
	-0.8858006	-0.3480929	-0.03404494	0.06180521	-0.002627793	0.006876364	0.001037974	0.002549139
	0.0003633474	0.002244319	-0.002627793	0.006876364	-0.03597542	0.06100646	-0.8871341	-0.3444272
	-0.002628169	0.006876326	0.001037974	0.002549139	-0.8871341	-0.3444272	-0.03372364	0.06213903
4.5e+08	-0.02966038	0.05688864	-0.9057774	-0.2919716	0.0001018201	0.003454775	-0.002119539	0.007075357
	-0.9057774	-0.2919716	-0.02769692	0.05776809	-0.002118977	0.007075503	0.0007275754	0.003701847
	0.0001018201	0.003454775	-0.002118977	0.007075503	-0.02947541	0.05715395	-0.9069046	-0.2881475
	-0.002119539	0.007075357	0.0007275754	0.003701847	-0.9069046	-0.2881475	-0.02738418	0.05808205
4.6e+08	-0.02371718	0.05227259	-0.9221985	-0.234661	-9.310112e-06	0.004700039	-0.001610393	0.0072236
	-0.9221985	-0.234661	-0.02193603	0.05297761	-0.00160961	0.007223812	0.000557311	0.004895349
	-9.310108e-06	0.004700039	-0.00160961	0.007223812	-0.02353007	0.05252995	-0.9231047	-0.2306904
	-0.001610393	0.0072236	0.000557311	0.004895349	-0.9231047	-0.2306904	-0.02163581	0.05327271
4.7e+08	-0.01841757	0.04695874	-0.9349829	-0.1763883	3.455207e-05	0.005959755	-0.001107539	0.007324697
	-0.9349829	-0.1763883	-0.01685089	0.04751168	-0.001106503	0.007324927	0.0005324487	0.006110711
	3.455208e-05	0.005959755	-0.001106503	0.007324927	-0.01823006	0.04720783	-0.935654	-0.1722841
	-0.001107539	0.007324697	0.0005324487	0.006110711	-0.935654	-0.1722841	-0.01656706	0.04778947
4.8e+08	-0.01384262	0.04103102	-0.9440644	-0.1173881	0.0002351978	0.007212888	-0.0006167229	0.007383381
	-0.9440644	-0.1173881	-0.01251996	0.04145876	-0.0006154154	0.007383572	0.0006556456	0.007328244
	0.0002351978	0.007212888	-0.0006154154	0.007383572	-0.01365653	0.04127174	-0.9444871	-0.1131645
	-0.0006167229	0.007383381	0.0006556456	0.007328244	-0.9444871	-0.1131645	-0.01225623	0.04172133
4.9e+08	-0.01006256	0.0345829	-0.9493932	-0.05790119	0.0005914931	0.008438118	-0.0001424488	0.007405229
	-0.9493932	-0.05790119	-0.009010234	0.03491654	-0.0001408618	0.007405319	0.0009268192	0.008527873
	0.0005914931	0.008438118	-0.0001408618	0.007405319	-0.009879744	0.03481538	-0.9495551	-0.05357358
	-0.0001424488	0.007405229	0.0009268192	0.008527873	-0.9495551	-0.05357358	-0.008770095	0.03516651
5e+08	-0.007135628	0.02771597	-0.9509364	0.001826527	0.00109932	0.009614271	0.0003121642	0.007396394
	-0.9509364	0.001826527	-0.006376099	0.02799046	0.0003140262	0.007396318	0.001343077	0.009689542
	0.00109932	0.009614271	0.0003140262	0.007396318	-0.006957962	0.02794061	-0.9508261	0.006241648
	0.0003121642	0.007396394	0.001343077	0.009689542	-0.9508261	0.006241648	-0.006162743	0.02823092
