!$
! Info: Touchstone file created by Circ.  Input file=Tx_6in_Rx_85ohms_TxVia_60mils_RxVia_70mils.circ
!$
# Hz S RI R 50
0	0.004959265	9.472434e-26	-3.274497e-05	7.475063e-24	5.346192e-05	9.644006e-24	-3.270782e-05	2.963624e-24
	-3.274497e-05	7.47504e-24	0.004955007	1.122706e-25	-3.278114e-05	1.198685e-23	5.258382e-05	1.199277e-23
	5.259357e-05	9.600921e-24	-3.278114e-05	1.198717e-23	0.004973144	9.579266e-26	-3.274329e-05	7.38822e-24
	-3.270782e-05	2.963258e-24	5.285367e-05	1.20442e-23	-3.274328e-05	7.387564e-24	0.004969549	1.117592e-25
1e+07	0.006612502	-0.005256278	-6.847705e-05	-1.731778e-05	0.0001810057	0.00128286	-5.019461e-06	-1.48218e-06
	-6.847705e-05	-1.731778e-05	0.006625775	-0.005258144	-2.481145e-05	4.732572e-05	0.0001788441	0.001285193
	0.0001809902	0.001282874	-2.481145e-05	4.732572e-05	0.006648375	-0.00523947	-6.848053e-05	-1.733341e-05
	-5.019461e-06	-1.48218e-06	0.0001788464	0.00128519	-6.848053e-05	-1.733341e-05	0.006621126	-0.00524851
2e+07	0.007311137	-0.01218363	-6.380529e-05	7.076611e-06	0.0004581185	0.002502048	-3.766005e-06	-1.026056e-05
	-6.380529e-05	7.076611e-06	0.007298817	-0.01219252	-3.294602e-05	6.28233e-05	0.0004496849	0.002507654
	0.0004581254	0.002502056	-3.294602e-05	6.28233e-05	0.007345706	-0.01215903	-6.380527e-05	7.024383e-06
	-3.766005e-06	-1.026056e-05	0.0004496817	0.002507655	-6.380527e-05	7.024383e-06	0.007299048	-0.01216816
3e+07	0.006526315	-0.019809	-6.252924e-05	3.203477e-06	0.0008818771	0.003660966	-1.053689e-05	-1.247029e-05
	-6.252924e-05	3.203477e-06	0.006475854	-0.01981439	-3.349711e-05	7.699098e-05	0.0008633143	0.003671585
	0.0008818781	0.003660966	-3.349711e-05	7.699098e-05	0.006561513	-0.0197726	-6.252797e-05	3.12215e-06
	-1.053689e-05	-1.247029e-05	0.0008633141	0.003671587	-6.252797e-05	3.12215e-06	0.006478951	-0.01978011
4e+07	0.004502437	-0.02746081	-6.188597e-05	1.912282e-06	0.001444943	0.004744272	-1.621068e-05	-1.216136e-05
	-6.188597e-05	1.912282e-06	0.004401699	-0.02745372	-2.883689e-05	8.796439e-05	0.001412797	0.004762424
	0.001444942	0.004744273	-2.883689e-05	8.796439e-05	0.004539613	-0.0274123	-6.188329e-05	1.796822e-06
	-1.621068e-05	-1.216136e-05	0.001412797	0.004762425	-6.188329e-05	1.796822e-06	0.004406359	-0.02741103
5e+07	0.001360334	-0.03488648	-6.167482e-05	1.804895e-06	0.002135704	0.0057349	-2.103338e-05	-1.039971e-05
	-6.167482e-05	1.804895e-06	0.001198639	-0.03485554	-2.032993e-05	9.518712e-05	0.002087073	0.005763773
	0.002135702	0.005734901	-2.032993e-05	9.518712e-05	0.001400532	-0.03482625	-6.167271e-05	1.649318e-06
	-2.103338e-05	-1.039971e-05	0.002087074	0.005763773	-6.167271e-05	1.649318e-06	0.001203386	-0.03480493
6e+07	-0.002802503	-0.04190914	-6.175214e-05	2.455725e-06	0.002939793	0.006617222	-2.509304e-05	-7.588946e-06
	-6.175214e-05	2.455725e-06	-0.00303341	-0.04184124	-9.154439e-06	9.810652e-05	0.002872419	0.006660543
	0.002939791	0.006617221	-9.154439e-06	9.810652e-05	-0.002758552	-0.04183782	-6.175468e-05	2.253652e-06
	-2.509304e-05	-7.588946e-06	0.00287242	0.006660544	-6.175468e-05	2.253652e-06	-0.0030298	-0.04178264
7e+07	-0.007890631	-0.04838682	-6.200096e-05	3.689397e-06	0.003840789	0.007377676	-2.840345e-05	-3.919612e-06
	-6.200096e-05	3.689396e-06	-0.008196664	-0.04826773	3.495273e-06	9.620716e-05	0.003753116	0.007439602
	0.003840786	0.007377675	3.495273e-06	9.620716e-05	-0.007842449	-0.04830514	-6.201453e-05	3.434488e-06
	-2.840345e-05	-3.919612e-06	0.003753118	0.007439602	-6.201453e-05	3.434489e-06	-0.008195274	-0.04820085
8e+07	-0.01380409	-0.05420048	-6.231967e-05	5.413908e-06	0.004820616	0.008005137	-3.092146e-05	5.280998e-07
	-6.231967e-05	5.413908e-06	-0.01418892	-0.054015	1.631447e-05	8.900253e-05	0.004711843	0.008090133
	0.004820611	0.008005137	1.631447e-05	8.900253e-05	-0.0137514	-0.05410916	-6.235309e-05	5.100452e-06
	-3.092146e-05	5.280998e-07	0.004711844	0.008090132	-6.235309e-05	5.100452e-06	-0.01419082	-0.05393934
9e+07	-0.02043644	-0.05925002	-6.261964e-05	7.566201e-06	0.005859998	0.00849132	-3.251819e-05	5.792769e-06
	-6.261964e-05	7.566201e-06	-0.02090134	-0.05898214	2.772844e-05	7.586728e-05	0.005730121	0.008604048
	0.005859994	0.00849132	2.772844e-05	7.586728e-05	-0.0203791	-0.05914972	-6.268415e-05	7.18971e-06
	-3.251819e-05	5.792769e-06	0.005730122	0.008604047	-6.268415e-05	7.189709e-06	-0.02090756	-0.05889691
1e+08	-0.02767588	-0.06345463	-6.284088e-05	1.008683e-05	0.006939849	0.008832372	-3.258484e-05	1.254033e-05
	-6.284088e-05	1.008683e-05	-0.02821941	-0.0630876	3.449847e-05	5.395721e-05	0.006789697	0.008977568
	0.006939849	0.008832372	3.449847e-05	5.395721e-05	-0.02761377	-0.06334577	-6.295003e-05	9.644198e-06
	-3.258484e-05	1.254033e-05	0.006789697	0.008977568	-6.295003e-05	9.644198e-06	-0.02823097	-0.06299189
1.1e+08	-0.03540902	-0.0667363	-6.288614e-05	1.283696e-05	0.008044523	0.009017092	-2.910838e-05	1.716418e-05
	-6.288614e-05	1.283696e-05	-0.03602541	-0.0662545	4.926768e-05	2.136003e-05	0.007875761	0.00919939
	0.008044523	0.009017092	4.926768e-05	2.136003e-05	-0.03534168	-0.06662002	-6.305377e-05	1.232828e-05
	-2.910838e-05	1.716418e-05	0.007875759	0.00919939	-6.305377e-05	1.232828e-05	-0.03604318	-0.06614639
1.2e+08	-0.04349779	-0.06904807	-6.266511e-05	1.587061e-05	0.009142606	0.009047098	-2.620423e-05	2.026078e-05
	-6.266511e-05	1.587061e-05	-0.04418016	-0.06843617	6.29056e-05	-1.012363e-05	0.008957697	0.009270967
	0.009142606	0.009047098	6.29056e-05	-1.012363e-05	-0.04342579	-0.06892527	-6.290666e-05	1.530007e-05
	-2.620423e-05	2.026078e-05	0.008957695	0.009270968	-6.290666e-05	1.530007e-05	-0.04420395	-0.06831383
1.3e+08	-0.05181701	-0.07036062	-6.214967e-05	1.911535e-05	0.0102149	0.008927993	-2.38552e-05	2.225028e-05
	-6.214967e-05	1.911535e-05	-0.05255565	-0.06960406	7.27865e-05	-4.327747e-05	0.01001711	0.009197578
	0.0102149	0.008927993	7.27865e-05	-4.327747e-05	-0.05174087	-0.07023185	-6.248092e-05	1.849006e-05
	-2.38552e-05	2.225028e-05	0.01001711	0.009197579	-6.248092e-05	1.849006e-05	-0.05258507	-0.06946582
1.4e+08	-0.06023919	-0.07065854	-6.130799e-05	2.251387e-05	0.01124212	0.00866622	-2.319264e-05	2.232791e-05
	-6.130799e-05	2.251387e-05	-0.06102185	-0.06974413	7.792607e-05	-7.814475e-05	0.01103549	0.008985214
	0.01124212	0.00866622	7.792607e-05	-7.814475e-05	-0.06015948	-0.07052418	-6.174396e-05	2.184419e-05
	-2.319264e-05	2.232791e-05	0.01103549	0.008985215	-6.174396e-05	2.184419e-05	-0.06105624	-0.0695884
1.5e+08	-0.06863747	-0.06994211	-6.011068e-05	2.597867e-05	0.01220607	0.008270432	-2.244066e-05	2.257593e-05
	-6.011068e-05	2.597867e-05	-0.06944957	-0.06885843	7.765662e-05	-0.0001142438	0.0119953	0.008641956
	0.01220607	0.008270432	7.765662e-05	-0.0001142438	-0.06855472	-0.06980239	-6.066555e-05	2.527794e-05
	-2.244066e-05	2.257593e-05	0.0119953	0.008641957	-6.066555e-05	2.527794e-05	-0.06948798	-0.06868368
1.6e+08	-0.0768874	-0.068227	-5.854824e-05	2.944035e-05	0.01309001	0.007751434	-2.161248e-05	2.293624e-05
	-5.854824e-05	2.944035e-05	-0.07771237	-0.06696473	7.152584e-05	-0.0001508439	0.0128804	0.008177923
	0.01309001	0.007751434	7.152584e-05	-0.0001508439	-0.07680216	-0.06808203	-5.923441e-05	2.872508e-05
	-2.161248e-05	2.293624e-05	0.0128804	0.008177923	-5.923441e-05	2.872508e-05	-0.07775354	-0.06676961
1.7e+08	-0.08486877	-0.06554373	-5.662349e-05	3.283175e-05	0.01387892	0.007121964	-2.071514e-05	2.336966e-05
	-5.662349e-05	3.283175e-05	-0.08568829	-0.06409599	5.927593e-05	-0.0001870741	0.01367628	0.007605074
	0.01387892	0.007121964	5.927593e-05	-0.0001870741	-0.08478151	-0.06539347	-5.745087e-05	3.212134e-05
	-2.071514e-05	2.336966e-05	0.01367628	0.007605075	-5.745087e-05	3.212134e-05	-0.08573073	-0.06387928
1.8e+08	-0.09246713	-0.06193676	-5.435087e-05	3.608973e-05	0.01455977	0.006396431	-1.975304e-05	2.384754e-05
	-5.435087e-05	3.608973e-05	-0.09326156	-0.06029936	4.083934e-05	-0.0002219873	0.01437027	0.006936955
	0.01455977	0.006396431	4.083934e-05	-0.0002219873	-0.0923783	-0.06178111	-5.532631e-05	3.540604e-05
	-1.975304e-05	2.384754e-05	0.01437027	0.006936955	-5.532631e-05	3.540604e-05	-0.09330355	-0.0600601
1.9e+08	-0.09957535	-0.05746358	-5.175533e-05	3.915692e-05	0.01512161	0.005590615	-1.872971e-05	2.43476e-05
	-5.175533e-05	3.915692e-05	-0.1003241	-0.05563525	1.633472e-05	-0.0002546094	0.01495167	0.006188419
	0.01512161	0.005590615	1.633472e-05	-0.0002546094	-0.09948531	-0.05730235	-5.288204e-05	3.852371e-05
	-1.872971e-05	2.43476e-05	0.01495167	0.006188419	-5.288204e-05	3.852371e-05	-0.1003637	-0.05537272
2e+08	-0.1060949	-0.05219356	-4.88708e-05	4.198309e-05	0.01555575	0.004721369	-1.764852e-05	2.485184e-05
	-4.88708e-05	4.198309e-05	-0.1067769	-0.0501761	-1.393912e-05	-0.0002839799	0.0154119	0.005375348
	0.01555575	0.004721369	-1.393912e-05	-0.0002839799	-0.1060039	-0.0520265	-5.014798e-05	4.142535e-05
	-1.764852e-05	2.485184e-05	0.0154119	0.005375348	-5.014798e-05	4.142535e-05	-0.106812	-0.04988988
2.1e+08	-0.111937	-0.04620676	-4.57386e-05	4.452632e-05	0.0158558	0.00380631	-1.651317e-05	2.534533e-05
	-4.57386e-05	4.452632e-05	-0.112531	-0.04400508	-4.951414e-05	-0.0003091864	0.01574453	0.004514365
	0.0158558	0.00380631	-4.951414e-05	-0.0003091864	-0.1118453	-0.04603355	-4.716112e-05	4.40695e-05
	-1.651317e-05	2.534533e-05	0.01574453	0.004514365	-4.716112e-05	4.40695e-05	-0.1125594	-0.04369507
2.2e+08	-0.1170237	-0.03959252	-4.240563e-05	4.675372e-05	0.01601768	0.002863526	-1.532777e-05	2.581556e-05
	-4.240563e-05	4.675372e-05	-0.117509	-0.03721475	-8.976718e-05	-0.0003293959	0.01594529	0.003622558
	0.01601768	0.002863526	-8.976718e-05	-0.0003293959	-0.1169315	-0.03941285	-4.396392e-05	4.642295e-05
	-1.532777e-05	2.581556e-05	0.01594529	0.003622558	-4.396392e-05	4.642295e-05	-0.1175285	-0.03688118
2.3e+08	-0.1212886	-0.03244813	-3.892264e-05	4.864186e-05	0.01603965	0.001911285	-1.409686e-05	2.625198e-05
	-3.892264e-05	4.864186e-05	-0.1216454	-0.02990552	-0.0001339381	-0.0003438822	0.01601209	0.002717219
	0.01603965	0.001911285	-0.0001339381	-0.0003438822	-0.1211959	-0.03226165	-4.060272e-05	4.846111e-05
	-1.409686e-05	2.625198e-05	0.01601209	0.002717219	-4.060272e-05	4.846111e-05	-0.1216536	-0.02954897
2.4e+08	-0.1246779	-0.02487738	-3.534245e-05	5.017705e-05	0.01592223	0.0009677661	-1.282558e-05	2.664572e-05
	-3.534245e-05	5.017705e-05	-0.1248875	-0.0221842	-0.0001811524	-0.0003520453	0.01594498	0.00181559
	0.01592223	0.0009677661	-0.0001811524	-0.0003520453	-0.1245846	-0.02468375	-3.712609e-05	5.01683e-05
	-1.282558e-05	2.664572e-05	0.01594498	0.00181559	-3.712609e-05	5.01683e-05	-0.1248822	-0.02180562
2.5e+08	-0.1271502	-0.01698903	-3.171826e-05	5.135507e-05	0.01566817	5.080057e-05	-1.15194e-05	2.698948e-05
	-3.171826e-05	5.135507e-05	-0.1271959	-0.01416244	-0.0002304448	-0.0003534321	0.01574608	0.0009346321
	0.01566817	5.080056e-05	-0.0002304448	-0.0003534321	-0.1270564	-0.01678792	-3.358333e-05	5.153753e-05
	-1.15194e-05	2.698948e-05	0.01574608	0.000934632	-3.358333e-05	5.153753e-05	-0.127175	-0.01376309
2.6e+08	-0.1286778	-0.008895338	-2.810212e-05	5.218091e-05	0.01528236	-0.0008223646	-1.01841e-05	2.727731e-05
	-2.810212e-05	5.218091e-05	-0.1285448	-0.0059551	-0.0002807855	-0.0003477465	0.01541949	9.080372e-05
	0.01528236	-0.0008223646	-0.0002807855	-0.0003477465	-0.1285831	-0.008686451	-3.002309e-05	5.257029e-05
	-1.01841e-05	2.727731e-05	0.01541949	9.080368e-05	-3.002309e-05	5.257029e-05	-0.1285064	-0.005536613
2.7e+08	-0.129246	-0.000710535	-2.454345e-05	5.266811e-05	0.0147717	-0.001635291	-8.825566e-06	2.75045e-05
	-2.454345e-05	5.266811e-05	-0.1289224	0.002321228	-0.0003311082	-0.0003348611	0.01497126	-0.0007001403
	0.0147717	-0.001635291	-0.0003311082	-0.0003348611	-0.1291502	-0.0004936084	-2.649201e-05	5.327599e-05
	-8.825566e-06	2.75045e-05	0.01497126	-0.0007001403	-2.649201e-05	5.327599e-05	-0.1288646	0.00275692
2.8e+08	-0.1288536	0.007450696	-2.108782e-05	5.283816e-05	0.01414501	-0.002372556	-7.449825e-06	2.766755e-05
	-2.108782e-05	5.283816e-05	-0.1283304	0.01054987	-0.0003803384	-0.0003148164	0.0144092	-0.001423339
	0.01414501	-0.002372556	-0.0003803384	-0.0003148164	-0.1287566	0.007675877	-2.303364e-05	5.36715e-05
	-7.449825e-06	2.766755e-05	0.0144092	-0.001423339	-2.303364e-05	5.36715e-05	-0.1282517	0.01100054
2.9e+08	-0.1275131	0.0154747	-1.777573e-05	5.271954e-05	0.01341288	-0.003019943	-6.062801e-06	2.776394e-05
	-1.777573e-05	5.271954e-05	-0.1267842	0.01861556	-0.0004274211	-0.0002878208	0.01374282	-0.002065003
	0.01341288	-0.003019943	-0.0004274211	-0.0002878208	-0.1274144	0.01570829	-1.968729e-05	5.37803e-05
	-6.062801e-06	2.776394e-05	0.01374282	-0.002065003	-1.968729e-05	5.37803e-05	-0.1266834	0.01907873
3e+08	-0.1252496	0.02325032	-1.464174e-05	5.234674e-05	0.01258752	-0.003564623	-4.670235e-06	2.779204e-05
	-1.464174e-05	5.234674e-05	-0.1243128	0.02640597	-0.0004713492	-0.0002542521	0.01298321	-0.00261258
	0.01258752	-0.003564623	-0.0004713492	-0.0002542521	-0.1251489	0.02349243	-1.648723e-05	5.363166e-05
	-4.670235e-06	2.779204e-05	0.01298321	-0.00261258	-1.648723e-05	5.363166e-05	-0.1241889	0.02687895
3.1e+08	-0.1221013	0.03067034	-1.17023e-05	5.17227e-05	0.01168264	-0.00399532	-3.278194e-06	2.775138e-05
	-1.17023e-05	5.17227e-05	-0.1209578	0.0338132	-0.000510237	-0.0002115855	0.01214284	-0.003054908
	0.01168264	-0.00399532	-0.000510237	-0.0002115855	-0.1219981	0.03092101	-1.344916e-05	5.322373e-05
	-3.278194e-06	2.775138e-05	0.01214284	-0.003054908	-1.344916e-05	5.322373e-05	-0.1208102	0.03429313
3.2e+08	-0.1181183	0.03763286	-8.978851e-06	5.084972e-05	0.01071323	-0.004302464	-1.89228e-06	2.764243e-05
	-8.978851e-06	5.084972e-05	-0.1167732	0.04073516	-0.0005415135	-0.0001577266	0.0112355	-0.003382368
	0.01071323	-0.004302464	-0.0005415135	-0.0001577266	-0.1180123	0.03789208	-1.059434e-05	5.255354e-05
	-1.89228e-06	2.764243e-05	0.0112355	-0.003382368	-1.059434e-05	5.255354e-05	-0.1166019	0.04121902
3.3e+08	-0.1133622	0.04404261	-6.512929e-06	4.984723e-05	0.009695379	-0.004478335	-5.161448e-07	2.746489e-05
	-6.512929e-06	4.984723e-05	-0.1118246	0.04707687	-0.0005660295	-9.984645e-05	0.01027606	-0.00358702
	0.009695379	-0.004478335	-0.0005660295	-9.984645e-05	-0.1132531	0.04431027	-7.969737e-06	5.173446e-05
	-5.161448e-07	2.746489e-05	0.01027606	-0.00358702	-7.969737e-06	5.173446e-05	-0.1116298	0.04756162
3.4e+08	-0.1079056	0.04981222	-4.308663e-06	4.87647e-05	0.008646127	-0.004517193	8.45664e-07	2.721913e-05
	-4.308663e-06	4.87647e-05	-0.1061883	0.05275181	-0.0005832601	-3.89266e-05	0.009280331	-0.003662729
	0.008646127	-0.004517193	-0.0005832601	-3.89266e-05	-0.1077928	0.05008815	-5.583079e-06	5.081157e-05
	8.45664e-07	2.721913e-05	0.009280331	-0.003662729	-5.583079e-06	5.081157e-05	-0.1059706	0.05323443
3.5e+08	-0.1018305	0.05486337	-2.361175e-06	4.765157e-05	0.007583192	-0.004415391	2.188976e-06	2.690629e-05
	-2.361175e-06	4.765157e-05	-0.09995017	0.05768306	-0.0005928436	2.397114e-05	0.008264878	-0.003605285
	0.007583192	-0.004415391	-0.0005928436	2.397114e-05	-0.1017137	0.0551473	-3.433824e-06	4.983079e-05
	2.188976e-06	2.690629e-05	0.008264878	-0.003605285	-3.433824e-06	4.983079e-05	-0.09971077	0.05816055
3.6e+08	-0.09522776	0.05912786	-6.565791e-07	4.655549e-05	0.006524764	-0.004171475	3.509886e-06	2.652768e-05
	-6.565791e-07	4.655549e-05	-0.09320467	0.06180435	-0.0005945876	8.77435e-05	0.007246792	-0.003412508
	0.006524764	-0.004171475	-0.0005945876	8.77435e-05	-0.0951066	0.0594195	-1.513106e-06	4.883687e-05
	3.509886e-06	2.652768e-05	0.007246792	-0.003412508	-1.513106e-06	4.883687e-05	-0.09294511	0.06227382
3.7e+08	-0.08819565	0.06254859	8.276311e-07	4.552056e-05	0.005489246	-0.003786263	4.804675e-06	2.608461e-05
	8.276311e-07	4.552056e-05	-0.08605357	0.06506105	-0.000588475	0.0001512717	0.006243471	-0.00308433
	0.005489246	-0.003786263	-0.000588475	0.0001512717	-0.08806981	0.06284758	1.960886e-07	4.787206e-05
	4.804675e-06	2.608461e-05	0.006243471	-0.00308433	1.960886e-07	4.787206e-05	-0.08577581	0.0655198
3.8e+08	-0.08083873	0.06508044	2.122024e-06	4.458583e-05	0.004494993	-0.003262895	6.069776e-06	2.557852e-05
	2.122024e-06	4.458583e-05	-0.07860457	0.06741095	-0.0005746639	0.0002134514	0.005272372	-0.002622865
	0.004494993	-0.003262895	-0.0005746639	0.0002134514	-0.08070795	0.06538635	1.718538e-06	4.697462e-05
	6.069776e-06	2.557852e-05	0.005272372	-0.002622865	1.718538e-06	4.697462e-05	-0.07831096	0.06785649
3.9e+08	-0.07326637	0.06669092	3.264371e-06	4.378383e-05	0.00356002	-0.00260686	7.301718e-06	2.501098e-05
	3.264371e-06	4.378383e-05	-0.07096978	0.06882497	-0.0005534829	0.000273222	0.004350745	-0.002032445
	0.00356002	-0.00260686	-0.0005534829	0.000273222	-0.07313044	0.06700328	3.08613e-06	4.617737e-05
	7.301718e-06	2.501098e-05	0.004350745	-0.002032445	3.08613e-06	4.617737e-05	-0.07066307	0.06925511
4e+08	-0.06559127	0.06736073	4.298421e-06	4.31391e-05	0.002701708	-0.001825987	8.497085e-06	2.438369e-05
	4.298421e-06	4.31391e-05	-0.06326426	0.06928762	-0.000525422	0.0003295937	0.003495357	-0.001319627
	0.002701708	-0.001825987	-0.000525422	0.0003295937	-0.06545003	0.06767903	4.336856e-06	4.550631e-05
	8.497085e-06	2.438369e-05	0.003495357	-0.001319627	4.336856e-06	4.550631e-05	-0.06294749	0.06970051
4.1e+08	-0.05792788	0.06708419	5.272468e-06	4.266707e-05	0.001936496	-0.0009304016	9.652499e-06	2.369852e-05
	5.272468e-06	4.266707e-05	-0.05560432	0.0687974	-0.0004911181	0.0003816744	0.002722193	-0.0004931734
	0.001936496	-0.0009304016	-0.0004911181	0.0003816744	-0.05778127	0.06740788	5.513593e-06	4.497939e-05
	9.652499e-06	2.369852e-05	0.002722193	-0.0004931734	5.513593e-06	4.497939e-05	-0.05528085	0.06919158
4.2e+08	-0.05039082	0.06586941	6.237583e-06	4.237301e-05	0.001279567	6.756795e-05	1.07646e-05	2.295758e-05
	6.237583e-06	4.237301e-05	-0.04810587	0.06736689	-0.0004513363	0.0004286929	0.002046166	0.0004360249
	0.001279567	6.756795e-05	-0.0004513363	0.0004286929	-0.05023883	0.06619792	6.662552e-06	4.460546e-05
	1.07646e-05	2.295758e-05	0.002046166	0.0004360249	6.662552e-06	4.460546e-05	-0.04777931	0.06774134
4.3e+08	-0.04309317	0.06373831	7.245598e-06	4.225145e-05	0.0007445375	0.001153523	1.183008e-05	2.216319e-05
	7.245598e-06	4.225145e-05	-0.04088275	0.06502269	-0.0004069478	0.0004700186	0.001480806	0.001455054
	0.0007445375	0.001153523	-0.0004069478	0.0004700186	-0.0429359	0.06407104	7.831469e-06	4.438353e-05
	1.183008e-05	2.216319e-05	0.001480806	0.001455054	7.831469e-06	4.438353e-05	-0.04055686	0.06537686
4.4e+08	-0.03614486	0.06072643	8.346928e-06	4.228591e-05	0.000343155	0.002311176	1.284567e-05	2.131798e-05
	8.346928e-06	4.228591e-05	-0.03404494	0.06180521	-0.0003589037	0.000505178	0.001037974	0.002549139
	0.000343155	0.002311176	-0.0003589037	0.000505178	-0.03598247	0.06106278	9.067607e-06	4.430238e-05
	1.284567e-05	2.131798e-05	0.001037974	0.002549139	9.067607e-06	4.430238e-05	-0.03372364	0.06213903
4.5e+08	-0.0296509	0.05688253	9.588312e-06	4.244912e-05	8.501414e-05	0.003522589	1.380824e-05	2.042489e-05
	9.588312e-06	4.244912e-05	-0.02769692	0.05776809	-0.0003082069	0.0005338654	0.0007275754	0.003701847
	8.501415e-05	0.003522589	-0.0003082069	0.0005338654	-0.02948367	0.05722191	1.041565e-05	4.434058e-05
	1.380824e-05	2.042489e-05	0.0007275754	0.003701847	1.041565e-05	4.434058e-05	-0.02738418	0.05808205
4.6e+08	-0.02370989	0.05226798	1.101059e-05	4.270373e-05	-2.270072e-05	0.004768447	1.471482e-05	1.94872e-05
	1.101059e-05	4.270373e-05	-0.02193603	0.05297761	-0.0002558805	0.0005559494	0.000557311	0.004895349
	-2.270072e-05	0.004768447	-0.0002558805	0.0005559494	-0.02353816	0.05260982	1.191559e-05	4.446699e-05
	1.471482e-05	1.94872e-05	0.000557311	0.004895349	1.191559e-05	4.446699e-05	-0.02163581	0.05327271
4.7e+08	-0.01841233	0.04695594	1.264647e-05	4.300349e-05	2.456394e-05	0.006028392	1.556267e-05	1.850846e-05
	1.264647e-05	4.300349e-05	-0.01685089	0.04751168	-0.0002029382	0.0005714725	0.0005324487	0.006110711
	2.456394e-05	0.006028392	-0.0002029382	0.0005714725	-0.01823657	0.04729968	1.360057e-05	4.464165e-05
	1.556267e-05	1.850846e-05	0.0005324487	0.006110711	1.360057e-05	4.464165e-05	-0.01656706	0.04778947
