!$
! Info: Touchstone file created by Circ.  Input file=Tx_6in_Rx_85ohms_TxVia_60mils_RxVia_70mils.circ
!$
# Hz S RI R 50
0	0.004959468	9.364575e-26	-3.101415e-11	8.8768e-27	5.288016e-05	9.484574e-24	-3.213589e-09	3.992543e-25
	-3.101492e-11	8.876909e-27	0.004955007	1.122706e-25	4.198911e-11	1.70618e-27	5.258382e-05	1.199277e-23
	5.39643e-05	9.547974e-24	4.198489e-11	1.706692e-27	0.004975007	9.362254e-26	-1.000641e-11	7.870481e-27
	-3.213461e-09	3.992387e-25	5.285367e-05	1.20442e-23	-1.010117e-11	7.882038e-27	0.004969549	1.117592e-25
1e+07	0.00664017	-0.005357546	4.757664e-11	1.59405e-10	0.0001347602	0.001288515	-4.661049e-09	7.731806e-09
	4.757664e-11	1.594051e-10	0.006625775	-0.005258144	5.587254e-11	1.780188e-10	0.0001788441	0.001285193
	0.0001347914	0.001288519	5.587254e-11	1.780188e-10	0.007457833	-0.005150966	-4.977796e-09	9.896885e-09
	-4.661049e-09	7.731806e-09	0.0001788464	0.00128519	-4.977796e-09	9.896885e-09	0.006621126	-0.00524851
2e+07	0.007237376	-0.01236007	3.767505e-11	3.049048e-10	0.0003914457	0.002550672	-2.496769e-11	-4.671184e-11
	3.767505e-11	3.049048e-10	0.007298817	-0.01219252	4.725885e-11	3.379559e-10	0.0004496849	0.002507654
	0.0003914595	0.002550653	4.725884e-11	3.37956e-10	0.008078805	-0.0123146	2.638214e-11	6.466719e-10
	-2.496768e-11	-4.671184e-11	0.0004496817	0.002507655	2.638215e-11	6.466719e-10	0.007299048	-0.01216816
3e+07	0.006372294	-0.0200014	-5.497896e-12	4.612915e-10	0.0008353536	0.003725063	-1.051519e-11	5.142626e-10
	-5.497895e-12	4.612915e-10	0.006475854	-0.01981439	6.516242e-12	5.059576e-10	0.0008633143	0.003671585
	0.0008353544	0.00372506	6.516243e-12	5.059576e-10	0.007228679	-0.02003128	3.318832e-12	5.593885e-10
	-1.051519e-11	5.142626e-10	0.0008633141	0.003671587	3.31883e-12	5.593885e-10	0.006478951	-0.01978011
4e+07	0.004280476	-0.02764751	-6.098271e-11	6.228315e-10	0.001416406	0.004817048	-5.986428e-11	7.295564e-10
	-6.098271e-11	6.228315e-10	0.004401699	-0.02745372	-4.736512e-11	6.802077e-10	0.001412797	0.004762424
	0.00141641	0.004817053	-4.736512e-11	6.802078e-10	0.005143553	-0.02774313	-6.348201e-11	7.275136e-10
	-5.986428e-11	7.295564e-10	0.001412797	0.004762425	-6.348201e-11	7.275136e-10	0.004406359	-0.02741103
5e+07	0.001080196	-0.03505334	-1.319154e-10	7.960404e-10	0.002123598	0.00581228	-1.387727e-10	9.22208e-10
	-1.319154e-10	7.960404e-10	0.001198639	-0.03485554	-1.168748e-10	8.653846e-10	0.002087073	0.005763773
	0.002123601	0.005812281	-1.168748e-10	8.653846e-10	0.001942261	-0.03521245	-1.430388e-10	9.348816e-10
	-1.387727e-10	9.22208e-10	0.002087074	0.005763773	-1.430388e-10	9.348816e-10	0.001203386	-0.03480493
6e+07	-0.003131977	-0.04204541	-2.168263e-10	9.851424e-10	0.002942774	0.006696162	-2.355648e-10	1.13119e-09
	-2.168263e-10	9.851424e-10	-0.00303341	-0.04184124	-2.008124e-10	1.065506e-09	0.002872419	0.006660543
	0.00294277	0.006696161	-2.008124e-10	1.065506e-09	-0.00227847	-0.04226745	-2.364593e-10	1.16154e-09
	-2.355648e-10	1.13119e-09	0.00287242	0.006660544	-2.364593e-10	1.16154e-09	-0.0030298	-0.04178264
7e+07	-0.008260764	-0.04848358	-3.129896e-10	1.19382e-09	0.003857535	0.007455636	-3.424799e-10	1.365939e-09
	-3.129896e-10	1.19382e-09	-0.008196664	-0.04826773	-2.968044e-10	1.284139e-09	0.003753116	0.007439602
	0.003857524	0.007455637	-2.968045e-10	1.284139e-09	-0.007423399	-0.04876843	-3.436791e-10	1.407474e-09
	-3.424799e-10	1.365939e-09	0.003753118	0.007439602	-3.436791e-10	1.407474e-09	-0.008195274	-0.04820085
8e+07	-0.01420583	-0.05424975	-4.168855e-10	1.425281e-09	0.004849709	0.008079816	-4.529587e-10	1.629608e-09
	-4.168855e-10	1.425281e-09	-0.01418892	-0.054015	-4.017948e-10	1.524431e-09	0.004711843	0.008090133
	0.004849694	0.008079819	-4.017948e-10	1.524431e-09	-0.01339246	-0.0545975	-4.630957e-10	1.676188e-09
	-4.529587e-10	1.629608e-09	0.004711844	0.008090132	-4.630957e-10	1.676188e-09	-0.01419082	-0.05393934
9e+07	-0.02085955	-0.05924358	-5.244517e-10	1.682391e-09	0.005899767	0.00856039	-5.610309e-10	1.923264e-09
	-5.244517e-10	1.682391e-09	-0.02090134	-0.05898214	-5.123671e-10	1.789222e-09	0.005730121	0.008604048
	0.005899756	0.008560395	-5.123672e-10	1.789222e-09	-0.02007883	-0.05965507	-5.920758e-10	1.97213e-09
	-5.610309e-10	1.923264e-09	0.005730122	0.008604047	-5.920758e-10	1.97213e-09	-0.02090756	-0.05889691
1e+08	-0.02810404	-0.06337727	-6.315102e-10	1.969323e-09	0.006987483	0.008892147	-6.614181e-10	2.248292e-09
	-6.315102e-10	1.969323e-09	-0.02821941	-0.0630876	-6.262187e-10	2.082765e-09	0.006789697	0.008977568
	0.006987482	0.008892147	-6.262187e-10	2.082765e-09	-0.02736927	-0.06385925	-7.280522e-10	2.302692e-09
	-6.614181e-10	2.248292e-09	0.006789697	0.008977568	-7.280522e-10	2.302692e-09	-0.02823097	-0.06299189
1.1e+08	-0.03580445	-0.06661154	-7.224513e-10	2.284124e-09	0.008092819	0.009071036	-7.538948e-10	2.586707e-09
	-7.224513e-10	2.284124e-09	-0.03602541	-0.0662545	-7.184924e-10	2.402566e-09	0.007875761	0.00919939
	0.008092819	0.009071035	-7.184924e-10	2.402566e-09	-0.03514569	-0.06714005	-8.317956e-10	2.666295e-09
	-7.538948e-10	2.586707e-09	0.007875759	0.00919939	-8.317956e-10	2.666295e-09	-0.03604318	-0.06614639
1.2e+08	-0.04386769	-0.06889272	-7.995325e-10	2.607976e-09	0.009192808	0.009097756	-8.346209e-10	2.945673e-09
	-7.995325e-10	2.607976e-09	-0.04418016	-0.06843617	-7.945263e-10	2.734527e-09	0.008957697	0.009270967
	0.009192808	0.009097756	-7.945263e-10	2.734527e-09	-0.04327885	-0.06944941	-9.194423e-10	3.040093e-09
	-8.346209e-10	2.945673e-09	0.008957695	0.009270968	-9.194423e-10	3.040093e-09	-0.04420395	-0.06831383
1.3e+08	-0.05216368	-0.07018141	-8.624651e-10	2.950278e-09	0.01026734	0.008976014	-9.001806e-10	3.327356e-09
	-8.624651e-10	2.950278e-09	-0.05255565	-0.06960406	-8.576415e-10	3.086048e-09	0.01001711	0.009197578
	0.01026734	0.008976014	-8.576415e-10	3.086048e-09	-0.05164224	-0.07075616	-9.91516e-10	3.434954e-09
	-9.001806e-10	3.327356e-09	0.01001711	0.009197579	-9.91516e-10	3.434954e-09	-0.05258507	-0.06946582
1.4e+08	-0.06056405	-0.0704599	-9.076107e-10	3.311306e-09	0.01129694	0.008711839	-9.464737e-10	3.729301e-09
	-9.076107e-10	3.311306e-09	-0.06102185	-0.06974413	-9.048308e-10	3.457113e-09	0.01103549	0.008985214
	0.01129694	0.008711838	-9.048308e-10	3.457113e-09	-0.06010786	-0.07104462	-1.043657e-09	3.851253e-09
	-9.464737e-10	3.729301e-09	0.01103549	0.008985215	-1.043657e-09	3.851253e-09	-0.06105624	-0.0695884
1.5e+08	-0.06894153	-0.06972726	-9.323375e-10	3.689529e-09	0.01226329	0.008313698	-9.700797e-10	4.149819e-09
	-9.323375e-10	3.689529e-09	-0.06944957	-0.06885843	-9.326265e-10	3.845528e-09	0.0119953	0.008641956
	0.01226329	0.008313698	-9.326265e-10	3.845528e-09	-0.06854844	-0.07031503	-1.072935e-09	4.287368e-09
	-9.700797e-10	4.149819e-09	0.0119953	0.008641957	-1.072935e-09	4.287368e-09	-0.06948798	-0.06868368
1.6e+08	-0.07717147	-0.0679985	-9.335515e-10	4.082203e-09	0.01314957	0.0077923	-9.676136e-10	4.585894e-09
	-9.335515e-10	4.082203e-09	-0.07771237	-0.06696473	-9.379592e-10	4.248662e-09	0.0128804	0.008177923
	0.01314957	0.007792299	-9.379592e-10	4.248662e-09	-0.07683916	-0.06858317	-1.075778e-09	4.740194e-09
	-9.676136e-10	4.585894e-09	0.0128804	0.008177923	-1.075778e-09	4.740194e-09	-0.07775354	-0.06676961
1.7e+08	-0.08513351	-0.06530364	-9.085573e-10	4.486144e-09	0.01394072	0.007160331	-9.361271e-10	5.034002e-09
	-9.085573e-10	4.486144e-09	-0.08568829	-0.06409599	-9.181586e-10	4.663465e-09	0.01367628	0.007605074
	0.01394072	0.007160331	-9.181586e-10	4.663465e-09	-0.08485947	-0.06587969	-1.049072e-09	5.206126e-09
	-9.361271e-10	5.034002e-09	0.01367628	0.007605075	-1.049072e-09	5.206126e-09	-0.08573073	-0.06387928
1.8e+08	-0.09271311	-0.06168683	-8.551179e-10	4.897761e-09	0.01462363	0.006432175	-8.731809e-10	5.490164e-09
	-8.551179e-10	4.897761e-09	-0.09326156	-0.06029936	-8.709994e-10	5.0865e-09	0.01437027	0.006936955
	0.01462363	0.006432175	-8.709994e-10	5.0865e-09	-0.09249463	-0.06224926	-9.902249e-10	5.681096e-09
	-8.731809e-10	5.490164e-09	0.01437027	0.006936955	-9.902249e-10	5.681096e-09	-0.09330355	-0.0600601
1.9e+08	-0.09980305	-0.05720532	-7.71512e-10	5.313117e-09	0.01518734	0.005623607	-7.769125e-10	5.950008e-09
	-7.71512e-10	5.313117e-09	-0.1003241	-0.05563525	-7.947503e-10	5.513999e-09	0.01495167	0.006188419
	0.01518734	0.005623606	-7.947503e-10	5.513999e-09	-0.0996372	-0.05774962	-8.972315e-10	6.160636e-09
	-7.769125e-10	5.950008e-09	0.01495167	0.006188419	-8.972315e-10	6.160636e-09	-0.1003637	-0.05537272
2e+08	-0.1063047	-0.05192833	-6.565842e-10	5.727994e-09	0.01562312	0.004751481	-6.460949e-10	6.40885e-09
	-6.565842e-10	5.727994e-09	-0.1067769	-0.0501761	-6.882174e-10	5.941923e-09	0.0154119	0.005375348
	0.01562312	0.004751481	-6.882174e-10	5.941923e-09	-0.1061884	-0.05245042	-7.687313e-10	6.639954e-09
	-6.460949e-10	6.40885e-09	0.0154119	0.005375348	-7.687313e-10	6.639954e-09	-0.106812	-0.04988988
2.1e+08	-0.1121293	-0.04593575	-5.09787e-10	6.137972e-09	0.01592453	0.003833429	-4.801843e-10	6.861788e-09
	-5.09787e-10	6.137972e-09	-0.112531	-0.04400508	-5.50782e-10	6.366037e-09	0.01574453	0.004514365
	0.01592453	0.003833429	-5.50782e-10	6.366037e-09	-0.1120593	-0.04643199	-6.040578e-10	7.114018e-09
	-4.801843e-10	6.861788e-09	0.01574453	0.004514365	-6.040578e-10	7.114018e-09	-0.1125594	-0.04369507
2.2e+08	-0.1171988	-0.03931688	-3.312112e-10	6.538515e-09	0.0160875	0.002887554	-2.793546e-10	7.303793e-09
	-3.312112e-10	6.538515e-09	-0.117509	-0.03721475	-3.824281e-10	6.781984e-09	0.01594529	0.003622558
	0.0160875	0.002887554	-3.824281e-10	6.781984e-09	-0.1171716	-0.03978401	-4.032742e-10	7.577662e-09
	-2.793546e-10	7.303793e-09	0.01594529	0.003622558	-4.032742e-10	7.577662e-09	-0.1175285	-0.03688118
2.3e+08	-0.1214469	-0.03216891	-1.216041e-10	6.92506e-09	0.01611025	0.001932149	-4.451787e-11	7.729818e-09
	-1.216041e-10	6.92506e-09	-0.1216454	-0.02990552	-1.83761e-10	7.185371e-09	0.01601209	0.002717219
	0.01611025	0.001932149	-1.83761e-10	7.185371e-09	-0.121459	-0.03260411	-1.67196e-10	8.02568e-09
	-4.451787e-11	7.729818e-09	0.01601209	0.002717219	-1.67196e-10	8.02568e-09	-0.1216536	-0.02954897
2.4e+08	-0.1248195	-0.02459561	1.176218e-10	7.293108e-09	0.01599329	0.0009854156	2.226685e-10	8.134902e-09
	1.176218e-10	7.293108e-09	-0.1248875	-0.0221842	4.398492e-11	7.571849e-09	0.01594498	0.00181559
	0.01599329	0.0009854156	4.398492e-11	7.571849e-09	-0.1248674	-0.02499641	1.025996e-10	8.452936e-09
	2.226685e-10	8.134902e-09	0.01594498	0.00181559	1.025996e-10	8.452936e-09	-0.1248822	-0.02180562
2.5e+08	-0.1272756	-0.0167057	3.843975e-10	7.638322e-09	0.01573937	6.521426e-05	5.198123e-10	8.514281e-09
	3.843975e-10	7.638322e-09	-0.1271959	-0.01416244	2.9895e-10	7.937203e-09	0.01574608	0.0009346321
	0.01573937	6.521426e-05	2.9895e-10	7.937203e-09	-0.1273554	-0.01707002	4.037822e-10	8.854477e-09
	5.198123e-10	8.514281e-09	0.01574608	0.000934632	4.037822e-10	8.854477e-09	-0.127175	-0.01376309
2.6e+08	-0.128787	-0.008611439	6.760209e-10	7.956618e-09	0.01535335	-0.0008111791	8.438211e-10	8.863489e-09
	6.760209e-10	7.956618e-09	-0.1285448	-0.0059551	5.786635e-10	8.277436e-09	0.01541949	9.080372e-05
	0.01535335	-0.0008111791	5.786635e-10	8.277436e-09	-0.1288951	-0.008937576	7.332899e-10	9.225633e-09
	8.438211e-10	8.863489e-09	0.01541949	9.080368e-05	7.332899e-10	9.225633e-09	-0.1285064	-0.005536613
2.7e+08	-0.1293394	-0.0004270422	9.891851e-10	8.244252e-09	0.01484214	-0.001627295	1.190932e-09	9.178465e-09
	9.891851e-10	8.244252e-09	-0.1289224	0.002321228	8.800711e-10	8.588854e-09	0.01497126	-0.0007001403
	0.01484214	-0.001627295	8.800711e-10	8.588854e-09	-0.1294719	-0.0007136559	1.087368e-09	9.562127e-09
	1.190932e-09	9.178465e-09	0.01497126	-0.0007001403	1.087368e-09	9.562127e-09	-0.1288646	0.00275692
2.8e+08	-0.1289316	0.007732804	1.320025e-09	8.497913e-09	0.01421456	-0.002367679	1.55677e-09	9.455646e-09
	1.320025e-09	8.497913e-09	-0.1283304	0.01054987	1.199571e-09	8.868151e-09	0.0144092	-0.001423339
	0.01421456	-0.002367679	1.199571e-09	8.868151e-09	-0.1290848	0.007486699	1.461621e-09	9.860176e-09
	1.55677e-09	9.455646e-09	0.0144092	-0.001423339	1.461621e-09	9.860176e-09	-0.1282517	0.01100054
2.9e+08	-0.1275759	0.01575444	1.664176e-09	8.714797e-09	0.0134812	-0.003018081	1.93642e-09	9.692056e-09
	1.664176e-09	8.714797e-09	-0.1267842	0.01861556	1.533062e-09	9.11248e-09	0.01374282	-0.002065003
	0.0134812	-0.003018081	1.533062e-09	9.11248e-09	-0.1277461	0.01554949	1.85108e-09	1.011658e-08
	1.93642e-09	9.692056e-09	0.01374282	-0.002065003	1.85108e-09	1.011658e-08	-0.1266834	0.01907873
3e+08	-0.1252977	0.02352672	2.016842e-09	8.892678e-09	0.01265428	-0.003565638	2.324508e-09	9.885386e-09
	2.016842e-09	8.892678e-09	-0.1243128	0.02640597	1.876007e-09	9.319532e-09	0.01298321	-0.00261258
	0.01265428	-0.003565638	1.876007e-09	9.319532e-09	-0.1254811	0.02336321	2.250283e-09	1.03288e-08
	2.324508e-09	9.885386e-09	0.01298321	-0.00261258	2.250283e-09	1.03288e-08	-0.1241889	0.02687895
3.1e+08	-0.1221351	0.03094243	2.372826e-09	9.030024e-09	0.0117475	-0.003999039	2.715295e-09	1.003406e-08
	2.372826e-09	9.030024e-09	-0.1209578	0.0338132	2.223372e-09	9.487643e-09	0.01214284	-0.003054908
	0.0117475	-0.003999039	2.223372e-09	9.487643e-09	-0.1223281	0.03082033	2.653367e-09	1.049503e-08
	2.715295e-09	1.003406e-08	0.01214284	-0.003054908	2.653367e-09	1.049503e-08	-0.1208102	0.03429313
3.2e+08	-0.1181383	0.03789966	2.726689e-09	9.125997e-09	0.01077587	-0.00430868	3.102776e-09	1.013728e-08
	2.726689e-09	9.125997e-09	-0.1167732	0.04073516	2.569858e-09	9.615818e-09	0.0112355	-0.003382368
	0.01077587	-0.00430868	2.569858e-09	9.615818e-09	-0.1183374	0.03781863	3.054171e-09	1.061429e-08
	3.102776e-09	1.013728e-08	0.0112355	-0.003382368	3.054171e-09	1.061429e-08	-0.1166019	0.04121902
3.3e+08	-0.1133691	0.04430315	3.072962e-09	9.180338e-09	0.009755518	-0.004486807	3.480785e-09	1.019508e-08
	3.072962e-09	9.180338e-09	-0.1118246	0.04707687	2.910328e-09	9.703607e-09	0.01027606	-0.00358702
	0.009755518	-0.004486807	2.910328e-09	9.703607e-09	-0.1135709	0.04426254	3.446331e-09	1.06864e-08
	3.480785e-09	1.019508e-08	0.01027606	-0.00358702	3.446331e-09	1.06864e-08	-0.1116298	0.04756162
3.4e+08	-0.1079	0.05006556	3.405992e-09	9.193637e-09	0.008703484	-0.004527644	3.843117e-09	1.020833e-08
	3.405992e-09	9.193637e-09	-0.1061883	0.05275181	3.23912e-09	9.751482e-09	0.009280331	-0.003662729
	0.008703484	-0.004527644	3.23912e-09	9.751482e-09	-0.1081012	0.05006442	3.823362e-09	1.071216e-08
	3.843117e-09	1.020833e-08	0.009280331	-0.003662729	3.823362e-09	1.071216e-08	-0.1059706	0.05323443
3.5e+08	-0.1018132	0.05510859	3.720149e-09	9.16726e-09	0.007637516	-0.004427514	4.183644e-09	1.017876e-08
	3.720149e-09	9.16726e-09	-0.09995017	0.05768306	3.550789e-09	9.760527e-09	0.008264878	-0.003605285
	0.007637516	-0.004427514	3.550789e-09	9.760527e-09	-0.1020106	0.05514571	4.178922e-09	1.069311e-08
	4.183644e-09	1.017876e-08	0.008264878	-0.003605285	4.178922e-09	1.069311e-08	-0.09971077	0.05816055
3.6e+08	-0.09519946	0.05936409	4.009935e-09	9.103343e-09	0.006575836	-0.004184932	4.496427e-09	1.010894e-08
	4.009935e-09	9.103343e-09	-0.09320467	0.06180435	3.840005e-09	9.732547e-09	0.007246792	-0.003412508
	0.006575836	-0.004184932	3.840005e-09	9.732547e-09	-0.09539027	0.05943798	4.506823e-09	1.063168e-08
	4.496427e-09	1.010894e-08	0.007246792	-0.003412508	4.506823e-09	1.063168e-08	-0.09294511	0.06227382
3.7e+08	-0.08815735	0.06277504	4.270092e-09	9.00478e-09	0.005536883	-0.003800687	4.775832e-09	1.000226e-08
	4.270092e-09	9.00478e-09	-0.08605357	0.06506105	4.101521e-09	9.670178e-09	0.006243471	-0.00308433
	0.005536883	-0.003800687	4.101521e-09	9.670178e-09	-0.08833879	0.06288394	4.801115e-09	1.053117e-08
	4.775832e-09	1.000226e-08	0.006243471	-0.00308433	4.801115e-09	1.053117e-08	-0.08577581	0.0655198
3.8e+08	-0.08079144	0.06529635	4.495704e-09	8.87519e-09	0.00453905	-0.003277894	5.016645e-09	9.862894e-09
	4.495704e-09	8.87519e-09	-0.07860457	0.06741095	4.33039e-09	9.576799e-09	0.005272372	-0.002622865
	0.00453905	-0.003277894	4.33039e-09	9.576799e-09	-0.08096103	0.0654383	5.05625e-09	1.039575e-08
	5.016645e-09	9.862894e-09	0.005272372	-0.002622865	5.05625e-09	1.039575e-08	-0.07831096	0.06785649
3.9e+08	-0.07321118	0.06689563	4.682296e-09	8.718879e-09	0.003600395	-0.002622024	5.21417e-09	9.695725e-09
	4.682296e-09	8.718879e-09	-0.07096978	0.06882497	4.522067e-09	9.456491e-09	0.004350745	-0.002032445
	0.003600395	-0.002622024	4.522067e-09	9.456491e-09	-0.07336667	0.06706843	5.267192e-09	1.023034e-08
	5.21417e-09	9.695725e-09	0.004350745	-0.002032445	5.267192e-09	1.023034e-08	-0.07066307	0.06925511
4e+08	-0.06552934	0.06755368	4.825923e-09	8.540783e-09	0.002738346	-0.00184089	5.364332e-09	9.5063e-09
	4.825923e-09	8.540783e-09	-0.06326426	0.06928762	4.672513e-09	9.313992e-09	0.003495357	-0.001319627
	0.002738346	-0.00184089	4.672513e-09	9.313992e-09	-0.06566877	0.06775496	5.429522e-09	1.004056e-08
	5.364332e-09	9.5063e-09	0.003495357	-0.001319627	5.429522e-09	1.004056e-08	-0.06294749	0.06970051
4.1e+08	-0.05786044	0.0672649	4.92326e-09	8.346397e-09	0.001969394	-0.0009446071	5.463758e-09	9.300736e-09
	4.92326e-09	8.346397e-09	-0.05560432	0.0687974	4.778285e-09	9.154633e-09	0.002722193	-0.0004931734
	0.001969394	-0.0009446071	4.778285e-09	9.154633e-09	-0.05798214	0.06749215	5.539534e-09	9.832694e-09
	5.463758e-09	9.300736e-09	0.002722193	-0.0004931734	5.539534e-09	9.832694e-09	-0.05528085	0.06919158
4.2e+08	-0.05031915	0.06603753	4.971676e-09	8.141703e-09	0.001308772	5.449851e-05	5.50986e-09	9.085628e-09
	4.971676e-09	8.141703e-09	-0.04810587	0.06736689	4.83662e-09	8.984256e-09	0.002046166	0.0004360249
	0.001308772	5.44985e-05	4.83662e-09	8.984256e-09	-0.05042175	0.06628809	5.594323e-09	9.613525e-09
	5.50986e-09	9.085628e-09	0.002046166	0.0004360249	5.594323e-09	9.613525e-09	-0.04777931	0.06774134
4.3e+08	-0.04301862	0.06389361	4.969303e-09	7.933075e-09	0.0007701505	0.001142024	5.50089e-09	8.867953e-09
	4.969303e-09	7.933075e-09	-0.04088275	0.06502269	4.845514e-09	8.80913e-09	0.001480806	0.001455054
	0.0007701505	0.001142024	4.845514e-09	8.80913e-09	-0.04310107	0.06416473	5.591857e-09	9.390284e-09
	5.50089e-09	8.867953e-09	0.001480806	0.001455054	5.591857e-09	9.390284e-09	-0.04055686	0.06537686
4.4e+08	-0.03606877	0.0608688	4.915091e-09	7.727184e-09	0.0003653312	0.002301672	5.435997e-09	8.654957e-09
	4.915091e-09	7.727184e-09	-0.03404494	0.06180521	4.803781e-09	8.635847e-09	0.001037974	0.002549139
	0.0003653312	0.002301672	4.803781e-09	8.635847e-09	-0.03613037	0.06115768	5.531033e-09	9.17052e-09
	5.435997e-09	8.654957e-09	0.001037974	0.002549139	5.531033e-09	9.17052e-09	-0.03372364	0.06213903
4.5e+08	-0.02957468	0.057012	4.808849e-09	7.530889e-09	0.0001039612	0.003515485	5.315259e-09	8.454041e-09
	4.808849e-09	7.530889e-09	-0.02769692	0.05776809	4.711101e-09	8.471214e-09	0.0007275754	0.003701847
	0.0001039612	0.003515485	4.711101e-09	8.471214e-09	-0.02961504	0.05731582	5.411729e-09	8.961975e-09
	5.315259e-09	8.454041e-09	0.0007275754	0.003701847	5.411729e-09	8.961975e-09	-0.02738418	0.05808205
4.6e+08	-0.02363491	0.05238473	4.651275e-09	7.351131e-09	-6.724765e-06	0.004764122	5.139706e-09	8.272645e-09
	4.651275e-09	7.351131e-09	-0.02193603	0.05297761	4.568058e-09	8.322139e-09	0.000557311	0.004895349
	-6.724765e-06	0.004764122	4.568058e-09	8.322139e-09	-0.02365401	0.05270069	5.234825e-09	8.772464e-09
	5.139706e-09	8.272645e-09	0.000557311	0.004895349	5.234825e-09	8.772464e-09	-0.02163581	0.05327271
4.7e+08	-0.01833997	0.04706029	4.44397e-09	7.194815e-09	3.787421e-05	0.006027193	4.911326e-09	8.118122e-09
	4.44397e-09	7.194815e-09	-0.01685089	0.04751168	4.376153e-09	8.195505e-09	0.0005324487	0.006110711
	3.787421e-05	0.006027192	4.376153e-09	8.195505e-09	-0.01833811	0.04738563	5.002221e-09	8.609742e-09
	4.911326e-09	8.118122e-09	0.0005324487	0.006110711	5.002221e-09	8.609742e-09	-0.01656706	0.04778947
4.8e+08	-0.01377085	0.04112272	4.189441e-09	7.068693e-09	0.0002395488	0.007283618	4.633059e-09	7.997626e-09
	4.189441e-09	7.068693e-09	-0.01251996	0.04145876	4.137805e-09	8.098051e-09	0.0006556456	0.007328244
