!$
! Info: Touchstone file created by Circ.  Input file=Tx_6in_Rx_93ohms_TxVia_60mils_RxVia_70mils.circ
!$
# Hz S RI R 50
0	0.005629784	1.072655e-25	3.085774e-08	2.174019e-26	5.569474e-05	1.22254e-23	6.56384e-08	5.16208e-27
	3.085774e-08	2.173999e-26	0.005625136	1.118941e-25	6.337866e-08	7.04384e-26	5.242595e-05	1.363603e-23
	5.69167e-05	1.187815e-23	6.337867e-08	7.043715e-26	0.005640601	1.064099e-25	2.40647e-08	2.897712e-26
	6.563843e-08	5.162455e-27	5.269577e-05	1.369451e-23	2.4065e-08	2.898271e-26	0.005639659	1.113844e-25
1e+07	0.008254201	-7.812274e-05	4.865515e-08	9.647127e-08	0.0001787805	0.001292599	1.168415e-07	2.797306e-07
	4.865516e-08	9.647128e-08	0.008248989	-7.824297e-05	8.243027e-08	2.917584e-07	0.0001766763	0.001293141
	0.0001788504	0.001292567	8.243027e-08	2.917584e-07	0.008102193	-8.308325e-05	3.579939e-08	1.319012e-07
	1.168415e-07	2.797306e-07	0.0001766786	0.001293139	3.579939e-08	1.319012e-07	0.00809649	-8.300841e-05
2e+07	0.009850277	-0.002164171	7.806577e-08	1.717423e-07	0.0003913492	0.002582436	2.420002e-07	4.624159e-07
	7.806578e-08	1.717423e-07	0.009829075	-0.002163215	1.287103e-07	5.044201e-07	0.0003829965	0.002584458
	0.0003913346	0.002582399	1.287103e-07	5.044201e-07	0.009736004	-0.002116033	7.984095e-08	1.928742e-07
	2.420002e-07	4.624159e-07	0.0003829933	0.002584458	7.984094e-08	1.928743e-07	0.009712799	-0.002114638
3e+07	0.01063304	-0.004986044	1.130989e-07	2.389426e-07	0.0008012296	0.003777865	4.000502e-07	6.168246e-07
	1.130989e-07	2.389426e-07	0.01058556	-0.004979761	1.610385e-07	7.173439e-07	0.0007828233	0.003783013
	0.0008012258	0.003777864	1.610385e-07	7.173439e-07	0.0105478	-0.004926396	1.235878e-07	2.634261e-07
	4.000502e-07	6.168246e-07	0.000782823	0.003783015	1.235878e-07	2.634261e-07	0.01049596	-0.004918887
4e+07	0.01080213	-0.008059257	1.534371e-07	2.980335e-07	0.001383121	0.004886233	5.883109e-07	7.39079e-07
	1.534371e-07	2.980335e-07	0.01071862	-0.008042018	1.862064e-07	9.294236e-07	0.001351171	0.004896866
	0.001383127	0.004886233	1.862064e-07	9.294236e-07	0.01074108	-0.00799944	1.687268e-07	3.278638e-07
	5.883109e-07	7.39079e-07	0.001351172	0.004896867	1.687268e-07	3.278638e-07	0.01064999	-0.007979777
5e+07	0.01043428	-0.01122034	1.98616e-07	3.486467e-07	0.002089798	0.00590045	8.048192e-07	8.236658e-07
	1.98616e-07	3.486467e-07	0.01030608	-0.01118408	2.071091e-07	1.139165e-06	0.002041333	0.005919593
	0.002089801	0.005900448	2.071091e-07	1.139165e-06	0.01039317	-0.01116698	2.180588e-07	3.837369e-07
	8.048192e-07	8.236658e-07	0.002041334	0.005919593	2.180588e-07	3.837369e-07	0.01025332	-0.01112629
6e+07	0.009576636	-0.01436584	2.474893e-07	3.900902e-07	0.002908777	0.006807059	1.044146e-06	8.640061e-07
	2.474893e-07	3.900902e-07	0.009397057	-0.01430097	2.251841e-07	1.346858e-06	0.002841414	0.00683826
	0.002908777	0.006807061	2.251841e-07	1.346858e-06	0.009551418	-0.01432349	2.712131e-07	4.298249e-07
	1.044146e-06	8.64006e-07	0.002841416	0.006838261	2.712131e-07	4.298249e-07	0.009355601	-0.01425122
7e+07	0.008267583	-0.01741699	2.986014e-07	4.21762e-07	0.00382541	0.007593422	1.298661e-06	8.548146e-07
	2.986013e-07	4.21762e-07	0.008031719	-0.01731302	2.41324e-07	1.552869e-06	0.003737412	0.007640652
	0.003825408	0.007593427	2.41324e-07	1.552869e-06	0.008254232	-0.01738906	3.268985e-07	4.652521e-07
	1.298661e-06	8.548145e-07	0.003737413	0.007640652	3.268985e-07	4.652521e-07	0.00799718	-0.01727382
8e+07	0.00654412	-0.02030817	3.502833e-07	4.432858e-07	0.004823262	0.008248443	1.559356e-06	7.925606e-07
	3.502833e-07	4.432858e-07	0.006248665	-0.02015388	2.56126e-07	1.757412e-06	0.004713589	0.008316001
	0.004823261	0.00824845	2.56126e-07	1.757412e-06	0.00653847	-0.02029739	3.834354e-07	4.894238e-07
	1.559356e-06	7.925606e-07	0.00471359	0.008316	3.834354e-07	4.894238e-07	0.006216584	-0.02012696
9e+07	0.004445682	-0.02298159	4.007506e-07	4.545857e-07	0.005884401	0.008762997	1.816451e-06	6.755985e-07
	4.007506e-07	4.545857e-07	0.004089029	-0.022765	2.70009e-07	1.960591e-06	0.005752758	0.0088554
	0.005884401	0.008763002	2.70009e-07	1.960591e-06	0.00444321	-0.02299031	4.389346e-07	5.020561e-07
	1.816451e-06	6.755985e-07	0.005752758	0.008855399	4.389346e-07	5.020561e-07	0.004054681	-0.02275164
1e+08	0.002023511	-0.02537529	4.482046e-07	4.558952e-07	0.00698973	0.009129976	2.059868e-06	5.041302e-07
	4.482046e-07	4.558952e-07	0.001606007	-0.02508388	2.833275e-07	2.162406e-06	0.006836596	0.009251853
	0.00698973	0.009129976	2.833275e-07	2.162406e-06	0.002018059	-0.02540723	4.914118e-07	5.031888e-07
	2.059868e-06	5.041302e-07	0.006836596	0.009251853	4.914118e-07	5.031888e-07	0.001563192	-0.02508656
1.1e+08	-0.0006432977	-0.02751958	4.91502e-07	4.476362e-07	0.008117983	0.009346172	2.284625e-06	2.839819e-07
	4.91502e-07	4.476362e-07	-0.001118261	-0.02714112	2.935351e-07	2.365399e-06	0.007944654	0.009502102
	0.008117983	0.009346172	2.935351e-07	2.365399e-06	-0.0006629334	-0.02756782	5.389017e-07	4.945876e-07
	2.284625e-06	2.839819e-07	0.007944652	0.009502102	5.389017e-07	4.945876e-07	-0.001180219	-0.02715181
1.2e+08	-0.003592365	-0.0293631	5.287666e-07	4.30489e-07	0.009250327	0.009410758	2.480083e-06	1.555934e-08
	5.287666e-07	4.30489e-07	-0.00411999	-0.02888536	3.023222e-07	2.569039e-06	0.009058853	0.009605175
	0.009250327	0.009410758	3.023222e-07	2.569039e-06	-0.003625772	-0.02942259	5.798177e-07	4.762703e-07
	2.480083e-06	1.555934e-08	0.009058851	0.009605176	5.798177e-07	4.762703e-07	-0.004200167	-0.02889793
1.3e+08	-0.00676709	-0.03085825	5.584927e-07	4.053199e-07	0.01036672	0.00932458	2.637974e-06	-2.97012e-07
	5.584927e-07	4.053199e-07	-0.007340422	-0.03026968	3.099598e-07	2.773609e-06	0.01015991	0.009561664
	0.01036672	0.00932458	3.099598e-07	2.773609e-06	-0.006815024	-0.03092625	6.125111e-07	4.491841e-07
	2.637974e-06	-2.97012e-07	0.01015991	0.009561665	6.125111e-07	4.491841e-07	-0.00743888	-0.03028036
1.4e+08	-0.01011678	-0.03197775	5.792844e-07	3.732489e-07	0.01144743	0.009091373	2.750627e-06	-6.482749e-07
	5.792844e-07	3.732489e-07	-0.01072687	-0.03126775	3.167027e-07	2.979404e-06	0.01122882	0.009374925
	0.01144743	0.009091373	3.167027e-07	2.979404e-06	-0.01018006	-0.03205185	6.354558e-07	4.145523e-07
	2.750627e-06	-6.482749e-07	0.01122882	0.009374926	6.354558e-07	4.145523e-07	-0.01084355	-0.03127322
1.5e+08	-0.01359038	-0.0327028	5.899022e-07	3.35618e-07	0.01247342	0.008717452	2.811176e-06	-1.031581e-06
	5.899022e-07	3.35618e-07	-0.01422646	-0.03186205	3.228324e-07	3.186683e-06	0.01224721	0.009050782
	0.01247342	0.008717452	3.228324e-07	3.186683e-06	-0.01366973	-0.03278074	6.472986e-07	3.738413e-07
	2.811176e-06	-1.031581e-06	0.01224721	0.009050783	6.472986e-07	3.738413e-07	-0.01436105	-0.03185923
1.6e+08	-0.01713644	-0.03302185	5.892995e-07	2.939691e-07	0.01342668	0.00821157	2.813733e-06	-1.439211e-06
	5.892995e-07	2.939691e-07	-0.01778609	-0.03204256	3.286585e-07	3.395667e-06	0.01319766	0.008597395
	0.01342668	0.00821157	3.286585e-07	3.395667e-06	-0.0172324	-0.03310136	6.468976e-07	3.287353e-07
	2.813733e-06	-1.439211e-06	0.01319766	0.008597395	6.468976e-07	3.287353e-07	-0.01793795	-0.03202854
1.7e+08	-0.02070353	-0.03293009	5.766543e-07	2.500164e-07	0.01429052	0.007584754	2.753544e-06	-1.862522e-06
	5.766543e-07	2.500164e-07	-0.02135291	-0.03180626	3.345171e-07	3.606533e-06	0.01406401	0.008025099
	0.01429052	0.007584754	3.345171e-07	3.606533e-06	-0.02081645	-0.03300891	6.333572e-07	2.811056e-07
	2.753544e-06	-1.862522e-06	0.01406401	0.0080251	6.333572e-07	2.811056e-07	-0.02152108	-0.03177829
1.8e+08	-0.02424081	-0.03242914	5.513971e-07	2.056134e-07	0.01504991	0.006850095	2.62713e-06	-2.292109e-06
	5.513971e-07	2.056134e-07	-0.02487495	-0.03115678	3.40766e-07	3.819406e-06	0.01483161	0.007346217
	0.01504991	0.006850095	3.40766e-07	3.819406e-06	-0.02437081	-0.032505	6.060573e-07	2.329744e-07
	2.62713e-06	-2.292109e-06	0.01483161	0.007346218	6.060573e-07	2.329744e-07	-0.02505814	-0.03111232
1.9e+08	-0.0276987	-0.0315268	5.132339e-07	1.627166e-07	0.01569167	0.006022516	2.432393e-06	-2.717997e-06
	5.132339e-07	1.627166e-07	-0.02830175	-0.03010409	3.477789e-07	4.034358e-06	0.01548759	0.006574834
	0.01569167	0.006022516	3.477789e-07	4.034358e-06	-0.02784565	-0.03159743	5.646782e-07	1.864749e-07
	2.432393e-06	-2.717997e-06	0.01548759	0.006574834	5.646782e-07	1.864749e-07	-0.02849836	-0.0300408
2e+08	-0.03102942	-0.03023671	4.621633e-07	1.23344e-07	0.0162047	0.005118499	2.168703e-06	-3.129831e-06
	4.621633e-07	1.23344e-07	-0.031585	-0.0286642	3.559383e-07	4.251405e-06	0.01602102	0.005726547
	0.0162047	0.0051185	3.559383e-07	4.251405e-06	-0.03119294	-0.03029988	5.092185e-07	1.438069e-07
	2.168703e-06	-3.129831e-06	0.01602102	0.005726547	5.092185e-07	1.438069e-07	-0.03179314	-0.02857999
2.1e+08	-0.03418763	-0.02857807	3.984872e-07	8.953215e-08	0.01658019	0.004155802	1.836952e-06	-3.517098e-06
	3.984872e-07	8.953215e-08	-0.03467916	-0.02685873	3.656279e-07	4.470505e-06	0.01642313	0.004818192
	0.01658019	0.004155802	3.656279e-07	4.470505e-06	-0.0343671	-0.02863162	4.400069e-07	1.071892e-07
	1.836952e-06	-3.517098e-06	0.01642313	0.004818192	4.400069e-07	1.071892e-07	-0.03489668	-0.02675179
2.2e+08	-0.03713098	-0.02657523	3.22815e-07	6.329033e-08	0.01681174	0.00315314	1.439578e-06	-3.869338e-06
	3.22815e-07	6.329033e-08	-0.03754204	-0.02471448	3.772246e-07	4.691555e-06	0.01668741	0.003867555
	0.01681174	0.00315314	3.772246e-07	4.691555e-06	-0.0373255	-0.02661705	3.577059e-07	7.881108e-08
	1.439578e-06	-3.869338e-06	0.01668741	0.003867555	3.577059e-07	7.881108e-08	-0.03776657	-0.02458333
2.3e+08	-0.0398206	-0.02425724	2.360612e-07	4.655489e-08	0.01689543	0.002129873	9.805574e-07	-4.176368e-06
	2.360612e-07	4.655489e-08	-0.04013528	-0.02226301	3.910896e-07	4.914396e-06	0.01680973	0.002893068
	0.01689543	0.002129873	3.910896e-07	4.914396e-06	-0.04002903	-0.02428535	2.633097e-07	6.078232e-08
	9.805574e-07	-4.176368e-06	0.01680973	0.002893068	2.633097e-07	6.078232e-08	-0.04036427	-0.02210648
2.4e+08	-0.04222161	-0.02165742	1.394353e-07	4.114355e-08	0.01682992	0.001105667	4.653718e-07	-4.428503e-06
	1.394353e-07	4.114355e-08	-0.04242491	-0.01954001	4.075599e-07	5.138813e-06	0.01678836	0.001913501
	0.01682992	0.001105667	4.075599e-07	5.138813e-06	-0.0424426	-0.02166997	1.581327e-07	5.508398e-08
	4.653718e-07	-4.428503e-06	0.01678836	0.001913501	1.581327e-07	5.508398e-08	-0.04265566	-0.01935731
2.5e+08	-0.04430351	-0.01881279	3.442571e-08	4.871124e-08	0.0166164	0.0001001716	-9.906315e-08	-4.616765e-06
	3.442572e-08	4.871124e-08	-0.04438166	-0.01658485	4.269397e-07	5.364538e-06	0.01662401	0.0009476489
	0.0166164	0.0001001716	4.269397e-07	5.364538e-06	-0.04453546	-0.01880809	4.379203e-08	6.352068e-08
	-9.906315e-08	-4.616765e-06	0.01662401	0.0009476488	4.379203e-08	6.352068e-08	-0.04461139	-0.01637554
2.6e+08	-0.04604059	-0.01576355	-7.722507e-08	7.071065e-08	0.01625863	-0.0008673122	-7.044932e-07	-4.733089e-06
	-7.722507e-08	7.071065e-08	-0.04598141	-0.01343984	4.494932e-07	5.591256e-06	0.01631978	1.402725e-05
	0.01625863	-0.0008673122	4.494932e-07	5.591256e-06	-0.04628169	-0.01574012	-7.781728e-08	8.767576e-08
	-7.044932e-07	-4.733089e-06	0.01631978	1.402721e-05	-7.781728e-08	8.767576e-08	-0.04620726	-0.01320389
2.7e+08	-0.04741213	-0.0125525	-1.935458e-07	1.083484e-07	0.01576282	-0.001778151	-1.34145e-06	-4.770514e-06
	-1.935458e-07	1.083484e-07	-0.04720534	-0.01014973	4.754366e-07	5.81861e-06	0.01588114	-0.0008694331
	0.01576282	-0.001778151	4.754366e-07	5.81861e-06	-0.04766039	-0.01250906	-2.045544e-07	1.2887e-07
	-1.34145e-06	-4.770514e-06	0.01588114	-0.0008694331	-2.045544e-07	1.2887e-07	-0.04742448	-0.009887473
2.8e+08	-0.0484027	-0.009224405	-3.123754e-07	1.625564e-07	0.01513751	-0.002614682	-1.999401e-06	-4.723354e-06
	-3.123754e-07	1.625564e-07	-0.0480402	-0.006760961	5.049327e-07	6.04621e-06	0.01531579	-0.001685672
	0.01513751	-0.002614682	5.049327e-07	6.04621e-06	-0.04865599	-0.009159903	-3.340698e-07	1.881255e-07
	-1.999401e-06	-4.723354e-06	0.01531579	-0.001685672	-3.340698e-07	1.881255e-07	-0.04824987	-0.006473118
2.9e+08	-0.04900234	-0.00582537	-4.314014e-07	2.339624e-07	0.01439347	-0.003360506	-2.666923e-06	-4.587347e-06
	-4.314014e-07	2.339624e-07	-0.04847849	-0.003321031	5.380857e-07	6.273642e-06	0.01463353	-0.002418774
	0.01439347	-0.003360506	5.380857e-07	6.273642e-06	-0.04925839	-0.005739023	-4.638484e-07	2.661343e-07
	-2.666923e-06	-4.587347e-06	0.01463353	-0.002418774	-4.638484e-07	2.661343e-07	-0.04867603	-0.003008688
3e+08	-0.04920658	-0.00240221	-5.48204e-07	3.228676e-07	0.01354348	-0.004000748	-3.331899e-06	-4.35979e-06
	-5.48204e-07	3.228676e-07	-0.04851841	0.0001221924	5.74938e-07	6.500472e-06	0.01384613	-0.00305422
	0.01354348	-0.004000748	5.74938e-07	6.500472e-06	-0.04946303	-0.002293497	-5.912568e-07	3.632346e-07
	-3.331899e-06	-4.35979e-06	0.01384613	-0.00305422	-5.912568e-07	3.632346e-07	-0.04870132	0.0004575986
3.1e+08	-0.04901655	0.0009982109	-6.603024e-07	4.292306e-07	0.01260214	-0.004522303	-3.981724e-06	-4.039634e-06
	-6.603024e-07	4.292306e-07	-0.04816391	0.003521153	6.154681e-07	6.726262e-06	0.0129671	-0.003579119
	0.01260214	-0.004522303	6.154681e-07	6.726262e-06	-0.04927095	0.001129524	-7.135934e-07	4.79393e-07
	-3.981724e-06	-4.039634e-06	0.0129671	-0.003579119	-7.135934e-07	4.79393e-07	-0.04832987	0.003877853
3.2e+08	-0.04843885	0.004329604	-7.652042e-07	5.526586e-07	0.01158562	-0.004914048	-4.603534e-06	-3.627562e-06
	-7.652042e-07	5.526586e-07	-0.04742454	0.006829257	6.595905e-07	6.950576e-06	0.01201148	-0.003982414
	0.01158562	-0.004914048	6.595905e-07	6.950576e-06	-0.04868873	0.004483458	-8.281414e-07	6.141942e-07
	-4.603534e-06	-3.627562e-06	0.01201148	-0.003982414	-8.281414e-07	6.141942e-07	-0.04757151	0.007205181
3.3e+08	-0.04748547	0.007546893	-8.604549e-07	6.924054e-07	0.01051138	-0.005167025	-5.184441e-06	-3.12603e-06
	-8.604549e-07	6.924054e-07	-0.04631532	0.01000153	7.071564e-07	7.17299e-06	0.0109956	-0.004255056
	0.01051138	-0.005167025	7.071564e-07	7.17299e-06	-0.04772833	0.007722929	-9.322231e-07	7.668385e-07
	-5.184441e-06	-3.12603e-06	0.0109956	-0.004255056	-9.322231e-07	7.668385e-07	-0.0464415	0.01039434
3.4e+08	-0.04617358	0.01060683	-9.436881e-07	8.473766e-07	0.009397926	-0.005274585	-5.711774e-06	-2.539284e-06
	-9.436881e-07	8.473766e-07	-0.04485645	0.01299523	7.579565e-07	7.393101e-06	0.009936837	-0.004390149
	0.009397926	-0.005274585	7.579565e-07	7.393101e-06	-0.04640698	0.01080439	-1.023253e-06	9.361471e-07
	-5.711774e-06	-2.539284e-06	0.009936837	-0.004390149	-1.023253e-06	9.361471e-07	-0.04496038	0.01340235
3.5e+08	-0.04452529	0.01346857	-1.012674e-06	1.016142e-06	0.008264493	-0.005232508	-6.173322e-06	-1.873331e-06
	-1.012674e-06	1.016142e-06	-0.04307304	0.01577047	8.117252e-07	7.610537e-06	0.008853302	-0.004383066
	0.008264493	-0.005232508	8.117252e-07	7.610537e-06	-0.04474684	0.01368669	-1.098793e-06	1.120575e-06
	-6.173322e-06	-1.873331e-06	0.008853302	-0.004383066	-1.098793e-06	1.120575e-06	-0.04315359	0.01618914
3.6e+08	-0.04256732	0.01609422	-1.065366e-06	1.196954e-06	0.007130725	-0.005039073	-6.557578e-06	-1.135897e-06
	-1.065366e-06	1.196954e-06	-0.04099468	0.01829069	8.681449e-07	7.824962e-06	0.007763579	-0.004231525
	0.007130725	-0.005039073	8.681449e-07	7.824962e-06	-0.04277474	0.01633165	-1.1566e-06	1.318229e-06
	-6.557578e-06	-1.135897e-06	0.007763579	-0.004231524	-1.1566e-06	1.318229e-06	-0.0410511	0.01871801
3.7e+08	-0.04033061	0.01844937	-1.099945e-06	1.387775e-06	0.006016367	-0.004695096	-6.853972e-06	-3.363332e-07
	-1.099945e-06	1.387775e-06	-0.03865506	0.02052324	9.26853e-07	8.036083e-06	0.006686416	-0.003935632
	0.006016367	-0.004695096	9.26853e-07	8.036083e-06	-0.04052177	0.01870457	-1.194677e-06	1.526898e-06
	-6.853972e-06	-3.363332e-07	0.006686416	-0.003935632	-1.194677e-06	1.526898e-06	-0.03868696	0.0209562
3.8e+08	-0.0378499	0.02050354	-1.11486e-06	1.586305e-06	0.004940942	-0.00420393	-7.053097e-06	5.144962e-07
	-1.11486e-06	1.586305e-06	-0.03609141	0.02243977	9.874476e-07	8.243658e-06	0.005640428	-0.003497891
	0.004940942	-0.00420393	9.874476e-07	8.243658e-06	-0.03802283	0.0207747	-1.211316e-06	1.744085e-06
	-7.053097e-06	5.144962e-07	0.005640428	-0.003497891	-1.211316e-06	1.744085e-06	-0.03609883	0.02287533
3.9e+08	-0.03516322	0.02223057	-1.108859e-06	1.79002e-06	0.003923433	-0.003571422	-7.146923e-06	1.404363e-06
	-1.108859e-06	1.79002e-06	-0.03334404	0.02401664	1.049496e-06	8.447497e-06	0.004643798	-0.002923171
	0.003923433	-0.003571422	1.049496e-06	8.447497e-06	-0.03531617	0.02251564	-1.205134e-06	1.967043e-06
	-7.146923e-06	1.404363e-06	0.004643798	-0.002923171	-1.205134e-06	1.967043e-06	-0.03332739	0.02445175
4e+08	-0.0323114	0.02360902	-1.081027e-06	1.996216e-06	0.002981966	-0.002805836	-7.128981e-06	2.31985e-06
	-1.081027e-06	1.996216e-06	-0.03045568	0.02523521	1.11254e-06	8.647469e-06	0.003713975	-0.002218641
	0.002981966	-0.002805836	1.11254e-06	8.647469e-06	-0.03244285	0.02390574	-1.175113e-06	2.192825e-06
	-7.128981e-06	2.31985e-06	0.003713975	-0.002218641	-1.175113e-06	2.192825e-06	-0.03041578	0.0256669
4.1e+08	-0.02933743	0.02462244	-1.030804e-06	2.202046e-06	0.002133509	-0.001917727	-6.994542e-06	3.246554e-06
	-1.030804e-06	2.202046e-06	-0.02747091	0.02608214	1.176108e-06	8.843499e-06	0.002867396	-0.001393665
	0.002133509	-0.001917727	1.176108e-06	8.843499e-06	-0.02944614	0.02492832	-1.120621e-06	2.418327e-06
	-6.994542e-06	3.246554e-06	0.002867396	-0.001393665	-1.120621e-06	2.418327e-06	-0.02740899	0.02650753
4.2e+08	-0.02628593	0.02525957	-9.580055e-07	2.404574e-06	0.001393587	-0.0009197916	-6.740752e-06	4.169312e-06
	-9.580055e-07	2.404574e-06	-0.02443552	0.0265495	1.239717e-06	9.035574e-06	0.002119203	-0.0004596701
	0.001393587	-0.0009197916	1.239717e-06	9.035574e-06	-0.02637095	0.02557199	-1.041439e-06	2.640342e-06
	-6.740752e-06	4.169312e-06	0.002119203	-0.0004596701	-1.041439e-06	2.640342e-06	-0.02435316	0.02696589
4.3e+08	-0.02320251	0.02551452	-8.628359e-07	2.600823e-06	0.0007760083	0.0001733289	-6.366752e-06	5.072449e-06
	-8.628359e-07	2.600823e-06	-0.02139585	0.02663494	1.302882e-06	9.223739e-06	0.001482993	0.0005700338
	0.0007760083	0.0001733289	1.302882e-06	9.223739e-06	-0.0232632	0.02583071	-9.377677e-07	2.855613e-06
	-6.366752e-06	5.072449e-06	0.001482993	0.0005700338	-9.377677e-07	2.855613e-06	-0.02129501	0.02703981
4.4e+08	-0.0201331	0.02538685	-7.458933e-07	2.787823e-06	0.0002926302	0.001345272	-5.873756e-06	5.940035e-06
	-7.458933e-07	2.787823e-06	-0.01839811	0.02634164	1.365125e-06	9.408097e-06	0.0009705806	0.001680452
	0.0002926302	0.001345272	1.365125e-06	9.408097e-06	-0.02016916	0.02570395	-8.102434e-07	3.060891e-06
	-5.873756e-06	5.940035e-06	0.0009705806	0.001680452	-8.102434e-07	3.060891e-06	-0.01828105	0.02673275
4.5e+08	-0.01712334	0.02488155	-6.081694e-07	2.962665e-06	-4.686263e-05	0.002578212	-5.265098e-06	6.756167e-06
	-6.081694e-07	2.962665e-06	-0.01548772	0.02567831	1.425979e-06	9.588812e-06	0.00059179	0.002855142
	-4.686263e-05	0.002578212	1.425979e-06	9.588812e-06	-0.01713482	0.02519664	-6.599318e-07	3.252989e-06
	-5.265098e-06	6.756167e-06	0.00059179	0.002855142	-6.599318e-07	3.252989e-06	-0.01535703	0.02605372
4.6e+08	-0.01421793	0.02400897	-4.510422e-07	3.122552e-06	-0.0002351359	0.00385314	-4.546246e-06	7.505251e-06
	-4.510422e-07	3.122552e-06	-0.01270871	0.02465902	1.484995e-06	9.766098e-06	0.0003542765	0.004076471
	-0.0002351359	0.00385314	1.484995e-06	9.766098e-06	-0.0142052	0.02431916	-4.883213e-07	3.428836e-06
	-4.546246e-06	7.505251e-06	0.0003542766	0.004076471	-4.883213e-07	3.428836e-06	-0.01256718	0.02501714
4.7e+08	-0.01146	0.0227847	-2.762629e-07	3.264848e-06	-0.000267353	0.005150177	-3.724771e-06	8.172283e-06
	-2.762629e-07	3.264848e-06	-0.010103	0.02330301	1.541745e-06	9.940229e-06	0.0002633794	0.005325901
	-0.000267353	0.005150177	1.541745e-06	9.940229e-06	-0.01142383	0.0230871	-2.973153e-07	3.585539e-06
	-3.724771e-06	8.172283e-06	0.0002633794	0.005325901	-2.973153e-07	3.585539e-06	-0.009953684	0.0236426
4.8e+08	-0.008890509	0.02122934	-8.593629e-08	3.387125e-06	-0.0001412799	0.006448893	-2.810281e-06	8.743138e-06
