!$
! Info: Touchstone file created by Circ.  Input file=Tx_6in_Rx_100ohms_TxVia_60mils_RxVia_70mils.circ
!$
# Hz S RI R 50
0	0.006352802	1.072509e-25	0.9935067	-9.720699e-26	5.56811e-05	1.381283e-23	-5.100896e-05	2.279273e-21
	0.9935067	-9.841002e-26	0.006348153	1.118894e-25	-5.149073e-05	2.338305e-21	5.241654e-05	1.540898e-23
	5.690342e-05	1.342042e-23	-5.07998e-05	2.253686e-21	0.006363586	1.063953e-25	0.993485	-9.457281e-26
	-5.127856e-05	2.312285e-21	5.268632e-05	1.547506e-23	0.993485	-9.956299e-26	0.006362654	1.113799e-25
1e+07	0.009225335	0.004487099	0.9887663	-0.06448211	0.0003723525	0.001304987	-0.0003011493	-0.0001979301
	0.9887663	-0.06448211	0.009221558	0.004486623	-0.0003012513	-0.0001978766	0.000370371	0.001305468
	0.0003724226	0.001304955	-0.0003012173	-0.000197896	0.009147732	0.004500098	0.9888391	-0.06457925
	-0.0003011153	-0.0001979495	0.0003703734	0.001305465	0.9888391	-0.06457925	0.00914346	0.004499805
2e+07	0.01182222	0.006835184	0.9805718	-0.1264185	0.0005339575	0.002680755	-0.0002580365	-0.0004889405
	0.9805718	-0.1264185	0.01180662	0.006834788	-0.0002580622	-0.0004888591	0.0005261199	0.002682626
	0.0005339433	0.002680718	-0.0002580692	-0.0004888789	0.01177207	0.006891874	0.9806027	-0.1266427
	-0.0002580284	-0.0004889767	0.0005261167	0.002682626	0.9806027	-0.1266427	0.01175446	0.006891904
3e+07	0.01410103	0.008208498	0.9691363	-0.1868773	0.000870364	0.003913973	-0.0002603471	-0.0006755704
	0.9691363	-0.1868773	0.01406588	0.008211291	-0.0002603857	-0.0006755422	0.000853094	0.003918809
	0.0008703603	0.003913973	-0.0002603875	-0.000675542	0.01407543	0.008283611	0.9691185	-0.1872015
	-0.0002603491	-0.0006755743	0.0008530937	0.003918811	0.9691185	-0.1872015	0.01403591	0.008287618
4e+07	0.01625045	0.00908987	0.9543002	-0.2461592	0.001378062	0.005055673	-0.0003104479	-0.0008251573
	0.9543002	-0.2461592	0.01618827	0.009099839	-0.0003105329	-0.0008251232	0.001348073	0.0050657
	0.001378067	0.005055672	-0.0003105292	-0.0008251226	0.01624873	0.009175221	0.9542251	-0.246573
	-0.0003104402	-0.0008251513	0.001348074	0.005065701	0.9542251	-0.246573	0.01617897	0.009187592
5e+07	0.01832022	0.00959692	0.9360568	-0.3041849	0.002125318	0.006067661	-0.0004861805	-0.0009151993
	0.9360568	-0.3041849	0.01822431	0.009620065	-0.0004862931	-0.0009151241	0.002079777	0.0060856
	0.002125321	0.00606766	-0.0004862908	-0.0009151247	0.01834172	0.009686785	0.9359156	-0.3046797
	-0.0004861744	-0.0009151979	0.002079778	0.006085601	0.9359156	-0.3046797	0.01823416	0.009714317
6e+07	0.02032259	0.009786178	0.9144486	-0.3608131	0.002977441	0.006965275	-0.0006628563	-0.0009757298
	0.9144486	-0.3608131	0.02018779	0.009829668	-0.0006629808	-0.0009756055	0.002914065	0.006994414
	0.002977441	0.006965277	-0.0006629813	-0.0009756049	0.02036644	0.009875857	0.914233	-0.3613803
	-0.000662862	-0.0009757299	0.002914066	0.006994415	0.914233	-0.3613803	0.02021541	0.009926651
7e+07	0.02225418	0.009691313	0.8895439	-0.4158804	0.003920405	0.007738124	-0.0008386584	-0.001009282
	0.8895439	-0.4158804	0.02207665	0.009762903	-0.0008387913	-0.001009104	0.003837499	0.007782151
	0.003920404	0.007738129	-0.0008387934	-0.001009101	0.02231921	0.0097766	0.8892459	-0.4165112
	-0.0008386753	-0.001009277	0.003837501	0.007782151	0.8892459	-0.4165112	0.0221205	0.009859321
8e+07	0.02410451	0.009337119	0.8614289	-0.4692158	0.004938162	0.00837648	-0.00101118	-0.001017477
	0.8614289	-0.4692158	0.02388153	0.009445106	-0.001011324	-0.001017233	0.00483467	0.008439394
	0.004938161	0.008376486	-0.001011326	-0.001017229	0.02418912	0.009414081	0.8610416	-0.4699009
	-0.0010112	-0.001017465	0.004834671	0.008439393	0.8610416	-0.4699009	0.0239397	0.00953798
9e+07	0.02586056	0.008745744	0.8302039	-0.5206485	0.006012718	0.008871653	-0.001177438	-0.001001234
	0.8302039	-0.5206485	0.02559057	0.008899023	-0.001177593	-0.001000901	0.005888263	0.008957669
	0.006012718	0.008871658	-0.001177594	-0.001000898	0.02596257	0.008810579	0.8297211	-0.5213778
	-0.001177452	-0.001001222	0.005888264	0.008957668	0.8297211	-0.5213778	0.02566066	0.008985619
1e+08	0.02751579	0.0079473	0.7959736	-0.5700198	0.007121604	0.009212874	-0.001330984	-0.0009571554
	0.7959736	-0.5700198	0.02719862	0.008155281	-0.001331141	-0.0009567047	0.006976505	0.00932633
	0.007121604	0.009212874	-0.001331141	-0.0009567048	0.02763163	0.007995401	0.7953911	-0.5707816
	-0.001330984	-0.0009571555	0.006976505	0.00932633	0.7953911	-0.5707816	0.02727698	0.008232201
1.1e+08	0.02908182	0.006901307	0.758837	-0.6171013	0.008233247	0.009422102	-0.001457099	-0.000913859
	0.758837	-0.6171013	0.0287198	0.007173182	-0.00145722	-0.0009133074	0.008068617	0.00956735
	0.008233247	0.009422102	-0.00145722	-0.0009133072	0.02920468	0.006934591	0.7581545	-0.6178899
	-0.001457099	-0.0009138588	0.008068615	0.00956735	0.7581545	-0.6178899	0.02880011	0.007243452
1.2e+08	0.03047478	0.005643018	0.719003	-0.6617499	0.009357288	0.009491712	-0.001584788	-0.0008669334
	0.719003	-0.6617499	0.03007113	0.005988084	-0.001584851	-0.00086628	0.009174945	0.009672929
	0.009357288	0.009491712	-0.001584851	-0.0008662798	0.03060454	0.005662081	0.7182137	-0.6625574
	-0.001584788	-0.0008669332	0.009174943	0.00967293	0.7182137	-0.6625574	0.03015373	0.006053379
1.3e+08	0.03168737	0.004208645	0.6766115	-0.7038301	0.01047093	0.009416008	-0.001709546	-0.0008111327
	0.6766115	-0.7038301	0.03124691	0.004635753	-0.001709529	-0.0008103815	0.01027338	0.009637158
	0.01047093	0.009416008	-0.001709529	-0.0008103813	0.0318228	0.004212824	0.6757103	-0.7046468
	-0.001709546	-0.0008111325	0.01027338	0.009637159	0.6757103	-0.7046468	0.03133124	0.004696434
1.4e+08	0.03270708	0.002624257	0.6318188	-0.743203	0.01155437	0.009196576	-0.001830054	-0.0007462675
	0.6318188	-0.743203	0.03223616	0.003141593	-0.001829933	-0.0007454273	0.01134479	0.009461293
	0.01155437	0.009196576	-0.001829933	-0.0007454271	0.03284659	0.002612795	0.6308017	-0.7440182
	-0.001830053	-0.0007462673	0.01134479	0.009461294	0.6308017	-0.7440182	0.03232143	0.003197843
1.5e+08	0.0335224	0.0009152527	0.5847906	-0.7797368	0.01258869	0.008838157	-0.001945625	-0.0006728706
	0.5847906	-0.7797368	0.03302873	0.001530125	-0.00194538	-0.0006719552	0.01237089	0.009149647
	0.01258869	0.008838157	-0.00194538	-0.0006719551	0.03366416	0.0008875104	0.5836547	-0.7805395
	-0.001945624	-0.0006728705	0.01237089	0.009149648	0.5836547	-0.7805395	0.03311412	0.001582131
1.6e+08	0.03412368	-0.0008927135	0.5357008	-0.8133089	0.01355597	0.008348116	-0.002055941	-0.0005916801
	0.5357008	-0.8133089	0.03361624	-0.0001740751	-0.002055554	-0.000590708	0.0133343	0.008709056
	0.01355597	0.008348116	-0.002055553	-0.000590708	0.03426567	-0.00093718	0.5344441	-0.8140875
	-0.00205594	-0.00059168	0.0133343	0.008709057	0.5344441	-0.8140875	0.03370087	-0.0001260717
1.7e+08	0.03450349	-0.00277356	0.4847307	-0.8438062	0.01443944	0.007736173	-0.002160953	-0.0005034487
	0.4847307	-0.8438062	0.03399236	-0.001946193	-0.002160407	-0.0005024429	0.01421877	0.008148629
	0.01443944	0.007736173	-0.002160407	-0.000502443	0.03464358	-0.002834944	0.4833522	-0.844549
	-0.002160953	-0.0005034487	0.01421877	0.008148629	0.4833522	-0.844549	0.03407536	-0.001901863
1.8e+08	0.03465687	-0.004700834	0.4320682	-0.8711264	0.01522382	0.007014183	-0.002260821	-0.000408846
	0.4320682	-0.8711264	0.03415306	-0.003761213	-0.002260106	-0.0004078331	0.01500938	0.007479532
	0.01522382	0.007014183	-0.002260105	-0.0004078331	0.03479286	-0.004779044	0.4305679	-0.8718213
	-0.002260821	-0.0004088461	0.01500938	0.007479533	0.4305679	-0.8718213	0.03423358	-0.003720123
1.9e+08	0.0345815	-0.006647869	0.3779071	-0.895178	0.01589546	0.006195917	-0.00235586	-0.0003083966
	0.3779071	-0.895178	0.03409672	-0.005594049	-0.002354968	-0.0003074058	0.01569281	0.006714785
	0.01589546	0.006195917	-0.002354968	-0.0003074059	0.03471114	-0.006742518	0.3762861	-0.8958129
	-0.00235586	-0.0003083967	0.01569281	0.006714785	0.3762861	-0.8958129	0.03417397	-0.005555671
2e+08	0.03427777	-0.008588031	0.3224463	-0.915881	0.01644266	0.005296811	-0.002446487	-0.0002024415
	0.3224463	-0.915881	0.03382423	-0.007419766	-0.002445418	-0.000201504	0.01625753	0.005869024
	0.01644266	0.005296811	-0.002445417	-0.0002015041	0.03439886	-0.008698415	0.3207068	-0.9164437
	-0.002446487	-0.0002024416	0.01625753	0.005869024	0.3207068	-0.9164437	0.03389749	-0.007383467
2.1e+08	0.03374885	-0.01049496	0.2658893	-0.933167	0.01685579	0.004333713	-0.002533166	-9.111551e-05
	0.2658893	-0.933167	0.03333902	-0.00921379	-0.002531925	-9.026278e-05	0.01669399	0.004958261
	0.01685579	0.004333713	-0.002531925	-9.026283e-05	0.03385925	-0.01062007	0.2640343	-0.9336455
	-0.002533166	-9.111556e-05	0.01669399	0.004958261	0.2640343	-0.9336455	0.03340764	-0.009178852
2.2e+08	0.03300072	-0.01234288	0.2084434	-0.9469799	0.01712746	0.003324593	-0.002616356	2.566246e-05
	0.2084434	-0.9469799	0.03264702	-0.01095216	-0.002614956	2.639964e-05	0.01699478	0.003999613
	0.01712746	0.003324593	-0.002614956	2.63996e-05	0.03309838	-0.0124814	0.206477	-0.9473621
	-0.002616356	2.566242e-05	0.01699478	0.003999613	0.206477	-0.9473621	0.03271047	-0.01091779
2.3e+08	0.0320421	-0.01410684	0.1503186	-0.9572757	0.01725271	0.002288245	-0.002696459	0.0001481862
	0.1503186	-0.9572757	0.0317567	-0.0126118	-0.002694917	0.0001487792	0.01715474	0.003011022
	0.01725271	0.002288245	-0.002694917	0.0001487792	0.03212516	-0.01425717	0.1482462	-0.9575498
	-0.002696459	0.0001481862	0.01715474	0.003011022	0.1482462	-0.9575498	0.03181454	-0.01257711
2.4e+08	0.03088439	-0.01576307	0.09172767	-0.9640228	0.01722899	0.001243981	-0.002773762	0.0002769473
	0.09172767	-0.9640228	0.03067889	-0.01417073	-0.002772102	0.000277371	0.01717106	0.002010961
	0.01722899	0.001243981	-0.002772102	0.000277371	0.03095117	-0.01592333	0.08955532	-0.9641773
	-0.002773762	0.0002769473	0.01717106	0.002010961	0.08955532	-0.9641773	0.03073082	-0.01413483
2.5e+08	0.02954155	-0.01728925	0.03288463	-0.9672023	0.01705631	0.0002113001	-0.002848397	0.000412611
	0.03288463	-0.9672023	0.02942677	-0.01560841	-0.002846648	0.0004128447	0.01704333	0.001018128
	0.01705631	0.0002113001	-0.002846648	0.0004128447	0.02959064	-0.01745731	0.03061962	-0.9672262
	-0.002848397	0.000412611	0.01704333	0.001018128	0.03061962	-0.9672262	0.0294726	-0.01557032
2.6e+08	0.02802998	-0.01866478	-0.02599555	-0.9668082	0.01673719	-0.0007904255	-0.002920296	0.0005559805
	-0.02599555	-0.9668082	0.02801564	-0.01690588	-0.002918491	0.0005560095	0.01677352	5.114021e-05
	0.01673719	-0.0007904256	-0.002918491	0.0005560095	0.02806021	-0.0188383	-0.02834502	-0.9666907
	-0.002920296	0.0005559805	0.01677352	5.114017e-05	-0.02834502	-0.9666907	0.02805532	-0.01686463
2.7e+08	0.02636827	-0.01987108	-0.0846979	-0.962847	0.01627662	-0.001742281	-0.002989158	0.0007079551
	-0.0846979	-0.962847	0.02646279	-0.01804608	-0.002987333	0.0007077711	0.016366	-0.0008717726
	0.01627662	-0.001742281	-0.002987333	0.0007077711	0.02637879	-0.02004754	-0.08712266	-0.9625781
	-0.002989158	0.0007079551	0.016366	-0.0008717726	-0.08712266	-0.9625781	0.02649639	-0.0180007
2.8e+08	0.02457702	-0.02089179	-0.1430081	-0.9553383	0.01568203	-0.002626123	-0.003054423	0.0008694805
	-0.1430081	-0.9553383	0.02478728	-0.01901402	-0.003052615	0.0008690824	0.01582746	-0.001733069
	0.01568203	-0.002626123	-0.003052615	0.0008690824	0.02456734	-0.02106854	-0.1454981	-0.9549084
	-0.003054423	0.0008694805	0.01582746	-0.001733069	-0.1454981	-0.9549084	0.02481503	-0.01896352
2.9e+08	0.02267856	-0.02171305	-0.2007134	-0.9443142	0.01496314	-0.003424885	-0.003115259	0.001041494
	-0.2007134	-0.9443142	0.02300969	-0.01979696	-0.003113505	0.001040889	0.01516677	-0.002516188
	0.01496314	-0.003424885	-0.003113505	0.001040889	0.02264851	-0.02188733	-0.2032576	-0.9437144
	-0.003115259	0.001041494	0.01516677	-0.002516188	-0.2032576	-0.9437144	0.02303194	-0.01974042
3e+08	0.02069667	-0.02232365	-0.2576032	-0.9298196	0.01413181	-0.004122866	-0.003170552	0.001224869
	-0.2576032	-0.9298196	0.0211519	-0.0203846	-0.003168889	0.00122407	0.0143949	-0.003205823
	0.01413181	-0.004122866	-0.003168889	0.00122407	0.02064648	-0.02249265	-0.2601898	-0.9290419
	-0.003170552	0.001224869	0.0143949	-0.003205823	-0.2601898	-0.9290419	0.02116912	-0.02032114
3.1e+08	0.01865628	-0.02271519	-0.3134698	-0.9119122	0.01320186	-0.004706002	-0.00321892	0.001420354
	-0.3134698	-0.9119122	0.01923678	-0.02076921	-0.003217379	0.001419382	0.01352468	-0.003788181
	0.01320186	-0.004706002	-0.003217379	0.001419382	0.01858655	-0.02287613	-0.3160863	-0.9109493
	-0.00321892	0.001420354	0.01352468	-0.003788181	-0.3160863	-0.9109493	0.01924957	-0.020698
3.2e+08	0.01658315	-0.02288223	-0.3681096	-0.8906618	0.01218885	-0.005162104	-0.003258723	0.001628517
	-0.3681096	-0.8906618	0.0172879	-0.02094571	-0.003257334	0.001627401	0.01257065	-0.004251214
	0.01218885	-0.005162104	-0.003257334	0.001627401	0.01649487	-0.02303236	-0.3707427	-0.8895073
	-0.003258723	0.001628517	0.01257065	-0.004251214	-0.3707427	-0.8895073	0.01729697	-0.02086603
3.3e+08	0.01450349	-0.02282236	-0.4213232	-0.8661506	0.01110982	-0.005481071	-0.003288099	0.001849694
	-0.4213232	-0.8661506	0.01532926	-0.02091178	-0.003286883	0.001848467	0.0115488	-0.004584824
	0.01110982	-0.005481071	-0.003286883	0.001848467	0.01439802	-0.02295905	-0.4239589	-0.864799
	-0.003288099	0.001849694	0.0115488	-0.004584824	-0.4239589	-0.864799	0.01533541	-0.02082299
3.4e+08	0.01244365	-0.02253623	-0.4729167	-0.8384726	0.009983009	-0.00565507	-0.003304995	0.002083935
	-0.4729167	-0.8384726	0.01338491	-0.02066784	-0.003303967	0.002082635	0.0104763	-0.004781035
	0.009983009	-0.00565507	-0.003303967	0.002082635	0.01232272	-0.02265701	-0.4755404	-0.8369196
	-0.003304995	0.002083935	0.0104763	-0.004781035	-0.4755404	-0.8369196	0.01338905	-0.02056942
3.5e+08	0.01042973	-0.02202758	-0.5227021	-0.8077334	0.008827564	-0.00567868	-0.003307221	0.002330968
	-0.5227021	-0.8077334	0.01147871	-0.0202171	-0.003306389	0.002329636	0.009371264	-0.004834139
	0.008827564	-0.00567868	-0.003306389	0.002329636	0.01029543	-0.02213019	-0.5252987	-0.8059757
	-0.003307221	0.002330968	0.009371264	-0.004834139	-0.5252987	-0.8059757	0.01148181	-0.02010864
3.6e+08	0.008487244	-0.02130317	-0.5704982	-0.7740501	0.007663218	-0.005548987	-0.003292505	0.002590165
	-0.5704982	-0.7740501	0.009633954	-0.01956549	-0.003291866	0.002588843	0.008252388	-0.004740791
	0.007663218	-0.005548986	-0.003291866	0.002588843	0.008341958	-0.02138562	-0.5730522	-0.7720854
	-0.003292505	0.002590165	0.008252388	-0.004740791	-0.5730522	-0.7720854	0.009637036	-0.01944671
3.7e+08	0.006640734	-0.02037275	-0.6161312	-0.7375503	0.006509963	-0.005265651	-0.00325855	0.002860516
	-0.6161312	-0.7375503	0.007873082	-0.01872156	-0.003258094	0.002859246	0.007138693	-0.004500076
	0.006509963	-0.005265651	-0.003258094	0.002859246	0.006487158	-0.02043333	-0.6186266	-0.7353775
	-0.00325855	0.002860516	0.007138693	-0.004500076	-0.6186266	-0.7353775	0.007877212	-0.01859235
3.8e+08	0.004913462	-0.01924885	-0.6594353	-0.6983721	0.005387717	-0.004830924	-0.003203107	0.003140625
	-0.6594353	-0.6983721	0.006217379	-0.01769643	-0.003202814	0.003139446	0.006049191	-0.004113535
	0.005387717	-0.004830924	-0.003202814	0.003139446	0.004754533	-0.01928621	-0.6618561	-0.6959913
	-0.003203107	0.003140625	0.006049191	-0.004113535	-0.6618561	-0.6959913	0.00622364	-0.01755681
3.9e+08	0.00332706	-0.0179467	-0.7002538	-0.6566635	0.004315988	-0.00424962	-0.003124037	0.003428704
	-0.7002538	-0.6566635	0.00468668	-0.01650359	-0.003123879	0.00342765	0.00500257	-0.003585143
	0.004315988	-0.00424962	-0.003123879	0.00342765	0.003165922	-0.01795986	-0.7025835	-0.6540761
	-0.003124037	0.003428704	0.00500257	-0.003585143	-0.7025835	-0.6540761	0.004696153	-0.01635371
4e+08	0.00190123	-0.01648396	-0.7384389	-0.6125817	0.003313545	-0.003529048	-0.003019382	0.003722589
	-0.7384389	-0.6125817	0.003299106	-0.01515874	-0.003019323	0.00372169	0.004016889	-0.002921256
	0.003313545	-0.003529048	-0.003019323	0.00372169	0.001741182	-0.01647235	-0.7406612	-0.6097902
	-0.003019382	0.003722589	0.004016889	-0.002921256	-0.7406612	-0.6097902	0.003312852	-0.0149989
4.1e+08	0.0006534591	-0.01488051	-0.7738533	-0.5662926	0.002398103	-0.002678905	-0.002887429	0.004019767
	-0.7738533	-0.5662926	0.002070812	-0.01367953	-0.002887427	0.004019044	0.003109267	-0.002130511
	0.002398103	-0.002678905	-0.002887427	0.004019044	0.0004979009	-0.01484401	-0.7759516	-0.5633009
	-0.002887429	0.004019767	0.003109267	-0.002130511	-0.7759516	-0.5633009	0.002089852	-0.01351021
4.2e+08	-0.0004012324	-0.01315818	-0.8063696	-0.5179703	0.001586018	-0.001711117	-0.002726772	0.004317408
	-0.8063696	-0.5179703	0.001015771	-0.01208541	-0.00272678	0.004316874	0.002295605	-0.001223691
	0.001586018	-0.001711117	-0.00272678	0.004316874	-0.0005488565	-0.0130971	-0.8083275	-0.5147835
	-0.002726772	0.004317408	0.002295605	-0.001223691	-0.8083275	-0.5147835	0.001041061	-0.01190719
4.3e+08	-0.001250509	-0.01134042	-0.8358717	-0.467796	0.0008920083	-0.0006396565	-0.002536367	0.004612419
	-0.8358717	-0.467796	0.0001455793	-0.01039726	-0.002536335	0.004612076	0.001590312	-0.0002135517
	0.0008920083	-0.0006396565	-0.002536335	0.004612076	-0.001386765	-0.01125553	-0.8376732	-0.4644205
	-0.002536367	0.004612419	0.001590312	-0.0002135517	-0.8376732	-0.4644205	0.000178002	-0.01021088
4.4e+08	-0.001884893	-0.009451986	-0.862255	-0.4159578	0.0003289022	0.0005196866	-0.002315573	0.004901493
	-0.862255	-0.4159578	-0.0005306947	-0.008637169	-0.00231545	0.004901332	0.001006066	0.0008853802
	0.0003289022	0.0005196866	-0.00231545	0.004901332	-0.002006428	-0.009344512	-0.8638841	-0.4124012
	-0.002315573	0.004901493	0.001006066	0.0008853802	-0.8638841	-0.4124012	-0.0004903587	-0.008443462
4.5e+08	-0.002297914	-0.007518585	-0.8854266	-0.3626497	-9.258539e-05	0.001749559	-0.002064194	0.005181178
	-0.8854266	-0.3626497	-0.001006639	-0.006828099	-0.00206393	0.00518118	0.0005535967	0.002057046
	-9.258538e-05	0.001749559	-0.00206393	0.00518118	-0.002401505	-0.00739021	-0.8868677	-0.3589209
	-0.002064194	0.005181178	0.0005535967	0.002057046	-0.8868677	-0.3589209	-0.0009577195	-0.006628023
4.6e+08	-0.002486195	-0.005566517	-0.9053056	-0.3080707	-0.0003640396	0.003031329	-0.001782499	0.005447949
	-0.9053056	-0.3080707	-0.001278576	-0.004993572	-0.001782047	0.005448084	0.0002415016	0.003284114
	-0.0003640395	0.003031329	-0.001782047	0.005448084	-0.002568818	-0.005419353	-0.9065437	-0.3041799
	-0.001782499	0.005447949	0.0002415016	0.003284114	-0.9065437	-0.3041799	-0.001220534	-0.004788173
4.7e+08	-0.002449508	-0.003622294	-0.9218237	-0.2524243	-0.0004794956	0.004345386	-0.001471233	0.005698273
	-0.9218237	-0.2524243	-0.001345616	-0.003157344	-0.001470552	0.005698501	7.610119e-05	0.004548261
	-0.0004794956	0.004345386	-0.001470552	0.005698501	-0.002508366	-0.003458839	-0.9228444	-0.2483829
	-0.001471233	0.005698273	7.610119e-05	0.004548261	-0.9228444	-0.2483829	-0.001278023	-0.002947717
4.8e+08	-0.002190778	-0.001712258	-0.9349253	-0.1959176	-0.000435548	0.005671468	-0.00113162	0.005928696
	-0.9349253	-0.1959176	-0.001209654	-0.001343069	-0.001130677	0.005928967	6.132595e-05	0.005830475
	-0.000435548	0.005671468	-0.001130677	0.005928967	-0.002223402	-0.001535418	-0.9357149	-0.1917379
	-0.00113162	0.005928696	6.132595e-05	0.005830475	-0.9357149	-0.1917379	-0.001132255	-0.001130396
4.9e+08	-0.00171604	0.0001377874	-0.9445677	-0.1387603	-0.0002314166	0.006988995	-0.0007653465	0.006135906
	-0.9445677	-0.1387603	-0.0008753433	0.0004260194	-0.0007641172	0.006136162	0.0001986466	0.007111361
	-0.0002314166	0.006988995	-0.0007641172	0.006136162	-0.001720327	0.0003247618	-0.9451129	-0.1344561
	-0.0007653465	0.006135906	0.0001986466	0.007111361	-0.9451129	-0.1344561	-0.0007880436	0.0006405212
5e+08	-0.001034358	0.001902954	-0.9507208	-0.08116425	0.0001310299	0.008277401	-0.0003745352	0.006316809
	-0.9507208	-0.08116425	-0.0003500186	0.002127447	-0.0003730069	0.006316988	0.000487043	0.008371463
	0.0001310299	0.008277401	-0.0003730069	0.006316988	-0.00100861	0.002096521	-0.9510096	-0.07675014
