!$
! Info: Touchstone file created by Circ.  Input file=Tx_6in_Rx_93ohms_TxVia_60mils_RxVia_70mils.circ
!$
# Hz S RI R 50
0	0.005629395	9.442048e-26	-3.261718e-05	7.470264e-24	5.330283e-05	1.096358e-23	-3.258008e-05	2.961863e-24
	-3.261718e-05	7.470242e-24	0.005625136	1.118941e-25	-3.26533e-05	1.197902e-23	5.242595e-05	1.363603e-23
	5.243455e-05	1.091459e-23	-3.26533e-05	1.197933e-23	0.005643254	9.548534e-26	-3.26155e-05	7.38348e-24
	-3.258008e-05	2.961498e-24	5.269577e-05	1.369451e-23	-3.26155e-05	7.382826e-24	0.005639659	1.113844e-25
1e+07	0.008087002	-7.152969e-05	-0.0001515769	-1.434391e-06	0.0001791343	0.001297485	-3.002766e-05	-5.395708e-06
	-0.0001515769	-1.434392e-06	0.008248989	-7.824297e-05	-8.133465e-05	3.61299e-05	0.0001766763	0.001293141
	0.0001791187	0.001297499	-8.133465e-05	3.61299e-05	0.008268999	-7.898622e-05	-0.0001514825	-4.813067e-08
	-3.002766e-05	-5.395708e-06	0.0001766786	0.001293139	-0.0001514825	-4.813036e-08	0.00809649	-8.300841e-05
2e+07	0.009722907	-0.002091879	-0.0001258849	-3.307077e-05	0.0003899145	0.00259158	-1.318219e-05	-3.412242e-05
	-0.0001258849	-3.307077e-05	0.009829075	-0.002163215	-8.133057e-05	1.973998e-05	0.0003829965	0.002584458
	0.0003899213	0.002591588	-8.133057e-05	1.973998e-05	0.009865822	-0.00216748	-0.0001249869	-3.564377e-05
	-1.318219e-05	-3.412242e-05	0.0003829933	0.002584458	-0.0001249869	-3.564377e-05	0.009712799	-0.002114638
3e+07	0.01053791	-0.004890484	-0.0001086655	-4.880564e-05	0.0008076582	0.003788257	-1.592972e-05	-4.172228e-05
	-0.0001086655	-4.880564e-05	0.01058556	-0.004979761	-7.985533e-05	1.791615e-05	0.0007828233	0.003783013
	0.0008076592	0.003788258	-7.985533e-05	1.791615e-05	0.01064905	-0.004992239	-0.0001070726	-5.193976e-05
	-1.592972e-05	-4.172228e-05	0.000782823	0.003783015	-0.0001070726	-5.193976e-05	0.01049596	-0.004918887
4e+07	0.01073539	-0.007951868	-9.544414e-05	-5.686591e-05	0.001392109	0.004897798	-3.250511e-05	-4.07529e-05
	-9.544414e-05	-5.686591e-05	0.01071862	-0.008042018	-7.741483e-05	1.769632e-05	0.001351171	0.004896866
	0.001392107	0.004897799	-7.741483e-05	1.769632e-05	0.01081823	-0.008068856	-9.330759e-05	-6.041373e-05
	-3.250511e-05	-4.07529e-05	0.001351172	0.004896867	-9.330759e-05	-6.041373e-05	0.01064999	-0.007979777
5e+07	0.01039298	-0.01110783	-8.465439e-05	-6.14349e-05	0.002101159	0.005912668	-4.660095e-05	-3.592408e-05
	-8.465439e-05	-6.14349e-05	0.01030608	-0.01118408	-7.419705e-05	1.732407e-05	0.002041333	0.005919593
	0.002101157	0.005912668	-7.419705e-05	1.732407e-05	0.01044992	-0.01123388	-8.20667e-05	-6.532738e-05
	-4.660095e-05	-3.592408e-05	0.002041334	0.005919593	-8.20667e-05	-6.532738e-05	0.01025332	-0.01112629
6e+07	0.009558172	-0.01425305	-7.537885e-05	-6.388923e-05	0.002922332	0.006819491	-5.844983e-05	-2.825789e-05
	-7.537885e-05	-6.388923e-05	0.009397057	-0.01430097	-7.045571e-05	1.604506e-05	0.002841414	0.00683826
	0.00292233	0.00681949	-7.045571e-05	1.604506e-05	0.009591081	-0.01438381	-7.239972e-05	-6.808579e-05
	-5.844983e-05	-2.825789e-05	0.002841416	0.006838261	-7.239972e-05	-6.808579e-05	0.009355601	-0.01425122
7e+07	0.008269399	-0.01730782	-6.695973e-05	-6.478394e-05	0.003840962	0.007605666	-6.808577e-05	-1.827544e-05
	-6.695973e-05	-6.478394e-05	0.008031719	-0.01731302	-6.653443e-05	1.337809e-05	0.003737412	0.007640652
	0.003840958	0.007605665	-6.653443e-05	1.337809e-05	0.00827994	-0.01743976	-6.36264e-05	-6.925446e-05
	-6.808577e-05	-1.827544e-05	0.003737413	0.007640652	-6.36264e-05	-6.925446e-05	0.00799718	-0.01727382
8e+07	0.006563523	-0.02020601	-5.880957e-05	-6.429056e-05	0.004840578	0.008260124	-7.539251e-05	-6.227402e-06
	-5.880957e-05	-6.429056e-05	0.006248665	-0.02015388	-6.288601e-05	8.935437e-06	0.004713589	0.008316001
	0.004840573	0.008260124	-6.288601e-05	8.935437e-06	0.006553363	-0.02033599	-5.513859e-05	-6.900413e-05
	-7.539251e-05	-6.227402e-06	0.00471359	0.008316	-5.513859e-05	-6.900413e-05	0.006216584	-0.02012696
9e+07	0.004479595	-0.02288969	-5.020626e-05	-6.220354e-05	0.00590319	0.008773733	-7.999491e-05	7.958476e-06
	-5.020626e-05	-6.220354e-05	0.004089029	-0.022765	-6.012545e-05	2.294011e-06	0.005752758	0.0088554
	0.005903186	0.008773733	-6.012545e-05	2.294011e-06	0.004450684	-0.02301453	-5.081749e-05	-6.428948e-05
	-7.999491e-05	7.958476e-06	0.005752758	0.008855399	-5.081749e-05	-6.428948e-05	0.004054681	-0.02275164
1e+08	0.002067058	-0.0252986	-5.334488e-05	-4.635263e-05	0.007009479	0.009139173	-7.999303e-05	2.60658e-05
	-5.334488e-05	-4.635263e-05	0.001606007	-0.02508388	-5.968762e-05	-8.081772e-06	0.006836596	0.009251853
	0.007009479	0.009139173	-5.968762e-05	-8.081772e-06	0.002023106	-0.02541323	-5.926385e-05	-4.404166e-05
	-7.999303e-05	2.60658e-05	0.006836596	0.009251853	-5.926385e-05	-4.404166e-05	0.001563192	-0.02508656
1.1e+08	-0.0006004141	-0.02745197	-5.046279e-05	-3.371399e-05	0.008137534	0.009354454	-7.056253e-05	3.788349e-05
	-5.046279e-05	-3.371399e-05	-0.001118261	-0.02714112	-5.46585e-05	-2.372042e-05	0.007944654	0.009502102
	0.008137534	0.009354454	-5.46585e-05	-2.372042e-05	-0.000650306	-0.02756233	-5.573117e-05	-3.06873e-05
	-7.056253e-05	3.788349e-05	0.007944652	0.009502102	-5.573117e-05	-3.06873e-05	-0.001180219	-0.02715181
1.2e+08	-0.003548163	-0.02930074	-4.938593e-05	-2.518459e-05	0.009269898	0.009418494	-6.289733e-05	4.555767e-05
	-4.938593e-05	-2.518459e-05	-0.00411999	-0.02888536	-4.977949e-05	-3.816641e-05	0.009058853	0.009605175
	0.009269898	0.009418494	-4.977949e-05	-3.816641e-05	-0.003607271	-0.02941019	-5.413094e-05	-2.170929e-05
	-6.289733e-05	4.555767e-05	0.009058851	0.009605176	-5.413094e-05	-2.170929e-05	-0.004200167	-0.02889793
1.3e+08	-0.006721041	-0.0308	-4.851393e-05	-1.79749e-05	0.01038634	0.009331835	-5.568683e-05	5.147219e-05
	-4.851393e-05	-1.79749e-05	-0.007340422	-0.03026968	-4.645039e-05	-5.309166e-05	0.01015991	0.009561664
	0.01038634	0.009331835	-4.645039e-05	-5.309166e-05	-0.006791136	-0.03090901	-5.278126e-05	-1.416585e-05
	-5.568683e-05	5.147219e-05	0.01015991	0.009561665	-5.278126e-05	-1.416585e-05	-0.00743888	-0.03028036
1.4e+08	-0.01006864	-0.03192302	-4.752815e-05	-1.151399e-05	0.01146708	0.009098148	-4.981906e-05	5.517686e-05
	-4.752815e-05	-1.151399e-05	-0.01072687	-0.03126775	-4.516942e-05	-6.868346e-05	0.01122882	0.009374925
	0.01146708	0.009098148	-4.516942e-05	-6.868346e-05	-0.01015114	-0.0320313	-5.134978e-05	-7.447945e-06
	-4.981906e-05	5.517686e-05	0.01122882	0.009374926	-5.134978e-05	-7.447945e-06	-0.01084355	-0.03127322
1.5e+08	-0.01354006	-0.03265133	-4.628588e-05	-5.546302e-06	0.01249303	0.008723723	-4.808037e-05	5.50163e-05
	-4.628588e-05	-5.546302e-06	-0.01422646	-0.03186205	-4.629196e-05	-8.483843e-05	0.01224721	0.009050782
	0.01249303	0.008723723	-4.629196e-05	-8.483843e-05	-0.01363616	-0.03275807	-4.968768e-05	-1.279655e-06
	-4.808037e-05	5.50163e-05	0.01224721	0.009050783	-4.968768e-05	-1.279655e-06	-0.01436105	-0.03185923
1.6e+08	-0.01708391	-0.0329735	-4.470322e-05	-2.672923e-08	0.01344616	0.008217308	-4.619047e-05	5.516251e-05
	-4.470322e-05	-2.672923e-08	-0.01778609	-0.03204256	-5.008887e-05	-0.0001013081	0.01319766	0.008597395
	0.01344616	0.008217308	-5.008887e-05	-0.0001013081	-0.01719459	-0.03307761	-4.770874e-05	4.396357e-06
	-4.619047e-05	5.516251e-05	0.01319766	0.008597395	-4.770874e-05	4.396357e-06	-0.01793795	-0.03202854
1.7e+08	-0.02064883	-0.03288483	-4.274749e-05	5.073773e-06	0.01430978	0.007589932	-4.417524e-05	5.551438e-05
	-4.274749e-05	5.073773e-06	-0.02135291	-0.03180626	-5.675496e-05	-0.000117752	0.01406401	0.008025099
	0.01430978	0.007589932	-5.675496e-05	-0.000117752	-0.02077487	-0.03298493	-4.537799e-05	9.618783e-06
	-4.417524e-05	5.551438e-05	0.01406401	0.0080251	-4.537799e-05	9.618783e-06	-0.02152108	-0.03177829
1.8e+08	-0.02418405	-0.032387	-4.041302e-05	9.75096e-06	0.01506881	0.006854697	-4.205006e-05	5.600173e-05
	-4.041302e-05	9.75096e-06	-0.02487495	-0.03115678	-6.640777e-05	-0.0001337688	0.01483161	0.007346217
	0.01506881	0.006854697	-6.640777e-05	-0.0001337688	-0.024326	-0.03248153	-4.268752e-05	1.439085e-05
	-4.205006e-05	5.600173e-05	0.01483161	0.007346218	-4.268752e-05	1.439085e-05	-0.02505814	-0.03111232
1.9e+08	-0.02764002	-0.03148784	-3.771513e-05	1.398356e-05	0.01571006	0.00602654	-3.982608e-05	5.657245e-05
	-3.771513e-05	1.398356e-05	-0.02830175	-0.03010409	-7.908497e-05	-0.0001489179	0.01548759	0.006574834
	0.01571006	0.00602654	-7.908497e-05	-0.0001489179	-0.0277982	-0.03157508	-3.965024e-05	1.869718e-05
	-3.982608e-05	5.657245e-05	0.01548759	0.006574834	-3.965024e-05	1.869718e-05	-0.02849836	-0.0300408
2e+08	-0.030969	-0.03020101	-3.468636e-05	1.774318e-05	0.01622243	0.005121962	-3.751217e-05	5.71863e-05
	-3.468636e-05	1.774318e-05	-0.031585	-0.0286642	-9.474196e-05	-0.000162739	0.01602102	0.005726547
	0.01622243	0.005121962	-9.474196e-05	-0.000162739	-0.0311435	-0.03027915	-3.629606e-05	2.251396e-05
	-3.751217e-05	5.71863e-05	0.01602102	0.005726547	-3.629606e-05	2.251396e-05	-0.03179314	-0.02857999
2.1e+08	-0.03412568	-0.02854572	-3.13733e-05	2.100097e-05	0.01659711	0.004158742	-3.511642e-05	5.781128e-05
	-3.13733e-05	2.100097e-05	-0.03467916	-0.02685873	-0.0001132521	-0.000174769	0.01642313	0.004818192
	0.01659711	0.004158742	-0.0001132521	-0.000174769	-0.03431634	-0.02861287	-3.266873e-05	2.581581e-05
	-3.511642e-05	5.781128e-05	0.01642313	0.004818192	-3.266873e-05	2.581581e-05	-0.03489668	-0.02675179
2.2e+08	-0.03706774	-0.0265463	-2.783399e-05	2.373227e-05	0.01682767	0.003155619	-3.264648e-05	5.84215e-05
	-2.783399e-05	2.373227e-05	-0.03754204	-0.02471448	-0.0001344082	-0.000184558	0.01668741	0.003867555
	0.01682767	0.003155619	-0.0001344082	-0.000184558	-0.03727416	-0.02660054	-2.882329e-05	2.858047e-05
	-3.264648e-05	5.84215e-05	0.01668741	0.003867555	-2.882329e-05	2.858047e-05	-0.03776657	-0.02458333
2.3e+08	-0.03975634	-0.0242318	-2.413524e-05	2.591994e-05	0.01691022	0.002131976	-3.010984e-05	5.899564e-05
	-2.413524e-05	2.591994e-05	-0.04013528	-0.02226301	-0.0001579262	-0.0001916862	0.01680973	0.002893068
	0.01691022	0.002131976	-0.0001579262	-0.0001916862	-0.03997785	-0.02427122	-2.482359e-05	3.079221e-05
	-3.010984e-05	5.899564e-05	0.01680973	0.002893068	-2.482359e-05	3.079221e-05	-0.04036427	-0.02210648
2.4e+08	-0.04215662	-0.02163552	-2.034943e-05	2.755674e-05	0.0168434	0.001107507	-2.751452e-05	5.951609e-05
	-2.034943e-05	2.755674e-05	-0.04242491	-0.01954001	-0.0001834528	-0.0001957729	0.01678836	0.001913501
	0.0168434	0.001107507	-0.0001834528	-0.0001957729	-0.0423923	-0.02165822	-2.073908e-05	3.244428e-05
	-2.751452e-05	5.951609e-05	0.01678836	0.001913501	-2.073908e-05	3.244428e-05	-0.04265566	-0.01935731
2.5e+08	-0.0442381	-0.01879446	-1.655221e-05	2.864686e-05	0.01662843	0.0001018854	-2.486854e-05	5.996827e-05
	-1.655221e-05	2.864686e-05	-0.04438166	-0.01658485	-0.0002105713	-0.0001965064	0.01662401	0.0009476489
	0.01662843	0.0001018854	-0.0002105713	-0.0001965064	-0.04448677	-0.01879863	-1.664283e-05	3.354047e-05
	-2.486854e-05	5.996827e-05	0.01662401	0.0009476488	-1.664283e-05	3.354047e-05	-0.04461139	-0.01637554
2.6e+08	-0.04597506	-0.01574881	-1.276206e-05	2.912621e-05	0.01626907	-0.0008655646	-2.218168e-05	6.034025e-05
	-1.276206e-05	2.912621e-05	-0.04598141	-0.01343984	-0.0002387744	-0.0001854646	0.01631978	1.402725e-05
	0.01626907	-0.0008655647	-0.0002387744	-0.0001854646	-0.04623533	-0.01573271	-1.254921e-05	3.401815e-05
	-2.218168e-05	6.034025e-05	0.01631978	1.402721e-05	-1.254921e-05	3.401815e-05	-0.04620726	-0.01320389
2.7e+08	-0.04734681	-0.01254133	-9.115231e-06	2.9079e-05	0.01577155	-0.001776186	-1.946121e-05	6.062248e-05
	-9.115231e-06	2.9079e-05	-0.04720534	-0.01014973	-0.0002665019	-0.0001694016	0.01588114	-0.0008694331
	0.01577155	-0.001776186	-0.0002665019	-0.0001694016	-0.04761703	-0.01250338	-8.593493e-06	3.395721e-05
	-1.946121e-05	6.062248e-05	0.01588114	-0.0008694331	-8.593493e-06	3.395721e-05	-0.04742448	-0.009887473
2.8e+08	-0.04833793	-0.009216751	-5.692158e-06	2.856062e-05	0.01514444	-0.002612298	-1.671543e-05	6.08072e-05
	-5.692158e-06	2.856062e-05	-0.0480402	-0.006760961	-0.0002931667	-0.0001496837	0.01531579	-0.001685672
	0.01514444	-0.002612298	-0.0002931667	-0.0001496837	-0.04861623	-0.009155532	-4.855335e-06	3.341003e-05
	-1.671543e-05	6.08072e-05	0.01531579	-0.001685672	-4.855335e-06	3.341003e-05	-0.04824987	-0.006473118
2.9e+08	-0.04893846	-0.005821146	-2.554705e-06	2.762478e-05	0.01439853	-0.00335748	-1.39528e-05	6.088825e-05
	-2.554705e-06	2.762478e-05	-0.04847849	-0.003321031	-0.0003182529	-0.0001263805	0.01463353	-0.002418774
	0.01439853	-0.00335748	-0.0003182529	-0.0001263805	-0.04922276	-0.005735433	-1.396312e-06	3.242742e-05
	-1.39528e-05	6.088825e-05	0.01463353	-0.002418774	-1.396312e-06	3.242742e-05	-0.04867603	-0.003008688
3e+08	-0.04914394	-0.002401298	2.450806e-07	2.633455e-05	0.01354663	-0.003996844	-1.118161e-05	6.086089e-05
	2.450806e-07	2.633455e-05	-0.04851841	0.0001221924	-0.0003412517	-9.964424e-05	0.01384613	-0.00305422
	0.01354663	-0.003996844	-0.0003412517	-9.964424e-05	-0.049432	-0.00229009	1.730985e-06	3.106931e-05
	-1.118161e-05	6.086089e-05	0.01384613	-0.00305422	1.730985e-06	3.106931e-05	-0.04870132	0.0004575986
3.1e+08	-0.04895548	0.000995968	2.666861e-06	2.476036e-05	0.01260335	-0.004517276	-8.410081e-06	6.072182e-05
	2.666861e-06	2.476036e-05	-0.04816391	0.003521153	-0.0003616745	-6.970417e-05	0.0129671	-0.003579119
	0.01260335	-0.004517276	-0.0003616745	-6.970417e-05	-0.04924487	0.001133419	4.484836e-06	2.940297e-05
	-8.410081e-06	6.072182e-05	0.0129671	-0.003579119	4.484836e-06	2.940297e-05	-0.04832987	0.003877853
3.2e+08	-0.04837967	0.004324395	4.683105e-06	2.297789e-05	0.01158491	-0.004907644	-5.646118e-06	6.046875e-05
	4.683105e-06	2.297789e-05	-0.04742454	0.006829257	-0.0003790667	-3.6866e-05	0.01201148	-0.003982414
	0.01158491	-0.004907644	-0.0003790667	-3.6866e-05	-0.04866787	0.004488571	6.835471e-06	2.750109e-05
	-5.646118e-06	6.046875e-05	0.01201148	-0.003982414	6.835471e-06	2.750109e-05	-0.04757151	0.007205181
3.3e+08	-0.04742849	0.007538944	6.279867e-06	2.106571e-05	0.0105088	-0.005158987	-2.897313e-06	6.010027e-05
	6.279867e-06	2.106571e-05	-0.04631532	0.01000153	-0.0003930194	-1.505223e-06	0.0109956	-0.004255056
	0.0105088	-0.005158987	-0.0003930194	-1.505223e-06	-0.04771287	0.007730031	8.765889e-06	2.543955e-05
	-2.897313e-06	6.010027e-05	0.0109956	-0.004255056	8.765889e-06	2.543955e-05	-0.0464415	0.01039434
3.4e+08	-0.04611909	0.0105964	7.457301e-06	1.910268e-05	0.00939356	-0.00526466	-1.709986e-07	5.96159e-05
	7.457301e-06	1.910268e-05	-0.04485645	0.01299523	-0.0004031803	3.594289e-05	0.009936837	-0.004390149
	0.00939356	-0.00526466	-0.0004031803	3.594289e-05	-0.04639696	0.01081428	1.027245e-05	2.329506e-05
	-1.709986e-07	5.96159e-05	0.009936837	-0.004390149	1.027245e-05	2.329506e-05	-0.04496038	0.01340235
3.5e+08	-0.04447355	0.01345595	8.229405e-06	1.716556e-05	0.008258459	-0.005220449	2.525835e-06	5.901573e-05
	8.229405e-06	1.716556e-05	-0.04307304	0.01577047	-0.0004092635	7.499128e-05	0.008853302	-0.004383066
	0.008258459	-0.005220449	-0.0004092635	7.499128e-05	-0.04474221	0.01370018	1.136472e-05	2.114287e-05
	2.525835e-06	5.901573e-05	0.008853302	-0.004383066	1.136472e-05	2.114287e-05	-0.04315359	0.01618914
3.6e+08	-0.04251857	0.01607973	8.623508e-06	1.532639e-05	0.007123173	-0.005024642	5.186495e-06	5.830049e-05
	8.623508e-06	1.532639e-05	-0.04099468	0.01829069	-0.0004110565	0.0001151135	0.007763579	-0.004231525
	0.007123173	-0.005024642	-0.0004110565	0.0001151135	-0.04277532	0.01634956	1.206507e-05	1.905433e-05
	5.186495e-06	5.830049e-05	0.007763579	-0.004231524	1.206507e-05	1.905433e-05	-0.0410511	0.01871801
3.7e+08	-0.04028506	0.01843336	8.679167e-06	1.365029e-05	0.00600748	-0.004678073	7.804579e-06	5.747131e-05
	8.679167e-06	1.365029e-05	-0.03865506	0.02052324	-0.0004084261	0.0001557553	0.006686416	-0.003935632
	0.00600748	-0.004678073	-0.0004084261	0.0001557553	-0.04052727	0.0187277	1.240779e-05	1.709478e-05
	7.804579e-06	5.747131e-05	0.006686416	-0.003935632	1.240779e-05	1.709478e-05	-0.03868696	0.0209562
3.8e+08	-0.03780771	0.02048637	8.446738e-06	1.219331e-05	0.004930933	-0.004184114	1.037393e-05	5.652971e-05
	8.446738e-06	1.219331e-05	-0.03609141	0.02243977	-0.0004013222	0.0001963481	0.005640428	-0.003497891
	0.004930933	-0.004184114	-0.0004013222	0.0001963481	-0.03803285	0.02080381	1.243777e-05	1.53215e-05
	1.037393e-05	5.652971e-05	0.005640428	-0.003497891	1.243777e-05	1.53215e-05	-0.03609883	0.02287533
3.9e+08	-0.03512454	0.02221264	7.985585e-06	1.100058e-05	0.003912543	-0.003548638	1.28886e-05	5.547755e-05
	7.985585e-06	1.100058e-05	-0.03334404	0.02401664	-0.0003897781	0.0002363228	0.004643798	-0.002923171
	0.003912543	-0.003548638	-0.0003897781	0.0002363228	-0.0353302	0.02255145	1.220894e-05	1.378187e-05
	1.28886e-05	5.547755e-05	0.004643798	-0.002923171	1.220894e-05	1.378187e-05	-0.03332739	0.02445175
4e+08	-0.03227631	0.02359074	7.361902e-06	1.01049e-05	0.00297046	-0.002779935	1.534279e-05	5.431697e-05
	7.361902e-06	1.01049e-05	-0.03045568	0.02523521	-0.0003739099	0.0002751227	0.003713975	-0.002218641
	0.00297046	-0.002779935	-0.0003739099	0.0002751227	-0.03246027	0.02394889	1.178233e-05	1.2512e-05
	1.534279e-05	5.431697e-05	0.003713975	-0.002218641	1.178233e-05	1.2512e-05	-0.03041578	0.0256669
4.1e+08	-0.02930598	0.02460422	6.646373e-06	9.525645e-06	0.002121675	-0.001888594	1.773084e-05	5.305044e-05
	6.646373e-06	9.525645e-06	-0.02747091	0.02608214	-0.0003539131	0.000312217	0.002867396	-0.001393665
	0.002121675	-0.001888594	-0.0003539131	0.000312217	-0.02946624	0.02497939	1.122388e-05	1.153557e-05
	1.773084e-05	5.305044e-05	0.002867396	-0.001393665	1.122388e-05	1.153557e-05	-0.02740899	0.02650753
4.2e+08	-0.02625813	0.02524185	5.911634e-06	9.268113e-06	0.001381729	-0.0008873437	2.004718e-05	5.168076e-05
	5.911634e-06	9.268113e-06	-0.02443552	0.0265495	-0.0003300565	0.000347113	0.002119203	-0.0004596701
	0.001381729	-0.0008873437	-0.0003300565	0.000347113	-0.02639294	0.02563146	1.060213e-05	1.086316e-05
	2.004718e-05	5.168076e-05	0.002119203	-0.0004596701	1.060213e-05	1.086316e-05	-0.02435316	0.02696589
4.3e+08	-0.0231783	0.02549774	5.229602e-06	9.323466e-06	0.0007644459	0.0002091352	2.228637e-05	5.021103e-05
	5.229602e-06	9.323466e-06	-0.02139585	0.02663494	-0.0003026752	0.0003793669	0.001482993	0.0005700338
	0.0007644459	0.0002091352	-0.0003026752	0.0003793669	-0.02328622	0.02589898	9.985735e-06	1.049199e-05
	2.228637e-05	5.021103e-05	0.001482993	0.0005700338	9.985735e-06	1.049199e-05	-0.02129501	0.02703981
4.4e+08	-0.0201124	0.02537142	4.668872e-06	9.66902e-06	0.000281689	0.001384442	2.444301e-05	4.864466e-05
	4.668872e-06	9.66902e-06	-0.01839811	0.02634164	-0.0002721614	0.0004085938	0.0009705806	0.001680452
	0.000281689	0.001384442	-0.0002721614	0.0004085938	-0.02019229	0.02578128	9.441032e-06	1.040616e-05
	2.444301e-05	4.864466e-05	0.0009705806	0.001680452	9.441032e-06	1.040616e-05	-0.01828105	0.02673275
4.5e+08	-0.017106	0.02486789	4.292164e-06	1.026912e-05	-5.685296e-05	0.002620709	2.651182e-05	4.698545e-05
	4.292164e-06	1.026912e-05	-0.01548772	0.02567831	-0.0002389531	0.0004344753	0.00059179	0.002855142
	-5.685296e-05	0.002620709	-0.0002389531	0.0004344753	-0.01715709	0.02528319	9.029612e-06	1.057725e-05
	2.651182e-05	4.698545e-05	0.00059179	0.002855142	9.029612e-06	1.057725e-05	-0.01535703	0.02605372
4.6e+08	-0.01420376	0.0239975	4.153931e-06	1.107632e-05	-0.0002438476	0.003898889	2.848759e-05	4.523756e-05
	4.153931e-06	1.107632e-05	-0.01270871	0.02465902	-0.0002035228	0.0004567658	0.0003542765	0.004076471
	-0.0002438476	0.003898889	-0.0002035228	0.0004567658	-0.01422565	0.02441495	8.805937e-06	1.096528e-05
	2.848759e-05	4.523756e-05	0.0003542766	0.004076471	8.805937e-06	1.096528e-05	-0.01256718	0.02501714
4.7e+08	-0.01144875	0.02277583	4.298264e-06	1.203323e-05	-0.0002744649	0.00519906	3.036531e-05	4.34056e-05
	4.298264e-06	1.203323e-05	-0.010103	0.02330301	-0.0001663647	0.000475296	0.0002633794	0.005325901
	-0.0002744649	0.00519906	-0.0001663647	0.000475296	-0.01144146	0.02319202	8.815711e-06	1.152063e-05
