!$
! Info: Touchstone file created by Circ.  Input file=Tx_6in_Rx_100ohms_TxVia_60mils_RxVia_70mils.circ
!$
# Hz S RI R 50
0	0.006352802	1.072509e-25	3.081291e-08	2.450947e-26	5.56811e-05	1.381283e-23	6.554306e-08	5.802822e-27
	3.08129e-08	2.450926e-26	0.006348153	1.118894e-25	6.329965e-08	7.954146e-26	5.241654e-05	1.540898e-23
	5.690342e-05	1.342042e-23	6.329966e-08	7.954022e-26	0.006363586	1.063953e-25	2.401719e-08	3.267938e-26
	6.554309e-08	5.803192e-27	5.268632e-05	1.547506e-23	2.401749e-08	3.268497e-26	0.006362654	1.113799e-25
1e+07	0.009225335	0.004487099	4.894473e-08	9.604374e-08	0.0003723525	0.001304987	1.163431e-07	2.794107e-07
	4.894474e-08	9.604375e-08	0.009221558	0.004486623	8.44559e-08	2.902442e-07	0.000370371	0.001305468
	0.0003724226	0.001304955	8.44559e-08	2.902442e-07	0.009147732	0.004500098	3.597353e-08	1.313292e-07
	1.163431e-07	2.794107e-07	0.0003703734	0.001305465	3.597352e-08	1.313292e-07	0.00914346	0.004499805
2e+07	0.01182222	0.006835184	7.936131e-08	1.706843e-07	0.0005339575	0.002680755	2.405651e-07	4.62138e-07
	7.936132e-08	1.706843e-07	0.01180662	0.006834788	1.36582e-07	5.004124e-07	0.0005261199	0.002682626
	0.0005339433	0.002680718	1.36582e-07	5.004124e-07	0.01177207	0.006891874	8.119245e-08	1.916341e-07
	2.405651e-07	4.62138e-07	0.0005261167	0.002682626	8.119244e-08	1.916341e-07	0.01175446	0.006891904
3e+07	0.01410103	0.008208498	1.158853e-07	2.370596e-07	0.000870364	0.003913973	3.97187e-07	6.171616e-07
	1.158853e-07	2.370596e-07	0.01406588	0.008211291	1.783215e-07	7.085279e-07	0.000853094	0.003918809
	0.0008703603	0.003913973	1.783215e-07	7.085279e-07	0.01407543	0.008283611	1.266143e-07	2.613416e-07
	3.97187e-07	6.171616e-07	0.0008530937	0.003918811	1.266143e-07	2.613416e-07	0.01403591	0.008287618
4e+07	0.01625045	0.00908987	1.581463e-07	2.950515e-07	0.001378062	0.005055673	5.836937e-07	7.407799e-07
	1.581462e-07	2.950515e-07	0.01618827	0.009099839	2.153098e-07	9.136564e-07	0.001348073	0.0050657
	0.001378067	0.005055672	2.153098e-07	9.136564e-07	0.01624873	0.009175221	1.738775e-07	3.245955e-07
	5.836937e-07	7.407799e-07	0.001348074	0.005065701	1.738775e-07	3.245955e-07	0.01617897	0.009187592
5e+07	0.01832022	0.00959692	2.054474e-07	3.440205e-07	0.002125318	0.006067661	7.982621e-07	8.275801e-07
	2.054474e-07	3.440205e-07	0.01822431	0.009620065	2.502306e-07	1.1138e-06	0.002079777	0.0060856
	0.002125321	0.00606766	2.502306e-07	1.1138e-06	0.01834172	0.009686785	2.25551e-07	3.786829e-07
	7.982621e-07	8.275801e-07	0.002079778	0.006085601	2.25551e-07	3.786829e-07	0.01823416	0.009714317
6e+07	0.02032259	0.009786178	2.56667e-07	3.834238e-07	0.002977441	0.006965275	1.035779e-06	8.711864e-07
	2.56667e-07	3.834238e-07	0.02018779	0.009829668	2.841054e-07	1.308881e-06	0.002914065	0.006994414
	0.002977441	0.006965277	2.841054e-07	1.308881e-06	0.02036644	0.009875857	2.812893e-07	4.225442e-07
	1.035779e-06	8.711864e-07	0.002914066	0.006994415	2.812893e-07	4.225442e-07	0.02021541	0.009926651
7e+07	0.02225418	0.009691313	3.102902e-07	4.126504e-07	0.003920405	0.007738124	1.28894e-06	8.6638e-07
	3.102902e-07	4.126504e-07	0.02207665	0.009762903	3.172694e-07	1.498919e-06	0.003837499	0.007782151
	0.003920404	0.007738129	3.172694e-07	1.498919e-06	0.02231921	0.0097766	3.397491e-07	4.553017e-07
	1.28894e-06	8.6638e-07	0.003837501	0.007782151	3.397491e-07	4.553017e-07	0.0221205	0.009859321
8e+07	0.02410451	0.009337119	3.645939e-07	4.313211e-07	0.004938162	0.00837648	1.549096e-06	8.096101e-07
	3.645939e-07	4.313211e-07	0.02388153	0.009445106	3.496966e-07	1.683886e-06	0.00483467	0.008439394
	0.004938161	0.008376486	3.496966e-07	1.683886e-06	0.02418912	0.009414081	3.992094e-07	4.76357e-07
	1.549096e-06	8.096101e-07	0.004834671	0.008439393	3.992094e-07	4.76357e-07	0.0239397	0.00953798
9e+07	0.02586056	0.008745744	4.177431e-07	4.393643e-07	0.006012718	0.008871653	1.806825e-06	6.991193e-07
	4.177431e-07	4.393643e-07	0.02559057	0.008899023	3.811403e-07	1.863753e-06	0.005888263	0.008957669
	0.006012718	0.008871658	3.811403e-07	1.863753e-06	0.02596257	0.008810579	4.577456e-07	4.854213e-07
	1.806825e-06	6.991192e-07	0.005888264	0.008957668	4.577456e-07	4.854213e-07	0.02566066	0.008985619
1e+08	0.02751579	0.0079473	4.678824e-07	4.370451e-07	0.007121604	0.009212874	2.052386e-06	5.34923e-07
	4.678824e-07	4.370451e-07	0.02719862	0.008155281	4.11254e-07	2.038515e-06	0.006976505	0.00932633
	0.007121604	0.009212874	4.11254e-07	2.038515e-06	0.02763163	0.007995401	5.133318e-07	4.825485e-07
	2.052386e-06	5.34923e-07	0.006976505	0.00932633	5.133318e-07	4.825485e-07	0.02727698	0.008232201
1.1e+08	0.02908182	0.006901307	5.140132e-07	4.248234e-07	0.008233247	0.009422102	2.281124e-06	3.226425e-07
	5.140132e-07	4.248234e-07	0.0287198	0.007173182	4.37325e-07	2.210901e-06	0.008068617	0.00956735
	0.008233247	0.009422102	4.37325e-07	2.210901e-06	0.02920468	0.006934591	5.640189e-07	4.695332e-07
	2.281124e-06	3.226425e-07	0.008068615	0.00956735	5.640189e-07	4.695332e-07	0.02880011	0.007243452
1.2e+08	0.03047478	0.005643018	5.541418e-07	4.032276e-07	0.009357288	0.009491712	2.482627e-06	6.221118e-08
	5.541418e-07	4.032276e-07	0.03007113	0.005988084	4.602345e-07	2.380318e-06	0.009174945	0.009672929
	0.009357288	0.009491712	4.602345e-07	2.380318e-06	0.03060454	0.005662081	6.081616e-07	4.462485e-07
	2.482627e-06	6.221118e-08	0.009174943	0.00967293	6.081616e-07	4.462485e-07	0.03015373	0.006053379
1.3e+08	0.03168737	0.004208645	5.867105e-07	3.731316e-07	0.01047093	0.009416008	2.648792e-06	-2.426394e-07
	5.867105e-07	3.731316e-07	0.03124691	0.004635753	4.796382e-07	2.547269e-06	0.01027338	0.009637158
	0.01047093	0.009416008	4.796382e-07	2.547269e-06	0.0318228	0.004212824	6.440506e-07	4.136437e-07
	2.648792e-06	-2.426394e-07	0.01027338	0.009637159	6.440506e-07	4.136437e-07	0.03133124	0.004696434
1.4e+08	0.03270708	0.002624257	6.102828e-07	3.356365e-07	0.01155437	0.009196576	2.77204e-06	-5.869156e-07
	6.102828e-07	3.356365e-07	0.03223616	0.003141593	4.952163e-07	2.712334e-06	0.01134479	0.009461293
	0.01155437	0.009196576	4.952163e-07	2.712334e-06	0.03284659	0.002612795	6.701086e-07	3.729212e-07
	2.77204e-06	-5.869156e-07	0.01134479	0.009461294	6.701086e-07	3.729212e-07	0.03232143	0.003197843
1.5e+08	0.0335224	0.0009152527	6.235745e-07	2.920588e-07	0.01258869	0.008838157	2.845501e-06	-9.644691e-07
	6.235745e-07	2.920588e-07	0.03302873	0.001530125	5.067117e-07	2.876146e-06	0.01237089	0.009149647
	0.01258869	0.008838157	5.067117e-07	2.876146e-06	0.03366416	0.0008875104	6.849261e-07	3.255211e-07
	2.845501e-06	-9.644691e-07	0.01237089	0.009149648	6.849261e-07	3.255211e-07	0.03311412	0.001582131
1.6e+08	0.03412368	-0.0008927135	6.254855e-07	2.439111e-07	0.01355597	0.008348116	2.863186e-06	-1.368098e-06
	6.254855e-07	2.439111e-07	0.03361624	-0.0001740751	5.139424e-07	3.039376e-06	0.0133343	0.008709056
	0.01355597	0.008348116	5.139424e-07	3.039376e-06	0.03426567	-0.00093718	6.872952e-07	2.730985e-07
	2.863186e-06	-1.368098e-06	0.0133343	0.008709057	6.872952e-07	2.730985e-07	0.03370087	-0.0001260717
1.7e+08	0.03450349	-0.00277356	6.151283e-07	1.928772e-07	0.01443944	0.007736173	2.820135e-06	-1.789671e-06
	6.151283e-07	1.928772e-07	0.03399236	-0.001946193	5.168097e-07	3.202727e-06	0.01421877	0.008148629
	0.01443944	0.007736173	5.168097e-07	3.202727e-06	0.03464358	-0.002834944	6.762417e-07	2.174969e-07
	2.820135e-06	-1.789671e-06	0.01421877	0.008148629	6.762417e-07	2.174969e-07	0.03407536	-0.001901863
1.8e+08	0.03465687	-0.004700834	5.918536e-07	1.407832e-07	0.01522382	0.007014183	2.712555e-06	-2.220273e-06
	5.918536e-07	1.407832e-07	0.03415306	-0.003761213	5.153046e-07	3.36692e-06	0.01500938	0.007479532
	0.01522382	0.007014183	5.153046e-07	3.36692e-06	0.03479286	-0.004779044	6.510528e-07	1.607159e-07
	2.712555e-06	-2.220273e-06	0.01500938	0.007479533	6.510528e-07	1.607159e-07	0.03423358	-0.003720123
1.9e+08	0.0345815	-0.006647869	5.55272e-07	8.956501e-08	0.01589546	0.006195917	2.537937e-06	-2.650366e-06
	5.55272e-07	8.956501e-08	0.03409672	-0.005594049	5.095126e-07	3.532685e-06	0.01569281	0.006714785
	0.01589546	0.006195917	5.095126e-07	3.532685e-06	0.03471114	-0.006742518	6.113004e-07	1.048753e-07
	2.537937e-06	-2.650366e-06	0.01569281	0.006714785	6.113004e-07	1.048753e-07	0.03417397	-0.005555671
2e+08	0.03427777	-0.008588031	5.052712e-07	4.123259e-08	0.01644266	0.005296811	2.295144e-06	-3.069975e-06
	5.052712e-07	4.123259e-08	0.03382423	-0.007419766	4.996167e-07	3.700749e-06	0.01625753	0.005869024
	0.01644266	0.005296811	4.996167e-07	3.700749e-06	0.03439886	-0.008698415	5.568597e-07	5.217578e-08
	2.295144e-06	-3.069975e-06	0.01625753	0.005869024	5.568597e-07	5.217578e-08	0.03389749	-0.007383467
2.1e+08	0.03374885	-0.01049496	4.420274e-07	-2.168668e-09	0.01685579	0.004333713	1.98448e-06	-3.468877e-06
	4.420274e-07	-2.168668e-09	0.03333902	-0.00921379	4.858989e-07	3.87182e-06	0.01669399	0.004958261
	0.01685579	0.004333713	4.858989e-07	3.87182e-06	0.03385925	-0.01062007	4.879224e-07	4.857013e-09
	1.98448e-06	-3.468877e-06	0.01669399	0.004958261	4.879224e-07	4.857013e-09	0.03340764	-0.009178852
2.2e+08	0.03300072	-0.01234288	3.660129e-07	-3.859798e-08	0.01712746	0.003324593	1.60773e-06	-3.836807e-06
	3.660129e-07	-3.859798e-08	0.03264702	-0.01095216	4.6874e-07	4.046579e-06	0.01699478	0.003999613
	0.01712746	0.003324593	4.6874e-07	4.046579e-06	0.03309838	-0.0124814	4.050042e-07	-3.484658e-08
	1.60773e-06	-3.836807e-06	0.01699478	0.003999613	4.050042e-07	-3.484658e-08	0.03271047	-0.01091779
2.3e+08	0.0320421	-0.01410684	2.779972e-07	-6.606064e-08	0.01725271	0.002288245	1.168171e-06	-4.163664e-06
	2.779972e-07	-6.606064e-08	0.0317567	-0.0126118	4.486172e-07	4.225662e-06	0.01715474	0.003011022
	0.01725271	0.002288245	4.486172e-07	4.225662e-06	0.03212516	-0.01425717	3.089462e-07	-6.475113e-08
	1.168171e-06	-4.163664e-06	0.01715474	0.003011022	3.089462e-07	-6.475113e-08	0.03181454	-0.01257711
2.4e+08	0.03088439	-0.01576307	1.790428e-07	-8.264971e-08	0.01722899	0.001243981	6.705557e-07	-4.439727e-06
	1.790428e-07	-8.264971e-08	0.03067889	-0.01417073	4.261002e-07	4.409648e-06	0.01717106	0.002010961
	0.01722899	0.001243981	4.261002e-07	4.409648e-06	0.03095117	-0.01592333	2.009104e-07	-8.2769e-08
	6.705557e-07	-4.439727e-06	0.01717106	0.002010961	2.009104e-07	-8.2769e-08	0.03073082	-0.01413483
2.5e+08	0.02954155	-0.01728925	7.04955e-08	-8.658773e-08	0.01705631	0.0002113001	1.210636e-07	-4.655854e-06
	7.04955e-08	-8.658773e-08	0.02942677	-0.01560841	4.018451e-07	4.599046e-06	0.01704333	0.001018128
	0.01705631	0.0002113001	4.018451e-07	4.599046e-06	0.02959064	-0.01745731	8.236826e-08	-8.695447e-08
	1.210636e-07	-4.655854e-06	0.01704333	0.001018128	8.236826e-08	-8.695447e-08	0.0294726	-0.01557032
2.6e+08	0.02802998	-0.01866478	-4.603155e-08	-7.626721e-08	0.01673719	-0.0007904255	-4.727717e-07	-4.803696e-06
	-4.603155e-08	-7.626721e-08	0.02801564	-0.01690588	3.765865e-07	4.794282e-06	0.01677352	5.114021e-05
	0.01673719	-0.0007904256	3.765865e-07	4.794282e-06	0.02806021	-0.0188383	-4.491579e-08	-7.554791e-08
	-4.727717e-07	-4.803696e-06	0.01677352	5.114017e-05	-4.491579e-08	-7.554791e-08	0.02805532	-0.01686463
2.7e+08	0.02636827	-0.01987108	-1.68679e-07	-5.028947e-08	0.01627662	-0.001742281	-1.102167e-06	-4.875878e-06
	-1.68679e-07	-5.028947e-08	0.02646279	-0.01804608	3.511273e-07	4.995687e-06	0.016366	-0.0008717726
	0.01627662	-0.001742281	3.511273e-07	4.995687e-06	0.02637879	-0.02004754	-1.789085e-07	-4.701832e-08
	-1.102167e-06	-4.875878e-06	0.016366	-0.0008717726	-1.789085e-07	-4.701832e-08	0.02649639	-0.0180007
2.8e+08	0.02457702	-0.02089179	-2.953682e-07	-7.500863e-09	0.01568203	-0.002626123	-1.757217e-06	-4.866187e-06
	-2.953682e-07	-7.500863e-09	0.02478728	-0.01901402	3.263274e-07	5.203485e-06	0.01582746	-0.001733069
	0.01568203	-0.002626123	3.263274e-07	5.203485e-06	0.02456734	-0.02106854	-3.173368e-07	-1.028647e-10
	-1.757217e-06	-4.866187e-06	0.01582746	-0.001733069	-3.173368e-07	-1.028648e-10	0.02481503	-0.01896352
2.9e+08	0.02267856	-0.02171305	-4.238333e-07	5.297429e-08	0.01496314	-0.003424885	-2.427055e-06	-4.769729e-06
	-4.238333e-07	5.297429e-08	0.02300969	-0.01979696	3.030898e-07	5.417787e-06	0.01516677	-0.002516188
	0.01496314	-0.003424885	3.030898e-07	5.417787e-06	0.02264851	-0.02188733	-4.577236e-07	6.615736e-08
	-2.427055e-06	-4.769729e-06	0.01516677	-0.002516188	-4.577236e-07	6.615736e-08	0.02303194	-0.01974042
3e+08	0.02069667	-0.02232365	-5.516587e-07	1.31705e-07	0.01413181	-0.004122866	-3.100021e-06	-4.583072e-06
	-5.516587e-07	1.31705e-07	0.0211519	-0.0203846	2.823453e-07	5.638579e-06	0.0143949	-0.003205823
	0.01413181	-0.004122866	2.823453e-07	5.638579e-06	0.02064648	-0.02249265	-5.974277e-07	1.523859e-07
	-3.100021e-06	-4.583072e-06	0.0143949	-0.003205823	-5.974277e-07	1.523859e-07	0.02116912	-0.02032114
3.1e+08	0.01865628	-0.02271519	-6.763197e-07	2.289294e-07	0.01320186	-0.004706002	-3.763868e-06	-4.304361e-06
	-6.763197e-07	2.289294e-07	0.01923678	-0.02076921	2.650363e-07	5.865718e-06	0.01352468	-0.003788181
	0.01320186	-0.004706002	2.650363e-07	5.865718e-06	0.01858655	-0.02287613	-7.336896e-07	2.588449e-07
	-3.763868e-06	-4.304361e-06	0.01352468	-0.003788181	-7.336896e-07	2.588449e-07	0.01924957	-0.020698
3.2e+08	0.01658315	-0.02288223	-7.952285e-07	3.44537e-07	0.01218885	-0.005162104	-4.40597e-06	-3.93341e-06
	-7.952285e-07	3.44537e-07	0.0172879	-0.02094571	2.520987e-07	6.09893e-06	0.01257065	-0.004251214
	0.01218885	-0.005162104	2.520987e-07	6.09893e-06	0.01649487	-0.02303236	-8.636806e-07	3.854152e-07
	-4.40597e-06	-3.93341e-06	0.01257065	-0.004251214	-8.636806e-07	3.854152e-07	0.01729697	-0.02086603
3.3e+08	0.01450349	-0.02282236	-9.057822e-07	4.780556e-07	0.01110982	-0.005481071	-5.013553e-06	-3.471764e-06
	-9.057822e-07	4.780556e-07	0.01532926	-0.02091178	2.444432e-07	6.337806e-06	0.0115488	-0.004584824
	0.01110982	-0.005481071	2.444432e-07	6.337806e-06	0.01439802	-0.02295905	-9.845558e-07	5.315833e-07
	-5.013553e-06	-3.471764e-06	0.0115488	-0.004584824	-9.845558e-07	5.315833e-07	0.01533541	-0.02082299
3.4e+08	0.01244365	-0.02253623	-1.005413e-06	6.286466e-07	0.009983009	-0.00565507	-5.573928e-06	-2.922729e-06
	-1.005413e-06	6.286466e-07	0.01338491	-0.02066784	2.429367e-07	6.581806e-06	0.0104763	-0.004781035
	0.009983009	-0.00565507	2.429367e-07	6.581806e-06	0.01232272	-0.02265701	-1.093509e-06	6.964353e-07
	-5.573928e-06	-2.922729e-06	0.0104763	-0.004781035	-1.093509e-06	6.964353e-07	0.01338905	-0.02056942
3.5e+08	0.01042973	-0.02202758	-1.09164e-06	7.951063e-07	0.008827564	-0.00567868	-6.074735e-06	-2.291368e-06
	-1.09164e-06	7.951063e-07	0.01147871	-0.0202171	2.483823e-07	6.830263e-06	0.009371264	-0.004834139
	0.008827564	-0.00567868	2.483823e-07	6.830263e-06	0.01029543	-0.02213019	-1.187829e-06	8.786589e-07
	-6.074735e-06	-2.291368e-06	0.009371264	-0.004834139	-1.187829e-06	8.786589e-07	0.01148181	-0.02010864
3.6e+08	0.008487244	-0.02130317	-1.162123e-06	9.758747e-07	0.007663218	-0.005548987	-6.504185e-06	-1.584473e-06
	-1.162123e-06	9.758747e-07	0.009633954	-0.01956549	2.615013e-07	7.082388e-06	0.008252388	-0.004740791
	0.007663218	-0.005548986	2.615013e-07	7.082388e-06	0.008341958	-0.02138562	-1.264956e-06	1.076553e-06
	-6.504185e-06	-1.584473e-06	0.008252388	-0.004740791	-1.264956e-06	1.076553e-06	0.009637036	-0.01944671
3.7e+08	0.006640734	-0.02037275	-1.214709e-06	1.169053e-06	0.006509963	-0.005265651	-6.851298e-06	-8.10489e-07
	-1.214709e-06	1.169053e-06	0.007873082	-0.01872156	2.829145e-07	7.337284e-06	0.007138693	-0.004500076
	0.006509963	-0.005265651	2.829145e-07	7.337284e-06	0.006487158	-0.02043333	-1.322538e-06	1.288047e-06
	-6.851298e-06	-8.10489e-07	0.007138693	-0.004500076	-1.322538e-06	1.288047e-06	0.007877212	-0.01859235
3.8e+08	0.004913462	-0.01924885	-1.247487e-06	1.372425e-06	0.005387717	-0.004830924	-7.10613e-06	2.058049e-08
	-1.247487e-06	1.372425e-06	0.006217379	-0.01769643	3.131257e-07	7.593957e-06	0.006049191	-0.004113535
	0.005387717	-0.004830924	3.131257e-07	7.593957e-06	0.004754533	-0.01928621	-1.358483e-06	1.510725e-06
	-7.10613e-06	2.058049e-08	0.006049191	-0.004113535	-1.358483e-06	1.510725e-06	0.00622364	-0.01755681
3.9e+08	0.00332706	-0.0179467	-1.258831e-06	1.583493e-06	0.004315988	-0.00424962	-7.259996e-06	8.973086e-07
	-1.258831e-06	1.583493e-06	0.00468668	-0.01650359	3.525066e-07	7.851331e-06	0.00500257	-0.003585143
	0.004315988	-0.00424962	3.525066e-07	7.851331e-06	0.003165922	-0.01795986	-1.371012e-06	1.741862e-06
	-7.259996e-06	8.973086e-07	0.00500257	-0.003585143	-1.371012e-06	1.741862e-06	0.004696153	-0.01635371
4e+08	0.00190123	-0.01648396	-1.24744e-06	1.799511e-06	0.003313545	-0.003529048	-7.305662e-06	1.807007e-06
	-1.24744e-06	1.799511e-06	0.003299106	-0.01515874	4.012842e-07	8.108268e-06	0.004016889	-0.002921256
	0.003313545	-0.003529048	4.012842e-07	8.108268e-06	0.001741182	-0.01647235	-1.3587e-06	1.978462e-06
	-7.305662e-06	1.807007e-06	0.004016889	-0.002921256	-1.3587e-06	1.978462e-06	0.003312852	-0.0149989
4.1e+08	0.0006534591	-0.01488051	-1.212378e-06	2.017533e-06	0.002398103	-0.002678905	-7.23753e-06	2.735915e-06
	-1.212378e-06	2.017533e-06	0.002070812	-0.01367953	4.595304e-07	8.363588e-06	0.003109267	-0.002130511
	0.002398103	-0.002678905	4.595304e-07	8.363588e-06	0.0004979009	-0.01484401	-1.320518e-06	2.217312e-06
	-7.23753e-06	2.735915e-06	0.003109267	-0.002130511	-1.320518e-06	2.217312e-06	0.002089852	-0.01351021
4.2e+08	-0.0004012324	-0.01315818	-1.153103e-06	2.234458e-06	0.001586018	-0.001711117	-7.051783e-06	3.669416e-06
	-1.153103e-06	2.234458e-06	0.001015771	-0.01208541	5.271551e-07	8.616087e-06	0.002295605	-0.001223691
	0.001586018	-0.001711117	5.271551e-07	8.616087e-06	-0.0005488565	-0.0130971	-1.255867e-06	2.45503e-06
	-7.051783e-06	3.669416e-06	0.002295605	-0.001223691	-1.255867e-06	2.45503e-06	0.001041061	-0.01190719
4.3e+08	-0.001250509	-0.01134042	-1.069489e-06	2.447089e-06	0.0008920083	-0.0006396565	-6.746517e-06	4.592271e-06
	-1.069489e-06	2.447089e-06	0.0001455793	-0.01039726	6.039017e-07	8.864567e-06	0.001590312	-0.0002135517
	0.0008920083	-0.0006396565	6.039017e-07	8.864567e-06	-0.001386765	-0.01125553	-1.1646e-06	2.688125e-06
	-6.746517e-06	4.592271e-06	0.001590312	-0.0002135517	-1.1646e-06	2.688125e-06	0.000178002	-0.01021088
4.4e+08	-0.001884893	-0.009451986	-9.618417e-07	2.652188e-06	0.0003289022	0.0005196866	-6.321824e-06	5.488873e-06
	-9.618417e-07	2.652188e-06	-0.0005306947	-0.008637169	6.893471e-07	9.107853e-06	0.001006066	0.0008853802
	0.0003289022	0.0005196866	6.893471e-07	9.107853e-06	-0.002006428	-0.009344512	-1.047043e-06	2.913063e-06
	-6.321824e-06	5.488873e-06	0.001006066	0.0008853802	-1.047043e-06	2.913063e-06	-0.0004903587	-0.008443462
4.5e+08	-0.002297914	-0.007518585	-8.30908e-07	2.846536e-06	-9.258538e-05	0.001749559	-5.779856e-06	6.34351e-06
	-8.30908e-07	2.846536e-06	-0.001006639	-0.006828099	7.829044e-07	9.344821e-06	0.0005535967	0.002057046
	-9.258538e-05	0.001749559	7.829044e-07	9.344821e-06	-0.002401505	-0.00739021	-9.039997e-07	3.126328e-06
	-5.779856e-06	6.34351e-06	0.0005535967	0.002057046	-9.039997e-07	3.126328e-06	-0.0009577195	-0.006628023
4.6e+08	-0.002486195	-0.005566517	-6.778708e-07	3.026992e-06	-0.0003640396	0.003031329	-5.124845e-06	7.140642e-06
	-6.778708e-07	3.026992e-06	-0.001278576	-0.004993572	8.838296e-07	9.57442e-06	0.0002415016	0.003284114
	-0.0003640395	0.003031329	8.838296e-07	9.57442e-06	-0.002568818	-0.005419353	-7.367504e-07	3.324491e-06
	-5.124845e-06	7.140642e-06	0.0002415016	0.003284114	-7.367504e-07	3.324491e-06	-0.001220534	-0.004788173
4.7e+08	-0.002449508	-0.003622294	-5.043416e-07	3.190559e-06	-0.0004794956	0.004345386	-4.363087e-06	7.865178e-06
	-5.043416e-07	3.190559e-06	-0.001345616	-0.003157344	9.912323e-07	9.795691e-06	7.610119e-05	0.004548261
	-0.0004794956	0.004345386	9.912323e-07	9.795691e-06	-0.002508366	-0.003458839	-5.47041e-07	3.504269e-06
	-4.363087e-06	7.865178e-06	7.610119e-05	0.004548261	-5.47041e-07	3.504269e-06	-0.001278023	-0.002947717
4.8e+08	-0.002190778	-0.001712258	-3.123406e-07	3.334435e-06	-0.000435548	0.005671468	-3.502892e-06	8.502745e-06
