!$
! Info: Touchstone file created by Circ.  Input file=Tx_6in_Rx_100ohms_TxVia_60mils_RxVia_70mils.circ
!$
# Hz S RI R 50
0	0.006352864	9.660982e-26	-3.264101e-05	7.543586e-24	5.221154e-05	1.248608e-23	-3.267746e-05	1.209466e-23
	-3.2641e-05	7.543172e-24	0.006348153	1.118894e-25	-3.260376e-05	3.05423e-24	5.241654e-05	1.540898e-23
	5.319339e-05	1.270496e-23	-3.260375e-05	3.053509e-24	0.006366944	9.253818e-26	-3.263567e-05	7.0501e-24
	-3.267745e-05	1.20939e-23	5.268632e-05	1.547506e-23	-3.263568e-05	7.050473e-24	0.006362654	1.113799e-25
1e+07	0.008602756	0.004616751	-5.151677e-05	-2.376381e-05	0.0001580841	0.001267268	-0.0001414765	7.57041e-05
	-5.151677e-05	-2.376381e-05	0.009221558	0.004486623	-1.867826e-05	-8.426893e-06	0.000370371	0.001305468
	0.0001580935	0.001267235	-1.867826e-05	-8.426893e-06	0.008962602	0.0044645	-5.499383e-06	-8.361319e-06
	-0.0001414765	7.57041e-05	0.0003703734	0.001305465	-5.499384e-06	-8.361322e-06	0.00914346	0.004499805
2e+07	0.01146614	0.007267015	-2.794579e-05	-4.895209e-05	0.0004001269	0.002530622	-0.000167121	6.557603e-05
	-2.794579e-05	-4.895209e-05	0.01180662	0.006834788	-1.478725e-05	-9.430771e-06	0.0005261199	0.002682626
	0.0004001002	0.002530621	-1.478725e-05	-9.43077e-06	0.01159736	0.006898262	-5.727328e-06	3.365547e-07
	-0.000167121	6.557603e-05	0.0005261167	0.002682626	-5.72733e-06	3.365556e-07	0.01175446	0.006891904
3e+07	0.01395391	0.008716774	-1.419218e-05	-5.726609e-05	0.000794565	0.00372612	-0.0001871163	6.634497e-05
	-1.419218e-05	-5.726609e-05	0.01406588	0.008211291	-1.208329e-05	-1.010304e-05	0.000853094	0.003918809
	0.0007945625	0.003726124	-1.208329e-05	-1.010304e-05	0.01390899	0.008302611	-6.881057e-06	-6.87352e-07
	-0.0001871163	6.634497e-05	0.0008530937	0.003918811	-6.881057e-06	-6.873515e-07	0.01403591	0.008287618
4e+07	0.01627879	0.009606804	-3.669325e-05	-5.232697e-05	0.001331966	0.004850651	-0.0002049352	6.839716e-05
	-3.669325e-05	-5.232697e-05	0.01618827	0.009099839	-9.918166e-06	-1.041919e-05	0.001348073	0.0050657
	0.001331966	0.004850647	-9.918166e-06	-1.041919e-05	0.01608956	0.009201218	-8.519504e-06	-2.286901e-06
	-0.0002049352	6.839716e-05	0.001348074	0.005065701	-8.519504e-06	-2.286902e-06	0.01617897	0.009187592
5e+07	0.01849733	0.01008231	-5.54179e-05	-4.235102e-05	0.002000983	0.005889231	-0.0002217416	7.119008e-05
	-5.54179e-05	-4.235102e-05	0.01822431	0.009620065	-8.0556e-06	-1.055543e-05	0.002079777	0.0060856
	0.002000981	0.005889229	-8.0556e-06	-1.055543e-05	0.01818962	0.009717877	-1.040536e-05	-3.297911e-06
	-0.0002217416	7.119008e-05	0.002079778	0.006085601	-1.040536e-05	-3.297911e-06	0.01823416	0.009714317
6e+07	0.02062378	0.01021071	-7.065323e-05	-2.855749e-05	0.002788602	0.006827118	-0.000238116	7.463796e-05
	-7.065323e-05	-2.855749e-05	0.02018779	0.009829668	-6.358556e-06	-1.057397e-05	0.002914065	0.006994414
	0.002788604	0.006827122	-6.358556e-06	-1.057397e-05	0.02022119	0.009910434	-1.248691e-05	-3.805362e-06
	-0.000238116	7.463796e-05	0.002914066	0.006994415	-1.248691e-05	-3.805361e-06	0.02021541	0.009926651
7e+07	0.02265509	0.01003201	-8.238423e-05	-1.161611e-05	0.003689171	0.007646655	-0.0002544632	7.860852e-05
	-8.238424e-05	-1.161611e-05	0.02207665	0.009762903	-5.811305e-06	-9.983293e-06	0.003837499	0.007782151
	0.00368918	0.00764666	-5.811305e-06	-9.983293e-06	0.02218057	0.009813379	-1.46887e-05	-3.82249e-06
	-0.0002544632	7.860852e-05	0.003837501	0.007782151	-1.468869e-05	-3.822489e-06	0.0221205	0.009859321
8e+07	0.02457997	0.009574815	-9.039468e-05	8.110962e-06	0.004678711	0.008338781	-0.0002712396	8.277367e-05
	-9.039468e-05	8.110961e-06	0.02388153	0.009445106	-7.666169e-06	-7.782536e-06	0.00483467	0.008439394
	0.004678724	0.008338785	-7.666169e-06	-7.782536e-06	0.02405685	0.009452067	-1.693508e-05	-3.356185e-06
	-0.0002712396	8.277367e-05	0.004834671	0.008439393	-1.693508e-05	-3.356184e-06	0.0239397	0.00953798
9e+07	0.02638266	0.008862262	-9.417768e-05	3.062336e-05	0.005738027	0.00889546	-0.0002892942	8.630654e-05
	-9.417768e-05	3.062336e-05	0.02559057	0.008899023	-8.923234e-06	-5.180752e-06	0.005888263	0.008957669
	0.005738038	0.00889546	-8.923234e-06	-5.180752e-06	0.02583646	0.008848929	-1.917787e-05	-2.442085e-06
	-0.0002892942	8.630654e-05	0.005888264	0.008957668	-1.917787e-05	-2.442085e-06	0.02566066	0.008985619
1e+08	0.02804176	0.00791083	-9.134678e-05	5.813773e-05	0.006851463	0.009312385	-0.0003123938	8.46381e-05
	-9.134678e-05	5.813773e-05	0.02719862	0.008155281	-9.233946e-06	-1.886007e-06	0.006976505	0.00932633
	0.006851463	0.009312385	-9.233946e-06	-1.886007e-06	0.02751152	0.008033245	-2.145188e-05	-1.179722e-06
	-0.0003123938	8.46381e-05	0.006976505	0.00932633	-2.145188e-05	-1.179722e-06	0.02727698	0.008232201
1.1e+08	0.02952703	0.006772655	-7.749312e-05	7.420761e-05	0.008007162	0.009568649	-0.0003186804	7.292627e-05
	-7.749312e-05	7.420761e-05	0.0287198	0.007173182	-7.785799e-06	7.442307e-08	0.008068617	0.00956735
	0.008007162	0.009568649	-7.785799e-06	7.442308e-08	0.02908973	0.006970908	-2.318695e-05	1.48865e-07
	-0.0003186804	7.292627e-05	0.008068615	0.00956735	-2.318695e-05	1.48865e-07	0.02880011	0.007243452
1.2e+08	0.03085678	0.005461024	-7.811072e-05	7.188037e-05	0.009167204	0.009666517	-0.0003203933	7.037518e-05
	-7.811072e-05	7.188037e-05	0.03007113	0.005988084	-6.78447e-06	1.387783e-06	0.009174945	0.009672929
	0.009167204	0.009666517	-6.78447e-06	1.387783e-06	0.03049416	0.005696616	-2.449718e-05	2.016144e-06
	-0.0003203933	7.037518e-05	0.009174943	0.00967293	-2.449718e-05	2.016144e-06	0.03015373	0.006053379
1.3e+08	0.03201171	0.003990157	-7.770512e-05	7.154136e-05	0.01031425	0.009610559	-0.0003206192	7.133069e-05
	-7.770512e-05	7.154136e-05	0.03124691	0.004635753	-5.873705e-06	2.369834e-06	0.01027338	0.009637158
	0.01031425	0.009610559	-5.873705e-06	2.369834e-06	0.03171654	0.004245316	-2.54267e-05	4.25034e-06
	-0.0003206192	7.133069e-05	0.01027338	0.009637159	-2.54267e-05	4.25034e-06	0.03133124	0.004696434
1.4e+08	0.03297741	0.002380974	-7.656234e-05	7.23892e-05	0.0114293	0.009404783	-0.000319836	7.43853e-05
	-7.656234e-05	7.23892e-05	0.03223616	0.003141593	-5.01002e-06	3.130703e-06	0.01134479	0.009461293
	0.0114293	0.009404783	-5.01002e-06	3.130703e-06	0.03274402	0.00264305	-2.594148e-05	6.752479e-06
	-0.000319836	7.43853e-05	0.01134479	0.009461294	-2.594148e-05	6.752479e-06	0.03232143	0.003197843
1.5e+08	0.03374177	0.0006562767	-7.477897e-05	7.400451e-05	0.01249368	0.009055166	-0.0003182319	7.877743e-05
	-7.477897e-05	7.400451e-05	0.03302873	0.001530125	-4.177689e-06	3.723071e-06	0.01237089	0.009149647
	0.01249368	0.009055166	-4.177689e-06	3.723071e-06	0.03356488	0.0009153974	-2.60103e-05	9.429719e-06
	-0.0003182319	7.877743e-05	0.01237089	0.009149648	-2.60103e-05	9.429719e-06	0.03311412	0.001582131
1.6e+08	0.03429497	-0.001159911	-7.239933e-05	7.610772e-05	0.01348947	0.008569861	-0.0003159239	8.400243e-05
	-7.239933e-05	7.610772e-05	0.03361624	-0.0001740751	-3.37038e-06	4.177775e-06	0.0133343	0.008709056
	0.01348947	0.008569861	-3.37038e-06	4.177775e-06	0.03416931	-0.0009117317	-2.561356e-05	1.218939e-05
	-0.0003159239	8.400243e-05	0.0133343	0.008709057	-2.561356e-05	1.218939e-05	0.03370087	-0.0001260717
1.7e+08	0.03462958	-0.003042676	-6.945457e-05	7.84877e-05	0.01439986	0.007959166	-0.0003130173	8.96935e-05
	-6.945457e-05	7.84877e-05	0.03399236	-0.001946193	-2.586046e-06	4.514972e-06	0.01421877	0.008148629
	0.01439986	0.007959166	-2.586046e-06	4.514972e-06	0.0345498	-0.002811949	-2.474614e-05	1.493907e-05
	-0.0003130173	8.96935e-05	0.01421877	0.008148629	-2.474614e-05	1.493907e-05	0.03407536	-0.001901863
1.8e+08	0.03474072	-0.004966465	-6.597654e-05	8.097382e-05	0.01520947	0.007235395	-0.000309625	9.557419e-05
	-6.597654e-05	8.097382e-05	0.03415306	-0.003761213	-1.824758e-06	4.74898e-06	0.01500938	0.007479532
	0.01520947	0.007235395	-1.824758e-06	4.74898e-06	0.03470135	-0.00475847	-2.341845e-05	1.758826e-05
	-0.000309625	9.557419e-05	0.01500938	0.007479533	-2.341845e-05	1.758826e-05	0.03423358	-0.003720123
1.9e+08	0.03462617	-0.006905374	-6.200268e-05	8.342755e-05	0.01590459	0.006412712	-0.0003058729	0.0001014363
	-6.200268e-05	8.342755e-05	0.03409672	-0.005594049	-1.486965e-06	4.726974e-06	0.01569281	0.006714785
	0.01590459	0.006412712	-1.486965e-06	4.726974e-06	0.03462167	-0.006724289	-2.165471e-05	2.005529e-05
	-0.0003058729	0.0001014363	0.01569281	0.006714785	-2.165471e-05	2.005529e-05	0.03417397	-0.005555671
2e+08	0.03428642	-0.008833421	-5.758119e-05	8.572571e-05	0.0164734	0.005506904	-0.0003019002	0.0001071291
	-5.758119e-05	8.572571e-05	0.03382423	-0.007419766	-1.449181e-06	4.582363e-06	0.01625753	0.005869024
	0.0164734	0.005506904	-1.449181e-06	4.582363e-06	0.0343112	-0.008682428	-1.94952e-05	2.225902e-05
	-0.0003019002	0.0001071291	0.01625753	0.005869024	-1.94952e-05	2.225902e-05	0.03389749	-0.007383467
2.1e+08	0.03372473	-0.01072484	-5.277259e-05	8.776237e-05	0.01690622	0.004535139	-0.0002978559	0.0001125533
	-5.277259e-05	8.776237e-05	0.03333902	-0.00921379	-1.405651e-06	4.457912e-06	0.01669399	0.004958261
	0.01690622	0.004535139	-1.405651e-06	4.457912e-06	0.03377323	-0.0106062	-1.699556e-05	2.41258e-05
	-0.0002978559	0.0001125533	0.01669399	0.004958261	-1.699556e-05	2.41258e-05	0.03340764	-0.009178852
2.2e+08	0.03294713	-0.0125544	-4.764588e-05	8.945342e-05	0.0171956	0.003515692	-0.0002938935	0.0001176576
	-4.764588e-05	8.945342e-05	0.03264702	-0.01095216	-1.35839e-06	4.349378e-06	0.01699478	0.003999613
	0.0171956	0.003515692	-1.35839e-06	4.349378e-06	0.0330139	-0.01246948	-1.422221e-05	2.559711e-05
	-0.0002938935	0.0001176576	0.01699478	0.003999613	-1.422221e-05	2.559711e-05	0.03271047	-0.01091779
2.3e+08	0.0319624	-0.01429765	-4.227801e-05	9.073276e-05	0.01733651	0.002467647	-0.0002901653	0.000122435
	-4.227801e-05	9.073276e-05	0.0317567	-0.0126118	-1.30918e-06	4.253659e-06	0.01715474	0.003011022
	0.01733651	0.002467647	-1.30918e-06	4.253659e-06	0.03204213	-0.01424705	-1.125113e-05	2.662792e-05
	-0.0002901653	0.000122435	0.01715474	0.003011022	-1.125113e-05	2.662792e-05	0.03181454	-0.01257711
2.4e+08	0.03078193	-0.0159313	-3.675249e-05	9.155241e-05	0.01732641	0.001410586	-0.0002868173	0.0001269212
	-3.675249e-05	9.155241e-05	0.03067889	-0.01417073	-1.259782e-06	4.168568e-06	0.01717106	0.002010961
	0.01732641	0.001410586	-1.259782e-06	4.168568e-06	0.03086957	-0.01591485	-8.165229e-06	2.718829e-05
	-0.0002868173	0.0001269212	0.01717106	0.002010961	-8.165229e-06	2.718829e-05	0.03073082	-0.01413483
2.5e+08	0.0294197	-0.01743348	-3.115628e-05	9.18825e-05	0.01716529	0.0003642764	-0.0002839814	0.0001311899
	-3.115628e-05	9.18825e-05	0.02942677	-0.01560841	-1.211665e-06	4.092712e-06	0.01704333	0.001018128
	0.01716529	0.0003642764	-1.211665e-06	4.092712e-06	0.02951048	-0.01745032	-5.051507e-06	2.726428e-05
	-0.0002839814	0.0001311899	0.01704333	0.001018128	-5.051507e-06	2.726428e-05	0.0294726	-0.01557032
2.6e+08	0.02789202	-0.01878401	-2.557757e-05	9.171109e-05	0.01685568	-0.0006516604	-0.0002817702	0.0001353499
	-2.557757e-05	9.171109e-05	0.02801564	-0.01690588	-1.166128e-06	4.025356e-06	0.01677352	5.114021e-05
	0.01685568	-0.0006516604	-1.166128e-06	4.025356e-06	0.02798156	-0.01883266	-1.998025e-06	2.685847e-05
	-0.0002817702	0.0001353499	0.01677352	5.114017e-05	-1.998025e-06	2.685847e-05	0.02805532	-0.01686463
2.7e+08	0.02621742	-0.0199647	-2.010275e-05	9.104357e-05	0.01640262	-0.001618069	-0.0002802711	0.0001395385
	-2.010275e-05	9.104357e-05	0.02646279	-0.01804608	-1.124171e-06	3.966308e-06	0.016366	-0.0008717726
	0.01640262	-0.001618069	-1.124171e-06	3.966308e-06	0.02630176	-0.02004312	9.091507e-07	2.598984e-05
	-0.0002802711	0.0001395385	0.016366	-0.0008717726	9.091507e-07	2.598984e-05	0.02649639	-0.0180007
2.8e+08	0.02441638	-0.02095958	-1.481401e-05	8.990199e-05	0.0158136	-0.002516579	-0.0002795422	0.0001439188
	-1.481401e-05	8.990199e-05	0.02478728	-0.01901402	-1.086536e-06	3.915853e-06	0.01582746	-0.001733069
	0.0158136	-0.002516579	-1.086536e-06	3.915853e-06	0.02449205	-0.02106524	3.588968e-06	2.469319e-05
	-0.0002795422	0.0001439188	0.01582746	-0.001733069	3.588968e-06	2.469319e-05	0.02481503	-0.01896352
2.9e+08	0.0225111	-0.0217551	-9.786475e-06	8.832352e-05	0.01509839	-0.003329911	-0.000279607	0.0001486716
	-9.786475e-06	8.832352e-05	0.02300969	-0.01979696	-1.053614e-06	3.874642e-06	0.01516677	-0.002516188
	0.01509839	-0.003329911	-1.053614e-06	3.874642e-06	0.02257514	-0.02188508	5.968241e-06	2.30179e-05
	-0.000279607	0.0001486716	0.01516677	-0.002516188	5.968241e-06	2.30179e-05	0.02303194	-0.01974042
3e+08	0.0205252	-0.02234039	-5.085742e-06	8.635869e-05	0.01426895	-0.004042168	-0.0002804528	0.0001539883
	-5.085742e-06	8.635869e-05	0.0211519	-0.0203846	-1.025393e-06	3.843586e-06	0.0143949	-0.003205823
	0.01426895	-0.004042168	-1.025393e-06	3.843586e-06	0.02057521	-0.02249143	7.984218e-06	2.102617e-05
	-0.0002804528	0.0001539883	0.0143949	-0.003205823	7.984218e-06	2.102617e-05	0.02116912	-0.02032114
3.1e+08	0.01848343	-0.02270732	-7.659912e-07	8.406953e-05	0.01333922	-0.004639103	-0.0002820275	0.0001600663
	-7.659912e-07	8.406953e-05	0.01923678	-0.02076921	-1.001479e-06	3.823799e-06	0.01352468	-0.003788181
	0.01333922	-0.004639103	-1.001479e-06	3.823799e-06	0.01851761	-0.02287592	9.586861e-06	1.879101e-05
	-0.0002820275	0.0001600663	0.01352468	-0.003788181	9.586861e-06	1.879101e-05	0.01924957	-0.020698
3.2e+08	0.01641133	-0.02285071	3.131928e-06	8.152686e-05	0.01232487	-0.005108362	-0.0002842399	0.000167099
	3.131928e-06	8.152686e-05	0.0172879	-0.02094571	-9.81038e-07	3.81646e-06	0.01257065	-0.004251214
	0.01232487	-0.005108362	-9.81038e-07	3.81646e-06	0.01642846	-0.02303322	1.074062e-05	1.639357e-05
	-0.0002842399	0.000167099	0.01257065	-0.004251214	1.074062e-05	1.639357e-05	0.01729697	-0.02086603
3.3e+08	0.0143349	-0.02276838	6.581755e-06	7.880759e-05	0.01124308	-0.005439698	-0.0002869602	0.0001752685
	6.581755e-06	7.880759e-05	0.01532926	-0.02091178	-9.627929e-07	3.822718e-06	0.0115488	-0.004584824
	0.01124308	-0.005439698	-9.627929e-07	3.822718e-06	0.01433438	-0.02296107	1.142567e-05	1.392025e-05
	-0.0002869602	0.0001752685	0.0115488	-0.004584824	1.142567e-05	1.392025e-05	0.01533541	-0.02082299
3.4e+08	0.01228025	-0.02246116	9.572499e-06	7.599209e-05	0.01011222	-0.005625151	-0.0002900211	0.0001847413
	9.572499e-06	7.599209e-05	0.01338491	-0.02066784	-9.45061e-07	3.843612e-06	0.0104763	-0.004781035
	0.01011222	-0.005625151	-9.45061e-07	3.843612e-06	0.01226208	-0.02266031	1.163881e-05	1.145984e-05
	-0.0002900211	0.0001847413	0.0104763	-0.004781035	1.163881e-05	1.145984e-05	0.01338905	-0.02056942
3.5e+08	0.01027323	-0.02193295	1.210877e-05	7.316094e-05	0.008951599	-0.00565919	-0.0002932218	0.0001956582
	1.210877e-05	7.316094e-05	0.01147871	-0.0202171	-9.257603e-07	3.879962e-06	0.009371264	-0.004834139
	0.008951599	-0.00565919	-9.257603e-07	3.879962e-06	0.010238	-0.02213495	1.139285e-05	9.099252e-06
	-0.0002932218	0.0001956582	0.009371264	-0.004834139	1.139285e-05	9.099252e-06	0.01148181	-0.02010864
3.6e+08	0.008339103	-0.02119066	1.421046e-05	7.039225e-05	0.007781109	-0.005538814	-0.0002963327	0.0002081262
	1.421046e-05	7.039225e-05	0.009633954	-0.01956549	-9.036721e-07	3.927956e-06	0.008252388	-0.004740791
	0.007781109	-0.005538814	-9.036721e-07	3.927956e-06	0.008287948	-0.02139206	1.092941e-05	7.214202e-06
	-0.0002963327	0.0002081262	0.008252388	-0.004740791	1.092941e-05	7.214202e-06	0.009637036	-0.01944671
3.7e+08	0.006502157	-0.02024409	1.591196e-05	6.775845e-05	0.006620904	-0.005263615	-0.0002990984	0.0002222243
	1.591196e-05	6.775845e-05	0.007873082	-0.01872156	-8.757721e-07	3.991507e-06	0.007138693	-0.004500076
	0.006620904	-0.005263615	-8.757721e-07	3.991507e-06	0.006436756	-0.0204417	1.015854e-05	5.61569e-06
	-0.0002990984	0.0002222243	0.007138693	-0.004500076	1.015854e-05	5.61569e-06	0.007877212	-0.01859235
3.8e+08	0.004785393	-0.01910587	1.726078e-05	6.532389e-05	0.005491067	-0.004835795	-0.0003012451	0.0002379879
	1.726078e-05	6.532389e-05	0.006217379	-0.01769643	-8.38899e-07	4.071163e-06	0.006049191	-0.004113535
	0.005491067	-0.004835795	-8.38899e-07	4.071163e-06	0.004707899	-0.01929682	9.097064e-06	4.307743e-06
	-0.0003012451	0.0002379879	0.006049191	-0.004113535	9.097064e-06	4.307744e-06	0.00622364	-0.01755681
3.9e+08	0.003210189	-0.01779124	1.831571e-05	6.314247e-05	0.004411271	-0.00426014	-0.0003024878	0.0002554083
	1.831571e-05	6.314247e-05	0.00468668	-0.01650359	-7.899796e-07	4.166037e-06	0.00500257	-0.003585143
	0.004411271	-0.00426014	-7.899796e-07	4.166037e-06	0.003123175	-0.01797303	7.812002e-06	3.342947e-06
	-0.0003024878	0.0002554083	0.00500257	-0.003585143	7.812002e-06	3.342947e-06	0.004696153	-0.01635371
4e+08	0.001795997	-0.01631786	1.914467e-05	6.125559e-05	0.00340045	-0.003543949	-0.0003025381	0.0002744307
	1.914467e-05	6.125559e-05	0.003299106	-0.01515874	-7.259672e-07	4.274656e-06	0.004016889	-0.002921256
	0.00340045	-0.003543949	-7.259671e-07	4.274656e-06	0.001702411	-0.01648845	6.37936e-06	2.759868e-06
	-0.0003025381	0.0002744307	0.004016889	-0.002921256	6.37936e-06	2.759868e-06	0.003312852	-0.0149989
4.1e+08	0.0005600634	-0.0147056	1.982216e-05	5.969077e-05	0.002476477	-0.002696928	-0.0003011108	0.0002949541
	1.982216e-05	5.969077e-05	0.002070812	-0.01367953	-6.43966e-07	4.394954e-06	0.003109267	-0.002130511
	0.002476477	-0.002696928	-6.43966e-07	4.394954e-06	0.0004631484	-0.01486342	4.881455e-06	2.581683e-06
	-0.0003011108	0.0002949541	0.003109267	-0.002130511	4.881455e-06	2.581683e-06	0.002089852	-0.01351021
4.2e+08	-0.0004828226	-0.01297622	2.042649e-05	5.846055e-05	0.001655862	-0.001731029	-0.0002979319	0.0003168319
	2.042649e-05	5.846055e-05	0.001015771	-0.01208541	-5.413589e-07	4.5243e-06	0.002295605	-0.001223691
	0.001655862	-0.001731029	-5.413589e-07	4.5243e-06	-0.0005795982	-0.01312022	3.403883e-06	2.815198e-06
	-0.0002979319	0.0003168319	0.002295605	-0.001223691	3.403883e-06	2.815198e-06	0.001041061	-0.01190719
4.3e+08	-0.001320536	-0.0111531	2.10369e-05	5.756202e-05	0.0009534695	-0.0006602687	-0.0002927464	0.0003398736
	2.10369e-05	5.756202e-05	0.0001455793	-0.01039726	-4.159259e-07	4.659532e-06	0.001590312	-0.0002135517
	0.0009534695	-0.0006602687	-4.159259e-07	4.659532e-06	-0.001413551	-0.01128279	2.032313e-06	3.450461e-06
	-0.0002927464	0.0003398736	0.001590312	-0.0002135517	2.032313e-06	3.450461e-06	0.000178002	-0.01021088
4.4e+08	-0.001943801	-0.009260881	2.173051e-05	5.697686e-05	0.0003822649	0.0004995056	-0.0002853259	0.0003638473
	2.173051e-05	5.697686e-05	-0.0005306947	-0.008637169	-2.659604e-07	4.797035e-06	0.001006066	0.0008853802
	0.0003822649	0.0004995056	-2.659604e-07	4.797035e-06	-0.002029368	-0.009376326	8.493513e-07	4.461018e-06
	-0.0002853259	0.0003638473	0.001006066	0.0008853802	8.493513e-07	4.461018e-06	-0.0004903587	-0.008443462
4.5e+08	-0.002346321	-0.007325162	2.257957e-05	5.667206e-05	-4.691057e-05	0.001730868	-0.0002754777	0.0003884836
	2.257957e-05	5.667206e-05	-0.001006639	-0.006828099	-9.036258e-08	4.93284e-06	0.0005535967	0.002057046
	-4.691058e-05	0.001730868	-9.036258e-08	4.93284e-06	-0.002420764	-0.007427	-6.853993e-08	5.804757e-06
	-0.0002754777	0.0003884836	0.0005535967	0.002057046	-6.853993e-08	5.804757e-06	-0.0009577195	-0.006628023
4.6e+08	-0.002524882	-0.005372101	2.36493e-05	5.660155e-05	-0.0003255278	0.003015101	-0.0002631169	0.0004134587
	2.36493e-05	5.660155e-05	-0.001278576	-0.004993572	1.112763e-07	5.062739e-06	0.0002415016	0.003284114
	-0.0003255278	0.003015101	1.112763e-07	5.062739e-06	-0.002584616	-0.005461531	-6.532743e-07	7.425714e-06
	-0.0002631169	0.0004134587	0.0002415016	0.003284114	-6.532743e-07	7.425714e-06	-0.001220534	-0.004788173
4.7e+08	-0.002479365	-0.003428032	2.49082e-05	5.664673e-05	-0.0004475209	0.0043325	-0.000238441	0.0004412348
	2.49082e-05	5.664673e-05	-0.001345616	-0.003157344	3.40297e-07	5.183103e-06	7.610119e-05	0.004548261
	-0.0004475209	0.0043325	3.40297e-07	5.183103e-06	-0.002521004	-0.003506822	-9.366655e-07	9.199768e-06
	-0.000238441	0.0004412348	7.610119e-05	0.004548261	-9.366655e-07	9.199768e-06	-0.001278023	-0.002947717
