!$
! Info: Touchstone file created by Circ.  Input file=Tx_6in_Rx_85ohms_TxVia_60mils_RxVia_70mils.circ
!$
# Hz S RI R 50
0	0.004959703	9.693166e-26	1.361114e-09	8.494349e-28	5.237909e-05	9.721024e-24	1.227689e-09	3.626895e-28
	1.361122e-09	8.494387e-28	0.004955007	1.122706e-25	9.374079e-10	1.225329e-27	5.258382e-05	1.199277e-23
	5.336144e-05	9.891429e-24	9.373967e-10	1.225302e-27	0.004973853	9.284561e-26	-3.30074e-09	4.536607e-25
	1.227687e-09	3.625654e-28	5.285367e-05	1.20442e-23	-3.300329e-09	4.536104e-25	0.004969549	1.117592e-25
1e+07	0.007442561	-0.005155472	2.506153e-09	3.679894e-09	0.0001343373	0.001281279	-2.249382e-09	3.060072e-08
	2.506153e-09	3.679894e-09	0.006625775	-0.005258144	1.629185e-09	2.626677e-09	0.0001788441	0.001285193
	0.0001343464	0.001281246	1.629185e-09	2.626677e-09	0.006655369	-0.005358	-6.323875e-09	1.769835e-08
	-2.249382e-09	3.060072e-08	0.0001788464	0.00128519	-6.323875e-09	1.769835e-08	0.006621126	-0.00524851
2e+07	0.008058396	-0.01231989	4.124863e-09	6.632072e-09	0.000385918	0.002538204	1.388456e-08	2.356944e-08
	4.124863e-09	6.632072e-09	0.007298817	-0.01219252	2.656306e-09	4.819483e-09	0.0004496849	0.002507654
	0.0003858913	0.002538203	2.656306e-09	4.819483e-09	0.007253239	-0.01236284	-4.084264e-09	6.502991e-09
	1.388456e-08	2.356944e-08	0.0004496817	0.002507655	-4.084264e-09	6.502991e-09	0.007299048	-0.01216816
3e+07	0.007205308	-0.02003437	6.436051e-09	8.592484e-09	0.0008255665	0.003710056	2.247945e-08	2.837503e-08
	6.436051e-09	8.592484e-09	0.006475854	-0.01981439	3.782506e-09	6.443734e-09	0.0008633143	0.003671585
	0.0008255641	0.00371006	3.782506e-09	6.443734e-09	0.006388037	-0.02000683	6.526599e-09	8.795782e-09
	2.247945e-08	2.837503e-08	0.0008633141	0.003671587	6.526599e-09	8.795782e-09	0.006478951	-0.01978011
4e+07	0.005118854	-0.0277428	9.116006e-09	1.022032e-08	0.001402825	0.004800608	3.197265e-08	3.295086e-08
	9.116006e-09	1.022032e-08	0.004401699	-0.02745372	5.276538e-09	7.921374e-09	0.001412797	0.004762424
	0.001402825	0.004800604	5.276538e-09	7.921374e-09	0.004295386	-0.02765589	9.8342e-09	1.091643e-08
	3.197265e-08	3.295086e-08	0.001412797	0.004762425	9.8342e-09	1.091643e-08	0.004406359	-0.02741103
5e+07	0.00191787	-0.035208	1.222328e-08	1.130257e-08	0.002106586	0.005795173	4.269173e-08	3.59047e-08
	1.222328e-08	1.130257e-08	0.001198639	-0.03485554	6.965295e-09	9.106154e-09	0.002087073	0.005763773
	0.002106584	0.005795171	6.965295e-09	9.106154e-09	0.001093447	-0.03506481	1.298627e-08	1.192397e-08
	4.269173e-08	3.59047e-08	0.002087074	0.005763773	1.298627e-08	1.192397e-08	0.001203386	-0.03480493
6e+07	-0.002300915	-0.04225856	1.565635e-08	1.172735e-08	0.002922663	0.006679015	5.441158e-08	3.664186e-08
	1.565635e-08	1.172735e-08	-0.00303341	-0.04184124	8.814517e-09	9.942483e-09	0.002872419	0.006660543
	0.002922665	0.006679019	8.814517e-09	9.942483e-09	-0.003121271	-0.04205996	1.639355e-08	1.223389e-08
	5.441158e-08	3.664186e-08	0.00287242	0.006660544	1.639355e-08	1.223389e-08	-0.0030298	-0.04178264
7e+07	-0.00744226	-0.04875508	1.928075e-08	1.142328e-08	0.003834673	0.007439006	6.671428e-08	3.484342e-08
	1.928075e-08	1.142328e-08	-0.008196664	-0.04826773	1.076751e-08	1.039672e-08	0.003753116	0.007439602
	0.003834682	0.007439011	1.076751e-08	1.039672e-08	-0.00825353	-0.04850104	2.003684e-08	1.185462e-08
	6.671428e-08	3.484342e-08	0.003753118	0.007439602	2.003684e-08	1.185462e-08	-0.008195274	-0.04820085
8e+07	-0.0134061	-0.05457993	2.294764e-08	1.035269e-08	0.004824486	0.008064225	7.910044e-08	3.035108e-08
	2.294764e-08	1.035269e-08	-0.01418892	-0.054015	1.275632e-08	1.044809e-08	0.004711843	0.008090133
	0.004824499	0.008064227	1.275632e-08	1.044809e-08	-0.01420301	-0.05426977	2.38251e-08	1.073741e-08
	7.910044e-08	3.035108e-08	0.004711844	0.008090132	2.38251e-08	1.073741e-08	-0.01419082	-0.05393934
9e+07	-0.02008558	-0.0596337	2.6504e-08	8.508995e-09	0.005872661	0.008546381	9.104025e-08	2.313514e-08
	2.6504e-08	8.508995e-09	-0.02090134	-0.05898214	1.470757e-08	1.008892e-08	0.005730121	0.008604048
	0.005872671	0.00854638	1.470757e-08	1.008892e-08	-0.02086206	-0.0592656	2.764214e-08	8.835293e-09
	9.104025e-08	2.313514e-08	0.005730122	0.008604047	2.764214e-08	8.835293e-09	-0.02090756	-0.05889691
1e+08	-0.02736726	-0.06383438	2.980243e-08	5.913104e-09	0.006959307	0.008880612	1.020067e-07	1.327976e-08
	2.980243e-08	5.913104e-09	-0.02821941	-0.0630876	1.654505e-08	9.325637e-09	0.006789697	0.008977568
	0.006959307	0.008880612	1.654505e-08	9.325637e-09	-0.02811274	-0.06340055	3.136219e-08	6.113303e-09
	1.020067e-07	1.327976e-08	0.006789697	0.008977568	3.136219e-08	6.113303e-09	-0.02823097	-0.06299189
1.1e+08	-0.03513218	-0.0671142	3.285665e-08	2.626667e-09	0.008065443	0.009060907	1.119713e-07	1.239101e-09
	3.285665e-08	2.626667e-09	-0.03602541	-0.0662545	1.821007e-08	8.199357e-09	0.007875761	0.00919939
	0.008065443	0.009060907	1.821007e-08	8.199357e-09	-0.03582	-0.06663523	3.457336e-08	2.644702e-09
	1.119713e-07	1.239101e-09	0.007875759	0.00919939	3.457336e-08	2.644702e-09	-0.03604318	-0.06614639
1.2e+08	-0.04325358	-0.0694249	3.54536e-08	-1.327733e-09	0.009165892	0.009088321	1.203033e-07	-1.302743e-08
	3.54536e-08	-1.327733e-09	-0.04418016	-0.06843617	1.964185e-08	6.720955e-09	0.008957697	0.009270967
	0.009165892	0.009088321	1.964185e-08	6.720955e-09	-0.04389073	-0.06891577	3.730311e-08	-1.522482e-09
	1.203033e-07	-1.302743e-08	0.008957695	0.009270968	3.730311e-08	-1.522482e-09	-0.04420395	-0.06831383
1.3e+08	-0.05160489	-0.07073487	3.747941e-08	-5.885633e-09	0.01024081	0.008967056	1.266183e-07	-2.927413e-08
	3.747941e-08	-5.885633e-09	-0.05255565	-0.06960406	2.077886e-08	4.927232e-09	0.01001711	0.009197578
	0.01024081	0.008967056	2.077886e-08	4.927232e-09	-0.05219464	-0.07020265	3.943317e-08	-6.321614e-09
	1.266183e-07	-2.927413e-08	0.01001711	0.009197579	3.943317e-08	-6.321614e-09	-0.05258507	-0.06946582
1.4e+08	-0.06005833	-0.07102841	3.882734e-08	-1.096261e-08	0.01127078	0.00870325	1.305693e-07	-4.719573e-08
	3.882734e-08	-1.096261e-08	-0.06102185	-0.06974413	2.156616e-08	2.863545e-09	0.01103549	0.008985214
	0.01127078	0.00870325	2.156616e-08	2.863545e-09	-0.06060318	-0.07047805	4.085208e-08	-1.166424e-08
	1.305693e-07	-4.719573e-08	0.01103549	0.008985215	4.085208e-08	-1.166424e-08	-0.06105624	-0.0695884
1.5e+08	-0.06848683	-0.07030574	3.940295e-08	-1.645717e-08	0.01223752	0.008305417	1.318563e-07	-6.643414e-08
	3.940295e-08	-1.645717e-08	-0.06944957	-0.06885843	2.195587e-08	5.835995e-10	0.0119953	0.008641956
	0.01223752	0.008305417	2.195587e-08	5.835995e-10	-0.06898886	-0.06974102	4.146113e-08	-1.744384e-08
	1.318563e-07	-6.643414e-08	0.0119953	0.008641957	4.146113e-08	-1.744384e-08	-0.06948798	-0.06868368
1.6e+08	-0.07676583	-0.06858259	3.91268e-08	-2.225254e-08	0.01312423	0.007784288	1.302335e-07	-8.658572e-08
	3.91268e-08	-2.225254e-08	-0.07771237	-0.06696473	2.190826e-08	-1.851555e-09	0.0128804	0.008177923
	0.01312423	0.007784288	2.190826e-08	-1.851555e-09	-0.07722684	-0.06800652	4.117737e-08	-2.353792e-08
	1.302335e-07	-8.658572e-08	0.0128804	0.008177923	4.117737e-08	-2.353792e-08	-0.07775354	-0.06676961
1.7e+08	-0.08477498	-0.06588955	3.793698e-08	-2.8219e-08	0.01391588	0.007152559	1.255156e-07	-1.072094e-07
	3.793698e-08	-2.8219e-08	-0.08568829	-0.06409599	2.139284e-08	-4.374716e-09	0.01367628	0.007605074
	0.01391588	0.007152559	2.139284e-08	-4.374716e-09	-0.08519653	-0.06530461	3.993623e-08	-2.981052e-08
	1.255156e-07	-1.072094e-07	0.01367628	0.007605075	3.993623e-08	-2.981052e-08	-0.08573073	-0.06387928
1.8e+08	-0.09239979	-0.06227122	3.579108e-08	-3.421651e-08	0.01459937	0.006424612	1.175829e-07	-1.278358e-07
	3.579108e-08	-3.421651e-08	-0.09326156	-0.06029936	2.038921e-08	-6.913897e-09	0.01437027	0.006936955
	0.01459937	0.006424612	2.038921e-08	-6.913897e-09	-0.09278321	-0.06167948	3.769357e-08	-3.611489e-08
	1.175829e-07	-1.278358e-07	0.01437027	0.006936955	3.769357e-08	-3.611489e-08	-0.09330355	-0.0600601
1.9e+08	-0.09953303	-0.05778522	3.266785e-08	-4.009763e-08	0.01516375	0.005616216	1.063848e-07	-1.479764e-07
	3.266785e-08	-4.009763e-08	-0.1003241	-0.05563525	1.888777e-08	-9.393833e-09	0.01495167	0.006188419
	0.01516375	0.005616216	1.888777e-08	-9.393833e-09	-0.09987945	-0.05718846	3.442738e-08	-4.229668e-08
	1.063848e-07	-1.479764e-07	0.01495167	0.006188419	3.442738e-08	-4.229668e-08	-0.1003637	-0.05537272
2e+08	-0.1060761	-0.05250105	2.856831e-08	-4.571079e-08	0.01560029	0.004744217	9.194237e-08	-1.671338e-07
	2.856831e-08	-4.571079e-08	-0.1067769	-0.0501761	1.689012e-08	-1.173756e-08	0.0154119	0.005375348
	0.01560029	0.004744217	1.689012e-08	-1.173756e-08	-0.1063865	-0.05190086	3.013892e-08	-4.81972e-08
	9.194237e-08	-1.671338e-07	0.0154119	0.005375348	3.013892e-08	-4.81972e-08	-0.106812	-0.04988988
2.1e+08	-0.1119403	-0.04649889	2.351637e-08	-5.090354e-08	0.01590258	0.003826235	7.434916e-08	-1.848118e-07
	2.351637e-08	-5.090354e-08	-0.112531	-0.04400508	1.440929e-08	-1.386806e-08	0.01574453	0.004514365
	0.01590258	0.003826235	1.440929e-08	-1.386806e-08	-0.1122153	-0.04589671	2.485341e-08	-5.365693e-08
	7.434916e-08	-1.848118e-07	0.01574453	0.004514365	2.485341e-08	-5.365693e-08	-0.1125594	-0.04369507
2.2e+08	-0.1170475	-0.03986822	1.755902e-08	-5.552605e-08	0.01606652	0.002880361	5.377066e-08	-2.005249e-07
	1.755902e-08	-5.552605e-08	-0.117509	-0.03721475	1.146971e-08	-1.57099e-08	0.01594529	0.003622558
	0.01606652	0.002880361	1.146971e-08	-1.57099e-08	-0.1172878	-0.03926545	1.862011e-08	-5.851911e-08
	5.377066e-08	-2.005249e-07	0.01594529	0.003622558	1.862011e-08	-5.851911e-08	-0.1175285	-0.03688118
2.3e+08	-0.1213315	-0.03270646	1.076585e-08	-5.943448e-08	0.01609034	0.001924872	3.044266e-08	-2.138089e-07
	1.076585e-08	-5.943448e-08	-0.1216454	-0.02990552	8.10693e-09	-1.719087e-08	0.01601209	0.002717219
	0.01609034	0.001924872	8.10693e-09	-1.719087e-08	-0.1215375	-0.03210447	1.151192e-08	-6.263323e-08
	3.044266e-08	-2.138089e-07	0.01601209	0.002717219	1.151192e-08	-6.263323e-08	-0.1216536	-0.02954897
2.4e+08	-0.1247382	-0.02511751	3.22822e-09	-6.249434e-08	0.01597455	0.0009779564	4.668249e-09	-2.2423e-07
	3.22822e-09	-6.249434e-08	-0.1248875	-0.0221842	4.367148e-09	-1.824354e-08	0.01594498	0.00181559
	0.01597455	0.0009779564	4.367148e-09	-1.824354e-08	-0.1249102	-0.02451768	3.624475e-09	-6.585857e-08
	4.668249e-09	-2.2423e-07	0.01594498	0.00181559	3.624475e-09	-6.585857e-08	-0.1248822	-0.02180562
2.5e+08	-0.1272264	-0.01721027	-4.942137e-09	-6.458366e-08	0.01572188	5.746097e-05	-2.318634e-08	-2.313937e-07
	-4.942137e-09	-6.458366e-08	-0.1271959	-0.01416244	3.064927e-10	-1.880675e-08	0.01574608	0.0009346321
	0.01572188	5.746097e-05	3.064927e-10	-1.880675e-08	-0.1273648	-0.01661403	-4.925325e-09	-6.806743e-08
	-2.318634e-08	-2.313937e-07	0.01574608	0.000934632	-4.925325e-09	-6.806743e-08	-0.127175	-0.01376309
2.6e+08	-0.1287683	-0.009097096	-1.361496e-08	-6.559594e-08	0.01533721	-0.0008193519	-5.269695e-08	-2.349539e-07
	-1.361496e-08	-6.559594e-08	-0.1285448	-0.0059551	-4.009865e-09	-1.882699e-08	0.01541949	9.080372e-05
	0.01533721	-0.0008193519	-4.009865e-09	-1.882699e-08	-0.1288733	-0.008505975	-1.400118e-08	-6.914829e-08
	-5.269695e-08	-2.349539e-07	0.01541949	9.080368e-05	-1.400118e-08	-6.914829e-08	-0.1285064	-0.005536613
2.7e+08	-0.1293493	-0.0008923383	-2.264368e-08	-6.544282e-08	0.01482741	-0.001636025	-8.338778e-08	-2.3462e-07
	-2.264368e-08	-6.544282e-08	-0.1289224	0.002321228	-8.508784e-09	-1.825962e-08	0.01497126	-0.0007001403
	0.01482741	-0.001636025	-8.508784e-09	-1.825962e-08	-0.1294211	-0.0003079486	-2.344974e-08	-6.900852e-08
	-8.338778e-08	-2.3462e-07	0.01497126	-0.0007001403	-2.344974e-08	-6.900852e-08	-0.1288646	0.00275692
2.8e+08	-0.1289683	0.007289217	-3.186806e-08	-6.405639e-08	0.01420129	-0.002377115	-1.147386e-07	-2.301642e-07
	-3.186806e-08	-6.405639e-08	-0.1283304	0.01054987	-1.311037e-08	-1.706995e-08	0.0144092	-0.001423339
	0.01420129	-0.002377115	-1.311037e-08	-1.706995e-08	-0.1290071	0.007865151	-3.310327e-08	-6.757686e-08
	-1.147386e-07	-2.301642e-07	0.0144092	-0.001423339	-3.310327e-08	-6.757686e-08	-0.1282517	0.01100054
2.9e+08	-0.1276375	0.01533381	-4.111704e-08	-6.139116e-08	0.01346943	-0.003028382	-1.461926e-07	-2.214281e-07
	-4.111704e-08	-6.139116e-08	-0.1267842	0.01861556	-1.772933e-08	-1.523418e-08	0.01374282	-0.002065003
	0.01346943	-0.003028382	-1.772933e-08	-1.523418e-08	-0.1276436	0.01589945	-4.278271e-08	-6.480543e-08
	-1.461926e-07	-2.214281e-07	0.01374282	-0.002065003	-4.278271e-08	-6.480543e-08	-0.1266834	0.01907873
3e+08	-0.1253823	0.02313019	-5.021197e-08	-5.742557e-08	0.01264403	-0.003576972	-1.771656e-07	-2.08327e-07
	-5.021197e-08	-5.742557e-08	-0.1243128	0.02640597	-2.227645e-08	-1.274014e-08	0.01298321	-0.00261258
	0.01264403	-0.003576972	-2.227645e-08	-1.274014e-08	-0.1253561	0.02368359	-5.230092e-08	-6.067138e-08
	-1.771656e-07	-2.08327e-07	0.01298321	-0.00261258	-5.230092e-08	-6.067138e-08	-0.1241889	0.02687895
3.1e+08	-0.1222407	0.03057105	-5.896994e-08	-5.216303e-08	0.01173879	-0.004011578	-2.070553e-07	-1.908551e-07
	-5.896994e-08	-5.216303e-08	-0.1209578	0.0338132	-2.66601e-08	-9.587766e-09	0.01214284	-0.003054908
	0.01173879	-0.004011578	-2.66601e-08	-9.587766e-09	-0.1221828	0.03111015	-6.146624e-08	-5.5178e-08
	-2.070553e-07	-1.908551e-07	0.01214284	-0.003054908	-6.146624e-08	-5.5178e-08	-0.1208102	0.03429313
3.2e+08	-0.1182631	0.03755437	-6.72072e-08	-4.563258e-08	0.01076867	-0.004322602	-2.352513e-07	-1.69088e-07
	-6.72072e-08	-4.563258e-08	-0.1167732	0.04073516	-3.078785e-08	-5.78954e-09	0.0112355	-0.003382368
	0.01076867	-0.004322602	-3.078785e-08	-5.78954e-09	-0.1181741	0.03807705	-7.008604e-08	-4.835538e-08
	-2.352513e-07	-1.69088e-07	0.0112355	-0.003382368	-7.008604e-08	-4.835538e-08	-0.1166019	0.04121902
3.3e+08	-0.113511	0.0439848	-7.474278e-08	-3.788906e-08	0.009749802	-0.00450229	-2.611459e-07	-1.431846e-07
	-7.474278e-08	-3.788906e-08	-0.1118246	0.04707687	-3.456822e-08	-1.370646e-09	0.01027606	-0.00358702
	0.009749802	-0.00450229	-3.456822e-08	-1.370646e-09	-0.1133918	0.04448884	-7.797042e-08	-4.026066e-08
	-2.611459e-07	-1.431846e-07	0.01027606	-0.00358702	-7.797042e-08	-4.026066e-08	-0.1116298	0.04756162
3.4e+08	-0.1080569	0.0497749	-8.142956e-08	-2.900027e-08	0.008699192	-0.004544869	-2.841372e-07	-1.133751e-07
	-8.142956e-08	-2.900027e-08	-0.1061883	0.05275181	-3.791056e-08	3.631107e-09	0.009280331	-0.003662729
	0.008699192	-0.004544869	-3.791056e-08	3.631107e-09	-0.1079086	0.05025801	-8.496338e-08	-3.096474e-08
	-2.841372e-07	-1.133751e-07	0.009280331	-0.003662729	-8.496338e-08	-3.096474e-08	-0.1059706	0.05323443
3.5e+08	-0.101983	0.05484622	-8.707623e-08	-1.907888e-08	0.007634571	-0.004446655	-3.036587e-07	-8.00006e-08
	-8.707623e-08	-1.907888e-08	-0.09995017	0.05768306	-4.073149e-08	9.165252e-09	0.008264878	-0.003605285
	0.007634571	-0.004446655	-4.073149e-08	9.165252e-09	-0.1018069	0.05530614	-9.086527e-08	-2.058557e-08
	-3.036587e-07	-8.00006e-08	0.008264878	-0.003605285	-9.086527e-08	-2.058557e-08	-0.09971077	0.05816055
3.6e+08	-0.0953801	0.05913049	-9.152645e-08	-8.25511e-09	0.006574137	-0.004206159	-3.191794e-07	-4.34717e-08
	-9.152645e-08	-8.25511e-09	-0.09320467	0.06180435	-4.295239e-08	1.516976e-08	0.007246792	-0.003412508
	0.006574137	-0.004206159	-4.295239e-08	1.516976e-08	-0.09517785	0.05956496	-9.551194e-08	-9.259544e-09
	-3.191794e-07	-4.34717e-08	0.007246792	-0.003412508	-9.551194e-08	-9.259544e-09	-0.09294511	0.06227382
3.7e+08	-0.0883466	0.06257053	-9.464458e-08	3.320923e-09	0.005536309	-0.003824162	-3.302147e-07	-4.274242e-09
	-9.464458e-08	3.320923e-09	-0.08605357	0.06506105	-4.450188e-08	2.157142e-08	0.006243471	-0.00308433
	0.005536309	-0.003824162	-4.450188e-08	2.157142e-08	-0.08812001	0.06297735	-9.876065e-08	2.8559e-09
	-3.302147e-07	-4.274242e-09	0.006243471	-0.00308433	-9.876065e-08	2.8559e-09	-0.08577581	0.0655198
3.8e+08	-0.08098707	0.06512111	-9.631432e-08	1.547969e-08	0.004539458	-0.003303766	-3.363392e-07	3.70338e-08
	-9.631432e-08	1.547969e-08	-0.07860457	0.06741095	-4.531749e-08	2.828666e-08	0.005272372	-0.002622865
	0.004539458	-0.003303766	-4.531749e-08	2.828666e-08	-0.08073827	0.06549817	-1.00489e-07	1.558284e-08
	-3.363392e-07	3.70338e-08	0.005272372	-0.002622865	-1.00489e-07	1.558284e-08	-0.07831096	0.06785649
3.9e+08	-0.07341095	0.06674966	-9.644136e-08	2.803482e-08	0.003601622	-0.002650428	-3.371968e-07	7.982915e-08
	-9.644136e-08	2.803482e-08	-0.07096978	0.06882497	-4.534721e-08	3.522262e-08	0.004350745	-0.002032445
	0.003601622	-0.002650428	-4.534721e-08	3.522262e-08	-0.07314233	0.06709499	-1.005974e-07	2.872549e-08
	-3.371968e-07	7.982915e-08	0.004350745	-0.002032445	-1.005974e-07	2.872549e-08	-0.07066307	0.06925511
4e+08	-0.06573099	0.06743681	-9.495568e-08	4.078596e-08	0.002740211	-0.001871945	-3.325106e-07	1.234316e-07
	-9.495568e-08	4.078596e-08	-0.06326426	0.06928762	-4.455075e-08	4.227842e-08	0.003495357	-0.001319627
	0.002740211	-0.001871945	-4.455075e-08	4.227842e-08	-0.06544523	0.06774861	-9.901228e-08	4.207325e-08
	-3.325106e-07	1.234316e-07	0.003495357	-0.001319627	-9.901228e-08	4.207325e-08	-0.06294749	0.06970051
4.1e+08	-0.05806172	0.06717679	-9.181347e-08	5.352197e-08	0.001971698	-0.0009784098	-3.220922e-07	1.67114e-07
	-9.181347e-08	5.352197e-08	-0.05560432	0.0687974	-4.290074e-08	4.934657e-08	0.002722193	-0.0004931734
	0.001971698	-0.0009784098	-4.290074e-08	4.934657e-08	-0.05776175	0.06745348	-9.568721e-08	5.540405e-08
	-3.220922e-07	1.67114e-07	0.002722193	-0.0004931734	-9.568721e-08	5.540405e-08	-0.05528085	0.06919158
4.2e+08	-0.05051783	0.06597762	-8.69986e-08	6.602432e-08	0.001311301	1.787348e-05	-3.058495e-07	2.101134e-07
	-8.69986e-08	6.602432e-08	-0.04810587	0.06736689	-4.03838e-08	5.631458e-08	0.002046166	0.0004360249
	0.001311301	1.787348e-05	-4.03838e-08	5.631458e-08	-0.05020682	0.06621789	-9.06052e-08	6.848792e-08
	-3.058495e-07	2.101134e-07	0.002046166	0.0004360249	-9.06052e-08	6.848792e-08	-0.04777931	0.06774134
4.3e+08	-0.04321251	0.06386117	-8.052377e-08	7.807069e-08	0.0007726794	0.001102528	-2.837927e-07	2.516445e-07
	-8.052377e-08	7.807069e-08	-0.04088275	0.06502269	-3.700138e-08	6.306674e-08	0.001480806	0.001455054
	0.0007726794	0.001102528	-3.700138e-08	6.306674e-08	-0.04289383	0.06406398	-8.377964e-08	8.109086e-08
	-2.837927e-07	2.516445e-07	0.001480806	0.001455054	-8.377964e-08	8.109086e-08	-0.04055686	0.06537686
4.4e+08	-0.03625576	0.0608629	-7.243105e-08	8.943873e-08	0.0003676254	0.002259283	-2.560395e-07	2.909124e-07
	-7.243105e-08	8.943873e-08	-0.03404494	0.06180521	-3.277037e-08	6.948605e-08	0.001037974	0.002549139
	0.0003676254	0.002259283	-3.277037e-08	6.948605e-08	-0.03593297	0.06102757	-7.525498e-08	9.297876e-08
	-2.560395e-07	2.909124e-07	0.001037974	0.002549139	-7.525498e-08	9.297876e-08	-0.03372364	0.06213903
4.5e+08	-0.02975272	0.05703152	-6.279208e-08	9.990985e-08	0.0001057808	0.00347021	-2.228176e-07	3.271289e-07
	-6.279208e-08	9.990985e-08	-0.02769692	0.05776809	-2.772356e-08	7.545627e-08	0.0007275754	0.003701847
	0.0001057808	0.00347021	-2.772356e-08	7.545627e-08	-0.02942953	0.05715773	-6.510691e-08	1.039215e-07
	-2.228176e-07	3.271289e-07	0.0007275754	0.003701847	-6.510691e-08	1.039215e-07	-0.02738418	0.05808205
4.6e+08	-0.02380206	0.05242834	-5.17077e-08	1.092731e-07	-5.620695e-06	0.004716002	-1.844655e-07	3.595268e-07
	-5.17077e-08	1.092731e-07	-0.02193603	0.05297761	-2.190973e-08	8.086405e-08	0.000557311	0.004895349
	-5.620695e-06	0.004716002	-2.190973e-08	8.086405e-08	-0.0234823	0.05251617	-5.344204e-08	1.136971e-07
	-1.844655e-07	3.595268e-07	0.000557311	0.004895349	-5.344204e-08	1.136971e-07	-0.02163581	0.05327271
4.7e+08	-0.01849444	0.0471265	-3.93072e-08	1.173289e-07	3.802449e-05	0.005976295	-1.414306e-07	3.873767e-07
	-3.93072e-08	1.173289e-07	-0.01685089	0.04751168	-1.539352e-08	8.560114e-08	0.0005324487	0.006110711
	3.802449e-05	0.005976295	-1.539352e-08	8.560114e-08	-0.01818196	0.04717643	-4.039702e-08	1.220957e-07
	-1.414306e-07	3.873767e-07	0.0005324487	0.006110711	-4.039702e-08	1.220957e-07	-0.01656706	0.04778947
