!$
! Info: Touchstone file created by Circ.  Input file=Tx_8in_Rx_93ohms_TxVia_60mils_RxVia_70mils.circ
!$
# Hz S RI R 50
0	0.007439078	1.141314e-25	-4.324823e-05	2.451027e-26	6.332921e-05	1.42868e-23	-4.324618e-05	-3.169196e-26
	-4.324823e-05	2.407548e-26	0.007434611	1.384184e-25	-4.324766e-05	2.725552e-26	6.303628e-05	1.80735e-23
	6.441303e-05	1.438227e-23	-4.324766e-05	2.713175e-26	0.007454549	1.141253e-25	-4.324774e-05	1.492059e-25
	-4.324617e-05	-3.258165e-26	6.3306e-05	1.815101e-23	-4.324774e-05	1.488756e-25	0.00744908	1.378012e-25
1e+07	0.01028089	-0.000325461	-1.773459e-06	-1.603421e-05	0.0002480077	0.001505757	-1.79774e-06	-1.644995e-05
	-1.773459e-06	-1.603421e-05	0.01087871	-0.0004181899	-5.145316e-06	-3.02456e-06	0.0002548177	0.001624728
	0.0002480389	0.001505761	-5.145316e-06	-3.02456e-06	0.01105843	5.574225e-05	-1.724262e-05	-4.016069e-06
	-1.79774e-06	-1.644995e-05	0.0002548201	0.001624725	-1.724262e-05	-4.016069e-06	0.01067129	-0.0004225293
2e+07	0.01243207	-0.003181367	-5.762348e-06	-1.068334e-05	0.0006833123	0.003010969	-6.238932e-06	-1.134188e-05
	-5.762348e-06	-1.068334e-05	0.01279222	-0.003546097	-2.017453e-05	-1.663397e-05	0.0006075719	0.003230935
	0.0006833265	0.00301095	-2.017453e-05	-1.663397e-05	0.0134569	-0.002861772	-1.831784e-05	3.121368e-06
	-6.238932e-06	-1.134188e-05	0.0006075689	0.003230936	-1.831784e-05	3.121368e-06	0.01263508	-0.003479641
3e+07	0.01326406	-0.007185149	-8.964143e-06	-8.687493e-06	0.001348639	0.004413222	-9.795023e-06	-9.321399e-06
	-8.964143e-06	-8.687493e-06	0.01341627	-0.00762109	-3.159836e-05	-1.704535e-05	0.00125851	0.004677655
	0.001348639	0.004413219	-3.159836e-05	-1.704535e-05	0.01446875	-0.00697665	-1.959436e-05	3.834589e-06
	-9.795023e-06	-9.321399e-06	0.00125851	0.004677657	-1.959436e-05	3.834589e-06	0.01329573	-0.007539503
4e+07	0.01306166	-0.01149891	-1.153443e-05	-6.645054e-06	0.002226347	0.005677614	-1.265526e-05	-7.158949e-06
	-1.153443e-05	-6.645054e-06	0.0130191	-0.01193771	-4.078154e-05	-1.347759e-05	0.00216238	0.005960096
	0.002226351	0.005677618	-4.078154e-05	-1.347759e-05	0.01439677	-0.01144139	-2.037723e-05	5.511011e-06
	-1.265526e-05	-7.158949e-06	0.002162381	0.005960097	-2.037723e-05	5.511011e-06	0.0129265	-0.01185595
5e+07	0.01194716	-0.01582873	-1.35483e-05	-4.331444e-06	0.003289651	0.006769907	-1.49084e-05	-4.660202e-06
	-1.35483e-05	-4.331444e-06	0.01172175	-0.01622132	-4.805531e-05	-7.513544e-06	0.003243603	0.007061246
	0.003289655	0.006769909	-4.805531e-05	-7.513544e-06	0.01336855	-0.01594953	-2.072047e-05	7.644005e-06
	-1.49084e-05	-4.660202e-06	0.003243604	0.007061246	-2.072047e-05	7.644005e-06	0.01164929	-0.01614711
6e+07	0.0100131	-0.01997931	-1.50251e-05	-1.740386e-06	0.004505865	0.007661483	-1.657783e-05	-1.830857e-06
	-1.50251e-05	-1.740386e-06	0.009619576	-0.02028469	-5.351181e-05	1.666557e-07	0.004470106	0.007956726
	0.004505862	0.007661482	-5.351181e-05	1.666557e-07	0.01147848	-0.0202967	-2.063754e-05	1.003839e-05
	-1.657783e-05	-1.830857e-06	0.004470107	0.007956726	-2.063754e-05	1.003839e-05	0.0095601	-0.02022239
7e+07	0.007349628	-0.02379983	-1.595716e-05	1.094191e-06	0.005838045	0.008330129	-1.765426e-05	1.290876e-06
	-1.595716e-05	1.094191e-06	0.006806642	-0.0239821	-5.712195e-05	9.168383e-06	0.005805427	0.0086268
	0.005838034	0.008330129	-5.712195e-05	9.168383e-06	0.008817243	-0.02432497	-2.012551e-05	1.258555e-05
	-1.765426e-05	1.290876e-06	0.005805429	0.008626799	-2.012551e-05	1.258555e-05	0.00675335	-0.02393413
8e+07	0.004052766	-0.02716796	-1.631365e-05	4.137057e-06	0.007246365	0.008760703	-1.810074e-05	4.670506e-06
	-1.631365e-05	4.137057e-06	0.003383488	-0.02719501	-5.876415e-05	1.924728e-05	0.007209969	0.009057652
	0.007246351	0.008760706	-5.876415e-05	1.924728e-05	0.005480439	-0.02790661	-1.930387e-05	1.503515e-05
	-1.810074e-05	4.670506e-06	0.00720997	0.009057651	-1.930387e-05	1.503515e-05	0.003329699	-0.02716238
9e+07	0.0002270982	-0.02998424	-1.60191e-05	7.377284e-06	0.008689928	0.00894604	-1.783055e-05	8.312464e-06
	-1.60191e-05	7.377283e-06	-0.0005394549	-0.02982641	-5.815711e-05	3.032572e-05	0.008642184	0.009242089
	0.008689917	0.008946045	-5.815711e-05	3.032572e-05	0.001569981	-0.03093923	-1.914709e-05	1.626737e-05
	-1.783055e-05	8.312464e-06	0.008642184	0.009242088	-1.914709e-05	1.626737e-05	-0.000600487	-0.02980908
1e+08	-0.004010422	-0.032167	-1.470009e-05	1.102356e-05	0.01013368	0.008892595	-1.641295e-05	1.247027e-05
	-1.470009e-05	1.102356e-05	-0.004829804	-0.03178905	-5.394394e-05	4.316249e-05	0.01005979	0.009179541
	0.01013368	0.008892595	-5.394394e-05	4.316249e-05	-0.002817486	-0.03335376	-1.927129e-05	1.709013e-05
	-1.641295e-05	1.247027e-05	0.01005979	0.009179541	-1.927129e-05	1.709013e-05	-0.004906702	-0.03178778
1.1e+08	-0.008532992	-0.03369112	-1.188829e-05	1.307475e-05	0.01149594	0.008622072	-1.324479e-05	1.485727e-05
	-1.188829e-05	1.307475e-05	-0.009339364	-0.03312993	-4.421927e-05	5.06317e-05	0.01141945	0.00887871
	0.01149594	0.008622072	-4.421927e-05	5.06317e-05	-0.007585691	-0.03499726	-1.865247e-05	1.70776e-05
	-1.324479e-05	1.485727e-05	0.01141945	0.00887871	-1.865247e-05	1.70776e-05	-0.009443346	-0.03313094
1.2e+08	-0.01325285	-0.03450765	-9.515703e-06	1.436645e-05	0.01275457	0.008108288	-1.131629e-05	1.577929e-05
	-9.515703e-06	1.436645e-05	-0.01404593	-0.0337759	-3.904816e-05	5.308899e-05	0.01268384	0.008354447
	0.01275457	0.008108288	-3.904816e-05	5.308899e-05	-0.012518	-0.03587068	-1.772098e-05	1.749385e-05
	-1.131629e-05	1.577929e-05	0.01268383	0.008354448	-1.772098e-05	1.749385e-05	-0.01417359	-0.03377068
1.3e+08	-0.01804267	-0.03459388	-8.839246e-06	1.435203e-05	0.01387963	0.007381527	-1.078738e-05	1.566995e-05
	-8.839246e-06	1.435203e-05	-0.01880919	-0.0336931	-3.681902e-05	5.333547e-05	0.01381678	0.007626685
	0.01387963	0.007381527	-3.681902e-05	5.333547e-05	-0.01750471	-0.03597854	-1.667606e-05	1.805664e-05
	-1.078738e-05	1.566995e-05	0.01381678	0.007626686	-1.667606e-05	1.805664e-05	-0.01895852	-0.03367612
1.4e+08	-0.02278072	-0.0339519	-8.240526e-06	1.433461e-05	0.0148392	0.006470733	-1.017254e-05	1.568978e-05
	-8.240526e-06	1.433461e-05	-0.0235035	-0.03288376	-3.428419e-05	5.389169e-05	0.01478624	0.006721467
	0.0148392	0.006470733	-3.428419e-05	5.389169e-05	-0.02242593	-0.03533064	-1.555167e-05	1.864436e-05
	-1.017254e-05	1.568978e-05	0.01478623	0.006721468	-1.555167e-05	1.864436e-05	-0.02367219	-0.03285037
1.5e+08	-0.02734988	-0.03260364	-7.59089e-06	1.437398e-05	0.01560572	0.005408768	-9.49617e-06	1.578312e-05
	-7.59089e-06	1.437398e-05	-0.0280097	-0.031372	-3.152296e-05	5.459388e-05	0.01556515	0.005669786
	0.01560572	0.005408768	-3.152296e-05	5.459388e-05	-0.02716452	-0.0339536	-1.436095e-05	1.923116e-05
	-9.49617e-06	1.578312e-05	0.01556515	0.005669787	-1.436095e-05	1.923116e-05	-0.02819496	-0.03131825
1.6e+08	-0.03163993	-0.03058927	-6.902333e-06	1.444303e-05	0.01615737	0.004232158	-8.771092e-06	1.591793e-05
	-6.902333e-06	1.444303e-05	-0.03221664	-0.02920115	-2.857888e-05	5.534281e-05	0.01613221	0.004506607
	0.01615737	0.004232158	-2.857888e-05	5.534281e-05	-0.03160972	-0.03189117	-1.311686e-05	1.978628e-05
	-8.771092e-06	1.591793e-05	0.01613221	0.004506607	-1.311686e-05	1.978628e-05	-0.03241519	-0.02912375
1.7e+08	-0.03554992	-0.02796558	-6.182365e-06	1.452366e-05	0.0164787	0.002980243	-8.004914e-06	1.607262e-05
	-6.182365e-06	1.452366e-05	-0.03602343	-0.02643157	-2.548142e-05	5.607036e-05	0.01647236	0.003269815
	0.0164787	0.002980243	-2.548142e-05	5.607036e-05	-0.03565994	-0.02920317	-1.182666e-05	2.02957e-05
	-8.004914e-06	1.607262e-05	0.01647236	0.003269815	-1.182666e-05	2.02957e-05	-0.03623156	-0.02632792
1.8e+08	-0.03899031	-0.02480403	-5.436234e-06	1.460291e-05	0.01656111	0.001694121	-7.202904e-06	1.623148e-05
	-5.436234e-06	1.460291e-05	-0.0393415	-0.02313851	-2.225369e-05	5.672655e-05	0.01657715	0.001999112
	0.01656111	0.001694121	-2.225369e-05	5.672655e-05	-0.03922507	-0.02596382	-1.049644e-05	2.07488e-05
	-7.202904e-06	1.623148e-05	0.01657715	0.001999112	-1.049644e-05	2.07488e-05	-0.03955517	-0.02300676
1.9e+08	-0.04188488	-0.0211887	-4.668072e-06	1.467103e-05	0.01640304	0.0004155753	-6.369258e-06	1.638246e-05
	-4.668072e-06	1.467103e-05	-0.04209648	-0.01940973	-1.89162e-05	5.727299e-05	0.01644496	0.00073488
	0.01640304	0.0004155753	-1.89162e-05	5.727299e-05	-0.04222847	-0.02225976	-9.131884e-06	2.113716e-05
	-6.369258e-06	1.638246e-05	0.01644496	0.0007348801	-9.131884e-06	2.113716e-05	-0.04231141	-0.01924879
2e+08	-0.04417324	-0.01721313	-3.881629e-06	1.471812e-05	0.01601132	-0.000844865	-5.507674e-06	1.651508e-05
	-3.881629e-06	1.471812e-05	-0.04422969	-0.01534299	-1.548858e-05	5.767891e-05	0.0160809	-0.0004829514
	0.01601132	-0.000844865	-1.548858e-05	5.767891e-05	-0.04460946	-0.01818695	-7.738717e-06	2.145327e-05
	-5.507674e-06	1.651508e-05	0.0160809	-0.0004829513	-7.738717e-06	2.145327e-05	-0.04444151	-0.01515258
2.1e+08	-0.04580907	-0.01297989	-3.080263e-06	1.474045e-05	0.01539249	-0.002015396	-4.621814e-06	1.662237e-05
	-3.080263e-06	1.474045e-05	-0.04569929	-0.0110434	-1.199033e-05	5.792088e-05	0.01549666	-0.001616008
	0.01539249	-0.002015396	-1.199033e-05	5.792088e-05	-0.04632168	-0.01385029	-6.322827e-06	2.169214e-05
	-4.621814e-06	1.662237e-05	0.01549666	-0.001616008	-6.322827e-06	2.169214e-05	-0.04590366	-0.01082399
2.2e+08	-0.04676394	-0.00859624	-2.267105e-06	1.47332e-05	0.01456581	-0.003056994	-3.715229e-06	1.669787e-05
	-2.267105e-06	1.47332e-05	-0.04648102	-0.006620548	-8.441195e-06	5.797992e-05	0.0147101	-0.002628516
	0.01456581	-0.003056994	-8.441195e-06	5.797992e-05	-0.04733682	-0.009359244	-4.890315e-06	2.184919e-05
	-3.715229e-06	1.669787e-05	0.0147101	-0.002628516	-4.890315e-06	2.184919e-05	-0.04667374	-0.006373417
2.3e+08	-0.04702682	-0.004171856	-1.445277e-06	1.469225e-05	0.01355665	-0.003936457	-2.79156e-06	1.673611e-05
	-1.445277e-06	1.469225e-05	-0.04656846	-0.002185791	-4.861223e-06	5.784123e-05	0.01374473	-0.003488259
	0.01355665	-0.003936457	-4.861223e-06	5.784123e-05	-0.04764418	-0.004825575	-3.447564e-06	2.192067e-05
	-2.79156e-06	1.673611e-05	0.01374473	-0.003488259	-3.447564e-06	2.192067e-05	-0.04674564	-0.001912933
2.4e+08	-0.04660408	0.0001838665	-6.18024e-07	1.461423e-05	0.01239545	-0.004625364	-1.854679e-06	1.673253e-05
	-6.18024e-07	1.461423e-05	-0.045973	0.002150634	-1.270985e-06	5.749389e-05	0.01262904	-0.00416744
	0.01239545	-0.004625364	-1.270985e-06	5.749389e-05	-0.04725065	-0.0003606527	-2.001261e-06	2.190373e-05
	-1.854679e-06	1.673253e-05	0.01262904	-0.004167441	-2.001261e-06	2.190373e-05	-0.04613114	0.002446549
2.5e+08	-0.0455191	0.004364464	2.113382e-07	1.449637e-05	0.01111694	-0.005100822	-9.086087e-07	1.668335e-05
	2.113382e-07	1.449637e-05	-0.04472323	0.006282315	2.30885e-06	5.693032e-05	0.01139568	-0.004643421
	0.01111694	-0.005100822	2.308851e-06	5.693032e-05	-0.04618029	0.003927218	-5.583252e-07	2.179635e-05
	-9.086087e-07	1.668335e-05	0.01139568	-0.004643421	-5.583252e-07	2.179635e-05	-0.04485935	0.006598024
2.6e+08	-0.04381153	0.008268965	1.039253e-06	1.433634e-05	0.009759125	-0.005346084	4.24282e-08	1.658552e-05
	1.039253e-06	1.433634e-05	-0.0428641	0.01010932	5.856729e-06	5.614443e-05	0.01008057	-0.004899314
	0.009759125	-0.005346084	5.856729e-06	5.614443e-05	-0.04447365	0.007935376	8.741312e-07	2.159736e-05
	4.24282e-08	1.658552e-05	0.01008057	-0.004899314	8.741312e-07	2.159736e-05	-0.04297582	0.01044102
2.7e+08	-0.04153616	0.01180431	1.862258e-06	1.413255e-05	0.008362253	-0.005350987	9.940607e-07	1.643661e-05
	1.862258e-06	1.413255e-05	-0.04045555	0.01354051	9.352624e-06	5.513636e-05	0.008721934	-0.004924442
	0.008362253	-0.005350987	9.352624e-06	5.513636e-05	-0.04218651	0.01156921	2.288877e-06	2.130634e-05
	9.940607e-07	1.643661e-05	0.008721934	-0.004924442	2.288877e-06	2.130634e-05	-0.04054118	0.01388406
2.8e+08	-0.03876144	0.01488756	2.676716e-06	1.388385e-05	0.006967703	-0.005112243	1.941779e-06	1.623492e-05
	2.676716e-06	1.388385e-05	-0.03757091	0.01649585	1.277655e-05	5.390767e-05	0.007359235	-0.004714621
	0.006967703	-0.005112243	1.277655e-05	5.390767e-05	-0.03938852	0.01474441	3.67863e-06	2.092373e-05
	1.941779e-06	1.623492e-05	0.007359235	-0.004714621	3.67863e-06	2.092373e-05	-0.0376295	0.01684683
2.9e+08	-0.03556774	0.01744786	3.478903e-06	1.358952e-05	0.00561685	-0.004633531	2.880997e-06	1.597934e-05
	3.478903e-06	1.358952e-05	-0.03429492	0.01890824	1.610905e-05	5.246205e-05	0.006032111	-0.00427229
	0.00561685	-0.004633531	1.610905e-05	5.246205e-05	-0.03616131	0.01738892	5.036148e-06	2.045078e-05
	2.880997e-06	1.597934e-05	0.006032111	-0.00427229	5.036148e-06	2.045078e-05	-0.03432634	0.01926211
3e+08	-0.03204525	0.01942807	4.265052e-06	1.324928e-05	0.004349917	-0.003925415	3.807097e-06	1.566931e-05
	4.265052e-06	1.324928e-05	-0.03072156	0.02072515	1.933143e-05	5.08054e-05	0.004779286	-0.003606458
	0.004349917	-0.003925415	1.933143e-05	5.08054e-05	-0.03259647	0.01944459	6.354307e-06	1.988948e-05
	3.807097e-06	1.566931e-05	0.004779286	-0.003606458	6.354307e-06	1.988948e-05	-0.03072645	0.02107739
3.1e+08	-0.02829172	0.02078612	5.031395e-06	1.286334e-05	0.003204855	-0.00300508	4.715492e-06	1.530494e-05
	5.031395e-06	1.286334e-05	-0.02695159	0.02190982	2.242608e-05	4.894582e-05	0.003637506	-0.002732486
	0.003204855	-0.00300508	2.242608e-05	4.894582e-05	-0.02879324	0.02086853	7.626208e-06	1.924262e-05
	4.715492e-06	1.530494e-05	0.003637506	-0.002732486	7.626208e-06	1.924262e-05	-0.02693138	0.02225603
3.2e+08	-0.02441002	0.02149596	5.774192e-06	1.243234e-05	0.002216268	-0.00189589	5.601669e-06	1.488684e-05
	5.774192e-06	1.243234e-05	-0.02308996	0.02244206	2.53765e-05	4.689322e-05	0.002640506	-0.001671697
	0.002216268	-0.00189589	2.53765e-05	4.689322e-05	-0.02485601	0.02163409	8.845235e-06	1.851366e-05
	5.601669e-06	1.488684e-05	0.002640506	-0.001671697	8.845235e-06	1.851366e-05	-0.02304684	0.02277813
3.3e+08	-0.02050555	0.02154814	6.489767e-06	1.19573e-05	0.001414423	-0.0006267681	6.461239e-06	1.44161e-05
	6.489767e-06	1.19573e-05	-0.01924315	0.02231869	2.81675e-05	4.465906e-05	0.001818057	-0.000450818
	0.001414423	-0.0006267681	2.81675e-05	4.465906e-05	-0.02089175	0.02173139	1.000513e-05	1.770672e-05
	6.461239e-06	1.44161e-05	0.001818057	-0.0004508179	1.000513e-05	1.770672e-05	-0.01918001	0.02264092
3.4e+08	-0.01668359	0.02094995	7.174571e-06	1.14397e-05	0.0008243577	0.000768577	7.290016e-06	1.389436e-05
	7.174571e-06	1.14397e-05	-0.01551645	0.02155353	3.078536e-05	4.225637e-05	0.001195098	0.0008987307
	0.0008243577	0.000768577	3.078536e-05	4.225637e-05	-0.01700735	0.02116756	1.110008e-05	1.682652e-05
	7.290016e-06	1.389436e-05	0.001195098	0.0008987307	1.110008e-05	1.682652e-05	-0.01543682	0.02185873
3.5e+08	-0.01304672	0.01972521	7.825192e-06	1.088138e-05	0.0004651296	0.002252571	8.084025e-06	1.332367e-05
	7.825192e-06	1.088138e-05	-0.01201129	0.02017695	3.321788e-05	3.969931e-05	0.000791002	0.002341682
	0.0004651296	0.002252571	3.321788e-05	3.969931e-05	-0.01330695	0.01996643	1.212477e-05	1.587832e-05
	8.084025e-06	1.332367e-05	0.000791002	0.002341682	1.212477e-05	1.587832e-05	-0.01191922	0.02046256
3.6e+08	-0.009692211	0.01791359	8.438418e-06	1.028455e-05	0.0003492134	0.003784816	8.839582e-06	1.270648e-05
	8.438418e-06	1.028455e-05	-0.008822671	0.01823502	3.545446e-05	3.700306e-05	0.000618973	0.003839894
	0.0003492134	0.003784816	3.545446e-05	3.700306e-05	-0.009889361	0.01816789	1.307441e-05	1.486784e-05
	8.839582e-06	1.270648e-05	0.000618973	0.003839894	1.307441e-05	1.486784e-05	-0.008722639	0.01849919
3.7e+08	-0.006709641	0.01556956	9.011258e-06	9.651745e-06	0.0004820833	0.005323229	9.553301e-06	1.204557e-05
	9.011258e-06	9.651745e-06	-0.006036756	0.01578826	3.748615e-05	3.418355e-05	0.0006856201	0.005353415
	0.0004820833	0.005323229	3.748615e-05	3.418355e-05	-0.006845635	0.01582684	1.394482e-05	1.380119e-05
	9.553301e-06	1.204557e-05	0.0006856202	0.005353415	1.394482e-05	1.380119e-05	-0.005933552	0.01602993
3.8e+08	-0.004178633	0.012761	9.540974e-06	8.985788e-06	0.0008619868	0.006825244	1.022213e-05	1.134404e-05
	9.540974e-06	8.985788e-06	-0.003728708	0.01291003	3.930566e-05	3.125724e-05	0.0009907093	0.006841619
	0.0008619868	0.006825244	3.930566e-05	3.125724e-05	-0.004256774	0.01301179	1.473238e-05	1.268479e-05
	1.022213e-05	1.134404e-05	0.0009907093	0.006841619	1.473238e-05	1.268479e-05	-0.003627278	0.01312897
3.9e+08	-0.002166892	0.009567388	1.002512e-05	8.289775e-06	0.001479928	0.008249054	1.084336e-05	1.06052e-05
	1.002512e-05	8.289775e-06	-0.001960791	0.009684569	4.090735e-05	2.824096e-05	0.001527112	0.008264374
	0.001479928	0.008249054	4.090735e-05	2.824096e-05	-0.002191748	0.009803016	1.543415e-05	1.15253e-05
	1.084336e-05	1.06052e-05	0.001527112	0.008264374	1.543415e-05	1.15253e-05	-0.001866106	0.0098814
4e+08	-0.0007285237	0.006077814	1.046153e-05	7.56702e-06	0.002319863	0.009554839	1.141466e-05	9.832554e-06
	1.046153e-05	7.56702e-06	-0.00078083	0.006204799	4.228717e-05	2.515163e-05	0.002280958	0.009583217
	0.002319863	0.009554839	4.228717e-05	2.515163e-05	-0.0007057863	0.006290562	1.604776e-05	1.032953e-05
	1.141466e-05	9.832554e-06	0.002280958	0.009583217	1.604776e-05	1.032953e-05	-0.000697735	0.006381005
4.1e+08	9.72948e-05	0.002388648	1.084841e-05	6.821026e-06	0.00335911	0.01070596	1.193403e-05	9.029739e-06
	1.084841e-05	6.821026e-06	-0.0002210325	0.00256987	4.344264e-05	2.200621e-05	0.003231987	0.01076249
	0.00335911	0.01070596	4.344264e-05	2.200621e-05	0.0001609679	0.002571901	1.657151e-05	9.104403e-06
	1.193403e-05	9.029739e-06	0.003231987	0.01076249	1.657151e-05	9.104403e-06	-0.0001541026	0.002727759
4.2e+08	0.0002872535	-0.001398913	1.118427e-05	6.055435e-06	0.004568961	0.01167007	1.239988e-05	8.200479e-06
	1.118427e-05	6.055435e-06	-0.0002972306	-0.001117423	4.437277e-05	1.882139e-05	0.004354099	0.01177041
	0.004568961	0.01167007	4.437277e-05	1.882139e-05	0.0003844206	-0.001250554	1.70043e-05	7.856848e-06
	1.239988e-05	8.200479e-06	0.004354099	0.01177041	1.70043e-05	7.856848e-06	-0.0002506313	-0.0009747646
4.3e+08	-0.0001655447	-0.00518143	1.1468e-05	5.273988e-06	0.005915488	0.01242011	1.281093e-05	7.348532e-06
	1.1468e-05	5.273988e-06	-0.001008544	-0.004753323	4.507794e-05	1.561358e-05	0.005616086	0.01258003
	0.005915488	0.01242011	4.507794e-05	1.561358e-05	-4.291859e-05	-0.005072064	1.734564e-05	6.593762e-06
	1.281093e-05	7.348532e-06	0.005616086	0.01258003	1.734564e-05	6.593762e-06	-0.0009858988	-0.004622102
4.4e+08	-0.001251473	-0.008855867	1.16988e-05	4.480476e-06	0.007360513	0.01293514	1.316623e-05	6.477651e-06
	1.16988e-05	4.480476e-06	-0.00233748	-0.008235793	4.555976e-05	1.239868e-05	0.006982528	0.01317005
	0.007360513	0.01293514	4.555976e-05	1.239868e-05	-0.001111809	-0.008788226	1.759559e-05	5.321933e-06
	1.316623e-05	6.477651e-06	0.006982528	0.01317005	1.759559e-05	5.321933e-06	-0.002341755	-0.008111607
4.5e+08	-0.002944676	-0.01232219	1.187623e-05	3.678706e-06	0.008862716	0.01320103	1.346513e-05	5.591558e-06
	1.187623e-05	3.678706e-06	-0.004250471	-0.01146715	4.582098e-05	9.192094e-06	0.008414815	0.01352548
	0.008862716	0.01320103	4.582098e-05	9.192094e-06	-0.002796576	-0.01229762	1.775474e-05	4.04801e-06
	1.346513e-05	5.591558e-06	0.008414815	0.01352548	1.775474e-05	4.04801e-06	-0.004283873	-0.0113451
4.6e+08	-0.005203798	-0.01548591	1.200021e-05	2.872458e-06	0.01037885	0.0132109	1.370714e-05	4.693918e-06
	1.200021e-05	2.872458e-06	-0.006698818	-0.01435657	4.586531e-05	6.008593e-06	0.009872278	0.01363814
	0.01037885	0.0132109	4.586531e-05	6.008593e-06	-0.005055822	-0.01550437	1.78237e-05	2.77848e-06
	1.370714e-05	4.693918e-06	0.009872278	0.01363814	1.78237e-05	2.77848e-06	-0.006762695	-0.01423143
4.7e+08	-0.007973077	-0.01826044	1.207092e-05	2.065451e-06	0.01186502	0.01296535	1.389224e-05	3.788312e-06
	1.207092e-05	2.065451e-06	-0.009620025	-0.0168224	4.569724e-05	2.862393e-06	0.01131339	0.01350686
	0.01186502	0.01296535	4.569724e-05	2.862393e-06	-0.007833547	-0.01832056	1.780411e-05	1.519675e-06
	1.389224e-05	3.788312e-06	0.01131339	0.01350686	1.780411e-05	1.519675e-06	-0.009714854	-0.0166887
