!$
! Info: Touchstone file created by Circ.  Input file=Tx_8in_Rx_85ohms_TxVia_60mils_RxVia_70mils.circ
!$
# Hz S RI R 50
0	0.006548621	1.145678e-25	-4.343724e-05	2.419866e-26	6.355945e-05	1.256232e-23	-4.343519e-05	-3.205246e-26
	-4.343724e-05	2.376197e-26	0.006544157	1.389667e-25	-4.343666e-05	2.694572e-26	6.326528e-05	1.588997e-23
	6.464339e-05	1.264628e-23	-4.343666e-05	2.682141e-26	0.006564117	1.145618e-25	-4.343674e-05	1.490066e-25
	-4.343518e-05	-3.294604e-26	6.353504e-05	1.595811e-23	-4.343674e-05	1.486749e-25	0.006558652	1.38347e-25
1e+07	0.008595038	-0.007395757	-4.733882e-06	-1.102783e-05	0.0002000653	0.001619621	-2.684784e-06	-1.285561e-05
	-4.733882e-06	-1.102783e-05	0.008578489	-0.007263059	-7.652653e-06	-4.886259e-07	0.0002585012	0.001614796
	0.0002000965	0.001619626	-7.652653e-06	-4.88626e-07	0.009679425	-0.007145458	-1.678599e-05	1.364574e-06
	-2.684784e-06	-1.285561e-05	0.0002585036	0.001614793	-1.678599e-05	1.364574e-06	0.008567379	-0.007252345
2e+07	0.008790616	-0.01693153	-4.29588e-06	-4.283711e-06	0.0006204651	0.003184555	-1.477303e-06	-6.757005e-06
	-4.29588e-06	-4.283711e-06	0.008880379	-0.01671189	-1.938225e-05	-1.199436e-05	0.0006956227	0.003126144
	0.0006204789	0.003184536	-1.938226e-05	-1.199436e-05	0.009899086	-0.01691782	-2.460846e-05	-5.674699e-06
	-1.477303e-06	-6.757005e-06	0.0006956197	0.003126145	-2.460846e-05	-5.674698e-06	0.008875856	-0.01668349
3e+07	0.006610277	-0.02712325	-4.094286e-06	-2.589081e-06	0.001330468	0.004592762	-1.860948e-06	-5.268164e-06
	-4.094286e-06	-2.589081e-06	0.006760756	-0.0268825	-2.831053e-05	-1.243022e-05	0.001364036	0.00452232
	0.001330469	0.004592759	-2.831053e-05	-1.243022e-05	0.007728508	-0.02723126	-3.043791e-05	-4.968489e-06
	-1.860948e-06	-5.268164e-06	0.001364036	0.004522322	-3.043791e-05	-4.968489e-06	0.006760175	-0.02684291
4e+07	0.002418811	-0.03699969	-3.916716e-06	-1.659479e-06	0.002250836	0.005838187	-2.782063e-06	-4.182093e-06
	-3.916716e-06	-1.659479e-06	0.002597308	-0.03675396	-3.554855e-05	-9.648403e-06	0.002242021	0.005769678
	0.00225084	0.005838191	-3.554855e-05	-9.648403e-06	0.003531981	-0.03721511	-3.502711e-05	-2.040533e-06
	-2.782063e-06	-4.182093e-06	0.002242022	0.005769679	-3.502711e-05	-2.040533e-06	0.002598882	-0.03670499
5e+07	-0.00354596	-0.04612387	-3.737866e-06	-1.019433e-06	0.003350735	0.006891133	-3.525957e-06	-3.200847e-06
	-3.737866e-06	-1.019433e-06	-0.003365968	-0.04587518	-4.136642e-05	-4.924601e-06	0.003299256	0.006835737
	0.003350738	0.006891135	-4.136642e-05	-4.924601e-06	-0.002451891	-0.04644138	-3.855365e-05	2.209793e-06
	-3.525957e-06	-3.200847e-06	0.003299257	0.006835737	-3.855365e-05	2.209793e-06	-0.003364089	-0.04581721
6e+07	-0.01105069	-0.05417534	-3.547315e-06	-5.274491e-07	0.004592834	0.007725792	-4.098813e-06	-2.215609e-06
	-3.547315e-06	-5.27449e-07	-0.01089029	-0.05391813	-4.582823e-05	1.218513e-06	0.004499595	0.007693825
	0.00459283	0.007725791	-4.582823e-05	1.218513e-06	-0.009989298	-0.05459113	-4.105533e-05	7.412545e-06
	-4.098813e-06	-2.215609e-06	0.004499596	0.007693825	-4.105533e-05	7.412545e-06	-0.01088955	-0.05385078
7e+07	-0.01984488	-0.06090276	-3.34037e-06	-1.28437e-07	0.005935514	0.008323037	-4.496843e-06	-1.191077e-06
	-3.34037e-06	-1.28437e-07	-0.0197205	-0.06062712	-4.889651e-05	8.500896e-06	0.005802916	0.008324349
	0.005935503	0.008323038	-4.889651e-05	8.500896e-06	-0.0188294	-0.06141285	-4.25009e-05	1.33665e-05
	-4.496843e-06	-1.191077e-06	0.005802917	0.008324348	-4.25009e-05	1.33665e-05	-0.01972205	-0.06054964
8e+07	-0.02965807	-0.06611165	-3.115071e-06	2.020167e-07	0.007334575	0.008671445	-4.706951e-06	-1.140639e-07
	-3.11507e-06	2.020165e-07	-0.02958221	-0.06580523	-5.044874e-05	1.676286e-05	0.007166699	0.00871544
	0.00733456	0.008671448	-5.044874e-05	1.676286e-05	-0.02870165	-0.06671164	-4.28e-05	1.995406e-05
	-4.706951e-06	-1.140641e-07	0.0071667	0.00871544	-4.28e-05	1.995406e-05	-0.02958696	-0.06571656
9e+07	-0.04020277	-0.06966069	-2.869915e-06	4.747235e-07	0.008744904	0.008767737	-4.699111e-06	1.027963e-06
	-2.869914e-06	4.747233e-07	-0.040185	-0.06931069	-5.022087e-05	2.59703e-05	0.008547725	0.008863381
	0.008744893	0.008767742	-5.022087e-05	2.59703e-05	-0.03931915	-0.07034629	-4.176073e-05	2.714666e-05
	-4.699111e-06	1.027963e-06	0.008547725	0.008863381	-4.176073e-05	2.714666e-05	-0.04019364	-0.06920946
1e+08	-0.05117583	-0.07145633	-2.594418e-06	6.948095e-07	0.01012243	0.008617034	-4.336749e-06	2.325447e-06
	-2.594418e-06	6.948095e-07	-0.05123016	-0.07105752	-4.710227e-05	3.681174e-05	0.009905125	0.008774024
	0.01012243	0.008617034	-4.710227e-05	3.681174e-05	-0.05038527	-0.07222899	-3.856796e-05	3.544068e-05
	-4.336749e-06	2.325447e-06	0.009905125	0.008774024	-3.856796e-05	3.544068e-05	-0.05124317	-0.07094224
1.1e+08	-0.06226458	-0.07149898	-2.399553e-06	8.963993e-07	0.01142564	0.008229748	-3.425564e-06	3.10458e-06
	-2.399553e-06	8.963993e-07	-0.06241678	-0.07099543	-3.923161e-05	4.351716e-05	0.01120264	0.008446676
	0.01142564	0.008229748	-3.923161e-05	4.351716e-05	-0.06160034	-0.07231724	-3.615427e-05	3.674996e-05
	-3.425564e-06	3.10458e-06	0.01120264	0.008446677	-3.615427e-05	3.674996e-05	-0.06243415	-0.07086348
1.2e+08	-0.07321142	-0.06978921	-2.229246e-06	1.108634e-06	0.01261332	0.007626312	-2.656516e-06	3.594709e-06
	-2.229246e-06	1.108634e-06	-0.07342917	-0.06914623	-3.671461e-05	4.461306e-05	0.01238946	0.007903596
	0.01261332	0.007626312	-3.671461e-05	4.461306e-05	-0.07266119	-0.07062695	-3.481975e-05	3.722257e-05
	-2.656516e-06	3.594709e-06	0.01238946	0.007903597	-3.481975e-05	3.722257e-05	-0.07344939	-0.06899551
1.3e+08	-0.08372601	-0.0663795	-2.057057e-06	1.3027e-06	0.01365194	0.006832746	-2.124151e-06	3.799023e-06
	-2.057057e-06	1.3027e-06	-0.08398156	-0.06557822	-3.488012e-05	4.525563e-05	0.01343445	0.007171702
	0.01365194	0.006832746	-3.488012e-05	4.525563e-05	-0.08328301	-0.06722078	-3.314435e-05	3.811414e-05
	-2.124151e-06	3.799023e-06	0.01343445	0.007171703	-3.314435e-05	3.811414e-05	-0.08400284	-0.0654071
1.4e+08	-0.09354026	-0.06137256	-1.879456e-06	1.475654e-06	0.01451303	0.005879565	-2.05714e-06	3.688381e-06
	-1.879456e-06	1.475654e-06	-0.09380502	-0.06040172	-3.274764e-05	4.617321e-05	0.01431009	0.006280465
	0.01451303	0.005879564	-3.274764e-05	4.617321e-05	-0.09319816	-0.06220449	-3.122641e-05	3.920588e-05
	-2.05714e-06	3.688381e-06	0.01431009	0.006280466	-3.122641e-05	3.920588e-05	-0.0938252	-0.060209
1.5e+08	-0.1024105	-0.05491192	-1.69643e-06	1.62571e-06	0.01517407	0.004800988	-1.97858e-06	3.614964e-06
	-1.69643e-06	1.62571e-06	-0.1026551	-0.05376694	-3.037472e-05	4.722292e-05	0.01499431	0.005262659
	0.01517407	0.004800987	-3.037472e-05	4.722292e-05	-0.1021628	-0.05572355	-2.910687e-05	4.038155e-05
	-1.97858e-06	3.614964e-06	0.01499431	0.00526266	-2.910687e-05	4.038155e-05	-0.1026717	-0.05355185
1.6e+08	-0.1101221	-0.04717645	-1.508529e-06	1.754574e-06	0.01561881	0.003633848	-1.891694e-06	3.568825e-06
	-1.508529e-06	1.754574e-06	-0.1103173	-0.04585909	-2.779283e-05	4.831333e-05	0.01547096	0.004153488
	0.01561881	0.003633848	-2.779283e-05	4.831333e-05	-0.109962	-0.04795839	-2.680804e-05	4.157121e-05
	-1.891694e-06	3.568825e-06	0.01547096	0.004153489	-2.680804e-05	4.157121e-05	-0.1103277	-0.04562141
1.7e+08	-0.1164943	-0.03837475	-1.316507e-06	1.863283e-06	0.01583748	0.002416501	-1.79802e-06	3.543406e-06
	-1.316507e-06	1.863283e-06	-0.1166116	-0.03689287	-2.502433e-05	4.937858e-05	0.01572998	0.002989617
	0.01583748	0.002416501	-2.502433e-05	4.937858e-05	-0.1164147	-0.0391189	-2.43459e-05	4.27235e-05
	-1.79802e-06	3.543406e-06	0.01572998	0.002989617	-2.43459e-05	4.27235e-05	-0.1166129	-0.03663294
1.8e+08	-0.1213828	-0.02873917	-1.121284e-06	1.9525e-06	0.0158267	0.001187789	-1.698228e-06	3.534067e-06
	-1.121284e-06	1.9525e-06	-0.1213958	-0.02710641	-2.208839e-05	5.036785e-05	0.01576733	0.001808226
	0.0158267	0.001187789	-2.208839e-05	5.036785e-05	-0.1213762	-0.02943861	-2.173458e-05	4.379794e-05
	-1.698228e-06	3.534067e-06	0.01576733	0.001808226	-2.173458e-05	4.379794e-05	-0.1213852	-0.02682514
1.9e+08	-0.1246828	-0.01851961	-9.239196e-07	2.022692e-06	0.01558934	-1.39242e-05	-1.592546e-06	3.537328e-06
	-9.239196e-07	2.022692e-06	-0.1245679	-0.01675496	-1.900378e-05	5.124026e-05	0.01558487	0.0006461253
	0.01558934	-1.392423e-05	-1.900378e-05	5.124026e-05	-0.1247418	-0.01916851	-1.898837e-05	4.476125e-05
	-1.592546e-06	3.537328e-06	0.01558487	0.0006461255	-1.898837e-05	4.476125e-05	-0.1245429	-0.01645387
2e+08	-0.1263307	-0.007977269	-7.255842e-07	2.074247e-06	0.01513421	-0.001151624	-1.480946e-06	3.550452e-06
	-7.255842e-07	2.074247e-06	-0.1260681	-0.00610448	-1.579006e-05	5.196219e-05	0.01519012	-0.0004610508
	0.01513421	-0.001151624	-1.579006e-05	5.196219e-05	-0.1264474	-0.008570851	-1.612265e-05	4.558547e-05
	-1.480946e-06	3.550452e-06	0.01519012	-0.0004610508	-1.612265e-05	4.558547e-05	-0.1260262	-0.005785642
2.1e+08	-0.1263042	0.002621672	-5.275326e-07	2.107552e-06	0.01447575	-0.002190446	-1.363273e-06	3.571204e-06
	-5.275326e-07	2.107552e-06	-0.125879	0.004574861	-1.246809e-05	5.25059e-05	0.01459591	-0.001479579
	0.01447575	-0.002190446	-1.246809e-05	5.25059e-05	-0.1264709	0.002087223	-1.315427e-05	4.624701e-05
	-1.363273e-06	3.571204e-06	0.01459591	-0.001479579	-1.315427e-05	4.624701e-05	-0.125818	0.004908847
2.2e+08	-0.1246229	0.01301233	-3.310734e-07	2.123046e-06	0.01363353	-0.003098393	-1.239292e-06	3.597683e-06
	-3.310734e-07	2.123046e-06	-0.1240253	0.01501504	-9.060113e-06	5.284868e-05	0.01381999	-0.002378315
	0.01363353	-0.003098393	-9.060113e-06	5.284868e-05	-0.1248317	0.01253987	-1.010157e-05	4.672607e-05
	-1.239292e-06	3.597683e-06	0.01381999	-0.002378315	-1.010157e-05	4.672607e-05	-0.1239437	0.01536113
2.3e+08	-0.121347	0.02293719	-1.375365e-07	2.121259e-06	0.01263183	-0.003846999	-1.108721e-06	3.628216e-06
	-1.375365e-07	2.121259e-06	-0.1205732	0.02495644	-5.58957e-06	5.297227e-05	0.01288463	-0.003129309
	0.01263183	-0.003846999	-5.58957e-06	5.297227e-05	-0.12159	0.02252868	-6.984337e-06	4.700635e-05
	-1.108721e-06	3.628216e-06	0.01288463	-0.003129309	-6.984337e-06	4.700635e-05	-0.12047	0.02531121
2.4e+08	-0.1165755	0.03215201	5.176886e-08	2.102832e-06	0.01149906	-0.004411924	-9.712999e-07	3.661303e-06
	5.176886e-08	2.102832e-06	-0.1156281	0.03415376	-2.081132e-06	5.286277e-05	0.01181615	-0.003708373
	0.01149906	-0.004411924	-2.081132e-06	5.286277e-05	-0.1168449	0.03180853	-3.823677e-06	4.7075e-05
	-9.712999e-07	3.661303e-06	0.01181615	-0.003708373	-3.823677e-06	4.7075e-05	-0.1155028	0.03451354
2.5e+08	-0.1104438	0.0404314	2.355819e-07	2.068523e-06	0.0102672	-0.004773515	-8.267593e-07	3.695539e-06
	2.355819e-07	2.068523e-06	-0.1093319	0.04238175	1.439837e-06	5.251016e-05	0.01064435	-0.004095621
	0.0102672	-0.004773515	1.439837e-06	5.251016e-05	-0.1107321	0.04015316	-6.416676e-07	4.692241e-05
	-8.267594e-07	3.695539e-06	0.01064435	-0.004095621	-6.416676e-07	4.692241e-05	-0.1091849	0.04274272
2.6e+08	-0.1031207	0.047574	4.127266e-07	2.019203e-06	0.008971114	-0.004917309	-6.748702e-07	3.729597e-06
	4.127266e-07	2.019203e-06	-0.1018599	0.04944041	4.947463e-06	5.190835e-05	0.009401961	-0.004275958
	0.008971114	-0.004917309	4.947463e-06	5.190835e-05	-0.1034204	0.04736041	2.538866e-06	4.654228e-05
	-6.748702e-07	3.729597e-06	0.009401961	-0.004275958	2.538866e-06	4.654228e-05	-0.1016921	0.04979874
2.7e+08	-0.09480404	0.0534073	5.821358e-07	1.955842e-06	0.007647814	-0.004834479	-5.154343e-07	3.762167e-06
	5.821358e-07	1.955842e-06	-0.09341644	0.05515976	8.415792e-06	5.10548e-05	0.008123977	-0.004239537
	0.007647814	-0.004834479	8.415792e-06	5.10548e-05	-0.09510824	0.05325695	5.694726e-06	4.59314e-05
	-5.154343e-07	3.762167e-06	0.008123977	-0.004239537	5.694726e-06	4.59314e-05	-0.09322956	0.05551174
2.8e+08	-0.08571658	0.0577918	7.428735e-07	1.879487e-06	0.006335661	-0.004522214	-3.483153e-07	3.791968e-06
	7.428735e-07	1.879487e-06	-0.08422999	0.05940401	1.181908e-05	4.995064e-05	0.006846889	-0.003982152
	0.006335661	-0.004522214	1.181908e-05	4.995064e-05	-0.0860185	0.05770253	8.802652e-06	4.508983e-05
	-3.483153e-07	3.791968e-06	0.006846889	-0.003982152	8.802652e-06	4.508983e-05	-0.08402645	0.0597462
2.9e+08	-0.07610041	0.06062458	8.94147e-07	1.791238e-06	0.005073436	-0.003984001	-1.73449e-07	3.817707e-06
	8.94147e-07	1.791238e-06	-0.07454795	0.06207509	1.51322e-05	4.860032e-05	0.005607848	-0.00350555
	0.005073436	-0.003984001	1.51322e-05	4.860032e-05	-0.0763938	0.0605935	1.183971e-05	4.402064e-05
	-1.73449e-07	3.817707e-06	0.005607848	-0.00350555	1.183971e-05	4.402064e-05	-0.07433087	0.06240443
3e+08	-0.06621134	0.0618421	1.035309e-06	1.692217e-06	0.003899348	-0.003229789	9.133979e-09	3.838062e-06
	1.035309e-06	1.692217e-06	-0.06463059	0.06311529	1.833099e-05	4.701141e-05	0.00444373	-0.002817633
	0.003899348	-0.003229789	1.833099e-05	4.701141e-05	-0.06649048	0.06186566	1.478364e-05	4.272982e-05
	9.133978e-09	3.838062e-06	0.00444373	-0.002817633	1.478364e-05	4.272982e-05	-0.06440366	0.06342924
3.1e+08	-0.05631266	0.0614222	1.165856e-06	1.583531e-06	0.002849953	-0.00227599	1.992903e-07	3.85171e-06
	1.165856e-06	1.583531e-06	-0.05474457	0.06250917	2.139239e-05	4.519431e-05	0.003390114	-0.001932519
	0.002849953	-0.00227599	2.139239e-05	4.519431e-05	-0.05657242	0.06149624	1.761327e-05	4.122619e-05
	1.992903e-07	3.85171e-06	0.003390114	-0.001932519	1.761327e-05	4.122619e-05	-0.054512	0.06280581
3.2e+08	-0.04666853	0.05938505	1.285413e-06	1.466256e-06	0.001959035	-0.001145309	3.96736e-07	3.857299e-06
	1.285413e-06	1.466256e-06	-0.04515624	0.06028427	2.429492e-05	4.316216e-05	0.002480204	-0.0008704212
	0.001959035	-0.001145309	2.429492e-05	4.316216e-05	-0.04690449	0.05950487	2.030877e-05	3.952113e-05
	3.96736e-07	3.857299e-06	0.002480204	-0.0008704212	2.030877e-05	3.952113e-05	-0.0449227	0.06056241
3.3e+08	-0.0375372	0.05579311	1.393714e-06	1.341436e-06	0.001256458	0.000133651	6.010213e-07	3.853466e-06
	1.393714e-06	1.341436e-06	-0.03612476	0.05651088	2.701985e-05	4.093123e-05	0.001743719	0.00034267
	0.001256458	0.000133651	2.701985e-05	4.093123e-05	-0.03774566	0.05595357	2.285202e-05	3.762824e-05
	6.010213e-07	3.853466e-06	0.001743719	0.00034267	2.285202e-05	3.762824e-05	-0.03589514	0.05677017
3.4e+08	-0.02916417	0.05075001	1.490586e-06	1.21004e-06	0.0007670545	0.001527011	8.114583e-07	3.838835e-06
	1.490586e-06	1.21004e-06	-0.02789507	0.0513007	2.954998e-05	3.851924e-05	0.001205809	0.001675534
	0.0007670545	0.001527011	2.954998e-05	3.851924e-05	-0.02934223	0.05094564	2.522649e-05	3.556298e-05
	8.114583e-07	3.838835e-06	0.001205809	0.001675534	2.522649e-05	3.556298e-05	-0.02767439	0.05154169
3.5e+08	-0.0217755	0.04439819	1.575906e-06	1.072954e-06	0.0005096017	0.002996478	1.027285e-06	3.812168e-06
	1.575906e-06	1.072954e-06	-0.02069125	0.04480422	3.187089e-05	3.594582e-05	0.0008860373	0.003092505
	0.0005096017	0.002996478	3.187089e-05	3.594582e-05	-0.02192114	0.0446233	2.741856e-05	3.334296e-05
	1.027285e-06	3.812168e-06	0.0008860373	0.003092505	2.741856e-05	3.334296e-05	-0.02048452	0.04502835
3.6e+08	-0.01557154	0.03691549	1.649586e-06	9.309984e-07	0.0004959378	0.004500435	1.247504e-06	3.772267e-06
	1.649586e-06	9.309984e-07	-0.01471014	0.03720704	3.397091e-05	3.323198e-05	0.0007974968	0.004554475
	0.0004959378	0.004500435	3.397091e-05	3.323198e-05	-0.01568362	0.03716427	2.941693e-05	3.098692e-05
	1.247504e-06	3.772267e-06	0.0007974968	0.004554475	2.941693e-05	3.098692e-05	-0.01452219	0.03741665
3.7e+08	-0.01072119	0.02851063	1.711548e-06	7.849336e-07	0.0007302909	0.005995245	1.470914e-06	3.718041e-06
	1.711548e-06	7.849336e-07	-0.0101157	0.02872506	3.584093e-05	3.039955e-05	0.000946123	0.006020116
	0.0007302909	0.005995245	3.584093e-05	3.039955e-05	-0.01079946	0.02877729	3.121264e-05	2.851437e-05
	1.470914e-06	3.718041e-06	0.000946123	0.006020116	3.121264e-05	2.851437e-05	-0.009951016	0.02892337
3.8e+08	-0.007356938	0.01941759	1.761706e-06	6.354757e-07	0.001208867	0.007436705	1.696131e-06	3.648553e-06
	1.761706e-06	6.354757e-07	-0.007034186	0.01959863	3.747464e-05	2.74708e-05	0.001330249	0.007447254
	0.001208867	0.007436705	3.747464e-05	2.74708e-05	-0.007402052	0.01969655	3.279928e-05	2.594532e-05
	1.696131e-06	3.648553e-06	0.001330249	0.007447254	3.279928e-05	2.594532e-05	-0.006896731	0.01978969
3.9e+08	-0.00557101	0.009889304	1.799952e-06	4.833176e-07	0.001919747	0.008781606	1.921622e-06	3.563056e-06
	1.799952e-06	4.833176e-07	-0.005550337	0.01008592	3.886851e-05	2.446807e-05	0.001940457	0.008794352
	0.001919747	0.008781606	3.886851e-05	2.446807e-05	-0.005584442	0.01017529	3.4173e-05	2.329986e-05
	1.921622e-06	3.563056e-06	0.001940457	0.008794352	3.4173e-05	2.329986e-05	-0.005443427	0.01027456
4e+08	-0.005412549	0.0001905827	1.826152e-06	3.291531e-07	0.002843113	0.009989319	2.145723e-06	3.461024e-06
	1.826152e-06	3.291531e-07	-0.005704852	0.0004556966	4.002166e-05	2.14133e-05	0.002759743	0.01002202
	0.002843113	0.009989319	4.002166e-05	2.14133e-05	-0.005396553	0.0004787743	3.533234e-05	2.059773e-05
	2.145723e-06	3.461024e-06	0.002759743	0.01002202	3.533234e-05	2.059773e-05	-0.005630998	0.0006473481
4.1e+08	-0.006886162	-0.009409374	1.840146e-06	1.737012e-07	0.00395182	0.01102333	2.366699e-06	3.342176e-06
	1.840146e-06	1.737012e-07	-0.007493134	-0.009020404	4.093572e-05	1.832767e-05	0.003764016	0.01109451
	0.00395182	0.01102333	4.093572e-05	1.832767e-05	-0.006843674	-0.00912322	3.627809e-05	1.785805e-05
	2.366699e-06	3.342176e-06	0.003764016	0.01109451	3.627809e-05	1.785805e-05	-0.007453925	-0.008819781
4.2e+08	-0.009951817	-0.01864461	1.841766e-06	1.772604e-08	0.005212289	0.01185262	2.582778e-06	3.206483e-06
	1.841766e-06	1.772604e-08	-0.01086546	-0.01807562	4.161454e-05	1.523123e-05	0.004922906	0.01198103
	0.005212289	0.01185262	4.161454e-05	1.523123e-05	-0.009886339	-0.01836406	3.701311e-05	1.509895e-05
	2.582778e-06	3.206483e-06	0.004922906	0.01198103	3.701311e-05	1.509895e-05	-0.01086147	-0.01785972
4.3e+08	-0.01452609	-0.02725995	1.830846e-06	-1.379444e-07	0.006585687	0.01245287	2.792201e-06	3.05417e-06
	1.830846e-06	-1.379444e-07	-0.01572855	-0.0264557	4.206388e-05	1.214267e-05	0.00620085	0.01265691
	0.006585687	0.01245287	4.206388e-05	1.214267e-05	-0.01444156	-0.02698781	3.754197e-05	1.233735e-05
	2.792201e-06	3.05417e-06	0.00620085	0.01265691	3.754197e-05	1.233735e-05	-0.01575927	-0.02621807
4.4e+08	-0.02048476	-0.03501819	1.807251e-06	-2.924096e-07	0.008029336	0.01280734	2.993267e-06	2.885707e-06
	1.807251e-06	-2.924096e-07	-0.02194845	-0.03392614	4.229103e-05	9.079057e-06	0.007558398	0.0131045
	0.008029336	0.01280734	4.229103e-05	9.079057e-06	-0.02038541	-0.03475646	3.787069e-05	9.588746e-06
	2.993267e-06	2.885707e-06	0.007558398	0.0131045	3.787069e-05	9.588746e-06	-0.02201226	-0.03366033
4.5e+08	-0.02766663	-0.04170668	1.770894e-06	-4.44691e-07	0.009498277	0.01290746	3.184373e-06	2.701789e-06
	1.770894e-06	-4.44691e-07	-0.0293547	-0.0402787	4.230452e-05	6.055803e-06	0.008953676	0.01331375
	0.009498277	0.01290746	4.230452e-05	6.055803e-06	-0.02755683	-0.04145652	3.80064e-05	6.867154e-06
	3.184373e-06	2.701789e-06	0.008953676	0.01331375	3.80064e-05	6.867154e-06	-0.02944884	-0.03997847
4.6e+08	-0.0358784	-0.04714302	1.721768e-06	-5.937365e-07	0.0109469	0.01275307	3.364062e-06	2.503302e-06
	1.721768e-06	-5.937365e-07	-0.03774551	-0.04533701	4.21137e-05	3.086585e-06	0.01034391	0.01328244
	0.0109469	0.01275307	4.21137e-05	3.086585e-06	-0.03576251	-0.04690474	3.795704e-05	4.185024e-06
	3.364062e-06	2.503302e-06	0.01034391	0.01328244	3.795704e-05	4.185024e-06	-0.03786614	-0.04499655
4.7e+08	-0.04490044	-0.05117979	1.659962e-06	-7.384301e-07	0.01233059	0.01235227	3.531026e-06	2.291294e-06
	1.659962e-06	-7.384301e-07	-0.04689381	-0.04896123	4.172844e-05	1.834179e-07	0.01168696	0.01301615
	0.01233059	0.01235227	4.172844e-05	1.834179e-07	-0.04478264	-0.05095292	3.773101e-05	1.553297e-06
	3.531026e-06	2.291294e-06	0.01168696	0.01301615	3.773101e-05	1.553297e-06	-0.04703606	-0.04857533
4.8e+08	-0.05449318	-0.05370816	1.585688e-06	-8.776072e-07	0.01360721	0.01172102	3.684158e-06	2.066922e-06
