!$
! Info: Touchstone file created by Circ.  Input file=Tx_8in_Rx_100ohms_TxVia_60mils_RxVia_70mils.circ
!$
# Hz S RI R 50
0	0.008399366	1.14079e-25	-3.273746e-11	8.973831e-27	6.329467e-05	1.614652e-23	-3.193448e-09	3.965995e-25
	-3.273823e-11	8.973939e-27	0.008394896	1.383605e-25	3.965681e-11	1.942221e-27	6.300308e-05	2.042828e-23
	6.437837e-05	1.625441e-23	3.965261e-11	1.94273e-27	0.008414811	1.140731e-25	-1.201612e-11	7.992796e-27
	-3.193321e-09	3.96584e-25	6.327274e-05	2.051588e-23	-1.211024e-11	8.004274e-27	0.008409337	1.377438e-25
1e+07	0.01192681	0.00558843	5.387568e-11	1.560126e-10	0.0002297362	0.001598006	-4.332227e-09	7.827846e-09
	5.387568e-11	1.560126e-10	0.01229286	0.005622571	6.426473e-11	1.761064e-10	0.0005113336	0.001634786
	0.0002297675	0.001598011	6.426473e-11	1.761064e-10	0.0114944	0.005826264	-4.573417e-09	9.994945e-09
	-4.332228e-09	7.827847e-09	0.0005113361	0.001634783	-4.573417e-09	9.994945e-09	0.0121846	0.005640184
2e+07	0.01558887	0.0083514	4.838578e-11	2.954151e-10	0.0006279271	0.003172715	-3.797168e-11	-4.754923e-11
	4.838578e-11	2.954151e-10	0.01589178	0.00827702	6.799168e-11	3.256926e-10	0.000800456	0.003351369
	0.0006279416	0.003172697	6.799167e-11	3.256926e-10	0.01549742	0.008886617	6.621546e-11	6.312112e-10
	-3.797167e-11	-4.754923e-11	0.000800453	0.00335137	6.621547e-11	6.312112e-10	0.01582003	0.008351673
3e+07	0.0188157	0.009631451	1.61833e-11	4.410439e-10	0.001270505	0.004622521	1.533085e-11	4.908375e-10
	1.61833e-11	4.410439e-10	0.01905511	0.009525989	4.514887e-11	4.762963e-10	0.00135823	0.004849363
	0.001270506	0.004622518	4.514887e-11	4.762964e-10	0.01899338	0.01021953	3.847718e-11	5.30342e-10
	1.533085e-11	4.908375e-10	0.00135823	0.004849365	3.847718e-11	5.30342e-10	0.01901471	0.009623627
4e+07	0.02182635	0.01013125	-2.80197e-11	5.910493e-10	0.002134065	0.005929528	-1.784504e-11	6.894086e-10
	-2.80197e-11	5.910493e-10	0.02199811	0.01001899	7.0662e-12	6.279125e-10	0.002169588	0.006181274
	0.002134069	0.005929532	7.066198e-12	6.279125e-10	0.02222768	0.01068774	-1.718733e-11	6.826618e-10
	-1.784504e-11	6.894086e-10	0.002169589	0.006181275	-1.718733e-11	6.826618e-10	0.02198657	0.0101284
5e+07	0.02465642	0.0100253	-8.692436e-11	7.532308e-10	0.00318988	0.007062962	-8.452625e-11	8.680426e-10
	-8.692436e-11	7.532308e-10	0.02475663	0.00992435	-4.812324e-11	7.886989e-10	0.003304959	0.007274686
	0.003189883	0.007062964	-4.812324e-11	7.886989e-10	0.0252413	0.01049676	-8.288067e-11	8.735777e-10
	-8.452625e-11	8.680426e-10	0.00330496	0.007274686	-8.288067e-11	8.735777e-10	0.02477129	0.01003826
6e+07	0.02729424	0.009404208	-1.578878e-10	9.332372e-10	0.004404819	0.007995498	-1.683939e-10	1.066322e-09
	-1.578878e-10	9.332372e-10	0.02732186	0.009332168	-1.187622e-10	9.646374e-10	0.004574167	0.008154245
	0.004404815	0.007995497	-1.187622e-10	9.646374e-10	0.02802338	0.009752442	-1.608989e-10	1.085613e-09
	-1.683939e-10	1.066322e-09	0.004574169	0.008154246	-1.608989e-10	1.085613e-09	0.02736	0.009445059
7e+07	0.02971076	0.008331585	-2.368681e-10	1.135261e-09	0.005754627	0.008696748	-2.588862e-10	1.293773e-09
	-2.368681e-10	1.135261e-09	0.02966755	0.008305259	-2.024935e-10	1.159858e-09	0.005942167	0.008803878
	0.005754615	0.008696748	-2.024935e-10	1.159858e-09	0.03054412	0.008528479	-2.502007e-10	1.320493e-09
	-2.588862e-10	1.293773e-09	0.005942168	0.008803878	-2.502007e-10	1.320493e-09	0.02972606	0.008412521
8e+07	0.03187142	0.006862779	-3.182731e-10	1.36276e-09	0.007185464	0.009157682	-3.46784e-10	1.553186e-09
	-3.182731e-10	1.36276e-09	0.03176165	0.006898108	-2.947497e-10	1.379069e-09	0.007370585	0.00921201
	0.007185449	0.009157684	-2.947497e-10	1.379069e-09	0.03276715	0.006887628	-3.471163e-10	1.582782e-09
	-3.46784e-10	1.553186e-09	0.007370586	0.009212009	-3.471163e-10	1.582782e-09	0.03183682	0.006995897
9e+07	0.03374241	0.005052247	-3.948504e-10	1.618592e-09	0.008655382	0.009370515	-4.228584e-10	1.845022e-09
	-3.948504e-10	1.618592e-09	0.03357308	0.005164511	-3.893697e-10	1.626958e-09	0.008818467	0.009372324
	0.00865537	0.009370518	-3.893697e-10	1.626958e-09	0.03465471	0.004889095	-4.44868e-10	1.878259e-09
	-4.228584e-10	1.845022e-09	0.008818468	0.009372324	-4.44868e-10	1.878259e-09	0.03366055	0.005249687
1e+08	0.03530337	0.002963587	-4.581711e-10	1.906794e-09	0.01012596	0.009336255	-4.776274e-10	2.170994e-09
	-4.581711e-10	1.906794e-09	0.03508554	0.003168263	-4.818993e-10	1.911141e-09	0.01023903	0.009280722
	0.01012596	0.009336255	-4.818993e-10	1.911141e-09	0.03616545	0.002587501	-5.34697e-10	2.21625e-09
	-4.776274e-10	2.170994e-09	0.01023903	0.009280722	-5.34697e-10	2.21625e-09	0.03517918	0.003237495
1.1e+08	0.03654079	0.0005806103	-4.854929e-10	2.213518e-09	0.01155965	0.009038552	-5.027856e-10	2.514394e-09
	-4.854929e-10	2.213518e-09	0.03629199	0.0008827057	-5.341605e-10	2.229612e-09	0.01158375	0.008979503
	0.01155965	0.009038552	-5.341605e-10	2.229612e-09	0.03726229	8.97489e-05	-5.682573e-10	2.58053e-09
	-5.027856e-10	2.514394e-09	0.01158375	0.008979503	-5.682573e-10	2.58053e-09	0.03638405	0.0009416465
1.2e+08	0.03735971	-0.002003139	-4.912215e-10	2.524692e-09	0.0128942	0.008500335	-5.08429e-10	2.855048e-09
	-4.912215e-10	2.524692e-09	0.03708988	-0.001597392	-5.570947e-10	2.54419e-09	0.01284959	0.008466485
	0.0128942	0.008500334	-5.570947e-10	2.54419e-09	0.03796839	-0.002562075	-5.750868e-10	2.944355e-09
	-5.08429e-10	2.855048e-09	0.01284959	0.008466486	-5.750868e-10	2.944355e-09	0.03718076	-0.001546353
1.3e+08	0.03775689	-0.004709806	-4.82133e-10	2.831014e-09	0.01409583	0.007745671	-4.954039e-10	3.197109e-09
	-4.82133e-10	2.831014e-09	0.0374792	-0.004194672	-5.574121e-10	2.851212e-09	0.01399518	0.007752751
	0.01409583	0.007745671	-5.574121e-10	2.851212e-09	0.03826196	-0.005313873	-5.648176e-10	3.296858e-09
	-4.954039e-10	3.197109e-09	0.01399518	0.007752752	-5.648176e-10	3.296858e-09	0.03756794	-0.00415049
1.4e+08	0.03772742	-0.007471619	-4.496661e-10	3.145594e-09	0.01513157	0.006801199	-4.565479e-10	3.547885e-09
	-4.496661e-10	3.145594e-09	0.03745673	-0.006843603	-5.372077e-10	3.168194e-09	0.01498718	0.006860429
	0.01513157	0.006801199	-5.372077e-10	3.168194e-09	0.03813521	-0.008103824	-5.285429e-10	3.659024e-09
	-4.565479e-10	3.547885e-09	0.01498718	0.00686043	-5.285429e-10	3.659024e-09	0.03754218	-0.006805338
1.5e+08	0.03727363	-0.01022263	-3.91838e-10	3.463986e-09	0.01597279	0.005698221	-3.897291e-10	3.902526e-09
	-3.91838e-10	3.463986e-09	0.03702583	-0.00948097	-4.941891e-10	3.490992e-09	0.01579727	0.005817506
	0.01597279	0.005698221	-4.941891e-10	3.490992e-09	0.03758961	-0.01086911	-4.63986e-10	4.025792e-09
	-3.897291e-10	3.902526e-09	0.01579727	0.005817507	-4.63986e-10	4.025792e-09	0.03710687	-0.009447596
1.6e+08	0.03640606	-0.01289881	-3.074599e-10	3.781513e-09	0.01659625	0.004472185	-2.936799e-10	4.255918e-09
	-3.074599e-10	3.781513e-09	0.03619751	-0.01204574	-4.26892e-10	3.81529e-09	0.01640247	0.004656513
	0.01659625	0.004472185	-4.26892e-10	3.81529e-09	0.03663557	-0.01354773	-3.697749e-10	4.391897e-09
	-2.936799e-10	4.255918e-09	0.01640247	0.004656513	-3.697749e-10	4.391897e-09	0.0362731	-0.0120161
1.7e+08	0.03514364	-0.01543888	-1.961942e-10	4.093327e-09	0.01698487	0.003161814	-1.680566e-10	4.602753e-09
	-1.961942e-10	4.093327e-09	0.03499055	-0.01447973	-3.346717e-10	4.136611e-09	0.01678575	0.003413445
	0.01698487	0.003161814	-3.346717e-10	4.136611e-09	0.03529213	-0.01607993	-2.454937e-10	4.751902e-09
	-1.680566e-10	4.602753e-09	0.01678575	0.003413445	-2.454937e-10	4.751902e-09	0.0350598	-0.01445255
1.8e+08	0.03351351	-0.01778531	-5.85847e-11	4.394533e-09	0.01712816	0.001808087	-1.347576e-11	4.937672e-09
	-5.85847e-11	4.394533e-09	0.0334313	-0.01672854	-2.177104e-10	4.450422e-09	0.01693637	0.002126693
	0.01712816	0.001808087	-2.177104e-10	4.450422e-09	0.03358669	-0.0184094	-9.170839e-11	5.100329e-09
	-1.347576e-11	4.937672e-09	0.01693637	0.002126693	-9.170839e-11	5.100329e-09	0.03349353	-0.01670242
1.9e+08	0.03155054	-0.01988539	1.039285e-10	4.68027e-09	0.01702264	0.0004531245	1.684703e-10	5.255399e-09
	1.039285e-10	4.68027e-09	0.03155327	-0.01874248	-7.701888e-11	4.752255e-09	0.01685021	0.0008359339
	0.01702264	0.0004531245	-7.701888e-11	4.752255e-09	0.03155444	-0.02048451	9.002803e-11	5.431806e-09
	1.684703e-10	5.255399e-09	0.01685021	0.000835934	9.002803e-11	5.431806e-09	0.03160803	-0.01871592
2e+08	0.02929666	-0.02169234	2.890487e-10	4.946005e-09	0.01667185	-0.0008609769	3.752651e-10	5.550938e-09
	2.890487e-10	4.946005e-09	0.02939645	-0.0204775	8.559502e-11	5.037838e-09	0.01652987	-0.0004189956
	0.01667185	-0.0008609769	8.559502e-11	5.037838e-09	0.02923768	-0.02225944	2.971981e-10	5.741232e-09
	3.752651e-10	5.550938e-09	0.01652987	-0.0004189955	2.971981e-10	5.741232e-09	0.02944355	-0.02044897
2.1e+08	0.02680004	-0.02316619	4.93663e-10	5.187628e-09	0.01608635	-0.002093312	6.034737e-10	5.819714e-09
	4.93663e-10	5.187628e-09	0.02700654	-0.02189608	2.675655e-10	5.303222e-09	0.01598458	-0.001599225
	0.01608635	-0.002093312	2.675655e-10	5.303222e-09	0.02668491	-0.02369517	5.263692e-10	6.023929e-09
	6.034737e-10	5.819714e-09	0.01598458	-0.001599225	5.263692e-10	6.023929e-09	0.02704605	-0.02186403
2.2e+08	0.02411409	-0.02427468	7.139083e-10	5.4015e-09	0.01528338	-0.003205318	8.488301e-10	6.057714e-09
	7.139083e-10	5.4015e-09	0.02443398	-0.02296795	4.656276e-10	5.544913e-09	0.01522996	-0.002667948
	0.01528338	-0.003205318	4.656276e-10	5.544913e-09	0.02394982	-0.02476035	7.732691e-10	6.275805e-09
	8.488301e-10	6.057714e-09	0.01522996	-0.002667948	7.732691e-10	6.275805e-09	0.02446621	-0.02293086
2.3e+08	0.02129624	-0.02499394	9.452641e-10	5.584636e-09	0.01428641	-0.004161856	1.106332e-09	6.261636e-09
	9.452641e-10	5.584636e-09	0.02173288	-0.02367069	6.75903e-10	5.759976e-09	0.01428761	-0.003591465
	0.01428641	-0.004161856	6.75903e-10	5.759976e-09	0.02109016	-0.02543203	1.032887e-09	6.493482e-09
	1.106332e-09	6.261636e-09	0.01428761	-0.003591465	1.032887e-09	6.493482e-09	0.02175843	-0.02362715
2.4e+08	0.01840677	-0.02530904	1.182662e-09	5.734812e-09	0.01312449	-0.004932219	1.370361e-09	6.429018e-09
	1.182662e-09	5.734812e-09	0.01895988	-0.02399022	8.939973e-10	5.94614e-09	0.01318448	-0.004340141
	0.01312449	-0.004932219	8.939973e-10	5.94614e-09	0.01816639	-0.02569618	1.299592e-09	6.674427e-09
	1.370361e-09	6.429018e-09	0.01318448	-0.004340141	1.299592e-09	6.674427e-09	0.01897957	-0.02393892
2.5e+08	0.01550739	-0.02521431	1.420617e-09	5.850655e-09	0.01183146	-0.005491	1.634821e-09	6.558342e-09
	1.420617e-09	5.850655e-09	0.01617287	-0.02392108	1.115113e-09	6.101869e-09	0.01195211	-0.004889248
	0.01183146	-0.005491	1.115113e-09	6.101869e-09	0.01524039	-0.02554806	1.567277e-09	6.817049e-09
	1.634821e-09	6.558342e-09	0.01195211	-0.004889248	1.567277e-09	6.817049e-09	0.01618775	-0.0238609
2.6e+08	0.01265984	-0.02471348	1.653366e-09	5.931713e-09	0.01044495	-0.005818832	1.893296e-09	6.649117e-09
	1.653366e-09	5.931713e-09	0.01342975	-0.02346653	1.334171e-09	6.226428e-09	0.0106258	-0.005219677
	0.01044495	-0.005818832	1.334171e-09	6.226428e-09	0.012374	-0.02499235	1.829512e-09	6.920784e-09
	1.893296e-09	6.649117e-09	0.0106258	-0.005219677	1.829512e-09	6.920784e-09	0.01344104	-0.02339651
2.7e+08	0.009924545	-0.02381962	1.87502e-09	5.978503e-09	0.009005356	-0.005902947	2.139218e-09	6.701941e-09
	1.87502e-09	5.978503e-09	0.01078709	-0.02263841	1.545939e-09	6.319927e-09	0.009243581	-0.00531849
	0.009005356	-0.005902947	1.545939e-09	6.319927e-09	0.009627618	-0.02404302	2.079715e-09	6.986147e-09
	2.139218e-09	6.701941e-09	0.009243581	-0.00531849	2.079715e-09	6.986147e-09	0.01079618	-0.02255787
2.8e+08	0.007359145	-0.02255479	2.079724e-09	5.99253e-09	0.007554685	-0.005737556	2.366055e-09	6.718529e-09
	2.079724e-09	5.99253e-09	0.008298911	-0.02145693	1.745167e-09	6.383342e-09	0.007845134	-0.005179299
	0.007554685	-0.005737556	1.745167e-09	6.383342e-09	0.007058807	-0.0227231	2.311325e-09	7.014765e-09
	2.366055e-09	6.718529e-09	0.007845134	-0.005179299	2.311325e-09	7.014765e-09	0.008307298	-0.02136541
2.9e+08	0.005017178	-0.02094956	2.261816e-09	5.976291e-09	0.006135358	-0.005324031	2.567489e-09	6.701718e-09
	2.261816e-09	5.976291e-09	0.006015441	-0.0199501	1.926721e-09	6.418517e-09	0.006470699	-0.004802459
	0.006135358	-0.005324031	1.926721e-09	6.418517e-09	0.00472091	-0.0210641	2.517988e-09	7.009374e-09
	2.567489e-09	6.701718e-09	0.006470699	-0.004802459	2.517988e-09	7.009374e-09	0.006024671	-0.01984742
3e+08	0.002946814	-0.01904231	2.415989e-09	5.933244e-09	0.004789001	-0.004670877	2.737609e-09	6.655441e-09
	2.415989e-09	5.933244e-09	0.003981966	-0.01815314	2.085722e-09	6.428155e-09	0.005159919	-0.004195072
	0.004789001	-0.004670877	2.085722e-09	6.428155e-09	0.00266181	-0.0191053	2.693737e-09	6.9738e-09
	2.737609e-09	6.655441e-09	0.005159919	-0.004195072	2.693737e-09	6.9738e-09	0.003993608	-0.01803941
3.1e+08	0.001189735	-0.01687827	2.537449e-09	5.867762e-09	0.003555248	-0.003793507	2.871098e-09	6.584664e-09
	2.537449e-09	5.867762e-09	0.002237821	-0.0161076	2.21768e-09	6.415781e-09	0.003950717	-0.003370796
	0.003555248	-0.003793507	2.21768e-09	6.415781e-09	0.0009227899	-0.01689283	2.833172e-09	6.912899e-09
	2.871098e-09	6.584664e-09	0.003950717	-0.003370796	2.833172e-09	6.912899e-09	0.002253409	-0.01598321
3.2e+08	-0.0002198719	-0.01450849	2.622068e-09	5.785056e-09	0.002470614	-0.002713811	2.963408e-09	6.495301e-09
	2.622068e-09	5.785056e-09	0.0008154832	-0.01386041	2.318624e-09	6.385689e-09	0.002878217	-0.002349465
	0.002470614	-0.002713811	2.318624e-09	6.385689e-09	-0.0004624727	-0.01447856	2.931638e-09	6.832478e-09
	2.963408e-09	6.495301e-09	0.002878217	-0.002349465	2.931638e-09	6.832478e-09	0.0008364728	-0.013726
3.3e+08	-0.001256113	-0.01198859	2.666523e-09	5.691074e-09	0.001567434	-0.001459543	3.010929e-09	6.394093e-09
	2.666523e-09	5.691074e-09	-0.0002601413	-0.01146273	2.385232e-09	6.342872e-09	0.001973751	-0.001156539
	0.001567434	-0.001459543	2.385232e-09	6.342872e-09	-0.001468688	-0.01191889	2.985384e-09	6.739178e-09
	3.010929e-09	6.394093e-09	0.001973751	-0.001156539	2.985384e-09	6.739178e-09	-0.0002324308	-0.01131922
3.4e+08	-0.001901991	-0.009377411	2.668429e-09	5.592385e-09	0.0008729437	-6.353697e-05	3.011135e-09	6.288458e-09
	2.668429e-09	5.592385e-09	-0.0009722791	-0.008968758	2.414947e-09	6.29293e-09	0.001263959	0.000177615
	0.0008729437	-6.353696e-05	2.414947e-09	6.29293e-09	-0.002079575	-0.00927338	2.991709e-09	6.640343e-09
	3.011135e-09	6.288458e-09	0.001263959	0.000177615	2.991709e-09	6.640343e-09	-0.000936698	-0.008817289
3.5e+08	-0.002149814	-0.006735617	2.626447e-09	5.496028e-09	0.0004084875	0.00143722	2.962705e-09	6.186321e-09
	2.626447e-09	5.496028e-09	-0.001312645	-0.006434452	2.406085e-09	6.241957e-09	0.0007700417	0.001618575
	0.0004084875	0.00143722	2.406085e-09	6.241957e-09	-0.002288242	-0.006603303	2.949096e-09	6.543846e-09
	2.962705e-09	6.186321e-09	0.0007700417	0.001618575	2.949096e-09	6.543846e-09	-0.001268257	-0.006276354
3.6e+08	-0.002001341	-0.00412422	2.540373e-09	5.409347e-09	0.0001889076	0.00300264	2.865631e-09	6.095904e-09
	2.540373e-09	5.409347e-09	-0.001281588	-0.003916182	2.357935e-09	6.196412e-09	0.0005071502	0.003128834
	0.0001889076	0.00300264	2.357935e-09	6.196412e-09	-0.002097339	-0.003970172	2.857306e-09	6.457909e-09
	2.865631e-09	6.095904e-09	0.0005071502	0.003128834	2.857306e-09	6.457909e-09	-0.001227703	-0.003752949
3.7e+08	-0.001467724	-0.001603099	2.411213e-09	5.339818e-09	0.0002221102	0.004590665	2.721264e-09	6.02553e-09
	2.411213e-09	5.339818e-09	-0.0008880413	-0.00146941	2.270829e-09	6.162967e-09	0.0004839611	0.004668854
	0.0002221102	0.004590665	2.270829e-09	6.162967e-09	-0.001518977	-0.001434258	2.717461e-09	6.390889e-09
	2.721264e-09	6.02553e-09	0.0004839611	0.004668854	2.717461e-09	6.390889e-09	-0.0008242401	-0.001302648
3.8e+08	-0.0005692085	0.0007704473	2.24121e-09	5.294842e-09	0.0005088361	0.006158462	2.53236e-09	5.983378e-09
	2.24121e-09	5.294842e-09	-0.0001492542	0.0008526174	2.146204e-09	6.148341e-09	0.0007024285	0.006198181
	0.0005088361	0.006158462	2.146204e-09	6.148341e-09	-0.0005744132	0.0009468849	2.532074e-09	6.351055e-09
	2.53236e-09	5.983378e-09	0.0007024285	0.006198181	2.532074e-09	6.351055e-09	-7.54063e-05	0.001021238
3.9e+08	0.0006653986	0.002943072	2.033857e-09	5.281545e-09	0.001042631	0.007663632	2.30306e-09	5.97725e-09
	2.033857e-09	5.281545e-09	0.0009096678	0.003000115	1.986624e-09	6.159119e-09	0.001157728	0.007676576
	0.001042631	0.007663632	1.986624e-09	6.159119e-09	0.0007064933	0.003119796	2.305058e-09	6.346355e-09
	2.30306e-09	5.97725e-09	0.001157728	0.007676576	2.305058e-09	6.346355e-09	0.0009933939	0.00316891
4e+08	0.002199458	0.004866671	1.793864e-09	5.30656e-09	0.001810021	0.009065404	2.038843e-09	6.014331e-09
	1.793864e-09	5.30656e-09	0.002256414	0.004927921	1.795786e-09	6.201557e-09	0.001838391	0.009065138
	0.001810021	0.009065404	1.795786e-09	6.201557e-09	0.002286035	0.005036406	2.041688e-09	6.384173e-09
	2.038843e-09	6.014331e-09	0.001838391	0.009065138	2.041688e-09	6.384173e-09	0.002349552	0.005095247
4.1e+08	0.003989424	0.006499524	1.527092e-09	5.375818e-09	0.002790881	0.01032579	1.746426e-09	6.100959e-09
	1.527092e-09	5.375818e-09	0.00385229	0.006596533	1.578481e-09	6.281386e-09	0.002726621	0.0103274
	0.002790881	0.01032579	1.578481e-09	6.281386e-09	0.004119604	0.006655182	1.748516e-09	6.471095e-09
	1.746426e-09	6.100959e-09	0.002726621	0.0103274	1.748516e-09	6.471095e-09	0.003954081	0.006760837
4.2e+08	0.00598594	0.00780728	1.240448e-09	5.494346e-09	0.003958993	0.01141065	1.433637e-09	6.242411e-09
	1.240448e-09	5.494346e-09	0.005653183	0.007973003	1.340523e-09	6.403613e-09	0.00379879	0.01143033
	0.003958993	0.01141065	1.340523e-09	6.403613e-09	0.006156806	0.007942116	1.433252e-09	6.612682e-09
	1.433637e-09	6.242411e-09	0.00379879	0.01143033	1.433252e-09	6.612682e-09	0.005762599	0.008132874
4.3e+08	0.008135067	0.008763756	9.417433e-10	5.666077e-09	0.005282769	0.01229064	1.109232e-09	6.442704e-09
	9.417433e-10	5.666077e-09	0.007610659	0.009031672	1.088642e-09	6.572336e-09	0.005026091	0.01234525
	0.005282769	0.01229064	1.088642e-09	6.572336e-09	0.008342716	0.008871521	1.104601e-09	6.813264e-09
	1.109232e-09	6.442704e-09	0.005026091	0.01234525	1.104601e-09	6.813264e-09	0.007726424	0.009185889
4.4e+08	0.01037962	0.009351535	6.395152e-10	5.893686e-09	0.006726126	0.01294206	7.826972e-10	6.704435e-09
	6.395152e-10	5.893686e-09	0.009673145	0.009754716	8.303345e-10	6.790573e-09	0.00637533	0.01304864
	0.006726126	0.01294206	8.303345e-10	6.790573e-09	0.01061924	0.009426619	7.72057e-10	7.075764e-09
	7.826972e-10	6.704435e-09	0.00637533	0.01304864	7.72057e-10	7.075764e-09	0.009793774	0.009902287
4.5e+08	0.01266058	0.009562342	3.428203e-10	6.178454e-09	0.008249472	0.01334751	4.640035e-10	7.02865e-09
	3.428203e-10	6.178454e-09	0.01178719	0.01013251	5.7369e-10	7.060108e-09	0.007809839	0.0135228
	0.008249472	0.01334751	5.7369e-10	7.060108e-09	0.01292654	0.00959991	4.456723e-10	7.401545e-09
	4.640035e-10	7.02865e-09	0.007809839	0.0135228	4.456723e-10	7.401545e-09	0.01191103	0.01027271
4.6e+08	0.01491855	0.009397196	6.099739e-11	6.520173e-09	0.009810801	0.01349637	1.633497e-10	7.414758e-09
	6.099739e-11	6.520173e-09	0.01389875	0.01016378	3.270856e-10	7.381366e-09	0.009290479	0.01375631
	0.009810801	0.01349637	3.270856e-10	7.381366e-09	0.01520451	0.009393304	1.357139e-10	7.790288e-09
	1.633497e-10	7.414758e-09	0.009290479	0.01375631	1.357139e-10	7.790288e-09	0.01402401	0.01029618
4.7e+08	0.01709518	0.008866333	-1.965867e-10	6.91709e-09	0.01136684	0.01338514	-1.09115e-10	7.860498e-09
	-1.965867e-10	6.91709e-09	0.01595448	0.009855585	9.879846e-11	7.753369e-09	0.01077671	0.01374436
	0.01136684	0.01338514	9.879846e-11	7.753369e-09	0.01739427	0.008818017	-1.477706e-10	8.239946e-09
	-1.09115e-10	7.860498e-09	0.01077671	0.01374436	-1.477706e-10	8.239946e-09	0.01607933	0.009980035
4.8e+08	0.01913463	0.007988913	-4.207878e-10	7.365877e-09	0.01287424	0.01301755	-3.435592e-10	8.361916e-09
	-4.207878e-10	7.365877e-09	0.01790299	0.009223037	-1.022526e-10	8.173788e-09	0.01222769	0.01348891
