!$
! Info: Touchstone file created by Circ.  Input file=Tx_8in_Rx_93ohms_TxVia_60mils_RxVia_70mils.circ
!$
# Hz S RI R 50
0	0.007439078	1.141314e-25	-3.279255e-11	8.979591e-27	6.332921e-05	1.42868e-23	-3.199626e-09	3.973553e-25
	-3.279331e-11	8.979699e-27	0.007434611	1.384184e-25	3.974312e-11	1.930555e-27	6.303628e-05	1.80735e-23
	6.441303e-05	1.438227e-23	3.973892e-11	1.931065e-27	0.007454549	1.141253e-25	-1.202884e-11	7.993369e-27
	-3.1995e-09	3.973398e-25	6.3306e-05	1.815101e-23	-1.212314e-11	8.004869e-27	0.00744908	1.378012e-25
1e+07	0.01028089	-0.0003254609	5.151064e-11	1.565417e-10	0.0002480077	0.001505757	-4.327361e-09	7.849842e-09
	5.151064e-11	1.565417e-10	0.01087871	-0.0004181899	5.882432e-11	1.712428e-10	0.0002548177	0.001624728
	0.0002480389	0.001505761	5.882433e-11	1.712428e-10	0.01105843	5.574225e-05	-4.55644e-09	1.001071e-08
	-4.327361e-09	7.849842e-09	0.0002548201	0.001624725	-4.55644e-09	1.001071e-08	0.01067129	-0.0004225293
2e+07	0.01243207	-0.003181367	4.333824e-11	2.920101e-10	0.0006833123	0.003010969	-5.436052e-11	-4.418164e-11
	4.333825e-11	2.920101e-10	0.01279222	-0.003546097	4.781317e-11	3.24565e-10	0.0006075719	0.003230935
	0.0006833265	0.00301095	4.781316e-11	3.245651e-10	0.0134569	-0.002861772	4.969518e-11	6.335929e-10
	-5.436051e-11	-4.418164e-11	0.0006075689	0.003230936	4.969519e-11	6.335929e-10	0.01263508	-0.003479641
3e+07	0.01326406	-0.007185149	-6.985292e-13	4.389204e-10	0.001348639	0.004413222	-1.411909e-11	5.072523e-10
	-6.985287e-13	4.389204e-10	0.01341627	-0.00762109	5.430244e-12	4.876004e-10	0.00125851	0.004677655
	0.001348639	0.004413219	5.430245e-12	4.876004e-10	0.01446875	-0.00697665	3.664911e-12	5.41941e-10
	-1.411909e-11	5.072523e-10	0.00125851	0.004677657	3.66491e-12	5.41941e-10	0.01329573	-0.007539503
4e+07	0.01306166	-0.01149891	-6.129279e-11	5.935124e-10	0.002226347	0.005677614	-6.256117e-11	7.233518e-10
	-6.129279e-11	5.935124e-10	0.0130191	-0.01193771	-5.147518e-11	6.596553e-10	0.00216238	0.005960096
	0.002226351	0.005677618	-5.147518e-11	6.596553e-10	0.01439677	-0.01144139	-7.067971e-11	7.088476e-10
	-6.256117e-11	7.233518e-10	0.002162381	0.005960097	-7.067971e-11	7.088476e-10	0.0129265	-0.01185595
5e+07	0.01194716	-0.01582873	-1.401508e-10	7.64905e-10	0.003289651	0.006769907	-1.438266e-10	9.243754e-10
	-1.401508e-10	7.64905e-10	0.01172175	-0.01622132	-1.243792e-10	8.471932e-10	0.003243603	0.007061246
	0.003289655	0.006769909	-1.243792e-10	8.471932e-10	0.01336855	-0.01594953	-1.554402e-10	9.195919e-10
	-1.438266e-10	9.243754e-10	0.003243604	0.007061246	-1.554402e-10	9.195919e-10	0.01164929	-0.01614711
6e+07	0.0100131	-0.01997931	-2.337029e-10	9.595326e-10	0.004505865	0.007661483	-2.402802e-10	1.149072e-09
	-2.337029e-10	9.595326e-10	0.009619576	-0.02028469	-2.095886e-10	1.054996e-09	0.004470106	0.007956726
	0.004505862	0.007661482	-2.095886e-10	1.054996e-09	0.01147848	-0.0202967	-2.518892e-10	1.156161e-09
	-2.402802e-10	1.149072e-09	0.004470107	0.007956726	-2.518892e-10	1.156161e-09	0.0095601	-0.02022239
7e+07	0.007349628	-0.02379983	-3.363998e-10	1.182647e-09	0.005838045	0.008330129	-3.402376e-10	1.406129e-09
	-3.363998e-10	1.182647e-09	0.006806642	-0.0239821	-3.026268e-10	1.28733e-09	0.005805427	0.0086268
	0.005838034	0.008330129	-3.026268e-10	1.28733e-09	0.008817243	-0.02432497	-3.579018e-10	1.420182e-09
	-3.402376e-10	1.406129e-09	0.005805429	0.008626799	-3.579018e-10	1.420182e-09	0.00675335	-0.02393413
8e+07	0.004052766	-0.02716796	-4.412918e-10	1.438292e-09	0.007246365	0.008760703	-4.337828e-10	1.696748e-09
	-4.412918e-10	1.438292e-09	0.003383488	-0.02719501	-3.977816e-10	1.547227e-09	0.007209969	0.009057652
	0.007246351	0.008760706	-3.977816e-10	1.547227e-09	0.005480439	-0.02790661	-4.685442e-10	1.715866e-09
	-4.337828e-10	1.696748e-09	0.00720997	0.009057651	-4.685442e-10	1.715866e-09	0.003329699	-0.02716238
9e+07	0.0002270982	-0.02998424	-5.403895e-10	1.729475e-09	0.008689928	0.00894604	-5.123528e-10	2.016509e-09
	-5.403895e-10	1.729475e-09	-0.0005394549	-0.02982641	-4.869527e-10	1.834707e-09	0.008642184	0.009242089
	0.008689917	0.008946045	-4.869527e-10	1.834707e-09	0.001569981	-0.03093923	-5.766182e-10	2.04561e-09
	-5.123528e-10	2.016509e-09	0.008642184	0.009242088	-5.766182e-10	2.04561e-09	-0.000600487	-0.02980908
1e+08	-0.004010422	-0.032167	-6.251344e-10	2.061497e-09	0.01013368	0.008892595	-5.696484e-10	2.364639e-09
	-6.251344e-10	2.061497e-09	-0.004829804	-0.03178905	-5.667407e-10	2.152263e-09	0.01005979	0.009179541
	0.01013368	0.008892595	-5.667407e-10	2.152263e-09	-0.002817486	-0.03335376	-6.750365e-10	2.41716e-09
	-5.696484e-10	2.364639e-09	0.01005979	0.009179541	-6.750365e-10	2.41716e-09	-0.004906702	-0.03178778
1.1e+08	-0.008532992	-0.03369112	-6.651026e-10	2.421389e-09	0.01149594	0.008622072	-6.044166e-10	2.733853e-09
	-6.651026e-10	2.421389e-09	-0.009339364	-0.03312993	-6.117834e-10	2.499621e-09	0.01141945	0.00887871
	0.01149594	0.008622072	-6.117834e-10	2.499621e-09	-0.007585691	-0.03499726	-7.180271e-10	2.820581e-09
	-6.044166e-10	2.733853e-09	0.01141945	0.00887871	-7.180271e-10	2.820581e-09	-0.009443346	-0.03313094
1.2e+08	-0.01325285	-0.03450765	-6.772636e-10	2.781022e-09	0.01275457	0.008108288	-6.116917e-10	3.117712e-09
	-6.772636e-10	2.781022e-09	-0.01404593	-0.0337759	-6.317213e-10	2.855004e-09	0.01268384	0.008354447
	0.01275457	0.008108288	-6.317213e-10	2.855004e-09	-0.012518	-0.03587068	-7.318176e-10	3.226729e-09
	-6.116917e-10	3.117712e-09	0.01268383	0.008354448	-7.318176e-10	3.226729e-09	-0.01417359	-0.03377068
1.3e+08	-0.01804267	-0.03459388	-6.625177e-10	3.138509e-09	0.01387963	0.007381527	-5.913296e-10	3.507368e-09
	-6.625177e-10	3.138509e-09	-0.01880919	-0.0336931	-6.241493e-10	3.213815e-09	0.01381678	0.007626685
	0.01387963	0.007381527	-6.241493e-10	3.213815e-09	-0.01750471	-0.03597854	-7.165184e-10	3.635227e-09
	-5.913296e-10	3.507368e-09	0.01381678	0.007626686	-7.165184e-10	3.635227e-09	-0.01895852	-0.03367612
1.4e+08	-0.02278072	-0.0339519	-6.168998e-10	3.504979e-09	0.0148392	0.006470733	-5.386931e-10	3.905057e-09
	-6.168998e-10	3.504979e-09	-0.0235035	-0.03288376	-5.885807e-10	3.581997e-09	0.01478624	0.006721467
	0.0148392	0.006470733	-5.885807e-10	3.581997e-09	-0.02242593	-0.03533064	-6.670881e-10	4.053992e-09
	-5.386931e-10	3.905057e-09	0.01478623	0.006721468	-6.670881e-10	4.053992e-09	-0.02367219	-0.03285037
1.5e+08	-0.02734988	-0.03260364	-5.380114e-10	3.874936e-09	0.01560572	0.005408768	-4.511474e-10	4.305149e-09
	-5.380114e-10	3.874936e-09	-0.0280097	-0.031372	-5.228069e-10	3.954611e-09	0.01556515	0.005669786
	0.01560572	0.005408768	-5.228069e-10	3.954611e-09	-0.02716452	-0.0339536	-5.806739e-10	4.475949e-09
	-4.511474e-10	4.305149e-09	0.01556515	0.005669787	-5.806739e-10	4.475949e-09	-0.02819496	-0.03131825
1.6e+08	-0.03163993	-0.03058927	-4.245082e-10	4.242077e-09	0.01615737	0.004232158	-3.275271e-10	4.701349e-09
	-4.245082e-10	4.242077e-09	-0.03221664	-0.02920115	-4.253797e-10	4.325989e-09	0.01613221	0.004506607
	0.01615737	0.004232158	-4.253797e-10	4.325989e-09	-0.03160972	-0.03189117	-4.561433e-10	4.894958e-09
	-3.275271e-10	4.701349e-09	0.01613221	0.004506607	-4.561433e-10	4.894958e-09	-0.03241519	-0.02912375
1.7e+08	-0.03554992	-0.02796558	-2.762229e-10	4.599884e-09	0.0164787	0.002980243	-1.67821e-10	5.086921e-09
	-2.762229e-10	4.599884e-09	-0.03602343	-0.02643157	-2.959516e-10	4.690243e-09	0.01647236	0.003269815
	0.0164787	0.002980243	-2.959516e-10	4.690243e-09	-0.03565994	-0.02920317	-2.932892e-10	5.303842e-09
	-1.67821e-10	5.086921e-09	0.01647236	0.003269815	-2.932892e-10	5.303842e-09	-0.03623156	-0.02632792
1.8e+08	-0.03899031	-0.02480403	-9.42016e-11	4.941808e-09	0.01656111	0.001694121	2.671853e-11	5.455098e-09
	-9.42016e-11	4.941808e-09	-0.0393415	-0.02313851	-1.35266e-10	5.041422e-09	0.01657715	0.001999112
	0.01656111	0.001694121	-1.35266e-10	5.041422e-09	-0.03922507	-0.02596382	-9.32444e-11	5.695383e-09
	2.671853e-11	5.455098e-09	0.01657715	0.001999112	-9.32444e-11	5.695383e-09	-0.03955517	-0.02300676
1.9e+08	-0.04188488	-0.0211887	1.192879e-10	5.261462e-09	0.01640304	0.0004155753	2.535667e-10	5.799302e-09
	1.192879e-10	5.261462e-09	-0.04209648	-0.01940973	5.483362e-11	5.373691e-09	0.01644496	0.00073488
	0.01640304	0.0004155753	5.483362e-11	5.373691e-09	-0.04222847	-0.02225976	1.415082e-10	6.062539e-09
	2.535667e-10	5.799302e-09	0.01644496	0.0007348801	1.415082e-10	6.062539e-09	-0.04231141	-0.01924879
2e+08	-0.04417323	-0.01721313	3.60652e-10	5.552777e-09	0.01601132	-0.000844865	5.088021e-10	6.11331e-09
	3.60652e-10	5.552777e-09	-0.04422969	-0.01534299	2.713138e-10	5.68145e-09	0.0160809	-0.0004829514
	0.01601132	-0.000844865	2.713138e-10	5.68145e-09	-0.04460946	-0.01818695	4.070266e-10	6.398622e-09
	5.088021e-10	6.11331e-09	0.0160809	-0.0004829513	4.070266e-10	6.398622e-09	-0.04444151	-0.01515258
2.1e+08	-0.04580907	-0.01297989	6.254024e-10	5.810414e-09	0.01539249	-0.002015396	7.876195e-10	6.391697e-09
	6.254024e-10	5.810414e-09	-0.04569929	-0.0110434	5.103056e-10	5.959734e-09	0.01549666	-0.001616008
	0.01539249	-0.002015396	5.103056e-10	5.959734e-09	-0.04632168	-0.01385029	6.983684e-10	6.697734e-09
	7.876195e-10	6.391697e-09	0.01549666	-0.001616008	6.983684e-10	6.697734e-09	-0.04590366	-0.01082399
2.2e+08	-0.04676394	-0.00859624	9.079341e-10	6.029761e-09	0.01456581	-0.003056994	1.084053e-09	6.629812e-09
	9.079341e-10	6.029761e-09	-0.04648102	-0.006620548	7.669165e-10	6.204182e-09	0.0147101	-0.002628516
	0.01456581	-0.003056994	7.669165e-10	6.204182e-09	-0.04733682	-0.009359244	1.009354e-09	6.954783e-09
	1.084053e-09	6.629812e-09	0.0147101	-0.002628516	1.009354e-09	6.954783e-09	-0.04667374	-0.006373417
2.3e+08	-0.04702682	-0.004171856	1.201747e-09	6.207173e-09	0.01355665	-0.003936457	1.391224e-09	6.824047e-09
	1.201747e-09	6.207173e-09	-0.04656846	-0.002185791	1.035416e-09	6.411269e-09	0.01374473	-0.003488259
	0.01355665	-0.003936457	1.035416e-09	6.411269e-09	-0.04764418	-0.004825575	1.332817e-09	7.165755e-09
	1.391224e-09	6.824047e-09	0.01374473	-0.003488259	1.332817e-09	7.165755e-09	-0.04674564	-0.001912933
2.4e+08	-0.04660408	0.0001838665	1.499626e-09	6.340147e-09	0.01239545	-0.004625364	1.701541e-09	6.972009e-09
	1.499626e-09	6.340147e-09	-0.045973	0.002150634	1.309382e-09	6.578462e-09	0.01262904	-0.00416744
	0.01239545	-0.004625364	1.309382e-09	6.578462e-09	-0.04725065	-0.0003606527	1.6608e-09	7.327896e-09
	1.701541e-09	6.972009e-09	0.01262904	-0.004167441	1.6608e-09	7.327896e-09	-0.04613114	0.002446549
2.5e+08	-0.0455191	0.004364464	1.793843e-09	6.427447e-09	0.01111694	-0.005100822	2.006914e-09	7.072642e-09
	1.793843e-09	6.427447e-09	-0.04472323	0.006282315	1.581876e-09	6.704348e-09	0.01139568	-0.004643421
	0.01111694	-0.005100822	1.581876e-09	6.704348e-09	-0.04618029	0.003927218	1.984779e-09	7.439857e-09
	2.006914e-09	7.072642e-09	0.01139568	-0.004643421	1.984779e-09	7.439857e-09	-0.04485935	0.006598024
2.6e+08	-0.04381153	0.008268965	2.076335e-09	6.469325e-09	0.009759125	-0.005346084	2.298998e-09	7.126329e-09
	2.076335e-09	6.469325e-09	-0.0428641	0.01010932	1.845407e-09	6.788876e-09	0.01008057	-0.004899314
	0.009759125	-0.005346084	1.845407e-09	6.788876e-09	-0.04447365	0.007935376	2.295913e-09	7.501794e-09
	2.298998e-09	7.126329e-09	0.01008057	-0.004899314	2.295913e-09	7.501794e-09	-0.04297582	0.01044102
2.7e+08	-0.04153616	0.01180431	2.339116e-09	6.467195e-09	0.008362253	-0.005350987	2.569435e-09	7.134938e-09
	2.339116e-09	6.467195e-09	-0.04045555	0.01354051	2.092833e-09	6.833013e-09	0.008721934	-0.004924442
	0.008362253	-0.005350987	2.092833e-09	6.833013e-09	-0.04218651	0.01156921	2.585312e-09	7.515446e-09
	2.569435e-09	7.134938e-09	0.008721934	-0.004924442	2.585312e-09	7.515446e-09	-0.04054118	0.01388406
2.8e+08	-0.03876144	0.01488756	2.574319e-09	6.424004e-09	0.006967703	-0.005112243	2.810133e-09	7.101829e-09
	2.574319e-09	6.424004e-09	-0.03757091	0.01649585	2.316921e-09	6.83913e-09	0.007359235	-0.004714621
	0.006967703	-0.005112243	2.316921e-09	6.83913e-09	-0.03938852	0.01474441	2.844315e-09	7.484137e-09
	2.810133e-09	7.101829e-09	0.007359235	-0.004714621	2.844315e-09	7.484137e-09	-0.0376295	0.01684683
2.9e+08	-0.03556774	0.01744786	2.774515e-09	6.344126e-09	0.00561685	-0.004633531	3.013521e-09	7.031811e-09
	2.774515e-09	6.344126e-09	-0.03429492	0.01890824	2.510741e-09	6.810931e-09	0.006032111	-0.00427229
	0.00561685	-0.004633531	2.510741e-09	6.810931e-09	-0.03616131	0.01738892	3.064773e-09	7.41274e-09
	3.013521e-09	7.031811e-09	0.006032111	-0.00427229	3.064773e-09	7.41274e-09	-0.03432634	0.01926211
3e+08	-0.03204525	0.01942807	2.932972e-09	6.233271e-09	0.004349917	-0.003925415	3.17281e-09	6.931054e-09
	2.932972e-09	6.233271e-09	-0.03072156	0.02072515	2.667945e-09	6.753382e-09	0.004779286	-0.003606458
	0.004349917	-0.003925415	2.667945e-09	6.753382e-09	-0.03259647	0.01944459	3.239326e-09	7.307596e-09
	3.17281e-09	6.931054e-09	0.004779286	-0.003606458	3.239326e-09	7.307596e-09	-0.03072645	0.02107739
3.1e+08	-0.02829172	0.02078612	3.043897e-09	6.098365e-09	0.003204855	-0.00300508	3.282234e-09	6.806959e-09
	3.043897e-09	6.098365e-09	-0.02695159	0.02190982	2.782988e-09	6.672613e-09	0.003637506	-0.002732486
	0.003204855	-0.00300508	2.782988e-09	6.672613e-09	-0.02879324	0.02086853	3.361659e-09	7.17638e-09
	3.282234e-09	6.806959e-09	0.003637506	-0.002732486	3.361659e-09	7.17638e-09	-0.02693138	0.02225603
3.2e+08	-0.02441002	0.02149596	3.102644e-09	5.947395e-09	0.002216268	-0.00189589	3.337261e-09	6.667977e-09
	3.102644e-09	5.947395e-09	-0.02308996	0.02244206	2.85135e-09	6.575787e-09	0.002640506	-0.001671697
	0.002216268	-0.00189589	2.85135e-09	6.575787e-09	-0.02485601	0.02163409	3.426746e-09	7.02792e-09
	3.337261e-09	6.667977e-09	0.002640506	-0.001671697	3.426746e-09	7.02792e-09	-0.02304684	0.02277813
3.3e+08	-0.02050555	0.02154814	3.105908e-09	5.789211e-09	0.001414423	-0.0006267681	3.33479e-09	6.523402e-09
	3.105908e-09	5.789211e-09	-0.01924315	0.02231869	2.869718e-09	6.470921e-09	0.001818057	-0.000450818
	0.001414423	-0.0006267681	2.869718e-09	6.470921e-09	-0.02089175	0.02173139	3.431049e-09	6.871978e-09
	3.33479e-09	6.523402e-09	0.001818057	-0.0004508179	3.431049e-09	6.871978e-09	-0.01918001	0.02264092
3.4e+08	-0.01668359	0.02094995	3.05188e-09	5.633295e-09	0.0008243577	0.000768577	3.273287e-09	6.383123e-09
	3.05188e-09	5.633295e-09	-0.01551645	0.02155353	2.836151e-09	6.366682e-09	0.001195098	0.0008987307
	0.0008243577	0.000768577	2.836151e-09	6.366682e-09	-0.01700735	0.02116756	3.372689e-09	6.718991e-09
	3.273287e-09	6.383123e-09	0.001195098	0.0008987307	3.372689e-09	6.718991e-09	-0.01543682	0.02185873
3.5e+08	-0.01304672	0.01972521	2.940359e-09	5.48951e-09	0.0004651296	0.002252571	3.152904e-09	6.257356e-09
	2.940359e-09	5.48951e-09	-0.01201129	0.02017695	2.750199e-09	6.272144e-09	0.000791002	0.002341682
	0.0004651296	0.002252571	2.750199e-09	6.272144e-09	-0.01330695	0.01996643	3.251565e-09	6.579788e-09
	3.152904e-09	6.257356e-09	0.000791002	0.002341682	3.251565e-09	6.579788e-09	-0.01191922	0.02046256
3.6e+08	-0.009692211	0.01791359	2.772828e-09	5.367821e-09	0.0003492134	0.003784816	2.975527e-09	6.156359e-09
	2.772828e-09	5.367821e-09	-0.008822671	0.01823502	2.612983e-09	6.196525e-09	0.000618973	0.003839894
	0.0003492134	0.003784816	2.612983e-09	6.196525e-09	-0.009889361	0.01816789	3.069428e-09	6.465279e-09
	2.975527e-09	6.156359e-09	0.000618973	0.003839894	3.069428e-09	6.465279e-09	-0.008722639	0.01849919
3.7e+08	-0.006709641	0.01556956	2.552469e-09	5.278004e-09	0.0004820833	0.005323229	2.744795e-09	6.090128e-09
	2.552469e-09	5.278004e-09	-0.006036756	0.01578826	2.427222e-09	6.148914e-09	0.0006856201	0.005353415
	0.0004820833	0.005323229	2.427222e-09	6.148914e-09	-0.006845635	0.01582684	2.829895e-09	6.38614e-09
	2.744795e-09	6.090128e-09	0.0006856202	0.005353415	2.829895e-09	6.38614e-09	-0.005933552	0.01602993
3.8e+08	-0.004178633	0.012761	2.284142e-09	5.229357e-09	0.0008619868	0.006825244	2.466056e-09	6.068107e-09
	2.284142e-09	5.229357e-09	-0.003728708	0.01291003	2.197219e-09	6.137985e-09	0.0009907093	0.006841619
	0.0008619868	0.006825244	2.197219e-09	6.137985e-09	-0.004256774	0.01301179	2.538416e-09	6.35249e-09
	2.466056e-09	6.068107e-09	0.0009907093	0.006841619	2.538416e-09	6.35249e-09	-0.003627278	0.01312897
3.9e+08	-0.002166892	0.009567388	1.974307e-09	5.23041e-09	0.001479928	0.008249054	2.146277e-09	6.098893e-09
	1.974307e-09	5.23041e-09	-0.001960791	0.009684569	1.928788e-09	6.171723e-09	0.001527112	0.008264374
	0.001479928	0.008249054	1.928788e-09	6.171723e-09	-0.002191748	0.009803016	2.20218e-09	6.373577e-09
	2.146277e-09	6.098893e-09	0.001527112	0.008264374	2.20218e-09	6.373577e-09	-0.001866106	0.0098814
4e+08	-0.0007285237	0.006077814	1.63089e-09	5.288652e-09	0.002319863	0.009554839	1.793904e-09	6.189963e-09
	1.63089e-09	5.288652e-09	-0.00078083	0.006204799	1.629138e-09	6.257159e-09	0.002280958	0.009583217
	0.002319863	0.009554839	1.629138e-09	6.257159e-09	-0.0007057863	0.006290562	1.829964e-09	6.457481e-09
	1.793904e-09	6.189963e-09	0.002280958	0.009583217	1.829964e-09	6.457481e-09	-0.000697735	0.006381005
4.1e+08	9.72948e-05	0.002388648	1.263118e-09	5.41028e-09	0.00335911	0.01070596	1.418677e-09	6.347422e-09
	1.263118e-09	5.41028e-09	-0.0002210325	0.00256987	1.306701e-09	6.400129e-09	0.003231987	0.01076249
	0.00335911	0.01070596	1.306701e-09	6.400129e-09	0.0001609679	0.002571901	1.431944e-09	6.610846e-09
	1.418677e-09	6.347422e-09	0.003231987	0.01076249	1.431944e-09	6.610846e-09	-0.0001541026	0.002727759
4.2e+08	0.0002872535	-0.001398913	8.812938e-10	5.599975e-09	0.004568961	0.01167007	1.031405e-09	6.575784e-09
	8.812938e-10	5.599975e-09	-0.0002972306	-0.001117423	9.709346e-10	6.60506e-09	0.004354099	0.01177041
	0.004568961	0.01167007	9.709346e-10	6.60506e-09	0.0003844206	-0.001250554	1.019445e-09	6.838638e-09
	1.031405e-09	6.575784e-09	0.004354099	0.01177041	1.019445e-09	6.838638e-09	-0.0002506313	-0.0009747646
4.3e+08	-0.0001655447	-0.00518143	4.965482e-10	5.860724e-09	0.005915488	0.01242011	6.436998e-10	6.87779e-09
	4.965482e-10	5.860724e-09	-0.001008544	-0.004753323	6.320706e-10	6.874803e-09	0.005616086	0.01258003
	0.005915488	0.01242011	6.320706e-10	6.874803e-09	-4.291859e-05	-0.005072064	6.046633e-10	7.143956e-09
	6.436998e-10	6.87779e-09	0.005616086	0.01258003	6.046633e-10	7.143956e-09	-0.0009858988	-0.004622102
4.4e+08	-0.001251473	-0.008855867	1.205514e-10	6.193675e-09	0.007360513	0.01293514	2.67683e-10	7.254274e-09
	1.205514e-10	6.193675e-09	-0.00233748	-0.008235793	3.008499e-10	7.210498e-09	0.006982528	0.01317005
	0.007360513	0.01293514	3.008499e-10	7.210498e-09	-0.001111809	-0.008788226	2.003548e-10	7.527886e-09
	2.67683e-10	7.254274e-09	0.006982528	0.01317005	2.003548e-10	7.527886e-09	-0.002341755	-0.008111607
4.5e+08	-0.002944676	-0.01232219	-2.347921e-10	6.598047e-09	0.008862716	0.01320103	-8.432716e-11	7.70407e-09
	-2.347921e-10	6.598047e-09	-0.004250471	-0.01146715	-1.176918e-11	7.611497e-09	0.008414815	0.01352548
	0.008862716	0.01320103	-1.176918e-11	7.611497e-09	-0.002796576	-0.01229762	-1.805035e-10	7.989404e-09
	-8.432716e-11	7.70407e-09	0.008414815	0.01352548	-1.805035e-10	7.989404e-09	-0.004283873	-0.0113451
4.6e+08	-0.005203798	-0.01548591	-5.576689e-10	7.071094e-09	0.01037885	0.0132109	-4.001472e-10	8.223987e-09
	-5.576689e-10	7.071094e-09	-0.006698818	-0.01435657	-2.950231e-10	8.075317e-09	0.009872278	0.01363814
	0.01037885	0.0132109	-2.950231e-10	8.075317e-09	-0.005055822	-0.01550437	-5.251775e-10	8.52532e-09
	-4.001472e-10	8.223987e-09	0.009872278	0.01363814	-5.251775e-10	8.52532e-09	-0.006762695	-0.01423143
4.7e+08	-0.007973077	-0.01826044	-8.366771e-10	7.608121e-09	0.01186502	0.01296535	-6.680636e-10	8.808803e-09
	-8.366771e-10	7.608121e-09	-0.009620025	-0.0168224	-5.385975e-10	8.597709e-09	0.01131339	0.01350686
	0.01186502	0.01296535	-5.385975e-10	8.597709e-09	-0.007833547	-0.01832056	-8.214705e-10	9.130354e-09
	-6.680636e-10	8.808803e-09	0.01131339	0.01350686	-8.214705e-10	9.130354e-09	-0.009714854	-0.0166887
4.8e+08	-0.01118382	-0.02056927	-1.061141e-09	8.202533e-09	0.01327797	0.01247251	-8.771662e-10	9.451349e-09
