!$
! Info: Touchstone file created by Circ.  Input file=Tx_8in_Rx_100ohms_TxVia_60mils_RxVia_70mils.circ
!$
# Hz S RI R 50
0	0.00839963	1.184674e-25	-4.331888e-05	7.503715e-24	6.279769e-05	1.654854e-23	-4.335503e-05	1.204557e-23
	-4.331887e-05	7.503164e-24	0.008394896	1.383605e-25	-4.328152e-05	3.024094e-24	6.300308e-05	2.042828e-23
	6.377881e-05	1.683862e-23	-4.328151e-05	3.023138e-24	0.008413609	1.134384e-25	-4.331313e-05	7.01165e-24
	-4.335502e-05	1.204457e-23	6.327274e-05	2.051588e-23	-4.331314e-05	7.012146e-24	0.008409337	1.377438e-25
1e+07	0.01147695	0.005812016	-6.89295e-05	-2.988712e-05	0.0002291029	0.001590401	-0.0001854678	0.0001052527
	-6.89295e-05	-2.988712e-05	0.01229286	0.005622571	-2.498671e-05	-1.058715e-05	0.0005113336	0.001634786
	0.0002291122	0.001590368	-2.498671e-05	-1.058715e-05	0.01194411	0.00559934	-7.502724e-06	-1.080457e-05
	-0.0001854678	0.0001052527	0.0005113361	0.001634783	-7.502726e-06	-1.080457e-05	0.0121846	0.005640184
2e+07	0.01546632	0.008864667	-3.972585e-05	-6.288563e-05	0.0006258733	0.003157811	-0.0002177223	9.816577e-05
	-3.972585e-05	-6.288563e-05	0.01589178	0.00827702	-2.007523e-05	-1.157819e-05	0.000800456	0.003351369
	0.0006258464	0.00315781	-2.007523e-05	-1.157819e-05	0.0156131	0.00837013	-7.573325e-06	1.029671e-06
	-0.0002177223	9.816577e-05	0.000800453	0.00335137	-7.573328e-06	1.029672e-06	0.01582003	0.008351673
3e+07	0.01894882	0.01019637	-2.354451e-05	-7.388034e-05	0.001265903	0.004600867	-0.0002417723	0.0001066076
	-2.354451e-05	-7.388034e-05	0.01905511	0.009525989	-1.676872e-05	-1.224815e-05	0.00135823	0.004849363
	0.0012659	0.004600871	-1.676872e-05	-1.224815e-05	0.01884954	0.009655763	-9.218438e-06	1.338865e-07
	-0.0002417723	0.0001066076	0.00135823	0.004849365	-9.218438e-06	1.338872e-07	0.01901471	0.009623627
4e+07	0.02216959	0.01066752	-5.408944e-05	-6.408172e-05	0.002125951	0.005901738	-0.0002621524	0.0001177167
	-5.408944e-05	-6.408172e-05	0.02199811	0.01001899	-1.41525e-05	-1.250795e-05	0.002169588	0.006181274
	0.00212595	0.005901733	-1.41525e-05	-1.250795e-05	0.02187206	0.01015838	-1.159014e-05	-1.317333e-06
	-0.0002621524	0.0001177167	0.002169589	0.006181275	-1.159014e-05	-1.317334e-06	0.02198657	0.0101284
5e+07	0.02517008	0.01048321	-7.847653e-05	-4.697252e-05	0.003177422	0.007029752	-0.0002802286	0.0001305837
	-7.847653e-05	-4.697252e-05	0.02475663	0.00992435	-1.19146e-05	-1.260335e-05	0.003304959	0.007274686
	0.00317742	0.00702975	-1.19146e-05	-1.260335e-05	0.02471557	0.01005213	-1.421487e-05	-1.777798e-06
	-0.0002802286	0.0001305837	0.00330496	0.007274686	-1.421487e-05	-1.777798e-06	0.02477129	0.01003826
6e+07	0.02794006	0.009749038	-9.690331e-05	-2.449245e-05	0.004387323	0.007957692	-0.0002966256	0.0001449101
	-9.690331e-05	-2.449245e-05	0.02732186	0.009332168	-9.872436e-06	-1.262156e-05	0.004574167	0.008154245
	0.004387325	0.007957696	-9.872436e-06	-1.262156e-05	0.02736767	0.009427373	-1.694334e-05	-1.364309e-06
	-0.0002966256	0.0001449101	0.004574169	0.008154246	-1.694333e-05	-1.364308e-06	0.02736	0.009445059
7e+07	0.03045035	0.008538428	-0.0001091887	2.119927e-06	0.00572955	0.008656607	-0.000311805	0.0001603415
	-0.0001091887	2.119927e-06	0.02966755	0.008305259	-9.21321e-06	-1.173678e-05	0.005942167	0.008803878
	0.005729559	0.008656612	-9.213211e-06	-1.173678e-05	0.02979862	0.008347689	-1.958821e-05	-1.251908e-07
	-0.000311805	0.0001603415	0.005942168	0.008803878	-1.958821e-05	-1.251903e-07	0.02972606	0.008412521
8e+07	0.03266519	0.006913774	-0.000114911	3.198046e-05	0.007154374	0.009115142	-0.000326404	0.0001763101
	-0.000114911	3.198046e-05	0.03176165	0.006898108	-1.130234e-05	-8.319785e-06	0.007370585	0.00921201
	0.007154388	0.009115145	-1.130234e-05	-8.319785e-06	0.03197308	0.006868437	-2.197362e-05	1.873379e-06
	-0.000326404	0.0001763101	0.007370586	0.009212009	-2.197361e-05	1.873378e-06	0.03183682	0.006995897
9e+07	0.0345475	0.004933909	-0.000113259	6.458156e-05	0.00861814	0.009326603	-0.0003417689	0.000191749
	-0.000113259	6.458156e-05	0.03357308	0.005164511	-1.239814e-05	-4.48323e-06	0.008818467	0.009372324
	0.008618151	0.009326603	-1.239814e-05	-4.48323e-06	0.03385653	0.005044293	-2.398787e-05	4.513133e-06
	-0.0003417689	0.000191749	0.008818468	0.009372324	-2.398787e-05	4.513132e-06	0.03366055	0.005249687
1e+08	0.036057	0.002653323	-0.0001004649	0.0001017431	0.01008263	0.00929202	-0.0003640789	0.0002016344
	-0.0001004649	0.0001017431	0.03508554	0.003168263	-1.197154e-05	2.539127e-10	0.01023903	0.009280722
	0.01008263	0.009292019	-1.197154e-05	2.539286e-10	0.035428	0.002939192	-2.565335e-05	7.612313e-06
	-0.0003640789	0.0002016344	0.01023903	0.009280722	-2.565335e-05	7.612313e-06	0.03517918	0.003237495
1.1e+08	0.03715754	0.0001749713	-7.531053e-05	0.0001205427	0.01151044	0.00899485	-0.0003671632	0.0001939776
	-7.531053e-05	0.0001205427	0.03629199	0.0008827057	-9.545654e-06	2.261792e-06	0.01158375	0.008979503
	0.01151044	0.00899485	-9.545654e-06	2.261792e-06	0.03667342	0.0005373931	-2.634502e-05	1.057422e-05
	-0.0003671632	0.0001939776	0.01158375	0.008979503	-2.634502e-05	1.057422e-05	0.03638405	0.0009416465
1.2e+08	0.03786927	-0.002458089	-7.340982e-05	0.000119139	0.01283936	0.008458085	-0.0003620029	0.0001958809
	-7.340982e-05	0.000119139	0.03708988	-0.001597392	-7.791407e-06	3.781084e-06	0.01284959	0.008466485
	0.01283936	0.008458085	-7.791407e-06	3.781084e-06	0.0374974	-0.002066956	-2.60766e-05	1.389601e-05
	-0.0003620029	0.0001958809	0.01284959	0.008466486	-2.60766e-05	1.389601e-05	0.03718076	-0.001546353
1.3e+08	0.03817111	-0.005191646	-6.954234e-05	0.0001196608	0.01403578	0.007705757	-0.0003540924	0.0002005889
	-6.954234e-05	0.0001196608	0.0374792	-0.004194672	-6.215172e-06	4.834063e-06	0.01399518	0.007752751
	0.01403578	0.007705757	-6.215172e-06	4.834063e-06	0.03789639	-0.004795408	-2.498301e-05	1.728356e-05
	-0.0003540924	0.0002005889	0.01399518	0.007752752	-2.498301e-05	1.728356e-05	0.03756794	-0.00415049
1.4e+08	0.03805539	-0.007964278	-6.429862e-05	0.000121042	0.01506688	0.006764424	-0.0003446094	0.0002063425
	-6.429862e-05	0.000121042	0.03745673	-0.006843603	-4.74807e-06	5.559178e-06	0.01498718	0.006860429
	0.01506688	0.006764424	-4.74807e-06	5.559178e-06	0.03786527	-0.007579548	-2.311172e-05	2.051868e-05
	-0.0003446094	0.0002063425	0.01498718	0.00686043	-2.311172e-05	2.051868e-05	0.03754218	-0.006805338
1.5e+08	0.03752358	-0.01071366	-5.797206e-05	0.0001226895	0.01590417	0.005665284	-0.0003342518	0.0002122382
	-5.797206e-05	0.0001226895	0.03702583	-0.00948097	-3.367854e-06	6.026052e-06	0.01579727	0.005817506
	0.01590417	0.005665284	-3.367854e-06	6.026052e-06	0.03740629	-0.01035275	-2.053809e-05	2.340873e-05
	-0.0003342518	0.0002122382	0.01579727	0.005817507	-2.053809e-05	2.340873e-05	0.03710687	-0.009447596
1.6e+08	0.03658591	-0.01337832	-5.078386e-05	0.0001242047	0.01652451	0.00444366	-0.0003235776	0.0002177766
	-5.078386e-05	0.0001242047	0.03619751	-0.01204574	-2.067743e-06	6.278162e-06	0.01640247	0.004656513
	0.01652451	0.00444366	-2.067743e-06	6.278162e-06	0.03653003	-0.01305032	-1.737275e-05	2.578833e-05
	-0.0003235776	0.0002177766	0.01640247	0.004656513	-1.737275e-05	2.578833e-05	0.0362731	-0.0120161
1.7e+08	0.03526117	-0.015899	-4.294084e-05	0.0001253042	0.0169109	0.003138134	-0.0003130827	0.0002227209
	-4.294084e-05	0.0001253042	0.03499055	-0.01447973	-8.476123e-07	6.346436e-06	0.01678575	0.003413445
	0.0169109	0.003138134	-8.476123e-07	6.346436e-06	0.03525559	-0.01561029	-1.375857e-05	2.752568e-05
	-0.0003130827	0.0002227209	0.01678575	0.003413445	-1.375857e-05	2.752568e-05	0.0350598	-0.01445255
1.8e+08	0.03357641	-0.01821984	-3.46507e-05	0.0001257893	0.01705292	0.001789531	-0.0003032098	0.0002270333
	-3.46507e-05	0.0001257893	0.0334313	-0.01672854	2.897355e-07	6.255105e-06	0.01693637	0.002126693
	0.01705292	0.001789531	2.897355e-07	6.255105e-06	0.03361039	-0.0179745	-9.86355e-06	2.852865e-05
	-0.0003032098	0.0002270333	0.01693637	0.002126693	-9.86355e-06	2.852865e-05	0.03349353	-0.01670242
1.9e+08	0.03156634	-0.02028965	-2.611874e-05	0.0001255368	0.0169471	0.0004398076	-0.0002943391	0.0002308363
	-2.611874e-05	0.0001255368	0.03155327	-0.01874248	7.745251e-07	6.008909e-06	0.01685021	0.0008359339
	0.0169471	0.0004398076	7.745251e-07	6.008909e-06	0.0316297	-0.02008969	-5.86588e-06	2.875337e-05
	-0.0002943391	0.0002308363	0.01685021	0.000835934	-5.86588e-06	2.875337e-05	0.03160803	-0.01871592
2e+08	0.0292727	-0.02206291	-1.755473e-05	0.0001244794	0.01659701	-0.000869102	-0.000286771	0.0002343819
	-1.755473e-05	0.0001244794	0.02939645	-0.0204775	8.144061e-07	5.748465e-06	0.01652987	-0.0004189956
	0.01659701	-0.000869102	8.144061e-07	5.748465e-06	0.02935595	-0.02190856	-1.95508e-06	2.819537e-05
	-0.000286771	0.0002343819	0.01652987	-0.0004189955	-1.95508e-06	2.819537e-05	0.02944355	-0.02044897
2.1e+08	0.02674337	-0.02350085	-9.163373e-06	0.000122607	0.01601317	-0.002096457	-0.0002807083	0.0002380234
	-9.163373e-06	0.000122607	0.02700654	-0.02189608	8.520018e-07	5.517514e-06	0.01598458	-0.001599225
	0.01601317	-0.002096457	8.520018e-07	5.517514e-06	0.0268379	-0.02339072	1.681656e-06	2.689613e-05
	-0.0002807083	0.0002380234	0.01598458	-0.001599225	1.681656e-06	2.689613e-05	0.02704605	-0.02186403
2.2e+08	0.02403141	-0.02457224	-1.127526e-06	0.0001199644	0.01521279	-0.00320385	-0.0002762413	0.0002421851
	-1.127526e-06	0.0001199644	0.02443398	-0.02296795	8.854435e-07	5.31417e-06	0.01522996	-0.002667948
	0.01521279	-0.00320385	8.854435e-07	5.31417e-06	0.02412962	-0.02450363	4.878059e-06	2.494421e-05
	-0.0002762413	0.0002421851	0.01522996	-0.002667948	4.878059e-06	2.494421e-05	0.02446621	-0.02293086
2.3e+08	0.02119384	-0.02525412	6.39635e-06	0.0001166399	0.01421925	-0.004156292	-0.0002733366	0.00024733
	6.39635e-06	0.0001166399	0.02173288	-0.02367069	9.141643e-07	5.137843e-06	0.01428761	-0.003591465
	0.01421925	-0.004156292	9.141643e-07	5.137843e-06	0.02128927	-0.02522325	7.494859e-06	2.246612e-05
	-0.0002733366	0.00024733	0.01428761	-0.003591465	7.494859e-06	2.246612e-05	0.02175843	-0.02362715
2.4e+08	0.01829042	-0.02553238	1.328487e-05	0.0001127572	0.01306151	-0.004923206	-0.0002718334	0.0002539304
	1.328487e-05	0.0001127572	0.01895988	-0.02399022	9.386305e-07	4.988838e-06	0.01318448	-0.004340141
	0.01306151	-0.004923206	9.386305e-07	4.988838e-06	0.01837785	-0.02553458	9.428222e-06	1.961874e-05
	-0.0002718334	0.0002539304	0.01318448	-0.004340141	9.428222e-06	1.961874e-05	0.01897957	-0.02393892
2.5e+08	0.01538233	-0.02540201	1.945426e-05	0.0001084652	0.01177329	-0.005479301	-0.0002714441	0.0002624332
	1.945426e-05	0.0001084652	0.01617287	-0.02392108	9.60643e-07	4.867831e-06	0.01195211	-0.004889248
	0.01177329	-0.005479301	9.60643e-07	4.867831e-06	0.01545783	-0.02543205	1.061604e-05	1.657955e-05
	-0.0002714441	0.0002624332	0.01195211	-0.004889248	1.061604e-05	1.657955e-05	0.01618775	-0.0238609
2.6e+08	0.01253077	-0.02486732	2.486345e-05	0.0001039269	0.01039209	-0.005805303	-0.0002717626	0.0002732309
	2.486345e-05	0.0001039269	0.01342975	-0.02346653	9.830848e-07	4.775515e-06	0.0106258	-0.005219677
	0.01039209	-0.005805303	9.830848e-07	4.775515e-06	0.0125917	-0.02491961	1.104174e-05	1.353589e-05
	-0.0002717626	0.0002732309	0.0106258	-0.005219677	1.104174e-05	1.353589e-05	0.01344104	-0.02339651
2.7e+08	0.009795523	-0.02394183	2.951546e-05	9.930833e-05	0.008958146	-0.005888514	-0.00027228	0.0002866315
	2.951546e-05	9.930833e-05	0.01078709	-0.02263841	1.009902e-06	4.712157e-06	0.009243581	-0.00531849
	0.008958146	-0.005888514	1.009902e-06	4.712157e-06	0.00984058	-0.02401068	1.073536e-05	1.067343e-05
	-0.00027228	0.0002866315	0.009243581	-0.00531849	1.073536e-05	1.067343e-05	0.01079618	-0.02255787
2.8e+08	0.007233626	-0.02264795	3.345569e-05	9.476779e-05	0.007513317	-0.00572319	-0.0002724037	0.0003028377
	3.345569e-05	9.476779e-05	0.008298911	-0.02145693	1.045818e-06	4.677333e-06	0.007845134	-0.005179299
	0.007513317	-0.00572319	1.045818e-06	4.677333e-06	0.007262736	-0.0227278	9.77177e-06	8.164841e-06
	-0.0002724037	0.0003028377	0.007845134	-0.005179299	9.77177e-06	8.164841e-06	0.008307298	-0.02136541
2.9e+08	0.004898005	-0.02101649	3.676812e-05	9.044506e-05	0.00609986	-0.00531072	-0.0002714836	0.0003219257
	3.676812e-05	9.044506e-05	0.006015441	-0.0199501	1.096124e-06	4.669592e-06	0.006470699	-0.004802459
	0.00609986	-0.00531072	1.096124e-06	4.669592e-06	0.004912258	-0.02110214	8.26614e-06	6.159098e-06
	-0.0002714836	0.0003219257	0.006470699	-0.004802459	8.26614e-06	6.159098e-06	0.006024671	-0.01984742
3e+08	0.002836229	-0.01908598	3.956904e-05	8.645238e-05	0.004759234	-0.0046596	-0.0002688417	0.000343832
	3.956904e-05	8.645238e-05	0.003981966	-0.01815314	1.166354e-06	4.686224e-06	0.005159919	-0.004195072
	0.004759234	-0.0046596	1.166354e-06	4.686224e-06	0.00283776	-0.01917276	6.366899e-06	4.772217e-06
	-0.0002688417	0.000343832	0.005159919	-0.004195072	6.366899e-06	4.772217e-06	0.003993608	-0.01803941
3.1e+08	0.001089403	-0.0169017	4.199882e-05	8.286776e-05	0.003530917	-0.003785206	-0.0002638015	0.000368351
	4.199882e-05	8.286776e-05	0.002237821	-0.0161076	1.261865e-06	4.723217e-06	0.003950717	-0.003370796
	0.003530917	-0.003785206	1.261865e-06	4.723217e-06	0.001081246	-0.01698566	4.246804e-06	4.08016e-06
	-0.0002638015	0.000368351	0.003950717	-0.003370796	4.246804e-06	4.08016e-06	0.002253409	-0.01598321
3.2e+08	-0.0003088265	-0.01451468	4.421224e-05	7.972957e-05	0.00245127	-0.002709365	-0.0002557216	0.000395133
	4.421224e-05	7.972957e-05	0.0008154832	-0.01386041	1.38746e-06	4.775189e-06	0.002878217	-0.002349465
	0.00245127	-0.002709365	1.38746e-06	4.775189e-06	-0.0003229122	-0.01459272	2.092262e-06	4.113915e-06
	-0.0002557216	0.000395133	0.002878217	-0.002349465	2.092262e-06	4.113915e-06	0.0008364728	-0.013726
3.3e+08	-0.001333061	-0.01198042	4.6368e-05	7.70343e-05	0.001552492	-0.001459745	-0.0002440277	0.0004236936
	4.6368e-05	7.70343e-05	-0.0002601413	-0.01146273	1.546981e-06	4.835509e-06	0.001973751	-0.001156539
	0.001552492	-0.001459745	1.546981e-06	4.835509e-06	-0.001348775	-0.01205041	9.178493e-08	4.857397e-06
	-0.0002440277	0.0004236936	0.001973751	-0.001156539	9.178493e-08	4.857397e-06	-0.0002324308	-0.01131922
3.4e+08	-0.001966754	-0.009357617	4.861806e-05	7.47372e-05	0.0008616945	-6.907441e-05	-0.0002282375	0.000453431
	4.861806e-05	7.47372e-05	-0.0009722791	-0.008968758	1.742936e-06	4.89657e-06	0.001263959	0.000177615
	0.0008616945	-6.907441e-05	1.742936e-06	4.89657e-06	-0.001979462	-0.009418441	-1.575326e-06	6.248453e-06
	-0.0002282375	0.000453431	0.001263959	0.000177615	-1.575326e-06	6.248453e-06	-0.000936698	-0.008817289
3.5e+08	-0.002202599	-0.006706721	5.109723e-05	7.275487e-05	0.0004001212	0.001425788	-0.000207988	0.0004836452
	5.109723e-05	7.275487e-05	-0.001312645	-0.006434452	1.97623e-06	4.950089e-06	0.0007700417	0.001618575
	0.0004001212	0.001425788	1.97623e-06	4.950089e-06	-0.002207535	-0.006758339	-2.751745e-06	8.181821e-06
	-0.000207988	0.0004836452	0.0007700417	0.001618575	-2.751745e-06	8.181821e-06	-0.001268257	-0.006276354
3.6e+08	-0.002042689	-0.004088486	5.39142e-05	7.097094e-05	0.0001825333	0.002984895	-0.0001830566	0.0005135638
	5.39142e-05	7.097094e-05	-0.001281588	-0.003916182	2.241865e-06	4.985059e-06	0.0005071502	0.003128834
	0.0001825332	0.002984895	2.241865e-06	4.985059e-06	-0.002035169	-0.004131907	-2.845006e-06	1.063479e-05
	-0.0001830566	0.0005135638	0.0005071502	0.003128834	-2.845006e-06	1.063479e-05	-0.001227703	-0.003752949
3.7e+08	-0.001498445	-0.001562511	5.714364e-05	6.924333e-05	0.0002167815	0.004566341	-0.0001533635	0.0005423777
	5.714364e-05	6.924333e-05	-0.0008880413	-0.00146941	2.540187e-06	4.995814e-06	0.0004839611	0.004668854
	0.0002167815	0.004566341	2.540187e-06	4.995814e-06	-0.001474067	-0.001599759	-2.124547e-06	1.326048e-05
	-0.0001533635	0.0005423777	0.0004839611	0.004668854	-2.124547e-06	1.326048e-05	-0.0008242401	-0.001302648
3.8e+08	-0.0005903179	0.0008142033	6.082089e-05	6.741356e-05	0.0005035768	0.006127451	-0.000118987	0.0005692666
	6.082089e-05	6.741356e-05	-0.0001492542	0.0008526174	2.867421e-06	4.975149e-06	0.0007024285	0.006198181
	0.0005035768	0.006127451	2.867421e-06	4.975149e-06	-0.0005451482	0.0007801668	-6.449697e-07	1.584116e-05
	-0.000118987	0.0005692666	0.0007024285	0.006198181	-6.449697e-07	1.584116e-05	-7.54063e-05	0.001021238
3.9e+08	0.0006527375	0.002988617	6.493894e-05	6.531696e-05	0.001036461	0.007625987	-8.015977e-05	0.0005934331
	6.493894e-05	6.531696e-05	0.0009096678	0.003000115	3.217333e-06	4.916441e-06	0.001157728	0.007676576
	0.001036461	0.007625987	3.217333e-06	4.916441e-06	0.0007219894	0.002954007	1.582362e-06	1.818449e-05
	-8.015977e-05	0.0005934331	0.001157728	0.007676576	1.582362e-06	1.818449e-05	0.0009933939	0.00316891
4e+08	0.002193993	0.004912929	6.944784e-05	6.279325e-05	0.001801984	0.009021338	-3.726104e-05	0.0006141341
	6.944784e-05	6.279325e-05	0.002256414	0.004927921	3.582329e-06	4.814586e-06	0.001838391	0.009065138
	0.001801984	0.009021338	3.582329e-06	4.814586e-06	0.002289829	0.004873269	4.498867e-06	2.010441e-05
	-3.726104e-05	0.0006141341	0.001838391	0.009065138	4.498867e-06	2.010441e-05	0.002349552	0.005095247
4.1e+08	0.003989867	0.006545714	7.425697e-05	5.969711e-05	0.002780068	0.01027567	9.200198e-06	0.0006307098
	7.425697e-05	5.969711e-05	0.00385229	0.006596533	3.953883e-06	4.666299e-06	0.002726621	0.0103274
	0.002780068	0.01027567	3.953883e-06	4.666299e-06	0.00411388	0.006496002	8.001707e-06	2.143241e-05
	9.200198e-06	0.0006307098	0.002726621	0.0103274	8.001707e-06	2.143241e-05	0.003954081	0.006760837
4.2e+08	0.005991015	0.007852896	7.923963e-05	5.590769e-05	0.003944569	0.01135498	5.860659e-05	0.0006426068
	7.923963e-05	5.590769e-05	0.005653183	0.007973003	4.323e-06	4.470288e-06	0.00379879	0.01143033
	0.003944569	0.01135498	4.323e-06	4.470288e-06	0.0061438	0.00778778	1.194913e-05	2.202781e-05
	5.860659e-05	0.0006426068	0.00379879	0.01143033	1.194913e-05	2.202781e-05	0.005762599	0.008132874
4.3e+08	0.008143552	0.008808546	8.423984e-05	5.133688e-05	0.005263994	0.01223006	0.000110256	0.0006493974
	8.423984e-05	5.133688e-05	0.007610659	0.009031672	4.680719e-06	4.227282e-06	0.005026091	0.01234525
	0.005263994	0.01223006	4.680719e-06	4.227282e-06	0.008324652	0.008722521	1.616812e-05	2.178645e-05
	0.000110256	0.0006493974	0.005026091	0.01234525	1.616812e-05	2.178645e-05	0.007726424	0.009185889
4.4e+08	0.01039038	0.009395467	8.908089e-05	4.593559e-05	0.006702373	0.01287732	0.0001633906	0.000650792
	8.908089e-05	4.593559e-05	0.009673145	0.009754716	5.018597e-06	3.939946e-06	0.00637533	0.01304864
	0.006702373	0.01287732	5.018597e-06	3.939946e-06	0.01059827	0.009283073	2.046401e-05	2.064727e-05
	0.0001633906	0.000650792	0.00637533	0.01304864	2.046401e-05	2.064727e-05	0.009793774	0.009902287
4.5e+08	0.01267261	0.009605575	9.357536e-05	3.969792e-05	0.008220246	0.01327945	0.0002172236	0.0006466474
	9.357536e-05	3.969792e-05	0.01178719	0.01013251	5.329154e-06	3.612663e-06	0.007809839	0.0135228
	0.008220246	0.01327945	5.329154e-06	3.612663e-06	0.0129047	0.009461596	2.46314e-05	1.859637e-05
	0.0002172236	0.0006466474	0.007809839	0.0135228	2.46314e-05	1.859637e-05	0.01191103	0.01027271
4.6e+08	0.01493097	0.009440041	9.753662e-05	3.266261e-05	0.00977575	0.0134259	0.0002708922	0.000637015
	9.753662e-05	3.266261e-05	0.01389875	0.01016378	5.606242e-06	3.251222e-06	0.009290479	0.01375631
	0.00977575	0.0134259	5.606242e-06	3.251222e-06	0.01518369	0.009259703	2.846657e-05	1.56683e-05
	0.0002708922	0.000637015	0.009290479	0.01375631	2.846657e-05	1.56683e-05	0.01402401	0.01029618
4.7e+08	0.01710729	0.008909192	0.0001006562	2.492785e-05	0.01132577	0.01331322	0.0003343726	0.0006141571
	0.0001006562	2.492785e-05	0.01595448	0.009855585	5.845336e-06	2.862539e-06	0.01077671	0.01374436
	0.01132577	0.01331322	5.845336e-06	2.862539e-06	0.01737612	0.008688369	3.164772e-05	1.196337e-05
	0.0003343726	0.0006141571	0.01077671	0.01374436	3.164772e-05	1.196337e-05	0.01607933	0.009980035
4.8e+08	0.01914586	0.008032291	0.0001028902	1.66224e-05	0.01282711	0.01294514	0.0003962537	0.0005834422
