!$
! Info: Touchstone file created by Circ.  Input file=Tx_8in_Rx_100ohms_TxVia_60mils_RxVia_70mils.circ
!$
# Hz S RI R 50
0	0.008399161	1.154313e-25	-4.331801e-05	7.425375e-24	6.387496e-05	1.641793e-23	-4.328096e-05	2.929597e-24
	-4.331801e-05	7.425345e-24	0.008394896	1.383605e-25	-4.335377e-05	1.192145e-23	6.300308e-05	2.042828e-23
	6.300693e-05	1.634453e-23	-4.335377e-05	1.192186e-23	0.008412937	1.167173e-25	-4.331603e-05	7.338878e-24
	-4.328096e-05	2.929112e-24	6.327274e-05	2.051588e-23	-4.331602e-05	7.33801e-24	0.008409337	1.377438e-25
1e+07	0.01217283	0.005630561	-0.0001530802	1.258334e-05	0.0005142104	0.001636617	-5.836453e-05	-5.128706e-06
	-0.0001530802	1.258334e-05	0.01229286	0.005622571	-1.235156e-05	9.734617e-05	0.0005113336	0.001634786
	0.0005141947	0.00163663	-1.235156e-05	9.734617e-05	0.01231379	0.005628878	-0.0001530788	1.256466e-05
	-5.836453e-05	-5.128706e-06	0.0005113361	0.001634783	-0.0001530788	1.256466e-05	0.0121846	0.005640184
2e+07	0.01581989	0.008333727	-0.0001226719	-4.916687e-05	0.0008115089	0.00335344	-4.622761e-05	-1.065391e-05
	-0.0001226719	-4.916687e-05	0.01589178	0.00827702	-4.607142e-05	0.0001617724	0.000800456	0.003351369
	0.0008115156	0.003353448	-4.607142e-05	0.0001617724	0.01593249	0.008285768	-0.0001226795	-4.919687e-05
	-4.622761e-05	-1.065391e-05	0.000800453	0.00335137	-0.0001226795	-4.919687e-05	0.01582003	0.008351673
3e+07	0.01903526	0.009593233	-0.0001021769	-6.904837e-05	0.001382311	0.004848878	-3.89018e-05	-1.788436e-05
	-0.0001021769	-6.904837e-05	0.01905511	0.009525989	-9.974392e-05	0.0001920883	0.00135823	0.004849363
	0.001382312	0.004848879	-9.974391e-05	0.0001920883	0.01912693	0.009530366	-0.0001021931	-6.910608e-05
	-3.89018e-05	-1.788436e-05	0.00135823	0.004849365	-0.0001021931	-6.910608e-05	0.01901471	0.009623627
4e+07	0.0220359	0.0100802	-8.729583e-05	-7.994932e-05	0.002210789	0.006174318	-3.330347e-05	-2.15864e-05
	-8.729583e-05	-7.994932e-05	0.02199811	0.01001899	-0.0001430191	0.0002146622	0.002169588	0.006181274
	0.002210788	0.006174319	-0.0001430191	0.0002146622	0.02211093	0.01000994	-8.732249e-05	-8.004469e-05
	-3.330347e-05	-2.15864e-05	0.002169589	0.006181275	-8.732249e-05	-8.004469e-05	0.02198657	0.0101284
5e+07	0.02485629	0.009964045	-7.571124e-05	-8.666571e-05	0.003366375	0.007256573	-2.871175e-05	-2.382299e-05
	-7.571124e-05	-8.666571e-05	0.02475663	0.00992435	-0.0001800415	0.0002346974	0.003304959	0.007274686
	0.003366373	0.007256573	-0.0001800415	0.0002346974	0.02491791	0.009889866	-7.575427e-05	-8.680889e-05
	-2.871175e-05	-2.382299e-05	0.00330496	0.007274686	-7.575427e-05	-8.680889e-05	0.02477129	0.01003826
6e+07	0.02748495	0.00933496	-6.610956e-05	-9.08245e-05	0.004657721	0.008119508	-2.475801e-05	-2.530681e-05
	-6.610956e-05	-9.08245e-05	0.02732186	0.009332168	-0.0002130405	0.0002539569	0.004574167	0.008154245
	0.004657718	0.008119507	-0.0002130405	0.0002539569	0.02753571	0.009258647	-6.61787e-05	-9.102479e-05
	-2.475801e-05	-2.530681e-05	0.004574169	0.008154246	-6.61787e-05	-9.102479e-05	0.02736	0.009445059
7e+07	0.02989294	0.008256075	-7.54303e-05	-8.108825e-05	0.006048524	0.008746627	-2.092921e-05	-2.618249e-05
	-7.54303e-05	-8.108825e-05	0.02966755	0.008305259	-0.0002433394	0.0002731248	0.005942167	0.008803878
	0.00604852	0.008746626	-0.0002433394	0.0002731248	0.02993485	0.00817852	-7.553388e-05	-8.133854e-05
	-2.092921e-05	-2.618249e-05	0.005942168	0.008803878	-7.553388e-05	-8.133854e-05	0.02972606	0.008412521
8e+07	0.03204557	0.006782264	-9.354122e-05	-5.829084e-05	0.007499099	0.009126189	-2.413905e-05	-2.09416e-05
	-9.354122e-05	-5.829084e-05	0.03176165	0.006898108	-0.0002725127	0.0002918664	0.007370585	0.00921201
	0.007499095	0.009126188	-0.0002725127	0.0002918664	0.03208029	0.006703879	-9.367864e-05	-5.858935e-05
	-2.413905e-05	-2.09416e-05	0.007370586	0.009212009	-9.367864e-05	-5.858935e-05	0.03183682	0.006995897
9e+07	0.03390899	0.004967785	-0.0001049237	-3.118932e-05	0.008967163	0.009251965	-2.759276e-05	-1.287027e-05
	-0.0001049237	-3.118932e-05	0.03357308	0.005164511	-0.0003033984	0.0003087464	0.008818467	0.009372324
	0.00896716	0.009251965	-0.0003033984	0.0003087464	0.03393799	0.004888831	-0.0001051075	-3.153902e-05
	-2.759276e-05	-1.287027e-05	0.008818468	0.009372324	-0.0001051075	-3.153903e-05	0.03366055	0.005249687
1e+08	0.03546279	0.002876321	-0.0001059285	1.881446e-06	0.01040464	0.009120189	-2.768256e-05	-3.163362e-06
	-0.0001059285	1.881446e-06	0.03508554	0.003168263	-0.0003469976	0.0003154675	0.01023903	0.009280722
	0.01040464	0.009120189	-0.0003469976	0.0003154675	0.03548867	0.002797974	-0.0001061724	1.475629e-06
	-2.768256e-05	-3.163362e-06	0.01023903	0.009280722	-0.0001061724	1.475629e-06	0.03517918	0.003237495
1.1e+08	0.03669472	0.0004914138	-9.248924e-05	2.154753e-05	0.01176166	0.008773779	-2.331065e-05	1.857413e-06
	-9.248924e-05	2.154753e-05	0.03629199	0.0008827057	-0.0003574997	0.0002913369	0.01158375	0.008979503
	0.01176166	0.008773779	-0.0003574997	0.0002913369	0.0367214	0.0004065935	-9.282116e-05	2.108048e-05
	-2.331065e-05	1.857413e-06	0.01158375	0.008979503	-9.282116e-05	2.108048e-05	0.03638405	0.0009416465
1.2e+08	0.03750894	-0.002094431	-8.224985e-05	3.505562e-05	0.01303416	0.008211499	-2.033412e-05	4.936948e-06
	-8.224985e-05	3.505562e-05	0.03708988	-0.001597392	-0.000354279	0.0002837293	0.01284959	0.008466485
	0.01303416	0.008211499	-0.000354279	0.0002837293	0.03753184	-0.002188615	-8.269229e-05	3.454925e-05
	-2.033412e-05	4.936948e-06	0.01284959	0.008466486	-8.269229e-05	3.454925e-05	0.03718076	-0.001546353
1.3e+08	0.03790197	-0.004803307	-7.234052e-05	4.58624e-05	0.01417984	0.007445491	-1.775804e-05	7.203917e-06
	-7.234052e-05	4.58624e-05	0.0374792	-0.004194672	-0.0003468942	0.000281581	0.01399518	0.007752751
	0.01417984	0.007445491	-0.0003468942	0.000281581	0.03791774	-0.004907563	-7.291079e-05	4.533991e-05
	-1.775804e-05	7.203917e-06	0.01399518	0.007752752	-7.291079e-05	4.533991e-05	0.03756794	-0.00415049
1.4e+08	0.03786877	-0.007567521	-6.230385e-05	5.462705e-05	0.01516467	0.006499145	-1.541295e-05	8.916135e-06
	-6.230385e-05	5.462705e-05	0.03745673	-0.006843603	-0.0003372162	0.0002820319	0.01498718	0.006860429
	0.01516467	0.006499145	-0.0003372162	0.0002820319	0.03787428	-0.007681584	-6.301428e-05	5.411554e-05
	-1.541295e-05	8.916135e-06	0.01498718	0.00686043	-6.301428e-05	5.411554e-05	0.03754218	-0.006805338
1.5e+08	0.0374115	-0.01032119	-5.202894e-05	6.159972e-05	0.01595982	0.005401848	-1.323367e-05	1.021084e-05
	-5.202894e-05	6.159972e-05	0.03702583	-0.00948097	-0.0003262242	0.0002836483	0.01579727	0.005817506
	0.01595982	0.005401848	-0.0003262242	0.0002836483	0.03740384	-0.01044401	-5.288582e-05	6.11297e-05
	-1.323367e-05	1.021084e-05	0.01579727	0.005817507	-5.288582e-05	6.11297e-05	0.03710687	-0.009447596
1.6e+08	0.03654057	-0.01300031	-4.154594e-05	6.688504e-05	0.01654214	0.004187633	-1.119e-05	1.117263e-05
	-4.154594e-05	6.688504e-05	0.03619751	-0.01204574	-0.0003146202	0.0002856215	0.01640247	0.004656513
	0.01654214	0.004187633	-0.0003146202	0.0002856215	0.03651708	-0.01313018	-4.254858e-05	6.648911e-05
	-1.119e-05	1.117263e-05	0.01640247	0.004656513	-4.254858e-05	6.648911e-05	0.0362731	-0.0120161
1.7e+08	0.03527477	-0.01554361	-3.096197e-05	7.053537e-05	0.01689466	0.002894045	-9.266557e-06	1.185978e-05
	-3.096197e-05	7.053537e-05	0.03499055	-0.01447973	-0.0003029838	0.0002875148	0.01678575	0.003413445
	0.01689466	0.002894045	-0.0003029838	0.0002875148	0.03523318	-0.01567819	-3.210216e-05	7.024655e-05
	-9.266557e-06	1.185978e-05	0.01678575	0.003413445	-3.210216e-05	7.024655e-05	0.0350598	-0.01445255
1.8e+08	0.03364109	-0.01789353	-2.043115e-05	7.259372e-05	0.01700703	0.001561015	-7.455012e-06	1.231554e-05
	-2.043115e-05	7.259372e-05	0.0334313	-0.01672854	-0.0002918111	0.000289152	0.01693637	0.002126693
	0.01700703	0.001561015	-0.0002918111	0.000289152	0.03357955	-0.01802998	-2.169301e-05	7.244366e-05
	-7.455012e-06	1.231554e-05	0.01693637	0.002126693	-2.169301e-05	7.244366e-05	0.03349353	-0.01670242
1.9e+08	0.03167429	-0.01999733	-1.013471e-05	7.311691e-05	0.0168758	0.0002297004	-5.750639e-06	1.257369e-05
	-1.013471e-05	7.311691e-05	0.03155327	-0.01874248	-0.000281519	0.0002905552	0.01685021	0.0008359339
	0.0168758	0.0002297004	-0.000281519	0.0002905552	0.03159149	-0.02013237	-1.149499e-05	7.313398e-05
	-5.750639e-06	1.257369e-05	0.01685021	0.000835934	-1.149499e-05	7.313398e-05	0.03160803	-0.01871592
2e+08	0.0294162	-0.02180812	-2.652514e-07	7.218815e-05	0.01650453	-0.001058698	-4.150543e-06	1.266169e-05
	-2.652514e-07	7.218815e-05	0.02939645	-0.0204775	-0.0002724344	0.0002919009	0.01652987	-0.0004189956
	0.01650453	-0.001058698	-0.0002724344	0.0002919009	0.02931143	-0.02193815	-1.694184e-06	7.239565e-05
	-4.150543e-06	1.266169e-05	0.01652987	-0.0004189955	-1.694184e-06	7.239565e-05	0.02944355	-0.02044897
2.1e+08	0.0269149	-0.02328584	8.987234e-06	6.9923e-05	0.01590366	-0.002264113	-2.652773e-06	1.26025e-05
	8.987234e-06	6.9923e-05	0.02700654	-0.02189608	-0.0002647818	0.0002934837	0.01598458	-0.001599225
	0.01590366	-0.002264113	-0.0002647818	0.0002934837	0.02678814	-0.02340704	7.524685e-06	7.033762e-05
	-2.652773e-06	1.26025e-05	0.01598458	-0.001599225	7.524685e-06	7.033762e-05	0.02704605	-0.02186403
2.2e+08	0.02422372	-0.02439811	1.744748e-05	6.647049e-05	0.01509028	-0.00334876	-1.255776e-06	1.241584e-05
	1.744748e-05	6.647049e-05	0.02443398	-0.02296795	-0.0002586692	0.0002956813	0.01522996	-0.002667948
	0.01509028	-0.00334876	-0.0002586692	0.0002956813	0.02407562	-0.02450657	1.598997e-05	6.710106e-05
	-1.255776e-06	1.241584e-05	0.01522996	-0.002667948	1.598997e-05	6.710106e-05	0.02446621	-0.02293086
2.3e+08	0.0214001	-0.02512095	2.496562e-05	6.20105e-05	0.0140876	-0.004278218	4.193212e-08	1.211889e-05
	2.496562e-05	6.20105e-05	0.02173288	-0.02367069	-0.0002540786	0.0002989195	0.01428761	-0.003591465
	0.0140876	-0.004278218	-0.0002540786	0.0002989195	0.02123205	-0.02521277	2.355348e-05	6.285718e-05
	4.193212e-08	1.211889e-05	0.01428761	-0.003591465	2.355348e-05	6.285718e-05	0.02175843	-0.02362715
2.4e+08	0.01850428	-0.02543927	3.142671e-05	5.674794e-05	0.01292438	-0.005022427	1.241918e-06	1.172685e-05
	3.142671e-05	5.674794e-05	0.01895988	-0.02399022	-0.000250864	0.0003036402	0.01318448	-0.004340141
	0.01292438	-0.005022427	-0.000250864	0.0003036402	0.01831839	-0.02551073	3.009983e-05	5.780193e-05
	1.241918e-06	1.172685e-05	0.01318448	-0.004340141	3.009983e-05	5.780193e-05	0.01897957	-0.02393892
2.5e+08	0.01559799	-0.02534728	3.675675e-05	5.090484e-05	0.01163403	-0.005556557	2.346016e-06	1.125328e-05
	3.675675e-05	5.090484e-05	0.01617287	-0.02392108	-0.0002487514	0.0003102657	0.01195211	-0.004889248
	0.01163403	-0.005556557	-0.0002487514	0.0003102657	0.01539708	-0.02539495	3.555236e-05	5.214863e-05
	2.346016e-06	1.125328e-05	0.01195211	-0.004889248	3.555236e-05	5.214863e-05	0.01618775	-0.0238609
2.6e+08	0.01274304	-0.02484858	4.092723e-05	4.471063e-05	0.01025378	-0.005861739	3.356371e-06	1.071034e-05
	4.092723e-05	4.471063e-05	0.01342975	-0.02346653	-0.0002473488	0.0003191683	0.0106258	-0.005219677
	0.01025378	-0.005861739	-0.0002473488	0.0003191683	0.01253058	-0.02486944	3.987786e-05	4.611878e-05
	3.356371e-06	1.071034e-05	0.0106258	-0.005219677	3.987786e-05	4.611878e-05	0.01344104	-0.02339651
2.7e+08	0.009999934	-0.02395609	4.395614e-05	3.839177e-05	0.008823516	-0.005925619	4.275498e-06	1.010885e-05
	4.395614e-05	3.839177e-05	0.01078709	-0.02263841	-0.0002461602	0.0003306398	0.009243581	-0.00531849
	0.008823516	-0.005925619	-0.0002461602	0.0003306398	0.009779959	-0.02394768	4.308777e-05	3.993218e-05
	4.275498e-06	1.010885e-05	0.009243581	-0.00531849	4.308777e-05	3.993218e-05	0.01079618	-0.02255787
2.8e+08	0.007426399	-0.02269177	4.590705e-05	3.216093e-05	0.007384739	-0.00574274	5.106211e-06	9.458462e-06
	4.590705e-05	3.216093e-05	0.008298911	-0.02145693	-0.0002446067	0.0003448702	0.007845134	-0.005179299
	0.007384739	-0.00574274	-0.0002446067	0.0003448702	0.007203471	-0.02265228	4.523754e-05	3.379665e-05
	5.106211e-06	9.458462e-06	0.007845134	-0.005179299	4.523754e-05	3.379665e-05	0.008307298	-0.02136541
2.9e+08	0.005076108	-0.02108611	4.688466e-05	2.620702e-05	0.005979324	-0.005314715	5.851597e-06	8.767644e-06
	4.688466e-05	2.620702e-05	0.006015441	-0.0199501	-0.0002420516	0.000361926	0.006470699	-0.004802459
	0.005979324	-0.005314715	-0.0002420516	0.000361926	0.004855158	-0.02101447	4.642281e-05	2.789831e-05
	5.851597e-06	8.767644e-06	0.006470699	-0.004802459	4.642281e-05	2.789831e-05	0.006024671	-0.01984742
3e+08	0.002997377	-0.0191774	4.70282e-05	2.068646e-05	0.004648344	-0.004650205	6.514906e-06	8.043686e-06
	4.70282e-05	2.068646e-05	0.003981966	-0.01815314	-0.00023783	0.000381737	0.005159919	-0.004195072
	0.004648344	-0.004650205	-0.00023783	0.000381737	0.002783603	-0.01907337	4.677323e-05	2.239315e-05
	6.514906e-06	8.043686e-06	0.005159919	-0.004195072	4.677323e-05	2.239315e-05	0.003993608	-0.01803941
3.1e+08	0.001232049	-0.01701084	4.650317e-05	1.571598e-05	0.003430885	-0.003764691	7.099374e-06	7.292823e-06
	4.650317e-05	1.571598e-05	0.002237821	-0.0161076	-0.0002312787	0.0004040933	0.003950717	-0.003370796
	0.003430885	-0.003764691	-0.0002312787	0.0004040933	0.001030763	-0.01687505	4.644481e-05	1.739989e-05
	7.099374e-06	7.292823e-06	0.003950717	-0.003370796	4.644481e-05	1.739989e-05	0.002253409	-0.01598321
3.2e+08	-0.0001855171	-0.01463744	4.549092e-05	1.136809e-05	0.002362922	-0.002680051	7.608086e-06	6.520242e-06
	4.549092e-05	1.136809e-05	0.0008154832	-0.01386041	-0.000221769	0.0004286433	0.002878217	-0.002349465
	0.002362922	-0.002680051	-0.000221769	0.0004286433	-0.0003690357	-0.01447142	4.561019e-05	1.299534e-05
	7.608086e-06	6.520242e-06	0.002878217	-0.002349465	4.561019e-05	1.299534e-05	0.0008364728	-0.013726
3.3e+08	-0.001229247	-0.01211284	4.41777e-05	7.669015e-06	0.001476279	-0.001423946	8.043787e-06	5.730217e-06
	4.41777e-05	7.669015e-06	-0.0002601413	-0.01146273	-0.0002087385	0.0004549029	0.001973751	-0.001156539
	0.001476279	-0.001423946	-0.0002087385	0.0004549029	-0.001389907	-0.01191904	4.444821e-05	9.212187e-06
	8.043787e-06	5.730217e-06	0.001973751	-0.001156539	4.444821e-05	9.212187e-06	-0.0002324308	-0.01131922
3.4e+08	-0.001881966	-0.009495939	4.274371e-05	4.599112e-06	0.0007977125	-2.904822e-05	8.408724e-06	4.926332e-06
	4.274371e-05	4.599112e-06	-0.0009722791	-0.008968758	-0.0001917166	0.0004822729	0.001263959	0.000177615
	0.0007977125	-2.904821e-05	-0.0001917166	0.0004822729	-0.002015024	-0.009277668	4.31335e-05	6.03897e-06
	8.408724e-06	4.926332e-06	0.001263959	0.000177615	4.31335e-05	6.03897e-06	-0.000936698	-0.008817289
3.5e+08	-0.002135803	-0.006847463	4.135217e-05	2.096378e-06	0.0003481322	0.001467885	8.704529e-06	4.11164e-06
	4.135217e-05	2.096378e-06	-0.001312645	-0.006434452	-0.0001703514	0.0005100575	0.0007700417	0.001618575
	0.0003481322	0.001467885	-0.0001703514	0.0005100575	-0.002237015	-0.006608877	4.182595e-05	3.423137e-06
	8.704529e-06	4.11164e-06	0.0007700417	0.001618575	4.182595e-05	3.423137e-06	-0.001268257	-0.006276354
3.6e+08	-0.001992358	-0.004228531	4.013987e-05	6.215498e-08	0.0001419955	0.00302705	8.932158e-06	3.288962e-06
	4.013987e-05	6.215498e-08	-0.001281588	-0.003916182	-0.0001444259	0.0005374923	0.0005071502	0.003128834
	0.0001419955	0.00302705	-0.0001444259	0.0005374923	-0.002058126	-0.003974527	4.066158e-05	1.276138e-06
	8.932158e-06	3.288962e-06	0.0005071502	0.003128834	4.066158e-05	1.276138e-06	-0.001227703	-0.003752949
3.7e+08	-0.001462633	-0.001699157	3.920929e-05	-1.630793e-06	0.0001868838	0.004606721	9.091895e-06	2.461126e-06
	3.920929e-05	-1.630793e-06	-0.0008880413	-0.00146941	-0.0001138724	0.0005637732	0.0004839611	0.004668854
	0.0001868838	0.004606721	-0.0001138724	0.0005637732	-0.001490137	-0.001435282	3.974476e-05	-5.19157e-07
	9.091895e-06	2.461126e-06	0.0004839611	0.004668854	3.974476e-05	-5.19157e-07	-0.0008242401	-0.001302648
3.8e+08	-0.000566744	0.0006831954	3.862299e-05	-3.128697e-06	0.0004832745	0.006164433	9.183442e-06	1.631245e-06
	3.862299e-05	-3.128697e-06	-0.0001492542	0.0008526174	-7.87777e-05	0.0005880881	0.0007024285	0.006198181
	0.0004832745	0.006164433	-7.87777e-05	0.0005880881	-0.0005540554	0.0009508806	3.914256e-05	-2.099549e-06
	9.183442e-06	1.631245e-06	0.0007024285	0.006198181	3.914256e-05	-2.099549e-06	-7.54063e-05	0.001021238
3.9e+08	0.0006666023	0.002864998	3.840048e-05	-4.586161e-06	0.001024516	0.007658182	9.206073e-06	8.029491e-07
	3.840048e-05	-4.586161e-06	0.0009096678	0.003000115	-3.938092e-05	0.0006096495	0.001157728	0.007676576
	0.001024516	0.007658182	-3.938092e-05	0.0006096495	0.0007204258	0.003130061	3.888145e-05	-3.61155e-06
	9.206073e-06	8.029491e-07	0.001157728	0.007676576	3.888145e-05	-3.61155e-06	0.0009933939	0.00316891
4e+08	0.002200839	0.004797944	3.851785e-05	-6.155001e-06	0.001797005	0.00904761	9.158864e-06	-1.943846e-08
	3.851785e-05	-6.155001e-06	0.002256414	0.004927921	3.933833e-06	0.0006277251	0.001838391	0.009065138
	0.001797005	0.00904761	3.933833e-06	0.0006277251	0.002295687	0.005053746	3.894652e-05	-5.200835e-06
	9.158864e-06	-1.943846e-08	0.001838391	0.009065138	3.894652e-05	-5.200835e-06	0.002349552	0.005095247
4.1e+08	0.003992461	0.006440096	3.891008e-05	-7.973533e-06	0.002780554	0.01029514	9.040971e-06	-8.307863e-07
	3.891008e-05	-7.973533e-06	0.00385229	0.006596533	5.065428e-05	0.0006416662	0.002726621	0.0103274
	0.002780554	0.01029514	5.065428e-05	0.0006416662	0.004127131	0.006679966	3.928328e-05	-7.002005e-06
	9.040971e-06	-8.307863e-07	0.002726621	0.0103274	3.928328e-05	-7.002005e-06	0.003954081	0.006760837
4.2e+08	0.005992118	0.007756879	3.947591e-05	-1.015669e-05	0.003948952	0.01136705	8.851926e-06	-1.625139e-06
	3.947591e-05	-1.015669e-05	0.005653183	0.007973003	0.0001001607	0.0006509312	0.00379879	0.01143033
	0.003948952	0.01136705	0.0001001607	0.0006509312	0.006164301	0.0079743	3.980193e-05	-9.129094e-06
	8.851926e-06	-1.625139e-06	0.00379879	0.01143033	3.980193e-05	-9.129094e-06	0.005762599	0.008132874
4.3e+08	0.008145836	0.008721885	4.008501e-05	-1.278762e-05	0.005270678	0.01223439	8.591933e-06	-2.395792e-06
	4.008501e-05	-1.278762e-05	0.007610659	0.009031672	0.0001517504	0.0006551045	0.005026091	0.01234525
	0.005270678	0.01223439	0.0001517504	0.0006551045	0.008352142	0.008910676	4.038374e-05	-1.166734e-05
	8.591933e-06	-2.395792e-06	0.005026091	0.01234525	4.038374e-05	-1.166734e-05	0.007726424	0.009185889
4.4e+08	0.01039637	0.009317475	4.058684e-05	-1.591133e-05	0.006709776	0.01287384	8.262134e-06	-3.135445e-06
	4.058684e-05	-1.591133e-05	0.009673145	0.009754716	0.0002046662	0.0006539084	0.00637533	0.01304864
	0.006709776	0.01287384	0.0002046662	0.0006539084	0.01063237	0.009471973	4.088926e-05	-1.466687e-05
	8.262134e-06	-3.135445e-06	0.00637533	0.01304864	4.088926e-05	-1.466687e-05	0.009793774	0.009902287
4.5e+08	0.01268459	0.009535159	4.082096e-05	-1.953074e-05	0.008226839	0.01326832	7.864826e-06	-3.836434e-06
	4.082096e-05	-1.953074e-05	0.01178719	0.01013251	0.0002581269	0.0006472098	0.007809839	0.0135228
	0.008226839	0.01326832	0.0002581269	0.0006472098	0.01294492	0.009650396	4.116778e-05	-1.813858e-05
	7.864826e-06	-3.836434e-06	0.007809839	0.0135228	4.116778e-05	-1.813858e-05	0.01191103	0.01027271
4.6e+08	0.01495096	0.009375756	4.062775e-05	-2.360535e-05	0.009780088	0.01340754	7.403546e-06	-4.491007e-06
	4.062775e-05	-2.360535e-05	0.01389875	0.01016378	0.0003113594	0.0006350169	0.009290479	0.01375631
	0.009780088	0.01340754	0.0003113594	0.0006350169	0.0152294	0.009447618	4.106749e-05	-2.205246e-05
	7.403546e-06	-4.491007e-06	0.009290479	0.01375631	4.106749e-05	-2.205246e-05	0.01402401	0.01029618
4.7e+08	0.01713699	0.008849303	3.985929e-05	-2.805245e-05	0.01132652	0.01328823	6.882692e-06	-5.091589e-06
	3.985929e-05	-2.805245e-05	0.01595448	0.009855585	0.0003636233	0.000617475	0.01077671	0.01374436
	0.01132652	0.01328823	0.0003636233	0.000617475	0.01742661	0.008874697	4.044547e-05	-2.633826e-05
	6.882692e-06	-5.091589e-06	0.01077671	0.01374436	4.044547e-05	-2.633826e-05	0.01607933	0.009980035
