!$
! Info: Touchstone file created by Circ.  Input file=Tx_8in_Rx_85ohms_TxVia_60mils_RxVia_70mils.circ
!$
# Hz S RI R 50
0	0.00654887	1.189774e-25	-4.349825e-05	7.517498e-24	6.306025e-05	1.287526e-23	-4.353453e-05	1.206783e-23
	-4.349825e-05	7.516946e-24	0.006544157	1.389667e-25	-4.346076e-05	3.02952e-24	6.326528e-05	1.588997e-23
	6.404203e-05	1.310096e-23	-4.346075e-05	3.02856e-24	0.006562941	1.139256e-25	-4.349249e-05	7.024518e-24
	-4.353452e-05	1.206683e-23	6.353504e-05	1.595811e-23	-4.34925e-05	7.025016e-24	0.006558652	1.38347e-25
1e+07	0.009664272	-0.007149046	-0.0001881866	-2.366006e-05	0.0001993434	0.001610423	-0.0001279154	8.080259e-05
	-0.0001881866	-2.366006e-05	0.008578489	-0.007263059	-5.608838e-06	-1.244027e-05	0.0002585012	0.001614796
	0.0001993524	0.00161039	-5.608839e-06	-1.244026e-05	0.008610001	-0.00739791	-3.98482e-05	-1.33262e-05
	-0.0001279154	8.080259e-05	0.0002585036	0.001614793	-3.98482e-05	-1.33262e-05	0.008567379	-0.007252345
2e+07	0.009877953	-0.01692033	-0.0001694492	8.278877e-06	0.0006126243	0.003169125	-0.0001236009	7.765462e-05
	-0.0001694492	8.278877e-06	0.008880379	-0.01671189	-4.98243e-06	-3.566144e-06	0.0006956227	0.003126144
	0.0006125974	0.003169124	-4.982428e-06	-3.566144e-06	0.008805528	-0.01693771	-3.578323e-05	3.595301e-06
	-0.0001236009	7.765462e-05	0.0006956197	0.003126145	-3.578323e-05	3.595302e-06	0.008875856	-0.01668349
3e+07	0.007704837	-0.02722888	-0.0001605212	1.792763e-07	0.001316697	0.004574884	-0.0001106742	9.099198e-05
	-0.0001605212	1.792762e-07	0.006760756	-0.0268825	-4.629174e-06	-1.111328e-06	0.001364036	0.00452232
	0.001316695	0.004574888	-4.629174e-06	-1.111329e-06	0.006623809	-0.02713366	-3.522876e-05	-2.087942e-07
	-0.0001106742	9.099198e-05	0.001364036	0.004522322	-3.522876e-05	-2.087938e-07	0.006760175	-0.02684291
4e+07	0.003508544	-0.03720657	-0.0001538959	-1.135015e-06	0.002231859	0.005819491	-9.174558e-05	0.0001015573
	-0.0001538959	-1.135015e-06	0.002597308	-0.03675396	-4.27368e-06	3.073201e-07	0.002242021	0.005769678
	0.002231858	0.005819487	-4.27368e-06	3.073204e-07	0.00242969	-0.03701434	-3.536572e-05	-1.611814e-06
	-9.174558e-05	0.0001015573	0.002242022	0.005769679	-3.536572e-05	-1.611815e-06	0.002598882	-0.03670499
5e+07	-0.002472403	-0.04642635	-0.0001486027	5.6118e-07	0.003327183	0.006872771	-6.885388e-05	0.0001060151
	-0.0001486027	5.611801e-07	-0.003365968	-0.04587518	-3.897414e-06	1.310398e-06	0.003299256	0.006835737
	0.00332718	0.006872769	-3.897414e-06	1.310398e-06	-0.003539084	-0.0461425	-3.591711e-05	-1.74648e-06
	-6.885388e-05	0.0001060151	0.003299257	0.006835737	-3.591711e-05	-1.74648e-06	-0.003364089	-0.04581721
6e+07	-0.01000431	-0.05456993	-0.0001440168	4.061088e-06	0.004565343	0.007708684	-4.426547e-05	0.0001027881
	-0.0001440168	4.061088e-06	-0.01089029	-0.05391813	-3.494007e-06	2.090602e-06	0.004499595	0.007693825
	0.004565345	0.007708688	-3.494007e-06	2.090602e-06	-0.01104915	-0.05419736	-3.665292e-05	-9.606982e-07
	-4.426547e-05	0.0001027881	0.004499596	0.007693825	-3.665292e-05	-9.606981e-07	-0.01088955	-0.05385078
7e+07	-0.01883652	-0.06138634	-0.0001396655	8.839904e-06	0.005904771	0.00830796	-2.045739e-05	9.114357e-05
	-0.0001396655	8.839904e-06	-0.0197205	-0.06062712	-3.333225e-06	2.265127e-06	0.005802916	0.008324349
	0.005904781	0.008307965	-3.333225e-06	2.265126e-06	-0.01984993	-0.06092725	-3.737134e-05	5.814564e-07
	-2.045739e-05	9.114357e-05	0.005802917	0.008324348	-3.737134e-05	5.814563e-07	-0.01972205	-0.06054964
8e+07	-0.02869867	-0.06668115	-0.0001351342	1.461952e-05	0.007301351	0.008659073	-5.796306e-08	7.097506e-05
	-0.0001351342	1.461952e-05	-0.02958221	-0.06580523	-3.308972e-06	2.234357e-06	0.007166699	0.00871544
	0.007301364	0.008659075	-3.308972e-06	2.234357e-06	-0.02967082	-0.06613745	-3.78889e-05	2.759646e-06
	-5.796315e-08	7.097506e-05	0.0071667	0.00871544	-3.78889e-05	2.759646e-06	-0.02958696	-0.06571656
9e+07	-0.03930409	-0.0703135	-0.0001299834	2.12757e-05	0.008710107	0.008758694	1.40982e-05	4.258061e-05
	-0.0001299834	2.12757e-05	-0.040185	-0.06931069	-3.289748e-06	2.241463e-06	0.008547725	0.008863381
	0.008710118	0.008758693	-3.289749e-06	2.241463e-06	-0.0402241	-0.06968634	-3.80403e-05	5.465701e-06
	1.40982e-05	4.258061e-05	0.008547725	0.008863381	-3.80403e-05	5.4657e-06	-0.04019364	-0.06920946
1e+08	-0.05035604	-0.07219552	-0.0001232053	2.933031e-05	0.01008748	0.008612238	1.736885e-05	4.887974e-06
	-0.0001232053	2.933031e-05	-0.05123016	-0.07105752	-3.283597e-06	2.254764e-06	0.009905125	0.008774024
	0.01008748	0.008612238	-3.283597e-06	2.254764e-06	-0.05120635	-0.07148014	-3.762785e-05	8.670473e-06
	1.736885e-05	4.887974e-06	0.009905125	0.008774024	-3.762785e-05	8.670473e-06	-0.05124317	-0.07094224
1.1e+08	-0.06155453	-0.07228767	-0.000118521	3.992776e-05	0.01139282	0.008227349	2.03866e-05	-4.490529e-05
	-0.000118521	3.992776e-05	-0.06241678	-0.07099543	-3.206182e-06	2.262288e-06	0.01120264	0.008446676
	0.01139282	0.008227349	-3.206182e-06	2.262288e-06	-0.06230451	-0.07151922	-3.706145e-05	1.232999e-05
	2.03866e-05	-4.490529e-05	0.01120264	0.008446677	-3.706145e-05	1.232999e-05	-0.06243415	-0.07086348
1.2e+08	-0.07259971	-0.07060498	-0.0001140049	4.917811e-05	0.01258215	0.007625385	1.628657e-05	-9.279565e-05
	-0.0001140049	4.917811e-05	-0.07342917	-0.06914623	-3.112012e-06	2.315069e-06	0.01238946	0.007903596
	0.01258215	0.007625385	-3.112012e-06	2.315069e-06	-0.07326072	-0.06980396	-3.603094e-05	1.587696e-05
	1.628657e-05	-9.279565e-05	0.01238946	0.007903597	-3.603094e-05	1.587696e-05	-0.07344939	-0.06899551
1.3e+08	-0.08320683	-0.0672094	-0.0001089486	5.780811e-05	0.01362237	0.006832929	2.223917e-06	-0.0001393837
	-0.0001089486	5.780811e-05	-0.08398156	-0.06557822	-3.006884e-06	2.387138e-06	0.01343445	0.007171702
	0.01362237	0.006832929	-3.006884e-06	2.387138e-06	-0.08378422	-0.06638684	-3.44706e-05	1.929041e-05
	2.223917e-06	-0.0001393837	0.01343445	0.007171703	-3.44706e-05	1.929041e-05	-0.08400284	-0.0654071
1.4e+08	-0.09310864	-0.06220641	-0.0001032496	6.586226e-05	0.01448509	0.005880608	-2.224999e-05	-0.0001829494
	-0.0001032496	6.586226e-05	-0.09380502	-0.06040172	-2.891328e-06	2.468968e-06	0.01431009	0.006280465
	0.01448509	0.005880608	-2.891328e-06	2.468968e-06	-0.09360652	-0.06137066	-3.240355e-05	2.246762e-05
	-2.224999e-05	-0.0001829494	0.01431009	0.006280466	-3.240355e-05	2.246762e-05	-0.0938252	-0.060209
1.5e+08	-0.1020617	-0.05574119	-9.690712e-05	7.329319e-05	0.01514784	0.004802684	-5.680927e-05	-0.0002214401
	-9.690712e-05	7.329319e-05	-0.1026551	-0.05376694	-2.766275e-06	2.553975e-06	0.01499431	0.005262659
	0.01514784	0.004802684	-2.766275e-06	2.553975e-06	-0.1024836	-0.05489909	-2.988723e-05	2.530913e-05
	-5.680927e-05	-0.0002214401	0.01499431	0.00526266	-2.988723e-05	2.530913e-05	-0.1026717	-0.05355185
1.6e+08	-0.1098515	-0.04799377	-8.997055e-05	8.003192e-05	0.0155944	0.003636001	-0.0001005268	-0.0002528154
	-8.997055e-05	8.003192e-05	-0.1103173	-0.04585909	-2.633452e-06	2.637266e-06	0.01547096	0.004153488
	0.0155944	0.003636001	-2.633452e-06	2.637266e-06	-0.1102006	-0.04715126	-2.700304e-05	2.773212e-05
	-0.0001005268	-0.0002528154	0.01547096	0.004153489	-2.700304e-05	2.773212e-05	-0.1103277	-0.04562141
1.7e+08	-0.1162971	-0.03917369	-8.252044e-05	8.60127e-05	0.01581499	0.002418908	-0.0001519691	-0.0002752309
	-8.252044e-05	8.60127e-05	-0.1166116	-0.03689287	-2.495371e-06	2.715371e-06	0.01572998	0.002989617
	0.01581499	0.002418909	-2.495371e-06	2.715371e-06	-0.1165762	-0.03833604	-2.384874e-05	2.967629e-05
	-0.0001519691	-0.0002752309	0.01572998	0.002989617	-2.384874e-05	2.967629e-05	-0.1166129	-0.03663294
1.8e+08	-0.1212544	-0.029514	-7.465734e-05	9.118384e-05	0.01580624	0.001190236	-0.0002092867	-0.0002871658
	-7.465734e-05	9.118384e-05	-0.1213958	-0.02710641	-2.355096e-06	2.786238e-06	0.01576733	0.001808226
	0.01580624	0.001190236	-2.355096e-06	2.786238e-06	-0.1214662	-0.0286861	-2.053141e-05	3.110636e-05
	-0.0002092867	-0.0002871658	0.01576733	0.001808226	-2.053141e-05	3.110636e-05	-0.1213852	-0.02682514
1.9e+08	-0.1246185	-0.01926525	-6.649331e-05	9.551296e-05	0.01557099	-1.166751e-05	-0.0002703149	-0.0002875144
	-6.649331e-05	9.551296e-05	-0.1245679	-0.01675496	-2.215908e-06	2.849257e-06	0.01558487	0.0006461253
	0.01557099	-1.16675e-05	-2.215908e-06	2.849257e-06	-0.1247655	-0.01845171	-1.716097e-05	3.201277e-05
	-0.0002703149	-0.0002875144	0.01558487	0.0006461255	-1.716097e-05	3.201277e-05	-0.1245429	-0.01645387
2e+08	-0.1263255	-0.00868919	-5.814517e-05	9.898895e-05	0.01511807	-0.001149806	-0.0003326827	-0.0002756483
	-5.814517e-05	9.898895e-05	-0.1260681	-0.00610448	-2.080914e-06	2.905201e-06	0.01519012	-0.0004610508
	0.01511807	-0.001149806	-2.080914e-06	2.905201e-06	-0.1264104	-0.007894471	-1.384435e-05	3.24107e-05
	-0.0003326827	-0.0002756483	0.01519012	-0.0004610508	-1.384435e-05	3.24107e-05	-0.1260262	-0.005785642
2.1e+08	-0.1263534	0.001947528	-4.972861e-05	0.0001016222	0.01446187	-0.00218933	-0.0003939292	-0.000251449
	-4.972861e-05	0.0001016222	-0.125879	0.004574861	-1.952661e-06	2.956091e-06	0.01459591	-0.001479579
	0.01446187	-0.00218933	-1.952661e-06	2.956091e-06	-0.1263787	0.002719046	-1.068028e-05	3.233822e-05
	-0.0003939292	-0.000251449	0.01459591	-0.001479579	-1.068028e-05	3.233822e-05	-0.125818	0.004908847
2.2e+08	-0.1247214	0.01237956	-4.135339e-05	0.0001034435	0.01362194	-0.00309826	-0.0004516185	-0.0002153148
	-4.135339e-05	0.0001034435	-0.1240253	0.01501504	-1.832784e-06	3.004926e-06	0.01381999	-0.002378315
	0.01362194	-0.00309826	-1.832784e-06	3.004926e-06	-0.12469	0.01312355	-7.754881e-06	3.185348e-05
	-0.0004516185	-0.0002153148	0.01381999	-0.002378315	-7.754881e-06	3.185348e-05	-0.1239437	0.01536113
2.3e+08	-0.1214897	0.02234897	-3.311915e-05	0.0001045022	0.01262252	-0.003848137	-0.0005034536	-0.0001681423
	-3.311915e-05	0.0001045022	-0.1205732	0.02495644	-1.721744e-06	3.05534e-06	0.01288463	-0.003129309
	0.01262252	-0.003848137	-1.721744e-06	3.05534e-06	-0.1214045	0.02306114	-5.138033e-06	3.10313e-05
	-0.0005034536	-0.0001681423	0.01288463	-0.003129309	-5.138033e-06	3.10313e-05	-0.12047	0.02531121
2.4e+08	-0.1167571	0.03161108	-2.511165e-05	0.0001048634	0.011492	-0.004414631	-0.0005473803	-0.0001112807
	-2.511165e-05	0.0001048634	-0.1156281	0.03415376	-1.618686e-06	3.111197e-06	0.01181615	-0.003708373
	0.011492	-0.004414631	-1.618686e-06	3.111197e-06	-0.1166214	0.03228719	-2.880283e-06	2.99594e-05
	-0.0005473803	-0.0001112807	0.01181615	-0.003708373	-2.880283e-06	2.99594e-05	-0.1155028	0.03451354
2.5e+08	-0.1106589	0.03994004	-1.739999e-05	0.0001046048	0.0102623	-0.004778091	-0.0005816795	-4.647013e-05
	-1.739999e-05	0.0001046048	-0.1093319	0.04238175	-1.521413e-06	3.176143e-06	0.01064435	-0.004095621
	0.0102623	-0.004778091	-1.521413e-06	3.176143e-06	-0.1104766	0.04057599	-1.010654e-06	2.873398e-05
	-0.0005816795	-4.647013e-05	0.01064435	-0.004095621	-1.010654e-06	2.873398e-05	-0.1091849	0.04274272
2.6e+08	-0.1033638	0.04713404	-1.003412e-05	0.000103813	0.008968256	-0.004924048	-0.0006050425	2.424309e-05
	-1.003412e-05	0.000103813	-0.1018599	0.04944041	-1.426509e-06	3.253198e-06	0.009401961	-0.004275958
	0.008968256	-0.004924048	-1.426509e-06	3.253198e-06	-0.103139	0.04772588	4.649132e-07	2.745501e-05
	-0.0006050425	2.424309e-05	0.009401961	-0.004275958	4.649132e-07	2.745501e-05	-0.1016921	0.04979874
2.7e+08	-0.09506948	0.05302006	-3.043393e-06	0.0001025792	0.007646833	-0.004843665	-0.0006166278	9.860094e-05
	-3.043393e-06	0.0001025792	-0.09341644	0.05515976	-1.329571e-06	3.34438e-06	0.008123977	-0.004239537
	0.007646833	-0.004843665	-1.329571e-06	3.34438e-06	-0.09480686	0.05356409	1.564168e-06	2.622116e-05
	-0.0006166278	9.860094e-05	0.008123977	-0.004239537	1.564168e-06	2.622116e-05	-0.09322956	0.05551174
2.8e+08	-0.08599861	0.05745806	3.56439e-06	0.0001009944	0.006336349	-0.004534115	-0.0006160932	0.0001742456
	3.56439e-06	0.0001009944	-0.08422999	0.05940401	-1.225542e-06	3.450463e-06	0.006846889	-0.003982152
	0.006336349	-0.004534115	-1.225542e-06	3.450463e-06	-0.08570333	0.05795096	2.328274e-06	2.51245e-05
	-0.0006160932	0.0001742456	0.006846889	-0.003982152	2.328274e-06	2.51245e-05	-0.08402645	0.0597462
2.9e+08	-0.07639322	0.06034456	9.802587e-06	9.914438e-05	0.005075542	-0.00399886	-0.0006036046	0.0002488295
	9.802587e-06	9.914438e-05	-0.07454795	0.06207509	-1.10911e-06	3.570808e-06	0.005607848	-0.00350555
	0.005075542	-0.00399886	-1.10911e-06	3.570808e-06	-0.07607094	0.06078343	2.820271e-06	2.424498e-05
	-0.0006036046	0.0002488295	0.005607848	-0.00350555	2.820271e-06	2.424498e-05	-0.07433087	0.06240443
3e+08	-0.06650912	0.06161542	1.57041e-05	9.710455e-05	0.003902581	-0.003247813	-0.0005798219	0.0003201268
	1.57041e-05	9.710455e-05	-0.06463059	0.06311529	-9.751155e-07	3.703341e-06	0.00444373	-0.002817633
	0.003902581	-0.003247813	-9.751155e-07	3.703341e-06	-0.06616598	0.06199796	3.122254e-06	2.364518e-05
	-0.0005798219	0.0003201268	0.00444373	-0.002817633	3.122254e-06	2.364518e-05	-0.06440366	0.06342924
3.1e+08	-0.05660967	0.06124784	2.131861e-05	9.493511e-05	0.002853986	-0.002297348	-0.0005458519	0.0003861454
	2.131861e-05	9.493511e-05	-0.05474457	0.06250917	-8.18945e-07	3.844672e-06	0.003390114	-0.001932519
	0.002853986	-0.002297348	-8.18945e-07	3.844672e-06	-0.0562522	0.06157239	3.33126e-06	2.336548e-05
	-0.0005458519	0.0003861454	0.003390114	-0.001932519	3.33126e-06	2.336548e-05	-0.054512	0.06280581
3.2e+08	-0.04695916	0.05926136	2.670824e-05	9.26767e-05	0.001963511	-0.001170122	-0.0005031843	0.0004452185
	2.670824e-05	9.26767e-05	-0.04515624	0.06028427	-6.368599e-07	3.990291e-06	0.002480204	-0.0008704212
	0.001963511	-0.001170122	-6.368599e-07	3.990291e-06	-0.04659424	0.05952703	3.553653e-06	2.342015e-05
	-0.0005031843	0.0004452185	0.002480204	-0.0008704212	3.553653e-06	2.342015e-05	-0.0449227	0.06056241
3.3e+08	-0.03781606	0.05571778	3.19426e-05	9.034782e-05	0.001260996	0.0001053188	-0.0004536333	0.0004960697
	3.19426e-05	9.034782e-05	-0.03612476	0.05651088	-4.262309e-07	4.134854e-06	0.001743719	0.00034267
	0.001260996	0.0001053188	-4.262309e-07	4.134854e-06	-0.0374508	0.05592454	3.898634e-06	2.379507e-05
	-0.0004536333	0.0004960697	0.001743719	0.00034267	3.898634e-06	2.379507e-05	-0.03589514	0.05677017
3.4e+08	-0.02942616	0.05072012	3.699683e-05	8.785716e-05	0.0007712601	0.001495154	-0.000388534	0.0005418398
	3.699683e-05	8.785716e-05	-0.02789507	0.0513007	-1.841545e-07	4.273915e-06	0.001205809	0.001675534
	0.0007712601	0.001495154	-1.841545e-07	4.273915e-06	-0.0290678	0.05086884	4.372826e-06	2.436647e-05
	-0.000388534	0.0005418398	0.001205809	0.001675534	4.372826e-06	2.436647e-05	-0.02767439	0.05154169
3.5e+08	-0.02201597	0.04441019	4.200226e-05	8.527228e-05	0.0005130767	0.002961153	-0.0003185222	0.0005768133
	4.200226e-05	8.527228e-05	-0.02069125	0.04480422	8.845459e-08	4.399513e-06	0.0008860373	0.003092505
	0.0005130767	0.002961153	8.845459e-08	4.399513e-06	-0.02167169	0.04450274	5.139267e-06	2.515674e-05
	-0.0003185222	0.0005768133	0.0008860373	0.003092505	5.139267e-06	2.515674e-05	-0.02048452	0.04502835
3.6e+08	-0.01578633	0.03696526	4.702818e-05	8.255576e-05	0.0004982918	0.004461769	-0.0002474568	0.0006004218
	4.702818e-05	8.255576e-05	-0.01471014	0.03720704	3.899729e-07	4.505462e-06	0.0007974968	0.004554475
	0.0004982918	0.004461769	3.899729e-07	4.505462e-06	-0.01546314	0.03700453	6.28877e-06	2.608323e-05
	-0.0002474568	0.0006004218	0.0007974968	0.004554475	6.28877e-06	2.608323e-05	-0.01452219	0.03741665
3.7e+08	-0.01090672	0.02859355	5.211058e-05	7.963658e-05	0.0007311532	0.005953427	-0.0001774876	0.0006133261
	5.211058e-05	7.963658e-05	-0.0101157	0.02872506	7.178715e-07	4.586292e-06	0.000946123	0.006020116
	0.0007311532	0.005953427	7.178715e-07	4.586292e-06	-0.01061127	0.02858338	7.871049e-06	2.702928e-05
	-0.0001774876	0.0006133261	0.000946123	0.006020116	7.871049e-06	2.702928e-05	-0.009951016	0.02892337
3.8e+08	-0.007510323	0.01952864	5.725981e-05	7.643103e-05	0.001207899	0.007391986	-0.000110484	0.0006166284
	5.725981e-05	7.643103e-05	-0.007034186	0.01959863	1.068712e-06	4.637159e-06	0.001330249	0.007447254
	0.001207899	0.007391986	1.068712e-06	4.637159e-06	-0.007248744	0.01947386	9.90286e-06	2.786577e-05
	-0.000110484	0.0006166284	0.001330249	0.007447254	9.90286e-06	2.786577e-05	-0.006896731	0.01978969
3.9e+08	-0.005690082	0.01002316	6.245725e-05	7.285058e-05	0.001916655	0.008734296	-4.79382e-05	0.0006117857
	6.245725e-05	7.285058e-05	-0.005550337	0.01008592	1.438334e-06	4.653944e-06	0.001940457	0.008794352
	0.001916655	0.008734296	1.438334e-06	4.653944e-06	-0.005467831	0.009929473	1.236502e-05	2.846051e-05
	-4.79382e-05	0.0006117857	0.001940457	0.008794352	1.236502e-05	2.846051e-05	-0.005443427	0.01027456
4e+08	-0.005495919	0.0003417046	6.765434e-05	6.881077e-05	0.002837657	0.009939777	9.101488e-06	0.0006005015
	6.765434e-05	6.881077e-05	-0.005704852	0.0004556966	1.822014e-06	4.633292e-06	0.002759743	0.01002202
	0.002837657	0.009939777	1.822014e-06	4.633292e-06	-0.005317632	0.0002156086	1.520224e-05	2.868845e-05
	9.101488e-06	0.0006005015	0.002759743	0.01002202	1.520224e-05	2.868845e-05	-0.005630998	0.0006473481
4.1e+08	-0.006933247	-0.00924659	7.277454e-05	6.424002e-05	0.003943824	0.01097195	6.007352e-05	0.0005846044
	7.277454e-05	6.424002e-05	-0.007493134	-0.009020404	2.214596e-06	4.572635e-06	0.003764016	0.01109451
	0.003943824	0.01097195	2.214596e-06	4.572635e-06	-0.0068026	-0.009397943	1.832596e-05	2.844157e-05
	6.007352e-05	0.0005846044	0.003764016	0.01109451	1.832596e-05	2.844157e-05	-0.007453925	-0.008819781
4.2e+08	-0.009962836	-0.01847572	7.771768e-05	5.908765e-05	0.00520165	0.01179983	0.0001049105	0.0005659201
	7.771768e-05	5.908765e-05	-0.01086546	-0.01807562	2.610595e-06	4.470208e-06	0.004922906	0.01198103
	0.00520165	0.01179983	2.610595e-06	4.470208e-06	-0.009882441	-0.01864466	2.162003e-05	2.763771e-05
	0.0001049105	0.0005659201	0.004922906	0.01198103	2.162003e-05	2.763771e-05	-0.01086147	-0.01785972
4.3e+08	-0.01450205	-0.02709035	8.236673e-05	5.333027e-05	0.006572376	0.0123991	0.000144013	0.0005461473
	8.236673e-05	5.333027e-05	-0.01572855	-0.0264557	3.004272e-06	4.325086e-06	0.00620085	0.01265691
	0.006572376	0.0123991	3.004272e-06	4.325086e-06	-0.01447337	-0.02726887	2.494876e-05	2.622749e-05
	0.000144013	0.0005461473	0.00620085	0.01265691	2.494876e-05	2.622749e-05	-0.01575927	-0.02621807
4.4e+08	-0.02042743	-0.034853	8.659602e-05	4.697593e-05	0.008013402	0.01275303	0.0001781945	0.0005267444
	8.659602e-05	4.697593e-05	-0.02194845	-0.03392614	3.389733e-06	4.137242e-06	0.007558398	0.0131045
	0.008013402	0.01275303	3.389733e-06	4.137242e-06	-0.0204507	-0.0350329	2.816665e-05	2.41985e-05
	0.0001781945	0.0005267444	0.007558398	0.0131045	2.816665e-05	2.41985e-05	-0.02201226	-0.03366033
4.5e+08	-0.02757845	-0.0415506	9.028054e-05	4.006556e-05	0.009479845	0.01285303	0.0002085987	0.0005088356
	9.028054e-05	4.006556e-05	-0.0293547	-0.0402787	3.761061e-06	3.907617e-06	0.008953676	0.01331375
	0.009479845	0.01285303	3.761061e-06	3.907617e-06	-0.02765271	-0.04172375	3.112895e-05	2.157656e-05
	0.0002085987	0.0005088356	0.008953676	0.01331375	3.112895e-05	2.157656e-05	-0.02944884	-0.03997847
4.6e+08	-0.03576244	-0.04700026	9.330498e-05	3.267162e-05	0.01092617	0.0126989	0.0002365981	0.0004931421
	9.330498e-05	3.267162e-05	-0.03774551	-0.04533701	4.1125e-06	3.638168e-06	0.01034391	0.01328244
	0.01092617	0.0126989	4.1125e-06	3.638168e-06	-0.03588549	-0.04715873	3.370199e-05	1.84238e-05
	0.0002365981	0.0004931421	0.01034391	0.01328244	3.370199e-05	1.84238e-05	-0.03786614	-0.04499655
4.7e+08	-0.04476028	-0.05105399	9.557188e-05	2.489434e-05	0.01230781	0.01229871	0.0002636767	0.000479943
	9.557188e-05	2.489434e-05	-0.04689381	-0.04896123	4.438662e-06	3.331898e-06	0.01168696	0.01301615
	0.01230781	0.01229871	4.438662e-06	3.331898e-06	-0.04492875	-0.05119029	3.577237e-05	1.483407e-05
	0.0002636767	0.000479943	0.01168696	0.01301615	3.577237e-05	1.483407e-05	-0.04703606	-0.04857533
4.8e+08	-0.05433285	-0.05360233	9.700846e-05	1.685567e-05	0.01358271	0.01166837	0.0002913121	0.0004690658
