!$
! Info: Touchstone file created by Circ.  Input file=Tx_8in_Rx_100ohms_TxVia_60mils_RxVia_70mils.circ
!$
# Hz S RI R 50
0	0.00839955	1.305811e-25	0.99146	-1.219867e-25	6.62556e-05	1.83069e-23	-6.159001e-05	2.274577e-21
	0.99146	-1.2343e-25	0.008394896	1.383605e-25	-6.20707e-05	2.333488e-21	6.300308e-05	2.042828e-23
	6.747892e-05	1.778664e-23	-6.138121e-05	2.249043e-21	0.00841024	1.295212e-25	0.9914384	-1.188107e-25
	-6.185907e-05	2.307521e-21	6.327274e-05	2.051588e-23	0.9914384	-1.248131e-25	0.008409337	1.377438e-25
1e+07	0.01229788	0.005623096	0.984299	-0.08459146	0.0005139607	0.001634088	-0.0003951176	-0.0002113834
	0.984299	-0.08459146	0.01229286	0.005622571	-0.0003952193	-0.0002113268	0.0005113336	0.001634786
	0.0005140311	0.001634056	-0.0003951857	-0.0002113469	0.01219026	0.005640456	0.9844005	-0.0846915
	-0.000395084	-0.0002114035	0.0005113361	0.001634783	0.9844005	-0.0846915	0.0121846	0.005640184
2e+07	0.01591232	0.00827665	0.9710568	-0.1654673	0.0008107248	0.003348471	-0.0003488588	-0.0005484793
	0.9710568	-0.1654673	0.01589178	0.00827702	-0.0003488857	-0.0005483939	0.000800456	0.003351369
	0.0008107107	0.003348434	-0.0003488935	-0.0005484132	0.01584318	0.008350617	0.9711012	-0.1657054
	-0.0003488523	-0.0005485157	0.000800453	0.00335137	0.9711012	-0.1657054	0.01582003	0.008351673
3e+07	0.01910113	0.009519562	0.9520846	-0.2438579	0.001380616	0.004841621	-0.0003621692	-0.0007453736
	0.9520846	-0.2438579	0.01905511	0.009525989	-0.000362215	-0.0007453347	0.00135823	0.004849363
	0.001380613	0.004841621	-0.0003622167	-0.0007453344	0.01906635	0.009615264	0.9520635	-0.2441965
	-0.0003621714	-0.0007453773	0.00135823	0.004849365	0.9520635	-0.2441965	0.01901471	0.009623627
4e+07	0.02207851	0.009999437	0.9272565	-0.3199688	0.002207882	0.006164996	-0.000435863	-0.0008885068
	0.9272565	-0.3199688	0.02199811	0.01001899	-0.0004359574	-0.0008884485	0.002169588	0.006181274
	0.002207887	0.006164996	-0.0004359537	-0.0008884482	0.02207662	0.01010491	0.9271596	-0.3203923
	-0.0004358548	-0.0008885014	0.002169589	0.006181275	0.9271596	-0.3203923	0.02198657	0.0101284
5e+07	0.02487847	0.009881897	0.8966648	-0.3935087	0.00336201	0.00724544	-0.0006651366	-0.0009358622
	0.8966648	-0.3935087	0.02475663	0.00992435	-0.0006652536	-0.000935745	0.003304959	0.007274686
	0.003362012	0.007245438	-0.0006652514	-0.0009357458	0.02490767	0.009988616	0.8964817	-0.3940036
	-0.0006651304	-0.0009358613	0.00330496	0.007274686	0.8964817	-0.3940036	0.02477129	0.01003826
6e+07	0.0274894	0.009255505	0.8604823	-0.4641127	0.004651697	0.008106868	-0.0008854726	-0.0009392226
	0.8604823	-0.4641127	0.02732186	0.009332168	-0.0008855881	-0.0009390369	0.004574167	0.008154245
	0.004651696	0.00810687	-0.0008855885	-0.0009390362	0.02754732	0.009356527	0.8602038	-0.4646655
	-0.0008854782	-0.000939222	0.004574169	0.008154246	0.8602038	-0.4646655	0.02736	0.009445059
7e+07	0.02988241	0.008182445	0.8189334	-0.5313977	0.006040705	0.008732817	-0.001092906	-0.0009043417
	0.8189334	-0.5313977	0.02966755	0.008305259	-0.001093007	-0.0009040826	0.005942167	0.008803878
	0.006040703	0.008732822	-0.001093008	-0.0009040797	0.02996602	0.008271783	0.8185514	-0.5319944
	-0.001092922	-0.0009043345	0.005942168	0.008803878	0.8185514	-0.5319944	0.02972606	0.008412521
8e+07	0.03202301	0.006716942	0.7722825	-0.5949838	0.007489412	0.00911156	-0.001283326	-0.0008360804
	0.7722825	-0.5949838	0.03176165	0.006898108	-0.001283402	-0.0008357373	0.007370585	0.00921201
	0.00748941	0.009111566	-0.001283404	-0.0008357331	0.03212848	0.006789369	0.7717904	-0.5956099
	-0.001283344	-0.0008360659	0.007370586	0.009212009	0.7717904	-0.5956099	0.03183682	0.006995897
9e+07	0.03387765	0.004912815	0.7208274	-0.6545059	0.008955598	0.009236879	-0.001452409	-0.0007386119
	0.7208274	-0.6545059	0.03357308	0.005164511	-0.001452445	-0.0007381679	0.008818467	0.009372324
	0.008955598	0.009236883	-0.001452446	-0.0007381645	0.03400023	0.004963758	0.7202205	-0.6551461
	-0.001452421	-0.0007385975	0.008818468	0.009372324	0.7202205	-0.6551461	0.03366055	0.005249687
1e+08	0.03542748	0.0028343	0.6648834	-0.7096289	0.01039125	0.009105006	-0.001590825	-0.0006114378
	0.6648834	-0.7096289	0.03508554	0.003168263	-0.001590796	-0.0006108747	0.01023903	0.009280722
	0.01039126	0.009105006	-0.001590796	-0.0006108748	0.03556036	0.002858959	0.6641604	-0.7102661
	-0.001590825	-0.0006114379	0.01023903	0.009280722	0.6641604	-0.7102661	0.03517918	0.003237495
1.1e+08	0.03666199	0.0004561941	0.6047912	-0.7599395	0.0117466	0.008758842	-0.001687408	-0.0004981575
	0.6047912	-0.7599395	0.03629199	0.0008827057	-0.001687272	-0.0004975133	0.01158375	0.008979503
	0.0117466	0.008758842	-0.001687272	-0.0004975132	0.03679606	0.0004590589	0.6039545	-0.7605654
	-0.001687408	-0.0004981573	0.01158375	0.008979503	0.6039545	-0.7605654	0.03638405	0.0009416465
1.2e+08	0.03747698	-0.002125375	0.5410269	-0.8051813	0.01301761	0.008197118	-0.001781012	-0.0003871201
	0.5410269	-0.8051813	0.03708988	-0.001597392	-0.001780742	-0.0003864155	0.01284959	0.008466485
	0.01301761	0.008197118	-0.001780742	-0.0003864153	0.03761124	-0.002142878	0.5400715	-0.8057833
	-0.001781011	-0.0003871198	0.01284959	0.008466486	0.5400715	-0.8057833	0.03718076	-0.001546353
1.3e+08	0.03787035	-0.004830867	0.4739853	-0.8451086	0.01416205	0.007431941	-0.001866375	-0.0002732576
	0.4739853	-0.8451086	0.0374792	-0.004194672	-0.001865951	-0.000272521	0.01399518	0.007752751
	0.01416205	0.007431942	-0.001865951	-0.0002725209	0.03800221	-0.004868395	0.4729094	-0.8456721
	-0.001866375	-0.0002732574	0.01399518	0.007752752	0.4729094	-0.8456721	0.03756794	-0.00415049
1.4e+08	0.0378373	-0.007592202	0.4040933	-0.8794942	0.01514592	0.006486651	-0.001943718	-0.0001568022
	0.4040933	-0.8794942	0.03745673	-0.006843603	-0.001943126	-0.0001560681	0.01498718	0.006860429
	0.01514592	0.006486651	-0.001943126	-0.000156068	0.03796382	-0.007649197	0.402897	-0.8800037
	-0.001943718	-0.0001568021	0.01498718	0.00686043	0.402897	-0.8800037	0.03754218	-0.006805338
1.5e+08	0.03738011	-0.01034331	0.3317963	-0.9081419	0.01594046	0.005390578	-0.00201427	-3.82076e-05
	0.3317963	-0.9081419	0.03702583	-0.00948097	-0.002013505	-3.751454e-05	0.01579727	0.005817506
	0.01594046	0.005390578	-0.002013505	-3.751452e-05	0.03749825	-0.01041878	0.3304816	-0.9085818
	-0.00201427	-3.820757e-05	0.01579727	0.005817507	0.3304816	-0.9085818	0.03710687	-0.009447596
1.6e+08	0.03650926	-0.01302009	0.2575544	-0.9308898	0.01652253	0.00417769	-0.002079648	8.247523e-05
	0.2575544	-0.9308898	0.03619751	-0.01204574	-0.002078715	8.308703e-05	0.01640247	0.004656513
	0.01652253	0.004177691	-0.002078715	8.308699e-05	0.03661602	-0.01311254	0.2561252	-0.9312442
	-0.002079648	8.24752e-05	0.01640247	0.004656513	0.2561252	-0.9312442	0.0362731	-0.0120161
1.7e+08	0.03524357	-0.0155612	0.18184	-0.9476114	0.01687518	0.002885464	-0.002141524	0.0002057892
	0.18184	-0.9476114	0.03499055	-0.01447973	-0.00214044	0.0002062806	0.01678575	0.003413445
	0.01687518	0.002885464	-0.002140439	0.0002062805	0.03533615	-0.01566861	0.180302	-0.9478649
	-0.002141524	0.0002057891	0.01678575	0.003413445	0.180302	-0.9478649	0.0350598	-0.01445255
1.8e+08	0.03361008	-0.01790904	0.1051339	-0.9582173	0.01698808	0.00155376	-0.002201373	0.000332907
	0.1051339	-0.9582173	0.0334313	-0.01672854	-0.002200162	0.0003332428	0.01693637	0.002126693
	0.01698808	0.00155376	-0.002200161	0.0003332427	0.03368598	-0.0180289	0.1034946	-0.9583546
	-0.002201373	0.0003329069	0.01693637	0.002126693	0.1034946	-0.9583546	0.03349353	-0.01670242
1.9e+08	0.03164356	-0.02001084	0.02792308	-0.9626554	0.01685775	0.0002236628	-0.002260252	0.0004655797
	0.02792308	-0.9626554	0.03155327	-0.01874248	-0.002258949	0.0004657314	0.01685021	0.0008359339
	0.01685775	0.0002236628	-0.002258949	0.0004657313	0.03170068	-0.02014018	0.02619166	-0.962662
	-0.002260252	0.0004655796	0.01685021	0.000835934	0.02619166	-0.962662	0.03160803	-0.01871592
2e+08	0.02938587	-0.02181971	-0.0493029	-0.960912	0.01648773	-0.001063695	-0.002318626	0.000606021
	-0.0493029	-0.960912	0.02939645	-0.0204775	-0.002317272	0.0006059691	0.01652987	-0.0004189956
	0.01648773	-0.001063695	-0.002317272	0.0006059691	0.02942264	-0.02195519	-0.05111543	-0.960774
	-0.002318626	0.000606021	0.01652987	-0.0004189955	-0.05111543	-0.960774	0.02944355	-0.02044897
2.1e+08	0.02688512	-0.0232956	-0.1260545	-0.9530115	0.01588844	-0.002268313	-0.002376224	0.0007567443
	-0.1260545	-0.9530115	0.02700654	-0.02189608	-0.002374866	0.0007564803	0.01598458	-0.001599225
	0.01588844	-0.002268313	-0.002374866	0.0007564803	0.02690052	-0.02343356	-0.1279356	-0.9527161
	-0.002376224	0.0007567442	0.01598458	-0.001599225	-0.1279356	-0.9527161	0.02704605	-0.02186403
2.2e+08	0.02419464	-0.02440612	-0.2018454	-0.9390169	0.01507691	-0.003352462	-0.002431958	0.0009203658
	-0.2018454	-0.9390169	0.02443398	-0.02296795	-0.002430643	0.0009198933	0.01522996	-0.002667948
	0.01507691	-0.003352462	-0.002430643	0.0009198933	0.02418831	-0.02454272	-0.2037809	-0.9385523
	-0.002431958	0.0009203657	0.01522996	-0.002667948	-0.2037809	-0.9385523	0.02446621	-0.02293086
2.3e+08	0.02137188	-0.0251273	-0.2761957	-0.9190295	0.01407632	-0.004281775	-0.002483879	0.001099388
	-0.2761957	-0.9190295	0.02173288	-0.02367069	-0.002482654	0.001098723	0.01428761	-0.003591465
	0.01407632	-0.004281775	-0.002482654	0.001098723	0.02134411	-0.02525862	-0.27817	-0.9183853
	-0.002483879	0.001099388	0.01428761	-0.003591465	-0.27817	-0.9183853	0.02175843	-0.02362715
2.4e+08	0.01847709	-0.02544408	-0.3486348	-0.893188	0.01291533	-0.005026231	-0.002529205	0.001295973
	-0.3486348	-0.893188	0.01895988	-0.02399022	-0.002528109	0.001295143	0.01318448	-0.004340141
	0.01291533	-0.005026231	-0.002528109	0.001295143	0.01842887	-0.02556623	-0.350631	-0.8923552
	-0.002529205	0.001295973	0.01318448	-0.004340141	-0.350631	-0.8923552	0.01897957	-0.02393892
2.5e+08	0.01557201	-0.02535068	-0.4187044	-0.8616684	0.01162732	-0.005561029	-0.002564389	0.001511729
	-0.4187044	-0.8616684	0.01617287	-0.02392108	-0.002563457	0.001510773	0.01195211	-0.004889248
	0.01162732	-0.005561029	-0.002563457	0.001510773	0.01550503	-0.02545992	-0.4207045	-0.8606394
	-0.002564389	0.001511729	0.01195211	-0.004889248	-0.4207045	-0.8606394	0.01618775	-0.0238609
2.6e+08	0.01271844	-0.02485072	-0.4859617	-0.8246823	0.0102494	-0.005867315	-0.002585256	0.001747512
	-0.4859617	-0.8246823	0.01342975	-0.02346653	-0.002584509	0.001746477	0.0106258	-0.005219677
	0.0102494	-0.005867315	-0.002584509	0.001746477	0.01263506	-0.0249436	-0.4879464	-0.8234516
	-0.002585256	0.001747512	0.0106258	-0.005219677	-0.4879464	-0.8234516	0.01344104	-0.02339651
2.7e+08	0.00997686	-0.02395715	-0.5499821	-0.7824763	0.008821417	-0.005932739	-0.002587176	0.002003266
	-0.5499821	-0.7824763	0.01078709	-0.02263841	-0.002586624	0.002002202	0.009243581	-0.00531849
	0.008821417	-0.00593274	-0.002586624	0.002002202	0.009880034	-0.02403062	-0.5519314	-0.7810401
	-0.002587176	0.002003266	0.009243581	-0.00531849	-0.5519314	-0.7810401	0.01079618	-0.02255787
2.8e+08	0.007405006	-0.02269195	-0.6103621	-0.7353301	0.007384772	-0.005751833	-0.002565277	0.0022779
	-0.6103621	-0.7353301	0.008298911	-0.02145693	-0.002564912	0.002276859	0.007845134	-0.005179299
	0.007384772	-0.005751833	-0.002564912	0.002276859	0.007298262	-0.02274346	-0.6122553	-0.7336864
	-0.002565277	0.0022779	0.007845134	-0.005179299	-0.6122553	-0.7336864	0.008307298	-0.02136541
2.9e+08	0.005056526	-0.02108564	-0.666722	-0.6835547	0.005981271	-0.005326184	-0.002514682	0.002569225
	-0.666722	-0.6835547	0.006015441	-0.0199501	-0.002514486	0.002568258	0.006470699	-0.004802459
	0.005981271	-0.005326184	-0.002514486	0.002568258	0.004943842	-0.02111323	-0.668538	-0.6817038
	-0.002514682	0.002569225	0.006470699	-0.004802459	-0.668538	-0.6817038	0.006024671	-0.01984742
3e+08	0.002979715	-0.01917651	-0.7187085	-0.6274907	0.004651914	-0.004664415	-0.002430767	0.002873945
	-0.7187085	-0.6274907	0.003981966	-0.01815314	-0.002430706	0.002873096	0.005159919	-0.004195072
	0.004651914	-0.004664415	-0.002430706	0.002873096	0.002865432	-0.01917896	-0.7204257	-0.6254349
	-0.002430767	0.002873945	0.005159919	-0.004195072	-0.7204257	-0.6254349	0.003993608	-0.01803941
3.1e+08	0.001216389	-0.0170098	-0.765997	-0.5675058	0.003435723	-0.003781956	-0.00230941	0.003187706
	-0.765997	-0.5675058	0.002237821	-0.0161076	-0.002309438	0.003187008	0.003950717	-0.003370796
	0.003435722	-0.003781956	-0.002309438	0.003187008	0.001105085	-0.01698659	-0.7675938	-0.5652496
	-0.00230941	0.003187706	0.003950717	-0.003370796	-0.7675938	-0.5652496	0.002253409	-0.01598321
3.2e+08	-0.000199126	-0.01463654	-0.8082937	-0.5039923	0.002368617	-0.002700624	-0.002147226	0.003505205
	-0.8082937	-0.5039923	0.0008154832	-0.01386041	-0.002147288	0.003504679	0.002878217	-0.002349465
	0.002368617	-0.002700624	-0.002147288	0.003504679	-0.0003027606	-0.01458796	-0.8097486	-0.5015423
	-0.002147226	0.003505205	0.002878217	-0.002349465	-0.8097486	-0.5015423	0.0008364728	-0.013726
3.3e+08	-0.001240788	-0.01211237	-0.8453379	-0.4373647	0.001482379	-0.001448008	-0.001941779	0.003820351
	-0.8453379	-0.4373647	-0.0002601413	-0.01146273	-0.001941814	0.003820001	0.001973751	-0.001156539
	0.001482379	-0.001448008	-0.001941814	0.003820001	-0.001332099	-0.01203954	-0.8466298	-0.4347298
	-0.001941779	0.003820351	0.001973751	-0.001156539	-0.8466298	-0.4347298	-0.0002324308	-0.01131922
3.4e+08	-0.00189146	-0.009496187	-0.8769032	-0.3680567	0.0008037318	-5.670222e-05	-0.001691746	0.004126472
	-0.8769032	-0.3680567	-0.0009722791	-0.008968758	-0.001691694	0.004126286	0.001263959	0.000177615
	0.0008037318	-5.670221e-05	-0.001691693	0.004126286	-0.001965964	-0.009401032	-0.8780115	-0.365248
	-0.001691746	0.004126472	0.001263959	0.000177615	-0.8780115	-0.365248	-0.000936698	-0.008817289
3.5e+08	-0.002143314	-0.006848735	-0.9027993	-0.2965182	0.0003535678	0.00143662	-0.001397037	0.004416557
	-0.9027993	-0.2965182	-0.001312645	-0.006434452	-0.001396839	0.004416505	0.0007700417	0.001618575
	0.0003535678	0.00143662	-0.001396839	0.004416505	-0.002196838	-0.006733961	-0.9037043	-0.2935488
	-0.001397037	0.004416557	0.0007700417	0.001618575	-0.9037043	-0.2935488	-0.001268257	-0.006276354
3.6e+08	-0.001997986	-0.004231126	-0.9228729	-0.2232125	0.0001463417	0.00299224	-0.001058856	0.004683517
	-0.9228729	-0.2232125	-0.001281588	-0.003916182	-0.001058462	0.004683553	0.0005071502	0.003128834
	0.0001463417	0.00299224	-0.001058462	0.004683553	-0.002026811	-0.004100169	-0.9235559	-0.2200976
	-0.001058856	0.004683517	0.0005071502	0.003128834	-0.9235559	-0.2200976	-0.001227703	-0.003752949
3.7e+08	-0.001466523	-0.00170336	-0.9370091	-0.1486126	0.0001896462	0.004568519	-0.0006796995	0.004920458
	-0.9370091	-0.1486126	-0.0008880413	-0.00146941	-0.0006790722	0.004920521	0.0004839611	0.004668854
	0.0001896462	0.004568519	-0.0006790722	0.004920521	-0.001467503	-0.001560313	-0.9374524	-0.1453695
	-0.0006796995	0.004920458	0.0004839611	0.004668854	-0.9374524	-0.1453695	-0.0008242401	-0.001302648
3.8e+08	-0.0005690817	0.0006771138	-0.9451313	-0.0731988	0.0004839854	0.006123077	-0.0002632967	0.005120946
	-0.9451313	-0.0731988	-0.0001492542	0.0008526174	-0.0002624141	0.005120966	0.0007024285	0.006198181
	0.0004839854	0.006123077	-0.0002624141	0.005120966	-0.0005397615	0.0008276049	-0.9453188	-0.06984661
	-0.0002632967	0.005120946	0.0007024285	0.006198181	-0.9453188	-0.06984661	-7.54063e-05	0.001021238
3.9e+08	0.000665593	0.002856791	-0.9472018	0.002545298	0.001022749	0.007613988	0.00018551	0.005279251
	-0.9472018	0.002545298	0.0009096678	0.003000115	0.0001866509	0.005279149	0.001157728	0.007676576
	0.001022749	0.007613988	0.0001866509	0.005279149	0.0007268833	0.003009643	-0.9471189	0.00598571
	0.00018551	0.005279251	0.001157728	0.007676576	-0.9471189	0.00598571	0.0009933939	0.00316891
4e+08	0.002200897	0.004787392	-0.943222	0.07813551	0.001792386	0.009000965	0.0006609348	0.005390557
	-0.943222	0.07813551	0.002256414	0.004927921	0.0006623162	0.005390252	0.001838391	0.009065138
	0.001792386	0.009000965	0.0006623162	0.005390252	0.002294967	0.00493722	-0.942856	0.08164167
	0.0006609348	0.005390557	0.001838391	0.009065138	-0.942856	0.08164167	0.002349552	0.005095247
4.1e+08	0.003993294	0.006427015	-0.9332319	0.1530904	0.002772777	0.0102465	0.00115646	0.005451128
	-0.9332319	0.1530904	0.00385229	0.006596533	0.001158044	0.005450544	0.002726621	0.0103274
	0.002772777	0.0102465	0.001158044	0.005450544	0.004120039	0.006568277	-0.9325719	0.1566384
	0.00115646	0.005451128	0.002726621	0.0103274	-0.9325719	0.1566384	0.003954081	0.006760837
4.2e+08	0.005993401	0.007741125	-0.9173096	0.2269345	0.003937784	0.01131691	0.00166508	0.005458424
	-0.9173096	0.2269345	0.005653183	0.007973003	0.001666806	0.005457494	0.00379879	0.01143033
	0.003937784	0.01131691	0.001666806	0.005457494	0.006151779	0.007868281	-0.9163469	0.230499
	0.00166508	0.005458424	0.00379879	0.01143033	-0.9163469	0.230499	0.005762599	0.008132874
4.3e+08	0.008147226	0.00870336	-0.8955708	0.2992009	0.005255974	0.01218329	0.002179557	0.005411156
	-0.8955708	0.2992009	0.007610659	0.009031672	0.002181348	0.005409826	0.005026091	0.01234525
	0.005255974	0.01218329	0.002181348	0.005409826	0.008335253	0.008811028	-0.8942987	0.3027557
	0.002179557	0.005411156	0.005026091	0.01234525	-0.8942987	0.3027557	0.007726424	0.009185889
4.4e+08	0.0103975	0.009296128	-0.8681671	0.3694346	0.00669148	0.01282234	0.002692685	0.005309281
	-0.8681671	0.3694346	0.009673145	0.009754716	0.00269445	0.005307515	0.00637533	0.01304864
	0.00669148	0.01282234	0.00269445	0.005307515	0.01061228	0.009379246	-0.8665816	0.3729524
	0.002692685	0.005309281	0.00637533	0.01304864	-0.8665816	0.3729524	0.009793774	0.009902287
4.5e+08	0.01268509	0.009510994	-0.8352858	0.4371951	0.008204988	0.013217	0.00319754	0.005153937
	-0.8352858	0.4371951	0.01178719	0.01013251	0.003199179	0.005151723	0.007809839	0.0135228
	0.008204988	0.013217	0.003199179	0.005151723	0.01292287	0.009564976	-0.8333848	0.4406481
	0.00319754	0.005153937	0.007809839	0.0135228	-0.8333848	0.4406481	0.01191103	0.01027271
4.6e+08	0.01495046	0.009348836	-0.7971474	0.5020588	0.009754816	0.01335695	0.003687708	0.004947333
	-0.7971474	0.5020588	0.01389875	0.01016378	0.003689115	0.004944681	0.009290479	0.01375631
	0.009754816	0.01335695	0.003689115	0.004944681	0.0152067	0.009369713	-0.7949318	0.5054186
	0.003687708	0.004947333	0.009290479	0.01375631	-0.7949318	0.5054186	0.01402401	0.01029618
4.7e+08	0.01713511	0.008819771	-0.754005	0.563622	0.01129806	0.01323893	0.004157469	0.004692578
	-0.754005	0.563622	0.01595448	0.009855585	0.004158541	0.004689525	0.01077671	0.01374436
	0.01129806	0.01323893	0.004158541	0.004689525	0.0174046	0.008804295	-0.7514779	0.5668599
	0.004157469	0.004692578	0.01077671	0.01374436	-0.7514779	0.5668599	0.01607933	0.009980035
4.8e+08	0.01918299	0.007942863	-0.7061419	0.6215028	0.01279175	0.01286682	0.004601946	0.004393489
	-0.7061419	0.6215028	0.01790299	0.009223037	0.004602588	0.004390096	0.01222769	0.01348891
	0.01279175	0.01286682	0.004602588	0.004390096	0.01945998	0.007888675	-0.7033091	0.6245901
	0.004601946	0.004393489	0.01222769	0.01348891	-0.7033091	0.6245901	0.01802556	0.009339739
4.9e+08	0.02104189	0.006745617	-0.6538697	0.6753431	0.01419408	0.01225158	0.005017193	0.004054362
	-0.6538697	0.6753431	0.01969609	0.008288915	0.005017325	0.004050713	0.01360341	0.01299866
	0.01419408	0.01225158	0.005017325	0.004050713	0.02132019	0.00665132	-0.6507397	0.6782515
	0.005017193	0.004054362	0.01360341	0.01299866	-0.6507397	0.6782515	0.01981454	0.008398407
5e+08	0.02266466	0.005263256	-0.597527	0.7248114	0.01546549	0.01141099	0.005400232	0.003679746
	-0.597527	0.7248114	0.02128987	0.007083038	0.005399792	0.003675944	0.01486575	0.01228879
	0.01546549	0.01141099	0.005399792	0.003675944	0.02293785	0.005128481	-0.5941107	0.7275127
	0.005400232	0.003679746	0.01486575	0.01228879	-0.5941107	0.7275127	0.02140244	0.007186175
5.1e+08	0.02401033	0.003537811	-0.5374763	0.7696036	0.0165698	0.01036918	0.005749027	0.00327421
