!$
! Info: Touchstone file created by Circ.  Input file=Tx_8in_Rx_100ohms_TxVia_60mils_RxVia_70mils.circ
!$
# Hz S RI R 50
0	0.00839955	1.305811e-25	3.06847e-08	3.243155e-26	6.62556e-05	1.83069e-23	6.527279e-08	7.660169e-27
	3.06847e-08	3.243134e-26	0.008394896	1.383605e-25	6.307529e-08	1.054033e-25	6.300308e-05	2.042828e-23
	6.747892e-05	1.778664e-23	6.30753e-08	1.054021e-25	0.00841024	1.295212e-25	2.388128e-08	4.326124e-26
	6.527282e-08	7.660526e-27	6.327274e-05	2.051588e-23	2.388159e-08	4.326682e-26	0.008409337	1.377438e-25
1e+07	0.01229788	0.005623096	5.071794e-08	9.415564e-08	0.0005139607	0.001634088	1.265878e-07	2.729431e-07
	5.071794e-08	9.415565e-08	0.01229286	0.005622571	8.47839e-08	2.880933e-07	0.0005113336	0.001634786
	0.0005140311	0.001634056	8.478391e-08	2.880933e-07	0.01219026	0.005640456	3.842894e-08	1.295552e-07
	1.265878e-07	2.729431e-07	0.0005113361	0.001634783	3.842893e-08	1.295552e-07	0.0121846	0.005640184
2e+07	0.01591232	0.00827665	8.567627e-08	1.647722e-07	0.0008107248	0.003348471	2.737174e-07	4.384257e-07
	8.567629e-08	1.647722e-07	0.01589178	0.00827702	1.384809e-07	4.950049e-07	0.000800456	0.003351369
	0.0008107107	0.003348434	1.384809e-07	4.950049e-07	0.01584318	0.008350617	8.828654e-08	1.853624e-07
	2.737174e-07	4.384257e-07	0.000800453	0.00335137	8.828653e-08	1.853625e-07	0.01582003	0.008351673
3e+07	0.01910113	0.009519562	1.282666e-07	2.240313e-07	0.001380616	0.004841621	4.613669e-07	5.612276e-07
	1.282666e-07	2.240313e-07	0.01905511	0.009525989	1.816096e-07	6.983344e-07	0.00135823	0.004849363
	0.001380613	0.004841621	1.816096e-07	6.983344e-07	0.01906635	0.009615264	1.402229e-07	2.471016e-07
	4.613669e-07	5.612276e-07	0.00135823	0.004849365	1.402229e-07	2.471016e-07	0.01901471	0.009623627
4e+07	0.02207851	0.009999437	1.76899e-07	2.712048e-07	0.002207882	0.006164996	6.820427e-07	6.343366e-07
	1.76899e-07	2.712049e-07	0.02199811	0.01001899	2.194311e-07	8.97499e-07	0.002169588	0.006181274
	0.002207887	0.006164996	2.194311e-07	8.97499e-07	0.02207662	0.01010491	1.944266e-07	2.984523e-07
	6.820426e-07	6.343366e-07	0.002169589	0.006181275	1.944266e-07	2.984523e-07	0.02198657	0.0101284
5e+07	0.02487847	0.009881897	2.295339e-07	3.052127e-07	0.00336201	0.00724544	9.278408e-07	6.497418e-07
	2.295339e-07	3.052127e-07	0.02475663	0.00992435	2.541576e-07	1.090405e-06	0.003304959	0.007274686
	0.003362012	0.007245438	2.541576e-07	1.090405e-06	0.02490767	0.009988616	2.519637e-07	3.36163e-07
	9.278408e-07	6.497418e-07	0.00330496	0.007274686	2.519637e-07	3.36163e-07	0.02477129	0.01003826
6e+07	0.0274894	0.009255505	2.83694e-07	3.254869e-07	0.004651697	0.008106868	1.186562e-06	6.001396e-07
	2.83694e-07	3.254869e-07	0.02732186	0.009332168	2.863254e-07	1.277135e-06	0.004574167	0.008154245
	0.004651696	0.00810687	2.863254e-07	1.277135e-06	0.02754732	0.009356527	3.109897e-07	3.591058e-07
	1.186562e-06	6.001396e-07	0.004574169	0.008154246	3.109897e-07	3.591058e-07	0.02736	0.009445059
7e+07	0.02988241	0.008182445	3.364228e-07	3.317334e-07	0.006040705	0.008732817	1.443347e-06	4.813364e-07
	3.364228e-07	3.317334e-07	0.02966755	0.008305259	3.158048e-07	1.458007e-06	0.005942167	0.008803878
	0.006040703	0.008732822	3.158048e-07	1.458007e-06	0.02996602	0.008271783	3.685681e-07	3.667196e-07
	1.443347e-06	4.813364e-07	0.005942168	0.008803878	3.685681e-07	3.667196e-07	0.02972606	0.008412521
8e+07	0.03202301	0.006716942	3.846176e-07	3.242828e-07	0.007489412	0.00911156	1.682102e-06	2.928921e-07
	3.846176e-07	3.242827e-07	0.03176165	0.006898108	3.421764e-07	1.633421e-06	0.007370585	0.00921201
	0.00748941	0.009111566	3.421764e-07	1.633421e-06	0.03212848	0.006789369	4.214316e-07	3.591557e-07
	1.682102e-06	2.928921e-07	0.007370586	0.009212009	4.214316e-07	3.591557e-07	0.03183682	0.006995897
9e+07	0.03387765	0.004912815	4.252273e-07	3.041455e-07	0.008955598	0.009236879	1.886616e-06	3.820522e-08
	4.252273e-07	3.041455e-07	0.03357308	0.005164511	3.648981e-07	1.803883e-06	0.008818467	0.009372324
	0.008955598	0.009236883	3.648981e-07	1.803883e-06	0.03400023	0.004963758	4.662599e-07	3.372989e-07
	1.886616e-06	3.820522e-08	0.008818468	0.009372324	4.662599e-07	3.372989e-07	0.03366055	0.005249687
1e+08	0.03542748	0.0028343	4.554344e-07	2.72995e-07	0.01039125	0.009105006	2.041486e-06	-2.756866e-07
	4.554344e-07	2.72995e-07	0.03508554	0.003168263	3.834485e-07	1.969996e-06	0.01023903	0.009280722
	0.01039126	0.009105006	3.834485e-07	1.969996e-06	0.03556036	0.002858959	4.99884e-07	3.027669e-07
	2.041486e-06	-2.756866e-07	0.01023903	0.009280722	4.99884e-07	3.027669e-07	0.03517918	0.003237495
1.1e+08	0.03666199	0.0004561941	4.734712e-07	2.326876e-07	0.0117466	0.008758842	2.138966e-06	-6.369638e-07
	4.734712e-07	2.326876e-07	0.03629199	0.0008827057	3.950401e-07	2.13502e-06	0.01158375	0.008979503
	0.0117466	0.008758842	3.950401e-07	2.13502e-06	0.03679606	0.0004590589	5.19823e-07	2.589377e-07
	2.138966e-06	-6.369638e-07	0.01158375	0.008979503	5.19823e-07	2.589377e-07	0.03638405	0.0009416465
1.2e+08	0.03747698	-0.002125375	4.769224e-07	1.857088e-07	0.01301761	0.008197118	2.165325e-06	-1.03557e-06
	4.769224e-07	1.857088e-07	0.03708988	-0.001597392	4.006516e-07	2.299172e-06	0.01284959	0.008466485
	0.01301761	0.008197118	4.006516e-07	2.299172e-06	0.03761124	-0.002142878	5.238082e-07	2.077894e-07
	2.165325e-06	-1.03557e-06	0.01284959	0.008466486	5.238082e-07	2.077894e-07	0.03718076	-0.001546353
1.3e+08	0.03787035	-0.004830867	4.642032e-07	1.349455e-07	0.01416205	0.007431941	2.111694e-06	-1.457633e-06
	4.642032e-07	1.349455e-07	0.0374792	-0.004194672	4.001667e-07	2.463644e-06	0.01399518	0.007752751
	0.01416205	0.007431942	4.001667e-07	2.463644e-06	0.03800221	-0.004868395	5.100981e-07	1.524776e-07
	2.111694e-06	-1.457633e-06	0.01399518	0.007752752	5.100981e-07	1.524776e-07	0.03756794	-0.00415049
1.4e+08	0.0378373	-0.007592202	4.342751e-07	8.359574e-08	0.01514592	0.006486651	1.971897e-06	-1.887454e-06
	4.342751e-07	8.359574e-08	0.03745673	-0.006843603	3.936425e-07	2.629704e-06	0.01498718	0.006860429
	0.01514592	0.006486651	3.936425e-07	2.629704e-06	0.03796382	-0.007649197	4.7755e-07	9.650394e-08
	1.971897e-06	-1.887454e-06	0.01498718	0.00686043	4.7755e-07	9.650393e-08	0.03754218	-0.006805338
1.5e+08	0.03738011	-0.01034331	3.867033e-07	3.507539e-08	0.01594046	0.005390578	1.742774e-06	-2.308064e-06
	3.867033e-07	3.507539e-08	0.03702583	-0.00948097	3.813513e-07	2.798629e-06	0.01579727	0.005817506
	0.01594046	0.005390578	3.813513e-07	2.798629e-06	0.03749825	-0.01041878	4.256835e-07	4.36099e-08
	1.742774e-06	-2.308064e-06	0.01579727	0.005817507	4.256835e-07	4.36099e-08	0.03710687	-0.009447596
1.6e+08	0.03650926	-0.01302009	3.216989e-07	-7.091342e-09	0.01652253	0.00417769	1.424413e-06	-2.701784e-06
	3.216989e-07	-7.091343e-09	0.03619751	-0.01204574	3.637889e-07	2.971659e-06	0.01640247	0.004656513
	0.01652253	0.004177691	3.637889e-07	2.971659e-06	0.03661602	-0.01311254	3.547273e-07	-2.343636e-09
	1.424413e-06	-2.701784e-06	0.01640247	0.004656513	3.547273e-07	-2.343636e-09	0.0362731	-0.0120161
1.7e+08	0.03524357	-0.0155612	2.401425e-07	-3.938944e-08	0.01687518	0.002885464	1.020286e-06	-3.050836e-06
	2.401425e-07	-3.938944e-08	0.03499055	-0.01447973	3.416745e-07	3.149965e-06	0.01678575	0.003413445
	0.01687518	0.002885464	3.416745e-07	3.149965e-06	0.03533615	-0.01566861	2.656441e-07	-3.750607e-08
	1.020286e-06	-3.050836e-06	0.01678575	0.003413445	2.656441e-07	-3.750606e-08	0.0350598	-0.01445255
1.8e+08	0.03361008	-0.01790904	1.435865e-07	-5.843603e-08	0.01698808	0.00155376	5.372704e-07	-3.337972e-06
	1.435865e-07	-5.843603e-08	0.0334313	-0.01672854	3.15942e-07	3.334601e-06	0.01693637	0.002126693
	0.01698808	0.00155376	3.15942e-07	3.334601e-06	0.03368598	-0.0180289	1.601331e-07	-5.817209e-08
	5.372704e-07	-3.337972e-06	0.01693637	0.002126693	1.601331e-07	-5.817209e-08	0.03349353	-0.01670242
1.9e+08	0.03164356	-0.02001084	3.423558e-08	-6.110479e-08	0.01685775	0.0002236628	-1.44467e-08	-3.547107e-06
	3.423558e-08	-6.110479e-08	0.03155327	-0.01874248	2.877248e-07	3.526466e-06	0.01685021	0.0008359339
	0.01685775	0.0002236628	2.877248e-07	3.526466e-06	0.03170068	-0.02014018	4.060761e-08	-6.091805e-08
	-1.44467e-08	-3.547107e-06	0.01685021	0.000835934	4.060761e-08	-6.091805e-08	0.03160803	-0.01871592
2e+08	0.02938587	-0.02181971	-8.509618e-08	-4.464766e-08	0.01648773	-0.001063695	-6.215744e-07	-3.663932e-06
	-8.509618e-08	-4.464766e-08	0.02939645	-0.0204775	2.583322e-07	3.726269e-06	0.01652987	-0.0004189956
	0.01648773	-0.001063695	2.583322e-07	3.726269e-06	0.02942264	-0.02195519	-8.985195e-08	-4.273534e-08
	-6.215744e-07	-3.663932e-06	0.01652987	-0.0004189955	-8.985195e-08	-4.273534e-08	0.02944355	-0.02044897
2.1e+08	0.02688512	-0.0232956	-2.110497e-07	-6.81025e-09	0.01588844	-0.002268313	-1.268039e-06	-3.676492e-06
	-2.110497e-07	-6.81025e-09	0.02700654	-0.02189608	2.292183e-07	3.934491e-06	0.01598458	-0.001599225
	0.01588844	-0.002268313	2.292183e-07	3.934491e-06	0.02690052	-0.02343356	-2.275693e-07	-1.156347e-09
	-1.268039e-06	-3.676492e-06	0.01598458	-0.001599225	-2.275693e-07	-1.156347e-09	0.02704605	-0.02186403
2.2e+08	0.02419464	-0.02440612	-3.398076e-07	5.406365e-08	0.01507691	-0.003352462	-1.935411e-06	-3.575704e-06
	-3.398076e-07	5.406365e-08	0.02443398	-0.02296795	2.019447e-07	4.151357e-06	0.01522996	-0.002667948
	0.01507691	-0.003352462	2.019447e-07	4.151357e-06	0.02418831	-0.02454272	-3.683678e-07	6.563147e-08
	-1.935411e-06	-3.575704e-06	0.01522996	-0.002667948	-3.683678e-07	6.563147e-08	0.02446621	-0.02293086
2.3e+08	0.02137188	-0.0251273	-4.672011e-07	1.389424e-07	0.01407632	-0.004281775	-2.60342e-06	-3.3558e-06
	-4.672011e-07	1.389424e-07	0.02173288	-0.02367069	1.781355e-07	4.376811e-06	0.01428761	-0.003591465
	0.01407632	-0.004281775	1.781355e-07	4.376811e-06	0.02134411	-0.02525862	-5.076869e-07	1.586879e-07
	-2.60342e-06	-3.3558e-06	0.01428761	-0.003591465	-5.076869e-07	1.586879e-07	0.02175843	-0.02362715
2.4e+08	0.01847709	-0.02544408	-5.888337e-07	2.480358e-07	0.01291533	-0.005026231	-3.25056e-06	-3.014671e-06
	-5.888337e-07	2.480358e-07	0.01895988	-0.02399022	1.594274e-07	4.610502e-06	0.01318448	-0.004340141
	0.01291533	-0.005026231	1.594274e-07	4.610502e-06	0.01842887	-0.02556623	-6.407184e-07	2.782433e-07
	-3.25056e-06	-3.014671e-06	0.01318448	-0.004340141	-6.407184e-07	2.782433e-07	0.01897957	-0.02393892
2.5e+08	0.01557201	-0.02535068	-7.0022e-07	3.807465e-07	0.01162732	-0.005561029	-3.854745e-06	-2.554107e-06
	-7.0022e-07	3.807465e-07	0.01617287	-0.02392108	1.474157e-07	4.851774e-06	0.01195211	-0.004889248
	0.01162732	-0.005561029	1.474157e-07	4.851774e-06	0.01550503	-0.02545992	-7.625576e-07	4.236459e-07
	-3.854745e-06	-2.554107e-06	0.01195211	-0.004889248	-7.625576e-07	4.236459e-07	0.01618775	-0.0238609
2.6e+08	0.01271844	-0.02485072	-7.969341e-07	5.35647e-07	0.0102494	-0.005867315	-4.394024e-06	-1.979915e-06
	-7.969341e-07	5.35647e-07	0.01342975	-0.02346653	1.435974e-07	5.099672e-06	0.0106258	-0.005219677
	0.0102494	-0.005867315	1.435974e-07	5.099672e-06	0.01263506	-0.0249436	-8.683658e-07	5.933373e-07
	-4.394024e-06	-1.979915e-06	0.0106258	-0.005219677	-8.683658e-07	5.933373e-07	0.01344104	-0.02339651
2.7e+08	0.00997686	-0.02395715	-8.747644e-07	7.104847e-07	0.008821417	-0.005932739	-4.847302e-06	-1.301912e-06
	-8.747644e-07	7.104847e-07	0.01078709	-0.02263841	1.493141e-07	5.352954e-06	0.009243581	-0.00531849
	0.008821417	-0.00593274	1.493141e-07	5.352954e-06	0.009880034	-0.02403062	-9.535382e-07	7.848582e-07
	-4.847302e-06	-1.301912e-06	0.009243581	-0.00531849	-9.535382e-07	7.848582e-07	0.01079618	-0.02255787
2.8e+08	0.007405006	-0.02269195	-9.298671e-07	9.022156e-07	0.007384772	-0.005751833	-5.195067e-06	-5.33779e-07
	-9.298671e-07	9.022156e-07	0.008298911	-0.02145693	1.65697e-07	5.610118e-06	0.007845134	-0.005179299
	0.007384772	-0.005751833	1.65697e-07	5.610118e-06	0.007298262	-0.02274346	-1.013872e-06	9.948854e-07
	-5.195067e-06	-5.33779e-07	0.007845134	-0.005179299	-1.013872e-06	9.948854e-07	0.008307298	-0.02136541
2.9e+08	0.005056526	-0.02108564	-9.58916e-07	1.107067e-06	0.005981271	-0.005326184	-5.420096e-06	3.072051e-07
	-9.58916e-07	1.107067e-06	0.006015441	-0.0199501	1.936158e-07	5.869441e-06	0.006470699	-0.004802459
	0.005981271	-0.005326184	1.936158e-07	5.869441e-06	0.004943842	-0.02111323	-1.04573e-06	1.219301e-06
	-5.420096e-06	3.072051e-07	0.006470699	-0.004802459	-1.04573e-06	1.219301e-06	0.006024671	-0.01984742
3e+08	0.002979715	-0.01917651	-9.59239e-07	1.320632e-06	0.004651914	-0.004664415	-5.508104e-06	1.200567e-06
	-9.59239e-07	1.320632e-06	0.003981966	-0.01815314	2.336348e-07	6.129019e-06	0.005159919	-0.004195072
	0.004651914	-0.004664415	2.336348e-07	6.129019e-06	0.002865432	-0.01917896	-1.046187e-06	1.453294e-06
	-5.508104e-06	1.200567e-06	0.005159919	-0.004195072	-1.046187e-06	1.453294e-06	0.003993608	-0.01803941
3.1e+08	0.001216389	-0.0170098	-9.289393e-07	1.537981e-06	0.003435723	-0.003781956	-5.448323e-06	2.123154e-06
	-9.289393e-07	1.537981e-06	0.002237821	-0.0161076	2.859771e-07	6.386833e-06	0.003950717	-0.003370796
	0.003435722	-0.003781956	2.859771e-07	6.386833e-06	0.001105085	-0.01698659	-1.013162e-06	1.691485e-06
	-5.448323e-06	2.123154e-06	0.003950717	-0.003370796	-1.013162e-06	1.691485e-06	0.002253409	-0.01598321
3.2e+08	-0.000199126	-0.01463654	-8.66993e-07	1.753812e-06	0.002368617	-0.002700624	-5.233994e-06	3.049751e-06
	-8.66993e-07	1.753812e-06	0.0008154832	-0.01386041	3.505006e-07	6.640803e-06	0.002878217	-0.002349465
	0.002368617	-0.002700624	3.505006e-07	6.640803e-06	-0.0003027606	-0.01458796	-9.455294e-07	1.928083e-06
	-5.233994e-06	3.049751e-06	0.002878217	-0.002349465	-9.455294e-07	1.928083e-06	0.0008364728	-0.013726
3.3e+08	-0.001240788	-0.01211237	-7.733204e-07	1.962601e-06	0.001482379	-0.001448008	-4.862734e-06	3.953791e-06
	-7.733204e-07	1.962601e-06	-0.0002601413	-0.01146273	4.26686e-07	6.888861e-06	0.001973751	-0.001156539
	0.001482379	-0.001448008	4.26686e-07	6.888861e-06	-0.001332099	-0.01203954	-8.431884e-07	2.157058e-06
	-4.862734e-06	3.953791e-06	0.001973751	-0.001156539	-8.431884e-07	2.157058e-06	-0.0002324308	-0.01131922
3.4e+08	-0.00189146	-0.009496187	-6.488274e-07	2.158782e-06	0.0008037318	-5.670223e-05	-4.336792e-06	4.808127e-06
	-6.488274e-07	2.158782e-06	-0.0009722791	-0.008968758	5.136381e-07	7.129024e-06	0.001263959	0.000177615
	0.0008037318	-5.670222e-05	5.136381e-07	7.129024e-06	-0.001965964	-0.009401032	-7.071151e-07	2.372328e-06
	-4.336792e-06	4.808127e-06	0.001263959	0.000177615	-7.071151e-07	2.372328e-06	-0.000936698	-0.008817289
3.5e+08	-0.002143314	-0.006848735	-4.954138e-07	2.336921e-06	0.0003535678	0.00143662	-3.663156e-06	5.585843e-06
	-4.954138e-07	2.336921e-06	-0.001312645	-0.006434452	6.101017e-07	7.359457e-06	0.0007700417	0.001618575
	0.0003535678	0.00143662	6.101017e-07	7.359457e-06	-0.002196838	-0.006733961	-5.393685e-07	2.567956e-06
	-3.663156e-06	5.585843e-06	0.0007700417	0.001618575	-5.393685e-07	2.567956e-06	-0.001268257	-0.006276354
3.6e+08	-0.001997986	-0.004231126	-3.159478e-07	2.491899e-06	0.0001463417	0.00299224	-2.853515e-06	6.261089e-06
	-3.159478e-07	2.491899e-06	-0.001281588	-0.003916182	7.144898e-07	7.578546e-06	0.0005071502	0.003128834
	0.0001463417	0.00299224	7.144898e-07	7.578546e-06	-0.002026811	-0.004100169	-3.430651e-07	2.738341e-06
	-2.853515e-06	6.261089e-06	0.0005071502	0.003128834	-3.430651e-07	2.738341e-06	-0.001227703	-0.003752949
3.7e+08	-0.001466523	-0.00170336	-1.142077e-07	2.619083e-06	0.0001896462	0.004568519	-1.924085e-06	6.809904e-06
	-1.142077e-07	2.619083e-06	-0.0008880413	-0.00146941	8.249255e-07	7.784954e-06	0.0004839611	0.004668854
	0.0001896462	0.004568519	8.249255e-07	7.784954e-06	-0.001467503	-0.001560313	-1.223151e-07	2.878414e-06
	-1.924085e-06	6.809904e-06	0.0004839611	0.004668854	-1.223151e-07	2.878414e-06	-0.0008242401	-0.001302648
3.8e+08	-0.0005690817	0.0006771138	1.052079e-07	2.714491e-06	0.0004839854	0.006123077	-8.952761e-07	7.211005e-06
	1.052079e-07	2.714491e-06	-0.0001492542	0.0008526174	9.39294e-07	7.977675e-06	0.0007024285	0.006198181
	0.0004839854	0.006123077	9.39294e-07	7.977675e-06	-0.0005397615	0.0008276049	1.178737e-07	2.983808e-06
	-8.952761e-07	7.211005e-06	0.0007024285	0.006198181	1.178737e-07	2.983808e-06	-7.54063e-05	0.001021238
3.9e+08	0.000665593	0.002856791	3.369983e-07	2.774933e-06	0.001022749	0.007613988	2.087666e-07	7.446512e-06
	3.369983e-07	2.774933e-06	0.0009096678	0.003000115	1.055304e-06	8.156072e-06	0.001157728	0.007676576
	0.001022749	0.007613988	1.055304e-06	8.156072e-06	0.0007268833	0.003009643	3.717247e-07	3.051018e-06
	2.087666e-07	7.446512e-06	0.001157728	0.007676576	3.717247e-07	3.051018e-06	0.0009933939	0.00316891
4e+08	0.002200897	0.004787392	5.753038e-07	2.798131e-06	0.001792386	0.009000965	1.36075e-06	7.502596e-06
	5.753038e-07	2.798131e-06	0.002256414	0.004927921	1.170556e-06	8.319909e-06	0.001838391	0.009065138
	0.001792386	0.009000965	1.170556e-06	8.319909e-06	0.002294967	0.00493722	6.328467e-07	3.077532e-06
	1.36075e-06	7.502596e-06	0.001838391	0.009065138	6.328467e-07	3.077532e-06	0.002349552	0.005095247
4.1e+08	0.003993294	0.006427015	8.13868e-07	2.782813e-06	0.002772777	0.0102465	2.530928e-06	7.370019e-06
	8.13868e-07	2.782813e-06	0.00385229	0.006596533	1.282614e-06	8.469363e-06	0.002726621	0.0103274
	0.002772777	0.0102465	1.282614e-06	8.469363e-06	0.004120039	0.006568277	8.944101e-07	3.061934e-06
	2.530928e-06	7.370019e-06	0.002726621	0.0103274	8.944101e-07	3.061934e-06	0.003954081	0.006760837
4.2e+08	0.005993401	0.007741125	1.046213e-06	2.728775e-06	0.003937784	0.01131691	3.687889e-06	7.044549e-06
	1.046213e-06	2.728775e-06	0.005653183	0.007973003	1.389076e-06	8.60503e-06	0.00379879	0.01143033
	0.003937784	0.01131691	1.389076e-06	8.60503e-06	0.006151779	0.007868281	1.149338e-06	3.00397e-06
	3.687889e-06	7.044549e-06	0.00379879	0.01143033	1.149338e-06	3.00397e-06	0.005762599	0.008132874
4.3e+08	0.008147226	0.00870336	1.265826e-06	2.636914e-06	0.005255974	0.01218329	4.799408e-06	6.527244e-06
	1.265826e-06	2.636914e-06	0.007610659	0.009031672	1.487649e-06	8.727911e-06	0.005026091	0.01234525
	0.005255974	0.01218329	1.487649e-06	8.727911e-06	0.008335253	0.008811028	1.39051e-06	2.90459e-06
	4.799408e-06	6.527244e-06	0.005026091	0.01234525	1.39051e-06	2.90459e-06	0.007726424	0.009185889
4.4e+08	0.0103975	0.009296128	1.466345e-06	2.509226e-06	0.00669148	0.01282234	5.833339e-06	5.824586e-06
	1.466345e-06	2.509226e-06	0.009673145	0.009754716	1.576218e-06	8.839389e-06	0.00637533	0.01304864
	0.00669148	0.01282234	1.576218e-06	8.839389e-06	0.01061228	0.009379246	1.61096e-06	2.765946e-06
	5.833339e-06	5.824586e-06	0.00637533	0.01304864	1.61096e-06	2.765946e-06	0.009793774	0.009902287
4.5e+08	0.01268509	0.009510994	1.641741e-06	2.348773e-06	0.008204988	0.013217	6.758538e-06	4.948466e-06
	1.641741e-06	2.348773e-06	0.01178719	0.01013251	1.652901e-06	8.941197e-06	0.007809839	0.0135228
	0.008204988	0.013217	1.652901e-06	8.941197e-06	0.01292287	0.009564976	1.804085e-06	2.591356e-06
	6.758538e-06	4.948466e-06	0.007809839	0.0135228	1.804085e-06	2.591356e-06	0.01191103	0.01027271
4.6e+08	0.01495046	0.009348836	1.7865e-06	2.159627e-06	0.009754816	0.01335695	7.545762e-06	3.916012e-06
	1.7865e-06	2.159627e-06	0.01389875	0.01016378	1.716114e-06	9.035375e-06	0.009290479	0.01375631
	0.009754816	0.01335695	1.716114e-06	9.035375e-06	0.0152067	0.009369713	1.963833e-06	2.385243e-06
	7.545762e-06	3.916012e-06	0.009290479	0.01375631	1.963833e-06	2.385243e-06	0.01402401	0.01029618
4.7e+08	0.01713511	0.008819771	1.89578e-06	1.946772e-06	0.01129806	0.01323893	8.168552e-06	2.749272e-06
	1.89578e-06	1.946772e-06	0.01595448	0.009855585	1.764608e-06	9.124216e-06	0.01077671	0.01374436
	0.01129806	0.01323893	1.764608e-06	9.124216e-06	0.0174046	0.008804295	2.08488e-06	2.153035e-06
	8.168552e-06	2.749272e-06	0.01077671	0.01374436	2.08488e-06	2.153035e-06	0.01607933	0.009980035
4.8e+08	0.01918299	0.007942863	1.965563e-06	1.715996e-06	0.01279175	0.01286682	8.604049e-06	1.474741e-06
	1.965563e-06	1.715996e-06	0.01790299	0.009223037	1.797514e-06	9.21021e-06	0.01222769	0.01348891
