!$
! Info: Touchstone file created by Circ.  Input file=Tx_8in_Rx_100ohms_TxVia_60mils_RxVia_70mils.circ
!$
# Hz S RI R 50
0	0.00839963	1.184674e-25	1.349749e-09	1.302039e-27	6.279769e-05	1.654854e-23	1.217207e-09	5.601542e-28
	1.349757e-09	1.302042e-27	0.008394896	1.383605e-25	9.289702e-10	1.874147e-27	6.300308e-05	2.042828e-23
	6.377881e-05	1.683862e-23	9.289591e-10	1.87412e-27	0.008413609	1.134384e-25	-3.280051e-09	4.510029e-25
	1.217205e-09	5.600322e-28	6.327274e-05	2.051588e-23	-3.279643e-09	4.509529e-25	0.008409337	1.377438e-25
1e+07	0.01147695	0.005812016	2.613673e-09	3.536737e-09	0.0002291029	0.001590401	-1.114283e-09	3.042721e-08
	2.613673e-09	3.536737e-09	0.01229286	0.005622571	1.711079e-09	2.565196e-09	0.0005113336	0.001634786
	0.0002291122	0.001590368	1.711079e-09	2.565196e-09	0.01194411	0.00559934	-5.628458e-09	1.773051e-08
	-1.114282e-09	3.042721e-08	0.0005113361	0.001634783	-5.628458e-09	1.773051e-08	0.0121846	0.005640184
2e+07	0.01546632	0.008864667	4.574999e-09	6.197408e-09	0.0006258733	0.003157811	1.543756e-08	2.227947e-08
	4.574999e-09	6.197408e-09	0.01589178	0.00827702	2.969249e-09	4.620312e-09	0.000800456	0.003351369
	0.0006258464	0.00315781	2.969249e-09	4.620312e-09	0.0156131	0.00837013	-3.577976e-09	6.637999e-09
	1.543756e-08	2.227947e-08	0.000800453	0.00335137	-3.577976e-09	6.638e-09	0.01582003	0.008351673
3e+07	0.01894882	0.01019637	7.295665e-09	7.649129e-09	0.001265903	0.004600867	2.516814e-08	2.549551e-08
	7.295665e-09	7.649129e-09	0.01905511	0.009525989	4.365971e-09	6.009394e-09	0.00135823	0.004849363
	0.0012659	0.004600871	4.365971e-09	6.009394e-09	0.01884954	0.009655763	7.335304e-09	7.819968e-09
	2.516814e-08	2.549551e-08	0.00135823	0.004849365	7.335304e-09	7.819968e-09	0.01901471	0.009623627
4e+07	0.02216959	0.01066752	1.040844e-08	8.496605e-09	0.002125951	0.005901738	3.592905e-08	2.767854e-08
	1.040844e-08	8.496605e-09	0.02199811	0.01001899	6.149532e-09	7.067467e-09	0.002169588	0.006181274
	0.00212595	0.005901733	6.149532e-09	7.067467e-09	0.02187206	0.01015838	1.113256e-08	9.07689e-09
	3.592905e-08	2.767854e-08	0.002169589	0.006181275	1.113256e-08	9.07689e-09	0.02198657	0.0101284
5e+07	0.02517008	0.01048321	1.388204e-08	8.505527e-09	0.003177422	0.007029752	4.773891e-08	2.735677e-08
	1.388204e-08	8.505527e-09	0.02475663	0.00992435	8.101992e-09	7.669749e-09	0.003304959	0.007274686
	0.00317742	0.00702975	8.101992e-09	7.669749e-09	0.02471557	0.01005213	1.466755e-08	9.00053e-09
	4.773891e-08	2.735677e-08	0.00330496	0.007274686	1.466755e-08	9.00053e-09	0.02477129	0.01003826
6e+07	0.02794006	0.009749038	1.751949e-08	7.566797e-09	0.004387323	0.007957692	6.004047e-08	2.391976e-08
	1.751949e-08	7.566797e-09	0.02732186	0.009332168	1.013648e-08	7.758763e-09	0.004574167	0.008154245
	0.004387325	0.007957696	1.013648e-08	7.758764e-09	0.02736767	0.009427373	1.829566e-08	7.946318e-09
	6.004047e-08	2.391976e-08	0.004574169	0.008154246	1.829566e-08	7.946318e-09	0.02736	0.009445059
7e+07	0.03045035	0.008538428	2.108426e-08	5.636677e-09	0.00572955	0.008656607	7.208333e-08	1.712573e-08
	2.108426e-08	5.636677e-09	0.02966755	0.008305259	1.21398e-08	7.311213e-09	0.005942167	0.008803878
	0.005729559	0.008656612	1.21398e-08	7.311213e-09	0.02979862	0.008347689	2.190519e-08	5.922837e-09
	7.208333e-08	1.712573e-08	0.005942168	0.008803878	2.190519e-08	5.922837e-09	0.02972606	0.008412521
8e+07	0.03266519	0.006913774	2.433164e-08	2.733741e-09	0.007154374	0.009115142	8.305757e-08	6.987156e-09
	2.433164e-08	2.733741e-09	0.03176165	0.006898108	1.398868e-08	6.331206e-09	0.007370585	0.00921201
	0.007154388	0.009115145	1.398868e-08	6.331206e-09	0.03197308	0.006868437	2.530383e-08	2.913421e-09
	8.305757e-08	6.987156e-09	0.007370586	0.009212009	2.530383e-08	2.91342e-09	0.03183682	0.006995897
9e+07	0.0345475	0.004933909	2.703844e-08	-1.06482e-09	0.00861814	0.009326603	9.216602e-08	-6.268487e-09
	2.703844e-08	-1.06482e-09	0.03357308	0.005164511	1.556657e-08	4.853832e-09	0.008818467	0.009372324
	0.008618151	0.009326603	1.556657e-08	4.853832e-09	0.03385653	0.005044293	2.82869e-08	-1.068584e-09
	9.216602e-08	-6.268487e-09	0.008818468	0.009372324	2.82869e-08	-1.068584e-09	0.03366055	0.005249687
1e+08	0.036057	0.002653323	2.900576e-08	-5.637514e-09	0.01008263	0.00929202	9.867908e-08	-2.222589e-08
	2.900576e-08	-5.637514e-09	0.03508554	0.003168263	1.675653e-08	2.944118e-09	0.01023903	0.009280722
	0.01008263	0.009292019	1.675653e-08	2.944118e-09	0.035428	0.002939192	3.064564e-08	-5.983229e-09
	9.867908e-08	-2.222589e-08	0.01023903	0.009280722	3.064564e-08	-5.983229e-09	0.03517918	0.003237495
1.1e+08	0.03715754	0.0001749713	3.027015e-08	-1.085621e-08	0.01151044	0.00899485	1.025651e-07	-4.02594e-08
	3.027015e-08	-1.085621e-08	0.03629199	0.0008827057	1.753236e-08	6.986756e-10	0.01158375	0.008979503
	0.01151044	0.00899485	1.753236e-08	6.986756e-10	0.03667342	0.0005373931	3.197318e-08	-1.152736e-08
	1.025651e-07	-4.02594e-08	0.01158375	0.008979503	3.197318e-08	-1.152736e-08	0.03638405	0.0009416465
1.2e+08	0.03786927	-0.002458089	3.051281e-08	-1.660481e-08	0.01283936	0.008458085	1.029556e-07	-5.998444e-08
	3.051281e-08	-1.660481e-08	0.03708988	-0.001597392	1.779763e-08	-1.884683e-09	0.01284959	0.008466485
	0.01283936	0.008458085	1.779763e-08	-1.884683e-09	0.0374974	-0.002066956	3.222097e-08	-1.75764e-08
	1.029556e-07	-5.998444e-08	0.01284959	0.008466486	3.222097e-08	-1.75764e-08	0.03718076	-0.001546353
1.3e+08	0.03817111	-0.005191646	2.9619e-08	-2.264985e-08	0.01403578	0.007705757	9.947592e-08	-8.066018e-08
	2.9619e-08	-2.264985e-08	0.0374792	-0.004194672	1.745094e-08	-4.64252e-09	0.01399518	0.007752751
	0.01403578	0.007705757	1.745094e-08	-4.64252e-09	0.03789639	-0.004795408	3.127499e-08	-2.393545e-08
	9.947592e-08	-8.066018e-08	0.01399518	0.007752752	3.127499e-08	-2.393545e-08	0.03756794	-0.00415049
1.4e+08	0.03805539	-0.007964278	2.750962e-08	-2.877319e-08	0.01506688	0.006764424	9.186559e-08	-1.015341e-07
	2.750962e-08	-2.877319e-08	0.03745673	-0.006843603	1.64477e-08	-7.456388e-09	0.01498718	0.006860429
	0.01506688	0.006764424	1.64477e-08	-7.456388e-09	0.03786527	-0.007579548	2.905262e-08	-3.037521e-08
	9.186559e-08	-1.015341e-07	0.01498718	0.00686043	2.905262e-08	-3.037521e-08	0.03754218	-0.006805338
1.5e+08	0.03752358	-0.01071366	2.414608e-08	-3.473934e-08	0.01590417	0.005665284	8.000735e-08	-1.217984e-07
	2.414608e-08	-3.473934e-08	0.03702583	-0.00948097	1.476537e-08	-1.019784e-08	0.01579727	0.005817506
	0.01590417	0.005665284	1.476537e-08	-1.019784e-08	0.03740629	-0.01035275	2.55137e-08	-3.66479e-08
	8.000735e-08	-1.217984e-07	0.01579727	0.005817507	2.55137e-08	-3.66479e-08	0.03710687	-0.009447596
1.6e+08	0.03658591	-0.01337832	1.953377e-08	-4.030316e-08	0.01652451	0.00444366	6.393682e-08	-1.406178e-07
	1.953377e-08	-4.030316e-08	0.03619751	-0.01204574	1.240561e-08	-1.273301e-08	0.01640247	0.004656513
	0.01652451	0.00444366	1.240561e-08	-1.273301e-08	0.03653003	-0.01305032	2.06644e-08	-4.249583e-08
	6.393682e-08	-1.406178e-07	0.01640247	0.004656513	2.06644e-08	-4.249583e-08	0.0362731	-0.0120161
1.7e+08	0.03526117	-0.015899	1.372414e-08	-4.521806e-08	0.0169109	0.003138134	4.38478e-08	-1.571574e-07
	1.372414e-08	-4.521806e-08	0.03499055	-0.01447973	9.395388e-09	-1.492721e-08	0.01678575	0.003413445
	0.0169109	0.003138134	9.395388e-09	-1.492721e-08	0.03525559	-0.01561029	1.455937e-08	-4.766004e-08
	4.38478e-08	-1.571574e-07	0.01678575	0.003413445	1.455937e-08	-4.766004e-08	0.0350598	-0.01445255
1.8e+08	0.03357641	-0.01821984	6.815262e-09	-4.924453e-08	0.01705292	0.001789531	2.009239e-08	-1.706116e-07
	6.815262e-09	-4.924453e-08	0.0334313	-0.01672854	5.787339e-09	-1.664963e-08	0.01693637	0.002126693
	0.01705292	0.001789531	5.787339e-09	-1.664963e-08	0.03361039	-0.0179745	7.302179e-09	-5.188912e-08
	2.009239e-08	-1.706116e-07	0.01693637	0.002126693	7.302179e-09	-5.188912e-08	0.03349353	-0.01670242
1.9e+08	0.03156634	-0.02028965	-1.05132e-09	-5.21587e-08	0.0169471	0.0004398076	-6.823783e-09	-1.802338e-07
	-1.05132e-09	-5.21587e-08	0.03155327	-0.01874248	1.658165e-09	-1.777863e-08	0.01685021	0.0008359339
	0.0169471	0.0004398076	1.658165e-09	-1.777863e-08	0.0316297	-0.02008969	-9.578089e-10	-5.494827e-08
	-6.823783e-09	-1.802338e-07	0.01685021	0.000835934	-9.578089e-10	-5.494827e-08	0.03160803	-0.01871592
2e+08	0.0292727	-0.02206291	-9.688095e-09	-5.375975e-08	0.01659701	-0.000869102	-3.625177e-08	-1.853637e-07
	-9.688095e-09	-5.375975e-08	0.02939645	-0.0204775	-2.89072e-09	-1.820479e-08	0.01652987	-0.0004189956
	0.01659701	-0.000869102	-2.89072e-09	-1.820479e-08	0.02935595	-0.02190856	-1.002319e-08	-5.662712e-08
	-3.625177e-08	-1.853637e-07	0.01652987	-0.0004189955	-1.002319e-08	-5.662712e-08	0.02944355	-0.02044897
2.1e+08	0.02674337	-0.02350085	-1.886709e-08	-5.387968e-08	0.01601317	-0.002096457	-6.74143e-08	-1.854543e-07
	-1.886709e-08	-5.387968e-08	0.02700654	-0.02189608	-7.735998e-09	-1.783649e-08	0.01598458	-0.001599225
	0.01601317	-0.002096457	-7.735998e-09	-1.783649e-08	0.0268379	-0.02339072	-1.965421e-08	-5.674982e-08
	-6.74143e-08	-1.854543e-07	0.01598458	-0.001599225	-1.965421e-08	-5.674982e-08	0.02704605	-0.02186403
2.2e+08	0.02403141	-0.02457224	-2.832826e-08	-5.239036e-08	0.01521279	-0.00320385	-9.942558e-08	-1.800955e-07
	-2.832826e-08	-5.239036e-08	0.02443398	-0.02296795	-1.27369e-08	-1.660441e-08	0.01522996	-0.002667948
	0.01521279	-0.00320385	-1.27369e-08	-1.660441e-08	0.02412962	-0.02450363	-2.957749e-08	-5.518248e-08
	-9.942558e-08	-1.800955e-07	0.01522996	-0.002667948	-2.957749e-08	-5.518248e-08	0.02446621	-0.02293086
2.3e+08	0.02119384	-0.02525412	-3.778478e-08	-4.920977e-08	0.01421925	-0.004156292	-1.313155e-07	-1.690349e-07
	-3.778478e-08	-4.920977e-08	0.02173288	-0.02367069	-1.773841e-08	-1.446449e-08	0.01428761	-0.003591465
	0.01421925	-0.004156292	-1.773841e-08	-1.446449e-08	0.02128927	-0.02522325	-3.94916e-08	-5.183975e-08
	-1.313155e-07	-1.690349e-07	0.01428761	-0.003591465	-3.94916e-08	-5.183975e-08	0.02175843	-0.02362715
2.4e+08	0.01829042	-0.02553238	-4.693119e-08	-4.43074e-08	0.01306151	-0.004923206	-1.620574e-07	-1.521937e-07
	-4.693119e-08	-4.43074e-08	0.01895988	-0.02399022	-2.257581e-08	-1.140068e-08	0.01318448	-0.004340141
	0.01306151	-0.004923206	-2.257581e-08	-1.140068e-08	0.01837785	-0.02553458	-4.907573e-08	-4.669036e-08
	-1.620574e-07	-1.521937e-07	0.01318448	-0.004340141	-4.907573e-08	-4.669036e-08	0.01897957	-0.02393892
2.5e+08	0.01538233	-0.02540201	-5.545268e-08	-3.770812e-08	0.01177329	-0.005479301	-1.905994e-07	-1.296782e-07
	-5.545268e-08	-3.770812e-08	0.01617287	-0.02392108	-2.707978e-08	-7.426902e-09	0.01195211	-0.004889248
	0.01177329	-0.005479301	-2.707978e-08	-7.426902e-09	0.01545783	-0.02543205	-5.799935e-08	-3.976129e-08
	-1.905994e-07	-1.296782e-07	0.01195211	-0.004889248	-5.799935e-08	-3.976129e-08	0.01618775	-0.0238609
2.6e+08	0.01253077	-0.02486732	-6.303511e-08	-2.949446e-08	0.01039209	-0.005805303	-2.158976e-07	-1.01786e-07
	-6.303511e-08	-2.949446e-08	0.01342975	-0.02346653	-3.108186e-08	-2.588106e-09	0.0106258	-0.005219677
	0.01039209	-0.005805303	-3.108186e-08	-2.588106e-09	0.0125917	-0.02491961	-6.593282e-08	-3.114008e-08
	-2.158976e-07	-1.01786e-07	0.0106258	-0.005219677	-6.593282e-08	-3.114008e-08	0.01344104	-0.02339651
2.7e+08	0.009795523	-0.02394183	-6.937566e-08	-1.980702e-08	0.008958146	-0.005888514	-2.369506e-07	-6.90054e-08
	-6.937566e-08	-1.980702e-08	0.01078709	-0.02263841	-3.442011e-08	3.039744e-09	0.009243581	-0.00531849
	0.008958146	-0.005888514	-3.442011e-08	3.039744e-09	0.00984058	-0.02401068	-7.255855e-08	-2.097522e-08
	-2.369506e-07	-6.90054e-08	0.009243581	-0.00531849	-7.255855e-08	-2.097522e-08	0.01079618	-0.02255787
2.8e+08	0.007233626	-0.02264795	-7.41936e-08	-8.842916e-09	0.007513317	-0.00572319	-2.528343e-07	-3.200944e-08
	-7.41936e-08	-8.842916e-09	0.008298911	-0.02145693	-3.694487e-08	9.350678e-09	0.007845134	-0.005179299
	0.007513317	-0.00572319	-3.694487e-08	9.350678e-09	0.007262736	-0.0227278	-7.758233e-08	-9.474514e-09
	-2.528343e-07	-3.200944e-08	0.007845134	-0.005179299	-7.758233e-08	-9.474514e-09	0.008307298	-0.02136541
2.9e+08	0.004898005	-0.02101649	-7.724091e-08	3.147867e-09	0.00609986	-0.00531072	-2.627358e-07	8.357029e-09
	-7.724091e-08	3.147867e-09	0.006015441	-0.0199501	-3.852427e-08	1.621082e-08	0.006470699	-0.004802459
	0.00609986	-0.00531072	-3.852427e-08	1.621082e-08	0.004912258	-0.02110214	-8.074447e-08	3.098762e-09
	-2.627358e-07	8.357029e-09	0.006470699	-0.004802459	-8.074447e-08	3.098762e-09	0.006024671	-0.01984742
3e+08	0.002836229	-0.01908598	-7.831221e-08	1.58681e-08	0.004759234	-0.0046596	-2.659852e-07	5.109635e-08
	-7.831221e-08	1.58681e-08	0.003981966	-0.01815314	-3.904941e-08	2.346153e-08	0.005159919	-0.004195072
	0.004759234	-0.0046596	-3.904941e-08	2.346153e-08	0.00283776	-0.01917276	-8.183021e-08	1.643185e-08
	-2.659852e-07	5.109635e-08	0.005159919	-0.004195072	-8.183021e-08	1.643185e-08	0.003993608	-0.01803941
3.1e+08	0.001089403	-0.0169017	-7.725377e-08	2.898088e-08	0.003530917	-0.003785206	-2.620841e-07	9.508291e-08
	-7.725377e-08	2.898088e-08	0.002237821	-0.0161076	-3.843895e-08	3.092346e-08	0.003950717	-0.003370796
	0.003530917	-0.003785206	-3.843895e-08	3.092346e-08	0.001081246	-0.01698566	-8.067925e-08	3.017047e-08
	-2.620841e-07	9.508291e-08	0.003950717	-0.003370796	-8.067925e-08	3.017047e-08	0.002253409	-0.01598321
3.2e+08	-0.0003088265	-0.01451468	-7.397105e-08	4.211894e-08	0.00245127	-0.002709365	-2.507289e-07	1.390934e-07
	-7.397105e-08	4.211894e-08	0.0008154832	-0.01386041	-3.664294e-08	3.840153e-08	0.002878217	-0.002349465
	0.00245127	-0.002709365	-3.664294e-08	3.840153e-08	-0.0003229122	-0.01459272	-7.719354e-08	4.392865e-08
	-2.507289e-07	1.390934e-07	0.002878217	-0.002349465	-7.719354e-08	4.392865e-08	0.0008364728	-0.013726
3.3e+08	-0.001333061	-0.01198042	-6.84345e-08	5.489542e-08	0.001552492	-0.001459745	-2.318304e-07	1.818415e-07
	-6.84345e-08	5.489542e-08	-0.0002601413	-0.01146273	-3.364573e-08	4.569057e-08	0.001973751	-0.001156539
	0.001552492	-0.001459745	-3.364573e-08	4.569057e-08	-0.001348775	-0.01205041	-7.134345e-08	5.730006e-08
	-2.318304e-07	1.818415e-07	0.001973751	-0.001156539	-7.134345e-08	5.730006e-08	-0.0002324308	-0.01131922
3.4e+08	-0.001966754	-0.009357617	-6.068337e-08	6.69157e-08	0.0008616945	-6.907441e-05	-2.055245e-07	2.220162e-07
	-6.068337e-08	6.69157e-08	-0.0009722791	-0.008968758	-2.946785e-08	5.258148e-08	0.001263959	0.000177615
	0.0008616945	-6.90744e-05	-2.946785e-08	5.258148e-08	-0.001979461	-0.009418441	-6.317159e-08	6.98705e-08
	-2.055245e-07	2.220162e-07	0.001263959	0.000177615	-6.317159e-08	6.98705e-08	-0.000936698	-0.008817289
3.5e+08	-0.002202599	-0.006706721	-5.082713e-08	7.778995e-08	0.0004001212	0.001425788	-1.721787e-07	2.583217e-07
	-5.082713e-08	7.778995e-08	-0.001312645	-0.006434452	-2.41667e-08	5.886771e-08	0.0007700417	0.001618575
	0.0004001212	0.001425788	-2.41667e-08	5.886771e-08	-0.002207535	-0.006758339	-5.279444e-08	8.123112e-08
	-1.721787e-07	2.583217e-07	0.0007700417	0.001618575	-5.279444e-08	8.123112e-08	-0.001268257	-0.006276354
3.6e+08	-0.002042689	-0.004088486	-3.904469e-08	8.71459e-08	0.0001825333	0.002984895	-1.323871e-07	2.895162e-07
	-3.904469e-08	8.71459e-08	-0.001281588	-0.003916182	-1.783622e-08	6.435205e-08	0.0005071502	0.003128834
	0.0001825333	0.002984895	-1.783622e-08	6.435205e-08	-0.002035169	-0.004131907	-4.040074e-08	9.099066e-08
	-1.323871e-07	2.895162e-07	0.0005071502	0.003128834	-4.040074e-08	9.099066e-08	-0.001227703	-0.003752949
3.7e+08	-0.001498445	-0.001562511	-2.558107e-08	9.464141e-08	0.0002167815	0.004566341	-8.696646e-08	3.144603e-07
	-2.558107e-08	9.464141e-08	-0.0008880413	-0.00146941	-1.060487e-08	6.885237e-08	0.0004839611	0.004668854
	0.0002167815	0.004566341	-1.060487e-08	6.885237e-08	-0.001474067	-0.001599759	-2.624995e-08	9.879156e-08
	-8.696646e-08	3.144603e-07	0.0004839611	0.004668854	-2.624995e-08	9.879156e-08	-0.0008242401	-0.001302648
3.8e+08	-0.0005903179	0.0008142033	-1.074184e-08	9.997622e-08	0.0005035768	0.006127451	-3.693346e-08	3.321498e-07
	-1.074184e-08	9.997622e-08	-0.0001492542	0.0008526174	-2.633177e-09	7.220855e-08	0.0007024285	0.006198181
	0.0005035768	0.006127451	-2.633177e-09	7.220855e-08	-0.0005451482	0.0007801668	-1.066431e-08	1.043203e-07
	-3.693346e-08	3.321498e-07	0.0007024285	0.006198181	-1.066431e-08	1.043203e-07	-7.54063e-05	0.001021238
3.9e+08	0.0006527375	0.002988617	5.114518e-09	1.029026e-07	0.001036461	0.007625987	1.65183e-08	3.417515e-07
	5.114518e-09	1.029026e-07	0.0009096678	0.003000115	5.890261e-09	7.428776e-08	0.001157728	0.007676576
	0.001036461	0.007625987	5.890261e-09	7.428776e-08	0.0007219894	0.002954007	5.978814e-09	1.073186e-07
	1.65183e-08	3.417515e-07	0.001157728	0.007676576	5.978814e-09	1.073186e-07	0.0009933939	0.00316891
4e+08	0.002193993	0.004912929	2.158622e-08	1.032346e-07	0.001801984	0.009021338	7.204822e-08	3.426354e-07
	2.158622e-08	1.032346e-07	0.002256414	0.004927921	1.475364e-08	7.498927e-08	0.001838391	0.009065138
	0.001801984	0.009021338	1.475364e-08	7.498927e-08	0.002289829	0.004873269	2.325694e-08	1.075932e-07
	7.204822e-08	3.426354e-07	0.001838391	0.009065138	2.325694e-08	1.075932e-07	0.002349552	0.005095247
4.1e+08	0.003989867	0.006545714	3.823923e-08	1.008551e-07	0.002780068	0.01027567	1.282043e-07	3.343989e-07
	3.823923e-08	1.008551e-07	0.00385229	0.006596533	2.372757e-08	7.424827e-08	0.002726621	0.0103274
	0.002780068	0.01027567	2.372757e-08	7.424827e-08	0.00411388	0.006496001	4.071413e-08	1.050234e-07
	1.282043e-07	3.343989e-07	0.002726621	0.0103274	4.071413e-08	1.050234e-07	0.003954081	0.006760837
4.2e+08	0.005991015	0.007852896	5.461942e-08	9.57213e-08	0.003944569	0.01135498	1.83463e-07	3.168862e-07
	5.461942e-08	9.57213e-08	0.005653183	0.007973003	3.257132e-08	7.203882e-08	0.00379879	0.01143033
	0.003944569	0.01135498	3.257132e-08	7.203882e-08	0.0061438	0.00778778	5.787384e-08	9.956659e-08
	1.83463e-07	3.168862e-07	0.00379879	0.01143033	5.787384e-08	9.956659e-08	0.005762599	0.008132874
4.3e+08	0.008143552	0.008808546	7.026553e-08	8.786727e-08	0.005263994	0.01223006	2.362719e-07	2.901996e-07
	7.026553e-08	8.786727e-08	0.007610659	0.009031672	4.103944e-08	6.837561e-08	0.005026091	0.01234525
	0.005263994	0.01223006	4.103944e-08	6.837561e-08	0.008324652	0.008722521	7.425251e-08	9.126089e-08
	2.362719e-07	2.901996e-07	0.005026091	0.01234525	7.425251e-08	9.126089e-08	0.007726424	0.009185889
4.4e+08	0.01039038	0.009395467	8.472236e-08	7.740499e-08	0.006702373	0.01287732	2.850935e-07	2.547036e-07
	8.472236e-08	7.740499e-08	0.009673145	0.009754716	4.888869e-08	6.331458e-08	0.00637533	0.01304864
	0.006702373	0.01287732	4.888869e-08	6.331458e-08	0.01059827	0.009283073	8.93734e-08	8.022601e-08
	2.850935e-07	2.547036e-07	0.00637533	0.01304864	8.93734e-08	8.022601e-08	0.009793774	0.009902287
4.5e+08	0.01267261	0.009605575	9.755385e-08	6.452259e-08	0.008220246	0.01327945	3.284505e-07	2.110209e-07
	9.755385e-08	6.452259e-08	0.01178719	0.01013251	5.588494e-08	5.69524e-08	0.007809839	0.0135228
	0.008220246	0.01327945	5.588494e-08	5.69524e-08	0.0129047	0.009461596	1.027803e-07	6.666141e-08
	3.284505e-07	2.110209e-07	0.007809839	0.0135228	1.027803e-07	6.666141e-08	0.01191103	0.01027271
4.6e+08	0.01493097	0.009440041	1.083558e-07	4.948067e-08	0.00977575	0.0134259	3.649687e-07	1.600223e-07
	1.083558e-07	4.948067e-08	0.01389875	0.01016378	6.180991e-08	4.942481e-08	0.009290479	0.01375631
	0.00977575	0.0134259	6.180991e-08	4.942481e-08	0.01518369	0.009259703	1.14051e-07	5.084233e-08
	3.649687e-07	1.600223e-07	0.009290479	0.01375631	1.14051e-07	5.084233e-08	0.01402401	0.01029618
4.7e+08	0.01710729	0.008909192	1.167471e-07	3.259564e-08	0.01132577	0.01331322	3.933682e-07	1.027925e-07
	1.167471e-07	3.259564e-08	0.01595448	0.009855585	6.646554e-08	4.090484e-08	0.01077671	0.01374436
	0.01132577	0.01331322	6.646554e-08	4.090484e-08	0.01737612	0.008688369	1.22788e-07	3.310236e-08
	3.933682e-07	1.027925e-07	0.01077671	0.01374436	1.22788e-07	3.310236e-08	0.01607933	0.009980035
