!$
! Info: Touchstone file created by Circ.  Input file=Tx_8in_Rx_93ohms_TxVia_60mils_RxVia_70mils.circ
!$
# Hz S RI R 50
0	0.007438874	1.15484e-25	-4.330826e-05	7.432682e-24	6.39099e-05	1.4527e-23	-4.327114e-05	2.932549e-24
	-4.330827e-05	7.432653e-24	0.007434611	1.384184e-25	-4.334409e-05	1.193311e-23	6.303628e-05	1.80735e-23
	6.304179e-05	1.446205e-23	-4.33441e-05	1.193352e-23	0.007452679	1.167709e-25	-4.330628e-05	7.346101e-24
	-4.327114e-05	2.932064e-24	6.3306e-05	1.815101e-23	-4.330627e-05	7.345233e-24	0.00744908	1.378012e-25
1e+07	0.01066444	-0.0004048508	-0.0002010057	2.352425e-06	0.0002581596	0.00163001	-3.993265e-05	-6.24163e-06
	-0.0002010057	2.352424e-06	0.01087871	-0.0004181899	-0.0001066679	5.090603e-05	0.0002548177	0.001624728
	0.000258144	0.001630023	-0.0001066679	5.090603e-05	0.01090006	-0.0004228374	-0.0002008401	4.196078e-06
	-3.993265e-05	-6.241631e-06	0.0002548201	0.001624725	-0.0002008401	4.196079e-06	0.01067129	-0.0004225293
2e+07	0.01265596	-0.003446374	-0.0001684549	-3.687716e-05	0.0006169673	0.003239164	-1.923824e-05	-4.430994e-05
	-0.0001684549	-3.687716e-05	0.01279222	-0.003546097	-0.0001057891	3.204194e-05	0.0006075719	0.003230935
	0.0006169741	0.003239173	-0.0001057891	3.204194e-05	0.01283421	-0.003559465	-0.0001673976	-4.031472e-05
	-1.923824e-05	-4.430994e-05	0.0006075689	0.003230936	-0.0001673977	-4.031472e-05	0.01263508	-0.003479641
3e+07	0.01336086	-0.007500196	-0.0001475896	-5.560841e-05	0.001291333	0.004681393	-2.428503e-05	-5.368365e-05
	-0.0001475896	-5.560841e-05	0.01341627	-0.00762109	-0.0001020499	3.203921e-05	0.00125851	0.004677655
	0.001291333	0.004681393	-0.0001020499	3.203921e-05	0.01349099	-0.007650623	-0.000145721	-5.98532e-05
	-2.428503e-05	-5.368365e-05	0.00125851	0.004677657	-0.000145721	-5.98532e-05	0.01329573	-0.007539503
4e+07	0.01305061	-0.01182207	-0.0001320226	-6.451344e-05	0.002215591	0.005955467	-4.704239e-05	-5.017108e-05
	-0.0001320226	-6.451344e-05	0.0130191	-0.01193771	-9.645486e-05	3.338929e-05	0.00216238	0.005960096
	0.002215589	0.005955468	-9.645486e-05	3.338929e-05	0.01313683	-0.01199352	-0.0001295574	-6.938844e-05
	-4.704239e-05	-5.017108e-05	0.002162381	0.005960097	-0.0001295574	-6.938844e-05	0.0129265	-0.01185595
5e+07	0.01184461	-0.01613413	-0.0001195849	-6.903762e-05	0.003319785	0.007042574	-6.591095e-05	-4.108151e-05
	-0.0001195849	-6.903762e-05	0.01172175	-0.01622132	-8.958151e-05	3.350201e-05	0.003243603	0.007061246
	0.003319784	0.007042575	-8.958151e-05	3.350201e-05	0.01189001	-0.01631672	-0.0001166599	-7.446591e-05
	-6.591095e-05	-4.108151e-05	0.003243604	0.007061246	-0.0001166599	-7.446591e-05	0.01164929	-0.01614711
6e+07	0.009834756	-0.02024841	-0.0001089628	-7.097678e-05	0.00457061	0.007917807	-8.108054e-05	-2.792897e-05
	-0.0001089628	-7.097678e-05	0.009619576	-0.02028469	-8.219073e-05	3.123238e-05	0.004470106	0.007956726
	0.004570608	0.007917806	-8.219073e-05	3.123238e-05	0.009842041	-0.02043476	-0.0001056722	-7.691648e-05
	-8.108054e-05	-2.792897e-05	0.004470107	0.007956726	-0.0001056722	-7.691648e-05	0.0095601	-0.02022239
7e+07	0.007111393	-0.02401851	-9.918909e-05	-7.11041e-05	0.005930249	0.008561112	-9.248661e-05	-1.157442e-05
	-9.918909e-05	-7.11041e-05	0.006806642	-0.0239821	-7.523245e-05	2.594424e-05	0.005805427	0.0086268
	0.005930245	0.008561111	-7.523245e-05	2.594424e-05	0.007083291	-0.02420251	-9.559698e-05	-7.752549e-05
	-9.248661e-05	-1.157442e-05	0.005805429	0.008626799	-9.559697e-05	-7.752549e-05	0.00675335	-0.02393413
8e+07	0.003771309	-0.02732516	-8.938283e-05	-6.975498e-05	0.00735767	0.008958615	-9.986109e-05	7.448831e-06
	-8.938283e-05	-6.975498e-05	0.003383488	-0.02719501	-6.983814e-05	1.729892e-05	0.007209969	0.009057652
	0.007357665	0.008958614	-6.983814e-05	1.729892e-05	0.003710836	-0.02750141	-8.552441e-05	-7.662717e-05
	-9.986109e-05	7.448831e-06	0.00720997	0.009057651	-8.552441e-05	-7.662717e-05	0.003329699	-0.02716238
9e+07	-7.913911e-05	-0.03007056	-7.843981e-05	-6.687434e-05	0.008809854	0.009103306	-0.000102539	2.895271e-05
	-7.843981e-05	-6.687434e-05	-0.0005394549	-0.02982641	-6.736133e-05	5.112322e-06	0.008642184	0.009242089
	0.008809851	0.009103306	-6.736133e-05	5.112322e-06	-0.0001683123	-0.03023393	-7.971955e-05	-6.940785e-05
	-0.000102539	2.895271e-05	0.008642184	0.009242088	-7.971955e-05	-6.940785e-05	-0.000600487	-0.02980908
1e+08	-0.004313828	-0.03216791	-7.908235e-05	-4.364106e-05	0.01024283	0.008994866	-9.738734e-05	5.451273e-05
	-7.908235e-05	-4.364106e-05	-0.004829804	-0.03178905	-7.043494e-05	-1.189079e-05	0.01005979	0.009179541
	0.01024283	0.008994866	-7.043494e-05	-1.189079e-05	-0.004425154	-0.03231163	-8.623333e-05	-3.906452e-05
	-9.738734e-05	5.451273e-05	0.01005979	0.009179541	-8.623333e-05	-3.906452e-05	-0.004906702	-0.03178778
1.1e+08	-0.008792739	-0.03364665	-7.181633e-05	-2.635845e-05	0.0116115	0.008644473	-8.081255e-05	6.913828e-05
	-7.181633e-05	-2.635845e-05	-0.009339364	-0.03312993	-7.100095e-05	-3.701613e-05	0.01141945	0.00887871
	0.0116115	0.008644473	-7.100095e-05	-3.701613e-05	-0.008915596	-0.03377923	-7.785034e-05	-2.086503e-05
	-8.081255e-05	6.913828e-05	0.01141945	0.00887871	-7.785034e-05	-2.086503e-05	-0.009443346	-0.03313094
1.2e+08	-0.013481	-0.0344373	-6.736926e-05	-1.431587e-05	0.01287915	0.008067292	-6.721594e-05	7.83525e-05
	-6.736926e-05	-1.431587e-05	-0.01404593	-0.0337759	-7.381008e-05	-6.030568e-05	0.01268384	0.008354447
	0.01287915	0.008067292	-7.381008e-05	-6.030568e-05	-0.01361967	-0.03456114	-7.249373e-05	-8.245001e-06
	-6.721594e-05	7.83525e-05	0.01268383	0.008354448	-7.249373e-05	-8.245001e-06	-0.01417359	-0.03377068
1.3e+08	-0.01824331	-0.03450598	-6.310404e-05	-4.309898e-06	0.01400842	0.007284091	-5.44232e-05	8.496038e-05
	-6.310404e-05	-4.309898e-06	-0.01880919	-0.0336931	-8.110228e-05	-8.297428e-05	0.01381678	0.007626685
	0.01400842	0.007284091	-8.110228e-05	-8.297428e-05	-0.01839937	-0.03462013	-6.738752e-05	2.180858e-06
	-5.44232e-05	8.496038e-05	0.01381678	0.007626686	-6.738752e-05	2.180858e-06	-0.01895852	-0.03367612
1.4e+08	-0.02295652	-0.03385202	-5.857536e-05	4.271007e-06	0.0149665	0.006322217	-4.387379e-05	8.874047e-05
	-5.857536e-05	4.271007e-06	-0.0235035	-0.03288376	-9.344206e-05	-0.0001044753	0.01478624	0.006721467
	0.0149665	0.006322217	-9.344206e-05	-0.0001044753	-0.02313068	-0.03395463	-6.206063e-05	1.107141e-05
	-4.387379e-05	8.874047e-05	0.01478623	0.006721468	-6.206063e-05	1.107141e-05	-0.02367219	-0.03285037
1.5e+08	-0.02750293	-0.03249589	-5.363635e-05	1.167923e-05	0.01572588	0.005214153	-3.992365e-05	8.876545e-05
	-5.363635e-05	1.167923e-05	-0.0280097	-0.031372	-0.0001109739	-0.0001239242	0.01556515	0.005669786
	0.01572588	0.005214153	-0.0001109739	-0.0001239242	-0.02769526	-0.03258468	-5.635346e-05	1.870314e-05
	-3.992365e-05	8.876545e-05	0.01556515	0.005669787	-5.635346e-05	1.870314e-05	-0.02819496	-0.03131825
1.6e+08	-0.03177202	-0.03047686	-4.830691e-05	1.791556e-05	0.01626512	0.003996462	-3.566018e-05	8.898835e-05
	-4.830691e-05	1.791556e-05	-0.03221664	-0.02920115	-0.000133531	-0.0001403206	0.01613221	0.004506607
	0.01626512	0.003996462	-0.000133531	-0.0001403206	-0.03198205	-0.03054931	-5.028045e-05	2.509095e-05
	-3.566018e-05	8.898835e-05	0.01613221	0.004506607	-5.028045e-05	2.509095e-05	-0.03241519	-0.02912375
1.7e+08	-0.03566267	-0.02785108	-4.266663e-05	2.300778e-05	0.01656934	0.002708673	-3.114593e-05	8.927102e-05
	-4.266663e-05	2.300778e-05	-0.03602343	-0.02643157	-0.0001606703	-0.0001526601	0.01647236	0.003269815
	0.01656934	0.002708673	-0.0001606703	-0.0001526601	-0.03588933	-0.02790459	-4.391602e-05	3.027191e-05
	-3.114593e-05	8.927102e-05	0.01647236	0.003269815	-4.391602e-05	3.027191e-05	-0.03623156	-0.02632792
1.8e+08	-0.0390852	-0.02468954	-3.683712e-05	2.697557e-05	0.01663062	0.00139211	-2.64271e-05	8.951538e-05
	-3.683712e-05	2.697557e-05	-0.0393415	-0.02313851	-0.0001917009	-0.0001600139	0.01657715	0.001999112
	0.01663062	0.00139211	-0.0001917009	-0.0001600139	-0.03932692	-0.02472156	-3.737775e-05	3.427121e-05
	-2.64271e-05	8.951538e-05	0.01657715	0.001999112	-3.737775e-05	3.427121e-05	-0.03955517	-0.02300676
1.9e+08	-0.0419633	-0.02107595	-3.096341e-05	2.98509e-05	0.01644816	8.868829e-05	-2.154359e-05	8.964836e-05
	-3.096341e-05	2.98509e-05	-0.04209648	-0.01940973	-0.0002257187	-0.00016159	0.01644496	0.00073488
	0.01644816	8.868829e-05	-0.0002257187	-0.00016159	-0.042218	-0.0210841	-3.080778e-05	3.71235e-05
	-2.154359e-05	8.964836e-05	0.01644496	0.0007348801	-3.080778e-05	3.71235e-05	-0.04231141	-0.01924879
2e+08	-0.04423554	-0.01710435	-2.519968e-05	3.168856e-05	0.0160282	-0.001160277	-1.653204e-05	8.961449e-05
	-2.519968e-05	3.168856e-05	-0.04422969	-0.01534299	-0.0002616478	-0.0001567838	0.0160809	-0.0004829514
	0.0160282	-0.001160277	-0.0002616478	-0.0001567838	-0.04450069	-0.0170865	-2.435859e-05	3.888405e-05
	-1.653204e-05	8.961449e-05	0.0160809	-0.0004829513	-2.435859e-05	3.888405e-05	-0.04444151	-0.01515258
2.1e+08	-0.04585661	-0.01287657	-1.969682e-05	3.257052e-05	0.01538385	-0.00231523	-1.142769e-05	8.937158e-05
	-1.969682e-05	3.257052e-05	-0.04569929	-0.0110434	-0.0002982897	-0.0001452124	0.01549666	-0.001616008
	0.01538385	-0.00231523	-0.0002982897	-0.0001452124	-0.04612929	-0.01283092	-1.81809e-05	3.963377e-05
	-1.142769e-05	8.937158e-05	0.01549666	-0.001616008	-1.81809e-05	3.963377e-05	-0.04590366	-0.01082399
2.2e+08	-0.04679813	-0.008499629	-1.459222e-05	3.260607e-05	0.01453462	-0.003339471	-6.264619e-06	8.888792e-05
	-1.459222e-05	3.260607e-05	-0.04648102	-0.006620548	-0.0003343776	-0.0001267391	0.0147101	-0.002628516
	0.01453462	-0.003339471	-0.0003343776	-0.0001267391	-0.04707505	-0.008424803	-1.241348e-05	3.947981e-05
	-6.264619e-06	8.888792e-05	0.0147101	-0.002628516	-1.241348e-05	3.947981e-05	-0.04667374	-0.006373417
2.3e+08	-0.04704904	-0.004082988	-1.000103e-05	3.192892e-05	0.01350583	-0.004200165	-1.075837e-06	8.814021e-05
	-1.000103e-05	3.192892e-05	-0.04656846	-0.002185791	-0.0003686328	-0.0001014858	0.01374473	-0.003488259
	0.01350583	-0.004200165	-0.0003686328	-0.0001014858	-0.04732664	-0.003978075	-7.174745e-06	3.855328e-05
	-1.075837e-06	8.814021e-05	0.01374473	-0.003488259	-7.174745e-06	3.855328e-05	-0.04674564	-0.001912933
2.4e+08	-0.04661572	0.0002641357	-6.008711e-06	3.069155e-05	0.01232794	-0.004869227	4.106188e-06	8.711251e-05
	-6.008711e-06	3.069155e-05	-0.045973	0.002150634	-0.0003998215	-6.982278e-05	0.01262904	-0.00416744
	0.01232794	-0.004869227	-0.0003998215	-6.982278e-05	-0.04689023	0.0003995182	-2.555147e-06	3.700418e-05
	4.106188e-06	8.711251e-05	0.01262904	-0.004167441	-2.555147e-06	3.700418e-05	-0.04613114	0.002446549
2.5e+08	-0.04552152	0.004435448	-2.666813e-06	2.905855e-05	0.01103563	-0.00532409	9.250416e-06	8.57947e-05
	-2.666813e-06	2.905855e-05	-0.04472323	0.006282315	-0.0004268159	-3.237525e-05	0.01139568	-0.004643421
	0.01103563	-0.00532409	-0.0004268159	-3.237525e-05	-0.04578906	0.004601114	1.38701e-06	3.499529e-05
	9.250416e-06	8.57947e-05	0.01139568	-0.004643421	1.38701e-06	3.499529e-05	-0.04485935	0.006598024
2.6e+08	-0.04380607	0.008330137	-2.598178e-09	2.706954e-05	0.009666851	-0.005548314	1.432595e-05	8.418375e-05
	-2.59818e-09	2.706954e-05	-0.0428641	0.01010932	-0.0004431628	1.950077e-05	0.01008057	-0.004899314
	0.009666851	-0.005548314	-0.0004431628	1.950077e-05	-0.04406275	0.008525349	4.620446e-06	3.256573e-05
	1.432595e-05	8.418375e-05	0.01008057	-0.004899314	4.620446e-06	3.256573e-05	-0.04297582	0.01044102
2.7e+08	-0.04152414	0.01185529	1.988055e-06	2.500211e-05	0.008261777	-0.005532037	1.930601e-05	8.227756e-05
	1.988055e-06	2.500211e-05	-0.04045555	0.01354051	-0.0004510507	7.575449e-05	0.008721934	-0.004924442
	0.008261777	-0.005532037	-0.0004510507	7.575449e-05	-0.0417661	0.01207868	7.136505e-06	2.999277e-05
	1.930601e-05	8.227756e-05	0.008721934	-0.004924442	7.136505e-06	2.999277e-05	-0.04054118	0.01388406
2.8e+08	-0.03874415	0.01492811	3.365988e-06	2.303292e-05	0.006861699	-0.005272254	2.416401e-05	8.007857e-05
	3.365988e-06	2.303292e-05	-0.03757091	0.01649585	-0.0004508692	0.0001334151	0.007359235	-0.004714621
	0.006861699	-0.005272254	-0.0004508692	0.0001334151	-0.03896771	0.0151777	8.984966e-06	2.745609e-05
	2.416401e-05	8.007857e-05	0.007359235	-0.004714621	8.984966e-06	2.745609e-05	-0.0376295	0.01684683
2.9e+08	-0.03554643	0.01747787	4.224428e-06	2.129433e-05	0.00550788	-0.004772917	2.887463e-05	7.759246e-05
	4.224428e-06	2.129433e-05	-0.03429492	0.01890824	-0.0004424751	0.0001911302	0.006032111	-0.00427229
	0.00550788	-0.004772917	-0.0004424751	0.0001911302	-0.03574817	0.0177511	1.024854e-05	2.509352e-05
	2.887463e-05	7.759246e-05	0.006032111	-0.00427229	1.024854e-05	2.509352e-05	-0.03432634	0.01926211
3e+08	-0.03202113	0.01944756	4.682562e-06	1.988945e-05	0.004240413	-0.004044846	3.341403e-05	7.482734e-05
	4.682562e-06	1.988945e-05	-0.03072156	0.02072515	-0.0004259875	0.0002475495	0.004779286	-0.003606458
	0.004240413	-0.004044846	-0.0004259875	0.0002475495	-0.03219798	0.01974131	1.103638e-05	2.301611e-05
	3.341403e-05	7.482734e-05	0.004779286	-0.003606458	1.103638e-05	2.301611e-05	-0.03072645	0.02107739
3.1e+08	-0.02826594	0.02079524	4.878067e-06	1.888668e-05	0.003097093	-0.003105472	3.775977e-05	7.179386e-05
	4.878067e-06	1.888668e-05	-0.02695159	0.02190982	-0.0004017762	0.0003013833	0.003637506	-0.002732486
	0.003097093	-0.003105472	-0.0004017762	0.0003013833	-0.02841529	0.02110591	1.14773e-05	2.13026e-05
	3.775977e-05	7.179386e-05	0.003637506	-0.002732486	1.14773e-05	2.13026e-05	-0.02693138	0.02225603
3.2e+08	-0.02438367	0.02149496	4.958201e-06	1.831655e-05	0.00211235	-0.001978379	4.189079e-05	6.850454e-05
	4.958201e-06	1.831655e-05	-0.02308996	0.02244206	-0.0003704445	0.0003514508	0.002640506	-0.001671697
	0.00211235	-0.001978379	-0.0003704445	0.0003514508	-0.02450346	0.02181852	1.17114e-05	1.999601e-05
	4.189079e-05	6.850454e-05	0.002640506	-0.001671697	1.17114e-05	1.999601e-05	-0.02304684	0.02277813
3.3e+08	-0.02047965	0.02153738	5.070387e-06	1.817065e-05	0.001316252	-0.0006926942	4.578739e-05	6.497369e-05
	5.070387e-06	1.817065e-05	-0.01924315	0.02231869	-0.0003327982	0.0003967261	0.001818057	-0.000450818
	0.001316252	-0.0006926942	-0.0003327982	0.0003967261	-0.0205684	0.02186943	1.188132e-05	1.910222e-05
	4.578739e-05	6.497369e-05	0.001818057	-0.0004508179	1.188132e-05	1.910222e-05	-0.01918001	0.02264092
3.4e+08	-0.01665908	0.0209299	5.35284e-06	1.840258e-05	0.0007336218	0.0007176951	4.943138e-05	6.121753e-05
	5.35284e-06	1.840258e-05	-0.01551645	0.02155353	-0.0002898031	0.0004363766	0.001195098	0.0008987307
	0.0007336218	0.0007176951	-0.0002898031	0.0004363766	-0.01671601	0.0212658	1.212323e-05	1.859033e-05
	4.943138e-05	6.121753e-05	0.001195098	0.0008987307	1.212323e-05	1.859033e-05	-0.01543682	0.02185873
3.5e+08	-0.01302447	0.01969641	5.925484e-06	1.893153e-05	0.0003832818	0.002215064	5.280596e-05	5.725378e-05
	5.925484e-06	1.893153e-05	-0.01201129	0.02017695	-0.0002425397	0.0004697887	0.000791002	0.002341682
	0.0003832818	0.002215064	-0.0002425397	0.0004697887	-0.0130495	0.02003138	1.255814e-05	1.83957e-05
	5.280596e-05	5.725378e-05	0.000791002	0.002341682	1.255814e-05	1.83957e-05	-0.01191922	0.02046256
3.6e+08	-0.009672985	0.01787668	6.88201e-06	1.964777e-05	0.0002774592	0.003758891	5.589601e-05	5.310178e-05
	6.88201e-06	1.964777e-05	-0.008822671	0.01823502	-0.0001921505	0.000496583	0.000618973	0.003839894
	0.0002774592	0.003758891	-0.0001921505	0.000496583	-0.009666788	0.01820588	1.32841e-05	1.842461e-05
	5.589601e-05	5.310178e-05	0.000618973	0.003839894	1.32841e-05	1.842461e-05	-0.008722639	0.01849919
3.7e+08	-0.006694102	0.01552524	8.283421e-06	2.042013e-05	0.0004213687	0.005307005	5.868813e-05	4.87822e-05
	8.283421e-06	2.042013e-05	-0.006036756	0.01578826	-0.000139788	0.0005166176	0.0006856201	0.005353415
	0.0004213687	0.005307005	-0.000139788	0.0005166176	-0.006658121	0.01584392	1.436976e-05	1.856101e-05
	5.868813e-05	4.87822e-05	0.0006856202	0.005353415	1.436976e-05	1.856101e-05	-0.005933552	0.01602993
3.8e+08	-0.004167339	0.01271001	1.015357e-05	2.110477e-05	0.0008129919	0.006816784	6.117075e-05	4.43169e-05
	1.015357e-05	2.110477e-05	-0.003728708	0.01291003	-8.656197e-05	0.0005299787	0.0009907093	0.006841619
	0.0008129919	0.006816784	-8.656197e-05	0.0005299787	-0.004103767	0.01301364	1.584964e-05	1.867455e-05
	6.117075e-05	4.43169e-05	0.0009907093	0.006841619	1.584964e-05	1.867455e-05	-0.003627278	0.01312897
3.9e+08	-0.002160287	0.009510537	1.247702e-05	2.155486e-05	0.001443064	0.008246396	6.333433e-05	3.972879e-05
	1.247702e-05	2.155486e-05	-0.001960791	0.009684569	-3.349153e-05	0.0005369597	0.001527112	0.008264374
	0.001443064	0.008246396	-3.349153e-05	0.0005369597	-0.002072047	0.009794901	1.772165e-05	1.862959e-05
	6.333433e-05	3.972879e-05	0.001527112	0.008264374	1.772165e-05	1.862959e-05	-0.001866106	0.0098814
4e+08	-0.0007269359	0.006015918	1.519927e-05	2.163074e-05	0.002295276	0.009556038	6.517135e-05	3.504154e-05
	1.519927e-05	2.163074e-05	-0.00078083	0.006204799	1.853549e-05	0.0005380304	0.002280958	0.009583217
	0.002295276	0.009556038	1.853549e-05	0.0005380304	-0.0006176275	0.006277257	1.994681e-05	1.829465e-05
	6.517135e-05	3.504154e-05	0.002280958	0.009583217	1.994681e-05	1.829465e-05	-0.000697735	0.006381005
4.1e+08	9.365187e-05	0.002322541	1.822968e-05	2.120954e-05	0.003346687	0.01070912	6.66765e-05	3.02794e-05
	1.822968e-05	2.120954e-05	-0.0002210325	0.00256987	6.879535e-05	0.0005337977	0.003231987	0.01076249
	0.003346687	0.01070912	6.879535e-05	0.0005337977	0.0002198195	0.002557659	2.245135e-05	1.755168e-05
	6.66765e-05	3.02794e-05	0.003231987	0.01076249	2.245135e-05	1.755168e-05	-0.0001541026	0.002727759
4.2e+08	0.0002782845	-0.001468398	2.144656e-05	2.019395e-05	0.004568341	0.01167337	6.784663e-05	2.546694e-05
	2.144656e-05	2.019395e-05	-0.0002972306	-0.001117423	0.0001167504	0.0005249599	0.004354099	0.01177041
	0.004568341	0.01167337	0.0001167504	0.0005249599	0.00041658	-0.001262035	2.513109e-05	1.630447e-05
	6.784663e-05	2.546694e-05	0.004354099	0.01177041	2.513109e-05	1.630447e-05	-0.0002506313	-0.0009747646
4.3e+08	-0.0001798224	-0.005253481	2.470448e-05	1.851954e-05	0.005926081	0.01242184	6.868073e-05	2.062876e-05
	2.470448e-05	1.851954e-05	-0.001008544	-0.004753323	0.0001620586	0.0005122586	0.005616086	0.01258003
	0.005926081	0.01242184	0.0001620586	0.0005122586	-3.454607e-05	-0.005077654	2.785789e-05	1.448592e-05
	6.868073e-05	2.062876e-05	0.005616086	0.01258003	2.785789e-05	1.448592e-05	-0.0009858988	-0.004622102
4.4e+08	-0.001270931	-0.008929701	2.784322e-05	1.615992e-05	0.007381517	0.01293374	6.917984e-05	1.578931e-05
	2.784322e-05	1.615992e-05	-0.00233748	-0.008235793	0.0002045723	0.0004964293	0.006982528	0.01317005
	0.007381518	0.01293374	0.0002045723	0.0004964293	-0.001124117	-0.008785369	3.048763e-05	1.206332e-05
	6.917984e-05	1.578931e-05	0.006982528	0.01317005	3.048763e-05	1.206332e-05	-0.002341755	-0.008111607
4.5e+08	-0.002969087	-0.01239708	3.069772e-05	1.312961e-05	0.008893146	0.0131951	6.934705e-05	1.097271e-05
	3.069772e-05	1.312961e-05	-0.004250471	-0.01146715	0.0002443244	0.000478155	0.008414815	0.01352548
	0.008893146	0.0131951	0.0002443244	0.000478155	-0.00282634	-0.01228432	3.286945e-05	9.041527e-06
	6.934705e-05	1.097271e-05	0.008414815	0.01352548	3.286945e-05	9.041527e-06	-0.004283873	-0.0113451
4.6e+08	-0.005232833	-0.01556118	3.310839e-05	9.48418e-06	0.01041756	0.01319923	6.918723e-05	6.202552e-06
	3.310839e-05	9.48418e-06	-0.006698818	-0.01435657	0.0002815053	0.0004580251	0.009872278	0.01363814
	0.01041756	0.01319923	0.0002815053	0.0004580251	-0.005099784	-0.01547918	3.485503e-05	5.463687e-06
	6.918723e-05	6.202552e-06	0.009872278	0.01363814	3.485503e-05	5.463687e-06	-0.006762695	-0.01423143
4.7e+08	-0.008006328	-0.01833553	3.493137e-05	5.317917e-06	0.01191074	0.01294693	6.870727e-05	1.501808e-06
	3.493137e-05	5.317917e-06	-0.009620025	-0.0168224	0.0003164285	0.0004365014	0.01131339	0.01350686
	0.01191074	0.01294693	0.0003164285	0.0004365014	-0.007888482	-0.01828253	3.630917e-05	1.409522e-06
