!$
! Info: Touchstone file created by Circ.  Input file=Tx_8in_Rx_93ohms_TxVia_60mils_RxVia_70mils.circ
!$
# Hz S RI R 50
0	0.007439334	1.1852e-25	1.352374e-09	1.20941e-27	6.283108e-05	1.46426e-23	1.219576e-09	5.193776e-28
	1.352382e-09	1.209413e-27	0.007434611	1.384184e-25	9.307786e-10	1.744492e-27	6.303628e-05	1.80735e-23
	6.381254e-05	1.489927e-23	9.307674e-10	1.744465e-27	0.007453361	1.134885e-25	-3.286398e-09	4.517785e-25
	1.219574e-09	5.192552e-28	6.3306e-05	1.815101e-23	-3.285989e-09	4.517284e-25	0.00744908	1.378012e-25
1e+07	0.01104345	6.270142e-05	2.614271e-09	3.541022e-09	0.0002471782	0.001495642	-1.047186e-09	3.043099e-08
	2.614271e-09	3.541022e-09	0.01087871	-0.0004181899	1.694633e-09	2.544592e-09	0.0002548177	0.001624728
	0.0002471874	0.00149561	1.694633e-09	2.544592e-09	0.01029547	-0.0003392669	-5.607605e-09	1.781437e-08
	-1.047186e-09	3.043099e-08	0.0002548201	0.001624725	-5.607605e-09	1.781437e-08	0.01067129	-0.0004225293
2e+07	0.01344034	-0.002845211	4.529869e-09	6.207103e-09	0.0006894785	0.002992551	1.549806e-08	2.219703e-08
	4.529869e-09	6.207103e-09	0.01279222	-0.003546097	2.905179e-09	4.575964e-09	0.0006075719	0.003230935
	0.0006894516	0.00299255	2.905179e-09	4.575964e-09	0.01244566	-0.00321091	-3.578914e-09	6.744544e-09
	1.549806e-08	2.219703e-08	0.0006075689	0.003230936	-3.578914e-09	6.744544e-09	0.01263508	-0.003479641
3e+07	0.0144525	-0.00694911	7.198691e-09	7.65773e-09	0.001359608	0.004390799	2.524782e-08	2.531113e-08
	7.198691e-09	7.65773e-09	0.01341627	-0.00762109	4.238459e-09	5.93599e-09	0.00125851	0.004677655
	0.001359606	0.004390803	4.238459e-09	5.93599e-09	0.01327461	-0.007230712	7.353058e-09	7.902014e-09
	2.524782e-08	2.531113e-08	0.00125851	0.004677657	7.353058e-09	7.902014e-09	0.01329573	-0.007539503
4e+07	0.01438259	-0.01140216	1.027279e-08	8.5255e-09	0.002240996	0.005652292	3.605772e-08	2.737291e-08
	1.027279e-08	8.5255e-09	0.0130191	-0.01193771	5.962481e-09	6.998062e-09	0.00216238	0.005960096
	0.002240995	0.005652288	5.962481e-09	6.998062e-09	0.01306711	-0.01156052	1.115326e-08	9.161028e-09
	3.605772e-08	2.737291e-08	0.002162381	0.005960097	1.115326e-08	9.161028e-09	0.0129265	-0.01185595
5e+07	0.01335843	-0.01589827	1.37183e-08	8.557998e-09	0.003307316	0.006742233	4.791311e-08	2.687377e-08
	1.37183e-08	8.557998e-09	0.01172175	-0.01622132	7.854663e-09	7.612955e-09	0.003243603	0.007061246
	0.003307313	0.006742231	7.854663e-09	7.612955e-09	0.01194535	-0.01590609	1.468269e-08	9.081676e-09
	4.791311e-08	2.687377e-08	0.003243604	0.007061246	1.468269e-08	9.081676e-09	0.01164929	-0.01614711
6e+07	0.01147452	-0.02023348	1.734118e-08	7.623959e-09	0.004526136	0.007631798	6.023823e-08	2.31761e-08
	1.734118e-08	7.623959e-09	0.009619576	-0.02028469	9.843314e-09	7.706959e-09	0.004470106	0.007956726
	0.004526137	0.007631801	9.843314e-09	7.706959e-09	0.01000181	-0.02007176	1.829684e-08	8.014756e-09
	6.023823e-08	2.31761e-08	0.004470107	0.007956726	1.829684e-08	8.014756e-09	0.0095601	-0.02022239
7e+07	0.00882163	-0.02425022	2.089284e-08	5.68287e-09	0.005860691	0.008298692	7.224e-08	1.605281e-08
	2.089284e-08	5.68287e-09	0.006806642	-0.0239821	1.180074e-08	7.263725e-09	0.005805427	0.0086268
	0.0058607	0.008298698	1.180074e-08	7.263725e-09	0.007326656	-0.0239063	2.188379e-08	5.968277e-09
	7.224e-08	1.605281e-08	0.005805429	0.008626799	2.188379e-08	5.968277e-09	0.00675335	-0.02393413
8e+07	0.005495358	-0.02782118	2.412542e-08	2.749368e-09	0.007271323	0.008727758	8.307635e-08	5.529245e-09
	2.412542e-08	2.749368e-09	0.003383488	-0.02719501	1.360433e-08	6.286682e-09	0.007209969	0.009057652
	0.007271336	0.008727761	1.360433e-08	6.286682e-09	0.004015989	-0.027287	2.52498e-08	2.924859e-09
	8.307635e-08	5.529245e-09	0.00720997	0.009057651	2.52498e-08	2.924858e-09	0.003329699	-0.02716238
9e+07	0.001597582	-0.03084439	2.680041e-08	-1.104187e-09	0.008717364	0.008911893	9.192119e-08	-8.144341e-09
	2.680041e-08	-1.104187e-09	-0.0005394549	-0.02982641	1.513145e-08	4.806995e-09	0.008642184	0.009242089
	0.008717375	0.008911893	1.513145e-08	4.806995e-09	0.0001745567	-0.030114	2.817683e-08	-1.102823e-09
	9.192119e-08	-8.144341e-09	0.008642184	0.009242088	2.817683e-08	-1.102823e-09	-0.000600487	-0.02980908
1e+08	-0.002775065	-0.03325112	2.870949e-08	-5.763624e-09	0.01016458	0.008858182	9.802055e-08	-2.45295e-08
	2.870949e-08	-5.763624e-09	-0.004829804	-0.03178905	1.626715e-08	2.881368e-09	0.01005979	0.009179541
	0.01016458	0.008858181	1.626715e-08	2.881368e-09	-0.004080433	-0.03230526	3.044834e-08	-6.06827e-09
	9.802055e-08	-2.45295e-08	0.01005979	0.009179541	3.044834e-08	-6.06827e-09	-0.004906702	-0.03178778
1.1e+08	-0.007526501	-0.03488947	2.985731e-08	-1.106566e-08	0.01152761	0.008589632	1.013319e-07	-4.294114e-08
	2.985731e-08	-1.106566e-08	-0.009339364	-0.03312993	1.696222e-08	6.302509e-10	0.01141945	0.00887871
	0.01152761	0.008589632	1.696222e-08	6.302509e-10	-0.00862171	-0.03383533	3.166712e-08	-1.165293e-08
	1.013319e-07	-4.294114e-08	0.01141945	0.00887871	3.166712e-08	-1.165293e-08	-0.009443346	-0.03313094
1.2e+08	-0.01244109	-0.03576035	2.993725e-08	-1.683428e-08	0.01278607	0.008076404	1.010196e-07	-6.28804e-08
	2.993725e-08	-1.683428e-08	-0.01404593	-0.0337759	1.710063e-08	-1.88123e-09	0.01268384	0.008354447
	0.01278607	0.008076403	1.710063e-08	-1.88123e-09	-0.01336124	-0.03465493	3.176567e-08	-1.773517e-08
	1.010196e-07	-6.28804e-08	0.01268383	0.008354448	3.176567e-08	-1.773517e-08	-0.01417359	-0.03377068
1.3e+08	-0.01740938	-0.0358684	2.883972e-08	-2.287262e-08	0.01391075	0.007349655	9.670733e-08	-8.363741e-08
	2.883972e-08	-2.287262e-08	-0.01880919	-0.0336931	1.662004e-08	-4.543519e-09	0.01381678	0.007626685
	0.01391075	0.007349655	1.662004e-08	-4.543519e-09	-0.01817123	-0.03474118	3.062645e-08	-2.410471e-08
	9.670733e-08	-8.363741e-08	0.01381678	0.007626686	3.062645e-08	-2.410471e-08	-0.01895852	-0.03367612
1.4e+08	-0.02231189	-0.03522354	2.648468e-08	-2.895136e-08	0.01486982	0.00643854	8.815861e-08	-1.044162e-07
	2.648468e-08	-2.895136e-08	-0.0235035	-0.03288376	1.547831e-08	-7.23491e-09	0.01478624	0.006721467
	0.01486982	0.00643854	1.547831e-08	-7.23491e-09	-0.02292943	-0.03409606	2.816478e-08	-3.051983e-08
	8.815861e-08	-1.044162e-07	0.01478623	0.006721468	2.816478e-08	-3.051983e-08	-0.02367219	-0.03285037
1.5e+08	-0.02703191	-0.03385246	2.284274e-08	-3.481493e-08	0.0156358	0.005376017	7.529165e-08	-1.243708e-07
	2.284274e-08	-3.481493e-08	-0.0280097	-0.031372	1.365888e-08	-9.819035e-09	0.01556515	0.005669786
	0.0156358	0.005376017	1.365888e-08	-9.819035e-09	-0.02751822	-0.03274149	2.434897e-08	-3.671175e-08
	7.529165e-08	-1.243708e-07	0.01556515	0.005669787	2.434897e-08	-3.671175e-08	-0.02819496	-0.03131825
1.6e+08	-0.03145915	-0.03179891	1.793137e-08	-4.020361e-08	0.01618685	0.004198669	5.818845e-08	-1.426352e-07
	1.793137e-08	-4.020361e-08	-0.03221664	-0.02920115	1.117104e-08	-1.215875e-08	0.01613221	0.004506607
	0.01618685	0.004198669	1.117104e-08	-1.215875e-08	-0.03182686	-0.03071771	1.919684e-08	-4.240704e-08
	5.818845e-08	-1.426352e-07	0.01613221	0.004506607	1.919684e-08	-4.240704e-08	-0.03241519	-0.02912375
1.7e+08	-0.03549247	-0.02912264	1.181901e-08	-4.485885e-08	0.01650754	0.00294587	3.709824e-08	-1.583544e-07
	1.181901e-08	-4.485885e-08	-0.03602343	-0.02643157	8.050812e-09	-1.411793e-08	0.01647236	0.003269815
	0.01650754	0.00294587	8.050812e-09	-1.411793e-08	-0.0357539	-0.02808163	1.277979e-08	-4.733347e-08
	3.709824e-08	-1.583544e-07	0.01647236	0.003269815	1.277979e-08	-4.733347e-08	-0.03623156	-0.02632792
1.8e+08	-0.03904222	-0.02589774	4.625037e-09	-4.853323e-08	0.01658928	0.00165874	1.243523e-08	-1.707155e-07
	4.625037e-09	-4.853323e-08	-0.0393415	-0.02313851	4.360791e-09	-1.556658e-08	0.01657715	0.001999112
	0.01658928	0.00165874	4.360791e-09	-1.556658e-08	-0.03920931	-0.02490496	5.222826e-09	-5.123046e-08
	1.243523e-08	-1.707155e-07	0.01657715	0.001999112	5.222826e-09	-5.123046e-08	-0.03955517	-0.02300676
1.9e+08	-0.04203219	-0.02221063	-3.482224e-09	-5.100046e-08	0.01643048	0.0003790145	-1.522934e-08	-1.789786e-07
	-3.482224e-09	-5.100046e-08	-0.04209648	-0.01940973	1.889792e-10	-1.63859e-08	0.01644496	0.00073488
	0.01643048	0.0003790145	1.889792e-10	-1.63859e-08	-0.04211646	-0.02127208	-3.29755e-09	-5.385951e-08
	-1.522934e-08	-1.789786e-07	0.01644496	0.0007348801	-3.29755e-09	-5.385951e-08	-0.04231141	-0.01924879
2e+08	-0.0444012	-0.01815777	-1.228955e-08	-5.206486e-08	0.0160366	-0.0008521082	-4.518068e-08	-1.825059e-07
	-1.228955e-08	-5.206486e-08	-0.04422969	-0.01534299	-4.353361e-09	-1.64731e-08	0.0160809	-0.0004829514
	0.0160366	-0.0008521082	-4.353361e-09	-1.64731e-08	-0.0444136	-0.01727768	-1.255753e-08	-5.501414e-08
	-4.518068e-08	-1.825059e-07	0.0160809	-0.0004829513	-1.255753e-08	-5.501414e-08	-0.04444151	-0.01515258
2.1e+08	-0.04610471	-0.01384275	-2.154458e-08	-5.156936e-08	0.01541949	-0.002009223	-7.657859e-08	-1.807873e-07
	-2.154458e-08	-5.156936e-08	-0.04569929	-0.0110434	-9.134247e-09	-1.574446e-08	0.01549666	-0.001616008
	0.01541949	-0.002009223	-9.134247e-09	-1.574446e-08	-0.04605557	-0.01302384	-2.229031e-08	-5.452461e-08
	-7.657859e-08	-1.807873e-07	0.01549666	-0.001616008	-2.229031e-08	-5.452461e-08	-0.04590366	-0.01082399
2.2e+08	-0.04711473	-0.009374333	-3.096306e-08	-4.940428e-08	0.01459481	-0.003055389	-1.084815e-07	-1.734655e-07
	-3.096306e-08	-4.940428e-08	-0.04648102	-0.006620548	-1.400498e-08	-1.414169e-08	0.0147101	-0.002628516
	0.01459481	-0.003055389	-1.400498e-08	-1.414169e-08	-0.04701368	-0.008617996	-3.219473e-08	-5.227451e-08
	-1.084815e-07	-1.734655e-07	0.0147101	-0.002628516	-3.219473e-08	-5.227451e-08	-0.04667374	-0.006373417
2.3e+08	-0.04742027	-0.00486425	-4.023847e-08	-4.55138e-08	0.01358708	-0.003939537	-1.398749e-07	-1.603549e-07
	-4.023847e-08	-4.55138e-08	-0.04656846	-0.002185791	-1.880617e-08	-1.163575e-08	0.01374473	-0.003488259
	0.01358708	-0.003939537	-1.880617e-08	-1.163575e-08	-0.04727616	-0.004170812	-4.194966e-08	-4.82094e-08
	-1.398749e-07	-1.603549e-07	0.01374473	-0.003488259	-4.194966e-08	-4.82094e-08	-0.04674564	-0.001912933
2.4e+08	-0.04702839	-0.0004233668	-4.905173e-08	-3.989829e-08	0.01242677	-0.004633189	-1.697013e-07	-1.414534e-07
	-4.905173e-08	-3.989829e-08	-0.045973	0.002150634	-2.33714e-08	-8.22535e-09	0.01262904	-0.00416744
	0.01242677	-0.004633189	-2.33714e-08	-8.22535e-09	-0.04684929	0.0002077506	-5.121945e-08	-4.232937e-08
	-1.697013e-07	-1.414534e-07	0.01262904	-0.004167441	-5.121945e-08	-4.232937e-08	-0.04613114	0.002446549
2.5e+08	-0.04596324	0.003840549	-5.708192e-08	-3.261744e-08	0.01114862	-0.005113382	-1.968929e-07	-1.169515e-07
	-5.708192e-08	-3.261744e-08	-0.04472323	0.006282315	-2.753295e-08	-3.939849e-09	0.01139568	-0.004643421
	0.01114862	-0.005113382	-2.753295e-08	-3.939849e-09	-0.04575641	0.004410639	-5.96664e-08	-3.469692e-08
	-1.968929e-07	-1.169515e-07	0.01139568	-0.004643421	-5.96664e-08	-3.469692e-08	-0.04485935	0.006598024
2.6e+08	-0.04426537	0.007825387	-6.401728e-08	-2.379048e-08	0.009790632	-0.005363299	-2.204075e-07	-8.723498e-08
	-6.401728e-08	-2.379048e-08	-0.0428641	0.01010932	-3.112735e-08	1.160592e-09	0.01008057	-0.004899314
	0.009790632	-0.005363299	-3.112735e-08	1.160592e-09	-0.04403725	0.008336294	-6.696237e-08	-2.54372e-08
	-2.204075e-07	-8.723498e-08	0.01008057	-0.004899314	-6.696237e-08	-2.54372e-08	-0.04297582	0.01044102
2.7e+08	-0.04199049	0.0114371	-6.956634e-08	-1.359436e-08	0.008393089	-0.005372717	-2.392632e-07	-5.288129e-08
	-6.956634e-08	-1.359436e-08	-0.04045555	0.01354051	-3.400113e-08	6.985711e-09	0.008721934	-0.004924442
	0.008393089	-0.005372717	-3.400113e-08	6.985711e-09	-0.04174676	0.01189107	-7.280039e-08	-1.473616e-08
	-2.392632e-07	-5.288129e-08	0.008721934	-0.004924442	-7.280039e-08	-1.473616e-08	-0.04054118	0.01388406
2.8e+08	-0.03920807	0.01459193	-7.34684e-08	-2.259852e-09	0.006997399	-0.005138287	-2.52573e-07	-1.464924e-08
	-7.34684e-08	-2.259852e-09	-0.03757091	0.01649585	-3.601611e-08	1.341705e-08	0.007359235	-0.004714621
	0.006997399	-0.005138287	-3.601611e-08	1.341705e-08	-0.03895366	0.01499147	-7.690578e-08	-2.83647e-09
	-2.52573e-07	-1.464924e-08	0.007359235	-0.004714621	-7.690578e-08	-2.83647e-09	-0.0376295	0.01684683
2.9e+08	-0.03599949	0.01721834	-7.550317e-08	9.934244e-09	0.005644971	-0.004663629	-2.595781e-07	2.653702e-08
	-7.550317e-08	9.934244e-09	-0.03429492	0.01890824	-3.70545e-08	2.031068e-08	0.006032111	-0.00427229
	0.005644971	-0.004663629	-3.70545e-08	2.031068e-08	-0.03573866	0.0175661	-7.904641e-08	9.968473e-09
	-2.595781e-07	2.653702e-08	0.006032111	-0.00427229	-7.904641e-08	9.968473e-09	-0.03432634	0.01926211
3e+08	-0.03245601	0.01925867	-7.549937e-08	2.266853e-08	0.004376073	-0.003959257	-2.59678e-07	6.961021e-08
	-7.549937e-08	2.266853e-08	-0.03072156	0.02072515	-3.702339e-08	2.750084e-08	0.004779286	-0.003606458
	0.004376073	-0.003959257	-3.702339e-08	2.750084e-08	-0.03219238	0.01955737	-7.90417e-08	2.334242e-08
	-2.59678e-07	6.961021e-08	0.004779286	-0.003606458	-7.90417e-08	2.334242e-08	-0.03072645	0.02107739
3.1e+08	-0.02867641	0.02067048	-7.334184e-08	3.559195e-08	0.003228705	-0.003042311	-2.524567e-07	1.133874e-07
	-7.334184e-08	3.559195e-08	-0.02695159	0.02190982	-3.585868e-08	3.480431e-08	0.003637506	-0.002732486
	0.003228705	-0.003042311	-3.585868e-08	3.480431e-08	-0.02841308	0.0209228	-7.677019e-08	3.691562e-08
	-2.524567e-07	1.133874e-07	0.003637506	-0.002732486	-7.677019e-08	3.691562e-08	-0.02693138	0.02225603
3.2e+08	-0.02476463	0.02142748	-6.897689e-08	4.833178e-08	0.002237526	-0.001936115	-2.377043e-07	1.566026e-07
	-6.897689e-08	4.833178e-08	-0.02308996	0.02244206	-3.352813e-08	4.202548e-08	0.002640506	-0.001671697
	0.002237526	-0.001936115	-3.352813e-08	4.202548e-08	-0.02450422	0.02163601	-7.217532e-08	5.029545e-08
	-2.377043e-07	1.566026e-07	0.002640506	-0.001671697	-7.217532e-08	5.029546e-08	-0.02304684	0.02277813
3.3e+08	-0.02082705	0.0215201	-6.241596e-08	6.050457e-08	0.001432862	-0.0006695605	-2.154327e-07	1.979426e-07
	-6.241596e-08	6.050457e-08	-0.01924315	0.02231869	-3.003358e-08	4.896193e-08	0.001818057	-0.000450818
	0.001432862	-0.0006695605	-3.003358e-08	4.896193e-08	-0.02057181	0.02168731	-6.52692e-08	6.307791e-08
	-2.154327e-07	1.979426e-07	0.001818057	-0.0004508179	-6.52692e-08	6.307791e-08	-0.01918001	0.02264092
3.4e+08	-0.01696997	0.02095567	-5.373727e-08	7.17275e-08	0.0008398141	0.000723668	-1.85885e-07	2.360868e-07
	-5.373727e-08	7.17275e-08	-0.01551645	0.02155353	-2.541221e-08	5.54103e-08	0.001195098	0.0008987307
	0.0008398141	0.000723668	-2.541221e-08	5.54103e-08	-0.01672182	0.02108387	-5.613449e-08	7.485965e-08
	-1.85885e-07	2.360868e-07	0.001195098	0.0008987307	-5.613449e-08	7.485965e-08	-0.01543682	0.02185873
3.5e+08	-0.01329687	0.01975813	-4.308552e-08	8.162986e-08	0.0004775055	0.002206011	-1.49538e-07	2.697475e-07
	-4.308552e-08	8.162986e-08	-0.01201129	0.02017695	-1.973674e-08	6.117248e-08	0.000791002	0.002341682
	0.0004775055	0.002206011	-1.973674e-08	6.117248e-08	-0.01305753	0.01984948	-4.492402e-08	8.525022e-08
	-1.49538e-07	2.697475e-07	0.000791002	0.002341682	-4.492402e-08	8.525022e-08	-0.01191922	0.02046256
3.6e+08	-0.009905906	0.0179674	-3.066973e-08	8.98645e-08	0.000358479	0.003737077	-1.07097e-07	2.97712e-07
	-3.066973e-08	8.98645e-08	-0.008822671	0.01823502	-1.311467e-08	6.606172e-08	0.000618973	0.003839894
	0.000358479	0.003737077	-1.311467e-08	6.606172e-08	-0.009676906	0.01802389	-3.185849e-08	9.388406e-08
	-1.07097e-07	2.97712e-07	0.000618973	0.003839894	-3.185849e-08	9.388406e-08	-0.008722639	0.01849919
3.7e+08	-0.006887449	0.01563827	-1.675906e-08	9.611861e-08	0.0004882767	0.005274779	-5.948355e-08	3.188832e-07
	-1.675906e-08	9.611861e-08	-0.006036756	0.01578826	-5.686383e-09	6.99087e-08	0.0006856201	0.005353415
	0.0004882767	0.005274779	-5.686383e-09	6.99087e-08	-0.006670224	0.01566178	-1.722211e-08	1.004321e-07
	-5.948355e-08	3.188832e-07	0.0006856202	0.005353415	-1.722211e-08	1.004321e-07	-0.005933552	0.01602993
3.8e+08	-0.004321842	0.01283905	-1.677073e-09	1.00124e-07	0.0008652136	0.006776539	-7.815788e-09	3.32318e-07
	-1.677073e-09	1.00124e-07	-0.003728708	0.01291003	2.377724e-09	7.25672e-08	0.0009907093	0.006841619
	0.0008652136	0.006776539	2.377724e-09	7.25672e-08	-0.004117771	0.01283133	-1.356318e-09	1.046126e-07
	-7.815788e-09	3.32318e-07	0.0009907093	0.006841619	-1.356318e-09	1.046126e-07	-0.003627278	0.01312897
3.9e+08	-0.002277423	0.009649692	1.420582e-08	1.016661e-07	0.001480359	0.008200527	4.66183e-08	3.372622e-07
	1.420582e-08	1.016661e-07	-0.001960791	0.009684569	1.088107e-08	7.391942e-08	0.001527112	0.008264374
	0.001480359	0.008200527	1.088107e-08	7.391942e-08	-0.002087867	0.009612459	1.534816e-08	1.062004e-07
	4.66183e-08	3.372622e-07	0.001527112	0.008264374	1.534816e-08	1.062004e-07	-0.001866106	0.0098814
4e+08	-0.0008088377	0.006159831	3.048123e-08	1.005919e-07	0.00231773	0.009506892	1.023937e-07	3.331814e-07
	3.048123e-08	1.005919e-07	-0.00078083	0.006204799	1.960568e-08	7.388054e-08	0.002280958	0.009583217
	0.00231773	0.009506892	1.960568e-08	7.388054e-08	-0.0006351657	0.006094771	3.24608e-08	1.050358e-07
	1.023937e-07	3.331814e-07	0.002280958	0.009583217	3.24608e-08	1.050358e-07	-0.000697735	0.006381005
4.1e+08	4.428661e-05	0.002466424	4.671295e-08	9.681654e-08	0.003354702	0.01065895	1.579865e-07	3.197847e-07
	4.671295e-08	9.681654e-08	-0.0002210325	0.00256987	2.831773e-08	7.240257e-08	0.003231987	0.01076249
	0.003354702	0.01065895	2.831773e-08	7.240257e-08	0.0002006922	0.002375253	4.952215e-08	1.010308e-07
	1.579865e-07	3.197847e-07	0.003231987	0.01076249	4.952215e-08	1.010308e-07	-0.0001541026	0.002727759
4.2e+08	0.0002582912	-0.001328717	6.24482e-08	9.032803e-08	0.004562618	0.01162432	2.118166e-07	2.970428e-07
	6.24482e-08	9.032803e-08	-0.0002972306	-0.001117423	3.677379e-08	6.947724e-08	0.004354099	0.01177041
	0.004562618	0.01162432	3.677379e-08	6.947724e-08	0.0003960336	-0.001444205	6.605569e-08	9.417461e-08
	2.118166e-07	2.970428e-07	0.004354099	0.01177041	6.605569e-08	9.417461e-08	-0.0002506313	-0.0009747646
4.3e+08	-0.0001739755	-0.005121526	7.722969e-08	8.119033e-08	0.005907593	0.01237587	2.62293e-07	2.651979e-07
	7.722969e-08	8.119033e-08	-0.001008544	-0.004753323	4.472764e-08	6.513786e-08	0.005616086	0.01258003
	0.005907593	0.01237587	4.472764e-08	6.513786e-08	-5.629039e-05	-0.005259414	8.158066e-08	8.453632e-08
	2.62293e-07	2.651979e-07	0.005616086	0.01258003	8.158066e-08	8.453632e-08	-0.0009858988	-0.004622102
4.4e+08	-0.001243044	-0.008808329	9.060819e-08	6.954453e-08	0.007351484	0.01289261	3.078612e-07	2.247656e-07
	9.060819e-08	6.954453e-08	-0.00233748	-0.008235793	5.193737e-08	5.946e-08	0.006982528	0.01317005
	0.007351484	0.01289261	5.193737e-08	5.946e-08	-0.001146779	-0.00896654	9.562535e-08	7.22662e-08
	3.078612e-07	2.247656e-07	0.006982528	0.01317005	9.562535e-08	7.22662e-08	-0.002341755	-0.008111607
4.5e+08	-0.002923129	-0.01228847	1.021555e-07	5.560804e-08	0.008852996	0.01316035	3.470506e-07	1.765287e-07
	1.021555e-07	5.560804e-08	-0.004250471	-0.01146715	5.817267e-08	5.256094e-08	0.008414815	0.01352548
	0.008852996	0.01316035	5.817267e-08	5.256094e-08	-0.00284958	-0.01246474	1.077407e-07	5.759459e-08
	3.470506e-07	1.765287e-07	0.008414815	0.01352548	1.077407e-07	5.759459e-08	-0.004283873	-0.0113451
4.6e+08	-0.005172838	-0.0154669	1.114662e-07	3.966396e-08	0.0103689	0.01317212	3.784766e-07	1.215063e-07
	1.114662e-07	3.966396e-08	-0.006698818	-0.01435657	6.321998e-08	4.459847e-08	0.009872278	0.01363814
	0.0103689	0.01317212	6.321998e-08	4.459847e-08	-0.005123197	-0.0156587	1.175021e-07	4.082061e-08
	3.784766e-07	1.215063e-07	0.009872278	0.01363814	1.175021e-07	4.082061e-08	-0.006762695	-0.01423143
4.7e+08	-0.007936336	-0.01825642	1.181987e-07	2.207608e-08	0.0118553	0.01292847	4.01004e-07	6.099063e-08
	1.181987e-07	2.207608e-08	-0.009620025	-0.0168224	6.689574e-08	3.576699e-08	0.01131339	0.01350686
	0.0118553	0.01292847	6.689574e-08	3.576699e-08	-0.007911605	-0.01846106	1.245526e-07	2.232808e-08
	4.01004e-07	6.099063e-08	0.01131339	0.01350686	1.245526e-07	2.232808e-08	-0.009714854	-0.0166887
