!$
! Info: Touchstone file created by Circ.  Input file=Tx_8in_Rx_85ohms_TxVia_60mils_RxVia_70mils.circ
!$
# Hz S RI R 50
0	0.006548621	1.145678e-25	-3.287972e-11	8.98716e-27	6.355945e-05	1.256232e-23	-3.205399e-09	3.980579e-25
	-3.288049e-11	8.987269e-27	0.006544157	1.389667e-25	3.978527e-11	1.923392e-27	6.326528e-05	1.588997e-23
	6.464339e-05	1.264628e-23	3.978106e-11	1.923903e-27	0.006564117	1.145618e-25	-1.207921e-11	7.996252e-27
	-3.205272e-09	3.980423e-25	6.353504e-05	1.595811e-23	-1.217368e-11	8.007773e-27	0.006558652	1.38347e-25
1e+07	0.008595038	-0.007395757	4.475865e-11	1.581198e-10	0.0002000653	0.001619621	-4.317248e-09	7.888454e-09
	4.475865e-11	1.581198e-10	0.008578489	-0.007263059	5.145136e-11	1.752078e-10	0.0002585012	0.001614796
	0.0002000965	0.001619626	5.145136e-11	1.752078e-10	0.009679425	-0.007145458	-4.539089e-09	1.00522e-08
	-4.317248e-09	7.888454e-09	0.0002585036	0.001614793	-4.539089e-09	1.00522e-08	0.008567379	-0.007252345
2e+07	0.008790616	-0.01693153	2.487922e-11	3.04397e-10	0.0006204651	0.003184555	-7.280189e-11	-3.75106e-11
	2.487922e-11	3.04397e-10	0.008880379	-0.01671189	3.275361e-11	3.337782e-10	0.0006956227	0.003126144
	0.0006204789	0.003184536	3.27536e-11	3.337782e-10	0.009899086	-0.01691782	3.521841e-11	6.430414e-10
	-7.280188e-11	-3.75106e-11	0.0006956197	0.003126145	3.521842e-11	6.430414e-10	0.008875856	-0.01668349
3e+07	0.006610277	-0.02712325	-3.411319e-11	4.673386e-10	0.001330468	0.004592762	-4.526024e-11	5.231343e-10
	-3.411319e-11	4.673386e-10	0.006760756	-0.0268825	-2.405448e-11	5.058898e-10	0.001364036	0.00452232
	0.001330469	0.004592759	-2.405448e-11	5.058898e-10	0.007728508	-0.02723126	-2.899246e-11	5.619055e-10
	-4.526025e-11	5.231343e-10	0.001364036	0.004522322	-2.899246e-11	5.619055e-10	0.006760175	-0.02684291
4e+07	0.002418811	-0.03699969	-1.104843e-10	6.430704e-10	0.002250836	0.005838187	-1.132656e-10	7.532094e-10
	-1.104843e-10	6.430704e-10	0.002597308	-0.03675396	-9.903903e-11	6.91888e-10	0.002242021	0.005769678
	0.00225084	0.005838191	-9.903904e-11	6.91888e-10	0.003531981	-0.03721511	-1.235423e-10	7.454734e-10
	-1.132656e-10	7.532094e-10	0.002242022	0.005769679	-1.235423e-10	7.454734e-10	0.002598882	-0.03670499
5e+07	-0.00354596	-0.04612387	-2.04474e-10	8.409233e-10	0.003350735	0.006891133	-2.173206e-10	9.746036e-10
	-2.04474e-10	8.409233e-10	-0.003365968	-0.04587518	-1.919961e-10	8.987966e-10	0.003299256	0.006835737
	0.003350738	0.006891135	-1.919961e-10	8.987966e-10	-0.002451891	-0.04644138	-2.303564e-10	9.791098e-10
	-2.173206e-10	9.746036e-10	0.003299257	0.006835737	-2.303564e-10	9.791098e-10	-0.003364089	-0.04581721
6e+07	-0.01105069	-0.05417534	-3.111369e-10	1.06687e-09	0.004592834	0.007725792	-3.378071e-10	1.226673e-09
	-3.111369e-10	1.06687e-09	-0.01089029	-0.05391813	-2.985287e-10	1.132187e-09	0.004499595	0.007693825
	0.00459283	0.007725791	-2.985287e-10	1.132187e-09	-0.009989298	-0.05459113	-3.495781e-10	1.245389e-09
	-3.378071e-10	1.226673e-09	0.004499596	0.007693825	-3.495781e-10	1.245389e-09	-0.01088955	-0.05385078
7e+07	-0.01984488	-0.06090276	-4.237084e-10	1.325392e-09	0.005935514	0.008323037	-4.612533e-10	1.518318e-09
	-4.237084e-10	1.325392e-09	-0.0197205	-0.06062712	-4.126339e-10	1.396338e-09	0.005802916	0.008324349
	0.005935503	0.008323038	-4.126339e-10	1.396338e-09	-0.0188294	-0.06141285	-4.775186e-10	1.546108e-09
	-4.612533e-10	1.518318e-09	0.005802917	0.008324348	-4.775186e-10	1.546108e-09	-0.01972205	-0.06054964
8e+07	-0.02965807	-0.06611165	-5.34242e-10	1.619454e-09	0.007334575	0.008671444	-5.761127e-10	1.851031e-09
	-5.34242e-10	1.619454e-09	-0.02958221	-0.06580523	-5.273635e-10	1.694223e-09	0.007166699	0.00871544
	0.00733456	0.008671448	-5.273635e-10	1.694223e-09	-0.02870165	-0.06671164	-6.077321e-10	1.885614e-09
	-5.761127e-10	1.851031e-09	0.0071667	0.00871544	-6.077321e-10	1.885614e-09	-0.02958696	-0.06571656
9e+07	-0.04020277	-0.06966069	-6.339939e-10	1.950628e-09	0.008744904	0.008767737	-6.719399e-10	2.223171e-09
	-6.339939e-10	1.950628e-09	-0.040185	-0.06931069	-6.352987e-10	2.027659e-09	0.008547725	0.008863381
	0.008744893	0.008767742	-6.352987e-10	2.027659e-09	-0.03931915	-0.07034629	-7.318443e-10	2.26814e-09
	-6.719399e-10	2.223171e-09	0.008547725	0.008863381	-7.318443e-10	2.26814e-09	-0.04019364	-0.06920946
1e+08	-0.05117583	-0.07145633	-7.132416e-10	2.321183e-09	0.01012243	0.008617034	-7.389022e-10	2.632875e-09
	-7.132416e-10	2.321183e-09	-0.05123016	-0.07105752	-7.29931e-10	2.399776e-09	0.009905125	0.008774024
	0.01012243	0.008617034	-7.29931e-10	2.399776e-09	-0.05038527	-0.07222899	-8.39828e-10	2.700489e-09
	-7.389022e-10	2.632875e-09	0.009905125	0.008774024	-8.39828e-10	2.700489e-09	-0.05124317	-0.07094224
1.1e+08	-0.06226458	-0.07149898	-7.510318e-10	2.719369e-09	0.01142564	0.008229748	-7.783498e-10	3.056413e-09
	-7.510318e-10	2.719369e-09	-0.06241678	-0.07099543	-7.785494e-10	2.798369e-09	0.01120264	0.008446676
	0.01142564	0.008229748	-7.785494e-10	2.798369e-09	-0.06160034	-0.07231724	-8.854917e-10	3.160338e-09
	-7.783498e-10	3.056413e-09	0.01120264	0.008446677	-8.854917e-10	3.160338e-09	-0.06243415	-0.07086348
1.2e+08	-0.07321142	-0.06978921	-7.593589e-10	3.120355e-09	0.01261332	0.007626312	-7.84729e-10	3.497793e-09
	-7.593589e-10	3.120355e-09	-0.07342917	-0.06914623	-7.928918e-10	3.203884e-09	0.01238946	0.007903596
	0.01261332	0.007626312	-7.928918e-10	3.203884e-09	-0.07266119	-0.07062695	-8.969462e-10	3.623644e-09
	-7.84729e-10	3.497793e-09	0.01238946	0.007903597	-8.969462e-10	3.623644e-09	-0.07344939	-0.06899551
1.3e+08	-0.08372601	-0.0663795	-7.326563e-10	3.533122e-09	0.01365194	0.006832746	-7.518381e-10	3.955164e-09
	-7.326563e-10	3.533122e-09	-0.08398156	-0.06557822	-7.741699e-10	3.623455e-09	0.01343445	0.007171702
	0.01365194	0.006832746	-7.741699e-10	3.623455e-09	-0.08328301	-0.06722078	-8.690013e-10	4.101023e-09
	-7.518381e-10	3.955164e-09	0.01343445	0.007171703	-8.690013e-10	4.101023e-09	-0.08400284	-0.0654071
1.4e+08	-0.09354026	-0.06137256	-6.659378e-10	3.953326e-09	0.01451303	0.005879565	-6.757354e-10	4.420352e-09
	-6.659378e-10	3.953326e-09	-0.09380502	-0.06040172	-7.185232e-10	4.052849e-09	0.01431009	0.006280465
	0.01451303	0.005879564	-7.185232e-10	4.052849e-09	-0.09319816	-0.06220449	-7.955259e-10	4.587499e-09
	-6.757354e-10	4.420352e-09	0.01431009	0.006280466	-7.955259e-10	4.587499e-09	-0.0938252	-0.060209
1.5e+08	-0.1024105	-0.05491192	-5.574688e-10	4.374501e-09	0.01517407	0.004800988	-5.537696e-10	4.886047e-09
	-5.574688e-10	4.374501e-09	-0.1026551	-0.05376694	-6.232069e-10	4.484847e-09	0.01499431	0.005262659
	0.01517407	0.004800987	-6.232069e-10	4.484847e-09	-0.1021628	-0.05572355	-6.744975e-10	5.075826e-09
	-5.537696e-10	4.886047e-09	0.01499431	0.00526266	-6.744975e-10	5.075826e-09	-0.1026717	-0.05355185
1.6e+08	-0.1101221	-0.04717645	-4.061756e-10	4.788583e-09	0.01561881	0.003633848	-3.848549e-10	5.343389e-09
	-4.061756e-10	4.788583e-09	-0.1103173	-0.04585909	-4.869412e-10	4.911809e-09	0.01547096	0.004153488
	0.01561881	0.003633848	-4.869412e-10	4.911809e-09	-0.109962	-0.04795839	-5.045431e-10	5.556752e-09
	-3.848549e-10	5.343389e-09	0.01547096	0.004153489	-5.045431e-10	5.556752e-09	-0.1103277	-0.04562141
1.7e+08	-0.1164943	-0.03837475	-2.125348e-10	5.187291e-09	0.01583748	0.002416501	-1.696308e-10	5.783275e-09
	-2.125348e-10	5.187291e-09	-0.1166116	-0.03689287	-3.09917e-10	5.325865e-09	0.01572998	0.002989617
	0.01583748	0.002416501	-3.09917e-10	5.325865e-09	-0.1164147	-0.0391189	-2.860778e-10	6.020762e-09
	-1.696308e-10	5.783275e-09	0.01572998	0.002989617	-2.860778e-10	6.020762e-09	-0.1166129	-0.03663294
1.8e+08	-0.1213828	-0.02873917	2.138022e-11	5.562391e-09	0.0158267	0.001187789	8.948709e-11	6.19667e-09
	2.138022e-11	5.562391e-09	-0.1213958	-0.02710641	-9.382999e-11	5.71916e-09	0.01576733	0.001808226
	0.0158267	0.001187789	-9.382999e-11	5.71916e-09	-0.1213762	-0.02943861	-2.135968e-11	6.458386e-09
	8.948709e-11	6.19667e-09	0.01576733	0.001808226	-2.135968e-11	6.458386e-09	-0.1213852	-0.02682514
1.9e+08	-0.1246828	-0.01851961	2.919053e-10	5.905996e-09	0.01558934	-1.39242e-05	3.88317e-10	6.574949e-09
	2.919053e-10	5.905996e-09	-0.1245679	-0.01675496	1.581212e-10	6.084116e-09	0.01558487	0.0006461253
	0.01558934	-1.392422e-05	1.581212e-10	6.084116e-09	-0.1247418	-0.01916851	2.855132e-10	6.860527e-09
	3.88317e-10	6.574949e-09	0.01558487	0.0006461255	2.855132e-10	6.860527e-09	-0.1245429	-0.01645387
2e+08	-0.1263307	-0.007977269	5.938461e-10	6.210851e-09	0.01513421	-0.001151624	7.209875e-10	6.910227e-09
	5.938461e-10	6.210851e-09	-0.1260681	-0.00610448	4.412833e-10	6.413701e-09	0.01519012	-0.0004610508
	0.01513421	-0.001151624	4.412833e-10	6.413701e-09	-0.1264474	-0.008570851	6.286701e-10	7.21881e-09
	7.209875e-10	6.910227e-09	0.01519012	-0.0004610508	6.286701e-10	7.21881e-09	-0.1260262	-0.005785642
2.1e+08	-0.1263042	0.002621672	9.205949e-10	6.470627e-09	0.01447575	-0.002190446	1.080078e-09	7.195682e-09
	9.205949e-10	6.470627e-09	-0.125879	0.004574861	7.49643e-10	6.701697e-09	0.01459591	-0.001479579
	0.01447575	-0.002190446	7.49643e-10	6.701697e-09	-0.1264709	0.002087223	1.000601e-09	7.525909e-09
	1.080078e-09	7.195682e-09	0.01459591	-0.001479579	1.000601e-09	7.525909e-09	-0.125818	0.004908847
2.2e+08	-0.1246229	0.01301233	1.264301e-09	6.680181e-09	0.01363353	-0.003098393	1.456823e-09	7.425848e-09
	1.264301e-09	6.680181e-09	-0.1240253	0.01501504	1.07597e-09	6.942949e-09	0.01381999	-0.002378315
	0.01363353	-0.003098393	1.07597e-09	6.942949e-09	-0.1248317	0.01253987	1.392351e-09	7.775863e-09
	1.456823e-09	7.425848e-09	0.01381999	-0.002378315	1.392351e-09	7.775863e-09	-0.1239437	0.01536113
2.3e+08	-0.121347	0.02293719	1.61609e-09	6.835791e-09	0.01263183	-0.003846999	1.841366e-09	7.596868e-09
	1.61609e-09	6.835791e-09	-0.1205732	0.02495644	1.412006e-09	7.133593e-09	0.01288463	-0.003129309
	0.01263183	-0.003846999	1.412006e-09	7.133593e-09	-0.12159	0.02252869	1.793778e-09	7.964339e-09
	1.841366e-09	7.596868e-09	0.01288463	-0.003129309	1.793778e-09	7.964339e-09	-0.12047	0.02531121
2.4e+08	-0.1165755	0.03215201	1.966323e-09	6.935346e-09	0.01149906	-0.004411924	2.223066e-09	7.706702e-09
	1.966323e-09	6.935346e-09	-0.1156281	0.03415376	1.748693e-09	7.271254e-09	0.01181615	-0.003708373
	0.01149906	-0.004411924	1.748693e-09	7.271254e-09	-0.1168449	0.03180853	2.193852e-09	8.088862e-09
	2.223066e-09	7.706702e-09	0.01181615	-0.003708373	2.193852e-09	8.088862e-09	-0.1155028	0.03451354
2.5e+08	-0.1104438	0.0404314	2.304895e-09	6.97849e-09	0.0102672	-0.004773515	2.590835e-09	7.755264e-09
	2.304895e-09	6.97849e-09	-0.1093319	0.04238175	2.076444e-09	7.355198e-09	0.01064435	-0.004095621
	0.0102672	-0.004773515	2.076444e-09	7.355198e-09	-0.1107321	0.04015316	2.581004e-09	8.148977e-09
	2.590835e-09	7.755264e-09	0.01064435	-0.004095621	2.581004e-09	8.148977e-09	-0.1091849	0.04274272
2.6e+08	-0.1031207	0.047574	2.62156e-09	6.966704e-09	0.008971114	-0.004917309	2.933509e-09	7.7445e-09
	2.62156e-09	6.966704e-09	-0.1018599	0.04944041	2.38544e-09	7.386446e-09	0.009401961	-0.004275958
	0.008971114	-0.004917309	2.38544e-09	7.386446e-09	-0.1034204	0.04736041	2.943494e-09	8.146352e-09
	2.933509e-09	7.7445e-09	0.009401961	-0.004275958	2.943494e-09	8.146352e-09	-0.1016921	0.04979874
2.7e+08	-0.09480404	0.0534073	2.906256e-09	6.903344e-09	0.007647814	-0.004834479	3.240211e-09	7.678402e-09
	2.906256e-09	6.903344e-09	-0.09341644	0.05515976	2.665946e-09	7.367819e-09	0.008123977	-0.004239537
	0.007647814	-0.004834479	2.665946e-09	7.367819e-09	-0.09510824	0.05325695	3.269807e-09	8.084806e-09
	3.240211e-09	7.678402e-09	0.008123977	-0.004239537	3.269807e-09	8.084806e-09	-0.09322956	0.05551174
2.8e+08	-0.08571658	0.0577918	3.149453e-09	6.793602e-09	0.006335661	-0.004522214	3.500729e-09	7.562953e-09
	3.149453e-09	6.793602e-09	-0.08422999	0.05940401	2.90865e-09	7.303944e-09	0.006846889	-0.003982152
	0.006335661	-0.004522214	2.90865e-09	7.303944e-09	-0.0860185	0.05770253	3.549043e-09	7.970275e-09
	3.500729e-09	7.562953e-09	0.006846889	-0.003982152	3.549043e-09	7.970275e-09	-0.08402645	0.0597462
2.9e+08	-0.07610041	0.06062458	3.34248e-09	6.64442e-09	0.005073436	-0.003984001	3.705876e-09	7.405999e-09
	3.34248e-09	6.64442e-09	-0.07454795	0.06207509	3.104988e-09	7.201181e-09	0.005607848	-0.00350555
	0.005073436	-0.003984001	3.104988e-09	7.201181e-09	-0.0763938	0.0605935	3.771303e-09	7.810695e-09
	3.705876e-09	7.405999e-09	0.005607848	-0.00350555	3.771303e-09	7.810695e-09	-0.07433087	0.06240443
3e+08	-0.06621134	0.0618421	3.477844e-09	6.464332e-09	0.003899348	-0.003229789	3.847818e-09	7.21706e-09
	3.477844e-09	6.464332e-09	-0.06463059	0.06311529	3.247475e-09	7.067498e-09	0.00444373	-0.002817633
	0.003899348	-0.003229789	3.247475e-09	7.067498e-09	-0.06649048	0.06186566	3.92805e-09	7.61582e-09
	3.847818e-09	7.21706e-09	0.00444373	-0.002817633	3.92805e-09	7.61582e-09	-0.06440366	0.06342924
3.1e+08	-0.05631266	0.0614222	3.549516e-09	6.263274e-09	0.002849953	-0.00227599	3.920375e-09	7.007081e-09
	3.549516e-09	6.263274e-09	-0.05474457	0.06250917	3.329927e-09	6.912335e-09	0.003390114	-0.001932519
	0.002849953	-0.00227599	3.329927e-09	6.912335e-09	-0.05657242	0.06149624	4.012435e-09	7.396982e-09
	3.920375e-09	7.007081e-09	0.003390114	-0.001932519	4.012435e-09	7.396982e-09	-0.054512	0.06280581
3.2e+08	-0.04666853	0.05938505	3.553185e-09	6.052274e-09	0.001959035	-0.001145309	3.919261e-09	6.788142e-09
	3.553185e-09	6.052274e-09	-0.04515624	0.06028427	3.347822e-09	6.746293e-09	0.002480204	-0.0008704212
	0.001959035	-0.001145309	3.347822e-09	6.746293e-09	-0.04690449	0.05950487	4.01958e-09	7.166783e-09
	3.919261e-09	6.788142e-09	0.002480204	-0.0008704212	4.01958e-09	7.166783e-09	-0.0449227	0.06056241
3.3e+08	-0.0375372	0.05579311	3.48643e-09	5.843164e-09	0.001256458	0.000133651	3.842281e-09	6.573125e-09
	3.48643e-09	5.843164e-09	-0.03612476	0.05651088	3.298695e-09	6.580699e-09	0.001743719	0.00034267
	0.001256458	0.000133651	3.298695e-09	6.580699e-09	-0.03774566	0.05595357	3.9468e-09	6.938756e-09
	3.842281e-09	6.573125e-09	0.001743719	0.00034267	3.9468e-09	6.938756e-09	-0.03589514	0.05677017
3.4e+08	-0.02916417	0.05075001	3.34889e-09	5.64831e-09	0.0007670545	0.001527011	3.689457e-09	6.375343e-09
	3.34889e-09	5.64831e-09	-0.02789507	0.0513007	3.181877e-09	6.427567e-09	0.001205809	0.001675534
	0.0007670546	0.001527011	3.181877e-09	6.427567e-09	-0.02934223	0.05094564	3.793762e-09	6.726937e-09
	3.689457e-09	6.375343e-09	0.001205809	0.001675534	3.793762e-09	6.726937e-09	-0.02767439	0.05154169
3.5e+08	-0.0217755	0.04439819	3.142357e-09	5.480224e-09	0.0005096017	0.002996478	3.46312e-09	6.208158e-09
	3.142357e-09	5.480224e-09	-0.02069125	0.04480422	2.998928e-09	6.299023e-09	0.0008860373	0.003092505
	0.0005096017	0.002996478	2.998928e-09	6.299023e-09	-0.02192114	0.0446233	3.562572e-09	6.545483e-09
	3.46312e-09	6.208158e-09	0.0008860373	0.003092505	3.562572e-09	6.545483e-09	-0.02048452	0.04502835
3.6e+08	-0.01557154	0.03691549	2.870802e-09	5.351179e-09	0.0004959378	0.004500435	3.167896e-09	6.084589e-09
	2.870802e-09	5.351179e-09	-0.01471014	0.03720704	2.753598e-09	6.206989e-09	0.0007974968	0.004554475
	0.0004959378	0.004500435	2.753598e-09	6.206989e-09	-0.01568362	0.03716427	3.25781e-09	6.408291e-09
	3.167896e-09	6.084589e-09	0.0007974968	0.004554475	3.25781e-09	6.408291e-09	-0.01452219	0.03741665
3.7e+08	-0.01072119	0.02851063	2.54034e-09	5.272823e-09	0.0007302909	0.005995245	2.810649e-09	6.016925e-09
	2.54034e-09	5.272823e-09	-0.0101157	0.02872506	2.451715e-09	6.162825e-09	0.000946123	0.006020116
	0.0007302909	0.005995245	2.451715e-09	6.162825e-09	-0.01079946	0.02877729	2.886472e-09	6.328513e-09
	2.810649e-09	6.016925e-09	0.000946123	0.006020116	2.886472e-09	6.328513e-09	-0.009951016	0.02892337
3.8e+08	-0.007356938	0.01941759	2.15912e-09	5.255813e-09	0.001208867	0.007436705	2.400358e-09	6.016346e-09
	2.15912e-09	5.255813e-09	-0.007034186	0.01959863	2.101124e-09	6.176906e-09	0.001330249	0.007447254
	0.001208867	0.007436705	2.101124e-09	6.176906e-09	-0.007402052	0.01969655	2.457849e-09	6.318156e-09
	2.400358e-09	6.016346e-09	0.001330249	0.007447254	2.457849e-09	6.318156e-09	-0.006896731	0.01978969
3.9e+08	-0.00557101	0.009889304	1.737161e-09	5.309458e-09	0.001919747	0.008781606	1.947939e-09	6.092569e-09
	1.737161e-09	5.309458e-09	-0.005550337	0.01008592	1.711513e-09	6.258274e-09	0.001940457	0.008794352
	0.001919747	0.008781606	1.711513e-09	6.258274e-09	-0.005584442	0.01017529	1.983321e-09	6.387679e-09
	1.947939e-09	6.092569e-09	0.001940457	0.008794352	1.983321e-09	6.387679e-09	-0.005443427	0.01027456
4e+08	-0.005412549	0.0001905827	1.286118e-09	5.441402e-09	0.002843113	0.009989319	1.465996e-09	6.253523e-09
	1.286118e-09	5.441402e-09	-0.005704852	0.0004556966	1.294169e-09	6.414306e-09	0.002759743	0.01002202
	0.002843113	0.009989319	1.294169e-09	6.414306e-09	-0.005396553	0.0004787743	1.476098e-09	6.545643e-09
	1.465996e-09	6.253523e-09	0.002759743	0.01002202	1.476098e-09	6.545643e-09	-0.005630998	0.0006473481
4.1e+08	-0.006886162	-0.009409374	8.19004e-10	5.657334e-09	0.00395182	0.01102333	9.685356e-10	6.505063e-09
	8.19004e-10	5.657334e-09	-0.007493134	-0.009020404	8.616854e-10	6.650446e-09	0.003764016	0.01109451
	0.00395182	0.01102333	8.616854e-10	6.650446e-09	-0.006843674	-0.00912322	9.508916e-10	6.798392e-09
	9.685356e-10	6.505063e-09	0.003764016	0.01109451	9.508916e-10	6.798392e-09	-0.007453925	-0.008819781
4.2e+08	-0.009951817	-0.01864461	3.498512e-10	5.96076e-09	0.005212289	0.01185262	4.706284e-10	6.850729e-09
	3.498512e-10	5.96076e-09	-0.01086546	-0.01807562	4.27615e-10	6.969981e-09	0.004922906	0.01198103
	0.005212289	0.01185262	4.27615e-10	6.969981e-09	-0.009886339	-0.01836406	4.23543e-10	7.149804e-09
	4.706284e-10	6.850729e-09	0.004922906	0.01198103	4.23543e-10	7.149804e-09	-0.01086147	-0.01785972
4.3e+08	-0.01452609	-0.02725995	-1.066552e-10	6.352822e-09	0.006585687	0.01245287	-1.197369e-11	7.291557e-09
	-1.066552e-10	6.352822e-09	-0.01572855	-0.0264557	6.09608e-12	7.373879e-09	0.00620085	0.01265691
	0.006585687	0.01245287	6.09608e-12	7.373879e-09	-0.01444156	-0.02698781	-8.939451e-11	7.601095e-09
	-1.197369e-11	7.291557e-09	0.00620085	0.01265691	-8.939451e-11	7.601095e-09	-0.01575927	-0.02621807
4.4e+08	-0.02048476	-0.03501819	-5.355784e-10	6.832187e-09	0.008029336	0.01280734	-4.632466e-10	7.825952e-09
	-5.355784e-10	6.832187e-09	-0.02194845	-0.03392614	-3.885484e-10	7.860706e-09	0.007558398	0.0131045
	0.008029336	0.01280734	-3.885484e-10	7.860706e-09	-0.02038541	-0.03475646	-5.711031e-10	8.150699e-09
	-4.632466e-10	7.825952e-09	0.007558398	0.0131045	-5.711031e-10	8.150699e-09	-0.02201226	-0.03366033
4.5e+08	-0.02766663	-0.04170668	-9.22149e-10	7.395001e-09	0.009498277	0.01290746	-8.673324e-10	8.449627e-09
	-9.22149e-10	7.395001e-09	-0.0293547	-0.0402787	-7.42222e-10	8.426596e-09	0.008953676	0.01331375
	0.009498277	0.01290746	-7.42222e-10	8.426596e-09	-0.02755683	-0.04145652	-1.004968e-09	8.794217e-09
	-8.673324e-10	8.449627e-09	0.008953676	0.01331375	-1.004968e-09	8.794217e-09	-0.02944884	-0.03997847
4.6e+08	-0.0358784	-0.04714302	-1.252191e-09	8.034912e-09	0.0109469	0.01275307	-1.208991e-09	9.155608e-09
	-1.252191e-09	8.034912e-09	-0.03774551	-0.04533701	-1.041465e-09	9.065305e-09	0.01034391	0.01328244
	0.0109469	0.01275307	-1.041465e-09	9.065305e-09	-0.03576251	-0.04690474	-1.375052e-09	9.524449e-09
	-1.208991e-09	9.155608e-09	0.01034391	0.01328244	-1.375052e-09	9.524449e-09	-0.03786614	-0.04499655
4.7e+08	-0.04490044	-0.05117979	-1.512544e-09	8.743168e-09	0.01233059	0.01235227	-1.474056e-09	9.934323e-09
	-1.512544e-09	8.743168e-09	-0.04689381	-0.04896123	-1.273851e-09	9.768324e-09	0.01168696	0.01301615
	0.01233059	0.01235227	-1.273851e-09	9.768324e-09	-0.04478264	-0.05095292	-1.666568e-09	1.03315e-08
	-1.474056e-09	9.934323e-09	0.01168696	0.01301615	-1.666568e-09	1.03315e-08	-0.04703606	-0.04857533
4.8e+08	-0.05449318	-0.05370816	-1.691468e-09	9.508779e-09	0.01360721	0.01172102	-1.649882e-09	1.077376e-08
	-1.691468e-09	9.508779e-09	-0.05655391	-0.05105135	-1.428362e-09	1.052506e-08	0.01294275	0.01252783
