!$
! Info: Touchstone file created by Circ.  Input file=Tx_8in_Rx_85ohms_TxVia_60mils_RxVia_70mils.circ
!$
# Hz S RI R 50
0	0.006548806	1.311431e-25	0.9933107	-1.225685e-25	6.652862e-05	1.424348e-23	-6.185718e-05	2.278823e-21
	0.9933107	-1.240179e-25	0.006544157	1.389667e-25	-6.233877e-05	2.337843e-21	6.326528e-05	1.588997e-23
	6.775104e-05	1.383882e-23	-6.164797e-05	2.253241e-21	0.006559582	1.300783e-25	0.993289	-1.193787e-25
	-6.212673e-05	2.311828e-21	6.353504e-05	1.595811e-23	0.993289	-1.25407e-25	0.006558652	1.38347e-25
1e+07	0.008587618	-0.007263816	0.9865513	-0.08775191	0.0002615028	0.00161398	-0.0001020982	-1.928627e-05
	0.9865513	-0.08775191	0.008578489	-0.007263059	-0.0001021998	-1.92315e-05	0.0002585012	0.001614796
	0.0002615726	0.001613947	-0.0001021662	-1.92517e-05	0.008577134	-0.007253321	0.986554	-0.08784713
	-0.0001020646	-1.930647e-05	0.0002585036	0.001614793	0.986554	-0.08784713	0.008567379	-0.007252345
2e+07	0.008916734	-0.01671707	0.9723868	-0.172039	0.0007074306	0.003122836	-8.934702e-05	-4.375711e-06
	0.9723868	-0.172039	0.008880379	-0.01671189	-8.937161e-05	-4.292778e-06	0.0006956227	0.003126144
	0.0007074151	0.003122799	-8.937947e-05	-4.312152e-06	0.008914807	-0.01668929	0.9723575	-0.1722342
	-8.934062e-05	-4.412274e-06	0.0006956197	0.003126145	0.9723575	-0.1722342	0.008875856	-0.01668349
3e+07	0.006841211	-0.02690149	0.9518487	-0.2535713	0.001389754	0.004513457	-3.611833e-05	-2.782724e-07
	0.9518487	-0.2535713	0.006760756	-0.0268825	-3.615962e-05	-2.415807e-07	0.001364036	0.00452232
	0.00138975	0.004513457	-3.616137e-05	-2.412429e-07	0.006846247	-0.02686376	0.9517738	-0.2538548
	-3.612061e-05	-2.819776e-07	0.001364036	0.004522322	0.9517738	-0.2538548	0.006760175	-0.02684291
4e+07	0.002736353	-0.03679986	0.9248493	-0.3325081	0.002285908	0.005750924	4.633189e-05	-2.57379e-05
	0.9248493	-0.3325081	0.002597308	-0.03675396	4.624547e-05	-2.568112e-05	0.002242021	0.005769678
	0.002285914	0.005750923	4.624922e-05	-2.568082e-05	0.002747571	-0.03675477	0.9247152	-0.3328716
	4.634017e-05	-2.573255e-05	0.002242022	0.005769679	0.9247152	-0.3328716	0.002598882	-0.03670499
5e+07	-0.003157349	-0.04596512	0.8915415	-0.4084617	0.003364378	0.006801732	0.000144762	-9.288979e-05
	0.8915415	-0.4084617	-0.003365968	-0.04587518	0.0001446559	-9.277705e-05	0.003299256	0.006835737
	0.003364381	0.006801731	0.0001446581	-9.277786e-05	-0.003140997	-0.04591437	0.8913353	-0.4088958
	0.0001447682	-9.288902e-05	0.003299257	0.006835737	0.8913353	-0.4088958	-0.003364089	-0.04581721
6e+07	-0.01060584	-0.05407176	0.8521796	-0.4809785	0.004587669	0.007638516	0.0002434533	-0.0002087333
	0.8521796	-0.4809785	-0.01089029	-0.05391813	0.0002433514	-0.0002085562	0.004499595	0.007693825
	0.004587669	0.007638518	0.000243351	-0.0002085556	-0.01058549	-0.05401642	0.8518893	-0.4814724
	0.0002434477	-0.0002087327	0.004499596	0.007693825	0.8518893	-0.4814724	-0.01088955	-0.05385078
7e+07	-0.0193587	-0.06086519	0.8070839	-0.5496038	0.00591421	0.00824128	0.000325546	-0.0003751963
	0.8070839	-0.5496038	-0.0197205	-0.06062712	0.0003254612	-0.0003749513	0.005802916	0.008324349
	0.005914209	0.008241287	0.0003254595	-0.0003749483	-0.01933551	-0.06080591	0.806699	-0.5501455
	0.0003255301	-0.0003751887	0.005802917	0.008324348	0.806699	-0.5501455	-0.01972205	-0.06054964
8e+07	-0.0291461	-0.06614876	0.7566263	-0.613906	0.007299976	0.008598061	0.0003741934	-0.0005894168
	0.7566263	-0.613906	-0.02958221	-0.06580523	0.000374135	-0.0005890943	0.007166699	0.00871544
	0.007299977	0.008598069	0.0003741336	-0.0005890901	-0.02912124	-0.06608588	0.7561377	-0.6144822
	0.0003741755	-0.0005894018	0.0071667	0.00871544	0.7561377	-0.6144822	-0.02958696	-0.06571656
9e+07	-0.0396822	-0.06978024	0.70122	-0.673488	0.008700238	0.008705353	0.0003734776	-0.0008442103
	0.70122	-0.673488	-0.040185	-0.06931069	0.0003734602	-0.0008437947	0.008547725	0.008863381
	0.008700239	0.008705359	0.0003734597	-0.0008437913	-0.03965685	-0.06971379	0.7006203	-0.6740843
	0.0003734663	-0.0008441956	0.008547725	0.008863381	0.7006203	-0.6740843	-0.04019364	-0.06920946
1e+08	-0.0506728	-0.0716723	0.641313	-0.7279915	0.01007267	0.008569538	0.0003076272	-0.001130223
	0.641313	-0.7279915	-0.05123016	-0.07105752	0.000307675	-0.001129697	0.009905125	0.008774024
	0.01007267	0.008569538	0.0003076749	-0.001129697	-0.05064824	-0.07160222	0.6405967	-0.7285923
	0.0003076272	-0.001130223	0.009905125	0.008774024	0.6405967	-0.7285923	-0.05124317	-0.07094224
1.1e+08	-0.0618224	-0.07177199	0.5773828	-0.7771248	0.0113797	0.008190805	0.0001612459	-0.001417417
	0.5773828	-0.7771248	-0.06241678	-0.07099543	0.0001613996	-0.00141682	0.01120264	0.008446676
	0.0113797	0.008190805	0.0001613996	-0.00141682	-0.06180008	-0.07169668	0.5765467	-0.7777154
	0.0001612459	-0.001417417	0.01120264	0.008446677	0.5765467	-0.7777154	-0.06243415	-0.07086348
1.2e+08	-0.07281839	-0.07009782	0.5098972	-0.8206176	0.01256938	0.007592461	-5.563948e-05	-0.001693281
	0.5098972	-0.8206176	-0.07342917	-0.06914623	-5.535649e-05	-0.001692635	0.01238946	0.007903596
	0.01256938	0.007592461	-5.535637e-05	-0.001692635	-0.07279829	-0.07001603	0.5089385	-0.8211818
	-5.563936e-05	-0.001693281	0.01238946	0.007903597	0.5089385	-0.8211818	-0.07344939	-0.06899551
1.3e+08	-0.08337812	-0.06671392	0.439357	-0.8582471	0.01360963	0.00680276	-0.0003460897	-0.001942416
	0.439357	-0.8582471	-0.08398156	-0.06557822	-0.0003456599	-0.001941751	0.01343445	0.007171702
	0.01360963	0.00680276	-0.0003456597	-0.00194175	-0.08336015	-0.06662458	0.4382751	-0.8587684
	-0.0003460895	-0.001942416	0.01343445	0.007171703	0.4382751	-0.8587684	-0.08400284	-0.0654071
1.4e+08	-0.09323488	-0.06172586	0.3662676	-0.8898383	0.01447226	0.005852698	-0.0007067245	-0.002147022
	0.3662676	-0.8898383	-0.09380502	-0.06040172	-0.0007061384	-0.002146371	0.01431009	0.006280465
	0.01447226	0.005852698	-0.0007061382	-0.002146371	-0.09321872	-0.06162796	0.3650638	-0.8902998
	-0.0007067243	-0.002147022	0.01431009	0.006280466	0.3650638	-0.8902998	-0.0938252	-0.060209
1.5e+08	-0.1021455	-0.05527864	0.2911359	-0.9152589	0.01513487	0.004776706	-0.00112942	-0.002290052
	0.2911359	-0.9152589	-0.1026551	-0.05376694	-0.001128677	-0.002289453	0.01499431	0.005262659
	0.01513487	0.004776706	-0.001128677	-0.002289452	-0.1021306	-0.05517125	0.2898135	-0.9156439
	-0.00112942	-0.002290052	0.01499431	0.00526266	0.2898135	-0.9156439	-0.1026717	-0.05355185
1.6e+08	-0.1098958	-0.04755204	0.214467	-0.9344173	0.01558128	0.003611724	-0.001601883	-0.002356492
	0.214467	-0.9344173	-0.1103173	-0.04585909	-0.001600992	-0.002355982	0.01547096	0.004153488
	0.01558128	0.003611724	-0.001600992	-0.002355982	-0.1098813	-0.04743439	0.2130314	-0.9347092
	-0.001601883	-0.002356492	0.01547096	0.004153489	0.2130314	-0.9347092	-0.1103277	-0.04562141
1.7e+08	-0.1163048	-0.03875528	0.1367618	-0.9472598	0.01580174	0.002396162	-0.002108353	-0.002334344
	0.1367618	-0.9472598	-0.1166116	-0.03689287	-0.002107333	-0.002333957	0.01572998	0.002989617
	0.01580174	0.002396162	-0.002107333	-0.002333957	-0.1162898	-0.03862676	0.1352203	-0.9474425
	-0.002108353	-0.002334344	0.01572998	0.002989617	0.1352203	-0.9474425	-0.1166129	-0.03663294
1.8e+08	-0.1212284	-0.02912112	0.05851499	-0.9537676	0.01579288	0.001168891	-0.00263045	-0.002215364
	0.05851499	-0.9537676	-0.1213958	-0.02710641	-0.002629329	-0.00221513	0.01576733	0.001808226
	0.01579288	0.001168891	-0.002629329	-0.00221513	-0.1212119	-0.02898134	0.05687662	-0.9538256
	-0.00263045	-0.002215364	0.01576733	0.001808226	0.05687662	-0.9538256	-0.1213852	-0.02682514
1.9e+08	-0.124562	-0.01889981	-0.01978659	-0.953955	0.01555757	-3.171399e-05	-0.003148159	-0.001995572
	-0.01978659	-0.953955	-0.1245679	-0.01675496	-0.003146972	-0.001995514	0.01558487	0.0006461253
	0.01555757	-3.171395e-05	-0.003146972	-0.001995514	-0.1245427	-0.01874863	-0.02151089	-0.9538738
	-0.003148159	-0.001995572	0.01558487	0.0006461255	-0.02151089	-0.9538738	-0.1245429	-0.01645387
2e+08	-0.1262417	-0.008352808	-0.09766424	-0.9478671	0.01510464	-0.001168636	-0.003640863	-0.001675506
	-0.09766424	-0.9478671	-0.1260681	-0.00610448	-0.003639651	-0.001675635	0.01519012	-0.0004610508
	0.01510464	-0.001168636	-0.003639651	-0.001675635	-0.1262184	-0.008190337	-0.09946186	-0.9476331
	-0.003640863	-0.001675506	0.01519012	-0.0004610508	-0.09946186	-0.9476331	-0.1260262	-0.005785642
2.1e+08	-0.1262454	0.002253514	-0.1746479	-0.9355782	0.01444848	-0.002207014	-0.004088408	-0.001260224
	-0.1746479	-0.9355782	-0.125879	0.004574861	-0.004087215	-0.001260543	0.01459591	-0.001479579
	0.01444848	-0.002207014	-0.004087215	-0.001260543	-0.1262167	0.002426887	-0.1765046	-0.935179
	-0.004088408	-0.001260224	0.01459591	-0.001479579	-0.1765046	-0.935179	-0.125818	0.004908847
2.2e+08	-0.1245924	0.01265408	-0.2502764	-0.9171905	0.01360867	-0.00311486	-0.004472117	-0.0007590767
	-0.2502764	-0.9171905	-0.1240253	0.01501504	-0.004470984	-0.0007595743	0.01381999	-0.002378315
	0.01360867	-0.00311486	-0.004470985	-0.0007595743	-0.1245572	0.0128377	-0.2521765	-0.9166151
	-0.004472117	-0.0007590767	0.01381999	-0.002378315	-0.2521765	-0.9166151	-0.1239437	0.01536113
2.3e+08	-0.1213428	0.02259121	-0.324097	-0.8928339	0.01260944	-0.003863714	-0.004775721	-0.0001852428
	-0.324097	-0.8928339	-0.1205732	0.02495644	-0.004774689	-0.0001858985	0.01288463	-0.003129309
	0.01260944	-0.003863714	-0.004774689	-0.0001858985	-0.1212999	0.02278418	-0.3260234	-0.8920728
	-0.004775721	-0.0001852428	0.01288463	-0.003129309	-0.3260234	-0.8920728	-0.12047	0.02531121
2.4e+08	-0.1165954	0.03182047	-0.3956661	-0.8626655	0.0114792	-0.004429246	-0.004986156	0.0004449183
	-0.3956661	-0.8626655	-0.1156281	0.03415376	-0.004985258	0.000444136	0.01181615	-0.003708373
	0.0114792	-0.004429246	-0.004985258	0.000444136	-0.116544	0.03202166	-0.3976005	-0.861711
	-0.004986156	0.0004449183	0.01181615	-0.003708373	-0.3976005	-0.861711	-0.1155028	0.03451354
2.5e+08	-0.1104856	0.04011629	-0.4645488	-0.8268703	0.01024986	-0.004791812	-0.005094192	0.001112684
	-0.4645488	-0.8268703	-0.1093319	0.04238175	-0.005093451	0.001111815	0.01064435	-0.004095621
	0.01024986	-0.004791812	-0.005093451	0.001111815	-0.110425	0.04032438	-0.4664719	-0.8257162
	-0.005094192	0.001112684	0.01064435	-0.004095621	-0.4664719	-0.8257162	-0.1091849	0.04274272
2.6e+08	-0.1031819	0.04727711	-0.5303202	-0.7856615	0.008956263	-0.004936951	-0.005094851	0.0017979
	-0.5303202	-0.7856615	-0.1018599	0.04944041	-0.005094278	0.00179699	0.009401961	-0.004275958
	0.008956263	-0.004936951	-0.005094279	0.00179699	-0.1031117	0.04749061	-0.5322119	-0.7843037
	-0.005094851	0.0017979	0.009401961	-0.004275958	-0.5322119	-0.7843037	-0.1016921	0.04979874
2.7e+08	-0.09488212	0.05313017	-0.5925662	-0.7392819	0.007635375	-0.004855838	-0.00498761	0.002479995
	-0.5925662	-0.7392819	-0.09341644	0.05515976	-0.004987206	0.002479091	0.008123977	-0.004239537
	0.007635375	-0.004855838	-0.004987206	0.002479091	-0.094802	0.05334748	-0.5944053	-0.7377182
	-0.00498761	0.002479995	0.008123977	-0.004239537	-0.5944053	-0.7377182	-0.09322956	0.05551174
2.8e+08	-0.08580873	0.05753568	-0.6508848	-0.6880046	0.00632551	-0.004545657	-0.004776363	0.003139004
	-0.6508848	-0.6880046	-0.08422999	0.05940401	-0.004776111	0.003138153	0.006846889	-0.003982152
	0.00632551	-0.004545657	-0.004776111	0.003138153	-0.08571884	0.05775516	-0.65265	-0.686235
	-0.004776363	0.003139004	0.006846889	-0.003982152	-0.65265	-0.686235	-0.08402645	0.0597462
2.9e+08	-0.07620373	0.06039044	-0.7048889	-0.6321346	0.005065395	-0.004009883	-0.004469139	0.00375657
	-0.7048889	-0.6321346	-0.07454795	0.06207509	-0.004469013	0.003755816	0.005607848	-0.00350555
	0.005065395	-0.004009883	-0.004469013	0.003755816	-0.07610448	0.06061043	-0.7065584	-0.6301611
	-0.004469139	0.00375657	0.005607848	-0.00350555	-0.7065584	-0.6301611	-0.07433087	0.06240443
3e+08	-0.06632284	0.06163058	-0.7542087	-0.5720093	0.003893188	-0.003258442	-0.004077598	0.004316858
	-0.7542087	-0.5720093	-0.06463059	0.06311529	-0.004077556	0.004316231	0.00444373	-0.002817633
	0.003893188	-0.003258442	-0.004077556	0.004316231	-0.06621495	0.06184948	-0.7557606	-0.569836
	-0.004077598	0.004316858	0.00444373	-0.002817633	-0.7557606	-0.569836	-0.06440366	0.06342924
3.1e+08	-0.05642925	0.0612336	-0.7984954	-0.507999	0.002845392	-0.002307719	-0.003616308	0.004807317
	-0.7984954	-0.507999	-0.05474457	0.06250917	-0.003616302	0.00480684	0.003390114	-0.001932519
	0.002845392	-0.002307719	-0.003616302	0.00480684	-0.05631376	0.06144989	-0.7999077	-0.5056326
	-0.003616308	0.004807317	0.003390114	-0.001932519	-0.7999077	-0.5056326	-0.054512	0.06280581
3.2e+08	-0.0467871	0.05921928	-0.8374246	-0.4405074	0.001955742	-0.001180375	-0.003101865	0.005219263
	-0.8374246	-0.4405074	-0.04515624	0.06028427	-0.00310184	0.005218942	0.002480204	-0.0008704212
	0.001955742	-0.001180375	-0.00310184	0.005218942	-0.04666535	0.05943162	-0.8386759	-0.4379565
	-0.003101865	0.005219263	0.002480204	-0.0008704212	-0.8386759	-0.4379565	-0.0449227	0.06056241
3.3e+08	-0.03765467	0.05564968	-0.8707011	-0.3699704	0.001254055	9.503654e-05	-0.002551876	0.005548223
	-0.8707011	-0.3699704	-0.03612476	0.05651088	-0.002551773	0.005548049	0.001743719	0.00034267
	0.001254055	9.503654e-05	-0.002551773	0.005548049	-0.03752825	0.05585694	-0.8717702	-0.367246
	-0.002551876	0.005548223	0.001743719	0.00034267	-0.8717702	-0.367246	-0.03589514	0.05677017
3.4e+08	-0.02927754	0.05062802	-0.8980633	-0.296855	0.0007651293	0.001484698	-0.001983889	0.005794021
	-0.8980633	-0.296855	-0.02789507	0.0513007	-0.001983654	0.005793966	0.001205809	0.001675534
	0.0007651293	0.001484698	-0.001983654	0.005793966	-0.02914824	0.05082939	-0.8989299	-0.2939704
	-0.001983889	0.005794021	0.001205809	0.001675534	-0.8989299	-0.2939704	-0.02767439	0.05154169
3.5e+08	-0.02188193	0.04429635	-0.9192875	-0.221657	0.0005077123	0.002950386	-0.001414321	0.005960587
	-0.9192875	-0.221657	-0.02069125	0.04480422	-0.001413905	0.005960609	0.0008860373	0.003092505
	0.0005077123	0.002950386	-0.001413905	0.005960609	-0.02175174	0.04449129	-0.9199324	-0.2186276
	-0.001414321	0.005960587	0.0008860373	0.003092505	-0.9199324	-0.2186276	-0.02048452	0.04502835
3.6e+08	-0.01566838	0.03683214	-0.9341931	-0.1448977	0.0004936287	0.004450562	-0.0008574662	0.006055497
	-0.9341931	-0.1448977	-0.01471014	0.03720704	-0.0008568342	0.006055539	0.0007974968	0.004554475
	0.0004936287	0.004450562	-0.0008568342	0.006055539	-0.01553943	0.03702045	-0.9345981	-0.141741
	-0.0008574662	0.006055497	0.0007974968	0.004554475	-0.9345981	-0.141741	-0.01452219	0.03741665
3.7e+08	-0.01080605	0.02844375	-0.9426459	-0.06711955	0.0007271062	0.005941668	-0.0003246485	0.00608927
	-0.9426459	-0.06711955	-0.0101157	0.02872506	-0.0003237798	0.006089263	0.000946123	0.006020116
	0.0007271062	0.005941668	-0.0003237798	0.006089263	-0.01068055	0.02862561	-0.9427942	-0.06385517
	-0.0003246485	0.00608927	0.000946123	0.006020116	-0.9427942	-0.06385517	-0.009951016	0.02892337
3.8e+08	-0.007427748	0.01936487	-0.9445625	0.01111851	0.001204367	0.007379584	0.0001764159	0.006074453
	-0.9445625	0.01111851	-0.007034186	0.01959863	0.000177523	0.006074323	0.001330249	0.007447254
	0.001204367	0.007379584	0.000177523	0.006074323	-0.007307913	0.01954085	-0.944439	0.01446907
	0.0001764159	0.006074453	0.001330249	0.007447254	-0.944439	0.01446907	-0.006896731	0.01978969
3.9e+08	-0.005626056	0.009848169	-0.9399125	0.0892471	0.001913524	0.00872118	0.0006419956	0.006024579
	-0.9399125	0.0892471	-0.005550337	0.01008592	0.0006433222	0.006024249	0.001940457	0.008794352
	0.001913524	0.00872118	0.0006433222	0.006024249	-0.005514049	0.01001924	-0.939504	0.09266054
	0.0006419956	0.006024579	0.001940457	0.008794352	-0.939504	0.09266054	-0.005443427	0.01027456
4e+08	-0.005450516	0.0001582481	-0.9287208	0.1666926	0.002834807	0.009925901	0.001072428	0.00595304
	-0.9287208	0.1666926	-0.005704852	0.0004556966	0.001073934	0.005952437	0.002759743	0.01002202
	0.002834807	0.009925901	0.001073934	0.005952437	-0.005348368	0.0003257945	-0.9280161	0.170144
	0.001072428	0.00595304	0.002759743	0.01002202	-0.9280161	0.170144	-0.005630998	0.0006473481
4.1e+08	-0.006906165	-0.009435833	-0.9110684	0.2428841	0.003941135	0.01095729	0.001471899	0.005871989
	-0.9110684	0.2428841	-0.007493134	-0.009020404	0.001473525	0.00587105	0.003764016	0.01109451
	0.003941135	0.01095729	0.001473525	0.00587105	-0.006815704	-0.009270046	-0.9100586	0.2463471
	0.001471899	0.005871989	0.003764016	0.01109451	-0.9100586	0.2463471	-0.007453925	-0.008819781
4.2e+08	-0.009953412	-0.01866819	-0.887092	0.3172599	0.005199003	0.0117844	0.001847936	0.005791331
	-0.887092	0.3172599	-0.01086546	-0.01807562	0.001849604	0.005790007	0.004922906	0.01198103
	0.005199003	0.0117844	0.001849604	0.005790007	-0.009876189	-0.01850204	-0.8857704	0.320707
	0.001847936	0.005791331	0.004922906	0.01198103	-0.8857704	0.320707	-0.01086147	-0.01785972
4.3e+08	-0.01450928	-0.02728365	-0.8569826	0.3892749	0.006569664	0.01238292	0.002210638	0.00571789
	-0.8569826	0.3892749	-0.01572855	-0.0264557	0.002212258	0.005716153	0.00620085	0.01265691
	0.006569664	0.01238292	0.002212258	0.005716153	-0.01444651	-0.0271147	-0.8553453	0.3926774
	0.002210638	0.00571789	0.00620085	0.01265691	-0.8553453	0.3926774	-0.01575927	-0.02621807
4.4e+08	-0.02045001	-0.03504495	-0.8209832	0.4584067	0.008010528	0.01273613	0.002571718	0.005654812
	-0.8209832	0.4584067	-0.02194845	-0.03392614	0.002573192	0.005652655	0.007558398	0.0131045
	0.008010528	0.01273613	0.002573192	0.005652655	-0.02040249	-0.03487051	-0.8190289	0.4617352
	0.002571718	0.005654812	0.007558398	0.0131045	-0.8190289	0.4617352	-0.02201226	-0.03366033
4.5e+08	-0.02761482	-0.0417393	-0.779385	0.5241614	0.009476728	0.01283548	0.002943416	0.005601255
	-0.779385	0.5241614	-0.0293547	-0.0402787	0.002944642	0.005598698	0.008953676	0.01331375
	0.009476728	0.01283548	0.002944642	0.005598698	-0.02758289	-0.04155649	-0.7771151	0.5273861
	0.002943416	0.005601255	0.008953676	0.01331375	-0.7771151	0.5273861	-0.02944884	-0.03997847
4.6e+08	-0.03581081	-0.0471841	-0.732523	0.5860792	0.01092275	0.01268077	0.003337366	0.005552378
	-0.732523	0.5860792	-0.03774551	-0.04533701	0.003338248	0.005549463	0.01034391	0.01328244
	0.01092275	0.01268077	0.003338248	0.005549463	-0.03579433	-0.04698993	-0.7299419	0.5891701
	0.003337366	0.005552378	0.01034391	0.01328244	-0.7299419	0.5891701	-0.03786614	-0.04499655
4.7e+08	-0.04481871	-0.05123169	-0.6807712	0.6437387	0.01230404	0.01228007	0.003763512	0.005499633
	-0.6807712	0.6437387	-0.04689381	-0.04896123	0.003763965	0.005496428	0.01168696	0.01301615
	0.01230404	0.01228007	0.003763965	0.005496428	-0.044817	-0.05102315	-0.677886	0.6466657
	0.003763512	0.005499633	0.01168696	0.01301615	-0.677886	0.6466657	-0.04703606	-0.04857533
4.8e+08	-0.05439929	-0.05377293	-0.6245367	0.6967598	0.01357856	0.0116493	0.004229138	0.005431336
	-0.6245367	0.6967598	-0.05655391	-0.05105135	0.004229092	0.005427929	0.01294275	0.01252783
	0.01357856	0.0116493	0.004229092	0.005427929	-0.05441114	-0.05354707	-0.6213577	0.6994933
	0.004229138	0.005431336	0.01294275	0.01252783	-0.6213577	0.6994933	-0.056712	-0.05061559
4.9e+08	-0.06430013	-0.05473958	-0.5642544	0.7448063	0.01470812	0.01081144	0.004738086	0.005333471
	-0.5642544	0.7448063	-0.06646858	-0.0515494	0.004737493	0.005329965	0.01407457	0.0118372
	0.01470812	0.01081144	0.004737493	0.005329965	-0.06432381	-0.05449364	-0.5607945	0.7473173
	0.004738086	0.005333471	0.01407457	0.0118372	-0.5607945	0.7473173	-0.06663593	-0.0510603
5e+08	-0.0742627	-0.05410551	-0.5003806	0.7875874	0.01565958	0.009795629	0.005290217	0.005190661
	-0.5003806	0.7875874	-0.07637621	-0.05044027	0.005289056	0.00518717	0.01505016	0.01096983
	0.01565958	0.009795629	0.005289056	0.00518717	-0.07429598	-0.05383697	-0.4966558	0.7898479
	0.005290217	0.005190661	0.01505016	0.01096983	-0.4966558	0.7898479	-0.07654561	-0.04989545
5.1e+08	-0.08402928	-0.05188659	-0.4333882	0.8248577	0.0164057	0.008635996	0.00588114	0.004987245
	-0.4333882	0.8248577	-0.0860179	-0.04775138	0.005879416	0.004983888	0.01584255	0.009956136
