!$
! Info: Touchstone file created by Circ.  Input file=Tx_8in_Rx_85ohms_TxVia_60mils_RxVia_70mils.circ
!$
# Hz S RI R 50
0	0.006548417	1.159259e-25	1.658159e-09	2.295116e-27	6.414052e-05	1.277357e-23	-1.432613e-10	6.351586e-26
	1.658173e-09	2.29512e-27	0.006544157	1.389667e-25	4.516431e-09	7.736754e-27	6.326528e-05	1.588997e-23
	6.327232e-05	1.271648e-23	4.516431e-09	7.736757e-27	0.006562249	1.172178e-25	3.729294e-09	2.42588e-27
	-1.429706e-10	6.348026e-26	6.353504e-05	1.595811e-23	3.729212e-09	2.425863e-27	0.006558652	1.38347e-25
1e+07	0.008561157	-0.00726027	2.055822e-09	3.791117e-09	0.000261263	0.00161122	-3.282868e-09	1.1728e-08
	2.055822e-09	3.791117e-09	0.008578489	-0.007263059	6.302267e-09	1.344748e-08	0.0002585012	0.001614796
	0.0002612475	0.001611233	6.302267e-09	1.344748e-08	0.008603837	-0.007241974	-1.655308e-09	1.249883e-08
	-3.282868e-09	1.1728e-08	0.0002585036	0.001614793	-1.655308e-09	1.249883e-08	0.008567379	-0.007252345
2e+07	0.008897297	-0.01670102	2.659702e-09	6.909917e-09	0.0007063179	0.003117437	1.545195e-09	3.949176e-09
	2.659702e-09	6.909917e-09	0.008880379	-0.01671189	7.863166e-09	2.408325e-08	0.0006956227	0.003126144
	0.0007063248	0.003117446	7.863166e-09	2.408325e-08	0.008937898	-0.01667581	-4.601434e-10	6.627554e-09
	1.545195e-09	3.949176e-09	0.0006956197	0.003126145	-4.601434e-10	6.627554e-09	0.008875856	-0.01668349
3e+07	0.006827845	-0.02687979	3.124669e-09	9.678628e-09	0.0013873	0.004505606	2.502011e-09	5.963227e-09
	3.124669e-09	9.678628e-09	0.006760756	-0.0268825	8.377231e-09	3.446804e-08	0.001364036	0.00452232
	0.001387301	0.004505606	8.377231e-09	3.446804e-08	0.006869149	-0.02684232	2.802912e-09	9.756281e-09
	2.502011e-09	5.963227e-09	0.001364036	0.004522322	2.802912e-09	9.756281e-09	0.006760175	-0.02684291
4e+07	0.002728677	-0.03677454	3.527202e-09	1.242506e-08	0.00228163	0.005740868	3.085157e-09	7.493707e-09
	3.527202e-09	1.242506e-08	0.002597308	-0.03675396	8.462754e-09	4.49483e-08	0.002242021	0.005769678
	0.002281629	0.005740869	8.462754e-09	4.49483e-08	0.00277257	-0.03672454	3.241739e-09	1.273705e-08
	3.085157e-09	7.493707e-09	0.002242022	0.005769679	3.241739e-09	1.273705e-08	0.002598882	-0.03670499
5e+07	-0.003159628	-0.04593746	3.891335e-09	1.512251e-08	0.003357854	0.0067898	3.597061e-09	8.877538e-09
	3.891335e-09	1.512251e-08	-0.003365968	-0.04587518	8.20909e-09	5.562701e-08	0.003299256	0.006835737
	0.003357853	0.006789801	8.20909e-09	5.562701e-08	-0.003111779	-0.04587559	3.375889e-09	1.556389e-08
	3.597061e-09	8.877538e-09	0.003299257	0.006835737	3.375889e-09	1.556389e-08	-0.003364089	-0.04581721
6e+07	-0.01060298	-0.05404274	4.215406e-09	1.776366e-08	0.004578536	0.007625085	4.057493e-09	1.013718e-08
	4.215406e-09	1.776366e-08	-0.01089029	-0.05391813	7.719263e-09	6.658624e-08	0.004499595	0.007693825
	0.004578534	0.007625085	7.719263e-09	6.658624e-08	-0.0105503	-0.05397001	3.423378e-09	1.839418e-08
	4.057493e-09	1.013718e-08	0.004499596	0.007693825	3.423378e-09	1.839418e-08	-0.01088955	-0.05385078
7e+07	-0.01935098	-0.06083566	4.489022e-09	2.035233e-08	0.005902165	0.008226777	4.446848e-09	1.128207e-08
	4.489022e-09	2.035233e-08	-0.0197205	-0.06062712	7.098387e-09	7.789187e-08	0.005802916	0.008324349
	0.005902161	0.008226776	7.098387e-09	7.789187e-08	-0.01929298	-0.06075316	3.43899e-09	2.125916e-08
	4.446848e-09	1.128207e-08	0.005802917	0.008324348	3.43899e-09	2.125916e-08	-0.01972205	-0.06054964
8e+07	-0.02913385	-0.06611948	4.699887e-09	2.289866e-08	0.00728479	0.00858295	4.738647e-09	1.232908e-08
	4.699887e-09	2.289866e-08	-0.02958221	-0.06580523	6.455036e-09	8.958624e-08	0.007166699	0.00871544
	0.007284786	0.008582949	6.455036e-09	8.958624e-08	-0.02907039	-0.06602827	3.45112e-09	2.415979e-08
	4.738647e-09	1.232908e-08	0.0071667	0.00871544	3.45112e-09	2.415979e-08	-0.02958696	-0.06571656
9e+07	-0.03966587	-0.0697519	4.835964e-09	2.541697e-08	0.008681757	0.008690122	4.908757e-09	1.330359e-08
	4.835964e-09	2.541697e-08	-0.040185	-0.06931069	5.900171e-09	1.01687e-07	0.008547725	0.008863381
	0.008681754	0.008690122	5.900171e-09	1.01687e-07	-0.03959699	-0.0696529	3.479673e-09	2.708306e-08
	4.908756e-09	1.330359e-08	0.008547725	0.008863381	3.479673e-09	2.708306e-08	-0.04019364	-0.06920946
1e+08	-0.05065306	-0.07164571	4.88433e-09	2.791886e-08	0.01005082	0.008554683	4.939038e-09	1.423911e-08
	4.88433e-09	2.791886e-08	-0.05123016	-0.07105752	5.545461e-09	1.141822e-07	0.009905125	0.008774024
	0.01005082	0.008554683	5.545461e-09	1.141822e-07	-0.05057885	-0.07153949	3.537482e-09	2.999774e-08
	4.939038e-09	1.423911e-08	0.009905125	0.008774024	3.537482e-09	2.999774e-08	-0.05124317	-0.07094224
1.1e+08	-0.06180035	-0.07174672	4.91928e-09	3.042397e-08	0.01135446	0.008176815	4.839222e-09	1.517949e-08
	4.91928e-09	3.042397e-08	-0.06241678	-0.07099543	5.530155e-09	1.270661e-07	0.01120264	0.008446676
	0.01135446	0.008176815	5.530155e-09	1.270661e-07	-0.06172061	-0.07163481	3.529704e-09	3.297627e-08
	4.839222e-09	1.517949e-08	0.01120264	0.008446677	3.529704e-09	3.297627e-08	-0.06243415	-0.07086348
1.2e+08	-0.07279393	-0.07007382	4.883007e-09	3.295863e-08	0.01254081	0.007579823	4.599826e-09	1.614186e-08
	4.883007e-09	3.295863e-08	-0.07342917	-0.06914623	5.923923e-09	1.40283e-07	0.01238946	0.007903596
	0.01254081	0.007579823	5.923923e-09	1.40283e-07	-0.07270974	-0.06995713	3.513189e-09	3.601191e-08
	4.599826e-09	1.614186e-08	0.01238946	0.007903597	3.513189e-09	3.601191e-08	-0.07344939	-0.06899551
1.3e+08	-0.08335136	-0.06669135	4.774066e-09	3.553391e-08	0.01357786	0.006791939	4.225575e-09	1.715795e-08
	4.774066e-09	3.553391e-08	-0.08398156	-0.06557822	6.816741e-09	1.53754e-07	0.01343445	0.007171702
	0.01357786	0.006791939	6.816741e-09	1.53754e-07	-0.08326367	-0.06657034	3.493266e-09	3.910326e-08
	4.225575e-09	1.715795e-08	0.01343445	0.007171703	3.493266e-09	3.910326e-08	-0.08400284	-0.0654071
1.4e+08	-0.09320601	-0.06170494	4.597846e-09	3.816577e-08	0.01443748	0.005844135	3.726417e-09	1.825407e-08
	4.597846e-09	3.816577e-08	-0.09380502	-0.06040172	8.281461e-09	1.673859e-07	0.01431009	0.006280465
	0.01443748	0.005844135	8.281461e-09	1.673859e-07	-0.09311568	-0.06157975	3.47958e-09	4.225263e-08
	3.726417e-09	1.825407e-08	0.01431009	0.006280466	3.47958e-09	4.225263e-08	-0.0938252	-0.060209
1.5e+08	-0.1021147	-0.05525957	4.358436e-09	4.088482e-08	0.01509731	0.004770809	3.119419e-09	1.946278e-08
	4.358436e-09	4.088482e-08	-0.1026551	-0.05376694	1.037166e-08	1.810702e-07	0.01499431	0.005262659
	0.01509731	0.004770809	1.037166e-08	1.810702e-07	-0.1020226	-0.05513016	3.477799e-09	4.547601e-08
	3.119419e-09	1.946278e-08	0.01499431	0.00526266	3.477799e-09	4.547601e-08	-0.1026717	-0.05355185
1.6e+08	-0.1098633	-0.04753503	4.071421e-09	4.371445e-08	0.01554122	0.003608865	2.426257e-09	2.080707e-08
	4.071421e-09	4.371445e-08	-0.1103173	-0.04585909	1.311807e-08	1.946866e-07	0.01547096	0.004153488
	0.01554122	0.003608865	1.311807e-08	1.946866e-07	-0.10977	-0.04740116	3.502194e-09	4.878198e-08
	2.426257e-09	2.080707e-08	0.01547096	0.004153489	3.502194e-09	4.878198e-08	-0.1103277	-0.04562141
1.7e+08	-0.116271	-0.03874048	3.759292e-09	4.667602e-08	0.01575951	0.002396673	1.672352e-09	2.230557e-08
	3.759292e-09	4.667602e-08	-0.1166116	-0.03689287	1.652638e-08	2.081073e-07	0.01572998	0.002989617
	0.01575951	0.002396673	1.652638e-08	2.081073e-07	-0.116177	-0.03860183	3.571085e-09	5.21773e-08
	1.672352e-09	2.230557e-08	0.01572998	0.002989617	3.571085e-09	5.21773e-08	-0.1166129	-0.03663294
1.8e+08	-0.1211936	-0.02910869	3.451206e-09	4.978656e-08	0.01574885	0.001173055	8.859812e-10	2.397215e-08
	3.451206e-09	4.978656e-08	-0.1213958	-0.02710641	2.057569e-08	2.212026e-07	0.01576733	0.001808226
	0.01574885	0.001173055	2.057569e-08	2.212026e-07	-0.1210994	-0.02896482	3.706669e-09	5.566516e-08
	8.859812e-10	2.397215e-08	0.01576733	0.001808226	3.706669e-09	5.566516e-08	-0.1213852	-0.02682514
1.9e+08	-0.1245265	-0.01888984	3.182053e-09	5.305673e-08	0.01551215	-2.365875e-05	9.741198e-11	2.581568e-08
	3.182053e-09	5.305673e-08	-0.1245679	-0.01675496	2.521813e-08	2.338458e-07	0.01558487	0.0006461253
	0.01551215	-2.365875e-05	2.521813e-08	2.338458e-07	-0.1244322	-0.0187403	3.934248e-09	5.924362e-08
	9.741198e-11	2.581568e-08	0.01558487	0.0006461255	3.934248e-09	5.924362e-08	-0.1245429	-0.01645387
2e+08	-0.1262059	-0.008345356	2.990881e-09	5.648894e-08	0.01505825	-0.001156507	-6.619061e-10	2.783991e-08
	2.990881e-09	5.648894e-08	-0.1260681	-0.00610448	3.037958e-08	2.459191e-07	0.01519012	-0.0004610508
	0.01505825	-0.001156507	3.037958e-08	2.459191e-07	-0.1261117	-0.008189684	4.28089e-09	6.290423e-08
	-6.619061e-10	2.783991e-08	0.01519012	-0.0004610508	4.28089e-09	6.290423e-08	-0.1260262	-0.005785642
2.1e+08	-0.1262095	0.002258424	2.91877e-09	6.007599e-08	0.01440158	-0.002190682	-1.360068e-09	3.00435e-08
	2.91877e-09	6.007599e-08	-0.125879	0.004574861	3.596156e-08	2.573191e-07	0.01459591	-0.001479579
	0.01440158	-0.002190682	3.596156e-08	2.573191e-07	-0.1261154	0.002420678	4.773608e-09	6.663107e-08
	-1.360068e-09	3.00435e-08	0.01459591	-0.001479579	4.773608e-09	6.663107e-08	-0.125818	0.004908847
2.2e+08	-0.1245569	0.01265647	3.0063e-09	6.380033e-08	0.01356173	-0.003094256	-1.965365e-09	3.242008e-08
	3.0063e-09	6.380033e-08	-0.1240253	0.01501504	4.184429e-08	2.679612e-07	0.01381999	-0.002378315
	0.01356173	-0.003094256	4.184429e-08	2.679612e-07	-0.1244627	0.01282571	5.437219e-09	7.040036e-08
	-1.965365e-09	3.242008e-08	0.01381999	-0.002378315	5.437219e-09	7.040036e-08	-0.1239437	0.01536113
2.3e+08	-0.1213081	0.02259116	3.290793e-09	6.7634e-08	0.01256294	-0.003838828	-2.446889e-09	3.495832e-08
	3.290793e-09	6.7634e-08	-0.1205732	0.02495644	4.789073e-08	2.777846e-07	0.01288463	-0.003129309
	0.01256294	-0.003838828	4.789073e-08	2.777846e-07	-0.1212136	0.02276771	6.292013e-09	7.418073e-08
	-2.446889e-09	3.495832e-08	0.01288463	-0.003129309	6.292013e-09	7.418073e-08	-0.12047	0.02531121
2.4e+08	-0.1165618	0.03181812	3.803553e-09	7.153936e-08	0.01143361	-0.004400134	-2.775095e-09	3.764201e-08
	3.803553e-09	7.153936e-08	-0.1156281	0.03415376	5.395142e-08	2.867548e-07	0.01181615	-0.003708373
	0.01143361	-0.004400134	5.395142e-08	2.867548e-07	-0.1164668	0.03200225	7.351488e-09	7.79342e-08
	-2.775095e-09	3.764201e-08	0.01181615	-0.003708373	7.351488e-09	7.79342e-08	-0.1155028	0.03451354
2.5e+08	-0.1104535	0.0401118	4.567308e-09	7.547063e-08	0.01020568	-0.004758593	-2.922391e-09	4.045009e-08
	4.567308e-09	7.547063e-08	-0.1093319	0.04238175	5.986997e-08	2.948664e-07	0.01064435	-0.004095621
	0.01020568	-0.004758593	5.986997e-08	2.948664e-07	-0.1103575	0.04030368	8.620312e-09	8.161777e-08
	-2.922391e-09	4.045009e-08	0.01064435	-0.004095621	8.620312e-09	8.161777e-08	-0.1091849	0.04274272
2.6e+08	-0.1031517	0.04727071	5.594085e-09	7.937601e-08	0.008913942	-0.004899811	-2.863772e-09	4.335677e-08
	5.594085e-09	7.937601e-08	-0.1018599	0.04944041	6.548894e-08	3.02144e-07	0.009401961	-0.004275958
	0.008913942	-0.004899811	6.548894e-08	3.02144e-07	-0.1030544	0.04747044	1.009276e-08	8.518577e-08
	-2.863772e-09	4.335677e-08	0.009401961	-0.004275958	1.009276e-08	8.518577e-08	-0.1016921	0.04979874
2.7e+08	-0.09485402	0.05312214	6.88369e-09	8.320051e-08	0.007595361	-0.004815029	-2.577536e-09	4.633158e-08
	6.88369e-09	8.320051e-08	-0.09341644	0.05515976	7.06557e-08	3.086419e-07	0.008123977	-0.004239537
	0.007595361	-0.004815029	7.06557e-08	3.086419e-07	-0.09475514	0.0533297	1.175174e-08	8.859252e-08
	-2.577536e-09	4.633158e-08	0.008123977	-0.004239537	1.175174e-08	8.859252e-08	-0.09322956	0.05551174
2.8e+08	-0.08578306	0.05752636	8.422995e-09	8.688904e-08	0.006288213	-0.004501496	-2.046118e-09	4.933956e-08
	8.422995e-09	8.688904e-08	-0.08422999	0.05940401	7.522816e-08	3.144429e-07	0.006846889	-0.003982152
	0.006288213	-0.004501496	7.522816e-08	3.144429e-07	-0.08568216	0.05774166	1.356872e-08	9.179539e-08
	-2.046118e-09	4.933956e-08	0.006846889	-0.003982152	1.356872e-08	9.179539e-08	-0.08402645	0.0597462
2.9e+08	-0.07618071	0.0603802	1.018607e-08	9.038971e-08	0.005031184	-0.003962749	-1.257024e-09	5.234157e-08
	1.018607e-08	9.038971e-08	-0.07454795	0.06207509	7.908004e-08	3.196556e-07	0.005607848	-0.00350555
	0.005031184	-0.003962749	7.908004e-08	3.196556e-07	-0.07607746	0.06060306	1.550435e-08	9.475785e-08
	-1.257024e-09	5.234157e-08	0.005607848	-0.00350555	1.550435e-08	9.475785e-08	-0.07433087	0.06240443
3e+08	-0.06630264	0.06161985	1.213518e-08	9.365702e-08	0.003862378	-0.003208769	-2.038626e-10	5.529482e-08
	1.213518e-08	9.365702e-08	-0.06463059	0.06311529	8.210536e-08	3.244109e-07	0.00444373	-0.002817633
	0.003862378	-0.003208769	8.210536e-08	3.244109e-07	-0.06619674	0.06185	1.751002e-08	9.745236e-08
	-2.038626e-10	5.529482e-08	0.00444373	-0.002817633	1.751002e-08	9.745236e-08	-0.06440366	0.06342924
3.1e+08	-0.05641201	0.0612228	1.424588e-08	9.664448e-08	0.002818237	-0.002255992	1.112022e-09	5.815364e-08
	1.424588e-08	9.664448e-08	-0.05474457	0.06250917	8.4229e-08	3.28856e-07	0.003390114	-0.001932519
	0.002818237	-0.002255992	8.4229e-08	3.28856e-07	-0.05630319	0.06145992	1.955364e-08	9.985238e-08
	1.112022e-09	5.815364e-08	0.003390114	-0.001932519	1.955364e-08	9.985238e-08	-0.054512	0.06280581
3.2e+08	-0.04677288	0.05920888	1.648056e-08	9.930048e-08	0.001932423	-0.001127121	2.681091e-09	6.087106e-08
	1.648056e-08	9.930048e-08	-0.04515624	0.06028427	8.540102e-08	3.331446e-07	0.002480204	-0.0008704212
	0.001932423	-0.001127121	8.540102e-08	3.331446e-07	-0.04666096	0.05945259	2.159331e-08	1.019278e-07
	2.681091e-09	6.087106e-08	0.002480204	-0.0008704212	2.159331e-08	1.019278e-07	-0.0449227	0.06056241
3.3e+08	-0.03764345	0.05564017	1.872539e-08	1.016269e-07	0.001234675	0.0001492614	4.486656e-09	6.33997e-08
	1.872539e-08	1.016269e-07	-0.03612476	0.05651088	8.557822e-08	3.374498e-07	0.001743719	0.00034267
	0.001234675	0.0001492614	8.557822e-08	3.374498e-07	-0.03752834	0.05589	2.351433e-08	1.037037e-07
	4.486656e-09	6.33997e-08	0.001743719	0.00034267	2.351433e-08	1.037037e-07	-0.03589514	0.05677017
3.4e+08	-0.0292692	0.05061992	2.091435e-08	1.036282e-07	0.0007497044	0.00153932	6.501218e-09	6.569346e-08
	2.091435e-08	1.036282e-07	-0.02789507	0.0513007	8.47607e-08	3.419472e-07	0.001205809	0.001675534
	0.0007497044	0.00153932	8.47607e-08	3.419472e-07	-0.02915093	0.05087535	2.525422e-08	1.052079e-07
	6.501218e-09	6.569346e-08	0.001205809	0.001675534	2.525422e-08	1.052079e-07	-0.02767439	0.05154169
3.5e+08	-0.02187628	0.04429015	2.298466e-08	1.05323e-07	0.0004961706	0.003004827	8.687516e-09	6.770979e-08
	2.298466e-08	1.05323e-07	-0.02069125	0.04480422	8.2978e-08	3.468119e-07	0.0008860373	0.003092505
	0.0004961706	0.003004827	8.2978e-08	3.468119e-07	-0.02175498	0.04455065	2.675799e-08	1.064818e-07
	8.687516e-09	6.770979e-08	0.0008860373	0.003092505	2.675799e-08	1.064818e-07	-0.02048452	0.04502835
3.6e+08	-0.01566515	0.0368283	2.488003e-08	1.067427e-07	0.0004858073	0.004504255	1.099871e-08	6.941205e-08
	2.488003e-08	1.067427e-07	-0.01471014	0.03720704	8.028837e-08	3.522132e-07	0.0007974968	0.004554475
	0.0004858073	0.004504255	8.028837e-08	3.522132e-07	-0.01554109	0.03709337	2.798137e-08	1.075787e-07
	1.099871e-08	6.941205e-08	0.0007974968	0.004554475	2.798137e-08	1.075787e-07	-0.01452219	0.03741665
3.7e+08	-0.0108049	0.02844268	2.655322e-08	1.079284e-07	0.0007227532	0.005994073	1.33793e-08	7.077186e-08
	2.655322e-08	1.079284e-07	-0.0101157	0.02872506	7.67774e-08	3.583107e-07	0.000946123	0.006020116
	0.0007227532	0.005994073	7.67774e-08	3.583107e-07	-0.01067846	0.02871183	2.889316e-08	1.085597e-07
	1.33793e-08	7.077186e-08	0.000946123	0.006020116	2.889316e-08	1.085597e-07	-0.009951016	0.02892337
3.8e+08	-0.007428265	0.01936692	2.796762e-08	1.089287e-07	0.001203146	0.0074302	1.576668e-08	7.177129e-08
	2.796762e-08	1.089287e-07	-0.007034186	0.01959863	7.255614e-08	3.6525e-07	0.001330249	0.007447254
	0.001203146	0.0074302	7.255614e-08	3.6525e-07	-0.007299965	0.01963974	2.947662e-08	1.094904e-07
	1.576668e-08	7.177129e-08	0.001330249	0.007447254	2.947662e-08	1.094904e-07	-0.006896731	0.01978969
3.9e+08	-0.005627772	0.009853625	2.909798e-08	1.097961e-07	0.00191502	0.008769563	1.809334e-08	7.240474e-08
	2.909798e-08	1.097961e-07	-0.005550337	0.01008592	6.775885e-08	3.731594e-07	0.001940457	0.008794352
	0.00191502	0.008769563	6.775885e-08	3.731594e-07	-0.005498252	0.0101298	2.972958e-08	1.104373e-07
	1.809334e-08	7.240474e-08	0.001940457	0.008794352	2.972958e-08	1.104373e-07	-0.005443427	0.01027456
4e+08	-0.005452914	0.0001673186	2.992994e-08	1.105843e-07	0.002838537	0.009971673	2.028952e-08	7.268029e-08
	2.992994e-08	1.105843e-07	-0.005704852	0.0004556966	6.254045e-08	3.821468e-07	0.002759743	0.01002202
	0.002838537	0.009971673	6.254045e-08	3.821468e-07	-0.005322926	0.0004466465	2.966352e-08	1.114635e-07
	2.028952e-08	7.268029e-08	0.002759743	0.01002202	2.966352e-08	1.114635e-07	-0.005630998	0.0006473481
4.1e+08	-0.006908697	-0.009423025	3.045895e-08	1.113455e-07	0.00394656	0.01100016	2.228631e-08	7.262035e-08
	3.045895e-08	1.113455e-07	-0.007493134	-0.009020404	5.707372e-08	3.922964e-07	0.003764016	0.01109451
	0.00394656	0.01100016	5.707372e-08	3.922964e-07	-0.00677908	-0.009140581	2.93016e-08	1.126267e-07
	2.228631e-08	7.262035e-08	0.003764016	0.01109451	2.93016e-08	1.126267e-07	-0.007453925	-0.008819781
4.2e+08	-0.009955512	-0.01865161	3.068852e-08	1.121291e-07	0.00520554	0.01182414	2.401884e-08	7.226155e-08
	3.068852e-08	1.121291e-07	-0.01086546	-0.01807562	5.154617e-08	4.036663e-07	0.004922906	0.01198103
	0.00520554	0.01182414	5.154617e-08	4.036663e-07	-0.009827164	-0.01836591	2.867612e-08	1.139762e-07
	2.401884e-08	7.226155e-08	0.004922906	0.01198103	2.867612e-08	1.139762e-07	-0.01086147	-0.01785972
4.3e+08	-0.01451039	-0.02726336	3.062825e-08	1.129806e-07	0.0065767	0.01241942	2.542955e-08	7.165383e-08
	3.062825e-08	1.129806e-07	-0.01572855	-0.0264557	4.615657e-08	4.162859e-07	0.00620085	0.01265691
	0.0065767	0.01241942	4.615657e-08	4.162859e-07	-0.01438422	-0.02697406	2.782561e-08	1.155523e-07
	2.542955e-08	7.165383e-08	0.00620085	0.01265691	2.782561e-08	1.155523e-07	-0.01575927	-0.02621807
4.4e+08	-0.02044957	-0.03502111	3.029202e-08	1.139414e-07	0.008017439	0.01276937	2.647099e-08	7.08587e-08
	3.029202e-08	1.139414e-07	-0.02194845	-0.03392614	4.11111e-08	4.301537e-07	0.007558398	0.0131045
	0.008017439	0.01276937	4.11111e-08	4.301537e-07	-0.02032648	-0.03472764	2.679203e-08	1.173864e-07
	2.647099e-08	7.08587e-08	0.007558398	0.0131045	2.679203e-08	1.173864e-07	-0.02201226	-0.03366033
4.5e+08	-0.02761231	-0.04171215	2.969659e-08	1.150501e-07	0.009482891	0.01286553	2.710833e-08	6.994689e-08
	2.969659e-08	1.150501e-07	-0.0293547	-0.0402787	3.661892e-08	4.452352e-07	0.008953676	0.01331375
	0.009482891	0.01286553	3.661892e-08	4.452352e-07	-0.02749311	-0.04141372	2.56184e-08	1.195016e-07
	2.710833e-08	6.994689e-08	0.008953676	0.01331375	2.56184e-08	1.195016e-07	-0.02944884	-0.03997847
4.6e+08	-0.03580576	-0.04715397	2.886088e-08	1.163429e-07	0.01092756	0.0127078	2.732106e-08	6.899542e-08
	2.886088e-08	1.163429e-07	-0.03774551	-0.04533701	3.288725e-08	4.61462e-07	0.01034391	0.01328244
	0.01092756	0.0127078	3.288725e-08	4.61462e-07	-0.03569114	-0.04684959	2.434719e-08	1.21914e-07
	2.732106e-08	6.899542e-08	0.01034391	0.01328244	2.434719e-08	1.21914e-07	-0.03786614	-0.04499655
4.7e+08	-0.0448107	-0.05119897	2.780602e-08	1.178552e-07	0.01230692	0.01230435	2.710401e-08	6.80844e-08
	2.780602e-08	1.178552e-07	-0.04689381	-0.04896123	3.011591e-08	4.787304e-07	0.01168696	0.01301615
	0.01230692	0.01230435	3.011591e-08	4.787304e-07	-0.04470119	-0.05088745	2.301945e-08	1.24635e-07
	2.710401e-08	6.80844e-08	0.01168696	0.01301615	2.301945e-08	1.24635e-07	-0.04703606	-0.04857533
4.8e+08	-0.05438797	-0.05373807	2.655617e-08	1.196228e-07	0.01357898	0.01167117	2.64676e-08	6.729374e-08
	2.655617e-08	1.196228e-07	-0.05655391	-0.05105135	2.849134e-08	4.96902e-07	0.01294275	0.01252783
	0.01357898	0.01167117	2.849134e-08	4.96902e-07	-0.05428386	-0.05341808	2.167497e-08	1.276726e-07
	2.64676e-08	6.729374e-08	0.01294275	0.01252783	2.167497e-08	1.276726e-07	-0.056712	-0.05061559
