!$
! Info: Touchstone file created by Circ.  Input file=Tx_8in_Rx_100ohms_TxVia_60mils_RxVia_70mils.circ
!$
# Hz S RI R 50
0	0.008399366	1.14079e-25	-4.325809e-05	2.437171e-26	6.329467e-05	1.614652e-23	-4.325604e-05	-3.177559e-26
	-4.325809e-05	2.393682e-26	0.008394896	1.383605e-25	-4.325752e-05	2.711408e-26	6.300308e-05	2.042828e-23
	6.437837e-05	1.625441e-23	-4.325752e-05	2.699028e-26	0.008414811	1.140731e-25	-4.32576e-05	1.489468e-25
	-4.325603e-05	-3.266549e-26	6.327274e-05	2.051588e-23	-4.32576e-05	1.486165e-25	0.008409337	1.377438e-25
1e+07	0.01192681	0.00558843	-2.064153e-06	-8.444764e-06	0.0002297362	0.001598006	-1.643898e-06	-1.166923e-05
	-2.064153e-06	-8.444764e-06	0.01229286	0.005622571	-1.170702e-06	-2.460232e-06	0.0005113336	0.001634786
	0.0002297675	0.001598011	-1.170702e-06	-2.460232e-06	0.0114944	0.005826264	-2.748796e-06	-3.289957e-06
	-1.643898e-06	-1.166923e-05	0.0005113361	0.001634783	-2.748796e-06	-3.289957e-06	0.0121846	0.005640184
2e+07	0.01558887	0.0083514	-3.99585e-06	8.186663e-08	0.0006279271	0.003172715	-1.391335e-06	-4.249272e-06
	-3.99585e-06	8.18666e-08	0.01589178	0.00827702	-1.525093e-05	-1.79703e-05	0.000800456	0.003351369
	0.0006279416	0.003172697	-1.525093e-05	-1.79703e-05	0.01549742	0.008886617	-1.876931e-05	-1.776054e-05
	-1.391335e-06	-4.249272e-06	0.000800453	0.00335137	-1.876931e-05	-1.776054e-05	0.01582003	0.008351673
3e+07	0.0188157	0.009631451	-6.523002e-06	-1.227558e-06	0.001270505	0.004622521	-1.340185e-06	-2.393978e-06
	-6.523002e-06	-1.227558e-06	0.01905511	0.009525989	-2.74061e-05	-1.885023e-05	0.00135823	0.004849363
	0.001270506	0.004622518	-2.74061e-05	-1.885023e-05	0.01899338	0.01021953	-3.088703e-05	-1.816879e-05
	-1.340185e-06	-2.393978e-06	0.00135823	0.004849365	-3.088703e-05	-1.816879e-05	0.01901471	0.009623627
4e+07	0.02182635	0.01013125	-8.509027e-06	-9.779784e-07	0.002134065	0.005929528	-1.2605e-06	-1.397639e-06
	-8.509027e-06	-9.779786e-07	0.02199811	0.01001899	-3.712458e-05	-1.541357e-05	0.002169588	0.006181274
	0.002134069	0.005929532	-3.712458e-05	-1.541357e-05	0.02222768	0.01068774	-4.052562e-05	-1.432048e-05
	-1.2605e-06	-1.397639e-06	0.002169589	0.006181275	-4.052562e-05	-1.432048e-05	0.02198657	0.0101284
5e+07	0.02465642	0.0100253	-1.00286e-05	4.605211e-08	0.00318988	0.007062962	-1.138083e-06	-7.337103e-07
	-1.00286e-05	4.605203e-08	0.02475663	0.00992435	-4.473365e-05	-9.426468e-06	0.003304959	0.007274686
	0.003189883	0.007062964	-4.473365e-05	-9.426468e-06	0.0252413	0.01049676	-4.801709e-05	-7.946263e-06
	-1.138083e-06	-7.337103e-07	0.00330496	0.007274686	-4.801709e-05	-7.946263e-06	0.02477129	0.01003826
6e+07	0.02729424	0.009404208	-1.110306e-05	1.546154e-06	0.004404819	0.007995498	-9.730664e-07	-2.486246e-07
	-1.110306e-05	1.546154e-06	0.02732186	0.009332168	-5.03314e-05	-1.685021e-06	0.004574167	0.008154245
	0.004404815	0.007995497	-5.03314e-05	-1.685021e-06	0.02802338	0.009752442	-5.346043e-05	1.679534e-07
	-9.730663e-07	-2.486245e-07	0.004574169	0.008154246	-5.346043e-05	1.679534e-07	0.02736	0.009445059
7e+07	0.02971076	0.008331585	-1.173056e-05	3.364569e-06	0.005754627	0.008696748	-7.677556e-07	1.150293e-07
	-1.173056e-05	3.364569e-06	0.02966755	0.008305259	-5.389114e-05	7.340379e-06	0.005942167	0.008803878
	0.005754615	0.008696748	-5.389114e-05	7.340379e-06	0.03054412	0.008528479	-5.684512e-05	9.551389e-06
	-7.677551e-07	1.150293e-07	0.005942168	0.008803878	-5.684512e-05	9.551389e-06	0.02972606	0.008412521
8e+07	0.03187142	0.006862779	-1.189416e-05	5.404064e-06	0.007185464	0.009157682	-5.291357e-07	3.802351e-07
	-1.189416e-05	5.404064e-06	0.03176165	0.006898108	-5.532394e-05	1.733177e-05	0.007370585	0.00921201
	0.007185449	0.009157684	-5.532394e-05	1.733177e-05	0.03276715	0.006887628	-5.807215e-05	1.989471e-05
	-5.291351e-07	3.802349e-07	0.007370586	0.009212009	-5.807215e-05	1.989471e-05	0.03183682	0.006995897
9e+07	0.03374241	0.005052247	-1.155106e-05	7.611851e-06	0.008655382	0.009370515	-2.664087e-07	5.549069e-07
	-1.155106e-05	7.61185e-06	0.03357308	0.005164511	-5.440216e-05	2.812946e-05	0.008818467	0.009372324
	0.00865537	0.009370518	-5.440216e-05	2.812946e-05	0.03465471	0.004889095	-5.690024e-05	3.104791e-05
	-2.664083e-07	5.549066e-07	0.008818468	0.009372324	-5.690024e-05	3.104791e-05	0.03366055	0.005249687
1e+08	0.03530337	0.002963587	-1.043467e-05	1.010409e-05	0.01012596	0.009336255	1.49473e-08	6.316488e-07
	-1.043467e-05	1.010409e-05	0.03508554	0.003168263	-4.98408e-05	4.037497e-05	0.01023903	0.009280722
	0.01012596	0.009336255	-4.98408e-05	4.037497e-05	0.03616545	0.002587501	-5.201475e-05	4.368427e-05
	1.49473e-08	6.316488e-07	0.01023903	0.009280722	-5.201475e-05	4.368427e-05	0.03517918	0.003237495
1.1e+08	0.03654079	0.0005806103	-8.272702e-06	1.138743e-05	0.01155965	0.009038552	2.036269e-07	6.471832e-07
	-8.272702e-06	1.138743e-05	0.03629199	0.0008827057	-4.015145e-05	4.699614e-05	0.01158375	0.008979503
	0.01155965	0.009038552	-4.015145e-05	4.699614e-05	0.03726229	8.974891e-05	-4.183882e-05	5.054589e-05
	2.036269e-07	6.471832e-07	0.01158375	0.008979503	-4.183882e-05	5.054589e-05	0.03638405	0.0009416465
1.2e+08	0.03735971	-0.002003139	-7.75664e-06	1.126706e-05	0.0128942	0.008500335	2.172919e-07	5.877675e-07
	-7.75664e-06	1.126706e-05	0.03708988	-0.001597392	-3.242951e-05	5.073879e-05	0.01284959	0.008466485
	0.0128942	0.008500334	-3.242951e-05	5.073879e-05	0.03796839	-0.002562075	-3.58548e-05	5.293805e-05
	2.172919e-07	5.877675e-07	0.01284959	0.008466486	-3.58548e-05	5.293805e-05	0.03718076	-0.001546353
1.3e+08	0.03775689	-0.004709806	-7.204539e-06	1.12773e-05	0.01409583	0.007745671	1.801958e-07	5.446186e-07
	-7.204539e-06	1.12773e-05	0.0374792	-0.004194672	-3.029538e-05	5.044577e-05	0.01399518	0.007752751
	0.01409583	0.007745671	-3.029538e-05	5.044577e-05	0.03826196	-0.005313873	-3.361515e-05	5.275754e-05
	1.801958e-07	5.446186e-07	0.01399518	0.007752752	-3.361515e-05	5.275754e-05	0.03756794	-0.00415049
1.4e+08	0.03772742	-0.007471619	-6.603946e-06	1.133065e-05	0.01513157	0.006801199	1.448126e-07	5.105863e-07
	-6.603946e-06	1.133065e-05	0.03745673	-0.006843603	-2.791106e-05	5.043851e-05	0.01498718	0.006860429
	0.01513157	0.006801199	-2.791106e-05	5.043851e-05	0.03813521	-0.008103824	-3.111836e-05	5.287066e-05
	1.448126e-07	5.105863e-07	0.01498718	0.00686043	-3.111836e-05	5.287066e-05	0.03754218	-0.006805338
1.5e+08	0.03727363	-0.01022263	-5.974176e-06	1.139916e-05	0.01597279	0.005698221	1.099657e-07	4.854246e-07
	-5.974176e-06	1.139916e-05	0.03702583	-0.00948097	-2.536836e-05	5.056697e-05	0.01579727	0.005817506
	0.01597279	0.005698221	-2.536836e-05	5.056697e-05	0.03758961	-0.01086911	-2.845313e-05	5.312567e-05
	1.099657e-07	4.854246e-07	0.01579727	0.005817507	-2.845313e-05	5.312567e-05	0.03710687	-0.009447596
1.6e+08	0.03640606	-0.01289881	-5.325807e-06	1.146732e-05	0.01659625	0.004472185	7.52603e-08	4.691453e-07
	-5.325807e-06	1.146732e-05	0.03619751	-0.01204574	-2.271483e-05	5.074592e-05	0.01640247	0.004656513
	0.01659625	0.004472185	-2.271483e-05	5.074592e-05	0.03663557	-0.01354773	-2.566741e-05	5.343428e-05
	7.52603e-08	4.691453e-07	0.01640247	0.004656513	-2.566741e-05	5.343428e-05	0.0362731	-0.0120161
1.7e+08	0.03514364	-0.01543888	-4.66545e-06	1.152574e-05	0.01698487	0.003161814	4.085319e-08	4.619434e-07
	-4.66545e-06	1.152574e-05	0.03499055	-0.01447973	-1.998081e-05	5.092083e-05	0.01678575	0.003413445
	0.01698487	0.003161814	-1.998081e-05	5.092083e-05	0.03529213	-0.01607993	-2.279162e-05	5.373966e-05
	4.085319e-08	4.619434e-07	0.01678575	0.003413445	-2.279162e-05	5.373966e-05	0.0350598	-0.01445255
1.8e+08	0.03351351	-0.01778531	-3.997522e-06	1.156842e-05	0.01712816	0.001808087	7.351953e-09	4.640734e-07
	-3.997522e-06	1.156842e-05	0.0334313	-0.01672854	-1.718747e-05	5.105461e-05	0.01693637	0.002126693
	0.01712816	0.001808087	-1.718747e-05	5.105461e-05	0.03358669	-0.0184094	-1.984692e-05	5.400285e-05
	7.351953e-09	4.640734e-07	0.01693637	0.002126693	-1.984692e-05	5.400285e-05	0.03349353	-0.01670242
1.9e+08	0.03155054	-0.01988539	-3.324267e-06	1.159191e-05	0.01702264	0.0004531245	-2.423261e-08	4.757283e-07
	-3.324267e-06	1.159191e-05	0.03155327	-0.01874248	-1.435096e-05	5.112087e-05	0.01685021	0.0008359339
	0.01702264	0.0004531245	-1.435096e-05	5.112087e-05	0.03155444	-0.02048451	-1.684944e-05	5.419581e-05
	-2.423261e-08	4.757283e-07	0.01685021	0.000835934	-1.684944e-05	5.419581e-05	0.03160803	-0.01871592
2e+08	0.02929666	-0.02169234	-2.64802e-06	1.159295e-05	0.01667185	-0.0008609769	-5.267663e-08	4.969363e-07
	-2.64802e-06	1.159295e-05	0.02939645	-0.0204775	-1.148437e-05	5.11001e-05	0.01652987	-0.0004189956
	0.01667185	-0.0008609769	-1.148437e-05	5.11001e-05	0.02923768	-0.02225944	-1.381228e-05	5.429754e-05
	-5.267663e-08	4.969363e-07	0.01652987	-0.0004189955	-1.381228e-05	5.429754e-05	0.02944355	-0.02044897
2.1e+08	0.02680004	-0.02316619	-1.971317e-06	1.156881e-05	0.01608635	-0.002093312	-7.656394e-08	5.275131e-07
	-1.971317e-06	1.156881e-05	0.02700654	-0.02189608	-8.598995e-06	5.097749e-05	0.01598458	-0.001599225
	0.01608635	-0.002093312	-8.598995e-06	5.097749e-05	0.02668491	-0.02369517	-1.074686e-05	5.429181e-05
	-7.656394e-08	5.275131e-07	0.01598458	-0.001599225	-1.074686e-05	5.429181e-05	0.02704605	-0.02186403
2.2e+08	0.02411409	-0.02427468	-1.295662e-06	1.151776e-05	0.01528338	-0.003205318	-9.432541e-08	5.669893e-07
	-1.295662e-06	1.151776e-05	0.02443398	-0.02296795	-5.704981e-06	5.074146e-05	0.01522996	-0.002667948
	0.01528338	-0.003205318	-5.704981e-06	5.074146e-05	0.02394982	-0.02476035	-7.663502e-06	5.416571e-05
	-9.432541e-08	5.669893e-07	0.01522996	-0.002667948	-7.663502e-06	5.416571e-05	0.02446621	-0.02293086
2.3e+08	0.02129624	-0.02499394	-6.223888e-07	1.143832e-05	0.01428641	-0.004161856	-1.043589e-07	6.145761e-07
	-6.223888e-07	1.143832e-05	0.02173288	-0.02367069	-2.811787e-06	5.038274e-05	0.01428761	-0.003591465
	0.01428641	-0.004161856	-2.811787e-06	5.038274e-05	0.02109016	-0.02543203	-4.571997e-06	5.390867e-05
	-1.043589e-07	6.145761e-07	0.01428761	-0.003591465	-4.571997e-06	5.390867e-05	0.02175843	-0.02362715
2.4e+08	0.01840677	-0.02530904	4.718567e-08	1.132912e-05	0.01312449	-0.004932219	-1.051224e-07	6.691569e-07
	4.718567e-08	1.132912e-05	0.01895988	-0.02399022	7.122568e-08	4.98939e-05	0.01318448	-0.004340141
	0.01312449	-0.004932219	7.122568e-08	4.98939e-05	0.01816639	-0.02569618	-1.482156e-06	5.351204e-05
	-1.051224e-07	6.691569e-07	0.01318448	-0.004340141	-1.482156e-06	5.351204e-05	0.01897957	-0.02393892
2.5e+08	0.01550739	-0.02521431	7.11696e-07	1.118889e-05	0.01183146	-0.005491	-9.521076e-08	7.292943e-07
	7.11696e-07	1.118889e-05	0.01617287	-0.02392108	2.934797e-06	4.926889e-05	0.01195211	-0.004889248
	0.01183146	-0.005491	2.934797e-06	4.926889e-05	0.01524039	-0.02554806	1.596171e-06	5.296862e-05
	-9.521076e-08	7.292943e-07	0.01195211	-0.004889248	1.596171e-06	5.296862e-05	0.01618775	-0.0238609
2.6e+08	0.01265984	-0.02471348	1.369624e-06	1.101639e-05	0.01044495	-0.005818832	-7.343677e-08	7.93261e-07
	1.369624e-06	1.101639e-05	0.01342975	-0.02346653	5.769435e-06	4.850292e-05	0.0106258	-0.005219677
	0.01044495	-0.005818832	5.769435e-06	4.850292e-05	0.012374	-0.02499235	4.652761e-06	5.227249e-05
	-7.343677e-08	7.93261e-07	0.0106258	-0.005219677	4.652761e-06	5.227249e-05	0.01344104	-0.02339651
2.7e+08	0.009924545	-0.02381962	2.019252e-06	1.08105e-05	0.009005356	-0.005902947	-3.889476e-08	8.590838e-07
	2.019252e-06	1.08105e-05	0.01078709	-0.02263841	8.56538e-06	4.759219e-05	0.009243581	-0.00531849
	0.009005356	-0.005902947	8.56538e-06	4.759219e-05	0.009627618	-0.02404302	7.676974e-06	5.141886e-05
	-3.889476e-08	8.590838e-07	0.009243581	-0.00531849	7.676974e-06	5.141886e-05	0.01079618	-0.02255787
2.8e+08	0.007359145	-0.02255479	2.658607e-06	1.057018e-05	0.007554685	-0.005737556	8.981304e-09	9.24602e-07
	2.658607e-06	1.057018e-05	0.008298911	-0.02145693	1.131246e-05	4.653409e-05	0.007845134	-0.005179299
	0.007554685	-0.005737556	1.131246e-05	4.653409e-05	0.007058807	-0.0227231	1.065762e-05	5.040426e-05
	8.981304e-09	9.24602e-07	0.007845134	-0.005179299	1.065762e-05	5.040426e-05	0.008307298	-0.02136541
2.9e+08	0.005017178	-0.02094956	3.285449e-06	1.029459e-05	0.006135358	-0.005324031	7.038183e-08	9.875386e-07
	3.285449e-06	1.029459e-05	0.006015441	-0.0199501	1.40001e-05	4.532706e-05	0.006470699	-0.004802459
	0.006135358	-0.005324031	1.40001e-05	4.532706e-05	0.00472091	-0.0210641	1.3583e-05	4.922638e-05
	7.038183e-08	9.875386e-07	0.006470699	-0.004802459	1.3583e-05	4.922638e-05	0.006024671	-0.01984742
3e+08	0.002946814	-0.01904231	3.897268e-06	9.983072e-06	0.004789001	-0.004670877	1.450996e-07	1.045575e-06
	3.897268e-06	9.983072e-06	0.003981966	-0.01815314	1.661734e-05	4.397061e-05	0.005159919	-0.004195072
	0.004789001	-0.004670877	1.661734e-05	4.397061e-05	0.00266181	-0.0191053	1.64409e-05	4.788412e-05
	1.450996e-07	1.045575e-06	0.005159919	-0.004195072	1.64409e-05	4.788412e-05	0.003993608	-0.01803941
3.1e+08	0.001189735	-0.01687827	4.491303e-06	9.635303e-06	0.003555248	-0.003793507	2.325215e-07	1.09643e-06
	4.491303e-06	9.635303e-06	0.002237821	-0.0161076	1.91529e-05	4.246554e-05	0.003950717	-0.003370796
	0.003555248	-0.003793507	1.91529e-05	4.246554e-05	0.0009227898	-0.01689283	1.921875e-05	4.637791e-05
	2.325215e-07	1.09643e-06	0.003950717	-0.003370796	1.921875e-05	4.637791e-05	0.002253409	-0.01598321
3.2e+08	-0.0002198719	-0.01450849	5.064568e-06	9.25127e-06	0.002470614	-0.002713811	3.316441e-07	1.137939e-06
	5.064568e-06	9.25127e-06	0.0008154832	-0.01386041	2.159524e-05	4.08138e-05	0.002878217	-0.002349465
	0.002470614	-0.002713811	2.159524e-05	4.08138e-05	-0.0004624727	-0.01447856	2.190364e-05	4.47095e-05
	3.316441e-07	1.137939e-06	0.002878217	-0.002349465	2.190364e-05	4.47095e-05	0.0008364728	-0.013726
3.3e+08	-0.001256113	-0.01198859	5.613906e-06	8.831346e-06	0.001567434	-0.001459543	4.411016e-07	1.168125e-06
	5.613906e-06	8.831346e-06	-0.0002601413	-0.01146273	2.393264e-05	3.901863e-05	0.001973751	-0.001156539
	0.001567434	-0.001459543	2.393264e-05	3.901863e-05	-0.001468688	-0.01191889	2.448254e-05	4.288209e-05
	4.411016e-07	1.168125e-06	0.001973751	-0.001156539	2.448254e-05	4.288209e-05	-0.0002324308	-0.01131922
3.4e+08	-0.001901991	-0.009377411	6.136058e-06	8.376359e-06	0.0008729437	-6.353696e-05	5.592061e-07	1.185265e-06
	6.136058e-06	8.376359e-06	-0.0009722791	-0.008968758	2.615344e-05	3.70847e-05	0.001263959	0.000177615
	0.0008729437	-6.353696e-05	2.615344e-05	3.70847e-05	-0.002079575	-0.00927338	2.694246e-05	4.090055e-05
	5.592061e-07	1.185265e-06	0.001263959	0.000177615	2.694246e-05	4.090055e-05	-0.000936698	-0.008817289
3.5e+08	-0.002149814	-0.006735617	6.627724e-06	7.887582e-06	0.0004084875	0.00143722	6.840059e-07	1.187944e-06
	6.627724e-06	7.887582e-06	-0.001312645	-0.006434452	2.824608e-05	3.501799e-05	0.0007700417	0.001618575
	0.0004084875	0.00143722	2.824608e-05	3.501799e-05	-0.002288242	-0.006603303	2.927065e-05	3.87712e-05
	6.840059e-07	1.187944e-06	0.0007700417	0.001618575	2.927065e-05	3.87712e-05	-0.001268257	-0.006276354
3.6e+08	-0.002001341	-0.00412422	7.085637e-06	7.366783e-06	0.0001889076	0.00300264	8.133441e-07	1.175094e-06
	7.085637e-06	7.366783e-06	-0.001281588	-0.003916182	3.019939e-05	3.282591e-05	0.0005071502	0.003128834
	0.0001889076	0.00300264	3.019939e-05	3.282591e-05	-0.002097339	-0.003970172	3.14548e-05	3.650194e-05
	8.133441e-07	1.175094e-06	0.0005071502	0.003128834	3.14548e-05	3.650194e-05	-0.001227703	-0.003752949
3.7e+08	-0.001467724	-0.001603099	7.506683e-06	6.816178e-06	0.0002221102	0.004590665	9.4494e-07	1.146023e-06
	7.506683e-06	6.816178e-06	-0.0008880413	-0.00146941	3.200268e-05	3.05172e-05	0.0004839611	0.004668854
	0.0002221102	0.004590665	3.200268e-05	3.05172e-05	-0.001518977	-0.001434258	3.348324e-05	3.410212e-05
	9.4494e-07	1.146023e-06	0.0004839611	0.004668854	3.348324e-05	3.410212e-05	-0.0008242401	-0.001302648
3.8e+08	-0.0005692085	0.0007704473	7.887938e-06	6.238448e-06	0.0005088361	0.006158462	1.076452e-06	1.100421e-06
	7.887938e-06	6.238448e-06	-0.0001492542	0.0008526174	3.364597e-05	2.810194e-05	0.0007024285	0.006198181
	0.0005088361	0.006158462	3.364597e-05	2.810194e-05	-0.0005744132	0.0009468849	3.534517e-05	3.158247e-05
	1.076452e-06	1.100421e-06	0.0007024285	0.006198181	3.534517e-05	3.158247e-05	-7.54063e-05	0.001021238
3.9e+08	0.0006653986	0.002943072	8.226757e-06	5.636692e-06	0.001042631	0.007663632	1.205552e-06	1.038362e-06
	8.226757e-06	5.636692e-06	0.0009096678	0.003000115	3.512015e-05	2.559142e-05	0.001157728	0.007676576
	0.001042631	0.007663632	3.512015e-05	2.559142e-05	0.0007064933	0.003119796	3.703079e-05	2.8955e-05
	1.205552e-06	1.038362e-06	0.001157728	0.007676576	3.703079e-05	2.8955e-05	0.0009933939	0.00316891
4e+08	0.002199458	0.004866671	8.520847e-06	5.014381e-06	0.001810021	0.009065404	1.329991e-06	9.60278e-07
	8.520847e-06	5.014381e-06	0.002256414	0.004927921	3.641716e-05	2.299804e-05	0.001838391	0.009065138
	0.001810021	0.009065404	3.641716e-05	2.299804e-05	0.002286035	0.005036406	3.853152e-05	2.62328e-05
	1.329991e-06	9.60278e-07	0.001838391	0.009065138	3.853152e-05	2.62328e-05	0.002349552	0.005095247
4.1e+08	0.003989424	0.006499524	8.768327e-06	4.375302e-06	0.002790881	0.01032579	1.447665e-06	8.669328e-07
	8.768327e-06	4.375302e-06	0.00385229	0.006596533	3.753021e-05	2.03352e-05	0.002726621	0.0103274
	0.002790881	0.01032579	3.753021e-05	2.03352e-05	0.004119604	0.006655182	3.984013e-05	2.342994e-05
	1.447665e-06	8.669328e-07	0.002726621	0.0103274	3.984013e-05	2.342994e-05	0.003954081	0.006760837
4.2e+08	0.00598594	0.00780728	8.967778e-06	3.72348e-06	0.003958993	0.01141065	1.556657e-06	7.593792e-07
	8.967778e-06	3.72348e-06	0.005653183	0.007973003	3.845381e-05	1.761712e-05	0.00379879	0.01143033
	0.003958993	0.01141065	3.845381e-05	1.761712e-05	0.006156806	0.007942116	4.095082e-05	2.056119e-05
	1.556657e-06	7.593792e-07	0.00379879	0.01143033	4.095082e-05	2.056119e-05	0.005762599	0.008132874
4.3e+08	0.008135067	0.008763756	9.118268e-06	3.063103e-06	0.005282769	0.01229064	1.655285e-06	6.389098e-07
	9.118268e-06	3.063103e-06	0.007610659	0.009031672	3.918399e-05	1.485862e-05	0.005026091	0.01234525
	0.005282769	0.01229064	3.918399e-05	1.485862e-05	0.008342716	0.008871521	4.185936e-05	1.764189e-05
	1.655285e-06	6.389098e-07	0.005026091	0.01234525	4.185936e-05	1.764189e-05	0.007726424	0.009185889
4.4e+08	0.01037962	0.009351535	9.219368e-06	2.398441e-06	0.006726126	0.01294206	1.742127e-06	5.070019e-07
	9.219368e-06	2.398441e-06	0.009673145	0.009754716	3.971825e-05	1.207495e-05	0.00637533	0.01304864
	0.006726126	0.01294206	3.971825e-05	1.207495e-05	0.01061924	0.009426619	4.256303e-05	1.468766e-05
	1.742127e-06	5.070019e-07	0.00637533	0.01304864	4.256303e-05	1.468766e-05	0.009793774	0.009902287
4.5e+08	0.01266058	0.009562342	9.271153e-06	1.733761e-06	0.008249472	0.01334751	1.816034e-06	3.65262e-07
	9.271153e-06	1.733761e-06	0.01178719	0.01013251	4.00557e-05	9.281544e-06	0.007809839	0.0135228
	0.008249472	0.01334751	4.00557e-05	9.281544e-06	0.01292654	0.00959991	4.306067e-05	1.171424e-05
	1.816034e-06	3.65262e-07	0.007809839	0.0135228	4.306067e-05	1.171424e-05	0.01191103	0.01027271
4.6e+08	0.01491855	0.009397196	9.274198e-06	1.07325e-06	0.009810801	0.01349637	1.876135e-06	2.153697e-07
	9.274198e-06	1.07325e-06	0.01389875	0.01016378	4.019696e-05	6.493876e-06	0.009290479	0.01375631
	0.009810801	0.01349637	4.019696e-05	6.493876e-06	0.01520451	0.009393304	4.33527e-05	8.737282e-06
	1.876135e-06	2.153697e-07	0.009290479	0.01375631	4.33527e-05	8.737282e-06	0.01402401	0.01029618
4.7e+08	0.01709518	0.008866333	9.229525e-06	4.20946e-07	0.01136684	0.01338514	1.9218e-06	5.902752e-08
	9.229525e-06	4.20946e-07	0.01595448	0.009855585	4.014397e-05	3.727394e-06	0.01077671	0.01374436
	0.01136684	0.01338514	4.014397e-05	3.727394e-06	0.01739427	0.008818017	4.344076e-05	5.772187e-06
	1.9218e-06	5.902752e-08	0.01077671	0.01374436	4.344076e-05	5.772187e-06	0.01607933	0.009980035
4.8e+08	0.01913463	0.007988913	9.138591e-06	-2.193359e-07	0.01287424	0.01301755	1.952704e-06	-1.020882e-07
