!$
! Info: Touchstone file created by Circ.  Input file=Tx_8in_Rx_85ohms_TxVia_60mils_RxVia_70mils.circ
!$
# Hz S RI R 50
0	0.00654887	1.189774e-25	1.354774e-09	1.125788e-27	6.306025e-05	1.287526e-23	1.221738e-09	4.825328e-28
	1.354782e-09	1.125792e-27	0.006544157	1.389667e-25	9.324204e-10	1.627731e-27	6.326528e-05	1.588997e-23
	6.404203e-05	1.310096e-23	9.324092e-10	1.627705e-27	0.006562941	1.139256e-25	-3.292327e-09	4.525008e-25
	1.221736e-09	4.824103e-28	6.353504e-05	1.595811e-23	-3.291917e-09	4.524506e-25	0.006558652	1.38347e-25
1e+07	0.009664272	-0.007149046	2.622722e-09	3.550842e-09	0.0001993434	0.001610423	-9.472727e-10	3.050241e-08
	2.622722e-09	3.550842e-09	0.008578489	-0.007263059	1.686571e-09	2.558901e-09	0.0002585012	0.001614796
	0.0001993524	0.00161039	1.686571e-09	2.558901e-09	0.008610001	-0.00739791	-5.558885e-09	1.787671e-08
	-9.472725e-10	3.050241e-08	0.0002585036	0.001614793	-5.558885e-09	1.787671e-08	0.008567379	-0.007252345
2e+07	0.009877953	-0.01692033	4.580373e-09	6.239127e-09	0.0006126243	0.003169125	1.569424e-08	2.215812e-08
	4.580373e-09	6.239127e-09	0.008880379	-0.01671189	2.886542e-09	4.616738e-09	0.0006956227	0.003126144
	0.0006125974	0.003169124	2.886542e-09	4.616738e-09	0.008805528	-0.01693771	-3.554097e-09	6.815862e-09
	1.569424e-08	2.215812e-08	0.0006956197	0.003126145	-3.554097e-09	6.815863e-09	0.008875856	-0.01668349
3e+07	0.007704837	-0.02722888	7.307279e-09	7.704633e-09	0.001316697	0.004574884	2.562297e-08	2.513591e-08
	7.307279e-09	7.704633e-09	0.006760756	-0.0268825	4.232139e-09	6.011283e-09	0.001364036	0.00452232
	0.001316695	0.004574888	4.232139e-09	6.011283e-09	0.006623809	-0.02713366	7.427533e-09	7.920352e-09
	2.562297e-08	2.513591e-08	0.001364036	0.004522322	7.427533e-09	7.920352e-09	0.006760175	-0.02684291
4e+07	0.003508544	-0.03720657	1.044595e-08	8.57554e-09	0.002231859	0.005819491	3.662204e-08	2.696412e-08
	1.044595e-08	8.57554e-09	0.002597308	-0.03675396	5.974266e-09	7.105681e-09	0.002242021	0.005769678
	0.002231858	0.005819487	5.974266e-09	7.105681e-09	0.00242969	-0.03701434	1.127176e-08	9.173877e-09
	3.662204e-08	2.696412e-08	0.002242022	0.005769679	1.127176e-08	9.173877e-09	0.002598882	-0.03670499
5e+07	-0.002472403	-0.04642635	1.395259e-08	8.591779e-09	0.003327183	0.006872771	4.862846e-08	2.61177e-08
	1.395259e-08	8.591779e-09	-0.003365968	-0.04587518	7.884016e-09	7.749063e-09	0.003299256	0.006835737
	0.00332718	0.006872769	7.884016e-09	7.749063e-09	-0.003539084	-0.0461425	1.483317e-08	9.081781e-09
	4.862846e-08	2.61177e-08	0.003299257	0.006835737	1.483317e-08	9.081781e-09	-0.003364089	-0.04581721
6e+07	-0.01000431	-0.05456993	1.761334e-08	7.631948e-09	0.004565343	0.007708684	6.100445e-08	2.198414e-08
	1.761334e-08	7.631948e-09	-0.01089029	-0.05391813	9.867491e-09	7.879736e-09	0.004499595	0.007693825
	0.004565345	0.007708688	9.867491e-09	7.879736e-09	-0.01104915	-0.05419736	1.846451e-08	7.988552e-09
	6.100445e-08	2.198414e-08	0.004499596	0.007693825	1.846451e-08	7.988552e-09	-0.01088955	-0.05385078
7e+07	-0.01883652	-0.06138634	2.117863e-08	5.650029e-09	0.005904771	0.00830796	7.292209e-08	1.435096e-08
	2.117863e-08	5.650029e-09	-0.0197205	-0.06062712	1.180767e-08	7.475345e-09	0.005802916	0.008324349
	0.005904781	0.008307965	1.180767e-08	7.475345e-09	-0.01984993	-0.06092725	2.204559e-08	5.901647e-09
	7.292209e-08	1.435096e-08	0.005802917	0.008324348	2.204559e-08	5.901647e-09	-0.01972205	-0.06054964
8e+07	-0.02869867	-0.06668115	2.439104e-08	2.668574e-09	0.007301351	0.008659073	8.350456e-08	3.287758e-09
	2.439104e-08	2.668574e-09	-0.02958221	-0.06580523	1.357887e-08	6.544347e-09	0.007166699	0.00871544
	0.007301364	0.008659075	1.357887e-08	6.544347e-09	-0.02967082	-0.06613745	2.537263e-08	2.809004e-09
	8.350456e-08	3.287758e-09	0.0071667	0.00871544	2.537263e-08	2.809004e-09	-0.02958696	-0.06571656
9e+07	-0.03930409	-0.0703135	2.700461e-08	-1.22709e-09	0.008710107	0.008758694	9.190751e-08	-1.089778e-08
	2.700461e-08	-1.22709e-09	-0.040185	-0.06931069	1.505711e-08	5.124955e-09	0.008547725	0.008863381
	0.008710118	0.008758693	1.505711e-08	5.124955e-09	-0.0402241	-0.06968634	2.821821e-08	-1.266249e-09
	9.190751e-08	-1.089778e-08	0.008547725	0.008863381	2.821821e-08	-1.26625e-09	-0.04019364	-0.06920946
1e+08	-0.05035604	-0.07219552	2.880287e-08	-5.89852e-09	0.01008748	0.008612238	9.737897e-08	-2.769452e-08
	2.880287e-08	-5.89852e-09	-0.05123016	-0.07105752	1.612655e-08	3.284349e-09	0.009905125	0.008774024
	0.01008748	0.008612238	1.612655e-08	3.284349e-09	-0.05120635	-0.07148014	3.035583e-08	-6.258698e-09
	9.737897e-08	-2.769452e-08	0.009905125	0.008774024	3.035583e-08	-6.258698e-09	-0.05124317	-0.07094224
1.1e+08	-0.06155453	-0.07228767	2.974613e-08	-1.120444e-08	0.01139282	0.008227349	9.98332e-08	-4.638494e-08
	2.974613e-08	-1.120444e-08	-0.06241678	-0.07099543	1.67105e-08	1.121085e-09	0.01120264	0.008446676
	0.01139282	0.008227349	1.67105e-08	1.121085e-09	-0.06230451	-0.07151922	3.135578e-08	-1.184872e-08
	9.98332e-08	-4.638494e-08	0.01120264	0.008446677	3.135578e-08	-1.184872e-08	-0.06243415	-0.07086348
1.2e+08	-0.07259971	-0.07060498	2.958906e-08	-1.694843e-08	0.01258215	0.007625385	9.85213e-08	-6.642427e-08
	2.958906e-08	-1.694843e-08	-0.07342917	-0.06914623	1.67333e-08	-1.275167e-09	0.01238946	0.007903596
	0.01258215	0.007625385	1.67333e-08	-1.275167e-09	-0.07326072	-0.06980396	3.120029e-08	-1.789563e-08
	9.85213e-08	-6.642427e-08	0.01238946	0.007903597	3.120029e-08	-1.789563e-08	-0.07344939	-0.06899551
1.3e+08	-0.08320683	-0.0672094	2.822472e-08	-2.290962e-08	0.01362237	0.006832929	9.311296e-08	-8.70482e-08
	2.822472e-08	-2.290962e-08	-0.08398156	-0.06557822	1.613842e-08	-3.786991e-09	0.01343445	0.007171702
	0.01362237	0.006832929	1.613842e-08	-3.786991e-09	-0.08378422	-0.06638684	2.977834e-08	-2.416945e-08
	9.311296e-08	-8.70482e-08	0.01343445	0.007171703	2.977834e-08	-2.416945e-08	-0.08400284	-0.0654071
1.4e+08	-0.09310864	-0.06220641	2.558822e-08	-2.884179e-08	0.01448509	0.005880608	8.342913e-08	-1.074287e-07
	2.558822e-08	-2.884179e-08	-0.09380502	-0.06040172	1.489396e-08	-6.287547e-09	0.01431009	0.006280465
	0.01448509	0.005880608	1.489396e-08	-6.287547e-09	-0.09360652	-0.06137066	2.702243e-08	-3.041247e-08
	8.342913e-08	-1.074287e-07	0.01431009	0.006280466	2.702243e-08	-3.041247e-08	-0.0938252	-0.060209
1.5e+08	-0.1020617	-0.05574119	2.166375e-08	-3.44848e-08	0.01514784	0.004802684	6.945253e-08	-1.267047e-07
	2.166375e-08	-3.44848e-08	-0.1026551	-0.05376694	1.299327e-08	-8.644151e-09	0.01499431	0.005262659
	0.01514784	0.004802684	1.299327e-08	-8.644151e-09	-0.1024836	-0.05489909	2.291624e-08	-3.635215e-08
	6.945253e-08	-1.267047e-07	0.01499431	0.00526266	2.291624e-08	-3.635215e-08	-0.1026717	-0.05355185
1.6e+08	-0.1098515	-0.04799377	1.648727e-08	-3.957439e-08	0.0155944	0.003636001	5.133175e-08	-1.440117e-07
	1.648727e-08	-3.957439e-08	-0.1103173	-0.04585909	1.045568e-08	-1.072302e-08	0.01547096	0.004153488
	0.0155944	0.003636001	1.045568e-08	-1.072302e-08	-0.1102006	-0.04715126	1.74976e-08	-4.171169e-08
	5.133175e-08	-1.440117e-07	0.01547096	0.004153489	1.74976e-08	-4.171169e-08	-0.1103277	-0.04562141
1.7e+08	-0.1162971	-0.03917369	1.014712e-08	-4.385244e-08	0.01581499	0.002418908	2.938013e-08	-1.585128e-07
	1.014712e-08	-4.385244e-08	-0.1166116	-0.03689287	7.326425e-09	-1.23941e-08	0.01572998	0.002989617
	0.01581499	0.002418908	7.326425e-09	-1.23941e-08	-0.1165762	-0.03833604	1.085911e-08	-4.62207e-08
	2.938013e-08	-1.585128e-07	0.01572998	0.002989617	1.085911e-08	-4.62207e-08	-0.1166129	-0.03663294
1.8e+08	-0.1212544	-0.029514	2.782598e-09	-4.707709e-08	0.01580624	0.001190236	4.069596e-09	-1.694272e-07
	2.782598e-09	-4.707709e-08	-0.1213958	-0.02710641	3.675738e-09	-1.353585e-08	0.01576733	0.001808226
	0.01580624	0.001190236	3.675738e-09	-1.353585e-08	-0.1214662	-0.0286861	3.146664e-09	-4.962583e-08
	4.069596e-09	-1.694272e-07	0.01576733	0.001808226	3.146664e-09	-4.962583e-08	-0.1213852	-0.02682514
1.9e+08	-0.1246185	-0.01926525	-5.419418e-09	-4.903256e-08	0.01557099	-1.166751e-05	-2.398034e-08	-1.760589e-07
	-5.419418e-09	-4.903256e-08	-0.1245679	-0.01675496	-4.029334e-10	-1.403972e-08	0.01558487	0.0006461253
	0.01557099	-1.16675e-05	-4.029334e-10	-1.403972e-08	-0.1247655	-0.01845171	-5.444082e-09	-5.170092e-08
	-2.398034e-08	-1.760589e-07	0.01558487	0.0006461255	-5.444082e-09	-5.170092e-08	-0.1245429	-0.01645387
2e+08	-0.1263255	-0.00868919	-1.422965e-08	-4.953804e-08	0.01511807	-0.001149806	-5.401795e-08	-1.77822e-07
	-1.422965e-08	-4.953804e-08	-0.1260681	-0.00610448	-4.79543e-09	-1.381437e-08	0.01519012	-0.0004610508
	0.01511807	-0.001149806	-4.79543e-09	-1.381437e-08	-0.1264104	-0.007894471	-1.467308e-08	-5.225637e-08
	-5.401795e-08	-1.77822e-07	0.01519012	-0.0004610508	-1.467308e-08	-5.225637e-08	-0.1260262	-0.005785642
2.1e+08	-0.1263534	0.001947529	-2.338324e-08	-4.845567e-08	0.01446187	-0.00218933	-8.51787e-08	-1.742641e-07
	-2.338324e-08	-4.845567e-08	-0.125879	0.004574861	-9.370088e-09	-1.278926e-08	0.01459591	-0.001479579
	0.01446187	-0.00218933	-9.370088e-09	-1.278926e-08	-0.1263787	0.002719046	-2.426298e-08	-5.114737e-08
	-8.51787e-08	-1.742641e-07	0.01459591	-0.001479579	-2.426298e-08	-5.114737e-08	-0.125818	0.004908847
2.2e+08	-0.1247214	0.01237956	-3.258797e-08	-4.569695e-08	0.01362194	-0.00309826	-1.165082e-07	-1.650857e-07
	-3.258797e-08	-4.569695e-08	-0.1240253	0.01501504	-1.398152e-08	-1.091773e-08	0.01381999	-0.002378315
	0.01362194	-0.00309826	-1.398152e-08	-1.091773e-08	-0.12469	0.01312355	-3.390765e-08	-4.828072e-08
	-1.165082e-07	-1.650857e-07	0.01381999	-0.002378315	-3.390765e-08	-4.828072e-08	-0.1239437	0.01536113
2.3e+08	-0.1214897	0.02234897	-4.153354e-08	-4.122772e-08	0.01262252	-0.003848137	-1.469884e-07	-1.501571e-07
	-4.153354e-08	-4.122772e-08	-0.1205732	0.02495644	-1.847487e-08	-8.17941e-09	0.01288463	-0.003129309
	0.01262252	-0.003848137	-1.847487e-08	-8.17941e-09	-0.1214045	0.02306114	-4.328184e-08	-4.362004e-08
	-1.469884e-07	-1.501571e-07	0.01288463	-0.003129309	-4.328184e-08	-4.362004e-08	-0.12047	0.02531121
2.4e+08	-0.1167571	0.03161108	-4.990165e-08	-3.507134e-08	0.011492	-0.004414631	-1.755665e-07	-1.2953e-07
	-4.990165e-08	-3.507134e-08	-0.1156281	0.03415376	-2.269044e-08	-4.581869e-09	0.01181615	-0.003708373
	0.011492	-0.004414631	-2.269044e-08	-4.581869e-09	-0.1166214	0.03228719	-5.20517e-08	-3.718916e-08
	-1.755665e-07	-1.2953e-07	0.01181615	-0.003708373	-5.20517e-08	-3.718916e-08	-0.1155028	0.03451354
2.5e+08	-0.1106589	0.03994004	-5.737656e-08	-2.730996e-08	0.0102623	-0.004778091	-2.011862e-07	-1.034459e-07
	-5.737656e-08	-2.730996e-08	-0.1093319	0.04238175	-2.646856e-08	-1.615349e-10	0.01064435	-0.004095621
	0.0102623	-0.004778091	-2.646856e-08	-1.615349e-10	-0.1104766	0.04057599	-5.988579e-08	-2.90736e-08
	-2.011862e-07	-1.034459e-07	0.01064435	-0.004095621	-5.988579e-08	-2.90736e-08	-0.1091849	0.04274272
2.6e+08	-0.1033638	0.04713404	-6.365582e-08	-1.808404e-08	0.008968256	-0.004924048	-2.228203e-07	-7.233819e-08
	-6.365582e-08	-1.808404e-08	-0.1018599	0.04944041	-2.965462e-08	5.016196e-09	0.009401961	-0.004275958
	0.008968256	-0.004924048	-2.965462e-08	5.016196e-09	-0.103139	0.04772588	-6.646633e-08	-1.942006e-08
	-2.228203e-07	-7.233819e-08	0.009401961	-0.004275958	-6.646633e-08	-1.942006e-08	-0.1016921	0.04979874
2.7e+08	-0.09506948	0.05302006	-6.846075e-08	-7.589798e-09	0.007646833	-0.004843665	-2.395054e-07	-3.683031e-08
	-6.846075e-08	-7.589798e-09	-0.09341644	0.05515976	-3.210413e-08	1.085766e-08	0.008123977	-0.004239537
	0.007646833	-0.004843665	-3.210413e-08	1.085766e-08	-0.09480686	0.05356409	-7.150023e-08	-8.433952e-09
	-2.395054e-07	-3.683031e-08	0.008123977	-0.004239537	-7.150023e-08	-8.433952e-09	-0.09322956	0.05551174
2.8e+08	-0.08599861	0.05745806	-7.154647e-08	3.925061e-09	0.006336349	-0.004534115	-2.503754e-07	2.273148e-09
	-7.154647e-08	3.925061e-09	-0.08422999	0.05940401	-3.368768e-08	1.724247e-08	0.006846889	-0.003982152
	0.006336349	-0.004534115	-3.368768e-08	1.724247e-08	-0.08570333	0.05795096	-7.472969e-08	3.625032e-09
	-2.503754e-07	2.273148e-09	0.006846889	-0.003982152	-7.472969e-08	3.625032e-09	-0.08402645	0.0597462
2.9e+08	-0.07639322	0.06034456	-7.271109e-08	1.616739e-08	0.005075542	-0.00399886	-2.546959e-07	4.400059e-08
	-7.271109e-08	1.616739e-08	-0.07454795	0.06207509	-3.429577e-08	2.402583e-08	0.005607848	-0.00350555
	0.005075542	-0.00399886	-3.429577e-08	2.402583e-08	-0.07607094	0.06078343	-7.594188e-08	1.644919e-08
	-2.546959e-07	4.400059e-08	0.005607848	-0.00350555	-7.594188e-08	1.644919e-08	-0.07433087	0.06240443
3e+08	-0.06650912	0.06161542	-7.180379e-08	2.880622e-08	0.003902581	-0.003247813	-2.518958e-07	8.723424e-08
	-7.180379e-08	2.880622e-08	-0.06463059	0.06311529	-3.384324e-08	3.104177e-08	0.00444373	-0.002817633
	0.003902581	-0.003247813	-3.384324e-08	3.104177e-08	-0.06616598	0.06199796	-7.497762e-08	2.969075e-08
	-2.518958e-07	8.723424e-08	0.00444373	-0.002817633	-7.497762e-08	2.969075e-08	-0.06440366	0.06342924
3.1e+08	-0.05660967	0.06124784	-6.873153e-08	4.148173e-08	0.002853986	-0.002297348	-2.415969e-07	1.307372e-07
	-6.873153e-08	4.148173e-08	-0.05474457	0.06250917	-3.227329e-08	3.810709e-08	0.003390114	-0.001932519
	0.002853986	-0.002297348	-3.227329e-08	3.810709e-08	-0.0562522	0.06157239	-7.173851e-08	4.297131e-08
	-2.415969e-07	1.307372e-07	0.003390114	-0.001932519	-7.173851e-08	4.297131e-08	-0.054512	0.06280581
3.2e+08	-0.04695916	0.05926136	-6.34642e-08	5.381536e-08	0.001963511	-0.001170122	-2.236386e-07	1.731865e-07
	-6.34642e-08	5.381536e-08	-0.04515624	0.06028427	-2.956092e-08	4.502611e-08	0.002480204	-0.0008704212
	0.001963511	-0.001170122	-2.956092e-08	4.502611e-08	-0.04659424	0.05952703	-6.619251e-08	5.589249e-08
	-2.236386e-07	1.731865e-07	0.002480204	-0.0008704212	-6.619251e-08	5.589249e-08	-0.0449227	0.06056241
3.3e+08	-0.03781606	0.05571778	-5.603811e-08	6.542077e-08	0.001260996	0.0001053188	-1.980972e-07	2.132118e-07
	-5.603811e-08	6.542077e-08	-0.03612476	0.05651088	-2.571571e-08	5.159618e-08	0.001743719	0.00034267
	0.001260996	0.0001053188	-2.571571e-08	5.159618e-08	-0.0374508	0.05592454	-5.837759e-08	6.80475e-08
	-1.980972e-07	2.132118e-07	0.001743719	0.00034267	-5.837759e-08	6.80475e-08	-0.03589514	0.05677017
3.4e+08	-0.02942616	0.05072012	-4.656767e-08	7.593114e-08	0.0007712601	0.001495154	-1.652872e-07	2.494233e-07
	-4.656767e-08	7.593114e-08	-0.02789507	0.0513007	-2.078296e-08	5.761211e-08	0.001205809	0.001675534
	0.0007712601	0.001495154	-2.078296e-08	5.761211e-08	-0.0290678	0.05086884	-4.84133e-08	7.904913e-08
	-1.652872e-07	2.494233e-07	0.001205809	0.001675534	-4.84133e-08	7.904913e-08	-0.02767439	0.05154169
3.5e+08	-0.02201597	0.04441019	-3.521178e-08	8.496378e-08	0.0005130767	0.002961153	-1.258039e-07	2.804952e-07
	-3.521178e-08	8.496378e-08	-0.02069125	0.04480422	-1.484646e-08	6.287713e-08	0.0008860373	0.003092505
	0.0005130767	0.002961153	-1.484646e-08	6.287713e-08	-0.02167169	0.04450274	-3.646842e-08	8.849511e-08
	-1.258039e-07	2.804952e-07	0.0008860373	0.003092505	-3.646842e-08	8.849511e-08	-0.02048452	0.04502835
3.6e+08	-0.01578633	0.03696526	-2.220607e-08	9.217564e-08	0.0004982918	0.004461769	-8.048023e-08	3.051897e-07
	-2.220607e-08	9.217564e-08	-0.01471014	0.03720704	-8.025681e-09	6.720599e-08	0.0007974968	0.004554475
	0.0004982918	0.004461769	-8.025681e-09	6.720599e-08	-0.01546314	0.03700453	-2.279182e-08	9.60246e-08
	-8.048023e-08	3.051897e-07	0.0007974968	0.004554475	-2.279182e-08	9.60246e-08	-0.01452219	0.03741665
3.7e+08	-0.01090672	0.02859355	-7.848824e-09	9.726488e-08	0.0007311532	0.005953427	-3.038097e-08	3.224063e-07
	-7.848824e-09	9.726488e-08	-0.0101157	0.02872506	-4.747302e-10	7.043244e-08	0.000946123	0.006020116
	0.0007311532	0.005953427	-4.747302e-10	7.043244e-08	-0.01061127	0.02858338	-7.698395e-09	1.013203e-07
	-3.038097e-08	3.224063e-07	0.000946123	0.006020116	-7.698395e-09	1.013203e-07	-0.009951016	0.02892337
3.8e+08	-0.007510323	0.01952864	7.507088e-09	9.997903e-08	0.001207899	0.007391986	2.321907e-08	3.312293e-07
	7.507088e-09	9.997903e-08	-0.007034186	0.01959863	7.620609e-09	7.24162e-08	0.001330249	0.007447254
	0.001207899	0.007391986	7.620609e-09	7.24162e-08	-0.007248744	0.01947386	8.439453e-09	1.041175e-07
	2.321907e-08	3.312293e-07	0.001330249	0.007447254	8.439453e-09	1.041175e-07	-0.006896731	0.01978969
3.9e+08	-0.005690082	0.01002316	2.346229e-08	1.001248e-07	0.001916655	0.008734296	7.886901e-08	3.30969e-07
	2.346229e-08	1.001248e-07	-0.005550337	0.01008592	1.604732e-08	7.304915e-08	0.001940457	0.008794352
	0.001916655	0.008734296	1.604732e-08	7.304915e-08	-0.005467831	0.009929473	2.520049e-08	1.042141e-07
	7.886901e-08	3.30969e-07	0.001940457	0.008794352	2.520049e-08	1.042141e-07	-0.005443427	0.01027456
4e+08	-0.005495919	0.0003417046	3.958072e-08	9.757656e-08	0.002837657	0.009939777	1.349841e-07	3.211963e-07
	3.958072e-08	9.757656e-08	-0.005704852	0.0004556966	2.457087e-08	7.226073e-08	0.002759743	0.01002202
	0.002837657	0.009939777	2.457087e-08	7.226073e-08	-0.005317632	0.0002156086	4.212521e-08	1.014797e-07
	1.349841e-07	3.211963e-07	0.002759743	0.01002202	4.212521e-08	1.014797e-07	-0.005630998	0.0006473481
4.1e+08	-0.006933247	-0.00924659	5.540097e-08	9.228323e-08	0.003943824	0.01097195	1.898949e-07	3.017682e-07
	5.540097e-08	9.228323e-08	-0.007493134	-0.009020404	3.294211e-08	7.002234e-08	0.003764016	0.01109451
	0.003943824	0.01097195	3.294211e-08	7.002234e-08	-0.0068026	-0.009397943	5.872796e-08	9.586307e-08
	1.898949e-07	3.017682e-07	0.003764016	0.01109451	5.872796e-08	9.586307e-08	-0.007453925	-0.008819781
4.2e+08	-0.009962836	-0.01847572	7.044906e-08	8.427351e-08	0.00520165	0.01179983	2.419015e-07	2.728443e-07
	7.044906e-08	8.427351e-08	-0.01086546	-0.01807562	4.090506e-08	6.635041e-08	0.004922906	0.01198103
	0.00520165	0.01179983	4.090506e-08	6.635041e-08	-0.009882441	-0.01864466	7.451052e-08	8.739687e-08
	2.419015e-07	2.728443e-07	0.004922906	0.01198103	7.451052e-08	8.739687e-08	-0.01086147	-0.01785972
4.3e+08	-0.01450205	-0.02709035	8.425223e-08	7.365886e-08	0.006572376	0.0123991	2.893307e-07	2.348912e-07
	8.425223e-08	7.365886e-08	-0.01572855	-0.0264557	4.820536e-08	6.130785e-08	0.00620085	0.01265691
	0.006572376	0.0123991	4.820536e-08	6.130785e-08	-0.01447337	-0.02726887	8.897681e-08	7.620102e-08
	2.893307e-07	2.348912e-07	0.00620085	0.01265691	8.897681e-08	7.620102e-08	-0.01575927	-0.02621807
4.4e+08	-0.02042743	-0.034853	9.635356e-08	6.063407e-08	0.008013402	0.01275303	3.305934e-07	1.886765e-07
	9.635356e-08	6.063407e-08	-0.02194845	-0.03392614	5.459909e-08	5.500386e-08	0.007558398	0.0131045
	0.008013402	0.01275303	5.459909e-08	5.500386e-08	-0.0204507	-0.0350329	1.016483e-07	6.248291e-08
	3.305934e-07	1.886765e-07	0.007558398	0.0131045	1.016483e-07	6.248291e-08	-0.02201226	-0.03366033
4.5e+08	-0.02757845	-0.0415506	1.06327e-07	4.547526e-08	0.009479845	0.01285303	3.642401e-07	1.352507e-07
	1.06327e-07	4.547526e-08	-0.0293547	-0.0402787	5.986146e-08	4.759205e-08	0.008953676	0.01331375
	0.009479845	0.01285303	5.986146e-08	4.759205e-08	-0.02765271	-0.04172375	1.120796e-07	4.653495e-08
	3.642401e-07	1.352507e-07	0.008953676	0.01331375	1.120796e-07	4.653495e-08	-0.02944884	-0.03997847
4.6e+08	-0.03576244	-0.04700026	1.137921e-07	2.853508e-08	0.01092617	0.0126989	3.890117e-07	7.591907e-08
	1.137921e-07	2.853508e-08	-0.03774551	-0.04533701	6.379512e-08	3.926671e-08	0.01034391	0.01328244
	0.01092617	0.0126989	6.379512e-08	3.926671e-08	-0.03588549	-0.04715873	1.19874e-07	2.872933e-08
	3.890117e-07	7.591907e-08	0.01034391	0.01328244	1.19874e-07	2.872933e-08	-0.03786614	-0.04499655
4.7e+08	-0.04476028	-0.05105399	1.184281e-07	1.023503e-08	0.01230781	0.01229871	4.03884e-07	1.220449e-08
	1.184281e-07	1.023503e-08	-0.04689381	-0.04896123	6.623771e-08	3.025756e-08	0.01168696	0.01301615
	0.01230781	0.01229871	6.623771e-08	3.025756e-08	-0.04492875	-0.05119029	1.246984e-07	9.509694e-09
	4.03884e-07	1.220449e-08	0.01168696	0.01301615	1.246984e-07	9.509694e-09	-0.04703606	-0.04857533
4.8e+08	-0.05433285	-0.05360233	1.199872e-07	-8.944959e-09	0.01358271	0.01166837	4.081041e-07	-5.419794e-08
