!$
! Info: Touchstone file created by Circ.  Input file=Tx_8in_Rx_93ohms_TxVia_60mils_RxVia_70mils.circ
!$
# Hz S RI R 50
0	0.007438874	1.15484e-25	1.655213e-09	2.54004e-27	6.39099e-05	1.4527e-23	-1.42976e-10	6.348595e-26
	1.655227e-09	2.540044e-27	0.007434611	1.384184e-25	4.508407e-09	8.690924e-27	6.303628e-05	1.80735e-23
	6.304179e-05	1.446205e-23	4.508407e-09	8.690927e-27	0.007452679	1.167709e-25	3.722636e-09	2.686688e-27
	-1.426858e-10	6.345042e-26	6.3306e-05	1.815101e-23	3.722554e-09	2.686671e-27	0.00744908	1.378012e-25
1e+07	0.01066444	-0.0004048508	2.070162e-09	3.705842e-09	0.0002581596	0.00163001	-3.328105e-09	1.160566e-08
	2.070162e-09	3.705842e-09	0.01087871	-0.0004181899	6.418485e-09	1.322934e-08	0.0002548177	0.001624728
	0.000258144	0.001630023	6.418485e-09	1.322934e-08	0.01090006	-0.0004228374	-1.65953e-09	1.236715e-08
	-3.328105e-09	1.160566e-08	0.0002548201	0.001624725	-1.65953e-09	1.236715e-08	0.01067129	-0.0004225293
2e+07	0.01265596	-0.003446374	2.834127e-09	6.727314e-09	0.0006169673	0.003239164	1.644993e-09	3.800053e-09
	2.834127e-09	6.727315e-09	0.01279222	-0.003546097	8.475782e-09	2.355556e-08	0.0006075719	0.003230935
	0.0006169741	0.003239173	8.475782e-09	2.355556e-08	0.01283421	-0.003559465	-2.607754e-10	6.410448e-09
	1.644993e-09	3.800053e-09	0.0006075689	0.003230936	-2.607754e-10	6.410448e-09	0.01263508	-0.003479641
3e+07	0.01336086	-0.007500196	3.509159e-09	9.364914e-09	0.001291333	0.004681393	2.730662e-09	5.747509e-09
	3.509159e-09	9.364914e-09	0.01341627	-0.00762109	9.689912e-09	3.349481e-08	0.00125851	0.004677655
	0.001291333	0.004681393	9.689912e-09	3.349481e-08	0.01349099	-0.007650623	3.215246e-09	9.422994e-09
	2.730662e-09	5.747509e-09	0.00125851	0.004677657	3.215246e-09	9.422994e-09	0.01329573	-0.007539503
4e+07	0.01305061	-0.01182207	4.153217e-09	1.190865e-08	0.002215591	0.005955467	3.467822e-09	7.177883e-09
	4.153217e-09	1.190865e-08	0.0130191	-0.01193771	1.06457e-08	4.333371e-08	0.00216238	0.005960096
	0.002215589	0.005955468	1.06457e-08	4.333371e-08	0.01313683	-0.01199352	3.909874e-09	1.219121e-08
	3.467822e-09	7.177883e-09	0.002162381	0.005960097	3.909874e-09	1.219121e-08	0.0129265	-0.01185595
5e+07	0.01184461	-0.01613413	4.778393e-09	1.433521e-08	0.003319785	0.007042574	4.154583e-09	8.42883e-09
	4.778393e-09	1.433521e-08	0.01172175	-0.01622132	1.137969e-08	5.313324e-08	0.003243603	0.007061246
	0.003319784	0.007042575	1.137969e-08	5.313324e-08	0.01189001	-0.01631672	4.323213e-09	1.472873e-08
	4.154583e-09	8.42883e-09	0.003243604	0.007061246	4.323213e-09	1.472873e-08	0.01164929	-0.01614711
6e+07	0.009834756	-0.02024841	5.36502e-09	1.66341e-08	0.00457061	0.007917807	4.803708e-09	9.517517e-09
	5.36502e-09	1.66341e-08	0.009619576	-0.02028469	1.193659e-08	6.294639e-08	0.004470106	0.007956726
	0.004570608	0.007917806	1.193659e-08	6.294639e-08	0.009842041	-0.02043476	4.650771e-09	1.719138e-08
	4.803708e-09	9.517517e-09	0.004470107	0.007956726	4.650771e-09	1.719138e-08	0.0095601	-0.02022239
7e+07	0.007111393	-0.02401851	5.88544e-09	1.881055e-08	0.005930249	0.008561112	5.388403e-09	1.044958e-08
	5.88544e-09	1.881055e-08	0.006806642	-0.0239821	1.235829e-08	7.282129e-08	0.005805427	0.0086268
	0.005930245	0.008561111	1.235829e-08	7.282129e-08	0.007083291	-0.02420251	4.927515e-09	1.961326e-08
	5.388403e-09	1.044958e-08	0.005805429	0.008626799	4.927515e-09	1.961326e-08	0.00675335	-0.02393413
8e+07	0.003771309	-0.02732516	6.311728e-09	2.088031e-08	0.00735767	0.008958615	5.874613e-09	1.124004e-08
	6.311728e-09	2.088031e-08	0.003383488	-0.02719501	1.268572e-08	8.279558e-08	0.007209969	0.009057652
	0.007357665	0.008958614	1.268572e-08	8.279558e-08	0.003710836	-0.02750141	5.164764e-09	2.200287e-08
	5.874612e-09	1.124004e-08	0.00720997	0.009057651	5.164764e-09	2.200287e-08	0.003329699	-0.02716238
9e+07	-7.913911e-05	-0.03007056	6.618387e-09	2.286778e-08	0.008809854	0.009103306	6.216624e-09	1.191573e-08
	6.618387e-09	2.286778e-08	-0.0005394549	-0.02982641	1.294942e-08	9.288919e-08	0.008642184	0.009242089
	0.008809851	0.009103306	1.294942e-08	9.288919e-08	-0.0001683123	-0.03023393	5.359031e-09	2.435635e-08
	6.216624e-09	1.191573e-08	0.008642184	0.009242088	5.359031e-09	2.435635e-08	-0.000600487	-0.02980908
1e+08	-0.004313828	-0.03216791	6.749834e-09	2.480247e-08	0.01024283	0.008994866	6.299727e-09	1.255044e-08
	6.749834e-09	2.480248e-08	-0.004829804	-0.03178905	1.311548e-08	1.030774e-07	0.01005979	0.009179541
	0.01024283	0.008994866	1.311548e-08	1.030774e-07	-0.004425154	-0.03231163	5.482143e-09	2.666708e-08
	6.299727e-09	1.255044e-08	0.01005979	0.009179541	5.482143e-09	2.666708e-08	-0.004906702	-0.03178778
1.1e+08	-0.008792739	-0.03364665	6.811167e-09	2.671911e-08	0.0116115	0.008644473	6.288813e-09	1.316225e-08
	6.811167e-09	2.671911e-08	-0.009339364	-0.03312993	1.335301e-08	1.134499e-07	0.01141945	0.00887871
	0.0116115	0.008644473	1.335301e-08	1.134499e-07	-0.008915596	-0.03377923	5.488409e-09	2.902065e-08
	6.288813e-09	1.316225e-08	0.01141945	0.00887871	5.488409e-09	2.902065e-08	-0.009443346	-0.03313094
1.2e+08	-0.013481	-0.0344373	6.73774e-09	2.861987e-08	0.01287915	0.008067292	6.099121e-09	1.373007e-08
	6.73774e-09	2.861987e-08	-0.01404593	-0.0337759	1.367756e-08	1.239684e-07	0.01268384	0.008354447
	0.01287915	0.008067292	1.367756e-08	1.239684e-07	-0.01361967	-0.03456114	5.416032e-09	3.138577e-08
	6.099121e-09	1.373007e-08	0.01268383	0.008354448	5.416032e-09	3.138576e-08	-0.01417359	-0.03377068
1.3e+08	-0.01824331	-0.03450598	6.516953e-09	3.053964e-08	0.01400842	0.007284091	5.723342e-09	1.431225e-08
	6.516953e-09	3.053964e-08	-0.01880919	-0.0336931	1.412355e-08	1.346293e-07	0.01381678	0.007626685
	0.01400842	0.007284091	1.412355e-08	1.346293e-07	-0.01839937	-0.03462013	5.259184e-09	3.378723e-08
	5.723342e-09	1.431225e-08	0.01381678	0.007626686	5.259184e-09	3.378723e-08	-0.01895852	-0.03367612
1.4e+08	-0.02295652	-0.03385202	6.148422e-09	3.250923e-08	0.0149665	0.006322217	5.161601e-09	1.49486e-08
	6.148422e-09	3.250923e-08	-0.0235035	-0.03288376	1.472791e-08	1.454177e-07	0.01478624	0.006721467
	0.0149665	0.006322217	1.472791e-08	1.454177e-07	-0.02313068	-0.03395463	5.022129e-09	3.62437e-08
	5.161601e-09	1.49486e-08	0.01478623	0.006721468	5.022129e-09	3.62437e-08	-0.02367219	-0.03285037
1.5e+08	-0.02750293	-0.03249589	5.639538e-09	3.455321e-08	0.01572588	0.005214153	4.418147e-09	1.56729e-08
	5.639538e-09	3.455321e-08	-0.0280097	-0.031372	1.552406e-08	1.563111e-07	0.01556515	0.005669786
	0.01572588	0.005214153	1.552406e-08	1.563111e-07	-0.02769526	-0.03258468	4.714518e-09	3.876667e-08
	4.418147e-09	1.56729e-08	0.01556515	0.005669787	4.714518e-09	3.876667e-08	-0.02819496	-0.03131825
1.6e+08	-0.03177202	-0.03047686	4.995757e-09	3.672585e-08	0.01626512	0.003996462	3.512315e-09	1.653594e-08
	4.995757e-09	3.672585e-08	-0.03221664	-0.02920115	1.654166e-08	1.672803e-07	0.01613221	0.004506607
	0.01626512	0.003996462	1.654166e-08	1.672803e-07	-0.03198205	-0.03054931	4.341623e-09	4.139664e-08
	3.512315e-09	1.653594e-08	0.01613221	0.004506607	4.341623e-09	4.139664e-08	-0.03241519	-0.02912375
1.7e+08	-0.03566267	-0.02785108	4.238882e-09	3.906287e-08	0.01656934	0.002708673	2.467895e-09	1.75726e-08
	4.238882e-09	3.906287e-08	-0.03602343	-0.02643157	1.780423e-08	1.782905e-07	0.01647236	0.003269815
	0.01656934	0.002708673	1.780423e-08	1.782905e-07	-0.03588933	-0.02790459	3.922334e-09	4.415567e-08
	2.467895e-09	1.75726e-08	0.01647236	0.003269815	3.922334e-09	4.415567e-08	-0.03623156	-0.02632792
1.8e+08	-0.0390852	-0.02468954	3.399193e-09	4.159674e-08	0.01663062	0.00139211	1.315038e-09	1.881346e-08
	3.399193e-09	4.159674e-08	-0.0393415	-0.02313851	1.932876e-08	1.893021e-07	0.01657715	0.001999112
	0.01663062	0.00139211	1.932876e-08	1.893021e-07	-0.03932692	-0.02472156	3.481391e-09	4.706304e-08
	1.315038e-09	1.881346e-08	0.01657715	0.001999112	3.481391e-09	4.706304e-08	-0.03955517	-0.02300676
1.9e+08	-0.0419633	-0.02107595	2.515028e-09	4.435449e-08	0.01644816	8.868828e-05	8.954068e-11	2.028386e-08
	2.515028e-09	4.435449e-08	-0.04209648	-0.01940973	2.112486e-08	2.002719e-07	0.01644496	0.00073488
	0.01644816	8.868829e-05	2.112486e-08	2.002719e-07	-0.042218	-0.0210841	3.049058e-09	5.013354e-08
	8.954068e-11	2.028386e-08	0.01644496	0.0007348801	3.049058e-09	5.013354e-08	-0.04231141	-0.01924879
2e+08	-0.04423554	-0.01710435	1.631765e-09	4.735562e-08	0.0160282	-0.001160277	-1.168017e-09	2.200292e-08
	1.631765e-09	4.735562e-08	-0.04422969	-0.01534299	2.319411e-08	2.111547e-07	0.0160809	-0.0004829514
	0.0160282	-0.001160277	2.319411e-08	2.111547e-07	-0.04450069	-0.0170865	2.660298e-09	5.337593e-08
	-1.168017e-09	2.200292e-08	0.0160809	-0.0004829513	2.660298e-09	5.337593e-08	-0.04444151	-0.01515258
2.1e+08	-0.04585661	-0.01287657	8.002507e-10	5.061029e-08	0.01538385	-0.002315229	-2.413258e-09	2.398278e-08
	8.002507e-10	5.061029e-08	-0.04569929	-0.0110434	2.552957e-08	2.219038e-07	0.01549666	-0.001616008
	0.01538385	-0.00231523	2.552957e-08	2.219038e-07	-0.04612929	-0.01283092	2.35346e-09	5.679143e-08
	-2.413258e-09	2.398278e-08	0.01549666	-0.001616008	2.35346e-09	5.679143e-08	-0.04590366	-0.01082399
2.2e+08	-0.04679813	-0.008499629	7.471588e-11	5.411776e-08	0.01453462	-0.003339471	-3.599115e-09	2.622792e-08
	7.471588e-11	5.411776e-08	-0.04648102	-0.006620548	2.811543e-08	2.324733e-07	0.0147101	-0.002628516
	0.01453462	-0.003339471	2.811543e-08	2.324733e-07	-0.04707505	-0.008424803	2.16854e-09	6.037266e-08
	-3.599115e-09	2.622792e-08	0.0147101	-0.002628516	2.16854e-09	6.037266e-08	-0.04667374	-0.006373417
2.3e+08	-0.04704904	-0.004082988	-4.897172e-10	5.78655e-08	0.01350583	-0.004200165	-4.677059e-09	2.873461e-08
	-4.897172e-10	5.78655e-08	-0.04656846	-0.002185791	3.092696e-08	2.428193e-07	0.01374473	-0.003488259
	0.01350583	-0.004200165	3.092696e-08	2.428193e-07	-0.04732664	-0.003978075	2.145098e-09	6.410299e-08
	-4.677059e-09	2.873461e-08	0.01374473	-0.003488259	2.145098e-09	6.410299e-08	-0.04674564	-0.001912933
2.4e+08	-0.04661572	0.0002641357	-8.397558e-10	6.182881e-08	0.01232794	-0.004869227	-5.598438e-09	3.14905e-08
	-8.397558e-10	6.182881e-08	-0.045973	0.002150634	3.393078e-08	2.529017e-07	0.01262904	-0.00416744
	0.01232794	-0.004869227	3.393078e-08	2.529017e-07	-0.04689023	0.0003995182	2.319999e-09	6.795643e-08
	-5.598438e-09	3.14905e-08	0.01262904	-0.004167441	2.319999e-09	6.795643e-08	-0.04613114	0.002446549
2.5e+08	-0.04552152	0.004435448	-9.268364e-10	6.597118e-08	0.01103563	-0.00532409	-6.315923e-09	3.447449e-08
	-9.268364e-10	6.597118e-08	-0.04472323	0.006282315	3.708529e-08	2.626859e-07	0.01139568	-0.004643421
	0.01103563	-0.00532409	3.708529e-08	2.626859e-07	-0.04578906	0.004601114	2.725011e-09	7.189813e-08
	-6.315923e-09	3.447449e-08	0.01139568	-0.004643421	2.725011e-09	7.189813e-08	-0.04485935	0.006598024
2.6e+08	-0.04380607	0.008330137	-6.603835e-10	7.026952e-08	0.009666851	-0.005548314	-6.785812e-09	3.765571e-08
	-6.603835e-10	7.026952e-08	-0.0428641	0.01010932	4.035416e-08	2.721579e-07	0.01008057	-0.004899314
	0.009666851	-0.005548314	4.035416e-08	2.721579e-07	-0.04406275	0.008525349	3.43454e-09	7.590977e-08
	-6.785812e-09	3.765571e-08	0.01008057	-0.004899314	3.43454e-09	7.590977e-08	-0.04297582	0.01044102
2.7e+08	-0.04152414	0.01185529	-3.971253e-11	7.463042e-08	0.008261777	-0.005532037	-6.96785e-09	4.099697e-08
	-3.971253e-11	7.463042e-08	-0.04045555	0.01354051	4.367755e-08	2.81281e-07	0.008721934	-0.004924442
	0.008261777	-0.005532037	4.367755e-08	2.81281e-07	-0.0417661	0.01207868	4.433002e-09	7.990547e-08
	-6.96785e-09	4.099697e-08	0.008721934	-0.004924442	4.433002e-09	7.990547e-08	-0.04054118	0.01388406
2.8e+08	-0.03874415	0.01492811	9.430861e-10	7.898248e-08	0.006861699	-0.005272254	-6.827853e-09	4.445241e-08
	9.430862e-10	7.898248e-08	-0.03757091	0.01649585	4.699271e-08	2.900418e-07	0.007359235	-0.004714621
	0.006861699	-0.005272254	4.699271e-08	2.900418e-07	-0.03896771	0.0151777	5.713506e-09	8.382443e-08
	-6.827853e-09	4.445241e-08	0.007359235	-0.004714621	5.713506e-09	8.382443e-08	-0.0376295	0.01684683
2.9e+08	-0.03554643	0.01747787	2.289322e-09	8.325649e-08	0.00550788	-0.004772917	-6.339318e-09	4.79689e-08
	2.289322e-09	8.325649e-08	-0.03429492	0.01890824	5.023549e-08	2.984412e-07	0.006032111	-0.00427229
	0.00550788	-0.004772917	5.023549e-08	2.984412e-07	-0.03574817	0.0177511	7.264395e-09	8.761075e-08
	-6.339318e-09	4.79689e-08	0.006032111	-0.00427229	7.264395e-09	8.761075e-08	-0.03432634	0.01926211
3e+08	-0.03202113	0.01944756	3.985947e-09	8.738333e-08	0.004240413	-0.004044846	-5.484806e-09	5.148753e-08
	3.985947e-09	8.738333e-08	-0.03072156	0.02072515	5.3341e-08	3.064921e-07	0.004779286	-0.003606458
	0.004240413	-0.004044846	5.3341e-08	3.064921e-07	-0.03219798	0.01974131	9.061902e-09	9.121107e-08
	-5.484806e-09	5.148753e-08	0.004779286	-0.003606458	9.061902e-09	9.121107e-08	-0.03072645	0.02107739
3.1e+08	-0.02826594	0.02079524	6.005906e-09	9.129715e-08	0.003097093	-0.003105472	-4.257244e-09	5.494509e-08
	6.005906e-09	9.129715e-08	-0.02695159	0.02190982	5.624595e-08	3.142196e-07	0.003637506	-0.002732486
	0.003097093	-0.003105472	5.624595e-08	3.142196e-07	-0.02841529	0.02110591	1.107093e-08	9.45773e-08
	-4.257244e-09	5.494509e-08	0.003637506	-0.002732486	1.107093e-08	9.45773e-08	-0.02693138	0.02225603
3.2e+08	-0.02438367	0.02149496	8.309156e-09	9.493831e-08	0.00211235	-0.001978379	-2.660962e-09	5.827598e-08
	8.309156e-09	9.493831e-08	-0.02308996	0.02244206	5.889107e-08	3.21661e-07	0.002640506	-0.001671697
	0.00211235	-0.001978379	5.889107e-08	3.21661e-07	-0.02450346	0.02181852	1.324646e-08	9.766912e-08
	-2.660962e-09	5.827598e-08	0.002640506	-0.001671697	1.324646e-08	9.766912e-08	-0.02304684	0.02277813
3.3e+08	-0.02047965	0.02153738	1.084437e-08	9.825596e-08	0.001316252	-0.0006926942	-7.123928e-10	6.141428e-08
	1.084437e-08	9.825596e-08	-0.01924315	0.02231869	6.122351e-08	3.288649e-07	0.001818057	-0.000450818
	0.001316252	-0.0006926942	6.122351e-08	3.288649e-07	-0.0205684	0.02186943	1.553552e-08	1.004561e-07
	-7.123928e-10	6.141428e-08	0.001818057	-0.0004508179	1.553552e-08	1.004561e-07	-0.01918001	0.02264092
3.4e+08	-0.01665908	0.0209299	1.355116e-08	1.012101e-07	0.0007336218	0.0007176951	1.559651e-09	6.429611e-08
	1.355116e-08	1.012101e-07	-0.01551645	0.02155353	6.319899e-08	3.358901e-07	0.001195098	0.0008987307
	0.0007336218	0.0007176951	6.319899e-08	3.358901e-07	-0.01671601	0.0212658	1.787964e-08	1.029189e-07
	1.559651e-09	6.429611e-08	0.001195098	0.0008987307	1.787964e-08	1.029189e-07	-0.01543682	0.02185873
3.5e+08	-0.01302447	0.01969641	1.636262e-08	1.037731e-07	0.0003832818	0.002215064	4.114167e-09	6.686202e-08
	1.636262e-08	1.037731e-07	-0.01201129	0.02017695	6.47838e-08	3.428035e-07	0.000791002	0.002341682
	0.0003832818	0.002215064	6.47838e-08	3.428035e-07	-0.0130495	0.02003138	2.021745e-08	1.050507e-07
	4.114167e-09	6.686202e-08	0.000791002	0.002341682	2.021745e-08	1.050507e-07	-0.01191922	0.02046256
3.6e+08	-0.009672985	0.01787668	1.920805e-08	1.059303e-07	0.0002774592	0.003758891	6.898674e-09	6.905947e-08
	1.920805e-08	1.059303e-07	-0.008822671	0.01823502	6.595625e-08	3.496786e-07	0.000618973	0.003839894
	0.0002774592	0.003758891	6.595625e-08	3.496786e-07	-0.009666788	0.01820588	2.248747e-08	1.068567e-07
	6.898674e-09	6.905947e-08	0.000618973	0.003839894	2.248747e-08	1.068567e-07	-0.008722639	0.01849919
3.7e+08	-0.006694102	0.01552524	2.201569e-08	1.076804e-07	0.0004213687	0.005307005	9.850436e-09	7.084513e-08
	2.201569e-08	1.076804e-07	-0.006036756	0.01578826	6.670789e-08	3.56593e-07	0.0006856201	0.005353415
	0.0004213687	0.005307005	6.670789e-08	3.56593e-07	-0.006658121	0.01584392	2.463064e-08	1.08354e-07
	9.850436e-09	7.084513e-08	0.0006856202	0.005353415	2.463064e-08	1.08354e-07	-0.005933552	0.01602993
3.8e+08	-0.004167339	0.01271001	2.471521e-08	1.090349e-07	0.0008129919	0.006816784	1.289819e-08	7.218692e-08
	2.471521e-08	1.090349e-07	-0.003728708	0.01291003	6.704408e-08	3.636256e-07	0.0009907093	0.006841619
	0.0008129919	0.006816784	6.704408e-08	3.636256e-07	-0.004103767	0.01301364	2.659265e-08	1.095703e-07
	1.289819e-08	7.218692e-08	0.0009907093	0.006841619	2.659265e-08	1.095703e-07	-0.003627278	0.01312897
3.9e+08	-0.002160287	0.009510537	2.723997e-08	1.10017e-07	0.001443064	0.008246396	1.596433e-08	7.306576e-08
	2.723997e-08	1.10017e-07	-0.001960791	0.009684569	6.698412e-08	3.708547e-07	0.001527112	0.008264374
	0.001443064	0.008246396	6.698412e-08	3.708547e-07	-0.002072047	0.009794901	2.832579e-08	1.105426e-07
	1.596433e-08	7.306576e-08	0.001527112	0.008264374	2.832579e-08	1.105426e-07	-0.001866106	0.0098814
4e+08	-0.0007269359	0.006015918	2.95288e-08	1.106608e-07	0.002295276	0.009556038	1.896742e-08	7.347684e-08
	2.95288e-08	1.106608e-07	-0.00078083	0.006204799	6.656094e-08	3.783546e-07	0.002280958	0.009583217
	0.002295276	0.009556038	6.656094e-08	3.783546e-07	-0.0006176275	0.006277257	2.979031e-08	1.113153e-07
	1.896742e-08	7.347684e-08	0.002280958	0.009583217	2.979031e-08	1.113153e-07	-0.000697735	0.006381005
4.1e+08	9.365186e-05	0.002322541	3.152738e-08	1.110091e-07	0.003346687	0.01070912	2.182499e-08	7.343028e-08
	3.152738e-08	1.110091e-07	-0.0002210325	0.00256987	6.582024e-08	3.861942e-07	0.003231987	0.01076249
	0.003346687	0.01070912	6.582024e-08	3.861942e-07	0.0002198195	0.002557659	3.095528e-08	1.119382e-07
	2.182499e-08	7.343028e-08	0.003231987	0.01076249	3.095528e-08	1.119382e-07	-0.0001541026	0.002727759
4.2e+08	0.0002782845	-0.001468398	3.318923e-08	1.111125e-07	0.004568341	0.01167337	2.445643e-08	7.295131e-08
	3.318923e-08	1.111125e-07	-0.0002972306	-0.001117423	6.48193e-08	3.944341e-07	0.004354099	0.01177041
	0.004568341	0.01167337	6.48193e-08	3.944341e-07	0.00041658	-0.001262035	3.179889e-08	1.124648e-07
	2.445643e-08	7.295131e-08	0.004354099	0.01177041	3.179889e-08	1.124648e-07	-0.0002506313	-0.0009747646
4.3e+08	-0.0001798224	-0.005253481	3.447626e-08	1.110278e-07	0.005926081	0.01242184	2.678585e-08	7.207974e-08
	3.447626e-08	1.110278e-07	-0.001008544	-0.004753323	6.362543e-08	4.031252e-07	0.005616086	0.01258003
	0.005926081	0.01242184	6.362543e-08	4.031252e-07	-3.454607e-05	-0.005077654	3.230832e-08	1.129503e-07
	2.678585e-08	7.207974e-08	0.005616086	0.01258003	3.230832e-08	1.129503e-07	-0.0009858988	-0.004622102
4.4e+08	-0.001270931	-0.008929701	3.535914e-08	1.108165e-07	0.007381518	0.01293374	2.874484e-08	7.086892e-08
	3.535914e-08	1.108165e-07	-0.00233748	-0.008235793	6.231419e-08	4.12307e-07	0.006982528	0.01317005
	0.007381518	0.01293374	6.231419e-08	4.12307e-07	-0.001124117	-0.008785369	3.247942e-08	1.134506e-07
	2.874484e-08	7.086892e-08	0.006982528	0.01317005	3.247942e-08	1.134506e-07	-0.002341755	-0.008111607
4.5e+08	-0.002969087	-0.01239708	3.581745e-08	1.105437e-07	0.008893146	0.0131951	3.027488e-08	6.938416e-08
	3.581745e-08	1.105437e-07	-0.004250471	-0.01146715	6.096739e-08	4.220066e-07	0.008414815	0.01352548
	0.008893146	0.0131951	6.096739e-08	4.220066e-07	-0.00282634	-0.01228432	3.231602e-08	1.140208e-07
	3.027488e-08	6.938416e-08	0.008414815	0.01352548	3.231602e-08	1.140208e-07	-0.004283873	-0.0113451
4.6e+08	-0.005232833	-0.01556118	3.583984e-08	1.102776e-07	0.01041756	0.01319923	3.132939e-08	6.770072e-08
	3.583984e-08	1.102776e-07	-0.006698818	-0.01435657	5.967103e-08	4.322377e-07	0.009872278	0.01363814
	0.01041756	0.01319923	5.967103e-08	4.322377e-07	-0.005099784	-0.01547918	3.182939e-08	1.147145e-07
	3.132939e-08	6.770072e-08	0.009872278	0.01363814	3.182939e-08	1.147145e-07	-0.006762695	-0.01423143
4.7e+08	-0.008006328	-0.01833553	3.542426e-08	1.10088e-07	0.01191074	0.01294693	3.18753e-08	6.590141e-08
	3.542426e-08	1.10088e-07	-0.009620025	-0.0168224	5.85132e-08	4.430003e-07	0.01131339	0.01350686
	0.01191074	0.01294693	5.85132e-08	4.430003e-07	-0.007888482	-0.01828253	3.103772e-08	1.155837e-07
	3.18753e-08	6.590141e-08	0.01131339	0.01350686	3.103772e-08	1.155837e-07	-0.009714854	-0.0166887
4.8e+08	-0.01122083	-0.02064366	3.457823e-08	1.100462e-07	0.01332933	0.01244654	3.189414e-08	6.407405e-08
	3.457823e-08	1.100462e-07	-0.01293948	-0.01879419	5.758201e-08	4.542803e-07	0.01269698	0.01313756
