!$
! Info: Touchstone file created by Circ.  Input file=Tx_8in_Rx_93ohms_TxVia_60mils_RxVia_70mils.circ
!$
# Hz S RI R 50
0	0.007439334	1.1852e-25	-4.330914e-05	7.511099e-24	6.283108e-05	1.46426e-23	-4.334535e-05	1.205735e-23
	-4.330913e-05	7.510549e-24	0.007434611	1.384184e-25	-4.327171e-05	3.027137e-24	6.303628e-05	1.80735e-23
	6.381254e-05	1.489927e-23	-4.32717e-05	3.026182e-24	0.007453361	1.134885e-25	-4.330339e-05	7.018556e-24
	-4.334534e-05	1.205635e-23	6.3306e-05	1.815101e-23	-4.330339e-05	7.019052e-24	0.00744908	1.378012e-25
1e+07	0.01104345	6.270142e-05	-0.0002130703	-5.573169e-05	0.0002471782	0.001495642	-0.0001184153	0.0001010169
	-0.0002130703	-5.573169e-05	0.01087871	-0.0004181899	-2.738039e-06	-6.62914e-06	0.0002548177	0.001624728
	0.0002471874	0.00149561	-2.738041e-06	-6.629137e-06	0.01029547	-0.0003392669	-1.200338e-05	3.902247e-07
	-0.0001184153	0.0001010169	0.0002548201	0.001624725	-1.200338e-05	3.902226e-07	0.01067129	-0.0004225293
2e+07	0.01344034	-0.002845211	-0.0002182044	4.598818e-06	0.0006894785	0.002992551	-0.000146624	0.0001174815
	-0.0002182044	4.598817e-06	0.01279222	-0.003546097	-3.451006e-06	-3.970416e-06	0.0006075719	0.003230935
	0.0006894516	0.00299255	-3.451004e-06	-3.970416e-06	0.01244566	-0.00321091	-4.254047e-06	-2.134326e-05
	-0.000146624	0.0001174815	0.0006075689	0.003230936	-4.25405e-06	-2.134326e-05	0.01263508	-0.003479641
3e+07	0.0144525	-0.00694911	-0.0002203467	3.740263e-05	0.001359608	0.004390799	-0.0001621397	0.0001365923
	-0.0002203467	3.740263e-05	0.01341627	-0.00762109	-7.992674e-06	-5.65263e-06	0.00125851	0.004677655
	0.001359606	0.004390803	-7.992674e-06	-5.65263e-06	0.01327461	-0.007230712	-1.705615e-05	-2.552065e-05
	-0.0001621397	0.0001365923	0.00125851	0.004677657	-1.705615e-05	-2.552065e-05	0.01329573	-0.007539503
4e+07	0.01438259	-0.01140216	-0.0002191275	6.710156e-05	0.002240996	0.005652292	-0.0001705136	0.000152912
	-0.0002191275	6.710156e-05	0.0130191	-0.01193771	-1.164099e-05	-5.167047e-06	0.00216238	0.005960096
	0.002240995	0.005652288	-1.164099e-05	-5.167047e-06	0.01306711	-0.01156052	-2.830177e-05	-2.495192e-05
	-0.0001705136	0.000152912	0.002162381	0.005960097	-2.830177e-05	-2.495192e-05	0.0129265	-0.01185595
5e+07	0.01335843	-0.01589827	-0.0002152752	9.443471e-05	0.003307316	0.006742233	-0.0001743214	0.0001659695
	-0.0002152752	9.443471e-05	0.01172175	-0.01622132	-1.454046e-05	-3.525202e-06	0.003243603	0.007061246
	0.003307313	0.006742231	-1.454046e-05	-3.525202e-06	0.01194535	-0.01590609	-3.812442e-05	-2.130573e-05
	-0.0001743214	0.0001659695	0.003243604	0.007061246	-3.812442e-05	-2.130573e-05	0.01164929	-0.01614711
6e+07	0.01147452	-0.02023348	-0.0002162629	0.0001063799	0.004526136	0.007631798	-0.0001755157	0.0001754314
	-0.0002162629	0.0001063799	0.009619576	-0.02028469	-1.678305e-05	-1.065579e-06	0.004470106	0.007956726
	0.004526137	0.007631801	-1.678305e-05	-1.06558e-06	0.01000181	-0.02007176	-4.645184e-05	-1.525746e-05
	-0.0001755157	0.0001754314	0.004470107	0.007956726	-4.645184e-05	-1.525746e-05	0.0095601	-0.02022239
7e+07	0.00882163	-0.02425022	-0.0002166227	0.0001189519	0.005860691	0.008298692	-0.0001758207	0.0001809083
	-0.0002166227	0.0001189519	0.006806642	-0.0239821	-1.831605e-05	1.971395e-06	0.005805427	0.0086268
	0.0058607	0.008298698	-1.831605e-05	1.971395e-06	0.007326656	-0.0239063	-5.309737e-05	-7.197664e-06
	-0.0001758207	0.0001809083	0.005805429	0.008626799	-5.309737e-05	-7.197664e-06	0.00675335	-0.02393413
8e+07	0.005495358	-0.02782118	-0.0002164775	0.0001318775	0.007271323	0.008727758	-0.0001771676	0.0001820525
	-0.0002164775	0.0001318775	0.003383488	-0.02719501	-1.909801e-05	5.462079e-06	0.007209969	0.009057652
	0.007271336	0.00872776	-1.909801e-05	5.462079e-06	0.004015989	-0.027287	-5.779234e-05	2.602198e-06
	-0.0001771676	0.0001820525	0.00720997	0.009057651	-5.779234e-05	2.602197e-06	0.003329699	-0.02716238
9e+07	0.001597582	-0.03084439	-0.000216162	0.0001447598	0.008717364	0.008911893	-0.0001821138	0.0001782493
	-0.000216162	0.0001447598	-0.0005394549	-0.02982641	-1.902701e-05	9.354652e-06	0.008642184	0.009242089
	0.008717375	0.008911893	-1.902701e-05	9.354653e-06	0.0001745567	-0.030114	-6.013674e-05	1.398724e-05
	-0.0001821138	0.0001782493	0.008642184	0.009242088	-6.013674e-05	1.398724e-05	-0.000600487	-0.02980908
1e+08	-0.002775065	-0.03325112	-0.0002175363	0.0001559146	0.01016458	0.008858182	-0.0001978603	0.0001649649
	-0.0002175363	0.0001559146	-0.004829804	-0.03178905	-1.761634e-05	1.392616e-05	0.01005979	0.009179541
	0.01016458	0.008858181	-1.761634e-05	1.392616e-05	-0.004080433	-0.03230526	-5.886264e-05	2.756497e-05
	-0.0001978603	0.0001649649	0.01005979	0.009179541	-5.886264e-05	2.756497e-05	-0.004906702	-0.03178778
1.1e+08	-0.007526501	-0.03488947	-0.0002120446	0.0001615256	0.01152761	0.008589632	-0.0001982374	0.0001317432
	-0.0002120446	0.0001615256	-0.009339364	-0.03312993	-1.427285e-05	1.652673e-05	0.01141945	0.00887871
	0.01152761	0.008589632	-1.427285e-05	1.652673e-05	-0.00862171	-0.03383533	-5.244758e-05	3.694964e-05
	-0.0001982374	0.0001317432	0.01141945	0.00887871	-5.244758e-05	3.694964e-05	-0.009443346	-0.03313094
1.2e+08	-0.01244109	-0.03576035	-0.0002032314	0.0001700841	0.01278607	0.008076404	-0.0001958629	0.0001066591
	-0.0002032314	0.0001700841	-0.01404593	-0.0337759	-1.14589e-05	1.810476e-05	0.01268384	0.008354447
	0.01278607	0.008076403	-1.14589e-05	1.810476e-05	-0.01336124	-0.03465493	-4.653301e-05	4.412067e-05
	-0.0001958629	0.0001066591	0.01268383	0.008354448	-4.653301e-05	4.412067e-05	-0.01417359	-0.03377068
1.3e+08	-0.01740938	-0.0358684	-0.0001927507	0.0001793894	0.01391075	0.007349655	-0.0001964628	8.428041e-05
	-0.0001927507	0.0001793894	-0.01880919	-0.0336931	-8.803251e-06	1.917421e-05	0.01381678	0.007626685
	0.01391075	0.007349655	-8.803251e-06	1.917421e-05	-0.01817123	-0.03474118	-4.023626e-05	5.015012e-05
	-0.0001964628	8.428041e-05	0.01381678	0.007626686	-4.023626e-05	5.015012e-05	-0.01895852	-0.03367612
1.4e+08	-0.02231189	-0.03522354	-0.0001808992	0.0001887634	0.01486982	0.00643854	-0.0002011927	6.41291e-05
	-0.0001808992	0.0001887634	-0.0235035	-0.03288376	-7.714259e-06	1.913613e-05	0.01478624	0.006721467
	0.01486982	0.00643854	-7.714259e-06	1.913613e-05	-0.02292943	-0.03409606	-3.34462e-05	5.517266e-05
	-0.0002011927	6.41291e-05	0.01478623	0.006721468	-3.34462e-05	5.517266e-05	-0.02367219	-0.03285037
1.5e+08	-0.02703191	-0.03385246	-0.0001678518	0.0001977578	0.0156358	0.005376017	-0.0002104386	4.657848e-05
	-0.0001678518	0.0001977578	-0.0280097	-0.031372	-6.59268e-06	1.909865e-05	0.01556515	0.005669786
	0.0156358	0.005376017	-6.59268e-06	1.909865e-05	-0.02751822	-0.03274149	-2.619047e-05	5.915786e-05
	-0.0002104386	4.657848e-05	0.01556515	0.005669787	-2.619047e-05	5.915786e-05	-0.02819496	-0.03131825
1.6e+08	-0.03145915	-0.03179891	-0.0001537676	0.0002060573	0.01618685	0.004198669	-0.0002241607	3.231507e-05
	-0.0001537676	0.0002060573	-0.03221664	-0.02920115	-5.43602e-06	1.904459e-05	0.01613221	0.004506607
	0.01618685	0.004198669	-5.43602e-06	1.904459e-05	-0.03182686	-0.03071771	-1.856361e-05	6.205864e-05
	-0.0002241607	3.231507e-05	0.01613221	0.004506607	-1.856361e-05	6.205864e-05	-0.03241519	-0.02912375
1.7e+08	-0.03549247	-0.02912264	-0.0001388162	0.0002134225	0.01650754	0.00294587	-0.0002419978	2.212736e-05
	-0.0001388162	0.0002134225	-0.03602343	-0.02643157	-4.26014e-06	1.895449e-05	0.01647236	0.003269815
	0.01650754	0.00294587	-4.26014e-06	1.895449e-05	-0.0357539	-0.02808163	-1.070234e-05	6.383088e-05
	-0.0002419978	2.212736e-05	0.01647236	0.003269815	-1.070234e-05	6.383088e-05	-0.03623156	-0.02632792
1.8e+08	-0.03904222	-0.02589774	-0.0001231824	0.0002196756	0.01658928	0.00165874	-0.0002633206	1.678458e-05
	-0.0001231824	0.0002196756	-0.0393415	-0.02313851	-3.077947e-06	1.881614e-05	0.01657715	0.001999112
	0.01658928	0.00165874	-3.077947e-06	1.881614e-05	-0.03920931	-0.02490496	-2.770817e-06	6.445124e-05
	-0.0002633206	1.678458e-05	0.01657715	0.001999112	-2.770817e-06	6.445124e-05	-0.03955517	-0.02300676
1.9e+08	-0.04203219	-0.02221063	-0.0001070631	0.0002246939	0.01643048	0.0003790145	-0.0002872783	1.695396e-05
	-0.0001070631	0.0002246939	-0.04209648	-0.01940973	-1.900618e-06	1.862226e-05	0.01644496	0.00073488
	0.01643048	0.0003790145	-1.900618e-06	1.862226e-05	-0.04211646	-0.02127208	5.051973e-06	6.392689e-05
	-0.0002872783	1.695396e-05	0.01644496	0.0007348801	5.051973e-06	6.392689e-05	-0.04231141	-0.01924879
2e+08	-0.0444012	-0.01815777	-9.066057e-05	0.0002284061	0.0160366	-0.0008521082	-0.0003128462	2.314014e-05
	-9.066057e-05	0.0002284061	-0.04422969	-0.01534299	-7.379585e-07	1.836918e-05	0.0160809	-0.0004829514
	0.0160366	-0.0008521082	-7.379585e-07	1.836918e-05	-0.0444136	-0.01727768	1.258363e-05	6.230026e-05
	-0.0003128462	2.314014e-05	0.0160809	-0.0004829513	1.258363e-05	6.230026e-05	-0.04444151	-0.01515258
2.1e+08	-0.04610471	-0.01384275	-7.417485e-05	0.0002307891	0.01541949	-0.002009223	-0.0003388794	3.564254e-05
	-7.417485e-05	0.0002307891	-0.04569929	-0.0110434	4.013051e-07	1.805128e-05	0.01549666	-0.001616008
	0.01541949	-0.002009223	4.013051e-07	1.805128e-05	-0.04605557	-0.01302384	1.966803e-05	5.961342e-05
	-0.0003388794	3.564254e-05	0.01549666	-0.001616008	1.966803e-05	5.961342e-05	-0.04590366	-0.01082399
2.2e+08	-0.04711473	-0.009374333	-5.779508e-05	0.0002318634	0.01459481	-0.003055389	-0.0003641659	5.453072e-05
	-5.779508e-05	0.0002318634	-0.04648102	-0.006620548	1.50878e-06	1.766955e-05	0.0147101	-0.002628516
	0.01459481	-0.003055389	1.50878e-06	1.766955e-05	-0.04701368	-0.008617996	2.613808e-05	5.59662e-05
	-0.0003641659	5.453072e-05	0.0147101	-0.002628516	2.613808e-05	5.59662e-05	-0.04667374	-0.006373417
2.3e+08	-0.04742027	-0.00486425	-4.169175e-05	0.000231688	0.01358708	-0.003939537	-0.0003874823	7.963151e-05
	-4.169175e-05	0.000231688	-0.04656846	-0.002185791	2.578598e-06	1.723272e-05	0.01374473	-0.003488259
	0.01358708	-0.003939537	2.578598e-06	1.723272e-05	-0.04727616	-0.004170812	3.183285e-05	5.154515e-05
	-0.0003874823	7.963151e-05	0.01374473	-0.003488259	3.183285e-05	5.154515e-05	-0.04674564	-0.001912933
2.4e+08	-0.04702839	-0.0004233668	-2.601099e-05	0.000230353	0.01242677	-0.004633189	-0.0004076543	0.0001105307
	-2.601099e-05	0.000230353	-0.045973	0.002150634	3.606585e-06	1.674467e-05	0.01262904	-0.00416744
	0.01242677	-0.004633189	3.606585e-06	1.674467e-05	-0.04684929	0.0002077506	3.665144e-05	4.651938e-05
	-0.0004076543	0.0001105307	0.01262904	-0.004167441	3.665144e-05	4.651938e-05	-0.04613114	0.002446549
2.5e+08	-0.04596324	0.003840549	-1.086906e-05	0.0002279723	0.01114862	-0.005113382	-0.0004236083	0.0001465873
	-1.086906e-05	0.0002279723	-0.04472323	0.006282315	4.59005e-06	1.620972e-05	0.01139568	-0.004643421
	0.01114862	-0.005113382	4.59005e-06	1.620972e-05	-0.04575641	0.004410639	4.053053e-05	4.107321e-05
	-0.0004236083	0.0001465873	0.01139568	-0.004643421	4.053053e-05	4.107321e-05	-0.04485935	0.006598024
2.6e+08	-0.04426537	0.007825387	3.650571e-06	0.0002246744	0.009790632	-0.005363299	-0.0004344185	0.0001869626
	3.650571e-06	0.0002246744	-0.0428641	0.01010932	5.527548e-06	1.563207e-05	0.01008057	-0.004899314
	0.009790632	-0.005363299	5.527548e-06	1.563207e-05	-0.04403725	0.008336294	4.344724e-05	3.539713e-05
	-0.0004344185	0.0001869626	0.01008057	-0.004899314	4.344724e-05	3.539713e-05	-0.04297582	0.01044102
2.7e+08	-0.04199049	0.0114371	1.749891e-05	0.000220595	0.008393089	-0.005372717	-0.0004393473	0.000230655
	1.749891e-05	0.000220595	-0.04045555	0.01354051	6.418848e-06	1.501575e-05	0.008721934	-0.004924442
	0.008393089	-0.005372717	6.418848e-06	1.501575e-05	-0.04174676	0.01189107	4.541928e-05	2.96785e-05
	-0.0004393473	0.000230655	0.008721934	-0.004924442	4.541928e-05	2.96785e-05	-0.04054118	0.01388406
2.8e+08	-0.03920807	0.01459193	3.06604e-05	0.0002158676	0.006997399	-0.005138287	-0.0004378736	0.0002765479
	3.06604e-05	0.0002158676	-0.03757091	0.01649585	7.26449e-06	1.4364e-05	0.007359235	-0.004714621
	0.006997399	-0.005138287	7.26449e-06	1.4364e-05	-0.03895366	0.01499147	4.650327e-05	2.409228e-05
	-0.0004378736	0.0002765479	0.007359235	-0.004714621	4.650327e-05	2.409228e-05	-0.0376295	0.01684683
2.9e+08	-0.03599949	0.01721834	4.315038e-05	0.0002106154	0.005644971	-0.004663629	-0.0004297122	0.0003234577
	4.315038e-05	0.0002106154	-0.03429492	0.01890824	8.065479e-06	1.367918e-05	0.006032111	-0.00427229
	0.005644971	-0.004663629	8.065479e-06	1.367918e-05	-0.03573866	0.0175661	4.679058e-05	1.879265e-05
	-0.0004297122	0.0003234577	0.006032111	-0.00427229	4.679058e-05	1.879265e-05	-0.03432634	0.01926211
3e+08	-0.03245601	0.01925867	5.501053e-05	0.0002049441	0.004376073	-0.003959257	-0.0004148205	0.0003701857
	5.501053e-05	0.0002049441	-0.03072156	0.02072515	8.822919e-06	1.296266e-05	0.004779286	-0.003606458
	0.004376073	-0.003959257	8.822919e-06	1.296266e-05	-0.03219238	0.01955737	4.640137e-05	1.390568e-05
	-0.0004148205	0.0003701857	0.004779286	-0.003606458	4.640137e-05	1.390568e-05	-0.03072645	0.02107739
3.1e+08	-0.02867641	0.02067048	6.630328e-05	0.000198937	0.003228705	-0.003042311	-0.0003933912	0.0004155738
	6.630328e-05	0.000198937	-0.02695159	0.02190982	9.537651e-06	1.221496e-05	0.003637506	-0.002732486
	0.003228705	-0.003042311	9.537651e-06	1.221496e-05	-0.02841308	0.0209228	4.547722e-05	9.523595e-06
	-0.0003933912	0.0004155738	0.003637506	-0.002732486	4.547722e-05	9.523595e-06	-0.02693138	0.02225603
3.2e+08	-0.02476463	0.02142748	7.710447e-05	0.0001926498	0.002237526	-0.001936115	-0.0003658366	0.0004585503
	7.710447e-05	0.0001926498	-0.02308996	0.02244206	1.020994e-05	1.143579e-05	0.002640506	-0.001671697
	0.002237526	-0.001936115	1.020994e-05	1.143579e-05	-0.02450422	0.02163601	4.417236e-05	5.701021e-06
	-0.0003658366	0.0004585503	0.002640506	-0.001671697	4.417236e-05	5.701021e-06	-0.02304684	0.02277813
3.3e+08	-0.02082705	0.0215201	8.749546e-05	0.0001861088	0.001432862	-0.0006695605	-0.0003327614	0.0004981743
	8.749546e-05	0.0001861088	-0.01924315	0.02231869	1.083921e-05	1.062437e-05	0.001818057	-0.000450818
	0.001432862	-0.0006695605	1.083921e-05	1.062437e-05	-0.02057181	0.02168731	4.264432e-05	2.453387e-06
	-0.0003327614	0.0004981743	0.001818057	-0.0004508179	4.264432e-05	2.453387e-06	-0.01918001	0.02264092
3.4e+08	-0.01696997	0.02095567	9.755544e-05	0.0001793113	0.0008398141	0.000723668	-0.0002949229	0.0005336743
	9.755544e-05	0.0001793113	-0.01551645	0.02155353	1.142394e-05	9.779725e-06	0.001195098	0.0008987307
	0.0008398141	0.000723668	1.142394e-05	9.779725e-06	-0.01672182	0.02108387	4.104452e-05	-2.42497e-07
	-0.0002949229	0.0005336743	0.001195098	0.0008987307	4.104452e-05	-2.42497e-07	-0.01543682	0.02185873
3.5e+08	-0.01329687	0.01975813	0.000107353	0.0001722266	0.0004775055	0.002206011	-0.0002531901	0.0005644713
	0.000107353	0.0001722266	-0.01201129	0.02017695	1.196155e-05	8.900976e-06	0.000791002	0.002341682
	0.0004775055	0.002206011	1.196155e-05	8.900976e-06	-0.01305753	0.01984948	3.950909e-05	-2.445431e-06
	-0.0002531901	0.0005644713	0.000791002	0.002341682	3.950909e-05	-2.445431e-06	-0.01191922	0.02046256
3.6e+08	-0.009905906	0.0179674	0.0001169394	0.0001648004	0.000358479	0.003737077	-0.0002084931	0.0005901959
	0.0001169394	0.0001648004	-0.008822671	0.01823502	1.24485e-05	7.9877e-06	0.000618973	0.003839894
	0.000358479	0.003737077	1.24485e-05	7.9877e-06	-0.009676906	0.01802389	3.815079e-05	-4.244814e-06
	-0.0002084931	0.0005901959	0.000618973	0.003839894	3.815079e-05	-4.244814e-06	-0.008722639	0.01849919
3.7e+08	-0.006887449	0.01563827	0.0001263422	0.00015696	0.0004882767	0.005274779	-0.0001617748	0.0006106908
	0.0001263422	0.00015696	-0.006036756	0.01578826	1.288036e-05	7.040199e-06	0.0006856201	0.005353415
	0.0004882767	0.005274779	1.288036e-05	7.040199e-06	-0.006670224	0.01566178	3.705224e-05	-5.753662e-06
	-0.0001617748	0.0006106908	0.0006856202	0.005353415	3.705224e-05	-5.753662e-06	-0.005933552	0.01602993
3.8e+08	-0.004321842	0.01283905	0.000135561	0.0001486216	0.0008652136	0.006776539	-0.0001139415	0.0006260029
	0.000135561	0.0001486216	-0.003728708	0.01291003	1.325209e-05	6.059742e-06	0.0009907093	0.006841619
	0.0008652135	0.006776539	1.325209e-05	6.059742e-06	-0.004117771	0.01283133	3.626116e-05	-7.100211e-06
	-0.0001139415	0.0006260029	0.0009907093	0.006841619	3.626116e-05	-7.100211e-06	-0.003627278	0.01312897
3.9e+08	-0.002277423	0.009649692	0.0001445646	0.000139698	0.001480359	0.008200527	-6.58174e-05	0.0006363637
	0.0001445646	0.000139698	-0.001960791	0.009684569	1.355823e-05	5.048748e-06	0.001527112	0.008264374
	0.001480359	0.008200527	1.355823e-05	5.048748e-06	-0.002087867	0.009612459	3.578778e-05	-8.418552e-06
	-6.58174e-05	0.0006363637	0.001527112	0.008264374	3.578778e-05	-8.418552e-06	-0.001866106	0.0098814
4e+08	-0.0008088377	0.006159831	0.000153291	0.0001301071	0.00231773	0.009506892	-1.810727e-05	0.0006421603
	0.000153291	0.0001301071	-0.00078083	0.006204799	1.379321e-05	4.010876e-06	0.002280958	0.009583217
	0.00231773	0.009506892	1.379321e-05	4.010876e-06	-0.0006351657	0.006094771	3.560466e-05	-9.838827e-06
	-1.810727e-05	0.0006421603	0.002280958	0.009583217	3.560466e-05	-9.838827e-06	-0.000697735	0.006381005
4.1e+08	4.428661e-05	0.002466424	0.0001616489	0.0001197805	0.003354702	0.01065895	2.863549e-05	0.0006438978
	0.0001616489	0.0001197805	-0.0002210325	0.00256987	1.395163e-05	2.951066e-06	0.003231987	0.01076249
	0.003354702	0.01065895	1.395163e-05	2.951066e-06	0.0002006922	0.002375253	3.564901e-05	-1.147772e-05
	2.863549e-05	0.0006438978	0.003231987	0.01076249	3.564901e-05	-1.147772e-05	-0.0001541026	0.002727759
4.2e+08	0.0002582912	-0.001328717	0.0001695219	0.000108671	0.004562618	0.01162432	7.402973e-05	0.0006421561
	0.0001695219	0.000108671	-0.0002972306	-0.001117423	1.402856e-05	1.87551e-06	0.004354099	0.01177041
	0.004562618	0.01162432	1.402856e-05	1.87551e-06	0.0003960336	-0.001444205	3.582732e-05	-1.342973e-05
	7.402973e-05	0.0006421561	0.004354099	0.01177041	3.582732e-05	-1.342973e-05	-0.0002506313	-0.0009747646
4.3e+08	-0.0001739755	-0.005121526	0.000176774	9.675884e-05	0.005907593	0.01237587	0.0001178734	0.0006375431
	0.000176774	9.675884e-05	-0.001008544	-0.004753323	1.401981e-05	7.915502e-07	0.005616086	0.01258003
	0.005907593	0.01237587	1.401981e-05	7.915502e-07	-5.629039e-05	-0.005259414	3.602211e-05	-1.575993e-05
	0.0001178734	0.0006375431	0.005616086	0.01258003	3.602211e-05	-1.575993e-05	-0.0009858988	-0.004622102
4.4e+08	-0.001243044	-0.008808329	0.0001832573	8.405727e-05	0.007351484	0.01289261	0.0001601404	0.0006306491
	0.0001832573	8.405727e-05	-0.00233748	-0.008235793	1.39221e-05	-2.924417e-07	0.006982528	0.01317005
	0.007351484	0.01289261	1.39221e-05	-2.924417e-07	-0.001146779	-0.00896654	3.610034e-05	-1.849858e-05
	0.0001601404	0.0006306491	0.006982528	0.01317005	3.610034e-05	-1.849858e-05	-0.002341755	-0.008111607
4.5e+08	-0.002923129	-0.01228847	0.0001888209	7.061481e-05	0.008852996	0.01316035	0.0002008856	0.0006220492
	0.0001888209	7.061481e-05	-0.004250471	-0.01146715	1.373335e-05	-1.367238e-06	0.008414815	0.01352548
	0.008852996	0.01316035	1.373335e-05	-1.367238e-06	-0.00284958	-0.01246474	3.592374e-05	-2.163821e-05
	0.0002008856	0.0006220492	0.008414815	0.01352548	3.592374e-05	-2.163821e-05	-0.004283873	-0.0113451
4.6e+08	-0.005172838	-0.0154669	0.0001931985	5.653126e-05	0.0103689	0.01317212	0.0002512631	0.0006047286
	0.0001931985	5.653126e-05	-0.006698818	-0.01435657	1.345279e-05	-2.423051e-06	0.009872278	0.01363814
	0.0103689	0.01317212	1.345279e-05	-2.423051e-06	-0.005123197	-0.0156587	3.523987e-05	-2.511605e-05
	0.0002512631	0.0006047286	0.009872278	0.01363814	3.523987e-05	-2.511605e-05	-0.006762695	-0.01423143
4.7e+08	-0.007936336	-0.01825642	0.0001963679	4.192613e-05	0.0118553	0.01292847	0.0003005532	0.0005839182
	0.0001963679	4.192613e-05	-0.009620025	-0.0168224	1.308105e-05	-3.448963e-06	0.01131339	0.01350686
	0.0118553	0.01292847	1.308105e-05	-3.448963e-06	-0.007911605	-0.01846106	3.40344e-05	-2.885143e-05
	0.0003005532	0.0005839182	0.01131339	0.01350686	3.40344e-05	-2.885143e-05	-0.009714854	-0.0166887
