!$
! Info: Touchstone file created by Circ.  Input file=Tx_8in_Rx_100ohms_TxVia_60mils_RxVia_70mils.circ
!$
# Hz S RI R 50
0	0.008399161	1.154313e-25	1.651999e-09	2.806577e-27	6.387496e-05	1.641793e-23	-1.427098e-10	6.345487e-26
	1.652013e-09	2.806582e-27	0.008394896	1.383605e-25	4.499722e-09	9.723648e-27	6.300308e-05	2.042828e-23
	6.300693e-05	1.634453e-23	4.499723e-09	9.723651e-27	0.008412937	1.167173e-25	3.715422e-09	2.970423e-27
	-1.424202e-10	6.34194e-26	6.327274e-05	2.051588e-23	3.71534e-09	2.970406e-27	0.008409337	1.377438e-25
1e+07	0.01217283	0.005630561	2.102948e-09	3.707569e-09	0.0005142104	0.001636617	-3.317912e-09	1.158507e-08
	2.102947e-09	3.707569e-09	0.01229286	0.005622571	6.568165e-09	1.31619e-08	0.0005113336	0.001634786
	0.0005141947	0.00163663	6.568165e-09	1.31619e-08	0.01231379	0.005628878	-1.63768e-09	1.234595e-08
	-3.317912e-09	1.158507e-08	0.0005113361	0.001634783	-1.63768e-09	1.234595e-08	0.0121846	0.005640184
2e+07	0.01581989	0.008333727	2.904219e-09	6.697901e-09	0.0008115089	0.00335344	1.726811e-09	3.793689e-09
	2.904219e-09	6.697901e-09	0.01589178	0.00827702	8.974042e-09	2.328895e-08	0.000800456	0.003351369
	0.0008115156	0.003353448	8.974042e-09	2.328895e-08	0.01593249	0.008285768	-1.750596e-10	6.364408e-09
	1.726811e-09	3.793689e-09	0.000800453	0.00335137	-1.750596e-10	6.364407e-09	0.01582003	0.008351673
3e+07	0.01903526	0.009593233	3.664682e-09	9.252138e-09	0.001382311	0.004848878	2.897684e-09	5.717633e-09
	3.664682e-09	9.252138e-09	0.01905511	0.009525989	1.070033e-08	3.286428e-08	0.00135823	0.004849363
	0.001382312	0.004848879	1.070033e-08	3.286428e-08	0.01912693	0.009530366	3.390023e-09	9.29962e-09
	2.897683e-09	5.717633e-09	0.00135823	0.004849365	3.390022e-09	9.29962e-09	0.01901471	0.009623627
4e+07	0.0220359	0.0100802	4.434152e-09	1.168031e-08	0.002210789	0.006174318	3.760444e-09	7.110732e-09
	4.434152e-09	1.168031e-08	0.02199811	0.01001899	1.230005e-08	4.214989e-08	0.002169588	0.006181274
	0.002210788	0.006174319	1.230005e-08	4.214989e-08	0.02211093	0.01000994	4.220735e-09	1.194269e-08
	3.760444e-09	7.110732e-09	0.002169589	0.006181275	4.220735e-09	1.194269e-08	0.02198657	0.0101284
5e+07	0.02485629	0.009964045	5.198338e-09	1.39357e-08	0.003366375	0.007256573	4.59681e-09	8.290718e-09
	5.198338e-09	1.39357e-08	0.02475663	0.00992435	1.375701e-08	5.118056e-08	0.003304959	0.007274686
	0.003366373	0.007256573	1.375701e-08	5.118056e-08	0.02491791	0.009889866	4.786086e-09	1.429303e-08
	4.59681e-09	8.290718e-09	0.00330496	0.007274686	4.786086e-09	1.429303e-08	0.02477129	0.01003826
6e+07	0.02748495	0.00933496	5.926685e-09	1.601333e-08	0.004657721	0.008119508	5.414263e-09	9.271416e-09
	5.926685e-09	1.601333e-08	0.02732186	0.009332168	1.506788e-08	5.99982e-08	0.004574167	0.008154245
	0.004657718	0.008119507	1.506788e-08	5.99982e-08	0.02753571	0.009258647	5.268043e-09	1.651236e-08
	5.414263e-09	9.271416e-09	0.004574169	0.008154246	5.268043e-09	1.651236e-08	0.02736	0.009445059
7e+07	0.02989294	0.008256075	6.557968e-09	1.791056e-08	0.006048524	0.008746627	6.112995e-09	1.003467e-08
	6.557968e-09	1.791056e-08	0.02966755	0.008305259	1.617845e-08	6.859952e-08	0.005942167	0.008803878
	0.00604852	0.008746626	1.617845e-08	6.859952e-08	0.02993485	0.00817852	5.663993e-09	1.862646e-08
	6.112995e-09	1.003467e-08	0.005942168	0.008803878	5.663993e-09	1.862646e-08	0.02972606	0.008412521
8e+07	0.03204557	0.006782264	7.039979e-09	1.964515e-08	0.007499099	0.009126189	6.634957e-09	1.061845e-08
	7.039978e-09	1.964515e-08	0.03176165	0.006898108	1.707115e-08	7.703919e-08	0.007370585	0.00921201
	0.007499095	0.009126188	1.707115e-08	7.703919e-08	0.03208029	0.006703879	5.959595e-09	2.064812e-08
	6.634957e-09	1.061845e-08	0.007370586	0.009212009	5.959595e-09	2.064812e-08	0.03183682	0.006995897
9e+07	0.03390899	0.004967785	7.357161e-09	2.126349e-08	0.008967163	0.009251965	6.995345e-09	1.108374e-08
	7.357161e-09	2.126349e-08	0.03357308	0.005164511	1.776578e-08	8.539761e-08	0.008818467	0.009372324
	0.00896716	0.009251965	1.776578e-08	8.539761e-08	0.03393799	0.004888831	6.171954e-09	2.260151e-08
	6.995345e-09	1.108374e-08	0.008818468	0.009372324	6.171954e-09	2.260151e-08	0.03366055	0.005249687
1e+08	0.03546279	0.002876321	7.479606e-09	2.278915e-08	0.01040464	0.009120189	7.179626e-09	1.149326e-08
	7.479606e-09	2.278915e-08	0.03508554	0.003168263	1.825447e-08	9.371541e-08	0.01023903	0.009280722
	0.01040464	0.009120189	1.825447e-08	9.371541e-08	0.03548867	0.002797974	6.298465e-09	2.447207e-08
	7.179626e-09	1.149326e-08	0.01023903	0.009280722	6.298465e-09	2.447207e-08	0.03517918	0.003237495
1.1e+08	0.03669472	0.0004914138	7.56891e-09	2.426107e-08	0.01176166	0.008773779	7.26457e-09	1.184293e-08
	7.56891e-09	2.426107e-08	0.03629199	0.0008827057	1.868491e-08	1.020807e-07	0.01158375	0.008979503
	0.01176166	0.008773779	1.868491e-08	1.020807e-07	0.0367214	0.0004065935	6.327439e-09	2.63409e-08
	7.26457e-09	1.184293e-08	0.01158375	0.008979503	6.327439e-09	2.63409e-08	0.03638405	0.0009416465
1.2e+08	0.03750894	-0.002094431	7.484979e-09	2.574214e-08	0.01303416	0.008211499	7.146571e-09	1.211989e-08
	7.484979e-09	2.574214e-08	0.03708988	-0.001597392	1.896229e-08	1.104936e-07	0.01284959	0.008466485
	0.01303416	0.008211499	1.896229e-08	1.104936e-07	0.03753184	-0.002188615	6.232624e-09	2.82462e-08
	7.146571e-09	1.211989e-08	0.01284959	0.008466486	6.232623e-09	2.82462e-08	0.03718076	-0.001546353
1.3e+08	0.03790197	-0.004803307	7.218868e-09	2.724918e-08	0.01417984	0.007445491	6.812411e-09	1.238467e-08
	7.218868e-09	2.724918e-08	0.0374792	-0.004194672	1.909609e-08	1.189805e-07	0.01399518	0.007752751
	0.01417984	0.007445491	1.909609e-08	1.189805e-07	0.03791774	-0.004907563	6.011572e-09	3.019576e-08
	6.812411e-09	1.238467e-08	0.01399518	0.007752752	6.011572e-09	3.019576e-08	0.03756794	-0.00415049
1.4e+08	0.03786877	-0.007567521	6.772383e-09	2.881667e-08	0.01516467	0.006499145	6.257815e-09	1.268497e-08
	6.772383e-09	2.881667e-08	0.03745673	-0.006843603	1.910404e-08	1.275723e-07	0.01498718	0.006860429
	0.01516467	0.006499145	1.910404e-08	1.275723e-07	0.03787428	-0.007681584	5.670876e-09	3.221344e-08
	6.257815e-09	1.268497e-08	0.01498718	0.00686043	5.670876e-09	3.221344e-08	0.03754218	-0.006805338
1.5e+08	0.0374115	-0.01032119	6.153108e-09	3.048024e-08	0.01595982	0.005401848	5.486089e-09	1.306639e-08
	6.153108e-09	3.048024e-08	0.03702583	-0.00948097	1.900827e-08	1.362976e-07	0.01579727	0.005817506
	0.01595982	0.005401848	1.900827e-08	1.362976e-07	0.03740384	-0.01044401	5.220822e-09	3.432323e-08
	5.486089e-09	1.306639e-08	0.01579727	0.005817507	5.220822e-09	3.432323e-08	0.03710687	-0.009447596
1.6e+08	0.03654057	-0.01300031	5.374825e-09	3.227546e-08	0.01654214	0.004187633	4.508565e-09	1.357338e-08
	5.374825e-09	3.227546e-08	0.03619751	-0.01204574	1.88351e-08	1.451812e-07	0.01640247	0.004656513
	0.01654214	0.004187633	1.88351e-08	1.451812e-07	0.03651708	-0.01313018	4.675656e-09	3.654844e-08
	4.508565e-09	1.357338e-08	0.01640247	0.004656513	4.675656e-09	3.654844e-08	0.0362731	-0.0120161
1.7e+08	0.03527477	-0.01554361	4.457558e-09	3.423662e-08	0.01689466	0.002894045	3.344449e-09	1.424842e-08
	4.457558e-09	3.423662e-08	0.03499055	-0.01447973	1.86146e-08	1.542446e-07	0.01678575	0.003413445
	0.01689466	0.002894045	1.86146e-08	1.542446e-07	0.03523318	-0.01567819	4.053521e-09	3.891097e-08
	3.344449e-09	1.424842e-08	0.01678575	0.003413445	4.053521e-09	3.891097e-08	0.0350598	-0.01445255
1.8e+08	0.03364109	-0.01789353	3.427584e-09	3.639564e-08	0.01700703	0.001561015	2.020535e-09	1.513085e-08
	3.427584e-09	3.639564e-08	0.0334313	-0.01672854	1.838029e-08	1.635044e-07	0.01693637	0.002126693
	0.01700703	0.001561015	1.838029e-08	1.635044e-07	0.03357955	-0.01802998	3.376448e-09	4.143064e-08
	2.020535e-09	1.513085e-08	0.01693637	0.002126693	3.376448e-09	4.143064e-08	0.03349353	-0.01670242
1.9e+08	0.03167429	-0.01999733	2.317346e-09	3.878108e-08	0.0168758	0.0002297004	5.707937e-10	1.625575e-08
	2.317346e-09	3.878108e-08	0.03155327	-0.01874248	1.816869e-08	1.729725e-07	0.01685021	0.0008359339
	0.0168758	0.0002297004	1.816869e-08	1.729725e-07	0.03159149	-0.02013237	2.670325e-09	4.412457e-08
	5.707937e-10	1.625575e-08	0.01685021	0.000835934	2.670325e-09	4.412457e-08	0.03160803	-0.01871592
2e+08	0.0294162	-0.02180812	1.165244e-09	4.141689e-08	0.01650453	-0.001058698	-9.641934e-10	1.76528e-08
	1.165244e-09	4.141689e-08	0.02939645	-0.0204775	1.801879e-08	1.82655e-07	0.01652987	-0.0004189956
	0.01650453	-0.001058698	1.801879e-08	1.82655e-07	0.02931143	-0.02193815	1.96482e-09	4.700649e-08
	-9.641934e-10	1.76528e-08	0.01652987	-0.0004189955	1.96482e-09	4.700649e-08	0.02944355	-0.02044897
2.1e+08	0.0269149	-0.02328584	1.523091e-11	4.432131e-08	0.01590366	-0.002264113	-2.537965e-09	1.934513e-08
	1.523091e-11	4.432131e-08	0.02700654	-0.02189608	1.797144e-08	1.925521e-07	0.01598458	-0.001599225
	0.01590366	-0.002264113	1.797144e-08	1.925521e-07	0.02678814	-0.02340704	1.293185e-09	5.008589e-08
	-2.537965e-09	1.934513e-08	0.01598458	-0.001599225	1.293185e-09	5.008589e-08	0.02704605	-0.02186403
2.2e+08	0.02422372	-0.02439811	-1.083833e-09	4.750549e-08	0.01509028	-0.00334876	-4.099095e-09	2.134822e-08
	-1.083833e-09	4.750549e-08	0.02443398	-0.02296795	1.806852e-08	2.02657e-07	0.01522996	-0.002667948
	0.01509028	-0.00334876	1.806852e-08	2.02657e-07	0.02407562	-0.02450657	6.91888e-10	5.33671e-08
	-4.099095e-09	2.134822e-08	0.01522996	-0.002667948	6.91888e-10	5.33671e-08	0.02446621	-0.02293086
2.3e+08	0.0214001	-0.02512095	-2.079142e-09	5.097223e-08	0.0140876	-0.004278218	-5.592321e-09	2.366888e-08
	-2.079142e-09	5.097223e-08	0.02173288	-0.02367069	1.835198e-08	2.129559e-07	0.01428761	-0.003591465
	0.0140876	-0.004278218	1.835198e-08	2.129559e-07	0.02123205	-0.02521277	1.999993e-10	5.684834e-08
	-5.592321e-09	2.366888e-08	0.01428761	-0.003591465	1.999993e-10	5.684834e-08	0.02175843	-0.02362715
2.4e+08	0.01850428	-0.02543927	-2.915267e-09	5.471479e-08	0.01292438	-0.005022427	-6.959887e-09	2.630433e-08
	-2.915267e-09	5.471479e-08	0.01895988	-0.02399022	1.886263e-08	2.23427e-07	0.01318448	-0.004340141
	0.01292438	-0.005022427	1.886263e-08	2.23427e-07	0.01831839	-0.02551073	-1.417293e-10	6.052072e-08
	-6.959887e-09	2.630433e-08	0.01318448	-0.004340141	-1.417293e-10	6.052072e-08	0.01897957	-0.02393892
2.5e+08	0.01559799	-0.02534728	-3.53583e-09	5.871582e-08	0.01163403	-0.005556557	-8.143131e-09	2.924148e-08
	-3.53583e-09	5.871582e-08	0.01617287	-0.02392108	1.963881e-08	2.34041e-07	0.01195211	-0.004889248
	0.01163403	-0.005556557	1.963881e-08	2.34041e-07	0.01539708	-0.02539495	-2.921045e-10	6.436736e-08
	-8.143131e-09	2.924148e-08	0.01195211	-0.004889248	-2.921045e-10	6.436736e-08	0.01618775	-0.0238609
2.6e+08	0.01274304	-0.02484858	-3.885555e-09	6.294664e-08	0.01025378	-0.005861739	-9.084297e-09	3.245639e-08
	-3.885555e-09	6.294664e-08	0.01342975	-0.02346653	2.07148e-08	2.447606e-07	0.0106258	-0.005219677
	0.01025378	-0.005861739	2.07148e-08	2.447606e-07	0.01253058	-0.02486944	-2.110627e-10	6.836282e-08
	-9.084297e-09	3.245639e-08	0.0106258	-0.005219677	-2.110627e-10	6.836282e-08	0.01344104	-0.02339651
2.7e+08	0.009999934	-0.02395609	-3.912618e-09	6.736689e-08	0.008823516	-0.005925619	-9.728538e-09	3.591412e-08
	-3.912618e-09	6.736689e-08	0.01078709	-0.02263841	2.21192e-08	2.55541e-07	0.009243581	-0.00531849
	0.008823516	-0.005925619	2.21192e-08	2.55541e-07	0.009779959	-0.02394768	1.384624e-10	7.247266e-08
	-9.728538e-09	3.591412e-08	0.009243581	-0.00531849	1.384624e-10	7.247266e-08	0.01079618	-0.02255787
2.8e+08	0.007426399	-0.02269177	-3.571198e-09	7.19247e-08	0.007384739	-0.00574274	-1.002606e-08	3.956892e-08
	-3.571198e-09	7.19247e-08	0.008298911	-0.02145693	2.387329e-08	2.66331e-07	0.007845134	-0.005179299
	0.007384739	-0.00574274	2.387329e-08	2.66331e-07	0.007203471	-0.02265228	7.884767e-10	7.665367e-08
	-1.002606e-08	3.956892e-08	0.007845134	-0.005179299	7.884767e-10	7.665367e-08	0.008307298	-0.02136541
2.9e+08	0.005076108	-0.02108611	-2.824132e-09	7.655756e-08	0.005979324	-0.005314715	-9.934347e-09	4.336482e-08
	-2.824132e-09	7.655756e-08	0.006015441	-0.0199501	2.598935e-08	2.770737e-07	0.006470699	-0.004802459
	0.005979324	-0.005314715	2.598935e-08	2.770737e-07	0.004855158	-0.02101447	1.76375e-09	8.085443e-08
	-9.934347e-09	4.336482e-08	0.006470699	-0.004802459	1.76375e-09	8.085443e-08	0.006024671	-0.01984742
3e+08	0.002997377	-0.0191774	-1.645485e-09	8.119369e-08	0.004648344	-0.004650205	-9.420293e-09	4.723683e-08
	-1.645485e-09	8.119369e-08	0.003981966	-0.01815314	2.84693e-08	2.877082e-07	0.005159919	-0.004195072
	0.004648344	-0.004650205	2.84693e-08	2.877082e-07	0.002783603	-0.01907337	3.07968e-09	8.501655e-08
	-9.420293e-09	4.723683e-08	0.005159919	-0.004195072	3.07968e-09	8.501655e-08	0.003993608	-0.01803941
3.1e+08	0.001232049	-0.01701084	-2.285408e-11	8.57542e-08	0.003430885	-0.003764691	-8.462237e-09	5.11125e-08
	-2.285408e-11	8.57542e-08	0.002237821	-0.0161076	3.130354e-08	2.981719e-07	0.003950717	-0.003370796
	0.003430885	-0.003764691	3.130354e-08	2.981719e-07	0.001030763	-0.01687505	4.740399e-09	8.907645e-08
	-8.462237e-09	5.11125e-08	0.003950717	-0.003370796	4.740399e-09	8.907645e-08	0.002253409	-0.01598321
3.2e+08	-0.0001855171	-0.01463744	2.04073e-09	9.015578e-08	0.002362922	-0.002680051	-7.051663e-09	5.491406e-08
	2.04073e-09	9.015578e-08	0.0008154832	-0.01386041	3.447025e-08	3.084024e-07	0.002878217	-0.002349465
	0.002362922	-0.002680051	3.447025e-08	3.084024e-07	-0.0003690357	-0.01447142	6.737209e-09	9.296769e-08
	-7.051663e-09	5.491406e-08	0.002878217	-0.002349465	6.737209e-09	9.296769e-08	0.0008364728	-0.013726
3.3e+08	-0.001229247	-0.01211284	4.525521e-09	9.431397e-08	0.001476279	-0.001423946	-5.194496e-09	5.856092e-08
	4.525521e-09	9.431397e-08	-0.0002601413	-0.01146273	3.793516e-08	3.183402e-07	0.001973751	-0.001156539
	0.001476279	-0.001423946	3.793516e-08	3.183402e-07	-0.001389907	-0.01191904	9.047578e-09	9.662375e-08
	-5.194496e-09	5.856092e-08	0.001973751	-0.001156539	9.047578e-09	9.662375e-08	-0.0002324308	-0.01131922
3.4e+08	-0.001881966	-0.009495939	7.394528e-09	9.814667e-08	0.0007977125	-2.904822e-05	-2.911875e-09	6.197254e-08
	7.394528e-09	9.814667e-08	-0.0009722791	-0.008968758	4.165193e-08	3.279314e-07	0.001263959	0.000177615
	0.0007977125	-2.904822e-05	4.165193e-08	3.279314e-07	-0.002015024	-0.009277668	1.163481e-08	9.998109e-08
	-2.911875e-09	6.197254e-08	0.001263959	0.000177615	1.163481e-08	9.998109e-08	-0.000936698	-0.008817289
3.5e+08	-0.002135803	-0.006847463	1.05938e-08	1.015779e-07	0.0003481322	0.001467885	-2.402992e-10	6.507147e-08
	1.05938e-08	1.015779e-07	-0.001312645	-0.006434452	4.556309e-08	3.371302e-07	0.0007700417	0.001618575
	0.0003481322	0.001467885	4.556309e-08	3.371302e-07	-0.002237015	-0.006608877	1.444844e-08	1.029824e-07
	-2.402992e-10	6.507147e-08	0.0007700417	0.001618575	1.444844e-08	1.029824e-07	-0.001268257	-0.006276354
3.6e+08	-0.001992358	-0.004228531	1.40536e-08	1.045417e-07	0.0001419955	0.00302705	2.768884e-09	6.778647e-08
	1.40536e-08	1.045417e-07	-0.001281588	-0.003916182	4.960167e-08	3.459013e-07	0.0005071502	0.003128834
	0.0001419955	0.00302705	4.960167e-08	3.459013e-07	-0.002058126	-0.003974527	1.742543e-08	1.055797e-07
	2.768884e-09	6.778647e-08	0.0005071502	0.003128834	1.742543e-08	1.055797e-07	-0.001227703	-0.003752949
3.7e+08	-0.001462633	-0.001699157	1.769044e-08	1.069849e-07	0.0001868838	0.004606721	6.050687e-09	7.005547e-08
	1.769044e-08	1.069849e-07	-0.0008880413	-0.00146941	5.369324e-08	3.542218e-07	0.0004839611	0.004668854
	0.0001868838	0.004606721	5.369324e-08	3.542218e-07	-0.001490137	-0.001435282	2.049213e-08	1.077372e-07
	6.050687e-09	7.005547e-08	0.0004839611	0.004668854	2.049213e-08	1.077372e-07	-0.0008242401	-0.001302648
3.8e+08	-0.000566744	0.0006831953	2.140992e-08	1.088711e-07	0.0004832745	0.006164433	9.52832e-09	7.182835e-08
	2.140992e-08	1.088711e-07	-0.0001492542	0.0008526174	5.775856e-08	3.620832e-07	0.0007024285	0.006198181
	0.0004832745	0.006164433	5.775856e-08	3.620832e-07	-0.0005540554	0.0009508806	2.356691e-08	1.094338e-07
	9.52832e-09	7.182835e-08	0.0007024285	0.006198181	2.356691e-08	1.094338e-07	-7.54063e-05	0.001021238
3.9e+08	0.0006666023	0.002864998	2.511011e-08	1.101818e-07	0.001024516	0.007658182	1.311561e-08	7.306917e-08
	2.511011e-08	1.101818e-07	0.0009096678	0.003000115	6.171643e-08	3.694919e-07	0.001157728	0.007676576
	0.001024516	0.007658182	6.171643e-08	3.694919e-07	0.0007204258	0.003130061	2.656337e-08	1.106645e-07
	1.311561e-08	7.306917e-08	0.001157728	0.007676576	2.656337e-08	1.106645e-07	0.0009933939	0.00316891
4e+08	0.002200839	0.004797944	2.868554e-08	1.109186e-07	0.001797005	0.00904761	1.671989e-08	7.375791e-08
	2.868554e-08	1.109186e-07	0.002256414	0.004927921	6.54868e-08	3.764696e-07	0.001838391	0.009065138
	0.001797005	0.00904761	6.54868e-08	3.764696e-07	0.002295687	0.005053746	2.939389e-08	1.114418e-07
	1.671989e-08	7.375791e-08	0.001838391	0.009065138	2.939389e-08	1.114418e-07	0.002349552	0.005095247
4.1e+08	0.003992461	0.006440096	3.203127e-08	1.111033e-07	0.002780554	0.01029514	2.024516e-08	7.389161e-08
	3.203127e-08	1.111033e-07	0.00385229	0.006596533	6.899385e-08	3.830532e-07	0.002726621	0.0103274
	0.002780554	0.01029514	6.899385e-08	3.830532e-07	0.004127131	0.006679966	3.197333e-08	1.117955e-07
	2.024516e-08	7.389161e-08	0.002726621	0.0103274	3.197333e-08	1.117955e-07	0.003954081	0.006760837
4.2e+08	0.005992118	0.007756879	3.504706e-08	1.107776e-07	0.003948952	0.01136705	2.359543e-08	7.348469e-08
	3.504706e-08	1.107776e-07	0.005653183	0.007973003	7.216891e-08	3.892933e-07	0.00379879	0.01143033
	0.003948952	0.01136705	7.216891e-08	3.892933e-07	0.006164301	0.0079743	3.422267e-08	1.117719e-07
	2.359543e-08	7.348469e-08	0.00379879	0.01143033	3.422267e-08	1.117719e-07	0.005762599	0.008132874
4.3e+08	0.008145836	0.008721885	3.764128e-08	1.100017e-07	0.005270678	0.01223439	2.667802e-08	7.256866e-08
	3.764128e-08	1.100017e-07	0.007610659	0.009031672	7.495311e-08	3.95253e-07	0.005026091	0.01234525
	0.005270678	0.01223439	7.495311e-08	3.95253e-07	0.008352142	0.008910676	3.607236e-08	1.114324e-07
	2.667802e-08	7.256866e-08	0.005026091	0.01234525	3.607236e-08	1.114324e-07	0.007726424	0.009185889
4.4e+08	0.01039637	0.009317475	3.973434e-08	1.088524e-07	0.006709776	0.01287384	2.940672e-08	7.119114e-08
	3.973434e-08	1.088524e-07	0.009673145	0.009754716	7.729954e-08	4.010056e-07	0.00637533	0.01304864
	0.006709776	0.01287384	7.729954e-08	4.010056e-07	0.01063237	0.009471973	3.746521e-08	1.108511e-07
	2.940672e-08	7.119114e-08	0.00637533	0.01304864	3.746521e-08	1.108511e-07	0.009793774	0.009902287
4.5e+08	0.01268459	0.009535159	4.126163e-08	1.0742e-07	0.008226839	0.01326832	3.170454e-08	6.941429e-08
	4.126163e-08	1.0742e-07	0.01178719	0.01013251	7.917495e-08	4.066318e-07	0.007809839	0.0135228
	0.008226839	0.01326832	7.917495e-08	4.066318e-07	0.01294492	0.009650396	3.835864e-08	1.10112e-07
	3.170454e-08	6.941429e-08	0.007809839	0.0135228	3.835864e-08	1.10112e-07	0.01191103	0.01027271
4.6e+08	0.01495096	0.009375756	4.217561e-08	1.058054e-07	0.009780088	0.01340754	3.350611e-08	6.731275e-08
	4.217561e-08	1.058054e-07	0.01389875	0.01016378	8.056073e-08	4.122175e-07	0.009290479	0.01375631
	0.009780088	0.01340754	8.056073e-08	4.122175e-07	0.0152294	0.009447618	3.872617e-08	1.093059e-07
	3.350611e-08	6.731275e-08	0.009290479	0.01375631	3.872617e-08	1.093059e-07	0.01402401	0.01029618
4.7e+08	0.01713699	0.008849303	4.244723e-08	1.041161e-07	0.01132652	0.01328823	3.475954e-08	6.49713e-08
	4.244723e-08	1.041161e-07	0.01595448	0.009855585	8.145346e-08	4.178503e-07	0.01077671	0.01374436
	0.01132652	0.01328823	8.145346e-08	4.178503e-07	0.01742661	0.008874697	3.855824e-08	1.085268e-07
	3.475954e-08	6.49713e-08	0.01077671	0.01374436	3.855824e-08	1.085268e-07	0.01607933	0.009980035
4.8e+08	0.0191866	0.007974838	4.206648e-08	1.024632e-07	0.0128231	0.01291434	3.542769e-08	6.248217e-08
	4.206648e-08	1.024632e-07	0.01790299	0.009223037	8.186474e-08	4.236176e-07	0.01222769	0.01348891
	0.0128231	0.01291434	8.186474e-08	4.236176e-07	0.01947995	0.007951756	3.786211e-08	1.07869e-07
