!$
! Info: Touchstone file created by Circ.  Input file=Tx_8in_Rx_85ohms_TxVia_60mils_RxVia_70mils.circ
!$
# Hz S RI R 50
0	0.006548417	1.159259e-25	-4.349738e-05	7.439016e-24	6.414052e-05	1.277357e-23	-4.346019e-05	2.934846e-24
	-4.349738e-05	7.438986e-24	0.006544157	1.389667e-25	-4.353327e-05	1.194348e-23	6.326528e-05	1.588997e-23
	6.327232e-05	1.271648e-23	-4.353328e-05	1.19439e-23	0.006562249	1.172178e-25	-4.349539e-05	7.352357e-24
	-4.346019e-05	2.934359e-24	6.353504e-05	1.595811e-23	-4.349538e-05	7.351486e-24	0.006558652	1.38347e-25
1e+07	0.008561157	-0.00726027	-9.132043e-05	-2.113893e-05	0.000261263	0.00161122	-6.685405e-06	-1.785857e-06
	-9.132043e-05	-2.113893e-05	0.008578489	-0.007263059	-3.118247e-05	6.402646e-05	0.0002585012	0.001614796
	0.0002612475	0.001611233	-3.118247e-05	6.402646e-05	0.008603837	-0.007241974	-9.132318e-05	-2.115006e-05
	-6.685405e-06	-1.785857e-06	0.0002585036	0.001614793	-9.132318e-05	-2.115006e-05	0.008567379	-0.007252345
2e+07	0.008897297	-0.01670102	-8.426557e-05	1.276609e-05	0.0007063179	0.003117437	-5.46104e-06	-1.332603e-05
	-8.426557e-05	1.276609e-05	0.008880379	-0.01671189	-3.834735e-05	8.573542e-05	0.0006956227	0.003126144
	0.0007063248	0.003117446	-3.834735e-05	8.573542e-05	0.008937898	-0.01667581	-8.426371e-05	1.271514e-05
	-5.46104e-06	-1.332603e-05	0.0006956197	0.003126145	-8.426371e-05	1.271514e-05	0.008875856	-0.01668349
3e+07	0.006827845	-0.02687979	-8.269586e-05	9.22939e-06	0.0013873	0.004505606	-1.48098e-05	-1.561821e-05
	-8.269586e-05	9.22939e-06	0.006760756	-0.0268825	-3.384811e-05	0.0001044483	0.001364036	0.00452232
	0.001387301	0.004505606	-3.384811e-05	0.0001044483	0.006869149	-0.02684232	-8.269316e-05	9.14719e-06
	-1.48098e-05	-1.561821e-05	0.001364036	0.004522322	-8.269316e-05	9.14719e-06	0.006760175	-0.02684291
4e+07	0.002728677	-0.03677454	-8.189492e-05	9.206383e-06	0.00228163	0.005740868	-2.2551e-05	-1.436772e-05
	-8.189492e-05	9.206383e-06	0.002597308	-0.03675396	-2.157983e-05	0.0001168696	0.002242021	0.005769678
	0.002281629	0.005740869	-2.157983e-05	0.0001168696	0.00277257	-0.03672454	-8.189346e-05	9.085242e-06
	-2.2551e-05	-1.436772e-05	0.002242022	0.005769679	-8.189346e-05	9.085241e-06	0.002598882	-0.03670499
5e+07	-0.003159628	-0.04593746	-8.152629e-05	1.087187e-05	0.003357854	0.0067898	-2.896883e-05	-1.103214e-05
	-8.152629e-05	1.087187e-05	-0.003365968	-0.04587518	-4.316978e-06	0.0001217539	0.003299256	0.006835737
	0.003357853	0.006789801	-4.316978e-06	0.0001217539	-0.003111779	-0.04587559	-8.153221e-05	1.070353e-05
	-2.896883e-05	-1.103214e-05	0.003299257	0.006835737	-8.153221e-05	1.070353e-05	-0.003364089	-0.04581721
6e+07	-0.01060298	-0.05404274	-8.132397e-05	1.365887e-05	0.004578536	0.007625085	-3.413563e-05	-6.186696e-06
	-8.132397e-05	1.365887e-05	-0.01089029	-0.05391813	1.525814e-05	0.0001182161	0.004499595	0.007693825
	0.004578534	0.007625085	1.525814e-05	0.0001182161	-0.0105503	-0.05397001	-8.134737e-05	1.34359e-05
	-3.413563e-05	-6.186696e-06	0.004499596	0.007693825	-8.134737e-05	1.34359e-05	-0.01088955	-0.05385078
7e+07	-0.01935098	-0.06083566	-8.106271e-05	1.730377e-05	0.005902165	0.008226777	-3.802102e-05	-1.294872e-07
	-8.106271e-05	1.730377e-05	-0.0197205	-0.06062712	3.437816e-05	0.0001058108	0.005802916	0.008324349
	0.005902161	0.008226776	3.437816e-05	0.0001058108	-0.01929298	-0.06075316	-8.111754e-05	1.70208e-05
	-3.802102e-05	-1.294872e-07	0.005802917	0.008324348	-8.111754e-05	1.70208e-05	-0.01972205	-0.06054964
8e+07	-0.02913385	-0.06611948	-8.055063e-05	2.162943e-05	0.00728479	0.00858295	-4.051047e-05	6.973723e-06
	-8.055063e-05	2.162943e-05	-0.02958221	-0.06580523	5.015473e-05	8.453922e-05	0.007166699	0.00871544
	0.007284786	0.008582949	5.015473e-05	8.453922e-05	-0.02907039	-0.06602827	-8.065418e-05	2.128451e-05
	-4.051047e-05	6.973723e-06	0.0071667	0.00871544	-8.065418e-05	2.128451e-05	-0.02958696	-0.06571656
9e+07	-0.03966587	-0.0697519	-7.963207e-05	2.647962e-05	0.008681757	0.008690122	-4.135368e-05	1.508432e-05
	-7.963207e-05	2.647962e-05	-0.040185	-0.06931069	5.941465e-05	5.465217e-05	0.008547725	0.008863381
	0.008681754	0.008690122	5.941465e-05	5.465217e-05	-0.03959699	-0.0696529	-7.980414e-05	2.607528e-05
	-4.135368e-05	1.508432e-05	0.008547725	0.008863381	-7.980413e-05	2.607527e-05	-0.04019364	-0.06920946
1e+08	-0.05065306	-0.07164571	-7.821221e-05	3.170006e-05	0.01005082	0.008554683	-3.950457e-05	2.484936e-05
	-7.821221e-05	3.170006e-05	-0.05123016	-0.07105752	5.63922e-05	1.424263e-05	0.009905125	0.008774024
	0.01005082	0.008554683	5.63922e-05	1.424263e-05	-0.05057885	-0.07153949	-7.847434e-05	3.124372e-05
	-3.950457e-05	2.484936e-05	0.009905125	0.008774024	-7.847434e-05	3.124372e-05	-0.05124317	-0.07094224
1.1e+08	-0.06180035	-0.07174672	-7.622273e-05	3.701808e-05	0.01135446	0.008176815	-3.318354e-05	3.082056e-05
	-7.622273e-05	3.701808e-05	-0.06241678	-0.07099543	5.647736e-05	-4.126249e-05	0.01120264	0.008446676
	0.01135446	0.008176815	5.647736e-05	-4.126249e-05	-0.06172061	-0.07163481	-7.659402e-05	3.652314e-05
	-3.318354e-05	3.082056e-05	0.01120264	0.008446677	-7.659402e-05	3.652314e-05	-0.06243415	-0.07086348
1.2e+08	-0.07279393	-0.07007382	-7.353019e-05	4.239915e-05	0.01254081	0.007579823	-2.781158e-05	3.473748e-05
	-7.353019e-05	4.239915e-05	-0.07342917	-0.06914623	5.056729e-05	-9.310018e-05	0.01238946	0.007903596
	0.01254081	0.007579823	5.056729e-05	-9.310018e-05	-0.07270974	-0.06995713	-7.402718e-05	4.188658e-05
	-2.781158e-05	3.473748e-05	0.01238946	0.007903597	-7.402718e-05	4.188658e-05	-0.07344939	-0.06899551
1.3e+08	-0.08335136	-0.06669135	-7.015493e-05	4.76804e-05	0.01357786	0.006791939	-2.335124e-05	3.718893e-05
	-7.015493e-05	4.76804e-05	-0.08398156	-0.06557822	3.491583e-05	-0.0001429835	0.01343445	0.007171702
	0.01357786	0.006791939	3.491583e-05	-0.0001429835	-0.08326367	-0.06657034	-7.079026e-05	4.717595e-05
	-2.335124e-05	3.718893e-05	0.01343445	0.007171703	-7.079026e-05	4.717595e-05	-0.08400284	-0.0654071
1.4e+08	-0.09320601	-0.06170494	-6.612345e-05	5.272905e-05	0.01443748	0.005844135	-2.166526e-05	3.757944e-05
	-6.612345e-05	5.272905e-05	-0.09380502	-0.06040172	8.914285e-06	-0.0001894411	0.01431009	0.006280465
	0.01443748	0.005844135	8.914285e-06	-0.0001894411	-0.09311568	-0.06157975	-6.690374e-05	5.226201e-05
	-2.166526e-05	3.757944e-05	0.01431009	0.006280466	-6.690374e-05	5.226201e-05	-0.0938252	-0.060209
1.5e+08	-0.1021147	-0.05525957	-6.149529e-05	5.738285e-05	0.01509731	0.004770809	-1.977548e-05	3.809053e-05
	-6.149529e-05	5.738285e-05	-0.1026551	-0.05376694	-2.717943e-05	-0.000230531	0.01499431	0.005262659
	0.01509731	0.004770809	-2.717943e-05	-0.000230531	-0.1020226	-0.05513016	-6.242121e-05	5.69849e-05
	-1.977548e-05	3.809053e-05	0.01499431	0.00526266	-6.242121e-05	5.69849e-05	-0.1026717	-0.05355185
1.6e+08	-0.1098633	-0.04753503	-5.635524e-05	6.15317e-05	0.01554122	0.003608865	-1.771621e-05	3.863771e-05
	-5.635524e-05	6.15317e-05	-0.1103173	-0.04585909	-7.247357e-05	-0.0002642707	0.01547096	0.004153488
	0.01554122	0.003608865	-7.247357e-05	-0.0002642707	-0.10977	-0.04740116	-5.742017e-05	6.123553e-05
	-1.771621e-05	3.863771e-05	0.01547096	0.004153489	-5.742017e-05	6.123553e-05	-0.1103277	-0.04562141
1.7e+08	-0.116271	-0.03874048	-5.080606e-05	6.509107e-05	0.01575951	0.002396673	-1.551281e-05	3.916169e-05
	-5.080606e-05	6.509107e-05	-0.1166116	-0.03689287	-0.0001255545	-0.0002888474	0.01572998	0.002989617
	0.01575951	0.002396673	-0.0001255545	-0.0002888474	-0.116177	-0.03860183	-5.199578e-05	6.492855e-05
	-1.551281e-05	3.916169e-05	0.01572998	0.002989617	-5.199578e-05	6.492855e-05	-0.1166129	-0.03663294
1.8e+08	-0.1211936	-0.02910869	-4.496211e-05	6.800369e-05	0.01574885	0.001173055	-1.318749e-05	3.961837e-05
	-4.496211e-05	6.800369e-05	-0.1213958	-0.02710641	-0.0001845834	-0.000302757	0.01576733	0.001808226
	0.01574885	0.001173055	-0.0001845834	-0.000302757	-0.1210994	-0.02896482	-4.625497e-05	6.800402e-05
	-1.318749e-05	3.961837e-05	0.01576733	0.001808226	-4.625497e-05	6.800402e-05	-0.1213852	-0.02682514
1.9e+08	-0.1245265	-0.01888984	-3.894303e-05	7.023996e-05	0.01551215	-2.365875e-05	-1.07617e-05	3.997409e-05
	-3.894303e-05	7.023996e-05	-0.1245679	-0.01675496	-0.0002474	-0.000304902	0.01558487	0.0006461253
	0.01551215	-2.365874e-05	-0.0002474	-0.000304902	-0.1244322	-0.0187403	-4.031062e-05	7.04278e-05
	-1.07617e-05	3.997409e-05	0.01558487	0.0006461255	-4.031062e-05	7.04278e-05	-0.1245429	-0.01645387
2e+08	-0.1262059	-0.008345356	-3.286778e-05	7.179697e-05	0.01505825	-0.001156507	-8.256835e-06	4.020313e-05
	-3.286778e-05	7.179697e-05	-0.1260681	-0.00610448	-0.0003116333	-0.0002946568	0.01519012	-0.0004610508
	0.01505825	-0.001156507	-0.0003116333	-0.0002946568	-0.1261117	-0.008189684	-3.427605e-05	7.219086e-05
	-8.256835e-06	4.020313e-05	0.01519012	-0.0004610508	-3.427605e-05	7.219086e-05	-0.1260262	-0.005785642
2.1e+08	-0.1262095	0.002258424	-2.684939e-05	7.269676e-05	0.01440158	-0.002190682	-5.694457e-06	4.028623e-05
	-2.684939e-05	7.269676e-05	-0.125879	0.004574861	-0.0003748186	-0.0002719023	0.01459591	-0.001479579
	0.01440158	-0.002190682	-0.0003748186	-0.0002719023	-0.1261154	0.002420678	-2.826013e-05	7.330772e-05
	-5.694457e-06	4.028623e-05	0.01459591	-0.001479579	-2.826013e-05	7.330772e-05	-0.125818	0.004908847
2.2e+08	-0.1245569	0.01265647	-2.099023e-05	7.29836e-05	0.01356173	-0.003094256	-3.095986e-06	4.020957e-05
	-2.099023e-05	7.29836e-05	-0.1240253	0.01501504	-0.0004345133	-0.0002370346	0.01381999	-0.002378315
	0.01356173	-0.003094256	-0.0004345133	-0.0002370346	-0.1244627	0.01282571	-2.236296e-05	7.381422e-05
	-3.095986e-06	4.020957e-05	0.01381999	-0.002378315	-2.236296e-05	7.381422e-05	-0.1239437	0.01536113
2.3e+08	-0.1213081	0.02259116	-1.537817e-05	7.272074e-05	0.01256294	-0.003838828	-4.823883e-07	3.99639e-05
	-1.537817e-05	7.272074e-05	-0.1205732	0.02495644	-0.0004884112	-0.0001909476	0.01288463	-0.003129309
	0.01256294	-0.003838828	-0.0004884112	-0.0001909476	-0.1212136	0.02276771	-1.667214e-05	7.376469e-05
	-4.823883e-07	3.99639e-05	0.01288463	-0.003129309	-1.667214e-05	7.376469e-05	-0.12047	0.02531121
2.4e+08	-0.1165618	0.03181812	-1.008315e-05	7.198675e-05	0.01143361	-0.004400134	2.125919e-06	3.954397e-05
	-1.008315e-05	7.198675e-05	-0.1156281	0.03415376	-0.0005344469	-0.0001349876	0.01181615	-0.003708373
	0.01143361	-0.004400134	-0.0005344469	-0.0001349876	-0.1164668	0.03200225	-1.125954e-05	7.322882e-05
	2.125919e-06	3.954397e-05	0.01181615	-0.003708373	-1.125954e-05	7.322882e-05	-0.1155028	0.03451354
2.5e+08	-0.1104535	0.0401118	-5.154709e-06	7.087119e-05	0.01020568	-0.004758593	4.709565e-06	3.894779e-05
	-5.154709e-06	7.087119e-05	-0.1093319	0.04238175	-0.0005708885	-7.08927e-05	0.01064435	-0.004095621
	0.01020568	-0.004758593	-0.0005708885	-7.08927e-05	-0.1103575	0.04030368	-6.178754e-06	7.228787e-05
	4.709565e-06	3.894779e-05	0.01064435	-0.004095621	-6.178754e-06	7.228787e-05	-0.1091849	0.04274272
2.6e+08	-0.1031517	0.04727071	-6.200901e-07	6.947e-05	0.008913942	-0.004899811	7.250241e-06	3.817612e-05
	-6.200901e-07	6.947e-05	-0.1018599	0.04944041	-0.000596413	-7.078515e-07	0.009401961	-0.004275958
	0.008913942	-0.004899811	-0.000596413	-7.078515e-07	-0.1030544	0.04747044	-1.463027e-06	7.10306e-05
	7.250241e-06	3.817612e-05	0.009401961	-0.004275958	-1.463027e-06	7.10306e-05	-0.1016921	0.04979874
2.7e+08	-0.09485402	0.05312214	3.516672e-06	6.788039e-05	0.007595361	-0.004815029	9.730879e-06	3.723192e-05
	3.516672e-06	6.788039e-05	-0.09341644	0.05515976	-0.0006101642	7.330822e-05	0.008123977	-0.004239537
	0.007595361	-0.004815029	-0.0006101642	7.330822e-05	-0.09475514	0.0533297	2.87593e-06	6.954862e-05
	9.730879e-06	3.723192e-05	0.008123977	-0.004239537	2.87593e-06	6.954862e-05	-0.09322956	0.05551174
2.8e+08	-0.08578306	0.05752636	7.274828e-06	6.619567e-05	0.006288213	-0.004501496	1.213557e-05	3.612004e-05
	7.274828e-06	6.619567e-05	-0.08422999	0.05940401	-0.0006117845	0.0001487959	0.006846889	-0.003982152
	0.006288213	-0.004501496	-0.0006117845	0.0001487959	-0.08568216	0.05774166	6.848459e-06	6.793169e-05
	1.213557e-05	3.612004e-05	0.006846889	-0.003982152	6.848459e-06	6.793169e-05	-0.08402645	0.0597462
2.9e+08	-0.07618071	0.0603802	1.06957e-05	6.449965e-05	0.005031184	-0.003962749	1.444957e-05	3.484685e-05
	1.06957e-05	6.449965e-05	-0.07454795	0.06207509	-0.0006014237	0.0002234047	0.005607848	-0.00350555
	0.005031184	-0.003962749	-0.0006014237	0.0002234047	-0.07607746	0.06060306	1.048625e-05	6.626232e-05
	1.444957e-05	3.484685e-05	0.005607848	-0.00350555	1.048625e-05	6.626232e-05	-0.07433087	0.06240443
3e+08	-0.06630264	0.06161985	1.384021e-05	6.286134e-05	0.003862378	-0.003208769	1.665924e-05	3.341994e-05
	1.384021e-05	6.286134e-05	-0.06463059	0.06311529	-0.0005797306	0.0002948997	0.00444373	-0.002817633
	0.003862378	-0.003208769	-0.0005797306	0.0002948997	-0.06619674	0.06185	1.384048e-05	6.461072e-05
	1.665924e-05	3.341994e-05	0.00444373	-0.002817633	1.384048e-05	6.461072e-05	-0.06440366	0.06342924
3.1e+08	-0.05641201	0.0612228	1.675893e-05	6.128813e-05	0.002818237	-0.002255992	1.87522e-05	3.184894e-05
	1.675893e-05	6.128813e-05	-0.05474457	0.06250917	-0.000544283	0.0003637655	0.003390114	-0.001932519
	0.002818237	-0.002255992	-0.000544283	0.0003637655	-0.05630319	0.06145992	1.695386e-05	6.298665e-05
	1.87522e-05	3.184894e-05	0.003390114	-0.001932519	1.695386e-05	6.298665e-05	-0.054512	0.06280581
3.2e+08	-0.04677288	0.05920888	1.949683e-05	5.977807e-05	0.001932423	-0.001127121	2.071762e-05	3.014424e-05
	1.949683e-05	5.977807e-05	-0.04515624	0.06028427	-0.0004922993	0.0004295099	0.002480204	-0.0008704212
	0.001932423	-0.001127121	-0.0004922993	0.0004295099	-0.04666096	0.05945259	1.986399e-05	6.13921e-05
	2.071762e-05	3.014424e-05	0.002480204	-0.0008704212	1.986399e-05	6.13921e-05	-0.0449227	0.06056241
3.3e+08	-0.03764345	0.05564017	2.219444e-05	5.842484e-05	0.001234675	0.0001492614	2.25445e-05	2.83147e-05
	2.219444e-05	5.842484e-05	-0.03612476	0.05651088	-0.0004325042	0.0004851141	0.001743719	0.00034267
	0.001234675	0.0001492614	-0.0004325042	0.0004851141	-0.03752834	0.05589	2.270185e-05	5.993124e-05
	2.25445e-05	2.83147e-05	0.001743719	0.00034267	2.270185e-05	5.993124e-05	-0.03589514	0.05677017
3.4e+08	-0.0292692	0.05061992	2.494601e-05	5.720213e-05	0.0007497044	0.00153932	2.422271e-05	2.637177e-05
	2.494601e-05	5.720213e-05	-0.02789507	0.0513007	-0.0003671509	0.0005296999	0.001205809	0.001675534
	0.0007497044	0.00153932	-0.0003671509	0.0005296999	-0.02915093	0.05087535	2.555742e-05	5.858744e-05
	2.422271e-05	2.637177e-05	0.001205809	0.001675534	2.555742e-05	5.858744e-05	-0.02767439	0.05154169
3.5e+08	-0.02187628	0.04429015	2.783535e-05	5.605578e-05	0.0004961706	0.003004827	2.574396e-05	2.43284e-05
	2.783535e-05	5.605578e-05	-0.02069125	0.04480422	-0.0002985853	0.0005629098	0.0008860373	0.003092505
	0.0004961706	0.003004827	-0.0002985853	0.0005629098	-0.02175498	0.04455065	2.85133e-05	5.731736e-05
	2.574396e-05	2.43284e-05	0.0008860373	0.003092505	2.85133e-05	5.731736e-05	-0.02048452	0.04502835
3.6e+08	-0.01566515	0.0368283	3.092794e-05	5.490685e-05	0.0004858073	0.004504255	2.710127e-05	2.219832e-05
	3.092794e-05	5.490685e-05	-0.01471014	0.03720704	-0.0002291061	0.000584917	0.0007974968	0.004554475
	0.0004858073	0.004504255	-0.0002291061	0.000584917	-0.01554109	0.03709337	3.163637e-05	5.605282e-05
	2.710127e-05	2.219832e-05	0.0007974968	0.004554475	3.163637e-05	5.605282e-05	-0.01452219	0.03741665
3.7e+08	-0.0108049	0.02844268	3.426361e-05	5.365705e-05	0.0007227532	0.005994073	2.828902e-05	1.999576e-05
	3.426361e-05	5.365705e-05	-0.0101157	0.02872506	-0.0001608444	0.0005963933	0.000946123	0.006020116
	0.0007227532	0.005994073	-0.0001608444	0.0005963933	-0.01067846	0.02871183	3.497096e-05	5.470569e-05
	2.828902e-05	1.999576e-05	0.000946123	0.006020116	3.497096e-05	5.470569e-05	-0.009951016	0.02892337
3.8e+08	-0.007428265	0.01936692	3.785156e-05	5.219644e-05	0.001203146	0.0074302	2.930326e-05	1.773541e-05
	3.785156e-05	5.219644e-05	-0.007034186	0.01959863	-9.564985e-05	0.0005984494	0.001330249	0.007447254
	0.001203146	0.0074302	-9.564985e-05	0.0005984494	-0.007299965	0.01963974	3.853346e-05	5.317478e-05
	2.930326e-05	1.773541e-05	0.001330249	0.007447254	3.853346e-05	5.317478e-05	-0.006896731	0.01978969
3.9e+08	-0.005627772	0.009853625	4.166739e-05	5.041244e-05	0.00191502	0.008769563	3.014174e-05	1.543207e-05
	4.166739e-05	5.041244e-05	-0.005550337	0.01008592	-3.499568e-05	0.0005925478	0.001940457	0.008794352
	0.00191502	0.008769563	-3.499568e-05	0.0005925478	-0.005498252	0.0101298	4.230901e-05	5.13541e-05
	3.014174e-05	1.543207e-05	0.001940457	0.008794352	4.230901e-05	5.13541e-05	-0.005443427	0.01027456
4e+08	-0.005452914	0.0001673186	4.565293e-05	4.819969e-05	0.002838537	0.009971673	3.080381e-05	1.310037e-05
	4.565293e-05	4.819969e-05	-0.005704852	0.0004556966	2.008974e-05	0.0005803959	0.002759743	0.01002202
	0.002838537	0.009971673	2.008974e-05	0.0005803959	-0.005322926	0.0004466465	4.625066e-05	4.91421e-05
	3.080381e-05	1.310037e-05	0.002759743	0.01002202	4.625066e-05	4.91421e-05	-0.005630998	0.0006473481
4.1e+08	-0.006908697	-0.009423025	4.971908e-05	4.54696e-05	0.00394656	0.01100016	3.129036e-05	1.075445e-05
	4.971908e-05	4.54696e-05	-0.007493134	-0.009020404	6.906395e-05	0.0005638238	0.003764016	0.01109451
	0.00394656	0.01100016	6.906395e-05	0.0005638238	-0.00677908	-0.009140581	5.028149e-05	4.645085e-05
	3.129036e-05	1.075445e-05	0.003764016	0.01109451	5.028149e-05	4.645085e-05	-0.007453925	-0.008819781
4.2e+08	-0.009955512	-0.01865161	5.375133e-05	4.215885e-05	0.00520554	0.01182414	3.160358e-05	8.407808e-06
	5.375133e-05	4.215885e-05	-0.01086546	-0.01807562	0.000111878	0.0005446567	0.004922906	0.01198103
	0.00520554	0.01182414	0.000111878	0.0005446567	-0.009827164	-0.01836591	5.429923e-05	4.321427e-05
	3.160358e-05	8.407808e-06	0.004922906	0.01198103	5.429923e-05	4.321427e-05	-0.01086147	-0.01785972
4.3e+08	-0.01451039	-0.02726336	5.761763e-05	3.823597e-05	0.0065767	0.01241942	3.174667e-05	6.073152e-06
	5.761763e-05	3.823597e-05	-0.01572855	-0.0264557	0.0001489503	0.0005245911	0.00620085	0.01265691
	0.0065767	0.01241942	0.0001489503	0.0005245911	-0.01438422	-0.02697406	5.818322e-05	3.939478e-05
	3.174667e-05	6.073152e-06	0.00620085	0.01265691	5.818322e-05	3.939478e-05	-0.01575927	-0.02621807
4.4e+08	-0.02044957	-0.03502111	6.117788e-05	3.370533e-05	0.008017439	0.01276937	3.17236e-05	3.762368e-06
	6.117788e-05	3.370533e-05	-0.02194845	-0.03392614	0.0001811112	0.0005050816	0.007558398	0.0131045
	0.008017439	0.01276937	0.0001811112	0.0005050816	-0.02032648	-0.03472764	6.180303e-05	3.498755e-05
	3.17236e-05	3.762368e-06	0.007558398	0.0131045	6.180303e-05	3.498755e-05	-0.02201226	-0.03366033
4.5e+08	-0.02761231	-0.04171215	6.429428e-05	2.860818e-05	0.009482891	0.01286553	3.153894e-05	1.486611e-06
	6.429428e-05	2.860818e-05	-0.0293547	-0.0402787	0.0002095207	0.0004872475	0.008953676	0.01331375
	0.009482891	0.01286553	0.0002095207	0.0004872475	-0.02749311	-0.04141372	6.5028e-05	3.002201e-05
	3.153894e-05	1.486611e-06	0.008953676	0.01331375	6.5028e-05	3.002201e-05	-0.02944884	-0.03997847
4.6e+08	-0.03580576	-0.04715397	6.684133e-05	2.302059e-05	0.01092756	0.0127078	3.119769e-05	-7.435821e-07
	6.684133e-05	2.302059e-05	-0.03774551	-0.04533701	0.0002355658	0.000471804	0.01034391	0.01328244
	0.01092756	0.0127078	0.0002355658	0.000471804	-0.03569114	-0.04684959	6.773659e-05	2.456054e-05
	3.119769e-05	-7.435821e-07	0.01034391	0.01328244	6.773659e-05	2.456054e-05	-0.03786614	-0.04499655
4.7e+08	-0.0448107	-0.05119897	6.87147e-05	1.704874e-05	0.01230692	0.01230435	3.070524e-05	-2.918152e-06
	6.87147e-05	1.704874e-05	-0.04689381	-0.04896123	0.0002607448	0.0004590229	0.01168696	0.01301615
	0.01230692	0.01230435	0.0002607448	0.0004590229	-0.04470119	-0.05088745	6.982482e-05	1.869463e-05
	3.070524e-05	-2.918152e-06	0.01168696	0.01301615	6.982482e-05	1.869463e-05	-0.04703606	-0.04857533
4.8e+08	-0.05438797	-0.05373807	6.983843e-05	1.082187e-05	0.01357898	0.01167117	3.006746e-05	-5.02742e-06
