!$
! Info: Touchstone file created by Circ.  Input file=Tx_8in_Rx_93ohms_TxVia_60mils_RxVia_70mils.circ
!$
# Hz S RI R 50
0	0.007439263	1.306462e-25	0.9924203	-1.220482e-25	6.629442e-05	1.619853e-23	-6.162579e-05	2.27678e-21
	0.9924203	-1.234923e-25	0.007434611	1.384184e-25	-6.210695e-05	2.335748e-21	6.303628e-05	1.80735e-23
	6.751727e-05	1.573825e-23	-6.141678e-05	2.251221e-21	0.007449997	1.295858e-25	0.9923986	-1.188703e-25
	-6.189511e-05	2.309756e-21	6.3306e-05	1.815101e-23	0.9923986	-1.248763e-25	0.00744908	1.378012e-25
1e+07	0.01088562	-0.0004181785	0.9850908	-0.08572947	0.0002576069	0.001623945	-0.000120346	-0.000115409
	0.9850907	-0.08572947	0.01087871	-0.0004181899	-0.0001204478	-0.0001153525	0.0002548177	0.001624728
	0.0002576769	0.001623912	-0.0001204143	-0.0001153727	0.01067884	-0.0004227885	0.9852887	-0.08583236
	-0.0001203124	-0.0001154291	0.0002548201	0.001624725	0.9852887	-0.08583236	0.01067129	-0.0004225293
2e+07	0.01282011	-0.003548572	0.9717384	-0.1677869	0.0006185171	0.003227804	-8.548969e-05	-0.00026689
	0.9717384	-0.1677869	0.01279222	-0.003546097	-8.551543e-05	-0.000266805	0.0006075719	0.003230935
	0.0006185024	0.003227767	-8.552321e-05	-0.0002668244	0.01266557	-0.003482822	0.9718575	-0.1680656
	-8.548317e-05	-0.0002669265	0.0006075689	0.003230936	0.9718575	-0.1680656	0.01263508	-0.003479641
3e+07	0.01347829	-0.007633152	0.9523842	-0.2474361	0.001282372	0.004669393	-0.0001108389	-0.0003573721
	0.9523842	-0.2474361	0.01341627	-0.00762109	-0.0001108828	-0.0003573327	0.00125851	0.004677655
	0.001282368	0.004669393	-0.0001108846	-0.0003573324	0.01336336	-0.007553523	0.9524195	-0.2478295
	-0.0001108412	-0.0003573758	0.00125851	0.004677657	0.9524195	-0.2478295	0.01329573	-0.007539503
4e+07	0.01312673	-0.01196917	0.9269233	-0.3247704	0.002203176	0.005942776	-0.0001744639	-0.0004238234
	0.9269233	-0.3247704	0.0130191	-0.01193771	-0.0001745553	-0.0004237624	0.00216238	0.005960096
	0.002203181	0.005942775	-0.0001745515	-0.0004237621	0.01304379	-0.01189139	0.9268656	-0.3252565
	-0.0001744557	-0.000423818	0.002162381	0.005960097	0.9268656	-0.3252565	0.0129265	-0.01185595
5e+07	0.01188393	-0.01628528	0.8954618	-0.3994485	0.003304281	0.007029969	-0.0002311325	-0.0004867961
	0.8954618	-0.3994485	0.01172175	-0.01622132	-0.0002312468	-0.0004866762	0.003243603	0.007061246
	0.003304284	0.007029967	-0.0002312446	-0.000486677	0.011826	-0.01621835	0.8953018	-0.4000099
	-0.0002311262	-0.0004867952	0.003243604	0.007061246	0.8953018	-0.4000099	0.01164929	-0.01614711
6e+07	0.009841585	-0.02039628	0.8581912	-0.4710641	0.004552404	0.007905931	-0.0002860209	-0.0005526524
	0.8581912	-0.4710641	0.009619576	-0.02028469	-0.0002861346	-0.0005524633	0.004470106	0.007956726
	0.004552404	0.007905933	-0.0002861351	-0.0005524626	0.009801876	-0.020346	0.8579202	-0.4716838
	-0.0002860265	-0.0005526518	0.004470107	0.007956726	0.8579202	-0.4716838	0.0095601	-0.02022239
7e+07	0.007090192	-0.02415733	0.8153581	-0.5391988	0.005909778	0.008550522	-0.0003446986	-0.0006246535
	0.8153581	-0.5391988	0.006806642	-0.0239821	-0.0003447985	-0.0006243893	0.005805427	0.0086268
	0.005909776	0.008550528	-0.0003448001	-0.0006243864	0.007061943	-0.02412752	0.814969	-0.5398602
	-0.0003447146	-0.0006246462	0.005805429	0.008626799	0.814969	-0.5398602	0.00675335	-0.02393413
8e+07	0.003726875	-0.02745018	0.7672534	-0.6034433	0.007335439	0.008949792	-0.0004128954	-0.0007037451
	0.7672534	-0.6034433	0.003383488	-0.02719501	-0.0004129708	-0.000703394	0.007209969	0.009057652
	0.007335439	0.008949799	-0.0004129722	-0.0007033898	0.003703229	-0.02744326	0.7667407	-0.6041288
	-0.0004129134	-0.0007037303	0.00720997	0.009057651	0.7667407	-0.6041288	0.003329699	-0.02716238
9e+07	-0.0001413778	-0.03017767	0.7142046	-0.6634084	0.008786461	0.009096685	-0.0004962084	-0.0007888126
	0.7142046	-0.6634084	-0.0005394549	-0.02982641	-0.0004962429	-0.0007883567	0.008642184	0.009242089
	0.008786462	0.00909669	-0.0004962433	-0.0007883533	-0.0001675841	-0.03019503	0.7135654	-0.6640998
	-0.0004962199	-0.000788798	0.008642184	0.009242088	0.7135654	-0.6640998	-0.000600487	-0.02980908
1e+08	-0.004385703	-0.03225172	0.6565568	-0.7187434	0.01021921	0.008991045	-0.0005996083	-0.0008764279
	0.6565568	-0.7187434	-0.004829804	-0.03178905	-0.0005995745	-0.0008758478	0.01005979	0.009179541
	0.01021921	0.008991045	-0.0005995746	-0.0008758479	-0.004423823	-0.0322956	0.6557926	-0.7194199
	-0.0005996083	-0.000876428	0.01005979	0.009179541	0.6557926	-0.7194199	-0.004906702	-0.03178778
1.1e+08	-0.008862171	-0.03371725	0.5946767	-0.7690001	0.01158909	0.008642325	-0.0007259695	-0.0009634546
	0.5946767	-0.7690001	-0.009339364	-0.03312993	-0.0007258215	-0.0009627897	0.01141945	0.00887871
	0.01158909	0.008642325	-0.0007258215	-0.0009627896	-0.008924853	-0.03377501	0.5937957	-0.7696563
	-0.0007259695	-0.0009634545	0.01141945	0.00887871	0.5937957	-0.7696563	-0.009443346	-0.03313094
1.2e+08	-0.01355094	-0.03449906	0.5291003	-0.8139199	0.01285768	0.008066322	-0.0008805509	-0.001044601
	0.5291003	-0.8139199	-0.01404593	-0.0337759	-0.0008802616	-0.001043875	0.01268384	0.008354447
	0.01285768	0.008066322	-0.0008802615	-0.001043875	-0.01363624	-0.03456313	0.5280967	-0.8145441
	-0.0008805508	-0.001044601	0.01268383	0.008354448	0.5280967	-0.8145441	-0.01417359	-0.03377068
1.3e+08	-0.01831434	-0.03456024	0.4602568	-0.8532606	0.01398793	0.007284131	-0.001064855	-0.001112213
	0.4602568	-0.8532606	-0.01880919	-0.0336931	-0.001064403	-0.001111456	0.01381678	0.007626685
	0.01398793	0.007284132	-0.001064403	-0.001111456	-0.01842194	-0.0346257	0.4591291	-0.8538377
	-0.001064855	-0.001112213	0.01381678	0.007626686	0.4591291	-0.8538377	-0.01895852	-0.03367612
1.4e+08	-0.02302871	-0.03389943	0.3886085	-0.8867999	0.0149471	0.006323151	-0.00127857	-0.001158493
	0.3886085	-0.8867999	-0.0235035	-0.03288376	-0.001277941	-0.001157744	0.01478624	0.006721467
	0.0149471	0.006323152	-0.001277941	-0.001157744	-0.02315815	-0.03396195	0.3873577	-0.887314
	-0.001278569	-0.001158493	0.01478623	0.006721468	0.3873577	-0.887314	-0.02367219	-0.03285037
1.5e+08	-0.02757614	-0.03253682	0.3146349	-0.9143515	0.01570774	0.005215869	-0.001519416	-0.0011756
	0.3146349	-0.9143515	-0.0280097	-0.031372	-0.001518608	-0.001174899	0.01556515	0.005669786
	0.01570774	0.005215869	-0.001518607	-0.001174899	-0.02772658	-0.03259241	0.3132639	-0.9147864
	-0.001519416	-0.0011756	0.01556515	0.005669787	0.3132639	-0.9147864	-0.02819496	-0.03131825
1.6e+08	-0.03184597	-0.03051155	0.2388278	-0.9357677	0.01624841	0.003998832	-0.001783154	-0.001156101
	0.2388278	-0.9357677	-0.03221664	-0.02920115	-0.001782173	-0.00115549	0.01613221	0.004506607
	0.01624841	0.003998832	-0.001782173	-0.001155491	-0.03201608	-0.03055645	0.2373418	-0.9361071
	-0.001783154	-0.001156102	0.01613221	0.004506607	0.2373418	-0.9361071	-0.03241519	-0.02912375
1.7e+08	-0.03573697	-0.02787969	0.1616878	-0.9509399	0.01655424	0.002711541	-0.002063716	-0.001093438
	0.1616878	-0.9509399	-0.03602343	-0.02643157	-0.00206258	-0.001092959	0.01647236	0.003269815
	0.01655424	0.002711541	-0.00206258	-0.001092959	-0.03592496	-0.02791048	0.1600938	-0.9511682
	-0.002063716	-0.001093438	0.01647236	0.003269815	0.1600938	-0.9511682	-0.03623156	-0.02632792
1.8e+08	-0.03915939	-0.02471223	0.08372058	-0.9597997	0.01661731	0.001395285	-0.002353442	-0.0009823493
	0.08372058	-0.9597997	-0.0393415	-0.02313851	-0.00235218	-0.0009820369	0.01657715	0.001999112
	0.01661731	0.001395285	-0.00235218	-0.000982037	-0.039363	-0.02472581	0.08202752	-0.9599014
	-0.002353442	-0.0009823494	0.01657715	0.001999112	0.08202752	-0.9599014	-0.03955517	-0.02300676
1.9e+08	-0.04203688	-0.02109288	0.00543376	-0.9623182	0.0164368	9.19445e-05	-0.002643418	-0.0008192246
	0.00543376	-0.9623182	-0.04209648	-0.01940973	-0.002642068	-0.0008191077	0.01644496	0.00073488
	0.0164368	9.194454e-05	-0.002642067	-0.0008191078	-0.04225341	-0.02108659	0.003652325	-0.9622791
	-0.002643418	-0.0008192247	0.01644496	0.0007348801	0.003652325	-0.9622791	-0.04231141	-0.01924879
2e+08	-0.04430798	-0.01711573	-0.07266619	-0.9585064	0.01601895	-0.001157201	-0.002923879	-0.0006023718
	-0.07266619	-0.9585064	-0.04422969	-0.01534299	-0.002922485	-0.0006024688	0.0160809	-0.0004829514
	0.01601895	-0.001157201	-0.002922485	-0.0006024688	-0.04453436	-0.01708734	-0.07452362	-0.9583129
	-0.002923879	-0.0006023719	0.0160809	-0.0004829513	-0.07452362	-0.9583129	-0.04444151	-0.01515258
2.1e+08	-0.04592736	-0.01288266	-0.1500769	-0.9484142	0.01537681	-0.002312629	-0.003184669	-0.0003321766
	-0.1500769	-0.9484142	-0.04569929	-0.0110434	-0.00318328	-0.0003324937	0.01549666	-0.001616008
	0.01537681	-0.002312629	-0.00318328	-0.0003324938	-0.04616022	-0.01283047	-0.1519964	-0.9480541
	-0.003184669	-0.0003321766	0.01549666	-0.001616008	-0.1519964	-0.9480541	-0.04590366	-0.01082399
2.2e+08	-0.04686665	-0.008500734	-0.2263031	-0.93213	0.01452985	-0.003337668	-0.003415724	-1.115157e-05
	-0.2263031	-0.93213	-0.04648102	-0.006620548	-0.00341439	-1.168235e-05	0.0147101	-0.002628516
	0.01452985	-0.003337668	-0.00341439	-1.168238e-05	-0.04710235	-0.008423616	-0.2282691	-0.9315924
	-0.003415724	-1.11516e-05	0.0147101	-0.002628516	-0.2282691	-0.9315924	-0.04667374	-0.006373417
2.3e+08	-0.04711481	-0.004079488	-0.300859	-0.9097798	0.01350337	-0.004199501	-0.003607543	0.0003561289
	-0.300859	-0.9097798	-0.04656846	-0.002185791	-0.003606312	0.0003554041	0.01374473	-0.003488259
	0.01350337	-0.004199501	-0.003606312	0.0003554041	-0.04734959	-0.003976885	-0.3028548	-0.9090551
	-0.003607543	0.0003561289	0.01374473	-0.003488259	-0.3028548	-0.9090551	-0.04674564	-0.001912933
2.4e+08	-0.04667824	0.0002718043	-0.3732711	-0.8815263	0.01232775	-0.004870059	-0.003751645	0.0007632028
	-0.3732711	-0.8815263	-0.045973	0.002150634	-0.003750557	0.0007623156	0.01262904	-0.00416744
	0.01232775	-0.004870059	-0.003750557	0.0007623156	-0.04690825	0.0003998313	-0.3752787	-0.8806066
	-0.003751645	0.0007632028	0.01262904	-0.004167441	-0.3752787	-0.8806066	-0.04613114	0.002446549
2.5e+08	-0.04558033	0.004446783	-0.4430807	-0.8475677	0.01103761	-0.005326776	-0.003840953	0.001201992
	-0.4430807	-0.8475677	-0.04472323	0.006282315	-0.00384004	0.001200985	0.01139568	-0.004643421
	0.01103761	-0.005326777	-0.00384004	0.001200985	-0.04580177	0.004599556	-0.4450813	-0.8464467
	-0.003840953	0.001201992	0.01139568	-0.004643421	-0.4450813	-0.8464467	-0.04485935	0.006598024
2.6e+08	-0.04386079	0.008344623	-0.5098464	-0.8081365	0.009670861	-0.005553207	-0.003870116	0.001663158
	-0.5098464	-0.8081365	-0.0428641	0.01010932	-0.003869397	0.00166208	0.01008057	-0.004899314
	0.009670861	-0.005553207	-0.003869397	0.00166208	-0.04406995	0.00852081	-0.51182	-0.80681
	-0.003870116	0.001663158	0.01008057	-0.004899314	-0.51182	-0.80681	-0.04297582	0.01044102
2.7e+08	-0.04157443	0.01187233	-0.5731462	-0.7634984	0.008267607	-0.005539472	-0.003835731	0.002136516
	-0.5731462	-0.7634984	-0.04045555	0.01354051	-0.003835211	0.002135421	0.008721934	-0.004924442
	0.008267607	-0.005539472	-0.003835211	0.002135421	-0.04176786	0.01207004	-0.5750723	-0.7619638
	-0.003835731	0.002136516	0.008721934	-0.004924442	-0.5750723	-0.7619638	-0.04054118	0.01388406
2.8e+08	-0.03878974	0.01494705	-0.6325802	-0.7139508	0.006869083	-0.005282537	-0.003736466	0.002611488
	-0.6325802	-0.7139508	-0.03757091	0.01649585	-0.003736137	0.002610431	0.007359235	-0.004714621
	0.006869083	-0.005282537	-0.003736137	0.002610431	-0.0389643	0.01516385	-0.6344378	-0.7122076
	-0.003736466	0.002611488	0.007359235	-0.004714621	-0.6344378	-0.7122076	-0.0376295	0.01684683
2.9e+08	-0.03558713	0.01749802	-0.6877724	-0.6598211	0.005516501	-0.004786315	-0.003573074	0.00307757
	-0.6877724	-0.6598211	-0.03429492	0.01890824	-0.00357291	0.003076601	0.006032111	-0.00427229
	0.005516501	-0.004786315	-0.00357291	0.003076601	-0.03574007	0.01773098	-0.6895401	-0.6578709
	-0.003573074	0.00307757	0.006032111	-0.00427229	-0.6895401	-0.6578709	-0.03432634	0.01926211
3e+08	-0.03205683	0.01946821	-0.7383735	-0.6014651	0.004249903	-0.004061579	-0.003348293	0.003524784
	-0.7383735	-0.6014651	-0.03072156	0.02072515	-0.003348254	0.003523946	0.004779286	-0.003606458
	0.004249903	-0.004061579	-0.003348254	0.003523946	-0.03218589	0.01971394	-0.7400297	-0.5993116
	-0.003348293	0.003524784	0.004779286	-0.003606458	-0.7400297	-0.5993116	-0.03072645	0.02107739
3.1e+08	-0.02829664	0.02081566	-0.7840625	-0.5392654	0.003107048	-0.003125703	-0.00306665	0.003944091
	-0.7840625	-0.5392654	-0.02695159	0.02190982	-0.003066687	0.003943414	0.003637506	-0.002732486
	0.003107048	-0.003125703	-0.003066687	0.003943414	-0.0284001	0.02107043	-0.7855857	-0.5369142
	-0.00306665	0.003944091	0.003637506	-0.002732486	-0.7855857	-0.5369142	-0.02693138	0.02225603
3.2e+08	-0.02440947	0.02151443	-0.824549	-0.4736288	0.002122335	-0.002002207	-0.002734176	0.00432774
	-0.824549	-0.4736288	-0.02308996	0.02244206	-0.00273423	0.00432724	0.002640506	-0.001671697
	0.002122335	-0.002002207	-0.00273423	0.00432724	-0.0244862	0.02177422	-0.825918	-0.4710879
	-0.002734176	0.00432774	0.002640506	-0.001671697	-0.825918	-0.4710879	-0.02304684	0.02277813
3.3e+08	-0.02050074	0.02155518	-0.8595754	-0.4049846	0.001325813	-0.0007201482	-0.002358045	0.004669543
	-0.8595754	-0.4049846	-0.01924315	0.02231869	-0.002358053	0.004669219	0.001818057	-0.000450818
	0.001325813	-0.0007201482	-0.002358053	0.004669219	-0.02055028	0.0218158	-0.8607693	-0.402264
	-0.002358045	0.004669543	0.001818057	-0.0004508179	-0.8607693	-0.402264	-0.01918001	0.02264092
3.4e+08	-0.01667575	0.02094535	-0.8889184	-0.333782	0.0007422957	0.0006866586	-0.001946169	0.004965046
	-0.8889184	-0.333782	-0.01551645	0.02155353	-0.001946068	0.00496488	0.001195098	0.0008987307
	0.0007422957	0.0006866586	-0.001946068	0.00496488	-0.01669831	0.02120252	-0.889917	-0.3308938
	-0.001946169	0.004965046	0.001195098	0.0008987307	-0.889917	-0.3308938	-0.01543682	0.02185873
3.5e+08	-0.0130371	0.01970888	-0.912391	-0.2604874	0.0003906114	0.002180563	-0.001506762	0.005211603
	-0.912391	-0.2604874	-0.01201129	0.02017695	-0.001506495	0.005211558	0.000791002	0.002341682
	0.0003906114	0.002180563	-0.001506495	0.005211558	-0.01303358	0.01995836	-0.9131749	-0.2574459
	-0.001506762	0.005211603	0.000791002	0.002341682	-0.9131749	-0.2574459	-0.01191922	0.02046256
3.6e+08	-0.009682055	0.01788558	-0.9298442	-0.1855816	0.0002830039	0.003721121	-0.001047911	0.005408336
	-0.9298442	-0.1855816	-0.008822671	0.01823502	-0.00104743	0.005408359	0.000618973	0.003839894
	0.0002830039	0.003721121	-0.00104743	0.005408359	-0.009654036	0.01812327	-0.930395	-0.182403
	-0.001047911	0.005408336	0.000618973	0.003839894	-0.930395	-0.182403	-0.008722639	0.01849919
3.7e+08	-0.006700168	0.01553006	-0.9411678	-0.1095569	0.0004247176	0.005266229	-0.0005771698	0.005556
	-0.9411678	-0.1095569	-0.006036756	0.01578826	-0.0005764414	0.005556022	0.0006856201	0.005353415
	0.0004247176	0.005266229	-0.0005764414	0.005556022	-0.006649899	0.01575212	-0.9414684	-0.1062595
	-0.0005771698	0.005556	0.0006856202	0.005353415	-0.9414684	-0.1062595	-0.005933552	0.01602993
3.8e+08	-0.004171027	0.01271032	-0.9462921	-0.03291375	0.0008137757	0.006773336	-0.0001012041	0.005656744
	-0.9462921	-0.03291375	-0.003728708	0.01291003	-0.0001002137	0.00565669	0.0009907093	0.006841619
	0.0008137757	0.006773336	-0.0001002137	0.00565669	-0.004101383	0.01291328	-0.9463268	-0.02951768
	-0.0001012041	0.005656744	0.0009907093	0.006841619	-0.9463268	-0.02951768	-0.003627278	0.01312897
3.9e+08	-0.002162286	0.009506	-0.9451884	0.04384254	0.001440967	0.00820067	0.0003744858	0.005713808
	-0.9451884	0.04384254	-0.001960791	0.009684569	0.0003757326	0.005713594	0.001527112	0.008264374
	0.001440967	0.00820067	0.0003757325	0.005713594	-0.002076704	0.009686847	-0.9449431	0.04731538
	0.0003744858	0.005713808	0.001527112	0.008264374	-0.9449431	0.04731538	-0.001866106	0.0098814
4e+08	-0.0007279782	0.006006309	-0.9378696	0.1202053	0.002290045	0.009508479	0.0008457577	0.005731148
	-0.9378696	0.1202053	-0.00078083	0.006204799	0.000847233	0.005730692	0.002280958	0.009583217
	0.002290045	0.009508479	0.000847233	0.005730692	-0.0006303863	0.006162582	-0.9373321	0.1237314
	0.0008457577	0.005731148	0.002280958	0.009583217	-0.9373321	0.1237314	-0.000697735	0.006381005
4.1e+08	9.280442e-05	0.00230774	-0.9243906	0.1956703	0.00333814	0.01066021	0.001309917	0.005713042
	-0.9243906	0.1956703	-0.0002210325	0.00256987	0.001311571	0.005712269	0.003231987	0.01076249
	0.00333814	0.01066021	0.001311571	0.005712269	0.0001980783	0.002437621	-0.9235506	0.1992245
	0.001309917	0.005713042	0.003231987	0.01076249	-0.9235506	0.1992245	-0.0001541026	0.002727759
4.2e+08	0.0002768572	-0.001488393	-0.9048476	0.2697389	0.004556379	0.01162364	0.001765698	0.005663681
	-0.9048476	0.2697389	-0.0002972306	-0.001117423	0.001767461	0.005662526	0.004354099	0.01177041
	0.004556379	0.01162364	0.001767461	0.005662526	0.000385189	-0.001386021	-0.9036971	0.2732949
	0.001765698	0.005663681	0.004354099	0.01177041	-0.9036971	0.2732949	-0.0002506313	-0.0009747646
4.3e+08	-0.0001825993	-0.005278557	-0.8793782	0.3419223	0.005910686	0.01237182	0.00221315	0.005586785
	-0.8793782	0.3419223	-0.001008544	-0.004753323	0.002214934	0.005585203	0.005616086	0.01258003
	0.005910686	0.01237182	0.002214934	0.005585203	-7.601398e-05	-0.005204056	-0.8779114	0.3454525
	0.00221315	0.005586785	0.005616086	0.01258003	-0.8779114	0.3454525	-0.0009858988	-0.004622102
4.4e+08	-0.001275804	-0.008959629	-0.84816	0.4117445	0.007362762	0.01288397	0.002653412	0.005485264
	-0.84816	0.4117445	-0.00233748	-0.008235793	0.002655118	0.005483227	0.006982528	0.01317005
	0.007362762	0.01288397	0.002655118	0.005483227	-0.001175828	-0.00891258	-0.8463736	0.4152205
	0.002653412	0.005485264	0.006982528	0.01317005	-0.8463736	0.4152205	-0.002341755	-0.008111607
4.5e+08	-0.002976761	-0.01243151	-0.8114096	0.4787466	0.00887119	0.0131461	0.003088426	0.005360946
	-0.8114096	0.4787466	-0.004250471	-0.01146715	0.003089945	0.005358454	0.008414815	0.01352548
	0.00887119	0.0131461	0.003089945	0.005358454	-0.002888187	-0.01241071	-0.809303	0.4821391
	0.003088426	0.005360946	0.008414815	0.01352548	-0.809303	0.4821391	-0.004283873	-0.0113451
4.6e+08	-0.005243961	-0.01559967	-0.7693808	0.5424893	0.01039265	0.0131515	0.003520573	0.005214397
	-0.7693808	0.5424893	-0.006698818	-0.01435657	0.003521796	0.005211475	0.009872278	0.01363814
	0.01039265	0.0131515	0.003521796	0.005211475	-0.005171364	-0.01560315	-0.7669559	0.5457686
	0.003520573	0.005214397	0.009872278	0.01363814	-0.7669559	0.5457686	-0.006762695	-0.01423143
4.7e+08	-0.008021487	-0.0183775	-0.7223627	0.6025568	0.0118832	0.01290094	0.003952285	0.005044835
	-0.7223627	0.6025568	-0.009620025	-0.0168224	0.00395311	0.005041535	0.01131339	0.01350686
	0.0118832	0.01290094	0.00395311	0.005041535	-0.007969143	-0.01840254	-0.7196245	0.6056931
	0.003952285	0.005044835	0.01131339	0.01350686	-0.7196245	0.6056931	-0.009714854	-0.0166887
4.8e+08	-0.01124049	-0.02068848	-0.6706777	0.6585593	0.01329958	0.01240269	0.004385637	0.004850156
	-0.6706777	0.6585593	-0.01293948	-0.01879419	0.004385973	0.004846555	0.01269698	0.01313756
	0.01329958	0.01240269	0.004385973	0.004846555	-0.01121223	-0.02073166	-0.6676337	0.6615226
	0.004385637	0.004850156	0.01269698	0.01313756	-0.6676337	0.6615226	-0.01306481	-0.01864639
4.9e+08	-0.01482096	-0.02246808	-0.6146784	0.7101359	0.01460049	0.01167233	0.004821967	0.004627061
	-0.6146784	0.7101359	-0.01657244	-0.02021449	0.004821741	0.004623258	0.01398346	0.01254309
	0.01460049	0.01167233	0.004821741	0.004623258	-0.01482005	-0.02252536	-0.6113391	0.7128967
	0.004821967	0.004627061	0.01398346	0.01254309	-0.6113391	0.7128967	-0.01672689	-0.02004713
5e+08	-0.01867381	-0.02366535	-0.5547452	0.7569569	0.0157478	0.01073224	0.005261524	0.004371283
	-0.5547452	0.7569569	-0.02042625	-0.02104021	0.005260687	0.004367392	0.01513596	0.01174285
	0.0157478	0.01073224	0.005260687	0.004367392	-0.01870287	-0.02373216	-0.5511241	0.7594863
	0.005261524	0.004371283	0.01513596	0.01174285	-0.5511241	0.7594863	-0.02060752	-0.0208481
