!$
! Info: Touchstone file created by Circ.  Input file=Tx_8in_Rx_85ohms_TxVia_60mils_RxVia_70mils.circ
!$
# Hz S RI R 50
0	0.006548806	1.311431e-25	3.079926e-08	2.534475e-26	6.652862e-05	1.424348e-23	6.551646e-08	6.020989e-27
	3.079926e-08	2.534454e-26	0.006544157	1.389667e-25	6.327715e-08	8.210378e-26	6.326528e-05	1.588997e-23
	6.775104e-05	1.383882e-23	6.327716e-08	8.210255e-26	0.006559582	1.300783e-25	2.400272e-08	3.378662e-26
	6.551649e-08	6.021359e-27	6.353504e-05	1.595811e-23	2.400302e-08	3.379221e-26	0.006558652	1.38347e-25
1e+07	0.008587618	-0.007263816	5.000209e-08	9.530378e-08	0.0002615028	0.00161398	1.285083e-07	2.738154e-07
	5.000209e-08	9.530378e-08	0.008578489	-0.007263059	7.925649e-08	2.926761e-07	0.0002585012	0.001614796
	0.0002615726	0.001613947	7.925649e-08	2.926761e-07	0.008577134	-0.007253321	3.805698e-08	1.31043e-07
	1.285083e-07	2.738154e-07	0.0002585036	0.001614793	3.805698e-08	1.31043e-07	0.008567379	-0.007252345
2e+07	0.008916734	-0.01671707	8.243313e-08	1.674478e-07	0.0007074306	0.003122836	2.792117e-07	4.378362e-07
	8.243314e-08	1.674478e-07	0.008880379	-0.01671189	1.169374e-07	5.071067e-07	0.0006956227	0.003126144
	0.0007074151	0.003122799	1.169374e-07	5.071067e-07	0.008914807	-0.01668929	8.489135e-08	1.884446e-07
	2.792117e-07	4.378362e-07	0.0006956197	0.003126145	8.489134e-08	1.884446e-07	0.008875856	-0.01668349
3e+07	0.006841211	-0.02690149	1.211731e-07	2.288675e-07	0.001389754	0.004513457	4.712793e-07	5.563861e-07
	1.211731e-07	2.288675e-07	0.006760756	-0.0268825	1.345166e-07	7.25501e-07	0.001364036	0.00452232
	0.00138975	0.004513457	1.345166e-07	7.25501e-07	0.006846247	-0.02686376	1.324472e-07	2.523758e-07
	4.712793e-07	5.563861e-07	0.001364036	0.004522322	1.324472e-07	2.523758e-07	0.006760175	-0.02684291
4e+07	0.002736353	-0.03679986	1.64805e-07	2.791209e-07	0.002285908	0.005750924	6.960613e-07	6.219229e-07
	1.64805e-07	2.791209e-07	0.002597308	-0.03675396	1.408987e-07	9.470568e-07	0.002242021	0.005769678
	0.002285914	0.005750923	1.408987e-07	9.470568e-07	0.002747571	-0.03675477	1.810894e-07	3.070384e-07
	6.960613e-07	6.219229e-07	0.002242022	0.005769679	1.810894e-07	3.070384e-07	0.002598882	-0.03670499
5e+07	-0.003157349	-0.04596512	2.116791e-07	3.175122e-07	0.003364378	0.006801732	9.443277e-07	6.26286e-07
	2.116791e-07	3.175122e-07	-0.003365968	-0.04587518	1.393539e-07	1.171223e-06	0.003299256	0.006835737
	0.003364381	0.006801731	1.393539e-07	1.171223e-06	-0.003140997	-0.04591437	2.322657e-07	3.495386e-07
	9.443277e-07	6.26286e-07	0.003299257	0.006835737	2.322657e-07	3.495386e-07	-0.003364089	-0.04581721
6e+07	-0.01060584	-0.05407176	2.593319e-07	3.434102e-07	0.004587669	0.007638516	1.202246e-06	5.623922e-07
	2.593319e-07	3.434102e-07	-0.01089029	-0.05391813	1.323166e-07	1.399343e-06	0.004499595	0.007693825
	0.004587669	0.007638518	1.323166e-07	1.399343e-06	-0.01058549	-0.05401642	2.841406e-07	3.786573e-07
	1.202246e-06	5.623922e-07	0.004499596	0.007693825	2.841406e-07	3.786573e-07	-0.01088955	-0.05385078
7e+07	-0.0193587	-0.06086519	3.049669e-07	3.566778e-07	0.00591421	0.00824128	1.453459e-06	4.269334e-07
	3.049669e-07	3.566778e-07	-0.0197205	-0.06062712	1.220063e-07	1.632648e-06	0.005802916	0.008324349
	0.005914209	0.008241287	1.220063e-07	1.632648e-06	-0.01933551	-0.06080591	3.339169e-07	3.939849e-07
	1.453459e-06	4.269333e-07	0.005802917	0.008324348	3.339169e-07	3.939849e-07	-0.01972205	-0.06054964
8e+07	-0.0291461	-0.06614876	3.45674e-07	3.578146e-07	0.007299976	0.008598061	1.680668e-06	2.209026e-07
	3.45674e-07	3.578146e-07	-0.02958221	-0.06580523	1.106038e-07	1.871941e-06	0.007166699	0.00871544
	0.007299977	0.008598069	1.106038e-07	1.871941e-06	-0.02912124	-0.06608588	3.784915e-07	3.958672e-07
	1.680668e-06	2.209025e-07	0.0071667	0.00871544	3.784915e-07	3.958672e-07	-0.02958696	-0.06571656
9e+07	-0.0396822	-0.06978024	3.786444e-07	3.479985e-07	0.008700238	0.008705353	1.866931e-06	-5.043201e-08
	3.786444e-07	3.479985e-07	-0.040185	-0.06931069	1.002968e-07	2.117577e-06	0.008547725	0.008863381
	0.008700239	0.008705359	1.002968e-07	2.117577e-06	-0.03965685	-0.06971379	4.147661e-07	3.854113e-07
	1.866931e-06	-5.043202e-08	0.008547725	0.008863381	4.147661e-07	3.854113e-07	-0.04019364	-0.06920946
1e+08	-0.0506728	-0.0716723	4.013664e-07	3.290411e-07	0.01007267	0.008569538	1.996748e-06	-3.778361e-07
	4.013664e-07	3.290411e-07	-0.05123016	-0.07105752	9.326743e-08	2.369458e-06	0.009905125	0.008774024
	0.01007267	0.008569538	9.326743e-08	2.369458e-06	-0.05064824	-0.07160222	4.39878e-07	3.644516e-07
	1.996748e-06	-3.778361e-07	0.009905125	0.008774024	4.39878e-07	3.644516e-07	-0.05124317	-0.07094224
1.1e+08	-0.0618224	-0.07177199	4.122584e-07	3.028638e-07	0.0113797	0.008190805	2.063243e-06	-7.480512e-07
	4.122584e-07	3.028638e-07	-0.06241678	-0.07099543	8.851022e-08	2.629644e-06	0.01120264	0.008446676
	0.0113797	0.008190805	8.851022e-08	2.629644e-06	-0.06180008	-0.07169668	4.518934e-07	3.363595e-07
	2.063243e-06	-7.480512e-07	0.01120264	0.008446677	4.518934e-07	3.363595e-07	-0.06243415	-0.07086348
1.2e+08	-0.07281839	-0.07009782	4.093719e-07	2.72119e-07	0.01256938	0.007592461	2.05317e-06	-1.149035e-06
	4.093719e-07	2.72119e-07	-0.07342917	-0.06914623	8.969968e-08	2.896432e-06	0.01238946	0.007903596
	0.01256938	0.007592461	8.969968e-08	2.896432e-06	-0.07279829	-0.07001603	4.48903e-07	3.033051e-07
	2.05317e-06	-1.149035e-06	0.01238946	0.007903597	4.48903e-07	3.033051e-07	-0.07344939	-0.06899551
1.3e+08	-0.08337812	-0.06671392	3.915787e-07	2.396935e-07	0.01360963	0.00680276	1.95915e-06	-1.565133e-06
	3.915787e-07	2.396935e-07	-0.08398156	-0.06557822	9.862639e-08	3.168831e-06	0.01343445	0.007171702
	0.01360963	0.00680276	9.862639e-08	3.168831e-06	-0.08336015	-0.06662458	4.296855e-07	2.684295e-07
	1.95915e-06	-1.565133e-06	0.01343445	0.007171703	4.296855e-07	2.684295e-07	-0.08400284	-0.0654071
1.4e+08	-0.09323488	-0.06172586	3.583339e-07	2.087032e-07	0.01447226	0.005852698	1.776939e-06	-1.979324e-06
	3.583339e-07	2.087032e-07	-0.09380502	-0.06040172	1.168722e-07	3.445428e-06	0.01431009	0.006280465
	0.01447226	0.005852698	1.168722e-07	3.445428e-06	-0.09321872	-0.06162796	3.936544e-07	2.351185e-07
	1.776939e-06	-1.979324e-06	0.01431009	0.006280466	3.936544e-07	2.351185e-07	-0.0938252	-0.060209
1.5e+08	-0.1021455	-0.05527864	3.097173e-07	1.823702e-07	0.01513487	0.004776706	1.505638e-06	-2.373822e-06
	3.097173e-07	1.823702e-07	-0.1026551	-0.05376694	1.457076e-07	3.724432e-06	0.01499431	0.005262659
	0.01513487	0.004776706	1.457076e-07	3.724432e-06	-0.1021306	-0.05517125	3.409003e-07	2.06871e-07
	1.505638e-06	-2.373822e-06	0.01499431	0.00526266	3.409003e-07	2.06871e-07	-0.1026717	-0.05355185
1.6e+08	-0.1098958	-0.04755204	2.464486e-07	1.639e-07	0.01558128	0.003611724	1.147778e-06	-2.730702e-06
	2.464486e-07	1.639e-07	-0.1103173	-0.04585909	1.860028e-07	4.003748e-06	0.01547096	0.004153488
	0.01558128	0.003611724	1.860028e-07	4.003748e-06	-0.1098813	-0.04743439	2.722058e-07	1.87165e-07
	1.147778e-06	-2.730702e-06	0.01547096	0.004153489	2.722058e-07	1.87165e-07	-0.1103277	-0.04562141
1.7e+08	-0.1163048	-0.03875528	1.698781e-07	1.563574e-07	0.01580174	0.002396162	7.093036e-07	-3.03252e-06
	1.698781e-07	1.563574e-07	-0.1166116	-0.03689287	2.381559e-07	4.281066e-06	0.01572998	0.002989617
	0.01580174	0.002396162	2.381559e-07	4.281066e-06	-0.1162898	-0.03862676	1.89034e-07	1.793251e-07
	7.093036e-07	-3.03252e-06	0.01572998	0.002989617	1.89034e-07	1.793251e-07	-0.1166129	-0.03663294
1.8e+08	-0.1212284	-0.02912112	8.195328e-08	1.625471e-07	0.01579288	0.001168891	1.994475e-07	-3.262925e-06
	8.195328e-08	1.625471e-07	-0.1213958	-0.02710641	3.020442e-07	4.553973e-06	0.01576733	0.001808226
	0.01579288	0.001168891	3.020442e-07	4.553973e-06	-0.1212119	-0.02898134	9.349202e-08	1.863953e-07
	1.994475e-07	-3.262925e-06	0.01576733	0.001808226	9.349202e-08	1.863953e-07	-0.1213852	-0.02682514
1.9e+08	-0.124562	-0.01889981	-1.483528e-08	1.849033e-07	0.01555757	-3.171398e-05	-3.694854e-07	-3.407222e-06
	-1.483528e-08	1.849033e-07	-0.1245679	-0.01675496	3.770027e-07	4.820072e-06	0.01558487	0.0006461253
	0.01555757	-3.171394e-05	3.770027e-07	4.820072e-06	-0.1245427	-0.01874863	-1.172719e-08	2.110211e-07
	-3.694854e-07	-3.407222e-06	0.01558487	0.0006461255	-1.172719e-08	2.110211e-07	-0.1245429	-0.01645387
2e+08	-0.1262417	-0.008352808	-1.175283e-07	2.253914e-07	0.01510464	-0.001168636	-9.824231e-07	-3.452902e-06
	-1.175283e-07	2.253914e-07	-0.1260681	-0.00610448	4.618343e-07	5.077114e-06	0.01519012	-0.0004610508
	0.01510464	-0.001168636	4.618343e-07	5.077114e-06	-0.1262184	-0.008190337	-1.23424e-07	2.55345e-07
	-9.824231e-07	-3.452902e-06	0.01519012	-0.0004610508	-1.23424e-07	2.55345e-07	-0.1260262	-0.005785642
2.1e+08	-0.1262454	0.002253514	-2.227877e-07	2.854255e-07	0.01444848	-0.002207014	-1.621909e-06	-3.39012e-06
	-2.227877e-07	2.854255e-07	-0.125879	0.004574861	5.548498e-07	5.323112e-06	0.01459591	-0.001479579
	0.01444848	-0.002207014	5.548498e-07	5.323112e-06	-0.1262167	0.002426887	-2.37987e-07	3.209173e-07
	-1.621909e-06	-3.39012e-06	0.01459591	-0.001479579	-2.37987e-07	3.209173e-07	-0.125818	0.004908847
2.2e+08	-0.1245924	0.01265408	-3.269995e-07	3.658024e-07	0.01360867	-0.00311486	-2.268555e-06	-3.212105e-06
	-3.269995e-07	3.658024e-07	-0.1240253	0.01501504	6.539372e-07	5.556455e-06	0.01381999	-0.002378315
	0.01360867	-0.00311486	6.539372e-07	5.556455e-06	-0.1245572	0.0128377	-3.515026e-07	4.086261e-07
	-2.268555e-06	-3.212105e-06	0.01381999	-0.002378315	-3.515026e-07	4.086261e-07	-0.1239437	0.01536113
2.3e+08	-0.1213428	0.02259121	-4.263868e-07	4.666559e-07	0.01260944	-0.003863714	-2.90156e-06	-2.915504e-06
	-4.263868e-07	4.666559e-07	-0.1205732	0.02495644	7.566551e-07	5.775992e-06	0.01288463	-0.003129309
	0.01260944	-0.003863714	7.566551e-07	5.775992e-06	-0.1212999	0.02278418	-4.598738e-07	5.186455e-07
	-2.90156e-06	-2.915504e-06	0.01288463	-0.003129309	-4.598738e-07	5.186455e-07	-0.12047	0.02531121
2.4e+08	-0.1165954	0.03182047	-5.171282e-07	5.874293e-07	0.0114792	-0.004429246	-3.499283e-06	-2.500652e-06
	-5.171282e-07	5.874293e-07	-0.1156281	0.03415376	8.603442e-07	5.981096e-06	0.01181615	-0.003708373
	0.0114792	-0.004429246	8.603442e-07	5.981096e-06	-0.116544	0.03202166	-5.589465e-07	6.504049e-07
	-3.499283e-06	-2.500652e-06	0.01181615	-0.003708373	-5.589465e-07	6.504049e-07	-0.1155028	0.03451354
2.5e+08	-0.1104856	0.04011629	-5.9548e-07	7.268694e-07	0.01024986	-0.004791812	-4.039864e-06	-1.971756e-06
	-5.9548e-07	7.268694e-07	-0.1093319	0.04238175	9.622504e-07	6.171698e-06	0.01064435	-0.004095621
	0.01024986	-0.004791812	9.622504e-07	6.171698e-06	-0.110425	0.04032438	-6.446406e-07	8.025791e-07
	-4.039864e-06	-1.971756e-06	0.01064435	-0.004095621	-6.446406e-07	8.025791e-07	-0.1091849	0.04274272
2.6e+08	-0.1031819	0.04727711	-6.578986e-07	8.830405e-07	0.008956263	-0.004936951	-4.501893e-06	-1.336981e-06
	-6.578986e-07	8.830405e-07	-0.1018599	0.04944041	1.05965e-06	6.34829e-06	0.009401961	-0.004275958
	0.008956263	-0.004936951	1.05965e-06	6.34829e-06	-0.1031117	0.04749061	-7.130812e-07	9.730999e-07
	-4.501893e-06	-1.336981e-06	0.009401961	-0.004275958	-7.130812e-07	9.730999e-07	-0.1016921	0.04979874
2.7e+08	-0.09488212	0.05313017	-7.011593e-07	1.053357e-06	0.007635375	-0.004855838	-4.865096e-06	-6.084309e-07
	-7.011593e-07	1.053357e-06	-0.09341644	0.05515976	1.149968e-06	6.511897e-06	0.008123977	-0.004239537
	0.007635375	-0.004855838	1.149968e-06	6.511897e-06	-0.094802	0.05334748	-7.607279e-07	1.159188e-06
	-4.865096e-06	-6.084309e-07	0.008123977	-0.004239537	-7.607279e-07	1.159188e-06	-0.09322956	0.05551174
2.8e+08	-0.08580873	0.05753568	-7.2247e-07	1.234639e-06	0.00632551	-0.004545657	-5.111054e-06	1.979774e-07
	-7.2247e-07	1.234639e-06	-0.08422999	0.05940401	1.230887e-06	6.664019e-06	0.006846889	-0.003982152
	0.00632551	-0.004545657	1.230887e-06	6.664019e-06	-0.08571884	0.05775516	-7.845004e-07	1.357409e-06
	-5.111054e-06	1.979774e-07	0.006846889	-0.003982152	-7.845004e-07	1.357409e-06	-0.08402645	0.0597462
2.9e+08	-0.07620373	0.06039044	-7.195767e-07	1.423181e-06	0.005065395	-0.004009883	-5.223901e-06	1.062777e-06
	-7.195767e-07	1.423181e-06	-0.07454795	0.06207509	1.300431e-06	6.806564e-06	0.005607848	-0.00350555
	0.005065395	-0.004009883	1.300431e-06	6.806564e-06	-0.07610448	0.06061043	-7.81895e-07	1.563744e-06
	-5.223901e-06	1.062777e-06	0.005607848	-0.00350555	-7.81895e-07	1.563744e-06	-0.07433087	0.06240443
3e+08	-0.06632284	0.06163058	-6.908567e-07	1.614842e-06	0.003893188	-0.003258442	-5.191013e-06	1.963337e-06
	-6.908567e-07	1.614842e-06	-0.06463059	0.06311529	1.357032e-06	6.941746e-06	0.00444373	-0.002817633
	0.003893188	-0.003258442	1.357032e-06	6.941746e-06	-0.06621495	0.06184948	-7.510906e-07	1.773687e-06
	-5.191013e-06	1.963337e-06	0.00444373	-0.002817633	-7.510906e-07	1.773687e-06	-0.06440366	0.06342924
3.1e+08	-0.05642925	0.0612336	-6.35399e-07	1.805152e-06	0.002845392	-0.002307719	-5.003644e-06	2.87439e-06
	-6.35399e-07	1.805152e-06	-0.05474457	0.06250917	1.399562e-06	7.071997e-06	0.003390114	-0.001932519
	0.002845392	-0.002307719	1.399562e-06	7.071997e-06	-0.05631376	0.06144989	-6.910409e-07	1.982357e-06
	-5.003644e-06	2.87439e-06	0.003390114	-0.001932519	-6.910409e-07	1.982357e-06	-0.054512	0.06280581
3.2e+08	-0.0467871	0.05921928	-5.530688e-07	1.989428e-06	0.001955742	-0.001180375	-4.657481e-06	3.768687e-06
	-5.530688e-07	1.989428e-06	-0.04515624	0.06028427	1.427347e-06	7.199862e-06	0.002480204	-0.0008704212
	0.001955742	-0.001180375	1.427347e-06	7.199862e-06	-0.04666535	0.05943162	-6.015493e-07	2.184629e-06
	-4.657481e-06	3.768687e-06	0.002480204	-0.0008704212	-6.015493e-07	2.184629e-06	-0.0449227	0.06056241
3.3e+08	-0.03765467	0.05564968	-4.445553e-07	2.16291e-06	0.001254055	9.503653e-05	-4.153093e-06	4.617782e-06
	-4.445553e-07	2.16291e-06	-0.03612476	0.05651088	1.440152e-06	7.32792e-06	0.001743719	0.00034267
	0.001254055	9.503654e-05	1.440152e-06	7.32792e-06	-0.03752825	0.05585694	-4.833223e-07	2.375276e-06
	-4.153093e-06	4.617782e-06	0.001743719	0.00034267	-4.833223e-07	2.375276e-06	-0.03589514	0.05677017
3.4e+08	-0.02927754	0.05062802	-3.11392e-07	2.320901e-06	0.0007651293	0.001484698	-3.496243e-06	5.392924e-06
	-3.11392e-07	2.320901e-06	-0.02789507	0.0513007	1.438151e-06	7.458701e-06	0.001205809	0.001675534
	0.0007651293	0.001484698	1.438151e-06	7.458701e-06	-0.02914824	0.05082939	-3.379995e-07	2.549127e-06
	-3.496243e-06	5.392924e-06	0.001205809	0.001675534	-3.379995e-07	2.549127e-06	-0.02767439	0.05154169
3.5e+08	-0.02188193	0.04429635	-1.5596e-07	2.458911e-06	0.0005077123	0.002950386	-2.698027e-06	6.066027e-06
	-1.5596e-07	2.458911e-06	-0.02069125	0.04480422	1.42189e-06	7.594634e-06	0.0008860373	0.003092505
	0.0005077123	0.002950386	1.42189e-06	7.594634e-06	-0.02175174	0.04449129	-1.681626e-07	2.701237e-06
	-2.698027e-06	6.066027e-06	0.0008860373	0.003092505	-1.681626e-07	2.701237e-06	-0.02048452	0.04502835
3.6e+08	-0.01566838	0.03683214	1.853667e-08	2.572816e-06	0.0004936287	0.004450562	-1.774831e-06	6.610697e-06
	1.853667e-08	2.572816e-06	-0.01471014	0.03720704	1.392236e-06	7.738011e-06	0.0007974968	0.004554475
	0.0004936287	0.004450562	1.392236e-06	7.738011e-06	-0.01553943	0.03702045	2.269497e-08	2.827054e-06
	-1.774831e-06	6.610697e-06	0.0007974968	0.004554475	2.269497e-08	2.827054e-06	-0.01452219	0.03741665
3.7e+08	-0.01080605	0.02844375	2.08121e-07	2.659002e-06	0.0007271062	0.005941668	-7.480659e-07	7.003261e-06
	2.08121e-07	2.659002e-06	-0.0101157	0.02872506	1.35034e-06	7.890961e-06	0.000946123	0.006020116
	0.0007271062	0.005941668	1.35034e-06	7.890961e-06	-0.01068055	0.02862561	2.302221e-07	2.922589e-06
	-7.480659e-07	7.003261e-06	0.000946123	0.006020116	2.302221e-07	2.922589e-06	-0.009951016	0.02892337
3.8e+08	-0.007427748	0.01936487	4.081222e-07	2.714518e-06	0.001204367	0.007379584	3.562954e-07	7.223762e-06
	4.081222e-07	2.714518e-06	-0.007034186	0.01959863	1.297601e-06	8.055448e-06	0.001330249	0.007447254
	0.001204367	0.007379584	1.297601e-06	8.055448e-06	-0.007307913	0.01954085	4.492986e-07	2.984583e-06
	3.562954e-07	7.223762e-06	0.001330249	0.007447254	4.492986e-07	2.984583e-06	-0.006896731	0.01978969
3.9e+08	-0.005626056	0.009848169	6.132822e-07	2.737205e-06	0.001913524	0.00872118	1.508403e-06	7.256866e-06
	6.132822e-07	2.737205e-06	-0.005550337	0.01008592	1.235652e-06	8.233265e-06	0.001940457	0.008794352
	0.001913524	0.00872118	1.235652e-06	8.233265e-06	-0.005514049	0.01001924	6.741552e-07	3.010654e-06
	1.508403e-06	7.256866e-06	0.001940457	0.008794352	6.741552e-07	3.010654e-06	-0.005443427	0.01027456
4e+08	-0.005450516	0.0001582481	8.178915e-07	2.725823e-06	0.002834807	0.009925901	2.675397e-06	7.092634e-06
	8.178915e-07	2.725823e-06	-0.005704852	0.0004556966	1.16635e-06	8.426031e-06	0.002759743	0.01002202
	0.002834807	0.009925901	1.16635e-06	8.426031e-06	-0.005348368	0.0003257945	8.985268e-07	2.999435e-06
	2.675397e-06	7.092634e-06	0.002759743	0.01002202	8.985268e-07	2.999435e-06	-0.005630998	0.0006473481
4.1e+08	-0.006906165	-0.009435833	1.01595e-06	2.680145e-06	0.003941135	0.01095729	3.822444e-06	6.727119e-06
	1.01595e-06	2.680145e-06	-0.007493134	-0.009020404	1.091784e-06	8.635185e-06	0.003764016	0.01109451
	0.003941135	0.01095729	1.091784e-06	8.635185e-06	-0.006815704	-0.009270046	1.115833e-06	2.950679e-06
	3.822444e-06	6.727119e-06	0.003764016	0.01109451	1.115833e-06	2.950679e-06	-0.007453925	-0.008819781
4.2e+08	-0.009953412	-0.01866819	1.201349e-06	2.601026e-06	0.005199003	0.0117844	4.913884e-06	6.162742e-06
	1.201349e-06	2.601026e-06	-0.01086546	-0.01807562	1.014291e-06	8.861957e-06	0.004922906	0.01198103
	0.005199003	0.0117844	1.014291e-06	8.861957e-06	-0.009876189	-0.01850204	1.319384e-06	2.86533e-06
	4.913884e-06	6.162742e-06	0.004922906	0.01198103	1.319384e-06	2.86533e-06	-0.01086147	-0.01785972
4.3e+08	-0.01450928	-0.02728365	1.368079e-06	2.49044e-06	0.006569664	0.01238292	5.914458e-06	5.408438e-06
	1.368079e-06	2.49044e-06	-0.01572855	-0.0264557	9.364654e-07	9.107322e-06	0.00620085	0.01265691
	0.006569664	0.01238292	9.364654e-07	9.107322e-06	-0.01444651	-0.0271147	1.502605e-06	2.745559e-06
	5.914458e-06	5.408438e-06	0.00620085	0.01265691	1.502605e-06	2.745559e-06	-0.01575927	-0.02621807
4.4e+08	-0.02045001	-0.03504495	1.510435e-06	2.351473e-06	0.008010528	0.01273613	6.79054e-06	4.479544e-06
	1.510435e-06	2.351473e-06	-0.02194845	-0.03392614	8.611637e-07	9.371944e-06	0.007558398	0.0131045
	0.008010528	0.01273613	8.611637e-07	9.371944e-06	-0.02040249	-0.03487051	1.659271e-06	2.594756e-06
	6.79054e-06	4.479544e-06	0.007558398	0.0131045	1.659271e-06	2.594756e-06	-0.02201226	-0.03366033
4.5e+08	-0.02761482	-0.0417393	1.623235e-06	2.188275e-06	0.009476728	0.01283548	7.511342e-06	3.397443e-06
	1.623235e-06	2.188275e-06	-0.0293547	-0.0402787	7.914911e-07	9.656096e-06	0.008953676	0.01331375
	0.009476728	0.01283548	7.914911e-07	9.656096e-06	-0.02758289	-0.04155649	1.783737e-06	2.417465e-06
	7.511342e-06	3.397443e-06	0.008953676	0.01331375	1.783737e-06	2.417465e-06	-0.02944884	-0.03997847
4.6e+08	-0.03581081	-0.0471841	1.70203e-06	2.005969e-06	0.01092275	0.01268077	8.050015e-06	2.188972e-06
	1.70203e-06	2.005969e-06	-0.03774551	-0.04533701	7.307601e-07	9.959571e-06	0.01034391	0.01328244
	0.01092275	0.01268077	7.307601e-07	9.959571e-06	-0.03579433	-0.04698993	1.871171e-06	2.219284e-06
	8.050015e-06	2.188972e-06	0.01034391	0.01328244	1.871171e-06	2.219284e-06	-0.03786614	-0.04499655
4.7e+08	-0.04481871	-0.05123169	1.74329e-06	1.810516e-06	0.01230404	0.01228007	8.384609e-06	8.856271e-07
	1.74329e-06	1.810516e-06	-0.04689381	-0.04896123	6.824208e-07	1.02816e-05	0.01168696	0.01301615
	0.01230404	0.01228007	6.824208e-07	1.02816e-05	-0.044817	-0.05102315	1.917747e-06	2.00671e-06
	8.384609e-06	8.856271e-07	0.01168696	0.01301615	1.917747e-06	2.00671e-06	-0.04703606	-0.04857533
4.8e+08	-0.05439929	-0.05377293	1.744569e-06	1.608533e-06	0.01357856	0.0116493	8.498868e-06	-4.773983e-07
	1.744569e-06	1.608533e-06	-0.05655391	-0.05105135	6.499582e-07	1.062077e-05	0.01294275	0.01252783
