!$
! Info: Touchstone file created by Circ.  Input file=Tx_8in_Rx_93ohms_TxVia_60mils_RxVia_70mils.circ
!$
# Hz S RI R 50
0	0.007439263	1.306462e-25	3.074413e-08	2.875365e-26	6.629442e-05	1.619853e-23	6.539917e-08	6.809234e-27
	3.074413e-08	2.875344e-26	0.007434611	1.384184e-25	6.317998e-08	9.331306e-26	6.303628e-05	1.80735e-23
	6.751727e-05	1.573825e-23	6.317999e-08	9.331184e-26	0.007449997	1.295858e-25	2.394429e-08	3.83442e-26
	6.53992e-08	6.809597e-27	6.3306e-05	1.815101e-23	2.394459e-08	3.834979e-26	0.00744908	1.378012e-25
1e+07	0.01088562	-0.0004181785	5.035092e-08	9.472617e-08	0.0002576069	0.001623945	1.272732e-07	2.733331e-07
	5.035092e-08	9.472617e-08	0.01087871	-0.0004181899	8.214358e-08	2.901548e-07	0.0002548177	0.001624728
	0.0002576769	0.001623912	8.214358e-08	2.901548e-07	0.01067884	-0.0004227885	3.822161e-08	1.303141e-07
	1.272732e-07	2.733331e-07	0.0002548201	0.001624725	3.82216e-08	1.303141e-07	0.01067129	-0.0004225293
2e+07	0.01282011	-0.003548572	8.404114e-08	1.662228e-07	0.0006185171	0.003227804	2.756676e-07	4.385963e-07
	8.404115e-08	1.662228e-07	0.01279222	-0.003546097	1.283044e-07	5.007124e-07	0.0006075719	0.003230935
	0.0006185024	0.003227767	1.283044e-07	5.007124e-07	0.01266557	-0.003482822	8.65896e-08	1.870544e-07
	2.756676e-07	4.385963e-07	0.0006075689	0.003230936	8.658959e-08	1.870544e-07	0.01263508	-0.003479641
3e+07	0.01347829	-0.007633152	1.247854e-07	2.266774e-07	0.001282372	0.004669393	4.651139e-07	5.601937e-07
	1.247854e-07	2.266774e-07	0.01341627	-0.00762109	1.595744e-07	7.112692e-07	0.00125851	0.004677655
	0.001282368	0.004669393	1.595744e-07	7.112692e-07	0.01336336	-0.007553523	1.364422e-07	2.500232e-07
	4.651139e-07	5.601936e-07	0.00125851	0.004677657	1.364422e-07	2.500232e-07	0.01329573	-0.007539503
4e+07	0.01312673	-0.01196917	1.710866e-07	2.754746e-07	0.002203176	0.005942776	6.877303e-07	6.308373e-07
	1.710866e-07	2.754746e-07	0.0130191	-0.01193771	1.829708e-07	9.21087e-07	0.00216238	0.005960096
	0.002203181	0.005942775	1.829708e-07	9.21087e-07	0.01304379	-0.01189139	1.880615e-07	3.031251e-07
	6.877303e-07	6.308373e-07	0.002162381	0.005960097	1.880615e-07	3.031251e-07	0.0129265	-0.01185595
5e+07	0.01188393	-0.01628528	2.212681e-07	3.118493e-07	0.003304281	0.007029969	9.352278e-07	6.423951e-07
	2.212681e-07	3.118493e-07	0.01172175	-0.01622132	2.012829e-07	1.128777e-06	0.003243603	0.007061246
	0.003304284	0.007029967	2.012829e-07	1.128777e-06	0.011826	-0.01621835	2.428782e-07	3.434108e-07
	9.352278e-07	6.423951e-07	0.003243604	0.007061246	2.428782e-07	3.434108e-07	0.01164929	-0.01614711
6e+07	0.009841585	-0.02039628	2.728123e-07	3.350328e-07	0.004552404	0.007905931	1.194753e-06	5.874262e-07
	2.728123e-07	3.350328e-07	0.009619576	-0.02028469	2.159119e-07	1.334872e-06	0.004470106	0.007956726
	0.004552404	0.007905933	2.159119e-07	1.334872e-06	0.009801876	-0.020346	2.99007e-07	3.69537e-07
	1.194753e-06	5.874262e-07	0.004470107	0.007956726	2.99007e-07	3.69537e-07	0.0095601	-0.02022239
7e+07	0.007090192	-0.02415733	3.228409e-07	3.447274e-07	0.005909778	0.008550522	1.450805e-06	4.618836e-07
	3.228409e-07	3.447274e-07	0.006806642	-0.0239821	2.277975e-07	1.540005e-06	0.005805427	0.0086268
	0.005909776	0.008550528	2.277975e-07	1.540005e-06	0.007061943	-0.02412752	3.535814e-07	3.809328e-07
	1.450805e-06	4.618836e-07	0.005805429	0.008626799	3.535814e-07	3.809328e-07	0.00675335	-0.02393413
8e+07	0.003726875	-0.02745018	3.683152e-07	3.412589e-07	0.007335439	0.008949792	1.686677e-06	2.656931e-07
	3.683152e-07	3.412589e-07	0.003383488	-0.02719501	2.376631e-07	1.744654e-06	0.007209969	0.009057652
	0.007335439	0.008949799	2.376631e-07	1.744654e-06	0.003703229	-0.02744326	4.033843e-07	3.777517e-07
	1.686677e-06	2.656931e-07	0.00720997	0.009057651	4.033843e-07	3.777517e-07	0.003329699	-0.02716238
9e+07	-0.0001413778	-0.03017767	4.062397e-07	3.256352e-07	0.008786461	0.009096685	1.885641e-06	2.825886e-09
	4.062397e-07	3.256352e-07	-0.0005394549	-0.02982641	2.461289e-07	1.949158e-06	0.008642184	0.009242089
	0.008786462	0.00909669	2.461289e-07	1.949158e-06	-0.0001675841	-0.03019503	4.451377e-07	3.608959e-07
	1.885641e-06	2.825879e-09	0.008642184	0.009242088	4.451377e-07	3.608959e-07	-0.000600487	-0.02980908
1e+08	-0.004385703	-0.03225172	4.338528e-07	2.995037e-07	0.01021921	0.008991045	2.031941e-06	-3.189576e-07
	4.338528e-07	2.995037e-07	-0.004829804	-0.03178905	2.53818e-07	2.153685e-06	0.01005979	0.009179541
	0.01021921	0.008991045	2.53818e-07	2.153685e-06	-0.004423823	-0.0322956	4.757227e-07	3.319887e-07
	2.031941e-06	-3.189576e-07	0.01005979	0.009179541	4.757227e-07	3.319887e-07	-0.004906702	-0.03178778
1.1e+08	-0.008862171	-0.03371725	4.492141e-07	2.647716e-07	0.01158909	0.008642325	2.117599e-06	-6.870619e-07
	4.492141e-07	2.647716e-07	-0.009339364	-0.03312993	2.583211e-07	2.360876e-06	0.01141945	0.00887871
	0.01158909	0.008642325	2.583211e-07	2.360876e-06	-0.008924853	-0.03377501	4.926574e-07	2.944331e-07
	2.117599e-06	-6.870619e-07	0.01141945	0.00887871	4.926574e-07	2.944331e-07	-0.009443346	-0.03313094
1.2e+08	-0.01355094	-0.03449906	4.501424e-07	2.241183e-07	0.01285768	0.008066322	2.129044e-06	-1.090362e-06
	4.501424e-07	2.241183e-07	-0.01404593	-0.0337759	2.618023e-07	2.570405e-06	0.01268384	0.008354447
	0.01285768	0.008066322	2.618023e-07	2.570405e-06	-0.01363624	-0.03456313	4.9384e-07	2.50407e-07
	2.129044e-06	-1.090362e-06	0.01268383	0.008354448	4.9384e-07	2.50407e-07	-0.01417359	-0.03377068
1.3e+08	-0.01831434	-0.03456024	4.351765e-07	1.804486e-07	0.01398793	0.007284131	2.057747e-06	-1.514091e-06
	4.351765e-07	1.804486e-07	-0.01880919	-0.0336931	2.649346e-07	2.782544e-06	0.01381678	0.007626685
	0.01398793	0.007284132	2.649346e-07	2.782544e-06	-0.01842194	-0.0346257	4.776742e-07	2.030831e-07
	2.057747e-06	-1.514091e-06	0.01381678	0.007626686	4.776742e-07	2.030831e-07	-0.01895852	-0.03367612
1.4e+08	-0.02302871	-0.03389943	4.034233e-07	1.370011e-07	0.0149471	0.006323151	1.898116e-06	-1.941693e-06
	4.034233e-07	1.370011e-07	-0.0235035	-0.03288376	2.683905e-07	2.997502e-06	0.01478624	0.006721467
	0.0149471	0.006323152	2.683905e-07	2.997502e-06	-0.02315815	-0.03396195	4.431858e-07	1.559955e-07
	1.898116e-06	-1.941693e-06	0.01478623	0.006721468	4.431858e-07	1.559955e-07	-0.02367219	-0.03285037
1.5e+08	-0.02757614	-0.03253682	3.546271e-07	9.721442e-08	0.01570774	0.005215869	1.647807e-06	-2.355459e-06
	3.546271e-07	9.721442e-08	-0.0280097	-0.031372	2.728664e-07	3.21536e-06	0.01556515	0.005669786
	0.01570774	0.005215869	2.728664e-07	3.21536e-06	-0.02772658	-0.03259241	3.900964e-07	1.128954e-07
	1.647807e-06	-2.355459e-06	0.01556515	0.005669787	3.900964e-07	1.128954e-07	-0.02819496	-0.03131825
1.6e+08	-0.03184597	-0.03051155	2.892108e-07	6.460099e-08	0.01624841	0.003998832	1.307932e-06	-2.737155e-06
	2.892108e-07	6.460099e-08	-0.03221664	-0.02920115	2.790636e-07	3.436064e-06	0.01613221	0.004506607
	0.01624841	0.003998832	2.790636e-07	3.436064e-06	-0.03201608	-0.03055645	3.188673e-07	7.761348e-08
	1.307932e-06	-2.737155e-06	0.01613221	0.004506607	3.188673e-07	7.761348e-08	-0.03241519	-0.02912375
1.7e+08	-0.03573697	-0.02787969	2.082919e-07	4.261373e-08	0.01655424	0.002711541	8.831351e-07	-3.068682e-06
	2.082919e-07	4.261373e-08	-0.03602343	-0.02643157	2.876628e-07	3.659417e-06	0.01647236	0.003269815
	0.01655424	0.002711541	2.876628e-07	3.659417e-06	-0.03592496	-0.02791048	2.307161e-07	5.391448e-08
	8.831351e-07	-3.068682e-06	0.01647236	0.003269815	2.307161e-07	5.391448e-08	-0.03623156	-0.02632792
1.8e+08	-0.03915939	-0.02471223	1.136719e-07	3.451032e-08	0.01661731	0.001395285	3.815671e-07	-3.332738e-06
	1.136719e-07	3.451032e-08	-0.0393415	-0.02313851	2.992966e-07	3.885087e-06	0.01657715	0.001999112
	0.01661731	0.001395285	2.992966e-07	3.885087e-06	-0.039363	-0.02472581	1.276044e-07	4.535018e-08
	3.815671e-07	-3.332738e-06	0.01657715	0.001999112	1.276044e-07	4.535018e-08	-0.03955517	-0.02300676
1.9e+08	-0.04203688	-0.02109288	7.798806e-09	4.321981e-08	0.0164368	9.194451e-05	-1.852784e-07	-3.513476e-06
	7.798805e-09	4.321981e-08	-0.04209648	-0.01940973	3.145233e-07	4.112615e-06	0.01644496	0.00073488
	0.0164368	9.194455e-05	3.145233e-07	4.112615e-06	-0.04225341	-0.02108659	1.219654e-08	5.511491e-08
	-1.852784e-07	-3.513476e-06	0.01644496	0.0007348801	1.219654e-08	5.511491e-08	-0.04231141	-0.01924879
2e+08	-0.04430798	-0.01711573	-1.062967e-07	7.121725e-08	0.01601895	-0.001157201	-8.028383e-07	-3.597117e-06
	-1.062967e-07	7.121725e-08	-0.04422969	-0.01534299	3.338022e-07	4.341432e-06	0.0160809	-0.0004829514
	0.01601895	-0.001157201	3.338022e-07	4.341432e-06	-0.04453436	-0.01708734	-1.122092e-07	8.591009e-08
	-8.028383e-07	-3.597117e-06	0.0160809	-0.0004829513	-1.122092e-07	8.591009e-08	-0.04444151	-0.01515258
2.1e+08	-0.04592736	-0.01288266	-2.250892e-07	1.204116e-07	0.01537681	-0.002312629	-1.453866e-06	-3.572522e-06
	-2.250892e-07	1.204116e-07	-0.04569929	-0.0110434	3.57473e-07	4.570881e-06	0.01549666	-0.001616008
	0.01537681	-0.002312629	3.57473e-07	4.570881e-06	-0.04616022	-0.01283047	-2.41776e-07	1.398228e-07
	-1.453866e-06	-3.572522e-06	0.01549666	-0.001616008	-2.41776e-07	1.398228e-07	-0.04590366	-0.01082399
2.2e+08	-0.04686665	-0.008500734	-3.446674e-07	1.920516e-07	0.01452985	-0.003337668	-2.118917e-06	-3.431682e-06
	-3.446674e-07	1.920516e-07	-0.04648102	-0.006620548	3.857405e-07	4.800242e-06	0.0147101	-0.002628516
	0.01452985	-0.003337668	3.857405e-07	4.800242e-06	-0.04710235	-0.008423616	-3.722461e-07	2.182238e-07
	-2.118917e-06	-3.431682e-06	0.0147101	-0.002628516	-3.722461e-07	2.182238e-07	-0.04667374	-0.006373417
2.3e+08	-0.04711481	-0.004079488	-4.608612e-07	2.866536e-07	0.01350337	-0.004199501	-2.776921e-06	-3.170121e-06
	-4.608612e-07	2.866536e-07	-0.04656846	-0.002185791	4.186645e-07	5.028758e-06	0.01374473	-0.003488259
	0.01350337	-0.004199501	4.186645e-07	5.028758e-06	-0.04734959	-0.003976885	-4.990778e-07	3.216888e-07
	-2.776921e-06	-3.170121e-06	0.01374473	-0.003488259	-4.990778e-07	3.216888e-07	-0.04674564	-0.001912933
2.4e+08	-0.04667824	0.0002718043	-5.693803e-07	4.039542e-07	0.01232775	-0.004870059	-3.405822e-06	-2.787195e-06
	-5.693803e-07	4.039542e-07	-0.045973	0.002150634	4.561563e-07	5.255671e-06	0.01262904	-0.00416744
	0.01232775	-0.004870059	4.561563e-07	5.255671e-06	-0.04690825	0.0003998314	-6.175949e-07	4.499467e-07
	-3.405822e-06	-2.787195e-06	0.01262904	-0.004167441	-6.175949e-07	4.499467e-07	-0.04613114	0.002446549
2.5e+08	-0.04558033	0.004446783	-6.659607e-07	5.428898e-07	0.01103761	-0.005326776	-3.983271e-06	-2.286281e-06
	-6.659607e-07	5.428898e-07	-0.04472323	0.006282315	4.979814e-07	5.480244e-06	0.01139568	-0.004643421
	0.01103761	-0.005326777	4.979814e-07	5.480244e-06	-0.04580177	0.004599556	-7.231459e-07	6.018561e-07
	-3.983271e-06	-2.286281e-06	0.01139568	-0.004643421	-7.231459e-07	6.018561e-07	-0.04485935	0.006598024
2.6e+08	-0.04386079	0.008344623	-7.465126e-07	7.016058e-07	0.009670861	-0.005553207	-4.48735e-06	-1.674835e-06
	-7.465126e-07	7.016058e-07	-0.0428641	0.01010932	5.43769e-07	5.701793e-06	0.01008057	-0.004899314
	0.009670861	-0.005553207	5.43769e-07	5.701793e-06	-0.04406995	0.00852081	-8.112648e-07	7.754122e-07
	-4.48735e-06	-1.674835e-06	0.01008057	-0.004899314	-8.112648e-07	7.754122e-07	-0.04297582	0.01044102
2.7e+08	-0.04157443	0.01187233	-8.072686e-07	8.77486e-07	0.008267607	-0.005539472	-4.897305e-06	-9.643295e-07
	-8.072686e-07	8.77486e-07	-0.04045555	0.01354051	5.930231e-07	5.919708e-06	0.008721934	-0.004924442
	0.008267607	-0.005539472	5.930231e-07	5.919708e-06	-0.04176786	0.01207004	-8.778297e-07	9.67783e-07
	-4.897305e-06	-9.643295e-07	0.008721934	-0.004924442	-8.778297e-07	9.67783e-07	-0.04054118	0.01388406
2.8e+08	-0.03878974	0.01494705	-8.449196e-07	1.067219e-06	0.006869083	-0.005282537	-5.194269e-06	-1.700567e-07
	-8.449196e-07	1.067219e-06	-0.03757091	0.01649585	6.451429e-07	6.133478e-06	0.007359235	-0.004714621
	0.006869083	-0.005282537	6.451429e-07	6.133478e-06	-0.0389643	0.01516385	-9.192125e-07	1.175375e-06
	-5.194269e-06	-1.700567e-07	0.007359235	-0.004714621	-9.192125e-07	1.175375e-06	-0.0376295	0.01684683
2.9e+08	-0.03558713	0.01749802	-8.567388e-07	1.266884e-06	0.005516501	-0.004786315	-5.361953e-06	6.891915e-07
	-8.567388e-07	1.266884e-06	-0.03429492	0.01890824	6.994423e-07	6.342704e-06	0.006032111	-0.00427229
	0.005516501	-0.004786315	6.994423e-07	6.342704e-06	-0.03574007	0.01773098	-9.324152e-07	1.393922e-06
	-5.361953e-06	6.891915e-07	0.006032111	-0.00427229	-9.324152e-07	1.393922e-06	-0.03432634	0.01926211
3e+08	-0.03205683	0.01946821	-8.4069e-07	1.472053e-06	0.004249903	-0.004061579	-5.387277e-06	1.591568e-06
	-8.4069e-07	1.472053e-06	-0.03072156	0.02072515	7.55173e-07	6.547108e-06	0.004779286	-0.003606458
	0.004249903	-0.004061579	7.55173e-07	6.547108e-06	-0.03218589	0.01971394	-9.151891e-07	1.618603e-06
	-5.387277e-06	1.591568e-06	0.004779286	-0.003606458	-9.151891e-07	1.618603e-06	-0.03072645	0.02107739
3.1e+08	-0.02829664	0.02081566	-7.95515e-07	1.67792e-06	0.003107048	-0.003125703	-5.260929e-06	2.512728e-06
	-7.95515e-07	1.67792e-06	-0.02695159	0.02190982	8.115468e-07	6.746544e-06	0.003637506	-0.002732486
	0.003107048	-0.003125703	8.115468e-07	6.746544e-06	-0.0284001	0.02107043	-8.661315e-07	1.844175e-06
	-5.260929e-06	2.512728e-06	0.003637506	-0.002732486	-8.661315e-07	1.844175e-06	-0.02693138	0.02225603
3.2e+08	-0.02440947	0.02151443	-7.207981e-07	1.879435e-06	0.002122335	-0.002002207	-4.977827e-06	3.426484e-06
	-7.207981e-07	1.879435e-06	-0.02308996	0.02244206	8.677582e-07	6.941e-06	0.002640506	-0.001671697
	0.002122335	-0.002002207	8.677582e-07	6.941e-06	-0.0244862	0.02177422	-7.84759e-07	2.065122e-06
	-4.977827e-06	3.426484e-06	0.002640506	-0.001671697	-7.84759e-07	2.065122e-06	-0.02304684	0.02277813
3.3e+08	-0.02050074	0.02155518	-6.170073e-07	2.071454e-06	0.001325813	-0.0007201482	-4.537463e-06	4.305545e-06
	-6.170073e-07	2.071454e-06	-0.01924315	0.02231869	9.230051e-07	7.130592e-06	0.001818057	-0.000450818
	0.001325813	-0.0007201482	9.230051e-07	7.130592e-06	-0.02055028	0.0218158	-6.715534e-07	2.275819e-06
	-4.537463e-06	4.305545e-06	0.001818057	-0.0004508179	-6.715534e-07	2.275819e-06	-0.01918001	0.02264092
3.4e+08	-0.01667575	0.02094535	-4.855084e-07	2.248892e-06	0.0007422957	0.0006866586	-3.944121e-06	5.122322e-06
	-4.855084e-07	2.248892e-06	-0.01551645	0.02155353	9.765076e-07	7.315563e-06	0.001195098	0.0008987307
	0.0007422957	0.0006866586	9.765076e-07	7.315563e-06	-0.01669831	0.02120252	-5.279806e-07	2.470695e-06
	-3.944121e-06	5.122322e-06	0.001195098	0.0008987307	-5.279806e-07	2.470695e-06	-0.01543682	0.02185873
3.5e+08	-0.0130371	0.01970888	-3.285553e-07	2.406875e-06	0.0003906114	0.002180563	-3.206956e-06	5.849772e-06
	-3.285553e-07	2.406875e-06	-0.01201129	0.02017695	1.027526e-06	7.496279e-06	0.000791002	0.002341682
	0.0003906114	0.002180563	1.027526e-06	7.496279e-06	-0.01303358	0.01995836	-3.564804e-07	2.644407e-06
	-3.206956e-06	5.849772e-06	0.000791002	0.002341682	-3.564804e-07	2.644407e-06	-0.01191922	0.02046256
3.6e+08	-0.009682055	0.01788558	-1.492533e-07	2.540895e-06	0.0002830039	0.003721121	-2.339917e-06	6.46226e-06
	-1.492533e-07	2.540895e-06	-0.008822671	0.01823502	1.075375e-06	7.673216e-06	0.000618973	0.003839894
	0.0002830039	0.003721121	1.075375e-06	7.673216e-06	-0.009654036	0.01812327	-1.604285e-07	2.792007e-06
	-2.339917e-06	6.46226e-06	0.000618973	0.003839894	-1.604285e-07	2.792007e-06	-0.008722639	0.01849919
3.7e+08	-0.006700168	0.01553006	4.850163e-08	2.646953e-06	0.0004247176	0.005266229	-1.361524e-06	6.936411e-06
	4.850163e-08	2.646953e-06	-0.006036756	0.01578826	1.119437e-06	7.846959e-06	0.0006856201	0.005353415
	0.0004247176	0.005266229	1.119437e-06	7.846959e-06	-0.006649899	0.01575212	5.592876e-08	2.9091e-06
	-1.361524e-06	6.936411e-06	0.0006856202	0.005353415	5.592876e-08	2.9091e-06	-0.005933552	0.01602993
3.8e+08	-0.004171027	0.01271032	2.601068e-07	2.721693e-06	0.0008137757	0.006773336	-2.944867e-07	7.251926e-06
	2.601068e-07	2.721693e-06	-0.003728708	0.01291003	1.15918e-06	8.018189e-06	0.0009907093	0.006841619
	0.0008137757	0.006773336	1.15918e-06	8.018189e-06	-0.004101383	0.01291328	2.875673e-07	2.991992e-06
	-2.944867e-07	7.251926e-06	0.0009907093	0.006841619	2.875673e-07	2.991992e-06	-0.003627278	0.01312897
3.9e+08	-0.002162286	0.009506	4.803593e-07	2.762526e-06	0.001440967	0.00820067	8.34817e-07	7.392329e-06
	4.803593e-07	2.762526e-06	-0.001960791	0.009684569	1.194164e-06	8.187676e-06	0.001527112	0.008264374
	0.001440967	0.00820067	1.194164e-06	8.187676e-06	-0.002076704	0.009686847	5.288009e-07	3.037832e-06
	8.34817e-07	7.392329e-06	0.001527112	0.008264374	5.288009e-07	3.037832e-06	-0.001866106	0.0098814
4e+08	-0.0007279782	0.006006309	7.03582e-07	2.767732e-06	0.002290045	0.009508479	1.997003e-06	7.345627e-06
	7.03582e-07	2.767732e-06	-0.00078083	0.006204799	1.224058e-06	8.356268e-06	0.002280958	0.009583217
	0.002290045	0.009508479	1.224058e-06	8.356268e-06	-0.0006303863	0.006162582	7.73421e-07	3.044717e-06
	1.997003e-06	7.345627e-06	0.002280958	0.009583217	7.73421e-07	3.044717e-06	-0.000697735	0.006381005
4.1e+08	9.280442e-05	0.00230774	9.237674e-07	2.736547e-06	0.00333814	0.01066021	3.160456e-06	7.104853e-06
	9.237674e-07	2.736547e-06	-0.0002210325	0.00256987	1.248653e-06	8.524882e-06	0.003231987	0.01076249
	0.00333814	0.01066021	1.248653e-06	8.524882e-06	0.0001980783	0.002437621	1.014855e-06	3.011796e-06
	3.160456e-06	7.104853e-06	0.003231987	0.01076249	1.014855e-06	3.011796e-06	-0.0001541026	0.002727759
4.2e+08	0.0002768572	-0.001488393	1.134736e-06	2.669223e-06	0.004556379	0.01162364	4.292206e-06	6.668468e-06
	1.134736e-06	2.669223e-06	-0.0002972306	-0.001117423	1.267877e-06	8.694487e-06	0.004354099	0.01177041
	0.004556379	0.01162364	1.267877e-06	8.694487e-06	0.000385189	-0.001386021	1.246341e-06	2.93933e-06
	4.292206e-06	6.668468e-06	0.004354099	0.01177041	1.246341e-06	2.93933e-06	-0.0002506313	-0.0009747646
4.3e+08	-0.0001825993	-0.005278557	1.330309e-06	2.567067e-06	0.005910686	0.01237182	5.358875e-06	6.040613e-06
	1.330309e-06	2.567067e-06	-0.001008544	-0.004753323	1.281806e-06	8.866092e-06	0.005616086	0.01258003
	0.005910686	0.01237182	1.281806e-06	8.866092e-06	-7.601398e-05	-0.005204056	1.461118e-06	2.828735e-06
	5.358875e-06	6.040613e-06	0.005616086	0.01258003	1.461118e-06	2.828735e-06	-0.0009858988	-0.004622102
4.4e+08	-0.001275804	-0.008959629	1.504484e-06	2.432446e-06	0.007362762	0.01288397	6.327667e-06	5.231188e-06
	1.504484e-06	2.432446e-06	-0.00233748	-0.008235793	1.290681e-06	9.040718e-06	0.006982528	0.01317005
	0.007362762	0.01288397	1.290681e-06	9.040718e-06	-0.001175828	-0.00891258	1.652619e-06	2.682592e-06
	6.327667e-06	5.231188e-06	0.006982528	0.01317005	1.652619e-06	2.682592e-06	-0.002341755	-0.008111607
4.5e+08	-0.002976761	-0.01243151	1.65162e-06	2.26877e-06	0.00887119	0.0131461	7.167372e-06	4.25576e-06
	1.65162e-06	2.26877e-06	-0.004250471	-0.01146715	1.294916e-06	9.219381e-06	0.008414815	0.01352548
	0.00887119	0.0131461	1.294916e-06	9.219381e-06	-0.002888187	-0.01241071	1.814674e-06	2.504617e-06
	7.167372e-06	4.25576e-06	0.008414815	0.01352548	1.814674e-06	2.504617e-06	-0.004283873	-0.0113451
4.6e+08	-0.005243961	-0.01559967	1.766618e-06	2.080437e-06	0.01039265	0.0131515	7.849359e-06	3.135286e-06
	1.766618e-06	2.080437e-06	-0.006698818	-0.01435657	1.295106e-06	9.403055e-06	0.009872278	0.01363814
	0.01039265	0.0131515	1.295106e-06	9.403055e-06	-0.005171364	-0.01560315	1.941703e-06	2.299608e-06
	7.849359e-06	3.135286e-06	0.009872278	0.01363814	1.941703e-06	2.299608e-06	-0.006762695	-0.01423143
4.7e+08	-0.008021487	-0.0183775	1.845097e-06	1.872748e-06	0.0118832	0.01290094	8.3485e-06	1.895673e-06
	1.845097e-06	1.872748e-06	-0.009620025	-0.0168224	1.29203e-06	9.592647e-06	0.01131339	0.01350686
	0.0118832	0.01290094	1.29203e-06	9.592647e-06	-0.007969143	-0.01840254	2.028921e-06	2.07335e-06
	8.3485e-06	1.895673e-06	0.01131339	0.01350686	2.028921e-06	2.07335e-06	-0.009714854	-0.0166887
4.8e+08	-0.01124049	-0.02068848	1.883556e-06	1.651792e-06	0.01329958	0.01240269	8.644036e-06	5.671659e-07
