! Created Wed Jul  3 11:25:11 2019
# hz S ma R 50
! 4 Port Network Data from SP1.SP block
! freq  magS11  angS11  magS12  angS12  magS13  angS13  magS14  angS14  
!       magS21  angS21  magS22  angS22  magS23  angS23  magS24  angS24  
!       magS31  angS31  magS32  angS32  magS33  angS33  magS34  angS34  
!       magS41  angS41  magS42  angS42  magS43  angS43  magS44  angS44  
!     
          50000000      0.0489877451        -85.6950303     8.47460634e-05        -135.706194       0.0189028168         48.2337572     0.000165588314        -134.056477
                   8.47460632e-05        -135.706194       0.0485438877        -88.1276092     5.97141823e-05        -136.954001       0.0180342256         52.9920452
                     0.0189028053         48.2337858     5.97141731e-05        -136.954003       0.0490208179        -85.6630178     0.000123499917        -137.351525
                   0.000165588315        -134.056477       0.0180342227          52.992021     0.000123499917        -137.351525       0.0486511739        -88.1434199

          60000000      0.0542680159        -97.1836709     0.000100906708        -141.924545       0.0219093725         40.6572469     0.000197347966        -140.377339
                   0.000100906708        -141.924545       0.0536715714        -99.9940809     7.07973459e-05        -143.615788       0.0209977406         46.6364541
                     0.0219093809         40.6572393      7.0797355e-05        -143.615785        0.054298595        -97.1520527     0.000147027618        -143.330368
                   0.000197347966        -140.377339       0.0209977371         46.6364565     0.000147027619        -143.330368       0.0537953715        -99.9995389

          70000000      0.0593034277        -107.566506     0.000117356102        -148.444885       0.0245756652         32.9815865     0.000229483208        -146.944196
                   0.000117356102        -148.444885       0.0584767381        -110.834623      8.1862853e-05        -150.485317       0.0236879055         40.3545831
                     0.0245756649         32.9815782      8.1862863e-05        -150.485316       0.0593304269        -107.535664     0.000170860666        -149.704007
                   0.000229483208        -146.944196       0.0236879025         40.3545884     0.000170860667        -149.704007       0.0586136699        -110.829111

          80000000      0.0638956181        -117.110379     0.000134102822        -155.210242       0.0268750423          25.210197     0.000262023554        -153.701599
                   0.000134102822        -155.210243       0.0627462127        -120.938683     9.29266778e-05        -157.501778       0.0260870464         34.1846665
                     0.0268750416         25.2101785     9.29266783e-05        -157.501778        0.063917623        -117.080223     0.000194982041          -156.3668
                   0.000262023555        -153.701599       0.0260870439         34.1846714     0.000194982041        -156.366801       0.0628927137        -120.922098

          90000000      0.0677871867           -126.186      0.00015117485        -162.206715       0.0288007105         17.3266471     0.000295044129        -160.635956
                    0.00015117485        -162.206715       0.0662150089        -130.705053     0.000104019334        -164.651562       0.0281966267         28.1507063
                      0.028800709         17.3266256     0.000104019324        -164.651563       0.0678023654         -126.15606     0.000219401758        -163.276808
                   0.000295044129        -160.635956       0.0281966336         28.1507178     0.000219401769         -163.27681       0.0663668466        -130.676969

         100000000      0.0709431756        -134.703054     0.000168468473        -169.383102       0.0303378448         9.31152666     0.000328414664        -167.704735
                   0.000168468471        -169.383099       0.0688366148        -140.069745     0.000115115126        -171.896825       0.0300084604         22.2826188
                     0.0303378445         9.31153585     0.000115115114        -171.896827       0.0709499316        -134.672922     0.000243981978        -170.370476
                   0.000328414662        -167.704735       0.0300084857         22.2826393     0.000243981986        -170.370476       0.0689896307        -140.030401

         110000000      0.0732815265        -142.730809      0.00018596698        -176.721242       0.0314804405         1.12620611     0.000362084301        -174.888071
                    0.00018596698        -176.721242       0.0704911038         -149.09877     0.000126247098        -179.230492       0.0315256714         16.6050712
                     0.0314804486         1.12620556     0.000126247093        -179.230488       0.0732747973        -142.698822     0.000268689695        -177.613136
                   0.000362084298        -174.888071       0.0315256881         16.6050834     0.000268689705        -177.613136       0.0706432015        -149.048932

         120000000      0.0746235781        -150.454427     0.000203525942          175.79668        0.032262954        -7.26286909      0.00039595232         177.817682
                   0.000203525942          175.79668       0.0710381537        -158.092238     0.000137338146         173.352135       0.0327821235          11.119798
                     0.0322629617        -7.26287387     0.000137338144         173.352135       0.0746029183        -150.419233     0.000293332778         175.007805
                   0.000395952318         177.817682       0.0327821414          11.119804     0.000293332779         175.007805       0.0711838502        -158.030822

         130000000      0.0749251485        -157.924253     0.000221070356         168.185401       0.0327134536        -15.9172726      0.00042994883         170.419626
                   0.000221070355         168.185401       0.0704188693        -167.174917     0.000148363226         165.854269       0.0338105278         5.83617227
                     0.0327134521        -15.9172752     0.000148363226         165.854269       0.0748902571        -157.884771     0.000317794316         167.511384
                   0.000429948829         170.419626       0.0338105371         5.83617201     0.000317794315         167.511383       0.0705522178        -167.100656

         140000000      0.0741908641        -164.823781     0.000238399089         160.531767       0.0328339583        -24.8811114     0.000463785761         162.988997
                   0.000238399089         160.531767        0.068608049        -176.119064     0.000159254718         158.343886       0.0346080627        0.799318939
                     0.0328339569        -24.8811133     0.000159254717         158.343886       0.0741426264        -164.778804     0.000341847269         159.982609
                    0.00046378576         162.988997       0.0346080722        0.799318772     0.000341847268         159.982609        0.068724043        -176.031171

         150000000      0.0724564147        -171.286268     0.000255503038         152.824378       0.0326937387        -34.2424862     0.000497494686          155.50923
                   0.000255503039         152.824378       0.0656236193         174.799162     0.000170004607         150.801396       0.0352389685        -4.01113462
                     0.0326937373        -34.2424873     0.000170004606         150.801396        0.072395628        -171.234653     0.000365458391         152.412674
                   0.000497494683         155.509231       0.0352389782        -4.01113458     0.000365458389         152.412674        0.065716838         174.902118

         160000000      0.0697605362        -177.264368     0.000272341407         145.075807       0.0323523504        -44.0868138     0.000531050016         147.985436
                   0.000272341407         145.075807       0.0614778726         165.416252     0.000180592259         143.231954       0.0357473667        -8.60358056
                      0.032352349        -44.0868148     0.000180592257         143.231954       0.0696881559        -177.204205     0.000388569509         144.816211
                   0.000531050015         147.985437       0.0357473768        -8.60358193     0.000388569511          144.81621       0.0615427091          165.53606

         170000000      0.0661088779         177.537446     0.000288786272         137.345465       0.0318608873        -54.4886824     0.000564265878         140.465409
                   0.000288786272         137.345465       0.0561293066         155.718625     0.000190983997          135.68744       0.0361486793        -12.9567202
                      0.031860886          -54.48868     0.000190983996          135.68744       0.0660272176         177.608863     0.000411082636         137.253269
                   0.000564265877         140.465409       0.0361486889        -12.9567191     0.000411082636         137.253269        0.056160802         155.857692

         180000000      0.0617210461         173.219928     0.000304905156            129.627       0.0313229158        -65.5267963     0.000597270321         132.936942
                   0.000304905156            129.627       0.0497494938         145.311763     0.000201198098         128.155277       0.0365082403        -17.1080233
                     0.0313229146        -65.5267952     0.000201198099         128.155277       0.0616331372         173.306667     0.000433075874         129.716917
                   0.000597270321         132.936942       0.0365082408        -17.1080253     0.000433075874         129.716917       0.0497421935         145.472309

         190000000      0.0567960289          170.08244      0.00032074241         121.928515       0.0308398481        -77.2515438     0.000630139976         125.401407
                    0.00032074241         121.928515       0.0424690917         133.648805     0.000211253925         120.640351       0.0368702577        -21.0880393
                      0.030839847        -77.2515425     0.000211253925         120.640351       0.0567063448         170.189668     0.000454628221         122.215806
                   0.000630139976         125.401407       0.0368702583        -21.0880416     0.000454628221         122.215806        0.042417463         133.832389

         200000000       0.051576351          168.66131     0.000336276455         114.282774       0.0305177926        -89.6608101     0.000662813465         117.883512
                   0.000336276454         114.282775       0.0344663619          119.75236     0.000221173154         113.174893       0.0372582468        -24.9116382
                     0.0305177916        -89.6608085     0.000221173155         113.174893       0.0514920349         168.796493     0.000475814789         114.782977
                   0.000662813465         117.883512       0.0372582471        -24.9116377     0.000475814789         114.782977       0.0343646399          119.95365

         210000000      0.0466143721         169.457684     0.000351646331         106.682171       0.0304846296        -102.664138     0.000695479916         110.372337
                   0.000351646331          106.68217       0.0263622805         101.097008     0.000231016554         105.749216       0.0377236394         -28.639242
                     0.0304846287        -102.664136     0.000231016554         105.749217        0.046545212         169.627628     0.000496842859         107.408222
                   0.000695479916         110.372337       0.0377236419        -28.6392557      0.00049684286         107.408222       0.0262057013         101.274883

         220000000      0.0426119642          172.95776     0.000366963332         99.1255435       0.0308526211        -116.074999     0.000728257388         102.864277
                   0.000366963331         99.1255435        0.019604629         72.1839386     0.000240847428         98.3629025       0.0383009455        -32.3296653
                     0.0308526202        -116.074997     0.000240847428         98.3629025        0.042570912         173.163329     0.000517917859         100.087753
                   0.000728257387         102.864277       0.0383009457        -32.3296649     0.000517917859         100.087753       0.0194052794         72.1502779

         230000000      0.0404068427         179.244703      0.00038230627          91.616601       0.0317038406        -129.640145     0.000761179112         95.3608965
                    0.00038230627         91.6166009       0.0175040115         28.9650227      0.00025073584         91.0218863        0.039002967        -36.0293591
                     0.0317038398        -129.640144      0.00025073584         91.0218868        0.040407103         179.469644     0.000539238336          92.822427
                   0.000761179112         95.3608966        0.039002969        -36.0293724     0.000539238337          92.822427       0.0173494986         28.4252706

         240000000      0.0408848806        -173.035137      0.00039785782         84.1353477        0.033088504        -143.049002     0.000794441614         87.8454455
                   0.000397857819         84.1353476       0.0226002465        -10.6655172     0.000260767975         83.7070731       0.0398573665        -39.8163327
                     0.0330885032        -143.049001     0.000260767976         83.7070732        0.040932022        -172.827704     0.000561063302          85.586782
                   0.000794441613         87.8454455       0.0398573665        -39.8163324     0.000561063302          85.586782       0.0225774937        -11.3038846

         250000000      0.0443053021        -166.231888     0.000413708608         76.6675461       0.0350107101        -156.016074     0.000828070412         80.3092306
                   0.000413708607         76.6675461       0.0321102483        -35.4841358     0.000271011951          76.407916       0.0408770537        -43.7577175
                     0.0350107022        -156.016081     0.000271011951         76.4079159       0.0443917713        -166.075922     0.000583580057           78.36034
                    0.00082807041         80.3092305       0.0408770536        -43.7577172     0.000583580058         78.3603402       0.0321915705        -35.9604753

         260000000      0.0502799159        -161.818601     0.000429932349         69.2000613        0.037429105        -168.367812      0.00086204334         72.7444329
                   0.000429932348         69.2000613        0.043433026        -52.1188457     0.000281532214         69.1138066       0.0420514872        -47.8930452
                     0.0374291044         -168.36781     0.000281532215         69.1138071        0.050390938        -161.724392     0.000606927357         71.1252631
                    0.00086204334          72.744433       0.0420514886        -47.8930577     0.000606927358         71.1252632       0.0435847837         -52.466692

         270000000      0.0581436674        -160.164911     0.000446617767         61.7103159       0.0402775666          179.99132     0.000896376553         65.1375081
                   0.000446617767         61.7103158       0.0555469929         -64.918108     0.000292381191         61.8038499       0.0433744469        -52.2695303
                      0.040277566         179.991321     0.000292381193         61.8038504       0.0582638168        -160.125155     0.000631212715         63.8534609
                   0.000896376554         65.1375082       0.0433744482        -52.2695423     0.000631212716          63.853461       0.0557497978        -65.1823207

         280000000      0.0670464274        -161.010612     0.000463720842         54.1778131        0.043477382         169.109133     0.000930877784         57.4802133
                   0.000463720842         54.1778131       0.0678098061        -75.5848908     0.000303564173          54.460733       0.0448467432        -56.9371483
                     0.0434773816         169.109134     0.000303564174          54.460733       0.0671626043        -161.012943     0.000656392761         56.5165451
                   0.000930877784         57.4802133       0.0448467431        -56.9371481      0.00065639276          56.516545       0.0680507498        -75.7943855

         290000000      0.0765866799        -163.576809     0.000481241029         46.5860827       0.0469406665         158.910708     0.000965431009         49.7638415
                   0.000481241029         46.5860827       0.0800527103        -85.1734138     0.000315091221         47.0676831       0.0464359492        -61.8945923
                     0.0469406664         158.910709     0.000315091222          47.067683       0.0766892408        -163.611691     0.000682408863         49.0972195
                   0.000965431009         49.7638415       0.0464359491        -61.8945921     0.000682408862         49.0972195       0.0803222914        -85.3444953

         300000000      0.0863416552        -167.399377     0.000499057675          38.924415       0.0505865414         149.333159     0.000999739906         41.9873556
                   0.000499057674         38.9244149       0.0920175122        -94.0733945     0.000326925839         39.6135421       0.0481232726        -67.1437586
                     0.0505865414         149.333159     0.000326925839          39.613542       0.0864230684        -167.460574     0.000709067171         41.5814781
                   0.000999739913         41.9873559       0.0481232726        -67.1437583      0.00070906717         41.5814781       0.0923072914        -94.2163243

         310000000      0.0958709154        -172.202521     0.000517012574         31.1841564       0.0543344391         140.324626      0.00103350075         34.1521963
                   0.000517012573         31.1841563        0.103414794        -102.412079     0.000338985583         32.0890129       0.0498989737        -72.6991729
                     0.0543344392         140.324627     0.000338985586         32.0890131       0.0959247043        -172.285928     0.000736053653         33.9583509
                    0.00103350075         34.1521964       0.0498989751        -72.6991833     0.000736053654          33.958351        0.103717107        -102.533859

         320000000       0.105035009        -177.683468     0.000534961243         23.3593444       0.0581158248         131.786677      0.00106643117          26.257845
                   0.000534961243         23.3593443        0.114175967        -110.389048     0.000351200284         24.4856665       0.0517347137        -78.5355178
                      0.058115825         131.786677     0.000351200285         24.4856665        0.105056079        -177.786609     0.000763080496         26.2242443
                    0.00106643117          26.257845       0.0517347137        -78.5355176     0.000763080495         26.2242443        0.114483129         -110.49445

         330000000        0.11341839         176.294739      0.00055256451         15.4596847       0.0618714541         123.670679      0.00109795889         18.3195122
                    0.00055256451         15.4596846        0.123920324        -118.048719     0.000363444902         16.8098748       0.0536280318        -84.6345583
                     0.0618714539         123.670679     0.000363444901         16.8098751        0.113402484         176.172989     0.000789670543         18.3859766
