! Created Wed Jul  3 11:22:38 2019
# hz S ma R 50
! 4 Port Network Data from SP1.SP block
! freq  magS11  angS11  magS12  angS12  magS13  angS13  magS14  angS14  
!       magS21  angS21  magS22  angS22  magS23  angS23  magS24  angS24  
!       magS31  angS31  magS32  angS32  magS33  angS33  magS34  angS34  
!       magS41  angS41  magS42  angS42  magS43  angS43  magS44  angS44  
!     
          50000000      0.0502434365        -85.4751941     0.000224824878        -132.744468       0.0178406616         46.6538438     5.64944902e-05        -139.805818
                   0.000224824878        -132.744468       0.0485438877        -88.1276092     0.000351432118        -131.447166       0.0180342256         52.9920452
                     0.0178406477         46.6538661     0.000351432117        -131.447166       0.0503406442        -85.6174937      0.00021314564        -132.542289
                   5.64944903e-05        -139.805815       0.0180342227          52.992021     0.000213145639        -132.542289       0.0486511739        -88.1434199

          60000000       0.055947414        -96.3088121     0.000267713914        -139.316395       0.0208033675         38.7670077     6.65691137e-05        -145.707748
                   0.000267713913        -139.316395       0.0536715714        -99.9940809     0.000418874084        -138.030132       0.0209977406         46.6364541
                     0.0208033748         38.7670001     0.000418874084        -138.030131       0.0560481617        -96.4531634     0.000254060305        -138.892506
                   6.65691134e-05        -145.707747       0.0209977371         46.6364565     0.000254060305        -138.892505       0.0537953715        -99.9995389

          70000000      0.0613367093        -106.031759     0.000310872976        -146.042338       0.0235083647         30.8035773     7.69081268e-05        -151.837872
                   0.000310872976        -146.042338       0.0584767381        -110.834623     0.000486807237        -144.732728       0.0236879055         40.3545831
                     0.0235083645         30.8035699     0.000486807237        -144.732728       0.0614318764        -106.176472     0.000295587958        -145.427079
                   7.69081272e-05        -151.837871       0.0236879025         40.3545884     0.000295587958        -145.427079       0.0586136699        -110.829111

          80000000      0.0662075827        -114.926419     0.000354376768         -152.88735       0.0259360931          22.771756     8.75943109e-05        -158.182689
                   0.000354376768        -152.887351       0.0627462127        -120.938683     0.000555391163        -151.530657       0.0260870464         34.1846665
                     0.0259360942         22.7717386     0.000555391164        -151.530657       0.0662873814        -115.069683     0.000337825807        -152.115902
                   8.75943115e-05        -158.182688       0.0260870439         34.1846714     0.000337825808        -152.115902       0.0628927137        -120.922098

          90000000       0.070298177        -123.360562      0.00039838462        -159.848953       0.0280845646         14.6645997     9.87511405e-05        -164.775012
                   0.000398384619        -159.848952       0.0662150089        -130.705053     0.000624937235        -158.427468       0.0281966267         28.1507063
                     0.0280845755         14.6645778     0.000624937235        -158.427468       0.0703530824        -123.500514      0.00038096283        -158.962706
                   9.87511391e-05        -164.775012       0.0281966336         28.1507178     0.000380962831        -158.962706       0.0663668466        -130.676969

         100000000      0.0735722682        -131.249795     0.000442811414        -166.899266       0.0299413256         6.47319862     0.000110338051        -171.578524
                   0.000442811321        -166.899267       0.0688366148        -140.069745     0.000695365577        -165.401173       0.0300084604         22.2826188
                     0.0299413275         6.47321021     0.000695365474        -165.401175       0.0735925247        -131.384159     0.000424865683        -165.934541
                   0.000110338046         -171.57852       0.0300084857         22.2826393     0.000424865683        -165.934541       0.0689896307        -140.030401

         110000000      0.0759444327        -138.659926     0.000487708082        -174.030909       0.0314994938        -1.82494611      0.00012242438        -178.609403
                   0.000487708066        -174.030898       0.0704911038         -149.09877     0.000766709829        -172.443951       0.0315256714         16.6050712
                     0.0314995047        -1.82494349     0.000766709827        -172.443951       0.0759269861        -138.791614     0.000469518977        -173.019905
                   0.000122424373        -178.609399       0.0315256881         16.6050834     0.000469518978        -173.019905       0.0706432015        -149.048932

         120000000      0.0772434231        -145.765909     0.000533016207          178.75072       0.0327907802        -10.2420625     0.000134930339         174.142265
                   0.000533016208          178.75072       0.0710381537        -158.092238     0.000839107172        -179.569631       0.0327821235          11.119798
                      0.032790791        -10.2420647     0.000839107171        -179.569631       0.0771762501        -145.890375     0.000514889057         179.775649
                   0.000134930335         174.142265       0.0327821414          11.119804     0.000514889151         179.775651       0.0711838502        -158.030822

         130000000       0.077425836        -152.611984     0.000578744297         171.441249       0.0338366779         -18.810766     0.000147849628         166.674761
                   0.000578744295         171.441249       0.0704188693        -167.174917     0.000912658027         173.212974       0.0338105278         5.83617227
                     0.0338366793        -18.8107682     0.000912658025         173.212974       0.0772993488        -152.723661     0.000560956857         172.450642
                   0.000147849628         166.674761       0.0338105371         5.83617201     0.000560956857         172.450642       0.0705522178        -167.100656

         140000000      0.0765162944        -158.885128      0.00062456119          164.09701        0.034627238        -27.5460498     0.000160981874         159.096479
                    0.00062456117         164.097018        0.068608049        -176.119064     0.000986848408         165.953881       0.0346080627        0.799318938
                     0.0346272393        -27.5460505     0.000986848407         165.953881        0.076323633        -158.976414     0.000607284891         165.073998
                   0.000160981872         159.096479       0.0346080722        0.799318772     0.000607284892         165.073998        0.068724043        -176.031171

         150000000      0.0745555022        -164.705888     0.000670545401         156.693118       0.0352158783        -36.4884765     0.000174373843         151.380328
                   0.000670545402         156.693118       0.0656236193         174.799162      0.00106188304         158.625889       0.0352389685        -4.01113462
                     0.0352158796        -36.4884786      0.00106188304         158.625889       0.0742928678        -164.766963     0.000653979412         157.622361
                   0.000174373842         151.380328       0.0352389782        -4.01113458     0.000653979412         157.622361        0.065716838         174.902118

         160000000      0.0715952733        -170.016156     0.000716667669          149.22572       0.0356388435        -45.6722988     0.000188008666          143.53241
                    0.00071666767          149.22572       0.0614778726         165.416252      0.00113776756         151.221612       0.0357473667        -8.60358056
                     0.0356388447        -45.6723011      0.00113776764         151.221613       0.0712624031         -170.03326     0.000701017102         150.094953
                   0.000188008664          143.53241       0.0357473768        -8.60358193     0.000701017103         150.094953       0.0615427091          165.53606

         170000000      0.0676727527        -174.507353     0.000762607887         141.734286       0.0359146406        -55.1205338     0.000201701709          135.62402
                   0.000762607888         141.734286       0.0561293066         155.718625      0.00121393247         143.775006       0.0361486793        -12.9567202
                     0.0359146415        -55.1205336      0.00121393246         143.775006       0.0672748487        -174.460737     0.000748004722         142.537107
                   0.000201701707          135.62402       0.0361486889        -12.9567191     0.000748004722         142.537107        0.056160802         155.857692

         180000000      0.0630298862         -178.06229     0.000808444414         134.203033       0.0361044417        -64.8573402     0.000215536305         127.645772
                   0.000808444413         134.203033       0.0497494938         145.311763      0.00129052986         136.269347       0.0365082403        -17.1080233
                     0.0361044426        -64.8573413      0.00129052986         136.269347       0.0625790125        -177.923638     0.000795108724         134.934719
                   0.000215536305         127.645772       0.0365082408        -17.1080253     0.000795108725          134.93472       0.0497421935         145.472309

         190000000      0.0579033009         179.637472     0.000854146989         126.630816        0.036256253        -74.8988392     0.000229531379          119.60495
                   0.000854146988         126.630815       0.0424690917         133.648805      0.00136748946         128.701327       0.0368702577        -21.0880393
                     0.0362562538        -74.8988403      0.00136748946         128.701327       0.0574217022         179.907682     0.000842355182         127.287501
                   0.000229531379         119.604949       0.0368702583        -21.0880416     0.000842355183         127.287501        0.042417463         133.832389

         200000000      0.0525949035         179.144714     0.000899424171         119.042917        0.036413405        -85.2473158     0.000243552725         111.542267
                   0.000899424171         119.042917       0.0344663619          119.75236      0.00144418161          121.09273       0.0372582468        -24.9116382
                     0.0364134058         -85.247317      0.00144418161          121.09273       0.0521209229         179.600012     0.000889419578         119.621059
                   0.000243552725         111.542267       0.0372582471        -24.9116377     0.000889419579         119.621059       0.0343646399          119.95365

         210000000      0.0477163884        -179.070049     0.000944324412         111.433264        0.036637947        -95.8796659      0.00025770624         103.452785
                    0.00094432441         111.433264       0.0263622805         101.097008      0.00152060931         113.438104       0.0377236394         -28.639242
                     0.0366379388        -95.8796707      0.00152060931         113.438104        0.047309498        -178.373848     0.000936458932         111.927741
                    0.00025770624         103.452785       0.0377236419        -28.6392557     0.000936458933         111.927741       0.0262057013         101.274883

         220000000      0.0440258417        -174.651185     0.000988782844         103.805813       0.0369841992        -106.752933     0.000272029121         95.3403503
                   0.000988782844         103.805813        0.019604629         72.1839386      0.00159652369          105.74165       0.0383009455        -32.3296653
                        0.0369842        -106.752933      0.00159652369          105.74165       0.0437683179        -173.693515     0.000983465751         104.208524
                    0.00027202912         95.3403501       0.0383009457        -32.3296649     0.000983465751         104.208524       0.0194052794         72.1502779

         230000000       0.042373086          -167.7852      0.00103261422         96.1702663       0.0374964056        -117.815325     0.000286476644         87.2153699
                    0.00103261422         96.1702662       0.0175040115         28.9650227       0.0016714058          98.012897        0.039002967        -36.0293591
                      0.037496406        -117.815327       0.0016714058          98.012897       0.0423534046        -166.646151      0.00103024962         96.4703913
                   0.000286476643         87.2153701        0.039002969        -36.0293724      0.00103024962         96.4703913       0.0173494986         28.4252706

         240000000      0.0435204154         -160.05971      0.00107590352         88.5221212       0.0382192735        -128.978614      0.00030118961         79.0645335
                    0.00107590352         88.5221212       0.0226002465        -10.6655172      0.00174525772         90.2505821       0.0398573665        -39.8163327
                     0.0382192738        -128.978615      0.00174525772         90.2505821       0.0437878769        -158.933427      0.00107698437         88.7044773
                   0.000301189609         79.0645334       0.0398573665        -39.8163324      0.00107698437         88.7044773       0.0225774937        -11.3038846

         250000000      0.0475336154        -153.661503      0.00111853608         80.8679012       0.0391864438        -140.138086     0.000316179623         70.8836262
                    0.00111853608         80.8679011       0.0321102483        -35.4841358      0.00181766753         82.4644962       0.0408770537        -43.7577175
                     0.0391864445        -140.138086      0.00181766753         82.4644962        0.048069049        -152.728066      0.00112354318         80.9116491
                   0.000316179624         70.8836258       0.0408770536        -43.7577172      0.00112354318         80.9116491       0.0321915705        -35.9604753

         260000000      0.0539269402        -149.701937      0.00116040495         73.2105424       0.0404095399        -151.212172     0.000331430944         62.6676663
                    0.00116040494         73.2105424        0.043433026        -52.1188457      0.00188824211         74.6603082       0.0420514872        -47.8930452
                     0.0404095357        -151.212163      0.00188824211         74.6603083       0.0546699443        -149.027818      0.00116976329          73.091469
                   0.000331430942         62.6676667       0.0420514886        -47.8930577      0.00116976329          73.091469       0.0435847837         -52.466692

         270000000      0.0620188882        -148.338105      0.00120153084         65.5487389       0.0418905746        -162.112839     0.000347006895         54.4028428
                    0.00120153084         65.5487389       0.0555469929         -64.918108      0.00195686371         66.8414675       0.0433744469        -52.2695303
                     0.0418905745         -162.11284      0.00195686371         66.8414675       0.0629013511        -147.902184      0.00121564289          65.238678
                   0.000347006895         54.4028431       0.0433744482        -52.2695423      0.00121564289          65.238678       0.0557497978        -65.1823207

         280000000      0.0709680081         -149.26713      0.00124178228         57.8912038       0.0436262389        -172.736176     0.000362853517         46.0808368
                    0.00124178228         57.8912039       0.0678098061        -75.5848908      0.00202312196          59.023215       0.0448467432        -56.9371483
                      0.043626234        -172.736167      0.00202312196          59.023215       0.0719304422        -149.017112      0.00126089981         57.3560277
                   0.000362853515          46.080837       0.0448467431        -56.9371481      0.00126089981         57.3560276       0.0680507498        -75.7943855

         290000000      0.0804103715        -151.783848      0.00128116332         50.2326041        0.045586695          176.93816     0.000378958871         37.6889998
                    0.00128116332         50.2326041       0.0800527103        -85.1734138      0.00208693225         51.2038763       0.0464359492        -61.8945923
                     0.0455866949         176.938159      0.00208693225         51.2038763       0.0814069789        -151.674658      0.00130543422         49.4378646
                    0.00037895887         37.6889997       0.0464359491        -61.8945921      0.00130543422         49.4378647       0.0803222914        -85.3444953

         300000000      0.0899353113        -155.471997      0.00131954052         42.5786808       0.0477444479         166.944485      0.00039520634         29.2240531
                    0.00131954052         42.5786808       0.0920175122        -94.0733945      0.00214795068         43.3946511       0.0481232726        -67.1437586
                     0.0477444478         166.944484      0.00214795068         43.3946511       0.0909289335        -155.469021      0.00134890035         41.4886294
                   0.000395206339         29.2240531       0.0481232726        -67.1437583      0.00134890036         41.4886294       0.0923072914        -94.2163243

         310000000      0.0991020779        -160.085163      0.00135691527          34.936628       0.0500653574         157.321659     0.000411533987         20.6819922
                    0.00135691526          34.936628        0.103414794        -102.412079      0.00220619513         35.6090937       0.0498989737        -72.6991729
                     0.0500653573         157.321658      0.00220619513         35.6090938        0.100061324        -160.162708       0.0013910971          33.513913
                   0.000411533987         20.6819924       0.0498989751        -72.6991833       0.0013910971          33.513913        0.103717107        -102.533859

         320000000       0.107783108        -165.353606        0.001393271         27.3026292       0.0525093281         148.042305     0.000427834854         12.0563697
                    0.00139327099         27.3026292        0.114175967        -110.389048      0.00226166972          27.846986       0.0517347137        -78.5355178
                     0.0525093279         148.042305      0.00226166972          27.846986        0.108681479        -165.494131      0.00143180442         25.5123053
                   0.000427834854         12.0563697       0.0517347137        -78.5355176      0.00143180442         25.5123053        0.114483129         -110.49445

         330000000       0.115564549        -171.149299      0.00142835335         19.6913426       0.0550452799         139.112897     0.000443780719         3.35965385
                    0.00142835335         19.6913426        0.123920324        -118.048719      0.00231390419         20.1284117       0.0536280318        -84.6345583
                     0.0550452798         139.112896      0.00231390419         20.1284117        0.116379069        -171.340802      0.00147034643         17.5008752
