! Created Wed Jul  3 11:19:03 2019
# hz S ma R 50
! 4 Port Network Data from SP1.SP block
! freq  magS11  angS11  magS12  angS12  magS13  angS13  magS14  angS14  
!       magS21  angS21  magS22  angS22  magS23  angS23  magS24  angS24  
!       magS31  angS31  magS32  angS32  magS33  angS33  magS34  angS34  
!       magS41  angS41  magS42  angS42  magS43  angS43  magS44  angS44  
!     
          50000000      0.0499090238        -85.6699198        0.960721986        -37.6865753       0.0179450681         47.6274241      0.00280989681        -125.616562
                      0.960721986        -37.6865753       0.0485438877        -88.1276092      0.00281102723        -125.606898       0.0180342256         52.9920452
                     0.0179450669         47.6274235      0.00281102979        -125.606786       0.0499268652        -85.7638871        0.960682587        -37.7190643
                    0.00280989937        -125.616458       0.0180342227          52.992021        0.960682587        -37.7190643       0.0486511739        -88.1434199

          60000000      0.0554864637        -96.7863303        0.957819849         -45.151436       0.0208553296         39.9413335      0.00347311889        -128.612465
                      0.957819849         -45.151436       0.0536715714        -99.9940809      0.00347484008        -128.607261       0.0209977406         46.6364541
                     0.0208553288         39.9413296      0.00347484157        -128.607239       0.0554966356        -96.9008185        0.957779403        -45.1903495
                    0.00347312038        -128.612444       0.0209977371         46.6364565        0.957779403        -45.1903495       0.0537953715        -99.9995389

          70000000      0.0607854996        -106.796723         0.95467318        -52.5913853       0.0234712035          32.165962      0.00422086382        -132.723496
                       0.95467318        -52.5913853       0.0584767381        -110.834623      0.00422322886        -132.723637       0.0236879055         40.3545831
                     0.0234712033         32.1659554        0.004223229        -132.723631       0.0607855445        -106.931177        0.954630701        -52.6366981
                    0.00422086489        -132.723494       0.0236879025         40.3545884        0.954630701        -52.6366981       0.0586136699        -110.829111

          80000000      0.0656044663        -115.978909         0.95132725        -60.0044779        0.025769975         24.3076036      0.00505179621        -137.791204
                       0.95132725        -60.0044779       0.0627462127        -120.938683      0.00505482635        -137.797191       0.0260870464         34.1846665
                      0.025769975         24.3075867      0.00505482555        -137.797171        0.065591756        -116.132657        0.951282737        -60.0561553
                    0.00505179542        -137.791184       0.0260870439         34.1846714        0.951282737        -60.0561553       0.0628927137        -120.922098

          90000000      0.0696837614        -124.703299        0.947913626        -67.3974482       0.0277473607         16.3549912        0.005965926         -143.69124
                      0.947913626        -67.3974482       0.0662150089        -130.705053      0.00596960675         -143.70309       0.0281966267         28.1507063
                     0.0277473601         16.3549648      0.00596960445        -143.703046       0.0696558899        -124.875648        0.947867434        -67.4554709
                    0.00596592263        -143.691204       0.0281966336         28.1507178        0.947867434        -67.4554709       0.0663668466        -130.676969

         100000000      0.0729866108        -132.885208        0.944433968        -74.7642997       0.0293898121         8.29418196      0.00694851101        -150.255475
                      0.944433969        -74.7642997       0.0688366148        -140.069745      0.00695279674        -150.272876       0.0300084604         22.2826188
                       0.02938981         8.29415069      0.00695279041        -150.272805       0.0729410394        -133.075376        0.944387392        -74.8286561
                    0.00694850186        -150.255401       0.0300084857         22.2826393        0.944387392        -74.8286561       0.0689896307        -140.030401

         110000000      0.0754266487        -140.591823        0.940921415        -82.0947215        0.030685069        0.106903351      0.00798434106        -157.325737
                      0.940921415        -82.0947215       0.0704911038         -149.09877      0.00798951456        -157.351168       0.0315256714         16.6050712
                     0.0306850671        0.106882835      0.00798951087        -157.351105       0.0753606772        -140.798534        0.940873217        -82.1653747
                    0.00798433526        -157.325686       0.0315256881         16.6050834        0.940873216        -82.1653747       0.0706432015        -149.048932

         120000000      0.0768318006        -148.007831        0.937499554        -89.4118978       0.0316739973        -8.24355604      0.00907013925        -164.833924
                      0.937499555        -89.4118978       0.0710381537        -158.092238      0.00907599822        -164.865838       0.0327821235          11.119798
                     0.0316739955        -8.24356872      0.00907599616         -164.86579       0.0767433129        -148.230722        0.937451186        -89.4888268
                    0.00907013428        -164.833881       0.0327821414          11.119804        0.937451186        -89.4888268       0.0711838502        -158.030822

         130000000      0.0771556275        -155.184015        0.934228126        -96.7238418       0.0323801195        -16.8024411       0.0101981962        -172.711187
                      0.934228126        -96.7238418       0.0704188693        -167.174917       0.0102045903        -172.748319       0.0338105278         5.83617227
                     0.0323801179         -16.802448       0.0102045906        -172.748286       0.0770429794        -155.422414        0.934179093        -96.8070516
                     0.0101981927        -172.711152       0.0338105371         5.83617201        0.934179093        -96.8070516       0.0705522178        -167.100656

         140000000      0.0764077551        -161.811811        0.931070565        -104.002167       0.0327981443        -25.5975889       0.0113399927         179.188877
                      0.931070565        -104.002167        0.068608049        -176.119064       0.0113467793         179.147547       0.0346080627        0.799318939
                     0.0327981427        -25.5975938       0.0113467793         179.147573        0.076269023        -162.064391        0.931021452        -104.091687
                     0.0113399899         179.188903       0.0346080722        0.799318772        0.931021452        -104.091687        0.068724043        -176.031171

         150000000      0.0746227396        -168.023773        0.928068776        -111.272233       0.0329878547        -34.6896004       0.0124958752         170.895792
                      0.928068776        -111.272233       0.0656236193         174.799162       0.0125029374         170.851065       0.0352389685        -4.01113462
                     0.0329878534        -34.6896033       0.0125029381          170.85108       0.0744569925        -168.288806        0.928020082        -111.368057
                     0.0124958741         170.895815       0.0352389782        -4.01113458        0.928020082        -111.368057        0.065716838         174.902118

         160000000      0.0718398296        -173.776694        0.925241531        -118.543174       0.0329950434        -44.1338367       0.0136599303          162.44351
                      0.925241531        -118.543174       0.0614778726         165.416252       0.0136671708          162.39603       0.0357473667        -8.60358056
                     0.0329950421        -44.1338377       0.0136671723         162.396047       0.0716467174        -174.051706        0.925193568        -118.645337
                     0.0136599291         162.443527       0.0357473768        -8.60358193        0.925193568        -118.645337       0.0615427091          165.53606

         170000000      0.0680677522        -178.782398        0.922611067        -125.792887       0.0328511716        -53.9749686       0.0148038387         153.916505
                      0.922611067        -125.792887       0.0561293066         155.718625       0.0148111821         153.866777       0.0361486793        -12.9567202
                     0.0328511704        -53.9749726       0.0148111826         153.866792       0.0678472304        -179.063331        0.922563939        -125.901429
                     0.0148038374         153.916516       0.0361486889        -12.9567191        0.922563939        -125.901429        0.056160802         155.857692

         180000000      0.0635248002          177.05061        0.920131969        -133.042776       0.0326347073        -64.2592364       0.0159347324         145.326689
                      0.920131969        -133.042776       0.0497494938         145.311763       0.0159421096          145.27511       0.0365082403        -17.1080233
                     0.0326347062        -64.2592369       0.0159421105         145.275117       0.0632780271         176.770308        0.920086494        -133.157734
                     0.0159347323         145.326702       0.0365082408        -17.1080253        0.920086494        -133.157734       0.0497421935         145.472309

         190000000      0.0584063871         174.008451        0.917780834        -140.299795       0.0324149343        -75.0176127       0.0170502665         136.690081
                      0.917780834        -140.299795       0.0424690917         133.648805       0.0170576606         136.636959       0.0368702577        -21.0880393
                     0.0324149333        -75.0176116       0.0170576614         136.636966       0.0581362063         173.739291        0.917736007        -140.421206
                     0.0170502664         136.690087       0.0368702583        -21.0880416        0.917736007        -140.421206        0.042417463         133.832389

         200000000       0.052946901          172.61702        0.915576958         -147.54977       0.0322598286        -86.2555324       0.0181263192         128.056895
                      0.915576958         -147.54977       0.0344663619          119.75236       0.0181337084         128.002443       0.0372582468        -24.9116382
                     0.0322598278         -86.255531       0.0181337101         128.002447        0.052658699         172.376575        0.915532454        -147.677672
                     0.0181263199         128.056901       0.0372582471        -24.9116377        0.915532454        -147.677672       0.0343646399          119.95365

         210000000      0.0476829335         173.377137        0.913449702        -154.803777       0.0322584425        -97.9305162       0.0191706747         119.434839
                      0.913449702        -154.803777       0.0263622805         101.097008       0.0191780826         119.379161       0.0377236394         -28.639242
                     0.0322584418         -97.930515        0.019178083         119.379163       0.0473873625         173.192088        0.913404811        -154.938195
                      0.019170676         119.434841       0.0377236419        -28.6392557        0.913404811        -154.938195       0.0262057013         101.274883

         220000000      0.0432984612         176.824077        0.911359528        -162.062816       0.0324904213        -109.953646       0.0201815998         110.839227
                      0.911359528        -162.062816        0.019604629         72.1839386       0.0201890455         110.782379       0.0383009455        -32.3296653
                     0.0324904206        -109.953645        0.020189046         110.782384       0.0430144308         176.727361         0.91131357        -162.203778
                     0.0201816005          110.83923       0.0383009457        -32.3296649         0.91131357        -162.203778       0.0194052794         72.1502779

         230000000      0.0406334275        -176.819833        0.909291623         -169.32217       0.0330195574        -122.203675       0.0211460238         102.287576
                      0.909291623         -169.32217       0.0175040115         28.9650227       0.0211535347         102.229528        0.039002967        -36.0293591
                     0.0330195568        -122.203674       0.0211535351         102.229529       0.0403895466        -176.807138        0.909244715         -169.46968
                     0.0211460249          102.28758        0.039002969        -36.0293724        0.909244715         -169.46968       0.0173494986         28.4252706

         240000000      0.0406222539        -168.742376        0.907180842        -176.587828       0.0339002528        -134.503096       0.0220764377         93.7791818
                      0.907180842        -176.587828       0.0226002465        -10.6655172        0.022084091         93.7197995       0.0398573665        -39.8163327
                     0.0339002521        -134.503095       0.0220840905         93.7198042       0.0404494794        -168.646263        0.907130156        -176.741878
                     0.0220764375         93.7791842       0.0398573665        -39.8163324        0.907130156        -176.741878       0.0225774937        -11.3038846

         250000000      0.0436077521        -161.305936        0.904996972         176.143806       0.0351623973        -146.659209       0.0229713062          85.328033
                      0.904996972         176.143806       0.0321102483        -35.4841358       0.0229791031         85.2671593       0.0408770537        -43.7577175
                     0.0351623967        -146.659208       0.0229791026         85.2671638       0.0435205939        -161.197079        0.904943596         175.983246
                      0.022971306         85.3280353       0.0408770536        -43.7577172        0.904943596         175.983246       0.0321915705        -35.9604753

         260000000      0.0492482602        -156.183269        0.902720271          168.87508       0.0368026331        -158.526416       0.0238254232         76.9344138
                      0.902720271          168.87508        0.043433026        -52.1188457       0.0238334007         76.8717991       0.0420514872        -47.8930452
                     0.0368026327        -158.526415       0.0238334011         76.8717999       0.0492406796        -156.122931        0.902662255         168.708045
                     0.0238254236         76.9344147       0.0420514886        -47.8930577        0.902662255         168.708045       0.0435847837         -52.466692

         270000000      0.0568614594        -153.901084        0.900314507         161.605481       0.0387983837        -169.981369       0.0246468437         68.5938914
                      0.900314507         161.605481       0.0555469929         -64.918108       0.0246550007         68.5292691       0.0433744469        -52.2695303
                     0.0387983833        -169.981368       0.0246550007         68.5292717       0.0569154014        -153.913455        0.900252396         161.432024
                     0.0246468441         68.5938921       0.0433744482        -52.2695423        0.900252396         161.432024       0.0557497978        -65.1823207

         280000000        0.06555308        -154.231278        0.897782006         154.340751        0.041114645         179.085016       0.0254371834         60.3189319
                      0.897782006         154.340751       0.0678098061        -75.5848908       0.0254455058          60.251964       0.0448467432        -56.9371483
                     0.0411146447         179.085017       0.0254455055         60.2519659        0.065649236        -154.315272         0.89771416         154.160929
                     0.0254371835          60.318932       0.0448467431        -56.9371481         0.89771416         154.160929       0.0680507498        -75.7943855

         290000000      0.0748943038        -156.378436        0.895112178         147.079084       0.0436939271         168.667263       0.0261984938         52.0908798
                      0.895112178         147.079084       0.0800527103        -85.1734138       0.0262069161         52.0212583       0.0464359492        -61.8945923
                     0.0436939268         168.667264       0.0262069162         52.0212584       0.0750168704        -156.524892        0.895038468         146.892978
                     0.0261984935         52.0908817       0.0464359491        -61.8945921        0.895038468         146.892978       0.0803222914        -85.3444953

         300000000      0.0844437495        -159.852621        0.892318041         139.824845       0.0464815317         158.763846       0.0269273201         43.9125458
                      0.892318041         139.824845       0.0920175122        -94.0733945        0.026935714          43.839939       0.0481232726        -67.1437586
                     0.0464815314         158.763847       0.0269357136         43.8399407       0.0845800718        -160.051404        0.892238672         139.632547
                     0.0269273198         43.9125475       0.0481232726        -67.1437583        0.892238672         139.632547       0.0923072914        -94.2163243

         310000000      0.0937432419        -164.355168        0.889397808         132.583973       0.0494186298         149.373388       0.0276335671         35.7841946
                      0.889397808         132.583973        0.103414794        -102.412079       0.0276417574         35.7083466       0.0498989737        -72.6991729
                     0.0494186299         149.373389       0.0276417577         35.7083468       0.0938834062        -164.597485        0.889313707          132.38554
                     0.0276335678         35.7841932       0.0498989751        -72.6991833        0.889313707          132.38554        0.103717107        -102.533859

         320000000       0.102650964        -169.572383        0.886382288         125.354158       0.0524487888         140.429787       0.0283172275         27.6906146
                      0.886382288         125.354158        0.114175967        -110.389048        0.028325014         27.6113009       0.0517347137        -78.5355178
                     0.0524487888         140.429787       0.0283250141         27.6113008        0.102786985        -169.851619        0.886293286         125.149687
                     0.0283172276         27.6906145       0.0517347137        -78.5355176        0.886293286         125.149687        0.114483129         -110.49445

         330000000        0.11075019        -175.354987         0.88336356         118.141606       0.0555254081         131.907084       0.0289609537         19.6470714
                       0.88336356         118.141606        0.123920324        -118.048719       0.0289680555         19.5641376       0.0536280318        -84.6345583
                     0.0555254082         131.907084       0.0289680551          19.564139        0.110875925        -175.665917        0.883271542         117.931139
