! Created Wed Jul  3 11:28:53 2019
# hz S ma R 50
! 4 Port Network Data from SP1.SP block
! freq  magS11  angS11  magS12  angS12  magS13  angS13  magS14  angS14  
!       magS21  angS21  magS22  angS22  magS23  angS23  magS24  angS24  
!       magS31  angS31  magS32  angS32  magS33  angS33  magS34  angS34  
!       magS41  angS41  magS42  angS42  magS43  angS43  magS44  angS44  
!     
          50000000    0.000890844028         51.9280649     3.27050115e-07          93.144732     0.000578993325         86.4504967     2.52514028e-06         86.4600255
                     3.270501e-07         93.1447369       0.0485438877        -88.1276092     1.13600242e-06         85.9758484       0.0180342256         52.9920452
                   0.000578992745          86.450513     1.13600243e-06          85.975848     0.000829849131         47.9983254     4.14776557e-06         84.0048653
                   2.52514028e-06         86.4600255       0.0180342227          52.992021     4.14776557e-06         84.0048654       0.0486511739        -88.1434199

          60000000     0.00100171044         55.4478909     4.09492605e-07         94.4684643       0.0006935434         86.7438398     2.98637599e-06         85.4857313
                    4.0949262e-07         94.4684655       0.0536715714        -99.9940809     1.36964484e-06         86.9980722       0.0209977406         46.6364541
                   0.000693543143         86.7438511     1.36964484e-06          86.998072     0.000923537516         51.6115471     4.94549188e-06         84.1745534
                   2.98637599e-06         85.4857313       0.0209977371         46.6364565     4.94549188e-06         84.1745535       0.0537953715        -99.9995389

          70000000     0.00111443183         58.2556206     4.98500606e-07         94.8701465     0.000807791329          86.935417     3.42745751e-06         84.7901467
                   4.98500626e-07         94.8701464       0.0584767381        -110.834623     1.61040442e-06         87.6257562       0.0236879055         40.3545831
                    0.00080779124         86.9354217     1.61040442e-06         87.6257561      0.00101912065         54.5375641     5.73333112e-06         84.2548973
                   3.42745751e-06         84.7901467       0.0236879025         40.3545884     5.73333113e-06         84.2548973       0.0586136699        -110.829111

          80000000     0.00122867469         60.5252246     5.92731642e-07         94.5679659     0.000921826767         87.0634153     3.85000443e-06         84.3656306
                   5.92731662e-07         94.5679655       0.0627462127        -120.938683     1.85718638e-06          87.930431       0.0260870464         34.1846665
                   0.000921826754          87.063416     1.85718637e-06          87.930431      0.00111622131          56.936064     6.51195769e-06          84.304482
                   3.85000443e-06         84.3656306       0.0260870439         34.1846714     6.51195769e-06          84.304482       0.0628927137        -120.922098

          90000000     0.00134403993         62.3745127      6.9070046e-07          93.728466      0.00103570047         87.1473187     4.25666229e-06         84.2267643
                   6.90700433e-07         93.7284614       0.0662150089        -130.705053     2.10851794e-06         87.9553905       0.0281966267         28.1507063
                    0.00103570048          87.147318     2.10851795e-06         87.9553912      0.00121448535         58.9120924     7.28251312e-06         84.3581905
                   4.25666229e-06         84.2267642       0.0281966336         28.1507178     7.28251311e-06         84.3581904       0.0663668466        -130.676969

         100000000     0.00146010584         63.8894631     7.90623797e-07         92.5021947      0.00114943355         87.1986034     4.65416781e-06         84.3475072
                   7.90623643e-07         92.5021842       0.0688366148        -140.069745     2.36192731e-06         87.7598369       0.0300084604         22.2826188
                    0.00114943356         87.1986034     2.36192736e-06         87.7598384      0.00131349971         60.5464768     8.04786286e-06         84.4289288
                    4.6541678e-06         84.3475071       0.0300084857         22.2826393     8.04786282e-06         84.4289285       0.0689896307        -140.030401

         110000000     0.00157465031         65.3613376     8.91327778e-07         90.9794207      0.00126556465         87.4714288     5.05120619e-06         84.6959858
                   8.91327659e-07         90.9794147       0.0704911038         -149.09877     2.61542909e-06         87.3669937       0.0315256714         16.6050712
                    0.00126556466         87.4714287     2.61542913e-06         87.3669946      0.00141073228         62.1883532     8.81418872e-06         84.5129957
                   5.05120619e-06         84.6959857       0.0315256881         16.6050834     8.81418868e-06         84.5129955       0.0706432015        -149.048932

         120000000     0.00169063148         66.5586063     9.90739836e-07         89.2779002      0.00138107435         87.6151582     5.45459975e-06         85.2550464
                   9.90739682e-07         89.2778964       0.0710381537        -158.092238     2.86549992e-06          86.843634       0.0327821235          11.119798
                    0.00138107435         87.6151581     2.86549998e-06         86.8436346      0.00150966077         63.5259625      9.5808865e-06         84.6213321
                   5.45459974e-06         85.2550464       0.0327821414          11.119804     9.58088645e-06          84.621332       0.0711838502        -158.030822

         130000000     0.00180739897         67.5412179     1.08764098e-06         87.4717444      0.00149607545          87.679754     5.87411382e-06         85.9736805
                   1.08764089e-06         87.4717437       0.0704188693        -167.174917     3.10955352e-06         86.2303154       0.0338105278         5.83617227
                    0.00149607545         87.6797539     3.10955356e-06         86.2303155      0.00160954503         64.6248382     1.03517242e-05         84.7494266
                   5.87411382e-06         85.9736805       0.0338105371         5.83617201     1.03517242e-05         84.7494266       0.0705522178        -167.100656

         140000000     0.00192449607         68.3537875      1.1806156e-06         85.6461795      0.00161065024         87.6944673     6.32030378e-06         86.7423653
                    1.1806155e-06         85.6461791        0.068608049        -176.119064     3.34489776e-06         85.5899402       0.0346080627        0.799318938
                    0.00161065025         87.6944672     3.34489779e-06         85.5899403      0.00170986928         65.5341831     1.11311382e-05         84.8795727
                   6.32030378e-06         86.7423653       0.0346080722        0.799318772     1.11311382e-05         84.8795727        0.068724043        -176.031171

         150000000     0.00204159333         69.0301395     1.26932047e-06         83.8381685       0.0017248601         87.6770917     6.79973681e-06         87.4994037
                   1.26932036e-06         83.8381683       0.0656236193         174.799162     3.57003537e-06         84.9516613       0.0352389685        -4.01113462
                     0.0017248601         87.6770916     3.57003541e-06         84.9516614      0.00181026386         66.2915228     1.19217727e-05         85.0029696
                    6.7997368e-06         87.4994037       0.0352389782        -4.01113458     1.19217727e-05         85.0029696        0.065716838         174.902118

         160000000     0.00215844878         69.5963365     1.35345217e-06         82.0827766      0.00183875224         87.6388005     7.31807573e-06         88.1692589
                   1.35345205e-06          82.082777       0.0614778726         165.416252     3.78363442e-06         84.3509835       0.0357473667        -8.60358056
                    0.00183875225         87.6388004     3.78363447e-06         84.3509835      0.00191045855         66.9258936     1.27262153e-05         85.1069932
                   7.31807572e-06         88.1692589       0.0357473768        -8.60358193     1.27262152e-05         85.1069933       0.0615427091          165.53606

         170000000     0.00227488278          70.072747     1.43264507e-06         80.4266132      0.00195236431          87.586796      7.8784439e-06         88.6614951
                   1.43264494e-06          80.426613       0.0561293066         155.718625     3.98484742e-06         83.8350886       0.0361486793        -12.9567202
                    0.00195236432         87.5867959     3.98484747e-06         83.8350887      0.00201025347         67.4600568     1.35465496e-05         85.1737505
                   7.87844389e-06         88.6614951       0.0361486889        -12.9567191     1.35465495e-05         85.1737505        0.056160802         155.857692

         180000000     0.00239076164         70.4754874     1.50756573e-06         78.8783218      0.00206572733         87.5258194     8.47895486e-06         88.9342272
                   1.50756573e-06         78.8783225       0.0497494938         145.311763     4.17430963e-06          83.428081       0.0365082403        -17.1080233
                    0.00206572733         87.5258194     4.17430963e-06         83.4280809      0.00210950015         67.9120631     1.43827333e-05         85.1936765
                   8.47895486e-06         88.9342272       0.0365082408        -17.1080253     1.43827333e-05         85.1936765       0.0497421935         145.472309

         190000000     0.00250598646         70.8174472     1.57886185e-06         77.4458766      0.00217886765         87.4590436     9.11573667e-06          88.952698
                   1.57886185e-06         77.4458774       0.0424690917         133.648805     4.35314963e-06         83.1561112       0.0368702577        -21.0880393
                    0.00217886765         87.4590436     4.35314964e-06         83.1561111      0.00220808878          68.296374     1.52341099e-05         85.1571109
                   9.11573667e-06          88.952698       0.0368702583        -21.0880416     1.52341099e-05         85.1571109        0.042417463         133.832389

         200000000      0.0026204853         71.1090314     1.64720847e-06         76.1414138       0.0022918082          87.388617     9.78161558e-06         88.6906439
                   1.64720847e-06         76.1414136       0.0344663619          119.75236     4.52345504e-06         83.0464699       0.0372582468        -24.9116382
                     0.0022918082         87.3886169     4.52345504e-06           83.04647       0.0023059393         68.6246796     1.60988054e-05         85.0544845
                   9.78161558e-06         88.6906439       0.0372582471        -24.9116377     1.60988054e-05         85.0544845       0.0343646399          119.95365

         210000000     0.00273420745         71.3587072     1.71390308e-06         74.9443156      0.00240456933         87.3160046     1.04665435e-05         88.1585917
                   1.71390307e-06         74.9443207       0.0263622805         101.097008      4.6884859e-06         83.1047226       0.0377236394         -28.639242
                    0.00240456933         87.3160046      4.6884859e-06         83.1047219      0.00240299498         68.9065024     1.69733451e-05         84.8842883
                   1.04665435e-05         88.1585918       0.0377236419        -28.6392557     1.69733451e-05         84.8842884       0.0262057013         101.274883

         220000000     0.00284711922         71.5734116     1.78011787e-06         73.8287579      0.00251716931         87.2422077     1.11591533e-05         87.3744008
                   1.78011786e-06         73.8287578        0.019604629         72.1839386      4.8520773e-06          83.329698       0.0383009455        -32.3296653
                    0.00251716931         87.2422076      4.8520773e-06          83.329698       0.0024992177         69.1496512     1.78535329e-05         84.6471293
                   1.11591533e-05         87.3744008       0.0383009457        -32.3296649     1.78535329e-05         84.6471293       0.0194052794         72.1502779

         230000000     0.00295920063         71.7588615     1.84680588e-06         72.7714112      0.00262962471          87.167908     1.18461835e-05          86.355978
                   1.84680589e-06         72.7714163       0.0175040115         28.9650227     5.01876916e-06         83.7154743        0.039002967        -36.0293591
                    0.00262962471          87.167908     5.01876915e-06         83.7154736      0.00259458426         69.3605647     1.87342775e-05         84.3442695
                   1.18461835e-05         86.3559781        0.039002969        -36.0293724     1.87342775e-05         84.3442697       0.0173494986         28.4252706

         240000000     0.00307044286         71.9197898     1.91494615e-06         71.7205267      0.00274195059         87.0935648     1.25145359e-05         85.1431519
                   1.91494615e-06         71.7205266       0.0226002465        -10.6655172     5.19318123e-06         84.2319469       0.0398573665        -39.8163327
                    0.00274195059         87.0935648     5.19318123e-06         84.2319469      0.00268908359         69.5445773     1.96100872e-05         83.9840777
                   1.25145359e-05         85.1431519       0.0398573665        -39.8163324     1.96100872e-05         83.9840777       0.0225774937        -11.3038846

         250000000     0.00318084621         72.0601273     1.98505392e-06         70.6213742       0.0028541607          87.019481     1.31512681e-05         83.7810834
                   1.98505392e-06          70.621374       0.0321102483        -35.4841358     5.37962351e-06         84.8365772       0.0408770537        -43.7577175
                     0.0028541607          87.019481     5.37962351e-06         84.8365772      0.00278271442         69.7061247     2.04754002e-05         83.5777472
                   1.31512681e-05         83.7810834       0.0408770536        -43.7577172     2.04754002e-05         83.5777472       0.0321915705        -35.9604753

         260000000     0.00329041906         72.1831143     2.05705007e-06         69.4358613       0.0029662676         86.9458492      1.3743149e-05         82.3015203
                   2.05705012e-06         69.4358663        0.043433026        -52.1188457     5.58207935e-06         85.4892692       0.0420514872        -47.8930452
                     0.0029662676         86.9458491     5.58207931e-06         85.4892686      0.00287548348         69.8489065     2.13246883e-05         83.1343014
                    1.3743149e-05         82.3015204       0.0420514886        -47.8930577     2.13246884e-05         83.1343015       0.0435847837         -52.466692

         270000000     0.00339916736         72.2918987     2.13037977e-06         68.1159366       0.0030782827         86.8727839     1.42788237e-05           80.74748
                   2.13037984e-06         68.1159414       0.0555469929         -64.918108     5.80329411e-06         86.1374957       0.0433744469        -52.2695303
                     0.0030782827         86.8727839     5.80329407e-06         86.1374951       0.0029674039         69.9760152     2.21531419e-05          82.666888
                   1.42788237e-05           80.74748       0.0433744482        -52.2695423     2.21531419e-05         82.6668881       0.0557497978        -65.1823207

         280000000     0.00350712352         72.3880243     2.20386753e-06         66.6011686      0.00319021639         86.8003448     1.47504286e-05         79.1830792
                   2.20386753e-06         66.6011685       0.0678098061        -75.5848908     6.04379321e-06         86.7157044       0.0448467432        -56.9371483
                    0.00319021639         86.8003448     6.04379321e-06         86.7157044      0.00305849398         70.0900401     2.29574565e-05         82.1947353
                   1.47504286e-05         79.1830792       0.0448467431        -56.9371481     2.29574565e-05         82.1947353       0.0680507498        -75.7943855

         290000000     0.00361429994         72.4739309     2.27573936e-06         64.8798441      0.00330207808         86.7285528     1.51494014e-05         77.6349956
                   2.27573936e-06          64.879844       0.0800527103        -85.1734138     6.30387275e-06         87.1905949       0.0464359492        -61.8945923
                    0.00330207808         86.7285528     6.30387275e-06         87.1905949      0.00314877608         70.1931509     2.37346248e-05         81.7272047
                   1.51494014e-05         77.6349956       0.0464359491        -61.8945921     2.37346248e-05         81.7272047       0.0803222914        -85.3444953

         300000000     0.00372072322         72.5511461     2.34390093e-06          62.930447      0.00341387626         86.6574025     1.54707668e-05         76.1530612
                   2.34390092e-06         62.9304469       0.0920175122        -94.0733945     6.58175685e-06          87.522631       0.0481232726        -67.1437586
                    0.00341387626         86.6574025     6.58175685e-06         87.5226311      0.00323827569         70.2871663      2.4483235e-05         81.2790959
                   1.54707668e-05         76.1530612       0.0481232726        -67.1437583      2.4483235e-05         81.2790959       0.0923072914        -94.2163243

         310000000      0.0038264205         72.6210214     2.40552093e-06         60.7258268      0.00352561855         86.5868703     1.57165541e-05         74.7948985
                   2.40552104e-06         60.7258311        0.103414794        -102.412079     6.87290681e-06         87.6822554       0.0498989737        -72.6991729
                    0.00352561855         86.5868703     6.87290675e-06          87.682255      0.00332702067         70.3736103     2.52050484e-05         80.8660835
                   1.57165542e-05         74.7948985       0.0498989751        -72.6991833     2.52050484e-05         80.8660836        0.103717107        -102.533859

         320000000     0.00393142034         72.6846962     2.45786052e-06         58.2759464      0.00363731178         86.5169209     1.58875049e-05         73.5955051
                   2.45786052e-06         58.2759463        0.114175967        -110.389048     7.17350814e-06         87.6654842       0.0517347137        -78.5355178
                    0.00363731178         86.5169209     7.17350814e-06         87.6654842      0.00341504054          70.453759     2.59015703e-05         80.4962203
                   1.58875049e-05         73.5955051       0.0517347137        -78.5355176     2.59015703e-05         80.4962203        0.114483129         -110.49445

         330000000     0.00403575229         72.7431268     2.49810884e-06         55.5692564      0.00374896204         86.4475118     1.59919465e-05         72.6197093
                   2.49810883e-06         55.5692564        0.123920324        -118.048719     7.47714803e-06         87.4638533       0.0536280318        -84.6345583
                    0.00374896204         86.4475118     7.47714803e-06         87.4638533      0.00350236596         70.5286793     2.65774116e-05         80.1828425
