! Created Wed Jul  3 11:27:08 2019
# hz S ma R 50
! 4 Port Network Data from SP1.SP block
! freq  magS11  angS11  magS12  angS12  magS13  angS13  magS14  angS14  
!       magS21  angS21  magS22  angS22  magS23  angS23  magS24  angS24  
!       magS31  angS31  magS32  angS32  magS33  angS33  magS34  angS34  
!       magS41  angS41  magS42  angS42  magS43  angS43  magS44  angS44  
!     
          50000000    0.000886848547          51.717465     2.77243349e-06         86.1466459     0.000579074058         86.4358515      1.2192935e-07         108.740452
                   2.77243349e-06         86.1466459       0.0485438877        -88.1276092      5.0310738e-06         84.3246751       0.0180342256         52.9920452
                   0.000579074018         86.4358417      5.0310738e-06         84.3246751     0.000828916792         47.9338265     2.67957204e-07         86.7925634
                   1.21929357e-07         108.740439       0.0180342227          52.992021     2.67957209e-07         86.7925629       0.0486511739        -88.1434199

          60000000    0.000996708217         55.2392716     3.28429629e-06         85.3844634      0.00069362301         86.7303075      1.6268728e-07         108.838132
                   3.28429629e-06         85.3844634       0.0536715714        -99.9940809      6.0081189e-06         84.6283409       0.0209977406         46.6364541
                   0.000693622969         86.7303045      6.0081189e-06         84.6283409     0.000922332358         51.5461752     3.24802693e-07         88.0751947
                   1.62687265e-07         108.838131       0.0209977371         46.6364565     3.24802692e-07         88.0751943       0.0537953715        -99.9995389

          70000000     0.00110837437         58.0517742     3.77707646e-06         84.8365653     0.000807869175          86.922924     2.07975464e-07         107.602608
                   3.77707646e-06         84.8365653       0.0584767381        -110.834623     6.97974165e-06         84.7992969       0.0236879055         40.3545831
                   0.000807869143         86.9229239     6.97974165e-06         84.7992969      0.00101760556         54.4761846     3.84101311e-07         88.8580804
                   2.07975446e-07         107.602609       0.0236879025         40.3545884     3.84101308e-07         88.8580801       0.0586136699        -110.829111

          80000000     0.00122154965         60.3273666     4.25234818e-06         84.5047077     0.000921902668         87.0517523     2.56711449e-07         105.513442
                   4.25234818e-06         84.5047077       0.0627462127        -120.938683     7.94604315e-06           84.89591       0.0260870464         34.1846665
                   0.000921902647         87.0517533     7.94604316e-06           84.89591       0.0011144281         56.8768333     4.45513422e-07         89.2293391
                   2.56711431e-07         105.513444       0.0260870439         34.1846714     4.45513418e-07         89.2293389       0.0628927137        -120.922098

          90000000      0.0013358538         62.1823105     4.71264013e-06         84.4050226      0.00103577299         87.1362775     3.07863194e-07         102.874167
                   4.71264013e-06         84.4050226       0.0662150089        -130.705053     8.90734634e-06         84.9517449       0.0281966267         28.1507063
                    0.00103577297         87.1362783     8.90734634e-06         84.9517449      0.00121241802         58.8550087     5.08563322e-07         89.2491464
                   3.07863227e-07         102.874176       0.0281966336         28.1507178     5.08563322e-07         89.2491476       0.0663668466        -130.676969

         100000000     0.00145086715         63.7018794     5.16430892e-06         84.5169266      0.00114949973         87.1880383      3.6032246e-07         99.8985423
                   5.16430893e-06         84.5169266       0.0688366148        -140.069745     9.86488905e-06         84.9849674       0.0300084604         22.2826188
                    0.00114949972         87.1880385     9.86488904e-06         84.9849674       0.0013111608          60.491611     5.72519061e-07         88.9926071
                   3.60322621e-07         99.8985609       0.0300084857         22.2826393     5.72519075e-07         88.9926107       0.0689896307        -140.030401

         110000000       0.001564396         65.1535741       5.616186e-06         84.8110395      0.00126472146         87.4440614     4.13703668e-07         96.7312523
                     5.616186e-06         84.8110395       0.0704911038         -149.09877     1.08245454e-05         84.9909116       0.0315256714         16.6050712
                    0.00126472145         87.4440615     1.08245454e-05         84.9909115      0.00140812546         62.1581964     6.36936021e-07         88.4961046
                   4.13703788e-07         96.7312629       0.0315256881         16.6050834     6.36936034e-07         88.4961067       0.0706432015        -149.048932

         120000000     0.00167924112         66.3404557     6.07374043e-06         85.2760145      0.00137956905         87.5820842      4.6663931e-07         93.4659548
                   6.07374043e-06         85.2760145       0.0710381537        -158.092238     1.17817946e-05         84.9922003       0.0327821235          11.119798
                    0.00137956904         87.5820843     1.17817945e-05         84.9922003       0.0015068654         63.5113232     7.00644002e-07         87.8407261
                   4.66639458e-07         93.4659612       0.0327821414          11.119804     7.00644023e-07         87.8407278       0.0711838502        -158.030822

         130000000     0.00179481164         67.3189221      6.5460214e-06         85.8706442      0.00149409418           87.64661     5.18542614e-07         90.1778383
                    6.5460214e-06         85.8706442       0.0704188693        -167.174917     1.27384218e-05         84.9926832       0.0338105278         5.83617227
                    0.00149409417           87.64661     1.27384218e-05         84.9926832       0.0016066014         64.6195251     7.62925892e-07         87.0784064
                   5.18542701e-07         90.1778393       0.0338105371         5.83617201     7.62925907e-07          87.078407       0.0705522178        -167.100656

         140000000     0.00191068537         68.1312959     7.04286756e-06         86.5050929      0.00160833423         87.6639821     5.68608963e-07          86.950725
                   7.04286756e-06         86.5050929        0.068608049        -176.119064     1.36968128e-05         84.9899849       0.0346080627        0.799318938
                    0.00160833423         87.6639822     1.36968128e-05         84.9899849       0.0017067947         65.5340201     8.23045879e-07         86.2796022
                   5.68609059e-07         86.9507258       0.0346080722        0.799318772     8.23045896e-07         86.2796027        0.068724043        -176.031171

         150000000     0.00202655328         68.8099118     7.57043277e-06         87.1297965      0.00172231735         87.6504265      6.1685439e-07         83.8099501
                   7.57043278e-06         87.1297964       0.0656236193         174.799162     1.46584908e-05         84.9832012       0.0352389685        -4.01113462
                    0.00172231735         87.6504266     1.46584908e-05         84.9832012      0.00180706187         66.2936941     8.80624405e-07         85.4801573
                   6.16854495e-07         83.8099507       0.0352389782        -4.01113458     8.80624424e-07         85.4801578        0.065716838         174.902118

         160000000     0.00214218545         69.3798572     8.13411824e-06         87.6829722      0.00183606589         87.6162733     6.63286742e-07         80.7786171
                   8.13411824e-06         87.6829722       0.0614778726         165.416252     1.56251105e-05         84.9692724       0.0357473667        -8.60358056
                    0.00183606589         87.6162733     1.56251104e-05         84.9692724      0.00190712439         66.9285095     9.35345075e-07         84.7195768
                   6.63286859e-07         80.7786166       0.0357473768        -8.60358193     9.35345097e-07         84.7195771       0.0615427091          165.53606

         170000000     0.00225740934         69.8608578     8.73706839e-06         88.0891072      0.00194959863         87.5682805     7.07749704e-07         77.8955627
                   8.73706839e-06         88.0891072       0.0561293066         155.718625     1.65982946e-05         84.9424278       0.0361486793        -12.9567202
                    0.00194959863         87.5682805     1.65982946e-05         84.9424278      0.00200677742         67.4618648     9.87012649e-07         84.0471649
                   7.07749821e-07         77.8955636       0.0361486889        -12.9567191     9.87012671e-07         84.0471653        0.056160802         155.857692

         180000000     0.00237209525         70.2686054     9.37774226e-06         88.3118368      0.00206293214         87.5109691     7.50870949e-07         75.1512428
                   9.37774226e-06         88.3118368       0.0497494938         145.311763     1.75786235e-05         84.8988442       0.0365082403        -17.1080233
                    0.00206293214         87.5109691     1.75786235e-05         84.8988442      0.00210586966         67.9122527     1.03586683e-06          83.487297
                   7.50870956e-07         75.1512415       0.0365082408        -17.1080253     1.03586683e-06         83.4872968       0.0497421935         145.472309

         190000000     0.00248614629          70.615709     1.00527309e-05         88.3197393      0.00217608152         87.4474171     7.93203531e-07         72.5360483
                   1.00527309e-05         88.3197393       0.0424690917         133.648805     1.85664373e-05         84.8342534       0.0368702577        -21.0880393
                    0.00217608152         87.4474171     1.85664373e-05         84.8342534      0.00220428978         68.2944443     1.08227572e-06         83.0643798
                   7.93203538e-07         72.5360468       0.0368702583        -21.0880416     1.08227572e-06         83.0643796        0.042417463         133.832389

         200000000     0.00259949127         70.9123897     1.07554681e-05         88.0877994      0.00228906085         87.3797481     8.35186174e-07         70.0480267
                   1.07554681e-05         88.0877994       0.0344663619          119.75236     1.95615261e-05         84.7439365       0.0372582468        -24.9116382
                    0.00228906085         87.3797482     1.95615261e-05         84.7439365      0.00230195712          68.620347     1.12683203e-06         82.8023663
                   8.35186178e-07          70.048027       0.0372582471        -24.9116377     1.12683203e-06         82.8023664       0.0343646399          119.95365

         210000000      0.0027120794         71.1669959     1.14765203e-05         87.6220897      0.00240188346         87.3094412      8.7776473e-07         67.6449229
                   1.14765203e-05         87.6220897       0.0263622805         101.097008      2.0562735e-05         84.6257435       0.0377236394         -28.639242
                    0.00240188346         87.3094412      2.0562735e-05         84.6257435      0.00239881497         68.8996373     1.17044997e-06         82.7011057
                   8.77764758e-07         67.6449137       0.0377236419        -28.6392557     1.17044998e-06         82.7011044       0.0262057013         101.274883

         220000000     0.00282387634          71.386391     1.22050769e-05         86.9355473      0.00251456198         87.2375312     9.21747462e-07         65.2806232
                   1.22050769e-05         86.9355473        0.019604629         72.1839386     2.15684429e-05         84.4782977       0.0383009455        -32.3296653
                    0.00251456198         87.2375312     2.15684429e-05         84.4782977       0.0024948256         69.1402318     1.21415529e-06         82.7520382
                   9.21747465e-07         65.2806234       0.0383009457        -32.3296649     1.21415529e-06         82.7520383       0.0194052794         72.1502779

         230000000     0.00293486111         71.5762483     1.29284245e-05         86.0419429      0.00262710846         87.1647428     9.67678444e-07         62.9152454
                   1.29284245e-05         86.0419429       0.0175040115         28.9650227     2.25764905e-05         84.3004839        0.039002967        -36.0293591
                    0.00262710846         87.1647428     2.25764905e-05          84.300484      0.00258996649         69.3486451     1.25909023e-06         82.9409519
                   9.67678461e-07         62.9152363        0.039002969        -36.0293724     1.25909023e-06         82.9409505       0.0173494986         28.4252706

         240000000     0.00304502365         71.7412796     1.36338699e-05         84.9748929      0.00273953428          87.091581     1.01627767e-06         60.4774126
                   1.36338699e-05         84.9748929       0.0226002465        -10.6655172     2.35842169e-05         84.0941148       0.0398573665        -39.8163327
                    0.00273953428          87.091581     2.35842169e-05         84.0941148      0.00268422742         69.5302638     1.30638576e-06         83.2286223
                   1.01627767e-06         60.4774128       0.0398573665        -39.8163324     1.30638576e-06         83.2286224       0.0225774937        -11.3038846

         250000000     0.00315436278         71.8854129     1.43087862e-05         83.7736046      0.00285185022         87.0183938     1.06796718e-06         57.8987198
                   1.43087862e-05         83.7736046       0.0321102483        -35.4841358     2.45886843e-05         83.8624506       0.0408770537        -43.7577175
                    0.00285185022         87.0183938     2.45886843e-05         83.8624506      0.00277760811         69.6895587     1.35700595e-06          83.564611
                   1.06796718e-06           57.89872       0.0408770536        -43.7577172     1.35700595e-06         83.5646111       0.0321915705        -35.9604753

         260000000     0.00326288463         72.0119333     1.49403052e-05         82.4665938      0.00296406642         86.9454165     1.12270105e-06         55.1334145
                   1.49403052e-05         82.4665938        0.043433026        -52.1188457     2.55868954e-05         83.6082764       0.0420514872        -47.8930452
                    0.00296406642         86.9454165     2.55868954e-05         83.6082764      0.00287011631         69.8302519     1.41174058e-06         83.9035234
                   1.12270105e-06         55.1334056       0.0420514886        -47.8930577     1.41174057e-06          83.903522       0.0435847837         -52.466692

         270000000     0.00337060119         72.1235944     1.55173212e-05         81.0927048      0.00307619232         86.8728025     1.18030321e-06          52.126386
                   1.55173212e-05         81.0927048       0.0555469929         -64.918108     2.65759309e-05         83.3364219       0.0433744469        -52.2695303
                    0.00307619232         86.8728025     2.65759309e-05          83.336422      0.00296176626         69.9554492      1.4710029e-06         84.1902835
                    1.1803032e-06         52.1263773       0.0433744482        -52.2695423     1.47100289e-06         84.1902822       0.0557497978        -65.1823207

         280000000     0.00347752925         72.2227092     1.60321315e-05         79.7095126      0.00318823674         86.8006463     1.24048094e-06         48.8135592
                   1.60321315e-05         79.7095126       0.0678098061        -75.5848908     2.75532589e-05         83.0546717       0.0448467432        -56.9371483
                    0.00318823674         86.8006463     2.75532589e-05         83.0546717      0.00305257735         70.0677463     1.53459285e-06         84.3604328
                   1.24048094e-06         48.8135594       0.0448467431        -56.9371481     1.53459285e-06         84.3604328       0.0680507498        -75.7943855

         290000000     0.00358368931         72.3112226     1.64764849e-05         78.3423238      0.00330020781         86.7289999     1.30231803e-06         45.1831598
                   1.64764849e-05         78.3423238       0.0800527103        -85.1734138     2.85167261e-05         82.7671329       0.0464359492        -61.8945923
                    0.00330020781         86.7289999     2.85167261e-05         82.7671329      0.00314257302          70.169314      1.6021924e-06         84.3853822
                   1.30231803e-06           45.18316       0.0464359491        -61.8945921      1.6021924e-06         84.3853822       0.0803222914        -85.3444953

         300000000     0.00368910484         72.3907715     1.68456652e-05         77.0364752        0.003412113         86.6578847     1.36496036e-06         41.2154935
                   1.68456652e-05         77.0364752       0.0920175122        -94.0733945     2.94646904e-05         82.4804512       0.0481232726        -67.1437586
                      0.003412113         86.6578847     2.94646904e-05         82.4804512      0.00323177982         70.2619685     1.67295738e-06         84.2329659
                   1.36496037e-06         41.2154938       0.0481232726        -67.1437583     1.67295738e-06          84.232966       0.0923072914        -94.2163243

         310000000     0.00379380149         72.4627336     1.71417515e-05         75.8435271      0.00352395915         86.5873004     1.42746212e-06         36.8786534
                   1.71417515e-05         75.8435271        0.103414794        -102.412079     3.03969561e-05         82.2021251       0.0498989737        -72.6991729
                    0.00352395915         86.5873004     3.03969561e-05         82.2021251      0.00332022661         70.3472287     1.74536719e-06         83.8811818
                   1.42746209e-06         36.8786453       0.0498989751        -72.6991833     1.74536717e-06         83.8811808        0.103717107        -102.533859

         320000000     0.00389780651         72.5282688     1.73657261e-05         74.7949789      0.00363575246         86.5172319      1.4886682e-06         32.1807505
                   1.73657261e-05         74.7949789        0.114175967        -110.389048      3.1313465e-05          81.936534       0.0517347137        -78.5355178
                    0.00363575246         86.5172319      3.1313465e-05          81.936534      0.00340794392         70.4263633     1.81808518e-06         83.3347606
                    1.4886682e-06         32.1807507       0.0517347137        -78.5355176     1.81808519e-06         83.3347607        0.114483129         -110.49445

         330000000     0.00400114823         72.5883525      1.7525952e-05         73.9470734      0.00374749855         86.4476536     1.54787412e-06         27.1121085
                    1.7525952e-05         73.9470734        0.123920324        -118.048719     3.22154726e-05         81.6905671       0.0536280318        -84.6345583
                    0.00374749855         86.4476536     3.22154726e-05         81.6905671      0.00349496329         70.5004306     1.88919039e-06         82.5933682
