! Created Wed Jul  3 15:49:59 2019
# hz S ma R 50
! 4 Port Network Data from SP1.SP block
! freq  magS11  angS11  magS12  angS12  magS13  angS13  magS14  angS14  
!       magS21  angS21  magS22  angS22  magS23  angS23  magS24  angS24  
!       magS31  angS31  magS32  angS32  magS33  angS33  magS34  angS34  
!       magS41  angS41  magS42  angS42  magS43  angS43  magS44  angS44  
!     
          50000000    0.000834145133         48.0682489     3.57266358e-05          86.354802     0.000574962473         86.0820057     6.69545173e-07          139.07447
                   3.57266358e-05          86.354802       0.0492076709        -87.8473643     3.75142271e-05         86.3326833       0.0177358972         52.6357279
                   0.000574962447         86.0819653     3.75142271e-05         86.3326833     0.000784076171         44.0295955     7.16579174e-07         131.147941
                   6.69545098e-07         139.074446       0.0177358946          52.635704     7.16579144e-07          131.14792       0.0493221846        -87.8642571

          60000000    0.000925154924         51.7444005     4.24149544e-05         85.8735898     0.000685344981         86.6469901     9.37790498e-07          133.37001
                   4.24149544e-05         85.8735898       0.0544744523        -99.4538966     4.45811272e-05         85.9545331        0.020674973         46.2063831
                   0.000685344994         86.6469763     4.45811272e-05         85.9545331     0.000859842481         47.7225836     9.97298855e-07         127.174236
                   9.37790349e-07         133.370012       0.0206749697         46.2063855     9.97298712e-07         127.174236        0.054607112         -99.458902

          70000000     0.00102140901         54.6218503     4.89144983e-05         85.5370726     0.000798770771         86.8247022      1.2372339e-06         127.558622
                   4.89144983e-05         85.5370726       0.0593826368        -110.030647     5.14703359e-05         85.6898945       0.0233543314         39.8510978
                   0.000798770796         86.8247001     5.14703359e-05         85.6898945     0.000941023889         50.6610844     1.31015852e-06         122.663849
                   1.23723374e-06         127.558627       0.0233543284          39.851103     1.31015836e-06         122.663852       0.0595294505        -110.023624

          80000000     0.00111955361         56.9667837     5.52414006e-05         85.3514184      0.00091235516         86.9032291     1.56102066e-06         121.748666
                   5.52414006e-05         85.3514184       0.0637147624        -119.872839     5.81973857e-05         85.5502882       0.0257580628         33.6118149
                    0.00091235518         86.9032309     5.81973857e-05         85.5502882      0.00102408999         53.0873276     1.64785919e-06         117.883454
                    1.5610205e-06          121.74867       0.0257580602         33.6118198     1.64785903e-06         117.883458       0.0638717474        -119.853797

          90000000     0.00121814293         58.9068803     6.14200621e-05         85.3309894      0.00102517974         86.9784182     1.90295321e-06         116.004103
                   6.14200621e-05         85.3309894       0.0672011982         -129.37589     6.47855468e-05         85.5515748       0.0278873578         27.5146215
                    0.00102517974         86.9784205     6.47855467e-05         85.5515748      0.00110755193         55.1190095     2.00367455e-06         112.985646
                   1.90295363e-06         116.004115       0.0278873644         27.5146336     2.00367493e-06         112.985658       0.0673638421        -129.344272

         100000000     0.00131682673         60.5380003     6.75128431e-05         85.4611712      0.00113723995         87.0697663     2.25616415e-06         110.378589
                   6.75128431e-05         85.4611712       0.0697938854        -138.478526     7.12937966e-05         85.6822008       0.0297334087         21.5901882
                    0.00113723993         87.0697674     7.12937966e-05         85.6822008      0.00119110028         56.8458786     2.37025712e-06         108.077032
                   2.25616595e-06         110.378612       0.0297334337         21.5902102     2.37025877e-06         108.077054       0.0699578082        -138.434313

         110000000      0.0014152435         61.9632075     7.35959901e-05         85.7209675      0.00125257303         87.3930582     2.61495489e-06         104.903286
                   7.35959901e-05         85.7209675       0.0713704082        -147.250474      7.7793207e-05         85.9235287       0.0312976223         15.8608581
                    0.00125257301         87.3930589      7.7793207e-05         85.9235287      0.00127432714         58.3392849     2.74159839e-06         103.220401
                   2.61495619e-06           104.9033       0.0312976387         15.8608712      2.7415996e-06         103.220414        0.071532094        -147.193327

         120000000     0.00151446275         63.1569279     7.97365075e-05         86.1078345      0.00136904823           87.58131     2.97527806e-06         99.6071535
                   7.97365075e-05         86.1078345         0.07178865        -155.982513     8.43471647e-05          86.274408        0.032612144         10.3343072
                    0.00136904822         87.5813105     8.43471647e-05          86.274408      0.00135831148         59.6082508     3.11296159e-06         98.4682165
                   2.97527961e-06         99.6071611       0.0326121618         10.3343142     3.11296303e-06         98.4682238       0.0719422079        -155.911642

         130000000     0.00161408167         64.1617291     8.60244872e-05         86.5905777      0.00148674386         87.6613745     3.33446177e-06         94.5082834
                   8.60244872e-05         86.5905777       0.0709868866        -164.797491     9.10399366e-05         86.7075526       0.0337077288         5.02199117
                    0.00148674385         87.6613748     9.10399366e-05         86.7075526      0.00144270532         60.6893556     3.48122443e-06         93.8537042
                   3.33446266e-06         94.5082841       0.0337077381         5.02199143     3.48122526e-06          93.853705       0.0711260252        -164.711693

         140000000     0.00171379414         65.0116258     9.25581661e-05         87.1017267      0.00160573939         87.6341061     3.68713838e-06         89.6552065
                   9.25581661e-05         87.1017267       0.0689480896        -173.468372     9.79633238e-05         87.1636836       0.0345798167      -0.0304142765
                    0.00160573939         87.6341063     9.79633238e-05         87.1636836       0.0015272307         61.6131569     3.84082799e-06         89.4342733
                   3.68713935e-06         89.6552073       0.0345798262      -0.0304139002      3.8408289e-06         89.4342741       0.0690674617        -173.366723

         150000000     0.00181198884         65.8308269     9.93991444e-05         87.6050999      0.00172557119         87.4738436      4.0352582e-06         85.0364334
                   9.93991444e-05         87.6050999       0.0656867081         177.731936     0.000105174841         87.6114197       0.0352908072        -4.83913814
                    0.00172557119         87.4738437     0.000105174841         87.6114197      0.00161166636         62.4051092     4.19328982e-06         85.2078835
                   4.03525926e-06         85.0364343        0.035290817        -4.83913753     4.19329082e-06         85.2078843       0.0657805468         177.851208

         160000000     0.00191262846         66.3501262      0.00010660252         88.0549314      0.00184375989         87.1492219     4.38033578e-06          80.649843
                    0.00010660252         88.0549314        0.061214851         168.640796     0.000112726116         88.0107982        0.035882996        -9.40805402
                    0.00184375989          87.149222     0.000112726116         88.0107982      0.00169583726         63.0863817     4.53978182e-06         81.1784194
                   4.38033696e-06         80.6498427       0.0358830062        -9.40805478     4.53978294e-06         81.1784189       0.0612771601         168.780082

         170000000      0.0020114318         66.8789884     0.000114202269         88.3940322      0.00195489219         86.7257535     4.72163242e-06         76.5191156
                   0.000114202269         88.3940322         0.05549825         159.246933     0.000120649274         88.3114467        0.036369257        -13.7096909
                    0.00195489219         86.7257536     0.000120649274         88.3114467      0.00177960574         63.6745748      4.8794654e-06         77.3729894
                    4.7216336e-06         76.5191175       0.0363692665        -13.7096892     4.87946651e-06         77.3729909        0.055523897         159.409698

         180000000     0.00210968083         67.3346272     0.000122185479         88.5938478      0.00205690899         86.4348736     5.06564314e-06         72.6141678
                   0.000122185479         88.5938478       0.0487063219         149.143802     0.000128932536         88.4880404       0.0368116355        -17.7564009
                    0.00205690899         86.4348736     0.000128932536         88.4880404      0.00186286412         64.1843469     5.21841401e-06         73.7663178
                   5.06564322e-06         72.6141659       0.0368116361        -17.7564029     5.21841407e-06         73.7663161       0.0486891684         149.333785

         190000000     0.00220729973         67.7290445     0.000130520668         88.6285578      0.00215679747          86.391132     5.41821203e-06         68.9121504
                   0.000130520668         88.6285578       0.0409709797         137.744609     0.000137546691         88.5173264       0.0373218264        -21.4424866
                    0.00215679747          86.391132     0.000137546691         88.5173264      0.00194552987         64.6279603     5.56213516e-06          70.339106
                   5.41821212e-06         68.9121483       0.0373218271        -21.4424888     5.56213524e-06         70.3391041       0.0409046346         137.965494

         200000000     0.00230423568          68.072106     0.000139144076         88.4763817      0.00226032685          86.472862     5.78344266e-06         65.3826688
                   0.000139144076         88.4763817       0.0324797804         123.932254     0.000146432006         88.3793507       0.0379694382        -25.4498857
                    0.00226032685          86.472862     0.000146432006         88.3793507      0.00202754234         65.0156753     5.91450298e-06         67.0629881
                   5.78344269e-06         65.3826693       0.0379694384        -25.4498852     5.91450301e-06         67.0629885       0.0323573023         124.180823

         210000000     0.00240045375         68.3719464      0.00014796116         88.1394251      0.00236760275         86.5644491     6.16928226e-06         61.9882026
                    0.00014796116         88.1394251       0.0238995326         104.565216     0.000155499314         88.0753528       0.0384815616        -29.0839996
                    0.00236760275          86.564449     0.000155499314         88.0753528      0.00210885854          65.356072     6.28290206e-06         63.9043612
                   6.16928271e-06           61.98819       0.0384815644        -29.0840129     6.28290245e-06         63.9043494       0.0237140643         104.788883

         220000000     0.00249593293         68.6353024     0.000156861854         87.6255111      0.00247713433         86.6276307     6.58469699e-06         58.6661343
                   0.000156861854         87.6255111        0.017005028         71.9478368      0.00016464435         87.6117724       0.0391644181        -32.6074132
                    0.00247713433         86.6276307      0.00016464435         87.6117724      0.00218944955         65.6563448     6.67578484e-06         60.8025434
                   6.58469702e-06         58.6661347       0.0391644183        -32.6074128     6.67578486e-06         60.8025437       0.0167743764         71.8452194

         230000000      0.0025906634          68.867775     0.000165715366         86.9438465      0.00258780984          86.659792     7.03489113e-06         55.3677399
                   0.000165715366         86.9438465       0.0161544005         22.5503787     0.000173742847          86.996505       0.0399962171        -36.1110947
                    0.00258780984          86.659792     0.000173742847          86.996505      0.00226929804         65.9225423     7.09791992e-06         57.7107961
                   7.03489154e-06         55.3677276       0.0399962195        -36.1111076     7.09792025e-06         57.7107846       0.0160125532         21.7733596

         240000000     0.00268464429         69.0740338     0.000174389265         86.1202129      0.00269901302         86.6670752     7.52813262e-06         52.0157918
                   0.000174389265         86.1202129       0.0231454634        -15.8134138     0.000182668589         86.2526044        0.040997884        -39.6746831
                    0.00269901302         86.6670751     0.000182668589         86.2526044      0.00234839619         66.1597601     7.55673687e-06         54.5532081
                   7.52813261e-06          52.015792        0.040997884        -39.6746828     7.55673686e-06         54.5532083       0.0231641562         -16.526968

         250000000     0.00277788178         69.2579813     0.000182751046         85.1858576      0.00281042618         86.6559611     8.07055654e-06         48.5423094
                   0.000182751046         85.1858576       0.0338364059        -37.7070407     0.000191295223         85.4083801        0.042180324        -43.3658061
                    0.00281042618          86.655961     0.000191295223         85.4083801      0.00242674393         66.3722963     8.05752727e-06         51.2618153
                   8.07055653e-06         48.5423097       0.0421803239        -43.3658058     8.05752726e-06         51.2618155       0.0339600887        -38.2002544

         260000000     0.00287038758         69.4228851     0.000190665948         84.1644931      0.00292188805         86.6315272     8.66400769e-06         44.9049195
                   0.000190665948         84.1644931       0.0458830307        -52.4722536     0.000199494326         84.4857074       0.0435319897         -47.225468
                    0.00292188805         86.6315272     0.000199494326         84.4857074      0.00250434741         66.5637818     8.60149205e-06         47.7939777
                   8.66400801e-06          44.904908       0.0435319913        -47.2254801     8.60149226e-06         47.7939667       0.0460763127        -52.8255462

         270000000     0.00296217753         69.5714866     0.000198017393         83.0886842      0.00303331751          86.597456     9.31051453e-06         41.0549149
                   0.000198017393         83.0886842       0.0584893732        -64.0938023     0.000207155034         83.5146486       0.0450452285        -51.3016268
                    0.00303331751          86.597456     0.000207155034         83.5146486      0.00258121771         66.7372862     9.18978127e-06         44.0998385
                   9.31051483e-06         41.0549039         0.04504523        -51.3016383     9.18978146e-06         44.0998281       0.0587337091        -64.3603434

         280000000     0.00305327048         69.7060891     0.000204724793         82.0061789      0.00314467499         86.5563645     1.00126787e-05         36.9412379
                   0.000204724793         82.0061789       0.0710996162        -73.9624535     0.000214201524         82.5390063       0.0467177735        -55.6449978
                    0.00314467499         86.5563645     0.000214201524         82.5390063      0.00265736967         66.8954077       9.823876e-06         40.1253846
                   1.00126787e-05          36.941238       0.0467177734        -55.6449976     9.82387599e-06         40.1253848       0.0713824463        -74.1728195

         290000000     0.00314368746         69.8286319     0.000210703769         80.9393476      0.00325594295         86.5101111     1.07659209e-05         32.5617177
                   0.000210703769         80.9393476       0.0835865504        -82.9546835     0.000220554725         81.5798689       0.0485142921        -60.2562363
                    0.00325594295         86.5101111     0.000220554725         81.5798689      0.00273282103         67.0403471     1.04986955e-05         35.8669899
                   1.07659209e-05         32.5617179        0.048514292        -60.2562361     1.04986955e-05         35.8669901        0.083898363        -83.1254618

         300000000     0.00323345078         69.9407497     0.000215907969         79.9261628      0.00336711563         86.4600243     1.15670366e-05         27.9112252
                   0.000215907969         79.9261628       0.0957060073        -91.3805309      0.00022617283         80.6722151       0.0504114841        -65.1393684
                    0.00336711564         86.4600243      0.00022617283         80.6722151      0.00280759156         67.1739705     1.12104455e-05         31.3167577
                   1.15670366e-05         27.9112255       0.0504114841        -65.1393681     1.12104455e-05         31.3167581       0.0960381159        -91.5220392

         310000000     0.00332258352         70.0438241     0.000220362409         79.0086917      0.00347819363         86.4070616     1.24135455e-05         22.9733339
                   0.000220362409         79.0086917        0.107176573        -99.3261723     0.000231082617         79.8542967       0.0523933849        -70.3103803
                    0.00347819363         86.4070616     0.000231082617         79.8542967      0.00288170245         67.2978613     1.19558102e-05         26.4549923
                   1.24135458e-05         22.9733245       0.0523933863        -70.3103902     1.19558104e-05          26.454983        0.107520949        -99.4454307

         320000000     0.00341110897         70.1390245     0.000224082308         78.2124574      0.00358918089          86.351919       1.329826e-05         17.7688636
                   0.000224082308         78.2124574        0.117934789        -106.962612     0.000235301928         79.1492757       0.0544258679        -75.7469736
                    0.00358918089          86.351919     0.000235301928         79.1492757      0.00295517575         67.4133646     1.27275571e-05          21.300741
                     1.329826e-05         17.7688638       0.0544258679        -75.7469734     1.27275571e-05         21.3007412        0.118283309        -107.064385

         330000000     0.00349905025         70.2273436     0.000227160361         77.5809027      0.00370008302         86.2951065     1.42185319e-05         12.3100275
                   0.000227160361         77.5809027        0.127604888        -114.318291     0.000238923381         78.5956846       0.0564986186        -81.4353398
                    0.00370008302         86.2951065     0.000238923381         78.5956846      0.00302803387         67.5216241     1.35228992e-05          15.862449
