! Created Wed Jul  3 15:44:27 2019
# hz S ma R 50
! 4 Port Network Data from SP1.SP block
! freq  magS11  angS11  magS12  angS12  magS13  angS13  magS14  angS14  
!       magS21  angS21  magS22  angS22  magS23  angS23  magS24  angS24  
!       magS31  angS31  magS32  angS32  magS33  angS33  magS34  angS34  
!       magS41  angS41  magS42  angS42  magS43  angS43  magS44  angS44  
!     
          50000000      0.0502568071        -86.2089426     0.000201204283         -132.45401        0.017550613         47.3432411     3.72334238e-05        -142.431557
                   0.000201204283         -132.45401       0.0492076709        -87.8473643      0.00033200442        -131.052248       0.0177358972         52.6357279
                     0.0175506005         47.3432726     0.000332004418        -131.052248       0.0503675382        -86.3467701     0.000187199153        -132.168935
                   3.72334226e-05        -142.431555       0.0177358946          52.635704     0.000187199149        -132.168934       0.0493221846        -87.8642571

          60000000        0.05594345        -97.0553765     0.000239503176        -138.987617       0.0204887929           39.57409     4.36076819e-05        -147.945611
                   0.000239503176        -138.987617       0.0544744523        -99.4538966     0.000395752719        -137.583815        0.020674973         46.2063831
                     0.0204888023         39.5740895     0.000395752719        -137.583815        0.056038375        -97.1993855     0.000223103414        -138.439482
                   4.36076816e-05        -147.945611       0.0206749697         46.2063855     0.000223103413        -138.439482        0.054607112         -99.458902

          70000000      0.0612664073        -106.818112     0.000278030216        -145.660224       0.0231855028         31.7285639     5.02360783e-05        -153.658912
                   0.000278030217        -145.660224       0.0593826368        -110.030647     0.000460002414        -144.229303       0.0233543314         39.8510978
                     0.0231855041         31.7285604     0.000460002415        -144.229303       0.0613580709        -106.961793     0.000259593589         -144.88492
                   5.02360791e-05        -153.658912       0.0233543284          39.851103     0.000259593589         -144.88492       0.0595294505        -110.023624

          80000000      0.0660321349        -115.747331     0.000316884189        -152.438668        0.025621807         23.8103219     5.72119857e-05         -159.59214
                   0.000316884189        -152.438669       0.0637147624        -119.872839     0.000524927773        -150.966059       0.0257580628         33.6118149
                     0.0256218082          23.810306     0.000524927774        -150.966059       0.0661143141        -115.890068     0.000296782856        -151.479191
                   5.72119866e-05        -159.592139       0.0257580602         33.6118198     0.000296782857        -151.479191       0.0638717474        -119.853797

          90000000      0.0699938194        -124.202349      0.00035623755        -159.322747       0.0277957539         15.8105473     6.46629554e-05        -165.811844
                   0.000356237548        -159.322746       0.0672011982         -129.37589     0.000590840814        -157.798754       0.0278873578         27.5146215
                     0.0277957638         15.8105252     0.000590840814        -157.798754       0.0700528394        -124.342785     0.000334865399        -158.229213
                   6.46629542e-05        -165.811843       0.0278873644         27.5146336     0.000334865401        -158.229213       0.0673638421        -129.344272

         100000000      0.0731212846        -132.097524     0.000396043959        -166.288037       0.0296943812         7.71944585     7.25682799e-05         -172.29172
                   0.000396043864        -166.288037       0.0697938854        -138.478526     0.000657678627        -164.706823       0.0297334087         21.5901882
                     0.0296943818         7.71945679     0.000657678525        -164.706824        0.073142039         -132.23197     0.000373737893        -165.103841
                   7.25682756e-05        -172.291713       0.0297334337         21.5902102     0.000373737892         -165.10384       0.0699578082        -138.434313

         110000000       0.075267191        -139.469678     0.000436323633        -173.333846       0.0313120142       -0.490954307     8.09677379e-05        -179.075707
                   0.000436323616        -173.333833       0.0713704082        -147.250474     0.000725468395        -171.689078       0.0312976223         15.8608581
                     0.0313120237       -0.490952386     0.000725468394        -171.689077       0.0752436147        -139.598051      0.00041335814        -172.098827
                   8.09677324e-05        -179.075701       0.0312976387         15.8608712     0.000413358142        -172.098827        0.071532094        -147.193327

         120000000      0.0763513417        -146.524818     0.000477153909         179.536859       0.0326761133        -8.82882819     8.98674281e-05         173.864727
                    0.00047715391         179.536859         0.07178865        -155.982513     0.000794414935        -178.754119        0.032612144         10.3343072
                     0.0326761227        -8.82883074     0.000794414934        -178.754119       0.0762748719        -146.642295     0.000453805349        -179.214503
                   8.98674256e-05         173.864728       0.0326121618         10.3343142     0.000453805443        -179.214501       0.0719422079        -155.911642

         130000000      0.0763289274         -153.30646     0.000518593881         172.314246       0.0338068428        -17.3279364     9.92940043e-05          166.51682
                   0.000518593878         172.314246       0.0709868866        -164.797491     0.000864650308         174.086753       0.0337077288         5.02199117
                     0.0338068429        -17.3279384     0.000864650307         174.086753       0.0761926603        -153.407488     0.000495105524         173.543111
                   9.92940045e-05         166.516821       0.0337077381         5.02199143     0.000495105525         173.543111       0.0711260252        -164.711693

         140000000      0.0752219806        -159.493343     0.000560362786         165.049005       0.0346916056        -26.0029111     0.000109081719         159.001993
                   0.000560362766         165.049014       0.0689480896        -173.468372     0.000935689122         166.881214       0.0345798167      -0.0304142765
                     0.0346916056        -26.0029113     0.000935689121         166.881213       0.0750212099        -159.570354     0.000536869212         166.240261
                   0.000109081718         159.001993       0.0345798262      -0.0304139002     0.000536869213         166.240261       0.0690674617        -173.366723

         150000000      0.0730773223        -165.199442     0.000602564277         157.712119       0.0353821972        -34.8959739     0.000119302344         151.284693
                   0.000602564277         157.712119       0.0656867081         177.731936      0.00100775009          159.60021       0.0352908072        -4.83913814
                     0.0353821973        -34.8959752      0.00100775009          159.60021       0.0728099266        -165.242577     0.000579227886         158.849996
                   0.000119302343         151.284693        0.035290817        -4.83913753     0.000579227886         158.849996       0.0657805468         177.851208

         160000000      0.0699538932        -170.355064     0.000645187291         150.295431       0.0359127745        -44.0421802     0.000129963773         143.367074
                   0.000645187292         150.295431        0.061214851         168.640796      0.00108084636         152.234444        0.035882996        -9.40805402
                     0.0359127747        -44.0421815      0.00108084645         152.234445       0.0696209771         -170.35027     0.000622179478         151.368096
                   0.000129963772         143.367074       0.0358830062        -9.40805478     0.000622179479         151.368096       0.0612771601         168.780082

         170000000      0.0658994087        -174.630955      0.00068791041         142.834554       0.0362987697        -53.4635509     0.000140895342         135.325273
                   0.000687910411         142.834554         0.05549825         159.246933      0.00115439827         144.816308        0.036369257        -13.7096909
                     0.0362987696        -53.4635496      0.00115439827         144.816308       0.0655074681        -174.557724     0.000665335285         143.837487
                   0.000140895342         135.325273       0.0363692665        -13.7096892     0.000665335285         143.837487        0.055523897         159.409698

         180000000      0.0611748716        -177.884344      0.00073078984         135.311574         0.03659996        -63.1857037     0.000152186612         127.149384
                    0.00073078984         135.311574       0.0487063219         149.143802      0.00122853749         137.328285       0.0368116355        -17.7564009
                     0.0365999601        -63.1857037      0.00122853749         137.328285       0.0607374087        -177.713068     0.000708850236         136.242257
                   0.000152186612         127.149384       0.0368116361        -17.7564029     0.000708850237         136.242257       0.0486891684         149.333785

         190000000      0.0560454271        -179.762114     0.000773758018         127.723333       0.0368628123        -73.2252499     0.000163857005          118.84591
                   0.000773758018         127.723333       0.0409709797         137.744609      0.00130316151         129.766379       0.0373218264        -21.4424866
                     0.0368628124        -73.2252498      0.00130316151         129.766379       0.0555866587        -179.451623     0.000752727635         128.580388
                   0.000163857005          118.84591       0.0373218271        -21.4424888     0.000752727636         128.580388       0.0409046346         137.965494

         200000000      0.0508576833        -179.673533     0.000816455379         120.093934       0.0371287533        -83.5838265     0.000175749311         110.453357
                   0.000816455379         120.093933       0.0324797804         123.932254      0.00137758085         122.151775       0.0379694382        -25.4498857
                     0.0371287535        -83.5838265      0.00137758085         122.151775       0.0504189311        -179.169747     0.000796585341         120.875381
                   0.000175749312         110.453357       0.0379694384        -25.4498852     0.000796585342         120.875381       0.0323573023         124.180823

         210000000      0.0462842015        -177.154002     0.000858853304         112.418264       0.0374594982         -94.239886     0.000187938613         101.973621
                   0.000858853304         112.418264       0.0238995326         104.565216      0.00145173639         114.480179       0.0384815616        -29.0839996
                     0.0374594895         -94.239889      0.00145173639         114.480179        0.045928436        -176.407007     0.000840514042         113.121473
                   0.000187938613         101.973621       0.0384815644        -29.0840129     0.000840514041         113.121473       0.0237140643         104.788883

         220000000      0.0431403999        -171.982939     0.000900795041         104.701678       0.0379092584        -105.151592     0.000200428953         93.4117936
                   0.000900795042         104.701678        0.017005028         71.9478368      0.00152531262         106.756511       0.0391644181        -32.6074132
                     0.0379092588        -105.151591      0.00152531262          106.75651       0.0429506542        -170.993058      0.00088443723         105.319843
                   0.000200428952         93.4117936       0.0391644183        -32.6074128      0.00088443723         105.319843       0.0167743764         71.8452194

         230000000      0.0422733108        -164.671128     0.000941982324         96.9557208       0.0385222658        -116.267524     0.000213119817         84.7801802
                   0.000941982324         96.9557207       0.0161544005         22.5503787      0.00159770358         98.9914008       0.0399962171        -36.1110947
                     0.0385222658        -116.267525      0.00159770358         98.9914008       0.0423294967        -163.549365     0.000928064937         97.4786853
                   0.000213119817         84.7801803       0.0399962195        -36.1111076     0.000928064937         97.4786853       0.0160125532         21.7733596

         240000000      0.0443060934        -157.114253     0.000982395908         89.1796095       0.0393442752        -127.501557     0.000226100592          76.072653
                   0.000982395908         89.1796095       0.0231454634        -15.8134138      0.00166883624         91.1854943        0.040997884        -39.6746831
                     0.0393442752        -127.501557      0.00166883624         91.1854943       0.0446394506        -156.058864     0.000971481083         89.5918653
                   0.000226100592          76.072653        0.040997884        -39.6746828     0.000971481084         89.5918653       0.0231641562         -16.526968

         250000000      0.0491030965         -151.38825      0.00102181537         81.3847672       0.0404098695        -138.750325      0.00023932489         67.2930356
                    0.00102181537         81.3847672       0.0338364059        -37.7070407      0.00173822394         83.3509506        0.042180324        -43.3658061
                     0.0404098701        -138.750325      0.00173822394         83.3509506       0.0496812361        -150.545114      0.00101446582         81.6639828
                   0.000239324892         67.2930354       0.0421803239        -43.3658058      0.00101446582         81.6639828       0.0339600887        -38.2002544

         260000000      0.0560757138        -148.244677      0.00106002694         73.5782617       0.0417310631        -149.932034      0.00025271533         58.4425414
                    0.00106002694         73.5782617       0.0458830307        -52.4722536      0.00180539775         75.4954564       0.0435319897         -47.225468
                      0.041731059        -149.932023      0.00180539775         75.4954564       0.0568373554        -147.648507      0.00105676011         73.6978504
                   0.000252715328         58.4425417       0.0435319913        -47.2254801      0.00105676011         73.6978504       0.0460763127        -52.8255462

         270000000      0.0645392035        -147.598506       0.0010969681         65.7641596       0.0433101582        -160.958523     0.000266285145         49.5175558
                     0.0010969681         65.7641596       0.0584893732        -64.0938023      0.00187018391         67.6249757       0.0450452285        -51.3016268
                     0.0433101582        -160.958523      0.00187018391         67.6249757       0.0654220725        -147.217712      0.00109828703         65.6924717
                   0.000266285145         49.5175559         0.04504523        -51.3016383      0.00109828703         65.6924716       0.0587337091        -64.3603434

         280000000      0.0736910456         -149.07672      0.00113245967         57.9585891       0.0451437878        -171.725619     0.000279945647         40.5225153
                    0.00113245967         57.9585891       0.0710996162        -73.9624535      0.00193214475         59.7580444       0.0467177735        -55.6449978
                     0.0451437831         -171.72561      0.00193214475         59.7580444       0.0746421495         -148.86144      0.00113872095         57.6563761
                   0.000279945645         40.5225156       0.0467177734        -55.6449976      0.00113872095         57.6563761       0.0713824463        -74.1728195

         290000000      0.0832095018        -152.002588       0.0011664574         50.1602279       0.0472003967         177.789948     0.000293652368         31.4515716
                     0.0011664574         50.1602278       0.0835865504        -82.9546835       0.0019911636         51.8948823       0.0485142921        -60.2562363
                     0.0472003968         177.789948       0.0019911636         51.8948823       0.0841878196        -151.912894      0.00117791467         49.5871147
                   0.000293652368         31.4515716        0.048514292        -60.2562361      0.00117791467         49.5871147        0.083898363        -83.1254618

         300000000      0.0927115323        -155.993423      0.00119881862         42.3806883       0.0494503973         167.625072     0.000307272399         22.3108626
                    0.00119881862         42.3806883       0.0957060073        -91.3805309      0.00204689659         44.0493383       0.0504114841        -65.1393684
                     0.0494503974         167.625071      0.00204689659         44.0493383       0.0936832154        -155.999435      0.00121551024         41.4937708
                   0.000307272399         22.3108626       0.0504114841        -65.1393681      0.00121551025         41.4937708       0.0960381159        -91.5220392

         310000000       0.101776872         -160.83176      0.00122959697         34.6329486       0.0518569259         157.820677     0.000320764676         13.1071875
                    0.00122959697         34.6329485        0.107176573        -99.3261723      0.00209940408         36.2375521       0.0523933849        -70.3103803
                      0.051856926         157.820677      0.00209940408         36.2375521        0.102712779        -160.911406       0.0012513486         33.3863704
                   0.000320764677         13.1071875       0.0523933863        -70.3103902       0.0012513486         33.3863703        0.107520949        -99.4454307

         320000000       0.110291182        -166.271254      0.00125881758         26.9164943       0.0543762707          148.35293     0.000334036416         3.83889414
                    0.00125881758         26.9164942        0.117934789        -106.962612      0.00214872315         28.4609201       0.0544258679        -75.7469736
                     0.0543762708          148.35293      0.00214872315         28.4609201        0.111166337        -166.409513      0.00128523793         25.2661279
                   0.000334036417         3.83889409       0.0544258679        -75.7469734      0.00128523793         25.2661279        0.118283309        -107.064385

         330000000       0.117852577        -172.200428      0.00128631801         19.2508684       0.0569739728         139.230937     0.000346791479        -5.47778086
                    0.00128631801         19.2508683        0.127604888        -114.318291      0.00219445498         20.7417149       0.0564986186        -81.4353398
                      0.056973973         139.230937      0.00219445498         20.7417149        0.118645027        -172.387049      0.00131657333         17.1539354
