! Created Wed Jul  3 15:41:09 2019
# hz S ma R 50
! 4 Port Network Data from SP1.SP block
! freq  magS11  angS11  magS12  angS12  magS13  angS13  magS14  angS14  
!       magS21  angS21  magS22  angS22  magS23  angS23  magS24  angS24  
!       magS31  angS31  magS32  angS32  magS33  angS33  magS34  angS34  
!       magS41  angS41  magS42  angS42  magS43  angS43  magS44  angS44  
!     
          50000000      0.0499240908        -86.4059811          0.9608056         -37.465045       0.0176588912         48.3352957      0.00239362363        -124.680493
                        0.9608056        -37.4650451       0.0492076709        -87.8473643       0.0023948747        -124.660045       0.0177358972         52.6357279
                     0.0176588993         48.3353479       0.0023948765        -124.660147       0.0499472585        -86.5082204         0.96076592        -37.4976685
                    0.00239362546        -124.680596       0.0177358946          52.635704         0.96076592        -37.4976685       0.0493221846        -87.8642571

          60000000      0.0554838509        -97.5379543        0.957896034         -44.883456       0.0205477058         40.7716951      0.00297745455        -127.015484
                      0.957896034         -44.883456       0.0544744523        -99.4538966      0.00297942941         -127.00085        0.020674973         46.2063831
                     0.0205477091         40.7717002      0.00297942968        -127.000872       0.0554925133        -97.6597485        0.957856165         -44.922537
                    0.00297745477        -127.015512       0.0206749697         46.2063855        0.957856165         -44.922537        0.054607112         -99.458902

          70000000      0.0607206373        -107.589341        0.954749623        -52.2789673       0.0231592428         33.1192801      0.00364806301         -130.68449
                      0.954749623        -52.2789673       0.0593826368        -110.030647      0.00365079254        -130.676405       0.0233543314         39.8510978
                     0.0231592424         33.1192719      0.00365079261        -130.676393       0.0607195416        -107.731803         0.95470771        -52.3244721
                    0.00364806394        -130.684486       0.0233543284          39.851103         0.95470771        -52.3244721       0.0595294505        -110.023624

          80000000      0.0654402323        -116.807573        0.951412288        -59.6479529       0.0254713771         25.3799335      0.00440274688        -135.490386
                      0.951412288        -59.6479529       0.0637147624        -119.872839      0.00440626279        -135.489115       0.0257580628         33.6118149
                     0.0254713752         25.3799151      0.00440626265        -135.489082        0.065427421        -116.970528        0.951368014        -59.6998605
                    0.00440274677        -135.490354       0.0257580602         33.6118198        0.951368013        -59.6998605       0.0638717474        -119.853797

          90000000      0.0693962565        -125.554865        0.948007787         -66.996291        0.027479687         17.5405874      0.00524018149        -141.261763
                      0.948007788         -66.996291       0.0672011982         -129.37589      0.00524447251        -141.267233       0.0278873578         27.5146215
                     0.0274796848          17.540561      0.00524447088        -141.267179       0.0693677519        -125.737222        0.947961784        -67.0545807
                    0.00524017882        -141.261717       0.0278873644         27.5146336        0.947961784        -67.0545807       0.0673638421        -129.344272

         100000000      0.0725571479        -133.745001        0.944531359        -74.3179261       0.0291698344         9.58656747      0.00614520042        -147.783581
                      0.944531359        -74.3179261       0.0697938854        -138.478526      0.00615020513        -147.795389       0.0297334087         21.5901882
                     0.0291698327         9.58653646      0.00615019896        -147.795309       0.0725086762        -133.945121        0.944485286        -74.3825657
                    0.00614519143        -147.783497       0.0297334337         21.5902102        0.944485286        -74.3825657       0.0699578082        -138.434313

         110000000      0.0747762549        -141.418043        0.941028482        -81.6053796         0.03053056         1.49391742      0.00710216464        -154.921353
                      0.941028482        -81.6053796       0.0713704082        -147.250474      0.00710811118        -154.938281       0.0312976223         15.8608581
                     0.0305305586         1.49389707      0.00710810763        -154.938211       0.0747049041        -141.634664          0.9409811        -81.6763907
                    0.00710215893        -154.921296       0.0312976387         15.8608712        0.940981099        -81.6763907        0.071532094        -147.193327

         120000000      0.0759706993        -148.788666        0.937621582         -88.879458       0.0315978015        -6.76953357       0.0081083394        -162.509259
                      0.937621582         -88.879458         0.07178865        -155.982513      0.00811502933        -162.531251        0.032612144         10.3343072
                     0.0315978004        -6.76954623      0.00811502737        -162.531199       0.0758745621        -149.021267        0.937574339        -88.9568154
                     0.0081083345        -162.509211       0.0326121618         10.3343142        0.937574339        -88.9568154       0.0719422079        -155.911642

         130000000      0.0760923305        -155.907333        0.934368699        -96.1482643         0.03239325        -15.2498462      0.00915678868        -170.477935
                      0.934368699        -96.1482643       0.0709868866        -164.797491      0.00916406148        -170.504482       0.0337077288         5.02199117
                     0.0323932491        -15.2498533      0.00916406178        -170.504445       0.0759699601        -156.155132        0.934321089        -96.2319702
                    0.00915678524        -170.477896       0.0337077381         5.02199143        0.934321089        -96.2319702       0.0711260252        -164.711693

         140000000      0.0751475697        -162.458033        0.931231091         -103.38349       0.0329084688        -23.9738868       0.0102199818        -178.673381
                      0.931231091         -103.38349       0.0689480896        -173.468372       0.0102276781        -178.703834       0.0345798167      -0.0304142764
                     0.0329084681        -23.9738921       0.0102276781        -178.703806       0.0749970783        -162.719481        0.931183683        -103.473571
                      0.010219979        -178.673353       0.0345798262      -0.0304139002        0.931183683        -103.473571       0.0690674617        -173.366723

         150000000      0.0731763832        -168.567592         0.92824955        -110.610551       0.0332010599        -33.0035214       0.0112988641         172.932731
                       0.92824955        -110.610551       0.0656867081         177.731936       0.0113068487         172.898992       0.0352908072        -4.83913814
                     0.0332010594        -33.0035249       0.0113068494         172.899007       0.0729969252        -168.840652        0.928202815        -110.706999
                      0.011298863         172.932757        0.035290817        -4.83913753        0.928202815        -110.706999       0.0657805468         177.851208

         160000000      0.0702240218         -174.18254         0.92544151        -117.838631       0.0333142071        -42.3943593       0.0123880106          164.37358
                       0.92544151        -117.838631        0.061214851         168.640796       0.0123961676         164.337123        0.035882996        -9.40805402
                     0.0333142066         -42.394361       0.0123961692         164.337142       0.0700153566        -174.464218        0.925395726        -117.941482
                     0.0123880094         164.373599       0.0358830062        -9.40805478        0.925395726        -117.941482       0.0612771601         168.780082

         170000000       0.066307778        -178.995951        0.922827409        -125.045652       0.0332758786        -52.1892365       0.0134594088         155.736623
                      0.922827409        -125.045652         0.05549825         159.246933       0.0134676493         155.697973        0.036369257        -13.7096909
                     0.0332758782        -52.1892415       0.0134676498         155.697989       0.0660700991        -179.281408         0.92278262        -125.154944
                     0.0134594074         155.736636       0.0363692665        -13.7096892         0.92278262        -125.154944        0.055523897         159.409698

         180000000      0.0616621814         177.107793         0.92036068        -132.253015       0.0331627848        -62.4356353       0.0145200147         147.032437
                       0.92036068        -132.253015       0.0487063219         149.143802       0.0145282509         146.991977       0.0368116355        -17.7564009
                     0.0331627844        -62.4356369       0.0145282519         146.991984       0.0613969629         176.826753        0.920317654        -132.368784
                     0.0145200146         147.032451       0.0368116361        -17.7564029        0.920317654        -132.368784       0.0486891684         149.333785

         190000000      0.0565068974         174.449175        0.918016585        -139.467654       0.0330424064        -73.1649987       0.0155663504         138.285487
                      0.918016585        -139.467654       0.0409709797         137.744609       0.0155745553         138.243524       0.0373218264        -21.4424866
                     0.0330424061        -73.1649989       0.0155745561         138.243531       0.0562178075         174.185724        0.917974252        -139.589936
                     0.0155663503         138.285493       0.0373218271        -21.4424888        0.917974252        -139.589936       0.0409046346         137.965494

         200000000       0.051115241         173.600057        0.915812765        -146.675338       0.0329811487        -84.3820292        0.016584219         129.529482
                      0.915812765        -146.675338       0.0324797804         123.932254       0.0165923494         129.486247       0.0379694382        -25.4498857
                     0.0329811485        -84.3820292       0.0165923511         129.486251       0.0508093137         173.375665        0.915770712        -146.804172
                     0.0165842197         129.529489       0.0379694384        -25.4498852        0.915770712        -146.804172       0.0323573023         124.180823

         210000000      0.0460817359         175.085593        0.913678024         -153.88706        0.033068206        -96.0483603       0.0175657887         120.769886
                      0.913678024         -153.88706       0.0238995326         104.565216       0.0175738587         120.725552       0.0384815616        -29.0839996
                     0.0330682058        -96.0483605       0.0175738591         120.725553        0.045772667         174.931703        0.913635454        -154.022468
                       0.01756579         120.769888       0.0384815644        -29.0840129        0.913635454        -154.022468       0.0237140643         104.788883

         220000000       0.042159157         179.369406        0.911572116        -161.103729       0.0333841184        -108.078755        0.018515028         112.036987
                      0.911572116        -161.103729        0.017005028         71.9478368       0.0185230482         111.991621       0.0391644181        -32.6074132
                     0.0333841182        -108.078755       0.0185230487         111.991628       0.0418705238         179.320385         0.91152826        -161.245736
                     0.0185150286          112.03699       0.0391644183        -32.6074128         0.91152826        -161.245736       0.0167743764         71.8452194

         230000000      0.0402248658        -173.608875        0.909479761          -168.3205       0.0339942033        -120.355752       0.0194179408         103.344312
                      0.909479761          -168.3205       0.0161544005         22.5503787       0.0194259276         103.297904       0.0399962171        -36.1110947
                     0.0339942031        -120.355752       0.0194259279         103.297906       0.0399897269        -173.542038        0.909434642        -168.469106
                     0.0194179418         103.344317       0.0399962195        -36.1111076        0.909434642        -168.469106       0.0160125532         21.7733596

         240000000      0.0411188416        -165.464359        0.907336221        -175.543236       0.0349559002        -132.707574       0.0202859083         94.6909844
                      0.907336221        -175.543236       0.0231454634        -15.8134138        0.020293934         94.6434017        0.040997884        -39.6746831
                     0.0349558999        -132.707574       0.0202939335         94.6434067       0.0409676701        -165.327896        0.907286928        -175.698427
                      0.020285908          94.690987        0.040997884        -39.6746828        0.907286928        -175.698427       0.0231641562         -16.526968

         250000000      0.0449666262        -158.624918        0.905112283         177.231787       0.0363021083        -144.945153        0.021116175         86.0928634
                      0.905112283         177.231787       0.0338364059        -37.7070407       0.0211242283         86.0439444        0.042180324        -43.3658061
                      0.036302108        -144.945153       0.0211242277         86.0439491       0.0449080584        -158.498207        0.905059835         177.070045
                     0.0211161747         86.0928658       0.0421803239        -43.3658058        0.905059835         177.070045       0.0339600887        -38.2002544

         260000000      0.0512716792        -154.386391        0.902789314         170.007053       0.0380314856        -156.922819       0.0219021676         77.5509018
                      0.902789314         170.007053       0.0458830307        -52.4722536       0.0219102799         77.5003897       0.0435319897         -47.225468
                     0.0380314855        -156.922819       0.0219102802         77.5003904       0.0512943046        -154.323718        0.902731708         169.838803
                     0.0219021678         77.5509026       0.0435319913        -47.2254801        0.902731708         169.838803       0.0460763127        -52.8255462

         270000000      0.0593212148        -152.927136        0.900332979         162.782159       0.0401227601        -168.515673        0.022650799         69.0623868
                      0.900332979         162.782159       0.0584893732        -64.0938023       0.0226589547         69.0099898       0.0450452285        -51.3016268
                     0.0401227599        -168.515673       0.0226589546         69.0099925       0.0594047323        -152.944138        0.900270727         162.607462
                     0.0226507992         69.0623874         0.04504523        -51.3016383        0.900270727         162.607462       0.0587337091        -64.3603434

         280000000      0.0682592892        -153.891951        0.897748541         155.562905       0.0425411316        -179.611915       0.0233627886         60.6437772
                      0.897748541         155.562905       0.0710996162        -73.9624535       0.0233709693         60.5891349       0.0467177735        -55.6449978
                     0.0425411315        -179.611915       0.0233709689          60.589137       0.0683838643        -153.983074        0.897680009         155.381829
                     0.0233627886         60.6437773       0.0467177734        -55.6449976        0.897680009         155.381829       0.0713824463        -74.1728195

         290000000      0.0777071921        -156.507507        0.895027566         148.347559       0.0452266466         169.788733       0.0240392973         52.2770149
                      0.895027566         148.347559       0.0835865504        -82.9546835       0.0240474242         52.2197849       0.0485142921        -60.2562363
                     0.0452266465         169.788733       0.0240474242          52.219785       0.0778569974        -156.662093        0.894952653         148.160191
                     0.0240392969         52.2770168        0.048514292        -60.2562361        0.894952653         148.160191        0.083898363        -83.1254618

         300000000      0.0872564647        -160.322988        0.892186104         141.140495       0.0481212797         159.689585       0.0246763327         43.9678072
                      0.892186103         141.140495       0.0957060073        -91.3805309       0.0246842623         43.9076179       0.0504114841        -65.1393684
                     0.0481212795         159.689586       0.0246842619         43.9076199       0.0874187959        -160.530512        0.892105078         140.946936
                     0.0246763323         43.9678091       0.0504114841        -65.1393681        0.892105078         140.946936       0.0960381159        -91.5220392

         310000000      0.0964725024        -165.075173        0.889225511          133.94758       0.0511619857         150.093002       0.0252840022         35.7197219
                      0.889225511          133.94758        0.107176573        -99.3261723       0.0252915383         35.6562783       0.0523933849        -70.3103803
                     0.0511619857         150.093002       0.0252915384         35.6562785       0.0966373057        -165.326806        0.889139391         133.747896
                     0.0252840029         35.7197203       0.0523933863        -70.3103902        0.889139391         133.747896        0.107520949        -99.4454307

         320000000       0.105228413        -170.479113        0.886178999         126.766448       0.0542869915         140.937427       0.0258624212          27.518741
                      0.886178999         126.766448        0.117934789        -106.962612       0.0258693421         27.4517787       0.0544258679        -75.7469736
                     0.0542869915         140.937427       0.0258693421         27.4517788        0.105387461        -170.768275        0.886087731         126.560741
                     0.0258624213         27.5187411       0.0544258679        -75.7469734        0.886087731         126.560741        0.118283309        -107.064385

         330000000       0.113120199        -176.405094        0.883141494         119.603144       0.0574447252         132.200106        0.026394772         19.3830072
                      0.883141494         119.603144        0.127604888        -114.318291        0.026400765         19.3123474       0.0564986186        -81.4353398
                     0.0574447251         132.200106       0.0264007646         19.3123491        0.113267075         -176.72662        0.883047102         119.391459
