! Created Wed Jul  3 15:47:08 2019
# hz S ma R 50
! 4 Port Network Data from SP1.SP block
! freq  magS11  angS11  magS12  angS12  magS13  angS13  magS14  angS14  
!       magS21  angS21  magS22  angS22  magS23  angS23  magS24  angS24  
!       magS31  angS31  magS32  angS32  magS33  angS33  magS34  angS34  
!       magS41  angS41  magS42  angS42  magS43  angS43  magS44  angS44  
!     
          50000000      0.0489874434        -86.4297193     5.94680673e-05        -136.218811       0.0186248367         48.9264618     0.000146838643        -133.752843
                   5.94680687e-05        -136.218812       0.0492076709        -87.8473643     4.07255155e-05        -137.763459       0.0177358972         52.6357279
                     0.0186248284         48.9264936     4.07255052e-05        -137.763463       0.0490199384        -86.4117539     0.000101020788        -137.839328
                   0.000146838643        -133.752842       0.0177358946          52.635704     0.000101020788        -137.839328       0.0493221846        -87.8642571

          60000000      0.0542541694        -97.9401015     7.07114819e-05        -142.198001       0.0216139542         41.4703498      0.00017502194        -139.982139
                    7.0711482e-05        -142.198001       0.0544744523        -99.4538966     4.81747655e-05        -144.353998        0.020674973         46.2063831
                     0.0216139639         41.4703443     4.81747743e-05        -144.353995       0.0542846916        -97.9182282     0.000120167463        -143.650195
                   0.000175021939        -139.982139       0.0206749697         46.2063855     0.000120167464        -143.650195        0.054607112         -99.458902

          70000000      0.0592285732        -108.364501     8.22004742e-05        -148.491217       0.0242811613         33.9149472     0.000203567598        -146.461437
                    8.2200474e-05        -148.491218       0.0593826368        -110.030647     5.55857478e-05        -151.135396       0.0233543314         39.8510978
                     0.0242811612          33.914942     5.55857577e-05        -151.135394       0.0592542563        -108.344838       0.0001395573        -149.878091
                   0.000203567598        -146.461437       0.0233543284          39.851103       0.0001395573        -149.878091       0.0595294505        -110.023624

          80000000      0.0637235415        -117.943971     9.39605381e-05        -155.042423       0.0266000686         26.2597802     0.000232509267        -153.133165
                   9.39605378e-05        -155.042424       0.0637147624        -119.872839     6.29848111e-05        -158.041656       0.0257580628         33.6118149
                      0.026600068         26.2597651     6.29848116e-05        -158.041656       0.0637417187        -117.926676     0.000159189987        -156.404467
                   0.000232509267        -153.133165       0.0257580602         33.6118198     0.000159189987        -156.404467       0.0638717474        -119.853797

          90000000      0.0674956796         -127.04276     0.000106031096        -161.841745        0.028563471         18.4869246     0.000261920227        -159.982667
                   0.000106031095        -161.841745       0.0672011982         -129.37589     7.04075361e-05         -165.06076       0.0278873578         27.5146215
                       0.02856347         18.4869061     7.04075265e-05        -165.060762       0.0675044432        -127.026193     0.000179084938        -163.182291
                   0.000261920227        -159.982667       0.0278873644         27.5146336     0.000179084949        -163.182294       0.0673638421        -129.344272

         100000000      0.0705146823        -135.569257     0.000118343572        -168.837827       0.0301554445         10.5764476     0.000291687616          -166.9668
                   0.000118343569        -168.837822       0.0697938854        -138.478526     7.78508836e-05        -172.158547       0.0297334087         21.5901882
                     0.0301554459         10.5764583     7.78508736e-05        -172.158549        0.070513045        -135.552121     0.000199139893        -170.145641
                   0.000291687615          -166.9668       0.0297334337         21.5902102     0.000199139902         -170.14564       0.0699578082        -138.434313

         110000000      0.0726317111        -143.559461     0.000130852085        -176.015947       0.0313705357         2.48474045     0.000321727564        -174.068502
                   0.000130852085        -176.015947       0.0713704082        -147.250474     8.53197002e-05        -179.330655       0.0312976223         15.8608581
                     0.0313705456         2.48474055     8.53196961e-05        -179.330649        0.072617956        -143.542732     0.000219266055        -177.257672
                   0.000321727562        -174.068502       0.0312976387         15.8608712     0.000219266065        -177.257671        0.071532094        -147.193327

         120000000      0.0737658897        -151.233727     0.000143529349         176.646977       0.0322379155        -5.81762695     0.000352034475         178.720537
                   0.000143529348         176.646977         0.07178865        -155.982513      9.2827036e-05         173.425097        0.032612144         10.3343072
                     0.0322379249        -5.81763153     9.28270348e-05         173.425097       0.0737370902        -151.215905     0.000239425976         175.497402
                   0.000352034473         178.720537       0.0326121618         10.3343142     0.000239425978         175.497402       0.0719422079        -155.911642

         130000000      0.0738704164        -158.642333      0.00015634389         169.159838        0.032783235        -14.3926756     0.000382572645         171.404661
                   0.000156343889         169.159838       0.0709868866        -164.797491     0.000100379753         166.100916       0.0337077288         5.02199117
                     0.0327832352         -14.392678     0.000100379752         166.100916       0.0738244377        -158.621886      0.00025955454         168.134439
                   0.000382572644         171.404661       0.0337077381         5.02199143      0.00025955454         168.134439       0.0711260252        -164.711693

         140000000       0.072946024        -165.461292     0.000169142383          161.60896       0.0330047821        -23.2829352     0.000413090947         164.052825
                   0.000169142383          161.60896       0.0689480896        -173.468372     0.000107944675         158.754737       0.0345798167      -0.0304142764
                     0.0330047824        -23.2829374     0.000107944675         158.754737       0.0728822418        -165.436193     0.000279481646         160.734462
                   0.000413090946         164.052825       0.0345798262      -0.0304139002     0.000279481645         160.734462       0.0690674617        -173.366723

         150000000      0.0710330516        -171.818035     0.000181942061         153.977697       0.0329689466        -32.5769521     0.000443645041         156.645837
                   0.000181942061         153.977697       0.0656867081         177.731936     0.000115534913         151.356768       0.0352908072        -4.83913814
                     0.0329689469        -32.5769538     0.000115534912         151.356768       0.0709514315        -171.786151     0.000299208551         153.284614
                   0.000443645039         156.645838        0.035290817        -4.83913753      0.00029920855         153.284614       0.0657805468         177.851208

         160000000      0.0681757315        -177.654775     0.000194725675         146.273542       0.0327320149        -42.3593765     0.000474231132         149.185813
                   0.000194725674         146.273542        0.061214851         168.640796     0.000123149044         143.901726        0.035882996        -9.40805402
                     0.0327320152        -42.3593785     0.000123149043         143.901726       0.0680768601        -177.612815      0.00031870981         145.794866
                   0.000474231132         149.185813       0.0358830062        -9.40805478     0.000318709812         145.794864       0.0612771601         168.780082

         170000000      0.0643879153         177.343162     0.000207374784         138.552657       0.0323410776         -52.701784      0.00050467282         141.717639
                   0.000207374784         138.552657         0.05549825         159.246933     0.000130760139         136.432419        0.036369257        -13.7096909
                     0.0323410779         -52.701783     0.000130760138         136.432419       0.0642742431         177.399845     0.000337905253          138.32045
                   0.000504672819         141.717639       0.0363692665        -13.7096892     0.000337905253          138.32045        0.055523897         159.409698

         180000000      0.0599051904         173.300982     0.000219949184         130.805089       0.0318974329        -63.6832657     0.000535096411         134.226677
                   0.000219949183         130.805089       0.0487063219         149.143802     0.000138382129         128.928056       0.0368116355        -17.7564009
                     0.0318974332        -63.6832662     0.000138382129         128.928056       0.0597806458         173.379135     0.000356870835         130.850021
                   0.000535096411         134.226677       0.0368116361        -17.7564029     0.000356870835         130.850021       0.0486891684         149.333785

         190000000       0.054950837         170.552902     0.000232474016         123.034745       0.0315004917        -75.3546447     0.000565565552         126.711572
                   0.000232474016         123.034745       0.0409709797         137.744609     0.000146019701         121.385777       0.0373218264        -21.4424866
                     0.0315004919        -75.3546452     0.000146019701         121.385777       0.0548217051         170.661565     0.000375668676         123.387272
                   0.000565565552         126.711572       0.0373218271        -21.4424888     0.000375668676         123.387273       0.0409046346         137.965494

         200000000      0.0498067105         169.679635     0.000244878553         115.269494       0.0312547525        -87.7149002     0.000595980904         119.194466
                   0.000244878553         115.269494       0.0324797804         123.932254     0.000153656014         113.830647       0.0379694382        -25.4498857
                     0.0312547527        -87.7149006     0.000153656014         113.830647       0.0496833267         169.831195     0.000394325939         115.960469
                   0.000595980904         119.194466       0.0379694384        -25.4498852     0.000394325939         115.960469       0.0323573023         124.180823

         210000000      0.0450830534         171.199871     0.000257241118         107.502673       0.0312891036         -100.68094     0.000626486419         111.663607
                   0.000257241118         107.502673       0.0238995326         104.565216     0.000161305072         106.252183       0.0384815616        -29.0839996
                     0.0312891039         -100.68094     0.000161305072         106.252184       0.0449802108         171.405929     0.000412985882         108.556603
                   0.000626486419         111.663607       0.0384815644        -29.0840129     0.000412985882         108.556603       0.0237140643         104.788883

         220000000      0.0415474712         175.511208     0.000269601472         99.7319422       0.0317184014        -114.076061     0.000657140925          104.11456
                   0.000269601472         99.7319422        0.017005028         71.9478368     0.000168973289          98.648322       0.0391644181        -32.6074132
                     0.0317184015        -114.076061     0.000168973289          98.648322       0.0414846957         175.772805     0.000431769816         101.169544
                   0.000657140925          104.11456       0.0391644183        -32.6074128     0.000431769816         101.169544       0.0167743764         71.8452194

         230000000      0.0400650063        -177.599845     0.000281941602         91.9618947       0.0326286705         -127.65654     0.000687897321         96.5489149
                   0.000281941602         91.9618946       0.0161544005         22.5503787     0.000176653046         91.0267691       0.0399962171        -36.1110947
                     0.0326286707         -127.65654     0.000176653047         91.0267694       0.0400613873        -177.309042     0.000450764036          93.799305
                   0.000687897321          96.548915       0.0399962195        -36.1111076     0.000450764036         93.7993051       0.0160125532         21.7733596

         240000000      0.0414170041            -169.88     0.000294352724          84.176922       0.0340760069        -141.120558     0.000718874913         88.9514792
                   0.000294352723         84.1769219       0.0231454634        -15.8134138     0.000184356649         83.3740017        0.040997884        -39.6746831
                     0.0340760069        -141.120558     0.000184356649         83.3740017       0.0414794109         -169.61342     0.000470115673         86.4223031
                   0.000718874913         88.9514792        0.040997884        -39.6746828     0.000470115673         86.4223031       0.0231641562         -16.526968

         250000000      0.0456548062        -163.684053     0.000306830571         76.3697705       0.0360699101        -154.184843     0.000750016629         81.3163778
                   0.000306830571         76.3697705       0.0338364059        -37.7070407      0.00019207388          75.689589        0.042180324        -43.3658061
                     0.0360699027        -154.184851      0.00019207388         75.6895887       0.0457722067        -163.484732     0.000489893785         79.0225748
                   0.000750016627         81.3163776       0.0421803239        -43.3658058     0.000489893786         79.0225751       0.0339600887        -38.2002544

         260000000       0.052256182        -160.112638     0.000319352969          68.534651        0.038572166         -166.67103     0.000781213229         73.6389168
                   0.000319352969          68.534651       0.0458830307        -52.4722536     0.000199788449         67.9737056       0.0435319897         -47.225468
                      0.038572166         -166.67103      0.00019978845         67.9737059       0.0524091355        -159.990871     0.000510115527         71.5879279
                   0.000781213229         73.6389168       0.0435319913        -47.2254801     0.000510115527         71.5879279       0.0460763127        -52.8255462

         270000000      0.0605350039        -159.228913     0.000331934865         60.6588394       0.0415177171        -178.476324     0.000812409632         65.9098179
                   0.000331934865         60.6588394       0.0584893732        -64.0938023      0.00020748807         60.2191011       0.0450452285        -51.3016268
                     0.0415177171        -178.476324     0.000207488071         60.2191014       0.0607041186        -159.174582     0.000530790227         64.0980977
                   0.000812409632          65.909818         0.04504523        -51.3016383     0.000530790228         64.0980978       0.0587337091        -64.3603434

         280000000       0.069677105        -160.667611     0.000344493015          52.734729       0.0448267072         170.454583     0.000843368871         58.1264652
                   0.000344493014          52.734729       0.0710996162        -73.9624535     0.000215138555         52.4268728       0.0467177735        -55.6449978
                     0.0448267072         170.454583     0.000215138555         52.4268728       0.0698460179        -160.665364     0.000551817127         56.5349515
                   0.000843368871         58.1264652       0.0467177734        -55.6449976     0.000551817127         56.5349515       0.0713824463        -74.1728195

         290000000      0.0793262914        -163.673768      0.00035698941         44.7543641       0.0484067945         160.054987      0.00087392831         50.2843115
                    0.00035698941          44.754364       0.0835865504        -82.9546835     0.000222711533          44.592796       0.0485142921        -60.2562363
                     0.0484067946         160.054987     0.000222711532          44.592796       0.0794828198        -163.711792     0.000573082336         48.8890834
                    0.00087392831         50.2843115        0.048514292        -60.2562361     0.000573082336         48.8890834        0.083898363        -83.1254618

         300000000      0.0890891246        -167.819193     0.000369302548         36.7179485       0.0521717026         150.267845     0.000903776533         42.3875338
                   0.000369302547         36.7179484       0.0957060073        -91.3805309     0.000230161581         36.7216311       0.0504114841        -65.1393684
                     0.0521717026         150.267845     0.000230161581         36.7216311       0.0892236555        -167.889443     0.000594383158         41.1557733
                    0.00090377654         42.3875341       0.0504114841        -65.1393681     0.000594383157         41.1557732       0.0960381159        -91.5220392

         310000000       0.098546381        -172.859981     0.000381331094         28.6260542       0.0560347462         141.045164     0.000932639722         34.4422631
                   0.000381331093         28.6260541        0.107176573        -99.3261723     0.000237441711         28.8175808       0.0523933849        -70.3103803
                     0.0560347463         141.045164     0.000237441712          28.817581       0.0986507723        -172.956943     0.000615463241         33.3316652
                   0.000932639723         34.4422631       0.0523933863        -70.3103902     0.000615463241         33.3316652        0.107520949        -99.4454307

         320000000       0.107572149        -178.519704     0.000392974483         20.4783114       0.0599205079          132.29232     0.000960258783         26.4514581
                   0.000392974483         20.4783114        0.117934789        -106.962612     0.000244510137         20.8811086       0.0544258679        -75.7469736
                      0.059920508          132.29232     0.000244510137         20.8811085        0.107639978        -178.639856     0.000636080796         25.4185142
                   0.000960258782         26.4514581       0.0544258679        -75.7469734     0.000636080796         25.4185142        0.118283309        -107.064385

         330000000       0.115762794         175.320825     0.000403977562         12.2919395       0.0637636271         123.963192     0.000986124077         18.4343577
                   0.000403977562         12.2919394        0.127604888        -114.318291     0.000251305096         12.9300064       0.0564986186        -81.4353398
                     0.0637636266         123.963192     0.000251305095         12.9300066        0.115788773         175.179391     0.000655861725         17.4288979
