! Created Wed Jul  3 15:51:41 2019
# hz S ma R 50
! 4 Port Network Data from SP1.SP block
! freq  magS11  angS11  magS12  angS12  magS13  angS13  magS14  angS14  
!       magS21  angS21  magS22  angS22  magS23  angS23  magS24  angS24  
!       magS31  angS31  magS32  angS32  magS33  angS33  magS34  angS34  
!       magS41  angS41  magS42  angS42  magS43  angS43  magS44  angS44  
!     
          50000000    0.000842071222         48.5829164     7.61847916e-07          130.39442     0.000575535405         86.0946869     3.54191078e-05         86.3419635
                   7.61847952e-07         130.394441       0.0492076709        -87.8473643      1.2177093e-06         111.976204       0.0177358972         52.6357279
                   0.000575535226         86.0946905     1.21770936e-06         111.976192     0.000781010431          43.851432     3.69783231e-05         86.2700995
                   3.54191078e-05         86.3419635       0.0177358946          52.635704     3.69783231e-05         86.2700995       0.0493221846        -87.8642571

          60000000    0.000935324392         52.2551062     1.06009141e-06         126.589391     0.000685956498         86.6512444     4.20466302e-05         85.8488751
                   1.06009156e-06         126.589391       0.0544744523        -99.4538966      1.6194321e-06         111.462152        0.020674973         46.2063831
                   0.000685956407         86.6512478     1.61943196e-06         111.462151     0.000856203393         47.5463417     4.39335404e-05         85.8715044
                   4.20466302e-05         85.8488751       0.0206749697         46.2063855     4.39335404e-05         85.8715044        0.054607112         -99.458902

          70000000       0.001034072         55.1049419      1.3925121e-06         122.205012     0.000799496191         86.8294622     4.84848093e-05         85.5026413
                   1.39251227e-06         122.205008       0.0593826368        -110.030647     2.06398112e-06         109.872481       0.0233543314         39.8510978
                    0.00079949615         86.8294649     2.06398094e-06         109.872482     0.000936653696         50.4855059     5.07073202e-05         85.5915027
                   4.84848093e-05         85.5026413       0.0233543284          39.851103     5.07073203e-05         85.5915027       0.0595294505        -110.023624

          80000000     0.00113418969         57.4605101     1.75135223e-06         117.523077     0.000913223894         86.9086975     5.47493737e-05         85.3092832
                    1.7513524e-06         117.523073       0.0637147624        -119.872839     2.54163668e-06         107.578996       0.0257580628         33.6118149
                   0.000913223878         86.9086993     2.54163651e-06         107.578998      0.00101893305         52.9163085     5.73148845e-05          85.441765
                   5.47493737e-05         85.3092832       0.0257580602         33.6118198     5.73148845e-05          85.441765       0.0638717474        -119.853797

          90000000     0.00123501733         59.3883182     2.12945237e-06         112.704777      0.00102617366         86.9835963     6.08644496e-05         85.2833647
                   2.12945197e-06         112.704766       0.0672011982         -129.37589     3.04267483e-06         104.825217       0.0278873578         27.5146215
                    0.00102617366         86.9835973     3.04267515e-06         104.825225      0.00110164887         54.9530054     6.37797144e-05          85.438813
                   6.08644496e-05         85.2833647       0.0278873644         27.5146336     6.37797144e-05          85.438813       0.0673638421        -129.344272

         100000000     0.00133592674         61.0072008     2.51899338e-06         107.861851       0.0011383252         87.0741063     6.68921699e-05         85.4102984
                   2.51899163e-06         107.861829       0.0697938854        -138.478526     3.55647468e-06         101.791435       0.0297334087         21.5901882
                     0.0011383252         87.0741066     3.55647624e-06         101.791453      0.00118448971         56.6849741     7.01617162e-05         85.5709042
                   6.68921699e-05         85.4102983       0.0297334337         21.5902102     7.01617161e-05         85.5709042       0.0699578082        -138.434313

         110000000     0.00143648431         62.3915576     2.91354292e-06         103.061392       0.0012526351         87.4134604     7.29088173e-05         85.6689731
                   2.91354164e-06         103.061379       0.0713704082        -147.250474     4.07403728e-06         98.5963098       0.0312976223         15.8608581
                    0.00125263511         87.4134606     4.07403845e-06           98.59632      0.00126694713         58.1846555     7.65334362e-05          85.818744
                   7.29088173e-05         85.6689731       0.0312976387         15.8608712     7.65334362e-05          85.818744        0.071532094        -147.193327

         120000000     0.00153775816         63.5588742     3.30808299e-06         98.3576443      0.00136787431         87.6336165     7.89811371e-05         86.0570317
                   3.30808146e-06         98.3576369         0.07178865        -155.982513     4.58775325e-06         95.3352259        0.032612144         10.3343072
                    0.00136787431         87.6336167     4.58775469e-06         95.3352319      0.00135018891         59.4594636     8.29590984e-05         86.1812468
                   7.89811371e-05         86.0570317       0.0326121618         10.3343142     8.29590983e-05         86.1812468       0.0719422079        -155.911642

         130000000     0.00163940015         64.5469204     3.69926304e-06          93.785357      0.00148413902         87.7709711     8.51993712e-05         86.5431693
                   3.69926216e-06         93.7853562       0.0709868866        -164.797491     5.09205781e-06         92.0722007       0.0337077288         5.02199117
                    0.00148413902         87.7709712     5.09205865e-06         92.0722016      0.00143385716         60.5458395     8.95247076e-05         86.6302745
                   8.51993712e-05         86.5431693       0.0337077381         5.02199143     8.95247076e-05         86.6302745       0.0711260252        -164.711693

         140000000     0.00174113582         65.3864949      4.0811407e-06         89.4028876      0.00160178076         87.8443575     9.16621102e-05          87.059346
                   4.08113973e-06         89.4028868       0.0689480896        -173.468372      5.5791771e-06         88.8840073       0.0345798167      -0.0304142765
                    0.00160178076         87.8443576     5.57917802e-06         88.8840079      0.00151766788         61.4743326     9.63241208e-05         87.1044502
                   9.16621102e-05          87.059346       0.0345798262      -0.0304139002     9.63241208e-05         87.1044502       0.0690674617        -173.366723

         150000000     0.00184274921         66.1027398     4.45528621e-06         85.2090527      0.00172153878         87.8529791     9.84313992e-05         87.5690041
                   4.45528514e-06         85.2090518       0.0656867081         177.731936     6.04926455e-06         85.7910106       0.0352908072        -4.83913814
                    0.00172153879         87.8529791     6.04926557e-06         85.7910111      0.00160139593         62.2704443     0.000103416271         87.5711356
                   9.84313992e-05         87.5690041        0.035290817        -4.83913753     0.000103416271         87.5711357       0.0657805468         177.851208

         160000000     0.00194407127         66.7162228     4.82289033e-06         81.2083833      0.00184459266         87.7566015     0.000105562924         88.0258328
                   4.82288914e-06         81.2083838        0.061214851         168.640796     6.50231777e-06         82.8129225        0.035882996        -9.40805402
                    0.00184459266         87.7566015      6.5023189e-06         82.8129219      0.00168486361         62.9554203      0.00011085416         87.9887841
                   0.000105562924         88.0258328       0.0358830062        -9.40805478      0.00011085416         87.9887841       0.0612771601         168.780082

         170000000     0.00204497101         67.2438167     5.18300553e-06         77.4284852      0.00197098682         87.4212863      0.00011309135         88.3718666
                   5.18300435e-06         77.4284836         0.05549825         159.246933     6.93667828e-06         79.9862631        0.036369257        -13.7096909
                    0.00197098683         87.4212864     6.93667941e-06         79.9862637      0.00176793208         63.5469538     0.000118670962         88.3050473
                    0.00011309135         88.3718667       0.0363692665        -13.7096892     0.000118670962         88.3050473        0.055523897         159.409698

         180000000     0.00214534882         67.6993779     5.54200948e-06         73.8445377      0.00208999779         86.6712148     0.000121004463         88.5780597
                   5.54200941e-06         73.8445394       0.0487063219         149.143802     7.35821428e-06          77.300304       0.0368116355        -17.7564009
                    0.00208999779         86.6712148     7.35821434e-06         77.3003028      0.00185049471          64.059756     0.000126855128         88.4935983
                   0.000121004463         88.5780597       0.0368116361        -17.7564029     0.000126855128         88.4935983       0.0486891684         149.333785

         190000000     0.00224512736         68.0942939     5.90563381e-06         70.4374235      0.00218176262         86.0290715     0.000129271377         88.6180588
                   5.90563372e-06         70.4374254       0.0409709797         137.744609     7.77229071e-06         74.7466902       0.0373218264        -21.4424866
                    0.00218176263         86.0290715     7.77229078e-06         74.7466887      0.00193246817         64.5060355     0.000135377293         88.5302735
                   0.000129271377         88.6180588       0.0373218271        -21.4424888     0.000135377293         88.5302735       0.0409046346         137.965494

         200000000     0.00234424712         68.4381188     6.27789493e-06         67.1814171       0.0022693357         86.0796716     0.000137828802         88.4696776
                    6.2778949e-06         67.1814166       0.0324797804         123.932254     8.18279972e-06         72.3110704       0.0379694382        -25.4498857
                     0.0022693357         86.0796716     8.18279976e-06         72.3110708      0.00201378745         64.8961301     0.000144176987         88.3944448
                   0.000137828802         88.4696776       0.0379694384        -25.4498852     0.000144176987         88.3944448       0.0323573023         124.180823

         210000000     0.00244267029         68.7388198     6.66668712e-06         64.0412773      0.00237006432         86.3185843     0.000146582742          88.134902
                   6.66668672e-06         64.0412891       0.0238995326         104.565216     8.59746233e-06         69.9666425       0.0384815616        -29.0839996
                    0.00237006433         86.3185843     8.59746258e-06         69.9666336      0.00209440993          65.238736     0.000153163996         88.0874935
                   0.000146582742          88.134902       0.0384815644        -29.0840129     0.000153163996         88.0874935       0.0237140643         104.788883

         220000000     0.00254037281         69.0029767     7.08077167e-06         60.9577064      0.00247806516         86.4879696     0.000155423598         87.6214638
                   7.08077164e-06         60.9577061        0.017005028         71.9478368     9.02462785e-06          67.663965       0.0391644181        -32.6074132
                    0.00247806516         86.4879696     9.02462787e-06         67.6639652      0.00217430759         65.5410777      0.00016223285         87.6161028
                   0.000155423598         87.6214638       0.0391644183        -32.6074128      0.00016223285         87.6161028       0.0167743764         71.8452194

         230000000     0.00263734072         69.2360876     7.52516958e-06         57.8847515      0.00258875745         86.5802277     0.000164220917         86.9385201
                   7.52516923e-06         57.8847631       0.0161544005         22.5503787     9.46895226e-06         65.3647134       0.0399962171        -36.1110947
                    0.00258875745         86.5802277     9.46895239e-06         65.3647044      0.00225346315         65.8092232     0.000171257767         86.9884349
                   0.000164220917         86.9385201       0.0399962195        -36.1111076     0.000171257767         86.9884349       0.0160125532         21.7733596

         240000000     0.00273356885         69.4427669     8.00769507e-06         54.7470448      0.00270035878         86.6206976     0.000172842412         86.1119505
                   8.00769508e-06         54.7470445       0.0231454634        -15.8134138     9.93691022e-06         63.0001343        0.040997884        -39.6746831
                    0.00270035878         86.6206976     9.93691022e-06         63.0001345      0.00233186866         66.0482891     0.000180110947         86.2282303
                   0.000172842412         86.1119505        0.040997884        -39.6746828     0.000180110947         86.2282303       0.0231641562         -16.526968

         250000000     0.00282905932          69.626894     8.53392343e-06         51.4767902      0.00281221316         86.6282804     0.000181155779         85.1731912
                   8.53392344e-06         51.4767899       0.0338364059        -37.7070407     1.04322163e-05         60.5045042        0.042180324        -43.3658061
                    0.00281221316         86.6282804     1.04322163e-05         60.5045044      0.00240952396         66.2625937      0.00018866461         85.3646037
                   0.000181155779         85.1731912       0.0421803239        -43.3658058      0.00018866461         85.3646037       0.0339600887        -38.2002544

         260000000      0.0029238201         69.7917352     9.10511582e-06         48.0315719       0.0029240716          86.614657     0.000189026107         84.1460384
                    9.1051156e-06         48.0315829       0.0458830307        -52.4722536     1.09541031e-05         57.8347413       0.0435319897         -47.225468
                     0.0029240716          86.614657      1.0954103e-05         57.8347325      0.00248643517         66.4557851     0.000196788588          84.419922
                   0.000189026107         84.1460384       0.0435319913        -47.2254801     0.000196788588          84.419922       0.0460763127        -52.8255462

         270000000     0.00301786372         69.9400454     9.72247589e-06         44.3614674      0.00303583878         86.5869669     0.000196336701         83.0632581
                   9.72247569e-06          44.361478       0.0584893732        -64.0938023     1.15006299e-05         54.9377652       0.0450452285        -51.3016268
                    0.00303583878         86.5869669     1.15006298e-05         54.9377566      0.00256261332         66.6309479       0.0002043706         83.4249775
                   0.000196336701         83.0632581         0.04504523        -51.3016383       0.0002043706         83.4249775       0.0587337091        -64.3603434

         280000000     0.00311120617         70.0741509      1.0387562e-05         40.4118105      0.00314748112         86.5496833     0.000203006504         81.9728906
                    1.0387562e-05         40.4118104       0.0710996162        -73.9624535     1.20688901e-05         51.7500883       0.0467177735        -55.6449978
                    0.00314748112         86.5496833     1.20688901e-05         51.7500885      0.00263807326         66.7906927     0.000211333561         82.4246555
                   0.000203006504         81.9728906       0.0467177734        -55.6449976     0.000211333561         82.4246555       0.0713824463        -74.1728195

         290000000      0.0032038661         70.1960194     1.10950043e-05         36.1788445      0.00325899107         86.5056964     0.000208950683         80.8974423
                   1.10950043e-05         36.1788443       0.0835865504        -82.9546835     1.26498481e-05         48.2605212       0.0485142921        -60.2562363
                    0.00325899107         86.5056964     1.26498481e-05         48.2605214      0.00271283276         66.9372307     0.000217597032         81.4404563
                   0.000208950683         80.8974423        0.048514292        -60.2562361     0.000217597032         81.4404563        0.083898363        -83.1254618

         300000000     0.00329586396         70.3073173     1.18408019e-05         31.6541358      0.00337037225         86.4569285     0.000214122237         79.8751491
                   1.18408019e-05         31.6541354       0.0957060073        -91.3805309     1.32351857e-05         44.4485783       0.0504114841        -65.1393684
                    0.00337037225         86.4569285     1.32351857e-05         44.4485785      0.00278691161         67.0724361     0.000223118104         80.5082001
                   0.000214122237         79.8751491       0.0504114841        -65.1393681     0.000223118104         80.5082001       0.0960381159        -91.5220392

         310000000     0.00338722138         70.4094581     1.26214245e-05         26.8172661      0.00348163294         86.4046903       0.0002185454         78.9483978
                   1.26214243e-05         26.8172754        0.107176573        -99.3261723     1.38155707e-05         40.2802535       0.0523933849        -70.3103803
                    0.00348163294         86.4046903     1.38155704e-05         40.2802455      0.00286033101         67.1978995      0.00022792329         79.6671544
                     0.0002185454         78.9483978       0.0523933863        -70.3103902      0.00022792329         79.6671544        0.107520949        -99.4454307

         320000000     0.00347796073         70.5036424     1.34292373e-05         21.6870514      0.00359278311         86.3498936     0.000222234537         78.1429756
                   1.34292373e-05         21.6870512        0.117934789        -106.962612     1.43795374e-05         35.7619125       0.0544258679        -75.7469736
                    0.00359278312         86.3498936     1.43795375e-05         35.7619126      0.00293311305         67.3149714     0.000232029865         78.9411341
                   0.000222234537         78.1429756       0.0544258679        -75.7469734     0.000232029865         78.9411341        0.118283309        -107.064385

         330000000     0.00356810462         70.5908914     1.42613198e-05         16.2711616      0.00370383304         86.2931838     0.000225281527         77.5027288
                   1.42613198e-05         16.2711613        0.127604888        -114.318291     1.49200088e-05         30.8802927       0.0564986186        -81.4353398
                    0.00370383304         86.2931838     1.49200088e-05         30.8802929      0.00300528016         67.4248001     0.000235530907         78.3698773
