!$
! Info: Touchstone file created by Circ.  Input file=Tx_16in_Rx_85ohms_TxVia_35mils_RxVia_45mils.circ
!$
# Hz S RI R 50
0	0.01283538	1.959107e-25	1.744396e-08	2.853819e-26	0.0001040634	2.445272e-23	3.39572e-08	6.348578e-27
	1.744398e-08	2.853693e-26	0.01283423	2.299237e-25	3.388331e-08	1.032438e-25	0.000104481	2.906805e-23
	0.0001022235	2.511058e-23	3.388332e-08	1.032442e-25	0.01284769	1.867391e-25	2.070587e-08	3.382321e-26
	3.39572e-08	6.349226e-27	0.0001026324	2.921109e-23	2.070588e-08	3.382439e-26	0.01284729	2.15442e-25
1e+07	0.01538717	-0.01601717	3.03062e-08	4.59228e-08	0.0007023066	0.002823895	1.032903e-07	1.279631e-07
	3.03062e-08	4.59228e-08	0.01536971	-0.01601508	5.300074e-08	1.561173e-07	0.0006965363	0.00282596
	0.000702246	0.002823899	5.300074e-08	1.561173e-07	0.01535313	-0.0159989	3.57893e-08	5.497474e-08
	1.032903e-07	1.279631e-07	0.0006964755	0.002825971	3.57893e-08	5.497474e-08	0.0153335	-0.01599614
2e+07	0.0112702	-0.0354477	5.348018e-08	7.421382e-08	0.002129625	0.005197513	2.287771e-07	1.744628e-07
	5.348018e-08	7.421382e-08	0.01120518	-0.03542706	6.228363e-08	2.872544e-07	0.002108469	0.005207635
	0.002129613	0.005197552	6.228362e-08	2.872545e-07	0.0112575	-0.03539992	6.331387e-08	8.881871e-08
	2.287769e-07	1.744628e-07	0.002108461	0.005207671	6.331387e-08	8.881871e-08	0.01118466	-0.03537575
3e+07	-0.0005208697	-0.05355104	7.810245e-08	8.992651e-08	0.004205515	0.006924129	3.745341e-07	1.464578e-07
	7.810245e-08	8.992651e-08	-0.0006530506	-0.05348178	5.967789e-08	4.20703e-07	0.004163322	0.006952211
	0.004205517	0.006924135	5.967789e-08	4.20703e-07	-0.0005149685	-0.05349156	9.245619e-08	1.077602e-07
	3.745341e-07	1.464578e-07	0.004163322	0.006952217	9.245619e-08	1.077602e-07	-0.000662638	-0.0534122
4e+07	-0.01791027	-0.06701547	9.978409e-08	9.284433e-08	0.006670931	0.007842352	5.081941e-07	3.806047e-08
	9.978409e-08	9.284433e-08	-0.0181137	-0.0668606	5.208967e-08	5.609401e-07	0.006607144	0.007900338
	0.006670926	0.007842348	5.208967e-08	5.609401e-07	-0.01788876	-0.06695168	1.180674e-07	1.116367e-07
	5.081941e-07	3.806047e-08	0.006607139	0.007900337	1.180674e-07	1.116367e-07	-0.01811549	-0.06677586
5e+07	-0.03868987	-0.0742619	1.130033e-07	8.481231e-08	0.009228231	0.007889471	5.935736e-07	-1.414899e-07
	1.130033e-07	8.481231e-08	-0.03895141	-0.07398402	4.409553e-08	7.097204e-07	0.009147905	0.007989069
	0.009228227	0.00788947	4.409553e-08	7.097204e-07	-0.0386567	-0.0741984	1.336675e-07	1.026253e-07
	5.935736e-07	-1.414899e-07	0.009147901	0.007989068	1.336675e-07	1.026253e-07	-0.03894756	-0.07388452
6e+07	-0.06050202	-0.07463676	1.132928e-07	6.995237e-08	0.0115859	0.007107571	6.010436e-07	-3.683751e-07
	1.132928e-07	6.995237e-08	-0.06079209	-0.07420556	4.039802e-08	8.671848e-07	0.01149923	0.007257892
	0.01158591	0.007107571	4.039802e-08	8.671848e-07	-0.06046165	-0.07457598	1.340007e-07	8.561819e-08
	6.010436e-07	-3.683751e-07	0.01149923	0.007257891	1.340007e-07	8.561819e-08	-0.06078339	-0.07409039
7e+07	-0.08104218	-0.06830486	9.809307e-08	5.393541e-08	0.01349411	0.005629	5.124267e-07	-6.086036e-07
	9.809308e-08	5.393543e-08	-0.08131877	-0.06770353	4.552807e-08	1.031417e-06	0.01341504	0.005834609
	0.01349413	0.005628996	4.552808e-08	1.031417e-06	-0.08099899	-0.06824728	1.16111e-07	6.732529e-08
	5.124267e-07	-6.086036e-07	0.01341505	0.005834605	1.16111e-07	6.732532e-08	-0.08130455	-0.06757156
8e+07	-0.09827097	-0.05614083	6.718738e-08	4.315804e-08	0.01476864	0.003651903	3.236266e-07	-8.229892e-07
	6.71874e-08	4.315807e-08	-0.09848587	-0.05537041	6.294162e-08	1.198482e-06	0.0147129	0.003911514
	0.01476866	0.003651895	6.294163e-08	1.198482e-06	-0.09822868	-0.05608542	7.98206e-08	5.524371e-08
	3.236266e-07	-8.229892e-07	0.01471291	0.003911507	7.982063e-08	5.524375e-08	-0.09846419	-0.05522107
9e+07	-0.1105901	-0.03958123	2.283757e-08	4.384271e-08	0.01530306	0.001412454	4.550965e-08	-9.724251e-07
	2.28376e-08	4.384274e-08	-0.1106961	-0.03866206	9.413644e-08	1.362991e-06	0.01528577	0.001718445
	0.01530306	0.001412446	9.413646e-08	1.362991e-06	-0.1105514	-0.03952585	2.782082e-08	5.660227e-08
	4.550965e-08	-9.724251e-07	0.01528578	0.001718439	2.782086e-08	5.660231e-08	-0.1106644	-0.03849598
1e+08	-0.1169681	-0.02044585	-3.040556e-08	6.11389e-08	0.01507364	-0.0008411561	-2.968962e-07	-1.023066e-06
	-3.040556e-08	6.11389e-08	-0.1169266	-0.01941648	1.380988e-07	1.519103e-06	0.0151069	-0.0005023354
	0.01507364	-0.0008411561	1.380988e-07	1.519103e-06	-0.116935	-0.02038785	-3.458779e-08	7.735901e-08
	-2.968962e-07	-1.023066e-06	0.0151069	-0.0005023354	-3.458779e-08	7.735901e-08	-0.1168825	-0.01923581
1.1e+08	-0.1169886	-0.0007305842	-8.617123e-08	9.839643e-08	0.01411976	-0.002889468	-6.665483e-07	-9.510433e-07
	-8.617123e-08	9.839643e-08	-0.1167765	0.0003543929	1.914472e-07	1.661853e-06	0.01421038	-0.002536255
	0.01411976	-0.002889468	1.914472e-07	1.661853e-06	-0.1169623	-0.0006673103	-1.000359e-07	1.214965e-07
	-6.665483e-07	-9.510433e-07	0.01421038	-0.002536255	-1.000359e-07	1.214965e-07	-0.1167179	0.000546531
1.2e+08	-0.1108657	0.01755223	-1.370931e-07	1.564396e-07	0.01254138	-0.00450525	-1.018862e-06	-7.464792e-07
	-1.370931e-07	1.564396e-07	-0.1104794	0.01863256	2.484258e-07	1.788035e-06	0.01268915	-0.004158043
	0.01254138	-0.00450525	2.484258e-07	1.788035e-06	-0.1108446	0.0176248	-1.5994e-07	1.9e-07
	-1.018862e-06	-7.464792e-07	0.01268915	-0.004158043	-1.5994e-07	1.9e-07	-0.1104046	0.01883192
1.3e+08	-0.09942918	0.03258365	-1.756671e-07	2.334601e-07	0.01051137	-0.005519884	-1.306208e-06	-4.152406e-07
	-1.756671e-07	2.334601e-07	-0.0988866	0.03359707	3.026264e-07	1.896876e-06	0.01070857	-0.005198971
	0.01051137	-0.005519884	3.026264e-07	1.896876e-06	-0.09941051	0.03266798	-2.055251e-07	2.808483e-07
	-1.306208e-06	-4.152406e-07	0.01070857	-0.005198971	-2.055251e-07	2.808483e-07	-0.09879607	0.03379826
1.4e+08	-0.08401402	0.04290081	-1.95151e-07	3.250207e-07	0.008240848	-0.005822733	-1.483252e-06	1.999531e-08
	-1.95151e-07	3.250207e-07	-0.08335605	0.04379116	3.477596e-07	1.99018e-06	0.008472418	-0.005545517
	0.008240848	-0.005822733	3.477596e-07	1.99018e-06	-0.08399439	0.04299761	-2.288433e-07	3.889534e-07
	-1.483252e-06	1.999531e-08	0.008472418	-0.005545517	-2.288433e-07	3.889534e-07	-0.08325222	0.04398847
1.5e+08	-0.06633487	0.04753051	-1.90454e-07	4.243651e-07	0.00596663	-0.005370901	-1.512761e-06	5.204765e-07
	-1.90454e-07	4.243651e-07	-0.06562294	0.04825631	3.786825e-07	2.071992e-06	0.00621131	-0.005149265
	0.00596663	-0.005370901	3.786825e-07	2.071992e-06	-0.0663112	0.04763891	-2.238103e-07	5.06477e-07
	-1.512761e-06	5.204765e-07	0.00621131	-0.005149265	-2.238103e-07	5.06477e-07	-0.06551075	0.04844471
1.6e+08	-0.04832189	0.04608393	-1.589126e-07	5.23017e-07	0.003931694	-0.004196974	-1.371348e-06	1.034134e-06
	-1.589126e-07	5.23017e-07	-0.04763245	0.04662595	3.921059e-07	2.147876e-06	0.004164126	-0.004035131
	0.003931694	-0.004196974	3.921059e-07	2.147876e-06	-0.04829191	0.04620191	-1.871425e-07	6.234902e-07
	-1.371348e-06	1.034134e-06	0.004164126	-0.004035131	-1.871425e-07	6.234902e-07	-0.04751895	0.04680217
1.7e+08	-0.0319306	0.03880047	-1.008645e-07	6.1164e-07	0.002361286	-0.002411335	-1.054407e-06	1.500524e-06
	-1.008645e-07	6.1164e-07	-0.0313468	0.03916713	3.868709e-07	2.224049e-06	0.002554816	-0.002304478
	0.002361286	-0.002411335	3.868709e-07	2.224049e-06	-0.03189314	0.03892538	-1.1908e-07	7.289607e-07
	-1.054407e-06	1.500524e-06	0.002554816	-0.002304478	-1.1908e-07	7.289607e-07	-0.03124046	0.03933049
1.8e+08	-0.01894117	0.02653085	-1.992653e-08	6.810947e-07	0.00143657	-0.0001960413	-5.792598e-07	1.857776e-06
	-1.992653e-08	6.810947e-07	-0.01854262	0.02676029	3.638397e-07	2.306623e-06	0.001566476	-0.000130033
	0.00143657	-0.0001960413	3.638397e-07	2.306623e-06	-0.01889618	0.02665985	-2.37708e-08	8.120076e-07
	-5.792598e-07	1.857776e-06	0.001566476	-0.000130033	-2.37708e-08	8.120076e-07	-0.01845224	0.02691326
1.9e+08	-0.01076753	0.0106544	7.709848e-08	7.235979e-07	0.001269723	0.002211747	1.439623e-08	2.050861e-06
	7.709848e-08	7.235979e-07	-0.01061952	0.01081274	3.255758e-07	2.401084e-06	0.001316474	0.002259536
	0.001269723	0.002211747	3.255758e-07	2.401084e-06	-0.01071603	0.01078491	9.080057e-08	8.633094e-07
	1.439623e-08	2.050861e-06	0.001316474	0.002259536	9.080057e-08	8.633094e-07	-0.01055307	0.01096103
2e+08	-0.008300389	-0.007065932	1.807319e-07	7.338489e-07	0.001885607	0.00454651	6.673912e-07	2.039999e-06
	1.807319e-07	7.338489e-07	-0.008444067	-0.006890343	2.76024e-07	2.512028e-06	0.001837755	0.004605233
	0.001885607	0.00454651	2.76024e-07	2.512028e-06	-0.008244268	-0.00693599	2.134103e-07	8.7649e-07
	6.673912e-07	2.039999e-06	0.001837755	0.004605233	2.134103e-07	8.7649e-07	-0.008407446	-0.006738159
2.1e+08	-0.0118068	-0.02467734	2.797427e-07	7.099676e-07	0.003214926	0.006548049	1.307333e-06	1.807709e-06
	2.797427e-07	7.099676e-07	-0.01225173	-0.02438306	2.203242e-07	2.642994e-06	0.003071235	0.006650429
	0.003214926	0.006548049	2.203242e-07	2.642994e-06	-0.01174862	-0.02454919	3.307182e-07	8.492711e-07
	1.307333e-06	1.807709e-06	0.003071235	0.006650429	3.307182e-07	8.492711e-07	-0.01224778	-0.02421634
2.2e+08	-0.0209028	-0.04025583	3.624151e-07	6.540819e-07	0.005101646	0.007996287	1.857474e-06	1.363061e-06
	3.624151e-07	6.540819e-07	-0.02162316	-0.03973994	1.64736e-07	2.796206e-06	0.004872135	0.008174991
	0.005101646	0.007996287	1.64736e-07	2.796206e-06	-0.02084544	-0.04012972	4.288199e-07	7.841757e-07
	1.857474e-06	1.363061e-06	0.004872135	0.008174991	4.288199e-07	7.841757e-07	-0.02165096	-0.03954712
2.3e+08	-0.03460418	-0.05212081	4.180228e-07	5.724233e-07	0.007324103	0.008740444	2.246796e-06	7.421603e-07
	4.180228e-07	5.724233e-07	-0.03553922	-0.05129136	1.164992e-07	2.972118e-06	0.007029782	0.009024182
	0.007324103	0.008740444	1.164992e-07	2.972118e-06	-0.03455048	-0.05199589	4.950329e-07	6.88612e-07
	2.246796e-06	7.421603e-07	0.007029782	0.009024182	4.950329e-07	6.88612e-07	-0.03559386	-0.05106131
2.4e+08	-0.05144762	-0.05901622	4.383018e-07	4.748565e-07	0.009625735	0.008716976	2.419593e-06	4.671008e-09
	4.383018e-07	4.748565e-07	-0.05250664	-0.05780405	8.340401e-08	3.16881e-06	0.009296983	0.00912679
	0.009625735	0.008716976	8.340401e-08	3.16881e-06	-0.05139999	-0.05889064	5.196499e-07	5.742609e-07
	2.419593e-06	4.671008e-09	0.009296983	0.00912679	5.196499e-07	5.742609e-07	-0.05257944	-0.05752745
2.5e+08	-0.06966345	-0.06023572	4.186892e-07	3.738585e-07	0.01174924	0.007953574	2.342972e-06	-7.729839e-07
	4.186892e-07	3.738585e-07	-0.0707346	-0.05860402	7.292947e-08	3.381493e-06	0.01142293	0.008499813
	0.01174924	0.007953574	7.292947e-08	3.381493e-06	-0.06962354	-0.06010685	4.973702e-07	4.558199e-07
	2.342972e-06	-7.729839e-07	0.01142293	0.008499813	4.973702e-07	4.558199e-07	-0.07081381	-0.05827468
2.6e+08	-0.08737431	-0.0556798	3.591122e-07	2.830785e-07	0.01346774	0.006560013	2.011244e-06	-1.506522e-06
	3.591122e-07	2.830785e-07	-0.08833627	-0.05363013	9.100651e-08	3.602408e-06	0.01318343	0.007240395
	0.01346774	0.006560013	9.100651e-08	3.602408e-06	-0.08734271	-0.05554449	4.281693e-07	3.492833e-07
	2.011244e-06	-1.506522e-06	0.01318343	0.007240395	4.281693e-07	3.492833e-07	-0.08840826	-0.0532459
2.7e+08	-0.1027938	-0.04584387	2.641903e-07	2.156908e-07	0.01460836	0.004709407	1.446849e-06	-2.113365e-06
	2.641903e-07	2.156908e-07	-0.1035289	-0.04341805	1.406678e-07	3.821387e-06	0.01440388	0.005508473
	0.01460836	0.004709407	1.406678e-07	3.821387e-06	-0.1027699	-0.04569893	3.174748e-07	2.700266e-07
	1.446849e-06	-2.113365e-06	0.01440388	0.005508473	3.174748e-07	2.700266e-07	-0.1035796	-0.04298145
2.8e+08	-0.1144028	-0.03174635	1.428272e-07	1.82791e-07	0.01506607	0.002614624	6.981189e-07	-2.5216e-06
	1.428272e-07	1.82791e-07	-0.1148106	-0.02902385	2.209699e-07	4.027087e-06	0.01497317	0.003504702
	0.01506607	0.002614624	2.209699e-07	4.027087e-06	-0.1143851	-0.03158893	1.756504e-07	2.309795e-07
	6.981189e-07	-2.5216e-06	0.01497317	0.003504702	1.756504e-07	2.309795e-07	-0.1148269	-0.02854204
2.9e+08	-0.1210892	-0.01481069	7.275414e-09	1.920591e-07	0.01480848	0.0005041984	-1.654692e-07	-2.677458e-06
	7.275414e-09	1.920591e-07	-0.1210976	-0.01190188	3.265522e-07	4.208735e-06	0.0148489	0.001447819
	0.01480848	0.0005041983	3.265522e-07	4.208735e-06	-0.1210752	-0.0146386	1.690489e-08	2.411262e-07
	-1.654692e-07	-2.677458e-06	0.0148489	0.001447819	1.690489e-08	2.411262e-07	-0.1210694	-0.01138618
3e+08	-0.1222411	0.003282696	-1.281715e-07	2.468394e-07	0.01387348	-0.001399448	-1.05978e-06	-2.550896e-06
	-1.281715e-07	2.468394e-07	-0.1218161	0.006246861	4.480446e-07	4.357982e-06	0.01405599	-0.0004459156
	0.01387348	-0.001399448	4.480446e-07	4.357982e-06	-0.1222276	0.003470673	-1.421892e-07	3.044805e-07
	-1.05978e-06	-2.550896e-06	0.01405599	-0.0004459156	-1.421892e-07	3.044805e-07	-0.1217371	0.006781998
3.1e+08	-0.117793	0.02075974	-2.486778e-07	3.457073e-07	0.01236217	-0.002898401	-1.893623e-06	-2.139105e-06
	-2.486778e-07	3.457073e-07	-0.1169442	0.02364058	5.733065e-07	4.470448e-06	0.01268095	-0.001980266
	0.01236217	-0.002898401	5.733065e-07	4.470448e-06	-0.1177765	0.02096375	-2.843762e-07	4.195885e-07
	-1.893623e-06	-2.139105e-06	0.01268095	-0.001980266	-2.843762e-07	4.195885e-07	-0.116813	0.02417896
3.2e+08	-0.1082237	0.03591856	-3.403922e-07	4.825185e-07	0.01042886	-0.003834467	-2.577017e-06	-1.467949e-06
	-3.403922e-07	4.825185e-07	-0.1070055	0.03858396	6.892479e-07	4.546567e-06	0.01086337	-0.002993861
	0.01042886	-0.003834467	6.892479e-07	4.546567e-06	-0.1082009	0.03613759	-3.934317e-07	5.795508e-07
	-2.577017e-06	-1.467949e-06	0.01086337	-0.002993861	-3.934317e-07	5.795508e-07	-0.1068261	0.03910932
3.3e+08	-0.09450915	0.04728692	-3.918771e-07	6.469026e-07	0.00826858	-0.00410186	-3.029783e-06	-5.912251e-07
	-3.918771e-07	6.469026e-07	-0.09301777	0.04962573	7.838306e-07	4.591541e-06	0.008785078	-0.003373007
	0.00826858	-0.00410186	7.838306e-07	4.591541e-06	-0.09447723	0.04751899	-4.557898e-07	7.725229e-07
	-3.029783e-06	-5.912251e-07	0.008785078	-0.003373007	-4.557898e-07	7.725229e-07	-0.0927994	0.05012359
3.4e+08	-0.07803316	0.05376133	-3.95329e-07	8.251495e-07	0.006101962	-0.003657575	-3.190091e-06	4.12465e-07
	-3.95329e-07	8.251495e-07	-0.07639869	0.05569647	8.478024e-07	4.614444e-06	0.006656459	-0.003062706
	0.006101962	-0.003657575	8.478024e-07	4.614444e-06	-0.07798993	0.05400366	-4.619822e-07	9.826512e-07
	-3.190091e-06	4.12465e-07	0.006656459	-0.003062706	-4.619822e-07	9.826512e-07	-0.07615519	0.05615583
3.5e+08	-0.06046012	0.05471707	-3.475162e-07	1.001415e-06	0.004156773	-0.002528669	-3.022349e-06	1.445489e-06
	-3.475162e-07	1.001415e-06	-0.05883479	0.05621589	8.758013e-07	4.626733e-06	0.004699246	-0.002075026
	0.004156773	-0.002528669	8.758013e-07	4.626733e-06	-0.06040434	0.0549662	-4.078093e-07	1.191405e-06
	-3.022349e-06	1.445489e-06	0.004699246	-0.002075026	-4.078093e-07	1.191405e-06	-0.05858318	0.05663052
3.6e+08	-0.0435769	0.05007818	-2.503539e-07	1.159185e-06	0.002645997	-0.0008146288	-2.523541e-06	2.399725e-06
	-2.503539e-07	1.159185e-06	-0.04211991	0.05115877	8.666693e-07	4.640559e-06	0.003125452	-0.0004929248
	0.002645997	-0.0008146288	8.666693e-07	4.640559e-06	-0.04350843	0.05033031	-2.951135e-07	1.37926e-06
	-2.523541e-06	2.399725e-06	0.003125452	-0.0004929248	-2.951135e-07	1.37926e-06	-0.04187881	0.05152817
3.7e+08	-0.02911525	0.040337	-1.110428e-07	1.282906e-06	0.001743798	0.001317528	-1.726819e-06	3.167577e-06
	-1.110428e-07	1.282906e-06	-0.02797585	0.04106936	8.230517e-07	4.667309e-06	0.002113687	0.00153297
	0.001743798	0.001317528	8.230517e-07	4.667309e-06	-0.0290352	0.0405883	-1.320535e-07	1.52764e-06
	-1.726819e-06	3.167577e-06	0.002113687	0.00153297	-1.320535e-07	1.52764e-06	-0.02776355	0.04139914
3.8e+08	-0.01857116	0.02651553	5.829502e-08	1.359672e-06	0.001562309	0.003647285	-7.011795e-07	3.654563e-06
	5.829502e-08	1.359672e-06	-0.0178716	0.02701703	7.505731e-07	4.716644e-06	0.001785764	0.003796625
	0.001562309	0.003647285	7.505731e-07	4.716644e-06	-0.01848191	0.02676258	6.724567e-08	1.620988e-06
	-7.011795e-07	3.654563e-06	0.001785764	0.003796625	6.724567e-08	1.620988e-06	-0.01770408	0.02731862
3.9e+08	-0.01304148	0.01006731	2.415254e-07	1.380811e-06	0.002133565	0.005923984	4.536277e-07	3.791873e-06
	2.415254e-07	1.380811e-06	-0.01286187	0.01049236	6.569656e-07	4.796078e-06	0.00218787	0.006058296
	0.002133565	0.005923984	6.569656e-07	4.796078e-06	-0.01294657	0.01030751	2.837478e-07	1.648737e-06
	4.536277e-07	3.791873e-06	0.00218787	0.006058296	2.837478e-07	1.648737e-06	-0.01275097	0.01078212
4e+08	-0.01309963	-0.007273627	4.199552e-07	1.343194e-06	0.003401051	0.00789725	1.616981e-06	3.546868e-06
	4.199552e-07	1.343194e-06	-0.0134668	-0.006748738	5.514462e-07	4.910914e-06	0.003280825	0.008073572
	0.003401051	0.00789725	5.514462e-07	4.910914e-06	-0.01300348	-0.007041624	4.952687e-07	1.606952e-06
	1.616981e-06	3.546868e-06	0.003280825	0.008073572	4.952687e-07	1.606952e-06	-0.01341869	-0.00645101
4.1e+08	-0.01872909	-0.02368026	5.742566e-07	1.250041e-06	0.005223991	0.009349797	2.661092e-06	2.929446e-06
	5.742566e-07	1.250041e-06	-0.01961096	-0.02287594	4.444112e-07	5.06418e-06	0.004942651	0.009625257
	0.005223991	0.009349797	4.444112e-07	5.06418e-06	-0.01863654	-0.02345621	6.788361e-07	1.499315e-06
	2.661092e-06	2.929446e-06	0.004942651	0.009625257	6.788361e-07	1.499315e-06	-0.01962519	-0.02254897
4.2e+08	-0.02932568	-0.03743314	6.866891e-07	1.111044e-06	0.007394743	0.01012655	3.466573e-06	1.992831e-06
	6.866891e-07	1.111044e-06	-0.03063228	-0.0361863	3.472595e-07	5.256315e-06	0.006983973	0.01055216
	0.007394743	0.01012655	3.472595e-07	5.256315e-06	-0.02924141	-0.03721508	8.133988e-07	1.337235e-06
	3.466573e-06	1.992831e-06	0.006983973	0.01055216	8.133988e-07	1.337235e-06	-0.03070148	-0.03580953
4.3e+08	-0.04376914	-0.0471073	7.43346e-07	9.416463e-07	0.0096665	0.01015444	3.937376e-06	8.283679e-07
	7.43346e-07	9.416463e-07	-0.04536025	-0.04528991	2.719973e-07	5.484546e-06	0.009173649	0.01076928
	0.0096665	0.01015444	2.719973e-07	5.484546e-06	-0.043697	-0.04689162	8.825139e-07	1.13893e-06
	3.937376e-06	8.283679e-07	0.009173649	0.01076928	8.825139e-07	1.13893e-06	-0.04547058	-0.04484578
4.4e+08	-0.06055306	-0.05172095	7.360759e-07	7.615009e-07	0.01178596	0.009449391	4.012687e-06	-4.448592e-07
	7.360759e-07	7.615009e-07	-0.06225187	-0.04925527	2.303194e-07	5.742192e-06	0.01126958	0.0102758
	0.01178596	0.009449391	2.303194e-07	5.742192e-06	-0.06049552	-0.05150278	8.765847e-07	9.27513e-07
	4.012687e-06	-4.448592e-07	0.01126958	0.0102758	8.765847e-07	9.27513e-07	-0.06238419	-0.04873122
4.5e+08	-0.07795405	-0.05082893	6.637407e-07	5.922523e-07	0.01352486	0.008110167	3.674055e-06	-1.69381e-06
	6.637407e-07	5.922523e-07	-0.07956512	-0.0476973	2.320944e-07	6.018322e-06	0.01304881	0.009150671
	0.01352486	0.008110167	2.320944e-07	6.018322e-06	-0.07791175	-0.05060268	7.942603e-07	7.283462e-07
	3.674055e-06	-1.69381e-06	0.01304881	0.009150671	7.942603e-07	7.283462e-07	-0.07969678	-0.04708737
4.6e+08	-0.09421662	-0.04455311	5.325673e-07	4.549689e-07	0.01470518	0.006301623	2.9471e-06	-2.786425e-06
	5.325673e-07	4.549689e-07	-0.09554618	-0.04080147	2.834965e-07	6.298194e-06	0.01433187	0.007537912
	0.01470518	0.006301623	2.834965e-07	6.298194e-06	-0.09418822	-0.04431317	6.427586e-07	5.660428e-07
	2.9471e-06	-2.786425e-06	0.01433187	0.007537912	6.427586e-07	5.660428e-07	-0.09565332	-0.04010722
4.7e+08	-0.1077314	-0.03355204	3.555264e-07	3.676245e-07	0.01521511	0.004231785	1.898142e-06	-3.605639e-06
	3.555264e-07	3.676245e-07	-0.1086077	-0.02928668	3.852787e-07	6.564674e-06	0.01499877	0.005625985
	0.01521511	0.004231785	3.852787e-07	6.564674e-06	-0.1077137	-0.03329353	4.370797e-07	4.61591e-07
	1.898142e-06	-3.605639e-06	0.01499877	0.005625985	4.370797e-07	4.61591e-07	-0.1086677	-0.02851732
4.8e+08	-0.1171884	-0.01893919	1.508615e-07	3.430067e-07	0.01501547	0.002127228	6.268564e-07	-4.060966e-06
	1.508615e-07	3.430067e-07	-0.1174799	-0.01431724	5.317452e-07	6.800516e-06	0.0149961	0.003625349
	0.01501547	0.002127228	5.317452e-07	6.800516e-06	-0.1171766	-0.01865855	1.982889e-07	4.30005e-07
