!$
! Info: Touchstone file created by Circ.  Input file=Tx_12in_Rx_100ohms_TxVia_35mils_RxVia_45mils.circ
!$
# Hz S RI R 50
0	0.01244942	1.502485e-25	7.545303e-10	1.128648e-27	8.372055e-05	2.33427e-23	2.51989e-09	4.716562e-28
	7.545311e-10	1.128533e-27	0.01244711	1.791502e-25	3.967338e-10	1.641794e-27	8.309051e-05	2.818705e-23
	8.422856e-05	2.366909e-23	3.967334e-10	1.641831e-27	0.01246143	1.45969e-25	7.743352e-10	1.088102e-27
	2.51989e-09	4.716454e-28	8.124198e-05	2.832577e-23	7.743356e-10	1.088065e-27	0.01246017	1.678618e-25
1e+07	0.01726866	0.007767398	1.183111e-09	1.187223e-09	0.0003968993	0.00216894	5.172688e-09	5.833386e-09
	1.183111e-09	1.187223e-09	0.01846305	0.007435887	6.400666e-10	7.748366e-10	0.0008168757	0.002216299
	0.0003969289	0.002168935	6.400665e-10	7.748366e-10	0.0179389	0.007423619	1.240229e-09	1.237903e-09
	5.172688e-09	5.833386e-09	0.0008168147	0.002216309	1.240229e-09	1.237902e-09	0.01829581	0.007467606
2e+07	0.02361822	0.0109531	2.101814e-09	1.747041e-09	0.00118272	0.004239141	9.849685e-09	8.472532e-09
	2.101815e-09	1.747041e-09	0.024169	0.01004307	9.697745e-10	1.274269e-09	0.001461103	0.004501178
	0.001182721	0.004239119	9.697745e-10	1.274269e-09	0.02376505	0.01021318	2.19841e-09	1.804292e-09
	9.849685e-09	8.472533e-09	0.001461094	0.004501213	2.19841e-09	1.804292e-09	0.02406258	0.01016062
3e+07	0.0290384	0.01120019	3.182731e-09	1.905504e-09	0.002419539	0.006004095	1.545264e-08	9.08534e-09
	3.182731e-09	1.905504e-09	0.02907297	0.01021753	1.303436e-09	1.66961e-09	0.002595597	0.006347311
	0.002419533	0.006004094	1.303435e-09	1.66961e-09	0.02879173	0.0104408	3.331701e-09	1.942274e-09
	1.545264e-08	9.08534e-09	0.002595597	0.006347317	3.331701e-09	1.942275e-09	0.02901895	0.0103661
4e+07	0.03375415	0.00986006	4.319918e-09	1.593493e-09	0.004022774	0.007395914	2.147299e-08	7.344153e-09
	4.319919e-09	1.593493e-09	0.0333628	0.008985707	1.619191e-09	1.926732e-09	0.004147337	0.007784199
	0.004022775	0.007395919	1.619191e-09	1.926732e-09	0.03320824	0.009211175	4.547727e-09	1.595031e-09
	2.147299e-08	7.344153e-09	0.004147332	0.007784197	4.547727e-09	1.595031e-09	0.0333556	0.009145936
5e+07	0.03771119	0.007333428	5.365958e-09	8.121675e-10	0.005888567	0.008345478	2.713955e-08	3.171424e-09
	5.365958e-09	8.121675e-10	0.03698278	0.006680577	1.893725e-09	2.069663e-09	0.006132725	0.008652594
	0.005888569	0.00834548	1.893725e-09	2.069663e-09	0.03695393	0.006868075	5.683447e-09	7.453736e-10
	2.713955e-08	3.171424e-09	0.006132721	0.008652593	5.683447e-09	7.453736e-10	0.03701599	0.006839609
6e+07	0.0408094	0.003895522	6.176781e-09	-3.963725e-10	0.007900599	0.008808152	3.166912e-08	-3.268662e-09
	6.176781e-09	-3.963725e-10	0.03983929	0.003541497	2.0948e-09	2.1152e-09	0.008216552	0.009016826
	0.007900597	0.008808151	2.0948e-09	2.1152e-09	0.03992556	0.003653549	6.578325e-09	-5.699345e-10
	3.166912e-08	-3.268662e-09	0.008216555	0.009016825	6.578325e-09	-5.699345e-10	0.03990547	0.00369008
7e+07	0.04295419	-0.0002081127	6.619898e-09	-1.953385e-09	0.009947644	0.008754387	3.435292e-08	-1.159925e-08
	6.619897e-09	-1.953384e-09	0.04184277	-0.000215545	2.193617e-09	2.088051e-09	0.01028076	0.008873823
	0.009947638	0.008754386	2.193617e-09	2.088051e-09	0.04202478	-0.0002114328	7.085376e-09	-2.270905e-09
	3.435292e-08	-1.159925e-08	0.01028077	0.00887382	7.085377e-09	-2.270905e-09	0.04193363	-8.384573e-05
8e+07	0.04407748	-0.004737239	6.586164e-09	-3.744991e-09	0.01189423	0.008206546	3.460035e-08	-2.125592e-08
	6.586164e-09	-3.744991e-09	0.04292776	-0.004376618	2.167662e-09	2.020571e-09	0.01220826	0.008246533
	0.01189422	0.008206547	2.167662e-09	2.020571e-09	0.04317872	-0.004506224	7.082382e-09	-4.238183e-09
	3.460035e-08	-2.125592e-08	0.01220827	0.008246527	7.082383e-09	-4.238183e-09	0.04303443	-0.004265711
9e+07	0.04414662	-0.009453366	6.007425e-09	-5.633612e-09	0.01362347	0.007210496	3.198398e-08	-3.151432e-08
	6.007425e-09	-5.633612e-09	0.04306386	-0.008726525	2.008619e-09	1.950754e-09	0.01388907	0.007183631
	0.01362347	0.007210498	2.008619e-09	1.950754e-09	0.04335093	-0.00900763	6.489017e-09	-6.325046e-09
	3.198398e-08	-3.151432e-08	0.01388908	0.007183626	6.489017e-09	-6.325047e-09	0.04317707	-0.008637992
1e+08	0.04316141	-0.01412521	4.853683e-09	-7.467182e-09	0.01504071	0.005835877	2.628538e-08	-4.15331e-08
	4.853683e-09	-7.467182e-09	0.04227625	-0.01304816	1.714461e-09	1.924164e-09	0.01521977	0.005755274
	0.01504071	0.005835877	1.714461e-09	1.924164e-09	0.04256057	-0.01349017	5.262492e-09	-8.36973e-09
	2.628538e-08	-4.15331e-08	0.01521977	0.005755274	5.262492e-09	-8.36973e-09	0.04238501	-0.01298188
1.1e+08	0.04118671	-0.01848814	3.176264e-09	-9.081712e-09	0.01605815	0.004146532	1.755717e-08	-5.043506e-08
	3.176264e-09	-9.081712e-09	0.04058594	-0.01725247	1.32236e-09	1.962746e-09	0.01613434	0.004099943
	0.01605815	0.004146531	1.32236e-09	1.962746e-09	0.04082728	-0.01784302	3.444484e-09	-1.016405e-08
	1.755717e-08	-5.043506e-08	0.01613434	0.004099943	3.444484e-09	-1.016405e-08	0.04068313	-0.01719703
1.2e+08	0.03835433	-0.0223707	9.47971e-10	-1.030983e-08	0.01659998	0.00227359	5.995459e-09	-5.731021e-08
	9.47971e-10	-1.030983e-08	0.03799155	-0.02104229	8.211157e-10	2.058494e-09	0.0166182	0.002284926
	0.01659998	0.00227359	8.211157e-10	2.058494e-09	0.0381617	-0.0217674	1.053033e-09	-1.151806e-08
	5.995459e-09	-5.731021e-08	0.0166182	0.002284926	1.053033e-09	-1.151806e-08	0.03807769	-0.02099299
1.3e+08	0.03478378	-0.0256078	-1.711896e-09	-1.098022e-08	0.01664577	0.0003393081	-7.824939e-09	-6.131977e-08
	-1.711896e-09	-1.098022e-08	0.03464377	-0.02423213	2.291371e-10	2.29271e-09	0.01663478	0.0004161725
	0.01664577	0.000339308	2.291371e-10	2.29271e-09	0.03471551	-0.02507092	-1.801216e-09	-1.227637e-08
	-7.824939e-09	-6.131977e-08	0.01663478	0.0004161725	-1.801216e-09	-1.227637e-08	0.03471813	-0.02418507
1.4e+08	0.0306345	-0.02806179	-4.659264e-09	-1.096548e-08	0.01619936	-0.001534155	-2.31545e-08	-6.17972e-08
	-4.659264e-09	-1.096548e-08	0.0307043	-0.02667965	-4.166594e-10	2.691815e-09	0.01618318	-0.00139264
	0.01619936	-0.001534155	-4.166594e-10	2.691815e-09	0.03065567	-0.0276039	-4.964259e-09	-1.23024e-08
	-2.31545e-08	-6.17972e-08	0.01618318	-0.00139264	-4.964259e-09	-1.23024e-08	0.03076676	-0.0266311
1.5e+08	0.02609095	-0.02963229	-7.713762e-09	-1.017494e-08	0.01529294	-0.003229653	-3.905788e-08	-5.827634e-08
	-7.713762e-09	-1.017494e-08	0.02635496	-0.02828192	-1.071849e-09	3.273128e-09	0.01529129	-0.003030762
	0.01529294	-0.003229653	-1.071849e-09	3.273128e-09	0.02617162	-0.02925749	-8.243259e-09	-1.149876e-08
	-3.905788e-08	-5.827634e-08	0.01529129	-0.003030762	-8.243259e-09	-1.149876e-08	0.02640617	-0.02822848
1.6e+08	0.0213536	-0.03026088	-1.066818e-08	-8.565498e-09	0.01398556	-0.004641641	-5.44685e-08	-5.054197e-08
	-1.066818e-08	-8.565498e-09	0.0217915	-0.02897793	-1.686877e-09	4.042237e-09	0.0140134	-0.004397466
	0.01398556	-0.004641641	-1.686877e-09	4.042237e-09	0.02146841	-0.02996685	-1.141668e-08	-9.819041e-09
	-5.44685e-08	-5.054197e-08	0.0140134	-0.004397466	-1.141668e-08	-9.819041e-09	0.02183273	-0.02891666
1.7e+08	0.01662955	-0.02993362	-1.33012e-08	-6.149731e-09	0.0123597	-0.005682267	-6.825626e-08	-3.866546e-08
	-1.33012e-08	-6.149731e-09	0.01721537	-0.0287502	-2.210239e-09	4.991352e-09	0.01242667	-0.005408175
	0.0123597	-0.005682267	-2.210239e-09	4.991352e-09	0.01675784	-0.02971323	-1.424787e-08	-7.276399e-09
	-6.825626e-08	-3.866546e-08	0.01242667	-0.005408175	-1.424787e-08	-7.276399e-09	0.0172484	-0.02867873
1.8e+08	0.01212291	-0.02868149	-1.539255e-08	-3.000477e-09	0.01051634	-0.006286492	-7.930472e-08	-2.302182e-08
	-1.539255e-08	-3.000477e-09	0.01282483	-0.02762482	-2.592152e-09	6.098632e-09	0.0106264	-0.005999541
	0.01051634	-0.006286492	-2.592152e-09	6.098632e-09	0.01224885	-0.02852422	-1.650132e-08	-3.948412e-09
	-7.930472e-08	-2.302182e-08	0.0106264	-0.005999541	-1.650132e-08	-3.948412e-09	0.01285185	-0.02754136
1.9e+08	0.008025135	-0.02657872	-1.674003e-08	7.507401e-10	0.008568878	-0.006415842	-8.659281e-08	-4.286025e-09
	-1.674003e-08	7.507401e-10	0.008806078	-0.02566959	-2.788665e-09	7.329119e-09	0.008720337	-0.006133192
	0.008568878	-0.006415842	-2.788665e-09	7.329119e-09	0.008137783	-0.02647202	-1.796071e-08	2.449618e-11
	-8.659281e-08	-4.286025e-09	0.008720337	-0.006133192	-1.796071e-08	2.449618e-11	0.008829463	-0.025573
2e+08	0.00450596	-0.02373898	-1.717472e-08	4.9143e-09	0.00663632	-0.00606059	-8.927537e-08	1.659305e-08
	-1.717472e-08	4.9143e-09	0.005324624	-0.02299038	-2.764518e-09	8.635109e-09	0.006822131	-0.005797966
	0.00663632	-0.00606059	-2.764518e-09	8.635109e-09	0.004599108	-0.02366954	-1.844538e-08	4.439959e-09
	-8.927537e-08	1.659305e-08	0.006822131	-0.005797966	-1.844538e-08	4.439959e-09	0.005346871	-0.02288012
2.1e+08	0.001705303	-0.02030963	-1.657885e-08	9.2529e-09	0.00483614	-0.005240189	-8.675623e-08	3.844038e-08
	-1.657885e-08	9.2529e-09	0.002517764	-0.01972556	-2.497499e-09	9.958837e-09	0.005044598	-0.005010503
	0.00483614	-0.005240189	-2.497499e-09	9.958837e-09	0.001777132	-0.02026453	-1.78292e-08	9.044727e-09
	-8.675623e-08	3.844038e-08	0.005044598	-0.005010503	-1.78292e-08	9.044727e-09	0.002541328	-0.01960172
2.2e+08	-0.0002733463	-0.01646425	-1.489853e-08	1.349831e-08	0.003277242	-0.004001959	-7.874795e-08	5.992215e-08
	-1.489853e-08	1.349831e-08	0.0004882992	-0.016039	-1.981139e-09	1.123696e-08	0.003492978	-0.003814145
	0.003277242	-0.004001959	-1.981139e-09	1.123696e-08	-0.0002208406	-0.01643202	-1.605417e-08	1.355236e-08
	-7.874795e-08	5.992215e-08	0.003492978	-0.003814145	-1.605417e-08	1.355236e-08	0.000515483	-0.01590224
2.3e+08	-0.001367744	-0.01239393	-1.215187e-08	1.736785e-08	0.002053487	-0.002418092	-6.531272e-08	7.962899e-08
	-1.215187e-08	1.736785e-08	-0.0007000031	-0.01211173	-1.225959e-09	1.240451e-08	0.002258713	-0.002276247
	0.002053487	-0.002418092	-1.225959e-09	1.240451e-08	-0.001329506	-0.01236533	-1.313917e-08	1.766091e-08
	-6.531272e-08	7.962899e-08	0.002258713	-0.002276247	-1.313917e-08	1.766091e-08	-0.000667172	-0.01196324
2.4e+08	-0.001559613	-0.008297554	-8.432376e-09	2.058445e-08	0.001238157	-0.0005811797	-4.68802e-08	9.616944e-08
	-8.432376e-09	2.058445e-08	-0.001025033	-0.008132873	-2.597356e-10	1.339958e-08	0.001414092	-0.0004840593
	0.001238157	-0.0005811797	-2.597356e-10	1.339958e-08	-0.001528418	-0.008266149	-9.18361e-09	2.107432e-08
	-4.68802e-08	9.616944e-08	0.001414092	-0.0004840593	-9.18361e-09	2.107432e-08	-0.0009849117	-0.007974301
2.5e+08	-0.0008751111	-0.004371833	-3.906491e-09	2.289722e-08	0.0008797002	0.001401454	-2.423978e-08	1.08267e-07
	-3.906491e-09	2.289722e-08	-0.0005068229	-0.004290226	8.735669e-10	1.416798e-08	0.001008071	0.001460555
	0.0008797002	0.001401454	8.735669e-10	1.416798e-08	-0.0008425295	-0.004334355	-4.364756e-09	2.352439e-08
	-2.423978e-08	1.08267e-07	0.001008071	0.001460555	-4.364756e-09	2.352439e-08	-0.0004582477	-0.004123556
2.6e+08	0.0006169738	-0.000801452	1.194693e-09	2.41009e-08	0.0009990004	0.003414252	1.493136e-09	1.148536e-07
	1.194693e-09	2.41009e-08	0.0007940558	-0.0007609511	2.116156e-09	1.466747e-08	0.00106353	0.003447223
	0.0009990004	0.003414252	2.116156e-09	1.466747e-08	0.0006595897	-0.0007578323	1.071038e-09	2.479157e-08
	1.493136e-09	1.148536e-07	0.00106353	0.003447223	1.071038e-09	2.479157e-08	0.0008516995	-0.0005883945
2.7e+08	0.002809198	0.002250084	6.588898e-09	2.405232e-08	0.001588317	0.005340361	2.893538e-08	1.151525e-07
	6.588898e-09	2.405232e-08	0.002780146	0.002297037	3.399856e-09	1.487122e-08	0.001576085	0.005363615
	0.001588317	0.005340361	3.399856e-09	1.487122e-08	0.002869788	0.002296902	6.822716e-09	2.472251e-08
	2.893538e-08	1.151525e-07	0.001576085	0.005363615	6.822716e-09	2.472251e-08	0.002846883	0.002473187
2.8e+08	0.00556139	0.004648439	1.196021e-08	2.268264e-08	0.002611933	0.007068568	5.651482e-08	1.087436e-07
	1.196021e-08	2.268264e-08	0.005322568	0.004752628	4.650376e-09	1.477016e-08	0.002514535	0.007102054
	0.002611933	0.007068568	4.650376e-09	1.477016e-08	0.005646369	0.004692922	1.255325e-08	2.324311e-08
	5.651482e-08	1.087436e-07	0.002514535	0.007102054	1.255325e-08	2.324311e-08	0.005397828	0.004930143
2.9e+08	0.008708193	0.006294836	1.697925e-08	2.000432e-08	0.004008445	0.00849984	8.256469e-08	9.560723e-08
	1.697925e-08	2.000432e-08	0.008267993	0.0065076	5.792035e-09	1.437418e-08	0.003822857	0.008565772
	0.004008445	0.00849984	5.792035e-09	1.437418e-08	0.008821794	0.006329482	1.791115e-08	2.036599e-08
	8.256469e-08	9.560723e-08	0.003822857	0.008565772	1.791115e-08	2.036599e-08	0.008350641	0.006684466
3e+08	0.01206782	0.00713057	2.132435e-08	1.611248e-08	0.005694539	0.009553084	1.054268e-07	7.6142e-08
	2.132435e-08	1.611248e-08	0.01144675	0.007500941	6.752604e-09	1.371202e-08	0.005423633	0.009674483
	0.005694539	0.009553084	6.752604e-09	1.371202e-08	0.01221165	0.007146651	2.255304e-08	1.619195e-08
	1.054268e-07	7.6142e-08	0.005423633	0.009674483	2.255304e-08	1.619195e-08	0.01153516	0.007675497
3.1e+08	0.01545153	0.007139398	2.470211e-08	1.118085e-08	0.007569998	0.0101698	1.235567e-07	5.115616e-08
	2.470211e-08	1.118085e-08	0.01468163	0.007711238	7.467914e-09	1.282997e-08	0.007222674	0.01036894
	0.007569998	0.0101698	7.467914e-09	1.282997e-08	0.01562433	0.007127795	2.616556e-08	1.090562e-08
	1.235567e-07	5.115616e-08	0.007222674	0.01036894	2.616556e-08	1.090562e-08	0.01477376	0.007882291
3.2e+08	0.01867335	0.006347721	2.686605e-08	5.45268e-09	0.009523648	0.0103174	1.356238e-07	2.18327e-08
	2.686605e-08	5.45268e-09	0.01779688	0.007156998	7.885968e-09	1.178946e-08	0.009114563	0.01061424
	0.009523648	0.0103174	7.885968e-09	1.178946e-08	0.01887103	0.006299771	2.848523e-08	4.765794e-09
	1.356238e-07	2.18327e-08	0.009114563	0.01061424	2.848523e-08	4.765794e-09	0.01789046	0.007323918
3.3e+08	0.02155953	0.004822603	2.763218e-08	-7.723318e-10	0.01143988	0.009990987	1.40601e-07	-1.032937e-08
	2.763218e-08	-7.723318e-10	0.02062705	0.005894996	7.970324e-09	1.066383e-08	0.01098879	0.01040174
	0.01143988	0.009990987	7.970324e-09	1.066383e-08	0.02177538	0.004730903	2.931509e-08	-1.908459e-09
	1.40601e-07	-1.032937e-08	0.01098879	0.01040174	2.931509e-08	-1.908459e-09	0.02071968	0.006057761
3.4e+08	0.02395723	0.002667722	2.6891e-08	-7.154208e-09	0.01320541	0.009213573	1.378364e-07	-4.359391e-08
	2.6891e-08	-7.154208e-09	0.0230251	0.004016707	7.702625e-09	9.534409e-09	0.01273613	0.009749402
	0.01320541	0.009213573	7.702625e-09	9.534409e-09	0.02418236	0.002526838	2.853735e-08	-8.754986e-09
	1.378364e-07	-4.359391e-08	0.01273613	0.009749402	2.853735e-08	-8.754986e-09	0.02311441	0.004175925
3.5e+08	0.02574203	1.752943e-05	2.461527e-08	-1.333089e-08	0.01471579	0.008034673	1.27106e-07	-7.608211e-08
	2.461527e-08	-1.333089e-08	0.02486946	0.001643057	7.084188e-09	8.486157e-09	0.01425492	0.008700735
	0.01471579	0.008034673	7.084188e-09	8.486157e-09	0.02596603	-0.0001754436	2.612183e-08	-1.538789e-08
	1.27106e-07	-7.608211e-08	0.01425492	0.008700735	2.612183e-08	-1.538789e-08	0.02495331	0.001799939
3.6e+08	0.02682396	-0.0029701	2.086374e-08	-1.893754e-08	0.01588156	0.006527406	1.086401e-07	-1.058753e-07
	2.086374e-08	-1.893754e-08	0.02606975	-0.001082191	6.135953e-09	7.602967e-09	0.01545687	0.007322205
	0.01588156	0.006527406	6.135953e-09	7.602967e-09	0.02703558	-0.003215172	2.212885e-08	-2.141729e-08
	1.086401e-07	-1.058753e-07	0.01545687	0.007322205	2.212885e-08	-2.141729e-08	0.02614634	-0.0009258995
3.7e+08	0.02715161	-0.006122319	1.578059e-08	-2.362626e-08	0.01663332	0.00478427	8.313365e-08	-1.311289e-07
	1.578059e-08	-2.362626e-08	0.0265708	-0.004000117	4.899851e-09	6.963281e-09	0.01627213	0.005699412
	0.01663332	0.00478427	4.899851e-09	6.963281e-09	0.02733963	-0.00641643	1.671205e-08	-2.647188e-08
	8.313365e-08	-1.311289e-07	0.01627213	0.005699412	1.671205e-08	-2.647188e-08	0.02663881	-0.003842237
3.8e+08	0.02671433	-0.00926044	9.5909e-09	-2.708526e-08	0.01692587	0.002911793	5.171802e-08	-1.501787e-07
	9.5909e-09	-2.708526e-08	0.02635489	-0.006944959	3.435931e-09	6.635104e-09	0.0166533	0.003932166
	0.01692587	0.002911793	3.435931e-09	6.635104e-09	0.02686839	-0.009597528	1.011061e-08	-3.021859e-08
	5.171802e-08	-1.501787e-07	0.0166533	0.003932166	1.011061e-08	-3.021859e-08	0.02641359	-0.00678301
3.9e+08	0.0255423	-0.01220928	2.592063e-09	-2.905715e-08	0.01674086	0.001024381	1.591558e-08	-1.616434e-07
	2.592063e-09	-2.905715e-08	0.02544205	-0.009752678	1.82012e-09	6.671849e-09	0.01657816	0.002128764
	0.01674086	0.001024381	1.82012e-09	6.671849e-09	0.02565364	-0.01258056	2.640708e-09	-3.238193e-08
	1.591558e-08	-1.616434e-07	0.01657816	0.002128764	2.640708e-09	-3.238193e-08	0.02549136	-0.009584035
4e+08	0.02370443	-0.01480625	-4.858661e-09	-2.935546e-08	0.01608794	-0.0007623151	-2.24299e-08	-1.645161e-07
	-4.858661e-09	-2.935546e-08	0.02388849	-0.01226933	1.409362e-10	7.108586e-09	0.01605102	0.000399763
	0.01608794	-0.0007623151	1.409362e-10	7.108586e-09	0.02376669	-0.01520069	-5.317332e-09	-3.276177e-08
	-2.24299e-08	-1.645161e-07	0.01605102	0.000399763	-5.317332e-09	-3.276177e-08	0.023929	-0.01209139
4.1e+08	0.02130441	-0.01690976	-1.236038e-08	-2.787875e-08	0.0150043	-0.002338135	-6.124423e-08	-1.582383e-07
	-1.236038e-08	-2.787875e-08	0.02178321	-0.01435883	-1.504841e-09	7.95899e-09	0.01510251	-0.001148404
	0.0150043	-0.002338135	-1.504841e-09	7.95899e-09	0.02131411	-0.01731474	-1.33363e-08	-3.124846e-08
	-6.124423e-08	-1.582383e-07	0.01510251	-0.001148404	-1.33363e-08	-3.124846e-08	0.02181615	-0.01416917
4.2e+08	0.01847486	-0.01840642	-1.948831e-08	-2.462134e-08	0.01355267	-0.003604878	-9.833103e-08	-1.427533e-07
	-1.948831e-08	-2.462134e-08	0.01924294	-0.01590978	-3.017289e-09	9.213259e-09	0.01378792	-0.002419603
	0.01355267	-0.003604878	-3.017289e-09	9.213259e-09	0.0184318	-0.01880852	-2.096308e-08	-2.78344e-08
	-9.833103e-08	-1.427533e-07	0.01378792	-0.002419603	-2.096308e-08	-2.78344e-08	0.01927014	-0.01570635
4.3e+08	0.01537007	-0.01921684	-2.581645e-08	-1.967968e-08	0.01181773	-0.004482122	-1.314928e-07	-1.185337e-07
	-2.581645e-08	-1.967968e-08	0.01640573	-0.01684091	-4.299061e-09	1.083724e-08	0.01218405	-0.003333621
	0.01181773	-0.004482122	-4.299061e-09	1.083724e-08	0.01527752	-0.01960272	-2.774282e-08	-2.262102e-08
	-1.314928e-07	-1.185337e-07	0.01218405	-0.003333621	-2.774282e-08	-2.262102e-08	0.0164295	-0.01662214
4.4e+08	0.0121576	-0.01929952	-3.09424e-08	-1.325341e-08	0.009901235	-0.004912046	-1.586589e-07	-8.65796e-08
	-3.09424e-08	-1.325341e-08	0.01342349	-0.01710498	-5.261436e-09	1.277296e-08	0.01038482	-0.003830901
	0.009901235	-0.004912046	-5.261436e-09	1.277296e-08	0.01202221	-0.01965679	-3.32455e-08	-1.582005e-08
	-1.586589e-07	-8.65796e-08	0.01038482	-0.003830901	-3.32455e-08	-1.582005e-08	0.01344651	-0.0168699
4.5e+08	0.009009227	-0.01865275	-3.4513e-08	-5.640175e-09	0.007916171	-0.004862961	-1.780134e-07	-4.838627e-08
	-3.4513e-08	-5.640175e-09	0.01045385	-0.01669085	-5.830314e-09	1.494074e-08	0.008495871	-0.003876099
	0.007916171	-0.004862961	-5.830314e-09	1.494074e-08	0.008840719	-0.01897087	-3.709338e-08	-7.748037e-09
	-1.780134e-07	-4.838627e-08	0.008495871	-0.003876099	-3.709338e-08	-7.748037e-09	0.01047898	-0.01643921
4.6e+08	0.006091653	-0.01731444	-3.624904e-08	2.776165e-09	0.005980083	-0.004331319	-1.881153e-07	-5.879613e-09
	-3.624904e-08	2.776165e-09	0.007651789	-0.01562369	-5.951752e-09	1.724288e-08	0.006628373	-0.003460242
	0.005980083	-0.004331319	-5.951752e-09	1.724288e-08	0.00590234	-0.01758542	-3.898748e-08	1.186143e-09
	-1.881153e-07	-5.879613e-09	0.006628373	-0.003460242	-3.898748e-08	1.186143e-09	0.007681919	-0.01535592
4.7e+08	0.003557589	-0.01535965	-3.597213e-08	1.155152e-08	0.004208167	-0.003342067	-1.879719e-07	3.867494e-08
	-3.597213e-08	1.155152e-08	0.005161436	-0.01396319	-5.594809e-09	1.956766e-08	0.004892558	-0.002601342
	0.004208167	-0.003342067	-5.594809e-09	1.956766e-08	0.003361653	-0.01557879	-3.873561e-08	1.050884e-08
	-1.879719e-07	3.867494e-08	0.004892558	-0.002601342	-3.873561e-08	1.050884e-08	0.00519928	-0.0136804
4.8e+08	0.00153759	-0.01289642	-3.360554e-08	2.018214e-08	0.002706428	-0.001947292	-1.772096e-07	8.278567e-08
