!$
! Info: Touchstone file created by Circ.  Input file=Tx_10in_Rx_100ohms_TxVia_35mils_RxVia_45mils.circ
!$
# Hz S RI R 50
0	0.01041821	1.323291e-25	1.753207e-08	2.30814e-26	7.22546e-05	1.982759e-23	3.412524e-08	5.115811e-27
	1.753209e-08	2.308014e-26	0.01041707	1.543833e-25	3.405121e-08	8.367207e-26	7.267327e-05	2.356907e-23
	7.041586e-05	2.036108e-23	3.405122e-08	8.36724e-26	0.01043061	1.26145e-25	2.081e-08	2.736696e-26
	3.412524e-08	5.116463e-27	7.082512e-05	2.368511e-23	2.081001e-08	2.736814e-26	0.01043017	1.446498e-25
1e+07	0.01535404	0.006564806	2.857967e-08	4.798875e-08	0.0006568563	0.001902377	8.656076e-08	1.413946e-07
	2.857967e-08	4.798875e-08	0.01534751	0.006564045	5.934558e-08	1.543097e-07	0.0006534847	0.001903356
	0.000656796	0.00190238	5.934557e-08	1.543097e-07	0.01521719	0.006589188	3.37495e-08	5.744385e-08
	8.656076e-08	1.413946e-07	0.000653424	0.001903365	3.37495e-08	5.744385e-08	0.01520928	0.006588831
2e+07	0.01999657	0.009279625	4.917402e-08	8.248297e-08	0.001105635	0.003888497	1.797278e-07	2.309426e-07
	4.917402e-08	8.248297e-08	0.01997097	0.009281557	8.453547e-08	2.784004e-07	0.001092836	0.003892809
	0.001105622	0.003888535	8.453547e-08	2.784004e-07	0.01991129	0.009375315	5.820817e-08	9.865475e-08
	1.797276e-07	2.309426e-07	0.001092827	0.003892844	5.820817e-08	9.865476e-08	0.01988045	0.009378971
3e+07	0.02406186	0.01010203	7.360103e-08	1.094206e-07	0.00193062	0.005559162	3.001222e-07	2.845758e-07
	7.360103e-08	1.094206e-07	0.0240061	0.0101143	1.051354e-07	3.960847e-07	0.001903316	0.005570797
	0.001930623	0.005559168	1.051354e-07	3.960847e-07	0.02402363	0.01022325	8.715344e-08	1.309021e-07
	3.001222e-07	2.845758e-07	0.001903315	0.005570802	8.715344e-08	1.309021e-07	0.02395675	0.01024019
4e+07	0.02776453	0.009855153	1.011219e-07	1.279846e-07	0.003094777	0.006958673	4.410725e-07	2.954494e-07
	1.011219e-07	1.279846e-07	0.02766987	0.009888139	1.24251e-07	5.089914e-07	0.003049197	0.006982965
	0.003094772	0.006958669	1.24251e-07	5.089914e-07	0.02777105	0.009984942	1.197515e-07	1.532847e-07
	4.410725e-07	2.954494e-07	0.003049192	0.006982963	1.197515e-07	1.532847e-07	0.02765788	0.01002763
5e+07	0.03110294	0.008770717	1.293225e-07	1.373597e-07	0.004652643	0.007972917	5.902735e-07	2.583855e-07
	1.293225e-07	1.373597e-07	0.03096374	0.008837485	1.415235e-07	6.174783e-07	0.004586614	0.008016083
	0.004652639	0.007972915	1.415235e-07	6.174783e-07	0.03115104	0.008896606	1.532238e-07	1.648215e-07
	5.902735e-07	2.583855e-07	0.00458661	0.008016081	1.532238e-07	1.648215e-07	0.03098502	0.008980668
6e+07	0.03402775	0.006992887	1.558937e-07	1.376777e-07	0.006347585	0.008640655	7.344325e-07	1.718583e-07
	1.558937e-07	1.376777e-07	0.03384233	0.007108026	1.56361e-07	7.223011e-07	0.006260806	0.008709575
	0.00634759	0.008640656	1.56361e-07	7.223011e-07	0.03411284	0.007104631	1.84799e-07	1.656122e-07
	7.344325e-07	1.718583e-07	0.006260809	0.008709575	1.84799e-07	1.656122e-07	0.03389216	0.007247476
7e+07	0.03647717	0.004640062	1.784806e-07	1.294781e-07	0.008109913	0.008945696	8.601805e-07	3.748731e-08
	1.784806e-07	1.294782e-07	0.03624797	0.004818448	1.682279e-07	8.242434e-07	0.008004004	0.009047322
	0.008109926	0.008945694	1.682279e-07	8.242434e-07	0.03659323	0.004729172	2.116711e-07	1.563007e-07
	8.601805e-07	3.748731e-08	0.008004013	0.009047319	2.116712e-07	1.563007e-07	0.036321	0.004948498
8e+07	0.0383927	0.001825967	1.948726e-07	1.138093e-07	0.009866689	0.008884433	9.546764e-07	-1.400063e-07
	1.948727e-07	1.138093e-07	0.0381261	0.002081759	1.766935e-07	9.241045e-07	0.009745167	0.009025322
	0.009866705	0.008884427	1.766936e-07	9.241045e-07	0.03853232	0.001885652	2.312281e-07	1.381413e-07
	9.546764e-07	-1.400063e-07	0.009745178	0.009025316	2.312281e-07	1.381413e-07	0.03821635	0.002198261
9e+07	0.03972782	-0.00133332	2.031019e-07	9.222063e-08	0.01154427	0.008466694	1.00624e-06	-3.528583e-07
	2.031019e-07	9.222064e-08	0.0394339	-0.0009875581	1.814285e-07	1.022714e-06	0.01141244	0.008652555
	0.01154429	0.008466687	1.814285e-07	1.022714e-06	0.0398823	-0.001308157	2.411592e-07	1.129677e-07
	1.00624e-06	-3.528583e-07	0.01141244	0.00865255	2.411593e-07	1.129677e-07	0.03953474	-0.0008873931
1e+08	0.04046603	-0.004711389	2.015608e-07	6.673176e-08	0.01306557	0.007712731	1.005036e-06	-5.904994e-07
	2.015608e-07	6.673176e-08	0.04015814	-0.004265531	1.822363e-07	1.120913e-06	0.01293027	0.00794801
	0.01306557	0.007712731	1.822363e-07	1.120913e-06	0.04062405	-0.004724805	2.3958e-07	8.314932e-08
	1.005036e-06	-5.904994e-07	0.01293027	0.00794801	2.3958e-07	8.314932e-08	0.04026097	-0.004183933
1.1e+08	0.04058948	-0.008294434	1.891953e-07	3.985258e-08	0.01436578	0.006702743	9.438184e-07	-8.392721e-07
	1.891953e-07	3.985258e-08	0.04028583	-0.007742957	1.79077e-07	1.2198e-06	0.01423544	0.006989927
	0.01436578	0.006702743	1.79077e-07	1.2198e-06	0.04074076	-0.008340244	2.251495e-07	5.163237e-08
	9.438184e-07	-8.392721e-07	0.01423544	0.006989927	2.251495e-07	5.163237e-08	0.04038326	-0.007671789
1.2e+08	0.04001047	-0.01188411	1.654599e-07	1.421642e-08	0.01542952	0.005457987	8.192933e-07	-1.084635e-06
	1.654599e-07	1.421642e-08	0.03972764	-0.01122432	1.720484e-07	1.320604e-06	0.01531294	0.005797788
	0.01542952	0.005457987	1.720484e-07	1.320604e-06	0.04015051	-0.01195919	1.972566e-07	2.156006e-08
	8.192933e-07	-1.084635e-06	0.01531294	0.005797788	1.972566e-07	2.156006e-08	0.03981957	-0.01116033
1.3e+08	0.03877242	-0.01534274	1.304624e-07	-7.392866e-09	0.01620444	0.004027481	6.311386e-07	-1.311168e-06
	1.304624e-07	-7.392866e-09	0.03852873	-0.01457567	1.616577e-07	1.424249e-06	0.01611078	0.004418481
	0.01620444	0.004027481	1.616577e-07	1.424249e-06	0.03889569	-0.0154437	1.560258e-07	-3.77198e-09
	6.311386e-07	-1.311168e-06	0.01611078	0.004418481	1.560258e-07	-3.77198e-09	0.03861376	-0.01451646
1.4e+08	0.03692276	-0.0185521	8.495422e-08	-2.220316e-08	0.01665684	0.002473502	3.826867e-07	-1.503287e-06
	8.495422e-08	-2.220316e-08	0.03673711	-0.01768329	1.485803e-07	1.531587e-06	0.01659512	0.002912038
	0.01665684	0.002473502	1.485803e-07	1.531587e-06	0.03702438	-0.01867457	1.023441e-07	-2.108057e-08
	3.826867e-07	-1.503287e-06	0.01659512	0.002912038	1.023441e-07	-2.108057e-08	0.03681411	-0.01762644
1.5e+08	0.03452486	-0.02140618	3.033393e-08	-2.759465e-08	0.0167676	0.0008643972	8.094436e-08	-1.646104e-06
	3.033393e-08	-2.759465e-08	0.03441545	-0.02044601	1.336651e-07	1.643333e-06	0.01674615	0.001344589
	0.0167676	0.0008643972	1.336651e-07	1.643333e-06	0.03460096	-0.021545	3.786472e-08	-2.726382e-08
	8.094436e-08	-1.646104e-06	0.01674615	0.001344589	3.786472e-08	-2.726382e-08	0.03448376	-0.02038908
1.6e+08	0.0316578	-0.0238129	-3.138216e-08	-2.124725e-08	0.01653243	-0.000728869	-2.635712e-07	-1.726286e-06
	-3.138216e-08	-2.124725e-08	0.03164073	-0.02277645	1.179157e-07	1.760028e-06	0.01655835	-0.0002149656
	0.01653243	-0.000728869	1.179157e-07	1.760028e-06	0.03170554	-0.02396231	-3.502815e-08	-1.957578e-08
	-2.635712e-07	-1.726286e-06	0.01655835	-0.0002149656	-3.502815e-08	-1.957578e-08	0.03170016	-0.0227171
1.7e+08	0.02841443	-0.02569636	-9.762333e-08	-1.28345e-09	0.01596182	-0.002235897	-6.3719e-07	-1.732849e-06
	-9.762333e-08	-1.28345e-09	0.02850252	-0.02460292	1.024607e-07	1.882005e-06	0.01604048	-0.00169801
	0.01596182	-0.002235897	1.024607e-07	1.882005e-06	0.02843216	-0.02585019	-1.132958e-07	4.204876e-09
	-6.3719e-07	-1.732849e-06	0.01604048	-0.00169801	-1.132958e-07	4.204876e-09	0.0285533	-0.02453895
1.8e+08	0.02489878	-0.026999	-1.653616e-07	3.360188e-08	0.01508054	-0.003589906	-1.02363e-06	-1.657889e-06
	-1.653616e-07	3.360188e-08	0.02510042	-0.02587119	8.851237e-08	2.009352e-06	0.01521516	-0.003039153
	0.01508054	-0.003589906	8.851237e-08	2.009352e-06	0.02488601	-0.0271508	-1.933605e-07	4.562206e-08
	-1.02363e-06	-1.657889e-06	0.01521516	-0.003039153	-1.933605e-07	4.562206e-08	0.02514318	-0.02580061
1.9e+08	0.02122274	-0.02768326	-2.312398e-07	8.403294e-08	0.01392655	-0.004730586	-1.4047e-06	-1.497169e-06
	-2.312398e-07	8.403294e-08	0.02154118	-0.02654597	7.731638e-08	2.141894e-06	0.01411789	-0.004178988
	0.01392655	-0.004730586	7.731638e-08	2.141894e-06	0.02118027	-0.02782652	-2.712573e-07	1.054151e-07
	-1.4047e-06	-1.497169e-06	0.01411789	-0.004178988	-2.712573e-07	1.054151e-07	0.02157683	-0.02646703
2e+08	0.01750254	-0.02773268	-2.917253e-07	1.498732e-07	0.01254938	-0.005606675	-1.761134e-06	-1.250552e-06
	-2.917253e-07	1.498732e-07	0.0179353	-0.02661186	7.009378e-08	2.279174e-06	0.01279549	-0.005066593
	0.01254938	-0.005606675	7.009378e-08	2.279174e-06	0.01743245	-0.02786104	-3.428163e-07	1.83426e-07
	-1.761134e-06	-1.250552e-06	0.01279549	-0.005066593	-3.428163e-07	1.83426e-07	0.01796505	-0.02652308
2.1e+08	0.01385485	-0.02715238	-3.432836e-07	2.30181e-07	0.01100803	-0.006178134	-2.073514e-06	-9.222425e-07
	-3.432836e-07	2.30181e-07	0.01439352	-0.02607368	6.797798e-08	2.420459e-06	0.01130415	-0.005661656
	0.01100803	-0.006178134	6.797798e-08	2.420459e-06	0.01376053	-0.02725989	-4.038665e-07	2.785478e-07
	-2.073514e-06	-9.222425e-07	0.01130415	-0.005661656	-4.038665e-07	2.785478e-07	0.01441877	-0.02597388
2.2e+08	0.01039294	-0.02596877	-3.825634e-07	3.23205e-07	0.009368434	-0.006417857	-2.323254e-06	-5.208169e-07
	-3.825634e-07	3.23205e-07	0.01102323	-0.02495622	7.195041e-08	2.564755e-06	0.009707083	-0.005936166
	0.009368434	-0.006417857	7.195041e-08	2.564755e-06	0.010279	-0.02605014	-4.504532e-07	3.887208e-07
	-2.323254e-06	-5.208169e-07	0.009707083	-0.005936166	-4.504532e-07	3.887208e-07	0.01104557	-0.02484451
2.3e+08	0.007222772	-0.02422858	-4.065827e-07	4.264231e-07	0.007700682	-0.006312818	-2.49357e-06	-5.903449e-08
	-4.065827e-07	4.264231e-07	0.007924931	-0.02330323	8.277885e-08	2.710835e-06	0.008071809	-0.005875578
	0.007700682	-0.006312818	8.277885e-08	2.710835e-06	0.007094991	-0.02427945	-4.790564e-07	5.10979e-07
	-2.49357e-06	-5.903449e-08	0.008071809	-0.005875578	-4.790564e-07	5.10979e-07	0.007946053	-0.02317908
2.4e+08	0.004439452	-0.02199712	-4.129064e-07	5.366252e-07	0.006076038	-0.00586463	-2.570417e-06	4.465683e-07
	-4.129064e-07	5.366252e-07	0.005188873	-0.02117584	1.009628e-07	2.857293e-06	0.006467364	-0.005479403
	0.006076038	-0.00586463	1.009628e-07	2.857293e-06	0.004304535	-0.02201432	-4.867985e-07	6.415471e-07
	-2.570417e-06	4.465683e-07	0.006467364	-0.005479403	-4.867985e-07	6.415471e-07	0.005210537	-0.02103907
2.5e+08	0.002123956	-0.01935594	-3.998042e-07	6.500372e-07	0.004563904	-0.005089462	-2.54332e-06	9.762896e-07
	-3.998042e-07	6.500372e-07	0.002892133	-0.01865037	1.266895e-07	3.002599e-06	0.004961373	-0.004761212
	0.004563904	-0.005089462	1.266895e-07	3.002599e-06	0.00198933	-0.01933771	-4.716289e-07	7.759861e-07
	-2.54332e-06	9.762896e-07	0.004961373	-0.004761212	-4.716289e-07	7.759861e-07	0.002916087	-0.01850116
2.6e+08	0.000340375	-0.01639991	-3.663791e-07	7.624817e-07	0.003228874	-0.00401735	-2.40607e-06	1.508055e-06
	-3.663791e-07	7.624817e-07	0.001096037	-0.01581557	1.598053e-07	3.145172e-06	0.003617217	-0.003748038
	0.003228874	-0.00401735	1.598053e-07	3.145172e-06	0.0002138776	-0.01634604	-4.324743e-07	9.093813e-07
	-2.40607e-06	1.508055e-06	0.003617217	-0.003748038	-4.324743e-07	9.093813e-07	0.001123946	-0.01565447
2.7e+08	-0.0008662428	-0.01323378	-3.126578e-07	8.695677e-07	0.002127998	-0.002690898	-2.157236e-06	2.018361e-06
	-3.126578e-07	8.695677e-07	-0.0001558046	-0.01276947	1.998041e-07	3.283462e-06	0.002491385	-0.00247921
	0.002127998	-0.002690898	1.998041e-07	3.283462e-06	-0.0009766914	-0.01314573	-3.693443e-07	1.036564e-06
	-2.157236e-06	2.018361e-06	0.002491385	-0.00247921	-3.693443e-07	1.036564e-06	-0.0001224282	-0.01259737
2.8e+08	-0.001471358	-0.009968376	-2.396352e-07	9.669004e-07	0.001308367	-0.001163462	-1.80047e-06	2.483323e-06
	-2.396352e-07	9.669004e-07	-0.0008388425	-0.009615874	2.45835e-07	3.416026e-06	0.001631117	-0.001004676
	0.001308367	-0.001163462	2.45835e-07	3.416026e-06	-0.001558115	-0.009849333	-2.833855e-07	1.152354e-06
	-1.80047e-06	2.483323e-06	0.001631117	-0.001004676	-2.833855e-07	1.152354e-06	-0.0007987048	-0.009433972
2.9e+08	-0.001471674	-0.0067167	-1.492716e-07	1.050298e-06	0.0008051427	0.0005031377	-1.344571e-06	2.87978e-06
	-1.492716e-07	1.050298e-06	-0.0009482578	-0.006460736	2.967297e-07	3.541612e-06	0.001072457	0.0006171285
	0.0008051426	0.0005031377	2.967297e-07	3.541612e-06	-0.001527746	-0.006571456	-1.76878e-07	1.251818e-06
	-1.344571e-06	2.87978e-06	0.001072457	0.0006171285	-1.76878e-07	1.251818e-06	-0.0009003543	-0.006270481
3e+08	-0.000885092	-0.003589809	-4.443837e-08	1.116005e-06	0.0006400866	0.002241243	-8.033212e-07	3.186413e-06
	-4.443837e-08	1.116005e-06	-0.0004989232	-0.003408392	3.510476e-07	3.659223e-06	0.0008387833	0.002321744
	0.0006400866	0.002241243	3.510476e-07	3.659223e-06	-0.0009044873	-0.003424665	-5.317482e-08	1.330515e-06
	-8.033212e-07	3.186413e-06	0.0008387833	0.002321744	-5.317482e-08	1.330515e-06	-0.0004425844	-0.003211429
3.1e+08	0.0002501037	-0.0006928905	7.118315e-08	1.160894e-06	0.0008206775	0.003980226	-1.950625e-07	3.384806e-06
	7.118315e-08	1.160894e-06	0.0004753423	-0.0005579425	4.07137e-07	3.76818e-06	0.0009398736	0.004041406
	0.0008206775	0.003980226	4.07137e-07	3.76818e-06	0.0002720559	-0.0005154329	8.341451e-08	1.384732e-06
	-1.950625e-07	3.384806e-06	0.0009398737	0.004041406	8.341451e-08	1.384732e-06	0.0005404118	-0.000356032
3.2e+08	0.001876797	0.001878465	1.932458e-07	1.182632e-06	0.001339831	0.005649472	4.579359e-07	3.460416e-06
	1.932458e-07	1.182632e-06	0.001923183	0.00200017	4.632083e-07	3.868162e-06	0.001371554	0.005707869
	0.001339831	0.005649472	4.632083e-07	3.868162e-06	0.001943172	0.002059651	2.277908e-07	1.411685e-06
	4.579359e-07	3.460416e-06	0.001371554	0.005707869	2.277908e-07	1.411685e-06	0.001996885	0.002205233
3.3e+08	0.003921272	0.004041608	3.169166e-07	1.179822e-06	0.002176231	0.007181338	1.130323e-06	3.403395e-06
	3.169166e-07	1.179822e-06	0.003777736	0.004187232	5.174151e-07	3.959232e-06	0.002115924	0.007255252
	0.002176231	0.007181338	5.174151e-07	3.959232e-06	0.004033341	0.004217282	3.742735e-07	1.409683e-06
	1.130323e-06	3.403395e-06	0.002115924	0.007255252	3.742735e-07	1.409683e-06	0.003859575	0.004393706
3.4e+08	0.006296028	0.005729684	4.370824e-07	1.152094e-06	0.003295261	0.008513976	1.794672e-06	3.209221e-06
	4.370824e-07	1.152094e-06	0.005959188	0.005938885	5.679378e-07	4.041841e-06	0.003142151	0.008622748
	0.003295261	0.008513976	5.679378e-07	4.041841e-06	0.006453123	0.005890332	5.168407e-07	1.378242e-06
	1.794672e-06	3.209221e-06	0.003142151	0.008622748	5.168407e-07	1.378242e-06	0.00604829	0.006145167
3.5e+08	0.008903077	0.006893871	5.485718e-07	1.100158e-06	0.004650475	0.009593901	2.422616e-06	2.879113e-06
	5.485718e-07	1.100158e-06	0.008377762	0.007207196	6.130664e-07	4.11682e-06	0.004407795	0.009757116
	0.004650475	0.009593901	6.130664e-07	4.11682e-06	0.00910254	0.007030119	6.493884e-07	1.318144e-06
	2.422616e-06	2.879113e-06	0.004407795	0.009757116	6.493884e-07	1.318144e-06	0.008472914	0.007411902
3.6e+08	0.01163759	0.00750496	6.463827e-07	1.025799e-06	0.006185559	0.01037819	2.986056e-06	2.420204e-06
	6.463827e-07	1.025799e-06	0.01093703	0.007962125	6.512771e-07	4.185342e-06	0.005860591	0.01061484
	0.006185559	0.01037819	6.512771e-07	4.185342e-06	0.01187481	0.00760799	7.659978e-07	1.231442e-06
	2.986056e-06	2.420204e-06	0.005860591	0.01061484	7.659978e-07	1.231442e-06	0.01103673	0.008164162
3.7e+08	0.01439175	0.00755419	7.25904e-07	9.318319e-07	0.007836677	0.01083624	3.458395e-06	1.845454e-06
	7.25904e-07	9.318319e-07	0.01353742	0.008192331	6.812997e-07	4.248884e-06	0.007440633	0.0111639
	0.007836677	0.01083624	6.812997e-07	4.248884e-06	0.01466029	0.007616147	8.611973e-07	1.121409e-06
	3.458395e-06	1.845454e-06	0.007440633	0.0111639	8.611973e-07	1.121409e-06	0.01363994	0.008390955
3.8e+08	0.01705872	0.007053345	7.831238e-07	8.220101e-07	0.009535122	0.01095101	3.815744e-06	1.173315e-06
	7.831238e-07	8.220101e-07	0.01607976	0.007905312	7.021743e-07	4.309165e-06	0.009082842	0.011385
	0.009535122	0.01095101	7.021743e-07	4.309165e-06	0.01735052	0.007067717	9.302101e-07	9.924337e-07
	3.815744e-06	1.173315e-06	0.009082842	0.011385	9.302101e-07	9.924337e-07	0.01618323	0.008100171
3.9e+08	0.01953643	0.0060341	8.148144e-07	7.008943e-07	0.01121015	0.01071975	4.038044e-06	4.271426e-07
	8.148144e-07	7.008943e-07	0.0184688	0.007126864	7.132934e-07	4.368083e-06	0.01071963	0.0112724
	0.01121015	0.01071975	7.132934e-07	4.368083e-06	0.0198421	0.005996046	9.691748e-07	8.498667e-07
	4.038044e-06	4.271426e-07	0.01071963	0.0112724	9.691748e-07	8.498667e-07	0.01857132	0.007318022
4e+08	0.02173131	0.004546663	8.186888e-07	5.736862e-07	0.01279188	0.01015402	4.110064e-06	-3.656132e-07
	8.186888e-07	5.736862e-07	0.02061656	0.005899911	7.144316e-07	4.427645e-06	0.01228368	0.01083404
	0.01279188	0.01015402	7.144316e-07	4.427645e-06	0.02204048	0.004453281	9.753332e-07	6.998298e-07
	4.110064e-06	-3.656132e-07	0.01228368	0.01083404	9.753332e-07	6.998298e-07	0.02071623	0.006087851
4.1e+08	0.02356153	0.002657744	7.935215e-07	4.460353e-07	0.01421419	0.009279322	4.022223e-06	-1.174418e-06
	7.935215e-07	4.460353e-07	0.02244527	0.004282739	7.057606e-07	4.489884e-06	0.01371063	0.01009125
	0.01421419	0.009279322	7.057606e-07	4.489884e-06	0.02386325	0.002508267	9.471782e-07	5.489878e-07
	4.022223e-06	-1.174418e-06	0.01371063	0.01009125	9.471782e-07	5.489878e-07	0.02254034	0.004468355
4.2e+08	0.02495987	0.000447968	7.39232e-07	3.238247e-07	0.01541738	0.008133999	3.771198e-06	-1.966822e-06
	7.39232e-07	3.238247e-07	0.02389007	0.002346716	6.878505e-07	4.556795e-06	0.01494175	0.009077875
	0.01541738	0.008133999	6.878505e-07	4.556795e-06	0.02524306	0.0002438712	8.845544e-07	4.042949e-07
	3.771198e-06	-1.966822e-06	0.01494175	0.009077875	8.845544e-07	4.042949e-07	0.02397899	0.002531273
4.3e+08	0.02587605	-0.001991204	6.569253e-07	2.129425e-07	0.01635066	0.00676772	3.360296e-06	-2.709747e-06
	6.569253e-07	2.129425e-07	0.02490111	0.0001735762	6.616588e-07	4.630249e-06	0.01592627	0.007838874
	0.01635066	0.00676772	6.616588e-07	4.630249e-06	0.02612996	-0.002246184	7.887108e-07	2.727246e-07
	3.360296e-06	-2.709747e-06	0.01592627	0.007838874	7.887108e-07	2.727246e-07	0.02498263	0.000358666
4.4e+08	0.02627836	-0.004560912	5.488903e-07	1.190475e-07	0.01697424	0.005239465	2.799557e-06	-3.370842e-06
	5.488903e-07	1.190475e-07	0.02544515	-0.002147625	6.285061e-07	4.711929e-06	0.01662347	0.006428532
	0.01697424	0.005239465	6.285061e-07	4.711929e-06	0.02649303	-0.004860861	6.623008e-07	1.609898e-07
	2.799557e-06	-3.370842e-06	0.01662347	0.006428532	6.623008e-07	1.609898e-07	0.02551837	-0.001960158
4.5e+08	0.0261547	-0.007158591	4.185526e-07	4.733398e-08	0.01726102	0.00361515	2.10559e-06	-3.919855e-06
	4.185526e-07	4.733398e-08	0.02550652	-0.004523794	5.900401e-07	4.803258e-06	0.01700433	0.004908261
	0.01726102	0.00361515	5.900401e-07	4.803258e-06	0.02632141	-0.00749558	5.093283e-07	7.526378e-08
	2.10559e-06	-3.919855e-06	0.01700433	0.004908261	5.093283e-07	7.526378e-08	0.02557095	-0.004331922
4.6e+08	0.02551283	-0.009681757	2.703831e-07	2.306842e-09	0.01719768	0.001964951	1.301122e-06	-4.32996e-06
	2.703831e-07	2.306842e-09	0.0250875	-0.006861177	5.48188e-07	4.905337e-06	0.01705277	0.003344126
	0.01719768	0.001964951	5.48188e-07	4.905337e-06	0.02562448	-0.01004611	3.350403e-07	2.091099e-08
	1.301122e-06	-4.32996e-06	0.01705277	0.003344126	3.350403e-07	2.091099e-08	0.02514308	-0.006662785
4.7e+08	0.02437993	-0.01203179	1.097623e-07	-1.242864e-08	0.01678536	0.0003604531	4.142856e-07	-4.579002e-06
	1.097623e-07	-1.242864e-08	0.02420803	-0.00906875	5.050972e-07	5.018893e-06	0.01676628	0.001804174
	0.01678536	0.0003604531	5.050972e-07	5.018893e-06	0.02443138	-0.01241243	1.457662e-07	2.241087e-09
	4.142856e-07	-4.579002e-06	0.01676628	0.001804174	1.457662e-07	2.241087e-09	0.02425511	-0.008861726
4.8e+08	0.02280147	-0.01411754	-5.719754e-08	5.648604e-09	0.01603966	-0.001128284	-5.223443e-07	-4.650577e-06
	-5.719754e-08	5.648604e-09	0.02290479	-0.01106147	4.630647e-07	5.144229e-06	0.01615613	0.0003556668
