!$
! Info: Touchstone file created by Circ.  Input file=Tx_12in_Rx_85ohms_TxVia_35mils_RxVia_45mils.circ
!$
# Hz S RI R 50
0	0.009694551	1.529253e-25	-4.021688e-12	4.594213e-28	8.493808e-05	1.820579e-23	-3.096444e-12	2.273984e-28
	-4.02169e-12	4.594215e-28	0.009691091	1.802756e-25	-1.242247e-12	7.464493e-28	8.358992e-05	2.191786e-23
	8.546136e-05	1.844279e-23	-1.242243e-12	7.464488e-28	0.009702595	1.492877e-25	-3.403599e-12	4.889982e-28
	-3.096445e-12	2.273986e-28	8.174192e-05	2.202579e-23	-3.403601e-12	4.889987e-28	0.009704202	1.689123e-25
1e+07	0.01217658	-0.01174402	7.800689e-12	2.742261e-12	0.0003601103	0.002214357	7.994218e-12	7.378837e-12
	7.800689e-12	2.742261e-12	0.01215953	-0.01154669	6.368436e-12	5.622709e-13	0.0004466586	0.00220586
	0.0003601343	0.002214358	6.368436e-12	5.622709e-13	0.01379067	-0.01143858	5.100639e-12	2.431361e-12
	7.994217e-12	7.378837e-12	0.0004465982	0.00220587	5.100639e-12	2.431361e-12	0.01213546	-0.01153156
2e+07	0.0106584	-0.02639794	6.82239e-12	1.825661e-12	0.001194273	0.004274534	4.325101e-12	1.353985e-11
	6.822391e-12	1.825662e-12	0.0108158	-0.02608405	7.272552e-12	-6.084026e-12	0.001299592	0.004184302
	0.001194281	0.004274519	7.272552e-12	-6.084026e-12	0.01228048	-0.02650541	4.375647e-12	-3.530551e-12
	4.325101e-12	1.353985e-11	0.001299585	0.004184337	4.375649e-12	-3.530551e-12	0.01080204	-0.02604274
3e+07	0.004408931	-0.04115555	4.4167e-14	1.167151e-13	0.002544559	0.005960573	-4.615087e-12	2.034058e-11
	4.41674e-14	1.167152e-13	0.004671086	-0.04082763	3.720111e-12	-1.470921e-11	0.002585075	0.005858422
	0.002544559	0.00596057	3.720111e-12	-1.470921e-11	0.006007138	-0.04149897	-5.430822e-12	-1.000184e-11
	-4.615087e-12	2.034058e-11	0.002585075	0.005858428	-5.430821e-12	-1.000184e-11	0.004664054	-0.04077033
4e+07	-0.005683197	-0.05409797	-1.298563e-11	7.354877e-13	0.004232525	0.007225993	-1.901737e-11	3.089757e-11
	-1.298563e-11	7.354874e-13	-0.005365099	-0.05378024	-5.606806e-12	-2.300083e-11	0.004211128	0.007136587
	0.004232527	0.007225994	-5.606806e-12	-2.300083e-11	-0.004143922	-0.05464689	-2.453068e-11	-1.314341e-11
	-1.901737e-11	3.089757e-11	0.004211122	0.007136585	-2.453068e-11	-1.314341e-11	-0.005367936	-0.05370918
5e+07	-0.01878347	-0.06423729	-3.103721e-11	6.965869e-12	0.006139592	0.008009651	-3.709607e-11	4.804039e-11
	-3.103721e-11	6.965869e-12	-0.01844678	-0.06393115	-2.072365e-11	-2.88492e-11	0.00606173	0.007952344
	0.006139593	0.008009651	-2.072365e-11	-2.88492e-11	-0.0173353	-0.06497152	-5.124199e-11	-8.338796e-12
	-3.709607e-11	4.804039e-11	0.006061726	0.007952343	-5.124199e-11	-8.338795e-12	-0.01844749	-0.06384658
6e+07	-0.03397371	-0.07092189	-5.187407e-11	2.128137e-11	0.00813486	0.008281577	-5.617266e-11	7.362792e-11
	-5.187406e-11	2.128137e-11	-0.03364493	-0.07061674	-4.097758e-11	-3.016184e-11	0.008009289	0.008272684
	0.008134858	0.008281577	-4.097758e-11	-3.016184e-11	-0.03264552	-0.07182086	-8.23611e-11	7.937105e-12
	-5.617266e-11	7.362792e-11	0.008009291	0.008272683	-8.236111e-11	7.937104e-12	-0.03364491	-0.07051781
7e+07	-0.05027113	-0.07378074	-7.229066e-11	4.531305e-11	0.01008645	0.008046201	-7.286495e-11	1.085206e-10
	-7.229065e-11	4.531305e-11	-0.04996643	-0.07346025	-6.506674e-11	-2.500518e-11	0.009925209	0.008099017
	0.01008645	0.008046203	-6.506674e-11	-2.500518e-11	-0.04908814	-0.07482161	-1.133568e-10	3.803535e-11
	-7.286495e-11	1.085206e-10	0.009925216	0.008099013	-1.133568e-10	3.803535e-11	-0.04996625	-0.07334548
8e+07	-0.06667571	-0.07270678	-8.832222e-11	7.957633e-11	0.01187114	0.007340517	-8.33574e-11	1.524226e-10
	-8.832221e-11	7.957633e-11	-0.06640237	-0.07235352	-9.104629e-11	-1.172347e-11	0.01168919	0.007464905
	0.01187113	0.007340521	-9.104629e-11	-1.172347e-11	-0.06565958	-0.07386454	-1.386431e-10	8.279614e-11
	-8.33574e-11	1.524226e-10	0.0116892	0.007464898	-1.386431e-10	8.279614e-11	-0.06640167	-0.0722212
9e+07	-0.08222274	-0.06783967	-9.543596e-11	1.233205e-10	0.01338218	0.006229536	-8.36066e-11	2.037978e-10
	-9.543595e-11	1.233205e-10	-0.08198211	-0.06743908	-1.163648e-10	1.102425e-11	0.013197	0.006431551
	0.01338217	0.00622954	-1.163648e-10	1.102425e-11	-0.08139263	-0.06908813	-1.518161e-10	1.413238e-10
	-8.36066e-11	2.037978e-10	0.01319701	0.006431545	-1.518161e-10	1.413238e-10	-0.08197972	-0.06728765
1e+08	-0.09602592	-0.05953766	-8.732824e-11	1.752523e-10	0.01453547	0.004800217	-6.843462e-11	2.604796e-10
	-8.732824e-11	1.752523e-10	-0.09582739	-0.0590857	-1.378457e-10	4.590844e-11	0.01436847	0.005082858
	0.01453547	0.004800217	-1.378457e-10	4.590844e-11	-0.09540818	-0.06085415	-1.442304e-10	2.124246e-10
	-6.843462e-11	2.604796e-10	0.01436847	0.005082858	-1.442304e-10	2.124246e-10	-0.09582164	-0.05891419
1.1e+08	-0.1073424	-0.04841444	-5.775981e-11	2.174506e-10	0.01527122	0.003152061	-4.525174e-11	3.028096e-10
	-5.775981e-11	2.174506e-10	-0.1071873	-0.04784156	-1.383844e-10	7.607793e-11	0.01514427	0.003498971
	0.01527122	0.003152061	-1.383844e-10	7.607793e-11	-0.1069557	-0.0497179	-1.089976e-10	2.667466e-10
	-4.525174e-11	3.028096e-10	0.01514427	0.003498971	-1.089976e-10	2.667466e-10	-0.1071753	-0.04764931
1.2e+08	-0.1156375	-0.03511551	-3.237867e-11	2.47078e-10	0.0155552	0.001396133	-1.696183e-11	3.398974e-10
	-3.237867e-11	2.47078e-10	-0.1154651	-0.03441145	-1.374383e-10	9.804084e-11	0.01547587	0.00179611
	0.0155552	0.001396133	-1.374383e-10	9.804084e-11	-0.115447	-0.0363661	-7.599021e-11	3.059722e-10
	-1.696183e-11	3.398974e-10	0.01547587	0.00179611	-7.599021e-11	3.059722e-10	-0.1154436	-0.03419852
1.3e+08	-0.1205024	-0.02043432	-2.502108e-12	2.709915e-10	0.01538217	-0.0003559385	1.899344e-11	3.713572e-10
	-2.502108e-12	2.709915e-10	-0.1202708	-0.01961195	-1.336597e-10	1.20766e-10	0.01535887	8.49843e-05
	0.01538217	-0.0003559386	-1.336597e-10	1.20766e-10	-0.1204829	-0.02160548	-3.629848e-11	3.381736e-10
	1.899344e-11	3.713572e-10	0.01535887	8.498432e-05	-3.629848e-11	3.381736e-10	-0.1202366	-0.01937961
1.4e+08	-0.1217395	-0.005229268	3.321836e-11	2.876401e-10	0.01477144	-0.001996681	6.069979e-11	3.947181e-10
	3.321836e-11	2.876401e-10	-0.1214167	-0.004314429	-1.255911e-10	1.440379e-10	0.01481025	-0.001529154
	0.01477144	-0.001996681	-1.255911e-10	1.440379e-10	-0.1218662	-0.006300707	1.158161e-11	3.608663e-10
	6.069979e-11	3.947181e-10	0.01481025	-0.001529154	1.158161e-11	3.608663e-10	-0.1213666	-0.004065248
1.5e+08	-0.1193586	0.009628605	7.28899e-11	2.961509e-10	0.0137652	-0.003427236	1.064542e-10	4.0846e-10
	7.28899e-11	2.961509e-10	-0.1189239	0.01060093	-1.130571e-10	1.663762e-10	0.01386881	-0.002949168
	0.0137652	-0.003427236	-1.130571e-10	1.663762e-10	-0.1196067	0.008672172	6.513796e-11	3.726587e-10
	1.064542e-10	4.0846e-10	0.01386881	-0.002949168	6.513796e-11	3.726587e-10	-0.1188555	0.01086316
1.6e+08	-0.1135704	0.02330196	1.143128e-10	2.951502e-10	0.01242609	-0.004561405	1.536306e-10	4.112662e-10
	1.143128e-10	2.951502e-10	-0.1130158	0.02429121	-9.633661e-11	1.863709e-10	0.0125931	-0.004089683
	0.01242609	-0.004561405	-9.633661e-11	1.863709e-10	-0.1139151	0.02247135	1.213907e-10	3.716058e-10
	1.536306e-10	4.112662e-10	0.0125931	-0.004089683	1.213907e-10	3.716058e-10	-0.1129278	0.02456172
1.7e+08	-0.1047724	0.03503025	1.548992e-10	2.838971e-10	0.01083421	-0.005329269	1.992456e-10	4.02579e-10
	1.548992e-10	2.838971e-10	-0.104103	0.03599398	-7.613004e-11	2.027347e-10	0.01105881	-0.004880508
	0.01083421	-0.005329269	-7.613004e-11	2.027347e-10	-0.1051886	0.03433211	1.768181e-10	3.566386e-10
	1.992456e-10	4.02579e-10	0.01105881	-0.004880508	1.768181e-10	3.566386e-10	-0.1039955	0.03626747
1.8e+08	-0.09352537	0.04416878	1.918376e-10	2.62387e-10	0.009083755	-0.005680478	2.401685e-10	3.826858e-10
	1.918376e-10	2.62387e-10	-0.09275988	0.04506653	-5.353206e-11	2.144251e-10	0.009355768	-0.005269828
	0.009083755	-0.005680478	-5.353206e-11	2.144251e-10	-0.09398878	0.04360575	2.275882e-10	3.277015e-10
	2.401685e-10	3.826858e-10	0.009355768	-0.005269828	2.275882e-10	3.277015e-10	-0.09263465	0.0453376
1.9e+08	-0.08052413	0.0502225	2.222977e-10	2.314139e-10	0.007278982	-0.005587192	2.733572e-10	3.527493e-10
	2.222977e-10	2.314139e-10	-0.07969357	0.05101945	-2.995115e-11	2.207715e-10	0.007584196	-0.005227163
	0.007278982	-0.005587192	-2.995115e-11	2.207715e-10	-0.08101091	0.04979333	2.698428e-10	2.858345e-10
	2.733572e-10	3.527493e-10	0.007584196	-0.005227163	2.698428e-10	2.858345e-10	-0.07955403	0.05128315
2e+08	-0.06655991	0.05287308	2.436585e-10	1.925758e-10	0.005529361	-0.005046501	2.96102e-10	3.14769e-10
	2.436585e-10	1.925758e-10	-0.06570602	0.05354355	-6.976389e-12	2.215755e-10	0.005850232	-0.004745885
	0.005529361	-0.005046501	-6.976389e-12	2.215755e-10	-0.06704757	0.05257276	3.000119e-10	2.331755e-10
	2.96102e-10	3.14769e-10	0.005850232	-0.004745885	3.000119e-10	2.331755e-10	-0.06555705	0.05379585
2.1e+08	-0.05247789	0.0519979	2.537408e-10	1.482118e-10	0.00394387	-0.00408198	3.062549e-10	2.714756e-10
	2.537408e-10	1.482118e-10	-0.05165034	0.05252823	1.379369e-11	2.171586e-10	0.004260492	-0.003844958
	0.00394387	-0.00408198	1.379369e-11	2.171586e-10	-0.05294569	0.0518178	3.151311e-10	1.728686e-10
	3.062549e-10	2.714756e-10	0.004260492	-0.003844958	3.151311e-10	1.728686e-10	-0.051498	0.05276641
2.2e+08	-0.03912997	0.04767907	2.510206e-10	1.012677e-10	0.002624495	-0.00274394	3.024223e-10	2.261614e-10
	2.510206e-10	1.012677e-10	-0.03838297	0.04806977	3.093531e-11	2.083405e-10	0.002915815	-0.002569458
	0.002624495	-0.00274394	3.093531e-11	2.083405e-10	-0.03955955	0.04760727	3.131297e-10	1.088762e-10
	3.024223e-10	2.261614e-10	0.002915815	-0.002569458	3.131297e-10	1.088762e-10	-0.03823413	0.04829282
2.3e+08	-0.0273256	0.04020134	2.347988e-10	5.509822e-11	0.001659287	-0.001107929	2.841053e-10	1.824608e-10
	2.347988e-10	5.509822e-11	-0.02671387	0.04046831	4.336502e-11	1.963469e-10	0.001904479	-0.0009893927
	0.001659287	-0.001107929	4.336502e-11	1.963469e-10	-0.02770159	0.04022302	2.930569e-10	4.570459e-11
	2.841053e-10	1.824608e-10	0.001904479	-0.0009893927	2.930569e-10	4.570459e-11	-0.02657574	0.04067705
2.4e+08	-0.01778326	0.03003784	2.053081e-10	1.321867e-11	0.001115547	0.0007288226	2.517751e-10	1.44099e-10
	2.053081e-10	1.321867e-11	-0.01735774	0.03021244	5.045686e-11	1.826582e-10	0.001295476	0.0008034901
	0.001115547	0.0007288226	5.045686e-11	1.826582e-10	-0.01809381	0.03013591	2.552192e-10	-1.193512e-11
	2.517751e-10	1.44099e-10	0.001295476	0.0008034901	2.552192e-10	-1.193512e-11	-0.01723736	0.03040966
2.5e+08	-0.0110858	0.01782358	1.637374e-10	-2.097022e-11	0.001033899	0.002653121	2.068731e-10	1.14626e-10
	1.637374e-10	-2.097022e-11	-0.01088942	0.0179516	5.20896e-11	1.688262e-10	0.001132553	0.002701032
	0.001033899	0.002653121	5.20896e-11	1.688262e-10	-0.01132304	0.01797942	2.012044e-10	-5.949913e-11
	2.068731e-10	1.14626e-10	0.001132553	0.002701032	2.012044e-10	-5.949913e-11	-0.0107931	0.01814199
2.6e+08	-0.007643336	0.004317789	1.12169e-10	-4.445463e-11	0.001424043	0.004543423	1.51734e-10	9.716328e-11
	1.12169e-10	-4.445463e-11	-0.007706983	0.004457172	4.861676e-11	1.562908e-10	0.001429857	0.004585897
	0.001424043	0.004543423	4.861676e-11	1.562908e-10	-0.007803579	0.004512148	1.337906e-10	-9.297485e-11
	1.51734e-10	9.716328e-11	0.001429857	0.004585897	1.337906e-10	-9.297485e-11	-0.007639861	0.004647114
2.7e+08	-0.007666558	-0.009642933	5.343488e-11	-5.484677e-11	0.002262927	0.006278759	8.945328e-11	9.418182e-11
	5.343488e-11	-5.484677e-11	-0.008005809	-0.009425392	4.076795e-11	1.46231e-10	0.002169881	0.006340149
	0.002262927	0.006278759	4.076795e-11	1.46231e-10	-0.007750357	-0.009428984	5.674436e-11	-1.091964e-10
	8.945328e-11	9.418182e-11	0.002169881	0.006340149	5.674436e-11	-1.091964e-10	-0.007971364	-0.009228134
2.8e+08	-0.01115326	-0.0231973	-9.091296e-12	-5.056641e-11	0.003495764	0.007748073	2.369454e-11	1.07324e-10
	-9.091296e-12	-5.056641e-11	-0.01176602	-0.02283017	2.950471e-11	1.394761e-10	0.00330416	0.007854303
	0.003495764	0.007748073	2.950471e-11	1.394761e-10	-0.01116518	-0.02298142	-2.546203e-11	-1.060793e-10
	2.369454e-11	1.07324e-10	0.00330416	0.007854303	-2.546203e-11	-1.060793e-10	-0.01176573	-0.02261689
2.9e+08	-0.01788931	-0.035514	-7.174276e-11	-3.0945e-11	0.005039962	0.008858944	-4.153972e-11	1.372852e-10
	-7.174276e-11	-3.0945e-11	-0.01875463	-0.03492601	1.586252e-11	1.364873e-10	0.004756817	0.00903584
	0.005039962	0.008858944	1.586252e-11	1.364873e-10	-0.01783742	-0.03531173	-1.079834e-10	-8.274992e-11
	-4.153972e-11	1.372852e-10	0.004756817	0.00903584	-1.079834e-10	-8.274992e-11	-0.01878773	-0.03468759
3e+08	-0.02746403	-0.04584405	-1.308157e-10	3.751001e-12	0.00679161	0.009544673	-1.021551e-10	1.837599e-10
	-1.308157e-10	3.751001e-12	-0.0285423	-0.04496915	8.130042e-13	1.374092e-10	0.006430595	0.009816206
	0.00679161	0.009544673	8.130042e-13	1.374092e-10	-0.02735929	-0.04566809	-1.859406e-10	-3.95683e-11
	-1.021551e-10	1.837599e-10	0.006430595	0.009816206	-1.859406e-10	-3.95683e-11	-0.02860566	-0.04469663
3.1e+08	-0.0392988	-0.05356671	-1.828719e-10	5.236e-11	0.008633768	0.009768964	-1.542143e-10	2.454493e-10
	-1.828719e-10	5.236e-11	-0.04053323	-0.05234899	-1.487205e-11	1.421708e-10	0.008214683	0.01015552
	0.008633768	0.009768964	-1.487205e-11	1.421708e-10	-0.03915422	-0.05342641	-2.547312e-10	2.194567e-11
	-1.542143e-10	2.454493e-10	0.008214683	0.01015552	-2.547312e-10	2.194567e-11	-0.04062146	-0.05203417
3.2e+08	-0.05268614	-0.05822568	-2.2488e-10	1.130003e-10	0.0104456	0.009527766	-1.941716e-10	3.201313e-10
	-2.2488e-10	1.130003e-10	-0.0540056	-0.05662382	-3.060453e-11	1.506284e-10	0.009993388	0.01004458
	0.0104456	0.009527766	-3.060453e-11	1.506284e-10	-0.05251586	-0.05812683	-3.102852e-10	9.925675e-11
	-1.941716e-10	3.201313e-10	0.009993388	0.01004458	-3.102852e-10	9.925675e-11	-0.0541112	-0.05625987
3.3e+08	-0.06683589	-0.0595534	-2.541354e-10	1.83151e-10	0.01211132	0.008848293	-2.190816e-10	4.047789e-10
	-2.541354e-10	1.83151e-10	-0.06815888	-0.0575442	-4.578767e-11	1.626333e-10	0.01165468	0.009504138
	0.01211132	0.008848293	-4.578767e-11	1.626333e-10	-0.0666543	-0.05949814	-3.492606e-10	1.889975e-10
	-2.190816e-10	4.047789e-10	0.01165468	0.009504138	-3.492606e-10	1.889975e-10	-0.06827261	-0.05712622
3.4e+08	-0.08092483	-0.05748226	-2.687042e-10	2.597567e-10	0.01352803	0.007785577	-2.267666e-10	4.957248e-10
	-2.687042e-10	2.597567e-10	-0.08216424	-0.05506317	-6.006298e-11	1.781485e-10	0.01309771	0.008581886
	0.01352803	0.007785577	-6.006298e-11	1.781485e-10	-0.08074577	-0.05746937	-3.692715e-10	2.872486e-10
	-2.267666e-10	4.957248e-10	0.01309771	0.008581886	-3.692715e-10	2.872486e-10	-0.08227563	-0.05458862
3.5e+08	-0.09414598	-0.05214314	-2.673673e-10	3.394255e-10	0.01461192	0.006417214	-2.159556e-10	5.888534e-10
	-2.673673e-10	3.394255e-10	-0.09521444	-0.04933343	-7.285806e-11	1.971756e-10	0.0142388	0.007347621
	0.01461192	0.006417214	-7.285806e-11	1.971756e-10	-0.09398202	-0.0521683	-3.68677e-10	3.896427e-10
	-2.159556e-10	5.888534e-10	0.0142388	0.007347621	-3.68677e-10	3.896427e-10	-0.09531242	-0.04880238
3.6e+08	-0.1057546	-0.0438522	-2.496539e-10	4.185819e-10	0.01530239	0.004837062	-1.863597e-10	6.79821e-10
	-2.496539e-10	4.185819e-10	-0.10657	-0.04069281	-8.343167e-11	2.196532e-10	0.01501547	0.005887472
	0.01530239	0.004837062	-8.343167e-11	2.196532e-10	-0.1056164	-0.04390853	-3.467741e-10	4.915002e-10
	-1.863597e-10	6.79821e-10	0.01501547	0.005887472	-3.467741e-10	4.915002e-10	-0.1066435	-0.04010811
3.7e+08	-0.1151082	-0.033088	-2.158487e-10	4.93609e-10	0.01556422	0.003148603	-1.387033e-10	7.64283e-10
	-2.158487e-10	4.93609e-10	-0.1155989	-0.02963998	-9.093713e-11	2.454171e-10	0.01538868	0.004297769
	0.01556422	0.003148603	-9.093713e-11	2.454171e-10	-0.1150041	-0.03316667	-3.039183e-10	5.881121e-10
	-1.387033e-10	7.64283e-10	0.01538868	0.004297769	-3.039183e-10	5.881121e-10	-0.1156378	-0.02900721
3.8e+08	-0.1216992	-0.020461	-1.669889e-10	5.609823e-10	0.015388	0.001458541	-7.470881e-11	8.381237e-10
	-1.669889e-10	5.609823e-10	-0.1218092	-0.01680264	-9.438573e-11	2.74043e-10	0.01534348	0.002679134
	0.015388	0.001458541	-9.438573e-11	2.74043e-10	-0.1216351	-0.02055181	-2.414432e-10	6.748854e-10
	-7.470881e-11	8.381237e-10	0.01534348	0.002679134	-2.414432e-10	6.748854e-10	-0.1218047	-0.0161299
3.9e+08	-0.125179	-0.006677597	-1.04849e-10	6.174044e-10	0.01478919	-0.0001289928	2.969993e-12	8.976786e-10
	-1.04849e-10	6.174044e-10	-0.1248719	-0.002900455	-9.275676e-11	3.047303e-10	0.01488828	0.001131106
	0.01478919	-0.0001289928	-9.275676e-11	3.047303e-10	-0.125158	-0.00676964	-1.616428e-10	7.475178e-10
	2.969993e-12	8.976786e-10	0.01488828	0.001131106	-1.616428e-10	7.475178e-10	-0.1248172	-0.002197987
4e+08	-0.1253734	0.00749904	-3.191057e-11	6.599442e-10	0.0138062	-0.001517483	9.086107e-11	9.3994e-10
	-3.191057e-11	6.599442e-10	-0.1246355	0.01129509	-8.51687e-11	3.362445e-10	0.01405343	-0.0002525702
	0.0138062	-0.001517483	-8.51687e-11	3.362445e-10	-0.125396	0.007416803	-6.773561e-11	8.021805e-10
	9.086107e-11	9.3994e-10	0.01405343	-0.0002525702	-6.773561e-11	8.021805e-10	-0.1245265	0.01201547
4.1e+08	-0.1222893	0.02128971	4.868965e-11	6.86186e-10	0.0124978	-0.002622332	1.848307e-10	9.627364e-10
	4.868965e-11	6.86186e-10	-0.1211313	0.02500211	-7.108067e-11	3.669428e-10	0.01288906	-0.001388019
	0.0124978	-0.002622332	-7.108067e-11	3.669428e-10	-0.1223534	0.02122787	3.620173e-11	8.357132e-10
	1.848307e-10	9.627364e-10	0.01288906	-0.001388019	3.620173e-11	8.357132e-10	-0.1209668	0.02572764
4.2e+08	-0.1161125	0.0339398	1.332433e-10	6.943814e-10	0.01094005	-0.00337452	2.802793e-10	9.648776e-10
	1.332433e-10	6.943814e-10	-0.1145701	0.03746924	-5.048145e-11	3.948957e-10	0.01146255	-0.002204799
	0.01094005	-0.00337452	-5.048145e-11	3.948957e-10	-0.1162136	0.03390798	1.453422e-10	8.45827e-10
	2.802793e-10	9.648776e-10	0.01146255	-0.002204799	1.453422e-10	8.45827e-10	-0.1143522	0.038187
4.3e+08	-0.1071973	0.04475835	2.175941e-10	6.836016e-10	0.009222867	-0.003723749	3.723682e-10	9.462559e-10
	2.175941e-10	6.836016e-10	-0.1053304	0.04801493	-2.402265e-11	4.180927e-10	0.009855575	-0.002649064
	0.009222867	-0.003723749	-2.402265e-11	4.180927e-10	-0.1073289	0.04476475	2.542715e-10	8.313048e-10
	3.723682e-10	9.462559e-10	0.009855575	-0.002649064	2.542715e-10	8.313048e-10	-0.1050642	0.0487126
4.4e+08	-0.09604865	0.05315432	2.973091e-10	6.538735e-10	0.007446047	-0.003641113	4.56271e-10	9.078979e-10
	2.973091e-10	6.538735e-10	-0.09393876	0.05606335	6.94062e-12	4.347034e-10	0.008160689	-0.00268639
	0.007446047	-0.003641113	6.94062e-12	4.347034e-10	-0.09620267	0.0532053	3.572146e-10	7.921811e-10
	4.56271e-10	9.078979e-10	0.008160689	-0.00268639	3.572146e-10	7.921811e-10	-0.09363242	0.05673001
4.5e+08	-0.08329647	0.05866855	3.678999e-10	6.06284e-10	0.005714763	-0.003121236	5.274382e-10	8.519591e-10
	3.678999e-10	6.06284e-10	-0.08104284	0.06117577	4.04215e-11	4.433493e-10	0.006477261	-0.002304179
	0.005714763	-0.003121236	4.04215e-11	4.433493e-10	-0.08346347	0.05876833	4.483286e-10	7.298777e-10
	5.274382e-10	8.519591e-10	0.006477261	-0.002304179	4.483286e-10	7.298777e-10	-0.08070718	0.06180261
4.6e+08	-0.06966308	0.061	4.250894e-10	5.430312e-10	0.004134382	-0.002183683	5.818625e-10	7.816578e-10
	4.250894e-10	5.430312e-10	-0.06737772	0.0630759	7.398436e-11	4.433364e-10	0.004906689	-0.001513442
	0.004134382	-0.002183683	7.398436e-11	4.433364e-10	-0.06983298	0.06115041	5.220537e-10	6.472675e-10
	5.818625e-10	7.816578e-10	0.004906689	-0.001513442	5.220537e-10	6.472675e-10	-0.0670256	0.06365686
4.7e+08	-0.05592516	0.0600247	4.651083e-10	4.67402e-10	0.00280464	-0.00087334	6.16332e-10	7.011446e-10
	4.651083e-10	4.67402e-10	-0.05372662	0.06166753	1.050146e-10	4.348017e-10	0.003546869	-0.0003496326
	0.00280464	-0.00087334	1.050146e-10	4.348017e-10	-0.05608776	0.06022505	5.735033e-10	5.486405e-10
	6.16332e-10	7.011446e-10	0.003546869	-0.0003496326	5.735033e-10	5.486405e-10	-0.05337227	0.06219977
4.8e+08	-0.04287108	0.05580577	4.850016e-10	3.836596e-10	0.001813362	0.0007406219	6.286546e-10	6.153105e-10
	4.850016e-10	3.836596e-10	-0.04087757	0.05704307	1.310323e-10	4.18742e-10	0.002486111	0.001127858
