!$
! Info: Touchstone file created by Circ.  Input file=Tx_16in_Rx_93ohms_TxVia_35mils_RxVia_45mils.circ
!$
# Hz S RI R 50
0	0.0145946	1.921382e-25	-8.523084e-05	-1.199599e-25	0.0001052162	2.74626e-23	-8.523015e-05	-1.219053e-25
	-8.523087e-05	-1.16846e-25	0.01459111	2.285469e-25	-8.522908e-05	-1.094603e-25	0.0001038848	3.306447e-23
	0.0001057384	2.782011e-23	-8.522904e-05	-1.146703e-25	0.01460243	1.875749e-25	-8.522907e-05	-2.726454e-26
	-8.523017e-05	-1.197433e-25	0.0001020358	3.322713e-23	-8.52291e-05	-2.300648e-26	0.01460414	2.141544e-25
1e+07	0.01985993	-0.002607891	-6.029605e-06	-3.099408e-05	0.000650262	0.002609715	-6.137123e-06	-3.180977e-05
	-6.029606e-06	-3.099409e-05	0.02100771	-0.002883276	-1.042968e-05	-5.003108e-06	0.0006818604	0.002842378
	0.0006502861	0.002609716	-1.042968e-05	-5.003109e-06	0.02141721	-0.001997857	-3.419703e-05	-5.038792e-06
	-6.137123e-06	-3.180977e-05	0.0006817992	0.002842388	-3.419703e-05	-5.038791e-06	0.02058749	-0.002862681
2e+07	0.02241111	-0.01048938	-1.438749e-05	-1.871295e-05	0.002019308	0.004995224	-1.548357e-05	-1.9875e-05
	-1.438749e-05	-1.871295e-05	0.02298584	-0.01128878	-4.375674e-05	-2.566724e-05	0.001941319	0.005442222
	0.002019316	0.004995208	-4.375674e-05	-2.566724e-05	0.02443241	-0.01020507	-3.423823e-05	1.178399e-05
	-1.548357e-05	-1.9875e-05	0.00194131	0.005442258	-3.423823e-05	1.178399e-05	0.02268664	-0.01111996
3e+07	0.02065835	-0.01993655	-2.083071e-05	-1.226761e-05	0.004035551	0.006794745	-2.269168e-05	-1.318573e-05
	-2.083071e-05	-1.226761e-05	0.0207529	-0.02079871	-6.719453e-05	-1.79094e-05	0.00398606	0.007330207
	0.004035551	0.006794742	-6.719453e-05	-1.79094e-05	0.0229308	-0.02009055	-3.524826e-05	1.630939e-05
	-2.269168e-05	-1.318573e-05	0.00398606	0.007330212	-3.524826e-05	1.630939e-05	0.02053989	-0.02060125
4e+07	0.01550272	-0.02855357	-2.515489e-05	-5.344791e-06	0.006476846	0.007839137	-2.76034e-05	-5.760277e-06
	-2.515489e-05	-5.344791e-06	0.01519519	-0.02929517	-8.320684e-05	-8.566416e-07	0.006526233	0.008385513
	0.006476848	0.007839138	-8.320684e-05	-8.566417e-07	0.01784008	-0.02920234	-3.427161e-05	2.252112e-05
	-2.76034e-05	-5.760277e-06	0.006526227	0.008385511	-3.427161e-05	2.252112e-05	0.01504334	-0.02910187
5e+07	0.00776895	-0.03520932	-2.736483e-05	2.174603e-06	0.009073168	0.008038673	-3.021781e-05	2.456645e-06
	-2.736483e-05	2.174603e-06	0.007153685	-0.03570905	-9.194403e-05	2.140698e-05	0.009200437	0.00857035
	0.00907317	0.008038673	-9.194403e-05	2.140698e-05	0.01000286	-0.03634979	-3.144088e-05	2.91512e-05
	-3.021781e-05	2.456645e-06	0.009200433	0.008570349	-3.144088e-05	2.91512e-05	0.007040408	-0.03553373
6e+07	-0.001607723	-0.03921534	-2.743788e-05	9.980515e-06	0.01154278	0.007397745	-3.047692e-05	1.111418e-05
	-2.743788e-05	9.980515e-06	-0.002421045	-0.03939579	-9.321396e-05	4.651566e-05	0.01172836	0.007900228
	0.01154278	0.007397745	-9.321396e-05	4.651566e-05	0.0003769741	-0.04079678	-2.684854e-05	3.554644e-05
	-3.047692e-05	1.111418e-05	0.01172836	0.007900227	-2.684854e-05	3.554644e-05	-0.002515191	-0.03924167
7e+07	-0.01162272	-0.04025003	-2.536363e-05	1.766733e-05	0.01362443	0.006011537	-2.832058e-05	1.975831e-05
	-2.536363e-05	1.766733e-05	-0.01251584	-0.04007449	-8.676425e-05	7.248056e-05	0.01385065	0.006477026
	0.01362442	0.006011539	-8.676425e-05	7.248056e-05	-0.01000412	-0.04218515	-2.061453e-05	4.122221e-05
	-2.832058e-05	1.975831e-05	0.01385065	0.006477023	-2.061453e-05	4.122221e-05	-0.01260618	-0.03993795
8e+07	-0.02128226	-0.03833134	-2.114714e-05	2.479407e-05	0.01510541	0.00405275	-2.370059e-05	2.788175e-05
	-2.114714e-05	2.479407e-05	-0.02213715	-0.03780214	-7.238735e-05	9.738436e-05	0.01535605	0.004477339
	0.01510541	0.004052754	-7.238735e-05	9.738436e-05	-0.02011368	-0.04050763	-1.331288e-05	4.563536e-05
	-2.370059e-05	2.788175e-05	0.01535606	0.004477332	-1.331288e-05	4.563536e-05	-0.02223426	-0.03767539
9e+07	-0.02968847	-0.03378128	-1.476495e-05	3.088393e-05	0.01584382	0.001750507	-1.652114e-05	3.493565e-05
	-1.476495e-05	3.088393e-05	-0.03039527	-0.03293655	-4.978625e-05	0.0001192583	0.01610203	0.002132463
	0.01584382	0.00175051	-4.978625e-05	0.0001192583	-0.02902166	-0.03607217	-8.04907e-06	4.815923e-05
	-1.652114e-05	3.493565e-05	0.01610204	0.002132457	-8.04907e-06	4.815924e-05	-0.03050523	-0.03280992
1e+08	-0.03610924	-0.02717246	-5.565836e-06	3.532259e-05	0.01579158	-0.0006353684	-5.981402e-06	4.017607e-05
	-5.565836e-06	3.532259e-05	-0.03655892	-0.02608109	-1.641853e-05	0.0001356012	0.01602659	-0.0002972319
	0.01579158	-0.0006353685	-1.641853e-05	0.0001356012	-0.03599353	-0.02944699	-3.511923e-06	4.999321e-05
	-5.981402e-06	4.017607e-05	0.01602659	-0.0002972319	-3.511923e-06	4.999321e-05	-0.03668701	-0.0259449
1.1e+08	-0.04007734	-0.01930485	3.844774e-06	3.426964e-05	0.0149457	-0.002797292	4.960588e-06	3.900386e-05
	3.844774e-06	3.426964e-05	-0.04024021	-0.01813735	1.851599e-05	0.0001319644	0.01515367	-0.002541514
	0.0149457	-0.002797292	1.851599e-05	0.0001319644	-0.04043574	-0.0212939	1.040536e-06	4.938638e-05
	4.960588e-06	3.900386e-05	0.01515367	-0.002541514	1.040536e-06	4.938638e-05	-0.04037776	-0.01796845
1.2e+08	-0.04138606	-0.01095513	1.139759e-05	3.171184e-05	0.01339875	-0.004555026	1.185544e-05	3.656211e-05
	1.139759e-05	3.171184e-05	-0.0413019	-0.00978774	3.92958e-05	0.0001248237	0.01359487	-0.004364841
	0.01339875	-0.004555026	3.92958e-05	0.0001248237	-0.04204156	-0.01260186	6.678463e-06	4.835685e-05
	1.185544e-05	3.656211e-05	0.01359487	-0.004364841	6.678463e-06	4.835685e-05	-0.04142995	-0.009585879
1.3e+08	-0.04006342	-0.002978191	1.459479e-05	2.963362e-05	0.01133994	-0.005711962	1.517149e-05	3.452578e-05
	1.459479e-05	2.963362e-05	-0.03976628	-0.001878572	5.215666e-05	0.0001177501	0.01152236	-0.005577306
	0.01133994	-0.005711963	5.215666e-05	0.0001177501	-0.04088858	-0.004267559	1.260784e-05	4.663029e-05
	1.517149e-05	3.452578e-05	0.01152236	-0.005577306	1.260784e-05	4.663029e-05	-0.03987227	-0.001649322
1.4e+08	-0.03640866	0.003840317	1.7462e-05	2.736731e-05	0.008994748	-0.006140187	1.854075e-05	3.21258e-05
	1.7462e-05	2.736731e-05	-0.03594652	0.004814013	6.489344e-05	0.0001090474	0.009158115	-0.006053003
	0.008994748	-0.006140187	6.489344e-05	0.0001090474	-0.03729585	0.002894513	1.842882e-05	4.410365e-05
	1.854075e-05	3.21258e-05	0.009158115	-0.006053003	1.842882e-05	4.410365e-05	-0.03602198	0.005061089
1.5e+08	-0.03094483	0.008860115	2.020157e-05	2.476524e-05	0.00661362	-0.005789687	2.17849e-05	2.932553e-05
	2.020157e-05	2.476524e-05	-0.03038043	0.009664498	7.689277e-05	9.868171e-05	0.006750897	-0.005742103
	0.00661362	-0.005789687	7.689277e-05	9.868171e-05	-0.03180545	0.008222018	2.396367e-05	4.077045e-05
	2.17849e-05	2.932553e-05	0.006750897	-0.005742103	2.396367e-05	4.077045e-05	-0.03042149	0.009917446
1.6e+08	-0.02435898	0.01164469	2.270683e-05	2.18303e-05	0.004448035	-0.004692008	2.477691e-05	2.612951e-05
	2.270683e-05	2.18303e-05	-0.02376644	0.01225637	8.769868e-05	8.675314e-05	0.004551506	-0.004675129
	0.004448035	-0.004692008	8.769868e-05	8.675314e-05	-0.02512467	0.01126249	2.90199e-05	3.668469e-05
	2.477691e-05	2.612951e-05	0.004551506	-0.004675129	2.90199e-05	3.668469e-05	-0.02377413	0.01250259
1.7e+08	-0.01742926	0.01199848	2.489208e-05	1.858855e-05	0.002725617	-0.002956516	2.741646e-05	2.256921e-05
	2.489208e-05	1.858855e-05	-0.01688806	0.01241799	9.695661e-05	7.345558e-05	0.002787863	-0.002959646
	0.002725617	-0.002956516	9.695661e-05	7.345558e-05	-0.01805274	0.01181039	3.346119e-05	3.192726e-05
	2.741646e-05	2.256921e-05	0.002787863	-0.002959646	3.346119e-05	3.192726e-05	-0.0168681	0.01264602
1.8e+08	-0.01094515	0.009980104	2.668842e-05	1.50835e-05	0.001627071	-0.0007591859	2.962449e-05	1.869623e-05
	2.668842e-05	1.50835e-05	-0.01053251	0.01023355	0.0001043994	5.904752e-05	0.001642073	-0.0007694799
	0.001627071	-0.0007591859	0.0001043994	5.904752e-05	-0.0114002	0.00992001	3.71765e-05	2.660354e-05
	2.962449e-05	1.869623e-05	0.001642073	-0.00076948	3.71765e-05	2.660354e-05	-0.01049454	0.01043457
1.9e+08	-0.005628293	0.005890459	2.804247e-05	1.137163e-05	0.001267398	0.001675408	3.134154e-05	1.457629e-05
	2.804247e-05	1.137163e-05	-0.005410849	0.006028577	0.0001098407	4.382821e-05	0.001231664	0.001672793
	0.001267398	0.001675408	0.0001098407	4.382821e-05	-0.005908632	0.005893367	4.008137e-05	2.083643e-05
	3.134154e-05	1.457629e-05	0.001231664	0.001672793	4.008137e-05	2.083643e-05	-0.005367216	0.006197605
2e+08	-0.002059747	0.0002369535	2.890945e-05	7.518695e-06	0.001679817	0.004093095	3.252426e-05	1.028351e-05
	2.890945e-05	7.518695e-06	-0.002087233	0.0003315427	0.0001131675	2.811674e-05	0.001597075	0.004118709
	0.001679817	0.004093095	0.0001131675	2.811674e-05	-0.002176851	0.0002437315	4.211654e-05	1.475961e-05
	3.252426e-05	1.028351e-05	0.001597075	0.004118709	4.211654e-05	1.475961e-05	-0.002051514	0.0004681294
2.1e+08	-0.0006290425	-0.00632205	2.927275e-05	3.596869e-06	0.002829552	0.006250677	3.31516e-05	5.89702e-06
	2.927275e-05	3.596869e-06	-0.0009241359	-0.006184363	0.0001143376	1.223548e-05	0.00269704	0.006319948
	0.002829552	0.006250677	0.0001143376	1.223548e-05	-0.0006089776	-0.006360723	4.325301e-05	8.511855e-06
	3.31516e-05	5.89702e-06	0.00269704	0.006319948	4.325301e-05	8.511855e-06	-0.0009094983	-0.006075984
2.2e+08	-0.001493234	-0.01304594	2.912363e-05	-3.208793e-07	0.004592036	0.007924512	3.321573e-05	1.4953e-06
	2.912363e-05	-3.208793e-07	-0.00204904	-0.01277335	0.0001133656	-3.503783e-06	0.004412734	0.008054792
	0.004592036	0.007924512	0.0001133656	-3.503783e-06	-0.001372753	-0.01316667	4.348475e-05	2.230719e-06
	3.321573e-05	1.4953e-06	0.004412734	0.008054792	4.348475e-05	2.230719e-06	-0.002066674	-0.01268465
2.3e+08	-0.004566614	-0.01918991	2.846603e-05	-4.162141e-06	0.00677664	0.00894354	3.272183e-05	-2.845834e-06
	2.846603e-05	-4.162141e-06	-0.005345843	-0.01869537	0.0001103134	-1.880815e-05	0.006560511	0.009151938
	0.00677664	0.00894354	0.0001103134	-1.880815e-05	-0.004388784	-0.01941491	4.28278e-05	-3.951292e-06
	3.272183e-05	-2.845834e-06	0.006560511	0.009151938	4.28278e-05	-3.951292e-06	-0.005403623	-0.01861444
2.4e+08	-0.009534159	-0.02408132	2.731575e-05	-7.857139e-06	0.009148108	0.009208159	3.168599e-05	-7.054788e-06
	2.731575e-05	-7.857139e-06	-0.01047157	-0.02329251	0.0001052817	-3.34076e-05	0.008911922	0.009508812
	0.009148108	0.009208159	0.0001052817	-3.34076e-05	-0.009343868	-0.02441799	4.131746e-05	-9.909746e-06
	3.168599e-05	-7.054788e-06	0.008911922	0.009508812	4.131746e-05	-9.909746e-06	-0.01057308	-0.02320532
2.5e+08	-0.01588806	-0.02718714	2.569886e-05	-1.134059e-05	0.01145251	0.008700651	3.013291e-05	-1.106518e-05
	2.569886e-05	-1.134059e-05	-0.01689616	-0.02605531	9.840058e-05	-4.705659e-05	0.01121866	0.009102135
	0.01145251	0.008700651	9.840058e-05	-4.705659e-05	-0.01572776	-0.02762889	3.900516e-05	-1.553034e-05
	3.013291e-05	-1.106518e-05	0.01121866	0.009102135	3.900516e-05	-1.553034e-05	-0.01704021	-0.02594724
2.6e+08	-0.02298314	-0.02816575	2.364987e-05	-1.455231e-05	0.01344503	0.007486304	2.809423e-05	-1.481584e-05
	2.364987e-05	-1.455231e-05	-0.02396069	-0.02667244	8.982017e-05	-5.952952e-05	0.01323945	0.007989563
	0.01344503	0.007486304	8.982017e-05	-5.952952e-05	-0.02288915	-0.02869395	3.595583e-05	-2.070996e-05
	2.809423e-05	-1.481584e-05	0.01323945	0.007989563	3.595583e-05	-2.070996e-05	-0.02414132	-0.02652985
2.7e+08	-0.0301049	-0.02689813	2.12113e-05	-1.743924e-05	0.01491629	0.005705309	2.560722e-05	-1.825054e-05
	2.12113e-05	-1.743924e-05	-0.03094731	-0.02505872	7.972064e-05	-7.06275e-05	0.01476561	0.006302393
	0.01491629	0.005705309	7.972064e-05	-7.06275e-05	-0.03010455	-0.02748491	3.224546e-05	-2.535716e-05
	2.560722e-05	-1.825054e-05	0.01476561	0.006302393	3.224546e-05	-2.535716e-05	-0.03115438	-0.02487057
2.8e+08	-0.03654302	-0.02349604	1.843142e-05	-1.995485e-05	0.0157142	0.003556626	2.27145e-05	-2.13176e-05
	1.843142e-05	-1.995485e-05	-0.03715357	-0.0213598	6.82988e-05	-8.017196e-05	0.01564255	0.0042305
	0.0157142	0.003556626	6.82988e-05	-8.017196e-05	-0.03665277	-0.02410758	2.795955e-05	-2.939238e-05
	2.27145e-05	-2.13176e-05	0.01564255	0.0042305	2.795955e-05	-2.939238e-05	-0.03737382	-0.02111885
2.9e+08	-0.0416626	-0.01828687	1.536344e-05	-2.205946e-05	0.01575903	0.00127601	1.946379e-05	-2.396966e-05
	1.536344e-05	-2.205946e-05	-0.04196335	-0.0159334	5.57708e-05	-8.800587e-05	0.01578485	0.00200152
	0.01575903	0.00127601	5.57708e-05	-8.800587e-05	-0.04188726	-0.01888707	2.319176e-05	-3.274815e-05
	1.946379e-05	-2.396966e-05	0.01578485	0.00200152	2.319176e-05	-3.274815e-05	-0.04218179	-0.01563705
3e+08	-0.04496645	-0.01177774	1.206469e-05	-2.372055e-05	0.01505054	-0.0008891815	1.590828e-05	-2.616391e-05
	1.206469e-05	-2.372055e-05	-0.04490759	-0.009309883	4.23731e-05	-9.399667e-05	0.01518379	-0.0001432204
	0.01505054	-0.0008891815	4.23731e-05	-9.399667e-05	-0.04529945	-0.01233172	1.804296e-05	-3.536951e-05
	1.590828e-05	-2.616391e-05	0.01518379	-0.0001432204	1.804296e-05	-3.536951e-05	-0.04510908	-0.008960459
3.1e+08	-0.04614262	-0.004602636	8.596131e-06	-2.491303e-05	0.01366674	-0.002705626	1.210705e-05	-2.786282e-05
	8.596131e-06	-2.491303e-05	-0.04570919	-0.002136583	2.836206e-05	-9.804059e-05	0.01390694	-0.001973412
	0.01366674	-0.002705626	2.836206e-05	-9.804059e-05	-0.04656719	-0.005079932	1.262035e-05	-3.721489e-05
	1.210705e-05	-2.786282e-05	0.01390694	-0.001973412	1.262035e-05	-3.721489e-05	-0.04588003	-0.001741202
3.2e+08	-0.04509308	0.002541673	5.02154e-06	-2.561956e-05	0.01175484	-0.003977591	8.125029e-06	-2.903528e-05
	5.02154e-06	-2.561956e-05	-0.04430825	0.004888125	1.401138e-05	-0.0001000672	0.01209025	-0.003292722
	0.01175484	-0.003977591	1.401138e-05	-0.0001000672	-0.04558431	0.00216446	7.036151e-06	-3.825709e-05
	8.125029e-06	-2.903528e-05	0.01209025	-0.003292722	7.036151e-06	-3.825709e-05	-0.04443769	0.005318271
3.3e+08	-0.04194141	0.008964943	1.4068e-06	-2.583096e-05	0.009515776	-0.004566312	4.032818e-06	-2.965802e-05
	1.4068e-06	-2.583096e-05	-0.04086587	0.01108481	-3.919939e-07	-0.0001000443	0.009923764	-0.003957985
	0.009515776	-0.004566312	-3.919939e-07	-0.0001000443	-0.04246882	0.008702244	1.406089e-06	-3.848437e-05
	4.032818e-06	-2.965802e-05	0.009923764	-0.003957985	1.406089e-06	-3.848437e-05	-0.04094721	0.01153558
3.4e+08	-0.03701897	0.01405131	-2.181013e-06	-2.554685e-05	0.007183585	-0.004403584	-9.423851e-08	-2.97174e-05
	-2.181013e-06	-2.554685e-05	-0.0357463	0.01586026	-1.455376e-05	-9.798277e-05	0.007632382	-0.003893058
	0.007183585	-0.004403584	-1.455376e-05	-9.798277e-05	-0.03754953	0.01390754	-4.152769e-06	-3.790164e-05
	-9.423851e-08	-2.97174e-05	0.007632382	-0.003893058	-4.152769e-06	-3.790164e-05	-0.03577774	0.01631602
3.5e+08	-0.03083127	0.01731949	-5.674761e-06	-2.47758e-05	0.005001871	-0.003498487	-4.177536e-06	-2.921074e-05
	-5.674761e-06	-2.47758e-05	-0.02947964	0.01876582	-2.817989e-05	-9.393863e-05	0.005453381	-0.003096225
	0.005001871	-0.003498487	-2.817989e-05	-9.393863e-05	-0.0313325	0.01728889	-9.524579e-06	-3.65309e-05
	-4.177536e-06	-2.921074e-05	0.005453381	-0.003096225	-9.524579e-06	-3.65309e-05	-0.02946446	0.01921105
3.6e+08	-0.02400747	0.01846973	-9.008529e-06	-2.353572e-05	0.003199228	-0.00193666	-8.137247e-06	-2.814753e-05
	-9.008529e-06	-2.353572e-05	-0.02270837	0.01954133	-4.09852e-05	-8.801476e-05	0.003612737	-0.001640509
	0.003199228	-0.00193666	-4.09852e-05	-8.801476e-05	-0.02445045	0.01853712	-1.45976e-05	-3.441143e-05
	-8.137247e-06	-2.814753e-05	0.003612737	-0.001640509	-1.45976e-05	-3.441143e-05	-0.02265472	0.01996226
3.7e+08	-0.01723806	0.01741298	-1.211901e-05	-2.185376e-05	0.001965898	0.0001279283	-1.189473e-05	-2.65499e-05
	-1.211901e-05	-2.185376e-05	-0.01612308	0.0181405	-5.270247e-05	-8.035944e-05	0.002302251	0.0003332841
	0.001965898	0.0001279283	-5.270247e-05	-8.035944e-05	-0.01760001	0.01755537	-1.926716e-05	-3.159912e-05
	-1.189473e-05	-2.65499e-05	0.002302251	0.0003332841	-1.926716e-05	-3.159912e-05	-0.01604318	0.01852659
3.8e+08	-0.01120626	0.01427946	-1.494693e-05	-1.976602e-05	0.001433864	0.002488172	-1.537508e-05	-2.445254e-05
	-1.494693e-05	-1.976602e-05	-0.01039332	0.01473504	-6.309136e-05	-7.116297e-05	0.001659702	0.002630384
	0.001433864	0.002488172	-6.309136e-05	-7.116297e-05	-0.01147263	0.01446832	-2.34385e-05	-2.816518e-05
	-1.537508e-05	-2.445254e-05	0.001659702	0.002630384	-2.34385e-05	-2.816518e-05	-0.01030227	0.01508016
3.9e+08	-0.006520234	0.009405463	-1.743852e-05	-1.73171e-05	0.001662487	0.004904778	-1.850969e-05	-2.190185e-05
	-1.743852e-05	-1.73171e-05	-0.00610055	0.009697083	-7.194639e-05	-6.065199e-05	0.001754086	0.005021662
	0.001662487	0.004904778	-7.194639e-05	-6.065199e-05	-0.006685877	0.00960951	-2.702927e-05	-2.419427e-05
	-1.850969e-05	-2.190185e-05	0.001754086	0.005021662	-2.702927e-05	-2.419427e-05	-0.006014783	0.01000024
4e+08	-0.003652494	0.003299603	-1.954687e-05	-1.455919e-05	0.002631418	0.007131073	-2.123836e-05	-1.895444e-05
	-1.954687e-05	-1.455919e-05	-0.003679844	0.003561357	-7.91033e-05	-4.908175e-05	0.002577726	0.007267261
	0.002631418	0.007131073	-7.91033e-05	-4.908175e-05	-0.003722019	0.003487846	-2.997163e-05	-1.978216e-05
	-2.123836e-05	-1.895444e-05	0.002577726	0.007267261	-2.997163e-05	-1.978216e-05	-0.003615412	0.003826903
4.1e+08	-0.002892955	-0.003408297	-2.123318e-05	-1.155106e-05	0.004241893	0.008939153	-2.351109e-05	-1.567524e-05
	-2.123318e-05	-1.155106e-05	-0.003376402	-0.003029108	-8.444321e-05	-3.672723e-05	0.004046421	0.009141858
	0.004241893	0.008939153	-8.444321e-05	-3.672723e-05	-0.002880098	-0.003263599	-3.221376e-05	-1.503298e-05
	-2.351109e-05	-1.567524e-05	0.004046421	0.009141858	-3.221376e-05	-1.503298e-05	-0.003347275	-0.002791793
4.2e+08	-0.004320441	-0.01003053	-2.24679e-05	-8.356678e-06	0.006326622	0.01014449	-2.528911e-05	-1.213517e-05
	-2.24679e-05	-8.356678e-06	-0.005221495	-0.009388242	-8.789417e-05	-2.387368e-05	0.006007928	0.01045877
	0.006326622	0.01014449	-8.789417e-05	-2.387368e-05	-0.00424655	-0.009951236	-3.372075e-05	-1.005641e-05
	-2.528911e-05	-1.213517e-05	0.006007928	0.01045877	-3.372075e-05	-1.005641e-05	-0.005238027	-0.009165657
4.3e+08	-0.007795607	-0.01589049	-2.323146e-05	-5.043616e-06	0.008667393	0.0106261	-2.654539e-05	-8.40889e-06
	-2.323146e-05	-5.043616e-06	-0.009030316	-0.01485637	-8.943039e-05	-1.080764e-05	0.008258035	0.01109009
	0.008667393	0.0106261	-8.943039e-05	-1.080764e-05	-0.007687406	-0.01589058	-3.447501e-05	-4.964738e-06
	-2.654539e-05	-8.40889e-06	0.008258035	0.01109009	-3.447501e-05	-4.964738e-06	-0.009098054	-0.01463222
4.4e+08	-0.01297598	-0.02039018	-2.351476e-05	-1.681307e-06	0.0110185	0.0103398	-2.726442e-05	-4.572596e-06
	-2.351476e-05	-1.681307e-06	-0.01442189	-0.01886649	-8.906932e-05	2.190794e-06	0.01056248	0.01098035
	0.0110185	0.0103398	-8.906932e-05	2.190794e-06	-0.01286281	-0.02047454	-3.447603e-05	1.298888e-07
	-2.726442e-05	-4.572596e-06	0.01056248	0.01098035	-3.447603e-05	1.298888e-07	-0.01454088	-0.01862338
4.5e+08	-0.0193513	-0.02306926	-2.331931e-05	1.660753e-06	0.01313325	0.009322921	-2.744178e-05	-7.02208e-07
	-2.331931e-05	1.660753e-06	-0.02085873	-0.02100057	-8.686784e-05	1.485414e-05	0.0126821	0.01015222
	0.01313325	0.009322921	-8.686784e-05	1.485414e-05	-0.0192622	-0.02323342	-3.373977e-05	5.118093e-06
	-2.744178e-05	-7.02208e-07	0.0126821	0.01015222	-3.373977e-05	5.118093e-06	-0.02102341	-0.02072184
4.6e+08	-0.02629536	-0.02364972	-2.265689e-05	4.914779e-06	0.01479048	0.007689978	-2.70828e-05	3.12794e-06
	-2.265689e-05	4.914779e-06	-0.02770197	-0.0210302	-8.291748e-05	2.693192e-05	0.01439836	0.008703471
	0.01479048	0.007689978	-8.291748e-05	2.693192e-05	-0.0262562	-0.02388053	-3.229601e-05	9.894906e-06
	-2.70828e-05	3.12794e-06	0.01439836	0.008703471	-3.229601e-05	9.894906e-06	-0.02790164	-0.02070172
4.7e+08	-0.03312874	-0.02206188	-2.154891e-05	8.01628e-06	0.01581788	0.005619911	-2.620302e-05	6.846568e-06
	-2.154891e-05	8.01628e-06	-0.03427578	-0.0189376	-7.734028e-05	3.819357e-05	0.0155361	0.006795891
	0.01581788	0.005619911	-7.734028e-05	3.819357e-05	-0.03315976	-0.02233898	-3.019098e-05	1.436248e-05
