!$
! Info: Touchstone file created by Circ.  Input file=Tx_12in_Rx_93ohms_TxVia_35mils_RxVia_45mils.circ
!$
# Hz S RI R 50
0	0.01101888	1.533608e-25	1.750995e-08	2.445003e-26	8.277793e-05	2.097698e-23	3.408332e-08	5.42906e-27
	1.750997e-08	2.444878e-26	0.01101774	1.793703e-25	3.400932e-08	8.854425e-26	8.319632e-05	2.493563e-23
	8.093888e-05	2.154137e-23	3.400933e-08	8.854459e-26	0.01103126	1.461883e-25	2.07839e-08	2.898397e-26
	3.408332e-08	5.429711e-27	8.134806e-05	2.505838e-23	2.07839e-08	2.898516e-26	0.01103083	1.680659e-25
1e+07	0.01601298	-0.001477227	2.915317e-08	4.738529e-08	0.0004425911	0.002217996	9.221237e-08	1.37197e-07
	2.915317e-08	4.738529e-08	0.01600266	-0.001477263	5.703274e-08	1.548517e-07	0.0004384129	0.002219344
	0.0004425307	0.002218	5.703274e-08	1.548517e-07	0.01569902	-0.0014732	3.443594e-08	5.67384e-08
	9.221237e-08	1.37197e-07	0.0004383522	0.002219354	3.443594e-08	5.67384e-08	0.01568705	-0.001472716
2e+07	0.01824896	-0.007081061	5.07333e-08	8.010795e-08	0.001185602	0.004344155	1.975008e-07	2.140204e-07
	5.073329e-08	8.010795e-08	0.01820915	-0.007074018	7.630957e-08	2.811675e-07	0.001169863	0.004350219
	0.00118559	0.004344193	7.630957e-08	2.811675e-07	0.01802157	-0.006968871	6.008099e-08	9.583983e-08
	1.975006e-07	2.140204e-07	0.001169854	0.004350254	6.008099e-08	9.583983e-08	0.01797563	-0.006959522
3e+07	0.01796137	-0.0139042	7.578374e-08	1.036239e-07	0.002467662	0.006099043	3.310109e-07	2.4289e-07
	7.578374e-08	1.036239e-07	0.01787643	-0.0138759	8.79917e-08	4.035524e-07	0.002434672	0.006115534
	0.002467665	0.006099049	8.79917e-08	4.035524e-07	0.01779965	-0.01377263	8.976973e-08	1.240258e-07
	3.310109e-07	2.4289e-07	0.002434672	0.00611554	8.976973e-08	1.240258e-07	0.01770192	-0.01373799
4e+07	0.01561703	-0.02066057	1.025569e-07	1.170048e-07	0.004162688	0.007427605	4.793077e-07	2.152563e-07
	1.025569e-07	1.170048e-07	0.01547678	-0.02059215	9.597726e-08	5.245271e-07	0.004109005	0.00746201
	0.004162683	0.0074276	9.597726e-08	5.245271e-07	0.01550648	-0.02053581	1.214775e-07	1.402656e-07
	4.793077e-07	2.152563e-07	0.004109	0.007462008	1.214775e-07	1.402656e-07	0.01534547	-0.02045416
5e+07	0.01153578	-0.02674591	1.277928e-07	1.199087e-07	0.006092872	0.008287591	6.228062e-07	1.272664e-07
	1.277928e-07	1.199087e-07	0.01133678	-0.02661507	1.01019e-07	6.451468e-07	0.006017807	0.008348478
	0.006092868	0.008287589	1.01019e-07	6.451468e-07	0.01146239	-0.02664242	1.513797e-07	1.44116e-07
	6.228062e-07	1.272664e-07	0.006017804	0.008348477	1.513797e-07	1.44116e-07	0.01123435	-0.02648817
6e+07	0.006054988	-0.03173724	1.481165e-07	1.130587e-07	0.008137624	0.008641884	7.413567e-07	-1.842957e-08
	1.481165e-07	1.130587e-07	0.005801673	-0.03152079	1.036536e-07	7.664869e-07	0.008043457	0.008737951
	0.008137628	0.008641885	1.036536e-07	7.664869e-07	0.006004788	-0.03166315	1.754628e-07	1.364246e-07
	7.413567e-07	-1.842957e-08	0.00804346	0.00873795	1.754628e-07	1.364246e-07	0.005715017	-0.03140971
7e+07	-0.0004501158	-0.03533542	1.60449e-07	9.812721e-08	0.01017043	0.008482787	8.162575e-07	-2.133071e-07
	1.60449e-07	9.812722e-08	-0.0007455731	-0.0350119	1.046117e-07	8.894133e-07	0.01006233	0.008621947
	0.01017044	0.008482785	1.046117e-07	8.894133e-07	-0.0004908416	-0.03529417	1.900819e-07	1.191992e-07
	8.162575e-07	-2.133071e-07	0.01006234	0.008621944	1.900819e-07	1.191992e-07	-0.0008281642	-0.03491703
8e+07	-0.00757385	-0.03735224	1.62231e-07	7.763689e-08	0.01206699	0.007833164	8.316856e-07	-4.435581e-07
	1.62231e-07	7.763692e-08	-0.007892425	-0.03690423	1.047733e-07	1.014486e-06	0.01195273	0.008021703
	0.01206701	0.007833157	1.047733e-07	1.014486e-06	-0.007618146	-0.03734349	1.92243e-07	9.544608e-08
	8.316856e-07	-4.435581e-07	0.01195274	0.008021696	1.92243e-07	9.544611e-08	-0.007981012	-0.03682283
9e+07	-0.0148951	-0.03770572	1.516505e-07	5.483345e-08	0.01371292	0.006745024	7.760665e-07	-6.909151e-07
	1.516505e-07	5.483346e-08	-0.01521231	-0.03712173	1.050866e-07	1.14194e-06	0.0136023	0.006986855
	0.01371293	0.006745016	1.050866e-07	1.14194e-06	-0.01495518	-0.03772612	1.798514e-07	6.899355e-08
	7.760665e-07	-6.909151e-07	0.01360231	0.006986849	1.798514e-07	6.899358e-08	-0.01531538	-0.03704893
1e+08	-0.02197803	-0.03640924	1.278477e-07	3.347066e-08	0.01501028	0.005295517	6.432285e-07	-9.339003e-07
	1.278477e-07	3.347066e-08	-0.02226573	-0.03568516	1.065025e-07	1.27164e-06	0.01491449	0.00559159
	0.01501028	0.005295517	1.065025e-07	1.27164e-06	-0.0220679	-0.03645402	1.519279e-07	4.423617e-08
	6.432285e-07	-9.339003e-07	0.01491449	0.00559159	1.519279e-07	4.423617e-08	-0.02239306	-0.03561581
1.1e+08	-0.02846096	-0.03371905	9.109271e-08	1.77345e-08	0.01588186	0.00358777	4.336321e-07	-1.148593e-06
	9.109271e-08	1.77345e-08	-0.0286885	-0.03286117	1.097264e-07	1.403465e-06	0.01581267	0.003935304
	0.01588186	0.00358777	1.097264e-07	1.403465e-06	-0.02858902	-0.03376553	1.087325e-07	2.609128e-08
	4.336321e-07	-1.148593e-06	0.01581267	0.003935304	1.087325e-07	2.609128e-08	-0.02884402	-0.03277251
1.2e+08	-0.03411472	-0.02971332	4.297441e-08	1.148493e-08	0.01628516	0.001733646	1.550913e-07	-1.312713e-06
	4.297441e-08	1.148493e-08	-0.03425492	-0.02873407	1.155611e-07	1.537194e-06	0.01625337	0.002126813
	0.01628516	0.001733646	1.155611e-07	1.537194e-06	-0.0342745	-0.02974954	5.215083e-08	1.909501e-08
	1.550913e-07	-1.312713e-06	0.01625337	0.002126813	5.215083e-08	1.909501e-08	-0.03442725	-0.02861692
1.3e+08	-0.03862883	-0.02463444	-1.391422e-08	1.811308e-08	0.01620137	-0.0001481385	-1.789297e-07	-1.406002e-06
	-1.391422e-08	1.811308e-08	-0.03865686	-0.02355437	1.247172e-07	1.672008e-06	0.01621629	0.0002816221
	0.01620137	-0.0001481385	1.247172e-07	1.672008e-06	-0.03881511	-0.02465155	-1.477315e-08	2.723396e-08
	-1.789297e-07	-1.406002e-06	0.01621629	0.0002816222	-1.477315e-08	2.723396e-08	-0.03883701	-0.02340396
1.4e+08	-0.04179022	-0.01879338	-7.601581e-08	4.027732e-08	0.01564144	-0.001938219	-5.492925e-07	-1.411993e-06
	-7.601581e-08	4.027732e-08	-0.04168637	-0.01764068	1.376081e-07	1.806949e-06	0.01570996	-0.001483687
	0.01564144	-0.001938219	1.376081e-07	1.806949e-06	-0.04199648	-0.01878447	-8.786898e-08	5.363545e-08
	-5.492925e-07	-1.411993e-06	0.01570996	-0.001483687	-8.786898e-08	5.363545e-08	-0.04186532	-0.01745513
1.5e+08	-0.04347248	-0.01253824	-1.390342e-07	7.962678e-08	0.01464467	-0.003524212	-9.323319e-07	-1.319542e-06
	-1.390342e-07	7.962678e-08	-0.04322461	-0.01134734	1.5433e-07	1.940973e-06	0.01477044	-0.003058818
	0.01464467	-0.003524212	1.5433e-07	1.940973e-06	-0.04369106	-0.01249854	-1.621012e-07	1.002489e-07
	-9.323319e-07	-1.319542e-06	0.01477044	-0.003058818	-1.621012e-07	1.002489e-07	-0.04339363	-0.01112744
1.6e+08	-0.04363771	-0.006232249	-1.982272e-07	1.366057e-07	0.01327594	-0.004807202	-1.301346e-06	-1.124006e-06
	-1.982272e-07	1.366057e-07	-0.04324324	-0.005041552	1.746546e-07	2.073045e-06	0.01345881	-0.004346027
	0.01327594	-0.004807202	1.746546e-07	2.073045e-06	-0.04386033	-0.006159188	-2.319078e-07	1.676184e-07
	-1.301346e-06	-1.124006e-06	0.01345881	-0.004346027	-2.319078e-07	1.676184e-07	-0.04339443	-0.004790549
1.7e+08	-0.04233536	-0.0002327193	-2.487475e-07	2.103459e-07	0.01162159	-0.005707278	-1.628374e-06	-8.27998e-07
	-2.487475e-07	2.103459e-07	-0.04180239	0.000918171	1.980514e-07	2.202236e-06	0.01185726	-0.005265508
	0.01162159	-0.005707278	1.980514e-07	2.202236e-06	-0.04255359	-0.000125881	-2.915948e-07	2.547548e-07
	-1.628374e-06	-8.27998e-07	0.01185726	-0.005265508	-2.915948e-07	2.547548e-07	-0.04192921	0.001194975
1.8e+08	-0.03969685	0.005128752	-2.860056e-07	2.986569e-07	0.009784193	-0.00616792	-1.886149e-06	-4.416727e-07
	-2.860056e-07	2.986569e-07	-0.03904448	0.006202083	2.23737e-07	2.327802e-06	0.01006423	-0.005759705
	0.009784193	-0.00616792	2.23737e-07	2.327802e-06	-0.03990258	0.005267734	-3.357572e-07	3.591207e-07
	-1.886149e-06	-4.416727e-07	0.01006423	-0.005759705	-3.357572e-07	3.591207e-07	-0.03914222	0.006497793
1.9e+08	-0.03592627	0.009564076	-3.060258e-07	3.981169e-07	0.007876559	-0.006159058	-2.0501e-06	1.751088e-08
	-3.060258e-07	3.981169e-07	-0.03518409	0.01052702	2.507435e-07	2.449244e-06	0.00818863	-0.005796381
	0.007876559	-0.006159058	2.507435e-07	2.449244e-06	-0.03611211	0.009731717	-3.596945e-07	4.7673e-07
	-2.0501e-06	1.751088e-08	0.00818863	-0.005796381	-3.596945e-07	4.7673e-07	-0.03525013	0.01083372
2e+08	-0.0312876	0.01284378	-3.057668e-07	5.042565e-07	0.00601516	-0.005678675	-2.100274e-06	5.255434e-07
	-3.057668e-07	5.042565e-07	-0.03049421	0.01367129	2.780003e-07	2.56635e-06	0.006343679	-0.005370313
	0.00601516	-0.005678675	2.780003e-07	2.56635e-06	-0.03144722	0.01303498	-3.597879e-07	6.023559e-07
	-2.100274e-06	5.255434e-07	0.006343679	-0.005370313	-3.597879e-07	6.023559e-07	-0.03052819	0.01398064
2.1e+08	-0.02608889	0.01480874	-2.833858e-07	6.118233e-07	0.004313414	-0.004752881	-2.023049e-06	1.053117e-06
	-2.833858e-07	6.118233e-07	-0.02528983	0.01548594	3.04416e-07	2.679195e-06	0.004640381	-0.004503538
	0.004313414	-0.004752881	3.04416e-07	2.679195e-06	-0.02621731	0.01501705	-3.338152e-07	7.298347e-07
	-2.023049e-06	1.053117e-06	0.004640381	-0.004503538	-3.338152e-07	7.298347e-07	-0.02529365	0.01578977
2.2e+08	-0.02066443	0.01537793	-2.384253e-07	7.151073e-07	0.002875061	-0.003434429	-1.8125e-06	1.567316e-06
	-2.384253e-07	7.151073e-07	-0.01990937	0.01590195	3.289547e-07	2.788135e-06	0.003181154	-0.003244109
	0.002875061	-0.003434429	3.289547e-07	2.788135e-06	-0.02075827	0.01559587	-2.811778e-07	8.524431e-07
	-1.8125e-06	1.567316e-06	0.003181154	-0.003244109	-2.811778e-07	8.524431e-07	-0.01988703	0.01619282
2.3e+08	-0.01535561	0.01455185	-1.719126e-07	8.083058e-07	0.00178803	-0.001799711	-1.471322e-06	2.033657e-06
	-1.719126e-07	8.083058e-07	-0.01469516	0.01493284	3.507007e-07	2.89377e-06	0.002053841	-0.001663383
	0.00178803	-0.001799711	3.507007e-07	2.89377e-06	-0.01541327	0.01477128	-2.030271e-07	9.633263e-07
	-1.471322e-06	2.033657e-06	0.002053841	-0.001663383	-2.030271e-07	9.633263e-07	-0.01465252	0.01520459
2.4e+08	-0.01049163	0.01241151	-8.636521e-08	8.859051e-07	0.001119125	5.565409e-05	-1.011207e-06	2.418358e-06
	-8.636521e-08	8.859051e-07	-0.009973919	0.01267286	3.689074e-07	2.996906e-06	0.001326474	0.0001480628
	0.001119125	5.565408e-05	3.689074e-07	2.996906e-06	-0.01051341	0.01262401	-1.022797e-07	1.055949e-06
	-1.011207e-06	2.418358e-06	0.001326474	0.0001480628	-1.022797e-07	1.055949e-06	-0.009918296	0.01292095
2.5e+08	-0.006370979	0.009112816	1.429877e-08	9.430555e-07	0.0009098635	0.00202244	-4.526232e-07	2.690696e-06
	1.429877e-08	9.430555e-07	-0.006038219	0.009290439	3.83033e-07	3.098505e-06	0.001043106	0.002085711
	0.0009098635	0.00202244	3.83033e-07	3.098505e-06	-0.006359168	0.009310117	1.648091e-08	1.124545e-06
	-4.526232e-07	2.690696e-06	0.001043106	0.002085711	1.648091e-08	1.124545e-06	-0.005977925	0.00951236
2.6e+08	-0.003244794	0.004876954	1.249396e-07	9.759164e-07	0.001173777	0.003984352	1.760256e-07	2.825295e-06
	1.249396e-07	9.759164e-07	-0.003130035	0.005017686	3.927644e-07	3.199639e-06	0.001221005	0.004037308
	0.001173777	0.003984352	3.927644e-07	3.199639e-06	-0.003203625	0.005051376	1.472115e-07	1.16453e-06
	1.760256e-07	2.825295e-06	0.001221005	0.004037308	1.472115e-07	1.16453e-06	-0.003073901	0.005213084
2.7e+08	-0.001303126	-2.305796e-05	2.394575e-07	9.819609e-07	0.00189538	0.005825118	8.398421e-07	2.804169e-06
	2.394575e-07	9.819609e-07	-0.001427482	0.0001361434	3.980334e-07	3.301443e-06	0.001849448	0.005889652
	0.001895379	0.005825118	3.980334e-07	3.301443e-06	-0.001238558	0.0001218735	2.82718e-07	1.172868e-06
	8.398421e-07	2.804169e-06	0.001849448	0.005889652	2.82718e-07	1.172868e-06	-0.001384203	0.0003069449
2.8e+08	-0.000664582	-0.005278474	3.51126e-07	9.602066e-07	0.003030944	0.00743569	1.499406e-06	2.618373e-06
	3.51126e-07	9.602066e-07	-0.001035095	-0.005040037	3.990296e-07	3.40507e-06	0.002890241	0.007535537
	0.003030944	0.00743569	3.990296e-07	3.40507e-06	-0.0005840793	-0.005168204	4.150515e-07	1.148353e-06
	1.499406e-06	2.618373e-06	0.002890241	0.007535537	4.150515e-07	1.148353e-06	-0.001012695	-0.00488974
2.9e+08	-0.001370289	-0.01056299	4.5298e-07	9.113684e-07	0.004511087	0.008721081	2.11316e-06	2.269115e-06
	4.5298e-07	9.113684e-07	-0.001978614	-0.01018277	3.962073e-07	3.511637e-06	0.004279983	0.008880405
	0.004511087	0.008721081	3.962073e-07	3.511637e-06	-0.001282479	-0.01049076	5.35972e-07	1.091792e-06
	2.11316e-06	2.269115e-06	0.004279983	0.008880405	5.35972e-07	1.091792e-06	-0.001983926	-0.01004694
3e+08	-0.003382357	-0.01555172	5.382427e-07	8.379168e-07	0.006245029	0.009606368	2.640067e-06	1.768222e-06
	5.382427e-07	8.379168e-07	-0.004204393	-0.01496933	3.902884e-07	3.622171e-06	0.005933962	0.009848241
	0.006245029	0.009606368	3.902884e-07	3.622171e-06	-0.003296601	-0.01551885	6.374593e-07	1.006074e-06
	2.640067e-06	1.768222e-06	0.005933962	0.009848241	6.374593e-07	1.006074e-06	-0.004242596	-0.01484032
3.1e+08	-0.006586931	-0.01993989	6.007685e-07	7.440298e-07	0.008126269	0.01004143	3.042349e-06	1.137905e-06
	6.007685e-07	7.440298e-07	-0.007583463	-0.01910109	3.822541e-07	3.737544e-06	0.007751445	0.0103863
	0.008126269	0.01004143	3.822541e-07	3.737544e-06	-0.006512831	-0.0199455	7.122401e-07	8.961096e-07
	3.042349e-06	1.137905e-06	0.007751445	0.0103863	7.122401e-07	8.961096e-07	-0.007657718	-0.0189701
3.2e+08	-0.01080159	-0.02346015	6.354762e-07	6.354333e-07	0.01003929	0.01000409	3.288125e-06	4.09809e-07
	6.354762e-07	6.354333e-07	-0.01191994	-0.02232065	3.733208e-07	3.858406e-06	0.009621997	0.01046834
	0.01003929	0.01000409	3.733208e-07	3.858406e-06	-0.01074845	-0.0235011	7.543015e-07	7.686391e-07
	3.288125e-06	4.09809e-07	0.009621997	0.01046834	7.543015e-07	7.686391e-07	-0.01203114	-0.02217827
3.3e+08	-0.01578658	-0.02589754	6.387441e-07	5.191286e-07	0.01186684	0.009501412	3.353763e-06	-3.766154e-07
	6.387441e-07	5.191286e-07	-0.01696321	-0.02442629	3.648943e-07	3.985111e-06	0.01143239	0.01009609
	0.01186684	0.009501412	3.648943e-07	3.985111e-06	-0.01576289	-0.02596851	7.593548e-07	6.319025e-07
	3.353763e-06	-3.766154e-07	0.01143239	0.01009609	7.593548e-07	6.319025e-07	-0.01710989	-0.02426307
3.4e+08	-0.02125922	-0.02710116	6.087369e-07	4.03016e-07	0.01349726	0.008569149	3.225757e-06	-1.176309e-06
	6.087369e-07	4.03016e-07	-0.02242315	-0.02528301	3.584989e-07	4.117656e-06	0.01307364	0.009298987
	0.01349726	0.008569149	3.584989e-07	4.117656e-06	-0.02127214	-0.0271949	7.252155e-07	4.951945e-07
	3.225757e-06	-1.176309e-06	0.01307364	0.009298987	7.252155e-07	4.951945e-07	-0.02260152	-0.02509005
3.5e+08	-0.0269105	-0.02699206	5.456327e-07	2.954317e-07	0.0148314	0.007269306	2.90202e-06	-1.941246e-06
	5.456327e-07	2.954317e-07	-0.02798734	-0.02482953	3.55682e-07	4.255633e-06	0.01444765	0.008132093
	0.0148314	0.007269306	3.55682e-07	4.255633e-06	-0.02696539	-0.02709972	6.520649e-07	3.68317e-07
	2.90202e-06	-1.941246e-06	0.01444765	0.008132093	6.520649e-07	3.68317e-07	-0.02819147	-0.02459904
3.6e+08	-0.03242289	-0.02556695	4.51728e-07	2.046235e-07	0.01578861	0.005686121	2.392459e-06	-2.623353e-06
	4.51728e-07	2.046235e-07	-0.03333931	-0.02308087	3.578994e-07	4.398213e-06	0.01547308	0.006672476
	0.01578861	0.005686121	3.578994e-07	4.398213e-06	-0.03252299	-0.02567852	5.425662e-07	2.609669e-07
	2.392459e-06	-2.623353e-06	0.01547308	0.006672476	5.425662e-07	2.609669e-07	-0.03356147	-0.02280672
3.7e+08	-0.03748845	-0.02289759	3.314013e-07	1.38201e-07	0.01631153	0.003920702	1.718823e-06	-3.17751e-06
	3.314013e-07	1.38201e-07	-0.03817668	-0.02012672	3.663917e-07	4.544166e-06	0.01609011	0.005014305
	0.01631153	0.003920702	3.663917e-07	4.544166e-06	-0.0376346	-0.02300242	4.018181e-07	1.820953e-07
	1.718823e-06	-3.17751e-06	0.01609011	0.005014305	4.018181e-07	1.820953e-07	-0.03840777	-0.01980479
3.8e+08	-0.04182596	-0.01912595	1.909285e-07	1.025993e-07	0.01636932	0.002084754	9.137897e-07	-3.564453e-06
	1.909285e-07	1.025993e-07	-0.04222824	-0.01612542	3.820646e-07	4.691919e-06	0.01626369	0.003263018
	0.01636932	0.002084754	3.820646e-07	4.691919e-06	-0.04201652	-0.01921331	2.371381e-07	1.392869e-07
	9.137897e-07	-3.564453e-06	0.01626369	0.003263018	2.371381e-07	1.392869e-07	-0.04245836	-0.01575394
3.9e+08	-0.04519649	-0.01445566	3.815664e-08	1.025998e-07	0.01595925	0.0002937733	1.936005e-08	-3.75339e-06
	3.815664e-08	1.025998e-07	-0.045269	-0.01129434	4.053884e-07	4.839657e-06	0.01598539	0.001528948
	0.01595925	0.0002937733	4.053884e-07	4.839657e-06	-0.04542731	-0.01451536	5.768425e-08	1.382048e-07
	1.936005e-08	-3.75339e-06	0.01598539	0.001528948	5.768425e-08	1.382048e-07	-0.04548802	-0.01087401
4e+08	-0.04741631	-0.009140109	-1.179459e-07	1.409452e-07	0.01510662	-0.001339835	-9.153587e-07	-3.724177e-06
	-1.179459e-07	1.409452e-07	-0.04713244	-0.005897034	4.363303e-07	4.985449e-06	0.01527355	-7.919373e-05
	0.01510662	-0.001339835	4.363303e-07	4.985449e-06	-0.04768095	-0.009163036	-1.260635e-07	1.821445e-07
	-9.153587e-07	-3.724177e-06	0.01527355	-7.919373e-05	-1.260635e-07	1.821445e-07	-0.04733062	-0.00543103
4.1e+08	-0.04836673	-0.003468022	-2.678331e-07	2.180831e-07	0.01386301	-0.002713343	-1.836859e-06	-3.468907e-06
	-2.678331e-07	2.180831e-07	-0.04771939	-0.0002280679	4.743306e-07	5.127403e-06	0.01417198	-0.001460611
	0.01386301	-0.002713343	4.743306e-07	5.127403e-06	-0.04865667	-0.003446703	-3.02929e-07	2.717335e-07
	-1.836859e-06	-3.468907e-06	0.01417198	-0.001460611	-3.02929e-07	2.717335e-07	-0.04788799	0.0002781172
4.2e+08	-0.04800023	0.002252732	-4.019798e-07	3.320594e-07	0.01230316	-0.003739625	-2.690276e-06	-2.992822e-06
	-4.019798e-07	3.320594e-07	-0.0470031	0.005403714	5.183266e-07	5.263812e-06	0.01274721	-0.002528162
	0.01230316	-0.003739625	5.183266e-07	5.263812e-06	-0.04830535	0.002323698	-4.617296e-07	4.048001e-07
	-2.690276e-06	-2.992822e-06	0.01274721	-0.002528162	-4.617296e-07	4.048001e-07	-0.04713493	0.005942569
4.3e+08	-0.04634276	0.007712266	-5.114921e-07	4.785715e-07	0.01052045	-0.004352143	-3.422604e-06	-2.314481e-06
	-5.114921e-07	4.785715e-07	-0.04503033	0.01069255	5.66823e-07	5.393297e-06	0.01108457	-0.003213274
	0.01052045	-0.004352143	5.66823e-07	5.393297e-06	-0.0466518	0.007835845	-5.919825e-07	5.764245e-07
	-3.422604e-06	-2.314481e-06	0.01108457	-0.003213274	-5.919825e-07	5.764245e-07	-0.04512018	0.01125496
4.4e+08	-0.043492	0.01261576	-5.886863e-07	6.511775e-07	0.008621549	-0.004508734	-3.985906e-06	-1.465143e-06
	-5.886863e-07	6.511775e-07	-0.04191833	0.01535279	6.180009e-07	5.514912e-06	0.009283231	-0.003469788
	0.008621549	-0.004508734	6.180009e-07	5.514912e-06	-0.04379315	0.01279226	-6.845791e-07	7.791683e-07
	-3.985906e-06	-1.465143e-06	0.009283231	-0.003469788	-6.845791e-07	7.791683e-07	-0.04196335	0.01592859
4.5e+08	-0.03961178	0.01669971	-6.27595e-07	8.416463e-07	0.006720221	-0.004194054	-4.340342e-06	-4.873996e-07
	-6.27595e-07	8.416463e-07	-0.03784806	0.01913478	6.698528e-07	5.628212e-06	0.007450537	-0.003276578
	0.006720221	-0.004194054	6.698528e-07	5.628212e-06	-0.03989335	0.01692668	-7.323817e-07	1.003467e-06
	-4.340342e-06	-4.873996e-07	0.007450537	-0.003276578	-7.323817e-07	1.003467e-06	-0.03784796	0.01971332
4.6e+08	-0.03492297	0.01974642	-6.243705e-07	1.040423e-06	0.004930797	-0.003420535	-4.456825e-06	5.669094e-07
	-6.243705e-07	1.040423e-06	-0.03305395	0.02183871	7.203279e-07	5.73328e-06	0.005695905	-0.002638799
	0.004930797	-0.003420535	7.203279e-07	5.73328e-06	-0.03517396	0.02001876	-7.307027e-07	1.238159e-06
	-4.456825e-06	5.669094e-07	0.005695905	-0.002638799	-7.307027e-07	1.238159e-06	-0.03301105	0.02240956
4.7e+08	-0.02969117	0.02159597	-5.775581e-07	1.237177e-06	0.003361563	-0.00222782	-4.319166e-06	1.639405e-06
	-5.775581e-07	1.237177e-06	-0.02781067	0.02332568	7.674681e-07	5.830704e-06	0.004124539	-0.001587713
	0.003361563	-0.00222782	7.674681e-07	5.830704e-06	-0.02990192	0.02190603	-6.776527e-07	1.471117e-06
	-4.319166e-06	1.639405e-06	0.004124539	-0.001587713	-6.776527e-07	1.471117e-06	-0.02772976	0.02387916
4.8e+08	-0.02421203	0.02215513	-4.882305e-07	1.421397e-06	0.002108417	-0.0006806608	-3.925533e-06	2.668367e-06
