!$
! Info: Touchstone file created by Circ.  Input file=Tx_10in_Rx_100ohms_TxVia_35mils_RxVia_45mils.circ
!$
# Hz S RI R 50
0	0.01041878	1.265104e-25	-5.387949e-05	3.763524e-24	7.280937e-05	1.945069e-23	-5.386022e-05	1.432237e-24
	-5.387952e-05	3.766305e-24	0.01041707	1.543833e-25	-5.389075e-05	5.296074e-24	7.267327e-05	2.356907e-23
	7.262378e-05	1.936904e-23	-5.389073e-05	5.293717e-24	0.0104294	1.264934e-25	-5.387673e-05	3.614593e-24
	-5.386024e-05	1.434418e-24	7.082512e-05	2.368511e-23	-5.387674e-05	3.61635e-24	0.01043017	1.446498e-25
1e+07	0.01519921	0.006578565	-0.0001897752	1.982927e-05	0.0006571516	0.00190513	-7.256909e-05	-4.737412e-06
	-0.0001897752	1.982927e-05	0.01534751	0.006564045	-1.280411e-05	0.0001224615	0.0006534847	0.001903356
	0.0006571462	0.001905131	-1.280411e-05	0.0001224615	0.01537033	0.00657041	-0.0001897709	1.981438e-05
	-7.256908e-05	-4.737414e-06	0.000653424	0.001903365	-0.0001897709	1.981437e-05	0.01520928	0.006588831
2e+07	0.01988603	0.009357161	-0.0001544747	-5.435728e-05	0.001106683	0.003893828	-5.778032e-05	-1.065918e-05
	-0.0001544747	-5.435728e-05	0.01997097	0.009281557	-4.897118e-05	0.0002057569	0.001092836	0.003892809
	0.001106684	0.003893832	-4.897118e-05	0.0002057569	0.0200183	0.009288176	-0.0001544809	-5.437591e-05
	-5.778032e-05	-1.065919e-05	0.001092827	0.003892844	-0.0001544809	-5.437592e-05	0.01988045	0.009378971
3e+07	0.02398813	0.01020052	-0.0001314039	-7.716276e-05	0.001932855	0.00556684	-4.93652e-05	-1.895691e-05
	-0.0001314039	-7.716276e-05	0.0240061	0.0101143	-0.0001086434	0.0002498698	0.001903316	0.005570797
	0.001932858	0.005566839	-0.0001086434	0.0002498698	0.02409105	0.010111	-0.000131421	-7.72087e-05
	-4.936519e-05	-1.895691e-05	0.001903315	0.005570802	-0.000131421	-7.72087e-05	0.02395675	0.01024019
4e+07	0.02772327	0.009961386	-0.0001153167	-8.91305e-05	0.003098576	0.006968359	-4.308147e-05	-2.305641e-05
	-0.0001153167	-8.91305e-05	0.02766987	0.009888139	-0.0001538105	0.0002857767	0.003049197	0.006982965
	0.003098576	0.006968358	-0.0001538105	0.0002857767	0.0278023	0.009861343	-0.00011535	-8.921631e-05
	-4.308147e-05	-2.305641e-05	0.003049192	0.006982963	-0.00011535	-8.921631e-05	0.02765788	0.01002763
5e+07	0.03109016	0.008876375	-0.0001031833	-9.611064e-05	0.00465827	0.007984223	-3.802507e-05	-2.547637e-05
	-0.0001031833	-9.611064e-05	0.03096374	0.008837485	-0.0001894307	0.0003193859	0.004586614	0.008016083
	0.00465827	0.007984222	-0.0001894307	0.0003193859	0.03114933	0.008770633	-0.0001032439	-9.624773e-05
	-3.802507e-05	-2.547637e-05	0.00458661	0.008016081	-0.0001032439	-9.624773e-05	0.03098502	0.008980668
6e+07	0.03403923	0.007091918	-9.327639e-05	-0.0001001287	0.006355225	0.008653137	-3.375027e-05	-2.708761e-05
	-9.327639e-05	-0.0001001287	0.03384233	0.007108026	-0.0002182045	0.0003524059	0.006260806	0.008709575
	0.006355226	0.008653137	-0.0002182045	0.0003524059	0.03408168	0.006983069	-9.338104e-05	-0.0001003253
	-3.375027e-05	-2.708761e-05	0.006260809	0.008709575	-9.338104e-05	-0.0001003253	0.03389216	0.007247476
7e+07	0.03650842	0.004727934	-0.0001042249	-8.448349e-05	0.008119644	0.008958874	-2.954875e-05	-2.812541e-05
	-0.0001042249	-8.448349e-05	0.03624797	0.004818448	-0.0002417717	0.0003852547	0.008004004	0.009047322
	0.008119646	0.008958874	-0.0002417717	0.0003852547	0.03653654	0.004617373	-0.0001043864	-8.472576e-05
	-2.954875e-05	-2.812541e-05	0.008004013	0.009047319	-0.0001043864	-8.472576e-05	0.036321	0.004948498
8e+07	0.03843885	0.001899347	-0.0001226849	-5.108296e-05	0.009878476	0.008897821	-3.280009e-05	-2.062193e-05
	-0.0001226849	-5.108296e-05	0.0381261	0.002081759	-0.0002623754	0.0004172774	0.009745167	0.009025322
	0.009878479	0.008897821	-0.0002623754	0.0004172774	0.03845446	0.001787841	-0.0001229044	-5.136313e-05
	-3.280009e-05	-2.062193e-05	0.009745178	0.009025316	-0.0001229044	-5.136313e-05	0.03821635	0.002198261
9e+07	0.03978357	-0.001276786	-0.0001307046	-1.348659e-05	0.01155797	0.008479827	-3.551761e-05	-9.60223e-06
	-0.0001307046	-1.348659e-05	0.0394339	-0.0009875581	-0.0002841785	0.0004469992	0.01141244	0.008652555
	0.01155797	0.008479826	-0.0002841785	0.0004469992	0.0397882	-0.001388652	-0.0001309985	-1.379851e-05
	-3.551762e-05	-9.60223e-06	0.01141244	0.00865255	-0.0001309985	-1.379851e-05	0.03953474	-0.0008873931
1e+08	0.04052416	-0.004673908	-0.0001233452	2.889687e-05	0.01308092	0.00772519	-3.346647e-05	2.636827e-06
	-0.0001233452	2.889687e-05	0.04015814	-0.004265531	-0.0003229223	0.0004669037	0.01293027	0.00794801
	0.01308092	0.00772519	-0.0003229223	0.0004669037	0.0405207	-0.004784744	-0.0001237294	2.855894e-05
	-3.346647e-05	2.636827e-06	0.01293027	0.00794801	-0.0001237294	2.855894e-05	0.04026097	-0.004183933
1.1e+08	0.04064385	-0.008268628	-0.0001004853	5.092853e-05	0.01438244	0.006714176	-2.687721e-05	8.056718e-06
	-0.0001004853	5.092853e-05	0.04028583	-0.007742957	-0.0003294731	0.0004415011	0.01423544	0.006989927
	0.01438244	0.006714176	-0.0003294731	0.0004415011	0.04063549	-0.008387473	-0.0001009888	5.057472e-05
	-2.687721e-05	8.056718e-06	0.01423544	0.006989927	-0.0001009888	5.057472e-05	0.04038326	-0.007671789
1.2e+08	0.04006172	-0.0118673	-8.248773e-05	6.524862e-05	0.0154471	0.005468128	-2.232642e-05	1.130988e-05
	-8.248773e-05	6.524862e-05	0.03972764	-0.01122432	-0.0003171029	0.0004314139	0.01531294	0.005797788
	0.0154471	0.005468128	-0.0003171029	0.0004314139	0.04004123	-0.01199521	-8.312293e-05	6.492031e-05
	-2.232642e-05	1.130988e-05	0.01531294	0.005797788	-8.312293e-05	6.492031e-05	0.03981957	-0.01116033
1.3e+08	0.03881983	-0.01533327	-6.537869e-05	7.544559e-05	0.01622247	0.004036157	-1.840366e-05	1.356371e-05
	-6.537869e-05	7.544559e-05	0.03852873	-0.01457567	-0.0003000686	0.0004254278	0.01611078	0.004418481
	0.01622247	0.004036157	-0.0003000686	0.0004254278	0.0387825	-0.0154684	-6.614644e-05	7.518221e-05
	-1.840366e-05	1.356371e-05	0.01611078	0.004418481	-6.614644e-05	7.518221e-05	0.03861376	-0.01451646
1.4e+08	0.03696572	-0.01854848	-4.871714e-05	8.225713e-05	0.01667484	0.002480642	-1.487393e-05	1.510913e-05
	-4.871714e-05	8.225713e-05	0.03673711	-0.01768329	-0.0002815583	0.0004208392	0.01659512	0.002912038
	0.01667484	0.002480642	-0.0002815583	0.0004208392	0.03690802	-0.01868759	-4.960714e-05	8.20976e-05
	-1.487393e-05	1.510913e-05	0.01659512	0.002912038	-4.960714e-05	8.20976e-05	0.03681411	-0.01762644
1.5e+08	0.03456301	-0.02140707	-3.255267e-05	8.604692e-05	0.01678508	0.0008700432	-1.164255e-05	1.611166e-05
	-3.255267e-05	8.604692e-05	0.03441545	-0.02044601	-0.0002632985	0.0004166553	0.01674615	0.001344589
	0.01678508	0.0008700432	-0.0002632985	0.0004166553	0.03448253	-0.02154598	-3.354332e-05	8.6027e-05
	-1.164255e-05	1.611166e-05	0.01674615	0.001344589	-3.354332e-05	8.6027e-05	0.03448376	-0.02038908
1.6e+08	0.03169093	-0.02381713	-1.711113e-05	8.708642e-05	0.01654889	-0.0007245631	-8.663924e-06	1.667792e-05
	-1.711113e-05	8.708642e-05	0.03164073	-0.02277645	-0.0002464033	0.0004126993	0.01655835	-0.0002149656
	0.01654889	-0.000724563	-0.0002464033	0.0004126993	0.03158641	-0.02395105	-1.817062e-05	8.723549e-05
	-8.663924e-06	1.667792e-05	0.01655835	-0.0002149656	-1.817062e-05	8.723549e-05	0.03170016	-0.0227171
1.7e+08	0.02844245	-0.02570291	-2.681566e-06	8.565194e-05	0.01597683	-0.002232671	-5.913283e-06	1.688384e-05
	-2.681566e-06	8.565194e-05	0.02850252	-0.02460292	-0.000231572	0.0004092772	0.01604048	-0.00169801
	0.01597683	-0.002232671	-0.000231572	0.0004092772	0.0283138	-0.02582671	-3.769976e-06	8.599002e-05
	-5.913283e-06	1.688384e-05	0.01604048	-0.00169801	-3.769976e-06	8.599002e-05	0.0285533	-0.02453895
1.8e+08	0.02492162	-0.02700694	1.044439e-05	8.206071e-05	0.01509372	-0.003587404	-3.375915e-06	1.67871e-05
	1.044439e-05	8.206071e-05	0.02510042	-0.02587119	-0.0002191379	0.0004069861	0.01521516	-0.003039153
	0.01509372	-0.003587404	-0.0002191379	0.0004069861	0.02476993	-0.02711538	9.372102e-06	8.259626e-05
	-3.375915e-06	1.67871e-05	0.01521516	-0.003039153	9.372102e-06	8.259626e-05	0.02514318	-0.02580061
1.9e+08	0.02124042	-0.0276917	2.20139e-05	7.667903e-05	0.01393761	-0.004728372	-1.042425e-06	1.643355e-05
	2.20139e-05	7.667903e-05	0.02154118	-0.02654597	-0.0002090838	0.000406573	0.01411789	-0.004178988
	0.01393761	-0.004728372	-0.0002090838	0.000406573	0.02106797	-0.02777966	2.100423e-05	7.740761e-05
	-1.042425e-06	1.643355e-05	0.01411789	-0.004178988	2.100423e-05	7.740761e-05	0.02157683	-0.02646703
2e+08	0.01751511	-0.02774073	3.184186e-05	6.991415e-05	0.01255813	-0.005604252	1.093644e-06	1.58609e-05
	3.184186e-05	6.991415e-05	0.0179353	-0.02661186	-0.0002010588	0.0004088123	0.01279549	-0.005066593
	0.01255813	-0.005604252	-0.0002010588	0.0004088123	0.01732535	-0.02780349	3.093882e-05	7.081836e-05
	1.093644e-06	1.58609e-05	0.01279549	-0.005066593	3.093882e-05	7.081836e-05	0.01796505	-0.02652308
2.1e+08	0.01386246	-0.02715916	3.983016e-05	6.219611e-05	0.01101438	-0.006174969	3.037048e-06	1.510103e-05
	3.983016e-05	6.219611e-05	0.01439352	-0.02607368	-0.0001944075	0.0004144008	0.01130415	-0.005661656
	0.01101438	-0.006174969	-0.0001944075	0.0004144008	0.01365993	-0.02719262	3.907138e-05	6.324671e-05
	3.037048e-06	1.510103e-05	0.01130415	-0.005661656	3.907138e-05	6.324671e-05	0.01441877	-0.02597388
2.2e+08	0.01039585	-0.02597338	4.597666e-05	5.39539e-05	0.009372424	-0.006413402	4.791604e-06	1.418145e-05
	4.597666e-05	5.39539e-05	0.01102323	-0.02495622	-0.0001882179	0.0004238656	0.009707083	-0.005936166
	0.009372424	-0.006413402	-0.0001882179	0.0004238656	0.01018604	-0.02597432	4.538995e-05	5.511218e-05
	4.791604e-06	1.418145e-05	0.009707083	-0.005936166	4.538995e-05	5.511218e-05	0.01104557	-0.02484451
2.3e+08	0.007221415	-0.02423013	5.037469e-05	4.558948e-05	0.007702472	-0.006306543	6.360622e-06	1.312629e-05
	5.037469e-05	4.558948e-05	0.007924931	-0.02330323	-0.0001813863	0.0004374889	0.008071809	-0.005875578
	0.007702472	-0.006306543	-0.0001813863	0.0004374889	0.007010611	-0.02419639	4.997547e-05	4.681059e-05
	6.360622e-06	1.312629e-05	0.008071809	-0.005875578	4.997547e-05	4.681059e-05	0.007946053	-0.02317908
2.4e+08	0.004434411	-0.02199479	5.320429e-05	3.745225e-05	0.0060759	-0.005856039	7.747093e-06	1.195699e-05
	5.320429e-05	3.745225e-05	0.005188873	-0.02117584	-0.0001726986	0.0004552607	0.006467364	-0.005479403
	0.0060759	-0.005856039	-0.0001726986	0.0004552607	0.00422948	-0.0219255	5.299411e-05	3.868923e-05
	7.747093e-06	1.195699e-05	0.006467364	-0.005479403	5.299411e-05	3.868923e-05	0.005210537	-0.02103907
2.5e+08	0.002115981	-0.01934902	5.471414e-05	2.981809e-05	0.004562216	-0.005078128	8.953808e-06	1.069272e-05
	5.471414e-05	2.981809e-05	0.002892133	-0.01865037	-0.0001609182	0.0004768472	0.004961373	-0.004761212
	0.004562216	-0.005078128	-0.0001609182	0.0004768472	0.001924096	-0.01924468	5.468057e-05	3.102631e-05
	8.953808e-06	1.069272e-05	0.004961373	-0.004761212	5.468057e-05	3.102631e-05	0.002916087	-0.01850116
2.6e+08	0.0003303664	-0.0163878	5.519867e-05	2.287376e-05	0.003226104	-0.00400293	9.983302e-06	9.350848e-06
	5.519867e-05	2.287376e-05	0.001096037	-0.01581557	-0.000144879	0.0005015923	0.003617217	-0.003748038
	0.003226104	-0.00400293	-0.000144879	0.0005015923	0.0001587096	-0.01625045	5.531653e-05	2.401525e-05
	9.983302e-06	9.350848e-06	0.003617217	-0.003748038	5.531653e-05	2.401525e-05	0.001123946	-0.01565447
2.7e+08	-0.0008772541	-0.01321607	5.497049e-05	1.67095e-05	0.002124682	-0.002673153	1.083778e-05	7.947219e-06
	5.497049e-05	1.67095e-05	-0.0001558046	-0.01276947	-0.0001235746	0.0005285402	0.002491385	-0.00247921
	0.002124682	-0.002673153	-0.0001235746	0.0005285402	-0.001021814	-0.01304924	5.520444e-05	1.775672e-05
	1.083778e-05	7.947219e-06	0.002491385	-0.00247921	5.520444e-05	1.775672e-05	-0.0001224282	-0.01259737
2.8e+08	-0.00148226	-0.009944899	5.433238e-05	1.131948e-05	0.001305088	-0.001142271	1.151899e-05	6.496717e-06
	5.433238e-05	1.131948e-05	-0.0008388425	-0.009615874	-9.623411e-05	0.0005564865	0.001631117	-0.001004676
	0.001305088	-0.001142271	-9.623411e-05	0.0005564865	-0.001593481	-0.009753565	5.464063e-05	1.225819e-05
	1.151899e-05	6.496717e-06	0.001631117	-0.001004676	5.464063e-05	1.225819e-05	-0.0007987048	-0.009433972
2.9e+08	-0.001481318	-0.0066875	5.355014e-05	6.611001e-06	0.0008025035	0.0005277697	1.202828e-05	5.01363e-06
	5.355014e-05	6.611001e-06	-0.0009482578	-0.006460736	-6.238466e-05	0.0005840442	0.001072457	0.0006171285
	0.0008025035	0.0005277697	-6.238466e-05	0.0005840442	-0.001553913	-0.006477991	5.388895e-05	7.441914e-06
	1.202828e-05	5.01363e-06	0.001072457	0.0006171285	5.388895e-05	7.441914e-06	-0.0009003543	-0.006270481
3e+08	-0.0008923493	-0.003555182	5.282959e-05	2.421448e-06	0.0006386836	0.002269183	1.236661e-05	3.512132e-06
	5.282959e-05	2.421448e-06	-0.0004989232	-0.003408392	-2.189277e-05	0.0006097254	0.0008387833	0.002321744
	0.0006386836	0.002269183	-2.189277e-05	0.0006097254	-0.0009222682	-0.003334973	5.315819e-05	3.160336e-06
	1.236661e-05	3.512132e-06	0.0008387833	0.002321744	5.315819e-05	3.160336e-06	-0.0004425844	-0.003211429
3.1e+08	0.0002462895	-0.0006533726	5.229997e-05	-1.459526e-06	0.000821073	0.004011216	1.253483e-05	2.006805e-06
	5.229997e-05	-1.459526e-06	0.0004753423	-0.0005579425	2.502317e-05	0.0006320329	0.0009398736	0.004041406
	0.000821073	0.004011216	2.502317e-05	0.0006320329	0.0002616077	-0.0004308303	5.258537e-05	-7.832004e-07
	1.253483e-05	2.006805e-06	0.0009398737	0.004041406	5.258537e-05	-7.832004e-07	0.0005404118	-0.000356032
3.2e+08	0.001877357	0.001922117	5.200445e-05	-5.263191e-06	0.001342527	0.005683138	1.253409e-05	5.129143e-07
	5.200445e-05	-5.263191e-06	0.001923183	0.00200017	7.779824e-05	0.0006495488	0.001371554	0.005707869
	0.001342527	0.005683138	7.779824e-05	0.0006495488	0.001938789	0.002138038	5.222567e-05	-4.609164e-06
	1.253409e-05	5.129143e-07	0.001371554	0.005707869	5.222567e-05	-4.609164e-06	0.001996885	0.002205233
3.3e+08	0.003926966	0.004088448	5.189928e-05	-9.213818e-06	0.002181647	0.007217203	1.236631e-05	-9.53363e-07
	5.189928e-05	-9.213818e-06	0.003777736	0.004187232	0.0001355537	0.0006610189	0.002115924	0.007255252
	0.002181647	0.007217203	0.0001355537	0.0006610189	0.004033574	0.004288554	5.205067e-05	-8.535177e-06
	1.236631e-05	-9.53363e-07	0.002115924	0.007255252	5.205067e-05	-8.535177e-06	0.003859575	0.004393706
3.4e+08	0.006307403	0.005778611	5.186139e-05	-1.350235e-05	0.003303711	0.008551482	1.20348e-05	-2.374878e-06
	5.186139e-05	-1.350235e-05	0.005959188	0.005938885	0.0001971551	0.0006654255	0.003142151	0.008622748
	0.003303711	0.008551482	0.0001971551	0.0006654255	0.00645638	0.005953849	5.195444e-05	-1.27506e-05
	1.20348e-05	-2.374878e-06	0.003142151	0.008622748	5.195444e-05	-1.27506e-05	0.00604829	0.006145167
3.5e+08	0.008920441	0.006943683	5.170329e-05	-1.826301e-05	0.004662155	0.009632426	1.154481e-05	-3.733787e-06
	5.170329e-05	-1.826301e-05	0.008377762	0.007207196	0.0002612782	0.0006620394	0.004407795	0.009757116
	0.004662155	0.009632426	0.0002612782	0.0006620394	0.009107133	0.007085524	5.176694e-05	-1.739364e-05
	1.154481e-05	-3.733787e-06	0.004407795	0.009757116	5.176694e-05	-1.739364e-05	0.008472914	0.007411902
3.6e+08	0.01166099	0.007554403	5.11944e-05	-2.355618e-05	0.006200532	0.01041708	1.090403e-05	-5.011928e-06
	5.11944e-05	-2.355618e-05	0.01093703	0.007962125	0.000326494	0.0006504523	0.005860591	0.01061484
	0.006200532	0.01041708	0.000326494	0.0006504523	0.011879	0.007655222	5.127354e-05	-2.253415e-05
	1.090403e-05	-5.011928e-06	0.005860591	0.01061484	5.127354e-05	-2.253415e-05	0.01103673	0.008164162
3.7e+08	0.01442098	0.007602012	5.008635e-05	-2.935801e-05	0.007854871	0.01087483	1.012297e-05	-6.191449e-06
	5.008635e-05	-2.935801e-05	0.01353742	0.008192331	0.0003913518	0.0006305858	0.007440633	0.0111639
	0.007854871	0.01087483	0.0003913518	0.0006305858	0.01466236	0.007655456	5.02387e-05	-2.816276e-05
	1.012297e-05	-6.191449e-06	0.007440633	0.0111639	5.02387e-05	-2.816276e-05	0.01363994	0.008390955
3.8e+08	0.01709329	0.007098356	4.814026e-05	-3.555845e-05	0.009556327	0.01098867	9.215004e-06	-7.255495e-06
	4.814026e-05	-3.555845e-05	0.01607976	0.007905312	0.0004544629	0.0006026766	0.009082842	0.011385
	0.009556327	0.01098867	0.0004544629	0.0006026766	0.01734879	0.007099653	4.843178e-05	-3.418775e-05
	9.215004e-06	-7.255495e-06	0.009082842	0.011385	4.843178e-05	-3.418775e-05	0.01618323	0.008100171
3.9e+08	0.01957563	0.006075223	4.515327e-05	-4.196747e-05	0.01123403	0.01075587	8.196365e-06	-8.188943e-06
	4.515327e-05	-4.196747e-05	0.0184688	0.007126864	0.0005145758	0.0005672395	0.01071963	0.0112724
	0.01123403	0.01075587	0.0005145758	0.0005672395	0.01983501	0.006021452	4.565243e-05	-4.043986e-05
	8.196365e-06	-8.188943e-06	0.01071963	0.0112724	4.565243e-05	-4.043986e-05	0.01857132	0.007318022
4e+08	0.02177419	0.004582975	4.098217e-05	-4.832874e-05	0.01281797	0.01018809	7.085764e-06	-8.979094e-06
	4.098217e-05	-4.832874e-05	0.02061656	0.005899911	0.0005706353	0.000525015	0.01228368	0.01083404
	0.01281797	0.01018809	0.0005706353	0.000525015	0.02202664	0.004473267	4.175364e-05	-4.668424e-05
	7.085764e-06	-8.979094e-06	0.01228368	0.01083404	4.175364e-05	-4.668424e-05	0.02071623	0.006087851
4.1e+08	0.02360696	0.002688532	3.556182e-05	-5.434011e-05	0.01424192	0.009310924	5.903923e-06	-9.616241e-06
	3.556182e-05	-5.434011e-05	0.02244527	0.004282739	0.0006218258	0.0004769004	0.01371063	0.01009125
	0.01424192	0.009310924	0.0006218258	0.0004769004	0.02384147	0.002524189	3.666005e-05	-5.263888e-05
	5.903923e-06	-9.616241e-06	0.01371063	0.01009125	3.666005e-05	-5.263888e-05	0.02254034	0.004468355
4.2e+08	0.02500661	0.0004727551	2.891682e-05	-5.967841e-05	0.01544611	0.008162832	4.67292e-06	-1.009409e-05
	2.891682e-05	-5.967841e-05	0.02389007	0.002346716	0.0006675918	0.0004238752	0.01494175	0.009077875
	0.01544611	0.008162832	0.0006675918	0.0004238752	0.02521241	0.0002572803	3.038009e-05	-5.799765e-05
	4.67292e-06	-1.009409e-05	0.01494175	0.009077875	3.038009e-05	-5.799765e-05	0.02397899	0.002531273
4.3e+08	0.02592273	-0.001972632	2.11654e-05	-6.402687e-05	0.01637968	0.006793618	3.415469e-06	-1.040999e-05
	2.11654e-05	-6.402687e-05	0.02490111	0.0001735762	0.0007076361	0.0003669267	0.01592627	0.007838874
	0.01637968	0.006793618	0.0007076361	0.0003669267	0.02608978	-0.002233576	2.301099e-05	-6.245598e-05
	3.415469e-06	-1.040999e-05	0.01592627	0.007838874	2.301099e-05	-6.245598e-05	0.02498263	0.000358666
4.4e+08	0.02632362	-0.004548492	1.251507e-05	-6.710266e-05	0.01700283	0.005262411	2.154177e-06	-1.056498e-05
	1.251507e-05	-6.710266e-05	0.02544515	-0.002147625	0.0007418973	0.0003069795	0.01662347	0.006428532
	0.01700283	0.005262411	0.0007418973	0.0003069795	0.026443	-0.00484724	1.473587e-05	-6.5737e-05
	2.154177e-06	-1.056498e-05	0.01662347	0.006428532	1.473587e-05	-6.5737e-05	0.02551837	-0.001960158
4.5e+08	0.02619716	-0.007151974	3.250317e-06	-6.86821e-05	0.01728843	0.003635275	9.108428e-07	-1.056368e-05
	3.250317e-06	-6.86821e-05	0.02550652	-0.004523794	0.0007705101	0.0002448374	0.01700433	0.004908261
	0.01728843	0.003635275	0.0007705101	0.0002448374	0.02626151	-0.007479085	5.813407e-06	-6.761594e-05
	9.108428e-07	-1.056368e-05	0.01700433	0.004908261	5.813407e-06	-6.761594e-05	0.02557095	-0.004331922
4.6e+08	0.0255512	-0.009680321	-6.286757e-06	-6.862128e-05	0.01722322	0.001982539	-2.942517e-07	-1.041391e-05
	-6.286757e-06	-6.862128e-05	0.0250875	-0.006861177	0.0007937502	0.0001811354	0.01705277	0.003344126
	0.01722322	0.001982539	0.0007937502	0.0001811354	0.02555504	-0.01002489	-3.43942e-06	-6.794056e-05
	-2.942517e-07	-1.041391e-05	0.01705277	0.003344126	-3.43942e-06	-6.794056e-05	0.02514308	-0.006662785
4.7e+08	0.02441302	-0.01203465	-1.572092e-05	-6.687028e-05	0.01680838	0.0003759302	-1.44326e-06	-1.012581e-05
	-1.572092e-05	-6.687028e-05	0.02420803	-0.00906875	0.0008119687	0.0001163219	0.01676628	0.001804174
	0.01680838	0.0003759302	0.0008119687	0.0001163219	0.0243531	-0.0123847	-1.266989e-05	-6.664543e-05
	-1.44326e-06	-1.012581e-05	0.01676628	0.001804174	-1.266989e-05	-6.664543e-05	0.02425511	-0.008861726
