!$
! Info: Touchstone file created by Circ.  Input file=Tx_16in_Rx_100ohms_TxVia_35mils_RxVia_45mils.circ
!$
# Hz S RI R 50
0	0.01648467	1.900136e-25	7.460514e-10	1.493443e-27	0.0001042883	3.094291e-23	2.497009e-09	6.238844e-28
	7.460522e-10	1.493329e-27	0.01648229	2.280646e-25	3.911433e-10	2.173374e-27	0.0001036643	3.736638e-23
	0.0001047953	3.137557e-23	3.91143e-10	2.17341e-27	0.01649649	1.845868e-25	7.655767e-10	1.43977e-27
	2.497009e-09	6.238737e-28	0.000101815	3.755017e-23	7.65577e-10	1.439734e-27	0.01649529	2.137052e-25
1e+07	0.02318198	0.009282563	1.23463e-09	1.070553e-09	0.0006226286	0.002776832	5.556026e-09	5.319455e-09
	1.23463e-09	1.070553e-09	0.02473267	0.00877965	6.497251e-10	7.355406e-10	0.001176743	0.002814661
	0.000622658	0.002776827	6.497251e-10	7.355406e-10	0.02403837	0.008792133	1.298339e-09	1.118944e-09
	5.556026e-09	5.319455e-09	0.001176681	0.002814671	1.298339e-09	1.118944e-09	0.02450943	0.00882877
2e+07	0.03197134	0.01177217	2.26426e-09	1.368567e-09	0.001939073	0.005295216	1.090314e-08	6.663752e-09
	2.26426e-09	1.368567e-09	0.03258818	0.0105318	1.004475e-09	1.167326e-09	0.002327868	0.005604925
	0.001939074	0.005295194	1.004475e-09	1.167326e-09	0.03207586	0.01079473	2.373387e-09	1.414015e-09
	1.090314e-08	6.663752e-09	0.002327858	0.00560496	2.373387e-09	1.414015e-09	0.03245598	0.01069244
3e+07	0.03904601	0.009884006	3.384786e-09	1.092652e-09	0.003934398	0.007195407	1.68455e-08	5.043621e-09
	3.384786e-09	1.092652e-09	0.03893686	0.008625608	1.344144e-09	1.45581e-09	0.004211369	0.007606621
	0.003934392	0.007195405	1.344144e-09	1.45581e-09	0.03860514	0.008952604	3.551676e-09	1.096931e-09
	1.68455e-08	5.043621e-09	0.004211369	0.007606627	3.551676e-09	1.096931e-09	0.03888227	0.008819319
4e+07	0.04448245	0.005622667	4.358144e-09	1.973478e-10	0.006384273	0.008340198	2.219972e-08	2.320212e-10
	4.358144e-09	1.973479e-10	0.04381803	0.004612174	1.606749e-09	1.571425e-09	0.006616381	0.008801985
	0.006384273	0.008340203	1.606749e-09	1.571425e-09	0.04366165	0.004922615	4.608193e-09	1.323034e-10
	2.219972e-08	2.320212e-10	0.006616375	0.008801983	4.608193e-09	1.323033e-10	0.04382988	0.004809118
5e+07	0.04806956	-0.0002077277	4.935802e-09	-1.222406e-09	0.009024126	0.008639787	2.562108e-08	-7.397655e-09
	4.935802e-09	-1.222406e-09	0.04702553	-0.0008200331	1.7523e-09	1.568078e-09	0.009394103	0.008956803
	0.009024128	0.008639789	1.7523e-09	1.568078e-09	0.04702713	-0.0005875518	5.264032e-09	-1.405416e-09
	2.562108e-08	-7.397655e-09	0.009394099	0.008956801	5.264032e-09	-1.405416e-09	0.0470902	-0.0006389095
6e+07	0.04963838	-0.006935365	4.915181e-09	-2.987416e-09	0.01157699	0.008088176	2.596613e-08	-1.695706e-08
	4.915181e-09	-2.987416e-09	0.04839778	-0.007072953	1.738701e-09	1.497186e-09	0.01200629	0.008249169
	0.01157699	0.008088175	1.738701e-09	1.497186e-09	0.04852179	-0.006968684	5.28759e-09	-3.333691e-09
	2.596613e-08	-1.695706e-08	0.01200629	0.008249169	5.28759e-09	-3.333691e-09	0.04849985	-0.006919491
7e+07	0.04913461	-0.01392297	4.162448e-09	-4.850784e-09	0.01378886	0.006746184	2.248345e-08	-2.716989e-08
	4.162448e-09	-4.850784e-09	0.04787554	-0.01357296	1.541743e-09	1.42424e-09	0.01420311	0.006782244
	0.01378885	0.006746184	1.541743e-09	1.42424e-09	0.04807325	-0.01363055	4.523394e-09	-5.390043e-09
	2.248345e-08	-2.716989e-08	0.01420312	0.006782241	4.523394e-09	-5.390043e-09	0.04799898	-0.01345288
8e+07	0.04664405	-0.02056805	2.638602e-09	-6.522002e-09	0.01542276	0.004785976	1.49221e-08	-3.652362e-08
	2.638602e-09	-6.522002e-09	0.04552739	-0.01977214	1.161496e-09	1.422766e-09	0.01577699	0.004728601
	0.01542275	0.004785977	1.161495e-09	1.422766e-09	0.04574311	-0.02000569	2.918604e-09	-7.260668e-09
	1.49221e-08	-3.652362e-08	0.015777	0.004728595	2.918604e-09	-7.260668e-09	0.04565682	-0.01968578
9e+07	0.04239257	-0.0263294	4.174916e-10	-7.713058e-09	0.01631702	0.002431208	3.598337e-09	-4.344675e-08
	4.174917e-10	-7.713057e-09	0.04155376	-0.02517367	6.298868e-10	1.56157e-09	0.0165823	0.002314885
	0.01631702	0.00243121	6.298867e-10	1.56157e-09	0.04173097	-0.02557681	5.417553e-10	-8.628587e-09
	3.598337e-09	-4.344675e-08	0.01658231	0.002314879	5.417553e-10	-8.628588e-09	0.04167548	-0.02511675
1e+08	0.0367235	-0.03075785	-2.323575e-09	-8.169237e-09	0.01639555	-6.21875e-05	-1.05922e-08	-4.651348e-08
	-2.323575e-09	-8.169237e-09	0.03629103	-0.0293641	1.296634e-12	1.903826e-09	0.01654242	-0.000199222
	0.01639555	-6.218763e-05	1.296634e-12	1.903826e-09	0.03637685	-0.02991106	-2.428467e-09	-9.207597e-09
	-1.05922e-08	-4.651348e-08	0.01654242	-0.000199222	-2.428467e-09	-9.207597e-09	0.03639225	-0.02932855
1.1e+08	0.03012253	-0.03349497	-5.292382e-09	-7.710211e-09	0.01564411	-0.002446759	-2.624973e-08	-4.469002e-08
	-5.292382e-09	-7.710211e-09	0.0300808	-0.03213149	-6.350378e-10	2.457177e-09	0.01570172	-0.002508413
	0.01564411	-0.002446759	-6.350378e-10	2.457177e-09	0.03004013	-0.03276854	-5.660313e-09	-8.762389e-09
	-2.624973e-08	-4.469002e-08	0.01570172	-0.002508413	-5.660313e-09	-8.762389e-09	0.03015893	-0.03209956
1.2e+08	0.02312293	-0.03440965	-8.221778e-09	-6.177787e-09	0.01414468	-0.004436851	-4.165138e-08	-3.73268e-08
	-8.221778e-09	-6.177787e-09	0.02336463	-0.03314957	-1.243558e-09	3.211179e-09	0.01417488	-0.004424246
	0.01414468	-0.004436851	-1.243558e-09	3.211179e-09	0.02318639	-0.03382606	-8.818992e-09	-7.155595e-09
	-4.165138e-08	-3.73268e-08	0.01417488	-0.004424246	-8.818992e-09	-7.155595e-09	0.02342377	-0.0331141
1.3e+08	0.01624173	-0.03348127	-1.069818e-08	-3.590971e-09	0.01207404	-0.005821105	-5.475943e-08	-2.454362e-08
	-1.069818e-08	-3.590971e-09	0.01669305	-0.0323765	-1.72536e-09	4.200911e-09	0.01210987	-0.00574935
	0.01207404	-0.005821105	-1.72536e-09	4.200911e-09	0.01638144	-0.03303882	-1.14933e-08	-4.416928e-09
	-5.475943e-08	-2.454362e-08	0.01210987	-0.00574935	-1.14933e-08	-4.416928e-09	0.01673656	-0.03233165
1.4e+08	0.009985299	-0.03083772	-1.234502e-08	-1.07962e-10	0.009659561	-0.006454416	-6.366626e-08	-7.143456e-09
	-1.234502e-08	-1.07962e-10	0.01057337	-0.0299229	-1.995989e-09	5.380602e-09	0.009719132	-0.006345651
	0.009659561	-0.006454416	-1.995989e-09	5.380602e-09	0.01015121	-0.03052043	-1.327916e-08	-7.153952e-10
	-6.366626e-08	-7.143456e-09	0.009719132	-0.006345651	-1.327916e-08	-7.153952e-10	0.01060555	-0.02986445
1.5e+08	0.004798718	-0.02674365	-1.284444e-08	3.978629e-09	0.007160554	-0.006271675	-6.676727e-08	1.340356e-08
	-1.284444e-08	3.978629e-09	0.005449185	-0.02603556	-1.987967e-09	6.675134e-09	0.00724889	-0.006150061
	0.007160554	-0.006271675	-1.987967e-09	6.675134e-09	0.004956768	-0.02652727	-1.383524e-08	3.635997e-09
	-6.676727e-08	1.340356e-08	0.00724889	-0.006150061	-1.383524e-08	3.635997e-09	0.005474905	-0.02596109
1.6e+08	0.001028955	-0.02157644	-1.198673e-08	8.264601e-09	0.004841665	-0.005293561	-6.29941e-08	3.507964e-08
	-1.198673e-08	8.264601e-09	0.001667989	-0.0210729	-1.661543e-09	7.986243e-09	0.004952379	-0.005180906
	0.004841665	-0.005293561	-1.661543e-09	7.986243e-09	0.001159296	-0.02143325	-1.293591e-08	8.204394e-09
	-6.29941e-08	3.507964e-08	0.004952379	-0.005180906	-1.293591e-08	8.204394e-09	0.001692149	-0.02098175
1.7e+08	-0.001102819	-0.01579252	-9.709797e-09	1.227596e-08	0.002945534	-0.003623374	-5.199888e-08	5.552058e-08
	-9.709797e-09	1.227596e-08	-0.0005446394	-0.01547211	-1.012673e-09	9.203067e-09	0.003063303	-0.003535549
	0.002945534	-0.003623374	-1.012673e-09	9.203067e-09	-0.00100773	-0.01569547	-1.05136e-08	1.248184e-08
	-5.199888e-08	5.552058e-08	0.003063303	-0.003535549	-1.05136e-08	1.248184e-08	-0.0005175802	-0.01536519
1.8e+08	-0.001517776	-0.0098873	-6.121346e-09	1.552496e-08	0.001667933	-0.001435271	-3.426086e-08	7.227817e-08
	-6.121346e-09	1.552496e-08	-0.001100717	-0.009710334	-7.666831e-11	1.021548e-08	0.001771755	-0.001379676
	0.001667933	-0.001435271	-7.666831e-11	1.021548e-08	-0.001455588	-0.009813145	-6.682623e-09	1.594524e-08
	-3.426086e-08	7.227817e-08	0.001771755	-0.001379677	-6.682623e-09	1.594524e-08	-0.001067126	-0.009589831
1.9e+08	-0.0002834936	-0.004352002	-1.496319e-09	1.75729e-08	0.00113812	0.001044721	-1.109524e-08	8.311307e-08
	-1.496319e-09	1.75729e-08	-5.382273e-05	-0.004263128	1.074255e-09	1.092835e-08	0.001205061	0.001070418
	0.00113812	0.001044721	1.074255e-09	1.092835e-08	-0.0002448129	-0.004283569	-1.736786e-09	1.812365e-08
	-1.109524e-08	8.311307e-08	0.001205061	0.001070418	-1.736786e-09	1.812365e-08	-1.117025e-05	-0.004132135
2e+08	0.002394865	0.00036856	3.741735e-09	1.808625e-08	0.0014064	0.003562781	1.544284e-08	8.628044e-08
	3.741735e-09	1.808625e-08	0.002409084	0.0004361912	2.335782e-09	1.127341e-08	0.001415431	0.003570552
	0.0014064	0.003562781	2.335782e-09	1.127341e-08	0.002423383	0.00044122	3.870834e-09	1.865859e-08
	1.544284e-08	8.628044e-08	0.001415431	0.003570552	3.870834e-09	1.865859e-08	0.002462076	0.0005740741
2.1e+08	0.006195312	0.003913507	9.065397e-09	1.688762e-08	0.002440042	0.005863797	4.275143e-08	8.077032e-08
	9.065397e-09	1.688762e-08	0.00598722	0.004032725	3.58255e-09	1.122037e-08	0.002375536	0.005873867
	0.002440042	0.005863797	3.58255e-09	1.122037e-08	0.006227928	0.003992992	9.575632e-09	1.735855e-08
	4.275143e-08	8.077032e-08	0.002375536	0.005873867	9.575632e-09	1.735855e-08	0.006050534	0.004173808
2.2e+08	0.01070974	0.006035374	1.390556e-08	1.39838e-08	0.004127769	0.007717524	6.795007e-08	6.647046e-08
	1.390556e-08	1.39838e-08	0.01029499	0.00627856	4.683445e-09	1.078216e-08	0.003982259	0.007755868
	0.004127768	0.007717524	4.683445e-09	1.078216e-08	0.01075894	0.006117766	1.476774e-08	1.422915e-08
	6.795007e-08	6.647046e-08	0.003982259	0.007755868	1.476774e-08	1.422915e-08	0.01036739	0.006419456
2.3e+08	0.01548165	0.006619018	1.771397e-08	9.570717e-09	0.006292117	0.008941721	8.819173e-08	4.422992e-08
	1.771397e-08	9.570717e-09	0.01489773	0.007051333	5.515656e-09	1.001471e-08	0.006068009	0.009036781
	0.006292117	0.008941721	5.515656e-09	1.001471e-08	0.01555604	0.006695484	1.885908e-08	9.478641e-09
	8.819173e-08	4.422992e-08	0.006068009	0.009036781	1.885908e-08	9.478641e-09	0.01497692	0.007189312
2.4e+08	0.02004731	0.005688459	2.002451e-08	4.017247e-09	0.008708226	0.009420067	1.009813e-07	1.581487e-08
	2.002451e-08	4.017247e-09	0.01935082	0.006361361	5.978368e-09	9.012378e-09	0.008418269	0.009599066
	0.008708226	0.009420067	5.978368e-09	9.012378e-09	0.02015034	0.005747352	2.134909e-08	3.500788e-09
	1.009813e-07	1.581487e-08	0.008418269	0.009599066	2.134909e-08	3.500788e-09	0.01943375	0.00649464
2.5e+08	0.02397679	0.003401331	2.050487e-08	-2.169344e-09	0.01112704	0.00911322	1.044645e-07	-1.623831e-08
	2.050487e-08	-2.169344e-09	0.02323871	0.004347064	6.004107e-09	7.899272e-09	0.01079351	0.009398518
	0.01112704	0.00911322	6.004107e-09	7.899272e-09	0.02410625	0.003430515	2.18801e-08	-3.162019e-09
	1.044645e-07	-1.623831e-08	0.01079351	0.009398518	2.18801e-08	-3.162019e-09	0.02332191	0.004474993
2.6e+08	0.02691102	3.167055e-05	1.899405e-08	-8.391419e-09	0.01330062	0.008062114	9.76565e-08	-4.885637e-08
	1.899405e-08	-8.391419e-09	0.02621044	0.001259305	5.566817e-09	6.817678e-09	0.01295327	0.008468016
	0.01330062	0.008062114	5.566817e-09	6.817678e-09	0.0270595	2.074633e-05	2.027765e-08	-9.870086e-09
	9.76565e-08	-4.885637e-08	0.01295327	0.008468016	2.027765e-08	-9.870086e-09	0.02629038	0.00138244
2.7e+08	0.02859192	-0.004057154	1.552347e-08	-1.401703e-08	0.01500701	0.006383309	8.058652e-08	-7.872513e-08
	1.552347e-08	-1.401703e-08	0.02800862	-0.002563644	4.686163e-09	5.914655e-09	0.01468007	0.006913713
	0.01500701	0.006383309	4.686163e-09	5.914655e-09	0.02874793	-0.004114979	1.657325e-08	-1.594636e-08
	8.058652e-08	-7.872513e-08	0.01468007	0.006913713	1.657325e-08	-1.594636e-08	0.02808214	-0.002443588
2.8e+08	0.02888304	-0.008446853	1.032136e-08	-1.843927e-08	0.01607248	0.004256937	5.434504e-08	-1.026192e-07
	1.032136e-08	-1.843927e-08	0.02848964	-0.006728162	3.427826e-09	5.327853e-09	0.01580093	0.004904094
	0.01607248	0.004256937	3.427826e-09	5.327853e-09	0.02903276	-0.00855347	1.100928e-08	-2.073994e-08
	5.434504e-08	-1.026192e-07	0.01580093	0.004904094	1.100928e-08	-2.073994e-08	0.02855431	-0.006608474
2.9e+08	0.02777909	-0.01270284	3.800618e-09	-2.11349e-08	0.01638885	0.001908418	2.10275e-08	-1.177357e-07
	3.800618e-09	-2.11349e-08	0.02763354	-0.01082147	1.899712e-09	5.171533e-09	0.01620441	0.002653002
	0.01638885	0.001908418	1.899712e-09	5.171533e-09	0.02790839	-0.01285468	4.026166e-09	-2.368894e-08
	2.10275e-08	-1.177357e-07	0.01620441	0.002653002	4.026166e-09	-2.368894e-08	0.02768792	-0.01069874
3e+08	0.0254037	-0.01641369	-3.469457e-09	-2.171893e-08	0.01592435	-0.0004142966	-1.642322e-08	-1.220018e-07
	-3.469457e-09	-2.171893e-08	0.02554281	-0.01444879	2.441082e-10	5.523787e-09	0.01585169	0.0003982102
	0.01592435	-0.0004142966	2.441082e-10	5.523787e-09	0.02550024	-0.01660194	-3.767629e-09	-2.437902e-08
	-1.642322e-08	-1.220018e-07	0.01585169	0.0003982102	-3.767629e-09	-2.437902e-08	0.02558667	-0.01431927
3.1e+08	0.02199576	-0.01922793	-1.080693e-08	-1.999123e-08	0.01472692	-0.002465793	-5.446593e-08	-1.143273e-07
	-1.080693e-08	-1.999123e-08	0.02243048	-0.01726824	-1.374023e-09	6.416084e-09	0.01478042	-0.001622401
	0.01472692	-0.002465793	-1.374023e-09	6.416084e-09	0.02205083	-0.01943945	-1.164238e-08	-2.259348e-08
	-5.446593e-08	-1.143273e-07	0.01478042	-0.001622401	-1.164238e-08	-2.259348e-08	0.02246484	-0.01712824
3.2e+08	0.01788553	-0.02088502	-1.747555e-08	-1.597082e-08	0.01291952	-0.004028127	-8.928515e-08	-9.477571e-08
	-1.747555e-08	-1.597082e-08	0.01859861	-0.01902049	-2.78213e-09	7.826374e-09	0.01310098	-0.003194778
	0.01291952	-0.004028127	-2.78213e-09	7.826374e-09	0.01789551	-0.02110394	-1.880944e-08	-1.835026e-08
	-8.928515e-08	-9.477571e-08	0.01310098	-0.003194778	-1.880944e-08	-1.835026e-08	0.01862571	-0.01886682
3.3e+08	0.01346282	-0.02123779	-2.275493e-08	-9.912576e-09	0.01068775	-0.004933141	-1.171653e-07	-6.463104e-08
	-2.275493e-08	-9.912576e-09	0.01440916	-0.01955064	-3.817543e-09	9.677021e-09	0.01098549	-0.00415037
	0.01068775	-0.004933141	-3.817543e-09	9.677021e-09	0.01342993	-0.02144744	-2.449649e-08	-1.192005e-08
	-1.171653e-07	-6.463104e-08	0.01098549	-0.00415037	-2.449649e-08	-1.192005e-08	0.01443218	-0.01938097
3.4e+08	0.009139986	-0.02026419	-2.601751e-08	-2.301064e-09	0.008261091	-0.005079839	-1.348822e-07	-2.63431e-08
	-2.601751e-08	-2.301064e-09	0.01024978	-0.01882037	-4.345792e-09	1.183859e-08	0.008650387	-0.004383316
	0.008261091	-0.005079839	-4.345792e-09	1.183859e-08	0.00907232	-0.02044926	-2.803008e-08	-3.819896e-09
	-1.348822e-07	-2.63431e-08	0.008650387	-0.004383316	-2.803008e-08	-3.819896e-09	0.01027256	-0.01863352
3.5e+08	0.005313219	-0.01806752	-2.680442e-08	6.181966e-09	0.005889394	-0.004444964	-1.400723e-07	1.665427e-08
	-2.680442e-08	6.181966e-09	0.006497764	-0.01690931	-4.277636e-09	1.413997e-08	0.006334496	-0.003861321
	0.005889394	-0.004444964	-4.277636e-09	1.413997e-08	0.005224027	-0.01821611	-2.891701e-08	5.221531e-09
	-1.400723e-07	1.665427e-08	0.006334496	-0.003861321	-2.891701e-08	5.221531e-09	0.006524364	-0.01670542
3.6e+08	0.00232569	-0.0148649	-2.489003e-08	1.471696e-08	0.003817203	-0.00308557	-1.315335e-07	6.024385e-08
	-2.489003e-08	1.471696e-08	0.003485358	-0.01400559	-3.582532e-09	1.638468e-08	0.004274611	-0.002629029
	0.003817203	-0.00308557	-3.582532e-09	1.638468e-08	0.002231968	-0.01497016	-2.691247e-08	1.432709e-08
	-1.315335e-07	6.024385e-08	0.004274611	-0.002629029	-2.691247e-08	1.432709e-08	0.003519636	-0.01378614
3.7e+08	0.0004360401	-0.01096516	-2.032478e-08	2.242875e-08	0.002258502	-0.001133251	-1.094317e-07	1.00025e-07
	-2.032478e-08	2.242875e-08	0.001469729	-0.01038642	-2.295555e-09	1.837073e-08	0.002681281	-0.0008034433
	0.002258502	-0.001133251	-2.295555e-09	1.837073e-08	0.0003566233	-0.01102645	-2.206975e-08	2.255962e-08
	-1.094317e-07	1.00025e-07	0.002681281	-0.0008034434	-2.206975e-08	2.255962e-08	0.001514885	-0.0101541
3.8e+08	-0.0002048031	-0.006738392	-1.344727e-08	2.848254e-08	0.001374615	0.001219419	-7.534919e-08	1.317712e-07
	-1.344727e-08	2.848254e-08	0.0006103436	-0.006390698	-5.176695e-10	1.991414e-08	0.001717272	0.001438126
	0.001374615	0.001219419	-5.176695e-10	1.991414e-08	-0.0002514666	-0.006761644	-1.474995e-08	2.902563e-08
	-7.534919e-08	1.317712e-07	0.001717272	0.001438126	-1.474995e-08	2.902563e-08	0.0006685537	-0.006149117
3.9e+08	0.0004336937	-0.002579955	-4.861271e-09	3.218127e-08	0.00125762	0.003738789	-3.218724e-08	1.518908e-07
	-4.861271e-09	3.218127e-08	0.0009558557	-0.00238617	1.592898e-09	2.087049e-08	0.001481039	0.003876341
	0.00125762	0.003738789	1.592898e-09	2.087049e-08	0.0004355965	-0.002577295	-5.597499e-09	3.2979e-08
	-3.218724e-08	1.518908e-07	0.001481039	0.003876341	-5.597499e-09	3.2979e-08	0.001028003	-0.002139516
4e+08	0.002260617	0.001127382	4.621399e-09	3.305057e-08	0.001921006	0.006174239	1.608627e-08	1.578395e-07
	4.621399e-09	3.305057e-08	0.002441624	0.001265474	3.836455e-09	2.11525e-08	0.001996884	0.00627236
	0.001921006	0.006174239	3.836455e-09	2.11525e-08	0.002322253	0.001138755	4.52087e-09	3.391163e-08
	1.608627e-08	1.578395e-07	0.001996884	0.00627236	4.52087e-09	3.391163e-08	0.002527175	0.001512917
4.1e+08	0.005074141	0.004049538	1.406514e-08	3.089895e-08	0.003298508	0.008283914	6.481759e-08	1.484309e-07
	1.406514e-08	3.089895e-08	0.004897928	0.00424235	5.992866e-09	2.074121e-08	0.003212812	0.008392224
	0.003298508	0.008283914	5.992866e-09	2.074121e-08	0.005200482	0.004049126	1.460628e-08	3.161755e-08
	6.481759e-08	1.484309e-07	0.003212812	0.008392224	1.460628e-08	3.161755e-08	0.004994963	0.004486667
4.2e+08	0.00858243	0.005931994	2.251052e-08	2.584492e-08	0.00525114	0.009859376	1.091345e-07	1.240066e-07
	2.251052e-08	2.584492e-08	0.008067885	0.006291692	7.84499e-09	1.968922e-08	0.005006169	0.01003054
	0.00525114	0.009859376	7.84499e-09	1.968922e-08	0.008771373	0.00589821	2.363447e-08	2.622157e-08
	1.091345e-07	1.240066e-07	0.005006169	0.01003054	2.363447e-08	2.622157e-08	0.008173283	0.006529773
4.3e+08	0.01243272	0.0066226	2.90765e-08	1.830837e-08	0.007581572	0.01074666	1.444464e-07	8.644436e-08
	2.90765e-08	1.830837e-08	0.01163315	0.007252092	9.20154e-09	1.811593e-08	0.007196391	0.01103104
	0.007581572	0.01074666	9.20154e-09	1.811593e-08	0.01267498	0.006535169	3.066473e-08	1.816983e-08
	1.444464e-07	8.644436e-08	0.007196391	0.01103104	3.066473e-08	1.816983e-08	0.0117429	0.007481995
4.4e+08	0.0162456	0.006084281	3.305231e-08	8.969147e-09	0.01005429	0.01086165	1.669219e-07	3.900337e-08
	3.305231e-08	8.969147e-09	0.01524477	0.007066744	9.916768e-09	1.619584e-08	0.009563428	0.01130203
	0.01005429	0.01086165	9.916768e-09	1.619584e-08	0.01652541	0.005926588	3.493754e-08	8.185509e-09
	1.669219e-07	3.900337e-08	0.009563428	0.01130203	3.493754e-08	8.185509e-09	0.01535442	0.007287922
4.5e+08	0.01965126	0.004396722	3.396927e-08	-1.30021e-09	0.0124194	0.01019835	1.738913e-07	-1.397232e-08
	3.396927e-08	-1.30021e-09	0.01855627	0.005786701	9.90514e-09	1.414173e-08	0.01186994	0.01082529
	0.0124194	0.01019835	9.90514e-09	1.414173e-08	0.0199478	0.004157826	3.595081e-08	-2.802809e-09
	1.738913e-07	-1.397232e-08	0.01186994	0.01082529	3.595081e-08	-2.802809e-09	0.01866136	0.006000096
4.6e+08	0.0223241	0.001747076	3.164703e-08	-1.151843e-08	0.01443775	0.008829319	1.641371e-07	-6.746117e-08
	3.164703e-08	-1.151843e-08	0.02125569	0.003564103	9.150075e-09	1.218452e-08	0.01388501	0.009657548
	0.01443775	0.008829319	9.150075e-09	1.218452e-08	0.02261354	0.001423176	3.350888e-08	-1.375017e-08
	1.641371e-07	-6.746117e-08	0.01388501	0.009657548	3.350888e-08	-1.375017e-08	0.02135226	0.003772074
4.7e+08	0.02401267	-0.001589229	2.619341e-08	-2.068579e-08	0.01590479	0.006898356	1.38006e-07	-1.162122e-07
	2.619341e-08	-2.068579e-08	0.02309396	0.0006362607	7.705735e-09	1.055411e-08	0.01540707	0.007924699
	0.01590479	0.006898356	7.705735e-09	1.055411e-08	0.02427067	-0.001994005	2.772298e-08	-2.359081e-08
	1.38006e-07	-1.162122e-07	0.01540707	0.007924699	2.772298e-08	-2.359081e-08	0.02317894	0.0008423079
