!$
! Info: Touchstone file created by Circ.  Input file=Tx_16in_Rx_100ohms_TxVia_35mils_RxVia_45mils.circ
!$
# Hz S RI R 50
0	0.01648404	1.850102e-25	-8.511858e-05	3.672546e-24	0.0001037943	3.083515e-23	-8.509931e-05	1.358008e-24
	-8.511862e-05	3.676941e-24	0.01648229	2.280646e-25	-8.512905e-05	5.197269e-24	0.0001036643	3.736638e-23
	0.0001036094	3.07057e-23	-8.512902e-05	5.193546e-24	0.01649441	1.849678e-25	-8.511496e-05	3.527194e-24
	-8.509934e-05	1.361454e-24	0.000101815	3.755017e-23	-8.511498e-05	3.529969e-24	0.01649529	2.137052e-25
1e+07	0.0245025	0.008816753	-0.0002955721	5.061088e-05	0.001182567	0.002816446	-0.0001140078	2.597665e-07
	-0.0002955721	5.061088e-05	0.02473267	0.00877965	-7.935174e-06	0.000197784	0.001176743	0.002814661
	0.001182562	0.002816447	-7.935164e-06	0.000197784	0.0247596	0.008782113	-0.0002955618	5.060189e-05
	-0.0001140078	2.597623e-07	0.001176681	0.002814671	-0.0002955618	5.060188e-05	0.02450943	0.00882877
2e+07	0.03247264	0.01066287	-0.0002503745	-5.345371e-05	0.002349101	0.00560267	-9.150902e-05	-4.60278e-06
	-0.0002503745	-5.345371e-05	0.03258818	0.0105318	-3.507029e-05	0.0003402785	0.002327868	0.005604925
	0.002349102	0.005602675	-3.507029e-05	0.0003402785	0.03264988	0.01052354	-0.0002503755	-5.345661e-05
	-9.150902e-05	-4.602786e-06	0.002327858	0.00560496	-0.0002503755	-5.345662e-05	0.03245598	0.01069244
3e+07	0.03893449	0.008757411	-0.0002231458	-7.905439e-05	0.004254138	0.007590837	-8.070109e-05	-1.415636e-05
	-0.0002231458	-7.905439e-05	0.03893686	0.008625608	-8.922689e-05	0.000432471	0.004211369	0.007606621
	0.00425414	0.007590836	-8.922689e-05	0.000432471	0.03904691	0.008584705	-0.0002231671	-7.908835e-05
	-8.070109e-05	-1.415636e-05	0.004211369	0.007606627	-0.0002231671	-7.908835e-05	0.03888227	0.008819319
4e+07	0.04392221	0.004695767	-0.0002060697	-8.854523e-05	0.006682176	0.008761066	-7.303908e-05	-1.784688e-05
	-0.0002060697	-8.854523e-05	0.04381803	0.004612174	-0.0001097122	0.0005121545	0.006616381	0.008801985
	0.006682176	0.008761064	-0.0001097122	0.0005121545	0.04397899	0.004511879	-0.000206133	-8.862375e-05
	-7.303908e-05	-1.784688e-05	0.006616375	0.008801983	-0.000206133	-8.862375e-05	0.04382988	0.004809118
5e+07	0.04721842	-0.0008246928	-0.0001937319	-9.10991e-05	0.009479301	0.008879241	-6.713055e-05	-1.94555e-05
	-0.0001937319	-9.10991e-05	0.04702553	-0.0008200331	-0.0001048985	0.0005837977	0.009394103	0.008956803
	0.009479301	0.008879241	-0.0001048985	0.0005837977	0.04722762	-0.00100689	-0.0001938697	-9.122191e-05
	-6.713055e-05	-1.94555e-05	0.009394099	0.008956801	-0.0001938697	-9.122192e-05	0.0470902	-0.0006389095
6e+07	0.04865035	-0.007196556	-0.0001833027	-9.041724e-05	0.0121023	0.0081252	-6.240146e-05	-2.026223e-05
	-0.0001833027	-9.041724e-05	0.04839778	-0.007072953	-8.126483e-05	0.0006464328	0.01200629	0.008249169
	0.0121023	0.0081252	-8.126483e-05	0.0006464328	0.04861927	-0.007368636	-0.0001835499	-9.056489e-05
	-6.240146e-05	-2.026223e-05	0.01200629	0.008249169	-0.0001835499	-9.056489e-05	0.04849985	-0.006919491
7e+07	0.04815017	-0.01383395	-0.0001905078	-5.17166e-05	0.01429745	0.006605844	-5.76285e-05	-2.108502e-05
	-0.0001905078	-5.17166e-05	0.04787554	-0.01357296	-4.46398e-05	0.0006983905	0.01420311	0.006782244
	0.01429745	0.006605844	-4.46398e-05	0.0006983905	0.04808544	-0.01399008	-0.0001908699	-5.183195e-05
	-5.76285e-05	-2.108502e-05	0.01420312	0.006782241	-0.0001908699	-5.183195e-05	0.04799898	-0.01345288
8e+07	0.04578208	-0.02017454	-0.0001921959	1.550238e-05	0.01585485	0.004498842	-5.772813e-05	-5.946641e-06
	-0.0001921959	1.550238e-05	0.04552739	-0.01977214	-3.016795e-06	0.0007391748	0.01577699	0.004728601
	0.01585485	0.004498841	-3.016796e-06	0.0007391748	0.0456898	-0.02031044	-0.0001926477	1.545972e-05
	-5.772813e-05	-5.946641e-06	0.015777	0.004728595	-0.0001926477	1.545973e-05	0.04565682	-0.01968578
9e+07	0.04174689	-0.02570628	-0.0001706284	7.874404e-05	0.0166286	0.00203665	-5.335515e-05	1.334181e-05
	-0.0001706284	7.874404e-05	0.04155376	-0.02517367	3.282335e-05	0.0007715647	0.0165823	0.002314885
	0.0166286	0.002036649	3.282335e-05	0.0007715647	0.04163309	-0.02581862	-0.000171148	7.881417e-05
	-5.335515e-05	1.334182e-05	0.01658231	0.002314879	-0.000171148	7.881418e-05	0.04167548	-0.02511675
1e+08	0.03638462	-0.03000113	-0.0001201005	0.0001317562	0.01654396	-0.0005152879	-4.027986e-05	2.988914e-05
	-0.0001201005	0.0001317562	0.03629103	-0.0293641	3.362009e-05	0.0008031085	0.01654242	-0.000199222
	0.01654396	-0.0005152878	3.362009e-05	0.0008031085	0.03625737	-0.03008749	-0.0001206496	0.0001319637
	-4.027986e-05	2.988914e-05	0.01654242	-0.000199222	-0.0001206496	0.0001319637	0.03639225	-0.02932855
1.1e+08	0.03005398	-0.03282639	-6.505254e-05	0.000139637	0.01564922	-0.002846383	-2.606218e-05	3.289846e-05
	-6.505254e-05	0.000139637	0.0300808	-0.03213149	2.86607e-05	0.0007540623	0.01570172	-0.002508413
	0.01564922	-0.002846383	2.86607e-05	0.0007540623	0.02991452	-0.03289437	-6.560663e-05	0.0001399959
	-2.606218e-05	3.289846e-05	0.01570172	-0.002508413	-6.560663e-05	0.0001399959	0.03015893	-0.03209956
1.2e+08	0.0232134	-0.03386228	-2.506464e-05	0.000137592	0.01406524	-0.004765242	-1.605219e-05	3.396442e-05
	-2.506464e-05	0.000137592	0.02336463	-0.03314957	4.906769e-05	0.0007146869	0.01417488	-0.004424246
	0.01406524	-0.004765242	4.906769e-05	0.0007146869	0.02306061	-0.03390492	-2.555402e-05	0.0001381098
	-1.605219e-05	3.396442e-05	0.01417488	-0.004424246	-2.555402e-05	0.0001381098	0.02342377	-0.0331141
1.3e+08	0.01642416	-0.03306457	7.227328e-06	0.0001289075	0.0119468	-0.006073425	-7.63044e-06	3.363591e-05
	7.227328e-06	0.0001289075	0.01669305	-0.0323765	7.077928e-05	0.0006846915	0.01210987	-0.00574935
	0.0119468	-0.006073425	7.077928e-05	0.0006846915	0.0162633	-0.0330755	6.86415e-06	0.0001295547
	-7.63044e-06	3.363591e-05	0.01210987	-0.00574935	6.86415e-06	0.0001295547	0.01673656	-0.03233165
1.4e+08	0.01020769	-0.03054616	3.286056e-05	0.0001158596	0.009513478	-0.006634258	-3.61381e-07	3.219795e-05
	3.286056e-05	0.0001158596	0.01057337	-0.0299229	9.247655e-05	0.0006652072	0.009719132	-0.006345651
	0.009513478	-0.006634258	9.247655e-05	0.0006652072	0.01004736	-0.03052123	3.266417e-05	0.0001165804
	-3.61381e-07	3.219795e-05	0.009719132	-0.006345651	3.266417e-05	0.0001165804	0.01060555	-0.02986445
1.5e+08	0.005021239	-0.0265613	5.255373e-05	0.0001003589	0.007018008	-0.00638859	5.930408e-06	2.984344e-05
	5.255373e-05	0.0001003589	0.005449185	-0.02603556	0.0001168994	0.0006565241	0.00724889	-0.006150061
	0.007018008	-0.00638859	0.0001168994	0.0006565241	0.004871953	-0.02649954	5.253424e-05	0.0001010848
	5.930408e-06	2.984344e-05	0.00724889	-0.006150061	5.253424e-05	0.0001010848	0.005474905	-0.02596109
1.6e+08	0.001223227	-0.02148066	6.718967e-05	8.389403e-05	0.004718636	-0.00536094	1.130873e-05	2.672112e-05
	6.718967e-05	8.389403e-05	0.001667989	-0.0210729	0.0001481063	0.000657177	0.004952379	-0.005180906
	0.004718636	-0.00536094	0.0001481063	0.000657177	0.00109609	-0.02138475	6.732369e-05	8.455982e-05
	1.130873e-05	2.672112e-05	0.004952379	-0.005180906	6.732369e-05	8.455982e-05	0.001692149	-0.02098175
1.7e+08	-0.0009542532	-0.01575738	7.78112e-05	6.743758e-05	0.002851805	-0.003656516	1.578455e-05	2.296288e-05
	7.78112e-05	6.743758e-05	-0.0005446394	-0.01547211	0.0001899547	0.0006637694	0.003063303	-0.003535549
	0.002851805	-0.003656516	0.0001899547	0.0006637694	-0.001048881	-0.01563373	7.804708e-05	6.799801e-05
	1.578455e-05	2.296288e-05	0.003063303	-0.003535549	7.804708e-05	6.799801e-05	-0.0005175802	-0.01536519
1.8e+08	-0.00142236	-0.009886537	8.545723e-05	5.141857e-05	0.001607559	-0.001449665	1.934335e-05	1.869932e-05
	8.545723e-05	5.141857e-05	-0.001100717	-0.009710334	0.0002450177	0.0006713144	0.001771755	-0.001379676
	0.001607559	-0.001449665	0.0002450177	0.0006713144	-0.001476126	-0.009744942	8.572802e-05	5.186044e-05
	1.934335e-05	1.869932e-05	0.001771755	-0.001379677	8.572802e-05	5.186044e-05	-0.001067126	-0.009589831
1.9e+08	-0.0002400128	-0.004361563	9.096477e-05	3.579314e-05	0.001110185	0.001034852	2.19624e-05	1.406877e-05
	9.096477e-05	3.579314e-05	-5.382273e-05	-0.004263128	0.0003138869	0.0006739565	0.001205061	0.001070418
	0.001110185	0.001034852	0.0003138869	0.0006739565	-0.0002476735	-0.004214483	9.1206e-05	3.613994e-05
	2.19624e-05	1.406877e-05	0.001205061	0.001070418	9.1206e-05	3.613994e-05	-1.117025e-05	-0.004132135
2e+08	0.002394492	0.0003685685	9.480999e-05	2.020732e-05	0.00140601	0.003545603	2.362435e-05	9.221123e-06
	9.480999e-05	2.020732e-05	0.002409084	0.0004361912	0.0003949085	0.0006658874	0.001415431	0.003570552
	0.00140601	0.003545603	0.0003949085	0.0006658874	0.002434241	0.0005070606	9.497812e-05	2.051451e-05
	2.362435e-05	9.221123e-06	0.001415431	0.003570552	9.497812e-05	2.051451e-05	0.002462076	0.0005740741
2.1e+08	0.006163976	0.003937501	9.703628e-05	4.216272e-06	0.002459494	0.005830629	2.432874e-05	4.317204e-06
	9.703628e-05	4.216272e-06	0.00598722	0.004032725	0.0004843647	0.0006422687	0.002375536	0.005873867
	0.002459494	0.005830629	0.0004843647	0.0006422687	0.006248014	0.004053012	9.712331e-05	4.557918e-06
	2.432874e-05	4.317204e-06	0.002375536	0.005873867	9.712331e-05	4.557918e-06	0.006050534	0.004173808
2.2e+08	0.01066297	0.006091654	9.728904e-05	-1.248786e-05	0.004157769	0.007663218	2.410121e-05	-4.763019e-07
	9.728904e-05	-1.248786e-05	0.01029499	0.00627856	0.000577033	0.0005999695	0.003982259	0.007755868
	0.004157769	0.007663218	0.000577033	0.0005999695	0.01078369	0.006170896	9.732918e-05	-1.203867e-05
	2.410121e-05	-4.763019e-07	0.003982259	0.007755868	9.732918e-05	-1.203867e-05	0.01036739	0.006419456
2.3e+08	0.01543549	0.006709785	9.495005e-05	-2.98922e-05	0.006322978	0.008864688	2.299915e-05	-4.995472e-06
	9.495005e-05	-2.98922e-05	0.01489773	0.007051333	0.000666998	0.0005379875	0.006068009	0.009036781
	0.006322978	0.008864688	0.000666998	0.0005379875	0.01558123	0.006741999	9.501636e-05	-2.928457e-05
	2.299915e-05	-4.995472e-06	0.006068009	0.009036781	9.501636e-05	-2.928457e-05	0.01497692	0.007189312
2.4e+08	0.02001649	0.005810407	8.933978e-05	-4.756518e-05	0.008730933	0.009321969	2.111297e-05	-9.089601e-06
	8.933978e-05	-4.756518e-05	0.01935082	0.006361361	0.0007485562	0.0004574847	0.008418269	0.009599066
	0.008730933	0.009321969	0.0007485562	0.0004574847	0.02017236	0.005788629	8.953065e-05	-4.678838e-05
	2.111297e-05	-9.089601e-06	0.008418269	0.009599066	8.953065e-05	-4.678838e-05	0.01943375	0.00649464
2.5e+08	0.02397319	0.003546692	7.994274e-05	-6.466236e-05	0.01113413	0.008998412	1.856244e-05	-1.263162e-05
	7.994274e-05	-6.466236e-05	0.02323871	0.004347064	0.0008170181	0.0003614391	0.01079351	0.009398518
	0.01113413	0.008998412	0.0008170181	0.0003614391	0.02412234	0.003468729	8.036073e-05	-6.375593e-05
	1.856244e-05	-1.263162e-05	0.01079351	0.009398518	8.036073e-05	-6.375593e-05	0.02332191	0.004474993
2.6e+08	0.02694267	0.000189585	6.660415e-05	-8.003878e-05	0.01328681	0.007936894	1.548904e-05	-1.552608e-05
	6.660415e-05	-8.003878e-05	0.02621044	0.001259305	0.0008692768	0.0002540082	0.01295327	0.008468016
	0.01328681	0.007936894	0.0008692768	0.0002540082	0.02706782	5.856464e-05	6.733162e-05	-7.909172e-05
	1.548904e-05	-1.552608e-05	0.01295327	0.008468016	6.733162e-05	-7.909172e-05	0.02629038	0.00138244
2.7e+08	0.02866246	-0.003899112	4.965553e-05	-9.244028e-05	0.01496955	0.006255066	1.204579e-05	-1.771348e-05
	4.965553e-05	-9.244028e-05	0.02800862	-0.002563644	0.0009040308	0.0001397382	0.01468007	0.006913713
	0.01496955	0.006255066	0.0009040308	0.0001397382	0.02874763	-0.004074703	5.073234e-05	-9.157884e-05
	1.204579e-05	-1.771348e-05	0.01468007	0.006913713	5.073234e-05	-9.157884e-05	0.02808214	-0.002443588
2.8e+08	0.02899167	-0.008301154	2.993855e-05	-0.0001007358	0.01601123	0.004133278	8.386943e-06	-1.917043e-05
	2.993855e-05	-0.0001007358	0.02848964	-0.006728162	0.0009216519	2.277786e-05	0.01580093	0.004904094
	0.01601123	0.004133278	0.0009216519	2.277786e-05	0.02902386	-0.008507958	3.134722e-05	-0.0001001016
	8.386943e-06	-1.917043e-05	0.01580093	0.004904094	3.134722e-05	-0.0001001016	0.02855431	-0.006608474
2.9e+08	0.02792104	-0.01258062	8.721662e-06	-0.0001041384	0.01630609	0.00179636	4.658702e-06	-1.990638e-05
	8.721662e-06	-0.0001041384	0.02763354	-0.01082147	0.0009237258	-9.373685e-05	0.01620441	0.002653002
	0.01630609	0.00179636	0.0009237258	-9.373685e-05	0.02789167	-0.01280145	1.038377e-05	-0.0001038614
	4.658702e-06	-1.990638e-05	0.01620441	0.002653002	1.038377e-05	-0.0001038614	0.02768792	-0.01069874
3e+08	0.02557099	-0.01632363	-1.247616e-05	-0.0001023697	0.0158244	-0.0005090109	9.923488e-07	-1.99581e-05
	-1.247616e-05	-0.0001023697	0.02554281	-0.01444879	0.0009123898	-0.0002080146	0.01585169	0.0003982102
	0.0158244	-0.0005090108	0.0009123898	-0.0002080146	0.02547709	-0.01653897	-1.069075e-05	-0.0001025416
	9.923488e-07	-1.99581e-05	0.01585169	0.0003982102	-1.069075e-05	-0.0001025416	0.02558667	-0.01431927
3.1e+08	0.02217828	-0.01917548	-3.212064e-05	-9.573059e-05	0.01461556	-0.002539197	-2.499926e-06	-1.938308e-05
	-3.212064e-05	-9.573059e-05	0.02243048	-0.01726824	0.0008896144	-0.0003196075	0.01478042	-0.001622401
	0.01461556	-0.002539197	0.0008896144	-0.0003196075	0.02202307	-0.01936527	-3.037305e-05	-9.638414e-05
	-2.499926e-06	-1.938308e-05	0.01478042	-0.001622401	-3.037305e-05	-9.638414e-05	0.02246484	-0.01712824
3.2e+08	0.01807223	-0.02087204	-4.890613e-05	-8.506005e-05	0.01280331	-0.004078329	-5.727189e-06	-1.825285e-05
	-4.890613e-05	-8.506005e-05	0.01859861	-0.01902049	0.000856577	-0.0004290693	0.01310098	-0.003194778
	0.01280331	-0.004078329	0.000856577	-0.0004290693	0.01786519	-0.02101771	-4.736013e-05	-8.616036e-05
	-5.727189e-06	-1.825285e-05	0.01310098	-0.003194778	-4.736013e-05	-8.616036e-05	0.01862571	-0.01886682
3.3e+08	0.01364292	-0.02126252	-6.195889e-05	-7.159041e-05	0.01057338	-0.004960389	-8.619882e-06	-1.664659e-05
	-6.195889e-05	-7.159041e-05	0.01440916	-0.01955064	0.0008132751	-0.0005373734	0.01098549	-0.00415037
	0.01057338	-0.004960389	0.0008132751	-0.0005373734	0.01339915	-0.0213489	-6.075077e-05	-7.303924e-05
	-8.619882e-06	-1.664659e-05	0.01098549	-0.00415037	-6.075077e-05	-7.303924e-05	0.01443218	-0.01938097
3.4e+08	0.009304081	-0.02032169	-7.095624e-05	-5.672645e-05	0.008154669	-0.005086387	-1.112826e-05	-1.464557e-05
	-7.095624e-05	-5.672645e-05	0.01024978	-0.01882037	0.0007584558	-0.0006452216	0.008650387	-0.004383316
	0.008154669	-0.005086387	0.0007584558	-0.0006452216	0.009043101	-0.02033874	-7.016948e-05	-5.838021e-05
	-1.112826e-05	-1.464557e-05	0.008650387	-0.004383316	-7.016948e-05	-5.838021e-05	0.01027256	-0.01863352
3.5e+08	0.005454152	-0.01815032	-7.613416e-05	-4.179523e-05	0.005795923	-0.004434743	-1.321946e-05	-1.232838e-05
	-7.613416e-05	-4.179523e-05	0.006497764	-0.01690931	0.0006898827	-0.0007523805	0.006334496	-0.003861321
	0.005795923	-0.004434743	0.0006898827	-0.0007523805	0.005198151	-0.01809439	-7.578459e-05	-4.349285e-05
	-1.321946e-05	-1.232838e-05	0.006334496	-0.003861321	-7.578459e-05	-4.349285e-05	0.006524364	-0.01670542
3.6e+08	0.002439161	-0.01496391	-7.818358e-05	-2.782021e-05	0.00374014	-0.003063723	-1.487313e-05	-9.768058e-06
	-7.818358e-05	-2.782021e-05	0.003485358	-0.01400559	0.0006048849	-0.0008572201	0.004274611	-0.002629029
	0.00374014	-0.003063723	0.0006048849	-0.0008572201	0.002210901	-0.01483843	-7.82188e-05	-2.941513e-05
	-1.487313e-05	-9.768058e-06	0.004274611	-0.002629029	-7.82188e-05	-2.941513e-05	0.003519636	-0.01378614
3.7e+08	0.0005208796	-0.01107071	-7.80572e-05	-1.536845e-05	0.002199512	-0.001105578	-1.607657e-05	-7.031226e-06
	-7.80572e-05	-1.536845e-05	0.001469729	-0.01038642	0.0005010766	-0.0009565406	0.002681281	-0.0008034433
	0.002199512	-0.001105578	0.0005010766	-0.0009565406	0.0003414378	-0.01088618	-7.837069e-05	-1.675781e-05
	-1.607657e-05	-7.031226e-06	0.002681281	-0.0008034434	-7.837069e-05	-1.675781e-05	0.001514885	-0.0101541
3.8e+08	-0.0001466993	-0.006841218	-7.673128e-05	-4.503202e-06	0.001333507	0.001247053	-1.68205e-05	-4.179915e-06
	-7.673128e-05	-4.503202e-06	0.0006103436	-0.006390698	0.0003770938	-0.001045748	0.001717272	0.001438126
	0.001333507	0.001247053	0.0003770938	-0.001045748	-0.0002601205	-0.006614457	-7.718869e-05	-5.647572e-06
	-1.68205e-05	-4.179915e-06	0.001717272	0.001438126	-7.718869e-05	-5.647572e-06	0.0006685537	-0.006149117
3.9e+08	0.0004696545	-0.002672122	-7.497578e-05	5.149464e-06	0.001232462	0.003761014	-1.709667e-05	-1.275345e-06
	-7.497578e-05	5.149464e-06	0.0009558557	-0.00238617	0.0002331911	-0.001119346	0.001481039	0.003876341
	0.001232462	0.003761014	0.0002331911	-0.001119346	0.0004336925	-0.002424876	-7.544771e-05	4.220489e-06
	-1.709667e-05	-1.275345e-06	0.001481039	0.003876341	-7.544771e-05	4.220489e-06	0.001028003	-0.002139516
4e+08	0.002281105	0.001051747	-7.318428e-05	1.423711e-05	0.001908401	0.006186667	-1.689856e-05	1.617596e-06
	-7.318428e-05	1.423711e-05	0.002441624	0.001265474	7.157797e-05	-0.00117165	0.001996884	0.00627236
	0.001908401	0.006186667	7.157797e-05	-0.00117165	0.0023269	0.001294779	-7.357848e-05	1.343524e-05
	-1.689856e-05	1.617596e-06	0.001996884	0.00627236	-7.357848e-05	1.343524e-05	0.002527175	0.001512917
4.1e+08	0.005087111	0.003993764	-7.130124e-05	2.346031e-05	0.003293995	0.00828351	-1.622502e-05	4.426953e-06
	-7.130124e-05	2.346031e-05	0.004897928	0.00424235	-0.0001035869	-0.001197586	0.003212812	0.008392224
	0.003293995	0.00828351	-0.0001035869	-0.001197586	0.005211105	0.004207269	-7.158669e-05	2.266288e-05
	-1.622502e-05	4.426953e-06	0.003212812	0.008392224	-7.158669e-05	2.266288e-05	0.004994963	0.004486667
4.2e+08	0.00859624	0.00589667	-6.88606e-05	3.334602e-05	0.005249675	0.009844681	-1.508597e-05	7.073106e-06
	-6.88606e-05	3.334602e-05	0.008067885	0.006291692	-0.0002865342	-0.001193419	0.005006169	0.01003054
	0.005249675	0.009844681	-0.0002865342	-0.001193419	0.008787075	0.006057208	-6.907798e-05	3.242937e-05
	-1.508597e-05	7.073106e-06	0.005006169	0.01003054	-6.907798e-05	3.242937e-05	0.008173283	0.006529773
4.3e+08	0.01245525	0.006605653	-6.512536e-05	4.40669e-05	0.007578043	0.01071785	-1.350825e-05	9.471744e-06
	-6.512536e-05	4.40669e-05	0.01163315	0.007252092	-0.0004704911	-0.001157266	0.007196391	0.01103104
	0.007578043	0.01071785	-0.0004704911	-0.001157266	0.01269461	0.006694044	-6.538075e-05	4.294151e-05
	-1.350825e-05	9.471744e-06	0.007196391	0.01103104	-6.538075e-05	4.294151e-05	0.0117429	0.007481995
4.4e+08	0.01628349	0.006081322	-5.929468e-05	5.534743e-05	0.01004401	0.01082045	-1.153958e-05	1.154003e-05
	-5.929468e-05	5.534743e-05	0.01524477	0.007066744	-0.0006484394	-0.001089319	0.009563428	0.01130203
	0.01004401	0.01082045	-0.0006484394	-0.001089319	0.01654764	0.006084687	-5.973741e-05	5.398689e-05
	-1.153958e-05	1.154003e-05	0.009563428	0.01130203	-5.973741e-05	5.398689e-05	0.01535442	0.007287922
4.5e+08	0.01970926	0.004401601	-5.073123e-05	6.647708e-05	0.01239855	0.01014778	-9.249219e-06	1.320455e-05
	-5.073123e-05	6.647708e-05	0.01855627	0.005786701	-0.0008138779	-0.0009917259	0.01186994	0.01082529
	0.01239855	0.01014778	-0.0008138779	-0.0009917259	0.0199712	0.004314852	-5.152008e-05	6.493419e-05
	-9.249219e-06	1.320455e-05	0.01186994	0.01082529	-5.152008e-05	6.493419e-05	0.01866136	0.006000096
4.6e+08	0.02240468	0.001752579	-3.915732e-05	7.642752e-05	0.01440369	0.008773356	-6.724673e-06	1.440906e-05
	-3.915732e-05	7.642752e-05	0.02125569	0.003564103	-0.0009614512	-0.0008681829	0.01388501	0.009657548
	0.01440369	0.008773356	-0.0009614512	-0.0008681829	0.02263668	0.001579193	-4.042237e-05	7.48334e-05
	-6.724673e-06	1.440906e-05	0.01388501	0.009657548	-4.042237e-05	7.48334e-05	0.02135226	0.003772074
4.7e+08	0.02411585	-0.001590572	-2.477703e-05	8.404792e-05	0.01585629	0.006841521	-4.064115e-06	1.511946e-05
	-2.477703e-05	8.404792e-05	0.02309396	0.0006362607	-0.001087322	-0.0007233329	0.01540707	0.007924699
	0.01585629	0.006841521	-0.001087322	-0.0007233329	0.02429218	-0.001838572	-2.658433e-05	8.259314e-05
	-4.064115e-06	1.511946e-05	0.01540707	0.007924699	-2.658433e-05	8.259314e-05	0.02317894	0.0008423079
