!$
! Info: Touchstone file created by Circ.  Input file=Tx_10in_Rx_93ohms_TxVia_35mils_RxVia_45mils.circ
!$
# Hz S RI R 50
0	0.009223008	1.266133e-25	7.395406e-10	1.598496e-27	7.287347e-05	1.720632e-23	3.660323e-10	3.569218e-28
	7.395406e-10	1.598475e-27	0.009221315	1.545067e-25	2.494745e-09	6.139613e-27	7.273618e-05	2.084905e-23
	7.268774e-05	1.713409e-23	2.494745e-09	6.139621e-27	0.009233683	1.265964e-25	7.417633e-10	1.711426e-27
	3.660323e-10	3.569157e-28	7.088827e-05	2.095173e-23	7.417637e-10	1.711443e-27	0.009234433	1.447637e-25
1e+07	0.01317406	-0.0009042124	9.573561e-10	1.315883e-09	0.0003396956	0.00190432	6.044807e-10	6.140894e-10
	9.573561e-10	1.315883e-09	0.0134396	-0.0009276834	3.53531e-09	6.779303e-09	0.0003354172	0.001898236
	0.0003396902	0.001904321	3.53531e-09	6.779303e-09	0.01346243	-0.0009348381	9.474986e-10	1.337103e-09
	6.044807e-10	6.140893e-10	0.0003353567	0.001898246	9.474985e-10	1.337103e-09	0.01317755	-0.0009279779
2e+07	0.01538681	-0.005124493	1.383658e-09	2.244161e-09	0.000862729	0.003763205	1.007229e-09	9.459542e-10
	1.383658e-09	2.244161e-09	0.01555053	-0.00525661	4.625804e-09	1.192435e-08	0.000850859	0.003754402
	0.0008627304	0.003763209	4.625804e-09	1.192435e-08	0.01559739	-0.005277154	1.340657e-09	2.290154e-09
	1.007229e-09	9.459543e-10	0.0008508505	0.003754437	1.340656e-09	2.290154e-09	0.0153536	-0.005165652
3e+07	0.01574254	-0.01053604	1.784018e-09	3.053184e-09	0.001814231	0.005367387	1.445497e-09	1.147425e-09
	1.784018e-09	3.053184e-09	0.01580303	-0.01069154	5.301303e-09	1.692635e-08	0.001774123	0.00536658
	0.001814234	0.005367387	5.301303e-09	1.692635e-08	0.01588688	-0.01073612	1.685572e-09	3.144062e-09
	1.445497e-09	1.147425e-09	0.001774123	0.005366586	1.685572e-09	3.144062e-09	0.01565322	-0.01058023
4e+07	0.01459757	-0.01612144	2.182951e-09	3.737884e-09	0.003093194	0.006697447	1.905258e-09	1.197542e-09
	2.182951e-09	3.737884e-09	0.01455098	-0.01626357	5.814205e-09	2.187376e-08	0.003029765	0.006709958
	0.003093194	0.006697445	5.814205e-09	2.187376e-08	0.01468113	-0.0163465	2.015338e-09	3.898441e-09
	1.905258e-09	1.197542e-09	0.00302976	0.006709956	2.015338e-09	3.898441e-09	0.01443631	-0.01615083
5e+07	0.01214555	-0.02145529	2.560927e-09	4.304428e-09	0.004590496	0.007722026	2.349332e-09	1.094073e-09
	2.560928e-09	4.304428e-09	0.01199158	-0.0215524	6.206049e-09	2.679444e-08	0.00450225	0.007755582
	0.004590496	0.007722025	6.206049e-09	2.679444e-08	0.01217271	-0.0216911	2.318994e-09	4.562378e-09
	2.349332e-09	1.094073e-09	0.004502247	0.007755581	2.318994e-09	4.562378e-09	0.01190129	-0.02144774
6e+07	0.008567335	-0.02623958	2.890386e-09	4.760639e-09	0.006239548	0.008406927	2.736145e-09	8.446068e-10
	2.890386e-09	4.760639e-09	0.008311194	-0.026262	6.499569e-09	3.172668e-08	0.006127026	0.00846959
	0.006239549	0.008406927	6.499569e-09	3.172668e-08	0.00854244	-0.02647532	2.577461e-09	5.144243e-09
	2.736145e-09	8.446068e-10	0.006127029	0.008469589	2.577461e-09	5.144243e-09	0.008235265	-0.02617025
7e+07	0.004058582	-0.03024728	3.145378e-09	5.119337e-09	0.007967349	0.008731178	3.028237e-09	4.664677e-10
	3.145378e-09	5.119337e-09	0.003711476	-0.03016757	6.723529e-09	3.670147e-08	0.007833226	0.008830881
	0.007967351	0.008731178	6.723529e-09	3.670147e-08	0.00398633	-0.03047404	2.772841e-09	5.655744e-09
	3.028237e-09	4.664677e-10	0.007833235	0.008830878	2.772841e-09	5.655745e-09	0.003640579	-0.0300904
8e+07	-0.001165695	-0.03330775	3.301275e-09	5.397987e-09	0.009697918	0.008688784	3.193335e-09	-1.469228e-11
	3.301275e-09	5.397988e-09	-0.001586666	-0.03310145	6.910376e-09	4.173767e-08	0.009546988	0.008832831
	0.009697921	0.008688784	6.910377e-09	4.173767e-08	-0.001279993	-0.03351791	2.888194e-09	6.111841e-09
	3.193336e-09	-1.469241e-11	0.009546998	0.008832825	2.888193e-09	6.111841e-09	-0.001661136	-0.03303829
9e+07	-0.006873127	-0.035302	3.335168e-09	5.62024e-09	0.01135566	0.008289233	3.196964e-09	-5.614805e-10
	3.335168e-09	5.62024e-09	-0.007345125	-0.03494851	7.085038e-09	4.683871e-08	0.01119472	0.008483815
	0.01135566	0.008289232	7.085039e-09	4.683871e-08	-0.00702314	-0.0354888	2.901177e-09	6.531833e-09
	3.196964e-09	-5.614807e-10	0.01119473	0.00848381	2.901177e-09	6.531833e-09	-0.007431186	-0.03489712
1e+08	-0.0128066	-0.03615359	3.206898e-09	5.822058e-09	0.01286827	0.007556503	2.974165e-09	-1.083756e-09
	3.206898e-09	5.822058e-09	-0.01329897	-0.03563556	7.223472e-09	5.19837e-08	0.01270618	0.007806416
	0.01286827	0.007556504	7.223472e-09	5.19837e-08	-0.01298212	-0.03630941	2.777983e-09	6.949573e-09
	2.974165e-09	-1.083756e-09	0.01270618	0.007806416	2.777983e-09	6.949573e-09	-0.01340648	-0.03559401
1.1e+08	-0.0187204	-0.0359583	2.959975e-09	6.034942e-09	0.01416836	0.006534747	2.624706e-09	-1.60085e-09
	2.959975e-09	6.034942e-09	-0.01919711	-0.0352825	7.422117e-09	5.721312e-08	0.01401562	0.006840425
	0.01416836	0.006534747	7.422117e-09	5.721312e-08	-0.01890914	-0.03609532	2.585025e-09	7.388692e-09
	2.624706e-09	-1.60085e-09	0.01401562	0.006840425	2.585025e-09	7.388692e-09	-0.01933436	-0.03523215
1.2e+08	-0.02448082	-0.03466957	2.565489e-09	6.287064e-09	0.01520728	0.005273706	2.090326e-09	-2.082991e-09
	2.565489e-09	6.287064e-09	-0.02492139	-0.03383851	7.683612e-09	6.250389e-08	0.01507286	0.00563481
	0.01520728	0.005273706	7.683612e-09	6.250389e-08	-0.02468803	-0.03478875	2.28262e-09	7.859893e-09
	2.090326e-09	-2.082991e-09	0.01507286	0.00563481	2.28262e-09	7.859893e-09	-0.02508184	-0.03376966
1.3e+08	-0.02984812	-0.03234024	2.025672e-09	6.623252e-09	0.01594191	0.003832919	1.383876e-09	-2.472415e-09
	2.025672e-09	6.623252e-09	-0.03022757	-0.03135925	8.02823e-09	6.784888e-08	0.01583549	0.004247104
	0.01594191	0.003832919	8.02823e-09	6.784888e-08	-0.0300746	-0.03243897	1.872214e-09	8.400116e-09
	1.383876e-09	-2.472415e-09	0.01583549	0.004247104	1.872214e-09	8.400116e-09	-0.03040626	-0.03126558
1.4e+08	-0.03462078	-0.02907782	1.357566e-09	7.082792e-09	0.01634316	0.002279821	5.238561e-10	-2.725772e-09
	1.357566e-09	7.082792e-09	-0.03491378	-0.02795788	8.475781e-09	7.323169e-08	0.01627418	0.002742376
	0.01634316	0.002279821	8.475781e-09	7.323169e-08	-0.03486556	-0.02915275	1.36807e-09	9.040166e-09
	5.238561e-10	-2.725772e-09	0.01627418	0.002742376	1.36807e-09	9.040166e-09	-0.03510513	-0.02783471
1.5e+08	-0.03862897	-0.02502703	5.888567e-10	7.696944e-09	0.01639661	0.0006860288	-4.646221e-10	-2.805583e-09
	5.888567e-10	7.696944e-09	-0.03881179	-0.02378517	9.041417e-09	7.863072e-08	0.01637366	0.001189888
	0.01639661	0.0006860288	9.041417e-09	7.863072e-08	-0.03888974	-0.02507477	7.931489e-10	9.803294e-09
	-4.646221e-10	-2.805583e-09	0.01637366	0.001189888	7.931489e-10	9.803294e-09	-0.03900962	-0.02362942
1.6e+08	-0.04173845	-0.02036153	-2.429992e-10	8.509657e-09	0.0161029	-0.0008758336	-1.538516e-09	-2.673413e-09
	-2.429992e-10	8.509657e-09	-0.04179073	-0.01902054	9.735277e-09	8.402023e-08	0.01613308	-0.0003398963
	0.0161029	-0.0008758335	9.735277e-09	8.402023e-08	-0.04201189	-0.02037903	1.783037e-10	1.072625e-08
	-1.538516e-09	-2.673413e-09	0.01613308	-0.0003398963	1.783037e-10	1.072625e-08	-0.0419885	-0.01883078
1.7e+08	-0.04385414	-0.01527582	-1.088733e-09	9.54286e-09	0.01547744	-0.002335211	-2.651642e-09	-2.305365e-09
	-1.088733e-09	9.54286e-09	-0.04376037	-0.01386352	1.056083e-08	8.937203e-08	0.01556587	-0.001778243
	0.01547744	-0.002335211	1.056083e-08	8.937203e-08	-0.04413608	-0.01526061	-4.355161e-10	1.182526e-08
	-2.651642e-09	-2.305365e-09	0.01556587	-0.001778243	-4.355161e-10	1.182526e-08	-0.04395155	-0.01363994
1.8e+08	-0.04492234	-0.009977	-1.89254e-09	1.08057e-08	0.0145496	-0.00362652	-3.752001e-09	-1.687558e-09
	-1.89254e-09	1.08057e-08	-0.04467317	-0.008525137	1.151464e-08	9.465684e-08	0.0146989	-0.003060924
	0.0145496	-0.00362652	1.151464e-08	9.465684e-08	-0.04520802	-0.009927393	-1.002197e-09	1.31056e-08
	-3.752001e-09	-1.687558e-09	0.0146989	-0.003060924	-1.002197e-09	1.31056e-08	-0.04485154	-0.008269463
1.9e+08	-0.0449317	-0.00467649	-2.595697e-09	1.229266e-08	0.01336126	-0.004691791	-4.783837e-09	-8.174694e-10
	-2.595697e-09	1.229266e-08	-0.04452485	-0.003219289	1.258607e-08	9.984586e-08	0.01357128	-0.004130754
	0.01336126	-0.004691791	1.258607e-08	9.984586e-08	-0.0452159	-0.004591657	-1.473659e-09	1.456001e-08
	-4.783837e-09	-8.174694e-10	0.01357128	-0.004130754	-1.473659e-09	1.456001e-08	-0.04468487	-0.002934624
2e+08	-0.0439126	0.0004181801	-3.140691e-09	1.398279e-08	0.01196504	-0.005482962	-5.690013e-09	2.951e-10
	-3.140691e-09	1.398279e-08	-0.04335351	0.001845629	1.37573e-08	1.049125e-07	0.01223265	-0.004939813
	0.01196504	-0.005482962	1.37573e-08	1.049125e-07	-0.04418988	0.0005381207	-1.803511e-09	1.616818e-08
	-5.690013e-09	2.951e-10	0.01223265	-0.004939813	-1.803511e-09	1.616818e-08	-0.04349052	0.002155013
2.1e+08	-0.04193516	0.005111231	-3.475489e-09	1.584022e-08	0.01042206	-0.005963763	-6.414671e-09	1.627519e-09
	-3.475489e-09	1.584022e-08	-0.04123722	0.006474736	1.500386e-08	1.09834e-07	0.01074108	-0.005451288
	0.01042206	-0.005963763	1.500386e-08	1.09834e-07	-0.04220003	0.005265174	-1.950782e-09	1.789734e-08
	-6.414671e-09	1.627519e-09	0.01074108	-0.005451288	-1.950782e-09	1.789734e-08	-0.04134767	0.006803639
2.2e+08	-0.03910589	0.009225924	-3.55751e-09	1.781596e-08	0.008799357	-0.006111131	-6.906077e-09	3.144376e-09
	-3.55751e-09	1.781596e-08	-0.03829022	0.01049399	1.629546e-08	1.145934e-07	0.009160697	-0.00564088
	0.008799357	-0.006111131	1.629546e-08	1.145934e-07	-0.03935298	0.009411758	-1.883344e-09	1.970408e-08
	-6.906077e-09	3.144376e-09	0.009160697	-0.00564088	-1.883344e-09	1.970408e-08	-0.03837183	0.01083655
2.3e+08	-0.03556299	0.01261103	-3.356937e-09	1.985073e-08	0.007167205	-0.005916109	-7.119551e-09	4.798166e-09
	-3.356937e-09	1.985073e-08	-0.03465792	0.01375658	1.75974e-08	1.191807e-07	0.007559112	-0.005497738
	0.007167205	-0.005916109	1.75974e-08	1.191807e-07	-0.03578726	0.01282565	-1.580681e-09	2.153702e-08
	-7.119551e-09	4.798166e-09	0.007559112	-0.005497738	-1.580681e-09	2.153702e-08	-0.03470976	0.01410658
2.4e+08	-0.03147071	0.0151463	-2.859022e-09	2.187868e-08	0.005596191	-0.005384203	-7.020324e-09	6.530651e-09
	-2.859022e-09	2.187868e-08	-0.03051077	0.01614833	1.887231e-08	1.235941e-07	0.006004674	-0.005024871
	0.005596191	-0.005384203	1.887231e-08	1.235941e-07	-0.03166764	0.01538566	-1.035676e-09	2.33403e-08
	-7.020324e-09	6.530651e-09	0.006004674	-0.005024871	-1.035676e-09	2.33403e-08	-0.03053328	0.01649947
2.5e+08	-0.02701264	0.01674675	-2.065319e-09	2.383152e-08	0.004154332	-0.004535179	-6.586165e-09	8.274941e-09
	-2.065319e-09	2.383152e-08	-0.02603724	0.01759167	2.008216e-08	1.278407e-07	0.004563706	-0.004239048
	0.004154332	-0.004535179	2.008216e-08	1.278407e-07	-0.0271784	0.01700593	-2.55381e-10	2.505736e-08
	-6.586165e-09	8.274941e-09	0.004563706	-0.004239048	-2.55381e-10	2.505736e-08	-0.02603225	0.01793786
2.6e+08	-0.02238443	0.01736552	-9.60394e-10	2.562142e-08	0.002904252	-0.003402291	-5.810367e-09	9.958457e-09
	-9.60394e-10	2.562142e-08	-0.02143625	0.01804834	2.120079e-08	1.319304e-07	0.003297792	-0.003170143
	0.002904252	-0.003402291	2.120079e-08	1.319304e-07	-0.02251606	0.01763894	7.728686e-10	2.661309e-08
	-5.810367e-09	9.958457e-09	0.003297792	-0.003170143	7.728686e-10	2.661309e-08	-0.02140689	0.01838396
2.7e+08	-0.01778611	0.01699542	3.865925e-10	2.71901e-08	0.001900541	-0.002030963	-4.700955e-09	1.150605e-08
	3.865925e-10	2.71901e-08	-0.01690922	0.01752035	2.218418e-08	1.358867e-07	0.00226122	-0.001859965
	0.001900541	-0.002030963	2.218418e-08	1.358867e-07	-0.01788167	0.01727683	1.979418e-09	2.796305e-08
	-4.700955e-09	1.150605e-08	0.00226122	-0.001859965	1.979418e-09	2.796305e-08	-0.01685978	0.01784058
2.8e+08	-0.01341419	0.0156688	1.918975e-09	2.849072e-08	0.001187415	-0.0004769582	-3.283558e-09	1.284355e-08
	1.918975e-09	2.849072e-08	-0.01265207	0.01604965	2.300154e-08	1.397431e-07	0.001498684	-0.0003605874
	0.001187415	-0.0004769582	2.300154e-08	1.397431e-07	-0.01347289	0.01595157	3.310293e-09	2.907431e-08
	-3.283558e-09	1.284355e-08	0.001498684	-0.0003605874	3.310293e-09	2.907431e-08	-0.01258779	0.01635066
2.9e+08	-0.009454024	0.01345599	3.576779e-09	2.948683e-08	0.0007967603	0.001195916	-1.600891e-09	1.390203e-08
	3.576779e-09	2.948683e-08	-0.008847449	0.01371605	2.363169e-08	1.435389e-07	0.001043351	0.001267778
	0.0007967603	0.001195917	2.363169e-08	1.435389e-07	-0.009476343	0.0137333	4.711267e-09	2.992377e-08
	-1.600891e-09	1.390203e-08	0.001043351	0.001267778	4.711267e-09	2.992377e-08	-0.00877435	0.0139952
3e+08	-0.006072576	0.01046225	5.294134e-09	3.015596e-08	0.000746676	0.002918477	2.885475e-10	1.462182e-08
	5.294134e-09	3.015596e-08	-0.005657582	0.01063375	2.406268e-08	1.473182e-07	0.0009153743	0.002959275
	0.000746676	0.002918477	2.406268e-08	1.473182e-07	-0.006060279	0.01072736	6.125127e-09	3.050117e-08
	2.885475e-10	1.462182e-08	0.0009153743	0.002959275	6.125127e-09	3.050117e-08	-0.005582154	0.0108897
3.1e+08	-0.003411965	0.006823361	7.00259e-09	3.048995e-08	0.001040584	0.00461911	2.312655e-09	1.495625e-08
	7.00259e-09	3.048995e-08	-0.003217894	0.006946414	2.429252e-08	1.51127e-07	0.001120947	0.004645184
	0.001040584	0.00461911	2.429252e-08	1.51127e-07	-0.003368112	0.007069847	7.494745e-09	3.080872e-08
	2.312655e-09	1.495625e-08	0.001120947	0.004645184	7.494745e-09	3.080872e-08	-0.003146844	0.007179235
3.2e+08	-0.001583997	0.002699997	8.63406e-09	3.049445e-08	0.001666967	0.006226865	4.38883e-09	1.48748e-08
	8.63406e-09	3.049445e-08	-0.001631793	0.002821219	2.432946e-08	1.550111e-07	0.001651949	0.006256864
	0.001666967	0.006226865	2.432946e-08	1.550111e-07	-0.001512891	0.002922008	8.765635e-09	3.086008e-08
	4.38883e-09	1.48748e-08	0.001651949	0.006256864	8.765635e-09	3.086008e-08	-0.00157174	0.003032409
3.3e+08	-0.0006659373	-0.001728826	1.012328e-08	3.0188e-08	0.002599771	0.007674576	6.427832e-09	1.436542e-08
	1.012328e-08	3.0188e-08	-0.0009667397	-0.001558134	2.419159e-08	1.590141e-07	0.002486214	0.00772874
	0.002599771	0.007674576	2.419159e-08	1.590141e-07	-0.00057301	-0.001536308	9.88789e-09	3.06789e-08
	6.427832e-09	1.436542e-08	0.002486214	0.00772874	9.88789e-09	3.06789e-08	-0.0009239132	-0.001365689
3.4e+08	-0.0006976704	-0.006273025	1.14097e-08	2.960084e-08	0.003799457	0.008901839	8.338148e-09	1.34359e-08
	1.14097e-08	2.960084e-08	-0.001251806	-0.005998967	2.390595e-08	1.631748e-07	0.003588442	0.009001179
	0.003799457	0.008901839	2.390595e-08	1.631748e-07	-0.0005893277	-0.006113957	1.081747e-08	3.029723e-08
	8.338148e-09	1.34359e-08	0.003588442	0.009001179	1.081747e-08	3.029723e-08	-0.001231761	-0.005821085
3.5e+08	-0.001680391	-0.01073912	1.243899e-08	2.877366e-08	0.005214687	0.009857727	1.003058e-08	1.211407e-08
	1.243899e-08	2.877366e-08	-0.002476818	-0.01030751	2.35073e-08	1.675258e-07	0.0049117	0.01002313
	0.005214687	0.009857727	2.35073e-08	1.675258e-07	-0.001563802	-0.01061621	1.151694e-08	2.975409e-08
	1.003058e-08	1.211407e-08	0.0049117	0.01002313	1.151694e-08	2.975409e-08	-0.002484167	-0.01013888
3.6e+08	-0.003576846	-0.01493797	1.316421e-08	2.775657e-08	0.006784557	0.01050308	1.142275e-08	1.044695e-08
	1.316421e-08	2.775657e-08	-0.004593089	-0.01429676	2.303658e-08	1.720922e-07	0.006399468	0.01075437
	0.006784557	0.01050308	2.303658e-08	1.720922e-07	-0.003459694	-0.01485252	1.195595e-08	2.909426e-08
	1.142275e-08	1.044695e-08	0.006399468	0.01075437	1.195595e-08	2.909426e-08	-0.004631276	-0.01413115
3.7e+08	-0.00631312	-0.01869233	1.3547e-08	2.660814e-08	0.008441278	0.01081229	1.244323e-08	8.498761e-09
	1.3547e-08	2.660814e-08	-0.007515733	-0.01779404	2.253916e-08	1.768904e-07	0.007988126	0.01116731
	0.008441278	0.01081229	2.253916e-08	1.768904e-07	-0.00620332	-0.01864413	1.211156e-08	2.836748e-08
	1.244323e-08	8.498761e-09	0.007988126	0.01116731	1.211156e-08	2.836748e-08	-0.007586851	-0.01762453
3.8e+08	-0.009781874	-0.02184379	1.355884e-08	2.539455e-08	0.01011319	0.01077442	1.303504e-08	6.3482e-09
	1.355884e-08	2.539455e-08	-0.01112741	-0.02064778	2.206312e-08	1.819276e-07	0.009609763	0.01124816
	0.01011319	0.01077442	2.206312e-08	1.819276e-07	-0.009687271	-0.02183106	1.196881e-08	2.762782e-08
	1.303504e-08	6.3482e-09	0.009609763	0.01124816	1.196881e-08	2.762782e-08	-0.01123208	-0.02046712
3.9e+08	-0.01384689	-0.02425891	1.318258e-08	2.418858e-08	0.01172792	0.01039374	1.31584e-08	4.084944e-09
	1.318258e-08	2.418858e-08	-0.01528338	-0.02273357	2.165753e-08	1.872017e-07	0.01119517	0.01099753
	0.01172792	0.01039374	2.165753e-08	1.872017e-07	-0.01377495	-0.02427838	1.152152e-08	2.693313e-08
	1.31584e-08	4.084944e-09	0.01119517	0.01099753	1.152152e-08	2.693313e-08	-0.01542068	-0.02253441
4e+08	-0.0183487	-0.02583437	1.241427e-08	2.306829e-08	0.01321563	0.009689429	1.279259e-08	1.805785e-09
	1.241427e-08	2.306829e-08	-0.01981755	-0.0239588	2.137076e-08	1.927012e-07	0.01267689	0.01043029
	0.01321563	0.009689429	2.137076e-08	1.927012e-07	-0.01830622	-0.02588127	1.077352e-08	2.634424e-08
	1.279259e-08	1.805785e-09	0.01267689	0.01043029	1.077352e-08	2.634424e-08	-0.01998505	-0.0237341
4.1e+08	-0.02311111	-0.02650075	1.126503e-08	2.2115e-08	0.01451202	0.008694767	1.19369e-08	-3.894355e-10
	1.126503e-08	2.2115e-08	-0.02454937	-0.02426619	2.12489e-08	1.984055e-07	0.01399212	0.009574913
	0.01451202	0.008694767	2.12489e-08	1.984055e-07	-0.0231039	-0.02656902	9.740075e-09	2.592366e-08
	1.19369e-08	-3.894355e-10	0.01399212	0.009574913	9.740075e-09	2.592366e-08	-0.02474317	-0.02400947
4.2e+08	-0.02794828	-0.02622502	9.762845e-09	2.141057e-08	0.01556119	0.007455562	1.061072e-08	-2.401878e-09
	9.762845e-09	2.141057e-08	-0.02929118	-0.02363571	2.133427e-08	2.042849e-07	0.01508541	0.008472077
	0.01556119	0.007455562	2.133427e-08	2.042849e-07	-0.02798093	-0.02630749	8.449353e-09	2.573367e-08
	1.061072e-08	-2.401878e-09	0.01508541	0.008472077	8.449353e-09	2.573367e-08	-0.02950608	-0.02334137
4.3e+08	-0.03267204	-0.02501153	7.95385e-09	2.103376e-08	0.01631795	0.006028112	8.852981e-09	-4.137592e-09
	7.95385e-09	2.103376e-08	-0.03385576	-0.02208505	2.166386e-08	2.103019e-07	0.01591098	0.007172873
	0.01631795	0.006028112	2.166386e-08	2.103019e-07	-0.03274773	-0.02510018	6.943611e-09	2.583349e-08
	8.852981e-09	-4.137592e-09	0.01591098	0.007172873	6.943611e-09	2.583349e-08	-0.03408545	-0.02174867
4.4e+08	-0.03709936	-0.02290158	5.902782e-09	2.105589e-08	0.01674977	0.004476718	6.720781e-09	-5.511119e-09
	5.902782e-09	2.105589e-08	-0.03806372	-0.01966863	2.226789e-08	2.164113e-07	0.01643461	0.005736525
	0.01674977	0.004476718	2.226789e-08	2.164113e-07	-0.03721964	-0.02298779	5.279663e-09	2.62758e-08
	6.720781e-09	-5.511119e-09	0.01643461	0.005736525	5.279663e-09	2.62758e-08	-0.03830106	-0.0192871
4.5e+08	-0.04105935	-0.01997153	3.692197e-09	2.153594e-08	0.01683804	0.002870883	4.287579e-09	-6.448764e-09
	3.692197e-09	2.153594e-08	-0.04175059	-0.01647508	2.316831e-08	2.225615e-07	0.01663496	0.004227822
	0.01683804	0.002870883	2.316831e-08	2.225615e-07	-0.04122408	-0.02004644	3.528351e-09	2.710269e-08
	4.287579e-09	-6.448764e-09	0.01663496	0.004227822	3.528351e-09	2.710269e-08	-0.04198787	-0.01604685
4.6e+08	-0.04439986	-0.01632959	1.420246e-09	2.251561e-08	0.01657881	0.001282329	1.640859e-09	-6.891489e-09
	1.420246e-09	2.251561e-08	-0.04477313	-0.01262355	2.437729e-08	2.286956e-07	0.01650436	0.002714363
	0.01657881	0.001282329	2.437729e-08	2.286956e-07	-0.04460716	-0.01638442	1.772707e-09	2.834149e-08
	1.640859e-09	-6.891489e-09	0.01650436	0.002714363	1.772707e-09	2.834149e-08	-0.04500244	-0.01214866
4.7e+08	-0.04699325	-0.01211146	-8.031235e-10	2.401472e-08	0.01598287	-0.0002180243	-1.120621e-09	-6.797418e-09
	-8.031235e-10	2.401472e-08	-0.04701479	-0.008258766	2.589596e-08	2.347534e-07	0.01604902	0.001263727
	0.01598287	-0.0002180243	2.589596e-08	2.347534e-07	-0.0472395	-0.01213785	1.047061e-10	3.000078e-08
	-1.120621e-09	-6.797418e-09	0.01604902	0.001263727	1.047061e-10	3.000078e-08	-0.04722832	-0.007738906
4.8e+08	-0.04874109	-0.007474926	-2.861439e-09	2.602759e-08	0.01507516	-0.001563015	-3.889969e-09	-6.143908e-09
	-2.861439e-09	2.602759e-08	-0.04839012	-0.003545265	2.77132e-08	2.406731e-07	0.01528867	-5.93011e-05
