!$
! Info: Touchstone file created by Circ.  Input file=Tx_16in_Rx_93ohms_TxVia_35mils_RxVia_45mils.circ
!$
# Hz S RI R 50
0	0.0145946	1.921382e-25	-6.274172e-12	6.061129e-28	0.0001052162	2.74626e-23	-5.426542e-12	2.960093e-28
	-6.274176e-12	6.061132e-28	0.01459111	2.285469e-25	-3.631529e-12	9.855053e-28	0.0001038848	3.306447e-23
	0.0001057384	2.782011e-23	-3.631524e-12	9.855046e-28	0.01460243	1.875749e-25	-5.84257e-12	6.455672e-28
	-5.426543e-12	2.960095e-28	0.0001020358	3.322713e-23	-5.842572e-12	6.455679e-28	0.01460414	2.141544e-25
1e+07	0.01985993	-0.002607891	1.144627e-11	3.650525e-13	0.000650262	0.002609715	1.163293e-11	2.823697e-12
	1.144627e-11	3.650525e-13	0.02100771	-0.002883276	8.417968e-12	-5.416031e-12	0.0006818604	0.002842378
	0.0006502861	0.002609716	8.417968e-12	-5.416031e-12	0.02141721	-0.001997857	7.611202e-12	-1.84944e-12
	1.163293e-11	2.823697e-12	0.0006817992	0.002842388	7.611202e-12	-1.84944e-12	0.02058749	-0.002862681
2e+07	0.02241111	-0.01048938	9.753334e-12	-1.125604e-11	0.002019308	0.004995224	2.55002e-12	8.622683e-12
	9.753335e-12	-1.125603e-11	0.02298584	-0.01128878	4.516503e-12	-1.676078e-11	0.001941319	0.005442222
	0.002019316	0.004995208	4.516503e-12	-1.676078e-11	0.02443241	-0.01020507	2.144837e-12	-1.267228e-11
	2.55002e-12	8.622683e-12	0.00194131	0.005442258	2.144838e-12	-1.267228e-11	0.02268664	-0.01111996
3e+07	0.02065835	-0.01993655	-5.710584e-12	-2.237298e-11	0.004035551	0.006794745	-1.124609e-11	1.532761e-11
	-5.710583e-12	-2.237298e-11	0.0207529	-0.02079871	-5.900196e-12	-2.946804e-11	0.00398606	0.007330207
	0.004035551	0.006794742	-5.900196e-12	-2.946804e-11	0.0229308	-0.02009055	-1.618393e-11	-2.242366e-11
	-1.124609e-11	1.532761e-11	0.00398606	0.007330212	-1.618393e-11	-2.242366e-11	0.02053989	-0.02060125
4e+07	0.01550272	-0.02855357	-3.36008e-11	-2.462515e-11	0.006476846	0.007839137	-3.081128e-11	3.028691e-11
	-3.36008e-11	-2.462515e-11	0.01519519	-0.02929517	-2.550294e-11	-3.752732e-11	0.006526233	0.008385513
	0.006476848	0.007839138	-2.550294e-11	-3.752732e-11	0.01784008	-0.02920234	-4.760094e-11	-2.194706e-11
	-3.081128e-11	3.028691e-11	0.006526227	0.008385511	-4.760094e-11	-2.194706e-11	0.01504334	-0.02910187
5e+07	0.00776895	-0.03520932	-6.852298e-11	-1.109232e-11	0.009073168	0.008038673	-5.133383e-11	5.683475e-11
	-6.852298e-11	-1.109232e-11	0.007153685	-0.03570905	-5.19822e-11	-3.672503e-11	0.009200437	0.00857035
	0.00907317	0.008038673	-5.19822e-11	-3.672503e-11	0.01000286	-0.03634979	-8.550104e-11	-3.852258e-12
	-5.133383e-11	5.683475e-11	0.009200433	0.008570349	-8.550104e-11	-3.852257e-12	0.007040408	-0.03553373
6e+07	-0.001607723	-0.03921534	-1.019844e-10	2.196595e-11	0.01154278	0.007397745	-6.67068e-11	9.556748e-11
	-1.019844e-10	2.196595e-11	-0.002421045	-0.03939579	-8.097198e-11	-2.476517e-11	0.01172836	0.007900228
	0.01154278	0.007397745	-8.097198e-11	-2.476517e-11	0.0003769741	-0.04079678	-1.205269e-10	3.510917e-11
	-6.67068e-11	9.556748e-11	0.01172836	0.007900227	-1.205269e-10	3.510917e-11	-0.002515191	-0.03924167
7e+07	-0.01162272	-0.04025003	-1.239256e-10	7.400043e-11	0.01362443	0.006011537	-7.076347e-11	1.441439e-10
	-1.239256e-10	7.400043e-11	-0.01251584	-0.04007449	-1.075828e-10	-4.130731e-13	0.01385065	0.006477026
	0.01362442	0.006011539	-1.075828e-10	-4.13073e-13	-0.01000412	-0.04218515	-1.420242e-10	9.37805e-11
	-7.076347e-11	1.441439e-10	0.01385065	0.006477023	-1.420242e-10	9.37805e-11	-0.01260618	-0.03993795
8e+07	-0.02128226	-0.03833134	-1.245371e-10	1.396468e-10	0.01510541	0.00405275	-5.882576e-11	1.972297e-10
	-1.245371e-10	1.396468e-10	-0.02213715	-0.03780214	-1.263445e-10	3.515784e-11	0.01535605	0.004477339
	0.01510541	0.004052754	-1.263445e-10	3.515784e-11	-0.02011368	-0.04050763	-1.399542e-10	1.658054e-10
	-5.882576e-11	1.972297e-10	0.01535606	0.004477332	-1.399542e-10	1.658054e-10	-0.02223426	-0.03767539
9e+07	-0.02968847	-0.03378128	-9.606985e-11	2.088531e-10	0.01584382	0.001750507	-3.13358e-11	2.472476e-10
	-9.606984e-11	2.088531e-10	-0.03039527	-0.03293655	-1.320676e-10	7.623126e-11	0.01610203	0.002132463
	0.01584382	0.00175051	-1.320676e-10	7.623126e-11	-0.02902166	-0.03607217	-1.079398e-10	2.392874e-10
	-3.133581e-11	2.472476e-10	0.01610204	0.002132457	-1.079398e-10	2.392874e-10	-0.03050523	-0.03280992
1e+08	-0.03610924	-0.02717246	-3.200492e-11	2.673789e-10	0.01579158	-0.0006353684	1.379295e-11	2.885011e-10
	-3.200492e-11	2.673789e-10	-0.03655892	-0.02608109	-1.2228e-10	1.193262e-10	0.01602659	-0.0002972319
	0.01579158	-0.0006353685	-1.2228e-10	1.193262e-10	-0.03599353	-0.02944699	-3.9844e-11	3.008594e-10
	1.379295e-11	2.885011e-10	0.01602659	-0.0002972319	-3.9844e-11	3.008594e-10	-0.03668701	-0.0259449
1.1e+08	-0.04007734	-0.01930485	5.18987e-11	2.79904e-10	0.0149457	-0.002797292	6.796218e-11	3.042575e-10
	5.18987e-11	2.79904e-10	-0.04024021	-0.01813735	-9.232647e-11	1.471722e-10	0.01515367	-0.002541514
	0.0149457	-0.002797292	-9.232647e-11	1.471722e-10	-0.04043574	-0.0212939	4.89134e-11	3.154647e-10
	6.796218e-11	3.042575e-10	0.01515367	-0.002541514	4.89134e-11	3.154647e-10	-0.04037776	-0.01796845
1.2e+08	-0.04138606	-0.01095513	1.204663e-10	2.670779e-10	0.01339875	-0.004555026	1.208386e-10	3.016284e-10
	1.204663e-10	2.670779e-10	-0.0413019	-0.00978774	-6.348783e-11	1.636831e-10	0.01359487	-0.004364841
	0.01339875	-0.004555026	-6.348783e-11	1.636831e-10	-0.04204156	-0.01260186	1.238672e-10	3.038101e-10
	1.208386e-10	3.016284e-10	0.01359487	-0.004364841	1.238672e-10	3.038101e-10	-0.04142995	-0.009585879
1.3e+08	-0.04006342	-0.002978191	1.736112e-10	2.386034e-10	0.01133994	-0.005711962	1.642802e-10	2.872288e-10
	1.736112e-10	2.386034e-10	-0.03976628	-0.001878572	-3.66706e-11	1.704391e-10	0.01152236	-0.005577306
	0.01133994	-0.005711963	-3.66706e-11	1.704391e-10	-0.04088858	-0.004267559	1.851078e-10	2.743387e-10
	1.642802e-10	2.872288e-10	0.01152236	-0.005577306	1.851078e-10	2.743387e-10	-0.03987227	-0.001649322
1.4e+08	-0.03640866	0.003840317	2.172954e-10	1.930119e-10	0.008994748	-0.006140187	1.999083e-10	2.596492e-10
	2.172954e-10	1.930119e-10	-0.03594652	0.004814013	-9.28159e-12	1.69348e-10	0.009158115	-0.006053003
	0.008994748	-0.006140187	-9.28159e-12	1.69348e-10	-0.03729585	0.002894513	2.361555e-10	2.248304e-10
	1.999083e-10	2.596492e-10	0.009158115	-0.006053003	2.361555e-10	2.248304e-10	-0.03602198	0.005061089
1.5e+08	-0.03094483	0.008860115	2.45439e-10	1.333073e-10	0.00661362	-0.005789687	2.233164e-10	2.208558e-10
	2.45439e-10	1.333073e-10	-0.03038043	0.009664498	1.589329e-11	1.603804e-10	0.006750897	-0.005742103
	0.00661362	-0.005789687	1.589329e-11	1.603804e-10	-0.03180545	0.008222018	2.695803e-10	1.585073e-10
	2.233164e-10	2.208558e-10	0.006750897	-0.005742103	2.695803e-10	1.585073e-10	-0.03042149	0.009917446
1.6e+08	-0.02435898	0.01164469	2.530384e-10	6.466327e-11	0.004448035	-0.004692008	2.306473e-10	1.750089e-10
	2.530384e-10	6.466327e-11	-0.02376644	0.01225637	3.601065e-11	1.443092e-10	0.004551506	-0.004675129
	0.004448035	-0.004692008	3.601065e-11	1.443092e-10	-0.02512467	0.01126249	2.798135e-10	8.164513e-11
	2.306473e-10	1.750089e-10	0.004551506	-0.004675129	2.798135e-10	8.164513e-11	-0.02377413	0.01250259
1.7e+08	-0.01742926	0.01199848	2.370407e-10	-6.061692e-12	0.002725617	-0.002956516	2.195336e-10	1.275104e-10
	2.370407e-10	-6.061692e-12	-0.01688806	0.01241799	4.868264e-11	1.230066e-10	0.002787863	-0.002959646
	0.002725617	-0.002956516	4.868264e-11	1.230066e-10	-0.01805274	0.01181039	2.632996e-10	2.049279e-12
	2.195336e-10	1.275104e-10	0.002787863	-0.002959646	2.632996e-10	2.049279e-12	-0.0168681	0.01264602
1.8e+08	-0.01094515	0.009980104	1.968426e-10	-7.107494e-11	0.001627071	-0.0007591859	1.895061e-10	8.449034e-11
	1.968426e-10	-7.107494e-11	-0.01053251	0.01023355	5.23282e-11	9.912885e-11	0.001642073	-0.0007694799
	0.001627071	-0.0007591859	5.23282e-11	9.912885e-11	-0.0114002	0.00992001	2.192857e-10	-7.139489e-11
	1.895061e-10	8.449034e-11	0.001642073	-0.00076948	2.192857e-10	-7.139489e-11	-0.01049454	0.01043457
1.9e+08	-0.005628293	0.005890459	1.345161e-10	-1.225389e-10	0.001267398	0.001675408	1.421824e-10	5.213181e-11
	1.345161e-10	-1.225389e-10	-0.005410849	0.006028577	4.639767e-11	7.575096e-11	0.001231664	0.001672793
	0.001267398	0.001675408	4.639767e-11	7.575096e-11	-0.005908632	0.005893367	1.500815e-10	-1.297459e-10
	1.421824e-10	5.213181e-11	0.001231664	0.001672793	1.500815e-10	-1.297459e-10	-0.005367216	0.006197605
2e+08	-0.002059747	0.0002369535	5.470875e-11	-1.534817e-10	0.001679817	0.004093095	8.122319e-11	3.598416e-11
	5.470875e-11	-1.534817e-10	-0.002087233	0.0003315427	3.141682e-11	5.598225e-11	0.001597075	0.004118709
	0.001679817	0.004093095	3.141682e-11	5.598225e-11	-0.002176851	0.0002437315	6.094161e-11	-1.650459e-10
	8.122319e-11	3.598416e-11	0.001597075	0.004118709	6.094161e-11	-1.650459e-10	-0.002051514	0.0004681294
2.1e+08	-0.0006290425	-0.00632205	-3.573475e-11	-1.58668e-10	0.002829552	0.006250677	1.204466e-11	4.021646e-11
	-3.573475e-11	-1.58668e-10	-0.0009241359	-0.006184363	8.946391e-12	4.250234e-11	0.00269704	0.006319948
	0.002829552	0.006250677	8.946391e-12	4.250234e-11	-0.0006089776	-0.006360723	-4.037355e-11	-1.713366e-10
	1.204466e-11	4.021646e-11	0.00269704	0.006319948	-4.037355e-11	-1.713366e-10	-0.0009094983	-0.006075984
2.2e+08	-0.001493234	-0.01304594	-1.284717e-10	-1.352208e-10	0.004592036	0.007924512	-5.870102e-11	6.716015e-11
	-1.284717e-10	-1.352208e-10	-0.00204904	-0.01277335	-1.873138e-11	3.733269e-11	0.004412734	0.008054792
	0.004592036	0.007924512	-1.873138e-11	3.733269e-11	-0.001372753	-0.01316667	-1.444061e-10	-1.453473e-10
	-5.870102e-11	6.716015e-11	0.004412734	0.008054792	-1.444061e-10	-1.453473e-10	-0.002066674	-0.01268465
2.3e+08	-0.004566614	-0.01918991	-2.144838e-10	-8.30139e-11	0.00677664	0.00894354	-1.237618e-10	1.169377e-10
	-2.144838e-10	-8.30139e-11	-0.005345843	-0.01869537	-4.888016e-11	4.166711e-11	0.006560511	0.009151938
	0.00677664	0.00894354	-4.888016e-11	4.166711e-11	-0.004388784	-0.01941491	-2.40944e-10	-8.693867e-11
	-1.237618e-10	1.169377e-10	0.006560511	0.009151938	-2.40944e-10	-8.693867e-11	-0.005403623	-0.01861444
2.4e+08	-0.009534159	-0.02408132	-2.849825e-10	-4.768568e-12	0.009148108	0.009208159	-1.760261e-10	1.873386e-10
	-2.849825e-10	-4.768568e-12	-0.01047157	-0.02329251	-7.859894e-11	5.583377e-11	0.008911922	0.009508812
	0.009148108	0.009208159	-7.859894e-11	5.583377e-11	-0.009343868	-0.02441799	-3.200527e-10	7.974447e-13
	-1.760261e-10	1.873386e-10	0.008911922	0.009508812	-3.200527e-10	7.974447e-13	-0.01057308	-0.02320532
2.5e+08	-0.01588806	-0.02718714	-3.322869e-10	9.414027e-11	0.01145251	0.008700651	-2.092694e-10	2.73943e-10
	-3.322869e-10	9.414027e-11	-0.01689616	-0.02605531	-1.050629e-10	7.934899e-11	0.01121866	0.009102135
	0.01145251	0.008700651	-1.050629e-10	7.934899e-11	-0.01572776	-0.02762889	-3.730707e-10	1.117684e-10
	-2.092694e-10	2.73943e-10	0.01121866	0.009102135	-3.730707e-10	1.117684e-10	-0.01704021	-0.02594724
2.6e+08	-0.02298314	-0.02816575	-3.507429e-10	2.062228e-10	0.01344503	0.007486304	-2.188273e-10	3.704755e-10
	-3.507429e-10	2.062228e-10	-0.02396069	-0.02667244	-1.258097e-10	1.110881e-10	0.01323945	0.007989563
	0.01344503	0.007486304	-1.258097e-10	1.110881e-10	-0.02288915	-0.02869395	-3.934612e-10	2.373919e-10
	-2.188273e-10	3.704755e-10	0.01323945	0.007989563	-3.934612e-10	2.373919e-10	-0.02414132	-0.02652985
2.7e+08	-0.0301049	-0.02689813	-3.368233e-10	3.223373e-10	0.01491629	0.005705309	-2.02139e-10	4.693597e-10
	-3.368233e-10	3.223373e-10	-0.03094731	-0.02505872	-1.384942e-10	1.492e-10	0.01476561	0.006302393
	0.01491629	0.005705309	-1.384942e-10	1.492e-10	-0.03010455	-0.02748491	-3.77524e-10	3.673243e-10
	-2.02139e-10	4.693597e-10	0.01476561	0.006302393	-3.77524e-10	3.673243e-10	-0.03115438	-0.02487057
2.8e+08	-0.03654302	-0.02349604	-2.899953e-10	4.325061e-10	0.0157142	0.003556626	-1.590852e-10	5.624206e-10
	-2.899953e-10	4.325061e-10	-0.03715357	-0.0213598	-1.413544e-10	1.912641e-10	0.01564255	0.0042305
	0.0157142	0.003556626	-1.413544e-10	1.912641e-10	-0.03665277	-0.02410758	-3.247989e-10	4.903718e-10
	-1.590852e-10	5.624206e-10	0.01564255	0.0042305	-3.247989e-10	4.903718e-10	-0.03737382	-0.02111885
2.9e+08	-0.0416626	-0.01828687	-2.127944e-10	5.268401e-10	0.01575903	0.00127601	-9.209979e-11	6.416664e-10
	-2.127944e-10	5.268401e-10	-0.04196335	-0.0159334	-1.332772e-10	2.343702e-10	0.01578485	0.00200152
	0.01575903	0.00127601	-1.332772e-10	2.343702e-10	-0.04188726	-0.01888707	-2.38236e-10	5.954747e-10
	-9.209979e-11	6.416664e-10	0.01578485	0.00200152	-2.38236e-10	5.954747e-10	-0.04218179	-0.01563705
3e+08	-0.04496645	-0.01177774	-1.107058e-10	5.964356e-10	0.01505054	-0.0008891815	-6.037555e-12	7.000783e-10
	-1.107058e-10	5.964356e-10	-0.04490759	-0.009309883	-1.139535e-10	2.752186e-10	0.01518379	-0.0001432204
	0.01505054	-0.0008891815	-1.139535e-10	2.752186e-10	-0.04529945	-0.01233172	-1.240818e-10	6.727208e-10
	-6.037555e-12	7.000783e-10	0.01518379	-0.0001432204	-1.240818e-10	6.727208e-10	-0.04510908	-0.008960459
3.1e+08	-0.04614262	-0.004602636	8.184942e-12	6.342427e-10	0.01366674	-0.002705626	9.219873e-11	7.323353e-10
	8.184942e-12	6.342427e-10	-0.04570919	-0.002136583	-8.407029e-11	3.103201e-10	0.01390694	-0.001973412
	0.01366674	-0.002705626	-8.407029e-11	3.103201e-10	-0.04656719	-0.005079932	8.525583e-12	7.143158e-10
	9.219873e-11	7.323353e-10	0.01390694	-0.001973412	8.525583e-12	7.143158e-10	-0.04588003	-0.001741202
3.2e+08	-0.04509308	0.002541673	1.337938e-10	6.358228e-10	0.01175484	-0.003977591	1.942445e-10	7.354014e-10
	1.337938e-10	6.358228e-10	-0.04430825	0.004888125	-4.545765e-11	3.363154e-10	0.01209025	-0.003292722
	0.01175484	-0.003977591	-4.545765e-11	3.363154e-10	-0.04558431	0.00216446	1.482466e-10	7.154251e-10
	1.942445e-10	7.354014e-10	0.01209025	-0.003292722	1.482466e-10	7.154251e-10	-0.04443769	0.005318271
3.3e+08	-0.04194141	0.008964943	2.54865e-10	5.999243e-10	0.009515776	-0.004566312	2.910234e-10	7.08914e-10
	2.54865e-10	5.999243e-10	-0.04086587	0.01108481	-1.111543e-12	3.504012e-10	0.009923764	-0.003957985
	0.009515776	-0.004566312	-1.111543e-12	3.504012e-10	-0.04246882	0.008702244	2.824801e-10	6.74808e-10
	2.910234e-10	7.08914e-10	0.009923764	-0.003957985	2.824801e-10	6.74808e-10	-0.04094721	0.01153558
3.4e+08	-0.03701897	0.01405131	3.599746e-10	5.288043e-10	0.007183585	-0.004403584	3.735979e-10	6.553319e-10
	3.599746e-10	5.288043e-10	-0.0357463	0.01586026	4.497687e-11	3.507964e-10	0.007632382	-0.003893058
	0.007183585	-0.004403584	4.497687e-11	3.507964e-10	-0.03754953	0.01390754	3.985002e-10	5.951595e-10
	3.735979e-10	6.553319e-10	0.007632382	-0.003893058	3.985002e-10	5.951595e-10	-0.03577774	0.01631602
3.5e+08	-0.03083127	0.01731949	4.38633e-10	4.282325e-10	0.005001871	-0.003498487	4.340413e-10	5.798112e-10
	4.38633e-10	4.282325e-10	-0.02947964	0.01876582	8.820945e-11	3.371421e-10	0.005453381	-0.003096225
	0.005001871	-0.003498487	8.820945e-11	3.371421e-10	-0.0313325	0.01728889	4.846965e-10	4.830884e-10
	4.340413e-10	5.798112e-10	0.005453381	-0.003096225	4.846965e-10	4.830884e-10	-0.02946446	0.01921105
3.6e+08	-0.02400747	0.01846973	4.823873e-10	3.071402e-10	0.003199228	-0.00193666	4.662473e-10	4.898161e-10
	4.823873e-10	3.071402e-10	-0.02270837	0.01954133	1.239467e-10	3.107236e-10	0.003612737	-0.001640509
	0.003199228	-0.00193666	1.239467e-10	3.107236e-10	-0.02445045	0.01853712	5.318035e-10	3.486956e-10
	4.662473e-10	4.898161e-10	0.003612737	-0.001640509	5.318035e-10	3.486956e-10	-0.02265472	0.01996226
3.7e+08	-0.01723806	0.01741298	4.857979e-10	1.769088e-10	0.001965898	0.0001279283	4.66596e-10	3.944867e-10
	4.857979e-10	1.769088e-10	-0.01612308	0.0181405	1.481506e-10	2.744341e-10	0.002302251	0.0003332841
	0.001965898	0.0001279283	1.481506e-10	2.744341e-10	-0.01760001	0.01755537	5.339759e-10	2.04748e-10
	4.66596e-10	3.944867e-10	0.002302251	0.0003332841	5.339759e-10	2.04748e-10	-0.01604318	0.01852659
3.8e+08	-0.01120626	0.01427946	4.471666e-10	5.034068e-11	0.001433864	0.002488172	4.344039e-10	3.038181e-10
	4.471666e-10	5.034068e-11	-0.01039332	0.01473504	1.579712e-10	2.32462e-10	0.001659702	0.002630384
	0.001433864	0.002488172	1.579712e-10	2.32462e-10	-0.01147263	0.01446832	4.895696e-10	6.550562e-11
	4.344039e-10	3.038181e-10	0.001659702	0.002630384	4.895696e-10	6.550562e-11	-0.01030227	0.01508016
3.9e+08	-0.006520234	0.009405463	3.688995e-10	-5.959694e-11	0.001662487	0.004904778	3.721058e-10	2.277204e-10
	3.688995e-10	-5.959694e-11	-0.00610055	0.009697083	1.521542e-10	1.8976e-10	0.001754086	0.005021662
	0.001662487	0.004904778	1.521542e-10	1.8976e-10	-0.006685877	0.00960951	4.015078e-10	-5.46887e-11
	3.721058e-10	2.277204e-10	0.001754086	0.005021662	4.015078e-10	-5.46887e-11	-0.006014783	0.01000024
4e+08	-0.003652494	0.003299603	2.574316e-10	-1.411152e-10	0.002631418	0.007131073	2.851364e-10	1.750486e-10
	2.574316e-10	-1.411152e-10	-0.003679844	0.003561357	1.311898e-10	1.514027e-10	0.002577726	0.007267261
	0.002631418	0.007131073	1.311898e-10	1.514027e-10	-0.003722019	0.003487846	2.77154e-10	-1.428996e-10
	2.851364e-10	1.750486e-10	0.002577726	0.007267261	2.77154e-10	-1.428996e-10	-0.003615412	0.003826903
4.1e+08	-0.002892955	-0.003408297	1.22696e-10	-1.84872e-10	0.004241893	0.008939153	1.815111e-10	1.526954e-10
	1.22696e-10	-1.84872e-10	-0.003376402	-0.003029108	9.719406e-11	1.219659e-10	0.004046421	0.009141858
	0.004241893	0.008939153	9.719406e-11	1.219659e-10	-0.002880098	-0.003263599	1.276842e-10	-1.889871e-10
	1.815111e-10	1.526954e-10	0.004046421	0.009141858	1.276842e-10	-1.889871e-10	-0.003347275	-0.002791793
4.2e+08	-0.004320441	-0.01003053	-2.281263e-11	-1.850019e-10	0.006326622	0.01014449	7.113054e-11	1.648429e-10
	-2.281263e-11	-1.850019e-10	-0.005221495	-0.009388242	5.357684e-11	1.05036e-10	0.006007928	0.01045877
	0.006326622	0.01014449	5.357684e-11	1.05036e-10	-0.00424655	-0.009951236	-3.297851e-11	-1.867154e-10
	7.113054e-11	1.648429e-10	0.006007928	0.01045877	-3.297851e-11	-1.867154e-10	-0.005238027	-0.009165657
4.3e+08	-0.007795607	-0.01589049	-1.652681e-10	-1.397779e-10	0.008667393	0.0106261	-3.513128e-11	2.124578e-10
	-1.652681e-10	-1.397779e-10	-0.009030316	-0.01485637	4.591187e-12	1.029134e-10	0.008258035	0.01109009
	0.008667393	0.0106261	4.591187e-12	1.029134e-10	-0.007687406	-0.01589058	-1.895394e-10	-1.344464e-10
	-3.513128e-11	2.124578e-10	0.008258035	0.01109009	-1.895394e-10	-1.344464e-10	-0.009098054	-0.01463222
4.4e+08	-0.01297598	-0.02039018	-2.908859e-10	-5.182971e-11	0.0110185	0.0103398	-1.264714e-10	2.930942e-10
	-2.908859e-10	-5.182971e-11	-0.01442189	-0.01886649	-4.513262e-11	1.165115e-10	0.01056248	0.01098035
	0.0110185	0.0103398	-4.513262e-11	1.165115e-10	-0.01286281	-0.02047454	-3.268473e-10	-3.534236e-11
	-1.264714e-10	2.930942e-10	0.01056248	0.01098035	-3.268473e-10	-3.534236e-11	-0.01454088	-0.01862338
4.5e+08	-0.0193513	-0.02306926	-3.87278e-10	7.208985e-11	0.01313325	0.009322921	-1.932288e-10	4.010374e-10
	-3.87278e-10	7.208985e-11	-0.02085873	-0.02100057	-9.099095e-11	1.45406e-10	0.0126821	0.01015222
	0.01313325	0.009322921	-9.099095e-11	1.45406e-10	-0.0192622	-0.02323342	-4.313766e-10	1.029245e-10
	-1.932288e-10	4.010374e-10	0.0126821	0.01015222	-4.313766e-10	1.029245e-10	-0.02102341	-0.02072184
4.6e+08	-0.02629536	-0.02364972	-4.446431e-10	2.217469e-10	0.01479048	0.007689978	-2.27858e-10	5.277882e-10
	-4.446431e-10	2.217469e-10	-0.02770197	-0.0210302	-1.287838e-10	1.880531e-10	0.01439836	0.008703471
	0.01479048	0.007689978	-1.287838e-10	1.880531e-10	-0.0262562	-0.02388053	-4.926135e-10	2.689751e-10
	-2.27858e-10	5.277882e-10	0.01439836	0.008703471	-4.926135e-10	2.689751e-10	-0.02790164	-0.02070172
4.7e+08	-0.03312874	-0.02206188	-4.566828e-10	3.8438e-10	0.01581788	0.005619911	-2.257388e-10	6.628236e-10
	-4.566828e-10	3.8438e-10	-0.03427578	-0.0189376	-1.54777e-10	2.419393e-10	0.0155361	0.006795891
	0.01581788	0.005619911	-1.54777e-10	2.419393e-10	-0.03315976	-0.02233898	-5.038839e-10	4.488509e-10
	-2.257388e-10	6.628236e-10	0.0155361	0.006795891	-5.038839e-10	4.488509e-10	-0.03449569	-0.01854923
