!$
! Info: Touchstone file created by Circ.  Input file=Tx_10in_Rx_85ohms_TxVia_35mils_RxVia_45mils.circ
!$
# Hz S RI R 50
0	0.008115449	1.325521e-25	-5.412152e-05	-5.202816e-26	7.439509e-05	1.522264e-23	-5.412105e-05	-5.652677e-26
	-5.412154e-05	-5.005079e-26	0.008111999	1.552072e-25	-5.412041e-05	-4.372933e-26	7.30415e-05	1.832566e-23
	7.491872e-05	1.542081e-23	-5.412038e-05	-4.703767e-26	0.008123561	1.293958e-25	-5.412064e-05	3.839961e-26
	-5.412106e-05	-5.515391e-26	7.11938e-05	1.841595e-23	-5.412067e-05	4.110347e-26	0.008125136	1.454185e-25
1e+07	0.01041924	-0.00956918	-6.147256e-06	-1.360738e-05	0.0002686068	0.001892432	-3.637055e-06	-1.593528e-05
	-6.147256e-06	-1.360738e-05	0.01040177	-0.009404521	-9.525048e-06	-4.193387e-07	0.0003411984	0.001886358
	0.0002686307	0.001892433	-9.525047e-06	-4.193391e-07	0.01176919	-0.009286087	-2.084172e-05	2.093006e-06
	-3.637055e-06	-1.593527e-05	0.0003411382	0.001886369	-2.084172e-05	2.093006e-06	0.01038397	-0.009390959
2e+07	0.00990231	-0.02169444	-5.53441e-06	-5.119405e-06	0.0008693159	0.003692954	-2.140098e-06	-8.320448e-06
	-5.53441e-06	-5.119404e-06	0.01002452	-0.02142668	-2.461877e-05	-1.40095e-05	0.00096037	0.00361983
	0.0008693235	0.003692939	-2.461877e-05	-1.40095e-05	0.01127148	-0.02173196	-3.083625e-05	-5.919965e-06
	-2.140098e-06	-8.320448e-06	0.0009603622	0.003619864	-3.083625e-05	-5.919965e-06	0.01001478	-0.02139003
3e+07	0.005917293	-0.03430891	-5.256314e-06	-2.923073e-06	0.001865868	0.005247805	-2.657261e-06	-6.40446e-06
	-5.256314e-06	-2.923073e-06	0.0061226	-0.034022	-3.598048e-05	-1.35196e-05	0.001904203	0.005162639
	0.001865867	0.005247802	-3.598048e-05	-1.35196e-05	0.007284099	-0.03452207	-3.813687e-05	-4.105751e-06
	-2.657261e-06	-6.40446e-06	0.001904204	0.005162644	-3.813687e-05	-4.105751e-06	0.006117927	-0.03397067
4e+07	-0.0009677281	-0.04601742	-4.999796e-06	-1.686996e-06	0.003139164	0.006533892	-3.811587e-06	-4.928302e-06
	-4.999796e-06	-1.686996e-06	-0.0007192041	-0.04573184	-4.498414e-05	-8.797241e-06	0.003125516	0.006455623
	0.003139166	0.006533893	-4.498414e-05	-8.797241e-06	0.0003731478	-0.04638538	-4.367505e-05	6.145613e-07
	-3.811587e-06	-4.928302e-06	0.003125511	0.006455621	-4.367505e-05	6.145616e-07	-0.0007209916	-0.04566771
5e+07	-0.01029245	-0.05613099	-4.730579e-06	-8.215026e-07	0.004625462	0.007505148	-4.70983e-06	-3.564659e-06
	-4.730579e-06	-8.215027e-07	-0.01003227	-0.0558492	-5.189806e-05	-1.489325e-06	0.004561871	0.007448847
	0.004625463	0.007505148	-5.189806e-05	-1.489325e-06	-0.008999681	-0.05664296	-4.762257e-05	7.075248e-06
	-4.70983e-06	-3.564659e-06	0.004561867	0.007448847	-4.762257e-05	7.075248e-06	-0.01003309	-0.05577261
6e+07	-0.02156468	-0.0641563	-4.436483e-06	-1.531835e-07	0.006250999	0.008128639	-5.352338e-06	-2.187539e-06
	-4.436483e-06	-1.531834e-07	-0.02131694	-0.06387093	-5.673029e-05	7.687647e-06	0.00614161	0.008107708
	0.006250997	0.008128639	-5.673029e-05	7.687647e-06	-0.02034088	-0.06480233	-4.99755e-05	1.476233e-05
	-5.352338e-06	-2.187539e-06	0.006141613	0.008107706	-4.99755e-05	1.476233e-05	-0.0213183	-0.06378127
7e+07	-0.03424793	-0.06974335	-4.114164e-06	3.840988e-07	0.00793712	0.008388102	-5.727776e-06	-7.638277e-07
	-4.114163e-06	3.840988e-07	-0.03402967	-0.0694415	-5.935906e-05	1.829921e-05	0.007788439	0.008414539
	0.007937115	0.008388104	-5.935906e-05	1.829921e-05	-0.03311261	-0.07051232	-5.064327e-05	2.33561e-05
	-5.727775e-06	-7.638277e-07	0.007788446	0.008414535	-5.064327e-05	2.33561e-05	-0.03403258	-0.06933758
8e+07	-0.0477734	-0.07267372	-3.764715e-06	8.188983e-07	0.009604717	0.008284649	-5.813241e-06	7.090731e-07
	-3.764714e-06	8.188981e-07	-0.04759537	-0.07234013	-5.955323e-05	3.002745e-05	0.009425656	0.008368894
	0.009604711	0.008284653	-5.955323e-05	3.002745e-05	-0.04674482	-0.07355318	-4.946139e-05	3.261628e-05
	-5.81324e-06	7.090729e-07	0.009425665	0.008368887	-4.946139e-05	3.261628e-05	-0.04760025	-0.07222035
9e+07	-0.06155901	-0.07285563	-3.39075e-06	1.163128e-06	0.01117832	0.007836126	-5.563453e-06	2.226769e-06
	-3.390749e-06	1.163128e-06	-0.0614274	-0.07247567	-5.689341e-05	4.265253e-05	0.01098024	0.007986869
	0.01117831	0.00783613	-5.689341e-05	4.265253e-05	-0.06065505	-0.07383246	-4.613245e-05	4.237116e-05
	-5.563453e-06	2.226769e-06	0.01098025	0.007986862	-4.613245e-05	4.237116e-05	-0.06143405	-0.07233829
1e+08	-0.07502512	-0.07031456	-2.985365e-06	1.419415e-06	0.01259003	0.007075667	-4.782675e-06	3.851571e-06
	-2.985365e-06	1.419415e-06	-0.07495203	-0.06988257	-4.975059e-05	5.660888e-05	0.0123883	0.00730083
	0.01259003	0.007075667	-4.975059e-05	5.660888e-05	-0.07427114	-0.07138044	-3.947296e-05	5.292207e-05
	-4.782675e-06	3.851571e-06	0.0123883	0.00730083	-3.947296e-05	5.292207e-05	-0.07495985	-0.06972604
1.1e+08	-0.08762415	-0.06525113	-2.68313e-06	1.666914e-06	0.01378129	0.006046815	-3.387571e-06	4.677095e-06
	-2.68313e-06	1.666914e-06	-0.0876246	-0.06470083	-3.718322e-05	6.400619e-05	0.01359515	0.006338876
	0.01378129	0.006046815	-3.718322e-05	6.400619e-05	-0.08704987	-0.06634552	-3.513192e-05	5.482428e-05
	-3.387571e-06	4.677095e-06	0.01359515	0.006338876	-3.513192e-05	5.482428e-05	-0.08763156	-0.06452335
1.2e+08	-0.0989138	-0.05787114	-2.3908e-06	1.930994e-06	0.01470374	0.004805738	-2.210012e-06	5.134315e-06
	-2.3908e-06	1.930994e-06	-0.09893925	-0.05717587	-3.246709e-05	6.552534e-05	0.01454049	0.005160563
	0.01470374	0.004805738	-3.246709e-05	6.552534e-05	-0.09849816	-0.05896045	-3.225159e-05	5.585382e-05
	-2.210012e-06	5.134315e-06	0.01454049	0.005160563	-3.225159e-05	5.585382e-05	-0.09894315	-0.05697603
1.3e+08	-0.1084591	-0.04849841	-2.089288e-06	2.163135e-06	0.01532448	0.003414917	-1.391214e-06	5.26681e-06
	-2.089288e-06	2.163135e-06	-0.1084709	-0.04765165	-2.864441e-05	6.651954e-05	0.01519363	0.003828274
	0.01532448	0.003414917	-2.864441e-05	6.651954e-05	-0.1081884	-0.04956065	-2.875624e-05	5.719069e-05
	-1.391214e-06	5.26681e-06	0.01519363	0.003828274	-2.875624e-05	5.719069e-05	-0.108469	-0.04742869
1.4e+08	-0.1159123	-0.03753544	-1.777986e-06	2.356938e-06	0.01562365	0.00194038	-1.242866e-06	5.138816e-06
	-1.777986e-06	2.356938e-06	-0.1158747	-0.03654195	-2.430343e-05	6.759845e-05	0.01553461	0.002406025
	0.01562365	0.001940379	-2.430343e-05	6.759845e-05	-0.1157732	-0.038553	-2.482098e-05	5.855449e-05
	-1.242866e-06	5.138816e-06	0.01553461	0.002406025	-2.482098e-05	5.855449e-05	-0.1158639	-0.03629592
1.5e+08	-0.1210173	-0.02543982	-1.460424e-06	2.509331e-06	0.01559482	0.0004493179	-1.07242e-06	5.047408e-06
	-1.460424e-06	2.509331e-06	-0.1208982	-0.02431383	-1.956167e-05	6.857132e-05	0.01555607	0.0009588138
	0.01559482	0.0004493179	-1.956167e-05	6.857132e-05	-0.1209961	-0.02639825	-2.053802e-05	5.978531e-05
	-1.07242e-06	5.047408e-06	0.01555607	0.0009588138	-2.053802e-05	5.978531e-05	-0.1208751	-0.02404578
1.6e+08	-0.1236154	-0.01270469	-1.139068e-06	2.622102e-06	0.01524452	-0.0009922937	-8.852791e-07	4.980283e-06
	-1.139068e-06	2.622102e-06	-0.1233877	-0.01146861	-1.450168e-05	6.931059e-05	0.01526289	-0.0004494305
	0.01524452	-0.0009922937	-1.450168e-05	6.931059e-05	-0.1236979	-0.01359226	-1.597147e-05	6.078137e-05
	-8.852791e-07	4.980283e-06	0.01526289	-0.0004494305	-1.597147e-05	6.078137e-05	-0.123349	-0.01118062
1.7e+08	-0.1236477	0.0001605017	-8.168497e-07	2.696584e-06	0.01459147	-0.002321824	-6.844606e-07	4.929047e-06
	-8.168497e-07	2.696584e-06	-0.1232911	0.001477551	-9.195363e-06	6.972393e-05	0.01467158	-0.001757771
	0.01459147	-0.002321824	-9.195363e-06	6.972393e-05	-0.1238198	-0.000646887	-1.117916e-05	6.146701e-05
	-6.844606e-07	4.929047e-06	0.01467158	-0.001757771	-1.117916e-05	6.146701e-05	-0.1232341	0.001782446
1.8e+08	-0.1211556	0.01264883	-4.969684e-07	2.73407e-06	0.01366557	-0.003481865	-4.717986e-07	4.887563e-06
	-4.969684e-07	2.73407e-06	-0.1206574	0.01401274	-3.711838e-06	6.9743e-05	0.01380942	-0.00291
	0.01366557	-0.003481865	-3.711838e-06	6.9743e-05	-0.1214025	0.01192871	-6.218338e-06	6.17848e-05
	-4.717986e-07	4.887563e-06	0.01380942	-0.00291	-6.218338e-06	6.17848e-05	-0.1205802	0.01433069
1.9e+08	-0.1162767	0.02427411	-1.827231e-07	2.73604e-06	0.0125068	-0.004421915	-2.485341e-07	4.851117e-06
	-1.827231e-07	2.73604e-06	-0.1156331	0.0256477	1.879555e-06	6.931809e-05	0.01271339	-0.003856213
	0.0125068	-0.004421915	1.879555e-06	6.931809e-05	-0.116584	0.02364627	-1.14781e-06	6.169186e-05
	-2.485341e-07	4.851117e-06	0.01271339	-0.003856213	-1.14781e-06	6.169186e-05	-0.1155347	0.02597426
2e+08	-0.1092392	0.03458807	1.226437e-07	2.704267e-06	0.01116393	-0.005099917	-1.555913e-08	4.815929e-06
	1.226437e-07	2.704267e-06	-0.1084558	0.03593316	7.50872e-06	6.841534e-05	0.01142914	-0.004554275
	0.01116393	-0.005099917	7.50872e-06	6.841534e-05	-0.1095923	0.03405552	3.971834e-06	6.115809e-05
	-1.555913e-08	4.815929e-06	0.01142914	-0.004554275	3.971834e-06	6.115809e-05	-0.1083363	0.03626361
2.1e+08	-0.100353	0.04319636	4.160853e-07	2.640845e-06	0.009693003	-0.00548368	2.264194e-07	4.778856e-06
	4.160853e-07	2.640845e-06	-0.09944488	0.04447597	1.310514e-05	6.701518e-05	0.01000958	-0.004971206
	0.009693003	-0.00548368	1.310514e-05	6.701518e-05	-0.1007377	0.04276018	9.078686e-06	6.016527e-05
	2.264194e-07	4.778856e-06	0.01000958	-0.004971206	9.078686e-06	6.016527e-05	-0.09930547	0.0448055
2.2e+08	-0.08999814	0.04977277	6.948611e-07	2.54816e-06	0.008155749	-0.005552172	4.768182e-07	4.737165e-06
	6.948611e-07	2.54816e-06	-0.08898951	0.0509533	1.8599e-05	6.511113e-05	0.008513448	-0.005084471
	0.008155749	-0.005552172	1.8599e-05	6.511113e-05	-0.09040055	0.04943219	1.411058e-05	5.870638e-05
	4.768182e-07	4.737165e-06	0.008513448	-0.005084471	1.411058e-05	5.870638e-05	-0.08883263	0.05127739
2.3e+08	-0.07861097	0.05407156	9.566157e-07	2.428822e-06	0.006617546	-0.005296648	7.351042e-07	4.68836e-06
	9.566157e-07	2.428822e-06	-0.0775344	0.05512493	2.39224e-05	6.27088e-05	0.007003461	-0.004883151
	0.006617546	-0.005296648	2.39224e-05	6.27088e-05	-0.07901787	0.05382396	1.900631e-05	5.678498e-05
	7.351042e-07	4.68836e-06	0.007003461	-0.004883151	1.900631e-05	5.678498e-05	-0.07736358	0.05543955
2.4e+08	-0.06666819	0.05593723	1.199429e-06	2.285562e-06	0.005145178	-0.004721514	1.000694e-06	4.630114e-06
	1.199429e-06	2.285562e-06	-0.06556328	0.05684273	2.901055e-05	5.982518e-05	0.005544208	-0.004368872
	0.005145178	-0.004721514	2.901055e-05	5.982518e-05	-0.06706712	0.05577823	2.370688e-05	5.441484e-05
	1.000694e-06	4.630114e-06	0.005544208	-0.004368872	2.370688e-05	5.441484e-05	-0.065383	0.05714466
2.5e+08	-0.05466871	0.05531129	1.421808e-06	2.121138e-06	0.003804245	-0.003844824	1.27291e-06	4.560141e-06
	1.421808e-06	2.121138e-06	-0.05358045	0.0560573	3.38034e-05	5.648739e-05	0.004199695	-0.003556404
	0.003804245	-0.003844824	3.38034e-05	5.648739e-05	-0.05504827	0.05523485	2.815699e-05	5.161893e-05
	1.27291e-06	4.560141e-06	0.004199695	-0.003556404	2.815699e-05	5.161893e-05	-0.05339598	0.05634429
2.6e+08	-0.04311443	0.0522357	1.622657e-06	1.938232e-06	0.002656318	-0.002698245	1.550874e-06	4.4762e-06
	1.622657e-06	1.938232e-06	-0.04209109	0.05282092	3.824679e-05	5.273162e-05	0.003030618	-0.002473765
	0.002656318	-0.002698245	3.824679e-05	5.273162e-05	-0.04346447	0.05223427	3.230628e-05	4.84286e-05
	1.550874e-06	4.4762e-06	0.003030618	-0.002473765	3.230628e-05	4.84286e-05	-0.04190826	0.0530919
2.7e+08	-0.03249001	0.04685239	1.801204e-06	1.73938e-06	0.001755953	-0.001326393	1.833434e-06	4.376057e-06
	1.801204e-06	1.73938e-06	-0.03158084	0.04728663	4.22937e-05	4.860162e-05	0.002091457	-0.001161709
	0.001755953	-0.001326393	4.22937e-05	4.860162e-05	-0.03280193	0.04691706	3.611057e-05	4.488232e-05
	1.833434e-06	4.376057e-06	0.002091457	-0.001161709	3.611057e-05	4.488232e-05	-0.03140578	0.04754184
2.8e+08	-0.02324286	0.03939869	1.956918e-06	1.526928e-06	0.001147737	0.0002145801	2.119093e-06	4.257574e-06
	1.956918e-06	1.526928e-06	-0.02249549	0.03970316	4.590525e-05	4.414739e-05	0.001427568	0.0003275098
	0.001147737	0.0002145801	4.590525e-05	4.414739e-05	-0.0235098	0.03951948	3.953285e-05	4.102447e-05
	2.119093e-06	4.257574e-06	0.001427568	0.0003275098	3.953285e-05	4.102447e-05	-0.02233434	0.03994419
2.9e+08	-0.01576395	0.03019851	2.089409e-06	1.303019e-06	0.0008635863	0.001859181	2.405958e-06	4.118758e-06
	2.089409e-06	1.303019e-06	-0.01522181	0.03040552	4.905142e-05	3.942331e-05	0.0010725	0.001932147
	0.0008635863	0.001859181	4.905142e-05	3.942331e-05	-0.01598096	0.03036467	4.254404e-05	3.690367e-05
	2.405958e-06	4.118758e-06	0.0010725	0.001932147	4.254404e-05	3.690367e-05	-0.01508042	0.03063534
3e+08	-0.01037061	0.01964947	2.198341e-06	1.069628e-06	0.0009205469	0.003535506	2.691715e-06	3.957853e-06
	2.198341e-06	1.069628e-06	-0.01007038	0.01980148	5.171132e-05	3.448628e-05	0.001045755	0.003583704
	0.0009205469	0.003535506	5.171132e-05	3.448628e-05	-0.01053479	0.01984984	4.512328e-05	3.257109e-05
	2.691715e-06	3.957853e-06	0.001045755	0.003583704	4.512328e-05	3.257109e-05	-0.009954	0.02002438
3.1e+08	-0.007292231	0.008206289	2.283365e-06	8.286064e-07	0.001319326	0.005168781	2.973676e-06	3.773479e-06
	2.283365e-06	8.286064e-07	-0.007261501	0.008354487	5.387293e-05	2.939389e-05	0.001351257	0.005210293
	0.001319326	0.005168781	5.387293e-05	2.939389e-05	-0.007402796	0.008429682	4.725816e-05	2.807895e-05
	2.973676e-06	3.773479e-06	0.001351257	0.005210293	4.725816e-05	2.807895e-05	-0.007174525	0.008575933
3.2e+08	-0.006659852	-0.003638697	2.344076e-06	5.817704e-07	0.00204376	0.006685297	3.248821e-06	3.564712e-06
	2.344076e-06	5.817704e-07	-0.006915101	-0.003436505	5.553291e-05	2.420275e-05	0.001976703	0.006740394
	0.00204376	0.006685297	5.553291e-05	2.420275e-05	-0.006718052	-0.003403089	4.894422e-05	2.34787e-05
	3.248821e-06	3.564712e-06	0.001976703	0.006740394	4.894422e-05	2.34787e-05	-0.006860786	-0.003210028
3.3e+08	-0.008500142	-0.01537715	2.380037e-06	3.310168e-07	0.003061331	0.008016447	3.513894e-06	3.331172e-06
	2.380037e-06	3.310168e-07	-0.009045281	-0.01505899	5.669723e-05	1.896724e-05	0.002893925	0.008106755
	0.003061331	0.008016447	5.669724e-05	1.896724e-05	-0.008509154	-0.01513936	5.018428e-05	1.881962e-05
	3.513894e-06	3.331172e-06	0.002893925	0.008106755	5.018428e-05	1.881962e-05	-0.009025483	-0.01482023
3.4e+08	-0.0127344	-0.02650718	2.390794e-06	7.834876e-08	0.004324746	0.009102563	3.765446e-06	3.073089e-06
	2.390794e-06	7.834876e-08	-0.0135598	-0.02600974	5.737747e-05	1.37374e-05	0.004060288	0.009250111
	0.004324746	0.009102563	5.737747e-05	1.37374e-05	-0.01269909	-0.02627614	5.098697e-05	1.414777e-05
	3.765446e-06	3.073089e-06	0.004060288	0.009250111	5.098697e-05	1.414777e-05	-0.01357479	-0.025751
3.5e+08	-0.01918259	-0.03655547	2.375929e-06	-1.740467e-07	0.005774481	0.009896219	4.000287e-06	2.791315e-06
	2.375929e-06	-1.740467e-07	-0.02026476	-0.03581711	5.759115e-05	8.55853e-06	0.005421026	0.01012242
	0.005774481	0.009896219	5.759115e-05	8.55853e-06	-0.01910926	-0.03633867	5.136719e-05	9.504868e-06
	4.000287e-06	2.791315e-06	0.005421026	0.01012242	5.136719e-05	9.504868e-06	-0.02031322	-0.03553055
3.6e+08	-0.02757214	-0.04509784	2.335153e-06	-4.237673e-07	0.007342114	0.01036475	4.215329e-06	2.487262e-06
	2.335153e-06	-4.237673e-07	-0.02887414	-0.04406167	5.736006e-05	3.470568e-06	0.00691234	0.01068937
	0.007342114	0.01036475	5.736006e-05	3.470568e-06	-0.02746817	-0.04490114	5.13435e-05	4.92775e-06
	4.215329e-06	2.487262e-06	0.00691234	0.01068937	5.13435e-05	4.92775e-06	-0.02895305	-0.04373969
3.7e+08	-0.037551	-0.05177725	2.268393e-06	-6.681984e-07	0.00895414	0.01049178	4.407773e-06	2.162844e-06
	2.268393e-06	-6.681984e-07	-0.03902354	-0.05039406	5.670823e-05	-1.492183e-06	0.008464992	0.01093192
	0.00895414	0.01049178	5.670823e-05	-1.492183e-06	-0.03742448	-0.05160468	5.093676e-05	4.482438e-07
	4.407773e-06	2.162844e-06	0.008464992	0.01093192	5.093676e-05	4.482438e-07	-0.03912826	-0.05002963
3.8e+08	-0.04870415	-0.0563181	2.175875e-06	-9.045435e-07	0.01053599	0.01027773	4.575215e-06	1.82038e-06
	2.175875e-06	-9.045435e-07	-0.05028728	-0.05454908	5.566093e-05	-6.300679e-06	0.01000809	0.01084691
	0.01053599	0.01027773	5.566093e-05	-6.300679e-06	-0.04856345	-0.05617188	5.016909e-05	-3.906666e-06
	4.575215e-06	1.82038e-06	0.01000809	0.01084691	5.016909e-05	-3.906666e-06	-0.05041164	-0.05413611
3.9e+08	-0.06057248	-0.05853662	2.058194e-06	-1.129882e-06	0.01201594	0.00973924	4.715713e-06	1.462474e-06
	2.058194e-06	-1.129882e-06	-0.0621979	-0.05635558	5.42435e-05	-1.093057e-05	0.0114728	0.01044659
	0.01201594	0.00973924	5.42435e-05	-1.093057e-05	-0.06042587	-0.05841717	4.90629e-05	-8.114393e-06
	4.715713e-06	1.462474e-06	0.0114728	0.01044659	4.90629e-05	-8.114393e-06	-0.06233441	-0.05588927
4e+08	-0.07267299	-0.05834663	1.916367e-06	-1.341246e-06	0.01332854	0.008907747	4.827792e-06	1.091891e-06
	1.916367e-06	-1.341246e-06	-0.07426682	-0.05574175	5.248055e-05	-1.536143e-05	0.01279561	0.009757415
	0.01332854	0.008907747	5.248055e-05	-1.536143e-05	-0.07252831	-0.05825268	4.763994e-05	-1.215607e-05
	4.827792e-06	1.091891e-06	0.01279561	0.009757415	4.763994e-05	-1.215607e-05	-0.07440697	-0.05521883
4.1e+08	-0.08451935	-0.05576094	1.751864e-06	-1.535707e-06	0.01441759	0.007827282	4.910443e-06	7.114371e-07
	1.751864e-06	-1.535707e-06	-0.08600524	-0.05273588	5.039547e-05	-1.957584e-05	0.01392118	0.008818021
	0.01441759	0.007827282	5.039547e-05	-1.957584e-05	-0.08438369	-0.05568974	4.592083e-05	-1.601577e-05
	4.910443e-06	7.114371e-07	0.01392118	0.008818021	4.592083e-05	-1.601577e-05	-0.08613977	-0.05215487
4.2e+08	-0.09564167	-0.05088851	1.566611e-06	-1.710472e-06	0.01523826	0.006551836	4.963071e-06	3.23859e-07
	1.566611e-06	-1.710472e-06	-0.09694406	-0.04746283	4.801021e-05	-2.355854e-05	0.01480434	0.007676861
	0.01523826	0.006551836	4.801021e-05	-2.355854e-05	-0.09552112	-0.05083607	4.392474e-05	-1.967964e-05
	4.963071e-06	3.23859e-07	0.01480434	0.007676861	4.392474e-05	-1.967964e-05	-0.09706342	-0.04682421
4.3e+08	-0.1056048	-0.04392784	1.362978e-06	-1.862973e-06	0.01575849	0.005142452	4.985422e-06	-6.822825e-08
	1.362978e-06	-1.862973e-06	-0.1066523	-0.04013677	4.534526e-05	-2.729557e-05	0.01541155	0.006389535
	0.01575849	0.005142452	4.534526e-05	-2.729557e-05	-0.1055043	-0.04388917	4.166933e-05	-2.313507e-05
	4.985422e-06	-6.822826e-08	0.01541155	0.006389535	4.166933e-05	-2.313507e-05	-0.106747	-0.03944297
4.4e+08	-0.1140246	-0.03515718	1.143739e-06	-1.990957e-06	0.01595973	0.003664286	4.977503e-06	-4.623876e-07
	1.143739e-06	-1.990957e-06	-0.1147531	-0.0310506	4.241998e-05	-3.077353e-05	0.01572161	0.005016114
	0.01595973	0.003664286	4.241998e-05	-3.077353e-05	-0.1139477	-0.03512659	3.917099e-05	-2.636993e-05
	4.977503e-06	-4.623876e-07	0.01572161	0.005016114	3.917099e-05	-2.636993e-05	-0.1148142	-0.03030606
4.5e+08	-0.1205812	-0.02492207	9.120247e-07	-2.092563e-06	0.01583696	0.002183793	4.939501e-06	-8.563821e-07
	9.120247e-07	-2.092563e-06	-0.1209372	-0.02056296	3.925301e-05	-3.397912e-05	0.01572579	0.003618564
	0.01583696	0.002183793	3.925301e-05	-3.397912e-05	-0.1205302	-0.02489348	3.644524e-05	-2.937202e-05
	4.939501e-06	-8.563821e-07	0.01572579	0.003618564	3.644524e-05	-2.937202e-05	-0.1209565	-0.01977399
4.6e+08	-0.1250301	-0.0136211	6.712483e-07	-2.166387e-06	0.01539824	0.0007661519	4.871705e-06	-1.248181e-06
	6.712483e-07	-2.166387e-06	-0.1249729	-0.009083299	3.586284e-05	-3.689874e-05	0.01542755	0.002258392
	0.01539824	0.0007661519	3.586284e-05	-3.689874e-05	-0.125006	-0.01358827	3.350726e-05	-3.212865e-05
	4.871705e-06	-1.248181e-06	0.01542755	0.002258392	3.350726e-05	-3.212865e-05	-0.1249438	-0.008257844
4.7e+08	-0.1272097	-0.001690186	4.250283e-07	-2.21154e-06	0.01466393	-0.0005270217	4.774432e-06	-1.635912e-06
	4.250283e-07	-2.21154e-06	-0.1267138	0.002944316	3.226831e-05	-3.95183e-05	0.01484186	0.0009945344
	0.01466393	-0.0005270217	3.226831e-05	-3.95183e-05	-0.1272121	-0.001647004	3.037248e-05	-3.462636e-05
	4.774432e-06	-1.635912e-06	0.01484186	0.0009945344	3.037248e-05	-3.462636e-05	-0.1266312	0.003796914
4.8e+08	-0.1270459	0.01041385	1.770951e-07	-2.227682e-06	0.01366552	-0.001639665	4.64797e-06	-2.017852e-06
