!$
! Info: Touchstone file created by Circ.  Input file=Tx_10in_Rx_85ohms_TxVia_35mils_RxVia_45mils.circ
!$
# Hz S RI R 50
0	0.008114226	1.307978e-25	-5.415317e-05	3.804878e-24	7.367813e-05	1.517765e-23	-5.416511e-05	5.333138e-24
	-5.415318e-05	3.806818e-24	0.008111999	1.552072e-25	-5.413304e-05	1.480525e-24	7.30415e-05	1.832566e-23
	7.418722e-05	1.538987e-23	-5.413301e-05	1.477159e-24	0.008126444	1.270789e-25	-5.415066e-05	3.709275e-24
	-5.416512e-05	5.334474e-24	7.11938e-05	1.841595e-23	-5.415068e-05	3.712037e-24	0.008125136	1.454185e-25
1e+07	0.01175416	-0.009288014	-0.0002346155	-2.485361e-05	0.000267469	0.00188217	-0.0001564732	0.0001043839
	-0.0002346155	-2.485361e-05	0.01040177	-0.009404521	-7.235674e-06	-1.52647e-05	0.0003411984	0.001886358
	0.0002674985	0.001882164	-7.235674e-06	-1.52647e-05	0.01043403	-0.00957213	-4.983464e-05	-1.546361e-05
	-0.0001564732	0.0001043839	0.0003411382	0.001886369	-4.983464e-05	-1.546361e-05	0.01038397	-0.009390959
2e+07	0.01124992	-0.02173056	-0.0002101806	1.834801e-05	0.000858983	0.003676522	-0.0001471303	0.0001031477
	-0.0002101806	1.834801e-05	0.01002452	-0.02142668	-6.27844e-06	-4.063757e-06	0.00096037	0.00361983
	0.0008589835	0.0036765	-6.278441e-06	-4.063756e-06	0.009916547	-0.02170181	-4.42677e-05	6.491131e-06
	-0.0001471303	0.0001031477	0.0009603622	0.003619864	-4.42677e-05	6.49113e-06	0.01001478	-0.02139003
3e+07	0.007260604	-0.03451273	-0.0001993647	1.16092e-05	0.001847968	0.005230137	-0.0001252032	0.0001199282
	-0.0001993647	1.16092e-05	0.0061226	-0.034022	-5.70489e-06	-8.778831e-07	0.001904203	0.005162639
	0.001847962	0.005230135	-5.70489e-06	-8.778829e-07	0.005929702	-0.0343209	-4.37227e-05	2.776114e-06
	-0.0001252032	0.0001199282	0.001904204	0.005162644	-4.37227e-05	2.776115e-06	0.006117927	-0.03397067
4e+07	0.0003516548	-0.04636698	-0.0001911614	1.323643e-05	0.003114797	0.006517176	-9.548229e-05	0.0001298636
	-0.0001911614	1.323643e-05	-0.0007192041	-0.04573184	-5.105798e-06	9.916401e-07	0.003125516	0.006455623
	0.003114797	0.00651718	-5.105798e-06	9.916395e-07	-0.0009586159	-0.04603402	-4.392468e-05	2.167808e-06
	-9.548229e-05	0.0001298636	0.003125511	0.006455621	-4.392468e-05	2.167808e-06	-0.0007209916	-0.04566771
5e+07	-0.0090155	-0.05661572	-0.0001842409	1.858476e-05	0.004595666	0.007490905	-6.224037e-05	0.0001285268
	-0.0001842409	1.858476e-05	-0.01003227	-0.0558492	-4.457103e-06	2.31594e-06	0.004561871	0.007448847
	0.004595668	0.007490906	-4.457104e-06	2.31594e-06	-0.01028825	-0.05615185	-4.443358e-05	3.25196e-06
	-6.224037e-05	0.0001285268	0.004561867	0.007448847	-4.443358e-05	3.25196e-06	-0.01003309	-0.05577261
6e+07	-0.02034767	-0.06476744	-0.0001777081	2.612063e-05	0.006216849	0.008118027	-3.012166e-05	0.0001144197
	-0.0001777081	2.612063e-05	-0.02131694	-0.06387093	-3.75235e-06	3.332022e-06	0.00614161	0.008107708
	0.006216847	0.008118026	-3.75235e-06	3.332023e-06	-0.02156701	-0.06418062	-4.487635e-05	5.542568e-06
	-3.012166e-05	0.0001144197	0.006141613	0.008107706	-4.487635e-05	5.542568e-06	-0.0213183	-0.06378127
7e+07	-0.03310744	-0.0704718	-0.0001708808	3.509364e-05	0.007899767	0.008382013	-3.85195e-06	8.784151e-05
	-0.0001708808	3.509364e-05	-0.03402967	-0.0694415	-3.402291e-06	3.602966e-06	0.007788439	0.008414539
	0.007899761	0.008382014	-3.40229e-06	3.602966e-06	-0.03425829	-0.06976984	-4.494095e-05	8.744596e-06
	-3.851951e-06	8.784152e-05	0.007788446	0.008414535	-4.494095e-05	8.744596e-06	-0.03403258	-0.06933758
8e+07	-0.04672532	-0.07350971	-0.0001631852	4.500637e-05	0.009565409	0.008283759	1.208071e-05	5.053472e-05
	-0.0001631852	4.500637e-05	-0.04759537	-0.07234013	-3.246018e-06	3.622901e-06	0.009425656	0.008368894
	0.009565402	0.008283762	-3.246017e-06	3.622902e-06	-0.04779299	-0.0727007	-4.437601e-05	1.259153e-05
	1.208071e-05	5.053472e-05	0.009425665	0.008368887	-4.437601e-05	1.259153e-05	-0.04760025	-0.07222035
9e+07	-0.06061948	-0.07378914	-0.0001540469	5.550269e-05	0.01113845	0.007840946	1.352382e-05	5.283354e-06
	-0.0001540469	5.550269e-05	-0.0614274	-0.07247567	-3.086321e-06	3.675449e-06	0.01098024	0.007986869
	0.01113845	0.007840949	-3.08632e-06	3.675449e-06	-0.06158865	-0.0728811	-4.299395e-05	1.682228e-05
	1.352381e-05	5.283355e-06	0.01098025	0.007986862	-4.299395e-05	1.682228e-05	-0.06143405	-0.07233829
1e+08	-0.0742179	-0.07134026	-0.0001420796	6.686211e-05	0.01255164	0.007086872	-5.620239e-06	-4.608209e-05
	-0.0001420796	6.686211e-05	-0.07495203	-0.06988257	-2.94099e-06	3.721207e-06	0.0123883	0.00730083
	0.01255164	0.007086872	-2.94099e-06	3.721207e-06	-0.0750651	-0.07033632	-4.058456e-05	2.126867e-05
	-5.620239e-06	-4.608209e-05	0.0123883	0.00730083	-4.058456e-05	2.126867e-05	-0.07495985	-0.06972604
1.1e+08	-0.086979	-0.06631316	-0.0001315861	8.127451e-05	0.01374675	0.006061636	-3.24727e-05	-0.0001074865
	-0.0001315861	8.127451e-05	-0.0876246	-0.06470083	-2.707001e-06	3.720182e-06	0.01359515	0.006338876
	0.01374675	0.006061636	-2.707001e-06	3.720182e-06	-0.08767415	-0.06526731	-3.773257e-05	2.591184e-05
	-3.24727e-05	-0.0001074865	0.01359515	0.006338876	-3.773257e-05	2.591184e-05	-0.08763156	-0.06452335
1.2e+08	-0.09841101	-0.05894053	-0.0001211712	9.347901e-05	0.01467239	0.004823009	-7.09303e-05	-0.000158548
	-0.0001211712	9.347901e-05	-0.09893925	-0.05717587	-2.443716e-06	3.748921e-06	0.01454049	0.005160563
	0.01467239	0.004823009	-2.443716e-06	3.748921e-06	-0.09897349	-0.05787933	-3.427645e-05	2.993553e-05
	-7.09303e-05	-0.000158548	0.01454049	0.005160563	-3.427645e-05	2.993553e-05	-0.09894315	-0.05697603
1.3e+08	-0.1080871	-0.04955719	-0.0001099306	0.0001041719	0.0152962	0.003434057	-0.0001226025	-0.0001980649
	-0.0001099306	0.0001041719	-0.1084709	-0.04765165	-2.168663e-06	3.774634e-06	0.01519363	0.003828274
	0.0152962	0.003434057	-2.168663e-06	3.774634e-06	-0.1085274	-0.04849625	-3.024429e-05	3.329377e-05
	-0.0001226025	-0.0001980649	0.01519363	0.003828274	-3.024429e-05	3.329377e-05	-0.108469	-0.04742869
1.4e+08	-0.1156609	-0.03856932	-9.786514e-05	0.0001133614	0.01559844	0.001960927	-0.0001852107	-0.0002230984
	-9.786514e-05	0.0001133614	-0.1158747	-0.03654195	-1.889695e-06	3.786175e-06	0.01553461	0.002406025
	0.01559844	0.001960927	-1.889695e-06	3.786175e-06	-0.1159876	-0.03752086	-2.57931e-05	3.588883e-05
	-0.0001852107	-0.0002230984	0.01553461	0.002406025	-2.57931e-05	3.588883e-05	-0.1158639	-0.03629592
1.5e+08	-0.1208767	-0.02643671	-8.511808e-05	0.0001209935	0.0155727	0.0004708549	-0.0002552285	-0.0002312147
	-8.511808e-05	0.0001209935	-0.1208982	-0.02431383	-1.614744e-06	3.778239e-06	0.01555607	0.0009588138
	0.0155727	0.0004708548	-1.614744e-06	3.778239e-06	-0.1210974	-0.02541116	-2.111111e-05	3.766446e-05
	-0.0002552285	-0.0002312147	0.01555607	0.0009588138	-2.111111e-05	3.766446e-05	-0.1208751	-0.02404578
1.6e+08	-0.1235759	-0.01365413	-7.189028e-05	0.000127027	0.01522552	-0.0009701725	-0.0003283989	-0.0002209307
	-7.189028e-05	0.000127027	-0.1233877	-0.01146861	-1.351676e-06	3.749867e-06	0.01526289	-0.0004494305
	0.01522552	-0.0009701725	-1.351676e-06	3.749867e-06	-0.1236977	-0.01266081	-1.639397e-05	3.86156e-05
	-0.0003283989	-0.0002209307	0.01526289	-0.0004494305	-1.639397e-05	3.86156e-05	-0.123349	-0.01118062
1.7e+08	-0.1236994	-0.0007323536	-5.84053e-05	0.0001314562	0.01457559	-0.002299523	-0.0004001283	-0.0001919066
	-5.84053e-05	0.0001314562	-0.1232911	0.001477551	-1.107485e-06	3.703766e-06	0.01467158	-0.001757771
	0.01457559	-0.002299523	-1.107485e-06	3.703766e-06	-0.1237297	0.0002201473	-1.182833e-05	3.878768e-05
	-0.0004001283	-0.0001919066	0.01467158	-0.001757771	-1.182833e-05	3.878768e-05	-0.1232341	0.001782446
1.8e+08	-0.1212883	0.01182049	-4.488864e-05	0.0001343181	0.01365279	-0.003459793	-0.0004658516	-0.0001449999
	-4.488864e-05	0.0001343181	-0.1206574	0.01401274	-8.873131e-07	3.645597e-06	0.01380942	-0.00291
	0.01365279	-0.003459793	-8.873131e-07	3.645597e-06	-0.1212342	0.01272419	-7.578775e-06	3.827132e-05
	-0.0004658516	-0.0001449999	0.01380942	-0.00291	-7.578775e-06	3.827132e-05	-0.1205802	0.01433069
1.9e+08	-0.1164797	0.02351704	-3.15524e-05	0.0001356914	0.01249706	-0.004400487	-0.0005213733	-8.221229e-05
	-3.15524e-05	0.0001356914	-0.1156331	0.0256477	-6.93638e-07	3.583029e-06	0.01271339	-0.003856213
	0.01249706	-0.004400487	-6.93638e-07	3.583029e-06	-0.1163492	0.02436454	-3.777363e-06	3.719466e-05
	-0.0005213733	-8.221229e-05	0.01271339	-0.003856213	-3.777363e-06	3.719466e-05	-0.1155347	0.02597426
2e+08	-0.1095014	0.0339078	-1.858339e-05	0.0001356925	0.0111571	-0.005079547	-0.0005631691	-6.545214e-06
	-1.858339e-05	0.0001356925	-0.1084558	0.03593316	-5.257844e-07	3.524586e-06	0.01142914	-0.004554275
	0.0111571	-0.005079547	-5.257844e-07	3.524586e-06	-0.109303	0.03469234	-5.154607e-07	3.57137e-05
	-0.0005631691	-6.545214e-06	0.01142914	-0.004554275	-5.154607e-07	3.57137e-05	-0.1083363	0.03626361
2.1e+08	-0.100663	0.04259712	-6.13345e-06	0.000134468	0.009688925	-0.005464776	-0.0005886317	7.822118e-05
	-6.13345e-06	0.000134468	-0.09944488	0.04447597	-3.798482e-07	3.478419e-06	0.01000958	-0.004971206
	0.009688925	-0.005464776	-3.798482e-07	3.478419e-06	-0.1004057	0.04331268	2.162283e-06	3.400114e-05
	-0.0005886317	7.822118e-05	0.01000958	-0.004971206	2.162283e-06	3.400114e-05	-0.09930547	0.0448055
2.2e+08	-0.0903441	0.04925741	5.687659e-06	0.0001321851	0.008154185	-0.005535125	-0.0005962463	0.0001678064
	5.687659e-06	0.0001321851	-0.08898951	0.0509533	-2.490449e-07	3.451133e-06	0.008513448	-0.005084471
	0.008154185	-0.005535125	-2.490449e-07	3.451133e-06	-0.09003781	0.04989891	4.261445e-06	3.22338e-05
	-0.0005962463	0.0001678064	0.008513448	-0.005084471	4.261445e-06	3.22338e-05	-0.08883263	0.05127739
2.3e+08	-0.07898091	0.05364141	1.681672e-05	0.0001290195	0.0066182	-0.00528182	-0.0005856834	0.0002577463
	1.681672e-05	0.0001290195	-0.0775344	0.05512493	-1.244428e-07	3.446837e-06	0.007003461	-0.004883151
	0.0066182	-0.00528182	-1.244428e-07	3.446837e-06	-0.0786361	0.05420488	5.838352e-06	3.057872e-05
	-0.0005856834	0.0002577463	0.007003461	-0.004883151	5.838352e-06	3.057872e-05	-0.07736358	0.05543955
2.4e+08	-0.06705006	0.05559203	2.723846e-05	0.000125142	0.00514769	-0.004709227	-0.0005577972	0.0003437291
	2.723846e-05	0.000125142	-0.06556328	0.05684273	4.032615e-09	3.466558e-06	0.005544208	-0.004368872
	0.00514769	-0.004709227	4.032615e-09	3.466558e-06	-0.06667782	0.05607478	6.997017e-06	2.917874e-05
	-0.0005577972	0.0003437291	0.005544208	-0.004368872	6.997017e-06	2.917874e-05	-0.065383	0.05714466
2.5e+08	-0.05505066	0.05504913	3.698197e-05	0.0001207047	0.003808196	-0.003835342	-0.0005145341	0.0004219148
	3.698197e-05	0.0001207047	-0.05358045	0.0560573	1.464799e-07	3.508013e-06	0.004199695	-0.003556404
	0.003808196	-0.003835342	1.464799e-07	3.508013e-06	-0.05466252	0.05544992	7.881519e-06	2.813835e-05
	-0.0005145341	0.0004219148	0.004199695	-0.003556404	7.881519e-06	2.813835e-05	-0.05339598	0.05634429
2.6e+08	-0.04348503	0.05205299	4.611309e-05	0.0001158273	0.002661238	-0.002691762	-0.0004587472	0.0004892233
	4.611309e-05	0.0001158273	-0.04209109	0.05282092	3.119398e-07	3.565839e-06	0.003030618	-0.002473765
	0.002661238	-0.002691762	3.119398e-07	3.565839e-06	-0.04309275	0.05237222	8.663916e-06	2.751144e-05
	-0.0004587472	0.0004892233	0.003030618	-0.002473765	8.663916e-06	2.751144e-05	-0.04190826	0.0530919
2.7e+08	-0.03283856	0.04674387	5.472162e-05	0.0001105866	0.001761334	-0.00132302	-0.0003939382	0.0005435555
	5.472162e-05	0.0001105866	-0.03158084	0.04728663	5.074913e-07	3.632118e-06	0.002091457	-0.001161709
	0.001761334	-0.00132302	5.074913e-07	3.632118e-06	-0.03245385	0.04698366	9.527705e-06	2.72928e-05
	-0.0003939382	0.0005435555	0.002091457	-0.001161709	9.527705e-06	2.72928e-05	-0.03140578	0.04754184
2.8e+08	-0.02355964	0.03935755	6.290546e-05	0.0001050109	0.00115305	0.0002148262	-0.000323934	0.0005839348
	6.290546e-05	0.0001050109	-0.02249549	0.03970316	7.376543e-07	3.697183e-06	0.001427568	0.0003275098
	0.00115305	0.0002148262	7.376543e-07	3.697183e-06	-0.02319388	0.03952179	1.064832e-05	2.741508e-05
	-0.000323934	0.0005839348	0.001427568	0.0003275098	1.064832e-05	2.741508e-05	-0.02233434	0.03994419
2.9e+08	-0.01604052	0.03021652	7.075208e-05	9.907883e-05	0.0008682997	0.001856382	-0.0002525393	0.0006105412
	7.075208e-05	9.907883e-05	-0.01522181	0.03040552	1.004083e-06	3.750459e-06	0.0010725	0.001932147
	0.0008682997	0.001856382	1.004083e-06	3.750459e-06	-0.01570446	0.0303109	1.217227e-05	2.775248e-05
	-0.0002525393	0.0006105412	0.0010725	0.001932147	1.217227e-05	2.775248e-05	-0.01508042	0.03063534
3e+08	-0.01060008	0.01971721	7.832059e-05	9.27271e-05	0.0009241454	0.003529845	-0.0001831937	0.0006246394
	7.832059e-05	9.27271e-05	-0.01007038	0.01980148	1.305549e-06	3.7813e-06	0.001045755	0.003583704
	0.0009241454	0.003529845	1.305549e-06	3.7813e-06	-0.01030344	0.01974908	1.419791e-05	2.813202e-05
	-0.0001831937	0.0006246394	0.001045755	0.003583704	1.419791e-05	2.813202e-05	-0.009954	0.02002438
3.1e+08	-0.007469449	0.008313448	8.562711e-05	8.586301e-05	0.001321334	0.005160541	-0.0001186528	0.0006284042
	8.562711e-05	8.586301e-05	-0.007261501	0.008354487	1.638168e-06	3.779706e-06	0.001351257	0.005210293
	0.001321334	0.005160541	1.638168e-06	3.779706e-06	-0.007220679	0.008291699	1.676056e-05	2.835132e-05
	-0.0001186528	0.0006284042	0.001351257	0.005210293	1.676056e-05	2.835132e-05	-0.007174525	0.008575933
3.2e+08	-0.00678157	-0.003503029	9.263541e-05	7.838287e-05	0.002043765	0.006674849	-6.075354e-05	0.0006246522
	9.263541e-05	7.838287e-05	-0.006915101	-0.003436505	1.995705e-06	3.736873e-06	0.001976703	0.006740394
	0.002043765	0.006674849	1.995705e-06	3.736873e-06	-0.006587502	-0.003568197	1.982438e-05	2.820145e-05
	-6.075354e-05	0.0006246522	0.001976703	0.006740394	1.982438e-05	2.820145e-05	-0.006860786	-0.003210028
3.3e+08	-0.008565097	-0.01522409	9.925611e-05	7.019298e-05	0.003059001	0.008004241	-1.030726e-05	0.000616522
	9.925611e-05	7.019298e-05	-0.009045281	-0.01505899	2.369968e-06	3.645632e-06	0.002893925	0.008106755
	0.003059001	0.008004241	2.369968e-06	3.645632e-06	-0.008430722	-0.01532149	2.328333e-05	2.749175e-05
	-1.030726e-05	0.000616522	0.002893925	0.008106755	2.328333e-05	2.749175e-05	-0.009025483	-0.01482023
3.4e+08	-0.01274328	-0.02634771	0.0001052314	6.123803e-05	0.004319841	0.009089106	4.603218e-05	0.0006026524
	0.0001052314	6.123803e-05	-0.0135598	-0.02600974	2.752214e-06	3.500001e-06	0.004060288	0.009250111
	0.004319841	0.009089106	2.752214e-06	3.500001e-06	-0.0126716	-0.02646545	2.685129e-05	2.608495e-05
	4.603218e-05	0.0006026524	0.004060288	0.009250111	2.685129e-05	2.608495e-05	-0.01357479	-0.025751
3.5e+08	-0.01913804	-0.03640004	0.000110506	5.151458e-05	0.005766873	0.009882055	9.71143e-05	0.0005868523
	0.000110506	5.151458e-05	-0.02026476	-0.03581711	3.129855e-06	3.297732e-06	0.005421026	0.01012242
	0.005766873	0.009882055	3.129855e-06	3.297732e-06	-0.01912989	-0.03652598	3.043378e-05	2.390243e-05
	9.71143e-05	0.0005868523	0.005421026	0.01012242	3.043378e-05	2.390243e-05	-0.02031322	-0.03553055
3.6e+08	-0.02747857	-0.04495603	0.0001149108	4.105619e-05	0.007331785	0.01035043	0.0001426966	0.0005719238
	0.0001149108	4.105619e-05	-0.02887414	-0.04406167	3.491266e-06	3.039029e-06	0.00691234	0.01068937
	0.007331785	0.01035043	3.491266e-06	3.039029e-06	-0.0275326	-0.04507816	3.381782e-05	2.091974e-05
	0.0001426966	0.0005719238	0.00691234	0.01068937	3.381782e-05	2.091974e-05	-0.02895305	-0.04373969
3.7e+08	-0.03741437	-0.05165743	0.0001182608	2.995766e-05	0.008941186	0.01047786	0.0001851706	0.000559322
	0.0001182608	2.995766e-05	-0.03902354	-0.05039406	3.825147e-06	2.726687e-06	0.008464992	0.01093192
	0.008941186	0.01047786	3.825147e-06	2.726687e-06	-0.03752715	-0.05176426	3.677379e-05	1.71879e-05
	0.0001851706	0.000559322	0.008464992	0.01093192	3.677379e-05	1.71879e-05	-0.03912826	-0.05002963
3.8e+08	-0.04853168	-0.05622725	0.0001203948	1.83714e-05	0.01052062	0.01026471	0.0002272126	0.0005494874
	0.0001203948	1.83714e-05	-0.05028728	-0.05454908	4.121008e-06	2.366204e-06	0.01000809	0.01084691
	0.01052062	0.01026471	4.121008e-06	2.366204e-06	-0.0486978	-0.0563082	3.909886e-05	1.282736e-05
	0.0002272126	0.0005494874	0.01000809	0.01084691	3.909886e-05	1.282736e-05	-0.05041164	-0.05413611
3.9e+08	-0.06037234	-0.0584801	0.0001211931	6.496187e-06	0.01199843	0.009727579	0.0002714376	0.0005418233
	0.0001211931	6.496187e-06	-0.0621979	-0.05635558	4.369935e-06	1.965591e-06	0.0114728	0.01044659
	0.01199843	0.009727579	4.369935e-06	1.965591e-06	-0.06058465	-0.05852584	4.06374e-05	8.01417e-06
	0.0002714376	0.0005418233	0.0114728	0.01044659	4.06374e-05	8.01417e-06	-0.06233441	-0.05588927
4e+08	-0.07245401	-0.05832807	0.0001205899	-5.438806e-06	0.01330929	0.008897821	0.0003200672	0.000534785
	0.0001205899	-5.438806e-06	-0.07426682	-0.05574175	4.565327e-06	1.534908e-06	0.01279561	0.009757415
	0.01330929	0.008897821	4.565327e-06	1.534908e-06	-0.07270383	-0.05833083	4.129486e-05	2.960747e-06
	0.0003200672	0.000534785	0.01279561	0.009757415	4.129486e-05	2.960747e-06	-0.07440697	-0.05521883
4.1e+08	-0.08429062	-0.05578222	0.0001185791	-1.71925e-05	0.01439704	0.007819383	0.0003746511	0.0005260616
	0.0001185791	-1.71925e-05	-0.08600524	-0.05273588	4.703507e-06	1.085514e-06	0.01392118	0.008818021
	0.01439704	0.007819383	4.703507e-06	1.085514e-06	-0.08456814	-0.055736	4.104391e-05	-2.106e-06
	0.0003746511	0.0005260616	0.01392118	0.008818021	4.104391e-05	-2.106e-06	-0.08613977	-0.05215487
4.2e+08	-0.09541226	-0.05094975	0.0001152128	-2.853013e-05	0.01521689	0.006546157	0.0004358608	0.0005128304
	0.0001152128	-2.853013e-05	-0.09694406	-0.04746283	4.784053e-06	6.290929e-07	0.01480434	0.007676861
	0.01521689	0.006546157	4.784053e-06	6.290929e-07	-0.09570683	-0.0508505	3.992314e-05	-6.966062e-06
	0.0004358608	0.0005128304	0.01480434	0.007676861	3.992314e-05	-6.966062e-06	-0.09706342	-0.04682421
4.3e+08	-0.1053834	-0.0440275	0.000110596	-3.923907e-05	0.01573682	0.005139086	0.0005033731	0.0004920594
	0.000110596	-3.923907e-05	-0.1066523	-0.04013677	4.809753e-06	1.765786e-07	0.01541155	0.006389535
	0.01573682	0.005139086	4.809753e-06	1.765786e-07	-0.105684	-0.04387323	3.802942e-05	-1.142496e-05
	0.0005033731	0.0004920594	0.01541155	0.006389535	3.802942e-05	-1.142496e-05	-0.106747	-0.03944297
4.4e+08	-0.1138193	-0.03529216	0.0001048761	-4.914112e-05	0.01593826	0.003663222	0.0005758497	0.0004608207
	0.0001048761	-4.914112e-05	-0.1147531	-0.0310506	4.786179e-06	-2.628731e-07	0.01572161	0.005016114
	0.01593826	0.003663222	4.786179e-06	-2.628731e-07	-0.1141146	-0.03508296	3.550558e-05	-1.532806e-05
	0.0005758497	0.0004608207	0.01572161	0.005016114	3.550558e-05	-1.532806e-05	-0.1148142	-0.03030606
4.5e+08	-0.1203993	-0.02508791	9.823057e-05	-5.810069e-05	0.01581618	0.002184923	0.0006510098	0.0004165939
	9.823057e-05	-5.810069e-05	-0.1209372	-0.02056296	4.720887e-06	-6.827028e-07	0.01572579	0.003618564
	0.01581618	0.002184923	4.720887e-06	-6.827028e-07	-0.1206784	-0.02482592	3.252566e-05	-1.856992e-05
	0.0006510098	0.0004165939	0.01572579	0.003618564	3.252566e-05	-1.856992e-05	-0.1209565	-0.01977399
4.6e+08	-0.1248776	-0.01381214	9.085437e-05	-6.60289e-05	0.01537861	0.000769275	0.0007257834	0.0003575285
	9.085437e-05	-6.60289e-05	-0.1249729	-0.009083299	4.62237e-06	-1.079443e-06	0.01542755	0.002258392
	0.01537861	0.000769275	4.62237e-06	-1.079443e-06	-0.1251304	-0.01350147	2.927912e-05	-2.109872e-05
	0.0007257834	0.0003575285	0.01542755	0.002258392	2.927912e-05	-2.109872e-05	-0.1249438	-0.008257844
4.7e+08	-0.1270916	-0.001899826	8.294736e-05	-7.288396e-05	0.01464586	-0.0005221901	0.0007965313	0.0002826539
	8.294736e-05	-7.288396e-05	-0.1267138	0.002944316	4.498897e-06	-1.452739e-06	0.01484186	0.0009945344
	0.01464586	-0.0005221901	4.498897e-06	-1.452739e-06	-0.1273087	-0.001546375	2.595575e-05	-2.291619e-05
	0.0007965313	0.0002826539	0.01484186	0.0009945344	2.595575e-05	-2.291619e-05	-0.1266312	0.003796914
4.8e+08	-0.1269656	0.01019293	7.4703e-05	-7.866934e-05	0.01364935	-0.001633482	0.0008593112	0.0001920134
	7.4703e-05	-7.866934e-05	-0.1261028	0.01505804	4.357419e-06	-1.805043e-06	0.01399436	-0.0001184822
