!$
! Info: Touchstone file created by Circ.  Input file=Tx_12in_Rx_100ohms_TxVia_35mils_RxVia_45mils.circ
!$
# Hz S RI R 50
0	0.01244942	1.502485e-25	-6.438057e-05	3.765583e-24	8.372055e-05	2.33427e-23	-6.439233e-05	5.288019e-24
	-6.438058e-05	3.767889e-24	0.01244711	1.791502e-25	-6.436037e-05	1.45217e-24	8.309051e-05	2.818705e-23
	8.422856e-05	2.366909e-23	-6.436033e-05	1.448169e-24	0.01246143	1.45969e-25	-6.437776e-05	3.671391e-24
	-6.439234e-05	5.289607e-24	8.124198e-05	2.832577e-23	-6.437778e-05	3.674675e-24	0.01246017	1.678618e-25
1e+07	0.01726866	0.007767398	-0.0001038815	-3.956853e-05	0.0003968993	0.00216894	-0.0002683414	0.0001701709
	-0.0001038815	-3.956852e-05	0.01846305	0.007435887	-3.764127e-05	-1.398392e-05	0.0008168757	0.002216299
	0.0003969289	0.002168935	-3.764127e-05	-1.398392e-05	0.0179389	0.007423619	-1.169705e-05	-1.519819e-05
	-0.0002683414	0.0001701709	0.0008168147	0.002216309	-1.169705e-05	-1.519819e-05	0.01829581	0.007467606
2e+07	0.02361822	0.0109531	-6.615196e-05	-8.694289e-05	0.00118272	0.004239141	-0.0003088677	0.0001774853
	-6.615196e-05	-8.694288e-05	0.024169	0.01004307	-3.093091e-05	-1.441417e-05	0.001461103	0.004501178
	0.001182721	0.004239119	-3.093091e-05	-1.441417e-05	0.02376505	0.01021318	-1.09769e-05	3.199685e-06
	-0.0003088677	0.0001774853	0.001461094	0.004501213	-1.09769e-05	3.199682e-06	0.02406258	0.01016062
3e+07	0.0290384	0.01120019	-4.762928e-05	-0.0001024043	0.002419539	0.006004095	-0.0003332099	0.0002099902
	-4.762928e-05	-0.0001024043	0.02907297	0.01021753	-2.665259e-05	-1.467167e-05	0.002595597	0.006347311
	0.002419533	0.006004094	-2.665259e-05	-1.467167e-05	0.02879173	0.0104408	-1.341078e-05	3.219517e-06
	-0.0003332099	0.0002099902	0.002595597	0.006347317	-1.341078e-05	3.219517e-06	0.02901895	0.0103661
4e+07	0.03375415	0.00986006	-9.324147e-05	-7.805752e-05	0.004022774	0.007395914	-0.0003477421	0.0002475535
	-9.324147e-05	-7.805752e-05	0.0333628	0.008985707	-2.329398e-05	-1.450137e-05	0.004147337	0.007784199
	0.004022775	0.007395919	-2.329398e-05	-1.450137e-05	0.03320824	0.009211175	-1.687373e-05	3.001871e-06
	-0.0003477421	0.0002475535	0.004147332	0.007784197	-1.687373e-05	3.001872e-06	0.0333556	0.009145936
5e+07	0.03771119	0.007333428	-0.0001255014	-4.175413e-05	0.005888567	0.008345478	-0.0003541617	0.0002874753
	-0.0001255014	-4.175413e-05	0.03698278	0.006680577	-2.043258e-05	-1.430637e-05	0.006132725	0.008652594
	0.005888569	0.00834548	-2.043258e-05	-1.430637e-05	0.03695393	0.006868075	-2.012997e-05	4.703726e-06
	-0.0003541617	0.0002874753	0.006132721	0.008652593	-2.012997e-05	4.703727e-06	0.03701599	0.006839609
6e+07	0.0408094	0.003895522	-0.0001443256	2.222027e-06	0.007900599	0.008808152	-0.0003534849	0.0003280053
	-0.0001443256	2.222027e-06	0.03983929	0.003541497	-1.783209e-05	-1.423426e-05	0.008216552	0.009016826
	0.007900597	0.008808151	-1.783209e-05	-1.423426e-05	0.03992556	0.003653549	-2.269925e-05	7.951789e-06
	-0.0003534849	0.0003280053	0.008216555	0.009016825	-2.269925e-05	7.951789e-06	0.03990547	0.00369008
7e+07	0.04295419	-0.0002081127	-0.0001493155	5.053248e-05	0.009947644	0.008754387	-0.0003469805	0.0003675108
	-0.0001493155	5.053248e-05	0.04184277	-0.000215545	-1.686446e-05	-1.26384e-05	0.01028076	0.008873823
	0.009947638	0.008754386	-1.686446e-05	-1.26384e-05	0.04202478	-0.0002114328	-2.411279e-05	1.234925e-05
	-0.0003469805	0.0003675108	0.01028077	0.00887382	-2.41128e-05	1.234925e-05	0.04193363	-8.384573e-05
8e+07	0.04407748	-0.004737239	-0.0001400031	0.000100247	0.01189423	0.008206546	-0.0003366746	0.0004045119
	-0.0001400031	0.000100247	0.04292776	-0.004376618	-1.855477e-05	-6.476609e-06	0.01220826	0.008246533
	0.01189422	0.008206547	-1.855477e-05	-6.476609e-06	0.04317872	-0.004506224	-2.406143e-05	1.739865e-05
	-0.0003366746	0.0004045119	0.01220827	0.008246527	-2.406144e-05	1.739865e-05	0.04303443	-0.004265711
9e+07	0.04414662	-0.009453366	-0.0001155792	0.0001487742	0.01362347	0.007210496	-0.0003261454	0.0004377389
	-0.0001155792	0.0001487742	0.04306386	-0.008726525	-1.83175e-05	-1.955545e-07	0.01388907	0.007183631
	0.01362347	0.007210498	-1.83175e-05	-1.955551e-07	0.04335093	-0.00900763	-2.250626e-05	2.254658e-05
	-0.0003261454	0.0004377389	0.01388908	0.007183626	-2.250626e-05	2.254658e-05	0.04317707	-0.008637992
1e+08	0.04316141	-0.01412521	-7.024644e-05	0.0001950225	0.01504071	0.005835877	-0.0003278833	0.0004639812
	-7.024644e-05	0.0001950225	0.04227625	-0.01304816	-1.535059e-05	6.072341e-06	0.01521977	0.005755274
	0.01504071	0.005835877	-1.535059e-05	6.072341e-06	0.04256057	-0.01349017	-1.972681e-05	2.726634e-05
	-0.0003278833	0.0004639812	0.01521977	0.005755274	-1.972681e-05	2.726634e-05	0.04238501	-0.01298188
1.1e+08	0.04118671	-0.01848814	-1.632135e-05	0.0002057329	0.01605815	0.004146532	-0.0003156325	0.0004538719
	-1.632135e-05	0.0002057329	0.04058594	-0.01725247	-1.067784e-05	8.081602e-06	0.01613434	0.004099943
	0.01605815	0.004146531	-1.067784e-05	8.081602e-06	0.04082728	-0.01784302	-1.559972e-05	3.027408e-05
	-0.0003156325	0.0004538719	0.01613434	0.004099943	-1.559972e-05	3.027408e-05	0.04068313	-0.01719703
1.2e+08	0.03835433	-0.0223707	-5.609843e-06	0.0002003378	0.01659998	0.00227359	-0.0002912143	0.0004493169
	-5.609843e-06	0.0002003378	0.03799155	-0.02104229	-7.135234e-06	9.248435e-06	0.0166182	0.002284926
	0.01659998	0.00227359	-7.135233e-06	9.248435e-06	0.0381617	-0.0217674	-1.031128e-05	3.203297e-05
	-0.0002912143	0.0004493169	0.0166182	0.002284926	-1.031128e-05	3.203297e-05	0.03807769	-0.02099299
1.3e+08	0.03478378	-0.0256078	7.816844e-06	0.0001949789	0.01664577	0.0003393081	-0.0002663566	0.0004450306
	7.816844e-06	0.0001949789	0.03464377	-0.02423213	-4.09993e-06	9.695593e-06	0.01663478	0.0004161725
	0.01664577	0.000339308	-4.09993e-06	9.695593e-06	0.03471551	-0.02507092	-4.612332e-06	3.228894e-05
	-0.0002663566	0.0004450306	0.01663478	0.0004161725	-4.612332e-06	3.228894e-05	0.03471813	-0.02418507
1.4e+08	0.0306345	-0.02806179	2.224921e-05	0.0001886307	0.01619936	-0.001534155	-0.0002438483	0.000440814
	2.224921e-05	0.0001886307	0.0307043	-0.02667965	-1.440683e-06	9.613271e-06	0.01618318	-0.00139264
	0.01619936	-0.001534155	-1.440683e-06	9.613271e-06	0.03065567	-0.0276039	9.049529e-07	3.100314e-05
	-0.0002438483	0.000440814	0.01618318	-0.00139264	9.049529e-07	3.100314e-05	0.03076676	-0.0266311
1.5e+08	0.02609095	-0.02963229	3.666491e-05	0.0001809452	0.01529294	-0.003229653	-0.0002248638	0.0004375892
	3.666491e-05	0.0001809452	0.02635496	-0.02828192	8.840088e-07	9.11652e-06	0.01529129	-0.003030762
	0.01529294	-0.003229653	8.840088e-07	9.11652e-06	0.02617162	-0.02925749	5.706652e-06	2.83401e-05
	-0.0002248638	0.0004375892	0.01529129	-0.003030762	5.706652e-06	2.83401e-05	0.02640617	-0.02822848
1.6e+08	0.0213536	-0.03026088	5.03422e-05	0.000171937	0.01398556	-0.004641641	-0.0002095827	0.0004367244
	5.03422e-05	0.000171937	0.0217915	-0.02897793	2.888587e-06	8.290717e-06	0.0140134	-0.004397466
	0.01398556	-0.004641641	2.888587e-06	8.290717e-06	0.02146841	-0.02996685	9.365377e-06	2.463869e-05
	-0.0002095827	0.0004367244	0.0140134	-0.004397466	9.365377e-06	2.463869e-05	0.02183273	-0.02891666
1.7e+08	0.01662955	-0.02993362	6.278879e-05	0.0001618494	0.0123597	-0.005682267	-0.0001973778	0.000439653
	6.278879e-05	0.0001618494	0.01721537	-0.0287502	4.578568e-06	7.20641e-06	0.01242667	-0.005408175
	0.0123597	-0.005682267	4.578568e-06	7.20641e-06	0.01675784	-0.02971323	1.160847e-05	2.036437e-05
	-0.0001973778	0.000439653	0.01242667	-0.005408175	1.160847e-05	2.036437e-05	0.0172484	-0.02867873
1.8e+08	0.01212291	-0.02868149	7.372997e-05	0.000151056	0.01051634	-0.006286492	-0.0001869518	0.0004475849
	7.372997e-05	0.000151056	0.01282483	-0.02762482	5.958115e-06	5.925106e-06	0.0106264	-0.005999541
	0.01051634	-0.006286492	5.958115e-06	5.925106e-06	0.01224885	-0.02852422	1.234988e-05	1.604649e-05
	-0.0001869518	0.0004475849	0.0106264	-0.005999541	1.234988e-05	1.604649e-05	0.01285185	-0.02754136
1.9e+08	0.008025135	-0.02657872	8.310641e-05	0.0001399721	0.008568878	-0.006415842	-0.0001765011	0.0004612841
	8.310641e-05	0.0001399721	0.008806078	-0.02566959	6.386311e-06	5.030717e-06	0.008720337	-0.006133192
	0.008568878	-0.006415842	6.386311e-06	5.030717e-06	0.008137783	-0.02647202	1.170757e-05	1.220451e-05
	-0.0001765011	0.0004612841	0.008720337	-0.006133192	1.170757e-05	1.220451e-05	0.008829463	-0.025573
2e+08	0.00450596	-0.02373898	9.102972e-05	0.0001289842	0.00663632	-0.00606059	-0.000163917	0.0004809113
	9.102972e-05	0.0001289842	0.005324624	-0.02299038	6.284864e-06	4.567181e-06	0.006822131	-0.005797966
	0.00663632	-0.00606059	6.284864e-06	4.567181e-06	0.004599108	-0.02366954	9.965231e-06	9.284906e-06
	-0.000163917	0.0004809113	0.006822131	-0.005797966	9.965231e-06	9.284906e-06	0.005346871	-0.02288012
2.1e+08	0.001705303	-0.02030963	9.775439e-05	0.0001183911	0.00483614	-0.005240189	-0.0001470149	0.0005059439
	9.775439e-05	0.0001183911	0.002517764	-0.01972556	6.218604e-06	4.166057e-06	0.005044598	-0.005010503
	0.00483614	-0.005240189	6.218604e-06	4.166057e-06	0.001777132	-0.02026453	7.545075e-06	7.605128e-06
	-0.0001470149	0.0005059439	0.005044598	-0.005010503	7.545075e-06	7.605128e-06	0.002541328	-0.01960172
2.2e+08	-0.0002733463	-0.01646425	0.0001036337	0.0001083528	0.003277242	-0.004001959	-0.0001237712	0.0005351733
	0.0001036337	0.0001083528	0.0004882992	-0.016039	6.195271e-06	3.81179e-06	0.003492978	-0.003814145
	0.003277242	-0.004001959	6.195271e-06	3.81179e-06	-0.0002208406	-0.01643202	4.960145e-06	7.305549e-06
	-0.0001237712	0.0005351733	0.003492978	-0.003814145	4.960145e-06	7.305549e-06	0.000515483	-0.01590224
2.3e+08	-0.001367744	-0.01239393	0.0001090493	9.88706e-05	0.002053487	-0.002418092	-9.254517e-05	0.0005667793
	0.0001090493	9.88706e-05	-0.0007000031	-0.01211173	6.220132e-06	3.485849e-06	0.002258713	-0.002276247
	0.002053487	-0.002418092	6.220132e-06	3.485849e-06	-0.001329506	-0.01236533	2.739076e-06	8.333403e-06
	-9.254517e-05	0.0005667793	0.002258713	-0.002276247	2.739076e-06	8.333403e-06	-0.000667172	-0.01196324
2.4e+08	-0.001559613	-0.008297554	0.0001143465	8.979085e-05	0.001238157	-0.0005811797	-5.22593e-05	0.0005984777
	0.0001143465	8.979085e-05	-0.001025033	-0.008132873	6.293983e-06	3.168066e-06	0.001414092	-0.0004840593
	0.001238157	-0.0005811797	6.293983e-06	3.168066e-06	-0.001528418	-0.008266149	1.356526e-06	1.045019e-05
	-5.22593e-05	0.0005984777	0.001414092	-0.0004840593	1.356526e-06	1.045019e-05	-0.0009849117	-0.007974301
2.5e+08	-0.0008751111	-0.004371833	0.0001197769	8.082965e-05	0.0008797002	0.001401454	-2.525943e-06	0.0006277109
	0.0001197769	8.082965e-05	-0.0005068229	-0.004290226	6.412171e-06	2.837871e-06	0.001008071	0.001460555
	0.0008797002	0.001401454	6.412171e-06	2.837871e-06	-0.0008425295	-0.004334355	1.170767e-06	1.326313e-05
	-2.525943e-06	0.0006277109	0.001008071	0.001460555	1.170767e-06	1.326313e-05	-0.0004582477	-0.004123556
2.6e+08	0.0006169738	-0.000801452	0.0001254547	7.161798e-05	0.0009990004	0.003414252	5.630033e-05	0.0006518743
	0.0001254547	7.161798e-05	0.0007940558	-0.0007609511	6.56416e-06	2.476676e-06	0.00106353	0.003447223
	0.0009990004	0.003414252	6.56416e-06	2.476676e-06	0.0006595897	-0.0007578323	2.376906e-06	1.627654e-05
	5.630033e-05	0.0006518743	0.00106353	0.003447223	2.376906e-06	1.627654e-05	0.0008516995	-0.0005883945
2.7e+08	0.002809198	0.002250084	0.000131332	6.175817e-05	0.001588317	0.005340361	0.0001231415	0.0006685426
	0.000131332	6.175817e-05	0.002780146	0.002297037	6.734184e-06	2.069826e-06	0.001576085	0.005363615
	0.001588317	0.005340361	6.734184e-06	2.069826e-06	0.002869788	0.002296902	4.981229e-06	1.895621e-05
	0.0001231415	0.0006685426	0.001576085	0.005363615	4.981229e-06	1.895621e-05	0.002846883	0.002473187
2.8e+08	0.00556139	0.004648439	0.0001371982	5.088648e-05	0.002611933	0.007068568	0.0001962934	0.0006756782
	0.0001371982	5.088648e-05	0.005322568	0.004752628	6.902783e-06	1.608533e-06	0.002514535	0.007102054
	0.002611933	0.007068568	6.902783e-06	1.608533e-06	0.005646369	0.004692922	8.800246e-06	2.079826e-05
	0.0001962934	0.0006756782	0.002514535	0.007102054	8.800246e-06	2.079826e-05	0.005397828	0.004930143
2.9e+08	0.008708193	0.006294836	0.0001426995	3.873093e-05	0.004008445	0.00849984	0.0002735758	0.0006717938
	0.0001426995	3.873093e-05	0.008267993	0.0065076	7.048921e-06	1.090785e-06	0.003822857	0.008565772
	0.004008445	0.00849984	7.048921e-06	1.090785e-06	0.008821794	0.006329482	1.348364e-05	2.139375e-05
	0.0002735758	0.0006717938	0.003822857	0.008565772	1.348364e-05	2.139375e-05	0.008350641	0.006684466
3e+08	0.01206782	0.00713057	0.0001473798	2.515847e-05	0.005694539	0.009553084	0.000352525	0.0006560575
	0.0001473798	2.515847e-05	0.01144675	0.007500941	7.152358e-06	5.214707e-07	0.005423633	0.009674483
	0.005694539	0.009553084	7.152358e-06	5.214707e-07	0.01221165	0.007146651	1.855818e-05	2.048074e-05
	0.000352525	0.0006560575	0.005423633	0.009674483	1.855818e-05	2.048074e-05	0.01153516	0.007675497
3.1e+08	0.01545153	0.007139398	0.0001507351	1.020549e-05	0.007569998	0.0101698	0.0004306131	0.0006283274
	0.0001507351	1.020549e-05	0.01468163	0.007711238	7.195983e-06	-8.831198e-08	0.007222674	0.01036894
	0.007569998	0.0101698	7.195983e-06	-8.831198e-08	0.01562433	0.007127795	2.348721e-05	1.79775e-05
	0.0004306131	0.0006283274	0.007222674	0.01036894	2.348721e-05	1.79775e-05	0.01477376	0.007882291
3.2e+08	0.01867335	0.006347721	0.0001522749	-5.913307e-06	0.009523648	0.0103174	0.0005054512	0.0005891172
	0.0001522749	-5.913307e-06	0.01779688	0.007156998	7.167545e-06	-7.22868e-07	0.009114563	0.01061424
	0.009523648	0.0103174	7.167545e-06	-7.22868e-07	0.01887103	0.006299771	2.773712e-05	1.399297e-05
	0.0005054512	0.0005891172	0.009114563	0.01061424	2.773712e-05	1.399297e-05	0.01789046	0.007323918
3.3e+08	0.02155953	0.004822603	0.0001515835	-2.281754e-05	0.01143988	0.009990987	0.0005749717	0.0005394993
	0.0001515835	-2.281754e-05	0.02062705	0.005894996	7.060719e-06	-1.36392e-06	0.01098879	0.01040174
	0.01143988	0.009990987	7.060719e-06	-1.36392e-06	0.02177538	0.004730903	3.084304e-05	8.813526e-06
	0.0005749717	0.0005394993	0.01098879	0.01040174	3.084304e-05	8.813526e-06	0.02071968	0.006057761
3.4e+08	0.02395723	0.002667722	0.0001483739	-3.999442e-05	0.01320541	0.009213573	0.0006375684	0.0004809527
	0.0001483739	-3.999442e-05	0.0230251	0.004016707	6.875456e-06	-1.992778e-06	0.01273613	0.009749402
	0.01320541	0.009213573	6.875456e-06	-1.992778e-06	0.02418236	0.002526838	3.246625e-05	2.867486e-06
	0.0006375684	0.0004809527	0.01273613	0.009749402	3.246625e-05	2.867486e-06	0.02311441	0.004175925
3.5e+08	0.02574203	1.752944e-05	0.0001425261	-5.684829e-05	0.01471579	0.008034673	0.0006921674	0.000415187
	0.0001425261	-5.684829e-05	0.02486946	0.001643057	6.61743e-06	-2.592434e-06	0.01425492	0.008700735
	0.01471579	0.008034673	6.61743e-06	-2.592434e-06	0.02596603	-0.0001754436	3.243355e-05	-3.325339e-06
	0.0006921674	0.000415187	0.01425492	0.008700735	3.243355e-05	-3.325339e-06	0.02495331	0.001799939
3.6e+08	0.02682396	-0.0029701	0.0001341072	-7.276083e-05	0.01588156	0.006527406	0.0007382366	0.0003439539
	0.0001341072	-7.276083e-05	0.02606975	-0.001082191	6.291602e-06	-3.144777e-06	0.01545687	0.007322205
	0.01588156	0.006527406	6.291602e-06	-3.144777e-06	0.02703558	-0.003215172	3.105838e-05	-9.855607e-06
	0.0007382366	0.0003439539	0.01545687	0.007322205	3.105838e-05	-9.855607e-06	0.02614634	-0.0009258995
3.7e+08	0.02715161	-0.006122319	0.000123369	-8.71543e-05	0.01663332	0.00478427	0.0007757479	0.0002688625
	0.000123369	-8.71543e-05	0.0265708	-0.004000117	5.916761e-06	-3.642734e-06	0.01627213	0.005699412
	0.01663332	0.00478427	5.916761e-06	-3.642734e-06	0.02733963	-0.00641643	2.812992e-05	-1.576746e-05
	0.0007757479	0.0002688625	0.01627213	0.005699412	2.812992e-05	-1.576746e-05	0.02663881	-0.003842237
3.8e+08	0.02671433	-0.00926044	0.0001107251	-9.955048e-05	0.01692587	0.002911793	0.0008050559	0.0001912426
	0.0001107251	-9.955048e-05	0.02635489	-0.006944959	5.509157e-06	-4.083181e-06	0.0166533	0.003932166
	0.01692587	0.002911793	5.509157e-06	-4.083181e-06	0.02686839	-0.009597528	2.392598e-05	-2.050612e-05
	0.0008050559	0.0001912426	0.0166533	0.003932166	2.392598e-05	-2.050612e-05	0.02641359	-0.00678301
3.9e+08	0.0255423	-0.01220928	9.670841e-05	-0.0001096183	0.01674086	0.001024381	0.0008267548	0.0001120482
	9.670841e-05	-0.0001096183	0.02544205	-0.009752678	5.083432e-06	-4.467449e-06	0.01657816	0.002128764
	0.01674086	0.001024381	5.083432e-06	-4.467449e-06	0.02565364	-0.01258056	1.891639e-05	-2.378518e-05
	0.0008267548	0.0001120482	0.01657816	0.002128764	1.891639e-05	-2.378518e-05	0.02549136	-0.009584035
4e+08	0.02370443	-0.01480625	8.191601e-05	-0.0001172041	0.01608794	-0.0007623151	0.0008415126	3.182343e-05
	8.191601e-05	-0.0001172041	0.02388849	-0.01226933	4.652052e-06	-4.801496e-06	0.01605102	0.000399763
	0.01608794	-0.0007623151	4.652052e-06	-4.801496e-06	0.02376669	-0.01520069	1.362973e-05	-2.549796e-05
	0.0008415126	3.182343e-05	0.01605102	0.000399763	1.362973e-05	-2.549796e-05	0.023929	-0.01209139
4.1e+08	0.02130441	-0.01690976	6.694596e-05	-0.0001223416	0.0150043	-0.002338135	0.0008499056	-4.927516e-05
	6.694596e-05	-0.0001223416	0.02178321	-0.01435883	4.223912e-06	-5.094873e-06	0.01510251	-0.001148404
	0.0150043	-0.002338135	4.223912e-06	-5.094873e-06	0.02131411	-0.01731474	8.587234e-06	-2.572557e-05
	0.0008499056	-4.927516e-05	0.01510251	-0.001148404	8.587234e-06	-2.572557e-05	0.02181615	-0.01416917
4.2e+08	0.01847486	-0.01840642	5.233523e-05	-0.0001252393	0.01355267	-0.003604878	0.000852274	-0.0001313961
	5.233523e-05	-0.0001252393	0.01924294	-0.01590978	3.803294e-06	-5.359266e-06	0.01378792	-0.002419603
	0.01355267	-0.003604878	3.803294e-06	-5.359266e-06	0.0184318	-0.01880852	4.238061e-06	-2.472117e-05
	0.000852274	-0.0001313961	0.01378792	-0.002419603	4.238061e-06	-2.472117e-05	0.01927014	-0.01570635
4.3e+08	0.01537007	-0.01921684	3.850569e-05	-0.0001262473	0.01181773	-0.004482122	0.0008486179	-0.0002148618
	3.850569e-05	-0.0001262473	0.01640573	-0.01684091	3.389313e-06	-5.606758e-06	0.01218405	-0.003333621
	0.01181773	-0.004482122	3.389313e-06	-5.606758e-06	0.01527752	-0.01960272	9.041988e-07	-2.287254e-05
	0.0008486179	-0.0002148618	0.01218405	-0.003333621	9.041988e-07	-2.287254e-05	0.0164295	-0.01662214
4.4e+08	0.0121576	-0.01929952	2.572491e-05	-0.0001258075	0.009901235	-0.004912046	0.0008385479	-0.0003000114
	2.572491e-05	-0.0001258075	0.01342349	-0.01710498	2.975983e-06	-5.84792e-06	0.01038482	-0.003830901
	0.009901235	-0.004912046	2.975983e-06	-5.84792e-06	0.01202221	-0.01965679	-1.258039e-06	-2.064784e-05
	0.0008385479	-0.0003000114	0.01038482	-0.003830901	-1.258039e-06	-2.064784e-05	0.01344651	-0.0168699
4.5e+08	0.009009227	-0.01865275	1.408682e-05	-0.0001243942	0.007916171	-0.004862961	0.0008212985	-0.0003870289
	1.408682e-05	-0.0001243942	0.01045385	-0.01669085	2.552923e-06	-6.089956e-06	0.008495871	-0.003876099
	0.007916171	-0.004862961	2.552923e-06	-6.089956e-06	0.008840719	-0.01897087	-2.274914e-06	-1.853121e-05
	0.0008212985	-0.0003870289	0.008495871	-0.003876099	-2.274914e-06	-1.853121e-05	0.01047898	-0.01643921
4.6e+08	0.006091653	-0.01731444	3.514032e-06	-0.0001224519	0.005980083	-0.004331319	0.0007958915	-0.0004756925
	3.514032e-06	-0.0001224519	0.007651789	-0.01562369	2.106751e-06	-6.335102e-06	0.006628373	-0.003460242
	0.005980083	-0.004331319	2.106751e-06	-6.335102e-06	0.00590234	-0.01758542	-2.348894e-06	-1.695769e-05
	0.0007958915	-0.0004756925	0.006628373	-0.003460242	-2.348894e-06	-1.695769e-05	0.007681919	-0.01535592
4.7e+08	0.003557589	-0.01535965	-6.123001e-06	-0.000120162	0.004208167	-0.003342067	0.0007465627	-0.000578212
	-6.123001e-06	-0.000120162	0.005161436	-0.01396319	1.622313e-06	-6.583064e-06	0.004892558	-0.002601342
	0.004208167	-0.003342067	1.622313e-06	-6.583064e-06	0.003361653	-0.01557879	-1.731591e-06	-1.608091e-05
	0.0007465627	-0.000578212	0.004892558	-0.002601342	-1.731591e-06	-1.608091e-05	0.00519928	-0.0136804
4.8e+08	0.00153759	-0.01289642	-1.519347e-05	-0.0001179249	0.002706428	-0.001947292	0.0006817347	-0.0006787153
