!$
! Info: Touchstone file created by Circ.  Input file=Tx_14in_Rx_100ohms_TxVia_35mils_RxVia_45mils.circ
!$
# Hz S RI R 50
0	0.01447057	1.656736e-25	7.293995e-10	2.442972e-27	9.355261e-05	2.705587e-23	3.597352e-10	5.294392e-28
	7.293995e-10	2.442951e-27	0.01446883	2.0371e-25	2.466084e-09	9.547363e-27	9.342058e-05	3.278612e-23
	9.336746e-05	2.694229e-23	2.466085e-09	9.547371e-27	0.01448102	1.656397e-25	7.314564e-10	2.616668e-27
	3.597351e-10	5.294334e-28	9.157166e-05	3.294741e-23	7.314568e-10	2.616686e-27	0.01448186	1.908796e-25
1e+07	0.02138973	0.008202755	9.723472e-10	1.267619e-09	0.0009965574	0.002521996	6.186079e-10	5.562507e-10
	9.723472e-10	1.267619e-09	0.02159328	0.008174303	3.59585e-09	6.608726e-09	0.0009914475	0.002520185
	0.0009965518	0.002521997	3.59585e-09	6.608726e-09	0.0216189	0.008178114	9.583322e-10	1.292226e-09
	6.186079e-10	5.562507e-10	0.0009913862	0.002520194	9.58332e-10	1.292226e-09	0.02139768	0.008214148
2e+07	0.0282769	0.010571	1.417607e-09	2.095417e-09	0.001892816	0.005071934	1.080935e-09	7.605052e-10
	1.417607e-09	2.095417e-09	0.02838403	0.01045902	4.880518e-09	1.145716e-08	0.001873935	0.005072908
	0.001892817	0.005071938	4.880518e-09	1.145716e-08	0.02844137	0.01045606	1.362624e-09	2.154918e-09
	1.080935e-09	7.605053e-10	0.001873925	0.005072943	1.362624e-09	2.154918e-09	0.0282637	0.01059771
3e+07	0.034064	0.009833057	1.825607e-09	2.739774e-09	0.003408041	0.007017226	1.555747e-09	7.740746e-10
	1.825608e-09	2.739774e-09	0.03407351	0.009715496	5.777089e-09	1.602789e-08	0.003369158	0.00702858
	0.003408044	0.007017225	5.777089e-09	1.602789e-08	0.03417679	0.009687993	1.708188e-09	2.863994e-09
	1.555747e-09	7.740746e-10	0.003369158	0.007028586	1.708188e-09	2.863994e-09	0.03401776	0.009886794
4e+07	0.03887629	0.007289809	2.191102e-09	3.22292e-09	0.005408928	0.008362993	1.995975e-09	5.738948e-10
	2.191102e-09	3.22292e-09	0.03878946	0.007206687	6.49232e-09	2.041197e-08	0.005347128	0.008394387
	0.005408928	0.008362991	6.49232e-09	2.041197e-08	0.03894494	0.007132071	2.005206e-09	3.447464e-09
	1.995975e-09	5.738948e-10	0.005347122	0.008394385	2.005206e-09	3.447464e-09	0.03879031	0.007386233
5e+07	0.04257705	0.003425833	2.456136e-09	3.563548e-09	0.007840568	0.008906308	2.317893e-09	1.729741e-10
	2.456136e-09	3.563548e-09	0.04240306	0.003411547	7.015229e-09	2.465672e-08	0.007756772	0.008967995
	0.007840568	0.008906307	7.015229e-09	2.465672e-08	0.0426077	0.003265108	2.211092e-09	3.924458e-09
	2.317893e-09	1.729741e-10	0.007756768	0.008967994	2.211092e-09	3.924458e-09	0.04245097	0.003583374
6e+07	0.04501803	-0.00136766	2.580289e-09	3.807457e-09	0.01026856	0.008755196	2.451551e-09	-3.818193e-10
	2.580289e-09	3.807457e-09	0.04477499	-0.00128384	7.332837e-09	2.883423e-08	0.01016769	0.008856994
	0.01026856	0.008755196	7.332837e-09	2.883423e-08	0.0450159	-0.00152521	2.299471e-09	4.335851e-09
	2.451551e-09	-3.818193e-10	0.01016769	0.008856993	2.299471e-09	4.335851e-09	0.04485896	-0.001130538
7e+07	0.04609161	-0.006717137	2.517583e-09	4.01068e-09	0.01250821	0.007945001	2.289466e-09	-9.90919e-10
	2.517583e-09	4.01068e-09	0.04580557	-0.006513101	7.39955e-09	3.299539e-08	0.01239878	0.008094791
	0.01250822	0.007945001	7.39955e-09	3.299539e-08	0.04606112	-0.006867305	2.232431e-09	4.729228e-09
	2.289466e-09	-9.909191e-10	0.01239879	0.008094788	2.232431e-09	4.729229e-09	0.0459137	-0.006384876
8e+07	0.04575639	-0.0122518	2.248234e-09	4.237883e-09	0.01438978	0.006558086	1.827823e-09	-1.531563e-09
	2.248234e-09	4.237883e-09	0.04545927	-0.01191454	7.239177e-09	3.72268e-08	0.0142831	0.006760665
	0.01438978	0.006558086	7.239177e-09	3.72268e-08	0.04570137	-0.01239144	1.999911e-09	5.15927e-09
	1.827823e-09	-1.531563e-09	0.01428311	0.006760659	1.999911e-09	5.15927e-09	0.04557945	-0.01181409
9e+07	0.04404875	-0.01761083	1.796225e-09	4.556727e-09	0.01577093	0.004718854	1.143827e-09	-1.93278e-09
	1.796225e-09	4.556727e-09	0.04377577	-0.01713779	6.928081e-09	4.160742e-08	0.01568003	0.004975053
	0.01577093	0.004718853	6.928081e-09	4.160743e-08	0.04397284	-0.01773729	1.634087e-09	5.679286e-09
	1.143827e-09	-1.93278e-09	0.01568004	0.004975047	1.634087e-09	5.679286e-09	0.04389623	-0.01706437
1e+08	0.04109946	-0.02245704	1.168658e-09	5.031622e-09	0.01654036	0.002584097	3.096069e-10	-2.126126e-09
	1.168658e-09	5.031622e-09	0.04088791	-0.02185663	6.515523e-09	4.618623e-08	0.01647864	0.002890301
	0.01654035	0.002584097	6.515523e-09	4.618623e-08	0.04100828	-0.02256776	1.14324e-09	6.337541e-09
	3.096069e-10	-2.126126e-09	0.01647864	0.002890301	1.14324e-09	6.337541e-09	0.04099605	-0.02180657
1.1e+08	0.0370493	-0.0265948	4.625626e-10	5.616356e-09	0.01666235	0.0003779773	-6.369152e-10	-2.154067e-09
	4.625626e-10	5.616356e-09	0.03692868	-0.02589664	6.132648e-09	5.096071e-08	0.01664226	0.0007256981
	0.01666235	0.0003779774	6.132648e-09	5.096071e-08	0.03694375	-0.02669824	6.198758e-10	7.069582e-09
	-6.369152e-10	-2.154067e-09	0.01664226	0.0007256982	6.198758e-10	7.069582e-09	0.03701895	-0.02585516
1.2e+08	0.03208941	-0.02966419	-2.82278e-10	6.441974e-09	0.01616265	-0.001764085	-1.700386e-09	-1.90771e-09
	-2.82278e-10	6.441974e-09	0.03207623	-0.02889463	5.788077e-09	5.597169e-08	0.01619359	-0.001387101
	0.01616265	-0.001764085	5.788077e-09	5.597169e-08	0.03196431	-0.02975503	8.602311e-11	7.988128e-09
	-1.700386e-09	-1.90771e-09	0.01619359	-0.001387101	8.60231e-11	7.988128e-09	0.03215052	-0.02885559
1.3e+08	0.02655386	-0.03148263	-1.012465e-09	7.533314e-09	0.0150723	-0.003671095	-2.779564e-09	-1.340023e-09
	-1.012465e-09	7.533314e-09	0.02665996	-0.03067372	5.551677e-09	6.121874e-08	0.01515978	-0.003280214
	0.0150723	-0.003671095	5.551677e-09	6.121874e-08	0.02640952	-0.03155404	-4.212892e-10	9.109911e-09
	-2.779564e-09	-1.340023e-09	0.01515978	-0.003280214	-4.212892e-10	9.109911e-09	0.02671914	-0.03063188
1.4e+08	0.02078562	-0.0319583	-1.643535e-09	8.896521e-09	0.01347893	-0.005187565	-3.771959e-09	-4.381192e-10
	-1.643535e-09	8.896521e-09	0.02101366	-0.03114616	5.502568e-09	6.667776e-08	0.01362361	-0.004800018
	0.01347893	-0.005187565	5.502568e-09	6.667776e-08	0.02062554	-0.03200361	-8.366697e-10	1.043767e-08
	-3.771959e-09	-4.381192e-10	0.01362361	-0.004800018	-8.366697e-10	1.043767e-08	0.02105951	-0.03109698
1.5e+08	0.01513202	-0.03108832	-2.083371e-09	1.051016e-08	0.01151176	-0.006188997	-4.572123e-09	7.79417e-10
	-2.083371e-09	1.051016e-08	0.0154737	-0.03031015	5.714746e-09	7.229949e-08	0.01170884	-0.005822308
	0.01151176	-0.006188997	5.714746e-09	7.229949e-08	0.01496228	-0.03110202	-1.08802e-09	1.195239e-08
	-4.572123e-09	7.79417e-10	0.01170884	-0.005822308	-1.08802e-09	1.195239e-08	0.01550889	-0.03025006
1.6e+08	0.009924954	-0.02895655	-2.242676e-09	1.232034e-08	0.00933011	-0.006592345	-5.079171e-09	2.260736e-09
	-2.242676e-09	1.232034e-08	0.01036058	-0.0282471	6.248491e-09	7.800998e-08	0.009569303	-0.006262603
	0.00933011	-0.006592345	6.248491e-09	7.800998e-08	0.009753605	-0.02893501	-1.105184e-09	1.360861e-08
	-5.079171e-09	2.260736e-09	0.009569303	-0.006262603	-1.105184e-09	1.360861e-08	0.01038835	-0.02817362
1.7e+08	0.005460737	-0.02572661	-2.047676e-09	1.424032e-08	0.007110213	-0.006362784	-5.207112e-09	3.921479e-09
	-2.047676e-09	1.424032e-08	0.005959976	-0.02511457	7.141463e-09	8.371424e-08	0.00737622	-0.006082921
	0.007110213	-0.006362784	7.141463e-09	8.371424e-08	0.005297101	-0.02566857	-8.308247e-10	1.533375e-08
	-5.207112e-09	3.921479e-09	0.00737622	-0.006082921	-8.308247e-10	1.533375e-08	0.005983829	-0.02502633
1.8e+08	0.001981761	-0.02162998	-1.453141e-09	1.615541e-08	0.005030741	-0.005516422	-4.895568e-09	5.649034e-09
	-1.453141e-09	1.615541e-08	0.002505556	-0.02113473	8.400854e-09	8.930346e-08	0.005304276	-0.005294681
	0.005030741	-0.005516422	8.400854e-09	8.930346e-08	0.00183568	-0.02153691	-2.317596e-10	1.703209e-08
	-4.895568e-09	5.649034e-09	0.005304276	-0.005294681	-2.317596e-10	1.703209e-08	0.002529021	-0.02103143
1.9e+08	-0.0003384634	-0.01694987	-4.534398e-10	1.793338e-08	0.003258313	-0.004118799	-4.119368e-09	7.310656e-09
	-4.534398e-10	1.793338e-08	0.0001650771	-0.01657883	9.998121e-09	9.466542e-08	0.003517584	-0.003957539
	0.003258313	-0.004118799	9.998121e-09	9.466542e-08	-0.0004574387	-0.01682608	6.913542e-10	1.859375e-08
	-4.119368e-09	7.310656e-09	0.003517584	-0.003957539	6.913542e-10	1.859375e-08	0.000191418	-0.01646115
2e+08	-0.001405732	-0.01200167	9.107712e-10	1.943931e-08	0.001934075	-0.002279336	-2.895387e-09	8.765113e-09
	9.107712e-10	1.943931e-08	-0.0009693125	-0.01174869	1.186773e-08	9.969702e-08	0.002156612	-0.002174324
	0.001934075	-0.002279336	1.186773e-08	9.969702e-08	-0.001489172	-0.01185419	1.89826e-09	1.990786e-08
	-2.895387e-09	8.765113e-09	0.002156612	-0.002174324	1.89826e-09	1.990786e-08	-0.0009372962	-0.01161816
2.1e+08	-0.001210199	-0.007111406	2.552088e-09	2.055296e-08	0.001162491	-0.000142252	-1.285203e-09	9.876776e-09
	2.552088e-09	2.055296e-08	-0.0008856863	-0.006956312	1.391073e-08	1.043171e-07	0.001327153	-8.25244e-05
	0.001162491	-0.000142252	1.391073e-08	1.043171e-07	-0.001251587	-0.006949704	3.309035e-09	2.087788e-08
	-1.285203e-09	9.876776e-09	0.001327153	-8.252441e-05	3.309035e-09	2.087788e-08	-0.000845842	-0.006815106
2.2e+08	0.0001743168	-0.002593694	4.342854e-09	2.118564e-08	0.001003209	0.002125268	6.073522e-10	1.053044e-08
	4.342854e-09	2.118564e-08	0.0003484064	-0.002503049	1.600306e-08	1.084777e-07	0.0010922	0.002156927
	0.001003209	0.002125268	1.600306e-08	1.084777e-07	0.0001788898	-0.002429074	4.810379e-09	2.143636e-08
	6.073522e-10	1.053044e-08	0.0010922	0.002156927	4.810379e-09	2.143636e-08	0.000397457	-0.002353825
2.3e+08	0.002596723	0.001269366	6.127969e-09	2.129365e-08	0.001466646	0.004346613	2.643853e-09	1.064486e-08
	6.127969e-09	2.129365e-08	0.002592017	0.001340194	1.800772e-08	1.121714e-07	0.001467341	0.004372598
	0.001466646	0.004346613	1.800772e-08	1.121714e-07	0.002648034	0.001424486	6.267629e-09	2.155653e-08
	2.643853e-09	1.064486e-08	0.001467341	0.004372598	6.267629e-09	2.155653e-08	0.002650798	0.00149455
2.4e+08	0.005840273	0.004246739	7.742092e-09	2.088603e-08	0.002513557	0.00634989	4.663355e-09	1.018298e-08
	7.742092e-09	2.088603e-08	0.005641726	0.004350427	1.978893e-08	1.154341e-07	0.002419974	0.006396172
	0.002513557	0.00634989	1.978893e-08	1.154341e-07	0.005935653	0.004379728	7.540595e-09	2.125818e-08
	4.663355e-09	1.018298e-08	0.002419974	0.006396171	7.540595e-09	2.125818e-08	0.005709884	0.004507037
2.5e+08	0.009638538	0.006173236	9.028386e-09	2.00252e-08	0.004058556	0.007981502	6.497376e-09	9.157561e-09
	9.028386e-09	2.00252e-08	0.009246622	0.00636647	2.12263e-08	1.183424e-07	0.003872321	0.008075626
	0.004058556	0.007981502	2.12263e-08	1.183424e-07	0.009771823	0.006272232	8.50048e-09	2.060712e-08
	6.497376e-09	9.157561e-09	0.003872321	0.008075626	8.50048e-09	2.060712e-08	0.00932297	0.006522708
2.6e+08	0.01369454	0.006959522	9.855859e-09	1.882075e-08	0.005977223	0.009118121	7.985771e-09	7.631336e-09
	9.855859e-09	1.882075e-08	0.0131262	0.007298396	2.222689e-08	1.210064e-07	0.005707926	0.009286959
	0.005977223	0.009118121	2.222689e-08	1.210064e-07	0.0138563	0.007014418	9.045031e-09	1.970817e-08
	7.985771e-09	7.631336e-09	0.005707926	0.009286959	9.045031e-09	1.970817e-08	0.01320882	0.007452112
2.7e+08	0.01770166	0.006596743	1.013274e-08	1.74178e-08	0.008116165	0.009676147	8.991517e-09	5.712078e-09
	1.013274e-08	1.74178e-08	0.01698992	0.007131963	2.273367e-08	1.235591e-07	0.007781058	0.009943589
	0.008116165	0.009676147	2.273367e-08	1.235591e-07	0.01787973	0.006600095	9.109551e-09	1.869344e-08
	8.991517e-09	5.712078e-09	0.007781058	0.009943589	9.109551e-09	1.869344e-08	0.01707633	0.007281667
2.8e+08	0.02136486	0.005155526	9.814421e-09	1.598215e-08	0.01030522	0.009617986	9.412733e-09	3.543473e-09
	9.814421e-09	1.598215e-08	0.02055701	0.005927825	2.272982e-08	1.26144e-07	0.009928235	0.01000277
	0.01030522	0.009617986	2.272982e-08	1.26144e-07	0.02154509	0.005103319	8.672459e-09	1.770807e-08
	9.412733e-09	3.543473e-09	0.009928235	0.01000277	8.672459e-09	1.770807e-08	0.02064438	0.006072838
2.9e+08	0.02442069	0.002779557	8.905688e-09	1.468492e-08	0.01237079	0.00895473	9.19097e-09	1.293269e-09
	8.905688e-09	1.468492e-08	0.02357523	0.003815716	2.223879e-08	1.289036e-07	0.01198099	0.009468583
	0.01237079	0.00895473	2.223879e-08	1.289036e-07	0.02458793	0.002671723	7.755374e-09	1.689613e-08
	9.19097e-09	1.293269e-09	0.01198099	0.009468583	7.755374e-09	1.689613e-08	0.02366062	0.003956224
3e+08	0.02665485	-0.0003257394	7.45819e-09	1.368863e-08	0.01414942	0.007745086	8.315477e-09	-8.597638e-10
	7.45819e-09	1.368863e-08	0.0258373	0.0009840824	2.13212e-08	1.319684e-07	0.01377887	0.00839137
	0.01414942	0.007745086	2.13212e-08	1.319684e-07	0.02679408	-0.0004850693	6.418802e-09	1.638856e-08
	8.315477e-09	-8.597638e-10	0.01377887	0.00839137	6.418802e-09	1.638856e-08	0.02591792	0.001121153
3.1e+08	0.02791605	-0.003908545	5.564644e-09	1.313605e-08	0.01550043	0.006090684	6.82378e-09	-2.738746e-09
	5.564644e-09	1.313605e-08	0.02719395	-0.002333999	2.00695e-08	1.354487e-07	0.01518181	0.006863642
	0.01550043	0.006090684	2.00695e-08	1.354487e-07	0.02801354	-0.004111124	4.755165e-09	1.629446e-08
	6.82378e-09	-2.738746e-09	0.01518181	0.006863642	4.755165e-09	1.629446e-08	0.02726743	-0.002198499
3.2e+08	0.02812532	-0.007688958	3.351597e-09	1.314204e-08	0.01631682	0.00412812	4.799285e-09	-4.180654e-09
	3.351597e-09	1.314204e-08	0.0275629	-0.005877679	1.860155e-08	1.394285e-07	0.01608082	0.005012834
	0.01631682	0.00412812	1.860155e-08	1.394285e-07	0.02816979	-0.00792283	2.881083e-09	1.669554e-08
	4.799285e-09	-4.180654e-09	0.01608082	0.005012834	2.881083e-09	1.669554e-08	0.02762747	-0.005741223
3.3e+08	0.02728031	-0.01137894	9.71933e-10	1.378768e-08	0.01653365	0.002018338	2.366599e-09	-5.047002e-09
	9.71933e-10	1.378768e-08	0.02693305	-0.009376737	1.705399e-08	1.439605e-07	0.01640635	0.002991426
	0.01653365	0.002018338	1.705399e-08	1.439605e-07	0.02726392	-0.01162917	9.30208e-10	1.764307e-08
	2.366599e-09	-5.047002e-09	0.01640635	0.002991426	9.30208e-10	1.764307e-08	0.02698777	-0.009236353
3.4e+08	0.02545422	-0.01470259	-1.402384e-09	1.511569e-08	0.01613311	-6.58891e-05	-3.149171e-10	-5.233267e-09
	-1.402384e-09	1.511569e-08	0.02536392	-0.01257033	1.557527e-08	1.490629e-07	0.01613371	0.0009651511
	0.01613311	-6.58891e-05	1.557527e-08	1.490629e-07	0.02537335	-0.01495226	-9.529137e-10	1.915589e-08
	-3.149171e-10	-5.233267e-09	0.01613371	0.0009651511	-9.529137e-10	1.915589e-08	0.02540874	-0.01242284
3.5e+08	0.02278944	-0.01741537	-3.587722e-09	1.712607e-08	0.01514609	-0.001953426	-3.059292e-09	-4.677176e-09
	-3.587722e-09	1.712607e-08	0.02298018	-0.01522486	1.431838e-08	1.547166e-07	0.01528494	-0.0008998423
	0.01514609	-0.001953426	1.431838e-08	1.547166e-07	0.02264524	-0.01764678	-2.618395e-09	2.12183e-08
	-3.059292e-09	-4.677176e-09	0.01528494	-0.0008998423	-2.618395e-09	2.12183e-08	0.023016	-0.01506715
3.6e+08	0.01948662	-0.01932089	-5.397449e-09	1.977186e-08	0.01364989	-0.003488212	-5.663989e-09	-3.365788e-09
	-5.397449e-09	1.977186e-08	0.01996189	-0.01714968	1.343245e-08	1.608628e-07	0.01392728	-0.002449909
	0.01364989	-0.003488212	1.343245e-08	1.608628e-07	0.0192851	-0.01951692	-3.917206e-09	2.377745e-08
	-5.663989e-09	-3.365788e-09	0.01392728	-0.002449909	-3.917206e-09	2.377745e-08	0.01999048	-0.016979
3.7e+08	0.01578956	-0.0202843	-6.652962e-09	2.295546e-08	0.01176236	-0.004541611	-7.922211e-09	-1.340832e-09
	-6.652962e-09	2.295546e-08	0.01653099	-0.01820976	1.305296e-08	1.674026e-07	0.01216793	-0.003555934
	0.01176236	-0.004541611	1.305296e-08	1.674026e-07	0.01554138	-0.02042975	-4.709324e-09	2.674059e-08
	-7.922211e-09	-1.340832e-09	0.01216793	-0.003555934	-4.709324e-09	2.674059e-08	0.01655489	-0.01802395
3.8e+08	0.01196729	-0.02024116	-7.197698e-09	2.652732e-08	0.009632773	-0.005022698	-9.637541e-09	1.298657e-09
	-7.197698e-09	2.652732e-08	0.01293503	-0.01833426	1.32903e-08	1.741984e-07	0.01014584	-0.004123516
	0.009632773	-0.005022698	1.32903e-08	1.741984e-07	0.01168715	-0.02032399	-4.874689e-09	2.997376e-08
	-9.637541e-09	1.298657e-09	0.01014584	-0.004123516	-4.874689e-09	2.997376e-08	0.01295736	-0.01813196
3.9e+08	0.008294383	-0.01920121	-6.913694e-09	3.028895e-08	0.007430122	-0.004885643	-1.064045e-08	4.397735e-09
	-6.913694e-09	3.028895e-08	0.009429333	-0.01752062	1.421769e-08	1.810794e-07	0.008020824	-0.00410048
	0.007430122	-0.004885643	1.421769e-08	1.810794e-07	0.008000096	-0.01921368	-4.326763e-09	3.3304e-08
	-1.064045e-08	4.397735e-09	0.008020824	-0.00410048	-4.326763e-09	3.3304e-08	0.009453502	-0.0173014
4e+08	0.005031091	-0.01724686	-5.738961e-09	3.400212e-08	0.005329787	-0.004133552	-1.080541e-08	7.752188e-09
	-5.738961e-09	3.400212e-08	0.006258666	-0.01583369	1.585961e-08	1.878514e-07	0.005961038	-0.0034811
	0.005329787	-0.004133552	1.585961e-08	1.878514e-07	0.004742304	-0.01718626	-3.027234e-09	3.652691e-08
	-1.080541e-08	7.752188e-09	0.005961038	-0.0034811	-3.027234e-09	3.652691e-08	0.006288112	-0.01559813
4.1e+08	0.002404572	-0.01452639	-3.682789e-09	3.740534e-08	0.003499585	-0.002818411	-1.006667e-08	1.112115e-08
	-3.682789e-09	3.740534e-08	0.003639942	-0.01340013	1.818307e-08	1.943115e-07	0.004129688	-0.002306643
	0.003499585	-0.002818411	1.818307e-08	1.943115e-07	0.002141337	-0.01439551	-9.991754e-10	3.942072e-08
	-1.006667e-08	1.112115e-08	0.004129688	-0.002306643	-9.991754e-10	3.942072e-08	0.003677835	-0.01314982
4.2e+08	0.0005926816	-0.01124241	-8.356027e-10	4.023691e-08	0.002086362	-0.001037089	-8.43009e-09	1.424545e-08
	-8.356027e-10	4.023691e-08	0.001747055	-0.01039847	2.109375e-08	2.002663e-07	0.002672127	-0.0006621595
	0.002086362	-0.001037089	2.109375e-08	2.002663e-07	0.0003739158	-0.01104951	1.664527e-09	4.176653e-08
	-8.43009e-09	1.424545e-08	0.002672127	-0.0006621595	1.664527e-09	4.176653e-08	0.001796008	-0.01013584
4.3e+08	-0.0002884799	-0.007636388	2.629741e-09	4.226247e-08	0.001204234	0.001076273	-5.978838e-09	1.687032e-08
	2.629741e-09	4.226247e-08	0.0006989839	-0.007045465	2.443874e-08	2.055522e-07	0.001704333	0.001330222
	0.001204234	0.001076273	2.443874e-08	2.055522e-07	-0.0004464858	-0.007394802	4.800461e-09	4.337257e-08
	-5.978838e-09	1.687032e-08	0.001704333	0.001330222	4.800461e-09	4.337257e-08	0.0007608283	-0.006773632
4.4e+08	-0.0001923649	-0.00397054	6.467135e-09	4.330308e-08	0.00092544	0.003360904	-2.871051e-09	1.876995e-08
	6.467135e-09	4.330308e-08	0.0005520368	-0.003579878	2.801666e-08	2.100542e-07	0.001303749	0.003520975
	0.00092544	0.003360904	2.801666e-08	2.100542e-07	-0.0002773163	-0.003697837	8.183569e-09	4.409905e-08
	-2.871051e-09	1.876995e-08	0.001303749	0.003520975	8.183569e-09	4.409905e-08	0.0006276374	-0.003302397
4.5e+08	0.0008554196	-0.0005082895	1.037695e-08	4.325963e-08	0.001274572	0.005642169	6.709994e-10	1.97707e-08
	1.037695e-08	4.325963e-08	0.001296732	-0.0002449114	3.159464e-08	2.137215e-07	0.001503216	0.005745011
	0.001274572	0.005642169	3.159464e-08	2.137215e-07	0.0008507382	-0.0002250781	1.154566e-08	4.38794e-08
	6.709994e-10	1.97707e-08	0.001503216	0.005745011	1.154566e-08	4.38794e-08	0.001385901	3.452743e-05
4.6e+08	0.002759896	0.00250508	1.403424e-08	4.212904e-08	0.002226628	0.007745425	4.379394e-09	1.976983e-08
	1.403424e-08	4.212904e-08	0.002859523	0.00272945	3.493006e-08	2.165755e-07	0.002288474	0.007834723
	0.002226628	0.007745425	3.493006e-08	2.165755e-07	0.002836871	0.002776626	1.460161e-08	4.273375e-08
	4.379394e-09	1.976983e-08	0.002288474	0.007834723	1.460161e-08	4.273375e-08	0.002961008	0.003007332
4.7e+08	0.005364576	0.004860203	1.712173e-08	4.000944e-08	0.00370902	0.009509832	7.964515e-09	1.874687e-08
	1.712173e-08	4.000944e-08	0.005109136	0.005142851	3.779437e-08	2.187103e-07	0.003599402	0.009633147
	0.00370902	0.009509832	3.779437e-08	2.187103e-07	0.005518434	0.005098001	1.707952e-08	4.0772e-08
	7.964515e-09	1.874687e-08	0.003599402	0.009633147	1.707952e-08	4.0772e-08	0.005220773	0.005416123
4.8e+08	0.008463592	0.006398545	1.93626e-08	3.709317e-08	0.005607345	0.010801	1.114135e-08	1.676641e-08
	1.93626e-08	3.709317e-08	0.007866992	0.006838543	3.999543e-08	2.202849e-07	0.005334858	0.01100622
