!$
! Info: Touchstone file created by Circ.  Input file=Tx_16in_Rx_85ohms_TxVia_35mils_RxVia_45mils.circ
!$
# Hz S RI R 50
0	0.01283771	1.932744e-25	-6.337301e-12	6.086016e-28	0.0001058184	2.414366e-23	-5.488533e-12	2.957941e-28
	-6.337304e-12	6.086018e-28	0.01283423	2.299237e-25	-3.687966e-12	9.888399e-28	0.000104481	2.906805e-23
	0.000106341	2.445797e-23	-3.687961e-12	9.888392e-28	0.01284562	1.886836e-25	-5.90791e-12	6.477854e-28
	-5.488534e-12	2.957943e-28	0.0001026324	2.921109e-23	-5.907912e-12	6.47786e-28	0.01284729	2.15442e-25
1e+07	0.01538213	-0.01627669	8.151779e-12	8.330566e-13	0.0005827564	0.002840601	7.301294e-12	4.895606e-12
	8.151779e-12	8.330567e-13	0.01536971	-0.01601508	5.232902e-12	-2.802927e-12	0.0006965363	0.00282596
	0.0005827805	0.002840602	5.232902e-12	-2.802927e-12	0.01751841	-0.01595801	4.185795e-12	3.322135e-13
	7.301294e-12	4.895606e-12	0.0006964755	0.002825971	4.185795e-12	3.322136e-13	0.0153335	-0.01599614
2e+07	0.01096878	-0.03582321	4.426003e-12	-2.302685e-12	0.001978895	0.005334026	-2.43277e-13	1.013595e-11
	4.426004e-12	-2.302684e-12	0.01120518	-0.03542706	3.62575e-12	-1.401946e-11	0.002108469	0.005207635
	0.001978903	0.005334011	3.62575e-12	-1.401946e-11	0.01306797	-0.03612356	-1.991922e-13	-9.375023e-12
	-2.432766e-13	1.013595e-11	0.002108461	0.005207671	-1.991905e-13	-9.375023e-12	0.01118466	-0.03537575
3e+07	-0.001038583	-0.05387072	-8.348915e-12	-4.155164e-12	0.004123507	0.007087286	-1.544253e-11	1.891109e-11
	-8.348914e-12	-4.155164e-12	-0.0006530506	-0.05348178	-5.518889e-12	-2.635594e-11	0.004163322	0.006952211
	0.004123506	0.007087283	-5.518889e-12	-2.635594e-11	0.0009626403	-0.05454032	-1.860233e-11	-1.635993e-11
	-1.544253e-11	1.891109e-11	0.004163322	0.006952217	-1.860233e-11	-1.635993e-11	-0.000662638	-0.0534122
4e+07	-0.01857916	-0.06721084	-2.935973e-11	1.101881e-12	0.006646722	0.00800708	-3.669283e-11	3.66349e-11
	-2.935973e-11	1.101881e-12	-0.0181137	-0.0668606	-2.345407e-11	-3.543734e-11	0.006607144	0.007900338
	0.006646724	0.008007081	-2.345407e-11	-3.543734e-11	-0.0167401	-0.06818713	-4.916017e-11	-1.322796e-11
	-3.669283e-11	3.66349e-11	0.006607139	0.007900337	-4.916017e-11	-1.322795e-11	-0.01811549	-0.06677586
5e+07	-0.03944742	-0.07429689	-5.419288e-11	1.860477e-11	0.009250757	0.008040629	-5.881233e-11	6.708758e-11
	-5.419288e-11	1.860477e-11	-0.03895141	-0.07398402	-4.8829e-11	-3.731911e-11	0.009147905	0.007989069
	0.009250759	0.008040629	-4.8829e-11	-3.731911e-11	-0.03782413	-0.07552617	-8.579226e-11	7.171055e-12
	-5.881233e-11	6.708758e-11	0.009147901	0.007989068	-8.579226e-11	7.171056e-12	-0.03894756	-0.07388452
6e+07	-0.06128858	-0.074497	-7.632307e-11	5.082556e-11	0.01164383	0.007235527	-7.512264e-11	1.11175e-10
	-7.632307e-11	5.082556e-11	-0.06079209	-0.07420556	-7.85902e-11	-2.867325e-11	0.01149923	0.007257892
	0.01164383	0.007235528	-7.85902e-11	-2.867325e-11	-0.05992238	-0.07592276	-1.193505e-10	4.840101e-11
	-7.512264e-11	1.11175e-10	0.01149923	0.007257891	-1.193505e-10	4.840101e-11	-0.06078339	-0.07409039
7e+07	-0.08180254	-0.06799256	-8.796108e-11	9.694423e-11	0.01357616	0.005728063	-7.849773e-11	1.665461e-10
	-8.796108e-11	9.694423e-11	-0.08131877	-0.06770353	-1.082214e-10	-7.491048e-12	0.01341504	0.005834609
	0.01357615	0.005728065	-1.082214e-10	-7.491048e-12	-0.08072204	-0.06955516	-1.389334e-10	1.094921e-10
	-7.849773e-11	1.665461e-10	0.01341505	0.005834605	-1.389334e-10	1.094921e-10	-0.08130455	-0.06757156
8e+07	-0.09895549	-0.05567137	-8.149783e-11	1.522455e-10	0.01486378	0.003719422	-6.276083e-11	2.274288e-10
	-8.149781e-11	1.522455e-10	-0.09848587	-0.05537041	-1.322687e-10	2.627913e-11	0.0147129	0.003911514
	0.01486377	0.003719426	-1.322687e-10	2.627913e-11	-0.09817731	-0.05730981	-1.338487e-10	1.84137e-10
	-6.276083e-11	2.274288e-10	0.01471291	0.003911507	-1.338487e-10	1.84137e-10	-0.09846419	-0.05522107
9e+07	-0.1111543	-0.03898026	-5.110861e-11	2.081098e-10	0.01540036	0.001448216	-2.40385e-11	2.849607e-10
	-5.110859e-11	2.081099e-10	-0.1106961	-0.03866206	-1.451578e-10	7.03888e-11	0.01528577	0.001718445
	0.01540036	0.001448219	-1.451578e-10	7.03888e-11	-0.1106851	-0.040634	-9.57998e-11	2.606508e-10
	-2.40385e-11	2.849607e-10	0.01528578	0.001718439	-9.579981e-11	2.606508e-10	-0.1106644	-0.03849598
1e+08	-0.1173595	-0.01974622	7.676418e-12	2.520045e-10	0.01515956	-0.0008356515	3.961857e-11	3.275289e-10
	7.676418e-12	2.520045e-10	-0.1169266	-0.01941648	-1.413582e-10	1.216361e-10	0.0151069	-0.0005023354
	0.01515956	-0.0008356517	-1.413582e-10	1.216361e-10	-0.1172084	-0.02135734	-1.83842e-11	3.225605e-10
	3.961857e-11	3.275289e-10	0.0151069	-0.0005023354	-1.83842e-11	3.225605e-10	-0.1168825	-0.01923581
1.1e+08	-0.1171989	-4.637001e-05	7.932624e-11	2.575229e-10	0.01418742	-0.002894949	9.89413e-11	3.413644e-10
	7.932624e-11	2.575229e-10	-0.1167765	0.0003543929	-1.152896e-10	1.514368e-10	0.01421038	-0.002536255
	0.01418742	-0.002894949	-1.152896e-10	1.514368e-10	-0.117337	-0.001501328	7.348611e-11	3.321305e-10
	9.89413e-11	3.413644e-10	0.01421038	-0.002536255	7.348611e-11	3.321305e-10	-0.1167179	0.000546531
1.2e+08	-0.1109419	0.01819017	1.331717e-10	2.480474e-10	0.01259609	-0.004516979	1.559497e-10	3.38319e-10
	1.331717e-10	2.480474e-10	-0.1104794	0.01863256	-9.085245e-11	1.693911e-10	0.01268915	-0.004158043
	0.01259609	-0.004516979	-9.085245e-11	1.693911e-10	-0.1112937	0.01693281	1.469725e-10	3.198481e-10
	1.559497e-10	3.38319e-10	0.01268915	-0.004158043	1.469725e-10	3.198481e-10	-0.1104046	0.01883192
1.3e+08	-0.09939952	0.03315591	1.806988e-10	2.224635e-10	0.01055482	-0.005535019	2.0892e-10	3.159904e-10
	1.806988e-10	2.224635e-10	-0.0988866	0.03359707	-6.351119e-11	1.810718e-10	0.01070857	-0.005198971
	0.01055482	-0.00553502	-6.351119e-11	1.810718e-10	-0.09990303	0.03211979	2.130195e-10	2.855504e-10
	2.0892e-10	3.159904e-10	0.01070857	-0.005198971	2.130195e-10	2.855504e-10	-0.09879607	0.03379826
1.4e+08	-0.08390419	0.0433937	2.18159e-10	1.796274e-10	0.008274177	-0.005838955	2.504443e-10	2.762091e-10
	2.18159e-10	1.796274e-10	-0.08335605	0.04379116	-3.459289e-11	1.845505e-10	0.008472418	-0.005545517
	0.008274177	-0.005838956	-3.459289e-11	1.845505e-10	-0.08449998	0.04258902	2.65899e-10	2.276756e-10
	2.504443e-10	2.762091e-10	0.008472418	-0.005545517	2.65899e-10	2.276756e-10	-0.08325222	0.04398847
1.5e+08	-0.06617011	0.04793545	2.396417e-10	1.239434e-10	0.005990927	-0.005386171	2.745801e-10	2.228582e-10
	2.396417e-10	1.239434e-10	-0.06562294	0.04825631	-7.521403e-12	1.792615e-10	0.00621131	-0.005149265
	0.005990927	-0.005386171	-7.521403e-12	1.792615e-10	-0.06680145	0.04735977	2.974753e-10	1.519888e-10
	2.745801e-10	2.228582e-10	0.00621131	-0.005149265	2.974753e-10	1.519888e-10	-0.06551075	0.04844471
1.6e+08	-0.04812728	0.04639767	2.404266e-10	6.109164e-11	0.003948206	-0.004209493	2.765609e-10	1.621925e-10
	2.404266e-10	6.109164e-11	-0.04763245	0.04662595	1.434377e-11	1.662591e-10	0.004164126	-0.004035131
	0.003948206	-0.004209493	1.434377e-11	1.662591e-10	-0.04874183	0.04603647	3.012618e-10	6.613333e-11
	2.765609e-10	1.621925e-10	0.004164126	-0.004035131	3.012618e-10	6.613333e-11	-0.04751895	0.04680217
1.7e+08	-0.03173037	0.0390254	2.180416e-10	-1.586381e-12	0.002371507	-0.0024196	2.54039e-10	1.020465e-10
	2.180416e-10	-1.586381e-12	-0.0313468	0.03916713	2.837961e-11	1.479403e-10	0.002554816	-0.002304478
	0.002371507	-0.0024196	2.837961e-11	1.479403e-10	-0.03228259	0.03885302	2.73839e-10	-1.998134e-11
	2.54039e-10	1.020465e-10	0.002554816	-0.002304478	2.73839e-10	-1.998134e-11	-0.03124046	0.03933049
1.8e+08	-0.01875747	0.02667495	1.72805e-10	-5.601823e-11	0.001442246	-0.0001989466	2.075531e-10	5.087479e-11
	1.72805e-10	-5.601823e-11	-0.01854262	0.02676029	3.320981e-11	1.275578e-10	0.001566476	-0.000130033
	0.001442246	-0.0001989466	3.320981e-11	1.275578e-10	-0.01921106	0.02665636	2.155789e-10	-9.546623e-11
	2.075531e-10	5.087479e-11	0.001566476	-0.000130033	2.155789e-10	-9.546623e-11	-0.01845224	0.02691326
1.9e+08	-0.01061903	0.0107307	1.079715e-10	-9.450822e-11	0.00127277	0.002214801	1.406117e-10	1.667131e-11
	1.079715e-10	-9.450822e-11	-0.01061952	0.01081274	2.891858e-11	1.085482e-10	0.001316474	0.002259536
	0.00127277	0.002214801	2.891858e-11	1.085482e-10	-0.0109492	0.01082413	1.308173e-10	-1.499641e-10
	1.406117e-10	1.667131e-11	0.001316474	0.002259536	1.308173e-10	-1.499641e-10	-0.01055307	0.01096103
2e+08	-0.008200985	-0.007040465	2.941708e-11	-1.108302e-10	0.001887968	0.004555554	5.937042e-11	5.929122e-12
	2.941708e-11	-1.108302e-10	-0.008444067	-0.006890343	1.690212e-11	9.385929e-11	0.001837755	0.004605233
	0.001887968	0.004555554	1.690212e-11	9.385929e-11	-0.008395832	-0.006880112	2.739937e-11	-1.751198e-10
	5.937042e-11	5.929122e-12	0.001837755	0.004605233	2.739937e-11	-1.751198e-10	-0.008407446	-0.006738159
2.1e+08	-0.01176474	-0.02468329	-5.508657e-11	-1.010996e-10	0.00321838	0.006562541	-2.804465e-11	2.279792e-11
	-5.508657e-11	-1.010995e-10	-0.01225173	-0.02438306	-5.823797e-13	8.547531e-11	0.003071235	0.006650429
	0.00321838	0.006562541	-5.823797e-13	8.547531e-11	-0.01182555	-0.02450057	-8.431892e-11	-1.657324e-10
	-2.804465e-11	2.279792e-11	0.003071235	0.006650429	-8.431892e-11	-1.657324e-10	-0.01224778	-0.02421634
2.2e+08	-0.02092033	-0.04027313	-1.368631e-10	-6.426813e-11	0.005107634	0.008015199	-1.124555e-10	6.855162e-11
	-1.368631e-10	-6.426813e-11	-0.02162316	-0.03973994	-2.100469e-11	8.42659e-11	0.004872135	0.008174991
	0.005107634	0.008015199	-2.100469e-11	8.42659e-11	-0.02086055	-0.04010829	-1.928096e-10	-1.203888e-10
	-1.124555e-10	6.855162e-11	0.004872135	0.008174991	-1.928096e-10	-1.203888e-10	-0.02165096	-0.03954712
2.3e+08	-0.03467775	-0.05213052	-2.073836e-10	-2.186431e-12	0.007333589	0.00876241	-1.846495e-10	1.414157e-10
	-2.073836e-10	-2.186431e-12	-0.03553922	-0.05129136	-4.207898e-11	9.016359e-11	0.007029782	0.009024182
	0.007333589	0.00876241	-4.207898e-11	9.016359e-11	-0.03452084	-0.05201621	-2.867714e-10	-4.151591e-11
	-1.846495e-10	1.414157e-10	0.007029782	0.009024182	-2.867714e-10	-4.151591e-11	-0.03559386	-0.05106131
2.4e+08	-0.05156872	-0.05900205	-2.591938e-10	8.071071e-11	0.009639144	0.008740482	-2.36361e-10	2.367377e-10
	-2.591938e-10	8.071071e-11	-0.05250664	-0.05780405	-6.204427e-11	1.025527e-10	0.009296983	0.00912679
	0.009639144	0.008740482	-6.204427e-11	1.025527e-10	-0.0513451	-0.05896113	-3.563432e-10	6.505969e-11
	-2.36361e-10	2.367377e-10	0.009296983	0.00912679	-3.563432e-10	6.505969e-11	-0.05257944	-0.05752745
2.5e+08	-0.06981972	-0.06018528	-2.865979e-10	1.7797e-10	0.01176647	0.00797715	-2.61116e-10	3.474484e-10
	-2.865979e-10	1.7797e-10	-0.0707346	-0.05860402	-7.964469e-11	1.206814e-10	0.01142293	0.008499813
	0.01176647	0.00797715	-7.964469e-11	1.206814e-10	-0.06956332	-0.06022964	-3.939865e-10	1.908698e-10
	-2.61116e-10	3.474484e-10	0.01142293	0.008499813	-3.939865e-10	1.908698e-10	-0.07081381	-0.05827468
2.6e+08	-0.08755096	-0.05558525	-2.860763e-10	2.817894e-10	0.01348823	0.006582393	-2.548692e-10	4.647375e-10
	-2.860763e-10	2.817894e-10	-0.08833627	-0.05363013	-9.387372e-11	1.439091e-10	0.01318343	0.007240395
	0.01348823	0.006582393	-9.387372e-11	1.439091e-10	-0.08729579	-0.05571591	-3.95014e-10	3.256809e-10
	-2.548692e-10	4.647375e-10	0.01318343	0.007240395	-3.95014e-10	3.256809e-10	-0.08840826	-0.0532459
2.7e+08	-0.1029751	-0.04570227	-2.564806e-10	3.836825e-10	0.01463123	0.00472964	-2.164134e-10	5.788453e-10
	-2.564806e-10	3.836825e-10	-0.1035289	-0.04341805	-1.036469e-10	1.716806e-10	0.01440388	0.005508473
	0.01463123	0.00472964	-1.036469e-10	1.716806e-10	-0.1027522	-0.04591032	-3.578359e-10	4.583571e-10
	-2.164134e-10	5.788453e-10	0.01440388	0.005508473	-3.578359e-10	4.583571e-10	-0.1035796	-0.04298145
2.8e+08	-0.1145735	-0.0315595	-1.990847e-10	4.751007e-10	0.01509024	0.002632132	-1.475541e-10	6.799343e-10
	-1.990847e-10	4.751007e-10	-0.1148106	-0.02902385	-1.076029e-10	2.032461e-10	0.01497317	0.003504702
	0.01509024	0.002632132	-1.076029e-10	2.032461e-10	-0.1144085	-0.03182788	-2.840264e-10	5.776586e-10
	-1.475541e-10	6.799343e-10	0.01497317	0.003504702	-2.840264e-10	5.776586e-10	-0.1148269	-0.02854204
2.9e+08	-0.1212356	-0.01458465	-1.175374e-10	5.480221e-10	0.01483278	0.0005187875	-5.304374e-11	7.589722e-10
	-1.175374e-10	5.480221e-10	-0.1210976	-0.01190188	-1.041794e-10	2.372646e-10	0.0148489	0.001447819
	0.01483278	0.0005187875	-1.041794e-10	2.372646e-10	-0.1211471	-0.01489024	-1.782752e-10	6.730002e-10
	-5.304374e-11	7.589722e-10	0.0148489	0.001447819	-1.782752e-10	6.730002e-10	-0.1210694	-0.01138618
3e+08	-0.1223524	0.003538376	-1.773403e-11	5.955394e-10	0.01389678	-0.001387609	5.971672e-11	8.085797e-10
	-1.773403e-11	5.955394e-10	-0.1218161	0.006246861	-9.199941e-11	2.715028e-10	0.01405599	-0.0004459156
	0.01389678	-0.001387609	-9.199941e-11	2.715028e-10	-0.1223506	0.00322232	-4.823899e-11	7.352207e-10
	5.971672e-11	8.085797e-10	0.01405599	-0.0004459156	-4.823899e-11	7.352207e-10	-0.1217371	0.006781998
3.1e+08	-0.1178618	0.02103292	9.247501e-11	6.125305e-10	0.01238349	-0.002888818	1.812077e-10	8.237942e-10
	9.247501e-11	6.125305e-10	-0.1169442	0.02364058	-7.044842e-11	3.028428e-10	0.01268095	-0.001980266
	0.01238349	-0.002888818	-7.044842e-11	3.028428e-10	-0.1179485	0.02073434	9.575996e-11	7.573948e-10
	1.812077e-10	8.237942e-10	0.01268095	-0.001980266	9.575996e-11	7.573948e-10	-0.116813	0.02417896
3.2e+08	-0.1082465	0.03619563	2.037271e-10	5.961533e-10	0.01044739	-0.003826371	3.005408e-10	8.026855e-10
	2.037271e-10	5.961533e-10	-0.1070055	0.03858396	-4.024432e-11	3.275846e-10	0.01086337	-0.002993861
	0.01044739	-0.003826371	-4.024432e-11	3.275846e-10	-0.108415	0.03594123	2.412688e-10	7.356739e-10
	3.005408e-10	8.026855e-10	0.01086337	-0.002993861	2.412688e-10	7.356739e-10	-0.1068261	0.03910932
3.3e+08	-0.09448681	0.04755401	3.055211e-10	5.463145e-10	0.008283787	-0.004094268	4.06402e-10	7.467618e-10
	3.055211e-10	5.463145e-10	-0.09301777	0.04962573	-3.883363e-12	3.421785e-10	0.008785078	-0.003373007
	0.008283787	-0.004094268	-3.883363e-12	3.421785e-10	-0.09472269	0.04736697	3.745659e-10	6.700725e-10
	4.06402e-10	7.467618e-10	0.008785078	-0.003373007	3.745659e-10	6.700725e-10	-0.0927994	0.05012359
3.4e+08	-0.0779707	0.05400559	3.873718e-10	4.663977e-10	0.006113649	-0.003649369	4.881319e-10	6.610812e-10
	3.873718e-10	4.663977e-10	-0.07639869	0.05569647	3.462351e-11	3.441948e-10	0.006656459	-0.003062706
	0.006113649	-0.003649369	3.462351e-11	3.441948e-10	-0.07825327	0.05390348	4.820151e-10	5.649797e-10
	4.881319e-10	6.610812e-10	0.006656459	-0.003062706	4.820151e-10	5.649797e-10	-0.07615519	0.05615583
3.5e+08	-0.06036619	0.05492778	4.398971e-10	3.632417e-10	0.004165102	-0.002518695	5.36881e-10	5.540344e-10
	4.398971e-10	3.632417e-10	-0.05883479	0.05621589	7.015005e-11	3.330562e-10	0.004699246	-0.002075026
	0.004165102	-0.002518695	7.015005e-11	3.330562e-10	-0.06067035	0.0549209	5.512219e-10	4.292381e-10
	5.36881e-10	5.540344e-10	0.004699246	-0.002075026	5.512219e-10	4.292381e-10	-0.05858318	0.05663052
3.6e+08	-0.04346297	0.05024781	4.560667e-10	2.468053e-10	0.002651509	-0.0008018177	5.466824e-10	4.367126e-10
	4.560667e-10	2.468053e-10	-0.04211991	0.05115877	9.756978e-11	3.105564e-10	0.003125452	-0.0004929248
	0.002651509	-0.0008018177	9.756978e-11	3.105564e-10	-0.04376169	0.05033805	5.728013e-10	2.759118e-10
	5.466824e-10	4.367126e-10	0.003125452	-0.0004929248	5.728013e-10	2.759118e-10	-0.04187881	0.05152817
3.7e+08	-0.02899453	0.04046191	4.323445e-10	1.293208e-10	0.001747383	0.00133403	5.153185e-10	3.219122e-10
	4.323445e-10	1.293208e-10	-0.02797585	0.04106936	1.129321e-10	2.805507e-10	0.002113687	0.00153297
	0.001747383	0.00133403	1.129321e-10	2.805507e-10	-0.02926162	0.04064251	5.420814e-10	1.210918e-10
	5.153185e-10	3.219122e-10	0.002113687	0.00153297	5.420814e-10	1.210918e-10	-0.02776355	0.04139914
3.8e+08	-0.0184573	0.02659639	3.694994e-10	2.397575e-11	0.001565124	0.003667993	4.448382e-10	2.228342e-10
	3.694994e-10	2.397575e-11	-0.0178716	0.02701703	1.142685e-10	2.482155e-10	0.001785764	0.003796625
	0.001565124	0.003667993	1.142685e-10	2.482155e-10	-0.0186702	0.02685264	4.600805e-10	-1.788236e-11
	4.448382e-10	2.228342e-10	0.001785764	0.003796625	4.600805e-10	-1.788236e-11	-0.01770408	0.02731862
3.9e+08	-0.01294717	0.01010894	2.728499e-10	-5.67244e-11	0.002136898	0.005948985	3.415939e-10	1.51611e-10
	2.728499e-10	-5.67244e-11	-0.01286187	0.01049236	1.019474e-10	2.189716e-10	0.00218787	0.006058296
	0.002136898	0.005948985	1.019474e-10	2.189716e-10	-0.01308944	0.01041983	3.338171e-10	-1.245961e-10
	3.415939e-10	1.51611e-10	0.00218787	0.006058296	3.338171e-10	-1.245961e-10	-0.01275097	0.01078212
4e+08	-0.01303534	-0.007262724	1.518176e-10	-1.026281e-10	0.003406156	0.007926169	2.157383e-10	1.17855e-10
	1.518176e-10	-1.026281e-10	-0.0134668	-0.006748738	7.843527e-11	1.974042e-10	0.003280825	0.008073572
	0.003406156	0.007926169	7.843527e-11	1.974042e-10	-0.01309836	-0.006922081	1.756988e-10	-1.857692e-10
	2.157383e-10	1.17855e-10	0.003280825	0.008073572	1.756988e-10	-1.857692e-10	-0.01341869	-0.00645101
4.1e+08	-0.01870197	-0.02368888	1.881959e-11	-1.073179e-10	0.005231914	0.009381836	8.020636e-11	1.274456e-10
	1.881959e-11	-1.073179e-10	-0.01961096	-0.02287594	4.757127e-11	1.864974e-10	0.004942651	0.009625257
	0.005231914	0.009381836	4.757127e-11	1.864974e-10	-0.01868576	-0.02334429	2.039419e-12	-1.930649e-10
	8.020636e-11	1.274456e-10	0.004942651	0.009625257	2.039419e-12	-1.930649e-10	-0.01962519	-0.02254897
4.2e+08	-0.029339	-0.03744859	-1.122972e-10	-6.892277e-11	0.00740618	0.01016059	-5.069757e-11	1.817492e-10
	-1.122972e-10	-6.892277e-11	-0.03063228	-0.0361863	1.362144e-11	1.873813e-10	0.006983973	0.01055216
	0.00740618	0.01016059	1.362144e-11	1.873813e-10	-0.02925178	-0.03712385	-1.690217e-10	-1.441389e-10
	-5.069757e-11	1.817492e-10	0.006983973	0.01055216	-1.690217e-10	-1.441389e-10	-0.03070148	-0.03580953
4.3e+08	-0.04382204	-0.04711676	-2.279679e-10	9.765842e-12	0.009681702	0.01018921	-1.62907e-10	2.773988e-10
	-2.279679e-10	9.765842e-12	-0.04536025	-0.04528991	-1.956428e-11	1.995946e-10	0.009173649	0.01076928
	0.009681702	0.01018921	-1.956428e-11	1.995946e-10	-0.04367892	-0.04683107	-3.197796e-10	-4.276141e-11
	-1.62907e-10	2.773988e-10	0.009173649	0.01076928	-3.197796e-10	-4.276141e-11	-0.04547058	-0.04484578
4.4e+08	-0.06064082	-0.05171277	-3.164466e-10	1.218274e-10	0.01180472	0.009483639	-2.441614e-10	4.066614e-10
	-3.164466e-10	1.218274e-10	-0.06225187	-0.04925527	-4.903666e-11	2.21686e-10	0.01126958	0.0102758
	0.01180472	0.009483639	-4.903666e-11	2.21686e-10	-0.06046166	-0.0514789	-4.349765e-10	1.019171e-10
	-2.441614e-10	4.066614e-10	0.01126958	0.0102758	-4.349765e-10	1.019171e-10	-0.06238419	-0.04873122
4.5e+08	-0.07806876	-0.05079372	-3.689381e-10	2.57202e-10	0.01354657	0.008142801	-2.853174e-10	5.583151e-10
	-3.689381e-10	2.57202e-10	-0.07956512	-0.0476973	-7.277806e-11	2.518634e-10	0.01304881	0.009150671
	0.01354657	0.008142801	-7.277806e-11	2.518634e-10	-0.07787566	-0.0506171	-5.032681e-10	2.766949e-10
	-2.853174e-10	5.583151e-10	0.01304881	0.009150671	-5.032681e-10	2.766949e-10	-0.07969678	-0.04708737
4.6e+08	-0.09434813	-0.04448452	-3.802403e-10	4.038887e-10	0.01472892	0.006331853	-2.812488e-10	7.188844e-10
	-3.802403e-10	4.038887e-10	-0.09554618	-0.04080147	-8.937657e-11	2.884165e-10	0.01433187	0.007537912
	0.01472892	0.006331853	-8.937657e-11	2.884165e-10	-0.0941629	-0.04436328	-5.180307e-10	4.659104e-10
	-2.812488e-10	7.188844e-10	0.01433187	0.007537912	-5.180307e-10	4.659104e-10	-0.09565332	-0.04010722
4.7e+08	-0.1078684	-0.03344724	-3.489414e-10	5.491358e-10	0.01523977	0.004259179	-2.312666e-10	8.740445e-10
	-3.489414e-10	5.491358e-10	-0.1086077	-0.02928668	-9.758653e-11	3.297558e-10	0.01499877	0.005625985
	0.01523977	0.004259179	-9.758653e-11	3.297558e-10	-0.1077103	-0.03337294	-4.775798e-10	6.53002e-10
	-2.312666e-10	8.740445e-10	0.01499877	0.005625985	-4.775798e-10	6.53002e-10	-0.1086677	-0.02851732
4.8e+08	-0.1173195	-0.01879894	-2.772953e-10	6.80492e-10	0.01503991	0.002151733	-1.390747e-10	1.010018e-09
