!$
! Info: Touchstone file created by Circ.  Input file=Tx_12in_Rx_85ohms_TxVia_35mils_RxVia_45mils.circ
!$
# Hz S RI R 50
0	0.009692789	1.470795e-25	7.376288e-10	1.735784e-27	8.37267e-05	1.808819e-23	3.644282e-10	3.999723e-28
	7.376288e-10	1.735764e-27	0.009691091	1.802756e-25	2.491172e-09	6.540757e-27	8.358992e-05	2.191786e-23
	8.354102e-05	1.801226e-23	2.491172e-09	6.540766e-27	0.009703444	1.470539e-25	7.397751e-10	1.857608e-27
	3.644281e-10	3.999663e-28	8.174192e-05	2.202579e-23	7.397755e-10	1.857625e-27	0.009704202	1.689123e-25
1e+07	0.01213423	-0.01153978	9.645596e-10	1.346256e-09	0.0004504062	0.002199694	6.497478e-10	6.263085e-10
	9.645596e-10	1.346256e-09	0.01215953	-0.01154669	3.429441e-09	6.906808e-09	0.0004466586	0.00220586
	0.0004504008	0.002199696	3.429441e-09	6.906808e-09	0.01219072	-0.01151944	9.516209e-10	1.373404e-09
	6.497478e-10	6.263084e-10	0.0004465982	0.00220587	9.516208e-10	1.373404e-09	0.01213546	-0.01153156
2e+07	0.01084101	-0.02606778	1.327579e-09	2.296809e-09	0.001313594	0.004168741	1.028699e-09	9.422212e-10
	1.327579e-09	2.296809e-09	0.0108158	-0.02608405	4.140124e-09	1.22842e-08	0.001299592	0.004184302
	0.001313595	0.004168745	4.140124e-09	1.22842e-08	0.01089417	-0.02604272	1.265922e-09	2.362449e-09
	1.028699e-09	9.422213e-10	0.001299585	0.004184337	1.265922e-09	2.362449e-09	0.01080204	-0.02604274
3e+07	0.004765317	-0.04083192	1.652775e-09	3.126842e-09	0.00261413	0.005827969	1.447785e-09	1.079015e-09
	1.652775e-09	3.126842e-09	0.004671086	-0.04082763	4.307902e-09	1.76676e-08	0.002585075	0.005858422
	0.002614132	0.005827969	4.307902e-09	1.76676e-08	0.004820296	-0.04079461	1.519411e-09	3.259045e-09
	1.447785e-09	1.079016e-09	0.002585075	0.005858428	1.519411e-09	3.259045e-09	0.004664054	-0.04077033
4e+07	-0.005190163	-0.05383381	1.964818e-09	3.851264e-09	0.004257754	0.007084072	1.861039e-09	1.039822e-09
	1.964818e-09	3.851264e-09	-0.005365099	-0.05378024	4.235746e-09	2.32092e-08	0.004211128	0.007136587
	0.004257754	0.00708407	4.235746e-09	2.32092e-08	-0.005130195	-0.05378483	1.749241e-09	4.085964e-09
	1.861039e-09	1.039822e-09	0.004211122	0.007136585	1.749242e-09	4.085964e-09	-0.005367936	-0.05370918
5e+07	-0.01818862	-0.06406555	2.239791e-09	4.469506e-09	0.006125695	0.007869731	2.208347e-09	8.305475e-10
	2.239791e-09	4.469506e-09	-0.01844678	-0.06393115	4.04565e-09	2.896489e-08	0.00606173	0.007952344
	0.006125695	0.00786973	4.04565e-09	2.896489e-08	-0.01812191	-0.06400697	1.945878e-09	4.844699e-09
	2.208347e-09	8.305474e-10	0.006061726	0.007952343	1.945878e-09	4.844699e-09	-0.01844749	-0.06384658
6e+07	-0.03331152	-0.07086369	2.446803e-09	4.991465e-09	0.008087439	0.008152016	2.434531e-09	4.792692e-10
	2.446803e-09	4.991465e-09	-0.03364493	-0.07061674	3.846084e-09	3.497583e-08	0.008009289	0.008272684
	0.00808744	0.008152016	3.846084e-09	3.497583e-08	-0.03323751	-0.07079794	2.091983e-09	5.542489e-09
	2.434531e-09	4.792692e-10	0.008009291	0.008272683	2.091983e-09	5.542489e-09	-0.03364491	-0.07051781
7e+07	-0.04957595	-0.07384827	2.554278e-09	5.436006e-09	0.0100116	0.007933341	2.496172e-09	2.869077e-11
	2.554278e-09	5.436006e-09	-0.04996643	-0.07346025	3.751977e-09	4.125027e-08	0.009925209	0.008099017
	0.0100116	0.007933341	3.751977e-09	4.125027e-08	-0.04949506	-0.07377765	2.167767e-09	6.19209e-09
	2.496172e-09	2.869073e-11	0.009925216	0.008099013	2.167767e-09	6.19209e-09	-0.04996625	-0.07334548
8e+07	-0.06598182	-0.07290502	2.53251e-09	5.832789e-09	0.01177544	0.007249122	2.363806e-09	-4.681436e-10
	2.53251e-09	5.832789e-09	-0.06640237	-0.07235352	3.876368e-09	4.775739e-08	0.01168919	0.007464905
	0.01177544	0.007249121	3.876368e-09	4.775739e-08	-0.06589519	-0.07283139	2.153228e-09	6.814284e-09
	2.363806e-09	-4.681437e-10	0.0116892	0.007464898	2.153227e-09	6.814285e-09	-0.06640167	-0.0722212
9e+07	-0.08156529	-0.06816804	2.357885e-09	6.223604e-09	0.01327291	0.006163139	2.023794e-09	-9.514462e-10
	2.357885e-09	6.223604e-09	-0.08198211	-0.06743908	4.31878e-09	5.44283e-08	0.013197	0.006431551
	0.01327291	0.006163138	4.31878e-09	5.44283e-08	-0.08147446	-0.06809261	2.031864e-09	7.439546e-09
	2.023795e-09	-9.514463e-10	0.01319701	0.006431545	2.031864e-09	7.439547e-09	-0.08197972	-0.06728765
1e+08	-0.09545254	-0.05999608	2.013032e-09	6.65916e-09	0.01442279	0.004762436	1.480116e-09	-1.358012e-09
	2.013032e-09	6.65916e-09	-0.09582739	-0.0590857	5.152817e-09	6.115874e-08	0.01436847	0.005082858
	0.01442279	0.004762436	5.152817e-09	6.115874e-08	-0.09535894	-0.05991925	1.790055e-09	8.105279e-09
	1.480116e-09	-1.358012e-09	0.01436847	0.005082858	1.790055e-09	8.105279e-09	-0.09582164	-0.05891419
1.1e+08	-0.1068947	-0.04892402	1.538105e-09	7.181993e-09	0.01516558	0.003130931	7.563685e-10	-1.631748e-09
	1.538105e-09	7.181993e-09	-0.1071873	-0.04784156	6.417676e-09	6.783392e-08	0.01514427	0.003498971
	0.01516558	0.003130931	6.417676e-09	6.783392e-08	-0.1067994	-0.04884832	1.468333e-09	8.842088e-09
	7.563685e-10	-1.631748e-09	0.01514427	0.003498971	1.468333e-09	8.842088e-09	-0.1071753	-0.04764931
1.2e+08	-0.1152907	-0.03564659	9.508177e-10	7.869786e-09	0.01545406	0.001387854	-1.153934e-10	-1.719876e-09
	9.508177e-10	7.869786e-09	-0.1154651	-0.03441145	8.093419e-09	7.434423e-08	0.01547587	0.00179611
	0.01545406	0.001387854	8.093419e-09	7.434423e-08	-0.1151971	-0.03557131	1.07656e-09	9.707304e-09
	-1.153934e-10	-1.719876e-09	0.01547587	0.00179611	1.07656e-09	9.707304e-09	-0.1154436	-0.03419852
1.3e+08	-0.1202457	-0.02097003	2.975917e-10	8.762704e-09	0.01528573	-0.0003529643	-1.08554e-09	-1.578786e-09
	2.975917e-10	8.762704e-09	-0.1202708	-0.01961195	1.014239e-08	8.056205e-08	0.01535887	8.49843e-05
	0.01528573	-0.0003529642	1.014239e-08	8.056205e-08	-0.1201561	-0.02089358	6.51461e-10	1.072948e-08
	-1.08554e-09	-1.578786e-09	0.01535887	8.498432e-05	6.51461e-10	1.072948e-08	-0.1202366	-0.01937961
1.4e+08	-0.1215643	-0.005756522	-3.546336e-10	9.883764e-09	0.0146804	-0.0019837	-2.095194e-09	-1.178606e-09
	-3.546336e-10	9.883764e-09	-0.1214167	-0.004314429	1.248865e-08	8.637487e-08	0.01481025	-0.001529154
	0.0146804	-0.0019837	1.248865e-08	8.637487e-08	-0.12148	-0.005676951	2.473453e-10	1.192262e-08
	-2.095194e-09	-1.178606e-09	0.01481025	-0.001529154	2.473453e-10	1.192262e-08	-0.1213666	-0.004065248
1.5e+08	-0.1192569	0.009120737	-9.292486e-10	1.124257e-08	0.01368045	-0.003405454	-3.072549e-09	-5.028265e-10
	-9.292486e-10	1.124257e-08	-0.1189239	0.01060093	1.50222e-08	9.169432e-08	0.01386881	-0.002949168
	0.01368045	-0.003405454	1.50222e-08	9.169432e-08	-0.1191784	0.009205429	-7.424073e-11	1.32905e-08
	-3.072549e-09	-5.028265e-10	0.01386881	-0.002949168	-7.424073e-11	1.32905e-08	-0.1188555	0.01086316
1.6e+08	-0.1135342	0.02282283	-1.348095e-09	1.281558e-08	0.01234854	-0.004532113	-3.944103e-09	4.448867e-10
	-1.348095e-09	1.281558e-08	-0.1130158	0.02429121	1.760706e-08	9.646622e-08	0.0125931	-0.004089683
	0.01234854	-0.004532113	1.760706e-08	9.646622e-08	-0.1134615	0.02291454	-2.518013e-10	1.480777e-08
	-3.944103e-09	4.448867e-10	0.0125931	-0.004089683	-2.518013e-10	1.480777e-08	-0.1129278	0.02456172
1.7e+08	-0.104793	0.03458787	-1.542595e-09	1.455317e-08	0.0107647	-0.005293899	-4.636307e-09	1.641884e-09
	-1.542595e-09	1.455317e-08	-0.104103	0.03599398	2.009275e-08	1.006773e-07	0.01105881	-0.004880508
	0.0107647	-0.005293899	2.009275e-08	1.006773e-07	-0.1047257	0.0346883	-2.340107e-10	1.642732e-08
	-4.636307e-09	1.641884e-09	0.01105881	-0.004880508	-2.340107e-10	1.642732e-08	-0.1039955	0.03626747
1.8e+08	-0.09359385	0.0437698	-1.462787e-09	1.638422e-08	0.00902297	-0.00564062	-5.080221e-09	3.046074e-09
	-1.462787e-09	1.638422e-08	-0.09275988	0.04506653	2.23271e-08	1.043581e-07	0.009355768	-0.005269828
	0.00902297	-0.00564062	2.23271e-08	1.043581e-07	-0.09353101	0.04388044	1.236314e-11	1.808515e-08
	-5.080221e-09	3.046074e-09	0.009355768	-0.005269828	1.236314e-11	1.808515e-08	-0.09263465	0.0453376
1.9e+08	-0.08063072	0.04987213	-1.083978e-09	1.822397e-08	0.007227373	-0.005544587	-5.216532e-09	4.596502e-09
	-1.083978e-09	1.822397e-08	-0.07969357	0.05101945	2.416924e-08	1.075815e-07	0.007584196	-0.005227163
	0.007227373	-0.005544587	2.416924e-08	1.075815e-07	-0.08057129	0.04999417	4.970007e-10	1.970801e-08
	-5.216532e-09	4.596502e-09	0.007584196	-0.005227163	4.970007e-10	1.970801e-08	-0.07955403	0.05128315
2e+08	-0.06669441	0.05257495	-4.098524e-10	1.998374e-08	0.005487076	-0.005003001	-5.000776e-09	6.215213e-09
	-4.098524e-10	1.998374e-08	-0.06570602	0.05354355	2.550135e-08	1.104582e-07	0.005850232	-0.004745885
	0.005487076	-0.005003	2.550135e-08	1.104582e-07	-0.06663701	0.05270929	1.204105e-09	2.122286e-08
	-5.000776e-09	6.215213e-09	0.005850232	-0.004745885	1.204105e-09	2.122286e-08	-0.06555705	0.05379585
2.1e+08	-0.05262972	0.05175389	5.284719e-10	2.158107e-08	0.0039107	-0.004039481	-4.408412e-09	7.810638e-09
	5.284719e-10	2.158107e-08	-0.05165034	0.05252823	2.623794e-08	1.131279e-07	0.004260492	-0.003844958
	0.0039107	-0.004039481	2.623794e-08	1.131279e-07	-0.0525728	0.05190105	2.094463e-09	2.256622e-08
	-4.408412e-09	7.810638e-09	0.004260492	-0.003844958	2.094463e-09	2.256622e-08	-0.051498	0.05276641
2.2e+08	-0.03928849	0.04748918	1.677183e-09	2.294839e-08	0.002599837	-0.0027043	-3.439272e-09	9.282635e-09
	1.677183e-09	2.294839e-08	-0.03838297	0.04806977	2.633218e-08	1.157494e-07	0.002915815	-0.002569458
	0.002599837	-0.0027043	2.633218e-08	1.157494e-07	-0.0392304	0.04764929	3.111135e-09	2.36918e-08
	-3.439272e-09	9.282635e-09	0.002915815	-0.002569458	3.111135e-09	2.36918e-08	-0.03823413	0.04829282
2.3e+08	-0.02748044	0.04006363	2.967252e-09	2.403873e-08	0.00164214	-0.001072866	-2.120749e-09	1.052919e-08
	2.967252e-09	2.403873e-08	-0.02671387	0.04046831	2.577881e-08	1.184899e-07	0.001904479	-0.0009893927
	0.00164214	-0.001072866	2.577881e-08	1.184899e-07	-0.02741953	0.04023635	4.187625e-09	2.457493e-08
	-2.120749e-09	1.052919e-08	0.001904479	-0.0009893927	4.187625e-09	2.457493e-08	-0.02657574	0.04067705
2.4e+08	-0.01792468	0.02994844	4.322991e-09	2.482765e-08	0.001104535	0.0007578369	-5.090292e-10	1.145439e-08
	4.322991e-09	2.482765e-08	-0.01735774	0.03021244	2.461419e-08	1.215145e-07	0.001295476	0.0008034901
	0.001104535	0.000757837	2.461419e-08	1.215145e-07	-0.01785943	0.030133	5.256763e-09	2.521295e-08
	-5.090292e-10	1.145439e-08	0.001295476	0.0008034901	5.256763e-09	2.521295e-08	-0.01723736	0.03040966
2.5e+08	-0.01120516	0.01777683	5.669735e-09	2.531154e-08	0.001027333	0.002674962	1.312245e-09	1.197716e-08
	5.669735e-09	2.531154e-08	-0.01088942	0.0179516	2.291388e-08	1.249761e-07	0.001132553	0.002701032
	0.001027333	0.002674962	2.291388e-08	1.249761e-07	-0.01113428	0.01797203	6.258294e-09	2.562184e-08
	1.312245e-09	1.197716e-08	0.001132553	0.002701032	6.258294e-09	2.562184e-08	-0.0107931	0.01814199
2.6e+08	-0.007733385	0.004306441	6.9391e-09	2.550325e-08	0.001420013	0.004557394	3.236199e-09	1.203957e-08
	6.9391e-09	2.550325e-08	-0.007706983	0.004457172	2.07887e-08	1.29008e-07	0.001429857	0.004585897
	0.001420013	0.004557394	2.07887e-08	1.29008e-07	-0.007656024	0.004510768	7.143542e-09	2.583017e-08
	3.236199e-09	1.203957e-08	0.001429857	0.004585897	7.143542e-09	2.583017e-08	-0.007639861	0.004647114
2.7e+08	-0.007721837	-0.009627337	8.070952e-09	2.542687e-08	0.002259419	0.006284638	5.139769e-09	1.161387e-08
	8.070952e-09	2.542687e-08	-0.008005809	-0.009425392	1.837978e-08	1.337165e-07	0.002169881	0.006340149
	0.002259419	0.006284638	1.837978e-08	1.337165e-07	-0.007637604	-0.009415618	7.876305e-09	2.587248e-08
	5.139769e-09	1.161387e-08	0.002169881	0.006340149	7.876305e-09	2.587248e-08	-0.007971364	-0.009228134
2.8e+08	-0.01117031	-0.02316403	9.012393e-09	2.511363e-08	0.003490787	0.007746133	6.892968e-09	1.0707e-08
	9.012393e-09	2.511363e-08	-0.01176602	-0.02283017	1.585283e-08	1.391751e-07	0.00330416	0.007854303
	0.003490787	0.007746133	1.585283e-08	1.391751e-07	-0.01107937	-0.0229467	8.430335e-09	2.578392e-08
	6.892968e-09	1.0707e-08	0.00330416	0.007854303	8.430335e-09	2.578392e-08	-0.01176573	-0.02261689
2.9e+08	-0.0178668	-0.03547269	9.715057e-09	2.460029e-08	0.005031676	0.00884992	8.369378e-09	9.361962e-09
	9.715057e-09	2.460029e-08	-0.01875463	-0.03492601	1.339161e-08	1.454187e-07	0.004756817	0.00903584
	0.005031676	0.00884992	1.339161e-08	1.454187e-07	-0.01776984	-0.03525137	8.784795e-09	2.559805e-08
	8.369378e-09	9.361962e-09	0.004756817	0.00903584	8.784795e-09	2.559805e-08	-0.01878773	-0.03468759
3e+08	-0.02740276	-0.04580415	1.013273e-08	2.393065e-08	0.006778436	0.009529706	9.456607e-09	7.65569e-09
	1.013273e-08	2.393065e-08	-0.0285423	-0.04496915	1.119014e-08	1.524394e-07	0.006430595	0.009816206
	0.006778436	0.009529706	1.119014e-08	1.524394e-07	-0.02730097	-0.04558018	8.919878e-09	2.534814e-08
	9.456607e-09	7.65569e-09	0.006430595	0.009816206	8.919878e-09	2.534814e-08	-0.02860566	-0.04469663
3.1e+08	-0.03920162	-0.05353706	1.020087e-08	2.315459e-08	0.008614478	0.00974951	1.006576e-08	5.693953e-09
	1.020087e-08	2.315459e-08	-0.04053323	-0.05234899	9.435337e-09	1.601803e-07	0.008214683	0.01015552
	0.008614478	0.00974951	9.435337e-09	1.601803e-07	-0.03909652	-0.05331132	8.794132e-09	2.506672e-08
	1.006576e-08	5.693953e-09	0.008214683	0.01015552	8.794132e-09	2.506672e-08	-0.04062146	-0.05203417
3.2e+08	-0.05255766	-0.05821406	9.856253e-09	2.23568e-08	0.01041937	0.009505494	1.013826e-08	3.603288e-09
	9.856253e-09	2.23568e-08	-0.0540056	-0.05662382	8.302074e-09	1.685424e-07	0.009993388	0.01004458
	0.01041937	0.009505494	8.302074e-09	1.685424e-07	-0.05245098	-0.05798694	8.362568e-09	2.481545e-08
	1.013826e-08	3.603288e-09	0.009993388	0.01004458	8.362568e-09	2.481545e-08	-0.0541112	-0.05625987
3.3e+08	-0.06668223	-0.05956619	9.118742e-09	2.164481e-08	0.01207774	0.008824971	9.649084e-09	1.521725e-09
	9.118742e-09	2.164481e-08	-0.06815888	-0.0575442	7.969613e-09	1.77381e-07	0.01165468	0.009504138
	0.01207774	0.008824971	7.969613e-09	1.77381e-07	-0.06657571	-0.05933745	7.657548e-09	2.467432e-08
	9.649084e-09	1.521725e-09	0.01165468	0.009504138	7.657548e-09	2.467432e-08	-0.06827261	-0.05712622
3.4e+08	-0.0807532	-0.05752421	7.992342e-09	2.112121e-08	0.01348714	0.007762973	8.609548e-09	-4.099519e-10
	7.992342e-09	2.112121e-08	-0.08216424	-0.05506317	8.566239e-09	1.865e-07	0.01309771	0.008581886
	0.01348714	0.007762973	8.566239e-09	1.865e-07	-0.0806484	-0.05729304	6.687906e-09	2.471571e-08
	8.609548e-09	-4.099519e-10	0.01309771	0.008581886	6.687906e-09	2.471571e-08	-0.08227563	-0.05458862
3.5e+08	-0.09396433	-0.05221712	6.510249e-09	2.089653e-08	0.01456412	0.006397001	7.065649e-09	-2.057728e-09
	6.510249e-09	2.089653e-08	-0.09521444	-0.04933343	1.01705e-08	1.956674e-07	0.0142388	0.007347621
	0.01456412	0.006397001	1.01705e-08	1.956674e-07	-0.09386244	-0.05198231	5.483929e-09	2.501929e-08
	7.065649e-09	-2.057728e-09	0.0142388	0.007347621	5.483929e-09	2.501929e-08	-0.09531242	-0.04880238
3.6e+08	-0.1055711	-0.04395918	4.740886e-09	2.107932e-08	0.01524844	0.004820744	5.09476e-09	-3.302367e-09
	4.740886e-09	2.107932e-08	-0.10657	-0.04069281	1.280016e-08	2.04628e-07	0.01501547	0.005887472
	0.01524844	0.004820744	1.280016e-08	2.04628e-07	-0.1054729	-0.04371922	4.10348e-09	2.566413e-08
	5.09476e-09	-3.302367e-09	0.01501547	0.005887472	4.10348e-09	2.566413e-08	-0.1066435	-0.04010811
3.7e+08	-0.1149308	-0.03322708	2.789807e-09	2.176298e-08	0.01550517	0.003137452	2.800836e-09	-4.046028e-09
	2.789807e-09	2.176298e-08	-0.1155989	-0.02963998	1.640502e-08	2.131209e-07	0.01538868	0.004297769
	0.01550517	0.003137452	1.640502e-08	2.131209e-07	-0.1148366	-0.03298032	2.634486e-09	2.671734e-08
	2.800836e-09	-4.046028e-09	0.01538868	0.004297769	2.634486e-09	2.671734e-08	-0.1156378	-0.02900721
3.8e+08	-0.1215354	-0.02062954	7.959882e-10	2.301155e-08	0.01532514	0.001453557	3.086033e-10	-4.217383e-09
	7.959882e-10	2.301155e-08	-0.1218092	-0.01680264	2.086486e-08	2.208982e-07	0.01534348	0.002679134
	0.01532514	0.001453557	2.086486e-08	2.208982e-07	-0.1214449	-0.02037431	1.192223e-09	2.822143e-08
	3.086033e-10	-4.217383e-09	0.01534348	0.002679134	1.192223e-09	2.822143e-08	-0.1218047	-0.0161299
3.9e+08	-0.1250354	-0.006871386	-1.07774e-09	2.484681e-08	0.01472397	-0.0001271165	-2.242852e-09	-3.775301e-09
	-1.07774e-09	2.484681e-08	-0.1248719	-0.002900455	2.599328e-08	2.277453e-07	0.01488828	0.001131106
	0.01472397	-0.0001271165	2.599328e-08	2.277453e-07	-0.1249479	-0.006606173	-8.894763e-11	3.018278e-08
	-2.242852e-09	-3.775301e-09	0.01488828	0.001131106	-8.894763e-11	3.018278e-08	-0.1248172	-0.002197987
4e+08	-0.1252553	0.007285515	-2.659318e-09	2.723926e-08	0.01374017	-0.001508383	-4.706831e-09	-2.71121e-09
	-2.659318e-09	2.723926e-08	-0.1246355	0.01129509	3.154768e-08	2.33499e-07	0.01405343	-0.0002525702
	0.01374017	-0.001508383	3.154768e-08	2.33499e-07	-0.1251698	0.007561962	-1.068662e-09	3.256351e-08
	-4.706831e-09	-2.71121e-09	0.01405343	-0.0002525702	-1.068662e-09	3.256351e-08	-0.1245265	0.01201547
4.1e+08	-0.1222007	0.02106298	-3.785371e-09	3.010477e-08	0.01243257	-0.002605985	-6.935961e-09	-1.050261e-09
	-3.785371e-09	3.010477e-08	-0.1211313	0.02500211	3.724472e-08	2.380632e-07	0.01288906	-0.001388019
	0.01243257	-0.002605985	3.724472e-08	2.380632e-07	-0.1221156	0.02135157	-1.616804e-09	3.527876e-08
	-6.935961e-09	-1.050261e-09	0.01288906	-0.001388019	-1.616804e-09	3.527876e-08	-0.1209668	0.02572764
4.2e+08	-0.1160555	0.03370704	-4.320007e-09	3.330813e-08	0.01087719	-0.003351254	-8.78928e-09	1.148656e-09
	-4.320007e-09	3.330813e-08	-0.1145701	0.03746924	4.277991e-08	2.414184e-07	0.01146255	-0.002204799
	0.01087719	-0.003351254	4.277991e-08	2.414184e-07	-0.1159694	0.03400828	-1.630547e-09	3.820044e-08
	-8.78928e-09	1.148656e-09	0.01146255	-0.002204799	-1.630547e-09	3.820044e-08	-0.1143522	0.038187
4.3e+08	-0.1071726	0.04452705	-4.171805e-09	3.66734e-08	0.009163864	-0.003694234	-1.013943e-08	3.79406e-09
	-4.171805e-09	3.66734e-08	-0.1053304	0.04801493	4.784966e-08	2.436259e-07	0.009855575	-0.002649064
	0.009163864	-0.003694234	4.784966e-08	2.436259e-07	-0.1070836	0.04484103	-1.049575e-09	4.116747e-08
	-1.013943e-08	3.79406e-09	0.009855575	-0.002649064	-1.049575e-09	4.116747e-08	-0.1050642	0.0487126
4.4e+08	-0.09605513	0.0529319	-3.306395e-09	4.000017e-08	0.00739221	-0.003606344	-1.087996e-08	6.764344e-09
	-3.306395e-09	4.000017e-08	-0.09393876	0.05606335	5.217345e-08	2.448248e-07	0.008160689	-0.00268639
	0.00739221	-0.003606344	5.217345e-08	2.448248e-07	-0.09596169	0.05325826	1.3307e-10	4.400158e-08
	-1.087996e-08	6.764344e-09	0.008160689	-0.00268639	1.3307e-10	4.400158e-08	-0.09363242	0.05673001
4.5e+08	-0.08333126	0.05846194	-1.75257e-09	4.308372e-08	0.005667159	-0.003082498	-1.093252e-08	9.911779e-09
	-1.75257e-09	4.308372e-08	-0.08104284	0.06117577	5.551399e-08	2.452228e-07	0.006477261	-0.002304179
	0.005667159	-0.003082498	5.551399e-08	2.452228e-07	-0.08323174	0.05879991	1.866546e-09	4.652663e-08
	-1.093252e-08	9.911779e-09	0.006477261	-0.002304179	1.866546e-09	4.652663e-08	-0.08070718	0.06180261
4.6e+08	-0.06972182	0.06081532	3.993158e-10	4.573643e-08	0.004093767	-0.0021425	-1.025378e-08	1.306835e-08
	3.993158e-10	4.573643e-08	-0.06737772	0.0630759	5.769347e-08	2.450815e-07	0.004906689	-0.001513442
	0.004093767	-0.0021425	5.769347e-08	2.450815e-07	-0.06961482	0.06116373	4.04532e-09	4.858879e-08
	-1.025378e-08	1.306835e-08	0.004906689	-0.001513442	4.04532e-09	4.858879e-08	-0.0670256	0.06365686
4.7e+08	-0.05600214	0.05986687	3.006643e-09	4.78072e-08	0.002771397	-0.000831394	-8.84146e-09	1.605369e-08
	3.006643e-09	4.78072e-08	-0.05372662	0.06166753	5.860464e-08	2.446986e-07	0.003546869	-0.0003496326
	0.002771397	-0.000831394	5.860464e-08	2.446986e-07	-0.05588655	0.06022416	6.519769e-09	5.007442e-08
	-8.84146e-09	1.605369e-08	0.003546869	-0.0003496326	6.519769e-09	5.007442e-08	-0.05337227	0.06219977
4.8e+08	-0.04295959	0.05567824	5.890281e-09	4.919605e-08	0.001787463	0.0007815767	-6.73867e-09	1.868515e-08
	5.890281e-09	4.919605e-08	-0.04087757	0.05704307	5.82161e-08	2.443884e-07	0.002486111	0.001127858
	0.001787463	0.0007815767	5.82161e-08	2.443884e-07	-0.04283468	0.05604258	9.1129e-09	5.092272e-08
