!$
! Info: Touchstone file created by Circ.  Input file=Tx_16in_Rx_93ohms_TxVia_35mils_RxVia_45mils.circ
!$
# Hz S RI R 50
0	0.01459346	1.904168e-25	-8.526231e-05	3.711878e-24	0.0001045116	2.738096e-23	-8.527387e-05	5.232727e-24
	-8.526234e-05	3.714932e-24	0.01459111	2.285469e-25	-8.524172e-05	1.405055e-24	0.0001038848	3.306447e-23
	0.0001050191	2.776382e-23	-8.524167e-05	1.399755e-24	0.01460537	1.849779e-25	-8.525886e-05	3.619884e-24
	-8.527389e-05	5.23483e-24	0.0001020358	3.322713e-23	-8.52589e-05	3.624233e-24	0.01460414	2.141544e-25
1e+07	0.02140484	-0.001976493	-0.000424497	-7.414303e-05	0.0006472088	0.002592189	-0.0002131688	0.0002212293
	-0.0004244971	-7.414302e-05	0.02100771	-0.002883276	-6.283728e-06	-1.216561e-05	0.0006818604	0.002842378
	0.0006472381	0.002592184	-6.283732e-06	-1.216561e-05	0.01987094	-0.002638654	-2.32732e-05	3.173587e-06
	-0.0002131688	0.0002212293	0.0006817992	0.002842388	-2.32732e-05	3.173585e-06	0.02058749	-0.002862681
2e+07	0.02442521	-0.01016001	-0.0004187074	7.722254e-05	0.002026261	0.004962348	-0.0002374277	0.0002805395
	-0.0004187074	7.722254e-05	0.02298584	-0.01128878	-7.487395e-06	-6.02794e-06	0.001941319	0.005442222
	0.002026261	0.004962326	-7.487396e-06	-6.027936e-06	0.02241095	-0.01055075	-1.471976e-05	-3.847623e-05
	-0.0002374277	0.0002805395	0.00194131	0.005442258	-1.471976e-05	-3.847623e-05	0.02268664	-0.01111996
3e+07	0.0229368	-0.02002239	-0.0004004813	0.0001725815	0.00404787	0.006754503	-0.0002254125	0.0003389293
	-0.0004004813	0.0001725815	0.0207529	-0.02079871	-1.689215e-05	-6.463287e-06	0.00398606	0.007330207
	0.004047864	0.006754501	-1.689215e-05	-6.463287e-06	0.02063908	-0.02002506	-4.352491e-05	-3.798298e-05
	-0.0002254125	0.0003389293	0.00398606	0.007330212	-4.352491e-05	-3.798298e-05	0.02053989	-0.02060125
4e+07	0.01786638	-0.02911493	-0.0003661731	0.0002582843	0.006491887	0.007793621	-0.0001945321	0.0003808335
	-0.0003661731	0.0002582843	0.01519519	-0.02929517	-2.339178e-05	-2.204623e-06	0.006526233	0.008385513
	0.006491888	0.007793625	-2.339178e-05	-2.204624e-06	0.01545734	-0.02866355	-6.593105e-05	-2.518165e-05
	-0.0001945321	0.0003808335	0.006526227	0.008385511	-6.593105e-05	-2.518165e-05	0.01504334	-0.02910187
5e+07	0.0100552	-0.03624929	-0.0003177072	0.0003341135	0.00908923	0.007989085	-0.0001570382	0.0004044358
	-0.0003177072	0.0003341135	0.007153685	-0.03570905	-2.720638e-05	4.369459e-06	0.009200437	0.00857035
	0.009089232	0.007989086	-2.720638e-05	4.369459e-06	0.007692051	-0.03533308	-8.095337e-05	-4.718786e-06
	-0.0001570382	0.0004044358	0.009200433	0.008570349	-8.095337e-05	-4.718786e-06	0.007040408	-0.03553373
6e+07	0.0004590616	-0.04069111	-0.0002806574	0.0003813536	0.0115587	0.007345006	-0.0001233355	0.0004124373
	-0.0002806574	0.0003813536	-0.002421045	-0.03939579	-2.838444e-05	1.234971e-05	0.01172836	0.007900228
	0.0115587	0.007345005	-2.838443e-05	1.234971e-05	-0.001719267	-0.03934361	-8.762783e-05	2.031354e-05
	-0.0001233355	0.0004124373	0.01172836	0.007900227	-8.762783e-05	2.031354e-05	-0.002515191	-0.03924167
7e+07	-0.009891082	-0.04208329	-0.0002354577	0.0004247822	0.0136394	0.005956463	-0.0001012689	0.0004107156
	-0.0002354577	0.0004247822	-0.01251584	-0.04007449	-2.68375e-05	2.075405e-05	0.01385065	0.006477026
	0.0136394	0.005956463	-2.68375e-05	2.075405e-05	-0.01176926	-0.04037266	-8.536894e-05	4.708378e-05
	-0.0001012689	0.0004107156	0.01385065	0.006477023	-8.536894e-05	4.708378e-05	-0.01260618	-0.03993795
8e+07	-0.0199713	-0.04041879	-0.0001832256	0.0004623742	0.01511899	0.00399611	-9.564826e-05	0.0004077992
	-0.0001832256	0.0004623742	-0.02213715	-0.03780214	-2.254535e-05	2.887372e-05	0.01535605	0.004477339
	0.01511898	0.003996112	-2.254535e-05	2.887372e-05	-0.02146111	-0.03843823	-7.409954e-05	7.28651e-05
	-9.564826e-05	0.0004077992	0.01535606	0.004477332	-7.409954e-05	7.28651e-05	-0.02223426	-0.03767539
9e+07	-0.02885435	-0.0360049	-0.0001261706	0.0004926207	0.01585596	0.001693028	-0.000108697	0.0004133082
	-0.0001261706	0.0004926207	-0.03039527	-0.03293655	-1.543182e-05	3.601679e-05	0.01610203	0.002132463
	0.01585596	0.00169303	-1.543182e-05	3.601679e-05	-0.02989396	-0.03386326	-5.40818e-05	9.510173e-05
	-0.000108697	0.0004133082	0.01610204	0.002132457	-5.40818e-05	9.510173e-05	-0.03050523	-0.03280992
1e+08	-0.03580806	-0.02940834	-7.079851e-05	0.0005150865	0.01580369	-0.0006930079	-0.0001510177	0.0004372354
	-7.079851e-05	0.0005150865	-0.03655892	-0.02608109	-4.540982e-06	4.136445e-05	0.01602659	-0.0002972319
	0.01580369	-0.000693008	-4.540982e-06	4.136445e-05	-0.0363331	-0.02722228	-2.37767e-05	0.0001113243
	-0.0001510177	0.0004372354	0.01602659	-0.0002972319	-2.37767e-05	0.0001113243	-0.03668701	-0.0259449
1.1e+08	-0.04024051	-0.02128758	-1.321496e-05	0.0005133172	0.01495662	-0.002850152	-0.0001953341	0.0004338111
	-1.321496e-05	0.0005133172	-0.04024021	-0.01813735	6.656161e-06	3.989634e-05	0.01515367	-0.002541514
	0.01495662	-0.002850152	6.656161e-06	3.989634e-05	-0.04030926	-0.01931839	7.570025e-06	0.0001094692
	-0.0001953341	0.0004338111	0.01515367	-0.002541514	7.570025e-06	0.0001094692	-0.04037776	-0.01796845
1.2e+08	-0.0418467	-0.01263094	5.046262e-05	0.000503247	0.01340662	-0.004603446	-0.0002147897	0.0004554429
	5.046262e-05	0.000503247	-0.0413019	-0.00978774	1.525916e-05	3.661525e-05	0.01359487	-0.004364841
	0.01340662	-0.004603446	1.525916e-05	3.661525e-05	-0.04161461	-0.01093055	3.211378e-05	0.0001013911
	-0.0002147897	0.0004554429	0.01359487	-0.004364841	3.211378e-05	0.0001013911	-0.04142995	-0.009585879
1.3e+08	-0.04070522	-0.004331432	0.000113456	0.0004844622	0.01134457	-0.00575584	-0.0002166367	0.0004960936
	0.000113456	0.0004844622	-0.03976628	-0.001878572	2.232092e-05	3.202604e-05	0.01152236	-0.005577306
	0.01134457	-0.00575584	2.232092e-05	3.202604e-05	-0.04027682	-0.002917315	5.176373e-05	8.901456e-05
	-0.0002166367	0.0004960936	0.01152236	-0.005577306	5.176373e-05	8.901456e-05	-0.03987227	-0.001649322
1.4e+08	-0.0371346	0.002800353	0.0001732847	0.0004574965	0.008996391	-0.006179286	-0.0001976109	0.0005484227
	0.0001732847	0.0004574965	-0.03594652	0.004814013	2.53533e-05	2.843556e-05	0.009158115	-0.006053003
	0.008996391	-0.006179286	2.53533e-05	2.843556e-05	-0.0365959	0.003932017	6.659212e-05	7.395556e-05
	-0.0001976109	0.0005484227	0.009158115	-0.006053003	6.659212e-05	7.395556e-05	-0.03602198	0.005061089
1.5e+08	-0.03167503	0.008105499	0.0002283808	0.0004233395	0.00661279	-0.005823759	-0.0001558328	0.000603849
	0.0002283808	0.0004233395	-0.03038043	0.009664498	2.804048e-05	2.458875e-05	0.006750897	-0.005742103
	0.00661279	-0.005823759	2.804048e-05	2.458875e-05	-0.03109688	0.00897388	7.680599e-05	5.769942e-05
	-0.0001558328	0.000603849	0.006750897	-0.005742103	7.680599e-05	5.769942e-05	-0.03042149	0.009917446
1.6e+08	-0.02503083	0.01113406	0.0002778507	0.0003831231	0.004445427	-0.004720863	-9.232035e-05	0.0006537147
	0.0002778507	0.0003831231	-0.02376644	0.01225637	3.0351e-05	2.047543e-05	0.004551506	-0.004675129
	0.004445427	-0.004720863	3.0351e-05	2.047543e-05	-0.02446977	0.01176921	8.299641e-05	4.145946e-05
	-9.232035e-05	0.0006537147	0.004551506	-0.004675129	8.299641e-05	4.145946e-05	-0.02377413	0.01250259
1.7e+08	-0.01799763	0.01168186	0.0003212481	0.000337902	0.002722053	-0.002980086	-1.102272e-05	0.0006906534
	0.0003212481	0.000337902	-0.01688806	0.01241799	3.22234e-05	1.611992e-05	0.002787863	-0.002959646
	0.002722053	-0.002980086	3.22234e-05	1.611992e-05	-0.01749635	0.01212089	8.600293e-05	2.604197e-05
	-1.102272e-05	0.0006906534	0.002787863	-0.002959646	8.600293e-05	2.604197e-05	-0.0168681	0.01264602
1.8e+08	-0.01138217	0.00980334	0.0003583879	0.0002885283	0.001623451	-0.0007775607	8.195655e-05	0.0007097126
	0.0003583879	0.0002885283	-0.01053251	0.01023355	3.360236e-05	1.155418e-05	0.001642073	-0.0007694799
	0.001623451	-0.0007775607	3.360236e-05	1.155418e-05	-0.01097013	0.01008714	8.673135e-05	1.17926e-05
	8.195655e-05	0.0007097126	0.001642073	-0.00076948	8.673135e-05	1.17926e-05	-0.01049454	0.01043457
1.9e+08	-0.005922405	0.005799481	0.0003891578	0.0002356227	0.001264627	0.001661936	0.0001796073	0.0007089621
	0.0003891578	0.0002356227	-0.005410849	0.006028577	3.443352e-05	6.821574e-06	0.001231664	0.001672793
	0.001264627	0.001661936	3.443352e-05	6.821574e-06	-0.005616782	0.005969757	8.595535e-05	-1.364012e-06
	0.0001796073	0.0007089621	0.001231664	0.001672793	8.595535e-05	-1.364012e-06	-0.005367216	0.006197605
2e+08	-0.002215567	0.000181813	0.0004133598	0.0001796365	0.001682383	0.004088343	0.0002754016	0.0006894515
	0.0004133598	0.0001796365	-0.002087233	0.0003315427	3.466434e-05	1.981126e-06	0.001597075	0.004118709
	0.001682383	0.004088343	3.466434e-05	1.981126e-06	-0.002022562	0.0002785896	8.415405e-05	-1.379505e-05
	0.0002754016	0.0006894515	0.001597075	0.004118709	8.415405e-05	-1.379505e-05	-0.002051514	0.0004681294
2.1e+08	-0.0006606974	-0.006384196	0.0004306165	0.0001209821	0.00283097	0.006251047	0.0003644966	0.0006545443
	0.0004306165	0.0001209821	-0.0009241359	-0.006184363	3.423656e-05	-2.889651e-06	0.00269704	0.006319948
	0.00283097	0.006251047	3.423656e-05	-2.889651e-06	-0.0005771549	-0.006324601	8.135367e-05	-2.597241e-05
	0.0003644966	0.0006545443	0.00269704	0.006319948	8.135367e-05	-2.597241e-05	-0.0009094983	-0.006075984
2.2e+08	-0.001424223	-0.01314977	0.000440365	6.019098e-05	0.004591605	0.007928323	0.000444479	0.000608785
	0.000440365	6.019098e-05	-0.00204904	-0.01277335	3.311594e-05	-7.690376e-06	0.004412734	0.008054792
	0.004591605	0.007928323	3.311594e-05	-7.690376e-06	-0.001439484	-0.01309626	7.728941e-05	-3.822663e-05
	0.000444479	0.000608785	0.004412734	0.008054792	7.728941e-05	-3.822663e-05	-0.002066674	-0.01268465
2.3e+08	-0.004427497	-0.01935935	0.0004419402	-1.946099e-06	0.006775852	0.008951102	0.0005154908	0.0005565803
	0.0004419402	-1.946099e-06	-0.005345843	-0.01869537	3.130453e-05	-1.230778e-05	0.006560511	0.009151938
	0.006775852	0.008951102	3.130453e-05	-1.230778e-05	-0.004525355	-0.01928702	7.154611e-05	-5.063173e-05
	0.0005154908	0.0005565803	0.006560511	0.009151938	7.154611e-05	-5.063173e-05	-0.005403623	-0.01861444
2.4e+08	-0.009358317	-0.02432924	0.0004347249	-6.429876e-05	0.009148405	0.009219295	0.0005797275	0.0005010011
	0.0004347249	-6.429876e-05	-0.01047157	-0.02329251	2.881549e-05	-1.662018e-05	0.008911922	0.009508812
	0.009148405	0.009219295	2.881549e-05	-1.662018e-05	-0.009518974	-0.02421984	6.354955e-05	-6.290238e-05
	0.0005797275	0.0005010011	0.008911922	0.009508812	6.354955e-05	-6.290238e-05	-0.01057308	-0.02320532
2.5e+08	-0.01570854	-0.02751574	0.000418328	-0.0001254051	0.01145514	0.008714751	0.0006404334	0.0004429803
	0.000418328	-0.0001254051	-0.01689616	-0.02605531	2.56917e-05	-2.050356e-05	0.01121866	0.009102135
	0.01145514	0.008714751	2.56917e-05	-2.050356e-05	-0.01591042	-0.02735768	5.286767e-05	-7.438206e-05
	0.0006404334	0.0004429803	0.01121866	0.009102135	5.286767e-05	-7.438206e-05	-0.01704021	-0.02594724
2.6e+08	-0.0228299	-0.02856773	0.0003927447	-0.0001835682	0.01345096	0.007502423	0.000700656	0.0003810906
	0.0003927447	-0.0001835682	-0.02396069	-0.02667244	2.200696e-05	-2.384041e-05	0.01323945	0.007989563
	0.01345096	0.007502423	2.200696e-05	-2.384041e-05	-0.02305123	-0.0283557	3.939066e-05	-8.415215e-05
	0.000700656	0.0003810906	0.01323945	0.007989563	3.939066e-05	-8.415215e-05	-0.02414132	-0.02652985
2.7e+08	-0.03000259	-0.02735847	0.0003584568	-0.0002370241	0.01492611	0.005722276	0.0007620448	0.0003119475
	0.0003584568	-0.0002370241	-0.03094731	-0.02505872	1.786507e-05	-2.653017e-05	0.01476561	0.006302393
	0.01492611	0.005722276	1.786507e-05	-2.653017e-05	-0.03022277	-0.02709282	2.34365e-05	-9.121475e-05
	0.0007620448	0.0003119475	0.01476561	0.006302393	2.34365e-05	-9.121475e-05	-0.03115438	-0.02487057
2.8e+08	-0.03650945	-0.02399414	0.0003164446	-0.0002841377	0.01572809	0.003573176	0.000823992	0.0002311265
	0.0003164446	-0.0002841377	-0.03715357	-0.0213598	1.339385e-05	-2.849825e-05	0.01564255	0.0042305
	0.01572809	0.003573176	1.339385e-05	-2.849825e-05	-0.03671006	-0.02368002	5.756169e-06	-9.470438e-05
	0.000823992	0.0002311265	0.01564255	0.0042305	5.756169e-06	-9.470438e-05	-0.03737382	-0.02111885
2.9e+08	-0.04170792	-0.01879897	0.0002681114	-0.0003235857	0.01577677	0.001290907	0.0008832934	0.0001343909
	0.0002681114	-0.0003235857	-0.04196335	-0.0159334	8.736121e-06	-2.970338e-05	0.01578485	0.00200152
	0.01577677	0.001290907	8.736121e-06	-2.970338e-05	-0.04187348	-0.01844543	-1.256031e-05	-9.407697e-05
	0.0008832934	0.0001343909	0.01578485	0.00200152	-1.256031e-05	-9.407697e-05	-0.04218179	-0.01563705
3e+08	-0.045093	-0.01227922	0.0002151369	-0.0003544877	0.01507155	-0.0008770264	0.00093442	1.894637e-05
	0.0002151369	-0.0003544877	-0.04490759	-0.009309883	4.037929e-06	-3.014112e-05	0.01518379	-0.0001432204
	0.01507155	-0.0008770264	4.037929e-06	-3.014112e-05	-0.04521151	-0.01189828	-3.025361e-05	-8.923438e-05
	0.00093442	1.894637e-05	0.01518379	-0.0001432204	-3.025361e-05	-8.923438e-05	-0.04510908	-0.008960459
3.1e+08	-0.04634538	-0.005070231	0.0001592939	-0.0003764623	0.01369012	-0.00269706	0.0009703376	-0.0001155625
	0.0001592939	-0.0003764623	-0.04570919	-0.002136583	-5.639861e-07	-2.984206e-05	0.01390694	-0.001973412
	0.01369012	-0.00269706	-5.639861e-07	-2.984206e-05	-0.04640867	-0.004675958	-4.610162e-05	-8.055874e-05
	0.0009703376	-0.0001155625	0.01390694	-0.001973412	-4.610162e-05	-8.055874e-05	-0.04588003	-0.001741202
3.2e+08	-0.04536068	0.002128016	0.0001022633	-0.0003895989	0.01177953	-0.003973148	0.0009836958	-0.000266508
	0.0001022633	-0.0003895989	-0.04430825	0.004888125	-4.952885e-06	-2.886463e-05	0.01209025	-0.003292722
	0.01177953	-0.003973148	-4.952885e-06	-2.886463e-05	-0.04536453	0.002520434	-5.911738e-05	-6.885198e-05
	0.0009836958	-0.000266508	0.01209025	-0.003292722	-5.911738e-05	-6.885198e-05	-0.04443769	0.005318271
3.3e+08	-0.04225748	0.008620564	4.548496e-05	-0.000394358	0.009540566	-0.004566169	0.0009681489	-0.0004283212
	4.548496e-05	-0.000394358	-0.04086587	0.01108481	-9.038151e-06	-2.728435e-05	0.009923764	-0.003957985
	0.009540566	-0.004566169	-9.038151e-06	-2.728435e-05	-0.04220169	0.008995698	-6.869899e-05	-5.519636e-05
	0.0009681489	-0.0004283212	0.009923764	-0.003957985	-6.869899e-05	-5.519636e-05	-0.04094721	0.01153558
3.4e+08	-0.03736383	0.01378583	-9.929958e-06	-0.0003914256	0.007207301	-0.004407554	0.000919529	-0.000593114
	-9.929958e-06	-0.0003914256	-0.0357463	0.01586026	-1.275564e-05	-2.518209e-05	0.007632382	-0.003893058
	0.007207301	-0.004407554	-1.275564e-05	-2.518209e-05	-0.03725207	0.01412888	-7.470306e-05	-4.076566e-05
	0.000919529	-0.000593114	0.007632382	-0.003893058	-7.470306e-05	-4.076566e-05	-0.03577774	0.01631602
3.5e+08	-0.03118374	0.01713628	-6.321289e-05	-0.0003815489	0.005023449	-0.003506037	0.0008366452	-0.0007517366
	-6.321289e-05	-0.0003815489	-0.02947964	0.01876582	-1.606279e-05	-2.263435e-05	0.005453381	-0.003096225
	0.005023449	-0.003506037	-1.606279e-05	-2.263435e-05	-0.0310233	0.01743393	-7.742826e-05	-2.662577e-05
	0.0008366452	-0.0007517366	0.005453381	-0.003096225	-7.742826e-05	-2.662577e-05	-0.02946446	0.01921105
3.6e+08	-0.02434675	0.01836593	-0.0001138786	-0.0003653918	0.003217818	-0.001946969	0.0007215413	-0.000895085
	-0.0001138786	-0.0003653918	-0.02270837	0.01954133	-1.893032e-05	-1.970809e-05	0.003612737	-0.001640509
	0.003217818	-0.001946969	-1.893032e-05	-1.970809e-05	-0.02414807	0.01860712	-7.751469e-05	-1.356413e-05
	0.0007215413	-0.000895085	0.003612737	-0.001640509	-7.751469e-05	-1.356413e-05	-0.02265472	0.01996226
3.7e+08	-0.0175454	0.01737999	-0.0001616091	-0.0003434383	0.001980938	0.0001158942	0.0005791754	-0.001015376
	-0.0001616091	-0.0003434383	-0.01612308	0.0181405	-2.133363e-05	-1.646063e-05	0.002302251	0.0003332841
	0.001980938	0.0001158942	-2.133363e-05	-1.646063e-05	-0.01732149	0.01755665	-7.577932e-05	-1.982581e-06
	0.0005791754	-0.001015376	0.002302251	0.0003332841	-7.577932e-05	-1.982581e-06	-0.01604318	0.01852659
3.8e+08	-0.01146653	0.0143039	-0.0002061087	-0.0003159656	0.001445133	0.002475562	0.0004165861	-0.001107148
	-0.0002061087	-0.0003159656	-0.01039332	0.01473504	-2.324626e-05	-1.294393e-05	0.001659702	0.002630384
	0.001445133	0.002475562	-2.324626e-05	-1.294393e-05	-0.01123219	0.01441151	-7.302237e-05	8.124432e-06
	0.0004165861	-0.001107148	0.001659702	0.002630384	-7.302237e-05	8.124432e-06	-0.01030227	0.01508016
3.9e+08	-0.006723047	0.009470495	-0.0002469656	-0.0002830929	0.001670121	0.004892748	0.0002417252	-0.00116779
	-0.0002469656	-0.0002830929	-0.00610055	0.009697083	-2.463729e-05	-9.211149e-06	0.001754086	0.005021662
	0.001670121	0.004892748	-2.463729e-05	-9.211149e-06	-0.006493884	0.009508485	-6.984593e-05	1.710102e-05
	0.0002417252	-0.00116779	0.001754086	0.005021662	-6.984593e-05	1.710102e-05	-0.006014783	0.01000024
4e+08	-0.003792897	0.003386535	-0.0002835569	-0.0002448955	0.002635893	0.007120675	6.221227e-05	-0.001197497
	-0.0002835569	-0.0002448955	-0.003679844	0.003561357	-2.54728e-05	-5.323159e-06	0.002577726	0.007267261
	0.002635893	0.007120675	-2.54728e-05	-5.323159e-06	-0.003584338	0.003358428	-6.652593e-05	2.54849e-05
	6.221227e-05	-0.001197497	0.002577726	0.007267261	-6.652593e-05	2.54849e-05	-0.003615412	0.003826903
4.1e+08	-0.002971639	-0.003318332	-0.0003150231	-0.0002015567	0.004243979	0.008931237	-0.0001157352	-0.001198688
	-0.0003150231	-0.0002015567	-0.003376402	-0.003029108	-2.572049e-05	-1.353247e-06	0.004046421	0.009141858
	0.004243979	0.008931237	-2.572049e-05	-1.353247e-06	-0.002797828	-0.003405041	-6.296781e-05	3.381941e-05
	-0.0001157352	-0.001198688	0.004046421	0.009141858	-6.296781e-05	3.381941e-05	-0.003347275	-0.002791793
4.2e+08	-0.004343427	-0.009954919	-0.0003403255	-0.0001535189	0.006327302	0.01013963	-0.0002879632	-0.001175031
	-0.0003403255	-0.0001535189	-0.005221495	-0.009388242	-2.535616e-05	2.611026e-06	0.006007928	0.01045877
	0.006327302	0.01013963	-2.535616e-05	2.611026e-06	-0.00421619	-0.01008917	-5.875776e-05	4.246684e-05
	-0.0002879632	-0.001175031	0.006007928	0.01045877	-5.875776e-05	4.246684e-05	-0.005238027	-0.009165657
4.3e+08	-0.007773473	-0.01584369	-0.0003583767	-0.0001015919	0.00866777	0.01062453	-0.0004525009	-0.001130306
	-0.0003583767	-0.0001015919	-0.009030316	-0.01485637	-2.437059e-05	6.46902e-06	0.008258035	0.01109009
	0.00866777	0.01062453	-2.437059e-05	6.46902e-06	-0.007701397	-0.01601155	-5.329816e-05	5.146947e-05
	-0.0004525009	-0.001130306	0.008258035	0.01109009	-5.329816e-05	5.146947e-05	-0.009098054	-0.01463222
4.4e+08	-0.0129227	-0.02038258	-0.0003682149	-4.698891e-05	0.01101969	0.01034141	-0.0006091419	-0.001067383
	-0.0003682149	-4.698891e-05	-0.01442189	-0.01886649	-2.277577e-05	1.011104e-05	0.01056248	0.01098035
	0.01101969	0.01034141	-2.277577e-05	1.011104e-05	-0.01291041	-0.0205682	-4.599421e-05	6.04933e-05
	-0.0006091419	-0.001067383	0.01056248	0.01098035	-4.599421e-05	6.04933e-05	-0.01454088	-0.01862338
4.5e+08	-0.01928285	-0.02310646	-0.0003691857	8.727089e-06	0.01313627	0.009327276	-0.0007584918	-0.0009876787
	-0.0003691857	8.727089e-06	-0.02085873	-0.02100057	-2.060964e-05	1.342496e-05	0.0126821	0.01015222
	0.01313627	0.009327276	-2.060964e-05	1.342496e-05	-0.01933057	-0.02329318	-3.644683e-05	6.886997e-05
	-0.0007584918	-0.0009876787	0.0126821	0.01015222	-3.644683e-05	6.886997e-05	-0.02102341	-0.02072184
4.6e+08	-0.02622823	-0.02373234	-0.0003608808	6.366079e-05	0.01479615	0.00769635	-0.0009137265	-0.0008692617
	-0.0003608808	6.366079e-05	-0.02770197	-0.0210302	-1.793901e-05	1.630364e-05	0.01439836	0.008703471
	0.01479615	0.00769635	-1.793901e-05	1.630364e-05	-0.02633161	-0.02390387	-2.440285e-05	7.561666e-05
	-0.0009137265	-0.0008692617	0.01439836	0.008703471	-2.440285e-05	7.561666e-05	-0.02790164	-0.02070172
4.7e+08	-0.03307838	-0.02218564	-0.0003438082	0.0001160434	0.01582679	0.00562736	-0.001055721	-0.0007260168
	-0.0003438082	0.0001160434	-0.03427578	-0.0189376	-1.485738e-05	1.865761e-05	0.0155361	0.006795891
	0.01582679	0.00562736	-1.485738e-05	1.865761e-05	-0.03322876	-0.02232744	-1.042029e-05	7.987808e-05
