!$
! Info: Touchstone file created by Circ.  Input file=Tx_14in_Rx_93ohms_TxVia_35mils_RxVia_45mils.circ
!$
# Hz S RI R 50
0	0.01280998	1.705005e-25	7.528069e-10	1.221386e-27	9.42085e-05	2.402185e-23	2.516879e-09	5.119582e-28
	7.528077e-10	1.221272e-27	0.01280766	2.040498e-25	3.952454e-10	1.784373e-27	9.357897e-05	2.900741e-23
	9.471641e-05	2.435773e-23	3.952451e-10	1.784409e-27	0.01282197	1.656363e-25	7.725406e-10	1.181092e-27
	2.516879e-09	5.119474e-28	9.173037e-05	2.915015e-23	7.72541e-10	1.181056e-27	0.01282072	1.911957e-25
1e+07	0.01886003	-0.00132394	1.21111e-09	1.132926e-09	0.0005278271	0.002313395	5.391848e-09	5.540685e-09
	1.21111e-09	1.132926e-09	0.0185267	-0.002129879	6.264306e-10	7.313813e-10	0.000554003	0.002534215
	0.0005278565	0.002313389	6.264306e-10	7.313813e-10	0.01752348	-0.001934305	1.280084e-09	1.210871e-09
	5.391848e-09	5.540685e-09	0.000553942	0.002534224	1.280084e-09	1.210871e-09	0.01815834	-0.002118349
2e+07	0.02192554	-0.008041407	2.140474e-09	1.58405e-09	0.0016258	0.004493385	1.043149e-08	7.491266e-09
	2.140474e-09	1.58405e-09	0.02069241	-0.009090168	9.093723e-10	1.190241e-09	0.001534362	0.004913957
	0.0016258	0.004493363	9.093722e-10	1.190241e-09	0.02016118	-0.008456727	2.308168e-09	1.668457e-09
	1.043149e-08	7.491266e-09	0.001534354	0.004913992	2.308168e-09	1.668457e-09	0.02042475	-0.00894964
3e+07	0.02143343	-0.01645961	3.202858e-09	1.548803e-09	0.00326032	0.006266008	1.625802e-08	6.899579e-09
	3.202858e-09	1.548803e-09	0.01953248	-0.01726283	1.168057e-09	1.52843e-09	0.003176081	0.006772905
	0.003260314	0.006266006	1.168057e-09	1.52843e-09	0.01939504	-0.01657966	3.476044e-09	1.59395e-09
	1.625802e-08	6.899579e-09	0.003176081	0.00677291	3.476044e-09	1.59395e-09	0.01933684	-0.01709605
4e+07	0.01806705	-0.02463032	4.250864e-09	9.838806e-10	0.005295155	0.007494996	2.205442e-08	3.47881e-09
	4.250864e-09	9.838806e-10	0.01568923	-0.02497452	1.395329e-09	1.756867e-09	0.005285357	0.008024393
	0.005295155	0.007495	1.395329e-09	1.756867e-09	0.01588542	-0.02438969	4.631399e-09	9.408674e-10
	2.205442e-08	3.47881e-09	0.005285351	0.00802439	4.631399e-09	9.408673e-10	0.01554548	-0.02480945
5e+07	0.0123597	-0.0316366	5.080444e-09	-9.305955e-11	0.007556227	0.008091222	2.670781e-08	-2.684531e-09
	5.080444e-09	-9.305954e-11	0.0096957	-0.03139655	1.553983e-09	1.886116e-09	0.007605885	0.008621728
	0.007556229	0.008091223	1.553983e-09	1.886116e-09	0.01015575	-0.03100963	5.550022e-09	-2.724058e-10
	2.670781e-08	-2.684531e-09	0.007605881	0.008621727	5.550022e-09	-2.724058e-10	0.009585557	-0.03124581
6e+07	0.004903654	-0.03686477	5.501458e-09	-1.60098e-09	0.009852363	0.008021435	2.918682e-08	-1.111216e-08
	5.501458e-09	-1.60098e-09	0.002145936	-0.03597873	1.619739e-09	1.928319e-09	0.009947332	0.008540982
	0.009852361	0.008021434	1.619739e-09	1.928319e-09	0.002788566	-0.0358579	6.022569e-09	-1.944906e-09
	2.918682e-08	-1.111216e-08	0.009947334	0.008540981	6.022569e-09	-1.944906e-09	0.002053116	-0.03584651
7e+07	-0.003644873	-0.03992996	5.354479e-09	-3.375592e-09	0.01199306	0.007309241	2.867242e-08	-2.095964e-08
	5.354479e-09	-3.375592e-09	-0.006307334	-0.03839061	1.555068e-09	1.933361e-09	0.01212046	0.007811301
	0.01199305	0.007309241	1.555068e-09	1.933361e-09	-0.005572018	-0.03857586	5.881675e-09	-3.90897e-09
	2.867242e-08	-2.095964e-08	0.01212047	0.007811298	5.881675e-09	-3.90897e-09	-0.006396582	-0.03827548
8e+07	-0.01259916	-0.04065882	4.539996e-09	-5.212931e-09	0.01380504	0.006031526	2.465047e-08	-3.114934e-08
	4.539996e-09	-5.212931e-09	-0.0149874	-0.03850692	1.347528e-09	1.948541e-09	0.01395295	0.006512707
	0.01380503	0.006031528	1.347528e-09	1.948541e-09	-0.0142533	-0.0390109	5.019345e-09	-5.944741e-09
	2.465047e-08	-3.114934e-08	0.01395296	0.0065127	5.019345e-09	-5.944741e-09	-0.01508383	-0.03840361
9e+07	-0.0212876	-0.03907771	3.028876e-09	-6.878621e-09	0.0151475	0.004310704	1.697666e-08	-4.045192e-08
	3.028876e-09	-6.878621e-09	-0.02323554	-0.03639515	1.00072e-09	2.024588e-09	0.01530312	0.00476894
	0.0151475	0.004310706	1.00072e-09	2.024588e-09	-0.02259653	-0.03720454	3.403277e-09	-7.799306e-09
	1.697666e-08	-4.045192e-08	0.01530313	0.004768934	3.403277e-09	-7.799306e-09	-0.02334696	-0.03629614
1e+08	-0.02911794	-0.0353974	8.731173e-10	-8.140293e-09	0.01593408	0.00230565	5.913758e-09	-4.760957e-08
	8.731173e-10	-8.140293e-09	-0.03043407	-0.03229341	5.354313e-10	2.209531e-09	0.01607009	0.00273609
	0.01593408	0.00230565	5.354313e-10	2.209531e-09	-0.02999431	-0.03337348	1.089124e-09	-9.219339e-09
	5.913758e-09	-4.760957e-08	0.01607009	0.00273609	1.089124e-09	-9.219339e-09	-0.03056864	-0.0321907
1.1e+08	-0.03552534	-0.02987042	-1.743868e-09	-8.760402e-09	0.01607512	0.0002378742	-7.8061e-09	-5.149501e-08
	-1.743868e-09	-8.760402e-09	-0.03614669	-0.02672961	9.259309e-12	2.54244e-09	0.0162006	0.0005963245
	0.01607512	0.0002378741	9.259317e-12	2.54244e-09	-0.03596179	-0.02793756	-1.73362e-09	-9.954049e-09
	-7.8061e-09	-5.149501e-08	0.0162006	0.0005963245	-1.73362e-09	-9.954049e-09	-0.03630225	-0.0265987
1.2e+08	-0.04004374	-0.02308536	-4.662614e-09	-8.542377e-09	0.01556722	-0.001774697	-2.31364e-08	-5.116939e-08
	-4.662614e-09	-8.542377e-09	-0.04011044	-0.02004333	-5.52563e-10	3.053676e-09	0.01570056	-0.001470307
	0.01556722	-0.001774697	-5.52563e-10	3.053676e-09	-0.04015969	-0.02131245	-4.892895e-09	-9.793279e-09
	-2.31364e-08	-5.116939e-08	0.01570056	-0.001470307	-4.892895e-09	-9.793279e-09	-0.04027095	-0.01987822
1.3e+08	-0.04247698	-0.0156226	-7.614338e-09	-7.394945e-09	0.01447686	-0.003550602	-3.874753e-08	-4.608797e-08
	-7.614338e-09	-7.394945e-09	-0.04207802	-0.01277408	-1.092568e-09	3.755253e-09	0.01461974	-0.003292643
	0.01447686	-0.003550603	-1.092568e-09	3.755253e-09	-0.04235029	-0.01404453	-8.100294e-09	-8.631664e-09
	-3.874753e-08	-4.608797e-08	0.01461974	-0.003292643	-8.100294e-09	-8.631664e-09	-0.04223142	-0.01257419
1.4e+08	-0.04277028	-0.00808023	-1.030344e-08	-5.301429e-09	0.01290264	-0.004936238	-5.313914e-08	-3.612789e-08
	-1.030344e-08	-5.301429e-09	-0.04199313	-0.005499655	-1.55088e-09	4.642383e-09	0.01305321	-0.004720789
	0.01290264	-0.004936239	-1.55088e-09	4.642383e-09	-0.04246745	-0.006714035	-1.103722e-08	-6.44653e-09
	-5.313914e-08	-3.612789e-08	0.01305321	-0.004720789	-1.103722e-08	-6.44653e-09	-0.0421289	-0.00526832
1.5e+08	-0.04102855	-0.001037745	-1.242486e-08	-2.346524e-09	0.01097873	-0.005812858	-6.477995e-08	-2.163831e-08
	-1.242486e-08	-2.346524e-09	-0.03996534	0.001218757	-1.866284e-09	5.690186e-09	0.01113285	-0.005637837
	0.01097873	-0.005812858	-1.866284e-09	5.690186e-09	-0.04060776	0.0001126924	-1.337382e-08	-3.324091e-09
	-6.477995e-08	-2.163831e-08	0.01113285	-0.005637837	-1.337382e-08	-3.324091e-09	-0.0400751	0.001474996
1.6e+08	-0.03750523	0.004984819	-1.370855e-08	1.291995e-09	0.008865175	-0.006104438	-7.225472e-08	-3.444695e-09
	-1.370855e-08	1.291995e-09	-0.03625345	0.006880226	-1.988187e-09	6.854969e-09	0.009016754	-0.005968308
	0.008865175	-0.006104438	-1.988187e-09	6.854969e-09	-0.037017	0.005925705	-1.481583e-08	5.483183e-10
	-7.225472e-08	-3.444695e-09	0.009016754	-0.005968308	-1.481583e-08	5.483183e-10	-0.03633166	0.007152477
1.7e+08	-0.03257966	0.009562983	-1.394443e-08	5.354092e-09	0.006735671	-0.005782796	-7.441059e-08	1.719244e-08
	-1.394443e-08	5.354092e-09	-0.03124038	0.01108095	-1.880203e-09	8.077872e-09	0.006876953	-0.005683483
	0.006735671	-0.005782796	-1.880203e-09	8.077872e-09	-0.03206679	0.01030821	-1.513209e-08	4.893346e-09
	-7.441059e-08	1.719244e-08	0.006876953	-0.005683483	-1.513209e-08	4.893346e-09	-0.03128476	0.011359
1.8e+08	-0.02672567	0.01239646	-1.300645e-08	9.518696e-09	0.004764165	-0.004869338	-7.048864e-08	3.866303e-08
	-1.300645e-08	9.518696e-09	-0.02540017	0.0135427	-1.524432e-09	9.289603e-09	0.004886205	-0.00480331
	0.004764165	-0.004869338	-1.524432e-09	9.289603e-09	-0.02622331	0.01296555	-1.418106e-08	9.365974e-09
	-7.048864e-08	3.866303e-08	0.004886205	-0.00480331	-1.418106e-08	9.365974e-09	-0.0254119	0.01381609
1.9e+08	-0.02047406	0.01332836	-1.086877e-08	1.343152e-08	0.00311134	-0.003433215	-6.022745e-08	5.913248e-08
	-1.086877e-08	1.343152e-08	-0.01925939	0.01413118	-9.24142e-10	1.041628e-08	0.003204692	-0.003394789
	0.00311134	-0.003433215	-9.24142e-10	1.041628e-08	-0.02000978	0.01374461	-1.192912e-08	1.358325e-08
	-6.022745e-08	5.913248e-08	0.003204692	-0.003394789	-1.192912e-08	1.358325e-08	-0.01924294	0.01439028
2e+08	-0.01437154	0.01235374	-7.612731e-09	1.673638e-08	0.001911947	-0.001585898	-4.392692e-08	7.669684e-08
	-7.612731e-09	1.673638e-08	-0.01335542	0.01286343	-1.046417e-10	1.138582e-08	0.00196754	-0.001566825
	0.001911947	-0.001585898	-1.046417e-10	1.138582e-08	-0.01396564	0.01264256	-8.458816e-09	1.715815e-08
	-4.392692e-08	7.669684e-08	0.00196754	-0.001566825	-8.458816e-09	1.715815e-08	-0.01331809	0.01310037
2.1e+08	-0.008938319	0.009617066	-3.424109e-09	1.91069e-08	0.001259716	0.0005242718	-2.246328e-08	8.955541e-08
	-3.424109e-09	1.91069e-08	-0.00819458	0.009903585	8.878782e-10	1.213357e-08	0.001274061	0.0005381919
	0.001259716	0.0005242718	8.878782e-10	1.213357e-08	-0.008604275	0.009804555	-3.965591e-09	1.973039e-08
	-2.246328e-08	8.955541e-08	0.001274061	0.0005381919	-3.965591e-09	1.973039e-08	-0.008145855	0.01011302
2.2e+08	-0.0046302	0.005397307	1.418297e-09	2.027604e-08	0.001211282	0.00273293	2.749038e-09	9.618666e-08
	1.418297e-09	2.027604e-08	-0.004213296	0.005547584	1.98803e-09	1.260949e-08	0.001179615	0.002755599
	0.001211282	0.00273293	1.98803e-09	1.260949e-08	-0.004375338	0.005509007	1.248704e-09	2.100501e-08
	2.749038e-09	9.618666e-08	0.001179615	0.002755599	1.248704e-09	2.100501e-08	-0.004163958	0.005727227
2.3e+08	-0.001805372	8.513282e-05	6.561971e-09	2.006141e-08	0.001776867	0.004867425	2.985023e-08	9.550926e-08
	6.561971e-09	2.006141e-08	-0.00174503	0.0001978155	3.11648e-09	1.278426e-08	0.00169088	0.004911676
	0.001776867	0.004867425	3.11648e-09	1.278426e-08	-0.001631638	0.0001450239	6.801129e-09	2.078549e-08
	2.985023e-08	9.550926e-08	0.00169088	0.004911676	6.801129e-09	2.078549e-08	-0.001706215	0.0003486805
2.4e+08	-0.0006962833	-0.005848808	1.160584e-08	1.838406e-08	0.002909194	0.006755737	5.667534e-08	8.700994e-08
	1.160584e-08	1.838406e-08	-0.0009956853	-0.00567019	4.186062e-09	1.265091e-08	0.002765065	0.006837847
	0.002909194	0.006755737	4.186062e-09	1.265091e-08	-0.0006011068	-0.005819079	1.225786e-08	1.898362e-08
	5.667534e-08	8.700994e-08	0.002765065	0.006837847	1.225786e-08	1.898362e-08	-0.0009778844	-0.005543808
2.5e+08	-0.001394423	-0.01189236	1.612982e-08	1.528073e-08	0.004513821	0.008246558	8.093129e-08	7.082721e-08
	1.612982e-08	1.528073e-08	-0.002029285	-0.01154644	5.10803e-09	1.222786e-08	0.004313288	0.008384652
	0.004513821	0.008246558	5.10803e-09	1.222786e-08	-0.001371631	-0.01187401	1.716411e-08	1.563666e-08
	8.093129e-08	7.082721e-08	0.004313288	0.008384652	1.716411e-08	1.563666e-08	-0.00204141	-0.01143728
2.6e+08	-0.003845482	-0.01753254	1.972733e-08	1.090818e-08	0.006457027	0.009222049	1.003955e-07	4.777851e-08
	1.972733e-08	1.090818e-08	-0.004765053	-0.01692744	5.799401e-09	1.155932e-08	0.006207936	0.009434209
	0.006457027	0.009222049	5.799401e-09	1.155932e-08	-0.003886196	-0.01750996	2.107952e-08	1.091197e-08
	1.003955e-07	4.777851e-08	0.006207936	0.009434209	2.107952e-08	1.091197e-08	-0.004813648	-0.01682582
2.7e+08	-0.007855972	-0.0222957	2.203895e-08	5.538993e-09	0.008577166	0.009607764	1.131177e-07	1.932613e-08
	2.203895e-08	5.538993e-09	-0.008986134	-0.02135586	6.190479e-09	1.071352e-08	0.008293405	0.009910015
	0.008577166	0.009607764	6.190479e-09	1.071352e-08	-0.007949448	-0.02225654	2.361469e-08	5.102161e-09
	1.131177e-07	1.932613e-08	0.008293405	0.009910015	2.361469e-08	5.102161e-09	-0.009074686	-0.0212505
2.8e+08	-0.01311063	-0.02578389	2.278536e-08	-4.519059e-10	0.01069844	0.009378777	1.176064e-07	-1.251683e-08
	2.278536e-08	-4.519059e-10	-0.01435876	-0.02445614	6.231925e-09	9.778817e-09	0.01039924	0.009783131
	0.01069844	0.009378777	6.231925e-09	9.778817e-09	-0.01324502	-0.02571905	2.44667e-08	-1.389757e-09
	1.176064e-07	-1.251683e-08	0.01039924	0.009783131	2.44667e-08	-1.389757e-09	-0.01448737	-0.0243351
2.9e+08	-0.01919903	-0.0277048	2.179703e-08	-6.610171e-09	0.01264583	0.008561463	1.129816e-07	-4.533352e-08
	2.179703e-08	-6.610171e-09	-0.02046045	-0.02596286	5.900713e-09	8.857576e-09	0.01235445	0.009074224
	0.01264583	0.008561463	5.900713e-09	8.857576e-09	-0.01936201	-0.02760823	2.345076e-08	-8.075267e-09
	1.129816e-07	-4.533352e-08	0.01235445	0.009074224	2.345076e-08	-8.075267e-09	-0.02062578	-0.02581455
3e+08	-0.02564904	-0.02789273	1.903776e-08	-1.243412e-08	0.01425976	0.007230822	9.907998e-08	-7.64912e-08
	1.903776e-08	-1.243412e-08	-0.02681467	-0.02573995	5.204249e-09	8.058202e-09	0.01400166	0.007851327
	0.01425976	0.007230822	5.204249e-09	8.058202e-09	-0.02582837	-0.0277612	2.052525e-08	-1.441488e-08
	9.907998e-08	-7.64912e-08	0.01400166	0.007851327	2.052525e-08	-1.441488e-08	-0.02701015	-0.0255541
3.1e+08	-0.03196445	-0.02631952	1.461873e-08	-1.74144e-08	0.01540922	0.005503688	7.650181e-08	-1.033544e-07
	1.461873e-08	-1.74144e-08	-0.03292897	-0.02378939	4.182017e-09	7.485889e-09	0.0152099	0.006223654
	0.01540922	0.005503688	4.182017e-09	7.485889e-09	-0.03214832	-0.02615231	1.580658e-08	-1.986056e-08
	7.650181e-08	-1.033544e-07	0.0152099	0.006223654	1.580658e-08	-1.986056e-08	-0.03314529	-0.02355795
3.2e+08	-0.03766353	-0.02309459	8.800483e-09	-2.107844e-08	0.01600222	0.003528573	4.659534e-08	-1.235054e-07
	8.800483e-09	-2.107844e-08	-0.03833364	-0.02024903	2.904295e-09	7.232858e-09	0.01588479	0.00433213
	0.01600222	0.003528573	2.904295e-09	7.232858e-09	-0.03784095	-0.02289323	9.571214e-09	-2.390304e-08
	4.659534e-08	-1.235054e-07	0.01588479	0.00433213	9.571214e-09	-2.390304e-08	-0.03855949	-0.01996686
3.3e+08	-0.04231584	-0.01845464	1.980755e-09	-2.303561e-08	0.01599269	0.001473133	1.137829e-08	-1.349547e-07
	1.980755e-09	-2.303561e-08	-0.04261777	-0.01538002	1.467778e-09	7.369114e-09	0.01597565	0.0023376
	0.01599269	0.001473133	1.467778e-09	7.369114e-09	-0.04247685	-0.01822264	2.242881e-09	-2.611991e-08
	1.137829e-08	-1.349547e-07	0.01597565	0.0023376	2.242881e-09	-2.611991e-08	-0.04284075	-0.01504538
3.4e+08	-0.04557438	-0.0127439	-5.332077e-09	-2.301826e-08	0.01538367	-0.0004895926	-2.65982e-08	-1.363228e-07
	-5.332077e-09	-2.301826e-08	-0.04546021	-0.009545095	-1.169531e-11	7.934737e-09	0.01547882	0.000407762
	0.01538367	-0.0004895926	-1.169531e-11	7.934737e-09	-0.0457103	-0.01248648	-5.635414e-09	-2.621944e-08
	-2.65982e-08	-1.363228e-07	0.01547882	0.000407762	-5.635414e-09	-2.621944e-08	-0.04566784	-0.009159838
3.5e+08	-0.04720099	-0.00638677	-1.255836e-08	-2.09137e-08	0.01422638	-0.002195032	-6.443382e-08	-1.269807e-07
	-1.255836e-08	-2.09137e-08	-0.04665316	-0.00317958	-1.40871e-09	8.934695e-09	0.01443729	-0.001296087
	0.01422638	-0.002195032	-1.40871e-09	8.934695e-09	-0.04730456	-0.006110593	-1.344295e-08	-2.407487e-08
	-6.443382e-08	-1.269807e-07	0.01443729	-0.001296087	-1.344295e-08	-2.407487e-08	-0.04683388	-0.002749042
3.6e+08	-0.04708324	0.0001451114	-1.909601e-08	-1.67828e-08	0.01261567	-0.003499965	-9.909869e-08	-1.071341e-07
	-1.909601e-08	-1.67828e-08	-0.04611688	0.003242603	-2.599199e-09	1.033686e-08	0.01293684	-0.002631511
	0.01261567	-0.003499965	-2.599199e-09	1.033686e-08	-0.04714885	0.0004321746	-2.053302e-08	-1.974489e-08
	-9.909869e-08	-1.071341e-07	0.01293684	-0.002631511	-2.053302e-08	-1.974489e-08	-0.04626105	0.003709986
3.7e+08	-0.04524189	0.00636882	-2.437383e-08	-1.08625e-08	0.01068229	-0.004293548	-1.276724e-07	-7.784541e-08
	-2.437383e-08	-1.08625e-08	-0.04390472	0.009245353	-3.471586e-09	1.207353e-08	0.01109899	-0.003485751
	0.01068229	-0.004293548	-3.471586e-09	1.207353e-08	-0.04526569	0.006657962	-2.628972e-08	-1.347711e-08
	-1.276724e-07	-7.784541e-08	0.01109899	-0.003485751	-2.628972e-08	-1.347711e-08	-0.04400542	0.009738689
3.8e+08	-0.04182838	0.01182656	-2.790379e-08	-3.551355e-09	0.008582438	-0.004505763	-1.475853e-07	-4.098777e-08
	-2.790379e-08	-3.551355e-09	-0.04019814	0.01438659	-3.936945e-09	1.404637e-08	0.009071441	-0.003784206
	0.008582438	-0.004505763	-3.936945e-09	1.404637e-08	-0.04180849	0.01210835	-3.018398e-08	-5.693514e-09
	-1.475853e-07	-4.098777e-08	0.009071441	-0.003784206	-3.018398e-08	-5.693514e-09	-0.04025174	0.01489339
3.9e+08	-0.03711285	0.01611998	-2.932655e-08	4.620598e-09	0.006485647	-0.004112782	-1.568421e-07	8.683642e-10
	-2.932655e-08	4.620598e-09	-0.03529222	0.01829168	-3.93717e-09	1.613417e-08	0.007016681	-0.00349605
	0.006485647	-0.004112782	-3.93717e-09	1.613417e-08	-0.03704944	0.0163847	-3.182289e-08	3.040886e-09
	-1.568421e-07	8.683642e-10	0.007016681	-0.00349605	-3.182289e-08	3.040886e-09	-0.03529876	0.01879883
4e+08	-0.03146332	0.01893993	-2.844561e-08	1.30345e-08	0.004561594	-0.003138881	-1.542111e-07	4.463016e-08
	-2.844561e-08	1.30345e-08	-0.02957282	0.02068162	-3.450407e-09	1.820259e-08	0.005099482	-0.002636647
	0.004561594	-0.003138881	-3.450407e-09	1.820259e-08	-0.03135873	0.01917801	-3.098716e-08	1.20631e-08
	-1.542111e-07	4.463016e-08	0.005099482	-0.002636647	-3.098716e-08	1.20631e-08	-0.02953608	0.02117645
4.1e+08	-0.02531776	0.0200896	-2.524689e-08	2.103333e-08	0.002966849	-0.00165478	-1.393606e-07	8.690875e-08
	-2.524689e-08	2.103333e-08	-0.02348698	0.02139406	-2.493392e-09	2.011495e-08	0.003474155	-0.001266544
	0.002966849	-0.00165478	-2.493392e-09	2.011495e-08	-0.02517647	0.02029204	-2.765333e-08	2.066625e-08
	-1.393606e-07	8.690875e-08	0.003474155	-0.001266544	-2.765333e-08	2.066625e-08	-0.0234142	0.02186538
4.2e+08	-0.01915092	0.0194992	-1.99025e-08	2.797546e-08	0.001832461	0.0002275619	-1.129273e-07	1.242814e-07
	-1.99025e-08	2.797546e-08	-0.01750868	0.02039547	-1.120682e-09	2.174305e-08	0.002272433	0.0005129481
	0.001832461	0.0002275619	-1.120682e-09	2.174305e-08	-0.01897944	0.01965805	-2.199886e-08	2.815732e-08
	-1.129273e-07	1.242814e-07	0.002272433	0.0005129481	-2.199886e-08	2.815732e-08	-0.01741003	0.02083451
4.3e+08	-0.01343826	0.01723124	-1.275907e-08	3.32862e-08	0.00125329	0.00236343	-7.650968e-08	1.535698e-07
	-1.275907e-08	3.32862e-08	-0.01210252	0.01778361	5.789562e-10	2.29772e-08	0.001592876	0.002567382
	0.00125329	0.00236343	5.789562e-10	2.29772e-08	-0.01324495	0.01734005	-1.439053e-08	3.391321e-08
	-7.650968e-08	1.535698e-07	0.001592876	0.002567381	-1.439053e-08	3.391321e-08	-0.01199037	0.01818475
4.4e+08	-0.008619877	0.01347565	-4.312751e-09	3.650333e-08	0.001279984	0.004586582	-3.257953e-08	1.721115e-07
	-4.312751e-09	3.650333e-08	-0.007688092	0.01377987	2.488607e-09	2.373499e-08	0.00149268	0.004739562
	0.001279984	0.004586582	2.488607e-09	2.373499e-08	-0.008414584	0.01352995	-5.358035e-09	3.743051e-08
	-3.257953e-08	1.721115e-07	0.00149268	0.004739562	-5.358035e-09	3.743051e-08	-0.007576025	0.0141412
4.5e+08	-0.005066893	0.008535312	4.826582e-09	3.731347e-08	0.001914335	0.006722473	1.568389e-08	1.780011e-07
	4.826582e-09	3.731347e-08	-0.004607691	0.008712157	4.471247e-09	2.396808e-08	0.001982631	0.006861988
	0.001914335	0.006722473	4.471247e-09	2.396808e-08	-0.004860506	0.008532963	4.444448e-09	3.836569e-08
	1.568389e-08	1.780011e-07	0.001982631	0.006861988	4.444448e-09	3.836569e-08	-0.004509414	0.009035667
4.6e+08	-0.003053131	0.002802806	1.397399e-08	3.558036e-08	0.003108551	0.008602445	6.461289e-08	1.702431e-07
	1.397399e-08	3.558036e-08	-0.003100001	0.002989409	6.377973e-09	2.366532e-08	0.003025771	0.008770397
	0.003108551	0.008602445	6.377973e-09	2.366532e-08	-0.002857092	0.002744248	1.428075e-08	3.656533e-08
	6.461289e-08	1.702431e-07	0.003025771	0.008770397	1.428075e-08	3.656533e-08	-0.003028181	0.003280948
4.7e+08	-0.002734454	-0.003269807	2.243046e-08	3.134841e-08	0.004768668	0.01007773	1.103535e-07	1.489724e-07
	2.243046e-08	3.134841e-08	-0.003281851	-0.002930153	8.061574e-09	2.286042e-08	0.004540031	0.01031728
	0.004768668	0.01007773	8.061574e-09	2.286042e-08	-0.002559994	-0.003381383	2.339724e-08	3.207275e-08
	1.103535e-07	1.489724e-07	0.004540031	0.01031728	2.339724e-08	3.207275e-08	-0.003247177	-0.002661317
