!$
! Info: Touchstone file created by Circ.  Input file=Tx_16in_Rx_100ohms_TxVia_35mils_RxVia_45mils.circ
!$
# Hz S RI R 50
0	0.01648346	1.943394e-25	1.731518e-08	3.65386e-26	0.0001032487	3.143254e-23	3.370668e-08	8.080396e-27
	1.73152e-08	3.653733e-26	0.01648229	2.280646e-25	3.363301e-08	1.326223e-25	0.0001036643	3.736638e-23
	0.0001014069	3.227811e-23	3.363302e-08	1.326226e-25	0.01649563	1.852438e-25	2.055299e-08	4.333179e-26
	3.370668e-08	8.081036e-27	0.000101815	3.755017e-23	2.0553e-08	4.333298e-26	0.01649529	2.137052e-25
1e+07	0.02474302	0.008780217	3.089342e-08	4.470746e-08	0.001181965	0.002812791	1.009756e-07	1.276927e-07
	3.089342e-08	4.470745e-08	0.02473267	0.00877965	5.946732e-08	1.505895e-07	0.001176743	0.002814661
	0.001181903	0.002812793	5.946732e-08	1.505895e-07	0.02452193	0.008828566	3.651825e-08	5.358538e-08
	1.009756e-07	1.276927e-07	0.001176681	0.002814671	3.651825e-08	5.358538e-08	0.02450943	0.00882877
2e+07	0.03262743	0.01052397	5.628272e-08	7.119922e-08	0.002346929	0.005595825	2.231739e-07	1.779296e-07
	5.628272e-08	7.119922e-08	0.03258818	0.0105318	8.482368e-08	2.690158e-07	0.002327868	0.005604925
	0.002346915	0.005595864	8.482368e-08	2.690158e-07	0.03250303	0.01068095	6.66745e-08	8.532873e-08
	2.231737e-07	1.779297e-07	0.002327858	0.00560496	6.66745e-08	8.532873e-08	0.03245598	0.01069244
3e+07	0.03901802	0.008591866	8.412671e-08	8.41248e-08	0.004249616	0.007581524	3.678893e-07	1.582138e-07
	8.412671e-08	8.41248e-08	0.03893686	0.008625608	1.03526e-07	3.794515e-07	0.004211369	0.007606621
	0.004249618	0.00758153	1.03526e-07	3.794515e-07	0.038979	0.00877548	9.968607e-08	1.009894e-07
	3.678893e-07	1.582138e-07	0.004211369	0.007606627	9.968607e-08	1.009894e-07	0.03888227	0.008819319
4e+07	0.04394545	0.004530465	1.096999e-07	8.282491e-08	0.006674818	0.00875024	5.064081e-07	6.11353e-08
	1.096999e-07	8.282491e-08	0.04381803	0.004612174	1.174476e-07	4.84336e-07	0.006616381	0.008801985
	0.006674813	0.008750235	1.174476e-07	4.843359e-07	0.04398106	0.004706662	1.300187e-07	9.984822e-08
	5.064081e-07	6.11353e-08	0.006616375	0.008801983	1.300187e-07	9.984822e-08	0.04382988	0.004809118
5e+07	0.04719359	-0.0009730543	1.267455e-07	6.873108e-08	0.009468999	0.008867915	6.047957e-07	-1.079392e-07
	1.267455e-07	6.873108e-08	0.04702553	-0.0008200331	1.254183e-07	5.854659e-07	0.009394103	0.008956803
	0.009468995	0.008867913	1.254183e-07	5.854659e-07	0.04728873	-0.0008276426	1.503464e-07	8.355076e-08
	6.047957e-07	-1.079392e-07	0.009394099	0.008956801	1.503464e-07	8.355076e-08	0.0470902	-0.0006389095
6e+07	0.04859074	-0.007317573	1.304192e-07	4.584517e-08	0.01208929	0.008114379	6.332999e-07	-3.301425e-07
	1.304192e-07	4.584518e-08	0.04839778	-0.007072953	1.26735e-07	6.853313e-07	0.01200629	0.008249169
	0.01208929	0.00811438	1.26735e-07	6.853313e-07	0.04872663	-0.007218385	1.548464e-07	5.678756e-08
	6.332999e-07	-3.301425e-07	0.01200629	0.008249169	1.548464e-07	5.678756e-08	0.04849985	-0.006919491
7e+07	0.04806939	-0.01392233	1.173396e-07	1.975421e-08	0.01428229	0.006596399	5.707169e-07	-5.759938e-07
	1.173396e-07	1.975422e-08	0.04787554	-0.01357296	1.213882e-07	7.865548e-07	0.01420311	0.006782244
	0.0142823	0.006596397	1.213882e-07	7.865548e-07	0.04822514	-0.0138772	1.394917e-07	2.619994e-08
	5.707169e-07	-5.759938e-07	0.01420312	0.006782241	1.394917e-07	2.619996e-08	0.04799898	-0.01345288
8e+07	0.04569316	-0.02022937	8.630717e-08	-2.869662e-09	0.01583837	0.004491397	4.077757e-07	-8.089025e-07
	8.630719e-08	-2.869642e-09	0.04552739	-0.01977214	1.101888e-07	8.91658e-07	0.01577699	0.004728601
	0.01583839	0.00449139	1.101888e-07	8.91658e-07	0.04584774	-0.02023873	1.028751e-07	-2.937391e-10
	4.077757e-07	-8.089025e-07	0.015777	0.004728595	1.028751e-07	-2.937049e-10	0.04565682	-0.01968578
9e+07	0.04166161	-0.02573037	3.863407e-08	-1.504347e-08	0.01661181	0.002031503	1.492876e-07	-9.896439e-07
	3.863409e-08	-1.504345e-08	0.04155376	-0.02517367	9.474158e-08	1.002822e-06	0.0165823	0.002314885
	0.01661183	0.002031495	9.474159e-08	1.002822e-06	0.04179567	-0.02578783	4.656844e-08	-1.443887e-08
	1.492876e-07	-9.896439e-07	0.01658231	0.002314879	4.656848e-08	-1.443884e-08	0.04167548	-0.02511675
1e+08	0.03631463	-0.03000042	-2.177493e-08	-1.037e-08	0.01652792	-0.0005182029	-1.853226e-07	-1.081513e-06
	-2.177493e-08	-1.037e-08	0.03629103	-0.0293641	7.735474e-08	1.121605e-06	0.01654242	-0.000199222
	0.01652792	-0.0005182029	7.735474e-08	1.121605e-06	0.03641054	-0.03009365	-2.481355e-08	-8.696498e-09
	-1.853226e-07	-1.081513e-06	0.01654242	-0.000199222	-2.481355e-08	-8.696498e-09	0.03639225	-0.02932855
1.1e+08	0.03000218	-0.03281609	-8.864029e-08	1.600505e-08	0.01563489	-0.002847496	-5.624856e-07	-1.055368e-06
	-8.864029e-08	1.600505e-08	0.0300808	-0.03213149	6.090372e-08	1.249071e-06	0.01570172	-0.002508413
	0.01563489	-0.002847496	6.090372e-08	1.249071e-06	0.03005337	-0.03292191	-1.038885e-07	2.275789e-08
	-5.624856e-07	-1.055368e-06	0.01570172	-0.002508413	-1.038885e-07	2.275789e-08	0.03015893	-0.03209956
1.2e+08	0.02317649	-0.03384772	-1.540984e-07	6.656687e-08	0.01405338	-0.004765285	-9.391208e-07	-8.961698e-07
	-1.540984e-07	6.656687e-08	0.02336463	-0.03314957	4.858854e-08	1.385169e-06	0.01417488	-0.004424246
	0.01405338	-0.004765285	4.858854e-08	1.385169e-06	0.0231859	-0.0339507	-1.813146e-07	8.28207e-08
	-9.391208e-07	-8.961698e-07	0.01417488	-0.004424246	-1.813146e-07	8.28207e-08	0.02342377	-0.0331141
1.3e+08	0.01640014	-0.03305003	-2.094021e-07	1.409062e-07	0.01193787	-0.00607335	-1.267569e-06	-6.040431e-07
	-2.094021e-07	1.409062e-07	0.01669305	-0.0323765	4.35849e-08	1.528498e-06	0.01210987	-0.00574935
	0.01193787	-0.00607335	4.35849e-08	1.528498e-06	0.01637323	-0.03313607	-2.467597e-07	1.710017e-07
	-1.267569e-06	-6.040431e-07	0.01210987	-0.00574935	-2.467597e-07	1.710017e-07	0.01673656	-0.03233165
1.4e+08	0.0101942	-0.03053487	-2.460482e-07	2.354503e-07	0.009507619	-0.006635131	-1.500861e-06	-1.961899e-07
	-2.460482e-07	2.354503e-07	0.01057337	-0.0299229	4.854319e-08	1.676577e-06	0.009719132	-0.006345651
	0.009507619	-0.006635131	4.854319e-08	1.676577e-06	0.01014025	-0.03059257	-2.901871e-07	2.830831e-07
	-1.500861e-06	-1.961899e-07	0.009719132	-0.006345651	-2.901871e-07	2.830831e-07	0.01060555	-0.02986445
1.5e+08	0.005015657	-0.02655543	-2.56919e-07	3.436079e-07	0.007014967	-0.006391468	-1.598815e-06	2.937814e-07
	-2.56919e-07	3.436079e-07	0.005449185	-0.02603556	6.519435e-08	1.82601e-06	0.00724889	-0.006150061
	0.007014967	-0.006391468	6.519435e-08	1.82601e-06	0.004946871	-0.02657713	-3.031973e-07	4.112951e-07
	-1.598815e-06	2.937814e-07	0.00724889	-0.006150061	-3.031973e-07	4.112951e-07	0.005474905	-0.02596109
1.6e+08	0.001222901	-0.02148152	-2.373511e-07	4.563332e-07	0.00471782	-0.005366744	-1.533681e-06	8.186575e-07
	-2.373511e-07	4.563332e-07	0.001667989	-0.0210729	9.403011e-08	1.972829e-06	0.004952379	-0.005180906
	0.00471782	-0.005366744	9.403011e-08	1.972829e-06	0.001153171	-0.02146391	-2.802787e-07	5.449832e-07
	-1.533681e-06	8.186575e-07	0.004952379	-0.005180906	-2.802787e-07	5.449832e-07	0.001692149	-0.02098175
1.7e+08	-0.0009518856	-0.01576552	-1.859653e-07	5.630738e-07	0.00285234	-0.003665924	-1.294606e-06	1.322325e-06
	-1.859653e-07	5.630738e-07	-0.0005446394	-0.01547211	1.341236e-07	2.112965e-06	0.003063303	-0.003535549
	0.00285234	-0.003665924	1.341236e-07	2.112965e-06	-0.001008358	-0.01570996	-2.197769e-07	6.717176e-07
	-1.294606e-06	1.322325e-06	0.003063303	-0.003535549	-2.197769e-07	6.717176e-07	-0.0005175802	-0.01536519
1.8e+08	-0.001419694	-0.009901897	-1.05117e-07	6.529915e-07	0.001608383	-0.001463029	-8.902974e-07	1.745888e-06
	-1.05117e-07	6.529915e-07	-0.001100717	-0.009710334	1.831343e-07	2.242761e-06	0.001771755	-0.001379676
	0.001608383	-0.001463029	1.831343e-07	2.242761e-06	-0.001449785	-0.009814238	-1.244236e-07	7.787215e-07
	-8.902974e-07	1.745888e-06	0.001771755	-0.001379677	-1.244236e-07	7.787215e-07	-0.001067126	-0.009589831
1.9e+08	-0.0002392088	-0.004383506	-8.808638e-10	7.163001e-07	0.001110166	0.001017552	-3.494712e-07	2.034511e-06
	-8.808638e-10	7.163001e-07	-5.382273e-05	-0.004263128	2.375097e-07	2.359471e-06	0.001205061	0.001070418
	0.001110166	0.001017552	2.375097e-07	2.359471e-06	-0.0002322127	-0.004273654	-1.324851e-09	8.544339e-07
	-3.494712e-07	2.034511e-06	0.001205061	0.001070418	-1.324851e-09	8.544339e-07	-1.117025e-05	-0.004132135
2e+08	0.002391591	0.0003411806	1.174469e-07	7.455342e-07	0.001404075	0.003524761	2.810893e-07	2.144162e-06
	1.174469e-07	7.455342e-07	0.002409084	0.0004361912	2.928592e-07	2.461645e-06	0.001415431	0.003570552
	0.001404075	0.003524761	2.928592e-07	2.461645e-06	0.002442794	0.0004601663	1.386113e-07	8.899991e-07
	2.810893e-07	2.144162e-06	0.001415431	0.003570552	1.386113e-07	8.899991e-07	0.002462076	0.0005740741
2.1e+08	0.006155947	0.003906246	2.382698e-07	7.365783e-07	0.002454748	0.00580698	9.407078e-07	2.047458e-06
	2.382698e-07	7.365783e-07	0.00598722	0.004032725	3.44446e-07	2.549364e-06	0.002375536	0.005873867
	0.002454748	0.00580698	3.44446e-07	2.549364e-06	0.006253996	0.004019374	2.817422e-07	8.8048e-07
	9.407078e-07	2.047458e-06	0.002375536	0.005873867	2.817422e-07	8.8048e-07	0.006050534	0.004173808
2.2e+08	0.01064892	0.006058451	3.489199e-07	6.893196e-07	0.004149598	0.00763776	1.560817e-06	1.737874e-06
	3.489199e-07	6.893196e-07	0.01029499	0.00627856	3.877224e-07	2.624274e-06	0.003982259	0.007755868
	0.004149598	0.00763776	3.877224e-07	2.624274e-06	0.01079147	0.006150271	4.13123e-07	8.256418e-07
	1.560817e-06	1.737874e-06	0.003982259	0.007755868	4.13123e-07	8.256418e-07	0.01036739	0.006419456
2.3e+08	0.01541516	0.006676746	4.370371e-07	6.078508e-07	0.006311123	0.008838577	2.072153e-06	1.231798e-06
	4.370371e-07	6.078508e-07	0.01489773	0.007051333	4.188382e-07	2.689443e-06	0.006068009	0.009036781
	0.006311123	0.008838577	4.188382e-07	2.689443e-06	0.01559488	0.006732968	5.18125e-07	7.302109e-07
	2.072153e-06	1.231798e-06	0.006068009	0.009036781	5.18125e-07	7.302109e-07	0.01497692	0.007189312
2.4e+08	0.01999029	0.005779643	4.9194e-07	5.002073e-07	0.008715527	0.009296402	2.412375e-06	5.681124e-07
	4.9194e-07	5.002073e-07	0.01935082	0.006361361	4.350586e-07	2.74906e-06	0.008418269	0.009599066
	0.008715527	0.009296402	4.350586e-07	2.74906e-06	0.02019536	0.005788722	5.840558e-07	6.035887e-07
	2.412375e-06	5.681124e-07	0.008418269	0.009599066	5.840558e-07	6.035887e-07	0.01943375	0.00649464
2.5e+08	0.02394222	0.003520107	5.058399e-07	3.77681e-07	0.0111157	0.008974494	2.533277e-06	-1.947035e-07
	5.058399e-07	3.77681e-07	0.02323871	0.004347064	4.35059e-07	2.808034e-06	0.01079351	0.009398518
	0.0111157	0.008974494	4.35059e-07	2.808034e-06	0.02415732	0.003474639	6.016067e-07	4.590606e-07
	2.533277e-06	-1.947035e-07	0.01079351	0.009398518	6.016067e-07	4.590606e-07	0.02332191	0.004474993
2.6e+08	0.02690861	0.0001686633	4.74783e-07	2.537875e-07	0.0132662	0.007915515	2.40683e-06	-9.837327e-07
	4.74783e-07	2.537875e-07	0.02621044	0.001259305	4.190793e-07	2.871535e-06	0.01295327	0.008468016
	0.0132662	0.007915515	4.190793e-07	2.871535e-06	0.02711637	6.64062e-05	5.659862e-07	3.125872e-07
	2.40683e-06	-9.837327e-07	0.01295327	0.008468016	5.659862e-07	3.125872e-07	0.02629038	0.00138244
2.7e+08	0.02862743	-0.003913498	3.992393e-07	1.429885e-07	0.01494789	0.006236801	2.029351e-06	-1.718576e-06
	3.992393e-07	1.429885e-07	0.02800862	-0.002563644	3.889427e-07	2.944513e-06	0.01468007	0.006913713
	0.01494789	0.006236801	3.889427e-07	2.944513e-06	0.02881016	-0.004069082	4.776385e-07	1.812927e-07
	2.029351e-06	-1.718576e-06	0.01468007	0.006913713	4.776385e-07	1.812927e-07	0.02808214	-0.002443588
2.8e+08	0.02895802	-0.008308862	2.842866e-07	5.927594e-08	0.01598979	0.004118313	1.423309e-06	-2.31945e-06
	2.842866e-07	5.927594e-08	0.02848964	-0.006728162	3.479475e-07	3.031248e-06	0.01580093	0.004904094
	0.01598979	0.004118313	3.479475e-07	3.031248e-06	0.0290996	-0.00850865	3.424776e-07	8.178121e-08
	1.423309e-06	-2.31945e-06	0.01580093	0.004904094	3.424776e-07	8.178121e-08	0.02855431	-0.006608474
2.9e+08	0.02789109	-0.0125823	1.393645e-07	1.473371e-08	0.01628615	0.00178446	6.364769e-07	-2.715648e-06
	1.393645e-07	1.473371e-08	0.02763354	-0.01082147	3.00641e-07	3.134919e-06	0.01620441	0.002653002
	0.01628615	0.00178446	3.00641e-07	3.134919e-06	0.02797873	-0.01281217	1.716043e-07	2.842048e-08
	6.364769e-07	-2.715648e-06	0.01620441	0.002653002	1.716043e-07	2.842048e-08	0.02768792	-0.01069874
3e+08	0.02554679	-0.01632067	-2.240744e-08	1.819432e-08	0.01580712	-0.000518495	-2.616315e-07	-2.853508e-06
	-2.240744e-08	1.819432e-08	0.02554281	-0.01444879	2.524805e-07	3.257254e-06	0.01585169	0.0003982102
	0.01580712	-0.000518495	2.524805e-07	3.257254e-06	0.02557259	-0.01656272	-1.950092e-08	3.173953e-08
	-2.616315e-07	-2.853508e-06	0.01585169	0.0003982102	-1.950092e-08	3.173953e-08	0.02558667	-0.01431927
3.1e+08	0.02216135	-0.01916992	-1.85321e-07	7.411692e-08	0.01460185	-0.002547272	-1.185804e-06	-2.703041e-06
	-1.85321e-07	7.411692e-08	0.02243048	-0.01726824	2.093865e-07	3.39825e-06	0.01478042	-0.001622401
	0.01460185	-0.002547272	2.093865e-07	3.39825e-06	0.0221234	-0.01940417	-2.122764e-07	9.709394e-08
	-1.185804e-06	-2.703041e-06	0.01478042	-0.001622401	-2.122764e-07	9.709394e-08	0.02246484	-0.01712824
3.2e+08	0.01806336	-0.02086634	-3.32524e-07	1.818164e-07	0.01279371	-0.004086261	-2.043178e-06	-2.262434e-06
	-3.32524e-07	1.818164e-07	0.01859861	-0.01902049	1.772032e-07	3.556031e-06	0.01310098	-0.003194778
	0.01279371	-0.004086261	1.772032e-07	3.556031e-06	0.01796626	-0.02107271	-3.867945e-07	2.237542e-07
	-2.043178e-06	-2.262434e-06	0.01310098	-0.003194778	-3.867945e-07	2.237542e-07	0.01862571	-0.01886682
3.3e+08	0.01364209	-0.02125934	-4.477109e-07	3.35165e-07	0.010568	-0.004969579	-2.742567e-06	-1.559833e-06
	-4.477109e-07	3.35165e-07	0.01440916	-0.01955064	1.610968e-07	3.726877e-06	0.01098549	-0.00415037
	0.010568	-0.004969579	1.610968e-07	3.726877e-06	0.01349674	-0.02141978	-5.237633e-07	4.045581e-07
	-2.742567e-06	-1.559833e-06	0.01098549	-0.00415037	-5.237633e-07	4.045581e-07	0.01443218	-0.01938097
3.4e+08	0.009310378	-0.02032359	-5.169044e-07	5.228586e-07	0.008153163	-0.00509822	-3.204132e-06	-6.520435e-07
	-5.169044e-07	5.228586e-07	0.01024978	-0.01882037	1.649498e-07	3.905448e-06	0.008650387	-0.004383316
	0.008153163	-0.00509822	1.649498e-07	3.905448e-06	0.009133219	-0.02042405	-6.066279e-07	6.262315e-07
	-3.204132e-06	-6.520435e-07	0.008650387	-0.004383316	-6.066279e-07	6.262315e-07	0.01027256	-0.01863352
3.5e+08	0.00546588	-0.01815948	-5.301296e-07	7.292859e-07	0.005797498	-0.004450438	-3.368387e-06	3.799196e-07
	-5.301296e-07	7.292859e-07	0.006497764	-0.01690931	1.908271e-07	4.085229e-06	0.006334496	-0.003861321
	0.005797498	-0.004450438	1.908271e-07	4.085229e-06	0.005277356	-0.0181916	-6.235377e-07	8.704152e-07
	-3.368387e-06	3.799196e-07	0.006334496	-0.003861321	-6.235377e-07	8.704152e-07	0.006524364	-0.01670542
3.6e+08	0.002453972	-0.01498187	-4.827633e-07	9.3596e-07	0.003743638	-0.003084197	-3.203492e-06	1.438104e-06
	-4.827633e-07	9.3596e-07	0.003485358	-0.01400559	2.386016e-07	4.259163e-06	0.004274611	-0.002629029
	0.003743638	-0.003084197	2.386016e-07	4.259163e-06	0.00227662	-0.0149441	-5.689283e-07	1.115347e-06
	-3.203492e-06	1.438104e-06	0.004274611	-0.002629029	-5.689283e-07	1.115347e-06	0.003519636	-0.01378614
3.7e+08	0.0005360066	-0.01109822	-3.763546e-07	1.123386e-06	0.002203524	-0.001131337	-2.709941e-06	2.417079e-06
	-3.763546e-07	1.123386e-06	0.001469729	-0.01038642	3.058162e-07	4.420422e-06	0.002681281	-0.0008034433
	0.002203524	-0.001131337	3.058162e-07	4.420422e-06	0.0003921844	-0.01099624	-4.444862e-07	1.338047e-06
	-2.709941e-06	2.417079e-06	0.002681281	-0.0008034434	-4.444862e-07	1.338047e-06	0.001514885	-0.0101541
3.8e+08	-0.0001341555	-0.006878082	-2.187738e-07	1.273156e-06	0.001336514	0.001215976	-1.921996e-06	3.214634e-06
	-2.187738e-07	1.273156e-06	0.0006103436	-0.006390698	3.878282e-07	4.563192e-06	0.001717272	0.001438126
	0.001336514	0.001215976	3.878282e-07	4.563192e-06	-0.0002245963	-0.00672457	-2.593306e-07	1.516772e-06
	-1.921996e-06	3.214634e-06	0.001717272	0.001438126	-2.593306e-07	1.516772e-06	0.0006685537	-0.006149117
3.9e+08	0.0004768836	-0.00271724	-2.362821e-08	1.370019e-06	0.001232997	0.003725076	-9.055707e-07	3.742576e-06
	-2.362821e-08	1.370019e-06	0.0009558557	-0.00238617	4.782391e-07	4.683393e-06	0.001481039	0.003876341
	0.001232996	0.003725076	4.782391e-07	4.683393e-06	0.0004550177	-0.002530785	-2.934565e-08	1.633435e-06
	-9.055707e-07	3.742576e-06	0.001481039	0.003876341	-2.934565e-08	1.633435e-06	0.001028003	-0.002139516
4e+08	0.002280748	0.001000308	1.910041e-07	1.403659e-06	0.001905199	0.006146778	2.47332e-07	3.936454e-06
	1.910041e-07	1.403659e-06	0.002441624	0.001265474	5.695584e-07	4.779197e-06	0.001996884	0.00627236
	0.001905199	0.006146778	5.695584e-07	4.779197e-06	0.00233625	0.001196867	2.242833e-07	1.675699e-06
	2.47332e-07	3.936454e-06	0.001996884	0.00627236	2.242833e-07	1.675699e-06	0.002527175	0.001512917
4.1e+08	0.0050776	0.003938591	4.043793e-07	1.369947e-06	0.003286134	0.008240946	1.42712e-06	3.763102e-06
	4.043793e-07	1.369947e-06	0.004897928	0.00424235	6.540124e-07	4.851283e-06	0.003212812	0.008392224
	0.003286134	0.008240946	6.540124e-07	4.851283e-06	0.005211728	0.004120356	4.77163e-07	1.638466e-06
	1.42712e-06	3.763102e-06	0.003212812	0.008392224	4.77163e-07	1.638466e-06	0.004994963	0.004486667
4.2e+08	0.008576889	0.005840744	5.952104e-07	1.271541e-06	0.005236672	0.009800959	2.517203e-06	3.225165e-06
	5.952104e-07	1.271541e-06	0.008067885	0.006291692	7.243853e-07	4.902795e-06	0.005006169	0.01003054
	0.005236672	0.009800959	7.243853e-07	4.902795e-06	0.008782968	0.005983232	7.041697e-07	1.524608e-06
	2.517203e-06	3.225165e-06	0.005006169	0.01003054	7.041697e-07	1.524608e-06	0.008173283	0.006529773
4.3e+08	0.01242635	0.006552058	7.438593e-07	1.117742e-06	0.007559918	0.01067458	3.405615e-06	2.36205e-06
	7.438593e-07	1.117742e-06	0.01163315	0.007252092	7.747821e-07	4.939023e-06	0.007196391	0.01103104
	0.007559918	0.01067458	7.747821e-07	4.939023e-06	0.01269018	0.0066337	8.820223e-07	1.344848e-06
	3.405615e-06	2.36205e-06	0.007196391	0.01103104	8.820223e-07	1.344848e-06	0.0117429	0.007481995
4.4e+08	0.01624629	0.006032934	8.343565e-07	9.236787e-07	0.01002129	0.01077918	3.996461e-06	1.247167e-06
	8.343565e-07	9.236787e-07	0.01524477	0.007066744	8.012277e-07	4.966862e-06	0.009563428	0.01130203
	0.01002129	0.01077918	8.012277e-07	4.966862e-06	0.01654734	0.006037357	9.91674e-07	1.116832e-06
	3.996461e-06	1.247167e-06	0.009563428	0.01130203	9.91674e-07	1.116832e-06	0.01535442	0.007287922
4.5e+08	0.01966587	0.004360791	8.560507e-07	7.089091e-07	0.01237223	0.01010982	4.220053e-06	-1.832211e-08
	8.560507e-07	7.089091e-07	0.01855627	0.005786701	8.020505e-07	4.994131e-06	0.01186994	0.01082529
	0.01237223	0.01010982	8.020505e-07	4.994131e-06	0.01997912	0.00427864	1.020286e-06	8.635172e-07
	4.220053e-06	-1.832211e-08	0.01186994	0.01082529	1.020286e-06	8.635172e-07	0.01866136	0.006000096
4.6e+08	0.02235787	0.001720978	8.047479e-07	4.955998e-07	0.01437514	0.008739669	4.040711e-06	-1.314682e-06
	8.047479e-07	4.955998e-07	0.02125569	0.003564103	7.780361e-07	5.028833e-06	0.01388501	0.009657548
	0.01437514	0.008739669	7.780361e-07	5.028833e-06	0.0226562	0.001551082	9.626141e-07	6.110468e-07
	4.040711e-06	-1.314682e-06	0.01388501	0.009657548	9.626141e-07	6.110468e-07	0.02135226	0.003772074
4.7e+08	0.02406886	-0.001612233	6.832583e-07	3.064596e-07	0.01582714	0.006812592	3.461415e-06	-2.51487e-06
	6.832583e-07	3.064596e-07	0.02309396	0.0006362607	7.323633e-07	5.078428e-06	0.01540707	0.007924699
	0.01582714	0.006812592	7.323633e-07	5.078428e-06	0.02432565	-0.001862534	8.216882e-07	3.863096e-07
	3.461415e-06	-2.51487e-06	0.01540707	0.007924699	8.216882e-07	3.863096e-07	0.02317894	0.0008423079
4.8e+08	0.02464202	-0.00530264	5.013201e-07	1.625955e-07	0.01658033	0.00452887	2.524809e-06	-3.496848e-06
	5.013201e-07	1.625955e-07	0.02390684	-0.002697782	6.703515e-07	5.149151e-06	0.0162839	0.005809199
