!$
! Info: Touchstone file created by Circ.  Input file=Tx_12in_Rx_93ohms_TxVia_35mils_RxVia_45mils.circ
!$
# Hz S RI R 50
0	0.01101945	1.463549e-25	-6.442697e-05	3.73848e-24	8.333179e-05	2.057824e-23	-6.440765e-05	1.409433e-24
	-6.4427e-05	3.741807e-24	0.01101774	1.793703e-25	-6.4438e-05	5.270625e-24	8.319632e-05	2.493563e-23
	8.314626e-05	2.049185e-23	-6.443797e-05	5.267807e-24	0.01103005	1.463295e-25	-6.442392e-05	3.590533e-24
	-6.440767e-05	1.412041e-24	8.134806e-05	2.505838e-23	-6.442393e-05	3.592634e-24	0.01103083	1.680659e-25
1e+07	0.01568677	-0.001443004	-0.0002978894	1.585584e-05	0.0004436401	0.002226271	-5.94931e-05	-6.621447e-06
	-0.0002978894	1.585584e-05	0.01600266	-0.001477263	-0.000154389	8.413306e-05	0.0004384129	0.002219344
	0.0004436346	0.002226272	-0.000154389	8.413305e-05	0.01602661	-0.001488323	-0.0002975283	1.859125e-05
	-5.949309e-05	-6.621451e-06	0.0004383522	0.002219354	-0.0002975283	1.859125e-05	0.01568705	-0.001472716
2e+07	0.0180211	-0.006909966	-0.0002531333	-3.42369e-05	0.001184302	0.004359662	-3.342258e-05	-6.27864e-05
	-0.0002531333	-3.42369e-05	0.01820915	-0.007074018	-0.0001493295	6.384087e-05	0.001169863	0.004350219
	0.001184304	0.004359666	-0.0001493295	6.384086e-05	0.01825984	-0.007104378	-0.0002519614	-3.941208e-05
	-3.342258e-05	-6.27864e-05	0.001169854	0.004350254	-0.0002519614	-3.941209e-05	0.01797563	-0.006959522
3e+07	0.01781583	-0.01368908	-0.0002266467	-5.529316e-05	0.002481935	0.006112999	-4.465444e-05	-7.423378e-05
	-0.0002266467	-5.529316e-05	0.01787643	-0.0138759	-0.0001370804	6.905601e-05	0.002434672	0.006115534
	0.002481938	0.006112998	-0.0001370804	6.905601e-05	0.01796702	-0.01393976	-0.0002246104	-6.182149e-05
	-4.465444e-05	-7.423379e-05	0.002434672	0.00611554	-0.0002246104	-6.182149e-05	0.01770192	-0.01373799
4e+07	0.01554415	-0.02043135	-0.0002076294	-6.255026e-05	0.004181928	0.007440573	-7.977146e-05	-6.218038e-05
	-0.0002076294	-6.255026e-05	0.01547678	-0.02059215	-0.0001209503	7.259738e-05	0.004109005	0.00746201
	0.004181928	0.007440571	-0.0001209503	7.259738e-05	0.01561458	-0.02070809	-0.0002051036	-7.019825e-05
	-7.977146e-05	-6.218037e-05	0.004109	0.007462008	-0.0002051036	-7.019825e-05	0.01534547	-0.02045416
5e+07	0.01152594	-0.0265217	-0.0001926025	-6.391337e-05	0.006116046	0.008298283	-0.0001068783	-4.067119e-05
	-0.0001926025	-6.391337e-05	0.01133678	-0.02661507	-0.0001037963	7.00912e-05	0.006017807	0.008348478
	0.006116046	0.008298283	-0.0001037963	7.00912e-05	0.01152201	-0.02680453	-0.0001898493	-7.257946e-05
	-0.0001068783	-4.067118e-05	0.006017804	0.008348477	-0.0001898493	-7.257946e-05	0.01123435	-0.02648817
6e+07	0.006097801	-0.03153177	-0.0001793916	-6.214912e-05	0.00816361	0.008649379	-0.0001258763	-1.259575e-05
	-0.0001793916	-6.214912e-05	0.005801673	-0.03152079	-8.896085e-05	6.02427e-05	0.008043457	0.008737951
	0.008163611	0.008649379	-8.896085e-05	6.02427e-05	0.00602657	-0.03180531	-0.0001766108	-7.176981e-05
	-0.0001258763	-1.259575e-05	0.00804346	0.00873795	-0.0001766108	-7.176981e-05	0.005715017	-0.03140971
7e+07	-0.0003659327	-0.03515857	-0.0001664399	-5.873351e-05	0.01019801	0.00848645	-0.000136358	2.004478e-05
	-0.0001664399	-5.873351e-05	-0.0007455731	-0.0350119	-7.991614e-05	4.351106e-05	0.01006233	0.008621947
	0.01019801	0.00848645	-7.991614e-05	4.351106e-05	-0.000496369	-0.03541037	-0.0001637846	-6.925236e-05
	-0.000136358	2.004478e-05	0.01006234	0.008621944	-0.0001637846	-6.925236e-05	-0.0008281642	-0.03491703
8e+07	-0.007460304	-0.03721068	-0.0001524332	-5.469971e-05	0.01209487	0.007832657	-0.0001376759	5.558409e-05
	-0.0001524332	-5.469971e-05	-0.007892425	-0.03690423	-7.988551e-05	2.173159e-05	0.01195273	0.008021703
	0.01209488	0.007832656	-7.988551e-05	2.173159e-05	-0.007640697	-0.03743061	-0.0001500059	-6.605442e-05
	-0.000137676	5.558409e-05	0.01195274	0.008021696	-0.0001500059	-6.605442e-05	-0.007981012	-0.03682283
9e+07	-0.01476495	-0.03760337	-0.0001357811	-5.080965e-05	0.01373972	0.006740285	-0.000128599	9.251896e-05
	-0.0001357811	-5.080965e-05	-0.01521231	-0.03712173	-9.161457e-05	-2.26539e-06	0.0136023	0.006986855
	0.01373972	0.006740284	-9.161457e-05	-2.26539e-06	-0.01498459	-0.03778325	-0.0001388456	-5.355381e-05
	-0.000128599	9.251896e-05	0.01360231	0.006986849	-0.0001388456	-5.355381e-05	-0.01531538	-0.03704893
1e+08	-0.02184773	-0.03634857	-0.0001238292	-1.428009e-05	0.01503422	0.005286628	-0.0001036259	0.0001300679
	-0.0001238292	-1.428009e-05	-0.02226573	-0.03568516	-0.0001193028	-2.614621e-05	0.01491449	0.00559159
	0.01503422	0.005286628	-0.0001193028	-2.614621e-05	-0.02209124	-0.036481	-0.0001311847	-3.703305e-06
	-0.0001036259	0.0001300679	0.01491449	0.00559159	-0.0001311847	-3.703305e-06	-0.02239306	-0.03561581
1.1e+08	-0.02834285	-0.03368222	-0.0001022752	7.733104e-06	0.01590157	0.003577244	-6.690786e-05	0.0001440042
	-0.0001022752	7.733104e-06	-0.0286885	-0.03286117	-0.0001531205	-5.618265e-05	0.01581267	0.003935304
	0.01590157	0.003577244	-0.0001531205	-5.618265e-05	-0.02859713	-0.0337825	-0.0001070761	1.926021e-05
	-6.690786e-05	0.0001440042	0.01581267	0.003935304	-0.0001070761	1.926021e-05	-0.02884402	-0.03277251
1.2e+08	-0.03400617	-0.02969438	-8.689411e-05	2.227306e-05	0.01630114	0.001722421	-3.671216e-05	0.0001499412
	-8.689411e-05	2.227306e-05	-0.03425492	-0.02873407	-0.0001923229	-7.430522e-05	0.01625337	0.002126813
	0.01630114	0.001722421	-0.0001923229	-7.430522e-05	-0.03427466	-0.02976205	-8.954212e-05	3.424097e-05
	-3.671216e-05	0.0001499412	0.01625337	0.002126813	-8.954212e-05	3.424097e-05	-0.03442725	-0.02861692
1.3e+08	-0.03853043	-0.02462966	-7.29198e-05	3.260951e-05	0.01621373	-0.0001593948	-9.009278e-06	0.0001507816
	-7.29198e-05	3.260951e-05	-0.03865686	-0.02355437	-0.000237715	-7.959439e-05	0.01621629	0.0002816221
	0.01621373	-0.0001593947	-0.000237715	-7.959439e-05	-0.03881069	-0.02466177	-7.355303e-05	4.468702e-05
	-9.009278e-06	0.0001507816	0.01621629	0.0002816222	-7.355303e-05	4.468702e-05	-0.03883701	-0.02340396
1.4e+08	-0.04170263	-0.01879956	-5.989382e-05	3.961605e-05	0.01565024	-0.001948876	1.364497e-05	0.000147654
	-5.989382e-05	3.961605e-05	-0.04168637	-0.01764068	-0.0002863842	-7.052024e-05	0.01570996	-0.001483687
	0.01565024	-0.001948876	-0.0002863842	-7.052024e-05	-0.04198997	-0.01879339	-5.861556e-05	5.151772e-05
	1.364497e-05	0.000147654	0.01570996	-0.001483687	-5.861556e-05	5.151772e-05	-0.04186532	-0.01745513
1.5e+08	-0.04339611	-0.01255252	-4.782779e-05	4.388969e-05	0.01465003	-0.003533646	2.460704e-05	0.000143627
	-4.782779e-05	4.388969e-05	-0.04322461	-0.01134734	-0.0003345384	-4.642958e-05	0.01477044	-0.003058818
	0.01465003	-0.003533646	-0.0003345384	-4.642958e-05	-0.04368444	-0.01250633	-4.474151e-05	5.535048e-05
	2.460704e-05	0.000143627	0.01477044	-0.003058818	-4.474151e-05	5.535048e-05	-0.04339363	-0.01112744
1.6e+08	-0.04357273	-0.006252008	-3.702829e-05	4.590551e-05	0.01327806	-0.004814798	3.578646e-05	0.0001388695
	-3.702829e-05	4.590551e-05	-0.04324324	-0.005041552	-0.0003781553	-7.81526e-06	0.01345881	-0.004346027
	0.01327806	-0.004814798	-0.0003781553	-7.81526e-06	-0.04385515	-0.006165477	-3.225565e-05	5.667674e-05
	3.578646e-05	0.0001388695	0.01345881	-0.004346027	-3.225565e-05	5.667674e-05	-0.04339443	-0.004790549
1.7e+08	-0.0422817	-0.0002555216	-2.76593e-05	4.622677e-05	0.01162077	-0.005712448	4.691944e-05	0.000133243
	-2.76593e-05	4.622677e-05	-0.04180239	0.000918171	-0.0004134635	4.366714e-05	0.01185726	-0.005265508
	0.01162077	-0.005712448	-0.0004134635	4.366714e-05	-0.04255098	-0.0001298692	-2.134643e-05	5.607511e-05
	4.691944e-05	0.000133243	0.01185726	-0.005265508	-2.134643e-05	5.607511e-05	-0.04192921	0.001194975
1.8e+08	-0.03965417	0.005105216	-1.977657e-05	4.541486e-05	0.009780856	-0.006170125	5.778543e-05	0.0001266806
	-1.977657e-05	4.541486e-05	-0.03904448	0.006202083	-0.0004373351	0.0001053503	0.01006423	-0.005759705
	0.009780856	-0.006170125	-0.0004373351	0.0001053503	-0.03990322	0.005267143	-1.209893e-05	5.412641e-05
	5.778543e-05	0.0001266806	0.01006423	-0.005759705	-1.209893e-05	5.412641e-05	-0.03914222	0.006497793
1.9e+08	-0.03589395	0.009542008	-1.330303e-05	4.399372e-05	0.007871215	-0.006157837	6.819158e-05	0.0001191677
	-1.330303e-05	4.399372e-05	-0.03518409	0.01052702	-0.0004475803	0.0001738262	0.00818863	-0.005796381
	0.007871215	-0.006157837	-0.0004475803	0.0001738262	-0.03611622	0.009735791	-4.467078e-06	5.138054e-05
	6.819158e-05	0.0001191677	0.00818863	-0.005796381	-4.467078e-06	5.138054e-05	-0.03525013	0.01083372
2e+08	-0.03126469	0.01282524	-8.033124e-06	4.240753e-05	0.006008426	-0.005673673	7.796888e-05	0.0001107298
	-8.033124e-06	4.240753e-05	-0.03049421	0.01367129	-0.0004431238	0.0002452925	0.006343679	-0.005370313
	0.006008426	-0.005673673	-0.0004431238	0.0002452925	-0.03145454	0.01304503	1.725317e-06	4.831555e-05
	7.796888e-05	0.0001107298	0.006343679	-0.005370313	1.725317e-06	4.831555e-05	-0.03052819	0.01398064
2.1e+08	-0.02607408	0.01479558	-3.658651e-06	4.09821e-05	0.004305978	-0.004743875	8.697004e-05	0.0001014234
	-3.658651e-06	4.09821e-05	-0.02528983	0.01548594	-0.0004240469	0.000315935	0.004640381	-0.004503538
	0.004305978	-0.004743875	-0.0004240469	0.000315935	-0.02622714	0.01503431	6.762076e-06	4.529895e-05
	8.697004e-05	0.0001014234	0.004640381	-0.004503538	6.762076e-06	4.529895e-05	-0.02529365	0.01578977
2.2e+08	-0.02065607	0.01537172	1.891385e-07	3.989793e-05	0.002867657	-0.003421344	9.506921e-05	9.132841e-05
	1.891385e-07	3.989793e-05	-0.01990937	0.01590195	-0.0003915009	0.0003822923	0.003181154	-0.003244109
	0.002867657	-0.003421344	-0.0003915009	0.0003822923	-0.02076947	0.01562136	1.099566e-05	4.255964e-05
	9.506921e-05	9.132841e-05	0.003181154	-0.003244109	1.099566e-05	4.255964e-05	-0.01988703	0.01619282
2.3e+08	-0.01535173	0.01455378	3.888288e-06	3.917952e-05	0.001781404	-0.001782636	0.0001021613	8.054277e-05
	3.888288e-06	3.917952e-05	-0.01469516	0.01493284	-0.0003475074	0.0004415627	0.002053841	-0.001663383
	0.001781404	-0.001782636	-0.0003475074	0.0004415627	-0.01542437	0.0148057	1.479843e-05	4.01749e-05
	0.0001021613	8.054277e-05	0.002053841	-0.001663383	1.479843e-05	4.01749e-05	-0.01465252	0.01520459
2.4e+08	-0.01049006	0.01242228	7.772803e-06	3.870243e-05	0.001113994	7.646532e-05	0.0001081613	6.91784e-05
	7.772803e-06	3.870243e-05	-0.009973919	0.01267286	-0.0002946566	0.0004918272	0.001326474	0.0001480628
	0.001113994	7.646533e-05	-0.0002946566	0.0004918272	-0.01052272	0.01266763	1.851098e-05	3.807423e-05
	0.0001081613	6.91784e-05	0.001326474	0.0001480628	1.851098e-05	3.807423e-05	-0.009918296	0.01292095
2.5e+08	-0.006369423	0.009132631	1.208382e-05	3.82209e-05	0.0009068799	0.002046574	0.0001130042	5.735621e-05
	1.208382e-05	3.82209e-05	-0.006038219	0.009290439	-0.0002358	0.00053214	0.001043106	0.002085711
	0.0009068799	0.002046574	-0.0002358	0.00053214	-0.006364863	0.009362777	2.239368e-05	3.606329e-05
	0.0001130042	5.735621e-05	0.001043106	0.002085711	2.239368e-05	3.606329e-05	-0.005977925	0.00951236
2.6e+08	-0.003241026	0.004905429	1.678708e-05	3.737199e-05	0.00117349	0.004011252	0.0001166463	4.52035e-05
	1.678708e-05	3.737199e-05	-0.003130035	0.005017686	-0.0001575541	0.0005627837	0.001221005	0.004037308
	0.00117349	0.004011252	-0.0001575541	0.0005627837	-0.003203854	0.005112395	2.644367e-05	3.382158e-05
	0.0001166463	4.52035e-05	0.001221005	0.004037308	2.644367e-05	3.382158e-05	-0.003073901	0.005213084
2.7e+08	-0.001295035	1.318258e-05	2.196964e-05	3.587452e-05	0.001898202	0.00585411	0.0001190575	3.284869e-05
	2.196964e-05	3.587452e-05	-0.001427482	0.0001361434	-7.613322e-05	0.0005801904	0.001849448	0.005889652
	0.001898202	0.00585411	-7.613322e-05	0.0005801904	-0.001231678	0.0001900629	3.078753e-05	3.110591e-05
	0.0001190575	3.284869e-05	0.001849448	0.005889652	3.078753e-05	3.110591e-05	-0.001384203	0.0003069449
2.8e+08	-0.0006503376	-0.005235866	2.74743e-05	3.341259e-05	0.003037126	0.007466012	0.0001202265	2.04223e-05
	2.74743e-05	3.341259e-05	-0.001035095	-0.005040037	3.369748e-06	0.0005856259	0.002890241	0.007535537
	0.003037126	0.007466012	3.369748e-06	0.0005856259	-0.0005687541	-0.00509447	3.531531e-05	2.762414e-05
	0.0001202265	2.04223e-05	0.002890241	0.007535537	3.531531e-05	2.762414e-05	-0.001012695	-0.00488974
2.9e+08	-0.001348473	-0.01051583	3.298949e-05	2.974733e-05	0.004520696	0.008751927	0.0001201584	8.052962e-06
	3.298949e-05	2.974733e-05	-0.001978614	-0.01018277	7.943042e-05	0.0005811046	0.004279983	0.008880405
	0.004520696	0.008751927	7.943042e-05	0.0005811046	-0.00125779	-0.01041345	3.976513e-05	2.314688e-05
	0.0001201584	8.052962e-06	0.004279983	0.008880405	3.976513e-05	2.314688e-05	-0.001983926	-0.01004694
3e+08	-0.00335206	-0.01550214	3.811481e-05	2.477006e-05	0.006257941	0.009636927	0.0001188725	-4.134483e-06
	3.811481e-05	2.477006e-05	-0.004204393	-0.01496933	0.0001514065	0.0005686729	0.005933962	0.009848241
	0.006257941	0.009636927	0.0001514065	0.0005686729	-0.003262134	-0.01544017	4.378411e-05	1.756136e-05
	0.0001188725	-4.134483e-06	0.005933962	0.009848241	4.378411e-05	1.756136e-05	-0.004242596	-0.01484032
3.1e+08	-0.006547819	-0.01989017	4.241506e-05	1.85275e-05	0.00814217	0.01007094	0.0001164012	-1.601996e-05
	4.241506e-05	1.85275e-05	-0.007583463	-0.01910109	0.0002194427	0.0005500872	0.007751445	0.0103863
	0.00814217	0.01007094	0.0002194427	0.0005500872	-0.006468732	-0.01986774	4.697842e-05	1.089814e-05
	0.0001164012	-1.601996e-05	0.007751445	0.0103863	4.697842e-05	1.089814e-05	-0.007657718	-0.0189701
3.2e+08	-0.01075392	-0.02341261	4.548034e-05	1.122573e-05	0.01005769	0.01003186	0.0001127885	-2.748912e-05
	4.548034e-05	1.122573e-05	-0.01191994	-0.02232065	0.0002842571	0.000526562	0.009621997	0.01046834
	0.01005769	0.01003186	0.0002842571	0.000526562	-0.01069544	-0.02342649	4.896996e-05	3.33814e-06
	0.0001127885	-2.748912e-05	0.009621997	0.01046834	4.896996e-05	3.33814e-06	-0.01203114	-0.02217827
3.3e+08	-0.01573122	-0.02585434	4.698329e-05	3.211809e-06	0.01188708	0.009526897	0.0001080882	-3.843371e-05
	4.698329e-05	3.211809e-06	-0.01696321	-0.02442629	0.0003468614	0.0004986131	0.01143239	0.01009609
	0.01188708	0.009526897	0.0003468614	0.0004986131	-0.01570225	-0.02589908	4.945153e-05	-4.801824e-06
	0.0001080882	-3.843371e-05	0.01143239	0.01009609	4.945153e-05	-4.801824e-06	-0.01710989	-0.02426307
3.4e+08	-0.02119754	-0.02706418	4.672516e-05	-5.064526e-06	0.01351858	0.008591966	0.0001023647	-4.875189e-05
	4.672516e-05	-5.064526e-06	-0.02242315	-0.02528301	0.0004082499	0.0004660152	0.01307364	0.009298987
	0.01351858	0.008591966	0.0004082499	0.0004660152	-0.02120562	-0.02713233	4.823232e-05	-1.3103e-05
	0.0001023647	-4.875189e-05	0.01307364	0.009298987	4.823232e-05	-1.3103e-05	-0.02260152	-0.02509005
3.5e+08	-0.02684432	-0.02696277	4.466519e-05	-1.310274e-05	0.01485294	0.007289266	9.569114e-05	-5.834883e-05
	4.466519e-05	-1.310274e-05	-0.02798734	-0.02482953	0.0004690927	0.0004278814	0.01444765	0.008132093
	0.01485294	0.007289266	0.0004690927	0.0004278814	-0.02689515	-0.02704522	4.526832e-05	-2.109219e-05
	9.569114e-05	-5.834883e-05	0.01444765	0.008132093	4.526832e-05	-2.109219e-05	-0.02819147	-0.02459904
3.6e+08	-0.03235438	-0.02554634	4.092882e-05	-2.041036e-05	0.01580948	0.005703244	8.814994e-05	-6.713752e-05
	4.092882e-05	-2.041036e-05	-0.03333931	-0.02308087	0.000529486	0.0003828461	0.01547308	0.006672476
	0.01580948	0.005703244	0.000529486	0.0003828461	-0.03245146	-0.02563276	4.067296e-05	-2.829703e-05
	8.814994e-05	-6.713752e-05	0.01547308	0.006672476	4.067296e-05	-2.829703e-05	-0.03356147	-0.02280672
3.7e+08	-0.03741994	-0.02288606	3.579459e-05	-2.656023e-05	0.01633086	0.00393523	7.983183e-05	-7.50398e-05
	3.579459e-05	-2.656023e-05	-0.03817668	-0.02012672	0.0005887846	0.0003293294	0.01609011	0.005014305
	0.01633086	0.00393523	0.0005887846	0.0003293294	-0.03756432	-0.02296543	3.470763e-05	-3.430066e-05
	7.983183e-05	-7.50398e-05	0.01609011	0.005014305	3.470763e-05	-3.430066e-05	-0.03840777	-0.01980479
3.8e+08	-0.04175984	-0.01912329	2.966169e-05	-3.123896e-05	0.01638632	0.002097136	7.083507e-05	-8.19875e-05
	2.966169e-05	-3.123896e-05	-0.04222824	-0.01612542	0.0006455433	0.0002658445	0.01626369	0.003263018
	0.01638632	0.002097136	0.0006455433	0.0002658445	-0.04194998	-0.01918452	2.775356e-05	-3.878923e-05
	7.083507e-05	-8.19875e-05	0.01626369	0.003263018	2.775356e-05	-3.878923e-05	-0.04245836	-0.01575394
3.9e+08	-0.04513503	-0.01446106	2.3003e-05	-3.42805e-05	0.01597325	0.0003046492	6.126421e-05	-8.79235e-05
	2.3003e-05	-3.42805e-05	-0.045269	-0.01129434	0.0006975733	0.0001913071	0.01598539	0.001528948
	0.01597325	0.0003046492	0.0006975733	0.0001913071	-0.04536685	-0.01449355	2.026914e-05	-4.158599e-05
	6.126421e-05	-8.79235e-05	0.01598539	0.001528948	2.026914e-05	-4.158599e-05	-0.04548802	-0.01087401
4e+08	-0.04736153	-0.009152236	1.631021e-05	-3.56808e-05	0.0151171	-0.00132967	5.12284e-05	-9.280234e-05
	1.631021e-05	-3.56808e-05	-0.04713244	-0.005897034	0.0007421059	0.0001053097	0.01527355	-7.919373e-05
	0.0151171	-0.00132967	0.0007421059	0.0001053097	-0.04762853	-0.009146469	1.273895e-05	-4.266822e-05
	5.12284e-05	-9.280234e-05	0.01527355	-7.919373e-05	1.273895e-05	-4.266822e-05	-0.04733062	-0.00543103
4.1e+08	-0.04832028	-0.003485053	1.003771e-05	-3.559272e-05	0.01386968	-0.002702982	4.083977e-05	-9.659057e-05
	1.003771e-05	-3.559272e-05	-0.04771939	-0.0002280679	0.0007760454	8.321852e-06	0.01417198	-0.001460611
	0.01386968	-0.002702982	0.0007760454	8.321852e-06	-0.04861382	-0.00343317	5.620494e-06	-4.216552e-05
	4.083977e-05	-9.659057e-05	0.01417198	-0.001460611	5.620494e-06	-4.216552e-05	-0.04788799	0.0002781172
4.2e+08	-0.04796326	0.002232982	4.55238e-06	-3.430207e-05	0.01230594	-0.0037281	3.021187e-05	-9.926639e-05
	4.55238e-06	-3.430207e-05	-0.0470031	0.005403714	0.0007962788	-9.820642e-05	0.01274721	-0.002528162
	0.01230594	-0.0037281	0.0007962788	-9.820642e-05	-0.04827299	0.002336735	-7.046193e-07	-4.034024e-05
	3.021187e-05	-9.926639e-05	0.01274721	-0.002528162	-7.046193e-07	-4.034024e-05	-0.04713493	0.005942569
4.3e+08	-0.04631585	0.00769222	9.521559e-08	-3.218834e-05	0.01051951	-0.004338483	1.945836e-05	-0.000100819
	9.521559e-08	-3.218834e-05	-0.04503033	0.01069255	0.0008000078	-0.000211852	0.01108457	-0.003213274
	0.01051951	-0.004338483	0.0008000078	-0.000211852	-0.04663023	0.00785111	-5.969336e-06	-3.755288e-05
	1.945836e-05	-0.000100819	0.01108457	-0.003213274	-5.969336e-06	-3.755288e-05	-0.04512018	0.01125496
4.4e+08	-0.04347514	0.01259794	-3.241307e-06	-2.967506e-05	0.008617284	-0.004492024	8.692382e-06	-0.0001012481
	-3.241307e-06	-2.967506e-05	-0.04191833	0.01535279	0.000785062	-0.0003293395	0.009283231	-0.003469788
	0.008617284	-0.004492024	0.000785062	-0.0003293395	-0.04378201	0.01281251	-1.004575e-05	-3.42167e-05
	8.692382e-06	-0.0001012481	0.009283231	-0.003469788	-1.004575e-05	-3.42167e-05	-0.04196335	0.01592859
4.5e+08	-0.03960434	0.01668658	-5.517315e-06	-2.717577e-05	0.006713245	-0.004173489	-1.973749e-06	-0.0001005628
	-5.517315e-06	-2.717577e-05	-0.03784806	0.01913478	0.0007501579	-0.0004467606	0.007450537	-0.003276578
	0.006713245	-0.004173489	0.0007501579	-0.0004467606	-0.03989158	0.01695452	-1.295267e-05	-3.074722e-05
	-1.973749e-06	-0.0001005628	0.007450537	-0.003276578	-1.295267e-05	-3.074722e-05	-0.03784796	0.01971332
4.6e+08	-0.03492372	0.01974025	-6.93104e-06	-2.504181e-05	0.00492191	-0.003395472	-1.242854e-05	-9.878199e-05
	-6.93104e-06	-2.504181e-05	-0.03305395	0.02183871	0.0006950728	-0.00055987	0.005695905	-0.002638799
	0.00492191	-0.003395472	0.0006950728	-0.00055987	-0.03517989	0.02005645	-1.484565e-05	-2.751152e-05
	-1.242854e-05	-9.878199e-05	0.005695905	-0.002638799	-1.484565e-05	-2.751152e-05	-0.03301105	0.02240956
4.7e+08	-0.02969835	0.02159874	-7.787119e-06	-2.351872e-05	0.003351708	-0.002197819	-2.256148e-05	-9.593491e-05
	-7.787119e-06	-2.351872e-05	-0.02781067	0.02332568	0.0006207126	-0.0006644232	0.004124539	-0.001587713
	0.003351708	-0.002197819	0.0006207126	-0.0006644232	-0.02991337	0.02195545	-1.599079e-05	-2.47868e-05
