!$
! Info: Touchstone file created by Circ.  Input file=Tx_12in_Rx_100ohms_TxVia_35mils_RxVia_45mils.circ
!$
# Hz S RI R 50
0	0.01244883	1.461742e-25	-6.437997e-05	3.732977e-24	8.322457e-05	2.326109e-23	-6.436069e-05	1.4073e-24
	-6.438e-05	3.736301e-24	0.01244711	1.791502e-25	-6.439095e-05	5.26291e-24	8.309051e-05	2.818705e-23
	8.30392e-05	2.316344e-23	-6.439093e-05	5.260094e-24	0.01245937	1.461487e-25	-6.437692e-05	3.585248e-24
	-6.436072e-05	1.409906e-24	8.124198e-05	2.832577e-23	-6.437693e-05	3.587347e-24	0.01246017	1.678618e-25
1e+07	0.01828681	0.007456796	-0.0002258024	2.861326e-05	0.000821266	0.002218107	-8.659984e-05	-3.688746e-06
	-0.0002258024	2.861326e-05	0.01846305	0.007435887	-1.225195e-05	0.0001474955	0.0008168757	0.002216299
	0.0008212605	0.002218108	-1.225194e-05	0.0001474955	0.0184873	0.007440999	-0.0002257961	2.860049e-05
	-8.659983e-05	-3.688749e-06	0.0008168147	0.002216309	-0.0002257961	2.860049e-05	0.01829581	0.007467606
2e+07	0.02407209	0.01013651	-0.0001865599	-5.67755e-05	0.001477517	0.004501299	-6.924786e-05	-9.620592e-06
	-0.0001865599	-5.67755e-05	0.024169	0.01004307	-4.818364e-05	0.0002501954	0.001461103	0.004501178
	0.001477518	0.004501303	-4.818364e-05	0.0002501954	0.02422155	0.01004508	-0.0001865648	-5.678845e-05
	-6.924785e-05	-9.620597e-06	0.001461094	0.004501213	-0.0001865648	-5.678845e-05	0.02406258	0.01016062
3e+07	0.02905821	0.01031982	-0.0001617065	-8.152944e-05	0.002630052	0.006339921	-5.995551e-05	-1.865873e-05
	-0.0001617065	-8.152944e-05	0.02907297	0.01021753	-0.0001100847	0.0003096314	0.002595597	0.006347311
	0.002630054	0.006339921	-0.0001100847	0.0003096314	0.02916786	0.01020263	-0.0001617249	-8.157099e-05
	-5.995551e-05	-1.865874e-05	0.002595597	0.006347317	-0.0001617249	-8.157099e-05	0.02901895	0.0103661
4e+07	0.03343254	0.009065358	-0.0001450949	-9.362971e-05	0.004203628	0.007761656	-5.317303e-05	-2.288876e-05
	-0.0001450949	-9.362971e-05	0.0333628	0.008985707	-0.0001522402	0.000360304	0.004147337	0.007784199
	0.004203629	0.007761654	-0.0001522402	0.000360304	0.03350873	0.008935808	-0.0001451367	-9.371408e-05
	-5.317303e-05	-2.288876e-05	0.004147332	0.007784197	-0.0001451367	-9.371408e-05	0.0333556	0.009145936
5e+07	0.0371343	0.006709601	-0.000132921	-9.997653e-05	0.006211969	0.008606348	-4.78193e-05	-2.526498e-05
	-0.000132921	-9.997653e-05	0.03698278	0.006680577	-0.0001804133	0.0004083002	0.006132725	0.008652594
	0.006211969	0.008606347	-0.0001804133	0.0004083002	0.03718191	0.006574675	-0.0001330041	-0.0001001141
	-4.78193e-05	-2.526497e-05	0.006132721	0.008652593	-0.0001330041	-0.0001001141	0.03701599	0.006839609
6e+07	0.04006344	0.003494234	-0.0001230275	-0.000103056	0.008316921	0.008937966	-4.338557e-05	-2.68067e-05
	-0.0001230275	-0.000103056	0.03983929	0.003541497	-0.000197951	0.0004548299	0.008216552	0.009016826
	0.008316923	0.008937966	-0.000197951	0.0004548299	0.04008636	0.003358104	-0.0001231768	-0.0001032498
	-4.338557e-05	-2.68067e-05	0.008216555	0.009016825	-0.0001231768	-0.0001032498	0.03990547	0.00369008
7e+07	0.04212404	-0.0003612463	-0.0001343575	-8.026296e-05	0.01039755	0.00875409	-3.895693e-05	-2.788934e-05
	-0.0001343575	-8.026296e-05	0.04184277	-0.000215545	-0.0002071198	0.0004996918	0.01028076	0.008873823
	0.01039755	0.008754091	-0.0002071198	0.0004996918	0.04212537	-0.000495929	-0.0001345887	-8.048779e-05
	-3.895693e-05	-2.788935e-05	0.01028077	0.00887382	-0.0001345887	-8.048779e-05	0.04193363	-8.384573e-05
8e+07	0.04324504	-0.004638071	-0.0001501952	-3.528106e-05	0.01233414	0.008079144	-4.171972e-05	-1.78901e-05
	-0.0001501952	-3.528106e-05	0.04292776	-0.004376618	-0.0002113244	0.0005418204	0.01220826	0.008246533
	0.01233414	0.008079144	-0.0002113244	0.0005418204	0.04322726	-0.004769445	-0.0001505082	-3.551876e-05
	-4.171973e-05	-1.78901e-05	0.01220827	0.008246527	-0.0001505082	-3.551875e-05	0.04303443	-0.004265711
9e+07	0.0433915	-0.009115049	-0.000151281	1.256475e-05	0.01401457	0.00696401	-4.285465e-05	-3.894682e-06
	-0.000151281	1.256475e-05	0.04306386	-0.008726525	-0.0002165707	0.000580085	0.01388907	0.007183631
	0.01401457	0.006964009	-0.0002165707	0.000580085	0.04335678	-0.009241528	-0.0001516899	1.233461e-05
	-4.285465e-05	-3.894682e-06	0.01388908	0.007183626	-0.0001516899	1.233462e-05	0.04317707	-0.008637992
1e+08	0.04258374	-0.01356856	-0.0001317469	6.20506e-05	0.01533395	0.005481633	-3.779404e-05	1.042658e-05
	-0.0001317469	6.20506e-05	0.04227625	-0.01304816	-0.000243725	0.0006096004	0.01521977	0.005755274
	0.01533395	0.005481633	-0.000243725	0.0006096004	0.04253599	-0.01368809	-0.0001322601	6.184869e-05
	-3.779404e-05	1.042658e-05	0.01521977	0.005755274	-0.0001322601	6.184869e-05	0.04238501	-0.01298188
1.1e+08	0.04084344	-0.01789103	-9.77759e-05	8.308097e-05	0.01622533	0.003774041	-2.874915e-05	1.56439e-05
	-9.77759e-05	8.308097e-05	0.04058594	-0.01725247	-0.0002457103	0.0005788171	0.01613434	0.004099943
	0.01622533	0.003774042	-0.0002457103	0.0005788171	0.04078435	-0.01801277	-9.841227e-05	8.293247e-05
	-2.874915e-05	1.56439e-05	0.01613434	0.004099943	-9.841227e-05	8.293247e-05	0.04068313	-0.01719703
1.2e+08	0.03817926	-0.02178752	-7.115754e-05	9.489967e-05	0.01667489	0.001911644	-2.245945e-05	1.863003e-05
	-7.115754e-05	9.489967e-05	0.03799155	-0.02104229	-0.0002253386	0.0005605017	0.0166182	0.002284926
	0.01667489	0.001911644	-0.0002253386	0.0005605017	0.03810154	-0.02190927	-7.190264e-05	9.485712e-05
	-2.245945e-05	1.863003e-05	0.0166182	0.002284926	-7.190264e-05	9.485712e-05	0.03807769	-0.02099299
1.3e+08	0.0347415	-0.02506734	-4.688305e-05	0.0001010334	0.01664726	3.604989e-06	-1.708233e-05	2.046612e-05
	-4.688305e-05	0.0001010334	0.03464377	-0.02423213	-0.0002017249	0.0005454029	0.01663478	0.0004161725
	0.01664726	3.60506e-06	-0.0002017249	0.0005454029	0.03464187	-0.02518424	-4.770688e-05	0.0001011374
	-1.708233e-05	2.046612e-05	0.01663478	0.0004161725	-4.770688e-05	0.0001011374	0.03471813	-0.02418507
1.4e+08	0.03069536	-0.02758236	-2.460642e-05	0.0001025086	0.01614366	-0.001833503	-1.23099e-05	2.146207e-05
	-2.460642e-05	0.0001025086	0.0307043	-0.02667965	-0.0001790507	0.0005320552	0.01618318	-0.00139264
	0.01614366	-0.001833503	-0.0001790507	0.0005320552	0.03057279	-0.02768852	-2.546618e-05	0.0001027874
	-1.23099e-05	2.146207e-05	0.01618318	-0.00139264	-2.546618e-05	0.0001027874	0.03076676	-0.0266311
1.5e+08	0.02622825	-0.02922477	-4.529865e-06	0.0001000893	0.01519495	-0.003486634	-8.01055e-06	2.180458e-05
	-4.529865e-06	0.0001000893	0.02635496	-0.02828192	-0.0001590861	0.00052073	0.01529129	-0.003030762
	0.01519495	-0.003486634	-0.0001590861	0.00052073	0.02608379	-0.02931396	-5.374288e-06	0.0001005554
	-8.01055e-06	2.180458e-05	0.01529129	-0.003030762	-5.374288e-06	0.0001005554	0.02640617	-0.02822848
1.6e+08	0.02154309	-0.02993021	1.304086e-05	9.451669e-05	0.01385899	-0.004853578	-4.118617e-06	2.161777e-05
	1.304086e-05	9.451669e-05	0.0217915	-0.02897793	-0.0001423401	0.0005124017	0.0140134	-0.004397466
	0.01385899	-0.004853578	-0.0001423401	0.0005124017	0.02137968	-0.02999644	1.226553e-05	9.516459e-05
	-4.118617e-06	2.161777e-05	0.0140134	-0.004397466	1.226553e-05	9.516459e-05	0.02183273	-0.02891666
1.7e+08	0.0168495	-0.02967983	2.786244e-05	8.656001e-05	0.01221692	-0.00584927	-5.976047e-07	2.099174e-05
	2.786244e-05	8.656001e-05	0.01721537	-0.0287502	-0.0001284014	0.0005082457	0.01242667	-0.005408175
	0.01221692	-0.00584927	-0.0001284014	0.0005082457	0.01667179	-0.02971781	2.720577e-05	8.736599e-05
	-5.976047e-07	2.099174e-05	0.01242667	-0.005408175	2.720577e-05	8.736599e-05	0.0172484	-0.02867873
1.8e+08	0.01235434	-0.0285006	3.98313e-05	7.69999e-05	0.01036821	-0.00641096	2.573771e-06	1.999594e-05
	3.98313e-05	7.69999e-05	0.01282483	-0.02762482	-0.0001161307	0.0005092969	0.0106264	-0.005999541
	0.01036821	-0.00641096	-0.0001161307	0.0005092969	0.01216851	-0.02850617	3.933223e-05	7.792456e-05
	2.573771e-06	1.999594e-05	0.0106264	-0.005999541	3.933223e-05	7.792456e-05	0.01285185	-0.02754136
1.9e+08	0.008252163	-0.02646356	4.901546e-05	6.658361e-05	0.008424536	-0.006501991	5.407922e-06	1.868656e-05
	4.901546e-05	6.658361e-05	0.008806078	-0.02566959	-0.0001038508	0.0005162007	0.008720337	-0.006133192
	0.008424536	-0.006501991	-0.0001038508	0.0005162007	0.008065553	-0.02643405	4.869705e-05	6.757658e-05
	5.407922e-06	1.868656e-05	0.008720337	-0.006133192	4.869705e-05	6.757658e-05	0.008829463	-0.025573
2e+08	0.004715964	-0.02368002	5.565198e-05	5.597134e-05	0.00650307	-0.006113984	7.911682e-06	1.711102e-05
	5.565198e-05	5.597134e-05	0.005324624	-0.02299038	-8.956009e-05	0.0005290406	0.006822131	-0.005797966
	0.00650307	-0.006113984	-8.956009e-05	0.0005290406	0.004536726	-0.02361456	5.551821e-05	5.697775e-05
	7.911682e-06	1.711102e-05	0.006822131	-0.005797966	5.551821e-05	5.697775e-05	0.005346871	-0.02288012
2.1e+08	0.001889052	-0.02029581	6.011806e-05	4.568651e-05	0.004719381	-0.005267284	1.008812e-05	1.531095e-05
	6.011806e-05	4.568651e-05	0.002517764	-0.01972556	-7.116711e-05	0.0005472492	0.005044598	-0.005010503
	0.004719381	-0.005267284	-7.116711e-05	0.0005472492	0.001725698	-0.02019551	6.015318e-05	4.665436e-05
	1.008812e-05	1.531095e-05	0.005044598	-0.005010503	6.015318e-05	4.665436e-05	0.002541328	-0.01960172
2.2e+08	-0.0001217253	-0.01648378	6.28815e-05	3.608007e-05	0.00318048	-0.004009661	1.193772e-05	1.332427e-05
	6.28815e-05	3.608007e-05	0.0004882992	-0.016039	-4.672909e-05	0.0005695988	0.003492978	-0.003814145
	0.00318048	-0.004009661	-4.672909e-05	0.0005695988	-0.000260836	-0.01635185	6.305226e-05	3.696749e-05
	1.193772e-05	1.332427e-05	0.003492978	-0.003814145	6.305226e-05	3.696749e-05	0.000515483	-0.01590224
2.3e+08	-0.00125093	-0.01243498	6.443981e-05	2.731471e-05	0.001978418	-0.002413355	1.345914e-05	1.118684e-05
	6.443981e-05	2.731471e-05	-0.0007000031	-0.01211173	-1.467463e-05	0.0005942712	0.002258713	-0.002276247
	0.001978418	-0.002413355	-1.467463e-05	0.0005942712	-0.001358104	-0.01227672	6.47002e-05	2.809609e-05
	1.345914e-05	1.118684e-05	0.002258713	-0.002276247	6.47002e-05	2.809609e-05	-0.000667172	-0.01196324
2.4e+08	-0.001477382	-0.008348958	6.525677e-05	1.937072e-05	0.001184816	-0.000570639	1.464999e-05	8.933943e-06
	6.525677e-05	1.937072e-05	-0.001025033	-0.008132873	2.601533e-05	0.0006190019	0.001414092	-0.0004840593
	0.001184816	-0.000570639	2.601533e-05	0.0006190019	-0.001546123	-0.008171583	6.555501e-05	2.004067e-05
	1.464999e-05	8.933943e-06	0.001414092	-0.0004840593	6.555501e-05	2.004067e-05	-0.0009849117	-0.007974301
2.5e+08	-0.0008247249	-0.004423615	6.570415e-05	1.207562e-05	0.0008466657	0.00141179	1.550768e-05	6.601376e-06
	6.570415e-05	1.207562e-05	-0.0005068229	-0.004290226	7.568222e-05	0.0006412662	0.001008071	0.001460555
	0.0008466657	0.00141179	7.568222e-05	0.0006412662	-0.0008502268	-0.004235982	6.599072e-05	1.265021e-05
	1.550768e-05	6.601376e-06	0.001008071	0.001460555	6.599072e-05	1.265021e-05	-0.0004582477	-0.004123556
2.6e+08	0.0006402825	-0.0008452665	6.6018e-05	5.150708e-06	0.0009836469	0.003419253	1.603049e-05	4.226442e-06
	6.6018e-05	5.150708e-06	0.0007940558	-0.0007609511	0.0001339374	0.0006585027	0.00106353	0.003447223
	0.0009836469	0.003419253	0.0001339374	0.0006585027	0.0006607227	-0.0006574608	6.625392e-05	5.665562e-06
	1.603049e-05	4.226442e-06	0.00106353	0.003447223	6.625392e-05	5.665562e-06	0.0008516995	-0.0005883945
2.7e+08	0.002811699	0.002220647	6.627418e-05	-1.729194e-06	0.001587097	0.005335955	1.621891e-05	1.848429e-06
	6.627418e-05	-1.729194e-06	0.002780146	0.002297037	0.000199681	0.0006683363	0.001576085	0.005363615
	0.001587097	0.005335955	0.000199681	0.0006683363	0.002878366	0.002397836	6.643812e-05	-1.223806e-06
	1.621891e-05	1.848429e-06	0.001576085	0.005363615	6.643812e-05	-1.223806e-06	0.002846883	0.002473187
2.8e+08	0.005550296	0.004637685	6.63868e-05	-8.872877e-06	0.002620673	0.007051853	1.607722e-05	-4.912775e-07
	6.63868e-05	-8.872877e-06	0.005322568	0.004752628	0.0002711995	0.0006687841	0.002514535	0.007102054
	0.002620672	0.007051853	0.0002711995	0.0006687841	0.005660879	0.004793356	6.64801e-05	-8.319438e-06
	1.607722e-05	-4.912775e-07	0.002514535	0.007102054	6.64801e-05	-8.319438e-06	0.005397828	0.004930143
2.9e+08	0.008691115	0.006304934	6.612883e-05	-1.651303e-05	0.004022649	0.008469131	1.561485e-05	-2.749889e-06
	6.612883e-05	-1.651303e-05	0.008267993	0.0065076	0.0003463146	0.0006584149	0.003822857	0.008565772
	0.004022649	0.008469131	0.0003463146	0.0006584149	0.008840671	0.006428715	6.617761e-05	-1.585577e-05
	1.561485e-05	-2.749889e-06	0.003822857	0.008565772	6.617761e-05	-1.585577e-05	0.008350641	0.006684466
3e+08	0.01205225	0.007161631	6.517261e-05	-2.475839e-05	0.005709676	0.009507891	1.484766e-05	-4.884415e-06
	6.517261e-05	-2.475839e-05	0.01144675	0.007500941	0.0004225754	0.0006364521	0.005423633	0.009674483
	0.005709676	0.009507891	0.0004225754	0.0006364521	0.01223334	0.007244327	6.522638e-05	-2.395269e-05
	1.484766e-05	-4.884415e-06	0.005423633	0.009674483	6.522638e-05	-2.395269e-05	0.01153516	0.007675497
3.1e+08	0.01544437	0.007189666	6.314428e-05	-3.356437e-05	0.00758177	0.01011075	1.379868e-05	-6.853272e-06
	6.314428e-05	-3.356437e-05	0.01468163	0.007711238	0.0004974762	0.0006028066	0.007222674	0.01036894
	0.00758177	0.01011075	0.0004974762	0.0006028066	0.01564736	0.007223869	6.327122e-05	-3.25854e-05
	1.379868e-05	-6.853272e-06	0.007222674	0.01036894	6.327122e-05	-3.25854e-05	0.01477376	0.007882291
3.2e+08	0.01868055	0.006413848	5.968519e-05	-4.27242e-05	0.009528219	0.0102461	1.249808e-05	-8.618293e-06
	5.968519e-05	-4.27242e-05	0.01779688	0.007156998	0.0005686587	0.0005580406	0.009114563	0.01061424
	0.009528219	0.0102461	0.0005686587	0.0005580406	0.01889402	0.00639447	5.99643e-05	-4.157345e-05
	1.249808e-05	-8.618293e-06	0.009114563	0.01061424	5.99643e-05	-4.157345e-05	0.01789046	0.007323918
3.3e+08	0.02158576	0.004899988	5.451237e-05	-5.188303e-05	0.01143407	0.009909861	1.098263e-05	-1.014661e-05
	5.451237e-05	-5.188303e-05	0.02062705	0.005894996	0.0006340922	0.000503269	0.01098879	0.01040174
	0.01143407	0.009909861	0.0006340922	0.000503269	0.02179711	0.004824686	5.502367e-05	-5.059182e-05
	1.098263e-05	-1.014661e-05	0.01098879	0.01040174	5.502367e-05	-5.059182e-05	0.02071968	0.006057761
3.4e+08	0.02400569	0.002750905	4.747006e-05	-6.057284e-05	0.01318681	0.009125658	9.294433e-06	-1.141228e-05
	4.747006e-05	-6.057284e-05	0.0230251	0.004016707	0.0006922124	0.0004400082	0.01273613	0.009749402
	0.01318681	0.009125658	0.0006922124	0.0004400082	0.0242018	0.002620355	4.82837e-05	-5.920215e-05
	9.294433e-06	-1.141228e-05	0.01273613	0.009749402	4.82837e-05	-5.920215e-05	0.02311441	0.004175925
3.5e+08	0.02581436	0.0001005829	3.856615e-05	-6.826307e-05	0.0146829	0.007943397	7.4792e-06	-1.239746e-05
	3.856615e-05	-6.826307e-05	0.02486946	0.001643057	0.0007419908	0.000369998	0.01425492	0.008700735
	0.0146829	0.007943397	0.0007419908	0.000369998	0.02598233	-8.139784e-05	3.973198e-05	-6.689944e-05
	7.4792e-06	-1.239746e-05	0.01425492	0.008700735	3.973198e-05	-6.689944e-05	0.02495331	0.001799939
3.6e+08	0.02692022	-0.002893163	2.798836e-05	-7.442158e-05	0.01583376	0.006436371	5.584319e-06	-1.309298e-05
	2.798836e-05	-7.442158e-05	0.02606975	-0.001082191	0.0007829479	0.0002950102	0.01545687	0.007322205
	0.01583376	0.006436371	0.0007829479	0.0002950102	0.0270481	-0.003119695	2.952736e-05	-7.316954e-05
	5.584319e-06	-1.309298e-05	0.01545687	0.007322205	2.952736e-05	-7.316954e-05	0.02614634	-0.0009258995
3.7e+08	0.02727038	-0.006057172	1.609854e-05	-7.857784e-05	0.01657091	0.004697027	3.656853e-06	-1.349839e-05
	1.609854e-05	-7.857784e-05	0.0265708	-0.004000117	0.0008150983	0.0002166743	0.01627213	0.005699412
	0.01657091	0.004697027	0.0008150983	0.0002166743	0.02734793	-0.006318558	1.799718e-05	-7.754941e-05
	3.656853e-06	-1.349839e-05	0.01627213	0.005699412	1.799718e-05	-7.754941e-05	0.02663881	-0.003842237
3.8e+08	0.02685286	-0.009212106	3.40496e-06	-8.03808e-05	0.01684998	0.002831642	1.741728e-06	-1.362139e-05
	3.40496e-06	-8.03808e-05	0.02635489	-0.006944959	0.0008388429	0.000136334	0.0166533	0.003932166
	0.01684998	0.002831642	0.0008388429	0.000136334	0.02687222	-0.009496261	5.613415e-06	-7.968353e-05
	1.741728e-06	-1.362139e-05	0.0166533	0.003932166	5.613415e-06	-7.968353e-05	0.02641359	-0.00678301
3.9e+08	0.02569674	-0.01218186	-9.484062e-06	-7.964425e-05	0.01665333	0.0009541963	-1.198163e-07	-1.347696e-05
	-9.484062e-06	-7.964425e-05	0.02544205	-0.009752678	0.0008548227	5.495217e-05	0.01657816	0.002128764
	0.01665333	0.0009541963	0.0008548227	5.495217e-05	0.02565297	-0.0124749	-7.049354e-06	-7.936894e-05
	-1.198163e-07	-1.347696e-05	0.01657816	0.002128764	-7.049354e-06	-7.936894e-05	0.02549136	-0.009584035
4e+08	0.02387012	-0.01480272	-2.191962e-05	-7.637372e-05	0.01599121	-0.0008202263	-1.891471e-06	-1.308619e-05
	-2.191962e-05	-7.637372e-05	0.02388849	-0.01226933	0.0008637511	-2.692222e-05	0.01605102	0.000399763
	0.01599121	-0.0008202263	0.0008637511	-2.692222e-05	0.02376165	-0.01508968	-1.936932e-05	-7.658357e-05
	-1.891471e-06	-1.308619e-05	0.01605102	0.000399763	-1.936932e-05	-7.658357e-05	0.023929	-0.01209139
4.1e+08	0.0214762	-0.01693183	-3.327815e-05	-7.077149e-05	0.01490125	-0.00238214	-3.542746e-06	-1.247492e-05
	-3.327815e-05	-7.077149e-05	0.02178321	-0.01435883	0.0008662488	-0.0001091306	0.01510251	-0.001148404
	0.01490125	-0.00238214	0.0008662488	-0.0001091306	0.02130502	-0.01719746	-3.073979e-05	-7.149401e-05
	-3.542746e-06	-1.247492e-05	0.01510251	-0.001148404	-3.073979e-05	-7.149401e-05	0.02181615	-0.01416917
4.2e+08	0.01864742	-0.01845449	-4.302545e-05	-6.321868e-05	0.01344642	-0.00363408	-5.049558e-06	-1.167227e-05
	-4.302545e-05	-6.321868e-05	0.01924294	-0.01590978	0.0008626991	-0.0001918212	0.01378792	-0.002419603
	0.01344642	-0.00363408	0.0008626991	-0.0001918212	0.01841913	-0.01868416	-4.063091e-05	-6.444137e-05
	-5.049558e-06	-1.167227e-05	0.01378792	-0.002419603	-4.063091e-05	-6.444137e-05	0.01927014	-0.01570635
4.3e+08	0.01553822	-0.01929003	-5.077106e-05	-5.42363e-05	0.01171146	-0.00449638	-6.39449e-06	-1.07091e-05
	-5.077106e-05	-5.42363e-05	0.01640573	-0.01684091	0.0008531454	-0.0002753187	0.01218405	-0.003333621
	0.01171146	-0.00449638	0.0008531454	-0.0002753187	0.01526189	-0.01947055	-4.864301e-05	-5.590699e-05
	-6.39449e-06	-1.07091e-05	0.01218405	-0.003333621	-4.864301e-05	-5.590699e-05	0.0164295	-0.01662214
4.4e+08	0.01231661	-0.01939576	-5.630627e-05	-4.442972e-05	0.00979804	-0.004911956	-7.566676e-06	-9.616452e-06
	-5.630627e-05	-4.442972e-05	0.01342349	-0.01710498	0.0008372405	-0.0003599659	0.01038482	-0.003830901
	0.00979804	-0.004911956	0.0008372405	-0.0003599659	0.01200434	-0.0195162	-5.454539e-05	-4.646148e-05
	-7.566676e-06	-9.616452e-06	0.01038482	-0.003830901	-5.454539e-05	-4.646148e-05	0.01344651	-0.0168699
4.5e+08	0.00915504	-0.01876895	-5.962083e-05	-3.442337e-05	0.00781887	-0.004849795	-8.561283e-06	-8.424021e-06
	-5.962083e-05	-3.442337e-05	0.01045385	-0.01669085	0.0008142597	-0.0004459569	0.008495871	-0.003876099
	0.00781887	-0.004849795	0.0008142597	-0.0004459569	0.008821455	-0.0188214	-5.829536e-05	-3.670368e-05
	-8.561283e-06	-8.424021e-06	0.008495871	-0.003876099	-5.829536e-05	-3.670368e-05	0.01047898	-0.01643921
4.6e+08	0.006221149	-0.01744669	-6.089617e-05	-2.479331e-05	0.005891092	-0.004306934	-9.378552e-06	-7.158721e-06
	-6.089617e-05	-2.479331e-05	0.007651789	-0.01562369	0.0007831678	-0.0005331868	0.006628373	-0.003460242
	0.005891092	-0.004306934	0.0007831678	-0.0005331868	0.005882597	-0.01742678	-6.003513e-05	-2.719653e-05
	-9.378552e-06	-7.158721e-06	0.006628373	-0.003460242	-6.003513e-05	-2.719653e-05	0.007681919	-0.01535592
4.7e+08	0.003668699	-0.01550349	-6.047553e-05	-1.600652e-05	0.004129377	-0.003308782	-1.002219e-05	-5.842825e-06
	-6.047553e-05	-1.600652e-05	0.005161436	-0.01396319	0.0007427479	-0.0006211236	0.004892558	-0.002601342
	0.004129377	-0.003308782	0.0007427479	-0.0006211236	0.003342406	-0.01541084	-6.006653e-05	-1.840761e-05
	-1.002219e-05	-5.842825e-06	0.004892558	-0.002601342	-6.006653e-05	-1.840761e-05	0.00519928	-0.0136804
