!$
! Info: Touchstone file created by Circ.  Input file=Tx_14in_Rx_85ohms_TxVia_35mils_RxVia_45mils.circ
!$
# Hz S RI R 50
0	0.01126745	1.714294e-25	7.551242e-10	1.14003e-27	9.470145e-05	2.111662e-23	2.524717e-09	4.795561e-28
	7.55125e-10	1.139915e-27	0.01126516	2.051807e-25	3.964331e-10	1.673006e-27	9.406958e-05	2.549864e-23
	9.520976e-05	2.141188e-23	3.964328e-10	1.673043e-27	0.01127952	1.665379e-25	7.749206e-10	1.10613e-27
	2.524718e-09	4.795452e-28	9.222127e-05	2.562415e-23	7.749209e-10	1.106093e-27	0.01127825	1.922532e-25
1e+07	0.01569331	-0.01366431	1.216185e-09	1.140439e-09	0.0004628315	0.002516563	5.442063e-09	5.52755e-09
	1.216185e-09	1.140439e-09	0.01381623	-0.01375175	6.143937e-10	7.452995e-10	0.000565209	0.002519238
	0.0004628608	0.002516557	6.143936e-10	7.452995e-10	0.01384566	-0.01398768	1.290558e-09	1.202782e-09
	5.442063e-09	5.52755e-09	0.0005651485	0.002519249	1.290558e-09	1.202782e-09	0.01378602	-0.01373483
2e+07	0.01285717	-0.03130727	2.169762e-09	1.608729e-09	0.001549386	0.004801527	1.056789e-08	7.401334e-09
	2.169762e-09	1.608729e-09	0.01120867	-0.0307621	8.702142e-10	1.239203e-09	0.001683392	0.004714751
	0.001549386	0.004801505	8.702142e-10	1.239203e-09	0.01102452	-0.03113264	2.325554e-09	1.668689e-09
	1.056789e-08	7.401334e-09	0.001683384	0.004714786	2.325554e-09	1.668689e-09	0.01119132	-0.03071589
3e+07	0.003863441	-0.04818594	3.265102e-09	1.587019e-09	0.003274813	0.006555663	1.647931e-08	6.62628e-09
	3.265102e-09	1.587019e-09	0.002396332	-0.04734706	1.128395e-09	1.624816e-09	0.003342631	0.006457713
	0.003274806	0.006555661	1.128394e-09	1.624816e-09	0.002079825	-0.04772975	3.507915e-09	1.60764e-09
	1.647931e-08	6.62628e-09	0.003342631	0.006457718	3.507915e-09	1.60764e-09	0.002387663	-0.04728365
4e+07	-0.009922519	-0.06194352	4.342834e-09	1.027132e-09	0.005377947	0.007703227	2.226136e-08	2.931296e-09
	4.342834e-09	1.027132e-09	-0.01122477	-0.06088253	1.362152e-09	1.911931e-09	0.005383422	0.00762136
	0.005377948	0.007703231	1.362152e-09	1.911931e-09	-0.01161782	-0.06124806	4.673221e-09	9.65069e-10
	2.226136e-08	2.931296e-09	0.005383416	0.007621358	4.673221e-09	9.650689e-10	-0.01122759	-0.06080454
5e+07	-0.02709192	-0.0712995	5.187682e-09	-5.344334e-11	0.007662414	0.00817664	2.673888e-08	-3.539634e-09
	5.187682e-09	-5.344333e-11	-0.0282351	-0.0700479	1.535982e-09	2.108446e-09	0.007613395	0.008131972
	0.007662416	0.008176641	1.535982e-09	2.108446e-09	-0.02866385	-0.07039389	5.589649e-09	-2.403823e-10
	2.673888e-08	-3.539634e-09	0.007613392	0.008131972	5.589649e-09	-2.403823e-10	-0.02823422	-0.0699556
6e+07	-0.04610169	-0.07552775	5.599646e-09	-1.554766e-09	0.009922979	0.007968715	2.886244e-08	-1.220089e-08
	5.599646e-09	-1.554766e-09	-0.04708207	-0.07410345	1.617347e-09	2.239524e-09	0.009831693	0.007978027
	0.009922977	0.007968715	1.617347e-09	2.239524e-09	-0.04751987	-0.07444038	6.041596e-09	-1.901388e-09
	2.886244e-08	-1.220089e-08	0.009831695	0.007978026	6.041596e-09	-1.901388e-09	-0.04707863	-0.07399587
7e+07	-0.06536135	-0.07440075	5.420876e-09	-3.311032e-09	0.01196713	0.0071317	2.784453e-08	-2.213534e-08
	5.420876e-09	-3.311032e-09	-0.06616706	-0.07281883	1.584285e-09	2.340805e-09	0.01184958	0.00720706
	0.01196712	0.007131701	1.584285e-09	2.340805e-09	-0.06660008	-0.07316154	5.858883e-09	-3.839828e-09
	2.784453e-08	-2.213534e-08	0.01184959	0.007207056	5.858883e-09	-3.839828e-09	-0.06616101	-0.07269449
8e+07	-0.0833461	-0.06815118	4.55528e-09	-5.104298e-09	0.0136318	0.005768097	2.323938e-08	-3.219703e-08
	4.55528e-09	-5.104298e-09	-0.08395959	-0.06643001	1.427839e-09	2.455116e-09	0.01350675	0.005916225
	0.01363179	0.005768099	1.427839e-09	2.455116e-09	-0.08438384	-0.06679178	4.937607e-09	-5.821864e-09
	2.323938e-08	-3.219703e-08	0.01350676	0.005916218	4.937608e-09	-5.821864e-09	-0.08394974	-0.06628751
9e+07	-0.09870413	-0.05741543	2.984983e-09	-6.687021e-09	0.0147948	0.004017506	1.499762e-08	-4.112453e-08
	2.984983e-09	-6.687021e-09	-0.09910589	-0.05558055	1.153926e-09	2.627394e-09	0.01468255	0.004239352
	0.01479479	0.004017509	1.153926e-09	2.627394e-09	-0.09952217	-0.05596886	3.257442e-09	-7.581965e-09
	1.499762e-08	-4.112453e-08	0.01468255	0.004239346	3.257442e-09	-7.581965e-09	-0.09909013	-0.05541914
1e+08	-0.110346	-0.04315745	7.80086e-10	-7.813128e-09	0.01538178	0.002042318	3.489372e-09	-4.76686e-08
	7.80086e-10	-7.813128e-09	-0.1105217	-0.04124432	7.829543e-10	2.901036e-09	0.01530454	0.002333582
	0.01538178	0.002042317	7.829543e-10	2.901036e-09	-0.1109183	-0.04165556	8.914904e-10	-8.856117e-09
	3.489372e-09	-4.76686e-08	0.01530454	0.002333582	8.914904e-10	-8.856117e-09	-0.1104977	-0.04106432
1.1e+08	-0.117508	-0.02658344	-1.884774e-09	-8.244195e-09	0.01536272	7.506795e-06	-1.048711e-08	-5.070796e-08
	-1.884774e-09	-8.244195e-09	-0.1174445	-0.02462019	3.411288e-10	3.304046e-09	0.01533914	0.0003460187
	0.01536272	7.506712e-06	3.411289e-10	3.304046e-09	-0.1178278	-0.0251186	-1.972367e-09	-9.389098e-09
	-1.048711e-08	-5.070796e-08	0.01533914	0.0003460187	-1.972367e-09	-9.389098e-09	-0.1174091	-0.02442275
1.2e+08	-0.1197881	-0.009018906	-4.797673e-09	-7.818464e-09	0.01475126	-0.001913922	-2.58124e-08	-4.942653e-08
	-4.797673e-09	-7.818464e-09	-0.1194693	-0.007055877	-1.194295e-10	3.857851e-09	0.01478614	-0.001545521
	0.01475126	-0.001913922	-1.194295e-10	3.857851e-09	-0.1198973	-0.007628866	-5.108976e-09	-9.003216e-09
	-2.58124e-08	-4.942653e-08	0.01478614	-0.001545521	-5.108976e-09	-9.003216e-09	-0.1194195	-0.006843163
1.3e+08	-0.1171629	0.008158975	-7.676738e-09	-6.457082e-09	0.01360915	-0.003567087	-4.112035e-08	-4.336151e-08
	-7.676738e-09	-6.457082e-09	-0.1165906	0.01006243	-5.494245e-10	4.571141e-09	0.01370502	-0.003187133
	0.01360915	-0.003567087	-5.494245e-10	4.571141e-09	-0.117091	0.009447695	-8.217375e-09	-7.612338e-09
	-4.112035e-08	-4.336151e-08	0.01370502	-0.003187133	-8.217375e-09	-7.612338e-09	-0.116524	0.01028672
1.4e+08	-0.1099769	0.0236339	-1.021887e-08	-4.170908e-09	0.01203326	-0.004819925	-5.490567e-08	-3.247444e-08
	-1.021887e-08	-4.170908e-09	-0.1091711	0.02541545	-8.976588e-10	5.435194e-09	0.01218761	-0.004447471
	0.01203326	-0.004819925	-8.976588e-10	5.435194e-09	-0.1097525	0.02479986	-1.097246e-08	-5.225289e-09
	-5.490567e-08	-3.247444e-08	0.01218761	-0.004447471	-1.097246e-08	-5.225289e-09	-0.1090865	0.02564639
1.5e+08	-0.09891175	0.03624148	-1.21295e-08	-1.068205e-09	0.01015068	-0.005570088	-6.564992e-08	-1.719287e-08
	-1.21295e-08	-1.068205e-09	-0.09791116	0.03784167	-1.116404e-09	6.425273e-09	0.01035531	-0.005223336
	0.01015068	-0.005570088	-1.116404e-09	6.425273e-09	-0.09856374	0.03726746	-1.305688e-08	-1.95514e-09
	-6.564992e-08	-1.719287e-08	0.01035531	-0.005223336	-1.305688e-08	-1.95514e-09	-0.0978092	0.03807362
1.6e+08	-0.08493301	0.04504996	-1.31535e-08	2.650861e-09	0.008111584	-0.005751455	-7.196141e-08	1.583674e-09
	-1.31535e-08	2.650861e-09	-0.08379508	0.04641848	-1.166072e-09	7.502205e-09	0.0083528	-0.005445985
	0.008111584	-0.005751455	-1.166072e-09	7.502205e-09	-0.08449209	0.04592317	-1.419428e-08	1.985876e-09
	-7.196141e-08	1.583674e-09	0.0083528	-0.005445985	-1.419428e-08	1.985876e-09	-0.08367847	0.04664581
1.7e+08	-0.06922029	0.04942671	-1.310304e-08	6.70951e-09	0.006080399	-0.005339789	-7.272023e-08	2.251849e-08
	-1.310304e-08	6.70951e-09	-0.06801845	0.0505286	-1.019267e-09	8.615082e-09	0.006339787	-0.005086842
	0.006080399	-0.005339789	-1.019267e-09	8.615082e-09	-0.06871863	0.05013947	-1.417944e-08	6.302134e-09
	-7.272023e-08	2.251849e-08	0.006339787	-0.005086842	-1.417944e-08	6.302134e-09	-0.06789189	0.05074643
1.8e+08	-0.05308083	0.04908629	-1.187921e-08	1.077774e-08	0.004225022	-0.004356828	-6.721686e-08	4.391753e-08
	-1.187921e-08	1.077774e-08	-0.05189985	0.0499072	-6.640177e-10	9.704937e-09	0.004480792	-0.004161868
	0.004225022	-0.004356828	-6.640177e-10	9.704937e-09	-0.05255153	0.04963676	-1.290215e-08	1.063927e-08
	-6.721686e-08	4.391753e-08	0.004480792	-0.004161868	-1.290215e-08	1.063927e-08	-0.0517698	0.05011218
1.9e+08	-0.03785132	0.04411534	-9.485364e-09	1.450119e-08	0.002703965	-0.002871739	-5.526936e-08	6.385563e-08
	-9.485364e-09	1.450119e-08	-0.03678106	0.04466537	-1.06054e-10	1.070922e-08	0.002932756	-0.002733443
	0.002703965	-0.002871739	-1.06054e-10	1.070922e-08	-0.03732735	0.04450816	-1.036227e-08	1.461505e-08
	-5.526936e-08	6.385563e-08	0.002932756	-0.002733443	-1.036227e-08	1.461505e-08	-0.03665517	0.04485623
2e+08	-0.02479377	0.03497038	-6.031053e-09	1.753238e-08	0.001652265	-0.0009986597	-3.730179e-08	8.034419e-08
	-6.031053e-09	1.753238e-08	-0.02392154	0.03528584	6.300645e-10	1.156691e-08	0.001831237	-0.0009084842
	0.001652265	-0.0009986597	6.300645e-10	1.156691e-08	-0.02430646	0.03521696	-6.674809e-09	1.785324e-08
	-3.730179e-08	8.034419e-08	0.001831237	-0.0009084842	-6.674809e-09	1.785324e-08	-0.02380792	0.0354638
2.1e+08	-0.01499287	0.02244582	-1.726951e-09	1.956139e-08	0.001167564	0.001110584	-1.436706e-08	9.152835e-08
	-1.726951e-09	1.956139e-08	-0.01439535	0.02258847	1.501201e-09	1.222418e-08	0.001276617	0.00116819
	0.001167564	0.001110584	1.501201e-09	1.222418e-08	-0.01457028	0.02256411	-2.064973e-09	2.001719e-08
	-1.436706e-08	9.152835e-08	0.001276617	0.00116819	-2.064973e-09	2.001719e-08	-0.01430178	0.02275733
2.2e+08	-0.009264587	0.00761211	3.128289e-09	2.034367e-08	0.001298471	0.00327883	1.189831e-08	9.589327e-08
	3.128289e-09	2.034367e-08	-0.008999996	0.007665825	2.447568e-09	1.264007e-08	0.001322373	0.003325528
	0.001298471	0.00327883	2.447568e-09	1.264007e-08	-0.008929861	0.007625825	3.145809e-09	2.084065e-08
	1.189831e-08	9.589327e-08	0.001322373	0.003325528	3.145809e-09	2.084065e-08	-0.008933101	0.007831845
2.3e+08	-0.008085511	-0.00827231	8.167756e-09	1.97235e-08	0.002037373	0.005320127	3.939133e-08	9.245374e-08
	8.167756e-09	1.97235e-08	-0.00818699	-0.008207368	3.396554e-09	1.279193e-08	0.001967592	0.005382136
	0.002037373	0.005320127	3.396554e-09	1.279193e-08	-0.007855411	-0.008334974	8.56147e-09	2.015373e-08
	3.939133e-08	9.245374e-08	0.001967592	0.005382136	8.56147e-09	2.015373e-08	-0.008151433	-0.008035858
2.4e+08	-0.01155149	-0.02386789	1.298147e-08	1.765226e-08	0.003319447	0.007058545	6.572436e-08	8.089943e-08
	1.298147e-08	1.765226e-08	-0.01202242	-0.02368311	4.26844e-09	1.267965e-08	0.003155483	0.007164547
	0.003319447	0.007058545	4.26844e-09	1.267965e-08	-0.01143538	-0.02397598	1.373912e-08	1.7903e-08
	6.572436e-08	8.089943e-08	0.003155483	0.007164547	1.373912e-08	1.7903e-08	-0.01202032	-0.02349636
2.5e+08	-0.01937093	-0.03786928	1.714636e-08	1.420063e-08	0.005028577	0.008346588	8.845245e-08	6.167264e-08
	1.714636e-08	1.420063e-08	-0.02018287	-0.0374568	4.983689e-09	1.232797e-08	0.004778631	0.008525237
	0.005028577	0.008346588	4.983689e-09	1.232797e-08	-0.01937026	-0.03799108	1.822212e-08	1.416455e-08
	8.845245e-08	6.167264e-08	0.004778631	0.008525237	1.822212e-08	1.416455e-08	-0.02021335	-0.0372444
2.6e+08	-0.03089391	-0.04911701	2.026034e-08	9.563287e-09	0.007009576	0.009080357	1.053184e-07	3.596458e-08
	2.026034e-08	9.563287e-09	-0.03198743	-0.04837919	5.471047e-09	1.178639e-08	0.006690438	0.009357621
	0.007009576	0.009080357	5.471047e-09	1.178639e-08	-0.03100236	-0.0492221	2.157737e-08	9.148404e-09
	1.053184e-07	3.596458e-08	0.006690438	0.009357621	2.157737e-08	9.148404e-09	-0.03204653	-0.04813106
2.7e+08	-0.04517375	-0.0566937	2.197914e-08	4.053985e-09	0.009084862	0.009209229	1.144844e-07	5.629278e-09
	2.197914e-08	4.053985e-09	-0.04646222	-0.05555219	5.675522e-09	1.112614e-08	0.008720971	0.009605806
	0.009084862	0.009209229	5.675522e-09	1.112614e-08	-0.04537784	-0.0567549	2.343499e-08	3.192488e-09
	1.144844e-07	5.629278e-09	0.008720971	0.009605806	2.343499e-08	3.192488e-09	-0.04654292	-0.05525948
2.8e+08	-0.0610534	-0.05999566	2.205303e-08	-1.910835e-09	0.01107295	0.008738894	1.14722e-07	-2.69736e-08
	2.205303e-08	-1.910835e-09	-0.06242933	-0.0583989	5.56516e-09	1.04345e-08	0.01069468	0.009267967
	0.01107295	0.008738894	5.56516e-09	1.04345e-08	-0.06133373	-0.05999067	2.352744e-08	-3.2558e-09
	1.14722e-07	-2.69736e-08	0.01069468	0.009267967	2.352744e-08	-3.2558e-09	-0.06252207	-0.05805489
2.9e+08	-0.07726681	-0.05877388	2.035919e-08	-7.840938e-09	0.01280604	0.007727897	1.055393e-07	-5.918581e-08
	2.035919e-08	-7.840938e-09	-0.07861026	-0.05670252	5.135695e-09	9.807044e-09	0.01244732	0.008393464
	0.01280604	0.007727897	5.135695e-09	9.807044e-09	-0.07759952	-0.05868651	2.172346e-08	-9.670973e-09
	1.055393e-07	-5.918581e-08	0.01244732	0.008393464	2.172346e-08	-9.670973e-09	-0.07870353	-0.05630337
3e+08	-0.0925444	-0.05314306	1.692477e-08	-1.321244e-08	0.01414447	0.006278974	8.723785e-08	-8.828233e-08
	1.692477e-08	-1.321244e-08	-0.09373261	-0.05061264	4.412417e-09	9.338509e-09	0.01383995	0.00707495
	0.01414447	0.006278974	4.412417e-09	9.338509e-09	-0.09290296	-0.052964	1.8052e-08	-1.549238e-08
	8.723785e-08	-8.828233e-08	0.01383995	0.00707495	1.8052e-08	-1.549238e-08	-0.0938139	-0.05015795
3.1e+08	-0.105713	-0.0435606	1.193624e-08	-1.75157e-08	0.01498672	0.004527105	6.089603e-08	-1.117031e-07
	1.193624e-08	-1.75157e-08	-0.1066305	-0.04062146	3.448946e-09	9.113475e-09	0.01476876	0.005437297
	0.01498672	0.004527105	3.448946e-09	9.113475e-09	-0.10607	-0.04328775	1.271164e-08	-2.017494e-08
	6.089603e-08	-1.117031e-07	0.01476876	0.005437297	1.271164e-08	-2.017494e-08	-0.1066873	-0.04011447
3.2e+08	-0.1157823	-0.03078044	5.732366e-09	-2.030559e-08	0.01527482	0.002626282	2.829104e-08	-1.272649e-07
	5.732366e-09	-2.030559e-08	-0.1163307	-0.02751468	2.323013e-09	9.197876e-09	0.01517053	0.003625289
	0.01527482	0.002626282	2.323013e-09	9.197876e-09	-0.1161114	-0.03041873	6.062916e-09	-2.324216e-08
	2.829104e-08	-1.272649e-07	0.01517053	0.003625289	6.062916e-09	-2.324216e-08	-0.1163515	-0.02696226
3.3e+08	-0.1220137	-0.01578779	-1.219449e-09	-2.124802e-08	0.01499558	0.0007366412	-8.231055e-09	-1.333387e-07
	-1.219449e-09	-2.124802e-08	-0.1221198	-0.01230368	1.129725e-09	9.6323e-09	0.01502421	0.001791595
	0.01499558	0.0007366412	1.129725e-09	9.6323e-09	-0.1222908	-0.01534862	-1.396576e-09	-2.433515e-08
	-8.231055e-09	-1.333387e-07	0.01502421	0.001791595	-1.396576e-09	-2.433515e-08	-0.1220954	-0.01171595
3.4e+08	-0.1239668	0.000278845	-8.37848e-09	-2.016253e-08	0.01417868	-0.0009870725	-4.592178e-08	-1.28965e-07
	-8.37848e-09	-2.016253e-08	-0.1235898	0.003854591	-2.592438e-11	1.042911e-08	0.01434958	8.596085e-05
	0.01417868	-0.0009870725	-2.592438e-11	1.042911e-08	-0.1241721	0.0007784804	-9.089548e-09	-2.325703e-08
	-4.592178e-08	-1.28965e-07	0.01434958	8.596084e-05	-9.089548e-09	-2.325703e-08	-0.1235141	0.004464981
3.5e+08	-0.1215254	0.01621249	-1.513323e-08	-1.702499e-08	0.0128926	-0.002405332	-8.181457e-08	-1.140048e-07
	-1.513323e-08	-1.702499e-08	-0.1206611	0.01974408	-1.040258e-09	1.156701e-08	0.01320404	-0.001354104
	0.0128926	-0.002405332	-1.040258e-09	1.156701e-08	-0.1216443	0.01675118	-1.636332e-08	-1.997836e-08
	-8.181457e-08	-1.140048e-07	0.01320404	-0.001354104	-1.636332e-08	-1.997836e-08	-0.1205316	0.02036291
3.6e+08	-0.1149007	0.03082425	-2.089042e-08	-1.199734e-08	0.01123923	-0.003402078	-1.129572e-07	-8.912711e-08
	-2.089042e-08	-1.199734e-08	-0.1135836	0.0341773	-1.819105e-09	1.299662e-08	0.011678	-0.002411297
	0.01123923	-0.003402078	-1.819105e-09	1.299662e-08	-0.1149247	0.03137763	-2.258247e-08	-1.466732e-08
	-1.129572e-07	-8.912711e-08	0.011678	-0.002411297	-2.258247e-08	-1.466732e-08	-0.1134021	0.03478988
3.7e+08	-0.1046148	0.0430274	-2.512353e-08	-5.412601e-09	0.009347315	-0.00389168	-1.366204e-07	-5.580884e-08
	-2.512353e-08	-5.412601e-09	-0.1029166	0.0460797	-2.285304e-09	1.464374e-08	0.009889362	-0.002995479
	0.009347315	-0.00389168	-2.285304e-09	1.464374e-08	-0.104542	0.04356973	-2.718046e-08	-7.67504e-09
	-1.366204e-07	-5.580884e-08	0.009889362	-0.002995479	-2.718046e-08	-7.67504e-09	-0.1026891	0.04667206
3.8e+08	-0.09146299	0.05191486	-2.741878e-08	2.251745e-09	0.007364809	-0.003824819	-1.505146e-07	-1.627466e-08
	-2.741878e-08	2.251745e-09	-0.0894893	0.05456673	-2.384797e-09	1.641501e-08	0.007976742	-0.003049798
	0.007364809	-0.003824819	-2.384797e-09	1.641501e-08	-0.09129855	0.05242077	-2.970902e-08	4.91356e-10
	-1.505146e-07	-1.627466e-08	0.007976742	-0.003049798	-2.970902e-08	4.91356e-10	-0.08922548	0.05512685
3.9e+08	-0.07645926	0.05682604	-2.751339e-08	1.041243e-08	0.005449851	-0.003193142	-1.529962e-07	2.662295e-08
	-2.751339e-08	1.041243e-08	-0.07434204	0.05900949	-2.090722e-09	1.820481e-08	0.006091278	-0.00255585
	0.005449851	-0.003193142	-2.090722e-09	1.820481e-08	-0.07621488	0.0572723	-2.98799e-08	9.209176e-09
	-1.529962e-07	2.662295e-08	0.006091278	-0.00255585	-2.98799e-08	9.209176e-09	-0.07405509	0.05952838
4e+08	-0.0607641	0.05739885	-2.532033e-08	1.842854e-08	0.003760065	-0.002032166	-1.432466e-07	6.958284e-08
	-2.532033e-08	1.842854e-08	-0.05865264	0.05908477	-1.405664e-09	1.990264e-08	0.004386596	-0.001537298
	0.003760065	-0.002032166	-1.405664e-09	1.990264e-08	-0.06045742	0.05776607	-2.759249e-08	1.779095e-08
	-1.432466e-07	6.958284e-08	0.004386596	-0.001537298	-2.759249e-08	1.779095e-08	-0.05835803	0.05955736
4.1e+08	-0.04559985	0.05360231	-2.093763e-08	2.565414e-08	0.002440387	-0.000421532	-1.214062e-07	1.090912e-07
	-2.093763e-08	2.565414e-08	-0.04364927	0.05480488	-3.622605e-10	2.140067e-08	0.003007089	-6.100678e-05
	0.002440387	-0.000421532	-3.622605e-10	2.140067e-08	-0.04525328	0.05387646	-2.294532e-08	2.554079e-08
	-1.214062e-07	1.090912e-07	0.003007089	-6.100678e-05	-2.294532e-08	2.554079e-08	-0.04336371	0.05523063
4.2e+08	-0.03215741	0.04574559	-1.464223e-08	3.149048e-08	0.001610071	0.001518379	-8.864066e-08	1.417046e-07
	-1.464223e-08	3.149048e-08	-0.03051609	0.04652339	9.777217e-10	2.260133e-08	0.00207512	0.001765347
	0.001610071	0.001518379	9.777217e-10	2.260133e-08	-0.03179653	0.04591921	-1.623076e-08	3.181099e-08
	-8.864066e-08	1.417046e-07	0.00207512	0.001765347	-1.623076e-08	3.181099e-08	-0.03025612	0.04690656
4.3e+08	-0.0215012	0.0344605	-6.869835e-09	3.543327e-08	0.001350207	0.003634208	-4.711943e-08	1.643599e-07
	-6.869835e-09	3.543327e-08	-0.02029791	0.03491384	2.525938e-09	2.342499e-08	0.001678466	0.0038
	0.001350207	0.003634208	2.525938e-09	2.342499e-08	-0.02115289	0.03453341	-7.914322e-09	3.605398e-08
	-4.711943e-08	1.643599e-07	0.001678466	0.0038	-7.914322e-09	3.605398e-08	-0.0200786	0.03526336
4.4e+08	-0.01448055	0.02065629	1.816172e-09	3.71119e-08	0.001693573	0.005751859	1.060984e-10	1.746811e-07
	1.816172e-09	3.71119e-08	-0.01381258	0.02092077	4.171981e-09	2.381733e-08	0.001859798	0.005878341
	0.001693573	0.005751859	4.171981e-09	2.381733e-08	-0.01417084	0.02063576	1.398585e-09	3.786592e-08
	1.060984e-10	1.746811e-07	0.001859798	0.005878341	1.398585e-09	3.786592e-08	-0.01364618	0.02124974
4.5e+08	-0.01165628	0.005448853	1.076386e-08	3.631905e-08	0.002618744	0.007692414	4.932662e-08	1.712457e-07
	1.076386e-08	3.631905e-08	-0.01157969	0.005685382	5.790229e-09	2.375608e-08	0.002610141	0.007827936
	0.002618744	0.007692414	5.790229e-09	2.375608e-08	-0.01140829	0.005349143	1.100531e-08	3.701977e-08
	4.932662e-08	1.712457e-07	0.002610141	0.007827936	1.100531e-08	3.701977e-08	-0.0114745	0.006010191
4.6e+08	-0.01325087	-0.009930537	1.927722e-08	3.303022e-08	0.004050006	0.009289967	9.648538e-08	1.537728e-07
	1.927722e-08	3.303022e-08	-0.01377395	-0.009548406	7.249134e-09	2.325597e-08	0.00386788	0.009485656
	0.004050006	0.009289967	7.249134e-09	2.325597e-08	-0.01308289	-0.01008928	2.015501e-08	3.348695e-08
	9.648538e-08	1.537728e-07	0.00386788	0.009485656	2.015501e-08	3.348695e-08	-0.01373342	-0.009209275
4.7e+08	-0.01912832	-0.02423847	2.666461e-08	2.741296e-08	0.005863712	0.01040892	1.375442e-07	1.232025e-07
	2.666461e-08	2.741296e-08	-0.02020903	-0.02353894	8.422558e-09	2.237092e-08	0.005524019	0.01071455
	0.005863712	0.01040892	8.422558e-09	2.237092e-08	-0.01905231	-0.02443184	2.810195e-08	2.744717e-08
	1.375442e-07	1.232025e-07	0.005524019	0.01071455	2.810195e-08	2.744717e-08	-0.02023128	-0.02316634
4.8e+08	-0.0288065	-0.03632435	3.228994e-08	1.982497e-08	0.007900553	0.01095813	1.688627e-07	8.164993e-08
