!$
! Info: Touchstone file created by Circ.  Input file=Tx_12in_Rx_100ohms_TxVia_35mils_RxVia_45mils.circ
!$
# Hz S RI R 50
0	0.01244826	1.53173e-25	1.745932e-08	2.758575e-26	8.267289e-05	2.371179e-23	3.398486e-08	6.108179e-27
	1.745934e-08	2.75845e-26	0.01244711	1.791502e-25	3.391095e-08	1.000559e-25	8.309051e-05	2.818705e-23
	8.083312e-05	2.434973e-23	3.391096e-08	1.000563e-25	0.01246058	1.460102e-25	2.07238e-08	3.271063e-26
	3.398486e-08	6.108827e-27	8.124198e-05	2.832577e-23	2.07238e-08	3.271181e-26	0.01246017	1.678618e-25
1e+07	0.01847086	0.007436635	2.940169e-08	4.691859e-08	0.0008208799	0.002215047	9.158206e-08	1.369962e-07
	2.940169e-08	4.691859e-08	0.01846305	0.007435887	5.94385e-08	1.530605e-07	0.0008168757	0.002216299
	0.0008208194	0.00221505	5.94385e-08	1.530605e-07	0.01830526	0.007467838	3.473196e-08	5.618633e-08
	9.158206e-08	1.369962e-07	0.0008168147	0.002216309	3.473196e-08	5.618633e-08	0.01829581	0.007467606
2e+07	0.02419934	0.01003953	5.186911e-08	7.888455e-08	0.001476133	0.00449543	1.957393e-07	2.143279e-07
	5.186911e-08	7.888455e-08	0.024169	0.01004307	8.48883e-08	2.752485e-07	0.001461103	0.004501178
	0.001476119	0.004495468	8.48883e-08	2.752486e-07	0.02409906	0.01015477	6.141399e-08	9.440768e-08
	1.957391e-07	2.143279e-07	0.001461094	0.004501213	6.141399e-08	9.440769e-08	0.02406258	0.01016062
3e+07	0.02913812	0.01019909	7.815713e-08	1.013473e-07	0.002627116	0.006331605	3.279418e-07	2.449123e-07
	7.815712e-08	1.013473e-07	0.02907297	0.01021753	1.052625e-07	3.904183e-07	0.002595597	0.006347311
	0.002627118	0.00633161	1.052625e-07	3.904183e-07	0.02909692	0.01034135	9.256852e-08	1.213607e-07
	3.279418e-07	2.449123e-07	0.002595597	0.006347317	9.256852e-08	1.213607e-07	0.02901895	0.0103661
4e+07	0.03347105	0.008938151	1.064142e-07	1.132865e-07	0.004198699	0.007751399	4.754965e-07	2.204093e-07
	1.064142e-07	1.132865e-07	0.0333628	0.008985707	1.232705e-07	5.003324e-07	0.004147337	0.007784199
	0.004198694	0.007751394	1.232705e-07	5.003324e-07	0.0334847	0.009085262	1.260521e-07	1.359027e-07
	4.754965e-07	2.204093e-07	0.004147332	0.007784197	1.260521e-07	1.359027e-07	0.0333556	0.009145936
5e+07	0.03713741	0.006586883	1.33027e-07	1.141888e-07	0.006204781	0.008594725	6.195726e-07	1.367664e-07
	1.33027e-07	1.141888e-07	0.03698278	0.006680577	1.382237e-07	6.056579e-07	0.006132725	0.008652594
	0.006204777	0.008594723	1.382237e-07	6.056579e-07	0.03719989	0.006722704	1.576707e-07	1.374002e-07
	6.195726e-07	1.367664e-07	0.006132721	0.008652593	1.576707e-07	1.374002e-07	0.03701599	0.006839609
6e+07	0.04003762	0.003383735	1.547001e-07	1.049388e-07	0.008307358	0.008925609	7.408505e-07	-3.866424e-09
	1.547001e-07	1.049388e-07	0.03983929	0.003541497	1.493477e-07	7.075696e-07	0.008216552	0.009016826
	0.008307362	0.00892561	1.493477e-07	7.075696e-07	0.0401407	0.003495628	1.834698e-07	1.268417e-07
	7.408505e-07	-3.866424e-09	0.008216555	0.009016825	1.834698e-07	1.268417e-07	0.03990547	0.00369008
7e+07	0.04207623	-0.0004541751	1.683101e-07	8.72075e-08	0.01038566	0.008741647	8.211593e-07	-1.938694e-07
	1.683102e-07	8.720751e-08	0.04184277	-0.000215545	1.560476e-07	8.073432e-07	0.01028076	0.008873823
	0.01038568	0.008741645	1.560477e-07	8.073432e-07	0.04220973	-0.0003757413	1.997303e-07	1.06214e-07
	8.211593e-07	-1.938694e-07	0.01028077	0.00887382	1.997303e-07	1.06214e-07	0.04193363	-8.384573e-05
8e+07	0.04318251	-0.004710082	1.71248e-07	6.348787e-08	0.01232016	0.008067224	8.44827e-07	-4.205806e-07
	1.71248e-07	6.348789e-08	0.04292776	-0.004376618	1.579899e-07	9.063111e-07	0.01220826	0.008246533
	0.01232018	0.008067217	1.579899e-07	9.063111e-07	0.0433347	-0.004671505	2.033678e-07	7.848226e-08
	8.44827e-07	-4.205806e-07	0.01220827	0.008246527	2.033678e-07	7.848229e-08	0.04303443	-0.004265711
9e+07	0.04332182	-0.009164555	1.616214e-07	3.69774e-08	0.01399889	0.006953139	7.999646e-07	-6.6696e-07
	1.616214e-07	3.697741e-08	0.04306386	-0.008726525	1.551135e-07	1.005833e-06	0.01388907	0.007183631
	0.0139989	0.006953132	1.551135e-07	1.005833e-06	0.04347979	-0.009169047	1.921593e-07	4.74269e-08
	7.999646e-07	-6.6696e-07	0.01388908	0.007183626	1.921593e-07	4.742692e-08	0.04317707	-0.008637992
1e+08	0.04251631	-0.01359511	1.384502e-07	1.140157e-08	0.01531708	0.005472216	6.796145e-07	-9.126399e-07
	1.384502e-07	1.140157e-08	0.04227625	-0.01304816	1.47662e-07	1.107226e-06	0.01521977	0.005755274
	0.01531708	0.005472216	1.47662e-07	1.107226e-06	0.04266491	-0.01364313	1.649535e-07	1.743112e-08
	6.796145e-07	-9.126399e-07	0.01521977	0.005755274	1.649535e-07	1.743112e-08	0.04238501	-0.01298188
1.1e+08	0.04078431	-0.01790462	1.018966e-07	-9.183266e-09	0.01620789	0.003766331	4.830125e-07	-1.134651e-06
	1.018966e-07	-9.183266e-09	0.04058594	-0.01725247	1.361985e-07	1.211998e-06	0.01613434	0.004099943
	0.01620789	0.003766331	1.361985e-07	1.211998e-06	0.040912	-0.01798502	1.218472e-07	-6.68468e-09
	4.830125e-07	-1.134651e-06	0.01613434	0.004099943	1.218472e-07	-6.68468e-09	0.04068313	-0.01719703
1.2e+08	0.03812734	-0.02179171	5.314167e-08	-2.08673e-08	0.01665751	0.001905725	2.162713e-07	-1.311047e-06
	5.314167e-08	-2.08673e-08	0.03799155	-0.02104229	1.216282e-07	1.321576e-06	0.0166182	0.002284926
	0.01665751	0.001905725	1.216282e-07	1.321576e-06	0.03822964	-0.02189731	6.42848e-08	-2.028338e-08
	2.162713e-07	-1.311047e-06	0.0166182	0.002284926	6.42848e-08	-2.028338e-08	0.03807769	-0.02099299
1.3e+08	0.0346972	-0.02506477	-5.497453e-09	-2.004967e-08	0.0166306	-6.105035e-07	-1.088334e-07	-1.421353e-06
	-5.497453e-09	-2.004967e-08	0.03464377	-0.02423213	1.053215e-07	1.436881e-06	0.01663478	0.0004161725
	0.0166306	-6.105132e-07	1.053215e-07	1.436881e-06	0.03476942	-0.0251878	-4.992083e-09	-1.91031e-08
	-1.088334e-07	-1.421353e-06	0.01663478	0.0004161725	-4.992083e-09	-1.91031e-08	0.03471813	-0.02418507
1.4e+08	0.03065882	-0.02757536	-7.070519e-08	-3.757487e-09	0.01612834	-0.001836271	-4.74799e-07	-1.44834e-06
	-7.070519e-08	-3.757487e-09	0.0307043	-0.02667965	8.887232e-08	1.558516e-06	0.01618318	-0.00139264
	0.01612834	-0.001836271	8.887232e-08	1.558516e-06	0.03069811	-0.02770728	-8.206033e-08	3.739567e-10
	-4.74799e-07	-1.44834e-06	0.01618318	-0.00139264	-8.206033e-08	3.739577e-10	0.03076676	-0.0266311
1.5e+08	0.02619933	-0.02921533	-1.383316e-07	3.008585e-08	0.0151815	-0.003488369	-8.593496e-07	-1.379581e-06
	-1.383316e-07	3.008585e-08	0.02635496	-0.02828192	7.403353e-08	1.686677e-06	0.01529129	-0.003030762
	0.0151815	-0.003488369	7.403353e-08	1.686677e-06	0.02620491	-0.02934729	-1.620126e-07	4.060321e-08
	-8.593496e-07	-1.379581e-06	0.01529129	-0.003030762	-1.620126e-07	4.060321e-08	0.02640617	-0.02822848
1.6e+08	0.0215214	-0.02992002	-2.036336e-07	8.243084e-08	0.01384781	-0.004854826	-1.236774e-06	-1.208727e-06
	-2.036336e-07	8.243084e-08	0.0217915	-0.02897793	6.261713e-08	1.8211e-06	0.0140134	-0.004397466
	0.01384781	-0.004854826	6.261713e-08	1.8211e-06	0.02149457	-0.0300433	-2.392444e-07	1.02708e-07
	-1.236774e-06	-1.208727e-06	0.0140134	-0.004397466	-2.392444e-07	1.02708e-07	0.02183273	-0.02891666
1.7e+08	0.01683451	-0.02967035	-2.615816e-07	1.529368e-07	0.01220828	-0.005850673	-1.579595e-06	-9.364039e-07
	-2.615816e-07	1.529368e-07	0.01721537	-0.0287502	5.637621e-08	1.961042e-06	0.01242667	-0.005408175
	0.01220828	-0.005850673	5.637621e-08	1.961042e-06	0.01677857	-0.02977678	-3.078164e-07	1.862876e-07
	-1.579595e-06	-9.364039e-07	0.01242667	-0.005408175	-3.078164e-07	1.862876e-07	0.0172484	-0.02867873
1.8e+08	0.01234543	-0.02849309	-3.072137e-07	2.398916e-07	0.01036219	-0.006413213	-1.860467e-06	-5.706438e-07
	-3.072137e-07	2.398916e-07	0.01282483	-0.02762482	5.687539e-08	2.105282e-06	0.0106264	-0.005999541
	0.01036219	-0.006413213	5.687539e-08	2.105282e-06	0.01226554	-0.02857545	-3.618722e-07	2.893249e-07
	-1.860467e-06	-5.706438e-07	0.0106264	-0.005999541	-3.618722e-07	2.893249e-07	0.01285185	-0.02754136
1.9e+08	0.008248583	-0.02645915	-3.36012e-07	3.402305e-07	0.008421034	-0.006505798	-2.05416e-06	-1.268077e-07
	-3.36012e-07	3.402305e-07	0.008806078	-0.02566959	6.536082e-08	2.252176e-06	0.008720337	-0.006133192
	0.008421034	-0.006505798	6.536082e-08	2.252176e-06	0.008151538	-0.02651155	-3.960799e-07	4.082112e-07
	-2.05416e-06	-1.268077e-07	0.008720337	-0.006133192	-3.960799e-07	4.082112e-07	0.008829463	-0.025573
2e+08	0.00471683	-0.02367969	-3.442732e-07	4.496604e-07	0.006501804	-0.006120007	-2.139517e-06	3.730316e-07
	-3.442732e-07	4.496604e-07	0.005324624	-0.02299038	8.264171e-08	2.399737e-06	0.006822131	-0.005797966
	0.006501804	-0.006120007	8.264171e-08	2.399737e-06	0.004610803	-0.02369798	-4.060665e-07	5.378931e-07
	-2.139517e-06	3.730316e-07	0.006822131	-0.005797966	-4.060665e-07	5.378931e-07	0.005346871	-0.02288012
2.1e+08	0.001893332	-0.02030038	-3.294421e-07	5.62888e-07	0.004719902	-0.005276097	-2.101202e-06	9.012183e-07
	-3.294421e-07	5.62888e-07	0.002517764	-0.01972556	1.089959e-07	2.545759e-06	0.005044598	-0.005010503
	0.004719902	-0.005276097	1.089959e-07	2.545759e-06	0.001787451	-0.02028241	-3.888074e-07	6.721409e-07
	-2.101202e-06	9.012183e-07	0.005044598	-0.005010503	-3.888074e-07	6.721409e-07	0.002541328	-0.01960172
2.2e+08	-0.0001152175	-0.01649388	-2.903777e-07	6.739391e-07	0.003182201	-0.004021714	-1.931141e-06	1.426097e-06
	-2.903777e-07	6.739391e-07	0.0004882992	-0.016039	1.441106e-07	2.687957e-06	0.003492978	-0.003814145
	0.003182201	-0.004021714	1.441106e-07	2.687957e-06	-0.000211345	-0.01643977	-3.429374e-07	8.039219e-07
	-1.931141e-06	1.426097e-06	0.003492978	-0.003814145	-3.429374e-07	8.039219e-07	0.000515483	-0.01590224
2.3e+08	-0.001243507	-0.012451	-2.27526e-07	7.765479e-07	0.001980648	-0.002428934	-1.629513e-06	1.913954e-06
	-2.27526e-07	7.765479e-07	-0.0007000031	-0.01211173	1.870666e-07	2.824141e-06	0.002258713	-0.002276247
	0.001980648	-0.002428934	1.870666e-07	2.824141e-06	-0.00132034	-0.01236328	-2.689544e-07	9.258559e-07
	-1.629513e-06	1.913954e-06	0.002258713	-0.002276247	-2.689544e-07	9.258559e-07	-0.000667172	-0.01196324
2.4e+08	-0.001470435	-0.008370975	-1.429826e-07	8.645888e-07	0.001186802	-0.0005898491	-1.205222e-06	2.331196e-06
	-1.429826e-07	8.645888e-07	-0.001025033	-0.008132873	2.363699e-07	2.952372e-06	0.001414092	-0.0004840593
	0.001186802	-0.0005898491	2.363699e-07	2.952372e-06	-0.0015191	-0.008254549	-1.692932e-07	1.030719e-06
	-1.205222e-06	2.331196e-06	0.001414092	-0.0004840593	-1.692932e-07	1.030719e-06	-0.0009849117	-0.007974301
2.5e+08	-0.0008196562	-0.004451387	-4.043428e-08	9.325155e-07	0.0008476454	0.001389037	-6.757837e-07	2.646614e-06
	-4.043428e-08	9.325155e-07	-0.0005068229	-0.004290226	2.900299e-07	3.071118e-06	0.001008071	0.001460555
	0.0008476454	0.001389037	2.900299e-07	3.071118e-06	-0.0008325397	-0.004313372	-4.826089e-08	1.111955e-06
	-6.757837e-07	2.646614e-06	0.001008071	0.001460555	-4.826089e-08	1.111955e-06	-0.0004582477	-0.004123556
2.6e+08	0.000642147	-0.0008782156	7.501785e-08	9.757744e-07	0.0009828946	0.003393238	-6.662776e-08	2.833588e-06
	7.501785e-08	9.757744e-07	0.0007940558	-0.0007609511	3.456781e-07	3.17938e-06	0.00106353	0.003447223
	0.0009828945	0.003393238	3.456781e-07	3.17938e-06	0.0006708408	-0.000727615	8.816664e-08	1.164167e-06
	-6.662776e-08	2.833588e-06	0.00106353	0.003447223	8.816664e-08	1.164167e-06	0.0008516995	-0.0005883945
2.7e+08	0.002809193	0.002183424	1.971412e-07	9.911597e-07	0.001583971	0.005307134	5.901574e-07	2.872073e-06
	1.971412e-07	9.911597e-07	0.002780146	0.002297037	4.007179e-07	3.276777e-06	0.001576085	0.005363615
	0.001583971	0.005307134	4.007179e-07	3.276777e-06	0.002882976	0.002336184	2.326715e-07	1.183527e-06
	5.901574e-07	2.872073e-06	0.001576085	0.005363615	2.326715e-07	1.183527e-06	0.002846883	0.002473187
2.8e+08	0.005542501	0.00459737	3.189408e-07	9.770826e-07	0.00261466	0.007020837	1.257571e-06	2.750224e-06
	3.189408e-07	9.770826e-07	0.005322568	0.004752628	4.524925e-07	3.363595e-06	0.002514535	0.007102054
	0.00261466	0.007020837	4.524925e-07	3.363595e-06	0.005662253	0.004741028	3.770225e-07	1.168103e-06
	1.257571e-06	2.750224e-06	0.002514535	0.007102054	3.770225e-07	1.168103e-06	0.005397828	0.004930143
2.9e+08	0.008677424	0.006262923	4.330874e-07	9.337375e-07	0.004013398	0.008436649	1.895831e-06	2.46556e-06
	4.330874e-07	9.337375e-07	0.008267993	0.0065076	4.984558e-07	3.440779e-06	0.003822857	0.008565772
	0.004013398	0.008436649	4.984558e-07	3.440779e-06	0.008841202	0.006386048	5.125749e-07	1.118057e-06
	1.895831e-06	2.46556e-06	0.003822857	0.008565772	5.125749e-07	1.118057e-06	0.008350641	0.006684466
3e+08	0.01203242	0.00711945	5.323739e-07	8.631523e-07	0.005697023	0.009474743	2.464762e-06	2.025562e-06
	5.323739e-07	8.631523e-07	0.01144675	0.007500941	5.363365e-07	3.509889e-06	0.005423633	0.009674483
	0.005697023	0.009474743	5.363365e-07	3.509889e-06	0.01223544	0.007211159	6.308057e-07	1.035712e-06
	2.464762e-06	2.025562e-06	0.005423633	0.009674483	6.308057e-07	1.035712e-06	0.01153516	0.007675497
3.1e+08	0.01541857	0.007148874	6.101705e-07	7.691242e-07	0.007565755	0.01007776	2.92629e-06	1.447661e-06
	6.101705e-07	7.691242e-07	0.01468163	0.007711238	5.642803e-07	3.573015e-06	0.007222674	0.01036894
	0.007565755	0.01007776	5.642803e-07	3.573015e-06	0.01565335	0.007199537	7.238507e-07	9.254876e-07
	2.92629e-06	1.447661e-06	0.007222674	0.01036894	7.238507e-07	9.254876e-07	0.01477376	0.007882291
3.2e+08	0.01864931	0.006375937	6.608498e-07	6.570453e-07	0.009509086	0.01021408	3.246904e-06	7.586138e-07
	6.608498e-07	6.570453e-07	0.01779688	0.007156998	5.809664e-07	3.632662e-06	0.009114563	0.01061424
	0.009509086	0.01021408	5.809664e-07	3.632662e-06	0.01890606	0.00637784	7.850092e-07	7.936963e-07
	3.246904e-06	7.586138e-07	0.009114563	0.01061424	7.850092e-07	7.936963e-07	0.01789046	0.007323918
3.3e+08	0.02155001	0.004866286	6.801582e-07	5.336321e-07	0.01141226	0.00987954	3.399909e-06	-6.730495e-09
	6.801582e-07	5.336321e-07	0.02062705	0.005894996	5.856901e-07	3.691608e-06	0.01098879	0.01040174
	0.01141226	0.00987954	5.856901e-07	3.691608e-06	0.02181706	0.004814188	8.091879e-07	6.482346e-07
	3.399909e-06	-6.730495e-09	0.01098879	0.01040174	8.091879e-07	6.482346e-07	0.02071968	0.006057761
3.4e+08	0.02396668	0.002722482	6.655139e-07	4.065745e-07	0.01316293	0.009097644	3.367363e-06	-8.071895e-07
	6.655139e-07	4.065745e-07	0.0230251	0.004016707	5.784128e-07	3.752765e-06	0.01273613	0.009749402
	0.01316293	0.009097644	5.784128e-07	3.752765e-06	0.02423116	0.00261406	7.932604e-07	4.9817e-07
	3.367363e-06	-8.071895e-07	0.01273613	0.009749402	7.932604e-07	4.9817e-07	0.02311441	0.004175925
3.5e+08	0.02577357	7.817919e-05	6.162177e-07	2.841229e-07	0.01465771	0.007918139	3.141537e-06	-1.597462e-06
	6.162177e-07	2.841229e-07	0.02486946	0.001643057	5.597772e-07	3.819014e-06	0.01425492	0.008700735
	0.01465771	0.007918139	5.597772e-07	3.819014e-06	0.02602216	-8.571059e-05	7.36323e-07	3.532549e-07
	3.141537e-06	-1.597462e-06	0.01425492	0.008700735	7.36323e-07	3.532549e-07	0.02495331	0.001799939
3.6e+08	0.0268793	-0.002909192	5.335654e-07	1.74635e-07	0.01580812	0.006414124	2.725834e-06	-2.33067e-06
	5.335654e-07	1.74635e-07	0.02606975	-0.001082191	5.31092e-07	3.893062e-06	0.01545687	0.007322205
	0.01580812	0.006414124	5.31092e-07	3.893062e-06	0.02709897	-0.003124429	6.39835e-07	2.233891e-07
	2.725834e-06	-2.33067e-06	0.01545687	0.007322205	6.39835e-07	2.233891e-07	0.02614634	-0.0009258995
3.7e+08	0.02723105	-0.00606689	4.208561e-07	8.610214e-08	0.01654572	0.004677832	2.135071e-06	-2.96109e-06
	4.208561e-07	8.610214e-08	0.0265708	-0.004000117	4.942843e-07	3.977288e-06	0.01627213	0.005699412
	0.01654572	0.004677832	4.942843e-07	3.977288e-06	0.02740988	-0.006326201	5.076339e-07	1.180554e-07
	2.135071e-06	-2.96109e-06	0.01627213	0.005699412	5.076339e-07	1.180554e-07	0.02663881	-0.003842237
3.8e+08	0.02681679	-0.009216005	2.832934e-07	2.56764e-08	0.01682614	0.002815316	1.395096e-06	-3.446933e-06
	2.832934e-07	2.56764e-08	0.02635489	-0.006944959	4.518249e-07	4.073613e-06	0.0166533	0.003932166
	0.01682614	0.002815316	4.518249e-07	4.073613e-06	0.02694478	-0.009509274	3.458202e-07	4.575653e-08
	1.395096e-06	-3.446933e-06	0.0166533	0.003932166	3.458202e-07	4.575653e-08	0.02641359	-0.00678301
3.9e+08	0.02566546	-0.01218084	1.277774e-07	-7.785092e-10	0.01663169	0.0009403344	5.417371e-07	-3.752999e-06
	1.277774e-07	-7.785092e-10	0.02544205	-0.009752678	4.066237e-07	4.183371e-06	0.01657816	0.002128764
	0.01663169	0.0009403344	4.066237e-07	4.183371e-06	0.02573512	-0.0124956	1.625136e-07	1.347936e-08
	5.417371e-07	-3.752999e-06	0.01657816	0.002128764	1.625136e-07	1.347936e-08	0.02549136	-0.009584035
4e+08	0.02384493	-0.01479804	-3.740663e-08	1.091012e-08	0.0159725	-0.0008322313	-3.80884e-07	-3.853051e-06
	-3.740663e-08	1.091012e-08	0.02388849	-0.01226933	3.618991e-07	4.307211e-06	0.01605102	0.000399763
	0.0159725	-0.0008322313	3.618991e-07	4.307211e-06	0.0238519	-0.01512012	-3.251703e-08	2.621545e-08
	-3.80884e-07	-3.853051e-06	0.01605102	0.000399763	-3.251703e-08	2.621545e-08	0.023929	-0.01209139
4.1e+08	0.02145806	-0.01692505	-2.029977e-07	6.289266e-08	0.01488605	-0.002393069	-1.32261e-06	-3.731773e-06
	-2.029977e-07	6.289266e-08	0.02178321	-0.01435883	3.210209e-07	4.445022e-06	0.01510251	-0.001148404
	0.01488605	-0.002393069	3.210209e-07	4.445022e-06	0.02140145	-0.01723937	-2.283391e-07	8.656753e-08
	-1.32261e-06	-3.731773e-06	0.01510251	-0.001148404	-2.283391e-07	8.656753e-08	0.02181615	-0.01416917
4.2e+08	0.01863689	-0.0184474	-3.5925e-07	1.550613e-07	0.0134351	-0.003644846	-2.229957e-06	-3.386143e-06
	-3.5925e-07	1.550613e-07	0.01924294	-0.01590978	2.873317e-07	4.595885e-06	0.01378792	-0.002419603
	0.0134351	-0.003644846	2.873317e-07	4.595885e-06	0.01851949	-0.0187388	-4.134383e-07	1.944706e-07
	-2.229957e-06	-3.386143e-06	0.01378792	-0.002419603	-4.134383e-07	1.944706e-07	0.01927014	-0.01570635
4.3e+08	0.01553542	-0.01928451	-4.964862e-07	2.849327e-07	0.01170416	-0.004507977	-3.049148e-06	-2.826149e-06
	-4.964862e-07	2.849327e-07	0.01640573	-0.01684091	2.639528e-07	4.758077e-06	0.01218405	-0.003333621
	0.01170416	-0.004507977	2.639528e-07	4.758077e-06	0.01536366	-0.01953867	-5.76373e-07	3.47054e-07
	-3.049148e-06	-2.826149e-06	0.01218405	-0.003333621	-5.76373e-07	3.47054e-07	0.0164295	-0.01662214
4.4e+08	0.0123212	-0.01939371	-6.056843e-07	4.476672e-07	0.009794671	-0.004925398	-3.729295e-06	-2.074739e-06
	-6.056843e-07	4.476672e-07	0.01342349	-0.01710498	2.535837e-07	4.929114e-06	0.01038482	-0.003830901
	0.009794671	-0.004925398	2.535837e-07	4.929114e-06	0.0121049	-0.01959802	-7.064663e-07	5.386659e-07
	-3.729295e-06	-2.074739e-06	0.01038482	-0.003830901	-7.064663e-07	5.386659e-07	0.01344651	-0.0168699
4.5e+08	0.00916624	-0.01877217	-6.790628e-07	6.362379e-07	0.007819077	-0.004866058	-4.225539e-06	-1.167003e-06
	-6.790628e-07	6.362379e-07	0.01045385	-0.01669085	2.5831e-07	5.105857e-06	0.008495871	-0.003876099
	0.007819077	-0.004866058	2.5831e-07	5.105857e-06	0.00891816	-0.01891655	-7.944945e-07	7.610724e-07
	-4.225539e-06	-1.167003e-06	0.008495871	-0.003876099	-7.944945e-07	7.610724e-07	0.01047898	-0.01643921
4.6e+08	0.006237736	-0.01745676	-7.106236e-07	8.417497e-07	0.005894289	-0.004326893	-4.501965e-06	-1.485681e-07
	-7.106236e-07	8.417497e-07	0.007651789	-0.01562369	2.794339e-07	5.284659e-06	0.006628373	-0.003460242
	0.005894289	-0.004326893	2.794339e-07	5.284659e-06	0.005972932	-0.01753431	-8.333247e-07	1.003833e-06
	-4.501965e-06	-1.485681e-07	0.006628373	-0.003460242	-8.333247e-07	1.003833e-06	0.007681919	-0.01535592
4.7e+08	0.003689086	-0.01552173	-6.966125e-07	1.0539e-06	0.004134774	-0.003333158	-4.534084e-06	9.266966e-07
	-6.966125e-07	1.0539e-06	0.005161436	-0.01396319	3.173446e-07	5.461569e-06	0.004892558	-0.002601342
	0.004134774	-0.003333158	3.173446e-07	5.461569e-06	0.003424096	-0.01552921	-8.184511e-07	1.254842e-06
	-4.534084e-06	9.266966e-07	0.004892558	-0.002601342	-8.184511e-07	1.254842e-06	0.00519928	-0.0136804
4.8e+08	0.001651673	-0.01307441	-6.358555e-07	1.261556e-06	0.002645771	-0.001937061	-4.310725e-06	1.999575e-06
	-6.358555e-07	1.261556e-06	0.003108529	-0.01180003	3.714395e-07	5.632568e-06	0.003391222	-0.001343419
