!$
! Info: Touchstone file created by Circ.  Input file=Tx_12in_Rx_100ohms_TxVia_35mils_RxVia_45mils.circ
!$
# Hz S RI R 50
0	0.01244883	1.461742e-25	7.335605e-10	2.101441e-27	8.322457e-05	2.326109e-23	3.624273e-10	4.557333e-28
	7.335606e-10	2.10142e-27	0.01244711	1.791502e-25	2.477369e-09	8.209257e-27	8.309051e-05	2.818705e-23
	8.30392e-05	2.316344e-23	2.477369e-09	8.209266e-27	0.01245937	1.461487e-25	7.356972e-10	2.25082e-27
	3.624273e-10	4.557274e-28	8.124198e-05	2.832577e-23	7.356976e-10	2.250838e-27	0.01246017	1.678618e-25
1e+07	0.01828681	0.007456796	9.708818e-10	1.295865e-09	0.000821266	0.002218107	6.143995e-10	5.917513e-10
	9.708818e-10	1.295865e-09	0.01846305	0.007435887	3.61298e-09	6.671587e-09	0.0008168757	0.002216299
	0.0008212605	0.002218108	3.61298e-09	6.671587e-09	0.0184873	0.007440999	9.600571e-10	1.318793e-09
	6.143994e-10	5.917513e-10	0.0008168147	0.002216309	9.60057e-10	1.318793e-09	0.01829581	0.007467606
2e+07	0.02407209	0.01013651	1.406168e-09	2.169876e-09	0.001477517	0.004501299	1.057019e-09	8.611742e-10
	1.406168e-09	2.169876e-09	0.024169	0.01004307	4.909656e-09	1.159695e-08	0.001461103	0.004501178
	0.001477518	0.004501303	4.909656e-09	1.159695e-08	0.02422155	0.01004508	1.359822e-09	2.221444e-09
	1.057019e-09	8.611742e-10	0.001461094	0.004501213	1.359821e-09	2.221444e-09	0.02406258	0.01016062
3e+07	0.02905821	0.01031982	1.819179e-09	2.880456e-09	0.002630052	0.006339921	1.530255e-09	9.725388e-10
	1.819179e-09	2.880456e-09	0.02907297	0.01021753	5.849398e-09	1.625345e-08	0.002595597	0.006347311
	0.002630054	0.006339921	5.849398e-09	1.625345e-08	0.02916786	0.01020263	1.715468e-09	2.98411e-09
	1.530255e-09	9.725388e-10	0.002595597	0.006347317	1.715468e-09	2.98411e-09	0.02901895	0.0103661
4e+07	0.03343254	0.009065358	2.218688e-09	3.442986e-09	0.004203628	0.007761656	2.010298e-09	8.998282e-10
	2.218688e-09	3.442986e-09	0.0333628	0.008985707	6.64858e-09	2.072004e-08	0.004147337	0.007784199
	0.004203629	0.007761654	6.64858e-09	2.072004e-08	0.03350873	0.008935808	2.047073e-09	3.627647e-09
	2.010298e-09	8.998282e-10	0.004147332	0.007784197	2.047073e-09	3.627647e-09	0.0333556	0.009145936
5e+07	0.0371343	0.006709601	2.558153e-09	3.863012e-09	0.006211969	0.008606348	2.43423e-09	6.395679e-10
	2.558153e-09	3.863012e-09	0.03698278	0.006680577	7.300056e-09	2.502655e-08	0.006132725	0.008652594
	0.006211969	0.008606347	7.300056e-09	2.502655e-08	0.03718191	0.006574675	2.319301e-09	4.15982e-09
	2.43423e-09	6.395678e-10	0.006132721	0.008652593	2.319301e-09	4.15982e-09	0.03701599	0.006839609
6e+07	0.04006344	0.003494234	2.800852e-09	4.16892e-09	0.008316921	0.008937966	2.7447e-09	2.132093e-10
	2.800852e-09	4.16892e-09	0.03983929	0.003541497	7.786963e-09	2.922658e-08	0.008216552	0.009016826
	0.008316923	0.008937966	7.786963e-09	2.922658e-08	0.04008636	0.003358104	2.506251e-09	4.607731e-09
	2.7447e-09	2.132093e-10	0.008216555	0.009016825	2.506251e-09	4.607731e-09	0.03990547	0.00369008
7e+07	0.04212404	-0.0003612463	2.899666e-09	4.393803e-09	0.01039755	0.00875409	2.83787e-09	-3.286434e-10
	2.899666e-09	4.393804e-09	0.04184277	-0.000215545	8.060604e-09	3.334908e-08	0.01028076	0.008873823
	0.01039755	0.008754091	8.060605e-09	3.334908e-08	0.04212537	-0.000495929	2.567392e-09	5.000303e-09
	2.83787e-09	-3.286435e-10	0.01028077	0.00887382	2.567392e-09	5.000304e-09	0.04193363	-8.384573e-05
8e+07	0.04324504	-0.004638071	2.824129e-09	4.580239e-09	0.01233414	0.008079144	2.683411e-09	-9.016885e-10
	2.824129e-09	4.580239e-09	0.04292776	-0.004376618	8.124398e-09	3.74605e-08	0.01220826	0.008246533
	0.01233414	0.008079144	8.124399e-09	3.74605e-08	0.04322726	-0.004769445	2.48144e-09	5.375767e-09
	2.683411e-09	-9.016887e-10	0.01220827	0.008246527	2.48144e-09	5.375768e-09	0.04303443	-0.004265711
9e+07	0.0433915	-0.009115049	2.578561e-09	4.780114e-09	0.01401457	0.00696401	2.323011e-09	-1.443571e-09
	2.578561e-09	4.780114e-09	0.04306386	-0.008726525	8.023923e-09	4.163034e-08	0.01388907	0.007183631
	0.01401457	0.006964009	8.023923e-09	4.163034e-08	0.04335678	-0.009241528	2.262696e-09	5.778565e-09
	2.323011e-09	-1.443571e-09	0.01388908	0.007183626	2.262696e-09	5.778566e-09	0.04317707	-0.008637992
1e+08	0.04258374	-0.01356856	2.149175e-09	5.037085e-09	0.01533395	0.005481633	1.787553e-09	-1.888298e-09
	2.149175e-09	5.037085e-09	0.04227625	-0.01304816	7.779179e-09	4.590064e-08	0.01521977	0.005755274
	0.01533395	0.005481633	7.779179e-09	4.590064e-08	0.04253599	-0.01368809	1.903168e-09	6.242432e-09
	1.787553e-09	-1.888298e-09	0.01521977	0.005755274	1.903168e-09	6.242432e-09	0.04238501	-0.01298188
1.1e+08	0.04084344	-0.01789103	1.630244e-09	5.332155e-09	0.01622533	0.003774041	1.113403e-09	-2.266914e-09
	1.630244e-09	5.332155e-09	0.04058594	-0.01725247	7.497111e-09	5.029888e-08	0.01613434	0.004099943
	0.01622533	0.003774042	7.497111e-09	5.029888e-08	0.04078435	-0.01801277	1.501971e-09	6.735096e-09
	1.113403e-09	-2.266914e-09	0.01613434	0.004099943	1.501971e-09	6.735096e-09	0.04068313	-0.01719703
1.2e+08	0.03817926	-0.02178752	9.992124e-10	5.778214e-09	0.01667489	0.001911644	2.502657e-10	-2.501916e-09
	9.992124e-10	5.778214e-09	0.03799155	-0.02104229	7.149587e-09	5.486639e-08	0.0166182	0.002284926
	0.01667489	0.001911644	7.149587e-09	5.486639e-08	0.03810154	-0.02190927	1.027484e-09	7.351025e-09
	2.502657e-10	-2.501916e-09	0.0166182	0.002284926	1.027484e-09	7.351025e-09	0.03807769	-0.02099299
1.3e+08	0.0347415	-0.02506734	2.75339e-10	6.405546e-09	0.01664726	3.604989e-06	-7.533454e-10	-2.52885e-09
	2.75339e-10	6.405546e-09	0.03464377	-0.02423213	6.777317e-09	5.962507e-08	0.01663478	0.0004161725
	0.01664726	3.605056e-06	6.777317e-09	5.962507e-08	0.03464187	-0.02518424	4.921841e-10	8.110545e-09
	-7.533454e-10	-2.52885e-09	0.01663478	0.0004161725	4.921841e-10	8.110545e-09	0.03471813	-0.02418507
1.4e+08	0.03069536	-0.02758236	-4.972355e-10	7.245594e-09	0.01614366	-0.001833503	-1.841915e-09	-2.303164e-09
	-4.972355e-10	7.245594e-09	0.0307043	-0.02667965	6.433222e-09	6.458775e-08	0.01618318	-0.00139264
	0.01614366	-0.001833503	6.433222e-09	6.458775e-08	0.03057279	-0.02768852	-6.943749e-11	9.036439e-09
	-1.841915e-09	-2.303164e-09	0.01618318	-0.00139264	-6.943749e-11	9.036439e-09	0.03076676	-0.0266311
1.5e+08	0.02622825	-0.02922477	-1.262844e-09	8.320289e-09	0.01519495	-0.003486634	-2.94961e-09	-1.795189e-09
	-1.262844e-09	8.320289e-09	0.02635496	-0.02828192	6.174576e-09	6.975461e-08	0.01529129	-0.003030762
	0.01519495	-0.003486634	6.174576e-09	6.975461e-08	0.02608379	-0.02931396	-6.137421e-10	1.014444e-08
	-2.94961e-09	-1.795189e-09	0.01529129	-0.003030762	-6.137421e-10	1.014444e-08	0.02640617	-0.02822848
1.6e+08	0.02154309	-0.02993021	-1.956533e-09	9.637519e-09	0.01385899	-0.004853578	-4.002052e-09	-9.923534e-10
	-1.956533e-09	9.637519e-09	0.0217915	-0.02897793	6.060144e-09	7.51113e-08	0.0140134	-0.004397466
	0.01385899	-0.004853578	6.060144e-09	7.51113e-08	0.02137968	-0.02999644	-1.089494e-09	1.14394e-08
	-4.002052e-09	-9.923534e-10	0.0140134	-0.004397466	-1.089494e-09	1.14394e-08	0.02183273	-0.02891666
1.7e+08	0.0168495	-0.02967983	-2.507897e-09	1.118725e-08	0.01221692	-0.00584927	-4.920242e-09	9.837562e-11
	-2.507897e-09	1.118725e-08	0.01721537	-0.0287502	6.146515e-09	8.062776e-08	0.01242667	-0.005408175
	0.01221692	-0.00584927	6.146515e-09	8.062776e-08	0.01667179	-0.02971781	-1.440846e-09	1.291185e-08
	-4.920242e-09	9.837562e-11	0.01242667	-0.005408175	-1.440846e-09	1.291185e-08	0.0172484	-0.02867873
1.8e+08	0.01235434	-0.0285006	-2.846352e-09	1.293873e-08	0.01036821	-0.00641096	-5.625497e-09	1.448801e-09
	-2.846352e-09	1.293873e-08	0.01282483	-0.02762482	6.483751e-09	8.625793e-08	0.0106264	-0.005999541
	0.01036821	-0.00641096	6.483751e-09	8.625793e-08	0.01216851	-0.02850617	-1.611639e-09	1.453542e-08
	-5.625497e-09	1.448801e-09	0.0106264	-0.005999541	-1.611639e-09	1.453542e-08	0.01285185	-0.02754136
1.9e+08	0.008252163	-0.02646356	-2.907659e-09	1.483937e-08	0.008424536	-0.006501991	-6.045157e-09	3.009035e-09
	-2.907659e-09	1.483937e-08	0.008806078	-0.02566959	7.11061e-09	9.194091e-08	0.008720337	-0.006133192
	0.008424536	-0.006501991	7.11061e-09	9.194091e-08	0.008065553	-0.02643405	-1.550918e-09	1.626568e-08
	-6.045157e-09	3.009035e-09	0.008720337	-0.006133192	-1.550918e-09	1.626568e-08	0.008829463	-0.025573
2e+08	0.004715964	-0.02368002	-2.641128e-09	1.681588e-08	0.00650307	-0.006113984	-6.118706e-09	4.708648e-09
	-2.641128e-09	1.681588e-08	0.005324624	-0.02299038	8.049839e-09	9.760362e-08	0.006822131	-0.005797966
	0.00650307	-0.006113984	8.049839e-09	9.760362e-08	0.004536726	-0.02361456	-1.219154e-09	1.804097e-08
	-6.118706e-09	4.708648e-09	0.006822131	-0.005797966	-1.219154e-09	1.804097e-08	0.005346871	-0.02288012
2.1e+08	0.001889052	-0.02029581	-2.016638e-09	1.877806e-08	0.004719381	-0.005267284	-5.803791e-09	6.459663e-09
	-2.016638e-09	1.877806e-08	0.002517764	-0.01972556	9.304153e-09	1.031652e-07	0.005044598	-0.005010503
	0.004719381	-0.005267284	9.304153e-09	1.031652e-07	0.001725698	-0.02019551	-5.943779e-10	1.978553e-08
	-5.803791e-09	6.459663e-09	0.005044598	-0.005010503	-5.943779e-10	1.978553e-08	0.002541328	-0.01960172
2.2e+08	-0.0001217253	-0.01648378	-1.030465e-09	2.0625e-08	0.00318048	-0.004009661	-5.08149e-09	8.161455e-09
	-1.030465e-09	2.0625e-08	0.0004882992	-0.016039	1.085356e-08	1.08543e-07	0.003492978	-0.003814145
	0.00318048	-0.004009661	1.085356e-08	1.08543e-07	-0.000260836	-0.01635185	3.227021e-10	2.141501e-08
	-5.08149e-09	8.161455e-09	0.003492978	-0.003814145	3.227021e-10	2.141501e-08	0.000515483	-0.01590224
2.3e+08	-0.00125093	-0.01243498	2.91052e-10	2.22535e-08	0.001978418	-0.002413355	-3.960161e-09	9.707359e-09
	2.91052e-10	2.22535e-08	-0.0007000031	-0.01211173	1.265454e-08	1.136591e-07	0.002258713	-0.002276247
	0.001978418	-0.002413355	1.265454e-08	1.136591e-07	-0.001358104	-0.01227672	1.505541e-09	2.284382e-08
	-3.960161e-09	9.707359e-09	0.002258713	-0.002276247	1.505541e-09	2.284382e-08	-0.000667172	-0.01196324
2.4e+08	-0.001477382	-0.008348958	1.890797e-09	2.356762e-08	0.001184816	-0.0005706391	-2.477266e-09	1.099249e-08
	1.890797e-09	2.356762e-08	-0.001025033	-0.008132873	1.464157e-08	1.184475e-07	0.001414092	-0.0004840593
	0.001184816	-0.000570639	1.464157e-08	1.184475e-07	-0.001546123	-0.008171583	2.901285e-09	2.39937e-08
	-2.477266e-09	1.099249e-08	0.001414092	-0.0004840593	2.901285e-09	2.39937e-08	-0.0009849117	-0.007974301
2.5e+08	-0.0008247249	-0.004423615	3.683432e-09	2.448831e-08	0.0008466657	0.00141179	-6.987597e-10	1.192212e-08
	3.683432e-09	2.448831e-08	-0.0005068229	-0.004290226	1.67308e-08	1.228608e-07	0.001008071	0.001460555
	0.0008466657	0.00141179	1.67308e-08	1.228608e-07	-0.0008502268	-0.004235982	4.433308e-09	2.480216e-08
	-6.987597e-10	1.192212e-08	0.001008071	0.001460555	4.433308e-09	2.480216e-08	-0.0004582477	-0.004123556
2.6e+08	0.0006402825	-0.0008452665	5.56118e-09	2.4962e-08	0.0009836469	0.003419253	1.284095e-09	1.24197e-08
	5.56118e-09	2.4962e-08	0.0007940558	-0.0007609511	1.882584e-08	1.26875e-07	0.00106353	0.003447223
	0.0009836469	0.003419253	1.882584e-08	1.26875e-07	0.0006607227	-0.0006574608	6.006679e-09	2.522991e-08
	1.284095e-09	1.24197e-08	0.00106353	0.003447223	6.006679e-09	2.522991e-08	0.0008516995	-0.0005883945
2.7e+08	0.002811699	0.002220647	7.402208e-09	2.496677e-08	0.001587097	0.005335955	3.360298e-09	1.243375e-08
	7.402208e-09	2.496677e-08	0.002780146	0.002297037	2.082496e-08	1.304929e-07	0.001576085	0.005363615
	0.001587097	0.005335955	2.082496e-08	1.304929e-07	0.002878366	0.002397836	7.515967e-09	2.52661e-08
	3.360298e-09	1.243375e-08	0.001576085	0.005363615	7.515967e-09	2.52661e-08	0.002846883	0.002473187
2.8e+08	0.005550296	0.004637685	9.080663e-09	2.451556e-08	0.002620673	0.007051853	5.406556e-09	1.194282e-08
	9.080663e-09	2.451556e-08	0.005322568	0.004752628	2.262889e-08	1.337445e-07	0.002514535	0.007102054
	0.002620672	0.007051853	2.262889e-08	1.337445e-07	0.005660879	0.004793356	8.854437e-09	2.493065e-08
	5.406556e-09	1.194282e-08	0.002514535	0.007102054	8.854437e-09	2.493065e-08	0.005397828	0.004930143
2.9e+08	0.008691115	0.006304934	1.047712e-08	2.365599e-08	0.004022649	0.008469131	7.295891e-09	1.095803e-08
	1.047712e-08	2.365599e-08	0.008267993	0.0065076	2.414852e-08	1.366857e-07	0.003822857	0.008565772
	0.004022649	0.008469132	2.414852e-08	1.366857e-07	0.008840671	0.006428715	9.923465e-09	2.427334e-08
	7.295891e-09	1.095803e-08	0.003822857	0.008565772	9.923465e-09	2.427334e-08	0.008350641	0.006684466
3e+08	0.01205225	0.007161631	1.148826e-08	2.246687e-08	0.005709676	0.009507891	8.906538e-09	9.522985e-09
	1.148826e-08	2.246687e-08	0.01144675	0.007500941	2.531143e-08	1.39394e-07	0.005423633	0.009674483
	0.005709676	0.009507891	2.531143e-08	1.39394e-07	0.01223334	0.007244327	1.064101e-08	2.336997e-08
	8.906538e-09	9.522985e-09	0.005423633	0.009674483	1.064101e-08	2.336997e-08	0.01153516	0.007675497
3.1e+08	0.01544437	0.007189666	1.203474e-08	2.105206e-08	0.00758177	0.01011075	1.013029e-08	7.711208e-09
	1.203474e-08	2.105206e-08	0.01468163	0.007711238	2.606695e-08	1.419632e-07	0.007222674	0.01036894
	0.00758177	0.01011075	2.606695e-08	1.419632e-07	0.01564736	0.007223869	1.094819e-08	2.231616e-08
	1.013029e-08	7.711208e-09	0.007222674	0.01036894	1.094819e-08	2.231616e-08	0.01477376	0.007882291
3.2e+08	0.01868055	0.006413848	1.206651e-08	1.953259e-08	0.009528219	0.0102461	1.087962e-08	5.621478e-09
	1.206651e-08	1.953259e-08	0.01779688	0.007156998	2.638917e-08	1.444969e-07	0.009114563	0.01061424
	0.009528219	0.0102461	2.638917e-08	1.444969e-07	0.01889402	0.00639447	1.08133e-08	2.121965e-08
	1.087962e-08	5.621478e-09	0.009114563	0.01061424	1.08133e-08	2.121965e-08	0.01789046	0.007323918
3.3e+08	0.02158576	0.004899988	1.15655e-08	1.803806e-08	0.01143407	0.009909861	1.109305e-08	3.371642e-09
	1.15655e-08	1.803806e-08	0.02062705	0.005894996	2.627801e-08	1.471018e-07	0.01098879	0.01040174
	0.01143407	0.009909861	2.627801e-08	1.471018e-07	0.02179711	0.004824686	1.023327e-08	2.019226e-08
	1.109305e-08	3.371642e-09	0.01098879	0.01040174	1.023327e-08	2.019226e-08	0.02071968	0.006057761
3.4e+08	0.02400569	0.002750905	1.054564e-08	1.669823e-08	0.01318681	0.009125658	1.073859e-08	1.091598e-09
	1.054564e-08	1.669823e-08	0.0230251	0.004016707	2.575856e-08	1.498815e-07	0.01273613	0.009749402
	0.01318681	0.009125658	2.575856e-08	1.498815e-07	0.0242018	0.002620355	9.232572e-09	1.93424e-08
	1.073859e-08	1.091598e-09	0.01273613	0.009749402	9.232572e-09	1.93424e-08	0.02311441	0.004175925
3.5e+08	0.02581436	0.0001005829	9.050908e-09	1.56357e-08	0.0146829	0.007943397	9.815349e-09	-1.083981e-09
	9.050908e-09	1.56357e-08	0.02486946	0.001643057	2.487894e-08	1.529309e-07	0.01425492	0.008700735
	0.0146829	0.007943397	2.487894e-08	1.529309e-07	0.02598233	-8.139784e-05	7.860408e-09	1.87688e-08
	9.815349e-09	-1.083981e-09	0.01425492	0.008700735	7.860408e-09	1.87688e-08	0.02495331	0.001799939
3.6e+08	0.02692022	-0.002893163	7.152001e-09	1.495983e-08	0.01583376	0.006436371	8.353413e-09	-3.022683e-09
	7.152001e-09	1.495983e-08	0.02606975	-0.001082191	2.370738e-08	1.563321e-07	0.01545687	0.007322205
	0.01583376	0.006436371	2.370738e-08	1.563321e-07	0.0270481	-0.003119696	6.186799e-09	1.855582e-08
	8.353413e-09	-3.022683e-09	0.01545687	0.007322205	6.186799e-09	1.855582e-08	0.02614634	-0.0009258995
3.7e+08	0.02727038	-0.006057172	4.94232e-09	1.476207e-08	0.01657091	0.004697027	6.412437e-09	-4.600888e-09
	4.94232e-09	1.476207e-08	0.0265708	-0.004000117	2.232879e-08	1.601503e-07	0.01627213	0.005699412
	0.01657091	0.004697027	2.232879e-08	1.601503e-07	0.02734793	-0.006318558	4.298357e-09	1.877025e-08
	6.412437e-09	-4.600888e-09	0.01627213	0.005699412	4.298357e-09	1.877025e-08	0.02663881	-0.003842237
3.8e+08	0.02685286	-0.009212106	2.533813e-09	1.511246e-08	0.01684998	0.002831642	4.079178e-09	-5.709685e-09
	2.533813e-09	1.511246e-08	0.02635489	-0.006944959	2.08411e-08	1.644318e-07	0.0166533	0.003932166
	0.01684998	0.002831642	2.08411e-08	1.644318e-07	0.02687222	-0.009496261	2.294239e-09	1.945932e-08
	4.079178e-09	-5.709685e-09	0.0166533	0.003932166	2.294239e-09	1.945932e-08	0.02641359	-0.00678301
3.9e+08	0.02569674	-0.01218186	5.285546e-11	1.605678e-08	0.01665333	0.0009541964	1.464206e-09	-6.260207e-09
	5.285546e-11	1.605678e-08	0.02544205	-0.009752678	1.935151e-08	1.692012e-07	0.01657816	0.002128764
	0.01665333	0.0009541964	1.935151e-08	1.692012e-07	0.02565297	-0.0124749	2.825619e-10	2.064927e-08
	1.464206e-09	-6.260207e-09	0.01657816	0.002128764	2.825619e-10	2.064927e-08	0.02549136	-0.009584035
4e+08	0.02387012	-0.01480272	-2.363884e-09	1.761392e-08	0.01599121	-0.0008202263	-1.302157e-09	-6.18847e-09
	-2.363884e-09	1.761392e-08	0.02388849	-0.01226933	1.797261e-08	1.744602e-07	0.01605102	0.000399763
	0.01599121	-0.0008202263	1.797261e-08	1.744602e-07	0.02376165	-0.01508968	-1.62287e-09	2.23441e-08
	-1.302157e-09	-6.18847e-09	0.01605102	0.000399763	-1.62287e-09	2.23441e-08	0.023929	-0.01209139
4.1e+08	0.0214762	-0.01693183	-4.573966e-09	1.97734e-08	0.01490125	-0.00238214	-4.074761e-09	-5.459725e-09
	-4.573966e-09	1.97734e-08	0.02178321	-0.01435883	1.681808e-08	1.801858e-07	0.01510251	-0.001148404
	0.01490125	-0.00238214	1.681808e-08	1.801858e-07	0.02130502	-0.01719746	-3.30589e-09	2.452415e-08
	-4.074761e-09	-5.459725e-09	0.01510251	-0.001148404	-3.30589e-09	2.452415e-08	0.02181615	-0.01416917
4.2e+08	0.01864742	-0.01845449	-6.434534e-09	2.249293e-08	0.01344642	-0.00363408	-6.699557e-09	-4.072217e-09
	-6.434534e-09	2.249293e-08	0.01924294	-0.01590978	1.599781e-08	1.863293e-07	0.01378792	-0.002419603
	0.01344642	-0.00363408	1.599781e-08	1.863293e-07	0.01841913	-0.01868416	-4.651885e-09	2.714442e-08
	-6.699557e-09	-4.072217e-09	0.01378792	-0.002419603	-4.651885e-09	2.714442e-08	0.01927014	-0.01570635
4.3e+08	0.01553822	-0.01929003	-7.808947e-09	2.569659e-08	0.01171146	-0.00449638	-9.020714e-09	-2.060036e-09
	-7.808947e-09	2.569659e-08	0.01640573	-0.01684091	1.561225e-08	1.928163e-07	0.01218405	-0.003333621
	0.01171146	-0.00449638	1.561225e-08	1.928163e-07	0.01526189	-0.01947055	-5.552824e-09	3.013309e-08
	-9.020714e-09	-2.060036e-09	0.01218405	-0.003333621	-5.552824e-09	3.013309e-08	0.0164295	-0.01662214
4.4e+08	0.01231661	-0.01939576	-8.574841e-09	2.927411e-08	0.00979804	-0.004911956	-1.08889e-08	5.054035e-10
	-8.574841e-09	2.927411e-08	0.01342349	-0.01710498	1.574607e-08	1.995473e-07	0.01038482	-0.003830901
	0.00979804	-0.004911956	1.574607e-08	1.995473e-07	0.01200434	-0.0195162	-5.913643e-09	3.339093e-08
	-1.08889e-08	5.054035e-10	0.01038482	-0.003830901	-5.913643e-09	3.339093e-08	0.01344651	-0.0168699
4.5e+08	0.00915504	-0.01876895	-8.633421e-09	3.308244e-08	0.00781887	-0.004849795	-1.217056e-08	3.515842e-09
	-8.633421e-09	3.308244e-08	0.01045385	-0.01669085	1.646145e-08	2.064008e-07	0.008495871	-0.003876099
	0.00781887	-0.004849795	1.646145e-08	2.064008e-07	0.008821455	-0.0188214	-5.659887e-09	3.679233e-08
	-1.217056e-08	3.515842e-09	0.008495871	-0.003876099	-5.659887e-09	3.679233e-08	0.01047898	-0.01643921
4.6e+08	0.006221149	-0.01744669	-7.919252e-09	3.695008e-08	0.005891092	-0.004306934	-1.275762e-08	6.829161e-09
	-7.919252e-09	3.695008e-08	0.007651789	-0.01562369	1.779151e-08	2.132378e-07	0.006628373	-0.003460242
	0.005891092	-0.004306934	1.779151e-08	2.132378e-07	0.005882597	-0.01742678	-4.745993e-09	4.018889e-08
	-1.275762e-08	6.829161e-09	0.006628373	-0.003460242	-4.745993e-09	4.018889e-08	0.007681919	-0.01535592
4.7e+08	0.003668699	-0.01550349	-6.409567e-09	4.068487e-08	0.004129377	-0.003308782	-1.257687e-08	1.027527e-08
	-6.409567e-09	4.068487e-08	0.005161436	-0.01396319	1.973469e-08	2.199092e-07	0.004892558	-0.002601342
	0.004129377	-0.003308782	1.973469e-08	2.199092e-07	0.003342406	-0.01541084	-3.16328e-09	4.341604e-08
	-1.257687e-08	1.027527e-08	0.004892558	-0.002601342	-3.16328e-09	4.341604e-08	0.00519928	-0.0136804
4.8e+08	0.00162938	-0.01304714	-4.131513e-09	4.408521e-08	0.002639128	-0.001907757	-1.159796e-08	1.366494e-08
	-4.131513e-09	4.408521e-08	0.003108529	-0.01180003	2.225116e-08	2.262649e-07	0.003391222	-0.001343419
