!$
! Info: Touchstone file created by Circ.  Input file=Tx_12in_Rx_93ohms_TxVia_35mils_RxVia_45mils.circ
!$
# Hz S RI R 50
0	0.01101945	1.463549e-25	7.356861e-10	1.910749e-27	8.333179e-05	2.057824e-23	3.63482e-10	4.26344e-28
	7.356861e-10	1.910728e-27	0.01101774	1.793703e-25	2.48454e-09	7.342279e-27	8.319632e-05	2.493563e-23
	8.314626e-05	2.049185e-23	2.48454e-09	7.342288e-27	0.01103005	1.463295e-25	7.378288e-10	2.045778e-27
	3.634819e-10	4.26338e-28	8.134806e-05	2.505838e-23	7.378292e-10	2.045796e-27	0.01103083	1.680659e-25
1e+07	0.01568677	-0.001443004	9.57221e-10	1.285772e-09	0.0004436401	0.002226271	6.09123e-10	5.7551e-10
	9.57221e-10	1.285772e-09	0.01600266	-0.001477263	3.503908e-09	6.725513e-09	0.0004384129	0.002219344
	0.0004436346	0.002226272	3.503908e-09	6.725513e-09	0.01602661	-0.001488323	9.436357e-10	1.308564e-09
	6.09123e-10	5.755099e-10	0.0004383522	0.002219354	9.436356e-10	1.308564e-09	0.01568705	-0.001472716
2e+07	0.0180211	-0.006909966	1.398781e-09	2.167431e-09	0.001184302	0.004359662	1.036404e-09	8.441491e-10
	1.398781e-09	2.167431e-09	0.01820915	-0.007074018	4.559987e-09	1.182813e-08	0.001169863	0.004350219
	0.001184304	0.004359666	4.559987e-09	1.182813e-08	0.01825984	-0.007104378	1.345443e-09	2.221288e-09
	1.036404e-09	8.441492e-10	0.001169854	0.004350254	1.345443e-09	2.221288e-09	0.01797563	-0.006959522
3e+07	0.01781583	-0.01368908	1.80556e-09	2.909806e-09	0.002481935	0.006112999	1.488571e-09	9.494118e-10
	1.80556e-09	2.909806e-09	0.01787643	-0.0138759	5.178817e-09	1.680601e-08	0.002434672	0.006115534
	0.002481938	0.006112998	5.178817e-09	1.680601e-08	0.01796702	-0.01393976	1.68945e-09	3.021535e-09
	1.488571e-09	9.494118e-10	0.002434672	0.00611554	1.68945e-09	3.021535e-09	0.01770192	-0.01373799
4e+07	0.01554415	-0.02043135	2.188525e-09	3.50661e-09	0.004181928	0.007440573	1.929788e-09	8.705503e-10
	2.188525e-09	3.50661e-09	0.01547678	-0.02059215	5.617634e-09	2.175667e-08	0.004109005	0.00746201
	0.004181928	0.007440571	5.617633e-09	2.175667e-08	0.01561458	-0.02070809	1.99893e-09	3.70853e-09
	1.929788e-09	8.705503e-10	0.004109	0.007462008	1.99893e-09	3.70853e-09	0.01534547	-0.02045416
5e+07	0.01152594	-0.0265217	2.517152e-09	3.970671e-09	0.006116046	0.008298284	2.305187e-09	6.158499e-10
	2.517152e-09	3.970671e-09	0.01133678	-0.02661507	5.928484e-09	2.671508e-08	0.006017807	0.008348478
	0.006116046	0.008298283	5.928484e-09	2.671508e-08	0.01152201	-0.02680453	2.256e-09	4.2972e-09
	2.305187e-09	6.158499e-10	0.006017804	0.008348477	2.256e-09	4.2972e-09	0.01123435	-0.02648817
6e+07	0.006097801	-0.03153177	2.75298e-09	4.319888e-09	0.00816361	0.008649379	2.558916e-09	2.102441e-10
	2.75298e-09	4.319888e-09	0.005801673	-0.03152079	6.146851e-09	3.172279e-08	0.008043457	0.008737951
	0.008163611	0.008649379	6.146851e-09	3.172279e-08	0.00602657	-0.03180531	2.434273e-09	4.803559e-09
	2.558916e-09	2.102441e-10	0.00804346	0.00873795	2.434273e-09	4.803559e-09	0.005715017	-0.03140971
7e+07	-0.0003659327	-0.03515857	2.861484e-09	4.582014e-09	0.01019801	0.00848645	2.645595e-09	-3.062579e-10
	2.861484e-09	4.582014e-09	-0.0007455731	-0.0350119	6.315143e-09	3.681002e-08	0.01006233	0.008621947
	0.01019801	0.00848645	6.315143e-09	3.681002e-08	-0.000496369	-0.03541037	2.509979e-09	5.250518e-09
	2.645595e-09	-3.06258e-10	0.01006234	0.008621944	2.509978e-09	5.250519e-09	-0.0008281642	-0.03491703
8e+07	-0.007460304	-0.03721068	2.813644e-09	4.794444e-09	0.01209487	0.007832657	2.532947e-09	-8.8217e-10
	2.813644e-09	4.794444e-09	-0.007892425	-0.03690423	6.479362e-09	4.199082e-08	0.01195273	0.008021703
	0.01209488	0.007832656	6.479362e-09	4.199082e-08	-0.007640697	-0.03743061	2.463312e-09	5.668165e-09
	2.532947e-09	-8.821701e-10	0.01195274	0.008021696	2.463312e-09	5.668165e-09	-0.007981012	-0.03682283
9e+07	-0.01476495	-0.03760337	2.58889e-09	5.005061e-09	0.01373972	0.006740285	2.196096e-09	-1.449688e-09
	2.58889e-09	5.005061e-09	-0.01521231	-0.03712173	6.675308e-09	4.726074e-08	0.0136023	0.006986855
	0.01373972	0.006740284	6.675309e-09	4.726074e-08	-0.01498459	-0.03778325	2.273819e-09	6.096486e-09
	2.196096e-09	-1.449688e-09	0.01360231	0.006986849	2.273819e-09	6.096487e-09	-0.01531538	-0.03704893
1e+08	-0.02184773	-0.03634857	2.159366e-09	5.283524e-09	0.01503422	0.005286628	1.607266e-09	-1.867575e-09
	2.159366e-09	5.283524e-09	-0.02226573	-0.03568516	6.880772e-09	5.259653e-08	0.01491449	0.00559159
	0.01503422	0.005286628	6.880772e-09	5.259653e-08	-0.02209124	-0.036481	1.91998e-09	6.597926e-09
	1.607266e-09	-1.867575e-09	0.01491449	0.00559159	1.91998e-09	6.597926e-09	-0.02239306	-0.03561581
1.1e+08	-0.02834285	-0.03368222	1.592193e-09	5.666046e-09	0.01590157	0.003577244	8.792645e-10	-2.188304e-09
	1.592193e-09	5.666046e-09	-0.0286885	-0.03286117	7.215027e-09	5.800822e-08	0.01581267	0.003935304
	0.01590157	0.003577244	7.215027e-09	5.800822e-08	-0.02859713	-0.0337825	1.487114e-09	7.189325e-09
	8.792645e-10	-2.188304e-09	0.01581267	0.003935304	1.487114e-09	7.189325e-09	-0.02884402	-0.03277251
1.2e+08	-0.03400617	-0.02969438	8.862964e-10	6.205724e-09	0.01630114	0.001722421	-2.747689e-11	-2.345783e-09
	8.862964e-10	6.205724e-09	-0.03425492	-0.02873407	7.678037e-09	6.345555e-08	0.01625337	0.002126813
	0.01630114	0.001722421	7.678037e-09	6.345555e-08	-0.03427466	-0.02976205	9.564785e-10	7.905265e-09
	-2.747689e-11	-2.345783e-09	0.01625337	0.002126813	9.564785e-10	7.905265e-09	-0.03442725	-0.02861692
1.3e+08	-0.03853043	-0.02462966	8.409568e-11	6.957582e-09	0.01621373	-0.0001593948	-1.057127e-09	-2.277029e-09
	8.409568e-11	6.957582e-09	-0.03865686	-0.02355437	8.287552e-09	6.891146e-08	0.01621629	0.0002816221
	0.01621373	-0.0001593947	8.287552e-09	6.891146e-08	-0.03881069	-0.02466177	3.625301e-10	8.790301e-09
	-1.057127e-09	-2.277029e-09	0.01621629	0.0002816222	3.625301e-10	8.790301e-09	-0.03883701	-0.02340396
1.4e+08	-0.04170263	-0.01879956	-7.517253e-10	7.956207e-09	0.01565024	-0.001948876	-2.149949e-09	-1.942531e-09
	-7.517253e-10	7.956207e-09	-0.04168637	-0.01764068	9.054395e-09	7.433798e-08	0.01570996	-0.001483687
	0.01565024	-0.001948876	9.054395e-09	7.433798e-08	-0.04198997	-0.01879339	-2.432972e-10	9.870076e-09
	-2.149949e-09	-1.942531e-09	0.01570996	-0.001483687	-2.432972e-10	9.870076e-09	-0.04186532	-0.01745513
1.5e+08	-0.04339611	-0.01255252	-1.54809e-09	9.212545e-09	0.01465003	-0.003533646	-3.238843e-09	-1.318102e-09
	-1.54809e-09	9.212545e-09	-0.04322461	-0.01134734	9.977732e-09	7.969322e-08	0.01477044	-0.003058818
	0.01465003	-0.003533646	9.977732e-09	7.969322e-08	-0.04368444	-0.01250633	-8.015828e-10	1.114951e-08
	-3.238843e-09	-1.318102e-09	0.01477044	-0.003058818	-8.015828e-10	1.114951e-08	-0.04339363	-0.01112744
1.6e+08	-0.04357273	-0.006252008	-2.221876e-09	1.073239e-08	0.01327806	-0.004814798	-4.238632e-09	-3.971477e-10
	-2.221876e-09	1.073239e-08	-0.04324324	-0.005041552	1.104456e-08	8.49344e-08	0.01345881	-0.004346027
	0.01327806	-0.004814798	1.104456e-08	8.49344e-08	-0.04385515	-0.006165477	-1.244534e-09	1.263183e-08
	-4.238632e-09	-3.971477e-10	0.01345881	-0.004346027	-1.244534e-09	1.263183e-08	-0.04339443	-0.004790549
1.7e+08	-0.0422817	-0.0002555216	-2.692732e-09	1.248292e-08	0.01162077	-0.005712448	-5.06911e-09	8.02639e-10
	-2.692732e-09	1.248292e-08	-0.04180239	0.000918171	1.222879e-08	9.00225e-08	0.01185726	-0.005265508
	0.01162077	-0.005712448	1.222879e-08	9.00225e-08	-0.04255098	-0.0001298692	-1.507837e-09	1.428579e-08
	-5.06911e-09	8.02639e-10	0.01185726	-0.005265508	-1.507837e-09	1.428579e-08	-0.04192921	0.001194975
1.8e+08	-0.03965417	0.005105216	-2.891173e-09	1.440674e-08	0.009780856	-0.006170125	-5.653749e-09	2.242044e-09
	-2.891173e-09	1.440674e-08	-0.03904448	0.006202083	1.349263e-08	9.492578e-08	0.01006423	-0.005759705
	0.009780856	-0.006170125	1.349263e-08	9.492578e-08	-0.03990322	0.005267143	-1.537663e-09	1.605979e-08
	-5.653749e-09	2.242044e-09	0.01006423	-0.005759705	-1.537663e-09	1.605979e-08	-0.03914222	0.006497793
1.9e+08	-0.03589395	0.009542008	-2.766229e-09	1.642618e-08	0.007871215	-0.006157837	-5.925416e-09	3.86095e-09
	-2.766229e-09	1.642618e-08	-0.03518409	0.01052702	1.47888e-08	9.962334e-08	0.00818863	-0.005796381
	0.007871215	-0.006157837	1.47888e-08	9.962334e-08	-0.03611622	0.009735791	-1.297209e-09	1.788608e-08
	-5.925416e-09	3.86095e-09	0.00818863	-0.005796381	-1.297209e-09	1.788608e-08	-0.03525013	0.01083372
2e+08	-0.03126469	0.01282524	-2.291157e-09	1.844995e-08	0.006008426	-0.005673673	-5.832125e-09	5.580507e-09
	-2.291157e-09	1.844995e-08	-0.03049421	0.01367129	1.606383e-08	1.041078e-07	0.006343679	-0.005370313
	0.006008426	-0.005673673	1.606383e-08	1.041078e-07	-0.03145454	0.01304503	-7.713296e-10	1.968702e-08
	-5.832125e-09	5.580507e-09	0.006343679	-0.005370313	-7.713296e-10	1.968702e-08	-0.03052819	0.01398064
2.1e+08	-0.02607408	0.01479558	-1.466489e-09	2.038135e-08	0.004305978	-0.004743875	-5.342362e-09	7.306954e-09
	-1.466489e-09	2.038135e-08	-0.02528983	0.01548594	1.726222e-08	1.083872e-07	0.004640381	-0.004503538
	0.004305978	-0.004743875	1.726222e-08	1.083872e-07	-0.02622714	0.01503431	3.138742e-11	2.13826e-08
	-5.342362e-09	7.306954e-09	0.004640381	-0.004503538	3.138742e-11	2.13826e-08	-0.02529365	0.01578977
2.2e+08	-0.02065607	0.01537172	-3.201368e-10	2.212675e-08	0.002867657	-0.003421344	-4.449474e-09	8.937056e-09
	-3.201368e-10	2.212675e-08	-0.01990937	0.01590195	1.833106e-08	1.124852e-07	0.003181154	-0.003244109
	0.002867657	-0.003421344	1.833106e-08	1.124852e-07	-0.02076947	0.01562136	1.079298e-09	2.289797e-08
	-4.449474e-09	8.937056e-09	0.003181154	-0.003244109	1.079298e-09	2.289797e-08	-0.01988703	0.01619282
2.3e+08	-0.01535173	0.01455378	1.095204e-09	2.360332e-08	0.001781404	-0.001782636	-3.174553e-09	1.036492e-08
	1.095204e-09	2.360332e-08	-0.01469516	0.01493284	1.922455e-08	1.164398e-07	0.002053841	-0.001663383
	0.001781404	-0.001782636	1.922455e-08	1.164398e-07	-0.01542437	0.0148057	2.320844e-09	2.41701e-08
	-3.174553e-09	1.036492e-08	0.002053841	-0.001663383	2.320844e-09	2.41701e-08	-0.01465252	0.01520459
2.4e+08	-0.01049006	0.01242228	2.706781e-09	2.474514e-08	0.001113994	7.646532e-05	-1.567364e-09	1.148974e-08
	2.706781e-09	2.474514e-08	-0.009973919	0.01267286	1.990809e-08	1.203012e-07	0.001326474	0.0001480628
	0.001113994	7.646533e-05	1.990809e-08	1.203012e-07	-0.01052272	0.01266763	3.689526e-09	2.515257e-08
	-1.567364e-09	1.148974e-08	0.001326474	0.0001480628	3.689526e-09	2.515257e-08	-0.009918296	0.01292095
2.5e+08	-0.006369423	0.009132631	4.427649e-09	2.550727e-08	0.0009068799	0.002046574	2.95044e-10	1.222389e-08
	4.427649e-09	2.550727e-08	-0.006038219	0.009290439	2.03613e-08	1.24128e-07	0.001043106	0.002085711
	0.0009068799	0.002046574	2.03613e-08	1.24128e-07	-0.006364863	0.009362777	5.109683e-09	2.581832e-08
	2.95044e-10	1.222389e-08	0.001043106	0.002085711	5.109683e-09	2.581832e-08	-0.005977925	0.00951236
2.6e+08	-0.003241026	0.004905429	6.161154e-09	2.582117e-08	0.00117349	0.004011252	2.311943e-09	1.250137e-08
	6.161154e-09	2.582117e-08	-0.003130035	0.005017686	2.057764e-08	1.279663e-07	0.001221005	0.004037308
	0.00117349	0.004011252	2.057764e-08	1.279663e-07	-0.003203854	0.005112395	6.500409e-09	2.611341e-08
	2.311943e-09	1.250137e-08	0.001221005	0.004037308	6.500409e-09	2.611341e-08	-0.003073901	0.005213084
2.7e+08	-0.001295035	1.318258e-05	7.787268e-09	2.572727e-08	0.001898202	0.00585411	4.365925e-09	1.22819e-08
	7.787268e-09	2.572727e-08	-0.001427482	0.0001361434	2.056187e-08	1.31892e-07	0.001849448	0.005889652
	0.001898202	0.00585411	2.056187e-08	1.31892e-07	-0.001231678	0.0001900629	7.761286e-09	2.608949e-08
	4.365925e-09	1.22819e-08	0.001849448	0.005889652	7.761286e-09	2.608949e-08	-0.001384203	0.0003069449
2.8e+08	-0.0006503376	-0.005235866	9.210402e-09	2.526505e-08	0.003037126	0.007466012	6.329428e-09	1.155729e-08
	9.210402e-09	2.526505e-08	-0.001035095	-0.005040037	2.034148e-08	1.35969e-07	0.002890241	0.007535537
	0.003037126	0.007466012	2.034148e-08	1.35969e-07	-0.0005687541	-0.00509447	8.819209e-09	2.579201e-08
	6.329428e-09	1.155729e-08	0.002890241	0.007535537	8.819209e-09	2.579201e-08	-0.001012695	-0.00488974
2.9e+08	-0.001348473	-0.01051583	1.034586e-08	2.448646e-08	0.004520696	0.008751927	8.074108e-09	1.035325e-08
	1.034586e-08	2.448646e-08	-0.001978614	-0.01018277	1.9959e-08	1.402499e-07	0.004279983	0.008880405
	0.004520696	0.008751927	1.9959e-08	1.402499e-07	-0.00125779	-0.01041345	9.613385e-09	2.527297e-08
	8.074108e-09	1.035325e-08	0.004279983	0.008880405	9.613385e-09	2.527297e-08	-0.001983926	-0.01004694
3e+08	-0.00335206	-0.01550214	1.112123e-08	2.346082e-08	0.006257941	0.009636927	9.480124e-09	8.728625e-09
	1.112123e-08	2.346082e-08	-0.004204393	-0.01496933	1.946893e-08	1.447755e-07	0.005933962	0.009848241
	0.006257941	0.009636927	1.946893e-08	1.447755e-07	-0.003262134	-0.01544017	1.009524e-08	2.459569e-08
	9.480124e-09	8.728625e-09	0.005933962	0.009848241	1.009524e-08	2.459569e-08	-0.004242596	-0.01484032
3.1e+08	-0.006547819	-0.01989017	1.147892e-08	2.227267e-08	0.00814217	0.01007094	1.044477e-08	6.772215e-09
	1.147892e-08	2.227267e-08	-0.007583463	-0.01910109	1.893436e-08	1.495724e-07	0.007751445	0.0103863
	0.00814217	0.01007094	1.893436e-08	1.495724e-07	-0.006468732	-0.01986774	1.022932e-08	2.383262e-08
	1.044477e-08	6.772215e-09	0.007751445	0.0103863	1.022932e-08	2.383262e-08	-0.007657718	-0.0189701
3.2e+08	-0.01075392	-0.02341261	1.137881e-08	2.10198e-08	0.01005769	0.01003186	1.088978e-08	4.597321e-09
	1.137881e-08	2.10198e-08	-0.01191994	-0.02232065	1.842333e-08	1.546516e-07	0.009621997	0.01046834
	0.01005769	0.01003186	1.842333e-08	1.546516e-07	-0.01069544	-0.02342649	9.994457e-09	2.306395e-08
	1.088978e-08	4.597321e-09	0.009621997	0.01046834	9.994457e-09	2.306395e-08	-0.01203114	-0.02217827
3.3e+08	-0.01573122	-0.02585434	1.080149e-08	1.981089e-08	0.01188708	0.009526897	1.076676e-08	2.334666e-09
	1.080149e-08	1.981089e-08	-0.01696321	-0.02442629	1.800538e-08	1.600082e-07	0.01143239	0.01009609
	0.01188708	0.009526897	1.800538e-08	1.600082e-07	-0.01570225	-0.02589908	9.385583e-09	2.237611e-08
	1.076676e-08	2.334666e-09	0.01143239	0.01009609	9.385583e-09	2.237611e-08	-0.01710989	-0.02426307
3.4e+08	-0.02119754	-0.02706418	9.751887e-09	1.876225e-08	0.01351858	0.008591966	1.006049e-08	1.243635e-10
	9.751887e-09	1.876225e-08	-0.02242315	-0.02528301	1.774812e-08	1.656214e-07	0.01307364	0.009298987
	0.01351858	0.008591966	1.774812e-08	1.656214e-07	-0.02120562	-0.02713233	8.416243e-09	2.185972e-08
	1.006049e-08	1.243635e-10	0.01307364	0.009298987	8.416243e-09	2.185972e-08	-0.02260152	-0.02509005
3.5e+08	-0.02684432	-0.02696277	8.263023e-09	1.799286e-08	0.01485294	0.007289266	8.790073e-09	-1.892431e-09
	8.263023e-09	1.799286e-08	-0.02798734	-0.02482953	1.771406e-08	1.714549e-07	0.01444765	0.008132093
	0.01485294	0.007289266	1.771406e-08	1.714549e-07	-0.02689515	-0.02704522	7.121539e-09	2.160618e-08
	8.790073e-09	-1.892431e-09	0.01444765	0.008132093	7.121539e-09	2.160618e-08	-0.02819147	-0.02459904
3.6e+08	-0.03235438	-0.02554634	6.398825e-09	1.761744e-08	0.01580948	0.005703244	7.008063e-09	-3.581613e-09
	6.398825e-09	1.761744e-08	-0.03333931	-0.02308087	1.79575e-08	1.774585e-07	0.01547308	0.006672476
	0.01580948	0.005703244	1.79575e-08	1.774585e-07	-0.03245146	-0.02563276	5.560591e-09	2.170239e-08
	7.008063e-09	-3.581613e-09	0.01547308	0.006672476	5.560591e-09	2.170239e-08	-0.03356147	-0.02280672
3.7e+08	-0.03741994	-0.02288606	4.255094e-09	1.773772e-08	0.01633086	0.00393523	4.797942e-09	-4.823597e-09
	4.255094e-09	1.773772e-08	-0.03817668	-0.02012672	1.852151e-08	1.835687e-07	0.01609011	0.005014305
	0.01633086	0.00393523	1.852151e-08	1.835687e-07	-0.03756432	-0.02296543	3.817548e-09	2.222376e-08
	4.797942e-09	-4.823597e-09	0.01609011	0.005014305	3.817548e-09	2.222376e-08	-0.03840777	-0.01980479
3.8e+08	-0.04175984	-0.01912329	1.957552e-09	1.843247e-08	0.01638632	0.002097136	2.270163e-09	-5.519928e-09
	1.957552e-09	1.843247e-08	-0.04222824	-0.01612542	1.943486e-08	1.897115e-07	0.01626369	0.003263018
	0.01638632	0.002097136	1.943486e-08	1.897115e-07	-0.04194998	-0.01918452	2.000121e-09	2.322596e-08
	2.270163e-09	-5.519928e-09	0.01626369	0.003263018	2.000121e-09	2.322596e-08	-0.04245836	-0.01575394
3.9e+08	-0.04513503	-0.01446106	-3.436933e-10	1.974767e-08	0.01597325	0.0003046492	-4.42944e-10	-5.598909e-09
	-3.436933e-10	1.974767e-08	-0.045269	-0.01129434	2.070916e-08	1.95805e-07	0.01598539	0.001528948
	0.01597325	0.0003046492	2.070916e-08	1.95805e-07	-0.04536685	-0.01449355	2.349455e-10	2.47365e-08
	-4.42944e-10	-5.598909e-09	0.01598539	0.001528948	2.349455e-10	2.47365e-08	-0.04548802	-0.01087401
4e+08	-0.04736153	-0.009152236	-2.483392e-09	2.168798e-08	0.0151171	-0.00132967	-3.193258e-09	-5.020192e-09
	-2.483392e-09	2.168798e-08	-0.04713244	-0.005897034	2.233629e-08	2.01763e-07	0.01527355	-7.919373e-05
	0.0151171	-0.00132967	2.233629e-08	2.01763e-07	-0.04762853	-0.009146469	-1.340425e-09	2.674758e-08
	-3.193258e-09	-5.020192e-09	0.01527355	-7.919373e-05	-1.340425e-09	2.674758e-08	-0.04733062	-0.00543103
4.1e+08	-0.04832028	-0.003485053	-4.293584e-09	2.421136e-08	0.01386968	-0.002702982	-5.823834e-09	-3.778214e-09
	-4.293584e-09	2.421136e-08	-0.04771939	-0.0002280679	2.428659e-08	2.074999e-07	0.01417198	-0.001460611
	0.01386968	-0.002702982	2.428659e-08	2.074999e-07	-0.04861382	-0.00343317	-2.588441e-09	2.921154e-08
	-5.823834e-09	-3.778214e-09	0.01417198	-0.001460611	-2.588441e-09	2.921154e-08	-0.04788799	0.0002781172
4.2e+08	-0.04796326	0.002232982	-5.618045e-09	2.722789e-08	0.01230594	-0.0037281	-8.17667e-09	-1.904329e-09
	-5.618045e-09	2.722789e-08	-0.0470031	0.005403714	2.65083e-08	2.129361e-07	0.01274721	-0.002528162
	0.01230594	-0.0037281	2.65083e-08	2.129361e-07	-0.04827299	0.002336735	-3.384295e-09	3.204027e-08
	-8.17667e-09	-1.904329e-09	0.01274721	-0.002528162	-3.384295e-09	3.204027e-08	-0.04713493	0.005942569
4.3e+08	-0.04631585	0.00769222	-6.327091e-09	3.060352e-08	0.01051951	-0.004338483	-1.010116e-08	5.326116e-10
	-6.327091e-09	3.060352e-08	-0.04503033	0.01069255	2.892849e-08	2.180044e-07	0.01108457	-0.003213274
	0.01051951	-0.004338483	2.892849e-08	2.180044e-07	-0.04663023	0.00785111	-3.628937e-09	3.510913e-08
	-1.010116e-08	5.326116e-10	0.01108457	-0.003213274	-3.628937e-09	3.510913e-08	-0.04512018	0.01125496
4.4e+08	-0.04347514	0.01259794	-6.330843e-09	3.416887e-08	0.008617284	-0.004492024	-1.146297e-08	3.427541e-09
	-6.330843e-09	3.416887e-08	-0.04191833	0.01535279	3.145595e-08	2.226559e-07	0.009283231	-0.003469788
	0.008617284	-0.004492024	3.145595e-08	2.226559e-07	-0.04378201	0.01281251	-3.260538e-09	3.826542e-08
	-1.146297e-08	3.427541e-09	0.009283231	-0.003469788	-3.260538e-09	3.826542e-08	-0.04196335	0.01592859
4.5e+08	-0.03960434	0.01668658	-5.589164e-09	3.773228e-08	0.006713245	-0.004173489	-1.215302e-08	6.642598e-09
	-5.589164e-09	3.773228e-08	-0.03784806	0.01913478	3.398602e-08	2.268653e-07	0.007450537	-0.003276578
	0.006713245	-0.004173489	3.398602e-08	2.268653e-07	-0.03989158	0.01695452	-2.262718e-09	4.134071e-08
	-1.215302e-08	6.642598e-09	0.007450537	-0.003276578	-2.262718e-09	4.134071e-08	-0.03784796	0.01971332
4.6e+08	-0.03492372	0.01974025	-4.11685e-09	4.109553e-08	0.00492191	-0.003395472	-1.209584e-08	1.001291e-08
	-4.11685e-09	4.109553e-08	-0.03305395	0.02183871	3.640716e-08	2.306351e-07	0.005695905	-0.002638799
	0.00492191	-0.003395472	3.640716e-08	2.306351e-07	-0.03517989	0.02005645	-6.682066e-10	4.416556e-08
	-1.209584e-08	1.001291e-08	0.005695905	-0.002638799	-6.682066e-10	4.416556e-08	-0.03301105	0.02240956
4.7e+08	-0.02969835	0.02159874	-1.983368e-09	4.407068e-08	0.003351708	-0.002197819	-1.125687e-08	1.335479e-08
	-1.983368e-09	4.407068e-08	-0.02781067	0.02332568	3.860875e-08	2.339971e-07	0.004124539	-0.001587713
	0.003351708	-0.002197819	3.860875e-08	2.339971e-07	-0.02991337	0.02195545	1.442662e-09	4.65848e-08
	-1.125687e-08	1.335479e-08	0.004124539	-0.001587713	1.442662e-09	4.65848e-08	-0.02772976	0.02387916
4.8e+08	-0.02422341	0.02216829	6.928337e-10	4.649558e-08	0.002098626	-0.0006455165	-9.647575e-09	1.647605e-08
