!$
! Info: Touchstone file created by Circ.  Input file=Tx_10in_Rx_85ohms_TxVia_35mils_RxVia_45mils.circ
!$
# Hz S RI R 50
0	0.008113684	1.271743e-25	-5.415262e-05	3.771974e-24	7.317989e-05	1.51242e-23	-5.413325e-05	1.435267e-24
	-5.415264e-05	3.774769e-24	0.008111999	1.552072e-25	-5.416392e-05	5.308101e-24	7.30415e-05	1.832566e-23
	7.299404e-05	1.506071e-23	-5.41639e-05	5.305733e-24	0.008124405	1.271573e-25	-5.414984e-05	3.622708e-24
	-5.413327e-05	1.437459e-24	7.11938e-05	1.841595e-23	-5.414985e-05	3.624475e-24	0.008125136	1.454185e-25
1e+07	0.01038034	-0.009398911	-0.00011408	-2.400691e-05	0.0003444687	0.001881462	-8.32593e-06	-1.987572e-06
	-0.00011408	-2.400691e-05	0.01040177	-0.009404521	-3.653609e-05	8.122675e-05	0.0003411984	0.001886358
	0.0003444633	0.001881463	-3.653608e-05	8.122675e-05	0.01042999	-0.009379522	-0.0001140808	-2.401227e-05
	-8.325926e-06	-1.987572e-06	0.0003411382	0.001886369	-0.0001140808	-2.401227e-05	0.01038397	-0.009390959
2e+07	0.01004508	-0.02141156	-0.0001041357	2.005056e-05	0.0009727483	0.003607643	-7.311931e-06	-1.61893e-05
	-0.0001041357	2.005056e-05	0.01002452	-0.02142668	-4.083899e-05	0.0001092828	0.00096037	0.00361983
	0.0009727498	0.003607647	-4.083899e-05	0.0001092827	0.01009209	-0.02138616	-0.0001041312	2.000576e-05
	-7.31193e-06	-1.618931e-05	0.0009603622	0.003619864	-0.0001041312	2.000576e-05	0.01001478	-0.02139003
3e+07	0.006202285	-0.03401988	-0.0001020981	1.763152e-05	0.001930433	0.00513906	-1.932479e-05	-1.824089e-05
	-0.0001020981	1.763152e-05	0.0061226	-0.034022	-2.891354e-05	0.0001314522	0.001904203	0.005162639
	0.001930436	0.005139059	-2.891354e-05	0.0001314522	0.006250776	-0.03398196	-0.0001020938	1.755545e-05
	-1.932479e-05	-1.824089e-05	0.001904204	0.005162644	-0.0001020938	1.755545e-05	0.006117927	-0.03397067
4e+07	-0.0005671846	-0.04576396	-0.0001008139	1.968268e-05	0.003168896	0.006415129	-2.911999e-05	-1.564111e-05
	-0.0001008139	1.968268e-05	-0.0007192041	-0.04573184	-7.034361e-06	0.0001426094	0.003125516	0.006455623
	0.003168897	0.006415128	-7.034361e-06	0.0001426094	-0.000514488	-0.04571375	-0.0001008153	1.956597e-05
	-2.911999e-05	-1.564111e-05	0.003125511	0.006455621	-0.0001008153	1.956597e-05	-0.0007209916	-0.04566771
5e+07	-0.009800348	-0.05593998	-9.975765e-05	2.393572e-05	0.004623898	0.007384927	-3.698963e-05	-1.026029e-05
	-9.975765e-05	2.393572e-05	-0.01003227	-0.0558492	1.959821e-05	0.000140876	0.004561871	0.007448847
	0.004623898	0.007384926	1.959821e-05	0.000140876	-0.009741724	-0.05587892	-9.977554e-05	2.376977e-05
	-3.698963e-05	-1.026029e-05	0.004561867	0.007448847	-9.977554e-05	2.376977e-05	-0.01003309	-0.05577261
6e+07	-0.02100455	-0.06404655	-9.849823e-05	2.963143e-05	0.006221769	0.008013395	-4.295636e-05	-2.873346e-06
	-9.849823e-05	2.963143e-05	-0.02131694	-0.06387093	4.580879e-05	0.0001255938	0.00614161	0.008107708
	0.00622177	0.008013395	4.580879e-05	0.0001255938	-0.0209391	-0.06397649	-9.854893e-05	2.941085e-05
	-4.295636e-05	-2.873346e-06	0.006141613	0.008107706	-9.854893e-05	2.941085e-05	-0.0213183	-0.06378127
7e+07	-0.03364354	-0.06972796	-9.668294e-05	3.634365e-05	0.007884145	0.008282965	-4.690971e-05	6.072639e-06
	-9.668294e-05	3.634365e-05	-0.03402967	-0.0694415	6.649459e-05	9.742052e-05	0.007788439	0.008414539
	0.007884147	0.008282965	6.649459e-05	9.742052e-05	-0.03357109	-0.06965081	-9.678688e-05	3.606849e-05
	-4.690971e-05	6.072639e-06	0.007788446	0.008414535	-9.678688e-05	3.606849e-05	-0.03403258	-0.06933758
8e+07	-0.04714917	-0.07276145	-9.404127e-05	4.372511e-05	0.009532318	0.008193813	-4.862919e-05	1.626443e-05
	-9.404127e-05	4.372511e-05	-0.04759537	-0.07234013	7.682227e-05	5.826079e-05	0.009425656	0.008368894
	0.009532321	0.008193812	7.682227e-05	5.826079e-05	-0.04707012	-0.07267893	-9.422098e-05	4.340254e-05
	-4.862919e-05	1.626443e-05	0.009425665	0.008368887	-9.422098e-05	4.340254e-05	-0.04760025	-0.07222035
9e+07	-0.06094117	-0.07305231	-9.039449e-05	5.144457e-05	0.01109143	0.007763173	-4.771189e-05	2.749182e-05
	-9.039449e-05	5.144457e-05	-0.0614274	-0.07247567	7.217592e-05	1.091383e-05	0.01098024	0.007986869
	0.01109144	0.007763172	7.217592e-05	1.091383e-05	-0.0608563	-0.0729658	-9.067214e-05	5.108968e-05
	-4.771189e-05	2.749183e-05	0.01098025	0.007986862	-9.067214e-05	5.108968e-05	-0.06143405	-0.07233829
1e+08	-0.07445141	-0.07063015	-8.568224e-05	5.918849e-05	0.01249604	0.007025029	-4.261509e-05	4.016709e-05
	-8.568224e-05	5.918849e-05	-0.07495203	-0.06988257	4.483616e-05	-4.352893e-05	0.0123883	0.00730083
	0.01249604	0.007025029	4.483616e-05	-4.352893e-05	-0.07436154	-0.07054042	-8.607762e-05	5.882381e-05
	-4.261509e-05	4.016709e-05	0.0123883	0.00730083	-8.607762e-05	5.882381e-05	-0.07495985	-0.06972604
1.1e+08	-0.08714082	-0.06562701	-7.996543e-05	6.653439e-05	0.0136902	0.006009822	-3.241942e-05	4.683415e-05
	-7.996543e-05	6.653439e-05	-0.0876246	-0.06470083	1.302356e-05	-0.0001122819	0.01359515	0.006338876
	0.0136902	0.006009822	1.302356e-05	-0.0001122819	-0.08704599	-0.06553678	-8.049019e-05	6.618926e-05
	-3.241942e-05	4.683415e-05	0.01359515	0.006338876	-8.049019e-05	6.618926e-05	-0.08763156	-0.06452335
1.2e+08	-0.0985033	-0.05828147	-7.316949e-05	7.332446e-05	0.01461338	0.004779037	-2.366648e-05	5.083197e-05
	-7.316949e-05	7.332446e-05	-0.09893925	-0.05717587	-2.882234e-05	-0.0001686665	0.01454049	0.005160563
	0.01461338	0.004779037	-2.882234e-05	-0.0001686665	-0.09840644	-0.05819128	-7.38261e-05	7.30349e-05
	-2.366648e-05	5.083197e-05	0.01454049	0.005160563	-7.38261e-05	7.30349e-05	-0.09894315	-0.05697603
1.3e+08	-0.1081149	-0.04893016	-6.546268e-05	7.93284e-05	0.01523481	0.003397473	-1.629982e-05	5.29463e-05
	-6.546268e-05	7.93284e-05	-0.1084709	-0.04765165	-8.364224e-05	-0.0002126557	0.01519363	0.003828274
	0.01523481	0.003397474	-8.364224e-05	-0.0002126557	-0.1080182	-0.04883956	-6.62437e-05	7.913194e-05
	-1.629982e-05	5.29463e-05	0.01519363	0.003828274	-6.62437e-05	7.913194e-05	-0.108469	-0.04742869
1.4e+08	-0.11563	-0.03797895	-5.701787e-05	8.438451e-05	0.01553509	0.001931595	-1.29326e-05	5.316226e-05
	-5.701787e-05	8.438451e-05	-0.1158747	-0.03654195	-0.0001493871	-0.0002415693	0.01553461	0.002406025
	0.01553509	0.001931595	-0.0001493871	-0.0002415693	-0.115535	-0.03788701	-5.790477e-05	8.431644e-05
	-1.29326e-05	5.316226e-05	0.01553461	0.002406025	-5.790477e-05	8.431644e-05	-0.1158639	-0.03629592
1.5e+08	-0.120793	-0.02588715	-4.806441e-05	8.833508e-05	0.01550799	0.000448729	-9.26927e-06	5.330089e-05
	-4.806441e-05	8.833508e-05	-0.1208982	-0.02431383	-0.0002226174	-0.0002530789	0.01555607	0.0009588138
	0.01550799	0.000448729	-0.0002226174	-0.0002530789	-0.120701	-0.02579274	-4.902931e-05	8.842586e-05
	-9.26927e-06	5.330089e-05	0.01555607	0.0009588138	-4.902931e-05	8.842586e-05	-0.1208751	-0.02404578
1.6e+08	-0.1234454	-0.01314899	-3.883128e-05	9.112189e-05	0.01516016	-0.0009851407	-5.393651e-06	5.325567e-05
	-3.883128e-05	9.112189e-05	-0.1233877	-0.01146861	-0.0002991098	-0.0002457492	0.01526289	-0.0004494305
	0.01516016	-0.0009851407	-0.0002991098	-0.0002457492	-0.1233571	-0.01305086	-3.983766e-05	9.139428e-05
	-5.393651e-06	5.325567e-05	0.01526289	-0.0004494305	-3.983766e-05	9.139428e-05	-0.123349	-0.01118062
1.7e+08	-0.1235285	-0.0002746745	-2.954412e-05	9.274521e-05	0.01451035	-0.002307434	-1.376162e-06	5.295564e-05
	-2.954412e-05	9.274521e-05	-0.1232911	0.001477551	-0.0003742781	-0.0002192609	0.01467158	-0.001757771
	0.01451035	-0.002307434	-0.0003742781	-0.0002192609	-0.1234443	-0.000171582	-3.054932e-05	9.321168e-05
	-1.376162e-06	5.295564e-05	0.01467158	-0.001757771	-3.054932e-05	9.321168e-05	-0.1232341	0.001782446
1.8e+08	-0.1210835	0.01222829	-2.041228e-05	9.325832e-05	0.01358851	-0.003460828	2.719022e-06	5.235392e-05
	-2.041228e-05	9.325832e-05	-0.1206574	0.01401274	-0.0004435479	-0.0001744793	0.01380942	-0.00291
	0.01358851	-0.003460828	-0.0004435479	-0.0001744793	-0.1210034	0.01233755	-2.137068e-05	9.391937e-05
	2.719022e-06	5.235392e-05	0.01380942	-0.00291	-2.137068e-05	9.391937e-05	-0.1205802	0.01433069
1.9e+08	-0.1162477	0.02387319	-1.161761e-05	9.276004e-05	0.01243457	-0.004394932	6.831591e-06	5.142174e-05
	-1.161761e-05	9.276004e-05	-0.1156331	0.0256477	-0.0005027038	-0.0001134077	0.01271339	-0.003856213
	0.01243457	-0.004394932	-0.0005027038	-0.0001134077	-0.1161716	0.02398976	-1.248438e-05	9.360356e-05
	6.831591e-06	5.142174e-05	0.01271339	-0.003856213	-1.248438e-05	9.360356e-05	-0.1155347	0.02597426
2e+08	-0.1092489	0.03421129	-3.305306e-06	9.138542e-05	0.01109723	-0.005067808	1.09049e-05	5.014464e-05
	-3.305306e-06	9.138542e-05	-0.1084558	0.03593316	-0.0005481938	-3.904821e-05	0.01142914	-0.004554275
	0.01109723	-0.005067808	-0.0005481938	-3.904821e-05	-0.1091766	0.03433622	-4.040137e-06	9.238722e-05
	1.09049e-05	5.014464e-05	0.01142914	-0.004554275	-4.040137e-06	9.238722e-05	-0.1083363	0.03626361
2.1e+08	-0.1003968	0.04284768	4.42333e-06	8.929494e-05	0.009632486	-0.005447384	1.48861e-05	4.851981e-05
	4.42333e-06	8.929494e-05	-0.09944488	0.04447597	-0.000577378	4.481745e-05	0.01000958	-0.004971206
	0.009632486	-0.005447384	-0.000577378	4.481745e-05	-0.1003276	0.04298191	3.852612e-06	9.042044e-05
	1.48861e-05	4.851981e-05	0.01000958	-0.004971206	3.852612e-06	9.042044e-05	-0.09930547	0.0448055
2.2e+08	-0.09007097	0.0494556	1.151571e-05	8.666206e-05	0.00810191	-0.005512747	1.872672e-05	4.655382e-05
	1.151571e-05	8.666206e-05	-0.08898951	0.0509533	-0.0005887056	0.0001339042	0.008513448	-0.005084471
	0.00810191	-0.005512746	-0.0005887056	0.0001339042	-0.09000415	0.04959994	1.11302e-05	8.786908e-05
	1.872672e-05	4.655382e-05	0.008513448	-0.005084471	1.11302e-05	8.786908e-05	-0.08883263	0.05127739
2.3e+08	-0.07870741	0.05378863	1.796981e-05	8.36594e-05	0.006570729	-0.005255248	2.238285e-05	4.42607e-05
	1.796981e-05	8.36594e-05	-0.0775344	0.05512493	-0.0005818089	0.0002237392	0.007003461	-0.004883151
	0.006570729	-0.005255248	-0.0005818089	0.0002237392	-0.07864213	0.05394373	1.777755e-05	8.490186e-05
	2.238285e-05	4.42607e-05	0.007003461	-0.004883151	1.777755e-05	8.490186e-05	-0.07736358	0.05543955
2.4e+08	-0.06678249	0.05569052	2.383262e-05	8.044422e-05	0.005105541	-0.004679371	2.58152e-05	4.166071e-05
	2.383262e-05	8.044422e-05	-0.06556328	0.05684273	-0.0005575041	0.0003099975	0.005544208	-0.004368872
	0.005105541	-0.004679371	-0.0005575041	0.0003099975	-0.06671774	0.05585684	2.382774e-05	8.167636e-05
	2.58152e-05	4.166071e-05	0.005544208	-0.004368872	2.382774e-05	8.167636e-05	-0.065383	0.05714466
2.5e+08	-0.05479493	0.05510197	2.919383e-05	7.714384e-05	0.003771728	-0.003803206	2.898929e-05	3.877892e-05
	2.919383e-05	7.714384e-05	-0.05358045	0.0560573	-0.0005177003	0.0003888213	0.004199695	-0.003556404
	0.003771728	-0.003803206	-0.0005177003	0.0003888213	-0.05472959	0.05527973	2.935722e-05	7.832461e-05
	2.898929e-05	3.877892e-05	0.004199695	-0.003556404	2.935722e-05	7.832461e-05	-0.05339598	0.05634429
2.6e+08	-0.04324648	0.05206404	3.417521e-05	7.384287e-05	0.002630632	-0.002658418	3.187536e-05	3.564438e-05
	3.417521e-05	7.384287e-05	-0.04209109	0.05282092	-0.0004652154	0.0004571079	0.003030618	-0.002473765
	0.002630632	-0.002658418	-0.0004652154	0.0004571079	-0.04317942	0.05225321	3.447647e-05	7.494006e-05
	3.187536e-05	3.564438e-05	0.003030618	-0.002473765	3.447647e-05	7.494006e-05	-0.04190826	0.0530919
2.7e+08	-0.03262186	0.04671774	3.891526e-05	7.057376e-05	0.00173657	-0.00128957	3.444848e-05	3.228923e-05
	3.891526e-05	7.057376e-05	-0.03158084	0.04728663	-0.0004035199	0.0005127312	0.002091457	-0.001161709
	0.00173657	-0.00128957	-0.0004035199	0.0005127312	-0.03255193	0.04691801	3.931605e-05	7.15674e-05
	3.444848e-05	3.228923e-05	0.002091457	-0.001161709	3.931605e-05	7.15674e-05	-0.03140578	0.04754184
2.8e+08	-0.02336864	0.03929944	4.355094e-05	6.731281e-05	0.001133897	0.0002472943	3.668867e-05	2.874821e-05
	4.355094e-05	6.731281e-05	-0.02249549	0.03970316	-0.0003364127	0.0005546843	0.001427568	0.0003275098
	0.001133897	0.0002472943	-0.0003364127	0.0005546843	-0.02329481	0.03951022	4.400933e-05	6.819732e-05
	3.668867e-05	2.874821e-05	0.001427568	0.0003275098	4.400933e-05	6.819732e-05	-0.02233434	0.03994419
2.9e+08	-0.01587817	0.03013212	4.819771e-05	6.398246e-05	0.0008543195	0.001886839	3.858101e-05	2.505776e-05
	4.819771e-05	6.398246e-05	-0.01522181	0.03040552	-0.0002676751	0.0005831141	0.0010725	0.001932147
	0.0008543195	0.001886839	-0.0002676751	0.0005831141	-0.01579952	0.03035256	4.867314e-05	6.476738e-05
	3.858101e-05	2.505776e-05	0.0010725	0.001932147	4.867314e-05	6.476738e-05	-0.01508042	0.03063534
3e+08	-0.01046828	0.01961252	5.293084e-05	6.046103e-05	0.0009147063	0.003557366	4.011571e-05	2.125517e-05
	5.293084e-05	6.046103e-05	-0.01007038	0.01980148	-0.0002007357	0.0005992496	0.001045755	0.003583704
	0.0009147063	0.003557366	-0.0002007357	0.0005992496	-0.01038417	0.01984155	5.338926e-05	6.117001e-05
	4.011571e-05	2.125517e-05	0.001045755	0.003583704	5.338926e-05	6.117001e-05	-0.009954	0.02002438
3.1e+08	-0.007369075	0.008194576	5.772122e-05	5.658772e-05	0.001315635	0.005184345	4.128886e-05	1.737787e-05
	5.772122e-05	5.658772e-05	-0.007261501	0.008354487	-0.0001330601	0.0006051386	0.001351257	0.005210293
	0.001315635	0.005184345	-0.0001330601	0.0006051386	-0.007279111	0.008430993	5.813957e-05	5.725471e-05
	4.128886e-05	1.737787e-05	0.001351257	0.005210293	5.813957e-05	5.725471e-05	-0.007174525	0.008575933
3.2e+08	-0.006712415	-0.003630019	6.248132e-05	5.221873e-05	0.002040868	0.006694336	4.210099e-05	1.346176e-05
	6.248132e-05	5.221873e-05	-0.006915101	-0.003436505	-6.153474e-05	0.0006012838	0.001976703	0.006740394
	0.002040868	0.006694336	-6.153474e-05	0.0006012838	-0.006616535	-0.003387526	6.285052e-05	5.288409e-05
	4.210099e-05	1.346176e-05	0.001976703	0.006740394	6.285052e-05	5.288409e-05	-0.006860786	-0.003210028
3.3e+08	-0.008525917	-0.01535342	6.721349e-05	4.724329e-05	0.003057877	0.008019015	4.255461e-05	9.541563e-06
	6.721349e-05	4.724329e-05	-0.009045281	-0.01505899	1.858441e-06	0.0005900398	0.002893925	0.008106755
	0.003057877	0.008019015	1.858441e-06	0.0005900398	-0.008424448	-0.01510615	6.754167e-05	4.795226e-05
	4.255461e-05	9.541563e-06	0.002893925	0.008106755	6.754167e-05	4.795226e-05	-0.009025483	-0.01482023
3.4e+08	-0.01273189	-0.02647404	7.176192e-05	4.155253e-05	0.004319416	0.009098987	4.265693e-05	5.650264e-06
	7.176192e-05	4.155253e-05	-0.0135598	-0.02600974	5.700583e-05	0.0005747219	0.004060288	0.009250111
	0.004319416	0.009098987	5.700583e-05	0.0005747219	-0.01262553	-0.02622315	7.207467e-05	4.234663e-05
	4.265693e-05	5.650264e-06	0.004060288	0.009250111	7.207467e-05	4.234663e-05	-0.01357479	-0.025751
3.5e+08	-0.01915136	-0.03651867	7.59304e-05	3.509398e-05	0.005766072	0.009887081	4.241914e-05	1.8183e-06
	7.59304e-05	3.509398e-05	-0.02026476	-0.03581711	0.0001048441	0.0005583088	0.005421026	0.01012242
	0.005766072	0.009887081	0.0001048441	0.0005583088	-0.01904111	-0.03626509	7.626967e-05	3.600505e-05
	4.241914e-05	1.8183e-06	0.005421026	0.01012242	7.626967e-05	3.600505e-05	-0.02031322	-0.03553055
3.6e+08	-0.02751286	-0.04506302	7.950405e-05	2.788295e-05	0.007329579	0.01035085	4.185432e-05	-1.926596e-06
	7.950405e-05	2.788295e-05	-0.02887414	-0.04406167	0.0001471947	0.0005431272	0.00691234	0.01068937
	0.007329579	0.01035085	0.0001471947	0.0005431272	-0.02739991	-0.04480739	7.992418e-05	2.892795e-05
	4.185432e-05	-1.926596e-06	0.00691234	0.01068937	7.992418e-05	2.892795e-05	-0.02895305	-0.04373969
3.7e+08	-0.03746534	-0.05174971	8.227344e-05	2.000536e-05	0.008936632	0.01047411	4.097661e-05	-5.559072e-06
	8.227344e-05	2.000536e-05	-0.03902354	-0.05039406	0.0001864864	0.0005306191	0.008464992	0.01093192
	0.008936632	0.01047411	0.0001864864	0.0005306191	-0.03735107	-0.05149232	8.283614e-05	2.11824e-05
	4.097661e-05	-5.559072e-06	0.008464992	0.01093192	8.283614e-05	2.11824e-05	-0.03912826	-0.05002963
3.8e+08	-0.0485947	-0.05630268	8.405832e-05	1.161158e-05	0.01051289	0.01025739	3.980112e-05	-9.055695e-06
	8.405832e-05	1.161158e-05	-0.05028728	-0.05454908	0.0002254295	0.0005212086	0.01000809	0.01084691
	0.01051289	0.01025739	0.0002254295	0.0005212086	-0.04848051	-0.05604343	8.482645e-05	1.289776e-05
	3.980112e-05	-9.055695e-06	0.01000809	0.01084691	8.482645e-05	1.289776e-05	-0.05041164	-0.05413611
3.9e+08	-0.06044263	-0.05853749	8.47268e-05	2.9027e-06	0.01198685	0.009717431	3.834383e-05	-1.23945e-05
	8.47268e-05	2.9027e-06	-0.0621979	-0.05635558	0.0002666688	0.0005142809	0.0114728	0.01044659
	0.01198685	0.009717431	0.0002666688	0.0005142809	-0.06032987	-0.05827587	8.575766e-05	4.254005e-06
	3.834383e-05	-1.23945e-05	0.0114728	0.01044659	8.575766e-05	4.254005e-06	-0.06233441	-0.05588927
4e+08	-0.07252679	-0.05836717	8.420825e-05	-5.888275e-06	0.01329333	0.008885679	3.662172e-05	-1.555469e-05
	8.420825e-05	-5.888275e-06	-0.07426682	-0.05574175	0.0003124529	0.0005082711	0.01279561	0.009757415
	0.01329333	0.008885679	0.0003124529	0.0005082711	-0.07241662	-0.05810232	8.554696e-05	-4.534982e-06
	3.662172e-05	-1.555469e-05	0.01279561	0.009757415	8.554696e-05	-4.534982e-06	-0.07440697	-0.05521883
4.1e+08	-0.08436134	-0.05580366	8.249872e-05	-1.451769e-05	0.01437635	0.007806153	3.465313e-05	-1.851654e-05
	8.249872e-05	-1.451769e-05	-0.08600524	-0.05273588	0.0003643556	0.0005008472	0.01392118	0.008818021
	0.01437635	0.007806153	0.0003643556	0.0005008472	-0.08425466	-0.05553443	8.417252e-05	-1.324069e-05
	3.465313e-05	-1.851654e-05	0.01392118	0.008818021	8.417252e-05	-1.324069e-05	-0.08613977	-0.05215487
4.2e+08	-0.09547668	-0.05095498	7.965893e-05	-2.275192e-05	0.01519129	0.006532783	3.245796e-05	-2.126157e-05
	7.965893e-05	-2.275192e-05	-0.09694406	-0.04746283	0.0004230698	0.0004891649	0.01480434	0.007676861
	0.01519129	0.006532783	0.0004230698	0.0004891649	-0.09537408	-0.05067999	8.167282e-05	-2.163905e-05
	3.245796e-05	-2.126157e-05	0.01480434	0.007676861	8.167282e-05	-2.163905e-05	-0.09706342	-0.04682421
4.3e+08	-0.1054378	-0.04401867	7.580643e-05	-3.038519e-05	0.01570631	0.005126518	3.005788e-05	-2.377292e-05
	7.580643e-05	-3.038519e-05	-0.1066523	-0.04013677	0.0004882916	0.0004701695	0.01541155	0.006389535
	0.01570631	0.005126518	0.0004882916	0.0004701695	-0.1053395	-0.04373644	7.814062e-05	-2.952707e-05
	3.005788e-05	-2.377292e-05	0.01541155	0.006389535	7.814062e-05	-2.952707e-05	-0.106747	-0.03944297
4.4e+08	-0.1138605	-0.03527203	7.110312e-05	-3.725314e-05	0.01590301	0.00365239	2.747617e-05	-2.603581e-05
	7.110312e-05	-3.725314e-05	-0.1147531	-0.0310506	0.0005587001	0.0004409096	0.01572161	0.005016114
	0.01590301	0.00365239	0.0005587001	0.0004409096	-0.1137662	-0.03498102	7.37126e-05	-3.673595e-05
	2.747617e-05	-2.603581e-05	0.01572161	0.005016114	7.37126e-05	-3.673595e-05	-0.1148142	-0.03030606
4.5e+08	-0.1204246	-0.02505969	6.574066e-05	-4.324148e-05	0.01577651	0.002176708	2.473749e-05	-2.803798e-05
	6.574066e-05	-4.324148e-05	-0.1209372	-0.02056296	0.0006320299	0.0003988404	0.01572579	0.003618564
	0.01577651	0.002176708	0.0006320299	0.0003988404	-0.1203339	-0.02475846	6.85569e-05	-4.313971e-05
	2.473749e-05	-2.803798e-05	0.01572579	0.003618564	6.85569e-05	-4.313971e-05	-0.1209565	-0.01977399
4.6e+08	-0.1248854	-0.0137794	5.992498e-05	-4.828984e-05	0.01533501	0.0007644878	2.186732e-05	-2.977002e-05
	5.992498e-05	-4.828984e-05	-0.1249729	-0.009083299	0.0007052246	0.0003420865	0.01542755	0.002258392
	0.01533501	0.0007644878	0.0007052246	0.0003420865	-0.1247973	-0.01346666	6.285966e-05	-4.865985e-05
	2.186732e-05	-2.977002e-05	0.01542755	0.002258392	6.285966e-05	-4.865985e-05	-0.1249438	-0.008257844
4.7e+08	-0.1270806	-0.00186633	5.386154e-05	-5.23912e-05	0.01459895	-0.0005228355	1.889135e-05	-3.122534e-05
	5.386154e-05	-5.23912e-05	-0.1267138	0.002944316	0.0007746561	0.0002696509	0.01484186	0.0009945344
	0.01459895	-0.0005228355	0.0007746561	0.0002696509	-0.1269939	-0.001541039	5.681205e-05	-5.326598e-05
	1.889135e-05	-3.122534e-05	0.01484186	0.0009945344	5.681205e-05	-5.326598e-05	-0.1266312	0.003796914
4.8e+08	-0.1269356	0.01022334	4.774206e-05	-5.558835e-05	0.01359986	-0.001629389	1.583493e-05	-3.240009e-05
