!$
! Info: Touchstone file created by Circ.  Input file=Tx_12in_Rx_100ohms_TxVia_35mils_RxVia_45mils.circ
!$
# Hz S RI R 50
0	0.01244826	1.53173e-25	0.9874109	-1.572699e-25	8.267289e-05	2.371179e-23	-8.075143e-05	2.045058e-21
	0.9874109	-1.603751e-25	0.01244711	1.791502e-25	-8.111981e-05	2.090261e-21	8.309051e-05	2.818705e-23
	8.083312e-05	2.434973e-23	-8.124588e-05	2.105843e-21	0.01246058	1.460102e-25	0.9873952	-1.491651e-25
	-8.112796e-05	2.091313e-21	8.124198e-05	2.832577e-23	0.9873952	-1.488793e-25	0.01246017	1.678618e-25
1e+07	0.01847086	0.007436635	0.9743021	-0.1237404	0.0008208799	0.002215047	-0.0005748705	-0.0001923443
	0.9743021	-0.1237404	0.01846305	0.007435887	-0.0005748829	-0.0001923249	0.0008168757	0.002216299
	0.0008208194	0.00221505	-0.0005749395	-0.0001923107	0.01830526	0.007467838	0.9744597	-0.1238484
	-0.0005749271	-0.0001923301	0.0008168147	0.002216309	0.9744597	-0.1238484	0.01829581	0.007467606
2e+07	0.02419934	0.01003953	0.9478223	-0.2406935	0.001476133	0.00449543	-0.0005209813	-0.0005779047
	0.9478223	-0.2406935	0.024169	0.01004307	-0.0005210241	-0.0005778747	0.001461103	0.004501178
	0.001476119	0.004495468	-0.0005210314	-0.0005778323	0.02409906	0.01015477	0.9478905	-0.2409605
	-0.0005209904	-0.0005778612	0.001461094	0.004501213	0.9478905	-0.2409605	0.02406258	0.01016062
3e+07	0.02913812	0.01019909	0.9088775	-0.3519294	0.002627116	0.006331605	-0.0005425727	-0.0007538345
	0.9088775	-0.3519294	0.02907297	0.01021753	-0.0005426669	-0.0007537417	0.002595597	0.006347311
	0.002627118	0.00633161	-0.0005426639	-0.0007537357	0.02909692	0.01034135	0.9088461	-0.3522948
	-0.0005425697	-0.0007538282	0.002595597	0.006347317	0.9088461	-0.3522948	0.02901895	0.0103661
4e+07	0.03347105	0.008938151	0.8577046	-0.4569973	0.004198699	0.007751399	-0.0006337282	-0.0008439208
	0.8577046	-0.4569973	0.0333628	0.008985707	-0.0006338469	-0.0008437314	0.004147337	0.007784199
	0.004198694	0.007751394	-0.0006338541	-0.0008437341	0.0334847	0.009085262	0.8575611	-0.4574325
	-0.0006337359	-0.000843924	0.004147332	0.007784197	0.8575611	-0.4574325	0.0333556	0.009145936
5e+07	0.03713741	0.006586883	0.7949614	-0.554768	0.006204781	0.008594725	-0.0009089529	-0.00075914
	0.7949614	-0.554768	0.03698278	0.006680577	-0.0009090581	-0.0007588253	0.006132725	0.008652594
	0.006204777	0.008594723	-0.0009090634	-0.0007588251	0.03719989	0.006722704	0.7946956	-0.5552472
	-0.0009089586	-0.0007591399	0.006132721	0.008652593	0.7946956	-0.5552472	0.03701599	0.006839609
6e+07	0.04003762	0.003383735	0.7215155	-0.6440766	0.008307358	0.008925609	-0.001133205	-0.0006157443
	0.7215155	-0.6440766	0.03983929	0.003541497	-0.001133247	-0.0006152888	0.008216552	0.009016826
	0.008307362	0.00892561	-0.001133242	-0.0006152906	0.0401407	0.003495628	0.7211204	-0.6445747
	-0.0011332	-0.0006157462	0.008216555	0.009016825	0.7211204	-0.6445747	0.03990547	0.00369008
7e+07	0.04207623	-0.0004541751	0.6383969	-0.7238183	0.01038566	0.008741647	-0.001302579	-0.0004337986
	0.6383969	-0.7238183	0.04184277	-0.000215545	-0.001302493	-0.0004332092	0.01028076	0.008873823
	0.01038568	0.008741645	-0.001302482	-0.0004332187	0.04220973	-0.0003757413	0.6378686	-0.7243099
	-0.001302567	-0.0004338089	0.01028077	0.00887382	0.6378686	-0.7243099	0.04193363	-8.384573e-05
8e+07	0.04318251	-0.004710082	0.54677	-0.792992	0.01232016	0.008067224	-0.001416652	-0.0002307403
	0.54677	-0.792992	0.04292776	-0.004376618	-0.001416374	-0.0002300536	0.01220826	0.008246533
	0.01232018	0.008067217	-0.001416363	-0.0002300698	0.0433347	-0.004671505	0.5461087	-0.7934516
	-0.00141664	-0.000230758	0.01220827	0.008246527	0.5461087	-0.7934516	0.04303443	-0.004265711
9e+07	0.04332182	-0.009164555	0.4479117	-0.8507262	0.01399889	0.006953139	-0.001477382	-2.090674e-05
	0.4479117	-0.8507262	0.04306386	-0.008726525	-0.001476861	-2.018802e-05	0.01388907	0.007183631
	0.0139989	0.006953132	-0.001476856	-2.020267e-05	0.04347979	-0.009169047	0.4471218	-0.8511284
	-0.001477376	-2.092278e-05	0.01388908	0.007183626	0.4471218	-0.8511284	0.04317707	-0.008637992
1e+08	0.04251631	-0.01359511	0.3431712	-0.8963016	0.01531708	0.005472216	-0.001479102	0.0001876815
	0.3431712	-0.8963016	0.04227625	-0.01304816	-0.001478314	0.0001883443	0.01521977	0.005755274
	0.01531708	0.005472216	-0.001478314	0.0001883443	0.04266491	-0.01364313	0.3422638	-0.8966206
	-0.001479102	0.0001876815	0.01521977	0.005755274	0.3422638	-0.8966206	0.04238501	-0.01298188
1.1e+08	0.04078431	-0.01790462	0.2340319	-0.9290136	0.01620789	0.003766331	-0.001439618	0.000327432
	0.2340319	-0.9290136	0.04058594	-0.01725247	-0.001438554	0.0003279501	0.01613434	0.004099943
	0.01620789	0.003766331	-0.001438554	0.0003279501	0.040912	-0.01798502	0.2330203	-0.9292397
	-0.001439618	0.000327432	0.01613434	0.004099943	0.2330203	-0.9292397	0.04068313	-0.01719703
1.2e+08	0.03812734	-0.02179171	0.1221111	-0.9485753	0.01665751	0.001905725	-0.00141705	0.0004412574
	0.1221111	-0.9485753	0.03799155	-0.02104229	-0.001415767	0.0004415322	0.0166182	0.002284926
	0.01665751	0.001905725	-0.001415767	0.0004415322	0.03822964	-0.02189731	0.1210006	-0.948689
	-0.00141705	0.0004412574	0.0166182	0.002284926	0.1210006	-0.948689	0.03807769	-0.02099299
1.3e+08	0.0346972	-0.02506477	0.008929638	-0.9547916	0.0166306	-6.10507e-07	-0.001407155	0.0005424416
	0.008929638	-0.9547916	0.03464377	-0.02423213	-0.001405739	0.0005424016	0.01663478	0.0004161725
	0.0166306	-6.105134e-07	-0.001405739	0.0005424016	0.03476942	-0.0251878	0.007732151	-0.9547726
	-0.001407155	0.0005424416	0.01663478	0.0004161725	0.007732151	-0.9547726	0.03471813	-0.02418507
1.4e+08	0.03065882	-0.02757536	-0.1039533	-0.9476345	0.01612834	-0.001836271	-0.001412371	0.0006413877
	-0.1039533	-0.9476345	0.0307043	-0.02667965	-0.001410928	0.0006409969	0.01618318	-0.00139264
	0.01612834	-0.001836271	-0.001410928	0.0006409969	0.03069811	-0.02770728	-0.1052218	-0.9474638
	-0.001412371	0.0006413876	0.01618318	-0.00139264	-0.1052218	-0.9474638	0.03076676	-0.0266311
1.5e+08	0.02619933	-0.02921533	-0.2149816	-0.9272558	0.0151815	-0.003488369	-0.00143258	0.0007490848
	-0.2149816	-0.9272558	0.02635496	-0.02828192	-0.001431224	0.000748347	0.01529129	-0.003030762
	0.0151815	-0.003488369	-0.001431224	0.000748347	0.02620491	-0.02934729	-0.2163014	-0.9269162
	-0.00143258	0.0007490847	0.01529129	-0.003030762	-0.2163014	-0.9269162	0.02640617	-0.02822848
1.6e+08	0.0215214	-0.02992002	-0.3226258	-0.8939865	0.01384781	-0.004854826	-0.001463891	0.0008762365
	-0.3226258	-0.8939865	0.0217915	-0.02897793	-0.001462727	0.000875195	0.0140134	-0.004397466
	0.01384781	-0.004854826	-0.001462727	0.000875195	0.02149457	-0.0300433	-0.3239739	-0.8934637
	-0.001463891	0.0008762365	0.0140134	-0.004397466	-0.3239739	-0.8934637	0.02183273	-0.02891666
1.7e+08	0.01683451	-0.02967035	-0.4254047	-0.8483341	0.01220828	-0.005850673	-0.001498536	0.001031939
	-0.4254047	-0.8483341	0.01721537	-0.0287502	-0.001497648	0.001030672	0.01242667	-0.005408175
	0.01220828	-0.005850673	-0.001497648	0.001030672	0.01677857	-0.02977678	-0.4267554	-0.847617
	-0.001498536	0.001031939	0.01242667	-0.005408175	-0.4267554	-0.847617	0.0172484	-0.02867873
1.8e+08	0.01234543	-0.02849309	-0.521907	-0.7909764	0.01036219	-0.006413213	-0.001525429	0.001222372
	-0.521907	-0.7909764	0.01282483	-0.02762482	-0.001524869	0.001220984	0.0106264	-0.005999541
	0.01036219	-0.006413213	-0.001524869	0.001220983	0.01226554	-0.02857545	-0.5232322	-0.7900575
	-0.001525429	0.001222372	0.0106264	-0.005999541	-0.5232322	-0.7900575	0.01285185	-0.02754136
1.9e+08	0.008248583	-0.02645915	-0.6108114	-0.7227521	0.008421034	-0.006505798	-0.001531219	0.001449735
	-0.6108114	-0.7227521	0.008806078	-0.02566959	-0.001530998	0.001448343	0.008720337	-0.006133192
	0.008421034	-0.006505798	-0.001530998	0.001448343	0.008151538	-0.02651155	-0.6120813	-0.721628
	-0.001531219	0.001449735	0.008720337	-0.006133192	-0.6120813	-0.721628	0.008829463	-0.025573
2e+08	0.00471683	-0.02367969	-0.6909057	-0.6446495	0.006501804	-0.006120007	-0.001501692	0.001711596
	-0.6909057	-0.6446495	0.005324624	-0.02299038	-0.001501776	0.001710313	0.006822131	-0.005797966
	0.006501804	-0.006120007	-0.001501776	0.001710313	0.004610803	-0.02369798	-0.6920894	-0.6433213
	-0.001501692	0.001711596	0.006822131	-0.005797966	-0.6920894	-0.6433213	0.005346871	-0.02288012
2.1e+08	0.001893332	-0.02030038	-0.7611043	-0.5577922	0.004719902	-0.005276097	-0.001423335	0.002000736
	-0.7611043	-0.5577922	0.002517764	-0.01972556	-0.001423649	0.001999657	0.005044598	-0.005010503
	0.004719902	-0.005276097	-0.001423649	0.001999657	0.001787451	-0.02028241	-0.7621704	-0.5562655
	-0.001423335	0.002000736	0.005044598	-0.005010503	-0.7621704	-0.5562655	0.002541328	-0.01960172
2.2e+08	-0.0001152175	-0.01649388	-0.8204638	-0.4634231	0.003182201	-0.004021714	-0.001284894	0.00230554
	-0.8204638	-0.4634231	0.0004882992	-0.016039	-0.001285329	0.002304724	0.003492978	-0.003814145
	0.003182201	-0.004021714	-0.001285329	0.002304724	-0.0002113449	-0.01643977	-0.8213813	-0.4617081
	-0.001284894	0.00230554	0.003492978	-0.003814145	-0.8213813	-0.4617081	0.000515483	-0.01590224
2.3e+08	-0.001243507	-0.012451	-0.8681966	-0.3628856	0.001980648	-0.002428934	-0.00107872	0.002610876
	-0.8681966	-0.3628856	-0.0007000031	-0.01211173	-0.001079152	0.002610336	0.002258713	-0.002276247
	0.001980648	-0.002428934	-0.001079152	0.002610336	-0.00132034	-0.01236328	-0.8689352	-0.3609974
	-0.00107872	0.002610876	0.002258713	-0.002276247	-0.8689352	-0.3609974	-0.000667172	-0.01196324
2.4e+08	-0.001470435	-0.008370975	-0.9036814	-0.257604	0.001186802	-0.0005898491	-0.0008017629	0.002899385
	-0.9036814	-0.257604	-0.001025033	-0.008132873	-0.0008020684	0.002899082	0.001414092	-0.0004840593
	0.001186802	-0.0005898491	-0.0008020684	0.002899082	-0.0015191	-0.008254549	-0.9042127	-0.2555623
	-0.0008017629	0.002899385	0.001414092	-0.0004840593	-0.9042127	-0.2555623	-0.0009849117	-0.007974301
2.5e+08	-0.0008196562	-0.004451387	-0.9264713	-0.1490627	0.0008476454	0.001389037	-0.0004560854	0.003153022
	-0.9264713	-0.1490627	-0.0005068229	-0.004290226	-0.0004561617	0.003152869	0.001008071	0.001460555
	0.0008476454	0.001389037	-0.0004561617	0.003152869	-0.0008325397	-0.004313372	-0.926769	-0.1468914
	-0.0004560854	0.003153022	0.001008071	0.001460555	-0.926769	-0.1468914	-0.0004582477	-0.004123556
2.6e+08	0.000642147	-0.0008782156	-0.9362992	-0.0387841	0.0009828946	0.003393238	-4.88435e-05	0.003354678
	-0.9362992	-0.0387841	0.0007940558	-0.0007609511	-4.862739e-05	0.003354549	0.00106353	0.003447223
	0.0009828945	0.003393238	-4.862739e-05	0.003354549	0.0006708408	-0.000727615	-0.9363402	-0.03651116
	-4.88435e-05	0.003354678	0.00106353	0.003447223	-0.9363402	-0.03651116	0.0008516995	-0.0005883945
2.7e+08	0.002809193	0.002183424	-0.9330801	0.07169347	0.001583971	0.005307134	0.0004082581	0.003489702
	-0.9330801	0.07169347	0.002780146	0.002297037	0.0004087764	0.003489449	0.001576085	0.005363615
	0.001583971	0.005307134	0.0004087764	0.003489449	0.002882976	0.002336184	-0.9328447	0.07403629
	0.0004082581	0.003489702	0.001576085	0.005363615	-0.9328447	0.07403629	0.002846883	0.002473187
2.8e+08	0.005542501	0.00459737	-0.9169105	0.1808373	0.00261466	0.007020837	0.0008999679	0.003547147
	-0.9169105	0.1808373	0.005322568	0.004752628	0.0009007379	0.00354662	0.002514535	0.007102054
	0.00261466	0.007020837	0.0009007379	0.00354662	0.005662253	0.004741028	-0.9163832	0.1832152
	0.0008999679	0.003547147	0.002514535	0.007102054	-0.9163832	0.1832152	0.005397828	0.004930143
2.9e+08	0.008677424	0.006262923	-0.8880656	0.287142	0.004013398	0.008436649	0.001408825	0.003520607
	-0.8880656	0.287142	0.008267993	0.0065076	0.001409738	0.003519677	0.003822857	0.008565772
	0.004013398	0.008436649	0.001409738	0.003519677	0.008841202	0.006386048	-0.8872355	0.2895174
	0.001408825	0.003520607	0.003822857	0.008565772	-0.8872355	0.2895174	0.008350641	0.006684466
3e+08	0.01203242	0.00711945	-0.8469934	0.3891496	0.005697023	0.009474743	0.001916674	0.003408568
	-0.8469934	0.3891496	0.01144675	0.007500941	0.001917571	0.003407152	0.005423633	0.009674483
	0.005697023	0.009474743	0.001917571	0.003407152	0.01223544	0.007211159	-0.8458543	0.3914832
	0.001916674	0.003408568	0.005423633	0.009674483	-0.8458543	0.3914832	0.01153516	0.007675497
3.1e+08	0.01541857	0.007148874	-0.7943069	0.4854695	0.007565755	0.01007776	0.002406177	0.00321424
	-0.7943069	0.4854695	0.01468163	0.007711238	0.002406868	0.003212316	0.007222674	0.01036894
	0.007565755	0.01007776	0.002406868	0.003212316	0.01565335	0.007199537	-0.792858	0.4877204
	0.002406177	0.00321424	0.007222674	0.01036894	-0.792858	0.4877204	0.01477376	0.007882291
3.2e+08	0.01864931	0.006375937	-0.7307744	0.5747958	0.009509086	0.01021408	0.002862156	0.002944918
	-0.7307744	0.5747958	0.01779688	0.007156998	0.002862444	0.002942533	0.009114563	0.01061424
	0.009509086	0.01021408	0.002862444	0.002942533	0.01890606	0.00637784	-0.7290203	0.5769228
	0.002862156	0.002944918	0.009114563	0.01061424	-0.7290203	0.5769228	0.01789046	0.007323918
3.3e+08	0.02155001	0.004866286	-0.6573078	0.6559246	0.01141226	0.00987954	0.003272613	0.002610951
	-0.6573078	0.6559246	0.02062705	0.005894996	0.003272321	0.002608226	0.01098879	0.01040174
	0.01141226	0.00987954	0.003272321	0.002608226	0.02181706	0.004814188	-0.6552584	0.6578862
	0.003272613	0.002610951	0.01098879	0.01040174	-0.6552584	0.6578862	0.02071968	0.006057761
3.4e+08	0.02396668	0.002722482	-0.5749491	0.7277683	0.01316293	0.009097644	0.003629336	0.00222447
	-0.5749491	0.7277683	0.0230251	0.004016707	0.00362833	0.002221587	0.01273613	0.009749402
	0.01316293	0.009097644	0.00362833	0.002221587	0.02423116	0.00261406	-0.5726201	0.7295241
	0.003629336	0.00222447	0.01273613	0.009749402	-0.5726201	0.7295241	0.02311441	0.004175925
3.5e+08	0.02577357	7.817919e-05	-0.4848567	0.7893694	0.01465771	0.007918139	0.003928016	0.001798026
	-0.4848567	0.7893694	0.02486946	0.001643057	0.003926229	0.001795211	0.01425492	0.008700735
	0.01465771	0.007918139	0.003926229	0.001795211	0.02602216	-8.571059e-05	-0.4822689	0.7908803
	0.003928016	0.001798026	0.01425492	0.008700735	-0.4822689	0.7908803	0.02495331	0.001799939
3.6e+08	0.0268793	-0.002909192	-0.388289	0.839912	0.01580812	0.006414124	0.004167906	0.00134331
	-0.388289	0.839912	0.02606975	-0.001082191	0.004165351	0.00134081	0.01545687	0.007322205
	0.01580812	0.006414124	0.004165351	0.00134081	0.02709897	-0.003124429	-0.3854687	0.8411412
	0.004167906	0.00134331	0.01545687	0.007322205	-0.3854687	0.8411412	0.02614634	-0.0009258995
3.7e+08	0.02723105	-0.00606689	-0.2865881	0.878732	0.01654572	0.004677832	0.004351072	0.0008701071
	-0.2865881	0.878732	0.0265708	-0.004000117	0.004347847	0.0008681585	0.01627213	0.005699412
	0.01654572	0.004677832	0.004347847	0.0008681585	0.02740988	-0.006326201	-0.2835668	0.8796455
	0.004351072	0.0008701071	0.01627213	0.005699412	-0.2835668	0.8796455	0.02663881	-0.003842237
3.8e+08	0.02681679	-0.009216005	-0.1811625	0.9053251	0.01682614	0.002815316	0.004481351	0.0003856104
	-0.1811625	0.9053251	0.02635489	-0.006944959	0.00447763	0.0003844099	0.0166533	0.003932166
	0.01682614	0.002815316	0.00447763	0.0003844099	0.02694478	-0.009509274	-0.1779762	0.9058923
	0.004481351	0.0003856104	0.0166533	0.003932166	-0.1779762	0.9058923	0.02641359	-0.00678301
3.9e+08	0.02566546	-0.01218084	-0.07346813	0.9193532	0.01663169	0.0009403344	0.004563158	-0.0001058388
	-0.07346813	0.9193532	0.02544205	-0.009752678	0.004559176	-0.0001061602	0.01657816	0.002128764
	0.01663169	0.0009403344	0.004559176	-0.0001061602	0.02573512	-0.0124956	-0.07015745	0.919548
	0.004563158	-0.0001058389	0.01657816	0.002128764	-0.07015745	0.919548	0.02549136	-0.009584035
4e+08	0.02384493	-0.01479804	0.03500983	0.9206494	0.0159725	-0.0008322313	0.004600308	-0.0006025556
	0.03500983	0.9206494	0.02388849	-0.01226933	0.004596335	-0.0006019509	0.01605102	0.000399763
	0.0159725	-0.0008322313	0.004596335	-0.0006019509	0.0238519	-0.01512012	0.03840052	0.9204502
	0.004600308	-0.0006025556	0.01605102	0.000399763	0.03840052	0.9204502	0.023929	-0.01209139
4.1e+08	0.02145806	-0.01692505	0.1427772	0.9092201	0.01488605	-0.002393069	0.004595008	-0.0011049
	0.1427772	0.9092201	0.02178321	-0.01435883	0.004591316	-0.001103415	0.01510251	-0.001148404
	0.01488605	-0.002393069	0.004591316	-0.001103415	0.02140145	-0.01723937	0.1462001	0.9086109
	0.004595008	-0.0011049	0.01510251	-0.001148404	0.1462001	0.9086109	0.02181615	-0.01416917
4.2e+08	0.01863689	-0.0184474	0.2483501	0.8852456	0.0134351	-0.003644846	0.004547152	-0.00161434
	0.2483501	0.8852456	0.01924294	-0.01590978	0.004543986	-0.00161211	0.01378792	-0.002419603
	0.0134351	-0.003644846	0.004543986	-0.00161211	0.01851949	-0.0187388	0.2517548	0.8842161
	0.004547152	-0.00161434	0.01378792	-0.002419603	0.2517548	0.8842161	0.01927014	-0.01570635
4.3e+08	0.01553542	-0.01928451	0.3502758	0.8490786	0.01170416	-0.004507977	0.004454026	-0.002132315
	0.3502758	0.8490786	0.01640573	-0.01684091	0.004451568	-0.002129552	0.01218405	-0.003333621
	0.01170416	-0.004507977	0.004451568	-0.002129552	0.01536366	-0.01953867	0.3536097	0.8476249
	0.004454026	-0.002132315	0.01218405	-0.003333621	0.3536097	0.8476249	0.0164295	-0.01662214
4.4e+08	0.0123212	-0.01939371	0.447152	0.8012398	0.009794671	-0.004925398	0.004310448	-0.002659065
	0.447152	0.8012398	0.01342349	-0.01710498	0.004308799	-0.002656028	0.01038482	-0.003830901
	0.009794671	-0.004925398	0.004308799	-0.002656028	0.0121049	-0.01959802	0.4503614	0.7993644
	0.004310448	-0.002659065	0.01038482	-0.003830901	0.4503614	0.7993644	0.01344651	-0.0168699
4.5e+08	0.00916624	-0.01877217	0.537647	0.7424111	0.007819077	-0.004866058	0.004109351	-0.00319257
	0.537647	0.7424111	0.01045385	-0.01669085	0.004108513	-0.003189535	0.008495871	-0.003876099
	0.007819077	-0.004866058	0.004108513	-0.003189535	0.00891816	-0.01891655	0.540678	0.7401238
	0.004109351	-0.00319257	0.008495871	-0.003876099	0.540678	0.7401238	0.01047898	-0.01643921
4.6e+08	0.006237736	-0.01745676	0.6205188	0.6734273	0.005894289	-0.004326893	0.003842727	-0.003727763
	0.6205188	0.6734273	0.007651789	-0.01562369	0.003842605	-0.00372499	0.006628373	-0.003460242
	0.005894289	-0.004326893	0.003842605	-0.00372499	0.005972932	-0.01753431	0.6233178	0.6707446
	0.003842727	-0.003727763	0.006628373	-0.003460242	0.6233178	0.6707446	0.007681919	-0.01535592
4.7e+08	0.003689086	-0.01552173	0.6946325	0.595264	0.004134774	-0.003333158	0.003502821	-0.004256132
	0.6946325	0.595264	0.005161436	-0.01396319	0.003503233	-0.004253824	0.004892558	-0.002601342
	0.004134774	-0.003333158	0.003503233	-0.004253824	0.003424096	-0.01552921	0.6971477	0.5922096
	0.003502821	-0.004256132	0.004892558	-0.002601342	0.6971477	0.5922096	0.00519928	-0.0136804
4.8e+08	0.001651673	-0.01307441	0.7589776	0.5090241	0.002645771	-0.001937061	0.003083421	-0.004765758
	0.7589776	0.5090241	0.003108529	-0.01180003	0.003084127	-0.00476404	0.003391222	-0.001343419
	0.002645771	-0.001937061	0.003084127	-0.00476404	0.001403627	-0.01301265	0.7611593	0.5056286
	0.003083421	-0.004765758	0.003391222	-0.001343419	0.7611593	0.5056286	0.003156493	-0.01150402
4.9e+08	0.0002279196	-0.01024908	0.8126819	0.415922	0.001517013	-0.0002147933	0.002581092	-0.005241829
	0.8126819	0.415922	0.001593926	-0.009250679	0.002581819	-0.005240724	0.002213671	0.0002460315
	0.001517013	-0.0002147933	0.002581819	-0.005240724	1.352218e-05	-0.01012306	0.814484	0.4122226
	0.002581092	-0.005241829	0.002213671	0.0002460315	0.814484	0.4122226	0.00165391	-0.00894383
5e+08	-0.0005140817	-0.007199461	0.8550245	0.3172657	0.0008173564	0.001737905	0.001996174	-0.00566755
	0.8550245	0.3172657	0.0006884739	-0.006450867	0.001996661	-0.005666978	0.001430435	0.002079963
	0.0008173564	0.001737905	0.001996661	-0.005666978	-0.0006795384	-0.007018112	0.8564052	0.3133059
	0.001996174	-0.00566755	0.001430435	0.002079963	0.8564052	0.3133059	0.0007617472	-0.006135991
5.1e+08	-0.0005439447	-0.004090135	0.885446	0.2144378	0.0005906412	0.003811346	0.001333433	-0.00602538
	0.885446	0.2144378	0.0004296148	-0.003548052	0.001333466	-0.006025163	0.001089109	0.004056872
