!$
! Info: Touchstone file created by Circ.  Input file=Tx_16in_Rx_93ohms_TxVia_35mils_RxVia_45mils.circ
!$
# Hz S RI R 50
0	0.01459227	1.947487e-25	1.73819e-08	3.239015e-26	0.0001034682	2.781416e-23	3.383645e-08	7.182075e-27
	1.738192e-08	3.23889e-26	0.01459111	2.285469e-25	3.376266e-08	1.173916e-25	0.0001038848	3.306447e-23
	0.0001016273	2.856241e-23	3.376267e-08	1.17392e-25	0.01460451	1.856327e-25	2.063219e-08	3.84015e-26
	3.383645e-08	7.182719e-27	0.0001020358	3.322713e-23	2.06322e-08	3.840269e-26	0.01460414	2.141544e-25
1e+07	0.02102134	-0.002883794	3.060012e-08	4.532349e-08	0.0006873092	0.002840368	1.018378e-07	1.278687e-07
	3.060012e-08	4.532349e-08	0.02100771	-0.002883276	5.639913e-08	1.53069e-07	0.0006818604	0.002842378
	0.0006872483	0.002840372	5.639913e-08	1.53069e-07	0.02060328	-0.002863977	3.616796e-08	5.431392e-08
	1.018378e-07	1.278687e-07	0.0006817992	0.002842388	3.616796e-08	5.431392e-08	0.02058749	-0.002862681
2e+07	0.02303712	-0.01130226	5.495625e-08	7.285651e-08	0.001961277	0.005432609	2.254132e-07	1.770379e-07
	5.495624e-08	7.28565e-08	0.02298584	-0.01128878	7.426106e-08	2.775837e-07	0.001941319	0.005442222
	0.001961264	0.005432648	7.426106e-08	2.775837e-07	0.02274569	-0.01113711	6.511166e-08	8.726607e-08
	2.25413e-07	1.770379e-07	0.00194131	0.005442258	6.511166e-08	8.726607e-08	0.02268664	-0.01111996
3e+07	0.02085801	-0.0208484	8.142655e-08	8.725047e-08	0.004026054	0.007303796	3.710848e-07	1.543464e-07
	8.142655e-08	8.725047e-08	0.0207529	-0.02079871	8.328619e-08	3.988402e-07	0.00398606	0.007330207
	0.004026056	0.007303802	8.328619e-08	3.988402e-07	0.02066049	-0.02066112	9.648058e-08	1.046479e-07
	3.710848e-07	1.543464e-07	0.00398606	0.007330212	9.648058e-08	1.046479e-07	0.02053989	-0.02060125
4e+07	0.0153586	-0.02941006	1.054313e-07	8.795678e-08	0.006587152	0.008331135	5.086193e-07	5.257669e-08
	1.054313e-07	8.795678e-08	0.01519519	-0.02929517	8.762244e-08	5.200342e-07	0.006526233	0.008385513
	0.006587146	0.00833113	8.762244e-08	5.200342e-07	0.01523027	-0.02923769	1.249115e-07	1.058861e-07
	5.086193e-07	5.257669e-08	0.006526227	0.008385511	1.249115e-07	1.058861e-07	0.01504334	-0.02910187
5e+07	0.007366613	-0.03591919	1.211869e-07	7.653819e-08	0.009277972	0.008476816	6.028658e-07	-1.217316e-07
	1.211869e-07	7.653819e-08	0.007153685	-0.03570905	8.864435e-08	6.427879e-07	0.009200437	0.00857035
	0.009277967	0.008476815	8.864435e-08	6.427879e-07	0.007283298	-0.03577984	1.435887e-07	9.279362e-08
	6.028658e-07	-1.217316e-07	0.009200433	0.008570349	1.435887e-07	9.279362e-08	0.007040408	-0.03553373
6e+07	-0.002180544	-0.03972654	1.237169e-07	5.688371e-08	0.01181334	0.007758528	6.233777e-07	-3.478418e-07
	1.237169e-07	5.688371e-08	-0.002421045	-0.03939579	8.778036e-08	7.684537e-07	0.01172836	0.007900228
	0.01181334	0.007758528	8.778036e-08	7.684537e-07	-0.002241807	-0.03962695	1.466154e-07	6.998019e-08
	6.233777e-07	-3.478418e-07	0.01172836	0.007900227	1.466154e-07	6.998019e-08	-0.002515191	-0.03924167
7e+07	-0.01228016	-0.04054127	1.097802e-07	3.466742e-08	0.01393016	0.006282172	5.494365e-07	-5.940535e-07
	1.097802e-07	3.466744e-08	-0.01251584	-0.04007449	8.679835e-08	8.977729e-07	0.01385065	0.006477026
	0.01393018	0.006282169	8.679836e-08	8.977729e-07	-0.01233966	-0.04047973	1.301879e-07	4.418349e-08
	5.494365e-07	-5.940535e-07	0.01385065	0.006477023	1.301879e-07	4.418351e-08	-0.01260618	-0.03993795
8e+07	-0.02194454	-0.03840668	7.844254e-08	1.663611e-08	0.01541522	0.004229678	3.734219e-07	-8.218552e-07
	7.844256e-08	1.663614e-08	-0.02213715	-0.03780214	8.758072e-08	1.030708e-06	0.01535605	0.004477339
	0.01541524	0.00422967	8.758073e-08	1.030708e-06	-0.02201858	-0.03837526	9.325969e-08	2.33669e-08
	3.734219e-07	-8.218552e-07	0.01535606	0.004477332	9.325971e-08	2.336694e-08	-0.02223426	-0.03767539
9e+07	-0.0302842	-0.03366525	3.1408e-08	9.726036e-09	0.01612615	0.001838289	1.027206e-07	-9.909611e-07
	3.140803e-08	9.726056e-09	-0.03039527	-0.03293655	9.182542e-08	1.166441e-06	0.01610203	0.002132463
	0.01612616	0.001838281	9.182543e-08	1.166441e-06	-0.03038445	-0.03365186	3.788063e-08	1.566255e-08
	1.027206e-07	-9.909611e-07	0.01610204	0.002132457	3.788066e-08	1.566259e-08	-0.03050523	-0.03280992
1e+08	-0.03656228	-0.02690543	-2.699303e-08	2.005976e-08	0.01600337	-0.0006258825	-2.40249e-07	-1.064838e-06
	-2.699303e-08	2.005976e-08	-0.03655892	-0.02608109	1.007525e-07	1.303441e-06	0.01602659	-0.0002972319
	0.01600337	-0.0006258824	1.007525e-07	1.303441e-06	-0.03669864	-0.02689581	-3.085541e-08	2.821808e-08
	-2.40249e-07	-1.064838e-06	0.01602659	-0.0002972319	-3.085541e-08	2.821808e-08	-0.03668701	-0.0259449
1.1e+08	-0.04037877	-0.01901482	-9.008783e-08	5.209375e-08	0.01507542	-0.002887587	-6.189333e-07	-1.015761e-06
	-9.008783e-08	5.209375e-08	-0.04024021	-0.01813735	1.148095e-07	1.440214e-06	0.01515367	-0.002541514
	0.01507542	-0.002887587	1.148095e-07	1.440214e-06	-0.04054626	-0.01898016	-1.051642e-07	6.631767e-08
	-6.189333e-07	-1.015761e-06	0.01515367	-0.002541514	-1.051642e-07	6.631767e-08	-0.04037776	-0.01796845
1.2e+08	-0.04158178	-0.01067147	-1.497561e-07	1.074018e-07	0.01346047	-0.004709008	-9.880453e-07	-8.316189e-07
	-1.497561e-07	1.074018e-07	-0.0413019	-0.00978774	1.339949e-07	1.575027e-06	0.01359487	-0.004364841
	0.01346047	-0.004709008	1.339949e-07	1.575027e-06	-0.04176207	-0.01060312	-1.755081e-07	1.318106e-07
	-9.880453e-07	-8.316189e-07	0.01359487	-0.004364841	-1.755081e-07	1.318106e-07	-0.04142995	-0.009585879
1.3e+08	-0.04017693	-0.002718736	-1.975516e-07	1.846368e-07	0.0113377	-0.005899849	-1.299032e-06	-5.160876e-07
	-1.975516e-07	1.846368e-07	-0.03976628	-0.001878572	1.575158e-07	1.706012e-06	0.01152236	-0.005577306
	0.0113377	-0.005899849	1.575158e-07	1.706012e-06	-0.04035484	-0.002614103	-2.319638e-07	2.231546e-07
	-1.299032e-06	-5.160876e-07	0.01152236	-0.005577306	-2.319638e-07	2.231546e-07	-0.03987227	-0.001649322
1.4e+08	-0.03645931	0.004063844	-2.256898e-07	2.79429e-07	0.008936177	-0.006336398	-1.505365e-06	-9.016677e-08
	-2.256898e-07	2.79429e-07	-0.03594652	0.004814013	1.839293e-07	1.831789e-06	0.009158115	-0.006053003
	0.008936177	-0.006336398	1.839293e-07	1.831789e-06	-0.03662085	0.00420206	-2.653611e-07	3.352656e-07
	-1.505365e-06	-9.016677e-08	0.009158115	-0.006053003	-2.653611e-07	3.352656e-07	-0.03602198	0.005061089
1.5e+08	-0.03094991	0.009040553	-2.281179e-07	3.847284e-07	0.006510842	-0.00597355	-1.568651e-06	4.089715e-07
	-2.281179e-07	3.847284e-07	-0.03038043	0.009664498	2.113718e-07	1.951603e-06	0.006750897	-0.005742103
	0.006510842	-0.00597355	2.113718e-07	1.951603e-06	-0.03108344	0.009205127	-2.685318e-07	4.599021e-07
	-1.568651e-06	4.089715e-07	0.006750897	-0.005742103	-2.685318e-07	4.599021e-07	-0.03042149	0.009917446
1.6e+08	-0.02433425	0.01177853	-2.01399e-07	4.915095e-07	0.004316873	-0.004848681	-1.46412e-06	9.311888e-07
	-2.01399e-07	4.915095e-07	-0.02376644	0.01225637	2.378283e-07	2.065413e-06	0.004551506	-0.004675129
	0.004316873	-0.004848681	2.378283e-07	2.065413e-06	-0.02443157	0.01195883	-2.373538e-07	5.864717e-07
	-1.46412e-06	9.311888e-07	0.004551506	-0.004675129	-2.373538e-07	5.864717e-07	-0.02377413	0.01250259
1.7e+08	-0.01738908	0.01208533	-1.453079e-07	5.897463e-07	0.002584075	-0.003077629	-1.184877e-06	1.418407e-06
	-1.453079e-07	5.897463e-07	-0.01688806	0.01241799	2.613904e-07	2.173869e-06	0.002787863	-0.002959646
	0.002584075	-0.003077629	2.613904e-07	2.173869e-06	-0.01744615	0.01226866	-1.714703e-07	7.031623e-07
	-1.184877e-06	1.418407e-06	0.002787863	-0.002959646	-1.714703e-07	7.031623e-07	-0.0168681	0.01264602
1.8e+08	-0.01090243	0.01002225	-6.306943e-08	6.695439e-07	0.001493506	-0.0008430052	-7.443103e-07	1.810999e-06
	-6.306943e-08	6.695439e-07	-0.01053251	0.01023355	2.80467e-07	2.278205e-06	0.001642073	-0.0007694799
	0.001493506	-0.0008430052	2.80467e-07	2.278205e-06	-0.01091964	0.01019528	-7.459692e-08	7.98269e-07
	-7.443103e-07	1.810999e-06	0.001642073	-0.00076948	-7.459692e-08	7.98269e-07	-0.01049454	0.01043457
1.9e+08	-0.005594291	0.005892623	3.878692e-08	7.223004e-07	0.001158626	0.001624359	-1.762307e-07	2.054883e-06
	3.878692e-08	7.223004e-07	-0.005410849	0.006028577	2.939314e-07	2.380102e-06	0.001231664	0.001672793
	0.001158626	0.001624359	2.939314e-07	2.380102e-06	-0.005576364	0.006042793	4.562681e-08	8.615741e-07
	-1.762307e-07	2.054883e-06	0.001231664	0.001672793	4.562681e-08	8.615741e-07	-0.005367216	0.006197605
2e+08	-0.00204534	0.0002063432	1.509476e-07	7.4178e-07	0.001613043	0.004069297	4.674825e-07	2.108513e-06
	1.509476e-07	7.4178e-07	-0.002087233	0.0003315427	3.012126e-07	2.481522e-06	0.001597075	0.004118709
	0.001613043	0.004069297	3.012126e-07	2.481522e-06	-0.002000849	0.0003231235	1.782361e-07	8.856343e-07
	4.674825e-07	2.108513e-06	0.001597075	0.004118709	1.782361e-07	8.856343e-07	-0.002051514	0.0004681294
2.1e+08	-0.0006406802	-0.006375853	2.621666e-07	7.24987e-07	0.0028065	0.006239247	1.121626e-06	1.948868e-06
	2.621666e-07	7.24987e-07	-0.0009241359	-0.006184363	3.023492e-07	2.584556e-06	0.00269704	0.006319948
	0.0028065	0.006239247	3.023492e-07	2.584556e-06	-0.0005812235	-0.006299891	3.099467e-07	8.668342e-07
	1.121626e-06	1.948868e-06	0.00269704	0.006319948	3.099467e-07	8.668342e-07	-0.0009094983	-0.006075984
2.2e+08	-0.001534207	-0.01311255	3.603818e-07	6.727445e-07	0.004609912	0.007911383	1.714399e-06	1.575634e-06
	3.603818e-07	6.727445e-07	-0.00204904	-0.01277335	2.980184e-07	2.691256e-06	0.004412734	0.008054792
	0.004609912	0.007911383	2.980184e-07	2.691256e-06	-0.001473333	-0.01308094	4.264854e-07	8.060877e-07
	1.714399e-06	1.575634e-06	0.004412734	0.008054792	4.264854e-07	8.060877e-07	-0.002066674	-0.01268465
2.3e+08	-0.004637114	-0.01925895	4.340024e-07	5.899012e-07	0.006829203	0.008916786	2.1754e-06	1.012898e-06
	4.340024e-07	5.899012e-07	-0.005345843	-0.01869537	2.895402e-07	2.803461e-06	0.006560511	0.009151938
	0.006829203	0.008916786	2.895402e-07	2.803461e-06	-0.00458905	-0.01927089	5.141295e-07	7.090858e-07
	2.1754e-06	1.012898e-06	0.006560511	0.009151938	5.141295e-07	7.090858e-07	-0.005403623	-0.01861444
2.4e+08	-0.009631454	-0.02414322	4.732512e-07	4.851107e-07	0.009226505	0.009158733	2.443957e-06	3.079953e-07
	4.732512e-07	4.851107e-07	-0.01047157	-0.02329251	2.788353e-07	2.922591e-06	0.008911922	0.009508812
	0.009226505	0.009158733	2.788353e-07	2.922591e-06	-0.009609751	-0.02419352	5.613056e-07	5.860258e-07
	2.443957e-06	3.079953e-07	0.008911922	0.009508812	5.613056e-07	5.860258e-07	-0.01057308	-0.02320532
2.5e+08	-0.01600688	-0.02723391	4.714207e-07	3.701603e-07	0.01154626	0.008622836	2.476769e-06	-4.724833e-07
	4.714207e-07	3.701603e-07	-0.01689616	-0.02605531	2.683118e-07	3.049428e-06	0.01121866	0.009102135
	0.01154626	0.008622836	2.683118e-07	3.049428e-06	-0.01602308	-0.02731335	5.600753e-07	4.508029e-07
	2.476769e-06	-4.724833e-07	0.01121866	0.009102135	5.600753e-07	4.508029e-07	-0.01704021	-0.02594724
2.6e+08	-0.02311631	-0.02819161	4.258853e-07	2.588769e-07	0.01354305	0.007377881	2.253886e-06	-1.249168e-06
	4.258853e-07	2.588769e-07	-0.02396069	-0.02667244	2.606542e-07	3.183924e-06	0.01323945	0.007989563
	0.01354305	0.007377881	2.606542e-07	3.183924e-06	-0.02317874	-0.02828763	5.073215e-07	3.197042e-07
	2.253886e-06	-1.249168e-06	0.01323945	0.007989563	5.073215e-07	3.197042e-07	-0.02414132	-0.02652985
2.7e+08	-0.03024406	-0.02689986	3.387283e-07	1.656914e-07	0.0150079	0.005567419	1.782246e-06	-1.938162e-06
	3.387283e-07	1.656914e-07	-0.03094731	-0.02505872	2.585226e-07	3.325078e-06	0.01476561	0.006302393
	0.0150079	0.005567419	2.585226e-07	3.325078e-06	-0.03035695	-0.02699778	4.054594e-07	2.097152e-07
	1.782246e-06	-1.938162e-06	0.01476561	0.006302393	4.054594e-07	2.097152e-07	-0.03115438	-0.02487057
2.8e+08	-0.0366794	-0.02347315	2.168398e-07	1.040117e-07	0.01578999	0.003393392	1.096301e-06	-2.460139e-06
	2.168398e-07	1.040117e-07	-0.03715357	-0.0213598	2.641866e-07	3.470942e-06	0.01564255	0.0042305
	0.01578999	0.003393392	2.641866e-07	3.470942e-06	-0.03684238	-0.02355745	2.625425e-07	1.36616e-07
	1.096301e-06	-2.460139e-06	0.01564255	0.0042305	2.625425e-07	1.36616e-07	-0.03737382	-0.02111885
2.9e+08	-0.0417879	-0.0182416	7.144357e-08	8.459908e-08	0.01581159	0.001093949	2.555947e-07	-2.749284e-06
	7.144357e-08	8.459908e-08	-0.04196335	-0.0159334	2.791632e-07	3.618781e-06	0.01578485	0.00200152
	0.01581159	0.001093949	2.791632e-07	3.618781e-06	-0.04199584	-0.01829735	9.169915e-08	1.130916e-07
	2.555947e-07	-2.749284e-06	0.01578485	0.00200152	9.169915e-08	1.130916e-07	-0.04218179	-0.01563705
3e+08	-0.04507357	-0.01171471	-8.293651e-08	1.141617e-07	0.01507495	-0.001081887	-6.604925e-07	-2.761068e-06
	-8.293651e-08	1.141617e-07	-0.04490759	-0.009309883	3.039303e-07	3.765388e-06	0.01518379	-0.0001432204
	0.01507495	-0.001081887	3.039303e-07	3.765388e-06	-0.04531697	-0.01172901	-9.007305e-08	1.471011e-07
	-6.604925e-07	-2.761068e-06	0.01518379	-0.0001432204	-9.007305e-08	1.471011e-07	-0.04510908	-0.008960459
3.1e+08	-0.0462263	-0.004528386	-2.299676e-07	1.943637e-07	0.01366084	-0.002899937	-1.560314e-06	-2.478017e-06
	-2.299676e-07	1.943637e-07	-0.04570919	-0.002136583	3.377876e-07	3.907501e-06	0.01390694	-0.001973412
	0.01366084	-0.002899937	3.377876e-07	3.907501e-06	-0.046492	-0.004491634	-2.636325e-07	2.407263e-07
	-1.560314e-06	-2.478017e-06	0.01390694	-0.001973412	-2.636325e-07	2.407263e-07	-0.04588003	-0.001741202
3.2e+08	-0.0451504	0.002619359	-3.532806e-07	3.213971e-07	0.01171933	-0.004164452	-2.3491e-06	-1.912842e-06
	-3.532806e-07	3.213971e-07	-0.04430825	0.004888125	3.788992e-07	4.042258e-06	0.01209025	-0.003292722
	0.01171933	-0.004164452	3.788992e-07	4.042258e-06	-0.04542271	0.002712449	-4.097431e-07	3.896615e-07
	-2.3491e-06	-1.912842e-06	0.01209025	-0.003292722	-4.097431e-07	3.896615e-07	-0.04443769	0.005318271
3.3e+08	-0.04197197	0.009037793	-4.38306e-07	4.861849e-07	0.009453978	-0.004737446	-2.93879e-06	-1.108534e-06
	-4.38306e-07	4.861849e-07	-0.04086587	0.01108481	4.245183e-07	4.16759e-06	0.009923764	-0.003957985
	0.009453978	-0.004737446	4.245183e-07	4.16759e-06	-0.04223408	0.009187544	-5.112039e-07	5.834234e-07
	-2.93879e-06	-1.108534e-06	0.009923764	-0.003957985	-5.112039e-07	5.834234e-07	-0.04094721	0.01153558
3.4e+08	-0.03702497	0.01411136	-4.739458e-07	6.751937e-07	0.007101094	-0.004552209	-3.257589e-06	-1.353337e-07
	-4.739458e-07	6.751937e-07	-0.0357463	0.01586026	4.713457e-07	4.282496e-06	0.007632382	-0.003893058
	0.007101094	-0.004552209	4.713457e-07	4.282496e-06	-0.03726048	0.01431294	-5.548043e-07	8.062628e-07
	-3.257589e-06	-1.353337e-07	0.007632382	-0.003893058	-5.548043e-07	8.062628e-07	-0.03577774	0.01631602
3.5e+08	-0.03081722	0.01735986	-4.538853e-07	8.717587e-07	0.00490598	-0.003619886	-3.258287e-06	9.152616e-07
	-4.538853e-07	8.717587e-07	-0.02947964	0.01876582	5.159506e-07	4.387138e-06	0.005453381	-0.003096225
	0.00490598	-0.003619886	5.159506e-07	4.387138e-06	-0.03101176	0.01760354	-5.328844e-07	1.038675e-06
	-3.258287e-06	9.152616e-07	0.005453381	-0.003096225	-5.328844e-07	1.038675e-06	-0.02946446	0.01921105
3.6e+08	-0.02397981	0.01848525	-3.774041e-07	1.057761e-06	0.003098221	-0.002028563	-2.92445e-06	1.938993e-06
	-3.774041e-07	1.057761e-06	-0.02270837	0.01954133	5.551718e-07	4.482781e-06	0.003612737	-0.001640509
	0.003098221	-0.002028563	5.551718e-07	4.482781e-06	-0.02412243	0.01875718	-4.443275e-07	1.25934e-06
	-2.92445e-06	1.938993e-06	0.003612737	-0.001640509	-4.443275e-07	1.25934e-06	-0.02265472	0.01996226
3.7e+08	-0.01720449	0.01740073	-2.496102e-07	1.215475e-06	0.001868265	6.518401e-05	-2.273734e-06	2.82912e-06
	-2.496102e-07	1.215475e-06	-0.01612308	0.0181405	5.864396e-07	4.571601e-06	0.002302251	0.0003332841
	0.001868265	6.518401e-05	5.864396e-07	4.571601e-06	-0.01728887	0.01768413	-2.948913e-07	1.447281e-06
	-2.273734e-06	2.82912e-06	0.002302251	0.0003332841	-2.948913e-07	1.447281e-06	-0.01604318	0.01852659
3.8e+08	-0.01117502	0.01423905	-8.108916e-08	1.32939e-06	0.001347502	0.002451727	-1.35778e-06	3.487537e-06
	-8.108916e-08	1.32939e-06	-0.01039332	0.01473504	6.079873e-07	4.656423e-06	0.001659702	0.002630384
	0.001347502	0.002451727	6.079873e-07	4.656423e-06	-0.01120025	0.0145157	-9.68468e-08	1.584039e-06
	-1.35778e-06	3.487537e-06	0.001659702	0.002630384	-9.68468e-08	1.584039e-06	-0.01030227	0.01508016
3.9e+08	-0.006499268	0.009339059	1.129869e-07	1.387852e-06	0.001593966	0.004889581	-2.584957e-07	3.835588e-06
	1.129869e-07	1.387852e-06	-0.00610055	0.009697083	6.189599e-07	4.740454e-06	0.001754086	0.005021662
	0.001593966	0.004889581	6.189599e-07	4.740454e-06	-0.00647011	0.009591065	1.320364e-07	1.655635e-06
	-2.584957e-07	3.835588e-06	0.001754086	0.005021662	1.320364e-07	1.655635e-06	-0.006014783	0.01000024
4e+08	-0.003648662	0.003211734	3.142106e-07	1.384368e-06	0.002585385	0.007130415	9.191366e-07	3.823391e-06
	3.142106e-07	1.384368e-06	-0.003679844	0.003561357	6.194496e-07	4.827023e-06	0.002577726	0.007267261
	0.002585385	0.007130415	6.194496e-07	4.827023e-06	-0.003575304	0.003423283	3.70074e-07	1.654167e-06
	9.191366e-07	3.823391e-06	0.002577726	0.007267261	3.70074e-07	1.654167e-06	-0.003615412	0.003826903
4.1e+08	-0.002911349	-0.003511213	5.026434e-07	1.318472e-06	0.004220688	0.008945365	2.057142e-06	3.436532e-06
	5.026434e-07	1.318472e-06	-0.003376402	-0.003029108	6.104931e-07	4.919359e-06	0.004046421	0.009141858
	0.004220688	0.008945365	6.104931e-07	4.919359e-06	-0.002808557	-0.003352218	5.936924e-07	1.578865e-06
	2.057142e-06	3.436532e-06	0.004046421	0.009141858	5.936924e-07	1.578865e-06	-0.003347275	-0.002791793
4.2e+08	-0.004363874	-0.01014083	6.587455e-07	1.196052e-06	0.006330127	0.01014971	3.036554e-06	2.69921e-06
	6.587455e-07	1.196052e-06	-0.005221495	-0.009388242	5.940469e-07	5.020362e-06	0.006007928	0.01045877
	0.006330127	0.01014971	5.940469e-07	5.020362e-06	-0.004249673	-0.01004146	7.797366e-07	1.436506e-06
	3.036554e-06	2.69921e-06	0.006007928	0.01045877	7.797366e-07	1.436506e-06	-0.005238027	-0.009165657
4.3e+08	-0.007864354	-0.01600008	7.653791e-07	1.029081e-06	0.008693143	0.01062306	3.750071e-06	1.673284e-06
	7.653791e-07	1.029081e-06	-0.009030316	-0.01485637	5.729297e-07	5.132352e-06	0.008258035	0.01109009
	0.008693143	0.01062306	5.729297e-07	5.132352e-06	-0.007758326	-0.01596151	9.078653e-07	1.241094e-06
	3.750071e-06	1.673284e-06	0.008258035	0.01109009	9.078653e-07	1.241094e-06	-0.009098054	-0.01463222
4.4e+08	-0.01306776	-0.02049133	8.097067e-07	8.347199e-07	0.01106202	0.01032248	4.113937e-06	4.531598e-07
	8.097067e-07	8.347199e-07	-0.01442189	-0.01886649	5.506982e-07	5.256798e-06	0.01056248	0.01098035
	0.01106202	0.01032248	5.506982e-07	5.256798e-06	-0.01298914	-0.0205086	9.628058e-07	1.01278e-06
	4.113937e-06	4.531598e-07	0.01056248	0.01098035	9.628058e-07	1.01278e-06	-0.01454088	-0.01862338
4.5e+08	-0.01946157	-0.0231554	7.8478e-07	6.338094e-07	0.0131886	0.009287083	4.077667e-06	-8.430567e-07
	7.8478e-07	6.338094e-07	-0.02085873	-0.02100057	5.314123e-07	5.394041e-06	0.0126821	0.01015222
	0.0131886	0.009287083	5.314123e-07	5.394041e-06	-0.01942733	-0.02321773	9.362259e-07	7.760694e-07
	4.077667e-06	-8.430567e-07	0.0126821	0.01015222	9.362259e-07	7.760694e-07	-0.02102341	-0.02072184
4.6e+08	-0.0264178	-0.02371608	6.906102e-07	4.488568e-07	0.01485087	0.007633486	3.630461e-06	-2.085237e-06
	6.906102e-07	4.488568e-07	-0.02770197	-0.0210302	5.192673e-07	5.543071e-06	0.01439836	0.008703471
	0.01485087	0.007633486	5.192673e-07	5.543071e-06	-0.02644094	-0.02380789	8.279726e-07	5.574441e-07
	3.630461e-06	-2.085237e-06	0.01439836	0.008703471	8.279726e-07	5.574441e-07	-0.02790164	-0.02070172
4.7e+08	-0.03325589	-0.02210595	5.3454e-07	3.016905e-07	0.0158764	0.005542823	2.80353e-06	-3.14448e-06
	5.3454e-07	3.016905e-07	-0.03427578	-0.0189376	5.181127e-07	5.701441e-06	0.0155361	0.006795891
	0.0158764	0.005542823	5.181127e-07	5.701441e-06	-0.03334406	-0.02220814	6.465048e-07	3.826047e-07
	2.80353e-06	-3.14448e-06	0.0155361	0.006795891	6.465048e-07	3.826047e-07	-0.03449569	-0.01854923
4.8e+08	-0.03931	-0.01847133	3.30802e-07	2.110409e-07	0.01616002	0.003241071	1.668036e-06	-3.906524e-06
