!$
! Info: Touchstone file created by Circ.  Input file=Tx_16in_Rx_93ohms_TxVia_35mils_RxVia_45mils.circ
!$
# Hz S RI R 50
0	0.01459285	1.85401e-25	-8.526161e-05	3.679654e-24	0.0001040166	2.728551e-23	-8.524227e-05	1.360663e-24
	-8.526165e-05	3.684056e-24	0.01459111	2.285469e-25	-8.527212e-05	5.207308e-24	0.0001038848	3.306447e-23
	0.0001038315	2.717096e-23	-8.527209e-05	5.203578e-24	0.0146033	1.853586e-25	-8.525798e-05	3.534019e-24
	-8.52423e-05	1.364114e-24	0.0001020358	3.322713e-23	-8.5258e-05	3.536799e-24	0.01460414	2.141544e-25
1e+07	0.02059429	-0.002821595	-0.0003918787	3.713573e-05	0.000689066	0.002850842	-7.866739e-05	-5.267424e-06
	-0.0003918787	3.713573e-05	0.02100771	-0.002883276	-0.0001980408	0.0001216578	0.0006818604	0.002842378
	0.0006890605	0.002850843	-0.0001980408	0.0001216578	0.02103335	-0.002902207	-0.0003912537	4.072632e-05
	-7.866737e-05	-5.267429e-06	0.0006817992	0.002842388	-0.0003912537	4.072632e-05	0.02058749	-0.002862681
2e+07	0.02275822	-0.01105689	-0.0003362151	-1.799367e-05	0.00196095	0.00545226	-5.025309e-05	-7.852082e-05
	-0.0003362151	-1.799367e-05	0.02298584	-0.01128878	-0.0001849445	0.0001034449	0.001941319	0.005442222
	0.001960951	0.005452264	-0.0001849445	0.0001034449	0.02304165	-0.01133935	-0.0003352114	-2.490412e-05
	-5.025309e-05	-7.852083e-05	0.00194131	0.005442258	-0.0003352114	-2.490413e-05	0.02268664	-0.01111996
3e+07	0.0207032	-0.02055206	-0.0003051767	-3.61675e-05	0.004045951	0.007318626	-6.948856e-05	-8.969259e-05
	-0.0003051767	-3.61675e-05	0.0207529	-0.02079871	-0.0001587758	0.0001136278	0.00398606	0.007330207
	0.004045954	0.007318625	-0.0001587758	0.0001136278	0.02084961	-0.02090239	-0.0003035138	-4.500989e-05
	-6.948856e-05	-8.969259e-05	0.00398606	0.007330212	-0.0003035138	-4.500989e-05	0.02053989	-0.02060125
4e+07	0.01531037	-0.02910936	-0.000282722	-3.695945e-05	0.006613012	0.008342584	-0.000116011	-6.422573e-05
	-0.000282722	-3.695945e-05	0.01519519	-0.02929517	-0.0001282234	0.000115017	0.006526233	0.008385513
	0.006613013	0.008342582	-0.0001282234	0.000115017	0.01533195	-0.02947778	-0.0002809893	-4.74182e-05
	-0.000116011	-6.422572e-05	0.006526227	0.008385511	-0.0002809893	-4.74182e-05	0.01504334	-0.02910187
5e+07	0.007405433	-0.03564361	-0.000263994	-3.090617e-05	0.009307642	0.008483246	-0.0001480927	-2.515656e-05
	-0.000263994	-3.090617e-05	0.007153685	-0.03570905	-0.0001014312	0.000102863	0.009200437	0.00857035
	0.009307642	0.008483245	-0.0001014312	0.000102863	0.007316883	-0.03599592	-0.0002626341	-4.280334e-05
	-0.0001480927	-2.515656e-05	0.009200433	0.008570349	-0.0002626341	-4.280334e-05	0.007040408	-0.03553373
6e+07	-0.002076211	-0.03949527	-0.0002461189	-2.217556e-05	0.01184455	0.007759104	-0.0001650649	2.240185e-05
	-0.0002461189	-2.217556e-05	-0.002421045	-0.03939579	-8.632548e-05	7.899155e-05	0.01172836	0.007900228
	0.01184455	0.007759104	-8.632548e-05	7.899155e-05	-0.002257055	-0.03980603	-0.0002454853	-3.535122e-05
	-0.0001650649	2.240185e-05	0.01172836	0.007900227	-0.0002454853	-3.535122e-05	-0.002515191	-0.03924167
7e+07	-0.01213279	-0.04036518	-0.0002274436	-1.341875e-05	0.01396066	0.006276761	-0.0001661083	7.427114e-05
	-0.0002274436	-1.341875e-05	-0.01251584	-0.04007449	-8.891123e-05	4.941942e-05	0.01385065	0.006477026
	0.01396067	0.006276761	-8.891124e-05	4.941942e-05	-0.01238542	-0.04061596	-0.0002278109	-2.769832e-05
	-0.0001661083	7.427114e-05	0.01385065	0.006477023	-0.0002278109	-2.769831e-05	-0.01260618	-0.03993795
8e+07	-0.02177623	-0.03828949	-0.0002070277	-6.722618e-06	0.01544287	0.004218816	-0.0001504573	0.0001264115
	-0.0002070277	-6.722619e-06	-0.02213715	-0.03780214	-0.0001119797	2.269108e-05	0.01535605	0.004477339
	0.01544287	0.004218815	-0.0001119797	2.269108e-05	-0.02207831	-0.03846829	-0.0002085788	-2.191664e-05
	-0.0001504573	0.0001264115	0.01535606	0.004477332	-0.0002085788	-2.191663e-05	-0.02223426	-0.03767539
9e+07	-0.03011575	-0.03360452	-0.0001838555	-3.901871e-06	0.01614906	0.001823093	-0.0001170845	0.0001744843
	-0.0001838555	-3.901872e-06	-0.03039527	-0.03293655	-0.0001547096	7.998645e-06	0.01610203	0.002132463
	0.01614906	0.001823092	-0.0001547096	7.998645e-06	-0.03044374	-0.03370548	-0.0001888815	-5.715973e-06
	-0.0001170845	0.0001744843	0.01610204	0.002132457	-0.0001888815	-5.715971e-06	-0.03050523	-0.03280992
1e+08	-0.03641559	-0.02689357	-0.0001509741	3.911248e-05	0.01601961	-0.0006438084	-6.009745e-05	0.000212491
	-0.0001509741	3.911248e-05	-0.03655892	-0.02608109	-0.0002162731	1.307352e-05	0.01602659	-0.0002972319
	0.01601961	-0.0006438083	-0.0002162731	1.307352e-05	-0.03674224	-0.02691674	-0.0001544468	5.613004e-05
	-6.009745e-05	0.000212491	0.01602659	-0.0002972319	-0.0001544468	5.613004e-05	-0.03668701	-0.0259449
1.1e+08	-0.04026145	-0.01902435	-0.0001126291	5.657986e-05	0.01508484	-0.002904365	8.162082e-07	0.0002109476
	-0.0001126291	5.657986e-05	-0.04024021	-0.01813735	-0.0002825123	2.603808e-05	0.01515367	-0.002541514
	0.01508484	-0.002904365	-0.0002825123	2.603808e-05	-0.04057288	-0.01899374	-0.000111642	7.344154e-05
	8.162082e-07	0.0002109476	0.01515367	-0.002541514	-0.000111642	7.344154e-05	-0.04037776	-0.01796845
1.2e+08	-0.04148823	-0.01069374	-8.625208e-05	6.646136e-05	0.01346445	-0.004723296	4.883107e-05	0.0001991055
	-8.625208e-05	6.646136e-05	-0.0413019	-0.00978774	-0.0003379736	6.564918e-05	0.01359487	-0.004364841
	0.01346445	-0.004723296	-0.0003379736	6.564918e-05	-0.0417816	-0.01061206	-8.160942e-05	8.240289e-05
	4.883107e-05	0.0001991055	0.01359487	-0.004364841	-8.160942e-05	8.240289e-05	-0.04142995	-0.009585879
1.3e+08	-0.04010497	-0.002747022	-6.464547e-05	7.147927e-05	0.01133723	-0.005910592	8.943854e-05	0.00017932
	-6.464547e-05	7.147927e-05	-0.03976628	-0.001878572	-0.0003786959	0.0001281358	0.01152236	-0.005577306
	0.01133723	-0.005910592	-0.0003786959	0.0001281358	-0.04037136	-0.002618622	-5.683092e-05	8.586715e-05
	8.943854e-05	0.00017932	0.01152236	-0.005577306	-5.683092e-05	8.586715e-05	-0.03987227	-0.001649322
1.4e+08	-0.03640646	0.004035039	-4.665151e-05	7.330235e-05	0.008932324	-0.006342772	0.0001197626	0.000155641
	-4.665151e-05	7.330235e-05	-0.03594652	0.004814013	-0.0003984395	0.0002070296	0.009158115	-0.006053003
	0.008932324	-0.006342772	-0.0003984395	0.0002070296	-0.03663656	0.004202805	-3.616813e-05	8.559869e-05
	0.0001197626	0.000155641	0.009158115	-0.006053003	-3.616813e-05	8.559869e-05	-0.03602198	0.005061089
1.5e+08	-0.03091323	0.009015588	-3.148927e-05	7.31829e-05	0.006504789	-0.00597499	0.0001346178	0.000137708
	-3.148927e-05	7.31829e-05	-0.03038043	0.009664498	-0.0003934619	0.0002939602	0.006750897	-0.005742103
	0.006504789	-0.00597499	-0.0003934619	0.0002939602	-0.03109919	0.009212428	-1.890027e-05	8.295554e-05
	0.0001346178	0.000137708	0.006750897	-0.005742103	-1.890027e-05	8.295554e-05	-0.03042149	0.009917446
1.6e+08	-0.0243104	0.01176073	-1.856828e-05	7.210044e-05	0.004309884	-0.004844924	0.0001477282	0.0001179962
	-1.856828e-05	7.210044e-05	-0.02376644	0.01225637	-0.000363371	0.0003800597	0.004551506	-0.004675129
	0.004309884	-0.004844924	-0.000363371	0.0003800597	-0.02444712	0.01197404	-4.492049e-06	7.904678e-05
	0.0001477282	0.0001179962	0.004551506	-0.004675129	-4.492049e-06	7.904678e-05	-0.02377413	0.01250259
1.7e+08	-0.01737443	0.01207701	-7.046103e-06	7.057797e-05	0.002577426	-0.003068743	0.0001585885	9.675772e-05
	-7.046103e-06	7.057797e-05	-0.01688806	0.01241799	-0.0003110078	0.0004574503	0.002787863	-0.002959646
	0.002577426	-0.003068743	-0.0003110078	0.0004574503	-0.01746036	0.01229282	7.867721e-06	7.453752e-05
	0.0001585885	9.675772e-05	0.002787863	-0.002959646	7.867721e-06	7.453752e-05	-0.0168681	0.01264602
1.8e+08	-0.01089317	0.01002475	3.864895e-06	6.867855e-05	0.001488406	-0.0008293939	0.0001668394	7.433134e-05
	3.864895e-06	6.867855e-05	-0.01053251	0.01023355	-0.000241625	0.0005204578	0.001642073	-0.0007694799
	0.001488406	-0.0008293939	-0.000241625	0.0005204578	-0.01093075	0.01022889	1.896908e-05	6.963928e-05
	0.0001668394	7.433134e-05	0.001642073	-0.00076948	1.896908e-05	6.963928e-05	-0.01049454	0.01043457
1.9e+08	-0.005586588	0.005906267	1.472908e-05	6.607289e-05	0.00115612	0.001641973	0.0001722395	5.111104e-05
	1.472908e-05	6.607289e-05	-0.005410849	0.006028577	-0.0001616197	0.0005662935	0.001231664	0.001672793
	0.00115612	0.001641973	-0.0001616197	0.0005662935	-0.005582242	0.006085584	2.941632e-05	6.416486e-05
	0.0001722395	5.111104e-05	0.001231664	0.001672793	2.941632e-05	6.416486e-05	-0.005367216	0.006197605
2e+08	-0.00203554	0.0002304254	2.574964e-05	6.218806e-05	0.001613926	0.004089924	0.000174651	2.751772e-05
	2.574964e-05	6.218806e-05	-0.002087233	0.0003315427	-7.712872e-05	0.0005950755	0.001597075	0.004118709
	0.001613926	0.004089924	-7.712872e-05	0.0005950755	-0.001999341	0.0003739841	3.948733e-05	5.766385e-05
	0.000174651	2.751772e-05	0.001597075	0.004118709	3.948733e-05	5.766385e-05	-0.002051514	0.0004681294
2.1e+08	-0.0006255739	-0.006343026	3.670681e-05	5.640988e-05	0.002811245	0.006261711	0.0001740261	3.978743e-06
	3.670681e-05	5.640988e-05	-0.0009241359	-0.006184363	7.198123e-06	0.0006092123	0.00269704	0.006319948
	0.002811245	0.006261711	7.198123e-06	0.0006092123	-0.0005704849	-0.006242894	4.906315e-05	4.961379e-05
	0.0001740261	3.978743e-06	0.00269704	0.006319948	4.906315e-05	4.961379e-05	-0.0009094983	-0.006075984
2.2e+08	-0.001511301	-0.01307352	4.699516e-05	4.829612e-05	0.004618622	0.007934417	0.0001703942	-1.908863e-05
	4.699516e-05	4.829612e-05	-0.00204904	-0.01277335	8.896692e-05	0.0006123106	0.004412734	0.008054792
	0.004618622	0.007934417	8.896692e-05	0.0006123106	-0.001452135	-0.01302042	5.765236e-05	3.962685e-05
	0.0001703942	-1.908863e-05	0.004412734	0.008054792	5.765236e-05	3.962685e-05	-0.002066674	-0.01268465
2.3e+08	-0.004604874	-0.0192169	5.575696e-05	3.774919e-05	0.006841595	0.00893915	0.0001638485	-4.128746e-05
	5.575696e-05	3.774919e-05	-0.005345843	-0.01869537	0.0001681886	0.0006078834	0.006560511	0.009151938
	0.006841595	0.00893915	0.0001681886	0.0006078834	-0.004557029	-0.01920991	6.450965e-05	2.762202e-05
	0.0001638485	-4.128746e-05	0.006560511	0.009151938	6.450965e-05	2.762202e-05	-0.005403623	-0.01861444
2.4e+08	-0.009589468	-0.02410162	6.208098e-05	2.510463e-05	0.009241927	0.009179327	0.000154536	-6.224542e-05
	6.208098e-05	2.510463e-05	-0.01047157	-0.02329251	0.0002468139	0.000598159	0.008911922	0.009508812
	0.009241927	0.009179327	0.0002468139	0.000598159	-0.009567549	-0.02413525	6.882137e-05	1.391946e-05
	0.000154536	-6.224542e-05	0.008911922	0.009508812	6.882137e-05	1.391946e-05	-0.01057308	-0.02320532
2.5e+08	-0.01595592	-0.02719615	6.522172e-05	1.11159e-05	0.01156374	0.008640811	0.0001426481	-8.161797e-05
	6.522172e-05	1.11159e-05	-0.01689616	-0.02605531	0.0003277176	0.0005833156	0.01121866	0.009102135
	0.01156374	0.008640811	0.0003277176	0.0005833156	-0.01597237	-0.02726069	6.991533e-05	-7.636875e-07
	0.0001426481	-8.161797e-05	0.01121866	0.009102135	6.991533e-05	-7.636875e-07	-0.01704021	-0.02594724
2.6e+08	-0.02305819	-0.02816059	6.463944e-05	-3.064316e-06	0.01356141	0.007392725	0.0001284169	-9.908812e-05
	6.463944e-05	-3.064316e-06	-0.02396069	-0.02667244	0.00042462	0.0005436082	0.01323945	0.007989563
	0.01356141	0.007392725	0.00042462	0.0005436082	-0.02312213	-0.02824295	6.729682e-05	-1.532077e-05
	0.0001284169	-9.908812e-05	0.01323945	0.007989563	6.729682e-05	-1.532077e-05	-0.02414132	-0.02652985
2.7e+08	-0.0301815	-0.02687775	6.053956e-05	-1.631554e-05	0.01502582	0.005579021	0.0001121125	-0.0001143681
	6.053956e-05	-1.631554e-05	-0.03094731	-0.02505872	0.0005229811	0.0004867489	0.01476561	0.006302393
	0.01502582	0.005579021	0.0005229811	0.0004867489	-0.03029774	-0.02696249	6.119256e-05	-2.86679e-05
	0.0001121125	-0.0001143681	0.01476561	0.006302393	6.119256e-05	-2.86679e-05	-0.03115438	-0.02487057
2.8e+08	-0.03661571	-0.02346108	5.347629e-05	-2.75954e-05	0.01580619	0.003402064	9.404308e-05	-0.0001272054
	5.347629e-05	-2.75954e-05	-0.03715357	-0.0213598	0.0006188033	0.0004120468	0.01564255	0.0042305
	0.01580619	0.003402064	0.0006188033	0.0004120468	-0.03678423	-0.02353182	5.21622e-05	-3.97847e-05
	9.404308e-05	-0.0001272054	0.01564255	0.0042305	5.21622e-05	-3.97847e-05	-0.03737382	-0.02111885
2.9e+08	-0.04172659	-0.01823954	4.434724e-05	-3.614983e-05	0.01582493	0.001100405	7.455094e-05	-0.0001373875
	4.434724e-05	-3.614983e-05	-0.04196335	-0.0159334	0.0007080762	0.0003164605	0.01578485	0.00200152
	0.01582493	0.001100405	0.0007080762	0.0003164605	-0.04194235	-0.01828045	4.110547e-05	-4.791941e-05
	7.455094e-05	-0.0001373875	0.01578485	0.00200152	4.110547e-05	-4.791941e-05	-0.04218179	-0.01563705
3e+08	-0.04501799	-0.01172146	3.424751e-05	-4.165421e-05	0.01508457	-0.001076593	5.400807e-05	-0.0001447482
	3.424751e-05	-4.165421e-05	-0.04490759	-0.009309883	0.000784727	0.0001984715	0.01518379	-0.0001432204
	0.01508457	-0.001076593	0.000784727	0.0001984715	-0.04527131	-0.01171878	2.912915e-05	-5.273222e-05
	5.400807e-05	-0.0001447482	0.01518379	-0.0001432204	2.912915e-05	-5.273222e-05	-0.04510908	-0.008960459
3.1e+08	-0.04617923	-0.004541677	2.426148e-05	-4.424834e-05	0.01366624	-0.002894513	3.280974e-05	-0.000149174
	2.426148e-05	-4.424834e-05	-0.04570919	-0.002136583	0.0008414478	5.903742e-05	0.01390694	-0.001973412
	0.01366624	-0.002894513	0.0008414478	5.903742e-05	-0.04645657	-0.004485062	1.734863e-05	-5.433888e-05
	3.280974e-05	-0.000149174	0.01390694	-0.001973412	1.734863e-05	-5.433888e-05	-0.04588003	-0.001741202
3.2e+08	-0.04511372	0.002602608	1.526562e-05	-4.44753e-05	0.01172046	-0.004157494	1.136551e-05	-0.0001506068
	1.526562e-05	-4.44753e-05	-0.04430825	0.004888125	0.0008708923	-9.790618e-05	0.01209025	-0.003292722
	0.01172046	-0.004157494	0.0008708923	-9.790618e-05	-0.04539882	0.002719041	6.695215e-06	-5.326216e-05
	1.136551e-05	-0.0001506068	0.01209025	-0.003292722	6.695215e-06	-5.326216e-05	-0.04443769	0.005318271
3.3e+08	-0.04194649	0.009021151	7.781713e-06	-4.314102e-05	0.009451238	-0.004727587	-9.909081e-06	-0.0001490457
	7.781713e-06	-4.314102e-05	-0.04086587	0.01108481	0.0008669958	-0.0002655413	0.009923764	-0.003957985
	0.009451238	-0.004727587	0.0008669958	-0.0002655413	-0.04222179	0.009198125	-2.233107e-06	-5.030523e-05
	-9.909081e-06	-0.0001490457	0.009923764	-0.003957985	-2.233107e-06	-5.030523e-05	-0.04094721	0.01153558
3.4e+08	-0.03701027	0.0140985	1.90873e-06	-4.112568e-05	0.00709531	-0.004538259	-3.059993e-05	-0.0001445477
	1.90873e-06	-4.112568e-05	-0.0357463	0.01586026	0.0008261387	-0.0004348445	0.007632382	-0.003893058
	0.00709531	-0.004538259	0.0008261387	-0.0004348445	-0.03725858	0.01433135	-9.248941e-06	-4.637452e-05
	-3.059993e-05	-0.0001445477	0.007632382	-0.003893058	-9.248941e-06	-4.637452e-05	-0.03577774	0.01631602
3.5e+08	-0.03081173	0.01735414	-2.653585e-06	-3.918729e-05	0.004898325	-0.003600965	-5.03015e-05	-0.0001372264
	-2.653585e-06	-3.918729e-05	-0.02947964	0.01876582	0.0007479186	-0.0005957064	0.005453381	-0.003096225
	0.004898325	-0.003600965	0.0007479186	-0.0005957064	-0.0310178	0.01763307	-1.456596e-05	-4.228951e-05
	-5.03015e-05	-0.0001372264	0.005453381	-0.003096225	-1.456596e-05	-4.228951e-05	-0.02946446	0.01921105
3.6e+08	-0.02398092	0.01848938	-6.49649e-06	-3.779748e-05	0.003090107	-0.002004198	-6.862377e-05	-0.0001272533
	-6.49649e-06	-3.779748e-05	-0.02270837	0.01954133	0.0006353672	-0.0007382896	0.003612737	-0.001640509
	0.003090107	-0.002004198	0.0006353672	-0.0007382896	-0.024133	0.01880024	-1.870698e-05	-3.861753e-05
	-6.862377e-05	-0.0001272533	0.003612737	-0.001640509	-1.870698e-05	-3.861753e-05	-0.02265472	0.01996226
3.7e+08	-0.0172088	0.01741647	-1.033142e-05	-3.704453e-05	0.001861202	9.499949e-05	-8.520065e-05	-0.0001148571
	-1.033142e-05	-3.704453e-05	-0.01612308	0.0181405	0.0004945712	-0.0008543498	0.002302251	0.0003332841
	0.001861202	9.499949e-05	0.0004945712	-0.0008543498	-0.0172999	0.01774191	-2.2348e-05	-3.556841e-05
	-8.520065e-05	-0.0001148571	0.002302251	0.0003332841	-2.2348e-05	-3.556841e-05	-0.01604318	0.01852659
3.8e+08	-0.01117875	0.01426695	-1.479312e-05	-3.662514e-05	0.001342946	0.002486522	-9.970012e-05	-0.0001003229
	-1.479312e-05	-3.662514e-05	-0.01039332	0.01473504	0.0003337683	-0.0009382633	0.001659702	0.002630384
	0.001342946	0.002486522	0.0003337683	-0.0009382633	-0.01120741	0.01458804	-2.61313e-05	-3.297117e-05
	-9.970012e-05	-0.0001003229	0.001659702	0.002630384	-2.61313e-05	-3.297117e-05	-0.01030227	0.01508016
3.9e+08	-0.006498588	0.009378441	-2.025977e-05	-3.592866e-05	0.001593168	0.00492844	-0.0001118358	-8.398828e-05
	-2.025977e-05	-3.592866e-05	-0.00610055	0.009697083	0.0001621056	-0.0009875602	0.001754086	0.005021662
	0.001593168	0.00492844	0.0001621056	-0.0009875602	-0.006469302	0.009676392	-3.048813e-05	-3.033995e-05
	-0.0001118358	-8.398828e-05	0.001754086	0.005021662	-3.048813e-05	-3.033995e-05	-0.006014783	0.01000024
4e+08	-0.003640149	0.003260698	-2.673173e-05	-3.419768e-05	0.002589264	0.007172063	-0.0001213782	-6.623474e-05
	-2.673173e-05	-3.419768e-05	-0.003679844	0.003561357	-1.168093e-05	-0.001002867	0.002577726	0.007267261
	0.002589264	0.007172063	-1.168093e-05	-0.001002867	-0.003563073	0.003518757	-3.551149e-05	-2.70163e-05
	-0.0001213782	-6.623474e-05	0.002577726	0.007267261	-3.551149e-05	-2.70163e-05	-0.003615412	0.003826903
4.1e+08	-0.002892341	-0.003455594	-3.379961e-05	-3.072933e-05	0.004229723	0.008988282	-0.0001281639	-4.747656e-05
	-3.379961e-05	-3.072933e-05	-0.003376402	-0.003029108	-0.0001803974	-0.0009872926	0.004046421	0.009141858
	0.004229723	0.008988282	-0.0001803974	-0.0009872926	-0.0027825	-0.00325045	-4.091062e-05	-2.235629e-05
	-0.0001281639	-4.747656e-05	0.004046421	0.009141858	-4.091062e-05	-2.235629e-05	-0.003347275	-0.002791793
4.2e+08	-0.004332782	-0.01008223	-4.07121e-05	-2.507042e-05	0.0063443	0.01019228	-0.0001321012	-2.814632e-05
	-4.07121e-05	-2.507042e-05	-0.005221495	-0.009388242	-0.000339102	-0.0009454014	0.006007928	0.01045877
	0.0063443	0.01019228	-0.000339102	-0.0009454014	-0.004208729	-0.009937887	-4.606009e-05	-1.591895e-05
	-0.0001321012	-2.814632e-05	0.006007928	0.01045877	-4.606009e-05	-1.591895e-05	-0.005238027	-0.009165657
4.3e+08	-0.007820849	-0.0159425	-4.653027e-05	-1.715937e-05	0.008711924	0.01066373	-0.0001331707	-8.680167e-06
	-4.653027e-05	-1.715937e-05	-0.009030316	-0.01485637	-0.0004852613	-0.0008820301	0.008258035	0.01109009
	0.008711924	0.01066373	-0.0004852613	-0.0008820301	-0.007702926	-0.01586079	-5.013414e-05	-7.610315e-06
	-0.0001331707	-8.680167e-06	0.008258035	0.01109009	-5.013414e-05	-7.610315e-06	-0.009098054	-0.01463222
4.4e+08	-0.01301284	-0.02043873	-5.033252e-05	-7.378499e-06	0.01108441	0.01035993	-0.0001314227	1.04959e-05
	-5.033252e-05	-7.378499e-06	-0.01442189	-0.01886649	-0.0006183491	-0.000801204	0.01056248	0.01098035
	0.01108441	0.01035993	-0.0006183491	-0.000801204	-0.01292121	-0.02041506	-5.229487e-05	2.253427e-06
	-0.0001314227	1.04959e-05	0.01056248	0.01098035	-5.229487e-05	2.253427e-06	-0.01454088	-0.01862338
4.5e+08	-0.01939746	-0.02311122	-5.142149e-05	3.496719e-06	0.0132132	0.009320361	-0.0001269722	2.897782e-05
	-5.142149e-05	3.496719e-06	-0.02085873	-0.02100057	-0.0007390088	-0.0007054079	0.0126821	0.01015222
	0.0132132	0.009320361	-0.0007390088	-0.0007054079	-0.0193501	-0.02313491	-5.188904e-05	1.297957e-05
	-0.0001269722	2.897782e-05	0.0126821	0.01015222	-5.188904e-05	1.297957e-05	-0.02102341	-0.02072184
4.6e+08	-0.02634774	-0.02368292	-4.948265e-05	1.443983e-05	0.01487605	0.00766211	-0.0001199908	4.639288e-05
	-4.948265e-05	1.443983e-05	-0.02770197	-0.0210302	-0.0008479992	-0.0005953609	0.01439836	0.008703471
	0.01487605	0.00766211	-0.0008479992	-0.0005953609	-0.02635862	-0.02373807	-4.860485e-05	2.362104e-05
	-0.0001199908	4.639288e-05	0.01439836	0.008703471	-4.860485e-05	2.362104e-05	-0.02790164	-0.02070172
4.7e+08	-0.03318387	-0.02208524	-4.465901e-05	2.437246e-05	0.01590043	0.005566859	-0.0001107001	6.240777e-05
	-4.465901e-05	2.437246e-05	-0.03427578	-0.0189376	-0.0009451834	-0.0004703337	0.0155361	0.006795891
