!$
! Info: Touchstone file created by Circ.  Input file=Tx_12in_Rx_85ohms_TxVia_35mils_RxVia_45mils.circ
!$
# Hz S RI R 50
0	0.009692789	1.470795e-25	-6.476589e-05	3.742953e-24	8.37267e-05	1.808819e-23	-6.474651e-05	1.4108e-24
	-6.476592e-05	3.746296e-24	0.009691091	1.802756e-25	-6.477694e-05	5.277166e-24	8.358992e-05	2.191786e-23
	8.354102e-05	1.801226e-23	-6.477692e-05	5.274333e-24	0.009703444	1.470539e-25	-6.476282e-05	3.594828e-24
	-6.474654e-05	1.413422e-24	8.174192e-05	2.202579e-23	-6.476284e-05	3.59694e-24	0.009704202	1.689123e-25
1e+07	0.01213423	-0.01153978	-0.0001368639	-2.59985e-05	0.0004504062	0.002199694	-9.98176e-06	-2.131922e-06
	-0.0001368639	-2.59985e-05	0.01215953	-0.01154669	-4.099865e-05	9.849787e-05	0.0004466586	0.00220586
	0.0004504008	0.002199696	-4.099865e-05	9.849787e-05	0.01219072	-0.01151944	-0.0001368637	-2.599939e-05
	-9.981755e-06	-2.131923e-06	0.0004465982	0.00220587	-0.0001368637	-2.599939e-05	0.01213546	-0.01153156
2e+07	0.01084101	-0.02606778	-0.0001234998	2.879039e-05	0.001313594	0.004168741	-9.401609e-06	-1.892169e-05
	-0.0001234998	2.879039e-05	0.0108158	-0.02608405	-4.063605e-05	0.0001325448	0.001299592	0.004184302
	0.001313595	0.004168745	-4.063605e-05	0.0001325448	0.01089417	-0.02604272	-0.0001234939	2.874636e-05
	-9.401608e-06	-1.89217e-05	0.001299585	0.004184337	-0.0001234939	2.874636e-05	0.01080204	-0.02604274
3e+07	0.004765317	-0.04083192	-0.0001208225	2.82715e-05	0.00261413	0.005827969	-2.418989e-05	-2.038699e-05
	-0.0001208225	2.82715e-05	0.004671086	-0.04082763	-1.933055e-05	0.0001563667	0.002585075	0.005858422
	0.002614132	0.005827969	-1.933055e-05	0.0001563667	0.004820296	-0.04079461	-0.0001208191	2.819378e-05
	-2.41899e-05	-2.038699e-05	0.002585075	0.005858428	-0.0001208191	2.819378e-05	0.004664054	-0.04077033
4e+07	-0.005190163	-0.05383381	-0.0001186657	3.322597e-05	0.004257754	0.007084072	-3.60185e-05	-1.598644e-05
	-0.0001186657	3.322597e-05	-0.005365099	-0.05378024	1.304359e-05	0.0001627899	0.004211128	0.007136587
	0.004257754	0.00708407	1.304359e-05	0.0001627899	-0.005130195	-0.05378483	-0.0001186747	3.3104e-05
	-3.60185e-05	-1.598644e-05	0.004211122	0.007136585	-0.0001186747	3.3104e-05	-0.005367936	-0.05370918
5e+07	-0.01818862	-0.06406555	-0.0001162398	4.088691e-05	0.006125695	0.007869731	-4.514165e-05	-8.035722e-06
	-0.0001162398	4.088691e-05	-0.01844678	-0.06393115	4.759144e-05	0.0001498581	0.00606173	0.007952344
	0.006125695	0.00786973	4.759144e-05	0.0001498581	-0.01812191	-0.06400697	-0.0001162787	4.071365e-05
	-4.514165e-05	-8.035722e-06	0.006061726	0.007952343	-0.0001162787	4.071365e-05	-0.01844749	-0.06384658
6e+07	-0.03331152	-0.07086369	-0.0001129084	5.019852e-05	0.008087439	0.008152016	-5.148272e-05	2.441011e-06
	-0.0001129084	5.019852e-05	-0.03364493	-0.07061674	7.570645e-05	0.0001184319	0.008009289	0.008272684
	0.00808744	0.008152016	7.570645e-05	0.0001184319	-0.03323751	-0.07079794	-0.0001130004	4.997421e-05
	-5.148272e-05	2.441011e-06	0.008009291	0.008272683	-0.0001130004	4.997421e-05	-0.03364491	-0.07051781
7e+07	-0.04957595	-0.07384827	-0.0001082039	6.044614e-05	0.0100116	0.007933341	-5.480598e-05	1.477188e-05
	-0.0001082039	6.044614e-05	-0.04996643	-0.07346025	8.968147e-05	7.210053e-05	0.009925209	0.008099017
	0.0100116	0.007933341	8.968147e-05	7.210053e-05	-0.04949506	-0.07377765	-0.0001083748	6.018106e-05
	-5.480598e-05	1.477188e-05	0.009925216	0.008099013	-0.0001083748	6.018106e-05	-0.04996625	-0.07334548
8e+07	-0.06598182	-0.07290502	-0.0001018459	7.099354e-05	0.01177544	0.007249122	-5.475539e-05	2.838713e-05
	-0.0001018459	7.099354e-05	-0.06640237	-0.07235352	8.335525e-05	1.671034e-05	0.01168919	0.007464905
	0.01177544	0.007249121	8.335525e-05	1.671034e-05	-0.06589519	-0.07283139	-0.0001021194	7.070915e-05
	-5.475539e-05	2.838713e-05	0.0116892	0.007464898	-0.0001021194	7.070915e-05	-0.06640167	-0.0722212
9e+07	-0.08156529	-0.06816804	-9.374729e-05	8.124763e-05	0.01327291	0.006163139	-5.077361e-05	4.275208e-05
	-9.374729e-05	8.124763e-05	-0.08198211	-0.06743908	5.22218e-05	-4.049685e-05	0.013197	0.006431551
	0.01327291	0.006163138	5.22218e-05	-4.049685e-05	-0.08147446	-0.06809261	-9.414061e-05	8.097571e-05
	-5.077361e-05	4.275208e-05	0.01319701	0.006431545	-9.414061e-05	8.097571e-05	-0.08197972	-0.06728765
1e+08	-0.09545254	-0.05999608	-8.402002e-05	9.069851e-05	0.01442279	0.004762436	-4.084279e-05	5.773686e-05
	-8.402002e-05	9.069851e-05	-0.09582739	-0.0590857	-1.11098e-05	-9.362955e-05	0.01436847	0.005082858
	0.01442279	0.004762436	-1.11098e-05	-9.362955e-05	-0.09535894	-0.05991925	-8.454078e-05	9.047829e-05
	-4.084279e-05	5.773686e-05	0.01436847	0.005082858	-8.454078e-05	9.047829e-05	-0.09582164	-0.05891419
1.1e+08	-0.1068947	-0.04892402	-7.301157e-05	9.881512e-05	0.01516558	0.003130931	-2.576286e-05	6.386402e-05
	-7.301157e-05	9.881512e-05	-0.1071873	-0.04784156	-8.462445e-05	-0.0001534921	0.01514427	0.003498971
	0.01516558	0.003130931	-8.462445e-05	-0.0001534921	-0.1067994	-0.04884832	-7.365158e-05	9.86882e-05
	-2.576286e-05	6.386402e-05	0.01514427	0.003498971	-7.365158e-05	9.86882e-05	-0.1071753	-0.04764931
1.2e+08	-0.1152907	-0.03564659	-6.083329e-05	0.0001053473	0.01545406	0.001387854	-1.286666e-05	6.659637e-05
	-6.083329e-05	0.0001053473	-0.1154651	-0.03441145	-0.000165358	-0.0001867717	0.01547587	0.00179611
	0.01545406	0.001387854	-0.000165358	-0.0001867717	-0.1151971	-0.03557131	-6.156769e-05	0.0001053545
	-1.286666e-05	6.659637e-05	0.01547587	0.00179611	-6.156769e-05	0.0001053545	-0.1154436	-0.03419852
1.3e+08	-0.1202457	-0.02097003	-4.790158e-05	0.0001101004	0.01528573	-0.0003529643	-2.075507e-06	6.697811e-05
	-4.790158e-05	0.0001101004	-0.1202708	-0.01961195	-0.0002529624	-0.0001932997	0.01535887	8.49843e-05
	0.01528573	-0.0003529642	-0.0002529624	-0.0001932997	-0.1201561	-0.02089358	-4.869224e-05	0.0001102744
	-2.075507e-06	6.697811e-05	0.01535887	8.498432e-05	-4.869224e-05	0.0001102744	-0.1202366	-0.01937961
1.4e+08	-0.1215643	-0.005756522	-3.459832e-05	0.0001130051	0.0146804	-0.0019837	3.393085e-06	6.604004e-05
	-3.459832e-05	0.0001130051	-0.1214167	-0.004314429	-0.0003408205	-0.0001722104	0.01481025	-0.001529154
	0.0146804	-0.0019837	-0.0003408205	-0.0001722104	-0.12148	-0.005676951	-3.539692e-05	0.0001133642
	3.393085e-06	6.604004e-05	0.01481025	-0.001529154	-3.539692e-05	0.0001133642	-0.1213666	-0.004065248
1.5e+08	-0.1192569	0.009120737	-2.13518e-05	0.0001140532	0.01368045	-0.003405454	9.107371e-06	6.467069e-05
	-2.13518e-05	0.0001140532	-0.1189239	0.01060093	-0.0004214632	-0.0001246129	0.01386881	-0.002949168
	0.01368045	-0.003405454	-0.0004214632	-0.0001246129	-0.1191784	0.009205429	-2.210569e-05	0.0001145998
	9.107371e-06	6.467069e-05	0.01386881	-0.002949168	-2.210569e-05	0.0001145998	-0.1188555	0.01086316
1.6e+08	-0.1135342	0.02282283	-8.513621e-06	0.0001133791	0.01234854	-0.004532113	1.489973e-05	6.277365e-05
	-8.513621e-06	0.0001133791	-0.1130158	0.02429121	-0.0004878283	-5.382591e-05	0.0125931	-0.004089683
	0.01234854	-0.004532113	-0.0004878283	-5.382591e-05	-0.1134615	0.02291454	-9.170938e-06	0.0001140982
	1.489973e-05	6.277365e-05	0.0125931	-0.004089683	-9.170938e-06	0.0001140982	-0.1129278	0.02456172
1.7e+08	-0.104793	0.03458787	3.633002e-06	0.0001111971	0.0107647	-0.005293899	2.062882e-05	6.030258e-05
	3.633002e-06	0.0001111971	-0.104103	0.03599398	-0.0005341217	3.486647e-05	0.01105881	-0.004880508
	0.0107647	-0.005293899	-0.0005341217	3.486647e-05	-0.1047257	0.0346883	3.116944e-06	0.0001120569
	2.062882e-05	6.030258e-05	0.01105881	-0.004880508	3.116944e-06	0.0001120569	-0.1039955	0.03626747
1.8e+08	-0.09359385	0.0437698	1.489096e-05	0.0001077764	0.00902297	-0.00564062	2.617103e-05	5.724675e-05
	1.489096e-05	0.0001077764	-0.09275988	0.04506653	-0.0005564436	0.0001347314	0.009355768	-0.005269828
	0.00902297	-0.00564062	-0.0005564436	0.0001347314	-0.09353101	0.04388044	1.454791e-05	0.0001087319
	2.617103e-05	5.724675e-05	0.009355768	-0.005269828	1.454791e-05	0.0001087319	-0.09263465	0.0453376
1.9e+08	-0.08063072	0.04987213	2.516057e-05	0.0001034116	0.007227373	-0.005544587	3.141776e-05	5.362222e-05
	2.516057e-05	0.0001034116	-0.07969357	0.05101945	-0.0005531768	0.000238283	0.007584196	-0.005227163
	0.007227373	-0.005544587	-0.0005531768	0.000238283	-0.08057129	0.04999417	2.500505e-05	0.0001044099
	3.141776e-05	5.362222e-05	0.007584196	-0.005227163	2.500505e-05	0.0001044099	-0.07955403	0.05128315
2e+08	-0.06669441	0.05257495	3.444214e-05	9.838942e-05	0.005487076	-0.005003001	3.627484e-05	4.946547e-05
	3.444214e-05	9.838942e-05	-0.06570602	0.05354355	-0.0005251106	0.0003380699	0.005850232	-0.004745885
	0.005487076	-0.005003	-0.0005251106	0.0003380699	-0.06663701	0.05270929	3.446933e-05	9.937679e-05
	3.627484e-05	4.946547e-05	0.005850232	-0.004745885	3.446933e-05	9.937679e-05	-0.06555705	0.05379585
2.1e+08	-0.05262972	0.05175389	4.282738e-05	9.29543e-05	0.0039107	-0.004039481	4.066233e-05	4.482869e-05
	4.282738e-05	9.29543e-05	-0.05165034	0.05252823	-0.0004752872	0.0004274676	0.004260492	-0.003844958
	0.0039107	-0.004039481	-0.0004752872	0.0004274676	-0.0525728	0.05190105	4.301381e-05	9.388309e-05
	4.066233e-05	4.482869e-05	0.004260492	-0.003844958	4.301381e-05	9.388309e-05	-0.051498	0.05276641
2.2e+08	-0.03928849	0.04748918	5.047794e-05	8.727643e-05	0.002599837	-0.0027043	4.451462e-05	3.977583e-05
	5.047794e-05	8.727643e-05	-0.03838297	0.04806977	-0.0004085814	0.0005013785	0.002915815	-0.002569458
	0.002599837	-0.0027043	-0.0004085814	0.0005013785	-0.0392304	0.04764929	5.078493e-05	8.81123e-05
	4.451462e-05	3.977583e-05	0.002915815	-0.002569458	5.078493e-05	8.81123e-05	-0.03823413	0.04829282
2.3e+08	-0.02748044	0.04006363	5.759141e-05	8.142915e-05	0.00164214	-0.001072866	4.778042e-05	3.437933e-05
	5.759141e-05	8.142915e-05	-0.02671387	0.04046831	-0.000331057	0.0005567501	0.001904479	-0.0009893927
	0.00164214	-0.001072866	-0.000331057	0.0005567501	-0.02741953	0.04023635	5.79711e-05	8.215618e-05
	4.778042e-05	3.437933e-05	0.001904479	-0.0009893927	5.79711e-05	8.215618e-05	-0.02657574	0.04067705
2.4e+08	-0.01792468	0.02994844	6.435867e-05	7.538058e-05	0.001104535	0.0007578369	5.042282e-05	2.871756e-05
	6.435867e-05	7.538058e-05	-0.01735774	0.03021244	-0.0002491657	0.0005928401	0.001295476	0.0008034901
	0.001104535	0.000757837	-0.0002491657	0.0005928401	-0.01785943	0.030133	6.476194e-05	7.600391e-05
	5.042282e-05	2.871756e-05	0.001295476	0.0008034901	6.476194e-05	7.600391e-05	-0.01723736	0.03040966
2.5e+08	-0.01120516	0.01777683	7.091886e-05	6.900402e-05	0.001027333	0.002674962	5.241925e-05	2.287155e-05
	7.091886e-05	6.900402e-05	-0.01088942	0.0179516	-0.0001689036	0.000611171	0.001132553	0.002701032
	0.001027333	0.002674962	-0.0001689036	0.000611171	-0.01113428	0.01797203	7.130386e-05	6.954923e-05
	5.241925e-05	2.287155e-05	0.001132553	0.002701032	7.130386e-05	6.954923e-05	-0.0107931	0.01814199
2.6e+08	-0.007733385	0.004306441	7.732114e-05	6.210762e-05	0.001420013	0.004557394	5.376098e-05	1.692229e-05
	7.732114e-05	6.210762e-05	-0.007706983	0.004457172	-9.502787e-05	0.0006151811	0.001429857	0.004585897
	0.001420013	0.004557394	-9.502787e-05	0.0006151811	-0.007656024	0.004510768	7.766134e-05	6.261671e-05
	5.376098e-05	1.692229e-05	0.001429857	0.004585897	7.766134e-05	6.261671e-05	-0.007639861	0.004647114
2.7e+08	-0.007721837	-0.009627337	8.350182e-05	5.447926e-05	0.002259419	0.006284638	5.44518e-05	1.094781e-05
	8.350182e-05	5.447926e-05	-0.008005809	-0.009425392	-3.046488e-05	0.0006096049	0.002169881	0.006340149
	0.002259419	0.006284638	-3.046488e-05	0.0006096049	-0.007637604	-0.009415618	8.379198e-05	5.500359e-05
	5.44518e-05	1.094781e-05	0.002169881	0.006340149	8.379198e-05	5.500359e-05	-0.007971364	-0.009228134
2.8e+08	-0.01117031	-0.02316403	8.928335e-05	4.59384e-05	0.003490787	0.007746133	5.450633e-05	5.021045e-06
	8.928335e-05	4.59384e-05	-0.01176602	-0.02283017	2.402e-05	0.0005996759	0.00330416	0.007854303
	0.003490787	0.007746133	2.402e-05	0.0005996759	-0.01107937	-0.0229467	8.954252e-05	4.652957e-05
	5.450633e-05	5.021045e-06	0.00330416	0.007854303	8.954252e-05	4.652957e-05	-0.01176573	-0.02261689
2.9e+08	-0.0178668	-0.03547269	9.439594e-05	3.638414e-05	0.005031676	0.00884992	5.394734e-05	-7.917937e-07
	9.439594e-05	3.638414e-05	-0.01875463	-0.03492601	6.981424e-05	0.0005902653	0.004756817	0.00903584
	0.005031676	0.00884992	6.981424e-05	0.0005902653	-0.01776984	-0.03525137	9.466663e-05	3.708407e-05
	5.394734e-05	-7.917937e-07	0.004756817	0.00903584	9.466663e-05	3.708407e-05	-0.01878773	-0.03468759
3e+08	-0.02740276	-0.04580415	9.85184e-05	2.582937e-05	0.006778436	0.009529706	5.280313e-05	-6.431612e-06
	9.85184e-05	2.582937e-05	-0.0285423	-0.04496915	0.0001101174	0.0005851005	0.006430595	0.009816206
	0.006778436	0.009529706	0.0001101174	0.0005851005	-0.02730097	-0.04558018	9.886194e-05	2.666118e-05
	5.280313e-05	-6.431612e-06	0.006430595	0.009816206	9.886194e-05	2.666118e-05	-0.02860566	-0.04469663
3.1e+08	-0.03920162	-0.05353706	0.0001012856	1.443038e-05	0.008614478	0.00974951	5.110551e-05	-1.1846e-05
	0.0001012856	1.443038e-05	-0.04053323	-0.05234899	0.0001542631	0.0005824764	0.008214683	0.01015552
	0.008614478	0.00974951	0.0001542631	0.0005824764	-0.03909652	-0.05331132	0.0001017735	1.539088e-05
	5.110551e-05	-1.1846e-05	0.008214683	0.01015552	0.0001017735	1.539088e-05	-0.04062146	-0.05203417
3.2e+08	-0.05255766	-0.05821406	0.0001023952	2.470018e-06	0.01041937	0.009505494	4.888783e-05	-1.69872e-05
	0.0001023952	2.470018e-06	-0.0540056	-0.05662382	0.0002099677	0.0005765319	0.009993388	0.01004458
	0.01041937	0.009505494	0.0002099677	0.0005765319	-0.05245098	-0.05798694	0.0001030991	3.526478e-06
	4.888783e-05	-1.69872e-05	0.009993388	0.01004458	0.0001030991	3.526478e-06	-0.0541112	-0.05625987
3.3e+08	-0.06668223	-0.05956619	0.0001017587	-9.738688e-06	0.01207774	0.008824971	4.618543e-05	-2.181056e-05
	0.0001017587	-9.738688e-06	-0.06815888	-0.0575442	0.000270528	0.0005719963	0.01165468	0.009504138
	0.01207774	0.008824971	0.000270528	0.0005719963	-0.06657571	-0.05933745	0.0001027409	-8.646655e-06
	4.618543e-05	-2.181056e-05	0.01165468	0.009504138	0.0001027409	-8.646655e-06	-0.06827261	-0.05712622
3.4e+08	-0.0807532	-0.05752421	9.930744e-05	-2.18052e-05	0.01348714	0.007762973	4.303539e-05	-2.627466e-05
	9.930744e-05	-2.18052e-05	-0.08216424	-0.05506317	0.0003390555	0.0005655663	0.01309771	0.008581886
	0.01348714	0.007762973	0.0003390555	0.0005655663	-0.0806484	-0.05729304	0.000100609	-2.076221e-05
	4.303539e-05	-2.627466e-05	0.01309771	0.008581886	0.000100609	-2.076221e-05	-0.08227563	-0.05458862
3.5e+08	-0.09396433	-0.05221712	9.509659e-05	-3.333502e-05	0.01456412	0.006397001	3.947875e-05	-3.034145e-05
	9.509659e-05	-3.333502e-05	-0.09521444	-0.04933343	0.0004170385	0.0005527126	0.0142388	0.007347621
	0.01456412	0.006397001	0.0004170385	0.0005527126	-0.09386244	-0.05198231	9.672949e-05	-3.244196e-05
	3.947875e-05	-3.034145e-05	0.0142388	0.007347621	9.672949e-05	-3.244196e-05	-0.09531242	-0.04880238
3.6e+08	-0.1055711	-0.04395918	8.929387e-05	-4.397193e-05	0.01524844	0.004820744	3.555964e-05	-3.397592e-05
	8.929387e-05	-4.397193e-05	-0.10657	-0.04069281	0.0005040098	0.0005283565	0.01501547	0.005887472
	0.01524844	0.004820744	0.0005040098	0.0005283565	-0.1054729	-0.04371922	9.123543e-05	-4.333467e-05
	3.555964e-05	-3.397592e-05	0.01501547	0.005887472	9.123543e-05	-4.333467e-05	-0.1066435	-0.04010811
3.7e+08	-0.1149308	-0.03322708	8.215551e-05	-5.343025e-05	0.01550517	0.003137452	3.132551e-05	-3.714677e-05
	8.215551e-05	-5.343025e-05	-0.1155989	-0.02963998	0.0005974657	0.0004876299	0.01538868	0.004297769
	0.01550517	0.003137452	0.0005974657	0.0004876299	-0.1148366	-0.03298032	8.43479e-05	-5.314758e-05
	3.132551e-05	-3.714677e-05	0.01538868	0.004297769	8.43479e-05	-5.314758e-05	-0.1156378	-0.02900721
3.8e+08	-0.1215354	-0.02062954	7.399559e-05	-6.151531e-05	0.01532514	0.001453557	2.682715e-05	-3.982759e-05
	7.399559e-05	-6.151531e-05	-0.1218092	-0.01680264	0.0006930566	0.0004265944	0.01534348	0.002679134
	0.01532514	0.001453557	0.0006930566	0.0004265944	-0.1214449	-0.02037431	7.634925e-05	-6.1667e-05
	2.682715e-05	-3.982759e-05	0.01534348	0.002679134	7.634925e-05	-6.1667e-05	-0.1218047	-0.0161299
3.9e+08	-0.1250354	-0.006871386	6.515319e-05	-6.813155e-05	0.01472397	-0.0001271166	2.21178e-05	-4.199763e-05
	6.515319e-05	-6.813155e-05	-0.1248719	-0.002900455	0.0007850044	0.0003428433	0.01488828	0.001131106
	0.01472397	-0.0001271166	0.0007850044	0.0003428433	-0.1249479	-0.006606173	6.755427e-05	-6.876823e-05
	2.21178e-05	-4.199763e-05	0.01488828	0.001131106	6.755427e-05	-6.876823e-05	-0.1248172	-0.002197987
4e+08	-0.1252553	0.007285515	5.596156e-05	-7.328041e-05	0.01374017	-0.001508383	1.725206e-05	-4.364207e-05
	5.596156e-05	-7.328041e-05	-0.1246355	0.01129509	0.0008666922	0.0002359248	0.01405343	-0.0002525702
	0.01374017	-0.001508383	0.0008666922	0.0002359248	-0.1251698	0.007561962	5.828253e-05	-7.441637e-05
	1.725206e-05	-4.364207e-05	0.01405343	-0.0002525702	5.828253e-05	-7.441637e-05	-0.1245265	0.01201547
4.1e+08	-0.1222007	0.02106298	4.672111e-05	-7.70504e-05	0.01243257	-0.002605985	1.228489e-05	-4.475184e-05
	4.672111e-05	-7.70504e-05	-0.1211313	0.02500211	0.0009313537	0.0001075431	0.01288906	-0.001388019
	0.01243257	-0.002605985	0.0009313537	0.0001075431	-0.1221156	0.02135157	4.883339e-05	-7.86604e-05
	1.228489e-05	-4.475184e-05	0.01288906	-0.001388019	4.883339e-05	-7.86604e-05	-0.1209668	0.02572764
4.2e+08	-0.1160555	0.03370704	3.76771e-05	-7.960128e-05	0.01087719	-0.003351254	7.270815e-06	-4.532294e-05
	3.76771e-05	-7.960128e-05	-0.1145701	0.03746924	0.0009727889	-3.847409e-05	0.01146255	-0.002204799
	0.01087719	-0.003351254	0.0009727889	-3.847409e-05	-0.1159694	0.03400828	3.946421e-05	-8.162174e-05
	7.270815e-06	-4.532294e-05	0.01146255	-0.002204799	3.946421e-05	-8.162174e-05	-0.1143522	0.038187
4.3e+08	-0.1071726	0.04452705	2.900236e-05	-8.114349e-05	0.009163864	-0.003694234	2.263767e-06	-4.535574e-05
	2.900236e-05	-8.114349e-05	-0.1053304	0.04801493	0.0009860344	-0.0001964354	0.009855575	-0.002649064
	0.009163864	-0.003694234	0.0009860344	-0.0001964354	-0.1070836	0.04484103	3.037215e-05	-8.34782e-05
	2.263767e-06	-4.535574e-05	0.009855575	-0.002649064	3.037215e-05	-8.34782e-05	-0.1050642	0.0487126
4.4e+08	-0.09605513	0.0529319	2.078548e-05	-8.191339e-05	0.00739221	-0.003606344	-2.682583e-06	-4.485436e-05
	2.078548e-05	-8.191339e-05	-0.09393876	0.05606335	0.000967917	-0.0003592515	0.008160689	-0.00268639
	0.00739221	-0.003606344	0.000967917	-0.0003592515	-0.09596169	0.05325826	2.167989e-05	-8.444312e-05
	-2.682583e-06	-4.485436e-05	0.008160689	-0.00268639	2.167989e-05	-8.444312e-05	-0.09363242	0.05673001
4.5e+08	-0.08333126	0.05846194	1.302591e-05	-8.214486e-05	0.005667159	-0.003082498	-7.514201e-06	-4.382673e-05
	1.302591e-05	-8.214486e-05	-0.08104284	0.06117577	0.0009174361	-0.0005190594	0.006477261	-0.002304179
	0.005667159	-0.003082498	0.0009174361	-0.0005190594	-0.08323174	0.05879991	1.342699e-05	-8.473999e-05
	-7.514201e-06	-4.382673e-05	0.006477261	-0.002304179	1.342699e-05	-8.473999e-05	-0.08070718	0.06180261
4.6e+08	-0.06972182	0.06081532	5.637925e-06	-8.203846e-05	0.004093767	-0.0021425	-1.217608e-05	-4.228519e-05
	5.637925e-06	-8.203846e-05	-0.06737772	0.0630759	0.0008359242	-0.0006679478	0.004906689	-0.001513442
	0.004093767	-0.0021425	0.0008359242	-0.0006679478	-0.06961482	0.06116373	5.569224e-06	-8.457322e-05
	-1.217608e-05	-4.228519e-05	0.004906689	-0.001513442	5.569224e-06	-8.457322e-05	-0.0670256	0.06365686
4.7e+08	-0.05600214	0.05986687	-1.534175e-06	-8.173094e-05	0.002771397	-0.000831394	-1.661205e-05	-4.024765e-05
	-1.534175e-06	-8.173094e-05	-0.05372662	0.06166753	0.0007269646	-0.0007987063	0.003546869	-0.0003496326
	0.002771397	-0.000831394	0.0007269646	-0.0007987063	-0.05588655	0.06022416	-2.011388e-06	-8.40975e-05
	-1.661205e-05	-4.024765e-05	0.003546869	-0.0003496326	-2.011388e-06	-8.40975e-05	-0.05337227	0.06219977
4.8e+08	-0.04295959	0.05567824	-8.6894e-06	-8.127002e-05	0.001787463	0.0007815767	-2.076538e-05	-3.773925e-05
