!$
! Info: Touchstone file created by Circ.  Input file=Tx_16in_Rx_85ohms_TxVia_35mils_RxVia_45mils.circ
!$
# Hz S RI R 50
0	0.01283596	1.865018e-25	7.306109e-10	2.299865e-27	0.0001046146	2.398795e-23	3.59679e-10	5.293779e-28
	7.30611e-10	2.299844e-27	0.01283423	2.299237e-25	2.473056e-09	8.672652e-27	0.000104481	2.906805e-23
	0.0001044292	2.388725e-23	2.473056e-09	8.67266e-27	0.01284648	1.864592e-25	7.326e-10	2.461348e-27
	3.59679e-10	5.293721e-28	0.0001026324	2.921109e-23	7.326005e-10	2.461366e-27	0.01284729	2.15442e-25
1e+07	0.01533698	-0.01600517	9.670429e-10	1.305232e-09	0.0007010646	0.002817218	6.70341e-10	5.617852e-10
	9.670429e-10	1.305232e-09	0.01536971	-0.01601508	3.346927e-09	6.865544e-09	0.0006965363	0.00282596
	0.0007010591	0.002817219	3.346927e-09	6.865544e-09	0.01540708	-0.01598374	9.473776e-10	1.337305e-09
	6.70341e-10	5.617851e-10	0.0006964755	0.002825971	9.473775e-10	1.337305e-09	0.0153335	-0.01599614
2e+07	0.01123976	-0.03540986	1.335434e-09	2.190534e-09	0.002124804	0.00518505	1.072034e-09	7.660394e-10
	1.335434e-09	2.190534e-09	0.01120518	-0.03542706	3.907624e-09	1.22932e-08	0.002108469	0.005207635
	0.002124805	0.005185054	3.907624e-09	1.22932e-08	0.01130501	-0.03538687	1.254422e-09	2.278894e-09
	1.072034e-09	7.660394e-10	0.002108461	0.005207671	1.254422e-09	2.278894e-09	0.01118466	-0.03537575
3e+07	-0.000533176	-0.05350403	1.645437e-09	2.927003e-09	0.004195313	0.006907422	1.4717e-09	7.261436e-10
	1.645437e-09	2.927003e-09	-0.0006530506	-0.05348178	3.908117e-09	1.785661e-08	0.004163322	0.006952211
	0.004195315	0.006907421	3.908117e-09	1.785661e-08	-0.0004656176	-0.05347019	1.484564e-09	3.115237e-09
	1.4717e-09	7.261436e-10	0.004163322	0.006952217	1.484564e-09	3.115237e-09	-0.000662638	-0.0534122
4e+07	-0.0179058	-0.06696618	1.898412e-09	3.534654e-09	0.006654158	0.007823385	1.772394e-09	4.729907e-10
	1.898412e-09	3.534654e-09	-0.0181137	-0.0668606	3.726794e-09	2.373515e-08	0.006607144	0.007900338
	0.006654158	0.007823384	3.726794e-09	2.373515e-08	-0.01783228	-0.06692316	1.662645e-09	3.873449e-09
	1.772394e-09	4.729907e-10	0.006607139	0.007900337	1.662645e-09	3.873449e-09	-0.01811549	-0.06677586
5e+07	-0.0386707	-0.07421532	2.04503e-09	4.028963e-09	0.009204407	0.00787045	1.882479e-09	6.012377e-11
	2.04503e-09	4.028963e-09	-0.03895141	-0.07398402	3.58082e-09	2.996581e-08	0.009147905	0.007989069
	0.009204407	0.00787045	3.58082e-09	2.996581e-08	-0.03859015	-0.07416644	1.763922e-09	4.563441e-09
	1.882479e-09	6.012375e-11	0.009147901	0.007989068	1.763922e-09	4.563441e-09	-0.03894756	-0.07388452
6e+07	-0.06047102	-0.07459665	2.033003e-09	4.454087e-09	0.01155526	0.007090663	1.740905e-09	-4.22432e-10
	2.033003e-09	4.454087e-09	-0.06079209	-0.07420556	3.665916e-09	3.652342e-08	0.01149923	0.007257892
	0.01155526	0.007090663	3.665916e-09	3.652342e-08	-0.06038438	-0.07454515	1.755534e-09	5.214226e-09
	1.740905e-09	-4.22432e-10	0.01149923	0.007257891	1.755534e-09	5.214226e-09	-0.06078339	-0.07409039
7e+07	-0.08100277	-0.06827373	1.825695e-09	4.881995e-09	0.01345749	0.005616127	1.326853e-09	-8.683736e-10
	1.825695e-09	4.881995e-09	-0.08131877	-0.06770353	4.155515e-09	4.330597e-08	0.01341504	0.005834609
	0.01345749	0.005616127	4.155516e-09	4.330597e-08	-0.08091236	-0.0682219	1.612731e-09	5.876672e-09
	1.326853e-09	-8.683736e-10	0.01341505	0.005834605	1.612731e-09	5.876672e-09	-0.08130455	-0.06757156
8e+07	-0.09822687	-0.05612006	1.418345e-09	5.405954e-09	0.01472736	0.003644599	6.602715e-10	-1.170691e-09
	1.418345e-09	5.405954e-09	-0.09848587	-0.05537041	5.171901e-09	5.014044e-08	0.0147129	0.003911514
	0.01472736	0.003644598	5.171901e-09	5.014044e-08	-0.09813565	-0.05606883	1.334177e-09	6.619941e-09
	6.602717e-10	-1.170692e-09	0.01471291	0.003911507	1.334177e-09	6.619942e-09	-0.09846419	-0.05522107
9e+07	-0.110545	-0.03957104	8.501828e-10	6.12473e-09	0.01525876	0.001411784	-2.011931e-10	-1.23476e-09
	8.501828e-10	6.12473e-09	-0.1106961	-0.03866206	6.758676e-09	5.680609e-08	0.01528577	0.001718445
	0.01525877	0.001411783	6.758676e-09	5.680609e-08	-0.1104559	-0.03952002	9.535303e-10	7.51838e-09
	-2.011929e-10	-1.23476e-09	0.01528578	0.001718439	9.535301e-10	7.518381e-09	-0.1106644	-0.03849598
1e+08	-0.116926	-0.02044549	1.994407e-10	7.12335e-09	0.01502818	-0.0008346421	-1.167357e-09	-9.894179e-10
	1.994407e-10	7.12335e-09	-0.1169266	-0.01941648	8.861558e-09	6.306918e-08	0.0151069	-0.0005023354
	0.01502818	-0.000834642	8.861558e-09	6.306918e-08	-0.116841	-0.02039312	5.343665e-10	8.635226e-09
	-1.167357e-09	-9.894179e-10	0.0151069	-0.0005023354	5.343665e-10	8.635226e-09	-0.1168825	-0.01923581
1.1e+08	-0.1169529	-0.0007378914	-4.008847e-10	8.39724e-09	0.01407502	-0.002875766	-2.128676e-09	-4.010798e-10
	-4.008847e-10	8.39724e-09	-0.1167765	0.0003543929	1.132461e-08	6.872535e-08	0.01421038	-0.002536255
	0.01407502	-0.002875766	1.132461e-08	6.872535e-08	-0.1168745	-0.0006845275	1.869443e-10	9.95319e-09
	-2.128676e-09	-4.010798e-10	0.01421038	-0.002536255	1.869443e-10	9.95319e-09	-0.1167179	0.000546531
1.2e+08	-0.1108376	0.01754071	-8.08847e-10	9.950034e-09	0.0124992	-0.004484848	-2.966578e-09	5.338629e-10
	-8.08847e-10	9.950034e-09	-0.1104794	0.01863256	1.391428e-08	7.367068e-08	0.01268915	-0.004158043
	0.0124992	-0.004484847	1.391428e-08	7.367068e-08	-0.1107681	0.01759893	2.293679e-11	1.146248e-08
	-2.966578e-09	5.338629e-10	0.01268915	-0.004158043	2.293679e-11	1.146248e-08	-0.1104046	0.01883192
1.3e+08	-0.0994089	0.03257105	-9.183217e-10	1.16987e-08	0.01047336	-0.005493765	-3.557974e-09	1.775835e-09
	-9.183217e-10	1.16987e-08	-0.0988866	0.03359707	1.63657e-08	7.786953e-08	0.01070857	-0.005198971
	0.01047336	-0.005493765	1.63657e-08	7.786953e-08	-0.09934844	0.03263806	1.174094e-10	1.308412e-08
	-3.557974e-09	1.775835e-09	0.01070857	-0.005198971	1.174094e-10	1.308412e-08	-0.09879607	0.03379826
1.4e+08	-0.08400085	0.04288973	-6.604596e-10	1.351214e-08	0.008208302	-0.005792316	-3.79341e-09	3.24431e-09
	-6.604596e-10	1.351214e-08	-0.08335605	0.04379116	1.841365e-08	8.138967e-08	0.008472418	-0.005545517
	0.008208302	-0.005792316	1.841365e-08	8.138967e-08	-0.08394803	0.04296892	5.100098e-10	1.470174e-08
	-3.79341e-09	3.24431e-09	0.008472418	-0.005545517	5.100098e-10	1.470174e-08	-0.08325222	0.04398847
1.5e+08	-0.0663276	0.04752297	-2.169349e-11	1.524652e-08	0.00594039	-0.005337945	-3.587514e-09	4.815643e-09
	-2.169349e-11	1.524652e-08	-0.06562294	0.04825631	1.982922e-08	8.43942e-08	0.00621131	-0.005149265
	0.00594039	-0.005337945	1.982922e-08	8.43942e-08	-0.06628001	0.04761685	1.190447e-09	1.619634e-08
	-3.587514e-09	4.815643e-09	0.00621131	-0.005149265	1.190447e-09	1.619634e-08	-0.06551075	0.04844471
1.6e+08	-0.04831896	0.04608143	9.473027e-10	1.676071e-08	0.00391205	-0.004163445	-2.900199e-09	6.336219e-09
	9.473027e-10	1.676071e-08	-0.04763245	0.04662595	2.045232e-08	8.712154e-08	0.004164126	-0.004035131
	0.00391205	-0.004163445	2.045232e-08	8.712154e-08	-0.04827357	0.04619148	2.093084e-09	1.745987e-08
	-2.900199e-09	6.336219e-09	0.004164126	-0.004035131	2.093084e-09	1.745987e-08	-0.04751895	0.04680217
1.7e+08	-0.03193021	0.03880402	2.146265e-09	1.794851e-08	0.002347913	-0.002379228	-1.746187e-09	7.636116e-09
	2.146265e-09	1.794851e-08	-0.0313468	0.03916713	2.021297e-08	8.985481e-08	0.002554816	-0.002304478
	0.002347913	-0.002379228	2.021297e-08	8.985481e-08	-0.03188374	0.03893059	3.114502e-09	1.842432e-08
	-1.746187e-09	7.636116e-09	0.002554816	-0.002304478	3.114502e-09	1.842432e-08	-0.03124046	0.03933049
1.8e+08	-0.01894132	0.02654094	3.448566e-09	1.875311e-08	0.00142853	-0.0001671852	-2.025625e-10	8.549521e-09
	3.448566e-09	1.875311e-08	-0.01854262	0.02676029	1.91392e-08	9.288812e-08	0.001566476	-0.000130033
	0.00142853	-0.0001671852	1.91392e-08	9.288812e-08	-0.01889058	0.02668324	4.138525e-09	1.907183e-08
	-2.025625e-10	8.549521e-09	0.001566476	-0.000130033	4.138525e-09	1.907183e-08	-0.01845224	0.02691326
1.9e+08	-0.01076612	0.01067093	4.725696e-09	1.916657e-08	0.001265532	0.002235892	1.592056e-09	8.93919e-09
	4.725696e-09	1.916657e-08	-0.01061952	0.01081274	1.735339e-08	9.649488e-08	0.001316474	0.002259536
	0.001265532	0.002235892	1.735339e-08	9.649488e-08	-0.01070841	0.01082713	5.060896e-09	1.942928e-08
	1.592056e-09	8.93919e-09	0.001316474	0.002259536	5.060896e-09	1.942928e-08	-0.01055307	0.01096103
2e+08	-0.008295397	-0.007043755	5.863906e-09	1.921788e-08	0.001883381	0.004565021	3.449073e-09	8.720852e-09
	5.863906e-09	1.921788e-08	-0.008444067	-0.006890343	1.506058e-08	1.009013e-07	0.001837755	0.004605233
	0.001883381	0.004565021	1.506058e-08	1.009013e-07	-0.008228838	-0.006876298	5.804191e-09	1.955121e-08
	3.449073e-09	8.720852e-09	0.001837755	0.004605233	5.804191e-09	1.955121e-08	-0.008407446	-0.006738159
2.1e+08	-0.01179652	-0.02465093	6.76838e-09	1.89579e-08	0.003212582	0.00656065	5.152091e-09	7.882119e-09
	6.76838e-09	1.89579e-08	-0.01225173	-0.02438306	1.253212e-08	1.062646e-07	0.003071235	0.006650429
	0.003212582	0.00656065	1.253212e-08	1.062646e-07	-0.01172032	-0.02447534	6.318324e-09	1.950057e-08
	5.152091e-09	7.882119e-09	0.003071235	0.006650429	6.318324e-09	1.950057e-08	-0.01224778	-0.02421634
2.2e+08	-0.02088606	-0.04022719	7.357455e-09	1.84507e-08	0.005097127	0.008003377	6.486389e-09	6.490839e-09
	7.357455e-09	1.84507e-08	-0.02162316	-0.03973994	1.008579e-08	1.126557e-07	0.004872135	0.008174991
	0.005097127	0.008003377	1.008579e-08	1.126557e-07	-0.02080063	-0.0400466	6.569532e-09	1.933732e-08
	6.486389e-09	6.490839e-09	0.004872135	0.008174991	6.569532e-09	1.933732e-08	-0.02165096	-0.03954712
2.3e+08	-0.03458053	-0.05209225	7.55547e-09	1.777624e-08	0.007315599	0.00874304	7.269938e-09	4.690286e-09
	7.55547e-09	1.777624e-08	-0.03553922	-0.05129136	8.061398e-09	1.200442e-07	0.007029782	0.009024182
	0.007315599	0.00874304	8.061398e-09	1.200442e-07	-0.03448739	-0.05190937	6.527172e-09	1.912052e-08
	7.269938e-09	4.690286e-09	0.007029782	0.009024182	6.527172e-09	1.912052e-08	-0.03559386	-0.05106131
2.4e+08	-0.05141748	-0.05899012	7.293978e-09	1.704151e-08	0.009611861	0.008716588	7.379636e-09	2.682058e-09
	7.293978e-09	1.704151e-08	-0.05250664	-0.05780405	6.790119e-09	1.282887e-07	0.009296983	0.00912679
	0.009611861	0.008716588	6.790119e-09	1.282887e-07	-0.05131896	-0.05880681	6.158999e-09	1.892128e-08
	7.379636e-09	2.682058e-09	0.009296983	0.00912679	6.158999e-09	1.892128e-08	-0.05257944	-0.05752745
2.5e+08	-0.06962804	-0.06021424	6.526451e-09	1.639087e-08	0.01172915	0.007952034	6.768097e-09	7.005753e-10
	6.526451e-09	1.639087e-08	-0.0707346	-0.05860402	6.557298e-09	1.37136e-07	0.01142293	0.008499813
	0.01172915	0.007952034	6.557298e-09	1.37136e-07	-0.06952691	-0.06003131	5.44101e-09	1.883698e-08
	6.768097e-09	7.005753e-10	0.01142293	0.008499813	5.44101e-09	1.883698e-08	-0.07081381	-0.05827468
2.6e+08	-0.08733553	-0.05566454	5.2535e-09	1.600477e-08	0.01344119	0.006559293	5.469174e-09	-1.015535e-09
	5.2535e-09	1.600477e-08	-0.08833627	-0.05363013	7.561902e-09	1.462343e-07	0.01318343	0.007240395
	0.01344119	0.006559293	7.561902e-09	1.462343e-07	-0.08723455	-0.0554817	4.379567e-09	1.899535e-08
	5.469174e-09	-1.015535e-09	0.01318343	0.007240395	4.379567e-09	1.899535e-08	-0.08840826	-0.0532459
2.7e+08	-0.102754	-0.04583572	3.548778e-09	1.608053e-08	0.01457567	0.004711436	3.593151e-09	-2.250441e-09
	3.548778e-09	1.608053e-08	-0.1035289	-0.04341805	9.87912e-09	1.551631e-07	0.01440388	0.005508473
	0.01457567	0.004711436	9.87912e-09	1.551631e-07	-0.1026555	-0.04565174	3.036302e-09	1.954114e-08
	3.593151e-09	-2.250441e-09	0.01440388	0.005508473	3.036302e-09	1.954114e-08	-0.1035796	-0.04298145
2.8e+08	-0.1143646	-0.03174536	1.573221e-09	1.679633e-08	0.01502811	0.002621136	1.314151e-09	-2.833398e-09
	1.573221e-09	1.679633e-08	-0.1148106	-0.02902385	1.343439e-08	1.634793e-07	0.01497317	0.003504702
	0.01502811	0.002621136	1.343439e-08	1.634793e-07	-0.1142702	-0.03155833	1.543424e-09	2.060601e-08
	1.314151e-09	-2.833398e-09	0.01497317	0.003504702	1.543424e-09	2.060601e-08	-0.1148269	-0.02854204
2.9e+08	-0.121055	-0.01481605	-4.3151e-10	1.826752e-08	0.01476657	0.0005166017	-1.147373e-09	-2.655067e-09
	-4.3151e-10	1.826752e-08	-0.1210976	-0.01190188	1.799653e-08	1.707739e-07	0.0148489	0.001447819
	0.01476657	0.0005166017	1.799653e-08	1.707739e-07	-0.1209655	-0.01462367	9.995225e-11	2.226978e-08
	-1.147373e-09	-2.655067e-09	0.0148489	0.001447819	9.995225e-11	2.226978e-08	-0.1210694	-0.01138618
3e+08	-0.1222131	0.003272579	-2.173042e-09	2.050772e-08	0.01382927	-0.001380176	-3.544771e-09	-1.677841e-09
	-2.173042e-09	2.050772e-08	-0.1218161	0.006246861	2.319427e-08	1.767304e-07	0.01405599	-0.0004459156
	0.01382927	-0.001380176	2.319427e-08	1.767304e-07	-0.1221284	0.003472628	-1.054214e-09	2.452535e-08
	-3.544771e-09	-1.677841e-09	0.01405599	-0.0004459156	-1.054214e-09	2.452535e-08	-0.1217371	0.006781998
3.1e+08	-0.1177726	0.02074707	-3.341068e-09	2.342812e-08	0.01231755	-0.002871788	-5.626502e-09	5.883411e-11
	-3.341068e-09	2.342812e-08	-0.1169442	0.02364058	2.855994e-08	1.811815e-07	0.01268095	-0.001980266
	0.01231755	-0.002871788	2.855994e-08	1.811815e-07	-0.117692	0.02095692	-1.665967e-09	2.728053e-08
	-5.626502e-09	5.883411e-11	0.01268095	-0.001980266	-1.665967e-09	2.728053e-08	-0.116813	0.02417896
3.2e+08	-0.1082116	0.03590593	-3.654193e-09	2.679832e-08	0.01038579	-0.003800597	-7.158548e-09	2.439042e-09
	-3.654193e-09	2.679832e-08	-0.1070055	0.03858396	3.359176e-08	1.841248e-07	0.01086337	-0.002993861
	0.01038579	-0.003800597	3.359176e-08	1.841248e-07	-0.1081336	0.0361273	-1.510551e-09	3.031936e-08
	-7.158548e-09	2.439042e-09	0.01086337	-0.002993861	-1.510551e-09	3.031936e-08	-0.1068261	0.03910932
3.3e+08	-0.09450522	0.04727709	-3.008977e-09	3.023502e-08	0.008228939	-0.004061392	-7.945341e-09	5.277529e-09
	-3.008977e-09	3.023502e-08	-0.09301777	0.04962573	3.778923e-08	1.857135e-07	0.008785078	-0.003373007
	0.008228939	-0.004061392	3.778923e-08	1.857135e-07	-0.09442775	0.04751112	-5.361286e-10	3.329037e-08
	-7.945341e-09	5.277529e-09	0.008785078	-0.003373007	-5.361286e-10	3.329037e-08	-0.0927994	0.05012359
3.4e+08	-0.07803639	0.05375701	-1.42794e-09	3.337436e-08	0.006067393	-0.003611711	-7.850894e-09	8.327891e-09
	-1.42794e-09	3.337436e-08	-0.07639869	0.05569647	4.073687e-08	1.862789e-07	0.006656459	-0.003062706
	0.006067393	-0.003611711	4.073687e-08	1.862789e-07	-0.07795722	0.05400406	1.194625e-09	3.587756e-08
	-7.850894e-09	8.327891e-09	0.006656459	-0.003062706	1.194625e-09	3.587756e-08	-0.07615519	0.05615583
3.5e+08	-0.06046861	0.05472055	9.231922e-10	3.588809e-08	0.004128507	-0.002479082	-6.818894e-09	1.130079e-08
	9.231922e-10	3.588809e-08	-0.05883479	0.05621589	4.215147e-08	1.862735e-07	0.004699246	-0.002075026
	0.004128507	-0.002479082	4.215147e-08	1.862735e-07	-0.0603854	0.0549802	3.491797e-09	3.781262e-08
	-6.818894e-09	1.130079e-08	0.004699246	-0.002075026	3.491797e-09	3.781262e-08	-0.05858318	0.05663052
3.6e+08	-0.04358802	0.05009103	3.765682e-09	3.754099e-08	0.002624712	-0.0007633257	-4.888632e-09	1.388895e-08
	3.765682e-09	3.754099e-08	-0.04211991	0.05115877	4.191218e-08	1.862173e-07	0.003125452	-0.0004929248
	0.002624712	-0.0007633257	4.191218e-08	1.862173e-07	-0.04349861	0.05036206	6.072292e-09	3.892732e-08
	-4.888632e-09	1.388895e-08	0.003125452	-0.0004929248	6.072292e-09	3.892732e-08	-0.04187881	0.05152817
3.7e+08	-0.02912591	0.04035984	6.760667e-09	3.822642e-08	0.00172952	0.00136839	-2.203207e-09	1.579979e-08
	6.760667e-09	3.822642e-08	-0.02797585	0.04106936	4.006871e-08	1.866405e-07	0.002113687	0.00153297
	0.00172952	0.00136839	4.006871e-08	1.866405e-07	-0.02902864	0.04064027	8.614991e-09	3.91824e-08
	-2.203207e-09	1.579979e-08	0.002113687	0.00153297	8.614991e-09	3.91824e-08	-0.02776355	0.04139914
3.8e+08	-0.01857814	0.02654793	9.569807e-09	3.797133e-08	0.001554381	0.003695617	9.944769e-10	1.679301e-08
	9.569807e-09	3.797133e-08	-0.0178716	0.02701703	3.683091e-08	1.880319e-07	0.001785764	0.003796625
	0.001554381	0.003695617	3.683091e-08	1.880319e-07	-0.01847214	0.02683516	1.082148e-08	3.866519e-08
	9.944769e-10	1.679301e-08	0.001785764	0.003796625	1.082148e-08	3.866519e-08	-0.01770408	0.02731862
3.9e+08	-0.01304182	0.01010774	1.190606e-08	3.691274e-08	0.00213069	0.005967993	4.381227e-09	1.671766e-08
	1.190606e-08	3.691274e-08	-0.01286187	0.01049236	3.254584e-08	1.907964e-07	0.00218787	0.006058296
	0.00213069	0.005967993	3.254584e-08	1.907964e-07	-0.01292724	0.01039888	1.246418e-08	3.755845e-08
	4.381227e-09	1.671766e-08	0.00218787	0.006058296	1.246418e-08	3.755845e-08	-0.01275097	0.01078212
4e+08	-0.01309101	-0.007227656	1.356149e-08	3.525746e-08	0.00340142	0.007935635	7.588749e-09	1.554113e-08
	1.356149e-08	3.525746e-08	-0.0134668	-0.006748738	2.766842e-08	1.952233e-07	0.003280825	0.008073572
	0.00340142	0.007935635	2.766842e-08	1.952233e-07	-0.01296916	-0.006935356	1.340876e-08	3.609337e-08
	7.588749e-09	1.554113e-08	0.003280825	0.008073572	1.340876e-08	3.609337e-08	-0.01341869	-0.00645101
4.1e+08	-0.01871013	-0.02363193	1.440954e-08	3.324224e-08	0.005225472	0.009381894	1.025013e-08	1.336229e-08
	1.440954e-08	3.324224e-08	-0.01961096	-0.02287594	2.272859e-08	2.014615e-07	0.004942651	0.009625257
	0.005225472	0.009381894	2.272859e-08	2.014615e-07	-0.01858338	-0.02334061	1.36084e-08	3.450535e-08
	1.025013e-08	1.336229e-08	0.004942651	0.009625257	1.36084e-08	3.450535e-08	-0.01962519	-0.02254897
4.2e+08	-0.02929616	-0.03738596	1.439042e-08	3.11087e-08	0.00739511	0.0101524	1.204924e-08	1.040448e-08
	1.439042e-08	3.11087e-08	-0.03063228	-0.0361863	1.829419e-08	2.094995e-07	0.006983973	0.01055216
	0.00739511	0.0101524	1.829419e-08	2.094995e-07	-0.02916769	-0.03709671	1.307989e-08	3.30075e-08
	1.204924e-08	1.040448e-08	0.006983973	0.01055216	1.307989e-08	3.30075e-08	-0.03070148	-0.03580953
4.3e+08	-0.04373003	-0.04706468	1.349528e-08	2.909731e-08	0.009663658	0.01017476	1.276342e-08	6.988876e-09
	1.349528e-08	2.909731e-08	-0.04536025	-0.04528991	1.49265e-08	2.19152e-07	0.009173649	0.01076928
	0.009663658	0.01017476	1.49265e-08	2.19152e-07	-0.0436033	-0.04677725	1.187822e-08	3.178691e-08
	1.276342e-08	6.988876e-09	0.009173649	0.01076928	1.187822e-08	3.178691e-08	-0.04547058	-0.04484578
4.4e+08	-0.06050644	-0.05168581	1.176254e-08	2.745277e-08	0.01177815	0.009465524	1.229137e-08	3.493827e-09
	1.176254e-08	2.745277e-08	-0.06225187	-0.04925527	1.31269e-08	2.300563e-07	0.01126958	0.0102758
	0.01177815	0.009465524	1.31269e-08	2.300563e-07	-0.06038464	-0.05139856	1.008493e-08	3.101581e-08
	1.229137e-08	3.493827e-09	0.01126958	0.0102758	1.008493e-08	3.101581e-08	-0.06238419	-0.04873122
4.5e+08	-0.07790285	-0.05080332	9.290351e-09	2.642658e-08	0.01351083	0.008123891	1.066288e-08	3.085277e-10
	9.290351e-09	2.642658e-08	-0.07956512	-0.0476973	1.327723e-08	2.416876e-07	0.01304881	0.009150671
	0.01351083	0.008123891	1.327723e-08	2.416876e-07	-0.07778833	-0.05051345	7.815157e-09	3.086237e-08
	1.066288e-08	3.085277e-10	0.01304881	0.009150671	7.815157e-09	3.086237e-08	-0.07969678	-0.04708737
4.6e+08	-0.09416428	-0.04453802	6.257916e-09	2.626351e-08	0.01468426	0.006315007	8.031204e-09	-2.210895e-09
	6.257916e-09	2.626351e-08	-0.09554618	-0.04080147	1.558159e-08	2.533973e-07	0.01433187	0.007537912
	0.01468426	0.006315007	1.558159e-08	2.533973e-07	-0.0940582	-0.04424197	5.236941e-09	3.148659e-08
	8.031204e-09	-2.210895e-09	0.01433187	0.007537912	5.236941e-09	3.148659e-08	-0.09565332	-0.04010722
4.7e+08	-0.1076815	-0.0335473	2.940798e-09	2.716736e-08	0.01518728	0.004246991	4.652439e-09	-3.777232e-09
	2.940798e-09	2.716736e-08	-0.1086077	-0.02928668	2.002113e-08	2.644752e-07	0.01499877	0.005625985
	0.01518728	0.004246991	2.002113e-08	2.644752e-07	-0.1075836	-0.03324129	2.587974e-09	3.301541e-08
	4.652439e-09	-3.777232e-09	0.01499877	0.005625985	2.587974e-09	3.301541e-08	-0.1086677	-0.02851732
4.8e+08	-0.1171443	-0.01894351	-2.943902e-10	2.925258e-08	0.01498135	0.002146325	8.56865e-10	-4.197465e-09
	-2.943902e-10	2.925258e-08	-0.1174799	-0.01431724	2.633334e-08	2.742311e-07	0.0149961	0.003625349
	0.01498135	0.002146325	2.633334e-08	2.742311e-07	-0.1170529	-0.01862411	1.745374e-10	3.550228e-08
