!$
! Info: Touchstone file created by Circ.  Input file=Tx_12in_Rx_85ohms_TxVia_35mils_RxVia_45mils.circ
!$
# Hz S RI R 50
0	0.009692222	1.541252e-25	0.990167	-1.582993e-25	8.31708e-05	1.84387e-23	-8.124957e-05	2.050766e-21
	0.990167	-1.614229e-25	0.009691091	1.802756e-25	-8.161898e-05	2.096095e-21	8.358992e-05	2.191786e-23
	8.133242e-05	1.893483e-23	-8.174566e-05	2.111721e-21	0.009704658	1.46916e-25	0.9901512	-1.501443e-25
	-8.162742e-05	2.09715e-21	8.174192e-05	2.202579e-23	0.9901512	-1.498564e-25	0.009704202	1.689123e-25
1e+07	0.01217278	-0.01154771	0.9774161	-0.1286808	0.0004510797	0.002204485	-0.0001179292	6.912203e-05
	0.9774161	-0.1286808	0.01215953	-0.01154669	-0.0001179419	6.913642e-05	0.0004466586	0.00220586
	0.0004510195	0.002204489	-0.0001179987	6.915088e-05	0.01215037	-0.01153302	0.977428	-0.1287752
	-0.0001179861	6.913648e-05	0.0004465982	0.00220587	0.977428	-0.1287752	0.01213546	-0.01153156
2e+07	0.01086648	-0.02609558	0.9488114	-0.2507788	0.001316282	0.004177957	-3.391222e-05	0.000164957
	0.9488114	-0.2507788	0.0108158	-0.02608405	-3.395133e-05	0.0001649805	0.001299592	0.004184302
	0.00131627	0.004177995	-3.395835e-05	0.0001650232	0.01085889	-0.02605644	0.9487768	-0.2509736
	-3.392108e-05	0.0001650009	0.001299585	0.004184337	0.9487768	-0.2509736	0.01080204	-0.02604274
3e+07	0.0047787	-0.04086807	0.9063516	-0.3663713	0.002619962	0.005840941	0.0001354633	0.0001982188
	0.9063516	-0.3663713	0.004671086	-0.04082763	0.0001353797	0.0001983052	0.002585075	0.005858422
	0.002619965	0.005840946	0.0001353827	0.0001983112	0.00478448	-0.04081703	0.9062519	-0.366647
	0.0001354663	0.0001982251	0.002585075	0.005858428	0.9062519	-0.366647	0.004664054	-0.04077033
4e+07	-0.005188404	-0.05387404	0.8504843	-0.4747639	0.004267663	0.007099901	0.0003461262	0.0001289093
	0.8504843	-0.4747639	-0.005365099	-0.05378024	0.0003460283	0.0001290896	0.004211128	0.007136587
	0.004267658	0.007099897	0.0003460209	0.0001290869	-0.005170571	-0.0538162	0.8503015	-0.4751044
	0.0003461184	0.0001289062	0.004211122	0.007136585	0.8503015	-0.4751044	-0.005367936	-0.05370918
5e+07	-0.01819783	-0.06410671	0.7821688	-0.5745723	0.006140358	0.007887336	0.0005461495	-5.916923e-05
	0.7821688	-0.5745723	-0.01844678	-0.06393115	0.0005460699	-5.887512e-05	0.00606173	0.007952344
	0.006140354	0.007887335	0.0005460645	-5.88748e-05	-0.01816982	-0.06404564	0.7818874	-0.5749591
	0.0005461437	-5.916901e-05	0.006061726	0.007952343	0.7818874	-0.5749591	-0.01844749	-0.06384658
6e+07	-0.03333068	-0.07090315	0.7026341	-0.6644673	0.008107245	0.008170212	0.0006818432	-0.0003592847
	0.7026341	-0.6644673	-0.03364493	-0.07061674	0.0006818293	-0.000358865	0.008009289	0.008272684
	0.008107249	0.008170212	0.0006818335	-0.0003588669	-0.03329489	-0.07084134	0.7022418	-0.6648797
	0.0006818478	-0.0003592867	0.008009291	0.008272683	0.7022418	-0.6648797	-0.03364491	-0.07051781
7e+07	-0.04960366	-0.07388387	0.6132911	-0.7432888	0.01003665	0.00795092	0.0007062287	-0.000743713
	0.6132911	-0.7432888	-0.04996643	-0.07346025	0.0007063396	-0.0007431782	0.009925209	0.008099017
	0.01003666	0.007950916	0.0007063504	-0.0007431881	-0.0495628	-0.0738228	0.6127792	-0.7437041
	0.0007062407	-0.0007437237	0.009925216	0.008099013	0.6127792	-0.7437041	-0.04996625	-0.07334548
8e+07	-0.06601635	-0.07293505	0.5156716	-0.8100856	0.01180556	0.007264915	0.000585885	-0.001168439
	0.5156716	-0.8100856	-0.06640237	-0.07235352	0.0005861779	-0.001167828	0.01168919	0.007464905
	0.01180558	0.007264907	0.0005861884	-0.001167845	-0.06597318	-0.07287524	0.5150353	-0.8104794
	0.0005858965	-0.001168457	0.0116892	0.007464898	0.5150353	-0.8104794	-0.06640167	-0.0722212
9e+07	-0.08160462	-0.06819123	0.4113784	-0.8641254	0.0133077	0.006176071	0.000305193	-0.001579731
	0.4113784	-0.8641254	-0.08198211	-0.06743908	0.0003057099	-0.001579108	0.013197	0.006431551
	0.01330771	0.006176062	0.0003057147	-0.001579123	-0.08156175	-0.0681324	0.4106171	-0.8644722
	0.0003051984	-0.001579747	0.01319701	0.006431545	0.4106171	-0.8644722	-0.08197972	-0.06728765
1e+08	-0.09549419	-0.06001152	0.3020483	-0.9048876	0.01446163	0.004771561	-0.0001353573	-0.001922735
	0.3020483	-0.9048876	-0.09582739	-0.0590857	-0.0001346005	-0.001922184	0.01436847	0.005082858
	0.01446163	0.004771561	-0.0001346005	-0.001922184	-0.09545416	-0.05995279	0.3011665	-0.9051617
	-0.0001353572	-0.001922735	0.01436847	0.005082858	0.3011665	-0.9051617	-0.09582164	-0.05891419
1.1e+08	-0.1069365	-0.04893143	0.1893106	-0.9320845	0.01520767	0.003135491	-0.000708372	-0.00212065
	0.1893106	-0.9320845	-0.1071873	-0.04784156	-0.0007073749	-0.002120253	0.01514427	0.003498971
	0.01520767	0.003135491	-0.0007073748	-0.002120253	-0.1069008	-0.04887198	0.1883171	-0.9322634
	-0.000708372	-0.00212065	0.01514427	0.003498971	0.1883171	-0.9322634	-0.1071753	-0.04764931
1.2e+08	-0.1153305	-0.03564711	0.07474065	-0.9455565	0.01549849	0.001387261	-0.001351737	-0.002150642
	0.07474065	-0.9455565	-0.1154651	-0.03441145	-0.001350562	-0.002150487	0.01547587	0.00179611
	0.01549849	0.001387261	-0.001350562	-0.002150487	-0.1153005	-0.03558398	0.07364665	-0.9456169
	-0.001351737	-0.002150642	0.01547587	0.00179611	0.07364665	-0.9456169	-0.1154436	-0.03419852
1.3e+08	-0.120282	-0.0209651	-0.0400886	-0.9453188	0.0153315	-0.0003590938	-0.002016657	-0.001993537
	-0.0400886	-0.9453188	-0.1202708	-0.01961195	-0.002015393	-0.001993679	0.01535887	8.49843e-05
	0.0153315	-0.0003590938	-0.002015393	-0.001993679	-0.120258	-0.02089533	-0.04126735	-0.9452387
	-0.002016657	-0.001993537	0.01535887	8.498432e-05	-0.04126735	-0.9452387	-0.1202366	-0.01937961
1.4e+08	-0.1215961	-0.00574765	-0.153651	-0.9315341	0.01472645	-0.001995535	-0.002645751	-0.001646584
	-0.153651	-0.9315341	-0.1214167	-0.004314429	-0.002644501	-0.001647045	0.01481025	-0.001529154
	0.01472645	-0.001995535	-0.002644501	-0.001647045	-0.1215771	-0.005668734	-0.1548948	-0.9312941
	-0.002645751	-0.001646584	0.01481025	-0.001529154	-0.1548948	-0.9312941	-0.1213666	-0.004065248
1.5e+08	-0.1192837	0.009132149	-0.2644641	-0.9044988	0.01372571	-0.003422945	-0.003182978	-0.001125832
	-0.2644641	-0.9044988	-0.1189239	0.01060093	-0.003181844	-0.001126591	0.01386881	-0.002949168
	0.01372571	-0.003422945	-0.003181844	-0.001126591	-0.1192678	0.009221956	-0.26575	-0.9040825
	-0.003182978	-0.001125832	0.01386881	-0.002949168	-0.26575	-0.9040825	-0.1188555	0.01086316
1.6e+08	-0.1135557	0.02283548	-0.3710875	-0.8646365	0.01239198	-0.004554996	-0.00358021	-0.0004644759
	-0.3710875	-0.8646365	-0.1130158	0.02429121	-0.003579283	-0.0004654803	0.0125931	-0.004089683
	0.01239198	-0.004554996	-0.003579283	-0.0004654803	-0.113541	0.02293712	-0.3723895	-0.8640309
	-0.00358021	-0.0004644759	0.0125931	-0.004089683	-0.3723895	-0.8640309	-0.1129278	0.02456172
1.7e+08	-0.1048092	0.03460053	-0.4721224	-0.8124982	0.01080536	-0.005321697	-0.003802523	0.0002908624
	-0.4721224	-0.8124982	-0.104103	0.03599398	-0.003801866	0.0002896963	0.01105881	-0.004880508
	0.01080536	-0.005321697	-0.003801866	0.0002896963	-0.1047937	0.03471418	-0.4734123	-0.8116942
	-0.003802523	0.0002908624	0.01105881	-0.004880508	-0.4734123	-0.8116942	-0.1039955	0.03626747
1.8e+08	-0.09360485	0.04378129	-0.5662137	-0.7487667	0.009059984	-0.005672658	-0.00383184	0.00108537
	-0.5662137	-0.7487667	-0.09275988	0.04506653	-0.003831485	0.001084144	0.009355768	-0.005269828
	0.009059984	-0.005672658	-0.003831485	0.001084144	-0.0935865	0.04390654	-0.5674615	-0.7477594
	-0.00383184	0.00108537	0.009355768	-0.005269828	-0.5674615	-0.7477594	-0.09263465	0.0453376
1.9e+08	-0.08063682	0.04988126	-0.6520579	-0.6742646	0.007260039	-0.00558001	-0.003668598	0.001862177
	-0.6520579	-0.6742646	-0.07969357	0.05101945	-0.003668533	0.001861	0.007584196	-0.005227163
	0.007260039	-0.00558001	-0.003668533	0.001861	-0.08061407	0.05001721	-0.6532324	-0.6730534
	-0.003668598	0.001862177	0.007584196	-0.005227163	-0.6532324	-0.6730534	-0.07955403	0.05128315
2e+08	-0.06669616	0.05258057	-0.7284163	-0.589963	0.005514884	-0.005040806	-0.003331222	0.002568712
	-0.7284163	-0.589963	-0.06570602	0.05354355	-0.003331397	0.00256768	0.005850232	-0.004745885
	0.005514884	-0.005040806	-0.003331397	0.00256768	-0.06666772	0.05272601	-0.7294855	-0.588552
	-0.003331222	0.002568712	0.005850232	-0.004745885	-0.7294855	-0.588552	-0.06555705	0.05379585
2.1e+08	-0.05262794	0.05175494	-0.7941352	-0.4969881	0.003933367	-0.004078558	-0.002853453	0.003162522
	-0.7941352	-0.4969881	-0.05165034	0.05252823	-0.002853781	0.003161705	0.004260492	-0.003844958
	0.003933367	-0.004078558	-0.002853781	0.003161705	-0.05259291	0.05190836	-0.7950675	-0.4953861
	-0.002853453	0.003162522	0.004260492	-0.003844958	-0.7950675	-0.4953861	-0.051498	0.05276641
2.2e+08	-0.03928427	0.04748477	-0.8481725	-0.3966241	0.002617341	-0.002743482	-0.002279762	0.003615843
	-0.8481725	-0.3966241	-0.03838297	0.04806977	-0.002280132	0.003615273	0.002915815	-0.002569458
	0.002617341	-0.002743482	-0.002280132	0.003615273	-0.03924216	0.04764454	-0.8489368	-0.3948449
	-0.002279762	0.003615843	0.002915815	-0.002569458	-0.8489368	-0.3948449	-0.03823413	0.04829282
2.3e+08	-0.02747512	0.04005313	-0.8896282	-0.2903087	0.001654727	-0.001110995	-0.001659386	0.003918266
	-0.8896282	-0.2903087	-0.02671387	0.04046831	-0.001659681	0.003917926	0.001904479	-0.0009893927
	0.001654727	-0.001110995	-0.001659681	0.003917926	-0.02742584	0.04021751	-0.8901949	-0.2883705
	-0.001659386	0.003918266	0.001904479	-0.0009893927	-0.8901949	-0.2883705	-0.02657574	0.04067705
2.4e+08	-0.0179198	0.02993157	-0.9177776	-0.1796194	0.001112726	0.000721846	-0.001039741	0.004077068
	-0.9177776	-0.1796194	-0.01735774	0.03021244	-0.001039855	0.004076892	0.001295476	0.0008034901
	0.001112726	0.000721846	-0.001039855	0.004076892	-0.01786369	0.03009883	-0.9181191	-0.1775452
	-0.001039741	0.004077068	0.001295476	0.0008034901	-0.9181191	-0.1775452	-0.01723736	0.03040966
2.5e+08	-0.01120231	0.01775373	-0.9321026	-0.06625062	0.001031894	0.002642052	-0.0004601143	0.004115067
	-0.9321026	-0.06625062	-0.01088942	0.0179516	-0.0004599752	0.004114947	0.001132553	0.002701032
	0.001031894	0.002642052	-0.0004599753	0.004114947	-0.01114019	0.0179222	-0.9321942	-0.06406773
	-0.0004601143	0.004115067	0.001132553	0.002701032	-0.9321942	-0.06406773	-0.0107931	0.01814199
2.6e+08	-0.007734168	0.004277691	-0.9323199	0.04801924	0.001421923	0.004528302	5.340004e-05	0.004066236
	-0.9323199	0.04801924	-0.007706983	0.004457172	5.381721e-05	0.004066037	0.001429857	0.004585897
	0.001421922	0.004528302	5.381721e-05	0.004066037	-0.00766725	0.004445946	-0.9321402	0.05027954
	5.340004e-05	0.004066236	0.001429857	0.004585897	-0.9321402	0.05027954	-0.007639861	0.004647114
2.7e+08	-0.007727649	-0.009660718	-0.9183998	0.1613686	0.002259809	0.006259854	0.000490935	0.003969691
	-0.9183998	0.1613686	-0.008005809	-0.009425392	0.0004915969	0.003969269	0.002169881	0.006340149
	0.002259809	0.006259854	0.0004915969	0.003969269	-0.007657582	-0.009493803	-0.9179315	0.1636714
	0.000490935	0.003969691	0.002169881	0.006340149	-0.9179315	0.1636714	-0.007971364	-0.009228134
2.8e+08	-0.01118226	-0.02320065	-0.8905763	0.2719791	0.003490874	0.007725858	0.000859326	0.003862956
	-0.8905763	0.2719791	-0.01176602	-0.02283017	0.0008601402	0.003862185	0.00330416	0.007854303
	0.003490874	0.007725858	0.0008601402	0.003862185	-0.011111	-0.02303574	-0.8898067	0.2742865
	0.000859326	0.003862956	0.00330416	0.007854303	-0.8898067	0.2742865	-0.01176573	-0.02261689
2.9e+08	-0.01788556	-0.03551085	-0.8493442	0.3780838	0.005032689	0.008834065	0.001179935	0.003775592
	-0.8493442	0.3780838	-0.01875463	-0.03492601	0.001180758	0.003774383	0.004756817	0.00903584
	0.005032689	0.008834065	0.001180758	0.003774383	-0.01781529	-0.03534808	-0.8482657	0.3803554
	0.001179935	0.003775592	0.004756817	0.00903584	-0.8482657	0.3803554	-0.01878773	-0.03468759
3e+08	-0.02742857	-0.04584203	-0.7954452	0.4780137	0.006781543	0.009517894	0.00148417	0.003724189
	-0.7954452	0.4780137	-0.0285423	-0.04496915	0.001484827	0.003722513	0.006430595	0.009816206
	0.006781543	0.009517894	0.001484827	0.003722513	-0.02736149	-0.04568089	-0.7940556	0.4802073
	0.00148417	0.003724189	0.006430595	0.009816206	-0.7940556	0.4802073	-0.02860566	-0.04469663
3.1e+08	-0.03923417	-0.0535728	-0.7298423	0.5702386	0.00862072	0.009741107	0.001807458	0.003709535
	-0.7298423	0.5702386	-0.04053323	-0.05234899	0.001807762	0.003707432	0.008214683	0.01015552
	0.00862072	0.009741107	0.001807762	0.003707432	-0.03917235	-0.05341215	-0.7281454	0.572311
	0.001807458	0.003709535	0.008214683	0.01015552	-0.7281454	0.572311	-0.04062146	-0.05203417
3.2e+08	-0.05259618	-0.05824599	-0.6536874	0.6533998	0.01042961	0.00949965	0.002182641	0.003716362
	-0.6536874	0.6533998	-0.0540056	-0.05662382	0.002182423	0.00371394	0.009993388	0.01004458
	0.01042961	0.00949965	0.002182423	0.00371394	-0.05254135	-0.05808407	-0.6516929	0.6553076
	0.002182641	0.003716362	0.009993388	0.01004458	-0.6516929	0.6553076	-0.0541112	-0.05625987
3.3e+08	-0.0667255	-0.05959282	-0.5682824	0.7263324	0.01209262	0.008820671	0.002633865	0.003715625
	-0.5682824	0.7263324	-0.06815888	-0.0575442	0.002633002	0.003713055	0.01165468	0.009504138
	0.01209262	0.008820671	0.002633002	0.003713055	-0.06667889	-0.05942745	-0.5660063	0.7280331
	0.002633865	0.003715625	0.01165468	0.009504138	-0.5660063	0.7280331	-0.06827261	-0.05712622
3.4e+08	-0.08079967	-0.0575444	-0.4750398	0.7880776	0.01350705	0.007759092	0.00317187	0.003668892
	-0.4750398	0.7880776	-0.08216424	-0.05506317	0.003170299	0.003666384	0.01309771	0.008581886
	0.01350705	0.007759092	0.003170299	0.003666384	-0.08076188	-0.05737308	-0.4725042	0.7895302
	0.00317187	0.003668892	0.01309771	0.008581886	-0.4725042	0.7895302	-0.08227563	-0.05458862
3.5e+08	-0.09401216	-0.05223019	-0.3754446	0.8378843	0.0145892	0.006392363	0.003791312	0.00353409
	-0.3754446	0.8378843	-0.09521444	-0.04933343	0.003789051	0.003531871	0.0142388	0.007347621
	0.0145892	0.006392363	0.003789051	0.003531871	-0.09398309	-0.05205025	-0.3726775	0.8390502
	0.003791312	0.00353409	0.0142388	0.007347621	-0.3726775	0.8390502	-0.09531242	-0.04880238
3.6e+08	-0.1056183	-0.04396495	-0.2710211	0.8752034	0.01527857	0.004814177	0.004470411	0.003271741
	-0.2710211	0.8752034	-0.10657	-0.04069281	0.004467554	0.003270028	0.01501547	0.005887472
	0.01527857	0.004814177	0.004467554	0.003270028	-0.1055972	-0.0437738	-0.268056	0.8760474
	0.004470411	0.003271741	0.01501547	0.005887472	-0.268056	0.8760474	-0.1066435	-0.04010811
3.7e+08	-0.1149756	-0.03322587	-0.1633047	0.899676	0.01553997	0.003127841	0.005172849	0.002850811
	-0.1633047	0.899676	-0.1155989	-0.02963998	0.005169561	0.002849777	0.01538868	0.004297769
	0.01553997	0.003127841	0.005169561	0.002849777	-0.1149608	-0.03302117	-0.1601805	0.9001671
	0.005172849	0.002850811	0.01538868	0.004297769	-0.1601805	0.9001671	-0.1156378	-0.02900721
3.8e+08	-0.1215759	-0.02062212	-0.05382211	0.9111189	0.01536401	0.00143989	0.005851567	0.002253423
	-0.05382211	0.9111189	-0.1218092	-0.01680264	0.005848066	0.00225318	0.01534348	0.002679134
	0.01536401	0.00143989	0.005848066	0.00225318	-0.1215653	-0.02040198	-0.05058205	0.911231
	0.005851567	0.002253423	0.01534348	0.002679134	-0.05058205	0.911231	-0.1218047	-0.0161299
3.9e+08	-0.1250699	-0.006858985	0.05592303	0.9095094	0.01476611	-0.0001457027	0.006453898	0.001477925
	0.05592303	0.9095094	-0.1248719	-0.002900455	0.006450431	0.001478504	0.01488828	0.001131106
	0.01476611	-0.0001457027	0.006450431	0.001478504	-0.1250611	-0.006622094	0.05923165	0.9092219
	0.006453898	0.001477925	0.01488828	0.001131106	0.05923165	0.9092219	-0.1248172	-0.002197987
4e+08	-0.1252828	0.007301331	0.1644584	0.8949722	0.0137846	-0.001532564	0.006927374	0.0005399954
	0.1644584	0.8949722	-0.1246355	0.01129509	0.006924185	0.0005413418	0.01405343	-0.0002525702
	0.0137846	-0.001532564	0.006924185	0.0005413418	-0.1252728	0.007555601	0.1677851	0.8942705
	0.006927374	0.0005399954	0.01405343	-0.0002525702	0.1677851	0.8942705	-0.1245265	0.01201547
4.1e+08	-0.1222201	0.02108037	0.2703473	0.8677692	0.01247817	-0.00263622	0.007225527	-0.000528252
	0.2703473	0.8677692	-0.1211313	0.02500211	0.007222827	-0.0005262719	0.01288906	-0.001388019
	0.01247817	-0.00263622	0.007222827	-0.0005262719	-0.1222061	0.02135192	0.2736393	0.8666453
	0.007225527	-0.000528252	0.01288906	-0.001388019	0.2736393	0.8666453	-0.1209668	0.02572764
4.2e+08	-0.1160666	0.03372399	0.3721913	0.8282941	0.01092278	-0.003387751	0.007313029	-0.001681032
	0.3721913	0.8282941	-0.1145701	0.03746924	0.007310971	-0.001678617	0.01146255	-0.002204799
	0.01092278	-0.003387751	0.007310971	-0.001678617	-0.1160456	0.03401199	0.3753941	0.8267468
	0.007313029	-0.001681032	0.01146255	-0.002204799	0.3753941	0.8267468	-0.1143522	0.038187
4.3e+08	-0.1071754	0.04454148	0.4686321	0.7770713	0.009208197	-0.003736937	0.007169648	-0.002863191
	0.4686321	0.7770713	-0.1053304	0.04801493	0.007168304	-0.00286058	0.009855575	-0.002649064
	0.009208197	-0.003736937	0.007168304	-0.00286058	-0.1071448	0.04484443	0.4716907	0.7751064
	0.007169648	-0.002863191	0.009855575	-0.002649064	0.4716907	0.7751064	-0.1050642	0.0487126
4.4e+08	-0.09605035	0.05294176	0.5583569	0.7147583	0.007434079	-0.003654922	0.006792564	-0.004015597
	0.5583569	0.7147583	-0.09393876	0.05606335	0.006791917	-0.004013038	0.008160689	-0.00268639
	0.007434079	-0.003654922	0.006791917	-0.004013038	-0.09600794	0.05325753	0.5612166	0.7123889
	0.006792564	-0.004015597	0.008160689	-0.00268639	0.5612166	0.7123889	-0.09363242	0.05673001
4.5e+08	-0.08331996	0.05846537	0.6401069	0.6421514	0.005705441	-0.003136352	0.006196779	-0.005081026
	0.6401069	0.6421514	-0.08104284	0.06117577	0.006196725	-0.005078742	0.006477261	-0.002304179
	0.005705441	-0.003136351	0.006196725	-0.005078742	-0.08326404	0.05879134	0.6427138	0.6393975
	0.006196779	-0.005081026	0.006477261	-0.002304179	0.6427138	0.6393975	-0.08070718	0.06180261
4.6e+08	-0.06970554	0.06081073	0.7126901	0.560191	0.004127482	-0.002200774	0.005413526	-0.006009917
	0.7126901	0.560191	-0.06737772	0.0630759	0.005413883	-0.006008075	0.004906689	-0.001513442
	0.004127482	-0.002200774	0.005413883	-0.006008075	-0.06963506	0.06114386	0.7149926	0.5570799
	0.005413526	-0.006009917	0.004906689	-0.001513442	0.7149926	0.5570799	-0.0670256	0.06365686
4.7e+08	-0.05598282	0.05985305	0.7750011	0.4699666	0.002799774	-0.0008930183	0.004486776	-0.006765301
	0.7750011	0.4699666	-0.05372662	0.06166753	0.004487313	-0.006763988	0.003546869	-0.0003496326
	0.002799774	-0.0008930183	0.004487313	-0.006763988	-0.05589747	0.06019008	0.7769506	0.4665324
	0.004486776	-0.006765301	0.003546869	-0.0003496326	0.7769506	0.4665324	-0.05337227	0.06219977
4.8e+08	-0.04293946	0.0556545	0.8260448	0.3727173	0.001809989	0.0007178432	0.003468203	-0.007326281
	0.8260448	0.3727173	-0.04087757	0.05704307	0.003468672	-0.007325487	0.002486111	0.001127858
	0.001809989	0.0007178432	0.003468672	-0.007325487	-0.04283969	0.05599208	0.8275965	0.3690006
	0.003468203	-0.007326281	0.002486111	0.001127858	0.8275965	0.3690006	-0.04053579	0.05752729
4.9e+08	-0.03133008	0.04846408	0.8649646	0.2698263	0.001227565	0.002541247	0.002411168	-0.007689546
	0.8649646	0.2698263	-0.02957802	0.0494817	0.002411341	-0.007689162	0.001796854	0.002837891
	0.001227565	0.002541247	0.002411341	-0.007689162	-0.03121719	0.04879898	0.8660782	0.265874
	0.002411168	-0.007689546	0.001796854	0.002837891	0.8660782	0.265874	-0.02926331	0.04992223
5e+08	-0.02183147	0.03870651	0.8910716	0.1628082	0.001097883	0.004469813	0.001364477	-0.007868625
	0.8910716	0.1628082	-0.02049008	0.03943629	0.001364184	-0.007868457	0.001529761	0.004681683
	0.001097883	0.004469813	0.001364184	-0.007868457	-0.02170756	0.03903579	0.8917127	0.1586726
	0.001364477	-0.007868625	0.001529761	0.004681683	0.8917127	0.1586726	-0.02021573	0.039841
5.1e+08	-0.01500082	0.0269598	0.9038745	0.05328711	0.001437667	0.006385864	0.0003667849	-0.007890886
	0.9038745	0.05328711	-0.01414931	0.02750907	0.000365944	-0.007890683	0.001708894	0.006548773
	0.001437667	0.006385864	0.000365944	-0.007890683	-0.01486874	0.02728104	0.9040146	0.04902555
