!$
! Info: Touchstone file created by Circ.  Input file=Tx_12in_Rx_85ohms_TxVia_35mils_RxVia_45mils.circ
!$
# Hz S RI R 50
0	0.009693348	1.5118e-25	7.587202e-10	9.80663e-28	8.422416e-05	1.815186e-23	2.533954e-09	4.12598e-28
	7.58721e-10	9.805476e-28	0.009691091	1.802756e-25	3.989045e-10	1.438666e-27	8.358992e-05	2.191786e-23
	8.473286e-05	1.840567e-23	3.989042e-10	1.438703e-27	0.009705491	1.468729e-25	7.786392e-10	9.514793e-28
	2.533954e-09	4.125871e-28	8.174192e-05	2.202579e-23	7.786396e-10	9.514424e-28	0.009704202	1.689123e-25
1e+07	0.01377583	-0.01143961	1.187827e-09	1.197654e-09	0.0003585299	0.002202192	5.23592e-09	5.792115e-09
	1.187827e-09	1.197654e-09	0.01215953	-0.01154669	6.13282e-10	7.659471e-10	0.0004466586	0.00220586
	0.0003585592	0.002202186	6.132819e-10	7.659471e-10	0.01219104	-0.01174864	1.256702e-09	1.259654e-09
	5.23592e-09	5.792115e-09	0.0004465982	0.00220587	1.256702e-09	1.259654e-09	0.01213546	-0.01153156
2e+07	0.01225867	-0.02650121	2.080491e-09	1.790237e-09	0.001181267	0.004255572	9.993594e-09	8.328976e-09
	2.080492e-09	1.790237e-09	0.0108158	-0.02608405	8.652599e-10	1.28652e-09	0.001299592	0.004184302
	0.001181267	0.00425555	8.652599e-10	1.28652e-09	0.01067136	-0.02640859	2.222615e-09	1.857525e-09
	9.993594e-09	8.328976e-09	0.001299585	0.004184337	2.222615e-09	1.857525e-09	0.01080204	-0.02604274
3e+07	0.005984661	-0.04148437	3.139486e-09	1.981792e-09	0.002522256	0.005941023	1.568177e-08	8.713885e-09
	3.139486e-09	1.981792e-09	0.004671086	-0.04082763	1.123947e-09	1.714658e-09	0.002585075	0.005858422
	0.002522249	0.005941022	1.123946e-09	1.714658e-09	0.004418398	-0.0411721	3.362091e-09	2.024935e-09
	1.568177e-08	8.713885e-09	0.002585075	0.005858428	3.362091e-09	2.024935e-09	0.004664054	-0.04077033
4e+07	-0.004161717	-0.05462134	4.267813e-09	1.720268e-09	0.004202506	0.007208682	2.172788e-08	6.640707e-09
	4.267813e-09	1.720268e-09	-0.005365099	-0.05378024	1.376899e-09	2.056306e-09	0.004211128	0.007136587
	0.004202507	0.007208686	1.376899e-09	2.056306e-09	-0.005679325	-0.05411986	4.57741e-09	1.703883e-09
	2.172788e-08	6.640707e-09	0.004211122	0.007136585	4.57741e-09	1.703883e-09	-0.005367936	-0.05370918
5e+07	-0.01734368	-0.06493633	5.308778e-09	9.880966e-10	0.006103443	0.007996502	2.726562e-08	2.041934e-09
	5.308778e-09	9.880967e-10	-0.01844678	-0.06393115	1.598064e-09	2.311275e-09	0.00606173	0.007952344
	0.006103445	0.007996503	1.598064e-09	2.311275e-09	-0.01878729	-0.06426334	5.70017e-09	8.753757e-10
	2.726562e-08	2.041934e-09	0.006061726	0.007952343	5.70017e-09	8.753757e-10	-0.01844749	-0.06384658
6e+07	-0.03264054	-0.07177875	6.104828e-09	-1.780893e-10	0.008094252	0.008273958	3.14482e-08	-4.85052e-09
	6.104828e-09	-1.780893e-10	-0.03364493	-0.07061674	1.760288e-09	2.491932e-09	0.008009289	0.008272684
	0.008094251	0.008273957	1.760288e-09	2.491932e-09	-0.03398706	-0.07095028	6.560771e-09	-4.212914e-10
	3.14482e-08	-4.85052e-09	0.008009291	0.008272683	6.560771e-09	-4.212913e-10	-0.03364491	-0.07051781
7e+07	-0.04906686	-0.07477631	6.513938e-09	-1.696983e-09	0.01004315	0.008045034	3.353718e-08	-1.356378e-08
	6.513938e-09	-1.696983e-09	-0.04996643	-0.07346025	1.841375e-09	2.618428e-09	0.009925209	0.008099017
	0.01004315	0.008045034	1.841375e-09	2.618428e-09	-0.05029539	-0.07380908	7.006414e-09	-2.098749e-09
	3.353718e-08	-1.356378e-08	0.009925216	0.008099013	7.006415e-09	-2.098749e-09	-0.04996625	-0.07334548
8e+07	-0.0656202	-0.07382043	6.41998e-09	-3.445928e-09	0.01182699	0.00734633	3.295413e-08	-2.342533e-08
	6.41998e-09	-3.445928e-09	-0.06640237	-0.07235352	1.82536e-09	2.717576e-09	0.01168919	0.007464905
	0.01182699	0.007346333	1.82536e-09	2.717576e-09	-0.06671159	-0.07273227	6.912219e-09	-4.025479e-09
	3.295413e-08	-2.342533e-08	0.0116892	0.007464898	6.912219e-09	-4.025479e-09	-0.06640167	-0.0722212
9e+07	-0.08133451	-0.06904984	5.744488e-09	-5.268675e-09	0.01333916	0.006242522	2.932807e-08	-3.360854e-08
	5.744488e-09	-5.268675e-09	-0.08198211	-0.06743908	1.704295e-09	2.820604e-09	0.013197	0.006431551
	0.01333916	0.006242525	1.704295e-09	2.820604e-09	-0.0822702	-0.06785929	6.193578e-09	-6.034166e-09
	2.932807e-08	-3.360854e-08	0.01319701	0.006431545	6.193578e-09	-6.034166e-09	-0.08197972	-0.06728765
1e+08	-0.09533119	-0.06082598	4.458241e-09	-6.989452e-09	0.01449623	0.004820507	2.253443e-08	-4.319233e-08
	4.458241e-09	-6.989452e-09	-0.09582739	-0.0590857	1.478699e-09	2.961935e-09	0.01436847	0.005082858
	0.01449623	0.004820507	1.478699e-09	2.961935e-09	-0.09608407	-0.05954847	4.818038e-09	-7.937059e-09
	2.253443e-08	-4.319233e-08	0.01436847	0.005082858	4.818038e-09	-7.937059e-09	-0.09582164	-0.05891419
1.1e+08	-0.1068617	-0.04970535	2.599219e-09	-8.401722e-09	0.015238	0.003175816	1.273504e-08	-5.120866e-08
	2.599219e-09	-8.401722e-09	-0.1071873	-0.04784156	1.152387e-09	3.167806e-09	0.01514427	0.003498971
	0.015238	0.003175816	1.152387e-09	3.167806e-09	-0.1074096	-0.04841419	2.828032e-09	-9.513501e-09
	1.273504e-08	-5.120866e-08	0.01514427	0.003498971	2.828032e-09	-9.513501e-09	-0.1071753	-0.04764931
1.2e+08	-0.1153402	-0.03637407	2.344869e-10	-9.330482e-09	0.01552706	0.001421909	3.520781e-10	-5.678414e-08
	2.344869e-10	-9.330482e-09	-0.1154651	-0.03441145	7.528419e-10	3.467809e-09	0.01547587	0.00179611
	0.01552706	0.001421909	7.528419e-10	3.467809e-09	-0.1157118	-0.03510162	2.927284e-10	-1.057351e-08
	3.520781e-10	-5.678414e-08	0.01547587	0.00179611	2.927284e-10	-1.057351e-08	-0.1154436	-0.03419852
1.3e+08	-0.1203681	-0.02163733	-2.499826e-09	-9.627173e-09	0.01535888	-0.0003290313	-1.395825e-08	-5.916518e-08
	-2.499826e-09	-9.627173e-09	-0.1202708	-0.01961195	3.067158e-10	3.885778e-09	0.01535887	8.49843e-05
	0.01535888	-0.0003290314	3.067158e-10	3.885778e-09	-0.120581	-0.02040478	-2.643353e-09	-1.095819e-08
	-1.395825e-08	-5.916518e-08	0.01535887	8.498432e-05	-2.643353e-09	-1.095819e-08	-0.1202366	-0.01937961
1.4e+08	-0.1217492	-0.006358191	-5.42622e-09	-9.179962e-09	0.01475281	-0.001969414	-2.933768e-08	-5.777703e-08
	-5.42622e-09	-9.179962e-09	-0.1214167	-0.004314429	-1.526694e-10	4.436356e-09	0.01481025	-0.001529154
	0.01475281	-0.001969414	-1.526694e-10	4.436356e-09	-0.121819	-0.005182897	-5.791106e-09	-1.054668e-08
	-2.933768e-08	-5.777703e-08	0.01481025	-0.001529154	-5.791106e-09	-1.054668e-08	-0.1213666	-0.004065248
1.5e+08	-0.1194934	0.008589073	-8.336386e-09	-7.928103e-09	0.01375108	-0.003400327	-4.477264e-08	-5.227522e-08
	-8.336386e-09	-7.928103e-09	-0.1189239	0.01060093	-5.882518e-10	5.124652e-09	0.01386881	-0.002949168
	0.01375108	-0.003400327	-5.882518e-10	5.124652e-09	-0.1194353	0.00969206	-8.928033e-09	-9.272185e-09
	-4.477264e-08	-5.227522e-08	0.01386881	-0.002949168	-8.928033e-09	-9.272185e-09	-0.1188555	0.01086316
1.6e+08	-0.1138112	0.02236433	-1.100623e-08	-5.870003e-09	0.01241625	-0.004535541	-5.915332e-08	-4.258494e-08
	-1.100623e-08	-5.870003e-09	-0.1130158	0.02429121	-9.61896e-10	5.945551e-09	0.0125931	-0.004089683
	0.01241625	-0.004535541	-9.61896e-10	5.945551e-09	-0.1136407	0.02338178	-1.181411e-08	-7.130916e-09
	-5.915332e-08	-4.258494e-08	0.0125931	-0.004089683	-1.181411e-08	-7.130916e-09	-0.1129278	0.02456172
1.7e+08	-0.105099	0.03420431	-1.321287e-08	-3.066622e-09	0.01082834	-0.005305107	-7.134247e-08	-2.892674e-08
	-1.321287e-08	-3.066622e-09	-0.104103	0.03599398	-1.237109e-09	6.883692e-09	0.01105881	-0.004880508
	0.01082834	-0.005305107	-1.237109e-09	6.883692e-09	-0.1048328	0.03512479	-1.420978e-08	-4.185985e-09
	-7.134247e-08	-2.892674e-08	0.01105881	-0.004880508	-1.420978e-08	-4.185985e-09	-0.1039955	0.03626747
1.8e+08	-0.09391737	0.04346149	-1.475198e-08	3.600964e-10	0.009081482	-0.005658635	-8.025156e-08	-1.182585e-08
	-1.475198e-08	3.600964e-10	-0.09275988	0.04506653	-1.381661e-09	7.91409e-09	0.009355768	-0.005269828
	0.009081482	-0.005658635	-1.381661e-09	7.91409e-09	-0.093573	0.04427554	-1.589458e-08	-5.660781e-10
	-8.025156e-08	-1.182585e-08	0.009355768	-0.005269828	-1.589458e-08	-5.660781e-10	-0.09263465	0.0453376
1.9e+08	-0.08096026	0.04963771	-1.545424e-08	4.233629e-09	0.007279811	-0.005568227	-8.492083e-08	7.896974e-09
	-1.545424e-08	4.233629e-09	-0.07969357	0.05101945	-1.369959e-09	9.003372e-09	0.007584196	-0.005227163
	0.007279811	-0.005568227	-1.369959e-09	9.003372e-09	-0.08055663	0.05033825	-1.668475e-08	3.541059e-09
	-8.492083e-08	7.896974e-09	0.007584196	-0.005227163	-1.668475e-08	3.541059e-09	-0.07955403	0.05128315
2e+08	-0.06701884	0.05241135	-1.519933e-08	8.333568e-09	0.005532704	-0.005030892	-8.45993e-08	2.915557e-08
	-1.519933e-08	8.333568e-09	-0.06570602	0.05354355	-1.185078e-09	1.011151e-08	0.005850232	-0.004745885
	0.005532704	-0.005030892	-1.185078e-09	1.011151e-08	-0.06657583	0.05299408	-1.644856e-08	7.899777e-09
	-8.45993e-08	2.915557e-08	0.005850232	-0.004745885	-1.644856e-08	7.899777e-09	-0.06555705	0.05379585
2.1e+08	-0.05293858	0.05165625	-1.392649e-08	1.240971e-08	0.003949047	-0.004070099	-7.88191e-08	5.065047e-08
	-1.392649e-08	1.240971e-08	-0.05165034	0.05252823	-8.20375e-10	1.119401e-08	0.004260492	-0.003844958
	0.003949047	-0.004070099	-8.20375e-10	1.119401e-08	-0.05247672	0.05212008	-1.511798e-08	1.224143e-08
	-7.88191e-08	5.065047e-08	0.004260492	-0.003844958	-1.511798e-08	1.224143e-08	-0.051498	0.05276641
2.2e+08	-0.03957236	0.04745096	-1.164097e-08	1.619834e-08	0.002630752	-0.002736023	-6.745755e-08	7.094304e-08
	-1.164097e-08	1.619834e-08	-0.03838297	0.04806977	-2.806323e-10	1.220439e-08	0.002915815	-0.002569458
	0.002630752	-0.002736023	-2.806323e-10	1.220439e-08	-0.03911225	0.04779827	-1.269605e-08	1.628182e-08
	-6.745755e-08	7.094304e-08	0.002915815	-0.002569458	-1.269605e-08	1.628182e-08	-0.03823413	0.04829282
2.3e+08	-0.02773129	0.04007675	-8.415952e-09	1.943948e-08	0.001665822	-0.001104059	-5.077994e-08	8.854905e-08
	-8.415952e-09	1.943948e-08	-0.02671387	0.04046831	4.17344e-10	1.309705e-08	0.001904479	-0.0009893927
	0.001665822	-0.001104059	4.17344e-10	1.309705e-08	-0.02729291	0.04031359	-9.259358e-09	1.97399e-08
	-5.077994e-08	8.854905e-08	0.001904479	-0.0009893927	-9.259358e-09	1.97399e-08	-0.02657574	0.04067705
2.4e+08	-0.01813622	0.03000355	-4.390239e-09	2.18938e-08	0.001121549	0.0007287373	-2.945591e-08	1.020466e-07
	-4.390239e-09	2.18938e-08	-0.01735774	0.03021244	1.244763e-09	1.383033e-08	0.001295476	0.0008034901
	0.001121549	0.0007287373	1.244763e-09	1.383033e-08	-0.01773817	0.0301396	-4.955856e-09	2.235625e-08
	-2.945591e-08	1.020466e-07	0.001295476	0.0008034901	-4.955856e-09	2.235625e-08	-0.01723736	0.03040966
2.5e+08	-0.0113731	0.01786368	2.380028e-10	2.335835e-08	0.001038582	0.002649349	-4.54421e-09	1.101902e-07
	2.380028e-10	2.335835e-08	-0.01088942	0.0179516	2.161653e-09	1.436963e-08	0.001132553	0.002701032
	0.001038582	0.002649349	2.161653e-09	1.436963e-08	-0.01103178	0.01791202	1.708344e-12	2.391049e-08
	-4.54421e-09	1.101902e-07	0.001132553	0.002701032	1.708345e-12	2.391049e-08	-0.0107931	0.01814199
2.6e+08	-0.007855652	0.004414357	5.220694e-09	2.368042e-08	0.001426697	0.004536405	2.255698e-08	1.120215e-07
	5.220694e-09	2.368042e-08	-0.007706983	0.004457172	3.118535e-09	1.469059e-08	0.001429857	0.004585897
	0.001426697	0.004536405	3.118535e-09	1.469059e-08	-0.007584532	0.004391003	5.346084e-09	2.423651e-08
	2.255698e-08	1.120215e-07	0.001429857	0.004585897	5.346084e-09	2.423651e-08	-0.007639861	0.004647114
2.7e+08	-0.007798594	-0.009508991	1.027209e-08	2.27691e-08	0.002262961	0.006269089	5.019282e-08	1.069638e-07
	1.027209e-08	2.27691e-08	-0.008005809	-0.009425392	4.059026e-09	1.478174e-08	0.002169881	0.006340149
	0.002262961	0.006269089	4.059026e-09	1.478174e-08	-0.007607559	-0.009585741	1.0769e-08	2.323538e-08
	5.019282e-08	1.069638e-07	0.002169881	0.006340149	1.0769e-08	2.323538e-08	-0.007971364	-0.009228134
2.8e+08	-0.0112039	-0.02304534	1.508346e-08	2.060436e-08	0.003492737	0.007736467	7.656221e-08	9.489145e-08
	1.508346e-08	2.060436e-08	-0.01176602	-0.02283017	4.923322e-09	1.464666e-08	0.00330416	0.007854303
	0.003492737	0.007736467	4.923322e-09	1.464666e-08	-0.0110988	-0.02315572	1.593736e-08	2.088512e-08
	7.656221e-08	9.489145e-08	0.00330416	0.007854303	1.593736e-08	2.088512e-08	-0.01176573	-0.02261689
2.9e+08	-0.01786154	-0.0353627	1.93399e-08	1.724316e-08	0.005033618	0.008846197	9.984672e-08	7.616375e-08
	1.93399e-08	1.724316e-08	-0.01875463	-0.03492601	5.652353e-09	1.430501e-08	0.004756817	0.00903584
	0.005033618	0.008846197	5.652353e-09	1.430501e-08	-0.01784393	-0.03548641	2.051183e-08	1.724714e-08
	9.984672e-08	7.616375e-08	0.004756817	0.00903584	2.051183e-08	1.724714e-08	-0.01878773	-0.03468759
3e+08	-0.02736466	-0.0457105	2.27393e-08	1.282194e-08	0.006781888	0.009531613	1.183458e-07	5.16206e-08
	2.27393e-08	1.282194e-08	-0.0285423	-0.04496915	6.192312e-09	1.379237e-08	0.006430595	0.009816206
	0.006781888	0.009531613	6.192312e-09	1.379237e-08	-0.02743177	-0.04582766	2.416742e-08	1.246864e-08
	1.183458e-07	5.16206e-08	0.006430595	0.009816206	2.416742e-08	1.246864e-08	-0.02860566	-0.04469663
3.1e+08	-0.03913792	-0.05346565	2.501251e-08	7.554641e-09	0.008620806	0.009756399	1.306059e-07	2.253825e-08
	2.501251e-08	7.554641e-09	-0.04053323	-0.05234899	6.499129e-09	1.31588e-08	0.008214683	0.01015552
	0.008620806	0.009756399	6.499129e-09	1.31588e-08	-0.03928292	-0.05355773	2.661533e-08	6.779907e-09
	1.306059e-07	2.253825e-08	0.008214683	0.01015552	2.661533e-08	6.779907e-09	-0.04062146	-0.05203417
3.2e+08	-0.05247645	-0.05816889	2.594398e-08	1.725274e-09	0.01042972	0.009516441	1.35531e-07	-9.449433e-09
	2.594398e-08	1.725274e-09	-0.0540056	-0.05662382	6.542468e-09	1.24659e-08	0.009993388	0.01004458
	0.01042972	0.009516441	6.542468e-09	1.24659e-08	-0.05268883	-0.05821958	2.762482e-08	4.859584e-10
	1.35531e-07	-9.449433e-09	0.009993388	0.01004458	2.762482e-08	4.859584e-10	-0.0541112	-0.05625987
3.3e+08	-0.06659195	-0.05954924	2.539098e-08	-4.325402e-09	0.012093	0.008838841	1.324667e-07	-4.245665e-08
	2.539098e-08	-4.325402e-09	-0.06815888	-0.0575442	6.308823e-09	1.17829e-08	0.01165468	0.009504138
	0.012093	0.008838841	6.308823e-09	1.17829e-08	-0.06685814	-0.05954517	2.704347e-08	-6.048072e-09
	1.324667e-07	-4.245665e-08	0.01165468	0.009504138	2.704347e-08	-6.048072e-09	-0.06827261	-0.05712622
3.4e+08	-0.0806622	-0.05753554	2.329418e-08	-1.022671e-08	0.01350789	0.00777849	1.212306e-07	-7.44604e-08
	2.329418e-08	-1.022671e-08	-0.08216424	-0.05506317	5.802614e-09	1.118279e-08	0.01309771	0.008581886
	0.01350789	0.00777849	5.802614e-09	1.118279e-08	-0.08096633	-0.05746676	2.480804e-08	-1.242518e-08
	1.212306e-07	-7.44604e-08	0.01309771	0.008581886	2.480804e-08	-1.242518e-08	-0.08227563	-0.05458862
3.5e+08	-0.09388045	-0.05225496	1.969896e-08	-1.558209e-08	0.01459066	0.006412819	1.021901e-07	-1.034428e-07
	1.969896e-08	-1.558209e-08	-0.09521444	-0.04933343	5.049256e-09	1.073489e-08	0.0142388	0.007347621
	0.01459066	0.006412819	5.049256e-09	1.073489e-08	-0.09420515	-0.05211541	2.096712e-08	-1.822187e-08
	1.021901e-07	-1.034428e-07	0.0142388	0.007347621	2.096712e-08	-1.822187e-08	-0.09531242	-0.04880238
3.6e+08	-0.1055013	-0.04402017	1.475277e-08	-2.001092e-08	0.01528074	0.004835511	7.618966e-08	-1.275153e-07
	1.475277e-08	-2.001092e-08	-0.10657	-0.04069281	4.091385e-09	1.050094e-08	0.01501547	0.005887472
	0.01528074	0.004835511	4.091385e-09	1.050094e-08	-0.1058286	-0.0438078	1.567753e-08	-2.30318e-08
	7.618966e-08	-1.275153e-07	0.01501547	0.005887472	1.567753e-08	-2.30318e-08	-0.1066435	-0.04010811
3.7e+08	-0.1148811	-0.03330651	8.70093e-09	-2.317485e-08	0.01554292	0.003149868	4.451678e-08	-1.450299e-07
	8.70093e-09	-2.317485e-08	-0.1155989	-0.02963998	2.986893e-09	1.05304e-08	0.01538868	0.004297769
	0.01554292	0.003149868	2.986893e-09	1.05304e-08	-0.1151933	-0.0330233	9.199989e-09	-2.649341e-08
	4.451678e-08	-1.450299e-07	0.01538868	0.004297769	9.199989e-09	-2.649341e-08	-0.1156378	-0.02900721
3.8e+08	-0.1215103	-0.02072165	1.874706e-09	-2.480306e-08	0.01536777	0.001462425	8.835285e-09	-1.546782e-07
	1.874706e-09	-2.480306e-08	-0.1218092	-0.01680264	1.805265e-09	1.085656e-08	0.01534348	0.002679134
	0.01536777	0.001462425	1.805265e-09	1.085656e-08	-0.1217907	-0.02037335	1.886583e-09	-2.831653e-08
	8.835285e-09	-1.546782e-07	0.01534348	0.002679134	1.886583e-09	-2.831653e-08	-0.1218047	-0.0161299
3.9e+08	-0.1250378	-0.006969727	-5.328317e-09	-2.471434e-08	0.01477066	-0.0001228417	-2.890259e-08	-1.555706e-07
	-5.328317e-09	-2.471434e-08	-0.1248719	-0.002900455	6.229005e-10	1.149406e-08	0.01488828	0.001131106
	0.01477066	-0.0001228417	6.229005e-10	1.149406e-08	-0.1252717	-0.006565552	-5.83978e-09	-2.830571e-08
	-2.890259e-08	-1.555706e-07	0.01488828	0.001131106	-5.83978e-09	-2.830571e-08	-0.1248172	-0.002197987
4e+08	-0.1252869	0.00718781	-1.246948e-08	-2.2833e-08	0.01378991	-0.00150955	-6.655776e-08	-1.472943e-07
	-1.246948e-08	-2.2833e-08	-0.1246355	0.01129509	-4.820136e-10	1.243773e-08	0.01405343	-0.0002525702
	0.01378991	-0.00150955	-4.820136e-10	1.243773e-08	-0.1254619	0.00763565	-1.351178e-08	-2.637713e-08
	-6.655776e-08	-1.472943e-07	0.01405343	-0.0002525702	-1.351178e-08	-2.637713e-08	-0.1245265	0.01201547
4.1e+08	-0.1222612	0.02097282	-1.909786e-08	-1.919739e-08	0.01248415	-0.002613207	-1.019153e-07	-1.299489e-07
	-1.909786e-08	-1.919739e-08	-0.1211313	0.02500211	-1.434633e-09	1.366295e-08	0.01288906	-0.001388019
	0.01248415	-0.002613207	-1.434633e-09	1.366295e-08	-0.1223683	0.02144976	-2.064791e-08	-2.256801e-08
	-1.019153e-07	-1.299489e-07	0.01288906	-0.001388019	-2.064791e-08	-2.256801e-08	-0.1209668	0.02572764
4.2e+08	-0.1161434	0.03363109	-2.478039e-08	-1.396035e-08	0.0109293	-0.003364873	-1.328014e-07	-1.041596e-07
	-2.478039e-08	-1.396035e-08	-0.1145701	0.03746924	-2.168165e-09	1.512724e-08	0.01146255	-0.002204799
	0.0109293	-0.003364873	-2.168165e-09	1.512724e-08	-0.1161768	0.03412088	-2.678427e-08	-1.703748e-08
	-1.328014e-07	-1.041596e-07	0.01146255	-0.002204799	-2.678427e-08	-1.703748e-08	-0.1143522	0.038187
4.3e+08	-0.1072848	0.04447139	-2.913105e-08	-7.381649e-09	0.009215115	-0.003714291	-1.572032e-07	-7.106596e-08
	-2.913105e-08	-7.381649e-09	-0.1053304	0.04801493	-2.627859e-09	1.677299e-08	0.009855575	-0.002649064
	0.009215115	-0.003714291	-2.627859e-09	1.677299e-08	-0.1072427	0.0449569	-3.150557e-08	-1.005925e-08
	-1.572032e-07	-7.106596e-08	0.009855575	-0.002649064	-3.150557e-08	-1.005925e-08	-0.1050642	0.0487126
4.4e+08	-0.09618726	0.05290171	-3.183696e-08	1.870034e-10	0.007441223	-0.003632564	-1.733878e-07	-3.228581e-08
	-3.183696e-08	1.870034e-10	-0.09393876	0.05606335	-2.77407e-09	1.853085e-08	0.008160689	-0.00268639
	0.007441223	-0.003632564	-2.77407e-09	1.853085e-08	-0.09607165	0.05336577	-3.447315e-08	-2.00624e-09
	-1.733878e-07	-3.228581e-08	0.008160689	-0.00268639	-3.447315e-08	-2.00624e-09	-0.09363242	0.05673001
4.5e+08	-0.08347784	0.05846128	-3.267967e-08	8.323073e-09	0.005712629	-0.003114284	-1.800161e-07	1.014744e-08
	-3.267967e-08	8.323073e-09	-0.08104284	0.06117577	-2.584382e-09	2.032359e-08	0.006477261	-0.002304179
	0.005712629	-0.003114284	-2.584382e-09	2.032359e-08	-0.08329475	0.05888755	-3.544814e-08	6.671326e-09
	-1.800161e-07	1.014744e-08	0.006477261	-0.002304179	-3.544814e-08	6.671326e-09	-0.08070718	0.06180261
4.6e+08	-0.06987658	0.06084686	-3.155009e-08	1.655898e-08	0.00413454	-0.002178951	-1.762463e-07	5.387575e-08
	-3.155009e-08	1.655898e-08	-0.06737772	0.0630759	-2.054819e-09	2.207009e-08	0.004906689	-0.001513442
	0.00413454	-0.002178951	-2.054819e-09	2.207009e-08	-0.06963564	0.06122072	-3.430815e-08	1.547307e-08
	-1.762463e-07	5.387575e-08	0.004906689	-0.001513442	-3.430815e-08	1.547307e-08	-0.0670256	0.06365686
4.7e+08	-0.05615833	0.05993173	-2.845634e-08	2.441051e-08	0.002806549	-0.0008713417	-1.618177e-07	9.633495e-08
	-2.845634e-08	2.441051e-08	-0.05372662	0.06166753	-1.200303e-09	2.368942e-08	0.003546869	-0.0003496326
	0.002806549	-0.0008713417	-1.200303e-09	2.368942e-08	-0.05587241	0.06024107	-3.105645e-08	2.387874e-08
	-1.618177e-07	9.633495e-08	0.003546869	-0.0003496326	-3.105645e-08	2.387874e-08	-0.05337227	0.06219977
4.8e+08	-0.04311037	0.05577595	-2.352413e-08	3.140588e-08	0.001816367	0.0007395111	-1.371086e-07	1.348984e-07
