!$
! Info: Touchstone file created by Circ.  Input file=Tx_10in_Rx_100ohms_TxVia_35mils_RxVia_45mils.circ
!$
# Hz S RI R 50
0	0.01041934	1.301142e-25	7.588202e-10	9.44658e-28	7.330636e-05	1.951915e-23	2.531448e-09	3.948652e-28
	7.58821e-10	9.445428e-28	0.01041707	1.543833e-25	3.995664e-10	1.373626e-27	7.267327e-05	2.356907e-23
	7.381488e-05	1.979208e-23	3.995661e-10	1.373663e-27	0.01043145	1.264156e-25	7.787668e-10	9.10705e-28
	2.531448e-09	3.948543e-28	7.082512e-05	2.368511e-23	7.787672e-10	9.106681e-28	0.01043017	1.446498e-25
1e+07	0.0143398	0.006820689	1.153354e-09	1.244717e-09	0.0003020117	0.001855828	4.963379e-09	6.080796e-09
	1.153354e-09	1.244717e-09	0.01534751	0.006564045	6.339017e-10	7.944654e-10	0.0006534847	0.001903356
	0.0003020413	0.001855823	6.339017e-10	7.944654e-10	0.01491064	0.006545028	1.20716e-09	1.296283e-09
	4.963379e-09	6.080796e-09	0.000653424	0.001903365	1.20716e-09	1.296283e-09	0.01520928	0.006588831
2e+07	0.0194755	0.01002863	1.996205e-09	1.928077e-09	0.000867535	0.003662361	9.208508e-09	9.317858e-09
	1.996205e-09	1.928077e-09	0.01997097	0.009281557	9.455191e-10	1.326153e-09	0.001092836	0.003892809
	0.0008675362	0.003662339	9.455191e-10	1.326153e-09	0.01962811	0.009411879	2.086157e-09	1.990552e-09
	9.208508e-09	9.317858e-09	0.001092827	0.003892844	2.086156e-09	1.990552e-09	0.01988045	0.009378971
3e+07	0.02392599	0.01094412	3.006571e-09	2.29482e-09	0.001771915	0.005271717	1.438752e-08	1.097908e-08
	3.006571e-09	2.29482e-09	0.0240061	0.0101143	1.263229e-09	1.773168e-09	0.001903316	0.005570797
	0.001771909	0.005271715	1.263229e-09	1.773168e-09	0.0237605	0.01029031	3.14439e-09	2.346463e-09
	1.438752e-08	1.097908e-08	0.001903315	0.005570802	3.14439e-09	2.346463e-09	0.02395675	0.01024019
4e+07	0.02794255	0.01065962	4.131812e-09	2.283182e-09	0.002969436	0.006645037	2.025497e-08	1.077959e-08
	4.131812e-09	2.283182e-09	0.02766987	0.009888139	1.582263e-09	2.104908e-09	0.003049197	0.006982965
	0.002969436	0.006645041	1.582263e-09	2.104908e-09	0.0275274	0.01007149	4.341921e-09	2.315017e-09
	2.025497e-08	1.077959e-08	0.003049192	0.006982963	4.341921e-09	2.315017e-09	0.02765788	0.01002763
5e+07	0.03153078	0.009460261	5.272555e-09	1.875985e-09	0.004403467	0.007733463	2.630022e-08	8.568113e-09
	5.272555e-09	1.875985e-09	0.03096374	0.008837485	1.887989e-09	2.33702e-09	0.004586614	0.008016083
	0.004403469	0.007733465	1.887989e-09	2.33702e-09	0.03092776	0.008997973	5.569254e-09	1.863537e-09
	2.630022e-08	8.568113e-09	0.00458661	0.008016081	5.569254e-09	1.863537e-09	0.03098502	0.008980668
6e+07	0.03464159	0.007515579	6.325608e-09	1.080497e-09	0.006009358	0.008498611	3.197255e-08	4.33563e-09
	6.325608e-09	1.080497e-09	0.03384233	0.007108026	2.156712e-09	2.476793e-09	0.006260806	0.008709575
	0.006009357	0.00849861	2.156712e-09	2.476793e-09	0.0339101	0.007216369	6.712344e-09	9.929831e-10
	3.197255e-08	4.33563e-09	0.006260809	0.008709575	6.712344e-09	9.929831e-10	0.03389216	0.007247476
7e+07	0.03721275	0.00496238	7.188598e-09	-7.528096e-11	0.007728154	0.008905195	3.673662e-08	-1.802091e-09
	7.188598e-09	-7.528091e-11	0.03624797	0.004818448	2.365313e-09	2.53588e-09	0.008004004	0.009047322
	0.007728148	0.008905195	2.365313e-09	2.53588e-09	0.03641081	0.004847385	7.659005e-09	-2.705598e-10
	3.673662e-08	-1.802091e-09	0.008004013	0.009047319	7.659006e-09	-2.705597e-10	0.036321	0.004948498
8e+07	0.0391851	0.001929057	7.765931e-09	-1.541058e-09	0.009474308	0.008949074	4.008994e-08	-9.611809e-09
	7.765931e-09	-1.541058e-09	0.0381261	0.002081759	2.492592e-09	2.53075e-09	0.009745167	0.009025322
	0.0094743	0.008949075	2.492592e-09	2.53075e-09	0.03836975	0.002006939	8.304155e-09	-1.876241e-09
	4.008994e-08	-9.611809e-09	0.009745178	0.009025316	8.304155e-09	-1.876241e-09	0.03821635	0.002198261
9e+07	0.04050961	-0.001457115	7.982017e-09	-3.247195e-09	0.01117171	0.008637651	4.158461e-08	-1.874506e-08
	7.982017e-09	-3.247195e-09	0.0394339	-0.0009875581	2.525568e-09	2.483545e-09	0.01141244	0.008652555
	0.01117171	0.008637653	2.525568e-09	2.483545e-09	0.03973881	-0.001186888	8.562281e-09	-3.751966e-09
	4.158461e-08	-1.874506e-08	0.01141244	0.00865255	8.562281e-09	-3.751966e-09	0.03953474	-0.0008873931
1e+08	0.04114503	-0.005071499	7.777694e-09	-5.110287e-09	0.01275449	0.007992524	4.085619e-08	-2.874715e-08
	7.777694e-09	-5.110287e-09	0.04015814	-0.004265531	2.451644e-09	2.42356e-09	0.01293027	0.00794801
	0.01275449	0.007992524	2.451644e-09	2.42356e-09	0.04049854	-0.004606655	8.363049e-09	-5.813263e-09
	4.085619e-08	-2.874715e-08	0.01293027	0.00794801	8.363049e-09	-5.813263e-09	0.04026097	-0.004183933
1.1e+08	0.04107832	-0.008745426	7.152585e-09	-7.019162e-09	0.01415631	0.007021848	3.768627e-08	-3.908e-08
	7.152585e-09	-7.019162e-09	0.04028583	-0.007742957	2.293859e-09	2.367586e-09	0.01423544	0.006989927
	0.01415631	0.007021848	2.293859e-09	2.367586e-09	0.04063024	-0.008227383	7.68516e-09	-7.919574e-09
	3.768627e-08	-3.908e-08	0.01423544	0.006989927	7.68516e-09	-7.919574e-09	0.04038326	-0.007671789
1.2e+08	0.04035565	-0.01237041	6.017784e-09	-8.880039e-09	0.01529838	0.00578857	3.188786e-08	-4.915095e-08
	6.017784e-09	-8.880039e-09	0.03972764	-0.01122432	2.035605e-09	2.295115e-09	0.01531294	0.005797788
	0.01529838	0.00578857	2.035605e-09	2.295115e-09	0.04005336	-0.01185253	6.468539e-09	-9.946099e-09
	3.188786e-08	-4.915095e-08	0.01531294	0.005797788	6.468539e-09	-9.946099e-09	0.03981957	-0.01116033
1.3e+08	0.03899468	-0.01583525	4.388946e-09	-1.05538e-08	0.01614012	0.00435456	2.351217e-08	-5.829357e-08
	4.388946e-09	-1.05538e-08	0.03852873	-0.01457567	1.664589e-09	2.275351e-09	0.01611078	0.004418481
	0.01614012	0.00435456	1.664589e-09	2.275351e-09	0.03881034	-0.01534411	4.723562e-09	-1.177394e-08
	2.351217e-08	-5.829357e-08	0.01611078	0.004418481	4.723562e-09	-1.177394e-08	0.03861376	-0.01451646
1.4e+08	0.03703904	-0.01903001	2.299536e-09	-1.192254e-08	0.0166495	0.002786384	1.272827e-08	-6.588259e-08
	2.299536e-09	-1.192254e-08	0.03673711	-0.01768329	1.191507e-09	2.334925e-09	0.01659512	0.002912038
	0.0166495	0.002786384	1.191507e-09	2.334925e-09	0.03694935	-0.01858267	2.485848e-09	-1.327695e-08
	1.272827e-08	-6.588259e-08	0.01659512	0.002912038	2.485848e-09	-1.327695e-08	0.03681411	-0.01762644
1.5e+08	0.03455091	-0.02185404	-1.898837e-10	-1.287377e-08	0.01680792	0.001155259	-1.485836e-10	-7.132626e-08
	-1.898837e-10	-1.287377e-08	0.03441545	-0.02044601	6.330866e-10	2.498959e-09	0.01674615	0.001344589
	0.01680792	0.001155259	6.330866e-10	2.498959e-09	0.03453486	-0.02146116	-1.800279e-10	-1.433463e-08
	-1.485836e-10	-7.132626e-08	0.01674615	0.001344589	-1.800279e-10	-1.433463e-08	0.03448376	-0.02038908
1.6e+08	0.03160879	-0.02421938	-2.992361e-09	-1.330687e-08	0.01661136	-0.0004655608	-1.466433e-08	-7.410032e-08
	-2.992361e-09	-1.330687e-08	0.03164073	-0.02277645	1.194985e-11	2.789265e-09	0.01655835	-0.0002149656
	0.01661136	-0.0004655608	1.194985e-11	2.789265e-09	0.03164712	-0.02388669	-3.181276e-09	-1.483933e-08
	-1.466433e-08	-7.410032e-08	0.01655835	-0.0002149656	-3.181276e-09	-1.483933e-08	0.03170016	-0.0227171
1.7e+08	0.02830501	-0.02605363	-5.996832e-09	-1.313945e-08	0.01607061	-0.002003718	-3.024102e-08	-7.377995e-08
	-5.996832e-09	-1.313945e-08	0.02850252	-0.02460292	-6.440298e-10	3.222842e-09	0.01604048	-0.00169801
	0.01607061	-0.002003718	-6.440298e-10	3.222842e-09	0.02838032	-0.02578278	-6.399357e-09	-1.470292e-08
	-3.024102e-08	-7.377995e-08	0.01604048	-0.00169801	-6.399357e-09	-1.470292e-08	0.0285533	-0.02453895
1.8e+08	0.02474295	-0.02730217	-9.071895e-09	-1.231311e-08	0.01521084	-0.003390708	-4.619883e-08	-7.006813e-08
	-9.071895e-09	-1.231311e-08	0.02510042	-0.02587119	-1.302751e-09	3.81058e-09	0.01521516	-0.003039153
	0.01521084	-0.003390708	-1.302751e-09	3.81058e-09	0.02483982	-0.02709147	-9.694018e-09	-1.38629e-08
	-4.619883e-08	-7.006813e-08	0.01521516	-0.003039153	-9.694018e-09	-1.38629e-08	0.02514318	-0.02580061
1.9e+08	0.02103368	-0.02793005	-1.207214e-08	-1.079743e-08	0.01407055	-0.004564707	-6.178456e-08	-6.28192e-08
	-1.207214e-08	-1.079743e-08	0.02154118	-0.02654597	-1.929781e-09	4.556357e-09	0.01411789	-0.004178988
	0.01407055	-0.004564707	-1.929781e-09	4.556357e-09	0.02113897	-0.02777507	-1.290998e-08	-1.228671e-08
	-6.178456e-08	-6.28192e-08	0.01411789	-0.004178988	-1.290998e-08	-1.228671e-08	0.02157683	-0.02646703
2e+08	0.01729242	-0.02792304	-1.484137e-08	-8.595538e-09	0.01269997	-0.005473137	-7.620543e-08	-5.205594e-08
	-1.484137e-08	-8.595538e-09	0.0179353	-0.02661186	-2.488516e-09	5.456226e-09	0.01279549	-0.005066593
	0.01269997	-0.005473137	-2.488516e-09	5.456226e-09	0.01739544	-0.02781723	-1.588058e-08	-9.977553e-09
	-7.620543e-08	-5.205594e-08	0.01279549	-0.005066593	-1.588058e-08	-9.977553e-09	0.01796505	-0.02652308
2.1e+08	0.01363467	-0.02728818	-1.722171e-08	-5.746945e-09	0.01115888	-0.006074845	-8.866681e-08	-3.797917e-08
	-1.722171e-08	-5.746945e-09	0.01439352	-0.02607368	-2.942686e-09	6.497559e-09	0.01130415	-0.005661656
	0.01115888	-0.006074845	-2.942686e-09	6.497559e-09	0.01372735	-0.0272235	-1.843739e-08	-6.977375e-09
	-8.866681e-08	-3.797917e-08	0.01130415	-0.005661656	-1.843739e-08	-6.977375e-09	0.01441877	-0.02597388
2.2e+08	0.01017235	-0.02605345	-1.906317e-08	-2.326644e-09	0.009514135	-0.006341816	-9.841211e-08	-2.096891e-08
	-1.906317e-08	-2.326644e-09	0.01102323	-0.02495622	-3.258967e-09	7.659475e-09	0.009707083	-0.005936166
	0.009514135	-0.006341816	-3.258967e-09	7.659475e-09	0.01024932	-0.026021	-2.04203e-08	-3.366006e-09
	-9.841211e-08	-2.096891e-08	0.009707083	-0.005936166	-2.04203e-08	-3.366006e-09	0.01104557	-0.02484451
2.3e+08	0.007010025	-0.02426683	-2.0231e-08	1.555547e-09	0.00783681	-0.006260329	-1.047632e-07	-1.576528e-09
	-2.0231e-08	1.555547e-09	0.007924931	-0.02330323	-3.408456e-09	8.91333e-09	0.008071809	-0.005875578
	0.00783681	-0.006260329	-3.408456e-09	8.91333e-09	0.007068557	-0.02425743	-2.168541e-08	7.395678e-10
	-1.047632e-07	-1.576528e-09	0.008071809	-0.005875578	-2.168541e-08	7.395678e-10	0.007946053	-0.02317908
2.4e+08	0.004241297	-0.02199461	-2.06139e-08	5.758235e-09	0.006199192	-0.005831506	-1.07159e-07	1.949223e-08
	-2.06139e-08	5.758235e-09	0.005188873	-0.02117584	-3.368502e-09	1.022369e-08	0.006467364	-0.005479403
	0.006199192	-0.005831506	-3.368502e-09	1.022369e-08	0.00428116	-0.02199938	-2.211381e-08	5.188662e-09
	-1.07159e-07	1.949223e-08	0.006467364	-0.005479403	-2.211381e-08	5.188662e-09	0.005210537	-0.02103907
2.5e+08	0.001945623	-0.019319	-2.01315e-08	1.01137e-08	0.004671713	-0.005071237	-1.051903e-07	4.140306e-08
	-2.01315e-08	1.01137e-08	0.002892133	-0.01865037	-3.124303e-09	1.154975e-08	0.004961373	-0.004761212
	0.004671713	-0.005071237	-3.124303e-09	1.154975e-08	0.001968847	-0.01932991	-2.161957e-08	9.802488e-09
	-1.051903e-07	4.140306e-08	0.004961373	-0.004761212	-2.161957e-08	9.802488e-09	0.002916087	-0.01850116
2.6e+08	0.0001855832	-0.01633524	-1.87406e-08	1.443497e-08	0.00331998	-0.004009471	-9.86291e-08	6.322673e-08
	-1.87406e-08	1.443497e-08	0.001096037	-0.01581557	-2.670163e-09	1.284717e-08	0.003617217	-0.003748038
	0.00331998	-0.004009471	-2.670163e-09	1.284717e-08	0.0001961075	-0.01634553	-2.015637e-08	1.43817e-08
	-9.86291e-08	6.322673e-08	0.003617217	-0.003748038	-2.015637e-08	1.43817e-08	0.001123946	-0.01565447
2.7e+08	-0.0009952286	-0.01314819	-1.643967e-08	1.852441e-08	0.002201996	-0.00268891	-8.744948e-08	8.39794e-08
	-1.643967e-08	1.852441e-08	-0.0001558046	-0.01276947	-2.010313e-09	1.407012e-08	0.002491385	-0.00247921
	0.002201996	-0.00268891	-2.010313e-09	1.407012e-08	-0.000991969	-0.01315272	-1.772232e-08	1.871554e-08
	-8.744948e-08	8.39794e-08	0.002491385	-0.00247921	-1.772232e-08	1.871554e-08	-0.0001224282	-0.01259737
2.8e+08	-0.001573652	-0.009868564	-1.327128e-08	2.218335e-08	0.001365732	-0.001163168	-7.183998e-08	1.026675e-07
	-1.327128e-08	2.218335e-08	-0.0008388425	-0.009615874	-1.159213e-09	1.517366e-08	0.001631117	-0.001004676
	0.001365732	-0.001163168	-1.159213e-09	1.517366e-08	-0.001571193	-0.009864087	-1.436255e-08	2.259213e-08
	-7.183998e-08	1.026675e-07	0.001631117	-0.001004676	-1.436255e-08	2.259213e-08	-0.0007987048	-0.009433972
2.9e+08	-0.001547653	-0.006609002	-9.322159e-09	2.522225e-08	0.0008471173	0.0005055321	-5.220544e-08	1.183355e-07
	-9.322159e-09	2.522225e-08	-0.0009482578	-0.006460736	-1.413104e-10	1.611598e-08	0.001072457	0.0006171285
	0.0008471172	0.0005055321	-1.413104e-10	1.611598e-08	-0.001539007	-0.006594277	-1.016928e-08	2.580928e-08
	-5.220544e-08	1.183355e-07	0.001072457	0.0006171285	-1.016928e-08	2.580928e-08	-0.0009003543	-0.006270481
3e+08	-0.0009362537	-0.003480029	-4.72086e-09	2.74707e-08	0.0006685666	0.002249015	-2.915804e-08	1.301129e-07
	-4.72086e-09	2.74707e-08	-0.0004989232	-0.003408392	1.009762e-09	1.686071e-08	0.0008387833	0.002321744
	0.0006685666	0.002249015	1.009762e-09	1.686071e-08	-0.0009144186	-0.003455854	-5.279333e-09	2.818519e-08
	-2.915804e-08	1.301129e-07	0.0008387833	0.002321744	-5.279333e-09	2.818519e-08	-0.0004425844	-0.003211429
3.1e+08	0.0002213028	-0.0005861446	3.669417e-10	2.878676e-08	0.0008380723	0.003996049	-3.497803e-09	1.372603e-07
	3.669417e-10	2.878676e-08	0.0004753423	-0.0005579425	2.252491e-09	1.737894e-08	0.0009398736	0.004041406
	0.0008380723	0.003996049	2.252491e-09	1.737894e-08	0.0002628578	-0.0005552603	1.309232e-10	2.956839e-08
	-3.497803e-09	1.372603e-07	0.0009398737	0.004041406	1.309232e-10	2.956839e-08	0.0005404118	-0.000356032
3.2e+08	0.001867121	0.001977876	5.745244e-09	2.906498e-08	0.00134892	0.005675354	2.381682e-08	1.392089e-07
	5.745244e-09	2.906498e-08	0.001923183	0.00200017	3.539236e-09	1.765085e-08	0.001371554	0.005707869
	0.00134892	0.005675354	3.539236e-09	1.765085e-08	0.001934003	0.002010978	5.852776e-09	2.984625e-08
	2.381682e-08	1.392089e-07	0.001371554	0.005707869	5.852776e-09	2.984625e-08	0.001996885	0.002205233
3.3e+08	0.003926893	0.004130282	1.11962e-08	2.824262e-08	0.002180017	0.007218592	5.170701e-08	1.355943e-07
	1.11962e-08	2.824262e-08	0.003777736	0.004187232	4.818315e-09	1.766695e-08	0.002115924	0.007255252
	0.002180017	0.007218592	4.818315e-09	1.766695e-08	0.004023399	0.004159652	1.165424e-08	2.895169e-08
	5.170701e-08	1.355943e-07	0.002115924	0.007255252	1.165424e-08	2.895169e-08	0.003859575	0.004393706
3.4e+08	0.006312723	0.005805169	1.648981e-08	2.63039e-08	0.003296824	0.00856322	7.901836e-08	1.26281e-07
	1.648981e-08	2.63039e-08	0.005959188	0.005938885	6.036311e-09	1.742885e-08	0.003142151	0.008622748
	0.003296824	0.00856322	6.036311e-09	1.742885e-08	0.00644153	0.005823757	1.72904e-08	2.686756e-08
	7.901836e-08	1.26281e-07	0.003142151	0.008622748	1.72904e-08	2.686756e-08	0.00604829	0.006145167
3.5e+08	0.008926414	0.006954679	2.139427e-08	2.328181e-08	0.004652836	0.009655077	1.045703e-07	1.113764e-07
	2.139427e-08	2.328181e-08	0.008377762	0.007207196	7.140476e-09	1.69494e-08	0.004407795	0.009757116
	0.004652836	0.009655077	7.140476e-09	1.69494e-08	0.009088366	0.006954764	2.251437e-08	2.362864e-08
	1.045703e-07	1.113764e-07	0.004407795	0.009757116	2.251437e-08	2.362864e-08	0.008472914	0.007411902
3.6e+08	0.01166312	0.007550551	2.568635e-08	1.925769e-08	0.006191551	0.01045062	1.272061e-07	9.123301e-08
	2.568635e-08	1.925769e-08	0.01093703	0.007962125	8.080796e-09	1.625219e-08	0.005860591	0.01061484
	0.006191551	0.01045062	8.080796e-09	1.625219e-08	0.01185711	0.007524185	2.708755e-08	1.932054e-08
	1.272061e-07	9.123301e-08	0.005860591	0.01061484	2.708755e-08	1.932054e-08	0.01103673	0.008164162
3.7e+08	0.01441517	0.007584921	2.916147e-08	1.435859e-08	0.007848835	0.01091868	1.458487e-07	6.644601e-08
	2.916147e-08	1.435859e-08	0.01353742	0.008192331	8.812935e-09	1.537135e-08	0.007440633	0.0111639
	0.007848835	0.01091868	8.812935e-09	1.537135e-08	0.01463813	0.007524403	3.079237e-08	1.407891e-08
	1.458487e-07	6.644601e-08	0.007440633	0.0111639	3.079237e-08	1.407891e-08	0.01363994	0.008390955
3.8e+08	0.01707603	0.007070396	3.164271e-08	8.752576e-09	0.009555589	0.01104177	1.59547e-07	3.782973e-08
	3.164271e-08	8.752576e-09	0.01607976	0.007905312	9.299761e-09	1.434985e-08	0.009082842	0.011385
	0.009555589	0.01104177	9.299761e-09	1.434985e-08	0.01732302	0.006968725	3.344053e-08	8.082514e-09
	1.59547e-07	3.782973e-08	0.009082842	0.011385	3.344053e-08	8.082514e-09	0.01618323	0.008100171
3.9e+08	0.01954408	0.006039377	3.298874e-08	2.642485e-09	0.0112406	0.01081675	1.675205e-07	6.390877e-09
	3.298874e-08	2.642485e-09	0.0184688	0.007126864	9.513073e-09	1.323792e-08	0.01071963	0.0112724
	0.0112406	0.01081675	9.513073e-09	1.323792e-08	0.01980848	0.005890671	3.488134e-08	1.546856e-09
	1.675205e-07	6.390877e-09	0.01071963	0.0112724	3.488134e-08	1.546856e-09	0.01857132	0.007318022
4e+08	0.02172629	0.004542673	3.310013e-08	-3.74179e-09	0.01283349	0.01025494	1.691972e-07	-2.670792e-08
	3.310013e-08	-3.74179e-09	0.02061656	0.005899911	9.434992e-09	1.209125e-08	0.01228368	0.01083404
	0.01283349	0.01025494	9.434992e-09	1.209125e-08	0.0220001	0.004342549	3.500862e-08	-5.283763e-09
	1.691972e-07	-2.670792e-08	0.01228368	0.01083404	3.500862e-08	-5.283763e-09	0.02071623	0.006087851
4.1e+08	0.02354146	0.002647475	3.192412e-08	-1.015193e-08	0.01426758	0.009381689	1.642435e-07	-6.019172e-08
	3.192412e-08	-1.015193e-08	0.02244527	0.004282739	9.058923e-09	1.096883e-08	0.01371063	0.01009125
	0.01426758	0.009381689	9.058923e-09	1.096883e-08	0.02381563	0.002393342	3.376572e-08	-1.214541e-08
	1.642435e-07	-6.019172e-08	0.01371063	0.01009125	3.376572e-08	-1.214541e-08	0.02254034	0.004468355
4.2e+08	0.02492307	0.0004347412	2.945758e-08	-1.633045e-08	0.01548262	0.008235315	1.525853e-07	-9.272228e-08
	2.945758e-08	-1.633045e-08	0.02389007	0.002346716	8.390115e-09	9.930774e-09	0.01494175	0.009077875
	0.01548262	0.008235315	8.390115e-09	9.930774e-09	0.02518793	0.0001260168	3.114863e-08	-1.876436e-08
	1.525853e-07	-9.272228e-08	0.01494175	0.009077875	3.114863e-08	-1.876436e-08	0.02397899	0.002531273
4.3e+08	0.02582155	-0.002003871	2.574831e-08	-2.202039e-08	0.01642732	0.006865567	1.34419e-07	-1.229505e-07
	2.574831e-08	-2.202039e-08	0.02490111	0.0001735762	7.4458e-09	9.035994e-09	0.01592627	0.007838874
	0.01642732	0.006865567	7.4458e-09	9.035994e-09	0.02606727	-0.002365632	2.720744e-08	-2.486723e-08
	1.34419e-07	-1.229505e-07	0.01592627	0.007838874	2.720744e-08	-2.486723e-08	0.02498263	0.000358666
4.4e+08	0.02620592	-0.004569454	2.089461e-08	-2.697495e-08	0.01706138	0.005331611	1.102117e-07	-1.495704e-07
	2.089461e-08	-2.697495e-08	0.02544515	-0.002147625	6.254925e-09	8.339865e-09	0.01662347	0.006428532
	0.01706138	0.005331611	6.254925e-09	8.339865e-09	0.02642299	-0.004980548	2.204581e-08	-3.019133e-08
	1.102117e-07	-1.495704e-07	0.01662347	0.006428532	2.204581e-08	-3.019133e-08	0.02551837	-0.001960158
4.5e+08	0.02606478	-0.007159521	1.50431e-08	-3.09671e-08	0.01735727	0.003699634	8.069149e-08	-1.713729e-07
	1.50431e-08	-3.09671e-08	0.02550652	-0.004523794	4.857456e-09	7.891972e-09	0.01700433	0.004908261
	0.01735727	0.003699634	4.857456e-09	7.891972e-09	0.02624446	-0.007614175	1.581887e-08	-3.449471e-08
	8.069149e-08	-1.713729e-07	0.01700433	0.004908261	1.581887e-08	-3.449471e-08	0.02557095	-0.004331922
4.6e+08	0.02540654	-0.0096718	8.385129e-09	-3.379874e-08	0.01730132	0.002040164	4.682783e-08	-1.872973e-07
	8.385129e-09	-3.379874e-08	0.0250875	-0.006861177	3.303269e-09	7.733939e-09	0.01705277	0.003344126
	0.01730132	0.002040164	3.303269e-09	7.733939e-09	0.02554132	-0.01016236	8.729317e-09	-3.756596e-08
	4.682783e-08	-1.872973e-07	0.01705277	0.003344126	8.729317e-09	-3.756596e-08	0.02514308	-0.006662785
4.7e+08	0.02425893	-0.01200799	1.133476e-09	-3.530453e-08	0.0168944	0.0004251918	9.793472e-09	-1.964484e-07
	1.133476e-09	-3.530453e-08	0.02420803	-0.00906875	1.651544e-09	7.898951e-09	0.01676628	0.001804174
	0.0168944	0.0004251918	1.651544e-09	7.898951e-09	0.02434298	-0.0125252	1.003647e-09	-3.922812e-08
	9.793472e-09	-1.964484e-07	0.01676628	0.001804174	1.003647e-09	-3.922812e-08	0.02425511	-0.008861726
4.8e+08	0.02266796	-0.01407735	-6.432415e-09	-3.537013e-08	0.01615193	-0.001074774	-2.904073e-08	-1.982233e-07
