!$
! Info: Touchstone file created by Circ.  Input file=Tx_16in_Rx_100ohms_TxVia_35mils_RxVia_45mils.circ
!$
# Hz S RI R 50
0	0.01648467	1.900136e-25	-8.511928e-05	3.704708e-24	0.0001042883	3.094291e-23	-8.51308e-05	5.22264e-24
	-8.51193e-05	3.707758e-24	0.01648229	2.280646e-25	-8.509876e-05	1.402315e-24	0.0001036643	3.736638e-23
	0.0001047953	3.137557e-23	-8.509871e-05	1.397024e-24	0.01649649	1.845868e-25	-8.511584e-05	3.612894e-24
	-8.513081e-05	5.22474e-24	0.000101815	3.755017e-23	-8.511588e-05	3.617235e-24	0.01649529	2.137052e-25
1e+07	0.02318198	0.009282563	-0.0001389676	-4.597671e-05	0.0006226286	0.002776832	-0.0003440218	0.0002421483
	-0.0001389676	-4.597671e-05	0.02473267	0.00877965	-5.033856e-05	-1.619597e-05	0.001176743	0.002814661
	0.000622658	0.002776827	-5.033856e-05	-1.619597e-05	0.02403837	0.008792133	-1.625237e-05	-1.913437e-05
	-0.0003440218	0.0002421483	0.001176681	0.002814671	-1.625237e-05	-1.913437e-05	0.02450943	0.00882877
2e+07	0.03197134	0.01177217	-9.613653e-05	-0.0001058142	0.001939073	0.005295216	-0.000384341	0.0002735323
	-9.613653e-05	-0.0001058142	0.03258818	0.0105318	-4.206075e-05	-1.53678e-05	0.002327868	0.005604925
	0.001939074	0.005295194	-4.206076e-05	-1.53678e-05	0.03207586	0.01079473	-1.411368e-05	6.036897e-06
	-0.000384341	0.0002735323	0.002327858	0.00560496	-1.411368e-05	6.036893e-06	0.03245598	0.01069244
3e+07	0.03904601	0.009884006	-7.819958e-05	-0.0001239912	0.003934398	0.007195407	-0.0003952606	0.000338476
	-7.819958e-05	-0.0001239912	0.03893686	0.008625608	-3.699573e-05	-1.465607e-05	0.004211369	0.007606621
	0.003934392	0.007195405	-3.699573e-05	-1.465607e-05	0.03860514	0.008952604	-1.693327e-05	7.714079e-06
	-0.0003952606	0.000338476	0.004211369	0.007606627	-1.693327e-05	7.714079e-06	0.03888227	0.008819319
4e+07	0.04448245	0.005622667	-0.0001358692	-7.882567e-05	0.006384273	0.008340198	-0.0003852427	0.0004074028
	-0.0001358692	-7.882567e-05	0.04381803	0.004612174	-3.294908e-05	-1.362566e-05	0.006616381	0.008801985
	0.006384273	0.008340203	-3.294908e-05	-1.362566e-05	0.04366165	0.004922615	-2.059401e-05	9.715366e-06
	-0.0003852427	0.0004074028	0.006616375	0.008801983	-2.059401e-05	9.715367e-06	0.04382988	0.004809118
5e+07	0.04806956	-0.0002077277	-0.0001692165	-1.811173e-05	0.009024126	0.008639787	-0.0003576058	0.0004735758
	-0.0001692165	-1.811173e-05	0.04702553	-0.0008200331	-2.949828e-05	-1.286728e-05	0.009394103	0.008956803
	0.009024128	0.008639789	-2.949828e-05	-1.286728e-05	0.04702713	-0.0005875518	-2.275148e-05	1.433375e-05
	-0.0003576058	0.0004735758	0.009394099	0.008956801	-2.275148e-05	1.433375e-05	0.0470902	-0.0006389095
6e+07	0.04963838	-0.006935365	-0.0001782958	4.984006e-05	0.01157699	0.008088176	-0.0003160471	0.0005323177
	-0.0001782958	4.984006e-05	0.04839778	-0.007072953	-2.644855e-05	-1.257727e-05	0.01200629	0.008249169
	0.01157699	0.008088175	-2.644855e-05	-1.257727e-05	0.04852179	-0.006968684	-2.262978e-05	2.041898e-05
	-0.0003160471	0.0005323177	0.01200629	0.008249169	-2.262978e-05	2.041898e-05	0.04849985	-0.006919491
7e+07	0.04913461	-0.01392297	-0.0001634799	0.0001180301	0.01378886	0.006746184	-0.0002655384	0.0005805139
	-0.0001634799	0.0001180301	0.04787554	-0.01357296	-2.50382e-05	-1.014319e-05	0.01420311	0.006782244
	0.01378885	0.006746184	-2.50382e-05	-1.014319e-05	0.04807325	-0.01363055	-1.982408e-05	2.669425e-05
	-0.0002655384	0.0005805139	0.01420312	0.006782241	-1.982408e-05	2.669425e-05	0.04799898	-0.01345288
8e+07	0.04664405	-0.02056805	-0.0001257932	0.0001801935	0.01542276	0.004785976	-0.0002123224	0.0006171813
	-0.0001257932	0.0001801935	0.04552739	-0.01977214	-2.513223e-05	-1.152601e-06	0.01577699	0.004728601
	0.01542275	0.004785977	-2.513223e-05	-1.152602e-06	0.04574311	-0.02000569	-1.454355e-05	3.189466e-05
	-0.0002123224	0.0006171813	0.015777	0.004728595	-1.454355e-05	3.189467e-05	0.04565682	-0.01968578
9e+07	0.04239257	-0.0263294	-6.643121e-05	0.0002306791	0.01631702	0.002431208	-0.0001641055	0.0006440457
	-6.643121e-05	0.0002306791	0.04155376	-0.02517367	-2.232826e-05	7.177285e-06	0.0165823	0.002314885
	0.01631702	0.00243121	-2.232826e-05	7.177283e-06	0.04173097	-0.02557681	-7.636942e-06	3.507497e-05
	-0.0001641055	0.0006440457	0.01658231	0.002314879	-7.636944e-06	3.507497e-05	0.04167548	-0.02511675
1e+08	0.0367235	-0.03075785	1.963937e-05	0.0002634944	0.01639555	-6.21875e-05	-0.0001392395	0.000666535
	1.963937e-05	0.0002634944	0.03629103	-0.0293641	-1.575995e-05	1.41032e-05	0.01654242	-0.000199222
	0.01639555	-6.218763e-05	-1.575995e-05	1.41032e-05	0.03637685	-0.02991106	-4.045187e-07	3.581792e-05
	-0.0001392395	0.000666535	0.01654242	-0.000199222	-4.045188e-07	3.581792e-05	0.03639225	-0.02932855
1.1e+08	0.03012253	-0.03349497	9.82516e-05	0.0002432061	0.01564411	-0.002446759	-0.00012174	0.0006411555
	9.82516e-05	0.0002432061	0.0300808	-0.03213149	-8.837542e-06	1.476782e-05	0.01570172	-0.002508413
	0.01564411	-0.002446759	-8.837542e-06	1.476782e-05	0.03004013	-0.03276854	6.017335e-06	3.313597e-05
	-0.00012174	0.0006411555	0.01570172	-0.002508413	6.017335e-06	3.313597e-05	0.03015893	-0.03209956
1.2e+08	0.02312293	-0.03440965	0.000113826	0.0002238077	0.01414468	-0.004436851	-9.323271e-05	0.0006213208
	0.000113826	0.0002238077	0.02336463	-0.03314957	-3.549795e-06	1.453621e-05	0.01417488	-0.004424246
	0.01414468	-0.004436851	-3.549795e-06	1.453621e-05	0.02318639	-0.03382606	1.112897e-05	2.842572e-05
	-9.323271e-05	0.0006213208	0.01417488	-0.004424246	1.112897e-05	2.842572e-05	0.02342377	-0.0331141
1.3e+08	0.01624173	-0.03348127	0.0001299701	0.0002031137	0.01207404	-0.005821105	-6.724928e-05	0.0006085638
	0.0001299701	0.0002031137	0.01669305	-0.0323765	7.067876e-07	1.344378e-05	0.01210987	-0.00574935
	0.01207404	-0.005821105	7.067876e-07	1.344378e-05	0.01638144	-0.03303882	1.399318e-05	2.27146e-05
	-6.724928e-05	0.0006085638	0.01210987	-0.00574935	1.399318e-05	2.27146e-05	0.01673656	-0.03233165
1.4e+08	0.009985299	-0.03083772	0.0001445047	0.0001814763	0.009659561	-0.006454416	-4.286223e-05	0.0006050325
	0.0001445047	0.0001814763	0.01057337	-0.0299229	4.142419e-06	1.172005e-05	0.009719132	-0.006345651
	0.009659561	-0.006454416	4.142419e-06	1.172005e-05	0.01015121	-0.03052043	1.442188e-05	1.716375e-05
	-4.286223e-05	0.0006050325	0.009719132	-0.006345651	1.442188e-05	1.716375e-05	0.01060555	-0.02986445
1.5e+08	0.004798718	-0.02674365	0.0001567559	0.0001595722	0.007160554	-0.006271675	-1.628753e-05	0.0006115455
	0.0001567559	0.0001595722	0.005449185	-0.02603556	6.835857e-06	9.536122e-06	0.00724889	-0.006150061
	0.007160554	-0.006271675	6.835857e-06	9.536122e-06	0.004956768	-0.02652727	1.281515e-05	1.285564e-05
	-1.628753e-05	0.0006115455	0.00724889	-0.006150061	1.281515e-05	1.285564e-05	0.005474905	-0.02596109
1.6e+08	0.001028955	-0.02157644	0.0001668075	0.0001380044	0.004841665	-0.005293561	1.715339e-05	0.0006269065
	0.0001668075	0.0001380044	0.001667989	-0.0210729	8.829285e-06	7.033398e-06	0.004952379	-0.005180906
	0.004841665	-0.005293561	8.829285e-06	7.033398e-06	0.001159296	-0.02143325	1.003795e-05	1.054683e-05
	1.715339e-05	0.0006269065	0.004952379	-0.005180906	1.003795e-05	1.054683e-05	0.001692149	-0.02098175
1.7e+08	-0.001102819	-0.01579252	0.0001751448	0.0001170727	0.002945534	-0.003623374	6.173113e-05	0.000647824
	0.0001751448	0.0001170727	-0.0005446394	-0.01547211	1.015371e-05	4.334016e-06	0.003063303	-0.003535549
	0.002945534	-0.003623374	1.015371e-05	4.334016e-06	-0.00100773	-0.01569547	7.208662e-06	1.049584e-05
	6.173113e-05	0.000647824	0.003063303	-0.003535549	7.208662e-06	1.049584e-05	-0.0005175802	-0.01536519
1.8e+08	-0.001517776	-0.0098873	0.0001823595	9.667845e-05	0.001667933	-0.001435271	0.0001203021	0.0006693073
	0.0001823595	9.667845e-05	-0.001100717	-0.009710334	1.083716e-05	1.546069e-06	0.001771755	-0.001379676
	0.001667933	-0.001435271	1.083716e-05	1.546069e-06	-0.001455588	-0.009813145	5.436366e-06	1.240631e-05
	0.0001203021	0.0006693073	0.001771755	-0.001379677	5.436366e-06	1.240631e-05	-0.001067126	-0.009589831
1.9e+08	-0.0002834936	-0.004352002	0.0001888946	7.635245e-05	0.00113812	0.001044721	0.0001936441	0.0006854229
	0.0001888946	7.635245e-05	-5.382273e-05	-0.004263128	1.074567e-05	-1.38129e-07	0.001205061	0.001070418
	0.00113812	0.001044721	1.074567e-05	-1.38129e-07	-0.0002448129	-0.004283569	5.567909e-06	1.548765e-05
	0.0001936441	0.0006854229	0.001205061	0.001070418	5.567909e-06	1.548765e-05	-1.117025e-05	-0.004132135
2e+08	0.002394865	0.00036856	0.0001948466	5.541793e-05	0.0014064	0.003562781	0.0002802097	0.0006902391
	0.0001948466	5.541793e-05	0.002409084	0.0004361912	1.04276e-05	-9.97864e-07	0.001415431	0.003570552
	0.0014064	0.003562781	1.04276e-05	-9.97864e-07	0.002423383	0.00044122	7.982938e-06	1.865611e-05
	0.0002802097	0.0006902391	0.001415431	0.003570552	7.982938e-06	1.865611e-05	0.002462076	0.0005740741
2.1e+08	0.006195312	0.003913507	0.0001998905	3.319103e-05	0.002440042	0.005863797	0.0003763179	0.0006787697
	0.0001998905	3.319103e-05	0.00598722	0.004032725	1.010375e-05	-1.888131e-06	0.002375536	0.005873867
	0.002440042	0.005863797	1.010375e-05	-1.888131e-06	0.006227928	0.003992992	1.251667e-05	2.077241e-05
	0.0003763179	0.0006787697	0.002375536	0.005873867	1.251667e-05	2.077241e-05	0.006050534	0.004173808
2.2e+08	0.01070974	0.006035374	0.0002033089	9.188786e-06	0.004127769	0.007717524	0.0004767243	0.0006477312
	0.0002033089	9.188786e-06	0.01029499	0.00627856	9.730057e-06	-2.811131e-06	0.003982259	0.007755868
	0.004127768	0.007717524	9.730057e-06	-2.811131e-06	0.01075894	0.006117766	1.849592e-05	2.088631e-05
	0.0004767243	0.0006477312	0.003982259	0.007755868	1.849592e-05	2.088631e-05	0.01036739	0.006419456
2.3e+08	0.01548165	0.006619018	0.0002041207	-1.668325e-05	0.006292117	0.008941721	0.0005754442	0.0005959788
	0.0002041207	-1.668325e-05	0.01489773	0.007051333	9.267958e-06	-3.7504e-06	0.006068009	0.009036781
	0.006292117	0.008941721	9.267958e-06	-3.7504e-06	0.01555604	0.006695484	2.488229e-05	1.845459e-05
	0.0005754442	0.0005959788	0.006068009	0.009036781	2.488229e-05	1.845459e-05	0.01497692	0.007189312
2.4e+08	0.02004731	0.005688459	0.0002012855	-4.403097e-05	0.008708226	0.009420067	0.0006666685	0.0005245485
	0.0002012855	-4.403097e-05	0.01935082	0.006361361	8.691842e-06	-4.674594e-06	0.008418269	0.009599066
	0.008708226	0.009420067	8.691842e-06	-4.674594e-06	0.02015034	0.005747352	3.049752e-05	1.346054e-05
	0.0006666685	0.0005245485	0.008418269	0.009599066	3.049752e-05	1.346054e-05	0.01943375	0.00649464
2.5e+08	0.02397679	0.003401331	0.0001939326	-7.197924e-05	0.01112704	0.00911322	0.0007455769	0.000436317
	0.0001939326	-7.197924e-05	0.02323871	0.004347064	7.993124e-06	-5.545298e-06	0.01079351	0.009398518
	0.01112704	0.00911322	7.993124e-06	-5.545298e-06	0.02410625	0.003430515	3.427613e-05	6.418132e-06
	0.0007455769	0.000436317	0.01079351	0.009398518	3.427613e-05	6.418132e-06	0.02332191	0.004474993
2.6e+08	0.02691102	3.167055e-05	0.0001815666	-9.928118e-05	0.01330062	0.008062114	0.0008089167	0.0003353655
	0.0001815666	-9.928118e-05	0.02621044	0.001259305	7.180941e-06	-6.324843e-06	0.01295327	0.008468016
	0.01330062	0.008062114	7.180941e-06	-6.324843e-06	0.0270595	2.074632e-05	3.549129e-05	-1.737704e-06
	0.0008089167	0.0003353655	0.01295327	0.008468016	3.549129e-05	-1.737704e-06	0.02629038	0.00138244
2.7e+08	0.02859192	-0.004057154	0.0001642031	-0.0001245105	0.01500701	0.006383309	0.0008552342	0.0002261877
	0.0001642031	-0.0001245105	0.02800862	-0.002563644	6.278923e-06	-6.983619e-06	0.01468007	0.006913713
	0.01500701	0.006383309	6.278923e-06	-6.983619e-06	0.02874793	-0.004114979	3.390571e-05	-9.849574e-06
	0.0008552342	0.0002261877	0.01468007	0.006913713	3.390571e-05	-9.849574e-06	0.02808214	-0.002443588
2.8e+08	0.02888304	-0.008446853	0.000142407	-0.0001462954	0.01607248	0.004256937	0.0008847469	0.0001129005
	0.000142407	-0.0001462954	0.02848964	-0.006728162	5.319867e-06	-7.50474e-06	0.01580093	0.004904094
	0.01607248	0.004256937	5.319867e-06	-7.50474e-06	0.02903276	-0.00855347	2.981692e-05	-1.678192e-05
	0.0008847469	0.0001129005	0.01580093	0.004904094	2.981692e-05	-1.678192e-05	0.02855431	-0.006608474
2.9e+08	0.02777909	-0.01270284	0.0001172235	-0.0001635477	0.01638885	0.001908418	0.0008988878	-1.375189e-06
	0.0001172235	-0.0001635477	0.02763354	-0.01082147	4.339024e-06	-7.885953e-06	0.01620441	0.002653002
	0.01638885	0.001908418	4.339024e-06	-7.885953e-06	0.02790839	-0.01285468	2.39876e-05	-2.165828e-05
	0.0008988878	-1.375189e-06	0.01620441	0.002653002	2.39876e-05	-2.165828e-05	0.02768792	-0.01069874
3e+08	0.0254037	-0.01641369	9.00142e-05	-0.0001756372	0.01592435	-0.0004142966	0.0008996445	-0.0001148494
	9.00142e-05	-0.0001756372	0.02554281	-0.01444879	3.36769e-06	-8.138621e-06	0.01585169	0.0003982102
	0.01592435	-0.0004142966	3.36769e-06	-8.138621e-06	0.02550024	-0.01660194	1.747674e-05	-2.404118e-05
	0.0008996445	-0.0001148494	0.01585169	0.0003982102	1.747674e-05	-2.404118e-05	0.02558667	-0.01431927
3.1e+08	0.02199576	-0.01922793	6.223522e-05	-0.0001824792	0.01472692	-0.002465793	0.0008888384	-0.0002270648
	6.223522e-05	-0.0001824792	0.02243048	-0.01726824	2.428118e-06	-8.284458e-06	0.01478042	-0.001622401
	0.01472692	-0.002465793	2.428118e-06	-8.284458e-06	0.02205083	-0.01943945	1.140792e-05	-2.401657e-05
	0.0008888384	-0.0002270648	0.01478042	-0.001622401	1.140792e-05	-2.401657e-05	0.02246484	-0.01712824
3.2e+08	0.01788553	-0.02088502	3.519789e-05	-0.0001845122	0.01291952	-0.004028127	0.0008674977	-0.0003385554
	3.519789e-05	-0.0001845122	0.01859861	-0.01902049	1.529915e-06	-8.35045e-06	0.01310098	-0.003194778
	0.01291952	-0.004028127	1.529915e-06	-8.35045e-06	0.01789551	-0.02110394	6.724415e-06	-2.216314e-05
	0.0008674977	-0.0003385554	0.01310098	-0.003194778	6.724415e-06	-2.216314e-05	0.01862571	-0.01886682
3.3e+08	0.01346282	-0.02123779	9.866669e-06	-0.000182573	0.01068775	-0.004933141	0.0008354692	-0.0004502633
	9.866669e-06	-0.000182573	0.01440916	-0.01955064	6.688403e-07	-8.362695e-06	0.01098549	-0.00415037
	0.01068775	-0.004933141	6.688403e-07	-8.362695e-06	0.01342993	-0.02144744	3.985142e-06	-1.941337e-05
	0.0008354692	-0.0004502633	0.01098549	-0.00415037	3.985142e-06	-1.941337e-05	0.01443218	-0.01938097
3.4e+08	0.009139986	-0.02026419	-1.326461e-05	-0.0001776969	0.008261091	-0.005079839	0.0007913445	-0.0005628449
	-1.326461e-05	-0.0001776969	0.01024978	-0.01882037	-1.716289e-07	-8.340054e-06	0.008650387	-0.004383316
	0.008261091	-0.005079839	-1.716289e-07	-8.340054e-06	0.00907232	-0.02044926	3.246094e-06	-1.683701e-05
	0.0007913445	-0.0005628449	0.008650387	-0.004383316	3.246094e-06	-1.683701e-05	0.01027256	-0.01863352
3.5e+08	0.005313219	-0.01806752	-3.419196e-05	-0.0001708832	0.005889394	-0.004444964	0.00073273	-0.000676004
	-3.419196e-05	-0.0001708832	0.006497764	-0.01690931	-1.015971e-06	-8.288595e-06	0.006334496	-0.003861321
	0.005889394	-0.004444964	-1.015971e-06	-8.288595e-06	0.005224027	-0.01821611	4.05718e-06	-1.539067e-05
	0.00073273	-0.000676004	0.006334496	-0.003861321	4.05718e-06	-1.539067e-05	0.006524364	-0.01670542
3.6e+08	0.00232569	-0.0148649	-5.331184e-05	-0.0001628824	0.003817203	-0.00308557	0.000656801	-0.0007880184
	-5.331184e-05	-0.0001628824	0.003485358	-0.01400559	-1.884387e-06	-8.19118e-06	0.004274611	-0.002629029
	0.003817203	-0.00308557	-1.884387e-06	-8.19118e-06	0.002231968	-0.01497016	4.826289e-06	-1.622873e-05
	0.000656801	-0.0007880184	0.004274611	-0.002629029	4.826289e-06	-1.622873e-05	0.003519636	-0.01378614
3.7e+08	0.0004360401	-0.01096516	-7.124423e-05	-0.0001540482	0.002258502	-0.001133251	0.0005610153	-0.0008955863
	-7.124423e-05	-0.0001540482	0.001469729	-0.01038642	-2.79744e-06	-8.030278e-06	0.002681281	-0.0008034433
	0.002258502	-0.001133251	-2.79744e-06	-8.030278e-06	0.0003566233	-0.01102645	4.948857e-06	-1.879922e-05
	0.0005610153	-0.0008955863	0.002681281	-0.0008034434	4.948857e-06	-1.879922e-05	0.001514885	-0.0101541
3.8e+08	-0.0002048031	-0.006738392	-8.860944e-05	-0.0001442915	0.001374615	0.001219419	0.0004438625	-0.000993978
	-8.860944e-05	-0.0001442915	0.0006103436	-0.006390698	-3.760129e-06	-7.771178e-06	0.001717272	0.001438126
	0.001374615	0.001219419	-3.760129e-06	-7.771178e-06	-0.0002514666	-0.006761644	3.624862e-06	-2.256982e-05
	0.0004438625	-0.000993978	0.001717272	0.001438126	3.624862e-06	-2.256982e-05	0.0006685537	-0.006149117
3.9e+08	0.0004336937	-0.002579955	-0.0001058104	-0.0001331433	0.00125762	0.003738789	0.0003054693	-0.001077533
	-0.0001058104	-0.0001331433	0.0009558557	-0.00238617	-4.757043e-06	-7.374593e-06	0.001481039	0.003876341
	0.00125762	0.003738789	-4.757043e-06	-7.374593e-06	0.0004355965	-0.002577295	2.125782e-07	-2.671035e-05
	0.0003054693	-0.001077533	0.001481039	0.003876341	2.125782e-07	-2.671035e-05	0.001028003	-0.002139516
4e+08	0.002260617	0.001127382	-0.0001228704	-0.0001199121	0.001921006	0.006174239	0.0001479418	-0.001140376
	-0.0001228704	-0.0001199121	0.002441624	0.001265474	-5.753072e-06	-6.808204e-06	0.001996884	0.00627236
	0.001921006	0.006174239	-5.753072e-06	-6.808204e-06	0.002322253	0.001138755	-5.47181e-06	-3.014577e-05
	0.0001479418	-0.001140376	0.001996884	0.00627236	-5.47181e-06	-3.014577e-05	0.002527175	0.001512917
4.1e+08	0.005074141	0.004049538	-0.0001393639	-0.000103899	0.003298508	0.008283914	-2.463311e-05	-0.001177227
	-0.0001393639	-0.000103899	0.004897928	0.00424235	-6.698352e-06	-6.055723e-06	0.003212812	0.008392224
	0.003298508	0.008283914	-6.698352e-06	-6.055723e-06	0.005200482	0.004049126	-1.308704e-05	-3.179445e-05
	-2.463311e-05	-0.001177227	0.003212812	0.008392224	-1.308704e-05	-3.179445e-05	0.004994963	0.004486667
4.2e+08	0.00858243	0.005931994	-0.0001544552	-8.462137e-05	0.00525114	0.009859376	-0.0002065232	-0.001184128
	-0.0001544552	-8.462137e-05	0.008067885	0.006291692	-7.537143e-06	-5.122437e-06	0.005006169	0.01003054
	0.00525114	0.009859376	-7.537143e-06	-5.122437e-06	0.008771373	0.00589821	-2.181592e-05	-3.081086e-05
	-0.0002065232	-0.001184128	0.005006169	0.01003054	-2.181592e-05	-3.081086e-05	0.008173283	0.006529773
4.3e+08	0.01243272	0.0066226	-0.0001670364	-6.199348e-05	0.007581572	0.01074666	-0.0003909538	-0.001158974
	-0.0001670364	-6.199348e-05	0.01163315	0.007252092	-8.218299e-06	-4.035734e-06	0.007196391	0.01103104
	0.007581572	0.01074666	-8.218299e-06	-4.035734e-06	0.01267498	0.006535169	-3.051971e-05	-2.67792e-05
	-0.0003909538	-0.001158974	0.007196391	0.01103104	-3.051971e-05	-2.67792e-05	0.0117429	0.007481995
4.4e+08	0.0162456	0.006084281	-0.0001759347	-3.642519e-05	0.01005429	0.01086165	-0.0005708664	-0.001101733
	-0.0001759347	-3.642519e-05	0.01524477	0.007066744	-8.704582e-06	-2.840569e-06	0.009563428	0.01130203
	0.01005429	0.01086165	-8.704582e-06	-2.840569e-06	0.01652541	0.005926588	-3.79634e-05	-1.981568e-05
	-0.0005708664	-0.001101733	0.009563428	0.01130203	-3.79634e-05	-1.981568e-05	0.01535442	0.007287922
4.5e+08	0.01965126	0.004396722	-0.0001801428	-8.816294e-06	0.0124194	0.01019835	-0.0007396793	-0.001014354
	-0.0001801428	-8.816294e-06	0.01855627	0.005786701	-8.978515e-06	-1.591246e-06	0.01186994	0.01082529
	0.0124194	0.01019835	-8.978515e-06	-1.591246e-06	0.0199478	0.004157826	-4.306231e-05	-1.055838e-05
	-0.0007396793	-0.001014354	0.01186994	0.01082529	-4.306231e-05	-1.055838e-05	0.01866136	0.006000096
4.6e+08	0.0223241	0.001747076	-0.0001790254	1.955319e-05	0.01443775	0.008829319	-0.0008918206	-0.0009005035
	-0.0001790254	1.955319e-05	0.02125569	0.003564103	-9.043618e-06	-3.41787e-07	0.01388501	0.009657548
	0.01443775	0.008829319	-9.043618e-06	-3.41787e-07	0.02261354	0.001423176	-4.509882e-05	-4.687424e-08
	-0.0008918206	-0.0009005035	0.01388501	0.009657548	-4.509882e-05	-4.687424e-08	0.02135226	0.003772074
4.7e+08	0.02401267	-0.001589229	-0.0001722446	4.705914e-05	0.01590479	0.006898356	-0.001034721	-0.0007423597
	-0.0001722446	4.705914e-05	0.02309396	0.0006362607	-8.922704e-06	8.616629e-07	0.01540707	0.007924699
	0.01590479	0.006898356	-8.922704e-06	8.616629e-07	0.02427067	-0.001994005	-4.365251e-05	1.03279e-05
	-0.001034721	-0.0007423597	0.01540707	0.007924699	-4.365251e-05	1.03279e-05	0.02317894	0.0008423079
