!$
! Info: Touchstone file created by Circ.  Input file=Tx_10in_Rx_93ohms_TxVia_35mils_RxVia_45mils.circ
!$
# Hz S RI R 50
0	0.009222442	1.324351e-25	1.757451e-08	2.045804e-26	7.231687e-05	1.753975e-23	3.420777e-08	4.547617e-27
	1.757453e-08	2.045679e-26	0.009221315	1.545067e-25	3.413367e-08	7.404174e-26	7.273618e-05	2.084905e-23
	7.047873e-05	1.801171e-23	3.413368e-08	7.404208e-26	0.009234898	1.262452e-25	2.086038e-08	2.424926e-26
	3.420777e-08	4.548272e-27	7.088827e-05	2.095173e-23	2.086039e-08	2.425044e-26	0.009234433	1.447637e-25
1e+07	0.01344823	-0.0009274732	2.83602e-08	4.837888e-08	0.000338935	0.001897182	8.707681e-08	1.415899e-07
	2.83602e-08	4.837888e-08	0.0134396	-0.0009276834	5.729758e-08	1.557715e-07	0.0003354172	0.001898236
	0.0003388749	0.001897185	5.729758e-08	1.557714e-07	0.01318757	-0.0009281744	3.348837e-08	5.790543e-08
	8.707681e-08	1.415899e-07	0.0003353567	0.001898246	3.348837e-08	5.790543e-08	0.01317755	-0.0009279779
2e+07	0.01558417	-0.00526114	4.816633e-08	8.34871e-08	0.0008642616	0.003749855	1.812059e-07	2.308382e-07
	4.816632e-08	8.34871e-08	0.01555053	-0.00525661	7.712351e-08	2.830945e-07	0.000850859	0.003754402
	0.000864249	0.003749893	7.712351e-08	2.830945e-07	0.01539247	-0.005171903	5.702726e-08	9.983147e-08
	1.812058e-07	2.308382e-07	0.0008508505	0.003754437	5.702726e-08	9.983147e-08	0.0153536	-0.005165652
3e+07	0.01587594	-0.01071103	7.146855e-08	1.112656e-07	0.001802708	0.005354384	3.028688e-07	2.833014e-07
	7.146855e-08	1.112656e-07	0.01580303	-0.01069154	8.991704e-08	4.063257e-07	0.001774123	0.00536658
	0.001802711	0.00535439	8.991704e-08	4.063257e-07	0.01573722	-0.01060441	8.464528e-08	1.33064e-07
	3.028688e-07	2.833014e-07	0.001774123	0.005366586	8.464528e-08	1.33064e-07	0.01565322	-0.01058023
4e+07	0.01467413	-0.0163119	9.76058e-08	1.309784e-07	0.003077438	0.006684518	4.449457e-07	2.919019e-07
	9.76058e-08	1.309784e-07	0.01455098	-0.01626357	9.955982e-08	5.277349e-07	0.003029765	0.006709958
	0.003077433	0.006684514	9.955982e-08	5.277349e-07	0.0145779	-0.01620893	1.155973e-07	1.567976e-07
	4.449457e-07	2.919019e-07	0.00302976	0.006709956	1.155973e-07	1.567976e-07	0.01443631	-0.01615083
5e+07	0.01217175	-0.02164676	1.244447e-07	1.419937e-07	0.004571158	0.007710202	5.946523e-07	2.514608e-07
	1.244447e-07	1.419937e-07	0.01199158	-0.0215524	1.066671e-07	6.481253e-07	0.00450225	0.007755582
	0.004571153	0.0077102	1.066671e-07	6.481253e-07	0.01210814	-0.02155954	1.473966e-07	1.702475e-07
	5.946523e-07	2.514608e-07	0.004502247	0.007755581	1.473966e-07	1.702475e-07	0.01190129	-0.02144774
6e+07	0.008549935	-0.02642144	1.496291e-07	1.442969e-07	0.006217327	0.008397007	7.380757e-07	1.60572e-07
	1.496291e-07	1.442969e-07	0.008311194	-0.026262	1.115424e-07	7.683739e-07	0.006127026	0.00846959
	0.006217331	0.008397007	1.115424e-07	7.683739e-07	0.008508988	-0.02635762	1.772362e-07	1.73381e-07
	7.380757e-07	1.60572e-07	0.006127029	0.008469589	1.772362e-07	1.733811e-07	0.008235265	-0.02617025
7e+07	0.004004883	-0.03041138	1.70848e-07	1.384159e-07	0.007943017	0.008723799	8.613264e-07	2.124862e-08
	1.70848e-07	1.384159e-07	0.003711476	-0.03016757	1.146046e-07	8.892271e-07	0.007833226	0.008830881
	0.00794303	0.008723796	1.146046e-07	8.892271e-07	0.003976527	-0.03037549	2.023699e-07	1.66845e-07
	8.613264e-07	2.124862e-08	0.007833235	0.008830878	2.023699e-07	1.66845e-07	0.003640579	-0.0300904
8e+07	-0.001247752	-0.03344784	1.859233e-07	1.253976e-07	0.00967234	0.008684424	9.511757e-07	-1.611923e-07
	1.859233e-07	1.253977e-07	-0.001586666	-0.03310145	1.163678e-07	1.011232e-06	0.009546988	0.008832831
	0.009672356	0.008684417	1.163679e-07	1.011232e-06	-0.00127363	-0.0334419	2.202398e-07	1.51905e-07
	9.511757e-07	-1.611923e-07	0.009546998	0.008832825	2.202398e-07	1.51905e-07	-0.001661136	-0.03303829
9e+07	-0.006974719	-0.03541334	1.929188e-07	1.068033e-07	0.01132981	0.008288229	9.957573e-07	-3.78236e-07
	1.929188e-07	1.068033e-07	-0.007345125	-0.03494851	1.173964e-07	1.134743e-06	0.01119472	0.008483815
	0.01132982	0.008288221	1.173964e-07	1.134743e-06	-0.007008337	-0.03543738	2.285941e-07	1.304149e-07
	9.957573e-07	-3.78236e-07	0.01119473	0.00848381	2.285941e-07	1.304149e-07	-0.007431186	-0.03489712
1e+08	-0.01291538	-0.03623121	1.902667e-07	8.465823e-08	0.01284354	0.007559228	9.852945e-07	-6.18493e-07
	1.902667e-07	8.465823e-08	-0.01329897	-0.03563556	1.182937e-07	1.259892e-06	0.01270618	0.007806416
	0.01284354	0.007559228	1.182937e-07	1.259892e-06	-0.01296939	-0.03628504	2.256193e-07	1.047511e-07
	9.852945e-07	-6.18493e-07	0.01270618	0.007806416	2.256193e-07	1.047511e-07	-0.01340648	-0.03559401
1.1e+08	-0.01882403	-0.03601533	1.768697e-07	6.157976e-08	0.01414626	0.006539425	9.128393e-07	-8.673865e-07
	1.768697e-07	6.157976e-08	-0.01919711	-0.0352825	1.195116e-07	1.386875e-06	0.01401562	0.006840425
	0.01414626	0.006539425	1.195116e-07	1.386875e-06	-0.01890974	-0.03608216	2.099706e-07	7.796505e-08
	9.128393e-07	-8.673865e-07	0.01401562	0.006840425	2.099706e-07	7.796505e-08	-0.01933436	-0.03523215
1.2e+08	-0.0245813	-0.03471078	1.524164e-07	4.029046e-08	0.01518745	0.005279644	7.758534e-07	-1.109626e-06
	1.524164e-07	4.029046e-08	-0.02492139	-0.03383851	1.216123e-07	1.515987e-06	0.01507286	0.00563481
	0.01518745	0.005279644	1.216123e-07	1.515987e-06	-0.02469658	-0.03478085	1.813e-07	5.327305e-08
	7.758534e-07	-1.109626e-06	0.01507286	0.00563481	1.813e-07	5.327305e-08	-0.02508184	-0.03376966
1.3e+08	-0.02994466	-0.03236796	1.171756e-07	2.355475e-08	0.0159244	0.003839733	5.748994e-07	-1.329275e-06
	1.171756e-07	2.355475e-08	-0.03022757	-0.03135925	1.253099e-07	1.646995e-06	0.01583549	0.004247104
	0.0159244	0.003839733	1.253099e-07	1.646995e-06	-0.0300887	-0.03243374	1.399263e-07	3.392761e-08
	5.748994e-07	-1.329275e-06	0.01583549	0.004247104	1.399263e-07	3.392761e-08	-0.03040626	-0.03126558
1.4e+08	-0.03471244	-0.02909396	7.20856e-08	1.40979e-08	0.01632806	0.002287168	3.143732e-07	-1.510472e-06
	7.20856e-08	1.40979e-08	-0.03491378	-0.02795788	1.312084e-07	1.779534e-06	0.01627418	0.002742376
	0.01632806	0.002287168	1.312084e-07	1.779534e-06	-0.03488334	-0.02914862	8.695231e-08	2.313045e-08
	3.143732e-07	-1.510472e-06	0.01627418	0.002742376	8.695231e-08	2.313045e-08	-0.03510513	-0.02783471
1.5e+08	-0.03871491	-0.02503329	1.874302e-08	1.443209e-08	0.01638403	0.0006935563	2.439518e-09	-1.638355e-06
	1.874302e-08	1.443209e-08	-0.03881179	-0.02378517	1.397895e-07	1.913095e-06	0.01637366	0.001189888
	0.01638403	0.0006935563	1.397895e-07	1.913095e-06	-0.03890958	-0.02507083	2.425002e-08	2.383216e-08
	2.439518e-09	-1.638355e-06	0.01637366	0.001189888	2.425002e-08	2.383216e-08	-0.03900962	-0.02362942
1.6e+08	-0.04181794	-0.02035942	-4.064936e-08	2.669785e-08	0.01609294	-0.000868502	-3.492213e-07	-1.699937e-06
	-4.064936e-08	2.669785e-08	-0.04179073	-0.01902054	1.513851e-07	2.047059e-06	0.01613308	-0.0003398963
	0.01609294	-0.000868502	1.513851e-07	2.047059e-06	-0.04203231	-0.02037484	-4.560035e-08	3.854891e-08
	-3.492213e-07	-1.699937e-06	0.01613308	-0.0003398963	-4.560035e-08	3.854891e-08	-0.0419885	-0.01883078
1.7e+08	-0.04392654	-0.01526677	-1.033729e-07	5.252015e-08	0.01547016	-0.00232848	-7.258618e-07	-1.684905e-06
	-1.033729e-07	5.252015e-08	-0.04376037	-0.01386352	1.661564e-07	2.180737e-06	0.01556587	-0.001778243
	0.01547016	-0.00232848	1.661564e-07	2.180737e-06	-0.04415575	-0.01525612	-1.194154e-07	6.919568e-08
	-7.258618e-07	-1.684905e-06	0.01556587	-0.001778243	-1.194154e-07	6.919568e-08	-0.04395155	-0.01363994
1.8e+08	-0.0449871	-0.009962422	-1.663178e-07	9.288829e-08	0.01454498	-0.003620817	-1.110291e-06	-1.586305e-06
	-1.663178e-07	9.288829e-08	-0.04467317	-0.008525137	1.840838e-07	2.313415e-06	0.0146989	-0.003060924
	0.01454498	-0.003620817	1.840838e-07	2.313415e-06	-0.04522576	-0.00992289	-1.935528e-07	1.169469e-07
	-1.110291e-06	-1.586305e-06	0.0146989	-0.003060924	-1.935528e-07	1.169469e-07	-0.04485154	-0.008269463
1.9e+08	-0.04498835	-0.004657827	-2.261354e-07	1.480675e-07	0.01335925	-0.004687559	-1.483647e-06	-1.401088e-06
	-2.261354e-07	1.480675e-07	-0.04452485	-0.003219289	2.04967e-07	2.444397e-06	0.01357128	-0.004130754
	0.01335925	-0.004687559	2.04967e-07	2.444397e-06	-0.04523074	-0.004587715	-2.640865e-07	1.821334e-07
	-1.483647e-06	-1.401088e-06	0.01357128	-0.004130754	-2.640865e-07	1.821334e-07	-0.04468487	-0.002934624
2e+08	-0.04396081	0.0004394292	-2.79409e-07	2.175485e-07	0.0119655	-0.005480644	-1.82628e-06	-1.130477e-06
	-2.79409e-07	2.175485e-07	-0.04335351	0.001845629	2.284374e-07	2.573054e-06	0.01223265	-0.004939813
	0.0119655	-0.005480644	2.284374e-07	2.573054e-06	-0.04420106	0.0005406847	-3.270048e-07	2.641817e-07
	-1.82628e-06	-1.130477e-06	0.01223265	-0.004939813	-3.270048e-07	2.641817e-07	-0.04349052	0.002155013
2.1e+08	-0.0419748	0.005133506	-3.228329e-07	3.000375e-07	0.01042476	-0.005963787	-2.118711e-06	-7.801301e-07
	-3.228329e-07	3.000375e-07	-0.04123722	0.006474736	2.539811e-07	2.698858e-06	0.01074108	-0.005451288
	0.01042476	-0.005963787	2.539811e-07	2.698858e-06	-0.04220705	0.005265357	-3.784177e-07	3.616007e-07
	-2.118711e-06	-7.801301e-07	0.01074108	-0.005451288	-3.784177e-07	3.616007e-07	-0.04134767	0.006803639
2.2e+08	-0.03913705	0.009247623	-3.533917e-07	3.934886e-07	0.008803996	-0.00611389	-2.342623e-06	-3.601019e-07
	-3.533917e-07	3.934886e-07	-0.03829022	0.01049399	2.809693e-07	2.821413e-06	0.009160697	-0.00564088
	0.008803996	-0.00611389	2.809693e-07	2.821413e-06	-0.03935565	0.009408433	-4.147653e-07	4.720157e-07
	-2.342623e-06	-3.601019e-07	0.009160697	-0.00564088	-4.147653e-07	4.720157e-07	-0.03837183	0.01083655
2.3e+08	-0.03558604	0.01263055	-3.685275e-07	4.951757e-07	0.007173403	-0.005921947	-2.481835e-06	1.154179e-07
	-3.685275e-07	4.951757e-07	-0.03465792	0.01375658	3.086954e-07	2.94048e-06	0.007559112	-0.005497738
	0.007173403	-0.005921947	3.086954e-07	2.94048e-06	-0.0357857	0.01281764	-4.330147e-07	5.922492e-07
	-2.481835e-06	1.154179e-07	0.007559112	-0.005497738	-4.330147e-07	5.922492e-07	-0.03470976	0.01410658
2.4e+08	-0.0314863	0.01516211	-3.662881e-07	6.018011e-07	0.0056035	-0.005393394	-2.523217e-06	6.285749e-07
	-3.662881e-07	6.018011e-07	-0.03051077	0.01614833	3.364142e-07	3.055982e-06	0.006004674	-0.005024871
	0.0056035	-0.005393394	3.364142e-07	3.055982e-06	-0.03166227	0.01537182	-4.308346e-07	7.184441e-07
	-2.523217e-06	6.285749e-07	0.006004674	-0.005024871	-4.308346e-07	7.184441e-07	-0.03053328	0.01649947
2.5e+08	-0.0270217	0.01675743	-3.454484e-07	7.096342e-07	0.004162248	-0.004547915	-2.457503e-06	1.158521e-06
	-3.454484e-07	7.096342e-07	-0.02603724	0.01759167	3.633801e-07	3.16801e-06	0.004563706	-0.004239048
	0.004162248	-0.004547915	3.633801e-07	3.16801e-06	-0.02716995	0.01698521	-4.067415e-07	8.46223e-07
	-2.457503e-06	1.158521e-06	0.004563706	-0.004239048	-4.067415e-07	8.46223e-07	-0.02603225	0.01793786
2.6e+08	-0.02238817	0.01736991	-3.055982e-07	8.146735e-07	0.002912234	-0.003418668	-2.279952e-06	1.682259e-06
	-3.055982e-07	8.146735e-07	-0.02143625	0.01804834	3.888835e-07	3.276811e-06	0.003297792	-0.003170143
	0.002912234	-0.003418668	3.888835e-07	3.276811e-06	-0.02250555	0.01761039	-3.602076e-07	9.708772e-07
	-2.279952e-06	1.682259e-06	0.003297792	-0.003170143	-3.602076e-07	9.708772e-07	-0.02140689	0.01838396
2.7e+08	-0.01778595	0.01699256	-2.471977e-07	9.128262e-07	0.001908029	-0.002050975	-1.990831e-06	2.175639e-06
	-2.471977e-07	9.128262e-07	-0.01690922	0.01752035	4.122797e-07	3.382776e-06	0.00226122	-0.001859965
	0.001908029	-0.002050975	4.122797e-07	3.382776e-06	-0.01787034	0.0172398	-2.91728e-07	1.087576e-06
	-1.990831e-06	2.175639e-06	0.00226122	-0.001859965	-2.91728e-07	1.087576e-06	-0.01685978	0.01784058
2.8e+08	-0.01341172	0.01565802	-1.715892e-07	1.000095e-06	0.001193849	-0.0005004875	-1.595672e-06	2.614449e-06
	-1.715892e-07	1.000095e-06	-0.01265207	0.01604965	4.330149e-07	3.486417e-06	0.001498684	-0.0003605874
	0.001193849	-0.0005004875	4.330149e-07	3.486417e-06	-0.01346216	0.01590569	-2.028415e-07	1.191586e-06
	-1.595672e-06	2.614449e-06	0.001498684	-0.0003605874	-2.028415e-07	1.191586e-06	-0.01258779	0.01635066
2.9e+08	-0.009450969	0.01343698	-8.097255e-08	1.072765e-06	0.0008016047	0.001169094	-1.105294e-06	2.975572e-06
	-8.097255e-08	1.072765e-06	-0.008847449	0.01371605	4.506447e-07	3.588351e-06	0.001043351	0.001267778
	0.0008016047	0.001169094	4.506447e-07	3.588351e-06	-0.009467712	0.01367853	-9.610624e-08	1.278498e-06
	-1.105294e-06	2.975572e-06	0.001043351	0.001267778	-9.610624e-08	1.278498e-06	-0.00877435	0.0139952
3e+08	-0.006070684	0.01043507	2.165746e-08	1.127581e-06	0.0007494409	0.00288869	-5.35568e-07	3.238146e-06
	2.165746e-08	1.127581e-06	-0.005657582	0.01063375	4.648483e-07	3.68927e-06	0.0009153743	0.002959275
	0.0007494409	0.00288869	4.648483e-07	3.68927e-06	-0.006055283	0.01066398	2.497158e-08	1.344435e-06
	-5.35568e-07	3.238146e-06	0.0009153743	0.002959275	2.497158e-08	1.344435e-06	-0.005582154	0.0108897
3.1e+08	-0.00341294	0.006788413	1.326095e-07	1.16192e-06	0.001040846	0.004586781	9.307029e-08	3.384668e-06
	1.326095e-07	1.16192e-06	-0.003217894	0.006946414	4.75438e-07	3.789926e-06	0.001120947	0.004645184
	0.001040845	0.004586781	4.75438e-07	3.789926e-06	-0.003368232	0.006998486	1.560526e-07	1.386262e-06
	9.307029e-08	3.384668e-06	0.001120947	0.004645184	1.560526e-07	1.386262e-06	-0.003146844	0.007179235
3.2e+08	-0.001589423	0.002658058	2.476276e-07	1.173929e-06	0.001664388	0.006192499	7.563553e-07	3.401993e-06
	2.476276e-07	1.173929e-06	-0.001631793	0.002821219	4.82367e-07	3.891104e-06	0.001651949	0.006256864
	0.001664388	0.006192499	4.82367e-07	3.891104e-06	-0.001519475	0.002843628	2.921198e-07	1.40175e-06
	7.563553e-07	3.401993e-06	0.001651949	0.006256864	2.921198e-07	1.40175e-06	-0.00157174	0.003032409
3.3e+08	-0.0006771985	-0.001776663	3.620518e-07	1.162647e-06	0.002594113	0.007638741	1.427144e-06	3.282164e-06
	3.620518e-07	1.162647e-06	-0.0009667397	-0.001558134	4.857357e-07	3.993604e-06	0.002486214	0.00772874
	0.002594113	0.007638741	4.857357e-07	3.993604e-06	-0.0005872026	-0.001620455	4.276704e-07	1.389732e-06
	1.427144e-06	3.282164e-06	0.002486214	0.00772874	4.276704e-07	1.389732e-06	-0.0009239132	-0.001365689
3.4e+08	-0.0007158893	-0.006325392	4.710038e-07	1.128091e-06	0.003790599	0.008865149	2.076547e-06	3.023036e-06
	4.710038e-07	1.128091e-06	-0.001251806	-0.005998967	4.857961e-07	4.098216e-06	0.003588442	0.009001179
	0.003790599	0.008865149	4.857961e-07	4.098216e-06	-0.0006120052	-0.006202374	5.56937e-07	1.350194e-06
	2.076547e-06	3.023036e-06	0.003588442	0.009001179	5.56937e-07	1.350194e-06	-0.001231761	-0.005821085
3.5e+08	-0.001706376	-0.01079443	5.695904e-07	1.071307e-06	0.005202631	0.009820815	2.675197e-06	2.628638e-06
	5.695904e-07	1.071307e-06	-0.002476818	-0.01030751	4.82955e-07	4.205692e-06	0.0049117	0.01002313
	0.005202631	0.009820815	4.82955e-07	4.205692e-06	-0.00159552	-0.01070721	6.741315e-07	1.284346e-06
	2.675197e-06	2.628638e-06	0.0049117	0.01002313	6.741315e-07	1.284346e-06	-0.002484167	-0.01013888
3.6e+08	-0.003611048	-0.01499452	6.531196e-07	9.943747e-07	0.006769429	0.01046658	3.194583e-06	2.109262e-06
	6.531196e-07	9.943747e-07	-0.004593089	-0.01429676	4.777747e-07	4.316723e-06	0.006399468	0.01075437
	0.006769429	0.01046658	4.777747e-07	4.316723e-06	-0.003500646	-0.01494431	7.737029e-07	1.19462e-06
	3.194583e-06	2.109262e-06	0.006399468	0.01075437	7.737029e-07	1.19462e-06	-0.004631276	-0.01413115
3.7e+08	-0.006355615	-0.01874832	7.173203e-07	9.003718e-07	0.008423333	0.01077679	3.608404e-06	1.481254e-06
	7.173203e-07	9.003718e-07	-0.007515733	-0.01779404	4.709675e-07	4.431903e-06	0.007988126	0.01116731
	0.008423333	0.01077679	4.709675e-07	4.431903e-06	-0.006253319	-0.01873488	8.505977e-07	1.084631e-06
	3.608404e-06	1.481254e-06	0.007988126	0.01116731	8.505977e-07	1.084631e-06	-0.007586851	-0.01762453
3.8e+08	-0.009832353	-0.02189745	7.585561e-07	7.932902e-07	0.0100928	0.01074047	3.893856e-06	7.665092e-07
	7.585561e-07	7.932902e-07	-0.01112741	-0.02064778	4.633849e-07	4.551694e-06	0.009609763	0.01124816
	0.0100928	0.01074047	4.633849e-07	4.551694e-06	-0.009745748	-0.02191899	9.005134e-07	9.590711e-07
	3.893856e-06	7.665092e-07	0.009609763	0.01124816	9.005134e-07	9.590711e-07	-0.01123208	-0.02046712
3.9e+08	-0.01390467	-0.02430859	7.740238e-07	6.779047e-07	0.01170557	0.0103618	4.032804e-06	-8.302388e-09
	7.740238e-07	6.779047e-07	-0.01528338	-0.02273357	4.559959e-07	4.676393e-06	0.01119517	0.01099753
	0.01170557	0.0103618	4.559959e-07	4.676393e-06	-0.01384096	-0.02436184	9.201308e-07	8.235536e-07
	4.032804e-06	-8.302388e-09	0.01119517	0.01099753	9.201308e-07	8.235536e-07	-0.01542068	-0.02253441
4e+08	-0.01841276	-0.02587856	7.619259e-07	5.595973e-07	0.01319189	0.009659867	4.012773e-06	-8.127643e-07
	7.619259e-07	5.595973e-07	-0.01981755	-0.0239588	4.498564e-07	4.806095e-06	0.01267689	0.01043029
	0.01319189	0.009659867	4.498564e-07	4.806095e-06	-0.01837848	-0.02595883	9.073144e-07	6.844042e-07
	4.012773e-06	-8.127643e-07	0.01267689	0.01043029	9.073144e-07	6.844042e-07	-0.01998505	-0.0237341
4.1e+08	-0.02318014	-0.02653819	7.216043e-07	4.441426e-07	0.01448755	0.008667823	3.827705e-06	-1.613937e-06
	7.216043e-07	4.441426e-07	-0.02454937	-0.02426619	4.460667e-07	4.940668e-06	0.01399212	0.009574913
	0.01448755	0.008667823	4.460667e-07	4.940668e-06	-0.02318085	-0.02663952	8.612674e-07	5.484075e-07
	3.827705e-06	-1.613937e-06	0.01399212	0.009574913	8.612674e-07	5.484075e-07	-0.02474317	-0.02400947
4.2e+08	-0.02802069	-0.02625476	6.536295e-07	3.374615e-07	0.01553666	0.007431344	3.478444e-06	-2.377732e-06
	6.536295e-07	3.374615e-07	-0.02929118	-0.02363571	4.457197e-07	5.079736e-06	0.01508541	0.008472077
	0.01553666	0.007431344	4.457197e-07	5.079736e-06	-0.02806077	-0.02637012	7.826317e-07	4.225181e-07
	3.478444e-06	-2.377732e-06	0.01508541	0.008472077	7.826317e-07	4.225181e-07	-0.02950608	-0.02334137
4.3e+08	-0.0327461	-0.02503297	5.598321e-07	2.453536e-07	0.01629408	0.006006585	2.972933e-06	-3.07037e-06
	5.598321e-07	2.453536e-07	-0.03385576	-0.02208505	4.49842e-07	5.222667e-06	0.01591098	0.007172873
	0.01629408	0.006006585	4.49842e-07	5.222667e-06	-0.0328285	-0.02515449	6.735238e-07	3.135495e-07
	2.972933e-06	-3.07037e-06	0.01591098	0.007172873	6.735238e-07	3.135495e-07	-0.03408545	-0.02174867
4.4e+08	-0.03717322	-0.02291449	4.432767e-07	1.732229e-07	0.01672725	0.004457702	2.326085e-06	-3.659863e-06
	4.432767e-07	1.732229e-07	-0.03806372	-0.01966863	4.593313e-07	5.368592e-06	0.01643461	0.005736525
	0.01672725	0.004457702	4.593313e-07	5.368592e-06	-0.03729932	-0.02303378	5.37501e-07	2.278554e-07
	2.326085e-06	-3.659863e-06	0.01643461	0.005736525	5.37501e-07	2.278554e-07	-0.03830106	-0.0192871
4.5e+08	-0.04113113	-0.01997607	3.081715e-07	1.258092e-07	0.01681753	0.002854052	1.559365e-06	-4.11745e-06
	3.081715e-07	1.258092e-07	-0.04175059	-0.01647508	4.748956e-07	5.516425e-06	0.01663496	0.004227822
	0.01681753	0.002854052	4.748956e-07	5.516425e-06	-0.04130068	-0.0200845	3.794567e-07	1.710189e-07
	1.559365e-06	-4.11745e-06	0.01663496	0.004227822	3.794567e-07	1.710189e-07	-0.04198787	-0.01604685
4.6e+08	-0.04446775	-0.0163263	1.597187e-07	1.069414e-07	0.01656089	0.001267227	7.00064e-07	-4.418927e-06
	1.597187e-07	1.069414e-07	-0.04477313	-0.01262355	4.969985e-07	5.664915e-06	0.01650436	0.002714363
	0.01656089	0.001267227	4.969985e-07	5.664915e-06	-0.04467882	-0.01641537	2.054466e-07	1.475714e-07
	7.00064e-07	-4.418927e-06	0.01650436	0.002714363	2.054466e-07	1.475714e-07	-0.04500244	-0.01214866
4.7e+08	-0.04705553	-0.01210125	3.909893e-09	1.193269e-07	0.01596802	-0.0002319708	-2.196817e-07	-4.545816e-06
	3.909893e-09	1.193269e-07	-0.04701479	-0.008258766	5.258176e-07	5.812697e-06	0.01604902	0.001263727
	0.01596802	-0.0002319708	5.258176e-07	5.812697e-06	-0.04730451	-0.01216286	2.245707e-08	1.607392e-07
	-2.196817e-07	-4.545816e-06	0.01604902	0.001263727	2.245707e-08	1.607392e-07	-0.04722832	-0.007738906
4.8e+08	-0.04879629	-0.007459084	-1.527239e-07	1.643891e-07	0.01506375	-0.001576477	-1.164103e-06	-4.48631e-06
