!$
! Info: Touchstone file created by Circ.  Input file=Tx_14in_Rx_93ohms_TxVia_35mils_RxVia_45mils.circ
!$
# Hz S RI R 50
0	0.01280881	1.741315e-25	1.744575e-08	2.842738e-26	9.316149e-05	2.440176e-23	3.395954e-08	6.307206e-27
	1.744577e-08	2.842612e-26	0.01280766	2.040498e-25	3.388566e-08	1.029941e-25	9.357897e-05	2.900741e-23
	9.132153e-05	2.505825e-23	3.388566e-08	1.029945e-25	0.01282112	1.659837e-25	2.070784e-08	3.370136e-26
	3.395954e-08	6.307854e-27	9.173037e-05	2.915015e-23	2.070784e-08	3.370254e-26	0.01282072	1.911957e-25
1e+07	0.01853869	-0.002130086	2.990003e-08	4.636615e-08	0.0005588252	0.002532548	9.713474e-08	1.3262e-07
	2.990003e-08	4.636615e-08	0.0185267	-0.002129879	5.673288e-08	1.539505e-07	0.000554003	0.002534215
	0.0005587645	0.002532551	5.673288e-08	1.539505e-07	0.01817224	-0.0021192	3.532942e-08	5.554044e-08
	9.713474e-08	1.3262e-07	0.000553942	0.002534224	3.532942e-08	5.554044e-08	0.01815834	-0.002118349
2e+07	0.02073811	-0.009100201	5.300015e-08	7.655582e-08	0.001552292	0.004906199	2.12263e-07	1.960418e-07
	5.300015e-08	7.655582e-08	0.02069241	-0.009090168	7.535258e-08	2.793273e-07	0.001534362	0.004913957
	0.001552279	0.004906237	7.535258e-08	2.793273e-07	0.02047743	-0.008962633	6.27801e-08	9.164119e-08
	2.122629e-07	1.960418e-07	0.001534354	0.004913992	6.27801e-08	9.164119e-08	0.02042475	-0.00894964
3e+07	0.0196282	-0.01730125	7.911431e-08	9.557776e-08	0.00321289	0.006751649	3.538368e-07	1.996769e-07
	7.911431e-08	9.557776e-08	0.01953248	-0.01726283	8.576977e-08	4.010473e-07	0.003176081	0.006772905
	0.003212893	0.006751655	8.576977e-08	4.010473e-07	0.01944682	-0.01714265	9.37284e-08	1.145049e-07
	3.538368e-07	1.996769e-07	0.003176081	0.00677291	9.37284e-08	1.145049e-07	0.01933684	-0.01709605
4e+07	0.01584301	-0.02506534	1.051756e-07	1.025376e-07	0.005343485	0.007980252	5.006463e-07	1.347575e-07
	1.051757e-07	1.025376e-07	0.01568923	-0.02497452	9.196402e-08	5.219419e-07	0.005285357	0.008024393
	0.00534348	0.007980248	9.196402e-08	5.219419e-07	0.01572171	-0.02491725	1.245946e-07	1.231447e-07
	5.006463e-07	1.347575e-07	0.005285351	0.00802439	1.245946e-07	1.231447e-07	0.01554548	-0.02480945
5e+07	0.009905717	-0.03156653	1.266676e-07	9.779524e-08	0.007683845	0.008544566	6.254209e-07	1.153203e-09
	1.266676e-07	9.779523e-08	0.0096957	-0.03139655	9.493245e-08	6.433476e-07	0.007605885	0.008621728
	0.00768384	0.008544565	9.493245e-08	6.433476e-07	0.009825715	-0.03144547	1.500637e-07	1.179478e-07
	6.254209e-07	1.153202e-09	0.007605881	0.008621727	1.500637e-07	1.179478e-07	0.009585557	-0.03124581
6e+07	0.00239975	-0.03625342	1.392682e-07	8.336114e-08	0.01003965	0.008421425	7.020728e-07	-1.911898e-07
	1.392682e-07	8.336115e-08	0.002145936	-0.03597873	9.5581e-08	7.665164e-07	0.009947332	0.008540982
	0.01003966	0.008421425	9.5581e-08	7.665164e-07	0.002342657	-0.03616722	1.650047e-07	1.012944e-07
	7.020728e-07	-1.911898e-07	0.009947334	0.008540981	1.650047e-07	1.012944e-07	0.002053116	-0.03584651
7e+07	-0.006031801	-0.03879041	1.394854e-07	6.265075e-08	0.01221813	0.007642118	7.090314e-07	-4.237008e-07
	1.394854e-07	6.265076e-08	-0.006307334	-0.03839061	9.509493e-08	8.923394e-07	0.01212046	0.007811301
	0.01221814	0.007642115	9.509494e-08	8.923394e-07	-0.006083217	-0.03874043	1.652989e-07	7.725586e-08
	7.090314e-07	-4.237008e-07	0.01212047	0.007811298	1.652989e-07	7.725588e-08	-0.006396582	-0.03827548
8e+07	-0.01471954	-0.03904386	1.250597e-07	4.017974e-08	0.0140443	0.006289974	6.316937e-07	-6.709922e-07
	1.250597e-07	4.017976e-08	-0.0149874	-0.03850692	9.483399e-08	1.021212e-06	0.01395295	0.006512707
	0.01404432	0.006289966	9.483401e-08	1.021212e-06	-0.01478052	-0.03902634	1.483227e-07	5.118223e-08
	6.316937e-07	-6.709922e-07	0.01395296	0.0065127	1.483227e-07	5.118226e-08	-0.01508383	-0.03840361
9e+07	-0.02300892	-0.03707073	9.530184e-08	2.116115e-08	0.01537499	0.004492888	4.643823e-07	-9.032483e-07
	9.530186e-08	2.116117e-08	-0.02323554	-0.03639515	9.617145e-08	1.153e-06	0.01530312	0.00476894
	0.015375	0.00449288	9.617146e-08	1.153e-06	-0.02309229	-0.03707804	1.13311e-07	2.920059e-08
	4.643823e-07	-9.032483e-07	0.01530313	0.004768934	1.133111e-07	2.920062e-08	-0.02334696	-0.03629614
1e+08	-0.03028279	-0.03309742	5.129846e-08	1.097172e-08	0.01610928	0.002411548	2.114987e-07	-1.089216e-06
	5.129846e-08	1.097172e-08	-0.03043407	-0.03229341	1.003307e-07	1.287013e-06	0.01607009	0.00273609
	0.01610928	0.002411548	1.003307e-07	1.287013e-06	-0.03040167	-0.03311974	6.156528e-08	1.759552e-08
	2.114987e-07	-1.089216e-06	0.01607009	0.00273609	6.156528e-08	1.759552e-08	-0.03056864	-0.0321907
1.1e+08	-0.03610139	-0.02763816	-3.986292e-09	1.472288e-08	0.01619538	0.0002330521	-1.115204e-07	-1.19888e-06
	-3.986292e-09	1.472288e-08	-0.03614669	-0.02672961	1.080909e-07	1.422526e-06	0.0162006	0.0005963245
	0.01619538	0.0002330521	1.080909e-07	1.422526e-06	-0.03625851	-0.02764832	-3.489026e-09	2.239316e-08
	-1.115204e-07	-1.19888e-06	0.0162006	0.0005963245	-3.489026e-09	2.239316e-08	-0.03630225	-0.0265987
1.2e+08	-0.04019357	-0.02102558	-6.58901e-08	3.619983e-08	0.01564263	-0.001859084	-4.796381e-07	-1.209272e-06
	-6.58901e-08	3.619983e-08	-0.04011044	-0.02004333	1.20133e-07	1.558558e-06	0.01570056	-0.001470307
	0.01564263	-0.001859084	1.20133e-07	1.558558e-06	-0.0403766	-0.02101172	-7.636633e-08	4.803212e-08
	-4.796381e-07	-1.209272e-06	0.01570056	-0.001470307	-7.636633e-08	4.803212e-08	-0.04027095	-0.01987822
1.3e+08	-0.04230286	-0.01379118	-1.286588e-07	7.766119e-08	0.01450504	-0.003690863	-8.611895e-07	-1.105173e-06
	-1.286588e-07	7.766119e-08	-0.04207802	-0.01277408	1.366883e-07	1.693616e-06	0.01461974	-0.003292643
	0.01450504	-0.003690863	1.366883e-07	1.693616e-06	-0.04250122	-0.01374587	-1.503168e-07	9.718006e-08
	-8.611895e-07	-1.105173e-06	0.01461974	-0.003292643	-1.503168e-07	9.718006e-08	-0.04223142	-0.01257419
1.4e+08	-0.04236066	-0.0065077	-1.858605e-07	1.394826e-07	0.01288283	-0.005110973	-1.219863e-06	-8.815889e-07
	-1.858605e-07	1.394826e-07	-0.04199313	-0.005499655	1.5745e-07	1.826259e-06	0.01305321	-0.004720789
	0.01288283	-0.005110973	1.5745e-07	1.826259e-06	-0.04256303	-0.006427211	-2.177931e-07	1.703048e-07
	-1.219863e-06	-8.815889e-07	0.01305321	-0.004720789	-2.177931e-07	1.703048e-07	-0.0421289	-0.00526832
1.5e+08	-0.04046239	0.0002645634	-2.310193e-07	2.199745e-07	0.01091344	-0.006002763	-1.518037e-06	-5.450222e-07
	-2.310193e-07	2.199745e-07	-0.03996534	0.001218757	1.816251e-07	1.955229e-06	0.01113285	-0.005637837
	0.01091344	-0.006002763	1.816251e-07	1.955229e-06	-0.04065743	0.0003803409	-2.711836e-07	2.654598e-07
	-1.518037e-06	-5.450222e-07	0.01113285	-0.005637837	-2.711836e-07	2.654598e-07	-0.0400751	0.001474996
1.6e+08	-0.03685238	0.006020823	-2.582736e-07	3.154173e-07	0.00876043	-0.006292807	-1.720367e-06	-1.137082e-07
	-2.582736e-07	3.154173e-07	-0.03625345	0.006880226	2.080349e-07	2.079595e-06	0.009016754	-0.005968308
	0.00876043	-0.006292807	2.080349e-07	2.079595e-06	-0.03702958	0.006168659	-3.035767e-07	3.783183e-07
	-1.720367e-06	-1.137082e-07	0.009016754	-0.005968308	-3.035767e-07	3.783183e-07	-0.03633166	0.007152477
1.7e+08	-0.03190044	0.01034871	-2.629981e-07	4.203038e-07	0.006600585	-0.005956138	-1.797381e-06	3.832526e-07
	-2.629981e-07	4.203038e-07	-0.03124038	0.01108095	2.352554e-07	2.198858e-06	0.006876953	-0.005683483
	0.006600585	-0.005956138	2.352554e-07	2.198858e-06	-0.0320509	0.01052252	-3.094891e-07	5.024447e-07
	-1.797381e-06	3.832526e-07	0.006876953	-0.005683483	-3.094891e-07	5.024447e-07	-0.03128476	0.011359
1.8e+08	-0.02607035	0.01295724	-2.423269e-07	5.277662e-07	0.004610197	-0.005017917	-1.72875e-06	9.078351e-07
	-2.423269e-07	5.277662e-07	-0.02540017	0.0135427	2.617736e-07	2.312985e-06	0.004886205	-0.00480331
	0.004610197	-0.005017917	2.617736e-07	2.312985e-06	-0.02618738	0.01314872	-2.854853e-07	6.297832e-07
	-1.72875e-06	9.078351e-07	0.004886205	-0.00480331	-2.854853e-07	6.297832e-07	-0.0254119	0.01381609
1.9e+08	-0.01988256	0.01369628	-1.955275e-07	6.301448e-07	0.002951338	-0.003551401	-1.50592e-06	1.415997e-06
	-1.955275e-07	6.301448e-07	-0.01925939	0.01413118	2.861364e-07	2.422401e-06	0.003204692	-0.003394789
	0.002951338	-0.003551401	2.861364e-07	2.422401e-06	-0.01996213	0.01389561	-2.306281e-07	7.513166e-07
	-1.50592e-06	1.415997e-06	0.003204692	-0.003394789	-2.306281e-07	7.513166e-07	-0.01924294	0.01439028
2e+08	-0.01387336	0.01256527	-1.241914e-07	7.19649e-07	0.001759085	-0.00167227	-1.133824e-06	1.86135e-06
	-1.241914e-07	7.19649e-07	-0.01335542	0.01286343	3.070762e-07	2.527934e-06	0.00196754	-0.001566825
	0.001759085	-0.00167227	3.070762e-07	2.527934e-06	-0.01391431	0.01276183	-1.467193e-07	8.578401e-07
	-1.133824e-06	1.86135e-06	0.00196754	-0.001566825	-1.467193e-07	8.578401e-07	-0.01331809	0.01310037
2.1e+08	-0.008553429	0.009710617	-3.22257e-08	7.890523e-07	0.001130639	0.0004703915	-6.314574e-07	2.199311e-06
	-3.22257e-08	7.890523e-07	-0.00819458	0.009903585	3.236043e-07	2.630733e-06	0.001274061	0.0005381919
	0.001130639	0.0004703915	3.236043e-07	2.630733e-06	-0.008557582	0.009893807	-3.830493e-08	9.407836e-07
	-6.314574e-07	2.199311e-06	0.001274061	0.0005381919	-3.830493e-08	9.407836e-07	-0.008145855	0.01011302
2.2e+08	-0.004368944	0.005412072	7.435515e-08	8.323646e-07	0.001117252	0.00270593	-3.116007e-08	2.391373e-06
	7.435515e-08	8.323646e-07	-0.004213296	0.005547584	3.350739e-07	2.732184e-06	0.001179615	0.002755599
	0.001117252	0.00270593	3.350739e-07	2.732184e-06	-0.004340991	0.005572052	8.7558e-08	9.930157e-07
	-3.116007e-08	2.391373e-06	0.001179615	0.002755599	8.7558e-08	9.930157e-07	-0.004163958	0.005727227
2.3e+08	-0.001667907	5.900227e-05	1.878241e-07	8.454307e-07	0.001719734	0.004855929	6.233918e-07	2.4091e-06
	1.878241e-07	8.454307e-07	-0.00174503	0.0001978155	3.412204e-07	2.833813e-06	0.00169088	0.004911676
	0.001719734	0.004855929	3.412204e-07	2.833813e-06	-0.001615133	0.0001874342	2.21763e-07	1.009564e-06
	6.233918e-07	2.4091e-06	0.00169088	0.004911676	2.21763e-07	1.009564e-06	-0.001706215	0.0003486805
2.4e+08	-0.0006745034	-0.00588153	2.992989e-07	8.264065e-07	0.002888087	0.006748916	1.280402e-06	2.237442e-06
	2.992989e-07	8.264065e-07	-0.0009956853	-0.00567019	3.421871e-07	2.937204e-06	0.002765065	0.006837847
	0.002888087	0.006748916	3.421871e-07	2.937204e-06	-0.0006063311	-0.005790833	3.538147e-07	9.881901e-07
	1.280402e-06	2.237442e-06	0.002765065	0.006837847	3.538147e-07	9.881901e-07	-0.0009778844	-0.005543808
2.5e+08	-0.001473345	-0.01190241	3.99428e-07	7.760723e-07	0.004525435	0.008234706	1.884135e-06	1.877005e-06
	3.99428e-07	7.760723e-07	-0.002029285	-0.01154644	3.385405e-07	3.043899e-06	0.004313288	0.008384652
	0.004525435	0.008234706	3.385405e-07	3.043899e-06	-0.001400714	-0.01185295	4.726485e-07	9.297689e-07
	1.884135e-06	1.877005e-06	0.004313288	0.008384652	4.726485e-07	9.297689e-07	-0.00204141	-0.01143728
2.6e+08	-0.004004819	-0.01749684	4.791599e-07	6.979467e-07	0.006496044	0.009197066	2.379709e-06	1.344985e-06
	4.791599e-07	6.979467e-07	-0.004765053	-0.01692744	3.312731e-07	3.155296e-06	0.006207936	0.009434209
	0.006496044	0.009197066	3.312731e-07	3.155296e-06	-0.00393946	-0.01748904	5.675521e-07	8.384255e-07
	2.379709e-06	1.344985e-06	0.006207936	0.009434209	5.675521e-07	8.384255e-07	-0.004813648	-0.01682582
2.7e+08	-0.008071956	-0.02219796	5.305514e-07	5.981831e-07	0.008636766	0.009563521	2.71808e-06	6.746226e-07
	5.305514e-07	5.981831e-07	-0.008986134	-0.02135586	3.217849e-07	3.272534e-06	0.008293405	0.009910015
	0.008636766	0.009563521	3.217849e-07	3.272534e-06	-0.008025472	-0.02222907	6.291227e-07	7.214011e-07
	2.71808e-06	6.746226e-07	0.008293405	0.009910015	6.291227e-07	7.214011e-07	-0.009074686	-0.0212505
2.8e+08	-0.01335777	-0.02561496	5.475353e-07	4.8522e-07	0.01077088	0.009311333	2.860727e-06	-8.685644e-08
	5.475353e-07	4.8522e-07	-0.01435876	-0.02445614	3.118266e-07	3.396358e-06	0.01039924	0.009783131
	0.01077088	0.009311333	3.118266e-07	3.396358e-06	-0.0133408	-0.02567912	6.501792e-07	5.88637e-07
	2.860727e-06	-8.685644e-08	0.01039924	0.009783131	6.501792e-07	5.88637e-07	-0.01448737	-0.0243351
2.9e+08	-0.01945181	-0.02746244	5.265864e-07	3.692064e-07	0.01272301	0.008469133	2.783603e-06	-8.816563e-07
	5.265864e-07	3.692064e-07	-0.02046045	-0.02596286	3.033955e-07	3.527e-06	0.01235445	0.009074224
	0.01272301	0.008469133	3.033955e-07	3.527e-06	-0.01947323	-0.02755103	6.265433e-07	4.520858e-07
	2.783603e-06	-8.816563e-07	0.01235445	0.009074224	6.265433e-07	4.520858e-07	-0.02062578	-0.02581455
3e+08	-0.02588357	-0.02758119	4.672125e-07	2.61226e-07	0.01433382	0.007114099	2.479944e-06	-1.645919e-06
	4.672125e-07	2.61226e-07	-0.02681467	-0.02573995	2.985792e-07	3.664079e-06	0.01400166	0.007851327
	0.01433382	0.007114099	2.985792e-07	3.664079e-06	-0.02594973	-0.02768333	5.576071e-07	3.247917e-07
	2.479944e-06	-1.645919e-06	0.01400166	0.007851327	5.576071e-07	3.247917e-07	-0.02701015	-0.0255541
3.1e+08	-0.03215977	-0.02594863	3.722016e-07	1.723739e-07	0.01547303	0.005365037	1.961662e-06	-2.314932e-06
	3.722016e-07	1.723739e-07	-0.03292897	-0.02378939	2.993557e-07	3.806559e-06	0.0152099	0.006223654
	0.01547303	0.005365037	2.993557e-07	3.806559e-06	-0.03227396	-0.02605193	4.466125e-07	2.198065e-07
	1.961662e-06	-2.314932e-06	0.0152099	0.006223654	4.466125e-07	2.198065e-07	-0.03314529	-0.02355795
3.2e+08	-0.03780274	-0.02267873	2.475804e-07	1.127677e-07	0.0160498	0.003372113	1.259165e-06	-2.828591e-06
	2.475804e-07	1.127677e-07	-0.03833364	-0.02024903	3.073703e-07	3.952781e-06	0.01588479	0.00433213
	0.0160498	0.003372113	3.073703e-07	3.952781e-06	-0.03796484	-0.02277017	3.005939e-07	1.490364e-07
	1.259165e-06	-2.828591e-06	0.01588479	0.00433213	3.005939e-07	1.490364e-07	-0.03855949	-0.01996686
3.3e+08	-0.04238689	-0.01801145	1.022648e-07	9.058616e-08	0.01601957	0.001304247	4.195979e-07	-3.136641e-06
	1.022648e-07	9.058616e-08	-0.04261777	-0.01538002	3.237239e-07	4.100572e-06	0.01597565	0.0023376
	0.01601957	0.001304247	3.237239e-07	4.100572e-06	-0.04259326	-0.01807829	1.299668e-07	1.221258e-07
	4.195979e-07	-3.136641e-06	0.01597565	0.0023376	1.299668e-07	1.221258e-07	-0.04284075	-0.01504538
3.4e+08	-0.0455705	-0.01229294	-5.258092e-08	1.112376e-07	0.01538706	-0.0006647049	-4.963706e-07	-3.203262e-06
	-5.258092e-08	1.112376e-07	-0.04546021	-0.009545095	3.488052e-07	4.247443e-06	0.01547882	0.000407762
	0.01538706	-0.0006647049	3.488052e-07	4.247443e-06	-0.04581414	-0.0123237	-5.22168e-08	1.454947e-07
	-4.963706e-07	-3.203262e-06	0.01547882	0.000407762	-5.22168e-08	1.454947e-07	-0.04566784	-0.009159838
3.5e+08	-0.04712083	-0.005948142	-2.044273e-07	1.767493e-07	0.01420528	-0.002369819	-1.418975e-06	-3.010613e-06
	-2.044273e-07	1.767493e-07	-0.04665316	-0.00317958	3.822013e-07	4.390838e-06	0.01443729	-0.001296087
	0.01420528	-0.002369819	3.822013e-07	4.390838e-06	-0.04739178	-0.005933452	-2.312881e-07	2.216285e-07
	-1.418975e-06	-3.010613e-06	0.01443729	-0.001296087	-2.312881e-07	2.216285e-07	-0.04683388	-0.002749042
3.6e+08	-0.04693066	0.0005520977	-3.40422e-07	2.854471e-07	0.01257089	-0.003667989	-2.27466e-06	-2.561021e-06
	-3.40422e-07	2.854471e-07	-0.04611688	0.003242603	4.227035e-07	4.528407e-06	0.01293684	-0.002631511
	0.01257089	-0.003667989	4.227035e-07	4.528407e-06	-0.04721667	0.0006187085	-3.921643e-07	3.486986e-07
	-2.27466e-06	-2.561021e-06	0.01293684	-0.002631511	-3.921643e-07	3.486986e-07	-0.04626105	0.003709986
3.7e+08	-0.04502548	0.006726845	-4.484938e-07	4.319643e-07	0.01061626	-0.004448923	-2.991875e-06	-1.877641e-06
	-4.484938e-07	4.319643e-07	-0.04390472	0.009245353	4.684126e-07	4.658258e-06	0.01109899	-0.003485751
	0.01061626	-0.004448923	4.684126e-07	4.658258e-06	-0.04531279	0.006848403	-5.206257e-07	5.205576e-07
	-2.991875e-06	-1.877641e-06	0.01109899	-0.003485751	-5.206257e-07	5.205576e-07	-0.04400542	0.009738689
3.8e+08	-0.04156075	0.01212134	-5.184101e-07	6.075811e-07	0.008499024	-0.004643546	-3.506916e-06	-1.003476e-06
	-5.184101e-07	6.075811e-07	-0.04019814	0.01438659	5.169267e-07	4.779161e-06	0.009071441	-0.003784206
	0.008499024	-0.004643546	5.169267e-07	4.779161e-06	-0.04183507	0.0122971	-6.045476e-07	7.271123e-07
	-3.506916e-06	-1.003476e-06	0.009071441	-0.003784206	-6.045476e-07	7.271123e-07	-0.04025174	0.01489339
3.9e+08	-0.03680965	0.01634109	-5.42691e-07	8.008623e-07	0.006389837	-0.004229284	-3.769383e-06	1.218046e-09
	-5.42691e-07	8.008623e-07	-0.03529222	0.01829168	5.65582e-07	4.890661e-06	0.007016681	-0.00349605
	0.006389837	-0.004229284	5.65582e-07	4.890661e-06	-0.03705723	0.01656645	-6.349758e-07	9.550423e-07
	-3.769383e-06	1.218046e-09	0.007016681	-0.00349605	-6.349758e-07	9.550423e-07	-0.03529876	0.01879883
4e+08	-0.03114218	0.01908138	-5.172988e-07	9.985313e-07	0.004459114	-0.003231903	-3.746813e-06	1.062998e-06
	-5.172988e-07	9.985313e-07	-0.02957282	0.02068162	6.117092e-07	4.993104e-06	0.005099482	-0.002636647
	0.004459114	-0.003231903	6.117092e-07	4.993104e-06	-0.03135078	0.01934813	-6.069552e-07	1.1888e-06
	-3.746813e-06	1.062998e-06	0.005099482	-0.002636647	-6.069552e-07	1.1888e-06	-0.02953608	0.02117645
4.1e+08	-0.02499709	0.02015014	-4.4205e-07	1.186503e-06	0.002863743	-0.001723735	-3.428092e-06	2.100538e-06
	-4.4205e-07	1.186503e-06	-0.02348698	0.02139406	6.528688e-07	5.087578e-06	0.003474155	-0.001266544
	0.002863743	-0.001723735	6.528688e-07	5.087578e-06	-0.02515698	0.0204469	-5.20043e-07	1.411806e-06
	-3.428092e-06	2.100538e-06	0.003474155	-0.001266544	-5.20043e-07	1.411806e-06	-0.0234142	0.02186538
4.2e+08	-0.01884866	0.0194823	-3.20723e-07	1.350987e-06	0.001734649	0.0001816394	-2.825328e-06	3.030818e-06
	-3.20723e-07	1.350987e-06	-0.01750868	0.02039547	6.87039e-07	5.175789e-06	0.002272433	0.0005129481
	0.001734649	0.0001816394	6.87039e-07	5.175789e-06	-0.01895341	0.01979532	-3.784708e-07	1.607743e-06
	-2.825328e-06	3.030818e-06	0.002272433	0.0005129481	-3.784708e-07	1.607743e-06	-0.01741003	0.02083451
4.3e+08	-0.01317074	0.01714477	-1.608623e-07	1.479576e-06	0.001166142	0.002337986	-1.973926e-06	3.775754e-06
	-1.608623e-07	1.479576e-06	-0.01210252	0.01778361	7.127443e-07	5.259904e-06	0.001592876	0.002567382
	0.001166142	0.002337986	7.127443e-07	5.259904e-06	-0.01321783	0.01745883	-1.909472e-07	1.761849e-06
	-1.973926e-06	3.775754e-06	0.001592876	0.002567381	-1.909472e-07	1.761849e-06	-0.01199037	0.01818475
4.4e+08	-0.008400722	0.0133313	2.670128e-08	1.562242e-06	0.001207939	0.004577763	-9.30779e-07	4.268753e-06
	2.670128e-08	1.562242e-06	-0.007688092	0.01377987	7.291261e-07	5.342385e-06	0.00149268	0.004739562
	0.001207939	0.004577763	7.291261e-07	5.342385e-06	-0.008391818	0.01363084	2.988286e-08	1.862117e-06
	-9.30779e-07	4.268753e-06	0.00149268	0.004739562	2.988286e-08	1.862117e-06	-0.007576025	0.0141412
4.5e+08	-0.004906173	0.008347741	2.285793e-07	1.592182e-06	0.001860589	0.00672544	2.294149e-07	4.460647e-06
	2.285793e-07	1.592182e-06	-0.004607691	0.008712157	7.359712e-07	5.42583e-06	0.001982631	0.006861988
	0.001860589	0.00672544	7.359712e-07	5.42583e-06	-0.004847184	0.008618016	2.682867e-07	1.900322e-06
	2.294149e-07	4.460647e-06	0.001982631	0.006861988	2.682867e-07	1.900322e-06	-0.004509414	0.009035667
4.6e+08	-0.002956796	0.002588573	4.297578e-07	1.56645e-06	0.003074854	0.008611759	1.419484e-06	4.324459e-06
	4.297578e-07	1.56645e-06	-0.003100001	0.002989409	7.33714e-07	5.512836e-06	0.003025771	0.008770397
	0.003074854	0.008611759	7.33714e-07	5.512836e-06	-0.002857467	0.002816812	5.065463e-07	1.872786e-06
	1.419484e-06	4.324459e-06	0.003025771	0.008770397	5.065463e-07	1.872786e-06	-0.003028181	0.003280948
4.7e+08	-0.002703888	-0.003493359	6.146818e-07	1.486333e-06	0.004755228	0.01008777	2.546407e-06	3.85853e-06
	6.146818e-07	1.486333e-06	-0.003281851	-0.002930153	7.234275e-07	5.605868e-06	0.004540031	0.01031728
	0.004755228	0.01008777	7.234275e-07	5.605868e-06	-0.002577298	-0.003316959	7.262556e-07	1.780866e-06
	2.546407e-06	3.85853e-06	0.004540031	0.01031728	7.262556e-07	1.780866e-06	-0.003247177	-0.002661317
4.8e+08	-0.004168992	-0.009421668	7.684305e-07	1.357444e-06	0.006767462	0.01103739	3.518713e-06	3.087647e-06
