!$
! Info: Touchstone file created by Circ.  Input file=Tx_12in_Rx_85ohms_TxVia_35mils_RxVia_45mils.circ
!$
# Hz S RI R 50
0	0.009694551	1.529253e-25	-6.473487e-05	-7.516233e-26	8.493808e-05	1.820579e-23	-6.473433e-05	-7.879549e-26
	-6.473489e-05	-7.279719e-26	0.009691091	1.802756e-25	-6.473354e-05	-6.610984e-26	8.358992e-05	2.191786e-23
	8.546136e-05	1.844279e-23	-6.473351e-05	-7.006696e-26	0.009702595	1.492877e-25	-6.473369e-05	1.60935e-26
	-6.473434e-05	-7.715341e-26	8.174192e-05	2.202579e-23	-6.473371e-05	1.93276e-26	0.009704202	1.689123e-25
1e+07	0.01217658	-0.01174402	-7.659263e-06	-1.610852e-05	0.0003601103	0.002214357	-4.713768e-06	-1.894605e-05
	-7.659263e-06	-1.610852e-05	0.01215953	-0.01154669	-1.13782e-05	-2.690717e-07	0.0004466586	0.00220586
	0.0003601343	0.002214358	-1.13782e-05	-2.690722e-07	0.01379067	-0.01143858	-2.483871e-05	2.989518e-06
	-4.713768e-06	-1.894605e-05	0.0004465982	0.00220587	-2.483871e-05	2.989518e-06	0.01213546	-0.01153156
2e+07	0.0106584	-0.02639794	-6.83848e-06	-5.848771e-06	0.001194273	0.004274534	-2.92661e-06	-9.820633e-06
	-6.838481e-06	-5.84877e-06	0.0108158	-0.02608405	-2.999025e-05	-1.558699e-05	0.001299592	0.004184302
	0.001194281	0.004274519	-2.999025e-05	-1.558699e-05	0.01228048	-0.02650541	-3.706107e-05	-5.662445e-06
	-2.92661e-06	-9.820633e-06	0.001299585	0.004184337	-3.706106e-05	-5.662446e-06	0.01080204	-0.02604274
3e+07	0.004408931	-0.04115555	-6.463255e-06	-3.114253e-06	0.002544559	0.005960573	-3.587308e-06	-7.443853e-06
	-6.463255e-06	-3.114253e-06	0.004671086	-0.04082763	-4.379658e-05	-1.37003e-05	0.002585075	0.005858422
	0.002544559	0.00596057	-4.379658e-05	-1.37003e-05	0.006007138	-0.04149897	-4.576509e-05	-2.330335e-06
	-3.587308e-06	-7.443853e-06	0.002585075	0.005858428	-4.576509e-05	-2.330335e-06	0.004664054	-0.04077033
4e+07	-0.005683197	-0.05409797	-6.099236e-06	-1.53878e-06	0.004232525	0.007225993	-4.963127e-06	-5.519034e-06
	-6.099236e-06	-1.53878e-06	-0.005365099	-0.05378024	-5.441142e-05	-6.473553e-06	0.004211128	0.007136587
	0.004232527	0.007225994	-5.441142e-05	-6.473553e-06	-0.004143922	-0.05464689	-5.204089e-05	4.642974e-06
	-4.963127e-06	-5.519034e-06	0.004211122	0.007136585	-5.204089e-05	4.642974e-06	-0.005367936	-0.05370918
5e+07	-0.01878347	-0.06423729	-5.703133e-06	-4.221897e-07	0.006139592	0.008009651	-5.982066e-06	-3.709108e-06
	-5.703133e-06	-4.221897e-07	-0.01844678	-0.06393115	-6.205072e-05	4.035104e-06	0.00606173	0.007952344
	0.006139593	0.008009651	-6.205072e-05	4.035104e-06	-0.0173353	-0.06497152	-5.60179e-05	1.379043e-05
	-5.982066e-06	-3.709108e-06	0.006061726	0.007952343	-5.60179e-05	1.379043e-05	-0.01844749	-0.06384658
6e+07	-0.03397371	-0.07092189	-5.263064e-06	4.382825e-07	0.00813486	0.008281577	-6.634424e-06	-1.878056e-06
	-5.263064e-06	4.382825e-07	-0.03364493	-0.07061674	-6.661522e-05	1.685495e-05	0.008009289	0.008272684
	0.008134858	0.008281577	-6.661522e-05	1.685495e-05	-0.03264552	-0.07182086	-5.761595e-05	2.440276e-05
	-6.634424e-06	-1.878056e-06	0.008009291	0.008272683	-5.761595e-05	2.440276e-05	-0.03364491	-0.07051781
7e+07	-0.05027113	-0.07378074	-4.7801e-06	1.118364e-06	0.01008645	0.008046201	-6.898181e-06	-4.096022e-09
	-4.7801e-06	1.118364e-06	-0.04996643	-0.07346025	-6.785554e-05	3.130829e-05	0.009925209	0.008099017
	0.01008645	0.008046203	-6.785554e-05	3.130829e-05	-0.04908814	-0.07482161	-5.665941e-05	3.596964e-05
	-6.898181e-06	-4.096122e-09	0.009925216	0.008099013	-5.665941e-05	3.596964e-05	-0.04996625	-0.07334548
8e+07	-0.06667571	-0.07270678	-4.261882e-06	1.650408e-06	0.01187114	0.007340517	-6.739324e-06	1.892666e-06
	-4.261881e-06	1.650407e-06	-0.06640237	-0.07235352	-6.540837e-05	4.679585e-05	0.01168919	0.007464905
	0.01187113	0.007340521	-6.540837e-05	4.679585e-05	-0.06565958	-0.07386454	-5.290109e-05	4.803218e-05
	-6.739323e-06	1.892665e-06	0.0116892	0.007464898	-5.290109e-05	4.803219e-05	-0.06640167	-0.0722212
9e+07	-0.08222274	-0.06783967	-3.718966e-06	2.048053e-06	0.01338218	0.006229536	-6.099013e-06	3.774192e-06
	-3.718966e-06	2.048053e-06	-0.08198211	-0.06743908	-5.870707e-05	6.274438e-05	0.013197	0.006431551
	0.01338217	0.00622954	-5.870707e-05	6.274438e-05	-0.08139263	-0.06908813	-4.595522e-05	6.014922e-05
	-6.099013e-06	3.774192e-06	0.01319701	0.006431545	-4.595523e-05	6.014922e-05	-0.08197972	-0.06728765
1e+08	-0.09602592	-0.05953766	-3.153202e-06	2.312234e-06	0.01453547	0.004800217	-4.727271e-06	5.63862e-06
	-3.153202e-06	2.312234e-06	-0.09582739	-0.0590857	-4.563928e-05	7.900473e-05	0.01436847	0.005082858
	0.01453547	0.004800217	-4.563928e-05	7.900473e-05	-0.09540818	-0.06085415	-3.430987e-05	7.218521e-05
	-4.727271e-06	5.63862e-06	0.01436847	0.005082858	-3.430987e-05	7.218521e-05	-0.09582164	-0.05891419
1.1e+08	-0.1073424	-0.04841444	-2.71e-06	2.583972e-06	0.01527122	0.003152061	-2.750441e-06	6.352332e-06
	-2.71e-06	2.583972e-06	-0.1071873	-0.04784156	-2.709992e-05	8.555363e-05	0.01514427	0.003498971
	0.01527122	0.003152061	-2.709992e-05	8.555363e-05	-0.1069557	-0.0497179	-2.712754e-05	7.412838e-05
	-2.750441e-06	6.352332e-06	0.01514427	0.003498971	-2.712754e-05	7.412838e-05	-0.1071753	-0.04764931
1.2e+08	-0.1156375	-0.03511551	-2.250648e-06	2.868575e-06	0.0155552	0.001396133	-1.099631e-06	6.611132e-06
	-2.250648e-06	2.868575e-06	-0.1154651	-0.03441145	-1.919598e-05	8.663669e-05	0.01547587	0.00179611
	0.0155552	0.001396133	-1.919598e-05	8.663669e-05	-0.115447	-0.0363661	-2.179791e-05	7.516749e-05
	-1.099631e-06	6.611132e-06	0.01547587	0.00179611	-2.179791e-05	7.516749e-05	-0.1154436	-0.03419852
1.3e+08	-0.1205024	-0.02043432	-1.77593e-06	3.095914e-06	0.01538217	-0.0003559385	3.881059e-08	6.530509e-06
	-1.77593e-06	3.095914e-06	-0.1202708	-0.01961195	-1.244405e-05	8.703649e-05	0.01535887	8.49843e-05
	0.01538217	-0.0003559386	-1.244405e-05	8.703649e-05	-0.1204829	-0.02160548	-1.558281e-05	7.614083e-05
	3.88106e-08	6.530509e-06	0.01535887	8.498432e-05	-1.558281e-05	7.614083e-05	-0.1202366	-0.01937961
1.4e+08	-0.1217395	-0.005229268	-1.292589e-06	3.256481e-06	0.01477144	-0.001996681	3.007546e-07	6.328031e-06
	-1.292589e-06	3.256481e-06	-0.1214167	-0.004314429	-5.038379e-06	8.705388e-05	0.01481025	-0.001529154
	0.01477144	-0.001996681	-5.038379e-06	8.705388e-05	-0.1218662	-0.006300707	-8.795014e-06	7.671553e-05
	3.007546e-07	6.328031e-06	0.01481025	-0.001529154	-8.795014e-06	7.671553e-05	-0.1213666	-0.004065248
1.5e+08	-0.1193586	0.009628605	-8.110586e-07	3.347792e-06	0.0137652	-0.003427236	5.920172e-07	6.151186e-06
	-8.110586e-07	3.347792e-06	-0.1189239	0.01060093	2.782091e-06	8.646705e-05	0.01386881	-0.002949168
	0.0137652	-0.003427236	2.782091e-06	8.646705e-05	-0.1196067	0.008672172	-1.634989e-06	7.670046e-05
	5.920172e-07	6.151186e-06	0.01386881	-0.002949168	-1.634989e-06	7.670046e-05	-0.1188555	0.01086316
1.6e+08	-0.1135704	0.02330196	-3.377621e-07	3.373568e-06	0.01242609	-0.004561405	9.033422e-07	5.986225e-06
	-3.377621e-07	3.373568e-06	-0.1130158	0.02429121	1.082548e-05	8.51374e-05	0.0125931	-0.004089683
	0.01242609	-0.004561405	1.082548e-05	8.51374e-05	-0.1139151	0.02247135	5.738084e-06	7.598098e-05
	9.033422e-07	5.986225e-06	0.0125931	-0.004089683	5.738084e-06	7.598098e-05	-0.1129278	0.02456172
1.7e+08	-0.1047724	0.03503025	1.207191e-07	3.33783e-06	0.01083421	-0.005329269	1.228854e-06	5.82383e-06
	1.207191e-07	3.33783e-06	-0.104103	0.03599398	1.891685e-05	8.298185e-05	0.01105881	-0.004880508
	0.01083421	-0.005329269	1.891685e-05	8.298185e-05	-0.1051886	0.03433211	1.317459e-05	7.448632e-05
	1.228854e-06	5.82383e-06	0.01105881	-0.004880508	1.317459e-05	7.448632e-05	-0.1039955	0.03626747
1.8e+08	-0.09352537	0.04416878	5.581629e-07	3.245185e-06	0.009083755	-0.005680478	1.564484e-06	5.657277e-06
	5.581629e-07	3.245185e-06	-0.09275988	0.04506653	2.689057e-05	7.996072e-05	0.009355768	-0.005269828
	0.009083755	-0.005680478	2.689057e-05	7.996072e-05	-0.09398878	0.04360575	2.052956e-05	7.218139e-05
	1.564484e-06	5.657277e-06	0.009355768	-0.005269828	2.052956e-05	7.218139e-05	-0.09263465	0.0453376
1.9e+08	-0.08052413	0.0502225	9.690738e-07	3.100796e-06	0.007278982	-0.005587192	1.907181e-06	5.481436e-06
	9.690738e-07	3.100796e-06	-0.07969357	0.05101945	3.45894e-05	7.607131e-05	0.007584196	-0.005227163
	0.007278982	-0.005587192	3.45894e-05	7.607131e-05	-0.08101091	0.04979333	2.766284e-05	6.906261e-05
	1.907181e-06	5.481436e-06	0.007584196	-0.005227163	2.766284e-05	6.906261e-05	-0.07955403	0.05128315
2e+08	-0.06655991	0.05287308	1.348892e-06	2.9102e-06	0.005529361	-0.005046501	2.254503e-06	5.292092e-06
	1.348892e-06	2.9102e-06	-0.06570602	0.05354355	4.186668e-05	7.134324e-05	0.005850232	-0.004745885
	0.005529361	-0.005046501	4.186668e-05	7.134324e-05	-0.06704757	0.05257276	3.444173e-05	6.515466e-05
	2.254503e-06	5.292092e-06	0.005850232	-0.004745885	3.444173e-05	6.515466e-05	-0.06555705	0.05379585
2.1e+08	-0.05247789	0.0519979	1.694052e-06	2.679041e-06	0.00394387	-0.00408198	2.604266e-06	5.085551e-06
	1.694052e-06	2.679041e-06	-0.05165034	0.05252823	4.85895e-05	6.583449e-05	0.004260492	-0.003844958
	0.00394387	-0.00408198	4.85895e-05	6.583449e-05	-0.05294569	0.0518178	4.074438e-05	6.050771e-05
	2.604266e-06	5.085551e-06	0.004260492	-0.003844958	4.074438e-05	6.050771e-05	-0.051498	0.05276641
2.2e+08	-0.03912997	0.04767907	2.001898e-06	2.412821e-06	0.002624495	-0.00274394	2.95426e-06	4.858355e-06
	2.001898e-06	2.412821e-06	-0.03838297	0.04806977	5.464241e-05	5.962691e-05	0.002915815	-0.002569458
	0.002624495	-0.00274394	5.464241e-05	5.962691e-05	-0.03955955	0.04760727	4.646348e-05	5.519375e-05
	2.95426e-06	4.858355e-06	0.002915815	-0.002569458	4.646348e-05	5.519375e-05	-0.03823413	0.04829282
2.3e+08	-0.0273256	0.04020134	2.270492e-06	2.116714e-06	0.001659287	-0.001107929	3.301944e-06	4.607182e-06
	2.270492e-06	2.116714e-06	-0.02671387	0.04046831	5.993047e-05	5.282136e-05	0.001904479	-0.0009893927
	0.001659287	-0.001107929	5.993047e-05	5.282136e-05	-0.02770159	0.04022302	5.150947e-05	4.930254e-05
	3.301944e-06	4.607182e-06	0.001904479	-0.0009893927	5.150947e-05	4.930254e-05	-0.02657574	0.04067705
2.4e+08	-0.01778326	0.03003784	2.498373e-06	1.795487e-06	0.001115547	0.0007288226	3.644205e-06	4.328977e-06
	2.498373e-06	1.795487e-06	-0.01735774	0.03021244	6.438165e-05	4.553269e-05	0.001295476	0.0008034901
	0.001115547	0.0007288226	6.438165e-05	4.553269e-05	-0.01809381	0.03013591	5.581314e-05	4.293715e-05
	3.644205e-06	4.328977e-06	0.001295476	0.0008034901	5.581314e-05	4.293715e-05	-0.01723736	0.03040966
2.5e+08	-0.0110858	0.01782358	2.684305e-06	1.453543e-06	0.001033899	0.002653121	3.977205e-06	4.02106e-06
	2.684305e-06	1.453543e-06	-0.01088942	0.0179516	6.794823e-05	3.788361e-05	0.001132553	0.002701032
	0.001033899	0.002653121	6.794823e-05	3.788361e-05	-0.01132304	0.01797942	5.9327e-05	3.620847e-05
	3.977205e-06	4.02106e-06	0.001132553	0.002701032	5.9327e-05	3.620847e-05	-0.0107931	0.01814199
2.6e+08	-0.007643336	0.004317789	2.827089e-06	1.095066e-06	0.001424043	0.004543423	4.29635e-06	3.681443e-06
	2.827089e-06	1.095066e-06	-0.007706983	0.004457172	7.060667e-05	2.999907e-05	0.001429857	0.004585897
	0.001424043	0.004543423	7.060667e-05	2.999907e-05	-0.007803579	0.004512148	6.202555e-05	2.923015e-05
	4.29635e-06	3.681443e-06	0.001429857	0.004585897	6.202555e-05	2.923015e-05	-0.007639861	0.004647114
2.7e+08	-0.007666558	-0.009642933	2.925472e-06	7.242406e-07	0.002262927	0.006278759	4.596381e-06	3.309058e-06
	2.925472e-06	7.242406e-07	-0.008005809	-0.009425392	7.2356e-05	2.200058e-05	0.002169881	0.006340149
	0.002262927	0.006278759	7.2356e-05	2.200058e-05	-0.007750357	-0.009428984	6.390395e-05	2.211338e-05
	4.596381e-06	3.309058e-06	0.002169881	0.006340149	6.390395e-05	2.211338e-05	-0.007971364	-0.009228134
2.8e+08	-0.01115326	-0.0231973	2.978179e-06	3.454794e-07	0.003495764	0.007748073	4.871645e-06	2.904035e-06
	2.978179e-06	3.454794e-07	-0.01176602	-0.02283017	7.321526e-05	1.40017e-05	0.00330416	0.007854303
	0.003495764	0.007748073	7.321526e-05	1.40017e-05	-0.01116518	-0.02298142	6.497588e-05	1.496271e-05
	4.871645e-06	2.904035e-06	0.00330416	0.007854303	6.497588e-05	1.496271e-05	-0.01176573	-0.02261689
2.9e+08	-0.01788931	-0.035514	2.984049e-06	-3.638972e-08	0.005039962	0.008858944	5.116397e-06	2.467795e-06
	2.984049e-06	-3.638972e-08	-0.01875463	-0.03492601	7.321933e-05	6.104302e-06	0.004756817	0.00903584
	0.005039962	0.008858944	7.321933e-05	6.104302e-06	-0.01783742	-0.03531173	6.526996e-05	7.872509e-06
	5.116397e-06	2.467795e-06	0.004756817	0.00903584	6.526996e-05	7.872509e-06	-0.01878773	-0.03468759
3e+08	-0.02746403	-0.04584405	2.942257e-06	-4.160163e-07	0.00679161	0.009544673	5.325156e-06	2.003052e-06
	2.942257e-06	-4.160163e-07	-0.0285423	-0.04496915	7.241443e-05	-1.603506e-06	0.006430595	0.009816206
	0.00679161	0.009544673	7.241443e-05	-1.603506e-06	-0.02735929	-0.04566809	6.482575e-05	9.249505e-07
	5.325156e-06	2.003052e-06	0.006430595	0.009816206	6.482575e-05	9.249505e-07	-0.02860566	-0.04469663
3.1e+08	-0.0392988	-0.05356671	2.852551e-06	-7.875342e-07	0.008633768	0.009768964	5.493095e-06	1.513684e-06
	2.852551e-06	-7.875342e-07	-0.04053323	-0.05234899	7.085309e-05	-9.047701e-06	0.008214683	0.01015552
	0.008633768	0.009768964	7.085309e-05	-9.047701e-06	-0.03915422	-0.05342641	6.368983e-05	-5.810725e-06
	5.493095e-06	1.513684e-06	0.008214683	0.01015552	6.368983e-05	-5.810725e-06	-0.04062146	-0.05203417
3.2e+08	-0.05268614	-0.05822568	2.715502e-06	-1.144656e-06	0.0104456	0.009527766	5.616267e-06	1.004478e-06
	2.715502e-06	-1.144656e-06	-0.0540056	-0.05662382	6.859053e-05	-1.616742e-05	0.009993388	0.01004458
	0.0104456	0.009527766	6.859053e-05	-1.616742e-05	-0.05251586	-0.05812683	6.191177e-05	-1.227769e-05
	5.616267e-06	1.004478e-06	0.009993388	0.01004458	6.191177e-05	-1.227769e-05	-0.0541112	-0.05625987
3.3e+08	-0.06683589	-0.0595534	2.53276e-06	-1.48086e-06	0.01211132	0.008848293	5.691764e-06	4.808308e-07
	2.53276e-06	-1.48086e-06	-0.06815888	-0.0575442	6.568331e-05	-2.291363e-05	0.01165468	0.009504138
	0.01211132	0.008848293	6.568331e-05	-2.291363e-05	-0.0666543	-0.05949814	5.954095e-05	-1.842991e-05
	5.691764e-06	4.808308e-07	0.01165468	0.009504138	5.954095e-05	-1.842991e-05	-0.06827261	-0.05712622
3.4e+08	-0.08092483	-0.05748226	2.307084e-06	-1.789676e-06	0.01352803	0.007785577	5.717683e-06	-5.150571e-08
	2.307084e-06	-1.789676e-06	-0.08216424	-0.05506317	6.218351e-05	-2.924565e-05	0.01309771	0.008581886
	0.01352803	0.007785577	6.218351e-05	-2.924565e-05	-0.08074577	-0.05746937	5.662394e-05	-2.422933e-05
	5.717683e-06	-5.150571e-08	0.01309771	0.008581886	5.662394e-05	-2.422933e-05	-0.08227563	-0.05458862
3.5e+08	-0.09414598	-0.05214314	2.042392e-06	-2.064945e-06	0.01461192	0.006417214	5.693391e-06	-5.869405e-07
	2.042392e-06	-2.064945e-06	-0.09521444	-0.04933343	5.814042e-05	-3.512891e-05	0.0142388	0.007347621
	0.01461192	0.006417214	5.814042e-05	-3.512891e-05	-0.09398202	-0.0521683	5.320499e-05	-2.964458e-05
	5.693391e-06	-5.869405e-07	0.0142388	0.007347621	5.320499e-05	-2.964458e-05	-0.09531242	-0.04880238
3.6e+08	-0.1057546	-0.0438522	1.743722e-06	-2.301096e-06	0.01530239	0.004837062	5.61905e-06	-1.120113e-06
	1.743722e-06	-2.301096e-06	-0.10657	-0.04069281	5.360005e-05	-4.053243e-05	0.01501547	0.005887472
	0.01530239	0.004837062	5.360005e-05	-4.053243e-05	-0.1056164	-0.04390853	4.932447e-05	-3.464753e-05
	5.61905e-06	-1.120113e-06	0.01501547	0.005887472	4.932447e-05	-3.464753e-05	-0.1066435	-0.04010811
3.7e+08	-0.1151082	-0.033088	1.417111e-06	-2.493407e-06	0.01556422	0.003148603	5.495483e-06	-1.646072e-06
	1.417111e-06	-2.493407e-06	-0.1155989	-0.02963998	4.860539e-05	-4.542611e-05	0.01538868	0.004297769
	0.01556422	0.003148603	4.860539e-05	-4.542611e-05	-0.1150041	-0.03316667	4.501958e-05	-3.921093e-05
	5.495483e-06	-1.646072e-06	0.01538868	0.004297769	4.501958e-05	-3.921093e-05	-0.1156378	-0.02900721
3.8e+08	-0.1216992	-0.020461	1.069413e-06	-2.638211e-06	0.015388	0.001458541	5.323991e-06	-2.160367e-06
	1.069413e-06	-2.638211e-06	-0.1218092	-0.01680264	4.319836e-05	-4.977947e-05	0.01534348	0.002679134
	0.015388	0.001458541	4.319836e-05	-4.977947e-05	-0.1216351	-0.02055181	4.032603e-05	-4.330695e-05
	5.323991e-06	-2.160367e-06	0.01534348	0.002679134	4.032603e-05	-4.330695e-05	-0.1218047	-0.0161299
3.9e+08	-0.125179	-0.006677597	7.080721e-07	-2.733081e-06	0.01478919	-0.0001289928	5.106138e-06	-2.659055e-06
	7.080721e-07	-2.733081e-06	-0.1248719	-0.002900455	3.742181e-05	-5.356083e-05	0.01488828	0.001131106
	0.01478919	-0.0001289928	3.742181e-05	-5.356083e-05	-0.125158	-0.00676964	3.52799e-05	-4.690619e-05
	5.106138e-06	-2.659055e-06	0.01488828	0.001131106	3.52799e-05	-4.690619e-05	-0.1248172	-0.002197987
4e+08	-0.1253734	0.00749904	3.408581e-07	-2.776938e-06	0.0138062	-0.001517483	4.84357e-06	-3.138622e-06
	3.408581e-07	-2.776938e-06	-0.1246355	0.01129509	3.132135e-05	-5.673732e-05	0.01405343	-0.0002525702
	0.0138062	-0.001517483	3.132135e-05	-5.673732e-05	-0.125396	0.007416803	2.991955e-05	-4.997752e-05
	4.84357e-06	-3.138622e-06	0.01405343	-0.0002525702	2.991955e-05	-4.997752e-05	-0.1245265	0.01201547
4.1e+08	-0.1222893	0.02128971	-2.442884e-08	-2.770107e-06	0.0124978	-0.002622332	4.537876e-06	-3.595887e-06
	-2.442884e-08	-2.770107e-06	-0.1211313	0.02500211	2.494726e-05	-5.927565e-05	0.01288906	-0.001388019
	0.0124978	-0.002622332	2.494726e-05	-5.927565e-05	-0.1223534	0.02122787	2.428761e-05	-5.248866e-05
	4.537876e-06	-3.595887e-06	0.01288906	-0.001388019	2.428761e-05	-5.248866e-05	-0.1209668	0.02572764
4.2e+08	-0.1161125	0.0339398	-3.802647e-07	-2.714304e-06	0.01094005	-0.00337452	4.190499e-06	-4.027838e-06
	-3.802647e-07	-2.714304e-06	-0.1145701	0.03746924	1.835597e-05	-6.114338e-05	0.01146255	-0.002204799
	0.01094005	-0.00337452	1.835597e-05	-6.114338e-05	-0.1162136	0.03390798	1.843259e-05	-5.440743e-05
	4.190499e-06	-4.027838e-06	0.01146255	-0.002204799	1.843259e-05	-5.440743e-05	-0.1143522	0.038187
4.3e+08	-0.1071973	0.04475835	-7.197024e-07	-2.612538e-06	0.009222867	-0.003723749	3.802703e-06	-4.431447e-06
	-7.197024e-07	-2.612538e-06	-0.1053304	0.04801493	1.161114e-05	-6.231072e-05	0.009855575	-0.002649064
	0.009222867	-0.003723749	1.161114e-05	-6.231072e-05	-0.1073289	0.04476475	1.241001e-05	-5.570349e-05
	3.802703e-06	-4.431447e-06	0.009855575	-0.002649064	1.241001e-05	-5.570349e-05	-0.1050642	0.0487126
4.4e+08	-0.09604865	0.05315432	-1.03665e-06	-2.468934e-06	0.007446047	-0.003641113	3.375625e-06	-4.803484e-06
	-1.03665e-06	-2.468934e-06	-0.09393876	0.05606335	4.784155e-06	-6.275273e-05	0.008160689	-0.00268639
	0.007446047	-0.003641113	4.784155e-06	-6.275273e-05	-0.09620267	0.0532053	6.283061e-06	-5.635052e-05
	3.375625e-06	-4.803484e-06	0.008160689	-0.00268639	6.283061e-06	-5.635052e-05	-0.09363242	0.05673001
4.5e+08	-0.08329647	0.05866855	-1.326093e-06	-2.288487e-06	0.005714763	-0.003121236	2.910393e-06	-5.140348e-06
	-1.326093e-06	-2.288487e-06	-0.08104284	0.06117577	-2.045997e-06	-6.245182e-05	0.006477261	-0.002304179
	0.005714763	-0.003121236	-2.045997e-06	-6.245182e-05	-0.08346347	0.05876833	1.224287e-07	-5.63287e-05
	2.910393e-06	-5.140348e-06	0.006477261	-0.002304179	1.224287e-07	-5.63287e-05	-0.08070718	0.06180261
4.6e+08	-0.06966308	0.061	-1.584244e-06	-2.076747e-06	0.004134382	-0.002183683	2.408306e-06	-5.437945e-06
	-1.584244e-06	-2.076747e-06	-0.06737772	0.0630759	-8.793672e-06	-6.140026e-05	0.004906689	-0.001513442
	0.004134382	-0.002183683	-8.793672e-06	-6.140026e-05	-0.06983298	0.06115041	-5.994567e-06	-5.56271e-05
	2.408306e-06	-5.437945e-06	0.004906689	-0.001513442	-5.994567e-06	-5.56271e-05	-0.0670256	0.06365686
4.7e+08	-0.05592516	0.0600247	-1.808589e-06	-1.839471e-06	0.00280464	-0.00087334	1.871112e-06	-5.691601e-06
	-1.808589e-06	-1.839471e-06	-0.05372662	0.06166753	-1.536824e-05	-5.960241e-05	0.003546869	-0.0003496326
	0.00280464	-0.00087334	-1.536824e-05	-5.960241e-05	-0.05608776	0.06022505	-1.198559e-05	-5.424589e-05
	1.871112e-06	-5.691601e-06	0.003546869	-0.0003496326	-1.198559e-05	-5.424589e-05	-0.05337227	0.06219977
4.8e+08	-0.04287108	0.05580577	-1.997819e-06	-1.582282e-06	0.001813362	0.0007406219	1.301266e-06	-5.89614e-06
