!$
! Info: Touchstone file created by Circ.  Input file=Tx_14in_Rx_100ohms_TxVia_35mils_RxVia_45mils.circ
!$
# Hz S RI R 50
0	0.01446999	1.738425e-25	1.738703e-08	3.207145e-26	9.3004e-05	2.758007e-23	3.384534e-08	7.096365e-27
	1.738705e-08	3.207019e-26	0.01446883	2.0371e-25	3.377155e-08	1.163725e-25	9.342058e-05	3.278612e-23
	9.11632e-05	2.832204e-23	3.377156e-08	1.163729e-25	0.01448224	1.657093e-25	2.063813e-08	3.803219e-26
	3.384534e-08	7.097009e-27	9.157166e-05	3.294741e-23	2.063813e-08	3.803338e-26	0.01448186	1.908796e-25
1e+07	0.02160236	0.008174987	3.017309e-08	4.582406e-08	0.0009960687	0.002518635	9.638871e-08	1.324256e-07
	3.017309e-08	4.582406e-08	0.02159328	0.008174303	5.947873e-08	1.518197e-07	0.0009914475	0.002520185
	0.0009960079	0.002518638	5.947873e-08	1.518197e-07	0.02140867	0.008214193	3.565507e-08	5.489928e-08
	9.638871e-08	1.324256e-07	0.0009913862	0.002520194	3.565507e-08	5.489928e-08	0.02139768	0.008214148
2e+07	0.02841892	0.01045351	5.424169e-08	7.51139e-08	0.001891056	0.00506556	2.102446e-07	1.966127e-07
	5.424169e-08	7.51139e-08	0.02838403	0.01045902	8.498232e-08	2.721136e-07	0.001873935	0.005072908
	0.001891042	0.005065598	8.498232e-08	2.721136e-07	0.02830559	0.01058924	6.423978e-08	8.995463e-08
	2.102444e-07	1.966127e-07	0.001873925	0.005072943	6.423978e-08	8.995463e-08	0.0282637	0.01059771
3e+07	0.03414716	0.009689853	8.167472e-08	9.287209e-08	0.003404339	0.007008362	3.506078e-07	2.025742e-07
	8.167472e-08	9.287209e-08	0.03407351	0.009715496	1.047168e-07	3.848485e-07	0.003369158	0.00702858
	0.003404341	0.007008367	1.047168e-07	3.848485e-07	0.03410573	0.009853022	9.675713e-08	1.113387e-07
	3.506078e-07	2.025742e-07	0.003369158	0.007028586	9.675713e-08	1.113387e-07	0.03401776	0.009886794
4e+07	0.0389087	0.007142742	1.092779e-07	9.810376e-08	0.005402802	0.008352354	4.973758e-07	1.416236e-07
	1.092779e-07	9.810376e-08	0.03878946	0.007206687	1.209701e-07	4.920508e-07	0.005347128	0.008394387
	0.005402797	0.008352349	1.209701e-07	4.920508e-07	0.03893217	0.007305454	1.294807e-07	1.179374e-07
	4.973758e-07	1.416236e-07	0.005347122	0.008394385	1.294807e-07	1.179374e-07	0.03879031	0.007386233
5e+07	0.04256739	0.003288708	1.32118e-07	9.101792e-08	0.007831802	0.00889468	6.243044e-07	1.304971e-08
	1.32118e-07	9.101791e-08	0.04240306	0.003411547	1.327645e-07	5.948651e-07	0.007756772	0.008967995
	0.007831797	0.008894678	1.327645e-07	5.948651e-07	0.0426458	0.003431103	1.566543e-07	1.099603e-07
	6.243044e-07	1.304971e-08	0.007756768	0.008967994	1.566543e-07	1.099603e-07	0.04245097	0.003583374
6e+07	0.0449758	-0.001485587	1.459872e-07	7.377762e-08	0.01025717	0.008743406	7.062044e-07	-1.742976e-07
	1.459872e-07	7.377763e-08	0.04477499	-0.00128384	1.392636e-07	6.950514e-07	0.01016769	0.008856994
	0.01025718	0.008743406	1.392637e-07	6.950514e-07	0.04509618	-0.001377999	1.732261e-07	8.991239e-08
	7.062044e-07	-1.742976e-07	0.01016769	0.008856993	1.732261e-07	8.991239e-08	0.04485896	-0.001130538
7e+07	0.04602681	-0.006810176	1.473264e-07	4.975927e-08	0.01249448	0.007933836	7.21744e-07	-4.03412e-07
	1.473264e-07	4.975928e-08	0.04580557	-0.006513101	1.400193e-07	7.945198e-07	0.01239878	0.008094791
	0.01249449	0.007933834	1.400193e-07	7.945198e-07	0.0461739	-0.006746836	1.749581e-07	6.180695e-08
	7.21744e-07	-4.03412e-07	0.01239879	0.008094788	1.749581e-07	6.180697e-08	0.0459137	-0.006384876
8e+07	0.0456791	-0.01231733	1.337574e-07	2.340806e-08	0.01437419	0.006548217	6.558061e-07	-6.505863e-07
	1.337575e-07	2.340808e-08	0.04545927	-0.01191454	1.350847e-07	8.95217e-07	0.0142831	0.006760665
	0.01437421	0.00654821	1.350847e-07	8.95217e-07	0.04583641	-0.01230261	1.590411e-07	3.092296e-08
	6.558061e-07	-6.505863e-07	0.01428311	0.006760659	1.590411e-07	3.0923e-08	0.04557945	-0.01181409
9e+07	0.04396882	-0.01764897	1.043872e-07	-1.189277e-10	0.01575418	0.004710762	5.014322e-07	-8.874524e-07
	1.043872e-07	-1.189104e-10	0.04377577	-0.01713779	1.250269e-07	9.990165e-07	0.01568003	0.004975053
	0.01575419	0.004710755	1.25027e-07	9.990165e-07	0.04411963	-0.01768222	1.244344e-07	3.358265e-09
	5.014322e-07	-8.874524e-07	0.01568004	0.004975047	1.244345e-07	3.358295e-09	0.04389623	-0.01706437
1e+08	0.04102792	-0.02247011	6.00271e-08	-1.541037e-08	0.01652326	0.002578033	2.611373e-07	-1.08364e-06
	6.00271e-08	-1.541037e-08	0.04088791	-0.02185663	1.109309e-07	1.10756e-06	0.01647864	0.002890301
	0.01652326	0.002578033	1.109309e-07	1.10756e-06	0.04115461	-0.02254614	7.209946e-08	-1.451103e-08
	2.611373e-07	-1.08364e-06	0.01647864	0.002890301	7.209946e-08	-1.451103e-08	0.04099605	-0.02180657
1.1e+08	0.03699115	-0.02659552	3.330801e-09	-1.733593e-08	0.01664575	0.00037393	-5.195956e-08	-1.209351e-06
	3.330801e-09	-1.733593e-08	0.03692868	-0.02589664	9.437709e-08	1.222451e-06	0.01664226	0.0007256981
	0.01664575	0.00037393	9.437709e-08	1.222451e-06	0.03708321	-0.02669714	5.09958e-09	-1.6556e-08
	-5.195956e-08	-1.209351e-06	0.01664226	0.0007256982	5.09958e-09	-1.6556e-08	0.03701895	-0.02585516
1.2e+08	0.03204272	-0.02965708	-6.153266e-08	-1.702727e-09	0.01614734	-0.001766382	-4.152408e-07	-1.240659e-06
	-6.153266e-08	-1.702727e-09	0.03207623	-0.02889463	7.740845e-08	1.344797e-06	0.01619359	-0.001387101
	0.01614734	-0.001766382	7.740845e-08	1.344797e-06	0.03209801	-0.02977255	-7.158102e-08	2.169469e-09
	-4.152408e-07	-1.240659e-06	0.01619359	-0.001387101	-7.158102e-08	2.169469e-09	0.03215052	-0.02885559
1.3e+08	0.02651816	-0.03147132	-1.290026e-07	3.433861e-08	0.01505898	-0.003672137	-7.989417e-07	-1.160597e-06
	-1.290026e-07	3.433861e-08	0.02665996	-0.03067372	6.245565e-08	1.474829e-06	0.01515978	-0.003280214
	0.01505898	-0.003672137	6.245565e-08	1.474829e-06	0.02653568	-0.0315887	-1.513649e-07	4.503144e-08
	-7.989417e-07	-1.160597e-06	0.01515978	-0.003280214	-1.513649e-07	4.503144e-08	0.02671914	-0.03063188
1.4e+08	0.02076006	-0.0319458	-1.926196e-07	9.185627e-08	0.01346812	-0.005188042	-1.168019e-06	-9.617704e-07
	-1.926196e-07	9.185627e-08	0.02101366	-0.03114616	5.201201e-08	1.612068e-06	0.01362361	-0.004800018
	0.01346812	-0.005188042	5.201201e-08	1.612068e-06	0.02074196	-0.03205352	-2.266174e-07	1.132898e-07
	-1.168019e-06	-9.617704e-07	0.01362361	-0.004800018	-2.266174e-07	1.132898e-07	0.02105951	-0.03109698
1.5e+08	0.01511539	-0.03107705	-2.455916e-07	1.698628e-07	0.01150373	-0.00618973	-1.48528e-06	-6.478886e-07
	-2.455916e-07	1.698628e-07	0.0154737	-0.03031015	4.841738e-08	1.755263e-06	0.01170884	-0.005822308
	0.01150373	-0.00618973	4.841738e-08	1.755263e-06	0.01506682	-0.03116476	-2.893176e-07	2.057779e-07
	-1.48528e-06	-6.478886e-07	0.01170884	-0.005822308	-2.893176e-07	2.057779e-07	0.01550889	-0.03025006
1.6e+08	0.009915841	-0.02894838	-2.814509e-07	2.65221e-07	0.00932491	-0.006594214	-1.714899e-06	-2.342874e-07
	-2.814509e-07	2.65221e-07	0.01036058	-0.0282471	5.361787e-08	1.90244e-06	0.009569303	-0.006262603
	0.00932491	-0.006594214	5.361787e-08	1.90244e-06	0.009844553	-0.02900763	-3.318325e-07	3.187965e-07
	-1.714899e-06	-2.342874e-07	0.009569303	-0.006262603	-3.318325e-07	3.187965e-07	0.01038835	-0.02817362
1.7e+08	0.005457596	-0.02572295	-2.947387e-07	3.72765e-07	0.007107599	-0.006366649	-1.826023e-06	2.52661e-07
	-2.947387e-07	3.72765e-07	0.005959976	-0.02511457	6.893537e-08	2.051015e-06	0.00737622	-0.006082921
	0.007107599	-0.006366649	6.893537e-08	2.051015e-06	0.005373377	-0.0257478	-3.47719e-07	4.462599e-07
	-1.826023e-06	2.52661e-07	0.00737622	-0.006082921	-3.47719e-07	4.462599e-07	0.005983829	-0.02502633
1.8e+08	0.001982961	-0.02163183	-2.816413e-07	4.856432e-07	0.005030227	-0.005523043	-1.796126e-06	7.772512e-07
	-2.816413e-07	4.856432e-07	0.002505556	-0.02113473	9.487787e-08	2.198008e-06	0.005304276	-0.005294681
	0.005030227	-0.005523043	9.487787e-08	2.198008e-06	0.001896943	-0.02161927	-3.324688e-07	5.801004e-07
	-1.796126e-06	7.772512e-07	0.005304276	-0.005294681	-3.324688e-07	5.801004e-07	0.002529021	-0.02103143
1.9e+08	-0.0003346166	-0.01695788	-2.405041e-07	5.95864e-07	0.003259201	-0.004128765	-1.613765e-06	1.297154e-06
	-2.405041e-07	5.95864e-07	0.0001650771	-0.01657883	1.310199e-07	2.3403e-06	0.003517584	-0.003957539
	0.003259201	-0.004128765	1.310199e-07	2.3403e-06	-0.0004107501	-0.01690811	-2.841092e-07	7.109078e-07
	-1.613765e-06	1.297154e-06	0.003517584	-0.003957539	-2.841092e-07	7.109078e-07	0.000191418	-0.01646115
2e+08	-0.001400975	-0.01201611	-1.721562e-07	6.949968e-07	0.001935515	-0.002293011	-1.28043e-06	1.766918e-06
	-1.721562e-07	6.949968e-07	-0.0009693125	-0.01174869	1.759745e-07	2.474936e-06	0.002156612	-0.002174324
	0.001935515	-0.002293011	1.759745e-07	2.474936e-06	-0.001455852	-0.01193267	-2.035832e-07	8.287486e-07
	-1.28043e-06	1.766918e-06	0.002156612	-0.002174324	-2.035832e-07	8.287486e-07	-0.0009372962	-0.01161816
2.1e+08	-0.001206263	-0.00713216	-8.000016e-08	7.749594e-07	0.001163551	-0.0001597344	-8.112834e-07	2.141952e-06
	-8.000016e-08	7.749594e-07	-0.0008856863	-0.006956312	2.274675e-07	2.599429e-06	0.001327153	-8.25244e-05
	0.001163551	-0.0001597344	2.274675e-07	2.599429e-06	-0.001229737	-0.007021775	-9.485787e-08	9.240861e-07
	-8.112834e-07	2.141952e-06	0.001327153	-8.252441e-05	-9.485788e-08	9.240861e-07	-0.000845842	-0.006815106
2.2e+08	0.0001757786	-0.002620228	3.015307e-08	8.288086e-07	0.001002961	0.002104155	-2.346656e-07	2.382647e-06
	3.015307e-08	8.288086e-07	0.0003484064	-0.002503049	2.825083e-07	2.712025e-06	0.0010922	0.002156927
	0.001002961	0.002104155	2.825083e-07	2.712025e-06	0.0001917545	-0.002492437	3.526388e-08	9.887059e-07
	-2.346656e-07	2.382647e-06	0.0010922	0.002156927	3.526388e-08	9.887059e-07	0.000397457	-0.002353825
2.3e+08	0.00259424	0.001237999	1.504926e-07	8.514507e-07	0.00146424	0.004322316	4.096333e-07	2.458233e-06
	1.504926e-07	8.514507e-07	0.002592017	0.001340194	3.376396e-07	2.811901e-06	0.001467341	0.004372598
	0.00146424	0.004322316	3.376396e-07	2.811901e-06	0.002654839	0.001371469	1.776137e-07	1.016551e-06
	4.096333e-07	2.458233e-06	0.001467341	0.004372598	1.776137e-07	1.016551e-06	0.002650798	0.00149455
2.4e+08	0.005832668	0.004211861	2.718197e-07	8.401983e-07	0.0025083	0.006323087	1.073211e-06	2.350028e-06
	2.718197e-07	8.401983e-07	0.005641726	0.004350427	3.892378e-07	2.899274e-06	0.002419974	0.006396172
	0.0025083	0.006323087	3.892378e-07	2.899274e-06	0.0059396	0.004337946	3.213683e-07	1.004381e-06
	1.073211e-06	2.350028e-06	0.002419974	0.006396171	3.213683e-07	1.004381e-06	0.005709884	0.004507037
2.5e+08	0.009625035	0.006136466	3.843037e-07	7.951177e-07	0.004049974	0.007953054	1.702784e-06	2.053756e-06
	3.843037e-07	7.951177e-07	0.009246622	0.00636647	4.338291e-07	2.975411e-06	0.003872321	0.008075626
	0.004049974	0.007953054	4.338291e-07	2.975411e-06	0.009776207	0.006241784	4.549309e-07	9.521906e-07
	1.702784e-06	2.053756e-06	0.003872321	0.008075626	4.549309e-07	9.521906e-07	0.00932297	0.006522708
2.6e+08	0.01367485	0.006922664	4.783081e-07	7.191373e-07	0.005965103	0.009089001	2.2445e-06	1.580711e-06
	4.783081e-07	7.191373e-07	0.0131262	0.007298396	4.683887e-07	3.042541e-06	0.005707926	0.009286959
	0.005965103	0.009089001	4.683887e-07	3.042541e-06	0.01386432	0.006994612	5.669009e-07	8.633493e-07
	2.2445e-06	1.580711e-06	0.005707926	0.009286959	5.669009e-07	8.633493e-07	0.01320882	0.007452112
2.7e+08	0.01767602	0.006561638	5.452135e-07	6.17912e-07	0.008100586	0.009647361	2.648483e-06	9.576299e-07
	5.452135e-07	6.17912e-07	0.01698992	0.007131963	4.905969e-07	3.103694e-06	0.007781058	0.009943589
	0.008100586	0.009647361	4.905969e-07	3.103694e-06	0.01789431	0.006589492	6.470453e-07	7.444571e-07
	2.648483e-06	9.576299e-07	0.007781058	0.009943589	6.470453e-07	7.444571e-07	0.01707633	0.007281667
2.8e+08	0.02133404	0.005123899	5.781681e-07	4.99461e-07	0.01028654	0.009590491	2.873228e-06	2.252633e-07
	5.781681e-07	4.99461e-07	0.02055701	0.005927825	4.990325e-07	3.162471e-06	0.009928235	0.01000277
	0.01028654	0.009590491	4.990325e-07	3.162471e-06	0.0215687	0.005099819	6.871914e-07	6.049293e-07
	2.873228e-06	2.252633e-07	0.009928235	0.01000277	6.871914e-07	6.049293e-07	0.02064438	0.006072838
2.9e+08	0.02438597	0.002752863	5.727096e-07	3.736121e-07	0.01234965	0.008929351	2.889484e-06	-5.642897e-07
	5.727096e-07	3.736121e-07	0.02357523	0.003815716	4.93295e-07	3.222781e-06	0.01198099	0.009468583
	0.01234965	0.008929351	4.93295e-07	3.222781e-06	0.02462246	0.002672689	6.819731e-07	4.563481e-07
	2.889484e-06	-5.642897e-07	0.01198099	0.009468583	6.819731e-07	4.563481e-07	0.02366062	0.003956224
3e+08	0.0266179	-0.000346453	5.272165e-07	2.512955e-07	0.01412667	0.007722446	2.683288e-06	-1.351287e-06
	5.272165e-07	2.512955e-07	0.0258373	0.0009840824	4.740558e-07	3.288564e-06	0.01377887	0.00839137
	0.01412667	0.007722446	4.740558e-07	3.288564e-06	0.02684071	-0.0004826584	6.293772e-07	3.116326e-07
	2.683288e-06	-1.351287e-06	0.01377887	0.00839137	6.293772e-07	3.116326e-07	0.02591792	0.001121153
3.1e+08	0.02787879	-0.003922747	4.431592e-07	1.437372e-07	0.01547707	0.006071144	2.257886e-06	-2.072839e-06
	4.431592e-07	1.437372e-07	0.02719395	-0.002333999	4.430392e-07	3.363509e-06	0.01518181	0.006863642
	0.01547707	0.006071144	4.430392e-07	3.363509e-06	0.02807266	-0.004110491	5.310532e-07	1.840815e-07
	2.257886e-06	-2.072839e-06	0.01518181	0.006863642	5.310532e-07	1.840815e-07	0.02726743	-0.002198499
3.2e+08	0.0280898	-0.007696697	3.251326e-07	6.160138e-08	0.01629394	0.004111743	1.634347e-06	-2.667854e-06
	3.251326e-07	6.160138e-08	0.0275629	-0.005877679	4.029397e-07	3.45079e-06	0.01608082	0.005012834
	0.01629394	0.004111743	4.029397e-07	3.45079e-06	0.02824099	-0.007927203	3.9236e-07	8.635311e-08
	1.634347e-06	-2.667854e-06	0.01608082	0.005012834	3.9236e-07	8.635311e-08	0.02762747	-0.005741223
3.3e+08	0.02724853	-0.01138086	1.806615e-07	1.413584e-08	0.01651234	0.002004871	8.507671e-07	-3.082075e-06
	1.806615e-07	1.413584e-08	0.02693305	-0.009376737	3.572773e-07	3.552812e-06	0.01640635	0.002991426
	0.01651234	0.002004871	3.572773e-07	3.552812e-06	0.027346	-0.01164159	2.221409e-07	2.944529e-08
	8.507671e-07	-3.082075e-06	0.01640635	0.002991426	2.221409e-07	2.944529e-08	0.02698777	-0.009236353
3.4e+08	0.02542792	-0.01469991	1.97789e-08	8.374002e-09	0.01611435	-7.700238e-05	-3.994006e-08	-3.272805e-06
	1.97789e-08	8.374002e-09	0.02536392	-0.01257033	3.101951e-07	3.671008e-06	0.01613371	0.0009651511
	0.01611435	-7.700238e-05	3.101951e-07	3.671008e-06	0.02546439	-0.01497539	3.222406e-08	2.174419e-08
	-3.994006e-08	-3.272805e-06	0.01613371	0.0009651511	3.222406e-08	2.174419e-08	0.02540874	-0.01242284
3.5e+08	0.02277001	-0.01740977	-1.456117e-07	4.845302e-08	0.01513068	-0.001963013	-9.735486e-07	-3.212934e-06
	-1.456117e-07	4.845302e-08	0.02298018	-0.01522486	2.66199e-07	3.805663e-06	0.01528494	-0.0008998423
	0.01513068	-0.001963013	2.66199e-07	3.805663e-06	0.02274267	-0.01768272	-1.63335e-07	6.821273e-08
	-9.735486e-07	-3.212934e-06	0.01528494	-0.0008998423	-1.63335e-07	6.821273e-08	0.023016	-0.01506715
3.6e+08	0.0194749	-0.01931443	-3.025642e-07	1.351066e-07	0.01363837	-0.003497312	-1.879123e-06	-2.893911e-06
	-3.025642e-07	1.351066e-07	0.01996189	-0.01714968	2.298477e-07	3.955816e-06	0.01392728	-0.002449909
	0.01363837	-0.003497312	2.298477e-07	3.955816e-06	0.01938591	-0.01956708	-3.492364e-07	1.697899e-07
	-1.879123e-06	-2.893911e-06	0.01392728	-0.002449909	-3.492364e-07	1.697899e-07	0.01999048	-0.016979
3.7e+08	0.01578579	-0.02027924	-4.380648e-07	2.653907e-07	0.01175496	-0.004551392	-2.684396e-06	-2.327359e-06
	-4.380648e-07	2.653907e-07	0.01653099	-0.01820976	2.054049e-07	4.119233e-06	0.01216793	-0.003555934
	0.01175496	-0.004551392	2.054049e-07	4.119233e-06	0.01564228	-0.02049476	-5.100904e-07	3.230684e-07
	-2.684396e-06	-2.327359e-06	0.01216793	-0.003555934	-5.100904e-07	3.230684e-07	0.01655489	-0.01802395
3.8e+08	0.01197106	-0.02023975	-5.400883e-07	4.326912e-07	0.00962939	-0.005034368	-3.321528e-06	-1.545128e-06
	-5.400883e-07	4.326912e-07	0.01293503	-0.01833426	1.964747e-07	4.292493e-06	0.01014584	-0.004123516
	0.009629389	-0.005034368	1.964747e-07	4.292493e-06	0.01178477	-0.02040362	-6.316644e-07	5.203066e-07
	-3.321528e-06	-1.545128e-06	0.01014584	-0.004123516	-6.316644e-07	5.203066e-07	0.01295736	-0.01813196
3.9e+08	0.00830465	-0.01920555	-5.986524e-07	6.27042e-07	0.0074303	-0.004900351	-3.732792e-06	-5.976996e-07
	-5.986524e-07	6.27042e-07	0.009429333	-0.01752062	2.056544e-07	4.471169e-06	0.008020824	-0.00410048
	0.0074303	-0.004900351	2.056544e-07	4.471169e-06	0.0080912	-0.01930684	-7.021246e-07	7.498065e-07
	-3.732792e-06	-5.976996e-07	0.008020824	-0.00410048	-7.021246e-07	7.498065e-07	0.009453502	-0.0173014
4e+08	0.005046251	-0.01725871	-6.067736e-07	8.357594e-07	0.005332759	-0.004152289	-3.875696e-06	4.490274e-07
	-6.067736e-07	8.357594e-07	0.006258666	-0.01583369	2.342395e-07	4.650136e-06	0.005961038	-0.0034811
	0.005332759	-0.004152289	2.342395e-07	4.650136e-06	0.004824015	-0.01729109	-7.131571e-07	9.966597e-07
	-3.875696e-06	4.490274e-07	0.005961038	-0.0034811	-7.131571e-07	9.966597e-07	0.006288112	-0.01559813
4.1e+08	0.002422551	-0.014547	-5.612211e-07	1.044359e-06	0.003504317	-0.00284192	-3.727096e-06	1.518358e-06
	-5.612211e-07	1.044359e-06	0.003639942	-0.01340013	2.820237e-07	4.82396e-06	0.004129688	-0.002306643
	0.003504317	-0.00284192	2.820237e-07	4.82396e-06	0.002211322	-0.01450945	-6.608531e-07	1.243823e-06
	-3.727096e-06	1.518358e-06	0.004129688	-0.002306643	-6.608531e-07	1.243823e-06	0.003677835	-0.01314982
4.2e+08	0.0006111081	-0.01127243	-4.62982e-07	1.23769e-06	0.002091639	-0.001065804	-3.285882e-06	2.528519e-06
	-4.62982e-07	1.23769e-06	0.001747055	-0.01039847	3.472252e-07	4.987358e-06	0.002672127	-0.0006621595
	0.002091639	-0.001065804	3.472252e-07	4.987358e-06	0.0004305576	-0.01116946	-5.462555e-07	1.473446e-06
	-3.285882e-06	2.528519e-06	0.002672127	-0.0006621595	-5.462555e-07	1.473446e-06	0.001796008	-0.01013584
4.3e+08	-0.0002720984	-0.007675772	-3.173696e-07	1.40119e-06	0.001208748	0.001042277	-2.573963e-06	3.399032e-06
	-3.173696e-07	1.40119e-06	0.0006989839	-0.007045465	4.265618e-07	5.13567e-06	0.001704333	0.001330222
	0.001208748	0.001042277	4.265618e-07	5.13567e-06	-0.0004039773	-0.007517353	-3.754914e-07	1.668335e-06
	-2.573963e-06	3.399032e-06	0.001704333	0.001330222	-3.754914e-07	1.668335e-06	0.0007608283	-0.006773632
4.4e+08	-0.0001804458	-0.004018553	-1.337475e-07	1.522135e-06	0.0009279006	0.003321921	-1.635395e-06	4.057209e-06
	-1.337475e-07	1.522135e-06	0.0005520368	-0.003579878	5.154751e-07	5.265297e-06	0.001303749	0.003520975
	0.0009279006	0.003321921	5.154751e-07	5.265297e-06	-0.0002488325	-0.003819449	-1.594591e-07	1.813423e-06
	-1.635395e-06	4.057209e-06	0.001303749	0.003520975	-1.594591e-07	1.813423e-06	0.0006276374	-0.003302397
4.5e+08	0.0008607288	-0.0005635386	7.511725e-08	1.590778e-06	0.001273806	0.005598849	-5.33668e-07	4.444239e-06
	7.511725e-08	1.590778e-06	0.001296732	-0.0002449114	6.084871e-07	5.374053e-06	0.001503216	0.005745011
	0.001273806	0.005598849	6.084871e-07	5.374053e-06	0.000866209	-0.0003423355	8.691674e-08	1.897095e-06
	-5.33668e-07	4.444239e-06	0.001503216	0.005745011	8.691674e-08	1.897095e-06	0.001385901	3.452743e-05
4.6e+08	0.00275688	0.00244455	2.940163e-07	1.601237e-06	0.002221678	0.00769873	6.52674e-07	4.520333e-06
	2.940163e-07	1.601237e-06	0.002859523	0.00272945	6.996514e-07	5.461384e-06	0.002288474	0.007834723
	0.002221678	0.00769873	6.996514e-07	5.461384e-06	0.002841189	0.002666787	3.457979e-07	1.912248e-06
	6.52674e-07	4.520333e-06	0.002288474	0.007834723	3.457979e-07	1.912248e-06	0.002961008	0.003007332
4.7e+08	0.005352067	0.004796786	5.064877e-07	1.552077e-06	0.003699224	0.009460961	1.835742e-06	4.268484e-06
	5.064877e-07	1.552077e-06	0.005109136	0.005142851	7.830502e-07	5.528449e-06	0.003599402	0.009633147
	0.003699224	0.009460961	7.830502e-07	5.528449e-06	0.005514256	0.004998071	5.978102e-07	1.85698e-06
	1.835742e-06	4.268484e-06	0.003599402	0.009633147	5.978102e-07	1.85698e-06	0.005220773	0.005416123
4.8e+08	0.008441184	0.006334896	6.961178e-07	1.446511e-06	0.005592394	0.0107513	2.924909e-06	3.696509e-06
