!$
! Info: Touchstone file created by Circ.  Input file=Tx_10in_Rx_100ohms_TxVia_35mils_RxVia_45mils.circ
!$
# Hz S RI R 50
0	0.01041821	1.323291e-25	0.989441	-1.3465e-25	7.22546e-05	1.982759e-23	-7.033322e-05	2.049262e-21
	0.989441	-1.37384e-25	0.01041707	1.543833e-25	-7.070248e-05	2.094558e-21	7.267327e-05	2.356907e-23
	7.041586e-05	2.036108e-23	-7.0829e-05	2.110173e-21	0.01043061	1.26145e-25	0.9894252	-1.276024e-25
	-7.071072e-05	2.095613e-21	7.082512e-05	2.368511e-23	0.9894252	-1.273648e-25	0.01043017	1.446498e-25
1e+07	0.01535404	0.006564806	0.9795348	-0.1039598	0.0006568563	0.001902377	-0.0004817448	-0.0001908362
	0.9795348	-0.1039598	0.01534751	0.006564045	-0.0004817558	-0.0001908187	0.0006534847	0.001903356
	0.000656796	0.00190238	-0.0004818129	-0.0001908057	0.01521719	0.006589188	0.9796648	-0.1040624
	-0.0004818019	-0.0001908231	0.000653424	0.001903365	0.9796648	-0.1040624	0.01520928	0.006588831
2e+07	0.01999657	0.009279625	0.9603044	-0.2028297	0.001105635	0.003888497	-0.0004247278	-0.0005437249
	0.9603044	-0.2028297	0.01997097	0.009281557	-0.0004247655	-0.0005437034	0.001092836	0.003892809
	0.001105622	0.003888535	-0.0004247745	-0.0005436611	0.01991129	0.009375315	0.9603619	-0.2030803
	-0.0004247387	-0.0005436815	0.001092827	0.003892844	0.9603619	-0.2030803	0.01988045	0.009378971
3e+07	0.02406186	0.01010203	0.9323151	-0.2978509	0.00193062	0.005559162	-0.0004353002	-0.0007235184
	0.9323151	-0.2978509	0.0240061	0.0101143	-0.0004353901	-0.0007234487	0.001903316	0.005570797
	0.001930623	0.005559168	-0.0004353875	-0.0007234426	0.02402363	0.01022325	0.932291	-0.2982013
	-0.0004352976	-0.0007235119	0.001903315	0.005570802	0.932291	-0.2982013	0.02395675	0.01024019
4e+07	0.02776453	0.009855153	0.8955586	-0.3889931	0.003094777	0.006958673	-0.0005117939	-0.0008348802
	0.8955586	-0.3889931	0.02766987	0.009888139	-0.0005119202	-0.0008347343	0.003049197	0.006982965
	0.003094772	0.006958669	-0.0005119272	-0.0008347376	0.02777105	0.009984942	0.8954409	-0.3894214
	-0.0005118014	-0.0008348841	0.003049192	0.006982963	0.8954409	-0.3894214	0.02765788	0.01002763
5e+07	0.03110294	0.008770717	0.8503289	-0.4756264	0.004652643	0.007972917	-0.0007619366	-0.0008133676
	0.8503289	-0.4756264	0.03096374	0.008837485	-0.000762079	-0.0008131169	0.004586614	0.008016083
	0.004652639	0.007972915	-0.0007620844	-0.0008131172	0.03115104	0.008896606	0.8501069	-0.4761135
	-0.0007619423	-0.0008133681	0.00458661	0.008016081	0.8501069	-0.4761135	0.03098502	0.008980668
6e+07	0.03402775	0.006992887	0.7970507	-0.5570527	0.006347585	0.008640655	-0.0009840354	-0.0007392731
	0.7970507	-0.5570527	0.03384233	0.007108026	-0.0009841636	-0.0007388926	0.006260806	0.008709575
	0.00634759	0.008640656	-0.0009841592	-0.0007388939	0.03411284	0.007104631	0.7967159	-0.5575797
	-0.0009840305	-0.0007392744	0.006260809	0.008709575	0.7967159	-0.5575797	0.03389216	0.007247476
7e+07	0.03647717	0.004640062	0.736243	-0.6325774	0.008109913	0.008945696	-0.001173131	-0.0006242565
	0.736243	-0.6325774	0.03624797	0.004818448	-0.001173198	-0.0006237315	0.008004004	0.009047322
	0.008109926	0.008945694	-0.001173186	-0.0006237394	0.03659323	0.004729172	0.7357886	-0.6331248
	-0.001173117	-0.0006242651	0.008004013	0.009047319	0.7357886	-0.6331248	0.036321	0.004948498
8e+07	0.0383927	0.001825967	0.6685018	-0.7015405	0.009866689	0.008884433	-0.001325417	-0.0004787473
	0.6685018	-0.7015405	0.0381261	0.002081759	-0.001325368	-0.0004780819	0.009745167	0.009025322
	0.009866705	0.008884427	-0.001325354	-0.0004780963	0.03853232	0.001885652	0.6679236	-0.7020886
	-0.001325403	-0.0004787629	0.009745178	0.009025316	0.6679236	-0.7020886	0.03821635	0.002198261
9e+07	0.03972782	-0.00133332	0.5944884	-0.7633337	0.01154427	0.008466694	-0.001437902	-0.0003119604
	0.5944884	-0.7633337	0.0394339	-0.0009875581	-0.001437678	-0.0003111809	0.01141244	0.008652555
	0.01154429	0.008466687	-0.00143767	-0.0003111945	0.0398823	-0.001308157	0.5937852	-0.7638619
	-0.001437893	-0.0003119753	0.01141244	0.00865255	0.5937852	-0.7638619	0.03953474	-0.0008873931
1e+08	0.04046603	-0.004711389	0.5149051	-0.8174185	0.01306557	0.007712731	-0.001501325	-0.0001280011
	0.5149051	-0.8174185	0.04015814	-0.004265531	-0.001500877	-0.0001271556	0.01293027	0.00794801
	0.01306557	0.007712731	-0.001500877	-0.0001271556	0.04062405	-0.004724805	0.5140804	-0.8179048
	-0.001501325	-0.0001280011	0.01293027	0.00794801	0.5140804	-0.8179048	0.04026097	-0.004183933
1.1e+08	0.04058948	-0.008294434	0.4305288	-0.8631975	0.01436578	0.006702743	-0.0015152	1.520683e-05
	0.4305288	-0.8631975	0.04028583	-0.007742957	-0.001514482	1.606638e-05	0.01423544	0.006989927
	0.01436578	0.006702743	-0.001514482	1.606638e-05	0.04074076	-0.008340244	0.4295903	-0.8636326
	-0.0015152	1.520683e-05	0.01423544	0.006989927	0.4295903	-0.8636326	0.04038326	-0.007671789
1.2e+08	0.04001047	-0.01188411	0.342281	-0.9003386	0.01542952	0.005457987	-0.001529427	0.0001408052
	0.342281	-0.9003386	0.03972764	-0.01122432	-0.00152843	0.0001415941	0.01531294	0.005797788
	0.01542952	0.005457987	-0.00152843	0.0001415941	0.04015051	-0.01195919	0.3412275	-0.900706
	-0.001529427	0.0001408052	0.01531294	0.005797788	0.3412275	-0.900706	0.03981957	-0.01116033
1.3e+08	0.03877242	-0.01534274	0.2509982	-0.9285394	0.01620444	0.004027481	-0.001540044	0.0002556814
	0.2509982	-0.9285394	0.03852873	-0.01457567	-0.001538787	0.0002563165	0.01611078	0.004418481
	0.01620444	0.004027481	-0.001538787	0.0002563165	0.03889569	-0.0154437	0.2498333	-0.9288209
	-0.001540044	0.0002556814	0.01611078	0.004418481	0.2498333	-0.9288209	0.03861376	-0.01451646
1.4e+08	0.03692276	-0.0185521	0.157562	-0.9475668	0.01665684	0.002473502	-0.001550193	0.0003624419
	0.157562	-0.9475668	0.03673711	-0.01768329	-0.001548716	0.0003628486	0.01659512	0.002912038
	0.01665684	0.002473502	-0.001548716	0.0003628486	0.03702438	-0.01867457	0.1562925	-0.947744
	-0.001550193	0.0003624419	0.01659512	0.002912038	0.1562925	-0.947744	0.03681411	-0.01762644
1.5e+08	0.03452486	-0.02140618	0.06287574	-0.9572717	0.0167676	0.0008643972	-0.001563293	0.0004644322
	0.06287574	-0.9572717	0.03441545	-0.02044601	-0.001561659	0.0004645498	0.01674615	0.001344589
	0.0167676	0.0008643972	-0.001561659	0.0004645497	0.03460096	-0.021545	0.0615112	-0.9573265
	-0.001563293	0.0004644322	0.01674615	0.001344589	0.0615112	-0.9573265	0.03448376	-0.02038908
1.6e+08	0.0316578	-0.0238129	-0.03214576	-0.9575915	0.01653243	-0.000728869	-0.001581913	0.0005660599
	-0.03214576	-0.9575915	0.03164073	-0.02277645	-0.001580198	0.0005658468	0.01655835	-0.0002149656
	0.01653243	-0.000728869	-0.001580198	0.0005658468	0.03170554	-0.02396231	-0.03359307	-0.9575069
	-0.001581913	0.0005660599	0.01655835	-0.0002149656	-0.03359307	-0.9575069	0.03170016	-0.0227171
1.7e+08	0.02841443	-0.02569636	-0.126585	-0.9485524	0.01596182	-0.002235897	-0.001607179	0.000672571
	-0.126585	-0.9485524	0.02850252	-0.02460292	-0.001605473	0.0006720091	0.01604048	-0.00169801
	0.01596182	-0.002235897	-0.001605473	0.0006720091	0.02843216	-0.02585019	-0.1281002	-0.9483126
	-0.001607179	0.000672571	0.01604048	-0.00169801	-0.1281002	-0.9483126	0.0285533	-0.02453895
1.8e+08	0.02489878	-0.026999	-0.2195306	-0.9302692	0.01508054	-0.003589906	-0.001638437	0.0007896071
	-0.2195306	-0.9302692	0.02510042	-0.02587119	-0.001636831	0.0007887047	0.01521516	-0.003039153
	0.01508054	-0.003589906	-0.001636831	0.0007887047	0.02488601	-0.0271508	-0.2210966	-0.9298601
	-0.001638437	0.000789607	0.01521516	-0.003039153	-0.2210966	-0.9298601	0.02514318	-0.02580061
1.9e+08	0.02122274	-0.02768326	-0.3100868	-0.9029451	0.01392655	-0.004730586	-0.001673103	0.0009226559
	-0.3100868	-0.9029451	0.02154118	-0.02654597	-0.001671685	0.0009214485	0.01411789	-0.004178988
	0.01392655	-0.004730586	-0.001671685	0.0009214485	0.02118027	-0.02782652	-0.3116841	-0.9023545
	-0.001673103	0.0009226558	0.01411789	-0.004178988	-0.3116841	-0.9023545	0.02157683	-0.02646703
2e+08	0.01750254	-0.02773268	-0.3973815	-0.8668696	0.01254938	-0.005606675	-0.001706715	0.001076468
	-0.3973815	-0.8668696	0.0179353	-0.02661186	-0.001705559	0.001075017	0.01279549	-0.005066593
	0.01254938	-0.005606675	-0.001705559	0.001075017	0.01743245	-0.02786104	-0.3989886	-0.8660875
	-0.001706715	0.001076468	0.01279549	-0.005066593	-0.3989886	-0.8660875	0.01796505	-0.02652308
2.1e+08	0.01385485	-0.02715238	-0.480575	-0.8224165	0.01100803	-0.006178134	-0.001733164	0.001254503
	-0.480575	-0.8224165	0.01439352	-0.02607368	-0.001732323	0.00125289	0.01130415	-0.005661656
	0.01100803	-0.006178134	-0.001732323	0.00125289	0.01376053	-0.02725989	-0.4821691	-0.8214356
	-0.001733164	0.001254503	0.01130415	-0.005661656	-0.4821691	-0.8214356	0.01441877	-0.02597388
2.2e+08	0.01039294	-0.02596877	-0.5588689	-0.7700403	0.009368434	-0.006417857	-0.001745085	0.001458452
	-0.5588689	-0.7700403	0.01102323	-0.02495622	-0.001744586	0.001456772	0.009707083	-0.005936166
	0.009368434	-0.006417857	-0.001744586	0.001456772	0.010279	-0.02605014	-0.5604256	-0.7688559
	-0.001745085	0.001458452	0.009707083	-0.005936166	-0.5604256	-0.7688559	0.01104557	-0.02484451
2.3e+08	0.007222772	-0.02422858	-0.6315135	-0.7102717	0.007700682	-0.006312818	-0.001734387	0.001687894
	-0.6315135	-0.7102717	0.007924931	-0.02330323	-0.001734226	0.00168625	0.008071809	-0.005875578
	0.007700682	-0.006312818	-0.001734226	0.00168625	0.007094991	-0.02427945	-0.6330074	-0.7088822
	-0.001734387	0.001687894	0.008071809	-0.005875578	-0.6330074	-0.7088822	0.007946053	-0.02317908
2.4e+08	0.004439452	-0.02199712	-0.6978157	-0.643713	0.006076038	-0.00586463	-0.001692863	0.001940111
	-0.6978157	-0.643713	0.005188873	-0.02117584	-0.001693	0.001938598	0.006467364	-0.005479403
	0.006076038	-0.00586463	-0.001693	0.001938598	0.004304535	-0.02201432	-0.6992208	-0.6421199
	-0.001692863	0.001940111	0.006467364	-0.005479403	-0.6992208	-0.6421199	0.005210537	-0.02103907
2.5e+08	0.002123956	-0.01935594	-0.7571459	-0.5710314	0.004563904	-0.005089462	-0.001612835	0.002210079
	-0.7571459	-0.5710314	0.002892133	-0.01865037	-0.001613205	0.002208776	0.004961373	-0.004761212
	0.004563904	-0.005089462	-0.001613205	0.002208776	0.00198933	-0.01933771	-0.758436	-0.5692393
	-0.001612835	0.002210079	0.004961373	-0.004761212	-0.758436	-0.5692393	0.002916087	-0.01850116
2.6e+08	0.000340375	-0.01639991	-0.8089445	-0.4929528	0.003228874	-0.00401735	-0.001487792	0.002490649
	-0.8089445	-0.4929528	0.001096037	-0.01581557	-0.001488303	0.002489611	0.003617217	-0.003748038
	0.003228874	-0.00401735	-0.001488303	0.002489611	0.0002138776	-0.01634604	-0.8100934	-0.4909696
	-0.001487792	0.002490649	0.003617217	-0.003748038	-0.8100934	-0.4909696	0.001123946	-0.01565447
2.7e+08	-0.0008662428	-0.01323378	-0.8527272	-0.4102537	0.002127998	-0.002690898	-0.00131295	0.002772903
	-0.8527272	-0.4102537	-0.0001558046	-0.01276947	-0.001313495	0.002772151	0.002491385	-0.00247921
	0.002127998	-0.002690898	-0.001313495	0.002772151	-0.0009766914	-0.01314573	-0.8537092	-0.4080909
	-0.00131295	0.002772903	0.002491385	-0.00247921	-0.8537092	-0.4080909	-0.0001224282	-0.01259737
2.8e+08	-0.001471358	-0.009968376	-0.8880901	-0.3237542	0.001308367	-0.001163462	-0.001085694	0.003046644
	-0.8880901	-0.3237542	-0.0008388425	-0.009615874	-0.001086163	0.003046163	0.001631117	-0.001004676
	0.001308367	-0.001163462	-0.001086163	0.003046163	-0.001558115	-0.009849333	-0.8888805	-0.3214262
	-0.001085694	0.003046644	0.001631117	-0.001004676	-0.8888805	-0.3214262	-0.0007987048	-0.009433972
2.9e+08	-0.001471674	-0.0067167	-0.914713	-0.2343086	0.0008051427	0.0005031377	-0.0008058722	0.00330101
	-0.914713	-0.2343086	-0.0009482578	-0.006460736	-0.0008061645	0.003300747	0.001072457	0.0006171285
	0.0008051426	0.0005031377	-0.0008061645	0.003300747	-0.001527746	-0.006571456	-0.9152887	-0.2318331
	-0.0008058722	0.00330101	0.001072457	0.0006171285	-0.9152887	-0.2318331	-0.0009003543	-0.006270481
3e+08	-0.000885092	-0.003589809	-0.932363	-0.1427971	0.0006400866	0.002241243	-0.0004759091	0.003525128
	-0.932363	-0.1427971	-0.0004989232	-0.003408392	-0.0004759427	0.003524996	0.0008387833	0.002321744
	0.0006400866	0.002241243	-0.0004759427	0.003524996	-0.0009044873	-0.003424665	-0.9327022	-0.1401948
	-0.0004759091	0.003525128	0.0008387833	0.002321744	-0.9327022	-0.1401948	-0.0004425844	-0.003211429
3.1e+08	0.0002501037	-0.0006928905	-0.9408955	-0.05011648	0.0008206775	0.003980226	-0.0001007296	0.00370879
	-0.9408955	-0.05011648	0.0004753423	-0.0005579425	-0.0001004543	0.003708676	0.0009398736	0.004041406
	0.0008206775	0.003980226	-0.0001004543	0.003708676	0.0002720559	-0.0005154329	-0.940979	-0.04741107
	-0.0001007296	0.00370879	0.0009398737	0.004041406	-0.940979	-0.04741107	0.0005404118	-0.000356032
3.2e+08	0.001876797	0.001878465	-0.9402559	0.04282859	0.001339831	0.005649472	0.0003124934	0.003843065
	-0.9402559	0.04282859	0.001923183	0.00200017	0.0003130884	0.003842839	0.001371554	0.005707869
	0.001339831	0.005649472	0.0003130884	0.003842839	0.001943172	0.002059651	-0.9400666	0.04561101
	0.0003124934	0.003843065	0.001371554	0.005707869	-0.9400666	0.04561101	0.001996885	0.002205233
3.3e+08	0.003921272	0.004041608	-0.9304788	0.1351349	0.002176231	0.007181338	0.0007547513	0.003920827
	-0.9304788	0.1351349	0.003777736	0.004187232	0.000755633	0.003920358	0.002115924	0.007255252
	0.002176231	0.007181338	0.000755633	0.003920358	0.004033341	0.004217282	-0.9300026	0.1379659
	0.0007547513	0.003920827	0.002115924	0.007255252	-0.9300026	0.1379659	0.003859575	0.004393706
3.4e+08	0.006296028	0.005729684	-0.9116875	0.2259096	0.003295261	0.008513976	0.001215734	0.00393714
	-0.9116875	0.2259096	0.005959188	0.005938885	0.001216825	0.003936306	0.003142151	0.008622748
	0.003295261	0.008513976	0.001216825	0.003936306	0.006453123	0.005890332	-0.9109134	0.2287586
	0.001215734	0.00393714	0.003142151	0.008622748	-0.9109134	0.2287586	0.00604829	0.006145167
3.5e+08	0.008903077	0.006893871	-0.8840919	0.3142784	0.004650475	0.009593901	0.001684444	0.003889476
	-0.8840919	0.3142784	0.008377762	0.007207196	0.001685627	0.003888181	0.004407795	0.009757116
	0.004650475	0.009593901	0.001685627	0.003888181	0.00910254	0.007030119	-0.883012	0.3171135
	0.001684444	0.003889476	0.004407795	0.009757116	-0.883012	0.3171135	0.008472914	0.007411902
3.6e+08	0.01163759	0.00750496	-0.8479855	0.3993944	0.006185559	0.01037819	0.002149833	0.00377776
	-0.8479855	0.3993944	0.01093703	0.007962125	0.002150959	0.003775946	0.005860591	0.01061484
	0.006185559	0.01037819	0.002150959	0.003775946	0.01187481	0.00760799	-0.8465958	0.4021822
	0.002149833	0.00377776	0.005860591	0.01061484	-0.8465958	0.4021822	0.01103673	0.008164162
3.7e+08	0.01439175	0.00755419	-0.8037426	0.4804456	0.007836677	0.01083624	0.002601424	0.003604233
	-0.8037426	0.4804456	0.01353742	0.008192331	0.002602326	0.003601889	0.007440633	0.0111639
	0.007836677	0.01083624	0.002602326	0.003601889	0.01466029	0.007616147	-0.8020423	0.4831519
	0.002601424	0.003604233	0.007440633	0.0111639	-0.8020423	0.4831519	0.01363994	0.008390955
3.8e+08	0.01705872	0.007053345	-0.7518131	0.5566625	0.009535122	0.01095101	0.003029849	0.003373161
	-0.7518131	0.5566625	0.01607976	0.007905312	0.003030354	0.003370327	0.009082842	0.011385
	0.009535122	0.01095101	0.003030354	0.003370327	0.01735052	0.007067717	-0.7498055	0.5592525
	0.003029849	0.003373161	0.009082842	0.011385	-0.7498055	0.5592525	0.01618323	0.008100171
3.9e+08	0.01953643	0.0060341	-0.6927186	0.6273244	0.01121015	0.01071975	0.00342728	0.0030904
	-0.6927186	0.6273244	0.0184688	0.007126864	0.003427229	0.003087171	0.01071963	0.0112724
	0.01121015	0.01071975	0.003427229	0.003087171	0.0198421	0.005996046	-0.6904108	0.6297634
	0.00342728	0.0030904	0.01071963	0.0112724	-0.6904108	0.6297634	0.01857132	0.007318022
4e+08	0.02173131	0.004546663	-0.6270469	0.6917666	0.01279188	0.01015402	0.003787711	0.002762886
	-0.6270469	0.6917666	0.02061656	0.005899911	0.003786972	0.002759402	0.01228368	0.01083404
	0.01279188	0.01015402	0.003786972	0.002759402	0.02204048	0.004453281	-0.6244499	0.6940202
	0.003787711	0.002762886	0.01228368	0.01083404	-0.6244499	0.6940202	0.02071623	0.006087851
4.1e+08	0.02356153	0.002657744	-0.5554458	0.7493853	0.01421419	0.009279322	0.004107076	0.002398065
	-0.5554458	0.7493853	0.02244527	0.004282739	0.004105559	0.002394508	0.01371063	0.01009125
	0.01421419	0.009279322	0.004105559	0.002394508	0.02386325	0.002508267	-0.5525744	0.7514198
	0.004107076	0.002398065	0.01371063	0.01009125	-0.5525744	0.7514198	0.02254034	0.004468355
4.2e+08	0.02495987	0.000447968	-0.4786174	0.7996434	0.01541738	0.008133999	0.004383198	0.002003338
	-0.4786174	0.7996434	0.02389007	0.002346716	0.004380867	0.001999914	0.01494175	0.009077875
	0.01541738	0.008133999	0.004380867	0.001999914	0.02524306	0.0002438712	-0.4754901	0.8014263
	0.004383198	0.002003338	0.01494175	0.009077875	-0.4754901	0.8014263	0.02397899	0.002531273
4.3e+08	0.02587605	-0.001991204	-0.3973111	0.8420745	0.01635066	0.00676772	0.004615585	0.001585554
	-0.3973111	0.8420745	0.02490111	0.0001735762	0.004612463	0.001582479	0.01592627	0.007838874
	0.01635066	0.00676772	0.004612463	0.001582479	0.02612996	-0.002246184	-0.3939503	0.843575
	0.004615585	0.001585554	0.01592627	0.007838874	-0.3939503	0.843575	0.02498263	0.000358666
4.4e+08	0.02627836	-0.004560912	-0.3123169	0.8762876	0.01697424	0.005239465	0.004805087	0.001150602
	-0.3123169	0.8762876	0.02544515	-0.002147625	0.00480126	0.001148082	0.01662347	0.006428532
	0.01697424	0.005239465	0.00480126	0.001148082	0.02649303	-0.004860861	-0.3087487	0.8774769
	0.004805087	0.001150602	0.01662347	0.006428532	-0.3087487	0.8774769	0.02551837	-0.001960158
4.5e+08	0.0261547	-0.007158591	-0.2244583	0.9019698	0.01726102	0.00361515	0.004953462	0.0007031272
	-0.2244583	0.9019698	0.02550652	-0.004523794	0.004949074	0.0007013402	0.01700433	0.004908261
	0.01726102	0.00361515	0.004949074	0.0007013402	0.02632141	-0.00749558	-0.220712	0.9028214
	0.004953462	0.0007031272	0.01700433	0.004908261	-0.220712	0.9028214	0.02557095	-0.004331922
4.6e+08	0.02551283	-0.009681757	-0.1345846	0.9188896	0.01719768	0.001964951	0.005062881	0.0002464051
	-0.1345846	0.9188896	0.0250875	-0.006861177	0.005058123	0.0002454857	0.01705277	0.003344126
	0.01719768	0.001964951	0.005058123	0.0002454857	0.02562448	-0.01004611	-0.1306927	0.91938
	0.005062881	0.0002464051	0.01705277	0.003344126	-0.1306927	0.91938	0.02514308	-0.006662785
4.7e+08	0.02437993	-0.01203179	-0.04356314	0.9268989	0.01678536	0.0003604531	0.005135429	-0.0002176282
	-0.04356314	0.9268989	0.02420803	-0.00906875	0.005130527	-0.0002176031	0.01676628	0.001804174
	0.01678536	0.0003604531	0.005130527	-0.0002176031	0.02443138	-0.01241243	-0.03956108	0.9270075
	0.005135429	-0.0002176282	0.01676628	0.001804174	-0.03956108	0.9270075	0.02425511	-0.008861726
4.8e+08	0.02280147	-0.01411754	0.04772848	0.9259342	0.01603966	-0.001128284	0.005172648	-0.0006881953
	0.04772848	0.9259342	0.02290479	-0.01106147	0.005167841	-0.0006872146	0.01615613	0.0003556668
	0.01603966	-0.001128284	0.005167841	-0.0006872146	0.02278987	-0.01450237	0.05180257	0.9256441
	0.005172648	-0.0006881953	0.01615613	0.0003556668	0.05180257	0.9256441	0.0229442	-0.01084379
4.9e+08	0.02083937	-0.01585869	0.1384105	0.9160177	0.01499008	-0.002435612	0.00517516	-0.001165355
	0.1384105	0.9160177	0.02122972	-0.01276332	0.005170686	-0.001163477	0.01524691	-0.0009376582
	0.01499008	-0.002435612	0.005170686	-0.001163477	0.02076435	-0.01623509	0.1425163	0.9153158
	0.00517516	-0.001165355	0.01524691	-0.0009376582	0.1425163	0.9153158	0.02126273	-0.01253313
5e+08	0.01856964	-0.01718864	0.2276095	0.8972573	0.0136789	-0.003503026	0.005142418	-0.001649585
	0.2276095	0.8972573	0.01924796	-0.01410995	0.005138488	-0.001646931	0.01407561	-0.002018211
	0.0136789	-0.003503026	0.005138488	-0.001646931	0.01843338	-0.01754395	0.2317046	0.8961346
	0.005142418	-0.001649585	0.01407561	-0.002018211	0.2317046	0.8961346	0.01927621	-0.0138657
5.1e+08	0.01607937	-0.01805691	0.3144661	0.8698459	0.01215949	-0.004281624	0.005072599	-0.002141294
	0.3144661	0.8698459	0.01703533	-0.01505094	0.005069381	-0.002138044	0.01269017	-0.002836934
