!$
! Info: Touchstone file created by Circ.  Input file=Tx_12in_Rx_93ohms_TxVia_35mils_RxVia_45mils.circ
!$
# Hz S RI R 50
0	0.01102121	1.521765e-25	-3.98328e-12	4.579397e-28	8.453999e-05	2.071198e-23	-3.059185e-12	2.277368e-28
	-3.983282e-12	4.579398e-28	0.01101774	1.793703e-25	-1.209367e-12	7.44574e-28	8.319632e-05	2.493563e-23
	8.506299e-05	2.098161e-23	-1.209363e-12	7.445735e-28	0.01102919	1.485572e-25	-3.364262e-12	4.877444e-28
	-3.059186e-12	2.277369e-28	8.134806e-05	2.505838e-23	-3.364263e-12	4.87745e-28	0.01103083	1.680659e-25
1e+07	0.01512316	-0.001303596	1.035294e-11	2.540324e-12	0.0004213994	0.002042018	1.141421e-11	6.036842e-12
	1.035294e-11	2.540325e-12	0.01600266	-0.001477263	8.927915e-12	-1.36637e-12	0.0004384129	0.002219344
	0.0004214234	0.00204202	8.927914e-12	-1.36637e-12	0.0162898	-0.0007904958	7.817327e-12	9.155485e-13
	1.141421e-11	6.036841e-12	0.0004383522	0.002219354	7.817327e-12	9.155486e-13	0.01568705	-0.001472716
2e+07	0.01772234	-0.006497596	1.171261e-11	-4.589537e-12	0.00125583	0.004014807	6.518349e-12	1.253478e-11
	1.171261e-11	-4.589536e-12	0.01820915	-0.007074018	8.396495e-12	-8.293222e-12	0.001169863	0.004350219
	0.001255838	0.004014792	8.396495e-12	-8.293222e-12	0.01925344	-0.006154993	6.459952e-12	-5.959491e-12
	6.518349e-12	1.253479e-11	0.001169854	0.004350254	6.459953e-12	-5.959491e-12	0.01797563	-0.006959522
3e+07	0.01772702	-0.01321949	4.42861e-12	-1.371302e-11	0.002520268	0.005710538	-1.238589e-12	1.787011e-11
	4.428611e-12	-1.371302e-11	0.01787643	-0.0138759	4.310514e-12	-1.768078e-11	0.002434672	0.006115534
	0.002520268	0.005710535	4.310514e-12	-1.768078e-11	0.01949618	-0.01313027	-2.880954e-12	-1.468655e-11
	-1.238589e-12	1.787011e-11	0.002434672	0.00611554	-2.880954e-12	-1.468655e-11	0.01770192	-0.01373799
4e+07	0.01562842	-0.01997678	-1.198118e-11	-2.031174e-11	0.004136172	0.007035845	-1.422619e-11	2.657633e-11
	-1.198118e-11	-2.031174e-11	0.01547678	-0.02059215	-6.111604e-12	-2.614713e-11	0.004109005	0.00746201
	0.004136174	0.007035846	-6.111604e-12	-2.614713e-11	0.01753095	-0.02019834	-2.227758e-11	-2.025661e-11
	-1.422619e-11	2.657633e-11	0.004109	0.007462008	-2.227758e-11	-2.025661e-11	0.01534547	-0.02045416
5e+07	0.01174805	-0.0261263	-3.625914e-11	-1.999654e-11	0.005999515	0.007917191	-3.080541e-11	4.129288e-11
	-3.625914e-11	-1.999654e-11	0.01133678	-0.02661507	-2.256221e-11	-3.119605e-11	0.006017807	0.008348478
	0.005999517	0.007917192	-2.256221e-11	-3.119605e-11	0.01368693	-0.02668632	-4.980923e-11	-1.767925e-11
	-3.080541e-11	4.129288e-11	0.006017804	0.008348477	-4.980923e-11	-1.767925e-11	0.01123435	-0.02648817
6e+07	0.00642216	-0.0312244	-6.549056e-11	-9.145669e-12	0.007991621	0.008310339	-4.83999e-11	6.373306e-11
	-6.549056e-11	-9.145668e-12	0.005801673	-0.03152079	-4.351344e-11	-3.104375e-11	0.008043457	0.008737951
	0.007991618	0.008310339	-4.351344e-11	-3.104375e-11	0.008306084	-0.03212657	-8.200794e-11	-3.41314e-12
	-4.83999e-11	6.373306e-11	0.00804346	0.00873795	-8.200794e-11	-3.41314e-12	0.005715017	-0.03140971
7e+07	2.470229e-05	-0.03495702	-9.54424e-11	1.467481e-11	0.0099877	0.008202447	-6.386834e-11	9.458166e-11
	-9.54424e-11	1.467481e-11	-0.0007455731	-0.0350119	-6.730242e-11	-2.380962e-11	0.01006233	0.008621947
	0.009987694	0.008202448	-6.730242e-11	-2.380962e-11	0.001768987	-0.03618495	-1.142046e-10	2.486624e-11
	-6.386834e-11	9.458166e-11	0.01006234	0.008621944	-1.142046e-10	2.486624e-11	-0.0008281642	-0.03491703
8e+07	-0.007039489	-0.03712372	-1.209106e-10	5.24182e-11	0.01186516	0.007612266	-7.394945e-11	1.331319e-10
	-1.209106e-10	5.24182e-11	-0.007892425	-0.03690423	-9.152155e-11	-8.296157e-12	0.01195273	0.008021703
	0.01186516	0.007612269	-9.152155e-11	-8.296157e-12	-0.005512049	-0.0386445	-1.408069e-10	6.76862e-11
	-7.394945e-11	1.331319e-10	0.01195274	0.008021696	-1.408069e-10	6.768619e-11	-0.007981012	-0.03682283
9e+07	-0.01435068	-0.03763247	-1.359915e-10	1.034536e-10	0.01351223	0.006588635	-7.704043e-11	1.760708e-10
	-1.359915e-10	1.034536e-10	-0.01521231	-0.03712173	-1.125095e-10	1.426462e-11	0.0136023	0.006986855
	0.01351222	0.006588639	-1.125095e-10	1.426462e-11	-0.01311131	-0.03940072	-1.561059e-10	1.225786e-10
	-7.704043e-11	1.760708e-10	0.01360231	0.006986849	-1.561059e-10	1.225786e-10	-0.01531538	-0.03704893
1e+08	-0.02148805	-0.03649305	-1.327059e-10	1.671435e-10	0.01484391	0.00521063	-6.996017e-11	2.233694e-10
	-1.327059e-10	1.671435e-10	-0.02226573	-0.03568516	-1.28747e-10	4.555738e-11	0.01491449	0.00559159
	0.01484391	0.005210629	-1.28747e-10	4.555738e-11	-0.02062804	-0.03846318	-1.525715e-10	1.893354e-10
	-6.996017e-11	2.233694e-10	0.01491449	0.00559159	-1.525715e-10	1.893354e-10	-0.02239306	-0.03561581
1.1e+08	-0.02807098	-0.03386707	-9.983648e-11	2.196204e-10	0.01574544	0.003607727	-4.821797e-11	2.637045e-10
	-9.983648e-11	2.196204e-10	-0.0286885	-0.03286117	-1.263245e-10	7.76486e-11	0.01581267	0.003935304
	0.01574544	0.003607727	-1.263245e-10	7.76486e-11	-0.0276428	-0.03582482	-1.188983e-10	2.450023e-10
	-4.821797e-11	2.637045e-10	0.01581267	0.003935304	-1.188983e-10	2.450023e-10	-0.02884402	-0.03277251
1.2e+08	-0.03379756	-0.02989596	-6.583075e-11	2.555853e-10	0.01617387	0.001833709	-2.006311e-11	2.97673e-10
	-6.583075e-11	2.555853e-10	-0.03425492	-0.02873407	-1.216755e-10	1.036215e-10	0.01625337	0.002126813
	0.01617387	0.001833709	-1.216755e-10	1.036215e-10	-0.03371056	-0.03175635	-8.313215e-11	2.850174e-10
	-2.006311e-11	2.97673e-10	0.01625337	0.002126813	-8.313215e-11	2.850174e-10	-0.03442725	-0.02861692
1.3e+08	-0.03837461	-0.02483597	-3.336519e-11	2.795492e-10	0.01612116	1.52229e-05	8.505287e-12	3.244704e-10
	-3.336519e-11	2.795492e-10	-0.03865686	-0.02355437	-1.156888e-10	1.23782e-10	0.01621629	0.0002816221
	0.01612116	1.52228e-05	-1.156888e-10	1.23782e-10	-0.03856821	-0.02654811	-4.68754e-11	3.140735e-10
	8.505287e-12	3.244704e-10	0.01621629	0.0002816222	-4.68754e-11	3.140735e-10	-0.03883701	-0.02340396
1.4e+08	-0.04159172	-0.01900235	5.011644e-12	2.971003e-10	0.01559782	-0.001727059	4.137547e-11	3.456053e-10
	5.011644e-12	2.971003e-10	-0.04168637	-0.01764068	-1.059375e-10	1.43616e-10	0.01570996	-0.001483687
	0.01559782	-0.001727059	-1.059375e-10	1.43616e-10	-0.04200946	-0.02053168	-3.463676e-12	3.358172e-10
	4.137547e-11	3.456053e-10	0.01570996	-0.001483687	-3.463677e-12	3.358172e-10	-0.04186532	-0.01745513
1.5e+08	-0.04332337	-0.01274585	4.773619e-11	3.064587e-10	0.01464116	-0.003280179	7.757033e-11	3.596775e-10
	4.773619e-11	3.064587e-10	-0.04322461	-0.01134734	-9.250323e-11	1.622336e-10	0.01477044	-0.003058818
	0.01464116	-0.003280179	-9.250323e-11	1.622336e-10	-0.04391091	-0.0140708	4.503585e-11	3.47676e-10
	7.757033e-11	3.596775e-10	0.01477044	-0.003058818	4.503585e-11	3.47676e-10	-0.04339363	-0.01112744
1.6e+08	-0.04353215	-0.006431539	9.263983e-11	3.061701e-10	0.01331359	-0.004544566	1.152837e-10	3.656963e-10
	9.263983e-11	3.061701e-10	-0.04324324	-0.005041552	-7.569243e-11	1.78496e-10	0.01345881	-0.004346027
	0.01331359	-0.004544566	-7.569243e-11	1.78496e-10	-0.04423758	-0.007541764	9.615553e-11	3.484902e-10
	1.152837e-10	3.656963e-10	0.01345881	-0.004346027	9.615553e-11	3.484902e-10	-0.04339443	-0.004790549
1.7e+08	-0.04226776	-0.0004181247	1.371893e-10	2.954068e-10	0.01169888	-0.005439333	1.524291e-10	3.631183e-10
	1.371893e-10	2.954068e-10	-0.04180239	0.000918171	-5.612791e-11	1.914213e-10	0.01185726	-0.005265508
	0.01169888	-0.005439333	-5.612791e-11	1.914213e-10	-0.04304253	-0.001313079	1.469868e-10	3.373028e-10
	1.524291e-10	3.631183e-10	0.01185726	-0.005265508	1.469868e-10	3.373028e-10	-0.04192921	0.001194975
1.8e+08	-0.03966179	0.00496173	1.786386e-10	2.740394e-10	0.009897153	-0.005906573	1.867783e-10	3.519614e-10
	1.786386e-10	2.740394e-10	-0.03904448	0.006202083	-3.46939e-11	2.002162e-10	0.01006423	-0.005759705
	0.009897153	-0.005906573	-3.46939e-11	2.002162e-10	-0.04046163	0.004274082	1.943756e-10	3.139605e-10
	1.867783e-10	3.519614e-10	0.01006423	-0.005759705	1.943756e-10	3.139605e-10	-0.03914222	0.006497793
1.9e+08	-0.0359184	0.009419061	2.142093e-10	2.42682e-10	0.008019083	-0.005914375	2.161062e-10	3.328359e-10
	2.142093e-10	2.42682e-10	-0.03518409	0.01052702	-1.248843e-11	2.043439e-10	0.00818863	-0.005796381
	0.008019083	-0.005914375	-1.248843e-11	2.043439e-10	-0.03670425	0.008923576	2.351317e-10	2.791643e-10
	2.161062e-10	3.328359e-10	0.00818863	-0.005796381	2.351317e-10	2.791643e-10	-0.03525013	0.01083372
2e+08	-0.03130102	0.01272519	2.412752e-10	2.02685e-10	0.006166183	-0.005477827	2.383259e-10	3.069444e-10
	2.412752e-10	2.02685e-10	-0.03049421	0.01367129	9.229492e-12	2.035707e-10	0.006343679	-0.005370313
	0.006166183	-0.005477827	9.229492e-12	2.035707e-10	-0.03203974	0.01240088	2.662383e-10	2.344684e-10
	2.383259e-10	3.069444e-10	0.006343679	-0.005370313	2.662383e-10	2.344684e-10	-0.03052819	0.01398064
2.1e+08	-0.02611752	0.01471834	2.575892e-10	1.561032e-10	0.004463983	-0.004594563	2.517039e-10	2.760226e-10
	2.575892e-10	1.561032e-10	-0.02528983	0.01548594	2.919155e-11	1.980472e-10	0.004640381	-0.004503538
	0.004463983	-0.004594563	2.919155e-11	1.980472e-10	-0.02678244	0.01453976	2.851264e-10	1.822253e-10
	2.517039e-10	2.760226e-10	0.004640381	-0.004503538	2.851264e-10	1.822253e-10	-0.02529365	0.01578977
2.2e+08	-0.02070224	0.0153164	2.61433e-10	1.055673e-10	0.003018019	-0.003314761	2.549332e-10	2.422526e-10
	2.61433e-10	1.055673e-10	-0.01990937	0.01590195	4.617734e-11	1.882603e-10	0.003181154	-0.003244109
	0.003018019	-0.003314761	4.617734e-11	1.882603e-10	-0.0212735	0.01525504	2.898351e-10	1.254516e-10
	2.549332e-10	2.422526e-10	0.003181154	-0.003244109	2.898351e-10	1.254516e-10	-0.01988703	0.01619282
2.3e+08	-0.01539675	0.01451886	2.517709e-10	5.414257e-11	0.00191736	-0.001713849	2.472647e-10	2.081488e-10
	2.517709e-10	5.414257e-11	-0.01469516	0.01493284	5.912763e-11	1.750213e-10	0.002053841	-0.001663383
	0.00191736	-0.001713849	5.912763e-11	1.750213e-10	-0.01586145	0.01454454	2.791929e-10	6.765853e-11
	2.472647e-10	2.081488e-10	0.002053841	-0.001663383	2.791929e-10	6.765853e-11	-0.01465252	0.01520459
2.4e+08	-0.01053055	0.01240574	2.283561e-10	5.14423e-12	0.001230052	0.0001132923	2.285876e-10	1.764082e-10
	2.283561e-10	5.14423e-12	-0.009973919	0.01267286	6.723364e-11	1.594048e-10	0.001326474	0.0001480628
	0.001230052	0.0001132923	6.723364e-11	1.594048e-10	-0.01088261	0.01248795	2.52937e-10	1.263559e-11
	2.285876e-10	1.764082e-10	0.001326474	0.0001480628	2.52937e-10	1.263559e-11	-0.009918296	0.01292095
2.5e+08	-0.006402627	0.009131978	1.917812e-10	-3.807296e-11	0.0009989364	0.002057934	1.994682e-10	1.497454e-10
	1.917812e-10	-3.807296e-11	-0.006038219	0.009290439	6.999954e-11	1.426632e-10	0.001043106	0.002085711
	0.0009989364	0.002057934	6.999954e-11	1.426632e-10	-0.006642483	0.009241238	2.117692e-10	-3.579265e-11
	1.994682e-10	1.497454e-10	0.001043106	0.002085711	2.117692e-10	-3.579265e-11	-0.005977925	0.00951236
2.6e+08	-0.003264793	0.004917873	1.434514e-10	-7.246537e-11	0.001238894	0.004004022	1.611456e-10	1.307223e-10
	1.434514e-10	-7.246537e-11	-0.003130035	0.005017686	6.720632e-11	1.260719e-10	0.001221005	0.004037308
	0.001238894	0.004004022	6.720632e-11	1.260719e-10	-0.003398857	0.005026867	1.573438e-10	-7.401068e-11
	1.611456e-10	1.307223e-10	0.001221005	0.004037308	1.573438e-10	-7.401068e-11	-0.003073901	0.005213084
2.7e+08	-0.001307877	3.57225e-05	8.551349e-11	-9.512539e-11	0.001935777	0.005835265	1.154865e-10	1.215766e-10
	8.551349e-11	-9.512539e-11	-0.001427482	0.0001361434	5.906006e-11	1.109936e-10	0.001849448	0.005889652
	0.001935777	0.005835265	5.906006e-11	1.109936e-10	-0.001347771	0.0001203939	9.220028e-11	-9.88698e-11
	1.154865e-10	1.215766e-10	0.001849448	0.005889652	9.220028e-11	-9.88698e-11	-0.001384203	0.0003069449
2.8e+08	-0.0006514333	-0.005206308	2.082804e-11	-1.037864e-10	0.003047128	0.007442342	6.489436e-11	1.240722e-10
	2.082804e-11	-1.037864e-10	-0.001035095	-0.005040037	4.606949e-11	9.865661e-11	0.002890241	0.007535537
	0.003047128	0.007442342	4.606949e-11	9.865661e-11	-0.0006130596	-0.005165889	1.961715e-11	-1.078865e-10
	6.489436e-11	1.240722e-10	0.002890241	0.007535537	1.961715e-11	-1.078865e-10	-0.001012695	-0.00488974
2.9e+08	-0.001337649	-0.01048229	-4.723325e-11	-9.692894e-11	0.00450472	0.008729759	1.218506e-11	1.39373e-10
	-4.723325e-11	-9.692894e-11	-0.001978614	-0.01018277	2.899515e-11	9.010364e-11	0.004279983	0.008880405
	0.00450472	0.008729759	2.899515e-11	9.010364e-11	-0.001240121	-0.01050126	-5.657146e-11	-9.941181e-11
	1.218506e-11	1.39373e-10	0.004279983	0.008880405	-5.657146e-11	-9.941181e-11	-0.001983926	-0.01004694
3e+08	-0.003329756	-0.01546746	-1.149798e-10	-7.386692e-11	0.006218768	0.009621883	-3.956623e-11	1.679488e-10
	-1.149798e-10	-7.386692e-11	-0.004204393	-0.01496933	8.792711e-12	8.615694e-11	0.005933962	0.009848241
	0.006218768	0.009621883	8.792711e-12	8.615694e-11	-0.003194229	-0.01555577	-1.321949e-10	-7.274663e-11
	-3.956623e-11	1.679488e-10	0.005933962	0.009848241	-1.321949e-10	-7.274663e-11	-0.004242596	-0.01484032
3.1e+08	-0.00651502	-0.01985695	-1.78612e-10	-3.480473e-11	0.008083574	0.01006772	-8.719909e-11	2.095211e-10
	-1.78612e-10	-3.480473e-11	-0.007583463	-0.01910109	-1.345278e-11	8.739803e-11	0.007751445	0.0103863
	0.008083574	0.01006772	-1.345278e-11	8.739803e-11	-0.006363487	-0.02001918	-2.029851e-10	-2.819811e-11
	-8.719909e-11	2.095211e-10	0.007751445	0.0103863	-2.029851e-10	-2.819811e-11	-0.007657718	-0.0189701
3.2e+08	-0.01071208	-0.02338304	-2.344356e-10	1.916046e-11	0.009984201	0.0100441	-1.276509e-10	2.63054e-10
	-2.344356e-10	1.916046e-11	-0.01191994	-0.02232065	-3.658403e-11	9.41674e-11	0.009621997	0.01046834
	0.009984201	0.0100441	-3.658403e-11	9.41674e-11	-0.01056618	-0.02361851	-2.648171e-10	3.292592e-11
	-1.276509e-10	2.63054e-10	0.009621997	0.01046834	-2.648171e-10	3.292592e-11	-0.01203114	-0.02217827
3.3e+08	-0.01568214	-0.02583018	-2.790681e-10	8.60852e-11	0.01180374	0.009557052	-1.58139e-10	3.267888e-10
	-2.790681e-10	8.60852e-11	-0.01696321	-0.02442629	-5.941567e-11	1.065745e-10	0.01143239	0.01009609
	0.01180374	0.009557052	-5.941567e-11	1.065745e-10	-0.01556205	-0.02613332	-3.139393e-10	1.083766e-10
	-1.58139e-10	3.267888e-10	0.01143239	0.01009609	-3.139393e-10	1.083766e-10	-0.01710989	-0.02426307
3.4e+08	-0.0211433	-0.02704668	-3.096269e-10	1.632709e-10	0.01343064	0.008641252	-1.763309e-10	3.983218e-10
	-3.096269e-10	1.632709e-10	-0.02242315	-0.02528301	-8.076558e-11	1.245098e-10	0.01307364	0.009298987
	0.01343064	0.008641252	-8.076558e-11	1.245098e-10	-0.02106674	-0.02740757	-3.471804e-10	1.950727e-10
	-1.763309e-10	3.983218e-10	0.01307364	0.009298987	-3.471804e-10	1.950727e-10	-0.02260152	-0.02509005
3.5e+08	-0.02678712	-0.02695268	-3.238893e-10	2.47395e-10	0.01476563	0.00735769	-1.804917e-10	4.747229e-10
	-3.238893e-10	2.47395e-10	-0.02798734	-0.02482953	-9.947601e-11	1.476524e-10	0.01444765	0.008132093
	0.01476563	0.00735769	-9.947601e-11	1.476524e-10	-0.02676852	-0.02735783	-3.621238e-10	2.892514e-10
	-1.804917e-10	4.747229e-10	0.01444765	0.008132093	-3.621238e-10	2.892514e-10	-0.02819147	-0.02459904
3.6e+08	-0.03229643	-0.02554386	-3.204204e-10	3.346704e-10	0.01572775	0.005789661	-1.696007e-10	5.526858e-10
	-3.204204e-10	3.346704e-10	-0.03333931	-0.02308087	-1.144338e-10	1.754677e-10	0.01547308	0.006672476
	0.01572775	0.005789661	-1.144338e-10	1.754677e-10	-0.03234633	-0.02597711	-3.572454e-10	3.866513e-10
	-1.696007e-10	5.526858e-10	0.01547308	0.006672476	-3.572454e-10	3.866513e-10	-0.03356147	-0.02280672
3.7e+08	-0.03736336	-0.02289089	-2.986627e-10	4.210298e-10	0.01625914	0.004037456	-1.434297e-10	6.287037e-10
	-2.986627e-10	4.210298e-10	-0.03817668	-0.02012672	-1.245966e-10	2.071972e-10	0.01609011	0.005014305
	0.01625914	0.004037456	-1.245966e-10	2.071972e-10	-0.03748801	-0.02333441	-3.320084e-10	4.827189e-10
	-1.434297e-10	6.287037e-10	0.01609011	0.005014305	-3.320084e-10	4.827189e-10	-0.03840777	-0.01980479
3.8e+08	-0.04170658	-0.01913472	-2.589858e-10	5.023228e-10	0.01632831	0.002212108	-1.025776e-10	6.992599e-10
	-2.589858e-10	5.023228e-10	-0.04222824	-0.01612542	-1.290344e-10	2.418448e-10	0.01626369	0.003263018
	0.01632831	0.002212108	-1.290344e-10	2.418448e-10	-0.04190772	-0.01957	-2.86914e-10	5.728309e-10
	-1.025776e-10	6.992599e-10	0.01626369	0.003263018	-2.86914e-10	5.728309e-10	-0.04245836	-0.01575394
3.9e+08	-0.04508674	-0.01447797	-2.026942e-10	5.745225e-10	0.0159318	0.0004286151	-4.846056e-11	7.610227e-10
	-2.026942e-10	5.745225e-10	-0.045269	-0.01129434	-1.269894e-10	2.781708e-10	0.01598539	0.001528948
	0.0159318	0.0004286151	-1.269894e-10	2.781708e-10	-0.04536175	-0.0148869	-2.235052e-10	6.525246e-10
	-4.846056e-11	7.610227e-10	0.01598539	0.001528948	-2.235052e-10	6.525246e-10	-0.04548802	-0.01087401
4e+08	-0.04731957	-0.009173198	-1.319929e-10	6.339299e-10	0.01509408	-0.001200936	1.674441e-11	8.110348e-10
	-1.319929e-10	6.339299e-10	-0.04713244	-0.005897034	-1.179521e-10	3.147044e-10	0.01527355	-7.919373e-05
	0.01509408	-0.001200936	-1.179521e-10	3.147044e-10	-0.04766165	-0.009538985	-1.443225e-10	7.177261e-10
	1.674441e-11	8.110348e-10	0.01527355	-7.919373e-05	-1.443225e-10	7.177261e-10	-0.04733062	-0.00543103
4.1e+08	-0.04828557	-0.00350843	-4.990871e-11	6.773727e-10	0.0138659	-0.002573948	9.019848e-11	8.468852e-10
	-4.990871e-11	6.773727e-10	-0.04771939	-0.0002280679	-1.017472e-10	3.497869e-10	0.01417198	-0.001460611
	0.0138659	-0.002573948	-1.017472e-10	3.497869e-10	-0.04868429	-0.003816503	-5.281214e-11	7.649715e-10
	9.019848e-11	8.468852e-10	0.01417198	-0.001460611	-5.281214e-11	7.649715e-10	-0.04788799	0.0002781172
4.2e+08	-0.04793636	0.002208964	3.982901e-11	7.023861e-10	0.01232118	-0.003603242	1.685388e-10	8.668562e-10
	3.982901e-11	7.023861e-10	-0.0470031	0.005403714	-7.861323e-11	3.816504e-10	0.01274721	-0.002528162
	0.01232118	-0.003603242	-7.861323e-11	3.816504e-10	-0.04837824	0.00197024	4.68143e-11	7.916064e-10
	1.685388e-10	8.668562e-10	0.01274721	-0.002528162	4.68143e-11	7.916064e-10	-0.04713493	0.005942569
4.3e+08	-0.04629688	0.007669368	1.329489e-10	7.073701e-10	0.01055252	-0.004222053	2.480479e-10	8.70035e-10
	1.329489e-10	7.073701e-10	-0.04503033	0.01069255	-4.926023e-11	4.085337e-10	0.01108457	-0.003213274
	0.01055252	-0.004222053	-4.926023e-11	4.085337e-10	-0.0467662	0.00750812	1.497643e-10	7.959584e-10
	2.480479e-10	8.70035e-10	0.01108457	-0.003213274	1.497643e-10	7.959584e-10	-0.04512018	0.01125496
4.4e+08	-0.04346383	0.01257802	2.248338e-10	6.91713e-10	0.008665897	-0.004387833	3.24846e-10	8.563835e-10
	2.248338e-10	6.91713e-10	-0.04191833	0.01535279	-1.488892e-11	4.288257e-10	0.009283231	-0.003469788
	0.008665897	-0.004387833	-1.488892e-11	4.288257e-10	-0.04394347	0.01249847	2.508892e-10	7.774687e-10
	3.24846e-10	8.563835e-10	0.009283231	-0.003469788	2.508892e-10	7.774687e-10	-0.04196335	0.01592859
4.5e+08	-0.03960003	0.01667121	3.10747e-10	6.558719e-10	0.00677449	-0.004084716	3.950966e-10	8.267646e-10
	3.10747e-10	6.558719e-10	-0.03784806	0.01913478	2.284162e-11	4.412196e-10	0.007450537	-0.003276578
	0.00677449	-0.004084716	2.284162e-11	4.412196e-10	-0.04007243	0.01667352	3.449421e-10	7.36775e-10
	3.950966e-10	8.267646e-10	0.007450537	-0.003276578	3.449421e-10	7.36775e-10	-0.03784796	0.01971332
4.6e+08	-0.03492543	0.01973085	3.860825e-10	6.014019e-10	0.004992188	-0.00332451	4.552092e-10	7.829136e-10
	3.860825e-10	6.014019e-10	-0.03305395	0.02183871	6.194805e-11	4.448318e-10	0.005695905	-0.002638799
	0.004992188	-0.00332451	6.194805e-11	4.448318e-10	-0.0353735	0.01981111	4.269453e-10	6.757187e-10
	4.552092e-10	7.829136e-10	0.005695905	-0.002638799	4.269453e-10	6.757187e-10	-0.03301105	0.02240956
4.7e+08	-0.02970481	0.0215964	4.466219e-10	5.309273e-10	0.003426993	-0.002146154	5.02047e-10	7.273821e-10
	4.466219e-10	5.309273e-10	-0.02781067	0.02332568	1.001927e-10	4.3926e-10	0.004124539	-0.001587713
	0.003426993	-0.002146154	1.001927e-10	4.3926e-10	-0.03011286	0.02174694	4.924073e-10	5.972234e-10
	5.02047e-10	7.273821e-10	0.004124539	-0.001587713	4.924073e-10	5.972234e-10	-0.02772976	0.02387916
