!$
! Info: Touchstone file created by Circ.  Input file=Tx_12in_Rx_85ohms_TxVia_35mils_RxVia_45mils.circ
!$
# Hz S RI R 50
0	0.009693348	1.5118e-25	-6.47665e-05	3.775646e-24	8.422416e-05	1.815186e-23	-6.477832e-05	5.302348e-24
	-6.476651e-05	3.777966e-24	0.009691091	1.802756e-25	-6.474618e-05	1.455792e-24	8.358992e-05	2.191786e-23
	8.473286e-05	1.840567e-23	-6.474615e-05	1.451766e-24	0.009705491	1.468729e-25	-6.476367e-05	3.681211e-24
	-6.477833e-05	5.303946e-24	8.174192e-05	2.202579e-23	-6.476369e-05	3.684514e-24	0.009704202	1.689123e-25
1e+07	0.01377583	-0.01143961	-0.0002807981	-2.418414e-05	0.0003585299	0.002202192	-0.0001836864	0.0001289622
	-0.0002807981	-2.418414e-05	0.01215953	-0.01154669	-8.987064e-06	-1.800947e-05	0.0004466586	0.00220586
	0.0003585592	0.002202186	-8.987064e-06	-1.800947e-05	0.01219104	-0.01174864	-5.990839e-05	-1.725513e-05
	-0.0001836864	0.0001289622	0.0004465982	0.00220587	-5.990839e-05	-1.725513e-05	0.01213546	-0.01153156
2e+07	0.01225867	-0.02650121	-0.0002500774	3.154817e-05	0.001181267	0.004255572	-0.0001677072	0.0001300517
	-0.0002500774	3.154818e-05	0.0108158	-0.02608405	-7.627362e-06	-4.476867e-06	0.001299592	0.004184302
	0.001181267	0.00425555	-7.627363e-06	-4.476866e-06	0.01067136	-0.02640859	-5.264184e-05	9.947902e-06
	-0.0001677072	0.0001300517	0.001299585	0.004184337	-5.264184e-05	9.947901e-06	0.01080204	-0.02604274
3e+07	0.005984661	-0.04148437	-0.0002372297	2.757985e-05	0.002522256	0.005941023	-0.0001349099	0.0001490784
	-0.0002372297	2.757985e-05	0.004671086	-0.04082763	-6.78366e-06	-5.519654e-07	0.002585075	0.005858422
	0.002522249	0.005941022	-6.783659e-06	-5.519652e-07	0.004418398	-0.0411721	-5.21312e-05	6.69496e-06
	-0.0001349099	0.0001490784	0.002585075	0.005858428	-5.21312e-05	6.69496e-06	0.004664054	-0.04077033
4e+07	-0.004161717	-0.05462134	-0.000227018	3.35512e-05	0.004202506	0.007208682	-9.35405e-05	0.0001554562
	-0.0002270181	3.35512e-05	-0.005365099	-0.05378024	-5.883331e-06	1.762184e-06	0.004211128	0.007136587
	0.004202507	0.007208686	-5.88333e-06	1.762184e-06	-0.005679325	-0.05411986	-5.229132e-05	7.317678e-06
	-9.354049e-05	0.0001554562	0.004211122	0.007136585	-5.229132e-05	7.317678e-06	-0.005367936	-0.05370918
5e+07	-0.01734368	-0.06493633	-0.0002176689	4.391426e-05	0.006103443	0.007996502	-5.136954e-05	0.0001442464
	-0.0002176689	4.391426e-05	-0.01844678	-0.06393115	-4.898083e-06	3.383987e-06	0.00606173	0.007952344
	0.006103445	0.007996503	-4.898083e-06	3.383986e-06	-0.01878729	-0.06426334	-5.245806e-05	1.006933e-05
	-5.136954e-05	0.0001442464	0.006061726	0.007952343	-5.245806e-05	1.006933e-05	-0.01844749	-0.06384658
6e+07	-0.03264054	-0.07177875	-0.000207963	5.670456e-05	0.008094252	0.008273958	-1.634994e-05	0.0001153254
	-0.000207963	5.670456e-05	-0.03364493	-0.07061674	-3.823982e-06	4.591422e-06	0.008009289	0.008272684
	0.008094251	0.008273957	-3.823982e-06	4.591422e-06	-0.03398706	-0.07095028	-5.208774e-05	1.423682e-05
	-1.634994e-05	0.0001153254	0.008009291	0.008272683	-5.208774e-05	1.423682e-05	-0.03364491	-0.07051781
7e+07	-0.04906686	-0.07477631	-0.0001970106	7.080309e-05	0.01004315	0.008045034	4.279882e-06	7.183866e-05
	-0.0001970106	7.080309e-05	-0.04996643	-0.07346025	-3.242266e-06	4.921567e-06	0.009925209	0.008099017
	0.01004315	0.008045034	-3.242265e-06	4.921567e-06	-0.05029539	-0.07380908	-5.077864e-05	1.929163e-05
	4.27988e-06	7.183866e-05	0.009925216	0.008099013	-5.077864e-05	1.929163e-05	-0.04996625	-0.07334548
8e+07	-0.0656202	-0.07382043	-0.0001841422	8.533843e-05	0.01182699	0.00734633	4.788359e-06	1.938444e-05
	-0.0001841422	8.533843e-05	-0.06640237	-0.07235352	-2.925345e-06	4.958978e-06	0.01168919	0.007464905
	0.01182699	0.007346333	-2.925343e-06	4.958978e-06	-0.06671159	-0.07273227	-4.828147e-05	2.472965e-05
	4.788357e-06	1.938444e-05	0.0116892	0.007464898	-4.828147e-05	2.472965e-05	-0.06640167	-0.0722212
9e+07	-0.08133451	-0.06904984	-0.0001687689	9.957325e-05	0.01333916	0.006242522	-1.875253e-05	-3.493477e-05
	-0.0001687689	9.957325e-05	-0.08198211	-0.06743908	-2.599792e-06	5.014033e-06	0.013197	0.006431551
	0.01333916	0.006242525	-2.599791e-06	5.014033e-06	-0.0822702	-0.06785929	-4.449407e-05	3.007772e-05
	-1.875253e-05	-3.493477e-05	0.01319701	0.006431545	-4.449407e-05	3.007772e-05	-0.08197972	-0.06728765
1e+08	-0.09533119	-0.06082598	-0.0001492636	0.0001133204	0.01449623	0.004820507	-7.161387e-05	-8.479824e-05
	-0.0001492636	0.0001133204	-0.09582739	-0.0590857	-2.299255e-06	5.042082e-06	0.01436847	0.005082858
	0.01449623	0.004820507	-2.299255e-06	5.042082e-06	-0.09608407	-0.05954847	-3.931292e-05	3.50027e-05
	-7.161387e-05	-8.479824e-05	0.01436847	0.005082858	-3.931292e-05	3.50027e-05	-0.09582164	-0.05891419
1.1e+08	-0.1068617	-0.04970535	-0.000130267	0.0001300632	0.015238	0.003175816	-0.0001371939	-0.0001359128
	-0.000130267	0.0001300632	-0.1071873	-0.04784156	-1.913186e-06	4.965972e-06	0.01514427	0.003498971
	0.015238	0.003175816	-1.913186e-06	4.965972e-06	-0.1074096	-0.04841419	-3.357642e-05	3.960011e-05
	-0.0001371939	-0.0001359128	0.01514427	0.003498971	-3.357642e-05	3.960011e-05	-0.1071753	-0.04764931
1.2e+08	-0.1153402	-0.03637407	-0.0001115289	0.0001432686	0.01552706	0.001421909	-0.0002120309	-0.0001627073
	-0.0001115289	0.0001432686	-0.1154651	-0.03441145	-1.501577e-06	4.895995e-06	0.01547587	0.00179611
	0.01552706	0.001421909	-1.501577e-06	4.895995e-06	-0.1157118	-0.03510162	-2.743076e-05	4.28891e-05
	-0.0002120309	-0.0001627073	0.01547587	0.00179611	-2.743076e-05	4.28891e-05	-0.1154436	-0.03419852
1.3e+08	-0.1203681	-0.02163733	-9.204618e-05	0.0001535712	0.01535888	-0.0003290313	-0.0002939928	-0.0001639292
	-9.204618e-05	0.0001535712	-0.1202708	-0.01961195	-1.099908e-06	4.801114e-06	0.01535887	8.49843e-05
	0.01535888	-0.0003290314	-1.099908e-06	4.801114e-06	-0.120581	-0.02040478	-2.105069e-05	4.490731e-05
	-0.0002939928	-0.0001639292	0.01535887	8.498432e-05	-2.105069e-05	4.490731e-05	-0.1202366	-0.01937961
1.4e+08	-0.1217492	-0.006358191	-7.202576e-05	0.0001610336	0.01475281	-0.001969414	-0.0003761861	-0.0001384774
	-7.202576e-05	0.0001610336	-0.1214167	-0.004314429	-7.247483e-07	4.678178e-06	0.01481025	-0.001529154
	0.01475281	-0.001969414	-7.247483e-07	4.678178e-06	-0.121819	-0.005182897	-1.474388e-05	4.56972e-05
	-0.0003761861	-0.0001384774	0.01481025	-0.001529154	-1.474388e-05	4.56972e-05	-0.1213666	-0.004065248
1.5e+08	-0.1194934	0.008589073	-5.182715e-05	0.0001657186	0.01375108	-0.003400327	-0.0004510694	-8.737277e-05
	-5.182715e-05	0.0001657186	-0.1189239	0.01060093	-3.879781e-07	4.533496e-06	0.01386881	-0.002949168
	0.01375108	-0.003400327	-3.879781e-07	4.533496e-06	-0.1194353	0.00969206	-8.800908e-06	4.538442e-05
	-0.0004510694	-8.737277e-05	0.01386881	-0.002949168	-8.800908e-06	4.538442e-05	-0.1188555	0.01086316
1.6e+08	-0.1138112	0.02236432	-3.183695e-05	0.0001677521	0.01241625	-0.004535541	-0.0005115842	-1.389616e-05
	-3.183695e-05	0.0001677521	-0.1130158	0.02429121	-9.584207e-08	4.37916e-06	0.0125931	-0.004089683
	0.01241625	-0.004535541	-9.584207e-08	4.37916e-06	-0.1136407	0.02338178	-3.458624e-06	4.417023e-05
	-0.0005115842	-1.389616e-05	0.0125931	-0.004089683	-3.458624e-06	4.417023e-05	-0.1129278	0.02456172
1.7e+08	-0.105099	0.03420431	-1.241444e-05	0.0001673325	0.01082835	-0.005305107	-0.0005519781	7.668905e-05
	-1.241444e-05	0.0001673325	-0.104103	0.03599398	1.520289e-07	4.229871e-06	0.01105881	-0.004880508
	0.01082834	-0.005305107	1.520289e-07	4.229871e-06	-0.1048328	0.03512479	1.122631e-06	4.23122e-05
	-0.0005519781	7.668905e-05	0.01105881	-0.004880508	1.122631e-06	4.23122e-05	-0.1039955	0.03626747
1.8e+08	-0.09391737	0.04346149	6.141163e-06	0.000164721	0.009081482	-0.005658635	-0.0005684137	0.0001776681
	6.141163e-06	0.000164721	-0.09275988	0.04506653	3.627985e-07	4.099755e-06	0.009355768	-0.005269828
	0.009081482	-0.005658635	3.627985e-07	4.099755e-06	-0.093573	0.04427554	4.873947e-06	4.009889e-05
	-0.0005684137	0.0001776681	0.009355768	-0.005269828	4.873947e-06	4.009889e-05	-0.09263465	0.0453376
1.9e+08	-0.08096026	0.04963771	2.361261e-05	0.0001602206	0.007279811	-0.005568227	-0.0005593473	0.000281578
	2.361261e-05	0.0001602206	-0.07969357	0.05101945	5.494339e-07	3.999479e-06	0.007584196	-0.005227163
	0.007279811	-0.005568227	5.494339e-07	3.999479e-06	-0.08055663	0.05033825	7.825339e-06	3.782021e-05
	-0.0005593473	0.000281578	0.007584196	-0.005227163	7.825339e-06	3.782021e-05	-0.07955403	0.05128315
2e+08	-0.06701884	0.05241135	3.987616e-05	0.0001541485	0.005532704	-0.005030892	-0.0005256466	0.0003809989
	3.987616e-05	0.0001541485	-0.06570602	0.05354355	7.287065e-07	3.934084e-06	0.005850232	-0.004745885
	0.005532703	-0.005030892	7.287065e-07	3.934084e-06	-0.06657583	0.05299408	1.010406e-05	3.573446e-05
	-0.0005256466	0.0003809989	0.005850232	-0.004745885	1.010406e-05	3.573446e-05	-0.06555705	0.05379585
2.1e+08	-0.05293858	0.05165625	5.490169e-05	0.000146803	0.003949047	-0.004070099	-0.0004704314	0.0004693485
	5.490169e-05	0.000146803	-0.05165034	0.05252823	9.185659e-07	3.901895e-06	0.004260492	-0.003844958
	0.003949047	-0.004070099	9.185659e-07	3.901895e-06	-0.05247672	0.05212008	1.192165e-05	3.403493e-05
	-0.0004704314	0.0004693485	0.004260492	-0.003844958	1.192165e-05	3.403493e-05	-0.051498	0.05276641
2.2e+08	-0.03957236	0.04745096	6.873904e-05	0.0001384316	0.002630752	-0.002736023	-0.0003986501	0.0005415815
	6.873904e-05	0.0001384316	-0.03838297	0.04806977	1.135407e-06	3.894609e-06	0.002915815	-0.002569458
	0.002630752	-0.002736023	1.135407e-06	3.894609e-06	-0.03911225	0.04779827	1.354809e-05	3.282025e-05
	-0.0003986501	0.0005415815	0.002915815	-0.002569458	1.354809e-05	3.282025e-05	-0.03823413	0.04829282
2.3e+08	-0.02773129	0.04007675	8.149117e-05	0.0001292052	0.001665822	-0.001104059	-0.0003164318	0.0005947081
	8.149117e-05	0.0001292052	-0.02671387	0.04046831	1.391726e-06	3.898439e-06	0.001904479	-0.0009893927
	0.001665822	-0.001104059	1.391726e-06	3.898439e-06	-0.02729291	0.04031359	1.527394e-05	3.207447e-05
	-0.0003164318	0.0005947081	0.001904479	-0.0009893927	1.527394e-05	3.207447e-05	-0.02657574	0.04067705
2.4e+08	-0.01813622	0.03000355	9.327725e-05	0.0001192036	0.001121549	0.0007287373	-0.0002302838	0.0006280561
	9.327725e-05	0.0001192036	-0.01735774	0.03021244	1.694549e-06	3.896005e-06	0.001295476	0.0008034901
	0.001121549	0.0007287373	1.694549e-06	3.896005e-06	-0.01773817	0.0301396	1.736442e-05	3.166264e-05
	-0.0002302838	0.0006280561	0.001295476	0.0008034901	1.736442e-05	3.166264e-05	-0.01723736	0.03040966
2.5e+08	-0.0113731	0.01786368	0.0001041907	0.0001084197	0.001038582	0.002649349	-0.0001462453	0.0006432241
	0.0001041907	0.0001084197	-0.01088942	0.0179516	2.044732e-06	3.868451e-06	0.001132553	0.002701032
	0.001038582	0.002649349	2.044732e-06	3.868451e-06	-0.01103178	0.01791202	2.001208e-05	3.134582e-05
	-0.0001462453	0.0006432241	0.001132553	0.002701032	2.001208e-05	3.134582e-05	-0.0107931	0.01814199
2.6e+08	-0.007855652	0.004414357	0.0001142618	9.6781e-05	0.001426697	0.004536405	-6.910364e-05	0.0006437294
	0.0001142618	9.6781e-05	-0.007706983	0.004457172	2.437069e-06	3.797493e-06	0.001429857	0.004585897
	0.001426697	0.004536405	2.437069e-06	3.797493e-06	-0.007584532	0.004391003	2.329767e-05	3.081584e-05
	-6.910364e-05	0.0006437294	0.001429857	0.004585897	2.329767e-05	3.081584e-05	-0.007639861	0.004647114
2.7e+08	-0.007798594	-0.009508991	0.0001234328	8.418681e-05	0.002262961	0.006269089	-1.801226e-06	0.0006343851
	0.0001234328	8.418681e-05	-0.008005809	-0.009425392	2.860912e-06	3.667106e-06	0.002169881	0.006340149
	0.002262961	0.006269089	2.860912e-06	3.667106e-06	-0.007607559	-0.009585741	2.716768e-05	2.97453e-05
	-1.801226e-06	0.0006343851	0.002169881	0.006340149	2.716768e-05	2.97453e-05	-0.007971364	-0.009228134
2.8e+08	-0.0112039	-0.02304534	0.0001315522	7.055397e-05	0.003492737	0.007736467	5.489229e-05	0.0006205004
	0.0001315522	7.055397e-05	-0.01176602	-0.02283017	3.301159e-06	3.464869e-06	0.00330416	0.007854303
	0.003492737	0.007736467	3.301159e-06	3.464869e-06	-0.0110988	-0.02315572	3.143502e-05	2.784413e-05
	5.489229e-05	0.0006205004	0.00330416	0.007854303	3.143502e-05	2.784413e-05	-0.01176573	-0.02261689
2.9e+08	-0.01786154	-0.0353627	0.0001383902	5.586056e-05	0.005033618	0.008846197	0.0001023701	0.0006070167
	0.0001383902	5.586056e-05	-0.01875463	-0.03492601	3.739358e-06	3.183e-06	0.004756817	0.00903584
	0.005033618	0.008846197	3.739358e-06	3.183e-06	-0.01784393	-0.03548641	3.580378e-05	2.49116e-05
	0.0001023701	0.0006070167	0.004756817	0.00903584	3.580378e-05	2.49116e-05	-0.01878773	-0.03468759
3e+08	-0.02736466	-0.0457105	0.0001436718	4.017857e-05	0.006781888	0.009531613	0.0001438536	0.0005977213
	0.0001436718	4.017857e-05	-0.0285423	-0.04496915	4.155021e-06	2.8192e-06	0.006430595	0.009816206
	0.006781888	0.009531613	4.155021e-06	2.8192e-06	-0.02743177	-0.04582766	3.991395e-05	2.087312e-05
	0.0001438536	0.0005977213	0.006430595	0.009816206	3.991395e-05	2.087312e-05	-0.02860566	-0.04469663
3.1e+08	-0.03913792	-0.05346565	0.0001471216	2.368807e-05	0.008620806	0.009756399	0.0001838014	0.0005946442
	0.0001471216	2.368807e-05	-0.04053323	-0.05234899	4.527248e-06	2.37723e-06	0.008214683	0.01015552
	0.008620806	0.009756399	4.527248e-06	2.37723e-06	-0.03928292	-0.05355773	4.339697e-05	1.579462e-05
	0.0001838014	0.0005946442	0.008214683	0.01015552	4.339697e-05	1.579462e-05	-0.04062146	-0.05203417
3.2e+08	-0.05247645	-0.05816889	0.0001485083	6.67084e-06	0.01042972	0.009516441	0.0002271293	0.0005977379
	0.0001485083	6.67084e-06	-0.0540056	-0.05662382	4.836613e-06	1.867057e-06	0.009993388	0.01004458
	0.01042972	0.009516441	4.836613e-06	1.867057e-06	-0.05268883	-0.05821958	4.593091e-05	9.872664e-06
	0.0002271293	0.0005977379	0.009993388	0.01004458	4.593091e-05	9.872664e-06	-0.0541112	-0.05625987
3.3e+08	-0.06659195	-0.05954924	0.0001476833	-1.051427e-05	0.012093	0.008838841	0.0002783591	0.0006049044
	0.0001476833	-1.051427e-05	-0.06815888	-0.0575442	5.067268e-06	1.304294e-06	0.01165468	0.009504138
	0.012093	0.008838841	5.067268e-06	1.304294e-06	-0.06685814	-0.05954517	4.728526e-05	3.403524e-06
	0.0002783591	0.0006049044	0.01165468	0.009504138	4.728526e-05	3.403524e-06	-0.06827261	-0.05712622
3.4e+08	-0.0806622	-0.05753554	0.0001444997	-2.740709e-05	0.01350789	0.00777849	0.0003495237	0.0005987563
	0.0001444997	-2.740709e-05	-0.08216424	-0.05506317	5.208823e-06	7.092465e-07	0.01309771	0.008581886
	0.01350789	0.00777849	5.208823e-06	7.092465e-07	-0.08096633	-0.05746676	4.724807e-05	-3.198761e-06
	0.0003495237	0.0005987563	0.01309771	0.008581886	4.724807e-05	-3.198761e-06	-0.08227563	-0.05458862
3.5e+08	-0.09388045	-0.05225496	0.0001391139	-4.364258e-05	0.01459066	0.006412819	0.0004313794	0.0005838719
	0.0001391139	-4.364258e-05	-0.09521444	-0.04933343	5.258366e-06	1.041795e-07	0.0142388	0.007347621
	0.01459066	0.006412819	5.258366e-06	1.041795e-07	-0.09420515	-0.05211541	4.592251e-05	-9.613483e-06
	0.0004313794	0.0005838719	0.0142388	0.007347621	4.592251e-05	-9.613483e-06	-0.09531242	-0.04880238
3.6e+08	-0.1055013	-0.04402017	0.0001317029	-5.885484e-05	0.01528074	0.004835511	0.0005218951	0.0005570785
	0.0001317029	-5.885484e-05	-0.10657	-0.04069281	5.220005e-06	-4.899515e-07	0.01501547	0.005887472
	0.01528074	0.004835511	5.220005e-06	-4.899515e-07	-0.1058286	-0.0438078	4.344674e-05	-1.551949e-05
	0.0005218951	0.0005570785	0.01501547	0.005887472	4.344674e-05	-1.551949e-05	-0.1066435	-0.04010811
3.7e+08	-0.1148811	-0.03330651	0.0001225118	-7.272895e-05	0.01554292	0.003149868	0.0006185342	0.0005135525
	0.0001225118	-7.272895e-05	-0.1155989	-0.02963998	5.104045e-06	-1.055585e-06	0.01538868	0.004297769
	0.01554292	0.003149868	5.104045e-06	-1.055585e-06	-0.1151933	-0.0330233	4.003589e-05	-2.065448e-05
	0.0006185342	0.0005135525	0.01538868	0.004297769	4.003589e-05	-2.065448e-05	-0.1156378	-0.02900721
3.8e+08	-0.1215103	-0.02072165	0.0001118446	-8.50278e-05	0.01536777	0.001462425	0.0007169176	0.0004494001
	0.0001118446	-8.50278e-05	-0.1218092	-0.01680264	4.925159e-06	-1.580639e-06	0.01534348	0.002679134
	0.01536777	0.001462425	4.925159e-06	-1.580639e-06	-0.1217907	-0.02037335	3.596586e-05	-2.484573e-05
	0.0007169176	0.0004494001	0.01534348	0.002679134	3.596586e-05	-2.484573e-05	-0.1218047	-0.0161299
3.9e+08	-0.1250378	-0.006969727	0.0001000366	-9.560079e-05	0.01477066	-0.0001228417	0.0008112413	0.0003622592
	0.0001000366	-9.560079e-05	-0.1248719	-0.002900455	4.699809e-06	-2.059646e-06	0.01488828	0.001131106
	0.01477066	-0.0001228417	4.699809e-06	-2.059646e-06	-0.1252717	-0.006565552	3.153937e-05	-2.801982e-05
	0.0008112413	0.0003622592	0.01488828	0.001131106	3.153937e-05	-2.801982e-05	-0.1248172	-0.002197987
4e+08	-0.1252869	0.00718781	8.742908e-05	-0.0001043841	0.01378991	-0.00150955	0.0008948649	0.0002517248
	8.742908e-05	-0.0001043841	-0.1246355	0.01129509	4.443443e-06	-2.49369e-06	0.01405343	-0.0002525702
	0.01378991	-0.00150955	4.443443e-06	-2.49369e-06	-0.1254619	0.00763565	2.705343e-05	-3.020125e-05
	0.0008948649	0.0002517248	0.01405343	-0.0002525702	2.705343e-05	-3.020125e-05	-0.1245265	0.01201547
4.1e+08	-0.1222612	0.02097282	7.43465e-05	-0.000111395	0.01248415	-0.002613207	0.0009610015	0.0001195498
	7.43465e-05	-0.000111395	-0.1211313	0.02500211	4.167994e-06	-2.889212e-06	0.01288906	-0.001388019
	0.01248415	-0.002613207	4.167994e-06	-2.889212e-06	-0.1223683	0.02144976	2.277065e-05	-3.150289e-05
	0.0009610015	0.0001195498	0.01288906	-0.001388019	2.277065e-05	-3.150289e-05	-0.1209668	0.02572764
4.2e+08	-0.1161434	0.03363109	6.107616e-05	-0.0001167214	0.0109293	-0.003364873	0.001003434	-3.038714e-05
	6.107616e-05	-0.0001167214	-0.1145701	0.03746924	3.88014e-06	-3.255894e-06	0.01146255	-0.002204799
	0.0109293	-0.003364873	3.88014e-06	-3.255894e-06	-0.1161768	0.03412088	1.889526e-05	-3.210967e-05
	0.001003434	-3.038714e-05	0.01146255	-0.002204799	1.889526e-05	-3.210967e-05	-0.1143522	0.038187
4.3e+08	-0.1072848	0.04447139	4.785185e-05	-0.0001205071	0.009215115	-0.003714291	0.001017185	-0.0001923402
	4.785185e-05	-0.0001205071	-0.1053304	0.04801493	3.580654e-06	-3.604048e-06	0.009855575	-0.002649064
	0.009215115	-0.003714291	3.580654e-06	-3.604048e-06	-0.1072427	0.0449569	1.555424e-05	-3.225711e-05
	0.001017185	-0.0001923402	0.009855575	-0.002649064	1.555424e-05	-3.225711e-05	-0.1050642	0.0487126
4.4e+08	-0.09618726	0.05290171	3.484033e-05	-0.0001229333	0.007441223	-0.003632564	0.0009990738	-0.0003591626
	3.484033e-05	-0.0001229333	-0.09393876	0.05606335	3.264897e-06	-3.942058e-06	0.008160689	-0.00268639
	0.007441223	-0.003632564	3.264897e-06	-3.942058e-06	-0.09607165	0.05336577	1.278438e-05	-3.220503e-05
	0.0009990738	-0.0003591626	0.008160689	-0.00268639	1.278438e-05	-3.220503e-05	-0.09363242	0.05673001
4.5e+08	-0.08347784	0.05846128	2.213321e-05	-0.0001241952	0.005712629	-0.003114284	0.0009480978	-0.0005229306
	2.213321e-05	-0.0001241952	-0.08104284	0.06117577	2.924313e-06	-4.274337e-06	0.006477261	-0.002304179
	0.005712629	-0.003114284	2.924313e-06	-4.274337e-06	-0.08329475	0.05888755	1.052669e-05	-3.220717e-05
	0.0009480978	-0.0005229306	0.006477261	-0.002304179	1.052669e-05	-3.220717e-05	-0.08070718	0.06180261
4.6e+08	-0.06987658	0.06084686	9.745674e-06	-0.0001244754	0.00413454	-0.002178951	0.0008655948	-0.0006756706
	9.745674e-06	-0.0001244754	-0.06737772	0.0630759	2.548561e-06	-4.600174e-06	0.004906689	-0.001513442
	0.00413454	-0.002178951	2.548561e-06	-4.600174e-06	-0.06963564	0.06122072	8.63034e-06	-3.247812e-05
	0.0008655948	-0.0006756706	0.004906689	-0.001513442	8.63034e-06	-3.247812e-05	-0.0670256	0.06365686
4.7e+08	-0.05615833	0.05993173	-2.374645e-06	-0.0001239159	0.002806549	-0.0008713417	0.0007551623	-0.0008101082
	-2.374645e-06	-0.0001239159	-0.05372662	0.06166753	2.127861e-06	-4.913576e-06	0.003546869	-0.0003496326
	0.002806549	-0.0008713417	2.127861e-06	-4.913576e-06	-0.05587241	0.06024107	6.868483e-06	-3.316049e-05
	0.0007551623	-0.0008101082	0.003546869	-0.0003496326	6.868483e-06	-3.316049e-05	-0.05337227	0.06219977
4.8e+08	-0.04311037	0.05577595	-1.432794e-05	-0.0001225922	0.001816367	0.0007395111	0.0006223231	-0.0009203644
