!$
! Info: Touchstone file created by Circ.  Input file=Tx_10in_Rx_93ohms_TxVia_35mils_RxVia_45mils.circ
!$
# Hz S RI R 50
0	0.009224772	1.319719e-25	-5.386208e-05	-5.153836e-26	7.408601e-05	1.731826e-23	-5.386161e-05	-5.604789e-26
	-5.38621e-05	-4.957047e-26	0.009221315	1.545067e-25	-5.386098e-05	-4.326307e-26	7.273618e-05	2.084905e-23
	7.46094e-05	1.754371e-23	-5.386095e-05	-4.655555e-26	0.009232835	1.288298e-25	-5.386121e-05	3.877019e-26
	-5.386162e-05	-5.468161e-26	7.088827e-05	2.095173e-23	-5.386123e-05	4.146109e-26	0.009234433	1.447637e-25
1e+07	0.01269939	-0.0007970065	-2.603736e-06	-1.988585e-05	0.0003241098	0.001749438	-2.641228e-06	-2.040851e-05
	-2.603736e-06	-1.988585e-05	0.0134396	-0.0009276834	-6.45669e-06	-3.618096e-06	0.0003354172	0.001898236
	0.0003241338	0.001749439	-6.456689e-06	-3.618096e-06	0.01367102	-0.0003456132	-2.151592e-05	-4.556971e-06
	-2.641228e-06	-2.040851e-05	0.0003353567	0.001898246	-2.151592e-05	-4.55697e-06	0.01317755	-0.0009279779
2e+07	0.01512213	-0.004787673	-7.667722e-06	-1.296752e-05	0.0009341025	0.003475843	-8.287564e-06	-1.376662e-05
	-7.667723e-06	-1.296752e-05	0.01555053	-0.00525661	-2.581207e-05	-1.964019e-05	0.000850859	0.003754402
	0.0009341105	0.003475828	-2.581207e-05	-1.964019e-05	0.01640111	-0.004446204	-2.257081e-05	4.785241e-06
	-8.287564e-06	-1.376662e-05	0.0008508505	0.003754437	-2.257081e-05	4.785241e-06	0.0153536	-0.005165652
3e+07	0.01564484	-0.01014399	-1.172018e-05	-1.01053e-05	0.001866111	0.00503022	-1.279334e-05	-1.084527e-05
	-1.172018e-05	-1.01053e-05	0.01580303	-0.01069154	-4.032357e-05	-1.884416e-05	0.001774123	0.00536658
	0.001866111	0.005030216	-4.032357e-05	-1.884416e-05	0.01713756	-0.009978461	-2.399264e-05	6.18654e-06
	-1.279334e-05	-1.084527e-05	0.001774123	0.005366586	-2.399264e-05	6.18654e-06	0.01565322	-0.01058023
4e+07	0.0146399	-0.01573045	-1.487754e-05	-7.111128e-06	0.003080651	0.006352368	-1.631726e-05	-7.662813e-06
	-1.487754e-05	-7.111128e-06	0.01455098	-0.01626357	-5.166768e-05	-1.283105e-05	0.003029765	0.006709958
	0.003080653	0.006352369	-5.166768e-05	-1.283105e-05	0.01627272	-0.0157909	-2.466696e-05	8.783933e-06
	-1.631726e-05	-7.662813e-06	0.00302976	0.006709956	-2.466696e-05	8.783933e-06	0.01443631	-0.01615083
5e+07	0.01230343	-0.0211001	-1.720919e-05	-3.743329e-06	0.004522365	0.007389123	-1.894328e-05	-4.016836e-06
	-1.720919e-05	-3.743329e-06	0.01199158	-0.0215524	-6.018421e-05	-3.684317e-06	0.00450225	0.007755582
	0.004522367	0.007389124	-6.018421e-05	-3.684317e-06	0.01400875	-0.0214169	-2.465806e-05	1.191669e-05
	-1.894328e-05	-4.016836e-06	0.004502247	0.007755581	-2.465805e-05	1.191669e-05	0.01190129	-0.02144774
6e+07	0.00881649	-0.02594424	-1.872431e-05	-3.140427e-08	0.006125897	0.008100962	-2.068177e-05	4.745873e-08
	-1.872431e-05	-3.140424e-08	0.008311194	-0.026262	-6.592753e-05	7.638512e-06	0.006127026	0.00846959
	0.006125895	0.008100962	-6.592753e-05	7.638512e-06	0.01052953	-0.02653247	-2.398176e-05	1.531169e-05
	-2.068177e-05	4.74587e-08	0.006127029	0.008469589	-2.398176e-05	1.531169e-05	0.008235265	-0.02617025
7e+07	0.00437426	-0.03002865	-1.940422e-05	3.942969e-06	0.007819616	0.008463406	-2.150687e-05	4.441245e-06
	-1.940422e-05	3.942969e-06	0.003711476	-0.03016757	-6.881003e-05	2.051904e-05	0.007833226	0.008830881
	0.00781961	0.008463407	-6.881003e-05	2.051904e-05	0.006032449	-0.03089072	-2.263812e-05	1.880136e-05
	-2.150687e-05	4.441245e-06	0.007833235	0.008830878	-2.263812e-05	1.880136e-05	0.003640579	-0.0300904
8e+07	-0.000809064	-0.03317715	-1.920487e-05	8.091696e-06	0.009529162	0.008467913	-2.136032e-05	9.073487e-06
	-1.920487e-05	8.091696e-06	-0.001586666	-0.03310145	-6.863486e-05	3.450085e-05	0.009546988	0.008832831
	0.009529155	0.008467916	-6.863486e-05	3.450085e-05	0.000733503	-0.03430502	-2.081472e-05	2.206685e-05
	-2.136032e-05	9.073487e-06	0.009546998	0.008832825	-2.081472e-05	2.206685e-05	-0.001661136	-0.03303829
9e+07	-0.006502882	-0.03526672	-1.80259e-05	1.234397e-05	0.01118159	0.008122475	-2.011634e-05	1.388651e-05
	-1.802589e-05	1.234397e-05	-0.007345125	-0.03494851	-6.499518e-05	4.928354e-05	0.01119472	0.008483815
	0.01118158	0.008122479	-6.499518e-05	4.928354e-05	-0.005137014	-0.03664484	-1.995283e-05	2.391164e-05
	-2.011634e-05	1.388651e-05	0.01119473	0.00848381	-1.995283e-05	2.391164e-05	-0.007431186	-0.03489712
1e+08	-0.01246127	-0.03622309	-1.535498e-05	1.681965e-05	0.01271622	0.007456046	-1.717218e-05	1.903425e-05
	-1.535498e-05	1.681965e-05	-0.01329897	-0.03563556	-5.598058e-05	6.529862e-05	0.01270618	0.007806416
	0.01271622	0.007456046	-5.598058e-05	6.529862e-05	-0.01135602	-0.03784273	-1.948305e-05	2.529059e-05
	-1.717218e-05	1.903425e-05	0.01270618	0.007806416	-1.948305e-05	2.529059e-05	-0.01340648	-0.03559401
1.1e+08	-0.01844018	-0.0360751	-1.111283e-05	1.889214e-05	0.01402694	0.006530482	-1.234708e-05	2.148071e-05
	-1.111283e-05	1.889214e-05	-0.01919711	-0.0352825	-4.098759e-05	7.306883e-05	0.01401562	0.006840425
	0.01402694	0.006530482	-4.098759e-05	7.306883e-05	-0.01768106	-0.0377726	-1.829505e-05	2.547711e-05
	-1.234708e-05	2.148071e-05	0.01401562	0.006840425	-1.829505e-05	2.547711e-05	-0.01933436	-0.03523215
1.2e+08	-0.02424797	-0.03481144	-7.527022e-06	2.002047e-05	0.01507294	0.005345025	-9.342154e-06	2.231645e-05
	-7.527022e-06	2.002047e-05	-0.02492139	-0.03383851	-3.261875e-05	7.546543e-05	0.01507286	0.00563481
	0.01507294	0.005345024	-3.261875e-05	7.546543e-05	-0.02377846	-0.03650972	-1.659365e-05	2.608056e-05
	-9.342154e-06	2.231645e-05	0.01507286	0.00563481	-1.659365e-05	2.608056e-05	-0.02508184	-0.03376966
1.3e+08	-0.02965598	-0.03249675	-6.340802e-06	1.995273e-05	0.01582089	0.003968483	-8.309509e-06	2.221978e-05
	-6.340802e-06	1.995273e-05	-0.03022757	-0.03135925	-2.838191e-05	7.577547e-05	0.01583549	0.004247104
	0.01582089	0.003968483	-2.838191e-05	7.577547e-05	-0.02944308	-0.03414928	-1.467735e-05	2.678086e-05
	-8.309509e-06	2.221978e-05	0.01583549	0.004247104	-1.467735e-05	2.678086e-05	-0.03040626	-0.03126558
1.4e+08	-0.03446461	-0.02924181	-5.251428e-06	1.987024e-05	0.01624223	0.002469657	-7.132377e-06	2.221938e-05
	-5.251428e-06	1.987024e-05	-0.03491378	-0.02795788	-2.365493e-05	7.621757e-05	0.01627418	0.002742376
	0.01624223	0.002469657	-2.365493e-05	7.621757e-05	-0.03447749	-0.0308131	-1.262851e-05	2.742465e-05
	-7.132377e-06	2.221938e-05	0.01627418	0.002742376	-1.262851e-05	2.742465e-05	-0.03510513	-0.02783471
1.5e+08	-0.03850483	-0.02519319	-4.083008e-06	1.980443e-05	0.01632183	0.0009203819	-5.853462e-06	2.224697e-05
	-4.083008e-06	1.980443e-05	-0.03881179	-0.02378517	-1.858037e-05	7.65895e-05	0.01637366	0.001189888
	0.01632183	0.0009203819	-1.858037e-05	7.65895e-05	-0.03871261	-0.02665571	-1.047064e-05	2.797602e-05
	-5.853462e-06	2.224697e-05	0.01637366	0.001189888	-1.047064e-05	2.797602e-05	-0.03900962	-0.02362942
1.6e+08	-0.04164284	-0.02052576	-2.857591e-06	1.972185e-05	0.01605908	-0.0006067729	-4.497642e-06	2.226195e-05
	-2.857591e-06	1.972185e-05	-0.04179073	-0.01902054	-1.324989e-05	7.676473e-05	0.01613308	-0.0003398963
	0.01605908	-0.000606773	-1.324989e-05	7.676473e-05	-0.04201437	-0.02185875	-8.236979e-06	2.839472e-05
	-4.497642e-06	2.226195e-05	0.01613308	-0.0003398963	-8.236979e-06	2.839472e-05	-0.0419885	-0.01883078
1.7e+08	-0.04378385	-0.01543493	-1.591096e-06	1.959959e-05	0.01546791	-0.002041296	-3.082651e-06	2.223605e-05
	-1.591096e-06	1.959959e-05	-0.04376037	-0.01386352	-7.736375e-06	7.665601e-05	0.01556587	-0.001778243
	0.01546791	-0.002041296	-7.736375e-06	7.665601e-05	-0.04428796	-0.01662369	-5.947906e-06	2.866119e-05
	-3.082651e-06	2.223605e-05	0.01556587	-0.001778243	-5.947906e-06	2.866119e-05	-0.04395155	-0.01363994
1.8e+08	-0.04487442	-0.01012849	-2.965498e-07	1.942113e-05	0.01457606	-0.003317502	-1.62334e-06	2.21485e-05
	-2.965498e-07	1.942113e-05	-0.04467317	-0.008525137	-2.104595e-06	7.620138e-05	0.0146989	-0.003060924
	0.01457606	-0.003317502	-2.104595e-06	7.620138e-05	-0.04548042	-0.01116384	-3.622873e-06	2.876103e-05
	-1.62334e-06	2.21485e-05	0.0146989	-0.003060924	-3.622873e-06	2.876103e-05	-0.04485154	-0.008269463
1.9e+08	-0.0449034	-0.004818389	1.014302e-06	1.917426e-05	0.01342382	-0.004377054	-1.33404e-07	2.198369e-05
	1.014302e-06	1.917426e-05	-0.04452485	-0.003219289	3.584062e-06	7.535729e-05	0.01357128	-0.004130754
	0.01342382	-0.004377054	3.584062e-06	7.535729e-05	-0.04558154	-0.005696224	-1.281287e-06	2.868386e-05
	-1.33404e-07	2.198369e-05	0.01357128	-0.004130754	-1.281287e-06	2.868386e-05	-0.04468487	-0.002934624
2e+08	-0.04390179	0.0002888106	2.328746e-06	1.884711e-05	0.01205413	-0.005199125	1.373418e-06	2.172877e-05
	2.328746e-06	1.884711e-05	-0.04335351	0.001845629	9.269655e-06	7.409416e-05	0.01223265	-0.004939813
	0.01205413	-0.005199125	9.269655e-06	7.409416e-05	-0.04462382	-0.000432003	1.056808e-06	2.842191e-05
	1.373418e-06	2.172877e-05	0.01223265	-0.004939813	1.056808e-06	2.842191e-05	-0.04349052	0.002155013
2.1e+08	-0.04193895	0.004995768	3.637032e-06	1.843644e-05	0.01053135	-0.005714038	2.8843e-06	2.137643e-05
	3.637032e-06	1.843644e-05	-0.04123722	0.006474736	1.489433e-05	7.239619e-05	0.01074108	-0.005451288
	0.01053135	-0.005714038	1.489433e-05	7.239619e-05	-0.04267854	0.004427345	3.371858e-06	2.797235e-05
	2.8843e-06	2.137643e-05	0.01074108	-0.005451288	3.371858e-06	2.797235e-05	-0.04134767	0.006803639
2.2e+08	-0.03912144	0.009125245	4.92854e-06	1.793818e-05	0.008923096	-0.005896062	4.386214e-06	2.092099e-05
	4.92854e-06	1.793818e-05	-0.03829022	0.01049399	2.040171e-05	7.025768e-05	0.009160697	-0.00564088
	0.008923096	-0.005896062	2.040171e-05	7.025768e-05	-0.0398546	0.008700929	5.644013e-06	2.73345e-05
	4.386214e-06	2.092099e-05	0.009160697	-0.00564088	5.644013e-06	2.73345e-05	-0.03837183	0.01083655
2.3e+08	-0.03558759	0.01252563	6.192697e-06	1.735e-05	0.007299857	-0.005735479	5.866234e-06	2.035907e-05
	6.192697e-06	1.735e-05	-0.03465792	0.01375658	2.573775e-05	6.768234e-05	0.007559112	-0.005497738
	0.007299857	-0.005735479	2.573775e-05	6.768234e-05	-0.03629302	0.01223399	7.853622e-06	2.651044e-05
	5.866234e-06	2.035907e-05	0.007559112	-0.005497738	7.853622e-06	2.651044e-05	-0.03470976	0.01410658
2.4e+08	-0.03150176	0.01507633	7.419053e-06	1.667134e-05	0.005732527	-0.005237082	7.31161e-06	1.968961e-05
	7.419053e-06	1.667134e-05	-0.03051077	0.01614833	3.085126e-05	6.468253e-05	0.006004674	-0.005024871
	0.005732527	-0.005237082	3.085126e-05	6.468253e-05	-0.03216118	0.01490332	9.981559e-06	2.550499e-05
	7.31161e-06	1.968961e-05	0.006004674	-0.005024871	9.981559e-06	2.550499e-05	-0.03053328	0.01649947
2.5e+08	-0.02704769	0.01669202	8.597457e-06	1.590324e-05	0.004289494	-0.004419973	8.710019e-06	1.891353e-05
	8.597457e-06	1.590324e-05	-0.02603724	0.01759167	3.569479e-05	6.127791e-05	0.004563706	-0.004239048
	0.004289494	-0.004419973	3.569479e-05	6.127791e-05	-0.02764605	0.01662152	1.200954e-05	2.432549e-05
	8.710019e-06	1.891353e-05	0.004563706	-0.004239048	1.200954e-05	2.432549e-05	-0.02603225	0.01793786
2.6e+08	-0.02242121	0.01732557	9.717917e-06	1.504816e-05	0.003033826	-0.003316803	1.00497e-05	1.803364e-05
	9.717917e-06	1.504816e-05	-0.02143625	0.01804834	4.022325e-05	5.749311e-05	0.003297792	-0.003170143
	0.003033826	-0.003316803	4.022325e-05	5.749311e-05	-0.02294686	0.01733996	1.392044e-05	2.298162e-05
	1.00497e-05	1.803364e-05	0.003297792	-0.003170143	1.392044e-05	2.298162e-05	-0.02140689	0.01838396
2.7e+08	-0.01782253	0.01696949	1.077135e-05	1.411008e-05	0.002020625	-0.00197246	1.131961e-05	1.705435e-05
	1.077135e-05	1.411008e-05	-0.01690922	0.01752035	4.439981e-05	5.33612e-05	0.00226122	-0.001859965
	0.002020625	-0.00197246	4.439981e-05	5.33612e-05	-0.0182673	0.01705023	1.569849e-05	2.148502e-05
	1.131961e-05	1.705435e-05	0.00226122	-0.001859965	1.569849e-05	2.148502e-05	-0.01685978	0.01784058
2.8e+08	-0.01344837	0.01565592	1.174916e-05	1.309419e-05	0.001294676	-0.0004422545	1.250965e-05	1.598156e-05
	1.174916e-05	1.309419e-05	-0.01265207	0.01604965	4.819168e-05	4.891828e-05	0.001498684	-0.0003605874
	0.001294676	-0.0004422545	4.819168e-05	4.891828e-05	-0.01380758	0.01578407	1.732957e-05	1.98492e-05
	1.250965e-05	1.598156e-05	0.001498684	-0.0003605874	1.732957e-05	1.98492e-05	-0.01258779	0.01635066
2.9e+08	-0.009484319	0.01345496	1.264349e-05	1.200671e-05	0.0008884913	0.00121037	1.361072e-05	1.482242e-05
	1.264349e-05	1.200671e-05	-0.008847449	0.01371605	5.157116e-05	4.420348e-05	0.001043351	0.001267778
	0.0008884913	0.00121037	5.157116e-05	4.420348e-05	-0.009756721	0.01361183	1.880135e-05	1.808914e-05
	1.361072e-05	1.482242e-05	0.001043351	0.001267778	1.880135e-05	1.808914e-05	-0.00877435	0.0139952
3e+08	-0.006097608	0.0104717	1.34473e-05	1.085482e-05	0.0008208354	0.00291649	1.461486e-05	1.358504e-05
	1.34473e-05	1.085482e-05	-0.005657582	0.01063375	5.451602e-05	3.925825e-05	0.0009153743	0.002959275
	0.0008208354	0.00291649	5.451602e-05	3.925825e-05	-0.006285188	0.01063934	2.010343e-05	1.622099e-05
	1.461486e-05	1.358504e-05	0.0009153743	0.002959275	2.010343e-05	1.622099e-05	-0.005582154	0.0108897
3.1e+08	-0.00343062	0.006841794	1.41545e-05	9.646518e-06	0.001095818	0.004604643	1.551532e-05	1.227835e-05
	1.41545e-05	9.646518e-06	-0.003217894	0.006946414	5.700963e-05	3.412563e-05	0.001120947	0.004645184
	0.001095818	0.004604643	5.700963e-05	3.412563e-05	-0.003538386	0.007003512	2.122745e-05	1.426179e-05
	1.551532e-05	1.227835e-05	0.001120947	0.004645184	2.122745e-05	1.426179e-05	-0.003146844	0.007179235
3.2e+08	-0.001595449	0.002725815	1.476002e-05	8.390456e-06	0.001702618	0.006203921	1.630657e-05	1.091185e-05
	1.476002e-05	8.390456e-06	-0.001631793	0.002821219	5.904063e-05	2.884922e-05	0.001651949	0.006256864
	0.001702618	0.006203921	5.904063e-05	2.884922e-05	-0.001631098	0.002866653	2.216704e-05	1.222915e-05
	1.630657e-05	1.091185e-05	0.001651949	0.006256864	2.216704e-05	1.222915e-05	-0.00157174	0.003032409
3.3e+08	-0.0006696446	-0.001697265	1.525978e-05	7.095759e-06	0.002615861	0.007647083	1.698425e-05	9.495342e-06
	1.525978e-05	7.095759e-06	-0.0009667397	-0.001558134	6.060261e-05	2.347246e-05	0.002486214	0.00772874
	0.002615861	0.007647083	6.060261e-05	2.347246e-05	-0.0006431727	-0.001590144	2.291782e-05	1.014094e-05
	1.698425e-05	9.495342e-06	0.002486214	0.00772874	2.291782e-05	1.014094e-05	-0.0009239132	-0.001365689
3.4e+08	-0.0006933807	-0.006237365	1.565083e-05	5.771924e-06	0.003796661	0.008873545	1.754522e-05	8.038859e-06
	1.565083e-05	5.771924e-06	-0.001251806	-0.005998967	6.169395e-05	1.803813e-05	0.003588442	0.009001179
	0.003796661	0.008873545	6.169395e-05	1.803813e-05	-0.0006166325	-0.00617435	2.347738e-05	8.015126e-06
	1.754522e-05	8.038859e-06	0.003588442	0.009001179	2.347738e-05	8.015126e-06	-0.001231761	-0.005821085
3.5e+08	-0.001668131	-0.01070096	1.593123e-05	4.428626e-06	0.005194281	0.00983209	1.798739e-05	6.552403e-06
	1.593123e-05	4.428626e-06	-0.002476818	-0.01030751	6.231712e-05	1.25877e-05	0.0049117	0.01002313
	0.005194281	0.00983209	6.231712e-05	1.25877e-05	-0.0015543	-0.01068975	2.384512e-05	5.869424e-06
	1.798739e-05	6.552403e-06	0.0049117	0.01002313	2.384512e-05	5.869424e-06	-0.002484167	-0.01013888
3.6e+08	-0.003556902	-0.01489883	1.610014e-05	3.075596e-06	0.006748346	0.01048318	1.830971e-05	5.045858e-06
	1.610014e-05	3.075596e-06	-0.004593089	-0.01429676	6.247837e-05	7.161049e-06	0.006399468	0.01075437
	0.006748346	0.01048318	6.247837e-05	7.161049e-06	-0.003420007	-0.01494431	2.40222e-05	3.721185e-06
	1.830971e-05	5.045858e-06	0.006399468	0.01075437	2.40222e-05	3.721185e-06	-0.004631276	-0.01413115
3.7e+08	-0.006286017	-0.01865359	1.615768e-05	1.722476e-06	0.00839152	0.01080075	1.851199e-05	3.528867e-06
	1.615768e-05	1.722476e-06	-0.007515733	-0.01779404	6.218714e-05	1.796196e-06	0.007988126	0.01116731
	0.00839152	0.01080075	6.218714e-05	1.796196e-06	-0.006140358	-0.01875775	2.401134e-05	1.587202e-06
	1.851199e-05	3.528867e-06	0.007988126	0.01116731	2.401134e-05	1.587202e-06	-0.007586851	-0.01762453
3.8e+08	-0.009748343	-0.02180667	1.610495e-05	3.787067e-07	0.01005249	0.01077336	1.859484e-05	2.010774e-06
	1.610495e-05	3.787067e-07	-0.01112741	-0.02064778	6.145562e-05	-3.470818e-06	0.009609763	0.01124816
	0.01005249	0.01077336	6.145562e-05	-3.470818e-06	-0.009607972	-0.02196868	2.381674e-05	-5.164135e-07
	1.859484e-05	2.010774e-06	0.009609763	0.01124816	2.381674e-05	-5.164135e-07	-0.01123208	-0.02046712
3.9e+08	-0.01380783	-0.02422446	1.594388e-05	-9.465683e-07	0.01165916	0.01040469	1.855953e-05	5.005825e-07
	1.594388e-05	-9.465683e-07	-0.01528338	-0.02273357	6.029838e-05	-8.605937e-06	0.01119517	0.01099753
	0.01165916	0.01040469	6.029838e-05	-8.605937e-06	-0.01368604	-0.02444081	2.344384e-05	-2.574325e-06
	1.855953e-05	5.005825e-07	0.01119517	0.01099753	2.344384e-05	-2.574325e-06	-0.01542068	-0.02253441
4e+08	-0.01830515	-0.0258034	1.567722e-05	-2.244584e-06	0.01314182	0.009713353	1.840788e-05	-9.93053e-07
	1.567722e-05	-2.244584e-06	-0.01981755	-0.0239588	5.873205e-05	-1.357703e-05	0.01267689	0.01043029
	0.01314182	0.009713353	5.873205e-05	-1.357703e-05	-0.01821403	-0.02606815	2.289927e-05	-4.572032e-06
	1.840788e-05	-9.930531e-07	0.01267689	0.01043029	2.289927e-05	-4.572032e-06	-0.01998505	-0.0237341
4.1e+08	-0.0230642	-0.02647386	1.530842e-05	-3.507019e-06	0.01443622	0.008732034	1.814224e-05	-2.46182e-06
	1.530842e-05	-3.507019e-06	-0.02454937	-0.02426619	5.677509e-05	-1.835382e-05	0.01399212	0.009574913
	0.01443622	0.008732034	5.677509e-05	-1.835382e-05	-0.02301417	-0.02677891	2.219069e-05	-6.495915e-06
	1.814224e-05	-2.46182e-06	0.01399212	0.009574913	2.219069e-05	-6.495915e-06	-0.02474317	-0.02400947
4.2e+08	-0.02789917	-0.02620257	1.484155e-05	-4.726028e-06	0.01548638	0.007505963	1.776536e-05	-3.89772e-06
	1.484155e-05	-4.726028e-06	-0.02929118	-0.02363571	5.444769e-05	-2.290781e-05	0.01508541	0.008472077
	0.01548638	0.007505963	5.444769e-05	-2.290781e-05	-0.02789871	-0.0265381	2.132665e-05	-8.333256e-06
	1.776536e-05	-3.89772e-06	0.01508541	0.008472077	2.132665e-05	-8.333256e-06	-0.02950608	-0.02334137
4.3e+08	-0.03262192	-0.02499367	1.428122e-05	-5.894271e-06	0.01624697	0.006090894	1.72804e-05	-5.29303e-06
	1.428122e-05	-5.894271e-06	-0.03385576	-0.02208505	5.177163e-05	-2.721221e-05	0.01591098	0.007172873
	0.01624697	0.006090894	5.177163e-05	-2.721221e-05	-0.03267726	-0.02534851	2.031654e-05	-1.007225e-05
	1.72804e-05	-5.29303e-06	0.01591098	0.007172873	2.031654e-05	-1.007225e-05	-0.03408545	-0.02174867
4.4e+08	-0.03704936	-0.02288824	1.36325e-05	-7.004909e-06	0.01668517	0.004550632	1.669084e-05	-6.640255e-06
	1.36325e-05	-7.004909e-06	-0.03806372	-0.01966863	4.877024e-05	-3.124187e-05	0.01643461	0.005736525
	0.01668517	0.004550632	4.877024e-05	-3.124187e-05	-0.03716432	-0.02325034	1.917046e-05	-1.170199e-05
	1.669084e-05	-6.640255e-06	0.01643461	0.005736525	1.917046e-05	-1.170199e-05	-0.03830106	-0.0192871
4.5e+08	-0.04101053	-0.01996243	1.290085e-05	-8.051608e-06	0.01678206	0.002954246	1.600056e-05	-7.932098e-06
	1.290085e-05	-8.051608e-06	-0.04175059	-0.01647508	4.546847e-05	-3.497335e-05	0.01663496	0.004227822
	0.01678206	0.002954246	4.546847e-05	-3.497335e-05	-0.04118645	-0.02031938	1.789921e-05	-1.321249e-05
	1.600056e-05	-7.932098e-06	0.01663496	0.004227822	1.789921e-05	-1.321249e-05	-0.04198787	-0.01604685
4.6e+08	-0.04435319	-0.01632426	1.209214e-05	-9.028541e-06	0.01653328	0.001373102	1.521369e-05	-9.161283e-06
	1.209214e-05	-9.028541e-06	-0.04477313	-0.01262355	4.189287e-05	-3.838484e-05	0.01650436	0.002714363
	0.01653328	0.001373102	4.189287e-05	-3.838484e-05	-0.04458891	-0.01666373	1.651373e-05	-1.459412e-05
	1.521369e-05	-9.161284e-06	0.01650436	0.002714363	1.651373e-05	-1.459412e-05	-0.04500244	-0.01214866
4.7e+08	-0.04694953	-0.0121093	1.121251e-05	-9.93035e-06	0.01594916	-0.0001221561	1.433507e-05	-1.032096e-05
	1.121251e-05	-9.93035e-06	-0.04701479	-0.008258766	3.807163e-05	-4.145631e-05	0.01604902	0.001263727
	0.01594916	-0.0001221561	3.807163e-05	-4.145631e-05	-0.04724153	-0.01241952	1.502625e-05	-1.58387e-05
	1.433507e-05	-1.032096e-05	0.01604902	0.001263727	1.502625e-05	-1.58387e-05	-0.04722832	-0.007738906
