!$
! Info: Touchstone file created by Circ.  Input file=Tx_10in_Rx_93ohms_TxVia_35mils_RxVia_45mils.circ
!$
# Hz S RI R 50
0	0.009223008	1.266133e-25	-5.389311e-05	3.768183e-24	7.287347e-05	1.720632e-23	-5.387379e-05	1.434074e-24
	-5.389313e-05	3.770965e-24	0.009221315	1.545067e-25	-5.390439e-05	5.302582e-24	7.273618e-05	2.084905e-23
	7.268774e-05	1.713409e-23	-5.390437e-05	5.300225e-24	0.009233683	1.265964e-25	-5.389034e-05	3.619068e-24
	-5.387381e-05	1.436256e-24	7.088827e-05	2.095173e-23	-5.389035e-05	3.620825e-24	0.009234433	1.447637e-25
1e+07	0.01317406	-0.0009042124	-0.0002497684	8.096385e-06	0.0003396956	0.00190432	-4.974706e-05	-6.656215e-06
	-0.0002497684	8.096384e-06	0.0134396	-0.0009276834	-0.0001309884	6.700567e-05	0.0003354172	0.001898236
	0.0003396902	0.001904321	-0.0001309884	6.700567e-05	0.01346243	-0.0009348381	-0.0002495139	1.039079e-05
	-4.974705e-05	-6.656218e-06	0.0003353567	0.001898246	-0.0002495139	1.039079e-05	0.01317755	-0.0009279779
2e+07	0.01538681	-0.005124493	-0.0002108418	-3.730668e-05	0.000862729	0.003763205	-2.593877e-05	-5.387708e-05
	-0.0002108418	-3.730668e-05	0.01555053	-0.00525661	-0.0001284026	4.693182e-05	0.000850859	0.003754402
	0.0008627304	0.003763209	-0.0001284026	4.693181e-05	0.01559739	-0.005277154	-0.0002096893	-4.160921e-05
	-2.593876e-05	-5.387709e-05	0.0008508505	0.003754437	-0.0002096893	-4.160921e-05	0.0153536	-0.005165652
3e+07	0.01574254	-0.01053604	-0.0001868744	-5.784971e-05	0.001814231	0.005367387	-3.379088e-05	-6.456249e-05
	-0.0001868744	-5.784971e-05	0.01580303	-0.01069154	-0.0001210294	4.941003e-05	0.001774123	0.00536658
	0.001814234	0.005367387	-0.0001210294	4.941003e-05	0.01588688	-0.01073612	-0.0001848505	-6.322315e-05
	-3.379088e-05	-6.456249e-05	0.001774123	0.005366586	-0.0001848505	-6.322315e-05	0.01565322	-0.01058023
4e+07	0.01459757	-0.01612144	-0.000169383	-6.654024e-05	0.003093194	0.006697447	-6.275365e-05	-5.741059e-05
	-0.000169383	-6.654024e-05	0.01455098	-0.01626357	-0.0001107447	5.218552e-05	0.003029765	0.006709958
	0.003093194	0.006697445	-0.0001107447	5.218552e-05	0.01468113	-0.0163465	-0.0001667759	-7.277974e-05
	-6.275364e-05	-5.741059e-05	0.00302976	0.006709956	-0.0001667759	-7.277974e-05	0.01443631	-0.01615083
5e+07	0.01214555	-0.02145529	-0.0001555649	-7.00547e-05	0.004590496	0.007722026	-8.602614e-05	-4.281231e-05
	-0.0001555649	-7.00547e-05	0.01199158	-0.0215524	-9.895705e-05	5.174307e-05	0.00450225	0.007755582
	0.004590496	0.007722025	-9.895705e-05	5.174307e-05	0.01217271	-0.0216911	-0.0001525665	-7.707409e-05
	-8.602614e-05	-4.281231e-05	0.004502247	0.007755581	-0.0001525665	-7.707409e-05	0.01190129	-0.02144774
6e+07	0.008567335	-0.02623958	-0.0001436849	-7.063804e-05	0.006239548	0.008406927	-0.000103692	-2.288619e-05
	-0.0001436849	-7.063804e-05	0.008311194	-0.026262	-8.742611e-05	4.665871e-05	0.006127026	0.00846959
	0.006239549	0.008406927	-8.742611e-05	4.665871e-05	0.00854244	-0.02647532	-0.0001404348	-7.839012e-05
	-0.000103692	-2.288619e-05	0.006127029	0.008469589	-0.0001404348	-7.839012e-05	0.008235265	-0.02617025
7e+07	0.004058582	-0.03024728	-0.0001324636	-6.935549e-05	0.007967349	0.008731178	-0.0001155387	1.036113e-06
	-0.0001324636	-6.935549e-05	0.003711476	-0.03016757	-7.816939e-05	3.647866e-05	0.007833226	0.008830881
	0.007967351	0.008731178	-7.816939e-05	3.647866e-05	0.00398633	-0.03047404	-0.0001290636	-7.780451e-05
	-0.0001155387	1.036112e-06	0.007833235	0.008830878	-0.0001290636	-7.780451e-05	0.003640579	-0.0300904
8e+07	-0.001165695	-0.03330775	-0.0001207532	-6.681879e-05	0.009697918	0.008688784	-0.0001211118	2.797702e-05
	-0.0001207532	-6.681879e-05	-0.001586666	-0.03310145	-7.334184e-05	2.146964e-05	0.009546988	0.008832831
	0.009697921	0.008688784	-7.334184e-05	2.146964e-05	-0.001279993	-0.03351791	-0.0001172668	-7.592643e-05
	-0.0001211118	2.797702e-05	0.009546998	0.008832825	-0.0001172668	-7.592643e-05	-0.001661136	-0.03303829
9e+07	-0.006873127	-0.035302	-0.0001071238	-6.329164e-05	0.01135566	0.008289233	-0.0001194376	5.725663e-05
	-0.0001071238	-6.329164e-05	-0.007345125	-0.03494851	-7.518967e-05	2.427752e-06	0.01119472	0.008483815
	0.01135566	0.008289232	-7.518967e-05	2.427752e-06	-0.00702314	-0.0354888	-0.0001092205	-6.605364e-05
	-0.0001194376	5.725663e-05	0.01119473	0.00848381	-0.0001092205	-6.605364e-05	-0.007431186	-0.03489712
1e+08	-0.0128066	-0.03615359	-0.0001027982	-3.293219e-05	0.01286827	0.007556503	-0.0001061191	8.964875e-05
	-0.0001027982	-3.293219e-05	-0.01329897	-0.03563556	-8.753058e-05	-2.068068e-05	0.01270618	0.007806416
	0.01286827	0.007556504	-8.753058e-05	-2.068068e-05	-0.01298212	-0.03630941	-0.0001104991	-2.555204e-05
	-0.0001061191	8.964875e-05	0.01270618	0.007806416	-0.0001104991	-2.555204e-05	-0.01340648	-0.03559401
1.1e+08	-0.0187204	-0.0359583	-8.919636e-05	-1.22713e-05	0.01416836	0.006534747	-8.041952e-05	0.00010535
	-8.919636e-05	-1.22713e-05	-0.01919711	-0.0352825	-0.0001015079	-5.270838e-05	0.01401562	0.006840425
	0.01416836	0.006534747	-0.0001015079	-5.270838e-05	-0.01890914	-0.03609532	-9.514737e-05	-3.864215e-06
	-8.041952e-05	0.00010535	0.01401562	0.006840425	-9.514737e-05	-3.864215e-06	-0.01933436	-0.03523215
1.2e+08	-0.02448082	-0.03466957	-7.978518e-05	1.973784e-06	0.01520728	0.005273706	-5.922095e-05	0.0001143568
	-7.978518e-05	1.973784e-06	-0.02492139	-0.03383851	-0.0001203693	-7.958372e-05	0.01507286	0.00563481
	0.01520728	0.005273706	-0.0001203693	-7.958372e-05	-0.02468803	-0.03478875	-8.428033e-05	1.099183e-05
	-5.922095e-05	0.0001143568	0.01507286	0.00563481	-8.428033e-05	1.099183e-05	-0.02508184	-0.03376966
1.3e+08	-0.02984812	-0.03234024	-7.085683e-05	1.3149e-05	0.01594191	0.003832919	-3.9415e-05	0.0001196541
	-7.085683e-05	1.3149e-05	-0.03022757	-0.03135925	-0.0001463947	-0.0001013513	0.01583549	0.004247104
	0.01594191	0.003832919	-0.0001463947	-0.0001013513	-0.0300746	-0.03243897	-7.398722e-05	2.255374e-05
	-3.9415e-05	0.0001196541	0.01583549	0.004247104	-7.398722e-05	2.255374e-05	-0.03040626	-0.03126558
1.4e+08	-0.03462078	-0.02907782	-6.193601e-05	2.192249e-05	0.01634316	0.002279821	-2.302277e-05	0.0001215153
	-6.193601e-05	2.192249e-05	-0.03491378	-0.02795788	-0.0001791278	-0.0001164606	0.01627418	0.002742376
	0.01634316	0.002279821	-0.0001791278	-0.0001164606	-0.03486556	-0.02915275	-6.375667e-05	3.153862e-05
	-2.302277e-05	0.0001215153	0.01627418	0.002742376	-6.375667e-05	3.153862e-05	-0.03510513	-0.02783471
1.5e+08	-0.03862897	-0.02502703	-5.296403e-05	2.861892e-05	0.01639661	0.0006860288	-1.581214e-05	0.0001205594
	-5.296403e-05	2.861892e-05	-0.03881179	-0.02378517	-0.000217287	-0.0001233394	0.01637366	0.001189888
	0.01639661	0.0006860288	-0.000217287	-0.0001233394	-0.03888974	-0.02507477	-5.351609e-05	3.829299e-05
	-1.581214e-05	0.0001205594	0.01637366	0.001189888	-5.351609e-05	3.829299e-05	-0.03900962	-0.02362942
1.6e+08	-0.04173845	-0.02036153	-4.415312e-05	3.335212e-05	0.0161029	-0.0008758336	-8.196656e-06	0.0001194559
	-4.415312e-05	3.335212e-05	-0.04179073	-0.01902054	-0.0002590404	-0.0001207176	0.01613308	-0.0003398963
	0.0161029	-0.0008758335	-0.0002590404	-0.0001207176	-0.04201189	-0.02037903	-4.347622e-05	4.29421e-05
	-8.196656e-06	0.0001194559	0.01613308	-0.0003398963	-4.347622e-05	4.29421e-05	-0.0419885	-0.01883078
1.7e+08	-0.04385414	-0.01527582	-3.572331e-05	3.632127e-05	0.01547744	-0.002335211	-3.152586e-07	0.0001180403
	-3.572331e-05	3.632127e-05	-0.04376037	-0.01386352	-0.000302189	-0.0001077973	0.01556587	-0.001778243
	0.01547744	-0.002335211	-0.000302189	-0.0001077973	-0.04413608	-0.01526061	-3.385894e-05	4.569104e-05
	-3.152586e-07	0.0001180403	0.01556587	-0.001778243	-3.385894e-05	4.569104e-05	-0.04395155	-0.01363994
1.8e+08	-0.04492234	-0.009977	-2.789785e-05	3.775649e-05	0.0145496	-0.00362652	7.717547e-06	0.0001162015
	-2.789785e-05	3.775649e-05	-0.04467317	-0.008525137	-0.0003443433	-8.434617e-05	0.0146989	-0.003060924
	0.0145496	-0.00362652	-0.0003443433	-8.434617e-05	-0.04520802	-0.009927393	-2.489365e-05	4.677293e-05
	7.717547e-06	0.0001162015	0.0146989	-0.003060924	-2.489365e-05	4.677293e-05	-0.04485154	-0.008269463
1.9e+08	-0.0449317	-0.00467649	-2.086781e-05	3.792517e-05	0.01336126	-0.004691791	1.579861e-05	0.0001138651
	-2.086781e-05	3.792517e-05	-0.04452485	-0.003219289	-0.0003830998	-5.073063e-05	0.01357128	-0.004130754
	0.01336126	-0.004691791	-0.0003830998	-5.073063e-05	-0.0452159	-0.004591657	-1.678134e-05	4.645726e-05
	1.579861e-05	0.0001138651	0.01357128	-0.004130754	-1.678134e-05	4.645726e-05	-0.04468487	-0.002934624
2e+08	-0.0439126	0.0004181801	-1.476847e-05	3.712441e-05	0.01196504	-0.005482962	2.383285e-05	0.0001109846
	-1.476847e-05	3.712441e-05	-0.04335351	0.001845629	-0.0004162117	-7.897893e-06	0.01223265	-0.004939813
	0.01196504	-0.005482962	-0.0004162117	-7.897893e-06	-0.04418988	0.0005381207	-9.670533e-06	4.5044e-05
	2.383285e-05	0.0001109846	0.01223265	-0.004939813	-9.670533e-06	4.5044e-05	-0.04349052	0.002155013
2.1e+08	-0.04193516	0.005111231	-9.664704e-06	3.566535e-05	0.01042206	-0.005963763	3.17315e-05	0.0001075355
	-9.664704e-06	3.566535e-05	-0.04123722	0.006474736	-0.0004417401	4.269218e-05	0.01074108	-0.005451288
	0.01042206	-0.005963763	-0.0004417401	4.269218e-05	-0.04220003	0.005265174	-3.641921e-06	4.284934e-05
	3.17315e-05	0.0001075355	0.01074108	-0.005451288	-3.641921e-06	4.284934e-05	-0.04134767	0.006803639
2.2e+08	-0.03910589	0.009225924	-5.545215e-06	3.385345e-05	0.008799357	-0.006111131	3.941235e-05	0.0001035109
	-5.545215e-06	3.385345e-05	-0.03829022	0.01049399	-0.000458179	9.917117e-05	0.009160697	-0.00564088
	0.008799357	-0.006111131	-0.000458179	9.917117e-05	-0.03935298	0.009411758	1.298343e-06	4.018707e-05
	3.941235e-05	0.0001035109	0.009160697	-0.00564088	1.298343e-06	4.018707e-05	-0.03837183	0.01083655
2.3e+08	-0.03556299	0.01261103	-2.324447e-06	3.196765e-05	0.007167205	-0.005916109	4.679978e-05	9.89183e-05
	-2.324447e-06	3.196765e-05	-0.03465792	0.01375658	-0.0004645449	0.0001593939	0.007559112	-0.005497738
	0.007167205	-0.005916109	-0.0004645449	0.0001593939	-0.03578726	0.01282565	5.217913e-06	3.734856e-05
	4.679978e-05	9.89183e-05	0.007559112	-0.005497738	5.217913e-06	3.734856e-05	-0.03470976	0.01410658
2.4e+08	-0.03147071	0.0151463	1.489348e-07	3.024001e-05	0.005596191	-0.005384203	5.382434e-05	9.377717e-05
	1.489348e-07	3.024001e-05	-0.03051077	0.01614833	-0.0004604179	0.0002210978	0.006004674	-0.005024871
	0.005596191	-0.005384203	-0.0004604179	0.0002210978	-0.03166764	0.01538566	8.251187e-06	3.458274e-05
	5.382434e-05	9.377717e-05	0.006004674	-0.005024871	8.251187e-06	3.458274e-05	-0.03053328	0.01649947
2.5e+08	-0.02701264	0.01674675	2.076391e-06	2.883995e-05	0.004154332	-0.004535179	6.042357e-05	8.81164e-05
	2.076391e-06	2.883995e-05	-0.02603724	0.01759167	-0.0004459646	0.000282039	0.004563706	-0.004239048
	0.004154332	-0.004535179	-0.0004459646	0.000282039	-0.0271784	0.01700593	1.058508e-05	3.208031e-05
	6.042357e-05	8.81164e-05	0.004563706	-0.004239048	1.058508e-05	3.208031e-05	-0.02603225	0.01793786
2.6e+08	-0.02238443	0.01736552	3.591787e-06	2.775679e-05	0.002904252	-0.003402291	6.654277e-05	8.197513e-05
	3.591787e-06	2.775679e-05	-0.02143625	0.01804834	-0.0004101841	0.0003471357	0.003297792	-0.003170143
	0.002904252	-0.003402291	-0.0004101841	0.0003471357	-0.02251606	0.01763894	1.234525e-05	2.985371e-05
	6.654277e-05	8.197513e-05	0.003297792	-0.003170143	1.234525e-05	2.985371e-05	-0.02140689	0.01838396
2.7e+08	-0.01778611	0.01699542	4.997115e-06	2.712509e-05	0.001900541	-0.002030963	7.213276e-05	7.539386e-05
	4.997115e-06	2.712509e-05	-0.01690922	0.01752035	-0.0003627357	0.000406088	0.00226122	-0.001859965
	0.001900541	-0.002030963	-0.0003627357	0.000406088	-0.01788167	0.01727683	1.382499e-05	2.806665e-05
	7.213276e-05	7.539386e-05	0.00226122	-0.001859965	1.382499e-05	2.806665e-05	-0.01685978	0.01784058
2.8e+08	-0.01341419	0.0156688	6.538992e-06	2.690229e-05	0.001187415	-0.0004769582	7.715075e-05	6.842054e-05
	6.538992e-06	2.690229e-05	-0.01265207	0.01604965	-0.0003073928	0.0004560789	0.001498684	-0.0003605874
	0.001187415	-0.0004769582	-0.0003073928	0.0004560789	-0.01347289	0.01595157	1.527068e-05	2.670691e-05
	7.715075e-05	6.842054e-05	0.001498684	-0.0003605874	1.527068e-05	2.670691e-05	-0.01258779	0.01635066
2.9e+08	-0.009454024	0.01345599	8.409822e-06	2.695433e-05	0.0007967603	0.001195916	8.15608e-05	6.110768e-05
	8.409822e-06	2.695433e-05	-0.008847449	0.01371605	-0.0002462766	0.0004962077	0.001043351	0.001267778
	0.0007967603	0.001195916	-0.0002462766	0.0004962077	-0.009476343	0.0137333	1.688162e-05	2.567052e-05
	8.15608e-05	6.110768e-05	0.001043351	0.001267778	1.688162e-05	2.567052e-05	-0.00877435	0.0139952
3e+08	-0.006072576	0.01046225	1.07428e-05	2.709168e-05	0.000746676	0.002918477	8.533361e-05	5.351101e-05
	1.07428e-05	2.709168e-05	-0.005657582	0.01063375	-0.0001815491	0.0005261302	0.0009153743	0.002959275
	0.000746676	0.002918477	-0.0001815491	0.0005261302	-0.006060279	0.01072736	1.880454e-05	2.479616e-05
	8.533361e-05	5.351101e-05	0.0009153743	0.002959275	1.880454e-05	2.479616e-05	-0.005582154	0.0108897
3.1e+08	-0.003411965	0.006823361	1.359783e-05	2.708991e-05	0.001040584	0.00461911	8.844679e-05	4.56889e-05
	1.359783e-05	2.708991e-05	-0.003217894	0.006946414	-0.0001152558	0.0005460309	0.001120947	0.004645184
	0.001040584	0.00461911	-0.0001152558	0.0005460309	-0.003368112	0.007069847	2.111904e-05	2.388405e-05
	8.844679e-05	4.56889e-05	0.001120947	0.004645184	2.111904e-05	2.388405e-05	-0.003146844	0.007179235
3.2e+08	-0.001583997	0.002699997	1.695437e-05	2.671449e-05	0.001666967	0.006226865	9.088455e-05	3.77011e-05
	1.695437e-05	2.671449e-05	-0.001631793	0.002821219	-4.919726e-05	0.0005565502	0.001651949	0.006256864
	0.001666967	0.006226865	-4.919726e-05	0.0005565502	-0.001512891	0.002922008	2.382931e-05	2.271905e-05
	9.088455e-05	3.77011e-05	0.001651949	0.006256864	2.382931e-05	2.271905e-05	-0.00157174	0.003032409
3.3e+08	-0.0006659373	-0.001728826	2.071207e-05	2.57465e-05	0.002599771	0.007674576	9.263756e-05	2.960794e-05
	2.071207e-05	2.57465e-05	-0.0009667397	-0.001558134	1.517777e-05	0.0005586805	0.002486214	0.00772874
	0.002599771	0.007674576	1.517777e-05	0.0005586805	-0.00057301	-0.001536308	2.68633e-05	2.109522e-05
	9.263756e-05	2.960794e-05	0.002486214	0.00772874	2.68633e-05	2.109522e-05	-0.0009239132	-0.001365689
3.4e+08	-0.0006976704	-0.006273025	2.469924e-05	2.400681e-05	0.003799457	0.008901839	9.370293e-05	2.146981e-05
	2.469924e-05	2.400681e-05	-0.001251806	-0.005998967	7.684391e-05	0.0005536372	0.003588442	0.009001179
	0.003799457	0.008901839	7.684391e-05	0.0005536372	-0.0005893277	-0.006113957	3.007937e-05	1.883908e-05
	9.370293e-05	2.146981e-05	0.003588442	0.009001179	3.007937e-05	1.883908e-05	-0.001231761	-0.005821085
3.5e+08	-0.001680391	-0.01073912	2.868855e-05	2.137694e-05	0.005214687	0.009857727	9.408352e-05	1.33462e-05
	2.868855e-05	2.137694e-05	-0.002476818	-0.01030751	0.0001352229	0.0005427168	0.0049117	0.01002313
	0.005214687	0.009857727	0.0001352229	0.0005427168	-0.001563802	-0.01061621	3.327993e-05	1.583041e-05
	9.408352e-05	1.33462e-05	0.0049117	0.01002313	3.327993e-05	1.583041e-05	-0.002484167	-0.01013888
3.6e+08	-0.003576846	-0.01493797	3.241841e-05	1.781393e-05	0.006784557	0.01050308	9.378781e-05	5.295312e-06
	3.241841e-05	1.781393e-05	-0.004593089	-0.01429676	0.0001901685	0.0005271576	0.006399468	0.01075437
	0.006784557	0.01050308	0.0001901685	0.0005271576	-0.003459694	-0.01485252	3.623076e-05	1.201733e-05
	9.378781e-05	5.295312e-06	0.006399468	0.01075437	3.623076e-05	1.201733e-05	-0.004631276	-0.01413115
3.7e+08	-0.00631312	-0.01869233	3.561804e-05	1.335798e-05	0.008441278	0.01081229	9.282926e-05	-2.626421e-06
	3.561804e-05	1.335798e-05	-0.007515733	-0.01779404	0.000241908	0.0005080137	0.007988126	0.01116731
	0.008441278	0.01081229	0.000241908	0.0005080137	-0.00620332	-0.01864413	3.868425e-05	7.425018e-06
	9.282926e-05	-2.626421e-06	0.007988126	0.01116731	3.868425e-05	7.425018e-06	-0.007586851	-0.01762453
3.8e+08	-0.009781874	-0.02184379	3.80337e-05	8.131951e-06	0.01011319	0.01077442	9.122604e-05	-1.036459e-05
	3.80337e-05	8.131951e-06	-0.01112741	-0.02064778	0.0002909509	0.0004860544	0.009609763	0.01124816
	0.01011319	0.01077442	0.0002909509	0.0004860544	-0.009687271	-0.02183106	4.04041e-05	2.156616e-06
	9.122604e-05	-1.036459e-05	0.009609763	0.01124816	4.04041e-05	2.156616e-06	-0.01123208	-0.02046712
3.9e+08	-0.01384689	-0.02425891	3.945338e-05	2.332609e-06	0.01172792	0.01039374	8.900068e-05	-1.7867e-05
	3.945338e-05	2.332609e-06	-0.01528338	-0.02273357	0.0003379723	0.0004616971	0.01119517	0.01099753
	0.01172792	0.01039374	0.0003379723	0.0004616971	-0.01377495	-0.02427838	4.118899e-05	-3.613566e-06
	8.900068e-05	-1.7867e-05	0.01119517	0.01099753	4.118899e-05	-3.613566e-06	-0.01542068	-0.02253441
4e+08	-0.0183487	-0.02583437	3.972779e-05	-3.785039e-06	0.01321563	0.009689429	8.617988e-05	-2.508392e-05
	3.972779e-05	-3.785039e-06	-0.01981755	-0.0239588	0.0003836831	0.0004349817	0.01267689	0.01043029
	0.01321563	0.009689429	0.0003836831	0.0004349817	-0.01830622	-0.02588127	4.089314e-05	-9.653685e-06
	8.617988e-05	-2.508392e-05	0.01267689	0.01043029	4.089314e-05	-9.653685e-06	-0.01998505	-0.0237341
4.1e+08	-0.02311111	-0.02650075	3.878525e-05	-9.929248e-06	0.01451202	0.008694767	8.279441e-05	-3.196832e-05
	3.878525e-05	-9.929248e-06	-0.02454937	-0.02426619	0.0004286996	0.0004055838	0.01399212	0.009574913
	0.01451202	0.008694767	0.0004286996	0.0004055838	-0.0231039	-0.02656902	3.944143e-05	-1.569369e-05
	8.279441e-05	-3.196832e-05	0.01399212	0.009574913	3.944143e-05	-1.569369e-05	-0.02474317	-0.02400947
4.2e+08	-0.02794828	-0.02622502	3.663934e-05	-1.579639e-05	0.01556119	0.007455562	7.887891e-05	-3.847622e-05
	3.663934e-05	-1.579639e-05	-0.02929118	-0.02363571	0.0004734246	0.0003728691	0.01508541	0.008472077
	0.01556119	0.007455562	0.0004734246	0.0003728691	-0.02798093	-0.02630749	3.683789e-05	-2.14482e-05
	7.887891e-05	-3.847622e-05	0.01508541	0.008472077	3.683789e-05	-2.14482e-05	-0.02950608	-0.02334137
4.3e+08	-0.03267204	-0.02501153	3.338875e-05	-2.109677e-05	0.01631795	0.006028112	7.447171e-05	-4.456711e-05
	3.338875e-05	-2.109677e-05	-0.03385576	-0.02208505	0.0005179512	0.0003359815	0.01591098	0.007172873
	0.01631795	0.006028112	0.0005179512	0.0003359815	-0.03274773	-0.02510018	3.316696e-05	-2.664067e-05
	7.447171e-05	-4.456711e-05	0.01591098	0.007172873	3.316696e-05	-2.664067e-05	-0.03408545	-0.02174867
4.4e+08	-0.03709936	-0.02290158	2.920925e-05	-2.557907e-05	0.01674977	0.004476718	6.961446e-05	-5.020436e-05
	2.920925e-05	-2.557907e-05	-0.03806372	-0.01966863	0.0005619977	0.0002939552	0.01643461	0.005736525
	0.01674977	0.004476718	0.0005619977	0.0002939552	-0.03721964	-0.02298779	2.858729e-05	-3.102666e-05
	6.961446e-05	-5.020436e-05	0.01643461	0.005736525	2.858729e-05	-3.102666e-05	-0.03830106	-0.0192871
4.5e+08	-0.04105935	-0.01997153	2.433887e-05	-2.90511e-05	0.01683804	0.002870883	6.435168e-05	-5.53557e-05
	2.433887e-05	-2.90511e-05	-0.04175059	-0.01647508	0.0006048811	0.0002458432	0.01663496	0.004227822
	0.01683804	0.002870883	0.0006048811	0.0002458432	-0.04122408	-0.02004644	2.331911e-05	-3.441407e-05
	6.435168e-05	-5.53557e-05	0.01663496	0.004227822	2.331911e-05	-3.441407e-05	-0.04198787	-0.01604685
4.6e+08	-0.04439986	-0.01632959	1.905758e-05	-3.139486e-05	0.01657881	0.001282329	5.87301e-05	-5.999337e-05
	1.905758e-05	-3.139486e-05	-0.04477313	-0.01262355	0.0006455292	0.0001908473	0.01650436	0.002714363
	0.01657881	0.001282329	0.0006455292	0.0001908473	-0.04460716	-0.01638442	1.762582e-05	-3.66781e-05
	5.87301e-05	-5.999337e-05	0.01650436	0.002714363	1.762582e-05	-3.66781e-05	-0.04500244	-0.01214866
4.7e+08	-0.04699325	-0.01211146	1.366399e-05	-3.257514e-05	0.01598287	-0.0002180243	5.279821e-05	-6.409468e-05
	1.366399e-05	-3.257514e-05	-0.04701479	-0.008258766	0.0006825319	0.00012844	0.01604902	0.001263727
	0.01598287	-0.0002180243	0.0006825319	0.00012844	-0.0472395	-0.01213785	1.179359e-05	-3.777154e-05
	5.279821e-05	-6.409468e-05	0.01604902	0.001263727	1.179359e-05	-3.777154e-05	-0.04722832	-0.007738906
