!$
! Info: Touchstone file created by Circ.  Input file=Tx_14in_Rx_100ohms_TxVia_35mils_RxVia_45mils.circ
!$
# Hz S RI R 50
0	0.01447118	1.702145e-25	7.502741e-10	1.311574e-27	9.404758e-05	2.715059e-23	2.508411e-09	5.479947e-28
	7.502749e-10	1.311459e-27	0.01446883	2.0371e-25	3.939262e-10	1.908372e-27	9.342058e-05	3.278612e-23
	9.455508e-05	2.753022e-23	3.939258e-10	1.908409e-27	0.01448309	1.653589e-25	7.699386e-10	1.264454e-27
	2.508411e-09	5.47984e-28	9.157166e-05	3.294741e-23	7.69939e-10	1.264418e-27	0.01448186	1.908796e-25
1e+07	0.02021781	0.008588017	1.210199e-09	1.129129e-09	0.0005038823	0.002476086	5.370289e-09	5.57943e-09
	1.210199e-09	1.12913e-09	0.02159328	0.008174303	6.453368e-10	7.551824e-10	0.0009914475	0.002520185
	0.0005039117	0.002476081	6.453368e-10	7.551824e-10	0.02098327	0.008172573	1.270621e-09	1.178751e-09
	5.370289e-09	5.57943e-09	0.0009913862	0.002520194	1.270621e-09	1.178751e-09	0.02139768	0.008214148
2e+07	0.02779282	0.01153391	2.191229e-09	1.560069e-09	0.001540899	0.004784442	1.041534e-08	7.585644e-09
	2.191229e-09	1.560069e-09	0.02838403	0.01045902	9.894295e-10	1.221195e-09	0.001873935	0.005072908
	0.0015409	0.004784421	9.894295e-10	1.221195e-09	0.02792348	0.01067349	2.29423e-09	1.611644e-09
	1.041534e-08	7.585644e-09	0.001873925	0.005072943	2.29423e-09	1.611644e-09	0.0282637	0.01059771
3e+07	0.03410255	0.01084169	3.308951e-09	1.502715e-09	0.003144271	0.006647876	1.627424e-08	7.096687e-09
	3.308951e-09	1.502715e-09	0.03407351	0.009715496	1.330413e-09	1.56328e-09	0.003369158	0.00702858
	0.003144264	0.006647874	1.330413e-09	1.56328e-09	0.03376347	0.009989408	3.467643e-09	1.523658e-09
	1.627424e-08	7.096687e-09	0.003369158	0.007028586	3.467643e-09	1.523658e-09	0.03401776	0.009886794
4e+07	0.03931276	0.008161207	4.394842e-09	8.922791e-10	0.005171244	0.007964567	2.212237e-08	3.797817e-09
	4.394842e-09	8.922792e-10	0.03878946	0.007206687	1.627129e-09	1.747401e-09	0.005347128	0.008394387
	0.005171245	0.007964572	1.627129e-09	1.747401e-09	0.0386303	0.007474945	4.636066e-09	8.613244e-10
	2.212237e-08	3.797817e-09	0.005347122	0.008394385	4.636066e-09	8.613243e-10	0.03879031	0.007386233
5e+07	0.04329276	0.004060474	5.250001e-09	-2.336658e-10	0.007449449	0.008649458	2.690129e-08	-2.219881e-09
	5.250001e-09	-2.336658e-10	0.04240306	0.003411547	1.847377e-09	1.810142e-09	0.007756772	0.008967995
	0.007449451	0.00864946	1.847377e-09	1.810142e-09	0.042387	0.003623417	5.578163e-09	-3.579505e-10
	2.690129e-08	-2.219881e-09	0.007756768	0.008967994	5.578163e-09	-3.579505e-10	0.04245097	0.003583374
6e+07	0.04589499	-0.001022079	5.694384e-09	-1.775943e-09	0.009791361	0.00866557	2.961417e-08	-1.049547e-08
	5.694384e-09	-1.775943e-09	0.04477499	-0.00128384	1.952096e-09	1.783004e-09	0.01016769	0.008856994
	0.00979136	0.008665569	1.952096e-09	1.783004e-09	0.04488046	-0.001173124	6.091153e-09	-2.037258e-09
	2.961417e-08	-1.049547e-08	0.01016769	0.008856993	6.091153e-09	-2.037258e-09	0.04485896	-0.001130538
7e+07	0.04701728	-0.006675223	5.581214e-09	-3.581621e-09	0.0120185	0.00801194	2.945833e-08	-2.025915e-08
	5.581214e-09	-3.581621e-09	0.04580557	-0.006513101	1.911218e-09	1.709011e-09	0.01239878	0.008094791
	0.01201849	0.008011939	1.911218e-09	1.709011e-09	0.04599959	-0.006538528	6.009453e-09	-4.016634e-09
	2.945833e-08	-2.025915e-08	0.01239879	0.008094788	6.009453e-09	-4.016634e-09	0.0459137	-0.006384876
8e+07	0.04662809	-0.01249738	4.815992e-09	-5.453303e-09	0.01394066	0.006767015	2.590288e-08	-3.050099e-08
	4.815992e-09	-5.453303e-09	0.04545927	-0.01191454	1.708357e-09	1.640495e-09	0.0142831	0.006760665
	0.01394065	0.006767016	1.708357e-09	1.640495e-09	0.04570066	-0.01209876	5.223545e-09	-6.08548e-09
	2.590288e-08	-3.050099e-08	0.01428311	0.006760659	5.223545e-09	-6.08548e-09	0.04557945	-0.01181409
9e+07	0.04477498	-0.01810341	3.376697e-09	-7.174491e-09	0.01540638	0.005047723	1.87548e-08	-4.005365e-08
	3.376697e-09	-7.174491e-09	0.04377577	-0.01713779	1.349445e-09	1.632597e-09	0.01568003	0.004975053
	0.01540637	0.005047726	1.349445e-09	1.632597e-09	0.04401848	-0.0174896	3.700211e-09	-8.008871e-09
	1.87548e-08	-4.005365e-08	0.01568004	0.004975047	3.700211e-09	-8.008871e-09	0.04389623	-0.01706437
1e+08	0.04157693	-0.02313963	1.310308e-09	-8.526771e-09	0.0163103	0.003003364	8.207643e-09	-4.769983e-08
	1.310308e-09	-8.526771e-09	0.04088791	-0.02185663	8.546952e-10	1.744521e-09	0.01647864	0.002890301
	0.0163103	0.003003364	8.546952e-10	1.744521e-09	0.0410829	-0.02237063	1.477208e-09	-9.547644e-09
	8.207643e-09	-4.769983e-08	0.01647864	0.002890301	1.477208e-09	-9.547644e-09	0.04099605	-0.02180657
1.1e+08	0.03726159	-0.02725934	-1.233114e-09	-9.311805e-09	0.01657423	0.0007826379	-5.13394e-09	-5.233265e-08
	-1.233114e-09	-9.311805e-09	0.03692868	-0.02589664	2.839929e-10	1.997623e-09	0.01664226	0.0007256981
	0.01657423	0.0007826378	2.839929e-10	1.997623e-09	0.03703344	-0.02654096	-1.284386e-09	-1.044898e-08
	-5.13394e-09	-5.233265e-08	0.01664226	0.0007256982	-1.284386e-09	-1.044898e-08	0.03701895	-0.02585516
1.2e+08	0.0321255	-0.03026222	-4.155574e-09	-9.32479e-09	0.01617017	-0.001399985	-2.039445e-08	-5.294786e-08
	-4.155574e-09	-9.32479e-09	0.03207623	-0.02889463	-3.550554e-10	2.390834e-09	0.01619359	-0.001387101
	0.01617017	-0.001399985	-3.550554e-10	2.390834e-09	0.03206557	-0.02963653	-4.427056e-09	-1.050272e-08
	-2.039445e-08	-5.294786e-08	0.01619359	-0.001387101	-4.427056e-09	-1.050272e-08	0.03215052	-0.02885559
1.3e+08	0.02646556	-0.03199066	-7.189439e-09	-8.432862e-09	0.01514735	-0.003360337	-3.625252e-08	-4.890257e-08
	-7.189439e-09	-8.432862e-09	0.02665996	-0.03067372	-1.002511e-09	2.997175e-09	0.01515978	-0.003280214
	0.01514735	-0.003360337	-1.002511e-09	2.997175e-09	0.02651622	-0.03147316	-7.690563e-09	-9.587368e-09
	-3.625252e-08	-4.890257e-08	0.01515978	-0.003280214	-7.690563e-09	-9.587368e-09	0.02671914	-0.03063188
1.4e+08	0.02061552	-0.03236595	-1.005198e-08	-6.589796e-09	0.01359788	-0.004935713	-5.125512e-08	-3.996267e-08
	-1.005198e-08	-6.589796e-09	0.02101366	-0.03114616	-1.59086e-09	3.820777e-09	0.01362361	-0.004800018
	0.01359788	-0.004935713	-1.59086e-09	3.820777e-09	0.02073157	-0.03195809	-1.077214e-08	-7.652981e-09
	-5.125512e-08	-3.996267e-08	0.01362361	-0.004800018	-1.077214e-08	-7.652981e-09	0.02105951	-0.03109698
1.5e+08	0.0149163	-0.03139491	-1.244385e-08	-3.837706e-09	0.01165425	-0.005996163	-6.387634e-08	-2.634942e-08
	-1.244385e-08	-3.837706e-09	0.0154737	-0.03031015	-2.050961e-09	4.845122e-09	0.01170884	-0.005822308
	0.01165425	-0.005996163	-2.050961e-09	4.845122e-09	0.01506219	-0.0310885	-1.335117e-08	-4.744068e-09
	-6.387634e-08	-2.634942e-08	0.01170884	-0.005822308	-1.335117e-08	-4.744068e-09	0.01550889	-0.03025006
1.6e+08	0.009693789	-0.02916878	-1.407751e-08	-3.133423e-10	0.009479033	-0.00645442	-7.266121e-08	-8.759561e-09
	-1.407751e-08	-3.133423e-10	0.01036058	-0.0282471	-2.318775e-09	6.031977e-09	0.009569303	-0.006262603
	0.009479033	-0.00645442	-2.318775e-09	6.031977e-09	0.009842963	-0.02894925	-1.51196e-08	-1.006542e-09
	-7.266121e-08	-8.759561e-09	0.009569303	-0.006262603	-1.51196e-08	-1.006542e-09	0.01038835	-0.02817362
1.7e+08	0.00523812	-0.02585663	-1.470794e-08	3.755337e-09	0.007251896	-0.006272531	-7.637414e-08	1.166014e-08
	-1.470794e-08	3.755337e-09	0.005959976	-0.02511457	-2.342384e-09	7.322962e-09	0.00737622	-0.006082921
	0.007251896	-0.006272531	-2.342384e-09	7.322962e-09	0.005372716	-0.02570578	-1.581482e-08	3.316001e-09
	-7.637414e-08	1.166014e-08	0.00737622	-0.006082921	-1.581482e-08	3.316001e-09	0.005983829	-0.02502633
1.8e+08	0.001785388	-0.02169361	-1.416223e-08	8.063152e-09	0.005155072	-0.005464507	-7.41378e-08	3.338525e-08
	-1.416223e-08	8.063152e-09	0.002505556	-0.02113473	-2.088443e-09	8.643544e-09	0.005304276	-0.005294681
	0.005155072	-0.005464507	-2.088443e-09	8.643544e-09	0.001895632	-0.02159207	-1.525127e-08	7.897245e-09
	-7.41378e-08	3.338525e-08	0.005304276	-0.005294681	-1.525127e-08	7.897245e-09	0.002529021	-0.02103143
1.9e+08	-0.0004971428	-0.01696485	-1.236288e-08	1.225339e-08	0.003358724	-0.004094762	-6.554724e-08	5.462921e-08
	-1.236288e-08	1.225339e-08	0.0001650771	-0.01657883	-1.546791e-09	9.909769e-09	0.003517584	-0.003957539
	0.003358724	-0.004094762	-1.546791e-09	9.909769e-09	-0.0004138437	-0.01689426	-1.334543e-08	1.235547e-08
	-6.554724e-08	5.462921e-08	0.003517584	-0.003957539	-1.334543e-08	1.235547e-08	0.000191418	-0.01646115
2e+08	-0.001521176	-0.0119861	-9.345405e-09	1.594483e-08	0.002007378	-0.002272488	-5.074564e-08	7.349342e-08
	-9.345405e-09	1.594483e-08	-0.0009693125	-0.01174869	-7.336816e-10	1.10343e-08	0.002156612	-0.002174324
	0.002007378	-0.002272488	-7.336816e-10	1.10343e-08	-0.001461528	-0.01193082	-1.013465e-08	1.628279e-08
	-5.074564e-08	7.349342e-08	0.002156612	-0.002174324	-1.013465e-08	1.628279e-08	-0.0009372962	-0.01161816
2.1e+08	-0.001282179	-0.007082398	-5.264764e-09	1.877104e-08	0.001208541	-0.000142456	-3.045105e-08	8.813833e-08
	-5.264764e-09	1.877104e-08	-0.0008856863	-0.006956312	3.071871e-10	1.193574e-08	0.001327153	-8.25244e-05
	0.001208541	-0.000142456	3.071871e-10	1.193574e-08	-0.00123857	-0.007030799	-5.783888e-09	1.928699e-08
	-3.045105e-08	8.813833e-08	0.001327153	-8.252441e-05	-5.783888e-09	1.928699e-08	-0.000845842	-0.006815106
2.2e+08	0.0001415592	-0.002566184	-3.855007e-10	2.04196e-08	0.001024452	0.002126948	-5.928708e-09	9.695912e-08
	-3.855007e-10	2.04196e-08	0.0003484064	-0.002503049	1.50812e-09	1.254775e-08	0.0010922	0.002156927
	0.001024452	0.002126948	1.50812e-09	1.254775e-08	0.0001793095	-0.00251136	-5.754412e-10	2.103328e-08
	-5.928708e-09	9.695912e-08	0.0010922	0.002156927	-5.754412e-10	2.103328e-08	0.000397457	-0.002353825
2.3e+08	0.002595497	0.001283448	4.937253e-09	2.066384e-08	0.001467553	0.004357427	2.109082e-08	9.874816e-08
	4.937253e-09	2.066384e-08	0.002592017	0.001340194	2.78249e-09	1.282559e-08	0.001467341	0.004372598
	0.001467553	0.004357427	2.78249e-09	1.282559e-08	0.002638361	0.001343482	5.111381e-09	2.12784e-08
	2.109082e-08	9.874816e-08	0.001467341	0.004372598	5.111381e-09	2.12784e-08	0.002650798	0.00149455
2.4e+08	0.005860563	0.004239007	1.02871e-08	1.938817e-08	0.002500007	0.006375078	4.854133e-08	9.282745e-08
	1.02871e-08	1.938817e-08	0.005641726	0.004350427	4.031941e-09	1.275131e-08	0.002419974	0.006396172
	0.002500007	0.006375078	4.031941e-09	1.275131e-08	0.005918647	0.004301654	1.083155e-08	1.989772e-08
	4.854133e-08	9.282745e-08	0.002419974	0.006396171	1.083155e-08	1.989772e-08	0.005709884	0.004507037
2.5e+08	0.009669152	0.006139071	1.52222e-08	1.660291e-08	0.004037198	0.008024148	7.418693e-08	7.913711e-08
	1.52222e-08	1.660291e-08	0.009246622	0.00636647	5.15481e-09	1.233632e-08	0.003872321	0.008075626
	0.004037198	0.008024148	5.15481e-09	1.233632e-08	0.009750295	0.006197942	1.611256e-08	1.690114e-08
	7.418693e-08	7.913711e-08	0.003872321	0.008075626	1.611256e-08	1.690114e-08	0.00932297	0.006522708
2.6e+08	0.01372421	0.006897989	1.931362e-08	1.24473e-08	0.005954861	0.009179168	9.580886e-08	5.827102e-08
	1.931362e-08	1.24473e-08	0.0131262	0.007298396	6.054891e-09	1.162141e-08	0.005707926	0.009286959
	0.005954861	0.009179168	6.054891e-09	1.162141e-08	0.01383294	0.006944046	2.049545e-08	1.243641e-08
	9.580886e-08	5.827102e-08	0.005707926	0.009286959	2.049545e-08	1.243641e-08	0.01320882	0.007452112
2.7e+08	0.01772002	0.006510243	2.218236e-08	7.181026e-09	0.008099197	0.00975456	1.113962e-07	3.145601e-08
	2.218236e-08	7.181026e-09	0.01698992	0.007131963	6.649711e-09	1.067418e-08	0.007781058	0.009943589
	0.008099197	0.00975456	6.649711e-09	1.067418e-08	0.01785695	0.006533154	2.357435e-08	6.780072e-09
	1.113962e-07	3.145601e-08	0.007781058	0.009943589	2.357435e-08	6.780072e-09	0.01707633	0.007281667
2.8e+08	0.02136323	0.005049236	2.35318e-08	1.16562e-09	0.01029916	0.009711034	1.193239e-07	4.763042e-10
	2.35318e-08	1.16562e-09	0.02055701	0.005927825	6.877666e-09	9.584278e-09	0.009928235	0.01000277
	0.01029916	0.009711034	6.877666e-09	9.584278e-09	0.02152493	0.00503882	2.503113e-08	3.176919e-10
	1.193239e-07	4.763042e-10	0.009928235	0.01000277	2.503113e-08	3.176919e-10	0.02064438	0.006072838
2.9e+08	0.02439269	0.002660718	2.317318e-08	-5.161907e-09	0.01237992	0.009058363	1.185025e-07	-3.244994e-08
	2.317318e-08	-5.161907e-09	0.02357523	0.003815716	6.703535e-09	8.457e-09	0.01198099	0.009468583
	0.01237992	0.009058363	6.703535e-09	8.457e-09	0.02457201	0.002608314	2.466272e-08	-6.484253e-09
	1.185025e-07	-3.244994e-08	0.01198099	0.009468583	2.466272e-08	-6.484253e-09	0.02366062	0.003956224
3e+08	0.02659675	-0.0004486315	2.104283e-08	-1.13208e-08	0.01417652	0.007854376	1.08489e-07	-6.483216e-08
	2.104283e-08	-1.13208e-08	0.0258373	0.0009840824	6.122088e-09	7.405653e-09	0.01377887	0.00839137
	0.01417652	0.007854376	6.122088e-09	7.405653e-09	0.02678353	-0.0005489841	2.239948e-08	-1.31122e-08
	1.08489e-07	-6.483216e-08	0.01377887	0.00839137	2.239948e-08	-1.31122e-08	0.02591792	0.001121153
3.1e+08	0.02782685	-0.004026564	1.721064e-08	-1.682125e-08	0.01554669	0.006200284	8.954911e-08	-9.409434e-08
	1.721064e-08	-1.682125e-08	0.02719395	-0.002333999	5.159635e-09	6.543276e-09	0.01518181	0.006863642
	0.01554669	0.006200284	5.159635e-09	6.543276e-09	0.02800901	-0.004177251	1.831443e-08	-1.904246e-08
	8.954911e-08	-9.409434e-08	0.01518181	0.006863642	1.831443e-08	-1.904246e-08	0.02726743	-0.002198499
3.2e+08	0.02800669	-0.007793539	1.187965e-08	-2.119996e-08	0.01638187	0.004232724	6.266746e-08	-1.177741e-07
	1.187965e-08	-2.119996e-08	0.0275629	-0.005877679	3.873457e-09	5.97414e-09	0.01608082	0.005012834
	0.01638187	0.004232724	3.873457e-09	5.97414e-09	0.02817148	-0.007992877	1.262288e-08	-2.37792e-08
	6.266746e-08	-1.177741e-07	0.01608082	0.005012834	1.262288e-08	-2.37792e-08	0.02762747	-0.005741223
3.3e+08	0.02713626	-0.01146258	5.37718e-09	-2.405498e-08	0.01661565	0.002113095	2.950357e-08	-1.337203e-07
	5.37718e-09	-2.405498e-08	0.02693305	-0.009376737	2.349104e-09	5.785469e-09	0.01640635	0.002991426
	0.01661565	0.002113095	2.349104e-09	5.785469e-09	0.02727164	-0.01170475	5.673154e-09	-2.689165e-08
	2.950357e-08	-1.337203e-07	0.01640635	0.002991426	5.673154e-09	-2.689165e-08	0.02698777	-0.009236353
3.4e+08	0.02529061	-0.0147594	-1.862567e-09	-2.507808e-08	0.016229	1.498093e-05	-7.704586e-09	-1.402747e-07
	-1.862567e-09	-2.507808e-08	0.02536392	-0.01257033	6.955603e-10	6.039872e-09	0.01613371	0.0009651511
	0.016229	1.498094e-05	6.955603e-10	6.039872e-09	0.02538652	-0.01503482	-2.071842e-09	-2.804874e-08
	-7.704586e-09	-1.402747e-07	0.01613371	0.0009651511	-2.071842e-09	-2.804874e-08	0.02540874	-0.01242284
3.5e+08	0.02261345	-0.01744148	-9.323956e-09	-2.408311e-08	0.01525188	-0.001889404	-4.628489e-08	-1.364263e-07
	-9.323956e-09	-2.408311e-08	0.02298018	-0.01522486	-9.615947e-10	6.768973e-09	0.01528494	-0.0008998423
	0.01525188	-0.001889404	-9.615947e-10	6.768973e-09	0.02266302	-0.01773755	-1.006166e-08	-2.704953e-08
	-4.628489e-08	-1.364263e-07	0.01528494	-0.0008998423	-1.006166e-08	-2.704953e-08	0.023016	-0.01506715
3.6e+08	0.01930603	-0.01931467	-1.644312e-08	-2.102818e-08	0.01376103	-0.003442748	-8.331444e-08	-1.219218e-07
	-1.644312e-08	-2.102818e-08	0.01996189	-0.01714968	-2.489361e-09	7.969121e-09	0.01392728	-0.002449909
	0.01376103	-0.003442748	-2.489361e-09	7.969121e-09	0.01930641	-0.01961685	-1.769319e-08	-2.384602e-08
	-8.331444e-08	-1.219218e-07	0.01392728	-0.002449909	-1.769319e-08	-2.384602e-08	0.01999048	-0.016979
3.7e+08	0.01561215	-0.02024637	-2.264792e-08	-1.60294e-08	0.0118741	-0.004515092	-1.158378e-07	-9.733577e-08
	-2.264792e-08	-1.60294e-08	0.01653099	-0.01820976	-3.755843e-09	9.59837e-09	0.01216793	-0.003555934
	0.0118741	-0.004515092	-3.755843e-09	9.59837e-09	0.01556501	-0.02053951	-2.43541e-08	-1.856162e-08
	-1.158378e-07	-9.733577e-08	0.01216793	-0.003555934	-2.43541e-08	-1.856162e-08	0.01655489	-0.01802395
3.8e+08	0.01180019	-0.02017421	-2.740256e-08	-9.363663e-09	0.009740528	-0.005014223	-1.410983e-07	-6.406424e-08
	-2.740256e-08	-9.363663e-09	0.01293503	-0.01833426	-4.642647e-09	1.15777e-08	0.01014584	-0.004123516
	0.009740528	-0.005014223	-4.642647e-09	1.15777e-08	0.0117118	-0.02044397	-2.947086e-08	-1.149107e-08
	-1.410983e-07	-6.406424e-08	0.01014584	-0.004123516	-2.947086e-08	-1.149107e-08	0.01295736	-0.01813196
3.9e+08	0.008143569	-0.01910974	-3.025402e-08	-1.458401e-09	0.007529803	-0.004893148	-1.567685e-07	-2.42615e-08
	-3.025402e-08	-1.458401e-09	0.009429333	-0.01752062	-5.055384e-09	1.379495e-08	0.008020824	-0.00410048
	0.007529803	-0.004893147	-5.055384e-09	1.379495e-08	0.008024426	-0.01934393	-3.25581e-08	-3.090147e-09
	-1.567685e-07	-2.42615e-08	0.008020824	-0.00410048	-3.25581e-08	-3.090147e-09	0.009453502	-0.0173014
4e+08	0.004900957	-0.0171367	-3.087602e-08	7.132821e-09	0.005418083	-0.004154009	-1.611619e-07	1.929029e-08
	-3.087602e-08	7.132821e-09	0.006258666	-0.01583369	-4.933229e-09	1.611201e-08	0.005961038	-0.0034811
	0.005418083	-0.004154009	-4.933229e-09	1.611201e-08	0.004765035	-0.0173266	-3.326585e-08	6.050262e-09
	-1.611619e-07	1.929029e-08	0.005961038	-0.0034811	-3.326585e-08	6.050262e-09	0.006288112	-0.01559813
4.1e+08	0.002297653	-0.01440422	-2.910582e-08	1.57686e-08	0.003574168	-0.002848095	-1.534056e-07	6.337302e-08
	-2.910582e-08	1.57686e-08	0.003639942	-0.01340013	-4.256321e-09	1.837514e-08	0.004129688	-0.002306643
	0.003574168	-0.002848095	-4.256321e-09	1.837514e-08	0.002161265	-0.01454546	-3.141892e-08	1.524508e-08
	-1.534056e-07	6.337302e-08	0.004129688	-0.002306643	-3.141892e-08	1.524508e-08	0.003677835	-0.01314982
4.2e+08	0.0005095496	-0.01111516	-2.496885e-08	2.376948e-08	0.002146016	-0.001071879	-1.335539e-07	1.045735e-07
	-2.496885e-08	2.376948e-08	0.001747055	-0.01039847	-3.04985e-09	2.042745e-08	0.002672127	-0.0006621595
	0.002146016	-0.001071879	-3.04985e-09	2.042745e-08	0.0003899785	-0.01120837	-2.704331e-08	2.376842e-08
	-1.335539e-07	1.045735e-07	0.002672127	-0.0006621595	-2.704331e-08	2.376842e-08	0.001796008	-0.01013584
4.3e+08	-0.0003491642	-0.007510731	-1.868732e-08	3.047511e-08	0.001248891	0.00104058	-1.026288e-07	1.395547e-07
	-1.868732e-08	3.047511e-08	0.0006989839	-0.007045465	-1.384108e-09	2.212256e-08	0.001704333	0.001330222
	0.001248891	0.00104058	-1.384108e-09	2.212256e-08	-0.000435175	-0.007561675	-2.037535e-08	3.091476e-08
	-1.026288e-07	1.395547e-07	0.001704333	0.001330222	-2.037535e-08	3.091476e-08	0.0007608283	-0.006773632
4.4e+08	-0.0002336663	-0.003852347	-1.067042e-08	3.530304e-08	0.0009561402	0.003328283	-6.257923e-08	1.653345e-07
	-1.067042e-08	3.530304e-08	0.0005520368	-0.003579878	6.297641e-10	2.333783e-08	0.001303749	0.003520975
	0.0009561402	0.003328283	6.297641e-10	2.333783e-08	-0.0002714316	-0.003871657	-1.185113e-08	3.606187e-08
	-6.257923e-08	1.653345e-07	0.001303749	0.003520975	-1.185113e-08	3.606187e-08	0.0006276374	-0.003302397
4.5e+08	0.0008290342	-0.0004022365	-1.486207e-09	3.780275e-08	0.001293338	0.005616088	-1.615778e-08	1.795455e-07
	-1.486207e-09	3.780275e-08	0.001296732	-0.0002449114	2.848069e-09	2.398586e-08	0.001503216	0.005745011
	0.001293338	0.005616088	2.848069e-09	2.398586e-08	0.0008507621	-0.000404667	-2.076222e-09	3.872847e-08
	-1.615778e-08	1.795455e-07	0.001503216	0.005745011	-2.076222e-09	3.872847e-08	0.001385901	3.452743e-05
4.6e+08	0.002742953	0.002595834	8.182565e-09	3.76989e-08	0.002236276	0.007728618	3.327615e-08	1.806514e-07
	8.182565e-09	3.76989e-08	0.002859523	0.00272945	5.106065e-09	2.402292e-08	0.002288474	0.007834723
	0.002236276	0.007728618	5.106065e-09	2.402292e-08	0.00283086	0.002592514	8.221617e-09	3.862028e-08
	3.327615e-08	1.806514e-07	0.002288474	0.007834723	8.221617e-09	3.862028e-08	0.002961008	0.003007332
4.7e+08	0.005351099	0.004934194	1.758676e-08	3.491308e-08	0.003712923	0.009504129	8.199242e-08	1.680617e-07
	1.758676e-08	3.491308e-08	0.005109136	0.005142851	7.229909e-09	2.345218e-08	0.003599402	0.009633147
	0.003712923	0.009504129	7.229909e-09	2.345218e-08	0.005506483	0.004910622	1.824457e-08	3.565273e-08
	8.199242e-08	1.680617e-07	0.003599402	0.009633147	1.824457e-08	3.565273e-08	0.005220773	0.005416123
