!$
! Info: Touchstone file created by Circ.  Input file=Tx_14in_Rx_85ohms_TxVia_35mils_RxVia_45mils.circ
!$
# Hz S RI R 50
0	0.01126687	1.66855e-25	7.341086e-10	2.018394e-27	9.420475e-05	2.104276e-23	3.620449e-10	4.648319e-28
	7.341086e-10	2.018373e-27	0.01126516	2.051807e-25	2.48209e-09	7.608587e-27	9.406958e-05	2.549864e-23
	9.401925e-05	2.095442e-23	2.48209e-09	7.608596e-27	0.01127746	1.668209e-25	7.361759e-10	2.160086e-27
	3.620449e-10	4.64826e-28	9.222127e-05	2.562415e-23	7.361763e-10	2.160103e-27	0.01127825	1.922532e-25
1e+07	0.01378716	-0.0137434	9.662276e-10	1.325628e-09	0.0005693761	0.00251179	6.60884e-10	5.941205e-10
	9.662276e-10	1.325628e-09	0.01381623	-0.01375175	3.38844e-09	6.885227e-09	0.000565209	0.002519238
	0.0005693706	0.002511791	3.38844e-09	6.885227e-09	0.01385047	-0.01372239	9.498678e-10	1.355168e-09
	6.608839e-10	5.941205e-10	0.0005651485	0.002519249	9.498676e-10	1.355168e-09	0.01378602	-0.01373483
2e+07	0.01123857	-0.03074514	1.333552e-09	2.243335e-09	0.001698714	0.004695714	1.054482e-09	8.544324e-10
	1.333552e-09	2.243335e-09	0.01120867	-0.0307621	4.023156e-09	1.228398e-08	0.001683392	0.004714751
	0.001698715	0.004695719	4.023156e-09	1.228398e-08	0.01129782	-0.03072089	1.261711e-09	2.319948e-09
	1.054482e-09	8.544325e-10	0.001683384	0.004714786	1.261711e-09	2.319948e-09	0.01119132	-0.03071589
3e+07	0.00250403	-0.04735954	1.654634e-09	3.025936e-09	0.00337361	0.006420151	1.471588e-09	9.018379e-10
	1.654634e-09	3.025936e-09	0.002396332	-0.04734706	4.101411e-09	1.775036e-08	0.003342631	0.006457713
	0.003373613	0.00642015	4.101411e-09	1.775036e-08	0.002565396	-0.04732359	1.505708e-09	3.185374e-09
	1.471588e-09	9.018379e-10	0.003342631	0.006457718	1.505708e-09	3.185374e-09	0.002387663	-0.04728365
4e+07	-0.01103105	-0.06096084	1.943409e-09	3.689774e-09	0.005431255	0.007556579	1.841161e-09	7.496584e-10
	1.943409e-09	3.689774e-09	-0.01122477	-0.06088253	3.959088e-09	2.345254e-08	0.005383422	0.00762136
	0.005431255	0.007556578	3.959088e-09	2.345254e-08	-0.01096408	-0.06091427	1.713361e-09	3.975886e-09
	1.841161e-09	7.496584e-10	0.005383416	0.007621358	1.713361e-09	3.975886e-09	-0.01122759	-0.06080454
5e+07	-0.02796051	-0.07022986	2.163973e-09	4.239684e-09	0.007675463	0.008030871	2.085386e-09	4.231633e-10
	2.163973e-09	4.239684e-09	-0.0282351	-0.0700479	3.761869e-09	2.944321e-08	0.007613395	0.008131972
	0.007675463	0.008030871	3.761869e-09	2.944321e-08	-0.02788639	-0.0701754	1.868251e-09	4.695565e-09
	2.085386e-09	4.231633e-10	0.007613392	0.008131972	1.868251e-09	4.695565e-09	-0.02823422	-0.0699556
6e+07	-0.04674588	-0.07442374	2.273664e-09	4.698304e-09	0.009901588	0.007832577	2.141361e-09	-2.227352e-11
	2.273664e-09	4.698304e-09	-0.04708207	-0.07410345	3.661243e-09	3.574027e-08	0.009831693	0.007978027
	0.009901589	0.007832577	3.661243e-09	3.574027e-08	-0.04666465	-0.07436431	1.944821e-09	5.359255e-09
	2.141361e-09	-2.227351e-11	0.009831695	0.007978026	1.944821e-09	5.359255e-09	-0.04707863	-0.07399587
7e+07	-0.06580091	-0.07330403	2.233571e-09	5.106116e-09	0.01191765	0.007011661	1.969882e-09	-5.135502e-10
	2.233571e-09	5.106116e-09	-0.06616706	-0.07281883	3.806624e-09	4.230883e-08	0.01184958	0.00720706
	0.01191766	0.007011661	3.806625e-09	4.230883e-08	-0.06571386	-0.0732421	1.917272e-09	5.994711e-09
	1.969882e-09	-5.135502e-10	0.01184959	0.007207056	1.917272e-09	5.994712e-09	-0.06616101	-0.07269449
8e+07	-0.08360415	-0.06709472	2.016975e-09	5.521979e-09	0.01356107	0.005668818	1.557956e-09	-9.687437e-10
	2.016975e-09	5.521979e-09	-0.08395959	-0.06643001	4.328569e-09	4.905777e-08	0.01350675	0.005916225
	0.01356107	0.005668817	4.32857e-09	4.905777e-08	-0.08351333	-0.06703193	1.767292e-09	6.644644e-09
	1.557957e-09	-9.687438e-10	0.01350676	0.005916218	1.767291e-09	6.644644e-09	-0.08394974	-0.06628751
9e+07	-0.09880644	-0.05642487	1.618711e-09	6.019492e-09	0.01471018	0.00394218	9.196176e-10	-1.305004e-09
	1.618711e-09	6.019492e-09	-0.09910589	-0.05558055	5.319145e-09	5.584739e-08	0.01468255	0.004239352
	0.01471018	0.003942179	5.319146e-09	5.58474e-08	-0.09871417	-0.05636185	1.49268e-09	7.364295e-09
	9.196177e-10	-1.305004e-09	0.01468255	0.004239346	1.49268e-09	7.364296e-09	-0.09909013	-0.05541914
1e+08	-0.1103235	-0.04225292	1.055899e-09	6.677995e-09	0.01529308	0.001993507	9.573311e-11	-1.445753e-09
	1.055899e-09	6.677995e-09	-0.1105217	-0.04124432	6.813205e-09	6.25032e-08	0.01530454	0.002333582
	0.01529308	0.001993507	6.813205e-09	6.25032e-08	-0.1102317	-0.04218926	1.107306e-09	8.213947e-09
	9.573311e-11	-1.445753e-09	0.01530454	0.002333582	1.107306e-09	8.213947e-09	-0.1104977	-0.04106432
1.1e+08	-0.1173874	-0.02576047	4.12158e-10	7.534904e-09	0.01527831	-2.538754e-05	-8.501672e-10	-1.334368e-09
	4.12158e-10	7.534904e-09	-0.1174445	-0.02462019	8.77887e-09	6.884608e-08	0.01533914	0.0003460187
	0.01527831	-2.538746e-05	8.77887e-09	6.884608e-08	-0.1172981	-0.02569788	6.85305e-10	9.216009e-09
	-8.501672e-10	-1.334368e-09	0.01533914	0.0003460187	6.85305e-10	9.216009e-09	-0.1174091	-0.02442275
1.2e+08	-0.1195813	-0.008284272	-2.290732e-10	8.658302e-09	0.01466953	-0.001933552	-1.84269e-09	-9.280155e-10
	-2.290732e-10	8.658302e-09	-0.1194693	-0.007055877	1.110613e-08	7.473805e-08	0.01478614	-0.001545521
	0.01466953	-0.001933552	1.110613e-08	7.473805e-08	-0.1194977	-0.008220512	2.919185e-10	1.041823e-08
	-1.84269e-09	-9.280155e-10	0.01478614	-0.001545521	2.919185e-10	1.041823e-08	-0.1194195	-0.006843163
1.3e+08	-0.116886	0.008798763	-7.73025e-10	1.004958e-08	0.01353096	-0.003574726	-2.789965e-09	-2.082444e-10
	-7.73025e-10	1.004958e-08	-0.1165906	0.01006243	1.36471e-08	8.005476e-08	0.01370502	-0.003187133
	0.01353096	-0.003574726	1.36471e-08	8.005476e-08	-0.1168097	0.008866584	1.108627e-12	1.181399e-08
	-2.789965e-09	-2.082444e-10	0.01370502	-0.003187133	1.108627e-12	1.181399e-08	-0.116524	0.01028672
1.4e+08	-0.1096475	0.02417432	-1.120126e-09	1.166841e-08	0.0119599	-0.004816788	-3.596225e-09	8.165022e-10
	-1.120126e-09	1.166841e-08	-0.1091711	0.02541545	1.621565e-08	8.472803e-08	0.01218761	-0.004447471
	0.0119599	-0.004816788	1.621565e-08	8.472803e-08	-0.1095787	0.0242491	-1.105495e-10	1.336133e-08
	-3.596225e-09	8.165022e-10	0.01218761	-0.004447471	-1.105495e-10	1.336133e-08	-0.1090865	0.02564639
1.5e+08	-0.09854744	0.03668038	-1.185893e-09	1.344557e-08	0.01008353	-0.00555757	-4.162508e-09	2.107641e-09
	-1.185893e-09	1.344557e-08	-0.09791116	0.03784167	1.860656e-08	8.875482e-08	0.01035531	-0.005223336
	0.01008353	-0.00555757	1.860656e-08	8.875482e-08	-0.09848566	0.03676471	1.793256e-11	1.499635e-08
	-4.162508e-09	2.107641e-09	0.01035531	-0.005223336	1.793256e-11	1.499635e-08	-0.0978092	0.03807362
1.6e+08	-0.08455189	0.04538787	-9.19184e-10	1.527643e-08	0.008051916	-0.005731222	-4.403658e-09	3.596161e-09
	-9.19184e-10	1.527643e-08	-0.08379508	0.04641848	2.061875e-08	9.220105e-08	0.0083528	-0.005445985
	0.008051916	-0.005731222	2.061875e-08	9.220105e-08	-0.08449577	0.04548392	4.158161e-10	1.662694e-08
	-4.403658e-09	3.596161e-09	0.0083528	-0.005445985	4.158161e-10	1.662694e-08	-0.08367847	0.04664581
1.7e+08	-0.06884011	0.04966719	-3.111566e-10	1.70434e-08	0.006029243	-0.005313788	-4.254085e-09	5.185851e-09
	-3.111566e-10	1.70434e-08	-0.06801845	0.0505286	2.20784e-08	9.519613e-08	0.006339787	-0.005086842
	0.006029243	-0.005313788	2.20784e-08	9.519613e-08	-0.06878784	0.04977658	1.07385e-09	1.815478e-08
	-4.254085e-09	5.185851e-09	0.006339787	-0.005086842	1.07385e-09	1.815478e-08	-0.06789189	0.05074643
1.8e+08	-0.05271843	0.04923605	6.036518e-10	1.863416e-08	0.004183009	-0.004327243	-3.676804e-09	6.758348e-09
	6.036518e-10	1.863416e-08	-0.05189985	0.0499072	2.285817e-08	9.792026e-08	0.004480792	-0.004161868
	0.004183008	-0.004327243	2.285817e-08	9.792026e-08	-0.05266785	0.04935976	1.945279e-09	1.949246e-08
	-3.676804e-09	6.758348e-09	0.004480792	-0.004161868	1.945279e-09	1.949246e-08	-0.0517698	0.05011218
1.9e+08	-0.03752191	0.04418424	1.754463e-09	1.995793e-08	0.002671231	-0.002840886	-2.671499e-09	8.181514e-09
	1.754463e-09	1.995793e-08	-0.03678106	0.04466537	2.289012e-08	1.005867e-07	0.002932756	-0.002733443
	0.00267123	-0.002840886	2.289012e-08	1.005867e-07	-0.03747066	0.04432262	2.954778e-09	2.057796e-08
	-2.671499e-09	8.181514e-09	0.002932756	-0.002733443	2.954778e-09	2.057796e-08	-0.03665517	0.04485623
2e+08	-0.02451006	0.03497117	3.047444e-09	2.095603e-08	0.001628381	-0.0009688529	-1.280176e-09	9.321167e-09
	3.047444e-09	2.095603e-08	-0.02392154	0.03528584	2.217189e-08	1.034217e-07	0.001831237	-0.0009084842
	0.001628381	-0.0009688529	2.217189e-08	1.034217e-07	-0.02445582	0.03512384	4.012908e-09	2.138277e-08
	-1.280176e-09	9.321167e-09	0.001831237	-0.0009084842	4.012908e-09	2.138277e-08	-0.02380792	0.0354638
2.1e+08	-0.01476441	0.02239357	4.380992e-09	2.160457e-08	0.001151532	0.001137207	4.112379e-10	1.005546e-08
	4.380992e-09	2.160457e-08	-0.01439535	0.02258847	2.076633e-08	1.066455e-07	0.001276617	0.00116819
	0.001151532	0.001137207	2.076633e-08	1.066455e-07	-0.01470503	0.02255943	5.031884e-09	2.191185e-08
	4.112379e-10	1.005546e-08	0.001276617	0.00116819	5.031884e-09	2.191185e-08	-0.01430178	0.02275733
2.2e+08	-0.009097102	0.007523367	5.658564e-09	2.190994e-08	0.001288776	0.003300477	2.276722e-09	1.029028e-08
	5.658564e-09	2.190994e-08	-0.008999996	0.007665825	1.879641e-08	1.104551e-07	0.001322373	0.003325528
	0.001288776	0.003300477	1.879641e-08	1.104551e-07	-0.009030902	0.007700729	5.937961e-09	2.219592e-08
	2.276722e-09	1.029028e-08	0.001322373	0.003325528	5.937961e-09	2.219592e-08	-0.008933101	0.007831845
2.3e+08	-0.007980627	-0.008380482	6.795648e-09	2.189989e-08	0.002032098	0.005335493	4.159978e-09	9.97324e-09
	6.795648e-09	2.189989e-08	-0.00818699	-0.008207368	1.643698e-08	1.150101e-07	0.001967592	0.005382136
	0.002032098	0.005335493	1.643698e-08	1.150101e-07	-0.007906547	-0.008193793	6.676903e-09	2.22798e-08
	4.159978e-09	9.97324e-09	0.001967592	0.005382136	6.676903e-09	2.22798e-08	-0.008151433	-0.008035858
2.4e+08	-0.0115067	-0.02397902	7.720016e-09	2.161504e-08	0.003316432	0.007066915	5.889525e-09	9.103655e-09
	7.720016e-09	2.161504e-08	-0.01202242	-0.02368311	1.390468e-08	1.20421e-07	0.003155483	0.007164547
	0.003316432	0.007066915	1.390468e-08	1.20421e-07	-0.01142447	-0.02378539	7.211762e-09	2.221149e-08
	5.889525e-09	9.103655e-09	0.003155483	0.007164547	7.211762e-09	2.221149e-08	-0.01202032	-0.02349636
2.5e+08	-0.01937993	-0.03796856	8.367463e-09	2.110479e-08	0.005025608	0.008347871	7.29709e-09	7.736371e-09
	8.367463e-09	2.110479e-08	-0.02018287	-0.0374568	1.144603e-08	1.267388e-07	0.004778631	0.008525237
	0.005025608	0.008347871	1.144603e-08	1.267388e-07	-0.01929008	-0.03777032	7.515391e-09	2.203665e-08
	7.29709e-09	7.736371e-09	0.004778631	0.008525237	7.515391e-09	2.203665e-08	-0.02021335	-0.0372444
2.6e+08	-0.03094722	-0.04919216	8.677447e-09	2.042941e-08	0.007004562	0.009075061	8.236382e-09	5.978451e-09
	8.677447e-09	2.042941e-08	-0.03198743	-0.04837919	9.323082e-09	1.339464e-07	0.006690438	0.009357621
	0.007004562	0.009075061	9.323082e-09	1.339464e-07	-0.03085106	-0.04899126	7.562449e-09	2.180043e-08
	8.236382e-09	5.978451e-09	0.006690438	0.009357621	7.562449e-09	2.180043e-08	-0.03204653	-0.04813106
2.7e+08	-0.04525956	-0.05673568	8.593243e-09	1.966683e-08	0.009075992	0.009198383	8.599319e-09	3.979302e-09
	8.593243e-09	1.966683e-08	-0.04646222	-0.05555219	7.79567e-09	1.419524e-07	0.008720971	0.009605806
	0.009075992	0.009198383	7.79567e-09	1.419524e-07	-0.04515893	-0.05653348	7.325986e-09	2.155514e-08
	8.599319e-09	3.979302e-09	0.008720971	0.009605806	7.325986e-09	2.155514e-08	-0.04654292	-0.05525948
2.8e+08	-0.06115854	-0.05999898	8.069259e-09	1.891976e-08	0.01105881	0.008723927	8.327419e-09	1.916031e-09
	8.069259e-09	1.891976e-08	-0.06242933	-0.0583989	7.100009e-09	1.505883e-07	0.01069468	0.009267967
	0.01105881	0.008723927	7.100009e-09	1.505883e-07	-0.06105561	-0.0597961	6.781662e-09	2.136953e-08
	8.327419e-09	1.916031e-09	0.01069468	0.009267967	6.781662e-09	2.136953e-08	-0.06252207	-0.05805489
2.9e+08	-0.07737772	-0.05873677	7.084932e-09	1.831809e-08	0.01278568	0.007710508	7.417295e-09	-2.351869e-11
	7.084932e-09	1.831809e-08	-0.07861026	-0.05670252	7.424734e-09	1.59614e-07	0.01244732	0.008393464
	0.01278568	0.007710508	7.424734e-09	1.59614e-07	-0.07727467	-0.05853302	5.919413e-09	2.133405e-08
	7.417295e-09	-2.351869e-11	0.01244732	0.008393464	5.919413e-09	2.133405e-08	-0.07870353	-0.05630337
3e+08	-0.09264809	-0.05306725	5.661426e-09	1.801226e-08	0.01411742	0.006260997	5.920381e-09	-1.657691e-09
	5.661426e-09	1.801226e-08	-0.09373261	-0.05061264	8.88696e-09	1.687298e-07	0.01383995	0.00707495
	0.01411742	0.006260997	8.88696e-09	1.687298e-07	-0.09254683	-0.05286171	4.758977e-09	2.155781e-08
	5.920381e-09	-1.657691e-09	0.01383995	0.00707495	4.758977e-09	2.155781e-08	-0.0938139	-0.05015795
3.1e+08	-0.1057978	-0.04345097	3.862697e-09	1.817647e-08	0.01495301	0.004510383	3.938178e-09	-2.826254e-09
	3.862697e-09	1.817647e-08	-0.1066305	-0.04062146	1.150619e-08	1.776061e-07	0.01476876	0.005437297
	0.01495301	0.004510383	1.150619e-08	1.776061e-07	-0.1056998	-0.04324217	3.350861e-09	2.217546e-08
	3.938178e-09	-2.826254e-09	0.01476876	0.005437297	3.350861e-09	2.217546e-08	-0.1066873	-0.04011447
3.2e+08	-0.1158387	-0.03064445	1.83613e-09	1.897786e-08	0.01523493	0.002612561	1.613329e-09	-3.40286e-09
	1.83613e-09	1.897786e-08	-0.1163307	-0.02751468	1.520489e-08	1.859108e-07	0.01517053	0.003625289
	0.01523493	0.002612561	1.520489e-08	1.859108e-07	-0.1157448	-0.03043059	1.81826e-09	2.331963e-08
	1.613329e-09	-3.40286e-09	0.01517053	0.003625289	1.81826e-09	2.331963e-08	-0.1163515	-0.02696226
3.3e+08	-0.1220345	-0.01563487	-1.843016e-10	2.046042e-08	0.01495041	0.0007274724	-8.820975e-10	-3.303294e-09
	-1.843016e-10	2.046042e-08	-0.1221198	-0.01230368	1.981455e-08	1.933131e-07	0.01502421	0.001791595
	0.01495041	0.0007274724	1.981455e-08	1.933131e-07	-0.1219448	-0.01541397	3.618412e-10	2.500692e-08
	-8.820975e-10	-3.303294e-09	0.01502421	0.001791595	3.618412e-10	2.500692e-08	-0.1220954	-0.01171595
3.4e+08	-0.1239477	0.0004379906	-1.968705e-09	2.262648e-08	0.01412947	-0.0009904121	-3.356959e-09	-2.49215e-09
	-1.968705e-09	2.262648e-08	-0.1235898	0.003854591	2.505412e-08	1.995541e-07	0.01434958	8.596085e-05
	0.01412947	-0.000990412	2.505412e-08	1.995541e-07	-0.1238618	0.0006677902	-8.287382e-10	2.722258e-08
	-3.356959e-09	-2.49215e-09	0.01434958	8.596084e-05	-8.287382e-10	2.722258e-08	-0.1235141	0.004464981
3.5e+08	-0.121465	0.0163666	-3.286259e-09	2.539377e-08	0.0128409	-0.002401915	-5.614229e-09	-9.858758e-10
	-3.286259e-09	2.539377e-08	-0.1206611	0.01974408	3.056708e-08	2.044675e-07	0.01320404	-0.001354104
	0.0128409	-0.002401915	3.056708e-08	2.044675e-07	-0.1213818	0.01660688	-1.56673e-09	2.987887e-08
	-5.614229e-09	-9.858758e-10	0.01320404	-0.001354104	-1.56673e-09	2.987887e-08	-0.1205316	0.02036291
3.6e+08	-0.1148007	0.03096226	-3.939228e-09	2.859661e-08	0.01118677	-0.003391392	-7.463806e-09	1.146552e-09
	-3.939228e-09	2.859661e-08	-0.1135836	0.0341773	3.595404e-08	2.080012e-07	0.011678	-0.002411297
	0.01118677	-0.003391392	3.595404e-08	2.080012e-07	-0.1147188	0.03121419	-1.69917e-09	3.281684e-08
	-7.463806e-09	1.146552e-09	0.011678	-0.002411297	-1.69917e-09	3.281684e-08	-0.1134021	0.03478988
3.7e+08	-0.1044796	0.04313912	-3.795099e-09	3.200152e-08	0.009295939	-0.003873679	-8.73549e-09	3.785441e-09
	-3.795099e-09	3.200152e-08	-0.1029166	0.0460797	4.081145e-08	2.102275e-07	0.009889362	-0.002995479
	0.009295939	-0.003873679	4.081145e-08	2.102275e-07	-0.1043972	0.0434034	-1.135765e-09	3.582199e-08
	-8.73549e-09	3.785441e-09	0.009889362	-0.002995479	-1.135765e-09	3.582199e-08	-0.1026891	0.04667206
3.8e+08	-0.0912997	0.05199166	-2.810399e-09	3.533573e-08	0.007316346	-0.003799948	-9.292032e-09	6.764922e-09
	-2.810399e-09	3.533573e-08	-0.0894893	0.05456673	4.477132e-08	2.113384e-07	0.007976742	-0.003049798
	0.007316346	-0.003799948	4.477132e-08	2.113384e-07	-0.09121495	0.05226846	1.304945e-10	3.865199e-08
	-9.292032e-09	6.764922e-09	0.007976742	-0.003049798	1.304945e-10	3.865199e-08	-0.08922548	0.05512685
3.9e+08	-0.07627688	0.05686149	-1.040987e-09	3.832398e-08	0.005405977	-0.003162337	-9.041932e-09	9.880695e-09
	-1.040987e-09	3.832398e-08	-0.07434204	0.05900949	4.753674e-08	2.116281e-07	0.006091278	-0.00255585
	0.005405977	-0.003162337	4.753674e-08	2.116281e-07	-0.07618788	0.05715039	2.016093e-09	4.107185e-08
	-9.041932e-09	9.880695e-09	0.006091278	-0.00255585	2.016093e-09	4.107185e-08	-0.07405509	0.05952838
4e+08	-0.06057313	0.05738917	1.363891e-09	4.07269e-08	0.003722164	-0.001996814	-7.951223e-09	1.290162e-08
	1.363891e-09	4.07269e-08	-0.05865264	0.05908477	4.890873e-08	2.114655e-07	0.004386596	-0.001537298
	0.003722164	-0.001996814	4.890873e-08	2.114655e-07	-0.0604781	0.05768921	4.355647e-09	4.288996e-08
	-7.951223e-09	1.290162e-08	0.004386596	-0.001537298	4.355647e-09	4.288996e-08	-0.05835803	0.05955736
4.1e+08	-0.04541146	0.05354673	4.183142e-09	4.237338e-08	0.002409425	-0.0003833801	-6.052872e-09	1.558561e-08
	4.183142e-09	4.237338e-08	-0.04364927	0.05480488	4.880185e-08	2.112606e-07	0.003007089	-6.100678e-05
	0.002409425	-0.0003833801	4.880185e-08	2.112606e-07	-0.04530895	0.05385639	6.925597e-09	4.398724e-08
	-6.052872e-09	1.558561e-08	0.003007089	-6.100678e-05	6.925597e-09	4.398724e-08	-0.04336371	0.05523063
4.2e+08	-0.03198259	0.04564645	7.156573e-09	4.318035e-08	0.00158649	0.001557351	-3.451828e-09	1.769967e-08
	7.156573e-09	4.318035e-08	-0.03051609	0.04652339	4.724812e-08	2.1143e-07	0.00207512	0.001765347
	0.00158649	0.001557351	4.724812e-08	2.1143e-07	-0.0318716	0.04596374	9.47827e-09	4.433306e-08
	-3.451828e-09	1.769967e-08	0.00207512	0.001765347	9.47827e-09	4.433306e-08	-0.03025612	0.04690656
4.3e+08	-0.02134989	0.03432311	1.002158e-08	4.315636e-08	0.001333866	0.003671951	-3.235333e-10	1.904278e-08
	1.002158e-08	4.315636e-08	-0.02029791	0.03491384	4.439088e-08	2.12365e-07	0.001678466	0.0038
	0.001333866	0.003671951	4.439088e-08	2.12365e-07	-0.02123008	0.0346457	1.177876e-08	4.398437e-08
	-3.235333e-10	1.904278e-08	0.001678466	0.0038	1.177876e-08	4.398437e-08	-0.0200786	0.03526336
4.4e+08	-0.0143608	0.02048854	1.254542e-08	4.238925e-08	0.001683746	0.005786436	3.09583e-09	1.946921e-08
	1.254542e-08	4.238925e-08	-0.01381258	0.02092077	4.047169e-08	2.144054e-07	0.001859798	0.005878341
	0.001683746	0.005786436	4.047169e-08	2.144054e-07	-0.01423259	0.02081396	1.363602e-08	4.306879e-08
	3.09583e-09	1.946921e-08	0.001859798	0.005878341	1.363602e-08	4.306879e-08	-0.01364618	0.02124974
4.5e+08	-0.01157356	0.005260527	1.454619e-08	4.102311e-08	0.002614177	0.007722176	6.527867e-09	1.890848e-08
	1.454619e-08	4.102311e-08	-0.01157969	0.005685382	3.581323e-08	2.178189e-07	0.002610141	0.007827936
	0.002614177	0.007722176	3.581323e-08	2.178189e-07	-0.01143823	0.005586461	1.492114e-08	4.175735e-08
	6.527867e-09	1.890848e-08	0.002610141	0.007827936	1.492114e-08	4.175735e-08	-0.0114745	0.006010191
4.6e+08	-0.01320766	-0.01012858	1.589958e-08	3.923224e-08	0.004049028	0.009313694	9.677857e-09	1.737837e-08
	1.589958e-08	3.923224e-08	-0.01377395	-0.009548406	3.080047e-08	2.22785e-07	0.00386788	0.009485656
	0.004049028	0.009313694	3.080047e-08	2.22785e-07	-0.0130673	-0.009804017	1.557005e-08	4.023496e-08
	9.677857e-09	1.737837e-08	0.00386788	0.009485656	1.557005e-08	4.023496e-08	-0.01373342	-0.009209275
4.7e+08	-0.01912392	-0.02443524	1.653345e-08	3.720013e-08	0.005864388	0.01042592	1.226474e-08	1.498778e-08
	1.653345e-08	3.720013e-08	-0.02020903	-0.02353894	2.586021e-08	2.293821e-07	0.005524019	0.01071455
	0.005864388	0.01042592	2.586021e-08	2.293821e-07	-0.01898126	-0.02411319	1.557277e-08	3.867749e-08
	1.226474e-08	1.498778e-08	0.005524019	0.01071455	1.557277e-08	3.867749e-08	-0.02023128	-0.02316634
4.8e+08	-0.02883718	-0.03650967	1.641638e-08	3.510853e-08	0.007900853	0.0109683	1.405066e-08	1.192847e-08
	1.641638e-08	3.510853e-08	-0.03035438	-0.03515208	2.143821e-08	2.375767e-07	0.007433219	0.01141792
	0.007900853	0.0109683	2.143821e-08	2.375767e-07	-0.02869533	-0.03619029	1.495631e-08	3.724062e-08
