!$
! Info: Touchstone file created by Circ.  Input file=Tx_16in_Rx_85ohms_TxVia_35mils_RxVia_45mils.circ
!$
# Hz S RI R 50
0	0.01283596	1.865018e-25	-8.578569e-05	3.685415e-24	0.0001046146	2.398795e-23	-8.576628e-05	1.362317e-24
	-8.578573e-05	3.689844e-24	0.01283423	2.299237e-25	-8.579624e-05	5.215811e-24	0.000104481	2.906805e-23
	0.0001044292	2.388725e-23	-8.579621e-05	5.212059e-24	0.01284648	1.864592e-25	-8.578204e-05	3.539552e-24
	-8.576631e-05	1.36579e-24	0.0001026324	2.921109e-23	-8.578206e-05	3.542349e-24	0.01284729	2.15442e-25
1e+07	0.01533698	-0.01600517	-0.0001822212	-2.726234e-05	0.0007010646	0.002817218	-1.326273e-05	-2.183711e-06
	-0.0001822212	-2.726234e-05	0.01536971	-0.01601508	-4.699746e-05	0.0001336446	0.0006965363	0.00282596
	0.0007010591	0.002817219	-4.699745e-05	0.0001336446	0.01540708	-0.01598374	-0.0001822188	-2.725429e-05
	-1.326273e-05	-2.183712e-06	0.0006964755	0.002825971	-0.0001822188	-2.725429e-05	0.0153335	-0.01599614
2e+07	0.01123976	-0.03540986	-0.0001601678	5.071333e-05	0.002124804	0.00518505	-1.411451e-05	-2.385155e-05
	-0.0001601678	5.071333e-05	0.01120518	-0.03542706	-3.206628e-05	0.0001779823	0.002108469	0.005207635
	0.002124805	0.005185054	-3.206628e-05	0.0001779823	0.01130501	-0.03538687	-0.0001601596	5.067043e-05
	-1.411451e-05	-2.385156e-05	0.002108461	0.005207671	-0.0001601596	5.067043e-05	0.01118466	-0.03537575
3e+07	-0.000533176	-0.05350403	-0.0001550355	5.627213e-05	0.004195313	0.006907422	-3.460539e-05	-2.308592e-05
	-0.0001550355	5.627213e-05	-0.0006530506	-0.05348178	1.213274e-05	0.0001983338	0.004163322	0.006952211
	0.004195315	0.006907421	1.213274e-05	0.0001983338	-0.0004656176	-0.05347019	-0.0001550371	5.619157e-05
	-3.460539e-05	-2.308592e-05	0.004163322	0.006952217	-0.0001550371	5.619157e-05	-0.000662638	-0.0534122
4e+07	-0.0179058	-0.06696618	-0.0001489913	6.920195e-05	0.006654158	0.007823385	-5.01661e-05	-1.37334e-05
	-0.0001489913	6.920195e-05	-0.0181137	-0.0668606	6.37033e-05	0.0001843927	0.006607144	0.007900338
	0.006654158	0.007823384	6.37033e-05	0.0001843927	-0.01783228	-0.06692316	-0.0001490236	6.907523e-05
	-5.01661e-05	-1.37334e-05	0.006607139	0.007900337	-0.0001490236	6.907523e-05	-0.01811549	-0.06677586
5e+07	-0.0386707	-0.07421532	-0.000140574	8.534335e-05	0.009204407	0.00787045	-6.0784e-05	8.535696e-07
	-0.000140574	8.534335e-05	-0.03895141	-0.07398402	0.0001027366	0.0001385266	0.009147905	0.007989069
	0.009204407	0.00787045	0.0001027366	0.0001385266	-0.03859015	-0.07416644	-0.0001406666	8.517493e-05
	-6.0784e-05	8.535697e-07	0.009147901	0.007989068	-0.0001406666	8.517493e-05	-0.03894756	-0.07388452
6e+07	-0.06047102	-0.07459665	-0.0001288449	0.000102547	0.01155526	0.007090663	-6.600114e-05	1.889136e-05
	-0.0001288449	0.000102547	-0.06079209	-0.07420556	0.0001133467	7.144799e-05	0.01149923	0.007257892
	0.01155526	0.007090663	0.0001133467	7.144799e-05	-0.06038438	-0.07454515	-0.0001290275	0.0001023591
	-6.600115e-05	1.889136e-05	0.01149923	0.007257891	-0.0001290275	0.0001023591	-0.06078339	-0.07409039
7e+07	-0.08100277	-0.06827373	-0.0001134784	0.0001190912	0.01345749	0.005616127	-6.523126e-05	3.886268e-05
	-0.0001134784	0.0001190912	-0.08131877	-0.06770353	8.64751e-05	-3.715979e-07	0.01341504	0.005834609
	0.01345749	0.005616127	8.64751e-05	-3.715973e-07	-0.08091236	-0.0682219	-0.0001137704	0.0001189228
	-6.523126e-05	3.886268e-05	0.01341505	0.005834605	-0.0001137704	0.0001189228	-0.08130455	-0.06757156
8e+07	-0.09822687	-0.05612006	-9.472583e-05	0.0001335314	0.01472736	0.003644599	-5.79101e-05	5.917125e-05
	-9.472583e-05	0.0001335314	-0.09848587	-0.05537041	2.120879e-05	-5.83505e-05	0.0147129	0.003911514
	0.01472736	0.003644598	2.120879e-05	-5.83505e-05	-0.09813565	-0.05606883	-9.512736e-05	0.0001334325
	-5.79101e-05	5.917125e-05	0.01471291	0.003911507	-9.512736e-05	0.0001334325	-0.09846419	-0.05522107
9e+07	-0.110545	-0.03957104	-7.328579e-05	0.0001447743	0.01525876	0.001411784	-4.347026e-05	7.802957e-05
	-7.328579e-05	0.0001447743	-0.1106961	-0.03866206	-7.61835e-05	-8.551242e-05	0.01528577	0.001718445
	0.01525877	0.001411783	-7.61835e-05	-8.551242e-05	-0.1104559	-0.03952002	-7.377344e-05	0.0001447952
	-4.347026e-05	7.802957e-05	0.01528578	0.001718439	-7.377344e-05	0.0001447952	-0.1106644	-0.03849598
1e+08	-0.116926	-0.02044549	-5.013793e-05	0.0001521715	0.01502818	-0.0008346421	-1.962118e-05	9.325307e-05
	-5.013793e-05	0.0001521715	-0.1169266	-0.01941648	-0.0002011212	-6.915176e-05	0.0151069	-0.0005023354
	0.01502818	-0.000834642	-0.0002011212	-6.915176e-05	-0.116841	-0.02039312	-5.066683e-05	0.0001523516
	-1.962118e-05	9.325307e-05	0.0151069	-0.0005023354	-5.066683e-05	0.0001523516	-0.1168825	-0.01923581
1.1e+08	-0.1169529	-0.0007378914	-2.653518e-05	0.0001554834	0.01407502	-0.002875766	6.558668e-06	9.249673e-05
	-2.653518e-05	0.0001554834	-0.1167765	0.0003543929	-0.0003225014	-3.775716e-05	0.01421038	-0.002536255
	0.01407502	-0.002875766	-0.0003225014	-3.775716e-05	-0.1168745	-0.0006845275	-2.704406e-05	0.0001558381
	6.558668e-06	9.249673e-05	0.01421038	-0.002536255	-2.704406e-05	0.0001558381	-0.1167179	0.000546531
1.2e+08	-0.1108376	0.01754071	-3.207557e-06	0.0001547225	0.0124992	-0.004484848	2.770809e-05	8.684518e-05
	-3.207557e-06	0.0001547225	-0.1104794	0.01863256	-0.0004116053	3.822814e-05	0.01268915	-0.004158043
	0.0124992	-0.004484847	-0.0004116053	3.822814e-05	-0.1107681	0.01759893	-3.628529e-06	0.0001552375
	2.770809e-05	8.684518e-05	0.01268915	-0.004158043	-3.628529e-06	0.0001552375	-0.1104046	0.01883192
1.3e+08	-0.0994089	0.03257105	1.895758e-05	0.0001503073	0.01047336	-0.005493765	4.409696e-05	7.820604e-05
	1.895758e-05	0.0001503073	-0.0988866	0.03359707	-0.0004641543	0.0001458444	0.01070857	-0.005198971
	0.01047336	-0.005493765	-0.0004641543	0.0001458444	-0.09934844	0.03263806	1.868058e-05	0.0001509406
	4.409696e-05	7.820604e-05	0.01070857	-0.005198971	1.868058e-05	0.0001509406	-0.09879607	0.03379826
1.4e+08	-0.08400085	0.04288973	3.937116e-05	0.0001428271	0.008208302	-0.005792316	5.261998e-05	7.083846e-05
	3.937116e-05	0.0001428271	-0.08335605	0.04379116	-0.0004737177	0.0002688699	0.008472418	-0.005545517
	0.008208302	-0.005792316	-0.0004737177	0.0002688699	-0.08394803	0.04296892	3.926842e-05	0.000143515
	5.261998e-05	7.083846e-05	0.008472418	-0.005545517	3.926842e-05	0.000143515	-0.08325222	0.04398847
1.5e+08	-0.0663276	0.04752297	5.761362e-05	0.0001329759	0.00594039	-0.005337945	6.038161e-05	6.229574e-05
	5.761362e-05	0.0001329759	-0.06562294	0.04825631	-0.0004399843	0.0003899141	0.00621131	-0.005149265
	0.00594039	-0.005337945	-0.0004399843	0.0003899141	-0.06628001	0.04761685	5.768358e-05	0.0001336499
	6.038161e-05	6.229574e-05	0.00621131	-0.005149265	5.768358e-05	0.0001336499	-0.06551075	0.04844471
1.6e+08	-0.04831896	0.04608143	7.363873e-05	0.0001214324	0.00391205	-0.004163445	6.703905e-05	5.27213e-05
	7.363873e-05	0.0001214324	-0.04763245	0.04662595	-0.000369344	0.0004934418	0.004164126	-0.004035131
	0.00391205	-0.004163445	-0.000369344	0.0004934418	-0.04827357	0.04619148	7.384833e-05	0.0001220338
	6.703905e-05	5.27213e-05	0.004164126	-0.004035131	7.384833e-05	0.0001220338	-0.04751895	0.04680217
1.7e+08	-0.03193021	0.03880402	8.763943e-05	0.00010871	0.002347913	-0.002379228	7.235089e-05	4.232471e-05
	8.763943e-05	0.00010871	-0.0313468	0.03916713	-0.0002735367	0.0005685853	0.002554816	-0.002304478
	0.002347913	-0.002379228	-0.0002735367	0.0005685853	-0.03188374	0.03893059	8.793241e-05	0.0001092052
	7.235089e-05	4.232471e-05	0.002554816	-0.002304478	8.793241e-05	0.0001092052	-0.03124046	0.03933049
1.8e+08	-0.01894132	0.02654094	9.992588e-05	9.506637e-05	0.00142853	-0.0001671852	7.616045e-05	3.13541e-05
	9.992588e-05	9.506637e-05	-0.01854262	0.02676029	-0.0001670086	0.0006110066	0.001566476	-0.000130033
	0.00142853	-0.0001671852	-0.0001670086	0.0006110066	-0.01889058	0.02668324	0.0001002383	9.545615e-05
	7.616045e-05	3.13541e-05	0.001566476	-0.000130033	0.0001002383	9.545615e-05	-0.01845224	0.02691326
1.9e+08	-0.01076612	0.01067093	0.0001107646	8.048629e-05	0.001265532	0.002235892	7.838649e-05	2.007414e-05
	0.0001107646	8.048629e-05	-0.01061952	0.01081274	-6.361833e-05	0.0006233085	0.001316474	0.002259536
	0.001265532	0.002235892	-6.361833e-05	0.0006233085	-0.01070841	0.01082713	0.0001110437	8.080624e-05
	7.838649e-05	2.007414e-05	0.001316474	0.002259536	0.0001110437	8.080624e-05	-0.01055307	0.01096103
2e+08	-0.008295397	-0.007043755	0.0001202268	6.475978e-05	0.001883381	0.004565021	7.901436e-05	8.746476e-06
	0.0001202268	6.475978e-05	-0.008444067	-0.006890343	2.650592e-05	0.00061381	0.001837755	0.004605233
	0.001883381	0.004565021	2.650592e-05	0.00061381	-0.008228838	-0.006876298	0.0001204489	6.507067e-05
	7.901436e-05	8.746476e-06	0.001837755	0.004605233	0.0001204489	6.507067e-05	-0.008407446	-0.006738159
2.1e+08	-0.01179652	-0.02465093	0.0001281038	4.763687e-05	0.003212582	0.00656065	7.808421e-05	-2.385845e-06
	0.0001281038	4.763687e-05	-0.01225173	-0.02438306	9.914747e-05	0.0005939391	0.003071235	0.006650429
	0.003212582	0.00656065	9.914747e-05	0.0005939391	-0.01172032	-0.02447534	0.0001282848	4.800671e-05
	7.808421e-05	-2.385845e-06	0.003071235	0.006650429	0.0001282848	4.800671e-05	-0.01224778	-0.02421634
2.2e+08	-0.02088606	-0.04022719	0.0001339257	2.900817e-05	0.005097127	0.008003377	7.567609e-05	-1.310891e-05
	0.0001339257	2.900817e-05	-0.02162316	-0.03973994	0.0001566209	0.0005748885	0.004872135	0.008174991
	0.005097127	0.008003377	0.0001566209	0.0005748885	-0.02080063	-0.0400466	0.0001341215	2.949019e-05
	7.567609e-05	-1.310891e-05	0.004872135	0.008174991	0.0001341215	2.949019e-05	-0.02165096	-0.03954712
2.3e+08	-0.03458053	-0.05209225	0.000137081	9.044021e-06	0.007315599	0.00874304	7.189419e-05	-2.32409e-05
	0.000137081	9.044021e-06	-0.03553922	-0.05129136	0.0002066647	0.0005644268	0.007029782	0.009024182
	0.007315599	0.00874304	0.0002066647	0.0005644268	-0.03448739	-0.05190937	0.0001373768	9.656507e-06
	7.189419e-05	-2.32409e-05	0.007029782	0.009024182	0.0001373768	9.656507e-06	-0.03559386	-0.05106131
2.4e+08	-0.05141748	-0.05899012	0.0001369932	-1.175887e-05	0.009611861	0.008716588	6.685452e-05	-3.262782e-05
	0.0001369932	-1.175887e-05	-0.05250664	-0.05780405	0.0002599378	0.0005647021	0.009296983	0.00912679
	0.009611861	0.008716588	0.0002599378	0.0005647021	-0.05131896	-0.05880681	0.0001374831	-1.104518e-05
	6.685452e-05	-3.262782e-05	0.009296983	0.00912679	0.0001374831	-1.104518e-05	-0.05257944	-0.05752745
2.5e+08	-0.06962804	-0.06021424	0.0001332899	-3.263481e-05	0.01172915	0.007952034	6.067789e-05	-4.113612e-05
	0.0001332899	-3.263481e-05	-0.0707346	-0.05860402	0.0003268052	0.0005715868	0.01142293	0.008499813
	0.01172915	0.007952034	0.0003268052	0.0005715868	-0.06952691	-0.06003131	0.0001340522	-3.189809e-05
	6.067789e-05	-4.113612e-05	0.01142293	0.008499813	0.0001340522	-3.189809e-05	-0.07081381	-0.05827468
2.6e+08	-0.08733553	-0.05566454	0.0001259077	-5.268231e-05	0.01344119	0.006559293	5.348989e-05	-4.864497e-05
	0.0001259077	-5.268231e-05	-0.08833627	-0.05363013	0.00041429	0.0005756447	0.01318343	0.007240395
	0.01344119	0.006559293	0.00041429	0.0005756447	-0.08723455	-0.0554817	0.000126982	-5.203877e-05
	5.348989e-05	-4.864497e-05	0.01318343	0.007240395	0.000126982	-5.203877e-05	-0.08840826	-0.0532459
2.7e+08	-0.102754	-0.04583572	0.0001151123	-7.102086e-05	0.01457567	0.004711436	4.542447e-05	-5.504249e-05
	0.0001151123	-7.102086e-05	-0.1035289	-0.04341805	0.0005239091	0.0005643958	0.01440388	0.005508473
	0.01457567	0.004711436	0.0005239091	0.0005643958	-0.1026555	-0.04565174	0.0001164836	-7.060385e-05
	4.542447e-05	-5.504249e-05	0.01440388	0.005508473	0.0001164836	-7.060385e-05	-0.1035796	-0.04298145
2.8e+08	-0.1143646	-0.03174536	0.000101443	-8.692405e-05	0.01502811	0.002621136	3.662896e-05	-6.022659e-05
	0.000101443	-8.692405e-05	-0.1148106	-0.02902385	0.0006508535	0.0005252376	0.01497317	0.003504702
	0.01502811	0.002621136	0.0006508535	0.0005252376	-0.1142702	-0.03155833	0.0001030375	-8.685772e-05
	3.662896e-05	-6.022659e-05	0.01497317	0.003504702	0.0001030375	-8.685772e-05	-0.1148269	-0.02854204
2.9e+08	-0.121055	-0.01481605	8.56134e-05	-9.990076e-05	0.01476657	0.0005166017	2.726631e-05	-6.41091e-05
	8.56134e-05	-9.990076e-05	-0.1210976	-0.01190188	0.0007845708	0.0004483595	0.0148489	0.001447819
	0.01476657	0.0005166017	0.0007845708	0.0004483595	-0.1209655	-0.01462367	8.730628e-05	-0.000100274
	2.726631e-05	-6.41091e-05	0.0148489	0.001447819	8.730628e-05	-0.000100274	-0.1210694	-0.01138618
3e+08	-0.1222131	0.003272579	6.840266e-05	-0.0001097226	0.01382927	-0.001380176	1.751458e-05	-6.662078e-05
	6.840266e-05	-0.0001097226	-0.1218161	0.006246861	0.0009105479	0.0003290532	0.01405599	-0.0004459156
	0.01382927	-0.001380176	0.0009105479	0.0003290532	-0.1221284	0.003472628	7.003752e-05	-0.0001105687
	1.751458e-05	-6.662078e-05	0.01405599	-0.0004459156	7.003752e-05	-0.0001105687	-0.1217371	0.006781998
3.1e+08	-0.1177726	0.02074707	5.053425e-05	-0.0001163404	0.01231755	-0.002871788	7.5653e-06	-6.771613e-05
	5.053425e-05	-0.0001163404	-0.1169442	0.02364058	0.001010609	0.0001613167	0.01268095	-0.001980266
	0.01231755	-0.002871788	0.001010609	0.0001613167	-0.117692	0.02095692	5.194805e-05	-0.0001176276
	7.5653e-06	-6.771613e-05	0.01268095	-0.001980266	5.194805e-05	-0.0001176276	-0.116813	0.02417896
3.2e+08	-0.1082116	0.03590593	3.26676e-05	-0.0001198839	0.01038579	-0.003800597	-2.381842e-06	-6.737678e-05
	3.26676e-05	-0.0001198839	-0.1070055	0.03858396	0.001063255	-5.254441e-05	0.01086337	-0.002993861
	0.01038579	-0.003800597	0.001063255	-5.254441e-05	-0.1081336	0.0361273	3.371889e-05	-0.0001215169
	-2.381842e-06	-6.737678e-05	0.01086337	-0.002993861	3.371889e-05	-0.0001215169	-0.1068261	0.03910932
3.3e+08	-0.09450522	0.04727709	1.535633e-05	-0.000120865	0.008228939	-0.004061392	-1.212587e-05	-6.560904e-05
	1.535633e-05	-0.000120865	-0.09301777	0.04962573	0.001060793	-0.000281557	0.008785078	-0.003373007
	0.008228939	-0.004061392	0.001060793	-0.000281557	-0.09442775	0.04751112	1.595637e-05	-0.0001226999
	-1.212587e-05	-6.560904e-05	0.008785078	-0.003373007	1.595637e-05	-0.0001226999	-0.0927994	0.05012359
3.4e+08	-0.07803639	0.05375701	-1.126372e-06	-0.0001197472	0.006067393	-0.003611711	-2.146046e-05	-6.244567e-05
	-1.126372e-06	-0.0001197472	-0.07639869	0.05569647	0.0009996691	-0.0005077014	0.006656459	-0.003062706
	0.006067393	-0.003611711	0.0009996691	-0.0005077014	-0.07795722	0.05400406	-9.997014e-07	-0.0001216187
	-2.146046e-05	-6.244567e-05	0.006656459	-0.003062706	-9.997014e-07	-0.0001216187	-0.07615519	0.05615583
3.5e+08	-0.06046861	0.05472055	-1.673334e-05	-0.0001169691	0.004128507	-0.002479082	-3.017912e-05	-5.79528e-05
	-1.673334e-05	-0.0001169691	-0.05883479	0.05621589	0.0008833701	-0.000712712	0.004699246	-0.002075026
	0.004128507	-0.002479082	0.0008833701	-0.000712712	-0.0603854	0.0549802	-1.703297e-05	-0.0001187231
	-3.017912e-05	-5.79528e-05	0.004699246	-0.002075026	-1.703297e-05	-0.0001187231	-0.05858318	0.05663052
3.6e+08	-0.04358802	0.05009103	-3.160557e-05	-0.0001128371	0.002624712	-0.0007633257	-3.807988e-05	-5.223072e-05
	-3.160557e-05	-0.0001128371	-0.04211991	0.05115877	0.0007219201	-0.0008810615	0.003125452	-0.0004929248
	0.002624712	-0.0007633257	0.0007219201	-0.0008810615	-0.04349861	0.05036206	-3.222727e-05	-0.0001143606
	-3.807988e-05	-5.223072e-05	0.003125452	-0.0004929248	-3.222727e-05	-0.0001143606	-0.04187881	0.05152817
3.7e+08	-0.02912591	0.04035984	-4.597819e-05	-0.0001074412	0.00172952	0.00136839	-4.497256e-05	-4.541704e-05
	-4.597819e-05	-0.0001074412	-0.02797585	0.04106936	0.0005301239	-0.00100245	0.002113687	0.00153297
	0.00172952	0.00136839	0.0005301239	-0.00100245	-0.02902864	0.04064027	-4.678633e-05	-0.0001086838
	-4.497256e-05	-4.541704e-05	0.002113687	0.00153297	-4.678633e-05	-0.0001086838	-0.02776355	0.04139914
3.8e+08	-0.01857814	0.02654793	-6.004417e-05	-0.0001006268	0.001554381	0.003695617	-5.068983e-05	-3.768776e-05
	-6.004417e-05	-0.0001006268	-0.0178716	0.02701703	0.0003248343	-0.001073279	0.001785764	0.003796625
	0.001554381	0.003695617	0.0003248343	-0.001073279	-0.01847214	0.02683516	-6.090548e-05	-0.0001016085
	-5.068983e-05	-3.768776e-05	0.001785764	0.003796625	-6.090548e-05	-0.0001016085	-0.01770408	0.02731862
3.9e+08	-0.01304182	0.01010774	-7.381128e-05	-9.204881e-05	0.00213069	0.005967993	-5.50993e-05	-2.925255e-05
	-7.381128e-05	-9.204881e-05	-0.01286187	0.01049236	0.0001218168	-0.001096714	0.00218787	0.006058296
	0.00213069	0.005967993	0.0001218168	-0.001096714	-0.01292724	0.01039888	-7.462896e-05	-9.284971e-05
	-5.50993e-05	-2.925255e-05	0.00218787	0.006058296	-7.462896e-05	-9.284971e-05	-0.01275097	0.01078212
4e+08	-0.01309101	-0.007227656	-8.70032e-05	-8.130294e-05	0.00340142	0.007935635	-5.811329e-05	-2.034432e-05
	-8.70032e-05	-8.130294e-05	-0.0134668	-0.006748738	-6.705846e-05	-0.001081276	0.003280825	0.008073572
	0.00340142	0.007935635	-6.705846e-05	-0.001081276	-0.01296916	-0.006935356	-8.774242e-05	-8.203754e-05
	-5.811329e-05	-2.034432e-05	0.003280825	0.008073572	-8.774242e-05	-8.203754e-05	-0.01341869	-0.00645101
4.1e+08	-0.01871013	-0.02363193	-9.904889e-05	-6.810186e-05	0.005225472	0.009381894	-5.969348e-05	-1.120551e-05
	-9.904889e-05	-6.810186e-05	-0.01961096	-0.02287594	-0.0002356085	-0.001038275	0.004942651	0.009625257
	0.005225472	0.009381894	-0.0002356085	-0.001038275	-0.01858338	-0.02334061	-9.974673e-05	-6.888309e-05
	-5.969348e-05	-1.120551e-05	0.004942651	0.009625257	-9.974673e-05	-6.888309e-05	-0.01962519	-0.02254897
4.2e+08	-0.02929616	-0.03738596	-0.0001091741	-5.243437e-05	0.00739511	0.0101524	-5.984932e-05	-2.074229e-06
	-0.0001091741	-5.243437e-05	-0.03063228	-0.0361863	-0.0003836548	-0.0009787413	0.006983973	0.01055216
	0.00739511	0.0101524	-0.0003836548	-0.0009787413	-0.02916769	-0.03709671	-0.0001099304	-5.333664e-05
	-5.984932e-05	-2.074229e-06	0.006983973	0.01055216	-0.0001099304	-5.333664e-05	-0.03070148	-0.03580953
4.3e+08	-0.04373003	-0.04706468	-0.0001165691	-3.465127e-05	0.009663658	0.01017476	-5.863197e-05	6.826414e-06
	-0.0001165691	-3.465127e-05	-0.04536025	-0.04528991	-0.0005158152	-0.0009106489	0.009173649	0.01076928
	0.009663658	0.01017476	-0.0005158152	-0.0009106489	-0.0436033	-0.04677725	-0.0001175199	-3.568218e-05
	-5.863197e-05	6.826414e-06	0.009173649	0.01076928	-0.0001175199	-3.568218e-05	-0.04547058	-0.04484578
4.4e+08	-0.06050644	-0.05168581	-0.0001205766	-1.544727e-05	0.01177815	0.009465524	-5.612636e-05	1.529478e-05
	-0.0001205766	-1.544727e-05	-0.06225187	-0.04925527	-0.0006391476	-0.0008371509	0.01126958	0.0102758
	0.01177815	0.009465524	-0.0006391476	-0.0008371509	-0.06038464	-0.05139856	-0.0001218565	-1.653544e-05
	-5.612636e-05	1.529478e-05	0.01126958	0.0102758	-0.0001218565	-1.653544e-05	-0.06238419	-0.04873122
4.5e+08	-0.07790285	-0.05080332	-0.0001208384	4.250653e-06	0.01351083	0.008123891	-5.244401e-05	2.315398e-05
	-0.0001208384	4.250653e-06	-0.07956512	-0.0476973	-0.0007603089	-0.000756219	0.01304881	0.009150671
	0.01351083	0.008123891	-0.0007603089	-0.000756219	-0.07778833	-0.05051345	-0.0001225413	3.248109e-06
	-5.244401e-05	2.315398e-05	0.01304881	0.009150671	-0.0001225413	3.248109e-06	-0.07969678	-0.04708737
4.6e+08	-0.09416428	-0.04453802	-0.0001173612	2.344645e-05	0.01468426	0.006315007	-4.771688e-05	3.025353e-05
	-0.0001173612	2.344645e-05	-0.09554618	-0.04080147	-0.0008829824	-0.0006616944	0.01433187	0.007537912
	0.01468426	0.006315007	-0.0008829824	-0.0006616944	-0.0940582	-0.04424197	-0.0001195084	2.27184e-05
	-4.771688e-05	3.025353e-05	0.01433187	0.007537912	-0.0001195084	2.27184e-05	-0.09565332	-0.04010722
4.7e+08	-0.1076815	-0.0335473	-0.0001104947	4.12372e-05	0.01518728	0.004246991	-4.209177e-05	3.647052e-05
	-0.0001104947	4.12372e-05	-0.1086077	-0.02928668	-0.001006182	-0.0005453985	0.01499877	0.005625985
	0.01518728	0.004246991	-0.001006182	-0.0005453985	-0.1075836	-0.03324129	-0.0001130184	4.098065e-05
	-4.209177e-05	3.647052e-05	0.01499877	0.005625985	-0.0001130184	4.098065e-05	-0.1086677	-0.02851732
