!$
! Info: Touchstone file created by Circ.  Input file=Tx_14in_Rx_93ohms_TxVia_35mils_RxVia_45mils.circ
!$
# Hz S RI R 50
0	0.01280881	1.741315e-25	0.9870504	-1.80012e-25	9.316149e-05	2.440176e-23	-9.124009e-05	2.044311e-21
	0.9870504	-1.834912e-25	0.01280766	2.040498e-25	-9.16082e-05	2.089497e-21	9.357897e-05	2.900741e-23
	9.132153e-05	2.505825e-23	-9.173419e-05	2.105074e-21	0.01282112	1.659837e-25	0.9870347	-1.70843e-25
	-9.161645e-05	2.090549e-21	9.173037e-05	2.915015e-23	0.9870347	-1.705088e-25	0.01282072	1.911957e-25
1e+07	0.01853869	-0.002130086	0.9699228	-0.1454919	0.0005588252	0.002532548	-0.0001764887	-5.723811e-05
	0.9699228	-0.1454919	0.0185267	-0.002129879	-0.0001765027	-5.721794e-05	0.000554003	0.002534215
	0.0005587645	0.002532551	-0.0001765589	-5.720252e-05	0.01817224	-0.0021192	0.9702735	-0.1456212
	-0.000176545	-5.722269e-05	0.000553942	0.002534224	0.9702735	-0.1456212	0.01815834	-0.002118349
2e+07	0.02073811	-0.009100201	0.9344851	-0.2822113	0.001552292	0.004906199	-7.977329e-05	-0.0002003099
	0.9344851	-0.2822113	0.02069241	-0.009090168	-7.98168e-05	-0.0002002735	0.001534362	0.004913957
	0.001552279	0.004906237	-7.982224e-05	-0.0002002309	0.02047743	-0.008962633	0.9346823	-0.2825803
	-7.978052e-05	-0.000200266	0.001534354	0.004913992	0.9346823	-0.2825803	0.02042475	-0.00894964
3e+07	0.0196282	-0.01730125	0.8815316	-0.4107352	0.00321289	0.006751649	-5.51348e-05	-0.0002619468
	0.8815316	-0.4107352	0.01953248	-0.01726283	-5.522066e-05	-0.0002618323	0.003176081	0.006772905
	0.003212893	0.006751655	-5.521734e-05	-0.0002618266	0.01944682	-0.01714265	0.8815703	-0.4112263
	-5.513145e-05	-0.0002619407	0.003176081	0.00677291	0.8815703	-0.4112263	0.01933684	-0.01709605
4e+07	0.01584301	-0.02506534	0.8118213	-0.5296657	0.005343485	0.007980252	-7.801202e-05	-0.0003109815
	0.8118213	-0.5296657	0.01568923	-0.02497452	-7.809655e-05	-0.0003107524	0.005285357	0.008024393
	0.00534348	0.007980248	-7.810402e-05	-0.0003107545	0.01572171	-0.02491725	0.8116909	-0.5302278
	-7.801996e-05	-0.0003109841	0.005285351	0.00802439	0.8116909	-0.5302278	0.01554548	-0.02480945
5e+07	0.009905717	-0.03156653	0.726724	-0.6370222	0.007683845	0.008544566	-9.749717e-05	-0.0003971918
	0.726724	-0.6370222	0.0096957	-0.03139655	-9.752935e-05	-0.0003968314	0.007605885	0.008621728
	0.00768384	0.008544565	-9.753463e-05	-0.0003968306	0.009825715	-0.03144547	0.7264178	-0.6376117
	-9.750285e-05	-0.000397191	0.007605881	0.008621727	0.7264178	-0.6376117	0.009585557	-0.03124581
6e+07	0.00239975	-0.03625342	0.6279763	-0.7309231	0.01003965	0.008421425	-0.000147443	-0.0005223636
	0.6279763	-0.7309231	0.002145936	-0.03597873	-0.0001473567	-0.0005218759	0.009947332	0.008540982
	0.01003966	0.008421425	-0.0001473527	-0.0005218782	0.002342657	-0.03616722	0.6274935	-0.7314989
	-0.0001474386	-0.0005223661	0.009947334	0.008540981	0.6274935	-0.7314989	0.002053116	-0.03584651
7e+07	-0.006031801	-0.03879041	0.5175945	-0.8097171	0.01221813	0.007642118	-0.0002565173	-0.0006704837
	0.5175945	-0.8097171	-0.006307334	-0.03839061	-0.0002562422	-0.0006699077	0.01212046	0.007811301
	0.01221814	0.007642115	-0.0002562326	-0.0006699188	-0.006083217	-0.03874043	0.5169406	-0.8102396
	-0.0002565067	-0.0006704958	0.01212047	0.007811298	0.5169406	-0.8102396	-0.006396582	-0.03827548
8e+07	-0.01471954	-0.03904386	0.3978102	-0.8720436	0.0140443	0.006289974	-0.0004424162	-0.0008127178
	0.3978102	-0.8720436	-0.0149874	-0.03850692	-0.000441899	-0.0008121294	0.01395295	0.006512707
	0.01404432	0.006289967	-0.000441891	-0.0008121472	-0.01478052	-0.03902634	0.3969982	-0.8724749
	-0.0004424074	-0.0008127373	0.01395296	0.0065127	0.3969982	-0.8724749	-0.01508383	-0.03840361
9e+07	-0.02300892	-0.03707073	0.2710096	-0.9168661	0.01537499	0.004492888	-0.0007080093	-0.000913547
	0.2710096	-0.9168661	-0.02323554	-0.03639515	-0.0007072323	-0.0009130484	0.01530312	0.00476894
	0.015375	0.00449288	-0.0007072298	-0.0009130638	-0.02309229	-0.03707804	0.2700601	-0.9171712
	-0.0007080066	-0.0009135639	0.01530313	0.004768934	0.2700601	-0.9171712	-0.02334696	-0.03629614
1e+08	-0.03028279	-0.03309742	0.1396458	-0.9434915	0.01610928	0.002411548	-0.001039338	-0.0009371883
	0.1396458	-0.9434915	-0.03043407	-0.03229341	-0.001038329	-0.0009368893	0.01607009	0.00273609
	0.01610928	0.002411548	-0.001038329	-0.0009368893	-0.03040167	-0.03311974	0.1385924	-0.9436393
	-0.001039338	-0.0009371883	0.01607009	0.00273609	0.1385924	-0.9436393	-0.03056864	-0.0321907
1.1e+08	-0.03610139	-0.02763816	0.006345512	-0.9513736	0.01619538	0.0002330521	-0.001408725	-0.0008606151
	0.006345512	-0.9513736	-0.03614669	-0.02672961	-0.001407546	-0.0008606124	0.0162006	0.0005963245
	0.01619538	0.0002330521	-0.001407546	-0.0008606124	-0.03625851	-0.02764832	0.005217751	-0.9513669
	-0.001408725	-0.0008606151	0.0162006	0.0005963245	0.005217751	-0.9513669	-0.03630225	-0.0265987
1.2e+08	-0.04019357	-0.02102558	-0.1262019	-0.9407037	0.01564263	-0.001859084	-0.001785135	-0.0006642841
	-0.1262019	-0.9407037	-0.04011044	-0.02004333	-0.001783917	-0.000664635	0.01570056	-0.001470307
	0.01564263	-0.001859084	-0.001783917	-0.000664635	-0.0403766	-0.02101172	-0.1273898	-0.9405245
	-0.001785135	-0.0006642842	0.01570056	-0.001470307	-0.1273898	-0.9405245	-0.04027095	-0.01987822
1.3e+08	-0.04230286	-0.01379118	-0.2555325	-0.9118576	0.01450504	-0.003690863	-0.002125437	-0.0003443846
	-0.2555325	-0.9118576	-0.04207802	-0.01277408	-0.002124321	-0.0003450831	0.01461974	-0.003292643
	0.01450504	-0.003690863	-0.002124321	-0.0003450831	-0.04250122	-0.01374587	-0.2567557	-0.9114892
	-0.002125437	-0.0003443847	0.01461974	-0.003292643	-0.2567557	-0.9114892	-0.04223142	-0.01257419
1.4e+08	-0.04236066	-0.0065077	-0.3792311	-0.865522	0.01288283	-0.005110973	-0.002388207	8.619442e-05
	-0.3792311	-0.865522	-0.04199313	-0.005499655	-0.002387317	8.521364e-05	0.01305321	-0.004720789
	0.01288283	-0.005110973	-0.002387317	8.521361e-05	-0.04256303	-0.006427211	-0.3804602	-0.8649516
	-0.002388207	8.61944e-05	0.01305321	-0.004720789	-0.3804602	-0.8649516	-0.0421289	-0.00526832
1.5e+08	-0.04046239	0.0002645634	-0.4950003	-0.8026884	0.01091344	-0.006002763	-0.00253921	0.0006002407
	-0.4950003	-0.8026884	-0.03996534	0.001218757	-0.002538631	0.0005990887	0.01113285	-0.005637837
	0.01091344	-0.006002763	-0.002538631	0.0005990887	-0.04065743	0.0003803409	-0.4962026	-0.8019081
	-0.00253921	0.0006002407	0.01113285	-0.005637837	-0.4962026	-0.8019081	-0.0400751	0.001474996
1.6e+08	-0.03685238	0.006020823	-0.6006979	-0.7246369	0.00876043	-0.006292807	-0.002556142	0.001160248
	-0.6006979	-0.7246369	-0.03625345	0.006880226	-0.002555902	0.001159061	0.009016754	-0.005968308
	0.00876043	-0.006292807	-0.002555902	0.001159061	-0.03702958	0.006168659	-0.6018384	-0.723644
	-0.002556142	0.001160248	0.009016754	-0.005968308	-0.6018384	-0.723644	-0.03633166	0.007152477
1.7e+08	-0.03190044	0.01034871	-0.6943708	-0.6329152	0.006600585	-0.005956138	-0.002431367	0.001723866
	-0.6943708	-0.6329152	-0.03124038	0.01108095	-0.002431433	0.00172278	0.006876953	-0.005683483
	0.006600585	-0.005956138	-0.002431433	0.001722779	-0.0320509	0.01052252	-0.6954136	-0.6317128
	-0.002431367	0.001723866	0.006876953	-0.005683483	-0.6954136	-0.6317128	-0.03128476	0.011359
1.8e+08	-0.02607035	0.01295724	-0.7742876	-0.5293157	0.004610197	-0.005017917	-0.002172285	0.002249865
	-0.7742876	-0.5293157	-0.02540017	0.0135427	-0.002172569	0.002248987	0.004886205	-0.00480331
	0.004610197	-0.005017917	-0.002172569	0.002248987	-0.02618738	0.01314872	-0.7751963	-0.5279129
	-0.002172285	0.002249865	0.004886205	-0.00480331	-0.7751963	-0.5279129	-0.0254119	0.01381609
1.9e+08	-0.01988256	0.01369628	-0.8389691	-0.4158484	0.002951338	-0.003551401	-0.00179934	0.002703626
	-0.8389691	-0.4158484	-0.01925939	0.01413118	-0.00179971	0.002703013	0.003204692	-0.003394789
	0.002951338	-0.003551401	-0.00179971	0.002703013	-0.01996213	0.01389561	-0.8397079	-0.4142601
	-0.00179934	0.002703626	0.003204692	-0.003394789	-0.8397079	-0.4142601	-0.01924294	0.01439028
2e+08	-0.01387336	0.01256527	-0.8872175	-0.2947091	0.001759085	-0.00167227	-0.001342076	0.003061279
	-0.8872175	-0.2947091	-0.01335542	0.01286343	-0.001342387	0.003060924	0.00196754	-0.001566825
	0.001759085	-0.00167227	-0.001342387	0.003060924	-0.01391431	0.01276183	-0.8877523	-0.2929564
	-0.001342076	0.003061279	0.00196754	-0.001566825	-0.8877523	-0.2929564	-0.01331809	0.01310037
2.1e+08	-0.008553429	0.009710617	-0.9181424	-0.1682433	0.001130639	0.0004703915	-0.0008339937	0.003311843
	-0.9181424	-0.1682433	-0.00819458	0.009903585	-0.000834115	0.00331167	0.001274061	0.0005381919
	0.001130639	0.0004703915	-0.000834115	0.00331167	-0.008557582	0.009893807	-0.9184418	-0.1663531
	-0.0008339938	0.003311843	0.001274061	0.0005381919	-0.9184418	-0.1663531	-0.008145855	0.01011302
2.2e+08	-0.004368944	0.005412072	-0.9311841	-0.03890425	0.001117252	0.00270593	-0.0003071036	0.003457075
	-0.9311841	-0.03890425	-0.004213296	0.005547584	-0.0003069492	0.003456948	0.001179615	0.002755599
	0.001117252	0.00270593	-0.0003069492	0.003456948	-0.004340991	0.005572052	-0.9312199	-0.03690914
	-0.0003071036	0.003457075	0.001179615	0.002755599	-0.9312199	-0.03690914	-0.004163958	0.005727227
2.3e+08	-0.001667907	5.900227e-05	-0.9261292	0.09079396	0.001719734	0.004855929	0.0002128409	0.003509129
	-0.9261292	0.09079396	-0.00174503	0.0001978155	0.0002132877	0.00350888	0.00169088	0.004911676
	0.001719734	0.004855929	0.0002132877	0.00350888	-0.001615133	0.0001874342	-0.925878	0.09285617
	0.0002128409	0.003509129	0.00169088	0.004911676	-0.925878	0.09285617	-0.001706215	0.0003486805
2.4e+08	-0.0006745034	-0.00588153	-0.9031205	0.2183268	0.002888087	0.006748916	0.0007096114	0.003486535
	-0.9031205	0.2183268	-0.0009956853	-0.00567019	0.0007102863	0.003485994	0.002765065	0.006837847
	0.002888087	0.006748916	0.0007102863	0.003485994	-0.0006063311	-0.005790833	-0.9025643	0.2204137
	0.0007096114	0.003486535	0.002765065	0.006837847	-0.9025643	0.2204137	-0.0009778844	-0.005543808
2.5e+08	-0.001473345	-0.01190241	-0.8626579	0.3412129	0.004525435	0.008234706	0.001177718	0.003409274
	-0.8626579	0.3412129	-0.002029285	-0.01154644	0.001178479	0.003408307	0.004313288	0.008384652
	0.004525435	0.008234706	0.001178479	0.003408307	-0.001400714	-0.01185295	-0.8617851	0.3432782
	0.001177718	0.003409274	0.004313288	0.008384652	-0.8617851	0.3432782	-0.00204141	-0.01143728
2.6e+08	-0.004004819	-0.01749684	-0.8055894	0.4570674	0.006496044	0.009197066	0.001621406	0.003293912
	-0.8055894	0.4570674	-0.004765053	-0.01692744	0.001622052	0.003292451	0.006207936	0.009434209
	0.006496044	0.009197066	0.001622052	0.003292451	-0.00393946	-0.01748904	-0.8043956	0.4590619
	0.001621406	0.003293912	0.006207936	0.009434209	-0.8043956	0.4590619	-0.004813648	-0.01682582
2.7e+08	-0.008071956	-0.02219796	-0.7330934	0.5636543	0.008636766	0.009563521	0.00205168	0.00314971
	-0.7330934	0.5636543	-0.008986134	-0.02135586	0.002051986	0.003147779	0.008293405	0.009910015
	0.008636766	0.009563521	0.002051986	0.003147779	-0.008025472	-0.02222907	-0.7315819	0.5655272
	0.00205168	0.00314971	0.008293405	0.009910015	-0.7315819	0.5655272	-0.009074686	-0.0212505
2.8e+08	-0.01335777	-0.02561496	-0.6466512	0.6589342	0.01077088	0.009311333	0.002481978	0.002976452
	-0.6466512	0.6589342	-0.01435876	-0.02445614	0.002481733	0.002974173	0.01039924	0.009783131
	0.01077088	0.009311333	0.002481733	0.002974173	-0.0133408	-0.02567912	-0.6448337	0.6606344
	0.002481978	0.002976452	0.01039924	0.009783131	-0.6448337	0.6606344	-0.01448737	-0.0243351
2.9e+08	-0.01945181	-0.02746244	-0.5480124	0.7411066	0.01272301	0.008469133	0.002923349	0.002764383
	-0.5480124	0.7411066	-0.02046045	-0.02596286	0.0029224	0.002761964	0.01235445	0.009074224
	0.01272301	0.008469133	0.0029224	0.002761964	-0.01947323	-0.02755103	-0.545909	0.7425837
	0.002923349	0.002764383	0.01235445	0.009074224	-0.545909	0.7425837	-0.02062578	-0.02581455
3e+08	-0.02588357	-0.02758119	-0.439154	0.8086446	0.01433382	0.007114099	0.003380091	0.002496255
	-0.439154	0.8086446	-0.02681467	-0.02573995	0.003378374	0.002493962	0.01400166	0.007851327
	0.01433382	0.007114099	0.003378374	0.002493962	-0.02594973	-0.02768333	-0.436793	0.8098509
	0.003380091	0.002496255	0.01400166	0.007851327	-0.436793	0.8098509	-0.02701015	-0.0255541
3.1e+08	-0.03215977	-0.02594863	-0.3222352	0.8603217	0.01547303	0.005365037	0.003846672	0.002151082
	-0.3222352	0.8603217	-0.03292897	-0.02378939	0.003844235	0.002149196	0.0152099	0.006223654
	0.01547303	0.005365037	0.003844235	0.002149196	-0.03227396	-0.02605193	-0.319653	0.8612133
	0.003846672	0.002151082	0.0152099	0.006223654	-0.319653	0.8612133	-0.03314529	-0.02355795
3.2e+08	-0.03780274	-0.02267873	-0.1995505	0.8952302	0.0160498	0.003372113	0.004306547	0.001708892
	-0.1995505	0.8952302	-0.03833364	-0.02024903	0.004303547	0.001707663	0.01588479	0.00433213
	0.0160498	0.003372113	0.004303547	0.001707663	-0.03796484	-0.02277017	-0.1967908	0.8957686
	0.004306547	0.001708892	0.01588479	0.00433213	-0.1967908	0.8957686	-0.03855949	-0.01996686
3.3e+08	-0.04238689	-0.01801145	-0.07348199	0.9127918	0.01601957	0.001304247	0.004733094	0.001155593
	-0.07348199	0.9127918	-0.04261777	-0.01538002	0.00472978	0.001155197	0.01597565	0.0023376
	0.01601957	0.001304247	0.00472978	0.001155197	-0.04259326	-0.01807829	-0.07059505	0.9129448
	0.004733094	0.001155593	0.01597565	0.0023376	-0.07059505	0.9129448	-0.04284075	-0.01504538
3.4e+08	-0.0455705	-0.01229294	0.05354671	0.9127613	0.01538706	-0.0006647049	0.005092515	0.0004870786
	0.05354671	0.9127613	-0.04546021	-0.009545095	0.00508919	0.0004875824	0.01547882	0.000407762
	0.01538706	-0.0006647049	0.00508919	0.0004875824	-0.04581414	-0.0123237	0.05650514	0.9125043
	0.005092515	0.0004870786	0.01547882	0.000407762	0.05650514	0.9125043	-0.04566784	-0.009159838
3.5e+08	-0.04712083	-0.005948142	0.1791151	0.8952239	0.01420528	-0.002369819	0.005348229	-0.0002881787
	0.1791151	0.8952239	-0.04665316	-0.00317958	0.0053452	-0.0002868301	0.01443729	-0.001296087
	0.01420528	-0.002369819	0.0053452	-0.0002868301	-0.04739178	-0.005933452	0.1820851	0.8945406
	0.005348229	-0.0002881787	0.01443729	-0.001296087	0.1820851	0.8945406	-0.04683388	-0.002749042
3.6e+08	-0.04693066	0.0005520977	0.3008477	0.8605878	0.01257089	-0.003667989	0.005465983	-0.001148505
	0.3008477	0.8605878	-0.04611688	0.003242603	0.005463515	-0.001146484	0.01293684	-0.002631511
	0.01257089	-0.003667989	0.005463515	-0.001146484	-0.04721667	0.0006187085	0.3037666	0.8594711
	0.005465983	-0.001148505	0.01293684	-0.002631511	0.3037666	0.8594711	-0.04626105	0.003709986
3.7e+08	-0.04502548	0.006726845	0.4164538	0.8095732	0.01061626	-0.004448923	0.005418865	-0.002060502
	0.4164538	0.8095732	-0.04390472	0.009245353	0.00541713	-0.002058069	0.01109899	-0.003485751
	0.01061626	-0.004448923	0.00541713	-0.002058069	-0.04531279	0.006848403	0.4192572	0.8080254
	0.005418865	-0.002060502	0.01109899	-0.003485751	0.4192572	0.8080254	-0.04400542	0.009738689
3.8e+08	-0.04156075	0.01212134	0.5237646	0.7431974	0.008499024	-0.004643546	0.005191343	-0.002982388
	0.5237646	0.7431974	-0.04019814	0.01438659	0.005190395	-0.002979851	0.009071441	-0.003784206
	0.008499024	-0.004643546	0.005190395	-0.002979851	-0.04183507	0.0122971	0.5263883	0.7412302
	0.005191343	-0.002982388	0.009071441	-0.003784206	0.5263883	0.7412302	-0.04025174	0.01489339
3.9e+08	-0.03680965	0.01634109	0.6207688	0.6627566	0.006389837	-0.004229284	0.004781704	-0.003868682
	0.6207688	0.6627566	-0.03529222	0.01829168	0.004781465	-0.003866338	0.007016681	-0.00349605
	0.006389837	-0.004229284	0.004781465	-0.003866338	-0.03705723	0.01656645	0.6231498	0.6603914
	0.004781704	-0.003868682	0.007016681	-0.00349605	0.6231498	0.6603914	-0.03529876	0.01879883
4e+08	-0.03114218	0.01908138	0.7056465	0.5698051	0.004459114	-0.003231903	0.00420248	-0.00467546
	0.7056465	0.5698051	-0.02957282	0.02068162	0.004202756	-0.004673544	0.005099482	-0.002636647
	0.004459114	-0.003231903	0.004202756	-0.004673544	-0.03135078	0.01934813	0.7077246	0.5670724
	0.00420248	-0.00467546	0.005099482	-0.002636647	0.7077246	0.5670724	-0.02953608	0.02117645
4.1e+08	-0.02499709	0.02015014	0.7768016	0.4661302	0.002863743	-0.001723735	0.003478796	-0.005365351
	0.7768016	0.4661302	-0.02348698	0.02139406	0.003479316	-0.005363992	0.003474155	-0.001266544
	0.002863743	-0.001723735	0.003479316	-0.005363992	-0.02515698	0.0204469	0.7785205	0.4630696
	0.003478796	-0.005365351	0.003474155	-0.001266544	0.7785205	0.4630696	-0.0234142	0.02186538
4.2e+08	-0.01884866	0.0194823	0.832892	0.3537234	0.001734649	0.0001816394	0.002644939	-0.00591146
	0.832892	0.3537234	-0.01750868	0.02039547	0.002645401	-0.005910652	0.002272433	0.0005129481
	0.001734649	0.0001816394	0.002645401	-0.005910652	-0.01895341	0.01979532	0.8342006	0.350383
	0.002644939	-0.00591146	0.002272433	0.0005129481	0.8342006	0.350383	-0.01741003	0.02083451
4.3e+08	-0.01317074	0.01714477	0.8728576	0.234747	0.001166142	0.002337986	0.001739701	-0.006299602
	0.8728576	0.234747	-0.01210252	0.01778361	0.001739835	-0.006299207	0.001592876	0.002567382
	0.001166142	0.002337986	0.001739835	-0.006299207	-0.01321783	0.01745883	0.8737113	0.2311825
	0.001739701	-0.006299602	0.001592876	0.002567381	0.8737113	0.2311825	-0.01199037	0.01818475
4.4e+08	-0.008400722	0.0133313	0.8959443	0.1114954	0.001207939	0.004577763	0.0008013054	-0.006528495
	0.8959443	0.1114954	-0.007688092	0.01377987	0.0008009293	-0.006528262	0.00149268	0.004739562
	0.001207939	0.004577763	0.0008009293	-0.006528262	-0.008391818	0.01363084	0.8963059	0.1077696
	0.0008013054	-0.006528495	0.00149268	0.004739562	0.8963059	0.1077696	-0.007576025	0.0141412
4.5e+08	-0.004906173	0.008347741	0.9017236	-0.01364726	0.001860589	0.00672544	-0.0001372291	-0.006607932
	0.9017236	-0.01364726	-0.004607691	0.008712157	-0.0001381681	-0.006607545	0.001982631	0.006861988
	0.001860589	0.00672544	-0.0001381681	-0.006607545	-0.004847184	0.008618016	0.9015648	-0.01746584
	-0.0001372291	-0.006607932	0.001982631	0.006861988	0.9015648	-0.01746584	-0.004509414	0.009035667
4.6e+08	-0.002956796	0.002588573	0.8901056	-0.138255	0.003074854	0.008611759	-0.001051498	-0.006555286
	0.8901056	-0.138255	-0.003100001	0.002989409	-0.001052904	-0.006554425	0.003025771	0.008770397
	0.003074854	0.008611759	-0.001052904	-0.006554425	-0.002857467	0.002816812	0.8894074	-0.1420927
	-0.001051498	-0.006555286	0.003025771	0.008770397	0.8894074	-0.1420927	-0.003028181	0.003280948
4.7e+08	-0.002703888	-0.003493359	0.8613442	-0.2599095	0.004755228	0.01008777	-0.001927334	-0.006391018
	0.8613442	-0.2599095	-0.003281851	-0.002930153	-0.001928969	-0.006389424	0.004540031	0.01031728
	0.004755228	0.01008777	-0.001928969	-0.006389424	-0.002577298	-0.003316959	0.8600982	-0.2636891
	-0.001927334	-0.006391018	0.004540031	0.01031728	0.8600982	-0.2636891	-0.003247177	-0.002661317
4.8e+08	-0.004168992	-0.009421668	0.8160345	-0.3762512	0.006767462	0.01103739	-0.002760365	-0.006134011
	0.8160345	-0.3762512	-0.005139531	-0.008574621	-0.002761887	-0.006131541	0.00640473	0.01138421
	0.006767462	0.01103739	-0.002761887	-0.006131541	-0.004030597	-0.00930307	0.8142433	-0.3798935
	-0.002760365	-0.006134011	0.00640473	0.01138421	0.8142433	-0.3798935	-0.005149743	-0.00831645
4.9e+08	-0.007242638	-0.01473296	0.7551011	-0.4850307	0.008949499	0.0113873	-0.003553671	-0.005797619
	0.7551011	-0.4850307	-0.008530349	-0.01349494	-0.003554686	-0.005794288	0.008470441	0.01189171
	0.008949499	0.0113873	-0.003554686	-0.005794288	-0.007109144	-0.01467372	0.752779	-0.4884559
	-0.003553671	-0.005797619	0.008470441	0.01189171	0.752779	-0.4884559	-0.008589536	-0.01323355
5e+08	-0.01169323	-0.01901219	0.6797774	-0.5841568	0.0111249	0.0111132	-0.004313999	-0.005387166
	0.6797774	-0.5841568	-0.01319429	-0.01729949	-0.004314135	-0.005383153	0.01057137	0.01180597
	0.0111249	0.0111132	-0.004314135	-0.005383153	-0.01158133	-0.01900924	0.6769506	-0.5872862
	-0.004313999	-0.005387166	0.01057137	0.01180597	0.6769506	-0.5872862	-0.01330246	-0.01702023
5.1e+08	-0.01718531	-0.02192411	0.5915775	-0.6717402	0.01311752	0.01024196	-0.005047293	-0.004899348
