!$
! Info: Touchstone file created by Circ.  Input file=Tx_14in_Rx_100ohms_TxVia_35mils_RxVia_45mils.circ
!$
# Hz S RI R 50
0	0.01447118	1.702145e-25	-7.479337e-05	3.735035e-24	9.404758e-05	2.715059e-23	-7.480501e-05	5.255216e-24
	-7.479339e-05	3.737715e-24	0.01446883	2.0371e-25	-7.477301e-05	1.427145e-24	9.342058e-05	3.278612e-23
	9.455508e-05	2.753022e-23	-7.477297e-05	1.422496e-24	0.01448309	1.653589e-25	-7.479025e-05	3.642036e-24
	-7.480502e-05	5.257061e-24	9.157166e-05	3.294741e-23	-7.479028e-05	3.645851e-24	0.01448186	1.908796e-25
1e+07	0.02021781	0.008588017	-0.0001214318	-4.318222e-05	0.0005038823	0.002476086	-0.0003071157	0.0002053071
	-0.0001214318	-4.318221e-05	0.02159328	0.008174303	-4.399351e-05	-1.523784e-05	0.0009914475	0.002520185
	0.0005039117	0.002476081	-4.399351e-05	-1.523784e-05	0.02098327	0.008172573	-1.394127e-05	-1.723544e-05
	-0.0003071157	0.0002053071	0.0009913862	0.002520194	-1.394127e-05	-1.723544e-05	0.02139768	0.008214148
2e+07	0.02779282	0.01153391	-8.077836e-05	-9.705542e-05	0.001540899	0.004784442	-0.0003487392	0.0002235788
	-8.077836e-05	-9.705541e-05	0.02838403	0.01045902	-3.648498e-05	-1.512771e-05	0.001873935	0.005072908
	0.0015409	0.004784421	-3.648498e-05	-1.512771e-05	0.02792348	0.01067349	-1.260277e-05	4.519172e-06
	-0.0003487392	0.0002235788	0.001873925	0.005072943	-1.260277e-05	4.519169e-06	0.0282637	0.01059771
3e+07	0.03410255	0.01084169	-6.225781e-05	-0.0001141349	0.003144271	0.006647876	-0.0003682987	0.0002715696
	-6.225781e-05	-0.0001141349	0.03407351	0.009715496	-3.180851e-05	-1.497275e-05	0.003369158	0.00702858
	0.003144264	0.006647874	-3.180851e-05	-1.497275e-05	0.03376347	0.009989408	-1.531061e-05	5.280559e-06
	-0.0003682987	0.0002715696	0.003369158	0.007028586	-1.531061e-05	5.280559e-06	0.03401776	0.009886794
4e+07	0.03931276	0.008161207	-0.0001144131	-8.009657e-05	0.005171244	0.007964567	-0.0003730896	0.0003247817
	-0.0001144131	-8.009657e-05	0.03878946	0.007206687	-2.811837e-05	-1.442494e-05	0.005347128	0.008394387
	0.005171245	0.007964572	-2.811837e-05	-1.442494e-05	0.0386303	0.007474945	-1.903202e-05	6.080652e-06
	-0.0003730896	0.0003247817	0.005347122	0.008394385	-1.903202e-05	6.080653e-06	0.03879031	0.007386233
5e+07	0.04329276	0.004060474	-0.0001482049	-3.206382e-05	0.007449449	0.008649458	-0.0003653028	0.0003788033
	-0.0001482049	-3.206382e-05	0.04240306	0.003411547	-2.497404e-05	-1.397973e-05	0.007756772	0.008967995
	0.007449451	0.00864946	-2.497404e-05	-1.397973e-05	0.042387	0.003623417	-2.200441e-05	9.224854e-06
	-0.0003653028	0.0003788033	0.007756768	0.008967994	-2.20044e-05	9.224854e-06	0.04245097	0.003583374
6e+07	0.04589499	-0.001022079	-0.0001635063	2.389553e-05	0.009791361	0.00866557	-0.0003468296	0.0004305365
	-0.0001635063	2.389553e-05	0.04477499	-0.00128384	-2.214512e-05	-1.381458e-05	0.01016769	0.008856994
	0.00979136	0.008665569	-2.214512e-05	-1.381458e-05	0.04488046	-0.001173124	-2.356335e-05	1.402937e-05
	-0.0003468296	0.0004305365	0.01016769	0.008856993	-2.356335e-05	1.402937e-05	0.04485896	-0.001130538
7e+07	0.04701728	-0.006675223	-0.0001601041	8.279926e-05	0.0120185	0.00801194	-0.0003202885	0.0004774541
	-0.0001601041	8.279926e-05	0.04580557	-0.006513101	-2.097727e-05	-1.181426e-05	0.01239878	0.008094791
	0.01201849	0.008011939	-2.097727e-05	-1.181426e-05	0.04599959	-0.006538528	-2.318255e-05	1.971659e-05
	-0.0003202885	0.0004774541	0.01239879	0.008094788	-2.318255e-05	1.971659e-05	0.0459137	-0.006384876
8e+07	0.04662809	-0.01249738	-0.0001380028	0.000140166	0.01394066	0.006767015	-0.0002894304	0.0005178818
	-0.0001380028	0.000140166	0.04545927	-0.01191454	-2.201825e-05	-4.226513e-06	0.0142831	0.006760665
	0.01394065	0.006767016	-2.201825e-05	-4.226513e-06	0.04570066	-0.01209876	-2.068372e-05	2.540871e-05
	-0.0002894304	0.0005178818	0.01428311	0.006760659	-2.068372e-05	2.540871e-05	0.04557945	-0.01181409
9e+07	0.04477498	-0.01810341	-9.707217e-05	0.0001919137	0.01540638	0.005047723	-0.0002598051	0.0005513585
	-9.707217e-05	0.0001919137	0.04377577	-0.01713779	-2.064324e-05	3.147321e-06	0.01568003	0.004975053
	0.01540637	0.005047726	-2.064324e-05	3.14732e-06	0.04401848	-0.0174896	-1.634438e-05	3.028052e-05
	-0.0002598051	0.0005513585	0.01568004	0.004975047	-1.634438e-05	3.028052e-05	0.04389623	-0.01706437
1e+08	0.04157693	-0.02313963	-3.14462e-05	0.00023462	0.0163103	0.003003364	-0.0002473081	0.0005779416
	-3.14462e-05	0.00023462	0.04088791	-0.02185663	-1.598898e-05	9.897828e-06	0.01647864	0.002890301
	0.0163103	0.003003364	-1.598898e-05	9.897827e-06	0.0410829	-0.02237063	-1.087031e-05	3.371336e-05
	-0.0002473081	0.0005779416	0.01647864	0.002890301	-1.087031e-05	3.371336e-05	0.04099605	-0.02180657
1.1e+08	0.03726159	-0.02725934	3.643132e-05	0.000232581	0.01657423	0.0007826379	-0.0002299851	0.0005603272
	3.643132e-05	0.000232581	0.03692868	-0.02589664	-1.018405e-05	1.13639e-05	0.01664226	0.0007256981
	0.01657423	0.0007826378	-1.018405e-05	1.13639e-05	0.03703344	-0.02654096	-4.750339e-06	3.435595e-05
	-0.0002299851	0.0005603272	0.01664226	0.0007256982	-4.750339e-06	3.435595e-05	0.03701895	-0.02585516
1.2e+08	0.0321255	-0.03026222	5.075757e-05	0.0002211406	0.01617017	-0.001399985	-0.0002012117	0.0005469833
	5.075757e-05	0.0002211406	0.03207623	-0.02889463	-5.747453e-06	1.196401e-05	0.01619359	-0.001387101
	0.01617017	-0.001399985	-5.747453e-06	1.196401e-05	0.03206557	-0.02963653	1.573563e-06	3.295077e-05
	-0.0002012117	0.0005469833	0.01619359	-0.001387101	1.573563e-06	3.295077e-05	0.03215052	-0.02885559
1.3e+08	0.02646556	-0.03199066	6.697801e-05	0.0002087133	0.01514735	-0.003360337	-0.0001747578	0.0005357997
	6.697801e-05	0.0002087133	0.02665996	-0.03067372	-2.058381e-06	1.175818e-05	0.01515978	-0.003280214
	0.01514735	-0.003360337	-2.058381e-06	1.175818e-05	0.02651622	-0.03147316	7.041103e-06	2.973632e-05
	-0.0001747578	0.0005357997	0.01515978	-0.003280214	7.041103e-06	2.973632e-05	0.02671914	-0.03063188
1.4e+08	0.02061552	-0.03236595	8.291152e-05	0.0001948621	0.01359788	-0.004935713	-0.0001525267	0.0005283586
	8.291152e-05	0.0001948621	0.02101366	-0.03114616	1.053242e-06	1.095863e-05	0.01362361	-0.004800018
	0.01359788	-0.004935713	1.053242e-06	1.095863e-05	0.02073157	-0.03195809	1.09746e-05	2.523695e-05
	-0.0001525267	0.0005283586	0.01362361	-0.004800018	1.09746e-05	2.523695e-05	0.02105951	-0.03109698
1.5e+08	0.0149163	-0.03139491	9.74582e-05	0.0001798003	0.01165425	-0.005996163	-0.0001338573	0.000526658
	9.74582e-05	0.0001798003	0.0154737	-0.03031015	3.646255e-06	9.707922e-06	0.01170884	-0.005822308
	0.01165425	-0.005996163	3.646255e-06	9.707922e-06	0.01506219	-0.0310885	1.300405e-05	2.018793e-05
	-0.0001338573	0.000526658	0.01170884	-0.005822308	1.300405e-05	2.018793e-05	0.01550889	-0.03025006
1.6e+08	0.009693789	-0.02916878	0.0001100963	0.0001640246	0.009479033	-0.00645442	-0.0001165938	0.0005322458
	0.0001100963	0.0001640246	0.01036058	-0.0282471	5.747965e-06	8.118517e-06	0.009569303	-0.006262603
	0.009479033	-0.00645442	5.747965e-06	8.118517e-06	0.009842963	-0.02894925	1.310623e-05	1.540128e-05
	-0.0001165938	0.0005322458	0.009569303	-0.006262603	1.310623e-05	1.540128e-05	0.01038835	-0.02817362
1.7e+08	0.00523812	-0.02585663	0.0001207354	0.0001480983	0.007251896	-0.006272531	-9.76905e-05	0.0005457184
	0.0001207354	0.0001480983	0.005959976	-0.02511457	7.37675e-06	6.285518e-06	0.00737622	-0.006082921
	0.007251896	-0.006272531	7.37675e-06	6.285518e-06	0.005372716	-0.02570578	1.159844e-05	1.162007e-05
	-9.76905e-05	0.0005457184	0.00737622	-0.006082921	1.159844e-05	1.162007e-05	0.005983829	-0.02502633
1.8e+08	0.001785388	-0.02169361	0.0001296104	0.0001324899	0.005155072	-0.005464507	-7.377219e-05	0.0005664518
	0.0001296104	0.0001324899	0.002505556	-0.02113473	8.550328e-06	4.291099e-06	0.005304276	-0.005294681
	0.005155072	-0.005464507	8.550328e-06	4.291099e-06	0.001895632	-0.02159207	9.076764e-06	9.386339e-06
	-7.377219e-05	0.0005664518	0.005304276	-0.005294681	9.076764e-06	9.386339e-06	0.002529021	-0.02103143
1.9e+08	-0.0004971428	-0.01696485	0.000137167	0.0001174554	0.003358724	-0.004094762	-4.168556e-05	0.0005925551
	0.000137167	0.0001174554	0.0001650771	-0.01657883	8.807041e-06	3.050491e-06	0.003517584	-0.003957539
	0.003358724	-0.004094762	8.807041e-06	3.050491e-06	-0.0004138437	-0.01689426	6.313572e-06	8.938263e-06
	-4.168556e-05	0.0005925551	0.003517584	-0.003957539	6.313572e-06	8.938263e-06	0.000191418	-0.01646115
2e+08	-0.001521176	-0.0119861	0.0001439082	0.0001029988	0.002007378	-0.002272488	1.002954e-06	0.0006210292
	0.0001439082	0.0001029988	-0.0009693125	-0.01174869	8.661787e-06	2.46809e-06	0.002156612	-0.002174324
	0.002007378	-0.002272488	8.661787e-06	2.46809e-06	-0.001461528	-0.01193082	4.101153e-06	1.018353e-05
	1.002954e-06	0.0006210292	0.002156612	-0.002174324	4.101153e-06	1.018353e-05	-0.0009372962	-0.01161816
2.1e+08	-0.001282179	-0.007082398	0.0001502727	8.887463e-05	0.001208541	-0.000142456	5.562164e-05	0.000648099
	0.0001502727	8.887463e-05	-0.0008856863	-0.006956312	8.577162e-06	1.903127e-06	0.001327153	-8.25244e-05
	0.001208541	-0.000142456	8.577162e-06	1.903127e-06	-0.00123857	-0.007030799	3.122662e-06	1.271341e-05
	5.562164e-05	0.000648099	0.001327153	-8.252441e-05	3.122662e-06	1.271341e-05	-0.000845842	-0.006815106
2.2e+08	0.0001415592	-0.002566184	0.0001565271	7.463483e-05	0.001024452	0.002126948	0.000122168	0.0006696612
	0.0001565271	7.463483e-05	0.0003484064	-0.002503049	8.539111e-06	1.325669e-06	0.0010922	0.002156927
	0.001024452	0.002126948	8.539111e-06	1.325669e-06	0.0001793095	-0.00251136	3.835851e-06	1.586564e-05
	0.000122168	0.0006696612	0.0010922	0.002156927	3.835851e-06	1.586564e-05	0.000397457	-0.002353825
2.3e+08	0.002595497	0.001283448	0.0001626841	5.973325e-05	0.001467553	0.004357427	0.0001992714	0.0006817802
	0.0001626841	5.973325e-05	0.002592017	0.001340194	8.52498e-06	7.117637e-07	0.001467341	0.004372598
	0.001467553	0.004357427	8.52498e-06	7.117637e-07	0.002638361	0.001343482	6.386303e-06	1.884616e-05
	0.0001992714	0.0006817802	0.001467341	0.004372598	6.386303e-06	1.884616e-05	0.002650798	0.00149455
2.4e+08	0.005860563	0.004239007	0.0001684778	4.364824e-05	0.002500007	0.006375078	0.0002843485	0.0006811592
	0.0001684778	4.364824e-05	0.005641726	0.004350427	8.505832e-06	4.746767e-08	0.002419974	0.006396172
	0.002500007	0.006375078	8.505832e-06	4.746767e-08	0.005918647	0.004301654	1.058179e-05	2.086753e-05
	0.0002843485	0.0006811592	0.002419974	0.006396171	1.058179e-05	2.086753e-05	0.005709884	0.004507037
2.5e+08	0.009669152	0.006139071	0.0001733927	2.600106e-05	0.004037198	0.008024148	0.0003739122	0.0006655093
	0.0001733927	2.600106e-05	0.009246622	0.00636647	8.45039e-06	-6.696137e-07	0.003872321	0.008075626
	0.004037198	0.008024148	8.45039e-06	-6.696137e-07	0.009750295	0.006197942	1.592458e-05	2.128493e-05
	0.0003739122	0.0006655093	0.003872321	0.008075626	1.592458e-05	2.128493e-05	0.00932297	0.006522708
2.6e+08	0.01372421	0.006897989	0.0001767404	6.654482e-06	0.005954861	0.009179168	0.0004639964	0.0006337764
	0.0001767404	6.654482e-06	0.0131262	0.007298396	8.329704e-06	-1.429848e-06	0.005707926	0.009286959
	0.005954861	0.009179168	8.329704e-06	-1.429848e-06	0.01383294	0.006944046	2.169577e-05	1.970663e-05
	0.0004639964	0.0006337764	0.005707926	0.009286959	2.169577e-05	1.970663e-05	0.01320882	0.007452112
2.7e+08	0.01772002	0.006510243	0.0001777697	-1.422999e-05	0.008099197	0.00975456	0.0005506182	0.0005861911
	0.0001777697	-1.422999e-05	0.01698992	0.007131963	8.121374e-06	-2.213696e-06	0.007781058	0.009943589
	0.008099197	0.00975456	8.121374e-06	-2.213696e-06	0.01785695	0.006533154	2.707594e-05	1.606068e-05
	0.0005506182	0.0005861911	0.007781058	0.009943589	2.707594e-05	1.606068e-05	0.01707633	0.007281667
2.8e+08	0.02136323	0.005049236	0.0001757933	-3.618325e-05	0.01029916	0.009711034	0.0006302218	0.0005241421
	0.0001757933	-3.618325e-05	0.02055701	0.005927825	7.812739e-06	-2.995077e-06	0.009928235	0.01000277
	0.01029916	0.009711034	7.812739e-06	-2.995077e-06	0.02152493	0.00503882	3.12819e-05	1.060718e-05
	0.0006302218	0.0005241421	0.009928235	0.01000277	3.12819e-05	1.060718e-05	0.02064438	0.006072838
2.9e+08	0.02439269	0.002660718	0.0001703061	-5.847189e-05	0.01237992	0.009058363	0.0007000239	0.0004499033
	0.0001703061	-5.847189e-05	0.02357523	0.003815716	7.402071e-06	-3.745846e-06	0.01198099	0.009468583
	0.01237992	0.009058363	7.402071e-06	-3.745846e-06	0.02457201	0.002608314	3.369571e-05	3.895182e-06
	0.0007000239	0.0004499033	0.01198099	0.009468583	3.369571e-05	3.895182e-06	0.02366062	0.003956224
3e+08	0.02659675	-0.0004486315	0.0001610783	-8.018517e-05	0.01417652	0.007854376	0.0007582241	0.0003662615
	0.0001610783	-8.018517e-05	0.0258373	0.0009840824	6.897961e-06	-4.44011e-06	0.01377887	0.00839137
	0.01417652	0.007854376	6.897961e-06	-4.44011e-06	0.02678353	-0.0005489841	3.396536e-05	-3.3279e-06
	0.0007582241	0.0003662615	0.01377887	0.00839137	3.396536e-05	-3.3279e-06	0.02591792	0.001121153
3.1e+08	0.02782685	-0.004026564	0.0001482082	-0.0001003525	0.01554669	0.006200284	0.0008040589	0.0002761
	0.0001482082	-0.0001003525	0.02719395	-0.002333999	6.317311e-06	-5.057726e-06	0.01518181	0.006863642
	0.01554669	0.006200284	6.317311e-06	-5.057726e-06	0.02800901	-0.004177251	3.206076e-05	-1.02394e-05
	0.0008040589	0.0002761	0.01518181	0.006863642	3.206076e-05	-1.02394e-05	0.02726743	-0.002198499
3.2e+08	0.02800669	-0.007793539	0.0001321229	-0.0001180719	0.01638187	0.004232724	0.0008376847	0.0001820168
	0.0001321229	-0.0001180719	0.0275629	-0.005877679	5.682081e-06	-5.586631e-06	0.01608082	0.005012834
	0.01638187	0.004232724	5.682081e-06	-5.586631e-06	0.02817148	-0.007992877	2.827573e-05	-1.607561e-05
	0.0008376847	0.0001820168	0.01608082	0.005012834	2.827573e-05	-1.607561e-05	0.02762747	-0.005741223
3.3e+08	0.02713626	-0.01146258	0.0001135298	-0.0001326297	0.01661565	0.002113095	0.0008599319	8.6026e-05
	0.0001135298	-0.0001326297	0.02693305	-0.009376737	5.015722e-06	-6.023736e-06	0.01640635	0.002991426
	0.01661565	0.002113095	5.015722e-06	-6.023736e-06	0.02727164	-0.01170475	2.317638e-05	-2.025543e-05
	0.0008599319	8.6026e-05	0.01640635	0.002991426	2.317638e-05	-2.025543e-05	0.02698777	-0.009236353
3.4e+08	0.02529061	-0.0147594	9.332534e-05	-0.0001435921	0.016229	1.498093e-05	0.0008719696	-1.061684e-05
	9.332534e-05	-0.0001435921	0.02536392	-0.01257033	4.339772e-06	-6.37452e-06	0.01613371	0.0009651511
	0.016229	1.498094e-05	4.339772e-06	-6.37452e-06	0.02538652	-0.01503482	1.750466e-05	-2.247367e-05
	0.0008719696	-1.061684e-05	0.01613371	0.0009651511	1.750466e-05	-2.247367e-05	0.02540874	-0.01242284
3.5e+08	0.02261345	-0.01744148	7.247465e-05	-0.0001508528	0.01525188	-0.001889404	0.0008749349	-0.0001074252
	7.247465e-05	-0.0001508528	0.02298018	-0.01522486	3.670754e-06	-6.65144e-06	0.01528494	-0.0008998423
	0.01525188	-0.001889404	3.670754e-06	-6.65144e-06	0.02266302	-0.01773755	1.205279e-05	-2.274428e-05
	0.0008749349	-0.0001074252	0.01528494	-0.0008998423	1.205279e-05	-2.274428e-05	0.023016	-0.01506715
3.6e+08	0.01930603	-0.01931467	5.188267e-05	-0.0001546309	0.01376103	-0.003442748	0.0008695973	-0.0002045433
	5.188267e-05	-0.0001546309	0.01996189	-0.01714968	3.017016e-06	-6.863065e-06	0.01392728	-0.002449909
	0.01376103	-0.003442748	3.017016e-06	-6.863065e-06	0.01930641	-0.01961685	7.325028e-06	-2.217713e-05
	0.0008695973	-0.0002045433	0.01392728	-0.002449909	7.325028e-06	-2.217713e-05	0.01999048	-0.016979
3.7e+08	0.01561215	-0.02024637	3.227647e-05	-0.0001554165	0.0118741	-0.004515092	0.0008561163	-0.0003025052
	3.227647e-05	-0.0001554165	0.01653099	-0.01820976	2.382754e-06	-7.034216e-06	0.01216793	-0.003555934
	0.0118741	-0.004515092	2.382754e-06	-7.034216e-06	0.01556501	-0.02053951	3.76678e-06	-2.064275e-05
	0.0008561163	-0.0003025052	0.01216793	-0.003555934	3.76678e-06	-2.064275e-05	0.01655489	-0.01802395
3.8e+08	0.01180019	-0.02017421	1.411972e-05	-0.0001538759	0.009740528	-0.005014223	0.0008339183	-0.0004018769
	1.411972e-05	-0.0001538759	0.01293503	-0.01833426	1.760453e-06	-7.182937e-06	0.01014584	-0.004123516
	0.009740528	-0.005014223	1.760453e-06	-7.182937e-06	0.0117118	-0.02044397	1.639488e-06	-1.8666e-05
	0.0008339183	-0.0004018769	0.01014584	-0.004123516	1.639488e-06	-1.8666e-05	0.01295736	-0.01813196
3.9e+08	0.008143569	-0.01910974	-2.42755e-06	-0.0001507306	0.007529803	-0.004893148	0.0008017346	-0.0005028995
	-2.42755e-06	-0.0001507306	0.009429333	-0.01752062	1.134933e-06	-7.319608e-06	0.008020824	-0.00410048
	0.007529803	-0.004893148	1.134933e-06	-7.319608e-06	0.008024426	-0.01934393	8.699915e-07	-1.695363e-05
	0.0008017346	-0.0005028995	0.008020824	-0.00410048	8.699915e-07	-1.695363e-05	0.009453502	-0.0173014
4e+08	0.004900957	-0.0171367	-1.749685e-05	-0.00014663	0.005418083	-0.004154009	0.0007577878	-0.0006051712
	-1.749685e-05	-0.00014663	0.006258666	-0.01583369	4.86746e-07	-7.44563e-06	0.005961038	-0.0034811
	0.005418083	-0.004154009	4.86746e-07	-7.44563e-06	0.004765035	-0.0173266	1.090431e-06	-1.610209e-05
	0.0007577878	-0.0006051712	0.005961038	-0.0034811	1.090431e-06	-1.610209e-05	0.006288112	-0.01559813
4.1e+08	0.002297653	-0.01440422	-3.144898e-05	-0.0001420427	0.003574168	-0.002848095	0.000700094	-0.0007074296
	-3.144898e-05	-0.0001420427	0.003639942	-0.01340013	-2.036421e-07	-7.551902e-06	0.004129688	-0.002306643
	0.003574168	-0.002848095	-2.036421e-07	-7.551902e-06	0.002161265	-0.01454546	1.711067e-06	-1.648527e-05
	0.000700094	-0.0007074296	0.004129688	-0.002306643	1.711067e-06	-1.648527e-05	0.003677835	-0.01314982
4.2e+08	0.0005095496	-0.01111516	-4.477269e-05	-0.0001371813	0.002146016	-0.001071879	0.0006268359	-0.0008074699
	-4.477269e-05	-0.0001371813	0.001747055	-0.01039847	-9.511314e-07	-7.619176e-06	0.002672127	-0.0006621595
	0.002146016	-0.001071879	-9.511314e-07	-7.619176e-06	0.0003899785	-0.01120837	2.033232e-06	-1.818164e-05
	0.0006268359	-0.0008074699	0.002672127	-0.0006621595	2.033232e-06	-1.818164e-05	0.001796008	-0.01013584
4.3e+08	-0.0003491642	-0.007510731	-5.796236e-05	-0.0001319772	0.001248891	0.00104058	0.0005367509	-0.0009022174
	-5.796236e-05	-0.0001319772	0.0006989839	-0.007045465	-1.761619e-06	-7.620507e-06	0.001704333	0.001330222
	0.001248891	0.00104058	-1.761619e-06	-7.620507e-06	-0.000435175	-0.007561675	1.382575e-06	-2.095427e-05
	0.0005367509	-0.0009022174	0.001704333	0.001330222	1.382575e-06	-2.095427e-05	0.0007608283	-0.006773632
4.4e+08	-0.0002336663	-0.003852347	-7.139608e-05	-0.0001261071	0.0009561402	0.003328283	0.0004294645	-0.0009879501
	-7.139608e-05	-0.0001261071	0.0005520368	-0.003579878	-2.628951e-06	-7.525583e-06	0.001303749	0.003520975
	0.0009561402	0.003328283	-2.628951e-06	-7.525583e-06	-0.0002714316	-0.003871657	-7.612208e-07	-2.428751e-05
	0.0004294645	-0.0009879501	0.001303749	0.003520975	-7.612208e-07	-2.428751e-05	0.0006276374	-0.003302397
4.5e+08	0.0008290342	-0.0004022365	-8.52364e-05	-0.0001190683	0.001293338	0.005616088	0.0003057249	-0.001060638
	-8.52364e-05	-0.0001190683	0.001296732	-0.0002449114	-3.534029e-06	-7.30615e-06	0.001503216	0.005745011
	0.001293338	0.005616088	-3.534029e-06	-7.30615e-06	0.0008507621	-0.000404667	-4.660861e-06	-2.747378e-05
	0.0003057249	-0.001060638	0.001503216	0.005745011	-4.660861e-06	-2.747378e-05	0.001385901	3.452743e-05
4.6e+08	0.002742953	0.002595834	-9.93721e-05	-0.0001102885	0.002236276	0.007728618	0.0001676413	-0.001116363
	-9.93721e-05	-0.0001102885	0.002859523	0.00272945	-4.446398e-06	-6.941466e-06	0.002288474	0.007834723
	0.002236276	0.007728618	-4.446398e-06	-6.941466e-06	0.00283086	0.002592514	-1.026377e-05	-2.973575e-05
	0.0001676413	-0.001116363	0.002288474	0.007834723	-1.026377e-05	-2.973575e-05	0.002961008	0.003007332
4.7e+08	0.005351099	0.004934194	-0.0001131987	-9.919856e-05	0.003712923	0.009504129	-3.59036e-06	-0.001147543
	-0.0001131987	-9.919856e-05	0.005109136	0.005142851	-5.330093e-06	-6.422053e-06	0.003599402	0.009633147
	0.003712923	0.009504129	-5.330093e-06	-6.422053e-06	0.005506483	0.004910622	-1.699036e-05	-3.031246e-05
	-3.59036e-06	-0.001147543	0.003599402	0.009633147	-1.699036e-05	-3.031246e-05	0.005220773	0.005416123
