!$
! Info: Touchstone file created by Circ.  Input file=Tx_14in_Rx_85ohms_TxVia_35mils_RxVia_45mils.circ
!$
# Hz S RI R 50
0	0.01126863	1.731657e-25	-7.527914e-05	-9.814627e-26	9.541233e-05	2.117945e-23	-7.527852e-05	-1.009196e-25
	-7.527916e-05	-9.539587e-26	0.01126516	2.051807e-25	-7.527758e-05	-8.834505e-26	9.406958e-05	2.549864e-23
	9.593527e-05	2.145516e-23	-7.527754e-05	-9.294672e-26	0.01127661	1.690499e-25	-7.527765e-05	-6.0682e-27
	-7.527853e-05	-9.901001e-26	9.222127e-05	2.562415e-23	-7.527768e-05	-2.307323e-27	0.01127825	1.922532e-25
1e+07	0.01383158	-0.01398141	-9.258679e-06	-1.853273e-05	0.0004649272	0.002530595	-5.900315e-06	-2.189296e-05
	-9.258679e-06	-1.853273e-05	0.01381623	-0.01375175	-1.320942e-05	-4.433182e-08	0.000565209	0.002519238
	0.0004649512	0.002530596	-1.320942e-05	-4.433235e-08	0.01570791	-0.01366417	-2.87708e-05	4.037323e-06
	-5.900314e-06	-2.189296e-05	0.0005651485	0.002519249	-2.87708e-05	4.037323e-06	0.01378602	-0.01373483
2e+07	0.01101311	-0.03111885	-8.194755e-06	-6.475308e-06	0.001565225	0.004822777	-3.822458e-06	-1.125524e-05
	-8.194756e-06	-6.475308e-06	0.01120867	-0.0307621	-3.546089e-05	-1.675278e-05	0.001683392	0.004714751
	0.001565232	0.004822761	-3.546089e-05	-1.675278e-05	0.01287895	-0.03131426	-4.325148e-05	-4.934974e-06
	-3.822458e-06	-1.125524e-05	0.001683384	0.004714786	-4.325148e-05	-4.934975e-06	0.01119132	-0.03071589
3e+07	0.002073827	-0.04770908	-7.696765e-06	-3.169411e-06	0.003301654	0.006576554	-4.632591e-06	-8.385186e-06
	-7.696765e-06	-3.169411e-06	0.002396332	-0.04734706	-5.167721e-05	-1.302462e-05	0.003342631	0.006457713
	0.003301653	0.006576551	-5.167721e-05	-1.302462e-05	0.003884212	-0.04820553	-5.325095e-05	2.962094e-07
	-4.632591e-06	-8.385186e-06	0.003342631	0.006457718	-5.325095e-05	2.962092e-07	0.002387663	-0.04728365
4e+07	-0.0116157	-0.06122189	-7.191025e-06	-1.226832e-06	0.005413567	0.007720268	-6.212276e-06	-5.955808e-06
	-7.191026e-06	-1.226832e-06	-0.01122477	-0.06088253	-6.367826e-05	-2.765628e-06	0.005383422	0.00762136
	0.005413569	0.007720269	-6.367826e-05	-2.765628e-06	-0.009909546	-0.06197535	-5.999093e-05	9.94279e-06
	-6.212276e-06	-5.955808e-06	0.005383416	0.007621358	-5.999092e-05	9.94279e-06	-0.01122759	-0.06080454
5e+07	-0.02865123	-0.07036448	-6.626156e-06	1.591872e-07	0.007704509	0.008187549	-7.310313e-06	-3.640159e-06
	-6.626156e-06	1.591871e-07	-0.0282351	-0.0700479	-7.156389e-05	1.149995e-05	0.007613395	0.008131972
	0.00770451	0.008187549	-7.156389e-05	1.149995e-05	-0.02709232	-0.07134069	-6.351375e-05	2.218692e-05
	-7.310313e-06	-3.640159e-06	0.007613392	0.008131972	-6.351375e-05	2.218692e-05	-0.02823422	-0.0699556
6e+07	-0.04749502	-0.07441077	-5.993617e-06	1.218414e-06	0.009969127	0.007972037	-7.902028e-06	-1.301278e-06
	-5.993617e-06	1.218414e-06	-0.04708207	-0.07410345	-7.506889e-05	2.845608e-05	0.009831693	0.007978027
	0.009969125	0.007972037	-7.506889e-05	2.845608e-05	-0.04611954	-0.07557373	-6.362655e-05	3.604687e-05
	-7.902028e-06	-1.301278e-06	0.009831695	0.007978026	-6.362655e-05	3.604687e-05	-0.04707863	-0.07399587
7e+07	-0.06656222	-0.07313535	-5.302733e-06	2.035356e-06	0.01201483	0.007126672	-7.952001e-06	1.058864e-06
	-5.302733e-06	2.035356e-06	-0.06616706	-0.07281883	-7.378319e-05	4.704826e-05	0.01184958	0.00720706
	0.01201483	0.007126674	-7.378319e-05	4.704826e-05	-0.06539895	-0.07444592	-6.00557e-05	5.071493e-05
	-7.952e-06	1.058864e-06	0.01184959	0.007207056	-6.005571e-05	5.071493e-05	-0.06616101	-0.07269449
8e+07	-0.08433332	-0.06677284	-4.571615e-06	2.646747e-06	0.01367857	0.005754574	-7.416657e-06	3.381162e-06
	-4.571614e-06	2.646747e-06	-0.08395959	-0.06643001	-6.722672e-05	6.622225e-05	0.01350675	0.005916225
	0.01367856	0.005754577	-6.722672e-05	6.622225e-05	-0.08340387	-0.06818955	-5.249794e-05	6.538102e-05
	-7.416657e-06	3.381162e-06	0.01350676	0.005916218	-5.249795e-05	6.538102e-05	-0.08394974	-0.06628751
9e+07	-0.0994605	-0.05596082	-3.822744e-06	3.069858e-06	0.01483813	0.003995882	-6.232054e-06	5.573378e-06
	-3.822743e-06	3.069858e-06	-0.09910589	-0.05558055	-5.477251e-05	8.484051e-05	0.01468255	0.004239352
	0.01483813	0.003995886	-5.477251e-05	8.484051e-05	-0.09878077	-0.05744126	-4.05607e-05	7.917975e-05
	-6.232054e-06	5.573377e-06	0.01468255	0.004239346	-4.05607e-05	7.917975e-05	-0.09909013	-0.05541914
1e+08	-0.110848	-0.04166156	-3.071755e-06	3.307464e-06	0.01541858	0.002013318	-4.115026e-06	7.531829e-06
	-3.071755e-06	3.307464e-06	-0.1105217	-0.04124432	-3.402186e-05	0.0001018168	0.01530454	0.002333582
	0.01541858	0.002013318	-3.402186e-05	0.0001018168	-0.1104394	-0.04316591	-2.256792e-05	9.128622e-05
	-4.115026e-06	7.531829e-06	0.01530454	0.002333582	-2.256792e-05	9.128622e-05	-0.1104977	-0.04106432
1.1e+08	-0.1177522	-0.02514052	-2.453584e-06	3.572453e-06	0.01539125	-2.392441e-05	-1.506061e-06	7.928508e-06
	-2.453584e-06	3.572453e-06	-0.1174445	-0.02462019	-8.713371e-06	0.0001052832	0.01533914	0.0003460187
	0.01539125	-2.392456e-05	-8.713371e-06	0.0001052832	-0.1176138	-0.02656917	-1.177374e-05	9.217624e-05
	-1.506061e-06	7.928508e-06	0.01533914	0.0003460187	-1.177374e-05	9.217624e-05	-0.1174091	-0.02442275
1.2e+08	-0.1198203	-0.007668447	-1.787819e-06	3.825413e-06	0.01477287	-0.001946035	6.195596e-07	7.782658e-06
	-1.787819e-06	3.825413e-06	-0.1194693	-0.007055877	3.019558e-06	0.0001044049	0.01478614	-0.001545521
	0.01477287	-0.001946035	3.019558e-06	0.0001044049	-0.1198993	-0.008978323	-3.29635e-06	9.207591e-05
	6.195596e-07	7.782658e-06	0.01478614	-0.001545521	-3.29635e-06	9.207591e-05	-0.1194195	-0.006843163
1.3e+08	-0.1170169	0.009389974	-1.109287e-06	3.981582e-06	0.01362441	-0.003598639	2.045798e-06	7.318639e-06
	-1.109287e-06	3.981582e-06	-0.1165906	0.01006243	1.3169e-05	0.0001025755	0.01370502	-0.003187133
	0.01362441	-0.003598639	1.3169e-05	0.0001025755	-0.117272	0.008226865	6.15575e-06	9.123281e-05
	2.045798e-06	7.318639e-06	0.01370502	-0.003187133	6.15575e-06	9.123281e-05	-0.116524	0.01028672
1.4e+08	-0.1096858	0.02472492	-4.369622e-07	4.032384e-06	0.01204273	-0.004849826	2.417615e-06	6.955595e-06
	-4.369622e-07	4.032384e-06	-0.1091711	0.02541545	2.380469e-05	9.963745e-05	0.01218761	-0.004447471
	0.01204273	-0.004849827	2.380469e-05	9.963745e-05	-0.1100768	0.02372757	1.60503e-05	8.931544e-05
	2.417615e-06	6.955595e-06	0.01218761	-0.004447471	1.60503e-05	8.931544e-05	-0.1090865	0.02564639
1.5e+08	-0.09850873	0.03717759	2.095834e-07	3.980956e-06	0.01015501	-0.005597357	2.814466e-06	6.600136e-06
	2.095834e-07	3.980956e-06	-0.09791116	0.03784167	3.449488e-05	9.541079e-05	0.01035531	-0.005223336
	0.01015501	-0.005597357	3.449488e-05	9.541079e-05	-0.09899592	0.03635711	2.600961e-05	8.616553e-05
	2.814466e-06	6.600136e-06	0.01035531	-0.005223336	2.600961e-05	8.616553e-05	-0.0978092	0.03807362
1.6e+08	-0.08445214	0.04582186	8.19524e-07	3.836753e-06	0.008111512	-0.005775229	3.222439e-06	6.239493e-06
	8.19524e-07	3.836753e-06	-0.08379508	0.04641848	4.488355e-05	8.983274e-05	0.0083528	-0.005445985
	0.008111512	-0.005775229	4.488355e-05	8.983274e-05	-0.08499669	0.04518188	3.572535e-05	8.173122e-05
	3.222439e-06	6.239493e-06	0.0083528	-0.005445985	3.572535e-05	8.173122e-05	-0.08367847	0.04664581
1.7e+08	-0.06869606	0.05003117	1.383395e-06	3.60993e-06	0.006076836	-0.005359347	3.632597e-06	5.865265e-06
	1.383395e-06	3.60993e-06	-0.06801845	0.0505286	5.465892e-05	8.292868e-05	0.006339787	-0.005086842
	0.006076836	-0.005359347	5.465892e-05	8.292868e-05	-0.06926072	0.04956808	4.492035e-05	7.603527e-05
	3.632597e-06	5.865265e-06	0.006339787	-0.005086842	4.492035e-05	7.603527e-05	-0.06789189	0.05074643
1.8e+08	-0.05254728	0.04952651	1.893574e-06	3.310981e-06	0.004218998	-0.004371638	4.038661e-06	5.471279e-06
	1.893574e-06	3.310981e-06	-0.05189985	0.0499072	6.354981e-05	7.479487e-05	0.004480792	-0.004161868
	0.004218998	-0.004371638	6.354981e-05	7.479487e-05	-0.05309747	0.04922975	5.334845e-05	6.916265e-05
	4.038661e-06	5.471279e-06	0.004480792	-0.004161868	5.334845e-05	6.916265e-05	-0.0517698	0.05011218
1.9e+08	-0.03734086	0.04440118	2.344269e-06	2.950224e-06	0.002696617	-0.002881494	4.435563e-06	5.052441e-06
	2.344269e-06	2.950224e-06	-0.03678106	0.04466537	7.132936e-05	6.558458e-05	0.002932756	-0.002733443
	0.002696617	-0.002881494	7.132936e-05	6.558458e-05	-0.03784593	0.04425375	6.08e-05	6.124981e-05
	4.435563e-06	5.052441e-06	0.002932756	-0.002733443	6.08e-05	6.124981e-05	-0.03665517	0.04485623
2e+08	-0.02433562	0.03511821	2.731141e-06	2.53739e-06	0.001644781	-0.001003322	4.818415e-06	4.604173e-06
	2.731141e-06	2.53739e-06	-0.02392154	0.03528584	7.782077e-05	5.549393e-05	0.001831237	-0.0009084842
	0.001644781	-0.001003322	7.782077e-05	5.549393e-05	-0.02477018	0.03509747	6.710831e-05	5.247289e-05
	4.818415e-06	4.604173e-06	0.001831237	-0.0009084842	6.710831e-05	5.247289e-05	-0.02380792	0.0354638
2.1e+08	-0.01461158	0.02247779	3.05076e-06	2.081505e-06	0.00116112	0.001110765	5.181709e-06	4.122418e-06
	3.05076e-06	2.081505e-06	-0.01439535	0.02258847	8.290152e-05	4.474716e-05	0.001276617	0.00116819
	0.00116112	0.001110765	8.290152e-05	4.474716e-05	-0.01495665	0.02255679	7.215468e-05	4.303486e-05
	5.181709e-06	4.122418e-06	0.001276617	0.00116819	7.215468e-05	4.303486e-05	-0.01430178	0.02275733
2.2e+08	-0.008978564	0.00755499	3.300086e-06	1.591077e-06	0.001294149	0.003283317	5.518843e-06	3.603966e-06
	3.300086e-06	1.591077e-06	-0.008999996	0.007665825	8.650468e-05	3.358086e-05	0.001322373	0.003325528
	0.001294149	0.003283317	8.650468e-05	3.358086e-05	-0.009222525	0.007704039	7.587038e-05	3.315152e-05
	5.518843e-06	3.603966e-06	0.001322373	0.003325528	7.587038e-05	3.315152e-05	-0.008933101	0.007831845
2.3e+08	-0.007906002	-0.008388761	3.476165e-06	1.074534e-06	0.002036081	0.005328119	5.821993e-06	3.047027e-06
	3.476165e-06	1.074534e-06	-0.00818699	-0.008207368	8.861606e-05	2.222899e-05	0.001967592	0.005382136
	0.002036081	0.005328119	8.861606e-05	2.222899e-05	-0.008044992	-0.008200137	7.823482e-05	2.303781e-05
	5.821993e-06	3.047027e-06	0.001967592	0.005382136	7.823482e-05	2.303781e-05	-0.008151433	-0.008035858
2.4e+08	-0.01148201	-0.02401286	3.576129e-06	5.407461e-07	0.003321847	0.007069034	6.08245e-06	2.451895e-06
	3.576129e-06	5.407461e-07	-0.01202242	-0.02368311	8.926771e-05	1.09102e-05	0.003155483	0.007164547
	0.003321847	0.007069034	8.926771e-05	1.09102e-05	-0.01151981	-0.0238139	7.927023e-05	1.289608e-05
	6.08245e-06	2.451895e-06	0.003155483	0.007164547	7.927023e-05	1.289608e-05	-0.01202032	-0.02349636
2.5e+08	-0.01940731	-0.03801298	3.597509e-06	-5.242021e-10	0.005035031	0.008358434	6.291214e-06	1.821254e-06
	3.597509e-06	-5.242024e-10	-0.02018287	-0.0374568	8.852779e-05	-1.8222e-07	0.004778631	0.008525237
	0.005035031	0.008358434	8.852779e-05	-1.8222e-07	-0.01935461	-0.03782977	7.903294e-05	2.906664e-06
	6.291214e-06	1.821254e-06	0.004778631	0.008525237	7.903294e-05	2.906664e-06	-0.02021335	-0.0372444
2.6e+08	-0.03102493	-0.04923255	3.538772e-06	-5.38408e-07	0.007020124	0.00909238	6.439822e-06	1.160323e-06
	3.538772e-06	-5.38408e-07	-0.03198743	-0.04837919	8.648901e-05	-1.088537e-05	0.006690438	0.009357621
	0.007020124	0.00909238	8.648901e-05	-1.088537e-05	-0.03089808	-0.04908641	7.760313e-05	-6.777323e-06
	6.439822e-06	1.160323e-06	0.006690438	0.009357621	7.760313e-05	-6.777323e-06	-0.03204653	-0.04813106
2.7e+08	-0.04538228	-0.05675881	3.399931e-06	-1.061011e-06	0.00909922	0.009220303	6.521091e-06	4.76532e-07
	3.399931e-06	-1.061011e-06	-0.04646222	-0.05555219	8.325671e-05	-2.106753e-05	0.008720971	0.009605806
	0.00909922	0.009220303	8.325671e-05	-2.106753e-05	-0.04520165	-0.05666516	7.50741e-05	-1.60313e-05
	6.521091e-06	4.76532e-07	0.008720971	0.009605806	7.50741e-05	-1.60313e-05	-0.04654292	-0.05525948
2.8e+08	-0.06131795	-0.05999383	3.183089e-06	-1.555789e-06	0.01109055	0.008748035	6.529773e-06	-2.210174e-07
	3.183089e-06	-1.555789e-06	-0.06242933	-0.0583989	7.893931e-05	-3.062474e-05	0.01069468	0.009267967
	0.01109055	0.008748035	7.893931e-05	-3.062474e-05	-0.06110608	-0.05996161	7.154319e-05	-2.475678e-05
	6.529773e-06	-2.210174e-07	0.01069468	0.009267967	7.154319e-05	-2.475678e-05	-0.06252207	-0.05805489
2.9e+08	-0.07756323	-0.05869516	2.89279e-06	-2.010125e-06	0.01282608	0.007734331	6.462829e-06	-9.222952e-07
	2.89279e-06	-2.010125e-06	-0.07861026	-0.05670252	7.36411e-05	-3.947473e-05	0.01244732	0.008393464
	0.01282608	0.007734331	7.36411e-05	-3.947473e-05	-0.07734302	-0.05872675	6.710473e-05	-3.287625e-05
	6.462829e-06	-9.222952e-07	0.01244732	0.008393464	6.710473e-05	-3.287625e-05	-0.07870353	-0.05630337
3e+08	-0.09284769	-0.05298423	2.536135e-06	-2.412021e-06	0.01416598	0.006282189	6.319425e-06	-1.61707e-06
	2.536135e-06	-2.412021e-06	-0.09373261	-0.05061264	6.745882e-05	-4.754962e-05	0.01383995	0.00707495
	0.01416598	0.006282189	6.745882e-05	-4.754962e-05	-0.09264071	-0.05307596	6.184613e-05	-4.032662e-05
	6.319425e-06	-1.61707e-06	0.01383995	0.00707495	6.184613e-05	-4.032662e-05	-0.0938139	-0.05015795
3.1e+08	-0.105999	-0.04332499	2.122651e-06	-2.750773e-06	0.01500867	0.004526876	6.100736e-06	-2.295551e-06
	2.122651e-06	-2.750773e-06	-0.1066305	-0.04062146	6.048125e-05	-5.478835e-05	0.01476876	0.005437297
	0.01500867	0.004526876	6.048125e-05	-5.478835e-05	-0.1058241	-0.04346792	5.584749e-05	-4.705263e-05
	6.100736e-06	-2.295551e-06	0.01476876	0.005437297	5.584749e-05	-4.705263e-05	-0.1066873	-0.04011447
3.2e+08	-0.1160293	-0.03047729	1.663985e-06	-3.017605e-06	0.01529617	0.002622675	5.809484e-06	-2.948817e-06
	1.663985e-06	-3.017605e-06	-0.1163307	-0.02751468	5.279264e-05	-6.113132e-05	0.01517053	0.003625289
	0.01529617	0.002622675	5.279264e-05	-6.113132e-05	-0.1159016	-0.0306583	4.918325e-05	-5.300109e-05
	5.809484e-06	-2.948817e-06	0.01517053	0.003625289	4.918325e-05	-5.300109e-05	-0.1163515	-0.02696226
3.3e+08	-0.1222034	-0.01543135	1.173469e-06	-3.206223e-06	0.01501536	0.0007299905	5.449465e-06	-3.569036e-06
	1.173469e-06	-3.206223e-06	-0.1221198	-0.01230368	4.44787e-05	-6.651939e-05	0.01502421	0.001791595
	0.01501536	0.0007299905	4.44787e-05	-6.651939e-05	-0.1221336	-0.01563437	4.19262e-05	-5.811708e-05
	5.449465e-06	-3.569036e-06	0.01502421	0.001791595	4.19262e-05	-5.811708e-05	-0.1220954	-0.01171595
3.4e+08	-0.1240858	0.0006704494	6.654043e-07	-3.313136e-06	0.01419605	-0.000996191	5.025018e-06	-4.149345e-06
	6.654043e-07	-3.313136e-06	-0.1235898	0.003854591	3.562827e-05	-7.088902e-05	0.01434958	8.596085e-05
	0.01419605	-0.000996191	3.562827e-05	-7.088902e-05	-0.1240795	0.0004631853	3.415224e-05	-6.234136e-05
	5.025018e-06	-4.149345e-06	0.01434958	8.596084e-05	3.415224e-05	-6.234136e-05	-0.1235141	0.004464981
3.5e+08	-0.1215654	0.0166185	1.543717e-07	-3.337846e-06	0.01290692	-0.002416148	4.54084e-06	-4.684228e-06
	1.543717e-07	-3.337846e-06	-0.1206611	0.01974408	2.634066e-05	-7.41764e-05	0.01320404	-0.001354104
	0.01290692	-0.002416148	2.634066e-05	-7.41764e-05	-0.1216234	0.01642521	2.594647e-05	-6.561399e-05
	4.54084e-06	-4.684228e-06	0.01320404	-0.001354104	2.594647e-05	-6.561399e-05	-0.1205316	0.02036291
3.6e+08	-0.1148594	0.03122273	-3.455032e-07	-3.282836e-06	0.01125009	-0.003413681	4.001401e-06	-5.168805e-06
	-3.455032e-07	-3.282836e-06	-0.1135836	0.0341773	1.672904e-05	-7.632037e-05	0.011678	-0.002411297
	0.01125009	-0.003413681	1.672904e-05	-7.632037e-05	-0.1149776	0.03106081	1.740642e-05	-6.787522e-05
	4.001401e-06	-5.168805e-06	0.011678	-0.002411297	1.740642e-05	-6.787522e-05	-0.1134021	0.03478988
3.7e+08	-0.1044957	0.0433967	-8.212843e-07	-3.153357e-06	0.009354555	-0.003903082	3.410847e-06	-5.598541e-06
	-8.212843e-07	-3.153357e-06	-0.1029166	0.0460797	6.92295e-06	-7.726619e-05	0.009889362	-0.002995479
	0.009354555	-0.003903082	6.92295e-06	-7.726619e-05	-0.1046655	0.0432816	8.645302e-06	-6.906994e-05
	3.410847e-06	-5.598541e-06	0.009889362	-0.002995479	8.645302e-06	-6.906994e-05	-0.1026891	0.04667206
3.8e+08	-0.0912752	0.05223507	-1.261892e-06	-2.956967e-06	0.007368547	-0.00383502	2.773026e-06	-5.968872e-06
	-1.261892e-06	-2.956967e-06	-0.0894893	0.05456673	-2.930484e-06	-7.697228e-05	0.007976742	-0.003049798
	0.007368547	-0.00383502	-2.930484e-06	-7.697228e-05	-0.0914844	0.05217924	-2.066778e-07	-6.915396e-05
	2.773026e-06	-5.968872e-06	0.007976742	-0.003049798	-2.066778e-07	-6.915396e-05	-0.08922548	0.05512685
3.9e+08	-0.07621693	0.05708041	-1.658603e-06	-2.70288e-06	0.005450472	-0.003201204	2.091677e-06	-6.274805e-06
	-1.658603e-06	-2.70288e-06	-0.07434204	0.05900949	-1.266785e-05	-7.541683e-05	0.006091278	-0.00255585
	0.005450472	-0.003201204	-1.266785e-05	-7.541683e-05	-0.07645034	0.05709245	-9.003267e-06	-6.810041e-05
	2.091677e-06	-6.274805e-06	0.006091278	-0.00255585	-9.003267e-06	-6.810041e-05	-0.07405509	0.05952838
4e+08	-0.06048544	0.05757504	-2.005301e-06	-2.401166e-06	0.003758204	-0.002037281	1.370835e-06	-6.510616e-06
	-2.005301e-06	-2.401166e-06	-0.05865264	0.05908477	-2.211318e-05	-7.260417e-05	0.004386596	-0.001537298
	0.003758204	-0.002037281	-2.211318e-05	-7.260417e-05	-0.06072618	0.05765904	-1.758554e-05	-6.590585e-05
	1.370835e-06	-6.510616e-06	0.004386596	-0.001537298	-1.758554e-05	-6.590585e-05	-0.05835803	0.05955736
4.1e+08	-0.04530581	0.05369338	-2.298425e-06	-2.061904e-06	0.002436889	-0.0004230912	6.15389e-07	-6.669745e-06
	-2.298425e-06	-2.061904e-06	-0.04364927	0.05480488	-3.108401e-05	-6.857017e-05	0.003007089	-6.100678e-05
	0.002436889	-0.0004230912	-3.108401e-05	-6.857017e-05	-0.04553656	0.05384856	-2.578754e-05	-6.259543e-05
	6.15389e-07	-6.669745e-06	0.003007089	-6.100678e-05	-2.578754e-05	-6.259543e-05	-0.04336371	0.05523063
4.2e+08	-0.03187013	0.04575062	-2.5366e-06	-1.694425e-06	0.001605929	0.001520729	-1.682802e-07	-6.744955e-06
	-2.5366e-06	-1.694425e-06	-0.03051609	0.04652339	-3.939958e-05	-6.338559e-05	0.00207512	0.001765347
	0.001605929	0.001520729	-3.939958e-05	-6.338559e-05	-0.03207454	0.04597139	-3.344369e-05	-5.822608e-05
	-1.682802e-07	-6.744955e-06	0.00207512	0.001765347	-3.344369e-05	-5.822608e-05	-0.03025612	0.04690656
4.3e+08	-0.02124225	0.03438474	-2.719997e-06	-1.306782e-06	0.001346487	0.003640524	-9.716901e-07	-6.728807e-06
	-2.719997e-06	-1.306782e-06	-0.02029791	0.03491384	-4.689021e-05	-5.715671e-05	0.001678466	0.0038
	0.001346487	0.003640524	-4.689021e-05	-5.715671e-05	-0.0214063	0.03466116	-4.039743e-05	-5.288713e-05
	-9.716901e-07	-6.728807e-06	0.001678466	0.0038	-4.039743e-05	-5.288713e-05	-0.0200786	0.03526336
4.4e+08	-0.01426919	0.02051082	-2.849547e-06	-9.055534e-07	0.001691324	0.005761891	-1.783854e-06	-6.614439e-06
	-2.849547e-06	-9.055534e-07	-0.01381258	0.02092077	-5.340698e-05	-5.002265e-05	0.001859798	0.005878341
	0.001691324	0.005761891	-5.340698e-05	-5.002265e-05	-0.01438239	0.02082941	-4.650983e-05	-4.669805e-05
	-1.783854e-06	-6.614439e-06	0.001859798	0.005878341	-4.650983e-05	-4.669805e-05	-0.01364618	0.02124974
4.5e+08	-0.01150785	0.005249639	-2.926192e-06	-4.960287e-07	0.002618907	0.007705616	-2.591225e-06	-6.396563e-06
	-2.926192e-06	-4.960287e-07	-0.01157969	0.005685382	-5.883035e-05	-4.214949e-05	0.002610141	0.007827936
	0.002618907	0.007705616	-5.883035e-05	-4.214949e-05	-0.01156414	0.005594681	-5.166739e-05	-3.980335e-05
	-2.591225e-06	-6.396563e-06	0.002610141	0.007827936	-5.166739e-05	-3.980335e-05	-0.0114745	0.006010191
4.6e+08	-0.01317556	-0.01016396	-2.950327e-06	-8.271087e-08	0.004053325	0.009305539	-3.378095e-06	-6.072476e-06
	-2.950327e-06	-8.271087e-08	-0.01377395	-0.009548406	-6.307641e-05	-3.372158e-05	0.00386788	0.009485656
	0.004053325	0.009305539	-6.307641e-05	-3.372158e-05	-0.01317375	-0.009809014	-5.578779e-05	-3.236506e-05
	-3.378095e-06	-6.072476e-06	0.00386788	0.009485656	-5.578779e-05	-3.236506e-05	-0.01373342	-0.009209275
4.7e+08	-0.01913036	-0.02448471	-2.921586e-06	3.299884e-07	0.00587067	0.01042588	-4.127371e-06	-5.64291e-06
	-2.921586e-06	3.299884e-07	-0.02020903	-0.02353894	-6.609963e-05	-2.493118e-05	0.005524019	0.01071455
	0.00587067	0.01042588	-6.609963e-05	-2.493118e-05	-0.01907409	-0.02413567	-5.882259e-05	-2.455376e-05
	-4.127371e-06	-5.64291e-06	0.005524019	0.01071455	-5.882259e-05	-2.455376e-05	-0.02023128	-0.02316634
