!$
! Info: Touchstone file created by Circ.  Input file=Tx_10in_Rx_93ohms_TxVia_35mils_RxVia_45mils.circ
!$
# Hz S RI R 50
0	0.009223562	1.302215e-25	-5.389365e-05	3.801053e-24	7.337111e-05	1.726699e-23	-5.390557e-05	5.327588e-24
	-5.389367e-05	3.802983e-24	0.009221315	1.545067e-25	-5.387358e-05	1.479285e-24	7.273618e-05	2.084905e-23
	7.387992e-05	1.750843e-23	-5.387355e-05	1.475935e-24	0.009235727	1.265195e-25	-5.389116e-05	3.705539e-24
	-5.390558e-05	5.328917e-24	7.088827e-05	2.095173e-23	-5.389118e-05	3.708287e-24	0.009234433	1.447637e-25
1e+07	0.01365648	-0.0003344231	-0.0002661832	-6.378169e-05	0.0003228163	0.001738056	-0.0001443699	0.0001295841
	-0.0002661832	-6.378169e-05	0.0134396	-0.0009276834	-3.532798e-06	-8.090875e-06	0.0003354172	0.001898236
	0.0003228458	0.00173805	-3.5328e-06	-8.090876e-06	0.01271341	-0.0008144741	-1.484263e-05	9.684928e-07
	-0.0001443699	0.0001295841	0.0003353567	0.001898246	-1.484263e-05	9.684915e-07	0.01317755	-0.0009279779
2e+07	0.01638617	-0.004421358	-0.0002705065	1.659719e-05	0.0009409892	0.003455088	-0.0001749796	0.0001549524
	-0.0002705065	1.659719e-05	0.01555053	-0.00525661	-4.396326e-06	-4.615541e-06	0.000850859	0.003754402
	0.0009409901	0.003455066	-4.396327e-06	-4.615539e-06	0.01513361	-0.004824011	-6.224044e-06	-2.590193e-05
	-0.0001749796	0.0001549524	0.0008508505	0.003754437	-6.224045e-06	-2.590193e-05	0.0153536	-0.005165652
3e+07	0.01712508	-0.009938574	-0.0002703461	6.258705e-05	0.001878455	0.005005291	-0.0001880745	0.0001833005
	-0.0002703461	6.258705e-05	0.01580303	-0.01069154	-1.01628e-05	-6.240353e-06	0.001774123	0.00536658
	0.001878449	0.00500529	-1.016279e-05	-6.240353e-06	0.01565111	-0.01019925	-2.283803e-05	-2.977263e-05
	-0.0001880745	0.0001833005	0.001774123	0.005366586	-2.283803e-05	-2.977263e-05	0.01565322	-0.01058023
4e+07	0.01626561	-0.01573565	-0.0002647925	0.0001044572	0.003097031	0.006324539	-0.0001911675	0.0002071214
	-0.0002647926	0.0001044572	0.01455098	-0.01626357	-1.466177e-05	-5.078905e-06	0.003029765	0.006709958
	0.003097032	0.006324544	-1.466177e-05	-5.078906e-06	0.01463805	-0.01580433	-3.715622e-05	-2.725181e-05
	-0.0001911675	0.0002071214	0.00302976	0.006709956	-3.715622e-05	-2.725181e-05	0.01443631	-0.01615083
5e+07	0.01401006	-0.02134664	-0.0002548078	0.0001430166	0.004541922	0.007358985	-0.0001881792	0.0002253982
	-0.0002548078	0.0001430166	0.01199158	-0.0215524	-1.805629e-05	-2.440755e-06	0.00450225	0.007755582
	0.004541924	0.007358986	-1.805629e-05	-2.440755e-06	0.01229042	-0.02119176	-4.917286e-05	-2.052948e-05
	-0.0001881792	0.0002253982	0.004502247	0.007755581	-4.917286e-05	-2.052948e-05	0.01190129	-0.02144774
6e+07	0.01054236	-0.02644825	-0.0002515045	0.0001630272	0.00614807	0.008068853	-0.0001823682	0.0002376596
	-0.0002515045	0.0001630272	0.008311194	-0.026262	-2.044009e-05	1.226052e-06	0.006127026	0.00846959
	0.006148068	0.008068852	-2.044008e-05	1.226052e-06	0.008789223	-0.02605219	-5.864098e-05	-1.059797e-05
	-0.0001823682	0.0002376596	0.006127029	0.008469589	-5.864098e-05	-1.059797e-05	0.008235265	-0.02617025
7e+07	0.006059763	-0.0307943	-0.0002465214	0.0001836908	0.007844049	0.008429562	-0.0001767404	0.0002437191
	-0.0002465214	0.0001836908	0.003711476	-0.03016757	-2.173465e-05	5.558736e-06	0.007833226	0.008830881
	0.007844043	0.008429562	-2.173465e-05	5.558736e-06	0.004329802	-0.03015073	-6.519986e-05	1.856265e-06
	-0.0001767404	0.0002437191	0.007833235	0.008830878	-6.519986e-05	1.856265e-06	0.003640579	-0.0300904
8e+07	0.0007780053	-0.03419885	-0.0002399832	0.0002045579	0.009555683	0.00843254	-0.0001745002	0.0002438779
	-0.0002399832	0.0002045579	-0.001586666	-0.03310145	-2.18789e-05	1.034619e-05	0.009546988	0.008832831
	0.009555676	0.008432541	-2.18789e-05	1.034619e-05	-0.0008733383	-0.03331055	-6.842406e-05	1.624353e-05
	-0.0001745002	0.0002438779	0.009546998	0.008832825	-6.842406e-05	1.624353e-05	-0.001661136	-0.03303829
9e+07	-0.005073044	-0.03653197	-0.0002323577	0.0002250702	0.01121029	0.008085823	-0.0001795317	0.0002386138
	-0.0002323577	0.0002250702	-0.007345125	-0.03494851	-2.073317e-05	1.544893e-05	0.01119472	0.008483815
	0.01121028	0.008085826	-2.073317e-05	1.544893e-05	-0.006589121	-0.03540803	-6.775779e-05	3.205543e-05
	-0.0001795317	0.0002386138	0.01119473	0.00848381	-6.775779e-05	3.205543e-05	-0.007431186	-0.03489712
1e+08	-0.01127073	-0.03772671	-0.0002263419	0.000243482	0.01274825	0.00741892	-0.0002021206	0.0002250528
	-0.0002263419	0.000243482	-0.01329897	-0.03563556	-1.761376e-05	2.103078e-05	0.01270618	0.007806416
	0.01274825	0.00741892	-1.761376e-05	2.103078e-05	-0.012571	-0.03636844	-6.144589e-05	4.948501e-05
	-0.0002021206	0.0002250528	0.01270618	0.007806416	-6.144589e-05	4.948501e-05	-0.01340648	-0.03559401
1.1e+08	-0.01757457	-0.03765645	-0.0002126589	0.0002530253	0.01405951	0.006495925	-0.0002133492	0.000185407
	-0.0002126589	0.0002530253	-0.01919711	-0.0352825	-1.245007e-05	2.361819e-05	0.01401562	0.006840425
	0.01405951	0.006495925	-1.245007e-05	2.361819e-05	-0.01857384	-0.03622056	-4.926015e-05	6.001682e-05
	-0.0002133492	0.000185407	0.01401562	0.006840425	-4.926015e-05	6.001682e-05	-0.01933436	-0.03523215
1.2e+08	-0.02364971	-0.03639792	-0.0001938139	0.0002645066	0.01510466	0.0053116	-0.0002219225	0.0001572048
	-0.0001938139	0.0002645066	-0.02492139	-0.03383851	-8.131386e-06	2.491545e-05	0.01507286	0.00563481
	0.01510466	0.0053116	-8.131386e-06	2.491545e-05	-0.02440582	-0.0349524	-3.797441e-05	6.721692e-05
	-0.0002219225	0.0001572048	0.01507286	0.00563481	-3.797441e-05	6.721692e-05	-0.02508184	-0.03376966
1.3e+08	-0.02929231	-0.0340467	-0.0001724279	0.0002754591	0.01585131	0.003935667	-0.0002352327	0.0001358875
	-0.0001724279	0.0002754591	-0.03022757	-0.03135925	-4.120472e-06	2.548436e-05	0.01583549	0.004247104
	0.01585131	0.003935667	-4.120472e-06	2.548436e-05	-0.02983724	-0.03262849	-2.646566e-05	7.21878e-05
	-0.0002352327	0.0001358875	0.01583549	0.004247104	-2.646566e-05	7.21878e-05	-0.03040626	-0.03126558
1.4e+08	-0.03430634	-0.03072452	-0.000149182	0.0002850385	0.01627111	0.002437177	-0.0002537511	0.000121802
	-0.000149182	0.0002850385	-0.03491378	-0.02795788	-2.356701e-06	2.508234e-05	0.01627418	0.002742376
	0.01627111	0.002437177	-2.356701e-06	2.508234e-05	-0.03466749	-0.02935976	-1.47695e-05	7.508432e-05
	-0.0002537511	0.000121802	0.01627418	0.002742376	-1.47695e-05	7.508432e-05	-0.03510513	-0.02783471
1.5e+08	-0.03852385	-0.0265854	-0.0001245935	0.0002927148	0.01634897	0.0008881019	-0.0002766199	0.0001158851
	-0.0001245935	0.0002927148	-0.03881179	-0.02378517	-5.836652e-07	2.461411e-05	0.01637366	0.001189888
	0.01634897	0.0008881019	-5.836652e-07	2.461411e-05	-0.03872657	-0.02529311	-3.130794e-06	7.594165e-05
	-0.0002766199	0.0001158851	0.01637366	0.001189888	-3.130794e-06	7.594165e-05	-0.03900962	-0.02362942
1.6e+08	-0.04181171	-0.02181024	-9.913127e-05	0.0002981764	0.01608434	-0.0006389008	-0.0003022735	0.0001189995
	-9.913127e-05	0.0002981764	-0.04179073	-0.01902054	1.193575e-06	2.405999e-05	0.01613308	-0.0003398963
	0.01608434	-0.0006389008	1.193575e-06	2.405999e-05	-0.04187986	-0.02060398	8.145839e-06	7.484258e-05
	-0.0003022735	0.0001189995	0.01613308	-0.0003398963	8.145839e-06	7.484258e-05	-0.0419885	-0.01883078
1.7e+08	-0.04407575	-0.01659959	-7.324543e-05	0.0003012608	0.01549115	-0.002073252	-0.0003287209	0.0001316575
	-7.324543e-05	0.0003012608	-0.04376037	-0.01386352	2.946355e-06	2.340536e-05	0.01556587	-0.001778243
	0.01549115	-0.002073252	2.946355e-06	2.340536e-05	-0.04403182	-0.01548848	1.874202e-05	7.193019e-05
	-0.0003287209	0.0001316575	0.01556587	-0.001778243	1.874202e-05	7.193019e-05	-0.04395155	-0.01363994
1.8e+08	-0.04526344	-0.01116583	-4.735995e-05	0.0003019296	0.0145972	-0.003349218	-0.0003537572	0.0001538834
	-4.735995e-05	0.0003019296	-0.04467317	-0.008525137	4.652308e-06	2.264496e-05	0.0146989	-0.003060924
	0.0145972	-0.003349218	4.652308e-06	2.264496e-05	-0.04512845	-0.01015526	2.836087e-05	6.741515e-05
	-0.0003537572	0.0001538834	0.0146989	-0.003060924	2.836087e-05	6.741515e-05	-0.04485154	-0.008269463
1.9e+08	-0.04536478	-0.005725013	-2.185743e-05	0.0003002473	0.01344278	-0.004408484	-0.0003751563	0.0001851583
	-2.185743e-05	0.0003002473	-0.04452485	-0.003219289	6.293821e-06	2.177972e-05	0.01357128	-0.004130754
	0.01344278	-0.004408484	6.293821e-06	2.177972e-05	-0.04515819	-0.004817199	3.675434e-05	6.156975e-05
	-0.0003751563	0.0001851583	0.01357128	-0.004130754	3.675434e-05	6.156975e-05	-0.04468487	-0.002934624
2e+08	-0.04441185	-0.000488728	2.936348e-06	0.0002963604	0.01207895	-0.005202417	-0.0003908458	0.0002244273
	2.936348e-06	0.0002963604	-0.04335351	0.001845629	7.857462e-06	2.081446e-05	0.01223265	-0.004939813
	0.01207895	-0.005202417	7.857462e-06	2.081446e-05	-0.04415136	0.000316745	4.374304e-05	5.471314e-05
	-0.0003908458	0.0002244273	0.01223265	-0.004939813	4.374304e-05	5.471314e-05	-0.04349052	0.002155013
2.1e+08	-0.04247684	0.0043444	2.67638e-05	0.0002904744	0.01056072	-0.005705933	-0.0003990633	0.0002701613
	2.67638e-05	0.0002904744	-0.04123722	0.006474736	9.330529e-06	1.975055e-05	0.01074108	-0.005451288
	0.01056072	-0.005705933	9.330529e-06	1.975055e-05	-0.04217831	0.005050107	4.922464e-05	4.713689e-05
	-0.0003990633	0.0002701613	0.01074108	-0.005451288	4.922464e-05	4.713689e-05	-0.04134767	0.006803639
2.2e+08	-0.03966807	0.008594712	4.944317e-05	0.00028283	0.008951547	-0.005892317	-0.0003984748	0.0003204579
	4.944317e-05	0.00028283	-0.03829022	0.01049399	1.070487e-05	1.859652e-05	0.009160697	-0.00564088
	0.008951547	-0.005892317	1.070487e-05	1.859652e-05	-0.03934547	0.00920493	5.316585e-05	3.918517e-05
	-0.0003984748	0.0003204579	0.009160697	-0.00564088	5.316585e-05	3.918517e-05	-0.03837183	0.01083655
2.3e+08	-0.03612589	0.01210748	7.086923e-05	0.0002736787	0.007326738	-0.005735635	-0.0003882597	0.00037317
	7.086923e-05	0.0002736787	-0.03465792	0.01375658	1.197993e-05	1.73673e-05	0.007559112	-0.005497738
	0.007326738	-0.005735635	1.197993e-05	1.73673e-05	-0.03579124	0.01262776	5.563984e-05	3.125811e-05
	-0.0003882597	0.00037317	0.007559112	-0.005497738	5.563984e-05	3.125811e-05	-0.03470976	0.01410658
2.4e+08	-0.03201707	0.01476024	9.100702e-05	0.0002632605	0.005757294	-0.005240605	-0.0003681589	0.0004260579
	9.100702e-05	0.0002632605	-0.03051077	0.01614833	1.315365e-05	1.60694e-05	0.006004674	-0.005024871
	0.005757294	-0.005240605	1.315365e-05	1.60694e-05	-0.03168053	0.01519703	5.679944e-05	2.364697e-05
	-0.0003681589	0.0004260579	0.006004674	-0.005024871	5.679944e-05	2.364697e-05	-0.03053328	0.01649947
2.5e+08	-0.0275279	0.01646626	0.0001098812	0.0002517844	0.004311724	-0.004426265	-0.0003384704	0.0004769402
	0.0001098812	0.0002517844	-0.02603724	0.01759167	1.422466e-05	1.470791e-05	0.004563706	-0.004239048
	0.004311724	-0.004426265	1.422466e-05	1.470791e-05	-0.02719781	0.01682655	5.685818e-05	1.658083e-05
	-0.0003384704	0.0004769402	0.004563706	-0.004239048	5.685818e-05	1.658083e-05	-0.02603225	0.01793786
2.6e+08	-0.02285677	0.01717744	0.0001275599	0.0002394131	0.003053217	-0.003325223	-0.0003000031	0.0005238411
	0.0001275599	0.0002394131	-0.02143625	0.01804834	1.519118e-05	1.328659e-05	0.003297792	-0.003170143
	0.003053217	-0.003325223	1.519118e-05	1.328659e-05	-0.02253982	0.01746845	5.606987e-05	1.021291e-05
	-0.0003000031	0.0005238411	0.003297792	-0.003170143	5.606987e-05	1.021291e-05	-0.02140689	0.01838396
2.7e+08	-0.01820644	0.01688576	0.0001441366	0.0002262543	0.002037001	-0.001982349	-0.0002539937	0.0005651134
	0.0001441366	0.0002262543	-0.01690922	0.01752035	1.605074e-05	1.180841e-05	0.00226122	-0.001859965
	0.002037001	-0.001982349	1.605074e-05	1.180841e-05	-0.01790782	0.01711469	5.470482e-05	4.613787e-06
	-0.0002539937	0.0005651134	0.00226122	-0.001859965	5.470482e-05	4.613787e-06	-0.01685978	0.01784058
2.8e+08	-0.01377613	0.01562318	0.0001597085	0.0002123581	0.001307988	-0.0004529528	-0.0002019879	0.000599536
	0.0001597085	0.0002123581	-0.01265207	0.01604965	1.679938e-05	1.027604e-05	0.001498684	-0.0003605874
	0.001307988	-0.0004529528	1.679938e-05	1.027604e-05	-0.01349972	0.01579703	5.302527e-05	-2.285163e-07
	-0.0002019879	0.000599536	0.001498684	-0.0003605874	5.302527e-05	-2.285163e-07	-0.01258779	0.01635066
2.9e+08	-0.009753783	0.01346008	0.0001743565	0.00019772	0.000898809	0.001199498	-0.0001457059	0.0006263679
	0.0001743565	0.00019772	-0.008847449	0.01371605	1.743158e-05	8.692517e-06	0.001043351	0.001267778
	0.000898809	0.001199498	1.743158e-05	8.692517e-06	-0.009502333	0.01358546	5.126162e-05	-4.400887e-06
	-0.0001457059	0.0006263679	0.001043351	0.001267778	5.126162e-05	-4.400887e-06	-0.00877435	0.0139952
3e+08	-0.006308813	0.01050211	0.0001881269	0.0001822907	0.0008283389	0.002906039	-8.689773e-05	0.0006453626
	0.0001881269	0.0001822907	-0.005657582	0.01063375	1.794031e-05	7.061979e-06	0.0009153743	0.002959275
	0.0008283389	0.002906039	1.794031e-05	7.061979e-06	-0.006084168	0.01058519	4.95921e-05	-8.050794e-06
	-8.689773e-05	0.0006453626	0.0009153743	0.002959275	4.95921e-05	-8.050794e-06	-0.005582154	0.0108897
3.1e+08	-0.003585579	0.006885781	0.000201018	0.0001659924	0.001100788	0.004595149	-2.719836e-05	0.0006567406
	0.000201018	0.0001659924	-0.003217894	0.006946414	1.83175e-05	5.390371e-06	0.001120947	0.004645184
	0.001100788	0.004595149	1.83175e-05	5.390371e-06	-0.003388864	0.006932238	4.812774e-05	-1.136669e-05
	-2.719836e-05	0.0006567406	0.001120947	0.004645184	4.812774e-05	-1.136669e-05	-0.003146844	0.007179235
3.2e+08	-0.0016979	0.002772825	0.0002129713	0.0001487371	0.001705422	0.006195843	3.199357e-05	0.0006611199
	0.0002129713	0.0001487371	-0.001631793	0.002821219	1.855449e-05	3.685831e-06	0.001651949	0.006256864
	0.001705422	0.006195843	1.855449e-05	3.685831e-06	-0.001529694	0.002787801	4.69038e-05	-1.455438e-05
	3.199357e-05	0.0006611199	0.001651949	0.006256864	4.69038e-05	-1.455438e-05	-0.00157174	0.003032409
3.3e+08	-0.0007247725	-0.001656456	0.0002238695	0.0001304474	0.002616937	0.007640794	8.961288e-05	0.0006594151
	0.0002238695	0.0001304474	-0.0009667397	-0.001558134	1.864273e-05	1.958965e-06	0.002486214	0.00772874
	0.002616937	0.007640794	1.864273e-05	1.958965e-06	-0.0005852661	-0.001668293	4.587904e-05	-1.781209e-05
	8.961288e-05	0.0006594151	0.002486214	0.00772874	4.587904e-05	-1.781209e-05	-0.0009239132	-0.001365689
3.4e+08	-0.0007075242	-0.006210487	0.0002335428	0.0001110777	0.003796497	0.008869318	0.0001449943	0.0006527144
	0.0002335428	0.0001110777	-0.001251806	-0.005998967	1.85745e-05	2.229594e-07	0.003588442	0.009001179
	0.003796497	0.008869318	1.85745e-05	2.229594e-07	-0.0005966385	-0.006244892	4.494272e-05	-2.130655e-05
	0.0001449943	0.0006527144	0.003588442	0.009001179	4.494272e-05	-2.130655e-05	-0.001231761	-0.005821085
3.5e+08	-0.001648476	-0.01069415	0.0002417794	9.06319e-05	0.005193397	0.009830096	0.0001978887	0.0006421432
	0.0002417794	9.06319e-05	-0.002476818	-0.01030751	1.834354e-05	-1.506578e-06	0.0049117	0.01002313
	0.005193397	0.009830096	1.834354e-05	-1.506578e-06	-0.001565953	-0.01074723	4.392865e-05	-2.515219e-05
	0.0001978887	0.0006421432	0.0049117	0.01002313	4.392865e-05	-2.515219e-05	-0.002484167	-0.01013888
3.6e+08	-0.003511174	-0.0149166	0.0002483434	6.917707e-05	0.006747277	0.01048349	0.0002484458	0.0006287301
	0.0002483434	6.917707e-05	-0.004593089	-0.01429676	1.794572e-05	-3.211861e-06	0.006399468	0.01075437
	0.006747277	0.01048349	1.794572e-05	-3.211861e-06	-0.003456636	-0.01498471	4.263516e-05	-2.939602e-05
	0.0002484458	0.0006287301	0.006399468	0.01075437	4.263516e-05	-2.939602e-05	-0.004631276	-0.01413115
3.7e+08	-0.006222181	-0.01869881	0.000252995	4.685104e-05	0.008390792	0.01080332	0.0002971515	0.000613288
	0.000252995	4.685104e-05	-0.007515733	-0.01779404	1.73796e-05	-4.873345e-06	0.007988126	0.01116731
	0.008390792	0.01080332	1.73796e-05	-4.873345e-06	-0.006195152	-0.01877849	4.084879e-05	-3.400937e-05
	0.0002971515	0.000613288	0.007988126	0.01116731	4.084879e-05	-3.400937e-05	-0.007586851	-0.01762453
3.8e+08	-0.009674325	-0.02188063	0.0002555132	2.386313e-05	0.01005261	0.01077804	0.0003447346	0.0005963182
	0.0002555132	2.386313e-05	-0.01112741	-0.02064778	1.664692e-05	-6.47025e-06	0.009609763	0.01124816
	0.01005261	0.01077804	1.664692e-05	-6.47025e-06	-0.009674219	-0.02196854	3.836939e-05	-3.888755e-05
	0.0003447346	0.0005963182	0.009609763	0.01124816	3.836939e-05	-3.888755e-05	-0.01123208	-0.02046712
3.9e+08	-0.01373126	-0.02432697	0.0002557174	4.877652e-07	0.01166057	0.01041126	0.0003920502	0.00057795
	0.0002557174	4.877652e-07	-0.01528338	-0.02273357	1.575298e-05	-7.981204e-06	0.01119517	0.01099753
	0.01166057	0.01041126	1.575298e-05	-7.981204e-06	-0.01375735	-0.02441979	3.503403e-05	-4.385747e-05
	0.0003920502	0.00057795	0.01119517	0.01099753	3.503403e-05	-4.385747e-05	-0.01542068	-0.02253441
4e+08	-0.01823312	-0.02593294	0.0002534861	-2.294825e-05	0.01314492	0.009721506	0.0004399477	0.000557919
	0.0002534861	-2.294825e-05	-0.01981755	-0.0239588	1.470689e-05	-9.384996e-06	0.01267689	0.01043029
	0.01314492	0.009721506	1.470689e-05	-9.384996e-06	-0.01828448	-0.02602736	3.073735e-05	-4.869222e-05
	0.0004399477	0.000557919	0.01267689	0.01043029	3.073735e-05	-4.869222e-05	-0.01998505	-0.0237341
4.1e+08	-0.02300307	-0.02662772	0.0002487714	-4.608397e-05	0.01444135	0.00874139	0.0004891421	0.0005355858
	0.0002487714	-4.608397e-05	-0.02454937	-0.02426619	1.352173e-05	-1.066145e-05	0.01399212	0.009574913
	0.01444135	0.00874139	1.352173e-05	-1.066145e-05	-0.02307852	-0.02672041	2.54463e-05	-5.313141e-05
	0.0004891421	0.0005355858	0.01399212	0.009574913	2.54463e-05	-5.313141e-05	-0.02474317	-0.02400947
4.2e+08	-0.02785443	-0.02637706	0.0002416067	-6.854571e-05	0.01549377	0.007516093	0.0005400955	0.0005099917
	0.0002416067	-6.854571e-05	-0.02929118	-0.02363571	1.221435e-05	-1.179232e-05	0.01508541	0.008472077
	0.01549377	0.007516093	1.221435e-05	-1.179232e-05	-0.02795245	-0.02646472	1.920782e-05	-5.690482e-05
	0.0005400955	0.0005099917	0.01508541	0.008472077	1.920782e-05	-5.690482e-05	-0.02950608	-0.02334137
4.3e+08	-0.03259806	-0.02518432	0.0002321081	-8.996997e-05	0.01625677	0.006101334	0.0005929191	0.0004799529
	0.0002321081	-8.996997e-05	-0.03385576	-0.02208505	1.080504e-05	-1.276227e-05	0.01591098	0.007172873
	0.01625677	0.006101334	1.080504e-05	-1.276227e-05	-0.03271671	-0.02526365	1.214898e-05	-5.975734e-05
	0.0005929191	0.0004799529	0.01591098	0.007172873	1.214898e-05	-5.975734e-05	-0.03408545	-0.02174867
4.4e+08	-0.03704979	-0.02308998	0.0002204683	-0.0001100254	0.01669746	0.0045609	0.000647309	0.0004441769
	0.0002204683	-0.0001100254	-0.03806372	-0.01966863	9.31688e-06	-1.355968e-05	0.01643461	0.005736525
	0.01669746	0.0045609	9.31688e-06	-1.355968e-05	-0.03718669	-0.02315785	4.469436e-06	-6.14726e-05
	0.000647309	0.0004441769	0.01643461	0.005736525	4.469436e-06	-6.14726e-05	-0.03830106	-0.0192871
4.5e+08	-0.04103755	-0.02016986	0.0002069466	-0.000128433	0.0167968	0.002963859	0.0007024971	0.0004015075
	0.0002069466	-0.000128433	-0.04175059	-0.01647508	7.774798e-06	-1.417735e-05	0.01663496	0.004227822
	0.0167968	0.002963859	7.774798e-06	-1.417735e-05	-0.04118981	-0.02022332	-3.572022e-06	-6.189393e-05
	0.0007024971	0.0004015075	0.01663496	0.004227822	-3.572022e-06	-6.189393e-05	-0.04198787	-0.01604685
4.6e+08	-0.04440801	-0.01653183	0.0001917554	-0.0001448564	0.01655035	0.001381595	0.0007589607	0.0003347161
	0.0001917554	-0.0001448564	-0.04477313	-0.01262355	6.206508e-06	-1.461246e-05	0.01650436	0.002714363
	0.01655035	0.001381595	6.206508e-06	-1.461246e-05	-0.04457217	-0.01656825	-1.177209e-05	-6.081442e-05
	0.0007589607	0.0003347161	0.01650436	0.002714363	-1.177209e-05	-6.081442e-05	-0.04500244	-0.01214866
4.7e+08	-0.04703225	-0.01231147	0.0001753366	-0.0001592457	0.01596835	-0.0001152167	0.0008103518	0.0002572573
	0.0001753366	-0.0001592457	-0.04701479	-0.008258766	4.635999e-06	-1.486878e-05	0.01604902	0.001263727
	0.01596835	-0.0001152167	4.635999e-06	-1.486878e-05	-0.04720439	-0.0123287	-1.971156e-05	-5.831988e-05
	0.0008103518	0.0002572573	0.01604902	0.001263727	-1.971156e-05	-5.831988e-05	-0.04722832	-0.007738906
