!$
! Info: Touchstone file created by Circ.  Input file=Tx_14in_Rx_85ohms_TxVia_35mils_RxVia_45mils.circ
!$
# Hz S RI R 50
0	0.0112663	1.750862e-25	1.750033e-08	2.504528e-26	9.365125e-05	2.14505e-23	3.406574e-08	5.575329e-27
	1.750035e-08	2.504403e-26	0.01126516	2.051807e-25	3.399177e-08	9.057256e-26	9.406958e-05	2.549864e-23
	9.181208e-05	2.202762e-23	3.399177e-08	9.05729e-26	0.01127868	1.668925e-25	2.077264e-08	2.968156e-26
	3.406574e-08	5.575979e-27	9.222127e-05	2.562415e-23	2.077265e-08	2.968275e-26	0.01127825	1.922532e-25
1e+07	0.0138316	-0.01375327	2.962999e-08	4.68951e-08	0.0005703137	0.002517532	9.840786e-08	1.327693e-07
	2.962999e-08	4.68951e-08	0.01381623	-0.01375175	5.369402e-08	1.56575e-07	0.000565209	0.002519238
	0.0005702533	0.002517536	5.369402e-08	1.56575e-07	0.01380331	-0.01373689	3.498422e-08	5.612301e-08
	9.840786e-08	1.327693e-07	0.0005651485	0.002519249	3.498422e-08	5.612301e-08	0.01378602	-0.01373483
2e+07	0.01126674	-0.0307779	5.166486e-08	7.773419e-08	0.001702401	0.004706605	2.154355e-07	1.940922e-07
	5.166486e-08	7.773418e-08	0.01120867	-0.0307621	6.447563e-08	2.874519e-07	0.001683392	0.004714751
	0.001702389	0.004706644	6.447563e-08	2.874519e-07	0.01125641	-0.03073451	6.115961e-08	9.298613e-08
	2.154354e-07	1.940922e-07	0.001683384	0.004714786	6.115961e-08	9.298613e-08	0.01119132	-0.03071589
3e+07	0.002517184	-0.0474012	7.610856e-08	9.784677e-08	0.003381516	0.00643514	3.578716e-07	1.932811e-07
	7.610856e-08	9.784677e-08	0.002396332	-0.04734706	6.380589e-08	4.191893e-07	0.003342631	0.006457713
	0.003381519	0.006435145	6.380589e-08	4.191893e-07	0.00252279	-0.04734589	9.010157e-08	1.17134e-07
	3.578716e-07	1.932811e-07	0.003342631	0.006457718	9.010157e-08	1.17134e-07	0.002387663	-0.04728365
4e+07	-0.0110321	-0.06100589	1.000239e-07	1.065865e-07	0.005444483	0.007574279	5.027658e-07	1.221696e-07
	1.000239e-07	1.065865e-07	-0.01122477	-0.06088253	5.764229e-08	5.558407e-07	0.005383422	0.00762136
	0.005444478	0.007574275	5.764229e-08	5.558407e-07	-0.01101262	-0.0609449	1.183697e-07	1.278828e-07
	5.027658e-07	1.221696e-07	0.005383416	0.007621358	1.183697e-07	1.278828e-07	-0.01122759	-0.06080454
5e+07	-0.02797452	-0.07027424	1.190339e-07	1.045204e-07	0.007694668	0.008049673	6.215723e-07	-1.769925e-08
	1.190339e-07	1.045204e-07	-0.0282351	-0.0700479	4.931825e-08	6.992551e-07	0.007613395	0.008131972
	0.007694663	0.008049672	4.931825e-08	6.992551e-07	-0.02794397	-0.0702117	1.408261e-07	1.258916e-07
	6.215723e-07	-1.769925e-08	0.007613392	0.008131972	1.408261e-07	1.258916e-07	-0.02823422	-0.0699556
6e+07	-0.04677102	-0.07446421	1.291156e-07	9.388825e-08	0.009926945	0.007850801	6.88019e-07	-2.140811e-07
	1.291156e-07	9.388826e-08	-0.04708207	-0.07410345	4.227968e-08	8.503827e-07	0.009831693	0.007978027
	0.009926949	0.0078508	4.227968e-08	8.503828e-07	-0.0467328	-0.07440269	1.527159e-07	1.138272e-07
	6.88019e-07	-2.140811e-07	0.009831695	0.007978026	1.527159e-07	1.138273e-07	-0.04707863	-0.07399587
7e+07	-0.06583488	-0.07333812	1.272155e-07	7.82396e-08	0.01194889	0.007027697	6.816066e-07	-4.461648e-07
	1.272155e-07	7.823962e-08	-0.06616706	-0.07281883	4.018588e-08	1.008866e-06	0.01184958	0.00720706
	0.0119489	0.007027693	4.018589e-08	1.008866e-06	-0.06579255	-0.07327874	1.504729e-07	9.591883e-08
	6.816066e-07	-4.461648e-07	0.01184959	0.007207056	1.504729e-07	9.591886e-08	-0.06616101	-0.07269449
8e+07	-0.08364426	-0.06712075	1.116141e-07	6.204399e-08	0.01359753	0.005681228	5.898677e-07	-6.870168e-07
	1.116141e-07	6.204401e-08	-0.08395959	-0.06643001	4.643546e-08	1.172875e-06	0.01350675	0.005916225
	0.01359754	0.00568122	4.643547e-08	1.172875e-06	-0.08360119	-0.06706335	1.32143e-07	7.743719e-08
	5.898677e-07	-6.870168e-07	0.01350676	0.005916218	1.32143e-07	7.743724e-08	-0.08394974	-0.06628751
9e+07	-0.09884979	-0.05644191	8.21751e-08	5.022798e-08	0.01475089	0.003949773	4.098494e-07	-9.064051e-07
	8.217513e-08	5.0228e-08	-0.09910589	-0.05558055	6.358925e-08	1.339228e-06	0.01468255	0.004239352
	0.0147509	0.003949765	6.358927e-08	1.339228e-06	-0.09880881	-0.05638532	9.762739e-08	6.412898e-08
	4.098494e-07	-9.064051e-07	0.01468255	0.004239346	9.762742e-08	6.412902e-08	-0.09909013	-0.05541914
1e+08	-0.1103668	-0.04226071	4.044116e-08	4.76393e-08	0.01533684	0.001995389	1.487384e-07	-1.073907e-06
	4.044116e-08	4.76393e-08	-0.1105217	-0.04124432	9.284962e-08	1.503778e-06	0.01530454	0.002333582
	0.01533684	0.001995389	9.284962e-08	1.503778e-06	-0.1103303	-0.04220312	4.875313e-08	6.160835e-08
	1.487384e-07	-1.073907e-06	0.01530454	0.002333582	4.875313e-08	6.160835e-08	-0.1104977	-0.04106432
1.1e+08	-0.1174276	-0.02575973	-1.042012e-08	5.85802e-08	0.01532374	-2.976132e-05	-1.761966e-07	-1.161991e-06
	-1.042012e-08	5.85802e-08	-0.1174445	-0.02462019	1.338918e-07	1.662151e-06	0.01533914	0.0003460187
	0.01532374	-2.976132e-05	1.338918e-07	1.662151e-06	-0.1173973	-0.0256994	-1.084291e-08	7.492324e-08
	-1.761966e-07	-1.161991e-06	0.01533914	0.0003460187	-1.084291e-08	7.492324e-08	-0.1174091	-0.02442275
1.2e+08	-0.1196165	-0.00827731	-6.592625e-08	8.610385e-08	0.01471521	-0.001944405	-5.393934e-07	-1.149546e-06
	-6.592625e-08	8.610385e-08	-0.1194693	-0.007055877	1.842679e-07	1.810265e-06	0.01478614	-0.001545521
	0.01471521	-0.001944405	1.842679e-07	1.810265e-06	-0.1195923	-0.008210436	-7.593389e-08	1.076202e-07
	-5.393934e-07	-1.149546e-06	0.01478614	-0.001545521	-7.593389e-08	1.076202e-07	-0.1194195	-0.006843163
1.3e+08	-0.1169151	0.008809584	-1.20699e-07	1.317834e-07	0.01357543	-0.003591931	-9.089721e-07	-1.023539e-06
	-1.20699e-07	1.317834e-07	-0.1165906	0.01006243	2.40379e-07	1.944984e-06	0.01370502	-0.003187133
	0.01357543	-0.003591931	2.40379e-07	1.944984e-06	-0.1168958	0.008886112	-1.402696e-07	1.615688e-07
	-9.089721e-07	-1.023539e-06	0.01370502	-0.003187133	-1.402696e-07	1.615688e-07	-0.116524	0.01028672
1.4e+08	-0.1096701	0.02418682	-1.689292e-07	1.954748e-07	0.01200179	-0.00483987	-1.249131e-06	-7.808875e-07
	-1.689292e-07	1.954748e-07	-0.1091711	0.02541545	2.976011e-07	2.064611e-06	0.01218761	-0.004447471
	0.01200179	-0.00483987	2.976011e-07	2.064611e-06	-0.1096533	0.02427497	-1.97081e-07	2.366624e-07
	-1.249131e-06	-7.808875e-07	0.01218761	-0.004447471	-1.97081e-07	2.366624e-07	-0.1090865	0.02564639
1.5e+08	-0.09856373	0.03669264	-2.049072e-07	2.752174e-07	0.01012162	-0.00558573	-1.523075e-06	-4.295994e-07
	-2.049072e-07	2.752174e-07	-0.09791116	0.03784167	3.509093e-07	2.169181e-06	0.01035531	-0.005223336
	0.01012162	-0.00558573	3.509093e-07	2.169181e-06	-0.0985468	0.03679316	-2.396785e-07	3.306914e-07
	-1.523075e-06	-4.295994e-07	0.01035531	-0.005223336	-2.396785e-07	3.306914e-07	-0.0978092	0.03807362
1.6e+08	-0.08456238	0.04539827	-2.235689e-07	3.672897e-07	0.008085202	-0.005763369	-1.69632e-06	1.087198e-08
	-2.235689e-07	3.672897e-07	-0.08379508	0.04641848	3.955515e-07	2.260461e-06	0.0083528	-0.005445985
	0.008085202	-0.005763369	3.955515e-07	2.260461e-06	-0.08454266	0.04551076	-2.620777e-07	4.393851e-07
	-1.69632e-06	1.087198e-08	0.0083528	-0.005445985	-2.620777e-07	4.393851e-07	-0.08367847	0.04664581
1.7e+08	-0.06884557	0.04967429	-2.210204e-07	4.664197e-07	0.006057012	-0.005348591	-1.740206e-06	5.102065e-07
	-2.210204e-07	4.664197e-07	-0.06801845	0.0505286	4.276377e-07	2.341691e-06	0.006339787	-0.005086842
	0.006057012	-0.005348591	4.276377e-07	2.341691e-06	-0.06882094	0.04979753	-2.596158e-07	5.566285e-07
	-1.740206e-06	5.102065e-07	0.006339787	-0.005086842	-2.596158e-07	5.566285e-07	-0.06789189	0.05074643
1.8e+08	-0.05271989	0.04923861	-1.950002e-07	5.661473e-07	0.004204915	-0.004363208	-1.635355e-06	1.028886e-06
	-1.950002e-07	5.661473e-07	-0.05189985	0.0499072	4.445459e-07	2.417136e-06	0.004480792	-0.004161868
	0.004204915	-0.004363208	4.445459e-07	2.417136e-06	-0.05268883	0.04937082	-2.295114e-07	6.74861e-07
	-1.635355e-06	1.028886e-06	0.004480792	-0.004161868	-2.295114e-07	6.74861e-07	-0.0517698	0.05011218
1.9e+08	-0.03752067	0.04418128	-1.452371e-07	6.593236e-07	0.002687332	-0.002876454	-1.374714e-06	1.521023e-06
	-1.452371e-07	6.593236e-07	-0.03678106	0.04466537	4.450979e-07	2.491567e-06	0.002932756	-0.002733443
	0.002687332	-0.002876454	4.450979e-07	2.491567e-06	-0.03748238	0.04432033	-1.713151e-07	7.856472e-07
	-1.374714e-06	1.521023e-06	0.002932756	-0.002733443	-1.713151e-07	7.856472e-07	-0.03665517	0.04485623
2e+08	-0.02450772	0.03496203	-7.365964e-08	7.387197e-07	0.001639161	-0.001002511	-9.657495e-07	1.938286e-06
	-7.365964e-08	7.387197e-07	-0.02392154	0.03528584	4.295233e-07	2.569781e-06	0.001831237	-0.0009084842
	0.001639161	-0.001002511	4.295233e-07	2.569781e-06	-0.02446207	0.0351057	-8.719172e-08	8.803967e-07
	-9.657495e-07	1.938286e-06	0.001831237	-0.0009084842	-8.719172e-08	8.803967e-07	-0.02380792	0.0354638
2.1e+08	-0.01476272	0.02237801	1.557761e-08	7.977056e-07	0.00115788	0.001106802	-4.313335e-07	2.234661e-06
	1.557761e-08	7.977056e-07	-0.01439535	0.02258847	3.99285e-07	2.656251e-06	0.001276617	0.00116819
	0.00115788	0.001106802	3.99285e-07	2.656251e-06	-0.01471029	0.02252416	1.802058e-08	9.511843e-07
	-4.313335e-07	2.234661e-06	0.001276617	0.00116819	1.802058e-08	9.511843e-07	-0.01430178	0.02275733
2.2e+08	-0.00909791	0.007501716	1.16279e-07	8.309424e-07	0.00129193	0.003274378	1.910339e-07	2.371565e-06
	1.16279e-07	8.309424e-07	-0.008999996	0.007665825	3.568677e-07	2.754912e-06	0.001322373	0.003325528
	0.00129193	0.003274378	3.568677e-07	2.754912e-06	-0.009039913	0.007648433	1.370154e-07	9.916002e-07
	1.910339e-07	2.371565e-06	0.001322373	0.003325528	1.370154e-07	9.916003e-07	-0.008933101	0.007831845
2.3e+08	-0.007985668	-0.008407362	2.206132e-07	8.350229e-07	0.002033549	0.005314375	8.518191e-07	2.322672e-06
	2.206132e-07	8.350229e-07	-0.00818699	-0.008207368	3.056163e-07	2.869057e-06	0.001967592	0.005382136
	0.002033549	0.005314375	3.056163e-07	2.869057e-06	-0.007923879	-0.008261551	2.605055e-07	9.975395e-07
	8.518191e-07	2.322672e-06	0.001967592	0.005382136	2.605055e-07	9.975395e-07	-0.008151433	-0.008035858
2.4e+08	-0.01151742	-0.02400972	3.197282e-07	8.089842e-07	0.003317805	0.007051011	1.493731e-06	2.077737e-06
	3.197282e-07	8.089842e-07	-0.01202242	-0.02368311	2.496574e-07	3.001244e-06	0.003155483	0.007164547
	0.003317805	0.007051011	2.496574e-07	3.001244e-06	-0.01145405	-0.0238657	3.779754e-07	9.678297e-07
	1.493731e-06	2.077737e-06	0.003155483	0.007164547	3.779754e-07	9.678297e-07	-0.01202032	-0.02349636
2.5e+08	-0.01939728	-0.03800124	4.045367e-07	7.546212e-07	0.00502852	0.008336953	2.057235e-06	1.644787e-06
	4.045367e-07	7.546212e-07	-0.02018287	-0.0374568	1.9387e-07	3.153128e-06	0.004778631	0.008525237
	0.00502852	0.008336953	1.9387e-07	3.153128e-06	-0.01933479	-0.03785918	4.786434e-07	9.046007e-07
	2.057235e-06	1.644787e-06	0.004778631	0.008525237	4.786434e-07	9.046007e-07	-0.02021335	-0.0372444
2.6e+08	-0.03097156	-0.04922473	4.666026e-07	6.765345e-07	0.007010499	0.009068469	2.486603e-06	1.050289e-06
	4.666026e-07	6.765345e-07	-0.03198743	-0.04837919	1.438097e-07	3.325182e-06	0.006690438	0.009357621
	0.007010499	0.009068469	1.438097e-07	3.325182e-06	-0.03091242	-0.04908399	5.525359e-07	8.133213e-07
	2.486603e-06	1.050289e-06	0.006690438	0.009357621	5.525359e-07	8.133213e-07	-0.03204653	-0.04813106
2.7e+08	-0.04529056	-0.05676598	4.990349e-07	5.818798e-07	0.00908619	0.009195087	2.735711e-06	3.372362e-07
	4.990349e-07	5.818798e-07	-0.04646222	-0.05555219	1.054799e-07	3.51633e-06	0.008720971	0.009605806
	0.00908619	0.009195087	1.054799e-07	3.51633e-06	-0.04523701	-0.05662513	5.915503e-07	7.024676e-07
	2.735711e-06	3.372362e-07	0.008720971	0.009605806	5.915503e-07	7.024676e-07	-0.04654292	-0.05525948
2.8e+08	-0.06119521	-0.06002507	4.972754e-07	4.798183e-07	0.01107417	0.00872262	2.772832e-06	-4.385916e-07
	4.972754e-07	4.798183e-07	-0.06242933	-0.0583989	8.487337e-08	3.72361e-06	0.01069468	0.009267967
	0.01107417	0.00872262	8.487337e-08	3.72361e-06	-0.06114898	-0.05988197	5.903705e-07	5.828405e-07
	2.772832e-06	-4.385916e-07	0.01069468	0.009267967	5.903705e-07	5.828405e-07	-0.06252207	-0.05805489
2.9e+08	-0.07741851	-0.05875704	4.596766e-07	3.807185e-07	0.01280673	0.007709707	2.583887e-06	-1.213644e-06
	4.596766e-07	3.807185e-07	-0.07861026	-0.05670252	8.729093e-08	3.942006e-06	0.01244732	0.008393464
	0.01280673	0.007709707	8.729093e-08	3.942006e-06	-0.0773806	-0.05860905	5.471126e-07	4.666056e-07
	2.583887e-06	-1.213644e-06	0.01244732	0.008393464	5.471126e-07	4.666056e-07	-0.07870353	-0.05630337
3e+08	-0.09269101	-0.05308065	3.877885e-07	2.951986e-07	0.01414428	0.006259151	2.173903e-06	-1.922241e-06
	3.877885e-07	2.951986e-07	-0.09373261	-0.05061264	1.165288e-07	4.164586e-06	0.01383995	0.00707495
	0.01414428	0.006259151	1.165288e-07	4.164586e-06	-0.09266154	-0.05292485	4.636225e-07	3.661694e-07
	2.173903e-06	-1.922241e-06	0.01383995	0.00707495	4.636225e-07	3.661694e-07	-0.0938139	-0.05015795
3.1e+08	-0.1058406	-0.04345709	2.863166e-07	2.331248e-07	0.01498539	0.004505977	1.566697e-06	-2.502207e-06
	2.863166e-07	2.331248e-07	-0.1066305	-0.04062146	1.740988e-07	4.383009e-06	0.01476876	0.005437297
	0.01498539	0.004505977	1.740988e-07	4.383009e-06	-0.1058188	-0.0432906	3.453939e-07	2.930272e-07
	1.566697e-06	-2.502207e-06	0.01476876	0.005437297	3.453939e-07	2.930272e-07	-0.1066873	-0.04011447
3.2e+08	-0.1158793	-0.03064355	1.62766e-07	2.026813e-07	0.0152722	0.002604208	8.030193e-07	-2.899968e-06
	1.62766e-07	2.026813e-07	-0.1163307	-0.02751468	2.586664e-07	4.588384e-06	0.01517053	0.003625289
	0.0152722	0.002604208	2.586664e-07	4.588384e-06	-0.1158634	-0.03046384	2.011359e-07	2.567129e-07
	8.030193e-07	-2.899968e-06	0.01517053	0.003625289	2.011359e-07	2.567129e-07	-0.1163515	-0.02696226
3.3e+08	-0.1220706	-0.01562784	2.682211e-08	2.096052e-07	0.01499159	0.0007139907	-6.249833e-08	-3.074803e-06
	2.682211e-08	2.096052e-07	-0.1221198	-0.01230368	3.658639e-07	4.772343e-06	0.01502421	0.001791595
	0.01499159	0.0007139907	3.658639e-07	4.772343e-06	-0.1220583	-0.01543297	4.205803e-08	2.639488e-07
	-6.249833e-08	-3.074803e-06	0.01502421	0.001791595	4.205803e-08	2.639488e-07	-0.1220954	-0.01171595
3.4e+08	-0.1239776	0.0004496916	-1.104562e-07	2.566609e-07	0.01417333	-0.00100993	-9.652525e-07	-3.002077e-06
	-1.104562e-07	2.566609e-07	-0.1235898	0.003854591	4.885589e-07	4.928172e-06	0.01434958	8.596085e-05
	0.01417333	-0.00100993	4.885589e-07	4.928172e-06	-0.1239659	0.0006608933	-1.190354e-07	3.180584e-07
	-9.652525e-07	-3.002077e-06	0.01434958	8.596084e-05	-1.190354e-07	3.180584e-07	-0.1235141	0.004464981
3.5e+08	-0.1214873	0.01638102	-2.37536e-07	3.433714e-07	0.01288601	-0.002428046	-1.835145e-06	-2.675409e-06
	-2.37536e-07	3.433714e-07	-0.1206611	0.01974408	6.175675e-07	5.05176e-06	0.01320404	-0.001354104
	0.01288601	-0.002428046	6.175675e-07	5.05176e-06	-0.1214733	0.01660887	-2.687514e-07	4.186531e-07
	-1.835145e-06	-2.675409e-06	0.01320404	-0.001354104	-2.687514e-07	4.186531e-07	-0.1205316	0.02036291
3.6e+08	-0.1148148	0.03097711	-3.433304e-07	4.660091e-07	0.01123158	-0.00342434	-2.601421e-06	-2.107759e-06
	-3.433304e-07	4.660091e-07	-0.1135836	0.0341773	7.42702e-07	5.142212e-06	0.011678	-0.002411297
	0.01123158	-0.00342434	7.42702e-07	5.142212e-06	-0.1147951	0.031221	-3.941386e-07	5.616068e-07
	-2.601421e-06	-2.107759e-06	0.011678	-0.002411297	-3.941386e-07	5.616068e-07	-0.1134021	0.03478988
3.7e+08	-0.1044853	0.04315197	-4.180724e-07	6.178264e-07	0.009338881	-0.00391325	-3.197731e-06	-1.331428e-06
	-4.180724e-07	6.178264e-07	-0.1029166	0.0460797	8.539775e-07	5.202002e-06	0.009889362	-0.002995479
	0.009338881	-0.00391325	8.539775e-07	5.202002e-06	-0.1044572	0.04341043	-4.836761e-07	7.392803e-07
	-3.197731e-06	-1.331428e-06	0.009889362	-0.002995479	-4.836761e-07	7.392803e-07	-0.1026891	0.04667206
3.8e+08	-0.09129765	0.05200011	-4.540946e-07	7.894975e-07	0.007355923	-0.003845543	-3.567247e-06	-3.968637e-07
	-4.540946e-07	7.894975e-07	-0.0894893	0.05456673	9.427662e-07	5.236648e-06	0.007976742	-0.003049798
	0.007355923	-0.003845543	9.427662e-07	5.236648e-06	-0.09125858	0.05227087	-5.281787e-07	9.409777e-07
	-3.567247e-06	-3.968637e-07	0.007976742	-0.003049798	-5.281787e-07	9.409777e-07	-0.08922548	0.05512685
3.9e+08	-0.07626841	0.05686334	-4.464763e-07	9.6974e-07	0.005440874	-0.003212972	-3.667641e-06	6.298333e-07
	-4.464763e-07	9.6974e-07	-0.07434204	0.05900949	1.002705e-06	5.253983e-06	0.006091278	-0.00255585
	0.005440874	-0.003212972	1.002705e-06	5.253983e-06	-0.07621667	0.05714351	-5.215784e-07	1.153616e-06
	-3.667641e-06	6.298333e-07	0.006091278	-0.00255585	-5.215784e-07	1.153616e-06	-0.07405509	0.05952838
4e+08	-0.06056016	0.05738265	-3.935245e-07	1.146087e-06	0.003751355	-0.00205117	-3.475594e-06	1.670828e-06
	-3.935245e-07	1.146087e-06	-0.05865264	0.05908477	1.030218e-06	5.263187e-06	0.004386596	-0.001537298
	0.003751355	-0.00205117	1.030218e-06	5.263187e-06	-0.06049481	0.05766888	-4.61541e-07	1.362584e-06
	-3.475594e-06	1.670828e-06	0.004386596	-0.001537298	-4.61541e-07	1.362584e-06	-0.05835803	0.05955736
4.1e+08	-0.04539639	0.05353064	-2.970595e-07	1.305775e-06	0.002432258	-0.0004398818	-2.990357e-06	2.641916e-06
	-2.970595e-07	1.305775e-06	-0.04364927	0.05480488	1.024617e-06	5.273768e-06	0.003007089	-6.100678e-05
	0.002432258	-0.0004398818	1.024617e-06	5.273768e-06	-0.04531747	0.05381934	-3.498703e-07	1.552773e-06
	-2.990357e-06	2.641916e-06	0.003007089	-6.100678e-05	-3.498703e-07	1.552773e-06	-0.04336371	0.05523063
4.2e+08	-0.03196815	0.04562033	-1.624735e-07	1.436706e-06	0.001602761	0.001500424	-2.235829e-06	3.459166e-06
	-1.624735e-07	1.436706e-06	-0.03051609	0.04652339	9.878249e-07	5.29469e-06	0.00207512	0.001765347
	0.001602761	0.001500424	9.878249e-07	5.29469e-06	-0.03187669	0.04590791	-1.926463e-07	1.709727e-06
	-2.235829e-06	3.459166e-06	0.00207512	0.001765347	-1.926463e-07	1.709727e-06	-0.03025612	0.04690656
4.3e+08	-0.02133888	0.0342873	1.463766e-09	1.528442e-06	0.001343852	0.003616335	-1.260574e-06	4.046419e-06
	1.463766e-09	1.528442e-06	-0.02029791	0.03491384	9.238736e-07	5.333771e-06	0.001678466	0.0038
	0.001343852	0.003616335	9.238736e-07	5.333771e-06	-0.02123699	0.0345705	-4.610879e-11	1.820866e-06
	-1.260574e-06	4.046419e-06	0.001678466	0.0038	-4.610879e-11	1.820866e-06	-0.0200786	0.03526336
4.4e+08	-0.01435587	0.02044421	1.830757e-07	1.573162e-06	0.001688201	0.005733743	-1.353772e-07	4.342919e-06
	1.830757e-07	1.573162e-06	-0.01381258	0.02092077	8.383548e-07	5.397388e-06	0.001859798	0.005878341
	0.001688201	0.005733743	8.383548e-07	5.397388e-06	-0.0142466	0.02072037	2.14194e-07	1.87668e-06
	-1.353772e-07	4.342919e-06	0.001859798	0.005878341	2.14194e-07	1.87668e-06	-0.01364618	0.02124974
4.5e+08	-0.01157697	0.005209629	3.685335e-07	1.566506e-06	0.00261428	0.007673755	1.051794e-06	4.31017e-06
	3.685335e-07	1.566506e-06	-0.01157969	0.005685382	7.379779e-07	5.49041e-06	0.002610141	0.007827936
	0.00261428	0.007673755	7.379779e-07	5.49041e-06	-0.01146418	0.005477021	4.3369e-07	1.871789e-06
	1.051794e-06	4.31017e-06	0.002610141	0.007827936	4.3369e-07	1.871789e-06	-0.0114745	0.006010191
4.6e+08	-0.01322101	-0.01018348	5.428795e-07	1.508214e-06	0.004046293	0.009270524	2.20311e-06	3.937009e-06
	5.428795e-07	1.508214e-06	-0.01377395	-0.009548406	6.303125e-07	5.616201e-06	0.00386788	0.009485656
	0.004046293	0.009270524	6.303125e-07	5.616201e-06	-0.01310908	-0.009925401	6.406685e-07	1.805732e-06
	2.20311e-06	3.937009e-06	0.00386788	0.009485656	6.406685e-07	1.805732e-06	-0.01373342	-0.009209275
4.7e+08	-0.01914799	-0.02449117	6.91269e-07	1.402456e-06	0.005860545	0.01038852	3.219788e-06	3.242062e-06
	6.91269e-07	1.402456e-06	-0.02020903	-0.02353894	5.236793e-07	5.77656e-06	0.005524019	0.01071455
	0.005860545	0.01038852	5.236793e-07	5.77656e-06	-0.01904146	-0.0242416	8.174915e-07	1.683366e-06
	3.219788e-06	3.242062e-06	0.005524019	0.01071455	8.174915e-07	1.683366e-06	-0.02023128	-0.02316634
4.8e+08	-0.02887184	-0.03656351	8.003339e-07	1.257772e-06	0.007897707	0.0109367	4.01151e-06	2.273086e-06
	8.003339e-07	1.257772e-06	-0.03035438	-0.03515208	4.270544e-07	5.971467e-06	0.007433219	0.01141792
