!$
! Info: Touchstone file created by Circ.  Input file=Tx_14in_Rx_100ohms_TxVia_35mils_RxVia_45mils.circ
!$
# Hz S RI R 50
0	0.01446999	1.738425e-25	0.9853892	-1.797006e-25	9.3004e-05	2.758007e-23	-9.108246e-05	2.04087e-21
	0.9853892	-1.831739e-25	0.01446883	2.0371e-25	-9.144995e-05	2.085981e-21	9.342058e-05	3.278612e-23
	9.11632e-05	2.832204e-23	-9.157557e-05	2.101531e-21	0.01448224	1.657093e-25	0.9853736	-1.705474e-25
	-9.145803e-05	2.087031e-21	9.157166e-05	3.294741e-23	0.9853736	-1.702139e-25	0.01448186	1.908796e-25
1e+07	0.02160236	0.008174987	0.9686883	-0.1433449	0.0009960687	0.002518635	-0.000667364	-0.0001877585
	0.9686883	-0.1433449	0.02159328	0.008174303	-0.0006673776	-0.0001877369	0.0009914475	0.002520185
	0.0009960079	0.002518638	-0.0006674337	-0.0001877216	0.02140867	0.008214193	0.9688732	-0.1434594
	-0.0006674201	-0.0001877431	0.0009913862	0.002520194	0.9688732	-0.1434594	0.02139768	0.008214148
2e+07	0.02841892	0.01045351	0.9338833	-0.2778751	0.001891056	0.00506556	-0.0006185736	-0.0005987561
	0.9338833	-0.2778751	0.02838403	0.01045902	-0.0006186203	-0.0005987167	0.001873935	0.005072908
	0.001891042	0.005065598	-0.0006186258	-0.0005986742	0.02830559	0.01058924	0.9339605	-0.2781594
	-0.000618581	-0.0005987124	0.001873925	0.005072943	0.9339605	-0.2781594	0.0282637	0.01059771
3e+07	0.03414716	0.009689853	0.882365	-0.4042723	0.003404339	0.007008362	-0.0006489481	-0.0007638911
	0.882365	-0.4042723	0.03407351	0.009715496	-0.0006490416	-0.0007637739	0.003369158	0.00702858
	0.003404341	0.007008367	-0.0006490383	-0.0007637682	0.03410573	0.009853022	0.8823242	-0.4046527
	-0.0006489448	-0.000763885	0.003369158	0.007028586	0.8823242	-0.4046527	0.03401776	0.009886794
4e+07	0.0389087	0.007142742	0.8147855	-0.5214678	0.005402802	0.008352354	-0.0007474396	-0.0008275004
	0.8147855	-0.5214678	0.03878946	0.007206687	-0.000747539	-0.0008272689	0.005347128	0.008394387
	0.005402797	0.008352349	-0.0007475464	-0.0008272711	0.03893217	0.007305454	0.8146143	-0.5219079
	-0.0007474475	-0.000827503	0.005347122	0.008394385	0.8146143	-0.5219079	0.03879031	0.007386233
5e+07	0.04256739	0.003288708	0.7323786	-0.6276744	0.007831802	0.00889468	-0.001030817	-0.000675749
	0.7323786	-0.6276744	0.04240306	0.003411547	-0.001030864	-0.0006753812	0.007756772	0.008967995
	0.007831797	0.008894678	-0.001030869	-0.0006753804	0.0426458	0.003431103	0.7320684	-0.6281413
	-0.001030822	-0.0006757483	0.007756768	0.008967994	0.7320684	-0.6281413	0.04245097	0.003583374
6e+07	0.0449758	-0.001485587	0.6367025	-0.7211489	0.01025717	0.008743406	-0.001236979	-0.0004677695
	0.6367025	-0.7211489	0.04477499	-0.00128384	-0.001236907	-0.0004672695	0.01016769	0.008856994
	0.01025718	0.008743406	-0.001236903	-0.0004672718	0.04509618	-0.001377999	0.6362495	-0.7216108
	-0.001236975	-0.000467772	0.01016769	0.008856993	0.6362495	-0.7216108	0.04485896	-0.001130538
7e+07	0.04602681	-0.006810176	0.5295739	-0.8003171	0.01249448	0.007933836	-0.001367566	-0.0002334865
	0.5295739	-0.8003171	0.04580557	-0.006513101	-0.001367303	-0.0002328934	0.01239878	0.008094791
	0.01249449	0.007933834	-0.001367294	-0.0002329042	0.0461739	-0.006746836	0.528979	-0.8007427
	-0.001367555	-0.0002334983	0.01239879	0.008094788	0.528979	-0.8007427	0.0459137	-0.006384876
8e+07	0.0456791	-0.01231733	0.4130198	-0.8638368	0.01437419	0.006548217	-0.001430526	3.55666e-06
	0.4130198	-0.8638368	0.04545927	-0.01191454	-0.001430018	4.167045e-06	0.0142831	0.006760665
	0.01437421	0.00654821	-0.00143001	4.149444e-06	0.04583641	-0.01230261	0.4122893	-0.8641955
	-0.001430517	3.537434e-06	0.01428311	0.006760659	0.4122893	-0.8641955	0.04557945	-0.01181409
9e+07	0.04396882	-0.01764897	0.2892344	-0.9106356	0.01575418	0.004710762	-0.001437077	0.0002271744
	0.2892344	-0.9106356	0.04377577	-0.01713779	-0.001436306	0.0002276999	0.01568003	0.004975053
	0.01575419	0.004710755	-0.001436303	0.0002276846	0.04411963	-0.01768222	0.2883804	-0.9108979
	-0.001437074	0.0002271576	0.01568004	0.004975047	0.2883804	-0.9108979	0.04389623	-0.01706437
1e+08	0.04102792	-0.02247011	0.1605125	-0.9399389	0.01652326	0.002578033	-0.001387852	0.0004298784
	0.1605125	-0.9399389	0.04088791	-0.02185663	-0.001386843	0.0004302083	0.01647864	0.002890301
	0.01652326	0.002578033	-0.001386843	0.0004302083	0.04115461	-0.02254614	0.1595558	-0.9400773
	-0.001387852	0.0004298784	0.01647864	0.002890301	0.1595558	-0.9400773	0.04099605	-0.02180657
1.1e+08	0.03699115	-0.02659552	0.02933408	-0.9511352	0.01664575	0.00037393	-0.001322557	0.0005437919
	0.02933408	-0.9511352	0.03692868	-0.02589664	-0.001321369	0.0005438325	0.01664226	0.0007256981
	0.01664575	0.00037393	-0.001321369	0.0005438325	0.03708321	-0.02669714	0.02829509	-0.9511414
	-0.001322557	0.0005437919	0.01664226	0.0007256982	0.02829509	-0.9511414	0.03701895	-0.02585516
1.2e+08	0.03204272	-0.02965708	-0.1017439	-0.9442444	0.01614734	-0.001766382	-0.001299166	0.00064014
	-0.1017439	-0.9442444	0.03207623	-0.02889463	-0.001297924	0.0006398297	0.01619359	-0.001387101
	0.01614734	-0.001766382	-0.001297924	0.0006398297	0.03209801	-0.02977255	-0.1028516	-0.9440979
	-0.001299166	0.0006401399	0.01619359	-0.001387101	-0.1028516	-0.9440979	0.03215052	-0.02885559
1.3e+08	0.02651816	-0.03147132	-0.2303057	-0.9194948	0.01505898	-0.003672137	-0.001305438	0.0007422792
	-0.2303057	-0.9194948	0.02665996	-0.03067372	-0.001304281	0.0007416164	0.01515978	-0.003280214
	0.01505898	-0.003672137	-0.001304281	0.0007416164	0.02653568	-0.0315887	-0.2314601	-0.9191765
	-0.001305438	0.0007422792	0.01515978	-0.003280214	-0.2314601	-0.9191765	0.02671914	-0.03063188
1.4e+08	0.02076006	-0.0319458	-0.3539575	-0.8774349	0.01346812	-0.005188042	-0.001333162	0.0008692665
	-0.3539575	-0.8774349	0.02101366	-0.03114616	-0.001332216	0.0008683078	0.01362361	-0.004800018
	0.01346812	-0.005188042	-0.001332216	0.0008683078	0.02074196	-0.03205352	-0.355132	-0.8769292
	-0.001333162	0.0008692665	0.01362361	-0.004800018	-0.355132	-0.8769292	0.02105951	-0.03109698
1.5e+08	0.01511539	-0.03107705	-0.4703988	-0.8189334	0.01150373	-0.00618973	-0.001368104	0.001036183
	-0.4703988	-0.8189334	0.0154737	-0.03031015	-0.001367459	0.001035032	0.01170884	-0.005822308
	0.01150373	-0.00618973	-0.001367459	0.001035031	0.01506682	-0.03116476	-0.4715627	-0.8182289
	-0.001368104	0.001036183	0.01170884	-0.005822308	-0.4715627	-0.8182289	0.01550889	-0.03025006
1.6e+08	0.009915841	-0.02894838	-0.5774685	-0.7451645	0.00932491	-0.006594214	-0.001390665	0.001251743
	-0.5774685	-0.7451645	0.01036058	-0.0282471	-0.00139036	0.001250531	0.009569303	-0.006262603
	0.00932491	-0.006594214	-0.00139036	0.001250531	0.009844553	-0.02900763	-0.5785882	-0.7442552
	-0.001390665	0.001251743	0.009569303	-0.006262603	-0.5785882	-0.7442552	0.01038835	-0.02817362
1.7e+08	0.005457596	-0.02572295	-0.6731884	-0.6575869	0.007107599	-0.006366649	-0.001378306	0.001516451
	-0.6731884	-0.6575869	0.005959976	-0.02511457	-0.00137832	0.001515314	0.00737622	-0.006082921
	0.007107599	-0.006366649	-0.00137832	0.001515314	0.005373377	-0.0257478	-0.6742286	-0.6564722
	-0.001378306	0.001516451	0.00737622	-0.006082921	-0.6742286	-0.6564722	0.005983829	-0.02502633
1.8e+08	0.001982961	-0.02163183	-0.755802	-0.5579152	0.005030227	-0.005523043	-0.001308755	0.001821859
	-0.755802	-0.5579152	0.002505556	-0.02113473	-0.001309011	0.001820912	0.005304276	-0.005294681
	0.005030227	-0.005523043	-0.001309011	0.001820912	0.001896943	-0.02161927	-0.7567263	-0.556601
	-0.001308755	0.001821859	0.005304276	-0.005294681	-0.7567263	-0.556601	0.002529021	-0.02103143
1.9e+08	-0.0003346166	-0.01695788	-0.8238087	-0.4480865	0.003259201	-0.004128765	-0.001163354	0.002151137
	-0.8238087	-0.4480865	0.0001650771	-0.01657883	-0.00116373	0.002150449	0.003517584	-0.003957539
	0.003259201	-0.004128765	-0.00116373	0.002150449	-0.0004107501	-0.01690811	-0.8245809	-0.4465849
	-0.001163354	0.002151137	0.003517584	-0.003957539	-0.8245809	-0.4465849	0.000191418	-0.01646115
2e+08	-0.001400975	-0.01201611	-0.8759925	-0.3302214	0.001935515	-0.002293011	-0.0009299902	0.002480891
	-0.8759925	-0.3302214	-0.0009693125	-0.01174869	-0.000930343	0.00248047	0.002156612	-0.002174324
	0.001935515	-0.002293011	-0.000930343	0.00248047	-0.001455852	-0.01193267	-0.876578	-0.3285511
	-0.0009299902	0.002480891	0.002156612	-0.002174324	-0.876578	-0.3285511	-0.0009372962	-0.01161816
2.1e+08	-0.001206263	-0.00713216	-0.9114444	-0.2065817	0.001163551	-0.0001597344	-0.00060513	0.002783971
	-0.9114444	-0.2065817	-0.0008856863	-0.006956312	-0.0006053245	0.002783758	0.001327153	-8.25244e-05
	0.001163551	-0.0001597344	-0.0006053245	0.002783758	-0.001229737	-0.007021775	-0.9118108	-0.2047671
	-0.00060513	0.002783971	0.001327153	-8.252441e-05	-0.9118108	-0.2047671	-0.000845842	-0.006815106
2.2e+08	0.0001757786	-0.002620228	-0.9295776	-0.07952469	0.001002961	0.002104155	-0.000194645	0.003032837
	-0.9295776	-0.07952469	0.0003484064	-0.002503049	-0.0001945825	0.003032713	0.0010922	0.002156927
	0.001002961	0.002104155	-0.0001945825	0.003032713	0.0001917545	-0.002492437	-0.9296963	-0.07759623
	-0.000194645	0.003032837	0.0010922	0.002156927	-0.9296963	-0.07759623	0.000397457	-0.002353825
2.3e+08	0.00259424	0.001237999	-0.9301361	0.04854299	0.00146424	0.004322316	0.0002866904	0.003202965
	-0.9301361	0.04854299	0.002592017	0.001340194	0.0002870466	0.00320277	0.001467341	0.004372598
	0.00146424	0.004322316	0.0002870466	0.00320277	0.002654839	0.001371469	-0.9299829	0.05054978
	0.0002866904	0.003202965	0.001467341	0.004372598	-0.9299829	0.05054978	0.002650798	0.00149455
2.4e+08	0.005832668	0.004211861	-0.9131962	0.1752121	0.0025083	0.006323087	0.0008169299	0.003275781
	-0.9131962	0.1752121	0.005641726	0.004350427	0.00081754	0.003275346	0.002419974	0.006396172
	0.0025083	0.006323087	0.00081754	0.003275346	0.0059396	0.004337946	-0.9127523	0.1772572
	0.0008169299	0.003275781	0.002419974	0.006396171	-0.9127523	0.1772572	0.005709884	0.004507037
2.5e+08	0.009625035	0.006136466	-0.8791607	0.2981163	0.004049974	0.007953054	0.001369626	0.003240696
	-0.8791607	0.2981163	0.009246622	0.00636647	0.001370372	0.003239874	0.003872321	0.008075626
	0.004049974	0.007953054	0.001370372	0.003239874	0.009776207	0.006241784	-0.8784134	0.3001563
	0.001369626	0.003240696	0.003872321	0.008075626	-0.8784134	0.3001563	0.00932297	0.006522708
2.6e+08	0.01367485	0.006922664	-0.8287479	0.4149757	0.005965103	0.009089001	0.001917007	0.003095957
	-0.8287479	0.4149757	0.0131262	0.007298396	0.001917709	0.003094658	0.005707926	0.009286959
	0.005965103	0.009089001	0.001917709	0.003094658	0.01386432	0.006994612	-0.8276911	0.4169645
	0.001917007	0.003095957	0.005707926	0.009286959	-0.8276911	0.4169645	0.01320882	0.007452112
2.7e+08	0.01767602	0.006561638	-0.7629742	0.523638	0.008100586	0.009647361	0.002433167	0.002848241
	-0.7629742	0.523638	0.01698992	0.007131963	0.002433608	0.002846458	0.007781058	0.009943589
	0.008100586	0.009647361	0.002433608	0.002846458	0.01789431	0.006589492	-0.761609	0.5255279
	0.002433167	0.002848241	0.007781058	0.009943589	-0.761609	0.5255279	0.01707633	0.007281667
2.8e+08	0.02133404	0.005123899	-0.6831327	0.6221152	0.01028654	0.009590491	0.002896777	0.002511094
	-0.6831327	0.6221152	0.02055701	0.005927825	0.002896739	0.002508915	0.009928235	0.01000277
	0.01028654	0.009590491	0.002896739	0.002508915	0.0215687	0.005099819	-0.6814675	0.6238581
	0.002896777	0.002511094	0.009928235	0.01000277	-0.6814675	0.6238581	0.02064438	0.006072838
2.9e+08	0.02438597	0.002752863	-0.5907669	0.7086179	0.01234965	0.008929351	0.00329292	0.00210253
	-0.5907669	0.7086179	0.02357523	0.003815716	0.00329223	0.00210013	0.01198099	0.009468583
	0.01234965	0.008929351	0.00329223	0.00210013	0.02462246	0.002672689	-0.5888176	0.7101665
	0.00329292	0.00210253	0.01198099	0.009468583	-0.5888176	0.7101665	0.02366062	0.003956224
3e+08	0.0266179	-0.000346453	-0.4876417	0.7815849	0.01412667	0.007722445	0.003613829	0.001642193
	-0.4876417	0.7815849	0.0258373	0.0009840824	0.003612388	0.001639815	0.01377887	0.00839137
	0.01412667	0.007722445	0.003612388	0.001639815	0.02684071	-0.0004826584	-0.4854314	0.7828935
	0.003613829	0.001642193	0.01377887	0.00839137	-0.4854314	0.7828935	0.02591792	0.001121153
3.1e+08	0.02787879	-0.003922747	-0.3757105	0.8397093	0.01547707	0.006071144	0.00385844	0.001148562
	-0.3757105	0.8397093	0.02719395	-0.002333999	0.003856252	0.001146482	0.01518181	0.006863642
	0.01547707	0.006071144	0.003856252	0.001146482	0.02807266	-0.004110491	-0.3732696	0.8407351
	0.00385844	0.001148562	0.01518181	0.006863642	-0.3732696	0.8407351	0.02726743	-0.002198499
3.2e+08	0.0280898	-0.007696697	-0.2570808	0.8819597	0.01629394	0.004111743	0.004030925	0.0006366503
	-0.2570808	0.8819597	0.0275629	-0.005877679	0.004028102	0.0006351328	0.01608082	0.005012834
	0.01629394	0.004111743	0.004028102	0.0006351328	0.02824099	-0.007927203	-0.2544465	0.8826637
	0.004030925	0.0006366503	0.01608082	0.005012834	-0.2544465	0.8826637	0.02762747	-0.005741223
3.3e+08	0.02724853	-0.01138086	-0.1339764	0.9075976	0.01651234	0.002004871	0.004138472	0.0001165641
	-0.1339764	0.9075976	0.02693305	-0.009376737	0.004135226	0.0001158171	0.01640635	0.002991426
	0.01651234	0.002004871	0.004135226	0.0001158171	0.027346	-0.01164159	-0.1311921	0.907946
	0.004138472	0.0001165641	0.01640635	0.002991426	-0.1311921	0.907946	0.02698777	-0.009236353
3.4e+08	0.02542792	-0.01469991	-0.008698651	0.9161909	0.01611435	-7.700238e-05	0.00418875	-0.0004068854
	-0.008698651	0.9161909	0.02536392	-0.01257033	0.004185362	-0.0004067469	0.01613371	0.0009651511
	0.01611435	-7.700238e-05	0.004185362	-0.0004067469	0.02546439	-0.01497539	-0.00581355	0.9161557
	0.00418875	-0.0004068854	0.01613371	0.0009651511	-0.00581355	0.9161557	0.02540874	-0.01242284
3.5e+08	0.02277001	-0.01740977	0.1164145	0.9076214	0.01513068	-0.001963013	0.004187497	-0.0009334713
	0.1164145	0.9076214	0.02298018	-0.01522486	0.004184276	-0.0009324485	0.01528494	-0.0008998423
	0.01513068	-0.001963013	0.004184276	-0.0009324485	0.02274267	-0.01768272	0.1193465	0.9071816
	0.004187497	-0.0009334713	0.01528494	-0.0008998423	0.1193465	0.9071816	0.023016	-0.01506715
3.6e+08	0.0194749	-0.01931443	0.2390305	0.8820882	0.01363837	-0.003497312	0.004136666	-0.001465906
	0.2390305	0.8820882	0.01996189	-0.01714968	0.0041339	-0.00146412	0.01392728	-0.002449909
	0.01363837	-0.003497312	0.0041339	-0.00146412	0.01938591	-0.01956708	0.2419513	0.8812304
	0.004136666	-0.001465906	0.01392728	-0.002449909	0.2419513	0.8812304	0.01999048	-0.016979
3.7e+08	0.01578579	-0.02027924	0.3568647	0.8401053	0.01175496	-0.004551392	0.004033465	-0.002007572
	0.3568647	0.8401053	0.01653099	-0.01820976	0.004031372	-0.002005246	0.01216793	-0.003555934
	0.01175496	-0.004551392	0.004031372	-0.002005246	0.01564228	-0.02049476	0.3597137	0.8388245
	0.004033465	-0.002007572	0.01216793	-0.003555934	0.3597137	0.8388245	0.01655489	-0.01802395
3.8e+08	0.01197106	-0.02023975	0.467723	0.7824936	0.00962939	-0.005034368	0.003870452	-0.002560043
	0.467723	0.7824936	0.01293503	-0.01833426	0.003869142	-0.002557467	0.01014584	-0.004123516
	0.009629389	-0.005034368	0.003869142	-0.002557467	0.01178477	-0.02040362	0.4704378	0.780794
	0.003870452	-0.002560043	0.01014584	-0.004123516	0.4704378	0.780794	0.01295736	-0.01813196
3.9e+08	0.00830465	-0.01920555	0.5695436	0.7103668	0.0074303	-0.004900351	0.003636695	-0.003120855
	0.5695436	0.7103668	0.009429333	-0.01752062	0.003636155	-0.003118336	0.008020824	-0.00410048
	0.0074303	-0.004900351	0.003636155	-0.003118336	0.0080912	-0.01930684	0.5720618	0.7082616
	0.003636695	-0.003120855	0.008020824	-0.00410048	0.5720618	0.7082616	0.009453502	-0.0173014
4e+08	0.005046251	-0.01725871	0.6604373	0.625111	0.005332759	-0.004152289	0.003319806	-0.003681934
	0.6604373	0.625111	0.006258666	-0.01583369	0.003319896	-0.003679743	0.005961038	-0.0034811
	0.005332759	-0.004152289	0.003319896	-0.003679743	0.004824015	-0.01729109	0.6626973	0.622623
	0.003319806	-0.003681934	0.005961038	-0.0034811	0.6626973	0.622623	0.006288112	-0.01559813
4.1e+08	0.002422551	-0.014547	0.7387237	0.5283589	0.003504317	-0.00284192	0.002908494	-0.004228991
	0.7387237	0.5283589	0.003639942	-0.01340013	0.002908978	-0.004227316	0.004129688	-0.002306643
	0.003504317	-0.00284192	0.002908978	-0.004227316	0.002211322	-0.01450945	0.740667	0.5255205
	0.002908494	-0.004228991	0.004129688	-0.002306643	0.740667	0.5255205	0.003677835	-0.01314982
4.2e+08	0.0006111081	-0.01127243	0.802965	0.4219581	0.002091639	-0.001065804	0.002395226	-0.004742021
	0.802965	0.4219581	0.001747055	-0.01039847	0.002395811	-0.004740928	0.002672127	-0.0006621595
	0.002091639	-0.001065804	0.002395811	-0.004740928	0.0004305576	-0.01116946	0.8045371	0.4188106
	0.002395226	-0.004742021	0.002672127	-0.0006621595	0.8045371	0.4188106	0.001796008	-0.01013584
4.3e+08	-0.0002720984	-0.007675772	0.8519937	0.3079348	0.001208748	0.001042277	0.001778518	-0.005196859
	0.8519937	0.3079348	0.0006989839	-0.007045465	0.00177891	-0.005196279	0.001704333	0.001330222
	0.001208748	0.001042277	0.00177891	-0.005196279	-0.0004039773	-0.007517353	0.8531457	0.304528
	0.001778518	-0.005196859	0.001704333	0.001330222	0.8531457	0.304528	0.0007608283	-0.006773632
4.4e+08	-0.0001804458	-0.004018553	0.8849348	0.1884532	0.0009279006	0.003321921	0.001064472	-0.00556756
	0.8849348	0.1884532	0.0005520368	-0.003579878	0.001064435	-0.005567301	0.001303749	0.003520975
	0.0009279006	0.003321921	0.001064435	-0.005567301	-0.0002488325	-0.003819449	0.8856248	0.1848448
	0.001064472	-0.00556756	0.001303749	0.003520975	0.8856248	0.1848448	0.0006276374	-0.003302397
4.5e+08	0.0008607288	-0.0005635386	0.9012217	0.06577287	0.001273806	0.005598849	0.0002672771	-0.005829252
	0.9012217	0.06577287	0.001296732	-0.0002449114	0.0002666833	-0.005829029	0.001503216	0.005745011
	0.001273806	0.005598849	0.0002666833	-0.005829029	0.000866209	-0.0003423355	0.9014161	0.06202712
	0.0002672771	-0.005829252	0.001503216	0.005745011	0.9014161	0.06202712	0.001385901	3.452743e-05
4.6e+08	0.00275688	0.00244455	0.9006052	-0.05779627	0.002221678	0.00769873	-0.0005914133	-0.00596099
	0.9006052	-0.05779627	0.002859523	0.00272945	-0.0005925558	-0.005960481	0.002288474	0.007834723
	0.002221678	0.00769873	-0.0005925558	-0.005960481	0.002841189	0.002666787	0.9002794	-0.06160973
	-0.0005914133	-0.00596099	0.002288474	0.007834723	0.9002794	-0.06160973	0.002961008	0.003007332
4.7e+08	0.005352067	0.004796786	0.8831556	-0.1799389	0.003699224	0.009460961	-0.001484158	-0.005948188
	0.8831556	-0.1799389	0.005109136	0.005142851	-0.001485695	-0.00594709	0.003599402	0.009633147
	0.003699224	0.009460961	-0.001485695	-0.00594709	0.005514256	0.004998071	0.8822953	-0.1837464
	-0.001484158	-0.005948188	0.003599402	0.009633147	0.8822953	-0.1837464	0.005220773	0.005416123
4.8e+08	0.008441184	0.006334896	0.8492584	-0.2983785	0.005592394	0.0107513	-0.002380191	-0.005784233
	0.8492584	-0.2983785	0.007866992	0.006838543	-0.00238184	-0.00578233	0.005334858	0.01100622
	0.005592394	0.0107513	-0.00238184	-0.00578233	0.008674153	0.006494004	0.8478599	-0.3021039
	-0.002380191	-0.005784233	0.005334858	0.01100622	0.8478599	-0.3021039	0.007985738	0.007104871
4.9e+08	0.01178562	0.006962195	0.799604	-0.4109198	0.007754371	0.01147237	-0.003248283	-0.00547107
	0.799604	-0.4109198	0.01092085	0.007713964	-0.003249679	-0.005468276	0.007360692	0.01185314
	0.007754371	0.01147237	-0.003249679	-0.005468276	0.01207653	0.007060364	0.7976745	-0.414486
	-0.003248283	-0.00547107	0.007360692	0.01185314	0.7976745	-0.414486	0.01104308	0.007971973
5e+08	0.01513111	0.006649857	0.7351712	-0.5154889	0.01001707	0.0115712	-0.004059577	-0.005018662
	0.7351712	-0.5154889	0.01404064	0.007727224	-0.004060329	-0.005015051	0.009520253	0.01211411
	0.01001707	0.0115712	-0.004060329	-0.005015051	0.01546224	0.006672317	0.7327291	-0.5188195
	-0.004059577	-0.005018662	0.009520253	0.01211411	0.7327291	-0.5188195	0.01416243	0.00797663
5.1e+08	0.01822655	0.005438122	0.6572072	-0.6101694	0.01220423	0.01104333	-0.004789952	-0.004443477
	0.6572072	-0.6101694	0.01699526	0.006899095	-0.004789715	-0.004439282	0.01164656	0.01177484
