!$
! Info: Touchstone file created by Circ.  Input file=Tx_14in_Rx_100ohms_TxVia_35mils_RxVia_45mils.circ
!$
# Hz S RI R 50
0	0.01447057	1.656736e-25	-7.479272e-05	3.702652e-24	9.355261e-05	2.705587e-23	-7.477345e-05	1.382558e-24
	-7.479276e-05	3.706514e-24	0.01446883	2.0371e-25	-7.480345e-05	5.229976e-24	9.342058e-05	3.278612e-23
	9.336746e-05	2.694229e-23	-7.480342e-05	5.226704e-24	0.01448102	1.656397e-25	-7.478939e-05	3.556115e-24
	-7.477348e-05	1.385585e-24	9.157166e-05	3.294741e-23	-7.478941e-05	3.558554e-24	0.01448186	1.908796e-25
1e+07	0.02138973	0.008202755	-0.0002610816	3.888973e-05	0.0009965574	0.002521996	-0.0001004193	-2.016923e-06
	-0.0002610816	3.888973e-05	0.02159328	0.008174303	-1.063295e-05	0.0001726155	0.0009914475	0.002520185
	0.0009965518	0.002521997	-1.063294e-05	0.0001726155	0.0216189	0.008178114	-0.0002610734	3.887893e-05
	-0.0001004192	-2.016927e-06	0.0009913862	0.002520194	-0.0002610734	3.887892e-05	0.02139768	0.008214148
2e+07	0.0282769	0.010571	-0.0002185867	-5.645593e-05	0.001892816	0.005071934	-8.051268e-05	-7.589831e-06
	-0.0002185867	-5.645593e-05	0.02838403	0.01045902	-4.357944e-05	0.000295129	0.001873935	0.005072908
	0.001892817	0.005071938	-4.357943e-05	0.000295129	0.02844137	0.01045606	-0.0002185898	-5.646364e-05
	-8.051268e-05	-7.589836e-06	0.001873925	0.005072943	-0.0002185898	-5.646364e-05	0.0282637	0.01059771
3e+07	0.034064	0.009833057	-0.0001924125	-8.214329e-05	0.003408041	0.007017226	-7.044385e-05	-1.704288e-05
	-0.0001924125	-8.214329e-05	0.03407351	0.009715496	-0.0001036986	0.0003708043	0.003369158	0.00702858
	0.003408044	0.007017225	-0.0001036986	0.0003708043	0.03417679	0.009687993	-0.0001924323	-8.21809e-05
	-7.044385e-05	-1.704289e-05	0.003369158	0.007028586	-0.0001924323	-8.21809e-05	0.03401776	0.009886794
4e+07	0.03887629	0.007289809	-0.0001755538	-9.34125e-05	0.005408928	0.008362993	-6.322529e-05	-2.113235e-05
	-0.0001755538	-9.34125e-05	0.03878946	0.007206687	-0.0001376488	0.000436461	0.005347128	0.008394387
	0.005408928	0.008362991	-0.0001376488	0.000436461	0.03894494	0.007132071	-0.0001756055	-9.349466e-05
	-6.322529e-05	-2.113235e-05	0.005347122	0.008394385	-0.0001756055	-9.349466e-05	0.03879031	0.007386233
5e+07	0.04257705	0.003425833	-0.0001633986	-9.825818e-05	0.007840568	0.008906308	-5.761103e-05	-2.323294e-05
	-0.0001633986	-9.825818e-05	0.04240306	0.003411547	-0.0001522266	0.000497719	0.007756772	0.008967995
	0.007840568	0.008906307	-0.0001522266	0.000497719	0.0426077	0.003265108	-0.0001635079	-9.83915e-05
	-5.761103e-05	-2.323294e-05	0.007756768	0.008967994	-0.0001635079	-9.83915e-05	0.04245097	0.003583374
6e+07	0.04501803	-0.00136766	-0.0001533999	-9.972143e-05	0.01026856	0.008755196	-5.304826e-05	-2.450173e-05
	-0.0001533999	-9.972143e-05	0.04477499	-0.00128384	-0.0001519213	0.0005548435	0.01016769	0.008856994
	0.01026856	0.008755196	-0.0001519213	0.0005548435	0.0450159	-0.00152521	-0.0001535983	-9.989958e-05
	-5.304826e-05	-2.450173e-05	0.01016769	0.008856993	-0.0001535983	-9.989957e-05	0.04485896	-0.001130538
7e+07	0.04609161	-0.006717137	-0.0001635136	-6.909608e-05	0.01250821	0.007945001	-4.844148e-05	-2.551142e-05
	-0.0001635136	-6.909608e-05	0.04580557	-0.006513101	-0.000140301	0.0006068104	0.01239878	0.008094791
	0.01250822	0.007945001	-0.000140301	0.0006068104	0.04606112	-0.006867305	-0.000163815	-6.927872e-05
	-4.844148e-05	-2.551142e-05	0.01239879	0.008094788	-0.000163815	-6.927871e-05	0.0459137	-0.006384876
8e+07	0.04575639	-0.0122518	-0.0001736959	-1.259807e-05	0.01438978	0.006558086	-5.015428e-05	-1.293516e-05
	-0.0001736959	-1.259807e-05	0.04545927	-0.01191454	-0.0001226809	0.0006524161	0.0142831	0.006760665
	0.01438978	0.006558086	-0.0001226809	0.0006524161	0.04570137	-0.01239144	-0.000174092	-1.275478e-05
	-5.015428e-05	-1.293516e-05	0.01428311	0.006760659	-0.000174092	-1.275477e-05	0.04557945	-0.01181409
9e+07	0.04404875	-0.01761083	-0.0001647103	4.403211e-05	0.01577093	0.004718854	-4.891188e-05	3.858841e-06
	-0.0001647103	4.403211e-05	0.04377577	-0.01713779	-0.0001074095	0.0006917563	0.01568003	0.004975053
	0.01577093	0.004718853	-0.0001074095	0.0006917563	0.04397284	-0.01773729	-0.0001652021	4.393537e-05
	-4.891189e-05	3.858842e-06	0.01568004	0.004975047	-0.0001652021	4.393538e-05	0.04389623	-0.01706437
1e+08	0.04109946	-0.02245704	-0.0001303856	9.721263e-05	0.01654036	0.002584097	-4.014245e-05	1.965113e-05
	-0.0001303856	9.721263e-05	0.04088791	-0.02185663	-0.0001202232	0.0007248736	0.01647864	0.002890301
	0.01654035	0.002584097	-0.0001202232	0.0007248736	0.04100828	-0.02256776	-0.0001309623	9.720577e-05
	-4.014245e-05	1.965113e-05	0.01647864	0.002890301	-0.0001309623	9.720577e-05	0.04099605	-0.02180657
1.1e+08	0.0370493	-0.0265948	-8.522606e-05	0.0001133995	0.01666235	0.0003779773	-2.853125e-05	2.406827e-05
	-8.522606e-05	0.0001133995	0.03692868	-0.02589664	-0.0001210106	0.0006850177	0.01664226	0.0007256981
	0.01666235	0.0003779774	-0.0001210106	0.0006850177	0.03694375	-0.02669824	-8.588476e-05	0.0001135115
	-2.853125e-05	2.406827e-05	0.01664226	0.0007256982	-8.588476e-05	0.0001135115	0.03701895	-0.02585516
1.2e+08	0.03208941	-0.02966419	-5.090281e-05	0.0001194382	0.01616265	-0.001764085	-2.04106e-05	2.633862e-05
	-5.090281e-05	0.0001194382	0.03207623	-0.02889463	-9.790258e-05	0.0006552696	0.01619359	-0.001387101
	0.01616265	-0.001764085	-9.790258e-05	0.0006552696	0.03196431	-0.02975503	-5.159584e-05	0.0001197112
	-2.04106e-05	2.633862e-05	0.01619359	-0.001387101	-5.159584e-05	0.0001197112	0.03215052	-0.02885559
1.3e+08	0.02655386	-0.03148263	-2.135276e-05	0.0001187684	0.0150723	-0.003671095	-1.35227e-05	2.733703e-05
	-2.135276e-05	0.0001187684	0.02665996	-0.03067372	-7.368542e-05	0.0006304051	0.01515978	-0.003280214
	0.0150723	-0.003671095	-7.368542e-05	0.0006304051	0.02640952	-0.03155404	-2.202187e-05	0.0001192175
	-1.35227e-05	2.733703e-05	0.01515978	-0.003280214	-2.202187e-05	0.0001192175	0.02671914	-0.03063188
1.4e+08	0.02078562	-0.0319583	3.869556e-06	0.0001130034	0.01347893	-0.005187565	-7.486417e-06	2.737215e-05
	3.869556e-06	0.0001130034	0.02101366	-0.03114616	-5.206854e-05	0.000610796	0.01362361	-0.004800018
	0.01347893	-0.005187565	-5.206854e-05	0.000610796	0.02062554	-0.03200361	3.284481e-06	0.0001136188
	-7.486417e-06	2.737215e-05	0.01362361	-0.004800018	3.284481e-06	0.0001136188	0.02105951	-0.03109698
1.5e+08	0.01513202	-0.03108832	2.475308e-05	0.0001035555	0.01151176	-0.006188997	-2.136023e-06	2.6638e-05
	2.475308e-05	0.0001035555	0.0154737	-0.03031015	-3.319949e-05	0.000597801	0.01170884	-0.005822308
	0.01151176	-0.006188997	-3.319949e-05	0.000597801	0.01496228	-0.03110202	2.430413e-05	0.0001043034
	-2.136023e-06	2.6638e-05	0.01170884	-0.005822308	2.430413e-05	0.0001043034	0.01550889	-0.03025006
1.6e+08	0.009924954	-0.02895655	4.136451e-05	9.174324e-05	0.00933011	-0.006592345	2.606872e-06	2.526802e-05
	4.136451e-05	9.174324e-05	0.01036058	-0.0282471	-1.53941e-05	0.0005925899	0.009569303	-0.006262603
	0.00933011	-0.006592345	-1.53941e-05	0.0005925899	0.009753605	-0.02893501	4.108631e-05	9.257158e-05
	2.606872e-06	2.526802e-05	0.009569303	-0.006262603	4.108631e-05	9.257158e-05	0.01038835	-0.02817362
1.7e+08	0.005460737	-0.02572661	5.399745e-05	7.874283e-05	0.007110213	-0.006362784	6.779326e-06	2.336333e-05
	5.399745e-05	7.874283e-05	0.005959976	-0.02511457	4.070534e-06	0.0005955321	0.00737622	-0.006082921
	0.007110213	-0.006362784	4.070534e-06	0.0005955321	0.005297101	-0.02566857	5.390056e-05	7.958989e-05
	6.779326e-06	2.336333e-05	0.00737622	-0.006082921	5.390056e-05	7.958989e-05	0.005983829	-0.02502633
1.8e+08	0.001981761	-0.02162998	6.317755e-05	6.550305e-05	0.005030741	-0.005516422	1.039548e-05	2.100733e-05
	6.317755e-05	6.550305e-05	0.002505556	-0.02113473	2.832886e-05	0.0006058758	0.005304276	-0.005294681
	0.005030741	-0.005516422	2.832886e-05	0.0006058758	0.00183568	-0.02153691	6.324622e-05	6.63088e-05
	1.039548e-05	2.100733e-05	0.005304276	-0.005294681	6.324622e-05	6.63088e-05	0.002529021	-0.02103143
1.9e+08	-0.0003384634	-0.01694987	6.959235e-05	5.26733e-05	0.003258313	-0.004118799	1.345585e-05	1.827468e-05
	6.959235e-05	5.26733e-05	0.0001650771	-0.01657883	6.03461e-05	0.0006216743	0.003517584	-0.003957539
	0.003258313	-0.004118799	6.03461e-05	0.0006216743	-0.0004574387	-0.01682608	6.978724e-05	5.339072e-05
	1.345585e-05	1.827468e-05	0.003517584	-0.003957539	6.978724e-05	5.339072e-05	0.000191418	-0.01646115
2e+08	-0.001405732	-0.01200167	7.397978e-05	4.057105e-05	0.001934075	-0.002279336	1.595308e-05	1.523704e-05
	7.397978e-05	4.057105e-05	-0.0009693125	-0.01174869	0.0001024082	0.0006399253	0.002156612	-0.002174324
	0.001934075	-0.002279336	0.0001024082	0.0006399253	-0.001489172	-0.01185419	7.42456e-05	4.117555e-05
	1.595308e-05	1.523704e-05	0.002156612	-0.002174324	7.42456e-05	4.117555e-05	-0.0009372962	-0.01161816
2.1e+08	-0.001210199	-0.007111406	7.700541e-05	2.919961e-05	0.001162491	-0.000142252	1.787641e-05	1.196724e-05
	7.700541e-05	2.919961e-05	-0.0008856863	-0.006956312	0.0001557315	0.0006568915	0.001327153	-8.25244e-05
	0.001162491	-0.000142252	0.0001557315	0.0006568915	-0.001251587	-0.006949704	7.728209e-05	2.969447e-05
	1.787641e-05	1.196724e-05	0.001327153	-8.252441e-05	7.728209e-05	2.969447e-05	-0.000845842	-0.006815106
2.2e+08	0.0001743168	-0.002593694	7.915396e-05	1.8316e-05	0.001003209	0.002125268	1.921578e-05	8.541882e-06
	7.915396e-05	1.8316e-05	0.0003484064	-0.002503049	0.0002202352	0.0006685354	0.0010922	0.002156927
	0.001003209	0.002125268	0.0002202352	0.0006685354	0.0001788898	-0.002429074	7.938944e-05	1.873253e-05
	1.921578e-05	8.541882e-06	0.0010922	0.002156927	7.938944e-05	1.873253e-05	0.000397457	-0.002353825
2.3e+08	0.002596723	0.001269366	8.065676e-05	7.536986e-06	0.001466646	0.004346613	1.996598e-05	5.0426e-06
	8.065676e-05	7.536986e-06	0.002592017	0.001340194	0.0002945021	0.0006710055	0.001467341	0.004372598
	0.001466646	0.004346613	0.0002945021	0.0006710055	0.002648033	0.001424486	8.081912e-05	7.929053e-06
	1.996598e-05	5.0426e-06	0.001467341	0.004372598	8.081912e-05	7.929053e-06	0.002650798	0.00149455
2.4e+08	0.005840273	0.004246739	8.146842e-05	-3.536655e-06	0.002513557	0.00634989	2.01308e-05	1.555817e-06
	8.146842e-05	-3.536655e-06	0.005641726	0.004350427	0.0003759319	0.0006611002	0.002419974	0.006396172
	0.002513557	0.00634989	0.0003759319	0.0006611002	0.005935653	0.004379728	8.155483e-05	-3.102997e-06
	2.01308e-05	1.555817e-06	0.002419974	0.006396171	8.155483e-05	-3.102997e-06	0.005709884	0.004507037
2.5e+08	0.009638538	0.006173236	8.129612e-05	-1.519625e-05	0.004058556	0.007981502	1.972668e-05	-1.829316e-06
	8.129612e-05	-1.519625e-05	0.009246622	0.00636647	0.0004610478	0.0006366279	0.003872321	0.008075626
	0.004058556	0.007981502	0.0004610478	0.0006366279	0.009771823	0.006272232	8.133679e-05	-1.465646e-05
	1.972668e-05	-1.829316e-06	0.003872321	0.008075626	8.133679e-05	-1.465646e-05	0.00932297	0.006522708
2.6e+08	0.01369454	0.006959522	7.967628e-05	-2.75273e-05	0.005977223	0.009118121	1.878531e-05	-5.024347e-06
	7.967628e-05	-2.75273e-05	0.0131262	0.007298396	0.0005459175	0.0005966288	0.005707926	0.009286959
	0.005977223	0.009118121	0.0005459175	0.0005966288	0.0138563	0.007014418	7.973223e-05	-2.683293e-05
	1.878531e-05	-5.024347e-06	0.005707926	0.009286959	7.973223e-05	-2.683293e-05	0.01320882	0.007452112
2.7e+08	0.01770166	0.006596743	7.608453e-05	-4.035103e-05	0.008116165	0.009676147	1.735465e-05	-7.946053e-06
	7.608453e-05	-4.035103e-05	0.01698992	0.007131963	0.0006266109	0.0005414192	0.007781058	0.009943589
	0.008116165	0.009676147	0.0006266109	0.0005414192	0.01787973	0.006600095	7.623928e-05	-3.948264e-05
	1.735465e-05	-7.946053e-06	0.007781058	0.009943589	7.623928e-05	-3.948264e-05	0.01707633	0.007281667
2.8e+08	0.02136486	0.005155526	7.005924e-05	-5.321798e-05	0.01030522	0.009617986	1.549815e-05	-1.052112e-05
	7.005924e-05	-5.321798e-05	0.02055701	0.005927825	0.0006996406	0.0004724633	0.009928235	0.01000277
	0.01030522	0.009617986	0.0006996406	0.0004724633	0.02154509	0.005103319	7.040542e-05	-5.219374e-05
	1.549815e-05	-1.052112e-05	0.009928235	0.01000277	7.040542e-05	-5.219374e-05	0.02064438	0.006072838
2.9e+08	0.02442069	0.002779557	6.131737e-05	-6.545207e-05	0.01237079	0.00895473	1.329202e-05	-1.269042e-05
	6.131737e-05	-6.545207e-05	0.02357523	0.003815716	0.0007623021	0.0003920975	0.01198099	0.009468583
	0.01237079	0.00895473	0.0007623021	0.0003920975	0.02458793	0.002671723	6.19404e-05	-6.433032e-05
	1.329202e-05	-1.269042e-05	0.01198099	0.009468583	6.19404e-05	-6.433032e-05	0.02366062	0.003956224
3e+08	0.02665485	-0.0003257394	4.984291e-05	-7.62389e-05	0.01414942	0.007745086	1.082117e-05	-1.441203e-05
	4.984291e-05	-7.62389e-05	0.0258373	0.0009840824	0.0008128803	0.0003031576	0.01377887	0.00839137
	0.01414942	0.007745086	0.0008128803	0.0003031576	0.02679408	-0.0004850693	5.080448e-05	-7.511379e-05
	1.082117e-05	-1.441203e-05	0.01377887	0.00839137	5.080448e-05	-7.511379e-05	0.02591792	0.001121153
3.1e+08	0.02791605	-0.003908545	3.593178e-05	-8.474415e-05	0.01550043	0.006090684	8.174609e-06	-1.566256e-05
	3.593178e-05	-8.474415e-05	0.02719395	-0.002333999	0.0008507011	0.0002085641	0.01518181	0.006863642
	0.01550043	0.006090684	0.0008507011	0.0002085641	0.02801354	-0.004111124	3.725592e-05	-8.373456e-05
	8.174609e-06	-1.566256e-05	0.01518181	0.006863642	3.725592e-05	-8.373456e-05	0.02726743	-0.002198499
3.2e+08	0.02812532	-0.007688957	2.018616e-05	-9.024073e-05	0.01631682	0.00412812	5.44058e-06	-1.6437e-05
	2.018616e-05	-9.024073e-05	0.0275629	-0.005877679	0.0008760105	0.0001109406	0.01608082	0.005012834
	0.01631682	0.00412812	0.0008760105	0.0001109406	0.02816979	-0.00792283	2.185068e-05	-8.947413e-05
	5.44058e-06	-1.6437e-05	0.01608082	0.005012834	2.185068e-05	-8.947413e-05	0.02762747	-0.005741223
3.3e+08	0.02728031	-0.01137894	3.457756e-06	-9.222513e-05	0.01653365	0.002018338	2.702431e-06	-1.674715e-05
	3.457756e-06	-9.222513e-05	0.02693305	-0.009376737	0.0008897278	1.231696e-05	0.01640635	0.002991426
	0.01653365	0.002018338	0.0008897278	1.231696e-05	0.02726392	-0.01162917	5.392681e-06	-9.181873e-05
	2.702431e-06	-1.674715e-05	0.01640635	0.002991426	5.392681e-06	-9.181873e-05	0.02698777	-0.009236353
3.4e+08	0.02545422	-0.01470259	-1.325212e-05	-9.050313e-05	0.01613311	-6.58891e-05	3.541312e-08	-1.66191e-05
	-1.325212e-05	-9.050313e-05	0.02536392	-0.01257033	0.0008931098	-8.604288e-05	0.01613371	0.0009651511
	0.01613311	-6.58891e-05	0.0008931098	-8.604288e-05	0.02537335	-0.01495226	-1.115838e-05	-9.054551e-05
	3.541312e-08	-1.66191e-05	0.01613371	0.0009651511	-1.115838e-05	-9.054551e-05	0.02540874	-0.01242284
3.5e+08	0.02278944	-0.01741537	-2.891879e-05	-8.522951e-05	0.01514609	-0.001953426	-2.49571e-06	-1.609022e-05
	-2.891879e-05	-8.522951e-05	0.02298018	-0.01522486	0.0008873796	-0.0001836507	0.01528494	-0.0008998423
	0.01514609	-0.001953426	0.0008873796	-0.0001836507	0.02264524	-0.01764678	-2.680614e-05	-8.576574e-05
	-2.49571e-06	-1.609022e-05	0.01528494	-0.0008998423	-2.680614e-05	-8.576574e-05	0.023016	-0.01506715
3.6e+08	0.01948662	-0.01932089	-4.262798e-05	-7.689517e-05	0.01364989	-0.003488212	-4.837977e-06	-1.5206e-05
	-4.262798e-05	-7.689517e-05	0.01996189	-0.01714968	0.0008733929	-0.0002806622	0.01392728	-0.002449909
	0.01364989	-0.003488212	0.0008733929	-0.0002806622	0.0192851	-0.01951692	-4.064618e-05	-7.791817e-05
	-4.837977e-06	-1.5206e-05	0.01392728	-0.002449909	-4.064618e-05	-7.791817e-05	0.01999048	-0.016979
3.7e+08	0.01578956	-0.0202843	-5.369421e-05	-6.626232e-05	0.01176236	-0.004541611	-6.950816e-06	-1.40167e-05
	-5.369421e-05	-6.626232e-05	0.01653099	-0.01820976	0.000851391	-0.0003776134	0.01216793	-0.003555934
	0.01176236	-0.004541611	0.000851391	-0.0003776134	0.01554138	-0.02042975	-5.198209e-05	-6.771225e-05
	-6.950816e-06	-1.40167e-05	0.01216793	-0.003555934	-5.198209e-05	-6.771225e-05	0.01655489	-0.01802395
3.8e+08	0.01196729	-0.02024116	-6.174507e-05	-5.425783e-05	0.009632773	-0.005022698	-8.805761e-06	-1.25742e-05
	-6.174507e-05	-5.425783e-05	0.01293503	-0.01833426	0.0008208863	-0.0004750818	0.01014584	-0.004123516
	0.009632773	-0.005022698	0.0008208863	-0.0004750818	0.01168715	-0.02032399	-6.04108e-05	-5.602977e-05
	-8.805761e-06	-1.25742e-05	0.01014584	-0.004123516	-6.04108e-05	-5.602977e-05	0.01295736	-0.01813196
3.9e+08	0.008294383	-0.01920121	-6.675664e-05	-4.184168e-05	0.007430122	-0.004885643	-1.038534e-05	-1.092911e-05
	-6.675664e-05	-4.184168e-05	0.009429333	-0.01752062	0.0007806988	-0.0005733282	0.008020824	-0.00410048
	0.007430122	-0.004885643	0.0007806988	-0.0005733282	0.008000096	-0.01921368	-6.586244e-05	-4.380082e-05
	-1.038534e-05	-1.092911e-05	0.008020824	-0.00410048	-6.586244e-05	-4.380082e-05	0.009453502	-0.0173014
4e+08	0.005031091	-0.01724686	-6.903379e-05	-2.987239e-05	0.005329787	-0.004133552	-1.168114e-05	-9.128247e-06
	-6.903379e-05	-2.987239e-05	0.006258666	-0.01583369	0.0007291413	-0.0006719791	0.005961038	-0.0034811
	0.005329787	-0.004133552	0.0007291413	-0.0006719791	0.004742304	-0.01718626	-6.858789e-05	-3.187427e-05
	-1.168114e-05	-9.128247e-06	0.005961038	-0.0034811	-6.858789e-05	-3.187427e-05	0.006288112	-0.01559813
4.1e+08	0.002404572	-0.01452639	-6.913904e-05	-1.899177e-05	0.003499585	-0.002818411	-1.269113e-05	-7.213202e-06
	-6.913904e-05	-1.899177e-05	0.003639942	-0.01340013	0.0006643216	-0.0007698105	0.004129688	-0.002306643
	0.003499585	-0.002818411	0.0006643216	-0.0007698105	0.002141337	-0.01439551	-6.90963e-05	-2.090433e-05
	-1.269113e-05	-7.213202e-06	0.004129688	-0.002306643	-6.90963e-05	-2.090433e-05	0.003677835	-0.01314982
4.2e+08	0.0005926816	-0.01124241	-6.778165e-05	-9.548338e-06	0.002086362	-0.001037089	-1.34167e-05	-5.219914e-06
	-6.778165e-05	-9.548338e-06	0.001747055	-0.01039847	0.0005845144	-0.0008646674	0.002672127	-0.0006621595
	0.002086362	-0.001037089	0.0005845144	-0.0008646674	0.0003739158	-0.01104951	-6.805312e-05	-1.12721e-05
	-1.34167e-05	-5.219914e-06	0.002672127	-0.0006621595	-6.805312e-05	-1.12721e-05	0.001796008	-0.01013584
4.3e+08	-0.0002884799	-0.007636388	-6.568632e-05	-1.572497e-06	0.001204234	0.001076273	-1.385989e-05	-3.179703e-06
	-6.568632e-05	-1.572497e-06	0.0006989839	-0.007045465	0.0004885467	-0.0009535385	0.001704333	0.001330222
	0.001204234	0.001076273	0.0004885467	-0.0009535385	-0.0004464858	-0.007394802	-6.615638e-05	-3.055323e-06
	-1.385989e-05	-3.179703e-06	0.001704333	0.001330222	-6.615638e-05	-3.055323e-06	0.0007608283	-0.006773632
4.4e+08	-0.0001923649	-0.00397054	-6.346452e-05	5.193215e-06	0.00092544	0.003360904	-1.402148e-05	-1.121435e-06
	-6.346452e-05	5.193215e-06	0.0005520368	-0.003579878	0.0003761279	-0.00103278	0.001303749	0.003520975
	0.00092544	0.003360904	0.0003761279	-0.00103278	-0.0002773163	-0.003697837	-6.401266e-05	3.949469e-06
	-1.402148e-05	-1.121435e-06	0.001303749	0.003520975	-6.401266e-05	3.949469e-06	0.0006276374	-0.003302397
4.5e+08	0.0008554196	-0.0005082895	-6.151052e-05	1.121457e-05	0.001274572	0.005642169	-1.390059e-05	9.256335e-07
	-6.151052e-05	1.121457e-05	0.001296732	-0.0002449114	0.0002480757	-0.001098454	0.001503216	0.005745011
	0.001274572	0.005642169	0.0002480757	-0.001098454	0.0008507382	-0.0002250781	-6.203425e-05	1.01569e-05
	-1.390059e-05	9.256335e-07	0.001503216	0.005745011	-6.203425e-05	1.01569e-05	0.001385901	3.452743e-05
4.6e+08	0.002759896	0.00250508	-5.993974e-05	1.705179e-05	0.002226628	0.007745425	-1.349563e-05	2.929232e-06
	-5.993974e-05	1.705179e-05	0.002859523	0.00272945	0.0001063918	-0.001146736	0.002288474	0.007834723
	0.002226628	0.007745425	0.0001063918	-0.001146736	0.002836871	0.002776626	-6.037485e-05	1.6088e-05
	-1.349563e-05	2.929232e-06	0.002288474	0.007834723	-6.037485e-05	1.6088e-05	0.002961008	0.003007332
4.7e+08	0.005364576	0.004860203	-5.857968e-05	2.323123e-05	0.00370902	0.009509832	-1.28058e-05	4.85275e-06
	-5.857968e-05	2.323123e-05	0.005109136	0.005142851	-4.580351e-05	-0.001174318	0.003599402	0.009633147
	0.00370902	0.009509832	-4.580351e-05	-0.001174318	0.005518434	0.005098001	-5.891339e-05	2.224972e-05
