!$
! Info: Touchstone file created by Circ.  Input file=Tx_10in_Rx_100ohms_TxVia_35mils_RxVia_45mils.circ
!$
# Hz S RI R 50
0	0.01041878	1.265104e-25	7.377547e-10	1.758198e-27	7.280937e-05	1.945069e-23	3.651439e-10	3.815866e-28
	7.377547e-10	1.758177e-27	0.01041707	1.543833e-25	2.48873e-09	6.865169e-27	7.267327e-05	2.356907e-23
	7.262378e-05	1.936904e-23	2.48873e-09	6.865178e-27	0.0104294	1.264934e-25	7.399721e-10	1.883143e-27
	3.651438e-10	3.815806e-28	7.082512e-05	2.368511e-23	7.399726e-10	1.88316e-27	0.01043017	1.446498e-25
1e+07	0.01519921	0.006578565	9.682196e-10	1.324561e-09	0.0006571516	0.00190513	6.083059e-10	6.277408e-10
	9.682196e-10	1.324561e-09	0.01534751	0.006564045	3.627623e-09	6.735898e-09	0.0006534847	0.001903356
	0.0006571462	0.001905131	3.627623e-09	6.735898e-09	0.01537033	0.00657041	9.606611e-10	1.345955e-09
	6.083058e-10	6.277408e-10	0.000653424	0.001903365	9.606609e-10	1.345955e-09	0.01520928	0.006588831
2e+07	0.01988603	0.009357161	1.388485e-09	2.245218e-09	0.001106683	0.003893828	1.023182e-09	9.610418e-10
	1.388485e-09	2.245218e-09	0.01997097	0.009281557	4.927484e-09	1.174101e-08	0.001092836	0.003892809
	0.001106684	0.003893832	4.927484e-09	1.174101e-08	0.0200183	0.009288176	1.351408e-09	2.289567e-09
	1.023181e-09	9.610418e-10	0.001092827	0.003892844	1.351407e-09	2.289567e-09	0.01988045	0.009378971
3e+07	0.02398813	0.01020052	1.795622e-09	3.024489e-09	0.001932855	0.00556684	1.477469e-09	1.169194e-09
	1.795622e-09	3.024489e-09	0.0240061	0.0101143	5.894758e-09	1.649097e-08	0.001903316	0.005570797
	0.001932858	0.005566839	5.894758e-09	1.649097e-08	0.02409105	0.010111	1.708033e-09	3.109283e-09
	1.477469e-09	1.169194e-09	0.001903315	0.005570802	1.708033e-09	3.109283e-09	0.02395675	0.01024019
4e+07	0.02772327	0.009961386	2.211877e-09	3.674538e-09	0.003098576	0.006968359	1.967251e-09	1.228553e-09
	2.211877e-09	3.674538e-09	0.02766987	0.009888139	6.756426e-09	2.105719e-08	0.003049197	0.006982965
	0.003098576	0.006968358	6.756426e-09	2.105719e-08	0.0278023	0.009861343	2.06075e-09	3.821856e-09
	1.967251e-09	1.228553e-09	0.003049192	0.006982963	2.06075e-09	3.821856e-09	0.02765788	0.01002763
5e+07	0.03109016	0.008876375	2.603596e-09	4.192575e-09	0.00465827	0.007984223	2.449692e-09	1.127371e-09
	2.603597e-09	4.192575e-09	0.03096374	0.008837485	7.512607e-09	2.545684e-08	0.004586614	0.008016083
	0.00465827	0.007984222	7.512607e-09	2.545684e-08	0.03114933	0.008770633	2.383478e-09	4.4273e-09
	2.449692e-09	1.127371e-09	0.00458661	0.008016081	2.383478e-09	4.4273e-09	0.03098502	0.008980668
6e+07	0.03403923	0.007091918	2.941501e-09	4.593889e-09	0.006355225	0.008653137	2.883158e-09	8.711496e-10
	2.941501e-09	4.59389e-09	0.03384233	0.007108026	8.148189e-09	2.972866e-08	0.006260806	0.008709575
	0.006355226	0.008653137	8.148189e-09	2.972866e-08	0.03408168	0.006983069	2.654481e-09	4.941629e-09
	2.883158e-09	8.711496e-10	0.006260809	0.008709575	2.654481e-09	4.941629e-09	0.03389216	0.007247476
7e+07	0.03650842	0.004727934	3.184324e-09	4.892839e-09	0.008119644	0.008958874	3.180537e-09	4.73744e-10
	3.184324e-09	4.892839e-09	0.03624797	0.004818448	8.620069e-09	3.388382e-08	0.008004004	0.009047322
	0.008119646	0.008958874	8.620069e-09	3.388382e-08	0.03653654	0.004617373	2.836978e-09	5.377635e-09
	3.180537e-09	4.73744e-10	0.008004013	0.009047319	2.836978e-09	5.377635e-09	0.036321	0.004948498
8e+07	0.03843885	0.001899347	3.300101e-09	5.11169e-09	0.009878476	0.008897821	3.303291e-09	-1.596493e-11
	3.300101e-09	5.11169e-09	0.0381261	0.002081759	8.922124e-09	3.796808e-08	0.009745167	0.009025322
	0.009878479	0.008897821	8.922125e-09	3.796808e-08	0.03845446	0.001787841	2.906088e-09	5.757007e-09
	3.303291e-09	-1.596507e-11	0.009745178	0.009025316	2.906087e-09	5.757007e-09	0.03821635	0.002198261
9e+07	0.03978357	-0.001276786	3.282866e-09	5.285232e-09	0.01155797	0.008479827	3.270802e-09	-5.503191e-10
	3.282866e-09	5.285232e-09	0.0394339	-0.0009875581	9.079577e-09	4.203618e-08	0.01141244	0.008652555
	0.01155797	0.008479826	9.079577e-09	4.203618e-08	0.0397882	-0.001388652	2.86476e-09	6.112466e-09
	3.270803e-09	-5.503193e-10	0.01141244	0.00865255	2.86476e-09	6.112467e-09	0.03953474	-0.0008873931
1e+08	0.04052416	-0.004673908	3.111214e-09	5.435952e-09	0.01308092	0.00772519	3.086356e-09	-1.077866e-09
	3.111214e-09	5.435952e-09	0.04015814	-0.004265531	9.095166e-09	4.611649e-08	0.01293027	0.00794801
	0.01308092	0.00772519	9.095166e-09	4.611649e-08	0.0405207	-0.004784744	2.698264e-09	6.462287e-09
	3.086356e-09	-1.077866e-09	0.01293027	0.00794801	2.698264e-09	6.462287e-09	0.04026097	-0.004183933
1.1e+08	0.04064385	-0.008268628	2.869768e-09	5.570294e-09	0.01438244	0.006714176	2.785877e-09	-1.619834e-09
	2.869768e-09	5.570294e-09	0.04028583	-0.007742957	9.049902e-09	5.025489e-08	0.01423544	0.006989927
	0.01438244	0.006714176	9.049902e-09	5.025489e-08	0.04063549	-0.008387473	2.500596e-09	6.806349e-09
	2.785877e-09	-1.619834e-09	0.01423544	0.006989927	2.500596e-09	6.806349e-09	0.04038326	-0.007671789
1.2e+08	0.04006172	-0.0118673	2.498804e-09	5.765056e-09	0.0154471	0.005468128	2.301319e-09	-2.140411e-09
	2.498804e-09	5.765056e-09	0.03972764	-0.01122432	8.893807e-09	5.447701e-08	0.01531294	0.005797788
	0.0154471	0.005468128	8.893807e-09	5.447701e-08	0.04004123	-0.01199521	2.208257e-09	7.206e-09
	2.301319e-09	-2.140411e-09	0.01531294	0.005797788	2.208257e-09	7.206e-09	0.03981957	-0.01116033
1.3e+08	0.03881983	-0.01533327	1.997609e-09	6.041534e-09	0.01622247	0.004036157	1.641774e-09	-2.583924e-09
	1.997609e-09	6.041534e-09	0.03852873	-0.01457567	8.644017e-09	5.880729e-08	0.01611078	0.004418481
	0.01622247	0.004036157	8.644017e-09	5.880729e-08	0.0387825	-0.0154684	1.820156e-09	7.675306e-09
	1.641774e-09	-2.583924e-09	0.01611078	0.004418481	1.820156e-09	7.675306e-09	0.03861376	-0.01451646
1.4e+08	0.03696572	-0.01854848	1.380096e-09	6.430481e-09	0.01667484	0.002480642	8.231077e-10	-2.905853e-09
	1.380096e-09	6.430481e-09	0.03673711	-0.01768329	8.326422e-09	6.326914e-08	0.01659512	0.002912038
	0.01667484	0.002480642	8.326422e-09	6.326914e-08	0.03690802	-0.01868759	1.34818e-09	8.237275e-09
	8.231077e-10	-2.905853e-09	0.01659512	0.002912038	1.34818e-09	8.237275e-09	0.03681411	-0.01762644
1.5e+08	0.03456301	-0.02140707	6.675482e-10	6.961612e-09	0.01678508	0.0008700432	-1.302598e-10	-3.066269e-09
	6.675482e-10	6.961612e-09	0.03441545	-0.02044601	7.971404e-09	6.788143e-08	0.01674615	0.001344589
	0.01678508	0.0008700432	7.971404e-09	6.788143e-08	0.03448253	-0.02154598	8.097867e-10	8.914131e-09
	-1.302598e-10	-3.066269e-09	0.01674615	0.001344589	8.097867e-10	8.914131e-09	0.03448376	-0.02038908
1.6e+08	0.03169093	-0.02381713	-1.112594e-10	7.661578e-09	0.01654889	-0.000724563	-1.185093e-09	-3.030483e-09
	-1.112594e-10	7.661578e-09	0.03164073	-0.02277645	7.61333e-09	7.265743e-08	0.01655835	-0.0002149656
	0.01654889	-0.000724563	7.61333e-09	7.265743e-08	0.03158641	-0.02395105	2.28164e-10	9.725766e-09
	-1.185093e-09	-3.030483e-09	0.01655835	-0.0002149656	2.28164e-10	9.725766e-09	0.03170016	-0.0227171
1.7e+08	0.02844245	-0.02570291	-9.204028e-10	8.551956e-09	0.01597683	-0.002232671	-2.300146e-09	-2.770696e-09
	-9.204028e-10	8.551956e-09	0.02850252	-0.02460292	7.289823e-09	7.760388e-08	0.01604048	-0.00169801
	0.01597683	-0.002232671	7.289823e-09	7.760388e-08	0.0283138	-0.02582671	-3.679554e-10	1.068817e-08
	-2.300146e-09	-2.770696e-09	0.01604048	-0.00169801	-3.679554e-10	1.068817e-08	0.0285533	-0.02453895
1.8e+08	0.02492162	-0.02700694	-1.717534e-09	9.647241e-09	0.01509372	-0.003587404	-3.427388e-09	-2.267726e-09
	-1.717534e-09	9.647241e-09	0.02510042	-0.02587119	7.040749e-09	8.271997e-08	0.01521516	-0.003039153
	0.01509372	-0.003587404	7.040749e-09	8.271997e-08	0.02476993	-0.02711538	-9.44756e-10	1.181183e-08
	-3.427388e-09	-2.267726e-09	0.01521516	-0.003039153	-9.44756e-10	1.181183e-08	0.02514318	-0.02580061
1.9e+08	0.02124042	-0.0276917	-2.455152e-09	1.095287e-08	0.01393761	-0.004728372	-4.513643e-09	-1.512594e-09
	-2.455152e-09	1.095287e-08	0.02154118	-0.02654597	6.906844e-09	8.799644e-08	0.01411789	-0.004178988
	0.01393761	-0.004728372	6.906844e-09	8.799644e-08	0.02106797	-0.02777966	-1.464253e-09	1.310001e-08
	-4.513643e-09	-1.512594e-09	0.01411789	-0.004178988	-1.464253e-09	1.310001e-08	0.02157683	-0.02646703
2e+08	0.01751511	-0.02774073	-3.082504e-09	1.246342e-08	0.01255813	-0.005604252	-5.50264e-09	-5.078804e-10
	-3.082504e-09	1.246342e-08	0.0179353	-0.02661186	6.927971e-09	9.341491e-08	0.01279549	-0.005066593
	0.01255813	-0.005604252	6.927971e-09	9.341491e-08	0.01732535	-0.02780349	-1.88576e-09	1.454728e-08
	-5.50264e-09	-5.078804e-10	0.01279549	-0.005066593	-1.88576e-09	1.454728e-08	0.01796505	-0.02652308
2.1e+08	0.01386246	-0.02715916	-3.548105e-09	1.416121e-08	0.01101438	-0.006174969	-6.337464e-09	7.312853e-10
	-3.548105e-09	1.416121e-08	0.01439352	-0.02607368	7.141057e-09	9.894766e-08	0.01130415	-0.005661656
	0.01101438	-0.006174969	7.141057e-09	9.894766e-08	0.01365993	-0.02719262	-2.167936e-09	1.613814e-08
	-6.337464e-09	7.312853e-10	0.01130415	-0.005661656	-2.167936e-09	1.613814e-08	0.01441877	-0.02597388
2.2e+08	0.01039585	-0.02597338	-3.80283e-09	1.601553e-08	0.009372424	-0.006413402	-6.96335e-09	2.176744e-09
	-3.80283e-09	1.601553e-08	0.01102323	-0.02495622	7.577797e-09	1.045578e-07	0.009707083	-0.005936166
	0.009372424	-0.006413402	7.577797e-09	1.045578e-07	0.01018604	-0.02597432	-2.271372e-09	1.784632e-08
	-6.96335e-09	2.176744e-09	0.009707083	-0.005936166	-2.271372e-09	1.784632e-08	0.01104557	-0.02484451
2.3e+08	0.007221415	-0.02423013	-3.803382e-09	1.798268e-08	0.007702472	-0.006306543	-7.330715e-09	3.787456e-09
	-3.803382e-09	1.798268e-08	0.007924931	-0.02330323	8.262275e-09	1.102004e-07	0.008071809	-0.005875578
	0.007702472	-0.006306543	8.262275e-09	1.102004e-07	0.007010611	-0.02419639	-2.161564e-09	1.963472e-08
	-7.330715e-09	3.787456e-09	0.008071809	-0.005875578	-2.161564e-09	1.963472e-08	0.007946053	-0.02317908
2.4e+08	0.004434411	-0.02199479	-3.515886e-09	2.000706e-08	0.0060759	-0.005856039	-7.398276e-09	5.510389e-09
	-3.515886e-09	2.000706e-08	0.005188873	-0.02117584	9.208725e-09	1.158236e-07	0.006467364	-0.005479403
	0.0060759	-0.005856039	9.208725e-09	1.158236e-07	0.00422948	-0.0219255	-1.812038e-09	2.145626e-08
	-7.398276e-09	5.510389e-09	0.006467364	-0.005479403	-1.812038e-09	2.145626e-08	0.005210537	-0.02103907
2.5e+08	0.002115981	-0.01934902	-2.919305e-09	2.202331e-08	0.004562216	-0.005078128	-7.136051e-09	7.282224e-09
	-2.919305e-09	2.202331e-08	0.002892133	-0.01865037	1.041961e-08	1.213712e-07	0.004961373	-0.004761212
	0.004562216	-0.005078128	1.041961e-08	1.213712e-07	0.001924096	-0.01924468	-1.207344e-09	2.325575e-08
	-7.136051e-09	7.282224e-09	0.004961373	-0.004761212	-1.207344e-09	2.325575e-08	0.002916087	-0.01850116
2.6e+08	0.0003303664	-0.0163878	-2.008295e-09	2.395946e-08	0.003226104	-0.00400293	-6.528009e-09	9.031854e-09
	-2.008295e-09	2.395946e-08	0.001096037	-0.01581557	1.188427e-08	1.267856e-07	0.003617217	-0.003748038
	0.003226104	-0.00400293	1.188427e-08	1.267856e-07	0.0001587096	-0.01625045	-3.455621e-10	2.497262e-08
	-6.528009e-09	9.031854e-09	0.003617217	-0.003748038	-3.455621e-10	2.497262e-08	0.001123946	-0.01565447
2.7e+08	-0.0008772541	-0.01321607	-7.952003e-10	2.574104e-08	0.002124682	-0.002673153	-5.574128e-09	1.068363e-08
	-7.952003e-10	2.574104e-08	-0.0001558046	-0.01276947	1.357835e-08	1.320107e-07	0.002491385	-0.00247921
	0.002124682	-0.002673153	1.357835e-08	1.320107e-07	-0.001021814	-0.01304924	7.599596e-10	2.654458e-08
	-5.574128e-09	1.068363e-08	0.002491385	-0.00247921	7.599596e-10	2.654458e-08	-0.0001224282	-0.01259737
2.8e+08	-0.00148226	-0.009944899	6.891338e-10	2.729568e-08	0.001305088	-0.001142271	-4.291636e-09	1.216117e-08
	6.891338e-10	2.729568e-08	-0.0008388425	-0.009615874	1.546407e-08	1.369957e-07	0.001631117	-0.001004676
	0.001305088	-0.001142271	1.546407e-08	1.369957e-07	-0.001593481	-0.009753565	2.079953e-09	2.791167e-08
	-4.291636e-09	1.216117e-08	0.001631117	-0.001004676	2.079953e-09	2.791167e-08	-0.0007987048	-0.009433972
2.9e+08	-0.001481318	-0.0066875	2.395853e-09	2.855803e-08	0.0008025035	0.0005277697	-2.715269e-09	1.33915e-08
	2.395853e-09	2.855803e-08	-0.0009482578	-0.006460736	1.749149e-08	1.416979e-07	0.001072457	0.0006171285
	0.0008025035	0.0005277697	1.749149e-08	1.416979e-07	-0.001553913	-0.006477991	3.569776e-09	2.902066e-08
	-2.715269e-09	1.33915e-08	0.001072457	0.0006171285	3.569776e-09	2.902066e-08	-0.0009003543	-0.006270481
3e+08	-0.0008923493	-0.003555182	4.259982e-09	2.947437e-08	0.0006386836	0.002269183	-8.964427e-10	1.430931e-08
	4.259982e-09	2.947437e-08	-0.0004989232	-0.003408392	1.960067e-08	1.460867e-07	0.0008387833	0.002321744
	0.0006386836	0.002269183	1.960067e-08	1.460867e-07	-0.0009222682	-0.003334973	5.171227e-09	2.982914e-08
	-8.964427e-10	1.430931e-08	0.0008387833	0.002321744	5.171227e-09	2.982914e-08	-0.0004425844	-0.003211429
3.1e+08	0.0002462895	-0.0006533726	6.203596e-09	3.000676e-08	0.000821073	0.004011216	1.098653e-09	1.486084e-08
	6.203596e-09	3.000676e-08	0.0004753423	-0.0005579425	2.172457e-08	1.501449e-07	0.0009398736	0.004041406
	0.000821073	0.004011216	2.172457e-08	1.501449e-07	0.0002616077	-0.0004308303	6.815543e-09	3.030902e-08
	1.098653e-09	1.486084e-08	0.0009398737	0.004041406	6.815543e-09	3.030902e-08	0.0005404118	-0.000356032
3.2e+08	0.001877357	0.001922117	8.140032e-09	3.013607e-08	0.001342527	0.005683138	3.191948e-09	1.500736e-08
	8.140032e-09	3.013607e-08	0.001923183	0.00200017	2.379258e-08	1.53871e-07	0.001371554	0.005707869
	0.001342527	0.005683138	2.379258e-08	1.53871e-07	0.001938789	0.002138038	8.427313e-09	3.044919e-08
	3.191948e-09	1.500736e-08	0.001371554	0.005707869	8.427313e-09	3.044919e-08	0.001996885	0.002205233
3.3e+08	0.003926966	0.004088448	9.978821e-09	2.986382e-08	0.002181647	0.007217203	5.297185e-09	1.472769e-08
	9.978821e-09	2.986382e-08	0.003777736	0.004187232	2.573431e-08	1.572795e-07	0.002115924	0.007255252
	0.002181647	0.007217203	2.573431e-08	1.572795e-07	0.004033574	0.004288554	9.929017e-09	3.025685e-08
	5.297185e-09	1.472769e-08	0.002115924	0.007255252	9.929017e-09	3.025685e-08	0.003859575	0.004393706
3.4e+08	0.006307403	0.005778611	1.163091e-08	2.921262e-08	0.003303711	0.008551482	7.324143e-09	1.401981e-08
	1.163091e-08	2.921262e-08	0.005959188	0.005938885	2.748341e-08	1.604003e-07	0.003142151	0.008622748
	0.003303711	0.008551482	2.748341e-08	1.604003e-07	0.00645638	0.005953849	1.124576e-08	2.975759e-08
	7.324143e-09	1.401981e-08	0.003142151	0.008622748	1.124576e-08	2.975759e-08	0.00604829	0.006145167
3.5e+08	0.008920441	0.006943683	1.301375e-08	2.822517e-08	0.004662155	0.009632426	9.183111e-09	1.290137e-08
	1.301375e-08	2.822517e-08	0.008377762	0.007207196	2.898106e-08	1.632777e-07	0.004407795	0.009757116
	0.004662155	0.009632426	2.898106e-08	1.632777e-07	0.009107133	0.007085524	1.230982e-08	2.899417e-08
	9.183111e-09	1.290137e-08	0.004407795	0.009757116	1.230982e-08	2.899417e-08	0.008472914	0.007411902
3.6e+08	0.01166099	0.007554403	1.405587e-08	2.6962e-08	0.006200532	0.01041708	1.078927e-08	1.140903e-08
	1.405587e-08	2.6962e-08	0.01093703	0.007962125	3.017903e-08	1.659678e-07	0.005860591	0.01061484
	0.006200532	0.01041708	3.017903e-08	1.659678e-07	0.011879	0.007655222	1.306456e-08	2.802414e-08
	1.078927e-08	1.140903e-08	0.005860591	0.01061484	1.306456e-08	2.802414e-08	0.01103673	0.008164162
3.7e+08	0.01442098	0.007602012	1.470058e-08	2.549826e-08	0.007854871	0.01087483	1.206675e-08	9.596866e-09
	1.470058e-08	2.549826e-08	0.01353742	0.008192331	3.104194e-08	1.685362e-07	0.007440633	0.0111639
	0.007854871	0.01087483	3.104194e-08	1.685362e-07	0.01466236	0.007655456	1.346756e-08	2.691656e-08
	1.206675e-08	9.596866e-09	0.007440633	0.0111639	1.346756e-08	2.691656e-08	0.01363994	0.008390955
3.8e+08	0.01709329	0.007098356	1.490862e-08	2.391972e-08	0.009556327	0.01098867	1.295206e-08	7.533948e-09
	1.490862e-08	2.391972e-08	0.01607976	0.007905312	3.154875e-08	1.710545e-07	0.009082842	0.011385
	0.009556327	0.01098867	3.154875e-08	1.710545e-07	0.01734879	0.007099653	1.349258e-08	2.574816e-08
	1.295206e-08	7.533948e-09	0.009082842	0.011385	1.349258e-08	2.574816e-08	0.01618323	0.008100171
3.9e+08	0.01957563	0.006075223	1.465969e-08	2.23185e-08	0.01123403	0.01075587	1.339682e-08	5.301239e-09
	1.465969e-08	2.23185e-08	0.0184688	0.007126864	3.169351e-08	1.735968e-07	0.01071963	0.0112724
	0.01123403	0.01075587	3.169351e-08	1.735968e-07	0.01983501	0.006021452	1.31305e-08	2.459935e-08
	1.339682e-08	5.301239e-09	0.01071963	0.0112724	1.31305e-08	2.459935e-08	0.01857132	0.007318022
4e+08	0.02177419	0.004582975	1.39529e-08	2.078885e-08	0.01281797	0.01018809	1.336967e-08	2.988177e-09
	1.39529e-08	2.078885e-08	0.02061656	0.005899911	3.148524e-08	1.762374e-07	0.01228368	0.01083404
	0.01281797	0.01018809	3.148524e-08	1.762374e-07	0.02202664	0.004473267	1.23892e-08	2.355033e-08
	1.336967e-08	2.988177e-09	0.01228368	0.01083404	1.23892e-08	2.355033e-08	0.02071623	0.006087851
4.1e+08	0.02360696	0.002688532	1.280624e-08	1.942311e-08	0.01424192	0.009310924	1.285738e-08	6.890738e-10
	1.280624e-08	1.942311e-08	0.02244527	0.004282739	3.094727e-08	1.79047e-07	0.01371063	0.01009125
	0.01424192	0.009310924	3.094727e-08	1.79047e-07	0.02384147	0.002524189	1.129254e-08	2.267763e-08
	1.285738e-08	6.890738e-10	0.01371063	0.01009125	1.129254e-08	2.267763e-08	0.02254034	0.004468355
4.2e+08	0.02500661	0.0004727551	1.12553e-08	1.83083e-08	0.01544611	0.008162832	1.186521e-08	-1.500441e-09
	1.12553e-08	1.83083e-08	0.02389007	0.002346716	3.011607e-08	1.820906e-07	0.01494175	0.009077875
	0.01544611	0.008162832	3.011607e-08	1.820906e-07	0.02521241	0.0002572803	9.878761e-09	2.205121e-08
	1.186521e-08	-1.500441e-09	0.01494175	0.009077875	9.878761e-09	2.205121e-08	0.02397899	0.002531273
4.3e+08	0.02592273	-0.001972632	9.351609e-09	1.752316e-08	0.01637968	0.006793618	1.041664e-08	-3.486823e-09
	9.351609e-09	1.752316e-08	0.02490111	0.0001735762	2.903977e-08	1.854256e-07	0.01592627	0.007838874
	0.01637968	0.006793618	2.903977e-08	1.854256e-07	0.02608978	-0.002233576	8.198519e-09	2.173226e-08
	1.041664e-08	-3.486823e-09	0.01592627	0.007838874	8.198519e-09	2.173226e-08	0.02498263	0.000358666
4.4e+08	0.02632362	-0.004548492	7.160623e-09	1.713586e-08	0.01700283	0.005262411	8.552632e-09	-5.181779e-09
	7.160623e-09	1.713586e-08	0.02544515	-0.002147625	2.777649e-08	1.890996e-07	0.01662347	0.006428532
	0.01700283	0.005262411	2.777649e-08	1.890996e-07	0.026443	-0.00484724	6.312812e-09	2.177157e-08
	8.552632e-09	-5.181779e-09	0.01662347	0.006428532	6.312812e-09	2.177157e-08	0.02551837	-0.001960158
4.5e+08	0.02619716	-0.007151974	4.759642e-09	1.7202e-08	0.01728843	0.003635275	6.330453e-09	-6.505177e-09
	4.759642e-09	1.7202e-08	0.02550652	-0.004523794	2.639255e-08	1.931491e-07	0.01700433	0.004908261
	0.01728843	0.003635275	2.639255e-08	1.931491e-07	0.02626151	-0.007479085	4.290944e-09	2.220833e-08
	6.330453e-09	-6.505177e-09	0.01700433	0.004908261	4.290944e-09	2.220833e-08	0.02557095	-0.004331922
4.6e+08	0.0255512	-0.009680321	2.235739e-09	1.776318e-08	0.01722322	0.001982539	3.822168e-09	-7.387727e-09
	2.235739e-09	1.776318e-08	0.0250875	-0.006861177	2.496069e-08	1.975988e-07	0.01705277	0.003344126
	0.01722322	0.001982539	2.496069e-08	1.975988e-07	0.02555504	-0.01002489	2.208659e-09	2.306938e-08
	3.822168e-09	-7.387727e-09	0.01705277	0.003344126	2.208659e-09	2.306938e-08	0.02514308	-0.006662785
4.7e+08	0.02441302	-0.01203465	-3.163093e-10	1.884546e-08	0.01680838	0.0003759302	1.112851e-09	-7.773482e-09
	-3.163093e-10	1.884546e-08	0.02420803	-0.00906875	2.355812e-08	2.024601e-07	0.01676628	0.001804174
	0.01680838	0.0003759302	2.355812e-08	2.024601e-07	0.0243531	-0.0123847	1.464333e-10	2.436838e-08
	1.112851e-09	-7.773482e-09	0.01676628	0.001804174	1.464333e-10	2.436838e-08	0.02425511	-0.008861726
4.8e+08	0.02282831	-0.01412357	-2.796211e-09	2.045814e-08	0.01605962	-0.001114362	-1.701567e-09	-7.622142e-09
	-2.796211e-09	2.045814e-08	0.02290479	-0.01106147	2.226459e-08	2.077302e-07	0.01615613	0.0003556668
