!$
! Info: Touchstone file created by Circ.  Input file=Tx_14in_Rx_93ohms_TxVia_35mils_RxVia_45mils.circ
!$
# Hz S RI R 50
0	0.01280998	1.705005e-25	-7.488358e-05	3.741409e-24	9.42085e-05	2.402185e-23	-7.489526e-05	5.26415e-24
	-7.48836e-05	3.744092e-24	0.01280766	2.040498e-25	-7.486315e-05	1.429626e-24	9.357897e-05	2.900741e-23
	9.471641e-05	2.435773e-23	-7.486311e-05	1.424971e-24	0.01282197	1.656363e-25	-7.488044e-05	3.64825e-24
	-7.489527e-05	5.265998e-24	9.173037e-05	2.915015e-23	-7.488048e-05	3.65207e-24	0.01282072	1.911957e-25
1e+07	0.01886003	-0.00132394	-0.0003720023	-7.293018e-05	0.0005278271	0.002313395	-0.000191802	0.0001896883
	-0.0003720023	-7.293018e-05	0.0185267	-0.002129879	-5.322299e-06	-1.087167e-05	0.000554003	0.002534215
	0.0005278565	0.002313389	-5.322302e-06	-1.087167e-05	0.01752348	-0.001934305	-2.051013e-05	2.314642e-06
	-0.000191802	0.0001896883	0.000553942	0.002534224	-2.051013e-05	2.31464e-06	0.01815834	-0.002118349
2e+07	0.02192554	-0.008041407	-0.0003710093	5.310099e-05	0.0016258	0.004493385	-0.0002205547	0.0002367227
	-0.0003710093	5.3101e-05	0.02069241	-0.009090168	-6.443181e-06	-5.661682e-06	0.001534362	0.004913957
	0.0016258	0.004493363	-6.443182e-06	-5.661679e-06	0.02016118	-0.008456727	-1.155169e-05	-3.457291e-05
	-0.0002205547	0.0002367227	0.001534354	0.004913992	-1.155169e-05	-3.457291e-05	0.02042475	-0.00894964
3e+07	0.02143343	-0.01645961	-0.0003608933	0.0001306069	0.00326032	0.006266008	-0.0002199141	0.0002852486
	-0.0003608933	0.0001306069	0.01953248	-0.01726283	-1.466642e-05	-6.655925e-06	0.003176081	0.006772905
	0.003260314	0.006266006	-1.466642e-05	-6.655925e-06	0.01939504	-0.01657966	-3.628489e-05	-3.612771e-05
	-0.0002199141	0.0002852486	0.003176081	0.00677291	-3.628489e-05	-3.612771e-05	0.01933684	-0.01709605
4e+07	0.01806705	-0.02463032	-0.000339086	0.0002008918	0.005295155	0.007494996	-0.0002031065	0.0003225987
	-0.000339086	0.0002008918	0.01568923	-0.02497452	-2.061792e-05	-3.587697e-06	0.005285357	0.008024393
	0.005295155	0.007495	-2.061792e-05	-3.587698e-06	0.01588542	-0.02438969	-5.635977e-05	-2.744581e-05
	-0.0002031065	0.0003225987	0.005285351	0.00802439	-5.635976e-05	-2.744581e-05	0.01554548	-0.02480945
5e+07	0.0123597	-0.0316366	-0.0003071016	0.0002643726	0.007556227	0.008091222	-0.0001787642	0.0003467987
	-0.0003071016	0.0002643726	0.0096957	-0.03139655	-2.449475e-05	1.550276e-06	0.007605885	0.008621728
	0.007556229	0.008091223	-2.449475e-05	1.550276e-06	0.01015575	-0.03100963	-7.118884e-05	-1.215471e-05
	-0.0001787642	0.0003467987	0.007605881	0.008621727	-7.118884e-05	-1.215471e-05	0.009585557	-0.03124581
6e+07	0.004903654	-0.03686477	-0.0002851398	0.0003029796	0.009852363	0.008021435	-0.0001544844	0.0003585105
	-0.0002851398	0.0003029796	0.002145936	-0.03597873	-2.636956e-05	8.030785e-06	0.009947332	0.008540982
	0.009852361	0.008021434	-2.636956e-05	8.030786e-06	0.002788566	-0.0358579	-8.001951e-05	7.590567e-06
	-0.0001544844	0.0003585105	0.009947334	0.008540981	-8.001951e-05	7.590567e-06	0.002053116	-0.03584651
7e+07	-0.003644873	-0.03992996	-0.0002575938	0.0003403873	0.01199306	0.007309241	-0.0001367482	0.0003603562
	-0.0002575938	0.0003403873	-0.006307334	-0.03839061	-2.613684e-05	1.512213e-05	0.01212046	0.007811301
	0.01199305	0.007309241	-2.613684e-05	1.512213e-05	-0.005572018	-0.03857586	-8.219685e-05	2.989896e-05
	-0.0001367482	0.0003603562	0.01212047	0.007811298	-8.219685e-05	2.989896e-05	-0.006396582	-0.03827548
8e+07	-0.01259916	-0.04065882	-0.0002249334	0.0003752648	0.01380504	0.006031526	-0.0001308944	0.0003570225
	-0.0002249333	0.0003752648	-0.0149874	-0.03850692	-2.373552e-05	2.232441e-05	0.01395295	0.006512707
	0.01380503	0.006031528	-2.373552e-05	2.232441e-05	-0.0142533	-0.0390109	-7.727702e-05	5.291825e-05
	-0.0001308944	0.0003570225	0.01395296	0.0065127	-7.727702e-05	5.291826e-05	-0.01508383	-0.03840361
9e+07	-0.0212876	-0.03907771	-0.0001884256	0.0004064238	0.0151475	0.004310704	-0.0001414747	0.0003544973
	-0.0001884256	0.0004064238	-0.02323554	-0.03639515	-1.902e-05	2.917933e-05	0.01530312	0.00476894
	0.0151475	0.004310706	-1.902e-05	2.917933e-05	-0.02259653	-0.03720454	-6.492452e-05	7.484407e-05
	-0.0001414747	0.0003544974	0.01530313	0.004768934	-6.492453e-05	7.484407e-05	-0.02334696	-0.03629614
1e+08	-0.02911794	-0.0353974	-0.000153069	0.0004326179	0.01593408	0.00230565	-0.0001814113	0.0003580987
	-0.000153069	0.0004326179	-0.03043407	-0.03229341	-1.102731e-05	3.529609e-05	0.01607009	0.00273609
	0.01593408	0.00230565	-1.102731e-05	3.529609e-05	-0.02999431	-0.03337348	-4.312746e-05	9.418099e-05
	-0.0001814113	0.0003580987	0.01607009	0.00273609	-4.312746e-05	9.418099e-05	-0.03056864	-0.0321907
1.1e+08	-0.03552534	-0.02987042	-0.000111847	0.0004402697	0.01607512	0.0002378742	-0.000221263	0.0003326785
	-0.000111847	0.0004402697	-0.03614669	-0.02672961	-1.746677e-06	3.591615e-05	0.0162006	0.0005963245
	0.01607512	0.0002378741	-1.746677e-06	3.591615e-05	-0.03596179	-0.02793756	-1.717637e-05	9.918068e-05
	-0.000221263	0.0003326785	0.0162006	0.0005963245	-1.717637e-05	9.918068e-05	-0.03630225	-0.0265987
1.2e+08	-0.04004374	-0.02308536	-6.344334e-05	0.0004439162	0.01556722	-0.001774697	-0.0002490979	0.0003301181
	-6.344334e-05	0.0004439162	-0.04011044	-0.02004333	5.666476e-06	3.481023e-05	0.01570056	-0.001470307
	0.01556722	-0.001774697	5.666476e-06	3.481023e-05	-0.04015969	-0.02131245	4.782176e-06	9.831035e-05
	-0.0002490979	0.0003301181	0.01570056	-0.001470307	4.782176e-06	9.831035e-05	-0.04027095	-0.01987822
1.3e+08	-0.04247698	-0.0156226	-1.324119e-05	0.0004418172	0.01447686	-0.003550602	-0.0002720723	0.0003468276
	-1.324119e-05	0.0004418172	-0.04207802	-0.01277408	1.209635e-05	3.252858e-05	0.01461974	-0.003292643
	0.01447686	-0.003550603	1.209635e-05	3.252858e-05	-0.04235029	-0.01404453	2.418578e-05	9.304701e-05
	-0.0002720723	0.0003468276	0.01461974	-0.003292643	2.418578e-05	9.304701e-05	-0.04223142	-0.01257419
1.4e+08	-0.04277028	-0.00808023	3.678075e-05	0.0004336453	0.01290264	-0.004936238	-0.0002865987	0.0003804784
	3.678075e-05	0.0004336453	-0.04199313	-0.005499655	1.49528e-05	3.034527e-05	0.01305321	-0.004720789
	0.01290264	-0.004936239	1.49528e-05	3.034527e-05	-0.04246745	-0.006714035	4.071733e-05	8.433933e-05
	-0.0002865987	0.0003804784	0.01305321	-0.004720789	4.071733e-05	8.433933e-05	-0.0421289	-0.00526832
1.5e+08	-0.04102855	-0.001037745	8.518594e-05	0.0004196059	0.01097873	-0.005812858	-0.0002883946	0.0004274291
	8.518594e-05	0.0004196059	-0.03996534	0.001218757	1.763118e-05	2.79608e-05	0.01113285	-0.005637837
	0.01097873	-0.005812858	1.763118e-05	2.79608e-05	-0.04060776	0.0001126924	5.400155e-05	7.316213e-05
	-0.0002883946	0.0004274291	0.01113285	-0.005637837	5.400155e-05	7.316213e-05	-0.0400751	0.001474996
1.6e+08	-0.03750523	0.004984819	0.0001309572	0.0004002344	0.008865175	-0.006104438	-0.0002741128	0.0004827074
	0.0001309572	0.0004002344	-0.03625345	0.006880226	2.011461e-05	2.536408e-05	0.009016754	-0.005968308
	0.008865175	-0.006104438	2.011461e-05	2.536408e-05	-0.037017	0.005925705	6.39173e-05	6.052838e-05
	-0.0002741128	0.0004827074	0.009016754	-0.005968308	6.39173e-05	6.052838e-05	-0.03633166	0.007152477
1.7e+08	-0.03257966	0.009562983	0.000173416	0.0003762209	0.006735671	-0.005782796	-0.0002420913	0.0005405224
	0.000173416	0.0003762209	-0.03124038	0.01108095	2.236076e-05	2.256561e-05	0.006876953	-0.005683483
	0.006735671	-0.005782796	2.236076e-05	2.256561e-05	-0.03206679	0.01030821	7.061686e-05	4.738193e-05
	-0.0002420913	0.0005405224	0.006876953	-0.005683483	7.061686e-05	4.738193e-05	-0.03128476	0.011359
1.8e+08	-0.02672567	0.01239646	0.0002121784	0.0003482793	0.004764165	-0.004869338	-0.0001926402	0.0005949835
	0.0002121784	0.0003482793	-0.02540017	0.0135427	2.433909e-05	1.957941e-05	0.004886205	-0.00480331
	0.004764165	-0.004869338	2.433909e-05	1.957941e-05	-0.02622331	0.01296555	7.44986e-05	3.450166e-05
	-0.0001926402	0.0005949835	0.004886205	-0.00480331	7.44986e-05	3.450166e-05	-0.0254119	0.01381609
1.9e+08	-0.02047406	0.01332836	0.0002470888	0.0003170463	0.00311134	-0.003433215	-0.0001279558	0.0006408511
	0.0002470888	0.0003170463	-0.01925939	0.01413118	2.60238e-05	1.642057e-05	0.003204692	-0.003394789
	0.00311134	-0.003433215	2.60238e-05	1.642057e-05	-0.02000978	0.01374461	7.61324e-05	2.242596e-05
	-0.0001279558	0.0006408511	0.003204692	-0.003394789	7.61324e-05	2.242596e-05	-0.01924294	0.01439028
2e+08	-0.01437154	0.01235374	0.0002781324	0.0002830172	0.001911947	-0.001585898	-5.172067e-05	0.0006741736
	0.0002781324	0.0002830172	-0.01335542	0.01286343	2.738939e-05	1.310559e-05	0.00196754	-0.001566825
	0.001911947	-0.001585898	2.738939e-05	1.310559e-05	-0.01396564	0.01264256	7.615598e-05	1.141436e-05
	-5.172067e-05	0.0006741736	0.00196754	-0.001566825	7.615598e-05	1.141436e-05	-0.01331809	0.01310037
2.1e+08	-0.008938319	0.009617066	0.000305337	0.000246525	0.001259716	0.0005242718	3.151935e-05	0.0006927067
	0.000305337	0.000246525	-0.00819458	0.009903585	2.839915e-05	9.651344e-06	0.001274061	0.0005381919
	0.001259716	0.0005242718	2.839915e-05	9.651344e-06	-0.008604275	0.009804555	7.509963e-05	1.422465e-06
	3.151935e-05	0.0006927067	0.001274061	0.0005381919	7.509963e-05	1.422465e-06	-0.008145855	0.01011302
2.2e+08	-0.0046302	0.005397307	0.0003286831	0.0002077629	0.001211282	0.00273293	0.000117089	0.0006960368
	0.0003286831	0.0002077629	-0.004213296	0.005547584	2.902206e-05	6.086932e-06	0.001179615	0.002755599
	0.001211282	0.00273293	2.902206e-05	6.086932e-06	-0.004375338	0.005509007	7.339535e-05	-7.755206e-06
	0.000117089	0.0006960368	0.001179615	0.002755599	7.339535e-05	-7.755206e-06	-0.004163958	0.005727227
2.3e+08	-0.001805372	8.513281e-05	0.0003480354	0.0001668442	0.001776867	0.004867425	0.0002008922	0.0006854055
	0.0003480354	0.0001668442	-0.00174503	0.0001978155	2.923935e-05	2.452523e-06	0.00169088	0.004911676
	0.001776867	0.004867425	2.923935e-05	2.452523e-06	-0.001631638	0.0001450239	7.135589e-05	-1.643637e-05
	0.0002008922	0.0006854055	0.00169088	0.004911676	7.135589e-05	-1.643637e-05	-0.001706215	0.0003486805
2.4e+08	-0.0006962833	-0.005848808	0.0003631103	0.0001238876	0.002909194	0.006755737	0.0002799825	0.0006632725
	0.0003631103	0.0001238876	-0.0009956853	-0.00567019	2.902387e-05	-1.206233e-06	0.002765065	0.006837847
	0.002909194	0.006755737	2.902387e-05	-1.206233e-06	-0.0006011068	-0.005819079	6.897509e-05	-2.501203e-05
	0.0002799825	0.0006632725	0.002765065	0.006837847	6.897509e-05	-2.501203e-05	-0.0009778844	-0.005543808
2.5e+08	-0.001394423	-0.01189236	0.0003734876	7.910665e-05	0.004513821	0.008246558	0.0003528913	0.0006326854
	0.0003734876	7.910665e-05	-0.002029285	-0.01154644	2.83549e-05	-4.833206e-06	0.004313288	0.008384652
	0.004513821	0.008246558	2.83549e-05	-4.833206e-06	-0.001371631	-0.01187401	6.602107e-05	-3.378201e-05
	0.0003528913	0.0006326854	0.004313288	0.008384652	6.602107e-05	-3.378201e-05	-0.00204141	-0.01143728
2.6e+08	-0.003845482	-0.01753254	0.0003786632	3.288701e-05	0.006457027	0.009222049	0.0004196695	0.0005965862
	0.0003786632	3.288701e-05	-0.004765053	-0.01692744	2.722146e-05	-8.363016e-06	0.006207936	0.009434209
	0.006457027	0.009222049	2.722146e-05	-8.363016e-06	-0.003886196	-0.01750996	6.210453e-05	-4.286274e-05
	0.0004196695	0.0005965862	0.006207936	0.009434209	6.210453e-05	-4.286274e-05	-0.004813648	-0.01682582
2.7e+08	-0.007855972	-0.0222957	0.0003781358	-1.416812e-05	0.008577166	0.009607764	0.0004816314	0.0005571752
	0.0003781358	-1.416812e-05	-0.008986134	-0.02135586	2.562625e-05	-1.172383e-05	0.008293405	0.009910015
	0.008577166	0.009607764	2.562625e-05	-1.172383e-05	-0.007949448	-0.02225654	5.678038e-05	-5.213308e-05
	0.0004816314	0.0005571752	0.008293405	0.009910015	5.678038e-05	-5.213308e-05	-0.009074686	-0.0212505
2.8e+08	-0.01311063	-0.02578389	0.0003715052	-6.123401e-05	0.01069844	0.009378777	0.000540869	0.0005154458
	0.0003715052	-6.123401e-05	-0.01435876	-0.02445614	2.358726e-05	-1.484071e-05	0.01039924	0.009783131
	0.01069844	0.009378777	2.358726e-05	-1.484071e-05	-0.01324502	-0.02571905	4.966261e-05	-6.123018e-05
	0.000540869	0.0005154458	0.01039924	0.009783131	4.966261e-05	-6.123018e-05	-0.01448737	-0.0243351
2.9e+08	-0.01919903	-0.0277048	0.000358566	-0.0001073048	0.01264583	0.008561463	0.0005996117	0.0004709747
	0.000358566	-0.0001073048	-0.02046045	-0.02596286	2.113924e-05	-1.763989e-05	0.01235445	0.009074224
	0.01264583	0.008561463	2.113924e-05	-1.763989e-05	-0.01936201	-0.02760823	4.052986e-05	-6.959499e-05
	0.0005996117	0.0004709747	0.01235445	0.009074224	4.052986e-05	-6.959499e-05	-0.02062578	-0.02581455
3e+08	-0.02564904	-0.02789273	0.0003393779	-0.0001512712	0.01425976	0.007230822	0.0006595634	0.0004220019
	0.0003393779	-0.0001512712	-0.02681467	-0.02573995	1.833385e-05	-2.005351e-05	0.01400166	0.007851327
	0.01425976	0.007230822	1.833385e-05	-2.005351e-05	-0.02582837	-0.0277612	2.940129e-05	-7.655882e-05
	0.0006595634	0.0004220019	0.01400166	0.007851327	2.940129e-05	-7.655882e-05	-0.02701015	-0.0255541
3.1e+08	-0.03196445	-0.02631952	0.0003142996	-0.0001920218	0.01540922	0.005503688	0.0007213391	0.0003657755
	0.0003142996	-0.0001920218	-0.03292897	-0.02378939	1.523831e-05	-2.202463e-05	0.0152099	0.006223654
	0.01540922	0.005503688	1.523831e-05	-2.202463e-05	-0.03214832	-0.02615231	1.656821e-05	-8.145419e-05
	0.0007213391	0.0003657755	0.0152099	0.006223654	1.656821e-05	-8.145419e-05	-0.03314529	-0.02355795
3.2e+08	-0.03766353	-0.02309459	0.0002839765	-0.0002285493	0.01600222	0.003528573	0.0007840874	0.0002991117
	0.0002839765	-0.0002285493	-0.03833364	-0.02024903	1.193211e-05	-2.351181e-05	0.01588479	0.00433213
	0.01600222	0.003528573	1.193211e-05	-2.351181e-05	-0.03784095	-0.02289323	2.576777e-06	-8.372812e-05
	0.0007840874	0.0002991117	0.01588479	0.00433213	2.576777e-06	-8.372812e-05	-0.03855949	-0.01996686
3.3e+08	-0.04231584	-0.01845464	0.0002492904	-0.0002600434	0.01599269	0.001473133	0.0008453805	0.0002190598
	0.0002492904	-0.0002600434	-0.04261777	-0.01538002	8.502159e-06	-2.449258e-05	0.01597565	0.0023376
	0.01599269	0.001473133	8.502159e-06	-2.449258e-05	-0.04247685	-0.01822264	-1.183448e-05	-8.303804e-05
	0.0008453805	0.0002190598	0.01597565	0.0023376	-1.183448e-05	-8.303804e-05	-0.04284075	-0.01504538
3.4e+08	-0.04557438	-0.0127439	0.0002112772	-0.0002859569	0.01538367	-0.0004895926	0.0009013851	0.0001235551
	0.0002112772	-0.0002859569	-0.04546021	-0.009545095	5.036655e-06	-2.496502e-05	0.01547882	0.000407762
	0.01538367	-0.0004895926	5.036655e-06	-2.496502e-05	-0.0457103	-0.01248648	-2.583034e-05	-7.931379e-05
	0.0009013851	0.0001235551	0.01547882	0.000407762	-2.583034e-05	-7.931379e-05	-0.04566784	-0.009159838
3.5e+08	-0.04720099	-0.00638677	0.000171027	-0.0003060328	0.01422638	-0.002195032	0.0009472805	1.196571e-05
	0.000171027	-0.0003060328	-0.04665316	-0.00317958	1.618605e-06	-2.494676e-05	0.01443729	-0.001296087
	0.01422638	-0.002195032	1.618605e-06	-2.494676e-05	-0.04730456	-0.006110593	-3.859017e-05	-7.277577e-05
	0.0009472805	1.196571e-05	0.01443729	-0.001296087	-3.859017e-05	-7.277577e-05	-0.04683388	-0.002749042
3.6e+08	-0.04708324	0.0001451114	0.0001295849	-0.0003202935	0.01261567	-0.003499965	0.0009778659	-0.0001145781
	0.0001295849	-0.0003202935	-0.04611688	0.003242603	-1.679782e-06	-2.447165e-05	0.01293684	-0.002631511
	0.01261567	-0.003499965	-1.679782e-06	-2.447165e-05	-0.04714885	0.0004321746	-4.941677e-05	-6.390804e-05
	0.0009778659	-0.0001145781	0.01293684	-0.002631511	-4.941677e-05	-6.390804e-05	-0.04626105	0.003709986
3.7e+08	-0.04524189	0.00636882	8.786566e-05	-0.000328993	0.01068229	-0.004293548	0.0009882536	-0.0002531062
	8.786566e-05	-0.000328993	-0.04390472	0.009245353	-4.800835e-06	-2.358435e-05	0.01109899	-0.003485751
	0.01068229	-0.004293548	-4.800835e-06	-2.358435e-05	-0.04526569	0.006657962	-5.782493e-05	-5.339163e-05
	0.0009882536	-0.0002531062	0.01109899	-0.003485751	-5.782493e-05	-5.339163e-05	-0.04400542	0.009738689
3.8e+08	-0.04182838	0.01182656	4.6595e-05	-0.0003325432	0.008582438	-0.004505763	0.000974543	-0.0003990098
	4.6595e-05	-0.0003325432	-0.04019814	0.01438659	-7.702508e-06	-2.233417e-05	0.009071441	-0.003784206
	0.008582438	-0.004505763	-7.702508e-06	-2.233417e-05	-0.04180849	0.01210835	-6.359674e-05	-4.200956e-05
	0.000974543	-0.0003990098	0.009071441	-0.003784206	-6.359674e-05	-4.200956e-05	-0.04025174	0.01489339
3.9e+08	-0.03711285	0.01611998	6.285568e-06	-0.0003314254	0.006485647	-0.004112782	0.0009343673	-0.0005464857
	6.285568e-06	-0.0003314254	-0.03529222	0.01829168	-1.035679e-05	-2.076936e-05	0.007016681	-0.00349605
	0.006485647	-0.004112782	-1.035679e-05	-2.076936e-05	-0.03704944	0.0163847	-6.679583e-05	-3.053883e-05
	0.0009343673	-0.0005464857	0.007016681	-0.00349605	-6.679583e-05	-3.053883e-05	-0.03529876	0.01879883
4e+08	-0.03146332	0.01893993	-3.275086e-05	-0.0003261032	0.004561594	-0.003138881	0.0008672353	-0.0006891532
	-3.275086e-05	-0.0003261032	-0.02957282	0.02068162	-1.274602e-05	-1.893295e-05	0.005099482	-0.002636647
	0.004561594	-0.003138881	-1.274602e-05	-1.893295e-05	-0.03135873	0.01917801	-6.773866e-05	-1.964612e-05
	0.0008672353	-0.0006891532	0.005099482	-0.002636647	-6.773866e-05	-1.964612e-05	-0.02953608	0.02117645
4.1e+08	-0.02531776	0.0200896	-7.035798e-05	-0.0003169495	0.002966849	-0.00165478	0.0007746087	-0.000820756
	-7.035798e-05	-0.0003169495	-0.02348698	0.02139406	-1.485811e-05	-1.686107e-05	0.003474155	-0.001266544
	0.002966849	-0.00165478	-1.485811e-05	-1.686107e-05	-0.02517647	0.02029204	-6.692811e-05	-9.803319e-06
	0.0007746087	-0.000820756	0.003474155	-0.001266544	-6.692811e-05	-9.803319e-06	-0.0234142	0.02186538
4.2e+08	-0.01915092	0.0194992	-0.0001064644	-0.000304199	0.001832461	0.0002275619	0.0006597092	-0.0009358349
	-0.0001064644	-0.000304199	-0.01750868	0.02039547	-1.668201e-05	-1.458351e-05	0.002272433	0.0005129481
	0.001832461	0.0002275619	-1.668201e-05	-1.458351e-05	-0.01897944	0.01965805	-6.49593e-05	-1.236296e-06
	0.0006597092	-0.0009358349	0.002272433	0.0005129481	-6.49593e-05	-1.236296e-06	-0.01741003	0.02083451
4.3e+08	-0.01343826	0.01723124	-0.0001410003	-0.0002879368	0.00125329	0.00236343	0.0005270928	-0.001030268
	-0.0001410003	-0.0002879368	-0.01210252	0.01778361	-1.820437e-05	-1.212637e-05	0.001592876	0.002567382
	0.00125329	0.00236343	-1.820437e-05	-1.212637e-05	-0.01324495	0.01734005	-6.241325e-05	6.084681e-06
	0.0005270928	-0.001030268	0.001592876	0.002567381	-6.241325e-05	6.084681e-06	-0.01199037	0.01818475
4.4e+08	-0.008619877	0.01347565	-0.0001738176	-0.0002681227	0.001279984	0.004586582	0.0003820557	-0.001101605
	-0.0001738176	-0.0002681227	-0.007688092	0.01377987	-1.9408e-05	-9.51561e-06	0.00149268	0.004739562
	0.001279984	0.004586582	-1.9408e-05	-9.51561e-06	-0.008414584	0.01352995	-5.975568e-05	1.241074e-05
	0.0003820557	-0.001101605	0.00149268	0.004739562	-5.975568e-05	1.241074e-05	-0.007576025	0.0141412
4.5e+08	-0.005066893	0.008535312	-0.000204629	-0.0002446518	0.001914335	0.006722473	0.0002301271	-0.001149137
	-0.000204629	-0.0002446518	-0.004607691	0.008712157	-2.027239e-05	-6.780701e-06	0.001982631	0.006861988
	0.001914335	0.006722473	-2.027239e-05	-6.780701e-06	-0.004860506	0.008532963	-5.726007e-05	1.814112e-05
	0.0002301271	-0.001149137	0.001982631	0.006861988	-5.726007e-05	1.814112e-05	-0.004509414	0.009035667
4.6e+08	-0.003053131	0.002802806	-0.000232766	-0.0002173755	0.003108551	0.008602445	5.41491e-05	-0.001170658
	-0.000232766	-0.0002173755	-0.003100001	0.002989409	-2.077796e-05	-3.957298e-06	0.003025771	0.008770397
	0.003108551	0.008602445	-2.077796e-05	-3.957298e-06	-0.002857092	0.002744248	-5.476041e-05	2.378408e-05
	5.41491e-05	-0.001170658	0.003025771	0.008770397	-5.476041e-05	2.378408e-05	-0.003028181	0.003280948
4.7e+08	-0.002734454	-0.003269807	-0.0002577895	-0.000186421	0.004768668	0.01007773	-0.0001209739	-0.001164662
	-0.0002577895	-0.000186421	-0.003281851	-0.002930153	-2.090146e-05	-1.088863e-06	0.004540031	0.01031728
	0.004768668	0.01007773	-2.090146e-05	-1.088863e-06	-0.002559994	-0.003381383	-5.224112e-05	2.962293e-05
