!$
! Info: Touchstone file created by Circ.  Input file=Tx_14in_Rx_100ohms_TxVia_35mils_RxVia_45mils.circ
!$
# Hz S RI R 50
0	0.01447232	1.719396e-25	-7.476197e-05	-9.723537e-26	9.475253e-05	2.723153e-23	-7.476136e-05	-1.000216e-25
	-7.4762e-05	-9.450387e-26	0.01446883	2.0371e-25	-7.476043e-05	-8.748549e-26	9.342058e-05	3.278612e-23
	9.527477e-05	2.758604e-23	-7.476039e-05	-9.205555e-26	0.01448016	1.678541e-25	-7.47605e-05	-5.480508e-27
	-7.476137e-05	-9.812514e-26	9.157166e-05	3.294741e-23	-7.476053e-05	-1.745468e-27	0.01448186	1.908796e-25
1e+07	0.02096372	0.008156512	-4.482061e-06	-1.424112e-05	0.0005056752	0.002487429	-4.108886e-06	-1.982986e-05
	-4.482062e-06	-1.424112e-05	0.02159328	0.008174303	-2.246002e-06	-4.084271e-06	0.0009914475	0.002520185
	0.0005056994	0.00248743	-2.246002e-06	-4.084271e-06	0.02023756	0.00860631	-5.05423e-06	-5.329053e-06
	-4.108885e-06	-1.982986e-05	0.0009913862	0.002520194	-5.05423e-06	-5.329053e-06	0.02139768	0.008214148
2e+07	0.02789087	0.01064676	-6.775442e-06	1.04122e-06	0.001546891	0.004805981	-3.264094e-06	-6.85782e-06
	-6.775443e-06	1.04122e-06	0.02838403	0.01045902	-2.967614e-05	-2.714499e-05	0.001873935	0.005072908
	0.001546899	0.004805966	-2.967614e-05	-2.7145e-05	0.0278357	0.01155773	-3.563335e-05	-2.605162e-05
	-3.264094e-06	-6.85782e-06	0.001873925	0.005072943	-3.563335e-05	-2.605162e-05	0.0282637	0.01059771
3e+07	0.0337127	0.009958379	-1.128583e-05	6.356691e-08	0.003157061	0.006677649	-2.952494e-06	-3.483922e-06
	-1.128583e-05	6.356703e-08	0.03407351	0.009715496	-5.16637e-05	-2.287688e-05	0.003369158	0.00702858
	0.003157061	0.006677646	-5.16637e-05	-2.287688e-05	0.03416584	0.01085788	-5.731305e-05	-2.069828e-05
	-2.952495e-06	-3.483922e-06	0.003369158	0.007028586	-5.731305e-05	-2.069828e-05	0.03401776	0.009886794
4e+07	0.03855892	0.00744736	-1.4338e-05	1.947213e-06	0.005192747	0.008000218	-2.533705e-06	-1.652354e-06
	-1.4338e-05	1.947213e-06	0.03878946	0.007206687	-6.722196e-05	-1.018179e-05	0.005347128	0.008394387
	0.005192749	0.008000219	-6.722196e-05	-1.018179e-05	0.03939279	0.008161532	-7.243729e-05	-7.072052e-06
	-2.533705e-06	-1.652354e-06	0.005347122	0.008394385	-7.243729e-05	-7.072052e-06	0.03879031	0.007386233
5e+07	0.04229547	0.003607327	-1.603874e-05	5.145309e-06	0.007480842	0.008688296	-1.994916e-06	-4.95474e-07
	-1.603874e-05	5.145309e-06	0.04240306	0.003411547	-7.669826e-05	7.06054e-06	0.007756772	0.008967995
	0.007480843	0.008688297	-7.669826e-05	7.06054e-06	0.04338409	0.004038708	-8.136454e-05	1.10077e-05
	-1.994916e-06	-4.95474e-07	0.007756768	0.008967994	-8.136454e-05	1.10077e-05	0.04245097	0.003583374
6e+07	0.04477203	-0.001170327	-1.644368e-05	8.968474e-06	0.009833042	0.00870474	-1.377503e-06	2.295652e-07
	-1.644368e-05	8.968474e-06	0.04477499	-0.00128384	-8.024028e-05	2.670696e-05	0.01016769	0.008856994
	0.009833039	0.00870474	-8.024028e-05	2.670696e-05	0.04599067	-0.001070046	-8.424235e-05	3.141083e-05
	-1.377503e-06	2.295653e-07	0.01016769	0.008856993	-8.424235e-05	3.141083e-05	0.04485896	-0.001130538
7e+07	0.04587983	-0.006510989	-1.560108e-05	1.298414e-05	0.01207202	0.00804558	-7.350114e-07	6.174814e-07
	-1.560108e-05	1.298414e-05	0.04580557	-0.006513101	-7.790252e-05	4.718445e-05	0.01239878	0.008094791
	0.01207202	0.008045581	-7.790252e-05	4.718445e-05	0.04710927	-0.006751106	-8.116603e-05	5.258016e-05
	-7.350111e-07	6.174813e-07	0.01239879	0.008094788	-8.116604e-05	5.258016e-05	0.0459137	-0.006384876
8e+07	0.04557704	-0.01204279	-1.355818e-05	1.687513e-05	0.01400259	0.006795198	-1.317452e-07	7.270446e-07
	-1.355818e-05	1.687513e-05	0.04545927	-0.01191454	-6.977409e-05	6.720095e-05	0.0142831	0.006760665
	0.01400258	0.006795201	-6.977409e-05	6.720095e-05	0.04670816	-0.01260027	-7.218251e-05	7.32186e-05
	-1.317448e-07	7.270444e-07	0.01428311	0.006760659	-7.218251e-05	7.32186e-05	0.04557945	-0.01181409
9e+07	0.04389938	-0.01740417	-1.032981e-05	2.039686e-05	0.01547482	0.005068426	3.706005e-07	6.121071e-07
	-1.032981e-05	2.039686e-05	0.04377577	-0.01713779	-5.576956e-05	8.56508e-05	0.01568003	0.004975053
	0.01547481	0.005068429	-5.576956e-05	8.56508e-05	0.04483519	-0.01822985	-5.716374e-05	9.219616e-05
	3.706007e-07	6.121068e-07	0.01568004	0.004975047	-5.716374e-05	9.219616e-05	0.04389623	-0.01706437
1e+08	0.04097676	-0.02225757	-5.487486e-06	2.334381e-05	0.01638287	0.003015169	7.120233e-07	3.154126e-07
	-5.487486e-06	2.334381e-05	0.04088791	-0.02185663	-3.369626e-05	0.0001015706	0.01647864	0.002890301
	0.01638287	0.003015169	-3.369626e-05	0.0001015706	0.04160965	-0.02328382	-3.38387e-05	0.0001085364
	7.120233e-07	3.154126e-07	0.01647864	0.002890301	-3.38387e-05	0.0001085364	0.04099605	-0.02180657
1.1e+08	0.03694784	-0.02640442	-1.497054e-07	2.324767e-05	0.01664846	0.0007849454	8.023479e-07	1.073271e-07
	-1.497054e-07	2.324767e-05	0.03692868	-0.02589664	-8.655881e-06	0.0001028504	0.01664226	0.0007256981
	0.01664846	0.0007849452	-8.655881e-06	0.0001028504	0.03726311	-0.0274117	-7.411393e-06	0.000109684
	8.023479e-07	1.073271e-07	0.01664226	0.0007256982	-7.411393e-06	0.000109684	0.03701895	-0.02585516
1.2e+08	0.03200658	-0.02948372	1.545681e-06	2.2598e-05	0.01624346	-0.001407257	6.22083e-07	1.822795e-08
	1.545681e-06	2.2598e-05	0.03207623	-0.02889463	1.092613e-05	0.0001001048	0.01619359	-0.001387101
	0.01624346	-0.001407257	1.092613e-05	0.0001001048	0.0320956	-0.03041342	8.870034e-06	0.0001069477
	6.22083e-07	1.822795e-08	0.01619359	-0.001387101	8.870034e-06	0.0001069477	0.03215052	-0.02885559
1.3e+08	0.02648731	-0.03131299	3.430765e-06	2.196654e-05	0.01521713	-0.003376541	4.308815e-07	4.051792e-08
	3.430765e-06	2.196654e-05	0.02665996	-0.03067372	1.870083e-05	9.683996e-05	0.01515978	-0.003280214
	0.01521713	-0.003376541	1.870083e-05	9.683996e-05	0.0264061	-0.03213148	1.73425e-05	0.0001038067
	4.308815e-07	4.051792e-08	0.01515978	-0.003280214	1.73425e-05	0.0001038067	0.02671914	-0.03063188
1.4e+08	0.02073324	-0.03180028	5.389385e-06	2.121186e-05	0.01366188	-0.00495953	2.750027e-07	1.172256e-07
	5.389385e-06	2.121186e-05	0.02101366	-0.03114616	2.686976e-05	9.310956e-05	0.01362361	-0.004800018
	0.01366188	-0.00495953	2.686976e-05	9.310956e-05	0.02053099	-0.03248809	2.623598e-05	0.000100133
	2.750027e-07	1.172256e-07	0.01362361	-0.004800018	2.623598e-05	0.000100133	0.02105951	-0.03109698
1.5e+08	0.01509187	-0.03094265	7.363229e-06	2.029825e-05	0.01171061	-0.006025699	1.674691e-07	2.375875e-07
	7.363229e-06	2.029825e-05	0.0154737	-0.03031015	3.512575e-05	8.873756e-05	0.01170884	-0.005822308
	0.01171061	-0.006025699	3.512575e-05	8.873756e-05	0.01481341	-0.03149167	3.523554e-05	9.574099e-05
	1.674691e-07	2.375875e-07	0.01170884	-0.005822308	3.523554e-05	9.574099e-05	0.01550889	-0.03025006
1.6e+08	0.009895162	-0.02882394	9.309753e-06	1.92023e-05	0.009526513	-0.006487358	1.179161e-07	3.86334e-07
	9.309753e-06	1.92023e-05	0.01036058	-0.0282471	4.325592e-05	8.362043e-05	0.009569303	-0.006262603
	0.009526513	-0.006487358	4.325592e-05	8.362043e-05	0.009580891	-0.02923558	4.411353e-05	9.052217e-05
	1.179161e-07	3.86334e-07	0.009569303	-0.006262603	4.411353e-05	9.052217e-05	0.01038835	-0.02817362
1.7e+08	0.005439399	-0.02560773	1.119059e-05	1.79091e-05	0.007289927	-0.006306305	1.312185e-07	5.454738e-07
	1.119059e-05	1.79091e-05	0.005959976	-0.02511457	5.107925e-05	7.770311e-05	0.00737622	-0.006082921
	0.007289927	-0.006306305	5.107925e-05	7.770311e-05	0.005124615	-0.02589132	5.267502e-05	8.44197e-05
	1.312185e-07	5.454738e-07	0.00737622	-0.006082921	5.267502e-05	8.44197e-05	0.005983829	-0.02502633
1.8e+08	0.001966868	-0.02152542	1.296765e-05	1.641163e-05	0.005183807	-0.005496502	2.067795e-07	6.961914e-07
	1.296765e-05	1.641163e-05	0.002505556	-0.02113473	5.842906e-05	7.096937e-05	0.005304276	-0.005294681
	0.005183807	-0.005496502	5.842906e-05	7.096937e-05	0.001681053	-0.02169662	6.074016e-05	7.741841e-05
	2.067795e-07	6.961914e-07	0.005304276	-0.005294681	6.074016e-05	7.741841e-05	0.002529021	-0.02103143
1.9e+08	-0.0003490739	-0.01686007	1.46034e-05	1.470985e-05	0.003379023	-0.004122514	3.385525e-07	8.207371e-07
	1.46034e-05	1.470985e-05	0.0001650771	-0.01657883	6.514738e-05	6.343839e-05	0.003517584	-0.003957539
	0.003379023	-0.004122514	6.514738e-05	6.343839e-05	-0.0005828234	-0.01693929	6.813891e-05	6.954111e-05
	3.385525e-07	8.207371e-07	0.003517584	-0.003957539	6.813891e-05	6.954111e-05	0.000191418	-0.01646115
2e+08	-0.001414389	-0.01192683	1.605845e-05	1.281414e-05	0.002020737	-0.002293866	5.157046e-07	9.043129e-07
	1.605845e-05	1.281414e-05	-0.0009693125	-0.01174869	7.108584e-05	5.51627e-05	0.002156612	-0.002174324
	0.002020737	-0.002293866	7.108584e-05	5.51627e-05	-0.001579698	-0.01193763	7.471222e-05	6.084611e-05
	5.157046e-07	9.043129e-07	0.002156612	-0.002174324	7.471222e-05	6.084611e-05	-0.0009372962	-0.01161816
2.1e+08	-0.001219379	-0.007051427	1.729524e-05	1.074519e-05	0.001216974	-0.0001558239	7.23938e-07	9.363192e-07
	1.729524e-05	1.074519e-05	-0.0008856863	-0.006956312	7.610916e-05	4.62263e-05	0.001327153	-8.25244e-05
	0.001216974	-0.0001558239	7.610916e-05	4.62263e-05	-0.001306682	-0.007018897	8.031595e-05	5.142485e-05
	7.23938e-07	9.363192e-07	0.001327153	-8.252441e-05	8.031595e-05	5.142485e-05	-0.000845842	-0.006815106
2.2e+08	0.0001620458	-0.002548044	1.828146e-05	8.531088e-06	0.001030336	0.002122612	9.471049e-07	9.110326e-07
	1.828146e-05	8.531088e-06	0.0003484064	-0.002503049	8.010003e-05	3.67414e-05	0.0010922	0.002156927
	0.001030336	0.002122612	8.010003e-05	3.67414e-05	0.0001556925	-0.002497356	8.482597e-05	4.139795e-05
	9.471049e-07	9.110326e-07	0.0010922	0.002156927	8.482597e-05	4.139795e-05	0.000397457	-0.002353825
2.3e+08	0.002578796	0.001301695	1.899085e-05	6.207244e-06	0.001473444	0.004362456	1.168898e-06	8.277652e-07
	1.899085e-05	6.207244e-06	0.002592017	0.001340194	8.296397e-05	2.684385e-05	0.001467341	0.004372598
	0.001473444	0.004362456	8.296397e-05	2.684385e-05	0.00265016	0.001346727	8.814294e-05	3.091007e-05
	1.168898e-06	8.277652e-07	0.001467341	0.004372598	8.814294e-05	3.091007e-05	0.002650798	0.00149455
2.4e+08	0.005814244	0.004267277	1.940483e-05	3.814715e-06	0.00250845	0.006389097	1.374418e-06	6.903903e-07
	1.940483e-05	3.814715e-06	0.005641726	0.004350427	8.463355e-05	1.668795e-05	0.002419974	0.006396172
	0.002508449	0.006389097	8.463355e-05	1.668795e-05	0.005954618	0.004285447	9.019634e-05	2.012402e-05
	1.374418e-06	6.903903e-07	0.002419974	0.006396171	9.019634e-05	2.012402e-05	0.005709884	0.004507037
2.5e+08	0.009602223	0.006184046	1.951354e-05	1.397899e-06	0.004050532	0.008046108	1.551401e-06	5.063634e-07
	1.951354e-05	1.397899e-06	0.009246622	0.00636647	8.507107e-05	6.439297e-06	0.003872321	0.008075626
	0.004050532	0.008046108	8.507107e-05	6.439297e-06	0.009798333	0.006157814	9.094662e-05	9.213265e-06
	1.551401e-06	5.063634e-07	0.003872321	0.008075626	9.094662e-05	9.213265e-06	0.00932297	0.006522708
2.6e+08	0.01364616	0.00696316	1.931627e-05	-9.977901e-07	0.005975045	0.009207427	1.69096e-06	2.854713e-07
	1.931627e-05	-9.977901e-07	0.0131262	0.007298396	8.426968e-05	-3.732045e-06	0.005707926	0.009286959
	0.005975045	0.009207427	8.426968e-05	-3.732045e-06	0.01388127	0.006879486	9.038587e-05	-1.645092e-06
	1.69096e-06	2.854713e-07	0.005707926	0.009286959	9.038587e-05	-1.645092e-06	0.01320882	0.007452112
2.7e+08	0.01763998	0.006596176	1.882103e-05	-3.328268e-06	0.008127667	0.00978701	1.787816e-06	3.84754e-08
	1.882103e-05	-3.328268e-06	0.01698992	0.007131963	8.225239e-05	-1.365861e-05	0.007781058	0.009943589
	0.008127667	0.00978701	8.225239e-05	-1.365861e-05	0.01789512	0.006447073	8.853626e-05	-1.227728e-05
	1.787816e-06	3.84754e-08	0.007781058	0.009943589	8.853626e-05	-1.227728e-05	0.01707633	0.007281667
2.8e+08	0.02128932	0.005154009	1.804362e-05	-5.552755e-06	0.01033672	0.009745262	1.840027e-06	-2.241192e-07
	1.804362e-05	-5.552755e-06	0.02055701	0.005927825	7.906996e-05	-2.318157e-05	0.009928235	0.01000277
	0.01033672	0.009745262	7.906996e-05	-2.318157e-05	0.0215446	0.004936821	8.544755e-05	-2.251864e-05
	1.840027e-06	-2.241192e-07	0.009928235	0.01000277	8.544755e-05	-2.251864e-05	0.02064438	0.006072838
2.9e+08	0.02433149	0.002780471	1.700615e-05	-7.635298e-06	0.01242669	0.009091835	1.848343e-06	-4.930394e-07
	1.700615e-05	-7.635298e-06	0.02357523	0.003815716	7.479678e-05	-3.215593e-05	0.01198099	0.009468583
	0.01242669	0.009091835	7.479678e-05	-3.215593e-05	0.0245674	0.002497826	8.119287e-05	-3.221834e-05
	1.848343e-06	-4.930394e-07	0.01198099	0.009468583	8.119287e-05	-3.221834e-05	0.02366062	0.003956224
3e+08	0.02655299	-0.0003190847	1.573525e-05	-9.54568e-06	0.01423194	0.007884624	1.815309e-06	-7.608407e-07
	1.573525e-05	-9.54568e-06	0.0258373	0.0009840824	6.952616e-05	-4.045391e-05	0.01377887	0.00839137
	0.01423194	0.007884624	6.952616e-05	-4.045391e-05	0.02675171	-0.0006595957	7.586395e-05	-4.124238e-05
	1.815309e-06	-7.608407e-07	0.01377887	0.00839137	7.586395e-05	-4.124238e-05	0.02591792	0.001121153
3.1e+08	0.0278033	-0.003893113	1.426043e-05	-1.125972e-05	0.01560953	0.006225094	1.744302e-06	-1.022086e-06
	1.426043e-05	-1.125972e-05	0.02719395	-0.002333999	6.336565e-05	-4.796694e-05	0.01518181	0.006863642
	0.01560953	0.006225094	6.336565e-05	-4.796694e-05	0.02794983	-0.00427957	6.956677e-05	-4.947527e-05
	1.744302e-06	-1.022086e-06	0.01518181	0.006863642	6.956677e-05	-4.947527e-05	0.02726743	-0.002198499
3.2e+08	0.02800421	-0.007662191	1.26124e-05	-1.275902e-05	0.01645036	0.0042503	1.638653e-06	-1.27315e-06
	1.26124e-05	-1.275902e-05	0.0275629	-0.005877679	5.643199e-05	-5.460601e-05	0.01608082	0.005012834
	0.01645036	0.0042503	5.643199e-05	-5.460601e-05	0.02808731	-0.008079225	6.24168e-05	-5.682009e-05
	1.638653e-06	-1.27315e-06	0.01608082	0.005012834	6.24168e-05	-5.682009e-05	0.02762747	-0.005741223
3.3e+08	0.02715397	-0.01133895	1.082184e-05	-1.403026e-05	0.0166876	0.00212219	1.500981e-06	-1.511712e-06
	1.082184e-05	-1.403026e-05	0.02693305	-0.009376737	4.884711e-05	-6.030079e-05	0.01640635	0.002991426
	0.0166876	0.00212219	4.884711e-05	-6.030079e-05	0.02716693	-0.01176882	5.453545e-05	-6.319762e-05
	1.500981e-06	-1.511712e-06	0.01640635	0.002991426	5.453545e-05	-6.319762e-05	0.02698777	-0.009236353
3.4e+08	0.02532617	-0.01464832	8.91864e-06	-1.506434e-05	0.01630197	1.499445e-05	1.33284e-06	-1.736056e-06
	8.91864e-06	-1.506434e-05	0.02536392	-0.01257033	4.073525e-05	-6.499825e-05	0.01613371	0.0009651511
	0.01630197	1.499445e-05	4.073525e-05	-6.499825e-05	0.02526721	-0.01507214	4.604763e-05	-6.854503e-05
	1.33284e-06	-1.736056e-06	0.01613371	0.0009651511	4.604763e-05	-6.854503e-05	0.02540874	-0.01242284
3.5e+08	0.02266345	-0.01734668	6.931527e-06	-1.585539e-05	0.01532336	-0.001898388	1.1347e-06	-1.944339e-06
	6.931527e-06	-1.585539e-05	0.02298018	-0.01522486	3.222066e-05	-6.866045e-05	0.01528494	-0.0008998423
	0.01532336	-0.001898388	3.222066e-05	-6.866045e-05	0.02253588	-0.01774573	3.707976e-05	-7.281396e-05
	1.1347e-06	-1.944339e-06	0.01528494	-0.0008998423	3.707976e-05	-7.281396e-05	0.023016	-0.01506715
3.6e+08	0.0193664	-0.01923862	4.888143e-06	-1.639992e-05	0.01382863	-0.003459966	9.062629e-07	-2.133922e-06
	4.888143e-06	-1.639992e-05	0.01996189	-0.01714968	2.342666e-05	-7.126286e-05	0.01392728	-0.002449909
	0.01382863	-0.003459966	2.342666e-05	-7.126286e-05	0.01917835	-0.01959567	2.775921e-05	-7.596917e-05
	9.062629e-07	-2.133922e-06	0.01392728	-0.002449909	2.775921e-05	-7.596917e-05	0.01999048	-0.016979
3.7e+08	0.01567852	-0.02019027	2.815289e-06	-1.669633e-05	0.01193574	-0.004539161	6.470077e-07	-2.300961e-06
	2.815289e-06	-1.669633e-05	0.01653099	-0.01820976	1.447524e-05	-7.279272e-05	0.01216793	-0.003555934
	0.01193574	-0.004539161	1.447524e-05	-7.279272e-05	0.01544248	-0.02049074	1.8214e-05	-7.798734e-05
	6.470077e-07	-2.300961e-06	0.01216793	-0.003555934	1.8214e-05	-7.798734e-05	0.01655489	-0.01802395
3.8e+08	0.01186829	-0.02013801	7.39495e-07	-1.674457e-05	0.009794573	-0.005043246	3.569055e-07	-2.440215e-06
	7.39495e-07	-1.674457e-05	0.01293503	-0.01833426	5.487212e-06	-7.324815e-05	0.01014584	-0.004123516
	0.009794573	-0.005043246	5.487212e-06	-7.324815e-05	0.01160024	-0.02037106	8.573078e-06	-7.885677e-05
	3.569055e-07	-2.440215e-06	0.01014584	-0.004123516	8.573078e-06	-7.885677e-05	0.01295736	-0.01813196
3.9e+08	0.008209529	-0.01909232	-1.312497e-06	-1.654623e-05	0.007575206	-0.00492486	3.714228e-08	-2.545223e-06
	-1.312497e-06	-1.654623e-05	0.009429333	-0.01752062	-3.41743e-06	-7.263786e-05	0.008020824	-0.00410048
	0.007575206	-0.00492486	-3.41743e-06	-7.263786e-05	0.007927868	-0.01925163	-1.033488e-06	-7.857763e-05
	3.714228e-08	-2.545223e-06	0.008020824	-0.00410048	-1.033488e-06	-7.857763e-05	0.009453502	-0.0173014
4e+08	0.004961538	-0.01713607	-3.313397e-06	-1.610497e-05	0.005454451	-0.004185951	-3.092683e-07	-2.608765e-06
	-3.313397e-06	-1.610497e-05	0.006258666	-0.01583369	-1.211939e-05	-7.098151e-05	0.005961038	-0.0034811
	0.005454451	-0.004185951	-1.211939e-05	-7.098151e-05	0.004685829	-0.01722039	-1.047468e-05	-7.716281e-05
	-3.092683e-07	-2.608765e-06	0.005961038	-0.0034811	-1.047468e-05	-7.716281e-05	0.006288112	-0.01559813
4.1e+08	0.00235042	-0.01441779	-5.235288e-06	-1.542708e-05	0.003601793	-0.002877794	-6.770929e-07	-2.623553e-06
	-5.235288e-06	-1.542708e-05	0.003639942	-0.01340013	-2.050028e-05	-6.831062e-05	0.004129688	-0.002306643
	0.003601793	-0.002877794	-2.050028e-05	-6.831062e-05	0.002100018	-0.01443105	-1.961925e-05	-7.463933e-05
	-6.770929e-07	-2.623553e-06	0.004129688	-0.002306643	-1.961925e-05	-7.463933e-05	0.003677835	-0.01314982
4.2e+08	0.0005529301	-0.01113999	-7.049862e-06	-1.452221e-05	0.002165851	-0.00109704	-1.058785e-06	-2.583053e-06
	-7.049862e-06	-1.452221e-05	0.001747055	-0.01039847	-2.844345e-05	-6.466959e-05	0.002672127	-0.0006621595
	0.002165851	-0.00109704	-2.844345e-05	-6.466959e-05	0.0003456248	-0.01109116	-2.833716e-05	-7.104951e-05
	-1.058785e-06	-2.583053e-06	0.002672127	-0.0006621595	-2.833716e-05	-7.104951e-05	0.001796008	-0.01013584
4.3e+08	-0.0003158747	-0.007543812	-8.728987e-06	-1.340392e-05	0.001262477	0.0010219	-1.44471e-06	-2.482296e-06
	-8.728987e-06	-1.340392e-05	0.0006989839	-0.007045465	-3.583549e-05	-6.01168e-05	0.001704333	0.001330222
	0.001262477	0.0010219	-3.583549e-05	-6.01168e-05	-0.0004651594	-0.007446285	-3.650181e-05	-6.645215e-05
	-1.44471e-06	-2.482296e-06	0.001704333	0.001330222	-3.650181e-05	-6.645215e-05	0.0007608283	-0.006773632
4.4e+08	-0.0002103842	-0.003890811	-1.024555e-05	-1.209012e-05	0.0009654843	0.003317533	-1.823663e-06	-2.318567e-06
	-1.024555e-05	-1.209012e-05	0.0005520368	-0.003579878	-4.256829e-05	-5.47254e-05	0.001303749	0.003520975
	0.0009654843	0.003317533	-4.256829e-05	-5.47254e-05	-0.0002906862	-0.00376159	-4.399271e-05	-6.0923e-05
	-1.823663e-06	-2.318567e-06	0.001303749	0.003520975	-4.399271e-05	-6.0923e-05	0.0006276374	-0.003302397
4.5e+08	0.0008430627	-0.0004435507	-1.157452e-05	-1.060316e-05	0.001300762	0.005614115	-2.183609e-06	-2.091865e-06
	-1.157452e-05	-1.060316e-05	0.001296732	-0.0002449114	-4.85418e-05	-4.85836e-05	0.001503216	0.005745011
	0.001300762	0.005614115	-4.85418e-05	-4.85836e-05	0.0008378919	-0.0003020523	-5.069872e-05	-5.45546e-05
	-2.183609e-06	-2.091865e-06	0.001503216	0.005745011	-5.069872e-05	-5.45546e-05	0.001385901	3.452743e-05
4.6e+08	0.002748992	0.002553738	-1.269403e-05	-8.969647e-06	0.002244239	0.007735605	-2.512532e-06	-1.805069e-06
	-1.269403e-05	-8.969647e-06	0.002859523	0.00272945	-5.36669e-05	-4.179425e-05	0.002288474	0.007834723
	0.002244239	0.007735605	-5.36669e-05	-4.179425e-05	0.002819787	0.002687016	-5.652132e-05	-4.745516e-05
	-2.512532e-06	-1.805069e-06	0.002288474	0.007834723	-5.652132e-05	-4.745516e-05	0.002961008	0.003007332
4.7e+08	0.00535069	0.004892859	-1.358642e-05	-7.219747e-06	0.003723838	0.009519583	-2.799207e-06	-1.463762e-06
	-1.358642e-05	-7.219747e-06	0.005109136	0.005142851	-5.786823e-05	-3.447355e-05	0.003599402	0.009633147
	0.003723838	0.009519583	-5.786823e-05	-3.447355e-05	0.005492855	0.004997766	-6.137706e-05	-3.974635e-05
	-2.799207e-06	-1.463762e-06	0.003599402	0.009633147	-6.137706e-05	-3.974635e-05	0.005220773	0.005416123
