!$
! Info: Touchstone file created by Circ.  Input file=Tx_16in_Rx_100ohms_TxVia_35mils_RxVia_45mils.circ
!$
# Hz S RI R 50
0	0.01648346	1.943394e-25	0.9833757	-2.01944e-25	0.0001032487	3.143254e-23	-0.0001013271	2.0367e-21
	0.9833757	-2.057822e-25	0.01648229	2.280646e-25	-0.0001016937	2.081718e-21	0.0001036643	3.736638e-23
	0.0001014069	3.227811e-23	-0.0001018189	2.097237e-21	0.01649563	1.852438e-25	0.9833602	-1.917512e-25
	-0.0001017017	2.082766e-21	0.000101815	3.755017e-23	0.9833602	-1.913703e-25	0.01649529	2.137052e-25
1e+07	0.02474302	0.008780217	0.9626989	-0.1627668	0.001181965	0.002812791	-0.000758885	-0.0001771794
	0.9626989	-0.1627668	0.02473267	0.00877965	-0.0007588997	-0.0001771556	0.001176743	0.002814661
	0.001181903	0.002812793	-0.0007589553	-0.0001771392	0.02452193	0.008828566	0.9629103	-0.162889
	-0.0007589406	-0.000177163	0.001176681	0.002814671	0.9629103	-0.162889	0.02450943	0.00882877
2e+07	0.03262743	0.01052397	0.9185227	-0.3143214	0.002346929	0.005595825	-0.0007158962	-0.0006065991
	0.9185227	-0.3143214	0.03258818	0.0105318	-0.0007159453	-0.0006065498	0.002327868	0.005604925
	0.002346915	0.005595864	-0.0007159491	-0.0006065073	0.03250303	0.01068095	0.9186073	-0.314624
	-0.0007159018	-0.0006065553	0.002327858	0.00560496	0.9186073	-0.314624	0.03245598	0.01069244
3e+07	0.03901802	0.008591866	0.8529009	-0.4547118	0.004249616	0.007581524	-0.0007509177	-0.0007552855
	0.8529009	-0.4547118	0.03893686	0.008625608	-0.0007510055	-0.000755144	0.004211369	0.007606621
	0.004249618	0.00758153	-0.0007510019	-0.0007551385	0.038979	0.00877548	0.8528487	-0.4551071
	-0.0007509141	-0.0007552797	0.004211369	0.007606627	0.8528487	-0.4551071	0.03888227	0.008819319
4e+07	0.04394545	0.004530465	0.7671194	-0.5820409	0.006674818	0.00875024	-0.0008478298	-0.0007904768
	0.7671194	-0.5820409	0.04381803	0.004612174	-0.000847899	-0.0007902076	0.006616381	0.008801985
	0.006674813	0.008750235	-0.0008479065	-0.0007902092	0.04398106	0.004706662	0.7669189	-0.5824837
	-0.0008478378	-0.0007904788	0.006616375	0.008801983	0.7669189	-0.5824837	0.04382988	0.004809118
5e+07	0.04719359	-0.0009730543	0.6632593	-0.6937108	0.009468999	0.008867915	-0.001122596	-0.0005742883
	0.6632593	-0.6937108	0.04702553	-0.0008200331	-0.001122569	-0.000573884	0.009394103	0.008956803
	0.009468995	0.008867913	-0.001122575	-0.0005738827	0.04728873	-0.0008276426	0.6629049	-0.6941608
	-0.001122601	-0.0005742871	0.009394099	0.008956801	0.6629049	-0.6941608	0.0470902	-0.0006389095
6e+07	0.04859074	-0.007317573	0.5438821	-0.7873159	0.01208929	0.008114379	-0.001294743	-0.000314191
	0.5438821	-0.7873159	0.04839778	-0.007072953	-0.001294543	-0.0003136845	0.01200629	0.008249169
	0.01208929	0.00811438	-0.00129454	-0.0003136872	0.04872663	-0.007218385	0.5433746	-0.7877347
	-0.001294739	-0.0003141939	0.01200629	0.008249169	0.5433746	-0.7877347	0.04849985	-0.006919491
7e+07	0.04806939	-0.01392233	0.4119305	-0.8608072	0.01428229	0.006596399	-0.00137744	-4.883913e-05
	0.4119305	-0.8608072	0.04787554	-0.01357296	-0.001377004	-4.830771e-05	0.01420311	0.006782244
	0.0142823	0.006596397	-0.001376996	-4.831973e-05	0.04822514	-0.0138772	0.4112774	-0.8611577
	-0.001377431	-4.88522e-05	0.01420312	0.006782241	0.4112774	-0.8611577	0.04799898	-0.01345288
8e+07	0.04569316	-0.02022937	0.2706445	-0.9125799	0.01583837	0.004491397	-0.001391897	0.0001966889
	0.2706445	-0.9125799	0.04552739	-0.01977214	-0.001391202	0.0001971338	0.01577699	0.004728601
	0.01583839	0.00449139	-0.001391197	0.0001971153	0.04584774	-0.02023873	0.2698603	-0.9128273
	-0.001391891	0.0001966686	0.015777	0.004728595	0.2698603	-0.9128273	0.04565682	-0.01968578
9e+07	0.04166161	-0.02573037	0.1234783	-0.9415276	0.01661181	0.002031503	-0.001360565	0.00041142
	0.1234783	-0.9415276	0.04155376	-0.02517367	-0.001359647	0.000411658	0.0165823	0.002314885
	0.01661183	0.002031495	-0.001359647	0.0004116425	0.04179567	-0.02578783	0.1225849	-0.9416402
	-0.001360565	0.0004114031	0.01658231	0.002314879	0.1225849	-0.9416402	0.04167548	-0.02511675
1e+08	0.03631463	-0.03000042	-0.02600991	-0.9470742	0.01652792	-0.0005182029	-0.001288608	0.0005954572
	-0.02600991	-0.9470742	0.03629103	-0.0293641	-0.00128756	0.0005953893	0.01654242	-0.000199222
	0.01652792	-0.0005182029	-0.00128756	0.0005953893	0.03641054	-0.03009365	-0.0269803	-0.947025
	-0.001288608	0.0005954572	0.01654242	-0.000199222	-0.0269803	-0.947025	0.03639225	-0.02932855
1.1e+08	0.03000218	-0.03281609	-0.1740674	-0.9290502	0.01563489	-0.002847496	-0.001234109	0.0006911791
	-0.1740674	-0.9290502	0.0300808	-0.03213149	-0.001233053	0.0006907547	0.01570172	-0.002508413
	0.01563489	-0.002847496	-0.001233053	0.0006907546	0.03005337	-0.03292191	-0.1750869	-0.9288351
	-0.001234109	0.0006911791	0.01570172	-0.002508413	-0.1750869	-0.9288351	0.03015893	-0.03209956
1.2e+08	0.02317649	-0.03384772	-0.3170072	-0.8882021	0.01405338	-0.004765285	-0.001238846	0.0008018008
	-0.3170072	-0.8882021	0.02336463	-0.03314957	-0.001237943	0.0008010461	0.01417488	-0.004424246
	0.01405338	-0.004765285	-0.001237943	0.000801046	0.0231859	-0.0339507	-0.3180523	-0.8878025
	-0.001238846	0.0008018008	0.01417488	-0.004424246	-0.3180523	-0.8878025	0.02342377	-0.0331141
1.3e+08	0.01640014	-0.03305003	-0.4514032	-0.8256598	0.01193787	-0.00607335	-0.001269774	0.0009563961
	-0.4514032	-0.8256598	0.01669305	-0.0323765	-0.00126915	0.0009554122	0.01210987	-0.00574935
	0.01193787	-0.00607335	-0.00126915	0.0009554122	0.01637323	-0.03313607	-0.4524412	-0.8250621
	-0.001269774	0.0009563961	0.01210987	-0.00574935	-0.4524412	-0.8250621	0.01673656	-0.03233165
1.4e+08	0.0101942	-0.03053487	-0.5740143	-0.7430743	0.009507619	-0.006635131	-0.001296784	0.001172303
	-0.5740143	-0.7430743	0.01057337	-0.0299229	-0.001296498	0.001171238	0.009719132	-0.006345651
	0.009507619	-0.006635131	-0.001296498	0.001171238	0.01014025	-0.03059257	-0.575008	-0.7422709
	-0.001296784	0.001172303	0.009719132	-0.006345651	-0.575008	-0.7422709	0.01060555	-0.02986445
1.5e+08	0.005015657	-0.02655543	-0.6818967	-0.6425813	0.007014967	-0.006391468	-0.001285323	0.001452709
	-0.6818967	-0.6425813	0.005449185	-0.02603556	-0.001285356	0.00145172	0.00724889	-0.006150061
	0.007014967	-0.006391468	-0.001285356	0.00145172	0.004946871	-0.02657713	-0.6828059	-0.6415721
	-0.001285323	0.001452709	0.00724889	-0.006150061	-0.6828059	-0.6415721	0.005474905	-0.02596109
1.6e+08	0.001222901	-0.02148152	-0.7724811	-0.5267475	0.00471782	-0.005366744	-0.001201618	0.001785281
	-0.7724811	-0.5267475	0.001667989	-0.0210729	-0.001201875	0.001784494	0.004952379	-0.005180906
	0.00471782	-0.005366744	-0.001201875	0.001784494	0.001153171	-0.02146391	-0.7732647	-0.5255406
	-0.001201618	0.001785281	0.004952379	-0.005180906	-0.7732647	-0.5255406	0.001692149	-0.02098175
1.7e+08	-0.0009518856	-0.01576552	-0.8436389	-0.3985051	0.00285234	-0.003665924	-0.001018915	0.002143567
	-0.8436389	-0.3985051	-0.0005446394	-0.01547211	-0.001019251	0.002143046	0.003063303	-0.003535549
	0.00285234	-0.003665924	-0.001019251	0.002143046	-0.001008358	-0.01570996	-0.8442561	-0.3971166
	-0.001018916	0.002143567	0.003063303	-0.003535549	-0.8442561	-0.3971166	-0.0005175802	-0.01536519
1.8e+08	-0.001419694	-0.009901897	-0.8937342	-0.2610741	0.001608383	-0.001463029	-0.0007227717	0.002491057
	-0.8937342	-0.2610741	-0.001100717	-0.009710334	-0.0007230237	0.00249078	0.001771755	-0.001379676
	0.001608383	-0.001463029	-0.0007230238	0.00249078	-0.001449785	-0.009814238	-0.8941466	-0.2595283
	-0.0007227717	0.002491057	0.001771755	-0.001379677	-0.8941466	-0.2595283	-0.001067126	-0.009589831
1.9e+08	-0.0002392088	-0.004383506	-0.9216621	-0.1178784	0.001110166	0.001017552	-0.0003141494	0.002787136
	-0.9216621	-0.1178784	-5.382273e-05	-0.004263128	-0.0003141852	0.002787	0.001205061	0.001070418
	0.001110166	0.001017552	-0.0003141852	0.002787	-0.0002322127	-0.004273654	-0.9218353	-0.1162076
	-0.0003141494	0.002787136	0.001205061	0.001070418	-0.9218353	-0.1162076	-1.117025e-05	-0.004132135
2e+08	0.002391591	0.0003411806	-0.9268705	0.02754244	0.001404075	0.003524761	0.0001902966	0.002993772
	-0.9268705	0.02754244	0.002409084	0.0004361912	0.0001905426	0.002993611	0.001415431	0.003570552
	0.001404075	0.003524761	0.0001905425	0.002993612	0.002442794	0.0004601663	-0.9267756	0.02929925
	0.0001902966	0.002993772	0.001415431	0.003570552	-0.9267756	0.02929925	0.002462076	0.0005740741
2.1e+08	0.006155947	0.003906246	-0.9093675	0.1716236	0.002454748	0.00580698	0.0007607742	0.003081608
	-0.9093675	0.1716236	0.00598722	0.004032725	0.000761274	0.003081233	0.002375536	0.005873867
	0.002454748	0.00580698	0.000761274	0.003081233	0.006253996	0.004019374	-0.9089824	0.1734214
	0.0007607742	0.003081608	0.002375536	0.005873867	-0.9089824	0.1734214	0.006050534	0.004173808
2.2e+08	0.01064892	0.006058451	-0.8697133	0.3108624	0.004149598	0.00763776	0.001359177	0.003034304
	-0.8697133	0.3108624	0.01029499	0.00627856	0.001359804	0.003033553	0.003982259	0.007755868
	0.004149598	0.00763776	0.001359804	0.003033553	0.01079147	0.006150271	-0.8690236	0.3126515
	0.001359177	0.003034304	0.003982259	0.007755868	-0.8690236	0.3126515	0.01036739	0.006419456
2.3e+08	0.01541516	0.006676746	-0.8089988	0.4419023	0.006311123	0.008838577	0.001945161	0.002850364
	-0.8089988	0.4419023	0.01489773	0.007051333	0.00194571	0.002849145	0.006068009	0.009036781
	0.006311123	0.008838577	0.00194571	0.002849145	0.01559488	0.006732968	-0.8079989	0.4436299
	0.001945161	0.002850364	0.006068009	0.009036781	-0.8079989	0.4436299	0.01497692	0.007189312
2.4e+08	0.01999029	0.005779643	-0.7288118	0.5616104	0.008715527	0.009296402	0.002482233	0.002542181
	-0.7288118	0.5616104	0.01935082	0.006361361	0.002482462	0.002540508	0.008418269	0.009599066
	0.008715527	0.009296402	0.002482462	0.002540508	0.02019536	0.005788722	-0.7275056	0.5632219
	0.002482233	0.002542181	0.008418269	0.009599066	-0.7275056	0.5632219	0.01943375	0.00649464
2.5e+08	0.02394222	0.003520107	-0.6311942	0.6671475	0.0111157	0.008974494	0.002942673	0.002132661
	-0.6311942	0.6671475	0.02323871	0.004347064	0.002942355	0.00213067	0.01079351	0.009398518
	0.0111157	0.008974494	0.002942355	0.00213067	0.02415732	0.003474639	-0.629595	0.6685883
	0.002942673	0.002132661	0.01079351	0.009398518	-0.629595	0.6685883	0.02332191	0.004474993
2.6e+08	0.02690861	0.0001686633	-0.5185893	0.7560303	0.0132662	0.007915515	0.003310366	0.001650221
	-0.5185893	0.7560303	0.02621044	0.001259305	0.003309346	0.001648148	0.01295327	0.008468016
	0.0132662	0.007915515	0.003309346	0.001648148	0.02711637	6.64062e-05	-0.51672	0.7572474
	0.003310366	0.001650221	0.01295327	0.008468016	-0.51672	0.7572474	0.02629038	0.00138244
2.7e+08	0.02862743	-0.003913498	-0.3937827	0.8261846	0.01494789	0.006236801	0.003581111	0.001123257
	-0.3937827	0.8261846	0.02800862	-0.002563644	0.003579352	0.001121398	0.01468007	0.006913713
	0.01494789	0.006236801	0.003579352	0.001121398	0.02881016	-0.004069082	-0.3916755	0.8271284
	0.003581111	0.001123257	0.01468007	0.006913713	-0.3916755	0.8271284	0.02808214	-0.002443588
2.8e+08	0.02895802	-0.008308862	-0.2598372	0.8759902	0.01598979	0.004118313	0.003760494	0.0005752722
	-0.2598372	0.8759902	0.02848964	-0.006728162	0.003758093	0.0005739265	0.01580093	0.004904094
	0.01598979	0.004118313	0.003758093	0.0005739265	0.0290996	-0.00850865	-0.2575334	0.8766157
	0.003760494	0.0005752722	0.01580093	0.004904094	-0.2575334	0.8766157	0.02855431	-0.006608474
2.9e+08	0.02789109	-0.0125823	-0.1200219	0.9043158	0.01628615	0.00178446	0.003859911	2.164252e-05
	-0.1200219	0.9043158	0.02763354	-0.01082147	0.003857096	2.104663e-05	0.01620441	0.002653002
	0.01628615	0.00178446	0.003857096	2.104663e-05	0.02797873	-0.01281217	-0.117571	0.9045845
	0.003859911	2.164252e-05	0.01620441	0.002653002	-0.117571	0.9045845	0.02768792	-0.01069874
3e+08	0.02554679	-0.01632067	0.02226187	0.9105452	0.01580712	-0.000518495	0.003891719	-0.0005313565
	0.02226187	0.9105452	0.02554281	-0.01444879	0.003888802	-0.0005310824	0.01585169	0.0003982102
	0.01580712	-0.000518495	0.003888802	-0.0005310824	0.02557259	-0.01656272	0.02480326	0.9104263
	0.00389172	-0.0005313565	0.01585169	0.0003982102	0.02480326	0.9104263	0.02558667	-0.01431927
3.1e+08	0.02216135	-0.01916992	0.1635599	0.894592	0.01460185	-0.002547272	0.003864615	-0.001085148
	0.1635599	0.894592	0.02243048	-0.01726824	0.003861938	-0.001084032	0.01478042	-0.001622401
	0.01460185	-0.002547272	0.003861938	-0.001084032	0.0221234	-0.01940417	0.166129	0.8940638
	0.003864615	-0.001085148	0.01478042	-0.001622401	0.166129	0.8940638	0.02246484	-0.01712824
3.2e+08	0.01806336	-0.02086634	0.3004453	0.856904	0.01279371	-0.004086261	0.00378031	-0.00164547
	0.3004453	0.856904	0.01859861	-0.01902049	0.003778168	-0.001643684	0.01310098	-0.003194778
	0.01279371	-0.004086261	0.003778168	-0.001643684	0.01796626	-0.02107271	0.3029748	0.8559553
	0.00378031	-0.00164547	0.01310098	-0.003194778	0.3029748	0.8559553	0.01862571	-0.01886682
3.3e+08	0.01364209	-0.02125934	0.4296014	0.7984551	0.010568	-0.004969579	0.003632248	-0.002217828
	0.4296014	0.7984551	0.01440916	-0.01955064	0.003630832	-0.002215659	0.01098549	-0.00415037
	0.010568	-0.004969579	0.003630832	-0.002215659	0.01349674	-0.02141978	0.432021	0.7970857
	0.003632248	-0.002217828	0.01098549	-0.00415037	0.432021	0.7970857	0.01443218	-0.01938097
3.4e+08	0.009310378	-0.02032359	0.5479024	0.7207239	0.008153163	-0.00509822	0.003406666	-0.002802861
	0.5479024	0.7207239	0.01024978	-0.01882037	0.003406014	-0.002800647	0.008650387	-0.004383316
	0.008153163	-0.00509822	0.003406014	-0.002800647	0.009133219	-0.02042405	0.5501409	0.7189459
	0.003406666	-0.002802861	0.008650387	-0.004383316	0.5501409	0.7189459	0.01027256	-0.01863352
3.5e+08	0.00546588	-0.01815948	0.652492	0.6256599	0.005797498	-0.004450438	0.003085781	-0.003392717
	0.652492	0.6256599	0.006497764	-0.01690931	0.003085775	-0.003390771	0.006334496	-0.003861321
	0.005797498	-0.004450438	0.003085775	-0.003390771	0.005277356	-0.0181916	0.6544793	0.6234973
	0.003085781	-0.003392717	0.006334496	-0.003861321	0.6544793	0.6234973	0.006524364	-0.01670542
3.6e+08	0.002453972	-0.01498187	0.7408557	0.5156354	0.003743638	-0.003084197	0.002652416	-0.003969293
	0.7408557	0.5156354	0.003485358	-0.01400559	0.002652807	-0.003967832	0.004274611	-0.002629029
	0.003743638	-0.003084197	0.002652807	-0.003967832	0.00227662	-0.0149441	0.7425251	0.5131247
	0.002652416	-0.003969293	0.004274611	-0.002629029	0.7425251	0.5131247	0.003519636	-0.01378614
3.7e+08	0.0005360066	-0.01109822	0.8108856	0.3933864	0.002203524	-0.001131337	0.002095036	-0.004504827
	0.8108856	0.3933864	0.001469729	-0.01038642	0.002095503	-0.004503919	0.002681281	-0.0008034433
	0.002203524	-0.001131337	0.002095503	-0.004503919	0.0003921844	-0.01099624	0.8121756	0.3905757
	0.002095036	-0.004504827	0.002681281	-0.0008034434	0.8121756	0.3905757	0.001514885	-0.0101541
3.8e+08	-0.0001341555	-0.006878082	0.8609328	0.2619419	0.001336514	0.001215976	0.001412095	-0.004964772
	0.8609328	0.2619419	0.0006103436	-0.006390698	0.001412326	-0.004964318	0.001717272	0.001438126
	0.001336514	0.001215976	0.001412326	-0.004964318	-0.0002245963	-0.00672457	0.8617899	0.2588903
	0.001412095	-0.004964772	0.001717272	0.001438126	0.8617899	0.2588903	0.0006685537	-0.006149117
3.9e+08	0.0004768836	-0.00271724	0.8898486	0.1245457	0.001232997	0.003725076	0.0006147142	-0.005312402
	0.8898486	0.1245457	0.0009558557	-0.00238617	0.0006144842	-0.005312157	0.001481039	0.003876341
	0.001232996	0.003725076	0.0006144842	-0.005312157	0.0004550177	-0.002530785	0.8902286	0.1213219
	0.0006147142	-0.005312402	0.001481039	0.003876341	0.8902286	0.1213219	0.001028003	-0.002139516
4e+08	0.002280748	0.001000308	0.8970101	-0.0154274	0.001905199	0.006146778	-0.0002729147	-0.005514227
	0.8970101	-0.0154274	0.002441624	0.001265474	-0.0002736802	-0.005513856	0.001996884	0.00627236
	0.001905199	0.006146778	-0.0002736802	-0.005513856	0.00233625	0.001196867	0.8968804	-0.01874708
	-0.0002729147	-0.005514227	0.001996884	0.00627236	0.8968804	-0.01874708	0.002527175	0.001512917
4.1e+08	0.0050776	0.003938591	0.8823318	-0.1545584	0.003286134	0.008240946	-0.001215519	-0.005545108
	0.8823318	-0.1545584	0.004897928	0.00424235	-0.001216714	-0.005544265	0.003212812	0.008392224
	0.003286134	0.008240946	-0.001216714	-0.005544265	0.005211728	0.004120356	0.8816721	-0.1578914
	-0.001215519	-0.005545108	0.003212812	0.008392224	0.8816721	-0.1578914	0.004994963	0.004486667
4.2e+08	0.008576889	0.005840744	0.8462616	-0.289469	0.005236672	0.009800959	-0.002170737	-0.005392029
	0.8462616	-0.289469	0.008067885	0.006291692	-0.002172087	-0.005390451	0.005006169	0.01003054
	0.005236672	0.009800959	-0.002172087	-0.005390451	0.008782968	0.005983232	0.8450654	-0.2927292
	-0.002170737	-0.005392029	0.005006169	0.01003054	0.8450654	-0.2927292	0.008173283	0.006529773
4.3e+08	0.01242635	0.006552058	0.789764	-0.4169047	0.007559918	0.01067458	-0.003094301	-0.005055822
	0.789764	-0.4169047	0.01163315	0.007252092	-0.003095417	-0.005053397	0.007196391	0.01103104
	0.007559918	0.01067458	-0.003095417	-0.005053397	0.01269018	0.0066337	0.7880391	-0.4200046
	-0.003094301	-0.005055822	0.007196391	0.01103104	0.7880391	-0.4200046	0.0117429	0.007481995
4.4e+08	0.01624629	0.006032934	0.7142908	-0.5338117	0.01002129	0.01077918	-0.003945381	-0.004550526
	0.7142908	-0.5338117	0.01524477	0.007066744	-0.00394584	-0.004547342	0.009563428	0.01130203
	0.01002129	0.01077918	-0.00394584	-0.004547342	0.01654734	0.006037357	0.7120593	-0.5366646
	-0.003945381	-0.004550526	0.009563428	0.01130203	0.7120593	-0.5366646	0.01535442	0.007287922
4.5e+08	0.01966587	0.004360791	0.6217403	-0.6374068	0.01237223	0.01010982	-0.004691027	-0.003900614
	0.6217403	-0.6374068	0.01855627	0.005786701	-0.004690467	-0.003896953	0.01186994	0.01082529
	0.01237223	0.01010982	-0.004690467	-0.003896953	0.01997912	0.00427864	0.6190385	-0.6399295
	-0.004691027	-0.003900614	0.01186994	0.01082529	0.6190385	-0.6399295	0.01866136	0.006000096
4.6e+08	0.02235787	0.001720978	0.5144089	-0.7252401	0.01437514	0.008739669	-0.005308895	-0.003136712
	0.5144089	-0.7252401	0.02125569	0.003564103	-0.005307107	-0.003133009	0.01388501	0.009657548
	0.01437514	0.008739669	-0.005307107	-0.003133009	0.0226562	0.001551082	0.5112869	-0.7273547
	-0.005308895	-0.003136712	0.01388501	0.009657548	0.5112869	-0.7273547	0.02135226	0.003772074
4.7e+08	0.02406886	-0.001612233	0.3949345	-0.7952484	0.01582714	0.006812592	-0.005787815	-0.002290778
	0.3949345	-0.7952484	0.02309396	0.0006362607	-0.005784796	-0.002287537	0.01540707	0.007924699
	0.01582714	0.006812592	-0.005784796	-0.002287537	0.02432565	-0.001862534	0.3914549	-0.7968849
	-0.005787815	-0.002290778	0.01540707	0.007924699	0.3914549	-0.7968849	0.02317894	0.0008423079
4.8e+08	0.02464202	-0.00530264	0.2662335	-0.8458001	0.01658033	0.00452887	-0.006126226	-0.001391726
	0.2662335	-0.8458001	0.02390684	-0.002697782	-0.006122197	-0.001389422	0.0162839	0.005809199
	0.01658033	0.00452887	-0.006122197	-0.001389422	0.02483385	-0.005617827	0.2624706	-0.8468984
	-0.006126226	-0.001391726	0.0162839	0.005809199	0.2624706	-0.8468984	0.02397844	-0.002489235
4.9e+08	0.0240307	-0.008984498	0.1314334	-0.8757314	0.01655672	0.00212533	-0.006328946	-0.0004624176
	0.1314334	-0.8757314	0.02362885	-0.006105931	-0.00632432	-0.0004613937	0.01642771	0.003531972
	0.01655672	0.00212533	-0.00632432	-0.0004613937	0.02413984	-0.009342218	0.1274715	-0.8762426
	-0.006328946	-0.0004624176	0.01642771	0.003531972	0.1274715	-0.8762426	0.0236868	-0.005890046
5e+08	0.02230158	-0.01229731	-0.006199295	-0.8843716	0.01575623	-0.0001481757	-0.006403113	0.0004814333
	-0.006199295	-0.8843716	0.02229785	-0.009254356	-0.006398417	0.0004810391	0.01582399	0.001330519
	0.01575623	-0.0001481757	-0.006398417	0.0004810391	0.02231791	-0.0126704	-0.01026753	-0.8842604
	-0.006403113	0.0004814333	0.01582399	0.001330519	-0.01026753	-0.8842604	0.02234346	-0.009026391
5.1e+08	0.0196272	-0.01491978	-0.1433345	-0.8715603	0.01425715	-0.002053728	-0.006354268	0.001430288
	-0.1433345	-0.8715603	0.02005015	-0.01183855	-0.006350041	0.001428577	0.01453316	-0.0005646868
