!$
! Info: Touchstone file created by Circ.  Input file=Tx_16in_Rx_100ohms_TxVia_35mils_RxVia_45mils.circ
!$
# Hz S RI R 50
0	0.01648404	1.850102e-25	7.252713e-10	2.782802e-27	0.0001037943	3.083515e-23	3.570671e-10	6.027079e-28
	7.252714e-10	2.782782e-27	0.01648229	2.280646e-25	2.454877e-09	1.087953e-26	0.0001036643	3.736638e-23
	0.0001036094	3.07057e-23	2.454877e-09	1.087953e-26	0.01649441	1.849678e-25	7.272493e-10	2.9807e-27
	3.570671e-10	6.027023e-28	0.000101815	3.755017e-23	7.272498e-10	2.980719e-27	0.01649529	2.137052e-25
1e+07	0.0245025	0.008816752	9.726643e-10	1.239866e-09	0.001182567	0.002816446	6.209952e-10	5.213197e-10
	9.726643e-10	1.239866e-09	0.02473267	0.00877965	3.576336e-09	6.547398e-09	0.001176743	0.002814661
	0.001182562	0.002816447	3.576336e-09	6.547398e-09	0.0247596	0.008782113	9.555413e-10	1.266294e-09
	6.209952e-10	5.213197e-10	0.001176681	0.002814671	9.555411e-10	1.266294e-09	0.02450943	0.00882877
2e+07	0.03247264	0.01066287	1.423113e-09	2.022327e-09	0.002349101	0.00560267	1.095098e-09	6.599471e-10
	1.423113e-09	2.022327e-09	0.03258818	0.0105318	4.840713e-09	1.132247e-08	0.002327868	0.005604925
	0.002349102	0.005602675	4.840713e-09	1.132247e-08	0.03264988	0.01052354	1.360185e-09	2.090418e-09
	1.095098e-09	6.599472e-10	0.002327858	0.00560496	1.360185e-09	2.090418e-09	0.03245598	0.01069244
3e+07	0.03893449	0.008757411	1.81624e-09	2.604298e-09	0.004254138	0.007590837	1.554489e-09	5.773921e-10
	1.81624e-09	2.604298e-09	0.03893686	0.008625608	5.680213e-09	1.581709e-08	0.004211369	0.007606621
	0.00425414	0.007590836	5.680213e-09	1.581709e-08	0.03904691	0.008584705	1.687704e-09	2.750484e-09
	1.554489e-09	5.773921e-10	0.004211369	0.007606627	1.687704e-09	2.750484e-09	0.03888227	0.008819319
4e+07	0.04392221	0.004695767	2.133279e-09	3.018727e-09	0.006682176	0.008761066	1.926697e-09	2.60287e-10
	2.133279e-09	3.018727e-09	0.04381803	0.004612174	6.294343e-09	2.013912e-08	0.006616381	0.008801985
	0.006682176	0.008761064	6.294343e-09	2.013912e-08	0.04397899	0.004511879	1.939602e-09	3.284672e-09
	1.926697e-09	2.602869e-10	0.006616375	0.008801983	1.939602e-09	3.284672e-09	0.04382988	0.004809118
5e+07	0.04721842	-0.0008246928	2.307792e-09	3.301803e-09	0.009479301	0.008879241	2.1091e-09	-2.526484e-10
	2.307792e-09	3.301803e-09	0.04702553	-0.0008200331	6.673451e-09	2.435742e-08	0.009394103	0.008956803
	0.009479301	0.008879241	6.673451e-09	2.435742e-08	0.04722762	-0.00100689	2.069174e-09	3.726336e-09
	2.1091e-09	-2.526484e-10	0.009394099	0.008956801	2.069174e-09	3.726336e-09	0.0470902	-0.0006389095
6e+07	0.04865035	-0.007196556	2.300762e-09	3.519845e-09	0.0121023	0.0081252	2.026181e-09	-8.798593e-10
	2.300762e-09	3.519845e-09	0.04839778	-0.007072953	6.815745e-09	2.856459e-08	0.01200629	0.008249169
	0.0121023	0.0081252	6.815745e-09	2.856459e-08	0.04861927	-0.007368636	2.053998e-09	4.131413e-09
	2.026181e-09	-8.798593e-10	0.01200629	0.008249169	2.053998e-09	4.131413e-09	0.04849985	-0.006919491
7e+07	0.04815017	-0.01383395	2.075631e-09	3.753761e-09	0.01429745	0.006605844	1.585586e-09	-1.464813e-09
	2.075631e-09	3.753761e-09	0.04787554	-0.01357296	6.68925e-09	3.283454e-08	0.01420311	0.006782244
	0.01429745	0.006605844	6.68925e-09	3.283454e-08	0.04808544	-0.01399008	1.865577e-09	4.566479e-09
	1.585586e-09	-1.464813e-09	0.01420312	0.006782241	1.865577e-09	4.56648e-09	0.04799898	-0.01345288
8e+07	0.04578208	-0.02017454	1.633326e-09	4.089121e-09	0.01585485	0.004498842	8.315778e-10	-1.851017e-09
	1.633326e-09	4.089121e-09	0.04552739	-0.01977214	6.349888e-09	3.726933e-08	0.01577699	0.004728601
	0.01585485	0.004498841	6.349888e-09	3.726933e-08	0.0456898	-0.02031044	1.512443e-09	5.100183e-09
	8.31578e-10	-1.851017e-09	0.015777	0.004728595	1.512443e-09	5.100183e-09	0.04565682	-0.01968578
9e+07	0.04174689	-0.02570628	1.027662e-09	4.604716e-09	0.0166286	0.00203665	-1.103819e-10	-1.97245e-09
	1.027662e-09	4.604716e-09	0.04155376	-0.02517367	5.914953e-09	4.194697e-08	0.0165823	0.002314885
	0.0166286	0.002036649	5.914953e-09	4.194697e-08	0.04163309	-0.02581862	1.050877e-09	5.789908e-09
	-1.103817e-10	-1.97245e-09	0.01658231	0.002314879	1.050877e-09	5.789908e-09	0.04167548	-0.02511675
1e+08	0.03638462	-0.03000113	3.023154e-10	5.378794e-09	0.01654396	-0.0005152879	-1.117561e-09	-1.779032e-09
	3.023154e-10	5.378794e-09	0.03629103	-0.0293641	5.474003e-09	4.69092e-08	0.01654242	-0.000199222
	0.01654396	-0.0005152878	5.474003e-09	4.69092e-08	0.03625737	-0.03008749	5.167444e-10	6.693196e-09
	-1.117561e-09	-1.779032e-09	0.01654242	-0.000199222	5.167444e-10	6.693196e-09	0.03639225	-0.02932855
1.1e+08	0.03005398	-0.03282639	-4.461763e-10	6.336393e-09	0.01564922	-0.002846383	-2.1495e-09	-1.330547e-09
	-4.461763e-10	6.336393e-09	0.0300808	-0.03213149	5.17756e-09	5.210825e-08	0.01570172	-0.002508413
	0.01564922	-0.002846383	5.17756e-09	5.210825e-08	0.02991452	-0.03289437	-1.150337e-11	7.716699e-09
	-2.1495e-09	-1.330547e-09	0.01570172	-0.002508413	-1.150337e-11	7.716699e-09	0.03015893	-0.03209956
1.2e+08	0.0232134	-0.03386228	-1.097273e-09	7.590999e-09	0.01406524	-0.004765242	-3.143198e-09	-5.15349e-10
	-1.097273e-09	7.590999e-09	0.02336463	-0.03314957	5.076532e-09	5.755534e-08	0.01417488	-0.004424246
	0.01406524	-0.004765242	5.076532e-09	5.755534e-08	0.02306061	-0.03390492	-4.41382e-10	8.961484e-09
	-3.143198e-09	-5.15349e-10	0.01417488	-0.004424246	-4.41382e-10	8.961484e-09	0.02342377	-0.0331141
1.3e+08	0.01642416	-0.03306457	-1.55861e-09	9.130281e-09	0.0119468	-0.006073425	-3.948031e-09	6.567303e-10
	-1.55861e-09	9.130281e-09	0.01669305	-0.0323765	5.260443e-09	6.319762e-08	0.01210987	-0.00574935
	0.0119468	-0.006073425	5.260443e-09	6.319762e-08	0.0162633	-0.0330755	-7.064316e-10	1.04162e-08
	-3.948031e-09	6.567303e-10	0.01210987	-0.00574935	-7.064316e-10	1.04162e-08	0.01673656	-0.03233165
1.4e+08	0.01020769	-0.03054616	-1.718502e-09	1.089263e-08	0.009513478	-0.006634258	-4.431924e-09	2.124883e-09
	-1.718502e-09	1.089263e-08	0.01057337	-0.0299229	5.809063e-09	6.894208e-08	0.009719132	-0.006345651
	0.009513478	-0.006634258	5.809063e-09	6.894208e-08	0.01004736	-0.03052123	-7.204672e-10	1.202893e-08
	-4.431924e-09	2.124883e-09	0.009719132	-0.006345651	-7.204672e-10	1.202893e-08	0.01060555	-0.02986445
1.5e+08	0.005021239	-0.0265613	-1.484689e-09	1.276952e-08	0.007018008	-0.00638859	-4.48592e-09	3.781574e-09
	-1.484689e-09	1.276952e-08	0.005449185	-0.02603556	6.769451e-09	7.466422e-08	0.00724889	-0.006150061
	0.007018008	-0.00638859	6.769451e-09	7.466422e-08	0.004871953	-0.02649954	-4.129558e-10	1.370942e-08
	-4.48592e-09	3.781574e-09	0.00724889	-0.006150061	-4.129558e-10	1.370942e-08	0.005474905	-0.02596109
1.6e+08	0.001223227	-0.02148066	-8.064259e-10	1.461284e-08	0.004718636	-0.00536094	-4.039692e-09	5.479382e-09
	-8.064259e-10	1.461284e-08	0.001667989	-0.0210729	8.142522e-09	8.022059e-08	0.004952379	-0.005180906
	0.004718636	-0.00536094	8.142522e-09	8.022059e-08	0.00109609	-0.02138475	2.517596e-10	1.533489e-08
	-4.039692e-09	5.479382e-09	0.004952379	-0.005180906	2.517596e-10	1.533489e-08	0.001692149	-0.02098175
1.7e+08	-0.0009542532	-0.01575738	3.076434e-10	1.625313e-08	0.002851805	-0.003656516	-3.076346e-09	7.045272e-09
	3.076434e-10	1.625313e-08	-0.0005446394	-0.01547211	9.875153e-09	8.546721e-08	0.003063303	-0.003535549
	0.002851805	-0.003656516	9.875153e-09	8.546721e-08	-0.001048881	-0.01563373	1.258828e-09	1.676585e-08
	-3.076346e-09	7.045272e-09	0.003063303	-0.003535549	1.258828e-09	1.676585e-08	-0.0005175802	-0.01536519
1.8e+08	-0.00142236	-0.009886537	1.780938e-09	1.752563e-08	0.001607559	-0.001449665	-1.641712e-09	8.300995e-09
	1.780938e-09	1.752563e-08	-0.001100717	-0.009710334	1.186061e-08	9.028135e-08	0.001771755	-0.001379676
	0.001607559	-0.001449665	1.186061e-08	9.028135e-08	-0.001476126	-0.009744942	2.535683e-09	1.786901e-08
	-1.641712e-09	8.300995e-09	0.001771755	-0.001379677	2.535683e-09	1.786901e-08	-0.001067126	-0.009589831
1.9e+08	-0.0002400128	-0.004361563	3.472969e-09	1.829913e-08	0.001110185	0.001034852	1.547576e-10	9.086976e-09
	3.472969e-09	1.829913e-08	-5.382273e-05	-0.004263128	1.394843e-08	9.458225e-08	0.001205061	0.001070418
	0.001110185	0.001034852	1.394843e-08	9.458225e-08	-0.0002476735	-0.004214483	3.956335e-09	1.854272e-08
	1.547576e-10	9.086976e-09	0.001205061	0.001070418	3.956335e-09	1.854272e-08	-1.117025e-05	-0.004132135
2e+08	0.002394492	0.0003685685	5.196243e-09	1.850117e-08	0.00140601	0.003545603	2.148808e-09	9.28578e-09
	5.196243e-09	1.850117e-08	0.002409084	0.0004361912	1.596276e-08	9.834661e-08	0.001415431	0.003570552
	0.00140601	0.003545603	1.596276e-08	9.834661e-08	0.002434241	0.0005070606	5.357386e-09	1.873869e-08
	2.148808e-09	9.28578e-09	0.001415431	0.003570552	5.357386e-09	1.873869e-08	0.002462076	0.0005740741
2.1e+08	0.006163976	0.003937501	6.742974e-09	1.813372e-08	0.002459494	0.005830629	4.139132e-09	8.84088e-09
	6.742974e-09	1.813372e-08	0.00598722	0.004032725	1.772573e-08	1.016152e-07	0.002375536	0.005873867
	0.002459494	0.005830629	1.772573e-08	1.016152e-07	0.006248014	0.004053012	6.562738e-09	1.847461e-08
	4.139132e-09	8.84088e-09	0.002375536	0.005873867	6.562738e-09	1.847461e-08	0.006050534	0.004173808
2.2e+08	0.01066297	0.006091654	7.915956e-09	1.727593e-08	0.004157769	0.007663218	5.91131e-09	7.767271e-09
	7.915956e-09	1.727593e-08	0.01029499	0.00627856	1.908162e-08	1.044896e-07	0.003982259	0.007755868
	0.004157769	0.007663218	1.908162e-08	1.044896e-07	0.01078369	0.006170896	7.411488e-09	1.783453e-08
	5.91131e-09	7.767271e-09	0.003982259	0.007755868	7.411488e-09	1.783453e-08	0.01036739	0.006419456
2.3e+08	0.01543549	0.006709785	8.557096e-09	1.607375e-08	0.006322978	0.008864688	7.263907e-09	6.152161e-09
	8.557096e-09	1.607375e-08	0.01489773	0.007051333	1.991705e-08	1.071193e-07	0.006068009	0.009036781
	0.006322978	0.008864688	1.991705e-08	1.071193e-07	0.01558123	0.006741999	7.782801e-09	1.695727e-08
	7.263907e-09	6.152161e-09	0.006068009	0.009036781	7.782801e-09	1.695727e-08	0.01497692	0.007189312
2.4e+08	0.02001649	0.005810407	8.568188e-09	1.471959e-08	0.008730933	0.009321969	8.03246e-09	4.146102e-09
	8.568188e-09	1.471959e-08	0.01935082	0.006361361	2.017416e-08	1.096834e-07	0.008418269	0.009599066
	0.008730933	0.009321969	2.017416e-08	1.096834e-07	0.02017236	0.005788629	7.612654e-09	1.601592e-08
	8.03246e-09	4.146102e-09	0.008418269	0.009599066	7.612654e-09	1.601592e-08	0.01943375	0.00649464
2.5e+08	0.02397319	0.003546692	7.921068e-09	1.342715e-08	0.01113413	0.008998412	8.108023e-09	1.946661e-09
	7.921068e-09	1.342715e-08	0.02323871	0.004347064	1.985538e-08	1.123697e-07	0.01079351	0.009398518
	0.01113413	0.008998412	1.985538e-08	1.123697e-07	0.02412234	0.003468729	6.900056e-09	1.519403e-08
	8.108023e-09	1.946661e-09	0.01079351	0.009398518	6.900056e-09	1.519403e-08	0.02332191	0.004474993
2.6e+08	0.02694267	0.000189585	6.657402e-09	1.240673e-08	0.01328681	0.007936894	7.448415e-09	-2.222007e-10
	6.657402e-09	1.240673e-08	0.02621044	0.001259305	1.902087e-08	1.153553e-07	0.01295327	0.008468016
	0.01328681	0.007936894	1.902087e-08	1.153553e-07	0.02706782	5.856464e-05	5.70339e-09	1.466343e-08
	7.448415e-09	-2.222007e-10	0.01295327	0.008468016	5.70339e-09	1.466343e-08	0.02629038	0.00138244
2.7e+08	0.02866246	-0.003899112	4.880821e-09	1.18449e-08	0.01496955	0.006255066	6.082085e-09	-2.131917e-09
	4.880821e-09	1.18449e-08	0.02800862	-0.002563644	1.778059e-08	1.187911e-07	0.01468007	0.006913713
	0.01496955	0.006255066	1.778059e-08	1.187911e-07	0.02874763	-0.004074703	4.13006e-09	1.456761e-08
	6.082085e-09	-2.131917e-09	0.01468007	0.006913713	4.13006e-09	1.456761e-08	0.02808214	-0.002443588
2.8e+08	0.02899167	-0.008301154	2.745163e-09	1.188998e-08	0.01601123	0.004133278	4.105663e-09	-3.569936e-09
	2.745163e-09	1.188998e-08	0.02848964	-0.006728162	1.628372e-08	1.2279e-07	0.01580093	0.004904094
	0.01601123	0.004133278	1.628372e-08	1.2279e-07	0.02902386	-0.008507958	2.323514e-09	1.501151e-08
	4.105663e-09	-3.569936e-09	0.01580093	0.004904094	2.323514e-09	1.501151e-08	0.02855431	-0.006608474
2.9e+08	0.02792104	-0.01258062	4.420455e-10	1.264239e-08	0.01630609	0.00179636	1.676755e-09	-4.358028e-09
	4.420455e-10	1.264239e-08	0.02763354	-0.01082147	1.470732e-08	1.274195e-07	0.01620441	0.002653002
	0.01630609	0.00179636	1.470732e-08	1.274195e-07	0.02789167	-0.01280145	4.510916e-10	1.605659e-08
	1.676755e-09	-4.358028e-09	0.01620441	0.002653002	4.510916e-10	1.605659e-08	0.02768792	-0.01069874
3e+08	0.02557099	-0.01632363	-1.810946e-09	1.414744e-08	0.0158244	-0.0005090109	-9.968691e-10	-4.368103e-09
	-1.810946e-09	1.414744e-08	0.02554281	-0.01444879	1.324471e-08	1.326959e-07	0.01585169	0.0003982102
	0.0158244	-0.0005090109	1.324471e-08	1.326959e-07	0.02547709	-0.01653897	-1.305948e-09	1.771805e-08
	-9.968691e-10	-4.368103e-09	0.01585169	0.0003982102	-1.305948e-09	1.771805e-08	0.02558667	-0.01431927
3.1e+08	0.02217828	-0.01917548	-3.782323e-09	1.638863e-08	0.01461556	-0.002539197	-3.671323e-09	-3.535712e-09
	-3.782323e-09	1.638863e-08	0.02243048	-0.01726824	1.209305e-08	1.385798e-07	0.01478042	-0.001622401
	0.01461556	-0.002539197	1.209305e-08	1.385798e-07	0.02202307	-0.01936527	-2.761254e-09	1.996182e-08
	-3.671323e-09	-3.535712e-09	0.01478042	-0.001622401	-2.761254e-09	1.996182e-08	0.02246484	-0.01712824
3.2e+08	0.01807223	-0.02087204	-5.241361e-09	1.928087e-08	0.01280331	-0.004078329	-6.084327e-09	-1.870941e-09
	-5.241361e-09	1.928087e-08	0.01859861	-0.01902049	1.143889e-08	1.449731e-07	0.01310098	-0.003194778
	0.01280331	-0.004078329	1.143889e-08	1.449731e-07	0.01786519	-0.02101771	-3.733694e-09	2.270028e-08
	-6.084327e-09	-1.870941e-09	0.01310098	-0.003194778	-3.733694e-09	2.270028e-08	0.01862571	-0.01886682
3.3e+08	0.01364292	-0.02126252	-5.977744e-09	2.266564e-08	0.01057338	-0.004960389	-7.977104e-09	5.345713e-10
	-5.977744e-09	2.266564e-08	0.01440916	-0.01955064	1.144066e-08	1.517198e-07	0.01098549	-0.00415037
	0.01057338	-0.004960389	1.144066e-08	1.517198e-07	0.01339915	-0.0213489	-4.061983e-09	2.578839e-08
	-7.977104e-09	5.345713e-10	0.01098549	-0.00415037	-4.061983e-09	2.578839e-08	0.01443218	-0.01938097
3.4e+08	0.009304081	-0.02032169	-5.826738e-09	2.631203e-08	0.008154669	-0.005086387	-9.12021e-09	3.506812e-09
	-5.826738e-09	2.631203e-08	0.01024978	-0.01882037	1.220886e-08	1.586112e-07	0.008650387	-0.004383316
	0.008154669	-0.005086387	1.220886e-08	1.586112e-07	0.009043101	-0.02033874	-3.624702e-09	2.902403e-08
	-9.12021e-09	3.506812e-09	0.008650387	-0.004383316	-3.624702e-09	2.902403e-08	0.01027256	-0.01863352
3.5e+08	0.005454152	-0.01815032	-4.697557e-09	2.992812e-08	0.005795923	-0.004434743	-9.341465e-09	6.797423e-09
	-4.697557e-09	2.992812e-08	0.006497764	-0.01690931	1.378624e-08	1.654007e-07	0.006334496	-0.003861321
	0.005795923	-0.004434743	1.378624e-08	1.654007e-07	0.005198151	-0.01809439	-2.363941e-09	3.215705e-08
	-9.341465e-09	6.797423e-09	0.006334496	-0.003861321	-2.363941e-09	3.215705e-08	0.006524364	-0.01670542
3.6e+08	0.002439161	-0.01496391	-2.599484e-09	3.318557e-08	0.00374014	-0.003063723	-8.552322e-09	1.01025e-08
	-2.599484e-09	3.318557e-08	0.003485358	-0.01400559	1.613217e-08	1.718262e-07	0.004274611	-0.002629029
	0.00374014	-0.003063723	1.613217e-08	1.718262e-07	0.002210901	-0.01483843	-3.076182e-10	3.491013e-08
	-8.552322e-09	1.01025e-08	0.004274611	-0.002629029	-3.076182e-10	3.491013e-08	0.003519636	-0.01378614
3.7e+08	0.0005208796	-0.01107071	3.414031e-10	3.575705e-08	0.002199512	-0.001105578	-6.767695e-09	1.30921e-08
	3.414031e-10	3.575705e-08	0.001469729	-0.01038642	1.911586e-08	1.776412e-07	0.002681281	-0.0008034433
	0.002199512	-0.001105578	1.911586e-08	1.776412e-07	0.0003414378	-0.01088618	2.416257e-09	3.701133e-08
	-6.767695e-09	1.30921e-08	0.002681281	-0.0008034434	2.416257e-09	3.701133e-08	0.001514885	-0.0101541
3.8e+08	-0.0001466993	-0.006841218	3.88166e-09	3.736173e-08	0.001333507	0.001247053	-4.114249e-09	1.544772e-08
	3.88166e-09	3.736173e-08	0.0006103436	-0.006390698	2.252236e-08	1.82648e-07	0.001717272	0.001438126
	0.001333507	0.001247053	2.252236e-08	1.82648e-07	-0.0002601205	-0.006614457	5.579868e-09	3.823418e-08
	-4.114249e-09	1.544772e-08	0.001717272	0.001438126	5.579868e-09	3.823418e-08	0.0006685537	-0.006149117
3.9e+08	0.0004696545	-0.002672122	7.679825e-09	3.781074e-08	0.001232462	0.003761014	-8.23688e-10	1.690246e-08
	7.679825e-09	3.781074e-08	0.0009558557	-0.00238617	2.607248e-08	1.867286e-07	0.001481039	0.003876341
	0.001232462	0.003761014	2.607248e-08	1.867286e-07	0.0004336925	-0.002424876	8.874059e-09	3.84377e-08
	-8.23688e-10	1.690246e-08	0.001481039	0.003876341	8.874059e-09	3.84377e-08	0.001028003	-0.002139516
4e+08	0.002281105	0.001051747	1.133477e-08	3.704291e-08	0.001908401	0.006186667	2.789563e-09	1.727703e-08
	1.133477e-08	3.704291e-08	0.002441624	0.001265474	2.945477e-08	1.898664e-07	0.001996884	0.00627236
	0.001908401	0.006186667	2.945477e-08	1.898664e-07	0.0023269	0.001294779	1.194412e-08	3.759699e-08
	2.789563e-09	1.727703e-08	0.001996884	0.00627236	1.194412e-08	3.759699e-08	0.002527175	0.001512917
4.1e+08	0.005087111	0.003993764	1.443719e-08	3.514235e-08	0.003293995	0.00828351	6.36347e-09	1.650517e-08
	1.443719e-08	3.514235e-08	0.004897928	0.00424235	3.236448e-08	1.92153e-07	0.003212812	0.008392224
	0.003293995	0.00828351	3.236448e-08	1.92153e-07	0.005211105	0.004207269	1.443723e-08	3.581681e-08
	6.36347e-09	1.650517e-08	0.003212812	0.008392224	1.443723e-08	3.581681e-08	0.004994963	0.004486667
4.2e+08	0.00859624	0.00589667	1.662479e-08	3.233362e-08	0.005249675	0.009844681	9.530679e-09	1.464387e-08
	1.662479e-08	3.233362e-08	0.008067885	0.006291692	3.454248e-08	1.937795e-07	0.005006169	0.01003054
	0.005249675	0.009844681	3.454248e-08	1.937795e-07	0.008787075	0.006057208	1.605242e-08	3.332402e-08
	9.530679e-09	1.464387e-08	0.005006169	0.01003054	1.605242e-08	3.332402e-08	0.008173283	0.006529773
4.3e+08	0.01245525	0.006605653	1.763072e-08	2.895518e-08	0.007578043	0.01071785	1.196097e-08	1.186708e-08
	1.763072e-08	2.895518e-08	0.01163315	0.007252092	3.580733e-08	1.950138e-07	0.007196391	0.01103104
	0.007578043	0.01071785	3.580733e-08	1.950138e-07	0.01269461	0.006694044	1.658308e-08	3.044003e-08
	1.196097e-08	1.186708e-08	0.007196391	0.01103104	1.658308e-08	3.044003e-08	0.0117429	0.007481995
4.4e+08	0.01628349	0.006081322	1.731675e-08	2.541675e-08	0.01004401	0.01082045	1.339732e-08	8.445052e-09
	1.731675e-08	2.541675e-08	0.01524477	0.007066744	3.607542e-08	1.961675e-07	0.009563428	0.01130203
	0.01004401	0.01082045	3.607542e-08	1.961675e-07	0.01654764	0.006084687	1.594415e-08	2.753908e-08
	1.339732e-08	8.445052e-09	0.009563428	0.01130203	1.594415e-08	2.753908e-08	0.01535442	0.007287922
4.5e+08	0.01970926	0.004401601	1.568684e-08	2.214938e-08	0.01239855	0.01014778	1.368098e-08	4.713642e-09
	1.568684e-08	2.214938e-08	0.01855627	0.005786701	3.536737e-08	1.975607e-07	0.01186994	0.01082529
	0.01239855	0.01014778	3.536737e-08	1.975607e-07	0.0199712	0.004314852	1.418002e-08	2.500112e-08
	1.368098e-08	4.713642e-09	0.01186994	0.01082529	1.418002e-08	2.500112e-08	0.01866136	0.006000096
4.6e+08	0.02240468	0.001752579	1.288142e-08	1.955737e-08	0.01440369	0.008773356	1.2764e-08	1.039354e-09
	1.288142e-08	1.955737e-08	0.02125569	0.003564103	3.380154e-08	1.994882e-07	0.01388501	0.009657548
	0.01440369	0.008773356	3.380154e-08	1.994882e-07	0.02263668	0.001579193	1.145422e-08	2.316811e-08
	1.2764e-08	1.039354e-09	0.01388501	0.009657548	1.145422e-08	2.316811e-08	0.02135226	0.003772074
4.7e+08	0.02411585	-0.001590572	9.156836e-09	1.797874e-08	0.01585629	0.006841521	1.071003e-08	-2.215093e-09
	9.156836e-09	1.797874e-08	0.02309396	0.0006362607	3.157833e-08	2.021926e-07	0.01540707	0.007924699
	0.01585629	0.006841521	3.157833e-08	2.021926e-07	0.02429218	-0.001838572	8.02595e-09	2.23104e-08
	1.071003e-08	-2.215093e-09	0.01540707	0.007924699	8.02595e-09	2.23104e-08	0.02317894	0.0008423079
4.8e+08	0.02468586	-0.005290542	4.856335e-09	1.765771e-08	0.01660837	0.004553083	7.686029e-09	-4.721429e-09
	4.856335e-09	1.765771e-08	0.02390684	-0.002697782	2.895918e-08	2.058459e-07	0.0162839	0.005809199
