!$
! Info: Touchstone file created by Circ.  Input file=Tx_16in_Rx_93ohms_TxVia_35mils_RxVia_45mils.circ
!$
# Hz S RI R 50
0	0.01459346	1.904168e-25	7.489226e-10	1.391049e-27	0.0001045116	2.738096e-23	2.506625e-09	5.829827e-28
	7.489234e-10	1.390935e-27	0.01459111	2.285469e-25	3.926354e-10	2.032648e-27	0.0001038848	3.306447e-23
	0.0001050191	2.776382e-23	3.926351e-10	2.032684e-27	0.01460537	1.849779e-25	7.685262e-10	1.345153e-27
	2.506625e-09	5.82972e-28	0.0001020358	3.322713e-23	7.685266e-10	1.345116e-27	0.01460414	2.141544e-25
1e+07	0.02140484	-0.001976493	1.235822e-09	1.074563e-09	0.0006472088	0.002592189	5.579005e-09	5.274071e-09
	1.235822e-09	1.074563e-09	0.02100771	-0.002883276	6.279021e-10	7.089426e-10	0.0006818604	0.002842378
	0.0006472381	0.002592184	6.27902e-10	7.089426e-10	0.01987094	-0.002638654	1.310185e-09	1.154735e-09
	5.579005e-09	5.274071e-09	0.0006817992	0.002842388	1.310185e-09	1.154735e-09	0.02058749	-0.002862681
2e+07	0.02442521	-0.01016001	2.208833e-09	1.397506e-09	0.002026261	0.004962348	1.091357e-08	6.552842e-09
	2.208833e-09	1.397506e-09	0.02298584	-0.01128878	9.133949e-10	1.135769e-09	0.001941319	0.005442222
	0.002026261	0.004962326	9.133949e-10	1.135769e-09	0.02241095	-0.01055075	2.392737e-09	1.475491e-09
	1.091357e-08	6.552842e-09	0.00194131	0.005442258	2.392737e-09	1.475491e-09	0.02268664	-0.01111996
3e+07	0.0229368	-0.02002239	3.269922e-09	1.149958e-09	0.00404787	0.006754503	1.679961e-08	4.816259e-09
	3.269922e-09	1.149958e-09	0.0207529	-0.02079871	1.160845e-09	1.42656e-09	0.00398606	0.007330207
	0.004047864	0.006754501	1.160845e-09	1.42656e-09	0.02063908	-0.02002506	3.566375e-09	1.169788e-09
	1.679961e-08	4.816259e-09	0.00398606	0.007330212	3.566375e-09	1.169788e-09	0.02053989	-0.02060125
4e+07	0.01786638	-0.02911493	4.205544e-09	3.06846e-10	0.006491887	0.007793621	2.205845e-08	-1.266839e-10
	4.205544e-09	3.06846e-10	0.01519519	-0.02929517	1.350348e-09	1.599579e-09	0.006526233	0.008385513
	0.006491888	0.007793625	1.350348e-09	1.599579e-09	0.01545734	-0.02866355	4.606819e-09	2.103942e-10
	2.205845e-08	-1.266839e-10	0.006526227	0.008385511	4.606819e-09	2.103942e-10	0.01504334	-0.02910187
5e+07	0.0100552	-0.03624929	4.757225e-09	-1.059332e-09	0.00908923	0.007989085	2.528081e-08	-7.887656e-09
	4.757225e-09	-1.059332e-09	0.007153685	-0.03570905	1.435877e-09	1.678888e-09	0.009200437	0.00857035
	0.009089232	0.007989086	1.435877e-09	1.678888e-09	0.007692051	-0.03533308	5.22918e-09	-1.324406e-09
	2.528081e-08	-7.887656e-09	0.009200433	0.008570349	5.229179e-09	-1.324406e-09	0.007040408	-0.03553373
6e+07	0.0004590616	-0.04069111	4.705694e-09	-2.784196e-09	0.0115587	0.007345006	2.529199e-08	-1.753406e-08
	4.705694e-09	-2.784196e-09	-0.002421045	-0.03939579	1.390285e-09	1.692691e-09	0.01172836	0.007900228
	0.0115587	0.007345005	1.390285e-09	1.692691e-09	-0.001719267	-0.03934361	5.19379e-09	-3.241407e-09
	2.529199e-08	-1.753406e-08	0.01172836	0.007900227	5.19379e-09	-3.241407e-09	-0.002515191	-0.03924167
7e+07	-0.009891082	-0.04208329	3.905736e-09	-4.600158e-09	0.0136394	0.005956463	2.135576e-08	-2.768584e-08
	3.905736e-09	-4.600158e-09	-0.01251584	-0.04007449	1.182536e-09	1.714015e-09	0.01385065	0.006477026
	0.0136394	0.005956463	1.182536e-09	1.714015e-09	-0.01176926	-0.04037266	4.346874e-09	-5.26259e-09
	2.135576e-08	-2.768584e-08	0.01385065	0.006477023	4.346874e-09	-5.26259e-09	-0.01260618	-0.03993795
8e+07	-0.0199713	-0.04041879	2.319817e-09	-6.202667e-09	0.01511899	0.00399611	1.328605e-08	-3.675199e-08
	2.319817e-09	-6.202667e-09	-0.02213715	-0.03780214	8.173142e-10	1.808985e-09	0.01535605	0.004477339
	0.01511898	0.003996112	8.173141e-10	1.808985e-09	-0.02146111	-0.03843823	2.64624e-09	-7.058761e-09
	1.328605e-08	-3.675199e-08	0.01535606	0.004477332	2.64624e-09	-7.058761e-09	-0.02223426	-0.03767539
9e+07	-0.02885435	-0.0360049	2.954556e-11	-7.279849e-09	0.01585596	0.001693028	1.505089e-09	-4.311485e-08
	2.954567e-11	-7.279849e-09	-0.03039527	-0.03293655	3.2467e-10	2.040258e-09	0.01610203	0.002132463
	0.01585596	0.00169303	3.2467e-10	2.040259e-09	-0.02989396	-0.03386326	1.780868e-10	-8.29211e-09
	1.505089e-09	-4.311485e-08	0.01610204	0.002132457	1.780868e-10	-8.29211e-09	-0.03050523	-0.03280992
1e+08	-0.03580806	-0.02940834	-2.764761e-09	-7.567037e-09	0.01580369	-0.0006930079	-1.297147e-08	-4.535152e-08
	-2.764761e-09	-7.567037e-09	-0.03655892	-0.02608109	-2.419989e-10	2.45671e-09	0.01602659	-0.0002972319
	0.01580369	-0.000693008	-2.419989e-10	2.45671e-09	-0.0363331	-0.02722228	-2.842079e-09	-8.67303e-09
	-1.297147e-08	-4.535152e-08	0.01602659	-0.0002972319	-2.842079e-09	-8.67303e-09	-0.03668701	-0.0259449
1.1e+08	-0.04024051	-0.02128758	-5.712531e-09	-6.868718e-09	0.01495662	-0.002850152	-2.858183e-08	-4.24951e-08
	-5.712531e-09	-6.868718e-09	-0.04024021	-0.01813735	-7.933723e-10	3.079464e-09	0.01515367	-0.002541514
	0.01495662	-0.002850152	-7.933723e-10	3.079464e-09	-0.04030926	-0.01931839	-6.045378e-09	-7.991626e-09
	-2.858183e-08	-4.24951e-08	0.01515367	-0.002541514	-6.045378e-09	-7.991626e-09	-0.04037776	-0.01796845
1.2e+08	-0.0418467	-0.01263094	-8.488534e-09	-5.082352e-09	0.01340662	-0.004603446	-4.345413e-08	-3.408951e-08
	-8.488534e-09	-5.082352e-09	-0.0413019	-0.00978774	-1.274773e-09	3.917081e-09	0.01359487	-0.004364841
	0.01340662	-0.004603446	-1.274773e-09	3.917081e-09	-0.04161461	-0.01093055	-9.07991e-09	-6.135773e-09
	-4.345413e-08	-3.408951e-08	0.01359487	-0.004364841	-9.07991e-09	-6.135773e-09	-0.04142995	-0.009585879
1.3e+08	-0.04070522	-0.004331432	-1.070269e-08	-2.288293e-09	0.01134457	-0.00575584	-5.560988e-08	-2.040537e-08
	-1.070269e-08	-2.288293e-09	-0.03976628	-0.001878572	-1.609063e-09	4.943146e-09	0.01152236	-0.005577306
	0.01134457	-0.00575584	-1.609063e-09	4.943146e-09	-0.04027682	-0.002917315	-1.152214e-08	-3.182831e-09
	-5.560988e-08	-2.040537e-08	0.01152236	-0.005577306	-1.152214e-08	-3.182831e-09	-0.03987227	-0.001649322
1.4e+08	-0.0371346	0.002800353	-1.199921e-08	1.307944e-09	0.008996391	-0.006179286	-6.318774e-08	-2.413767e-09
	-1.199921e-08	1.307944e-09	-0.03594652	0.004814013	-1.730072e-09	6.106584e-09	0.009158115	-0.006053003
	0.008996391	-0.006179286	-1.730072e-09	6.106584e-09	-0.0365959	0.003932017	-1.298369e-08	6.510926e-10
	-6.318774e-08	-2.413767e-09	0.009158115	-0.006053003	-1.298369e-08	6.510926e-10	-0.03602198	0.005061089
1.5e+08	-0.03167503	0.008105499	-1.210143e-08	5.368523e-09	0.00661279	-0.005823759	-6.469411e-08	1.826959e-08
	-1.210143e-08	5.368523e-09	-0.03038043	0.009664498	-1.589019e-09	7.331017e-09	0.006750897	-0.005742103
	0.00661279	-0.005823759	-1.589019e-09	7.331017e-09	-0.03109688	0.00897388	-1.315967e-08	5.005762e-09
	-6.469411e-08	1.826959e-08	0.006750897	-0.005742103	-1.315967e-08	5.005762e-09	-0.03042149	0.009917446
1.6e+08	-0.02503083	0.01113406	-1.086149e-08	9.472146e-09	0.004445427	-0.004720863	-5.922227e-08	3.952576e-08
	-1.086149e-08	9.472146e-09	-0.02376644	0.01225637	-1.166362e-09	8.525952e-09	0.004551506	-0.004675129
	0.004445427	-0.004720863	-1.166362e-09	8.525952e-09	-0.02446977	0.01176921	-1.188257e-08	9.427511e-09
	-5.922227e-08	3.952576e-08	0.004551506	-0.004675129	-1.188257e-08	9.427511e-09	-0.02377413	0.01250259
1.7e+08	-0.01799763	0.01168186	-8.281727e-09	1.315754e-08	0.002722053	-0.002980086	-4.661765e-08	5.894791e-08
	-8.281727e-09	1.315754e-08	-0.01688806	0.01241799	-4.740277e-10	9.596072e-09	0.002787863	-0.002959646
	0.002722053	-0.002980086	-4.740277e-10	9.596072e-09	-0.01749635	0.01212089	-9.147011e-09	1.341613e-08
	-4.661765e-08	5.894791e-08	0.002787863	-0.002959646	-9.147011e-09	1.341613e-08	-0.0168681	0.01264602
1.8e+08	-0.01138217	0.00980334	-4.521966e-09	1.597635e-08	0.001623451	-0.0007775607	-2.756396e-08	7.410987e-08
	-4.521966e-09	1.597635e-08	-0.01053251	0.01023355	4.43975e-10	1.045192e-08	0.001642073	-0.0007694799
	0.001623451	-0.0007775607	4.43975e-10	1.045192e-08	-0.01097013	0.01008714	-5.119099e-09	1.648232e-08
	-2.756396e-08	7.410987e-08	0.001642073	-0.00076948	-5.119099e-09	1.648232e-08	-0.01049454	0.01043457
1.9e+08	-0.005922405	0.005799481	1.110832e-10	1.754521e-08	0.001264627	0.001661936	-3.573024e-09	8.285918e-08
	1.110832e-10	1.754521e-08	-0.005410849	0.006028577	1.514379e-09	1.102034e-08	0.001231664	0.001672793
	0.001264627	0.001661936	1.514379e-09	1.102034e-08	-0.005616782	0.005969757	-1.260685e-10	1.820483e-08
	-3.573024e-09	8.285918e-08	0.001231664	0.001672793	-1.260685e-10	1.820483e-08	-0.005367216	0.006197605
2e+08	-0.002215567	0.000181813	5.190405e-09	1.759146e-08	0.001682383	0.004088343	2.31282e-08	8.359954e-08
	5.190405e-09	1.759146e-08	-0.002087233	0.0003315427	2.640665e-09	1.125372e-08	0.001597075	0.004118709
	0.001682383	0.004088343	2.640665e-09	1.125372e-08	-0.002022562	0.0002785896	5.371877e-09	1.828112e-08
	2.31282e-08	8.359954e-08	0.001597075	0.004118709	5.371877e-09	1.828112e-08	-0.002051514	0.0004681294
2.1e+08	-0.0006606974	-0.006384196	1.020784e-08	1.598837e-08	0.00283097	0.006251047	4.98068e-08	7.552578e-08
	1.020784e-08	1.598837e-08	-0.0009241359	-0.006184363	3.711313e-09	1.113639e-08	0.00269704	0.006319948
	0.00283097	0.006251047	3.711313e-09	1.113639e-08	-0.0005771549	-0.006324601	1.082173e-08	1.656301e-08
	4.98068e-08	7.552578e-08	0.00269704	0.006319948	1.082173e-08	1.656301e-08	-0.0009094983	-0.006075984
2.2e+08	-0.001424223	-0.01314977	1.462265e-08	1.277784e-08	0.004591605	0.007928323	7.351028e-08	5.877988e-08
	1.462265e-08	1.277784e-08	-0.00204904	-0.01277335	4.610892e-09	1.069082e-08	0.004412734	0.008054792
	0.004591605	0.007928323	4.610892e-09	1.069082e-08	-0.001439484	-0.01309626	1.56313e-08	1.309146e-08
	7.351028e-08	5.877988e-08	0.004412734	0.008054792	1.56313e-08	1.309146e-08	-0.002066674	-0.01268465
2.3e+08	-0.004427497	-0.01935935	1.791611e-08	8.177969e-09	0.006775852	0.008951102	9.139873e-08	3.450079e-08
	1.791611e-08	8.177969e-09	-0.005345843	-0.01869537	5.234059e-09	9.978365e-09	0.006560511	0.009151938
	0.006775852	0.008951102	5.234059e-09	9.978365e-09	-0.004525355	-0.01928702	1.923771e-08	8.104791e-09
	9.139873e-08	3.450079e-08	0.006560511	0.009151938	1.923771e-08	8.104791e-09	-0.005403623	-0.01861444
2.4e+08	-0.009358317	-0.02432924	1.964745e-08	2.573892e-09	0.009148405	0.009219295	1.010804e-07	4.75654e-09
	1.964745e-08	2.573892e-09	-0.01047157	-0.02329251	5.496565e-09	9.093856e-09	0.008911922	0.009508812
	0.009148405	0.009219295	5.496565e-09	9.093856e-09	-0.009518974	-0.02421984	2.116129e-08	2.01775e-09
	1.010804e-07	4.75654e-09	0.008911922	0.009508812	2.116129e-08	2.01775e-09	-0.01057308	-0.02320532
2.5e+08	-0.01570854	-0.02751574	1.950792e-08	-3.508634e-09	0.01145514	0.008714751	1.009134e-07	-2.76351e-08
	1.950792e-08	-3.508634e-09	-0.01689616	-0.02605531	5.346972e-09	8.159115e-09	0.01121866	0.009102135
	0.01145514	0.008714751	5.346972e-09	8.159115e-09	-0.01591042	-0.02735768	2.106518e-08	-4.602626e-09
	1.009134e-07	-2.76351e-08	0.01121866	0.009102135	2.106518e-08	-4.602626e-09	-0.01704021	-0.02594724
2.6e+08	-0.0228299	-0.02856773	1.736676e-08	-9.447686e-09	0.01345096	0.007502423	9.023369e-08	-5.938163e-08
	1.736676e-08	-9.447686e-09	-0.02396069	-0.02667244	4.775517e-09	7.311496e-09	0.01323945	0.007989563
	0.01345096	0.007502423	4.775517e-09	7.311496e-09	-0.02305123	-0.0283557	1.880451e-08	-1.108531e-08
	9.023369e-08	-5.938163e-08	0.01323945	0.007989563	1.880451e-08	-1.108531e-08	-0.02414132	-0.02652985
2.7e+08	-0.03000259	-0.02735847	1.330257e-08	-1.45858e-08	0.01492611	0.005722276	6.948244e-08	-8.705643e-08
	1.330257e-08	-1.45858e-08	-0.03094731	-0.02505872	3.818927e-09	6.689344e-09	0.01476561	0.006302393
	0.01492611	0.005722276	3.818927e-09	6.689344e-09	-0.03022277	-0.02709282	1.445983e-08	-1.672051e-08
	6.948244e-08	-8.705643e-08	0.01476561	0.006302393	1.445983e-08	-1.672051e-08	-0.03115438	-0.02487057
2.8e+08	-0.03650945	-0.02399414	7.613562e-09	-1.830197e-08	0.01572809	0.003573176	4.021522e-08	-1.07468e-07
	7.613562e-09	-1.830197e-08	-0.03715357	-0.0213598	2.559977e-09	6.415879e-09	0.01564255	0.0042305
	0.01572809	0.003573176	2.559977e-09	6.415879e-09	-0.03671006	-0.02368002	8.347925e-09	-2.083679e-08
	4.021522e-08	-1.07468e-07	0.01564255	0.0042305	8.347925e-09	-2.083679e-08	-0.03737382	-0.02111885
2.9e+08	-0.04170792	-0.01879897	8.019678e-10	-2.008713e-08	0.01577677	0.001290907	4.990109e-09	-1.180181e-07
	8.019678e-10	-2.008713e-08	-0.04196335	-0.0159334	1.121238e-09	6.583506e-09	0.01578485	0.00200152
	0.01577677	0.001290907	1.121238e-09	6.583506e-09	-0.04187348	-0.01844543	1.005301e-09	-2.288171e-08
	4.990109e-09	-1.180181e-07	0.01578485	0.00200152	1.005301e-09	-2.288171e-08	-0.04218179	-0.01563705
3e+08	-0.045093	-0.01227922	-6.468958e-09	-1.961304e-08	0.01507155	-0.0008770264	-3.285625e-08	-1.170102e-07
	-6.468958e-09	-1.961304e-08	-0.04490759	-0.009309883	-3.467222e-10	7.240778e-09	0.01518379	-0.0001432204
	0.01507155	-0.0008770264	-3.467222e-10	7.240778e-09	-0.04521151	-0.01189828	-6.857304e-09	-2.249554e-08
	-3.285625e-08	-1.170102e-07	0.01518379	-0.0001432204	-6.857304e-09	-2.249554e-08	-0.04510908	-0.008960459
3.1e+08	-0.04634538	-0.005070231	-1.344209e-08	-1.678381e-08	0.01369012	-0.00269706	-6.952426e-08	-1.038761e-07
	-1.344209e-08	-1.678381e-08	-0.04570919	-0.002136583	-1.681474e-09	8.384112e-09	0.01390694	-0.001973412
	0.01369012	-0.00269706	-1.681474e-09	8.384112e-09	-0.04640867	-0.004675958	-1.442608e-08	-1.956687e-08
	-6.952426e-08	-1.038761e-07	0.01390694	-0.001973412	-1.442608e-08	-1.956687e-08	-0.04588003	-0.001741202
3.2e+08	-0.04536068	0.002128016	-1.935017e-08	-1.176117e-08	0.01177953	-0.003973148	-1.011296e-07	-7.929317e-08
	-1.935017e-08	-1.176117e-08	-0.04430825	0.004888125	-2.727139e-09	9.955666e-09	0.01209025	-0.003292722
	0.01177953	-0.003973148	-2.727139e-09	9.955666e-09	-0.04536453	0.002520434	-2.087322e-08	-1.426071e-08
	-1.011296e-07	-7.929317e-08	0.01209025	-0.003292722	-2.087322e-08	-1.426071e-08	-0.04443769	0.005318271
3.3e+08	-0.04225748	0.008620564	-2.350513e-08	-4.958383e-09	0.009540566	-0.004566169	-1.241082e-07	-4.517808e-08
	-2.350513e-08	-4.958383e-09	-0.04086587	0.01108481	-3.352598e-09	1.184789e-08	0.009923764	-0.003957985
	0.009540566	-0.004566169	-3.352598e-09	1.184789e-08	-0.04220169	0.008995698	-2.545255e-08	-7.013346e-09
	-1.241082e-07	-4.517808e-08	0.009923764	-0.003957985	-2.545255e-08	-7.013346e-09	-0.04094721	0.01153558
3.4e+08	-0.03736383	0.01378583	-2.53807e-08	2.997439e-09	0.007207301	-0.004407554	-1.356089e-07	-4.550149e-09
	-2.53807e-08	2.997439e-09	-0.0357463	0.01586026	-3.467045e-09	1.391413e-08	0.007632382	-0.003893058
	0.007207301	-0.004407554	-3.467045e-09	1.391413e-08	-0.03725207	0.01412888	-2.758866e-08	1.50654e-09
	-1.356089e-07	-4.550149e-09	0.007632382	-0.003893058	-2.758866e-08	1.50654e-09	-0.03577774	0.01631602
3.5e+08	-0.03118374	0.01713628	-2.467686e-08	1.132976e-08	0.005023449	-0.003506037	-1.338312e-07	3.872816e-08
	-2.467686e-08	1.132976e-08	-0.02947964	0.01876582	-3.030914e-09	1.598385e-08	0.005453381	-0.003096225
	0.005023449	-0.003506037	-3.030914e-09	1.598385e-08	-0.0310233	0.01743393	-2.694753e-08	1.046573e-08
	-1.338312e-07	3.872816e-08	0.005453381	-0.003096225	-2.694753e-08	1.046573e-08	-0.02946446	0.01921105
3.6e+08	-0.02434675	0.01836593	-2.135828e-08	1.919497e-08	0.003217818	-0.001946969	-1.182726e-07	8.031427e-08
	-2.135828e-08	1.919497e-08	-0.02270837	0.01954133	-2.061105e-09	1.788033e-08	0.003612737	-0.001640509
	0.003217818	-0.001946969	-2.061105e-09	1.788033e-08	-0.02414807	0.01860712	-2.347959e-08	1.895441e-08
	-1.182726e-07	8.031427e-08	0.003612737	-0.001640509	-2.347959e-08	1.895441e-08	-0.02265472	0.01996226
3.7e+08	-0.0175454	0.01737999	-1.566257e-08	2.577176e-08	0.001980938	0.0001158942	-8.985022e-08	1.158206e-07
	-1.566257e-08	2.577176e-08	-0.01612308	0.0181405	-6.302367e-10	1.943893e-08	0.002302251	0.0003332841
	0.001980938	0.0001158942	-6.302367e-10	1.943893e-08	-0.01732149	0.01755665	-1.743061e-08	2.608265e-08
	-8.985022e-08	1.158206e-07	0.002302251	0.0003332841	-1.743061e-08	2.608265e-08	-0.01604318	0.01852659
3.8e+08	-0.01146653	0.0143039	-8.079418e-09	3.034699e-08	0.001445133	0.002475562	-5.087701e-08	1.41279e-07
	-8.079418e-09	3.034699e-08	-0.01039332	0.01473504	1.139586e-09	2.052391e-08	0.001659702	0.002630384
	0.001445133	0.002475562	1.139586e-09	2.052391e-08	-0.01123219	0.01441151	-9.320704e-09	3.107393e-08
	-5.087701e-08	1.41279e-07	0.001659702	0.002630384	-9.320704e-09	3.107393e-08	-0.01030227	0.01508016
3.9e+08	-0.006723047	0.009470495	6.954982e-10	3.238907e-08	0.001670121	0.004892748	-4.885178e-09	1.535857e-07
	6.954982e-10	3.238907e-08	-0.00610055	0.009697083	3.087635e-09	2.104252e-08	0.001754086	0.005021662
	0.001670121	0.004892748	3.087635e-09	2.104252e-08	-0.006493884	0.009508485	1.04509e-10	3.334584e-08
	-4.885178e-09	1.535857e-07	0.001754086	0.005021662	1.04509e-10	3.334584e-08	-0.006014783	0.01000024
4e+08	-0.003792897	0.003386535	9.825365e-09	3.160301e-08	0.002635893	0.007120675	4.369359e-08	1.508744e-07
	9.825365e-09	3.160301e-08	-0.003679844	0.003561357	5.029022e-09	2.095537e-08	0.002577726	0.007267261
	0.002635893	0.007120675	5.029022e-09	2.095537e-08	-0.003584338	0.003358428	9.943954e-09	3.257093e-08
	4.369359e-08	1.508744e-07	0.002577726	0.007267261	9.943954e-09	3.257093e-08	-0.003615412	0.003826903
4.1e+08	-0.002971639	-0.003318332	1.840937e-08	2.796389e-08	0.004243979	0.008931237	8.996186e-08	1.327715e-07
	1.840937e-08	2.796389e-08	-0.003376402	-0.003029108	6.771728e-09	2.028236e-08	0.004046421	0.009141858
	0.004243979	0.008931237	6.771728e-09	2.028236e-08	-0.002797828	-0.003405041	1.922502e-08	2.87139e-08
	8.996186e-08	1.327715e-07	0.004046421	0.009141858	1.922502e-08	2.87139e-08	-0.003347275	-0.002791793
4.2e+08	-0.004343427	-0.009954919	2.556602e-08	2.172734e-08	0.006327302	0.01013963	1.290601e-07	1.004978e-07
	2.556602e-08	2.172734e-08	-0.005221495	-0.009388242	8.135075e-09	1.910352e-08	0.006007928	0.01045877
	0.006327302	0.01013963	8.135075e-09	1.910352e-08	-0.00421619	-0.01008917	2.699441e-08	2.204326e-08
	1.290601e-07	1.004978e-07	0.006007928	0.01045877	2.699441e-08	2.204326e-08	-0.005238027	-0.009165657
4.3e+08	-0.007773473	-0.01584369	3.051736e-08	1.341662e-08	0.00866777	0.01062453	1.566849e-07	5.680017e-08
	3.051736e-08	1.341662e-08	-0.009030316	-0.01485637	8.968329e-09	1.755434e-08	0.008258035	0.01109009
	0.00866777	0.01062453	8.968329e-09	1.755434e-08	-0.007701397	-0.01601155	3.240961e-08	1.311704e-08
	1.566849e-07	5.680017e-08	0.008258035	0.01109009	3.240961e-08	1.311704e-08	-0.009098054	-0.01463222
4.4e+08	-0.0129227	-0.02038258	3.266859e-08	3.785784e-09	0.01101969	0.01034141	1.695637e-07	5.713948e-09
	3.266859e-08	3.785784e-09	-0.01442189	-0.01886649	9.167833e-09	1.581531e-08	0.01056248	0.01098035
	0.01101969	0.01034141	9.167833e-09	1.581531e-08	-0.01291041	-0.0205682	3.482488e-08	2.742556e-09
	1.695637e-07	5.713948e-09	0.01056248	0.01098035	3.482488e-08	2.742556e-09	-0.01454088	-0.01862338
4.5e+08	-0.01928285	-0.02310646	3.167711e-08	-6.240681e-09	0.01313627	0.009327276	1.658317e-07	-4.781834e-08
	3.167711e-08	-6.240681e-09	-0.02085873	-0.02100057	8.690804e-09	1.409594e-08	0.0126821	0.01015222
	0.01313627	0.009327276	8.690804e-09	1.409594e-08	-0.01933057	-0.02329318	3.386508e-08	-8.088996e-09
	1.658317e-07	-4.781834e-08	0.0126821	0.01015222	3.386508e-08	-8.088996e-09	-0.02102341	-0.02072184
4.6e+08	-0.02622823	-0.02373234	2.749262e-08	-1.565434e-08	0.01479615	0.00769635	1.452299e-07	-9.841304e-08
	2.749262e-08	-1.565434e-08	-0.02770197	-0.0210302	7.562576e-09	1.261632e-08	0.01439836	0.008703471
	0.01479615	0.00769635	7.562576e-09	1.261632e-08	-0.02633161	-0.02390387	2.946826e-08	-1.829498e-08
	1.452299e-07	-9.841304e-08	0.01439836	0.008703471	2.946826e-08	-1.829498e-08	-0.02790164	-0.02070172
4.7e+08	-0.03307838	-0.02218564	2.040822e-08	-2.344943e-08	0.01582679	0.00562736	1.093014e-07	-1.408255e-07
	2.040822e-08	-2.344943e-08	-0.03427578	-0.0189376	5.882863e-09	1.157877e-08	0.0155361	0.006795891
	0.01582679	0.00562736	5.882863e-09	1.157877e-08	-0.03322876	-0.02232744	2.194021e-08	-2.679426e-08
	1.093014e-07	-1.408255e-07	0.0155361	0.006795891	2.194021e-08	-2.679426e-08	-0.03449569	-0.01854923
