!$
! Info: Touchstone file created by Circ.  Input file=Tx_16in_Rx_100ohms_TxVia_35mils_RxVia_45mils.circ
!$
# Hz S RI R 50
0	0.01648579	1.917283e-25	-6.252689e-12	6.063805e-28	0.0001049894	3.103524e-23	-5.407702e-12	2.975454e-28
	-6.252692e-12	6.063808e-28	0.01648229	2.280646e-25	-3.619489e-12	9.86679e-28	0.0001036643	3.736638e-23
	0.0001055112	3.143926e-23	-3.619484e-12	9.866783e-28	0.01649354	1.871756e-25	-5.822387e-12	6.46301e-28
	-5.407703e-12	2.975457e-28	0.000101815	3.755017e-23	-5.822389e-12	6.463016e-28	0.01649529	2.137052e-25
1e+07	0.02401798	0.008774725	9.358364e-12	2.910623e-12	0.0006249164	0.002789658	1.120627e-11	8.600436e-12
	9.358365e-12	2.910624e-12	0.02473267	0.00877965	9.325441e-12	3.576042e-12	0.001176743	0.002814661
	0.0006249406	0.00278966	9.325441e-12	3.576042e-12	0.02320263	0.009302348	8.684046e-12	3.634424e-12
	1.120627e-11	8.600436e-12	0.001176681	0.002814671	8.684046e-12	3.634424e-12	0.02450943	0.00882877
2e+07	0.03204033	0.01076653	7.147487e-12	-2.757338e-12	0.001946809	0.005319267	7.004256e-12	8.012726e-12
	7.147489e-12	-2.757338e-12	0.03258818	0.0105318	1.544451e-11	-1.32758e-11	0.002327868	0.005604925
	0.001946817	0.005319251	1.544451e-11	-1.32758e-11	0.03201826	0.01179624	9.585656e-12	-1.224551e-11
	7.004256e-12	8.012726e-12	0.002327858	0.00560496	9.585657e-12	-1.22455e-11	0.03245598	0.01069244
3e+07	0.03854911	0.00892173	-5.346593e-12	-9.725507e-12	0.003950714	0.007227947	-7.386173e-12	6.475726e-12
	-5.346592e-12	-9.725507e-12	0.03893686	0.008625608	9.686341e-12	-3.456212e-11	0.004211369	0.007606621
	0.003950714	0.007227944	9.686341e-12	-3.456212e-11	0.03911485	0.009896843	-8.101914e-12	-2.667976e-11
	-7.386173e-12	6.475726e-12	0.004211369	0.007606627	-8.101914e-12	-2.667976e-11	0.03888227	0.008819319
4e+07	0.04358347	0.004898582	-2.806811e-11	-8.424607e-12	0.006411258	0.008377948	-3.297494e-11	1.486131e-11
	-2.806811e-11	-8.424607e-12	0.04381803	0.004612174	-1.115301e-11	-5.304121e-11	0.006616381	0.008801985
	0.00641126	0.008377949	-1.115301e-11	-5.304121e-11	0.04456737	0.005614966	-4.15256e-11	-2.976479e-11
	-3.297494e-11	1.486131e-11	0.006616375	0.008801983	-4.15256e-11	-2.976479e-11	0.04382988	0.004809118
5e+07	0.04692904	-0.0005953816	-5.56487e-11	6.797179e-12	0.009062736	0.008679101	-6.330198e-11	3.942587e-11
	-5.56487e-11	6.797178e-12	0.04702553	-0.0008200331	-4.300711e-11	-6.129362e-11	0.009394103	0.008956803
	0.009062737	0.008679102	-4.300711e-11	-6.129362e-11	0.04816256	-0.0002421831	-8.285806e-11	-1.294752e-11
	-6.330198e-11	3.942587e-11	0.009394099	0.008956801	-8.285806e-11	-1.294752e-11	0.0470902	-0.0006389095
6e+07	0.04840956	-0.006952528	-8.033651e-11	3.832263e-11	0.01162701	0.008125364	-8.927539e-11	8.250311e-11
	-8.033651e-11	3.832263e-11	0.04839778	-0.007072953	-8.048631e-11	-5.50831e-11	0.01200629	0.008249169
	0.01162701	0.008125364	-8.048631e-11	-5.50831e-11	0.04972995	-0.006999481	-1.210777e-10	2.735056e-11
	-8.927539e-11	8.250311e-11	0.01200629	0.008249169	-1.210777e-10	2.735056e-11	0.04849985	-0.006919491
7e+07	0.0479552	-0.01358537	-9.393994e-11	8.462318e-11	0.01385058	0.006774347	-1.013173e-10	1.419739e-10
	-9.393993e-11	8.462318e-11	0.04787554	-0.01357296	-1.181622e-10	-3.300856e-11	0.01420311	0.006782244
	0.01385058	0.006774348	-1.181622e-10	-3.300856e-11	0.04921465	-0.01401608	-1.443368e-10	8.920771e-11
	-1.013173e-10	1.419739e-10	0.01420312	0.006782241	-1.443368e-10	8.92077e-11	0.04799898	-0.01345288
8e+07	0.04562917	-0.01992993	-8.898089e-11	1.403201e-10	0.01549175	0.004805522	-9.090858e-11	2.112721e-10
	-8.898087e-11	1.403201e-10	0.04552739	-0.01977214	-1.490733e-10	4.467167e-12	0.01577699	0.004728601
	0.01549174	0.004805525	-1.490733e-10	4.467166e-12	0.04670325	-0.02068594	-1.422984e-10	1.652759e-10
	-9.090858e-11	2.112721e-10	0.015777	0.004728595	-1.422984e-10	1.652759e-10	0.04565682	-0.01968578
9e+07	0.04163113	-0.02547278	-5.971564e-11	1.965717e-10	0.01639017	0.002440413	-5.190338e-11	2.797823e-10
	-5.971563e-11	1.965717e-10	0.04155376	-0.02517367	-1.660539e-10	5.439225e-11	0.0165823	0.002314885
	0.01639017	0.002440416	-1.660539e-10	5.439225e-11	0.04242323	-0.02646466	-1.065897e-10	2.436733e-10
	-5.190338e-11	2.797823e-10	0.01658231	0.002314879	-1.065897e-10	2.436733e-10	0.04167548	-0.02511675
1e+08	0.0362998	-0.02978471	-1.526769e-12	2.410552e-10	0.01646939	-6.398638e-05	2.073946e-11	3.329458e-10
	-1.526769e-12	2.410552e-10	0.03629103	-0.0293641	-1.62458e-10	1.136648e-10	0.01654242	-0.000199222
	0.01646939	-6.398658e-05	-1.62458e-10	1.136648e-10	0.03671987	-0.03090055	-3.003404e-11	3.081602e-10
	2.073946e-11	3.329458e-10	0.01654242	-0.000199222	-3.003404e-11	3.081602e-10	0.03639225	-0.02932855
1.1e+08	0.0299921	-0.03262843	6.802261e-11	2.456731e-10	0.01571538	-0.002459065	1.04717e-10	3.395815e-10
	6.802261e-11	2.456731e-10	0.0300808	-0.03213149	-1.281091e-10	1.558388e-10	0.01570172	-0.002508413
	0.01571538	-0.002459065	-1.281091e-10	1.558388e-10	0.0300845	-0.03363233	6.554597e-11	3.18863e-10
	1.04717e-10	3.395815e-10	0.01570172	-0.002508413	6.554597e-11	3.18863e-10	0.03015893	-0.03209956
1.2e+08	0.02317009	-0.03368339	1.279806e-10	2.278977e-10	0.01421031	-0.004458347	1.701432e-10	3.26988e-10
	1.279806e-10	2.278977e-10	0.02336463	-0.03314957	-9.326706e-11	1.732702e-10	0.01417488	-0.004424246
	0.01421031	-0.004458347	-9.326706e-11	1.732702e-10	0.02305525	-0.03453062	1.477946e-10	2.973539e-10
	1.701432e-10	3.26988e-10	0.01417488	-0.004424246	1.477946e-10	2.973539e-10	0.02342377	-0.0331141
1.3e+08	0.0163953	-0.03290523	1.691416e-10	2.050107e-10	0.01213148	-0.005849568	2.218848e-10	3.034648e-10
	1.691416e-10	2.050107e-10	0.01669305	-0.0323765	-6.476672e-11	1.788029e-10	0.01210987	-0.00574935
	0.01213148	-0.005849568	-6.476672e-11	1.788029e-10	0.01615195	-0.03357666	2.053619e-10	2.657641e-10
	2.218848e-10	3.034648e-10	0.01210987	-0.00574935	2.053619e-10	2.657641e-10	0.01673656	-0.03233165
1.4e+08	0.01018956	-0.03040652	2.034253e-10	1.689294e-10	0.009707098	-0.006486946	2.651979e-10	2.634694e-10
	2.034253e-10	1.689294e-10	0.01057337	-0.0299229	-3.493255e-11	1.77474e-10	0.009719132	-0.006345651
	0.009707098	-0.006486946	-3.493255e-11	1.77474e-10	0.00988362	-0.03090129	2.538534e-10	2.159586e-10
	2.651979e-10	2.634694e-10	0.009719132	-0.006345651	2.538534e-10	2.159586e-10	0.01060555	-0.02986445
1.5e+08	0.005010387	-0.02644122	2.260807e-10	1.215899e-10	0.007197446	-0.006304992	2.941479e-10	2.094261e-10
	2.260807e-10	1.215899e-10	0.005449185	-0.02603556	-6.264491e-12	1.684032e-10	0.00724889	-0.006150061
	0.007197446	-0.006304992	-6.264491e-12	1.684032e-10	0.004696858	-0.0267728	2.866601e-10	1.504339e-10
	2.941479e-10	2.094261e-10	0.00724889	-0.006150061	2.866601e-10	1.504339e-10	0.005474905	-0.02596109
1.6e+08	0.001216404	-0.02137975	2.330785e-10	6.651954e-11	0.004868227	-0.005324327	3.036918e-10	1.458014e-10
	2.330785e-10	6.651954e-11	0.001667989	-0.0210729	1.854119e-11	1.516804e-10	0.004952379	-0.005180906
	0.004868227	-0.005324327	1.854119e-11	1.516804e-10	0.0009389528	-0.0215724	2.981333e-10	7.396296e-11
	3.036918e-10	1.458014e-10	0.004952379	-0.005180906	2.981333e-10	7.396296e-11	0.001692149	-0.02098175
1.7e+08	-0.0009601669	-0.01567498	2.215774e-10	8.641649e-12	0.002963093	-0.003648524	2.90324e-10	7.883176e-11
	2.215774e-10	8.641649e-12	-0.0005446394	-0.01547211	3.684655e-11	1.283843e-10	0.003063303	-0.003535549
	0.002963093	-0.003648524	3.684655e-11	1.283843e-10	-0.00116978	-0.01576026	2.842655e-10	-6.696385e-12
	2.90324e-10	7.883176e-11	0.003063303	-0.003535549	2.842655e-10	-6.696385e-12	-0.0005175802	-0.01536519
1.8e+08	-0.00143039	-0.009821646	1.903907e-10	-4.611482e-11	0.001678693	-0.001452313	2.526855e-10	1.599168e-11
	1.903907e-10	-4.611482e-11	-0.001100717	-0.009710334	4.640116e-11	1.005504e-10	0.001771755	-0.001379676
	0.001678693	-0.001452313	4.640116e-11	1.005504e-10	-0.001552445	-0.009835121	2.43362e-10	-8.336577e-11
	2.526855e-10	1.599168e-11	0.001771755	-0.001379677	2.43362e-10	-8.336577e-11	-0.001067126	-0.009589831
1.9e+08	-0.0002530756	-0.004312788	1.403371e-10	-9.138965e-11	0.001144938	0.001037469	1.919935e-10	-3.477801e-11
	1.403371e-10	-9.138965e-11	-5.382273e-05	-0.004263128	4.569053e-11	7.102271e-11	0.001205061	0.001070418
	0.001144938	0.001037469	4.569053e-11	7.102271e-11	-0.0002794766	-0.004290826	1.765318e-10	-1.472658e-10
	1.919935e-10	-3.477801e-11	0.001205061	0.001070418	1.765318e-10	-1.472658e-10	-1.117025e-05	-0.004132135
2e+08	0.002373657	0.000403085	7.439854e-11	-1.210883e-10	0.001412499	0.003566028	1.121591e-10	-6.599392e-11
	7.439854e-11	-1.210883e-10	0.002409084	0.0004361912	3.421905e-11	4.316271e-11	0.001415431	0.003570552
	0.001412499	0.003566028	3.421905e-11	4.316271e-11	0.002440386	0.0004261129	8.787594e-11	-1.900197e-10
	1.121591e-10	-6.599392e-11	0.001415431	0.003570552	8.787594e-11	-1.900197e-10	0.002462076	0.0005740741
2.1e+08	0.006132912	0.003960126	-2.410894e-12	-1.301414e-10	0.002448697	0.005877225	1.959045e-11	-7.157397e-11
	-2.410894e-12	-1.301414e-10	0.00598722	0.004032725	1.268625e-11	2.045579e-11	0.002375536	0.005873867
	0.002448697	0.005877225	1.268625e-11	2.045579e-11	0.006281146	0.003954252	-1.570197e-11	-2.047124e-10
	1.959045e-11	-7.157397e-11	0.002375536	0.005873867	-1.570197e-11	-2.047124e-10	0.006050534	0.004173808
2.2e+08	0.01061965	0.006105262	-8.343495e-11	-1.152108e-10	0.004141984	0.007739821	-7.737406e-11	-4.768436e-11
	-8.343495e-11	-1.152108e-10	0.01029499	0.00627856	-1.700165e-11	6.052608e-12	0.003982259	0.007755868
	0.004141984	0.007739821	-1.700165e-11	6.052608e-12	0.0108306	0.006046809	-1.250764e-10	-1.868489e-10
	-7.737406e-11	-4.768436e-11	0.003982259	0.007755868	-1.250764e-10	-1.868489e-10	0.01036739	0.006419456
2.3e+08	0.01537847	0.006717709	-1.610114e-10	-7.522287e-11	0.006314337	0.00897072	-1.693079e-10	6.667275e-12
	-1.610114e-10	-7.522287e-11	0.01489773	0.007051333	-5.191827e-11	2.334372e-12	0.006068009	0.009036781
	0.006314337	0.00897072	-5.191827e-11	2.334372e-12	0.01562842	0.006590591	-2.298125e-10	-1.350582e-10
	-1.693079e-10	6.667275e-12	0.006068009	0.009036781	-2.298125e-10	-1.350582e-10	0.01497692	0.007189312
2.4e+08	0.01994509	0.005816316	-2.272854e-10	-1.165025e-11	0.0087401	0.009452958	-2.467051e-10	8.936942e-11
	-2.272854e-10	-1.165025e-11	0.01935082	0.006361361	-8.845988e-11	1.058449e-11	0.008418269	0.009599066
	0.0087401	0.009452958	-8.845988e-11	1.058449e-11	0.02020779	0.005612719	-3.192893e-10	-5.143321e-11
	-2.467051e-10	8.936942e-11	0.008418269	0.009599066	-3.192893e-10	-5.143321e-11	0.01943375	0.00649464
2.5e+08	0.02388761	0.003554421	-2.750855e-10	7.151641e-11	0.01116927	0.009146834	-3.010193e-10	1.953164e-10
	-2.750855e-10	7.151641e-11	0.02323871	0.004347064	-1.22785e-10	3.082666e-11	0.01079351	0.009398518
	0.01116927	0.009146834	-1.22785e-10	3.082666e-11	0.02413667	0.003274852	-3.838791e-10	5.855501e-11
	-3.010193e-10	1.953164e-10	0.01079351	0.009398518	-3.838791e-10	5.855501e-11	0.02332191	0.004474993
2.6e+08	0.02684404	0.0002028953	-2.987375e-10	1.681028e-10	0.01335289	0.008093226	-3.255939e-10	3.168589e-10
	-2.987375e-10	1.681028e-10	0.02621044	0.001259305	-1.512674e-10	6.184529e-11	0.01295327	0.008468016
	0.01335289	0.008093226	-1.512674e-10	6.184529e-11	0.02705523	-0.0001443747	-4.160184e-10	1.865428e-10
	-3.255939e-10	3.168589e-10	0.01295327	0.008468016	-4.160184e-10	1.865428e-10	0.02629038	0.00138244
2.7e+08	0.0285529	-0.003876801	-2.947094e-10	2.703444e-10	0.01506804	0.006408959	-3.163781e-10	4.445283e-10
	-2.947094e-10	2.703444e-10	0.02800862	-0.002563644	-1.708844e-10	1.013688e-10	0.01468007	0.006913713
	0.01506804	0.006408959	-1.708844e-10	1.013688e-10	0.02870611	-0.004276849	-4.110377e-10	3.220864e-10
	-3.163781e-10	4.445283e-10	0.01468007	0.006913713	-4.110377e-10	3.220864e-10	0.02808214	-0.002443588
2.8e+08	0.0288742	-0.00826704	-2.620136e-10	3.696506e-10	0.01614013	0.00427471	-2.72366e-10	5.679304e-10
	-2.620136e-10	3.696506e-10	0.02848964	-0.006728162	-1.794902e-10	1.463595e-10	0.01580093	0.004904094
	0.01614013	0.00427471	-1.794902e-10	1.463595e-10	0.02895508	-0.008699865	-3.676676e-10	4.536801e-10
	-2.72366e-10	5.679304e-10	0.01580093	0.004904094	-3.676676e-10	4.536801e-10	0.02855431	-0.006608474
2.9e+08	0.02779936	-0.01253278	-2.023322e-10	4.574405e-10	0.01646035	0.001916681	-1.957334e-10	6.767088e-10
	-2.023322e-10	4.574405e-10	0.02763354	-0.01082147	-1.75952e-10	1.933477e-10	0.01620441	0.002653002
	0.01646035	0.001916681	-1.75952e-10	1.933477e-10	0.02780038	-0.01297523	-2.881864e-10	5.69853e-10
	-1.957334e-10	6.767088e-10	0.01620441	0.002653002	-2.881864e-10	5.69853e-10	0.02768792	-0.01069874
3e+08	0.0254493	-0.01626124	-1.198769e-10	5.259518e-10	0.01599656	-0.0004162411	-9.168995e-11	7.614839e-10
	-1.198769e-10	5.259518e-10	0.02554281	-0.01444879	-1.601677e-10	2.387475e-10	0.01585169	0.0003982102
	0.01599656	-0.0004162411	-1.601677e-10	2.387475e-10	0.0253703	-0.01668913	-1.782333e-10	6.602263e-10
	-9.168995e-11	7.614839e-10	0.01585169	0.0003982102	-1.782333e-10	6.602263e-10	0.02558667	-0.01431927
3.1e+08	0.0220609	-0.01909892	-2.102342e-11	5.68949e-10	0.01479667	-0.002477639	3.191828e-11	8.146981e-10
	-2.102342e-11	5.68949e-10	0.02243048	-0.01726824	-1.330035e-10	2.791223e-10	0.01478042	-0.001622401
	0.01479667	-0.002477639	-1.330035e-10	2.791223e-10	0.02190898	-0.01948924	-4.633632e-11	7.164443e-10
	3.191828e-11	8.146981e-10	0.01478042	-0.001622401	-4.633632e-11	7.164443e-10	0.02246484	-0.01712824
3.2e+08	0.01796327	-0.02078296	8.622759e-11	5.822779e-10	0.01298386	-0.004048603	1.652178e-10	8.313157e-10
	8.622759e-11	5.822779e-10	0.01859861	-0.01902049	-9.619048e-11	3.113891e-10	0.01310098	-0.003194778
	0.01298386	-0.004048603	-9.619048e-11	3.113891e-10	0.01775211	-0.02111587	9.678483e-11	7.329176e-10
	1.652178e-10	8.313157e-10	0.01310098	-0.003194778	9.678483e-11	7.329176e-10	0.01862571	-0.01886682
3.3e+08	0.01354589	-0.02116374	1.92903e-10	5.642438e-10	0.01074431	-0.004960133	2.97082e-10	8.093409e-10
	1.92903e-10	5.642438e-10	0.01440916	-0.01955064	-5.221717e-11	3.329816e-10	0.01098549	-0.00415037
	0.01074431	-0.004960133	-5.221717e-11	3.329816e-10	0.01329451	-0.02142439	2.390744e-10	7.073501e-10
	2.97082e-10	8.093409e-10	0.01098549	-0.00415037	2.390744e-10	7.073501e-10	0.01443218	-0.01938097
3.4e+08	0.009221569	-0.02021701	2.897764e-10	5.158054e-10	0.008308239	-0.005110605	4.160335e-10	7.501228e-10
	2.897764e-10	5.158054e-10	0.01024978	-0.01882037	-4.224624e-12	3.420018e-10	0.008650387	-0.004383316
	0.008308239	-0.005110605	-4.224624e-12	3.420018e-10	0.008952582	-0.02039685	3.68104e-10	6.410294e-10
	4.160335e-10	7.501228e-10	0.008650387	-0.004383316	3.68104e-10	6.410294e-10	0.01027256	-0.01863352
3.5e+08	0.005387522	-0.0180442	3.681126e-10	4.405808e-10	0.00592645	-0.004476401	5.112264e-10	6.584083e-10
	3.681126e-10	4.405808e-10	0.006497764	-0.01690931	4.411452e-11	3.373863e-10	0.006334496	-0.003861321
	0.00592645	-0.004476401	4.411452e-11	3.373863e-10	0.005125165	-0.01814183	4.720954e-10	5.388618e-10
	5.112264e-10	6.584083e-10	0.006334496	-0.003861321	4.720954e-10	5.388618e-10	0.006524364	-0.01670542
3.6e+08	0.002388392	-0.01486112	4.204129e-10	3.446608e-10	0.003844475	-0.003114521	5.734614e-10	5.421109e-10
	4.204129e-10	3.446608e-10	0.003485358	-0.01400559	8.876997e-11	3.19092e-10	0.004274611	-0.002629029
	0.003844475	-0.003114521	8.876997e-11	3.19092e-10	0.002156314	-0.01488237	5.40951e-10	4.091379e-10
	5.734614e-10	5.421109e-10	0.004274611	-0.002629029	5.40951e-10	4.091379e-10	0.003519636	-0.01378614
3.7e+08	0.0004845095	-0.01097587	4.410899e-10	2.36249e-10	0.002277255	-0.001156818	5.960956e-10	4.117877e-10
	4.410899e-10	2.36249e-10	0.001469729	-0.01038642	1.256202e-10	2.882734e-10	0.002681281	-0.0008034433
	0.002277255	-0.001156818	1.256202e-10	2.882734e-10	0.0003036374	-0.01093342	5.672303e-10	2.630095e-10
	5.960956e-10	4.117877e-10	0.002681281	-0.0008034434	5.672303e-10	2.630095e-10	0.001514885	-0.0101541
3.8e+08	-0.0001714989	-0.006758364	4.270965e-10	1.250827e-10	0.001386945	0.001203597	5.758603e-10	2.798149e-10
	4.270965e-10	1.250827e-10	0.0006103436	-0.006390698	1.508306e-10	2.4739e-10	0.001717272	0.001438126
	0.001386945	0.001203597	1.508306e-10	2.4739e-10	-0.0002848801	-0.006670596	5.46988e-10	1.136723e-10
	5.758603e-10	2.798149e-10	0.001717272	0.001438126	5.46988e-10	1.136723e-10	0.0006685537	-0.006149117
3.9e+08	0.0004524538	-0.002604325	3.783747e-10	2.166564e-11	0.001266243	0.003732304	5.133744e-10	1.593027e-10
	3.783747e-10	2.166564e-11	0.0009558557	-0.00238617	1.61318e-10	2.001725e-10	0.001481039	0.003876341
	0.001266243	0.003732304	1.61318e-10	2.001725e-10	0.0004166825	-0.002493711	4.803741e-10	-2.472178e-11
	5.133744e-10	1.593027e-10	0.001481039	0.003876341	4.803741e-10	-2.472178e-11	0.001028003	-0.002139516
4e+08	0.002266721	0.001102719	2.980795e-10	-6.365789e-11	0.001928991	0.006177765	4.13305e-10	6.284858e-11
	2.980795e-10	-6.365789e-11	0.002441624	0.001265474	1.552333e-10	1.513885e-10	0.001996884	0.00627236
	0.001928991	0.006177765	1.552333e-10	1.513885e-10	0.002311536	0.001211623	3.718911e-10	-1.383562e-10
	4.13305e-10	6.284858e-11	0.001996884	0.00627236	3.718911e-10	-1.383562e-10	0.002527175	0.001512917
4.1e+08	0.005070375	0.004027649	1.925045e-10	-1.217192e-10	0.003308973	0.008297144	2.841087e-10	1.25362e-12
	1.925045e-10	-1.217192e-10	0.004897928	0.00424235	1.323559e-10	1.063947e-10	0.003212812	0.008392224
	0.003308973	0.008297144	1.323559e-10	1.063947e-10	0.005191269	0.004110433	2.302229e-10	-2.151313e-10
	2.841087e-10	1.25362e-12	0.003212812	0.008392224	2.302229e-10	-2.151313e-10	0.004994963	0.004486667
4.2e+08	0.008572069	0.005914779	7.065935e-11	-1.455197e-10	0.005266949	0.009881061	1.373466e-10	-1.764084e-11
	7.065935e-11	-1.455197e-10	0.008067885	0.006291692	9.429556e-11	7.052224e-11	0.005006169	0.01003054
	0.005266949	0.009881061	9.429556e-11	7.052224e-11	0.0087574	0.00594942	6.759549e-11	-2.459745e-10
	1.373466e-10	-1.764084e-11	0.005006169	0.01003054	6.759549e-11	-2.459745e-10	0.008173283	0.006529773
4.3e+08	0.01241913	0.006610789	-5.649261e-11	-1.310705e-10	0.00760506	0.01077473	-1.336957e-11	1.015256e-11
	-5.649261e-11	-1.310705e-10	0.01163315	0.007252092	4.442858e-11	4.839759e-11	0.007196391	0.01103104
	0.00760506	0.01077473	4.442858e-11	4.839759e-11	0.01265112	0.006579705	-1.012984e-10	-2.259059e-10
	-1.336957e-11	1.015256e-11	0.007196391	0.01103104	-1.012984e-10	-2.259059e-10	0.0117429	0.007481995
4.4e+08	0.0162319	0.006077553	-1.770745e-10	-7.794558e-11	0.01008704	0.01089343	-1.536849e-10	8.426417e-11
	-1.770745e-10	-7.794558e-11	0.01524477	0.007066744	-1.244192e-11	4.332766e-11	0.009563428	0.01130203
	0.01008704	0.01089343	-1.244192e-11	4.332766e-11	0.01648822	0.005969273	-2.607072e-10	-1.54699e-10
	-1.536849e-10	8.426417e-11	0.009563428	0.01130203	-2.607072e-10	-1.54699e-10	0.01535442	0.007287922
4.5e+08	0.01964004	0.004393918	-2.794915e-10	1.054711e-11	0.01246208	0.0102308	-2.699087e-10	1.999198e-10
	-2.794915e-10	1.054711e-11	0.01855627	0.005786701	-7.064528e-11	5.686827e-11	0.01186994	0.01082529
	0.01246208	0.0102308	-7.064528e-11	5.686827e-11	0.01989583	0.004204205	-3.953943e-10	-3.703324e-11
	-2.699087e-10	1.999198e-10	0.01186994	0.01082529	-3.953943e-10	-3.703324e-11	0.01866136	0.006000096
4.6e+08	0.02231724	0.001746452	-3.536268e-10	1.276171e-10	0.01449006	0.008859347	-3.503575e-10	3.483523e-10
	-3.536268e-10	1.276171e-10	0.02125569	0.003564103	-1.243775e-10	8.871014e-11	0.01388501	0.009657548
	0.01449006	0.008859347	-1.243775e-10	8.871014e-11	0.02254738	0.001478778	-4.922502e-10	1.179211e-10
	-3.503575e-10	3.483523e-10	0.01388501	0.009657548	-4.922502e-10	1.179211e-10	0.02135226	0.003772074
4.7e+08	0.02401132	-0.001589666	-3.918813e-10	2.63631e-10	0.01596552	0.006923127	-3.864813e-10	5.176121e-10
	-3.918813e-10	2.63631e-10	0.02309396	0.0006362607	-1.68323e-10	1.369474e-10	0.01540707	0.007924699
	0.01596552	0.006923127	-1.68323e-10	1.369474e-10	0.02419276	-0.001924369	-5.416402e-10	2.975492e-10
	-3.864813e-10	5.176121e-10	0.01540707	0.007924699	-5.416402e-10	2.975492e-10	0.02317894	0.0008423079
