!$
! Info: Touchstone file created by Circ.  Input file=Tx_10in_Rx_93ohms_TxVia_35mils_RxVia_45mils.circ
!$
# Hz S RI R 50
0	0.009222442	1.324351e-25	0.9906367	-1.347634e-25	7.231687e-05	1.753975e-23	-7.039559e-05	2.051739e-21
	0.9906367	-1.374999e-25	0.009221315	1.545067e-25	-7.07653e-05	2.097089e-21	7.273618e-05	2.084905e-23
	7.047873e-05	1.801171e-23	-7.089209e-05	2.112723e-21	0.009234898	1.262452e-25	0.990621	-1.277095e-25
	-7.077366e-05	2.098145e-21	7.088827e-05	2.095173e-23	0.990621	-1.274717e-25	0.009234433	1.447637e-25
1e+07	0.01344823	-0.0009274732	0.9804905	-0.1054198	0.000338935	0.001897182	-0.000135885	-7.943035e-05
	0.9804905	-0.1054198	0.0134396	-0.0009276834	-0.0001358962	-7.941396e-05	0.0003354172	0.001898236
	0.0003388749	0.001897185	-0.0001359534	-7.94008e-05	0.01318757	-0.0009281744	0.9807404	-0.1055283
	-0.0001359422	-7.941719e-05	0.0003353567	0.001898246	0.9807404	-0.1055283	0.01317755	-0.0009279779
2e+07	0.01558417	-0.00526114	0.9610238	-0.2058015	0.0008642616	0.003749855	-7.636141e-05	-0.0002120363
	0.9610238	-0.2058015	0.01555053	-0.00525661	-7.639663e-05	-0.0002120167	0.000850859	0.003754402
	0.000864249	0.003749893	-7.64056e-05	-0.0002119744	0.01539247	-0.005171903	0.9611724	-0.2061061
	-7.637228e-05	-0.0002119929	0.0008508505	0.003754437	0.9611724	-0.2061061	0.0153536	-0.005165652
3e+07	0.01587594	-0.01071103	0.9323815	-0.3023965	0.001802708	0.005354384	-8.121506e-05	-0.000274974
	0.9323815	-0.3023965	0.01580303	-0.01069154	-8.129952e-05	-0.0002749052	0.001774123	0.00536658
	0.001802711	0.00535439	-8.12969e-05	-0.000274899	0.01573722	-0.01060441	0.9324236	-0.3028191
	-8.121246e-05	-0.0002749675	0.001774123	0.005366586	0.9324236	-0.3028191	0.01565322	-0.01058023
4e+07	0.01467413	-0.0163119	0.8945902	-0.3950078	0.003077438	0.006684518	-0.0001248474	-0.0003147607
	0.8945902	-0.3950078	0.01455098	-0.01626357	-0.0001249634	-0.0003146135	0.003029765	0.006709958
	0.003077433	0.006684514	-0.0001249705	-0.0003146168	0.0145779	-0.01620893	0.8945154	-0.3955179
	-0.0001248549	-0.0003147645	0.00302976	0.006709956	0.8945154	-0.3955179	0.01443631	-0.01615083
5e+07	0.01217175	-0.02164676	0.8479771	-0.4829196	0.004571158	0.007710202	-0.0001554596	-0.0003615944
	0.8479771	-0.4829196	0.01199158	-0.0215524	-0.000155591	-0.000361345	0.00450225	0.007755582
	0.004571153	0.0077102	-0.0001555964	-0.0003613453	0.01210814	-0.02155954	0.8477759	-0.4834923
	-0.0001554653	-0.0003615948	0.004502247	0.007755581	0.8477759	-0.4834923	0.01190129	-0.02144774
6e+07	0.008549935	-0.02642144	0.793013	-0.5653625	0.006217327	0.008397007	-0.0001843416	-0.0004239063
	0.793013	-0.5653625	0.008311194	-0.026262	-0.0001844587	-0.0004235292	0.006127026	0.00846959
	0.006217331	0.008397007	-0.0001844543	-0.0004235305	0.008508988	-0.02635762	0.7926777	-0.565974
	-0.0001843367	-0.0004239077	0.006127029	0.008469589	0.7926777	-0.565974	0.008235265	-0.02617025
7e+07	0.004004883	-0.03041138	0.730272	-0.6415855	0.007943017	0.008723799	-0.0002234159	-0.000504193
	0.730272	-0.6415855	0.003711476	-0.03016757	-0.0002234725	-0.0005036728	0.007833226	0.008830881
	0.00794303	0.008723796	-0.0002234602	-0.0005036809	0.003976527	-0.03037549	0.7297976	-0.642212
	-0.0002234023	-0.0005042017	0.007833235	0.008830878	0.7297976	-0.642212	0.003640579	-0.0300904
8e+07	-0.001247752	-0.03344784	0.6604135	-0.7108862	0.00967234	0.008684424	-0.0002840755	-0.0005999979
	0.6604135	-0.7108862	-0.001586666	-0.03310145	-0.0002840152	-0.0005993383	0.009546988	0.008832831
	0.009672356	0.008684417	-0.0002840019	-0.0005993529	-0.00127363	-0.0334419	0.6597978	-0.7115037
	-0.0002840609	-0.0006000138	0.009546998	0.008832825	0.6597978	-0.7115037	-0.001661136	-0.03303829
9e+07	-0.006974719	-0.03541334	0.5841668	-0.772628	0.01132981	0.008288229	-0.0003760095	-0.0007045892
	0.5841668	-0.772628	-0.007345125	-0.03494851	-0.0003757744	-0.0007038163	0.01119472	0.008483815
	0.01132982	0.008288221	-0.0003757666	-0.00070383	-0.007008337	-0.03543738	0.5834116	-0.773212
	-0.0003760009	-0.0007046043	0.01119473	0.00848381	0.5834116	-0.773212	-0.007431186	-0.03489712
1e+08	-0.01291538	-0.03623121	0.5022998	-0.8262624	0.01284354	0.007559228	-0.0005058353	-0.0008072884
	0.5022998	-0.8262624	-0.01329897	-0.03563556	-0.0005053741	-0.0008064499	0.01270618	0.007806416
	0.01284354	0.007559228	-0.0005053741	-0.0008064499	-0.01296939	-0.03628504	0.5014141	-0.8267863
	-0.0005058353	-0.0008072884	0.01270618	0.007806416	0.5014141	-0.8267863	-0.01340648	-0.03559401
1.1e+08	-0.01882403	-0.03601533	0.4156538	-0.8711615	0.01414626	0.006539425	-0.0006751137	-0.0008981361
	0.4156538	-0.8711615	-0.01919711	-0.0352825	-0.000674377	-0.0008972877	0.01401562	0.006840425
	0.01414626	0.006539425	-0.0006743769	-0.0008972877	-0.01890974	-0.03608216	0.4146523	-0.8716205
	-0.0006751137	-0.0008981361	0.01401562	0.006840425	0.4146523	-0.8716205	-0.01933436	-0.03523215
1.2e+08	-0.0245813	-0.03471078	0.325248	-0.9070183	0.01518745	0.005279644	-0.000887291	-0.0009641065
	0.325248	-0.9070183	-0.02492139	-0.03383851	-0.0008862731	-0.0009633371	0.01507286	0.00563481
	0.01518745	0.005279644	-0.0008862731	-0.0009633371	-0.02469658	-0.03478085	0.324129	-0.9073969
	-0.000887291	-0.0009641065	0.01507286	0.00563481	0.324129	-0.9073969	-0.02508184	-0.03376966
1.3e+08	-0.02994466	-0.03236796	0.2319773	-0.9335617	0.0159244	0.003839733	-0.00113757	-0.0009905734
	0.2319773	-0.9335617	-0.03022757	-0.03135925	-0.001136293	-0.0009899681	0.01583549	0.004247104
	0.0159244	0.003839733	-0.001136293	-0.0009899682	-0.0300887	-0.03243374	0.2307457	-0.9338413
	-0.00113757	-0.0009905734	0.01583549	0.004247104	0.2307457	-0.9338413	-0.03040626	-0.03126558
1.4e+08	-0.03471244	-0.02909396	0.1367771	-0.9505953	0.01632806	0.002287168	-0.001417106	-0.0009649408
	0.1367771	-0.9505953	-0.03491378	-0.02795788	-0.001415614	-0.0009645749	0.01627418	0.002742376
	0.01632806	0.002287168	-0.001415614	-0.000964575	-0.03488334	-0.02914862	0.1354416	-0.9507571
	-0.001417106	-0.0009649408	0.01627418	0.002742376	0.1354416	-0.9507571	-0.03510513	-0.02783471
1.5e+08	-0.03871491	-0.02503329	0.04059585	-0.9580125	0.01638403	0.0006935563	-0.00171345	-0.0008773414
	0.04059585	-0.9580125	-0.03881179	-0.02378517	-0.00171181	-0.0008772743	0.01637366	0.001189888
	0.01638403	0.0006935563	-0.00171181	-0.0008772743	-0.03890958	-0.02507083	0.03916807	-0.9580388
	-0.00171345	-0.0008773414	0.01637366	0.001189888	0.03916807	-0.9580388	-0.03900962	-0.02362942
1.6e+08	-0.04181794	-0.02035942	-0.05561613	-0.9557981	0.01609294	-0.000868502	-0.002011463	-0.0007215414
	-0.05561613	-0.9557981	-0.04179073	-0.01902054	-0.002009757	-0.0007218116	0.01613308	-0.0003398963
	0.01609294	-0.000868502	-0.002009757	-0.0007218116	-0.04203231	-0.02037484	-0.05712178	-0.9556722
	-0.002011463	-0.0007215415	0.01613308	-0.0003398963	-0.05712178	-0.9556722	-0.0419885	-0.01883078
1.7e+08	-0.04392654	-0.01526677	-0.1509155	-0.9440272	0.01547016	-0.00232848	-0.002294464	-0.000495561
	-0.1509155	-0.9440272	-0.04376037	-0.01386352	-0.002292784	-0.0004961817	0.01556587	-0.001778243
	0.01547016	-0.00232848	-0.002292784	-0.0004961817	-0.04415575	-0.01525612	-0.1524821	-0.9437341
	-0.002294464	-0.000495561	0.01556587	-0.001778243	-0.1524821	-0.9437341	-0.04395155	-0.01363994
1.8e+08	-0.0449871	-0.009962422	-0.2443741	-0.9228635	0.01454498	-0.003620817	-0.002545498	-0.0002019391
	-0.2443741	-0.9228635	-0.04467317	-0.008525137	-0.002543937	-0.0002028961	0.0146989	-0.003060924
	0.01454498	-0.003620817	-0.002543937	-0.0002028961	-0.04522576	-0.00992289	-0.2459826	-0.9223903
	-0.002545498	-0.0002019391	0.0146989	-0.003060924	-0.2459826	-0.9223903	-0.04485154	-0.008269463
1.9e+08	-0.04498835	-0.004657827	-0.335087	-0.8925571	0.01335925	-0.004687559	-0.002748619	0.0001523752
	-0.335087	-0.8925571	-0.04452485	-0.003219289	-0.002747264	0.000151124	0.01357128	-0.004130754
	0.01335925	-0.004687559	-0.002747264	0.0001511239	-0.04523074	-0.004587715	-0.3367163	-0.891893
	-0.002748619	0.0001523752	0.01357128	-0.004130754	-0.3367163	-0.891893	-0.04468487	-0.002934624
2e+08	-0.04396081	0.0004394292	-0.4221793	-0.8534414	0.0119655	-0.005480644	-0.002890068	0.0005564907
	-0.4221793	-0.8534414	-0.04335351	0.001845629	-0.002888989	0.0005550125	0.01223265	-0.004939813
	0.0119655	-0.005480644	-0.002888989	0.0005550125	-0.04420106	0.0005406847	-0.4238066	-0.8525782
	-0.002890068	0.0005564907	0.01223265	-0.004939813	-0.4238066	-0.8525782	-0.04349052	0.002155013
2.1e+08	-0.0419748	0.005133506	-0.5048132	-0.8059303	0.01042476	-0.005963787	-0.002959266	0.0009963534
	-0.5048132	-0.8059303	-0.04123722	0.006474736	-0.002958511	0.0009947357	0.01074108	-0.005451288
	0.01042476	-0.005963787	-0.002958511	0.0009947357	-0.04220705	0.005265357	-0.5064145	-0.8048625
	-0.002959266	0.0009963534	0.01074108	-0.005451288	-0.5064145	-0.8048625	-0.04134767	0.006803639
2.2e+08	-0.03913705	0.009247623	-0.582195	-0.7505143	0.008803996	-0.00611389	-0.002949526	0.001455767
	-0.582195	-0.7505143	-0.03829022	0.01049399	-0.002949113	0.001454109	0.009160697	-0.00564088
	0.008803996	-0.00611389	-0.002949113	0.001454109	-0.03935565	0.009408433	-0.5837453	-0.7492392
	-0.002949526	0.001455767	0.009160697	-0.00564088	-0.5837453	-0.7492392	-0.03837183	0.01083655
2.3e+08	-0.03558604	0.01263055	-0.6535815	-0.6877571	0.007173403	-0.005921947	-0.002858445	0.001917559
	-0.6535815	-0.6877571	-0.03465792	0.01375658	-0.002858361	0.001915962	0.007559112	-0.005497738
	0.007173403	-0.005921947	-0.002858361	0.001915962	-0.0357857	0.01281764	-0.6550549	-0.6862749
	-0.002858445	0.001917559	0.007559112	-0.005497738	-0.6550549	-0.6862749	-0.03470976	0.01410658
2.4e+08	-0.0314863	0.01516211	-0.7182862	-0.6182907	0.0056035	-0.005393394	-0.002687937	0.002364803
	-0.7182862	-0.6182907	-0.03051077	0.01614833	-0.002688135	0.00236336	0.006004674	-0.005024871
	0.0056035	-0.005393394	-0.002688135	0.00236336	-0.03166227	0.01537182	-0.7196566	-0.6166048
	-0.002687937	0.002364803	0.006004674	-0.005024871	-0.7196566	-0.6166048	-0.03053328	0.01649947
2.5e+08	-0.0270217	0.01675743	-0.7756859	-0.5428106	0.004162248	-0.004547915	-0.002443918	0.002781974
	-0.7756859	-0.5428106	-0.02603724	0.01759167	-0.002444323	0.00278076	0.004563706	-0.004239048
	0.004162248	-0.004547915	-0.002444323	0.00278076	-0.02716995	0.01698521	-0.7769269	-0.5409275
	-0.002443918	0.002781974	0.004563706	-0.004239048	-0.7769269	-0.5409275	-0.02603225	0.01793786
2.6e+08	-0.02238817	0.01736991	-0.8252264	-0.4620708	0.002912234	-0.003418668	-0.00213568	0.003155958
	-0.8252264	-0.4620708	-0.02143625	0.01804834	-0.002136193	0.003155018	0.003297792	-0.003170143
	0.002912234	-0.003418668	-0.002136193	0.003155018	-0.02250555	0.01761039	-0.8263123	-0.4600001
	-0.00213568	0.003155958	0.003297792	-0.003170143	-0.8263123	-0.4600001	-0.02140689	0.01838396
2.7e+08	-0.01778595	0.01699256	-0.8664286	-0.3768768	0.001908029	-0.002050975	-0.001775001	0.003476819
	-0.8664286	-0.3768768	-0.01690922	0.01752035	-0.001775512	0.003476163	0.00226122	-0.001859965
	0.001908029	-0.002050975	-0.001775512	0.003476163	-0.01787034	0.0172398	-0.8673341	-0.3746314
	-0.001775001	0.003476819	0.00226122	-0.001859965	-0.8673341	-0.3746314	-0.01685978	0.01784058
2.8e+08	-0.01341172	0.01565802	-0.8988938	-0.2880795	0.001193849	-0.0005004875	-0.001375092	0.003738264
	-0.8988938	-0.2880795	-0.01265207	0.01604965	-0.001375492	0.003737864	0.001498684	-0.0003605874
	0.001193849	-0.0005004875	-0.001375492	0.003737864	-0.01346216	0.01590569	-0.8995947	-0.2856754
	-0.001375092	0.003738264	0.001498684	-0.0003605874	-0.8995947	-0.2856754	-0.01258779	0.01635066
2.9e+08	-0.009450969	0.01343698	-0.9223086	-0.1965671	0.0008016047	0.001169094	-0.0009494715	0.003937769
	-0.9223086	-0.1965671	-0.008847449	0.01371605	-0.000949662	0.003937558	0.001043351	0.001267778
	0.0008016047	0.001169094	-0.000949662	0.003937558	-0.009467712	0.01367853	-0.9227821	-0.1940233
	-0.0009494715	0.003937769	0.001043351	0.001267778	-0.9227821	-0.1940233	-0.00877435	0.0139952
3e+08	-0.006070684	0.01043507	-0.9364492	-0.1032566	0.0007494409	0.00288869	-0.0005108612	0.00407637
	-0.9364492	-0.1032566	-0.005657582	0.01063375	-0.0005107701	0.004076251	0.0009153743	0.002959275
	0.0007494409	0.00288869	-0.0005107701	0.004076251	-0.006055283	0.01066398	-0.9366744	-0.1005952
	-0.0005108612	0.00407637	0.0009153743	0.002959275	-0.9366744	-0.1005952	-0.005582154	0.0108897
3.1e+08	-0.00341294	0.006788413	-0.9411847	-0.009085196	0.001040846	0.004586781	-7.022279e-05	0.004158133
	-0.9411847	-0.009085196	-0.003217894	0.006946414	-6.981318e-05	0.004157982	0.001120947	0.004645184
	0.001040846	0.004586781	-6.981318e-05	0.004157982	-0.003368232	0.006998486	-0.9411428	-0.006331107
	-7.022279e-05	0.004158133	0.001120947	0.004645184	-0.9411428	-0.006331107	-0.003146844	0.007179235
3.2e+08	-0.001589423	0.002658058	-0.9364797	0.08499987	0.001664388	0.006192499	0.0003639893	0.004189364
	-0.9364797	0.08499987	-0.001631793	0.002821219	0.0003647116	0.004189048	0.001651949	0.006256864
	0.001664388	0.006192499	0.0003647116	0.004189048	-0.001519475	0.002843628	-0.9361542	0.08781922
	0.0003639893	0.004189364	0.001651949	0.006256864	-0.9361542	0.08781922	-0.00157174	0.003032409
3.3e+08	-0.0006771985	-0.001776663	-0.9223954	0.1780513	0.002594113	0.007638741	0.0007862866	0.004177644
	-0.9223954	0.1780513	-0.0009667397	-0.001558134	0.0007872696	0.00417703	0.002486214	0.00772874
	0.002594113	0.007638741	0.0007872696	0.00417703	-0.0005872026	-0.001620455	-0.9217729	0.1809061
	0.0007862866	0.004177644	0.002486214	0.00772874	-0.9217729	0.1809061	-0.0009239132	-0.001365689
3.4e+08	-0.0007158893	-0.006325392	-0.8990895	0.2691323	0.003790599	0.008865149	0.001194277	0.004130782
	-0.8990895	0.2691323	-0.001251806	-0.005998967	0.001195425	0.004129756	0.003588442	0.009001179
	0.003790599	0.008865149	0.001195425	0.004129756	-0.0006120052	-0.006202374	-0.8981597	0.2719906
	0.001194277	0.004130782	0.003588442	0.009001179	-0.8981597	0.2719906	-0.001231761	-0.005821085
3.5e+08	-0.001706376	-0.01079443	-0.8668153	0.3573269	0.005202631	0.009820815	0.001588463	0.004055788
	-0.8668153	0.3573269	-0.002476818	-0.01030751	0.00158964	0.004054267	0.0049117	0.01002313
	0.005202631	0.009820815	0.00158964	0.004054267	-0.00159552	-0.01070721	-0.8655714	0.3601549
	0.001588463	0.004055788	0.0049117	0.01002313	-0.8655714	0.3601549	-0.002484167	-0.01013888
3.6e+08	-0.003611048	-0.01499452	-0.8259186	0.4417503	0.006769429	0.01046658	0.00197172	0.003957979
	-0.8259186	0.4417503	-0.004593089	-0.01429676	0.001972766	0.003955924	0.006399468	0.01075437
	0.006769429	0.01046658	0.001972766	0.003955924	-0.003500646	-0.01494431	-0.8243575	0.4445131
	0.00197172	0.003957979	0.006399468	0.01075437	-0.8243575	0.4445131	-0.004631276	-0.01413115
3.7e+08	-0.006355615	-0.01874832	-0.7768341	0.5215593	0.008423333	0.01077679	0.002348536	0.003840296
	-0.7768341	0.5215593	-0.007515733	-0.01779404	0.002349275	0.003837719	0.007988126	0.01116731
	0.008423333	0.01077679	0.002349275	0.003837719	-0.006253319	-0.01873488	-0.7749566	0.5242207
	0.002348536	0.003840296	0.007988126	0.01116731	-0.7749566	0.5242207	-0.007586851	-0.01762453
3.8e+08	-0.009832353	-0.02189745	-0.7200799	0.5959608	0.0100928	0.01074047	0.002724061	0.003702904
	-0.7200799	0.5959608	-0.01112741	-0.02064778	0.002724322	0.003699872	0.009609763	0.01124816
	0.0100928	0.01074047	0.002724322	0.003699872	-0.009745748	-0.02191899	-0.7178911	0.5984845
	0.002724061	0.003702904	0.009609763	0.01124816	-0.7178911	0.5984845	-0.01123208	-0.02046712
3.9e+08	-0.01390467	-0.02430859	-0.6562511	0.6642214	0.01170557	0.0103618	0.003103085	0.003543121
	-0.6562511	0.6642214	-0.01528338	-0.02273357	0.003102716	0.003539755	0.01119517	0.01099753
	0.01170557	0.0103618	0.003102716	0.003539755	-0.01384096	-0.02436184	-0.6537603	0.6665708
	0.003103085	0.003543121	0.01119517	0.01099753	-0.6537603	0.6665708	-0.01542068	-0.02253441
4e+08	-0.01841276	-0.02587856	-0.5860131	0.7256742	0.01319189	0.009659867	0.003489048	0.003355673
	-0.5860131	0.7256742	-0.01981755	-0.0239588	0.003487936	0.003352138	0.01267689	0.01043029
	0.01319189	0.009659867	0.003487936	0.003352138	-0.01837848	-0.02595883	-0.5832339	0.7278134
	0.003489048	0.003355673	0.01267689	0.01043029	-0.5832339	0.7278134	-0.01998505	-0.0237341
4.1e+08	-0.02318014	-0.02653819	-0.5100929	0.779726	0.01448755	0.008667823	0.003883169	0.003133254
	-0.5100929	0.779726	-0.02454937	-0.02426619	0.00388125	0.003129749	0.01399212	0.009574913
	0.01448755	0.008667823	0.00388125	0.003129749	-0.02318085	-0.02663952	-0.5070432	0.78162
	0.003883169	0.003133254	0.01399212	0.009574913	-0.5070432	0.78162	-0.02474317	-0.02400947
4.2e+08	-0.02802069	-0.02625476	-0.4292707	0.8258623	0.01553666	0.007431344	0.004283799	0.002867339
	-0.4292707	0.8258623	-0.02929118	-0.02363571	0.004281066	0.002864082	0.01508541	0.008472077
	0.01553666	0.007431344	0.004281066	0.002864082	-0.02806077	-0.02637012	-0.4259727	0.8274778
	0.004283799	0.002867339	0.01508541	0.008472077	-0.4259727	0.8274778	-0.02950608	-0.02334137
4.3e+08	-0.0327461	-0.02503297	-0.3443713	0.8636518	0.01629408	0.006006585	0.004686047	0.002549172
	-0.3443713	0.8636518	-0.03385576	-0.02208505	0.00468256	0.002546378	0.01591098	0.007172873
	0.01629408	0.006006585	0.00468256	0.002546378	-0.0328285	-0.02515449	-0.3408511	0.8649575
	0.004686047	0.002549172	0.01591098	0.007172873	-0.3408511	0.8649575	-0.03408545	-0.02174867
4.4e+08	-0.03717322	-0.02291449	-0.2562542	0.8927495	0.01672725	0.004457702	0.005081736	0.002170823
	-0.2562542	0.8927495	-0.03806372	-0.01966863	0.005077615	0.002168687	0.01643461	0.005736525
	0.01672725	0.004457702	0.005077615	0.002168687	-0.03729932	-0.02303378	-0.2525419	0.8937169
	0.005081736	0.002170823	0.01643461	0.005736525	-0.2525419	0.8937169	-0.03830106	-0.0192871
4.5e+08	-0.04113113	-0.01997607	-0.1658051	0.9128991	0.01681753	0.002854052	0.005459685	0.001726231
	-0.1658051	0.9128991	-0.04175059	-0.01647508	0.005455104	0.00172491	0.01663496	0.004227822
	0.01681753	0.002854052	0.005455104	0.00172491	-0.04130068	-0.0200845	-0.1619344	0.9135026
	0.005459685	0.001726231	0.01663496	0.004227822	-0.1619344	0.9135026	-0.04198787	-0.01604685
4.6e+08	-0.04446775	-0.0163263	-0.07392655	0.9239334	0.01656089	0.001267227	0.005806293	0.001212123
	-0.07392655	0.9239334	-0.04477313	-0.01262355	0.005801467	0.00121172	0.01650436	0.002714363
	0.01656089	0.001267227	0.005801467	0.00121172	-0.04467882	-0.01641537	-0.06993416	0.924151
	0.005806293	0.001212123	0.01650436	0.002714363	-0.06993416	0.924151	-0.04500244	-0.01214866
4.7e+08	-0.04705553	-0.01210125	0.01847095	0.9257753	0.01596802	-0.0002319708	0.00610639	0.0006287183
	0.01847095	0.9257753	-0.04701479	-0.008258766	0.006101557	0.0006292724	0.01604902	0.001263727
	0.01596802	-0.0002319708	0.006101557	0.0006292724	-0.04730451	-0.01216286	0.02254535	0.9255888
	0.00610639	0.0006287183	0.01604902	0.001263727	0.02254535	0.9255888	-0.04722832	-0.007738906
4.8e+08	-0.04879629	-0.007459084	0.1104773	0.9184365	0.01506375	-0.001576477	0.006344264	-1.982902e-05
	0.1104773	0.9184365	-0.04839012	-0.003545265	0.006339667	-1.83482e-05	0.01528867	-5.93011e-05
	0.01506375	-0.001576477	0.006339667	-1.83482e-05	-0.049078	-0.0074859	0.1145917	0.9178321
	0.006344264	-1.982902e-05	0.01528867	-5.930111e-05	0.1145917	0.9178321	-0.04858049	-0.002983686
4.9e+08	-0.0496248	-0.002573841	0.201191	0.9020169	0.013886	-0.002705719	0.006504784	-0.0007253128
	0.201191	0.9020169	-0.04884791	0.001339178	0.006500647	-0.0007230043	0.01425568	-0.001195362
	0.013886	-0.002705719	0.006500647	-0.0007230043	-0.04993267	-0.002559582	0.2053017	0.9009851
	0.006504784	-0.0007253128	0.01425568	-0.001195362	0.2053017	0.9009851	-0.0490085	0.001937743
5e+08	-0.04951123	0.002371264	0.2897273	0.8767021	0.01248419	-0.003568081	0.00657452	-0.001475686
	0.2897273	0.8767021	-0.048373	0.006210507	0.00657103	-0.00147271	0.01299365	-0.0020929
	0.01248419	-0.003568081	0.00657103	-0.00147271	-0.04983747	0.002431543	0.293789	0.8752383
	0.00657452	-0.001475686	0.01299365	-0.0020929	0.293789	0.8752383	-0.04849825	0.006840019
