!$
! Info: Touchstone file created by Circ.  Input file=Tx_14in_Rx_93ohms_TxVia_35mils_RxVia_45mils.circ
!$
# Hz S RI R 50
0	0.01280938	1.659504e-25	7.318591e-10	2.221599e-27	9.371263e-05	2.393795e-23	3.609524e-10	4.953929e-28
	7.318591e-10	2.221578e-27	0.01280766	2.040498e-25	2.474397e-09	8.540167e-27	9.357897e-05	2.900741e-23
	9.35273e-05	2.383745e-23	2.474397e-09	8.540175e-27	0.01281991	1.659165e-25	7.339226e-10	2.378632e-27
	3.609523e-10	4.95387e-28	9.173037e-05	2.915015e-23	7.33923e-10	2.37865e-27	0.01282072	1.911957e-25
1e+07	0.01816149	-0.002082861	9.556969e-10	1.256245e-09	0.0005602067	0.002541935	6.116526e-10	5.374958e-10
	9.556969e-10	1.256245e-09	0.0185267	-0.002129879	3.470612e-09	6.673705e-09	0.000554003	0.002534215
	0.0005602012	0.002541936	3.470612e-09	6.673705e-09	0.01855158	-0.002144867	9.384614e-10	1.280778e-09
	6.116525e-10	5.374958e-10	0.000553942	0.002534224	9.384613e-10	1.280778e-09	0.01815834	-0.002118349
2e+07	0.02048304	-0.00889277	1.406985e-09	2.091343e-09	0.001551396	0.00492381	1.055204e-09	7.420021e-10
	1.406985e-09	2.091343e-09	0.02069241	-0.009090168	4.487328e-09	1.173889e-08	0.001534362	0.004913957
	0.001551397	0.004923815	4.487328e-09	1.173889e-08	0.02074608	-0.009130558	1.344005e-09	2.153871e-09
	1.055204e-09	7.420021e-10	0.001534354	0.004913992	1.344005e-09	2.153871e-09	0.02042475	-0.00894964
3e+07	0.01947553	-0.01704548	1.808971e-09	2.768056e-09	0.003229968	0.006766214	1.503432e-09	7.509713e-10
	1.808971e-09	2.768056e-09	0.01953248	-0.01726283	5.044381e-09	1.670302e-08	0.003176081	0.006772905
	0.003229971	0.006766213	5.044381e-09	1.670302e-08	0.01962736	-0.01734649	1.677887e-09	2.902521e-09
	1.503432e-09	7.509713e-10	0.003176081	0.00677291	1.677887e-09	2.902521e-09	0.01933684	-0.01709605
4e+07	0.01577971	-0.02479908	2.157208e-09	3.282128e-09	0.00536612	0.007992718	1.895784e-09	5.500373e-10
	2.157208e-09	3.282128e-09	0.01568923	-0.02497452	5.407691e-09	2.167385e-08	0.005285357	0.008024393
	0.005366121	0.007992716	5.407691e-09	2.167385e-08	0.01582923	-0.02512398	1.952572e-09	3.528116e-09
	1.895784e-09	5.500373e-10	0.005285351	0.00802439	1.952572e-09	3.528116e-09	0.01554548	-0.02480945
5e+07	0.009917911	-0.03131397	2.409408e-09	3.657694e-09	0.007710503	0.00855343	2.159851e-09	1.663226e-10
	2.409408e-09	3.657694e-09	0.0096957	-0.03139655	5.644307e-09	2.669261e-08	0.007605885	0.008621728
	0.007710503	0.008553429	5.644307e-09	2.669261e-08	0.009874804	-0.03163608	2.143012e-09	4.054688e-09
	2.159851e-09	1.663226e-10	0.007605881	0.008621727	2.143013e-09	4.054688e-09	0.009585557	-0.03124581
6e+07	0.00247214	-0.03603127	2.517223e-09	3.929365e-09	0.01006868	0.008425738	2.229876e-09	-3.484353e-10
	2.517223e-09	3.929365e-09	0.002145936	-0.03597873	5.806734e-09	3.180111e-08	0.009947332	0.008540982
	0.01006868	0.008425738	5.806735e-09	3.180111e-08	0.002347855	-0.03633015	2.216348e-09	4.510681e-09
	2.229876e-09	-3.484353e-10	0.009947334	0.008540981	2.216348e-09	4.510681e-09	0.002053116	-0.03584651
7e+07	-0.005915585	-0.0386096	2.441945e-09	4.148004e-09	0.01224781	0.007641403	2.061708e-09	-9.230838e-10
	2.441945e-09	4.148004e-09	-0.006307334	-0.03839061	5.95436e-09	3.702372e-08	0.01212046	0.007811301
	0.01224781	0.007641403	5.95436e-09	3.702372e-08	-0.006107748	-0.03886941	2.146243e-09	4.936377e-09
	2.061709e-09	-9.230839e-10	0.01212047	0.007811298	2.146243e-09	4.936377e-09	-0.006396582	-0.03827548
8e+07	-0.01457634	-0.03891036	2.159716e-09	4.379191e-09	0.01407288	0.006284223	1.636635e-09	-1.47498e-09
	2.159716e-09	4.379191e-09	-0.0149874	-0.03850692	6.148455e-09	4.236277e-08	0.01395295	0.006512707
	0.01407288	0.006284222	6.148456e-09	4.236277e-08	-0.01482142	-0.03911922	1.917429e-09	5.38348e-09
	1.636635e-09	-1.474981e-09	0.01395296	0.0065127	1.917429e-09	5.383481e-09	-0.01508383	-0.03840361
9e+07	-0.02285568	-0.03698612	1.668203e-09	4.700524e-09	0.01540075	0.004482528	9.580972e-10	-1.905816e-09
	1.668203e-09	4.700524e-09	-0.02323554	-0.03639515	6.435481e-09	4.779792e-08	0.01530312	0.00476894
	0.01540075	0.004482527	6.435482e-09	4.779792e-08	-0.02313707	-0.03713586	1.525006e-09	5.917233e-09
	9.580974e-10	-1.905816e-09	0.01530313	0.004768934	1.525006e-09	5.917234e-09	-0.02334696	-0.03629614
1e+08	-0.03013937	-0.03305992	9.771763e-10	5.213612e-09	0.01613022	0.002397346	6.834002e-11	-2.038611e-09
	9.771763e-10	5.213612e-09	-0.03043407	-0.03229341	6.796079e-09	5.329668e-08	0.01607009	0.00273609
	0.01613022	0.002397346	6.796079e-09	5.329668e-08	-0.03043573	-0.03314549	9.816832e-10	6.626051e-09
	6.834002e-11	-2.038611e-09	0.01607009	0.00273609	9.816832e-10	6.626051e-09	-0.03056864	-0.0321907
1.1e+08	-0.03597866	-0.02762497	1.92468e-10	5.947419e-09	0.01621057	0.0002182621	-9.151941e-10	-1.969513e-09
	1.92468e-10	5.947419e-09	-0.03614669	-0.02672961	7.358059e-09	5.882438e-08	0.0162006	0.0005963245
	0.01621057	0.0002182622	7.358059e-09	5.882438e-08	-0.03627618	-0.02766547	3.994143e-10	7.509973e-09
	-9.151941e-10	-1.969513e-09	0.0162006	0.0005963245	3.994143e-10	7.509973e-09	-0.03630225	-0.0265987
1.2e+08	-0.04008776	-0.02102939	-6.334241e-10	6.957585e-09	0.01565292	-0.001873271	-1.987806e-09	-1.608847e-09
	-6.334241e-10	6.957585e-09	-0.04011044	-0.02004333	8.107442e-09	6.431765e-08	0.01570056	-0.001470307
	0.01565292	-0.001873271	8.107442e-09	6.431765e-08	-0.04038677	-0.02102466	-1.964826e-10	8.609076e-09
	-1.987806e-09	-1.608847e-09	0.01570056	-0.001470307	-1.964826e-10	8.609076e-09	-0.04027095	-0.01987822
1.3e+08	-0.04221365	-0.01380665	-1.403149e-09	8.272779e-09	0.01451086	-0.003703509	-3.040448e-09	-9.187442e-10
	-1.403149e-09	8.272779e-09	-0.04207802	-0.01277408	9.042486e-09	6.97253e-08	0.01461974	-0.003292643
	0.01451086	-0.003703509	9.042486e-09	6.97253e-08	-0.04250789	-0.01375591	-7.269811e-10	9.944181e-09
	-3.040448e-09	-9.187442e-10	0.01461974	-0.003292643	-7.269811e-10	9.944181e-09	-0.04223142	-0.01257419
1.4e+08	-0.04228762	-0.006530257	-2.008787e-09	9.876718e-09	0.01288465	-0.005121227	-3.969115e-09	1.022173e-10
	-2.008787e-09	9.876718e-09	-0.04199313	-0.005499655	1.014386e-08	7.498983e-08	0.01305321	-0.004720789
	0.01288465	-0.005121227	1.014386e-08	7.498983e-08	-0.04256887	-0.006434415	-1.10544e-09	1.14965e-08
	-3.969115e-09	1.022173e-10	0.01305321	-0.004720789	-1.10544e-09	1.14965e-08	-0.0421289	-0.00526832
1.5e+08	-0.04040465	0.0002388776	-2.351545e-09	1.171109e-08	0.01091185	-0.006009871	-4.670864e-09	1.425752e-09
	-2.351545e-09	1.171109e-08	-0.03996534	0.001218757	1.137197e-08	8.005966e-08	0.01113285	-0.005637837
	0.01091185	-0.006009871	1.137197e-08	8.005966e-08	-0.04066417	0.0003766716	-1.254986e-09	1.321167e-08
	-4.670864e-09	1.425752e-09	0.01113285	-0.005637837	-1.254986e-09	1.321167e-08	-0.0400751	0.001474996
1.6e+08	-0.03680869	0.00599544	-2.345684e-09	1.369731e-08	0.008756136	-0.006296135	-5.042467e-09	2.984538e-09
	-2.345684e-09	1.369731e-08	-0.03625345	0.006880226	1.266945e-08	8.489559e-08	0.009016754	-0.005968308
	0.008756136	-0.006296134	1.266945e-08	8.489559e-08	-0.03703817	0.006169684	-1.110494e-09	1.502164e-08
	-5.042467e-09	2.984538e-09	0.009016754	-0.005968308	-1.110494e-09	1.502164e-08	-0.03633166	0.007152477
1.7e+08	-0.03186916	0.01032658	-1.942778e-09	1.57187e-08	0.006594422	-0.005955211	-5.00772e-09	4.681241e-09
	-1.942778e-09	1.57187e-08	-0.03124038	0.01108095	1.396563e-08	8.947842e-08	0.006876953	-0.005683483
	0.006594422	-0.005955211	1.396563e-08	8.947842e-08	-0.03206153	0.0105296	-6.408033e-10	1.68265e-08
	-5.00772e-09	4.681241e-09	0.006876953	-0.005683483	-6.408033e-10	1.68265e-08	-0.03128476	0.011359
1.8e+08	-0.02604949	0.01294086	-1.135929e-09	1.764622e-08	0.004603089	-0.005012457	-4.520101e-09	6.393995e-09
	-1.135929e-09	1.764622e-08	-0.02540017	0.0135427	1.518402e-08	9.381277e-08	0.004886205	-0.00480331
	0.004603089	-0.005012457	1.518402e-08	9.381277e-08	-0.02619956	0.0131632	1.48907e-10	1.851914e-08
	-4.520101e-09	6.393995e-09	0.004886205	-0.00480331	1.48907e-10	1.851914e-08	-0.0254119	0.01381609
1.9e+08	-0.01986975	0.01368764	3.880825e-11	1.93539e-08	0.002944259	-0.003541353	-3.57086e-09	7.985614e-09
	3.880825e-11	1.93539e-08	-0.01925939	0.01413118	1.625075e-08	9.792843e-08	0.003204692	-0.003394789
	0.002944259	-0.003541353	1.625075e-08	9.792843e-08	-0.01997474	0.0139186	1.217209e-09	1.999899e-08
	-3.57086e-09	7.985614e-09	0.003204692	-0.003394789	1.217209e-09	1.999899e-08	-0.01924294	0.01439028
2e+08	-0.01386592	0.01256577	1.506862e-09	2.073299e-08	0.001753002	-0.001657817	-2.194179e-09	9.315682e-09
	1.506862e-09	2.073299e-08	-0.01335542	0.01286343	1.710317e-08	1.018786e-07	0.00196754	-0.001566825
	0.001753002	-0.001657817	1.710317e-08	1.018786e-07	-0.01392574	0.01279405	2.49186e-09	2.118421e-08
	-2.194179e-09	9.315682e-09	0.00196754	-0.001566825	2.49186e-09	2.118421e-08	-0.01331809	0.01310037
2.1e+08	-0.008548496	0.009720989	3.163975e-09	2.170276e-08	0.00112645	0.0004888285	-4.682461e-10	1.025452e-08
	3.163975e-09	2.170276e-08	-0.00819458	0.009903585	1.769724e-08	1.057349e-07	0.001274061	0.0005381919
	0.00112645	0.0004888285	1.769724e-08	1.057349e-07	-0.008565925	0.009935406	3.879001e-09	2.202005e-08
	-4.682461e-10	1.025452e-08	0.001274061	0.0005381919	3.879001e-09	2.202005e-08	-0.008145855	0.01011302
2.2e+08	-0.004363568	0.0054323	4.887241e-09	2.22167e-08	0.001115725	0.002727711	1.488506e-09	1.06975e-08
	4.887241e-09	2.22167e-08	-0.004213296	0.005547584	1.801277e-08	1.095806e-07	0.001179615	0.002755599
	0.001115725	0.002727711	1.801277e-08	1.095806e-07	-0.004344184	0.005622553	5.273857e-09	2.248267e-08
	1.488506e-09	1.06975e-08	0.001179615	0.002755599	5.273857e-09	2.248267e-08	-0.004163958	0.005727227
2.3e+08	-0.001659274	8.829785e-05	6.546157e-09	2.226449e-08	0.001721451	0.004880234	3.526082e-09	1.057787e-08
	6.546157e-09	2.226449e-08	-0.00174503	0.0001978155	1.80557e-08	1.135021e-07	0.00169088	0.004911676
	0.001721451	0.004880234	1.80557e-08	1.135021e-07	-0.001611217	0.000245683	6.570691e-09	2.257881e-08
	3.526082e-09	1.057787e-08	0.00169088	0.004911676	6.570691e-09	2.257881e-08	-0.001706215	0.0003486805
2.4e+08	-0.0006601401	-0.005844691	8.012105e-09	2.187074e-08	0.002893397	0.006774793	5.47583e-09	9.876243e-09
	8.012105e-09	2.187074e-08	-0.0009956853	-0.00567019	1.785751e-08	1.175807e-07	0.002765065	0.006837847
	0.002893397	0.006774793	1.785751e-08	1.175807e-07	-0.0005936665	-0.005726612	7.670509e-09	2.234254e-08
	5.47583e-09	9.876243e-09	0.002765065	0.006837847	7.670509e-09	2.234254e-08	-0.0009778844	-0.005543808
2.5e+08	-0.001451321	-0.01186019	9.165792e-09	2.10923e-08	0.004534424	0.008261137	7.16616e-09	8.625357e-09
	9.165792e-09	2.10923e-08	-0.002029285	-0.01154644	1.747208e-08	1.218853e-07	0.004313288	0.008384652
	0.004534424	0.008261137	1.747208e-08	1.218853e-07	-0.001378177	-0.01178505	8.486147e-09	2.183125e-08
	7.16616e-09	8.625357e-09	0.004313288	0.008384652	8.486147e-09	2.183125e-08	-0.00204141	-0.01143728
2.6e+08	-0.003973942	-0.01745181	9.856747e-09	1.998957e-08	0.006508521	0.009223039	8.439711e-09	6.909936e-09
	9.856747e-09	1.998957e-08	-0.004765053	-0.01692744	1.695107e-08	1.264568e-07	0.006207936	0.009434209
	0.006508521	0.009223039	1.695107e-08	1.264568e-07	-0.003906574	-0.01742011	8.898571e-09	2.109622e-08
	8.439711e-09	6.909936e-09	0.006207936	0.009434209	8.898571e-09	2.109622e-08	-0.004813648	-0.01682582
2.7e+08	-0.008031808	-0.02215296	1.002584e-08	1.872527e-08	0.008652269	0.009588105	9.167408e-09	4.85835e-09
	1.002584e-08	1.872527e-08	-0.008986134	-0.02135586	1.638756e-08	1.313437e-07	0.008293405	0.009910015
	0.008652269	0.009588105	1.638756e-08	1.313437e-07	-0.007982583	-0.02216188	8.877767e-09	2.02822e-08
	9.167408e-09	4.85835e-09	0.008293405	0.009910015	8.877767e-09	2.02822e-08	-0.009074686	-0.0212505
2.8e+08	-0.01330878	-0.02557283	9.635961e-09	1.744798e-08	0.0107887	0.009333751	9.261648e-09	2.634069e-09
	9.635961e-09	1.744798e-08	-0.01435876	-0.02445614	1.587706e-08	1.365572e-07	0.01039924	0.009783131
	0.0107887	0.009333751	1.587706e-08	1.365572e-07	-0.01328906	-0.02561629	8.409773e-09	1.951125e-08
	9.261648e-09	2.634069e-09	0.01039924	0.009783131	8.409773e-09	1.951125e-08	-0.01448737	-0.0243351
2.9e+08	-0.01939527	-0.02742579	8.680424e-09	1.631471e-08	0.01274225	0.008488826	8.684658e-09	4.214428e-10
	8.680424e-09	1.631471e-08	-0.02046045	-0.02596286	1.551277e-08	1.42081e-07	0.01235445	0.009074224
	0.01274225	0.008488826	1.551277e-08	1.42081e-07	-0.01941452	-0.0274948	7.502806e-09	1.890751e-08
	8.684658e-09	4.214428e-10	0.01235445	0.009074224	7.502806e-09	1.890751e-08	-0.02062578	-0.02581455
3e+08	-0.02582145	-0.02755211	7.195757e-09	1.548892e-08	0.01435344	0.007130776	7.45211e-09	-1.589557e-09
	7.195757e-09	1.548892e-08	-0.02681467	-0.02573995	1.538209e-08	1.47874e-07	0.01400166	0.007851327
	0.01435344	0.007130776	1.538209e-08	1.47874e-07	-0.02588655	-0.02763535	6.198436e-09	1.859773e-08
	7.45211e-09	-1.589557e-09	0.01400166	0.007851327	6.198436e-09	1.859773e-08	-0.02701015	-0.0255541
3.1e+08	-0.03209462	-0.02592855	5.267079e-09	1.512854e-08	0.01549195	0.005378706	5.632382e-09	-3.218334e-09
	5.267079e-09	1.512854e-08	-0.03292897	-0.02378939	1.55609e-08	1.538723e-07	0.0152099	0.006223654
	0.01549195	0.005378706	1.55609e-08	1.538723e-07	-0.03220922	-0.02601311	4.576081e-09	1.870239e-08
	5.632382e-09	-3.218334e-09	0.0152099	0.006223654	4.576081e-09	1.870239e-08	-0.03314529	-0.02355795
3.2e+08	-0.03773742	-0.02266827	3.029833e-09	1.537018e-08	0.01606696	0.003383092	3.342045e-09	-4.307447e-09
	3.029833e-09	1.537018e-08	-0.03833364	-0.02024903	1.610786e-08	1.599914e-07	0.01588479	0.00433213
	0.01606696	0.003383092	1.610786e-08	1.599914e-07	-0.03790165	-0.02274054	2.754772e-09	1.932299e-08
	3.342045e-09	-4.307447e-09	0.01588479	0.00433213	2.754772e-09	1.932299e-08	-0.03855949	-0.01996686
3.3e+08	-0.04232434	-0.01801036	6.653684e-10	1.631104e-08	0.01603403	0.001313145	7.382879e-10	-4.734505e-09
	6.653684e-10	1.631104e-08	-0.04261777	-0.01538002	1.705884e-08	1.661299e-07	0.01597565	0.0023376
	0.01603403	0.001313145	1.705884e-08	1.661299e-07	-0.04253463	-0.01805699	8.896928e-10	2.052699e-08
	7.382879e-10	-4.734505e-09	0.01597565	0.0023376	8.896928e-10	2.052699e-08	-0.04284075	-0.01504538
3.4e+08	-0.04551348	-0.01230011	-1.611078e-09	1.799138e-08	0.01539807	-0.0006570258	-1.991049e-09	-4.421858e-09
	-1.611078e-09	1.799138e-08	-0.04546021	-0.009545095	1.842168e-08	1.721756e-07	0.01547882	0.000407762
	0.01539807	-0.0006570258	1.842168e-08	1.721756e-07	-0.04576278	-0.01230904	-8.380574e-10	2.233297e-08
	-1.991049e-09	-4.421858e-09	0.01547882	0.000407762	-8.380574e-10	2.233297e-08	-0.04566784	-0.009159838
3.5e+08	-0.04707167	-0.00596169	-3.569919e-09	2.038131e-08	0.01421238	-0.002362308	-4.639409e-09	-3.343885e-09
	-3.569919e-09	2.038131e-08	-0.04665316	-0.00317958	2.017195e-08	1.780124e-07	0.01443729	-0.001296087
	0.01421238	-0.002362308	2.017195e-08	1.780124e-07	-0.04734982	-0.005923001	-2.238515e-09	2.46995e-08
	-4.639409e-09	-3.343885e-09	0.01443729	-0.001296087	-2.238515e-09	2.46995e-08	-0.04683388	-0.002749042
3.6e+08	-0.04689108	0.0005346575	-4.992309e-09	2.337534e-08	0.01257391	-0.003659486	-6.995137e-09	-1.531597e-09
	-4.992309e-09	2.337534e-08	-0.04611688	0.003242603	2.225078e-08	1.835301e-07	0.01293684	-0.002631511
	0.01257391	-0.003659486	2.225078e-08	1.835301e-07	-0.04718549	0.0006279217	-3.134968e-09	2.752091e-08
	-6.995137e-09	-1.531597e-09	0.01293684	-0.002631511	-3.134968e-09	2.752091e-08	-0.04626105	0.003709986
3.7e+08	-0.04499642	0.006708411	-5.697196e-09	2.679691e-08	0.01061536	-0.004438251	-8.856486e-09	9.258901e-10
	-5.697196e-09	2.679691e-08	-0.04390472	0.009245353	2.456574e-08	1.886354e-07	0.01109899	-0.003485751
	0.01061536	-0.004438251	2.456574e-08	1.886354e-07	-0.04529288	0.006859667	-3.387756e-09	3.063238e-08
	-8.856486e-09	9.258901e-10	0.01109899	-0.003485751	-3.387756e-09	3.063238e-08	-0.04400542	0.009738689
3.8e+08	-0.04154228	0.01210499	-5.565824e-09	3.041361e-08	0.008494711	-0.004629605	-1.004748e-08	3.883664e-09
	-5.565824e-09	3.041361e-08	-0.04019814	0.01438659	2.699552e-08	1.932626e-07	0.009071441	-0.003784206
	0.008494711	-0.004629605	2.699552e-08	1.932626e-07	-0.04182599	0.01231375	-2.915476e-09	3.382463e-08
	-1.004748e-08	3.883664e-09	0.009071441	-0.003784206	-2.915476e-09	3.382463e-08	-0.04025174	0.01489339
3.9e+08	-0.03680096	0.01632982	-4.559272e-09	3.396124e-08	0.006382904	-0.004211144	-1.043377e-08	7.147728e-09
	-4.559272e-09	3.396124e-08	-0.03529222	0.01829168	2.939882e-08	1.973836e-07	0.007016681	-0.00349605
	0.006382904	-0.004211144	2.939882e-08	1.973836e-07	-0.03705756	0.01659161	-1.709417e-09	3.686667e-08
	-1.043377e-08	7.147728e-09	0.007016681	-0.00349605	-1.709417e-09	3.686667e-08	-0.03529876	0.01879883
4e+08	-0.03114164	0.01907787	-2.725739e-09	3.717318e-08	0.004450598	-0.00320888	-9.937093e-09	1.048655e-08
	-2.725739e-09	3.717318e-08	-0.02957282	0.02068162	3.162665e-08	2.010142e-07	0.005099482	-0.002636647
	0.004450598	-0.00320888	3.162665e-08	2.010142e-07	-0.03135828	0.01938445	1.618322e-10	3.953301e-08
	-9.937093e-09	1.048655e-08	0.005099482	-0.002636647	1.618322e-10	3.953301e-08	-0.02953608	0.02117645
4.1e+08	-0.02500234	0.02015652	-1.962381e-10	3.981042e-08	0.002854846	-0.001695455	-8.546676e-09	1.36474e-08
	-1.962381e-10	3.981042e-08	-0.02348698	0.02139406	3.353687e-08	2.042158e-07	0.003474155	-0.001266544
	0.002854846	-0.001695455	3.353687e-08	2.042158e-07	-0.02516869	0.02049631	2.558748e-09	4.163081e-08
	-8.546676e-09	1.36474e-08	0.003474155	-0.001266544	2.558748e-09	4.163081e-08	-0.0234142	0.02186538
4.2e+08	-0.01885682	0.01949997	2.830394e-09	4.168734e-08	0.001726648	0.0002152058	-6.325748e-09	1.637656e-08
	2.830394e-09	4.168734e-08	-0.01750868	0.02039547	3.500897e-08	2.070926e-07	0.002272433	0.0005129481
	0.001726648	0.0002152058	3.500897e-08	2.070926e-07	-0.0189659	0.01985886	5.287106e-09	4.302228e-08
	-6.325748e-09	1.637656e-08	0.002272433	0.0005129481	5.287106e-09	4.302228e-08	-0.01741003	0.02083451
4.3e+08	-0.01317862	0.01717425	6.110219e-09	4.268952e-08	0.001160288	0.002376511	-3.411537e-09	1.844201e-08
	6.110219e-09	4.268952e-08	-0.01210252	0.01778361	3.595714e-08	2.097828e-07	0.001592876	0.002567382
	0.001160288	0.002376511	3.595714e-08	2.097828e-07	-0.01322745	0.01753654	8.120987e-09	4.363878e-08
	-3.411537e-09	1.844201e-08	0.001592876	0.002567381	8.120987e-09	4.363878e-08	-0.01199037	0.01818475
4.4e+08	-0.008405065	0.01337222	9.380419e-09	4.278155e-08	0.00120536	0.004620581	-7.82323e-12	1.965601e-08
	9.380419e-09	4.278155e-08	-0.007688092	0.01377987	3.633976e-08	2.124468e-07	0.00149268	0.004739562
	0.00120536	0.004620581	3.633976e-08	2.124468e-07	-0.008395021	0.01372173	1.082823e-08	4.348482e-08
	-7.823231e-12	1.965601e-08	0.00149268	0.004739562	1.082823e-08	4.348482e-08	-0.007576025	0.0141412
4.5e+08	-0.004903938	0.008398778	1.238459e-08	4.200507e-08	0.001862201	0.006771586	3.629962e-09	1.9895e-08
	1.238459e-08	4.200507e-08	-0.004607691	0.008712157	3.616407e-08	2.152517e-07	0.001982631	0.006861988
	0.001862201	0.006771586	3.616407e-08	2.152517e-07	-0.004840774	0.0087201	1.319388e-08	4.26326e-08
	3.629962e-09	1.9895e-08	0.001982631	0.006861988	1.319388e-08	4.26326e-08	-0.004509414	0.009035667
4.6e+08	-0.002945383	0.002647607	1.489356e-08	4.046926e-08	0.003081279	0.008660041	7.215925e-09	1.911407e-08
	1.489356e-08	4.046926e-08	-0.003100001	0.002989409	3.548584e-08	2.183567e-07	0.003025771	0.008770397
	0.003081279	0.008660041	3.548584e-08	2.183567e-07	-0.002838962	0.002927248	1.503816e-08	4.120955e-08
	7.215925e-09	1.911407e-08	0.003025771	0.008770397	1.503816e-08	4.120955e-08	-0.003028181	0.003280948
4.7e+08	-0.002681359	-0.003429154	1.671998e-08	3.8337e-08	0.004766743	0.01013685	1.045896e-08	1.735385e-08
	1.671998e-08	3.8337e-08	-0.003281851	-0.002930153	3.440426e-08	2.218992e-07	0.004540031	0.01031728
	0.004766743	0.01013685	3.440426e-08	2.218992e-07	-0.002545027	-0.003201628	1.622742e-08	3.938242e-08
	1.045896e-08	1.735385e-08	0.004540031	0.01031728	1.622742e-08	3.938242e-08	-0.003247177	-0.002661317
4.8e+08	-0.004134327	-0.009355575	1.772677e-08	3.581012e-08	0.006783966	0.0110859	1.308908e-08	1.47388e-08
