!$
! Info: Touchstone file created by Circ.  Input file=Tx_16in_Rx_85ohms_TxVia_35mils_RxVia_45mils.circ
!$
# Hz S RI R 50
0	0.01283538	1.959107e-25	0.9870238	-2.03644e-25	0.0001040634	2.445272e-23	-0.0001021421	2.044256e-21
	0.9870238	-2.075122e-25	0.01283423	2.299237e-25	-0.0001025101	2.089441e-21	0.000104481	2.906805e-23
	0.0001022235	2.511058e-23	-0.0001026361	2.105017e-21	0.01284769	1.867391e-25	0.9870081	-1.93369e-25
	-0.0001025185	2.090493e-21	0.0001026324	2.921109e-23	0.9870081	-1.929845e-25	0.01284729	2.15442e-25
1e+07	0.01538717	-0.01601717	0.9664766	-0.1695996	0.0007023066	0.002823895	-0.0001278511	0.000133005
	0.9664766	-0.1695996	0.01536971	-0.01601508	-0.0001278667	0.0001330223	0.0006965363	0.00282596
	0.000702246	0.002823899	-0.0001279226	0.000133039	0.01535313	-0.0159989	0.966497	-0.1696955
	-0.0001279071	0.0001330218	0.0006964755	0.002825971	0.966497	-0.1696955	0.0153335	-0.01599614
2e+07	0.0112702	-0.0354477	0.9184454	-0.3279108	0.002129625	0.005197513	4.89437e-05	0.0002645304
	0.9184454	-0.3279108	0.01120518	-0.03542706	4.889833e-05	0.000264571	0.002108469	0.005207635
	0.002129613	0.005197552	4.889492e-05	0.0002646139	0.0112575	-0.03539992	0.9184038	-0.3281078
	4.893857e-05	0.0002645745	0.002108461	0.005207671	0.9184038	-0.3281078	0.01118466	-0.03537575
3e+07	-0.0005208697	-0.05355104	0.8466643	-0.4732838	0.004205515	0.006924129	0.0003427791	0.0002394829
	0.8466643	-0.4732838	-0.0006530506	-0.05348178	0.000342704	0.0002396144	0.004163322	0.006952211
	0.004205517	0.006924135	0.0003427077	0.0002396199	-0.0005149685	-0.05349156	0.8465378	-0.4735522
	0.0003427829	0.0002394888	0.004163322	0.006952217	0.8465378	-0.4735522	-0.000662638	-0.0534122
4e+07	-0.01791027	-0.06701547	0.7530921	-0.6032696	0.006670931	0.007842352	0.0006353959	3.873268e-06
	0.7530921	-0.6032696	-0.0181137	-0.0668606	0.0006353516	4.124345e-06	0.006607144	0.007900338
	0.006670926	0.007842348	0.0006353439	4.122952e-06	-0.01788876	-0.06695168	0.7528603	-0.6035831
	0.0006353877	3.871488e-06	0.006607139	0.007900337	0.7528603	-0.6035831	-0.01811549	-0.06677586
5e+07	-0.03868987	-0.0742619	0.6406748	-0.7149101	0.009228231	0.007889471	0.0008037256	-0.0004251371
	0.6406748	-0.7149101	-0.03895141	-0.07398402	0.0008037777	-0.00042477	0.009147905	0.007989069
	0.009228227	0.00788947	0.0008037725	-0.0004247686	-0.0386567	-0.0741984	0.6403231	-0.7152389
	0.0008037201	-0.0004251358	0.009147901	0.007989068	0.6403231	-0.7152389	-0.03894756	-0.07388452
6e+07	-0.06050202	-0.07463676	0.5128828	-0.8057733	0.0115859	0.007107571	0.0007500808	-0.0009694569
	0.5128828	-0.8057733	-0.06079209	-0.07420556	0.0007502977	-0.0009690105	0.01149923	0.007257892
	0.01158591	0.007107571	0.0007503013	-0.0009690133	-0.06046165	-0.07457598	0.5124031	-0.8060847
	0.0007500848	-0.00096946	0.01149923	0.007257891	0.5124031	-0.8060847	-0.06078339	-0.07409039
7e+07	-0.08104218	-0.06830486	0.3734616	-0.8740947	0.01349411	0.005629	0.0004267899	-0.001511777
	0.3734616	-0.8740947	-0.08131877	-0.06770353	0.0004272227	-0.001511328	0.01341504	0.005834609
	0.01349413	0.005628996	0.0004272302	-0.001511341	-0.08099899	-0.06824728	0.3728534	-0.8743543
	0.0004267984	-0.001511791	0.01341505	0.005834605	0.3728534	-0.8743543	-0.08130455	-0.06757156
8e+07	-0.09827097	-0.05614083	0.2262485	-0.9187757	0.01476864	0.003651903	-0.0001531987	-0.001924741
	0.2262485	-0.9187757	-0.09848587	-0.05537041	-0.0001525412	-0.001924394	0.0147129	0.003911514
	0.01476866	0.003651895	-0.0001525367	-0.001924413	-0.09822868	-0.05608542	0.2255193	-0.918949
	-0.0001531937	-0.001924762	0.01471291	0.003911507	0.2255193	-0.918949	-0.09846419	-0.05522107
9e+07	-0.1105901	-0.03958123	0.07504505	-0.9393231	0.01530306	0.001412454	-0.0009207986	-0.00209992
	0.07504505	-0.9393231	-0.1106961	-0.03866206	-0.0009199614	-0.002099778	0.01528577	0.001718445
	0.01530306	0.001412446	-0.0009199622	-0.002099794	-0.1105514	-0.03952585	0.07421046	-0.9393769
	-0.0009207995	-0.002099937	0.01528578	0.001718439	0.07421046	-0.9393769	-0.1106644	-0.03849598
1e+08	-0.1169681	-0.02044585	-0.07645166	-0.9357692	0.01507364	-0.0008411561	-0.001771982	-0.001969976
	-0.07645166	-0.9357692	-0.1169266	-0.01941648	-0.00177106	-0.001970119	0.0151069	-0.0005023354
	0.01507364	-0.0008411561	-0.00177106	-0.001970119	-0.116935	-0.02038785	-0.07736788	-0.935674
	-0.001771982	-0.001969976	0.0151069	-0.0005023354	-0.07736788	-0.935674	-0.1168825	-0.01923581
1.1e+08	-0.1169886	-0.0007305842	-0.2247154	-0.9086371	0.01411976	-0.002889468	-0.002560194	-0.001492471
	-0.2247154	-0.9086371	-0.1167765	0.0003543929	-0.0025593	-0.00149293	0.01421038	-0.002536255
	0.01411976	-0.002889468	-0.0025593	-0.00149293	-0.1169623	-0.0006673103	-0.2256844	-0.9083715
	-0.002560194	-0.001492471	0.01421038	-0.002536255	-0.2256844	-0.9083715	-0.1167179	0.000546531
1.2e+08	-0.1108657	0.01755223	-0.3663733	-0.8587725	0.01254138	-0.00450525	-0.003147205	-0.0007465898
	-0.3663733	-0.8587725	-0.1104794	0.01863256	-0.003146484	-0.0007473232	0.01268915	-0.004158043
	0.01254138	-0.00450525	-0.003146484	-0.0007473232	-0.1108446	0.0176248	-0.3673623	-0.8583176
	-0.003147205	-0.0007465898	0.01268915	-0.004158043	-0.3673623	-0.8583176	-0.1104046	0.01883192
1.3e+08	-0.09942918	0.03258365	-0.4981586	-0.7874444	0.01051137	-0.005519884	-0.003452606	0.0001719761
	-0.4981586	-0.7874444	-0.0988866	0.03359707	-0.003452156	0.0001710778	0.01070857	-0.005198971
	0.01051137	-0.005519884	-0.003452156	0.0001710778	-0.09941051	0.03266798	-0.4991296	-0.7867883
	-0.003452606	0.0001719761	0.01070857	-0.005198971	-0.4991296	-0.7867883	-0.09879607	0.03379826
1.4e+08	-0.08401402	0.04290081	-0.6169587	-0.6963243	0.008240848	-0.005822733	-0.003438209	0.001142453
	-0.6169587	-0.6963243	-0.08335605	0.04379116	-0.003438063	0.001141533	0.008472418	-0.005545517
	0.008240848	-0.005822733	-0.003438063	0.001141533	-0.08399439	0.04299761	-0.6178709	-0.6954629
	-0.003438209	0.001142453	0.008472418	-0.005545517	-0.6178709	-0.6954629	-0.08325222	0.04398847
1.5e+08	-0.06633487	0.04753051	-0.7198412	-0.5875153	0.00596663	-0.005370901	-0.003119191	0.002041864
	-0.7198412	-0.5875153	-0.06562294	0.04825631	-0.003119303	0.00204106	0.00621131	-0.005149265
	0.00596663	-0.005370901	-0.003119303	0.00204106	-0.0663112	0.04763891	-0.7206524	-0.5864523
	-0.003119191	0.002041864	0.00621131	-0.005149265	-0.7206524	-0.5864523	-0.06551075	0.04844471
1.6e+08	-0.04832189	0.04608393	-0.8041189	-0.4635824	0.003931694	-0.004196974	-0.002559414	0.002768933
	-0.8041189	-0.4635824	-0.04763245	0.04662595	-0.002559676	0.002768341	0.004164126	-0.004035131
	0.003931694	-0.004196974	-0.002559676	0.002768341	-0.04829191	0.04620191	-0.804787	-0.4623303
	-0.002559414	0.002768933	0.004164126	-0.004035131	-0.804787	-0.4623303	-0.04751895	0.04680217
1.7e+08	-0.0319306	0.03880047	-0.8674493	-0.3275661	0.002361286	-0.002411335	-0.001855986	0.003263285
	-0.8674493	-0.3275661	-0.0313468	0.03916713	-0.00185625	0.003262931	0.002554816	-0.002304478
	0.002361286	-0.002411335	-0.00185625	0.003262931	-0.03189314	0.03892538	-0.8679337	-0.3261452
	-0.001855986	0.003263285	0.002554816	-0.002304478	-0.8679337	-0.3261452	-0.03124046	0.03933049
1.8e+08	-0.01894117	0.02653085	-0.9079586	-0.182958	0.00143657	-0.0001960413	-0.001116387	0.003515365
	-0.9079586	-0.182958	-0.01854262	0.02676029	-0.001116511	0.003515193	0.001566476	-0.000130033
	0.00143657	-0.0001960413	-0.001116511	0.003515193	-0.01889618	0.02665985	-0.908222	-0.1813971
	-0.001116387	0.003515365	0.001566476	-0.000130033	-0.908222	-0.1813971	-0.01845224	0.02691326
1.9e+08	-0.01076753	0.0106544	-0.9243718	-0.03362882	0.001269723	0.002211747	-0.0004333696	0.003564318
	-0.9243718	-0.03362882	-0.01061952	0.01081274	-0.0004332563	0.003564198	0.001316474	0.002259536
	0.001269723	0.002211747	-0.0004332564	0.003564198	-0.01071603	0.01078491	-0.9243816	-0.03196414
	-0.0004333696	0.003564318	0.001316474	0.002259536	-0.9243816	-0.03196414	-0.01055307	0.01096103
2e+08	-0.008300389	-0.007065932	-0.9161264	0.1162961	0.001885607	0.00454651	0.0001361247	0.003483854
	-0.9161264	0.1162961	-0.008444067	-0.006890343	0.0001364911	0.003483612	0.001837755	0.004605233
	0.001885607	0.00454651	0.0001364911	0.003483612	-0.008244268	-0.00693599	-0.915856	0.1180213
	0.0001361247	0.003483854	0.001837755	0.004605233	-0.915856	0.1180213	-0.008407446	-0.006738159
2.1e+08	-0.0118068	-0.02467734	-0.8834449	0.2626039	0.003214926	0.006548049	0.000582362	0.003359484
	-0.8834449	0.2626039	-0.01225173	-0.02438306	0.0005829001	0.003358951	0.003071235	0.006650429
	0.003214926	0.006548049	0.0005829001	0.003358951	-0.01174862	-0.02454919	-0.8828756	0.2643407
	0.000582362	0.003359484	0.003071235	0.006650429	-0.8828756	0.2643407	-0.01224778	-0.02421634
2.2e+08	-0.0209028	-0.04025583	-0.8273514	0.4011853	0.005101646	0.007996287	0.0009412702	0.003263141
	-0.8273514	0.4011853	-0.02162316	-0.03973994	0.0009418112	0.0032622	0.004872135	0.008174991
	0.005101646	0.007996287	0.0009418112	0.0032622	-0.02084544	-0.04012972	-0.8264732	0.4028803
	0.0009412702	0.003263141	0.004872135	0.008174991	-0.8264732	0.4028803	-0.02165096	-0.03954712
2.3e+08	-0.03460418	-0.05212081	-0.7496237	0.5282235	0.007324103	0.008740444	0.001280378	0.003232205
	-0.7496237	0.5282235	-0.03553922	-0.05129136	0.0012807	0.003230836	0.007029782	0.009024182
	0.007324103	0.008740444	0.0012807	0.003230836	-0.03455048	-0.05199589	-0.7484362	0.5298203
	0.001280378	0.003232205	0.007029782	0.009024182	-0.7484362	0.5298203	-0.03559386	-0.05106131
2.4e+08	-0.05144762	-0.05901622	-0.6526892	0.6403547	0.009625735	0.008716976	0.001676326	0.003258663
	-0.6526892	0.6403547	-0.05250664	-0.05780405	0.001676207	0.003256957	0.009296983	0.00912679
	0.009625735	0.008716976	0.001676207	0.003256957	-0.05139999	-0.05889064	-0.6512026	0.6417961
	0.001676326	0.003258663	0.009296983	0.00912679	-0.6512026	0.6417961	-0.05257944	-0.05752745
2.5e+08	-0.06966345	-0.06023572	-0.5394816	0.7347822	0.01174924	0.007953574	0.002190359	0.003291042
	-0.5394816	0.7347822	-0.0707346	-0.05860402	0.002189633	0.003289198	0.01142293	0.008499813
	0.01174924	0.007953574	0.002189633	0.003289198	-0.06962354	-0.06010685	-0.5377169	0.7360119
	0.002190359	0.003291042	0.01142293	0.008499813	-0.5377169	0.7360119	-0.07081381	-0.05827468
2.6e+08	-0.08737431	-0.0556798	-0.4132823	0.8093348	0.01346774	0.006560013	0.002848434	0.003248058
	-0.4132823	0.8093348	-0.08833627	-0.05363013	0.002847038	0.00324634	0.01318343	0.007240395
	0.01346774	0.006560013	0.002847038	0.00324634	-0.08734271	-0.05554449	-0.411271	0.8102994
	0.002848434	0.003248058	0.01318343	0.007240395	-0.411271	0.8102994	-0.08840826	-0.0532459
2.7e+08	-0.1027938	-0.04584387	-0.2775697	0.8624725	0.01460836	0.004709407	0.003630775	0.003039795
	-0.2775697	0.8624725	-0.1035289	-0.04341805	0.003628775	0.003038483	0.01440388	0.005508473
	0.01460836	0.004709407	0.003628775	0.003038483	-0.1027699	-0.04569893	-0.2753535	0.8631237
	0.003630775	0.003039795	0.01440388	0.005508473	-0.2753535	0.8631237	-0.1035796	-0.04298145
2.8e+08	-0.1144028	-0.03174635	-0.1358939	0.8932532	0.01506607	0.002614624	0.004472865	0.002590804
	-0.1358939	0.8932532	-0.1148106	-0.02902385	0.004470448	0.002590127	0.01497317	0.003504702
	0.01506607	0.002614624	0.004470448	0.002590127	-0.1143851	-0.03158893	-0.1335237	0.8935499
	0.004472865	0.002590804	0.01497317	0.003504702	-0.1335237	0.8935499	-0.1148269	-0.02854204
2.9e+08	-0.1210892	-0.01481069	0.008212941	0.901278	0.01480848	0.0005041984	0.005276873	0.001859623
	0.008212941	0.901278	-0.1210976	-0.01190188	0.005274313	0.001859711	0.0148489	0.001447819
	0.01480848	0.0005041984	0.005274313	0.001859711	-0.1210752	-0.0146386	0.01067828	0.9011877
	0.005276873	0.001859623	0.0148489	0.001447819	0.01067828	0.9011877	-0.1210694	-0.01138618
3e+08	-0.1222411	0.003282696	0.151292	0.8866325	0.01387348	-0.001399448	0.005930392	0.0008507197
	0.151292	0.8866325	-0.1218161	0.006246861	0.005927997	0.0008515664	0.01405599	-0.0004459156
	0.01387348	-0.001399448	0.005927997	0.0008515664	-0.1222276	0.003470673	0.1537874	0.8861327
	0.005930392	0.0008507197	0.01405599	-0.0004459156	0.1537874	0.8861327	-0.1217371	0.006781998
3.1e+08	-0.117793	0.02075974	0.2899858	0.8498405	0.01236217	-0.002898401	0.00632823	-0.0003832258
	0.2899858	0.8498405	-0.1169442	0.02364058	0.006326275	-0.00038176	0.01268095	-0.001980266
	0.01236217	-0.002898401	0.006326275	-0.00038176	-0.1177765	0.02096374	0.2924416	0.84892
	0.00632823	-0.0003832258	0.01268095	-0.001980266	0.2924416	0.84892	-0.116813	0.02417896
3.2e+08	-0.1082237	0.03591856	0.4210516	0.791838	0.01042886	-0.003834467	0.00639282	-0.001748751
	0.4210516	0.791838	-0.1070055	0.03858396	0.006391488	-0.001746914	0.01086337	-0.002993861
	0.01042886	-0.003834467	0.006391488	-0.001746914	-0.1082009	0.03613759	0.4233954	0.7904977
	0.00639282	-0.001748751	0.01086337	-0.002993861	0.4233954	0.7904977	-0.1068261	0.03910932
3.3e+08	-0.09450915	0.04728692	0.5413752	0.7139704	0.00826858	-0.00410186	0.006089361	-0.003127138
	0.5413752	0.7139704	-0.09301777	0.04962573	0.006088701	-0.003125231	0.008785078	-0.003373007
	0.00826858	-0.00410186	0.006088701	-0.003125231	-0.09447723	0.04751899	0.5435345	0.7122236
	0.006089361	-0.003127138	0.008785078	-0.003373007	0.5435345	0.7122236	-0.0927994	0.05012359
3.4e+08	-0.07803316	0.05376133	0.6479999	0.6180074	0.006101962	-0.003657575	0.005432772	-0.004395051
	0.6479999	0.6180074	-0.07639869	0.05569647	0.005432688	-0.004393359	0.006656459	-0.003062706
	0.006101962	-0.003657575	0.005432688	-0.004393359	-0.07798993	0.05400366	0.6499034	0.6158802
	0.005432772	-0.004395051	0.006656459	-0.003062706	0.6499034	0.6158802	-0.07615519	0.05615583
3.5e+08	-0.06046012	0.05471707	0.738178	0.5061647	0.004156773	-0.002528669	0.004484916	-0.005446365
	0.738178	0.5061647	-0.05883479	0.05621589	0.004485187	-0.00544509	0.004699246	-0.002075026
	0.004156773	-0.002528669	0.004485187	-0.00544509	-0.06040434	0.0549662	0.7397586	0.5036955
	0.004484916	-0.005446365	0.004699246	-0.002075026	0.7397586	0.5036955	-0.05858318	0.05663052
3.6e+08	-0.0435769	0.05007818	0.8094522	0.3811178	0.002645997	-0.0008146288	0.003342278	-0.006210742
	0.8094522	0.3811178	-0.04211991	0.05115877	0.003342614	-0.006209948	0.003125452	-0.0004929248
	0.002645997	-0.0008146288	0.003342614	-0.006209948	-0.04350843	0.05033031	0.8106485	0.3783569
	0.003342278	-0.006210742	0.003125452	-0.0004929248	0.8106485	0.3783569	-0.04187881	0.05152817
3.7e+08	-0.02911525	0.040337	0.8597606	0.2459913	0.001743798	0.001317528	0.002116298	-0.006664804
	0.8597606	0.2459913	-0.02797585	0.04106936	0.002116413	-0.006664398	0.002113687	0.00153297
	0.001743798	0.001317528	0.002116413	-0.006664398	-0.0290352	0.0405883	0.8605191	0.2429997
	0.002116298	-0.006664804	0.002113687	0.00153297	0.8605191	0.2429997	-0.02776355	0.04139914
3.8e+08	-0.01857116	0.02651553	0.8875547	0.1043103	0.001562309	0.003647285	0.0009104527	-0.006832948
	0.8875547	0.1043103	-0.0178716	0.02701703	0.0009101476	-0.006832697	0.001785764	0.003796625
	0.001562309	0.003647285	0.0009101476	-0.006832697	-0.01848191	0.02676258	0.8878319	0.1011589
	0.0009104527	-0.006832948	0.001785764	0.003796625	0.8878319	0.1011589	-0.01770408	0.02731862
3.9e+08	-0.01304148	0.01006731	0.8919128	-0.04009295	0.002133565	0.005923984	-0.0002005283	-0.006777105
	0.8919128	-0.04009295	-0.01286187	0.01049236	-0.0002013072	-0.006776694	0.00218787	0.006058296
	0.002133565	0.005923984	-0.0002013072	-0.006776694	-0.01294657	0.01030751	0.8916767	-0.04332529
	-0.0002005283	-0.006777105	0.00218787	0.006058296	0.8916767	-0.04332529	-0.01275097	0.01078212
4e+08	-0.01309963	-0.007273627	0.8726276	-0.1832159	0.003401051	0.00789725	-0.001183988	-0.006577598
	0.8726276	-0.1832159	-0.0134668	-0.006748738	-0.001185119	-0.006576712	0.003280825	0.008073572
	0.003401051	0.00789725	-0.001185119	-0.006576712	-0.01300348	-0.007041624	0.8718594	-0.186444
	-0.001183988	-0.006577598	0.003280825	0.008073572	0.8718594	-0.186444	-0.01341869	-0.00645101
4.1e+08	-0.01872909	-0.02368026	0.83025	-0.3210533	0.005223991	0.009349797	-0.002051492	-0.006309882
	0.83025	-0.3210533	-0.01961096	-0.02287594	-0.002052696	-0.006308296	0.004942651	0.009625257
	0.005223991	0.009349797	-0.002052696	-0.006308296	-0.01863654	-0.02345621	0.8289453	-0.324188
	-0.002051492	-0.006309882	0.004942651	0.009625257	0.8289453	-0.324188	-0.01962519	-0.02254897
4.2e+08	-0.02932569	-0.03743314	0.7660777	-0.4497764	0.007394743	0.01012655	-0.002849099	-0.006023395
	0.7660777	-0.4497764	-0.03063228	-0.0361863	-0.002849998	-0.006021044	0.006983973	0.01055216
	0.007394743	0.01012655	-0.002849998	-0.006021044	-0.02924141	-0.03721508	0.7642472	-0.452727
	-0.002849099	-0.006023395	0.006983973	0.01055216	0.7642472	-0.452727	-0.03070148	-0.03580953
4.3e+08	-0.04376914	-0.0471073	0.6820876	-0.5659001	0.0096665	0.01015444	-0.003638446	-0.005728289
	0.6820876	-0.5659001	-0.04536025	-0.04528991	-0.003638653	-0.005725301	0.009173649	0.01076928
	0.0096665	0.01015444	-0.003638653	-0.005725301	-0.043697	-0.04689162	0.6797578	-0.5685769
	-0.003638446	-0.005728289	0.009173649	0.01076928	0.6797578	-0.5685769	-0.04547058	-0.04484578
4.4e+08	-0.06055306	-0.05172095	0.5808234	-0.6664167	0.01178596	0.009449391	-0.004473971	-0.005393534
	0.5808234	-0.6664167	-0.06225187	-0.04925527	-0.004473185	-0.005390218	0.01126958	0.0102758
	0.01178596	0.009449392	-0.004473185	-0.005390218	-0.06049552	-0.05150278	0.5780363	-0.6687339
	-0.004473971	-0.005393534	0.01126958	0.0102758	0.5780363	-0.6687339	-0.06238419	-0.04873122
4.5e+08	-0.07795405	-0.05082893	0.4652543	-0.7488835	0.01352486	0.008110167	-0.005382533	-0.004956568
	0.4652543	-0.7488835	-0.07956512	-0.0476973	-0.005380618	-0.004953355	0.01304881	0.009150671
	0.01352486	0.008110167	-0.005380618	-0.004953355	-0.07791175	-0.05060268	0.4620668	-0.7507622
	-0.005382533	-0.004956568	0.01304881	0.009150671	0.4620668	-0.7507622	-0.07969678	-0.04708737
4.6e+08	-0.09421662	-0.04455311	0.3386278	-0.8114604	0.01470518	0.006301623	-0.006350663	-0.004341493
	0.3386278	-0.8114604	-0.09554618	-0.04080147	-0.006347692	-0.004338847	0.01433187	0.007537912
	0.01470518	0.006301623	-0.006347692	-0.004338847	-0.09418822	-0.04431317	0.3351109	-0.8128311
	-0.006350663	-0.004341493	0.01433187	0.007537912	0.3351109	-0.8128311	-0.09565332	-0.04010722
4.7e+08	-0.1077314	-0.03355203	0.2043365	-0.8529022	0.01521511	0.004231785	-0.007322291	-0.003480853
	0.2043365	-0.8529022	-0.1086077	-0.02928668	-0.007318536	-0.003479169	0.01499877	0.005625985
	0.01521511	0.004231785	-0.007318536	-0.003479169	-0.1077137	-0.03329353	0.2005728	-0.8537073
	-0.007322291	-0.003480853	0.01499877	0.005625985	0.2005728	-0.8537073	-0.1086677	-0.02851732
4.8e+08	-0.1171884	-0.01893919	0.0658098	-0.8725217	0.01501547	0.002127228	-0.008206955	-0.002335587
	0.0658098	-0.8725217	-0.1174799	-0.01431724	-0.008202841	-0.002335107	0.0149961	0.003625349
	0.01501547	0.002127228	-0.008202841	-0.002335107	-0.1171766	-0.01865855	0.06189229	-0.8727175
	-0.008206955	-0.002335587	0.0149961	0.003625349	0.06189229	-0.8727175	-0.117474	-0.01348893
4.9e+08	-0.1216938	-0.002163086	-0.0735602	-0.8701368	0.01413814	0.0002102398	-0.008896096	-0.0009087673
	-0.0735602	-0.8701368	-0.1213239	0.002622325	-0.00889211	-0.0009095254	0.01433684	0.001747442
	0.01413814	0.0002102398	-0.00889211	-0.0009095254	-0.1216822	-0.001858495	-0.0775313	-0.8696952
	-0.008896096	-0.0009087673	0.01433684	0.001747442	-0.0775313	-0.8696952	-0.121239	0.003487873
5e+08	-0.1208432	0.01513653	-0.2104646	-0.8460195	0.01267886	-0.001320466	-0.009283604	0.000749518
	-0.2104646	-0.8460195	-0.1197993	0.01987484	-0.0092802	0.0007477023	0.01309511	0.0001866505
	0.01267886	-0.001320466	-0.0092802	0.0007477023	-0.1208259	0.01546494	-0.2143843	-0.8449292
	-0.009283604	0.000749518	0.01309511	0.0001866505	-0.2143843	-0.8449292	-0.1196299	0.02075253
5.1e+08	-0.1147512	0.03128339	-0.3417017	-0.8008586	0.01078655	-0.002305192	-0.009286305	0.002546794
	-0.3417017	-0.8008586	-0.1130877	0.03576739	-0.009283806	0.002544279	0.01139771	-0.0008945473
	0.01078655	-0.002305192	-0.009283806	0.002544279	-0.1147224	0.03163358	-0.3454629	-0.7991256
