!$
! Info: Touchstone file created by Circ.  Input file=Tx_10in_Rx_100ohms_TxVia_35mils_RxVia_45mils.circ
!$
# Hz S RI R 50
0	0.01042054	1.318603e-25	-5.384854e-05	-5.158785e-26	7.401904e-05	1.957718e-23	-5.384808e-05	-5.60878e-26
	-5.384856e-05	-4.962045e-26	0.01041707	1.543833e-25	-5.384744e-05	-4.331886e-26	7.267327e-05	2.356907e-23
	7.454217e-05	1.983204e-23	-5.384741e-05	-4.661051e-26	0.01042855	1.287214e-25	-5.384767e-05	3.861637e-26
	-5.384809e-05	-5.472186e-26	7.082512e-05	2.368511e-23	-5.384769e-05	4.13066e-26	0.01043017	1.446498e-25
1e+07	0.0148926	0.006531778	-2.786722e-06	-1.043226e-05	0.0003029954	0.001864122	-2.34515e-06	-1.445604e-05
	-2.786723e-06	-1.043226e-05	0.01534751	0.006564045	-1.509838e-06	-3.022977e-06	0.0006534847	0.001903356
	0.0003030194	0.001864123	-1.509838e-06	-3.022977e-06	0.01435792	0.006835832	-3.491049e-06	-4.013871e-06
	-2.34515e-06	-1.445604e-05	0.000653424	0.001903365	-3.491049e-06	-4.013871e-06	0.01520928	0.006588831
2e+07	0.019601	0.009388782	-4.951163e-06	3.173713e-07	0.0008706522	0.003678429	-1.940286e-06	-5.182134e-06
	-4.951163e-06	3.173713e-07	0.01997097	0.009281557	-1.981233e-05	-2.147495e-05	0.001092836	0.003892809
	0.0008706605	0.003678414	-1.981233e-05	-2.147495e-05	0.0195103	0.01005084	-2.41675e-05	-2.103565e-05
	-1.940287e-06	-5.182134e-06	0.001092827	0.003892844	-2.41675e-05	-2.103565e-05	0.01988045	0.009378971
3e+07	0.02372024	0.01026087	-8.155704e-06	-1.008168e-06	0.001778708	0.005294695	-1.831066e-06	-2.83468e-06
	-8.155704e-06	-1.008168e-06	0.0240061	0.0101143	-3.528603e-05	-2.12219e-05	0.001903316	0.005570797
	0.001778709	0.005294692	-3.528603e-05	-2.12219e-05	0.02397692	0.01096483	-3.954194e-05	-2.012535e-05
	-1.831066e-06	-2.83468e-06	0.001903315	0.005570802	-3.954194e-05	-2.012535e-05	0.02395675	0.01024019
4e+07	0.02747106	0.01004017	-1.057784e-05	-3.416933e-07	0.002981187	0.00667392	-1.673805e-06	-1.563727e-06
	-1.057784e-05	-3.416934e-07	0.02766987	0.009888139	-4.72697e-05	-1.532246e-05	0.003049197	0.006982965
	0.002981189	0.006673921	-4.72697e-05	-1.532246e-05	0.02800895	0.01067325	-5.136088e-05	-1.365305e-05
	-1.673805e-06	-1.563727e-06	0.003049192	0.006982963	-5.136088e-05	-1.365305e-05	0.02765788	0.01002763
5e+07	0.03085374	0.008969791	-1.230037e-05	1.302716e-06	0.00442121	0.007767075	-1.450159e-06	-7.232939e-07
	-1.230037e-05	1.302715e-06	0.03096374	0.008837485	-5.610402e-05	-6.137984e-06	0.004586614	0.008016083
	0.004421212	0.007767076	-5.610402e-05	-6.137984e-06	0.03161112	0.009461954	-5.997186e-05	-3.936348e-06
	-1.450159e-06	-7.232939e-07	0.00458661	0.008016081	-5.997186e-05	-3.936348e-06	0.03098502	0.008980668
6e+07	0.03381822	0.007196558	-1.334657e-05	3.51778e-06	0.00603387	0.008535625	-1.165821e-06	-1.285351e-07
	-1.334657e-05	3.51778e-06	0.03384233	0.007108026	-6.187993e-05	5.184866e-06	0.006260806	0.008709575
	0.006033868	0.008535625	-6.187993e-05	5.184866e-06	0.03473335	0.007501067	-6.546682e-05	7.890026e-06
	-1.165821e-06	-1.28535e-07	0.006260809	0.008709575	-6.546682e-05	7.890026e-06	0.03389216	0.007247476
7e+07	0.0363022	0.00484101	-1.371677e-05	6.071736e-06	0.007762084	0.008942257	-8.314796e-07	2.87748e-07
	-1.371677e-05	6.071736e-06	0.03624797	0.004818448	-6.455191e-05	1.79008e-05	0.008004004	0.009047322
	0.007762077	0.008942258	-6.455191e-05	1.79008e-05	0.03731243	0.004928111	-6.78253e-05	2.108343e-05
	-8.314793e-07	2.87748e-07	0.008004013	0.009047319	-6.78253e-05	2.108343e-05	0.036321	0.004948498
8e+07	0.03824689	0.002018656	-1.339755e-05	8.807809e-06	0.009515647	0.008986232	-4.659976e-07	5.531748e-07
	-1.339755e-05	8.807809e-06	0.0381261	0.002081759	-6.402361e-05	3.144811e-05	0.009745167	0.009025322
	0.00951564	0.008986234	-6.402361e-05	3.144811e-05	0.03928847	0.001872387	-6.693294e-05	3.509135e-05
	-4.659974e-07	5.531747e-07	0.009745178	0.009025316	-6.693294e-05	3.509135e-05	0.03821635	0.002198261
9e+07	0.03960527	-0.001153176	-1.234606e-05	1.162093e-05	0.01122027	0.008673438	-9.223061e-08	6.800415e-07
	-1.234606e-05	1.162093e-05	0.0394339	-0.0009875581	-6.003321e-05	4.543394e-05	0.01141244	0.008652555
	0.01122026	0.008673441	-6.003321e-05	4.543394e-05	0.04061168	-0.00153787	-6.250454e-05	4.952779e-05
	-9.22304e-08	6.800414e-07	0.01141244	0.00865255	-6.250454e-05	4.952779e-05	0.03953474	-0.0008873931
1e+08	0.04035883	-0.004548015	-1.021584e-05	1.455732e-05	0.01280974	0.008025536	2.67332e-07	6.631912e-07
	-1.021584e-05	1.455732e-05	0.04015814	-0.004265531	-5.087325e-05	6.017761e-05	0.01293027	0.00794801
	0.01280974	0.008025536	-5.087325e-05	6.017761e-05	0.04123968	-0.005177226	-5.278532e-05	6.474143e-05
	2.67332e-07	6.631912e-07	0.01293027	0.00794801	-5.278532e-05	6.474143e-05	0.04026097	-0.004183933
1.1e+08	0.04048925	-0.008141734	-7.050004e-06	1.57126e-05	0.01421759	0.007050967	4.76954e-07	5.982127e-07
	-7.050004e-06	1.57126e-05	0.04028583	-0.007742957	-3.649045e-05	6.656656e-05	0.01423544	0.006989927
	0.01421759	0.007050967	-3.649045e-05	6.656656e-05	0.04116081	-0.008873477	-3.765547e-05	7.134922e-05
	4.76954e-07	5.982127e-07	0.01423544	0.006989927	-3.765547e-05	7.134922e-05	0.04038326	-0.007671789
1.2e+08	0.03991685	-0.01173947	-6.211922e-06	1.553473e-05	0.01536483	0.005812713	4.578944e-07	4.972896e-07
	-6.211922e-06	1.553473e-05	0.03972764	-0.01122432	-2.504309e-05	6.957474e-05	0.01531294	0.005797788
	0.01536483	0.005812713	-2.504309e-05	6.957474e-05	0.04042198	-0.01251802	-2.857447e-05	7.323608e-05
	4.578944e-07	4.972896e-07	0.01531294	0.005797788	-2.857447e-05	7.323608e-05	0.03981957	-0.01116033
1.3e+08	0.03868401	-0.01520465	-5.292518e-06	1.548862e-05	0.01621067	0.004372823	3.836641e-07	4.387354e-07
	-5.292518e-06	1.548862e-05	0.03852873	-0.01457567	-2.137266e-05	6.903146e-05	0.01611078	0.004418481
	0.01621067	0.004372823	-2.137266e-05	6.903146e-05	0.03904104	-0.01599888	-2.466695e-05	7.286739e-05
	3.836641e-07	4.387354e-07	0.01611078	0.004418481	-2.466695e-05	7.286739e-05	0.03861376	-0.01451646
1.4e+08	0.03683852	-0.01841915	-4.307558e-06	1.545842e-05	0.0167229	0.00279809	3.092263e-07	3.990909e-07
	-4.307558e-06	1.545842e-05	0.03673711	-0.01768329	-1.734473e-05	6.866102e-05	0.01659512	0.002912038
	0.0167229	0.00279809	-1.734473e-05	6.866102e-05	0.0370625	-0.01920536	-2.038366e-05	7.267007e-05
	3.092263e-07	3.990909e-07	0.01659512	0.002912038	-2.038366e-05	7.267007e-05	0.03681411	-0.01762644
1.5e+08	0.03444422	-0.02127711	-3.285345e-06	1.541427e-05	0.01688281	0.001159992	2.357454e-07	3.793439e-07
	-3.285345e-06	1.541427e-05	0.03441545	-0.02044601	-1.310037e-05	6.829632e-05	0.01674615	0.001344589
	0.01688281	0.001159992	-1.310037e-05	6.829632e-05	0.03454958	-0.0220363	-1.586279e-05	7.247256e-05
	2.357454e-07	3.793439e-07	0.01674615	0.001344589	-1.586279e-05	7.247256e-05	0.03448376	-0.02038908
1.6e+08	0.03158052	-0.02368668	-2.241464e-06	1.533926e-05	0.01668633	-0.0004679421	1.655965e-07	3.799432e-07
	-2.241464e-06	1.533926e-05	0.03164073	-0.02277645	-8.716771e-06	6.784002e-05	0.01655835	-0.0002149656
	0.01668633	-0.0004679422	-8.716771e-06	6.784002e-05	0.03158179	-0.0244035	-1.118355e-05	7.217261e-05
	1.655965e-07	3.799432e-07	0.01655835	-0.0002149656	-1.118355e-05	7.217261e-05	0.03170016	-0.0227171
1.7e+08	0.02834051	-0.02557222	-1.185814e-06	1.522271e-05	0.01614425	-0.002013073	1.019353e-07	4.006955e-07
	-1.185814e-06	1.522271e-05	0.02850252	-0.02460292	-4.246344e-06	6.722855e-05	0.01604048	-0.00169801
	0.01614425	-0.002013073	-4.246344e-06	6.722855e-05	0.02825246	-0.02623443	-6.400117e-06	7.17027e-05
	1.019353e-07	4.006955e-07	0.01604048	-0.00169801	-6.400117e-06	7.17027e-05	0.0285533	-0.02453895
1.8e+08	0.02482834	-0.0268764	-1.254167e-07	1.505711e-05	0.0152818	-0.00340662	4.836247e-08	4.406088e-07
	-1.254167e-07	1.505711e-05	0.02510042	-0.02587119	2.70956e-07	6.641763e-05	0.01521516	-0.003039153
	0.0152818	-0.00340662	2.70956e-07	6.641763e-05	0.02466597	-0.02747456	-1.554238e-06	7.101524e-05
	4.836247e-08	4.406088e-07	0.01521516	-0.003039153	-1.554238e-06	7.101524e-05	0.02514318	-0.02580061
1.9e+08	0.02115601	-0.02756183	9.354654e-07	1.48368e-05	0.01413759	-0.004586502	8.631147e-09	4.977674e-07
	9.354654e-07	1.48368e-05	0.02154118	-0.02654597	4.801336e-06	6.537499e-05	0.01411789	-0.004178988
	0.01413759	-0.004586502	4.801336e-06	6.537499e-05	0.02093439	-0.02808911	3.318353e-06	7.007513e-05
	8.631147e-09	4.977674e-07	0.01411789	-0.004178988	3.318353e-06	7.007513e-05	0.02157683	-0.02646703
2e+08	0.01743977	-0.02761223	1.991323e-06	1.455655e-05	0.012762	-0.005499908	-1.379126e-08	5.693765e-07
	1.991323e-06	1.455655e-05	0.0179353	-0.02661186	9.314032e-06	6.407653e-05	0.01279549	-0.005066593
	0.012762	-0.005499908	9.314032e-06	6.407653e-05	0.01717387	-0.02806426	8.184733e-06	6.88558e-05
	-1.379126e-08	5.693765e-07	0.01279549	-0.005066593	8.184733e-06	6.88558e-05	0.01796505	-0.02652308
2.1e+08	0.01379631	-0.02703287	3.035708e-06	1.421219e-05	0.01121502	-0.006105492	-1.592238e-08	6.518204e-07
	3.035708e-06	1.421219e-05	0.01439352	-0.02607368	1.377933e-05	6.250433e-05	0.01130415	-0.005661656
	0.01121502	-0.006105492	1.377933e-05	6.250433e-05	0.01350082	-0.02740756	1.301278e-05	6.733729e-05
	-1.592238e-08	6.518204e-07	0.01130415	-0.005661656	1.301278e-05	6.733729e-05	0.01441877	-0.02597388
2.2e+08	0.01033889	-0.02585029	4.06303e-06	1.380041e-05	0.009563749	-0.006375088	4.528552e-09	7.407512e-07
	4.06303e-06	1.380041e-05	0.01102323	-0.02495622	1.816763e-05	6.064551e-05	0.009707083	-0.005936166
	0.009563749	-0.006375088	1.816763e-05	6.064551e-05	0.010028	-0.02614776	1.777026e-05	6.550503e-05
	4.528553e-09	7.407512e-07	0.009707083	-0.005936166	1.777026e-05	6.550503e-05	0.01104557	-0.02484451
2.3e+08	0.007173486	-0.02411132	5.067148e-06	1.331852e-05	0.007879514	-0.006294874	4.893055e-08	8.313021e-07
	5.067148e-06	1.331852e-05	0.007924931	-0.02330323	2.244886e-05	5.849164e-05	0.008071809	-0.005875578
	0.007879514	-0.006294874	2.244886e-05	5.849164e-05	0.006860693	-0.02433374	2.242427e-05	6.334934e-05
	4.893055e-08	8.313021e-07	0.008071809	-0.005875578	2.242427e-05	6.334934e-05	0.007946053	-0.02317908
2.4e+08	0.004395159	-0.02188143	6.041259e-06	1.276471e-05	0.006234877	-0.005865926	1.175979e-07	9.183323e-07
	6.041259e-06	1.276471e-05	0.005188873	-0.02117584	2.659211e-05	5.60389e-05	0.006467364	-0.005479403
	0.006234877	-0.005865926	2.659211e-05	5.60389e-05	0.004093024	-0.02203286	2.694089e-05	6.086563e-05
	1.175979e-07	9.183323e-07	0.006467364	-0.005479403	2.694089e-05	6.086563e-05	0.005210537	-0.02103907
2.5e+08	0.002084836	-0.01924228	6.977939e-06	1.213808e-05	0.004700552	-0.005104142	2.097429e-07	9.966848e-07
	6.977939e-06	1.213808e-05	0.002892133	-0.01865037	3.056591e-05	5.328779e-05	0.004961373	-0.004761212
	0.004700552	-0.005104142	3.056591e-05	5.328779e-05	0.001804782	-0.01932855	3.128558e-05	5.805408e-05
	2.097429e-07	9.966848e-07	0.004961373	-0.004761212	3.128558e-05	5.805408e-05	0.002916087	-0.01850116
2.6e+08	0.0003065174	-0.01628885	7.869229e-06	1.143889e-05	0.003342416	-0.004039536	3.234905e-07	1.061457e-06
	7.869229e-06	1.143889e-05	0.001096037	-0.01581557	3.433836e-05	5.024345e-05	0.003617217	-0.003748038
	0.003342416	-0.004039536	3.433836e-05	5.024345e-05	5.86274e-05	-0.01631734	3.54234e-05	5.492002e-05
	3.234905e-07	1.061457e-06	0.003617217	-0.003748038	3.54234e-05	5.492002e-05	0.001123946	-0.01565447
2.7e+08	-0.000894857	-0.01312599	8.706813e-06	1.06687e-05	0.002218726	-0.002714926	4.559712e-07	1.108247e-06
	8.706813e-06	1.06687e-05	-0.0001558046	-0.01276947	3.787766e-05	4.691556e-05	0.002491385	-0.00247921
	0.002218726	-0.002714926	3.787766e-05	4.691556e-05	-0.001102039	-0.01310542	3.931956e-05	5.147379e-05
	4.559712e-07	1.108247e-06	0.002491385	-0.00247921	3.931956e-05	5.147379e-05	-0.0001224282	-0.01259737
2.8e+08	-0.001494895	-0.009864634	9.482265e-06	9.830486e-06	0.001377674	-0.001184089	6.034645e-07	1.133372e-06
	9.482265e-06	9.830486e-06	-0.0008388425	-0.009615874	4.115267e-05	4.331865e-05	0.001631117	-0.001004676
	0.001377674	-0.001184089	4.115267e-05	4.331865e-05	-0.001654527	-0.009804817	4.294018e-05	4.7731e-05
	6.034645e-07	1.133372e-06	0.001631117	-0.001004676	4.294018e-05	4.7731e-05	-0.0007987048	-0.009433972
2.9e+08	-0.001490477	-0.006617818	1.01873e-05	8.928672e-06	0.0008553798	0.0004905468	7.616021e-07	1.134033e-06
	1.01873e-05	8.928672e-06	-0.0009482578	-0.006460736	4.413354e-05	3.947189e-05	0.001072457	0.0006171285
	0.0008553798	0.0004905468	4.413354e-05	3.947189e-05	-0.001597558	-0.006529383	4.625297e-05	4.371229e-05
	7.616021e-07	1.134033e-06	0.001072457	0.0006171285	4.625297e-05	4.371229e-05	-0.0009003543	-0.006270481
3e+08	-0.0008997021	-0.00349661	1.081408e-05	7.969119e-06	0.0006743983	0.002240571	9.255966e-07	1.108423e-06
	1.081408e-05	7.969119e-06	-0.0004989232	-0.003408392	4.679241e-05	3.539881e-05	0.0008387833	0.002321744
	0.0006743983	0.002240571	4.679241e-05	3.539881e-05	-0.000951173	-0.003390716	4.922796e-05	3.944292e-05
	9.255966e-07	1.108423e-06	0.0008387833	0.002321744	4.922796e-05	3.944292e-05	-0.0004425844	-0.003211429
3.1e+08	0.0002389409	-0.0006061588	1.13555e-05	6.959072e-06	0.0008428153	0.003994493	1.090482e-06	1.055774e-06
	1.13555e-05	6.959072e-06	0.0004753423	-0.0005579425	4.910422e-05	3.11273e-05	0.0009398736	0.004041406
	0.0008428153	0.003994493	4.910422e-05	3.11273e-05	0.0002441404	-0.0004941699	5.18384e-05	3.495266e-05
	1.090482e-06	1.055774e-06	0.0009398737	0.004041406	5.18384e-05	3.495266e-05	0.0005404118	-0.000356032
3.2e+08	0.00186813	0.001958035	1.180545e-05	5.906964e-06	0.001353955	0.005680759	1.251359e-06	9.763352e-07
	1.180545e-05	5.906964e-06	0.001923183	0.00200017	5.104723e-05	2.668886e-05	0.001371554	0.005707869
	0.001353956	0.005680759	5.104723e-05	2.668886e-05	0.001929054	0.002064881	5.406121e-05	3.027496e-05
	1.251359e-06	9.763352e-07	0.001371554	0.005707869	5.406121e-05	3.027496e-05	0.001996885	0.002205233
3.3e+08	0.003913957	0.004113466	1.2159e-05	4.822226e-06	0.002186712	0.007230758	1.403613e-06	8.712958e-07
	1.2159e-05	4.822226e-06	0.003777736	0.004187232	5.260362e-05	2.211812e-05	0.002115924	0.007255252
	0.002186712	0.007230758	5.260362e-05	2.211812e-05	0.004027702	0.004204384	5.58776e-05	2.544633e-05
	1.403613e-06	8.712958e-07	0.002115924	0.007255252	5.58776e-05	2.544633e-05	0.003859575	0.004393706
3.4e+08	0.006288757	0.005793469	1.241268e-05	3.715048e-06	0.003306477	0.008581681	1.543099e-06	7.426637e-07
	1.241268e-05	3.715048e-06	0.005959188	0.005938885	5.37601e-05	1.745229e-05	0.003142151	0.008622748
	0.003306477	0.008581681	5.37601e-05	1.745229e-05	0.006450561	0.00585846	5.727359e-05	2.05057e-05
	1.543099e-06	7.426637e-07	0.003142151	0.008622748	5.727359e-05	2.05057e-05	0.00604829	0.006145167
3.5e+08	0.008894417	0.00694946	1.256446e-05	2.596073e-06	0.004666627	0.009679122	1.66629e-06	5.931001e-07
	1.256446e-05	2.596073e-06	0.008377762	0.007207196	5.450808e-05	1.273019e-05	0.004407795	0.009757116
	0.004666627	0.009679122	5.450808e-05	1.273019e-05	0.009097818	0.006979617	5.824009e-05	1.549346e-05
	1.66629e-06	5.931001e-07	0.004407795	0.009757116	5.824009e-05	1.549346e-05	0.008472914	0.007411902
3.6e+08	0.01162603	0.007552493	1.261387e-05	1.476125e-06	0.006210494	0.01047932	1.770355e-06	4.257402e-07
	1.261387e-05	1.476125e-06	0.01093703	0.007962125	5.484399e-05	7.991607e-06	0.005860591	0.01061484
	0.006210494	0.01047932	5.484399e-05	7.991607e-06	0.01186308	0.007540287	5.877313e-05	1.045068e-05
	1.770355e-06	4.257402e-07	0.005860591	0.01061484	5.877313e-05	1.045068e-05	0.01103673	0.008164162
3.7e+08	0.01437577	0.007594101	1.256198e-05	3.658757e-07	0.00787374	0.01095093	1.853223e-06	2.439934e-07
	1.256198e-05	3.658757e-07	0.01353742	0.008192331	5.476923e-05	3.276337e-06	0.007440633	0.0111639
	0.00787374	0.01095093	5.476923e-05	3.276337e-06	0.01463729	0.007533628	5.887368e-05	5.418318e-06
	1.853223e-06	2.439934e-07	0.007440633	0.0111639	5.887368e-05	5.418318e-06	0.01363994	0.008390955
3.8e+08	0.01703683	0.007086365	1.241127e-05	-7.243956e-07	0.009587032	0.01107632	1.913548e-06	5.136527e-08
	1.241127e-05	-7.243956e-07	0.01607976	0.007905312	5.429001e-05	-1.376541e-06	0.009082842	0.011385
	0.009587032	0.01107632	5.429001e-05	-1.376541e-06	0.01731272	0.006973547	5.854744e-05	4.363948e-07
	1.913548e-06	5.136527e-08	0.009082842	0.011385	5.854744e-05	4.363948e-07	0.01618323	0.008100171
3.9e+08	0.01950725	0.006061258	1.216552e-05	-1.785044e-06	0.0112789	0.01085227	1.950668e-06	-1.487084e-07
	1.216552e-05	-1.785044e-06	0.0184688	0.007126864	5.341706e-05	-5.929412e-06	0.01071963	0.0112724
	0.0112789	0.01085227	5.341706e-05	-5.929412e-06	0.01978684	0.005893986	5.780452e-05	-4.456591e-06
	1.950668e-06	-1.487084e-07	0.01071963	0.0112724	5.780452e-05	-4.456591e-06	0.01857132	0.007318022
4e+08	0.02169363	0.004569253	1.182957e-05	-2.807247e-06	0.0128787	0.01029006	1.964504e-06	-3.529975e-07
	1.182957e-05	-2.807247e-06	0.02061656	0.005899911	5.216525e-05	-1.034675e-05	0.01228368	0.01083404
	0.0128787	0.01029006	5.216525e-05	-1.034675e-05	0.02196602	0.00434748	5.66589e-05	-9.224243e-06
	1.964504e-06	-3.529975e-07	0.01228368	0.01083404	5.66589e-05	-9.224243e-06	0.02071623	0.006087851
4.1e+08	0.02351437	0.002677314	1.140918e-05	-3.783138e-06	0.01431947	0.009415064	1.955453e-06	-5.585756e-07
	1.140918e-05	-3.783138e-06	0.02244527	0.004282739	5.055305e-05	-1.459565e-05	0.01371063	0.01009125
	0.01431947	0.009415064	5.055305e-05	-1.459565e-05	0.02376882	0.002403059	5.512804e-05	-1.383269e-05
	1.955453e-06	-5.585756e-07	0.01371063	0.01009125	5.512804e-05	-1.383269e-05	0.02254034	0.004468355
4.2e+08	0.02490253	0.000466258	1.091074e-05	-4.705884e-06	0.01554072	0.008265665	1.924253e-06	-7.628797e-07
	1.091074e-05	-4.705884e-06	0.02389007	0.002346716	4.860195e-05	-1.864617e-05	0.01494175	0.009077875
	0.01554072	0.008265665	4.860195e-05	-1.864617e-05	0.02512886	0.0001435678	5.323225e-05	-1.825088e-05
	1.924253e-06	-7.628797e-07	0.01494175	0.009077875	5.323225e-05	-1.825088e-05	0.02397899	0.002531273
4.3e+08	0.02580814	-0.001972303	1.034109e-05	-5.569699e-06	0.0164909	0.006891735	1.871856e-06	-9.637278e-07
	1.034109e-05	-5.569699e-06	0.02490111	0.0001735762	4.633588e-05	-2.247162e-05	0.01592627	0.007838874
	0.0164909	0.006891735	4.633588e-05	-2.247162e-05	0.02599707	-0.002337486	5.099413e-05	-2.245074e-05
	1.871856e-06	-9.637278e-07	0.01592627	0.007838874	5.099413e-05	-2.245074e-05	0.02498263	0.000358666
4.4e+08	0.02619985	-0.004539436	9.707294e-06	-6.369813e-06	0.01712951	0.005352604	1.799304e-06	-1.159302e-06
	9.707294e-06	-6.369813e-06	0.02544515	-0.002147625	4.378055e-05	-2.604857e-05	0.01662347	0.006428532
	0.01712951	0.005352604	4.378055e-05	-2.604857e-05	0.02634337	-0.004939453	4.843805e-05	-2.640717e-05
	1.799304e-06	-1.159302e-06	0.01662347	0.006428532	4.843805e-05	-2.640717e-05	0.02551837	-0.001960158
4.5e+08	0.02606592	-0.007132553	9.016478e-06	-7.102393e-06	0.01742883	0.003714666	1.707629e-06	-1.348095e-06
	9.016478e-06	-7.102393e-06	0.02550652	-0.004523794	4.096299e-05	-2.935691e-05	0.01700433	0.004908261
	0.01742883	0.003714666	4.096299e-05	-2.935691e-05	0.0261576	-0.007558294	4.558968e-05	-3.009807e-05
	1.707629e-06	-1.348095e-06	0.01700433	0.004908261	4.558968e-05	-3.009807e-05	0.02557095	-0.004331922
4.6e+08	0.02541449	-0.009649235	8.275685e-06	-7.764451e-06	0.01737508	0.002048681	1.597774e-06	-1.52884e-06
	8.275685e-06	-7.764451e-06	0.0250875	-0.006861177	3.791106e-05	-3.237952e-05	0.01705277	0.003344126
	0.01737508	0.002048681	3.791106e-05	-3.237952e-05	0.02544971	-0.01009044	4.247563e-05	-3.350413e-05
	1.597774e-06	-1.52884e-06	0.01705277	0.003344126	4.247563e-05	-3.350413e-05	0.02514308	-0.006662785
4.7e+08	0.02427308	-0.01199099	7.491781e-06	-8.353709e-06	0.01696902	0.0004268984	1.470524e-06	-1.700379e-06
	7.491781e-06	-8.353709e-06	0.02420803	-0.00906875	3.46533e-05	-3.510182e-05	0.01676628	0.001804174
	0.01696902	0.0004268984	3.46533e-05	-3.510182e-05	0.02424924	-0.01243661	3.912299e-05	-3.660839e-05
	1.470524e-06	-1.700379e-06	0.01676628	0.001804174	3.912299e-05	-3.660839e-05	0.02425511	-0.008861726
4.8e+08	0.02268751	-0.01406688	6.671411e-06	-8.868473e-06	0.01622605	-0.001079908	1.326574e-06	-1.861674e-06
