!$
! Info: Touchstone file created by Circ.  Input file=Tx_12in_Rx_93ohms_TxVia_35mils_RxVia_45mils.circ
!$
# Hz S RI R 50
0	0.01101888	1.533608e-25	0.9888403	-1.574717e-25	8.277793e-05	2.097698e-23	-8.085659e-05	2.048018e-21
	0.9888403	-1.60581e-25	0.01101774	1.793703e-25	-8.12255e-05	2.093286e-21	8.319632e-05	2.493563e-23
	8.093888e-05	2.154137e-23	-8.135189e-05	2.108892e-21	0.01103126	1.461883e-25	0.9888246	-1.493564e-25
	-8.12338e-05	2.09434e-21	8.134806e-05	2.505838e-23	0.9888246	-1.490702e-25	0.01103083	1.680659e-25
1e+07	0.01601298	-0.001477227	0.9754055	-0.1255373	0.0004425911	0.002217996	-0.0001568155	-6.952518e-05
	0.9754055	-0.1255373	0.01600266	-0.001477263	-0.0001568282	-6.950696e-05	0.0004384129	0.002219344
	0.0004425307	0.002218	-0.0001568849	-6.949266e-05	0.01569902	-0.0014732	0.9757063	-0.1256551
	-0.0001568723	-6.951088e-05	0.0004383522	0.002219354	0.9757063	-0.1256551	0.01568705	-0.001472716
2e+07	0.01824896	-0.007081061	0.9485158	-0.24434	0.001185602	0.004344155	-7.997608e-05	-0.0002073874
	0.9485158	-0.24434	0.01820915	-0.007074018	-8.00161e-05	-0.0002073598	0.001169863	0.004350219
	0.00118559	0.004344193	-8.00233e-05	-0.0002073172	0.01802157	-0.006968871	0.9486901	-0.2446757
	-7.998513e-05	-0.0002073437	0.001169854	0.004350254	0.9486901	-0.2446757	0.01797563	-0.006959522
3e+07	0.01796137	-0.0139042	0.9085661	-0.3574438	0.002467662	0.006099043	-7.21639e-05	-0.0002675536
	0.9085661	-0.3574438	0.01787643	-0.0138759	-7.225149e-05	-0.0002674623	0.002434672	0.006115534
	0.002467665	0.006099049	-7.224851e-05	-0.0002674564	0.01779965	-0.01377263	0.9086086	-0.3579001
	-7.216092e-05	-0.0002675472	0.002434672	0.00611554	0.9086086	-0.3579001	0.01770192	-0.01373799
4e+07	0.01561703	-0.02066057	0.8558547	-0.4641594	0.004162688	0.007427605	-0.0001064552	-0.0003075542
	0.8558547	-0.4641594	0.01547678	-0.02059215	-0.0001065612	-0.000307365	0.004109005	0.00746201
	0.004162683	0.0074276	-0.0001065685	-0.0003073677	0.01550648	-0.02053581	0.8557545	-0.4646962
	-0.000106463	-0.0003075574	0.004109	0.007462008	0.8557545	-0.4646962	0.01534547	-0.02045416
5e+07	0.01153578	-0.02674591	0.7911103	-0.5632226	0.006092872	0.008287591	-0.0001289058	-0.0003679642
	0.7911103	-0.5632226	0.01133678	-0.02661507	-0.0001289976	-0.0003676534	0.006017807	0.008348478
	0.006092868	0.008287589	-0.0001290029	-0.0003676532	0.01146239	-0.02664242	0.7908586	-0.5638062
	-0.0001289116	-0.0003679641	0.006017804	0.008348477	0.7908586	-0.5638062	0.01123435	-0.02648817
6e+07	0.006054988	-0.03173724	0.7152971	-0.6533624	0.008137624	0.008641884	-0.0001605217	-0.0004564746
	0.7152971	-0.6533624	0.005801673	-0.03152079	-0.0001605498	-0.0004560262	0.008043457	0.008737951
	0.008137628	0.008641885	-0.0001605456	-0.0004560281	0.006004788	-0.03166315	0.7148888	-0.6539608
	-0.000160517	-0.0004564765	0.00804346	0.00873795	0.7148888	-0.6539608	0.005715017	-0.03140971
7e+07	-0.0004501158	-0.03533542	0.6295583	-0.7333991	0.01017043	0.008482787	-0.0002216675	-0.0005698936
	0.6295583	-0.7333991	-0.0007455731	-0.0350119	-0.0002215686	-0.0005693143	0.01006233	0.008621947
	0.01017044	0.008482784	-0.0002215576	-0.000569324	-0.0004908416	-0.03529417	0.6289923	-0.7339807
	-0.0002216553	-0.0005699041	0.01006234	0.008621944	0.6289923	-0.7339807	-0.0008281642	-0.03491703
8e+07	-0.00757385	-0.03735224	0.5351816	-0.802288	0.01206699	0.007833164	-0.0003290607	-0.0006961534
	0.5351816	-0.802288	-0.007892425	-0.03690423	-0.0003287705	-0.0006954797	0.01195273	0.008021703
	0.01206701	0.007833157	-0.0003287598	-0.0006954962	-0.007618146	-0.03734349	0.5344618	-0.8028215
	-0.0003290489	-0.0006961714	0.01195274	0.008021696	0.5344618	-0.8028215	-0.007981012	-0.03682283
9e+07	-0.0148951	-0.03770572	0.4335689	-0.8591446	0.01371292	0.006745024	-0.000493183	-0.0008165757
	0.4335689	-0.8591446	-0.01521231	-0.03712173	-0.0004926508	-0.0008158734	0.0136023	0.006986855
	0.01371293	0.006745016	-0.0004926456	-0.0008158882	-0.01495518	-0.03772612	0.4327052	-0.8595996
	-0.0004931773	-0.000816592	0.01360231	0.006986849	0.4327052	-0.8595996	-0.01531538	-0.03704893
1e+08	-0.02197803	-0.03640924	0.3261829	-0.9032681	0.01501028	0.005295517	-0.0007159642	-0.0009081764
	0.3261829	-0.9032681	-0.02226573	-0.03568516	-0.0007151642	-0.0009075333	0.01491449	0.00559159
	0.01501028	0.005295517	-0.0007151642	-0.0009075333	-0.0220679	-0.03645402	0.325195	-0.9036141
	-0.0007159642	-0.0009081764	0.01491449	0.00559159	0.325195	-0.9036141	-0.02239306	-0.03561581
1.1e+08	-0.02846096	-0.03371905	0.2146178	-0.9339548	0.01588186	0.00358777	-0.0009898362	-0.0009520172
	0.2146178	-0.9339548	-0.0286885	-0.03286117	-0.0009887614	-0.0009515272	0.01581267	0.003935304
	0.01588186	0.00358777	-0.0009887614	-0.0009515272	-0.02858902	-0.03376553	0.2135275	-0.9341893
	-0.0009898362	-0.0009520172	0.01581267	0.003935304	0.2135275	-0.9341893	-0.02884402	-0.03277251
1.2e+08	-0.03411472	-0.02971332	0.1006204	-0.9510023	0.01628516	0.001733646	-0.001306032	-0.0009269234
	0.1006204	-0.9510023	-0.03425492	-0.02873407	-0.001304744	-0.0009266865	0.01625337	0.002126813
	0.01628516	0.001733646	-0.001304744	-0.0009266866	-0.0342745	-0.02974954	0.09943309	-0.9511072
	-0.001306032	-0.0009269234	0.01625337	0.002126813	0.09943309	-0.9511072	-0.03442725	-0.02861692
1.3e+08	-0.03862883	-0.02463444	-0.01421965	-0.954299	0.01620137	-0.0001481385	-0.001643213	-0.0008160847
	-0.01421965	-0.954299	-0.03865686	-0.02355437	-0.001641803	-0.0008161703	0.01621629	0.0002816221
	0.01620137	-0.0001481385	-0.001641803	-0.0008161703	-0.03881511	-0.02465155	-0.01548964	-0.9542545
	-0.001643213	-0.0008160847	0.01621629	0.0002816222	-0.01548964	-0.9542545	-0.03883701	-0.02340396
1.4e+08	-0.04179022	-0.01879338	-0.12829	-0.9439038	0.01564144	-0.001938219	-0.001975485	-0.0006108595
	-0.12829	-0.9439038	-0.04168637	-0.01764068	-0.001974065	-0.0006112987	0.01570996	-0.001483687
	0.01564144	-0.001938219	-0.001974065	-0.0006112987	-0.04199648	-0.01878447	-0.129624	-0.9436921
	-0.001975485	-0.0006108595	0.01570996	-0.001483687	-0.129624	-0.9436921	-0.04186532	-0.01745513
1.5e+08	-0.04347248	-0.01253824	-0.2400012	-0.9200564	0.01464467	-0.003524212	-0.00227492	-0.0003114329
	-0.2400012	-0.9200564	-0.04322461	-0.01134734	-0.002273604	-0.0003122152	0.01477044	-0.003058818
	0.01464467	-0.003524212	-0.002273604	-0.0003122152	-0.04369106	-0.01249854	-0.2413768	-0.919662
	-0.00227492	-0.0003114329	0.01477044	-0.003058818	-0.2413768	-0.919662	-0.04339363	-0.01112744
1.6e+08	-0.04363771	-0.006232249	-0.3478073	-0.8831722	0.01327594	-0.004807202	-0.002514604	7.307308e-05
	-0.3478073	-0.8831722	-0.04324324	-0.005041552	-0.002513497	7.199855e-05	0.01345881	-0.004346027
	0.01327594	-0.004807202	-0.002513497	7.199853e-05	-0.04386033	-0.006159188	-0.3491994	-0.8825828
	-0.002514604	7.307306e-05	0.01345881	-0.004346027	-0.3491994	-0.8825828	-0.04339443	-0.004790549
1.7e+08	-0.04233536	-0.0002327193	-0.4502249	-0.8338362	0.01162159	-0.005707278	-0.002671531	0.000525507
	-0.4502249	-0.8338362	-0.04180239	0.000918171	-0.002670714	0.0005242257	0.01185726	-0.005265508
	0.01162159	-0.005707278	-0.002670714	0.0005242256	-0.04255359	-0.000125881	-0.4516059	-0.8330429
	-0.002671531	0.000525507	0.01185726	-0.005265508	-0.4516059	-0.8330429	-0.04192921	0.001194975
1.8e+08	-0.03969685	0.005128752	-0.5458496	-0.7727946	0.009784193	-0.00616792	-0.002728993	0.001022498
	-0.5458496	-0.7727946	-0.03904448	0.006202083	-0.002728508	0.00102112	0.01006423	-0.005759705
	0.009784193	-0.00616792	-0.002728508	0.00102112	-0.03990258	0.005267734	-0.5471901	-0.7717927
	-0.002728993	0.001022498	0.01006423	-0.005759705	-0.5471901	-0.7717927	-0.03914222	0.006497793
1.9e+08	-0.03592627	0.009564076	-0.6333722	-0.7009466	0.007876559	-0.006159058	-0.002678168	0.001536934
	-0.6333722	-0.7009466	-0.03518409	0.01052702	-0.002678017	0.001535578	0.00818863	-0.005796381
	0.007876559	-0.006159058	-0.002678017	0.001535578	-0.03611211	0.009731717	-0.6346417	-0.6997353
	-0.002678168	0.001536934	0.00818863	-0.005796381	-0.6346417	-0.6997353	-0.03525013	0.01083372
2e+08	-0.0312876	0.01284378	-0.7115945	-0.6193334	0.00601516	-0.005678675	-0.002518769	0.002040788
	-0.7115945	-0.6193334	-0.03049421	0.01367129	-0.002518908	0.002039565	0.006343679	-0.005370313
	0.00601516	-0.005678675	-0.002518908	0.002039565	-0.03144722	0.01303498	-0.7127618	-0.6179162
	-0.002518769	0.002040788	0.006343679	-0.005370313	-0.7127618	-0.6179162	-0.03052819	0.01398064
2.1e+08	-0.02608889	0.01480874	-0.7794439	-0.529127	0.004313414	-0.004752881	-0.002258684	0.002507948
	-0.7794439	-0.529127	-0.02528983	0.01548594	-0.002259026	0.002506947	0.004640381	-0.004503538
	0.004313414	-0.004752881	-0.002259026	0.002506947	-0.02621731	0.01501705	-0.7804777	-0.527512
	-0.002258684	0.002507948	0.004640381	-0.004503538	-0.7804777	-0.527512	-0.02529365	0.01578977
2.2e+08	-0.02066443	0.01537793	-0.8359886	-0.4316173	0.002875061	-0.003434429	-0.001912677	0.002916708
	-0.8359886	-0.4316173	-0.01990937	0.01590195	-0.001913108	0.002915977	0.003181154	-0.003244109
	0.002875061	-0.003434429	-0.001913108	0.002915977	-0.02075827	0.01559587	-0.8368582	-0.429817
	-0.001912677	0.002916708	0.003181154	-0.003244109	-0.8368582	-0.429817	-0.01988703	0.01619282
2.3e+08	-0.01535561	0.01455185	-0.880451	-0.3281967	0.00178803	-0.001799711	-0.001500358	0.003251615
	-0.880451	-0.3281967	-0.01469516	0.01493284	-0.001500749	0.003251153	0.002053841	-0.001663383
	0.00178803	-0.001799711	-0.001500749	0.003251153	-0.01541327	0.01477128	-0.8811266	-0.3262281
	-0.001500358	0.003251615	0.002053841	-0.001663383	-0.8811266	-0.3262281	-0.01465252	0.01520459
2.4e+08	-0.01049163	0.01241151	-0.9122203	-0.2203429	0.001119125	5.565409e-05	-0.001043664	0.003504468
	-0.9122203	-0.2203429	-0.009973919	0.01267286	-0.001043896	0.003504221	0.001326474	0.0001480628
	0.001119125	5.565408e-05	-0.001043896	0.003504221	-0.01051341	0.01262401	-0.9126741	-0.2182275
	-0.001043664	0.003504468	0.001326474	0.0001480628	-0.9126741	-0.2182275	-0.009918296	0.01292095
2.5e+08	-0.006370979	0.009112816	-0.9308642	-0.1096002	0.0009098635	0.00202244	-0.0005642204	0.003674364
	-0.9308642	-0.1096002	-0.006038219	0.009290439	-0.0005641968	0.003674232	0.001043106	0.002085711
	0.0009098635	0.00202244	-0.0005641968	0.003674232	-0.006359168	0.009310117	-0.9310706	-0.1073635
	-0.0005642204	0.003674364	0.001043106	0.002085711	-0.9310706	-0.1073635	-0.005977925	0.00951236
2.6e+08	-0.003244794	0.004876954	-0.9361373	0.002442811	0.001173777	0.003984352	-8.089146e-05	0.00376681
	-0.9361373	0.002442811	-0.003130035	0.005017686	-8.056474e-05	0.003766654	0.001221005	0.004037308
	0.001173777	0.003984352	-8.056474e-05	0.003766654	-0.003203625	0.005051376	-0.9360737	0.004770863
	-8.089146e-05	0.00376681	0.001221005	0.004037308	-0.9360737	0.004770863	-0.003073901	0.005213084
2.7e+08	-0.001303126	-2.305795e-05	-0.9279874	0.1141757	0.00189538	0.005825118	0.0003921254	0.003792038
	-0.9279874	0.1141757	-0.001427482	0.0001361434	0.0003927456	0.003791703	0.001849448	0.005889652
	0.00189538	0.005825118	0.0003927456	0.003791703	-0.001238558	0.0001218735	-0.9276349	0.1165617
	0.0003921254	0.003792038	0.001849448	0.005889652	-0.9276349	0.1165617	-0.001384203	0.0003069449
2.8e+08	-0.000664582	-0.005278474	-0.9065588	0.2239912	0.003030944	0.00743569	0.0008464447	0.003762784
	-0.9065588	0.2239912	-0.001035095	-0.005040037	0.0008472858	0.003762124	0.002890241	0.007535537
	0.003030944	0.00743569	0.0008472858	0.003762124	-0.0005840793	-0.005168204	-0.9059025	0.2263984
	0.0008464447	0.003762784	0.002890241	0.007535537	-0.9059025	0.2263984	-0.001012695	-0.00488974
2.9e+08	-0.001370289	-0.01056299	-0.8721911	0.3303106	0.004511087	0.008721081	0.001279722	0.003691844
	-0.8721911	0.3303106	-0.001978614	-0.01018277	0.001280653	0.003690742	0.004279983	0.008880405
	0.004511087	0.008721081	0.001280653	0.003690742	-0.001282479	-0.01049076	-0.8712211	0.3326993
	0.001279722	0.003691844	0.004279983	0.008880405	-0.8712211	0.3326993	-0.001983926	-0.01004694
3e+08	-0.003382357	-0.01555172	-0.8254151	0.4316086	0.006245029	0.009606368	0.001694961	0.003589752
	-0.8254151	0.4316086	-0.004204393	-0.01496933	0.001695806	0.003588143	0.005933962	0.009848241
	0.006245029	0.009606368	0.001695806	0.003588143	-0.003296601	-0.01551885	-0.8241266	0.4339372
	0.001694961	0.003589752	0.005933962	0.009848241	-0.8241266	0.4339372	-0.004242596	-0.01484032
3.1e+08	-0.006586931	-0.01993989	-0.7669441	0.5264386	0.008126269	0.01004143	0.002099012	0.003462915
	-0.7669441	0.5264386	-0.007583463	-0.01910109	0.002099572	0.003460802	0.007751445	0.0103863
	0.008126269	0.01004143	0.002099572	0.003460802	-0.006512831	-0.0199455	-0.7653379	0.528664
	0.002099012	0.003462915	0.007751445	0.0103863	-0.7653379	0.528664	-0.007657718	-0.0189701
3.2e+08	-0.01080159	-0.02346015	-0.6976619	0.6134554	0.01003929	0.01000409	0.002500496	0.003312464
	-0.6976619	0.6134554	-0.01191994	-0.02232065	0.002500574	0.003309927	0.009621997	0.01046834
	0.01003929	0.01000409	0.002500574	0.003309927	-0.01074845	-0.0235011	-0.695745	0.6155337
	0.002500496	0.003312464	0.009621997	0.01046834	-0.695745	0.6155337	-0.01203114	-0.02217827
3.3e+08	-0.01578658	-0.02589754	-0.6186073	0.6914361	0.01186684	0.009501412	0.002907445	0.003133985
	-0.6186073	0.6914361	-0.01696321	-0.02442629	0.002906877	0.003131174	0.01143239	0.01009609
	0.01186684	0.009501412	0.002906877	0.003131174	-0.01576289	-0.02596851	-0.6163927	0.6933237
	0.002907445	0.003133985	0.01143239	0.01009609	-0.6163927	0.6933237	-0.01710989	-0.02426307
3.4e+08	-0.02125922	-0.02710116	-0.5309564	0.7592978	0.01349726	0.008569149	0.003325028	0.002918159
	-0.5309564	0.7592978	-0.02242315	-0.02528301	0.003323702	0.002915282	0.01307364	0.009298987
	0.01349726	0.008569149	0.003323702	0.002915282	-0.02127214	-0.0271949	-0.5284632	0.7609522
	0.003325028	0.002918159	0.01307364	0.009298987	-0.5284632	0.7609522	-0.02260152	-0.02509005
3.5e+08	-0.0269105	-0.02699206	-0.4360018	0.8161132	0.0148314	0.007269306	0.003753659	0.002652216
	-0.4360018	0.8161132	-0.02798734	-0.02482953	0.003751544	0.002649515	0.01444765	0.008132093
	0.0148314	0.007269306	0.003751544	0.002649515	-0.02696539	-0.02709972	-0.4332554	0.817494
	0.003753659	0.002652216	0.01444765	0.008132093	-0.4332554	0.817494	-0.02819147	-0.02459904
3.6e+08	-0.03242289	-0.02556695	-0.3351317	0.8611216	0.01578861	0.005686121	0.004187793	0.002322009
	-0.3351317	0.8611216	-0.03333931	-0.02308087	0.00418494	0.002319735	0.01547308	0.006672476
	0.01578861	0.005686121	0.00418494	0.002319735	-0.03252299	-0.02567852	-0.3321631	0.8621911
	0.004187793	0.002322009	0.01547308	0.006672476	-0.3321631	0.8621911	-0.03356147	-0.02280672
3.7e+08	-0.03748845	-0.02289759	-0.2298071	0.8937371	0.01631153	0.003920702	0.004615547	0.001914417
	-0.2298071	0.8937371	-0.03817668	-0.02012672	0.004612093	0.001912794	0.01609011	0.005014305
	0.01631153	0.003920702	0.004612093	0.001912794	-0.0376346	-0.02300242	-0.2266531	0.8944616
	0.004615547	0.001914417	0.01609011	0.005014305	-0.2266531	0.8944616	-0.03840777	-0.01980479
3.8e+08	-0.04182596	-0.01912595	-0.1215401	0.9135541	0.01636932	0.002084754	0.005019238	0.001419736
	-0.1215401	0.9135541	-0.04222824	-0.01612542	0.005015393	0.001418934	0.01626369	0.003263018
	0.01636932	0.002084754	0.005015393	0.001418934	-0.04201652	-0.01921331	-0.1182422	0.9139045
	0.005019238	0.001419736	0.01626369	0.003263018	-0.1182422	0.9139045	-0.04245836	-0.01575394
3.9e+08	-0.04519649	-0.01445566	-0.01187122	0.9203492	0.01595925	0.0002937733	0.005376762	0.0008337598
	-0.01187122	0.9203492	-0.045269	-0.01129434	0.005372783	0.0008338712	0.01598539	0.001528948
	0.01595925	0.0002937733	0.005372783	0.0008338712	-0.04542731	-0.01451536	-0.008475415	0.9203014
	0.005376762	0.0008337598	0.01598539	0.001528948	-0.008475415	0.9203014	-0.04548802	-0.01087401
4e+08	-0.04741631	-0.009140109	0.09765097	0.9140807	0.01510662	-0.001339835	0.005663633	0.0001592554
	0.09765097	0.9140807	-0.04713244	-0.005897034	0.005659798	0.0001602804	0.01527355	-7.919373e-05
	0.01510662	-0.001339835	0.005659798	0.0001602804	-0.04768095	-0.009163036	0.1010952	0.9136168
	0.005663633	0.0001592554	0.01527355	-7.919373e-05	0.1010952	0.9136168	-0.04733062	-0.00543103
4.1e+08	-0.04836673	-0.003468022	0.2054908	0.8948865	0.01386301	-0.002713343	0.00585545	-0.0005933626
	0.2054908	0.8948865	-0.04771939	-0.0002280679	0.005852025	-0.000591518	0.01417198	-0.001460611
	0.01386301	-0.002713343	0.005852025	-0.000591518	-0.04865667	-0.003446703	0.2089312	0.8939949
	0.00585545	-0.0005933626	0.01417198	-0.001460611	0.2089312	0.8939949	-0.04788799	0.0002781172
4.2e+08	-0.04800023	0.002252732	0.3101442	0.8630799	0.01230316	-0.003739625	0.005930473	-0.001406244
	0.3101442	0.8630799	-0.0470031	0.005403714	0.005927673	-0.001403758	0.01274721	-0.002528162
	0.01230316	-0.003739625	0.005927673	-0.001403758	-0.04830535	0.002323698	0.3135267	0.8617556
	0.005930473	-0.001406244	0.01274721	-0.002528162	0.3135267	0.8617556	-0.04713493	0.005942569
4.3e+08	-0.04634276	0.007712266	0.4101577	0.8191434	0.01052045	-0.004352143	0.005871983	-0.002255192
	0.4101577	0.8191434	-0.04503033	0.01069255	0.00586995	-0.002252308	0.01108457	-0.003213274
	0.01052045	-0.004352143	0.00586995	-0.002252308	-0.0466518	0.007835845	0.4134271	0.8173886
	0.005871983	-0.002255192	0.01108457	-0.003213274	0.4134271	0.8173886	-0.04512018	0.01125496
4.4e+08	-0.043492	0.01261576	0.5041453	0.7637222	0.008621549	-0.004508734	0.00567016	-0.003111502
	0.5041453	0.7637222	-0.04191833	0.01535279	0.005668941	-0.003108493	0.009283231	-0.003469788
	0.008621549	-0.004508734	0.005668941	-0.003108493	-0.04379315	0.01279226	0.5072461	0.7615459
	0.00567016	-0.003111502	0.009283231	-0.003469788	0.5072461	0.7615459	-0.04196335	0.01592859
4.5e+08	-0.03961178	0.01669971	0.5908052	0.6976153	0.006720221	-0.004194054	0.005323229	-0.00394433
	0.5908052	0.6976153	-0.03784806	0.01913478	0.005322771	-0.003941468	0.007450537	-0.003276578
	0.006720221	-0.004194054	0.005322771	-0.003941468	-0.03989335	0.01692668	0.593683	0.6950338
	0.005323229	-0.00394433	0.007450537	-0.003276578	0.593683	0.6950338	-0.03784796	0.01971332
4.6e+08	-0.03492297	0.01974642	0.6689364	0.6217663	0.004930797	-0.003420535	0.004837748	-0.004723312
	0.6689364	0.6217663	-0.03305395	0.02183871	0.004837905	-0.004720829	0.005695905	-0.002638799
	0.004930797	-0.003420535	0.004837905	-0.004720829	-0.03517396	0.02001876	0.6715384	0.6188029
	0.004837748	-0.004723312	0.005695905	-0.002638799	0.6715384	0.6188029	-0.03301105	0.02240956
4.7e+08	-0.02969117	0.02159597	0.7374539	0.5372522	0.003361563	-0.00222782	0.004227999	-0.005421133
	0.7374539	0.5372522	-0.02781067	0.02332568	0.004228549	-0.005419188	0.004124539	-0.001587713
	0.003361563	-0.00222782	0.004228549	-0.005419188	-0.02990192	0.02190603	0.7397297	0.5339369
	0.004227999	-0.005421133	0.004124539	-0.001587713	0.7397297	0.5339369	-0.02772976	0.02387916
4.8e+08	-0.02421203	0.02215513	0.7954033	0.4452704	0.002108417	-0.0006806608	0.003514559	-0.006015715
	0.7954033	0.4452704	-0.0224177	0.02352544	0.003515238	-0.006014374	0.002831329	-0.0001790498
	0.002108417	-0.0006806608	0.003515238	-0.006014374	-0.02437479	0.02249309	0.7973058	0.4416396
	0.003514559	-0.006015715	0.002831329	-0.0001790498	0.7973058	0.4416396	-0.02230587	0.02405324
4.9e+08	-0.01879481	0.02140255	0.8419749	0.3471248	0.001249125	0.001134629	0.002722232	-0.006491793
	0.8419749	0.3471248	-0.01718255	0.02244031	0.002722771	-0.006491016	0.001895239	0.001510027
	0.001249125	0.001134629	0.002722771	-0.006491016	-0.01890427	0.02175691	0.8434613	0.3432211
	0.002722232	-0.006491793	0.001895239	0.001510027	0.8434613	0.3432211	-0.01704874	0.02293602
5e+08	-0.01374523	0.01938999	0.8765167	0.2442089	0.0008385306	0.003115037	0.001877589	-0.006841678
	0.8765167	0.2442089	-0.01240337	0.02014501	0.00187775	-0.00684132	0.001374505	0.003385246
	0.0008385306	0.003115037	0.00187775	-0.00684132	-0.01379883	0.01974815	0.8775489	0.2400806
	0.001877589	-0.006841678	0.001374505	0.003385246	0.8775489	0.2400806	-0.01225793	0.02060456
5.1e+08	-0.009348311	0.01623954	0.8985453	0.1379878	0.0009050065	0.005146785	0.00100643	-0.00706512
