!$
! Info: Touchstone file created by Circ.  Input file=Tx_14in_Rx_85ohms_TxVia_35mils_RxVia_45mils.circ
!$
# Hz S RI R 50
0	0.01126863	1.731657e-25	-5.185171e-12	5.34253e-28	9.541233e-05	2.117945e-23	-4.298343e-12	2.61705e-28
	-5.185174e-12	5.342532e-28	0.01126516	2.051807e-25	-2.471077e-12	8.680362e-28	9.406958e-05	2.549864e-23
	9.593527e-05	2.145516e-23	-2.471073e-12	8.680355e-28	0.01127661	1.690499e-25	-4.661882e-12	5.686483e-28
	-4.298344e-12	2.617052e-28	9.222127e-05	2.562415e-23	-4.661884e-12	5.686489e-28	0.01127825	1.922532e-25
1e+07	0.01383158	-0.01398141	8.005298e-12	1.781712e-12	0.0004649272	0.002530595	7.695118e-12	6.121558e-12
	8.005298e-12	1.781713e-12	0.01381623	-0.01375175	5.829912e-12	-1.144469e-12	0.000565209	0.002519238
	0.0004649512	0.002530596	5.829912e-12	-1.144469e-12	0.01570791	-0.01366417	4.671535e-12	1.356222e-12
	7.695117e-12	6.121558e-12	0.0005651485	0.002519249	4.671535e-12	1.356222e-12	0.01378602	-0.01373483
2e+07	0.01101311	-0.03111885	5.769483e-12	-3.140022e-13	0.001565225	0.004822777	2.187596e-12	1.170447e-11
	5.769484e-12	-3.140017e-13	0.01120867	-0.0307621	5.60342e-12	-1.015093e-11	0.001683392	0.004714751
	0.001565232	0.004822761	5.60342e-12	-1.015093e-11	0.01287895	-0.03131426	2.281077e-12	-6.592903e-12
	2.187596e-12	1.170447e-11	0.001683384	0.004714786	2.281079e-12	-6.592902e-12	0.01119132	-0.03071589
3e+07	0.002073827	-0.04770908	-3.871583e-12	-2.370438e-12	0.003301654	0.006576554	-9.823624e-12	1.916588e-11
	-3.871582e-12	-2.370438e-12	0.002396332	-0.04734706	-5.512415e-13	-2.084813e-11	0.003342631	0.006457713
	0.003301653	0.006576551	-5.512416e-13	-2.084813e-11	0.003884212	-0.04820553	-1.163829e-11	-1.372804e-11
	-9.823624e-12	1.916588e-11	0.003342631	0.006457718	-1.163829e-11	-1.372804e-11	0.002387663	-0.04728365
4e+07	-0.0116157	-0.06122189	-2.093336e-11	-6.525306e-15	0.005413567	0.007720268	-2.784841e-11	3.273114e-11
	-2.093336e-11	-6.525585e-15	-0.01122477	-0.06088253	-1.401343e-11	-2.999168e-11	0.005383422	0.00762136
	0.005413569	0.007720269	-1.401343e-11	-2.999168e-11	-0.009909546	-0.06197535	-3.653287e-11	-1.455568e-11
	-2.784841e-11	3.273114e-11	0.005383416	0.007621358	-3.653287e-11	-1.455567e-11	-0.01122759	-0.06080454
5e+07	-0.02865123	-0.07036448	-4.289707e-11	1.104421e-11	0.007704509	0.008187549	-4.867861e-11	5.583454e-11
	-4.289707e-11	1.104421e-11	-0.0282351	-0.0700479	-3.429628e-11	-3.461072e-11	0.007613395	0.008131972
	0.00770451	0.008187549	-3.429628e-11	-3.461072e-11	-0.02709232	-0.07134069	-6.894131e-11	-3.114802e-12
	-4.867861e-11	5.583454e-11	0.007613392	0.008131972	-6.894131e-11	-3.114801e-12	-0.02823422	-0.0699556
6e+07	-0.04749502	-0.07441077	-6.569705e-11	3.354283e-11	0.009969127	0.007972037	-6.786638e-11	9.020387e-11
	-6.569705e-11	3.354283e-11	-0.04708207	-0.07410345	-5.980461e-11	-3.193701e-11	0.009831693	0.007978027
	0.009969125	0.007972037	-5.980461e-11	-3.193701e-11	-0.04611954	-0.07557373	-1.031261e-10	2.453835e-11
	-6.786638e-11	9.020387e-11	0.009831695	0.007978026	-1.031261e-10	2.453835e-11	-0.04707863	-0.07399587
7e+07	-0.06656222	-0.07313535	-8.400746e-11	6.845829e-11	0.01201483	0.007126672	-8.01967e-11	1.356552e-10
	-8.400746e-11	6.845829e-11	-0.06616706	-0.07281883	-8.789618e-11	-1.975255e-11	0.01184958	0.00720706
	0.01201483	0.007126674	-8.789618e-11	-1.975255e-11	-0.06539895	-0.07444592	-1.316113e-10	6.987546e-11
	-8.01967e-11	1.356552e-10	0.01184959	0.007207056	-1.316113e-10	6.987546e-11	-0.06616101	-0.07269449
8e+07	-0.08433332	-0.06677284	-9.186432e-11	1.144769e-10	0.01367857	0.005754574	-8.03588e-11	1.898418e-10
	-9.186431e-11	1.144769e-10	-0.08395959	-0.06643001	-1.150175e-10	3.26644e-12	0.01350675	0.005916225
	0.01367856	0.005754577	-1.150175e-10	3.266439e-12	-0.08340387	-0.06818955	-1.460152e-10	1.312527e-10
	-8.03588e-11	1.898418e-10	0.01350676	0.005916218	-1.460153e-10	1.312527e-10	-0.08394974	-0.06628751
9e+07	-0.0994605	-0.05596082	-8.335746e-11	1.67748e-10	0.01483813	0.003995882	-6.359076e-11	2.48191e-10
	-8.335745e-11	1.67748e-10	-0.09910589	-0.05558055	-1.36964e-10	3.731679e-11	0.01468255	0.004239352
	0.01483813	0.003995886	-1.36964e-10	3.731679e-11	-0.09878077	-0.05744126	-1.379801e-10	2.035342e-10
	-6.359076e-11	2.48191e-10	0.01468255	0.004239346	-1.379801e-10	2.035342e-10	-0.09909013	-0.05541914
1e+08	-0.110848	-0.04166156	-5.152596e-11	2.220623e-10	0.01541858	0.002013318	-2.486185e-11	3.042008e-10
	-5.152596e-11	2.220623e-10	-0.1105217	-0.04124432	-1.48759e-10	8.292134e-11	0.01530454	0.002333582
	0.01541858	0.002013318	-1.48759e-10	8.292134e-11	-0.1104394	-0.04316591	-9.78302e-11	2.788664e-10
	-2.486185e-11	3.042008e-10	0.01530454	0.002333582	-9.78302e-11	2.788664e-10	-0.1104977	-0.04106432
1.1e+08	-0.1177522	-0.02514052	1.431784e-12	2.53308e-10	0.01539125	-2.392441e-05	1.810614e-11	3.385547e-10
	1.431784e-12	2.53308e-10	-0.1174445	-0.02462019	-1.372219e-10	1.165495e-10	0.01533914	0.0003460187
	0.01539125	-2.392455e-05	-1.372219e-10	1.165495e-10	-0.1176138	-0.02656917	-3.165594e-11	3.206258e-10
	1.810614e-11	3.385547e-10	0.01533914	0.0003460187	-3.165594e-11	3.206258e-10	-0.1174091	-0.02442275
1.2e+08	-0.1198203	-0.007668447	4.490882e-11	2.699305e-10	0.01477287	-0.001946035	6.478432e-11	3.619839e-10
	4.490882e-11	2.699305e-10	-0.1194693	-0.007055877	-1.251269e-10	1.404288e-10	0.01478614	-0.001545521
	0.01477287	-0.001946035	-1.251269e-10	1.404288e-10	-0.1198993	-0.008978323	2.656835e-11	3.431793e-10
	6.478432e-11	3.619839e-10	0.01478614	-0.001545521	2.656835e-11	3.431793e-10	-0.1194195	-0.006843163
1.3e+08	-0.1170169	0.009389974	9.018376e-11	2.750879e-10	0.01362441	-0.003598639	1.164122e-10	3.723445e-10
	9.018376e-11	2.750879e-10	-0.1165906	0.01006243	-1.088419e-10	1.622879e-10	0.01370502	-0.003187133
	0.01362441	-0.003598639	-1.088419e-10	1.622879e-10	-0.117272	0.008226865	8.819999e-11	3.505761e-10
	1.164122e-10	3.723445e-10	0.01370502	-0.003187133	8.819999e-11	3.505761e-10	-0.116524	0.01028672
1.4e+08	-0.1096858	0.02472492	1.365596e-10	2.662812e-10	0.01204273	-0.004849826	1.682983e-10	3.679639e-10
	1.365596e-10	2.662812e-10	-0.1091711	0.02541545	-8.763522e-11	1.80564e-10	0.01218761	-0.004447471
	0.01204273	-0.004849827	-8.763522e-11	1.80564e-10	-0.1100768	0.02372757	1.517767e-10	3.391687e-10
	1.682983e-10	3.679639e-10	0.01218761	-0.004447471	1.517767e-10	3.391687e-10	-0.1090865	0.02564639
1.5e+08	-0.09850873	0.03717759	1.797779e-10	2.438432e-10	0.01015501	-0.005597357	2.161911e-10	3.485855e-10
	1.797779e-10	2.438432e-10	-0.09791116	0.03784167	-6.287805e-11	1.933315e-10	0.01035531	-0.005223336
	0.01015501	-0.005597357	-6.287805e-11	1.933315e-10	-0.09899592	0.03635711	2.114908e-10	3.091703e-10
	2.161911e-10	3.485855e-10	0.01035531	-0.005223336	2.114908e-10	3.091703e-10	-0.0978092	0.03807362
1.6e+08	-0.08445213	0.04582186	2.153673e-10	2.084973e-10	0.008111512	-0.005775229	2.552634e-10	3.153443e-10
	2.153673e-10	2.084973e-10	-0.08379508	0.04641848	-3.658181e-11	1.993643e-10	0.0083528	-0.005445985
	0.008111512	-0.005775229	-3.658181e-11	1.993643e-10	-0.08499669	0.04518188	2.612286e-10	2.614756e-10
	2.552634e-10	3.153443e-10	0.0083528	-0.005445985	2.612286e-10	2.614756e-10	-0.08367847	0.04664581
1.7e+08	-0.06869606	0.05003117	2.391287e-10	1.624599e-10	0.006076836	-0.005359347	2.811265e-10	2.70942e-10
	2.391287e-10	1.624599e-10	-0.06801845	0.0505286	-1.111827e-11	1.982572e-10	0.006339787	-0.005086842
	0.006076836	-0.005359347	-1.111827e-11	1.982572e-10	-0.06926072	0.04956808	2.952447e-10	1.990341e-10
	2.811265e-10	2.70942e-10	0.006339787	-0.005086842	2.952447e-10	1.990341e-10	-0.06789189	0.05074643
1.8e+08	-0.05254728	0.04952651	2.476201e-10	1.093282e-10	0.004218998	-0.004371638	2.903208e-10	2.194632e-10
	2.476201e-10	1.093282e-10	-0.05189985	0.0499072	1.11103e-11	1.905177e-10	0.004480792	-0.004161868
	0.004218998	-0.004371638	1.11103e-11	1.905177e-10	-0.05309747	0.04922975	3.088302e-10	1.266837e-10
	2.903208e-10	2.194632e-10	0.004480792	-0.004161868	3.088302e-10	1.266837e-10	-0.0517698	0.05011218
1.9e+08	-0.03734086	0.04440118	2.386093e-10	5.380065e-11	0.002696617	-0.002881494	2.807395e-10	1.660355e-10
	2.386093e-10	5.380065e-11	-0.03678106	0.04466537	2.803521e-11	1.775176e-10	0.002932756	-0.002733443
	0.002696617	-0.002881494	2.803521e-11	1.775176e-10	-0.03784593	0.04425375	2.989276e-10	5.075608e-11
	2.807395e-10	1.660355e-10	0.002932756	-0.002733443	2.989276e-10	5.075608e-11	-0.03665517	0.04485623
2e+08	-0.02433562	0.03511821	2.114197e-10	1.240295e-12	0.001644781	-0.001003322	2.519231e-10	1.163606e-10
	2.114197e-10	1.240295e-12	-0.02392154	0.03528584	3.824118e-11	1.612868e-10	0.001831237	-0.0009084842
	0.001644781	-0.001003322	3.824118e-11	1.612868e-10	-0.02477018	0.03509747	2.645927e-10	-2.152708e-11
	2.519231e-10	1.163606e-10	0.001831237	-0.0009084842	2.645927e-10	-2.152708e-11	-0.02380792	0.0354638
2.1e+08	-0.01461158	0.02247779	1.671104e-10	-4.28739e-11	0.00116112	0.001110765	2.051894e-10	7.616742e-11
	1.671104e-10	-4.28739e-11	-0.01439535	0.02258847	4.116543e-11	1.441853e-10	0.001276617	0.00116819
	0.00116112	0.001110765	4.116543e-11	1.441853e-10	-0.01495665	0.02255679	2.072258e-10	-8.280397e-11
	2.051894e-10	7.616742e-11	0.001276617	0.00116819	2.072258e-10	-8.280397e-11	-0.01430178	0.02275733
2.2e+08	-0.008978564	0.00755499	1.084487e-10	-7.353686e-11	0.001294149	0.003283317	1.435754e-10	5.064955e-11
	1.084487e-10	-7.353686e-11	-0.008999996	0.007665825	3.71273e-11	1.285246e-10	0.001322373	0.003325528
	0.001294149	0.003283317	3.71273e-11	1.285246e-10	-0.009222525	0.007704039	1.305178e-10	-1.26369e-10
	1.435754e-10	5.064955e-11	0.001322373	0.003325528	1.305178e-10	-1.26369e-10	-0.008933101	0.007831845
2.3e+08	-0.007906002	-0.008388761	3.967182e-11	-8.676266e-11	0.002036081	0.005328119	7.160268e-11	4.395319e-11
	3.967182e-11	-8.676266e-11	-0.00818699	-0.008207368	2.718511e-11	1.162283e-10	0.001967592	0.005382136
	0.002036081	0.005328119	2.718511e-11	1.162283e-10	-0.008044992	-0.008200137	4.011493e-11	-1.468988e-10
	7.160268e-11	4.395319e-11	0.001967592	0.005382136	4.011493e-11	-1.468988e-10	-0.008151433	-0.008035858
2.4e+08	-0.01148201	-0.02401286	-3.392712e-11	-8.000554e-11	0.003321847	0.007069034	-5.104261e-12	5.876877e-11
	-3.392712e-11	-8.000554e-11	-0.01202242	-0.02368311	1.286512e-11	1.086111e-10	0.003155483	0.007164547
	0.003321847	0.007069034	1.286512e-11	1.086111e-10	-0.01151981	-0.0238139	-5.694752e-11	-1.410031e-10
	-5.104261e-12	5.876877e-11	0.003155483	0.007164547	-5.694752e-11	-1.410031e-10	-0.01202032	-0.02349636
2.5e+08	-0.01940731	-0.03801298	-1.065232e-10	-5.239819e-11	0.005035031	0.008358434	-8.03023e-11	9.606757e-11
	-1.065232e-10	-5.239819e-11	-0.02018287	-0.0374568	-4.159187e-12	1.063208e-10	0.004778631	0.008525237
	0.005035031	0.008358434	-4.159187e-12	1.063208e-10	-0.01935461	-0.03782977	-1.52949e-10	-1.075264e-10
	-8.03023e-11	9.606757e-11	0.004778631	0.008525237	-1.52949e-10	-1.075264e-10	-0.02021335	-0.0372444
2.6e+08	-0.03102493	-0.04923255	-1.723075e-10	-4.789907e-12	0.007020124	0.00909238	-1.476609e-10	1.550055e-10
	-1.723075e-10	-4.789907e-12	-0.03198743	-0.04837919	-2.234722e-11	1.094376e-10	0.006690438	0.009357621
	0.007020124	0.00909238	-2.234722e-11	1.094376e-10	-0.03089808	-0.04908641	-2.402089e-10	-4.758531e-11
	-1.476609e-10	1.550055e-10	0.006690438	0.009357621	-2.402089e-10	-4.758531e-11	-0.03204653	-0.04813106
2.7e+08	-0.04538228	-0.05675881	-2.259794e-10	6.039064e-11	0.00909922	0.009220303	-2.012759e-10	2.329757e-10
	-2.259794e-10	6.039064e-11	-0.04646222	-0.05555219	-4.045819e-11	1.176826e-10	0.008720971	0.009605806
	0.00909922	0.009220303	-4.045819e-11	1.176826e-10	-0.04520165	-0.05666516	-3.11734e-10	3.562783e-11
	-2.012759e-10	2.329757e-10	0.008720971	0.009605806	-3.11734e-10	3.562783e-11	-0.04654292	-0.05525948
2.8e+08	-0.06131795	-0.05999383	-2.631364e-10	1.393983e-10	0.01109055	0.008748035	-2.361418e-10	3.258042e-10
	-2.631364e-10	1.393983e-10	-0.06242933	-0.0583989	-5.75705e-11	1.306532e-10	0.01069468	0.009267967
	0.01109055	0.008748035	-5.75705e-11	1.306532e-10	-0.06110608	-0.05996161	-3.617221e-10	1.371988e-10
	-2.361418e-10	3.258042e-10	0.01069468	0.009267967	-3.617221e-10	1.371988e-10	-0.06252207	-0.05805489
2.9e+08	-0.07756323	-0.05869516	-2.805399e-10	2.275012e-10	0.01282608	0.007734331	-2.485398e-10	4.280592e-10
	-2.805399e-10	2.275012e-10	-0.07861026	-0.05670252	-7.296698e-11	1.480015e-10	0.01244732	0.008393464
	0.01282608	0.007734331	-7.296698e-11	1.480015e-10	-0.07734302	-0.05872675	-3.859002e-10	2.509278e-10
	-2.485398e-10	4.280592e-10	0.01244732	0.008393464	-3.859002e-10	2.509278e-10	-0.07870353	-0.05630337
3e+08	-0.09284769	-0.05298423	-2.762686e-10	3.193244e-10	0.01416598	0.006282189	-2.363246e-10	5.33439e-10
	-2.762686e-10	3.193244e-10	-0.09373261	-0.05061264	-8.59451e-11	1.694892e-10	0.01383995	0.00707495
	0.01416598	0.006282189	-8.59451e-11	1.694892e-10	-0.09264071	-0.05307596	-3.817178e-10	3.697773e-10
	-2.363246e-10	5.33439e-10	0.01383995	0.00707495	-3.817178e-10	3.697773e-10	-0.0938139	-0.05015795
3.1e+08	-0.105999	-0.04332499	-2.498265e-10	4.092379e-10	0.01500867	0.004526876	-1.991026e-10	6.35213e-10
	-2.498265e-10	4.092379e-10	-0.1066305	-0.04062146	-9.567076e-11	1.949318e-10	0.01476876	0.005437297
	0.01500867	0.004526876	-9.567076e-11	1.949318e-10	-0.1058241	-0.04346792	-3.484328e-10	4.862954e-10
	-1.991026e-10	6.35213e-10	0.01476876	0.005437297	-3.484328e-10	4.862954e-10	-0.1066873	-0.04011447
3.2e+08	-0.1160293	-0.03047729	-2.020526e-10	4.916349e-10	0.01529617	0.002622675	-1.382957e-10	7.266891e-10
	-2.020526e-10	4.916349e-10	-0.1163307	-0.02751468	-1.010251e-10	2.239749e-10	0.01517053	0.003625289
	0.01529617	0.002622675	-1.010251e-10	2.239749e-10	-0.1159016	-0.0306583	-2.87133e-10	5.930067e-10
	-1.382957e-10	7.266891e-10	0.01517053	0.003625289	-2.87133e-10	5.930067e-10	-0.1163515	-0.02696226
3.3e+08	-0.1222034	-0.01543135	-1.350788e-10	5.609627e-10	0.01501536	0.0007299905	-5.709375e-11	8.016827e-10
	-1.350788e-10	5.609627e-10	-0.1221198	-0.01230368	-1.006276e-10	2.557072e-10	0.01502421	0.001791595
	0.01501536	0.0007299905	-1.006276e-10	2.557072e-10	-0.1221336	-0.01563437	-2.007246e-10	6.827942e-10
	-5.709375e-11	8.016827e-10	0.01502421	0.001791595	-2.007246e-10	6.827942e-10	-0.1220954	-0.01171595
3.4e+08	-0.1240858	0.0006704493	-5.24794e-11	6.123405e-10	0.01419605	-0.000996191	3.971017e-11	8.549637e-10
	-5.24794e-11	6.123405e-10	-0.1235898	0.003854591	-9.323175e-11	2.887359e-10	0.01434958	8.596085e-05
	0.01419605	-0.000996191	-9.323175e-11	2.887359e-10	-0.1240795	0.0004631853	-9.381531e-11	7.494092e-10
	3.971017e-11	8.549637e-10	0.01434958	8.596084e-05	-9.381531e-11	7.494092e-10	-0.1235141	0.004464981
3.5e+08	-0.1215654	0.0166185	4.09239e-11	6.41778e-10	0.01290692	-0.002416148	1.459822e-10	8.826749e-10
	4.09239e-11	6.41778e-10	-0.1206611	0.01974408	-7.795788e-11	3.208422e-10	0.01320404	-0.001354104
	0.01290692	-0.002416148	-7.795788e-11	3.208422e-10	-0.1216234	0.01642521	2.7401e-11	7.875547e-10
	1.459822e-10	8.826749e-10	0.01320404	-0.001354104	2.7401e-11	7.875547e-10	-0.1205316	0.02036291
3.6e+08	-0.1148594	0.03122273	1.392394e-10	6.46507e-10	0.01125009	-0.003413681	2.546273e-10	8.82668e-10
	1.392394e-10	6.46507e-10	-0.1135836	0.0341773	-5.478926e-11	3.49278e-10	0.011678	-0.002411297
	0.01125009	-0.003413681	-5.478926e-11	3.49278e-10	-0.1149776	0.03106081	1.552322e-10	7.934674e-10
	2.546273e-10	8.82668e-10	0.011678	-0.002411297	1.552322e-10	7.934674e-10	-0.1134021	0.03478988
3.7e+08	-0.1044957	0.0433967	2.3578e-10	6.252993e-10	0.009354555	-0.003903082	3.580501e-10	8.547482e-10
	2.3578e-10	6.252993e-10	-0.1029166	0.0460797	-2.47899e-11	3.712311e-10	0.009889362	-0.002995479
	0.009354555	-0.003903082	-2.47899e-11	3.712311e-10	-0.1046655	0.0432816	2.80925e-10	7.654889e-10
	3.580501e-10	8.547482e-10	0.009889362	-0.002995479	2.80925e-10	7.654889e-10	-0.1026891	0.04667206
3.8e+08	-0.0912752	0.05223507	3.234498e-10	5.787465e-10	0.007368547	-0.00383502	4.486857e-10	8.008059e-10
	3.234498e-10	5.787465e-10	-0.0894893	0.05456673	9.833807e-12	3.842555e-10	0.007976742	-0.003049798
	0.007368547	-0.00383502	9.833807e-12	3.842555e-10	-0.0914844	0.05217924	3.951748e-10	7.043539e-10
	4.486857e-10	8.008059e-10	0.007976742	-0.003049798	3.951748e-10	7.043539e-10	-0.08922548	0.05512685
3.9e+08	-0.07621693	0.05708041	3.952518e-10	5.094442e-10	0.005450472	-0.003201204	5.19574e-10	7.248036e-10
	3.952518e-10	5.094442e-10	-0.07434204	0.05900949	4.591119e-11	3.867833e-10	0.006091278	-0.00255585
	0.005450472	-0.003201204	4.591119e-11	3.867833e-10	-0.07645034	0.05709245	4.888007e-10	6.134369e-10
	5.19574e-10	7.248036e-10	0.006091278	-0.00255585	4.888007e-10	6.134369e-10	-0.07405509	0.05952838
4e+08	-0.06048544	0.05757504	4.448933e-10	4.220239e-10	0.003758204	-0.002037281	5.649386e-10	6.326019e-10
	4.448933e-10	4.220239e-10	-0.05865264	0.05908477	7.972461e-11	3.785224e-10	0.004386596	-0.001537298
	0.003758204	-0.002037281	7.972461e-11	3.785224e-10	-0.06072618	0.05765904	5.535472e-10	4.98794e-10
	5.649386e-10	6.326019e-10	0.004386596	-0.001537298	5.535472e-10	4.98794e-10	-0.05835803	0.05955736
4.1e+08	-0.04530581	0.05369338	4.674346e-10	3.229792e-10	0.002436889	-0.0004230912	5.807237e-10	5.316166e-10
	4.674346e-10	3.229792e-10	-0.04364927	0.05480488	1.075877e-10	3.606295e-10	0.003007089	-6.100678e-05
	0.002436889	-0.0004230912	1.075877e-10	3.606295e-10	-0.04553656	0.05384856	5.829436e-10	3.689288e-10
	5.807237e-10	5.316166e-10	0.003007089	-6.100678e-05	5.829436e-10	3.689288e-10	-0.04336371	0.05523063
4.2e+08	-0.03187013	0.04575062	4.599006e-10	2.202564e-10	0.001605929	0.001520729	5.650349e-10	4.303132e-10
	4.599006e-10	2.202564e-10	-0.03051609	0.04652339	1.264574e-10	3.356005e-10	0.00207512	0.001765347
	0.001605929	0.001520729	1.264574e-10	3.356005e-10	-0.03207454	0.04597139	5.731086e-10	2.342454e-10
	5.650349e-10	4.303132e-10	0.00207512	0.001765347	5.731086e-10	2.342454e-10	-0.03025612	0.04690656
4.3e+08	-0.02124225	0.03438474	4.217551e-10	1.22616e-10	0.001346487	0.003640524	5.184288e-10	3.375653e-10
	4.217551e-10	1.22616e-10	-0.02029791	0.03491384	1.344362e-10	3.068911e-10	0.001678466	0.0038
	0.001346487	0.003640524	1.344362e-10	3.068911e-10	-0.0214063	0.03466116	5.233682e-10	1.062007e-10
	5.184288e-10	3.375653e-10	0.001678466	0.0038	5.233682e-10	1.062007e-10	-0.0200786	0.03526336
4.4e+08	-0.01426919	0.02051082	3.551411e-10	3.882029e-11	0.001691324	0.005761891	4.440051e-10	2.619229e-10
	3.551411e-10	3.882029e-11	-0.01381258	0.02092077	1.310479e-10	2.783536e-10	0.001859798	0.005878341
	0.001691324	0.005761891	1.310479e-10	2.783536e-10	-0.01438239	0.02082941	4.365614e-10	-3.767983e-12
	4.440051e-10	2.619229e-10	0.001859798	0.005878341	4.365614e-10	-3.767983e-12	-0.01364618	0.02124974
4.5e+08	-0.01150785	0.005249639	2.648162e-10	-2.325142e-11	0.002618907	0.007705616	3.472677e-10	2.108574e-10
	2.648162e-10	-2.325142e-11	-0.01157969	0.005685382	1.172283e-10	2.536236e-10	0.002610141	0.007827936
	0.002618907	0.007705616	1.172283e-10	2.536236e-10	-0.01156414	0.005594681	3.18943e-10	-8.540452e-11
	3.472677e-10	2.108574e-10	0.002610141	0.007827936	3.18943e-10	-8.540452e-11	-0.0114745	0.006010191
4.6e+08	-0.01317556	-0.01016396	1.577658e-10	-5.742962e-11	0.004053325	0.009305539	2.357481e-10	1.900617e-10
	1.577658e-10	-5.742962e-11	-0.01377395	-0.009548406	9.504832e-11	2.355993e-10	0.00386788	0.009485656
	0.004053325	0.009305539	9.504832e-11	2.355993e-10	-0.01317375	-0.009809013	1.796631e-10	-1.307134e-10
	2.357481e-10	1.900617e-10	0.00386788	0.009485656	1.796631e-10	-1.307134e-10	-0.01373342	-0.009209275
4.7e+08	-0.01913036	-0.02448471	4.253775e-11	-5.989244e-11	0.00587067	0.01042588	1.184139e-10	2.02888e-10
	4.253775e-11	-5.989244e-11	-0.02020903	-0.02353894	6.725559e-11	2.261263e-10	0.005524019	0.01071455
	0.00587067	0.01042588	6.725559e-11	2.261263e-10	-0.01907409	-0.02413567	2.988626e-11	-1.347851e-10
	1.184139e-10	2.02888e-10	0.005524019	0.01071455	2.988626e-11	-1.347851e-10	-0.02023128	-0.02316634
4.8e+08	-0.02888396	-0.03656193	-7.159774e-11	-2.952049e-11	0.007911323	0.0109754	4.916741e-12	2.499924e-10
