!$
! Info: Touchstone file created by Circ.  Input file=Tx_12in_Rx_93ohms_TxVia_35mils_RxVia_45mils.circ
!$
# Hz S RI R 50
0	0.01102002	1.504358e-25	-6.442757e-05	3.771134e-24	8.382854e-05	2.065055e-23	-6.443937e-05	5.29577e-24
	-6.442759e-05	3.773442e-24	0.01101774	1.793703e-25	-6.440732e-05	1.454369e-24	8.319632e-05	2.493563e-23
	8.433691e-05	2.093929e-23	-6.440729e-05	1.450364e-24	0.0110321	1.461506e-25	-6.442476e-05	3.676801e-24
	-6.443938e-05	5.297359e-24	8.134806e-05	2.505838e-23	-6.442479e-05	3.680087e-24	0.01103083	1.680659e-25
1e+07	0.01627584	-0.0007758707	-0.0003192091	-6.948858e-05	0.0004195996	0.00202854	-0.0001688584	0.0001591171
	-0.0003192091	-6.948857e-05	0.01600266	-0.001477263	-4.404086e-06	-9.513405e-06	0.0004384129	0.002219344
	0.0004196291	0.002028535	-4.404089e-06	-9.513407e-06	0.01513636	-0.001325557	-1.769859e-05	1.578725e-06
	-0.0001688584	0.0001591171	0.0004383522	0.002219354	-1.769859e-05	1.578723e-06	0.01568705	-0.001472716
2e+07	0.01924053	-0.006123162	-0.0003215393	3.284553e-05	0.001263069	0.003989959	-0.000199696	0.0001947482
	-0.0003215393	3.284553e-05	0.01820915	-0.007074018	-5.40966e-06	-5.192213e-06	0.001169863	0.004350219
	0.00126307	0.003989937	-5.409661e-06	-5.19221e-06	0.01773062	-0.006542643	-8.71027e-06	-3.037565e-05
	-0.000199696	0.0001947482	0.001169854	0.004350254	-8.710271e-06	-3.037565e-05	0.01797563	-0.006959522
3e+07	0.01948872	-0.01308015	-0.0003173697	9.382631e-05	0.002533216	0.00568043	-0.0002074328	0.0002330833
	-0.0003173697	9.382631e-05	0.01787643	-0.0138759	-1.241487e-05	-6.586309e-06	0.002434672	0.006115534
	0.00253321	0.005680428	-1.241487e-05	-6.586309e-06	0.01772611	-0.01328694	-2.935436e-05	-3.338473e-05
	-0.0002074328	0.0002330833	0.002434672	0.00611554	-2.935436e-05	-3.338473e-05	0.01770192	-0.01373799
4e+07	0.01753327	-0.02013048	-0.0003050509	0.0001493711	0.004153031	0.007001964	-0.0002020701	0.0002641845
	-0.0003050509	0.0001493711	0.01547678	-0.02059215	-1.769361e-05	-4.557245e-06	0.004109005	0.00746201
	0.004153032	0.007001968	-1.769361e-05	-4.557246e-06	0.015614	-0.02006513	-4.66905e-05	-2.814765e-05
	-0.0002020701	0.0002641845	0.004109	0.007462008	-4.66905e-05	-2.814765e-05	0.01534547	-0.02045416
5e+07	0.01370324	-0.02660244	-0.0002857962	0.0002002079	0.006019162	0.007880251	-0.0001894919	0.0002864543
	-0.0002857962	0.0002002079	0.01133678	-0.02661507	-2.142493e-05	-7.415551e-07	0.006017807	0.008348478
	0.006019164	0.007880252	-2.142493e-05	-7.415553e-07	0.0117159	-0.02623306	-6.046659e-05	-1.749061e-05
	-0.0001894919	0.0002864543	0.006017804	0.008348477	-6.046659e-05	-1.749061e-05	0.01123435	-0.02648817
6e+07	0.008340299	-0.03202949	-0.0002749867	0.000229425	0.008013291	0.008270779	-0.000174844	0.0002996309
	-0.0002749867	0.000229425	0.005801673	-0.03152079	-2.369656e-05	4.285233e-06	0.008043457	0.008737951
	0.00801329	0.008270778	-2.369656e-05	4.285234e-06	0.006368478	-0.03134606	-7.019163e-05	-2.882143e-06
	-0.000174844	0.0002996309	0.00804346	0.00873795	-7.019163e-05	-2.882143e-06	0.005715017	-0.03140971
7e+07	0.001824381	-0.0360785	-0.0002608173	0.0002588107	0.01001087	0.008160596	-0.0001628125	0.0003044018
	-0.0002608173	0.0002588106	-0.0007455731	-0.0350119	-2.440889e-05	9.996688e-06	0.01006233	0.008621947
	0.01001087	0.008160595	-2.440889e-05	9.996688e-06	-5.364333e-05	-0.03508909	-7.531929e-05	1.450165e-05
	-0.0001628125	0.0003044018	0.01006234	0.008621944	-7.53193e-05	1.450165e-05	-0.0008281642	-0.03491703
8e+07	-0.005433068	-0.03853336	-0.0002434826	0.0002875714	0.01188954	0.007568411	-0.0001579333	0.0003026687
	-0.0002434826	0.0002875714	-0.007892425	-0.03690423	-2.349103e-05	1.605723e-05	0.01195273	0.008021703
	0.01188954	0.007568413	-2.349103e-05	1.605723e-05	-0.007144661	-0.03726093	-7.532646e-05	3.354121e-05
	-0.0001579333	0.0003026687	0.01195274	0.008021696	-7.532646e-05	3.354121e-05	-0.007981012	-0.03682283
9e+07	-0.01300741	-0.0392902	-0.0002237147	0.0003148746	0.01353782	0.006543084	-0.0001650342	0.0002971426
	-0.0002237147	0.0003148746	-0.01521231	-0.03712173	-2.078306e-05	2.219244e-05	0.0136023	0.006986855
	0.01353781	0.006543087	-2.078306e-05	2.219243e-05	-0.01448366	-0.03776897	-6.963466e-05	5.315676e-05
	-0.0001650343	0.0002971426	0.01360231	0.006986849	-6.963466e-05	5.315676e-05	-0.01531538	-0.03704893
1e+08	-0.02049895	-0.03835894	-0.0002052419	0.0003390911	0.01487197	0.005164085	-0.0001966871	0.0002884211
	-0.0002052419	0.0003390911	-0.02226573	-0.03568516	-1.542816e-05	2.834269e-05	0.01491449	0.00559159
	0.01487197	0.005164085	-1.542816e-05	2.834269e-05	-0.0216485	-0.03662274	-5.61858e-05	7.280029e-05
	-0.0001966871	0.0002884211	0.01491449	0.00559159	-5.61858e-05	7.280029e-05	-0.02239306	-0.03561581
1.1e+08	-0.02749039	-0.03573131	-0.000179255	0.0003500387	0.01577348	0.00356401	-0.0002230147	0.0002504769
	-0.000179255	0.0003500387	-0.0286885	-0.03286117	-8.225716e-06	3.029829e-05	0.01581267	0.003935304
	0.01577348	0.00356401	-8.225716e-06	3.029829e-05	-0.02825689	-0.03398433	-3.704423e-05	8.203385e-05
	-0.0002230147	0.0002504769	0.01581267	0.003935304	-3.704423e-05	8.203385e-05	-0.02884402	-0.03277251
1.2e+08	-0.0335367	-0.03167964	-0.0001465776	0.0003605463	0.0162001	0.001791613	-0.0002444538	0.0002294984
	-0.0001465776	0.0003605463	-0.03425492	-0.02873407	-2.309696e-06	3.071767e-05	0.01625337	0.002126813
	0.0162001	0.001791613	-2.309696e-06	3.071767e-05	-0.03400603	-0.02999485	-1.988136e-05	8.655687e-05
	-0.0002444538	0.0002294984	0.01625337	0.002126813	-1.988136e-05	8.655687e-05	-0.03442725	-0.02861692
1.3e+08	-0.03837665	-0.02649374	-0.0001111194	0.0003682307	0.01614507	-2.560878e-05	-0.0002687933	0.0002220517
	-0.0001111194	0.0003682307	-0.03865686	-0.02355437	3.031311e-06	3.017198e-05	0.01621629	0.0002816221
	0.01614507	-2.560884e-05	3.031311e-06	3.017198e-05	-0.03860126	-0.02491129	-3.437272e-06	8.75591e-05
	-0.0002687933	0.0002220517	0.01621629	0.0002816222	-3.437272e-06	8.75591e-05	-0.03883701	-0.02340396
1.4e+08	-0.04180559	-0.02050404	-7.417642e-05	0.0003723077	0.01561913	-0.001766723	-0.0002945389	0.0002283503
	-7.417642e-05	0.0003723077	-0.04168637	-0.01764068	5.423824e-06	2.905761e-05	0.01570996	-0.001483687
	0.01561913	-0.001766723	5.423824e-06	2.905761e-05	-0.04183085	-0.01904996	1.202601e-05	8.544097e-05
	-0.0002945389	0.0002283503	0.01570996	-0.001483687	1.202601e-05	8.544097e-05	-0.04186532	-0.01745513
1.5e+08	-0.0437012	-0.01407267	-3.67622e-05	0.0003724348	0.01465972	-0.003318627	-0.0003186481	0.0002483317
	-3.67622e-05	0.0003724348	-0.04322461	-0.01134734	7.754628e-06	2.780533e-05	0.01477044	-0.003058818
	0.01465972	-0.003318627	7.754628e-06	2.780533e-05	-0.04356834	-0.01276298	2.604656e-05	8.058314e-05
	-0.0003186481	0.0002483317	0.01477044	-0.003058818	2.604656e-05	8.058314e-05	-0.04339363	-0.01112744
1.6e+08	-0.04402908	-0.007574176	2.859998e-07	0.0003685883	0.01332934	-0.004581658	-0.0003376432	0.0002810575
	2.859998e-07	0.0003685883	-0.04324324	-0.005041552	1.001151e-05	2.639964e-05	0.01345881	-0.004346027
	0.01332934	-0.004581658	1.001151e-05	2.639964e-05	-0.0437757	-0.006417037	3.821251e-05	7.347705e-05
	-0.0003376432	0.0002810575	0.01345881	-0.004346027	3.821251e-05	7.347705e-05	-0.04339443	-0.004790549
1.7e+08	-0.0428423	-0.001375283	3.627376e-05	0.0003609581	0.01171182	-0.005474866	-0.0003482169	0.000324595
	3.627376e-05	0.0003609581	-0.04180239	0.000918171	1.21574e-05	2.483904e-05	0.01185726	-0.005265508
	0.01171182	-0.005474866	1.21574e-05	2.483904e-05	-0.04250244	-0.0003725128	4.822479e-05	6.46942e-05
	-0.0003482169	0.000324595	0.01185726	-0.005265508	4.822479e-05	6.46942e-05	-0.04192921	0.001194975
1.8e+08	-0.04027638	0.004184501	7.066126e-05	0.0003498791	0.009907375	-0.005940308	-0.0003476651	0.000376122
	7.066126e-05	0.0003498791	-0.03904448	0.006202083	1.416666e-05	2.313003e-05	0.01006423	-0.005759705
	0.009907374	-0.005940308	1.416666e-05	2.313003e-05	-0.0398803	0.0050362	5.593757e-05	5.484722e-05
	-0.0003476651	0.000376122	0.01006423	-0.005759705	5.593757e-05	5.484722e-05	-0.03914222	0.006497793
1.9e+08	-0.03653992	0.00881052	0.0001030707	0.0003357675	0.008026704	-0.005946104	-0.0003341943	0.000432174
	0.0001030707	0.0003357675	-0.03518409	0.01052702	1.602161e-05	2.128262e-05	0.00818863	-0.005796381
	0.008026704	-0.005946104	1.602161e-05	2.128262e-05	-0.03611402	0.009518489	6.137237e-05	4.453886e-05
	-0.0003341943	0.000432174	0.00818863	-0.005796381	6.137237e-05	4.453886e-05	-0.03525013	0.01083372
2e+08	-0.03190176	0.01226796	0.0001332809	0.0003190612	0.0061846	-0.00548809	-0.0003070972	0.0004889751
	0.0001332809	0.0003190612	-0.03049421	0.01367129	1.770984e-05	1.930743e-05	0.006343679	-0.005370313
	0.0061846	-0.00548809	1.770984e-05	1.930743e-05	-0.0314685	0.0128426	6.470891e-05	3.430939e-05
	-0.0003070972	0.0004889751	0.006343679	-0.005370313	6.470891e-05	3.430939e-05	-0.03052819	0.01398064
2.1e+08	-0.02667467	0.01439412	0.0001612067	0.0003001671	0.004487071	-0.004597455	-0.0002667946	0.0005428086
	0.0001612067	0.0003001671	-0.02528983	0.01548594	1.921557e-05	1.720914e-05	0.004640381	-0.004503538
	0.004487071	-0.004597455	1.921557e-05	1.720914e-05	-0.02625259	0.01484802	6.621921e-05	2.453791e-05
	-0.0002667946	0.0005428086	0.004640381	-0.004503538	6.621921e-05	2.453791e-05	-0.02529365	0.01578977
2.2e+08	-0.02119779	0.01510454	0.0001868658	0.0002794214	0.003037619	-0.003320441	-0.0002147375	0.0005903681
	0.0001868658	0.0002794214	-0.01990937	0.01590195	2.052829e-05	1.499795e-05	0.003181154	-0.003244109
	0.003037619	-0.003320441	2.052829e-05	1.499795e-05	-0.02080162	0.01545166	6.627273e-05	1.552621e-05
	-0.0002147375	0.0005903681	0.003181154	-0.003244109	6.627273e-05	1.552621e-05	-0.01988703	0.01619282
2.3e+08	-0.01581828	0.01439652	0.0002103354	0.0002570637	0.001933226	-0.001721285	-0.000153201	0.0006290527
	0.0002103354	0.0002570637	-0.01469516	0.01493284	2.16454e-05	1.268846e-05	0.002053841	-0.001663383
	0.001933226	-0.001721285	2.16454e-05	1.268846e-05	-0.0154592	0.01465149	6.534159e-05	7.477785e-06
	-0.000153201	0.0006290527	0.002053841	-0.001663383	6.534159e-05	7.477785e-06	-0.01465252	0.01520459
2.4e+08	-0.01087084	0.01234974	0.0002317036	0.0002332315	0.001242167	0.0001051066	-8.499169e-05	0.0006571784
	0.0002317036	0.0002332315	-0.009973919	0.01267286	2.25549e-05	1.028898e-05	0.001326474	0.0001480628
	0.001242167	0.0001051066	2.25549e-05	1.028898e-05	-0.01055676	0.01252726	6.383805e-05	3.675919e-07
	-8.499169e-05	0.0006571784	0.001326474	0.0001480628	6.383805e-05	3.675919e-07	-0.009918296	0.01292095
2.5e+08	-0.006659317	0.009119804	0.0002510243	0.00020797	0.001007501	0.002049942	-1.310303e-05	0.000674064
	0.0002510243	0.00020797	-0.006038219	0.009290439	2.324235e-05	7.81012e-06	0.001043106	0.002085711
	0.001007501	0.002049942	2.324235e-05	7.81012e-06	-0.006395212	0.009234175	6.20977e-05	-5.964689e-06
	-1.310303e-05	0.000674064	0.001043106	0.002085711	6.20977e-05	-5.964689e-06	-0.005977925	0.00951236
2.6e+08	-0.003439939	0.004928466	0.0002682797	0.0001812612	0.001244301	0.003997062	5.963509e-05	0.0006799972
	0.0002682797	0.0001812612	-0.003130035	0.005017686	2.36914e-05	5.266333e-06	0.001221005	0.004037308
	0.001244301	0.003997062	2.36914e-05	5.266333e-06	-0.003228287	0.004993188	6.033869e-05	-1.177479e-05
	5.963509e-05	0.0006799972	0.001221005	0.004037308	6.033869e-05	-1.177479e-05	-0.003073901	0.005213084
2.7e+08	-0.001407367	5.020604e-05	0.0002833583	0.0001530631	0.001938579	0.005830035	0.000130863	0.000676081
	0.0002833583	0.0001530631	-0.001427482	0.0001361434	2.388562e-05	2.677079e-06	0.001849448	0.005889652
	0.001938579	0.005830035	2.388562e-05	2.677079e-06	-0.001248529	7.772123e-05	5.863795e-05	-1.736144e-05
	0.000130863	0.000676081	0.001849448	0.005889652	5.863795e-05	-1.736144e-05	-0.001384203	0.0003069449
2.8e+08	-0.0006843074	-0.005204064	0.0002960492	0.0001233568	0.003047999	0.007439371	0.0001989272	0.0006639864
	0.0002960492	0.0001233568	-0.001035095	-0.005040037	2.380965e-05	6.726767e-08	0.002890241	0.007535537
	0.003047999	0.007439371	2.380965e-05	6.726767e-08	-0.000576935	-0.005202539	5.692828e-05	-2.300941e-05
	0.0001989272	0.0006639864	0.002890241	0.007535537	5.692828e-05	-2.300941e-05	-0.001012695	-0.00488974
2.9e+08	-0.001315358	-0.01050526	0.0003060542	9.21907e-05	0.004504415	0.008729394	0.0002630026	0.0006456405
	0.0003060542	9.21907e-05	-0.001978614	-0.01018277	2.345102e-05	-2.532795e-06	0.004279983	0.008880405
	0.004504415	0.008729394	2.345102e-05	-2.532795e-06	-0.001256766	-0.01051981	5.501647e-05	-2.893512e-05
	0.0002630026	0.0006456405	0.004279983	0.008880405	5.501647e-05	-2.893512e-05	-0.001983926	-0.01004694
3e+08	-0.00326538	-0.01552523	0.0003130189	5.971893e-05	0.006218077	0.009624276	0.0003230956	0.0006228985
	0.0003130189	5.971893e-05	-0.004204393	-0.01496933	2.280183e-05	-5.087981e-06	0.005933962	0.009848241
	0.006218077	0.009624276	2.280183e-05	-5.087981e-06	-0.003251878	-0.01554726	5.26205e-05	-3.524296e-05
	0.0003230956	0.0006228985	0.005933962	0.009848241	5.26205e-05	-3.524296e-05	-0.004242596	-0.01484032
3.1e+08	-0.006422495	-0.01995562	0.0003165765	2.622414e-05	0.008083279	0.01007283	0.000379935	0.0005972372
	0.0003165765	2.622414e-05	-0.007583463	-0.01910109	2.18603e-05	-7.559324e-06	0.007751445	0.0103863
	0.008083279	0.01007283	2.18603e-05	-7.559324e-06	-0.006449659	-0.01997778	4.942024e-05	-4.189899e-05
	0.000379935	0.0005972372	0.007751445	0.0103863	4.942024e-05	-4.189899e-05	-0.007657718	-0.0189701
3.2e+08	-0.01060545	-0.02352535	0.0003163968	-7.877002e-06	0.009985033	0.01005172	0.0004347517	0.0005695171
	0.0003163968	-7.877002e-06	-0.01191994	-0.02232065	2.063188e-05	-9.905451e-06	0.009621997	0.01046834
	0.009985033	0.01005172	2.063188e-05	-9.905451e-06	-0.01066835	-0.02354146	4.511438e-05	-4.872516e-05
	0.0004347517	0.0005695171	0.009621997	0.01046834	4.511438e-05	-4.872516e-05	-0.01203114	-0.02217827
3.3e+08	-0.01557487	-0.02601566	0.0003122359	-4.204747e-05	0.01180634	0.0095668	0.0004889924	0.0005398406
	0.0003122359	-4.204747e-05	-0.01696321	-0.02442629	1.913012e-05	-1.20843e-05	0.01143239	0.01009609
	0.01180634	0.0095668	1.913012e-05	-1.20843e-05	-0.01566822	-0.02602065	3.947538e-05	-5.541538e-05
	0.0004889924	0.0005398406	0.01143239	0.01009609	3.947538e-05	-5.541538e-05	-0.01710989	-0.02426307
3.4e+08	-0.0210477	-0.02727206	0.000303978	-7.566152e-05	0.01343554	0.008652623	0.0005440079	0.0005075213
	0.000303978	-7.566152e-05	-0.02242315	-0.02528301	1.737719e-05	-1.405511e-05	0.01307364	0.009298987
	0.01343554	0.008652623	1.737719e-05	-1.405511e-05	-0.02116597	-0.02726181	3.239441e-05	-6.15711e-05
	0.0005440079	0.0005075213	0.01307364	0.009298987	3.239441e-05	-6.15711e-05	-0.02260152	-0.02509005
3.5e+08	-0.02671384	-0.02721227	0.0002916622	-0.0001080489	0.01477322	0.007370075	0.0006007423	0.0004711767
	0.0002916622	-0.0001080489	-0.02798734	-0.02482953	1.540376e-05	-1.578068e-05	0.01444765	0.008132093
	0.01477322	0.007370075	1.540376e-05	-1.578068e-05	-0.02685134	-0.02718359	2.390997e-05	-6.675047e-05
	0.0006007423	0.0004711767	0.01444765	0.008132093	2.390997e-05	-6.675047e-05	-0.02819147	-0.02459904
3.6e+08	-0.03225412	-0.02583008	0.0002754935	-0.0001385469	0.01573825	0.00580239	0.0006594844	0.0004289188
	0.0002754935	-0.0001385469	-0.03333931	-0.02308087	1.324822e-05	-1.722964e-05	0.01547308	0.006672476
	0.01573825	0.00580239	1.324822e-05	-1.722964e-05	-0.03240503	-0.02578063	1.421645e-05	-7.052491e-05
	0.0006594844	0.0004289188	0.01547308	0.006672476	1.421645e-05	-7.052491e-05	-0.03356147	-0.02280672
3.7e+08	-0.03735839	-0.0231948	0.0002558335	-0.0001665517	0.01627262	0.00404983	0.0007196985	0.00037863
	0.0002558335	-0.0001665517	-0.03817668	-0.02012672	1.095521e-05	-1.837857e-05	0.01609011	0.005014305
	0.01627262	0.00404983	1.095521e-05	-1.837857e-05	-0.0375168	-0.02312309	3.651739e-06	-7.253437e-05
	0.0007196985	0.00037863	0.01609011	0.005014305	3.651739e-06	-7.253437e-05	-0.03840777	-0.01980479
3.8e+08	-0.04174293	-0.01944654	0.0002331748	-0.0001915642	0.01634467	0.002223441	0.0007799655	0.0003182786
	0.0002331748	-0.0001915642	-0.04222824	-0.01612542	8.573344e-06	-1.921368e-05	0.01626369	0.003263018
	0.01634467	0.002223441	8.573344e-06	-1.921368e-05	-0.04190287	-0.01935193	-7.334052e-06	-7.253449e-05
	0.0007799655	0.0003182786	0.01626369	0.003263018	-7.334052e-06	-7.253449e-05	-0.04245836	-0.01575394
3.9e+08	-0.04516601	-0.01478769	0.0002081024	-0.0002132234	0.01595078	0.0004382645	0.000838038	0.0002462374
	0.0002081024	-0.0002132234	-0.045269	-0.01129434	6.152474e-06	-1.973164e-05	0.01598539	0.001528948
	0.01595078	0.0004382645	6.152474e-06	-1.973164e-05	-0.04532152	-0.01467041	-1.822425e-05	-7.042933e-05
	0.000838038	0.0002462374	0.01598539	0.001528948	-1.822425e-05	-7.042933e-05	-0.04548802	-0.01087401
4e+08	-0.04744101	-0.009471004	0.0001812456	-0.0002313243	0.0151153	-0.001193533	0.0008910037	0.0001615696
	0.0001812456	-0.0002313243	-0.04713244	-0.005897034	3.740633e-06	-1.993951e-05	0.01527355	-7.919373e-05
	0.0151153	-0.001193533	3.740633e-06	-1.993951e-05	-0.0475862	-0.009332208	-2.848941e-05	-6.628615e-05
	0.0008910037	0.0001615696	0.01527355	-7.919373e-05	-2.848941e-05	-6.628615e-05	-0.04733062	-0.00543103
4.1e+08	-0.04844635	-0.003785206	0.0001532287	-0.0002458193	0.01388886	-0.00256925	0.0009355384	6.423878e-05
	0.0001532287	-0.0002458193	-0.04771939	-0.0002280679	1.381199e-06	-1.985358e-05	0.01417198	-0.001460611
	0.01388886	-0.00256925	1.381199e-06	-1.985358e-05	-0.04857553	-0.003627033	-3.764255e-05	-6.033056e-05
	0.0009355384	6.423878e-05	0.01417198	-0.001460611	-3.764255e-05	-6.033056e-05	-0.04788799	0.0002781172
4.2e+08	-0.04813175	0.001961246	0.0001246245	-0.0002568028	0.01234527	-0.003601579	0.0009682168	-4.47768e-05
	0.0001246245	-0.0002568028	-0.0470031	0.005403714	-8.893588e-07	-1.949716e-05	0.01274721	-0.002528162
	0.01234527	-0.003601579	-8.893588e-07	-1.949716e-05	-0.04823959	0.002135662	-4.528894e-05	-5.292334e-05
	0.0009682168	-4.47768e-05	0.01274721	-0.002528162	-4.528894e-05	-5.292334e-05	-0.04713493	0.005942569
4.3e+08	-0.04652063	0.007457326	9.591685e-05	-0.0002644818	0.01057709	-0.00422361	0.0009858471	-0.0001634755
	9.591685e-05	-0.0002644818	-0.04503033	0.01069255	-3.042778e-06	-1.889789e-05	0.01108457	-0.003213274
	0.01057709	-0.00422361	-3.042778e-06	-1.889789e-05	-0.04660233	0.007643852	-5.116482e-05	-4.452208e-05
	0.0009858471	-0.0001634755	0.01108457	-0.003213274	-5.116482e-05	-4.452208e-05	-0.04512018	0.01125496
4.4e+08	-0.0437085	0.0124066	6.747591e-05	-0.0002691366	0.008690267	-0.004392644	0.0009857917	-0.0002889383
	6.747591e-05	-0.0002691366	-0.04191833	0.01535279	-5.059154e-06	-1.808472e-05	0.009283231	-0.003469788
	0.008690267	-0.004392644	-5.059154e-06	-1.808472e-05	-0.04375999	0.01260015	-5.516073e-05	-3.563227e-05
	0.0009857917	-0.0002889383	0.009283231	-0.003469788	-5.516073e-05	-3.563227e-05	-0.04196335	0.01592859
4.5e+08	-0.03985743	0.01654355	3.954796e-05	-0.0002710776	0.006797991	-0.004092663	0.0009663225	-0.0004174287
	3.954796e-05	-0.0002710776	-0.03784806	0.01913478	-6.925981e-06	-1.708524e-05	0.007450537	-0.003276578
	0.006797991	-0.004092663	-6.925981e-06	-1.708524e-05	-0.03987561	0.01673817	-5.732726e-05	-2.675516e-05
	0.0009663225	-0.0004174287	0.007450537	-0.003276578	-5.732726e-05	-2.675516e-05	-0.03784796	0.01971332
4.6e+08	-0.03518701	0.01964821	1.232607e-05	-0.0002704062	0.005014194	-0.003335324	0.0009127952	-0.0005583365
	1.232607e-05	-0.0002704062	-0.03305395	0.02183871	-8.636199e-06	-1.592726e-05	0.005695905	-0.002638799
	0.005014194	-0.003335324	-8.636199e-06	-1.592726e-05	-0.03516992	0.01983718	-5.779731e-05	-1.814309e-05
	0.0009127952	-0.0005583365	0.005695905	-0.002638799	-5.779731e-05	-1.814309e-05	-0.03301105	0.02240956
4.7e+08	-0.02996208	0.02155811	-1.416348e-05	-0.0002675551	0.003446954	-0.002159433	0.0008347947	-0.0006918117
	-1.416348e-05	-0.0002675551	-0.02781067	0.02332568	-1.018787e-05	-1.46273e-05	0.004124539	-0.001587713
	0.003446954	-0.002159433	-1.018787e-05	-1.46273e-05	-0.02990914	0.02173429	-5.68925e-05	-1.032715e-05
	0.0008347947	-0.0006918117	0.004124539	-0.001587713	-5.68925e-05	-1.032715e-05	-0.02772976	0.02387916
