!$
! Info: Touchstone file created by Circ.  Input file=Tx_14in_Rx_85ohms_TxVia_35mils_RxVia_45mils.circ
!$
# Hz S RI R 50
0	0.0112663	1.750862e-25	0.9885929	-1.810457e-25	9.365125e-05	2.14505e-23	-9.172999e-05	2.047506e-21
	0.9885929	-1.845428e-25	0.01126516	2.051807e-25	-9.209867e-05	2.092763e-21	9.406958e-05	2.549864e-23
	9.181208e-05	2.202762e-23	-9.222501e-05	2.108364e-21	0.01127868	1.668925e-25	0.9885772	-1.718272e-25
	-9.210708e-05	2.093816e-21	9.222127e-05	2.562415e-23	0.9885772	-1.714909e-25	0.01127825	1.922532e-25
1e+07	0.0138316	-0.01375327	0.9721596	-0.1492189	0.0005703137	0.002517532	-0.0001244287	0.0001006469
	0.9721596	-0.1492189	0.01381623	-0.01375175	-0.0001244428	0.0001006627	0.000565209	0.002519238
	0.0005702533	0.002517536	-0.0001244992	0.0001006783	0.01380331	-0.01373689	0.9721758	-0.149314
	-0.0001244851	0.0001006625	0.0005651485	0.002519249	0.9721758	-0.149314	0.01378602	-0.01373483
2e+07	0.01126674	-0.0307779	0.93443	-0.2897225	0.001702401	0.004706605	2.550294e-06	0.0002174656
	0.93443	-0.2897225	0.01120867	-0.0307621	2.507409e-06	0.0002174974	0.001683392	0.004714751
	0.001702389	0.004706644	2.502198e-06	0.0002175402	0.01125641	-0.03073451	0.934392	-0.2899184
	2.543298e-06	0.0002175097	0.001683384	0.004714786	0.934392	-0.2899184	0.01119132	-0.03071589
3e+07	0.002517184	-0.0474012	0.8781511	-0.4208784	0.003381516	0.00643514	0.0002335746	0.0002304606
	0.8781511	-0.4208784	0.002396332	-0.04734706	0.0002334929	0.0002305697	0.003342631	0.006457713
	0.003381519	0.006435145	0.0002334962	0.0002305754	0.00252279	-0.04734589	0.878038	-0.4211508
	0.000233578	0.0002304667	0.003342631	0.006457718	0.878038	-0.4211508	0.002387663	-0.04728365
4e+07	-0.0110321	-0.06100589	0.8043706	-0.5412289	0.005444483	0.007574279	0.0004934017	8.991656e-05
	0.8043706	-0.5412289	-0.01122477	-0.06088253	0.0004933254	9.013475e-05	0.005383422	0.00762136
	0.005444478	0.007574275	0.0004933179	9.013273e-05	-0.01101262	-0.0609449	0.8041629	-0.5415568
	0.0004933937	8.99141e-05	0.005383416	0.007621358	0.8041629	-0.5415568	-0.01122759	-0.06080454
5e+07	-0.02797452	-0.07027424	0.714859	-0.6486587	0.007694668	0.008049673	0.0006977136	-0.000210947
	0.714859	-0.6486587	-0.0282351	-0.0700479	0.0006976927	-0.0002106076	0.007613395	0.008131972
	0.007694663	0.008049672	0.0006976874	-0.0002106068	-0.02794397	-0.0702117	0.7145411	-0.6490182
	0.0006977079	-0.0002109462	0.007613392	0.008131972	0.7145411	-0.6490182	-0.02823422	-0.0699556
6e+07	-0.04677102	-0.07446421	0.61178	-0.7412844	0.009926945	0.007850801	0.0007685089	-0.0006389624
	0.61178	-0.7412844	-0.04708207	-0.07410345	0.0007686054	-0.0006385103	0.009831693	0.007978027
	0.009926949	0.0078508	0.0007686093	-0.0006385127	-0.0467328	-0.07440269	0.6113411	-0.7416489
	0.0007685133	-0.000638965	0.009831695	0.007978026	0.6113411	-0.7416489	-0.04707863	-0.07399587
7e+07	-0.06583488	-0.07333812	0.4975401	-0.8175911	0.01194889	0.007027697	0.0006499944	-0.001129019
	0.4975401	-0.8175911	-0.06616706	-0.07281883	0.000650271	-0.001128496	0.01184958	0.00720706
	0.0119489	0.007027693	0.0006502803	-0.001128507	-0.06579255	-0.07327874	0.4969748	-0.817932
	0.0006500047	-0.001129031	0.01184959	0.007207056	0.4969748	-0.817932	-0.06616101	-0.07269449
8e+07	-0.08364426	-0.06712075	0.3746769	-0.8764648	0.01359753	0.005681228	0.0003190247	-0.001597389
	0.3746769	-0.8764648	-0.08395959	-0.06643001	0.0003195249	-0.001596869	0.01350675	0.005916225
	0.01359754	0.00568122	0.0003195325	-0.001596887	-0.08360119	-0.06706335	0.3739853	-0.8767521
	0.0003190331	-0.001597408	0.01350676	0.005916218	0.3739853	-0.8767521	-0.08394974	-0.06628751
9e+07	-0.09884979	-0.05644191	0.2457708	-0.9171806	0.01475089	0.003949773	-0.0002114969	-0.001957375
	0.2457708	-0.9171806	-0.09910589	-0.05558055	-0.0002107653	-0.001956955	0.01468255	0.004239352
	0.0147509	0.003949765	-0.0002107633	-0.00195697	-0.09880881	-0.05638532	0.2449595	-0.9173844
	-0.0002114947	-0.001957392	0.01468255	0.004239346	0.2449595	-0.9173844	-0.09909013	-0.05541914
1e+08	-0.1103668	-0.04226071	0.1133884	-0.9393691	0.01533684	0.001995389	-0.0008998909	-0.002134882
	0.1133884	-0.9393691	-0.1105217	-0.04124432	-0.0008989633	-0.002134658	0.01530454	0.002333582
	0.01533684	0.001995389	-0.0008989633	-0.002134658	-0.1103303	-0.04220312	0.1124706	-0.9394603
	-0.0008998909	-0.002134882	0.01530454	0.002333582	0.1124706	-0.9394603	-0.1104977	-0.04106432
1.1e+08	-0.1174276	-0.02575973	-0.01997963	-0.9430119	0.01532374	-2.976132e-05	-0.001663359	-0.002050715
	-0.01997963	-0.9430119	-0.1174445	-0.02462019	-0.001662296	-0.002050769	0.01533914	0.0003460187
	0.01532374	-2.976131e-05	-0.001662296	-0.002050769	-0.1173973	-0.0256994	-0.02098586	-0.942967
	-0.001663359	-0.002050715	0.01533914	0.0003460187	-0.02098586	-0.942967	-0.1174091	-0.02442275
1.2e+08	-0.1196165	-0.00827731	-0.1519424	-0.9282988	0.01471521	-0.001944405	-0.002393988	-0.001712467
	-0.1519424	-0.9282988	-0.1194693	-0.007055877	-0.002392912	-0.001712841	0.01478614	-0.001545521
	0.01471521	-0.001944405	-0.002392912	-0.001712841	-0.1195923	-0.008210436	-0.1530154	-0.9280947
	-0.002393988	-0.001712467	0.01478614	-0.001545521	-0.1530154	-0.9280947	-0.1194195	-0.006843163
1.3e+08	-0.1169151	0.008809584	-0.280156	-0.8956902	0.01357543	-0.003591931	-0.003010339	-0.001141999
	-0.280156	-0.8956902	-0.1165906	0.01006243	-0.003009378	-0.001142676	0.01370502	-0.003187133
	0.01357543	-0.003591931	-0.003009378	-0.001142676	-0.1168958	0.008886112	-0.2812689	-0.8953076
	-0.003010339	-0.001141999	0.01370502	-0.003187133	-0.2812689	-0.8953076	-0.116524	0.01028672
1.4e+08	-0.1096701	0.02418682	-0.4023632	-0.8458814	0.01200179	-0.00483987	-0.003439698	-0.0003902816
	-0.4023632	-0.8458814	-0.1091711	0.02541545	-0.003438958	-0.0003911942	0.01218761	-0.004447471
	0.01200179	-0.00483987	-0.003438958	-0.0003911943	-0.1096533	0.02427497	-0.4034852	-0.8453061
	-0.003439698	-0.0003902817	0.01218761	-0.004447471	-0.4034852	-0.8453061	-0.1090865	0.02564639
1.5e+08	-0.09856373	0.03669264	-0.5163872	-0.7798003	0.01012162	-0.00558573	-0.003632998	0.0004688427
	-0.5163872	-0.7798003	-0.09791116	0.03784167	-0.003632546	0.0004678017	0.01035531	-0.005223336
	0.01012162	-0.00558573	-0.003632546	0.0004678017	-0.0985468	0.03679316	-0.5174844	-0.7790234
	-0.003632998	0.0004688426	0.01035531	-0.005223336	-0.5174844	-0.7790234	-0.0978092	0.03807362
1.6e+08	-0.08456238	0.04539827	-0.6201382	-0.6986184	0.008085202	-0.005763369	-0.003572015	0.001349751
	-0.6201382	-0.6986184	-0.08379508	0.04641848	-0.003571864	0.001348707	0.0083528	-0.005445985
	0.008085202	-0.005763369	-0.003571864	0.001348707	-0.08454266	0.04551076	-0.6211747	-0.6976368
	-0.003572015	0.001349751	0.0083528	-0.005445985	-0.6211747	-0.6976368	-0.08367847	0.04664581
1.7e+08	-0.06884557	0.04967429	-0.7116334	-0.6037677	0.006057012	-0.005348591	-0.003271352	0.002167977
	-0.7116334	-0.6037677	-0.06801845	0.0505286	-0.00327146	0.002167048	0.006339787	-0.005086842
	0.006057012	-0.005348591	-0.00327146	0.002167048	-0.06882094	0.04979753	-0.7125724	-0.6025846
	-0.003271352	0.002167977	0.006339787	-0.005086842	-0.7125724	-0.6025846	-0.06789189	0.05074643
1.8e+08	-0.05271989	0.04923861	-0.7890334	-0.4969573	0.004204915	-0.004363208	-0.002775096	0.002852914
	-0.7890334	-0.4969573	-0.05189985	0.0499072	-0.002775372	0.00285219	0.004480792	-0.004161868
	0.004204915	-0.004363208	-0.002775372	0.00285219	-0.05268883	0.04937082	-0.7898377	-0.4955822
	-0.002775096	0.002852914	0.004480792	-0.004161868	-0.7898377	-0.4955822	-0.0517698	0.05011218
1.9e+08	-0.03752067	0.04418128	-0.8506937	-0.3801817	0.002687332	-0.002876454	-0.002148584	0.003358195
	-0.8506937	-0.3801817	-0.03678106	0.04466537	-0.002148902	0.003357713	0.002932756	-0.002733443
	0.002687332	-0.002876454	-0.002148902	0.003357713	-0.03748238	0.04432033	-0.8513274	-0.3786306
	-0.002148584	0.003358195	0.002932756	-0.002733443	-0.8513274	-0.3786306	-0.03665517	0.04485623
2e+08	-0.02450772	0.03496203	-0.8952291	-0.2557124	0.001639161	-0.001002511	-0.001466524	0.003667858
	-0.8952291	-0.2557124	-0.02392154	0.03528584	-0.001466751	0.003667594	0.001831237	-0.0009084842
	0.001639161	-0.001002511	-0.001466751	0.003667594	-0.02446207	0.0351057	-0.8956581	-0.2540077
	-0.001466524	0.003667858	0.001831237	-0.0009084842	-0.8956581	-0.2540077	-0.02380792	0.0354638
2.1e+08	-0.01476272	0.02237801	-0.9215819	-0.1260685	0.00115788	0.001106802	-0.000799493	0.003797006
	-0.9215819	-0.1260685	-0.01439535	0.02258847	-0.0007995187	0.003796871	0.001276617	0.00116819
	0.00115788	0.001106802	-0.0007995187	0.003796871	-0.01471029	0.02252416	-0.9217753	-0.1242386
	-0.000799493	0.003797006	0.001276617	0.00116819	-0.9217753	-0.1242386	-0.01430178	0.02275733
2.2e+08	-0.00909791	0.007501716	-0.929088	0.006036976	0.00129193	0.003274378	-0.0002013339	0.003786592
	-0.929088	0.006036976	-0.008999996	0.007665825	-0.0002010976	0.003786449	0.001322373	0.003325528
	0.00129193	0.003274378	-0.0002010976	0.003786449	-0.009039913	0.007648433	-0.9290189	0.007958045
	-0.0002013339	0.003786592	0.001322373	0.003325528	-0.9290189	0.007958045	-0.008933101	0.007831845
2.3e+08	-0.007985668	-0.008407362	-0.9175282	0.1377739	0.002033549	0.005314375	0.0002999859	0.003693198
	-0.9175282	0.1377739	-0.00818699	-0.008207368	0.0003004743	0.003692886	0.001967592	0.005382136
	0.002033549	0.005314375	0.0003004743	0.003692886	-0.007923879	-0.008261551	-0.917175	0.1397469
	0.0002999859	0.003693198	0.001967592	0.005382136	-0.917175	0.1397469	-0.008151433	-0.008035858
2.4e+08	-0.01151742	-0.02400972	-0.887158	0.2662877	0.003317805	0.007051011	0.0007060791	0.003575793
	-0.887158	0.2662877	-0.01202242	-0.02368311	0.0007067317	0.003575163	0.003155483	0.007164547
	0.003317805	0.007051011	0.0007067317	0.003575163	-0.01145405	-0.0238657	-0.8865048	0.2682691
	0.0007060791	0.003575793	0.003155483	0.007164547	-0.8865048	0.2682691	-0.01202032	-0.02349636
2.5e+08	-0.01939728	-0.03800124	-0.8387091	0.3888011	0.00502852	0.008336953	0.001045546	0.003482247
	-0.8387091	0.3888011	-0.02018287	-0.0374568	0.001046207	0.003481198	0.004778631	0.008525237
	0.00502852	0.008336953	0.001046207	0.003481198	-0.01933479	-0.03785918	-0.837747	0.3907439
	0.001045546	0.003482247	0.004778631	0.008525237	-0.837747	0.3907439	-0.02021335	-0.0372444
2.6e+08	-0.03097156	-0.04922473	-0.7733624	0.5027124	0.007010499	0.009068469	0.001365648	0.00343851
	-0.7733624	0.5027124	-0.03198743	-0.04837919	0.001366118	0.003437013	0.006690438	0.009357621
	0.007010499	0.009068469	0.001366118	0.003437013	-0.03091242	-0.04908399	-0.7720901	0.5045675
	0.001365648	0.00343851	0.006690438	0.009357621	-0.7720901	0.5045675	-0.03204653	-0.04813106
2.7e+08	-0.04529056	-0.05676598	-0.692694	0.605681	0.00908619	0.009195087	0.001720117	0.003442735
	-0.692694	0.605681	-0.04646222	-0.05555219	0.001720191	0.003440853	0.008720971	0.009605806
	0.00908619	0.009195087	0.001720191	0.003440853	-0.04523701	-0.05662513	-0.6911181	0.6073982
	0.001720117	0.003442735	0.008720971	0.009605806	-0.6911181	0.6073982	-0.04654292	-0.05525948
2.8e+08	-0.06119521	-0.06002507	-0.5986027	0.695692	0.01107417	0.00872262	0.002155797	0.00346549
	-0.5986027	0.695692	-0.06242933	-0.0583989	0.002155302	0.003463373	0.01069468	0.009267967
	0.01107417	0.00872262	0.002155302	0.003463373	-0.06114898	-0.05988197	-0.596738	0.6972212
	0.002155797	0.00346549	0.01069468	0.009267967	-0.596738	0.6972212	-0.06252207	-0.05805489
2.9e+08	-0.07741851	-0.05875704	-0.4932274	0.7710944	0.01280673	0.007709707	0.002700936	0.00345577
	-0.4932274	0.7710944	-0.07861026	-0.05670252	0.002699769	0.003453638	0.01244732	0.008393464
	0.01280673	0.007709707	0.002699769	0.003453638	-0.0773806	-0.05860905	-0.4910969	0.7723872
	0.002700936	0.00345577	0.01244732	0.008393464	-0.4910969	0.7723872	-0.07870353	-0.05630337
3e+08	-0.09269101	-0.05308065	-0.3788649	0.8306155	0.01414428	0.006259151	0.003357434	0.003351349
	-0.3788649	0.8306155	-0.09373261	-0.05061264	0.003355588	0.003349456	0.01383995	0.00707495
	0.01414428	0.006259151	0.003355588	0.003349456	-0.09266154	-0.05292485	-0.3764999	0.8316267
	0.003357434	0.003351349	0.01383995	0.00707495	-0.3764999	0.8316267	-0.0938139	-0.05015795
3.1e+08	-0.1058406	-0.04345709	-0.2578961	0.8733528	0.01498539	0.004505977	0.004098328	0.003091219
	-0.2578961	0.8733528	-0.1066305	-0.04062146	0.004095897	0.003089808	0.01476876	0.005437297
	0.01498539	0.004505977	0.004095897	0.003089808	-0.1058188	-0.0432906	-0.2553353	0.8740414
	0.004098328	0.003091219	0.01476876	0.005437297	-0.2553353	0.8740414	-0.1066873	-0.04011447
3.2e+08	-0.1158793	-0.03064355	-0.1327264	0.8987511	0.0152722	0.002604208	0.004870681	0.0026277
	-0.1327264	0.8987511	-0.1163307	-0.02751468	0.004867855	0.002626965	0.01517053	0.003625289
	0.0152722	0.002604208	0.004867855	0.002626965	-0.1158634	-0.03046384	-0.1300156	0.8990816
	0.004870681	0.0026277	0.01517053	0.003625289	-0.1300156	0.8990816	-0.1163515	-0.02696226
3.3e+08	-0.1220706	-0.01562784	-0.005742929	0.9065715	0.01499159	0.0007139907	0.005603068	0.001936126
	-0.005742929	0.9065715	-0.1221198	-0.01230368	0.0056001	0.001936176	0.01502421	0.001791595
	0.01499159	0.0007139907	0.0056001	0.001936176	-0.1220583	-0.01543297	-0.002933679	0.9065156
	0.005603068	0.001936126	0.01502421	0.001791595	-0.002933679	0.9065156	-0.1220954	-0.01171595
3.4e+08	-0.1239776	0.0004496916	0.1207128	0.8968616	0.01417333	-0.00100993	0.006216143	0.001020617
	0.1207128	0.8968616	-0.1235898	0.003854591	0.006213311	0.001021453	0.01434958	8.596085e-05
	0.01417333	-0.00100993	0.006213311	0.001021453	-0.1239659	0.0006608933	0.1235637	0.8963985
	0.006216143	0.001020617	0.01434958	8.596084e-05	0.1235637	0.8963985	-0.1235141	0.004464981
3.5e+08	-0.1214873	0.01638102	0.2443588	0.8699294	0.01288601	-0.002428046	0.006634488	-8.479201e-05
	0.2443588	0.8699294	-0.1206611	0.01974408	0.006632051	-8.327765e-05	0.01320404	-0.001354104
	0.01288601	-0.002428046	0.006632051	-8.327766e-05	-0.1214733	0.01660887	0.247191	0.8690469
	0.006634488	-8.479201e-05	0.01320404	-0.001354104	0.247191	0.8690469	-0.1205316	0.02036291
3.6e+08	-0.1148148	0.03097711	0.3629801	0.8263281	0.01123158	-0.00342434	0.006797885	-0.001319666
	0.3629801	0.8263281	-0.1135836	0.0341773	0.006796038	-0.001317674	0.011678	-0.002411297
	0.01123158	-0.00342434	0.006796038	-0.001317674	-0.1147951	0.031221	0.3657307	0.8250231
	0.006797885	-0.001319666	0.011678	-0.002411297	0.3657307	0.8250231	-0.1134021	0.03478988
3.7e+08	-0.1044853	0.04315197	0.4744342	0.766851	0.009338881	-0.00391325	0.006670367	-0.002604712
	0.4744342	0.766851	-0.1029166	0.0460797	0.006669208	-0.002602504	0.009889362	-0.002995479
	0.009338881	-0.00391325	0.006669208	-0.002602504	-0.1044572	0.04341043	0.4770393	0.7651299
	0.006670367	-0.002604712	0.009889362	-0.002995479	0.4770393	0.7651299	-0.1026891	0.04667206
3.8e+08	-0.09129765	0.05200011	0.5766609	0.6925366	0.007355923	-0.003845543	0.006245715	-0.003852241
	0.5766609	0.6925366	-0.0894893	0.05456673	0.006245225	-0.003850093	0.007976742	-0.003049798
	0.007355923	-0.003845543	0.006245225	-0.003850093	-0.09125858	0.05227087	0.5790569	0.6904154
	0.006245715	-0.003852241	0.007976742	-0.003049798	0.5790569	0.6904154	-0.08922548	0.05512685
3.9e+08	-0.07626841	0.05686334	0.6677017	0.6046788	0.005440874	-0.003212972	0.005548536	-0.004978017
	0.6677017	0.6046788	-0.07434204	0.05900949	0.005548583	-0.004976169	0.006091278	-0.00255585
	0.005440874	-0.003212972	0.005548583	-0.004976169	-0.07621667	0.05714351	0.6698269	0.6021834
	0.005548536	-0.004978017	0.006091278	-0.00255585	0.6698269	0.6021834	-0.07405509	0.05952838
4e+08	-0.06056016	0.05738265	0.7457317	0.5048393	0.003751355	-0.00205117	0.00463064	-0.005912731
	0.7457317	0.5048393	-0.05865264	0.05908477	0.004631003	-0.005911343	0.004386596	-0.001537298
	0.003751355	-0.00205117	0.004631003	-0.005911343	-0.06049481	0.05766888	0.7475276	0.5020048
	0.00463064	-0.005912731	0.004386596	-0.001537298	0.7475276	0.5020048	-0.05835803	0.05955736
4.1e+08	-0.04539639	0.05353064	0.8091043	0.3948533	0.002432258	-0.0004398818	0.003563081	-0.006611255
	0.8091043	0.3948533	-0.04364927	0.05480488	0.003563492	-0.006610372	0.003007089	-6.100678e-05
	0.002432258	-0.0004398818	0.003563492	-0.006610372	-0.04531747	0.05381934	0.8105171	0.391724
	0.003563081	-0.006611255	0.003007089	-6.100678e-05	0.8105171	0.391724	-0.04336371	0.05523063
4.2e+08	-0.03196815	0.04562033	0.8564071	0.2768236	0.001602761	0.001500424	0.002425013	-0.007058
	0.8564071	0.2768236	-0.03051609	0.04652339	0.002425208	-0.007057539	0.00207512	0.001765347
	0.001602761	0.001500424	0.002425208	-0.007057539	-0.03187669	0.04590791	0.8573891	0.2734523
	0.002425013	-0.007058	0.00207512	0.001765347	0.8573891	0.2734523	-0.03025612	0.04690656
4.3e+08	-0.02133888	0.0342873	0.8865244	0.1530976	0.001343852	0.003616335	0.001291148	-0.007267245
	0.8865244	0.1530976	-0.02029791	0.03491384	0.001290927	-0.007267009	0.001678466	0.0038
	0.001343852	0.003616335	0.001290927	-0.007267009	-0.02123699	0.0345705	0.887035	0.1495446
	0.001291148	-0.007267245	0.001678466	0.0038	0.887035	0.1495446	-0.0200786	0.03526336
4.4e+08	-0.01435587	0.02044421	0.8986978	0.02622225	0.001688201	0.005733743	0.0002201074	-0.007278142
	0.8986978	0.02622225	-0.01381258	0.02092077	0.0002193793	-0.007277854	0.001859798	0.005878341
	0.001688201	0.005733743	0.0002193793	-0.007277854	-0.0142466	0.02072037	0.8987051	0.02255475
	0.0002201074	-0.007278142	0.001859798	0.005878341	0.8987051	0.02255475	-0.01364618	0.02124974
4.5e+08	-0.01157697	0.005209629	0.8925785	-0.1011203	0.00261428	0.007673755	-0.0007540522	-0.007145132
	0.8925785	-0.1011203	-0.01157969	0.005685382	-0.0007552415	-0.007144491	0.002610141	0.007827936
	0.00261428	0.007673755	-0.0007552415	-0.007144491	-0.01146418	0.005477021	0.8920601	-0.1048298
	-0.0007540522	-0.007145132	0.002610141	0.007827936	0.8920601	-0.1048298	-0.0114745	0.006010191
4.6e+08	-0.01322101	-0.01018348	0.8682611	-0.2261954	0.004046293	0.009270524	-0.001625319	-0.006925585
	0.8682611	-0.2261954	-0.01377395	-0.009548406	-0.001626784	-0.006924331	0.00386788	0.009485656
	0.004046293	0.009270524	-0.001626784	-0.006924331	-0.01310908	-0.009925401	0.8672055	-0.2298704
	-0.001625319	-0.006925585	0.00386788	0.009485656	0.8672055	-0.2298704	-0.01373342	-0.009209275
4.7e+08	-0.01914799	-0.02449117	0.8262953	-0.3463082	0.005860545	0.01038852	-0.00241339	-0.006667161
	0.8262953	-0.3463082	-0.02020903	-0.02353894	-0.002414834	-0.006665128	0.005524019	0.01071455
	0.005860545	0.01038852	-0.002414834	-0.006665128	-0.01904146	-0.0242416	0.824702	-0.3498694
	-0.00241339	-0.006667161	0.005524019	0.01071455	0.824702	-0.3498694	-0.02023128	-0.02316634
4.8e+08	-0.02887184	-0.03656351	0.7676692	-0.4588973	0.007897707	0.0109367	-0.003155976	-0.006397556
	0.7676692	-0.4588973	-0.03035438	-0.03515208	-0.00315704	-0.006394723	0.007433219	0.01141792
	0.007897707	0.0109367	-0.00315704	-0.006394723	-0.02877495	-0.03632021	0.7655499	-0.4622649
	-0.003155976	-0.006397556	0.007433219	0.01141792	0.7655499	-0.4622649	-0.0304321	-0.03472775
4.9e+08	-0.04160445	-0.0454402	0.6937694	-0.5616208	0.009979292	0.01087732	-0.003897393	-0.006118832
	0.6937694	-0.5616208	-0.04338326	-0.04345587	-0.003897725	-0.006115335	0.009429048	0.01154844
	0.009979292	0.01087732	-0.003897725	-0.006115335	-0.0415207	-0.04519966	0.6911477	-0.5647158
	-0.003897393	-0.006118832	0.009429048	0.01154844	0.6911477	-0.5647158	-0.04350403	-0.04296397
5e+08	-0.05632581	-0.05042735	0.6063189	-0.6524245	0.01192588	0.01022842	-0.004675939	-0.005807435
	0.6063189	-0.6524245	-0.05824637	-0.0477951	-0.004675257	-0.005803555	0.01134108	0.01111127
	0.01192588	0.01022842	-0.004675257	-0.005803555	-0.05625752	-0.05018501	0.6032307	-0.6551709
	-0.004675939	-0.005807435	0.01134108	0.01111127	0.6032307	-0.6551709	-0.05839353	-0.04722367
5.1e+08	-0.07187224	-0.0511486	0.5073034	-0.7295898	0.01357441	0.009059833	-0.005512705	-0.005419779
	0.5073034	-0.7295898	-0.0737628	-0.04783936	-0.00551086	-0.005415901	0.0130113	0.0101611
	0.01357441	0.009059833	-0.00551086	-0.005415901	-0.07182029	-0.05089926	0.5037961	-0.7319166
