!$
! Info: Touchstone file created by Circ.  Input file=Tx_16in_Rx_93ohms_TxVia_35mils_RxVia_45mils.circ
!$
# Hz S RI R 50
0	0.01459285	1.85401e-25	7.280594e-10	2.531054e-27	0.0001040166	2.728551e-23	3.584432e-10	5.640712e-28
	7.280594e-10	2.531034e-27	0.01459111	2.285469e-25	2.464315e-09	9.733303e-27	0.0001038848	3.306447e-23
	0.0001038315	2.717096e-23	2.464315e-09	9.733311e-27	0.0146033	1.853586e-25	7.300446e-10	2.709997e-27
	3.584432e-10	5.640654e-28	0.0001020358	3.322713e-23	7.30045e-10	2.710015e-27	0.01460414	2.141544e-25
1e+07	0.02059429	-0.002821595	9.528398e-10	1.227357e-09	0.000689066	0.002850842	6.12135e-10	5.001411e-10
	9.528398e-10	1.227357e-09	0.02100771	-0.002883276	3.435536e-09	6.623928e-09	0.0006818604	0.002842378
	0.0006890605	0.002850843	3.435536e-09	6.623928e-09	0.02103335	-0.002902207	9.320397e-10	1.253795e-09
	6.12135e-10	5.001411e-10	0.0006817992	0.002842388	9.320395e-10	1.253795e-09	0.02058749	-0.002862681
2e+07	0.02275822	-0.01105689	1.408528e-09	2.016462e-09	0.00196095	0.00545226	1.063818e-09	6.404771e-10
	1.408528e-09	2.016462e-09	0.02298584	-0.01128878	4.40853e-09	1.165704e-08	0.001941319	0.005442222
	0.001960951	0.005452264	4.40853e-09	1.165704e-08	0.02304165	-0.01133935	1.336664e-09	2.088406e-09
	1.063818e-09	6.404771e-10	0.00194131	0.005442258	1.336664e-09	2.088406e-09	0.02268664	-0.01111996
3e+07	0.0207032	-0.02055206	1.795064e-09	2.629998e-09	0.004045951	0.007318626	1.490744e-09	5.558949e-10
	1.795064e-09	2.629998e-09	0.0207529	-0.02079871	4.900329e-09	1.661833e-08	0.00398606	0.007330207
	0.004045954	0.007318625	4.900329e-09	1.661833e-08	0.02084961	-0.02090239	1.651896e-09	2.788738e-09
	1.490744e-09	5.558949e-10	0.00398606	0.007330212	1.651896e-09	2.788738e-09	0.02053989	-0.02060125
4e+07	0.01531037	-0.02910936	2.091308e-09	3.069712e-09	0.006613012	0.008342584	1.80624e-09	2.460033e-10
	2.091308e-09	3.069712e-09	0.01519519	-0.02929517	5.190009e-09	2.162631e-08	0.006526233	0.008385513
	0.006613013	0.008342582	5.190009e-09	2.162631e-08	0.01533195	-0.02947778	1.878874e-09	3.36132e-09
	1.80624e-09	2.460032e-10	0.006526227	0.008385511	1.878874e-09	3.36132e-09	0.01504334	-0.02910187
5e+07	0.007405433	-0.03564361	2.243663e-09	3.376659e-09	0.009307642	0.008483246	1.923457e-09	-2.340677e-10
	2.243663e-09	3.376659e-09	0.007153685	-0.03570905	5.364428e-09	2.672635e-08	0.009200437	0.00857035
	0.009307642	0.008483245	5.364428e-09	2.672635e-08	0.007316883	-0.03599592	1.98598e-09	3.843199e-09
	1.923457e-09	-2.340677e-10	0.009200433	0.008570349	1.98598e-09	3.843199e-09	0.007040408	-0.03553373
6e+07	-0.002076211	-0.03949527	2.197538e-09	3.609723e-09	0.01184455	0.007759104	1.775408e-09	-7.97073e-10
	2.197538e-09	3.609723e-09	-0.002421045	-0.03939579	5.497104e-09	3.195577e-08	0.01172836	0.007900228
	0.01184455	0.007759104	5.497104e-09	3.195577e-08	-0.002257055	-0.03980603	1.936635e-09	4.280812e-09
	1.775408e-09	-7.97073e-10	0.01172836	0.007900227	1.936635e-09	4.280812e-09	-0.002515191	-0.03924167
7e+07	-0.01213279	-0.04036518	1.91917e-09	3.85075e-09	0.01396066	0.006276761	1.333134e-09	-1.335511e-09
	1.91917e-09	3.85075e-09	-0.01251584	-0.04007449	5.666566e-09	3.732599e-08	0.01385065	0.006477026
	0.01396067	0.006276761	5.666566e-09	3.732599e-08	-0.01238542	-0.04061596	1.708968e-09	4.737933e-09
	1.333134e-09	-1.335511e-09	0.01385065	0.006477023	1.708968e-09	4.737933e-09	-0.01260618	-0.03993795
8e+07	-0.02177623	-0.03828949	1.406044e-09	4.198147e-09	0.01544287	0.004218816	6.091581e-10	-1.736457e-09
	1.406044e-09	4.198147e-09	-0.02213715	-0.03780214	5.948613e-09	4.281852e-08	0.01535605	0.004477339
	0.01544287	0.004218815	5.948613e-09	4.281852e-08	-0.02207831	-0.03846829	1.305184e-09	5.291617e-09
	6.091582e-10	-1.736457e-09	0.01535606	0.004477332	1.305184e-09	5.291617e-09	-0.02223426	-0.03767539
9e+07	-0.03011575	-0.03360452	6.965245e-10	4.755423e-09	0.01614906	0.001823093	-3.441773e-10	-1.880894e-09
	6.965245e-10	4.755423e-09	-0.03039527	-0.03293655	6.396105e-09	4.838733e-08	0.01610203	0.002132463
	0.01614906	0.001823092	6.396105e-09	4.838733e-08	-0.03044374	-0.03370548	7.553087e-10	6.028835e-09
	-3.441771e-10	-1.880894e-09	0.01610204	0.002132457	7.553085e-10	6.028835e-09	-0.03050523	-0.03280992
1e+08	-0.03641559	-0.02689357	-1.345904e-10	5.636666e-09	0.01601961	-0.0006438084	-1.388251e-09	-1.590037e-09
	-1.345904e-10	5.636666e-09	-0.03655892	-0.02608109	6.987945e-09	5.398135e-08	0.01602659	-0.0002972319
	0.01601961	-0.0006438083	6.987945e-09	5.398135e-08	-0.03674224	-0.02691674	1.294951e-10	7.045614e-09
	-1.388251e-09	-1.590037e-09	0.01602659	-0.0002972319	1.294951e-10	7.045614e-09	-0.03668701	-0.0259449
1.1e+08	-0.04026145	-0.01902435	-9.340048e-10	6.83501e-09	0.01508484	-0.002904365	-2.415094e-09	-1.014411e-09
	-9.340048e-10	6.83501e-09	-0.04024021	-0.01813735	7.836555e-09	5.95126e-08	0.01515367	-0.002541514
	0.01508484	-0.002904365	7.836555e-09	5.95126e-08	-0.04057288	-0.01899374	-4.31447e-10	8.302902e-09
	-2.415094e-09	-1.014411e-09	0.01515367	-0.002541514	-4.31447e-10	8.302902e-09	-0.04037776	-0.01796845
1.2e+08	-0.04148823	-0.01069374	-1.5889e-09	8.363704e-09	0.01346445	-0.004723296	-3.358722e-09	-7.068232e-11
	-1.5889e-09	8.363704e-09	-0.0413019	-0.00978774	8.894532e-09	6.489556e-08	0.01359487	-0.004364841
	0.01346445	-0.004723296	8.894532e-09	6.489556e-08	-0.0417816	-0.01061206	-8.517352e-10	9.807777e-09
	-3.358722e-09	-7.068232e-11	0.01359487	-0.004364841	-8.517352e-10	9.807777e-09	-0.04142995	-0.009585879
1.3e+08	-0.04010497	-0.002747022	-1.966076e-09	1.017506e-08	0.01133723	-0.005910592	-4.067118e-09	1.21337e-09
	-1.966076e-09	1.017506e-08	-0.03976628	-0.001878572	1.011681e-08	7.006442e-08	0.01152236	-0.005577306
	0.01133723	-0.005910592	1.011681e-08	7.006442e-08	-0.04037136	-0.002618622	-1.026391e-09	1.151523e-08
	-4.067118e-09	1.21337e-09	0.01152236	-0.005577306	-1.026391e-09	1.151523e-08	-0.03987227	-0.001649322
1.4e+08	-0.03640646	0.004035039	-1.957528e-09	1.215895e-08	0.008932324	-0.006342772	-4.415922e-09	2.761267e-09
	-1.957528e-09	1.215895e-08	-0.03594652	0.004814013	1.143166e-08	7.496404e-08	0.009158115	-0.006053003
	0.008932324	-0.006342772	1.143166e-08	7.496404e-08	-0.03663656	0.004202805	-8.749644e-10	1.332755e-08
	-4.415922e-09	2.761267e-09	0.009158115	-0.006053003	-8.749644e-10	1.332755e-08	-0.03602198	0.005061089
1.5e+08	-0.03091323	0.009015588	-1.505218e-09	1.416478e-08	0.006504789	-0.00597499	-4.307115e-09	4.455529e-09
	-1.505218e-09	1.416478e-08	-0.03038043	0.009664498	1.274656e-08	7.956706e-08	0.006750897	-0.005742103
	0.006504789	-0.00597499	1.274656e-08	7.956706e-08	-0.03109919	0.009212428	-3.62248e-10	1.511584e-08
	-4.307115e-09	4.455529e-09	0.006750897	-0.005742103	-3.62248e-10	1.511584e-08	-0.03042149	0.009917446
1.6e+08	-0.0243104	0.01176073	-6.017892e-10	1.60356e-08	0.004309884	-0.004844924	-3.683419e-09	6.132336e-09
	-6.017892e-10	1.60356e-08	-0.02376644	0.01225637	1.395981e-08	8.388077e-08	0.004551506	-0.004675129
	0.004309884	-0.004844924	1.395981e-08	8.388077e-08	-0.02444712	0.01197404	5.04119e-10	1.675228e-08
	-3.683419e-09	6.132336e-09	0.004551506	-0.004675129	5.04119e-10	1.675228e-08	-0.02377413	0.01250259
1.7e+08	-0.01737443	0.01207701	6.924105e-10	1.761328e-08	0.002577426	-0.003068743	-2.549609e-09	7.613694e-09
	6.924105e-10	1.761328e-08	-0.01688806	0.01241799	1.497529e-08	8.795087e-08	0.002787863	-0.002959646
	0.002577426	-0.003068743	1.497529e-08	8.795087e-08	-0.01746036	0.01229282	1.659099e-09	1.811264e-08
	-2.549609e-09	7.613694e-09	0.002787863	-0.002959646	1.659099e-09	1.811264e-08	-0.0168681	0.01264602
1.8e+08	-0.01089317	0.01002475	2.264012e-09	1.877092e-08	0.001488406	-0.0008293939	-9.739802e-10	8.724096e-09
	2.264012e-09	1.877092e-08	-0.01053251	0.01023355	1.571705e-08	9.18567e-08	0.001642073	-0.0007694799
	0.001488406	-0.0008293939	1.571705e-08	9.18567e-08	-0.01093075	0.01022889	2.996357e-09	1.910495e-08
	-9.739802e-10	8.724096e-09	0.001642073	-0.00076948	2.996357e-09	1.910495e-08	-0.01049454	0.01043457
1.9e+08	-0.005586588	0.005906267	3.963307e-09	1.942807e-08	0.00115612	0.001641973	9.131724e-10	9.314018e-09
	3.963307e-09	1.942807e-08	-0.005410849	0.006028577	1.614083e-08	9.570152e-08	0.001231664	0.001672793
	0.00115612	0.001641973	1.614083e-08	9.570152e-08	-0.005582242	0.006085584	4.385089e-09	1.96807e-08
	9.131724e-10	9.314018e-09	0.001231664	0.001672793	4.385089e-09	1.96807e-08	-0.005367216	0.006197605
2e+08	-0.00203554	0.0002304254	5.623278e-09	1.955733e-08	0.001613926	0.004089924	2.930298e-09	9.28249e-09
	5.623278e-09	1.955733e-08	-0.002087233	0.0003315427	1.624066e-08	9.959912e-08	0.001597075	0.004118709
	0.001613926	0.004089924	1.624066e-08	9.959912e-08	-0.001999341	0.0003739841	5.687777e-09	1.983741e-08
	2.930298e-09	9.28249e-09	0.001597075	0.004118709	5.687777e-09	1.983741e-08	-0.002051514	0.0004681294
2.1e+08	-0.0006255739	-0.006343026	7.076759e-09	1.91838e-08	0.002811245	0.006261711	4.863899e-09	8.594768e-09
	7.076759e-09	1.91838e-08	-0.0009241359	-0.006184363	1.604966e-08	1.036594e-07	0.00269704	0.006319948
	0.002811245	0.006261711	1.604966e-08	1.036594e-07	-0.000570485	-0.006242894	6.774704e-09	1.961454e-08
	4.863899e-09	8.594768e-09	0.00269704	0.006319948	6.774704e-09	1.961454e-08	-0.0009094983	-0.006075984
2.2e+08	-0.001511301	-0.01307352	8.169705e-09	1.838056e-08	0.004618622	0.007934417	6.493893e-09	7.291717e-09
	8.169705e-09	1.838056e-08	-0.00204904	-0.01277335	1.563551e-08	1.079755e-07	0.004412734	0.008054792
	0.004618622	0.007934417	1.563551e-08	1.079755e-07	-0.001452135	-0.01302042	7.533404e-09	1.908649e-08
	6.493893e-09	7.291717e-09	0.004412734	0.008054792	7.533404e-09	1.908649e-08	-0.002066674	-0.01268465
2.3e+08	-0.004604874	-0.0192169	8.771254e-09	1.726349e-08	0.006841595	0.00893915	7.621126e-09	5.48891e-09
	8.771254e-09	1.726349e-08	-0.005345843	-0.01869537	1.509222e-08	1.126138e-07	0.006560511	0.009151938
	0.006841595	0.00893915	1.509222e-08	1.126138e-07	-0.004557029	-0.01920991	7.874133e-09	1.835633e-08
	7.621126e-09	5.48891e-09	0.006560511	0.009151938	7.874133e-09	1.835633e-08	-0.005403623	-0.01861444
2.4e+08	-0.009589468	-0.02410162	8.783001e-09	1.598663e-08	0.009241927	0.009179327	8.092614e-09	3.365558e-09
	8.783001e-09	1.598663e-08	-0.01047157	-0.02329251	1.452996e-08	1.176083e-07	0.008911922	0.009508812
	0.009241927	0.009179327	1.452996e-08	1.176083e-07	-0.009567549	-0.02413525	7.734313e-09	1.755172e-08
	8.092614e-09	3.365558e-09	0.008911922	0.009508812	7.734313e-09	1.755172e-08	-0.01057308	-0.02320532
2.5e+08	-0.01595592	-0.02719615	8.150127e-09	1.473683e-08	0.01156374	0.008640811	7.820823e-09	1.145242e-09
	8.150127e-09	1.473683e-08	-0.01689616	-0.02605531	1.40647e-08	1.229583e-07	0.01121866	0.009102135
	0.01156374	0.008640811	1.40647e-08	1.229583e-07	-0.01597237	-0.02726069	7.085189e-09	1.682175e-08
	7.820823e-09	1.145242e-09	0.01121866	0.009102135	7.085189e-09	1.682175e-08	-0.01704021	-0.02594724
2.6e+08	-0.02305819	-0.02816059	6.823116e-09	1.375348e-08	0.01356141	0.007392725	6.795639e-09	-9.283633e-10
	6.823116e-09	1.375348e-08	-0.02396069	-0.02667244	1.378596e-08	1.286384e-07	0.01323945	0.007989563
	0.01356141	0.007392725	1.378596e-08	1.286384e-07	-0.02312213	-0.02824295	5.889653e-09	1.636071e-08
	6.795639e-09	-9.283633e-10	0.01323945	0.007989563	5.889653e-09	1.636071e-08	-0.02414132	-0.02652985
2.7e+08	-0.0301815	-0.02687775	4.939145e-09	1.326337e-08	0.01502582	0.005579021	5.083823e-09	-2.617466e-09
	4.939145e-09	1.326337e-08	-0.03094731	-0.02505872	1.381974e-08	1.345852e-07	0.01476561	0.006302393
	0.01502582	0.005579021	1.381974e-08	1.345852e-07	-0.03029774	-0.02696249	4.282793e-09	1.63469e-08
	5.083823e-09	-2.617466e-09	0.01476561	0.006302393	4.282793e-09	1.63469e-08	-0.03115438	-0.02487057
2.8e+08	-0.03661571	-0.02346108	2.673813e-09	1.345115e-08	0.01580619	0.003402064	2.82554e-09	-3.713301e-09
	2.673813e-09	1.345115e-08	-0.03715357	-0.0213598	1.425442e-08	1.406963e-07	0.01564255	0.0042305
	0.01580619	0.003402064	1.425442e-08	1.406963e-07	-0.03678423	-0.02353182	2.421846e-09	1.691861e-08
	2.82554e-09	-3.713301e-09	0.01564255	0.0042305	2.421846e-09	1.691861e-08	-0.03737382	-0.02111885
2.9e+08	-0.04172659	-0.01823954	2.625984e-10	1.444746e-08	0.01582493	0.001100405	2.220075e-10	-4.057198e-09
	2.625984e-10	1.444746e-08	-0.04196335	-0.0159334	1.514227e-08	1.468435e-07	0.01578485	0.00200152
	0.01582493	0.001100405	1.514227e-08	1.468435e-07	-0.04194235	-0.01828045	5.092144e-10	1.816754e-08
	2.220075e-10	-4.057198e-09	0.01578485	0.00200152	5.092144e-10	1.816754e-08	-0.04218179	-0.01563705
3e+08	-0.04501799	-0.01172146	-2.009488e-09	1.629761e-08	0.01508457	-0.001076593	-2.481507e-09	-3.556943e-09
	-2.009488e-09	1.629761e-08	-0.04490759	-0.009309883	1.649445e-08	1.528813e-07	0.01518379	-0.0001432204
	0.01508457	-0.001076593	1.649445e-08	1.528813e-07	-0.04527131	-0.01171878	-1.214882e-09	2.011194e-08
	-2.481507e-09	-3.556943e-09	0.01518379	-0.0001432204	-1.214882e-09	2.011194e-08	-0.04510908	-0.008960459
3.1e+08	-0.04617923	-0.004541677	-3.841834e-09	1.894056e-08	0.01366624	-0.002894513	-5.016232e-09	-2.198305e-09
	-3.841834e-09	1.894056e-08	-0.04570919	-0.002136583	1.827394e-08	1.586596e-07	0.01390694	-0.001973412
	0.01366624	-0.002894513	1.827394e-08	1.586596e-07	-0.04645657	-0.004485062	-2.502087e-09	2.267899e-08
	-5.016232e-09	-2.198305e-09	0.01390694	-0.001973412	-2.502087e-09	2.267899e-08	-0.04588003	-0.001741202
3.2e+08	-0.04511372	0.002602608	-4.961716e-09	2.220343e-08	0.01172046	-0.004157494	-7.113397e-09	-5.114336e-11
	-4.961716e-09	2.220343e-08	-0.04430825	0.004888125	2.03926e-08	1.640406e-07	0.01209025	-0.003292722
	0.01172046	-0.004157494	2.03926e-08	1.640406e-07	-0.04539882	0.002719041	-3.134249e-09	2.57012e-08
	-7.113397e-09	-5.114336e-11	0.01209025	-0.003292722	-3.134249e-09	2.57012e-08	-0.04443769	0.005318271
3.3e+08	-0.04194649	0.009021151	-5.169042e-09	2.58158e-08	0.009451238	-0.004727587	-8.529881e-09	2.730867e-09
	-5.169042e-09	2.58158e-08	-0.04086587	0.01108481	2.271462e-08	1.689171e-07	0.009923764	-0.003957985
	0.009451238	-0.004727587	2.271462e-08	1.689171e-07	-0.04222179	0.009198125	-2.962614e-09	2.893094e-08
	-8.529881e-09	2.730867e-09	0.009923764	-0.003957985	-2.962614e-09	2.893094e-08	-0.04094721	0.01153558
3.4e+08	-0.03701027	0.0140985	-4.372459e-09	2.944333e-08	0.00709531	-0.004538259	-9.074576e-09	5.918168e-09
	-4.372459e-09	2.944333e-08	-0.0357463	0.01586026	2.506767e-08	1.732305e-07	0.007632382	-0.003893058
	0.00709531	-0.004538259	2.506767e-08	1.732305e-07	-0.03725858	0.01433135	-1.938494e-09	3.207243e-08
	-9.074576e-09	5.918168e-09	0.007632382	-0.003893058	-1.938494e-09	3.207243e-08	-0.03577774	0.01631602
3.5e+08	-0.03081173	0.01735414	-2.608338e-09	3.273457e-08	0.004898325	-0.003600965	-8.633106e-09	9.221982e-09
	-2.608338e-09	3.273457e-08	-0.02947964	0.01876582	2.726139e-08	1.769838e-07	0.005453381	-0.003096225
	0.004898325	-0.003600965	2.726139e-08	1.769838e-07	-0.0310178	0.01763307	-1.274501e-10	3.482551e-08
	-8.633106e-09	9.221982e-09	0.005453381	-0.003096225	-1.274501e-10	3.482551e-08	-0.02946446	0.01921105
3.6e+08	-0.02398092	0.01848938	-3.806509e-11	3.53719e-08	0.003090107	-0.002004198	-7.187595e-09	1.231989e-08
	-3.806509e-11	3.53719e-08	-0.02270837	0.01954133	2.911093e-08	1.802474e-07	0.003612737	-0.001640509
	0.003090107	-0.002004198	2.911093e-08	1.802474e-07	-0.024133	0.01880024	2.297113e-09	3.693184e-08
	-7.187595e-09	1.231989e-08	0.003612737	-0.001640509	2.297113e-09	3.693184e-08	-0.02265472	0.01996226
3.7e+08	-0.0172088	0.01741647	3.075482e-09	3.711582e-08	0.001861202	9.499949e-05	-4.827681e-09	1.488893e-08
	3.075482e-09	3.711582e-08	-0.01612308	0.0181405	3.046179e-08	1.831543e-07	0.002302251	0.0003332841
	0.001861202	9.499949e-05	3.046179e-08	1.831543e-07	-0.01729989	0.01774191	5.079634e-09	3.821357e-08
	-4.827681e-09	1.488893e-08	0.002302251	0.0003332841	5.079634e-09	3.821357e-08	-0.01604318	0.01852659
3.8e+08	-0.01117875	0.01426695	6.406317e-09	3.783425e-08	0.001342946	0.002486522	-1.74943e-09	1.664297e-08
	6.406317e-09	3.783425e-08	-0.01039332	0.01473504	3.12114e-08	1.858863e-07	0.001659702	0.002630384
	0.001342946	0.002486522	3.12114e-08	1.858863e-07	-0.01120741	0.01458804	7.921089e-09	3.859638e-08
	-1.74943e-09	1.664297e-08	0.001659702	0.002630384	7.921089e-09	3.859638e-08	-0.01030227	0.01508016
3.9e+08	-0.006498588	0.009378441	9.609501e-09	3.751297e-08	0.001593168	0.00492844	1.759744e-09	1.736933e-08
	9.609501e-09	3.751297e-08	-0.00610055	0.009697083	3.13237e-08	1.886523e-07	0.001754086	0.005021662
	0.001593168	0.00492844	3.13237e-08	1.886523e-07	-0.006469302	0.009676392	1.052143e-08	3.811358e-08
	1.759744e-09	1.736933e-08	0.001754086	0.005021662	1.052143e-08	3.811358e-08	-0.006014783	0.01000024
4e+08	-0.003640149	0.003260698	1.236183e-08	3.62482e-08	0.002589264	0.007172063	5.349648e-09	1.695885e-08
	1.236183e-08	3.62482e-08	-0.003679844	0.003561357	3.08345e-08	1.916639e-07	0.002577726	0.007267261
	0.002589264	0.007172063	3.08345e-08	1.916639e-07	-0.003563073	0.003518757	1.26165e-08	3.689316e-08
	5.349648e-09	1.695885e-08	0.002577726	0.007267261	1.26165e-08	3.689316e-08	-0.003615412	0.003826903
4.1e+08	-0.002892341	-0.003455594	1.439259e-08	3.422714e-08	0.004229723	0.008988282	8.646119e-09	1.542399e-08
	1.439259e-08	3.422714e-08	-0.003376402	-0.003029108	2.984726e-08	1.951102e-07	0.004046421	0.009141858
	0.004229723	0.008988282	2.984726e-08	1.951102e-07	-0.0027825	-0.00325045	1.400331e-08	3.513406e-08
	8.646119e-09	1.542399e-08	0.004046421	0.009141858	1.400331e-08	3.513406e-08	-0.003347275	-0.002791793
4.2e+08	-0.004332782	-0.01008223	1.55025e-08	3.17035e-08	0.0063443	0.01019228	1.12945e-08	1.290145e-08
	1.55025e-08	3.17035e-08	-0.005221495	-0.009388242	2.852096e-08	1.991378e-07	0.006007928	0.01045877
	0.0063443	0.01019228	2.852096e-08	1.991378e-07	-0.004208729	-0.009937887	1.455209e-08	3.307946e-08
	1.12945e-08	1.290145e-08	0.006007928	0.01045877	1.455209e-08	3.307946e-08	-0.005238027	-0.009165657
4.3e+08	-0.007820849	-0.0159425	1.557304e-08	2.897412e-08	0.008711924	0.01066373	1.300118e-08	9.638722e-09
	1.557304e-08	2.897412e-08	-0.009030316	-0.01485637	2.705283e-08	2.038365e-07	0.008258035	0.01109009
	0.008711924	0.01066373	2.705283e-08	2.038365e-07	-0.007702926	-0.01586079	1.420825e-08	3.09934e-08
	1.300118e-08	9.638722e-09	0.008258035	0.01109009	1.420825e-08	3.09934e-08	-0.009098054	-0.01463222
4.4e+08	-0.01301284	-0.02043873	1.45711e-08	2.635891e-08	0.01108441	0.01035993	1.356699e-08	5.966889e-09
	1.45711e-08	2.635891e-08	-0.01442189	-0.01886649	2.565883e-08	2.092318e-07	0.01056248	0.01098035
	0.01108441	0.01035993	2.565883e-08	2.092318e-07	-0.01292121	-0.02041506	1.29899e-08	2.91434e-08
	1.356699e-08	5.966889e-09	0.01056248	0.01098035	1.29899e-08	2.91434e-08	-0.01454088	-0.01862338
4.5e+08	-0.01939746	-0.02311122	1.255291e-08	2.418276e-08	0.0132132	0.009320361	1.290837e-08	2.264439e-09
	1.255291e-08	2.418276e-08	-0.02085873	-0.02100057	2.455426e-08	2.152831e-07	0.0126821	0.01015222
	0.0132132	0.009320361	2.455426e-08	2.152831e-07	-0.0193501	-0.02313491	1.09858e-08	2.778723e-08
	1.290837e-08	2.264439e-09	0.0126821	0.01015222	1.09858e-08	2.778723e-08	-0.02102341	-0.02072184
4.6e+08	-0.02634774	-0.02368292	9.668532e-09	2.275517e-08	0.01487605	0.00766211	1.106476e-08	-1.082339e-09
	9.668532e-09	2.275517e-08	-0.02770197	-0.0210302	2.393573e-08	2.218874e-07	0.01439836	0.008703471
	0.01487605	0.00766211	2.393573e-08	2.218874e-07	-0.02635862	-0.02373807	8.355735e-09	2.715918e-08
	1.106476e-08	-1.082339e-09	0.01439836	0.008703471	8.355735e-09	2.715918e-08	-0.02790164	-0.02070172
4.7e+08	-0.03318387	-0.02208524	6.163848e-09	2.234389e-08	0.01590043	0.005566859	8.193161e-09	-3.717415e-09
	6.163848e-09	2.234389e-08	-0.03427578	-0.0189376	2.396473e-08	2.288852e-07	0.0155361	0.006795891
	0.01590043	0.005566859	2.396473e-08	2.288852e-07	-0.03326144	-0.02215223	5.330901e-09	2.74515e-08
	8.193161e-09	-3.717415e-09	0.0155361	0.006795891	5.330901e-09	2.74515e-08	-0.03449569	-0.01854923
4.8e+08	-0.03924026	-0.01846311	2.374317e-09	2.314198e-08	0.01618125	0.003261138	4.552402e-09	-5.348041e-09
