!$
! Info: Touchstone file created by Circ.  Input file=Tx_10in_Rx_85ohms_TxVia_35mils_RxVia_45mils.circ
!$
# Hz S RI R 50
0	0.008113684	1.271743e-25	7.411718e-10	1.452031e-27	7.317989e-05	1.51242e-23	3.66829e-10	3.347971e-28
	7.411718e-10	1.45201e-27	0.008111999	1.552072e-25	2.500304e-09	5.469142e-27	7.30415e-05	1.832566e-23
	7.299404e-05	1.506071e-23	2.500305e-09	5.469151e-27	0.008124405	1.271573e-25	7.433978e-10	1.553909e-27
	3.668289e-10	3.34791e-28	7.11938e-05	1.841595e-23	7.433982e-10	1.553926e-27	0.008125136	1.454185e-25
1e+07	0.01038034	-0.009398911	9.620149e-10	1.367086e-09	0.0003444687	0.001881462	6.369257e-10	6.582697e-10
	9.620149e-10	1.367086e-09	0.01040177	-0.009404521	3.469848e-09	6.930286e-09	0.0003411984	0.001886358
	0.0003444633	0.001881463	3.469848e-09	6.930286e-09	0.01042999	-0.009379522	9.526069e-10	1.391987e-09
	6.369257e-10	6.582697e-10	0.0003411382	0.001886369	9.526068e-10	1.391987e-09	0.01038397	-0.009390959
2e+07	0.01004508	-0.02141156	1.317372e-09	2.350684e-09	0.0009727483	0.003607643	9.946774e-10	1.028656e-09
	1.317372e-09	2.350684e-09	0.01002452	-0.02142668	4.257793e-09	1.229408e-08	0.00096037	0.00361983
	0.0009727498	0.003607647	4.257793e-09	1.229408e-08	0.01009209	-0.02138616	1.266846e-09	2.406211e-09
	9.946773e-10	1.028656e-09	0.0009603622	0.003619864	1.266845e-09	2.406211e-09	0.01001478	-0.02139003
3e+07	0.006202285	-0.03401988	1.639516e-09	3.228697e-09	0.001930433	0.00513906	1.399967e-09	1.254466e-09
	1.639516e-09	3.228697e-09	0.0061226	-0.034022	4.524866e-09	1.760993e-08	0.001904203	0.005162639
	0.001930436	0.005139059	4.524866e-09	1.760993e-08	0.006250776	-0.03398196	1.525125e-09	3.335684e-09
	1.399967e-09	1.254466e-09	0.001904204	0.005162644	1.525124e-09	3.335684e-09	0.006117927	-0.03397067
4e+07	-0.0005671846	-0.04576396	1.962045e-09	4.016069e-09	0.003168896	0.006415129	1.82951e-09	1.334698e-09
	1.962045e-09	4.016069e-09	-0.0007192041	-0.04573184	4.550354e-09	2.301179e-08	0.003125516	0.006455623
	0.003168897	0.006415128	4.550354e-09	2.301179e-08	-0.000514488	-0.04571375	1.76943e-09	4.202096e-09
	1.82951e-09	1.334698e-09	0.003125511	0.006455621	1.76943e-09	4.202096e-09	-0.0007209916	-0.04566771
5e+07	-0.009800348	-0.05593998	2.270824e-09	4.710372e-09	0.004623898	0.007384927	2.241655e-09	1.264333e-09
	2.270824e-09	4.710372e-09	-0.01003227	-0.0558492	4.421705e-09	2.85502e-08	0.004561871	0.007448847
	0.004623898	0.007384926	4.421705e-09	2.85502e-08	-0.009741724	-0.05587892	1.995404e-09	5.00623e-09
	2.241655e-09	1.264333e-09	0.004561867	0.007448847	1.995404e-09	5.00623e-09	-0.01003309	-0.05577261
6e+07	-0.02100455	-0.06404655	2.545816e-09	5.315479e-09	0.006221769	0.008013395	2.594403e-09	1.053041e-09
	2.545816e-09	5.315479e-09	-0.02131694	-0.06387093	4.210361e-09	3.427435e-08	0.00614161	0.008107708
	0.00622177	0.008013395	4.210361e-09	3.427435e-08	-0.0209391	-0.06397649	2.192638e-09	5.752317e-09
	2.594403e-09	1.053041e-09	0.006141613	0.008107706	2.192638e-09	5.752317e-09	-0.0213183	-0.06378127
7e+07	-0.03364354	-0.06972796	2.765963e-09	5.838384e-09	0.007884145	0.008282965	2.850346e-09	7.201509e-10
	2.765963e-09	5.838384e-09	-0.03402967	-0.0694415	3.995881e-09	4.021466e-08	0.007788439	0.008414539
	0.007884147	0.008282965	3.995882e-09	4.021466e-08	-0.03357109	-0.06965081	2.349089e-09	6.445683e-09
	2.850346e-09	7.201509e-10	0.007788446	0.008414535	2.349088e-09	6.445684e-09	-0.03403258	-0.06933758
8e+07	-0.04714917	-0.07276145	2.908816e-09	6.289964e-09	0.009532318	0.008193813	2.977669e-09	2.928956e-10
	2.908816e-09	6.289965e-09	-0.04759537	-0.07234013	3.862313e-09	4.637667e-08	0.009425656	0.008368894
	0.009532321	0.008193812	3.862313e-09	4.637667e-08	-0.04707012	-0.07267893	2.450721e-09	7.093843e-09
	2.977669e-09	2.928955e-10	0.009425665	0.008368887	2.450721e-09	7.093844e-09	-0.04760025	-0.07222035
9e+07	-0.06094117	-0.07305231	2.951073e-09	6.686865e-09	0.01109143	0.007763173	2.951458e-09	-1.944612e-10
	2.951073e-09	6.686865e-09	-0.0614274	-0.07247567	3.892008e-09	5.274056e-08	0.01098024	0.007986869
	0.01109144	0.007763172	3.892009e-09	5.274056e-08	-0.0608563	-0.0729658	2.481894e-09	7.708303e-09
	2.951458e-09	-1.944614e-10	0.01098025	0.007986862	2.481893e-09	7.708303e-09	-0.06143405	-0.07233829
1e+08	-0.07445141	-0.07063015	2.867318e-09	7.049762e-09	0.01249604	0.007025029	2.755427e-09	-7.011259e-10
	2.867318e-09	7.049762e-09	-0.07495203	-0.06988257	4.159523e-09	5.925991e-08	0.0123883	0.00730083
	0.01249604	0.007025029	4.159523e-09	5.925991e-08	-0.07436154	-0.07054042	2.423617e-09	8.302714e-09
	2.755427e-09	-7.011259e-10	0.0123883	0.00730083	2.423617e-09	8.302714e-09	-0.07495985	-0.06972604
1.1e+08	-0.08714082	-0.06562701	2.673896e-09	7.409594e-09	0.0136902	0.006009822	2.38695e-09	-1.186056e-09
	2.673896e-09	7.409594e-09	-0.0876246	-0.06470083	4.723971e-09	6.588691e-08	0.01359515	0.006338876
	0.0136902	0.006009822	4.723971e-09	6.588691e-08	-0.08704599	-0.06553678	2.298045e-09	8.9016e-09
	2.38695e-09	-1.186056e-09	0.01359515	0.006338876	2.298045e-09	8.9016e-09	-0.08763156	-0.06452335
1.2e+08	-0.0985033	-0.05828147	2.347632e-09	7.818888e-09	0.01461338	0.004779037	1.84651e-09	-1.606883e-09
	2.347632e-09	7.818888e-09	-0.09893925	-0.05717587	5.60663e-09	7.256317e-08	0.01454049	0.005160563
	0.01461338	0.004779037	5.60663e-09	7.256317e-08	-0.09840644	-0.05819128	2.080543e-09	9.541027e-09
	1.84651e-09	-1.606883e-09	0.01454049	0.005160563	2.080543e-09	9.541027e-09	-0.09894315	-0.05697603
1.3e+08	-0.1081149	-0.04893016	1.893322e-09	8.313166e-09	0.01523481	0.003397473	1.147558e-09	-1.921076e-09
	1.893322e-09	8.313166e-09	-0.1084709	-0.04765165	6.834419e-09	7.920578e-08	0.01519363	0.003828274
	0.01523481	0.003397473	6.834419e-09	7.920578e-08	-0.1080182	-0.04883956	1.774367e-09	1.024707e-08
	1.147558e-09	-1.921076e-09	0.01519363	0.003828274	1.774367e-09	1.024707e-08	-0.108469	-0.04742869
1.4e+08	-0.11563	-0.03797895	1.330982e-09	8.928559e-09	0.01553509	0.001931595	3.116006e-10	-2.091004e-09
	1.330982e-09	8.928559e-09	-0.1158747	-0.03654195	8.412159e-09	8.572725e-08	0.01553461	0.002406025
	0.01553509	0.001931595	8.412159e-09	8.572725e-08	-0.115535	-0.03788701	1.395953e-09	1.104676e-08
	3.116006e-10	-2.091004e-09	0.01553461	0.002406025	1.395953e-09	1.104676e-08	-0.1158639	-0.03629592
1.5e+08	-0.120793	-0.02588715	6.908098e-10	9.705927e-09	0.01550799	0.000448729	-6.280558e-10	-2.079804e-09
	6.908098e-10	9.705927e-09	-0.1208982	-0.02431383	1.032128e-08	9.203881e-08	0.01555607	0.0009588138
	0.01550799	0.000448729	1.032128e-08	9.203881e-08	-0.120701	-0.02579274	9.698418e-10	1.197245e-08
	-6.280558e-10	-2.079804e-09	0.01555607	0.0009588138	9.698418e-10	1.197245e-08	-0.1208751	-0.02404578
1.6e+08	-0.1234454	-0.01314899	1.648855e-11	1.067182e-08	0.01516016	-0.0009851407	-1.631908e-09	-1.860773e-09
	1.648855e-11	1.067182e-08	-0.1233877	-0.01146861	1.25195e-08	9.805652e-08	0.01526289	-0.0004494305
	0.01516016	-0.0009851407	1.25195e-08	9.805652e-08	-0.1233571	-0.01305086	5.320921e-10	1.304346e-08
	-1.631908e-09	-1.860773e-09	0.01526289	-0.0004494305	5.320921e-10	1.304346e-08	-0.123349	-0.01118062
1.7e+08	-0.1235285	-0.0002746745	-6.400202e-10	1.184028e-08	0.01451035	-0.002307434	-2.654371e-09	-1.415637e-09
	-6.400202e-10	1.184028e-08	-0.1232911	0.001477551	1.494261e-08	1.037074e-07	0.01467158	-0.001757771
	0.01451035	-0.002307434	1.494261e-08	1.037074e-07	-0.1234443	-0.000171582	1.253407e-10	1.426821e-08
	-2.654371e-09	-1.415637e-09	0.01467158	-0.001757771	1.253407e-10	1.426821e-08	-0.1232341	0.001782446
1.8e+08	-0.1210835	0.01222829	-1.222497e-09	1.321026e-08	0.01358851	-0.003460828	-3.645439e-09	-7.358195e-10
	-1.222497e-09	1.321026e-08	-0.1206574	0.01401274	1.750777e-08	1.089348e-07	0.01380942	-0.00291
	0.01358851	-0.003460828	1.750777e-08	1.089348e-07	-0.1210034	0.01233755	-2.048669e-10	1.564204e-08
	-3.645439e-09	-7.358195e-10	0.01380942	-0.00291	-2.048669e-10	1.564204e-08	-0.1205802	0.01433069
1.9e+08	-0.1162477	0.02387319	-1.675219e-09	1.47645e-08	0.01243457	-0.004394932	-4.552597e-09	1.765518e-10
	-1.675219e-09	1.47645e-08	-0.1156331	0.0256477	2.011809e-08	1.13703e-07	0.01271339	-0.003856213
	0.01243457	-0.004394932	2.011809e-08	1.13703e-07	-0.1161716	0.02398976	-4.143971e-10	1.714642e-08
	-4.552597e-09	1.765518e-10	0.01271339	-0.003856213	-4.143971e-10	1.714642e-08	-0.1155347	0.02597426
2e+08	-0.1092489	0.03421129	-1.947931e-09	1.647001e-08	0.01109723	-0.005067808	-5.322942e-09	1.307957e-09
	-1.947931e-09	1.647001e-08	-0.1084558	0.03593316	2.266833e-08	1.180005e-07	0.01142914	-0.004554275
	0.01109723	-0.005067808	2.266833e-08	1.180005e-07	-0.1091766	0.03433622	-4.649955e-10	1.874965e-08
	-5.322942e-09	1.307957e-09	0.01142914	-0.004554275	-4.649955e-10	1.874965e-08	-0.1083363	0.03626361
2.1e+08	-0.1003968	0.04284768	-2.00046e-09	1.828018e-08	0.009632486	-0.005447385	-5.905524e-09	2.633147e-09
	-2.00046e-09	1.828018e-08	-0.09944488	0.04447597	2.505107e-08	1.218411e-07	0.01000958	-0.004971206
	0.009632486	-0.005447384	2.505107e-08	1.218411e-07	-0.1003276	0.04298191	-3.283575e-10	2.040905e-08
	-5.905524e-09	2.633147e-09	0.01000958	-0.004971206	-3.283575e-10	2.040905e-08	-0.09930547	0.0448055
2.2e+08	-0.09007097	0.0494556	-1.806462e-09	2.013829e-08	0.00810191	-0.005512747	-6.253846e-09	4.11524e-09
	-1.806462e-09	2.013829e-08	-0.08898951	0.0509533	2.716319e-08	1.252642e-07	0.008513448	-0.005084471
	0.00810191	-0.005512746	2.716319e-08	1.252642e-07	-0.09000415	0.04959994	1.071583e-11	2.20745e-08
	-6.253846e-09	4.11524e-09	0.008513448	-0.005084471	1.071583e-11	2.20745e-08	-0.08883263	0.05127739
2.3e+08	-0.07870741	0.05378863	-1.355829e-09	2.198204e-08	0.006570729	-0.005255248	-6.328497e-09	5.706311e-09
	-1.355829e-09	2.198204e-08	-0.0775344	0.05512493	2.891184e-08	1.283328e-07	0.007003461	-0.004883151
	0.006570729	-0.005255248	2.891184e-08	1.283328e-07	-0.07864213	0.05394373	5.524957e-10	2.369286e-08
	-6.328497e-09	5.706311e-09	0.007003461	-0.004883151	5.524957e-10	2.369286e-08	-0.07736358	0.05543955
2.4e+08	-0.06678249	0.05569052	-6.554679e-10	2.374865e-08	0.005105541	-0.004679371	-6.099802e-09	7.348594e-09
	-6.554679e-10	2.374865e-08	-0.06556328	0.05684273	3.021976e-08	1.311302e-07	0.005544208	-0.004368872
	0.005105541	-0.004679371	3.021976e-08	1.311302e-07	-0.06671774	0.05585684	1.282127e-09	2.521278e-08
	-6.099802e-09	7.348594e-09	0.005544208	-0.004368872	1.282127e-09	2.521278e-08	-0.065383	0.05714466
2.5e+08	-0.05479493	0.05510197	2.7161e-10	2.537981e-08	0.003771728	-0.003803206	-5.550379e-09	8.976342e-09
	2.7161e-10	2.537981e-08	-0.05358045	0.0560573	3.102942e-08	1.337559e-07	0.004199695	-0.003556404
	0.003771728	-0.003803206	3.102942e-08	1.337559e-07	-0.05472959	0.05527973	2.17107e-09	2.65893e-08
	-5.550379e-09	8.976342e-09	0.004199695	-0.003556404	2.17107e-09	2.65893e-08	-0.05339598	0.05634429
2.6e+08	-0.04324648	0.05206404	1.388766e-09	2.682595e-08	0.002630632	-0.002658418	-4.677382e-09	1.051841e-08
	1.388766e-09	2.682595e-08	-0.04209109	0.05282092	3.130592e-08	1.363205e-07	0.003030618	-0.002473765
	0.002630632	-0.002658418	3.130592e-08	1.363205e-07	-0.04317942	0.05225321	3.18005e-09	2.778759e-08
	-4.677382e-09	1.051841e-08	0.003030618	-0.002473765	3.18005e-09	2.778759e-08	-0.04190826	0.0530919
2.7e+08	-0.03262186	0.04671774	2.649357e-09	2.804931e-08	0.00173657	-0.00128957	-3.49423e-09	1.190156e-08
	2.649357e-09	2.804931e-08	-0.03158084	0.04728663	3.10385e-08	1.389404e-07	0.002091457	-0.001161709
	0.00173657	-0.00128957	3.10385e-08	1.389404e-07	-0.03255193	0.04691801	4.26303e-09	2.878539e-08
	-3.49423e-09	1.190156e-08	0.002091457	-0.001161709	4.26303e-09	2.878539e-08	-0.03140578	0.04754184
2.8e+08	-0.02336864	0.03929944	4.000982e-09	2.902537e-08	0.001133897	0.0002472943	-2.031556e-09	1.30543e-08
	4.000982e-09	2.902537e-08	-0.02249549	0.03970316	3.024084e-08	1.417326e-07	0.001427568	0.0003275098
	0.001133897	0.0002472943	3.024084e-08	1.417326e-07	-0.02329481	0.03951022	5.371683e-09	2.957375e-08
	-2.031556e-09	1.30543e-08	0.001427568	0.0003275098	5.371683e-09	2.957375e-08	-0.02233434	0.03994419
2.9e+08	-0.01587817	0.03013212	5.389617e-09	2.974281e-08	0.0008543195	0.001886839	-3.371443e-10	1.391124e-08
	5.389617e-09	2.974281e-08	-0.01522181	0.03040552	2.89503e-08	1.448098e-07	0.0010725	0.001932147
	0.0008543195	0.001886839	2.89503e-08	1.448098e-07	-0.01579952	0.03035256	6.459584e-09	3.015616e-08
	-3.371443e-10	1.391124e-08	0.0010725	0.001932147	6.459584e-09	3.015616e-08	-0.01508042	0.03063534
3e+08	-0.01046828	0.01961252	6.763038e-09	3.020199e-08	0.0009147063	0.003557366	1.525302e-09	1.441742e-08
	6.763038e-09	3.020199e-08	-0.01007038	0.01980148	2.722637e-08	1.482762e-07	0.001045755	0.003583704
	0.0009147063	0.003557366	2.722637e-08	1.482762e-07	-0.01038417	0.01984155	7.485494e-09	3.054618e-08
	1.525302e-09	1.441742e-08	0.001045755	0.003583704	7.485494e-09	3.054618e-08	-0.009954	0.02002438
3.1e+08	-0.007369075	0.008194576	8.071367e-09	3.039457e-08	0.001315635	0.005184345	3.478581e-09	1.453279e-08
	8.071367e-09	3.039457e-08	-0.007261501	0.008354487	2.514737e-08	1.522176e-07	0.001351257	0.005210293
	0.001315635	0.005184345	2.514737e-08	1.522176e-07	-0.007279111	0.008430993	8.413501e-09	3.074623e-08
	3.478581e-09	1.453279e-08	0.001351257	0.005210293	8.413501e-09	3.074623e-08	-0.007174525	0.008575933
3.2e+08	-0.006712415	-0.003630019	9.254675e-09	3.032027e-08	0.002040868	0.006694336	5.43598e-09	1.423533e-08
	9.254675e-09	3.032027e-08	-0.006915101	-0.003436505	2.280407e-08	1.567046e-07	0.001976703	0.006740394
	0.002040868	0.006694336	2.280407e-08	1.567046e-07	-0.006616535	-0.003387526	9.200029e-09	3.076367e-08
	5.43598e-09	1.423533e-08	0.001976703	0.006740394	9.200029e-09	3.076367e-08	-0.006860786	-0.003210028
3.3e+08	-0.008525917	-0.01535342	1.027095e-08	3.004228e-08	0.003057877	0.008019015	7.305564e-09	1.352229e-08
	1.027095e-08	3.004228e-08	-0.009045281	-0.01505899	2.03087e-08	1.618088e-07	0.002893925	0.008106755
	0.003057877	0.008019015	2.03087e-08	1.618088e-07	-0.008424448	-0.01510615	9.821525e-09	3.066612e-08
	7.305564e-09	1.352229e-08	0.002893925	0.008106755	9.821525e-09	3.066612e-08	-0.009025483	-0.01482023
3.4e+08	-0.01273189	-0.02647404	1.108729e-08	2.959143e-08	0.004319416	0.009098987	8.995042e-09	1.241312e-08
	1.108729e-08	2.959143e-08	-0.0135598	-0.02600974	1.778626e-08	1.675692e-07	0.004060288	0.009250111
	0.004319416	0.009098987	1.778626e-08	1.675692e-07	-0.01262553	-0.02622315	1.026438e-08	3.048442e-08
	8.995042e-09	1.241312e-08	0.004060288	0.009250111	1.026438e-08	3.048442e-08	-0.01357479	-0.025751
3.5e+08	-0.01915136	-0.03651867	1.16744e-08	2.900125e-08	0.005766072	0.009887081	1.041738e-08	1.094849e-08
	1.16744e-08	2.900125e-08	-0.02026476	-0.03581711	1.537093e-08	1.740007e-07	0.005421026	0.01012242
	0.005766072	0.009887081	1.537093e-08	1.740007e-07	-0.01904111	-0.03626509	1.051864e-08	3.024776e-08
	1.041738e-08	1.094849e-08	0.005421026	0.01012242	1.051864e-08	3.024776e-08	-0.02031322	-0.03553055
3.6e+08	-0.02751286	-0.04506302	1.200546e-08	2.830867e-08	0.007329579	0.01035085	1.149588e-08	9.18847e-09
	1.200546e-08	2.830867e-08	-0.02887414	-0.04406167	1.320198e-08	1.810916e-07	0.00691234	0.01068937
	0.007329579	0.01035085	1.320198e-08	1.810916e-07	-0.02739991	-0.04480739	1.057572e-08	2.998446e-08
	1.149588e-08	9.18847e-09	0.00691234	0.01068937	1.057572e-08	2.998446e-08	-0.02895305	-0.04373969
3.7e+08	-0.03746534	-0.05174971	1.205596e-08	2.755588e-08	0.008936632	0.01047411	1.216847e-08	7.209576e-09
	1.205596e-08	2.755588e-08	-0.03902354	-0.05039406	1.141881e-08	1.888019e-07	0.008464992	0.01093192
	0.008936632	0.01047411	1.141881e-08	1.888019e-07	-0.03735107	-0.05149232	1.042739e-08	2.97241e-08
	1.216847e-08	7.209576e-09	0.008464992	0.01093192	1.042739e-08	2.97241e-08	-0.03912826	-0.05002963
3.8e+08	-0.0485947	-0.05630268	1.180502e-08	2.679221e-08	0.01051289	0.01025739	1.239115e-08	5.100788e-09
	1.180502e-08	2.679221e-08	-0.05028728	-0.05454908	1.015522e-08	1.970623e-07	0.01000809	0.01084691
	0.01051289	0.01025739	1.015522e-08	1.970623e-07	-0.04848051	-0.05604343	1.006613e-08	2.94999e-08
	1.239115e-08	5.100788e-09	0.01000809	0.01084691	1.006613e-08	2.94999e-08	-0.05041164	-0.05413611
3.9e+08	-0.06044263	-0.05853749	1.123811e-08	2.607551e-08	0.01198685	0.009717431	1.21401e-08	2.95903e-09
	1.123811e-08	2.607551e-08	-0.0621979	-0.05635558	9.533084e-09	2.057741e-07	0.0114728	0.01044659
	0.01198685	0.009717431	9.533084e-09	2.057741e-07	-0.06032987	-0.05827587	9.487128e-09	2.935082e-08
	1.21401e-08	2.95903e-09	0.0114728	0.01044659	9.487128e-09	2.935082e-08	-0.06233441	-0.05588927
4e+08	-0.07252679	-0.05836717	1.035089e-08	2.547225e-08	0.01329333	0.008885679	1.141272e-08	8.844301e-10
	1.035089e-08	2.547225e-08	-0.07426682	-0.05574175	9.655515e-09	2.148109e-07	0.01279561	0.009757415
	0.01329333	0.008885679	9.655515e-09	2.148109e-07	-0.07241662	-0.05810232	8.691611e-09	2.932257e-08
	1.141272e-08	8.844301e-10	0.01279561	0.009757415	8.691611e-09	2.932257e-08	-0.07440697	-0.05521883
4.1e+08	-0.08436134	-0.05580366	9.153513e-09	2.50558e-08	0.01437635	0.007806153	1.022745e-08	-1.024306e-09
	9.153513e-09	2.50558e-08	-0.08600524	-0.05273588	1.060011e-08	2.240217e-07	0.01392118	0.008818021
	0.01437635	0.007806153	1.060011e-08	2.240217e-07	-0.08425466	-0.05553443	7.690756e-09	2.946681e-08
	1.022745e-08	-1.024306e-09	0.01392118	0.008818021	7.690756e-09	2.946681e-08	-0.08613977	-0.05215487
4.2e+08	-0.09547668	-0.05095498	7.674465e-09	2.490281e-08	0.01519129	0.006532783	8.622747e-09	-2.674172e-09
	7.674465e-09	2.490281e-08	-0.09694406	-0.04746283	1.241271e-08	2.332366e-07	0.01480434	0.007676861
	0.01519129	0.006532783	1.241271e-08	2.332366e-07	-0.09537408	-0.05067999	6.509488e-09	2.983849e-08
	8.622747e-09	-2.674172e-09	0.01480434	0.007676861	6.509488e-09	2.983849e-08	-0.09706342	-0.04682421
4.3e+08	-0.1054378	-0.04401867	5.963277e-09	2.508778e-08	0.01570631	0.005126518	6.655185e-09	-3.981627e-09
	5.963277e-09	2.508778e-08	-0.1066523	-0.04013677	1.510228e-08	2.422732e-07	0.01541155	0.006389535
	0.01570631	0.005126518	1.510228e-08	2.422732e-07	-0.1053395	-0.04373644	5.18928e-09	3.049149e-08
	6.655185e-09	-3.981627e-09	0.01541155	0.006389535	5.18928e-09	3.049149e-08	-0.106747	-0.03944297
4.4e+08	-0.1138605	-0.03527203	4.091273e-09	2.567647e-08	0.01590301	0.00365239	4.397066e-09	-4.875773e-09
	4.091273e-09	2.567647e-08	-0.1147531	-0.0310506	1.863744e-08	2.509456e-07	0.01572161	0.005016114
	0.01590301	0.00365239	1.863744e-08	2.509456e-07	-0.1137662	-0.03498102	3.789235e-09	3.147282e-08
	4.397066e-09	-4.875773e-09	0.01572161	0.005016114	3.789235e-09	3.147282e-08	-0.1148142	-0.03030606
4.5e+08	-0.1204246	-0.02505969	2.149997e-09	2.671875e-08	0.01577651	0.002176708	1.933594e-09	-5.300927e-09
	2.149997e-09	2.671875e-08	-0.1209372	-0.02056296	2.294507e-08	2.590733e-07	0.01572579	0.003618564
	0.01577651	0.002176708	2.294507e-08	2.590733e-07	-0.1203339	-0.02475846	2.384994e-09	3.281639e-08
	1.933594e-09	-5.300927e-09	0.01572579	0.003618564	2.384994e-09	3.281639e-08	-0.1209565	-0.01977399
4.6e+08	-0.1248854	-0.0137794	2.471536e-10	2.8242e-08	0.01533501	0.0007644878	-6.401912e-10	-5.218611e-09
	2.471536e-10	2.8242e-08	-0.1249729	-0.009083299	2.791142e-08	2.664914e-07	0.01542755	0.002258392
	0.01533501	0.0007644878	2.791142e-08	2.664914e-07	-0.1247973	-0.01346666	1.065316e-09	3.453699e-08
	-6.401912e-10	-5.218611e-09	0.01542755	0.002258392	1.065316e-09	3.453699e-08	-0.1249438	-0.008257844
4.7e+08	-0.1270806	-0.00186633	-1.499699e-09	3.02457e-08	0.01459895	-0.0005228355	-3.222671e-09	-4.608993e-09
	-1.499699e-09	3.02457e-08	-0.1267138	0.002944316	3.338567e-08	2.730605e-07	0.01484186	0.0009945344
	0.01459895	-0.0005228355	3.338567e-08	2.730605e-07	-0.1269939	-0.001541039	-7.351388e-11	3.662546e-08
	-3.222671e-09	-4.608993e-09	0.01484186	0.0009945344	-7.351388e-11	3.662546e-08	-0.1266312	0.003796914
4.8e+08	-0.1269356	0.01022334	-2.971237e-09	3.269809e-08	0.01359986	-0.001629389	-5.708995e-09	-3.471826e-09
	-2.971237e-09	3.269809e-08	-0.1261028	0.01505804	3.918603e-08	2.786749e-07	0.01399436	-0.0001184822
	0.01359986	-0.001629389	3.918603e-08	2.786749e-07	-0.1268489	0.01056193	-9.349609e-10	3.904572e-08
