!$
! Info: Touchstone file created by Circ.  Input file=Tx_10in_Rx_85ohms_TxVia_35mils_RxVia_45mils.circ
!$
# Hz S RI R 50
0	0.008115449	1.325521e-25	-2.846741e-12	3.841028e-28	7.439509e-05	1.522264e-23	-1.882722e-12	1.928726e-28
	-2.846743e-12	3.841029e-28	0.008111999	1.552072e-25	-1.358843e-15	6.240736e-28	7.30415e-05	1.832566e-23
	7.491872e-05	1.542081e-23	-1.355527e-15	6.240732e-28	0.008123561	1.293958e-25	-2.132941e-12	4.088312e-28
	-1.882723e-12	1.928728e-28	7.11938e-05	1.841595e-23	-2.132942e-12	4.088317e-28	0.008125136	1.454185e-25
1e+07	0.01041924	-0.00956918	7.536244e-12	3.711851e-12	0.0002686068	0.001892432	8.195978e-12	8.662086e-12
	7.536245e-12	3.711851e-12	0.01040177	-0.009404521	6.845474e-12	2.315956e-12	0.0003411984	0.001886358
	0.0002686307	0.001892433	6.845474e-12	2.315956e-12	0.01176919	-0.009286087	5.469335e-12	3.555305e-12
	8.195978e-12	8.662086e-12	0.0003411382	0.001886369	5.469335e-12	3.555305e-12	0.01038397	-0.009390959
2e+07	0.00990231	-0.02169444	7.567386e-12	4.084582e-12	0.0008693159	0.003692954	6.140809e-12	1.560693e-11
	7.567387e-12	4.084582e-12	0.01002452	-0.02142668	8.61477e-12	-1.839586e-12	0.00096037	0.00361983
	0.0008693235	0.003692939	8.61477e-12	-1.839586e-12	0.01127148	-0.02173196	6.053805e-12	-2.287036e-13
	6.14081e-12	1.560693e-11	0.0009603622	0.003619864	6.053806e-12	-2.28703e-13	0.01001478	-0.02139003
3e+07	0.005917293	-0.03430891	3.297081e-12	3.20323e-12	0.001865868	0.005247805	4.690989e-14	2.234311e-11
	3.297081e-12	3.20323e-12	0.0061226	-0.034022	7.224175e-12	-8.017864e-12	0.001904203	0.005162639
	0.001865867	0.005247802	7.224175e-12	-8.017864e-12	0.007284099	-0.03452207	-1.365597e-13	-5.317085e-12
	4.690993e-14	2.234311e-11	0.001904204	0.005162644	-1.365596e-13	-5.317085e-12	0.006117927	-0.03397067
4e+07	-0.0009677281	-0.04601742	-5.869217e-12	3.147487e-12	0.003139164	0.006533892	-1.061576e-11	3.102196e-11
	-5.869218e-12	3.147487e-12	-0.0007192041	-0.04573184	1.545618e-12	-1.464916e-11	0.003125516	0.006455623
	0.003139166	0.006533893	1.545618e-12	-1.464916e-11	0.0003731478	-0.04638538	-1.367217e-11	-9.226838e-12
	-1.061576e-11	3.102196e-11	0.003125511	0.006455621	-1.367217e-11	-9.226837e-12	-0.0007209916	-0.04566771
5e+07	-0.01029245	-0.05613099	-1.949337e-11	6.252415e-12	0.004625462	0.007505148	-2.500024e-11	4.378137e-11
	-1.949337e-11	6.252415e-12	-0.01003227	-0.0558492	-8.680098e-12	-2.033312e-11	0.004561871	0.007448847
	0.004625463	0.007505148	-8.680098e-12	-2.033312e-11	-0.008999681	-0.05664296	-3.396163e-11	-8.636847e-12
	-2.500024e-11	4.378137e-11	0.004561867	0.007448847	-3.396163e-11	-8.636846e-12	-0.01003309	-0.05577261
6e+07	-0.02156468	-0.0641563	-3.656475e-11	1.442423e-11	0.006250999	0.008128639	-4.168895e-11	6.221032e-11
	-3.656475e-11	1.442423e-11	-0.02131694	-0.06387093	-2.334127e-11	-2.362134e-11	0.00614161	0.008107708
	0.006250997	0.008128639	-2.334127e-11	-2.362134e-11	-0.02034088	-0.06480233	-5.949572e-11	-8.24296e-13
	-4.168895e-11	6.221032e-11	0.006141613	0.008107706	-5.949572e-11	-8.242968e-13	-0.0213183	-0.06378127
7e+07	-0.03424793	-0.06974335	-5.545465e-11	2.925117e-11	0.00793712	0.008388102	-5.87719e-11	8.74391e-11
	-5.545465e-11	2.925118e-11	-0.03402967	-0.0694415	-4.197494e-11	-2.306329e-11	0.007788439	0.008414539
	0.007937115	0.008388104	-4.197494e-11	-2.306329e-11	-0.03311261	-0.07051232	-8.792653e-11	1.646827e-11
	-5.87719e-11	8.74391e-11	0.007788446	0.008414535	-8.792653e-11	1.646827e-11	-0.03403258	-0.06933758
8e+07	-0.0477734	-0.07267372	-7.396656e-11	5.190642e-11	0.009604717	0.008284649	-7.394048e-11	1.200969e-10
	-7.396655e-11	5.190642e-11	-0.04759537	-0.07234013	-6.376141e-11	-1.720549e-11	0.009425656	0.008368894
	0.009604711	0.008284653	-6.376141e-11	-1.720549e-11	-0.04674482	-0.07355318	-1.1613e-10	4.4943e-11
	-7.394048e-11	1.200969e-10	0.009425665	0.008368887	-1.1613e-10	4.494299e-11	-0.04760025	-0.07222035
9e+07	-0.06155901	-0.07285563	-8.934534e-11	8.316032e-11	0.01117832	0.007836126	-8.450488e-11	1.603218e-10
	-8.934532e-11	8.316033e-11	-0.0614274	-0.07247567	-8.753069e-11	-4.497564e-12	0.01098024	0.007986869
	0.01117831	0.00783613	-8.753069e-11	-4.497564e-12	-0.06065505	-0.07383246	-1.401939e-10	8.575582e-11
	-8.450488e-11	1.603218e-10	0.01098025	0.007986862	-1.401939e-10	8.575582e-11	-0.06143405	-0.07233829
1e+08	-0.07502512	-0.07031456	-9.744837e-11	1.245253e-10	0.01259003	0.007075667	-8.67431e-11	2.086604e-10
	-9.744837e-11	1.245253e-10	-0.07495203	-0.06988257	-1.120685e-10	1.83568e-11	0.0123883	0.00730083
	0.01259003	0.007075667	-1.120685e-10	1.83568e-11	-0.07427114	-0.07138044	-1.545307e-10	1.414415e-10
	-8.67431e-11	2.086604e-10	0.0123883	0.00730083	-1.545307e-10	1.414415e-10	-0.07495985	-0.06972604
1.1e+08	-0.08762415	-0.06525113	-8.838261e-11	1.651964e-10	0.01378129	0.006046815	-8.040583e-11	2.485829e-10
	-8.838261e-11	1.651964e-10	-0.0876246	-0.06470083	-1.196462e-10	4.110958e-11	0.01359515	0.006338876
	0.01378129	0.006046815	-1.196462e-10	4.110958e-11	-0.08704987	-0.06634552	-1.455695e-10	1.922371e-10
	-8.040583e-11	2.485829e-10	0.01359515	0.006338876	-1.455695e-10	1.922371e-10	-0.08763156	-0.06452335
1.2e+08	-0.0989138	-0.05787114	-8.024498e-11	1.955545e-10	0.01470374	0.004805738	-7.0141e-11	2.868858e-10
	-8.024498e-11	1.955545e-10	-0.09893925	-0.05717587	-1.250274e-10	5.667771e-11	0.01454049	0.005160563
	0.01470374	0.004805738	-1.250274e-10	5.667771e-11	-0.09849816	-0.05896045	-1.359803e-10	2.314487e-10
	-7.0141e-11	2.868858e-10	0.01454049	0.005160563	-1.359803e-10	2.314487e-10	-0.09894315	-0.05697603
1.3e+08	-0.1084591	-0.04849841	-6.833429e-11	2.241904e-10	0.01532448	0.003414917	-5.37286e-11	3.248746e-10
	-6.833429e-11	2.241904e-10	-0.1084709	-0.04765165	-1.294774e-10	7.368167e-11	0.01519363	0.003828274
	0.01532448	0.003414917	-1.294774e-10	7.368167e-11	-0.1081884	-0.04956065	-1.211047e-10	2.690955e-10
	-5.37286e-11	3.248746e-10	0.01519363	0.003828274	-1.211047e-10	2.690955e-10	-0.108469	-0.04742869
1.4e+08	-0.1159123	-0.03753544	-5.090109e-11	2.510746e-10	0.01562365	0.00194038	-3.140386e-11	3.60685e-10
	-5.090109e-11	2.510746e-10	-0.1158747	-0.03654195	-1.319596e-10	9.292818e-11	0.01553461	0.002406025
	0.01562365	0.001940379	-1.319596e-10	9.292818e-11	-0.1157732	-0.038553	-9.871425e-11	3.047418e-10
	-3.140386e-11	3.60685e-10	0.01553461	0.002406025	-9.871425e-11	3.047418e-10	-0.1158639	-0.03629592
1.5e+08	-0.1210173	-0.02543982	-2.843358e-11	2.756934e-10	0.01559482	0.0004493179	-3.244291e-12	3.932827e-10
	-2.843358e-11	2.756934e-10	-0.1208982	-0.02431383	-1.318967e-10	1.138087e-10	0.01555607	0.0009588138
	0.01559482	0.0004493179	-1.318967e-10	1.138087e-10	-0.1209961	-0.02639825	-6.937461e-11	3.375509e-10
	-3.244291e-12	3.932827e-10	0.01555607	0.0009588138	-6.937461e-11	3.375509e-10	-0.1208751	-0.02404578
1.6e+08	-0.1236154	-0.01270469	-1.340841e-12	2.967331e-10	0.01524452	-0.0009922937	3.011004e-11	4.21181e-10
	-1.340841e-12	2.967331e-10	-0.1233877	-0.01146861	-1.288699e-10	1.356728e-10	0.01526289	-0.0004494305
	0.01524452	-0.0009922937	-1.288699e-10	1.356728e-10	-0.1236979	-0.01359226	-3.360729e-11	3.656967e-10
	3.011004e-11	4.21181e-10	0.01526289	-0.0004494305	-3.360729e-11	3.656967e-10	-0.123349	-0.01118062
1.7e+08	-0.1236477	0.0001605017	2.966804e-11	3.129853e-10	0.01459147	-0.002321824	6.76688e-11	4.43056e-10
	2.966804e-11	3.129853e-10	-0.1232911	0.001477551	-1.225986e-10	1.577907e-10	0.01467158	-0.001757771
	0.01459147	-0.002321824	-1.225986e-10	1.577907e-10	-0.1238198	-0.000646887	7.647344e-12	3.875001e-10
	6.76688e-11	4.43056e-10	0.01467158	-0.001757771	7.647344e-12	3.875001e-10	-0.1232341	0.001782446
1.8e+08	-0.1211556	0.01264883	6.35972e-11	3.234031e-10	0.01366557	-0.003481865	1.081248e-10	4.578204e-10
	6.35972e-11	3.234031e-10	-0.1206574	0.01401274	-1.129714e-10	1.793628e-10	0.01380942	-0.00291
	0.01366557	-0.003481865	-1.129714e-10	1.793628e-10	-0.1214025	0.01192871	5.305091e-11	4.015041e-10
	1.081248e-10	4.578204e-10	0.01380942	-0.00291	5.305091e-11	4.015041e-10	-0.1205802	0.01433069
1.9e+08	-0.1162767	0.02427411	9.919414e-11	3.271644e-10	0.0125068	-0.004421915	1.49908e-10	4.646948e-10
	9.919414e-11	3.271644e-10	-0.1156331	0.0256477	-1.000761e-10	1.995529e-10	0.01271339	-0.003856213
	0.0125068	-0.004421915	-1.000761e-10	1.995529e-10	-0.116584	0.02364627	1.0091e-10	4.065602e-10
	1.49908e-10	4.646948e-10	0.01271339	-0.003856213	1.0091e-10	4.065602e-10	-0.1155347	0.02597426
2e+08	-0.1092392	0.03458807	1.349978e-10	3.237317e-10	0.01116393	-0.005099917	1.912587e-10	4.632673e-10
	1.349978e-10	3.237317e-10	-0.1084558	0.03593316	-8.421839e-11	2.175387e-10	0.01142914	-0.004554275
	0.01116393	-0.005099917	-8.421839e-11	2.175387e-10	-0.1095923	0.03405552	1.492432e-10	4.019105e-10
	1.912587e-10	4.632673e-10	0.01142914	-0.004554275	1.492432e-10	4.019105e-10	-0.1083363	0.03626361
2.1e+08	-0.100353	0.04319636	1.694022e-10	3.129033e-10	0.009693003	-0.00548368	2.303142e-10	4.535361e-10
	1.694022e-10	3.129033e-10	-0.09944488	0.04447597	-6.592476e-11	2.325745e-10	0.01000958	-0.004971206
	0.009693003	-0.00548368	-6.592476e-11	2.325745e-10	-0.1007377	0.04276018	1.958697e-10	3.872569e-10
	2.303142e-10	4.535361e-10	0.01000958	-0.004971206	1.958697e-10	3.872569e-10	-0.09930547	0.0448055
2.2e+08	-0.08999814	0.04977277	2.007345e-10	2.948498e-10	0.008155749	-0.005552172	2.652061e-10	4.35931e-10
	2.007345e-10	2.948498e-10	-0.08898951	0.0509533	-4.592255e-11	2.440565e-10	0.008513448	-0.005084471
	0.008155749	-0.005552172	-4.592255e-11	2.440565e-10	-0.09040055	0.04943219	2.385173e-10	3.62812e-10
	2.652061e-10	4.35931e-10	0.008513448	-0.005084471	2.385173e-10	3.62812e-10	-0.08883263	0.05127739
2.3e+08	-0.07861097	0.05407157	2.273425e-10	2.701329e-10	0.006617546	-0.005296648	2.941611e-10	4.113113e-10
	2.273425e-10	2.701329e-10	-0.0775344	0.05512493	-2.509795e-11	2.515821e-10	0.007003461	-0.004883151
	0.006617546	-0.005296648	-2.509795e-11	2.515821e-10	-0.07901787	0.05382396	2.749441e-10	3.293223e-10
	2.941611e-10	4.113113e-10	0.007003461	-0.004883151	2.749441e-10	3.293223e-10	-0.07736358	0.05543955
2.4e+08	-0.06666819	0.05593723	2.476884e-10	2.397044e-10	0.005145178	-0.004721514	3.156008e-10	3.809417e-10
	2.476884e-10	2.397044e-10	-0.06556328	0.05684273	-4.43403e-12	2.549962e-10	0.005544208	-0.004368872
	0.005145178	-0.004721514	-4.43403e-12	2.549962e-10	-0.06706712	0.05577823	3.030671e-10	2.880649e-10
	3.156008e-10	3.809417e-10	0.005544208	-0.004368872	3.030671e-10	2.880649e-10	-0.065383	0.05714466
2.5e+08	-0.05466871	0.05531129	2.604435e-10	2.048789e-10	0.003804245	-0.003844824	3.28234e-10	3.464428e-10
	2.604435e-10	2.048789e-10	-0.05358045	0.0560573	1.506648e-11	2.544147e-10	0.004199695	-0.003556404
	0.003804245	-0.003844824	1.506648e-11	2.544147e-10	-0.05504827	0.05523485	3.210917e-10	2.408081e-10
	3.28234e-10	3.464428e-10	0.004199695	-0.003556404	3.210917e-10	2.408081e-10	-0.05339598	0.05634429
2.6e+08	-0.04311443	0.0522357	2.645762e-10	1.67285e-10	0.002656318	-0.002698245	3.311335e-10	3.097175e-10
	2.645762e-10	1.67285e-10	-0.04209109	0.05282092	3.246351e-11	2.502212e-10	0.003030618	-0.002473765
	0.002656318	-0.002698245	3.246351e-11	2.502212e-10	-0.04346447	0.05223427	3.276311e-10	1.897414e-10
	3.311335e-10	3.097175e-10	0.003030618	-0.002473765	3.276311e-10	1.897414e-10	-0.04190826	0.0530919
2.7e+08	-0.03249001	0.04685239	2.59428e-10	1.287929e-10	0.001755953	-0.001326393	3.237983e-10	2.728704e-10
	2.59428e-10	1.287929e-10	-0.03158084	0.04728663	4.6958e-11	2.43037e-10	0.002091457	-0.001161709
	0.001755953	-0.001326393	4.6958e-11	2.43037e-10	-0.03280193	0.04691706	3.218069e-10	1.373735e-10
	3.237983e-10	2.728704e-10	0.002091457	-0.001161709	3.218069e-10	1.373735e-10	-0.03140578	0.04754184
2.8e+08	-0.02324286	0.03939869	2.447713e-10	9.142236e-11	0.001147737	0.0002145801	3.061934e-10	2.381062e-10
	2.447713e-10	9.142236e-11	-0.02249549	0.03970316	5.795565e-11	2.33665e-10	0.001427568	0.0003275098
	0.001147737	0.0002145801	5.795565e-11	2.33665e-10	-0.0235098	0.03951948	3.033241e-10	8.640491e-11
	3.061934e-10	2.381062e-10	0.001427568	0.0003275098	3.033241e-10	8.640491e-11	-0.02233434	0.03994419
2.9e+08	-0.01576395	0.03019851	2.208416e-10	5.723605e-11	0.0008635863	0.001859181	2.787656e-10	2.076238e-10
	2.208416e-10	5.723605e-11	-0.01522181	0.03040552	6.510793e-11	2.230169e-10	0.0010725	0.001932147
	0.0008635863	0.001859181	6.510793e-11	2.230169e-10	-0.01598096	0.03036467	2.725089e-10	3.95829e-11
	2.787656e-10	2.076238e-10	0.0010725	0.001932147	2.725089e-10	3.95829e-11	-0.01508042	0.03063534
3e+08	-0.01037061	0.01964947	1.883412e-10	2.822647e-11	0.0009205469	0.003535506	2.424341e-10	1.835098e-10
	1.883412e-10	2.822647e-11	-0.01007038	0.01980148	6.832526e-11	2.120308e-10	0.001045755	0.003583704
	0.0009205469	0.003535506	6.832526e-11	2.120308e-10	-0.01053479	0.01984984	2.303086e-10	-4.505555e-13
	2.424341e-10	1.835098e-10	0.001045755	0.003583704	2.303086e-10	-4.505555e-13	-0.009954	0.02002438
3.1e+08	-0.007292231	0.008206289	1.484017e-10	6.151853e-12	0.001319326	0.005168781	1.985586e-10	1.676366e-10
	1.484017e-10	6.151853e-12	-0.007261501	0.008354487	6.773719e-11	2.015773e-10	0.001351257	0.005210293
	0.001319326	0.005168781	6.773719e-11	2.015773e-10	-0.007402796	0.008429682	1.782515e-10	-3.130625e-11
	1.985586e-10	1.676366e-10	0.001351257	0.005210293	1.782515e-10	-3.130625e-11	-0.007174525	0.008575933
3.2e+08	-0.006659852	-0.003638697	1.024953e-10	-7.5064e-12	0.00204376	0.006685297	1.488851e-10	1.615701e-10
	1.024953e-10	-7.5064e-12	-0.006915101	-0.003436505	6.365802e-11	1.924102e-10	0.001976703	0.006740394
	0.00204376	0.006685297	6.365802e-11	1.924102e-10	-0.006718052	-0.003403089	1.183692e-10	-5.097853e-11
	1.488851e-10	1.615701e-10	0.001976703	0.006740394	1.183692e-10	-5.097853e-11	-0.006860786	-0.003210028
3.3e+08	-0.008500142	-0.01537715	5.246185e-11	-1.146227e-11	0.003061331	0.008016447	9.547283e-11	1.664918e-10
	5.246185e-11	-1.146227e-11	-0.009045281	-0.01505899	5.662901e-11	1.851714e-10	0.002893925	0.008106755
	0.003061331	0.008016447	5.662901e-11	1.851714e-10	-0.008509154	-0.01513936	5.309051e-11	-5.795331e-11
	9.547283e-11	1.664918e-10	0.002893925	0.008106755	5.309051e-11	-5.795331e-11	-0.009025483	-0.01482023
3.4e+08	-0.0127344	-0.02650718	3.546596e-13	-4.955883e-12	0.004324746	0.009102563	4.06078e-11	1.83143e-10
	3.546596e-13	-4.955883e-12	-0.0135598	-0.02600974	4.714787e-11	1.802527e-10	0.004060288	0.009250111
	0.004324746	0.009102563	4.714787e-11	1.802527e-10	-0.01269909	-0.02627614	-1.497154e-11	-5.134694e-11
	4.06078e-11	1.83143e-10	0.004060288	0.009250111	-1.497154e-11	-5.134694e-11	-0.01357479	-0.025751
3.5e+08	-0.01918259	-0.03655547	-5.166007e-11	1.231742e-11	0.005774481	0.009896219	-1.329595e-11	2.117776e-10
	-5.166007e-11	1.231742e-11	-0.02026476	-0.03581711	3.580669e-11	1.779429e-10	0.005421026	0.01012242
	0.005774481	0.009896219	3.580669e-11	1.779429e-10	-0.01910926	-0.03633867	-8.300646e-11	-3.073534e-11
	-1.329595e-11	2.117776e-10	0.005421026	0.01012242	-8.300646e-11	-3.073534e-11	-0.02031322	-0.03553055
3.6e+08	-0.02757214	-0.04509784	-1.014103e-10	4.020263e-11	0.007342114	0.01036475	-6.379965e-11	2.521502e-10
	-1.014103e-10	4.020263e-11	-0.02887414	-0.04406167	2.320744e-11	1.783861e-10	0.00691234	0.01068937
	0.007342114	0.01036475	2.320744e-11	1.783861e-10	-0.02746817	-0.04490114	-1.481403e-10	3.718728e-12
	-6.379965e-11	2.521502e-10	0.00691234	0.01068937	-1.481403e-10	3.718728e-12	-0.02895305	-0.04373969
3.7e+08	-0.037551	-0.05177725	-1.468164e-10	7.810927e-11	0.00895414	0.01049178	-1.085419e-10	3.035206e-10
	-1.468164e-10	7.810927e-11	-0.03902354	-0.05039406	9.830278e-12	1.815964e-10	0.008464992	0.01093192
	0.00895414	0.01049178	9.830278e-12	1.815964e-10	-0.03742448	-0.05160468	-2.076692e-10	5.123145e-11
	-1.085419e-10	3.035206e-10	0.008464992	0.01093192	-2.076692e-10	5.123145e-11	-0.03912826	-0.05002963
3.8e+08	-0.04870415	-0.0563181	-1.859742e-10	1.250523e-10	0.01053599	0.01027773	-1.453385e-10	3.646773e-10
	-1.859742e-10	1.250523e-10	-0.05028728	-0.05454908	-3.928414e-12	1.875401e-10	0.01000809	0.01084691
	0.01053599	0.01027773	-3.928414e-12	1.875401e-10	-0.04856345	-0.05617188	-2.591238e-10	1.105104e-10
	-1.453385e-10	3.646773e-10	0.01000809	0.01084691	-2.591238e-10	1.105104e-10	-0.05041164	-0.05413611
3.9e+08	-0.06057248	-0.05853662	-2.172216e-10	1.797074e-10	0.01201594	0.00973924	-1.722749e-10	4.339818e-10
	-2.172216e-10	1.797074e-10	-0.0621979	-0.05635558	-1.774069e-11	1.961822e-10	0.0114728	0.01044659
	0.01201594	0.00973924	-1.774069e-11	1.961822e-10	-0.06042587	-0.05841717	-3.003539e-10	1.798274e-10
	-1.722749e-10	4.339818e-10	0.0114728	0.01044659	-3.003539e-10	1.798274e-10	-0.06233441	-0.05588927
4e+08	-0.07267299	-0.05834663	-2.391887e-10	2.404727e-10	0.01332854	0.008907747	-1.877868e-10	5.094299e-10
	-2.391887e-10	2.404727e-10	-0.07426682	-0.05574175	-3.131167e-11	2.075196e-10	0.01279561	0.009757415
	0.01332854	0.008907747	-3.131167e-11	2.075196e-10	-0.07252831	-0.05825268	-3.295897e-10	2.570998e-10
	-1.877868e-10	5.094299e-10	0.01279561	0.009757415	-3.295897e-10	2.570998e-10	-0.07440697	-0.05521883
4.1e+08	-0.08451935	-0.05576094	-2.508311e-10	3.055338e-10	0.01441759	0.007827282	-1.907278e-10	5.887274e-10
	-2.508311e-10	3.055338e-10	-0.08600524	-0.05273588	-4.433293e-11	2.215904e-10	0.01392118	0.008818021
	0.01441759	0.007827282	-4.433293e-11	2.215904e-10	-0.08438369	-0.05568974	-3.454847e-10	3.399734e-10
	-1.907278e-10	5.887274e-10	0.01392118	0.008818021	-3.454847e-10	3.399734e-10	-0.08613977	-0.05215487
4.2e+08	-0.09564167	-0.05088851	-2.514507e-10	3.72926e-10	0.01523826	0.006551836	-1.804195e-10	6.693778e-10
	-2.514507e-10	3.72926e-10	-0.09694406	-0.04746283	-5.643497e-11	2.384587e-10	0.01480434	0.007676861
	0.01523826	0.006551836	-5.643497e-11	2.384587e-10	-0.09552112	-0.05083607	-3.471403e-10	4.259027e-10
	-1.804195e-10	6.693778e-10	0.01480434	0.007676861	-3.471403e-10	4.259027e-10	-0.09706342	-0.04682421
4.3e+08	-0.1056048	-0.04392784	-2.407069e-10	4.405936e-10	0.01575849	0.005142452	-1.566846e-10	7.487768e-10
	-2.407069e-10	4.405936e-10	-0.1066523	-0.04013677	-6.715063e-11	2.581746e-10	0.01541155	0.006389535
	0.01575849	0.005142452	-6.715063e-11	2.581746e-10	-0.1055043	-0.04388917	-3.341201e-10	5.122269e-10
	-1.566846e-10	7.487768e-10	0.01541155	0.006389535	-3.341201e-10	5.122269e-10	-0.106747	-0.03944297
4.4e+08	-0.1140246	-0.03515718	-2.186207e-10	5.064458e-10	0.01595973	0.003664286	-1.198609e-10	8.243122e-10
	-2.186207e-10	5.064458e-10	-0.1147531	-0.0310506	-7.58996e-11	2.807164e-10	0.01572161	0.005016114
	0.01595973	0.003664286	-7.58996e-11	2.807164e-10	-0.1139477	-0.03512659	-3.064548e-10	5.96241e-10
	-1.198609e-10	8.243122e-10	0.01572161	0.005016114	-3.064548e-10	5.96241e-10	-0.1148142	-0.03030606
4.5e+08	-0.1205812	-0.02492207	-1.855748e-10	5.684097e-10	0.01583696	0.002183793	-7.079534e-11	8.934642e-10
	-1.855748e-10	5.684097e-10	-0.1209372	-0.02056296	-8.200115e-11	3.059245e-10	0.01572579	0.003618564
	0.01583696	0.002183793	-8.200115e-11	3.059245e-10	-0.1205302	-0.02489348	-2.646431e-10	6.752644e-10
	-7.079534e-11	8.934642e-10	0.01572579	0.003618564	-2.646431e-10	6.752644e-10	-0.1209565	-0.01977399
4.6e+08	-0.1250301	-0.0136211	-1.423101e-10	6.244834e-10	0.01539824	0.0007661519	-1.082052e-11	9.539031e-10
	-1.423101e-10	6.244834e-10	-0.1249729	-0.009083299	-8.471735e-11	3.33441e-10	0.01542755	0.002258392
	0.01539824	0.0007661519	-8.471735e-11	3.33441e-10	-0.125006	-0.01358827	-2.096474e-10	7.467089e-10
	-1.082052e-11	9.539031e-10	0.01542755	0.002258392	-2.096474e-10	7.467089e-10	-0.1249438	-0.008257844
4.7e+08	-0.1272097	-0.001690186	-8.991863e-11	6.727888e-10	0.01466393	-0.0005270217	5.828831e-11	1.00358e-09
	-8.991863e-11	6.727888e-10	-0.1267138	0.002944316	-8.332351e-11	3.626654e-10	0.01484186	0.0009945344
	0.01466393	-0.0005270217	-8.332351e-11	3.626654e-10	-0.1272121	-0.001647004	-1.428848e-10	8.08148e-10
	5.828831e-11	1.00358e-09	0.01484186	0.0009945344	-1.428848e-10	8.08148e-10	-0.1266312	0.003796914
4.8e+08	-0.1270459	0.01041385	-2.983091e-11	7.116285e-10	0.01366552	-0.001639665	1.343717e-10	1.040812e-09
