!$
! Info: Touchstone file created by Circ.  Input file=Tx_12in_Rx_100ohms_TxVia_35mils_RxVia_45mils.circ
!$
# Hz S RI R 50
0	0.01245058	1.519841e-25	-6.434912e-05	-7.450705e-26	8.442935e-05	2.341221e-23	-6.434858e-05	-7.814658e-26
	-6.434914e-05	-7.2156e-26	0.01244711	1.791502e-25	-6.43478e-05	-6.549449e-26	8.309051e-05	2.818705e-23
	8.495204e-05	2.3717e-23	-6.434776e-05	-6.942803e-26	0.01245851	1.483699e-25	-6.434794e-05	1.647611e-26
	-6.434859e-05	-7.651428e-26	8.124198e-05	2.832577e-23	-6.434797e-05	1.969094e-26	0.01246017	1.678618e-25
1e+07	0.01792013	0.007408945	-3.596037e-06	-1.236482e-05	0.0003982571	0.002178771	-3.17189e-06	-1.717537e-05
	-3.596037e-06	-1.236482e-05	0.01846305	0.007435887	-1.869529e-06	-3.56433e-06	0.0008168757	0.002216299
	0.0003982812	0.002178772	-1.869529e-06	-3.56433e-06	0.01728756	0.007784143	-4.262529e-06	-4.692211e-06
	-3.17189e-06	-1.717537e-05	0.0008168147	0.002216309	-4.262529e-06	-4.692211e-06	0.01829581	0.007467606
2e+07	0.02373525	0.01018815	-5.880303e-06	6.397085e-07	0.001187168	0.004258014	-2.569067e-06	-6.05229e-06
	-5.880304e-06	6.397086e-07	0.024169	0.01004307	-2.463999e-05	-2.45281e-05	0.001461103	0.004501178
	0.001187176	0.004257999	-2.463999e-05	-2.45281e-05	0.02365705	0.01097629	-2.980987e-05	-2.379352e-05
	-2.569068e-06	-6.05229e-06	0.001461094	0.004501213	-2.980987e-05	-2.379352e-05	0.02406258	0.01016062
3e+07	0.02874623	0.01041025	-9.751631e-06	-5.703374e-07	0.002429137	0.006030668	-2.374093e-06	-3.196629e-06
	-9.751631e-06	-5.703373e-07	0.02907297	0.01021753	-4.341696e-05	-2.254315e-05	0.002595597	0.006347311
	0.002429137	0.006030665	-4.341696e-05	-2.254315e-05	0.02909569	0.01121902	-4.839807e-05	-2.094563e-05
	-2.374093e-06	-3.196628e-06	0.002595597	0.006347317	-4.839807e-05	-2.094563e-05	0.02901895	0.0103661
4e+07	0.0331442	0.009181131	-1.25353e-05	6.497077e-07	0.004039152	0.007428589	-2.104074e-06	-1.644236e-06
	-1.25353e-05	6.497075e-07	0.0333628	0.008985707	-5.737786e-05	-1.35258e-05	0.004147337	0.007784199
	0.004039154	0.007428591	-5.737786e-05	-1.35258e-05	0.03382797	0.009867571	-6.207685e-05	-1.118084e-05
	-2.104074e-06	-1.644236e-06	0.004147332	0.007784197	-6.207685e-05	-1.118084e-05	0.0333556	0.009145936
5e+07	0.03687052	0.006845102	-1.432295e-05	3.03228e-06	0.005912909	0.0083824	-1.739977e-06	-6.354955e-07
	-1.432295e-05	3.032279e-06	0.03698278	0.006680577	-6.686345e-05	-5.381748e-07	0.006132725	0.008652594
	0.00591291	0.0083824	-6.686345e-05	-5.381748e-07	0.03779826	0.007323887	-7.119601e-05	2.490857e-06
	-1.739977e-06	-6.354955e-07	0.006132721	0.008652593	-7.119601e-05	2.490857e-06	0.03701599	0.006839609
6e+07	0.03982402	0.00364412	-1.514717e-05	6.039439e-06	0.007933614	0.008847278	-1.30038e-06	4.310473e-08
	-1.514717e-05	6.039439e-06	0.03983929	0.003541497	-7.197344e-05	1.482502e-05	0.008216552	0.009016826
	0.007933612	0.008847278	-7.197344e-05	1.482502e-05	0.04090517	0.003864418	-7.585599e-05	1.84879e-05
	-1.30038e-06	4.310477e-08	0.008216555	0.009016825	-7.585599e-05	1.84879e-05	0.03990547	0.00369008
7e+07	0.04190822	-0.000201526	-1.50231e-05	9.346608e-06	0.009991672	0.008791091	-8.12784e-07	4.69476e-07
	-1.50231e-05	9.346608e-06	0.04184277	-0.000215545	-7.268081e-05	3.144954e-05	0.01028076	0.008873823
	0.009991666	0.008791092	-7.268081e-05	3.144954e-05	0.04305295	-0.0002638708	-7.606362e-05	3.570443e-05
	-8.127837e-07	4.69476e-07	0.01028077	0.00887382	-7.606362e-05	3.570443e-05	0.04193363	-8.384573e-05
8e+07	0.04305197	-0.004472304	-1.39574e-05	1.272187e-05	0.01194664	0.008240824	-3.159416e-07	6.811546e-07
	-1.39574e-05	1.272187e-05	0.04292776	-0.004376618	-6.894066e-05	4.8445e-05	0.01220826	0.008246533
	0.01194663	0.008240826	-6.894066e-05	4.8445e-05	0.04417285	-0.004819061	-7.174484e-05	5.325587e-05
	-3.159413e-07	6.811545e-07	0.01220827	0.008246527	-7.174484e-05	5.325587e-05	0.04303443	-0.004265711
9e+07	0.04322004	-0.008946608	-1.192579e-05	1.599419e-05	0.01368339	0.007240468	1.477518e-07	7.039911e-07
	-1.192579e-05	1.599419e-05	0.04306386	-0.008726525	-6.053063e-05	6.509798e-05	0.01388907	0.007183631
	0.01368338	0.007240471	-6.053062e-05	6.509798e-05	0.04423174	-0.009560925	-6.264286e-05	7.042527e-05
	1.477521e-07	7.039909e-07	0.01388908	0.007183626	-6.264286e-05	7.042527e-05	0.04317707	-0.008637992
1e+08	0.04243235	-0.0134008	-8.525245e-06	1.909977e-05	0.0151068	0.00585993	5.34055e-07	5.481452e-07
	-8.525245e-06	1.909977e-05	0.04227625	-0.01304816	-4.541956e-05	8.118284e-05	0.01521977	0.005755274
	0.0151068	0.00585993	-4.541956e-05	8.118284e-05	0.04322872	-0.01425655	-4.66605e-05	8.700235e-05
	5.34055e-07	5.481452e-07	0.01521977	0.005755274	-4.66605e-05	8.700235e-05	0.04238501	-0.01298188
1.1e+08	0.04070861	-0.01772569	-4.27384e-06	1.979931e-05	0.0161289	0.004163561	7.082691e-07	3.931175e-07
	-4.27384e-06	1.979931e-05	0.04058594	-0.01725247	-2.578964e-05	8.584789e-05	0.01613434	0.004099943
	0.0161289	0.004163561	-2.578964e-05	8.584789e-05	0.04123107	-0.01863739	-2.597438e-05	9.177297e-05
	7.082691e-07	3.931175e-07	0.01613434	0.004099943	-2.597438e-05	9.177297e-05	0.04068313	-0.01719703
1.2e+08	0.03805948	-0.02162505	-3.037957e-06	1.945775e-05	0.01667364	0.002282719	6.167293e-07	2.712215e-07
	-3.037957e-06	1.945775e-05	0.03799155	-0.02104229	-1.025875e-05	8.675318e-05	0.0166182	0.002284926
	0.01667364	0.002282719	-1.025875e-05	8.675318e-05	0.03837258	-0.02253172	-1.335589e-05	9.20308e-05
	6.167293e-07	2.712215e-07	0.0166182	0.002284926	-1.335589e-05	9.20308e-05	0.03807769	-0.02099299
1.3e+08	0.03463557	-0.02490836	-1.664752e-06	1.921668e-05	0.01672043	0.0003400936	4.806749e-07	2.272182e-07
	-1.664752e-06	1.921668e-05	0.03464377	-0.02423213	-4.641356e-06	8.53151e-05	0.01663478	0.0004161725
	0.01672043	0.0003400935	-4.641356e-06	8.53151e-05	0.03477379	-0.02577376	-7.298884e-06	9.078676e-05
	4.806749e-07	2.272182e-07	0.01663478	0.0004161725	-7.298884e-06	9.078676e-05	0.03471813	-0.02418507
1.4e+08	0.03060234	-0.02742745	-2.140563e-07	1.894025e-05	0.01627301	-0.001541687	3.519784e-07	2.207459e-07
	-2.140563e-07	1.894025e-05	0.0307043	-0.02667965	1.404872e-06	8.380922e-05	0.01618318	-0.00139264
	0.01627301	-0.001541687	1.404872e-06	8.380922e-05	0.03059597	-0.02822553	-7.844011e-07	8.944926e-05
	3.519784e-07	2.207459e-07	0.01618318	-0.00139264	-7.844011e-07	8.944926e-05	0.03076676	-0.0266311
1.5e+08	0.02614742	-0.02907453	1.275043e-06	1.859647e-05	0.01536366	-0.003245012	2.37788e-07	2.51005e-07
	1.275043e-06	1.859647e-05	0.02635496	-0.02828192	7.673375e-06	8.20583e-05	0.01529129	-0.003030762
	0.01536366	-0.003245012	7.673375e-06	8.20583e-05	0.02602541	-0.0297868	5.98075e-06	8.783313e-05
	2.37788e-07	2.51005e-07	0.01529129	-0.003030762	5.98075e-06	8.783313e-05	0.02640617	-0.02822848
1.6e+08	0.02147381	-0.02978532	2.779107e-06	1.816535e-05	0.01405159	-0.004663893	1.45786e-07	3.145918e-07
	2.779107e-06	1.816535e-05	0.0217915	-0.02897793	1.403931e-05	7.995462e-05	0.0140134	-0.004397466
	0.01405159	-0.004663893	1.403931e-05	7.995462e-05	0.02126421	-0.03039971	1.286516e-05	8.582412e-05
	1.45786e-07	3.145918e-07	0.0140134	-0.004397466	1.286516e-05	8.582412e-05	0.02183273	-0.02891666
1.7e+08	0.01679118	-0.02954109	4.28064e-06	1.763269e-05	0.01241957	-0.005710096	8.3199e-08	4.057356e-07
	4.28064e-06	1.763269e-05	0.01721537	-0.0287502	2.040734e-05	7.742707e-05	0.01242667	-0.005408175
	0.01241957	-0.005710096	2.040734e-05	7.742707e-05	0.01652095	-0.03005117	1.976716e-05	8.334624e-05
	8.3199e-08	4.057356e-07	0.01242667	-0.005408175	1.976716e-05	8.334624e-05	0.0172484	-0.02867873
1.8e+08	0.01230635	-0.02836892	5.764104e-06	1.698773e-05	0.01056891	-0.006318272	5.595948e-08	5.166047e-07
	5.764104e-06	1.698773e-05	0.01282483	-0.02762482	2.669499e-05	7.442765e-05	0.0106264	-0.005999541
	0.01056891	-0.006318272	2.669499e-05	7.442765e-05	0.01200098	-0.02877334	2.659782e-05	8.034801e-05
	5.595949e-08	5.166047e-07	0.0106264	-0.005999541	2.659782e-05	8.034801e-05	0.01285185	-0.02754136
1.9e+08	0.008213749	-0.02633995	7.215412e-06	1.622167e-05	0.008613444	-0.006449732	6.805001e-08	6.377615e-07
	7.215412e-06	1.622167e-05	0.008806078	-0.02566959	3.282464e-05	7.092576e-05	0.008720337	-0.006133192
	0.008613444	-0.006449732	3.282464e-05	7.092576e-05	0.007896743	-0.02664182	3.327291e-05	7.679661e-05
	6.805001e-08	6.377615e-07	0.008720337	-0.006133192	3.327291e-05	7.679661e-05	0.008829463	-0.025573
2e+08	0.004686197	-0.02356555	8.617279e-06	1.532876e-05	0.006672623	-0.006094635	1.209502e-07	7.589484e-07
	8.617279e-06	1.532876e-05	0.005324624	-0.02299038	3.872023e-05	6.690561e-05	0.006822131	-0.005797966
	0.006672623	-0.006094635	3.872023e-05	6.690561e-05	0.004378669	-0.0237719	3.970968e-05	7.267524e-05
	1.209502e-07	7.589484e-07	0.006822131	-0.005797966	3.970968e-05	7.267524e-05	0.005346871	-0.02288012
2.1e+08	0.001866775	-0.02019154	9.950604e-06	1.430715e-05	0.00486439	-0.005272436	2.135102e-07	8.697938e-07
	9.950604e-06	1.430715e-05	0.002517764	-0.01972556	4.430607e-05	6.236547e-05	0.005044598	-0.005010503
	0.00486439	-0.005272436	4.430607e-05	6.236547e-05	0.001587005	-0.0203127	4.582578e-05	6.798241e-05
	2.135102e-07	8.697938e-07	0.005044598	-0.005010503	4.582578e-05	6.798241e-05	0.002541328	-0.01960172
2.2e+08	-0.0001379207	-0.01639068	1.119678e-05	1.315793e-05	0.003298104	-0.004030563	3.420174e-07	9.605197e-07
	1.119678e-05	1.315793e-05	0.0004882992	-0.016039	4.950723e-05	5.731724e-05	0.003492978	-0.003814145
	0.003298104	-0.004030563	4.950723e-05	5.731724e-05	-0.0003748256	-0.01643968	5.153995e-05	6.273142e-05
	3.420174e-07	9.605197e-07	0.003492978	-0.003814145	5.153995e-05	6.273142e-05	0.000515483	-0.01590224
2.3e+08	-0.001262708	-0.01235389	1.233681e-05	1.188588e-05	0.002068039	-0.002441421	5.004537e-07	1.022684e-06
	1.233681e-05	1.188588e-05	-0.0007000031	-0.01211173	5.425078e-05	5.178627e-05	0.002258713	-0.002276247
	0.002068039	-0.002441421	5.425078e-05	5.178627e-05	-0.001445087	-0.01234578	5.67734e-05	5.69501e-05
	5.004537e-07	1.022684e-06	0.002258713	-0.002276247	5.67734e-05	5.69501e-05	-0.000667172	-0.01196324
2.4e+08	-0.001486642	-0.00828047	1.335199e-05	1.04997e-05	0.001247828	-0.0005979042	6.809815e-07	1.049758e-06
	1.335199e-05	1.04997e-05	-0.001025033	-0.008132873	5.846749e-05	4.581146e-05	0.001414092	-0.0004840593
	0.001247828	-0.0005979042	5.846749e-05	4.581146e-05	-0.00160646	-0.008231642	6.145177e-05	5.068067e-05
	6.809815e-07	1.049758e-06	0.001414092	-0.0004840593	6.145177e-05	5.068067e-05	-0.0009849117	-0.007974301
2.5e+08	-0.0008335649	-0.00436802	1.422481e-05	9.011883e-06	0.0008861869	0.001392287	8.745808e-07	1.0375e-06
	1.422481e-05	9.011883e-06	-0.0005068229	-0.004290226	6.209403e-05	3.944404e-05	0.001008071	0.001460555
	0.0008861869	0.001392287	6.209403e-05	3.944404e-05	-0.0008864898	-0.004295513	6.550746e-05	4.397837e-05
	8.745808e-07	1.0375e-06	0.001008071	0.001460555	6.550746e-05	4.397837e-05	-0.0004582477	-0.004123556
2.6e+08	0.0006296316	-0.0008024787	1.493978e-05	7.438547e-06	0.001004173	0.003413168	1.071744e-06	9.84121e-07
	1.493978e-05	7.438547e-06	0.0007940558	-0.0007609511	6.507501e-05	3.274672e-05	0.00106353	0.003447223
	0.001004173	0.003413168	6.507501e-05	3.274672e-05	0.0006442638	-0.0007232822	6.888178e-05	3.691024e-05
	1.071744e-06	9.84121e-07	0.00106353	0.003447223	6.888178e-05	3.691024e-05	0.0008516995	-0.0005883945
2.7e+08	0.002796955	0.002251139	1.54842e-05	5.798829e-06	0.001594112	0.005347431	1.263171e-06	8.902223e-07
	1.54842e-05	5.798829e-06	0.002780146	0.002297037	6.736494e-05	2.579179e-05	0.001576085	0.005363615
	0.001594112	0.005347431	6.736494e-05	2.579179e-05	0.002876288	0.002320776	7.15268e-05	2.955298e-05
	1.263171e-06	8.902223e-07	0.001576085	0.005363615	7.15268e-05	2.955298e-05	0.002846883	0.002473187
2.8e+08	0.005529223	0.004656846	1.584882e-05	4.114254e-06	0.002620245	0.007083406	1.440376e-06	7.585451e-07
	1.584882e-05	4.114254e-06	0.005322568	0.004752628	6.893002e-05	1.865929e-05	0.002514535	0.007102054
	0.002620245	0.007083406	6.893002e-05	1.865929e-05	0.005667151	0.00470206	7.340708e-05	2.199084e-05
	1.440376e-06	7.585451e-07	0.002514535	0.007102054	7.340708e-05	2.199084e-05	0.005397828	0.004930143
2.9e+08	0.008661628	0.006314188	1.602826e-05	2.407841e-06	0.004021021	0.008521629	1.59618e-06	5.93553e-07
	1.602826e-05	2.407841e-06	0.008267993	0.0065076	6.974913e-05	1.143439e-05	0.003822857	0.008565772
	0.004021021	0.008521629	6.974913e-05	1.143439e-05	0.008849172	0.006322091	7.450045e-05	1.431285e-05
	1.59618e-06	5.93553e-07	0.003822857	0.008565772	7.450045e-05	1.431285e-05	0.008350641	0.006684466
3e+08	0.01201252	0.007162835	1.602114e-05	7.031949e-07	0.005712881	0.00958062	1.725021e-06	4.009175e-07
	1.602114e-05	7.031949e-07	0.01144675	0.007500941	6.981442e-05	4.204757e-06	0.005423633	0.009674483
	0.005712881	0.00958062	6.981442e-05	4.204757e-06	0.01223832	0.007123029	7.479833e-05	6.610099e-06
	1.725021e-06	4.009175e-07	0.005423633	0.009674483	7.479833e-05	6.610099e-06	0.01153516	0.007675497
3.1e+08	0.01539295	0.007185063	1.583007e-05	-9.763827e-07	0.007595283	0.01020156	1.823088e-06	1.869707e-07
	1.583007e-05	-9.763827e-07	0.01468163	0.007711238	6.913148e-05	-2.94194e-06	0.007222674	0.01036894
	0.007595283	0.01020156	6.913148e-05	-2.94194e-06	0.01564384	0.007090048	7.430566e-05	-1.026772e-06
	1.823088e-06	1.869707e-07	0.007222674	0.01036894	7.430566e-05	-1.026772e-06	0.01477376	0.007882291
3.2e+08	0.01861643	0.006405992	1.546133e-05	-2.60874e-06	0.009556662	0.01035164	1.888278e-06	-4.18304e-08
	1.546133e-05	-2.60874e-06	0.01779688	0.007156998	6.771846e-05	-9.920658e-06	0.009114563	0.01061424
	0.009556662	0.01035164	6.771846e-05	-9.920658e-06	0.0188781	0.006251449	7.303985e-05	-8.510034e-06
	1.888278e-06	-4.18304e-08	0.009114563	0.01061424	7.303985e-05	-8.510034e-06	0.01789046	0.007323918
3.3e+08	0.02150849	0.004891638	1.492436e-05	-4.173551e-06	0.01148098	0.01002583	1.920002e-06	-2.793596e-07
	1.492436e-05	-4.173551e-06	0.02062705	0.005894996	6.560496e-05	-1.665109e-05	0.01098879	0.01040174
	0.01148098	0.01002583	6.560496e-05	-1.665109e-05	0.02176615	0.004676591	7.102952e-05	-1.575683e-05
	1.920002e-06	-2.793596e-07	0.01098879	0.01040174	7.102952e-05	-1.575683e-05	0.02071968	0.006057761
3.4e+08	0.02391538	0.002744909	1.42312e-05	-5.652815e-06	0.01325448	0.009247104	1.918878e-06	-5.201607e-07
	1.42312e-05	-5.652815e-06	0.0230251	0.004016707	6.283073e-05	-2.305943e-05	0.01273613	0.009749402
	0.01325448	0.009247104	6.283073e-05	-2.305943e-05	0.02415455	0.002471726	6.831312e-05	-2.269072e-05
	1.918878e-06	-5.201607e-07	0.01273613	0.009749402	6.831312e-05	-2.269072e-05	0.02311441	0.004175925
3.5e+08	0.02571175	9.974569e-05	1.339574e-05	-7.031148e-06	0.01477231	0.008065063	1.886357e-06	-7.596586e-07
	1.339574e-05	-7.031148e-06	0.02486946	0.001643057	5.944357e-05	-2.907959e-05	0.01425492	0.008700735
	0.01477231	0.008065063	5.944357e-05	-2.907959e-05	0.02591888	-0.0002259968	6.493694e-05	-2.924274e-05
	1.886357e-06	-7.596586e-07	0.01425492	0.008700735	6.493694e-05	-2.924274e-05	0.02495331	0.001799939
3.6e+08	0.02680664	-0.002886219	1.243311e-05	-8.295833e-06	0.01594456	0.006553008	1.824336e-06	-9.942121e-07
	1.243311e-05	-8.295833e-06	0.02606975	-0.001082191	5.549765e-05	-3.465398e-05	0.01545687	0.007322205
	0.01594456	0.006553008	5.549765e-05	-3.465398e-05	0.02696985	-0.00325603	6.095349e-05	-3.535192e-05
	1.824336e-06	-9.942121e-07	0.01545687	0.007322205	6.095349e-05	-3.535192e-05	0.02614634	-0.0009258995
3.7e+08	0.02714772	-0.006040141	1.135903e-05	-9.436845e-06	0.0167015	0.004803707	1.734805e-06	-1.221069e-06
	1.135903e-05	-9.436845e-06	0.0265708	-0.004000117	5.105157e-05	-3.973369e-05	0.01627213	0.005699412
	0.0167015	0.004803707	5.105157e-05	-3.973369e-05	0.02725737	-0.006443035	5.641975e-05	-4.096543e-05
	1.734805e-06	-1.221069e-06	0.01627213	0.005699412	5.641975e-05	-4.096543e-05	0.02663881	-0.003842237
3.8e+08	0.02672349	-0.009183128	1.018928e-05	-1.044649e-05	0.01699762	0.002924034	1.619557e-06	-1.438167e-06
	1.018928e-05	-1.044649e-05	0.02635489	-0.006944959	4.616677e-05	-4.42783e-05	0.0166533	0.003932166
	0.01699762	0.002924034	4.616677e-05	-4.42783e-05	0.0267727	-0.009606179	5.139574e-05	-4.60383e-05
	1.619557e-06	-1.438167e-06	0.0166533	0.003932166	5.139574e-05	-4.60383e-05	0.02641359	-0.00678301
3.9e+08	0.02556342	-0.01213963	8.939353e-06	-1.131911e-05	0.0168144	0.001028801	1.480001e-06	-1.643885e-06
	8.939353e-06	-1.131911e-05	0.02544205	-0.009752678	4.090616e-05	-4.825534e-05	0.01657816	0.002128764
	0.0168144	0.001028801	4.090616e-05	-4.825534e-05	0.02554842	-0.01256861	4.594344e-05	-5.05329e-05
	1.480001e-06	-1.643885e-06	0.01657816	0.002128764	4.594344e-05	-5.05329e-05	0.02549136	-0.009584035
4e+08	0.02373587	-0.01474656	7.624244e-06	-1.205068e-05	0.01616137	-0.0007659025	1.317093e-06	-1.836756e-06
	7.624244e-06	-1.205068e-05	0.02388849	-0.01226933	3.533313e-05	-5.163962e-05	0.01605102	0.000399763
	0.01616137	-0.0007659025	3.533313e-05	-5.163962e-05	0.02365623	-0.01516669	4.01259e-05	-5.44183e-05
	1.317093e-06	-1.836756e-06	0.01605102	0.000399763	4.01259e-05	-5.44183e-05	0.023929	-0.01209139
4.1e+08	0.02134414	-0.01686175	6.258375e-06	-1.263845e-05	0.01507576	-0.002349469	1.13138e-06	-2.01518e-06
	6.258375e-06	-1.263845e-05	0.02178321	-0.01435883	2.951092e-05	-5.441249e-05	0.01510251	-0.001148404
	0.01507576	-0.002349469	2.951092e-05	-5.441249e-05	0.02120283	-0.01725842	3.400684e-05	-5.76697e-05
	1.13138e-06	-2.01518e-06	0.01510251	-0.001148404	3.400684e-05	-5.76697e-05	0.02181615	-0.01416917
4.2e+08	0.0185206	-0.01837122	4.855663e-06	-1.308067e-05	0.01362039	-0.003623266	9.231498e-07	-2.177198e-06
	4.855663e-06	-1.308067e-05	0.01924294	-0.01590978	2.350215e-05	-5.656111e-05	0.01378792	-0.002419603
	0.01362039	-0.003623266	2.350215e-05	-5.656111e-05	0.01832393	-0.01873078	2.765035e-05	-6.026782e-05
	9.231498e-07	-2.177198e-06	0.01378792	-0.002419603	2.765035e-05	-6.026782e-05	0.01927014	-0.01570635
4.3e+08	0.01541951	-0.01919497	3.429668e-06	-1.337632e-05	0.01188016	-0.004506477	6.926617e-07	-2.320322e-06
	3.429668e-06	-1.337632e-05	0.01640573	-0.01684091	1.736876e-05	-5.807781e-05	0.01218405	-0.003333621
	0.01188016	-0.004506477	1.736876e-05	-5.807781e-05	0.01517678	-0.01950546	2.112093e-05	-6.219851e-05
	6.926617e-07	-2.320322e-06	0.01218405	-0.003333621	2.112093e-05	-6.219851e-05	0.0164295	-0.01662214
4.4e+08	0.01220848	-0.01929094	1.993789e-06	-1.352502e-05	0.009957131	-0.00494095	4.404215e-07	-2.441485e-06
	1.993789e-06	-1.352502e-05	0.01342349	-0.01710498	1.117201e-05	-5.895966e-05	0.01038482	-0.003830901
	0.009957131	-0.00494095	1.117201e-05	-5.895966e-05	0.01193162	-0.01954275	1.44835e-05	-6.345257e-05
	4.404215e-07	-2.441485e-06	0.01038482	-0.003830901	1.44835e-05	-6.345257e-05	0.01344651	-0.0168699
4.5e+08	0.009059482	-0.01865696	5.614686e-07	-1.352709e-05	0.007964653	-0.004894744	1.674682e-07	-2.537091e-06
	5.614686e-07	-1.352709e-05	0.01045385	-0.01669085	4.972629e-06	-5.920829e-05	0.008495871	-0.003876099
	0.007964653	-0.004894744	4.972629e-06	-5.920829e-05	0.008762424	-0.01884336	7.803556e-06	-6.402584e-05
	1.674682e-07	-2.537091e-06	0.008495871	-0.003876099	7.803556e-06	-6.402584e-05	0.01047898	-0.01643921
4.6e+08	0.006139505	-0.01733052	-8.536478e-07	-1.33836e-05	0.006020692	-0.004364153	-1.243702e-07	-2.603167e-06
	-8.536478e-07	-1.33836e-05	0.007651789	-0.01562369	-1.168897e-06	-5.88299e-05	0.006628373	-0.003460242
	0.006020692	-0.004364153	-1.168897e-06	-5.88299e-05	0.005837496	-0.0174481	1.147214e-06	-6.391946e-05
	-1.243702e-07	-2.603167e-06	0.006628373	-0.003460242	1.147214e-06	-6.391946e-05	0.007681919	-0.01535592
4.7e+08	0.003601593	-0.01538645	-2.237623e-06	-1.30966e-05	0.004240885	-0.003374068	-4.322723e-07	-2.635558e-06
	-2.237623e-06	-1.30966e-05	0.005161436	-0.01396319	-7.191998e-06	-5.783546e-05	0.004892558	-0.002601342
	0.004240885	-0.003374068	-7.191998e-06	-5.783546e-05	0.003310436	-0.01543532	-5.418793e-06	-6.313988e-05
	-4.322723e-07	-2.635558e-06	0.004892558	-0.002601342	-5.418793e-06	-6.313988e-05	0.00519928	-0.0136804
4.8e+08	0.001576658	-0.01293256	-3.576214e-06	-1.266937e-05	0.002731679	-0.001976628	-7.523473e-07	-2.6304e-06
