!$
! Info: Touchstone file created by Circ.  Input file=Tx_16in_Rx_100ohms_TxVia_35mils_RxVia_45mils.circ
!$
# Hz S RI R 50
0	0.01648579	1.917283e-25	-8.508793e-05	-1.197746e-25	0.0001049894	3.103524e-23	-8.508724e-05	-1.217145e-25
	-8.508796e-05	-1.166658e-25	0.01648229	2.280646e-25	-8.508618e-05	-1.092936e-25	0.0001036643	3.736638e-23
	0.0001055112	3.143926e-23	-8.508613e-05	-1.144949e-25	0.01649354	1.871756e-25	-8.508616e-05	-2.725521e-26
	-8.508726e-05	-1.195561e-25	0.000101815	3.755017e-23	-8.50862e-05	-2.300429e-26	0.01649529	2.137052e-25
1e+07	0.02401798	0.008774725	-5.441626e-06	-1.605933e-05	0.0006249164	0.002789658	-5.152194e-06	-2.241668e-05
	-5.441626e-06	-1.605933e-05	0.02473267	0.00877965	-2.638234e-06	-4.582713e-06	0.001176743	0.002814661
	0.0006249406	0.00278966	-2.638234e-06	-4.582713e-06	0.02320263	0.009302348	-5.864372e-06	-5.924399e-06
	-5.152194e-06	-2.241668e-05	0.001176681	0.002814671	-5.864372e-06	-5.924398e-06	0.02450943	0.00882877
2e+07	0.03204033	0.01076653	-7.63145e-06	1.518204e-06	0.001946809	0.005319267	-4.019244e-06	-7.595948e-06
	-7.631451e-06	1.518204e-06	0.03258818	0.0105318	-3.488764e-05	-2.932144e-05	0.002327868	0.005604925
	0.001946817	0.005319251	-3.488764e-05	-2.932144e-05	0.03201826	0.01179624	-4.16015e-05	-2.780825e-05
	-4.019245e-06	-7.595948e-06	0.002327858	0.00560496	-4.16015e-05	-2.780825e-05	0.03245598	0.01069244
3e+07	0.03854911	0.00892173	-1.274023e-05	8.824542e-07	0.003950714	0.007227947	-3.556925e-06	-3.696601e-06
	-1.274023e-05	8.824543e-07	0.03893686	0.008625608	-5.993122e-05	-2.223756e-05	0.004211369	0.007606621
	0.003950714	0.007227944	-5.993122e-05	-2.223756e-05	0.03911485	0.009896843	-6.618669e-05	-1.940363e-05
	-3.556926e-06	-3.696601e-06	0.004211369	0.007606627	-6.618669e-05	-1.940363e-05	0.03888227	0.008819319
4e+07	0.04358347	0.004898582	-1.595257e-05	3.521904e-06	0.006411258	0.008377948	-2.952597e-06	-1.594619e-06
	-1.595257e-05	3.521903e-06	0.04381803	0.004612174	-7.662716e-05	-5.365707e-06	0.006616381	0.008801985
	0.00641126	0.008377949	-7.662716e-05	-5.365707e-06	0.04456737	0.005614966	-8.226042e-05	-1.412111e-06
	-2.952597e-06	-1.594619e-06	0.006616375	0.008801983	-8.226042e-05	-1.412111e-06	0.04382988	0.004809118
5e+07	0.04692904	-0.0005953816	-1.740275e-05	7.583082e-06	0.009062736	0.008679101	-2.209913e-06	-3.180817e-07
	-1.740275e-05	7.583082e-06	0.04702553	-0.0008200331	-8.535623e-05	1.646889e-05	0.009394103	0.008956803
	0.009062737	0.008679102	-8.535623e-05	1.646889e-05	0.04816256	-0.0002421831	-9.021614e-05	2.140924e-05
	-2.209914e-06	-3.180818e-07	0.009394099	0.008956801	-9.021614e-05	2.140924e-05	0.0470902	-0.0006389095
6e+07	0.04840956	-0.006952528	-1.718862e-05	1.220614e-05	0.01162701	0.008125364	-1.404706e-06	4.102782e-07
	-1.718862e-05	1.220614e-05	0.04839778	-0.007072953	-8.637478e-05	4.047242e-05	0.01200629	0.008249169
	0.01162701	0.008125364	-8.637478e-05	4.047242e-05	0.04972995	-0.006999481	-9.030848e-05	4.627698e-05
	-1.404706e-06	4.102782e-07	0.01200629	0.008249169	-9.030848e-05	4.627698e-05	0.04849985	-0.006919491
7e+07	0.0479552	-0.01358537	-1.541359e-05	1.68392e-05	0.01385058	0.006774347	-6.244342e-07	7.138283e-07
	-1.541359e-05	1.68392e-05	0.04787554	-0.01357296	-7.990304e-05	6.452771e-05	0.01420311	0.006782244
	0.01385058	0.006774348	-7.990304e-05	6.452771e-05	0.04921465	-0.01401608	-8.280271e-05	7.10965e-05
	-6.244338e-07	7.138283e-07	0.01420312	0.006782241	-8.280271e-05	7.10965e-05	0.04799898	-0.01345288
8e+07	0.04562917	-0.01992993	-1.21873e-05	2.107376e-05	0.01549175	0.004805522	4.090064e-08	6.888013e-07
	-1.21873e-05	2.107376e-05	0.04552739	-0.01977214	-6.626478e-05	8.687518e-05	0.01577699	0.004728601
	0.01549174	0.004805525	-6.626478e-05	8.687518e-05	0.04670325	-0.02068594	-6.79688e-05	9.40816e-05
	4.090101e-08	6.88801e-07	0.015777	0.004728595	-6.79688e-05	9.40816e-05	0.04565682	-0.01968578
9e+07	0.04163113	-0.02547278	-7.584068e-06	2.458583e-05	0.01639017	0.002440413	5.197253e-07	4.328567e-07
	-7.584068e-06	2.458583e-05	0.04155376	-0.02517367	-4.563054e-05	0.0001059503	0.0165823	0.002314885
	0.01639017	0.002440416	-4.563054e-05	0.0001059503	0.04242323	-0.02646466	-4.593594e-05	0.0001136106
	5.197255e-07	4.328564e-07	0.01658231	0.002314879	-4.593594e-05	0.0001136106	0.04167548	-0.02511675
1e+08	0.0362998	-0.02978471	-1.188306e-06	2.699763e-05	0.01646939	-6.398638e-05	7.544849e-07	3.450018e-08
	-1.188306e-06	2.699763e-05	0.03629103	-0.0293641	-1.587204e-05	0.0001198739	0.01654242	-0.000199222
	0.01646939	-6.398657e-05	-1.587204e-05	0.0001198739	0.03671987	-0.03090055	-1.450153e-05	0.0001277503
	7.544849e-07	3.450019e-08	0.01654242	-0.000199222	-1.450153e-05	0.0001277503	0.03639225	-0.02932855
1.1e+08	0.0299921	-0.03262843	5.172205e-06	2.573739e-05	0.01571538	-0.002459065	7.471247e-07	-1.636252e-07
	5.172205e-06	2.573739e-05	0.0300808	-0.03213149	1.437208e-05	0.000115909	0.01570172	-0.002508413
	0.01571538	-0.002459065	1.437208e-05	0.000115909	0.0300845	-0.03363233	1.743689e-05	0.0001232653
	7.471247e-07	-1.636252e-07	0.01570172	-0.002508413	1.743689e-05	0.0001232653	0.03015893	-0.03209956
1.2e+08	0.02317009	-0.03368339	7.367668e-06	2.457257e-05	0.01421031	-0.004458347	5.045514e-07	-1.595827e-07
	7.367668e-06	2.457257e-05	0.02336463	-0.03314957	3.754498e-05	0.0001077666	0.01417488	-0.004424246
	0.01421031	-0.004458347	3.754498e-05	0.0001077666	0.02305525	-0.03453062	3.712297e-05	0.000115911
	5.045514e-07	-1.595827e-07	0.01417488	-0.004424246	3.712297e-05	0.000115911	0.02342377	-0.0331141
1.3e+08	0.0163953	-0.03290523	9.770216e-06	2.327751e-05	0.01213148	-0.005849568	3.076141e-07	-2.973257e-08
	9.770216e-06	2.327751e-05	0.01669305	-0.0323765	4.736501e-05	0.0001014434	0.01210987	-0.00574935
	0.01213148	-0.005849568	4.736501e-05	0.0001014434	0.01615195	-0.03357666	4.791476e-05	0.0001095156
	3.076141e-07	-2.973257e-08	0.01210987	-0.00574935	4.791476e-05	0.0001095156	0.01673656	-0.03233165
1.4e+08	0.01018956	-0.03040652	1.219427e-05	2.172369e-05	0.009707098	-0.006486946	1.926019e-07	1.495346e-07
	1.219427e-05	2.172369e-05	0.01057337	-0.0299229	5.730719e-05	9.409543e-05	0.009719132	-0.006345651
	0.009707098	-0.006486946	5.730719e-05	9.409543e-05	0.00988362	-0.03090129	5.882852e-05	0.0001019751
	1.926019e-07	1.495346e-07	0.009719132	-0.006345651	5.882852e-05	0.0001019751	0.01060555	-0.02986445
1.5e+08	0.005010387	-0.02644122	1.454342e-05	1.987902e-05	0.007197446	-0.006304992	1.68875e-07	3.492021e-07
	1.454342e-05	1.987902e-05	0.005449185	-0.02603556	6.690484e-05	8.559493e-05	0.00724889	-0.006150061
	0.007197446	-0.006304992	6.690484e-05	8.559493e-05	0.004696858	-0.0267728	6.937847e-05	9.315625e-05
	1.68875e-07	3.492021e-07	0.00724889	-0.006150061	6.937847e-05	9.315625e-05	0.005474905	-0.02596109
1.6e+08	0.001216404	-0.02137975	1.673681e-05	1.773076e-05	0.004868227	-0.005324327	2.351407e-07	5.383721e-07
	1.673681e-05	1.773076e-05	0.001667989	-0.0210729	7.580173e-05	7.590645e-05	0.004952379	-0.005180906
	0.004868227	-0.005324327	7.580173e-05	7.590645e-05	0.0009389528	-0.0215724	7.918391e-05	8.302704e-05
	2.351407e-07	5.383721e-07	0.004952379	-0.005180906	7.918391e-05	8.302704e-05	0.001692149	-0.02098175
1.7e+08	-0.0009601669	-0.01567498	1.869909e-05	1.528496e-05	0.002963093	-0.003648524	3.798819e-07	6.887723e-07
	1.869909e-05	1.528496e-05	-0.0005446394	-0.01547211	8.368919e-05	6.507435e-05	0.003063303	-0.003535549
	0.002963093	-0.003648524	8.368919e-05	6.507435e-05	-0.00116978	-0.01576026	8.791513e-05	7.164039e-05
	3.798819e-07	6.887723e-07	0.003063303	-0.003535549	8.791513e-05	7.164039e-05	-0.0005175802	-0.01536519
1.8e+08	-0.00143039	-0.009821646	2.035986e-05	1.256663e-05	0.001678693	-0.001452313	5.833429e-07	7.783908e-07
	2.035986e-05	1.256663e-05	-0.001100717	-0.009710334	9.029564e-05	5.321376e-05	0.001771755	-0.001379676
	0.001678693	-0.001452313	9.029564e-05	5.321376e-05	-0.001552445	-0.009835121	9.528329e-05	5.912371e-05
	5.833429e-07	7.783908e-07	0.001771755	-0.001379677	9.528329e-05	5.912371e-05	-0.001067126	-0.009589831
1.9e+08	-0.0002530756	-0.004312788	2.165733e-05	9.617255e-06	0.001144938	0.001037469	8.206777e-07	7.93794e-07
	2.165733e-05	9.617255e-06	-5.382273e-05	-0.004263128	9.539002e-05	4.050287e-05	0.001205061	0.001070418
	0.001144938	0.001037469	9.539002e-05	4.050287e-05	-0.0002794766	-0.004290826	0.0001010442	4.566988e-05
	8.206777e-07	7.93794e-07	0.001205061	0.001070418	0.0001010442	4.566988e-05	-1.117025e-05	-0.004132135
2e+08	0.002373657	0.000403085	2.254019e-05	6.496499e-06	0.001412499	0.003566028	1.065593e-06	7.310961e-07
	2.254019e-05	6.496499e-06	0.002409084	0.0004361912	9.879012e-05	2.717211e-05	0.001415431	0.003570552
	0.001412499	0.003566028	9.879012e-05	2.717211e-05	0.002440386	0.0004261129	0.0001050063	3.152512e-05
	1.065593e-06	7.310961e-07	0.001415431	0.003570552	0.0001050063	3.152512e-05	0.002462076	0.0005740741
2.1e+08	0.006132912	0.003960126	2.297312e-05	3.27715e-06	0.002448697	0.005877225	1.293887e-06	5.951676e-07
	2.297312e-05	3.27715e-06	0.00598722	0.004032725	0.0001003708	1.349091e-05	0.002375536	0.005873867
	0.002448697	0.005877225	0.0001003708	1.349091e-05	0.006281146	0.003954252	0.000107039	1.69744e-05
	1.293887e-06	5.951676e-07	0.002375536	0.005873867	0.000107039	1.69744e-05	0.006050534	0.004173808
2.2e+08	0.01061965	0.006105262	2.293948e-05	3.725129e-08	0.004141984	0.007739821	1.486175e-06	3.975758e-07
	2.293948e-05	3.725129e-08	0.01029499	0.00627856	0.0001000692	-2.483301e-07	0.003982259	0.007755868
	0.004141984	0.007739821	0.0001000692	-2.483301e-07	0.0108306	0.006046809	0.0001070765	2.324578e-06
	1.486175e-06	3.975758e-07	0.003982259	0.007755868	0.0001070765	2.324578e-06	0.01036739	0.006419456
2.3e+08	0.01537847	0.006717709	2.244107e-05	-3.143805e-06	0.006314337	0.00897072	1.629438e-06	1.53911e-07
	2.244107e-05	-3.143805e-06	0.01489773	0.007051333	9.788606e-05	-1.374697e-05	0.006068009	0.009036781
	0.006314337	0.00897072	9.788606e-05	-1.374697e-05	0.01562842	0.006590591	0.000105118	-1.211269e-05
	1.629438e-06	1.53911e-07	0.006068009	0.009036781	0.000105118	-1.211269e-05	0.01497692	0.007189312
2.4e+08	0.01994509	0.005816316	2.149694e-05	-6.190373e-06	0.0087401	0.009452958	1.717303e-06	-1.190946e-07
	2.149694e-05	-6.190373e-06	0.01935082	0.006361361	9.388243e-05	-2.671554e-05	0.008418269	0.009599066
	0.0087401	0.009452958	9.388243e-05	-2.671554e-05	0.02020779	0.005612719	0.0001012237	-2.603611e-05
	1.717303e-06	-1.190946e-07	0.008418269	0.009599066	0.0001012237	-2.603611e-05	0.01943375	0.00649464
2.5e+08	0.02388761	0.003554421	2.014067e-05	-9.03482e-06	0.01116927	0.009146834	1.749143e-06	-4.060966e-07
	2.014067e-05	-9.03482e-06	0.02323871	0.004347064	8.817198e-05	-3.888758e-05	0.01079351	0.009398518
	0.01116927	0.009146834	8.817198e-05	-3.888758e-05	0.02413667	0.003274852	9.550631e-05	-3.916788e-05
	1.749143e-06	-4.060966e-07	0.01079351	0.009398518	9.550631e-05	-3.916788e-05	0.02332191	0.004474993
2.6e+08	0.02684404	0.0002028953	1.841668e-05	-1.162028e-05	0.01335289	0.008093226	1.728374e-06	-6.948534e-07
	1.841668e-05	-1.162028e-05	0.02621044	0.001259305	8.091094e-05	-5.002905e-05	0.01295327	0.008468016
	0.01335289	0.008093226	8.091094e-05	-5.002905e-05	0.02705523	-0.0001443747	8.812114e-05	-5.126245e-05
	1.728374e-06	-6.948534e-07	0.01295327	0.008468016	8.812114e-05	-5.126245e-05	0.02629038	0.00138244
2.7e+08	0.0285529	-0.003876801	1.637614e-05	-1.390185e-05	0.01506804	0.006408959	1.660355e-06	-9.769576e-07
	1.637614e-05	-1.390185e-05	0.02800862	-0.002563644	7.228639e-05	-5.994395e-05	0.01468007	0.006913713
	0.01506804	0.006408959	7.228639e-05	-5.994395e-05	0.02870611	-0.004276849	7.925435e-05	-6.211128e-05
	1.660355e-06	-9.769576e-07	0.01468007	0.006913713	7.925435e-05	-6.211128e-05	0.02808214	-0.002443588
2.8e+08	0.0288742	-0.00826704	1.407337e-05	-1.584634e-05	0.01614013	0.00427471	1.550394e-06	-1.247554e-06
	1.407337e-05	-1.584634e-05	0.02848964	-0.006728162	6.250553e-05	-6.847583e-05	0.01580093	0.004904094
	0.01614013	0.00427471	6.250553e-05	-6.847583e-05	0.02895508	-0.008699865	6.911313e-05	-7.154405e-05
	1.550394e-06	-1.247554e-06	0.01580093	0.004904094	6.911313e-05	-7.154405e-05	0.02855431	-0.006608474
2.9e+08	0.02779936	-0.01253278	1.156287e-05	-1.743087e-05	0.01646035	0.001916681	1.402243e-06	-1.504271e-06
	1.156287e-05	-1.743087e-05	0.02763354	-0.01082147	5.178601e-05	-7.550595e-05	0.01620441	0.002653002
	0.01646035	0.001916681	5.178601e-05	-7.550595e-05	0.02780038	-0.01297523	5.791674e-05	-7.942677e-05
	1.402243e-06	-1.504271e-06	0.01620441	0.002653002	5.791674e-05	-7.942677e-05	0.02768792	-0.01069874
3e+08	0.0254493	-0.01626124	8.897489e-06	-1.864081e-05	0.01599656	-0.0004162411	1.217344e-06	-1.745656e-06
	8.897489e-06	-1.864081e-05	0.02554281	-0.01444879	4.034901e-05	-8.094951e-05	0.01585169	0.0003982102
	0.01599656	-0.0004162411	4.034901e-05	-8.094951e-05	0.0253703	-0.01668913	4.589031e-05	-8.565824e-05
	1.217344e-06	-1.745656e-06	0.01585169	0.0003982102	4.589031e-05	-8.565824e-05	0.02558667	-0.01431927
3.1e+08	0.0220609	-0.01909892	6.127849e-06	-1.946771e-05	0.01479667	-0.002477639	9.949405e-07	-1.969534e-06
	6.127849e-06	-1.946771e-05	0.02243048	-0.01726824	2.84154e-05	-8.475131e-05	0.01478042	-0.001622401
	0.01479667	-0.002477639	2.84154e-05	-8.475131e-05	0.02190898	-0.01948924	3.326172e-05	-9.01664e-05
	9.949405e-07	-1.969534e-06	0.01478042	-0.001622401	3.326172e-05	-9.01664e-05	0.02246484	-0.01712824
3.2e+08	0.01796327	-0.02078296	3.302591e-06	-1.990758e-05	0.01298386	-0.004048603	7.32963e-07	-2.171671e-06
	3.302591e-06	-1.990758e-05	0.01859861	-0.01902049	1.620377e-05	-8.688155e-05	0.01310098	-0.003194778
	0.01298386	-0.004048603	1.620377e-05	-8.688155e-05	0.01775211	-0.02111587	2.025994e-05	-9.290487e-05
	7.32963e-07	-2.171671e-06	0.01310098	-0.003194778	2.025994e-05	-9.290487e-05	0.01862571	-0.01886682
3.3e+08	0.01354589	-0.02116374	4.693379e-07	-1.995987e-05	0.01074431	-0.004960133	4.294531e-07	-2.345034e-06
	4.693379e-07	-1.995987e-05	0.01440916	-0.01955064	3.930464e-06	-8.733312e-05	0.01098549	-0.00415037
	0.01074431	-0.004960133	3.930464e-06	-8.733312e-05	0.01329451	-0.02142439	7.115256e-06	-9.385129e-05
	4.294531e-07	-2.345034e-06	0.01098549	-0.00415037	7.115256e-06	-9.385129e-05	0.01443218	-0.01938097
3.4e+08	0.009221569	-0.02021701	-2.324179e-06	-1.96275e-05	0.008308239	-0.005110605	8.420902e-08	-2.479836e-06
	-2.324179e-06	-1.96275e-05	0.01024978	-0.01882037	-8.189699e-06	-8.612104e-05	0.008650387	-0.004383316
	0.008308239	-0.005110605	-8.189699e-06	-8.612104e-05	0.008952582	-0.02039685	-5.940259e-06	-9.300772e-05
	8.420902e-08	-2.479836e-06	0.008650387	-0.004383316	-5.940259e-06	-9.300772e-05	0.01027256	-0.01863352
3.5e+08	0.005387522	-0.0180442	-5.029303e-06	-1.891748e-05	0.00592645	-0.004476401	-2.997496e-07	-2.564369e-06
	-5.029303e-06	-1.891748e-05	0.006497764	-0.01690931	-1.994316e-05	-8.328279e-05	0.006334496	-0.003861321
	0.00592645	-0.004476401	-1.994316e-05	-8.328279e-05	0.005125165	-0.01814183	-1.867304e-05	-9.040205e-05
	-2.997496e-07	-2.564369e-06	0.006334496	-0.003861321	-1.867304e-05	-9.040205e-05	0.006524364	-0.01670542
3.6e+08	0.002388392	-0.01486112	-7.596177e-06	-1.784234e-05	0.003844475	-0.003114521	-7.151981e-07	-2.58645e-06
	-7.596177e-06	-1.784234e-05	0.003485358	-0.01400559	-3.111832e-05	-7.888073e-05	0.004274611	-0.002629029
	0.003844475	-0.003114521	-3.111832e-05	-7.888073e-05	0.002156314	-0.01488237	-3.084969e-05	-8.609111e-05
	-7.151981e-07	-2.58645e-06	0.004274611	-0.002629029	-3.084969e-05	-8.609111e-05	0.003519636	-0.01378614
3.7e+08	0.0004845095	-0.01097587	-9.974538e-06	-1.642155e-05	0.002277255	-0.001156818	-1.150498e-06	-2.535233e-06
	-9.974538e-06	-1.642155e-05	0.001469729	-0.01038642	-4.150786e-05	-7.300442e-05	0.002681281	-0.0008034433
	0.002277255	-0.001156818	-4.150786e-05	-7.300442e-05	0.0003036374	-0.01093342	-4.224059e-05	-8.016351e-05
	-1.150498e-06	-2.535233e-06	0.002681281	-0.0008034434	-4.224059e-05	-8.016351e-05	0.001514885	-0.0101541
3.8e+08	-0.0001714989	-0.006758364	-1.211499e-05	-1.468283e-05	0.001386945	0.001203597	-1.590134e-06	-2.402944e-06
	-1.211499e-05	-1.468283e-05	0.0006103436	-0.006390698	-5.091285e-05	-6.577313e-05	0.001717272	0.001438126
	0.001386945	0.001203597	-5.091285e-05	-6.577313e-05	-0.0002848801	-0.006670596	-5.262531e-05	-7.274188e-05
	-1.590134e-06	-2.402944e-06	0.001717272	0.001438126	-5.262531e-05	-7.274188e-05	0.0006685537	-0.006149117
3.9e+08	0.0004524538	-0.002604325	-1.397119e-05	-1.266286e-05	0.001266243	0.003732304	-2.015976e-06	-2.186278e-06
	-1.397119e-05	-1.266286e-05	0.0009558557	-0.00238617	-5.91485e-05	-5.733703e-05	0.001481039	0.003876341
	0.001266243	0.003732304	-5.91485e-05	-5.733703e-05	0.0004166825	-0.002493711	-6.179954e-05	-6.398344e-05
	-2.015976e-06	-2.186278e-06	0.001481039	0.003876341	-6.179954e-05	-6.398344e-05	0.001028003	-0.002139516
4e+08	0.002266721	0.001102719	-1.550233e-05	-1.040713e-05	0.001928991	0.006177765	-2.409007e-06	-1.887151e-06
	-1.550233e-05	-1.040713e-05	0.002441624	0.001265474	-6.605101e-05	-4.787656e-05	0.001996884	0.00627236
	0.001928991	0.006177765	-6.605101e-05	-4.787656e-05	0.002311536	0.001211623	-6.958265e-05	-5.407834e-05
	-2.409007e-06	-1.887151e-06	0.001996884	0.00627236	-6.958265e-05	-5.407834e-05	0.002527175	0.001512917
4.1e+08	0.005070375	0.004027649	-1.667561e-05	-7.968835e-06	0.003308973	0.008297144	-2.751177e-06	-1.51269e-06
	-1.667561e-05	-7.968835e-06	0.004897928	0.00424235	-7.14848e-05	-3.759958e-05	0.003212812	0.008392224
	0.003308973	0.008297144	-7.14848e-05	-3.759958e-05	0.005191269	0.004110433	-7.582514e-05	-4.324556e-05
	-2.751177e-06	-1.51269e-06	0.003212812	0.008392224	-7.582514e-05	-4.324556e-05	0.004994963	0.004486667
4.2e+08	0.008572069	0.005914779	-1.74683e-05	-5.406902e-06	0.005266949	0.009881061	-3.027055e-06	-1.074513e-06
	-1.74683e-05	-5.406902e-06	0.008067885	0.006291692	-7.534899e-05	-2.673599e-05	0.005006169	0.01003054
	0.005266949	0.009881061	-7.534899e-05	-2.673599e-05	0.0087574	0.00594942	-8.041463e-05	-3.172654e-05
	-3.027055e-06	-1.074513e-06	0.005006169	0.01003054	-8.041463e-05	-3.172654e-05	0.008173283	0.006529773
4.3e+08	0.01241913	0.006610789	-1.786891e-05	-2.78337e-06	0.00760506	0.01077473	-3.225007e-06	-5.874538e-07
	-1.786891e-05	-2.78337e-06	0.01163315	0.007252092	-7.75823e-05	-1.553035e-05	0.007196391	0.01103104
	0.00760506	0.01077473	-7.75823e-05	-1.553035e-05	0.01265112	0.006579705	-8.328012e-05	-1.977717e-05
	-3.225007e-06	-5.874538e-07	0.007196391	0.01103104	-8.328012e-05	-1.977717e-05	0.0117429	0.007481995
4.4e+08	0.0162319	0.006077553	-1.78776e-05	-1.60522e-07	0.01008704	0.01089343	-3.337745e-06	-6.8035e-08
	-1.78776e-05	-1.60522e-07	0.01524477	0.007066744	-7.816564e-05	-4.233152e-06	0.009563428	0.01130203
	0.01008704	0.01089343	-7.816564e-05	-4.233152e-06	0.01648822	0.005969273	-8.439357e-05	-7.659081e-06
	-3.337745e-06	-6.8035e-08	0.009563428	0.01130203	-8.439357e-05	-7.659081e-06	0.01535442	0.007287922
4.5e+08	0.01964004	0.004393918	-1.75055e-05	2.401841e-06	0.01246208	0.0102308	-3.362221e-06	4.670395e-07
	-1.75055e-05	2.401841e-06	0.01855627	0.005786701	-7.712204e-05	6.908268e-06	0.01186994	0.01082529
	0.01246208	0.0102308	-7.712204e-05	6.908268e-06	0.01989583	0.004204205	-8.376933e-05	4.369059e-06
	-3.362221e-06	4.670395e-07	0.01186994	0.01082529	-8.376933e-05	4.369059e-06	0.01866136	0.006000096
4.6e+08	0.02231724	0.001746452	-1.677331e-05	4.848659e-06	0.01449006	0.008859347	-3.298989e-06	1.002096e-06
	-1.677331e-05	4.848659e-06	0.02125569	0.003564103	-7.451399e-05	1.765788e-05	0.01388501	0.009657548
	0.01449006	0.008859347	-7.451399e-05	1.765788e-05	0.02254738	0.001478778	-8.146126e-05	1.605922e-05
	-3.298989e-06	1.002096e-06	0.01388501	0.009657548	-8.146126e-05	1.605922e-05	0.02135226	0.003772074
4.7e+08	0.02401132	-0.001589666	-1.570941e-05	7.131141e-06	0.01596552	0.006923127	-3.151149e-06	1.52319e-06
	-1.570941e-05	7.131141e-06	0.02309396	0.0006362607	-7.043882e-05	2.779725e-05	0.01540707	0.007924699
	0.01596552	0.006923127	-7.043882e-05	2.779725e-05	0.02419276	-0.001924369	-7.755771e-05	2.717979e-05
