!$
! Info: Touchstone file created by Circ.  Input file=Tx_16in_Rx_85ohms_TxVia_35mils_RxVia_45mils.circ
!$
# Hz S RI R 50
0	0.01283655	1.91547e-25	-8.57864e-05	3.717691e-24	0.0001051105	2.407196e-23	-8.5798e-05	5.241282e-24
	-8.578643e-05	3.720764e-24	0.01283423	2.299237e-25	-8.576572e-05	1.406783e-24	0.000104481	2.906805e-23
	0.0001056184	2.440855e-23	-8.576568e-05	1.40145e-24	0.01284854	1.860749e-25	-8.578293e-05	3.625568e-24
	-8.579802e-05	5.243398e-24	0.0001026324	2.921109e-23	-8.578297e-05	3.629944e-24	0.01284729	2.15442e-25
1e+07	0.01750409	-0.01595725	-0.0003720772	-1.743539e-05	0.0005800752	0.00282474	-0.0002338067	0.0001812324
	-0.0003720772	-1.743538e-05	0.01536971	-0.01601508	-1.275856e-05	-2.318907e-05	0.0006965363	0.00282596
	0.0005801043	0.002824734	-1.275856e-05	-2.318907e-05	0.01539576	-0.01628458	-8.00767e-05	-1.958323e-05
	-0.0002338067	0.0001812323	0.0006964755	0.002825971	-8.007669e-05	-1.958323e-05	0.0153335	-0.01599614
2e+07	0.01304649	-0.03611381	-0.0003265598	6.695841e-05	0.001960084	0.005310741	-0.0001996187	0.0001874244
	-0.0003265598	6.695842e-05	0.01120518	-0.03542706	-1.034526e-05	-4.937725e-06	0.002108469	0.005207635
	0.001960084	0.005310719	-1.034526e-05	-4.937723e-06	0.01097839	-0.03583996	-6.859651e-05	1.890592e-05
	-0.0001996187	0.0001874244	0.002108461	0.005207671	-6.859651e-05	1.890592e-05	0.01118466	-0.03537575
3e+07	0.0009442109	-0.05451608	-0.000308211	7.259146e-05	0.004092061	0.007065597	-0.0001408382	0.0002059091
	-0.000308211	7.259146e-05	-0.0006530506	-0.05348178	-8.752055e-06	5.087553e-07	0.004163322	0.006952211
	0.004092055	0.007065596	-8.752054e-06	5.087554e-07	-0.001036519	-0.053895	-6.773419e-05	1.777887e-05
	-0.0001408382	0.0002059091	0.004163322	0.006952217	-6.773419e-05	1.777887e-05	-0.000662638	-0.0534122
4e+07	-0.01674733	-0.06815008	-0.000291238	9.10998e-05	0.006605683	0.007991145	-7.757266e-05	0.0001958891
	-0.000291238	9.10998e-05	-0.0181137	-0.0668606	-7.013649e-06	3.6889e-06	0.006607144	0.007900338
	0.006605683	0.007991149	-7.013649e-06	3.688899e-06	-0.01858783	-0.06724019	-6.678551e-05	2.204541e-05
	-7.757266e-05	0.0001958891	0.006607139	0.007900337	-6.678551e-05	2.204541e-05	-0.01811549	-0.06677586
5e+07	-0.03781408	-0.07548111	-0.0002727673	0.0001147464	0.009203323	0.00803299	-2.816916e-05	0.0001559173
	-0.0002727673	0.0001147464	-0.03895141	-0.07398402	-5.104412e-06	5.801643e-06	0.009147905	0.007989069
	0.009203325	0.008032991	-5.104413e-06	5.801643e-06	-0.03946923	-0.07432775	-6.455359e-05	2.897368e-05
	-2.816916e-05	0.0001559173	0.009147901	0.007989068	-6.455359e-05	2.897368e-05	-0.03894756	-0.07388452
6e+07	-0.05989145	-0.07587632	-0.0002509862	0.0001401221	0.01159331	0.007237548	-7.579675e-06	9.538187e-05
	-0.0002509862	0.0001401221	-0.06079209	-0.07420556	-3.044164e-06	7.192558e-06	0.01149923	0.007257892
	0.01159331	0.007237547	-3.044164e-06	7.192558e-06	-0.06132469	-0.07452497	-6.02911e-05	3.702314e-05
	-7.579676e-06	9.538187e-05	0.01149923	0.007257891	-6.02911e-05	3.702314e-05	-0.06078339	-0.07409039
7e+07	-0.08066933	-0.06951473	-0.0002249531	0.0001647898	0.01352582	0.005740106	-2.421696e-05	3.002488e-05
	-0.0002249531	0.0001647898	-0.08131877	-0.06770353	-1.833196e-06	7.448752e-06	0.01341504	0.005834609
	0.01352581	0.005740106	-1.833194e-06	7.448752e-06	-0.08185259	-0.06801294	-5.376503e-05	4.492284e-05
	-2.421697e-05	3.002488e-05	0.01341505	0.005834605	-5.376503e-05	4.492284e-05	-0.08130455	-0.06757156
8e+07	-0.09810454	-0.05728252	-0.0001944292	0.0001866998	0.01481673	0.00374098	-7.846954e-05	-2.215468e-05
	-0.0001944292	0.0001866998	-0.09848587	-0.05537041	-1.084234e-06	7.328244e-06	0.0147129	0.003911514
	0.01481672	0.003740982	-1.084233e-06	7.328244e-06	-0.09901753	-0.05567966	-4.520172e-05	5.161797e-05
	-7.846954e-05	-2.215467e-05	0.01471291	0.003911507	-4.520172e-05	5.161797e-05	-0.09846419	-0.05522107
9e+07	-0.1105962	-0.04062587	-0.0001595717	0.0002041263	0.01535948	0.001478035	-0.0001634331	-4.478907e-05
	-0.0001595717	0.0002041263	-0.1106961	-0.03866206	-3.609716e-07	7.156639e-06	0.01528577	0.001718445
	0.01535948	0.001478037	-3.609705e-07	7.156638e-06	-0.1112249	-0.03897276	-3.513961e-05	5.636325e-05
	-0.0001634331	-4.478907e-05	0.01528578	0.001718439	-3.513961e-05	5.636325e-05	-0.1106644	-0.03849598
1e+08	-0.117108	-0.02137259	-0.0001191587	0.0002156153	0.0151281	-0.0007994121	-0.0002717914	-2.600729e-05
	-0.0001191587	0.0002156153	-0.1169266	-0.01941648	2.510995e-07	6.910734e-06	0.0151069	-0.0005023354
	0.0151281	-0.0007994122	2.510995e-07	6.910734e-06	-0.1174342	-0.0197205	-2.404693e-05	5.878767e-05
	-0.0002717914	-2.600729e-05	0.0151069	-0.0005023354	-2.404693e-05	5.878767e-05	-0.1168825	-0.01923581
1.1e+08	-0.1172319	-0.001543907	-7.760495e-05	0.0002277884	0.01416619	-0.002858269	-0.0003763086	1.453994e-05
	-7.760495e-05	0.0002277884	-0.1167765	0.0003543929	8.292348e-07	6.448974e-06	0.01421038	-0.002536255
	0.01416619	-0.002858269	8.292348e-07	6.448974e-06	-0.1172728	-1.822248e-06	-1.322996e-05	5.976677e-05
	-0.0003763086	1.453994e-05	0.01421038	-0.002536255	-1.322996e-05	5.976677e-05	-0.1167179	0.000546531
1.2e+08	-0.1111933	0.0168623	-3.861303e-05	0.000232819	0.01258315	-0.004481878	-0.0004517421	9.677666e-05
	-3.861303e-05	0.000232819	-0.1104794	0.01863256	1.357309e-06	5.982097e-06	0.01268915	-0.004158043
	0.01258315	-0.004481878	1.357309e-06	5.982097e-06	-0.1110097	0.01825331	-3.584455e-06	5.858438e-05
	-0.0004517421	9.677666e-05	0.01268915	-0.004158043	-3.584455e-06	5.858438e-05	-0.1104046	0.01883192
1.3e+08	-0.09981594	0.03202422	-1.230645e-06	0.0002314499	0.01054895	-0.005503031	-0.0004913166	0.0002082312
	-1.230645e-06	0.0002314499	-0.0988866	0.03359707	1.786892e-06	5.5253e-06	0.01070857	-0.005198971
	0.01054895	-0.005503031	1.786892e-06	5.5253e-06	-0.09945621	0.03323552	4.698109e-06	5.586448e-05
	-0.0004913166	0.0002082312	0.01070857	-0.005198971	4.698109e-06	5.586448e-05	-0.09879607	0.03379826
1.4e+08	-0.08443292	0.04247425	3.388656e-05	0.0002244188	0.008274139	-0.005811347	-0.0004884029	0.0003328856
	3.388656e-05	0.0002244188	-0.08335605	0.04379116	2.128105e-06	5.110771e-06	0.008472418	-0.005545517
	0.008274139	-0.005811347	2.128105e-06	5.110771e-06	-0.08394534	0.0434859	1.14639e-05	5.227293e-05
	-0.0004884029	0.0003328856	0.008472418	-0.005545517	1.14639e-05	5.227293e-05	-0.08325222	0.04398847
1.5e+08	-0.06675864	0.04723383	6.612764e-05	0.0002125755	0.005995315	-0.00536394	-0.0004427972	0.0004535084
	6.612764e-05	0.0002125755	-0.06562294	0.04825631	2.413681e-06	4.761822e-06	0.00621131	-0.005149265
	0.005995315	-0.00536394	2.413681e-06	4.761822e-06	-0.0661928	0.04803494	1.682224e-05	4.845469e-05
	-0.0004427972	0.0004535084	0.00621131	-0.005149265	1.682224e-05	4.845469e-05	-0.06551075	0.04844471
1.6e+08	-0.04872432	0.04590838	9.51136e-05	0.0001968036	0.00395546	-0.004193308	-0.0003610841	0.0005547412
	9.51136e-05	0.0001968036	-0.04763245	0.04662595	2.687304e-06	4.482723e-06	0.004164126	-0.004035131
	0.00395546	-0.004193308	2.687304e-06	4.482723e-06	-0.04813047	0.04649831	2.114115e-05	4.491338e-05
	-0.0003610841	0.0005547412	0.004164126	-0.004035131	2.114115e-05	4.491338e-05	-0.04751895	0.04680217
1.7e+08	-0.0322881	0.03873163	0.000120719	0.0001779018	0.002379954	-0.002409742	-0.0002552134	0.0006259269
	0.000120719	0.0001779018	-0.0313468	0.03916713	2.991115e-06	4.255907e-06	0.002554816	-0.002304478
	0.002379954	-0.002409742	2.991115e-06	4.255907e-06	-0.03171515	0.03912085	2.496811e-05	4.189588e-05
	-0.0002552134	0.0006259269	0.002554816	-0.002304478	2.496811e-05	4.189588e-05	-0.03124046	0.03933049
1.8e+08	-0.01923434	0.02654914	0.0001429977	0.0001564792	0.001450199	-0.0001952574	-0.0001398197	0.0006629729
	0.0001429977	0.0001564792	-0.01854262	0.02676029	3.354837e-06	4.0456e-06	0.001566476	-0.000130033
	0.001450199	-0.0001952574	3.354837e-06	4.0456e-06	-0.01872706	0.02675946	2.888803e-05	3.932139e-05
	-0.0001398197	0.0006629729	0.001566476	-0.000130033	2.888803e-05	3.932139e-05	-0.01845224	0.02691326
1.9e+08	-0.01098264	0.01073622	0.0001620511	0.0001329119	0.001278648	0.002212933	-2.89079e-05	0.0006687533
	0.0001620511	0.0001329119	-0.01061952	0.01081274	3.788837e-06	3.805882e-06	0.001316474	0.002259536
	0.001278648	0.002212933	3.788837e-06	3.805882e-06	-0.0105785	0.01079981	3.334787e-05	3.679178e-05
	-2.89079e-05	0.0006687533	0.001316474	0.002259536	3.334787e-05	3.679178e-05	-0.01055307	0.01096103
2e+08	-0.008430482	-0.006946552	0.0001778857	0.000107385	0.001890433	0.004549163	6.730081e-05	0.0006518718
	0.0001778857	0.000107385	-0.008444067	-0.006890343	4.282054e-06	3.490242e-06	0.001837755	0.004605233
	0.001890433	0.004549163	4.282054e-06	3.490242e-06	-0.008156773	-0.006989296	3.850024e-05	3.369966e-05
	6.730081e-05	0.0006518718	0.001837755	0.004605233	3.850024e-05	3.369966e-05	-0.008407446	-0.006738159
2.1e+08	-0.01185226	-0.02454668	0.0001903214	8.001263e-05	0.003216471	0.006552997	0.0001445524	0.0006240375
	0.0001903214	8.001263e-05	-0.01225173	-0.02438306	4.804069e-06	3.060307e-06	0.003071235	0.006650429
	0.003216471	0.006552997	4.804069e-06	3.060307e-06	-0.0117239	-0.0246503	4.412423e-05	2.941332e-05
	0.0001445524	0.0006240375	0.003071235	0.006650429	4.412423e-05	2.941332e-05	-0.01224778	-0.02421634
2.2e+08	-0.02087112	-0.04013835	0.0001989865	5.099155e-05	0.005100854	0.008004077	0.0002051758	0.000596707
	0.0001989865	5.099155e-05	-0.02162316	-0.03973994	5.309943e-06	2.492661e-06	0.004872135	0.008174991
	0.005100854	0.008004077	5.309942e-06	2.492661e-06	-0.02088968	-0.04025614	4.966021e-05	2.348208e-05
	0.0002051758	0.000596707	0.004872135	0.008174991	4.966021e-05	2.348208e-05	-0.02165096	-0.03954712
2.3e+08	-0.03450905	-0.05203708	0.0002034072	2.072763e-05	0.007321951	0.008751329	0.0002569661	0.0005778836
	0.0002034072	2.072763e-05	-0.03553922	-0.05129136	5.746959e-06	1.783528e-06	0.007029782	0.009024182
	0.007321951	0.008751329	5.746959e-06	1.783528e-06	-0.03466306	-0.05212508	5.435257e-05	1.579131e-05
	0.0002569661	0.0005778836	0.007029782	0.009024182	5.435257e-05	1.579131e-05	-0.03559386	-0.05106131
2.4e+08	-0.05130747	-0.0589814	0.0002031518	-1.011529e-05	0.009623149	0.008730943	0.0003106665	0.0005699154
	0.0002031518	-1.011529e-05	-0.05250664	-0.05780405	6.062995e-06	9.509593e-07	0.009296983	0.00912679
	0.009623149	0.008730943	6.062995e-06	9.509593e-07	-0.05157397	-0.05900199	5.745156e-05	6.613973e-06
	0.0003106665	0.0005699154	0.009296983	0.00912679	5.745156e-05	6.613973e-06	-0.05257944	-0.05752745
2.5e+08	-0.0694995	-0.06025858	0.0001979746	-4.065658e-05	0.01174703	0.00797039	0.0003767426	0.0005688394
	0.0001979746	-4.065658e-05	-0.0707346	-0.05860402	6.215758e-06	3.350788e-08	0.01142293	0.008499813
	0.01174703	0.00797039	6.215758e-06	3.350789e-08	-0.06984662	-0.06018339	5.84043e-05	-3.452116e-06
	0.0003767426	0.0005688394	0.01142293	0.008499813	5.84043e-05	-3.452116e-06	-0.07081381	-0.05827468
2.6e+08	-0.08720856	-0.05576233	0.0001879084	-6.990863e-05	0.01346659	0.006579276	0.0004623219	0.0005653544
	0.0001879084	-6.990863e-05	-0.08833627	-0.05363013	6.181366e-06	-9.154442e-07	0.01318343	0.007240395
	0.01346659	0.006579276	6.181366e-06	-9.154442e-07	-0.08759875	-0.05557412	5.697637e-05	-1.363003e-05
	0.0004623219	0.0005653544	0.01318343	0.007240395	5.697637e-05	-1.363003e-05	-0.08840826	-0.0532459
2.7e+08	-0.1026471	-0.04598164	0.0001732837	-9.690882e-05	0.01460876	0.004730597	0.0005690256	0.0005470919
	0.0001732837	-9.690882e-05	-0.1035289	-0.04341805	5.959595e-06	-1.837369e-06	0.01440388	0.005508473
	0.01460876	0.004730597	5.959595e-06	-1.837369e-06	-0.1030406	-0.04567511	5.327896e-05	-2.313658e-05
	0.0005690256	0.0005470919	0.01440388	0.005508473	5.327896e-05	-2.313658e-05	-0.1035796	-0.04298145
2.8e+08	-0.1142932	-0.03192925	0.0001546849	-0.000120833	0.01506836	0.002637145	0.0006921444	0.0005015477
	0.0001546849	-0.000120833	-0.1148106	-0.02902385	5.57378e-06	-2.680211e-06	0.01497317	0.003504702
	0.01506836	0.002637145	5.57378e-06	-2.680211e-06	-0.1146515	-0.03151089	4.771289e-05	-3.133051e-05
	0.0006921444	0.0005015477	0.01497317	0.003504702	4.771289e-05	-3.133051e-05	-0.1148269	-0.02854204
2.9e+08	-0.1210305	-0.0150241	0.000132869	-0.0001410656	0.01481282	0.0005274142	0.0008212247	0.0004190026
	0.000132869	-0.0001410656	-0.1210976	-0.01190188	5.064698e-06	-3.408583e-06	0.0148489	0.001447819
	0.01481282	0.0005274142	5.064698e-06	-3.408583e-06	-0.1213194	-0.01451109	4.086287e-05	-3.780543e-05
	0.0008212247	0.0004190026	0.0148489	0.001447819	4.086287e-05	-3.780543e-05	-0.1210694	-0.01138618
3e+08	-0.1222419	0.003056501	0.0001086781	-0.0001572261	0.01387985	-0.001376177	0.0009418553	0.0002948245
	0.0001086781	-0.0001572261	-0.1218161	0.006246861	4.480089e-06	-4.009478e-06	0.01405599	-0.0004459156
	0.01387985	-0.001376177	4.480089e-06	-4.009478e-06	-0.1224345	0.003638083	3.337788e-05	-4.242315e-05
	0.0009418553	0.0002948245	0.01405599	-0.0004459156	3.337788e-05	-4.242315e-05	-0.1217371	0.006781998
3.1e+08	-0.1178564	0.02054001	8.295926e-05	-0.0001691638	0.01237037	-0.002875674	0.001038228	0.0001307257
	8.295926e-05	-0.0001691638	-0.1169442	0.02364058	3.862877e-06	-4.491857e-06	0.01268095	-0.001980266
	0.01237037	-0.002875674	3.862877e-06	-4.491857e-06	-0.1179345	0.02115755	2.586148e-05	-4.529913e-05
	0.001038228	0.0001307257	0.01268095	-0.001980266	2.586148e-05	-4.529913e-05	-0.116813	0.02417896
3.2e+08	-0.1083466	0.0357244	5.649936e-05	-0.0001769319	0.01043852	-0.003812794	0.001095958	-6.516792e-05
	5.649936e-05	-0.0001769319	-0.1070055	0.03858396	3.241487e-06	-4.880335e-06	0.01086337	-0.002993861
	0.01043852	-0.003812794	3.241487e-06	-4.880335e-06	-0.108303	0.03634161	1.878291e-05	-4.675383e-05
	0.001095958	-6.516792e-05	0.01086337	-0.002993861	1.878291e-05	-4.675383e-05	-0.1068261	0.03910932
3.3e+08	-0.09468302	0.04713569	2.99704e-05	-0.0001807491	0.00827919	-0.004081611	0.001104697	-0.0002794001
	2.99704e-05	-0.0001807491	-0.09301777	0.04962573	2.624929e-06	-5.205169e-06	0.008785078	-0.003373007
	0.00827919	-0.004081611	2.624929e-06	-5.205169e-06	-0.09452156	0.04771574	1.241141e-05	-4.724059e-05
	0.001104697	-0.0002794001	0.008785078	-0.003373007	1.241141e-05	-4.724059e-05	-0.0927994	0.05012359
3.4e+08	-0.07824456	0.0536671	3.931484e-06	-0.0001807244	0.006112922	-0.003638935	0.001045169	-0.0005105915
	3.931484e-06	-0.0001807244	-0.07639869	0.05569647	2.004595e-06	-5.494945e-06	0.006656459	-0.003062706
	0.006112922	-0.003638935	2.004595e-06	-5.494945e-06	-0.07798012	0.05417585	6.828176e-06	-4.703898e-05
	0.001045169	-0.0005105915	0.006656459	-0.003062706	6.828176e-06	-4.703898e-05	-0.07615519	0.05615583
3.5e+08	-0.06069177	0.05468913	-2.122368e-05	-0.0001774163	0.004167455	-0.002511611	0.0009273792	-0.0007231111
	-2.122368e-05	-0.0001774163	-0.05883479	0.05621589	1.355567e-06	-5.758592e-06	0.004699246	-0.002075026
	0.004167455	-0.002511611	1.355567e-06	-5.758592e-06	-0.06034911	0.05509845	1.874125e-06	-4.677527e-05
	0.0009273792	-0.0007231111	0.004699246	-0.002075026	1.874125e-06	-4.677527e-05	-0.05858318	0.05663052
3.6e+08	-0.04380931	0.05012003	-4.532681e-05	-0.0001711958	0.002655825	-0.0007989201	0.000763186	-0.0008986044
	-4.532681e-05	-0.0001711958	-0.04211991	0.05115877	6.526437e-07	-5.98851e-06	0.003125452	-0.0004929248
	0.002655825	-0.0007989201	6.526437e-07	-5.98851e-06	-0.04342087	0.05041061	-2.860863e-06	-4.675974e-05
	0.000763186	-0.0008986044	0.003125452	-0.0004929248	-2.860863e-06	-4.675974e-05	-0.04187881	0.05152817
3.7e+08	-0.02932863	0.04044582	-6.832239e-05	-0.0001622661	0.001752318	0.001332298	0.000567461	-0.001026541
	-6.832239e-05	-0.0001622661	-0.02797585	0.04106936	-1.224459e-07	-6.161836e-06	0.002113687	0.00153297
	0.001752318	0.001332298	-1.224459e-07	-6.161836e-06	-0.02893158	0.0406093	-7.885275e-06	-4.699707e-05
	0.000567461	-0.001026541	0.002113687	0.00153297	-7.885275e-06	-4.699707e-05	-0.02776355	0.04139914
3.8e+08	-0.01874751	0.02668235	-9.015924e-05	-0.0001506547	0.001569247	0.003661643	0.0003571782	-0.0011031
	-9.015924e-05	-0.0001506547	-0.0178716	0.02701703	-9.74926e-07	-6.245559e-06	0.001785764	0.003796625
	0.001569247	0.003661643	-9.74926e-07	-6.245559e-06	-0.01838002	0.02672238	-1.365283e-05	-4.718581e-05
	0.0003571782	-0.0011031	0.001785764	0.003796625	-1.365283e-05	-4.718581e-05	-0.01770408	0.02731862
3.9e+08	-0.01316655	0.01027784	-0.0001106674	-0.0001362436	0.002138845	0.005938494	0.0001482762	-0.001131256
	-0.0001106674	-0.0001362436	-0.01286187	0.01049236	-1.894221e-06	-6.20357e-06	0.00218787	0.006058296
	0.002138845	0.005938494	-1.894221e-06	-6.20357e-06	-0.01286388	0.01020994	-2.039963e-05	-4.677422e-05
	0.0001482762	-0.001131256	0.00218787	0.006058296	-2.039963e-05	-4.677422e-05	-0.01275097	0.01078212
4e+08	-0.01316451	-0.007037497	-0.0001294668	-0.0001188725	0.003404789	0.007912442	-4.715803e-05	-0.00111938
	-0.0001294668	-0.0001188725	-0.0134668	-0.006748738	-2.854297e-06	-6.003387e-06	0.003280825	0.008073572
	0.003404789	0.007912442	-2.854297e-06	-6.003387e-06	-0.01295529	-0.007187421	-2.802706e-05	-4.510322e-05
	-4.715803e-05	-0.00111938	0.003280825	0.008073572	-2.802706e-05	-4.510322e-05	-0.01341869	-0.00645101
4.1e+08	-0.01873117	-0.02343843	-0.0001459501	-9.848558e-05	0.005226453	0.009366099	-0.0002226971	-0.001078689
	-0.0001459501	-9.848558e-05	-0.01961096	-0.02287594	-3.816096e-06	-5.621773e-06	0.004942651	0.009625257
	0.005226453	0.009366099	-3.816096e-06	-5.621773e-06	-0.01863433	-0.02363683	-3.607788e-05	-4.159937e-05
	-0.0002226971	-0.001078689	0.004942651	0.009625257	-3.607788e-05	-4.159937e-05	-0.01962519	-0.02254897
4.2e+08	-0.02926887	-0.03720511	-0.0001593567	-7.527039e-05	0.007396293	0.01014426	-0.0003779094	-0.00102018
	-0.0001593567	-7.527039e-05	-0.03063228	-0.0361863	-4.731407e-06	-5.049308e-06	0.006983973	0.01055216
	0.007396293	0.01014426	-4.731407e-06	-5.049308e-06	-0.02929175	-0.03741436	-4.382244e-05	-3.595569e-05
	-0.0003779094	-0.00102018	0.006983973	0.01055216	-4.382244e-05	-3.595569e-05	-0.03070148	-0.03580953
4.3e+08	-0.04366325	-0.04691004	-0.0001689159	-4.973447e-05	0.009667537	0.01017371	-0.0005171686	-0.0009518536
	-0.0001689159	-4.973447e-05	-0.04536025	-0.04528991	-5.548348e-06	-4.293808e-06	0.009173649	0.01076928
	0.009667537	0.01017371	-5.548348e-06	-4.293808e-06	-0.04380099	-0.04709245	-5.042983e-05	-2.823886e-05
	-0.0005171686	-0.0009518536	0.009173649	0.01076928	-5.042983e-05	-2.823886e-05	-0.04547058	-0.04484578
4.4e+08	-0.06041257	-0.05156718	-0.0001740121	-2.269118e-05	0.01178688	0.009470247	-0.0006473123	-0.0008769356
	-0.0001740121	-2.269118e-05	-0.06225187	-0.04925527	-6.218584e-06	-3.381614e-06	0.01126958	0.0102758
	0.01178688	0.009470247	-6.218584e-06	-3.381614e-06	-0.0606489	-0.0516889	-5.516668e-05	-1.888862e-05
	-0.0006473123	-0.0008769356	0.01126958	0.0102758	-5.516668e-05	-1.888862e-05	-0.06238419	-0.04873122
4.5e+08	-0.07779638	-0.05072598	-0.0001743149	4.837979e-06	0.01352601	0.008132532	-0.0007748109	-0.0007935081
	-0.0001743149	4.837979e-06	-0.07956512	-0.0476973	-6.705322e-06	-2.355371e-06	0.01304881	0.009150671
	0.01352601	0.008132532	-6.705322e-06	-2.355371e-06	-0.07810561	-0.05076026	-5.755999e-05	-8.617026e-06
	-0.0007748109	-0.0007935081	0.01304881	0.009150671	-5.755999e-05	-8.617026e-06	-0.07969678	-0.04708737
4.6e+08	-0.09406023	-0.0445024	-0.0001698388	3.176763e-05	0.01470686	0.00632534	-0.0009031981	-0.0006955446
	-0.0001698388	3.176763e-05	-0.09554618	-0.04080147	-6.989892e-06	-1.267654e-06	0.01433187	0.007537912
	0.01470686	0.00632534	-6.989892e-06	-1.267654e-06	-0.09441012	-0.04443207	-5.747999e-05	1.751678e-06
	-0.0009031981	-0.0006955446	0.01433187	0.007537912	-5.747999e-05	1.751678e-06	-0.09565332	-0.04010722
4.7e+08	-0.1075939	-0.03354926	-0.0001609265	5.709257e-05	0.01521755	0.004256635	-0.001031373	-0.0005750097
	-0.0001609265	5.709257e-05	-0.1086077	-0.02928668	-7.074356e-06	-1.716508e-07	0.01499877	0.005625985
	0.01521755	0.004256635	-7.074356e-06	-1.716508e-07	-0.107949	-0.03336801	-5.513352e-05	1.144687e-05
	-0.001031373	-0.0005750097	0.01499877	0.005625985	-5.513352e-05	1.144687e-05	-0.1086677	-0.02851732
