!$
! Info: Touchstone file created by Circ.  Input file=Tx_10in_Rx_100ohms_TxVia_35mils_RxVia_45mils.circ
!$
# Hz S RI R 50
0	0.01042054	1.318603e-25	-2.817623e-12	3.837377e-28	7.401904e-05	1.957718e-23	-1.856756e-12	1.944385e-28
	-2.817625e-12	3.837379e-28	0.01041707	1.543833e-25	1.631131e-14	6.243867e-28	7.267327e-05	2.356907e-23
	7.454217e-05	1.983204e-23	1.631461e-14	6.243863e-28	0.01042855	1.287213e-25	-2.105195e-12	4.089933e-28
	-1.856757e-12	1.944386e-28	7.082512e-05	2.368511e-23	-2.105196e-12	4.089937e-28	0.01043017	1.446498e-25
1e+07	0.0148926	0.006531778	8.206338e-12	5.160336e-12	0.0003029954	0.001864122	1.040577e-11	1.12868e-11
	8.206339e-12	5.160336e-12	0.01534751	0.006564045	9.290139e-12	6.542282e-12	0.0006534847	0.001903356
	0.0003030194	0.001864123	9.290139e-12	6.542282e-12	0.01435792	0.006835832	8.155712e-12	5.961222e-12
	1.040577e-11	1.12868e-11	0.000653424	0.001903365	8.155712e-12	5.961222e-12	0.01520928	0.006588831
2e+07	0.019601	0.009388782	9.461464e-12	4.205164e-12	0.0008706522	0.003678429	1.098692e-11	1.509836e-11
	9.461466e-12	4.205164e-12	0.01997097	0.009281557	1.679758e-11	-6.082939e-13	0.001092836	0.003892809
	0.0008706605	0.003678414	1.679758e-11	-6.082941e-13	0.0195103	0.01005084	1.289183e-11	-9.131621e-13
	1.098692e-11	1.509836e-11	0.001092827	0.003892844	1.289183e-11	-9.131612e-13	0.01988045	0.009378971
3e+07	0.02372024	0.01026087	6.478077e-12	5.41054e-14	0.001778708	0.005294695	7.544059e-12	1.560485e-11
	6.478078e-12	5.410543e-14	0.0240061	0.0101143	1.957476e-11	-1.248312e-11	0.001903316	0.005570797
	0.001778709	0.005294692	1.957476e-11	-1.248312e-11	0.02397692	0.01096483	8.996702e-12	-1.049698e-11
	7.544059e-12	1.560485e-11	0.001903315	0.005570802	8.996702e-12	-1.049698e-11	0.02395675	0.01024019
4e+07	0.02747106	0.01004017	-2.463828e-12	-3.36078e-12	0.002981187	0.00667392	-2.804359e-12	1.720865e-11
	-2.463829e-12	-3.36078e-12	0.02766987	0.009888139	1.461065e-11	-2.684179e-11	0.003049197	0.006982965
	0.002981189	0.006673921	1.461065e-11	-2.684179e-11	0.02800895	0.01067325	-4.151851e-12	-1.942601e-11
	-2.804359e-12	1.720865e-11	0.003049192	0.006982963	-4.151851e-12	-1.942601e-11	0.02765788	0.01002763
5e+07	0.03085374	0.008969791	-1.697586e-11	-3.358214e-12	0.00442121	0.007767075	-1.942118e-11	2.308619e-11
	-1.697587e-11	-3.358214e-12	0.03096374	0.008837485	2.092305e-12	-4.016891e-11	0.004586614	0.008016083
	0.004421212	0.007767076	2.092306e-12	-4.016891e-11	0.03161112	0.009461954	-2.587594e-11	-2.344043e-11
	-1.942118e-11	2.308619e-11	0.00458661	0.008016081	-2.587594e-11	-2.344043e-11	0.03098502	0.008980668
6e+07	0.03381822	0.007196558	-3.57129e-11	2.454754e-12	0.00603387	0.008535625	-4.050835e-11	3.593137e-11
	-3.57129e-11	2.454754e-12	0.03384233	0.007108026	-1.747299e-11	-4.981908e-11	0.006260806	0.008709575
	0.006033868	0.008535625	-1.747299e-11	-4.981908e-11	0.03473335	0.007501067	-5.415537e-11	-1.902224e-11
	-4.050835e-11	3.593137e-11	0.006260809	0.008709575	-5.415537e-11	-1.902225e-11	0.03389216	0.007247476
7e+07	0.0363022	0.00484101	-5.67691e-11	1.585769e-11	0.007762084	0.008942257	-6.353569e-11	5.772165e-11
	-5.67691e-11	1.585769e-11	0.03624797	0.004818448	-4.362934e-11	-5.393066e-11	0.008004004	0.009047322
	0.007762077	0.008942258	-4.362935e-11	-5.393066e-11	0.03731243	0.004928111	-8.601907e-11	-3.515382e-12
	-6.353569e-11	5.772165e-11	0.008004013	0.009047319	-8.601907e-11	-3.515385e-12	0.036321	0.004948498
8e+07	0.03824689	0.002018656	-7.749286e-11	3.807839e-11	0.009515647	0.008986232	-8.526619e-11	8.968422e-11
	-7.749284e-11	3.80784e-11	0.0381261	0.002081759	-7.467379e-11	-5.016821e-11	0.009745167	0.009025322
	0.00951564	0.008986234	-7.467379e-11	-5.016821e-11	0.03928847	0.001872387	-1.178282e-10	2.471024e-11
	-8.526619e-11	8.968422e-11	0.009745178	0.009025316	-1.178282e-10	2.471024e-11	0.03821635	0.002198261
9e+07	0.03960527	-0.001153176	-9.431745e-11	6.985339e-11	0.01122027	0.008673438	-1.016073e-10	1.323105e-10
	-9.431744e-11	6.98534e-11	0.0394339	-0.0009875581	-1.079299e-10	-3.607702e-11	0.01141244	0.008652555
	0.01122026	0.008673441	-1.079299e-10	-3.607703e-11	0.04061168	-0.00153787	-1.445422e-10	6.685658e-11
	-1.016073e-10	1.323105e-10	0.01141244	0.00865255	-1.445422e-10	6.685658e-11	0.03953474	-0.0008873931
1e+08	0.04035883	-0.004548015	-1.022931e-10	1.125626e-10	0.01280974	0.008025536	-1.06699e-10	1.868744e-10
	-1.022931e-10	1.125626e-10	0.04015814	-0.004265531	-1.411734e-10	-6.832612e-12	0.01293027	0.00794801
	0.01280974	0.008025536	-1.411734e-10	-6.832612e-12	0.04123968	-0.005177226	-1.592393e-10	1.255543e-10
	-1.06699e-10	1.868744e-10	0.01293027	0.00794801	-1.592393e-10	1.255543e-10	0.04026097	-0.004183933
1.1e+08	0.04048925	-0.008141734	-9.071323e-11	1.519638e-10	0.01421759	0.007050967	-9.033914e-11	2.372382e-10
	-9.071323e-11	1.519638e-10	0.04028583	-0.007742957	-1.519953e-10	3.113003e-11	0.01423544	0.006989927
	0.01421759	0.007050967	-1.519953e-10	3.113003e-11	0.04116081	-0.008873477	-1.456424e-10	1.816646e-10
	-9.033914e-11	2.372382e-10	0.01423544	0.006989927	-1.456424e-10	1.816646e-10	0.04038326	-0.007671789
1.2e+08	0.03991685	-0.01173947	-7.443892e-11	1.840685e-10	0.01536483	0.005812713	-7.362845e-11	2.759669e-10
	-7.443892e-11	1.840685e-10	0.03972764	-0.01122432	-1.544477e-10	5.676723e-11	0.01531294	0.005797788
	0.01536483	0.005812713	-1.544477e-10	5.676723e-11	0.04042198	-0.01251802	-1.251917e-10	2.258291e-10
	-7.362845e-11	2.759669e-10	0.01531294	0.005797788	-1.251917e-10	2.258291e-10	0.03981957	-0.01116033
1.3e+08	0.03868401	-0.01520465	-6.261628e-11	2.072576e-10	0.01621067	0.004372823	-5.772722e-11	3.086484e-10
	-6.261628e-11	2.072576e-10	0.03852873	-0.01457567	-1.559194e-10	7.155569e-11	0.01611078	0.004418481
	0.01621067	0.004372823	-1.559194e-10	7.155569e-11	0.03904104	-0.01599888	-1.094868e-10	2.563188e-10
	-5.772722e-11	3.086484e-10	0.01611078	0.004418481	-1.094868e-10	2.563188e-10	0.03861376	-0.01451646
1.4e+08	0.03683852	-0.01841915	-4.663457e-11	2.295633e-10	0.0167229	0.00279809	-3.661242e-11	3.40069e-10
	-4.663457e-11	2.295633e-10	0.03673711	-0.01768329	-1.555431e-10	8.81839e-11	0.01659512	0.002912038
	0.0167229	0.00279809	-1.555431e-10	8.81839e-11	0.0370625	-0.01920536	-8.809052e-11	2.857719e-10
	-3.661242e-11	3.40069e-10	0.01659512	0.002912038	-8.809052e-11	2.857719e-10	0.03681411	-0.01762644
1.5e+08	0.03444422	-0.02127711	-2.671831e-11	2.498882e-10	0.01688281	0.001159992	-1.054953e-11	3.689012e-10
	-2.671831e-11	2.498882e-10	0.03441545	-0.02044601	-1.529969e-10	1.059701e-10	0.01674615	0.001344589
	0.01688281	0.001159992	-1.529969e-10	1.059701e-10	0.03454958	-0.0220363	-6.127083e-11	3.126458e-10
	-1.054953e-11	3.689012e-10	0.01674615	0.001344589	-6.127083e-11	3.126458e-10	0.03448376	-0.02038908
1.6e+08	0.03158052	-0.02368668	-3.261348e-12	2.672697e-10	0.01668633	-0.0004679421	1.997381e-11	3.939551e-10
	-3.261348e-12	2.672697e-10	0.03164073	-0.02277645	-1.480779e-10	1.24343e-10	0.01655835	-0.0002149656
	0.01668633	-0.0004679422	-1.480779e-10	1.24343e-10	0.03158179	-0.0244035	-2.954153e-11	3.355972e-10
	1.997381e-11	3.939551e-10	0.01655835	-0.0002149656	-2.954153e-11	3.355972e-10	0.03170016	-0.0227171
1.7e+08	0.02834051	-0.02557222	2.316621e-11	2.808626e-10	0.01614425	-0.002013073	5.424467e-11	4.141719e-10
	2.316621e-11	2.808626e-10	0.02850252	-0.02460292	-1.406758e-10	1.427691e-10	0.01604048	-0.00169801
	0.01614425	-0.002013073	-1.406758e-10	1.427691e-10	0.02825246	-0.02623443	6.336036e-12	3.534443e-10
	5.424467e-11	4.141719e-10	0.01604048	-0.00169801	6.336036e-12	3.534443e-10	0.0285533	-0.02453895
1.8e+08	0.02482834	-0.0268764	5.183254e-11	2.899525e-10	0.0152818	-0.00340662	9.133822e-11	4.286487e-10
	5.183254e-11	2.899525e-10	0.02510042	-0.02587119	-1.307633e-10	1.607306e-10	0.01521516	-0.003039153
	0.0152818	-0.00340662	-1.307633e-10	1.607306e-10	0.02466597	-0.02747456	4.537346e-11	3.651833e-10
	9.133822e-11	4.286487e-10	0.01521516	-0.003039153	4.537346e-11	3.651833e-10	0.02514318	-0.02580061
1.9e+08	0.02115601	-0.02756183	8.185207e-11	2.939513e-10	0.01413759	-0.004586502	1.301386e-10	4.366694e-10
	8.185207e-11	2.939513e-10	0.02154118	-0.02654597	-1.183951e-10	1.777214e-10	0.01411789	-0.004178988
	0.01413759	-0.004586502	-1.183951e-10	1.777214e-10	0.02093439	-0.02808911	8.638155e-11	3.700174e-10
	1.301386e-10	4.366694e-10	0.01411789	-0.004178988	8.638155e-11	3.700174e-10	0.02157683	-0.02646703
2e+08	0.01743977	-0.02761223	1.12237e-10	2.924856e-10	0.012762	-0.005499908	1.693787e-10	4.377382e-10
	1.12237e-10	2.924856e-10	0.0179353	-0.02661186	-1.03706e-10	1.932416e-10	0.01279549	-0.005066593
	0.012762	-0.005499908	-1.03706e-10	1.932416e-10	0.01717387	-0.02806426	1.280044e-10	3.673886e-10
	1.693787e-10	4.377382e-10	0.01279549	-0.005066593	1.280044e-10	3.673886e-10	0.01796505	-0.02652308
2.1e+08	0.01379631	-0.02703287	1.419249e-10	2.853875e-10	0.01121502	-0.006105492	2.076682e-10	4.316189e-10
	1.419249e-10	2.853875e-10	0.01439352	-0.02607368	-8.691785e-11	2.068037e-10	0.01130415	-0.005661656
	0.01121502	-0.006105492	-8.691785e-11	2.068037e-10	0.01350082	-0.02740756	1.687605e-10	3.570087e-10
	2.076682e-10	4.316189e-10	0.01130415	-0.005661656	1.687605e-10	3.570087e-10	0.01441877	-0.02597388
2.2e+08	0.01033889	-0.02585029	1.697935e-10	2.726743e-10	0.009563749	-0.006375088	2.435447e-10	4.183539e-10
	1.697935e-10	2.726743e-10	0.01102323	-0.02495622	-6.834593e-11	2.179494e-10	0.009707083	-0.005936166
	0.009563749	-0.006375088	-6.834593e-11	2.179494e-10	0.010028	-0.02614776	2.070909e-10	3.38884e-10
	2.435447e-10	4.183539e-10	0.009707083	-0.005936166	2.070909e-10	3.38884e-10	0.01104557	-0.02484451
2.3e+08	0.007173486	-0.02411132	1.947074e-10	2.545849e-10	0.007879514	-0.006294874	2.755283e-10	3.982868e-10
	1.947074e-10	2.545849e-10	0.007924931	-0.02330323	-4.84009e-11	2.262631e-10	0.008071809	-0.005875578
	0.007879514	-0.006294874	-4.84009e-11	2.262631e-10	0.006860693	-0.02433374	2.41414e-10	3.133347e-10
	2.755283e-10	3.982868e-10	0.008071809	-0.005875578	2.41414e-10	3.133347e-10	0.007946053	-0.02317908
2.4e+08	0.004395159	-0.02188143	2.155588e-10	2.315875e-10	0.006234877	-0.005865926	3.021834e-10	3.720726e-10
	2.155588e-10	2.315875e-10	0.005188873	-0.02117584	-2.758956e-11	2.313922e-10	0.006467364	-0.005479403
	0.006234877	-0.005865926	-2.758956e-11	2.313922e-10	0.004093024	-0.02203286	2.701859e-10	2.810059e-10
	3.021834e-10	3.720726e-10	0.006467364	-0.005479403	2.701859e-10	2.810059e-10	0.005210537	-0.02103907
2.5e+08	0.002084836	-0.01924228	2.313124e-10	2.043771e-10	0.004700552	-0.005104142	3.221834e-10	3.406747e-10
	2.313124e-10	2.043771e-10	0.002892133	-0.01865037	-6.509365e-12	2.330709e-10	0.004961373	-0.004761212
	0.004700552	-0.005104142	-6.509365e-12	2.330709e-10	0.001804782	-0.01932855	2.919658e-10	2.428656e-10
	3.221834e-10	3.406747e-10	0.004961373	-0.004761212	2.919658e-10	2.428656e-10	0.002916087	-0.01850116
2.6e+08	0.0003065174	-0.01628885	2.410505e-10	1.738681e-10	0.003342416	-0.004039536	3.343788e-10	3.053476e-10
	2.410505e-10	1.738681e-10	0.001096037	-0.01581557	1.416367e-11	2.31146e-10	0.003617217	-0.003748038
	0.003342416	-0.004039536	1.416367e-11	2.31146e-10	5.86274e-05	-0.01631734	3.054832e-10	2.00191e-10
	3.343788e-10	3.053476e-10	0.003617217	-0.003748038	3.054832e-10	2.00191e-10	0.001123946	-0.01565447
2.7e+08	-0.000894857	-0.01312599	2.440193e-10	1.411752e-10	0.002218726	-0.002714926	3.378615e-10	2.676049e-10
	2.440193e-10	1.411752e-10	-0.0001558046	-0.01276947	3.369565e-11	2.256019e-10	0.002491385	-0.00247921
	0.002218726	-0.002714926	3.369565e-11	2.256019e-10	-0.001102039	-0.01310542	3.097053e-10	1.545405e-10
	3.378615e-10	2.676049e-10	0.002491385	-0.00247921	3.097053e-10	1.545405e-10	-0.0001224282	-0.01259737
2.8e+08	-0.001494895	-0.009864634	2.396741e-10	1.075864e-10	0.001377674	-0.001184089	3.320262e-10	2.291714e-10
	2.396741e-10	1.075864e-10	-0.0008388425	-0.009615874	5.132426e-11	2.165816e-10	0.001631117	-0.001004676
	0.001377674	-0.001184089	5.132426e-11	2.165816e-10	-0.001654527	-0.009804817	3.039014e-10	1.077093e-10
	3.320262e-10	2.291714e-10	0.001631117	-0.001004676	3.039014e-10	1.077093e-10	-0.0007987048	-0.009433972
2.9e+08	-0.001490477	-0.006617818	2.277199e-10	7.452361e-11	0.0008553798	0.0004905468	3.16619e-10	1.919199e-10
	2.277199e-10	7.452361e-11	-0.0009482578	-0.006460736	6.629595e-11	2.044002e-10	0.001072457	0.0006171285
	0.0008553798	0.0004905468	6.629595e-11	2.044002e-10	-0.001597558	-0.006529383	2.876979e-10	6.167044e-11
	3.16619e-10	1.919199e-10	0.001072457	0.0006171285	2.876979e-10	6.167044e-11	-0.0009003543	-0.006270481
3e+08	-0.0008997021	-0.00349661	2.081447e-10	4.34945e-11	0.0006743983	0.002240571	2.917744e-10	1.577966e-10
	2.081447e-10	4.34945e-11	-0.0004989232	-0.003408392	7.790891e-11	1.895496e-10	0.0008387833	0.002321744
	0.0006743983	0.002240571	7.790891e-11	1.895496e-10	-0.000951173	-0.003390716	2.611231e-10	1.850144e-11
	2.917744e-10	1.577966e-10	0.0008387833	0.002321744	2.611231e-10	1.850144e-11	-0.0004425844	-0.003211429
3.1e+08	0.0002389409	-0.0006061588	1.812455e-10	1.60334e-11	0.0008428153	0.003994493	2.580344e-10	1.287364e-10
	1.812455e-10	1.60334e-11	0.0004753423	-0.0005579425	8.555859e-11	1.726891e-10	0.0009398736	0.004041406
	0.0008428153	0.003994493	8.555859e-11	1.726891e-10	0.0002441404	-0.0004941699	2.246361e-10	-1.970185e-11
	2.580344e-10	1.287364e-10	0.0009398737	0.004041406	2.246361e-10	-1.970185e-11	0.0005404118	-0.000356032
3.2e+08	0.00186813	0.001958035	1.476387e-10	-6.364e-12	0.001353955	0.005680759	2.163483e-10	1.065737e-10
	1.476387e-10	-6.364e-12	0.001923183	0.00200017	8.878142e-11	1.546246e-10	0.001371554	0.005707869
	0.001353955	0.005680759	8.878142e-11	1.546246e-10	0.001929054	0.002064881	1.791353e-10	-5.091807e-11
	2.163483e-10	1.065737e-10	0.001371554	0.005707869	1.791353e-10	-5.091807e-11	0.001996885	0.002205233
3.3e+08	0.003913957	0.004113466	1.082576e-10	-2.231086e-11	0.002186712	0.007230758	1.680509e-10	9.295341e-11
	1.082576e-10	-2.231086e-11	0.003777736	0.004187232	8.729276e-11	1.362738e-10	0.002115924	0.007255252
	0.002186712	0.007230758	8.729276e-11	1.362738e-10	0.004027702	0.004204384	1.259459e-10	-7.329706e-11
	1.680509e-10	9.295341e-11	0.002115924	0.007255252	1.259459e-10	-7.329706e-11	0.003859575	0.004393706
3.4e+08	0.006288757	0.005793469	6.433276e-11	-3.060096e-11	0.003306477	0.008581681	1.148219e-10	8.924613e-11
	6.433276e-11	-3.060096e-11	0.005959188	0.005938885	8.101508e-11	1.186215e-10	0.003142151	0.008622748
	0.003306477	0.008581681	8.101508e-11	1.186215e-10	0.006450561	0.00585846	6.678504e-11	-8.525563e-11
	1.148219e-10	8.924613e-11	0.003142151	0.008622748	6.678504e-11	-8.525563e-11	0.00604829	0.006145167
3.5e+08	0.008894417	0.00694946	1.735434e-11	-3.027491e-11	0.004666627	0.009679122	5.862385e-11	9.64754e-11
	1.735434e-11	-3.027491e-11	0.008377762	0.007207196	7.00928e-11	1.026672e-10	0.004407795	0.009757116
	0.004666627	0.009679122	7.00928e-11	1.026672e-10	0.009097818	0.006979617	3.703348e-12	-8.556279e-11
	5.862385e-11	9.64754e-11	0.004407795	0.009757116	3.703348e-12	-8.556279e-11	0.008472914	0.007411902
3.6e+08	0.01162603	0.007552493	-3.098954e-11	-2.068251e-11	0.006210494	0.01047932	1.618855e-12	1.152535e-10
	-3.098954e-11	-2.068251e-11	0.01093703	0.007962125	5.489227e-11	8.937053e-11	0.005860591	0.01061484
	0.006210494	0.01047932	5.489227e-11	8.937053e-11	0.01186308	0.007540287	-6.099298e-11	-7.341309e-11
	1.618855e-12	1.152535e-10	0.005860591	0.01061484	-6.099298e-11	-7.341309e-11	0.01103673	0.008164162
3.7e+08	0.01437577	0.007594101	-7.885788e-11	-1.516965e-12	0.00787374	0.01095093	-5.390232e-11	1.457581e-10
	-7.885788e-11	-1.516965e-12	0.01353742	0.008192331	3.598729e-11	7.959801e-11	0.007440633	0.0111639
	0.00787374	0.01095093	3.598729e-11	7.959801e-11	0.01463729	0.007533628	-1.248365e-10	-4.847971e-11
	-5.390232e-11	1.457581e-10	0.007440633	0.0111639	-1.248365e-10	-4.847971e-11	0.01363994	0.008390955
3.8e+08	0.01703683	0.007086365	-1.24354e-10	2.714327e-11	0.009587032	0.01107632	-1.05631e-10	1.876954e-10
	-1.24354e-10	2.714327e-11	0.01607976	0.007905312	1.413016e-11	7.407638e-11	0.009082842	0.011385
	0.009587032	0.01107632	1.413016e-11	7.407638e-11	0.01731272	0.006973547	-1.853042e-10	-1.094501e-11
	-1.05631e-10	1.876954e-10	0.009082842	0.011385	-1.853042e-10	-1.094501e-11	0.01618323	0.008100171
3.9e+08	0.01950725	0.006061258	-1.656055e-10	6.482815e-11	0.0112789	0.01085227	-1.513357e-10	2.403077e-10
	-1.656055e-10	6.482815e-11	0.0184688	0.007126864	-9.787487e-12	7.335605e-11	0.01071963	0.0112724
	0.0112789	0.01085227	-9.787487e-12	7.335605e-11	0.01978684	0.005893986	-2.39928e-10	3.849375e-11
	-1.513357e-10	2.403077e-10	0.01071963	0.0112724	-2.39928e-10	3.849375e-11	0.01857132	0.007318022
4e+08	0.02169363	0.004569253	-2.008485e-10	1.106864e-10	0.0128787	0.01029006	-1.889564e-10	3.023974e-10
	-2.008485e-10	1.106864e-10	0.02061656	0.005899911	-3.478086e-11	7.778705e-11	0.01228368	0.01083404
	0.0128787	0.01029006	-3.478086e-11	7.778705e-11	0.02196602	0.00434748	-2.864034e-10	9.864445e-11
	-1.889564e-10	3.023974e-10	0.01228368	0.01083404	-2.864034e-10	9.864445e-11	0.02071623	0.006087851
4.1e+08	0.02351437	0.002677314	-2.285085e-10	1.635147e-10	0.01431947	0.009415064	-2.166918e-10	3.723708e-10
	-2.285085e-10	1.635147e-10	0.02244527	0.004282739	-5.982117e-11	8.750818e-11	0.01371063	0.01009125
	0.01431947	0.009415064	-5.982117e-11	8.750818e-11	0.02376882	0.002403059	-3.226916e-10	1.678637e-10
	-2.166918e-10	3.723708e-10	0.01371063	0.01009125	-3.226916e-10	1.678637e-10	0.02254034	0.004468355
4.2e+08	0.02490253	0.000466258	-2.472715e-10	2.218053e-10	0.01554072	0.008265665	-2.330733e-10	4.482974e-10
	-2.472715e-10	2.218053e-10	0.02389007	0.002346716	-8.388302e-11	1.024493e-10	0.01494175	0.009077875
	0.01554072	0.008265665	-8.388302e-11	1.024493e-10	0.02512886	0.0001435677	-3.471076e-10	2.441218e-10
	-2.330733e-10	4.482974e-10	0.01494175	0.009077875	-3.471076e-10	2.441218e-10	0.02397899	0.002531273
4.3e+08	0.02580814	-0.001972303	-2.561422e-10	2.838071e-10	0.0164909	0.006891735	-2.370255e-10	5.279838e-10
	-2.561422e-10	2.838071e-10	0.02490111	0.0001735762	-1.059869e-10	1.223446e-10	0.01592627	0.007838874
	0.0164909	0.006891735	-1.059869e-10	1.223446e-10	0.02599707	-0.002337486	-3.583906e-10	3.250848e-10
	-2.370255e-10	5.279838e-10	0.01592627	0.007838874	-3.583906e-10	3.250848e-10	0.02498263	0.000358666
4.4e+08	0.02619985	-0.004539436	-2.544858e-10	3.475984e-10	0.01712951	0.005352604	-2.279085e-10	6.090553e-10
	-2.544858e-10	3.475984e-10	0.02544515	-0.002147625	-1.252342e-10	1.467537e-10	0.01662347	0.006428532
	0.01712951	0.005352604	-1.252342e-10	1.467537e-10	0.02634337	-0.004939453	-3.557549e-10	4.082071e-10
	-2.279085e-10	6.090553e-10	0.01662347	0.006428532	-3.557549e-10	4.082071e-10	0.02551837	-0.001960158
4.5e+08	0.02606592	-0.007132553	-2.42053e-10	4.111636e-10	0.01742883	0.003714666	-2.055439e-10	6.890441e-10
	-2.42053e-10	4.111636e-10	0.02550652	-0.004523794	-1.408335e-10	1.750881e-10	0.01700433	0.004908261
	0.01742883	0.003714666	-1.408335e-10	1.750881e-10	0.0261576	-0.007558294	-3.389189e-10	4.908314e-10
	-2.055439e-10	6.890441e-10	0.01700433	0.004908261	-3.389189e-10	4.908314e-10	0.02557095	-0.004331922
4.6e+08	0.02541449	-0.009649235	-2.189867e-10	4.724732e-10	0.01737508	0.002048681	-1.702228e-10	7.654775e-10
	-2.189867e-10	4.724732e-10	0.0250875	-0.006861177	-1.521318e-10	2.066858e-10	0.01705277	0.003344126
	0.01737508	0.002048681	-1.521318e-10	2.066858e-10	0.02544971	-0.01009044	-3.081282e-10	5.703399e-10
	-1.702228e-10	7.654775e-10	0.01705277	0.003344126	-3.081282e-10	5.703399e-10	0.02514308	-0.006662785
4.7e+08	0.02427308	-0.01199099	-1.858124e-10	5.295584e-10	0.01696902	0.0004268984	-1.226953e-10	8.359641e-10
	-1.858124e-10	5.295584e-10	0.02420803	-0.00906875	-1.585857e-10	2.40906e-10	0.01676628	0.001804174
	0.01696902	0.0004268984	-1.585857e-10	2.40906e-10	0.02424924	-0.01243661	-2.640998e-10	6.443379e-10
	-1.226953e-10	8.359641e-10	0.01676628	0.001804174	-2.640998e-10	6.443379e-10	0.02425511	-0.008861726
4.8e+08	0.02268751	-0.01406688	-1.434189e-10	5.805882e-10	0.01622605	-0.001079908	-6.415482e-11	8.982829e-10
