!$
! Info: Touchstone file created by Circ.  Input file=Tx_10in_Rx_85ohms_TxVia_35mils_RxVia_45mils.circ
!$
# Hz S RI R 50
0	0.00811312	1.330268e-25	0.9917461	-1.354038e-25	7.262158e-05	1.54173e-23	-7.07004e-05	2.054036e-21
	0.9917461	-1.381515e-25	0.008111999	1.552072e-25	-7.107052e-05	2.099438e-21	7.30415e-05	1.832566e-23
	7.078401e-05	1.583218e-23	-7.119756e-05	2.115089e-21	0.00812562	1.268084e-25	0.9917302	-1.283192e-25
	-7.1079e-05	2.100495e-21	7.11938e-05	1.841595e-23	0.9917302	-1.280801e-25	0.008125136	1.454185e-25
1e+07	0.01041287	-0.009405139	0.9822424	-0.1079942	0.000344919	0.001885287	-0.000108418	3.866525e-05
	0.9822424	-0.1079942	0.01040177	-0.009404521	-0.000108429	3.867841e-05	0.0003411984	0.001886358
	0.000344859	0.001885292	-0.0001084863	3.86917e-05	0.01039646	-0.009391908	0.9822498	-0.1080881
	-0.0001084753	3.867854e-05	0.0003411382	0.001886369	0.9822498	-0.1080881	0.01038397	-0.009390959
2e+07	0.01006744	-0.02143456	0.9615554	-0.2111497	0.0009745806	0.003615093	-5.979855e-05	0.0001085176
	0.9615554	-0.2111497	0.01002452	-0.02142668	-5.983267e-05	0.0001085337	0.00096037	0.00361983
	0.0009745688	0.003615131	-5.98415e-05	0.0001085762	0.01006295	-0.02139951	0.9615241	-0.2113434
	-5.980927e-05	0.0001085612	0.0009603622	0.003619864	0.9615241	-0.2113434	0.01001478	-0.02139003
3e+07	0.006215253	-0.03405042	0.9311232	-0.3099773	0.001934454	0.005149745	5.289035e-05	0.0001458339
	0.9311232	-0.3099773	0.0061226	-0.034022	5.280972e-05	0.0001458988	0.001904203	0.005162639
	0.001934457	0.00514975	5.281238e-05	0.0001459049	0.006221695	-0.03400369	0.931037	-0.3102557
	5.2893e-05	0.0001458405	0.001904204	0.005162644	0.931037	-0.3102557	0.006117927	-0.03397067
4e+07	-0.0005633424	-0.04579887	0.8910357	-0.4043194	0.003175819	0.006428525	0.0002062869	0.000122134
	0.8910357	-0.4043194	-0.0007192041	-0.04573184	0.0002061784	0.0001222741	0.003125516	0.006455623
	0.003175814	0.00642852	0.0002061713	0.0001222709	-0.0005467248	-0.0457445	0.8908785	-0.4046707
	0.0002062793	0.0001221302	0.003125511	0.006455621	0.8908785	-0.4046707	-0.0007209916	-0.04566771
5e+07	-0.009805355	-0.05597694	0.8417353	-0.4933759	0.004634311	0.00740038	0.0003723542	2.106532e-05
	0.8417353	-0.4933759	-0.01003227	-0.0558492	0.0003722347	2.130198e-05	0.004561871	0.007448847
	0.004634306	0.007400379	0.0003722293	2.130175e-05	-0.009779685	-0.05591786	0.8414926	-0.4937865
	0.0003723484	2.106494e-05	0.004561867	0.007448847	0.8414926	-0.4937865	-0.01003309	-0.05577261
6e+07	-0.02101793	-0.06408359	0.7838346	-0.576312	0.006236108	0.008030164	0.0005195624	-0.0001623923
	0.7838346	-0.576312	-0.02131694	-0.06387093	0.0005194612	-0.0001620367	0.00614161	0.008107708
	0.006236112	0.008030164	0.0005194656	-0.0001620381	-0.02098475	-0.06402203	0.783494	-0.5767666
	0.0005195673	-0.0001623937	0.006141613	0.008107706	0.783494	-0.5767666	-0.0213183	-0.06378127
7e+07	-0.03366458	-0.06976336	0.7180635	-0.6523468	0.007902688	0.008300254	0.0006165753	-0.0004219943
	0.7180635	-0.6523468	-0.03402967	-0.0694415	0.0006165367	-0.0004215081	0.007788439	0.008414539
	0.0079027	0.00830025	0.0006165489	-0.0004215164	-0.03362576	-0.06970091	0.7176147	-0.6528283
	0.0006165888	-0.0004220032	0.007788446	0.008414535	0.7176147	-0.6528283	-0.03403258	-0.06933758
8e+07	-0.04717692	-0.07279371	0.645239	-0.7207858	0.009555189	0.008210807	0.0006355593	-0.0007413767
	0.645239	-0.7207858	-0.04759537	-0.07234013	0.000635636	-0.0007407672	0.009425656	0.008368894
	0.009555203	0.008210799	0.000635649	-0.000740782	-0.04713452	-0.07273133	0.6446739	-0.7212757
	0.0006355737	-0.0007413929	0.009425665	0.008368887	0.6446739	-0.7212757	-0.04760025	-0.07222035
9e+07	-0.06097442	-0.07308015	0.5662406	-0.7810359	0.01111861	0.007779061	0.0005547199	-0.001096061
	0.5662406	-0.7810359	-0.0614274	-0.07247567	0.0005549639	-0.001095357	0.01098024	0.007986869
	0.01111862	0.007779053	0.0005549715	-0.001095371	-0.06093056	-0.07301822	0.5655542	-0.7815144
	0.0005547282	-0.001096077	0.01098025	0.007986862	0.5655542	-0.7815144	-0.06143405	-0.07233829
1e+08	-0.07448852	-0.07065237	0.4819939	-0.8326087	0.01252734	0.007039033	0.0003577075	-0.001457562
	0.4819939	-0.8326087	-0.07495203	-0.06988257	0.0003581624	-0.00145681	0.0123883	0.00730083
	0.01252734	0.007039033	0.0003581625	-0.00145681	-0.07444548	-0.07059087	0.4811841	-0.8330548
	0.0003577075	-0.001457562	0.0123883	0.00730083	0.4811841	-0.8330548	-0.07495985	-0.06972604
1.1e+08	-0.0871807	-0.06564289	0.3934494	-0.8751499	0.01372531	0.006021231	3.931339e-05	-0.001771907
	0.3934494	-0.8751499	-0.0876246	-0.06470083	4.002083e-05	-0.001771161	0.01359515	0.006338876
	0.01372531	0.006021231	4.002085e-05	-0.001771161	-0.08713944	-0.06558168	0.392518	-0.8755446
	3.931342e-05	-0.001771907	0.01359515	0.006338876	0.392518	-0.8755446	-0.08763156	-0.06452335
1.2e+08	-0.09854407	-0.05829118	0.3015335	-0.9083712	0.01465189	0.004787206	-0.0003742739	-0.00201636
	0.3015335	-0.9083712	-0.09893925	-0.05717587	-0.0003733147	-0.002015701	0.01454049	0.005160563
	0.01465189	0.004787206	-0.0003733147	-0.002015701	-0.09850679	-0.05822857	0.3004832	-0.908694
	-0.0003742739	-0.00201636	0.01454049	0.005160563	0.3004832	-0.908694	-0.09894315	-0.05697603
1.3e+08	-0.108155	-0.04893426	0.2071996	-0.9320854	0.01527621	0.003401849	-0.000868656	-0.00216502
	0.2071996	-0.9320854	-0.1084709	-0.04765165	-0.0008674708	-0.002164526	0.01519363	0.003828274
	0.01527621	0.003401849	-0.0008674708	-0.002164526	-0.108123	-0.04886806	0.2060364	-0.9323156
	-0.000868656	-0.00216502	0.01519363	0.003828274	0.2060364	-0.9323156	-0.108469	-0.04742869
1.4e+08	-0.1156682	-0.03797819	0.1113868	-0.9461958	0.01557877	0.001931722	-0.001418694	-0.002195516
	0.1113868	-0.9461958	-0.1158747	-0.03654195	-0.00141733	-0.002195251	0.01553461	0.002406025
	0.01557877	0.001931722	-0.00141733	-0.002195251	-0.1156418	-0.03790615	0.1101199	-0.9463136
	-0.001418694	-0.002195516	0.01553461	0.002406025	0.1101199	-0.9463136	-0.1158639	-0.03629592
1.5e+08	-0.1208285	-0.02588235	0.01501759	-0.9506859	0.0155533	0.0004442636	-0.001993051	-0.002093162
	0.01501759	-0.9506859	-0.1208982	-0.02431383	-0.001991573	-0.002093176	0.01555607	0.0009588138
	0.0155533	0.0004442636	-0.001991573	-0.002093176	-0.1208072	-0.02580243	0.01365914	-0.9506726
	-0.001993051	-0.002093162	0.01555607	0.0009588138	0.01365914	-0.9506726	-0.1208751	-0.02404578
1.6e+08	-0.1234777	-0.0131409	-0.08100468	-0.9456127	0.01520639	-0.0009944272	-0.002557043	-0.001852466
	-0.08100468	-0.9456127	-0.1233877	-0.01146861	-0.002555527	-0.001852787	0.01526289	-0.0004494305
	0.01520639	-0.0009944272	-0.002555527	-0.001852787	-0.1234604	-0.01305154	-0.08243983	-0.9454511
	-0.002557043	-0.001852466	0.01526289	-0.0004494305	-0.08243983	-0.9454511	-0.123349	-0.01118062
1.7e+08	-0.1235571	-0.0002640488	-0.1757968	-0.9311006	0.01455678	-0.00232165	-0.003075507	-0.001477654
	-0.1757968	-0.9311006	-0.1232911	0.001477551	-0.003074038	-0.001478286	0.01467158	-0.001757771
	0.01455678	-0.00232165	-0.003074038	-0.001478286	-0.1235426	-0.0001641135	-0.1772913	-0.9307752
	-0.003075507	-0.001477654	0.01467158	-0.001757771	-0.1772913	-0.9307752	-0.1232341	0.001782446
1.8e+08	-0.1211079	0.01224071	-0.2684955	-0.9073381	0.01363439	-0.003479962	-0.003515594	-0.0009823533
	-0.2684955	-0.9073381	-0.1206574	0.01401274	-0.003514254	-0.0009832762	0.01380942	-0.00291
	0.01363439	-0.003479962	-0.003514254	-0.0009832762	-0.1210947	0.01235188	-0.2700299	-0.9068357
	-0.003515594	-0.0009823533	0.01380942	-0.00291	-0.2700299	-0.9068357	-0.1205802	0.01433069
1.9e+08	-0.1162677	0.02388663	-0.358257	-0.8745762	0.01247917	-0.004418844	-0.003849305	-0.000388519
	-0.358257	-0.8745762	-0.1156331	0.0256477	-0.003848167	-0.0003896883	0.01271339	-0.003856213
	0.01247917	-0.004418844	-0.003848167	-0.0003896884	-0.1162543	0.0240093	-0.3598098	-0.873886
	-0.003849305	-0.000388519	0.01271339	-0.003856213	-0.3598098	-0.873886	-0.1155347	0.02597426
2e+08	-0.1092642	0.03422488	-0.4442571	-0.8331289	0.01113986	-0.005096237	-0.004055595	0.0002752918
	-0.4442571	-0.8331289	-0.1084558	0.03593316	-0.004054717	0.0002739423	0.01142914	-0.004554275
	0.01113986	-0.005096237	-0.004054717	0.0002739423	-0.1092493	0.034359	-0.4458049	-0.8322425
	-0.004055595	0.0002752918	0.01142914	-0.004554275	-0.4458049	-0.8322425	-0.1083363	0.03626361
2.1e+08	-0.1004073	0.04286048	-0.5256919	-0.7833747	0.009672469	-0.005479949	-0.004121906	0.0009761533
	-0.5256919	-0.7833747	-0.09944488	0.04447597	-0.004121325	0.0009747062	0.01000958	-0.004971206
	0.009672469	-0.005479949	-0.004121325	0.0009747061	-0.1003895	0.0430057	-0.5272102	-0.7822867
	-0.004121906	0.0009761533	0.01000958	-0.004971206	-0.5272102	-0.7822867	-0.09930547	0.0448055
2.2e+08	-0.09007673	0.04946661	-0.6017806	-0.7257602	0.008138662	-0.005548947	-0.004045011	0.00167934
	-0.6017806	-0.7257602	-0.08898951	0.0509533	-0.004044734	0.001677887	0.008513448	-0.005084471
	0.008138662	-0.005548947	-0.004044734	0.001677887	-0.0900549	0.04962235	-0.6032437	-0.7244682
	-0.004045011	0.00167934	0.008513448	-0.005084471	-0.6032437	-0.7244682	-0.08883263	0.05127739
2.3e+08	-0.0787087	0.05379683	-0.6717703	-0.6608033	0.006603752	-0.005294478	-0.003831087	0.002351038
	-0.6717703	-0.6608033	-0.0775344	0.05512493	-0.003831092	0.002349668	0.007003461	-0.004883151
	0.006603752	-0.005294479	-0.003831092	0.002349668	-0.07868178	0.05396229	-0.6731518	-0.6593082
	-0.003831087	0.002351038	0.007003461	-0.004883151	-0.6731518	-0.6593082	-0.07736358	0.05543955
2.4e+08	-0.06677981	0.05569492	-0.7349426	-0.5890971	0.005134443	-0.004720934	-0.003495025	0.002960974
	-0.7349426	-0.5890971	-0.06556328	0.05684273	-0.00349526	0.002959767	0.005544208	-0.004368872
	0.005134443	-0.004720934	-0.00349526	0.002959767	-0.06674693	0.05586912	-0.7362159	-0.5874029
	-0.003495025	0.002960974	0.005544208	-0.004368872	-0.7362159	-0.5874029	-0.065383	0.05714466
2.5e+08	-0.054789	0.05510165	-0.7906231	-0.511312	0.003796253	-0.00384633	-0.003058978	0.003484757
	-0.7906231	-0.511312	-0.05358045	0.0560573	-0.003059366	0.003483772	0.004199695	-0.003556404
	0.003796253	-0.00384633	-0.003059366	0.003483772	-0.0547495	0.05528346	-0.7917615	-0.509426
	-0.003058978	0.003484757	0.004199695	-0.003556404	-0.7917615	-0.509426	-0.05339598	0.05634429
2.6e+08	-0.04323827	0.05205826	-0.8381921	-0.4281966	0.002650667	-0.002702285	-0.002550276	0.003905692
	-0.8381921	-0.4281966	-0.04209109	0.05282092	-0.002550723	0.003904959	0.003030618	-0.002473765
	0.002650667	-0.002702285	-0.002550723	0.003904959	-0.04319169	0.05224638	-0.8391696	-0.4261296
	-0.002550276	0.003905692	0.003030618	-0.002473765	-0.8391696	-0.4261296	-0.04190826	0.0530919
2.7e+08	-0.0326125	0.04670593	-0.877098	-0.3405762	0.001752162	-0.00133334	-0.001998869	0.00421591
	-0.877098	-0.3405762	-0.03158084	0.04728663	-0.001999272	0.004215426	0.002091457	-0.001161709
	0.001752162	-0.00133334	-0.001999272	0.004215426	-0.03255867	0.04689898	-0.8778891	-0.3383423
	-0.001998869	0.00421591	0.002091457	-0.001161709	-0.8778891	-0.3383423	-0.03140578	0.04754184
2.8e+08	-0.02335943	0.03928131	-0.9068699	-0.249348	0.001145258	0.0002044467	-0.001434513	0.004416661
	-0.9068699	-0.249348	-0.02249549	0.03970316	-0.001434774	0.004416385	0.001427568	0.0003275098
	0.001145258	0.0002044467	-0.001434774	0.004416385	-0.02329843	0.03947783	-0.9074508	-0.2469645
	-0.001434513	0.004416661	0.001427568	0.0003275098	-0.9074508	-0.2469645	-0.02233434	0.03994419
2.9e+08	-0.01587043	0.03010768	-0.9271321	-0.1554731	0.0008618224	0.001845691	-0.0008839892	0.00451771
	-0.9271321	-0.1554731	-0.01522181	0.03040552	-0.0008840267	0.004517568	0.0010725	0.001932147
	0.0008618224	0.001845691	-0.0008840267	0.004517568	-0.01580271	0.03030621	-0.9274803	-0.1529606
	-0.0008839892	0.00451771	0.0010725	0.001932147	-0.9274803	-0.1529606	-0.01508042	0.03063534
3e+08	-0.01046338	0.01958209	-0.9376159	-0.05996523	0.0009188744	0.003518614	-0.0003686278	0.004535893
	-0.9376159	-0.05996523	-0.01007038	0.01980148	-0.0003683887	0.00453578	0.001045755	0.003583704
	0.0009188744	0.003518614	-0.0003683887	0.00453578	-0.0103897	0.01978123	-0.9377113	-0.05734726
	-0.0003686278	0.004535893	0.001045755	0.003583704	-0.9377113	-0.05734726	-0.009954	0.02002438
3.1e+08	-0.007368265	0.008158802	-0.9381709	0.03612387	0.001317124	0.005148573	9.758721e-05	0.004492925
	-0.9381709	0.03612387	-0.007261501	0.008354487	9.811894e-05	0.004492722	0.001351257	0.005210293
	0.001317124	0.005148573	9.811894e-05	0.004492722	-0.007289757	0.008357309	-0.9379955	0.03882106
	9.758721e-05	0.004492925	0.001351257	0.005210293	-0.9379955	0.03882106	-0.007174525	0.008575933
3.2e+08	-0.006716782	-0.003670222	-0.928772	0.1317218	0.00204044	0.006661989	0.0005091095	0.004412716
	-0.928772	0.1317218	-0.006915101	-0.003436505	0.0005099069	0.004412297	0.001976703	0.006740394
	0.00204044	0.006661989	0.0005099069	0.004412297	-0.006634891	-0.003473338	-0.9283108	0.1344693
	0.0005091095	0.004412716	0.001976703	0.006740394	-0.9283108	0.1344693	-0.006860786	-0.003210028
3.3e+08	-0.00853636	-0.01539689	-0.9095241	0.2257544	0.00305637	0.007990378	0.0008689866	0.004318466
	-0.9095241	0.2257544	-0.009045281	-0.01505899	0.000869979	0.004317714	0.002893925	0.008106755
	0.00305637	0.007990378	0.000869979	0.004317714	-0.008452764	-0.01520229	-0.9087651	0.2285212
	0.0008689866	0.004318466	0.002893925	0.008106755	-0.9087651	0.2285212	-0.009025483	-0.01482023
3.4e+08	-0.01274905	-0.0265194	-0.8806619	0.317166	0.004317709	0.009074176	0.001188051	0.00422986
	-0.8806619	0.317166	-0.0135598	-0.02600974	0.001189128	0.004228685	0.004060288	0.009250111
	0.004317709	0.009074176	0.001189128	0.004228685	-0.01266558	-0.02632738	-0.8795967	0.3199191
	0.001188051	0.00422986	0.004060288	0.009250111	-0.8795967	0.3199191	-0.01357479	-0.025751
3.5e+08	-0.01917555	-0.03656442	-0.8425458	0.4049389	0.005765049	0.009866037	0.001483239	0.004160706
	-0.8425458	0.4049389	-0.02026476	-0.03581711	0.001484259	0.004159053	0.005421026	0.01012242
	0.005765049	0.009866037	0.001484259	0.004159053	-0.01909416	-0.03637481	-0.8411697	0.4076437
	0.001483239	0.004160706	0.005421026	0.01012242	-0.8411697	0.4076437	-0.02031322	-0.03553055
3.6e+08	-0.02754402	-0.04510762	-0.7956543	0.4881117	0.007330094	0.01033335	0.001775224	0.004117252
	-0.7956543	0.4881117	-0.02887414	-0.04406167	0.001776028	0.004115112	0.00691234	0.01068937
	0.007330094	0.01033335	0.001776028	0.004115112	-0.02746665	-0.04491978	-0.7939665	0.4907326
	0.001775224	0.004117252	0.00691234	0.01068937	-0.7939665	0.4907326	-0.02895305	-0.04373969
3.7e+08	-0.03750306	-0.05179166	-0.7405719	0.5657956	0.008939477	0.01045975	0.002085649	0.00409739
	-0.7405719	0.5657956	-0.03902354	-0.05039406	0.002086075	0.004094808	0.008464992	0.01093192
	0.008939477	0.01045975	0.002086075	0.004094808	-0.03743152	-0.05160447	-0.7385756	0.5682963
	0.002085649	0.00409739	0.008464992	0.01093192	-0.7385756	0.5682963	-0.03912826	-0.05002963
3.8e+08	-0.04863827	-0.05634059	-0.6779752	0.6371872	0.01051876	0.01024565	0.002434266	0.004090812
	-0.6779752	0.6371872	-0.05028728	-0.05454908	0.002434167	0.004087883	0.01000809	0.01084691
	0.01051876	0.01024565	0.002434167	0.004087883	-0.04857408	-0.05615249	-0.6756782	0.6395313
	0.002434266	0.004090812	0.01000809	0.01084691	-0.6756782	0.6395313	-0.05041164	-0.05413611
3.9e+08	-0.06049101	-0.05857015	-0.6086175	0.701578	0.01199634	0.00970766	0.00283631	0.004080079
	-0.6086175	0.701578	-0.0621979	-0.05635558	0.002835569	0.004076941	0.0114728	0.01044659
	0.01199634	0.00970766	0.002835569	0.004076941	-0.06043535	-0.05837921	-0.6060316	0.7037295
	0.00283631	0.004080079	0.0114728	0.01044659	-0.6060316	0.7037295	-0.06233441	-0.05588927
4e+08	-0.07257872	-0.05839363	-0.5333118	0.7583604	0.01330689	0.00887713	0.003300379	0.004042459
	-0.5333118	0.7583604	-0.07426682	-0.05574175	0.003298921	0.004039288	0.01279561	0.009757415
	0.01330689	0.00887713	0.003298921	0.004039288	-0.0725323	-0.05819765	-0.5304533	0.7602841
	0.003300379	0.004042459	0.01279561	0.009757415	-0.5304533	0.7602841	-0.07440697	-0.05521883
4.1e+08	-0.08441536	-0.05582325	-0.4529148	0.8070297	0.01439428	0.00779801	0.003827023	0.003952326
	-0.4529148	0.8070297	-0.08600524	-0.05273588	0.003824827	0.003949316	0.01392118	0.008818021
	0.01439428	0.00779801	0.003824827	0.003949316	-0.08437836	-0.05561986	-0.4498043	0.8086919
	0.003827023	0.003952326	0.01392118	0.008818021	-0.4498043	0.8086919	-0.08613977	-0.05215487
4.2e+08	-0.09553123	-0.05096737	-0.3683121	0.8471833	0.01521375	0.006524192	0.004408167	0.00378384
	-0.3683121	0.8471833	-0.09694406	-0.04746283	0.004405271	0.00378119	0.01480434	0.007676861
	0.01521375	0.006524192	0.004405271	0.00378119	-0.0955033	-0.05075415	-0.3649741	0.8485523
	0.004408167	0.00378384	0.01480434	0.007676861	-0.3649741	0.8485523	-0.09706342	-0.04682421
4.3e+08	-0.1054913	-0.04402385	-0.2804045	0.8785176	0.01573328	0.005116609	0.005027392	0.003513647
	-0.2804045	0.8785176	-0.1066523	-0.04013677	0.005023892	0.00351154	0.01541155	0.006389535
	0.01573328	0.005116609	0.005023892	0.00351154	-0.1054715	-0.04379851	-0.2768676	0.879564
	0.005027392	0.003513647	0.01541155	0.006389535	-0.2768676	0.879564	-0.106747	-0.03944297
4.4e+08	-0.1139113	-0.03527033	-0.1900976	0.9008224	0.01593434	0.003640309	0.005661001	0.003123334
	-0.1900976	0.9008224	-0.1147531	-0.0310506	0.005657042	0.003121921	0.01572161	0.005016114
	0.01593434	0.003640309	0.005657042	0.003121921	-0.1138982	-0.03503078	-0.1863939	0.9015198
	0.005661001	0.003123334	0.01572161	0.005016114	-0.1863939	0.9015198	-0.1148142	-0.03030606
4.5e+08	-0.1204713	-0.02505176	-0.09829235	0.9139752	0.01581188	0.00216164	0.006279757	0.002601428
	-0.09829235	0.9139752	-0.1209372	-0.02056296	0.006275525	0.002600815	0.01572579	0.003618564
	0.01581188	0.00216164	0.006275525	0.002600815	-0.1204631	-0.02479625	-0.09445737	0.9143007
	0.006279757	0.002601428	0.01572579	0.003618564	-0.09445737	0.9143007	-0.1209565	-0.01977399
4.6e+08	-0.1249266	-0.01376618	-0.005879651	0.9179346	0.01537397	0.0007456819	0.006851101	0.00194479
	-0.005879651	0.9179346	-0.1249729	-0.009083299	0.006846807	0.001945027	0.01542755	0.002258392
	0.01537397	0.0007456819	0.006846807	0.001945027	-0.124921	-0.01349339	-0.00195169	0.9178688
	0.006851101	0.00194479	0.01542755	0.002258392	-0.00195169	0.9178688	-0.1249438	-0.008257844
4.7e+08	-0.1271152	-0.001849023	0.08626451	0.9127343	0.01464091	-0.0005460403	0.007341657	0.001159294
	0.08626451	0.9127343	-0.1267138	0.002944316	0.007337519	0.001160367	0.01484186	0.0009945344
	0.01464091	-0.0005460402	0.007337519	0.001160367	-0.1271097	-0.001558124	0.0902446	0.9122619
	0.007341657	0.001159294	0.01484186	0.0009945344	0.0902446	0.9122619	-0.1266312	0.003796914
4.8e+08	-0.1269627	0.01024331	0.1772813	0.8984781	0.01364412	-0.001657543	0.007719812	0.0002597745
	0.1772813	0.8984781	-0.1261028	0.01505804	0.007716037	0.0002616086	0.01399436	-0.0001184822
	0.01364412	-0.001657543	0.007716037	0.0002616085	-0.1269547	0.01055261	0.1812706	0.8975883
	0.007719812	0.0002597745	0.01399436	-0.0001184822	0.1812706	0.8975883	-0.1259636	0.01592742
4.9e+08	-0.124484	0.02205019	0.2663305	0.8753361	0.01242491	-0.002540102	0.007958159	-0.0007307491
	0.2663305	0.8753361	-0.1231728	0.02679532	0.007954922	-0.0007282861	0.01292027	-0.001032173
	0.01242491	-0.002540102	0.007954922	-0.0007282861	-0.1244709	0.02237763	0.2702845	0.8740226
	0.007958159	-0.0007307491	0.01292027	-0.001032173	0.2702845	0.8740226	-0.122976	0.02767049
5e+08	-0.1197822	0.03312337	0.3525911	0.8435428	0.01103295	-0.003153727	0.00803563	-0.001782491
	0.3525911	0.8435428	-0.1180456	0.03770968	0.008033062	-0.001779577	0.01166318	-0.00170553
	0.01103295	-0.003153727	0.008033062	-0.001779577	-0.1197613	0.03346815	0.3564643	0.8418042
	0.00803563	-0.001782491	0.01166318	-0.00170553	0.3564643	0.8418042	-0.1177925	0.03857949
5.1e+08	-0.1130446	0.0430431	0.4352628	0.8033963	0.009524738	-0.003468451	0.007939147	-0.002860855
	0.4352628	0.8033963	-0.1109266	0.04738689	0.007937318	-0.002857698	0.01027376	-0.002106324
	0.009524738	-0.003468451	0.007937318	-0.002857698	-0.1130134	0.04340389	0.439009	0.801236
