!$
! Info: Touchstone file created by Circ.  Input file=Tx_14in_Rx_93ohms_TxVia_35mils_RxVia_45mils.circ
!$
# Hz S RI R 50
0	0.01281114	1.722315e-25	-7.485208e-05	-9.732132e-26	9.491652e-05	2.40934e-23	-7.485146e-05	-1.001151e-25
	-7.48521e-05	-9.458653e-26	0.01280766	2.040498e-25	-7.485053e-05	-8.755758e-26	9.357897e-05	2.900741e-23
	9.543912e-05	2.440705e-23	-7.485049e-05	-9.213315e-26	0.01281905	1.681385e-25	-7.48506e-05	-5.415045e-27
	-7.485147e-05	-9.821639e-26	9.173037e-05	2.915015e-23	-7.485063e-05	-1.675503e-27	0.01282072	1.911957e-25
1e+07	0.01751128	-0.001907909	-4.742112e-06	-2.736878e-05	0.0005302144	0.002328921	-4.822655e-06	-2.808872e-05
	-4.742113e-06	-2.736878e-05	0.0185267	-0.002129879	-9.102726e-06	-4.604551e-06	0.000554003	0.002534215
	0.0005302385	0.002328923	-9.102725e-06	-4.604551e-06	0.01887326	-0.001341958	-3.000181e-05	-5.057843e-06
	-4.822655e-06	-2.808872e-05	0.000553942	0.002534224	-3.000181e-05	-5.057842e-06	0.01815834	-0.002118349
2e+07	0.02015679	-0.008403317	-1.200167e-05	-1.69844e-05	0.001618542	0.004522282	-1.293102e-05	-1.803546e-05
	-1.200167e-05	-1.69844e-05	0.02069241	-0.009090168	-3.764413e-05	-2.414319e-05	0.001534362	0.004913957
	0.00161855	0.004522267	-3.764413e-05	-2.414319e-05	0.02193585	-0.00807999	-3.054724e-05	9.14168e-06
	-1.293102e-05	-1.803546e-05	0.001534354	0.004913992	-3.054724e-05	9.141679e-06	0.02042475	-0.00894964
3e+07	0.0194045	-0.01650107	-1.769404e-05	-1.189058e-05	0.003247387	0.006301245	-1.928216e-05	-1.277312e-05
	-1.769404e-05	-1.189058e-05	0.01953248	-0.01726283	-5.822173e-05	-1.923611e-05	0.003176081	0.006772905
	0.003247387	0.006301242	-5.822173e-05	-1.923611e-05	0.02143469	-0.01651921	-3.185657e-05	1.247485e-05
	-1.928215e-05	-1.277312e-05	0.003176081	0.00677291	-3.185657e-05	1.247485e-05	0.01933684	-0.01709605
4e+07	0.0159145	-0.02428921	-2.175364e-05	-6.43951e-06	0.005278757	0.00753482	-2.385889e-05	-6.944249e-06
	-2.175364e-05	-6.43951e-06	0.01568923	-0.02497452	-7.306441e-05	-6.427497e-06	0.005285357	0.008024393
	0.005278759	0.007534822	-7.306441e-05	-6.427497e-06	0.01805348	-0.02470898	-3.167516e-05	1.738073e-05
	-2.385889e-05	-6.944248e-06	0.005285351	0.00802439	-3.167516e-05	1.738073e-05	0.01554548	-0.02480945
5e+07	0.0102095	-0.03089204	-2.421235e-05	-4.382731e-07	0.007537777	0.008134724	-2.669952e-05	-4.105669e-07
	-2.421235e-05	-4.382732e-07	0.0096957	-0.03139655	-8.242126e-05	1.096525e-05	0.007605885	0.008621728
	0.007537778	0.008134724	-8.242126e-05	1.096525e-05	0.01232612	-0.03173067	-3.010141e-05	2.282225e-05
	-2.669952e-05	-4.105669e-07	0.007605881	0.008621727	-3.010141e-05	2.282225e-05	0.009585557	-0.03124581
6e+07	0.002870918	-0.03572938	-2.505463e-05	5.929847e-06	0.009832839	0.008067987	-2.77711e-05	6.616998e-06
	-2.505463e-05	5.929847e-06	0.002145936	-0.03597873	-8.619805e-05	3.116676e-05	0.009947332	0.008540982
	0.009832836	0.008067987	-8.619805e-05	3.116676e-05	0.004845876	-0.0369691	-2.718347e-05	2.830087e-05
	-2.77711e-05	6.616998e-06	0.009947334	0.008540981	-2.718347e-05	2.830087e-05	0.002053116	-0.03584651
7e+07	-0.005458715	-0.03844367	-2.425431e-05	1.240201e-05	0.01197314	0.007358328	-2.701582e-05	1.385011e-05
	-2.425431e-05	1.240201e-05	-0.006307334	-0.03839061	-8.417392e-05	5.279258e-05	0.01212046	0.007811301
	0.01197313	0.007358329	-8.417392e-05	5.279258e-05	-0.003729623	-0.0400382	-2.297328e-05	3.346286e-05
	-2.701582e-05	1.385011e-05	0.01212047	0.007811298	-2.297328e-05	3.346286e-05	-0.006396582	-0.03827548
8e+07	-0.01410859	-0.03888295	-2.177536e-05	1.86915e-05	0.01378514	0.006082672	-2.43568e-05	2.096973e-05
	-2.177536e-05	1.86915e-05	-0.0149874	-0.03850692	-7.606424e-05	7.458027e-05	0.01395295	0.006512707
	0.01378513	0.006082676	-7.606424e-05	7.458027e-05	-0.0127119	-0.04076386	-1.787797e-05	3.784113e-05
	-2.43568e-05	2.096973e-05	0.01395296	0.0065127	-1.787797e-05	3.784113e-05	-0.01508383	-0.03840361
9e+07	-0.02242207	-0.03708884	-1.752728e-05	2.449645e-05	0.01512769	0.004363441	-1.964079e-05	2.764763e-05
	-1.752728e-05	2.449644e-05	-0.02323554	-0.03639515	-6.137687e-05	9.530292e-05	0.01530312	0.00476894
	0.01512768	0.004363445	-6.137687e-05	9.530292e-05	-0.02142742	-0.03917219	-1.443146e-05	4.047645e-05
	-1.964079e-05	2.764763e-05	0.01530313	0.004768934	-1.443146e-05	4.047645e-05	-0.02334696	-0.03629614
1e+08	-0.02979382	-0.03327756	-1.082491e-05	2.951903e-05	0.01591302	0.002359326	-1.203329e-05	3.353329e-05
	-1.082491e-05	2.951903e-05	-0.03043407	-0.03229341	-3.745291e-05	0.000113743	0.01607009	0.00273609
	0.01591302	0.002359326	-3.745291e-05	0.000113743	-0.02928212	-0.03547424	-1.159698e-05	4.252501e-05
	-1.203329e-05	3.353329e-05	0.01607009	0.00273609	-1.159698e-05	4.252501e-05	-0.03056864	-0.0321907
1.1e+08	-0.03574112	-0.0278674	-3.139454e-06	3.013918e-05	0.01605477	0.0002880076	-3.139737e-06	3.433595e-05
	-3.139454e-06	3.013918e-05	-0.03614669	-0.02672961	-9.250528e-06	0.0001164465	0.0162006	0.0005963245
	0.01605477	0.0002880074	-9.250528e-06	0.0001164465	-0.03570908	-0.02992467	-8.40053e-06	4.257554e-05
	-3.139737e-06	3.433595e-05	0.0162006	0.0005963245	-8.40053e-06	4.257554e-05	-0.03630225	-0.0265987
1.2e+08	-0.03992604	-0.02127332	3.215609e-06	2.942905e-05	0.01554953	-0.001727301	2.525107e-06	3.361123e-05
	3.215609e-06	2.942905e-05	-0.04011044	-0.02004333	7.490477e-06	0.0001144948	0.01570056	-0.001470307
	0.01554953	-0.001727301	7.490477e-06	0.0001144948	-0.04024106	-0.02311119	-4.242139e-06	4.26453e-05
	2.525107e-06	3.361123e-05	0.01570056	-0.001470307	-4.242139e-06	4.26453e-05	-0.04027095	-0.01987822
1.3e+08	-0.04211231	-0.01403961	5.789074e-06	2.843003e-05	0.0144623	-0.003505832	5.094306e-06	3.268477e-05
	5.789074e-06	2.843003e-05	-0.04207802	-0.01277408	1.76018e-05	0.0001116	0.01461974	-0.003292643
	0.0144623	-0.003505832	1.76018e-05	0.0001116	-0.04267999	-0.01561614	2.896761e-07	4.239997e-05
	5.094306e-06	3.268477e-05	0.01461974	-0.003292643	2.896761e-07	4.239997e-05	-0.04223142	-0.01257419
1.4e+08	-0.04223459	-0.006744063	8.169127e-06	2.731791e-05	0.01289132	-0.00489421	7.840329e-06	3.159633e-05
	8.169127e-06	2.731791e-05	-0.04199313	-0.005499655	2.81615e-05	0.0001078011	0.01305321	-0.004720789
	0.01289132	-0.00489421	2.81615e-05	0.0001078011	-0.04296994	-0.008040251	4.928028e-06	4.167475e-05
	7.840329e-06	3.159633e-05	0.01305321	-0.004720789	4.928028e-06	4.167475e-05	-0.0421289	-0.00526832
1.5e+08	-0.04038956	4.957792e-05	1.057813e-05	2.600803e-05	0.01097057	-0.005773802	1.064297e-05	3.027441e-05
	1.057813e-05	2.600803e-05	-0.03996534	0.001218757	3.87513e-05	0.0001029137	0.01113285	-0.005637837
	0.01097057	-0.005773802	3.87513e-05	0.0001029137	-0.0412157	-0.0009658063	9.571062e-06	4.042413e-05
	1.064297e-05	3.027441e-05	0.01113285	-0.005637837	9.571062e-06	4.042413e-05	-0.0400751	0.001474996
1.6e+08	-0.03682232	0.005833925	1.294537e-05	2.44715e-05	0.008859941	-0.006068633	1.341712e-05	2.86838e-05
	1.294537e-05	2.44715e-05	-0.03625345	0.006880226	4.90527e-05	9.686517e-05	0.009016754	-0.005968308
	0.008859941	-0.006068633	4.90527e-05	9.686517e-05	-0.03767149	0.005084525	1.409027e-05	3.863112e-05
	1.341712e-05	2.86838e-05	0.009016754	-0.005968308	1.409027e-05	3.863112e-05	-0.03633166	0.007152477
1.7e+08	-0.03190318	0.01019451	1.521184e-05	2.269704e-05	0.00673301	-0.005750526	1.609215e-05	2.681039e-05
	1.521184e-05	2.269704e-05	-0.03124038	0.01108095	5.87976e-05	8.9659e-05	0.006876953	-0.005683483
	0.00673301	-0.005750526	5.87976e-05	8.9659e-05	-0.03271811	0.009684048	1.839232e-05	3.630514e-05
	1.609215e-05	2.681039e-05	0.006876953	-0.005683483	1.839232e-05	3.630514e-05	-0.03128476	0.011359
1.8e+08	-0.02609636	0.01283858	1.732596e-05	2.068669e-05	0.004763616	-0.004840855	1.860651e-05	2.465639e-05
	1.732596e-05	2.068669e-05	-0.02540017	0.0135427	6.775648e-05	8.135647e-05	0.004886205	-0.00480331
	0.004763616	-0.004840855	6.775648e-05	8.135647e-05	-0.02683141	0.01253079	2.239197e-05	3.347347e-05
	1.860651e-05	2.465639e-05	0.004886205	-0.00480331	2.239197e-05	3.347347e-05	-0.0254119	0.01381609
1.9e+08	-0.01992266	0.01361437	1.924226e-05	1.845322e-05	0.003112378	-0.003408679	2.090644e-05	2.223705e-05
	1.924226e-05	1.845322e-05	-0.01925939	0.01413118	7.573545e-05	7.20635e-05	0.003204692	-0.003394789
	0.003112378	-0.003408679	7.573545e-05	7.20635e-05	-0.02054455	0.01346682	2.601309e-05	3.017869e-05
	2.090644e-05	2.223705e-05	0.003204692	-0.003394789	2.601309e-05	3.017869e-05	-0.01924294	0.01439028
2e+08	-0.01391738	0.01252063	2.091614e-05	1.601653e-05	0.001902718	-0.001575178	2.294417e-05	1.957708e-05
	2.091614e-05	1.601653e-05	-0.01335542	0.01286343	8.257541e-05	6.191911e-05	0.00196754	-0.001566825
	0.001902718	-0.001575178	8.257541e-05	6.191911e-05	-0.01440537	0.01248769	2.918865e-05	2.647539e-05
	2.294417e-05	1.957708e-05	0.00196754	-0.001566825	2.918865e-05	2.647539e-05	-0.01331809	0.01310037
2.1e+08	-0.008592897	0.00970046	2.231926e-05	1.340798e-05	0.001248423	0.0005301201	2.468364e-05	1.67112e-05
	2.231926e-05	1.340798e-05	-0.00819458	0.009903585	8.815591e-05	5.108702e-05	0.001274061	0.0005381919
	0.001248423	0.0005301201	8.815591e-05	5.108702e-05	-0.00893847	0.009736171	3.186621e-05	2.242941e-05
	2.468364e-05	1.67112e-05	0.001274061	0.0005381919	3.186621e-05	2.242941e-05	-0.008145855	0.01011302
2.2e+08	-0.004396601	0.005431991	2.342539e-05	1.066163e-05	0.001204088	0.002738255	2.60956e-05	1.367855e-05
	2.342539e-05	1.066163e-05	-0.004213296	0.005547584	9.239144e-05	3.974474e-05	0.001179615	0.002755599
	0.001204088	0.002738255	9.239144e-05	3.974474e-05	-0.004602603	0.005492733	3.400467e-05	1.811273e-05
	2.60956e-05	1.367855e-05	0.001179615	0.002755599	3.400467e-05	1.811273e-05	-0.004163958	0.005727227
2.3e+08	-0.001677936	0.0001033104	2.421475e-05	7.815247e-06	0.001773102	0.00487111	2.715901e-05	1.052163e-05
	2.421475e-05	7.815247e-06	-0.00174503	0.0001978155	9.523062e-05	2.8076e-05	0.00169088	0.004911676
	0.001773102	0.00487111	9.523062e-05	2.8076e-05	-0.001757215	0.0001501495	3.557568e-05	1.360154e-05
	2.715901e-05	1.052163e-05	0.00169088	0.004911676	3.557568e-05	1.360154e-05	-0.001706215	0.0003486805
2.4e+08	-0.0006627526	-0.005819482	2.467441e-05	4.909228e-06	0.00290796	0.006756936	2.786081e-05	7.284756e-06
	2.467441e-05	4.909228e-06	-0.0009956853	-0.00567019	9.665357e-05	1.626447e-05	0.002765065	0.006837847
	0.00290796	0.006756936	9.665357e-05	1.626447e-05	-0.0006363635	-0.005818845	3.656346e-05	8.973769e-06
	2.786081e-05	7.284756e-06	0.002765065	0.006837847	3.656346e-05	8.973769e-06	-0.0009778844	-0.005543808
2.5e+08	-0.0014375	-0.01182984	2.479817e-05	1.985042e-06	0.004514071	0.00824473	2.81952e-05	4.012242e-06
	2.479817e-05	1.985042e-06	-0.002029285	-0.01154644	9.666794e-05	4.487969e-06	0.004313288	0.008384652
	0.004514071	0.00824473	9.666794e-05	4.487969e-06	-0.001332565	-0.01189963	3.69641e-05	4.306843e-06
	2.81952e-05	4.012242e-06	0.004313288	0.008384652	3.69641e-05	4.306843e-06	-0.00204141	-0.01143728
2.6e+08	-0.003944503	-0.01742103	2.458582e-05	-9.156392e-07	0.006457653	0.009216975	2.816278e-05	7.473496e-07
	2.458582e-05	-9.156392e-07	-0.004765053	-0.01692744	9.530075e-05	-7.084098e-06	0.006207936	0.009434209
	0.006457653	0.009216975	9.530075e-05	-7.084098e-06	-0.003791859	-0.01757655	3.678455e-05	-3.241037e-07
	2.816278e-05	7.473496e-07	0.006207936	0.009434209	3.678455e-05	-3.241037e-07	-0.004813648	-0.01682582
2.7e+08	-0.007988609	-0.02212588	2.404383e-05	-3.752446e-06	0.008577082	0.009599539	2.776957e-05	-2.468589e-06
	2.404383e-05	-3.752446e-06	-0.008986134	-0.02135586	9.260586e-05	-1.829395e-05	0.008293405	0.009910015
	0.008577082	0.009599539	9.260586e-05	-1.829395e-05	-0.007820376	-0.0223732	3.604128e-05	-4.84759e-06
	2.776957e-05	-2.468589e-06	0.008293405	0.009910015	3.604128e-05	-4.84759e-06	-0.009074686	-0.0212505
2.8e+08	-0.01325452	-0.02555277	2.318375e-05	-6.486805e-06	0.01069667	0.009367784	2.702612e-05	-5.596557e-06
	2.318375e-05	-6.486805e-06	-0.01435876	-0.02445614	8.865002e-05	-2.899606e-05	0.01039924	0.009783131
	0.01069667	0.009367784	8.865002e-05	-2.899606e-05	-0.01310176	-0.02588912	3.475919e-05	-9.196767e-06
	2.702612e-05	-5.596557e-06	0.01039924	0.009783131	3.475919e-05	-9.196767e-06	-0.01448737	-0.0243351
2.9e+08	-0.01933324	-0.02741514	2.20217e-05	-9.082604e-06	0.01264155	0.008548326	2.59466e-05	-8.600031e-06
	2.20217e-05	-9.082604e-06	-0.02046045	-0.02596286	8.351198e-05	-3.905658e-05	0.01235445	0.009074224
	0.01264155	0.008548326	8.351198e-05	-3.905658e-05	-0.01922381	-0.02782975	3.297029e-05	-1.331002e-05
	2.59466e-05	-8.600031e-06	0.01235445	0.009074224	3.297029e-05	-1.331002e-05	-0.02062578	-0.02581455
3e+08	-0.02575527	-0.02755226	2.057779e-05	-1.150661e-05	0.01425239	0.007216346	2.454819e-05	-1.144487e-05
	2.057779e-05	-1.150661e-05	-0.02681467	-0.02573995	7.728127e-05	-4.835274e-05	0.01400166	0.007851327
	0.01425239	0.007216346	7.728127e-05	-4.835274e-05	-0.02571208	-0.02802773	3.071257e-05	-1.713125e-05
	2.454819e-05	-1.144487e-05	0.01400166	0.007851327	3.071257e-05	-1.713125e-05	-0.02701015	-0.0255541
3.1e+08	-0.03202797	-0.02593985	1.887556e-05	-1.372875e-05	0.01539842	0.005488793	2.285075e-05	-1.409915e-05
	1.887556e-05	-1.372875e-05	-0.03292897	-0.02378939	7.005771e-05	-5.677226e-05	0.0152099	0.006223654
	0.01539842	0.005488793	7.005771e-05	-5.677226e-05	-0.03206763	-0.02645386	2.802931e-05	-2.061007e-05
	2.285075e-05	-1.409915e-05	0.0152099	0.006223654	2.802931e-05	-2.061007e-05	-0.03314529	-0.02355795
3.2e+08	-0.03767381	-0.02269012	1.694137e-05	-1.57222e-05	0.01598791	0.003514218	2.087657e-05	-1.653291e-05
	1.694137e-05	-1.57222e-05	-0.03833364	-0.02024903	6.195078e-05	-6.421302e-05	0.01588479	0.00433213
	0.01598791	0.003514218	6.195078e-05	-6.421302e-05	-0.03780579	-0.02321734	2.496821e-05	-2.370182e-05
	2.087657e-05	-1.653291e-05	0.01588479	0.00433213	2.496821e-05	-2.370182e-05	-0.03855949	-0.01996686
3.3e+08	-0.04226687	-0.01804129	1.4804e-05	-1.746345e-05	0.01597508	0.001460248	1.865044e-05	-1.871806e-05
	1.4804e-05	-1.746345e-05	-0.04261777	-0.01538002	5.307988e-05	-7.05835e-05	0.01597565	0.0023376
	0.01597508	0.001460248	5.307988e-05	-7.05835e-05	-0.04249321	-0.0185554	2.158099e-05	-2.636764e-05
	1.865044e-05	-1.871806e-05	0.01597565	0.0023376	2.158099e-05	-2.636764e-05	-0.04284075	-0.01504538
3.4e+08	-0.04546467	-0.01233798	1.249438e-05	-1.893239e-05	0.01536318	-0.0005001735	1.619992e-05	-2.062843e-05
	1.249438e-05	-1.893239e-05	-0.04546021	-0.009545095	4.35747e-05	-7.580405e-05	0.01547882	0.000407762
	0.01536318	-0.0005001735	4.35747e-05	-7.580405e-05	-0.04578016	-0.0128136	1.792304e-05	-2.857474e-05
	1.619992e-05	-2.062843e-05	0.01547882	0.000407762	1.792304e-05	-2.857474e-05	-0.04566784	-0.009159838
3.5e+08	-0.04703333	-0.006003826	1.00452e-05	-2.011232e-05	0.01420364	-0.002202627	1.355541e-05	-2.224e-05
	1.00452e-05	-2.011232e-05	-0.04665316	-0.00317958	3.357473e-05	-7.980827e-05	0.01443729	-0.001296087
	0.01420364	-0.002202627	3.357473e-05	-7.980827e-05	-0.04742619	-0.00641836	1.405294e-05	-3.029664e-05
	1.355541e-05	-2.224e-05	0.01443729	-0.001296087	1.405294e-05	-3.029664e-05	-0.04683388	-0.002749042
3.6e+08	-0.0468642	0.0004912304	7.490796e-06	-2.099016e-05	0.01259149	-0.003504088	1.075044e-05	-2.353136e-05
	7.490796e-06	-2.099016e-05	-0.04611688	0.003242603	2.322867e-05	-8.254523e-05	0.01293684	-0.002631511
	0.01259149	-0.003504088	2.322867e-05	-8.254523e-05	-0.04731719	0.0001560987	1.00321e-05	-3.151368e-05
	1.075044e-05	-2.353136e-05	0.01293684	-0.002631511	1.00321e-05	-3.151368e-05	-0.04626105	0.003709986
3.7e+08	-0.04498119	0.006666766	4.866789e-06	-2.155654e-05	0.01065754	-0.004293941	7.821634e-06	-2.44843e-05
	4.866789e-06	-2.155654e-05	-0.04390472	0.009245353	1.269292e-05	-8.398146e-05	0.01109899	-0.003485751
	0.01065754	-0.004293941	1.269292e-05	-8.398146e-05	-0.04547295	0.006423854	5.924104e-06	-3.221344e-05
	7.821634e-06	-2.44843e-05	0.01109899	-0.003485751	5.924104e-06	-3.221344e-05	-0.04400542	0.009738689
3.8e+08	-0.04153808	0.01206808	2.209834e-06	-2.180602e-05	0.008558035	-0.004502413	4.808574e-06	-2.508452e-05
	2.209834e-06	-2.180602e-05	-0.04019814	0.01438659	2.129492e-06	-8.410294e-05	0.009071441	-0.003784206
	0.008558035	-0.004502413	2.129492e-06	-8.410294e-05	-0.0420448	0.01192393	1.793925e-06	-3.239129e-05
	4.808574e-06	-2.508452e-05	0.009071441	-0.003784206	1.793925e-06	-3.239129e-05	-0.04025174	0.01489339
3.9e+08	-0.03680644	0.01630031	-4.427718e-07	-2.173733e-05	0.006462482	-0.004105914	1.753392e-06	-2.53224e-05
	-4.427718e-07	-2.173733e-05	-0.03529222	0.01829168	-8.296654e-06	-8.291677e-05	0.007016681	-0.00349605
	0.006462482	-0.004105914	-8.296654e-06	-8.291677e-05	-0.0373036	0.01625483	-2.293015e-06	-3.205075e-05
	1.753392e-06	-2.53224e-05	0.007016681	-0.00349605	-2.293015e-06	-3.205075e-05	-0.03529876	0.01879883
4e+08	-0.03115482	0.01905794	-3.053518e-06	-2.135349e-05	0.004540462	-0.003128947	-1.299857e-06	-2.519364e-05
	-3.053518e-06	-2.135349e-05	-0.02957282	0.02068162	-1.842086e-05	-8.045219e-05	0.005099482	-0.002636647
	0.004540462	-0.003128947	-1.842086e-05	-8.045219e-05	-0.03161895	0.01910453	-6.271989e-06	-3.120372e-05
	-1.299857e-06	-2.519364e-05	0.005099482	-0.002636647	-6.271989e-06	-3.120372e-05	-0.02953608	0.02117645
4.1e+08	-0.02502077	0.02014772	-5.585209e-06	-2.066201e-05	0.002948399	-0.001642425	-4.306058e-06	-2.469988e-05
	-5.585209e-06	-2.066201e-05	-0.02348698	0.02139406	-2.808238e-05	-7.676118e-05	0.003474155	-0.001266544
	0.002948399	-0.001642425	-2.808238e-05	-7.676118e-05	-0.02543116	0.02027383	-1.00802e-05	-2.987056e-05
	-4.306058e-06	-2.469988e-05	0.003474155	-0.001266544	-1.00802e-05	-2.987056e-05	-0.0234142	0.02186538
4.2e+08	-0.01887775	0.01950317	-8.001518e-06	-1.967492e-05	0.001817145	0.0002415501	-7.220056e-06	-2.384896e-05
	-8.001518e-06	-1.967492e-05	-0.01750868	0.02039547	-3.712822e-05	-7.191808e-05	0.002272433	0.0005129481
	0.001817145	0.0002415501	-3.712822e-05	-7.191808e-05	-0.01921788	0.01969126	-1.365806e-05	-2.807974e-05
	-7.220056e-06	-2.384896e-05	0.002272433	0.0005129481	-1.365806e-05	-2.807974e-05	-0.01741003	0.02083451
4.3e+08	-0.01319919	0.01718956	-1.02676e-05	-1.840872e-05	0.001241338	0.002378171	-9.99777e-06	-2.265506e-05
	-1.02676e-05	-1.840872e-05	-0.01210252	0.01778361	-4.541697e-05	-6.601841e-05	0.001592876	0.002567382
	0.001241338	0.002378171	-4.541697e-05	-6.601841e-05	-0.01345791	0.01741844	-1.695039e-05	-2.586745e-05
	-9.99777e-06	-2.265506e-05	0.001592876	0.002567381	-1.695039e-05	-2.586745e-05	-0.01199037	0.01818475
4.4e+08	-0.008422541	0.01339899	-1.235069e-05	-1.688427e-05	0.001271384	0.004601169	-1.259731e-05	-2.11385e-05
	-1.235069e-05	-1.688427e-05	-0.007688092	0.01377987	-5.282238e-05	-5.917682e-05	0.00149268	0.004739562
	0.001271384	0.004601169	-5.282238e-05	-5.917682e-05	-0.008594811	0.01364538	-1.990755e-05	-2.327677e-05
	-1.259731e-05	-2.11385e-05	0.00149268	0.004739562	-1.990755e-05	-2.327677e-05	-0.007576025	0.0141412
4.5e+08	-0.004915872	0.00843568	-1.422076e-05	-1.512655e-05	0.001908836	0.006736039	-1.498003e-05	-1.932525e-05
	-1.422076e-05	-1.512655e-05	-0.004607691	0.008712157	-5.923656e-05	-5.152426e-05	0.001982631	0.006861988
	0.001908836	0.006736039	-5.923656e-05	-5.152426e-05	-0.005003116	0.008676007	-2.24864e-05	-2.035684e-05
	-1.498003e-05	-1.932525e-05	0.001982631	0.006861988	-2.24864e-05	-2.035684e-05	-0.004509414	0.009035667
4.6e+08	-0.002949817	0.002692735	-1.585113e-05	-1.316437e-05	0.003105681	0.008614222	-1.711115e-05	-1.724612e-05
	-1.585113e-05	-1.316437e-05	-0.003100001	0.002989409	-6.457231e-05	-4.320443e-05	0.003025771	0.008770397
	0.003105681	0.008614222	-6.457231e-05	-4.320443e-05	-0.002959706	0.002904822	-2.464985e-05	-1.71611e-05
	-1.711115e-05	-1.724612e-05	0.003025771	0.008770397	-2.464985e-05	-1.71611e-05	-0.003028181	0.003280948
4.7e+08	-0.002676961	-0.003378102	-1.721901e-05	-1.102983e-05	0.004767771	0.0100871	-1.896135e-05	-1.493648e-05
	-1.721901e-05	-1.102983e-05	-0.003281851	-0.002930153	-6.876442e-05	-3.436982e-05	0.004540031	0.01031728
	0.004767771	0.0100871	-6.876442e-05	-3.436982e-05	-0.00262277	-0.003213374	-2.636985e-05	-1.374809e-05
