!$
! Info: Touchstone file created by Circ.  Input file=Tx_14in_Rx_85ohms_TxVia_35mils_RxVia_45mils.circ
!$
# Hz S RI R 50
0	0.01126687	1.66855e-25	-7.531008e-05	3.7141e-24	9.420475e-05	2.104276e-23	-7.529069e-05	1.386484e-24
	-7.531012e-05	3.717988e-24	0.01126516	2.051807e-25	-7.532088e-05	5.246403e-24	9.406958e-05	2.549864e-23
	9.401925e-05	2.095442e-23	-7.532085e-05	5.243108e-24	0.01127746	1.668209e-25	-7.530672e-05	3.56711e-24
	-7.529071e-05	1.389532e-24	9.222127e-05	2.562415e-23	-7.530674e-05	3.569566e-24	0.01127825	1.922532e-25
1e+07	0.01378716	-0.0137434	-0.000159585	-2.708047e-05	0.0005693761	0.00251179	-1.162832e-05	-2.19681e-06
	-0.000159585	-2.708047e-05	0.01381623	-0.01375175	-4.44883e-05	0.0001159868	0.000565209	0.002519238
	0.0005693706	0.002511791	-4.448829e-05	0.0001159868	0.01385047	-0.01372239	-0.0001595839	-2.707689e-05
	-1.162832e-05	-2.196811e-06	0.0005651485	0.002519249	-0.0001595839	-2.707689e-05	0.01378602	-0.01373483
2e+07	0.01123857	-0.03074514	-0.0001422022	3.902311e-05	0.001698714	0.004695714	-1.167281e-05	-2.147707e-05
	-0.0001422022	3.902311e-05	0.01120867	-0.0307621	-3.768422e-05	0.000155541	0.001683392	0.004714751
	0.001698715	0.004695719	-3.768422e-05	0.000155541	0.01129782	-0.03072089	-0.0001421951	3.89797e-05
	-1.167281e-05	-2.147707e-05	0.001683384	0.004714786	-0.0001421951	3.89797e-05	0.01119132	-0.03071589
3e+07	0.00250403	-0.04735954	-0.0001385345	4.117425e-05	0.00337361	0.006420151	-2.929596e-05	-2.200573e-05
	-0.0001385345	4.117426e-05	0.002396332	-0.04734706	-5.446677e-06	0.0001788692	0.003342631	0.006457713
	0.003373613	0.00642015	-5.446678e-06	0.0001788692	0.002565396	-0.04732359	-0.0001385331	4.109493e-05
	-2.929596e-05	-2.200573e-05	0.003342631	0.006457718	-0.0001385331	4.109493e-05	0.002387663	-0.04728365
4e+07	-0.01103105	-0.06096084	-0.0001348551	4.978754e-05	0.005431255	0.007556579	-4.306468e-05	-1.535643e-05
	-0.0001348551	4.978754e-05	-0.01122477	-0.06088253	3.721753e-05	0.0001769012	0.005383422	0.00762136
	0.005431255	0.007556578	3.721753e-05	0.0001769012	-0.01096408	-0.06091427	-0.0001348746	4.966194e-05
	-4.306468e-05	-1.535643e-05	0.005383416	0.007621358	-0.0001348746	4.966194e-05	-0.01122759	-0.06080454
5e+07	-0.02796051	-0.07022986	-0.0001300518	6.148553e-05	0.007675463	0.008030871	-5.313704e-05	-4.332489e-06
	-0.0001300518	6.148553e-05	-0.0282351	-0.0700479	7.642315e-05	0.0001488406	0.007613395	0.008131972
	0.007675463	0.008030871	7.642315e-05	0.0001488406	-0.02788639	-0.0701754	-0.0001301163	6.131093e-05
	-5.313704e-05	-4.332489e-06	0.007613392	0.008131972	-0.0001301163	6.131093e-05	-0.02823422	-0.0699556
6e+07	-0.04674588	-0.07442374	-0.0001232945	7.476113e-05	0.009901588	0.007832577	-5.927806e-05	9.718545e-06
	-0.0001232945	7.476113e-05	-0.04708207	-0.07410345	9.96823e-05	9.913703e-05	0.009831693	0.007978027
	0.009901589	0.007832577	9.96823e-05	9.913703e-05	-0.04666465	-0.07436431	-0.0001234324	7.454722e-05
	-5.927806e-05	9.718545e-06	0.009831695	0.007978026	-0.0001234324	7.454722e-05	-0.04707863	-0.07399587
7e+07	-0.06580091	-0.07330403	-0.0001140944	8.846398e-05	0.01191765	0.007011661	-6.108632e-05	2.578511e-05
	-0.0001140944	8.846398e-05	-0.06616706	-0.07281883	9.748132e-05	3.666795e-05	0.01184958	0.00720706
	0.01191766	0.007011661	9.748132e-05	3.666795e-05	-0.06571386	-0.0732421	-0.0001143318	8.823497e-05
	-6.108632e-05	2.578511e-05	0.01184959	0.007207056	-0.0001143318	8.823497e-05	-0.06616101	-0.07269449
8e+07	-0.08360415	-0.06709472	-0.0001023199	0.0001015716	0.01356107	0.005668818	-5.807151e-05	4.288542e-05
	-0.0001023199	0.0001015716	-0.08395959	-0.06643001	6.445058e-05	-2.681123e-05	0.01350675	0.005916225
	0.01356107	0.005668817	6.445058e-05	-2.681123e-05	-0.08351333	-0.06703193	-0.0001026732	0.0001013648
	-5.807151e-05	4.288542e-05	0.01350676	0.005916218	-0.0001026732	0.0001013648	-0.08394974	-0.06628751
9e+07	-0.09880644	-0.05642487	-8.816409e-05	0.0001132057	0.01471018	0.00394218	-4.958777e-05	5.9966e-05
	-8.816409e-05	0.0001132057	-0.09910589	-0.05558055	-6.300368e-07	-7.863791e-05	0.01468255	0.004239352
	0.01471018	0.003942179	-6.300368e-07	-7.863791e-05	-0.09871417	-0.05636185	-8.863462e-05	0.0001130669
	-4.958777e-05	5.996601e-05	0.01468255	0.004239346	-8.863462e-05	0.0001130669	-0.09909013	-0.05541914
1e+08	-0.1103235	-0.04225292	-7.208922e-05	0.0001227121	0.01529308	0.001993507	-3.330986e-05	7.602172e-05
	-7.208922e-05	0.0001227121	-0.1105217	-0.04124432	-0.0001010787	-0.0001081122	0.01530454	0.002333582
	0.01529308	0.001993507	-0.0001010787	-0.0001081122	-0.1102317	-0.04218926	-7.266078e-05	0.0001226888
	-3.330986e-05	7.602172e-05	0.01530454	0.002333582	-7.266078e-05	0.0001226888	-0.1104977	-0.04106432
1.1e+08	-0.1173874	-0.02576047	-5.486189e-05	0.0001295954	0.01527831	-2.538754e-05	-1.269587e-05	7.98262e-05
	-5.486189e-05	0.0001295954	-0.1174445	-0.02462019	-0.000209976	-0.0001324136	0.01533914	0.0003460187
	0.01527831	-2.538746e-05	-0.000209976	-0.0001324136	-0.1172981	-0.02569788	-5.549784e-05	0.000129726
	-1.269587e-05	7.98262e-05	0.01533914	0.0003460187	-5.549784e-05	0.000129726	-0.1174091	-0.02442275
1.2e+08	-0.1195813	-0.008284272	-3.688561e-05	0.0001336402	0.01466953	-0.001933552	4.592278e-06	7.944125e-05
	-3.688561e-05	0.0001336402	-0.1194693	-0.007055877	-0.0003117624	-0.0001163753	0.01478614	-0.001545521
	0.01466953	-0.001933552	-0.0003117624	-0.0001163753	-0.1194977	-0.008220512	-3.75317e-05	0.0001339485
	4.592278e-06	7.944125e-05	0.01478614	-0.001545521	-3.75317e-05	0.0001339485	-0.1194195	-0.006843163
1.3e+08	-0.116886	0.008798763	-1.885147e-05	0.0001348606	0.01353096	-0.003574726	1.868324e-05	7.62726e-05
	-1.885147e-05	0.0001348606	-0.1165906	0.01006243	-0.0004022315	-6.396808e-05	0.01370502	-0.003187133
	0.01353096	-0.003574726	-0.0004022315	-6.396808e-05	-0.1168097	0.008866584	-1.944663e-05	0.0001353489
	1.868324e-05	7.62726e-05	0.01370502	-0.003187133	-1.944663e-05	0.0001353489	-0.116524	0.01028672
1.4e+08	-0.1096475	0.02417432	-1.319945e-06	0.0001334438	0.0119599	-0.004816788	2.612311e-05	7.281846e-05
	-1.319945e-06	0.0001334438	-0.1091711	0.02541545	-0.0004716258	1.883736e-05	0.01218761	-0.004447471
	0.0119599	-0.004816788	-0.0004716258	1.883736e-05	-0.1095787	0.0242491	-1.806168e-06	0.0001340896
	2.612311e-05	7.281846e-05	0.01218761	-0.004447471	-1.806168e-06	0.0001340896	-0.1090865	0.02564639
1.5e+08	-0.09854744	0.03668038	1.517245e-05	0.000129694	0.01008353	-0.00555757	3.348132e-05	6.850824e-05
	1.517245e-05	0.000129694	-0.09791116	0.03784167	-0.000511999	0.0001229644	0.01035531	-0.005223336
	0.01008353	-0.00555757	-0.000511999	0.0001229644	-0.09848566	0.03676471	1.484048e-05	0.0001304547
	3.348132e-05	6.850824e-05	0.01035531	-0.005223336	1.484048e-05	0.0001304547	-0.0978092	0.03807362
1.6e+08	-0.08455189	0.04538787	3.030279e-05	0.0001240487	0.008051916	-0.005731222	4.048946e-05	6.33208e-05
	3.030279e-05	0.0001240487	-0.08379508	0.04641848	-0.0005189045	0.0002372186	0.0083528	-0.005445985
	0.008051916	-0.005731222	-0.0005189045	0.0002372186	-0.08449577	0.04548392	3.015035e-05	0.0001248675
	4.048946e-05	6.33208e-05	0.0083528	-0.005445985	3.015035e-05	0.0001248675	-0.08367847	0.04664581
1.7e+08	-0.06884011	0.04966719	4.392709e-05	0.0001169792	0.006029243	-0.005313788	4.693287e-05	5.729874e-05
	4.392709e-05	0.0001169792	-0.06801845	0.0505286	-0.0004921121	0.0003498004	0.006339787	-0.005086842
	0.006029243	-0.005313788	-0.0004921121	0.0003498004	-0.06878784	0.04977658	4.395454e-05	0.0001177942
	4.693287e-05	5.729874e-05	0.006339787	-0.005086842	4.395454e-05	0.0001177942	-0.06789189	0.05074643
1.8e+08	-0.05271843	0.04923605	5.607671e-05	0.000108919	0.004183009	-0.004327243	5.263925e-05	5.052907e-05
	5.607671e-05	0.000108919	-0.05189985	0.0499072	-0.0004355677	0.0004499682	0.004480792	-0.004161868
	0.004183008	-0.004327243	-0.0004355677	0.0004499682	-0.05266785	0.04935976	5.625921e-05	0.0001096749
	5.263925e-05	5.052907e-05	0.004480792	-0.004161868	5.625921e-05	0.0001096749	-0.0517698	0.05011218
1.9e+08	-0.03752191	0.04418424	6.692536e-05	0.0001001953	0.002671231	-0.002840886	5.747436e-05	4.313009e-05
	6.692536e-05	0.0001001953	-0.03678106	0.04466537	-0.0003566581	0.0005295655	0.002932756	-0.002733443
	0.00267123	-0.002840886	-0.0003566581	0.0005295655	-0.03747066	0.04432262	6.721776e-05	0.0001008541
	5.747436e-05	4.313009e-05	0.002932756	-0.002733443	6.721776e-05	0.0001008541	-0.03665517	0.04485623
2e+08	-0.02451006	0.03497117	7.672579e-05	9.097682e-05	0.001628381	-0.0009688529	6.13403e-05	3.524082e-05
	7.672579e-05	9.097682e-05	-0.02392154	0.03528584	-0.0002648946	0.0005841386	0.001831237	-0.0009084842
	0.001628381	-0.0009688529	-0.0002648946	0.0005841386	-0.02445582	0.03512384	7.707205e-05	9.152571e-05
	6.13403e-05	3.524082e-05	0.001831237	-0.0009084842	7.707205e-05	9.152571e-05	-0.02380792	0.0354638
2.1e+08	-0.01476441	0.02239357	8.572449e-05	8.125499e-05	0.001151532	0.001137207	6.417425e-05	2.701227e-05
	8.572449e-05	8.125499e-05	-0.01439535	0.02258847	-0.0001702237	0.0006134275	0.001276617	0.00116819
	0.001151532	0.001137207	-0.0001702237	0.0006134275	-0.01470503	0.02255943	8.607021e-05	8.170919e-05
	6.417425e-05	2.701227e-05	0.001276617	0.00116819	8.607021e-05	8.170919e-05	-0.01430178	0.02275733
2.2e+08	-0.009097102	0.007523367	9.407254e-05	7.086867e-05	0.001288776	0.003300477	6.594681e-05	1.859883e-05
	9.407254e-05	7.086867e-05	-0.008999996	0.007665825	-8.126755e-05	0.0006211037	0.001322373	0.003325528
	0.001288776	0.003300477	-8.126755e-05	0.0006211037	-0.009030902	0.007700729	9.437811e-05	7.126869e-05
	6.594681e-05	1.859883e-05	0.001322373	0.003325528	9.437811e-05	7.126869e-05	-0.008933101	0.007831845
2.3e+08	-0.007980627	-0.008380482	0.0001017571	5.957281e-05	0.002032098	0.005335493	6.665886e-05	1.015053e-05
	0.0001017571	5.957281e-05	-0.00818699	-0.008207368	-3.82791e-06	0.0006137806	0.001967592	0.005382136
	0.002032098	0.005335493	-3.82791e-06	0.0006137806	-0.007906547	-0.008193793	0.0001020086	5.997554e-05
	6.665886e-05	1.015053e-05	0.001967592	0.005382136	0.0001020086	5.997554e-05	-0.008151433	-0.008035858
2.4e+08	-0.0115067	-0.02397902	0.0001085752	4.713517e-05	0.003316432	0.007066915	6.63368e-05	1.807011e-06
	0.0001085752	4.713517e-05	-0.01202242	-0.02368311	6.004768e-05	0.0005994694	0.003155483	0.007164547
	0.003316432	0.007066915	6.004768e-05	0.0005994694	-0.01142447	-0.02378539	0.0001087905	4.760059e-05
	6.63368e-05	1.807011e-06	0.003155483	0.007164547	0.0001087905	4.760059e-05	-0.01202032	-0.02349636
2.5e+08	-0.01937993	-0.03796856	0.0001141601	3.343563e-05	0.005025608	0.008347871	6.502601e-05	-6.307134e-06
	0.0001141601	3.343563e-05	-0.02018287	-0.0374568	0.0001122223	0.0005857865	0.004778631	0.008525237
	0.005025608	0.008347871	0.0001122223	0.0005857865	-0.01929008	-0.03777032	0.0001143886	3.401151e-05
	6.502601e-05	-6.307134e-06	0.004778631	0.008525237	0.0001143886	3.401151e-05	-0.02021335	-0.0372444
2.6e+08	-0.03094722	-0.04919216	0.0001180554	1.853917e-05	0.007004562	0.009075061	6.278415e-05	-1.408329e-05
	0.0001180554	1.853917e-05	-0.03198743	-0.04837919	0.0001578385	0.0005782829	0.006690438	0.009357621
	0.007004562	0.009075061	0.0001578385	0.0005782829	-0.03085106	-0.04899126	0.0001183701	1.924712e-05
	6.278415e-05	-1.408329e-05	0.006690438	0.009357621	0.0001183701	1.924712e-05	-0.03204653	-0.04813106
2.7e+08	-0.04525956	-0.05673568	0.0001198139	2.722479e-06	0.009075992	0.009198383	5.967531e-05	-2.142733e-05
	0.0001198139	2.722479e-06	-0.04646222	-0.05555219	0.000204021	0.0005792392	0.008720971	0.009605806
	0.009075992	0.009198383	0.000204021	0.0005792392	-0.04515893	-0.05653348	0.000120299	3.548181e-06
	5.967531e-05	-2.142733e-05	0.008720971	0.009605806	0.000120299	3.548181e-06	-0.04654292	-0.05525948
2.8e+08	-0.06115854	-0.05999899	0.0001190962	-1.355172e-05	0.01105881	0.008723927	5.576699e-05	-2.825607e-05
	0.0001190962	-1.355172e-05	-0.06242933	-0.0583989	0.0002582237	0.0005871492	0.01069468	0.009267967
	0.01105881	0.008723927	0.0002582237	0.0005871492	-0.06105561	-0.0597961	0.0001198299	-1.266171e-05
	5.576699e-05	-2.825607e-05	0.01069468	0.009267967	0.0001198299	-1.266171e-05	-0.06252207	-0.05805489
2.9e+08	-0.07737772	-0.05873677	0.0001157407	-2.970135e-05	0.01278568	0.007710508	5.112923e-05	-3.449388e-05
	0.0001157407	-2.970135e-05	-0.07861026	-0.05670252	0.0003265353	0.000596973	0.01244732	0.008393464
	0.01278568	0.007710508	0.0003265353	0.000596973	-0.07727467	-0.05853302	0.0001167788	-2.883543e-05
	5.112923e-05	-3.449388e-05	0.01244732	0.008393464	0.0001167788	-2.883543e-05	-0.07870353	-0.05630337
3e+08	-0.09264809	-0.05306725	0.0001097929	-4.511187e-05	0.01411742	0.006260997	4.583596e-05	-4.007034e-05
	0.0001097929	-4.511187e-05	-0.09373261	-0.05061264	0.0004122843	0.0006010813	0.01383995	0.00707495
	0.01411742	0.006260997	0.0004122843	0.0006010813	-0.09254683	-0.05286171	0.0001111545	-4.438229e-05
	4.583596e-05	-4.007034e-05	0.01383995	0.00707495	0.0001111545	-4.438229e-05	-0.0938139	-0.05015795
3.1e+08	-0.1057978	-0.04345097	0.0001014537	-5.918626e-05	0.01495301	0.004510383	3.996763e-05	-4.491978e-05
	0.0001014537	-5.918626e-05	-0.1066305	-0.04062146	0.0005173988	0.0005839924	0.01476876	0.005437297
	0.01495301	0.004510383	0.0005173988	0.0005839924	-0.1056998	-0.04324217	0.0001031127	-5.871365e-05
	3.996763e-05	-4.491978e-05	0.01476876	0.005437297	0.0001031127	-5.871365e-05	-0.1066873	-0.04011447
3.2e+08	-0.1158387	-0.03064445	9.108303e-05	-7.142383e-05	0.01523493	0.002612561	3.361313e-05	-4.898298e-05
	9.108303e-05	-7.142383e-05	-0.1163307	-0.02751468	0.0006362491	0.000529794	0.01517053	0.003625289
	0.01523493	0.002612561	0.0006362491	0.000529794	-0.1157448	-0.03043059	9.296597e-05	-7.131882e-05
	3.361313e-05	-4.898298e-05	0.01517053	0.003625289	9.296597e-05	-7.131882e-05	-0.1163515	-0.02696226
3.3e+08	-0.1220345	-0.01563487	7.925465e-05	-8.158364e-05	0.01495041	0.0007274724	2.686787e-05	-5.221116e-05
	7.925465e-05	-8.158364e-05	-0.1221198	-0.01230368	0.0007550299	0.000445733	0.01502421	0.001791595
	0.01495041	0.0007274724	0.0007550299	0.000445733	-0.1219448	-0.01541397	8.12493e-05	-8.192689e-05
	2.686787e-05	-5.221116e-05	0.01502421	0.001791595	8.12493e-05	-8.192689e-05	-0.1220954	-0.01171595
3.4e+08	-0.1239477	0.0004379906	6.649745e-05	-8.952987e-05	0.01412947	-0.000990412	1.983329e-05	-5.456478e-05
	6.649745e-05	-8.952987e-05	-0.1235898	0.003854591	0.0008639595	0.000329353	0.01434958	8.596085e-05
	0.01412947	-0.000990412	0.0008639595	0.000329353	-0.1238618	0.0006677902	6.846472e-05	-9.035864e-05
	1.983329e-05	-5.456478e-05	0.01434958	8.596084e-05	6.846472e-05	-9.035864e-05	-0.1235141	0.004464981
3.5e+08	-0.121465	0.0163666	5.332175e-05	-9.528791e-05	0.0128409	-0.002401915	1.261627e-05	-5.601803e-05
	5.332175e-05	-9.528791e-05	-0.1206611	0.01974408	0.0009523494	0.0001819882	0.01320404	-0.001354104
	0.0128409	-0.002401915	0.0009523494	0.0001819882	-0.1213818	0.01660688	5.511421e-05	-9.658866e-05
	1.261627e-05	-5.601803e-05	0.01320404	-0.001354104	5.511421e-05	-9.658866e-05	-0.1205316	0.02036291
3.6e+08	-0.1148007	0.03096226	4.017034e-05	-9.902195e-05	0.01118677	-0.003391392	5.325934e-06	-5.655712e-05
	4.017034e-05	-9.902195e-05	-0.1135836	0.0341773	0.00101011	8.880908e-06	0.011678	-0.002411297
	0.01118677	-0.003391392	0.00101011	8.880908e-06	-0.1147188	0.03121419	4.165214e-05	-0.0001007292
	5.325934e-06	-5.655712e-05	0.011678	-0.002411297	4.165214e-05	-0.0001007292	-0.1134021	0.03478988
3.7e+08	-0.1044796	0.04313912	2.737965e-05	-0.0001010005	0.009295939	-0.003873679	-1.927499e-06	-5.617953e-05
	2.737965e-05	-0.0001010005	-0.1029166	0.0460797	0.001029195	-0.0001812421	0.009889362	-0.002995479
	0.009295939	-0.003873679	0.001029195	-0.0001812421	-0.1043972	0.0434034	2.844591e-05	-0.0001030045
	-1.927499e-06	-5.617953e-05	0.009889362	-0.002995479	2.844591e-05	-0.0001030045	-0.1026891	0.04667206
3.8e+08	-0.0912997	0.05199166	1.515225e-05	-0.0001015523	0.007316346	-0.003799948	-9.032791e-06	-5.48942e-05
	1.515225e-05	-0.0001015523	-0.0894893	0.05456673	0.001004797	-0.0003771124	0.007976742	-0.003049798
	0.007316346	-0.003799948	0.001004797	-0.0003771124	-0.09121495	0.05226846	1.574413e-05	-0.0001037144
	-9.032791e-06	-5.48942e-05	0.007976742	-0.003049798	1.574413e-05	-0.0001037144	-0.08922548	0.05512685
3.9e+08	-0.07627688	0.05686149	3.543703e-06	-0.0001010129	0.005405977	-0.003162337	-1.587759e-05	-5.272205e-05
	3.543703e-06	-0.0001010129	-0.07434204	0.05900949	0.0009361089	-0.0005662534	0.006091278	-0.00255585
	0.005405977	-0.003162337	0.0009361089	-0.0005662534	-0.07618788	0.05715039	3.656564e-06	-0.0001031849
	-1.587759e-05	-5.272205e-05	0.006091278	-0.00255585	3.656564e-06	-0.0001031849	-0.07405509	0.05952838
4e+08	-0.06057313	0.05738917	-7.530208e-06	-9.966434e-05	0.003722164	-0.001996814	-2.234862e-05	-4.969762e-05
	-7.530208e-06	-9.966434e-05	-0.05865264	0.05908477	0.0008265472	-0.0007365263	0.004386596	-0.001537298
	0.003722164	-0.001996814	0.0008265472	-0.0007365263	-0.0604781	0.05768922	-7.847316e-06	-0.0001017112
	-2.234862e-05	-4.969762e-05	0.004386596	-0.001537298	-7.847316e-06	-0.0001017112	-0.05835803	0.05955736
4.1e+08	-0.04541146	0.05354673	-1.826072e-05	-9.767753e-05	0.002409425	-0.0003833801	-2.833304e-05	-4.587162e-05
	-1.826072e-05	-9.767753e-05	-0.04364927	0.05480488	0.0006833558	-0.0008776746	0.003007089	-6.100678e-05
	0.002409425	-0.0003833801	0.0006833558	-0.0008776746	-0.04530895	0.05385639	-1.89147e-05	-9.949768e-05
	-2.833304e-05	-4.587162e-05	0.003007089	-6.100678e-05	-1.89147e-05	-9.949768e-05	-0.04336371	0.05523063
4.2e+08	-0.03198259	0.04564645	-2.888635e-05	-9.506908e-05	0.00158649	0.001557351	-3.372166e-05	-4.131339e-05
	-2.888635e-05	-9.506908e-05	-0.03051609	0.04652339	0.0005166329	-0.0009826194	0.00207512	0.001765347
	0.00158649	0.001557351	0.0005166329	-0.0009826194	-0.0318716	0.04596374	-2.975774e-05	-9.660968e-05
	-3.372166e-05	-4.131339e-05	0.00207512	0.001765347	-2.975774e-05	-9.660968e-05	-0.03025612	0.04690656
4.3e+08	-0.02134989	0.03432311	-3.96131e-05	-9.168818e-05	0.001333866	0.003671951	-3.841389e-05	-3.611218e-05
	-3.96131e-05	-9.168818e-05	-0.02029791	0.03491384	0.0003379042	-0.00104828	0.001678466	0.0038
	0.001333866	0.003671951	0.0003379042	-0.00104828	-0.02123008	0.0346457	-4.057902e-05	-9.295167e-05
	-3.841389e-05	-3.611218e-05	0.001678466	0.0038	-4.057902e-05	-9.295167e-05	-0.0200786	0.03526336
4.4e+08	-0.0143608	0.02048854	-5.053078e-05	-8.72437e-05	0.001683746	0.005786436	-4.232368e-05	-3.037611e-05
	-5.053078e-05	-8.72437e-05	-0.01381258	0.02092077	0.0001584638	-0.001075753	0.001859798	0.005878341
	0.001683746	0.005786436	0.0001584638	-0.001075753	-0.01423259	0.02081396	-5.148899e-05	-8.828397e-05
	-4.232368e-05	-3.037611e-05	0.001859798	0.005878341	-5.148899e-05	-8.828397e-05	-0.01364618	0.02124974
4.5e+08	-0.01157356	0.005260527	-6.154743e-05	-8.13727e-05	0.002614177	0.007722176	-4.5385e-05	-2.422858e-05
	-6.154743e-05	-8.13727e-05	-0.01157969	0.005685382	-1.222031e-05	-0.001069794	0.002610141	0.007827936
	0.002614177	0.007722176	-1.222031e-05	-0.001069794	-0.01143823	0.005586461	-6.243703e-05	-8.228103e-05
	-4.5385e-05	-2.422858e-05	0.002610141	0.007827936	-6.243703e-05	-8.228103e-05	-0.0114745	0.006010191
4.6e+08	-0.01320766	-0.01012858	-7.236315e-05	-7.373756e-05	0.004049028	0.009313694	-4.755557e-05	-1.780246e-05
	-7.236315e-05	-7.373756e-05	-0.01377395	-0.009548406	-0.0001677411	-0.00103768	0.00386788	0.009485656
	0.004049028	0.009313694	-0.0001677411	-0.00103768	-0.0130673	-0.009804017	-7.31774e-05	-7.46206e-05
	-4.755557e-05	-1.780246e-05	0.00386788	0.009485656	-7.31774e-05	-7.46206e-05	-0.01373342	-0.009209275
4.7e+08	-0.01912392	-0.02443524	-8.249519e-05	-6.412861e-05	0.005864388	0.01042592	-4.881778e-05	-1.123358e-05
	-8.249519e-05	-6.412861e-05	-0.02020903	-0.02353894	-0.0003053777	-0.0009876583	0.005524019	0.01071455
	0.005864388	0.01042592	-0.0003053777	-0.0009876583	-0.01898126	-0.02411319	-8.328358e-05	-6.508237e-05
	-4.881778e-05	-1.123358e-05	0.005524019	0.01071455	-8.328358e-05	-6.508237e-05	-0.02023128	-0.02316634
