!$
! Info: Touchstone file created by Circ.  Input file=Tx_14in_Rx_85ohms_TxVia_35mils_RxVia_45mils.circ
!$
# Hz S RI R 50
0	0.01126745	1.714294e-25	-7.531074e-05	3.746584e-24	9.470145e-05	2.111662e-23	-7.532245e-05	5.27173e-24
	-7.531076e-05	3.749282e-24	0.01126516	2.051807e-25	-7.529024e-05	1.431212e-24	9.406958e-05	2.549864e-23
	9.520976e-05	2.141188e-23	-7.52902e-05	1.42653e-24	0.01127952	1.665379e-25	-7.530759e-05	3.653309e-24
	-7.532247e-05	5.273588e-24	9.222127e-05	2.562415e-23	-7.530762e-05	3.65715e-24	0.01127825	1.922532e-25
1e+07	0.01569331	-0.01366431	-0.0003266326	-2.170245e-05	0.0004628315	0.002516563	-0.0002094723	0.0001546016
	-0.0003266326	-2.170244e-05	0.01381623	-0.01375175	-1.082957e-05	-2.065114e-05	0.000565209	0.002519238
	0.0004628608	0.002516557	-1.082957e-05	-2.065114e-05	0.01384566	-0.01398768	-6.999291e-05	-1.862724e-05
	-0.0002094723	0.0001546015	0.0005651485	0.002519249	-6.999291e-05	-1.862724e-05	0.01378602	-0.01373483
2e+07	0.01285717	-0.03130727	-0.0002889184	4.777337e-05	0.001549386	0.004801527	-0.0001851994	0.0001582497
	-0.0002889184	4.777338e-05	0.01120867	-0.0307621	-8.985752e-06	-4.766855e-06	0.001683392	0.004714751
	0.001549386	0.004801505	-8.985754e-06	-4.766853e-06	0.01102452	-0.03113264	-6.076519e-05	1.409044e-05
	-0.0001851994	0.0001582497	0.001683384	0.004714786	-6.076519e-05	1.409044e-05	0.01119132	-0.03071589
3e+07	0.003863441	-0.04818594	-0.0002736282	4.793906e-05	0.003274813	0.006555663	-0.0001399703	0.0001779552
	-0.0002736282	4.793906e-05	0.002396332	-0.04734706	-7.80364e-06	-8.571914e-08	0.003342631	0.006457713
	0.003274806	0.006555661	-7.80364e-06	-8.5719e-08	0.002079825	-0.04772975	-6.017324e-05	1.170542e-05
	-0.0001399703	0.0001779552	0.003342631	0.006457718	-6.017324e-05	1.170542e-05	0.002387663	-0.04728365
4e+07	-0.009922519	-0.06194352	-0.0002605985	5.956828e-05	0.005377947	0.007703227	-8.706505e-05	0.000177652
	-0.0002605985	5.956828e-05	-0.01122477	-0.06088253	-6.524418e-06	2.669633e-06	0.005383422	0.00762136
	0.005377948	0.007703231	-6.524418e-06	2.669633e-06	-0.01161782	-0.06124806	-5.998687e-05	1.397476e-05
	-8.706505e-05	0.000177652	0.005383416	0.007621358	-5.998687e-05	1.397476e-05	-0.01122759	-0.06080454
5e+07	-0.02709192	-0.0712995	-0.0002475335	7.610873e-05	0.007662414	0.00817664	-3.903611e-05	0.0001531441
	-0.0002475335	7.610873e-05	-0.0282351	-0.0700479	-5.11857e-06	4.560486e-06	0.007613395	0.008131972
	0.007662416	0.008176641	-5.118571e-06	4.560485e-06	-0.02866385	-0.07039389	-5.927817e-05	1.872542e-05
	-3.903611e-05	0.0001531441	0.007613392	0.008131972	-5.927817e-05	1.872542e-05	-0.02823422	-0.0699556
6e+07	-0.04610169	-0.07552775	-0.0002328835	9.499202e-05	0.009922979	0.007968715	-7.583752e-06	0.0001077429
	-0.0002328835	9.499202e-05	-0.04708207	-0.07410345	-3.589762e-06	5.90123e-06	0.009831693	0.007978027
	0.009922977	0.007968715	-3.589762e-06	5.901231e-06	-0.04751987	-0.07444038	-5.735732e-05	2.489647e-05
	-7.583753e-06	0.0001077429	0.009831695	0.007978026	-5.735732e-05	2.489647e-05	-0.04707863	-0.07399587
7e+07	-0.06536135	-0.07440075	-0.0002156363	0.0001145429	0.01196713	0.0071317	-1.659172e-06	4.976611e-05
	-0.0002156363	0.0001145429	-0.06616706	-0.07281883	-2.716171e-06	6.234828e-06	0.01184958	0.00720706
	0.01196712	0.007131701	-2.71617e-06	6.234828e-06	-0.06660008	-0.07316154	-5.382594e-05	3.16225e-05
	-1.659174e-06	4.976611e-05	0.01184959	0.007207056	-5.382594e-05	3.16225e-05	-0.06616101	-0.07269449
8e+07	-0.0833461	-0.06815118	-0.0001951978	0.0001333595	0.0136318	0.005768097	-2.613344e-05	-9.413497e-06
	-0.0001951978	0.0001333595	-0.08395959	-0.06643001	-2.194228e-06	6.233113e-06	0.01350675	0.005916225
	0.01363179	0.005768099	-2.194227e-06	6.233112e-06	-0.08438384	-0.06679178	-4.857975e-05	3.811099e-05
	-2.613344e-05	-9.413495e-06	0.01350676	0.005916218	-4.857975e-05	3.811099e-05	-0.08394974	-0.06628751
9e+07	-0.09870413	-0.05741543	-0.0001711932	0.0001502189	0.0147948	0.004017506	-8.157626e-05	-5.746972e-05
	-0.0001711932	0.0001502189	-0.09910589	-0.05558055	-1.669507e-06	6.219493e-06	0.01468255	0.004239352
	0.01479479	0.004017509	-1.669506e-06	6.219492e-06	-0.09952217	-0.05596886	-4.175998e-05	4.369527e-05
	-8.157626e-05	-5.746972e-05	0.01468255	0.004239346	-4.175998e-05	4.369527e-05	-0.09909013	-0.05541914
1e+08	-0.110346	-0.04315745	-0.0001420194	0.0001643181	0.01538178	0.002042318	-0.0001687805	-8.380494e-05
	-0.0001420194	0.0001643181	-0.1105217	-0.04124432	-1.199277e-06	6.152032e-06	0.01530454	0.002333582
	0.01538178	0.002042317	-1.199277e-06	6.152032e-06	-0.1109183	-0.04165556	-3.350502e-05	4.794596e-05
	-0.0001687805	-8.380494e-05	0.01530454	0.002333582	-3.350502e-05	4.794596e-05	-0.1104977	-0.04106432
1.1e+08	-0.117508	-0.02658344	-0.0001123701	0.0001806342	0.01536272	7.506799e-06	-0.0002657512	-9.85941e-05
	-0.0001123701	0.0001806342	-0.1174445	-0.02462019	-6.827263e-07	5.915901e-06	0.01533914	0.0003460187
	0.01536272	7.50671e-06	-6.827263e-07	5.915901e-06	-0.1178278	-0.0251186	-2.492915e-05	5.124541e-05
	-0.0002657512	-9.85941e-05	0.01533914	0.0003460187	-2.492915e-05	5.124541e-05	-0.1174091	-0.02442275
1.2e+08	-0.1197881	-0.009018906	-8.372535e-05	0.0001917011	0.01475126	-0.001913922	-0.0003581603	-7.558657e-05
	-8.372535e-05	0.0001917011	-0.1194693	-0.007055877	-1.696882e-07	5.66663e-06	0.01478614	-0.001545521
	0.01475126	-0.001913922	-1.696882e-07	5.66663e-06	-0.1198973	-0.007628866	-1.657151e-05	5.263416e-05
	-0.0003581603	-7.558657e-05	0.01478614	-0.001545521	-1.657151e-05	5.263416e-05	-0.1194195	-0.006843163
1.3e+08	-0.1171629	0.008158975	-5.507907e-05	0.0001981433	0.01360915	-0.003567087	-0.0004396086	-1.790868e-05
	-5.507907e-05	0.0001981433	-0.1165906	0.01006243	2.88876e-07	5.390501e-06	0.01370502	-0.003187133
	0.01360915	-0.003567087	2.88876e-07	5.390501e-06	-0.117091	0.009447695	-8.702394e-06	5.238491e-05
	-0.0004396086	-1.790868e-05	0.01370502	-0.003187133	-8.702394e-06	5.238491e-05	-0.116524	0.01028672
1.4e+08	-0.1099769	0.0236339	-2.689236e-05	0.0002002483	0.01203326	-0.004819925	-0.0005000679	6.867113e-05
	-2.689236e-05	0.0002002483	-0.1091711	0.02541545	6.783641e-07	5.103416e-06	0.01218761	-0.004447471
	0.01203326	-0.004819925	6.783641e-07	5.103416e-06	-0.1097525	0.02479986	-1.671463e-06	5.08241e-05
	-0.0005000679	6.867113e-05	0.01218761	-0.004447471	-1.671463e-06	5.08241e-05	-0.1090865	0.02564639
1.5e+08	-0.09891175	0.03624148	2.723092e-07	0.0001983812	0.01015068	-0.005570088	-0.0005315853	0.0001751659
	2.723092e-07	0.0001983812	-0.09791116	0.03784167	9.992376e-07	4.828271e-06	0.01035531	-0.005223336
	0.01015068	-0.005570088	9.992376e-07	4.828271e-06	-0.09856374	0.03726746	4.29233e-06	4.83645e-05
	-0.0005315853	0.0001751659	0.01035531	-0.005223336	4.29233e-06	4.83645e-05	-0.0978092	0.03807362
1.6e+08	-0.08493301	0.04504996	2.592173e-05	0.0001930065	0.008111584	-0.005751455	-0.0005298011	0.0002904465
	2.592173e-05	0.0001930065	-0.08379508	0.04641848	1.265356e-06	4.586593e-06	0.0083528	-0.005445985
	0.008111584	-0.005751455	1.265356e-06	4.586593e-06	-0.08449209	0.04592317	9.12171e-06	4.545884e-05
	-0.0005298011	0.0002904465	0.0083528	-0.005445985	9.12171e-06	4.545884e-05	-0.08367847	0.04664581
1.7e+08	-0.06922029	0.04942671	4.970274e-05	0.0001846538	0.006080399	-0.005339789	-0.0004946102	0.0004027833
	4.970274e-05	0.0001846538	-0.06801845	0.0505286	1.500646e-06	4.39222e-06	0.006339787	-0.005086842
	0.006080399	-0.005339789	1.500646e-06	4.39222e-06	-0.06871863	0.05013947	1.292345e-05	4.253817e-05
	-0.0004946102	0.0004027833	0.006339787	-0.005086842	1.292345e-05	4.253817e-05	-0.06789189	0.05074643
1.8e+08	-0.05308083	0.04908629	7.142889e-05	0.0001738592	0.004225022	-0.004356828	-0.0004300967	0.0005015214
	7.142889e-05	0.0001738592	-0.05189985	0.0499072	1.73399e-06	4.247322e-06	0.004480792	-0.004161868
	0.004225022	-0.004356828	1.73399e-06	4.247322e-06	-0.05255153	0.04963676	1.59645e-05	3.994382e-05
	-0.0004300967	0.0005015214	0.004480792	-0.004161868	1.59645e-05	3.994382e-05	-0.0517698	0.05011218
1.9e+08	-0.03785132	0.04411534	9.10708e-05	0.0001610983	0.002703965	-0.002871739	-0.0003437823	0.0005786115
	9.10708e-05	0.0001610983	-0.03678106	0.04466537	1.993218e-06	4.141377e-06	0.002932756	-0.002733443
	0.002703965	-0.002871739	1.993218e-06	4.141377e-06	-0.03732735	0.04450816	1.86282e-05	3.786375e-05
	-0.0003437823	0.0005786115	0.002932756	-0.002733443	1.86282e-05	3.786375e-05	-0.03665517	0.04485623
2e+08	-0.02479377	0.03497038	0.0001087113	0.0001467279	0.001652265	-0.0009986597	-0.0002452992	0.0006297269
	0.0001087113	0.0001467279	-0.02392154	0.03528584	2.299633e-06	4.052959e-06	0.001831237	-0.0009084842
	0.001652265	-0.0009986597	2.299633e-06	4.052959e-06	-0.02430646	0.03521696	2.134098e-05	3.628837e-05
	-0.0002452992	0.0006297269	0.001831237	-0.0009084842	2.134098e-05	3.628837e-05	-0.02380792	0.0354638
2.1e+08	-0.01499287	0.02244582	0.0001244736	0.0001309551	0.001167564	0.001110584	-0.0001446935	0.0006547503
	0.0001244736	0.0001309551	-0.01439535	0.02258847	2.66423e-06	3.953598e-06	0.001276617	0.00116819
	0.001167564	0.001110584	2.66423e-06	3.953598e-06	-0.01457028	0.02256411	2.447911e-05	3.500226e-05
	-0.0001446935	0.0006547503	0.001276617	0.00116819	2.447911e-05	3.500226e-05	-0.01430178	0.02275733
2.2e+08	-0.009264587	0.00761211	0.0001384394	0.0001138456	0.001298471	0.00327883	-5.06603e-05	0.000657507
	0.0001384394	0.0001138456	-0.008999996	0.007665825	3.086073e-06	3.81247e-06	0.001322373	0.003325528
	0.001298471	0.00327883	3.086073e-06	3.81247e-06	-0.008929861	0.007625825	2.827505e-05	3.36218e-05
	-5.06603e-05	0.000657507	0.001322373	0.003325528	2.827505e-05	3.36218e-05	-0.008933101	0.007831845
2.3e+08	-0.008085511	-0.00827231	0.0001505797	9.537537e-05	0.002037373	0.005320127	3.095478e-05	0.0006447672
	0.0001505797	9.537537e-05	-0.00818699	-0.008207368	3.552628e-06	3.6009e-06	0.001967592	0.005382136
	0.002037373	0.005320127	3.552628e-06	3.6009e-06	-0.007855411	-0.008334974	3.274824e-05	3.167717e-05
	3.095478e-05	0.0006447672	0.001967592	0.005382136	3.274824e-05	3.167717e-05	-0.008151433	-0.008035858
2.4e+08	-0.01155149	-0.02386789	0.0001607219	7.55104e-05	0.003319447	0.007058545	9.808808e-05	0.0006246956
	0.0001607219	7.55104e-05	-0.01202242	-0.02368311	4.041494e-06	3.296114e-06	0.003155483	0.007164547
	0.003319447	0.007058545	4.041494e-06	3.296114e-06	-0.01143538	-0.02397598	3.768264e-05	2.87219e-05
	9.808808e-05	0.0006246956	0.003155483	0.007164547	3.768264e-05	2.87219e-05	-0.01202032	-0.02349636
2.5e+08	-0.01937093	-0.03786928	0.0001685632	5.429526e-05	0.005028577	0.008346588	0.0001526122	0.0006050516
	0.0001685632	5.429526e-05	-0.02018287	-0.0374568	4.522918e-06	2.884077e-06	0.004778631	0.008525237
	0.005028577	0.008346588	4.522918e-06	2.884077e-06	-0.01937026	-0.03799108	4.266064e-05	2.444267e-05
	0.0001526122	0.0006050516	0.004778631	0.008525237	4.266064e-05	2.444267e-05	-0.02021335	-0.0372444
2.6e+08	-0.03089391	-0.04911701	0.0001737284	3.192072e-05	0.007009576	0.009080357	0.0001996988	0.0005915147
	0.0001737284	3.192072e-05	-0.03198743	-0.04837919	4.962994e-06	2.361592e-06	0.006690438	0.009357621
	0.007009576	0.009080357	4.962994e-06	2.361592e-06	-0.03100236	-0.0492221	4.71469e-05	1.873933e-05
	0.0001996988	0.0005915147	0.006690438	0.009357621	4.71469e-05	1.873933e-05	-0.03204653	-0.04813106
2.7e+08	-0.04517375	-0.0566937	0.0001758538	8.752237e-06	0.009084862	0.009209229	0.0002465173	0.0005864761
	0.0001758538	8.752237e-06	-0.04646222	-0.05555219	5.327513e-06	1.737478e-06	0.008720971	0.009605806
	0.009084862	0.009209229	5.327513e-06	1.737478e-06	-0.04537784	-0.0567549	5.059905e-05	1.175409e-05
	0.0002465173	0.0005864761	0.008720971	0.009605806	5.059905e-05	1.175409e-05	-0.04654292	-0.05525948
2.8e+08	-0.0610534	-0.05999566	0.0001746726	-1.468816e-05	0.01107295	0.008738894	0.0003005727	0.0005885229
	0.0001746726	-1.468816e-05	-0.06242933	-0.0583989	5.586464e-06	1.032407e-06	0.01069468	0.009267967
	0.01107295	0.008738894	5.586464e-06	1.032407e-06	-0.06133373	-0.05999067	5.257595e-05	3.844622e-06
	0.0003005727	0.0005885229	0.01069468	0.009267967	5.257595e-05	3.844622e-06	-0.06252207	-0.05805489
2.9e+08	-0.07726681	-0.05877388	0.0001700772	-3.777691e-05	0.01280604	0.007727897	0.0003680078	0.0005926941
	0.0001700772	-3.777691e-05	-0.07861026	-0.05670252	5.718522e-06	2.768753e-07	0.01244732	0.008393464
	0.01280604	0.007727897	5.718522e-06	2.768753e-07	-0.07759952	-0.05868651	5.281625e-05	-4.487289e-06
	0.0003680078	0.0005926941	0.01244732	0.008393464	5.281625e-05	-4.487289e-06	-0.07870353	-0.05630337
3e+08	-0.0925444	-0.05314306	0.0001621467	-5.986288e-05	0.01414447	0.006278974	0.0004522089	0.0005914187
	0.0001621467	-5.986288e-05	-0.09373261	-0.05061264	5.714612e-06	-4.928321e-07	0.01383995	0.00707495
	0.01414447	0.006278974	5.714612e-06	-4.928321e-07	-0.09290296	-0.052964	5.127296e-05	-1.268913e-05
	0.0004522089	0.0005914187	0.01383995	0.00707495	5.127296e-05	-1.268913e-05	-0.0938139	-0.05015795
3.1e+08	-0.105713	-0.0435606	0.0001511386	-8.034011e-05	0.01498672	0.004527105	0.0005529611	0.0005759033
	0.0001511386	-8.034011e-05	-0.1066305	-0.04062146	5.579474e-06	-1.240196e-06	0.01476876	0.005437297
	0.01498672	0.004527105	5.579474e-06	-1.240196e-06	-0.10607	-0.04328775	4.810307e-05	-2.024911e-05
	0.0005529611	0.0005759033	0.01476876	0.005437297	4.810307e-05	-2.024911e-05	-0.1066873	-0.04011447
3.2e+08	-0.1157823	-0.03078044	0.0001374527	-9.870355e-05	0.01527482	0.002626282	0.0006662417	0.0005377239
	0.0001374527	-9.870355e-05	-0.1163307	-0.02751468	5.330468e-06	-1.934315e-06	0.01517053	0.003625289
	0.01527482	0.002626282	5.330468e-06	-1.934315e-06	-0.1161114	-0.03041873	4.362322e-05	-2.676675e-05
	0.0006662417	0.0005377239	0.01517053	0.003625289	4.362322e-05	-2.676675e-05	-0.1163515	-0.02696226
3.3e+08	-0.1220137	-0.01578779	0.0001215838	-0.0001145832	0.01499558	0.0007366412	0.0007846597	0.0004703747
	0.0001215838	-0.0001145832	-0.1221198	-0.01230368	4.993784e-06	-2.554719e-06	0.01502421	0.001791595
	0.01499558	0.0007366412	4.993784e-06	-2.554719e-06	-0.1222908	-0.01534862	3.824768e-05	-3.199501e-05
	0.0007846597	0.0004703747	0.01502421	0.001791595	3.824768e-05	-3.199501e-05	-0.1220954	-0.01171595
3.4e+08	-0.1239668	0.000278845	0.0001039839	-0.0001276179	0.01417868	-0.0009870725	0.0008967123	0.0003519812
	0.0001039839	-0.0001276179	-0.1235898	0.003854591	4.601089e-06	-3.093792e-06	0.01434958	8.596085e-05
	0.01417868	-0.0009870725	4.601089e-06	-3.093792e-06	-0.1241721	0.0007784804	3.23404e-05	-3.571478e-05
	0.0008967123	0.0003519812	0.01434958	8.596084e-05	3.23404e-05	-3.571478e-05	-0.1235141	0.004464981
3.5e+08	-0.1215254	0.01621249	8.529619e-05	-0.0001378008	0.0128926	-0.002405332	0.0009876483	0.0001994805
	8.529619e-05	-0.0001378008	-0.1206611	0.01974408	4.177443e-06	-3.557924e-06	0.01320404	-0.001354104
	0.0128926	-0.002405332	4.177443e-06	-3.557924e-06	-0.1216443	0.01675118	2.642369e-05	-3.808317e-05
	0.0009876483	0.0001994805	0.01320404	-0.001354104	2.642369e-05	-3.808317e-05	-0.1205316	0.02036291
3.6e+08	-0.1149007	0.03082425	6.605041e-05	-0.0001451962	0.01123923	-0.003402078	0.001047214	2.096397e-05
	6.605041e-05	-0.0001451962	-0.1135836	0.0341773	3.74026e-06	-3.961654e-06	0.011678	-0.002411297
	0.01123923	-0.003402078	3.74026e-06	-3.961654e-06	-0.1149247	0.03137763	2.08695e-05	-3.93321e-05
	0.001047214	2.096397e-05	0.011678	-0.002411297	2.08695e-05	-3.93321e-05	-0.1134021	0.03478988
3.7e+08	-0.1046148	0.0430274	4.669026e-05	-0.0001499618	0.009347315	-0.00389168	0.001067328	-0.0001747481
	4.669026e-05	-0.0001499618	-0.1029166	0.0460797	3.296305e-06	-4.323211e-06	0.009889362	-0.002995479
	0.009347315	-0.00389168	3.296305e-06	-4.323211e-06	-0.104542	0.04356973	1.591829e-05	-3.977844e-05
	0.001067328	-0.0001747481	0.009889362	-0.002995479	1.591829e-05	-3.977844e-05	-0.1026891	0.04667206
3.8e+08	-0.09146299	0.05191486	2.755822e-05	-0.000152336	0.007364809	-0.003824819	0.001043153	-0.0003762845
	2.755822e-05	-0.000152336	-0.0894893	0.05456673	2.84146e-06	-4.658972e-06	0.007976742	-0.003049798
	0.007364809	-0.003824819	2.84146e-06	-4.658972e-06	-0.09129855	0.05242077	1.166269e-05	-3.979359e-05
	0.001043153	-0.0003762845	0.007976742	-0.003049798	1.166269e-05	-3.979359e-05	-0.08922548	0.05512685
3.9e+08	-0.07645926	0.05682604	8.875912e-06	-0.000152595	0.005449851	-0.003193142	0.0009738668	-0.0005710564
	8.875912e-06	-0.000152595	-0.07434204	0.05900949	2.363338e-06	-4.978707e-06	0.006091278	-0.00255585
	0.005449851	-0.003193142	2.363338e-06	-4.978707e-06	-0.07621488	0.0572723	8.033352e-06	-3.974423e-05
	0.0009738668	-0.0005710564	0.006091278	-0.00255585	8.033352e-06	-3.974423e-05	-0.07405509	0.05952838
4e+08	-0.0607641	0.05739885	-9.259477e-06	-0.0001510021	0.003760065	-0.002032166	0.0008628855	-0.0007468032
	-9.259477e-06	-0.0001510021	-0.05865264	0.05908477	1.845646e-06	-5.282747e-06	0.004386596	-0.001537298
	0.003760065	-0.002032166	1.845646e-06	-5.282747e-06	-0.06045742	0.05776607	4.807365e-06	-3.99264e-05
	0.0008628855	-0.0007468032	0.004386596	-0.001537298	4.807365e-06	-3.99264e-05	-0.05835803	0.05955736
4.1e+08	-0.04559985	0.05360231	-2.685619e-05	-0.0001477539	0.002440387	-0.000421532	0.0007174745	-0.0008931419
	-2.685619e-05	-0.0001477539	-0.04364927	0.05480488	1.273072e-06	-5.561606e-06	0.003007089	-6.100678e-05
	0.002440387	-0.000421532	1.273072e-06	-5.561606e-06	-0.04525328	0.05387646	1.644405e-06	-4.050186e-05
	0.0007174745	-0.0008931419	0.003007089	-6.100678e-05	1.644405e-06	-4.050186e-05	-0.04336371	0.05523063
4.2e+08	-0.03215741	0.04574559	-4.398297e-05	-0.0001429363	0.001610071	0.001518379	0.0005477769	-0.001002866
	-4.398297e-05	-0.0001429363	-0.03051609	0.04652339	6.354724e-07	-5.797774e-06	0.00207512	0.001765347
	0.001610071	0.001518379	6.354724e-07	-5.797774e-06	-0.03179653	0.04591921	-1.84783e-06	-4.14503e-05
	0.0005477769	-0.001002866	0.00207512	0.001765347	-1.84783e-06	-4.14503e-05	-0.03025612	0.04690656
4.3e+08	-0.0215012	0.0344605	-6.070273e-05	-0.0001365038	0.001350207	0.003634208	0.0003653888	-0.001072773
	-6.070273e-05	-0.0001365038	-0.02029791	0.03491384	-6.946743e-08	-5.968892e-06	0.001678466	0.0038
	0.001350207	0.003634208	-6.946743e-08	-5.968892e-06	-0.02115289	0.03453341	-6.026326e-06	-4.255332e-05
	0.0003653888	-0.001072773	0.001678466	0.0038	-6.026326e-06	-4.255332e-05	-0.0200786	0.03526336
4.4e+08	-0.01448055	0.02065629	-7.699851e-05	-0.0001282952	0.001693573	0.005751859	0.0001817002	-0.00110385
	-7.699851e-05	-0.0001282952	-0.01381258	0.02092077	-8.353154e-07	-6.051306e-06	0.001859798	0.005878341
	0.001693573	0.005751859	-8.353154e-07	-6.051306e-06	-0.01417084	0.02063576	-1.112036e-05	-4.342146e-05
	0.0001817002	-0.00110385	0.001859798	0.005878341	-1.112036e-05	-4.342146e-05	-0.01364618	0.02124974
4.5e+08	-0.01165628	0.005448853	-9.271217e-05	-0.0001180874	0.002618744	0.007692414	6.29587e-06	-0.001100766
	-9.271217e-05	-0.0001180874	-0.01157969	0.005685382	-1.647325e-06	-6.023197e-06	0.002610141	0.007827936
	0.002618744	0.007692414	-1.647325e-06	-6.023197e-06	-0.01140829	0.005349143	-1.715724e-05	-4.356555e-05
	6.29587e-06	-0.001100766	0.002610141	0.007827936	-1.715724e-05	-4.356555e-05	-0.0114745	0.006010191
4.6e+08	-0.01325087	-0.009930537	-0.0001075159	-0.0001056777	0.004050006	0.009289967	-0.0001542842	-0.001070731
	-0.0001075159	-0.0001056777	-0.01377395	-0.009548406	-2.483627e-06	-5.86701e-06	0.00386788	0.009485656
	0.004050006	0.009289967	-2.483627e-06	-5.86701e-06	-0.01308289	-0.01008928	-2.392864e-05	-4.249998e-05
	-0.0001542842	-0.001070731	0.00386788	0.009485656	-2.392864e-05	-4.249998e-05	-0.01373342	-0.009209275
4.7e+08	-0.01912832	-0.02423847	-0.0001209295	-9.097432e-05	0.005863712	0.01040892	-0.0002971771	-0.001021957
	-0.0001209295	-9.097432e-05	-0.02020903	-0.02353894	-3.316658e-06	-5.571388e-06	0.005524019	0.01071455
	0.005863712	0.01040892	-3.316658e-06	-5.571388e-06	-0.01905231	-0.02443184	-3.101069e-05	-3.985359e-05
	-0.0002971771	-0.001021957	0.005524019	0.01071455	-3.101069e-05	-3.985359e-05	-0.02023128	-0.02316634
4.8e+08	-0.0288065	-0.03632435	-0.0001323824	-7.406896e-05	0.007900553	0.01095813	-0.0004231083	-0.0009620123
