!$
! Info: Touchstone file created by Circ.  Input file=Tx_12in_Rx_93ohms_TxVia_35mils_RxVia_45mils.circ
!$
# Hz S RI R 50
0	0.01102002	1.504358e-25	7.56719e-10	1.050833e-27	8.382854e-05	2.065055e-23	2.527196e-09	4.405538e-28
	7.567197e-10	1.050718e-27	0.01101774	1.793703e-25	3.978764e-10	1.534761e-27	8.319632e-05	2.493563e-23
	8.433691e-05	2.093929e-23	3.97876e-10	1.534798e-27	0.0110321	1.461506e-25	7.765838e-10	1.016155e-27
	2.527197e-09	4.405429e-28	8.134806e-05	2.505838e-23	7.765842e-10	1.016118e-27	0.01103083	1.680659e-25
1e+07	0.01627584	-0.0007758707	1.18376e-09	1.190714e-09	0.0004195996	0.00202854	5.192363e-09	5.801036e-09
	1.18376e-09	1.190714e-09	0.01600266	-0.001477263	6.24035e-10	7.539761e-10	0.0004384129	0.002219344
	0.0004196291	0.002028535	6.240349e-10	7.539761e-10	0.01513636	-0.001325557	1.247525e-09	1.266094e-09
	5.192363e-09	5.801036e-09	0.0004383522	0.002219354	1.247525e-09	1.266094e-09	0.01568705	-0.001472716
2e+07	0.01924053	-0.006123162	2.056349e-09	1.766216e-09	0.001263069	0.003989959	9.869153e-09	8.39426e-09
	2.056349e-09	1.766216e-09	0.01820915	-0.007074018	9.009694e-10	1.244762e-09	0.001169863	0.004350219
	0.00126307	0.003989937	9.009694e-10	1.244762e-09	0.01773062	-0.006542643	2.207489e-09	1.85536e-09
	9.869153e-09	8.39426e-09	0.001169854	0.004350254	2.207489e-09	1.85536e-09	0.01797563	-0.006959522
3e+07	0.01948872	-0.01308015	3.086881e-09	1.940766e-09	0.002533216	0.00568043	1.545805e-08	8.920191e-09
	3.086881e-09	1.940765e-09	0.01787643	-0.0138759	1.16306e-09	1.631404e-09	0.002434672	0.006115534
	0.00253321	0.005680428	1.16306e-09	1.631404e-09	0.01772611	-0.01328694	3.334005e-09	2.007616e-09
	1.545805e-08	8.920191e-09	0.002434672	0.00611554	3.334005e-09	2.007616e-09	0.01770192	-0.01373799
4e+07	0.01753327	-0.02013048	4.18651e-09	1.666935e-09	0.004153031	0.007001964	2.146039e-08	7.074414e-09
	4.18651e-09	1.666935e-09	0.01547678	-0.02059215	1.414934e-09	1.9208e-09	0.004109005	0.00746201
	0.004153032	0.007001968	1.414934e-09	1.9208e-09	0.015614	-0.02006513	4.537967e-09	1.672404e-09
	2.146039e-08	7.074414e-09	0.004109	0.007462008	4.537967e-09	1.672404e-09	0.01534547	-0.02045416
5e+07	0.01370324	-0.02660244	5.206046e-09	9.297117e-10	0.006019162	0.007880251	2.706375e-08	2.763478e-09
	5.206046e-09	9.297118e-10	0.01133678	-0.02661507	1.629227e-09	2.114775e-09	0.006017807	0.008348478
	0.006019164	0.007880252	1.629227e-09	2.114774e-09	0.0117159	-0.02623306	5.655884e-09	8.325933e-10
	2.706375e-08	2.763478e-09	0.006017804	0.008348477	5.655884e-09	8.325933e-10	0.01123435	-0.02648817
6e+07	0.008340299	-0.03202949	5.997753e-09	-2.466684e-10	0.008013291	0.008270779	3.145709e-08	-3.850118e-09
	5.997753e-09	-2.466683e-10	0.005801673	-0.03152079	1.78798e-09	2.214598e-09	0.008043457	0.008737951
	0.00801329	0.008270778	1.78798e-09	2.214598e-09	0.006368478	-0.03134606	6.523342e-09	-4.744533e-10
	3.145709e-08	-3.850118e-09	0.00804346	0.00873795	6.523342e-09	-4.744533e-10	0.005715017	-0.03140971
7e+07	0.001824381	-0.0360785	6.418979e-09	-1.778372e-09	0.01001087	0.008160596	3.390289e-08	-1.234431e-08
	6.418979e-09	-1.778372e-09	-0.0007455731	-0.0350119	1.855051e-09	2.250806e-09	0.01006233	0.008621947
	0.01001087	0.008160595	1.855051e-09	2.250806e-09	-5.364333e-05	-0.03508909	6.992076e-09	-2.166191e-09
	3.390289e-08	-1.234431e-08	0.01006234	0.008621944	6.992076e-09	-2.166191e-09	-0.0008281642	-0.03491703
8e+07	-0.005433068	-0.03853336	6.355505e-09	-3.5516e-09	0.01188954	0.007568411	3.380055e-08	-2.21103e-08
	6.355505e-09	-3.5516e-09	-0.007892425	-0.03690423	1.811441e-09	2.252195e-09	0.01195273	0.008021703
	0.01188954	0.007568413	1.811441e-09	2.252195e-09	-0.007144661	-0.03726093	6.938995e-09	-4.120103e-09
	3.380055e-08	-2.21103e-08	0.01195274	0.008021696	6.938995e-09	-4.120104e-09	-0.007981012	-0.03682283
9e+07	-0.01300741	-0.0392902	5.726437e-09	-5.421274e-09	0.01353782	0.006543084	3.073034e-08	-3.237343e-08
	5.726437e-09	-5.421274e-09	-0.01521231	-0.03712173	1.646344e-09	2.252651e-09	0.0136023	0.006986855
	0.01353781	0.006543087	1.646344e-09	2.252651e-09	-0.01448366	-0.03776897	6.276851e-09	-6.17985e-09
	3.073034e-08	-3.237343e-08	0.01360231	0.006986849	6.276851e-09	-6.17985e-09	-0.01531538	-0.03704893
1e+08	-0.02049895	-0.03835894	4.495857e-09	-7.228294e-09	0.01487197	0.005164085	2.44956e-08	-4.224718e-08
	4.495857e-09	-7.228294e-09	-0.02226573	-0.03568516	1.358973e-09	2.288206e-09	0.01491449	0.00559159
	0.01487197	0.005164085	1.358973e-09	2.288206e-09	-0.0216485	-0.03662274	4.96688e-09	-8.171546e-09
	2.44956e-08	-4.224718e-08	0.01491449	0.00559159	4.96688e-09	-8.171546e-09	-0.02239306	-0.03561581
1.1e+08	-0.02749039	-0.03573131	2.721627e-09	-8.767068e-09	0.01577348	0.00356401	1.521826e-08	-5.079481e-08
	2.721627e-09	-8.767068e-09	-0.0286885	-0.03286117	9.795392e-10	2.399165e-09	0.01581267	0.003935304
	0.01577348	0.00356401	9.795392e-10	2.399165e-09	-0.02825689	-0.03398433	3.065921e-09	-9.881357e-09
	1.521826e-08	-5.079481e-08	0.01581267	0.003935304	3.065921e-09	-9.881357e-09	-0.02884402	-0.03277251
1.2e+08	-0.0335367	-0.03167964	4.19649e-10	-9.849758e-09	0.0162001	0.001791613	3.224773e-09	-5.708251e-08
	4.19649e-10	-9.849758e-09	-0.03425492	-0.02873407	5.058427e-10	2.616734e-09	0.01625337	0.002126813
	0.0162001	0.001791613	5.058427e-10	2.616734e-09	-0.03400603	-0.02999485	5.924865e-10	-1.111054e-08
	3.224773e-09	-5.708251e-08	0.01625337	0.002126813	5.924865e-10	-1.111054e-08	-0.03442725	-0.02861692
1.3e+08	-0.03837665	-0.02649374	-2.287481e-09	-1.033037e-08	0.01614507	-2.560879e-05	-1.08897e-08	-6.031809e-08
	-2.287481e-09	-1.033037e-08	-0.03865686	-0.02355437	-3.293529e-11	2.968415e-09	0.01621629	0.0002816221
	0.01614507	-2.560884e-05	-3.293529e-11	2.968415e-09	-0.03860126	-0.02491129	-2.323865e-09	-1.169765e-08
	-1.08897e-08	-6.031809e-08	0.01621629	0.0002816222	-2.323865e-09	-1.169765e-08	-0.03883701	-0.02340396
1.4e+08	-0.04180559	-0.02050404	-5.238903e-09	-1.008618e-08	0.01561913	-0.001766723	-2.630601e-08	-5.986967e-08
	-5.238903e-09	-1.008618e-08	-0.04168637	-0.01764068	-6.012138e-10	3.47439e-09	0.01570996	-0.001483687
	0.01561913	-0.001766723	-6.012138e-10	3.47439e-09	-0.04183085	-0.01904996	-5.511576e-09	-1.150833e-08
	-2.630601e-08	-5.986967e-08	0.01570996	-0.001483687	-5.511576e-09	-1.150833e-08	-0.04186532	-0.01745513
1.5e+08	-0.0437012	-0.01407267	-8.230521e-09	-9.040801e-09	0.01465972	-0.003318627	-4.203057e-08	-5.532999e-08
	-8.230521e-09	-9.040801e-09	-0.04322461	-0.01134734	-1.154211e-09	4.145939e-09	0.01477044	-0.003058818
	0.01465972	-0.003318627	-1.154211e-09	4.145939e-09	-0.04356834	-0.01276298	-8.752642e-09	-1.045758e-08
	-4.203057e-08	-5.532999e-08	0.01477044	-0.003058818	-8.752642e-09	-1.045758e-08	-0.04339363	-0.01112744
1.6e+08	-0.04402908	-0.007574176	-1.104126e-08	-7.174702e-09	0.01332934	-0.004581658	-5.695722e-08	-4.65624e-08
	-1.104126e-08	-7.174702e-09	-0.04324324	-0.005041552	-1.645985e-09	4.980987e-09	0.01345881	-0.004346027
	0.01332934	-0.004581658	-1.645985e-09	4.980987e-09	-0.0437757	-0.006417037	-1.180959e-08	-8.521158e-09
	-5.695722e-08	-4.65624e-08	0.01345881	-0.004346027	-1.180959e-08	-8.521158e-09	-0.04339443	-0.004790549
1.7e+08	-0.0428423	-0.001375283	-1.344523e-08	-4.529961e-09	0.01171182	-0.005474866	-6.99409e-08	-3.372978e-08
	-1.344523e-08	-4.529961e-09	-0.04180239	0.000918171	-2.031317e-09	5.964796e-09	0.01185726	-0.005265508
	0.01171182	-0.005474866	-2.031317e-09	5.964796e-09	-0.04250244	-0.0003725128	-1.443877e-08	-5.740987e-09
	-6.99409e-08	-3.372978e-08	0.01185726	-0.005265508	-1.443877e-08	-5.740987e-09	-0.04192921	0.001194975
1.8e+08	-0.04027638	0.004184501	-1.522917e-08	-1.210799e-09	0.009907375	-0.005940308	-7.987812e-08	-1.730351e-08
	-1.522917e-08	-1.210799e-09	-0.03904448	0.006202083	-2.269179e-09	7.070348e-09	0.01006423	-0.005759705
	0.009907374	-0.005940308	-2.269179e-09	7.070348e-09	-0.0398803	0.0050362	-1.6409e-08	-2.226074e-09
	-7.987812e-08	-1.730351e-08	0.01006423	-0.005759705	-1.6409e-08	-2.226074e-09	-0.03914222	0.006497793
1.9e+08	-0.03653992	0.00881052	-1.620954e-08	2.621011e-09	0.008026704	-0.005946104	-8.578924e-08	1.948977e-09
	-1.620954e-08	2.621011e-09	-0.03518409	0.01052702	-2.326016e-09	8.259686e-09	0.00818863	-0.005796381
	0.008026704	-0.005946104	-2.326016e-09	8.259686e-09	-0.03611402	0.009518489	-1.752005e-08	1.852063e-09
	-8.578924e-08	1.948977e-09	0.00818863	-0.005796381	-1.752005e-08	1.852063e-09	-0.03525013	0.01083372
2e+08	-0.03190176	0.01226796	-1.624769e-08	6.755413e-09	0.0061846	-0.00548809	-8.689673e-08	2.29983e-08
	-1.624769e-08	6.755413e-09	-0.03049421	0.01367129	-2.17855e-09	9.486109e-09	0.006343679	-0.005370313
	0.0061846	-0.00548809	-2.17855e-09	9.486109e-09	-0.0314685	0.0128426	-1.761922e-08	6.269024e-09
	-8.689673e-08	2.29983e-08	0.006343679	-0.005370313	-1.761922e-08	6.269024e-09	-0.03052819	0.01398064
2.1e+08	-0.02667467	0.01439412	-1.526192e-08	1.094719e-08	0.004487071	-0.004597455	-8.269373e-08	4.460745e-08
	-1.526192e-08	1.094719e-08	-0.02528983	0.01548594	-1.815304e-09	1.069672e-08	0.004640381	-0.004503538
	0.004487071	-0.004597455	-1.815304e-09	1.069672e-08	-0.02625259	0.01484802	-1.661154e-08	1.075983e-08
	-8.269373e-08	4.460745e-08	0.004640381	-0.004503538	-1.661154e-08	1.075983e-08	-0.02529365	0.01578977
2.2e+08	-0.02119779	0.01510454	-1.323561e-08	1.493174e-08	0.003037619	-0.003320441	-7.299874e-08	6.540448e-08
	-1.323561e-08	1.493174e-08	-0.01990937	0.01590195	-1.239254e-09	1.183582e-08	0.003181154	-0.003244109
	0.003037619	-0.003320441	-1.239254e-09	1.183582e-08	-0.02080162	0.01545166	-1.447573e-08	1.503629e-08
	-7.299874e-08	6.540448e-08	0.003181154	-0.003244109	-1.447573e-08	1.503629e-08	-0.01988703	0.01619282
2.3e+08	-0.01581828	0.01439652	-1.022089e-08	1.844257e-08	0.001933226	-0.001721285	-5.799004e-08	8.396951e-08
	-1.022089e-08	1.844257e-08	-0.01469516	0.01493284	-4.684302e-10	1.284954e-08	0.002053841	-0.001663383
	0.001933226	-0.001721285	-4.684302e-10	1.284954e-08	-0.0154592	0.01465149	-1.126945e-08	1.881107e-08
	-5.799004e-08	8.396951e-08	0.002053841	-0.001663383	-1.126945e-08	1.881107e-08	-0.01465252	0.01520459
2.4e+08	-0.01087084	0.01234974	-6.337536e-09	2.122882e-08	0.001242167	0.0001051066	-3.821628e-08	9.892889e-08
	-6.337536e-09	2.122882e-08	-0.009973919	0.01267286	4.662053e-10	1.368843e-08	0.001326474	0.0001480628
	0.001242167	0.0001051066	4.662053e-10	1.368843e-08	-0.01055676	0.01252726	-7.119846e-09	2.181217e-08
	-3.821628e-08	9.892889e-08	0.001326474	0.0001480628	-7.119846e-09	2.181217e-08	-0.009918296	0.01292095
2.5e+08	-0.006659317	0.009119804	-1.767769e-09	2.30719e-08	0.001007501	0.002049942	-1.458289e-08	1.090529e-07
	-1.767769e-09	2.30719e-08	-0.006038219	0.009290439	1.521286e-09	1.431102e-08	0.001043106	0.002085711
	0.001007501	0.002049942	1.521286e-09	1.431102e-08	-0.006395212	0.009234175	-2.221977e-09	2.3802e-08
	-1.458289e-08	1.090529e-07	0.001043106	0.002085711	-2.221977e-09	2.3802e-08	-0.005977925	0.00951236
2.6e+08	-0.003439939	0.004928466	3.252729e-09	2.380032e-08	0.001244301	0.003997062	1.168772e-08	1.133487e-07
	3.252729e-09	2.380032e-08	-0.003130035	0.005017686	2.643101e-09	1.468679e-08	0.001221005	0.004037308
	0.001244301	0.003997062	2.643101e-09	1.468679e-08	-0.003228287	0.004993188	3.170851e-09	2.459364e-08
	1.168772e-08	1.133487e-07	0.001221005	0.004037308	3.170851e-09	2.459364e-08	-0.003073901	0.005213084
2.7e+08	-0.001407367	5.020604e-05	8.447014e-09	2.330201e-08	0.001938579	0.005830035	3.912026e-08	1.111415e-07
	8.447014e-09	2.330201e-08	-0.001427482	0.0001361434	3.77035e-09	1.479874e-08	0.001849448	0.005889652
	0.001938579	0.005830035	3.77035e-09	1.479874e-08	-0.001248529	7.772123e-05	8.760331e-09	2.406435e-08
	3.912026e-08	1.111415e-07	0.001849448	0.005889652	8.760331e-09	2.406435e-08	-0.001384203	0.0003069449
2.8e+08	-0.0006843074	-0.005204064	1.351159e-08	2.153372e-08	0.003047999	0.007439371	6.607162e-08	1.021385e-07
	1.351159e-08	2.153372e-08	-0.001035095	-0.005040037	4.837469e-09	1.464515e-08	0.002890241	0.007535537
	0.003047999	0.007439371	4.837469e-09	1.464515e-08	-0.000576935	-0.005202539	1.421919e-08	2.216575e-08
	6.607162e-08	1.021385e-07	0.002890241	0.007535537	1.421919e-08	2.216575e-08	-0.001012695	-0.00488974
2.9e+08	-0.001315358	-0.01050526	1.813303e-08	1.852691e-08	0.004504415	0.008729394	9.083161e-08	8.646899e-08
	1.813303e-08	1.852691e-08	-0.001978614	-0.01018277	5.778407e-09	1.424073e-08	0.004279983	0.008880405
	0.004504415	0.008729394	5.778407e-09	1.424073e-08	-0.001256766	-0.01051981	1.920929e-08	1.893031e-08
	9.083161e-08	8.646899e-08	0.004279983	0.008880405	1.920929e-08	1.893031e-08	-0.001983926	-0.01004694
3e+08	-0.00326538	-0.01552523	2.200592e-08	1.439008e-08	0.006218077	0.009624276	1.117328e-07	6.469729e-08
	2.200592e-08	1.439008e-08	-0.004204393	-0.01496933	6.530711e-09	1.361671e-08	0.005933962	0.009848241
	0.006218077	0.009624276	6.530711e-09	1.361671e-08	-0.003251878	-0.01554726	2.340115e-08	1.44736e-08
	1.117328e-07	6.469729e-08	0.005933962	0.009848241	2.340115e-08	1.44736e-08	-0.004242596	-0.01484032
3.1e+08	-0.006422495	-0.01995562	2.485142e-08	9.306892e-09	0.008083279	0.01007283	1.272622e-07	3.780704e-08
	2.485142e-08	9.306892e-09	-0.007583463	-0.01910109	7.039683e-09	1.282008e-08	0.007751445	0.0103863
	0.008083279	0.01007283	7.039683e-09	1.282008e-08	-0.006449659	-0.01997778	2.649395e-08	8.992243e-09
	1.272622e-07	3.780704e-08	0.007751445	0.0103863	2.649395e-08	8.992243e-09	-0.007657718	-0.0189701
3.2e+08	-0.01060545	-0.02352535	2.643567e-08	3.53014e-09	0.009985033	0.01005172	1.361664e-07	7.156702e-09
	2.643567e-08	3.53014e-09	-0.01191994	-0.02232065	7.262394e-09	1.191167e-08	0.009621997	0.01046834
	0.009985033	0.01005172	7.262394e-09	1.191167e-08	-0.01066835	-0.02354146	2.823534e-08	2.757129e-09
	1.361664e-07	7.156702e-09	0.009621997	0.01046834	2.823534e-08	2.757129e-09	-0.01203114	-0.02217827
3.3e+08	-0.01557487	-0.02601566	2.658715e-08	-2.628932e-09	0.01180634	0.0095668	1.375436e-07	-2.559132e-08
	2.658715e-08	-2.628932e-09	-0.01696321	-0.02442629	7.17127e-09	1.09632e-08	0.01143239	0.01009609
	0.01180634	0.0095668	7.17127e-09	1.09632e-08	-0.01566822	-0.02602065	2.843994e-08	-3.898163e-09
	1.375436e-07	-2.559132e-08	0.01143239	0.01009609	2.843994e-08	-3.898163e-09	-0.01710989	-0.02426307
3.4e+08	-0.0210477	-0.02727206	2.521168e-08	-8.815769e-09	0.01343554	0.008652623	1.309157e-07	-5.856345e-08
	2.521168e-08	-8.815769e-09	-0.02242315	-0.02528301	6.756951e-09	1.005335e-08	0.01307364	0.009298987
	0.01343554	0.008652623	6.756951e-09	1.005335e-08	-0.02116597	-0.02726181	2.700524e-08	-1.059368e-08
	1.309157e-07	-5.856345e-08	0.01307364	0.009298987	2.700524e-08	-1.059368e-08	-0.02260152	-0.02509005
3.5e+08	-0.02671384	-0.02721227	2.230397e-08	-1.46518e-08	0.01477322	0.007370075	1.162758e-07	-8.978412e-08
	2.230397e-08	-1.46518e-08	-0.02798734	-0.02482953	6.030136e-09	9.263101e-09	0.01444765	0.008132093
	0.01477322	0.007370075	6.030136e-09	9.263101e-09	-0.02685134	-0.02718359	2.392375e-08	-1.692372e-08
	1.162758e-07	-8.978412e-08	0.01444765	0.008132093	2.392375e-08	-1.692372e-08	-0.02819147	-0.02459904
3.6e+08	-0.03225412	-0.02583008	1.795416e-08	-1.975708e-08	0.01573825	0.00580239	9.410665e-08	-1.172945e-07
	1.795416e-08	-1.975708e-08	-0.03333931	-0.02308087	5.022173e-09	8.670438e-09	0.01547308	0.006672476
	0.01573825	0.00580239	5.022173e-09	8.670438e-09	-0.03240503	-0.02578063	1.928995e-08	-2.248093e-08
	9.410665e-08	-1.172945e-07	0.01547308	0.006672476	1.928995e-08	-2.248093e-08	-0.03356147	-0.02280672
3.7e+08	-0.03735839	-0.0231948	1.234859e-08	-2.377506e-08	0.01627262	0.00404983	6.537049e-08	-1.392739e-07
	1.234859e-08	-2.377506e-08	-0.03817668	-0.02012672	3.784225e-09	8.344949e-09	0.01609011	0.005014305
	0.01627262	0.00404983	3.784225e-09	8.344949e-09	-0.0375168	-0.02312309	1.330097e-08	-2.688253e-08
	6.537049e-08	-1.392739e-07	0.01609011	0.005014305	1.330097e-08	-2.688253e-08	-0.03840777	-0.01980479
3.8e+08	-0.04174293	-0.01944654	5.763629e-09	-2.639766e-08	0.01634467	0.002223441	3.146836e-08	-1.541559e-07
	5.763629e-09	-2.639766e-08	-0.04222824	-0.01612542	2.384937e-09	8.342642e-09	0.01626369	0.003263018
	0.01634467	0.002223441	2.384937e-09	8.342642e-09	-0.04190287	-0.01935193	6.250229e-09	-2.979696e-08
	3.146836e-08	-1.541559e-07	0.01626369	0.003263018	6.250229e-09	-2.979696e-08	-0.04245836	-0.01575394
3.9e+08	-0.04516601	-0.01478769	-1.447293e-09	-2.738881e-08	0.01595078	0.0004382645	-5.827708e-09	-1.607331e-07
	-1.447293e-09	-2.738881e-08	-0.045269	-0.01129434	9.066958e-10	8.701449e-09	0.01598539	0.001528948
	0.01595078	0.0004382645	9.066958e-10	8.701449e-09	-0.04532152	-0.01467041	-1.486215e-09	-3.096886e-08
	-5.827708e-09	-1.607331e-07	0.01598539	0.001528948	-1.486215e-09	-3.096886e-08	-0.04548802	-0.01087401
4e+08	-0.04744101	-0.009471004	-8.87312e-09	-2.660428e-08	0.0151153	-0.001193533	-4.446702e-08	-1.582433e-07
	-8.87312e-09	-2.660428e-08	-0.04713244	-0.005897034	-5.593149e-10	9.43781e-09	0.01527355	-7.919373e-05
	0.0151153	-0.001193533	-5.593149e-10	9.43781e-09	-0.0475862	-0.009332208	-9.47009e-09	-3.024022e-08
	-4.446702e-08	-1.582433e-07	0.01527355	-7.919373e-05	-9.47009e-09	-3.024022e-08	-0.04733062	-0.00543103
4.1e+08	-0.04844635	-0.003785206	-1.606995e-08	-2.40059e-08	0.01388886	-0.00256925	-8.223208e-08	-1.46433e-07
	-1.606995e-08	-2.40059e-08	-0.04771939	-0.0002280679	-1.918911e-09	1.05447e-08	0.01417198	-0.001460611
	0.01388886	-0.00256925	-1.918911e-09	1.05447e-08	-0.04857553	-0.003627033	-1.722699e-08	-2.756578e-08
	-8.223208e-08	-1.46433e-07	0.01417198	-0.001460611	-1.722699e-08	-2.756578e-08	-0.04788799	0.0002781172
4.2e+08	-0.04813175	0.001961246	-2.258937e-08	-1.966879e-08	0.01234527	-0.003601579	-1.168643e-07	-1.255918e-07
	-2.258937e-08	-1.966879e-08	-0.0470031	0.005403714	-3.081105e-09	1.19913e-08	0.01274721	-0.002528162
	0.01234527	-0.003601579	-3.081105e-09	1.19913e-08	-0.04823959	0.002135662	-2.427635e-08	-2.30211e-08
	-1.168643e-07	-1.255918e-07	0.01274721	-0.002528162	-2.427635e-08	-2.30211e-08	-0.04713493	0.005942569
4.3e+08	-0.04652063	0.007457326	-2.800812e-08	-1.378065e-08	0.01057709	-0.00422361	-1.461967e-07	-9.655785e-08
	-2.800812e-08	-1.378065e-08	-0.04503033	0.01069255	-3.96422e-09	1.372432e-08	0.01108457	-0.003213274
	0.01057709	-0.00422361	-3.96422e-09	1.372432e-08	-0.04660233	0.007643852	-3.016299e-08	-1.680224e-08
	-1.461967e-07	-9.655785e-08	0.01108457	-0.003213274	-3.016299e-08	-1.680224e-08	-0.04512018	0.01125496
4.4e+08	-0.0437085	0.0124066	-3.195688e-08	-6.6329e-09	0.008690267	-0.004392644	-1.682868e-07	-6.06894e-08
	-3.195688e-08	-6.6329e-09	-0.04191833	0.01535279	-4.501417e-09	1.567099e-08	0.009283231	-0.003469788
	0.008690267	-0.004392644	-4.501417e-09	1.567099e-08	-0.04375999	0.01260015	-3.448794e-08	-9.216928e-09
	-1.682868e-07	-6.06894e-08	0.009283231	-0.003469788	-3.448794e-08	-9.216928e-09	-0.04196335	0.01592859
4.5e+08	-0.03985743	0.01654355	-3.414563e-08	1.395499e-09	0.006797991	-0.004092663	-1.815417e-07	-1.980575e-08
	-3.414563e-08	1.395499e-09	-0.03784806	0.01913478	-4.64526e-09	1.774332e-08	0.007450537	-0.003276578
	0.006797991	-0.004092663	-4.64526e-09	1.774332e-08	-0.03987561	0.01673817	-3.693579e-08	-6.677556e-10
	-1.815417e-07	-1.980575e-08	0.007450537	-0.003276578	-3.693579e-08	-6.677556e-10	-0.03784796	0.01971332
4.6e+08	-0.03518701	0.01964821	-3.43968e-08	9.868772e-09	0.005014194	-0.003335324	-1.847993e-07	2.390222e-08
	-3.43968e-08	9.868772e-09	-0.03305395	0.02183871	-4.369046e-09	1.984237e-08	0.005695905	-0.002638799
	0.005014194	-0.003335324	-4.369046e-09	1.984237e-08	-0.03516992	0.01983718	-3.730938e-08	8.380055e-09
	-1.847993e-07	2.390222e-08	0.005695905	-0.002638799	-3.730938e-08	8.380055e-09	-0.03301105	0.02240956
4.7e+08	-0.02996208	0.02155811	-3.261885e-08	1.829793e-08	0.003446954	-0.002159433	-1.774965e-07	6.797306e-08
	-3.261885e-08	1.829793e-08	-0.02781067	0.02332568	-3.67466e-09	2.186618e-08	0.004124539	-0.001587713
	0.003446954	-0.002159433	-3.67466e-09	2.186618e-08	-0.02990914	0.02173429	-3.550595e-08	1.740269e-08
	-1.774965e-07	6.797306e-08	0.004124539	-0.001587713	-3.550595e-08	1.740269e-08	-0.02772976	0.02387916
