!$
! Info: Touchstone file created by Circ.  Input file=Tx_16in_Rx_85ohms_TxVia_35mils_RxVia_45mils.circ
!$
# Hz S RI R 50
0	0.01283655	1.91547e-25	7.515513e-10	1.298646e-27	0.0001051105	2.407196e-23	2.515531e-09	5.461932e-28
	7.515521e-10	1.298532e-27	0.01283423	2.299237e-25	3.939795e-10	1.906217e-27	0.000104481	2.906805e-23
	0.0001056184	2.440855e-23	3.939791e-10	1.906253e-27	0.01284854	1.860749e-25	7.712258e-10	1.260039e-27
	2.515531e-09	5.461824e-28	0.0001026324	2.921109e-23	7.712261e-10	1.260003e-27	0.01284729	2.15442e-25
1e+07	0.01750409	-0.01595725	1.241953e-09	1.082469e-09	0.0005800752	0.00282474	5.635528e-09	5.255987e-09
	1.241954e-09	1.082469e-09	0.01536971	-0.01601508	6.147065e-10	7.247732e-10	0.0006965363	0.00282596
	0.0005801043	0.002824734	6.147065e-10	7.247731e-10	0.01539576	-0.01628458	1.321854e-09	1.144842e-09
	5.635528e-09	5.255987e-09	0.0006964755	0.002825971	1.321854e-09	1.144842e-09	0.0153335	-0.01599614
2e+07	0.01304649	-0.03611381	2.243162e-09	1.421829e-09	0.001960084	0.005310741	1.105782e-08	6.435497e-09
	2.243162e-09	1.421829e-09	0.01120518	-0.03542706	8.713833e-10	1.19185e-09	0.002108469	0.005207635
	0.001960084	0.005310719	8.713832e-10	1.19185e-09	0.01097839	-0.03583996	2.412007e-09	1.473163e-09
	1.105782e-08	6.435497e-09	0.002108461	0.005207671	2.412007e-09	1.473163e-09	0.01118466	-0.03537575
3e+07	0.0009442109	-0.05451608	3.340384e-09	1.182848e-09	0.004092061	0.007065597	1.700246e-08	4.474164e-09
	3.340384e-09	1.182848e-09	-0.0006530506	-0.05348178	1.121885e-09	1.535472e-09	0.004163322	0.006952211
	0.004092055	0.007065596	1.121885e-09	1.535472e-09	-0.001036519	-0.053895	3.600539e-09	1.178339e-09
	1.700246e-08	4.474164e-09	0.004163322	0.006952217	3.600539e-09	1.178339e-09	-0.000662638	-0.0534122
4e+07	-0.01674733	-0.06815008	4.303302e-09	3.365429e-10	0.006605683	0.007991145	2.217001e-08	-7.750549e-10
	4.303302e-09	3.365429e-10	-0.0181137	-0.0668606	1.324146e-09	1.772615e-09	0.006607144	0.007900338
	0.006605683	0.007991149	1.324146e-09	1.772615e-09	-0.01858783	-0.06724019	4.646827e-09	2.256408e-10
	2.217001e-08	-7.750549e-10	0.006607139	0.007900337	4.646827e-09	2.256407e-10	-0.01811549	-0.06677586
5e+07	-0.03781408	-0.07548111	4.858614e-09	-1.03999e-09	0.009203323	0.00803299	2.509205e-08	-8.824979e-09
	4.858614e-09	-1.03999e-09	-0.03895141	-0.07398402	1.434318e-09	1.923848e-09	0.009147905	0.007989069
	0.009203325	0.008032991	1.434318e-09	1.923848e-09	-0.03946923	-0.07432775	5.255996e-09	-1.302229e-09
	2.509205e-08	-8.824979e-09	0.009147901	0.007989068	5.255996e-09	-1.302229e-09	-0.03894756	-0.07388452
6e+07	-0.05989145	-0.07587632	4.779858e-09	-2.755107e-09	0.01159331	0.007237548	2.461426e-08	-1.859893e-08
	4.779858e-09	-2.755107e-09	-0.06079209	-0.07420556	1.418575e-09	2.031629e-09	0.01149923	0.007257892
	0.01159331	0.007237547	1.418575e-09	2.031629e-09	-0.06132469	-0.07452497	5.183356e-09	-3.199309e-09
	2.461426e-08	-1.859893e-08	0.01149923	0.007257891	5.183356e-09	-3.199309e-09	-0.06078339	-0.07409039
7e+07	-0.08066933	-0.06951473	3.928038e-09	-4.534965e-09	0.01352582	0.005740106	2.008246e-08	-2.863708e-08
	3.928038e-09	-4.534965e-09	-0.08131877	-0.06770353	1.262267e-09	2.149828e-09	0.01341504	0.005834609
	0.01352581	0.005740106	1.262267e-09	2.149828e-09	-0.08185259	-0.06801294	4.278277e-09	-5.17122e-09
	2.008246e-08	-2.863708e-08	0.01341505	0.005834605	4.278277e-09	-5.17122e-09	-0.08130455	-0.06757156
8e+07	-0.09810454	-0.05728252	2.279118e-09	-6.058536e-09	0.01481673	0.00374098	1.143279e-08	-3.73028e-08
	2.279118e-09	-6.058536e-09	-0.09848587	-0.05537041	9.727163e-10	2.336575e-09	0.0147129	0.003911514
	0.01481672	0.003740982	9.727162e-10	2.336575e-09	-0.09901753	-0.05567966	2.513356e-09	-6.872964e-09
	1.143279e-08	-3.73028e-08	0.01471291	0.003911507	2.513356e-09	-6.872964e-09	-0.09846419	-0.05522107
9e+07	-0.1105962	-0.04062587	-6.22763e-11	-7.005008e-09	0.01535948	0.001478035	-7.816918e-10	-4.299639e-08
	-6.227619e-11	-7.005008e-09	-0.1106961	-0.03866206	5.794964e-10	2.645151e-09	0.01528577	0.001718445
	0.01535948	0.001478037	5.794963e-10	2.645151e-09	-0.1112249	-0.03897276	-1.125289e-12	-7.959314e-09
	-7.816918e-10	-4.299639e-08	0.01528578	0.001718439	-1.12529e-12	-7.959315e-09	-0.1106644	-0.03849598
1e+08	-0.117108	-0.02137259	-2.867668e-09	-7.107788e-09	0.0151281	-0.0007994121	-1.543057e-08	-4.43684e-08
	-2.867668e-09	-7.107788e-09	-0.1169266	-0.01941648	1.311053e-10	3.117457e-09	0.0151069	-0.0005023354
	0.0151281	-0.0007994122	1.311053e-10	3.117457e-09	-0.1174342	-0.0197205	-3.022667e-09	-8.142242e-09
	-1.543057e-08	-4.43684e-08	0.0151069	-0.0005023354	-3.022667e-09	-8.142242e-09	-0.1168825	-0.01923581
1.1e+08	-0.1172319	-0.001543907	-5.786143e-09	-6.180387e-09	0.01416619	-0.002858269	-3.088613e-08	-4.050591e-08
	-5.786143e-09	-6.180387e-09	-0.1167765	0.0003543929	-3.1952e-10	3.768912e-09	0.01421038	-0.002536255
	0.01416619	-0.002858269	-3.195199e-10	3.768912e-09	-0.1172728	-1.822245e-06	-6.174829e-09	-7.220569e-09
	-3.088613e-08	-4.050591e-08	0.01421038	-0.002536255	-6.174829e-09	-7.220569e-09	-0.1167179	0.000546531
1.2e+08	-0.1111933	0.0168623	-8.4533e-09	-4.179441e-09	0.01258315	-0.004481878	-4.525929e-08	-3.111913e-08
	-8.4533e-09	-4.179441e-09	-0.1104794	0.01863256	-6.978177e-10	4.595452e-09	0.01268915	-0.004158043
	0.01258315	-0.004481878	-6.978177e-10	4.595452e-09	-0.1110097	0.01825331	-9.066312e-09	-5.141458e-09
	-4.525929e-08	-3.111913e-08	0.01268915	-0.004158043	-9.066312e-09	-5.141458e-09	-0.1104046	0.01883192
1.3e+08	-0.09981594	0.03202422	-1.047946e-08	-1.211745e-09	0.01054895	-0.005503031	-5.65735e-08	-1.658469e-08
	-1.047946e-08	-1.211745e-09	-0.0988866	0.03359707	-9.404012e-10	5.572824e-09	0.01070857	-0.005198971
	0.01054895	-0.005503031	-9.404012e-10	5.572824e-09	-0.09945621	0.03323552	-1.127798e-08	-2.016108e-09
	-5.65735e-08	-1.658469e-08	0.01070857	-0.005198971	-1.127798e-08	-2.016108e-09	-0.09879607	0.03379826
1.4e+08	-0.08443292	0.04247425	-1.152392e-08	2.481295e-09	0.008274139	-0.005811347	-6.299549e-08	2.027031e-09
	-1.152392e-08	2.481295e-09	-0.08335605	0.04379116	-9.940908e-10	6.653291e-09	0.008472418	-0.005545517
	0.008274139	-0.005811347	-9.940908e-10	6.653291e-09	-0.08394534	0.0434859	-1.244071e-08	1.899631e-09
	-6.299549e-08	2.027031e-09	0.008472418	-0.005545517	-1.244071e-08	1.899631e-09	-0.08325222	0.04398847
1.5e+08	-0.06675864	0.04723383	-1.134186e-08	6.543538e-09	0.005995315	-0.00536394	-6.307515e-08	2.299944e-08
	-1.134186e-08	6.543538e-09	-0.06562294	0.04825631	-8.231478e-10	7.771295e-09	0.00621131	-0.005149265
	0.005995315	-0.00536394	-8.231478e-10	7.771295e-09	-0.0661928	0.04803494	-1.228663e-08	6.225106e-09
	-6.307515e-08	2.299944e-08	0.00621131	-0.005149265	-1.228663e-08	6.225106e-09	-0.06551075	0.04844471
1.6e+08	-0.04872432	0.04590838	-9.820599e-09	1.054278e-08	0.00395546	-0.004193308	-5.597521e-08	4.41025e-08
	-9.820599e-09	1.054278e-08	-0.04763245	0.04662595	-4.14758e-10	8.849695e-09	0.004164126	-0.004035131
	0.00395546	-0.004193308	-4.14758e-10	8.849695e-09	-0.04813047	0.04649831	-1.068915e-08	1.049549e-08
	-5.597521e-08	4.41025e-08	0.004164126	-0.004035131	-1.068915e-08	1.049549e-08	-0.04751895	0.04680217
1.7e+08	-0.0322881	0.03873163	-6.999976e-09	1.401964e-08	0.002379954	-0.002409742	-4.165877e-08	6.2812e-08
	-6.999976e-09	1.401964e-08	-0.0313468	0.03916713	2.173845e-10	9.807462e-09	0.002554816	-0.002304478
	0.002379954	-0.002409742	2.173845e-10	9.807462e-09	-0.03171515	0.03912085	-7.686321e-09	1.421418e-08
	-4.165877e-08	6.2812e-08	0.002554816	-0.002304478	-7.686321e-09	1.421418e-08	-0.03124046	0.03933049
1.8e+08	-0.01923434	0.02654914	-3.075094e-09	1.654006e-08	0.001450199	-0.0001952574	-2.099739e-08	7.660372e-08
	-3.075094e-09	1.654006e-08	-0.01854262	0.02676029	1.031774e-09	1.056855e-08	0.001566476	-0.000130033
	0.001450199	-0.0001952574	1.031774e-09	1.056855e-08	-0.01872706	0.02675946	-3.484966e-09	1.690991e-08
	-2.099739e-08	7.660372e-08	0.001566476	-0.000130033	-3.484966e-09	1.690991e-08	-0.01845224	0.02691326
1.9e+08	-0.01098264	0.01073622	1.617876e-09	1.774526e-08	0.001278648	0.002212933	4.234469e-09	8.329202e-08
	1.617876e-09	1.774526e-08	-0.01061952	0.01081274	1.96063e-09	1.107145e-08	0.001316474	0.002259536
	0.001278648	0.002212933	1.96063e-09	1.107145e-08	-0.0105785	0.01079981	1.553819e-09	1.819178e-08
	4.234469e-09	8.329202e-08	0.001316474	0.002259536	1.553819e-09	1.819178e-08	-0.01055307	0.01096103
2e+08	-0.008430482	-0.006946552	6.630031e-09	1.739475e-08	0.001890433	0.004549163	3.149938e-08	8.136383e-08
	6.630031e-09	1.739475e-08	-0.008444067	-0.006890343	2.914844e-09	1.127858e-08	0.001837755	0.004605233
	0.001890433	0.004549163	2.914844e-09	1.127858e-08	-0.008156773	-0.006989296	6.945365e-09	1.779699e-08
	3.149938e-08	8.136383e-08	0.001837755	0.004605233	6.945365e-09	1.779699e-08	-0.008407446	-0.006738159
2.1e+08	-0.01185226	-0.02454668	1.143943e-08	1.53999e-08	0.003216471	0.006552997	5.776721e-08	7.02496e-08
	1.143943e-08	1.53999e-08	-0.01225173	-0.02438306	3.792571e-09	1.118406e-08	0.003071235	0.006650429
	0.003216471	0.006552997	3.792571e-09	1.118406e-08	-0.0117239	-0.0246503	1.212518e-08	1.562794e-08
	5.776721e-08	7.02496e-08	0.003071235	0.006650429	1.212518e-08	1.562794e-08	-0.01224778	-0.02421634
2.2e+08	-0.02087112	-0.04013835	1.55002e-08	1.184607e-08	0.005100854	0.008004077	7.988306e-08	5.047655e-08
	1.55002e-08	1.184607e-08	-0.02162316	-0.03973994	4.490958e-09	1.081825e-08	0.004872135	0.008174991
	0.005100854	0.008004077	4.490958e-09	1.081825e-08	-0.02088968	-0.04025614	1.65032e-08	1.177631e-08
	7.988306e-08	5.047655e-08	0.004872135	0.008174991	1.65032e-08	1.177631e-08	-0.02165096	-0.03954712
2.3e+08	-0.03450905	-0.05203708	1.829945e-08	7.00067e-09	0.007321951	0.008751329	9.497617e-08	2.366973e-08
	1.829945e-08	7.00067e-09	-0.03553922	-0.05129136	4.919589e-09	1.024763e-08	0.007029782	0.009024182
	0.007321951	0.008751329	4.919589e-09	1.024763e-08	-0.03466306	-0.05212508	1.952618e-08	6.530693e-09
	9.497617e-08	2.366973e-08	0.007029782	0.009024182	1.952618e-08	6.530693e-09	-0.03559386	-0.05106131
2.4e+08	-0.05130747	-0.0589814	1.941891e-08	1.302737e-09	0.009623149	0.008730943	1.008428e-07	-7.603329e-09
	1.941891e-08	1.302737e-09	-0.05250664	-0.05780405	5.013586e-09	9.569391e-09	0.009296983	0.00912679
	0.009623149	0.008730943	5.013586e-09	9.569391e-09	-0.05157397	-0.05900199	2.074421e-08	3.641876e-10
	1.008428e-07	-7.603329e-09	0.009296983	0.00912679	2.074421e-08	3.641876e-10	-0.05257944	-0.05752745
2.5e+08	-0.0694995	-0.06025858	1.859494e-08	-4.669724e-09	0.01174703	0.00797039	9.624281e-08	-4.011818e-08
	1.859494e-08	-4.669724e-09	-0.0707346	-0.05860402	4.744141e-09	8.901114e-09	0.01142293	0.008499813
	0.01174703	0.00797039	4.744141e-09	8.901114e-09	-0.06984662	-0.06018339	1.987456e-08	-6.101966e-09
	9.624281e-08	-4.011818e-08	0.01142293	0.008499813	1.987456e-08	-6.101966e-09	-0.07081381	-0.05827468
2.6e+08	-0.08720856	-0.05576233	1.576726e-08	-1.025553e-08	0.01346659	0.006579276	8.107053e-08	-7.036084e-08
	1.576726e-08	-1.025553e-08	-0.08833627	-0.05363013	4.124607e-09	8.366855e-09	0.01318343	0.007240395
	0.01346659	0.006579276	4.124607e-09	8.366855e-09	-0.08759875	-0.05557412	1.685269e-08	-1.215869e-08
	8.107053e-08	-7.036084e-08	0.01318343	0.007240395	1.685269e-08	-1.215869e-08	-0.08840826	-0.0532459
2.7e+08	-0.1026471	-0.04598164	1.110614e-08	-1.47848e-08	0.01460876	0.004730597	5.638652e-08	-9.492177e-08
	1.110614e-08	-1.47848e-08	-0.1035289	-0.04341805	3.211038e-09	8.081705e-09	0.01440388	0.005508473
	0.01460876	0.004730597	3.211038e-09	8.081705e-09	-0.1030406	-0.04567511	1.186021e-08	-1.708847e-08
	5.638652e-08	-9.492177e-08	0.01440388	0.005508473	1.186021e-08	-1.708847e-08	-0.1035796	-0.04298145
2.8e+08	-0.1142932	-0.03192925	5.010225e-09	-1.76624e-08	0.01506836	0.002637145	2.432004e-08	-1.108668e-07
	5.010225e-09	-1.76624e-08	-0.1148106	-0.02902385	2.096985e-09	8.137047e-09	0.01497317	0.003504702
	0.01506836	0.002637145	2.096985e-09	8.137047e-09	-0.1146515	-0.03151089	5.322024e-09	-2.025359e-08
	2.432004e-08	-1.108668e-07	0.01497317	0.003504702	5.322024e-09	-2.025359e-08	-0.1148269	-0.02854204
2.9e+08	-0.1210305	-0.0150241	-1.927384e-09	-1.844754e-08	0.01481282	0.0005274142	-1.213375e-08	-1.160494e-07
	-1.927384e-09	-1.844754e-08	-0.1210976	-0.01190188	9.032553e-10	8.588678e-09	0.0148489	0.001447819
	0.01481282	0.0005274142	9.032553e-10	8.588678e-09	-0.1213194	-0.01451109	-2.129635e-09	-2.118018e-08
	-1.213375e-08	-1.160494e-07	0.0148489	0.001447819	-2.129635e-09	-2.118018e-08	-0.1210694	-0.01138618
3e+08	-0.1222419	0.003056501	-8.981144e-09	-1.691703e-08	0.01387985	-0.001376177	-4.939296e-08	-1.09343e-07
	-8.981144e-09	-1.691703e-08	-0.1218161	0.006246861	-2.358126e-10	9.449439e-09	0.01405599	-0.0004459156
	0.01387985	-0.001376177	-2.358126e-10	9.449439e-09	-0.1224345	0.003638083	-9.720405e-09	-1.962522e-08
	-4.939296e-08	-1.09343e-07	0.01405599	-0.0004459156	-9.720405e-09	-1.962522e-08	-0.1217371	0.006781998
3.1e+08	-0.1178564	0.02054001	-1.537484e-08	-1.31025e-08	0.01237037	-0.002875674	-8.361857e-08	-9.078479e-08
	-1.537484e-08	-1.31025e-08	-0.1169442	0.02364058	-1.187541e-09	1.068718e-08	0.01268095	-0.001980266
	0.01237037	-0.002875674	-1.187541e-09	1.068718e-08	-0.1179345	0.02115755	-1.661983e-08	-1.561656e-08
	-8.361857e-08	-9.078479e-08	0.01268095	-0.001980266	-1.661983e-08	-1.561656e-08	-0.116813	0.02417896
3.2e+08	-0.1083466	0.0357244	-2.037186e-08	-7.296394e-09	0.01043852	-0.003812794	-1.11073e-07	-6.162476e-08
	-2.037186e-08	-7.296394e-09	-0.1070055	0.03858396	-1.835497e-09	1.222798e-08	0.01086337	-0.002993861
	0.01043852	-0.003812794	-1.835497e-09	1.222798e-08	-0.108303	0.03634161	-2.203678e-08	-9.460494e-09
	-1.11073e-07	-6.162476e-08	0.01086337	-0.002993861	-2.203678e-08	-9.460494e-09	-0.1068261	0.03910932
3.3e+08	-0.09468302	0.04713569	-2.336218e-08	-2.607141e-11	0.00827919	-0.004081611	-1.284892e-07	-2.427639e-08
	-2.336218e-08	-2.607141e-11	-0.09301777	0.04962573	-2.091796e-09	1.396367e-08	0.008785078	-0.003373007
	0.00827919	-0.004081611	-2.091796e-09	1.396367e-08	-0.09452156	0.04771574	-2.531211e-08	-1.715864e-09
	-1.284892e-07	-2.427639e-08	0.008785078	-0.003373007	-2.531211e-08	-1.715864e-09	-0.0927994	0.05012359
3.4e+08	-0.07824456	0.0536671	-2.395276e-08	8.007792e-09	0.006112922	-0.003638935	-1.334091e-07	1.783954e-08
	-2.395276e-08	8.007792e-09	-0.07639869	0.05569647	-1.904424e-09	1.576182e-08	0.006656459	-0.003062706
	0.006112922	-0.003638935	-1.904424e-09	1.576182e-08	-0.07798012	0.05417585	-2.601465e-08	6.869678e-09
	-1.334091e-07	1.783954e-08	0.006656459	-0.003062706	-2.601465e-08	6.869678e-09	-0.07615519	0.05615583
3.5e+08	-0.06069177	0.05468913	-2.196211e-08	1.59901e-08	0.004167455	-0.002511611	-1.245601e-07	6.05458e-08
	-2.196211e-08	1.59901e-08	-0.05883479	0.05621589	-1.267987e-09	1.74787e-08	0.004699246	-0.002075026
	0.004167455	-0.002511611	-1.267987e-09	1.74787e-08	-0.06034911	0.05509845	-2.394173e-08	1.542157e-08
	-1.245601e-07	6.05458e-08	0.004699246	-0.002075026	-2.394173e-08	1.542157e-08	-0.05858318	0.05663052
3.6e+08	-0.04380931	0.05012003	-1.749478e-08	2.308532e-08	0.002655825	-0.0007989201	-1.020516e-07	9.932025e-08
	-1.749478e-08	2.308532e-08	-0.04211991	0.05115877	-2.208318e-10	1.897301e-08	0.003125452	-0.0004929248
	0.002655825	-0.0007989201	-2.208318e-10	1.897301e-08	-0.04342087	0.05041061	-1.919719e-08	2.303927e-08
	-1.020516e-07	9.932025e-08	0.003125452	-0.0004929248	-1.919719e-08	2.303927e-08	-0.04187881	0.05152817
3.7e+08	-0.02932863	0.04044582	-1.09218e-08	2.852732e-08	0.001752318	0.001332298	-6.749488e-08	1.297542e-07
	-1.09218e-08	2.852732e-08	-0.02797585	0.04106936	1.155358e-09	2.011841e-08	0.002113687	0.00153297
	0.001752318	0.001332298	1.155358e-09	2.011841e-08	-0.02893158	0.0406093	-1.217341e-08	2.889314e-08
	-6.749488e-08	1.297542e-07	0.002113687	0.00153297	-1.217341e-08	2.889314e-08	-0.02776355	0.04139914
3.8e+08	-0.01874751	0.02668235	-2.842789e-09	3.169771e-08	0.001569247	0.003661643	-2.395451e-08	1.480699e-07
	-2.842789e-09	3.169771e-08	-0.0178716	0.02701703	2.739979e-09	2.081668e-08	0.001785764	0.003796625
	0.001569247	0.003661643	2.739979e-09	2.081668e-08	-0.01838002	0.02672238	-3.51239e-09	3.231057e-08
	-2.395451e-08	1.480699e-07	0.001785764	0.003796625	-3.51239e-09	3.231057e-08	-0.01770408	0.02731862
3.9e+08	-0.01316655	0.01027784	5.969744e-09	3.218889e-08	0.002138845	0.005938494	2.429623e-08	1.516222e-07
	5.969744e-09	3.218889e-08	-0.01286187	0.01049236	4.3822e-09	2.101017e-08	0.00218787	0.006058296
	0.002138845	0.005938494	4.3822e-09	2.101017e-08	-0.01286388	0.01020994	5.954125e-09	3.284617e-08
	2.429623e-08	1.516222e-07	0.00218787	0.006058296	5.954125e-09	3.284617e-08	-0.01275097	0.01078212
4e+08	-0.01316451	-0.007037497	1.464026e-08	2.984801e-08	0.003404789	0.007912442	7.220655e-08	1.392992e-07
	1.464026e-08	2.984801e-08	-0.0134668	-0.006748738	5.914206e-09	2.069206e-08	0.003280825	0.008073572
	0.003404789	0.007912442	5.914206e-09	2.069206e-08	-0.01295529	-0.007187421	1.5281e-08	3.033085e-08
	7.220655e-08	1.392992e-07	0.003280825	0.008073572	1.5281e-08	3.033085e-08	-0.01341869	-0.00645101
4.1e+08	-0.01873117	-0.02343843	2.226901e-08	2.480079e-08	0.005226453	0.009366099	1.1452e-07	1.117489e-07
	2.226901e-08	2.480079e-08	-0.01961096	-0.02287594	7.168704e-09	1.991233e-08	0.004942651	0.009625257
	0.005226453	0.009366099	7.168704e-09	1.991233e-08	-0.01863433	-0.02363683	2.349665e-08	2.489817e-08
	1.1452e-07	1.117489e-07	0.004942651	0.009625257	2.349665e-08	2.489817e-08	-0.01962519	-0.02254897
4.2e+08	-0.02926887	-0.03720511	2.801677e-08	1.74545e-08	0.007396293	0.01014426	1.464062e-07	7.137654e-08
	2.801677e-08	1.74545e-08	-0.03063228	-0.0361863	7.999075e-09	1.877715e-08	0.006983973	0.01055216
	0.007396293	0.01014426	7.999075e-09	1.877715e-08	-0.02929175	-0.03741436	2.969605e-08	1.698653e-08
	1.464062e-07	7.137654e-08	0.006983973	0.01055216	2.969605e-08	1.698653e-08	-0.03070148	-0.03580953
4.3e+08	-0.04366325	-0.04691004	3.11921e-08	8.476836e-09	0.009667537	0.01017371	1.640542e-07	2.210732e-08
	3.11921e-08	8.476836e-09	-0.04536025	-0.04528991	8.29927e-09	1.744042e-08	0.009173649	0.01076928
	0.009667537	0.01017371	8.29927e-09	1.744042e-08	-0.04380099	-0.04709245	3.313538e-08	7.314622e-09
	1.640542e-07	2.210732e-08	0.009173649	0.01076928	3.313538e-08	7.314622e-09	-0.04547058	-0.04484578
4.4e+08	-0.06041257	-0.05156718	3.133476e-08	-1.253128e-09	0.01178688	0.009470247	1.65137e-07	-3.105109e-08
	3.133476e-08	-1.253128e-09	-0.06225187	-0.04925527	8.019981e-09	1.608776e-08	0.01126958	0.0102758
	0.01178688	0.009470247	8.019981e-09	1.608776e-08	-0.0606489	-0.0516889	3.332093e-08	-3.173317e-09
	1.65137e-07	-3.105109e-08	0.01126958	0.0102758	3.332093e-08	-3.173317e-09	-0.06238419	-0.04873122
4.5e+08	-0.07779638	-0.05072598	2.828466e-08	-1.072393e-08	0.01352601	0.008132532	1.490829e-07	-8.257394e-08
	2.828466e-08	-1.072393e-08	-0.07956512	-0.0476973	7.177967e-09	1.491473e-08	0.01304881	0.009150671
	0.01352601	0.008132532	7.177967e-09	1.491473e-08	-0.07810561	-0.05076026	3.00812e-08	-1.339323e-08
	1.490829e-07	-8.257394e-08	0.01304881	0.009150671	3.00812e-08	-1.339323e-08	-0.07969678	-0.04708737
4.6e+08	-0.09406023	-0.0445024	2.222282e-08	-1.88964e-08	0.01470686	0.00632534	1.171329e-07	-1.270271e-07
	2.222282e-08	-1.88964e-08	-0.09554618	-0.04080147	5.856554e-09	1.410262e-08	0.01433187	0.007537912
	0.01470686	0.00632534	5.856554e-09	1.410262e-08	-0.09441012	-0.04443207	2.360888e-08	-2.223304e-08
	1.171329e-07	-1.270271e-07	0.01433187	0.007537912	2.360888e-08	-2.223304e-08	-0.09565332	-0.04010722
4.7e+08	-0.1075939	-0.03354926	1.367319e-08	-2.48227e-08	0.01521755	0.004256635	7.219472e-08	-1.596378e-07
	1.367319e-08	-2.48227e-08	-0.1086077	-0.02928668	4.196967e-09	1.379554e-08	0.01499877	0.005625985
	0.01521755	0.004256635	4.196967e-09	1.379554e-08	-0.107949	-0.03336801	1.44616e-08	-2.867853e-08
	7.219472e-08	-1.596378e-07	0.01499877	0.005625985	1.44616e-08	-2.867853e-08	-0.1086677	-0.02851732
4.8e+08	-0.117085	-0.01897496	3.46011e-09	-2.776283e-08	0.01501884	0.002152947	1.853702e-08	-1.767702e-07
