!$
! Info: Touchstone file created by Circ.  Input file=Tx_16in_Rx_93ohms_TxVia_35mils_RxVia_45mils.circ
!$
# Hz S RI R 50
0	0.01459227	1.947487e-25	0.9852669	-2.023855e-25	0.0001034682	2.781416e-23	-0.0001015467	2.040617e-21
	0.9852669	-2.06232e-25	0.01459111	2.285469e-25	-0.0001019141	2.085722e-21	0.0001038848	3.306447e-23
	0.0001016273	2.856241e-23	-0.0001020397	2.10127e-21	0.01460451	1.856327e-25	0.9852513	-1.921707e-25
	-0.0001019222	2.086772e-21	0.0001020358	3.322713e-23	0.9852513	-1.917888e-25	0.01460414	2.141544e-25
1e+07	0.02102134	-0.002883794	0.9640465	-0.1652764	0.0006873092	0.002840368	-0.0001947304	-4.269305e-05
	0.9640465	-0.1652764	0.02100771	-0.002883276	-0.0001947455	-4.267082e-05	0.0006818604	0.002842378
	0.0006872483	0.002840372	-0.0001948012	-4.265429e-05	0.02060328	-0.002863977	0.9644463	-0.1654191
	-0.0001947862	-4.267651e-05	0.0006817992	0.002842388	0.9644463	-0.1654191	0.02058749	-0.002862681
2e+07	0.02303712	-0.01130226	0.9189639	-0.3193563	0.001961277	0.005432609	-7.53487e-05	-0.0001916123
	0.9189639	-0.3193563	0.02298584	-0.01128878	-7.539433e-05	-0.0001915667	0.001941319	0.005442222
	0.001961264	0.005432648	-7.5398e-05	-0.000191524	0.02274569	-0.01113711	0.9191812	-0.3197605
	-7.535411e-05	-0.0001915683	0.00194131	0.005442258	0.9191812	-0.3197605	0.02268664	-0.01111996
3e+07	0.02085801	-0.0208484	0.8514006	-0.4620834	0.004026054	0.007303796	-3.055971e-05	-0.00026048
	0.8514006	-0.4620834	0.0207529	-0.02079871	-3.063894e-05	-0.0002603424	0.00398606	0.007330207
	0.004026056	0.007303802	-3.063529e-05	-0.0002603369	0.02066049	-0.02066112	0.8514311	-0.4626098
	-3.055601e-05	-0.0002604742	0.00398606	0.007330212	0.8514311	-0.4626098	0.02053989	-0.02060125
4e+07	0.0153586	-0.02941006	0.7628222	-0.5911219	0.006587152	0.008331135	-4.305319e-05	-0.0003287076
	0.7628222	-0.5911219	0.01519519	-0.02929517	-4.310559e-05	-0.0003284436	0.006526233	0.008385513
	0.006587146	0.00833113	-4.311317e-05	-0.0003284451	0.01523027	-0.02923769	0.7626568	-0.591707
	-4.306128e-05	-0.0003287095	0.006526227	0.008385511	0.7626568	-0.591707	0.01504334	-0.02910187
5e+07	0.007366613	-0.03591919	0.6555474	-0.7036186	0.009277972	0.008476816	-7.042989e-05	-0.000451686
	0.6555474	-0.7036186	0.007153685	-0.03570905	-7.03871e-05	-0.0004512936	0.009200437	0.00857035
	0.009277967	0.008476815	-7.039224e-05	-0.0004512923	0.007283298	-0.03577984	0.6551832	-0.7042082
	-7.043544e-05	-0.0004516848	0.009200433	0.008570349	0.6551832	-0.7042082	0.007040408	-0.03553373
6e+07	-0.002180544	-0.03972654	0.532434	-0.7970129	0.01181334	0.007758528	-0.0001607311	-0.0006173939
	0.532434	-0.7970129	-0.002421045	-0.03939579	-0.0001605176	-0.0006169059	0.01172836	0.007900228
	0.01181334	0.007758528	-0.000160514	-0.0006169087	-0.002241807	-0.03962695	0.5318765	-0.7975561
	-0.000160727	-0.0006173969	0.01172836	0.007900227	0.5318765	-0.7975561	-0.002515191	-0.03924167
7e+07	-0.01228016	-0.04054127	0.3967376	-0.8692074	0.01393016	0.006282172	-0.0003467417	-0.0007883168
	0.3967376	-0.8692074	-0.01251584	-0.04007449	-0.0003462963	-0.0007878101	0.01385065	0.006477026
	0.01393018	0.006282169	-0.0003462885	-0.0007878223	-0.01233966	-0.04047973	0.396002	-0.8696567
	-0.000346733	-0.0007883301	0.01385065	0.006477023	0.396002	-0.8696567	-0.01260618	-0.03993795
8e+07	-0.02194454	-0.03840668	0.2519953	-0.9186457	0.01541522	0.004229678	-0.0006373459	-0.0009129285
	0.2519953	-0.9186457	-0.02213715	-0.03780214	-0.0006366488	-0.0009125138	0.01535605	0.004477339
	0.01541524	0.00422967	-0.0006366438	-0.0009125326	-0.02201858	-0.03837526	0.251106	-0.9189582
	-0.0006373404	-0.000912949	0.01535606	0.004477332	0.251106	-0.9189582	-0.02223426	-0.03767539
9e+07	-0.0302842	-0.03366525	0.1019127	-0.9443488	0.01612615	0.001838289	-0.001014397	-0.0009389088
	0.1019127	-0.9443488	-0.03039527	-0.03293655	-0.001013486	-0.0009387046	0.01610203	0.002132463
	0.01612616	0.001838281	-0.001013487	-0.0009387201	-0.03038445	-0.03365186	0.1009044	-0.9444877
	-0.001014398	-0.0009389258	0.01610204	0.002132457	0.1009044	-0.9444877	-0.03050523	-0.03280992
1e+08	-0.03656228	-0.02690543	-0.04977296	-0.9459195	0.01600337	-0.0006258825	-0.001434667	-0.0008255669
	-0.04977296	-0.9459195	-0.03655892	-0.02608109	-0.001433638	-0.0008256685	0.01602659	-0.0002972319
	0.01600337	-0.0006258824	-0.001433638	-0.0008256685	-0.03669864	-0.02689581	-0.05085109	-0.945857
	-0.001434667	-0.0008255669	0.01602659	-0.0002972319	-0.05085109	-0.945857	-0.03668701	-0.0259449
1.1e+08	-0.04037877	-0.01901482	-0.1991575	-0.9233433	0.01507542	-0.002887587	-0.00184196	-0.0005604886
	-0.1991575	-0.9233433	-0.04024021	-0.01813735	-0.001840937	-0.0005609453	0.01515367	-0.002541514
	0.01507542	-0.002887587	-0.001840937	-0.0005609453	-0.04054626	-0.01898016	-0.2002687	-0.9230909
	-0.00184196	-0.0005604886	0.01515367	-0.002541514	-0.2002687	-0.9230909	-0.04037776	-0.01796845
1.2e+08	-0.04158178	-0.01067147	-0.3424617	-0.8776309	0.01346047	-0.004709008	-0.002180972	-0.000144962
	-0.3424617	-0.8776309	-0.0413019	-0.00978774	-0.002180117	-0.0001457384	0.01359487	-0.004364841
	0.01346047	-0.004709008	-0.002180117	-0.0001457385	-0.04176207	-0.01060312	-0.3435823	-0.8771743
	-0.002180972	-0.0001449621	0.01359487	-0.004364841	-0.3435823	-0.8771743	-0.04142995	-0.009585879
1.3e+08	-0.04017693	-0.002718736	-0.4762652	-0.8101123	0.0113377	-0.005899849	-0.002395372	0.0003914337
	-0.4762652	-0.8101123	-0.03976628	-0.001878572	-0.002394806	0.0003904481	0.01152236	-0.005577306
	0.0113377	-0.005899849	-0.002394806	0.0003904481	-0.04035484	-0.002614103	-0.4773601	-0.8094422
	-0.002395372	0.0003914337	0.01152236	-0.005577306	-0.4773601	-0.8094422	-0.03987227	-0.001649322
1.4e+08	-0.03645931	0.004063844	-0.597357	-0.7226058	0.008936177	-0.006336398	-0.002446766	0.0009986604
	-0.597357	-0.7226058	-0.03594652	0.004814013	-0.002446539	0.0009976192	0.009158115	-0.006053003
	0.008936177	-0.006336398	-0.002446539	0.0009976192	-0.03662085	0.00420206	-0.5983873	-0.7217193
	-0.002446766	0.0009986604	0.009158115	-0.006053003	-0.5983873	-0.7217193	-0.03602198	0.005061089
1.5e+08	-0.03094991	0.009040553	-0.7028363	-0.6173833	0.006510842	-0.00597355	-0.00232031	0.001616329
	-0.7028363	-0.6173833	-0.03038043	0.009664498	-0.002320388	0.001615388	0.006750897	-0.005742103
	0.006510842	-0.00597355	-0.002320388	0.001615388	-0.03108344	0.009205127	-0.7037611	-0.6162849
	-0.00232031	0.001616329	0.006750897	-0.005742103	-0.7037611	-0.6162849	-0.03042149	0.009917446
1.6e+08	-0.02433425	0.01177853	-0.7901763	-0.4971262	0.004316873	-0.004848681	-0.002026075	0.002184937
	-0.7901763	-0.4971262	-0.02376644	0.01225637	-0.00202635	0.002184216	0.004551506	-0.004675129
	0.004316873	-0.004848681	-0.00202635	0.002184216	-0.02443157	0.01195883	-0.7909544	-0.4958279
	-0.002026075	0.002184937	0.004551506	-0.004675129	-0.7909544	-0.4958279	-0.02377413	0.01250259
1.7e+08	-0.01738908	0.01208533	-0.8572833	-0.3648721	0.002584075	-0.003077629	-0.001595363	0.00265624
	-0.8572833	-0.3648721	-0.01688806	0.01241799	-0.001595681	0.002655786	0.002787863	-0.002959646
	0.002584075	-0.003077629	-0.001595681	0.002655786	-0.01744615	0.01226866	-0.8578746	-0.3633938
	-0.001595363	0.00265624	0.002787863	-0.002959646	-0.8578746	-0.3633938	-0.0168681	0.01264602
1.8e+08	-0.01090243	0.01002225	-0.9025507	-0.223953	0.001493506	-0.0008430052	-0.001072952	0.003000616
	-0.9025507	-0.223953	-0.01053251	0.01023355	-0.001073152	0.00300039	0.001642073	-0.0007694799
	0.001493506	-0.0008430052	-0.001073152	0.00300039	-0.01091964	0.01019528	-0.9029176	-0.2223222
	-0.001072952	0.003000616	0.001642073	-0.00076948	-0.9029176	-0.2223222	-0.01049454	0.01043457
1.9e+08	-0.005594291	0.005892623	-0.924907	-0.07792187	0.001158626	0.001624359	-0.0005071218	0.003209958
	-0.924907	-0.07792187	-0.005410849	0.006028577	-0.0005070815	0.003209837	0.001231664	0.001672793
	0.001158626	0.001624359	-0.0005070815	0.003209837	-0.005576364	0.006042793	-0.9250159	-0.07617358
	-0.0005071219	0.003209958	0.001231664	0.001672793	-0.9250159	-0.07617358	-0.005367216	0.006197605
2e+08	-0.00204534	0.0002063432	-0.9238527	0.06953211	0.001613043	0.004069297	6.022349e-05	0.003295669
	-0.9238527	0.06953211	-0.002087233	0.0003315427	6.055023e-05	0.003295474	0.001597075	0.004118709
	0.001613043	0.004069297	6.055021e-05	0.003295474	-0.002000849	0.0003231235	-0.9236756	0.07135592
	6.022348e-05	0.003295669	0.001597075	0.004118709	-0.9236756	0.07135592	-0.002051514	0.0004681294
2.1e+08	-0.0006406802	-0.006375853	-0.8994841	0.2146776	0.0028065	0.006239247	0.0006010991	0.003282423
	-0.8994841	0.2146776	-0.0009241359	-0.006184363	0.0006016576	0.003281963	0.00269704	0.006319948
	0.0028065	0.006239247	0.0006016576	0.003281963	-0.0005812235	-0.006299891	-0.8989995	0.2165288
	0.0006010991	0.003282423	0.00269704	0.006319948	-0.8989995	0.2165288	-0.0009094983	-0.006075984
2.2e+08	-0.001534207	-0.01311255	-0.8524982	0.3538423	0.004609912	0.007911383	0.001104972	0.003199326
	-0.8524982	0.3538423	-0.00204904	-0.01277335	0.001105609	0.00319845	0.004412734	0.008054792
	0.004609912	0.007911383	0.001105609	0.00319845	-0.001473333	-0.01308094	-0.8516933	0.3556676
	0.001104972	0.003199326	0.004412734	0.008054792	-0.8516933	0.3556676	-0.002066674	-0.01268465
2.3e+08	-0.004637114	-0.01925895	-0.7841785	0.4835156	0.006829203	0.008916786	0.001577599	0.003070709
	-0.7841785	0.4835156	-0.005345843	-0.01869537	0.001578088	0.003069351	0.006560511	0.009151938
	0.006829203	0.008916786	0.001578088	0.003069351	-0.00458905	-0.01927089	-0.7830497	0.4852582
	0.001577599	0.003070709	0.006560511	0.009151938	-0.7830497	0.4852582	-0.005403623	-0.01861444
2.4e+08	-0.009631454	-0.02414322	-0.6963591	0.6004479	0.009226505	0.009158733	0.002035606	0.002908817
	-0.6963591	0.6004479	-0.01047157	-0.02329251	0.002035697	0.00290703	0.008911922	0.009508812
	0.009226505	0.009158733	0.002035697	0.00290703	-0.009609751	-0.02419352	-0.6949131	0.6020493
	0.002035606	0.002908817	0.008911922	0.009508812	-0.6949131	0.6020493	-0.01057308	-0.02320532
2.5e+08	-0.01600688	-0.02723391	-0.5913697	0.7017411	0.01154626	0.008622836	0.002498282	0.002710174
	-0.5913697	0.7017411	-0.01689616	-0.02605531	0.002497761	0.00270813	0.01121866	0.009102135
	0.01154626	0.008622836	0.002497761	0.00270813	-0.01602308	-0.02731335	-0.5896243	0.7031428
	0.002498282	0.002710174	0.01121866	0.009102135	-0.5896243	0.7031428	-0.01704021	-0.02594724
2.6e+08	-0.02311631	-0.02819161	-0.4719652	0.784925	0.01354305	0.007377881	0.002978701	0.002456467
	-0.4719652	0.784925	-0.02396069	-0.02667244	0.002977446	0.002454434	0.01323945	0.007989563
	0.01354305	0.007377881	0.002977446	0.002454434	-0.02317874	-0.02828763	-0.4699491	0.7860708
	0.002978701	0.002456467	0.01323945	0.007989563	-0.4699491	0.7860708	-0.02414132	-0.02652985
2.7e+08	-0.03024406	-0.02689986	-0.3412421	0.8480169	0.0150079	0.005567419	0.003476422	0.002119676
	-0.3412421	0.8480169	-0.03094731	-0.02505872	0.003474441	0.002117963	0.01476561	0.006302393
	0.0150079	0.005567419	0.003474441	0.002117963	-0.03035695	-0.02699778	-0.3389947	0.8488552
	0.003476422	0.002119676	0.01476561	0.006302393	-0.3389947	0.8488552	-0.03115438	-0.02487057
2.8e+08	-0.0366794	-0.02347315	-0.2025496	0.889564	0.01578999	0.003393392	0.003973563	0.001670162
	-0.2025496	0.889564	-0.03715357	-0.0213598	0.003971005	0.001669059	0.01564255	0.0042305
	0.01578999	0.003393392	0.003971005	0.001669059	-0.03684238	-0.02355745	-0.2001199	0.8900496
	0.003973563	0.001670162	0.01564255	0.0042305	-0.2001199	0.8900496	-0.03737382	-0.02111885
2.9e+08	-0.0417879	-0.0182416	-0.05939783	0.9086663	0.01581159	0.001093949	0.00443524	0.001085757
	-0.05939783	0.9086663	-0.04196335	-0.0159334	0.004432373	0.001085465	0.01578485	0.00200152
	0.01581159	0.001093949	0.004432373	0.001085465	-0.04199584	-0.01829735	-0.05684363	0.9087626
	0.00443524	0.001085757	0.01578485	0.00200152	-0.05684363	0.9087626	-0.04218179	-0.01563705
3e+08	-0.04507357	-0.01171471	0.0846317	0.9049858	0.01507495	-0.001081887	0.004814288	0.0003596744
	0.0846317	0.9049858	-0.04490759	-0.009309883	0.004811447	0.0003602609	0.01518379	-0.0001432204
	0.01507495	-0.001081887	0.004811447	0.0003602609	-0.04531697	-0.01172901	0.0872458	0.9046661
	0.004814288	0.0003596744	0.01518379	-0.0001432204	0.0872458	0.9046661	-0.04510908	-0.008960459
3.1e+08	-0.0462263	-0.004528386	0.2259717	0.8787408	0.01366084	-0.002899937	0.005059226	-0.0004945768
	0.2259717	0.8787408	-0.04570919	-0.002136583	0.005056748	-0.0004931999	0.01390694	-0.001973412
	0.01366084	-0.002899938	0.005056748	-0.0004931999	-0.046492	-0.004491634	0.228576	0.8779895
	0.005059226	-0.0004945768	0.01390694	-0.001973412	0.228576	0.8779895	-0.04588003	-0.001741202
3.2e+08	-0.0451504	0.002619359	0.3611491	0.8306899	0.01171933	-0.004164452	0.005123704	-0.00144244
	0.3611491	0.8306899	-0.04430825	0.004888125	0.005121851	-0.0014405	0.01209025	-0.003292722
	0.01171933	-0.004164452	0.005121851	-0.0014405	-0.04542271	0.002712449	0.3636709	0.8295035
	0.005123704	-0.00144244	0.01209025	-0.003292722	0.3636709	0.8295035	-0.04443769	0.005318271
3.3e+08	-0.04197197	0.009037793	0.4868601	0.762108	0.009453978	-0.004737446	0.00497537	-0.002431906
	0.4868601	0.762108	-0.04086587	0.01108481	0.004974272	-0.002429721	0.009923764	-0.003957985
	0.009453978	-0.004737446	0.004974272	-0.002429721	-0.04223408	0.009187544	0.4892258	0.7604952
	0.00497537	-0.002431906	0.009923764	-0.003957985	0.4892258	0.7604952	-0.04094721	0.01153558
3.4e+08	-0.03702497	0.01411136	0.6000402	0.6747544	0.007101094	-0.004552209	0.004602269	-0.00340072
	0.6000402	0.6747544	-0.0357463	0.01586026	0.004601898	-0.003398628	0.007632382	-0.003893058
	0.007101094	-0.004552209	0.004601898	-0.003398628	-0.03726048	0.01431294	0.6021772	0.6727364
	0.004602269	-0.00340072	0.007632382	-0.003893058	0.6021772	0.6727364	-0.03577774	0.01631602
3.5e+08	-0.03081722	0.01735986	0.6979302	0.5708341	0.00490598	-0.003619886	0.004015406	-0.004285689
	0.6979302	0.5708341	-0.02947964	0.01876582	0.004015578	-0.004283969	0.005453381	-0.003096225
	0.00490598	-0.003619886	0.004015578	-0.004283969	-0.03101176	0.01760354	0.6997692	0.5684444
	0.004015406	-0.004285689	0.005453381	-0.003096225	0.6997692	0.5684444	-0.02946446	0.01921105
3.6e+08	-0.02397981	0.01848525	0.7781392	0.4529521	0.003098221	-0.002028563	0.003246957	-0.005032132
	0.7781392	0.4529521	-0.02270837	0.01954133	0.003247381	-0.005030941	0.003612737	-0.001640509
	0.003098221	-0.002028563	0.003247381	-0.005030941	-0.02412243	0.01875718	0.7796158	0.4502357
	0.003246957	-0.005032132	0.003612737	-0.001640509	0.7796158	0.4502357	-0.02265472	0.01996226
3.7e+08	-0.01720449	0.01740073	0.8387029	0.3240575	0.001868265	6.518401e-05	0.002344548	-0.005601522
	0.8387029	0.3240575	-0.01612308	0.0181405	0.002344895	-0.005600849	0.002302251	0.0003332841
	0.001868265	6.518401e-05	0.002344895	-0.005600849	-0.01728887	0.01768413	0.8397596	0.3210704
	0.002344548	-0.005601522	0.002302251	0.0003332841	0.8397596	0.3210704	-0.01604318	0.01852659
3.8e+08	-0.01117502	0.01423905	0.8781364	0.1873797	0.001347502	0.002451727	0.001362836	-0.005975704
	0.8781364	0.1873797	-0.01039332	0.01473504	0.001362826	-0.005975374	0.001659702	0.002630384
	0.001347502	0.002451727	0.001362826	-0.005975374	-0.01120025	0.0145157	0.8787246	0.1841877
	0.001362836	-0.005975704	0.001659702	0.002630384	0.8787246	0.1841877	-0.01030227	0.01508016
3.9e+08	-0.006499268	0.009339059	0.8954793	0.04635216	0.001593966	0.004889581	0.0003542838	-0.006156898
	0.8954793	0.04635216	-0.00610055	0.009697083	0.0003537583	-0.006156609	0.001754086	0.005021662
	0.001593966	0.004889581	0.0003537583	-0.006156609	-0.00647011	0.009591065	0.8955603	0.04302975
	0.0003542838	-0.006156898	0.001754086	0.005021662	0.8955603	0.04302975	-0.006014783	0.01000024
4e+08	-0.003648662	0.003211734	0.890328	-0.09547217	0.002585385	0.007130415	-0.0006388798	-0.006163566
	0.890328	-0.09547217	-0.003679844	0.003561357	-0.0006399033	-0.006162965	0.002577726	0.007267261
	0.002585385	0.007130415	-0.0006399033	-0.006162965	-0.003575304	0.003423283	0.8898751	-0.09884342
	-0.0006388798	-0.006163566	0.002577726	0.007267261	0.8898751	-0.09884342	-0.003615412	0.003826903
4.1e+08	-0.002911349	-0.003511213	0.8628549	-0.2345142	0.004220688	0.008945365	-0.001589714	-0.006023218
	0.8628549	-0.2345142	-0.003376402	-0.003029108	-0.001591035	-0.006021988	0.004046421	0.009141858
	0.004220688	0.008945365	-0.001591035	-0.006021988	-0.002808557	-0.003352218	0.8618544	-0.2378472
	-0.001589714	-0.006023218	0.004046421	0.009141858	0.8618544	-0.2378472	-0.003347275	-0.002791793
4.2e+08	-0.004363874	-0.01014083	0.8138083	-0.3672659	0.006330127	0.01014971	-0.002487589	-0.005763892
	0.8138083	-0.3672659	-0.005221495	-0.009388242	-0.002488858	-0.005761842	0.006007928	0.01045877
	0.006330127	0.01014971	-0.002488858	-0.005761842	-0.004249673	-0.01004146	0.8122611	-0.3704706
	-0.002487589	-0.005763892	0.006007928	0.01045877	0.8122611	-0.3704706	-0.005238027	-0.009165657
4.3e+08	-0.007864354	-0.01600008	0.744495	-0.4903887	0.008693143	0.01062306	-0.003335047	-0.005406389
	0.744495	-0.4903887	-0.009030316	-0.01485637	-0.003335838	-0.005403515	0.008258035	0.01109009
	0.008693143	0.01062306	-0.003335838	-0.005403515	-0.007758326	-0.01596151	0.7424169	-0.4933738
	-0.003335047	-0.005406389	0.008258035	0.01109009	0.7424169	-0.4933738	-0.009098054	-0.01463222
4.4e+08	-0.01306776	-0.02049133	0.6567427	-0.6008061	0.01106202	0.01032248	-0.00414138	-0.004959133
	0.6567427	-0.6008061	-0.01442189	-0.01886649	-0.00414129	-0.004955639	0.01056248	0.01098035
	0.01106202	0.01032248	-0.00414129	-0.004955639	-0.01298914	-0.0205086	0.654165	-0.6034821
	-0.00414138	-0.004959133	0.01056248	0.01098035	0.654165	-0.6034821	-0.01454088	-0.01862338
4.5e+08	-0.01946157	-0.0231554	0.552845	-0.6957875	0.0131886	0.009287083	-0.004914591	-0.004416884
	0.552845	-0.6957875	-0.02085873	-0.02100057	-0.004913334	-0.004413154	0.0126821	0.01015222
	0.0131886	0.009287083	-0.004913334	-0.004413154	-0.01942733	-0.02321773	0.5498146	-0.6980696
	-0.004914591	-0.004416884	0.0126821	0.01015222	0.5498146	-0.6980696	-0.02102341	-0.02072184
4.6e+08	-0.0264178	-0.02371608	0.4354931	-0.773019	0.01485087	0.007633486	-0.005653763	-0.003763609
	0.4354931	-0.773019	-0.02770197	-0.0210302	-0.005651248	-0.003760136	0.01439836	0.008703471
	0.01485087	0.007633486	-0.005651248	-0.003760136	-0.02644094	-0.02380789	0.4320718	-0.7748294
	-0.005653763	-0.003763609	0.01439836	0.008703471	0.4320718	-0.7748294	-0.02790164	-0.02070172
4.7e+08	-0.03325589	-0.02210595	0.3076966	-0.8306579	0.0158764	0.005542823	-0.006343798	-0.002978783
	0.3076966	-0.8306579	-0.03427578	-0.0189376	-0.006340162	-0.002976071	0.0155361	0.006795891
	0.0158764	0.005542823	-0.006340162	-0.002976071	-0.03334406	-0.02220814	0.3039595	-0.8319291
	-0.006343798	-0.002978783	0.0155361	0.006795891	0.3039595	-0.8319291	-0.03449569	-0.01854923
4.8e+08	-0.03931	-0.01847133	0.1726982	-0.8673712	0.01616002	0.003241071	-0.006953829	-0.002045619
	0.1726982	-0.8673712	-0.03993475	-0.01491548	-0.006949421	-0.002044075	0.01598133	0.00463763
	0.01616002	0.003241071	-0.006949421	-0.002044075	-0.03946464	-0.01856315	0.1687326	-0.8680481
	-0.006953829	-0.002045619	0.01598133	0.00463763	0.1687326	-0.8680481	-0.0401575	-0.01446228
4.9e+08	-0.04399391	-0.01315624	0.0338878	-0.8823575	0.015674	0.0009750555	-0.007439815	-0.0009592449
	0.0338878	-0.8823575	-0.04412717	-0.009346196	-0.007435135	-0.0009590881	0.01569206	0.002461115
	0.015674	0.0009750555	-0.007435135	-0.0009590881	-0.04420999	-0.01321731	0.02979026	-0.8823996
	-0.007439815	-0.0009592449	0.01569206	0.002461115	0.02979026	-0.8823996	-0.04433455	-0.008828986
5e+08	-0.04685749	-0.006667562	-0.1052835	-0.8753547	0.01447009	-0.001013145	-0.00775082	0.0002671148
	-0.1052835	-0.8753547	-0.04644839	-0.002762605	-0.007746416	0.0002659001	0.01470168	0.0004990936
	0.01447009	-0.001013145	-0.007746416	0.0002659001	-0.04712386	-0.006679824	-0.1094092	-0.8747379
	-0.00775082	0.0002671148	0.01470168	0.0004990936	-0.1094092	-0.8747379	-0.04662323	-0.002188003
