!$
! Info: Touchstone file created by Circ.  Input file=Tx_14in_Rx_93ohms_TxVia_35mils_RxVia_45mils.circ
!$
# Hz S RI R 50
0	0.01280938	1.659504e-25	-7.488293e-05	3.708971e-24	9.371263e-05	2.393795e-23	-7.486359e-05	1.384962e-24
	-7.488296e-05	3.712837e-24	0.01280766	2.040498e-25	-7.489369e-05	5.238868e-24	9.357897e-05	2.900741e-23
	9.35273e-05	2.383745e-23	-7.489367e-05	5.235592e-24	0.01281991	1.659165e-25	-7.487958e-05	3.562184e-24
	-7.486362e-05	1.387994e-24	9.173037e-05	2.915015e-23	-7.48796e-05	3.564626e-24	0.01282072	1.911957e-25
1e+07	0.01816149	-0.002082861	-0.0003452758	2.555108e-05	0.0005602067	0.002541935	-6.913772e-05	-6.155159e-06
	-0.0003452758	2.555108e-05	0.0185267	-0.002129879	-0.0001767534	0.0001023689	0.000554003	0.002534215
	0.0005602012	0.002541936	-0.0001767534	0.0001023689	0.01855158	-0.002144867	-0.0003447911	2.871868e-05
	-6.913771e-05	-6.155162e-06	0.000553942	0.002534224	-0.0003447911	2.871867e-05	0.01815834	-0.002118349
2e+07	0.02048304	-0.00889277	-0.0002949885	-2.777735e-05	0.001551396	0.00492381	-4.154512e-05	-7.100797e-05
	-0.0002949885	-2.777735e-05	0.02069241	-0.009090168	-0.0001682247	8.275664e-05	0.001534362	0.004913957
	0.001551397	0.004923815	-0.0001682247	8.275663e-05	0.02074608	-0.009130558	-0.0002938664	-3.382313e-05
	-4.154512e-05	-7.100797e-05	0.001534354	0.004913992	-0.0002938664	-3.382314e-05	0.02042475	-0.00894964
3e+07	0.01947553	-0.01704548	-0.0002662181	-4.804368e-05	0.003229968	0.006766214	-5.659516e-05	-8.263057e-05
	-0.0002662181	-4.804368e-05	0.01953248	-0.01726283	-0.0001496992	9.065647e-05	0.003176081	0.006772905
	0.003229971	0.006766213	-0.0001496992	9.065647e-05	0.01962736	-0.01734649	-0.0002643023	-5.573203e-05
	-5.659516e-05	-8.263057e-05	0.003176081	0.00677291	-0.0002643023	-5.573203e-05	0.01933684	-0.01709605
4e+07	0.01577971	-0.02479908	-0.0002456433	-5.265847e-05	0.00536612	0.007992718	-9.761656e-05	-6.446904e-05
	-0.0002456433	-5.265847e-05	0.01568923	-0.02497452	-0.000126686	9.385674e-05	0.005285357	0.008024393
	0.005366121	0.007992716	-0.000126686	9.385675e-05	0.01582923	-0.02512398	-0.0002434091	-6.172065e-05
	-9.761656e-05	-6.446904e-05	0.005285351	0.00802439	-0.0002434091	-6.172065e-05	0.01554548	-0.02480945
5e+07	0.009917911	-0.03131397	-0.0002290897	-5.079886e-05	0.007710503	0.00855343	-0.0001277352	-3.477619e-05
	-0.0002290897	-5.079886e-05	0.0096957	-0.03139655	-0.0001042664	8.745162e-05	0.007605885	0.008621728
	0.007710503	0.008553429	-0.0001042664	8.745162e-05	0.009874804	-0.03163608	-0.0002268831	-6.110489e-05
	-0.0001277352	-3.477619e-05	0.007605881	0.008621727	-0.0002268831	-6.110489e-05	0.009585557	-0.03124581
6e+07	0.00247214	-0.03603127	-0.0002139808	-4.586479e-05	0.01006868	0.008425738	-0.0001465992	2.580138e-06
	-0.0002139808	-4.586479e-05	0.002145936	-0.03597873	-8.79189e-05	7.108341e-05	0.009947332	0.008540982
	0.01006868	0.008425738	-8.79189e-05	7.108341e-05	0.002347855	-0.03633015	-0.0002120741	-5.731611e-05
	-0.0001465992	2.580138e-06	0.009947334	0.008540981	-0.0002120741	-5.731611e-05	0.002053116	-0.03584651
7e+07	-0.005915585	-0.0386096	-0.0001986051	-3.987037e-05	0.01224781	0.007641403	-0.0001535843	4.467502e-05
	-0.0001986051	-3.987037e-05	-0.006307334	-0.03839061	-8.264535e-05	4.727192e-05	0.01212046	0.007811301
	0.01224781	0.007641403	-8.264535e-05	4.727192e-05	-0.006107748	-0.03886941	-0.0001972112	-5.236668e-05
	-0.0001535843	4.467501e-05	0.01212047	0.007811298	-0.0001972112	-5.236668e-05	-0.006396582	-0.03827548
8e+07	-0.01457634	-0.03891036	-0.0001816896	-3.437257e-05	0.01407288	0.006284223	-0.0001479062	8.884557e-05
	-0.0001816896	-3.437257e-05	-0.0149874	-0.03850692	-9.216816e-05	2.064763e-05	0.01395295	0.006512707
	0.01407288	0.006284222	-9.216816e-05	2.064763e-05	-0.01482142	-0.03911922	-0.0001809536	-4.780317e-05
	-0.0001479062	8.884557e-05	0.01395296	0.0065127	-0.0001809536	-4.780317e-05	-0.01508383	-0.03840361
9e+07	-0.02285568	-0.03698612	-0.0001617665	-3.070403e-05	0.01540075	0.004482528	-0.0001282563	0.00013238
	-0.0001617665	-3.070403e-05	-0.02323554	-0.03639515	-0.0001185012	-2.936578e-06	0.01530312	0.00476894
	0.01540075	0.004482527	-0.0001185012	-2.936578e-06	-0.02313707	-0.03713586	-0.000165837	-3.313392e-05
	-0.0001282563	0.00013238	0.01530313	0.004768934	-0.000165837	-3.313392e-05	-0.02334696	-0.03629614
1e+08	-0.03013937	-0.03305992	-0.0001400861	1.017475e-05	0.01613022	0.002397346	-8.852042e-05	0.0001722051
	-0.0001400861	1.017475e-05	-0.03043407	-0.03229341	-0.0001644961	-1.815171e-05	0.01607009	0.00273609
	0.01613022	0.002397346	-0.0001644961	-1.815171e-05	-0.03043573	-0.03314549	-0.0001460562	2.407042e-05
	-8.852042e-05	0.0001722051	0.01607009	0.00273609	-0.0001460562	2.407042e-05	-0.03056864	-0.0321907
1.1e+08	-0.03597866	-0.02762497	-0.0001099916	3.106092e-05	0.01621057	0.0002182621	-3.96897e-05	0.0001806532
	-0.0001099916	3.106092e-05	-0.03614669	-0.02672961	-0.000218509	-3.318092e-05	0.0162006	0.0005963245
	0.01621057	0.0002182622	-0.000218509	-3.318092e-05	-0.03627618	-0.02766547	-0.0001124716	4.55444e-05
	-3.96897e-05	0.0001806532	0.0162006	0.0005963245	-0.0001124716	4.55444e-05	-0.03630225	-0.0265987
1.2e+08	-0.04008776	-0.02102939	-8.875126e-05	4.393472e-05	0.01565292	-0.001873271	-9.785461e-08	0.0001798269
	-8.875126e-05	4.393472e-05	-0.04011044	-0.02004333	-0.00027318	-2.777123e-05	0.01570056	-0.001470307
	0.01565292	-0.001873271	-0.00027318	-2.777123e-05	-0.04038677	-0.02102466	-8.829865e-05	5.837525e-05
	-9.785461e-08	0.0001798269	0.01570056	-0.001470307	-8.829865e-05	5.837525e-05	-0.04027095	-0.01987822
1.3e+08	-0.04221365	-0.01380665	-7.048724e-05	5.188207e-05	0.01451086	-0.003703509	3.508929e-05	0.0001723772
	-7.048724e-05	5.188207e-05	-0.04207802	-0.01277408	-0.0003266195	-1.855947e-06	0.01461974	-0.003292643
	0.01451086	-0.003703509	-0.0003266195	-1.855947e-06	-0.04250789	-0.01375591	-6.735511e-05	6.579994e-05
	3.508929e-05	0.0001723772	0.01461974	-0.003292643	-6.735511e-05	6.579994e-05	-0.04223142	-0.01257419
1.4e+08	-0.04228762	-0.006530257	-5.458523e-05	5.61782e-05	0.01288465	-0.005121227	6.296658e-05	0.0001606879
	-5.458523e-05	5.61782e-05	-0.04199313	-0.005499655	-0.0003731314	4.350007e-05	0.01305321	-0.004720789
	0.01288465	-0.005121227	-0.0003731314	4.350007e-05	-0.04256887	-0.006434415	-4.901297e-05	6.914698e-05
	6.296658e-05	0.0001606879	0.01305321	-0.004720789	-4.901297e-05	6.914698e-05	-0.0421289	-0.00526832
1.5e+08	-0.04040465	0.0002388776	-4.085676e-05	5.783763e-05	0.01091185	-0.006009871	7.696901e-05	0.000150957
	-4.085676e-05	5.783763e-05	-0.03996534	0.001218757	-0.0004071815	0.0001052867	0.01113285	-0.005637837
	0.01091185	-0.006009871	-0.0004071815	0.0001052867	-0.04066417	0.0003766716	-3.311545e-05	6.94719e-05
	7.696901e-05	0.000150957	0.01113285	-0.005637837	-3.311545e-05	6.94719e-05	-0.0400751	0.001474996
1.6e+08	-0.03680869	0.00599544	-2.933293e-05	5.7767e-05	0.008756136	-0.006296135	9.050716e-05	0.0001398468
	-2.933293e-05	5.7767e-05	-0.03625345	0.006880226	-0.0004244573	0.0001788221	0.009016754	-0.005968308
	0.008756136	-0.006296134	-0.0004244573	0.0001788221	-0.03703817	0.006169684	-1.974117e-05	6.773252e-05
	9.050716e-05	0.0001398468	0.009016754	-0.005968308	-1.974117e-05	6.773252e-05	-0.03633166	0.007152477
1.7e+08	-0.03186916	0.01032658	-1.973861e-05	5.677907e-05	0.006594422	-0.005955211	0.0001031725	0.0001273471
	-1.973861e-05	5.677907e-05	-0.03124038	0.01108095	-0.0004224793	0.0002583647	0.006876953	-0.005683483
	0.006594422	-0.005955211	-0.0004224793	0.0002583647	-0.03206153	0.0105296	-8.662332e-06	6.480202e-05
	0.0001031725	0.0001273471	0.006876953	-0.005683483	-8.662332e-06	6.480202e-05	-0.03128476	0.011359
1.8e+08	-0.02604949	0.01294086	-1.163231e-05	5.548494e-05	0.004603089	-0.005012457	0.0001146384	0.0001135352
	-1.163231e-05	5.548494e-05	-0.02540017	0.0135427	-0.0004008499	0.0003378898	0.004886205	-0.00480331
	0.004603089	-0.005012457	-0.0004008499	0.0003378898	-0.02619956	0.0131632	5.223099e-07	6.136487e-05
	0.0001146384	0.0001135352	0.004886205	-0.00480331	5.223099e-07	6.136487e-05	-0.0254119	0.01381609
1.9e+08	-0.01986975	0.01368764	-4.465105e-06	5.423995e-05	0.002944259	-0.003541353	0.0001246407	9.855274e-05
	-4.465105e-06	5.423995e-05	-0.01925939	0.01413118	-0.0003611594	0.00041188	0.003204692	-0.003394789
	0.002944259	-0.003541353	-0.0003611594	0.00041188	-0.01997474	0.0139186	8.335573e-06	5.786082e-05
	0.0001246407	9.855274e-05	0.003204692	-0.003394789	8.335573e-06	5.786082e-05	-0.01924294	0.01439028
2e+08	-0.01386592	0.01256577	2.325722e-06	5.312144e-05	0.001753002	-0.001657817	0.0001329716	8.258635e-05
	2.325722e-06	5.312144e-05	-0.01335542	0.01286343	-0.0003065899	0.0004759966	0.00196754	-0.001566825
	0.001753002	-0.001657817	-0.0003065899	0.0004759966	-0.01392574	0.01279405	1.533341e-05	5.445813e-05
	0.0001329716	8.258635e-05	0.00196754	-0.001566825	1.533341e-05	5.445813e-05	-0.01331809	0.01310037
2.1e+08	-0.008548496	0.009720989	9.212772e-06	5.194785e-05	0.00112645	0.0004888285	0.0001394748	6.585402e-05
	9.212772e-06	5.194785e-05	-0.00819458	0.009903585	-0.0002412921	0.0005275289	0.001274061	0.0005381919
	0.00112645	0.0004888285	-0.0002412921	0.0005275289	-0.008565925	0.009935406	2.200394e-05	5.106619e-05
	0.0001394748	6.585402e-05	0.001274061	0.0005381919	2.200394e-05	5.106619e-05	-0.008145855	0.01011302
2.2e+08	-0.004363568	0.0054323	1.6486e-05	5.034101e-05	0.001115725	0.002727711	0.0001440429	4.85925e-05
	1.6486e-05	5.034101e-05	-0.004213296	0.005547584	-0.0001696539	0.0005655492	0.001179615	0.002755599
	0.001115725	0.002727711	-0.0001696539	0.0005655492	-0.004344184	0.005622553	2.867486e-05	4.739041e-05
	0.0001440429	4.85925e-05	0.001179615	0.002755599	2.867486e-05	4.739041e-05	-0.004163958	0.005727227
2.3e+08	-0.001659274	8.829785e-05	2.4191e-05	4.782253e-05	0.001721451	0.004880234	0.0001466133	3.104743e-05
	2.4191e-05	4.782253e-05	-0.00174503	0.0001978155	-9.558924e-05	0.0005907621	0.00169088	0.004911676
	0.001721451	0.004880234	-9.558924e-05	0.0005907621	-0.001611217	0.000245683	3.544877e-05	4.302158e-05
	0.0001466133	3.104743e-05	0.00169088	0.004911676	3.544877e-05	4.302158e-05	-0.001706215	0.0003486805
2.4e+08	-0.0006601401	-0.005844691	3.211109e-05	4.392765e-05	0.002893397	0.006774793	0.0001471645	1.346642e-05
	3.211109e-05	4.392765e-05	-0.0009956853	-0.00567019	-2.194826e-05	0.0006050837	0.002765065	0.006837847
	0.002893397	0.006774793	-2.194826e-05	0.0006050837	-0.0005936665	-0.005726612	4.217959e-05	3.754403e-05
	0.0001471645	1.346642e-05	0.002765065	0.006837847	4.217959e-05	3.754403e-05	-0.0009778844	-0.005543808
2.5e+08	-0.001451321	-0.01186019	3.979888e-05	3.831951e-05	0.004534424	0.008261137	0.0001457114	-3.908488e-06
	3.979888e-05	3.831951e-05	-0.002029285	-0.01154644	4.978335e-05	0.0006110396	0.004313288	0.008384652
	0.004534424	0.008261137	4.978335e-05	0.0006110396	-0.001378177	-0.01178505	4.849663e-05	3.064679e-05
	0.0001457114	-3.908488e-06	0.004313288	0.008384652	4.849663e-05	3.064679e-05	-0.00204141	-0.01143728
2.6e+08	-0.003973942	-0.01745181	4.649953e-05	3.091008e-05	0.006508521	0.009223039	0.0001423013	-2.084541e-05
	4.649953e-05	3.091008e-05	-0.004765053	-0.01692744	0.0001358207	0.0006022379	0.006207936	0.009434209
	0.006508521	0.009223039	0.0001358207	0.0006022379	-0.003906574	-0.01742011	5.371903e-05	2.224259e-05
	0.0001423013	-2.084541e-05	0.006207936	0.009434209	5.371903e-05	2.224259e-05	-0.004813648	-0.01682582
2.7e+08	-0.008031808	-0.02215296	5.170616e-05	2.185474e-05	0.008652269	0.009588105	0.0001370059	-3.712218e-05
	5.170616e-05	2.185474e-05	-0.008986134	-0.02135586	0.0002205355	0.0005833182	0.008293405	0.009910015
	0.008652269	0.009588105	0.0002205355	0.0005833182	-0.007982583	-0.02216188	5.740486e-05	1.247132e-05
	0.0001370059	-3.712218e-05	0.008293405	0.009910015	5.740486e-05	1.247132e-05	-0.009074686	-0.0212505
2.8e+08	-0.01330878	-0.02557283	5.486769e-05	1.156407e-05	0.0107887	0.009333751	0.0001299229	-5.253015e-05
	5.486769e-05	1.156407e-05	-0.01435876	-0.02445614	0.0003020903	0.0005568027	0.01039924	0.009783131
	0.0107887	0.009333751	0.0003020903	0.0005568027	-0.01328906	-0.02561629	5.905209e-05	1.712044e-06
	0.0001299229	-5.253015e-05	0.01039924	0.009783131	5.905209e-05	1.712044e-06	-0.01448737	-0.0243351
2.9e+08	-0.01939527	-0.02742579	5.558687e-05	6.718568e-07	0.01274225	0.008488826	0.0001211718	-6.687496e-05
	5.558687e-05	6.718568e-07	-0.02046045	-0.02596286	0.0003818562	0.000522827	0.01235445	0.009074224
	0.01274225	0.008488826	0.0003818562	0.000522827	-0.01941452	-0.0274948	5.829357e-05	-9.439735e-06
	0.0001211718	-6.687496e-05	0.01235445	0.009074224	5.829357e-05	-9.439735e-06	-0.02062578	-0.02581455
3e+08	-0.02582145	-0.02755211	5.372551e-05	-1.005922e-05	0.01435344	0.007130776	0.0001108918	-7.997707e-05
	5.372551e-05	-1.005922e-05	-0.02681467	-0.02573995	0.0004608218	0.0004802955	0.01400166	0.007851327
	0.01435344	0.007130776	0.0004608218	0.0004802955	-0.02588655	-0.02763535	5.500282e-05	-2.02579e-05
	0.0001108918	-7.997707e-05	0.01400166	0.007851327	5.500282e-05	-2.02579e-05	-0.02701015	-0.0255541
3.1e+08	-0.03209462	-0.02592855	4.943646e-05	-1.985349e-05	0.01549195	0.005378706	9.924166e-05	-9.167318e-05
	4.943646e-05	-1.985349e-05	-0.03292897	-0.02378939	0.0005390347	0.0004271986	0.0152099	0.006223654
	0.01549195	0.005378706	0.0005390347	0.0004271986	-0.03220922	-0.02601311	4.93297e-05	-2.999449e-05
	9.924166e-05	-9.167318e-05	0.0152099	0.006223654	4.93297e-05	-2.999449e-05	-0.03314529	-0.02355795
3.2e+08	-0.03773742	-0.02266827	4.314558e-05	-2.803972e-05	0.01606696	0.003383092	8.639866e-05	-0.0001018184
	4.314558e-05	-2.803972e-05	-0.03833364	-0.02024903	0.0006152264	0.0003611529	0.01588479	0.00433213
	0.01606696	0.003383092	0.0006152264	0.0003611529	-0.03790165	-0.02274054	4.168874e-05	-3.799222e-05
	8.639866e-05	-0.0001018184	0.01588479	0.00433213	4.168874e-05	-3.799222e-05	-0.03855949	-0.01996686
3.3e+08	-0.04232434	-0.01801036	3.54877e-05	-3.414975e-05	0.01603403	0.001313145	7.255654e-05	-0.0001102887
	3.54877e-05	-3.414975e-05	-0.04261777	-0.01538002	0.0006867052	0.0002800457	0.01597565	0.0023376
	0.01603403	0.001313145	0.0006867052	0.0002800457	-0.04253463	-0.01805699	3.270277e-05	-4.37815e-05
	7.255654e-05	-0.0001102887	0.01597565	0.0023376	3.270277e-05	-4.37815e-05	-0.04284075	-0.01504538
3.4e+08	-0.04551348	-0.01230011	2.720876e-05	-3.798182e-05	0.01539807	-0.0006570258	5.792362e-05	-0.0001169845
	2.720876e-05	-3.798182e-05	-0.04546021	-0.009545095	0.0007495289	0.0001826679	0.01547882	0.000407762
	0.01539807	-0.0006570258	0.0007495289	0.0001826679	-0.04576278	-0.01230904	2.311274e-05	-4.714548e-05
	5.792362e-05	-0.0001169845	0.01547882	0.000407762	2.311274e-05	-4.714548e-05	-0.04566784	-0.009159838
3.5e+08	-0.04707167	-0.00596169	1.905316e-05	-3.961886e-05	0.01421238	-0.002362308	4.271878e-05	-0.0001218316
	1.905316e-05	-3.961886e-05	-0.04665316	-0.00317958	0.0007989272	6.923837e-05	0.01443729	-0.001296087
	0.01421238	-0.002362308	0.0007989272	6.923837e-05	-0.04734982	-0.005923001	1.367136e-05	-4.814338e-05
	4.271878e-05	-0.0001218316	0.01443729	-0.001296087	1.367136e-05	-4.814338e-05	-0.04683388	-0.002749042
3.6e+08	-0.04689108	0.0005346575	1.165435e-05	-3.940076e-05	0.01257391	-0.003659486	2.716793e-05	-0.0001247832
	1.165435e-05	-3.940076e-05	-0.04611688	0.003242603	0.0008299086	-5.828896e-05	0.01293684	-0.002631511
	0.01257391	-0.003659486	0.0008299086	-5.828896e-05	-0.04718549	0.0006279217	5.037134e-06	-4.708998e-05
	2.716793e-05	-0.0001247832	0.01293684	-0.002631511	5.037134e-06	-4.708998e-05	-0.04626105	0.003709986
3.7e+08	-0.04499642	0.006708411	5.446963e-06	-3.785652e-05	0.01061536	-0.004438251	1.150021e-05	-0.0001258194
	5.446963e-06	-3.785652e-05	-0.04390472	0.009245353	0.0008379529	-0.0001961764	0.01109899	-0.003485751
	0.01061536	-0.004438251	0.0008379529	-0.0001961764	-0.04529288	0.006859667	-2.313375e-06	-4.449609e-05
	1.150021e-05	-0.0001258194	0.01109899	-0.003485751	-2.313375e-06	-4.449609e-05	-0.04400542	0.009738689
3.8e+08	-0.04154228	0.01210499	6.133806e-07	-3.560836e-05	0.008494711	-0.004629605	-4.054869e-06	-0.0001249466
	6.133806e-07	-3.560836e-05	-0.04019814	0.01438659	0.000819676	-0.0003391326	0.009071441	-0.003784206
	0.008494711	-0.004629605	0.000819676	-0.0003391326	-0.04182599	0.01231375	-8.142471e-06	-4.09805e-05
	-4.054869e-06	-0.0001249466	0.009071441	-0.003784206	-8.142471e-06	-4.09805e-05	-0.04025174	0.01489339
3.9e+08	-0.03680096	0.01632982	-2.927411e-06	-3.326358e-05	0.006382904	-0.004211144	-1.926954e-05	-0.0001221973
	-2.927411e-06	-3.326358e-05	-0.03529222	0.01829168	0.000773364	-0.0004807867	0.007016681	-0.00349605
	0.006382904	-0.004211144	0.000773364	-0.0004807867	-0.03705756	0.01659161	-1.246918e-05	-3.716768e-05
	-1.926954e-05	-0.0001221973	0.007016681	-0.00349605	-1.246918e-05	-3.716768e-05	-0.03529876	0.01879883
4e+08	-0.03114164	0.01907787	-5.487267e-06	-3.131153e-05	0.004450598	-0.00320888	-3.391969e-05	-0.0001176299
	-5.487267e-06	-3.131153e-05	-0.02957282	0.02068162	0.0006992909	-0.0006143341	0.005099482	-0.002636647
	0.004450598	-0.00320888	0.0006992909	-0.0006143341	-0.03135828	0.01938445	-1.554554e-05	-3.358752e-05
	-3.391969e-05	-0.0001176299	0.005099482	-0.002636647	-1.554554e-05	-3.358752e-05	-0.02953608	0.02117645
4.1e+08	-0.02500234	0.02015652	-7.5384e-06	-3.004213e-05	0.002854846	-0.001695455	-4.778697e-05	-0.0001113295
	-7.5384e-06	-3.004213e-05	-0.02348698	0.02139406	0.0005997678	-0.0007332613	0.003474155	-0.001266544
	0.002854846	-0.001695455	0.0005997678	-0.0007332613	-0.02516869	0.02049631	-1.77957e-05	-3.059272e-05
	-4.778697e-05	-0.0001113295	0.003474155	-0.001266544	-1.77957e-05	-3.059272e-05	-0.0234142	0.02186538
4.2e+08	-0.01885682	0.01949997	-9.615882e-06	-2.94993e-05	0.001726648	0.0002152058	-6.066177e-05	-0.0001034087
	-9.615882e-06	-2.94993e-05	-0.01750868	0.02039547	0.0004789156	-0.0008320348	0.002272433	0.0005129481
	0.001726648	0.0002152058	0.0004789156	-0.0008320348	-0.0189659	0.01985886	-1.972711e-05	-2.830715e-05
	-6.066177e-05	-0.0001034087	0.002272433	0.0005129481	-1.972711e-05	-2.830715e-05	-0.01741003	0.02083451
4.3e+08	-0.01317862	0.01717425	-1.220898e-05	-2.947798e-05	0.001160288	0.002376511	-7.234753e-05	-9.400854e-05
	-1.220898e-05	-2.947798e-05	-0.01210252	0.01778361	0.0003421981	-0.0009066529	0.001592876	0.002567382
	0.001160288	0.002376511	0.0003421981	-0.0009066529	-0.01322745	0.01753654	-2.182801e-05	-2.661456e-05
	-7.234753e-05	-9.400854e-05	0.001592876	0.002567381	-2.182801e-05	-2.661456e-05	-0.01199037	0.01818475
4.4e+08	-0.008405065	0.01337222	-1.565986e-05	-2.956573e-05	0.00120536	0.004620581	-8.266587e-05	-8.329793e-05
	-1.565986e-05	-2.956573e-05	-0.007688092	0.01377987	0.0001957831	-0.0009549749	0.00149268	0.004739562
	0.00120536	0.004620581	0.0001957831	-0.0009549749	-0.008395021	0.01372173	-2.446865e-05	-2.51897e-05
	-8.266587e-05	-8.329793e-05	0.00149268	0.004739562	-2.446865e-05	-2.51897e-05	-0.007576025	0.0141412
4.5e+08	-0.004903938	0.008398778	-2.008755e-05	-2.922349e-05	0.001862201	0.006771586	-9.146244e-05	-7.147142e-05
	-2.008755e-05	-2.922349e-05	-0.004607691	0.008712157	4.583939e-05	-0.0009767818	0.001982631	0.006861988
	0.001862201	0.006771586	4.583939e-05	-0.0009767818	-0.004840774	0.0087201	-2.782336e-05	-2.356817e-05
	-9.146244e-05	-7.147142e-05	0.001982631	0.006861988	-2.782336e-05	-2.356817e-05	-0.004509414	0.009035667
4.6e+08	-0.002945383	0.002647607	-2.535126e-05	-2.78915e-05	0.003081279	0.008660041	-9.861183e-05	-5.874508e-05
	-2.535126e-05	-2.78915e-05	-0.003100001	0.002989409	-0.0001021245	-0.0009735633	0.003025771	0.008770397
	0.003081279	0.008660041	-0.0001021245	-0.0009735633	-0.002838962	0.002927248	-3.182728e-05	-2.124257e-05
	-9.861183e-05	-5.874508e-05	0.003025771	0.008770397	-3.182728e-05	-2.124257e-05	-0.003028181	0.003280948
4.7e+08	-0.002681359	-0.003429154	-3.106193e-05	-2.510288e-05	0.004766743	0.01013685	-0.0001040225	-4.535138e-05
	-3.106193e-05	-2.510288e-05	-0.003281851	-0.002930153	-0.0002437703	-0.0009480741	0.004540031	0.01031728
