!$
! Info: Touchstone file created by Circ.  Input file=Tx_12in_Rx_85ohms_TxVia_35mils_RxVia_45mils.circ
!$
# Hz S RI R 50
0	0.009692222	1.541252e-25	1.755698e-08	2.154108e-26	8.31708e-05	1.84387e-23	3.417481e-08	4.799523e-27
	1.7557e-08	2.153983e-26	0.009691091	1.802756e-25	3.410074e-08	7.786082e-26	8.358992e-05	2.191786e-23
	8.133242e-05	1.893483e-23	3.410075e-08	7.786116e-26	0.009704658	1.46916e-25	2.083973e-08	2.552656e-26
	3.417481e-08	4.800177e-27	8.174192e-05	2.202579e-23	2.083974e-08	2.552774e-26	0.009704202	1.689123e-25
1e+07	0.01217278	-0.01154771	2.891022e-08	4.784224e-08	0.0004510797	0.002204485	9.330238e-08	1.373824e-07
	2.891022e-08	4.784224e-08	0.01215953	-0.01154669	5.437238e-08	1.570629e-07	0.0004466586	0.00220586
	0.0004510195	0.002204489	5.437237e-08	1.570629e-07	0.01215037	-0.01153302	3.412765e-08	5.724111e-08
	9.330238e-08	1.373824e-07	0.0004465982	0.00220587	3.412766e-08	5.724111e-08	0.01213546	-0.01153156
2e+07	0.01086648	-0.02609558	4.954877e-08	8.110851e-08	0.001316282	0.004177957	2.003893e-07	2.126295e-07
	4.954876e-08	8.110851e-08	0.0108158	-0.02608405	6.66567e-08	2.87824e-07	0.001299592	0.004184302
	0.00131627	0.004177995	6.665669e-08	2.87824e-07	0.01085889	-0.02605644	5.864854e-08	9.697961e-08
	2.003891e-07	2.126295e-07	0.001299585	0.004184337	5.864854e-08	9.697961e-08	0.01080204	-0.02604274
3e+07	0.0047787	-0.04086807	7.31194e-08	1.055064e-07	0.002619962	0.005840941	3.352705e-07	2.379736e-07
	7.311939e-08	1.055064e-07	0.004671086	-0.04082763	6.809738e-08	4.181721e-07	0.002585075	0.005858422
	0.002619965	0.005840946	6.809738e-08	4.181721e-07	0.00478448	-0.04081703	8.656605e-08	1.261999e-07
	3.352705e-07	2.379736e-07	0.002585075	0.005858428	8.656605e-08	1.261999e-07	0.004664054	-0.04077033
4e+07	-0.005188404	-0.05387404	9.796434e-08	1.202872e-07	0.004267663	0.007099901	4.832259e-07	2.049952e-07
	9.796435e-08	1.202871e-07	-0.005365099	-0.05378024	6.393802e-08	5.516894e-07	0.004211128	0.007136587
	0.004267658	0.007099897	6.393802e-08	5.516894e-07	-0.005170571	-0.0538162	1.159482e-07	1.440871e-07
	4.832259e-07	2.049952e-07	0.004211122	0.007136585	1.159482e-07	1.440871e-07	-0.005367936	-0.05370918
5e+07	-0.01819783	-0.06410671	1.208911e-07	1.252444e-07	0.006140358	0.007887336	6.23481e-07	1.106965e-07
	1.208911e-07	1.252444e-07	-0.01844678	-0.06393115	5.652583e-08	6.900757e-07	0.00606173	0.007952344
	0.006140354	0.007887335	5.652583e-08	6.900757e-07	-0.01816982	-0.06404564	1.430533e-07	1.503779e-07
	6.23481e-07	1.106965e-07	0.006061726	0.007952343	1.430533e-07	1.503779e-07	-0.01844749	-0.06384658
6e+07	-0.03333068	-0.07090315	1.386816e-07	1.212817e-07	0.008107245	0.008170212	7.352195e-07	-4.083246e-08
	1.386816e-07	1.212817e-07	-0.03364493	-0.07061674	4.81894e-08	8.346064e-07	0.008009289	0.008272684
	0.008107249	0.008170212	4.81894e-08	8.346064e-07	-0.03329489	-0.07084134	1.640621e-07	1.461498e-07
	7.352195e-07	-4.083246e-08	0.008009291	0.008272683	1.640621e-07	1.461498e-07	-0.03364491	-0.07051781
7e+07	-0.04960366	-0.07388387	1.484995e-07	1.10231e-07	0.01003665	0.00795092	7.998032e-07	-2.393624e-07
	1.484995e-07	1.102311e-07	-0.04996643	-0.07346025	4.155279e-08	9.858119e-07	0.009925209	0.008099017
	0.01003666	0.007950916	4.15528e-08	9.858119e-07	-0.0495628	-0.0738228	1.75637e-07	1.336088e-07
	7.998032e-07	-2.393624e-07	0.009925216	0.008099013	1.75637e-07	1.336088e-07	-0.04996625	-0.07334548
8e+07	-0.06601635	-0.07293505	1.481171e-07	9.470762e-08	0.01180556	0.007264915	8.022583e-07	-4.69472e-07
	1.481171e-07	9.470764e-08	-0.06640237	-0.07235352	3.933751e-08	1.143305e-06	0.01168919	0.007464905
	0.01180558	0.007264907	3.933752e-08	1.143305e-06	-0.06597318	-0.07287524	1.752017e-07	1.158679e-07
	8.022583e-07	-4.69472e-07	0.0116892	0.007464898	1.752017e-07	1.158679e-07	-0.06640167	-0.0722212
9e+07	-0.08160462	-0.06819123	1.361208e-07	7.793589e-08	0.0133077	0.006176071	7.325417e-07	-7.117123e-07
	1.361208e-07	7.793591e-08	-0.08198211	-0.06743908	4.406773e-08	1.305744e-06	0.013197	0.006431551
	0.01330771	0.006176062	4.406775e-08	1.305744e-06	-0.08156175	-0.0681324	1.611551e-07	9.671228e-08
	7.325417e-07	-7.117123e-07	0.01319701	0.006431545	1.611552e-07	9.671232e-08	-0.08197972	-0.06728765
1e+08	-0.09549419	-0.06001152	1.120761e-07	6.3507e-08	0.01446163	0.004771561	5.865116e-07	-9.440765e-07
	1.120761e-07	6.3507e-08	-0.09582739	-0.0590857	5.77526e-08	1.470918e-06	0.01436847	0.005082858
	0.01446163	0.004771561	5.77526e-08	1.470918e-06	-0.09545416	-0.05995279	1.330317e-07	8.031552e-08
	5.865116e-07	-9.440765e-07	0.01436847	0.005082858	1.330317e-07	8.031552e-08	-0.09582164	-0.05891419
1.1e+08	-0.1069365	-0.04893143	7.663943e-08	5.519435e-08	0.01520767	0.003135491	3.666887e-07	-1.143506e-06
	7.663943e-08	5.519435e-08	-0.1071873	-0.04784156	8.176402e-08	1.636083e-06	0.01514427	0.003498971
	0.01520767	0.003135491	8.176402e-08	1.636083e-06	-0.1069008	-0.04887198	9.154746e-08	7.108804e-08
	3.666887e-07	-1.143506e-06	0.01514427	0.003498971	9.154746e-08	7.108804e-08	-0.1071753	-0.04764931
1.2e+08	-0.1153305	-0.03564711	3.154744e-08	5.640484e-08	0.01549849	0.001387261	8.202696e-08	-1.288522e-06
	3.154744e-08	5.640484e-08	-0.1154651	-0.03441145	1.160929e-07	1.798088e-06	0.01547587	0.00179611
	0.01549849	0.001387261	1.160929e-07	1.798088e-06	-0.1153005	-0.03558398	3.875392e-08	7.298935e-08
	8.202696e-08	-1.288522e-06	0.01547587	0.00179611	3.875392e-08	7.298935e-08	-0.1154436	-0.03419852
1.3e+08	-0.120282	-0.0209651	-2.052778e-08	7.000691e-08	0.0153315	-0.0003590938	-2.527967e-07	-1.3602e-06
	-2.052778e-08	7.000691e-08	-0.1202708	-0.01961195	1.599771e-07	1.953711e-06	0.01535887	8.49843e-05
	0.0153315	-0.0003590938	1.599771e-07	1.953711e-06	-0.120258	-0.02089533	-2.224304e-08	8.936398e-08
	-2.527967e-07	-1.3602e-06	0.01535887	8.498432e-05	-2.224304e-08	8.936398e-08	-0.1202366	-0.01937961
1.4e+08	-0.1215961	-0.00574765	-7.61386e-08	9.810243e-08	0.01472645	-0.001995535	-6.180455e-07	-1.343687e-06
	-7.61386e-08	9.810243e-08	-0.1214167	-0.004314429	2.115871e-07	2.100023e-06	0.01481025	-0.001529154
	0.01472645	-0.001995535	2.115871e-07	2.100023e-06	-0.1215771	-0.005668734	-8.744303e-08	1.226738e-07
	-6.180455e-07	-1.343687e-06	0.01481025	-0.001529154	-8.744303e-08	1.226738e-07	-0.1213666	-0.004065248
1.5e+08	-0.1192837	0.009132149	-1.312818e-07	1.418303e-07	0.01372571	-0.003422945	-9.899944e-07	-1.229442e-06
	-1.312818e-07	1.418303e-07	-0.1189239	0.01060093	2.681701e-07	2.234746e-06	0.01386881	-0.002949168
	0.01372571	-0.003422945	2.681701e-07	2.234746e-06	-0.1192678	0.009221956	-1.521977e-07	1.742766e-07
	-9.899944e-07	-1.229442e-06	0.01386881	-0.002949168	-1.521977e-07	1.742766e-07	-0.1188555	0.01086316
1.6e+08	-0.1135557	0.02283548	-1.816611e-07	2.012341e-07	0.01239198	-0.004554996	-1.342284e-06	-1.014229e-06
	-1.816611e-07	2.012341e-07	-0.1130158	0.02429121	3.263157e-07	2.356536e-06	0.0125931	-0.004089683
	0.01239198	-0.004554996	3.263157e-07	2.356536e-06	-0.113541	0.02293712	-2.115051e-07	2.442721e-07
	-1.342284e-06	-1.014229e-06	0.0125931	-0.004089683	-2.115051e-07	2.442721e-07	-0.1129278	0.02456172
1.7e+08	-0.1048092	0.03460053	-2.229778e-07	2.751981e-07	0.01080536	-0.005321697	-1.647513e-06	-7.018035e-07
	-2.229778e-07	2.751981e-07	-0.104103	0.03599398	3.823e-07	2.465147e-06	0.01105881	-0.004880508
	0.01080536	-0.005321697	3.823e-07	2.465147e-06	-0.1047937	0.03471418	-2.603361e-07	3.314207e-07
	-1.647513e-06	-7.018035e-07	0.01105881	-0.004880508	-2.603361e-07	3.314207e-07	-0.1039955	0.03626747
1.8e+08	-0.09360485	0.04378129	-2.512324e-07	3.614558e-07	0.009059984	-0.005672658	-1.879016e-06	-3.032501e-07
	-2.512324e-07	3.614558e-07	-0.09275988	0.04506653	4.32459e-07	2.561464e-06	0.009355768	-0.005269828
	0.009059984	-0.005672658	4.32459e-07	2.561464e-06	-0.0935865	0.04390654	-2.939797e-07	4.331408e-07
	-1.879016e-06	-3.032501e-07	0.009355768	-0.005269828	-2.939797e-07	4.331408e-07	-0.09263465	0.0453376
1.9e+08	-0.08063682	0.04988126	-2.630223e-07	4.566731e-07	0.007260039	-0.00558001	-2.012787e-06	1.63115e-07
	-2.630223e-07	4.566731e-07	-0.07969357	0.05101945	4.735369e-07	2.647401e-06	0.007584196	-0.005227163
	0.007260039	-0.00558001	4.735369e-07	2.647401e-06	-0.08061407	0.05001721	-3.083881e-07	5.4559e-07
	-2.012787e-06	1.63115e-07	0.007584196	-0.005227163	-3.083881e-07	5.4559e-07	-0.07955403	0.05128315
2e+08	-0.06669616	0.05258057	-2.558177e-07	5.566042e-07	0.005514884	-0.005040806	-2.029422e-06	6.723256e-07
	-2.558177e-07	5.566042e-07	-0.06570602	0.05354355	5.029649e-07	2.725701e-06	0.005850232	-0.004745885
	0.005514884	-0.005040806	5.029649e-07	2.725701e-06	-0.06666772	0.05272601	-3.005074e-07	6.638305e-07
	-2.029422e-06	6.723256e-07	0.005850232	-0.004745885	-3.005074e-07	6.638305e-07	-0.06555705	0.05379585
2.1e+08	-0.05262794	0.05175494	-2.282002e-07	6.563179e-07	0.003933367	-0.004078558	-1.915996e-06	1.193888e-06
	-2.282002e-07	6.563179e-07	-0.05165034	0.05252823	5.190383e-07	2.79966e-06	0.004260492	-0.003844958
	0.003933367	-0.004078558	5.190383e-07	2.79966e-06	-0.05259291	0.05190836	-2.685694e-07	7.820815e-07
	-1.915996e-06	1.193888e-06	0.004260492	-0.003844958	-2.685694e-07	7.820815e-07	-0.051498	0.05276641
2.2e+08	-0.03928427	0.04748477	-1.800449e-07	7.504843e-07	0.002617341	-0.002743482	-1.667682e-06	1.693458e-06
	-1.800449e-07	7.504843e-07	-0.03838297	0.04806977	5.209821e-07	2.872842e-06	0.002915815	-0.002569458
	0.002617341	-0.002743482	5.209821e-07	2.872842e-06	-0.03924216	0.04764454	-2.123258e-07	8.940497e-07
	-1.667682e-06	1.693458e-06	0.002915815	-0.002569458	-2.123258e-07	8.940497e-07	-0.03823413	0.04829282
2.3e+08	-0.02747512	0.04005313	-1.126321e-07	8.337123e-07	0.001654727	-0.001110995	-1.288942e-06	2.135039e-06
	-1.126321e-07	8.337123e-07	-0.02671387	0.04046831	5.089195e-07	2.94882e-06	0.001904479	-0.0009893927
	0.001654727	-0.001110995	5.089195e-07	2.94882e-06	-0.02742584	0.04021751	-1.331986e-07	9.93329e-07
	-1.288942e-06	2.135039e-06	0.001904479	-0.0009893927	-1.331986e-07	9.93329e-07	-0.02657574	0.04067705
2.4e+08	-0.0179198	0.02993157	-2.867168e-08	9.009192e-07	0.001112726	0.000721846	-7.941055e-07	2.483571e-06
	-2.867168e-08	9.009192e-07	-0.01735774	0.03021244	4.837749e-07	3.030972e-06	0.001295476	0.0008034901
	0.001112726	0.000721846	4.837749e-07	3.030972e-06	-0.01786369	0.03009883	-3.432666e-08	1.073847e-06
	-7.941055e-07	2.483571e-06	0.001295476	0.0008034901	-3.432666e-08	1.073847e-06	-0.01723736	0.03040966
2.5e+08	-0.01120231	0.01775373	6.77684e-08	9.477124e-07	0.001031894	0.002642052	-2.071694e-07	2.707753e-06
	6.77684e-08	9.477124e-07	-0.01088942	0.0179516	4.471527e-07	3.122361e-06	0.001132553	0.002701032
	0.001031894	0.002642052	4.471527e-07	3.122361e-06	-0.01114019	0.0179222	7.951041e-08	1.130336e-06
	-2.071694e-07	2.707753e-06	0.001132553	0.002701032	7.951041e-08	1.130336e-06	-0.0107931	0.01814199
2.6e+08	-0.007734168	0.004277691	1.714376e-07	9.707571e-07	0.001421923	0.004528302	4.392511e-07	2.782816e-06
	1.714376e-07	9.707571e-07	-0.007706983	0.004457172	4.012329e-07	3.225663e-06	0.001429857	0.004585897
	0.001421922	0.004528302	4.012329e-07	3.225663e-06	-0.00766725	0.004445946	2.020997e-07	1.158781e-06
	4.392511e-07	2.782816e-06	0.001429857	0.004585897	2.020997e-07	1.158781e-06	-0.007639861	0.004647114
2.7e+08	-0.007727649	-0.009660718	2.761811e-07	9.681023e-07	0.002259809	0.006259854	1.105829e-06	2.692973e-06
	2.761811e-07	9.681023e-07	-0.008005809	-0.009425392	3.487066e-07	3.343126e-06	0.002169881	0.006340149
	0.002259809	0.006259854	3.487066e-07	3.343126e-06	-0.007657582	-0.009493803	3.26135e-07	1.15683e-06
	1.105829e-06	2.692973e-06	0.002169881	0.006340149	3.26135e-07	1.15683e-06	-0.007971364	-0.009228134
2.8e+08	-0.01118226	-0.02320065	3.75312e-07	9.394332e-07	0.003490874	0.007725858	1.749161e-06	2.433258e-06
	3.75312e-07	9.394332e-07	-0.01176602	-0.02283017	2.92751e-07	3.476516e-06	0.00330416	0.007854303
	0.003490874	0.007725858	2.92751e-07	3.476516e-06	-0.011111	-0.02303574	4.436742e-07	1.124091e-06
	1.749161e-06	2.433258e-06	0.00330416	0.007854303	4.436742e-07	1.124091e-06	-0.01176573	-0.02261689
2.9e+08	-0.01788556	-0.03551085	4.620588e-07	8.862206e-07	0.005032689	0.008834065	2.324908e-06	2.010524e-06
	4.620588e-07	8.862206e-07	-0.01875463	-0.03492601	2.370201e-07	3.627015e-06	0.004756817	0.00903584
	0.005032689	0.008834065	2.370201e-07	3.627015e-06	-0.01781529	-0.03534808	5.466876e-07	1.06231e-06
	2.324908e-06	2.010524e-06	0.004756817	0.00903584	5.466876e-07	1.06231e-06	-0.01878773	-0.03468759
3e+08	-0.02742857	-0.04584203	5.300596e-07	8.117428e-07	0.006781543	0.009517894	2.791146e-06	1.443457e-06
	5.300596e-07	8.117428e-07	-0.0285423	-0.04496915	1.856075e-07	3.795062e-06	0.006430595	0.009816206
	0.006781543	0.009517894	1.856075e-07	3.795062e-06	-0.02736149	-0.04568089	6.27655e-07	9.753835e-07
	2.791146e-06	1.443457e-06	0.006430595	0.009816206	6.27655e-07	9.753835e-07	-0.02860566	-0.04469663
3.1e+08	-0.03923417	-0.0535728	5.738594e-07	7.209629e-07	0.00862072	0.009741107	3.111592e-06	7.616049e-07
	5.738594e-07	7.209629e-07	-0.04053323	-0.05234899	1.429354e-07	3.980149e-06	0.008214683	0.01015552
	0.00862072	0.009741107	1.429354e-07	3.980149e-06	-0.03917235	-0.05341215	6.801598e-07	8.691896e-07
	3.111592e-06	7.616049e-07	0.008214683	0.01015552	6.801598e-07	8.691896e-07	-0.04062146	-0.05203417
3.2e+08	-0.05259618	-0.05824599	5.893708e-07	6.202611e-07	0.01042961	0.00949965	3.258401e-06	3.504675e-09
	5.893708e-07	6.202611e-07	-0.0540056	-0.05662382	1.135356e-07	4.18062e-06	0.009993388	0.01004458
	0.01042961	0.00949965	1.135356e-07	4.18062e-06	-0.05254135	-0.05808407	6.994231e-07	7.512557e-07
	3.258401e-06	3.504675e-09	0.009993388	0.01004458	6.994231e-07	7.512557e-07	-0.0541112	-0.05625987
3.3e+08	-0.0667255	-0.05959282	5.742493e-07	5.170365e-07	0.01209262	0.008820671	3.214284e-06	-7.858753e-07
	5.742493e-07	5.170365e-07	-0.06815888	-0.0575442	1.017172e-07	4.393522e-06	0.01165468	0.009504138
	0.01209262	0.008820671	1.017172e-07	4.393522e-06	-0.06667889	-0.05942745	6.827261e-07	6.302721e-07
	3.214284e-06	-7.858753e-07	0.01165468	0.009504138	6.827261e-07	6.302721e-07	-0.06827261	-0.05712622
3.4e+08	-0.08079967	-0.0575444	5.281358e-07	4.192071e-07	0.01350705	0.007759092	2.97381e-06	-1.558124e-06
	5.281358e-07	4.192071e-07	-0.08216424	-0.05506317	1.111405e-07	4.614588e-06	0.01309771	0.008581886
	0.01350705	0.007759092	1.111405e-07	4.614588e-06	-0.08076188	-0.05737308	6.296749e-07	5.155034e-07
	2.97381e-06	-1.558124e-06	0.01309771	0.008581886	6.296749e-07	5.155034e-07	-0.08227563	-0.05458862
3.5e+08	-0.09401216	-0.05223019	4.527538e-07	3.346582e-07	0.0145892	0.006392363	2.543837e-06	-2.264535e-06
	4.527538e-07	3.346582e-07	-0.09521444	-0.04933343	1.443606e-07	4.838369e-06	0.0142388	0.007347621
	0.0145892	0.006392363	1.443606e-07	4.838369e-06	-0.09398309	-0.05205025	5.422972e-07	4.161452e-07
	2.543837e-06	-2.264535e-06	0.0142388	0.007347621	5.422972e-07	4.161452e-07	-0.09531242	-0.04880238
3.6e+08	-0.1056183	-0.04396495	3.518431e-07	2.706846e-07	0.01527857	0.004814177	1.943134e-06	-2.859158e-06
	3.518431e-07	2.706846e-07	-0.10657	-0.04069281	2.024042e-07	5.05856e-06	0.01501547	0.005887472
	0.01527857	0.004814177	2.024042e-07	5.05856e-06	-0.1055972	-0.0437738	4.249427e-07	3.406884e-07
	1.943134e-06	-2.859158e-06	0.01501547	0.005887472	4.249427e-07	3.406884e-07	-0.1066435	-0.04010811
3.7e+08	-0.1149756	-0.03322587	2.309442e-07	2.334762e-07	0.01553997	0.003127841	1.201294e-06	-3.301578e-06
	2.309442e-07	2.334762e-07	-0.1155989	-0.02963998	2.844636e-07	5.268484e-06	0.01538868	0.004297769
	0.01553997	0.003127841	2.844636e-07	5.268484e-06	-0.1149608	-0.03302117	2.840255e-07	2.963412e-07
	1.201294e-06	-3.301578e-06	0.01538868	0.004297769	2.840255e-07	2.963412e-07	-0.1156378	-0.02900721
3.8e+08	-0.1215759	-0.02062212	9.705411e-08	2.276878e-07	0.01536401	0.00143989	3.570865e-07	-3.559275e-06
	9.705411e-08	2.276878e-07	-0.1218092	-0.01680264	3.877687e-07	5.461684e-06	0.01534348	0.002679134
	0.01536401	0.00143989	3.877687e-07	5.461684e-06	-0.1215653	-0.02040198	1.276294e-07	2.8855e-07
	3.570865e-07	-3.559275e-06	0.01534348	0.002679134	1.276294e-07	2.8855e-07	-0.1218047	-0.0161299
3.9e+08	-0.1250699	-0.006858985	-4.18103e-08	2.561208e-07	0.01476611	-0.0001457027	-5.436121e-07	-3.609512e-06
	-4.18103e-08	2.561208e-07	-0.1248719	-0.002900455	5.076752e-07	5.632553e-06	0.01488828	0.001131106
	0.01476611	-0.0001457027	5.076752e-07	5.632553e-06	-0.1250611	-0.006622094	-3.498371e-08	3.206459e-07
	-5.436121e-07	-3.609512e-06	0.01488828	0.001131106	-3.498371e-08	3.206459e-07	-0.1248172	-0.002197987
4e+08	-0.1252828	0.007301331	-1.771051e-07	3.195304e-07	0.0137846	-0.001532564	-1.45018e-06	-3.440725e-06
	-1.771051e-07	3.195304e-07	-0.1246355	0.01129509	6.379722e-07	5.77692e-06	0.01405343	-0.0002525702
	0.0137846	-0.001532564	6.379722e-07	5.77692e-06	-0.1252728	0.007555601	-1.939234e-07	3.936268e-07
	-1.45018e-06	-3.440725e-06	0.01405343	-0.0002525702	-1.939234e-07	3.936268e-07	-0.1245265	0.01201547
4.1e+08	-0.1222201	0.02108037	-3.00273e-07	4.165618e-07	0.01247817	-0.00263622	-2.30982e-06	-3.053401e-06
	-3.00273e-07	4.165618e-07	-0.1211313	0.02500211	7.713811e-07	5.892497e-06	0.01288906	-0.001388019
	0.01247817	-0.00263622	7.713811e-07	5.892497e-06	-0.1222061	0.02135192	-3.392416e-07	5.060775e-07
	-2.30982e-06	-3.053401e-06	0.01288906	-0.001388019	-3.392416e-07	5.060775e-07	-0.1209668	0.02572764
4.2e+08	-0.1160666	0.03372399	-4.032465e-07	5.438073e-07	0.01092278	-0.003387751	-3.070254e-06	-2.460466e-06
	-4.032465e-07	5.438073e-07	-0.1145701	0.03746924	9.001822e-07	5.979138e-06	0.01146255	-0.002204799
	0.01092278	-0.003387751	9.001822e-07	5.979138e-06	-0.1160456	0.03401199	-4.614961e-07	6.542168e-07
	-3.070254e-06	-2.460466e-06	0.01146255	-0.002204799	-4.614961e-07	6.542168e-07	-0.1143522	0.038187
4.3e+08	-0.1071754	0.04454148	-4.789172e-07	6.959734e-07	0.009208197	-0.003736937	-3.682516e-06	-1.687137e-06
	-4.789172e-07	6.959734e-07	-0.1053304	0.04801493	1.016893e-06	6.038871e-06	0.009855575	-0.002649064
	0.009208197	-0.003736937	1.016893e-06	6.038871e-06	-0.1071448	0.04484443	-5.522836e-07	8.320631e-07
	-3.682516e-06	-1.687137e-06	0.009855575	-0.002649064	-5.522836e-07	8.320631e-07	-0.1050642	0.0487126
4.4e+08	-0.09605035	0.05294176	-5.215525e-07	8.661435e-07	0.007434079	-0.003654922	-4.103746e-06	-7.702242e-07
	-5.215525e-07	8.661435e-07	-0.09393876	0.05606335	1.114908e-06	6.0757e-06	0.008160689	-0.00268639
	0.007434079	-0.003654922	1.114908e-06	6.0757e-06	-0.09600794	0.05325753	-6.047259e-07	1.031705e-06
	-4.103746e-06	-7.702242e-07	0.008160689	-0.00268639	-6.047259e-07	1.031705e-06	-0.09363242	0.05673001
4.5e+08	-0.08331996	0.05846537	-5.271457e-07	1.046122e-06	0.005705441	-0.003136352	-4.299937e-06	2.431793e-07
	-5.271457e-07	1.046122e-06	-0.08104284	0.06117577	1.189019e-06	6.095212e-06	0.006477261	-0.002304179
	0.005705441	-0.003136351	1.189019e-06	6.095212e-06	-0.08326404	0.05879134	-6.13894e-07	1.24367e-06
	-4.299937e-06	2.431793e-07	0.006477261	-0.002304179	-6.13894e-07	1.24367e-06	-0.08070718	0.06180261
4.6e+08	-0.06970554	0.06081073	-4.936872e-07	1.226845e-06	0.004127482	-0.002200774	-4.248486e-06	1.297675e-06
	-4.936872e-07	1.226845e-06	-0.06737772	0.0630759	1.23576e-06	6.104057e-06	0.004906689	-0.001513442
	0.004127482	-0.002200774	1.23576e-06	6.104057e-06	-0.06963506	0.06114386	-5.77156e-07	1.457376e-06
	-4.248486e-06	1.297675e-06	0.004906689	-0.001513442	-5.77156e-07	1.457376e-06	-0.0670256	0.06365686
4.7e+08	-0.05598282	0.05985305	-4.213491e-07	1.398847e-06	0.002799774	-0.0008930183	-3.94037e-06	2.33222e-06
	-4.213491e-07	1.398847e-06	-0.05372662	0.06166753	1.253548e-06	6.109369e-06	0.003546869	-0.0003496326
	0.002799774	-0.0008930183	1.253548e-06	6.109369e-06	-0.05589747	0.06019008	-4.944318e-07	1.661667e-06
	-3.94037e-06	2.33222e-06	0.003546869	-0.0003496326	-4.944318e-07	1.661667e-06	-0.05337227	0.06219977
4.8e+08	-0.04293946	0.0556545	-3.125708e-07	1.552764e-06	0.001809989	0.0007178432	-3.381757e-06	3.283451e-06
	-3.125708e-07	1.552764e-06	-0.04087757	0.05704307	1.242617e-06	6.118226e-06	0.002486111	0.001127858
