!$
! Info: Touchstone file created by Circ.  Input file=Tx_10in_Rx_93ohms_TxVia_35mils_RxVia_45mils.circ
!$
# Hz S RI R 50
0	0.009224772	1.319719e-25	-2.818538e-12	3.83031e-28	7.408601e-05	1.731826e-23	-1.855603e-12	1.932295e-28
	-2.818541e-12	3.830312e-28	0.009221315	1.545067e-25	2.20207e-14	6.227757e-28	7.273618e-05	2.084905e-23
	7.46094e-05	1.754371e-23	2.2024e-14	6.227753e-28	0.009232835	1.288298e-25	-2.104274e-12	4.079599e-28
	-1.855603e-12	1.932296e-28	7.088827e-05	2.095173e-23	-2.104275e-12	4.079604e-28	0.009234433	1.447637e-25
1e+07	0.01269939	-0.0007970065	9.694488e-12	3.609188e-12	0.0003241098	0.001749438	1.111375e-11	7.63816e-12
	9.694488e-12	3.609189e-12	0.0134396	-0.0009276834	9.05162e-12	7.261807e-13	0.0003354172	0.001898236
	0.0003241338	0.001749439	9.05162e-12	7.261807e-13	0.01367102	-0.0003456132	7.793793e-12	2.346696e-12
	1.111375e-11	7.638159e-12	0.0003353567	0.001898246	7.793793e-12	2.346696e-12	0.01317755	-0.0009279779
2e+07	0.01512213	-0.004787673	1.20133e-11	-1.090548e-12	0.0009341025	0.003475843	8.011785e-12	1.483036e-11
	1.201331e-11	-1.090548e-12	0.01555053	-0.00525661	9.762188e-12	-3.716947e-12	0.000850859	0.003754402
	0.0009341105	0.003475828	9.762188e-12	-3.716947e-12	0.01640111	-0.004446204	7.936681e-12	-2.215559e-12
	8.011785e-12	1.483036e-11	0.0008508505	0.003754437	7.936682e-12	-2.215558e-12	0.0153536	-0.005165652
3e+07	0.01564484	-0.01014399	8.004118e-12	-8.229027e-12	0.001866111	0.00503022	2.973744e-12	2.038527e-11
	8.004119e-12	-8.229027e-12	0.01580303	-0.01069154	8.172719e-12	-1.068178e-11	0.001774123	0.00536658
	0.001866111	0.005030216	8.172718e-12	-1.068178e-11	0.01713756	-0.009978461	2.350439e-12	-9.22677e-12
	2.973744e-12	2.038527e-11	0.001774123	0.005366586	2.350439e-12	-9.22677e-12	0.01565322	-0.01058023
4e+07	0.0146399	-0.01573045	-3.046963e-12	-1.478321e-11	0.003080651	0.006352368	-6.427032e-12	2.758991e-11
	-3.046964e-12	-1.478321e-11	0.01455098	-0.01626357	1.816824e-12	-1.781507e-11	0.003029765	0.006709958
	0.003080653	0.006352369	1.816824e-12	-1.781507e-11	0.01627272	-0.0157909	-1.118039e-11	-1.533513e-11
	-6.427032e-12	2.758991e-11	0.00302976	0.006709956	-1.118039e-11	-1.533513e-11	0.01443631	-0.01615083
5e+07	0.01230343	-0.0211001	-2.089456e-11	-1.767595e-11	0.004522365	0.007389123	-1.945777e-11	3.846233e-11
	-2.089456e-11	-1.767595e-11	0.01199158	-0.0215524	-9.447483e-12	-2.340722e-11	0.00450225	0.007755582
	0.004522367	0.007389124	-9.447483e-12	-2.340722e-11	0.01400875	-0.0214169	-3.195771e-11	-1.689272e-11
	-1.945777e-11	3.846233e-11	0.004502247	0.007755581	-3.195771e-11	-1.689272e-11	0.01190129	-0.02144774
6e+07	0.00881649	-0.02594424	-4.426809e-11	-1.409984e-11	0.006125897	0.008100962	-3.473831e-11	5.453326e-11
	-4.426809e-11	-1.409984e-11	0.008311194	-0.026262	-2.488262e-11	-2.616748e-11	0.006127026	0.00846959
	0.006125895	0.008100962	-2.488262e-11	-2.616748e-11	0.01052953	-0.02653247	-5.830096e-11	-1.108874e-11
	-3.473831e-11	5.453326e-11	0.006127029	0.008469589	-5.830096e-11	-1.108874e-11	0.008235265	-0.02617025
7e+07	0.00437426	-0.03002865	-7.101752e-11	-1.708258e-12	0.007819616	0.008463406	-5.04459e-11	7.683108e-11
	-7.101752e-11	-1.708256e-12	0.003711476	-0.03016757	-4.382441e-11	-2.453268e-11	0.007833226	0.008830881
	0.00781961	0.008463407	-4.382442e-11	-2.453268e-11	0.006032449	-0.03089072	-8.774206e-11	4.419015e-12
	-5.04459e-11	7.683108e-11	0.007833235	0.008830878	-8.774206e-11	4.419013e-12	0.003640579	-0.0300904
8e+07	-0.000809064	-0.03317715	-9.82266e-11	2.127608e-11	0.009529162	0.008467913	-6.447533e-11	1.055902e-10
	-9.822659e-11	2.127609e-11	-0.001586666	-0.03310145	-6.506143e-11	-1.720872e-11	0.009546988	0.008832831
	0.009529155	0.008467916	-6.506143e-11	-1.720872e-11	0.000733503	-0.03430502	-1.170173e-10	3.115381e-11
	-6.447533e-11	1.055902e-10	0.009546998	0.008832825	-1.170173e-10	3.115381e-11	-0.001661136	-0.03303829
9e+07	-0.006502882	-0.03526672	-1.222612e-10	5.6112e-11	0.01118159	0.008122475	-7.532134e-11	1.388525e-10
	-1.222612e-10	5.6112e-11	-0.007345125	-0.03494851	-8.60558e-11	-4.523415e-12	0.01119472	0.008483815
	0.01118158	0.008122479	-8.60558e-11	-4.523415e-12	-0.005137014	-0.03664484	-1.422566e-10	6.877016e-11
	-7.532134e-11	1.388525e-10	0.01119473	0.00848381	-1.422566e-10	6.877016e-11	-0.007431186	-0.03489712
1e+08	-0.01246127	-0.03622309	-1.380023e-10	1.055651e-10	0.01271622	0.007456046	-8.095237e-11	1.78056e-10
	-1.380023e-10	1.055651e-10	-0.01329897	-0.03563556	-1.067128e-10	1.594494e-11	0.01270618	0.007806416
	0.01271622	0.007456046	-1.067128e-10	1.594494e-11	-0.01135602	-0.03784273	-1.58728e-10	1.202658e-10
	-8.095237e-11	1.78056e-10	0.01270618	0.007806416	-1.58728e-10	1.202658e-10	-0.01340648	-0.03559401
1.1e+08	-0.01844018	-0.0360751	-1.295697e-10	1.552901e-10	0.01402694	0.006530482	-7.455024e-11	2.164559e-10
	-1.295697e-10	1.552901e-10	-0.01919711	-0.0352825	-1.129878e-10	4.140542e-11	0.01401562	0.006840425
	0.01402694	0.006530482	-1.129878e-10	4.140542e-11	-0.01768106	-0.0377726	-1.507516e-10	1.723331e-10
	-7.455024e-11	2.164559e-10	0.01401562	0.006840425	-1.507516e-10	1.723331e-10	-0.01933436	-0.03523215
1.2e+08	-0.02424797	-0.03481144	-1.175264e-10	1.932515e-10	0.01507294	0.005345025	-6.279498e-11	2.5269e-10
	-1.175264e-10	1.932515e-10	-0.02492139	-0.03383851	-1.170072e-10	6.224045e-11	0.01507286	0.00563481
	0.01507294	0.005345024	-1.170072e-10	6.224045e-11	-0.02377846	-0.03650972	-1.388264e-10	2.136807e-10
	-6.279498e-11	2.5269e-10	0.01507286	0.00563481	-1.388264e-10	2.136807e-10	-0.02508184	-0.03376966
1.3e+08	-0.02965598	-0.03249675	-1.046483e-10	2.220402e-10	0.01582089	0.003968483	-4.959516e-11	2.84342e-10
	-1.046483e-10	2.220402e-10	-0.03022757	-0.03135925	-1.195453e-10	7.829002e-11	0.01583549	0.004247104
	0.01582089	0.003968483	-1.195453e-10	7.829002e-11	-0.02944308	-0.03414928	-1.249615e-10	2.476546e-10
	-4.959516e-11	2.84342e-10	0.01583549	0.004247104	-1.249615e-10	2.476546e-10	-0.03040626	-0.03126558
1.4e+08	-0.03446461	-0.02924181	-8.64199e-11	2.499477e-10	0.01624223	0.002469657	-3.209722e-11	3.146287e-10
	-8.64199e-11	2.499477e-10	-0.03491378	-0.02795788	-1.200556e-10	9.582028e-11	0.01627418	0.002742376
	0.01624223	0.002469657	-1.200556e-10	9.582028e-11	-0.03447749	-0.0308131	-1.047127e-10	2.807182e-10
	-3.209722e-11	3.146287e-10	0.01627418	0.002742376	-1.047127e-10	2.807182e-10	-0.03510513	-0.02783471
1.5e+08	-0.03850483	-0.02519319	-6.289156e-11	2.757392e-10	0.01632183	0.0009203819	-1.015915e-11	3.426177e-10
	-6.289156e-11	2.757392e-10	-0.03881179	-0.02378517	-1.182609e-10	1.145223e-10	0.01637366	0.001189888
	0.01632183	0.0009203818	-1.182609e-10	1.145223e-10	-0.03871261	-0.02665571	-7.8234e-11	3.108672e-10
	-1.015915e-11	3.426177e-10	0.01637366	0.001189888	-7.8234e-11	3.108672e-10	-0.03900962	-0.02362942
1.6e+08	-0.04164284	-0.02052576	-3.446295e-11	2.980408e-10	0.01605908	-0.0006067729	1.580049e-11	3.672811e-10
	-3.446295e-11	2.980408e-10	-0.04179073	-0.01902054	-1.138652e-10	1.338016e-10	0.01613308	-0.0003398963
	0.01605908	-0.000606773	-1.138652e-10	1.338016e-10	-0.04201437	-0.02185875	-4.608424e-11	3.370107e-10
	1.580049e-11	3.672811e-10	0.01613308	-0.0003398963	-4.608424e-11	3.370107e-10	-0.0419885	-0.01883078
1.7e+08	-0.04378385	-0.01543493	-1.827449e-12	3.156094e-10	0.01546791	-0.002041296	4.511809e-11	3.876423e-10
	-1.827449e-12	3.156094e-10	-0.04376037	-0.01386352	-1.067137e-10	1.530512e-10	0.01556587	-0.001778243
	0.01546791	-0.002041296	-1.067137e-10	1.530512e-10	-0.04428796	-0.01662369	-9.067436e-12	3.577218e-10
	4.511809e-11	3.876423e-10	0.01556587	-0.001778243	-9.067436e-12	3.577218e-10	-0.04395155	-0.01363994
1.8e+08	-0.04487442	-0.01012849	3.404768e-11	3.273723e-10	0.01457606	-0.003317502	7.691291e-11	4.02878e-10
	3.404768e-11	3.273723e-10	-0.04467317	-0.008525137	-9.677378e-11	1.71639e-10	0.0146989	-0.003060924
	0.01457606	-0.003317502	-9.677378e-11	1.71639e-10	-0.04548042	-0.01116384	3.169733e-11	3.717707e-10
	7.691291e-11	4.02878e-10	0.0146989	-0.003060924	3.169733e-11	3.717707e-10	-0.04485154	-0.008269463
1.9e+08	-0.0449034	-0.004818389	7.195335e-11	3.324785e-10	0.01342382	-0.004377054	1.101179e-10	4.123616e-10
	7.195335e-11	3.324785e-10	-0.04452485	-0.003219289	-8.414833e-11	1.889243e-10	0.01357128	-0.004130754
	0.01342382	-0.004377054	-8.414833e-11	1.889243e-10	-0.04558154	-0.005696224	7.481342e-11	3.781833e-10
	1.101179e-10	4.123616e-10	0.01357128	-0.004130754	7.481342e-11	3.781833e-10	-0.04468487	-0.002934624
2e+08	-0.04390179	0.0002888106	1.104802e-10	3.303379e-10	0.01205413	-0.005199125	1.435053e-10	4.156964e-10
	1.104802e-10	3.303379e-10	-0.04335351	0.001845629	-6.909014e-11	2.042661e-10	0.01223265	-0.004939813
	0.01205413	-0.005199125	-6.909014e-11	2.042661e-10	-0.04462382	-0.000432003	1.186496e-10	3.762918e-10
	1.435053e-10	4.156964e-10	0.01223265	-0.004939813	1.186496e-10	3.762918e-10	-0.04349052	0.002155013
2.1e+08	-0.04193895	0.004995769	1.480888e-10	3.206916e-10	0.01053135	-0.005714038	1.757848e-10	4.127688e-10
	1.480888e-10	3.206916e-10	-0.04123722	0.006474736	-5.199178e-11	2.171108e-10	0.01074108	-0.005451288
	0.01053135	-0.005714038	-5.199178e-11	2.171108e-10	-0.04267854	0.004427345	1.614382e-10	3.658036e-10
	1.757848e-10	4.127688e-10	0.01074108	-0.005451288	1.614382e-10	3.658036e-10	-0.04134767	0.006803639
2.2e+08	-0.03912144	0.009125245	1.83171e-10	3.036115e-10	0.008923096	-0.005896062	2.05621e-10	4.037387e-10
	1.83171e-10	3.036115e-10	-0.03829022	0.01049399	-3.338074e-11	2.269755e-10	0.009160697	-0.00564088
	0.008923096	-0.005896062	-3.338074e-11	2.269755e-10	-0.0398546	0.008700929	2.013287e-10	3.468118e-10
	2.05621e-10	4.037387e-10	0.009160697	-0.00564088	2.013287e-10	3.468118e-10	-0.03837183	0.01083655
2.3e+08	-0.03558759	0.01252563	2.141248e-10	2.795224e-10	0.007299857	-0.005735479	2.317045e-10	3.890579e-10
	2.141248e-10	2.795224e-10	-0.03465792	0.01375658	-1.390066e-11	2.334975e-10	0.007559112	-0.005497738
	0.007299857	-0.005735479	-1.390066e-11	2.334975e-10	-0.03629302	0.01223399	2.364816e-10	3.198181e-10
	2.317045e-10	3.890579e-10	0.007559112	-0.005497738	2.364816e-10	3.198181e-10	-0.03470976	0.01410658
2.4e+08	-0.03150176	0.01507633	2.394327e-10	2.492012e-10	0.005732527	-0.005237082	2.528176e-10	3.694639e-10
	2.394327e-10	2.492012e-10	-0.03051077	0.01614833	5.718797e-12	2.364654e-10	0.006004674	-0.005024871
	0.005732527	-0.005237082	5.718797e-12	2.364654e-10	-0.03216118	0.01490332	2.651594e-10	2.857299e-10
	2.528176e-10	3.694639e-10	0.006004674	-0.005024871	2.651594e-10	2.857299e-10	-0.03053328	0.01649947
2.5e+08	-0.02704769	0.01669202	2.577389e-10	2.137559e-10	0.004289494	-0.004419973	2.678957e-10	3.459577e-10
	2.577389e-10	2.137559e-10	-0.02603724	0.01759167	2.470107e-11	2.358399e-10	0.004563706	-0.004239048
	0.004289494	-0.004419973	2.470107e-11	2.358399e-10	-0.02764605	0.01662152	2.858166e-10	2.458355e-10
	2.678957e-10	3.459577e-10	0.004563706	-0.004239048	2.858166e-10	2.458355e-10	-0.02603225	0.01793786
2.6e+08	-0.02242121	0.01732557	2.680063e-10	1.745278e-10	0.003033826	-0.003316803	2.760827e-10	3.197705e-10
	2.680063e-10	1.745278e-10	-0.02143625	0.01804834	4.226282e-11	2.317479e-10	0.003297792	-0.003170143
	0.003033826	-0.003316803	4.226282e-11	2.317479e-10	-0.02294686	0.01733996	2.971783e-10	2.017614e-10
	2.760827e-10	3.197705e-10	0.003297792	-0.003170143	2.971783e-10	2.017614e-10	-0.02140689	0.01838396
2.7e+08	-0.01782253	0.01696949	2.693127e-10	1.331687e-10	0.002020625	-0.00197246	2.767832e-10	2.923175e-10
	2.693127e-10	1.331687e-10	-0.01690922	0.01752035	5.765814e-11	2.244947e-10	0.00226122	-0.001859965
	0.002020625	-0.00197246	5.765814e-11	2.244947e-10	-0.0182673	0.01705023	2.983275e-10	1.554076e-10
	2.767832e-10	2.923175e-10	0.00226122	-0.001859965	2.983275e-10	1.554076e-10	-0.01685978	0.01784058
2.8e+08	-0.01344837	0.01565592	2.61151e-10	9.151579e-11	0.001294676	-0.0004422545	2.696972e-10	2.651409e-10
	2.61151e-10	9.151579e-11	-0.01265207	0.01604965	7.022768e-11	2.14571e-10	0.001498684	-0.0003605874
	0.001294676	-0.0004422545	7.022768e-11	2.14571e-10	-0.01380758	0.01578407	2.887502e-10	1.08869e-10
	2.696972e-10	2.651409e-10	0.001498684	-0.0003605874	2.887502e-10	1.08869e-10	-0.01258779	0.01635066
2.9e+08	-0.009484319	0.01345496	2.434164e-10	5.150372e-11	0.0008884913	0.00121037	2.548461e-10	2.398471e-10
	2.434164e-10	5.150372e-11	-0.008847449	0.01371605	7.943815e-11	2.026046e-10	0.001043351	0.001267778
	0.0008884913	0.00121037	7.943815e-11	2.026046e-10	-0.009756721	0.01361183	2.683767e-10	6.434491e-11
	2.548461e-10	2.398471e-10	0.001043351	0.001267778	2.683767e-10	6.434491e-11	-0.00877435	0.0139952
3e+08	-0.006097608	0.0104717	2.16411e-10	1.508629e-11	0.0008208354	0.00291649	2.325849e-10	2.180387e-10
	2.16411e-10	1.508629e-11	-0.005657582	0.01063375	8.491009e-11	1.893243e-10	0.0009153743	0.002959275
	0.0008208354	0.00291649	8.491009e-11	1.893243e-10	-0.006285188	0.01063934	2.37601e-10	2.404199e-11
	2.325849e-10	2.180387e-10	0.0009153743	0.002959275	2.37601e-10	2.404199e-11	-0.005582154	0.0108897
3.1e+08	-0.00343062	0.006841794	1.808441e-10	-1.585188e-11	0.001095818	0.004604643	2.035995e-10	2.012443e-10
	1.808441e-10	-1.585188e-11	-0.003217894	0.006946414	8.64337e-11	1.755177e-10	0.001120947	0.004645184
	0.001095818	0.004604643	8.64337e-11	1.755177e-10	-0.003538386	0.007003512	1.972771e-10	-9.92713e-12
	2.035995e-10	2.012443e-10	0.001120947	0.004645184	1.972771e-10	-9.92713e-12	-0.003146844	0.007179235
3.2e+08	-0.001595449	0.002725815	1.378129e-10	-3.958124e-11	0.001702618	0.006203921	1.688894e-10	1.908501e-10
	1.378129e-10	-3.958124e-11	-0.001631793	0.002821219	8.397187e-11	1.619889e-10	0.001651949	0.006256864
	0.001702618	0.006203921	8.397187e-11	1.619889e-10	-0.001631098	0.002866653	1.48692e-10	-3.564037e-11
	1.688894e-10	1.908501e-10	0.001651949	0.006256864	1.48692e-10	-3.564037e-11	-0.00157174	0.003032409
3.3e+08	-0.0006696446	-0.001697265	8.876396e-11	-5.46077e-11	0.002615861	0.007647083	1.297361e-10	1.880362e-10
	8.876396e-11	-5.46077e-11	-0.0009667397	-0.001558134	7.765228e-11	1.495198e-10	0.002486214	0.00772874
	0.002615861	0.007647083	7.765228e-11	1.495198e-10	-0.0006431727	-0.001590144	9.351849e-11	-5.145518e-11
	1.297361e-10	1.880362e-10	0.002486214	0.00772874	9.351849e-11	-5.145518e-11	-0.0009239132	-0.001365689
3.4e+08	-0.0006933807	-0.006237365	3.543932e-11	-5.974357e-11	0.003796661	0.008873545	8.765917e-11	1.937185e-10
	3.543932e-11	-5.974357e-11	-0.001251806	-0.005998967	6.775045e-11	1.388363e-10	0.003588442	0.009001179
	0.003796661	0.008873545	6.775045e-11	1.388363e-10	-0.0006166325	-0.00617435	3.375038e-11	-5.608577e-11
	8.765917e-11	1.937185e-10	0.003588442	0.009001179	3.375038e-11	-5.608577e-11	-0.001231761	-0.005821085
3.5e+08	-0.001668131	-0.01070096	-2.019256e-11	-5.416295e-11	0.005194281	0.00983209	4.436047e-11	2.085024e-10
	-2.019256e-11	-5.416295e-11	-0.002476818	-0.01030751	5.466693e-11	1.305843e-10	0.0049117	0.01002313
	0.005194281	0.00983209	5.466693e-11	1.305843e-10	-0.0015543	-0.01068975	-2.837791e-11	-4.866193e-11
	4.436047e-11	2.085024e-10	0.0049117	0.01002313	-2.837791e-11	-4.866193e-11	-0.002484167	-0.01013888
3.6e+08	-0.003556902	-0.01489883	-7.601497e-11	-3.744272e-11	0.006748346	0.01048318	1.658954e-12	2.326469e-10
	-7.601497e-11	-3.744272e-11	-0.004593089	-0.01429676	3.890211e-11	1.253138e-10	0.006399468	0.01075437
	0.006748346	0.01048318	3.890211e-11	1.253138e-10	-0.003420007	-0.01494431	-9.048099e-11	-2.877108e-11
	1.658954e-12	2.326469e-10	0.006399468	0.01075437	-9.048099e-11	-2.877108e-11	-0.004631276	-0.01413115
3.7e+08	-0.006286017	-0.01865359	-1.298472e-10	-9.584629e-12	0.00839152	0.01080075	-3.858076e-11	2.660433e-10
	-1.298472e-10	-9.584629e-12	-0.007515733	-0.01779404	2.103203e-11	1.234707e-10	0.007988126	0.01116731
	0.00839152	0.01080075	2.103203e-11	1.234707e-10	-0.006140358	-0.01875775	-1.501179e-10	3.521152e-12
	-3.858076e-11	2.660433e-10	0.007988126	0.01116731	-1.501179e-10	3.521152e-12	-0.007586851	-0.01762453
3.8e+08	-0.009748343	-0.02180667	-1.795303e-10	2.897979e-11	0.01005249	0.01077336	-7.452361e-11	3.082083e-10
	-1.795303e-10	2.897979e-11	-0.01112741	-0.02064778	1.687488e-12	1.253958e-10	0.009609763	0.01124816
	0.01005249	0.01077336	1.687488e-12	1.253958e-10	-0.009607972	-0.02196868	-2.04888e-10	4.766951e-11
	-7.452361e-11	3.082083e-10	0.009609763	0.01124816	-2.04888e-10	4.766951e-11	-0.01123208	-0.02046712
3.9e+08	-0.01380783	-0.02422446	-2.230118e-10	7.740158e-11	0.01165916	0.01040469	-1.0444e-10	3.582933e-10
	-2.230118e-10	7.740158e-11	-0.01528338	-0.02273357	-1.84619e-11	1.313265e-10	0.01119517	0.01099753
	0.01165916	0.01040469	-1.84619e-11	1.313265e-10	-0.01368604	-0.02444081	-2.525245e-10	1.026667e-10
	-1.0444e-10	3.582933e-10	0.01119517	0.01099753	-2.525245e-10	1.026667e-10	-0.01542068	-0.02253441
4e+08	-0.01830515	-0.0258034	-2.584237e-10	1.344428e-10	0.01314182	0.009713353	-1.267788e-10	4.151084e-10
	-2.584237e-10	1.344428e-10	-0.01981755	-0.0239588	-3.871841e-11	1.413991e-10	0.01267689	0.01043029
	0.01314182	0.009713353	-3.871841e-11	1.413991e-10	-0.01821403	-0.02606815	-2.909801e-10	1.670781e-10
	-1.267788e-10	4.151084e-10	0.01267689	0.01043029	-2.909801e-10	1.670781e-10	-0.01998505	-0.0237341
4.1e+08	-0.0230642	-0.02647386	-2.841544e-10	1.985182e-10	0.01443622	0.008732034	-1.402349e-10	4.771613e-10
	-2.841544e-10	1.985182e-10	-0.02454937	-0.02426619	-5.836326e-11	1.556498e-10	0.01399212	0.009574913
	0.01443622	0.008732034	-5.836326e-11	1.556498e-10	-0.02301417	-0.02677891	-3.185048e-10	2.390917e-10
	-1.402349e-10	4.771613e-10	0.01399212	0.009574913	-3.185048e-10	2.390917e-10	-0.02474317	-0.02400947
4.2e+08	-0.02789917	-0.02620257	-2.989095e-10	2.677501e-10	0.01548638	0.007505963	-1.438075e-10	5.4271e-10
	-2.989095e-10	2.677501e-10	-0.02929118	-0.02363571	-7.666143e-11	1.740104e-10	0.01508541	0.008472077
	0.01548638	0.007505963	-7.666143e-11	1.740104e-10	-0.02789871	-0.0265381	-3.337116e-10	3.165797e-10
	-1.438075e-10	5.4271e-10	0.01508541	0.008472077	-3.337116e-10	3.165797e-10	-0.02950608	-0.02334137
4.3e+08	-0.03262192	-0.02499367	-3.01762e-10	3.40031e-10	0.01624697	0.006090894	-1.368475e-10	6.098256e-10
	-3.01762e-10	3.40031e-10	-0.03385576	-0.02208505	-9.28679e-11	1.963003e-10	0.01591098	0.007172873
	0.01624697	0.006090894	-9.28679e-11	1.963003e-10	-0.03267726	-0.02534851	-3.356296e-10	3.971715e-10
	-1.368475e-10	6.098256e-10	0.01591098	0.007172873	-3.356296e-10	3.971715e-10	-0.03408545	-0.02174867
4.4e+08	-0.03704936	-0.02288824	-2.921892e-10	4.130949e-10	0.01668517	0.004550632	-1.190909e-10	6.764648e-10
	-2.921892e-10	4.130949e-10	-0.03806372	-0.01966863	-1.062381e-10	2.222138e-10	0.01643461	0.005736525
	0.01668517	0.004550632	-1.062381e-10	2.222138e-10	-0.03716432	-0.02325034	-3.237428e-10	4.783328e-10
	-1.190909e-10	6.764648e-10	0.01643461	0.005736525	-3.237428e-10	4.783328e-10	-0.03830106	-0.0192871
4.5e+08	-0.04101053	-0.01996243	-2.700982e-10	4.845931e-10	0.01678206	0.002954246	-9.067799e-11	7.405469e-10
	-2.700982e-10	4.845931e-10	-0.04175059	-0.01647508	-1.160459e-10	2.513048e-10	0.01663496	0.004227822
	0.01678206	0.002954246	-1.160459e-10	2.513048e-10	-0.04118645	-0.02031938	-2.980161e-10	5.574506e-10
	-9.067799e-11	7.405469e-10	0.01663496	0.004227822	-2.980161e-10	5.574506e-10	-0.04198787	-0.01604685
4.6e+08	-0.04435319	-0.01632426	-2.358353e-10	5.521736e-10	0.01653328	0.001373102	-5.215258e-11	8.000322e-10
	-2.358353e-10	5.521736e-10	-0.04477313	-0.01262355	-1.216271e-10	2.830378e-10	0.01650436	0.002714363
	0.01653328	0.001373102	-1.216271e-10	2.830378e-10	-0.04458891	-0.01666373	-2.589142e-10	6.320016e-10
	-5.215258e-11	8.000322e-10	0.01650436	0.002714363	-2.589142e-10	6.320016e-10	-0.04500244	-0.01214866
4.7e+08	-0.04694953	-0.0121093	-1.901852e-10	6.135589e-10	0.01594916	-0.0001221561	-4.458618e-12	8.530045e-10
	-1.901852e-10	6.135589e-10	-0.04701479	-0.008258766	-1.223506e-10	3.167386e-10	0.01604902	0.001263727
	0.01594916	-0.0001221561	-1.223506e-10	3.167386e-10	-0.04724153	-0.01241952	-2.073299e-10	6.995952e-10
	-4.458618e-12	8.530045e-10	0.01604902	0.001263727	-2.073299e-10	6.995952e-10	-0.04722832	-0.007738906
