!$
! Info: Touchstone file created by Circ.  Input file=Tx_14in_Rx_100ohms_TxVia_35mils_RxVia_45mils.circ
!$
# Hz S RI R 50
0	0.01447232	1.719396e-25	-5.122059e-12	5.327817e-28	9.475253e-05	2.723153e-23	-4.238902e-12	2.63455e-28
	-5.122062e-12	5.327819e-28	0.01446883	2.0371e-25	-2.422711e-12	8.669131e-28	9.342058e-05	3.278612e-23
	9.527477e-05	2.758604e-23	-2.422707e-12	8.669125e-28	0.01448016	1.678541e-25	-4.598866e-12	5.678524e-28
	-4.238903e-12	2.634552e-28	9.157166e-05	3.294741e-23	-4.598868e-12	5.67853e-28	0.01448186	1.908796e-25
1e+07	0.02096372	0.008156512	9.024889e-12	3.669306e-12	0.0005056752	0.002487429	1.101024e-11	9.509488e-12
	9.024889e-12	3.669307e-12	0.02159328	0.008174303	9.360996e-12	4.547308e-12	0.0009914475	0.002520185
	0.0005056994	0.00248743	9.360996e-12	4.547307e-12	0.02023756	0.00860631	8.555273e-12	4.405157e-12
	1.101024e-11	9.509488e-12	0.0009913862	0.002520194	8.555273e-12	4.405157e-12	0.02139768	0.008214148
2e+07	0.02789087	0.01064676	8.247843e-12	-5.413463e-13	0.001546891	0.004805981	8.693334e-12	1.020736e-11
	8.247845e-12	-5.41346e-13	0.02838403	0.01045902	1.631331e-11	-9.192395e-12	0.001873935	0.005072908
	0.001546899	0.004805966	1.631331e-11	-9.192395e-12	0.0278357	0.01155773	1.120037e-11	-8.632076e-12
	8.693335e-12	1.020736e-11	0.001873925	0.005072943	1.120037e-11	-8.632075e-12	0.0282637	0.01059771
3e+07	0.0337127	0.009958379	-6.713759e-13	-7.17715e-12	0.003157061	0.006677649	-1.640654e-12	8.629226e-12
	-6.713756e-13	-7.17715e-12	0.03407351	0.009715496	1.398779e-11	-2.78976e-11	0.003369158	0.00702858
	0.003157061	0.006677646	1.398779e-11	-2.78976e-11	0.03416584	0.01085788	-1.280656e-12	-2.233186e-11
	-1.640654e-12	8.629226e-12	0.003369158	0.007028586	-1.280656e-12	-2.233186e-11	0.03401776	0.009886794
4e+07	0.03855892	0.00744736	-1.87825e-11	-8.754453e-12	0.005192747	0.008000218	-2.222903e-11	1.32627e-11
	-1.87825e-11	-8.754454e-12	0.03878946	0.007206687	-1.137518e-12	-4.626465e-11	0.005347128	0.008394387
	0.005192749	0.008000219	-1.137518e-12	-4.626465e-11	0.03939279	0.008161532	-2.788141e-11	-2.925168e-11
	-2.222903e-11	1.32627e-11	0.005347122	0.008394385	-2.788141e-11	-2.925168e-11	0.03879031	0.007386233
5e+07	0.04229547	0.003607327	-4.303095e-11	-4.220425e-13	0.007480842	0.008688296	-4.92857e-11	2.958583e-11
	-4.303095e-11	-4.220428e-13	0.04240306	0.003411547	-2.681689e-11	-5.812048e-11	0.007756772	0.008967995
	0.007480843	0.008688297	-2.681689e-11	-5.812048e-11	0.04338409	0.004038708	-6.407425e-11	-2.199727e-11
	-4.92857e-11	2.958583e-11	0.007756768	0.008967994	-6.407425e-11	-2.199727e-11	0.04245097	0.003583374
6e+07	0.04477203	-0.001170327	-6.834637e-11	2.08601e-11	0.009833042	0.00870474	-7.674189e-11	6.082414e-11
	-6.834637e-11	2.08601e-11	0.04477499	-0.00128384	-5.977975e-11	-5.94009e-11	0.01016769	0.008856994
	0.009833039	0.00870474	-5.977975e-11	-5.940091e-11	0.04599067	-0.001070046	-1.025973e-10	3.897544e-12
	-7.674189e-11	6.082414e-11	0.01016769	0.008856993	-1.025973e-10	3.897543e-12	0.04485896	-0.001130538
7e+07	0.04587983	-0.006510989	-8.881685e-11	5.571378e-11	0.01207202	0.00804558	-9.753351e-11	1.074276e-10
	-8.881684e-11	5.571378e-11	0.04580557	-0.006513101	-9.659828e-11	-4.79383e-11	0.01239878	0.008094791
	0.01207202	0.008045581	-9.659828e-11	-4.79383e-11	0.04710927	-0.006751106	-1.348147e-10	4.948482e-11
	-9.753351e-11	1.074276e-10	0.01239879	0.008094788	-1.348147e-10	4.948482e-11	0.0459137	-0.006384876
8e+07	0.04557704	-0.01204279	-9.815224e-11	1.022264e-10	0.01400259	0.006795198	-1.043781e-10	1.668702e-10
	-9.815223e-11	1.022264e-10	0.04545927	-0.01191454	-1.321006e-10	-2.238921e-11	0.0142831	0.006760665
	0.01400258	0.006795201	-1.321006e-10	-2.238921e-11	0.04670816	-0.01260027	-1.520709e-10	1.121382e-10
	-1.043781e-10	1.668702e-10	0.01428311	0.006760659	-1.520709e-10	1.121382e-10	0.04557945	-0.01181409
9e+07	0.04389938	-0.01740417	-9.012896e-11	1.559757e-10	0.01547482	0.005068426	-9.038646e-11	2.336179e-10
	-9.012895e-11	1.559757e-10	0.04377577	-0.01713779	-1.601942e-10	1.713489e-11	0.01568003	0.004975053
	0.01547481	0.005068429	-1.601942e-10	1.713489e-11	0.04483519	-0.01822985	-1.454888e-10	1.860509e-10
	-9.038646e-11	2.336179e-10	0.01568004	0.004975047	-1.454888e-10	1.860509e-10	0.04389623	-0.01706437
1e+08	0.04097676	-0.02225757	-5.766072e-11	2.103538e-10	0.01638287	0.003015169	-4.747886e-11	2.996642e-10
	-5.766072e-11	2.103538e-10	0.04088791	-0.02185663	-1.746468e-10	7.151847e-11	0.01647864	0.002890301
	0.01638287	0.003015169	-1.746468e-10	7.151847e-11	0.04160965	-0.02328382	-1.047695e-10	2.629536e-10
	-4.747886e-11	2.996642e-10	0.01647864	0.002890301	-1.047695e-10	2.629536e-10	0.04099605	-0.02180657
1.1e+08	0.03694784	-0.02640442	-4.934651e-12	2.384797e-10	0.01664846	0.0007849453	1.735152e-11	3.349233e-10
	-4.934651e-12	2.384797e-10	0.03692868	-0.02589664	-1.576764e-10	1.198056e-10	0.01664226	0.0007256981
	0.01664846	0.0007849452	-1.576764e-10	1.198056e-10	0.03726311	-0.0274117	-3.344317e-11	3.053416e-10
	1.735152e-11	3.349233e-10	0.01664226	0.0007256982	-3.344317e-11	3.053416e-10	0.03701895	-0.02585516
1.2e+08	0.03200658	-0.02948372	4.694143e-11	2.487752e-10	0.01624346	-0.001407257	7.291383e-11	3.522133e-10
	4.694143e-11	2.487752e-10	0.03207623	-0.02889463	-1.355618e-10	1.475331e-10	0.01619359	-0.001387101
	0.01624346	-0.001407257	-1.355618e-10	1.475331e-10	0.0320956	-0.03041342	3.653914e-11	3.215548e-10
	7.291383e-11	3.522133e-10	0.01619359	-0.001387101	3.653914e-11	3.215548e-10	0.03215052	-0.02885559
1.3e+08	0.02648731	-0.03131299	8.584249e-11	2.510636e-10	0.01521713	-0.003376541	1.218028e-10	3.593581e-10
	8.584249e-11	2.510636e-10	0.02665996	-0.03067372	-1.169051e-10	1.633892e-10	0.01515978	-0.003280214
	0.01521713	-0.003376541	-1.169051e-10	1.633892e-10	0.0264061	-0.03213148	9.009135e-11	3.243571e-10
	1.218028e-10	3.593581e-10	0.01515978	-0.003280214	9.009135e-11	3.243571e-10	0.02671914	-0.03063188
1.4e+08	0.02073324	-0.03180028	1.257771e-10	2.433112e-10	0.01366188	-0.00495953	1.72045e-10	3.539409e-10
	1.257771e-10	2.433112e-10	0.02101366	-0.03114616	-9.452922e-11	1.762896e-10	0.01362361	-0.004800018
	0.01366188	-0.00495953	-9.452922e-11	1.762896e-10	0.02053099	-0.03248809	1.453417e-10	3.135153e-10
	1.72045e-10	3.539409e-10	0.01362361	-0.004800018	1.453417e-10	3.135153e-10	0.02105951	-0.03109698
1.5e+08	0.01509187	-0.03094265	1.636455e-10	2.248771e-10	0.01171061	-0.006025699	2.197869e-10	3.351529e-10
	1.636455e-10	2.248771e-10	0.0154737	-0.03031015	-6.939441e-11	1.847879e-10	0.01170884	-0.005822308
	0.01171061	-0.006025699	-6.939441e-11	1.847879e-10	0.01481341	-0.03149167	1.980521e-10	2.880033e-10
	2.197869e-10	3.351529e-10	0.01170884	-0.005822308	1.980521e-10	2.880033e-10	0.01550889	-0.03025006
1.6e+08	0.009895162	-0.02882394	1.962519e-10	1.960294e-10	0.009526513	-0.006487358	2.61001e-10	3.033336e-10
	1.962519e-10	1.960294e-10	0.01036058	-0.0282471	-4.277766e-11	1.878405e-10	0.009569303	-0.006262603
	0.009526513	-0.006487358	-4.277766e-11	1.878405e-10	0.009580891	-0.02923558	2.438045e-10	2.480808e-10
	2.61001e-10	3.033336e-10	0.009569303	-0.006262603	2.438045e-10	2.480808e-10	0.01038835	-0.02817362
1.7e+08	0.005439399	-0.02560773	2.20476e-10	1.579746e-10	0.007289927	-0.006306305	2.917414e-10	2.600297e-10
	2.20476e-10	1.579746e-10	0.005959976	-0.02511457	-1.623277e-11	1.848108e-10	0.00737622	-0.006082921
	0.007289927	-0.006306305	-1.623277e-11	1.848108e-10	0.005124615	-0.02589132	2.782529e-10	1.953316e-10
	2.917414e-10	2.600297e-10	0.00737622	-0.006082921	2.782529e-10	1.953316e-10	0.005983829	-0.02502633
1.8e+08	0.001966868	-0.02152542	2.335156e-10	1.128464e-10	0.005183807	-0.005496502	3.08478e-10	2.079892e-10
	2.335156e-10	1.128464e-10	0.002505556	-0.02113473	8.49076e-12	1.755277e-10	0.005304276	-0.005294681
	0.005183807	-0.005496502	8.49076e-12	1.755277e-10	0.001681053	-0.02169662	2.974758e-10	1.326521e-10
	3.08478e-10	2.079892e-10	0.005304276	-0.005294681	2.974758e-10	1.326521e-10	0.002529021	-0.02103143
1.9e+08	-0.0003490739	-0.01686007	2.331403e-10	6.362174e-11	0.003379023	-0.004122514	3.084576e-10	1.510536e-10
	2.331403e-10	6.362174e-11	0.0001650771	-0.01657883	2.956947e-11	1.603521e-10	0.003517584	-0.003957539
	0.003379023	-0.004122514	2.956947e-11	1.603521e-10	-0.0005828234	-0.01693929	2.983588e-10	6.414447e-11
	3.084576e-10	1.510536e-10	0.003517584	-0.003957539	2.983588e-10	6.414447e-11	0.000191418	-0.01646115
2e+08	-0.001414389	-0.01192683	2.179797e-10	1.39848e-11	0.002020737	-0.002293866	2.900386e-10	9.392532e-11
	2.179797e-10	1.39848e-11	-0.0009693125	-0.01174869	4.525627e-11	1.402031e-10	0.002156612	-0.002174324
	0.002020737	-0.002293866	4.525627e-11	1.402031e-10	-0.001579698	-0.01193763	2.789645e-10	-5.112191e-12
	2.900386e-10	9.392532e-11	0.002156612	-0.002174324	2.789645e-10	-5.112191e-12	-0.0009372962	-0.01161816
2.1e+08	-0.001219379	-0.007051427	1.877216e-10	-3.193071e-11	0.001216974	-0.0001558239	2.52973e-10	4.184176e-11
	1.877216e-10	-3.193071e-11	-0.0008856863	-0.006956312	5.405941e-11	1.165512e-10	0.001327153	-8.25244e-05
	0.001216974	-0.0001558239	5.405941e-11	1.165512e-10	-0.001306682	-0.007018897	2.388419e-10	-6.941266e-11
	2.52973e-10	4.184176e-11	0.001327153	-8.252441e-05	2.388419e-10	-6.941266e-11	-0.000845842	-0.006815106
2.2e+08	0.0001620458	-0.002548044	1.432458e-10	-6.986327e-11	0.001030336	0.002122612	1.985666e-10	1.330791e-13
	1.432458e-10	-6.986327e-11	0.0003484064	-0.002503049	5.493312e-11	9.134413e-11	0.0010922	0.002156927
	0.001030336	0.002122612	5.493312e-11	9.134413e-11	0.0001556925	-0.002497356	1.792265e-10	-1.228818e-10
	1.985666e-10	1.330791e-13	0.0010922	0.002156927	1.792265e-10	-1.228818e-10	0.000397457	-0.002353825
2.3e+08	0.002578796	0.001301695	8.668561e-11	-9.578098e-11	0.001473444	0.004362456	1.297024e-10	-2.625918e-11
	8.668561e-11	-9.578098e-11	0.002592017	0.001340194	4.743493e-11	6.685705e-11	0.001467341	0.004372598
	0.001473444	0.004362456	4.743493e-11	6.685705e-11	0.00265016	0.001346727	1.030913e-10	-1.59997e-10
	1.297024e-10	-2.625918e-11	0.001467341	0.004372598	1.030913e-10	-1.59997e-10	0.002650798	0.00149455
2.4e+08	0.005814244	0.004267277	2.136006e-11	-1.062681e-10	0.002508449	0.006389097	5.070413e-11	-3.326664e-11
	2.136006e-11	-1.062681e-10	0.005641726	0.004350427	3.183071e-11	4.548627e-11	0.002419974	0.006396172
	0.002508449	0.006389097	3.183071e-11	4.548627e-11	0.005954618	0.004285447	1.502887e-11	-1.761256e-10
	5.070413e-11	-3.326664e-11	0.002419974	0.006396171	1.502887e-11	-1.761256e-10	0.005709884	0.004507037
2.5e+08	0.009602223	0.006184046	-4.842278e-11	-9.888616e-11	0.004050532	0.008046108	-3.295691e-11	-1.812121e-11
	-4.842278e-11	-9.888616e-11	0.009246622	0.00636647	9.120164e-12	2.950971e-11	0.003872321	0.008075626
	0.004050532	0.008046108	9.120164e-12	2.950971e-11	0.009798333	0.006157814	-7.904534e-11	-1.680127e-10
	-3.295691e-11	-1.812121e-11	0.003872321	0.008075626	-7.904534e-11	-1.680127e-10	0.00932297	0.006522708
2.6e+08	0.01364616	0.00696316	-1.17676e-10	-7.246762e-11	0.005975045	0.009207427	-1.150812e-10	2.032487e-11
	-1.17676e-10	-7.246762e-11	0.0131262	0.007298396	-1.902608e-11	2.084685e-11	0.005707926	0.009286959
	0.005975045	0.009207427	-1.902608e-11	2.084685e-11	0.01388127	0.006879486	-1.723377e-10	-1.341619e-10
	-1.150812e-10	2.032487e-11	0.005707926	0.009286959	-1.723377e-10	-1.341619e-10	0.01320882	0.007452112
2.7e+08	0.01763998	0.006596176	-1.811331e-10	-2.729932e-11	0.008127667	0.00978701	-1.892451e-10	8.142565e-11
	-1.811331e-10	-2.729932e-11	0.01698992	0.007131963	-5.041283e-11	2.085576e-11	0.007781058	0.009943589
	0.008127667	0.00978701	-5.041283e-11	2.085576e-11	0.01789512	0.006447073	-2.577306e-10	-7.505839e-11
	-1.892451e-10	8.142565e-11	0.007781058	0.009943589	-2.577306e-10	-7.505839e-11	0.01707633	0.007281667
2.8e+08	0.02128932	0.005154009	-2.336934e-10	3.482572e-11	0.01033672	0.009745262	-2.493357e-10	1.627298e-10
	-2.336934e-10	3.482572e-11	0.02055701	0.005927825	-8.252845e-11	3.019528e-11	0.009928235	0.01000277
	0.01033672	0.009745262	-8.252845e-11	3.019528e-11	0.0215446	0.004936821	-3.283838e-10	6.789835e-12
	-2.493357e-10	1.627298e-10	0.009928235	0.01000277	-3.283838e-10	6.789835e-12	0.02064438	0.006072838
2.9e+08	0.02433149	0.002780471	-2.708655e-10	1.107022e-10	0.01242669	0.009091835	-2.90061e-10	2.601334e-10
	-2.708655e-10	1.107022e-10	0.02357523	0.003815716	-1.127821e-10	4.87721e-11	0.01198099	0.009468583
	0.01242669	0.009091835	-1.127821e-10	4.87721e-11	0.0245674	0.002497826	-3.783195e-10	1.070032e-10
	-2.90061e-10	2.601334e-10	0.01198099	0.009468583	-3.783195e-10	1.070032e-10	0.02366062	0.003956224
3e+08	0.02655299	-0.0003190847	-2.89159e-10	1.959383e-10	0.01423194	0.007884624	-3.073861e-10	3.681722e-10
	-2.89159e-10	1.959383e-10	0.0258373	0.0009840824	-1.387345e-10	7.577186e-11	0.01377887	0.00839137
	0.01423194	0.007884624	-1.387345e-10	7.577186e-11	0.02675171	-0.0006595957	-4.029296e-10	2.196487e-10
	-3.073861e-10	3.681722e-10	0.01377887	0.00839137	-4.029296e-10	2.196487e-10	0.02591792	0.001121153
3.1e+08	0.0278033	-0.003893113	-2.863894e-10	2.852875e-10	0.01560953	0.006225094	-2.988636e-10	4.804203e-10
	-2.863894e-10	2.852875e-10	0.02719395	-0.002333999	-1.582938e-10	1.097602e-10	0.01518181	0.006863642
	0.01560953	0.006225094	-1.582938e-10	1.097602e-10	0.02794983	-0.00427957	-3.993599e-10	3.376882e-10
	-2.988636e-10	4.804203e-10	0.01518181	0.006863642	-3.993599e-10	3.376882e-10	0.02726743	-0.002198499
3.2e+08	0.02800421	-0.007662191	-2.618632e-10	3.730498e-10	0.01645036	0.0042503	-2.638318e-10	5.899561e-10
	-2.618632e-10	3.730498e-10	0.0275629	-0.005877679	-1.698532e-10	1.488308e-10	0.01608082	0.005012834
	0.01645036	0.0042503	-1.698532e-10	1.488308e-10	0.02808731	-0.008079225	-3.667413e-10	4.535088e-10
	-2.638318e-10	5.899561e-10	0.01608082	0.005012834	-3.667413e-10	4.535088e-10	0.02762747	-0.005741223
3.3e+08	0.02715397	-0.01133895	-2.164398e-10	4.535004e-10	0.0166876	0.00212219	-2.034815e-10	6.898526e-10
	-2.164398e-10	4.535004e-10	0.02693305	-0.009376737	-1.723681e-10	1.90771e-10	0.01640635	0.002991426
	0.0166876	0.00212219	-1.723681e-10	1.90771e-10	0.02716693	-0.01176882	-3.062604e-10	5.594812e-10
	-2.034815e-10	6.898526e-10	0.01640635	0.002991426	-3.062604e-10	5.594812e-10	0.02698777	-0.009236353
3.4e+08	0.02532617	-0.01464832	-1.524722e-10	5.213058e-10	0.01630197	1.499445e-05	-1.20795e-10	7.736586e-10
	-1.524722e-10	5.213058e-10	0.02536392	-0.01257033	-1.653786e-10	2.332206e-10	0.01613371	0.0009651511
	0.01630197	1.499445e-05	-1.653786e-10	2.332206e-10	0.02526721	-0.01507214	-2.21081e-10	6.485013e-10
	-1.20795e-10	7.736586e-10	0.01613371	0.0009651511	-2.21081e-10	6.485013e-10	0.02540874	-0.01242284
3.5e+08	0.02266345	-0.01734668	-7.364126e-11	5.718966e-10	0.01532336	-0.001898388	-2.036952e-11	8.358412e-10
	-7.364126e-11	5.718966e-10	0.02298018	-0.01522486	-1.489915e-10	2.738078e-10	0.01528494	-0.0008998423
	0.01532336	-0.001898388	-1.489915e-10	2.738078e-10	0.02253588	-0.01774573	-1.161314e-10	7.144774e-10
	-2.036952e-11	8.358412e-10	0.01528494	-0.0008998423	-1.161314e-10	7.144774e-10	0.023016	-0.01506715
3.6e+08	0.0193664	-0.01923862	1.529509e-11	6.017818e-10	0.01382863	-0.003459966	9.186083e-11	8.721787e-10
	1.529509e-11	6.017818e-10	0.01996189	-0.01714968	-1.238444e-10	3.102566e-10	0.01392728	-0.002449909
	0.01382863	-0.003459966	-1.238444e-10	3.102566e-10	0.01917835	-0.01959567	2.212429e-12	7.527391e-10
	9.186083e-11	8.721787e-10	0.01392728	-0.002449909	2.212429e-12	7.527391e-10	0.01999048	-0.016979
3.7e+08	0.01567852	-0.02019027	1.087977e-10	6.087558e-10	0.01193574	-0.004539161	2.089698e-10	8.800403e-10
	1.087977e-10	6.087558e-10	0.01653099	-0.01820976	-9.106766e-11	3.404721e-10	0.01216793	-0.003555934
	0.01193574	-0.004539161	-9.106766e-11	3.404721e-10	0.01544248	-0.02049074	1.265224e-10	7.603532e-10
	2.089698e-10	8.800403e-10	0.01216793	-0.003555934	1.265224e-10	7.603532e-10	0.01655489	-0.01802395
3.8e+08	0.01186829	-0.02013801	2.008909e-10	5.920721e-10	0.009794573	-0.005043246	3.234627e-10	8.586377e-10
	2.008909e-10	5.920721e-10	0.01293503	-0.01833426	-5.225163e-11	3.626177e-10	0.01014584	-0.004123516
	0.009794573	-0.005043246	-5.225163e-11	3.626177e-10	0.01160024	-0.02037106	2.487706e-10	7.363378e-10
	3.234627e-10	8.586377e-10	0.01014584	-0.004123516	2.487706e-10	7.363378e-10	0.01295736	-0.01813196
3.9e+08	0.008209529	-0.01909232	2.855223e-10	5.525068e-10	0.007575206	-0.00492486	4.277472e-10	8.091402e-10
	2.855223e-10	5.525068e-10	0.009429333	-0.01752062	-9.418979e-12	3.751999e-10	0.008020824	-0.00410048
	0.007575206	-0.00492486	-9.418979e-12	3.751999e-10	0.007927868	-0.01925163	3.60817e-10	6.817736e-10
	4.277472e-10	8.091402e-10	0.008020824	-0.00410048	3.60817e-10	6.817736e-10	0.009453502	-0.0173014
4e+08	0.004961538	-0.01713607	3.569292e-10	4.923515e-10	0.005454451	-0.004185951	5.146343e-10	7.34683e-10
	3.569292e-10	4.923515e-10	0.006258666	-0.01583369	3.501285e-11	3.771731e-10	0.005961038	-0.0034811
	0.005454451	-0.004185951	3.501285e-11	3.771731e-10	0.004685829	-0.01722039	4.54917e-10	5.998056e-10
	5.146343e-10	7.34683e-10	0.005961038	-0.0034811	4.54917e-10	5.998056e-10	0.006288112	-0.01559813
4.1e+08	0.00235042	-0.01441779	4.100012e-10	4.153306e-10	0.003601793	-0.002877794	5.778471e-10	6.402524e-10
	4.100012e-10	4.153306e-10	0.003639942	-0.01340013	7.830065e-11	3.680656e-10	0.004129688	-0.002306643
	0.003601793	-0.002877794	7.830065e-11	3.680656e-10	0.002100018	-0.01443105	5.242315e-10	4.955304e-10
	5.778471e-10	6.402524e-10	0.004129688	-0.002306643	5.242315e-10	4.955304e-10	0.003677835	-0.01314982
4.2e+08	0.0005529301	-0.01113999	4.406299e-10	3.264377e-10	0.002165851	-0.00109704	6.125057e-10	5.324369e-10
	4.406299e-10	3.264377e-10	0.001747055	-0.01039847	1.174974e-10	3.481115e-10	0.002672127	-0.0006621595
	0.002165851	-0.00109704	1.174974e-10	3.481115e-10	0.0003456248	-0.01109116	5.633184e-10	3.757623e-10
	6.125057e-10	5.324369e-10	0.002672127	-0.0006621595	5.633184e-10	3.757623e-10	0.001796008	-0.01013584
4.3e+08	-0.0003158747	-0.007543812	4.460305e-10	2.31689e-10	0.001262477	0.0010219	6.155502e-10	4.190442e-10
	4.460305e-10	2.31689e-10	0.0006989839	-0.007045465	1.496403e-10	3.183615e-10	0.001704333	0.001330222
	0.001262477	0.0010219	1.496403e-10	3.183615e-10	-0.0004651594	-0.007446285	5.685762e-10	2.486713e-10
	6.155502e-10	4.190442e-10	0.001704333	0.001330222	5.685762e-10	2.486713e-10	0.0007608283	-0.006773632
4.4e+08	-0.0002103842	-0.003890811	4.250139e-10	1.377867e-10	0.0009654843	0.003317533	5.86062e-10	3.085971e-10
	4.250139e-10	1.377867e-10	0.0005520368	-0.003579878	1.720021e-10	2.807351e-10	0.001303749	0.003520975
	0.0009654844	0.003317533	1.720021e-10	2.807351e-10	-0.0002906862	-0.00376159	5.386032e-10	1.232978e-10
	5.86062e-10	3.085971e-10	0.001303749	0.003520975	5.386032e-10	1.232978e-10	0.0006276374	-0.003302397
4.5e+08	0.0008430627	-0.0004435507	3.781797e-10	5.169903e-11	0.001300762	0.005614115	5.254422e-10	2.09736e-10
	3.781797e-10	5.169903e-11	0.001296732	-0.0002449114	1.823801e-10	2.379806e-10	0.001503216	0.005745011
	0.001300762	0.005614115	1.823801e-10	2.379806e-10	0.0008378919	-0.0003020523	4.744334e-10	8.956352e-12
	5.254422e-10	2.09736e-10	0.001503216	0.005745011	4.744334e-10	8.956352e-12	0.001385901	3.452743e-05
4.6e+08	0.002748992	0.002553738	3.079966e-10	-1.982812e-11	0.002244239	0.007735605	4.374154e-10	1.305706e-10
	3.079966e-10	-1.982812e-11	0.002859523	0.00272945	1.793338e-10	1.934674e-10	0.002288474	0.007834723
	0.002244239	0.007735605	1.793338e-10	1.934674e-10	0.002819787	0.002687016	3.795889e-10	-8.550341e-11
	4.374154e-10	1.305706e-10	0.002288474	0.007834723	3.795889e-10	-8.550341e-11	0.002961008	0.003007332
4.7e+08	0.00535069	0.004892859	2.187409e-10	-7.0793e-11	0.003723838	0.009519583	3.278412e-10	7.804025e-11
	2.187409e-10	-7.0793e-11	0.005109136	0.005142851	1.622459e-10	1.509162e-10	0.003599402	0.009633147
	0.003723838	0.009519583	1.622459e-10	1.509162e-10	0.005492855	0.004997766	2.598078e-10	-1.524579e-10
	3.278412e-10	7.804025e-11	0.003599402	0.009633147	2.598078e-10	-1.524579e-10	0.005220773	0.005416123
