!$
! Info: Touchstone file created by Circ.  Input file=Tx_14in_Rx_93ohms_TxVia_35mils_RxVia_45mils.circ
!$
# Hz S RI R 50
0	0.01281114	1.722315e-25	-5.13511e-12	5.322988e-28	9.491652e-05	2.40934e-23	-4.249449e-12	2.61996e-28
	-5.135113e-12	5.32299e-28	0.01280766	2.040498e-25	-2.427167e-12	8.654814e-28	9.357897e-05	2.900741e-23
	9.543912e-05	2.440705e-23	-2.427162e-12	8.654808e-28	0.01281905	1.681385e-25	-4.610309e-12	5.669453e-28
	-4.24945e-12	2.619962e-28	9.173037e-05	2.915015e-23	-4.610311e-12	5.669459e-28	0.01282072	1.911957e-25
1e+07	0.01751128	-0.001907909	1.093657e-11	1.457526e-12	0.0005302144	0.002328921	1.158677e-11	4.429422e-12
	1.093657e-11	1.457526e-12	0.0185267	-0.002129879	8.715366e-12	-3.414737e-12	0.000554003	0.002534215
	0.0005302385	0.002328923	8.715366e-12	-3.414737e-12	0.01887326	-0.001341958	7.755275e-12	-4.844947e-13
	1.158677e-11	4.429422e-12	0.000553942	0.002534224	7.755274e-12	-4.844946e-13	0.01815834	-0.002118349
2e+07	0.02015679	-0.008403317	1.095255e-11	-7.994236e-12	0.001618542	0.004522282	4.687701e-12	1.045336e-11
	1.095255e-11	-7.994236e-12	0.02069241	-0.009090168	6.638319e-12	-1.265071e-11	0.001534362	0.004913957
	0.00161855	0.004522267	6.638319e-12	-1.265071e-11	0.02193585	-0.00807999	4.517212e-12	-9.460382e-12
	4.687701e-12	1.045336e-11	0.001534354	0.004913992	4.517213e-12	-9.460381e-12	0.02042475	-0.00894964
3e+07	0.0194045	-0.01650107	-1.887676e-13	-1.847903e-11	0.003247387	0.006301245	-6.026368e-12	1.61548e-11
	-1.887672e-13	-1.847903e-11	0.01953248	-0.01726283	-4.188244e-13	-2.397338e-11	0.003176081	0.006772905
	0.003247387	0.006301242	-4.188245e-13	-2.397338e-11	0.02143469	-0.01651921	-9.120111e-12	-1.913263e-11
	-6.026368e-12	1.61548e-11	0.003176081	0.00677291	-9.120111e-12	-1.913263e-11	0.01933684	-0.01709605
4e+07	0.0159145	-0.02428921	-2.232645e-11	-2.367883e-11	0.005278757	0.00753482	-2.249353e-11	2.744726e-11
	-2.232645e-11	-2.367883e-11	0.01568923	-0.02497452	-1.532835e-11	-3.277383e-11	0.005285357	0.008024393
	0.005278759	0.007534822	-1.532835e-11	-3.277383e-11	0.01805348	-0.02470898	-3.460988e-11	-2.253063e-11
	-2.249353e-11	2.744726e-11	0.005285351	0.00802439	-3.460988e-11	-2.253063e-11	0.01554548	-0.02480945
5e+07	0.0102095	-0.03089204	-5.252508e-11	-1.785709e-11	0.007537777	0.008134724	-4.172447e-11	4.746392e-11
	-5.252508e-11	-1.785709e-11	0.0096957	-0.03139655	-3.699049e-11	-3.56931e-11	0.007605885	0.008621728
	0.007537778	0.008134724	-3.699049e-11	-3.56931e-11	0.01232612	-0.03173067	-6.80974e-11	-1.33424e-11
	-4.172447e-11	4.746392e-11	0.007605881	0.008621727	-6.80974e-11	-1.33424e-11	0.009585557	-0.03124581
6e+07	0.002870918	-0.03572938	-8.546097e-11	3.036853e-12	0.009832839	0.008067987	-5.953709e-11	7.768343e-11
	-8.546097e-11	3.036854e-12	0.002145936	-0.03597873	-6.268291e-11	-3.055749e-11	0.009947332	0.008540982
	0.009832836	0.008067987	-6.268291e-11	-3.055749e-11	0.004845876	-0.0369691	-1.035458e-10	1.224453e-11
	-5.953709e-11	7.768343e-11	0.009947334	0.008540981	-1.035458e-10	1.224453e-11	0.002053116	-0.03584651
7e+07	-0.005458715	-0.03844367	-1.141755e-10	4.062412e-11	0.01197314	0.007358328	-7.125102e-11	1.177428e-10
	-1.141755e-10	4.062412e-11	-0.006307334	-0.03839061	-8.931548e-11	-1.551084e-11	0.01212046	0.007811301
	0.01197313	0.007358329	-8.931548e-11	-1.551084e-11	-0.003729623	-0.0400382	-1.33453e-10	5.554566e-11
	-7.125102e-11	1.177428e-10	0.01212047	0.007811298	-1.334531e-10	5.554565e-11	-0.006396582	-0.03827548
8e+07	-0.01410859	-0.03888295	-1.309429e-10	9.361191e-11	0.01378514	0.006082672	-7.259023e-11	1.651128e-10
	-1.309429e-10	9.361192e-11	-0.0149874	-0.03850692	-1.129774e-10	9.91958e-12	0.01395295	0.006512707
	0.01378513	0.006082676	-1.129774e-10	9.91958e-12	-0.0127119	-0.04076386	-1.497267e-10	1.145931e-10
	-7.259024e-11	1.651128e-10	0.01395296	0.0065127	-1.497267e-10	1.145931e-10	-0.01508383	-0.03840361
9e+07	-0.02242207	-0.03708884	-1.280995e-10	1.576185e-10	0.01512769	0.004363441	-6.244282e-11	2.145574e-10
	-1.280995e-10	1.576185e-10	-0.02323554	-0.03639515	-1.289583e-10	4.276358e-11	0.01530312	0.00476894
	0.01512768	0.004363445	-1.289583e-10	4.276358e-11	-0.02142742	-0.03917219	-1.454434e-10	1.830751e-10
	-6.244283e-11	2.145574e-10	0.01530313	0.004768934	-1.454434e-10	1.830751e-10	-0.02334696	-0.03629614
1e+08	-0.02979382	-0.03327756	-9.659027e-11	2.260654e-10	0.01591302	0.002359326	-3.734775e-11	2.635271e-10
	-9.659027e-11	2.260654e-10	-0.03043407	-0.03229341	-1.346478e-10	8.271293e-11	0.01607009	0.00273609
	0.01591302	0.002359326	-1.346478e-10	8.271293e-11	-0.02928212	-0.03547424	-1.119937e-10	2.550664e-10
	-3.734775e-11	2.635271e-10	0.01607009	0.00273609	-1.119937e-10	2.550664e-10	-0.03056864	-0.0321907
1.1e+08	-0.03574112	-0.0278674	-3.578791e-11	2.669585e-10	0.01605477	0.0002880076	2.022097e-12	2.96839e-10
	-3.578791e-11	2.669585e-10	-0.03614669	-0.02672961	-1.191544e-10	1.164971e-10	0.0162006	0.0005963245
	0.01605477	0.0002880074	-1.191544e-10	1.164971e-10	-0.03570908	-0.02992467	-4.845153e-11	2.992138e-10
	2.022097e-12	2.96839e-10	0.0162006	0.0005963245	-4.845153e-11	2.992138e-10	-0.03630225	-0.0265987
1.2e+08	-0.03992604	-0.02127332	2.03158e-11	2.860779e-10	0.01554953	-0.001727301	4.614439e-11	3.178112e-10
	2.03158e-11	2.860779e-10	-0.04011044	-0.02004333	-1.021923e-10	1.418028e-10	0.01570056	-0.001470307
	0.01554953	-0.001727301	-1.021923e-10	1.418028e-10	-0.04024106	-0.02311119	1.186889e-11	3.217796e-10
	4.614439e-11	3.178112e-10	0.01570056	-0.001470307	1.186889e-11	3.217796e-10	-0.04027095	-0.01987822
1.3e+08	-0.04211231	-0.01403961	6.982177e-11	2.902776e-10	0.0144623	-0.003505832	8.736061e-11	3.286098e-10
	6.982177e-11	2.902776e-10	-0.04207802	-0.01277408	-8.467214e-11	1.594595e-10	0.01461974	-0.003292643
	0.0144623	-0.003505832	-8.467214e-11	1.594595e-10	-0.04267999	-0.01561614	6.799485e-11	3.290089e-10
	8.736061e-11	3.286098e-10	0.01461974	-0.003292643	6.799485e-11	3.290089e-10	-0.04223142	-0.01257419
1.4e+08	-0.04223459	-0.006744063	1.207788e-10	2.811883e-10	0.01289132	-0.00489421	1.291222e-10	3.287591e-10
	1.207788e-10	2.811883e-10	-0.04199313	-0.005499655	-6.330638e-11	1.731366e-10	0.01305321	-0.004720789
	0.01289132	-0.00489421	-6.330638e-11	1.731366e-10	-0.04296994	-0.008040251	1.263186e-10	3.208919e-10
	1.291222e-10	3.287591e-10	0.01305321	-0.004720789	1.263186e-10	3.208919e-10	-0.0421289	-0.00526832
1.5e+08	-0.04038956	4.957793e-05	1.691051e-10	2.580305e-10	0.01097057	-0.005773802	1.685751e-10	3.175238e-10
	1.691051e-10	2.580305e-10	-0.03996534	0.001218757	-3.934066e-11	1.81721e-10	0.01113285	-0.005637837
	0.01097057	-0.005773802	-3.934066e-11	1.81721e-10	-0.0412157	-0.0009658063	1.817579e-10	2.961381e-10
	1.685751e-10	3.175238e-10	0.01113285	-0.005637837	1.817579e-10	2.961381e-10	-0.0400751	0.001474996
1.6e+08	-0.03682232	0.005833925	2.103649e-10	2.212963e-10	0.008859941	-0.006068633	2.022353e-10	2.954866e-10
	2.103649e-10	2.212963e-10	-0.03625345	0.006880226	-1.443446e-11	1.842459e-10	0.009016754	-0.005968308
	0.008859941	-0.006068633	-1.443446e-11	1.842459e-10	-0.03767149	0.005084525	2.293531e-10	2.55766e-10
	2.022353e-10	2.954866e-10	0.009016754	-0.005968308	2.293531e-10	2.55766e-10	-0.03633166	0.007152477
1.7e+08	-0.03190318	0.01019451	2.403452e-10	1.728936e-10	0.00673301	-0.005750526	2.268042e-10	2.642683e-10
	2.403452e-10	1.728936e-10	-0.03124038	0.01108095	9.486726e-12	1.803906e-10	0.006876953	-0.005683483
	0.00673301	-0.005750526	9.486726e-12	1.803906e-10	-0.03271811	0.009684048	2.642623e-10	2.019319e-10
	2.268042e-10	2.642683e-10	0.006876953	-0.005683483	2.642623e-10	2.019319e-10	-0.03128476	0.011359
1.8e+08	-0.02609636	0.01283858	2.554691e-10	1.160363e-10	0.004763616	-0.004840855	2.395035e-10	2.264956e-10
	2.554691e-10	1.160363e-10	-0.02540017	0.0135427	3.044861e-11	1.704823e-10	0.004886205	-0.00480331
	0.004763616	-0.004840855	3.044861e-11	1.704823e-10	-0.02683141	0.01253079	2.823707e-10	1.382939e-10
	2.395035e-10	2.264956e-10	0.004886205	-0.00480331	2.823707e-10	1.382939e-10	-0.0254119	0.01381609
1.9e+08	-0.01992266	0.01361437	2.531801e-10	5.501534e-11	0.003112378	-0.003408679	2.383701e-10	1.856222e-10
	2.531801e-10	5.501534e-11	-0.01925939	0.01413118	4.664378e-11	1.554848e-10	0.003204692	-0.003394789
	0.003112378	-0.003408679	4.664378e-11	1.554848e-10	-0.02054455	0.01346682	2.807342e-10	6.974715e-11
	2.383701e-10	1.856222e-10	0.003204692	-0.003394789	2.807342e-10	6.974715e-11	-0.01924294	0.01439028
2e+08	-0.01391738	0.01252063	2.322354e-10	-5.139388e-12	0.001902718	-0.001575178	2.224788e-10	1.456859e-10
	2.322354e-10	-5.139388e-12	-0.01335542	0.01286343	5.660869e-11	1.369167e-10	0.00196754	-0.001566825
	0.001902718	-0.001575178	5.660869e-11	1.369167e-10	-0.01440537	0.01248769	2.579152e-10	2.039465e-12
	2.224788e-10	1.456859e-10	0.00196754	-0.001566825	2.579152e-10	2.039465e-12	-0.01331809	0.01310037
2.1e+08	-0.008592897	0.00970046	1.929381e-10	-5.90898e-11	0.001248423	0.0005301201	1.921392e-10	1.109246e-10
	1.929381e-10	-5.90898e-11	-0.00819458	0.009903585	5.947298e-11	1.166873e-10	0.001274061	0.0005381919
	0.001248423	0.0005301201	5.947298e-11	1.166873e-10	-0.00893847	0.009736171	2.14255e-10	-5.874462e-11
	1.921392e-10	1.109246e-10	0.001274061	0.0005381919	2.14255e-10	-5.874462e-11	-0.008145855	0.01011302
2.2e+08	-0.004396601	0.005431991	1.371481e-10	-1.016614e-10	0.001204088	0.002738255	1.488813e-10	8.54571e-11
	1.371481e-10	-1.016614e-10	-0.004213296	0.005547584	5.496472e-11	9.688472e-11	0.001179615	0.002755599
	0.001204088	0.002738255	5.496472e-11	9.688472e-11	-0.004602603	0.005492733	1.518748e-10	-1.067106e-10
	1.488813e-10	8.54571e-11	0.001179615	0.002755599	1.518748e-10	-1.067106e-10	-0.004163958	0.005727227
2.3e+08	-0.001677936	0.0001033104	6.82004e-11	-1.283047e-10	0.001773102	0.00487111	9.541415e-11	7.291181e-11
	6.82004e-11	-1.283047e-10	-0.00174503	0.0001978155	4.344437e-11	7.957072e-11	0.00169088	0.004911676
	0.001773102	0.00487111	4.344437e-11	7.957072e-11	-0.001757215	0.0001501495	7.45784e-11	-1.366892e-10
	9.541415e-11	7.291181e-11	0.00169088	0.004911676	7.45784e-11	-1.366892e-10	-0.001706215	0.0003486805
2.4e+08	-0.0006627526	-0.005819482	-9.323472e-12	-1.355132e-10	0.00290796	0.006756936	3.545647e-11	7.608953e-11
	-9.323472e-12	-1.355132e-10	-0.0009956853	-0.00567019	2.584331e-11	6.658837e-11	0.002765065	0.006837847
	0.00290796	0.006756936	2.584331e-11	6.658837e-11	-0.0006363635	-0.005818845	-1.241602e-11	-1.447122e-10
	3.545647e-11	7.608953e-11	0.002765065	0.006837847	-1.241602e-11	-1.447122e-10	-0.0009778844	-0.005543808
2.5e+08	-0.0014375	-0.01182984	-8.993991e-11	-1.211492e-10	0.004514071	0.00824473	-2.652671e-11	9.668917e-11
	-8.993991e-11	-1.211492e-10	-0.002029285	-0.01154644	3.545266e-12	5.941666e-11	0.004313288	0.008384652
	0.004514071	0.00824473	3.545266e-12	5.941666e-11	-0.001332565	-0.01189963	-1.028752e-10	-1.283816e-10
	-2.652671e-11	9.668917e-11	0.004313288	0.008384652	-1.028752e-10	-1.283816e-10	-0.00204141	-0.01143728
2.6e+08	-0.003944503	-0.01742103	-1.67834e-10	-8.471965e-11	0.006457653	0.009216975	-8.565576e-11	1.351191e-10
	-1.67834e-10	-8.471965e-11	-0.004765053	-0.01692744	-2.188952e-11	5.907524e-11	0.006207936	0.009434209
	0.006457653	0.009216975	-2.188952e-11	5.907524e-11	-0.003791859	-0.01757655	-1.900292e-10	-8.709563e-11
	-8.565576e-11	1.351191e-10	0.006207936	0.009434209	-1.900292e-10	-8.709563e-11	-0.004813648	-0.01682582
2.7e+08	-0.007988609	-0.02212588	-2.369271e-10	-2.718988e-11	0.008577082	0.009599539	-1.370175e-10	1.904044e-10
	-2.369271e-10	-2.718988e-11	-0.008986134	-0.02135586	-4.851336e-11	6.616924e-11	0.008293405	0.009910015
	0.008577082	0.009599539	-4.851336e-11	6.616924e-11	-0.007820376	-0.0223732	-2.671074e-10	-2.215913e-11
	-1.370175e-10	1.904044e-10	0.008293405	0.009910015	-2.671074e-10	-2.215913e-11	-0.009074686	-0.0212505
2.8e+08	-0.01325452	-0.02555277	-2.916037e-10	4.875209e-11	0.01069667	0.009367784	-1.760551e-10	2.602125e-10
	-2.916037e-10	4.875209e-11	-0.01435876	-0.02445614	-7.439458e-11	8.079441e-11	0.01039924	0.009783131
	0.01069667	0.009367784	-7.439458e-11	8.079441e-11	-0.01310176	-0.02588912	-3.278533e-10	6.330447e-11
	-1.760551e-10	2.602125e-10	0.01039924	0.009783131	-3.278533e-10	6.330447e-11	-0.01448737	-0.0243351
2.9e+08	-0.01933324	-0.02741514	-3.2712e-10	1.389429e-10	0.01264155	0.008548326	-1.989407e-10	3.409847e-10
	-3.2712e-10	1.389429e-10	-0.02046045	-0.02596286	-9.767299e-11	1.026055e-10	0.01235445	0.009074224
	0.01264155	0.008548326	-9.767299e-11	1.026055e-10	-0.01922381	-0.02782975	-3.669978e-10	1.645487e-10
	-1.989407e-10	3.409847e-10	0.01235445	0.009074224	-3.669978e-10	1.645487e-10	-0.02062578	-0.02581455
3e+08	-0.02575527	-0.02755226	-3.399471e-10	2.380288e-10	0.01425239	0.007216346	-2.02901e-10	4.281674e-10
	-3.399471e-10	2.380288e-10	-0.02681467	-0.02573995	-1.166058e-10	1.308574e-10	0.01400166	0.007851327
	0.01425239	0.007216346	-1.166058e-10	1.308574e-10	-0.02571208	-0.02802773	-3.806605e-10	2.755146e-10
	-2.02901e-10	4.281674e-10	0.01400166	0.007851327	-3.806605e-10	2.755146e-10	-0.02701015	-0.0255541
3.1e+08	-0.03202797	-0.02593985	-3.280532e-10	3.398161e-10	0.01539842	0.005488793	-1.864693e-10	5.165271e-10
	-3.280532e-10	3.398161e-10	-0.03292897	-0.02378939	-1.29621e-10	1.644289e-10	0.0152099	0.006223654
	0.01539842	0.005488793	-1.29621e-10	1.644289e-10	-0.03206763	-0.02645386	-3.666571e-10	3.892295e-10
	-1.864693e-10	5.165271e-10	0.0152099	0.006223654	-3.666571e-10	3.892295e-10	-0.03314529	-0.02355795
3.2e+08	-0.03767381	-0.02269012	-2.910877e-10	4.3768e-10	0.01598791	0.003514218	-1.496424e-10	6.005266e-10
	-2.910877e-10	4.3768e-10	-0.03833364	-0.02024903	-1.353757e-10	2.01833e-10	0.01588479	0.00433213
	0.01598791	0.003514218	-1.353757e-10	2.01833e-10	-0.03780579	-0.02321734	-3.246964e-10	4.982704e-10
	-1.496424e-10	6.005266e-10	0.01588479	0.00433213	-3.246964e-10	4.982704e-10	-0.03855949	-0.01996686
3.3e+08	-0.04226687	-0.01804129	-2.304615e-10	5.250097e-10	0.01597508	0.001460248	-9.393144e-11	6.747324e-10
	-2.304615e-10	5.250097e-10	-0.04261777	-0.01538002	-1.328394e-10	2.412263e-10	0.01597565	0.0023376
	0.01597508	0.001460248	-1.328394e-10	2.412263e-10	-0.04249321	-0.0185554	-2.564605e-10	5.952625e-10
	-9.393144e-11	6.747324e-10	0.01597565	0.0023376	-2.564605e-10	5.952625e-10	-0.04284075	-0.01504538
3.4e+08	-0.04546467	-0.01233798	-1.493181e-10	5.956657e-10	0.01536318	-0.0005001735	-2.230078e-11	7.342281e-10
	-1.493181e-10	5.956657e-10	-0.04546021	-0.009545095	-1.214069e-10	2.804393e-10	0.01547882	0.000407762
	0.01536318	-0.0005001735	-1.214069e-10	2.804393e-10	-0.04578016	-0.0128136	-1.655636e-10	6.733918e-10
	-2.230078e-11	7.342281e-10	0.01547882	0.000407762	-1.655636e-10	6.733918e-10	-0.04566784	-0.009159838
3.5e+08	-0.04703333	-0.006003826	-5.238812e-11	6.444248e-10	0.01420364	-0.002202627	6.100464e-11	7.74998e-10
	-5.238812e-11	6.444248e-10	-0.04665316	-0.00317958	-1.010302e-10	3.170554e-10	0.01443729	-0.001296087
	0.01420364	-0.002202627	-1.010302e-10	3.170554e-10	-0.04742619	-0.00641836	-5.738009e-11	7.269016e-10
	6.100464e-11	7.74998e-10	0.01443729	-0.001296087	-5.738009e-11	7.269016e-10	-0.04683388	-0.002749042
3.6e+08	-0.0468642	0.0004912304	5.426462e-11	6.673896e-10	0.01259149	-0.003504088	1.507314e-10	7.942579e-10
	5.426462e-11	6.673896e-10	-0.04611688	0.003242603	-7.234542e-11	3.485576e-10	0.01293684	-0.002631511
	0.01259149	-0.003504088	-7.234542e-11	3.485576e-10	-0.04731719	0.0001560987	6.124944e-11	7.515463e-10
	1.507314e-10	7.942579e-10	0.01293684	-0.002631511	6.124944e-11	7.515463e-10	-0.04626105	0.003709986
3.7e+08	-0.04498119	0.006666766	1.636045e-10	6.623304e-10	0.01065754	-0.004293941	2.409736e-10	7.907026e-10
	1.636045e-10	6.623304e-10	-0.04390472	0.009245353	-3.675372e-11	3.725436e-10	0.01109899	-0.003485751
	0.01065754	-0.004293941	-3.675372e-11	3.725436e-10	-0.04547295	0.006423854	1.824316e-10	7.449689e-10
	2.409736e-10	7.907026e-10	0.01109899	-0.003485751	1.824316e-10	7.449689e-10	-0.04400542	0.009738689
3.8e+08	-0.04153808	0.01206808	2.680759e-10	6.289362e-10	0.008558035	-0.004502413	3.255876e-10	7.646533e-10
	2.680759e-10	6.289362e-10	-0.04019814	0.01438659	3.58038e-12	3.869927e-10	0.009071441	-0.003784206
	0.008558035	-0.004502413	3.58038e-12	3.869927e-10	-0.0420448	0.01192393	2.977353e-10	7.069721e-10
	3.255876e-10	7.646533e-10	0.009071441	-0.003784206	2.977353e-10	7.069721e-10	-0.04025174	0.01489339
3.9e+08	-0.03680644	0.01630031	3.601259e-10	5.68946e-10	0.006462482	-0.004105914	3.986385e-10	7.180882e-10
	3.601259e-10	5.68946e-10	-0.03529222	0.01829168	4.584075e-11	3.905424e-10	0.007016681	-0.00349605
	0.006462482	-0.004105914	4.584075e-11	3.905424e-10	-0.0373036	0.01625483	3.987834e-10	6.396503e-10
	3.986385e-10	7.180882e-10	0.007016681	-0.00349605	3.987834e-10	6.396503e-10	-0.03529876	0.01879883
4e+08	-0.03115482	0.01905794	4.327668e-10	4.86136e-10	0.004540462	-0.003128947	4.548449e-10	6.545522e-10
	4.327668e-10	4.86136e-10	-0.02957282	0.02068162	8.678565e-11	3.827225e-10	0.005099482	-0.002636647
	0.004540462	-0.003128947	8.678565e-11	3.827225e-10	-0.03161895	0.01910453	4.778838e-10	5.47358e-10
	4.548449e-10	6.545522e-10	0.005099482	-0.002636647	4.778838e-10	5.47358e-10	-0.02953608	0.02117645
4.1e+08	-0.02502077	0.02014772	4.80139e-10	3.861493e-10	0.002948399	-0.001642425	4.899912e-10	5.789485e-10
	4.80139e-10	3.861493e-10	-0.02348698	0.02139406	1.230653e-10	3.64096e-10	0.003474155	-0.001266544
	0.002948399	-0.001642425	1.230653e-10	3.64096e-10	-0.02543116	0.02027383	5.286545e-10	4.364998e-10
	4.899912e-10	5.789485e-10	0.003474155	-0.001266544	5.286545e-10	4.364998e-10	-0.0234142	0.02186538
4.2e+08	-0.01887775	0.01950317	4.980258e-10	2.761621e-10	0.001817145	0.0002415501	5.012742e-10	4.972218e-10
	4.980258e-10	2.761621e-10	-0.01750868	0.02039547	1.515839e-10	3.362698e-10	0.002272433	0.0005129481
	0.001817145	0.0002415501	1.515839e-10	3.362698e-10	-0.01921788	0.01969126	5.465865e-10	3.151375e-10
	5.012742e-10	4.972218e-10	0.002272433	0.0005129481	5.465865e-10	3.151375e-10	-0.01741003	0.02083451
4.3e+08	-0.01319919	0.01718956	4.842689e-10	1.643988e-10	0.001241338	0.002378171	4.875577e-10	4.159542e-10
	4.842689e-10	1.643988e-10	-0.01210252	0.01778361	1.698468e-10	3.017651e-10	0.001592876	0.002567382
	0.001241338	0.002378171	1.698468e-10	3.017651e-10	-0.01345791	0.01741844	5.294883e-10	1.924346e-10
	4.875577e-10	4.159542e-10	0.001592876	0.002567381	5.294883e-10	1.924346e-10	-0.01199037	0.01818475
4.4e+08	-0.008422541	0.01339899	4.390365e-10	5.952769e-11	0.001271384	0.004601169	4.495121e-10	3.418997e-10
	4.390365e-10	5.952769e-11	-0.007688092	0.01377987	1.762351e-10	2.637671e-10	0.00149268	0.004739562
	0.001271384	0.004601169	1.762351e-10	2.637671e-10	-0.008594811	0.01364538	4.777589e-10	7.797453e-11
	4.495121e-10	3.418997e-10	0.00149268	0.004739562	4.777589e-10	7.797453e-11	-0.007576025	0.0141412
4.5e+08	-0.004915872	0.00843568	3.64905e-10	-3.001633e-11	0.001908836	0.006736039	3.896267e-10	2.81489e-10
	3.64905e-10	-3.001633e-11	-0.004607691	0.008712157	1.701641e-10	2.257955e-10	0.001982631	0.006861988
	0.001908836	0.006736039	1.701641e-10	2.257955e-10	-0.005003116	0.008676007	3.94452e-10	-1.899088e-11
	3.896267e-10	2.81489e-10	0.001982631	0.006861988	3.94452e-10	-1.899088e-11	-0.004509414	0.009035667
4.6e+08	-0.002949817	0.002692735	2.667328e-10	-9.671815e-11	0.003105681	0.008614222	3.120801e-10	2.403466e-10
	2.667328e-10	-9.671815e-11	-0.003100001	0.002989409	1.520314e-10	1.912975e-10	0.003025771	0.008770397
	0.003105681	0.008614222	1.520314e-10	1.912975e-10	-0.002959706	0.002904822	2.850634e-10	-9.038845e-11
	3.120801e-10	2.403466e-10	0.003025771	0.008770397	2.850634e-10	-9.038845e-11	-0.003028181	0.003280948
4.7e+08	-0.002676961	-0.003378102	1.513331e-10	-1.346066e-10	0.004767771	0.0100871	2.224987e-10	2.228299e-10
	1.513331e-10	-1.346066e-10	-0.003281851	-0.002930153	1.231007e-10	1.634428e-10	0.004540031	0.01031728
	0.004767771	0.0100871	1.231007e-10	1.634428e-10	-0.00262277	-0.003213374	1.570715e-10	-1.29884e-10
	2.224987e-10	2.228299e-10	0.004540031	0.01031728	1.570715e-10	-1.29884e-10	-0.003247177	-0.002661317
