!$
! Info: Touchstone file created by Circ.  Input file=Tx_10in_Rx_85ohms_TxVia_35mils_RxVia_45mils.circ
!$
# Hz S RI R 50
0	0.00811312	1.330268e-25	1.76139e-08	1.802552e-26	7.262158e-05	1.54173e-23	3.428441e-08	4.02115e-27
	1.761392e-08	1.802427e-26	0.008111999	1.552072e-25	3.421025e-08	6.510841e-26	7.30415e-05	1.832566e-23
	7.078401e-05	1.583218e-23	3.421025e-08	6.510874e-26	0.00812562	1.268084e-25	2.090715e-08	2.135812e-26
	3.428441e-08	4.021807e-27	7.11938e-05	1.841595e-23	2.090716e-08	2.13593e-26	0.008125136	1.454185e-25
1e+07	0.01041287	-0.009405139	2.81478e-08	4.876233e-08	0.000344919	0.001885287	8.798156e-08	1.417924e-07
	2.81478e-08	4.876233e-08	0.01040177	-0.009404521	5.503458e-08	1.575807e-07	0.0003411984	0.001886358
	0.000344859	0.001885292	5.503458e-08	1.575807e-07	0.01039646	-0.009391908	3.322072e-08	5.832682e-08
	8.798156e-08	1.417924e-07	0.0003411382	0.001886369	3.322072e-08	5.832682e-08	0.01038397	-0.009390959
2e+07	0.01006744	-0.02143456	4.714385e-08	8.431136e-08	0.0009745806	0.003615093	1.837296e-07	2.299266e-07
	4.714385e-08	8.431136e-08	0.01002452	-0.02142668	6.881396e-08	2.8837e-07	0.00096037	0.00361983
	0.0009745688	0.003615131	6.881396e-08	2.883701e-07	0.01006295	-0.02139951	5.5795e-08	1.007688e-07
	1.837294e-07	2.299266e-07	0.0009603622	0.003619864	5.5795e-08	1.007688e-07	0.01001478	-0.02139003
3e+07	0.006215253	-0.03405042	6.917028e-08	1.127804e-07	0.001934454	0.005149745	3.070102e-07	2.797752e-07
	6.917028e-08	1.127804e-07	0.0061226	-0.034022	7.249582e-08	4.176655e-07	0.001904203	0.005162639
	0.001934457	0.00514975	7.249582e-08	4.176655e-07	0.006221695	-0.0340037	8.189139e-08	1.34809e-07
	3.070102e-07	2.797752e-07	0.001904204	0.005162644	8.189139e-08	1.34809e-07	0.006117927	-0.03397067
4e+07	-0.0005633424	-0.04579887	9.362901e-08	1.335602e-07	0.003175819	0.006428525	4.498566e-07	2.841418e-07
	9.362901e-08	1.335602e-07	-0.0007192041	-0.04573184	7.081782e-08	5.485792e-07	0.003125516	0.006455623
	0.003175814	0.00642852	7.081781e-08	5.485792e-07	-0.0005467248	-0.0457445	1.108282e-07	1.597902e-07
	4.498566e-07	2.841418e-07	0.003125511	0.006455621	1.108282e-07	1.597902e-07	-0.0007209916	-0.04566771
5e+07	-0.009805355	-0.05597694	1.184169e-07	1.460964e-07	0.004634311	0.00740038	5.985689e-07	2.381472e-07
	1.184169e-07	1.460964e-07	-0.01003227	-0.0558492	6.539998e-08	6.825244e-07	0.004561871	0.007448847
	0.004634306	0.007400379	6.539997e-08	6.825244e-07	-0.009779685	-0.05591786	1.401535e-07	1.750323e-07
	5.985689e-07	2.381472e-07	0.004561867	0.007448847	1.401535e-07	1.750323e-07	-0.01003309	-0.05577261
6e+07	-0.02101793	-0.06408359	1.41252e-07	1.504953e-07	0.006236108	0.008030164	7.384973e-07	1.410971e-07
	1.41252e-07	1.504953e-07	-0.02131694	-0.06387093	5.768731e-08	8.20772e-07	0.00614161	0.008107708
	0.006236112	0.008030164	5.768731e-08	8.20772e-07	-0.02098475	-0.06402203	1.67148e-07	1.806571e-07
	7.384973e-07	1.410971e-07	0.006141613	0.008107706	1.671481e-07	1.806571e-07	-0.0213183	-0.06378127
7e+07	-0.03366458	-0.06976336	1.59937e-07	1.474111e-07	0.007902688	0.008300254	8.553344e-07	-3.984683e-09
	1.59937e-07	1.474111e-07	-0.03402967	-0.0694415	4.935677e-08	9.64205e-07	0.007788439	0.008414539
	0.0079027	0.00830025	4.935678e-08	9.64205e-07	-0.03362576	-0.06970091	1.892082e-07	1.774719e-07
	8.553344e-07	-3.984683e-09	0.007788446	0.008414535	1.892082e-07	1.77472e-07	-0.03403258	-0.06933758
8e+07	-0.04717692	-0.07279371	1.724593e-07	1.380056e-07	0.009555189	0.008210807	9.358525e-07	-1.906112e-07
	1.724593e-07	1.380057e-07	-0.04759537	-0.07234013	4.22554e-08	1.113198e-06	0.009425656	0.008368894
	0.009555203	0.008210799	4.225542e-08	1.113198e-06	-0.04713452	-0.07273133	2.039855e-07	1.668854e-07
	9.358525e-07	-1.906112e-07	0.009425665	0.008368887	2.039855e-07	1.668855e-07	-0.04760025	-0.07222035
9e+07	-0.06097442	-0.07308015	1.771023e-07	1.239218e-07	0.01111861	0.007779061	9.686487e-07	-4.091055e-07
	1.771023e-07	1.239219e-07	-0.0614274	-0.07247567	3.827783e-08	1.267576e-06	0.01098024	0.007986869
	0.01111862	0.007779053	3.827784e-08	1.267576e-06	-0.06093056	-0.07301822	2.095051e-07	1.508471e-07
	9.686487e-07	-4.091055e-07	0.01098025	0.007986862	2.095051e-07	1.508471e-07	-0.06143405	-0.07233829
1e+08	-0.07448852	-0.07065237	1.725681e-07	1.072187e-07	0.01252734	0.007039033	9.448854e-07	-6.47051e-07
	1.725681e-07	1.072187e-07	-0.07495203	-0.06988257	3.92272e-08	1.426618e-06	0.0123883	0.00730083
	0.01252734	0.007039033	3.92272e-08	1.426618e-06	-0.07444548	-0.07059087	2.042881e-07	1.317642e-07
	9.448854e-07	-6.47051e-07	0.0123883	0.00730083	2.042881e-07	1.317642e-07	-0.07495985	-0.06972604
1.1e+08	-0.0871807	-0.06564289	1.580915e-07	9.039634e-08	0.01372531	0.006021231	8.590413e-07	-8.896474e-07
	1.580915e-07	9.039634e-08	-0.0876246	-0.06470083	4.684133e-08	1.589219e-06	0.01359515	0.006338876
	0.01372531	0.006021231	4.684133e-08	1.589219e-06	-0.08713944	-0.06558168	1.873916e-07	1.125462e-07
	8.590413e-07	-8.896474e-07	0.01359515	0.006338876	1.873916e-07	1.125462e-07	-0.08763156	-0.06452335
1.2e+08	-0.09854407	-0.05829118	1.335562e-07	7.601056e-08	0.01465189	0.004787206	7.094403e-07	-1.12144e-06
	1.335562e-07	7.601056e-08	-0.09893925	-0.05717587	6.211723e-08	1.753805e-06	0.01454049	0.005160563
	0.01465189	0.004787206	6.211723e-08	1.753805e-06	-0.09850679	-0.05822857	1.587153e-07	9.61865e-08
	7.094403e-07	-1.12144e-06	0.01454049	0.005160563	1.587153e-07	9.61865e-08	-0.09894315	-0.05697603
1.3e+08	-0.108155	-0.04893426	9.946589e-08	6.661069e-08	0.01527621	0.003401849	4.97944e-07	-1.326637e-06
	9.946589e-08	6.661069e-08	-0.1084709	-0.04765165	8.590809e-08	1.91841e-06	0.01519363	0.003828274
	0.01527621	0.003401849	8.590809e-08	1.91841e-06	-0.108123	-0.04886806	1.18855e-07	8.565776e-08
	4.97944e-07	-1.326637e-06	0.01519363	0.003828274	1.18855e-07	8.565776e-08	-0.108469	-0.04742869
1.4e+08	-0.1156682	-0.03797819	5.693226e-08	6.461784e-08	0.01557877	0.001931722	2.300896e-07	-1.489962e-06
	5.693226e-08	6.461784e-08	-0.1158747	-0.03654195	1.184955e-07	2.08081e-06	0.01553461	0.002406025
	0.01557877	0.001931722	1.184955e-07	2.08081e-06	-0.1156418	-0.03790615	6.910744e-08	8.377794e-08
	2.300896e-07	-1.489962e-06	0.01553461	0.002406025	6.910744e-08	8.377794e-08	-0.1158639	-0.03629592
1.5e+08	-0.1208285	-0.02588235	7.638232e-09	7.218172e-08	0.0155533	0.0004442636	-8.50672e-08	-1.597446e-06
	7.638232e-09	7.218172e-08	-0.1208982	-0.02431383	1.59524e-07	2.238704e-06	0.01555607	0.0009588138
	0.0155533	0.0004442636	1.59524e-07	2.238704e-06	-0.1208072	-0.02580243	1.142657e-08	9.305022e-08
	-8.50672e-08	-1.597446e-06	0.01555607	0.0009588138	1.142657e-08	9.305022e-08	-0.1208751	-0.02404578
1.6e+08	-0.1234777	-0.0131409	-4.623096e-08	9.105222e-08	0.01520639	-0.0009944272	-4.352704e-07	-1.637175e-06
	-4.623096e-08	9.105222e-08	-0.1233877	-0.01146861	2.079932e-07	2.389898e-06	0.01526289	-0.0004494305
	0.01520639	-0.0009944273	2.079932e-07	2.389898e-06	-0.1234604	-0.01305154	-5.165531e-08	1.155186e-07
	-4.352704e-07	-1.637175e-06	0.01526289	-0.0004494305	-5.165531e-08	1.155186e-07	-0.123349	-0.01118062
1.7e+08	-0.1235571	-0.0002640488	-1.020843e-07	1.224695e-07	0.01455678	-0.00232165	-8.05523e-07	-1.599965e-06
	-1.020843e-07	1.224695e-07	-0.1232911	0.001477551	2.62307e-07	2.532494e-06	0.01467158	-0.001757771
	0.01455678	-0.00232165	2.62307e-07	2.532494e-06	-0.1235426	-0.0001641135	-1.171357e-07	1.52644e-07
	-8.05523e-07	-1.599965e-06	0.01467158	-0.001757771	-1.171357e-07	1.52644e-07	-0.1232341	0.001782446
1.8e+08	-0.1211079	0.01224071	-1.570435e-07	1.670776e-07	0.01363439	-0.003479962	-1.178672e-06	-1.479937e-06
	-1.570435e-07	1.670776e-07	-0.1206574	0.01401274	3.20374e-07	2.665043e-06	0.01380942	-0.00291
	0.01363439	-0.003479962	3.20374e-07	2.665043e-06	-0.1210947	0.01235188	-1.816742e-07	2.052052e-07
	-1.178672e-06	-1.479937e-06	0.01380942	-0.00291	-1.816742e-07	2.052052e-07	-0.1205802	0.01433069
1.9e+08	-0.1162677	0.02388663	-2.080782e-07	2.248655e-07	0.01247917	-0.004418844	-1.536105e-06	-1.274992e-06
	-2.080782e-07	2.248655e-07	-0.1156331	0.0256477	3.797515e-07	2.786671e-06	0.01271339	-0.003856213
	0.01247917	-0.004418844	3.797515e-07	2.786671e-06	-0.1162543	0.0240093	-2.417437e-07	2.732289e-07
	-1.536105e-06	-1.274992e-06	0.01271339	-0.003856213	-2.417437e-07	2.732289e-07	-0.1155347	0.02597426
2e+08	-0.1092642	0.03422488	-2.521512e-07	2.95137e-07	0.01113986	-0.005096237	-1.85854e-06	-9.871421e-07
	-2.521512e-07	2.95137e-07	-0.1084558	0.03593316	4.378177e-07	2.897157e-06	0.01142914	-0.004554275
	0.01113986	-0.005096237	4.378177e-07	2.897157e-06	-0.1092493	0.034359	-2.937934e-07	3.559514e-07
	-1.85854e-06	-9.871421e-07	0.01142914	-0.004554275	-2.937934e-07	3.559514e-07	-0.1083363	0.03626361
2.1e+08	-0.1004073	0.04286048	-2.863682e-07	3.765121e-07	0.009672469	-0.005479949	-2.126904e-06	-6.227079e-07
	-2.863682e-07	3.765121e-07	-0.09944488	0.04447597	4.919547e-07	2.996944e-06	0.01000958	-0.004971206
	0.009672469	-0.005479949	4.919547e-07	2.996944e-06	-0.1003895	0.0430057	-3.344198e-07	4.518127e-07
	-2.126904e-06	-6.227079e-07	0.01000958	-0.004971206	-3.344198e-07	4.518127e-07	-0.09930547	0.0448055
2.2e+08	-0.09007673	0.04946661	-3.081268e-07	4.669584e-07	0.008138662	-0.005548947	-2.323257e-06	-1.923336e-07
	-3.081268e-07	4.669584e-07	-0.08898951	0.0509533	5.39726e-07	3.087111e-06	0.008513448	-0.005084471
	0.008138662	-0.005548947	5.39726e-07	3.087111e-06	-0.0900549	0.04962235	-3.605387e-07	5.584857e-07
	-2.323257e-06	-1.923336e-07	0.008513448	-0.005084471	-3.605387e-07	5.584857e-07	-0.08883263	0.05127739
2.3e+08	-0.0787087	0.05379683	-3.152582e-07	5.638538e-07	0.006603752	-0.005294478	-2.431765e-06	2.891853e-07
	-3.152582e-07	5.638538e-07	-0.0775344	0.05512493	5.790291e-07	3.169287e-06	0.007003461	-0.004883151
	0.006603752	-0.005294479	5.790291e-07	3.169287e-06	-0.07868178	0.05396229	-3.695529e-07	6.729403e-07
	-2.431765e-06	2.891853e-07	0.007003461	-0.004883151	-3.695529e-07	6.729403e-07	-0.07736358	0.05543955
2.4e+08	-0.06677981	0.05569492	-3.061563e-07	6.640781e-07	0.005134443	-0.004720934	-2.439658e-06	8.032895e-07
	-3.061563e-07	6.640781e-07	-0.06556328	0.05684273	6.082123e-07	3.245535e-06	0.005544208	-0.004368872
	0.005134443	-0.004720934	6.082123e-07	3.245535e-06	-0.06674693	0.05586912	-3.595086e-07	7.915427e-07
	-2.439658e-06	8.032895e-07	0.005544208	-0.004368872	-3.595086e-07	7.915427e-07	-0.065383	0.05714466
2.5e+08	-0.054789	0.05510165	-2.798887e-07	7.641328e-07	0.003796253	-0.00384633	-2.338132e-06	1.328272e-06
	-2.798887e-07	7.641328e-07	-0.05358045	0.0560573	6.261464e-07	3.318209e-06	0.004199695	-0.003556404
	0.003796253	-0.00384633	6.261464e-07	3.318209e-06	-0.0547495	0.05528346	-3.292331e-07	9.101896e-07
	-2.338132e-06	1.328272e-06	0.004199695	-0.003556404	-3.292331e-07	9.101896e-07	-0.05339598	0.05634429
2.6e+08	-0.04323827	0.05205826	-2.362834e-07	8.602834e-07	0.002650667	-0.002702285	-2.123149e-06	1.840122e-06
	-2.362834e-07	8.602834e-07	-0.04209109	0.05282092	6.322511e-07	3.389816e-06	0.003030618	-0.002473765
	0.002650667	-0.002702285	6.322511e-07	3.389816e-06	-0.04319169	0.05224638	-2.784474e-07	1.024473e-06
	-2.123149e-06	1.840122e-06	0.003030618	-0.002473765	-2.784474e-07	1.024473e-06	-0.04190826	0.0530919
2.7e+08	-0.0326125	0.04670593	-1.759864e-07	9.487237e-07	0.001752162	-0.00133334	-1.796051e-06	2.313586e-06
	-1.759864e-07	9.487237e-07	-0.03158084	0.04728663	6.264804e-07	3.462882e-06	0.002091457	-0.001161709
	0.001752162	-0.00133334	6.264804e-07	3.462882e-06	-0.03255867	0.04689898	-2.078441e-07	1.129876e-06
	-1.796051e-06	2.313586e-06	0.002091457	-0.001161709	-2.078441e-07	1.129876e-06	-0.03140578	0.04754184
2.8e+08	-0.02335943	0.03928131	-1.004859e-07	1.025753e-06	0.001145258	0.0002044467	-1.363936e-06	2.723407e-06
	-1.004859e-07	1.025753e-06	-0.02249549	0.03970316	6.09278e-07	3.53985e-06	0.001427568	0.0003275098
	0.001145258	0.0002044467	6.09278e-07	3.53985e-06	-0.02329843	0.03947783	-1.191248e-07	1.221983e-06
	-1.363936e-06	2.723407e-06	0.001427568	0.0003275098	-1.191248e-07	1.221983e-06	-0.02233434	0.03994419
2.9e+08	-0.01587043	0.03010768	-1.209779e-08	1.087963e-06	0.0008618224	0.001845691	-8.397391e-07	3.045684e-06
	-1.209779e-08	1.087963e-06	-0.01522181	0.03040552	5.815184e-07	3.623002e-06	0.0010725	0.001932147
	0.0008618224	0.001845691	5.815184e-07	3.623002e-06	-0.01580271	0.03030621	-1.499026e-08	1.29671e-06
	-8.397391e-07	3.045684e-06	0.0010725	0.001932147	-1.499026e-08	1.29671e-06	-0.01508042	0.03063534
3e+08	-0.01046338	0.01958209	8.608901e-08	1.132421e-06	0.0009188744	0.003518614	-2.41965e-07	3.259273e-06
	8.608901e-08	1.132421e-06	-0.01007038	0.01980148	5.44447e-07	3.714416e-06	0.001045755	0.003583704
	0.0009188744	0.003518614	5.44447e-07	3.714416e-06	-0.0103897	0.01978123	1.009229e-07	1.350538e-06
	-2.41965e-07	3.259273e-06	0.001045755	0.003583704	1.009229e-07	1.350538e-06	-0.009954	0.02002438
3.1e+08	-0.007368265	0.008158802	1.903099e-07	1.156851e-06	0.001317124	0.005148573	4.059363e-07	3.347142e-06
	1.903099e-07	1.156851e-06	-0.007261501	0.008354487	4.99632e-07	3.815936e-06	0.001351257	0.005210293
	0.001317124	0.005148573	4.99632e-07	3.815936e-06	-0.007289757	0.008357309	2.241587e-07	1.380724e-06
	4.059363e-07	3.347142e-06	0.001351257	0.005210293	2.241587e-07	1.380724e-06	-0.007174525	0.008575933
3.2e+08	-0.006716782	-0.003670222	2.962633e-07	1.159792e-06	0.00204044	0.006661989	1.076542e-06	3.297557e-06
	2.962633e-07	1.159792e-06	-0.006915101	-0.003436505	4.489351e-07	3.92916e-06	0.001976703	0.006740394
	0.00204044	0.006661989	4.489351e-07	3.92916e-06	-0.006634891	-0.003473338	3.49613e-07	1.385505e-06
	1.076542e-06	3.297557e-06	0.001976703	0.006740394	3.49613e-07	1.385505e-06	-0.006860786	-0.003210028
3.3e+08	-0.00853636	-0.01539689	3.992908e-07	1.140728e-06	0.00305637	0.007990378	1.739733e-06	3.105034e-06
	3.992908e-07	1.140728e-06	-0.009045281	-0.01505899	3.945006e-07	4.055415e-06	0.002893925	0.008106755
	0.00305637	0.007990378	3.945006e-07	4.055415e-06	-0.008452764	-0.01520229	4.717541e-07	1.364251e-06
	1.739733e-06	3.105034e-06	0.002893925	0.008106755	4.717541e-07	1.364251e-06	-0.009025483	-0.01482023
3.4e+08	-0.01274905	-0.0265194	4.945891e-07	1.100178e-06	0.004317709	0.009074176	2.364201e-06	2.770936e-06
	4.945891e-07	1.100178e-06	-0.0135598	-0.02600974	3.387536e-07	4.195715e-06	0.004060288	0.009250111
	0.004317709	0.009074176	3.387536e-07	4.195715e-06	-0.01266558	-0.02632738	5.848822e-07	1.317572e-06
	2.364201e-06	2.770936e-06	0.004060288	0.009250111	5.848822e-07	1.317572e-06	-0.01357479	-0.025751
3.5e+08	-0.01917555	-0.03656442	5.774474e-07	1.039736e-06	0.005765049	0.009866037	2.919083e-06	2.303693e-06
	5.774474e-07	1.039736e-06	-0.02026476	-0.03581711	2.843948e-07	4.350698e-06	0.005421026	0.01012242
	0.005765049	0.009866037	2.843948e-07	4.350698e-06	-0.01909416	-0.03637481	6.834215e-07	1.247365e-06
	2.919083e-06	2.303693e-06	0.005421026	0.01012242	6.834215e-07	1.247365e-06	-0.02031322	-0.03553055
3.6e+08	-0.02754402	-0.04510762	6.434971e-07	9.620588e-07	0.007330094	0.01033335	3.375615e-06	1.718597e-06
	6.434971e-07	9.620588e-07	-0.02887414	-0.04406167	2.343735e-07	4.520534e-06	0.00691234	0.01068937
	0.007330094	0.01033335	2.343735e-07	4.520534e-06	-0.02746665	-0.04491978	7.622186e-07	1.156778e-06
	3.375615e-06	1.718597e-06	0.00691234	0.01068937	7.622186e-07	1.156778e-06	-0.02895305	-0.04373969
3.7e+08	-0.03750306	-0.05179166	6.8896e-07	8.707825e-07	0.008939477	0.01045975	3.708686e-06	1.037196e-06
	6.8896e-07	8.707825e-07	-0.03902354	-0.05039406	1.918243e-07	4.704818e-06	0.008464992	0.01093192
	0.008939477	0.01045975	1.918243e-07	4.704818e-06	-0.03743152	-0.05160447	8.168347e-07	1.050113e-06
	3.708686e-06	1.037196e-06	0.008464992	0.01093192	8.168347e-07	1.050113e-06	-0.03912826	-0.05002963
3.8e+08	-0.04863827	-0.05634059	7.108758e-07	7.703868e-07	0.01051876	0.01024565	3.898197e-06	2.863291e-07
	7.108758e-07	7.703868e-07	-0.05028728	-0.05454908	1.59957e-07	4.902471e-06	0.01000809	0.01084691
	0.01051876	0.01024565	1.59957e-07	4.902471e-06	-0.04857408	-0.05615249	8.438096e-07	9.326485e-07
	3.898197e-06	2.863291e-07	0.01000809	0.01084691	8.438096e-07	9.326485e-07	-0.05041164	-0.05413611
3.9e+08	-0.06049101	-0.05857015	7.072951e-07	6.65999e-07	0.01199634	0.00970766	3.930131e-06	-5.031194e-07
	7.072951e-07	6.65999e-07	-0.0621979	-0.05635558	1.418974e-07	5.111657e-06	0.0114728	0.01044659
	0.01199634	0.00970766	1.418974e-07	5.111657e-06	-0.06043535	-0.05837921	8.408789e-07	8.104027e-07
	3.930131e-06	-5.031194e-07	0.0114728	0.01044659	8.408789e-07	8.104027e-07	-0.06233441	-0.05588927
4e+08	-0.07257872	-0.05839363	6.774206e-07	5.631526e-07	0.01330689	0.00887713	3.797295e-06	-1.297668e-06
	6.774206e-07	5.631526e-07	-0.07426682	-0.05574175	1.404864e-07	5.329753e-06	0.01279561	0.009757415
	0.01330689	0.00887713	1.404864e-07	5.329753e-06	-0.0725323	-0.05819765	8.071292e-07	6.898484e-07
	3.797295e-06	-1.297668e-06	0.01279561	0.009757415	8.071292e-07	6.898484e-07	-0.07440697	-0.05521883
4.1e+08	-0.08441536	-0.05582325	6.216868e-07	4.675166e-07	0.01439428	0.00779801	3.499699e-06	-2.062776e-06
	6.216868e-07	4.675166e-07	-0.08600524	-0.05273588	1.580543e-07	5.553373e-06	0.01392118	0.008818021
	0.01439428	0.00779801	1.580543e-07	5.553373e-06	-0.08437836	-0.05561986	7.430782e-07	5.775963e-07
	3.499699e-06	-2.062776e-06	0.01392118	0.008818021	7.430782e-07	5.775963e-07	-0.08613977	-0.05215487
4.2e+08	-0.09553123	-0.05096737	5.417712e-07	3.846113e-07	0.01521375	0.006524192	3.044582e-06	-2.764398e-06
	5.417712e-07	3.846113e-07	-0.09694406	-0.04746283	1.961934e-07	5.778478e-06	0.01480434	0.007676861
	0.01521375	0.006524192	1.961934e-07	5.778478e-06	-0.0955033	-0.05075415	6.506788e-07	4.800699e-07
	3.044582e-06	-2.764398e-06	0.01480434	0.007676861	6.506788e-07	4.800699e-07	-0.09706342	-0.04682421
4.3e+08	-0.1054913	-0.04402385	4.405378e-07	3.195301e-07	0.01573328	0.005116609	2.446124e-06	-3.370461e-06
	4.405378e-07	3.195301e-07	-0.1066523	-0.04013677	2.555564e-07	6.000551e-06	0.01541155	0.006389535
	0.01573328	0.005116609	2.555564e-07	6.000551e-06	-0.1054715	-0.04379851	5.332455e-07	4.031902e-07
	2.446124e-06	-3.370461e-06	0.01541155	0.006389535	5.332455e-07	4.031902e-07	-0.106747	-0.03944297
4.4e+08	-0.1139113	-0.03527033	3.219167e-07	2.766839e-07	0.01593434	0.003640309	1.724863e-06	-3.852213e-06
	3.219167e-07	2.766839e-07	-0.1147531	-0.0310506	3.357065e-07	6.214841e-06	0.01572161	0.005016114
	0.01593434	0.003640309	3.357065e-07	6.214841e-06	-0.1138982	-0.03503078	3.953129e-07	3.520907e-07
	1.724863e-06	-3.852213e-06	0.01572161	0.005016114	3.953129e-07	3.520907e-07	-0.1148142	-0.03030606
4.5e+08	-0.1204713	-0.02505176	1.907297e-07	2.595831e-07	0.01581188	0.00216164	9.068901e-07	-4.185402e-06
	1.907297e-07	2.595831e-07	-0.1209372	-0.02056296	4.350416e-07	6.416659e-06	0.01572579	0.003618564
	0.01581188	0.00216164	4.350416e-07	6.416659e-06	-0.1204631	-0.02479625	2.424364e-07	3.308748e-07
	9.068901e-07	-4.185402e-06	0.01572579	0.003618564	2.424364e-07	3.308748e-07	-0.1209565	-0.01977399
4.6e+08	-0.1249266	-0.01376618	5.247485e-08	2.706672e-07	0.01537397	0.0007456819	2.286864e-08	-4.351253e-06
	5.247485e-08	2.706672e-07	-0.1249729	-0.009083299	5.508071e-07	6.601688e-06	0.01542755	0.002258392
	0.01537397	0.0007456819	5.508071e-07	6.601688e-06	-0.124921	-0.01349339	8.094986e-08	3.424271e-07
	2.286864e-08	-4.351253e-06	0.01542755	0.002258392	8.094986e-08	3.424271e-07	-0.1249438	-0.008257844
4.7e+08	-0.1271152	-0.001849023	-8.691699e-08	3.111881e-07	0.01464091	-0.0005460403	-8.9309e-07	-4.337239e-06
	-8.691699e-08	3.111881e-07	-0.1267138	0.002944316	6.792013e-07	6.766294e-06	0.01484186	0.0009945344
	0.01464091	-0.0005460403	6.792013e-07	6.766294e-06	-0.1271097	-0.001558124	-8.230481e-08	3.882833e-07
	-8.9309e-07	-4.337239e-06	0.01484186	0.0009945344	-8.230481e-08	3.882833e-07	-0.1266312	0.003796914
4.8e+08	-0.1269627	0.01024331	-2.213393e-07	3.8115e-07	0.01364412	-0.001657543	-1.80464e-06	-4.137654e-06
	-2.213393e-07	3.8115e-07	-0.1261028	0.01505804	8.155702e-07	6.907794e-06	0.01399436	-0.0001184822
	0.01364412	-0.001657543	8.155702e-07	6.907794e-06	-0.1269547	0.01055261	-2.402624e-07	4.685591e-07
