!$
! Info: Touchstone file created by Circ.  Input file=Tx_10in_Rx_93ohms_TxVia_35mils_RxVia_45mils.circ
!$
# Hz S RI R 50
0	0.009223562	1.302215e-25	7.60659e-10	8.79382e-28	7.337111e-05	1.726699e-23	2.537576e-09	3.687667e-28
	7.606598e-10	8.792664e-28	0.009221315	1.545067e-25	4.005285e-10	1.283804e-27	7.273618e-05	2.084905e-23
	7.387992e-05	1.750843e-23	4.005282e-10	1.283841e-27	0.009235727	1.265195e-25	7.806561e-10	8.503334e-28
	2.537577e-09	3.687558e-28	7.088827e-05	2.095173e-23	7.806565e-10	8.502964e-28	0.009234433	1.447637e-25
1e+07	0.01365648	-0.0003344231	1.153769e-09	1.247816e-09	0.0003228163	0.001738056	4.980729e-09	6.054579e-09
	1.15377e-09	1.247816e-09	0.0134396	-0.0009276834	6.206972e-10	7.766929e-10	0.0003354172	0.001898236
	0.0003228458	0.00173805	6.206972e-10	7.766929e-10	0.01271341	-0.0008144741	1.212527e-09	1.320301e-09
	4.980728e-09	6.054579e-09	0.0003353567	0.001898246	1.212527e-09	1.320301e-09	0.01317755	-0.0009279779
2e+07	0.01638617	-0.004421358	1.956685e-09	1.942703e-09	0.0009409892	0.003455088	9.229077e-09	9.255043e-09
	1.956685e-09	1.942703e-09	0.01555053	-0.00525661	8.881461e-10	1.298996e-09	0.000850859	0.003754402
	0.0009409901	0.003455066	8.881461e-10	1.298996e-09	0.01513361	-0.004824011	2.0911e-09	2.034873e-09
	9.229077e-09	9.255043e-09	0.0008508505	0.003754437	2.0911e-09	2.034873e-09	0.0153536	-0.005165652
3e+07	0.01712508	-0.009938574	2.922621e-09	2.319947e-09	0.001878455	0.005005291	1.440697e-08	1.084619e-08
	2.922621e-09	2.319946e-09	0.01580303	-0.01069154	1.145698e-09	1.734055e-09	0.001774123	0.00536658
	0.001878449	0.00500529	1.145698e-09	1.734055e-09	0.01565111	-0.01019925	3.141417e-09	2.404561e-09
	1.440697e-08	1.084619e-08	0.001774123	0.005366586	3.141417e-09	2.404562e-09	0.01565322	-0.01058023
4e+07	0.01626561	-0.01573565	4.011722e-09	2.33851e-09	0.003097031	0.006324539	2.027964e-08	1.056374e-08
	4.011722e-09	2.33851e-09	0.01455098	-0.01626357	1.408236e-09	2.087349e-09	0.003029765	0.006709958
	0.003097032	0.006324544	1.408236e-09	2.087349e-09	0.01463805	-0.01580433	4.326789e-09	2.386194e-09
	2.027964e-08	1.056374e-08	0.00302976	0.006709956	4.326789e-09	2.386194e-09	0.01443631	-0.01615083
5e+07	0.01401006	-0.02134664	5.124676e-09	1.969122e-09	0.004541922	0.007358985	2.63085e-08	8.236283e-09
	5.124676e-09	1.969122e-09	0.01199158	-0.0215524	1.65791e-09	2.356091e-09	0.00450225	0.007755582
	0.004541924	0.007358986	1.65791e-09	2.356091e-09	0.01229042	-0.02119176	5.538656e-09	1.947269e-09
	2.63085e-08	8.236283e-09	0.004502247	0.007755581	5.538656e-09	1.947269e-09	0.01190129	-0.02144774
6e+07	0.01054236	-0.02644825	6.159432e-09	1.203992e-09	0.00614807	0.008068853	3.192576e-08	3.843106e-09
	6.159432e-09	1.203992e-09	0.008311194	-0.026262	1.884249e-09	2.535782e-09	0.006127026	0.00846959
	0.006148068	0.008068852	1.884249e-09	2.535782e-09	0.008789223	-0.02605219	6.661443e-09	1.088242e-09
	3.192576e-08	3.843106e-09	0.006127029	0.008469589	6.661443e-09	1.088242e-09	0.008235265	-0.02617025
7e+07	0.006059763	-0.0307943	7.006978e-09	7.327663e-11	0.007844049	0.008429562	3.656824e-08	-2.4777e-09
	7.006978e-09	7.327669e-11	0.003711476	-0.03016757	2.057417e-09	2.642884e-09	0.007833226	0.008830881
	0.007844043	0.008429562	2.057417e-09	2.642884e-09	0.004329802	-0.03015073	7.583411e-09	-1.643661e-10
	3.656824e-08	-2.4777e-09	0.007833235	0.008830878	7.583412e-09	-1.64366e-10	0.003640579	-0.0300904
8e+07	0.0007780053	-0.03419885	7.569715e-09	-1.375985e-09	0.009555683	0.00843254	3.971533e-08	-1.047165e-08
	7.569715e-09	-1.375985e-09	-0.001586666	-0.03310145	2.159493e-09	2.691507e-09	0.009546988	0.008832831
	0.009555676	0.008432541	2.159493e-09	2.691507e-09	-0.0008733383	-0.03331055	8.199731e-09	-1.759811e-09
	3.971533e-08	-1.047165e-08	0.009546998	0.008832825	8.199731e-09	-1.759811e-09	-0.001661136	-0.03303829
9e+07	-0.005073044	-0.03653197	7.761046e-09	-3.075e-09	0.01121029	0.008085823	4.090752e-08	-1.976183e-08
	7.761046e-09	-3.075e-09	-0.007345125	-0.03494851	2.175609e-09	2.69965e-09	0.01119472	0.008483815
	0.01121028	0.008085826	2.175609e-09	2.69965e-09	-0.006589121	-0.03540803	8.417431e-09	-3.623765e-09
	4.090752e-08	-1.976183e-08	0.01119473	0.00848381	8.417431e-09	-3.623765e-09	-0.007431186	-0.03489712
1e+08	-0.01127073	-0.03772671	7.51435e-09	-4.942102e-09	0.01274825	0.00741892	3.977448e-08	-2.986512e-08
	7.51435e-09	-4.942102e-09	-0.01329897	-0.03563556	2.095349e-09	2.688097e-09	0.01270618	0.007806416
	0.01274825	0.00741892	2.095349e-09	2.688097e-09	-0.012571	-0.03636844	8.164657e-09	-5.665757e-09
	3.977448e-08	-2.986512e-08	0.01270618	0.007806416	8.164657e-09	-5.665757e-09	-0.01340648	-0.03559401
1.1e+08	-0.01757457	-0.03765645	6.81881e-09	-6.835281e-09	0.01405951	0.006495925	3.611721e-08	-4.018492e-08
	6.81881e-09	-6.835281e-09	-0.01919711	-0.0352825	1.930855e-09	2.689186e-09	0.01401562	0.006840425
	0.01405951	0.006495925	1.930855e-09	2.689186e-09	-0.01857384	-0.03622056	7.427233e-09	-7.740991e-09
	3.611721e-08	-4.018492e-08	0.01401562	0.006840425	7.427233e-09	-7.740991e-09	-0.01933436	-0.03523215
1.2e+08	-0.02364971	-0.03639792	5.60736e-09	-8.631349e-09	0.01510466	0.0053116	2.981875e-08	-5.006825e-08
	5.60736e-09	-8.631349e-09	-0.02492139	-0.03383851	1.663619e-09	2.722442e-09	0.01507286	0.00563481
	0.01510466	0.0053116	1.663619e-09	2.722442e-09	-0.02440582	-0.0349524	6.135926e-09	-9.72047e-09
	2.981875e-08	-5.006825e-08	0.01507286	0.00563481	6.135926e-09	-9.72047e-09	-0.02508184	-0.03376966
1.3e+08	-0.02929231	-0.0340467	3.895725e-09	-1.021259e-08	0.01585131	0.003935667	2.093761e-08	-5.887173e-08
	3.895725e-09	-1.021259e-08	-0.03022757	-0.03135925	1.299959e-09	2.812628e-09	0.01583549	0.004247104
	0.01585131	0.003935667	1.299959e-09	2.812628e-09	-0.02983724	-0.03262849	4.305526e-09	-1.147506e-08
	2.093761e-08	-5.887173e-08	0.01583549	0.004247104	4.305526e-09	-1.147506e-08	-0.03040626	-0.03126558
1.4e+08	-0.03430634	-0.03072452	1.72301e-09	-1.145571e-08	0.01627111	0.002437177	9.686808e-09	-6.595754e-08
	1.72301e-09	-1.145571e-08	-0.03491378	-0.02795788	8.508799e-10	2.983249e-09	0.01627418	0.002742376
	0.01627111	0.002437177	8.508799e-10	2.983249e-09	-0.03466749	-0.02935976	1.976817e-09	-1.287161e-08
	9.686808e-09	-6.595754e-08	0.01627418	0.002742376	1.976817e-09	-1.287161e-08	-0.03510513	-0.02783471
1.5e+08	-0.03852385	-0.0265854	-8.35046e-10	-1.224248e-08	0.01634897	0.0008881019	-3.569735e-09	-7.073457e-08
	-8.35046e-10	-1.224248e-08	-0.03881179	-0.02378517	3.355698e-10	3.258041e-09	0.01637366	0.001189888
	0.01634897	0.0008881019	3.355698e-10	3.258041e-09	-0.03872657	-0.02529311	-7.705075e-10	-1.378249e-08
	-3.569735e-09	-7.073457e-08	0.01637366	0.001189888	-7.705075e-10	-1.378249e-08	-0.03900962	-0.02362942
1.6e+08	-0.04181171	-0.02181024	-3.67704e-09	-1.247314e-08	0.01608434	-0.0006389008	-1.832826e-08	-7.269347e-08
	-3.67704e-09	-1.247314e-08	-0.04179073	-0.01902054	-2.222588e-10	3.654767e-09	0.01613308	-0.0003398963
	0.01608434	-0.0006389008	-2.222588e-10	3.654767e-09	-0.04187986	-0.02060398	-3.828845e-09	-1.409943e-08
	-1.832826e-08	-7.269347e-08	0.01613308	-0.0003398963	-3.828845e-09	-1.409943e-08	-0.0419885	-0.01883078
1.7e+08	-0.04407575	-0.01659959	-6.677039e-09	-1.20714e-08	0.01549115	-0.002073252	-3.39642e-08	-7.143879e-08
	-6.677039e-09	-1.20714e-08	-0.04376037	-0.01386352	-7.945581e-10	4.185671e-09	0.01556587	-0.001778243
	0.01549115	-0.002073252	-7.945581e-10	4.185671e-09	-0.04403182	-0.01548848	-7.064015e-09	-1.373903e-08
	-3.39642e-08	-7.143879e-08	0.01556587	-0.001778243	-7.064015e-09	-1.373903e-08	-0.04395155	-0.01363994
1.8e+08	-0.04526344	-0.01116583	-9.690282e-09	-1.099049e-08	0.0145972	-0.003349218	-4.975831e-08	-6.671636e-08
	-9.690282e-09	-1.099049e-08	-0.04467317	-0.008525137	-1.350261e-09	4.856446e-09	0.0146989	-0.003060924
	0.0145972	-0.003349218	-1.350261e-09	4.856446e-09	-0.04512845	-0.01015526	-1.032127e-08	-1.264928e-08
	-4.975831e-08	-6.671636e-08	0.0146989	-0.003060924	-1.032127e-08	-1.264928e-08	-0.04485154	-0.008269463
1.9e+08	-0.04536478	-0.005725013	-1.256038e-08	-9.217581e-09	0.01344278	-0.004408484	-6.492889e-08	-5.84347e-08
	-1.256038e-08	-9.217581e-09	-0.04452485	-0.003219289	-1.856859e-09	5.665538e-09	0.01357128	-0.004130754
	0.01344278	-0.004408484	-1.856859e-09	5.665538e-09	-0.04515819	-0.004817199	-1.34329e-08	-1.081439e-08
	-6.492889e-08	-5.84347e-08	0.01357128	-0.004130754	-1.34329e-08	-1.081439e-08	-0.04468487	-0.002934624
2e+08	-0.04441185	-0.000488728	-1.512752e-08	-6.7764e-09	0.01207895	-0.005202417	-7.866851e-08	-4.667899e-08
	-1.512752e-08	-6.7764e-09	-0.04335351	0.001845629	-2.282119e-09	6.603855e-09	0.01223265	-0.004939813
	0.01207895	-0.005202417	-2.282119e-09	6.603855e-09	-0.04415136	0.000316745	-1.622699e-08	-8.257708e-09
	-7.866851e-08	-4.667899e-08	0.01223265	-0.004939813	-1.622699e-08	-8.257708e-09	-0.04349052	0.002155013
2.1e+08	-0.04247684	0.0043444	-1.723717e-08	-3.727651e-09	0.01056072	-0.005705933	-9.01833e-08	-3.171688e-08
	-1.723717e-08	-3.727651e-09	-0.04123722	0.006474736	-2.595299e-09	7.655108e-09	0.01074108	-0.005451288
	0.01056072	-0.005705933	-2.595299e-09	7.655108e-09	-0.04217831	0.005050107	-1.85339e-08	-5.041344e-09
	-9.01833e-08	-3.171688e-08	0.01074108	-0.005451288	-1.85339e-08	-5.041344e-09	-0.04134767	0.006803639
2.2e+08	-0.03966807	0.008594712	-1.874864e-08	-1.675982e-10	0.008951547	-0.005892317	-9.873445e-08	-1.399565e-08
	-1.874864e-08	-1.675982e-10	-0.03829022	0.01049399	-2.769655e-09	8.795605e-09	0.009160697	-0.00564088
	0.008951547	-0.005892317	-2.769655e-09	8.795605e-09	-0.03934547	0.00920493	-2.019976e-08	-1.268354e-09
	-9.873445e-08	-1.399565e-08	0.009160697	-0.00564088	-2.019976e-08	-1.268354e-09	-0.03837183	0.01083655
2.3e+08	-0.03612589	0.01210748	-1.954323e-08	3.775573e-09	0.007326738	-0.005735635	-1.036785e-07	5.87009e-09
	-1.954323e-08	3.775573e-09	-0.03465792	0.01375658	-2.784648e-09	9.995558e-09	0.007559112	-0.005497738
	0.007326738	-0.005735635	-2.784648e-09	9.995558e-09	-0.03579124	0.01262776	-2.109871e-08	2.922885e-09
	-1.036785e-07	5.87009e-09	0.007559112	-0.005497738	-2.109871e-08	2.922885e-09	-0.03470976	0.01410658
2.4e+08	-0.03201707	0.01476024	-1.95312e-08	7.947366e-09	0.005757294	-0.005240605	-1.045037e-07	2.711922e-08
	-1.95312e-08	7.947366e-09	-0.03051077	0.01614833	-2.625719e-09	1.122086e-08	0.006004674	-0.005024871
	0.005757294	-0.005240605	-2.625719e-09	1.122086e-08	-0.03168053	0.01519703	-2.113279e-08	7.367122e-09
	-1.045037e-07	2.711922e-08	0.006004674	-0.005024871	-2.113279e-08	7.367122e-09	-0.03053328	0.01649947
2.5e+08	-0.0275279	0.01646626	-1.865726e-08	1.217374e-08	0.004311724	-0.004426265	-1.008632e-07	4.887308e-08
	-1.865726e-08	1.217374e-08	-0.02603724	0.01759167	-2.285813e-09	1.243422e-08	0.004563706	-0.004239048
	0.004311724	-0.004426265	-2.285813e-09	1.243422e-08	-0.02719781	0.01682655	-2.024095e-08	1.187768e-08
	-1.008632e-07	4.887308e-08	0.004563706	-0.004239048	-2.024095e-08	1.187768e-08	-0.02603225	0.01793786
2.6e+08	-0.02285677	0.01717744	-1.690446e-08	1.626899e-08	0.003053217	-0.003325223	-9.260122e-08	7.017174e-08
	-1.690446e-08	1.626899e-08	-0.02143625	0.01804834	-1.765988e-09	1.359682e-08	0.003297792	-0.003170143
	0.003053217	-0.003325223	-1.765988e-09	1.359682e-08	-0.02253982	0.01746845	-1.840326e-08	1.625492e-08
	-9.260122e-08	7.017174e-08	0.003297792	-0.003170143	-1.840326e-08	1.625492e-08	-0.02140689	0.01838396
2.7e+08	-0.01820644	0.01688576	-1.429614e-08	2.004431e-08	0.002037001	-0.001982349	-7.977145e-08	9.001607e-08
	-1.429614e-08	2.004431e-08	-0.01690922	0.01752035	-1.07567e-09	1.467004e-08	0.00226122	-0.001859965
	0.002037001	-0.001982349	-1.07567e-09	1.467004e-08	-0.01790782	0.01711469	-1.564324e-08	2.029542e-08
	-7.977145e-08	9.001607e-08	0.00226122	-0.001859965	-1.564324e-08	2.029542e-08	-0.01685978	0.01784058
2.8e+08	-0.01377613	0.01562318	-1.08961e-08	2.331641e-08	0.001307988	-0.0004529528	-6.264586e-08	1.074139e-07
	-1.08961e-08	2.331641e-08	-0.01265207	0.01604965	-2.325382e-10	1.561727e-08	0.001498684	-0.0003605874
	0.001307988	-0.0004529528	-2.325382e-10	1.561727e-08	-0.01349972	0.01579703	-1.202805e-08	2.380135e-08
	-6.264586e-08	1.074139e-07	0.001498684	-0.0003605874	-1.202805e-08	2.380135e-08	-0.01258779	0.01635066
2.9e+08	-0.009753783	0.01346008	-6.806845e-09	2.591603e-08	0.000898809	0.001199498	-4.171343e-08	1.21428e-07
	-6.806845e-09	2.591603e-08	-0.008847449	0.01371605	7.379346e-10	1.64056e-08	0.001043351	0.001267778
	0.000898809	0.001199498	7.379346e-10	1.64056e-08	-0.009502333	0.01358546	-7.666836e-09	2.658971e-08
	-4.171343e-08	1.21428e-07	0.001043351	0.001267778	-7.666836e-09	2.658971e-08	-0.00877435	0.0139952
3e+08	-0.006308813	0.01050211	-2.166304e-09	2.769581e-08	0.0008283389	0.002906039	-1.766811e-08	1.31224e-07
	-2.166304e-09	2.769581e-08	-0.005657582	0.01063375	1.803282e-09	1.700743e-08	0.0009153743	0.002959275
	0.0008283389	0.002906039	1.803282e-09	1.700743e-08	-0.006084168	0.01058519	-2.707095e-09	2.85009e-08
	-1.766811e-08	1.31224e-07	0.0009153743	0.002959275	-2.707095e-09	2.85009e-08	-0.005582154	0.0108897
3.1e+08	-0.003585579	0.006885781	2.857037e-09	2.853732e-08	0.001100788	0.004595149	8.613753e-09	1.361149e-07
	2.857037e-09	2.853732e-08	-0.003217894	0.006946414	2.925148e-09	1.740188e-08	0.001120947	0.004645184
	0.001100788	0.004595149	2.925148e-09	1.740188e-08	-0.003388864	0.006932238	2.670495e-09	2.940642e-08
	8.613753e-09	1.361149e-07	0.001120947	0.004645184	2.670495e-09	2.940642e-08	-0.003146844	0.007179235
3.2e+08	-0.0016979	0.002772825	8.070198e-09	2.835708e-08	0.001705422	0.006195843	3.610591e-08	1.356012e-07
	8.070198e-09	2.835708e-08	-0.001631793	0.002821219	4.060666e-09	1.757604e-08	0.001651949	0.006256864
	0.001705422	0.006195843	4.060666e-09	1.757604e-08	-0.001529694	0.002787801	8.258679e-09	2.92154e-08
	3.610591e-08	1.356012e-07	0.001651949	0.006256864	8.258679e-09	2.92154e-08	-0.00157174	0.003032409
3.3e+08	-0.0007247725	-0.001656456	1.326284e-08	2.711133e-08	0.002616937	0.007640794	6.367341e-08	1.294033e-07
	1.326284e-08	2.711133e-08	-0.0009667397	-0.001558134	5.164083e-09	1.752591e-08	0.002486214	0.00772874
	0.002616937	0.007640794	5.164083e-09	1.752591e-08	-0.0005852661	-0.001668293	1.383137e-08	2.787982e-08
	6.367341e-08	1.294033e-07	0.002486214	0.00772874	1.383137e-08	2.787982e-08	-0.0009239132	-0.001365689
3.4e+08	-0.0007075242	-0.006210487	1.821521e-08	2.479941e-08	0.003796497	0.008869318	9.012062e-08	1.174841e-07
	1.821521e-08	2.479941e-08	-0.001251806	-0.005998967	6.188587e-09	1.725703e-08	0.003588442	0.009001179
	0.003796497	0.008869318	6.188587e-09	1.725703e-08	-0.0005966385	-0.006244892	1.915234e-08	2.539812e-08
	9.012062e-08	1.174841e-07	0.003588442	0.009001179	1.915234e-08	2.539812e-08	-0.001231761	-0.005821085
3.5e+08	-0.001648476	-0.01069415	2.270676e-08	2.146576e-08	0.005193397	0.009830096	1.142441e-07	1.000614e-07
	2.270676e-08	2.146576e-08	-0.002476818	-0.01030751	7.08827e-09	1.678476e-08	0.0049117	0.01002313
	0.005193397	0.009830096	7.08827e-09	1.678476e-08	-0.001565953	-0.01074723	2.398448e-08	2.181729e-08
	1.142441e-07	1.000614e-07	0.0049117	0.01002313	2.398448e-08	2.181729e-08	-0.002484167	-0.01013888
3.6e+08	-0.003511174	-0.0149166	2.652517e-08	1.720023e-08	0.006747277	0.01048349	1.348874e-07	7.760891e-08
	2.652517e-08	1.720023e-08	-0.004593089	-0.01429676	7.82019e-09	1.613419e-08	0.006399468	0.01075437
	0.006747277	0.01048349	7.82019e-09	1.613419e-08	-0.003456636	-0.01498471	2.809961e-08	1.723316e-08
	1.348874e-07	7.760891e-08	0.006399468	0.01075437	2.809961e-08	1.723316e-08	-0.004631276	-0.01413115
3.7e+08	-0.006222181	-0.01869881	2.947553e-08	1.213675e-08	0.008390792	0.01080332	1.509962e-07	5.084419e-08
	2.947553e-08	1.213675e-08	-0.007515733	-0.01779404	8.346432e-09	1.533956e-08	0.007988126	0.01116731
	0.008390792	0.01080332	8.346432e-09	1.533956e-08	-0.006195152	-0.01877849	3.128835e-08	1.178883e-08
	1.509962e-07	5.084419e-08	0.007988126	0.01116731	3.128835e-08	1.178883e-08	-0.007586851	-0.01762453
3.8e+08	-0.009674325	-0.02188063	3.138947e-08	6.450171e-09	0.01005261	0.01077804	1.616691e-07	2.070587e-08
	3.138947e-08	6.450171e-09	-0.01112741	-0.02064778	8.636094e-09	1.444332e-08	0.009609763	0.01124816
	0.01005261	0.01077804	8.636094e-09	1.444332e-08	-0.009674219	-0.02196854	3.336983e-08	5.671173e-09
	1.616691e-07	2.070587e-08	0.009609763	0.01124816	3.336983e-08	5.671173e-09	-0.01123208	-0.02046712
3.9e+08	-0.01373126	-0.02432697	3.213381e-08	3.512325e-10	0.01166057	0.01041126	1.662041e-07	-1.168041e-08
	3.213381e-08	3.512325e-10	-0.01528338	-0.02273357	8.667093e-09	1.349467e-08	0.01119517	0.01099753
	0.01166057	0.01041126	8.667093e-09	1.349467e-08	-0.01375735	-0.02441979	3.42009e-08	-8.946139e-10
	1.662041e-07	-1.168041e-08	0.01119517	0.01099753	3.42009e-08	-8.946139e-10	-0.01542068	-0.02253441
4e+08	-0.01823312	-0.02593294	3.161842e-08	-5.920392e-09	0.01314492	0.009721506	1.641368e-07	-4.504531e-08
	3.161842e-08	-5.920392e-09	-0.01981755	-0.0239588	8.427693e-09	1.254771e-08	0.01267689	0.01043029
	0.01314492	0.009721506	8.427693e-09	1.254771e-08	-0.01828448	-0.02602736	3.368441e-08	-7.652503e-09
	1.641368e-07	-4.504531e-08	0.01267689	0.01043029	3.368441e-08	-7.652503e-09	-0.01998505	-0.0237341
4.1e+08	-0.02300307	-0.02662772	2.980274e-08	-1.210483e-08	0.01444135	0.00874139	1.552685e-07	-7.802665e-08
	2.980274e-08	-1.210483e-08	-0.02454937	-0.02426619	7.917642e-09	1.165928e-08	0.01399212	0.009574913
	0.01444135	0.00874139	7.917642e-09	1.165928e-08	-0.02307852	-0.02672041	3.177606e-08	-1.432495e-08
	1.552685e-07	-7.802665e-08	0.01399212	0.009574913	3.177606e-08	-1.432495e-08	-0.02474317	-0.02400947
4.2e+08	-0.02785443	-0.02637706	2.670056e-08	-1.793234e-08	0.01549377	0.007516093	1.396841e-07	-1.092256e-07
	2.670056e-08	-1.793234e-08	-0.02929118	-0.02363571	7.148831e-09	1.088641e-08	0.01508541	0.008472077
	0.01549377	0.007516093	7.148831e-09	1.088641e-08	-0.02795245	-0.02646472	2.848946e-08	-2.06239e-08
	1.396841e-07	-1.092256e-07	0.01508541	0.008472077	2.848946e-08	-2.06239e-08	-0.02950608	-0.02334137
4.3e+08	-0.03259806	-0.02518432	2.238266e-08	-2.313493e-08	0.01625677	0.006101334	1.177577e-07	-1.37266e-07
	2.238266e-08	-2.313493e-08	-0.03385576	-0.02208505	6.145397e-09	1.02837e-08	0.01591098	0.007172873
	0.01625677	0.006101334	6.145397e-09	1.02837e-08	-0.03271671	-0.02526365	2.389878e-08	-2.6263e-08
	1.177577e-07	-1.37266e-07	0.01591098	0.007172873	2.389878e-08	-2.6263e-08	-0.03408545	-0.02174867
4.4e+08	-0.03704979	-0.02308998	1.697679e-08	-2.745871e-08	0.01669746	0.0045609	9.014573e-08	-1.608536e-07
	1.697679e-08	-2.745871e-08	-0.03806372	-0.01966863	4.943204e-09	9.90058e-09	0.01643461	0.005736525
	0.01669746	0.0045609	4.943204e-09	9.90058e-09	-0.03718669	-0.02315785	1.813882e-08	-3.097071e-08
	9.014573e-08	-1.608536e-07	0.01643461	0.005736525	1.813882e-08	-3.097071e-08	-0.03830106	-0.0192871
4.5e+08	-0.04103755	-0.02016986	1.066502e-08	-3.067638e-08	0.0167968	0.002963859	5.776849e-08	-1.788343e-07
	1.066502e-08	-3.067638e-08	-0.04175059	-0.01647508	3.58871e-09	9.778721e-09	0.01663496	0.004227822
	0.0167968	0.002963859	3.58871e-09	9.778721e-09	-0.04118981	-0.02022332	1.140223e-08	-3.450346e-08
	5.776849e-08	-1.788343e-07	0.01663496	0.004227822	1.140223e-08	-3.450346e-08	-0.04198787	-0.01604685
4.6e+08	-0.04440801	-0.01653183	3.660745e-09	-3.260131e-08	0.01655035	0.001381595	2.177007e-08	-1.902201e-07
	3.660745e-09	-3.260131e-08	-0.04477313	-0.01262355	2.137909e-09	9.951373e-09	0.01650436	0.002714363
	0.01655035	0.001381595	2.137909e-09	9.951373e-09	-0.04457217	-0.01656825	3.915854e-09	-3.666007e-08
	2.177007e-08	-1.902201e-07	0.01650436	0.002714363	3.915854e-09	-3.666007e-08	-0.04500244	-0.01214866
4.7e+08	-0.04703225	-0.01231147	-3.751272e-09	-3.308947e-08	0.01596835	-0.0001152167	-1.648385e-08	-1.943112e-07
	-3.751272e-09	-3.308947e-08	-0.04701479	-0.008258766	6.527707e-10	1.04364e-08	0.01604902	0.001263727
	0.01596835	-0.0001152167	6.527707e-10	1.04364e-08	-0.04720439	-0.0123287	-4.018375e-09	-3.728525e-08
	-1.648385e-08	-1.943112e-07	0.01604902	0.001263727	-4.018375e-09	-3.728525e-08	-0.04722832	-0.007738906
