!$
! Info: Touchstone file created by Circ.  Input file=Tx_12in_Rx_100ohms_TxVia_35mils_RxVia_45mils.circ
!$
# Hz S RI R 50
0	0.01245058	1.519841e-25	-3.977097e-12	4.585694e-28	8.442935e-05	2.341221e-23	-3.055316e-12	2.290868e-28
	-3.9771e-12	4.585696e-28	0.01244711	1.791502e-25	-1.210841e-12	7.461521e-28	8.309051e-05	2.818705e-23
	8.495204e-05	2.3717e-23	-1.210837e-12	7.461516e-28	0.01245851	1.483699e-25	-3.359867e-12	4.887519e-28
	-3.055317e-12	2.29087e-28	8.124198e-05	2.832577e-23	-3.359868e-12	4.887524e-28	0.01246017	1.678618e-25
1e+07	0.01792013	0.007408945	8.641049e-12	4.420226e-12	0.0003982571	0.002178771	1.074345e-11	1.040651e-11
	8.641049e-12	4.420227e-12	0.01846305	0.007435887	9.349865e-12	5.536726e-12	0.0008168757	0.002216299
	0.0003982812	0.002178772	9.349865e-12	5.536726e-12	0.01728756	0.007784143	8.379581e-12	5.181602e-12
	1.074345e-11	1.040651e-11	0.0008168147	0.002216309	8.379581e-12	5.181602e-12	0.01829581	0.007467606
2e+07	0.02373525	0.01018815	9.024793e-12	1.792438e-12	0.001187168	0.004258014	1.002884e-11	1.25838e-11
	9.024794e-12	1.792439e-12	0.024169	0.01004307	1.67725e-11	-4.956832e-12	0.001461103	0.004501178
	0.001187176	0.004257999	1.67725e-11	-4.956832e-12	0.02365705	0.01097629	1.231138e-11	-4.834925e-12
	1.002884e-11	1.25838e-11	0.001461094	0.004501213	1.231138e-11	-4.834924e-12	0.02406258	0.01016062
3e+07	0.02874623	0.01041025	3.312981e-12	-3.874796e-12	0.002429137	0.006030668	3.388572e-12	1.171842e-11
	3.312981e-12	-3.874796e-12	0.02907297	0.01021753	1.73278e-11	-2.049486e-11	0.002595597	0.006347311
	0.002429137	0.006030665	1.73278e-11	-2.049486e-11	0.02909569	0.01121902	4.48218e-12	-1.687487e-11
	3.388572e-12	1.171842e-11	0.002595597	0.006347317	4.48218e-12	-1.687487e-11	0.02901895	0.0103661
4e+07	0.0331442	0.009181131	-1.009784e-11	-7.004308e-12	0.004039152	0.007428589	-1.199607e-11	1.410822e-11
	-1.009784e-11	-7.004308e-12	0.0333628	0.008985707	7.589889e-12	-3.745991e-11	0.004147337	0.007784199
	0.004039154	0.007428591	7.589889e-12	-3.745991e-11	0.03382797	0.009867571	-1.520666e-11	-2.571391e-11
	-1.199607e-11	1.410822e-11	0.004147332	0.007784197	-1.520666e-11	-2.571391e-11	0.0333556	0.009145936
5e+07	0.03687052	0.006845102	-2.979329e-11	-3.803931e-12	0.005912909	0.0083824	-3.426024e-11	2.412537e-11
	-2.97933e-11	-3.803931e-12	0.03698278	0.006680577	-1.147076e-11	-5.102719e-11	0.006132725	0.008652594
	0.00591291	0.0083824	-1.147076e-11	-5.102719e-11	0.03779826	0.007323887	-4.458443e-11	-2.54848e-11
	-3.426024e-11	2.412537e-11	0.006132721	0.008652593	-4.458443e-11	-2.54848e-11	0.03701599	0.006839609
6e+07	0.03982402	0.00364412	-5.286986e-11	8.672932e-12	0.007933614	0.008847278	-5.98057e-11	4.500608e-11
	-5.286986e-11	8.672932e-12	0.03983929	0.003541497	-3.822262e-11	-5.772746e-11	0.008216552	0.009016826
	0.007933612	0.008847278	-3.822262e-11	-5.772746e-11	0.04090517	0.003864418	-7.943378e-11	-1.187429e-11
	-5.98057e-11	4.500608e-11	0.008216555	0.009016825	-7.943378e-11	-1.187429e-11	0.03990547	0.00369008
7e+07	0.04190822	-0.000201526	-7.561612e-11	3.205648e-11	0.009991672	0.008791091	-8.403983e-11	7.846183e-11
	-7.561612e-11	3.205648e-11	0.04184277	-0.000215545	-7.094464e-11	-5.530956e-11	0.01028076	0.008873823
	0.009991666	0.008791092	-7.094464e-11	-5.530956e-11	0.04305295	-0.0002638708	-1.142216e-10	1.756849e-11
	-8.403983e-11	7.846183e-11	0.01028077	0.00887382	-1.142216e-10	1.756849e-11	0.04193363	-8.384573e-05
8e+07	0.04305197	-0.004472304	-9.353608e-11	6.659201e-11	0.01194664	0.008240824	-1.016549e-10	1.245165e-10
	-9.353607e-11	6.659201e-11	0.04292776	-0.004376618	-1.063139e-10	-4.155171e-11	0.01220826	0.008246533
	0.01194663	0.008240826	-1.063139e-10	-4.155171e-11	0.04417285	-0.004819061	-1.427746e-10	6.314752e-11
	-1.016549e-10	1.245165e-10	0.01220827	0.008246527	-1.427746e-10	6.314752e-11	0.04303443	-0.004265711
9e+07	0.04322004	-0.008946608	-1.01386e-10	1.111077e-10	0.01368339	0.007240468	-1.067403e-10	1.814089e-10
	-1.01386e-10	1.111077e-10	0.04306386	-0.008726525	-1.398832e-10	-1.477988e-11	0.01388907	0.007183631
	0.01368338	0.007240471	-1.398832e-10	-1.477988e-11	0.04423174	-0.009560925	-1.576725e-10	1.234893e-10
	-1.067404e-10	1.814089e-10	0.01388908	0.007183626	-1.576725e-10	1.234893e-10	0.04317707	-0.008637992
1e+08	0.04243235	-0.0134008	-9.232077e-11	1.638099e-10	0.0151068	0.00585993	-9.135078e-11	2.467017e-10
	-9.232077e-11	1.638099e-10	0.04227625	-0.01304816	-1.671467e-10	2.858763e-11	0.01521977	0.005755274
	0.0151068	0.00585993	-1.671467e-10	2.858763e-11	0.04322872	-0.01425655	-1.491924e-10	1.969401e-10
	-9.135078e-11	2.467017e-10	0.01521977	0.005755274	-1.491924e-10	1.969401e-10	0.04238501	-0.01298188
1.1e+08	0.04070861	-0.01772569	-6.090737e-11	2.031742e-10	0.0161289	0.004163561	-5.14251e-11	2.961708e-10
	-6.090737e-11	2.031742e-10	0.04058594	-0.01725247	-1.6625e-10	7.475203e-11	0.01613434	0.004099943
	0.0161289	0.004163561	-1.6625e-10	7.475203e-11	0.04123107	-0.01863739	-1.07916e-10	2.539229e-10
	-5.14251e-11	2.961708e-10	0.01613434	0.004099943	-1.07916e-10	2.539229e-10	0.04068313	-0.01719703
1.2e+08	0.03805948	-0.02162505	-2.596476e-11	2.303522e-10	0.01667364	0.002282719	-1.471829e-11	3.306686e-10
	-2.596476e-11	2.303522e-10	0.03799155	-0.02104229	-1.578143e-10	1.04672e-10	0.0166182	0.002284926
	0.01667364	0.002282719	-1.578143e-10	1.04672e-10	0.03837258	-0.02253172	-6.176033e-11	2.922706e-10
	-1.471829e-11	3.306686e-10	0.0166182	0.002284926	-6.176033e-11	2.922706e-10	0.03807769	-0.02099299
1.3e+08	0.03463557	-0.02490836	7.149892e-13	2.485309e-10	0.01672043	0.0003400936	1.925814e-11	3.571624e-10
	7.149892e-13	2.485309e-10	0.03464377	-0.02423213	-1.505316e-10	1.230471e-10	0.01663478	0.0004161725
	0.01672043	0.0003400935	-1.505316e-10	1.230471e-10	0.03477379	-0.02577376	-2.552648e-11	3.163884e-10
	1.925814e-11	3.571624e-10	0.01663478	0.0004161725	-2.552648e-11	3.163884e-10	0.03471813	-0.02418507
1.4e+08	0.03060234	-0.02742745	3.1737e-11	2.616755e-10	0.01627301	-0.001541687	5.866293e-11	3.772873e-10
	3.1737e-11	2.616755e-10	0.0307043	-0.02667965	-1.398533e-10	1.416509e-10	0.01618318	-0.00139264
	0.01627301	-0.001541687	-1.398533e-10	1.416509e-10	0.03059597	-0.02822553	1.67725e-11	3.338199e-10
	5.866293e-11	3.772873e-10	0.01618318	-0.00139264	1.67725e-11	3.338199e-10	0.03076676	-0.0266311
1.5e+08	0.02614742	-0.02907453	6.575561e-11	2.684317e-10	0.01536366	-0.003245012	1.018503e-10	3.89371e-10
	6.575561e-11	2.684317e-10	0.02635496	-0.02828192	-1.258076e-10	1.593364e-10	0.01529129	-0.003030762
	0.01536366	-0.003245012	-1.258076e-10	1.593364e-10	0.02602541	-0.0297868	6.334511e-11	3.426259e-10
	1.018503e-10	3.89371e-10	0.01529129	-0.003030762	6.334511e-11	3.426259e-10	0.02640617	-0.02822848
1.6e+08	0.02147381	-0.02978532	1.011848e-10	2.678332e-10	0.01405159	-0.004663893	1.468368e-10	3.921988e-10
	1.011848e-10	2.678332e-10	0.0217915	-0.02897793	-1.086226e-10	1.751278e-10	0.0140134	-0.004397466
	0.01405159	-0.004663893	-1.086226e-10	1.751278e-10	0.02126421	-0.03039971	1.120428e-10	3.414127e-10
	1.468368e-10	3.921988e-10	0.0140134	-0.004397466	1.120428e-10	3.414127e-10	0.02183273	-0.02891666
1.7e+08	0.01679118	-0.02954109	1.362257e-10	2.593195e-10	0.01241957	-0.005710096	1.913486e-10	3.850595e-10
	1.362257e-10	2.593195e-10	0.01721537	-0.0287502	-8.871799e-11	1.881595e-10	0.01242667	-0.005408175
	0.01241957	-0.005710096	-8.871799e-11	1.881595e-10	0.01652095	-0.03005117	1.604026e-10	3.293469e-10
	1.913486e-10	3.850595e-10	0.01242667	-0.005408175	1.604026e-10	3.293469e-10	0.0172484	-0.02867873
1.8e+08	0.01230635	-0.02836892	1.689391e-10	2.427726e-10	0.01056891	-0.006318272	2.329161e-10	3.678087e-10
	1.689391e-10	2.427726e-10	0.01282483	-0.02762482	-6.669927e-11	1.976771e-10	0.0106264	-0.005999541
	0.01056891	-0.006318272	-6.669927e-11	1.976771e-10	0.01200098	-0.02877334	2.057486e-10	3.062096e-10
	2.329161e-10	3.678087e-10	0.0106264	-0.005999541	2.057486e-10	3.062096e-10	0.01285185	-0.02754136
1.9e+08	0.008213749	-0.02633995	1.973219e-10	2.185323e-10	0.008613444	-0.006449732	2.68997e-10	3.409213e-10
	1.973219e-10	2.185323e-10	0.008806078	-0.02566959	-4.334995e-11	2.030666e-10	0.008720337	-0.006133192
	0.008613444	-0.006449732	-4.334995e-11	2.030666e-10	0.007896743	-0.02664182	2.45321e-10	2.724466e-10
	2.68997e-10	3.409213e-10	0.008720337	-0.006133192	2.45321e-10	2.724466e-10	0.008829463	-0.025573
2e+08	0.004686197	-0.02356555	2.194502e-10	1.874589e-10	0.006672623	-0.006094635	2.971272e-10	3.055145e-10
	2.194502e-10	1.874589e-10	0.005324624	-0.02299038	-1.961588e-11	2.038833e-10	0.006822131	-0.005797966
	0.006672623	-0.006094635	-1.961588e-11	2.038833e-10	0.004378669	-0.0237719	2.764279e-10	2.291969e-10
	2.971272e-10	3.055145e-10	0.006822131	-0.005797966	2.764279e-10	2.291969e-10	0.005346871	-0.02288012
2.1e+08	0.001866775	-0.02019154	2.335827e-10	1.509006e-10	0.00486439	-0.005272436	3.150812e-10	2.633542e-10
	2.335827e-10	1.509006e-10	0.002517764	-0.01972556	3.420408e-12	1.998995e-10	0.005044598	-0.005010503
	0.00486439	-0.005272436	3.420408e-12	1.998995e-10	0.001587005	-0.0203127	2.966149e-10	1.782886e-10
	3.150812e-10	2.633542e-10	0.005044598	-0.005010503	2.966149e-10	1.782886e-10	0.002541328	-0.01960172
2.2e+08	-0.0001379207	-0.01639068	2.382572e-10	1.106417e-10	0.003298104	-0.004030563	3.210397e-10	2.167941e-10
	2.382572e-10	1.106417e-10	0.0004882992	-0.016039	2.458823e-11	1.911564e-10	0.003492978	-0.003814145
	0.003298104	-0.004030563	2.458823e-11	1.911564e-10	-0.0003748256	-0.01643968	3.038406e-10	1.221925e-10
	3.210397e-10	2.167941e-10	0.003492978	-0.003814145	3.038406e-10	1.221925e-10	0.000515483	-0.01590224
2.3e+08	-0.001262708	-0.01235389	2.324216e-10	6.885757e-11	0.002068039	-0.002441421	3.137512e-10	1.686824e-10
	2.324216e-10	6.885757e-11	-0.0007000031	-0.01211173	4.269385e-11	1.779961e-10	0.002258713	-0.002276247
	0.002068039	-0.002441421	4.269385e-11	1.779961e-10	-0.001445087	-0.01234578	2.966466e-10	6.392817e-11
	3.137512e-10	1.686824e-10	0.002258713	-0.002276247	2.966466e-10	6.392817e-11	-0.000667172	-0.01196324
2.4e+08	-0.001486642	-0.00828047	2.155417e-10	2.802086e-11	0.001247828	-0.0005979042	2.926698e-10	1.222192e-10
	2.155417e-10	2.802086e-11	-0.001025033	-0.008132873	5.660282e-11	1.610808e-10	0.001414092	-0.0004840593
	0.001247828	-0.0005979042	5.660282e-11	1.610808e-10	-0.00160646	-0.008231642	2.743104e-10	6.92399e-12
	2.926698e-10	1.222192e-10	0.001414092	-0.0004840593	2.743104e-10	6.92399e-12	-0.0009849117	-0.007974301
2.5e+08	-0.0008335649	-0.00436802	1.876861e-10	-9.225275e-12	0.0008861869	0.001392287	2.580529e-10	8.077232e-11
	1.876861e-10	-9.225275e-12	-0.0005068229	-0.004290226	6.533277e-11	1.413859e-10	0.001008071	0.001460555
	0.0008861869	0.001392287	6.533277e-11	1.413859e-10	-0.0008864898	-0.004295513	2.369596e-10	-4.517059e-11
	2.580529e-10	8.077232e-11	0.001008071	0.001460555	2.369596e-10	-4.517059e-11	-0.0004582477	-0.004123556
2.6e+08	0.0006296316	-0.0008024787	1.495806e-10	-4.022002e-11	0.001004173	0.003413168	2.110105e-10	4.766543e-11
	1.495806e-10	-4.022002e-11	0.0007940558	-0.0007609511	6.814754e-11	1.201621e-10	0.00106353	0.003447223
	0.001004173	0.003413168	6.814754e-11	1.201621e-10	0.0006442638	-0.0007232822	1.856396e-10	-8.870572e-11
	2.110105e-10	4.766543e-11	0.00106353	0.003447223	1.856396e-10	-8.870572e-11	0.0008516995	-0.0005883945
2.7e+08	0.002796955	0.002251139	1.026211e-10	-6.24559e-11	0.001594112	0.005347431	1.53492e-10	2.595255e-11
	1.026211e-10	-6.24559e-11	0.002780146	0.002297037	6.464026e-11	9.886665e-11	0.001576085	0.005363615
	0.001594112	0.005347431	6.464026e-11	9.886665e-11	0.002876288	0.002320776	1.223176e-10	-1.202729e-10
	1.53492e-10	2.595255e-11	0.001576085	0.005363615	1.223176e-10	-1.202729e-10	0.002846883	0.002473187
2.8e+08	0.005529223	0.004656846	4.883948e-11	-7.375678e-11	0.002620245	0.007083406	8.821271e-11	1.8197e-11
	4.883948e-11	-7.375678e-11	0.005322568	0.004752628	5.479416e-11	7.906603e-11	0.002514535	0.007102054
	0.002620245	0.007083406	5.479416e-11	7.906603e-11	0.005667151	0.00470206	4.982104e-11	-1.369497e-10
	8.821271e-11	1.8197e-11	0.002514535	0.007102054	4.982104e-11	-1.369497e-10	0.005397828	0.004930143
2.9e+08	0.008661628	0.006314188	-9.182339e-12	-7.2446e-11	0.004021021	0.008521629	1.851735e-11	2.627575e-11
	-9.182339e-12	-7.2446e-11	0.008267993	0.0065076	3.90102e-11	6.232088e-11	0.003822857	0.008565772
	0.004021021	0.008521629	3.90102e-11	6.232088e-11	0.008849172	0.006322091	-2.829488e-11	-1.365242e-10
	1.851735e-11	2.627575e-11	0.003822857	0.008565772	-2.829488e-11	-1.365242e-10	0.008350641	0.006684466
3e+08	0.01201252	0.007162835	-6.844448e-11	-5.749048e-11	0.005712881	0.00958062	-5.180637e-11	5.122507e-11
	-6.844448e-11	-5.749048e-11	0.01144675	0.007500941	1.809674e-11	5.006507e-11	0.005423633	0.009674483
	0.005712881	0.00958062	1.809674e-11	5.006507e-11	0.01223832	0.007123029	-1.079398e-10	-1.176798e-10
	-5.180637e-11	5.122507e-11	0.005423633	0.009674483	-1.079398e-10	-1.176798e-10	0.01153516	0.007675497
3.1e+08	0.01539295	0.007185063	-1.257015e-10	-2.860723e-11	0.007595283	0.01020156	-1.187515e-10	9.313973e-11
	-1.257015e-10	-2.860723e-11	0.01468163	0.007711238	-6.779253e-12	4.349232e-11	0.007222674	0.01036894
	0.007595283	0.01020156	-6.779253e-12	4.349232e-11	0.01564384	0.007090048	-1.847291e-10	-8.012465e-11
	-1.187515e-10	9.313973e-11	0.007222674	0.01036894	-1.847291e-10	-8.012465e-11	0.01477376	0.007882291
3.2e+08	0.01861643	0.006405992	-1.776611e-10	1.368254e-11	0.009556662	0.01035164	-1.783351e-10	1.511378e-10
	-1.776611e-10	1.368254e-11	0.01779688	0.007156998	-3.417371e-11	4.346561e-11	0.009114563	0.01061424
	0.009556662	0.01035164	-3.417371e-11	4.346561e-11	0.0188781	0.006251449	-2.542537e-10	-2.464804e-11
	-1.783351e-10	1.511378e-10	0.009114563	0.01061424	-2.542537e-10	-2.464804e-11	0.01789046	0.007323918
3.3e+08	0.02150849	0.004891638	-2.211933e-10	6.805454e-11	0.01148098	0.01002583	-2.268418e-10	2.233892e-10
	-2.211933e-10	6.805454e-11	0.02062705	0.005894996	-6.246946e-11	5.045692e-11	0.01098879	0.01040174
	0.01148098	0.01002583	-6.246946e-11	5.045692e-11	0.02176615	0.004676591	-3.123571e-10	4.689623e-11
	-2.268418e-10	2.233892e-10	0.01098879	0.01040174	-3.123571e-10	4.689623e-11	0.02071968	0.006057761
3.4e+08	0.02391538	0.002744909	-2.535335e-10	1.324395e-10	0.01325448	0.009247104	-2.610512e-10	3.072053e-10
	-2.535335e-10	1.324395e-10	0.0230251	0.004016707	-8.999073e-11	6.452255e-11	0.01273613	0.009749402
	0.01325448	0.009247104	-8.999073e-11	6.452255e-11	0.02415455	0.002471726	-3.553977e-10	1.316796e-10
	-2.610512e-10	3.072053e-10	0.01273613	0.009749402	-3.553977e-10	1.316796e-10	0.02311441	0.004175925
3.5e+08	0.02571175	9.974569e-05	-2.7246e-10	2.041352e-10	0.01477231	0.008065063	-2.784309e-10	3.991831e-10
	-2.7246e-10	2.041352e-10	0.02486946	0.001643057	-1.151133e-10	8.53149e-11	0.01425492	0.008700735
	0.01477231	0.008065063	-1.151133e-10	8.53149e-11	0.02591888	-0.0002259968	-3.804752e-10	2.260553e-10
	-2.784309e-10	3.991831e-10	0.01425492	0.008700735	-3.804752e-10	2.260553e-10	0.02495331	0.001799939
3.6e+08	0.02680664	-0.002886219	-2.764438e-10	2.799665e-10	0.01594456	0.006553008	-2.772942e-10	4.953948e-10
	-2.764438e-10	2.799665e-10	0.02606975	-0.001082191	-1.36361e-10	1.121232e-10	0.01545687	0.007322205
	0.01594456	0.006553008	-1.36361e-10	1.121232e-10	0.02696985	-0.00325603	-3.85608e-10	3.257636e-10
	-2.772942e-10	4.953948e-10	0.01545687	0.007322205	-3.85608e-10	3.257636e-10	0.02614634	-0.0009258995
3.7e+08	0.02714772	-0.006040141	-2.647193e-10	3.564497e-10	0.0167015	0.004803707	-2.568753e-10	5.915829e-10
	-2.647193e-10	3.564497e-10	0.0265708	-0.004000117	-1.524794e-10	1.439352e-10	0.01627213	0.005699412
	0.0167015	0.004803707	-1.524794e-10	1.439352e-10	0.02725737	-0.006443035	-3.698485e-10	4.261714e-10
	-2.568753e-10	5.915829e-10	0.01627213	0.005699412	-3.698485e-10	4.261714e-10	0.02663881	-0.003842237
3.8e+08	0.02672349	-0.009183128	-2.373537e-10	4.300028e-10	0.01699762	0.002924034	-2.174011e-10	6.833942e-10
	-2.373537e-10	4.300028e-10	0.02635489	-0.006944959	-1.624844e-10	1.795097e-10	0.0166533	0.003932166
	0.01699762	0.002924034	-1.624844e-10	1.795097e-10	0.0267727	-0.009606179	-3.333361e-10	5.225266e-10
	-2.174011e-10	6.833942e-10	0.0166533	0.003932166	-3.333361e-10	5.225266e-10	0.02641359	-0.00678301
3.9e+08	0.02556342	-0.01213963	-1.952335e-10	4.971391e-10	0.0168144	0.001028801	-1.600794e-10	7.666019e-10
	-1.952335e-10	4.971391e-10	0.02544205	-0.009752678	-1.656872e-10	2.17449e-10	0.01657816	0.002128764
	0.0168144	0.001028801	-1.656872e-10	2.17449e-10	0.02554842	-0.01256861	-2.772873e-10	6.102109e-10
	-1.600794e-10	7.666019e-10	0.01657816	0.002128764	-2.772873e-10	6.102109e-10	0.02549136	-0.009584035
4e+08	0.02373587	-0.01474656	-1.400133e-10	5.546492e-10	0.01616137	-0.0007659025	-8.704637e-11	8.373186e-10
	-1.400133e-10	5.546492e-10	0.02388849	-0.01226933	-1.617003e-10	2.562649e-10	0.01605102	0.000399763
	0.01616137	-0.0007659025	-1.617003e-10	2.562649e-10	0.02365623	-0.01516669	-2.039301e-10	6.849758e-10
	-8.704637e-11	8.373186e-10	0.01605102	0.000399763	-2.039301e-10	6.849758e-10	0.023929	-0.01209139
4.1e+08	0.02134414	-0.01686175	-7.402654e-11	5.997624e-10	0.01507576	-0.002349469	-1.272194e-12	8.921914e-10
	-7.402654e-11	5.997624e-10	0.02178321	-0.01435883	-1.504321e-10	2.944325e-10	0.01510251	-0.001148404
	0.01507576	-0.002349469	-1.504321e-10	2.944325e-10	0.02120283	-0.01725842	-1.16392e-10	7.431532e-10
	-1.272194e-12	8.921914e-10	0.01510251	-0.001148404	-1.16392e-10	7.431532e-10	0.02181615	-0.01416917
4.2e+08	0.0185206	-0.01837122	-1.68205e-13	6.302775e-10	0.01362039	-0.003623266	9.356952e-11	9.285718e-10
	-1.68205e-13	6.302775e-10	0.01924294	-0.01590978	-1.32078e-10	3.30434e-10	0.01378792	-0.002419603
	0.01362039	-0.003623266	-1.32078e-10	3.30434e-10	0.01832393	-0.01873078	-1.854908e-11	7.81831e-10
	9.356952e-11	9.285718e-10	0.01378792	-0.002419603	-1.854908e-11	7.81831e-10	0.01927014	-0.01570635
4.3e+08	0.01541951	-0.01919497	7.824287e-11	6.446645e-10	0.01188016	-0.004506477	1.932634e-10	9.446561e-10
	7.824287e-11	6.446645e-10	0.01640573	-0.01684091	-1.071139e-10	3.627941e-10	0.01218405	-0.003333621
	0.01188016	-0.004506477	-1.071139e-10	3.627941e-10	0.01517678	-0.01950546	8.515195e-11	7.989925e-10
	1.932634e-10	9.446561e-10	0.01218405	-0.003333621	8.515195e-11	7.989925e-10	0.0164295	-0.01662214
4.4e+08	0.01220848	-0.01929094	1.57613e-10	6.421332e-10	0.009957131	-0.00494095	2.932391e-10	9.395922e-10
	1.57613e-10	6.421332e-10	0.01342349	-0.01710498	-7.629531e-11	3.901149e-10	0.01038482	-0.003830901
	0.009957131	-0.00494095	-7.629531e-11	3.901149e-10	0.01193162	-0.01954275	1.898914e-10	7.936162e-10
	2.932391e-10	9.395922e-10	0.01038482	-0.003830901	1.898914e-10	7.936162e-10	0.01344651	-0.0168699
4.5e+08	0.009059482	-0.01865696	2.342287e-10	6.226738e-10	0.007964653	-0.004894744	3.887793e-10	9.135489e-10
	2.342287e-10	6.226738e-10	0.01045385	-0.01669085	-4.066083e-11	4.111177e-10	0.008495871	-0.003876099
	0.007964653	-0.004894744	-4.066083e-11	4.111177e-10	0.008762424	-0.01884336	2.906877e-10	7.657377e-10
	3.887793e-10	9.135489e-10	0.008495871	-0.003876099	2.906877e-10	7.657377e-10	0.01047898	-0.01643921
4.6e+08	0.006139505	-0.01733052	3.044151e-10	5.870699e-10	0.006020692	-0.004364153	4.752409e-10	8.677439e-10
	3.044151e-10	5.870699e-10	0.007651789	-0.01562369	-1.49467e-12	4.246861e-10	0.006628373	-0.003460242
	0.006020692	-0.004364153	-1.49467e-12	4.246861e-10	0.005837496	-0.0174481	3.826745e-10	7.164761e-10
	4.752409e-10	8.677439e-10	0.006628373	-0.003460242	3.826745e-10	7.164761e-10	0.007681919	-0.01535592
4.7e+08	0.003601593	-0.01538645	3.646928e-10	5.368857e-10	0.004240885	-0.003374068	5.482834e-10	8.044235e-10
	3.646928e-10	5.368857e-10	0.005161436	-0.01396319	3.971656e-11	4.298351e-10	0.004892558	-0.002601342
	0.004240885	-0.003374068	3.971656e-11	4.298351e-10	0.003310436	-0.01543532	4.614059e-10	6.479268e-10
	5.482834e-10	8.044235e-10	0.004892558	-0.002601342	4.614059e-10	6.479268e-10	0.00519928	-0.0136804
4.8e+08	0.001576658	-0.01293256	4.119385e-10	4.744246e-10	0.002731679	-0.001976628	6.041072e-10	7.268014e-10
