!$
! Info: Touchstone file created by Circ.  Input file=Tx_12in_Rx_93ohms_TxVia_35mils_RxVia_45mils.circ
!$
# Hz S RI R 50
0	0.01102121	1.521765e-25	-6.439604e-05	-7.451459e-26	8.453999e-05	2.071198e-23	-6.439549e-05	-7.81631e-26
	-6.439605e-05	-7.216182e-26	0.01101774	1.793703e-25	-6.439471e-05	-6.54923e-26	8.319632e-05	2.493563e-23
	8.506299e-05	2.098161e-23	-6.439468e-05	-6.94287e-26	0.01102919	1.485572e-25	-6.439486e-05	1.659608e-26
	-6.43955e-05	-7.652961e-26	8.134806e-05	2.505838e-23	-6.439489e-05	1.981325e-26	0.01103083	1.680659e-25
1e+07	0.01512316	-0.001303596	-3.598744e-06	-2.366486e-05	0.0004213994	0.002042018	-3.6559e-06	-2.428711e-05
	-3.598744e-06	-2.366486e-05	0.01600266	-0.001477263	-7.777639e-06	-4.143246e-06	0.0004384129	0.002219344
	0.0004214234	0.00204202	-7.777638e-06	-4.143246e-06	0.0162898	-0.0007904958	-2.577305e-05	-4.898395e-06
	-3.6559e-06	-2.428711e-05	0.0004383522	0.002219354	-2.577305e-05	-4.898395e-06	0.01568705	-0.001472716
2e+07	0.01772234	-0.006497596	-9.757365e-06	-1.506728e-05	0.00125583	0.004014807	-1.052789e-05	-1.599731e-05
	-9.757366e-06	-1.506728e-05	0.01820915	-0.007074018	-3.165255e-05	-2.213427e-05	0.001169863	0.004350219
	0.001255838	0.004014792	-3.165255e-05	-2.213427e-05	0.01925344	-0.006154993	-2.665272e-05	6.803609e-06
	-1.052789e-05	-1.59973e-05	0.001169854	0.004350254	-2.665272e-05	6.803608e-06	0.01797563	-0.006959522
3e+07	0.01772702	-0.01321949	-1.4647e-05	-1.116841e-05	0.002520268	0.005710538	-1.597226e-05	-1.199124e-05
	-1.4647e-05	-1.116841e-05	0.01787643	-0.0138759	-4.923687e-05	-1.955125e-05	0.002434672	0.006115534
	0.002520268	0.005710535	-4.923687e-05	-1.955125e-05	0.01949618	-0.01313027	-2.809229e-05	9.088961e-06
	-1.597226e-05	-1.199124e-05	0.002434672	0.00611554	-2.809229e-05	9.08896e-06	0.01770192	-0.01373799
4e+07	0.01562842	-0.01997678	-1.830934e-05	-7.030468e-06	0.004136172	0.007035845	-2.007736e-05	-7.579702e-06
	-1.830934e-05	-7.030468e-06	0.01547678	-0.02059215	-6.249582e-05	-1.043408e-05	0.004109005	0.00746201
	0.004136174	0.007035846	-6.249582e-05	-1.043408e-05	0.01753095	-0.02019834	-2.845277e-05	1.277845e-05
	-2.007736e-05	-7.579702e-06	0.004109	0.007462008	-2.845277e-05	1.277845e-05	0.01534547	-0.02045416
5e+07	0.01174805	-0.0261263	-2.079852e-05	-2.421281e-06	0.005999515	0.007917191	-2.290991e-05	-2.577367e-06
	-2.079852e-05	-2.421281e-06	0.01133678	-0.02661507	-7.174146e-05	2.559972e-06	0.006017807	0.008348478
	0.005999517	0.007917192	-7.174146e-05	2.559972e-06	0.01368693	-0.02668632	-2.781161e-05	1.703579e-05
	-2.290991e-05	-2.577367e-06	0.006017804	0.008348477	-2.781161e-05	1.703579e-05	0.01123435	-0.02648817
6e+07	0.00642216	-0.0312244	-2.211087e-05	2.567594e-06	0.007991621	0.008310339	-2.446076e-05	2.903984e-06
	-2.211087e-05	2.567594e-06	0.005801673	-0.03152079	-7.696437e-05	1.8115e-05	0.008043457	0.008737951
	0.007991618	0.008310339	-7.696437e-05	1.8115e-05	0.008306084	-0.03212657	-2.619413e-05	2.148776e-05
	-2.446076e-05	2.903984e-06	0.00804346	0.00873795	-2.619413e-05	2.148776e-05	0.005715017	-0.03140971
7e+07	2.470229e-05	-0.03495702	-2.221979e-05	7.779366e-06	0.0099877	0.008202447	-2.468617e-05	8.694461e-06
	-2.221979e-05	7.779366e-06	-0.0007455731	-0.0350119	-7.800765e-05	3.529148e-05	0.01006233	0.008621947
	0.009987694	0.008202448	-7.800765e-05	3.529148e-05	0.001768987	-0.03618495	-2.36159e-05	2.588569e-05
	-2.468617e-05	8.694461e-06	0.01006234	0.008621944	-2.36159e-05	2.588569e-05	-0.0008281642	-0.03491703
8e+07	-0.007039489	-0.03712372	-2.107672e-05	1.304327e-05	0.01186516	0.007612266	-2.351118e-05	1.461077e-05
	-2.107672e-05	1.304327e-05	-0.007892425	-0.03690423	-7.460856e-05	5.330328e-05	0.01195273	0.008021703
	0.01186516	0.007612269	-7.460856e-05	5.330328e-05	-0.005512049	-0.0386445	-2.035841e-05	2.983802e-05
	-2.351118e-05	1.461077e-05	0.01195274	0.008021696	-2.035842e-05	2.983803e-05	-0.007981012	-0.03682283
9e+07	-0.01435068	-0.03763247	-1.857178e-05	1.819222e-05	0.01351223	0.006588635	-2.078159e-05	2.048692e-05
	-1.857178e-05	1.819222e-05	-0.01521231	-0.03712173	-6.626884e-05	7.147534e-05	0.0136023	0.006986855
	0.01351222	0.006588639	-6.626884e-05	7.147534e-05	-0.01311131	-0.03940072	-1.839261e-05	3.219881e-05
	-2.078159e-05	2.048692e-05	0.01360231	0.006986849	-1.839261e-05	3.219881e-05	-0.01531538	-0.03704893
1e+08	-0.02148805	-0.03649305	-1.407825e-05	2.317601e-05	0.01484391	0.00521063	-1.574567e-05	2.627543e-05
	-1.407825e-05	2.317601e-05	-0.02226573	-0.03568516	-5.059593e-05	8.958093e-05	0.01491449	0.00559159
	0.01484391	0.005210629	-5.059593e-05	8.958093e-05	-0.02062804	-0.03846318	-1.693034e-05	3.403999e-05
	-1.574567e-05	2.627543e-05	0.01491449	0.00559159	-1.693034e-05	3.403999e-05	-0.02239306	-0.03561581
1.1e+08	-0.02807098	-0.03386707	-8.168567e-06	2.480478e-05	0.01574544	0.003607727	-8.959908e-06	2.824143e-05
	-8.168567e-06	2.480478e-05	-0.0286885	-0.03286117	-2.927351e-05	9.593553e-05	0.01581267	0.003935304
	0.01574544	0.003607727	-2.927351e-05	9.593553e-05	-0.0276428	-0.03582482	-1.487839e-05	3.429855e-05
	-8.959908e-06	2.824143e-05	0.01581267	0.003935304	-1.487839e-05	3.429855e-05	-0.02884402	-0.03277251
1.2e+08	-0.03379756	-0.02989596	-3.202897e-06	2.529869e-05	0.01617387	0.001833709	-4.661264e-06	2.857413e-05
	-3.202897e-06	2.529869e-05	-0.03425492	-0.02873407	-1.689774e-05	9.703375e-05	0.01625337	0.002126813
	0.01617387	0.001833709	-1.689774e-05	9.703375e-05	-0.03371056	-0.03175635	-1.208064e-05	3.484996e-05
	-4.661264e-06	2.857413e-05	0.01625337	0.002126813	-1.208064e-05	3.484996e-05	-0.03442725	-0.02861692
1.3e+08	-0.03837461	-0.02483597	-1.352096e-06	2.494154e-05	0.01612116	1.52229e-05	-2.914229e-06	2.825684e-05
	-1.352096e-06	2.494154e-05	-0.03865686	-0.02355437	-9.892862e-06	9.647922e-05	0.01621629	0.0002816221
	0.01612116	1.52228e-05	-9.892862e-06	9.647922e-05	-0.03856821	-0.02654811	-8.962159e-06	3.535302e-05
	-2.914229e-06	2.825684e-05	0.01621629	0.0002816222	-8.962159e-06	3.535302e-05	-0.03883701	-0.02340396
1.4e+08	-0.04159172	-0.01900235	3.716912e-07	2.453425e-05	0.01559782	-0.001727059	-9.773812e-07	2.793967e-05
	3.716912e-07	2.453425e-05	-0.04168637	-0.01764068	-2.293971e-06	9.564789e-05	0.01570996	-0.001483687
	0.01559782	-0.001727059	-2.293971e-06	9.564789e-05	-0.04200946	-0.02053168	-5.682144e-06	3.563391e-05
	-9.773812e-07	2.793967e-05	0.01570996	-0.001483687	-5.682144e-06	3.563391e-05	-0.04186532	-0.01745513
1.5e+08	-0.04332337	-0.01274585	2.179797e-06	2.405721e-05	0.01464116	-0.003280179	1.075779e-06	2.754574e-05
	2.179797e-06	2.405721e-05	-0.04322461	-0.01134734	5.645852e-06	9.431716e-05	0.01477044	-0.003058818
	0.01464116	-0.003280179	5.645852e-06	9.431716e-05	-0.04391091	-0.0140708	-2.290518e-06	3.564559e-05
	1.075779e-06	2.754574e-05	0.01477044	-0.003058818	-2.290518e-06	3.564559e-05	-0.04339363	-0.01112744
1.6e+08	-0.04353215	-0.006431539	4.031415e-06	2.34736e-05	0.01331359	-0.004544566	3.196936e-06	2.702969e-05
	4.031415e-06	2.34736e-05	-0.04324324	-0.005041552	1.374277e-05	9.235478e-05	0.01345881	-0.004346027
	0.01331359	-0.004544566	1.374277e-05	9.235478e-05	-0.04423758	-0.007541764	1.141456e-06	3.534684e-05
	3.196936e-06	2.702969e-05	0.01345881	-0.004346027	1.141456e-06	3.534684e-05	-0.04339443	-0.004790549
1.7e+08	-0.04226776	-0.0004181247	5.893647e-06	2.275962e-05	0.01169888	-0.005439333	5.347151e-06	2.636166e-05
	5.893647e-06	2.275962e-05	-0.04180239	0.000918171	2.184021e-05	8.968258e-05	0.01185726	-0.005265508
	0.01169888	-0.005439333	2.184021e-05	8.968258e-05	-0.04304253	-0.001313079	4.564646e-06	3.472009e-05
	5.347151e-06	2.636166e-05	0.01185726	-0.005265508	4.564646e-06	3.472009e-05	-0.04192921	0.001194975
1.8e+08	-0.03966179	0.00496173	7.737458e-06	2.190037e-05	0.009897153	-0.005906573	7.491593e-06	2.55227e-05
	7.737458e-06	2.190037e-05	-0.03904448	0.006202083	2.979665e-05	8.626173e-05	0.01006423	-0.005759705
	0.009897153	-0.005906573	2.979665e-05	8.626173e-05	-0.04046163	0.004274082	7.931662e-06	3.375756e-05
	7.491593e-06	2.55227e-05	0.01006423	-0.005759705	7.931662e-06	3.375756e-05	-0.03914222	0.006497793
1.9e+08	-0.0359184	0.009419061	9.535932e-06	2.08878e-05	0.008019083	-0.005914375	9.597769e-06	2.450234e-05
	9.535932e-06	2.08878e-05	-0.03518409	0.01052702	3.74816e-05	8.208473e-05	0.00818863	-0.005796381
	0.008019083	-0.005914375	3.74816e-05	8.208473e-05	-0.03670425	0.008923576	1.119653e-05	3.246015e-05
	9.597769e-06	2.450234e-05	0.00818863	-0.005796381	1.119653e-05	3.246015e-05	-0.03525013	0.01083372
2e+08	-0.03130102	0.01272519	1.126042e-05	1.971685e-05	0.006166183	-0.005477827	1.163396e-05	2.329604e-05
	1.126042e-05	1.971685e-05	-0.03049421	0.01367129	4.477446e-05	7.716936e-05	0.006343679	-0.005370313
	0.006166183	-0.005477827	4.477446e-05	7.716936e-05	-0.03203974	0.01240088	1.431427e-05	3.083582e-05
	1.163396e-05	2.329604e-05	0.006343679	-0.005370313	1.431427e-05	3.083582e-05	-0.03052819	0.01398064
2.1e+08	-0.02611752	0.01471834	1.289006e-05	1.839339e-05	0.004463983	-0.004594563	1.357252e-05	2.19078e-05
	1.289006e-05	1.839339e-05	-0.02528983	0.01548594	5.156767e-05	7.155646e-05	0.004640381	-0.004503538
	0.004463983	-0.004594563	5.156767e-05	7.155646e-05	-0.02678244	0.01453976	1.724422e-05	2.890147e-05
	1.357252e-05	2.19078e-05	0.004640381	-0.004503538	1.724422e-05	2.890147e-05	-0.02529365	0.01578977
2.2e+08	-0.02070224	0.0153164	1.440306e-05	1.692428e-05	0.003018019	-0.003314761	1.538725e-05	2.034549e-05
	1.440306e-05	1.692428e-05	-0.01990937	0.01590195	5.776595e-05	6.530391e-05	0.003181154	-0.003244109
	0.003018019	-0.003314761	5.776595e-05	6.530391e-05	-0.0212735	0.01525504	1.994843e-05	2.667935e-05
	1.538725e-05	2.034549e-05	0.003181154	-0.003244109	1.994843e-05	2.667935e-05	-0.01988703	0.01619282
2.3e+08	-0.01539675	0.01451886	1.577935e-05	1.53198e-05	0.00191736	-0.001713849	1.705457e-05	1.862121e-05
	1.577935e-05	1.53198e-05	-0.01469516	0.01493284	6.328803e-05	5.848361e-05	0.002053841	-0.001663383
	0.00191736	-0.001713849	6.328803e-05	5.848361e-05	-0.01586145	0.01454454	2.23931e-05	2.419705e-05
	1.705457e-05	1.862121e-05	0.002053841	-0.001663383	2.23931e-05	2.419705e-05	-0.01465252	0.01520459
2.4e+08	-0.01053055	0.01240574	1.700112e-05	1.35935e-05	0.001230052	0.0001132923	1.855392e-05	1.675079e-05
	1.700112e-05	1.35935e-05	-0.009973919	0.01267286	6.806746e-05	5.11784e-05	0.001326474	0.0001480628
	0.001230052	0.0001132923	6.806746e-05	5.11784e-05	-0.01088261	0.01248795	2.454921e-05	2.148669e-05
	1.855392e-05	1.675079e-05	0.001326474	0.0001480628	2.454921e-05	2.148669e-05	-0.009918296	0.01292095
2.5e+08	-0.006402627	0.009131978	1.805303e-05	1.176146e-05	0.0009989364	0.002057934	1.986802e-05	1.475277e-05
	1.805303e-05	1.176146e-05	-0.006038219	0.009290439	7.205302e-05	4.34783e-05	0.001043106	0.002085711
	0.0009989364	0.002057934	7.205302e-05	4.34783e-05	-0.006642483	0.009241238	2.639295e-05	1.858377e-05
	1.986802e-05	1.475277e-05	0.001043106	0.002085711	2.639295e-05	1.858377e-05	-0.005977925	0.00951236
2.6e+08	-0.003264793	0.004917873	1.892212e-05	9.841904e-06	0.001238894	0.004004022	2.098303e-05	1.264777e-05
	1.892212e-05	9.841904e-06	-0.003130035	0.005017686	7.520544e-05	3.547687e-05	0.001221005	0.004037308
	0.001238894	0.004004022	7.520544e-05	3.547687e-05	-0.003398857	0.005026867	2.790601e-05	1.552623e-05
	2.098303e-05	1.264777e-05	0.001221005	0.004037308	2.790601e-05	1.552623e-05	-0.003073901	0.005213084
2.7e+08	-0.001307877	3.57225e-05	1.959886e-05	7.854631e-06	0.001935777	0.005835265	2.188847e-05	1.045767e-05
	1.959886e-05	7.854631e-06	-0.001427482	0.0001361434	7.750531e-05	2.72711e-05	0.001849448	0.005889652
	0.001935777	0.005835265	7.750531e-05	2.72711e-05	-0.001347771	0.0001203939	2.907545e-05	1.235342e-05
	2.188847e-05	1.045767e-05	0.001849448	0.005889652	2.907545e-05	1.235342e-05	-0.001384203	0.0003069449
2.8e+08	-0.0006514333	-0.005206308	2.007642e-05	5.820498e-06	0.003047128	0.007442342	2.257726e-05	8.205056e-06
	2.007642e-05	5.820498e-06	-0.001035095	-0.005040037	7.894448e-05	1.895619e-05	0.002890241	0.007535537
	0.003047128	0.007442342	7.894448e-05	1.895619e-05	-0.0006130596	-0.005165889	2.989379e-05	9.105281e-06
	2.257726e-05	8.205056e-06	0.002890241	0.007535537	2.989379e-05	9.105281e-06	-0.001012695	-0.00488974
2.9e+08	-0.001337649	-0.01048229	2.035077e-05	3.760904e-06	0.00450472	0.008729759	2.304538e-05	5.91258e-06
	2.035077e-05	3.760904e-06	-0.001978614	-0.01018277	7.952613e-05	1.062449e-05	0.004279983	0.008880405
	0.00450472	0.008729759	7.952613e-05	1.062449e-05	-0.001240121	-0.01050126	3.035862e-05	5.821492e-06
	2.304538e-05	5.91258e-06	0.004279983	0.008880405	3.035862e-05	5.821492e-06	-0.001983926	-0.01004694
3e+08	-0.003329756	-0.01546746	2.042069e-05	1.697349e-06	0.006218768	0.009621883	2.329155e-05	3.602508e-06
	2.042069e-05	1.697349e-06	-0.004204393	-0.01496933	7.926362e-05	2.364282e-06	0.005933962	0.009848241
	0.006218768	0.009621883	7.926362e-05	2.364282e-06	-0.003194229	-0.01555577	3.047227e-05	2.540793e-06
	2.329155e-05	3.602508e-06	0.005933962	0.009848241	3.047227e-05	2.540793e-06	-0.004242596	-0.01484032
3.1e+08	-0.00651502	-0.01985695	2.028766e-05	-3.489385e-07	0.008083574	0.01006772	2.331701e-05	1.296418e-06
	2.028766e-05	-3.489385e-07	-0.007583463	-0.01910109	7.817926e-05	-5.740906e-06	0.007751445	0.0103863
	0.008083574	0.01006772	7.817926e-05	-5.740906e-06	-0.006363487	-0.02001918	3.024141e-05	-6.995273e-07
	2.331701e-05	1.296418e-06	0.007751445	0.0103863	3.024141e-05	-6.995273e-07	-0.007657718	-0.0189701
3.2e+08	-0.01071208	-0.02338304	1.995557e-05	-2.357379e-06	0.009984201	0.0100441	2.312506e-05	-9.850332e-07
	1.995557e-05	-2.357379e-06	-0.01191994	-0.02232065	7.63025e-05	-1.361281e-05	0.009621997	0.01046834
	0.009984201	0.0100441	7.63025e-05	-1.361281e-05	-0.01056618	-0.02361851	2.967649e-05	-3.864057e-06
	2.312506e-05	-9.850332e-07	0.009621997	0.01046834	2.967649e-05	-3.864057e-06	-0.01203114	-0.02217827
3.3e+08	-0.01568214	-0.02583018	1.943053e-05	-4.30831e-06	0.01180374	0.009557052	2.272068e-05	-3.222198e-06
	1.943053e-05	-4.30831e-06	-0.01696321	-0.02442629	7.366884e-05	-2.117838e-05	0.01143239	0.01009609
	0.01180374	0.009557052	7.366884e-05	-2.117838e-05	-0.01556205	-0.02613332	2.87913e-05	-6.919517e-06
	2.272068e-05	-3.222198e-06	0.01143239	0.01009609	2.87913e-05	-6.919517e-06	-0.01710989	-0.02426307
3.4e+08	-0.0211433	-0.02704668	1.872067e-05	-6.183201e-06	0.01343064	0.008641252	2.211038e-05	-5.39645e-06
	1.872067e-05	-6.183201e-06	-0.02242315	-0.02528301	7.031911e-05	-2.836963e-05	0.01307364	0.009298987
	0.01343064	0.008641252	7.031911e-05	-2.836963e-05	-0.02106674	-0.02740757	2.760264e-05	-9.834958e-06
	2.211038e-05	-5.39645e-06	0.01307364	0.009298987	2.760264e-05	-9.834958e-06	-0.02260152	-0.02509005
3.5e+08	-0.02678712	-0.02695268	1.783576e-05	-7.964788e-06	0.01476563	0.00735769	2.130186e-05	-7.490106e-06
	1.783576e-05	-7.964788e-06	-0.02798734	-0.02482953	6.629867e-05	-3.512325e-05	0.01444765	0.008132093
	0.01476563	0.00735769	6.629867e-05	-3.512325e-05	-0.02676852	-0.02735783	2.612977e-05	-1.258183e-05
	2.130186e-05	-7.490106e-06	0.01444765	0.008132093	2.612977e-05	-1.258183e-05	-0.02819147	-0.02459904
3.6e+08	-0.03229643	-0.02554386	1.67871e-05	-9.63717e-06	0.01572775	0.005789661	2.030395e-05	-9.486361e-06
	1.67871e-05	-9.63717e-06	-0.03333931	-0.02308087	6.16573e-05	-4.138052e-05	0.01547308	0.006672476
	0.01572775	0.005789661	6.16573e-05	-4.138052e-05	-0.03234633	-0.02597711	2.439425e-05	-1.513404e-05
	2.030395e-05	-9.486361e-06	0.01547308	0.006672476	2.439425e-05	-1.513404e-05	-0.03356147	-0.02280672
3.7e+08	-0.03736336	-0.02289089	1.558721e-05	-1.118584e-05	0.01625914	0.004037456	1.912649e-05	-1.136916e-05
	1.558721e-05	-1.118584e-05	-0.03817668	-0.02012672	5.644902e-05	-4.708712e-05	0.01609011	0.005014305
	0.01625914	0.004037456	5.644902e-05	-4.708712e-05	-0.03748801	-0.02333441	2.241958e-05	-1.746796e-05
	1.912649e-05	-1.136916e-05	0.01609011	0.005014305	2.241958e-05	-1.746796e-05	-0.03840777	-0.01980479
3.8e+08	-0.04170658	-0.01913472	1.42497e-05	-1.259769e-05	0.01632831	0.002212108	1.77804e-05	-1.312314e-05
	1.42497e-05	-1.259769e-05	-0.04222824	-0.01612542	5.073218e-05	-5.219324e-05	0.01626369	0.003263018
	0.01632831	0.002212108	5.073218e-05	-5.219324e-05	-0.04190772	-0.01957	2.023106e-05	-1.956245e-05
	1.77804e-05	-1.312314e-05	0.01626369	0.003263018	2.023106e-05	-1.956245e-05	-0.04245836	-0.01575394
3.9e+08	-0.04508674	-0.01447797	1.278914e-05	-1.386102e-05	0.0159318	0.0004286151	1.627772e-05	-1.473357e-05
	1.278914e-05	-1.386102e-05	-0.045269	-0.01129434	4.456956e-05	-5.665398e-05	0.01598539	0.001528948
	0.0159318	0.0004286151	4.456956e-05	-5.665398e-05	-0.04536175	-0.0148869	1.785566e-05	-2.139891e-05
	1.627772e-05	-1.473357e-05	0.01598539	0.001528948	1.785566e-05	-2.139891e-05	-0.04548802	-0.01087401
4e+08	-0.04731957	-0.009173198	1.122095e-05	-1.496551e-05	0.01509408	-0.001200936	1.463174e-05	-1.618644e-05
	1.122095e-05	-1.496551e-05	-0.04713244	-0.005897034	3.802827e-05	-6.042976e-05	0.01527355	-7.919373e-05
	0.01509408	-0.001200936	3.802827e-05	-6.042976e-05	-0.04766165	-0.009538985	1.532183e-05	-2.29614e-05
	1.463174e-05	-1.618644e-05	0.01527355	-7.919373e-05	1.532183e-05	-2.29614e-05	-0.04733062	-0.00543103
4.1e+08	-0.04828557	-0.00350843	9.561312e-06	-1.590229e-05	0.0138659	-0.002573948	1.285709e-05	-1.746852e-05
	9.561312e-06	-1.590229e-05	-0.04771939	-0.0002280679	3.117967e-05	-6.348711e-05	0.01417198	-0.001460611
	0.0138659	-0.002573948	3.117967e-05	-6.348711e-05	-0.04868429	-0.003816503	1.265942e-05	-2.423672e-05
	1.285709e-05	-1.746852e-05	0.01417198	-0.001460611	1.265942e-05	-2.423672e-05	-0.04788799	0.0002781172
4.2e+08	-0.04793636	0.002208964	7.827119e-06	-1.666395e-05	0.01232118	-0.003603242	1.096986e-05	-1.856757e-05
	7.827119e-06	-1.666395e-05	-0.0470031	0.005403714	2.409901e-05	-6.579931e-05	0.01274721	-0.002528162
	0.01232118	-0.003603242	2.409901e-05	-6.579931e-05	-0.04837824	0.00197024	9.899473e-06	-2.521466e-05
	1.096986e-05	-1.856757e-05	0.01274721	-0.002528162	9.899473e-06	-2.521466e-05	-0.04713493	0.005942569
4.3e+08	-0.04629688	0.007669368	6.035882e-06	-1.72446e-05	0.01055252	-0.004222053	8.987618e-06	-1.947257e-05
	6.035882e-06	-1.72446e-05	-0.04503033	0.01069255	1.686482e-05	-6.734716e-05	0.01108457	-0.003213274
	0.01055252	-0.004222053	1.686482e-05	-6.734716e-05	-0.0467662	0.00750812	7.074006e-06	-2.588813e-05
	8.987618e-06	-1.947257e-05	0.01108457	-0.003213274	7.074006e-06	-2.588813e-05	-0.04512018	0.01125496
4.4e+08	-0.04346383	0.01257802	4.20565e-06	-1.763992e-05	0.008665897	-0.004387833	6.929396e-06	-2.017399e-05
	4.20565e-06	-1.763992e-05	-0.04191833	0.01535279	9.558215e-06	-6.811962e-05	0.009283231	-0.003469788
	0.008665897	-0.004387833	9.558215e-06	-6.811962e-05	-0.04394347	0.01249847	4.215726e-06	-2.625335e-05
	6.929396e-06	-2.017399e-05	0.009283231	-0.003469788	4.215726e-06	-2.625335e-05	-0.04196335	0.01592859
4.5e+08	-0.03960003	0.01667121	2.354902e-06	-1.784729e-05	0.00677449	-0.004084716	4.815612e-06	-2.066408e-05
	2.354902e-06	-1.784729e-05	-0.03784806	0.01913478	2.262009e-06	-6.811448e-05	0.007450537	-0.003276578
	0.00677449	-0.004084716	2.262009e-06	-6.811448e-05	-0.04007243	0.01667352	1.357694e-06	-2.631005e-05
	4.815612e-06	-2.066408e-05	0.007450537	-0.003276578	1.357694e-06	-2.631005e-05	-0.03784796	0.01971332
4.6e+08	-0.03492543	0.01973085	5.024155e-07	-1.786584e-05	0.004992188	-0.00332451	2.667932e-06	-2.093695e-05
	5.024155e-07	-1.786584e-05	-0.03305395	0.02183871	-4.940277e-06	-6.733877e-05	0.005695905	-0.002638799
	0.004992188	-0.00332451	-4.940277e-06	-6.733877e-05	-0.0353735	0.01981111	-1.466891e-06	-2.606048e-05
	2.667932e-06	-2.093695e-05	0.005695905	-0.002638799	-1.466891e-06	-2.606048e-05	-0.03301105	0.02240956
4.7e+08	-0.02970481	0.0215964	-1.332885e-06	-1.769653e-05	0.003426993	-0.002146154	5.089224e-07	-2.09896e-05
	-1.332885e-06	-1.769653e-05	-0.02781067	0.02332568	-1.19657e-05	-6.580911e-05	0.004124539	-0.001587713
	0.003426993	-0.002146154	-1.19657e-05	-6.580911e-05	-0.03011286	0.02174694	-4.225171e-06	-2.551186e-05
	5.089224e-07	-2.09896e-05	0.004124539	-0.001587713	-4.225171e-06	-2.551186e-05	-0.02772976	0.02387916
