!$
! Info: Touchstone file created by Circ.  Input file=Tx_10in_Rx_100ohms_TxVia_35mils_RxVia_45mils.circ
!$
# Hz S RI R 50
0	0.01041934	1.301142e-25	-5.388004e-05	3.796353e-24	7.330636e-05	1.951915e-23	-5.389193e-05	5.32105e-24
	-5.388005e-05	3.798283e-24	0.01041707	1.543833e-25	-5.386001e-05	1.477392e-24	7.267327e-05	2.356907e-23
	7.381488e-05	1.979208e-23	-5.385998e-05	1.474043e-24	0.01043145	1.264156e-25	-5.387755e-05	3.700959e-24
	-5.389194e-05	5.322379e-24	7.082512e-05	2.368511e-23	-5.387757e-05	3.703707e-24	0.01043017	1.446498e-25
1e+07	0.0143398	0.006820689	-8.634693e-05	-3.512359e-05	0.0003020117	0.001855828	-0.0002277583	0.0001368253
	-8.634694e-05	-3.512358e-05	0.01534751	0.006564045	-3.129277e-05	-1.242983e-05	0.0006534847	0.001903356
	0.0003020413	0.001855823	-3.129277e-05	-1.242983e-05	0.01491064	0.006545028	-9.5269e-06	-1.302291e-05
	-0.0002277583	0.0001368253	0.000653424	0.001903365	-9.526897e-06	-1.302291e-05	0.01520928	0.006588831
2e+07	0.0194755	0.01002863	-5.23694e-05	-7.550508e-05	0.000867535	0.003662361	-0.0002650482	0.0001356054
	-5.23694e-05	-7.550508e-05	0.01997097	0.009281557	-2.543207e-05	-1.322155e-05	0.001092836	0.003892809
	0.0008675362	0.003662339	-2.543207e-05	-1.322155e-05	0.01962811	0.009411879	-9.257543e-06	2.087765e-06
	-0.0002650482	0.0001356054	0.001092827	0.003892844	-9.257542e-06	2.087763e-06	0.01988045	0.009378971
3e+07	0.02392599	0.01094412	-3.454601e-05	-8.889307e-05	0.001771915	0.005271717	-0.0002907049	0.0001547202
	-3.454601e-05	-8.889307e-05	0.0240061	0.0101143	-2.15907e-05	-1.374731e-05	0.001903316	0.005570797
	0.001771909	0.005271715	-2.15907e-05	-1.374731e-05	0.0237605	0.01029031	-1.129929e-05	1.564097e-06
	-0.0002907049	0.0001547202	0.001903315	0.005570802	-1.129929e-05	1.564097e-06	0.02395675	0.01024019
4e+07	0.02794255	0.01065962	-7.283385e-05	-7.267613e-05	0.002969436	0.006645037	-0.0003102247	0.0001778534
	-7.283385e-05	-7.267613e-05	0.02766987	0.009888139	-1.856936e-05	-1.384314e-05	0.003049197	0.006982965
	0.002969436	0.006645041	-1.856936e-05	-1.384314e-05	0.0275274	0.01007149	-1.425666e-05	5.840673e-07
	-0.0003102247	0.0001778534	0.003049192	0.006982963	-1.425666e-05	5.840682e-07	0.02765788	0.01002763
5e+07	0.03153078	0.009460261	-0.0001018316	-4.681128e-05	0.004403467	0.007733463	-0.0003251153	0.0002034345
	-0.0001018316	-4.681128e-05	0.03096374	0.008837485	-1.599097e-05	-1.382691e-05	0.004586614	0.008016083
	0.004403469	0.007733465	-1.599097e-05	-1.382691e-05	0.03092776	0.008997973	-1.733194e-05	1.036761e-06
	-0.0003251153	0.0002034345	0.00458661	0.008016081	-1.733194e-05	1.036761e-06	0.03098502	0.008980668
6e+07	0.03464159	0.007515579	-0.0001216006	-1.422362e-05	0.006009358	0.008498611	-0.0003360839	0.00023065
	-0.0001216006	-1.422362e-05	0.03384233	0.007108026	-1.363769e-05	-1.381409e-05	0.006260806	0.008709575
	0.006009357	0.00849861	-1.363769e-05	-1.381409e-05	0.0339101	0.007216369	-2.023385e-05	2.724732e-06
	-0.0003360839	0.00023065	0.006260809	0.008709575	-2.023385e-05	2.724732e-06	0.03389216	0.007247476
7e+07	0.03721275	0.00496238	-0.0001318033	2.29921e-05	0.007728154	0.008905195	-0.0003437958	0.0002586545
	-0.0001318033	2.29921e-05	0.03624797	0.004818448	-1.282979e-05	-1.259228e-05	0.008004004	0.009047322
	0.007728148	0.008905195	-1.282979e-05	-1.259228e-05	0.03641081	0.004847385	-2.263527e-05	5.48879e-06
	-0.0003437958	0.0002586545	0.008004013	0.009047319	-2.263527e-05	5.48879e-06	0.036321	0.004948498
8e+07	0.0391851	0.001929057	-0.0001318894	6.31209e-05	0.009474308	0.008949074	-0.0003493216	0.0002864636
	-0.0001318894	6.31209e-05	0.0381261	0.002081759	-1.486721e-05	-7.842355e-06	0.009745167	0.009025322
	0.0094743	0.008949075	-1.48672e-05	-7.842355e-06	0.03836975	0.002006939	-2.426347e-05	9.112034e-06
	-0.0003493216	0.0002864636	0.009745178	0.009025316	-2.426347e-05	9.112034e-06	0.03821635	0.002198261
9e+07	0.04050961	-0.001457115	-0.0001208857	0.0001048045	0.01117171	0.008637651	-0.0003548459	0.000312779
	-0.0001208857	0.0001048045	0.0394339	-0.0009875581	-1.546163e-05	-2.759892e-06	0.01141244	0.008652555
	0.01117171	0.008637653	-1.546163e-05	-2.759892e-06	0.03973881	-0.001186888	-2.49822e-05	1.33068e-05
	-0.0003548459	0.000312779	0.01141244	0.00865255	-2.49822e-05	1.33068e-05	0.03953474	-0.0008873931
1e+08	0.04114503	-0.005071499	-9.379044e-05	0.0001487732	0.01275449	0.007992524	-0.0003694649	0.0003328716
	-9.379044e-05	0.0001487732	0.04015814	-0.004265531	-1.392581e-05	2.74145e-06	0.01293027	0.00794801
	0.01275449	0.007992524	-1.392581e-05	2.74145e-06	0.04049854	-0.004606655	-2.486464e-05	1.773898e-05
	-0.0003694649	0.0003328716	0.01293027	0.00794801	-2.486464e-05	1.773898e-05	0.04026097	-0.004183933
1.1e+08	0.04107832	-0.008745426	-5.488298e-05	0.0001662737	0.01415631	0.007021848	-0.0003653472	0.0003262917
	-5.488298e-05	0.0001662737	0.04028583	-0.007742957	-1.039037e-05	5.028159e-06	0.01423544	0.006989927
	0.01415631	0.007021848	-1.039037e-05	5.028159e-06	0.04063024	-0.008227383	-2.340252e-05	2.144663e-05
	-0.0003653472	0.0003262917	0.01423544	0.006989927	-2.340252e-05	2.144663e-05	0.04038326	-0.007671789
1.2e+08	0.04035565	-0.01237041	-4.888561e-05	0.0001641563	0.01529838	0.00578857	-0.0003501052	0.0003277239
	-4.888561e-05	0.0001641563	0.03972764	-0.01122432	-7.754266e-06	6.502629e-06	0.01531294	0.005797788
	0.01529838	0.00578857	-7.754266e-06	6.502629e-06	0.04005336	-0.01185253	-2.061405e-05	2.488484e-05
	-0.0003501052	0.0003277239	0.01531294	0.005797788	-2.061405e-05	2.488484e-05	0.03981957	-0.01116033
1.3e+08	0.03899468	-0.01583525	-4.021402e-05	0.0001632572	0.01614012	0.00435456	-0.0003322912	0.0003303343
	-4.021402e-05	0.0001632572	0.03852873	-0.01457567	-5.432918e-06	7.374098e-06	0.01611078	0.004418481
	0.01614012	0.00435456	-5.432918e-06	7.374098e-06	0.03881034	-0.01534411	-1.686862e-05	2.767611e-05
	-0.0003322912	0.0003303343	0.01611078	0.004418481	-1.686862e-05	2.767611e-05	0.03861376	-0.01451646
1.4e+08	0.03703904	-0.01903001	-2.995057e-05	0.0001623722	0.0166495	0.002786384	-0.0003140738	0.0003326444
	-2.995057e-05	0.0001623722	0.03673711	-0.01768329	-3.328846e-06	7.80758e-06	0.01659512	0.002912038
	0.0166495	0.002786384	-3.328846e-06	7.80758e-06	0.03694935	-0.01858267	-1.244402e-05	2.956084e-05
	-0.0003140738	0.0003326444	0.01659512	0.002912038	-1.244402e-05	2.956084e-05	0.03681411	-0.01762644
1.5e+08	0.03455091	-0.02185404	-1.873771e-05	0.0001608742	0.01680792	0.001155259	-0.0002967574	0.0003342682
	-1.873771e-05	0.0001608742	0.03441545	-0.02044601	-1.412242e-06	7.893113e-06	0.01674615	0.001344589
	0.01680792	0.001155259	-1.412242e-06	7.893113e-06	0.03453486	-0.02146116	-7.652653e-06	3.037493e-05
	-0.0002967574	0.0003342682	0.01674615	0.001344589	-7.652654e-06	3.037493e-05	0.03448376	-0.02038908
1.6e+08	0.03160879	-0.02421938	-7.087401e-06	0.000158419	0.01661136	-0.0004655608	-0.0002812341	0.00033539
	-7.087401e-06	0.000158419	0.03164073	-0.02277645	3.250826e-07	7.692023e-06	0.01655835	-0.0002149656
	0.01661136	-0.0004655608	3.250826e-07	7.692023e-06	0.03164712	-0.02388669	-2.829565e-06	3.005514e-05
	-0.0002812341	0.00033539	0.01655835	-0.0002149656	-2.829565e-06	3.005514e-05	0.03170016	-0.0227171
1.7e+08	0.02830501	-0.02605363	4.55451e-06	0.0001548548	0.01607061	-0.002003718	-0.0002680675	0.0003365535
	4.55451e-06	0.0001548548	0.02850252	-0.02460292	1.882855e-06	7.251917e-06	0.01604048	-0.00169801
	0.01607061	-0.002003718	1.882855e-06	7.251917e-06	0.02838032	-0.02578278	1.692757e-06	2.864098e-05
	-0.0002680675	0.0003365535	0.01604048	-0.00169801	1.692757e-06	2.864098e-05	0.0285533	-0.02453895
1.8e+08	0.02474295	-0.02730217	1.580238e-05	0.0001501776	0.01521084	-0.003390708	-0.0002574982	0.0003385219
	1.580238e-05	0.0001501776	0.02510042	-0.02587119	3.257944e-06	6.613034e-06	0.01521516	-0.003039153
	0.01521084	-0.003390708	3.257944e-06	6.613034e-06	0.02483982	-0.02709147	5.612307e-06	2.626901e-05
	-0.0002574982	0.0003385219	0.01521516	-0.003039153	5.612307e-06	2.626901e-05	0.02514318	-0.02580061
1.9e+08	0.02103368	-0.02793005	2.634783e-05	0.0001445001	0.01407055	-0.004564707	-0.00024944	0.0003421628
	2.634783e-05	0.0001445001	0.02154118	-0.02654597	3.782496e-06	6.03319e-06	0.01411789	-0.004178988
	0.01407055	-0.004564707	3.782496e-06	6.03319e-06	0.02113897	-0.02777507	8.691976e-06	2.315997e-05
	-0.00024944	0.0003421628	0.01411789	-0.004178988	8.691976e-06	2.315997e-05	0.02157683	-0.02646703
2e+08	0.01729242	-0.02792304	3.595353e-05	0.0001380162	0.01269997	-0.005473137	-0.0002434853	0.0003483406
	3.595353e-05	0.0001380162	0.0179353	-0.02661186	3.764872e-06	5.630173e-06	0.01279549	-0.005066593
	0.01269997	-0.005473137	3.764872e-06	5.630173e-06	0.01739544	-0.02781723	1.076166e-05	1.959327e-05
	-0.0002434853	0.0003483406	0.01279549	-0.005066593	1.076166e-05	1.959327e-05	0.01796505	-0.02652308
2.1e+08	0.01363467	-0.02728818	4.447029e-05	0.0001309774	0.01115888	-0.006074845	-0.0002389301	0.00035782
	4.447029e-05	0.0001309774	0.01439352	-0.02607368	3.746405e-06	5.277545e-06	0.01130415	-0.005661656
	0.01115888	-0.006074845	3.746405e-06	5.277545e-06	0.01372735	-0.0272235	1.174026e-05	1.588716e-05
	-0.0002389301	0.00035782	0.01130415	-0.005661656	1.174026e-05	1.588716e-05	0.01441877	-0.02597388
2.2e+08	0.01017235	-0.02605345	5.185231e-05	0.0001236599	0.009514135	-0.006341816	-0.0002348181	0.0003711783
	5.185231e-05	0.0001236599	0.01102323	-0.02495622	3.730597e-06	4.973276e-06	0.009707083	-0.005936166
	0.009514135	-0.006341816	3.730597e-06	4.973276e-06	0.01024932	-0.026021	1.165257e-05	1.23683e-05
	-0.0002348181	0.0003711783	0.009707083	-0.005936166	1.165257e-05	1.23683e-05	0.01104557	-0.02484451
2.3e+08	0.007010025	-0.02426683	5.814793e-05	0.0001163323	0.00783681	-0.006260329	-0.0002300052	0.0003887348
	5.814793e-05	0.0001163323	0.007924931	-0.02330323	3.722986e-06	4.714797e-06	0.008071809	-0.005875578
	0.00783681	-0.006260329	3.722986e-06	4.714797e-06	0.007068557	-0.02425743	1.06202e-05	9.3401e-06
	-0.0002300052	0.0003887348	0.008071809	-0.005875578	1.06202e-05	9.3401e-06	0.007946053	-0.02317908
2.4e+08	0.004241297	-0.02199461	6.34883e-05	0.0001092282	0.006199192	-0.005831506	-0.0002232388	0.0004105046
	6.34883e-05	0.0001092282	0.005188873	-0.02117584	3.730218e-06	4.498416e-06	0.006467364	-0.005479403
	0.006199192	-0.005831506	3.730218e-06	4.498416e-06	0.00428116	-0.02199938	8.850091e-06	7.054901e-06
	-0.0002232388	0.0004105046	0.006467364	-0.005479403	8.850091e-06	7.054901e-06	0.005210537	-0.02103907
2.5e+08	0.001945623	-0.019319	6.807044e-05	0.0001025218	0.004671713	-0.005071237	-0.0002132463	0.0004361695
	6.807044e-05	0.0001025218	0.002892133	-0.01865037	3.759568e-06	4.318478e-06	0.004961373	-0.004761212
	0.004671713	-0.005071237	3.759568e-06	4.318478e-06	0.001968847	-0.01932991	6.615132e-06	5.690675e-06
	-0.0002132463	0.0004361695	0.004961373	-0.004761212	6.615132e-06	5.690675e-06	0.002916087	-0.01850116
2.6e+08	0.0001855832	-0.01633524	7.213363e-05	9.63122e-05	0.00331998	-0.004009471	-0.0001988279	0.0004650805
	7.213363e-05	9.63122e-05	0.001096037	-0.01581557	3.817846e-06	4.167263e-06	0.003617217	-0.003748038
	0.00331998	-0.004009471	3.817846e-06	4.167263e-06	0.0001961075	-0.01634553	4.228808e-06	5.334768e-06
	-0.0001988279	0.0004650805	0.003617217	-0.003748038	4.228808e-06	5.334768e-06	0.001123946	-0.01565447
2.7e+08	-0.0009952286	-0.01314819	7.593295e-05	9.061349e-05	0.002201996	-0.00268891	-0.0001789463	0.0004962816
	7.593295e-05	9.061349e-05	-0.0001558046	-0.01276947	3.910556e-06	4.034924e-06	0.002491385	-0.00247921
	0.002201996	-0.00268891	3.910556e-06	4.034924e-06	-0.000991969	-0.01315272	2.016055e-06	5.97587e-06
	-0.0001789463	0.0004962816	0.002491385	-0.00247921	2.016055e-06	5.97587e-06	-0.0001224282	-0.01259737
2.8e+08	-0.001573652	-0.009868564	7.971149e-05	8.535541e-05	0.001365732	-0.001163168	-0.0001528024	0.0005285616
	7.971149e-05	8.535541e-05	-0.0008388425	-0.009615874	4.040985e-06	3.91002e-06	0.001631117	-0.001004676
	0.001365732	-0.001163168	4.040985e-06	3.91002e-06	-0.001571193	-0.009864087	2.833183e-07	7.505251e-06
	-0.0001528024	0.0005285616	0.001631117	-0.001004676	2.833183e-07	7.505251e-06	-0.0007987048	-0.009433972
2.9e+08	-0.001547653	-0.006609002	8.367414e-05	8.039083e-05	0.0008471173	0.0005055321	-0.0001198983	0.0005605211
	8.367414e-05	8.039083e-05	-0.0009482578	-0.006460736	4.20959e-06	3.780112e-06	0.001072457	0.0006171285
	0.0008471172	0.0005055321	4.20959e-06	3.780112e-06	-0.001539007	-0.006594277	-7.098162e-07	9.726751e-06
	-0.0001198983	0.0005605211	0.001072457	0.0006171285	-7.098162e-07	9.726751e-06	-0.0009003543	-0.006270481
3e+08	-0.0009362537	-0.003480029	8.796517e-05	7.551123e-05	0.0006685666	0.002249015	-8.007952e-05	0.000590655
	8.796517e-05	7.551123e-05	-0.0004989232	-0.003408392	4.413594e-06	3.632646e-06	0.0008387833	0.002321744
	0.0006685666	0.002249015	4.413594e-06	3.632646e-06	-0.0009144186	-0.003455854	-7.746642e-07	1.23748e-05
	-8.007952e-05	0.000590655	0.0008387833	0.002321744	-7.746642e-07	1.23748e-05	-0.0004425844	-0.003211429
3.1e+08	0.0002213028	-0.0005861446	9.265198e-05	7.046887e-05	0.0008380723	0.003996049	-3.354716e-05	0.0006174453
	9.265198e-05	7.046887e-05	0.0004753423	-0.0005579425	4.646959e-06	3.456054e-06	0.0009398736	0.004041406
	0.0008380723	0.003996049	4.646959e-06	3.456054e-06	0.0002628578	-0.0005552603	1.893989e-07	1.513882e-05
	-3.354716e-05	0.0006174453	0.0009398737	0.004041406	1.893989e-07	1.513882e-05	0.0005404118	-0.000356032
3.2e+08	0.001867121	0.001977876	9.771577e-05	6.500174e-05	0.00134892	0.005675354	1.91469e-05	0.0006394496
	9.771577e-05	6.500174e-05	0.001923183	0.00200017	4.900683e-06	3.24066e-06	0.001371554	0.005707869
	0.00134892	0.005675354	4.900683e-06	3.24066e-06	0.001934003	0.002010978	2.185394e-06	1.769141e-05
	1.91469e-05	0.0006394496	0.001371554	0.005707869	2.185394e-06	1.769141e-05	0.001996885	0.002205233
3.3e+08	0.003926893	0.004130282	0.0001030505	5.886073e-05	0.002180017	0.007218592	7.71324e-05	0.0006553879
	0.0001030505	5.886073e-05	0.003777736	0.004187232	5.163436e-06	2.979534e-06	0.002115924	0.007255252
	0.002180017	0.007218592	5.163436e-06	2.979534e-06	0.004023399	0.004159652	5.118096e-06	1.971818e-05
	7.71324e-05	0.0006553879	0.002115924	0.007255252	5.118096e-06	1.971818e-05	0.003859575	0.004393706
3.4e+08	0.006312723	0.005805169	0.0001084705	5.183601e-05	0.003296824	0.00856322	0.0001392791	0.0006642143
	0.0001084705	5.183601e-05	0.005959188	0.005938885	5.422483e-06	2.669136e-06	0.003142151	0.008622748
	0.003296824	0.00856322	5.422483e-06	2.669136e-06	0.00644153	0.005823757	8.802811e-06	2.094617e-05
	0.0001392791	0.0006642143	0.003142151	0.008622748	8.802811e-06	2.094617e-05	0.00604829	0.006145167
3.5e+08	0.008926414	0.006954679	0.0001137249	4.377942e-05	0.004652836	0.009655077	0.0002042626	0.0006651714
	0.0001137249	4.377942e-05	0.008377762	0.007207196	5.66471e-06	2.309535e-06	0.004407795	0.009757116
	0.004652836	0.009655077	5.66471e-06	2.309535e-06	0.009088366	0.006954764	1.29795e-05	2.116904e-05
	0.0002042626	0.0006651714	0.004407795	0.009757116	1.29795e-05	2.116904e-05	0.008472914	0.007411902
3.6e+08	0.01166312	0.007550551	0.0001185186	3.462208e-05	0.006191551	0.01045062	0.0002706442	0.0006578228
	0.0001185186	3.462208e-05	0.01093703	0.007962125	5.872372e-06	1.90462e-06	0.005860591	0.01061484
	0.006191551	0.01045062	5.872372e-06	1.90462e-06	0.01185711	0.007524185	1.787849e-05	2.00165e-05
	0.0002706442	0.0006578228	0.005860591	0.01061484	1.787849e-05	2.00165e-05	0.01103673	0.008164162
3.7e+08	0.01441517	0.007584921	0.0001225368	2.438473e-05	0.007848835	0.01091868	0.0003369689	0.0006420634
	0.0001225368	2.438473e-05	0.01353742	0.008192331	6.038987e-06	1.461833e-06	0.007440633	0.0111639
	0.007848835	0.01091868	6.038987e-06	1.461833e-06	0.01463813	0.007524403	2.266881e-05	1.755072e-05
	0.0003369689	0.0006420634	0.007440633	0.0111639	2.266881e-05	1.755072e-05	0.01363994	0.008390955
3.8e+08	0.01707603	0.007070396	0.0001254729	1.318045e-05	0.009555589	0.01104177	0.0004018371	0.0006181037
	0.0001254729	1.318045e-05	0.01607976	0.007905312	6.157333e-06	9.90483e-07	0.009082842	0.011385
	0.009555589	0.01104177	6.157333e-06	9.90483e-07	0.01732302	0.006968725	2.689617e-05	1.389501e-05
	0.0004018371	0.0006181037	0.009082842	0.011385	2.689617e-05	1.389501e-05	0.01618323	0.008100171
3.9e+08	0.01954408	0.006039377	0.0001270543	1.209284e-06	0.0112406	0.01081675	0.0004639822	0.0005864347
	0.0001270543	1.209284e-06	0.0184688	0.007126864	6.222164e-06	5.014675e-07	0.01071963	0.0112724
	0.0112406	0.01081675	6.222164e-06	5.014675e-07	0.01980848	0.005890671	3.025428e-05	9.22801e-06
	0.0004639822	0.0005864347	0.01071963	0.0112724	3.025428e-05	9.22801e-06	0.01857132	0.007318022
4e+08	0.02172629	0.004542673	0.0001270672	-1.125461e-05	0.01283349	0.01025494	0.0005223309	0.000547775
	0.0001270672	-1.125461e-05	0.02061656	0.005899911	6.231479e-06	6.318154e-09	0.01228368	0.01083404
	0.01283349	0.01025494	6.231479e-06	6.318154e-09	0.0220001	0.004342549	3.249858e-05	3.808031e-06
	0.0005223309	0.000547775	0.01228368	0.01083404	3.249858e-05	3.808031e-06	0.02071623	0.006087851
4.1e+08	0.02354146	0.002647475	0.0001253751	-2.388234e-05	0.01426758	0.009381689	0.0005760474	0.0005030033
	0.0001253751	-2.388234e-05	0.02244527	0.004282739	6.186464e-06	-4.837603e-07	0.01371063	0.01009125
	0.01426758	0.009381689	6.186464e-06	-4.837603e-07	0.02381563	0.002393342	3.346666e-05	-2.048359e-06
	0.0005760474	0.0005030033	0.01371063	0.01009125	3.346666e-05	-2.048359e-06	0.02254034	0.004468355
4.2e+08	0.02492307	0.0004347412	0.0001219323	-3.631428e-05	0.01548262	0.008235315	0.0006245548	0.0004530826
	0.0001219323	-3.631428e-05	0.02389007	0.002346716	6.09116e-06	-9.587526e-07	0.01494175	0.009077875
	0.01548262	0.008235315	6.09116e-06	-9.587526e-07	0.02518793	0.0001260168	3.30914e-05	-7.992477e-06
	0.0006245548	0.0004530826	0.01494175	0.009077875	3.30914e-05	-7.992477e-06	0.02397899	0.002531273
4.3e+08	0.02582155	-0.002003871	0.0001167891	-4.818693e-05	0.01642732	0.006865567	0.0006675334	0.0003989868
	0.0001167891	-4.818693e-05	0.02490111	0.0001735762	5.951899e-06	-1.41054e-06	0.01592627	0.007838874
	0.01642732	0.006865567	5.951899e-06	-1.41054e-06	0.02606727	-0.002365632	3.140595e-05	-1.367224e-05
	0.0006675334	0.0003989868	0.01592627	0.007838874	3.140595e-05	-1.367224e-05	0.02498263	0.000358666
4.4e+08	0.02620592	-0.004569454	0.0001100891	-5.916009e-05	0.01706138	0.005331611	0.0007048988	0.0003416302
	0.0001100891	-5.916009e-05	0.02544515	-0.002147625	5.776609e-06	-1.833388e-06	0.01662347	0.006428532
	0.01706138	0.005331611	5.776609e-06	-1.833388e-06	0.02642299	-0.004980548	2.854023e-05	-1.876123e-05
	0.0007048988	0.0003416302	0.01662347	0.006428532	2.854023e-05	-1.876123e-05	0.02551837	-0.001960158
4.5e+08	0.02606478	-0.007159521	0.0001020594	-6.894234e-05	0.01735727	0.003699634	0.0007367614	0.0002818128
	0.0001020594	-6.894234e-05	0.02550652	-0.004523794	5.574041e-06	-2.224233e-06	0.01700433	0.004908261
	0.01735727	0.003699634	5.574041e-06	-2.224233e-06	0.02624446	-0.007614175	2.470913e-05	-2.298534e-05
	0.0007367614	0.0002818128	0.01700433	0.004908261	2.470913e-05	-2.298534e-05	0.02557095	-0.004331922
4.6e+08	0.02540654	-0.0096718	9.299364e-05	-7.731351e-05	0.01730132	0.002040164	0.0007633568	0.0002202884
	9.299364e-05	-7.731351e-05	0.0250875	-0.006861177	5.352959e-06	-2.582739e-06	0.01705277	0.003344126
	0.01730132	0.002040164	5.352959e-06	-2.582739e-06	0.02554132	-0.01016236	2.019417e-05	-2.614599e-05
	0.0007633568	0.0002202884	0.01705277	0.003344126	2.019417e-05	-2.614599e-05	0.02514308	-0.006662785
4.7e+08	0.02425893	-0.01200799	8.314582e-05	-8.3985e-05	0.0168944	0.0004251918	0.0007859133	0.0001412003
	8.314582e-05	-8.3985e-05	0.02420803	-0.00906875	5.123632e-06	-2.911269e-06	0.01676628	0.001804174
	0.0168944	0.0004251918	5.123632e-06	-2.911269e-06	0.02434298	-0.0125252	1.523691e-05	-2.79785e-05
	0.0007859133	0.0001412003	0.01676628	0.001804174	1.523691e-05	-2.79785e-05	0.02425511	-0.008861726
4.8e+08	0.02266796	-0.01407735	7.29761e-05	-8.902992e-05	0.01615193	-0.001074774	0.0008006447	5.898564e-05
