!$
! Info: Touchstone file created by Circ.  Input file=Tx_10in_Rx_85ohms_TxVia_35mils_RxVia_45mils.circ
!$
# Hz S RI R 50
0	0.008114226	1.307978e-25	7.623393e-10	8.205413e-28	7.367813e-05	1.517765e-23	2.543241e-09	3.45317e-28
	7.6234e-10	8.204255e-28	0.008111999	1.552072e-25	4.013938e-10	1.203189e-27	7.30415e-05	1.832566e-23
	7.418722e-05	1.538987e-23	4.013935e-10	1.203225e-27	0.008126444	1.270789e-25	7.823819e-10	7.960834e-28
	2.543241e-09	3.45306e-28	7.11938e-05	1.841595e-23	7.823822e-10	7.960462e-28	0.008125136	1.454185e-25
1e+07	0.01175416	-0.009288014	1.156894e-09	1.254004e-09	0.000267469	0.00188217	5.017343e-09	6.049111e-09
	1.156894e-09	1.254004e-09	0.01040177	-0.009404521	6.113615e-10	7.866888e-10	0.0003411984	0.001886358
	0.0002674985	0.001882164	6.113614e-10	7.866888e-10	0.01043403	-0.00957213	1.220318e-09	1.31535e-09
	5.017343e-09	6.049111e-09	0.0003411382	0.001886369	1.220318e-09	1.315349e-09	0.01038397	-0.009390959
2e+07	0.01124992	-0.02173056	1.975741e-09	1.965043e-09	0.000858983	0.003676522	9.33799e-09	9.211087e-09
	1.975742e-09	1.965043e-09	0.01002452	-0.02142668	8.565301e-10	1.33351e-09	0.00096037	0.00361983
	0.0008589835	0.0036765	8.565301e-10	1.33351e-09	0.009916547	-0.02170181	2.103705e-09	2.038312e-09
	9.33799e-09	9.211087e-09	0.0009603622	0.003619864	2.103705e-09	2.038312e-09	0.01001478	-0.02139003
3e+07	0.007260604	-0.03451273	2.964773e-09	2.361003e-09	0.001847968	0.005230137	1.461811e-08	1.070176e-08
	2.964773e-09	2.361003e-09	0.0061226	-0.034022	1.10856e-09	1.803661e-09	0.001904203	0.005162639
	0.001847962	0.005230135	1.10856e-09	1.803661e-09	0.005929702	-0.0343209	3.164669e-09	2.423729e-09
	1.461811e-08	1.070176e-08	0.001904204	0.005162644	3.164669e-09	2.423729e-09	0.006117927	-0.03397067
4e+07	0.0003516548	-0.04636698	4.078761e-09	2.397148e-09	0.003114797	0.006517176	2.057137e-08	1.024678e-08
	4.078762e-09	2.397148e-09	-0.0007192041	-0.04573184	1.367842e-09	2.201834e-09	0.003125516	0.006455623
	0.003114797	0.00651718	1.367842e-09	2.201834e-09	-0.0009586159	-0.04603402	4.360564e-09	2.42209e-09
	2.057137e-08	1.024678e-08	0.003125511	0.006455621	4.360564e-09	2.42209e-09	-0.0007209916	-0.04566771
5e+07	-0.0090155	-0.05661572	5.21399e-09	2.041032e-09	0.004595666	0.007490905	2.661955e-08	7.68042e-09
	5.21399e-09	2.041032e-09	-0.01003227	-0.0558492	1.617492e-09	2.523767e-09	0.004561871	0.007448847
	0.004595668	0.007490906	1.617492e-09	2.523767e-09	-0.01028825	-0.05615185	5.580214e-09	1.998452e-09
	2.661955e-08	7.68042e-09	0.004561867	0.007448847	5.580214e-09	1.998452e-09	-0.01003309	-0.05577261
6e+07	-0.02034767	-0.06476744	6.259938e-09	1.292775e-09	0.006216849	0.008118027	3.21575e-08	3.01973e-09
	6.259938e-09	1.292775e-09	-0.02131694	-0.06387093	1.837668e-09	2.773782e-09	0.00614161	0.008107708
	0.006216847	0.008118026	1.837668e-09	2.773782e-09	-0.02156701	-0.06418062	6.704784e-09	1.152881e-09
	3.21575e-08	3.01973e-09	0.006141613	0.008107706	6.704784e-09	1.152881e-09	-0.0213183	-0.06378127
7e+07	-0.03310744	-0.0704718	7.10925e-09	1.779565e-10	0.007899767	0.008382013	3.660759e-08	-3.57142e-09
	7.10925e-09	1.779565e-10	-0.03402967	-0.0694415	2.010471e-09	2.960941e-09	0.007788439	0.008414539
	0.007899761	0.008382014	2.010471e-09	2.960941e-09	-0.03425829	-0.06976984	7.618872e-09	-8.708206e-11
	3.660759e-08	-3.571421e-09	0.007788446	0.008414535	7.618872e-09	-8.708199e-11	-0.03403258	-0.06933758
8e+07	-0.04672532	-0.07350971	7.661122e-09	-1.252268e-09	0.009565409	0.008283759	3.944309e-08	-1.179522e-08
	7.661122e-09	-1.252268e-09	-0.04759537	-0.07234013	2.120093e-09	3.098786e-09	0.009425656	0.008368894
	0.009565402	0.008283762	2.120093e-09	3.098786e-09	-0.04779299	-0.0727007	8.214264e-09	-1.666573e-09
	3.944309e-08	-1.179522e-08	0.009425665	0.008368887	8.214264e-09	-1.666573e-09	-0.04760025	-0.07222035
9e+07	-0.06061948	-0.07378914	7.827157e-09	-2.922339e-09	0.01113845	0.007840946	4.021531e-08	-2.12292e-08
	7.827157e-09	-2.922339e-09	-0.0614274	-0.07247567	2.153851e-09	3.204653e-09	0.01098024	0.007986869
	0.01113845	0.007840949	2.153851e-09	3.204653e-09	-0.06158865	-0.0728811	8.396079e-09	-3.504757e-09
	4.021531e-08	-2.12292e-08	0.01098025	0.007986862	8.396079e-09	-3.504757e-09	-0.06143405	-0.07233829
1e+08	-0.0742179	-0.07134026	7.539487e-09	-4.736983e-09	0.01255164	0.007086872	3.858368e-08	-3.134383e-08
	7.539487e-09	-4.736983e-09	-0.07495203	-0.06988257	2.102383e-09	3.29989e-09	0.0123883	0.00730083
	0.01255164	0.007086872	2.102383e-09	3.29989e-09	-0.0750651	-0.07033632	8.091186e-09	-5.500313e-09
	3.858368e-08	-3.134383e-08	0.0123883	0.00730083	8.091186e-09	-5.500313e-09	-0.07495985	-0.06972604
1.1e+08	-0.086979	-0.06631316	6.761411e-09	-6.560708e-09	0.01374675	0.006061636	3.435051e-08	-4.150139e-08
	6.761411e-09	-6.560708e-09	-0.0876246	-0.06470083	1.95626e-09	3.401037e-09	0.01359515	0.006338876
	0.01374675	0.006061636	1.95626e-09	3.401037e-09	-0.08767415	-0.06526731	7.262606e-09	-7.508226e-09
	3.435051e-08	-4.150139e-08	0.01359515	0.006338876	7.262606e-09	-7.508226e-09	-0.08763156	-0.06452335
1.2e+08	-0.09841101	-0.05894053	5.467888e-09	-8.269482e-09	0.01467239	0.004823009	2.747981e-08	-5.105656e-08
	5.467888e-09	-8.269482e-09	-0.09893925	-0.05717587	1.724425e-09	3.533322e-09	0.01454049	0.005160563
	0.01467239	0.004823009	1.724425e-09	3.533322e-09	-0.09897349	-0.05787933	5.880864e-09	-9.394233e-09
	2.747981e-08	-5.105656e-08	0.01454049	0.005160563	5.880864e-09	-9.394233e-09	-0.09894315	-0.05697603
1.3e+08	-0.1080871	-0.04955719	3.6805e-09	-9.735364e-09	0.0152962	0.003434057	1.808287e-08	-5.935953e-08
	3.6805e-09	-9.735364e-09	-0.1084709	-0.04765165	1.413504e-09	3.720137e-09	0.01519363	0.003828274
	0.0152962	0.003434057	1.413504e-09	3.720137e-09	-0.1085274	-0.04849625	3.968613e-09	-1.102233e-08
	1.808287e-08	-5.935953e-08	0.01519363	0.003828274	3.968613e-09	-1.102233e-08	-0.108469	-0.04742869
1.4e+08	-0.1156609	-0.03856932	1.451201e-09	-1.083254e-08	0.01559844	0.001960927	6.421441e-09	-6.578679e-08
	1.451201e-09	-1.083254e-08	-0.1158747	-0.03654195	1.036194e-09	3.982018e-09	0.01553461	0.002406025
	0.01559844	0.001960927	1.036194e-09	3.982018e-09	-0.1159876	-0.03752086	1.58081e-09	-1.225795e-08
	6.421441e-09	-6.578679e-08	0.01553461	0.002406025	1.58081e-09	-1.225795e-08	-0.1158639	-0.03629592
1.5e+08	-0.1208767	-0.02643671	-1.13716e-09	-1.144736e-08	0.0155727	0.0004708549	-7.098868e-09	-6.97749e-08
	-1.13716e-09	-1.144736e-08	-0.1208982	-0.02431383	6.100871e-10	4.336261e-09	0.01555607	0.0009588138
	0.0155727	0.0004708548	6.100871e-10	4.336261e-09	-0.1210974	-0.02541116	-1.194631e-09	-1.297913e-08
	-7.098868e-09	-6.97749e-08	0.01555607	0.0009588138	-1.194631e-09	-1.297913e-08	-0.1208751	-0.02404578
1.6e+08	-0.1235759	-0.01365413	-3.973886e-09	-1.148598e-08	0.01522552	-0.0009701725	-2.194255e-08	-7.085155e-08
	-3.973886e-09	-1.148598e-08	-0.1233877	-0.01146861	1.568194e-10	4.795887e-09	0.01526289	-0.0004494305
	0.01522552	-0.0009701725	1.568194e-10	4.795887e-09	-0.1236977	-0.01266081	-4.239999e-09	-1.308487e-08
	-2.194255e-08	-7.085155e-08	0.01526289	-0.0004494305	-4.239999e-09	-1.308487e-08	-0.123349	-0.01118062
1.7e+08	-0.1236994	-0.0007323536	-6.925476e-09	-1.088117e-08	0.01457559	-0.002299523	-3.74644e-08	-6.866353e-08
	-6.925476e-09	-1.088117e-08	-0.1232911	0.001477551	-2.989822e-10	5.368789e-09	0.01467158	-0.001757771
	0.01457559	-0.002299523	-2.989822e-10	5.368789e-09	-0.1237297	0.0002201473	-7.413051e-09	-1.250227e-08
	-3.74644e-08	-6.866353e-08	0.01467158	-0.001757771	-7.413051e-09	-1.250227e-08	-0.1232341	0.001782446
1.8e+08	-0.1212883	0.01182049	-9.842263e-09	-9.597573e-09	0.01365279	-0.003459793	-5.293522e-08	-6.300035e-08
	-9.842263e-09	-9.597573e-09	-0.1206574	0.01401274	-7.309249e-10	6.057121e-09	0.01380942	-0.00291
	0.01365279	-0.003459793	-7.309249e-10	6.057121e-09	-0.1212342	0.01272419	-1.055401e-08	-1.119232e-08
	-5.293522e-08	-6.300035e-08	0.01380942	-0.00291	-1.055401e-08	-1.119232e-08	-0.1205802	0.01433069
1.9e+08	-0.1164797	0.02351704	-1.256624e-08	-7.635257e-09	0.01249706	-0.004400487	-6.757221e-08	-5.381282e-08
	-1.256624e-08	-7.635257e-09	-0.1156331	0.0256477	-1.112177e-09	6.856987e-09	0.01271339	-0.003856213
	0.01249706	-0.004400487	-1.112177e-09	6.856987e-09	-0.1163492	0.02436454	-1.34938e-08	-9.153699e-09
	-6.757221e-08	-5.381282e-08	0.01271339	-0.003856213	-1.34938e-08	-9.153699e-09	-0.1155347	0.02597426
2e+08	-0.1095014	0.0339078	-1.493955e-08	-5.03131e-09	0.0111571	-0.005079547	-8.057333e-08	-4.122575e-08
	-1.493955e-08	-5.03131e-09	-0.1084558	0.03593316	-1.416819e-09	7.758432e-09	0.01142914	-0.004554275
	0.0111571	-0.005079547	-1.416819e-09	7.758432e-09	-0.109303	0.03469234	-1.606309e-08	-6.424622e-09
	-8.057333e-08	-4.122575e-08	0.01142914	-0.004554275	-1.606309e-08	-6.424622e-09	-0.1083363	0.03626361
2.1e+08	-0.100663	0.04259712	-1.681318e-08	-1.859321e-09	0.009688925	-0.005464776	-9.115471e-08	-2.554386e-08
	-1.681318e-08	-1.859321e-09	-0.09944488	0.04447597	-1.621158e-09	8.745717e-09	0.01000958	-0.004971206
	0.009688925	-0.005464776	-1.621158e-09	8.745717e-09	-0.1004057	0.04331268	-1.810149e-08	-3.082457e-09
	-9.115471e-08	-2.554386e-08	0.01000958	-0.004971206	-1.810149e-08	-3.082457e-09	-0.09930547	0.0448055
2.2e+08	-0.0903441	0.04925741	-1.805529e-08	1.773146e-09	0.008154185	-0.005535125	-9.858999e-08	-7.250144e-09
	-1.805529e-08	1.773146e-09	-0.08898951	0.0509533	-1.704939e-09	9.797856e-09	0.008513448	-0.005084471
	0.008154185	-0.005535125	-1.704939e-09	9.797856e-09	-0.09003781	0.04989891	-1.946655e-08	7.588094e-10
	-9.858999e-08	-7.250144e-09	0.008513448	-0.005084471	-1.946655e-08	7.588094e-10	-0.08883263	0.05127739
2.3e+08	-0.07898091	0.05364141	-1.855879e-08	5.72897e-09	0.0066182	-0.00528182	-1.022503e-07	1.300401e-08
	-1.855879e-08	5.72897e-09	-0.0775344	0.05512493	-1.652429e-09	1.088938e-08	0.007003461	-0.004883151
	0.0066182	-0.00528182	-1.652429e-09	1.088938e-08	-0.0786361	0.05420488	-2.004192e-08	4.953138e-09
	-1.022503e-07	1.300401e-08	0.007003461	-0.004883151	-2.004192e-08	4.953138e-09	-0.07736358	0.05543955
2.4e+08	-0.06705006	0.05559203	-1.82476e-08	9.847497e-09	0.00514769	-0.004709227	-1.016434e-07	3.441777e-08
	-1.82476e-08	9.847497e-09	-0.06556328	0.05684273	-1.453326e-09	1.19913e-08	0.005544208	-0.004368872
	0.00514769	-0.004709227	-1.453326e-09	1.19913e-08	-0.06667782	0.05607478	-1.974423e-08	9.328745e-09
	-1.016434e-07	3.441777e-08	0.005544208	-0.004368872	-1.974423e-08	9.328745e-09	-0.065383	0.05714466
2.5e+08	-0.05505066	0.05504913	-1.708145e-08	1.395181e-08	0.003808196	-0.003835342	-9.644933e-08	5.606893e-08
	-1.708145e-08	1.395181e-08	-0.05358045	0.0560573	-1.1035e-09	1.307219e-08	0.004199695	-0.003556404
	0.003808196	-0.003835342	-1.1035e-09	1.307219e-08	-0.05466252	0.05544992	-1.85284e-08	1.369582e-08
	-9.644933e-08	5.606893e-08	0.004199695	-0.003556404	-1.85284e-08	1.369582e-08	-0.05339598	0.05634429
2.6e+08	-0.04348503	0.05205299	-1.505886e-08	1.785681e-08	0.002661238	-0.002691762	-8.655098e-08	7.695112e-08
	-1.505886e-08	1.785681e-08	-0.04209109	0.05282092	-6.055276e-10	1.409946e-08	0.003030618	-0.002473765
	0.002661238	-0.002691762	-6.055276e-10	1.409946e-08	-0.04309275	0.05237222	-1.639108e-08	1.785516e-08
	-8.655098e-08	7.695112e-08	0.003030618	-0.002473765	-1.639108e-08	1.785516e-08	-0.04190826	0.0530919
2.7e+08	-0.03283856	0.04674387	-1.221833e-08	2.137767e-08	0.001761334	-0.00132302	-7.205662e-08	9.60191e-08
	-1.221833e-08	2.137767e-08	-0.03158084	0.04728663	3.098258e-11	1.504073e-08	0.002091457	-0.001161709
	0.001761334	-0.00132302	3.098258e-11	1.504073e-08	-0.03245385	0.04698366	-1.337209e-08	2.160737e-08
	-7.205662e-08	9.60191e-08	0.002091457	-0.001161709	-1.337209e-08	2.160737e-08	-0.03140578	0.04754184
2.8e+08	-0.02355964	0.03935755	-8.637686e-09	2.433827e-08	0.00115305	0.0002148262	-5.331205e-08	1.122406e-07
	-8.637686e-09	2.433827e-08	-0.02249549	0.03970316	7.893199e-10	1.586527e-08	0.001427568	0.0003275098
	0.00115305	0.0002148262	7.893199e-10	1.586527e-08	-0.02319388	0.03952179	-9.553965e-09	2.476197e-08
	-5.331205e-08	1.122406e-07	0.001427568	0.0003275098	-9.553965e-09	2.476197e-08	-0.02233434	0.03994419
2.9e+08	-0.01604052	0.03021652	-4.431832e-09	2.657918e-08	0.0008682997	0.001856382	-3.090017e-08	1.24652e-07
	-4.431832e-09	2.657918e-08	-0.01522181	0.03040552	1.645887e-09	1.654557e-08	0.0010725	0.001932147
	0.0008682996	0.001856382	1.645887e-09	1.654557e-08	-0.01570446	0.0303109	-5.059574e-09	2.714626e-08
	-3.090017e-08	1.24652e-07	0.0010725	0.001932147	-5.059574e-09	2.714626e-08	-0.01508042	0.03063534
3e+08	-0.01060008	0.01971721	2.50967e-10	2.796502e-08	0.0009241454	0.003529845	-5.626853e-09	1.324149e-07
	2.50967e-10	2.796502e-08	-0.01007038	0.01980148	2.57075e-09	1.70589e-08	0.001045755	0.003583704
	0.0009241454	0.003529845	2.57075e-09	1.70589e-08	-0.01030344	0.01974908	-4.816052e-11	2.861339e-08
	-5.626853e-09	1.324149e-07	0.001045755	0.003583704	-4.816052e-11	2.861339e-08	-0.009954	0.02002438
3.1e+08	-0.007469449	0.008313447	5.234048e-09	2.839101e-08	0.001321334	0.005160541	2.150757e-08	1.348694e-07
	5.234048e-09	2.839101e-08	-0.007261501	0.008354487	3.528561e-09	1.738882e-08	0.001351257	0.005210293
	0.001321334	0.005160541	3.528561e-09	1.738882e-08	-0.007220679	0.008291699	5.290078e-09	2.904967e-08
	2.150757e-08	1.348694e-07	0.001351257	0.005210293	5.290078e-09	2.904967e-08	-0.007174525	0.008575933
3.2e+08	-0.00678157	-0.003503029	1.03184e-08	2.778862e-08	0.002043765	0.006674849	4.935034e-08	1.315807e-07
	1.03184e-08	2.778862e-08	-0.006915101	-0.003436505	4.479869e-09	1.752649e-08	0.001976703	0.006740394
	0.002043765	0.006674849	4.479869e-09	1.752649e-08	-0.006587502	-0.003568197	1.074066e-08	2.83807e-08
	4.935034e-08	1.315807e-07	0.001976703	0.006740394	1.074066e-08	2.83807e-08	-0.006860786	-0.003210028
3.3e+08	-0.008565097	-0.01522409	1.528972e-08	2.613013e-08	0.003059001	0.008004241	7.664986e-08	1.22374e-07
	1.528972e-08	2.613013e-08	-0.009045281	-0.01505899	5.382799e-09	1.747182e-08	0.002893925	0.008106755
	0.003059001	0.008004241	5.382799e-09	1.747182e-08	-0.008430722	-0.01532149	1.607264e-08	2.657642e-08
	7.664986e-08	1.22374e-07	0.002893925	0.008106755	1.607264e-08	2.657642e-08	-0.009025483	-0.01482023
3.4e+08	-0.01274328	-0.02634771	1.992596e-08	2.343384e-08	0.004319841	0.009089106	1.021056e-07	1.073443e-07
	1.992596e-08	2.343384e-08	-0.0135598	-0.02600974	6.194268e-09	1.723359e-08	0.004060288	0.009250111
	0.004319841	0.009089106	6.194268e-09	1.723359e-08	-0.0126716	-0.02646545	2.104686e-08	2.365619e-08
	1.021056e-07	1.073443e-07	0.004060288	0.009250111	2.104686e-08	2.365619e-08	-0.01357479	-0.025751
3.5e+08	-0.01913804	-0.03640004	2.400757e-08	1.975821e-08	0.005766873	0.009882055	1.244627e-07	8.690179e-08
	2.400757e-08	1.975821e-08	-0.02026476	-0.03581711	6.874166e-09	1.683157e-08	0.005421026	0.01012242
	0.005766873	0.009882055	6.874166e-09	1.683157e-08	-0.01912989	-0.03652598	2.542717e-08	1.968374e-08
	1.244627e-07	8.690179e-08	0.005421026	0.01012242	2.542717e-08	1.968374e-08	-0.02031322	-0.03553055
3.6e+08	-0.02747857	-0.04495603	2.732502e-08	1.521283e-08	0.007331785	0.01035043	1.425605e-07	6.172321e-08
	2.732502e-08	1.521283e-08	-0.02887414	-0.04406167	7.386239e-09	1.629416e-08	0.00691234	0.01068937
	0.007331785	0.01035043	7.386239e-09	1.629416e-08	-0.0275326	-0.04507816	2.898877e-08	1.477726e-08
	1.425605e-07	6.172321e-08	0.00691234	0.01068937	2.898877e-08	1.477726e-08	-0.02895305	-0.04373969
3.7e+08	-0.03741437	-0.05165743	2.969004e-08	9.953295e-09	0.008941186	0.01047786	1.553951e-07	3.273366e-08
	2.969004e-08	9.953295e-09	-0.03902354	-0.05039406	7.700431e-09	1.565797e-08	0.008464992	0.01093192
	0.008941186	0.01047786	7.700431e-09	1.565797e-08	-0.03752715	-0.05176426	3.153013e-08	9.104038e-09
	1.553951e-07	3.273366e-08	0.008464992	0.01093192	3.153013e-08	9.104038e-09	-0.03912826	-0.05002963
3.8e+08	-0.04853168	-0.05622725	3.0946e-08	4.176974e-09	0.01052062	0.01026471	1.621743e-07	1.068294e-09
	3.0946e-08	4.176974e-09	-0.05028728	-0.05454908	7.794967e-09	1.496646e-08	0.01000809	0.01084691
	0.01052062	0.01026471	7.794967e-09	1.496646e-08	-0.0486978	-0.0563082	3.288397e-08	2.875784e-09
	1.621743e-07	1.068294e-09	0.01000809	0.01084691	3.288397e-08	2.875784e-09	-0.05041164	-0.05413611
3.9e+08	-0.06037234	-0.0584801	3.097768e-08	-1.883327e-09	0.01199843	0.009727579	1.623597e-07	-3.197912e-08
	3.097768e-08	-1.883327e-09	-0.0621979	-0.05635558	7.657944e-09	1.426796e-08	0.0114728	0.01044659
	0.01199843	0.009727579	7.657944e-09	1.426796e-08	-0.06058465	-0.05852584	3.292749e-08	-3.658328e-09
	1.623597e-07	-3.197912e-08	0.0114728	0.01044659	3.292749e-08	-3.658328e-09	-0.06233441	-0.05588927
4e+08	-0.07245401	-0.05832807	2.971976e-08	-7.968202e-09	0.01330929	0.008897821	1.556953e-07	-6.501518e-08
	2.971976e-08	-7.968202e-09	-0.07426682	-0.05574175	7.288425e-09	1.361329e-08	0.01279561	0.009757415
	0.01330929	0.008897821	7.288425e-09	1.361329e-08	-0.07270383	-0.05833083	3.159126e-08	-1.022116e-08
	1.556953e-07	-6.501518e-08	0.01279561	0.009757415	3.159126e-08	-1.022116e-08	-0.07440697	-0.05521883
4.1e+08	-0.08429062	-0.05578222	2.716335e-08	-1.380275e-08	0.01439704	0.007819383	1.42223e-07	-9.660963e-08
	2.716335e-08	-1.380275e-08	-0.08600524	-0.05273588	6.69693e-09	1.305319e-08	0.01392118	0.008818021
	0.01439704	0.007819383	6.69693e-09	1.305319e-08	-0.08456814	-0.055736	2.886587e-08	-1.651939e-08
	1.42223e-07	-9.660963e-08	0.01392118	0.008818021	2.886587e-08	-1.651939e-08	-0.08613977	-0.05215487
4.2e+08	-0.09541226	-0.05094975	2.335988e-08	-1.91094e-08	0.01521689	0.006546157	1.222822e-07	-1.253587e-07
	2.335988e-08	-1.91094e-08	-0.09694406	-0.04746283	5.905273e-09	1.263562e-08	0.01480434	0.007676861
	0.01521689	0.006546157	5.905273e-09	1.263562e-08	-0.09570683	-0.0508505	2.480594e-08	-2.22571e-08
	1.222822e-07	-1.253587e-07	0.01480434	0.007676861	2.480594e-08	-2.22571e-08	-0.09706342	-0.04682421
4.3e+08	-0.1053834	-0.0440275	1.842176e-08	-2.362177e-08	0.01573682	0.005139086	9.649857e-08	-1.499459e-07
	1.842176e-08	-2.362177e-08	-0.1066523	-0.04013677	4.945748e-09	1.240317e-08	0.01541155	0.006389535
	0.01573682	0.005139086	4.945748e-09	1.240317e-08	-0.105684	-0.04387323	1.953073e-08	-2.715028e-08
	9.649857e-08	-1.499459e-07	0.01541155	0.006389535	1.953073e-08	-2.715028e-08	-0.106747	-0.03944297
4.4e+08	-0.1138193	-0.03529216	1.251971e-08	-2.709859e-08	0.01593826	0.003663222	6.575923e-08	-1.691976e-07
	1.251971e-08	-2.709859e-08	-0.1147531	-0.0310506	3.859698e-09	1.239077e-08	0.01572161	0.005016114
	0.01593826	0.003663222	3.859698e-09	1.239077e-08	-0.1141146	-0.03508296	1.322126e-08	-3.094148e-08
	6.575923e-08	-1.691976e-07	0.01572161	0.005016114	1.322126e-08	-3.094148e-08	-0.1148142	-0.03030606
4.5e+08	-0.1203993	-0.02508791	5.876674e-09	-2.933692e-08	0.01581618	0.002184923	3.117976e-08	-1.821321e-07
	5.876674e-09	-2.933692e-08	-0.1209372	-0.02056296	2.695568e-09	1.262371e-08	0.01572579	0.003618564
	0.01581618	0.002184923	2.695568e-09	1.262371e-08	-0.1206784	-0.02482592	6.113982e-09	-3.341364e-08
	3.117976e-08	-1.821321e-07	0.01572579	0.003618564	6.113982e-09	-3.341364e-08	-0.1209565	-0.01977399
4.6e+08	-0.1248776	-0.01381214	-1.241341e-09	-3.01836e-08	0.01537861	0.000769275	-5.937425e-09	-1.880012e-07
	-1.241341e-09	-3.01836e-08	-0.1249729	-0.009083299	1.506553e-09	1.311635e-08	0.01542755	0.002258392
	0.01537861	0.000769275	1.506553e-09	1.311635e-08	-0.1251304	-0.01350147	-1.508784e-09	-3.440218e-08
	-5.937425e-09	-1.880012e-07	0.01542755	0.002258392	-1.508784e-09	-3.440218e-08	-0.1249438	-0.008257844
4.7e+08	-0.1270916	-0.001899826	-8.536966e-09	-2.954444e-08	0.01464586	-0.0005221901	-4.415063e-08	-1.863222e-07
	-8.536966e-09	-2.954444e-08	-0.1267138	0.002944316	3.48019e-10	1.387126e-08	0.01484186	0.0009945344
	0.01464586	-0.0005221901	3.48019e-10	1.387126e-08	-0.1273087	-0.001546375	-9.331036e-09	-3.380472e-08
	-4.415063e-08	-1.863222e-07	0.01484186	0.0009945344	-9.331036e-09	-3.380472e-08	-0.1266312	0.003796914
4.8e+08	-0.1269656	0.01019293	-1.569505e-08	-2.739035e-08	0.01364935	-0.001633482	-8.193102e-08	-1.769019e-07
