!$
! Info: Touchstone file created by Circ.  Input file=Tx_16in_Rx_85ohms_TxVia_35mils_RxVia_45mils.circ
!$
# Hz S RI R 50
0	0.01283771	1.932744e-25	-8.575482e-05	-1.209811e-25	0.0001058184	2.414366e-23	-8.575412e-05	-1.229e-25
	-8.575484e-05	-1.178479e-25	0.01283423	2.299237e-25	-8.575305e-05	-1.10436e-25	0.000104481	2.906805e-23
	0.000106341	2.445797e-23	-8.5753e-05	-1.15678e-25	0.01284562	1.886836e-25	-8.575303e-05	-2.808656e-26
	-8.575414e-05	-1.207248e-25	0.0001026324	2.921109e-23	-8.575306e-05	-2.380233e-26	0.01284729	2.15442e-25
1e+07	0.01538213	-0.01627669	-1.094267e-05	-2.087863e-05	0.0005827564	0.002840601	-7.193922e-06	-2.4774e-05
	-1.094267e-05	-2.087863e-05	0.01536971	-0.01601508	-1.501686e-05	2.53356e-07	0.0006965363	0.00282596
	0.0005827805	0.002840602	-1.501686e-05	2.533554e-07	0.01751841	-0.01595801	-3.263489e-05	5.23318e-06
	-7.193921e-06	-2.4774e-05	0.0006964755	0.002825971	-3.263489e-05	5.23318e-06	0.0153335	-0.01599614
2e+07	0.01096878	-0.03582321	-9.597577e-06	-6.997339e-06	0.001978895	0.005334026	-4.823422e-06	-1.261998e-05
	-9.597578e-06	-6.997339e-06	0.01120518	-0.03542706	-4.101037e-05	-1.750612e-05	0.002108469	0.005207635
	0.001978903	0.005334011	-4.101037e-05	-1.750612e-05	0.01306797	-0.03612356	-4.938546e-05	-3.742354e-06
	-4.823422e-06	-1.261998e-05	0.002108461	0.005207671	-4.938545e-05	-3.742355e-06	0.01118466	-0.03537575
3e+07	-0.001038583	-0.05387072	-8.946193e-06	-3.087359e-06	0.004123507	0.007087286	-5.785858e-06	-9.221474e-06
	-8.946194e-06	-3.087359e-06	-0.0006530506	-0.05348178	-5.956173e-05	-1.148837e-05	0.004163322	0.006952211
	0.004123506	0.007087283	-5.956173e-05	-1.148837e-05	0.0009626403	-0.05454032	-6.053295e-05	3.765264e-06
	-5.785858e-06	-9.221474e-06	0.004163322	0.006952217	-6.053295e-05	3.765264e-06	-0.000662638	-0.0534122
4e+07	-0.01857916	-0.06721084	-8.258096e-06	-7.52439e-07	0.006646722	0.00800708	-7.545314e-06	-6.229588e-06
	-8.258096e-06	-7.524391e-07	-0.0181137	-0.0668606	-7.264604e-05	2.326415e-06	0.006607144	0.007900338
	0.006646724	0.008007081	-7.264604e-05	2.326415e-06	-0.0167401	-0.06818713	-6.739216e-05	1.648875e-05
	-7.545314e-06	-6.229588e-06	0.006607139	0.007900337	-6.739216e-05	1.648875e-05	-0.01811549	-0.06677586
5e+07	-0.03944742	-0.07429689	-7.475688e-06	9.162404e-07	0.009250757	0.008040629	-8.670043e-06	-3.348741e-06
	-7.475689e-06	9.162403e-07	-0.03895141	-0.07398402	-8.016822e-05	2.086604e-05	0.009147905	0.007989069
	0.009250759	0.008040629	-8.016822e-05	2.086604e-05	-0.03782413	-0.07552617	-6.98655e-05	3.218551e-05
	-8.670044e-06	-3.348741e-06	0.009147901	0.007989068	-6.98655e-05	3.218551e-05	-0.03894756	-0.07388452
6e+07	-0.06128858	-0.074497	-6.597898e-06	2.172975e-06	0.01164383	0.007235527	-9.114822e-06	-4.536972e-07
	-6.597898e-06	2.172975e-06	-0.06079209	-0.07420556	-8.163877e-05	4.233145e-05	0.01149923	0.007257892
	0.01164383	0.007235528	-8.163877e-05	4.233145e-05	-0.05992238	-0.07592276	-6.761722e-05	4.948675e-05
	-9.114821e-06	-4.536973e-07	0.01149923	0.007257891	-6.761723e-05	4.948675e-05	-0.06078339	-0.07409039
7e+07	-0.08180254	-0.06799256	-5.647095e-06	3.110499e-06	0.01357616	0.005728063	-8.829953e-06	2.412306e-06
	-5.647094e-06	3.110498e-06	-0.08131877	-0.06770353	-7.648523e-05	6.51008e-05	0.01341504	0.005834609
	0.01357615	0.005728065	-7.648523e-05	6.51008e-05	-0.08072204	-0.06955516	-6.029395e-05	6.713837e-05
	-8.829952e-06	2.412305e-06	0.01341505	0.005834605	-6.029395e-05	6.713837e-05	-0.08130455	-0.06757156
8e+07	-0.09895549	-0.05567137	-4.656643e-06	3.77106e-06	0.01486378	0.003719422	-7.769699e-06	5.129832e-06
	-4.656642e-06	3.77106e-06	-0.09848587	-0.05537041	-6.419907e-05	8.744193e-05	0.0147129	0.003911514
	0.01486377	0.003719426	-6.419907e-05	8.744193e-05	-0.09817731	-0.05730981	-4.762501e-05	8.381382e-05
	-7.769698e-06	5.129832e-06	0.01471291	0.003911507	-4.762501e-05	8.381382e-05	-0.09846419	-0.05522107
9e+07	-0.1111543	-0.03898026	-3.665651e-06	4.178598e-06	0.01540036	0.001448216	-5.884223e-06	7.529464e-06
	-3.665651e-06	4.178597e-06	-0.1106961	-0.03866206	-4.429756e-05	0.0001074239	0.01528577	0.001718445
	0.01540036	0.001448219	-4.429756e-05	0.0001074239	-0.1106851	-0.040634	-2.938649e-05	9.80629e-05
	-5.884223e-06	7.529463e-06	0.01528578	0.001718439	-2.938649e-05	9.80629e-05	-0.1106644	-0.03849598
1e+08	-0.1173595	-0.01974622	-2.708456e-06	4.343775e-06	0.01515956	-0.0008356515	-2.897888e-06	9.371762e-06
	-2.708456e-06	4.343775e-06	-0.1169266	-0.01941648	-1.448812e-05	0.0001227084	0.0151069	-0.0005023354
	0.01515956	-0.0008356517	-1.448812e-05	0.0001227084	-0.1172084	-0.02135734	-4.050221e-06	0.0001081588
	-2.897888e-06	9.371762e-06	0.0151069	-0.0005023354	-4.050221e-06	0.0001081588	-0.1168825	-0.01923581
1.1e+08	-0.1171989	-4.637001e-05	-1.884443e-06	4.553969e-06	0.01418742	-0.002894949	3.264411e-07	9.205622e-06
	-1.884443e-06	4.553969e-06	-0.1167765	0.0003543929	1.760256e-05	0.0001202584	0.01421038	-0.002536255
	0.01418742	-0.002894949	1.760256e-05	0.0001202584	-0.117337	-0.001501328	1.072979e-05	0.0001063826
	3.264411e-07	9.205622e-06	0.01421038	-0.002536255	1.072979e-05	0.0001063826	-0.1167179	0.000546531
1.2e+08	-0.1109419	0.01819017	-9.876456e-07	4.701314e-06	0.01259609	-0.004516979	2.844587e-06	8.428109e-06
	-9.876456e-07	4.701314e-06	-0.1104794	0.01863256	3.311769e-05	0.0001153728	0.01268915	-0.004158043
	0.01259609	-0.004516979	3.311769e-05	0.0001153728	-0.1112937	0.01693281	2.253787e-05	0.0001034819
	2.844587e-06	8.428109e-06	0.01268915	-0.004158043	2.253787e-05	0.0001034819	-0.1104046	0.01883192
1.3e+08	-0.09939952	0.03315591	-9.84198e-08	4.700892e-06	0.01055482	-0.005535019	4.445454e-06	7.410029e-06
	-9.84198e-08	4.700892e-06	-0.0988866	0.03359707	4.628446e-05	0.0001092421	0.01070857	-0.005198971
	0.01055482	-0.00553502	4.628446e-05	0.0001092421	-0.09990303	0.03211979	3.500766e-05	9.892605e-05
	4.445454e-06	7.410029e-06	0.01070857	-0.005198971	3.500766e-05	9.892605e-05	-0.09879607	0.03379826
1.4e+08	-0.08390419	0.0433937	7.494907e-07	4.552407e-06	0.008274177	-0.005838955	4.872633e-06	6.795587e-06
	7.494907e-07	4.552407e-06	-0.08335605	0.04379116	5.924615e-05	0.0001011873	0.008472418	-0.005545517
	0.008274177	-0.005838956	5.924615e-05	0.0001011873	-0.08449998	0.04258902	4.731544e-05	9.251182e-05
	4.872633e-06	6.795587e-06	0.008472418	-0.005545517	4.731544e-05	9.251182e-05	-0.08325222	0.04398847
1.5e+08	-0.06617011	0.04793545	1.528572e-06	4.270873e-06	0.005990927	-0.005386171	5.30524e-06	6.172107e-06
	1.528572e-06	4.270873e-06	-0.06562294	0.04825631	7.134445e-05	9.12197e-05	0.00621131	-0.005149265
	0.005990927	-0.005386171	7.134445e-05	9.12197e-05	-0.06680145	0.04735977	5.886847e-05	8.425077e-05
	5.30524e-06	6.172107e-06	0.00621131	-0.005149265	5.886847e-05	8.425077e-05	-0.06551075	0.04844471
1.6e+08	-0.04812728	0.04639767	2.225641e-06	3.874642e-06	0.003948206	-0.004209493	5.725988e-06	5.529732e-06
	2.225641e-06	3.874642e-06	-0.04763245	0.04662595	8.206732e-05	7.950725e-05	0.004164126	-0.004035131
	0.003948206	-0.004209493	8.206732e-05	7.950725e-05	-0.04874183	0.04603647	6.920914e-05	7.429529e-05
	5.725988e-06	5.529732e-06	0.004164126	-0.004035131	6.920914e-05	7.429529e-05	-0.04751895	0.04680217
1.7e+08	-0.03173037	0.0390254	2.830418e-06	3.381562e-06	0.002371507	-0.0024196	6.123585e-06	4.861429e-06
	2.830418e-06	3.381562e-06	-0.0313468	0.03916713	9.101981e-05	6.633278e-05	0.002554816	-0.002304478
	0.002371507	-0.0024196	9.101981e-05	6.633278e-05	-0.03228259	0.03885302	7.797472e-05	6.290065e-05
	6.123585e-06	4.861429e-06	0.002554816	-0.002304478	7.797472e-05	6.290065e-05	-0.03124046	0.03933049
1.8e+08	-0.01875747	0.02667495	3.334921e-06	2.808436e-06	0.001442246	-0.0001989466	6.488821e-06	4.161321e-06
	3.334921e-06	2.808436e-06	-0.01854262	0.02676029	9.79227e-05	5.205704e-05	0.001566476	-0.000130033
	0.001442246	-0.0001989466	9.79227e-05	5.205704e-05	-0.01921106	0.02665636	8.490146e-05	5.039434e-05
	6.488821e-06	4.161321e-06	0.001566476	-0.000130033	8.490146e-05	5.039434e-05	-0.01845224	0.02691326
1.9e+08	-0.01061903	0.0107307	3.732488e-06	2.171087e-06	0.00127277	0.002214801	6.812161e-06	3.424624e-06
	3.732488e-06	2.171087e-06	-0.01061952	0.01081274	0.0001026132	3.708235e-05	0.001316474	0.002259536
	0.00127277	0.002214801	0.0001026132	3.708235e-05	-0.0109492	0.01082413	8.982857e-05	3.714434e-05
	6.812161e-06	3.424624e-06	0.001316474	0.002259536	8.982857e-05	3.714434e-05	-0.01055307	0.01096103
2e+08	-0.008200985	-0.007040465	4.017017e-06	1.485062e-06	0.001887968	0.004555554	7.082559e-06	2.648457e-06
	4.017017e-06	1.485062e-06	-0.008444067	-0.006890343	0.0001050394	2.181687e-05	0.001837755	0.004605233
	0.001887968	0.004555554	0.0001050394	2.181687e-05	-0.008395832	-0.006880112	9.269567e-05	2.352708e-05
	7.082559e-06	2.648457e-06	0.001837755	0.004605233	9.269567e-05	2.352708e-05	-0.008407446	-0.006738159
2.1e+08	-0.01176474	-0.02468329	4.182839e-06	7.666762e-07	0.00321838	0.006562541	7.287436e-06	1.833107e-06
	4.182839e-06	7.666762e-07	-0.01225173	-0.02438306	0.0001052462	6.643657e-06	0.003071235	0.006650429
	0.00321838	0.006562541	0.0001052462	6.643657e-06	-0.01182555	-0.02450057	9.353161e-05	9.898889e-06
	7.287436e-06	1.833107e-06	0.003071235	0.006650429	9.353161e-05	9.898889e-06	-0.01224778	-0.02421634
2.2e+08	-0.02092033	-0.04027313	4.225342e-06	3.393379e-08	0.005107634	0.008015199	7.413606e-06	9.829781e-07
	4.225342e-06	3.393379e-08	-0.02162316	-0.03973994	0.0001033528	-8.1026e-06	0.004872135	0.008174991
	0.005107634	0.008015199	0.0001033528	-8.1026e-06	-0.02086055	-0.04010829	9.243541e-05	-3.425916e-06
	7.413606e-06	9.829781e-07	0.004872135	0.008174991	9.243541e-05	-3.425916e-06	-0.02165096	-0.03954712
2.3e+08	-0.03467775	-0.05213052	4.142118e-06	-6.930864e-07	0.007333589	0.00876241	7.448778e-06	1.069153e-07
	4.142118e-06	-6.930864e-07	-0.03553922	-0.05129136	9.952583e-05	-2.214739e-05	0.007029782	0.009024182
	0.007333589	0.00876241	9.952583e-05	-2.214739e-05	-0.03452085	-0.05201621	8.955255e-05	-1.618713e-05
	7.448778e-06	1.069153e-07	0.007029782	0.009024182	8.955255e-05	-1.618713e-05	-0.03559386	-0.05106131
2.4e+08	-0.05156872	-0.05900205	3.934246e-06	-1.39259e-06	0.009639144	0.008740482	7.383208e-06	-7.822488e-07
	3.934246e-06	-1.39259e-06	-0.05250664	-0.05780405	9.395366e-05	-3.527626e-05	0.009296983	0.00912679
	0.009639144	0.008740482	9.395366e-05	-3.527626e-05	-0.0513451	-0.05896113	8.505156e-05	-2.818012e-05
	7.383208e-06	-7.822488e-07	0.009296983	0.00912679	8.505156e-05	-2.818012e-05	-0.05257944	-0.05752745
2.5e+08	-0.06981972	-0.06018528	3.607319e-06	-2.042066e-06	0.01176647	0.00797715	7.210811e-06	-1.668953e-06
	3.607319e-06	-2.042066e-06	-0.0707346	-0.05860402	8.682554e-05	-4.732569e-05	0.01142293	0.008499813
	0.01176647	0.00797715	8.682554e-05	-4.732569e-05	-0.06956332	-0.06022964	7.910399e-05	-3.924875e-05
	7.210811e-06	-1.668953e-06	0.01142293	0.008499813	7.910399e-05	-3.924875e-05	-0.07081381	-0.05827468
2.6e+08	-0.08755096	-0.05558525	3.171929e-06	-2.619711e-06	0.01348823	0.006582393	6.929736e-06	-2.536376e-06
	3.171929e-06	-2.619711e-06	-0.08833627	-0.05363013	7.831942e-05	-5.816774e-05	0.01318343	0.007240395
	0.01348823	0.006582393	7.831942e-05	-5.816774e-05	-0.08729579	-0.05571591	7.187204e-05	-4.927212e-05
	6.929736e-06	-2.536376e-06	0.01318343	0.007240395	7.187204e-05	-4.927212e-05	-0.08840826	-0.0532459
2.7e+08	-0.1029751	-0.04570227	2.643572e-06	-3.105963e-06	0.01463123	0.00472964	6.542167e-06	-3.367942e-06
	2.643572e-06	-3.105963e-06	-0.1035289	-0.04341805	6.859865e-05	-6.769375e-05	0.01440388	0.005508473
	0.01463123	0.00472964	6.859865e-05	-6.769375e-05	-0.1027522	-0.04591032	6.350387e-05	-5.814948e-05
	6.542167e-06	-3.367942e-06	0.01440388	0.005508473	6.350387e-05	-5.814948e-05	-0.1035796	-0.04298145
2.8e+08	-0.1145735	-0.0315595	2.041994e-06	-3.484913e-06	0.01509024	0.002632132	6.053726e-06	-4.14849e-06
	2.041994e-06	-3.484913e-06	-0.1148106	-0.02902385	5.781692e-05	-7.580093e-05	0.01497317	0.003504702
	0.01509024	0.002632132	5.781692e-05	-7.580093e-05	-0.1144085	-0.03182788	5.413683e-05	-6.578704e-05
	6.053726e-06	-4.14849e-06	0.01497317	0.003504702	5.413683e-05	-6.578704e-05	-0.1148269	-0.02854204
2.9e+08	-0.1212356	-0.01458465	1.390114e-06	-3.745426e-06	0.01483278	0.0005187875	5.472473e-06	-4.864981e-06
	1.390114e-06	-3.745426e-06	-0.1210976	-0.01190188	4.612768e-05	-8.238407e-05	0.0148489	0.001447819
	0.01483278	0.0005187875	4.612768e-05	-8.238407e-05	-0.1211471	-0.01489024	4.390556e-05	-7.208894e-05
	5.472473e-06	-4.864981e-06	0.0148489	0.001447819	4.390556e-05	-7.208894e-05	-0.1210694	-0.01138618
3e+08	-0.1223524	0.003538376	7.126475e-07	-3.881899e-06	0.01389678	-0.001387609	4.807883e-06	-5.506738e-06
	7.126475e-07	-3.881899e-06	-0.1218161	0.006246861	3.369595e-05	-8.733356e-05	0.01405599	-0.0004459156
	0.01389678	-0.001387609	3.369595e-05	-8.733356e-05	-0.1223506	0.00322232	3.2953e-05	-7.6954e-05
	4.807883e-06	-5.506738e-06	0.01405599	-0.0004459156	3.2953e-05	-7.6954e-05	-0.1217371	0.006781998
3.1e+08	-0.1178618	0.02103292	3.451887e-08	-3.894549e-06	0.01238349	-0.002888818	4.069951e-06	-6.06534e-06
	3.451887e-08	-3.894549e-06	-0.1169442	0.02364058	2.070949e-05	-9.053889e-05	0.01268095	-0.001980266
	0.01238349	-0.002888818	2.070949e-05	-9.053889e-05	-0.1179485	0.02073434	2.144172e-05	-8.027885e-05
	4.06995e-06	-6.06534e-06	0.01268095	-0.001980266	2.144172e-05	-8.027885e-05	-0.116813	0.02417896
3.2e+08	-0.1082465	0.03619563	-6.207611e-07	-3.789237e-06	0.01044739	-0.003826371	3.268432e-06	-6.534075e-06
	-6.207611e-07	-3.789237e-06	-0.1070055	0.03858396	7.387936e-06	-9.189885e-05	0.01086337	-0.002993861
	0.01044739	-0.003826371	7.387936e-06	-9.189885e-05	-0.108415	0.03594123	9.562542e-06	-8.196586e-05
	3.268432e-06	-6.534075e-06	0.01086337	-0.002993861	9.562542e-06	-8.196586e-05	-0.1068261	0.03910932
3.3e+08	-0.09448681	0.04755401	-1.23262e-06	-3.576792e-06	0.008283787	-0.004094268	2.412469e-06	-6.907204e-06
	-1.23262e-06	-3.576792e-06	-0.09301777	0.04962573	-6.013653e-06	-9.133857e-05	0.008785078	-0.003373007
	0.008283787	-0.004094268	-6.013653e-06	-9.133857e-05	-0.09472269	0.04736697	-2.460677e-06	-8.193524e-05
	2.412469e-06	-6.907204e-06	0.008785078	-0.003373007	-2.460677e-06	-8.193524e-05	-0.0927994	0.05012359
3.4e+08	-0.0779707	0.05400559	-1.784695e-06	-3.271652e-06	0.006113649	-0.003649369	1.510699e-06	-7.178902e-06
	-1.784695e-06	-3.271652e-06	-0.07639869	0.05569647	-1.920741e-05	-8.881785e-05	0.006656459	-0.003062706
	0.006113649	-0.003649369	-1.920741e-05	-8.881785e-05	-0.07825327	0.05390348	-1.437112e-05	-8.013815e-05
	1.510699e-06	-7.178902e-06	0.006656459	-0.003062706	-1.437112e-05	-8.013815e-05	-0.07615519	0.05615583
3.5e+08	-0.06036619	0.05492778	-2.265486e-06	-2.890189e-06	0.004165102	-0.002518694	5.715901e-07	-7.343227e-06
	-2.265486e-06	-2.890189e-06	-0.05883479	0.05621589	-3.188042e-05	-8.43504e-05	0.004699246	-0.002075026
	0.004165102	-0.002518695	-3.188042e-05	-8.43504e-05	-0.06067035	0.0549209	-2.588703e-05	-7.657492e-05
	5.715901e-07	-7.343227e-06	0.004699246	-0.002075026	-2.588703e-05	-7.657492e-05	-0.05858318	0.05663052
3.6e+08	-0.04346297	0.05024781	-2.668266e-06	-2.44893e-06	0.002651509	-0.0008018177	-3.955673e-07	-7.392976e-06
	-2.668266e-06	-2.44893e-06	-0.04211991	0.05115877	-4.370915e-05	-7.801466e-05	0.003125452	-0.0004929248
	0.002651509	-0.0008018177	-4.370915e-05	-7.801466e-05	-0.04376169	0.05033805	-3.67143e-05	-7.130338e-05
	-3.955673e-07	-7.392976e-06	0.003125452	-0.0004929248	-3.67143e-05	-7.130338e-05	-0.04187881	0.05152817
3.7e+08	-0.02899453	0.04046191	-2.990264e-06	-1.962984e-06	0.001747383	0.00133403	-1.379395e-06	-7.319958e-06
	-2.990264e-06	-1.962984e-06	-0.02797585	0.04106936	-5.437804e-05	-6.995933e-05	0.002113687	0.00153297
	0.001747383	0.00133403	-5.437804e-05	-6.995933e-05	-0.02926162	0.04064251	-4.656343e-05	-6.444538e-05
	-1.379395e-06	-7.319958e-06	0.002113687	0.00153297	-4.656343e-05	-6.444538e-05	-0.02776355	0.04139914
3.8e+08	-0.0184573	0.02659639	-3.231221e-06	-1.445052e-06	0.001565124	0.003667993	-2.365262e-06	-7.115902e-06
	-3.231221e-06	-1.445052e-06	-0.0178716	0.02701703	-6.360146e-05	-6.040337e-05	0.001785764	0.003796625
	0.001565124	0.003667993	-6.360146e-05	-6.040337e-05	-0.0186702	0.02685264	-5.516958e-05	-5.618723e-05
	-2.365262e-06	-7.115902e-06	0.001785764	0.003796625	-5.516958e-05	-5.618723e-05	-0.01770408	0.02731862
3.9e+08	-0.01294717	0.01010894	-3.391717e-06	-9.052968e-07	0.002136898	0.005948985	-3.334571e-06	-6.774014e-06
	-3.391717e-06	-9.052968e-07	-0.01286187	0.01049236	-7.114512e-05	-4.962667e-05	0.00218787	0.006058296
	0.002136898	0.005948985	-7.114512e-05	-4.962667e-05	-0.01308944	0.01041983	-6.2312e-05	-4.677166e-05
	-3.334571e-06	-6.774014e-06	0.00218787	0.006058296	-6.2312e-05	-4.677166e-05	-0.01275097	0.01078212
4e+08	-0.01303534	-0.007262724	-3.471759e-06	-3.521074e-07	0.003406156	0.007926169	-4.264874e-06	-6.290921e-06
	-3.471759e-06	-3.521074e-07	-0.0134668	-0.006748738	-7.684277e-05	-3.795274e-05	0.003280825	0.008073572
	0.003406156	0.007926169	-7.684277e-05	-3.795274e-05	-0.01309836	-0.006922081	-6.782942e-05	-3.648292e-05
	-4.264874e-06	-6.290921e-06	0.003280825	0.008073572	-6.782942e-05	-3.648292e-05	-0.01341869	-0.00645101
4.1e+08	-0.01870197	-0.02368888	-3.47006e-06	2.065236e-07	0.005231914	0.009381836	-5.131023e-06	-5.668547e-06
	-3.47006e-06	2.065236e-07	-0.01961096	-0.02287594	-8.060548e-05	-2.57262e-05	0.004942651	0.009625257
	0.005231914	0.009381836	-8.060548e-05	-2.57262e-05	-0.01868576	-0.02334429	-7.162903e-05	-2.5627e-05
	-5.131023e-06	-5.668547e-06	0.004942651	0.009625257	-7.162903e-05	-2.5627e-05	-0.01962519	-0.02254897
4.2e+08	-0.029339	-0.03744859	-3.384251e-06	7.614866e-07	0.00740618	0.01016059	-5.907183e-06	-4.915331e-06
	-3.384251e-06	7.614866e-07	-0.03063228	-0.0361863	-8.242126e-05	-1.328864e-05	0.006983973	0.01055216
	0.00740618	0.01016059	-8.242126e-05	-1.328864e-05	-0.02925178	-0.03712385	-7.368703e-05	-1.451017e-05
	-5.907183e-06	-4.915331e-06	0.006983973	0.01055216	-7.368703e-05	-1.451017e-05	-0.03070148	-0.03580953
4.3e+08	-0.04382204	-0.04711676	-3.211934e-06	1.301421e-06	0.009681702	0.01018921	-6.569289e-06	-4.046429e-06
	-3.211934e-06	1.301421e-06	-0.04536025	-0.04528991	-8.234587e-05	-9.576269e-07	0.009173649	0.01076928
	0.009681702	0.01018921	-8.234587e-05	-9.576269e-07	-0.04367892	-0.04683107	-7.404144e-05	-3.419913e-06
	-6.569289e-06	-4.046429e-06	0.009173649	0.01076928	-7.404144e-05	-3.419913e-06	-0.04547058	-0.04484578
4.4e+08	-0.06064082	-0.05171277	-2.952219e-06	1.812347e-06	0.01180472	0.009483639	-7.097382e-06	-3.082773e-06
	-2.952219e-06	1.812347e-06	-0.06225187	-0.04925527	-8.048722e-05	1.098792e-05	0.01126958	0.0102758
	0.01180472	0.009483639	-8.048722e-05	1.098792e-05	-0.06046166	-0.0514789	-7.277879e-05	7.38901e-06
	-7.097382e-06	-3.082773e-06	0.01126958	0.0102758	-7.277879e-05	7.38901e-06	-0.06238419	-0.04873122
4.5e+08	-0.07806876	-0.05079372	-2.607288e-06	2.278158e-06	0.01354657	0.008142801	-7.477276e-06	-2.049232e-06
	-2.607288e-06	2.278158e-06	-0.07956512	-0.0476973	-7.698741e-05	2.231439e-05	0.01304881	0.009150671
	0.01354657	0.008142801	-7.698741e-05	2.231439e-05	-0.07787566	-0.0506171	-7.001823e-05	1.770144e-05
	-7.477276e-06	-2.049232e-06	0.01304881	0.009150671	-7.001823e-05	1.770144e-05	-0.07969678	-0.04708737
4.6e+08	-0.09434813	-0.04448452	-2.183545e-06	2.681845e-06	0.01472892	0.006331853	-7.701238e-06	-9.723046e-07
	-2.183545e-06	2.681845e-06	-0.09554618	-0.04080147	-7.200581e-05	3.283244e-05	0.01433187	0.007537912
	0.01472892	0.006331853	-7.200581e-05	3.283244e-05	-0.0941629	-0.04436328	-6.589597e-05	2.734175e-05
	-7.701238e-06	-9.723046e-07	0.01433187	0.007537912	-6.589597e-05	2.734175e-05	-0.09565332	-0.04010722
4.7e+08	-0.1078684	-0.03344724	-1.692116e-06	3.007127e-06	0.01523977	0.004259179	-7.767609e-06	1.220545e-07
	-1.692116e-06	3.007127e-06	-0.1086077	-0.02928668	-6.570608e-05	4.239029e-05	0.01499877	0.005625985
	0.01523977	0.004259179	-6.570608e-05	4.239029e-05	-0.1077103	-0.03337294	-6.055305e-05	3.616812e-05
	-7.767609e-06	1.220545e-07	0.01499877	0.005625985	-6.055305e-05	3.616812e-05	-0.1086677	-0.02851732
