!$
! Info: Touchstone file created by Circ.  Input file=Tx_2in_Rx_93ohms_TxVia_35mils_RxVia_45mils.circ
!$
# Hz S RI R 50
0	0.001971955	4.784211e-26	-1.096568e-05	3.922705e-24	3.075353e-05	3.608914e-24	-1.09781e-05	5.456871e-24
	-1.096569e-05	3.923097e-24	0.001969848	5.318072e-26	-1.094633e-05	1.580712e-24	3.010762e-05	4.353122e-24
	3.126416e-05	3.659366e-24	-1.094633e-05	1.580031e-24	0.001984468	4.651737e-26	-1.096452e-05	3.822382e-24
	-1.09781e-05	5.457142e-24	2.82611e-05	4.374811e-24	-1.096452e-05	3.822942e-24	0.001983083	4.98007e-26
1e+07	0.002914791	0.0003282095	-5.315728e-05	-1.76162e-05	5.537008e-05	0.0005288721	-3.170767e-05	2.317033e-05
	-5.315728e-05	-1.76162e-05	0.002880877	0.0002006517	-5.946373e-07	-1.766182e-06	5.532354e-05	0.0005613166
	5.539997e-05	0.0005288673	-5.946376e-07	-1.766183e-06	0.002743042	0.0002172182	-3.060812e-06	-1.66413e-07
	-3.170767e-05	2.317033e-05	5.526397e-05	0.0005613268	-3.060812e-06	-1.664132e-07	0.002839603	0.0002034603
2e+07	0.003640977	-5.350393e-05	-5.534861e-05	-5.768005e-06	0.0001088409	0.001069548	-4.115151e-05	2.39315e-05
	-5.534861e-05	-5.768004e-06	0.003497926	-0.0002576545	-7.643975e-07	-1.191023e-06	8.077236e-05	0.001126578
	0.0001088423	0.001069526	-7.643977e-07	-1.191022e-06	0.003412031	-0.0001721286	-3.775046e-07	-5.693796e-06
	-4.115151e-05	2.39315e-05	8.076448e-05	0.001126612	-3.775048e-07	-5.693796e-06	0.003468077	-0.0002316297
3e+07	0.004157242	-0.0007295493	-5.701182e-05	-9.252207e-07	0.000184215	0.001607303	-4.814593e-05	2.500151e-05
	-5.701182e-05	-9.252206e-07	0.003924715	-0.0009564529	-1.781098e-06	-1.908356e-06	0.0001456304	0.001673838
	0.0001842089	0.001607301	-1.781098e-06	-1.908356e-06	0.0038848	-0.0008476909	-2.995882e-06	-7.484791e-06
	-4.814593e-05	2.50015e-05	0.0001456304	0.001673843	-2.995882e-06	-7.484791e-06	0.003903904	-0.0009205632
4e+07	0.004547466	-0.00152144	-5.832689e-05	3.116863e-06	0.0002829138	0.002140926	-5.390032e-05	2.531492e-05
	-5.832689e-05	3.116863e-06	0.004234377	-0.001751601	-2.640121e-06	-2.148643e-06	0.0002446425	0.002211643
	0.0002829143	0.00214093	-2.640121e-06	-2.148643e-06	0.004239333	-0.001631992	-5.297456e-06	-8.37535e-06
	-5.390032e-05	2.531492e-05	0.0002446371	0.002211641	-5.297456e-06	-8.37535e-06	0.004221345	-0.001709298
5e+07	0.004841707	-0.002384834	-5.942422e-05	6.556594e-06	0.0004049935	0.002668961	-5.888929e-05	2.497805e-05
	-5.942422e-05	6.556594e-06	0.004453031	-0.002604954	-3.390761e-06	-2.145867e-06	0.0003651276	0.002741208
	0.0004049957	0.002668963	-3.390762e-06	-2.145867e-06	0.004503415	-0.002482485	-7.388369e-06	-8.758867e-06
	-5.888929e-05	2.497805e-05	0.0003651239	0.002741207	-7.388369e-06	-8.758867e-06	0.004446811	-0.002558216
6e+07	0.005054509	-0.003297968	-6.089547e-05	5.654695e-06	0.0005501904	0.003190305	-6.337996e-05	2.403937e-05
	-6.089547e-05	5.654695e-06	0.004593733	-0.003497198	-4.063193e-06	-1.978327e-06	0.0005069095	0.003262267
	0.0005501889	0.003190304	-4.063193e-06	-1.978327e-06	0.004690496	-0.003378313	-9.323743e-06	-8.774374e-06
	-6.337996e-05	2.403937e-05	0.0005069118	0.003262266	-9.323743e-06	-8.774374e-06	0.004593501	-0.003447464
7e+07	0.005194094	-0.004247715	-6.238452e-05	4.720609e-06	0.000718205	0.003704036	-6.754474e-05	2.246583e-05
	-6.238451e-05	4.72061e-06	0.004663942	-0.004416262	-4.663278e-06	-1.680282e-06	0.0006697079	0.003774255
	0.000718199	0.003704036	-4.663278e-06	-1.680282e-06	0.004808226	-0.004306679	-1.11306e-05	-8.477779e-06
	-6.754474e-05	2.246583e-05	0.0006697154	0.003774251	-1.11306e-05	-8.477779e-06	0.004668905	-0.004364748
8e+07	0.005265511	-0.005225248	-6.39297e-05	3.671114e-06	0.0009087382	0.004209395	-7.153736e-05	2.012156e-05
	-6.392969e-05	3.671114e-06	0.004668336	-0.005353161	-5.195318e-06	-1.261109e-06	0.0008531736	0.004276439
	0.0009087302	0.004209396	-5.195318e-06	-1.261109e-06	0.00486141	-0.005258511	-1.281887e-05	-7.878995e-06
	-7.153736e-05	2.012156e-05	0.0008531829	0.004276433	-1.281887e-05	-7.878995e-06	0.004677651	-0.005300982
9e+07	0.00527197	-0.006224606	-6.558236e-05	2.370458e-06	0.001121531	0.004705994	-7.554402e-05	1.664121e-05
	-6.558236e-05	2.370458e-06	0.004610343	-0.00629991	-5.656209e-06	-7.051978e-07	0.001056886	0.004767991
	0.001121525	0.004705997	-5.656209e-06	-7.051978e-07	0.004853408	-0.006226551	-1.438115e-05	-6.933473e-06
	-7.554402e-05	1.664121e-05	0.001056893	0.004767986	-1.438115e-05	-6.933473e-06	0.004623082	-0.006248194
1e+08	0.005214471	-0.007246045	-6.750532e-05	1.868219e-07	0.001356854	0.005196256	-8.008408e-05	1.006806e-05
	-6.750532e-05	1.868219e-07	0.004494125	-0.007244289	-6.009167e-06	1.284549e-07	0.001280365	0.005247974
	0.001356854	0.005196256	-6.009167e-06	1.284549e-07	0.004787239	-0.007203067	-1.573488e-05	-5.305348e-06
	-8.008408e-05	1.006806e-05	0.001280365	0.005247974	-1.573488e-05	-5.305348e-06	0.004509089	-0.007194927
1.1e+08	0.005075654	-0.008275089	-6.722945e-05	-2.356481e-06	0.001599928	0.005676299	-7.744783e-05	2.126876e-06
	-6.722945e-05	-2.356481e-06	0.004345735	-0.008204177	-5.766306e-06	8.194248e-07	0.001522453	0.00571567
	0.001599928	0.005676299	-5.766306e-06	8.194248e-07	0.004673475	-0.008194923	-1.573425e-05	-3.972821e-06
	-7.744783e-05	2.126876e-06	0.001522453	0.00571567	-1.573425e-05	-3.972821e-06	0.004359408	-0.008155614
1.2e+08	0.004880932	-0.009293188	-6.686913e-05	-3.789706e-06	0.001862597	0.006137114	-7.43206e-05	-2.623464e-06
	-6.686913e-05	-3.789706e-06	0.004135127	-0.009173932	-5.5638e-06	1.256553e-06	0.001783186	0.006170645
	0.001862597	0.006137114	-5.5638e-06	1.256553e-06	0.004501182	-0.009191571	-1.585113e-05	-3.193265e-06
	-7.43206e-05	-2.623464e-06	0.001783186	0.006170645	-1.585113e-05	-3.193265e-06	0.00414728	-0.009125307
1.3e+08	0.004632038	-0.01030403	-6.655442e-05	-4.78841e-06	0.00214485	0.006581452	-7.111993e-05	-6.306776e-06
	-6.655442e-05	-4.78841e-06	0.003866182	-0.01014277	-5.375016e-06	1.601279e-06	0.002061983	0.006611933
	0.00214485	0.006581452	-5.375016e-06	1.601279e-06	0.004273455	-0.01018737	-1.602339e-05	-2.583733e-06
	-7.111993e-05	-6.306776e-06	0.002061983	0.006611933	-1.602339e-05	-2.583733e-06	0.003876252	-0.01009394
1.4e+08	0.0043309	-0.01130645	-6.629854e-05	-5.502946e-06	0.002445999	0.007009197	-6.790414e-05	-9.403123e-06
	-6.629854e-05	-5.502946e-06	0.003541333	-0.01110597	-5.317844e-06	1.495935e-06	0.002358182	0.007038673
	0.002445999	0.007009197	-5.317844e-06	1.495935e-06	0.003992489	-0.01117892	-1.623747e-05	-2.058775e-06
	-6.790414e-05	-9.403123e-06	0.002358182	0.007038673	-1.623747e-05	-2.058775e-06	0.003548677	-0.01105676
1.5e+08	0.003979136	-0.01229871	-6.609941e-05	-6.006102e-06	0.002765246	0.007419847	-6.469485e-05	-1.214563e-05
	-6.609941e-05	-6.006102e-06	0.003162562	-0.01205992	-5.262364e-06	1.416941e-06	0.002671064	0.007450046
	0.002765246	0.007419847	-5.262364e-06	1.416941e-06	0.003660051	-0.01216335	-1.64834e-05	-1.57854e-06
	-6.469485e-05	-1.214563e-05	0.002671065	0.007450046	-1.64834e-05	-1.57854e-06	0.003166536	-0.01201009
1.6e+08	0.003578144	-0.01327891	-6.595301e-05	-6.339633e-06	0.003101734	0.007812776	-6.150306e-05	-1.467319e-05
	-6.595301e-05	-6.339633e-06	0.002731604	-0.01300154	-5.207258e-06	1.361964e-06	0.002999868	0.007845278
	0.003101734	0.007812776	-5.207258e-06	1.361964e-06	0.003277653	-0.01313808	-1.6755e-05	-1.11906e-06
	-6.150306e-05	-1.467319e-05	0.002999868	0.007845278	-1.6755e-05	-1.11906e-06	0.002731606	-0.01295078
1.7e+08	0.003129187	-0.01424506	-6.585404e-05	-6.530482e-06	0.003454561	0.008187324	-5.833644e-05	-1.707823e-05
	-6.585404e-05	-6.530482e-06	0.002250046	-0.01392805	-5.152778e-06	1.325214e-06	0.003343787	0.008223631
	0.00345456	0.008187324	-5.152778e-06	1.325214e-06	0.002846651	-0.0141007	-1.704704e-05	-6.645515e-07
	-5.833644e-05	-1.707823e-05	0.003343787	0.008223631	-1.704704e-05	-6.645515e-07	0.002245528	-0.013876
1.8e+08	0.002633459	-0.01519519	-6.579676e-05	-6.597207e-06	0.003822789	0.008542833	-5.520168e-05	-1.942637e-05
	-6.579676e-05	-6.597207e-06	0.00171939	-0.0148369	-5.098971e-06	1.302777e-06	0.003701982	0.008584411
	0.003822789	0.008542833	-5.098971e-06	1.302777e-06	0.002368305	-0.01504895	-1.735475e-05	-2.03972e-07
	-5.520168e-05	-1.942637e-05	0.003701982	0.008584411	-1.735475e-05	-2.03972e-07	0.001709865	-0.01478315
1.9e+08	0.00209213	-0.01612731	-6.57753e-05	-6.553272e-06	0.004205447	0.008878661	-5.210563e-05	-2.176655e-05
	-6.57753e-05	-6.553272e-06	0.001141098	-0.01572568	-5.045789e-06	1.291856e-06	0.00407358	0.008926965
	0.004205446	0.008878661	-5.045789e-06	1.291856e-06	0.001843831	-0.01598063	-1.767359e-05	2.707273e-07
	-5.210563e-05	-2.176655e-05	0.00407358	0.008926965	-1.767359e-05	2.707273e-07	0.001126133	-0.01566981
2e+08	0.001506371	-0.01703948	-6.578382e-05	-6.408841e-06	0.004601529	0.009194194	-4.905554e-05	-2.413639e-05
	-6.578382e-05	-6.408841e-06	0.0005166225	-0.01659212	-4.99313e-06	1.290384e-06	0.004457674	0.009250682
	0.004601529	0.009194194	-4.99313e-06	1.290384e-06	0.001274434	-0.01689367	-1.799919e-05	7.655313e-07
	-4.905554e-05	-2.413639e-05	0.004457674	0.009250682	-1.799919e-05	7.655313e-07	0.0004958328	-0.01653369
2.1e+08	0.0008773301	-0.01792987	-6.581656e-05	-6.171904e-06	0.005015191	0.009486354	-4.605937e-05	-2.656553e-05
	-6.581656e-05	-6.171904e-06	-0.0001525773	-0.01743405	-4.940482e-06	1.296781e-06	0.004853331	0.009554994
	0.005015191	0.009486354	-4.940482e-06	1.296781e-06	0.0006612732	-0.01778611	-1.832469e-05	1.287449e-06
	-4.605937e-05	-2.656553e-05	0.004853331	0.009554994	-1.832469e-05	1.287449e-06	-0.0001795339	-0.01737263
2.2e+08	0.0002062128	-0.01879664	-6.586793e-05	-5.848923e-06	0.005445955	0.009753901	-4.312583e-05	-2.90776e-05
	-6.586793e-05	-5.848923e-06	-0.0008650188	-0.01824941	-4.887646e-06	1.309801e-06	0.005259591	0.009839379
	0.005445955	0.009753901	-4.887646e-06	1.309801e-06	5.557755e-06	-0.01865602	-1.864493e-05	1.840332e-06
	-4.312583e-05	-2.90776e-05	0.005259591	0.009839379	-1.864493e-05	1.840332e-06	-0.0008984476	-0.01818455
2.3e+08	-0.0005056593	-0.01963791	-6.593245e-05	-5.445291e-06	0.005886426	0.009999251	-4.026431e-05	-3.169156e-05
	-6.593245e-05	-5.445291e-06	-0.001619184	-0.01903623	-4.834938e-06	1.328457e-06	0.005675468	0.01010336
	0.005886426	0.009999251	-4.834938e-06	1.328457e-06	-0.0006913957	-0.01950147	-1.895861e-05	2.423575e-06
	-4.026431e-05	-3.169156e-05	0.005675468	0.01010336	-1.895861e-05	2.423575e-06	-0.001659361	-0.01896749
2.4e+08	-0.001256976	-0.02045196	-6.600489e-05	-4.965709e-06	0.006335515	0.01022197	-3.748512e-05	-3.442265e-05
	-6.600489e-05	-4.965709e-06	-0.002413521	-0.01979262	-4.782217e-06	1.351936e-06	0.006099956	0.0103465
	0.006335515	0.01022197	-4.782217e-06	1.351936e-06	-0.001428293	-0.02032066	-1.926162e-05	3.03882e-06
	-3.748512e-05	-3.442265e-05	0.006099956	0.0103465	-1.926162e-05	3.03882e-06	-0.002460698	-0.01971956
2.5e+08	-0.002046383	-0.02123711	-6.608009e-05	-4.414366e-06	0.006792103	0.01042169	-3.479887e-05	-3.728305e-05
	-6.608009e-05	-4.414366e-06	-0.003246433	-0.02051681	-4.729337e-06	1.379572e-06	0.006532026	0.01056843
	0.006792103	0.01042169	-4.729337e-06	1.379572e-06	-0.002203795	-0.02111186	-1.954993e-05	3.687031e-06
	-3.479887e-05	-3.728305e-05	0.006532026	0.01056843	-1.954993e-05	3.687031e-06	-0.003300837	-0.02043897
2.6e+08	-0.00287248	-0.02199177	-6.615307e-05	-3.795126e-06	0.007255054	0.01059808	-3.221684e-05	-4.028227e-05
	-6.615307e-05	-3.795126e-06	-0.004116285	-0.02120709	-4.676149e-06	1.410796e-06	0.006970633	0.01076881
	0.007255054	0.01059808	-4.676149e-06	1.410796e-06	-0.003016525	-0.02187342	-1.98196e-05	4.368629e-06
	-3.221684e-05	-4.028227e-05	0.006970633	0.01076881	-1.98196e-05	4.368629e-06	-0.004178118	-0.02112401
2.7e+08	-0.003733822	-0.02271441	-6.621903e-05	-3.111627e-06	0.007723215	0.01075085	-2.975043e-05	-4.342764e-05
	-6.621903e-05	-3.111627e-06	-0.005021387	-0.02186185	-4.622521e-06	1.44513e-06	0.007414716	0.01094736
	0.007723215	0.01075085	-4.622521e-06	1.44513e-06	-0.003865056	-0.02260376	-2.006681e-05	5.083517e-06
	-2.975043e-05	-4.342764e-05	0.007414716	0.01094736	-2.006681e-05	5.083517e-06	-0.005090835	-0.02177307
2.8e+08	-0.004628922	-0.02340355	-6.62734e-05	-2.36737e-06	0.008195418	0.01087979	-2.74118e-05	-4.672434e-05
	-6.62734e-05	-2.36737e-06	-0.005960016	-0.02247955	-4.568329e-06	1.482153e-06	0.007863202	0.01110384
	0.008195418	0.01087979	-4.568329e-06	1.482153e-06	-0.004747927	-0.02330136	-2.028783e-05	5.831174e-06
	-2.74118e-05	-4.672434e-05	0.007863202	0.01110384	-2.028783e-05	5.831174e-06	-0.006037245	-0.02238461
2.9e+08	-0.005556252	-0.02405782	-6.631178e-05	-1.565795e-06	0.008670485	0.01098473	-2.521327e-05	-5.017571e-05
	-6.631178e-05	-1.565795e-06	-0.006930402	-0.02305876	-4.513452e-06	1.521494e-06	0.008315005	0.01123808
	0.008670485	0.01098473	-4.513452e-06	1.521494e-06	-0.005663631	-0.02396479	-2.047907e-05	6.61067e-06
	-2.521327e-05	-5.017571e-05	0.008315005	0.01123808	-2.047907e-05	6.61067e-06	-0.007015557	-0.02295718
3e+08	-0.006514244	-0.0246759	-6.632989e-05	-7.103407e-07	0.009147229	0.01106556	-2.316706e-05	-5.378357e-05
	-6.632989e-05	-7.103407e-07	-0.007930734	-0.02359813	-4.457768e-06	1.562823e-06	0.008769033	0.01134995
	0.009147229	0.01106556	-4.457768e-06	1.562823e-06	-0.006610621	-0.02459269	-2.063708e-05	7.420686e-06
	-2.316706e-05	-5.378357e-05	0.008769033	0.01134995	-2.063708e-05	7.420686e-06	-0.00802394	-0.02348942
3.1e+08	-0.007501296	-0.02525653	-6.632379e-05	1.955625e-07	0.009624457	0.01112223	-2.128602e-05	-5.754793e-05
	-6.632379e-05	1.955625e-07	-0.008959165	-0.02409639	-4.401174e-06	1.605839e-06	0.009224189	0.01143938
	0.009624457	0.01112223	-4.401174e-06	1.605839e-06	-0.007587314	-0.02518376	-2.075859e-05	8.259586e-06
	-2.128602e-05	-5.754793e-05	0.009224189	0.01143938	-2.075859e-05	8.259586e-06	-0.009060528	-0.02398006
3.2e+08	-0.008515766	-0.02579856	-6.628964e-05	1.148428e-06	0.01010097	0.01115473	-1.958273e-05	-6.146742e-05
	-6.628964e-05	1.148428e-06	-0.01001381	-0.02455236	-4.343567e-06	1.650266e-06	0.009679372	0.01150634
	0.01010097	0.01115473	-4.343567e-06	1.650266e-06	-0.008592088	-0.02573679	-2.084047e-05	9.125408e-06
	-1.958273e-05	-6.146742e-05	0.009679372	0.01150634	-2.084047e-05	9.125408e-06	-0.01012341	-0.02442792
3.3e+08	-0.00955598	-0.02630088	-6.622381e-05	2.144685e-06	0.01057559	0.01116313	-1.806949e-05	-6.55395e-05
	-6.622381e-05	2.144685e-06	-0.01109276	-0.02496497	-4.284848e-06	1.695848e-06	0.01013348	0.01155086
	0.01057559	0.01116313	-4.284848e-06	1.695848e-06	-0.009623285	-0.02625062	-2.087983e-05	1.001589e-05
	-1.806949e-05	-6.55395e-05	0.01013348	0.01155086	-2.087983e-05	1.001589e-05	-0.01121066	-0.02483191
3.4e+08	-0.01062023	-0.02676246	-6.6123e-05	3.180723e-06	0.0110471	0.01114755	-1.675896e-05	-6.976006e-05
	-6.6123e-05	3.180723e-06	-0.01219405	-0.02533321	-4.224934e-06	1.742347e-06	0.01058542	0.01157303
	0.0110471	0.01114755	-4.224934e-06	1.742347e-06	-0.01067922	-0.02672419	-2.087393e-05	1.092851e-05
	-1.675896e-05	-6.976006e-05	0.01058542	0.01157303	-2.087393e-05	1.092851e-05	-0.01232028	-0.025191
3.5e+08	-0.0117068	-0.02718237	-6.598404e-05	4.252829e-06	0.01151433	0.01110816	-1.566324e-05	-7.412395e-05
	-6.598404e-05	4.252829e-06	-0.01331573	-0.02565618	-4.163745e-06	1.789535e-06	0.01103408	0.01157299
	0.01151433	0.01110816	-4.163745e-06	1.789535e-06	-0.01175817	-0.0271565	-2.08203e-05	1.186052e-05
	-1.566324e-05	-7.412395e-05	0.01103408	0.01157299	-2.08203e-05	1.186052e-05	-0.0134503	-0.0255043
3.6e+08	-0.01281392	-0.0275597	-6.580409e-05	5.357228e-06	0.0119761	0.01104519	-1.479449e-05	-7.862462e-05
	-6.580409e-05	5.357228e-06	-0.01445578	-0.02593304	-4.101213e-06	1.837196e-06	0.0114784	0.01155093
	0.0119761	0.01104519	-4.101213e-06	1.837196e-06	-0.01285838	-0.02754663	-2.071666e-05	1.280893e-05
	-1.479449e-05	-7.862462e-05	0.0114784	0.01155093	-2.071666e-05	1.280893e-05	-0.01459868	-0.02577098
3.7e+08	-0.0139398	-0.02789367	-6.558051e-05	6.490056e-06	0.01243124	0.01095893	-1.416437e-05	-8.325453e-05
	-6.558051e-05	6.490056e-06	-0.0156122	-0.02616308	-4.037276e-06	1.885123e-06	0.01191729	0.01150709
	0.01243124	0.01095893	-4.037276e-06	1.885123e-06	-0.0139781	-0.02789372	-2.056099e-05	1.377056e-05
	-1.416437e-05	-8.325453e-05	0.01191729	0.01150709	-2.056099e-05	1.377056e-05	-0.01576338	-0.02599029
3.8e+08	-0.01508265	-0.02818355	-6.531093e-05	7.647366e-06	0.0128786	0.01084973	-1.378413e-05	-8.800515e-05
	-6.531093e-05	7.647366e-06	-0.01678293	-0.02634565	-3.971882e-06	1.933116e-06	0.01234968	0.01144176
	0.0128786	0.01084973	-3.971882e-06	1.933116e-06	-0.01511551	-0.02819702	-2.035152e-05	1.474206e-05
	-1.378413e-05	-8.800515e-05	0.01234968	0.01144176	-2.035152e-05	1.474206e-05	-0.01694233	-0.0261616
3.9e+08	-0.01624064	-0.02842868	-6.499325e-05	8.825149e-06	0.01331705	0.010718	-1.366465e-05	-9.286678e-05
	-6.499325e-05	8.825149e-06	-0.01796594	-0.02648019	-3.904987e-06	1.980978e-06	0.01277454	0.01135529
	0.01331705	0.010718	-3.904987e-06	1.980978e-06	-0.0162688	-0.02845582	-2.008674e-05	1.57199e-05
	-1.366465e-05	-9.286678e-05	0.01277454	0.01135529	-2.008674e-05	1.57199e-05	-0.01813345	-0.02628435
4e+08	-0.01741194	-0.02862848	-6.462561e-05	1.001932e-05	0.01374548	0.01056418	-1.381606e-05	-9.782906e-05
	-6.462561e-05	1.001932e-05	-0.01915915	-0.02656624	-3.836556e-06	2.028522e-06	0.01319083	0.01124807
	0.01374548	0.01056418	-3.836556e-06	2.028522e-06	-0.01743614	-0.02866949	-1.976541e-05	1.670043e-05
	-1.381606e-05	-9.782906e-05	0.01319083	0.01124807	-1.976541e-05	1.670043e-05	-0.01933465	-0.02635807
4.1e+08	-0.01859468	-0.02878245	-6.420645e-05	1.122575e-05	0.01416279	0.01038879	-1.424807e-05	-0.0001028807
	-6.420645e-05	1.122575e-05	-0.02036049	-0.02660342	-3.766566e-06	2.075561e-06	0.01359753	0.01112056
	0.01416279	0.01038879	-3.766566e-06	2.075561e-06	-0.01861567	-0.02883749	-1.938657e-05	1.76799e-05
	-1.424807e-05	-0.0001028807	0.01359753	0.01112056	-1.938657e-05	1.76799e-05	-0.02054382	-0.02638238
4.2e+08	-0.019787	-0.02889015	-6.373451e-05	1.244028e-05	0.01456791	0.01019239	-1.496994e-05	-0.0001080091
	-6.373451e-05	1.244028e-05	-0.02156787	-0.02659144	-3.695003e-06	2.121917e-06	0.01399367	0.01097324
	0.01456791	0.01019239	-3.695003e-06	2.121917e-06	-0.01980553	-0.02895935	-1.894954e-05	1.865445e-05
	-1.496994e-05	-0.0001080091	0.01399367	0.01097324	-1.894954e-05	1.865445e-05	-0.02175886	-0.02635701
4.3e+08	-0.02098702	-0.02895123	-6.320878e-05	1.365873e-05	0.01495982	0.009975591	-1.599012e-05	-0.0001132013
	-6.320878e-05	1.365873e-05	-0.02277923	-0.0265301	-3.621863e-06	2.167411e-06	0.01437828	0.01080665
	0.01495982	0.009975591	-3.621863e-06	2.167411e-06	-0.02100383	-0.02903466	-1.845393e-05	1.962017e-05
	-1.599012e-05	-0.0001132013	0.01437828	0.01080665	-1.845393e-05	1.962017e-05	-0.02297766	-0.02628175
4.4e+08	-0.02219286	-0.0289654	-6.262854e-05	1.487689e-05	0.01533749	0.009739063	-1.731614e-05	-0.0001184437
	-6.262854e-05	1.487689e-05	-0.02399248	-0.02641928	-3.547153e-06	2.211872e-06	0.01475041	0.01062138
	0.01533749	0.009739063	-3.547153e-06	2.211872e-06	-0.0222087	-0.02906311	-1.789963e-05	2.057307e-05
	-1.731614e-05	-0.0001184437	0.01475041	0.01062138	-1.789963e-05	2.057307e-05	-0.02419811	-0.0261565
4.5e+08	-0.02340263	-0.02893247	-6.199362e-05	1.609053e-05	0.01569996	0.009483517	-1.894112e-05	-0.0001237419
	-6.199362e-05	1.609053e-05	-0.02520553	-0.02625896	-3.470886e-06	2.255134e-06	0.01510918	0.01041807
	0.01569996	0.009483517	-3.470886e-06	2.255134e-06	-0.02341823	-0.02904445	-1.728714e-05	2.150918e-05
	-1.894112e-05	-0.0001237419	0.01510918	0.01041807	-1.728714e-05	2.150918e-05	-0.0254181	-0.02598122
4.6e+08	-0.02461445	-0.02885229	-6.126451e-05	1.729507e-05	0.01604628	0.009209713	-2.270922e-05	-0.0001263092
	-6.126451e-05	1.729507e-05	-0.02641633	-0.02604919	-3.393329e-06	2.296586e-06	0.01545369	0.01019739
	0.01604628	0.009209713	-3.393329e-06	2.296586e-06	-0.02463054	-0.02897851	-1.657595e-05	2.242279e-05
	-2.270922e-05	-0.0001263092	0.01545369	0.01019739	-1.657595e-05	2.242279e-05	-0.02663554	-0.025756
4.7e+08	-0.02582641	-0.02872481	-6.047545e-05	1.8484e-05	0.01637556	0.008918455	-2.685532e-05	-0.0001285327
