!$
! Info: Touchstone file created by Circ.  Input file=Tx_2in_Rx_100ohms_TxVia_35mils_RxVia_45mils.circ
!$
# Hz S RI R 50
0	0.00221616	4.96501e-26	-1.095233e-05	4.20342e-26	3.148987e-05	4.07804e-24	-1.095218e-05	3.402011e-26
	-1.095233e-05	4.243433e-26	0.002212748	5.320554e-26	-1.095213e-05	4.726524e-26	3.011585e-05	4.905654e-24
	3.201478e-05	4.131125e-24	-1.095213e-05	4.659579e-26	0.002224529	4.845257e-26	-1.095271e-05	1.290487e-25
	-1.095218e-05	3.429792e-26	2.826928e-05	4.930055e-24	-1.095272e-05	1.295959e-25	0.002225979	4.982431e-26
1e+07	0.003051756	0.00172988	-3.79573e-07	-2.182151e-06	4.967214e-05	0.000554921	-2.183497e-07	-2.994592e-06
	-3.795731e-07	-2.182151e-06	0.003144238	0.001743177	-2.602753e-07	-6.468144e-07	0.0001205588	0.0005687723
	4.969582e-05	0.0005549223	-2.602753e-07	-6.468144e-07	0.002949293	0.001788422	-6.443207e-07	-8.881535e-07
	-2.183497e-07	-2.994592e-06	0.0001204992	0.0005687824	-6.443207e-07	-8.881535e-07	0.003127746	0.001752984
2e+07	0.003834838	0.002823327	-1.010452e-06	-1.190013e-07	8.870006e-05	0.0011141	-2.087803e-07	-1.132241e-06
	-1.010452e-06	-1.190013e-07	0.003914025	0.002811267	-3.270972e-06	-5.077744e-06	0.0001266558	0.001164708
	8.870796e-05	0.001114085	-3.270972e-06	-5.077744e-06	0.003806255	0.002966819	-4.167128e-06	-5.139132e-06
	-2.087804e-07	-1.132241e-06	0.0001266478	0.001164742	-4.167128e-06	-5.139132e-06	0.003905459	0.002841772
3e+07	0.004484306	0.003622454	-1.577146e-06	-6.431571e-07	0.0001535297	0.001662834	-2.149414e-07	-6.884591e-07
	-1.577146e-06	-6.43157e-07	0.004549774	0.00360283	-5.982718e-06	-6.118328e-06	0.0001646896	0.001723892
	0.0001535297	0.001662831	-5.982718e-06	-6.118328e-06	0.004514647	0.003795797	-6.894156e-06	-6.11051e-06
	-2.149414e-07	-6.884591e-07	0.0001646896	0.001723897	-6.894156e-06	-6.11051e-06	0.00454823	0.003646144
4e+07	0.005078657	0.004302037	-2.054333e-06	-8.151537e-07	0.0002437385	0.002205051	-2.194116e-07	-4.620671e-07
	-2.054333e-06	-8.151537e-07	0.00512878	0.004278704	-8.271293e-06	-6.272748e-06	0.0002363783	0.002269865
	0.0002437404	0.002205053	-8.271293e-06	-6.272748e-06	0.00516035	0.004488855	-9.19356e-06	-6.207884e-06
	-2.194116e-07	-4.620671e-07	0.0002363729	0.002269863	-9.19356e-06	-6.207884e-06	0.005134009	0.004332558
5e+07	0.005645531	0.004902641	-2.469105e-06	-8.187195e-07	0.0003586324	0.00274031	-2.214222e-07	-3.168762e-07
	-2.469105e-06	-8.187195e-07	0.005678203	0.004878033	-1.026506e-05	-5.922664e-06	0.0003704572	0.002801298
	0.0003586337	0.00274031	-1.026506e-05	-5.922664e-06	0.005773544	0.005092899	-1.119476e-05	-5.803722e-06
	-2.214222e-07	-3.168762e-07	0.0003704536	0.002801297	-1.119476e-05	-5.803722e-06	0.005690073	0.004940999
6e+07	0.006197997	0.005442993	-2.833849e-06	-7.150946e-07	0.000497558	0.003267886	-2.207862e-07	-2.110611e-07
	-2.833849e-06	-7.150946e-07	0.00621123	0.005419228	-1.202407e-05	-5.207801e-06	0.0005244054	0.003321936
	0.0004975555	0.003267886	-1.202407e-05	-5.207801e-06	0.006368405	0.005629056	-1.29582e-05	-5.034889e-06
	-2.207862e-07	-2.110611e-07	0.0005244077	0.003321935	-1.29582e-05	-5.034889e-06	0.006229668	0.005490175
7e+07	0.006743171	0.005933685	-3.154333e-06	-5.295608e-07	0.0006640172	0.003786328	-2.172058e-07	-1.272791e-07
	-3.154333e-06	-5.295607e-07	0.006734994	0.005912624	-1.35766e-05	-4.184625e-06	0.0006981346	0.003831617
	0.0006640112	0.003786329	-1.35766e-05	-4.184625e-06	0.006952554	0.006108942	-1.451298e-05	-3.957338e-06
	-2.172057e-07	-1.27279e-07	0.0006981422	0.003831614	-1.451298e-05	-3.957338e-06	0.006759902	0.005990523
8e+07	0.007285233	0.006381668	-3.432303e-06	-2.706513e-07	0.000853438	0.004295323	-2.104049e-07	-5.710362e-08
	-3.432303e-06	-2.706513e-07	0.007253558	0.006365107	-1.493236e-05	-2.862813e-06	0.0008913722	0.004329731
	0.0008534306	0.004295326	-1.493236e-05	-2.862813e-06	0.007530322	0.006539679	-1.586845e-05	-2.57905e-06
	-2.104048e-07	-5.71036e-08	0.0008913816	0.004329725	-1.586845e-05	-2.57905e-06	0.007284764	0.006448973
9e+07	0.007826876	0.006792346	-3.665133e-06	6.849262e-08	0.001065077	0.004794249	-1.998632e-07	4.048446e-09
	-3.665132e-06	6.849262e-08	0.007769517	0.006782287	-1.608024e-05	-1.192069e-06	0.001103656	0.004815232
	0.001065071	0.004794251	-1.608024e-05	-1.192069e-06	0.008104155	0.006925706	-1.7013e-05	-8.471461e-07
	-1.998631e-07	4.048455e-09	0.001103663	0.004815227	-1.7013e-05	-8.471461e-07	0.007806746	0.006871122
1e+08	0.008370958	0.007173774	-3.828012e-06	5.676621e-07	0.001298804	0.005283593	-1.833487e-07	5.956681e-08
	-3.828012e-06	5.676621e-07	0.00828583	0.007172999	-1.690759e-05	1.218194e-06	0.001333924	0.00528513
	0.001298804	0.005283593	-1.690759e-05	1.218194e-06	0.008674802	0.007267695	-1.783206e-05	1.63882e-06
	-1.833487e-07	5.956681e-08	0.001333924	0.00528513	-1.783206e-05	1.63882e-06	0.008328602	0.007265355
1.1e+08	0.008935562	0.007508944	-3.640001e-06	9.796859e-07	0.001558374	0.0057585	-1.729316e-07	1.039932e-07
	-3.640001e-06	9.796859e-07	0.008823456	0.007520114	-1.607182e-05	3.215241e-06	0.001573796	0.005744928
	0.001558374	0.0057585	-1.607182e-05	3.215241e-06	0.009235184	0.007570731	-1.694909e-05	3.701983e-06
	-1.729316e-07	1.039932e-07	0.001573796	0.005744928	-1.694909e-05	3.701983e-06	0.008870152	0.007617009
1.2e+08	0.009497186	0.007804632	-3.589458e-06	8.540203e-07	0.001837357	0.006217099	-1.806639e-07	9.99026e-08
	-3.589458e-06	8.540203e-07	0.00935614	0.007828107	-1.539512e-05	4.393827e-06	0.001832958	0.006195856
	0.001837357	0.006217099	-1.539512e-05	4.393827e-06	0.009795066	0.00784671	-1.641015e-05	4.264143e-06
	-1.806639e-07	9.99026e-08	0.001832958	0.006195856	-1.641015e-05	4.264143e-06	0.009406883	0.007929512
1.3e+08	0.01005824	0.008067173	-3.545989e-06	7.621512e-07	0.002135382	0.006660058	-1.963336e-07	8.531313e-08
	-3.545989e-06	7.621512e-07	0.009886272	0.008104255	-1.52091e-05	3.867894e-06	0.002110401	0.006634554
	0.002135382	0.006660058	-1.52091e-05	3.867894e-06	0.01035522	0.008093605	-1.621268e-05	3.718714e-06
	-1.963336e-07	8.531313e-08	0.002110401	0.006634554	-1.621268e-05	3.718714e-06	0.009940894	0.008209796
1.4e+08	0.01061968	0.008298396	-3.501493e-06	6.97953e-07	0.002451785	0.00708683	-2.112155e-07	7.398079e-08
	-3.501493e-06	6.97953e-07	0.01041483	0.008350817	-1.501887e-05	3.483069e-06	0.002405392	0.00705965
	0.002451785	0.007086829	-1.501887e-05	3.483069e-06	0.01091624	0.008311503	-1.60123e-05	3.31697e-06
	-2.112155e-07	7.398079e-08	0.002405392	0.00705965	-1.60123e-05	3.31697e-06	0.01047307	0.008460196
1.5e+08	0.01118185	0.008499324	-3.457037e-06	6.521648e-07	0.002785811	0.007496721	-2.254611e-07	6.528314e-08
	-3.457037e-06	6.521648e-07	0.01094225	0.008569126	-1.482963e-05	3.192435e-06	0.0027172	0.007470094
	0.002785811	0.007496721	-1.482963e-05	3.192435e-06	0.01147834	0.008500626	-1.581386e-05	3.012164e-06
	-2.254611e-07	6.528314e-08	0.0027172	0.007470094	-1.581386e-05	3.012164e-06	0.01100384	0.008682141
1.6e+08	0.01174471	0.008670635	-3.41305e-06	6.195323e-07	0.003136654	0.007889008	-2.391531e-07	5.87733e-08
	-3.41305e-06	6.195323e-07	0.01146865	0.008760105	-1.464331e-05	2.969932e-06	0.003045063	0.007864981
	0.003136654	0.007889008	-1.464331e-05	2.969932e-06	0.01204143	0.008661195	-1.561926e-05	2.77756e-06
	-2.391531e-07	5.87733e-08	0.003045063	0.007864981	-1.561926e-05	2.77756e-06	0.01153335	0.008876623
1.7e+08	0.01230798	0.008812837	-3.36971e-06	5.967207e-07	0.003503459	0.008262974	-2.523438e-07	5.411368e-08
	-3.36971e-06	5.967207e-07	0.01199392	0.008924451	-1.446071e-05	2.798875e-06	0.003388189	0.008243491
	0.003503459	0.008262974	-1.446071e-05	2.798875e-06	0.01260519	0.008793411	-1.542927e-05	2.596035e-06
	-2.523438e-07	5.411368e-08	0.003388189	0.008243491	-1.542927e-05	2.596035e-06	0.0120615	0.009044388
1.8e+08	0.01287121	0.008926348	-3.327076e-06	5.8147e-07	0.003885335	0.008617927	-2.650682e-07	5.104371e-08
	-3.327076e-06	5.8147e-07	0.01251777	0.009062733	-1.428205e-05	2.667892e-06	0.003745755	0.008604876
	0.003885335	0.008617927	-1.428205e-05	2.667892e-06	0.01316913	0.008897473	-1.524406e-05	2.455908e-06
	-2.650682e-07	5.104371e-08	0.003745755	0.008604876	-1.524406e-05	2.455908e-06	0.01258805	0.009186032
1.9e+08	0.0134338	0.009011539	-3.285212e-06	5.722313e-07	0.004281354	0.008953202	-2.773519e-07	4.936046e-08
	-3.285212e-06	5.722313e-07	0.01303978	0.009175448	-1.410731e-05	2.56882e-06	0.004116907	0.008948441
	0.004281354	0.008953202	-1.410731e-05	2.56882e-06	0.01373264	0.008973588	-1.506356e-05	2.348793e-06
	-2.773519e-07	4.936046e-08	0.004116907	0.008948441	-1.506356e-05	2.348793e-06	0.01311263	0.00930206
2e+08	0.01399508	0.009068757	-3.244077e-06	5.678064e-07	0.004690555	0.009268173	-2.892122e-07	4.889521e-08
	-3.244077e-06	5.678064e-07	0.01355948	0.00926304	-1.393633e-05	2.495601e-06	0.004500763	0.009273543
	0.004690555	0.009268173	-1.393633e-05	2.495601e-06	0.01429504	0.009021968	-1.488759e-05	2.268466e-06
	-2.892122e-07	4.889521e-08	0.004500763	0.009273543	-1.488759e-05	2.268466e-06	0.01363477	0.009392921
2.1e+08	0.0145543	0.009098337	-3.203578e-06	5.67233e-07	0.005111946	0.009562251	-3.006632e-07	4.950764e-08
	-3.203578e-06	5.67233e-07	0.0140763	0.009325929	-1.376891e-05	2.443591e-06	0.004896413	0.009579588
	0.005111946	0.009562251	-1.376891e-05	2.443591e-06	0.01485554	0.009042839	-1.47159e-05	2.210155e-06
	-3.006632e-07	4.950764e-08	0.004896413	0.009579588	-1.47159e-05	2.210155e-06	0.01415393	0.009459024
2.2e+08	0.01511069	0.009100612	-3.163671e-06	5.698038e-07	0.005544507	0.009834893	-3.117161e-07	5.108367e-08
	-3.163671e-06	5.698038e-07	0.01458963	0.009364515	-1.36048e-05	2.409171e-06	0.005302922	0.00986603
	0.005544507	0.009834893	-1.36048e-05	2.409171e-06	0.01541335	0.00903645	-1.454822e-05	2.170145e-06
	-3.117161e-07	5.108367e-08	0.005302922	0.00986603	-1.454822e-05	2.170145e-06	0.01466952	0.009500766
2.3e+08	0.01566342	0.009075928	-3.124307e-06	5.749594e-07	0.005987193	0.0100856	-3.223796e-07	5.352775e-08
	-3.124307e-06	5.749594e-07	0.01509885	0.009379201	-1.344375e-05	2.389477e-06	0.005719331	0.01013237
	0.005987193	0.0100856	-1.344375e-05	2.389477e-06	0.01596762	0.00900307	-1.438425e-05	2.14549e-06
	-3.223796e-07	5.352775e-08	0.005719331	0.01013237	-1.438425e-05	2.14549e-06	0.0151809	0.009518541
2.4e+08	0.01621166	0.009024632	-3.085444e-06	5.822441e-07	0.006438933	0.01031391	-3.326616e-07	5.675742e-08
	-3.085444e-06	5.822441e-07	0.01560328	0.009370378	-1.328554e-05	2.382163e-06	0.006144658	0.01037816
	0.006438933	0.01031391	-1.328554e-05	2.382163e-06	0.01651746	0.008942986	-1.422374e-05	2.133786e-06
	-3.326616e-07	5.675742e-08	0.006144658	0.01037816	-1.422374e-05	2.133786e-06	0.01568741	0.009512732
2.5e+08	0.01675453	0.008947091	-3.04704e-06	5.912877e-07	0.006898637	0.01051942	-3.425683e-07	6.070245e-08
	-3.04704e-06	5.912877e-07	0.01610226	0.009338451	-1.312993e-05	2.385329e-06	0.006577903	0.01060298
	0.006898637	0.01051942	-1.312993e-05	2.385329e-06	0.01706199	0.008856517	-1.406643e-05	2.133081e-06
	-3.425683e-07	6.070245e-08	0.006577903	0.01060298	-1.406643e-05	2.133081e-06	0.01618838	0.009483742
2.6e+08	0.01729118	0.00884368	-3.009056e-06	6.017827e-07	0.007365191	0.01070179	-3.521055e-07	6.530152e-08
	-3.009056e-06	6.017827e-07	0.01659508	0.009283827	-1.297671e-05	2.397388e-06	0.007018047	0.0108065
	0.007365191	0.01070179	-1.297671e-05	2.397388e-06	0.01760029	0.008743998	-1.39121e-05	2.14175e-06
	-3.521055e-07	6.530152e-08	0.007018047	0.0108065	-1.39121e-05	2.14175e-06	0.0166831	0.009431971
2.7e+08	0.01782072	0.008714799	-2.971455e-06	6.134727e-07	0.007837469	0.01086069	-3.612777e-07	7.050144e-08
	-2.971455e-06	6.134727e-07	0.01708106	0.009206922	-1.282567e-05	2.417021e-06	0.007464054	0.01098839
	0.007837469	0.01086069	-1.282567e-05	2.417021e-06	0.01813147	0.008605798	-1.37605e-05	2.158442e-06
	-3.612777e-07	7.050144e-08	0.007464054	0.01098839	-1.37605e-05	2.158442e-06	0.01717087	0.009357835
2.8e+08	0.01834227	0.00856087	-2.934207e-06	6.261405e-07	0.008314326	0.01099589	-3.700895e-07	7.625481e-08
	-2.934207e-06	6.261405e-07	0.01755949	0.009108167	-1.267663e-05	2.443104e-06	0.007914876	0.01114841
	0.008314326	0.01099589	-1.267663e-05	2.443104e-06	0.01865459	0.008442311	-1.361144e-05	2.182009e-06
	-3.700895e-07	7.625481e-08	0.007914876	0.01114841	-1.361144e-05	2.182009e-06	0.01765099	0.009261772
2.9e+08	0.01885495	0.008382331	-2.897284e-06	6.396014e-07	0.008794607	0.01110718	-3.785448e-07	8.251972e-08
	-2.897284e-06	6.396014e-07	0.01802968	0.008988006	-1.252943e-05	2.474682e-06	0.008369452	0.01128634
	0.008794607	0.01110718	-1.252943e-05	2.474682e-06	0.01916874	0.008253958	-1.346474e-05	2.211474e-06
	-3.785448e-07	8.251972e-08	0.008369452	0.01128634	-1.346474e-05	2.211474e-06	0.01812275	0.009144223
3e+08	0.01935788	0.008179645	-2.860657e-06	6.536972e-07	0.009277147	0.01119441	-3.866473e-07	8.925897e-08
	-2.860657e-06	6.536972e-07	0.01849094	0.008846895	-1.238391e-05	2.510936e-06	0.008826713	0.01140203
	0.009277147	0.01119441	-1.238391e-05	2.510936e-06	0.019673	0.00804119	-1.33202e-05	2.246003e-06
	-3.866473e-07	8.925897e-08	0.008826713	0.01140203	-1.33202e-05	2.246003e-06	0.01858545	0.009005654
3.1e+08	0.01985019	0.007953306	-2.82431e-06	6.682917e-07	0.009760774	0.01125751	-3.944004e-07	9.643884e-08
	-2.82431e-06	6.682917e-07	0.01894256	0.008685311	-1.223993e-05	2.551156e-06	0.009285584	0.01149538
	0.009760774	0.01125751	-1.223993e-05	2.551156e-06	0.02016647	0.007804493	-1.31777e-05	2.284876e-06
	-3.944004e-07	9.643884e-08	0.009285584	0.01149538	-1.31777e-05	2.284876e-06	0.01903838	0.008846547
3.2e+08	0.020331	0.007703829	-2.788221e-06	6.832667e-07	0.01024431	0.01129642	-4.018076e-07	1.040291e-07
	-2.788221e-06	6.832667e-07	0.01938386	0.008503741	-1.209737e-05	2.594725e-06	0.009744982	0.01156633
	0.01024431	0.01129642	-1.209737e-05	2.594725e-06	0.02064824	0.007544371	-1.303708e-05	2.327467e-06
	-4.018076e-07	1.040291e-07	0.009744982	0.01156633	-1.303708e-05	2.327467e-06	0.01948085	0.008667402
3.3e+08	0.02079946	0.007431755	-2.752371e-06	6.985189e-07	0.01072658	0.01131118	-4.088718e-07	1.120026e-07
	-2.752371e-06	6.985189e-07	0.01981417	0.008302699	-1.19561e-05	2.641103e-06	0.01020383	0.01161487
	0.01072658	0.01131118	-1.19561e-05	2.641103e-06	0.02111742	0.007261373	-1.289819e-05	2.373228e-06
	-4.088718e-07	1.120026e-07	0.01020383	0.01161487	-1.289819e-05	2.373228e-06	0.01991218	0.008468735
3.4e+08	0.02125471	0.007137663	-2.716748e-06	7.139587e-07	0.01120641	0.01130187	-4.155959e-07	1.203343e-07
	-2.716748e-06	7.139587e-07	0.02023282	0.008082712	-1.181603e-05	2.689817e-06	0.01066104	0.01164106
	0.01120641	0.01130187	-1.181603e-05	2.689817e-06	0.02157312	0.006956071	-1.276094e-05	2.421684e-06
	-4.155959e-07	1.203343e-07	0.01066104	0.01164106	-1.276094e-05	2.421684e-06	0.02033171	0.008251089
3.5e+08	0.02169592	0.006822148	-2.681339e-06	7.295065e-07	0.01168261	0.01126861	-4.219829e-07	1.290014e-07
	-2.681339e-06	7.295065e-07	0.02063916	0.007844328	-1.167705e-05	2.740445e-06	0.01111553	0.01164499
	0.01168261	0.01126861	-1.167705e-05	2.740445e-06	0.02201448	0.006629075	-1.262519e-05	2.472411e-06
	-4.219829e-07	1.290014e-07	0.01111553	0.01164499	-1.262519e-05	2.472411e-06	0.02073877	0.00801502
3.6e+08	0.02212227	0.006485842	-2.64613e-06	7.45091e-07	0.01215403	0.01121159	-4.280352e-07	1.37983e-07
	-2.64613e-06	7.45091e-07	0.02103254	0.007588115	-1.153908e-05	2.792617e-06	0.01156623	0.01162682
	0.01215403	0.01121159	-1.153908e-05	2.792617e-06	0.02244064	0.006281018	-1.249086e-05	2.525038e-06
	-4.280352e-07	1.37983e-07	0.01156623	0.01162682	-1.249086e-05	2.525038e-06	0.02113271	0.007761107
3.7e+08	0.02253295	0.006129409	-2.611117e-06	7.606523e-07	0.01261951	0.01113106	-4.337558e-07	1.472602e-07
	-2.611117e-06	7.606523e-07	0.02141234	0.007314658	-1.140204e-05	2.846001e-06	0.01201208	0.01158675
	0.01261951	0.01113106	-1.140204e-05	2.846001e-06	0.02285078	0.005912576	-1.235786e-05	2.579235e-06
	-4.337558e-07	1.472602e-07	0.01201208	0.01158675	-1.235786e-05	2.579235e-06	0.02151291	0.007489948
3.8e+08	0.02292717	0.005753535	-2.576293e-06	7.761365e-07	0.01307789	0.01102731	-4.391471e-07	1.568156e-07
	-2.576293e-06	7.761365e-07	0.02177794	0.007024567	-1.126588e-05	2.9003e-06	0.01245201	0.01152503
	0.01307789	0.01102731	-1.126588e-05	2.9003e-06	0.02324407	0.005524451	-1.222611e-05	2.634706e-06
	-4.391471e-07	1.568156e-07	0.01245201	0.01152503	-1.222611e-05	2.634706e-06	0.02187876	0.007202162
3.9e+08	0.02330417	0.005358944	-2.541651e-06	7.914953e-07	0.01352806	0.01090071	-4.442118e-07	1.666331e-07
	-2.541651e-06	7.914953e-07	0.02212875	0.006718469	-1.113052e-05	2.955248e-06	0.01288499	0.01144197
	0.01352806	0.01090071	-1.113052e-05	2.955248e-06	0.02361973	0.005117378	-1.209551e-05	2.691189e-06
	-4.442118e-07	1.666331e-07	0.01288499	0.01144197	-1.209551e-05	2.691189e-06	0.02222966	0.006898389
4e+08	0.02366321	0.00494638	-2.507187e-06	8.066856e-07	0.01396889	0.01075165	-4.48952e-07	1.766978e-07
	-2.507187e-06	8.066856e-07	0.0224642	0.006397014	-1.09959e-05	3.010603e-06	0.01330998	0.01133791
	0.01396889	0.01075165	-1.09959e-05	3.010603e-06	0.02397699	0.004692123	-1.196601e-05	2.748446e-06
	-4.48952e-07	1.766978e-07	0.01330998	0.01133791	-1.196601e-05	2.748446e-06	0.02256503	0.006579288
4.1e+08	0.02400357	0.004516631	-2.472898e-06	8.216699e-07	0.01439928	0.0105806	-4.533698e-07	1.869958e-07
	-2.472898e-06	8.216699e-07	0.02278372	0.00606087	-1.086198e-05	3.066149e-06	0.01372598	0.01121325
	0.01439928	0.0105806	-1.086198e-05	3.066149e-06	0.02431511	0.004249487	-1.183754e-05	2.806266e-06
	-4.533698e-07	1.869958e-07	0.01372598	0.01121325	-1.183754e-05	2.806266e-06	0.02288434	0.00624554
4.2e+08	0.02432455	0.004070496	-2.438782e-06	8.364145e-07	0.01481816	0.01038807	-4.574676e-07	1.975145e-07
	-2.438782e-06	8.364145e-07	0.0230868	0.005710725	-1.072872e-05	3.12169e-06	0.01413199	0.01106846
	0.01481816	0.01038807	-1.072872e-05	3.12169e-06	0.02463336	0.003790295	-1.171004e-05	2.864457e-06
	-4.574676e-07	1.975145e-07	0.01413199	0.01106846	-1.171004e-05	2.864457e-06	0.02318703	0.00589784
4.3e+08	0.0246255	0.003608818	-2.404839e-06	8.508901e-07	0.01522449	0.01017462	-4.61247e-07	2.08242e-07
	-2.404839e-06	8.508901e-07	0.0233729	0.005347286	-1.059608e-05	3.177049e-06	0.01452703	0.01090401
	0.01522449	0.01017462	-1.059608e-05	3.177049e-06	0.02493107	0.003315407	-1.158347e-05	2.92285e-06
	-4.61247e-07	2.08242e-07	0.01452703	0.01090401	-1.158347e-05	2.92285e-06	0.0234726	0.005536911
4.4e+08	0.02490578	0.003132455	-2.371066e-06	8.650698e-07	0.01561724	0.009940871	-4.647099e-07	2.191673e-07
	-2.371066e-06	8.650698e-07	0.02364155	0.00497128	-1.046403e-05	3.232062e-06	0.01491017	0.01072046
	0.01561724	0.009940871	-1.046403e-05	3.232062e-06	0.02520758	0.002825709	-1.145777e-05	2.981286e-06
	-4.647099e-07	2.191673e-07	0.01491017	0.01072046	-1.145777e-05	2.981286e-06	0.02374058	0.005163484
4.5e+08	0.02516478	0.002642303	-2.337466e-06	8.789302e-07	0.01599542	0.00968748	-4.67858e-07	2.302801e-07
	-2.337466e-06	8.789302e-07	0.02389229	0.004583451	-1.033253e-05	3.286581e-06	0.01528048	0.01051838
	0.01599542	0.00968748	-1.033253e-05	3.286581e-06	0.02546228	0.00232212	-1.13329e-05	3.039623e-06
	-4.67858e-07	2.302801e-07	0.01528048	0.01051838	-1.13329e-05	3.039623e-06	0.0239905	0.004778318
4.6e+08	0.02540194	0.002139273	-2.304038e-06	8.924511e-07	0.01635807	0.009415158	-4.706927e-07	2.415709e-07
	-2.304038e-06	8.924511e-07	0.02412467	0.004184561	-1.020156e-05	3.340452e-06	0.01563706	0.01029841
	0.01635807	0.009415158	-1.020156e-05	3.340452e-06	0.02569456	0.001805577	-1.120883e-05	3.097733e-06
	-4.706927e-07	2.415709e-07	0.01563706	0.01029841	-1.120883e-05	3.097733e-06	0.02422192	0.004382182
4.7e+08	0.02561671	0.001624306	-2.270784e-06	9.056135e-07	0.01670425	0.00912466	-4.732128e-07	2.530288e-07
	-2.270784e-06	9.056135e-07	0.02433829	0.003775391	-1.007105e-05	3.393472e-06	0.01597906	0.01006122
	0.01670425	0.00912466	-1.007105e-05	3.393472e-06	0.02590388	0.00127705	-1.108549e-05	3.155478e-06
	-4.732128e-07	2.530288e-07	0.01597906	0.01006122	-1.108549e-05	3.155478e-06	0.02443444	0.003975862
4.8e+08	0.02580861	0.001098366	-2.237707e-06	9.184029e-07	0.01703307	0.008816786	-4.754216e-07	2.646472e-07
