!$
! Info: Touchstone file created by Circ.  Input file=Tx_2in_Rx_93ohms_TxVia_35mils_RxVia_45mils.circ
!$
# Hz S RI R 50
0	0.001970929	4.715714e-26	0.9978882	-4.222049e-26	2.968459e-05	3.66501e-24	-2.776355e-05	2.066758e-21
	0.9978882	-4.34379e-26	0.001969848	5.318072e-26	-2.813649e-05	2.112441e-21	3.010762e-05	4.353122e-24
	2.785014e-05	3.763845e-24	-2.82649e-05	2.128189e-21	0.001983676	4.497169e-26	0.9978722	-3.94927e-26
	-2.814508e-05	2.113504e-21	2.82611e-05	4.374811e-24	0.9978722	-3.945203e-26	0.001983083	4.98007e-26
1e+07	0.00288264	0.0002008497	0.9967713	-0.02347042	5.605624e-05	0.0005611634	-4.339411e-05	-9.316126e-05
	0.9967712	-0.02347042	0.002880877	0.0002006517	-4.339771e-05	-9.315074e-05	5.532354e-05	0.0005613166
	5.599706e-05	0.0005611673	-4.345646e-05	-9.314228e-05	0.002841662	0.0002035991	0.9968101	-0.02356339
	-4.345286e-05	-9.31528e-05	5.526397e-05	0.0005613268	0.9968101	-0.02356339	0.002839603	0.0002034603
2e+07	0.003505057	-0.0002573378	0.9952639	-0.04619885	8.364815e-05	0.001126108	-3.581381e-05	-0.0001926554
	0.9952639	-0.04619885	0.003497926	-0.0002576545	-3.581904e-05	-0.0001926576	8.077236e-05	0.001126578
	8.363619e-05	0.001126145	-3.583502e-05	-0.0001926167	0.003476366	-0.0002314689	0.9952842	-0.04640471
	-3.583188e-05	-0.0001926137	8.076448e-05	0.001126612	0.9952842	-0.04640471	0.003468077	-0.0002316297
3e+07	0.003940527	-0.0009567404	0.9934107	-0.068632	0.0001520022	0.001672803	-4.699556e-05	-0.0002772277
	0.9934107	-0.068632	0.003924715	-0.0009564529	-4.702637e-05	-0.0002772223	0.0001456304	0.001673838
	0.0001520047	0.001672809	-4.702528e-05	-0.0002772156	0.003922243	-0.0009212464	0.9934108	-0.06893719
	-4.699459e-05	-0.0002772206	0.0001456304	0.001673843	0.9934108	-0.06893719	0.003903904	-0.0009205632
4e+07	0.004262335	-0.001752988	0.9911367	-0.09091179	0.0002558485	0.002209735	-7.17213e-05	-0.0003560631
	0.9911367	-0.09091179	0.004234377	-0.001751601	-7.177025e-05	-0.0003560473	0.0002446425	0.002211643
	0.0002558437	0.00220973	-7.177603e-05	-0.0003560528	0.004253722	-0.001711395	0.9911132	-0.0913124
	-7.17273e-05	-0.0003560692	0.0002446371	0.002211641	0.9911132	-0.0913124	0.004221345	-0.001709298
5e+07	0.004496691	-0.00260849	0.9884177	-0.1130658	0.0003824818	0.002738002	-9.742586e-05	-0.000431655
	0.9884177	-0.1130658	0.004453031	-0.002604954	-9.749906e-05	-0.0004316327	0.0003651276	0.002741208
	0.0003824776	0.002738001	-9.750399e-05	-0.0004316351	0.004497327	-0.00256296	0.9883673	-0.113559
	-9.743109e-05	-0.0004316577	0.0003651239	0.002741207	0.9883673	-0.113559	0.004446811	-0.002558216
6e+07	0.004656355	-0.003504203	0.9852438	-0.1351033	0.0005316753	0.003257252	-0.0001244028	-0.0005048724
	0.9852438	-0.1351033	0.004593733	-0.003497198	-0.0001245093	-0.0005048403	0.0005069095	0.003262267
	0.0005316792	0.003257252	-0.0001245047	-0.0005048394	0.004665896	-0.003456403	0.9851629	-0.1356868
	-0.0001243977	-0.0005048713	0.0005069118	0.003262266	0.9851629	-0.1356868	0.004593501	-0.003447464
7e+07	0.004748664	-0.004428106	0.9816096	-0.1570262	0.0007031069	0.003766849	-0.0001528014	-0.0005760897
	0.9816096	-0.1570262	0.004663942	-0.004416262	-0.0001529468	-0.0005760408	0.0006697079	0.003774255
	0.0007031187	0.003766846	-0.0001529317	-0.0005760411	0.004766776	-0.004379468	0.9814948	-0.1576977
	-0.0001527849	-0.0005760898	0.0006697154	0.003774251	0.9814948	-0.1576977	0.004668905	-0.004364748
8e+07	0.004778338	-0.005371331	0.9775123	-0.1788323	0.0008963981	0.004265993	-0.0001826063	-0.0006455159
	0.9775123	-0.1788323	0.004668336	-0.005353161	-0.0001827928	-0.0006454426	0.0008531736	0.004276439
	0.0008964127	0.004265986	-0.0001827729	-0.0006454464	0.004804668	-0.005323196	0.9773601	-0.1795898
	-0.0001825846	-0.00064552	0.0008531829	0.004276433	0.9773601	-0.1795898	0.004677651	-0.005300982
9e+07	0.004748863	-0.006326144	0.9729505	-0.2005179	0.001111103	0.004753779	-0.0002137201	-0.0007133412
	0.9729505	-0.2005179	0.004610343	-0.00629991	-0.0002139474	-0.0007132365	0.001056886	0.004767991
	0.001111113	0.004753772	-0.0002139321	-0.0007132419	0.004783001	-0.006279916	0.9727572	-0.2013591
	-0.0002137034	-0.000713347	0.001056893	0.004767986	0.9727572	-0.2013591	0.004623082	-0.006248194
1e+08	0.004664376	-0.007280653	0.9679224	-0.2220833	0.001346712	0.005229183	-0.000246052	-0.0007797138
	0.9679224	-0.2220833	0.004494125	-0.007244289	-0.0002463182	-0.0007795713	0.001280365	0.005247974
	0.001346712	0.005229183	-0.0002463182	-0.0007795713	0.004705653	-0.007238578	0.9676847	-0.2230047
	-0.0002460519	-0.0007797138	0.001280365	0.005247974	0.9676847	-0.2230047	0.004509089	-0.007194927
1.1e+08	0.004548819	-0.008255396	0.9624101	-0.2435001	0.001601778	0.005691519	-0.0002796803	-0.0008448517
	0.9624101	-0.2435001	0.004345735	-0.008204177	-0.0002799905	-0.0008446571	0.001522453	0.00571567
	0.001601778	0.005691519	-0.0002799905	-0.0008446571	0.004594787	-0.008215666	0.9621285	-0.2445006
	-0.0002796803	-0.0008448517	0.001522453	0.00571567	0.9621285	-0.2445006	0.004359408	-0.008155614
1.2e+08	0.004373653	-0.009240793	0.9564421	-0.2647596	0.001876571	0.006140164	-0.0003148049	-0.0009094399
	0.9564421	-0.2647596	0.004135127	-0.009173932	-0.0003151591	-0.0009091901	0.001783186	0.006170645
	0.001876571	0.006140164	-0.0003151591	-0.0009091901	0.004424341	-0.009203495	0.9561127	-0.2658392
	-0.0003148049	-0.0009094399	0.001783186	0.006170645	0.9561127	-0.2658392	0.00414728	-0.009125307
1.3e+08	0.004143047	-0.01022686	0.9500191	-0.2858607	0.002170426	0.006574075	-0.0003515811	-0.0009734265
	0.9500191	-0.2858607	0.003866182	-0.01014277	-0.0003519798	-0.0009731165	0.002061983	0.006611933
	0.002170426	0.006574075	-0.0003519798	-0.0009731165	0.004198036	-0.01019256	0.9496383	-0.287018
	-0.0003515811	-0.0009734264	0.002061983	0.006611933	0.9496383	-0.287018	0.003876252	-0.01009394
1.4e+08	0.003859427	-0.01120951	0.9431433	-0.3067961	0.002482597	0.006992319	-0.0003901151	-0.001036819
	0.9431433	-0.3067961	0.003541333	-0.01110597	-0.0003905585	-0.001036442	0.002358182	0.007038673
	0.002482597	0.006992319	-0.0003905584	-0.001036442	0.00391819	-0.01117861	0.9427074	-0.3080296
	-0.0003901151	-0.001036819	0.002358182	0.007038673	0.9427074	-0.3080296	0.003548677	-0.01105676
1.5e+08	0.003524599	-0.01218565	0.9358176	-0.3275579	0.002812289	0.007394019	-0.0004304945	-0.001099628
	0.9358176	-0.3275579	0.003162562	-0.01205992	-0.000430982	-0.001099178	0.002671064	0.007450046
	0.002812289	0.007394019	-0.000430982	-0.001099178	0.003586629	-0.01215837	0.935323	-0.3288657
	-0.0004304945	-0.001099628	0.002671065	0.007450046	0.935323	-0.3288657	0.003166536	-0.01201009
1.6e+08	0.003140041	-0.01315255	0.9280452	-0.3481374	0.003158658	0.007778342	-0.0004727983	-0.001161864
	0.9280452	-0.3481374	0.002731604	-0.01300154	-0.0004733283	-0.001161332	0.002999868	0.007845278
	0.003158658	0.007778342	-0.0004733283	-0.001161332	0.003204898	-0.01312903	0.9274884	-0.3495176
	-0.0004727982	-0.001161864	0.002999868	0.007845278	0.9274884	-0.3495176	0.002731606	-0.01295078
1.7e+08	0.00270705	-0.01410774	0.9198296	-0.3685261	0.003520822	0.008144499	-0.0005171021	-0.001223532
	0.9198296	-0.3685261	0.002250046	-0.01392805	-0.0005176723	-0.001222911	0.003343787	0.008223631
	0.003520822	0.008144499	-0.0005176723	-0.001222911	0.002774372	-0.01408803	0.9192073	-0.3699765
	-0.0005171021	-0.001223532	0.003343787	0.008223631	0.9192073	-0.3699765	0.002245528	-0.013876
1.8e+08	0.002226832	-0.01504883	0.9111747	-0.3887152	0.00389786	0.008491748	-0.000563482	-0.001284634
	0.9111747	-0.3887152	0.00171939	-0.0148369	-0.0005640886	-0.001283914	0.003701982	0.008584411
	0.003897859	0.008491748	-0.0005640886	-0.001283914	0.002296331	-0.01503298	0.9104837	-0.3902335
	-0.0005634819	-0.001284634	0.003701982	0.008584411	0.9104837	-0.3902335	0.001709865	-0.01478315
1.9e+08	0.00170056	-0.01597358	0.9020849	-0.4086958	0.004288816	0.008819393	-0.0006120149	-0.001345161
	0.9020849	-0.4086958	0.001141098	-0.01572568	-0.0006126534	-0.001344334	0.00407358	0.008926965
	0.004288816	0.008819393	-0.0006126534	-0.001344334	0.001772005	-0.01596163	0.9013217	-0.4102796
	-0.0006120149	-0.001345161	0.00407358	0.008926965	0.9013217	-0.4102796	0.001126133	-0.01566981
2e+08	0.001129411	-0.01687982	0.8925644	-0.428459	0.004692704	0.009126783	-0.0006627802	-0.001405099
	0.8925644	-0.428459	0.0005166225	-0.01659212	-0.0006634448	-0.001404157	0.004457674	0.009250682
	0.004692704	0.009126783	-0.0006634448	-0.001404157	0.001202606	-0.01687184	0.891726	-0.4301059
	-0.0006627802	-0.001405099	0.004457674	0.009250682	0.891726	-0.4301059	0.0004958328	-0.01653369
2.1e+08	0.0005145812	-0.01776545	0.882618	-0.4479962	0.005108506	0.009413313	-0.0007158589	-0.001464424
	0.882618	-0.4479962	-0.0001525773	-0.01743405	-0.0007165427	-0.001463359	0.004853331	0.009554994
	0.005108506	0.009413313	-0.0007165427	-0.001463359	0.0005893533	-0.01776154	0.8817013	-0.4497035
	-0.0007158589	-0.001464424	0.004853331	0.009554994	0.8817013	-0.4497035	-0.0001795339	-0.01737263
2.2e+08	-0.0001426989	-0.01862849	0.8722508	-0.4672984	0.005535175	0.009678429	-0.0007713335	-0.001523102
	0.8722508	-0.4672984	-0.0008650188	-0.01824941	-0.0007720287	-0.001521907	0.005259591	0.009839379
	0.005535175	0.009678429	-0.0007720287	-0.001521907	-6.651569e-05	-0.01862876	0.8712526	-0.4690634
	-0.0007713335	-0.001523102	0.005259591	0.009839379	0.8712526	-0.4690634	-0.0008984476	-0.01818455
2.3e+08	-0.0008411538	-0.01946701	0.8614677	-0.486357	0.00597164	0.009921627	-0.0008292876	-0.001581091
	0.8614677	-0.486357	-0.001619184	-0.01903623	-0.0008299854	-0.001579758	0.005675468	0.01010336
	0.00597164	0.009921627	-0.0008299854	-0.001579758	-0.0007637318	-0.01947161	0.8603853	-0.488177
	-0.0008292876	-0.001581091	0.005675468	0.01010336	0.8603853	-0.488177	-0.001659361	-0.01896749
2.4e+08	-0.001579469	-0.02027917	0.8502743	-0.5051634	0.006416805	0.01014245	-0.000889805	-0.001638337
	0.8502743	-0.5051634	-0.002413521	-0.01979262	-0.0008904957	-0.00163686	0.006099956	0.0103465
	0.006416805	0.01014245	-0.0008904957	-0.00163686	-0.001500994	-0.02028826	0.8491047	-0.5070353
	-0.000889805	-0.001638337	0.006099956	0.0103465	0.8491047	-0.5070353	-0.002460698	-0.01971956
2.5e+08	-0.002356281	-0.02106321	0.8386761	-0.5237089	0.006869551	0.01034051	-0.0009529689	-0.001694776
	0.8386761	-0.5237089	-0.003246433	-0.02051681	-0.0009536421	-0.001693149	0.006532026	0.01056843
	0.006869551	0.01034051	-0.0009536421	-0.001693149	-0.002276957	-0.02107697	0.8374167	-0.5256298
	-0.0009529689	-0.001694776	0.006532026	0.01056843	0.8374167	-0.5256298	-0.003300837	-0.02043897
2.6e+08	-0.003170186	-0.02181746	0.8266789	-0.5419852	0.007328743	0.01051544	-0.001018861	-0.001750334
	0.8266789	-0.5419852	-0.004116285	-0.02120709	-0.001019506	-0.001748551	0.006970633	0.01076881
	0.007328743	0.01051544	-0.001019506	-0.001748551	-0.003090236	-0.02183608	0.825327	-0.5439519
	-0.001018861	-0.001750334	0.006970633	0.01076881	0.825327	-0.5439519	-0.004178118	-0.02112401
2.7e+08	-0.004019727	-0.02254031	0.8142889	-0.5599838	0.007793227	0.01066696	-0.001087562	-0.001804925
	0.8142889	-0.5599838	-0.005021387	-0.02186185	-0.001088166	-0.001802984	0.007414716	0.01094736
	0.007793227	0.01066696	-0.001088166	-0.001802984	-0.003939401	-0.02256397	0.8128418	-0.5619932
	-0.001087562	-0.001804925	0.007414716	0.01094736	0.8128418	-0.5619932	-0.005090835	-0.02177307
2.8e+08	-0.00490341	-0.02323026	0.8015121	-0.5776966	0.008261836	0.01079484	-0.001159149	-0.001858456
	0.8015121	-0.5776966	-0.005960016	-0.02247955	-0.001159699	-0.001856353	0.007863202	0.01110384
	0.008261836	0.01079484	-0.001159699	-0.001856353	-0.004822985	-0.02325913	0.7999675	-0.5797453
	-0.001159149	-0.001858456	0.007863202	0.01110384	0.7999675	-0.5797453	-0.006037245	-0.02238461
2.9e+08	-0.0058197	-0.02388585	0.7883551	-0.5951153	0.008733392	0.01089888	-0.001233694	-0.001910821
	0.7883551	-0.5951153	-0.006930402	-0.02305876	-0.001234177	-0.001908555	0.008315005	0.01123808
	0.008733392	0.01089888	-0.001234177	-0.001908555	-0.005739474	-0.02392012	0.7867105	-0.5972001
	-0.001233694	-0.001910821	0.008315005	0.01123808	0.7867105	-0.5972001	-0.007015557	-0.02295718
3e+08	-0.006767021	-0.02450572	0.7748244	-0.6122321	0.009206709	0.01097898	-0.001311267	-0.001961906
	0.7748244	-0.6122321	-0.007930734	-0.02359813	-0.00131167	-0.001959475	0.008769033	0.01134995
	0.009206709	0.01097898	-0.00131167	-0.001959475	-0.006687317	-0.02454554	0.7730775	-0.6143493
	-0.001311267	-0.001961906	0.008769033	0.01134995	0.7730775	-0.6143493	-0.00802394	-0.02348942
3.1e+08	-0.007743762	-0.02508859	0.7609268	-0.6290391	0.009680595	0.01103506	-0.001391932	-0.002011586
	0.7609268	-0.6290391	-0.008959165	-0.02409639	-0.001392241	-0.00200899	0.009224189	0.01143938
	0.009680595	0.01103506	-0.001392241	-0.00200899	-0.007664923	-0.02513411	0.7590755	-0.6311853
	-0.001391932	-0.002011586	0.009224189	0.01143938	0.7590755	-0.6311853	-0.009060528	-0.02398006
3.2e+08	-0.008748278	-0.02563325	0.7466693	-0.6455285	0.01015386	0.01106712	-0.001475746	-0.002059729
	0.7466693	-0.6455285	-0.01001381	-0.02455236	-0.001475947	-0.002056969	0.009679372	0.01150634
	0.01015386	0.01106712	-0.001475947	-0.002056969	-0.008670667	-0.0256846	0.7447115	-0.6477
	-0.001475746	-0.002059729	0.009679372	0.01150634	0.7447115	-0.6477	-0.01012341	-0.02442792
3.3e+08	-0.009778885	-0.02613857	0.7320591	-0.6616928	0.01062529	0.01107521	-0.001562761	-0.002106191
	0.7320591	-0.6616928	-0.01109276	-0.02496497	-0.001562839	-0.00210327	0.01013348	0.01155086
	0.01062529	0.01107521	-0.001562839	-0.00210327	-0.009702883	-0.02619586	0.7299928	-0.663886
	-0.001562761	-0.002106191	0.01013348	0.01155086	0.7299928	-0.663886	-0.01121066	-0.02483191
3.4e+08	-0.01083388	-0.02660348	0.7171033	-0.6775246	0.01109372	0.01105944	-0.00165302	-0.002150822
	0.7171033	-0.6775246	-0.01219405	-0.02533321	-0.00165296	-0.002147743	0.01058542	0.01157303
	0.01109372	0.01105944	-0.00165296	-0.002147743	-0.01075988	-0.0266668	0.7149268	-0.6797356
	-0.00165302	-0.002150822	0.01058542	0.01157303	0.7149268	-0.6797356	-0.01232028	-0.025191
3.5e+08	-0.01191152	-0.02702702	0.7018096	-0.6930167	0.01155795	0.01101998	-0.00174656	-0.002193463
	0.7018096	-0.6930167	-0.01331573	-0.02565618	-0.001746348	-0.002190232	0.01103408	0.01157299
	0.01155795	0.01101998	-0.001746348	-0.002190232	-0.01183993	-0.02709643	0.699521	-0.6952417
	-0.00174656	-0.002193463	0.01103408	0.01157299	0.699521	-0.6952417	-0.0134503	-0.0255043
3.6e+08	-0.01301004	-0.02740828	0.6861855	-0.708162	0.01201681	0.01095705	-0.001843407	-0.002233949
	0.6861855	-0.708162	-0.01445578	-0.02593304	-0.001843029	-0.002230571	0.0114784	0.01155093
	0.01201681	0.01095705	-0.001843029	-0.002230571	-0.01294128	-0.02748381	0.6837833	-0.7103971
	-0.001843407	-0.002233949	0.0114784	0.01155093	0.6837833	-0.7103971	-0.01459868	-0.02577098
3.7e+08	-0.01412765	-0.02774642	0.6702389	-0.7229535	0.01246912	0.01087094	-0.001943581	-0.002272107
	0.6702389	-0.7229535	-0.0156122	-0.02616308	-0.001943022	-0.002268589	0.01191729	0.01150709
	0.01246912	0.01087094	-0.001943022	-0.002268589	-0.01406215	-0.02782811	0.6677215	-0.7251947
	-0.001943581	-0.002272107	0.01191729	0.01150709	0.6677215	-0.7251947	-0.01576338	-0.02599029
3.8e+08	-0.01526255	-0.02804071	0.6539777	-0.7373846	0.01291375	0.01076199	-0.002047089	-0.002307757
	0.6539777	-0.7373846	-0.01678293	-0.02634565	-0.002046336	-0.002304107	0.01234968	0.01144176
	0.01291375	0.01076199	-0.002046336	-0.002304107	-0.01520075	-0.02812854	0.6513437	-0.7396278
	-0.002047089	-0.002307757	0.01234968	0.01144176	0.6513437	-0.7396278	-0.01694233	-0.0261616
3.9e+08	-0.0164129	-0.02829045	0.6374099	-0.7514486	0.01334955	0.01063058	-0.002153929	-0.002340715
	0.6374099	-0.7514486	-0.01796594	-0.02648019	-0.002152968	-0.002336943	0.01277454	0.01135529
	0.01334955	0.01063058	-0.002152968	-0.002336943	-0.01635523	-0.02838439	0.6346582	-0.7536898
	-0.002153929	-0.002340715	0.01277454	0.01135529	0.6346582	-0.7536898	-0.01813345	-0.02628435
4e+08	-0.01757686	-0.02849506	0.6205438	-0.7651392	0.01377542	0.01047718	-0.00226409	-0.002370789
	0.6205438	-0.7651392	-0.01915915	-0.02656624	-0.002262907	-0.002366907	0.01319083	0.01124807
	0.01377542	0.01047718	-0.002262907	-0.002366907	-0.01752378	-0.02859506	0.6176732	-0.7673742
	-0.00226409	-0.002370789	0.01319083	0.01124807	0.6176732	-0.7673742	-0.01933465	-0.02635807
4.1e+08	-0.01875257	-0.02865401	0.6033878	-0.7784502	0.01419025	0.01030228	-0.002377546	-0.002397788
	0.6033878	-0.7784502	-0.02036049	-0.02660342	-0.00237613	-0.002393806	0.01359753	0.01112056
	0.01419025	0.01030228	-0.00237613	-0.002393806	-0.01870451	-0.02875998	0.6003973	-0.7806748
	-0.002377546	-0.002397788	0.01359753	0.01112056	0.6003973	-0.7806748	-0.02054382	-0.02638238
4.2e+08	-0.01993815	-0.02876684	0.5859503	-0.7913756	0.01459299	0.01010645	-0.002494264	-0.002421511
	0.5859503	-0.7913756	-0.02156787	-0.02659144	-0.002492602	-0.002417443	0.01399367	0.01097324
	0.01459299	0.01010645	-0.002492602	-0.002417443	-0.01989557	-0.02887868	0.582839	-0.7935855
	-0.002494264	-0.002421511	0.01399367	0.01097324	0.582839	-0.7935855	-0.02175886	-0.02635701
4.3e+08	-0.02113172	-0.02883319	0.56824	-0.8039095	0.0149826	0.00989029	-0.002614195	-0.002441758
	0.56824	-0.8039095	-0.02277923	-0.0265301	-0.002612276	-0.002437618	0.01437828	0.01080665
	0.0149826	0.00989029	-0.002612276	-0.002437618	-0.02109507	-0.02895077	0.5650072	-0.8061004
	-0.002614195	-0.002441758	0.01437828	0.01080665	0.5650072	-0.8061004	-0.02297766	-0.02628175
4.4e+08	-0.02233139	-0.02885275	0.5502656	-0.8160462	0.01535807	0.009654465	-0.00273728	-0.002458327
	0.5502656	-0.8160462	-0.02399248	-0.02641928	-0.002735095	-0.00245413	0.01475041	0.01062138
	0.01535807	0.009654465	-0.002735095	-0.00245413	-0.02230112	-0.02897591	0.5469107	-0.8182139
	-0.00273728	-0.002458327	0.01475041	0.01062138	0.5469107	-0.8182139	-0.02419811	-0.0261565
4.5e+08	-0.02353527	-0.02882531	0.532036	-0.8277805	0.01571843	0.00939968	-0.002863447	-0.002471013
	0.532036	-0.8277805	-0.02520553	-0.02625896	-0.002860985	-0.002466775	0.01510918	0.01041807
	0.01571843	0.00939968	-0.002860985	-0.002466775	-0.02351182	-0.02895388	0.5285585	-0.8299205
	-0.002863447	-0.002471013	0.01510918	0.01041807	0.5285585	-0.8299205	-0.0254181	-0.02598122
4.6e+08	-0.02474145	-0.02875071	0.5135601	-0.8391069	0.01606273	0.009126692	-0.002992611	-0.002479611
	0.5135601	-0.8391069	-0.02641633	-0.02604919	-0.002989865	-0.002475349	0.01545369	0.01019739
	0.01606273	0.009126692	-0.002989865	-0.002475349	-0.02472527	-0.02888448	0.5099597	-0.841215
	-0.002992611	-0.002479611	0.01545369	0.01019739	0.5099597	-0.841215	-0.02663554	-0.025756
4.7e+08	-0.02594803	-0.02862889	0.4948471	-0.8500206	0.01639007	0.0088363	-0.003124674	-0.002483915
	0.4948471	-0.8500206	-0.0276228	-0.02579011	-0.003121636	-0.002479648	0.01578311	0.009960043
	0.01639007	0.0088363	-0.003121636	-0.002479648	-0.02593956	-0.02876763	0.4911236	-0.8520921
	-0.003124674	-0.002483915	0.01578311	0.009960043	0.4911236	-0.8520921	-0.02784834	-0.02548099
4.8e+08	-0.02715313	-0.02845984	0.4759061	-0.8605165	0.01669958	0.00852935	-0.003259525	-0.002483723
	0.4759061	-0.8605165	-0.02882291	-0.02548196	-0.00325619	-0.002479469	0.01609663	0.009706798
	0.01669958	0.00852935	-0.00325619	-0.002479469	-0.0271528	-0.0286033	0.4720594	-0.8625472
	-0.003259525	-0.002483723	0.01609663	0.009706798	0.4720594	-0.8625472	-0.02905442	-0.02515641
4.9e+08	-0.02835484	-0.02824365	0.4567463	-0.8705902	0.01699046	0.008206727	-0.003397041	-0.002478832
	0.4567463	-0.8705902	-0.0300146	-0.02512503	-0.003393403	-0.002474611	0.01639348	0.009438446
	0.01699046	0.008206727	-0.003393403	-0.002474611	-0.02836308	-0.02839155	0.4527765	-0.8725755
	-0.003397041	-0.002478832	0.01639348	0.009438446	0.4527765	-0.8725755	-0.03025172	-0.0247826
5e+08	-0.02955129	-0.02798045	0.4373772	-0.8802371	0.0172619	0.007869356	-0.003537084	-0.002469043
	0.4373772	-0.8802371	-0.03119589	-0.02471972	-0.003533141	-0.002464874	0.01667293	0.009155817
	0.0172619	0.007869356	-0.003533141	-0.002464874	-0.0295685	-0.02813249	0.4332845	-0.8821725
