!$
! Info: Touchstone file created by Circ.  Input file=Tx_2in_Rx_85ohms_TxVia_35mils_RxVia_45mils.circ
!$
# Hz S RI R 50
0	0.001746006	4.723819e-26	1.784438e-08	3.848688e-27	2.97269e-05	3.234667e-24	3.47281e-08	8.817171e-28
	1.78444e-08	3.847448e-27	0.001744926	5.327654e-26	3.465356e-08	1.368809e-26	3.015005e-05	3.841486e-24
	2.789256e-05	3.321928e-24	3.465357e-08	1.368842e-26	0.001758762	4.504879e-26	2.118012e-08	4.548806e-27
	3.47281e-08	8.823868e-28	2.830357e-05	3.860662e-24	2.118012e-08	4.54998e-27	0.001758165	4.989016e-26
1e+07	0.002412469	-0.001554427	2.469248e-08	5.213557e-08	5.649495e-05	0.0005580859	6.471294e-08	1.572103e-07
	2.469248e-08	5.213557e-08	0.002410197	-0.001554503	5.749715e-08	1.599426e-07	5.572186e-05	0.0005582375
	5.643581e-05	0.0005580898	5.749715e-08	1.599426e-07	0.002421105	-0.001544716	2.911465e-08	6.230255e-08
	6.471294e-08	1.572103e-07	5.566233e-05	0.0005582477	2.911465e-08	6.230255e-08	0.002418539	-0.001544749
2e+07	0.00294556	-0.003682429	3.494675e-08	9.493848e-08	0.000106614	0.001101427	1.032159e-07	2.840557e-07
	3.494675e-08	9.493848e-08	0.002936459	-0.003682418	7.694894e-08	2.922573e-07	0.0001035698	0.001101898
	0.0001066022	0.001101464	7.694893e-08	2.922573e-07	0.002956874	-0.003661529	4.132929e-08	1.133251e-07
	1.032158e-07	2.840558e-07	0.0001035621	0.001101932	4.132929e-08	1.133251e-07	0.002946613	-0.003661389
3e+07	0.003203834	-0.006088155	4.500913e-08	1.357389e-07	0.0001800194	0.001638209	1.462905e-07	4.044851e-07
	4.500913e-08	1.357389e-07	0.003183626	-0.006087181	9.002453e-08	4.208408e-07	0.0001732754	0.001639266
	0.000180022	0.001638214	9.002453e-08	4.208408e-07	0.003217943	-0.006057925	5.327406e-08	1.619569e-07
	1.462905e-07	4.044851e-07	0.0001732754	0.001639271	5.327406e-08	1.619569e-07	0.003195203	-0.006056588
4e+07	0.003265292	-0.00858909	5.622185e-08	1.751538e-07	0.0002774818	0.002168576	1.978912e-07	5.197286e-07
	5.622185e-08	1.751538e-07	0.003229566	-0.008586435	1.00843e-07	5.47569e-07	0.0002656265	0.002170562
	0.000277477	0.002168572	1.00843e-07	5.47569e-07	0.00328245	-0.008550277	6.654767e-08	2.089787e-07
	1.978912e-07	5.197286e-07	0.0002656211	0.00217056	6.654766e-08	2.089787e-07	0.003242303	-0.008546943
5e+07	0.003158343	-0.01113963	6.867308e-08	2.132035e-07	0.000398767	0.002691643	2.581831e-07	6.293503e-07
	6.867308e-08	2.132035e-07	0.003102617	-0.01113395	1.100409e-07	6.727617e-07	0.0003804166	0.002695015
	0.0003987629	0.002691642	1.100409e-07	6.727617e-07	0.003178771	-0.01109288	8.130201e-08	2.544005e-07
	2.581831e-07	6.293503e-07	0.0003804129	0.002695014	8.130201e-08	2.544005e-07	0.003116193	-0.01108602
6e+07	0.002897277	-0.01371593	8.231673e-08	2.499699e-07	0.0005434242	0.003206517	3.26878e-07	7.331915e-07
	8.231673e-08	2.499699e-07	0.002817387	-0.01370554	1.177913e-07	7.968571e-07	0.0005172494	0.003211826
	0.0005434281	0.003206517	1.177913e-07	7.968571e-07	0.00292111	-0.01366183	9.748118e-08	2.982945e-07
	3.26878e-07	7.331915e-07	0.0005172516	0.003211825	9.748118e-08	2.982945e-07	0.00283146	-0.01364953
7e+07	0.002490719	-0.01630223	9.713622e-08	2.855071e-07	0.000710994	0.003712294	4.03752e-07	8.31084e-07
	9.713623e-08	2.855071e-07	0.002382646	-0.01628535	1.242582e-07	9.20215e-07	0.0006757111	0.003720167
	0.0007110058	0.003712292	1.242583e-07	9.20215e-07	0.00251802	-0.01624134	1.150483e-07	3.40724e-07
	4.03752e-07	8.31084e-07	0.0006757186	0.003720164	1.150483e-07	3.407241e-07	0.002396825	-0.01622159
8e+07	0.001944554	-0.01888666	1.131288e-07	3.198121e-07	0.0009010056	0.004208057	4.886196e-07	9.227335e-07
	1.131288e-07	3.198121e-07	0.001804269	-0.0188613	1.295908e-07	1.04307e-06	0.0008553646	0.004219193
	0.0009010201	0.00420805	1.295908e-07	1.04307e-06	0.001975334	-0.01881949	1.339888e-07	3.817014e-07
	4.886196e-07	9.227335e-07	0.0008553739	0.004219187	1.339888e-07	3.817014e-07	0.001818083	-0.01879007
9e+07	0.001263254	-0.02145951	1.302822e-07	3.528346e-07	0.001112958	0.004692937	5.812632e-07	1.007729e-06
	1.302822e-07	3.528346e-07	0.001086698	-0.02142339	1.33893e-07	1.165565e-06	0.001055739	0.004708119
	0.001112968	0.004692929	1.338931e-07	1.165565e-06	0.001297477	-0.02138655	1.542872e-07	4.211879e-07
	5.812632e-07	1.007729e-06	0.001055746	0.004708113	1.542872e-07	4.211879e-07	0.001099604	-0.02134489
1e+08	0.0004503952	-0.02401318	1.485651e-07	3.844934e-07	0.001346444	0.005166733	6.813957e-07	1.085587e-06
	1.485651e-07	3.844934e-07	0.0002335553	-0.02396362	1.372162e-07	1.28779e-06	0.001276464	0.005186831
	0.001346444	0.005166733	1.372162e-07	1.28779e-06	0.0004879681	-0.02393497	1.759137e-07	4.591077e-07
	6.813957e-07	1.085587e-06	0.001276464	0.005186831	1.759137e-07	4.591077e-07	0.0002449442	-0.02387803
1.1e+08	-0.0004935984	-0.02654482	1.678352e-07	4.148181e-07	0.001603107	0.005626436	7.882567e-07	1.155875e-06
	1.678352e-07	4.148181e-07	-0.0007525343	-0.02647638	1.397619e-07	1.409972e-06	0.001519473	0.005652283
	0.001603107	0.005626436	1.397619e-07	1.409972e-06	-0.000451747	-0.02646012	1.987358e-07	4.954112e-07
	7.882567e-07	1.155875e-06	0.001519473	0.005652283	1.987358e-07	4.954112e-07	-0.000742804	-0.02638272
1.2e+08	-0.001563127	-0.02903579	1.88014e-07	4.437911e-07	0.00187928	0.006070407	9.015085e-07	1.21839e-06
	1.88014e-07	4.437911e-07	-0.001867442	-0.02894697	1.413262e-07	1.532317e-06	0.00178086	0.006103042
	0.00187928	0.006070407	1.413262e-07	1.532317e-06	-0.001517217	-0.02894596	2.226306e-07	5.301183e-07
	9.015085e-07	1.21839e-06	0.00178086	0.006103042	2.226306e-07	5.301183e-07	-0.001859838	-0.02884563
1.3e+08	-0.002753668	-0.03148158	2.090565e-07	4.71374e-07	0.002174344	0.006498572	1.020757e-06	1.272763e-06
	2.090565e-07	4.71374e-07	-0.003106896	-0.03137001	1.420205e-07	1.654958e-06	0.002060101	0.006539118
	0.002174344	0.006498572	1.420205e-07	1.654958e-06	-0.002704209	-0.03138753	2.475449e-07	5.631861e-07
	1.020757e-06	1.272763e-06	0.002060101	0.006539118	2.475449e-07	5.631861e-07	-0.003102059	-0.03126118
1.4e+08	-0.004061205	-0.03387718	2.309073e-07	4.975212e-07	0.002487505	0.00691019	1.145567e-06	1.318618e-06
	2.309073e-07	4.975212e-07	-0.004466819	-0.0337398	1.419451e-07	1.777996e-06	0.002356488	0.006959843
	0.002487505	0.00691019	1.419451e-07	1.777996e-06	-0.004008774	-0.03377943	2.734135e-07	5.945625e-07
	1.145567e-06	1.318618e-06	0.002356488	0.006959843	2.734135e-07	5.945625e-07	-0.004465431	-0.03362345
1.5e+08	-0.005482058	-0.03621767	2.535008e-07	5.22184e-07	0.002817899	0.007304464	1.275464e-06	1.355589e-06
	2.535008e-07	5.22184e-07	-0.005943298	-0.03605087	1.411882e-07	1.901514e-06	0.002669245	0.007364487
	0.002817899	0.007304464	1.411882e-07	1.901514e-06	-0.00542719	-0.03611649	3.001598e-07	6.241917e-07
	1.275464e-06	1.355589e-06	0.002669245	0.007364487	3.001598e-07	6.241917e-07	-0.005946018	-0.03592679
1.6e+08	-0.007012703	-0.03849827	2.767632e-07	5.453142e-07	0.003164611	0.00768061	1.409936e-06	1.383332e-06
	2.767632e-07	5.453142e-07	-0.007532494	-0.03829803	1.398278e-07	2.025582e-06	0.002997541	0.007752323
	0.003164611	0.00768061	1.398278e-07	2.025582e-06	-0.006955849	-0.03839377	3.276972e-07	6.520177e-07
	1.409936e-06	1.383332e-06	0.002997541	0.007752323	3.276972e-07	6.520177e-07	-0.007539922	-0.03816587
1.7e+08	-0.008649664	-0.04071431	3.006129e-07	5.668658e-07	0.003526679	0.008037875	1.548441e-06	1.401526e-06
	3.006129e-07	5.668658e-07	-0.009230579	-0.0404763	1.379342e-07	2.15026e-06	0.003340502	0.008122657
	0.003526679	0.008037875	1.379342e-07	2.15026e-06	-0.008591179	-0.04060649	3.559305e-07	6.779875e-07
	1.548441e-06	1.401526e-06	0.003340502	0.008122657	3.559305e-07	6.779875e-07	-0.009243242	-0.04033564
1.8e+08	-0.01038943	-0.04286126	3.249621e-07	5.867966e-07	0.003903106	0.00837555	1.690409e-06	1.40988e-06
	3.249621e-07	5.867966e-07	-0.01103368	-0.04258091	1.355722e-07	2.275605e-06	0.003697215	0.008474827
	0.003903106	0.00837555	1.355722e-07	2.275605e-06	-0.01032958	-0.04275009	3.847568e-07	7.02052e-07
	1.690409e-06	1.40988e-06	0.003697215	0.008474827	3.847568e-07	7.02052e-07	-0.01105204	-0.04243127
1.9e+08	-0.01222842	-0.04493475	3.497179e-07	6.05069e-07	0.004292855	0.00869297	1.835248e-06	1.408136e-06
	3.497179e-07	6.05069e-07	-0.01293787	-0.04460733	1.328026e-07	2.401666e-06	0.004066734	0.008808217
	0.004292855	0.00869297	1.328026e-07	2.401666e-06	-0.01216742	-0.04482017	4.140672e-07	7.24168e-07
	1.835248e-06	1.408136e-06	0.004066734	0.008808217	4.140672e-07	7.24168e-07	-0.01296231	-0.04444818
2e+08	-0.01416295	-0.04693054	3.747828e-07	6.21651e-07	0.004694861	0.008989523	1.982346e-06	1.396072e-06
	3.747828e-07	6.21651e-07	-0.01493912	-0.04655118	1.296841e-07	2.528494e-06	0.004448082	0.009122254
	0.004694861	0.008989523	1.296841e-07	2.528494e-06	-0.01410093	-0.04681253	4.437475e-07	7.442982e-07
	1.982346e-06	1.396072e-06	0.004448082	0.009122254	4.437475e-07	7.442982e-07	-0.01496996	-0.04638198
2.1e+08	-0.01618921	-0.04884461	4.000559e-07	6.365162e-07	0.005108027	0.009264648	2.131075e-06	1.373498e-06
	4.000559e-07	6.365162e-07	-0.0170333	-0.04840833	1.262743e-07	2.656134e-06	0.004840255	0.009416415
	0.005108027	0.009264648	1.262743e-07	2.656134e-06	-0.01612631	-0.04872312	4.736796e-07	7.624124e-07
	2.131075e-06	1.373498e-06	0.004840255	0.009416415	4.736796e-07	7.624124e-07	-0.01707081	-0.0482285
2.2e+08	-0.01830329	-0.05067307	4.254334e-07	6.496444e-07	0.00553123	0.009517838	2.280794e-06	1.340265e-06
	4.254334e-07	6.496444e-07	-0.01921616	-0.05017483	1.226306e-07	2.784632e-06	0.005242223	0.009690226
	0.00553123	0.009517838	1.226306e-07	2.784632e-06	-0.0182396	-0.05054809	5.037419e-07	7.784872e-07
	2.280794e-06	1.340265e-06	0.005242223	0.009690226	5.037419e-07	7.784872e-07	-0.01926056	-0.04998379
2.3e+08	-0.02050113	-0.05241224	4.508093e-07	6.610213e-07	0.005963326	0.009748643	2.430851e-06	1.296258e-06
	4.508093e-07	6.610213e-07	-0.02148334	-0.05184692	1.188108e-07	2.914028e-06	0.005652936	0.009943265
	0.005963326	0.009748643	1.188108e-07	2.914028e-06	-0.02043675	-0.05228378	5.338105e-07	7.925067e-07
	2.430851e-06	1.296258e-06	0.005652936	0.009943265	5.338105e-07	7.925067e-07	-0.02153481	-0.05164409
2.4e+08	-0.02277859	-0.05405863	4.760759e-07	6.706393e-07	0.006403148	0.009956671	2.580588e-06	1.241401e-06
	4.760759e-07	6.706393e-07	-0.02383039	-0.05342107	1.148741e-07	3.044363e-06	0.006071323	0.01017516
	0.006403148	0.009956671	1.148741e-07	3.044363e-06	-0.0227136	-0.05392672	5.637593e-07	8.044623e-07
	2.580588e-06	1.241401e-06	0.006071323	0.01017516	5.637593e-07	8.044623e-07	-0.02388907	-0.05320586
2.5e+08	-0.02513138	-0.05560896	5.011244e-07	6.784967e-07	0.006849511	0.01014159	2.729338e-06	1.175656e-06
	5.011244e-07	6.784967e-07	-0.02625272	-0.05489396	1.108806e-07	3.175675e-06	0.0064963	0.01038561
	0.006849511	0.01014159	1.108806e-07	3.175675e-06	-0.02506589	-0.05547362	5.934612e-07	8.143528e-07
	2.729338e-06	1.175656e-06	0.0064963	0.01038561	5.934612e-07	8.143528e-07	-0.02631871	-0.05466577
2.6e+08	-0.02755511	-0.05706014	5.258452e-07	6.845988e-07	0.007301219	0.01030313	2.876435e-06	1.099023e-06
	5.258452e-07	6.845988e-07	-0.02874564	-0.05626247	1.068922e-07	3.307999e-06	0.006926766	0.01057433
	0.007301219	0.01030313	1.068922e-07	3.307999e-06	-0.02748924	-0.0569214	6.22788e-07	8.221847e-07
	2.876435e-06	1.099023e-06	0.006926766	0.01057433	6.22788e-07	8.221847e-07	-0.028819	-0.05602069
2.7e+08	-0.03004532	-0.0584093	5.501284e-07	6.889568e-07	0.007757063	0.01044107	3.02121e-06	1.011538e-06
	5.501284e-07	6.889568e-07	-0.03130438	-0.05752372	1.029723e-07	3.441368e-06	0.007361614	0.01074114
	0.007757063	0.01044107	1.029723e-07	3.441368e-06	-0.02997918	-0.0582672	6.516117e-07	8.27972e-07
	3.02121e-06	1.011538e-06	0.007361614	0.01074114	6.516117e-07	8.27972e-07	-0.03138514	-0.05726775
2.8e+08	-0.03259741	-0.05965377	5.738643e-07	6.915887e-07	0.008215825	0.01055527	3.162995e-06	9.132779e-07
	5.738643e-07	6.915887e-07	-0.03392404	-0.05867503	9.918617e-08	3.57581e-06	0.007799728	0.01088588
	0.008215825	0.01055527	9.918617e-08	3.57581e-06	-0.03253115	-0.05950833	6.79804e-07	8.31736e-07
	3.162995e-06	9.132779e-07	0.007799728	0.01088588	6.79804e-07	8.31736e-07	-0.03401221	-0.05840425
2.9e+08	-0.03520674	-0.06079108	5.969434e-07	6.925189e-07	0.008676284	0.01064563	3.301126e-06	8.043547e-07
	5.969434e-07	6.925189e-07	-0.03659968	-0.05971397	9.560077e-08	3.711354e-06	0.008239987	0.01100846
	0.008676284	0.01064563	9.560077e-08	3.711354e-06	-0.0351405	-0.06064233	7.072375e-07	8.335058e-07
	3.301126e-06	8.043547e-07	0.008239987	0.01100846	7.072375e-07	8.335058e-07	-0.03669522	-0.05942775
3e+08	-0.03786858	-0.06181901	6.192573e-07	6.917781e-07	0.009137218	0.01071213	3.434943e-06	6.849191e-07
	6.192573e-07	6.917781e-07	-0.03932625	-0.06063832	9.22847e-08	3.848022e-06	0.008681271	0.01110884
	0.009137218	0.01071213	9.22847e-08	3.848022e-06	-0.03780251	-0.06166696	7.337861e-07	8.333179e-07
	3.434943e-06	6.849191e-07	0.008681271	0.01110884	7.337861e-07	8.333179e-07	-0.0394291	-0.06033604
3.1e+08	-0.04057811	-0.06273551	6.406986e-07	6.894034e-07	0.009597406	0.01075481	3.563796e-06	5.551587e-07
	6.406986e-07	6.894034e-07	-0.04209865	-0.06144608	8.930816e-08	3.985835e-06	0.00912246	0.01118705
	0.009597406	0.01075481	8.930816e-08	3.985835e-06	-0.04051238	-0.06258016	7.59325e-07	8.312161e-07
	3.563796e-06	5.551587e-07	0.00912246	0.01118705	7.59325e-07	8.312161e-07	-0.0422087	-0.06112712
3.2e+08	-0.0433305	-0.06353879	6.611614e-07	6.854382e-07	0.01005563	0.01077376	3.68704e-06	4.152976e-07
	6.611614e-07	6.854382e-07	-0.04491172	-0.06213552	8.674283e-08	4.124809e-06	0.009562442	0.01124317
	0.01005563	0.01077376	8.674283e-08	4.124809e-06	-0.04326527	-0.0633801	7.837315e-07	8.272517e-07
	3.68704e-06	4.152976e-07	0.009562442	0.01124317	7.837315e-07	8.272517e-07	-0.04502882	-0.06179922
3.3e+08	-0.04612082	-0.06422722	6.805424e-07	6.799324e-07	0.01051069	0.01076914	3.804046e-06	2.655958e-07
	6.805424e-07	6.799324e-07	-0.04776023	-0.06270508	8.466185e-08	4.264956e-06	0.01000011	0.01127732
	0.01051069	0.01076914	8.466185e-08	4.264956e-06	-0.04605628	-0.06406519	8.068851e-07	8.214829e-07
	3.804046e-06	2.655958e-07	0.01000011	0.01127732	8.068851e-07	8.214829e-07	-0.04788423	-0.06235083
3.4e+08	-0.04894413	-0.06479944	6.987404e-07	6.729422e-07	0.01096139	0.01074117	3.914194e-06	1.063492e-07
	6.987404e-07	6.729422e-07	-0.05063895	-0.06315349	8.313943e-08	4.406287e-06	0.01043437	0.01128969
	0.01096139	0.01074117	8.313943e-08	4.406287e-06	-0.04888045	-0.064634	8.286676e-07	8.139752e-07
	3.914194e-06	1.063492e-07	0.01043437	0.01128969	8.286676e-07	8.139752e-07	-0.05076963	-0.06278064
3.5e+08	-0.05179544	-0.06525427	7.156567e-07	6.645295e-07	0.01140654	0.01069012	4.016883e-06	-6.211205e-08
	7.156567e-07	6.645295e-07	-0.05354259	-0.06347967	8.2251e-08	4.548806e-06	0.01086413	0.01128052
	0.01140654	0.01069012	8.2251e-08	4.548806e-06	-0.0517328	-0.06508537	8.489653e-07	8.048012e-07
	4.016883e-06	-6.211205e-08	0.01086413	0.01128052	8.489653e-07	8.048012e-07	-0.05367969	-0.0630876
3.6e+08	-0.05466975	-0.06559075	7.311957e-07	6.547623e-07	0.01184499	0.01061634	4.111526e-06	-2.394235e-07
	7.311957e-07	6.547623e-07	-0.05646585	-0.06368279	8.20728e-08	4.692514e-06	0.01128834	0.01125012
	0.01184499	0.01061634	8.20728e-08	4.692514e-06	-0.05460833	-0.06541831	8.676675e-07	7.940405e-07
	4.111526e-06	-2.394235e-07	0.01128834	0.01125012	8.676675e-07	7.940405e-07	-0.05660908	-0.06327087
3.7e+08	-0.05756204	-0.06580815	7.452651e-07	6.437145e-07	0.01227559	0.01052021	4.197555e-06	-4.25188e-07
	7.452651e-07	6.437145e-07	-0.0594034	-0.06376225	8.268173e-08	4.837409e-06	0.01170595	0.01119882
	0.01227559	0.01052021	8.268173e-08	4.837409e-06	-0.05750201	-0.06563207	8.846675e-07	7.817789e-07
	4.197555e-06	-4.25188e-07	0.01170595	0.01119882	8.846675e-07	7.817789e-07	-0.05955245	-0.06332987
3.8e+08	-0.06046727	-0.06590593	7.577766e-07	6.314655e-07	0.01269722	0.01040218	4.274423e-06	-6.189761e-07
	7.577766e-07	6.314655e-07	-0.06234994	-0.06371768	8.41552e-08	4.983482e-06	0.01211592	0.01112702
	0.01269722	0.01040218	8.41552e-08	4.983482e-06	-0.0604088	-0.0657261	8.998631e-07	7.681089e-07
	4.274423e-06	-6.189761e-07	0.01211592	0.01112702	8.998631e-07	7.681089e-07	-0.06250445	-0.06326421
3.9e+08	-0.06338042	-0.06588379	7.686456e-07	6.181001e-07	0.0131088	0.01026277	4.341606e-06	-8.203278e-07
	7.686456e-07	6.181001e-07	-0.06530016	-0.06354893	8.657091e-08	5.130723e-06	0.01251726	0.01103517
	0.0131088	0.01026277	8.657091e-08	5.130723e-06	-0.06332367	-0.06570008	9.131566e-07	7.531292e-07
	4.341606e-06	-8.203278e-07	0.01251726	0.01103517	9.131566e-07	7.531292e-07	-0.06545971	-0.06307378
4e+08	-0.06629645	-0.0657416	7.777922e-07	6.037086e-07	0.01350925	0.01010252	4.398602e-06	-1.028753e-06
	7.777922e-07	6.037086e-07	-0.06824875	-0.06325609	9.000657e-08	5.279116e-06	0.012909	0.01092377
	0.01350925	0.01010252	9.000657e-08	5.279116e-06	-0.06624158	-0.06555389	9.244556e-07	7.369443e-07
	4.398602e-06	-1.028753e-06	0.012909	0.01092377	9.244556e-07	7.369443e-07	-0.06841291	-0.06275866
4.1e+08	-0.06921037	-0.06547949	7.85141e-07	5.883862e-07	0.01389755	0.009922054	4.444935e-06	-1.243733e-06
	7.85141e-07	5.883862e-07	-0.07119046	-0.06283945	9.453979e-08	5.428641e-06	0.01329018	0.01079334
	0.01389755	0.009922054	9.453979e-08	5.428641e-06	-0.06915752	-0.0652876	9.336733e-07	7.196647e-07
	4.444935e-06	-1.243733e-06	0.01329018	0.01079334	9.336733e-07	7.196647e-07	-0.07135875	-0.06231917
4.2e+08	-0.0721172	-0.06509775	7.906218e-07	5.722328e-07	0.0142727	0.009722017	4.480156e-06	-1.464723e-06
	7.906218e-07	5.722328e-07	-0.07412005	-0.06229955	1.002477e-07	5.579272e-06	0.01365989	0.01064448
	0.0142727	0.009722017	1.002477e-07	5.579272e-06	-0.07206651	-0.06490153	9.407285e-07	7.014059e-07
	4.480156e-06	-1.464723e-06	0.01365989	0.01064448	9.407285e-07	7.014059e-07	-0.07429196	-0.06175586
4.3e+08	-0.07501197	-0.06459689	7.941696e-07	5.55353e-07	0.01463373	0.009503116	4.503844e-06	-1.691152e-06
	7.941696e-07	5.55353e-07	-0.07703233	-0.06163712	1.07207e-07	5.730981e-06	0.01401725	0.01047781
	0.01463373	0.009503116	1.07207e-07	5.730981e-06	-0.07496358	-0.06439616	9.455463e-07	6.82289e-07
	4.503844e-06	-1.691152e-06	0.01401725	0.01047781	9.455463e-07	6.82289e-07	-0.0772073	-0.06106949
4.4e+08	-0.07788979	-0.06397764	7.95725e-07	5.378555e-07	0.01497973	0.009266103	4.515607e-06	-1.922423e-06
	7.95725e-07	5.378555e-07	-0.07992216	-0.06085314	1.154931e-07	5.883733e-06	0.0143614	0.010294
	0.01497973	0.009266103	1.154931e-07	5.883733e-06	-0.07784381	-0.06377221	9.480581e-07	6.624395e-07
	4.515607e-06	-1.922423e-06	0.0143614	0.010294	9.480581e-07	6.624395e-07	-0.08009961	-0.06026106
4.5e+08	-0.0807458	-0.0632409	7.952345e-07	5.198531e-07	0.0153098	0.009011771	4.515084e-06	-2.157918e-06
	7.952345e-07	5.198531e-07	-0.08278446	-0.05994877	1.251808e-07	6.037491e-06	0.01469152	0.01009375
	0.0153098	0.009011771	1.251808e-07	6.037491e-06	-0.08070233	-0.06303058	9.482023e-07	6.419876e-07
	4.515084e-06	-2.157918e-06	0.01469152	0.01009375	9.482023e-07	6.419876e-07	-0.08296376	-0.05933174
4.6e+08	-0.08357517	-0.06238778	7.926507e-07	5.01462e-07	0.01562311	0.008740952	4.501947e-06	-2.396999e-06
	7.926507e-07	5.01462e-07	-0.08561422	-0.0589254	1.363431e-07	6.192213e-06	0.01500686	0.009877807
	0.01562311	0.008740952	1.363431e-07	6.192213e-06	-0.08353432	-0.06217236	9.45924e-07	6.210673e-07
	4.501947e-06	-2.396999e-06	0.01500686	0.009877807	9.45924e-07	6.210673e-07	-0.08579472	-0.05828296
4.7e+08	-0.08637318	-0.06141959	7.879324e-07	4.828018e-07	0.01591886	0.00845452	4.4759e-06	-2.639005e-06
	7.879324e-07	4.828018e-07	-0.08840649	-0.05778461	1.490517e-07	6.34785e-06	0.01530665	0.009646951
	0.01591886	0.00845452	1.490517e-07	6.34785e-06	-0.08633503	-0.06119884	9.411758e-07	5.998165e-07
	4.4759e-06	-2.639005e-06	0.01530665	0.009646951	9.411758e-07	5.998165e-07	-0.08858751	-0.05711633
4.8e+08	-0.08913514	-0.06033782	7.810451e-07	4.639953e-07	0.01619629	0.008153382	4.43668e-06	-2.883262e-06
	7.810451e-07	4.639953e-07	-0.09115644	-0.05652818	1.63376e-07	6.504352e-06	0.01559022	0.009401987
	0.01619629	0.008153382	1.63376e-07	6.504352e-06	-0.08909976	-0.06011153	9.339176e-07	5.783764e-07
