!$
! Info: Touchstone file created by Circ.  Input file=Tx_2in_Rx_85ohms_TxVia_35mils_RxVia_45mils.circ
!$
# Hz S RI R 50
0	0.001747029	4.792136e-26	-1.099875e-05	3.923523e-24	3.079631e-05	3.185284e-24	-1.101117e-05	5.458037e-24
	-1.099876e-05	3.923916e-24	0.001744926	5.327654e-26	-1.097939e-05	1.581004e-24	3.015005e-05	3.841486e-24
	3.1307e-05	3.229812e-24	-1.097939e-05	1.580322e-24	0.001759553	4.659428e-26	-1.099758e-05	3.82318e-24
	-1.101118e-05	5.458309e-24	2.830357e-05	3.860662e-24	-1.099759e-05	3.823741e-24	0.001758165	4.989016e-26
1e+07	0.002683443	-0.001506403	-4.728967e-05	-8.874197e-06	4.079308e-05	0.0005568547	-3.39469e-05	1.806158e-05
	-4.728967e-05	-8.874197e-06	0.002410197	-0.001554503	-1.23873e-06	-3.27407e-06	5.572186e-05	0.0005582375
	4.082296e-05	0.0005568498	-1.23873e-06	-3.27407e-06	0.002431594	-0.001582243	-9.886708e-06	-4.043936e-06
	-3.39469e-05	1.806158e-05	5.566233e-05	0.0005582477	-9.886708e-06	-4.043937e-06	0.002418539	-0.001544749
2e+07	0.00319562	-0.003700419	-4.298983e-05	-2.973745e-06	8.134716e-05	0.001111534	-3.500382e-05	1.511691e-05
	-4.298983e-05	-2.973745e-06	0.002936459	-0.003682418	-1.172023e-06	-1.12074e-06	0.0001035698	0.001101898
	8.134847e-05	0.001111512	-1.172023e-06	-1.12074e-06	0.00293645	-0.003730619	-9.082618e-06	-2.950462e-07
	-3.500382e-05	1.511691e-05	0.0001035621	0.001101932	-9.082618e-06	-2.950464e-07	0.002946613	-0.003661389
3e+07	0.003437613	-0.006125724	-4.011837e-05	-7.058335e-06	0.0001591216	0.001652235	-3.522038e-05	1.713016e-05
	-4.011837e-05	-7.058335e-06	0.003183626	-0.006087181	-1.133688e-06	-5.823919e-07	0.0001732754	0.001639266
	0.0001591155	0.001652233	-1.133688e-06	-5.823919e-07	0.003173265	-0.00614026	-8.669295e-06	-1.840139e-06
	-3.522038e-05	1.713016e-05	0.0001732754	0.001639271	-8.669295e-06	-1.840139e-06	0.003195203	-0.006056588
4e+07	0.00348507	-0.008637075	-3.782105e-05	-9.317776e-06	0.0002603265	0.002184897	-3.48499e-05	1.965519e-05
	-3.782105e-05	-9.317776e-06	0.003229566	-0.008586435	-1.101561e-06	-2.975601e-07	0.0002656265	0.002170562
	0.0002603271	0.002184901	-1.10156e-06	-2.975602e-07	0.003217009	-0.008639856	-8.399102e-06	-2.836527e-06
	-3.48499e-05	1.965519e-05	0.0002656211	0.00217056	-8.399102e-06	-2.836527e-06	0.003242303	-0.008546943
5e+07	0.003365618	-0.01119373	-3.590002e-05	-1.076837e-05	0.0003849483	0.002709395	-3.398013e-05	2.218726e-05
	-3.590002e-05	-1.076837e-05	0.003102617	-0.01113395	-1.072729e-06	-1.099814e-07	0.0003804166	0.002695015
	0.0003849505	0.002709396	-1.072729e-06	-1.099815e-07	0.003094908	-0.01118594	-8.235698e-06	-3.594793e-06
	-3.398013e-05	2.218726e-05	0.0003804129	0.002695014	-8.235698e-06	-3.594793e-06	0.003116193	-0.01108602
6e+07	0.003093148	-0.01377349	-3.42487e-05	-1.174605e-05	0.0005326371	0.003225106	-3.266664e-05	2.453614e-05
	-3.42487e-05	-1.174605e-05	0.002817387	-0.01370554	-1.045803e-06	2.908881e-08	0.0005172494	0.003211826
	0.0005326356	0.003225105	-1.045803e-06	2.908887e-08	0.002820646	-0.01375548	-8.158676e-06	-4.213663e-06
	-3.266664e-05	2.453614e-05	0.0005172516	0.003211825	-8.158676e-06	-4.213663e-06	0.00283146	-0.01364953
7e+07	0.00267607	-0.01636136	-3.279982e-05	-1.239188e-05	0.0007029871	0.003731245	-3.095717e-05	2.657484e-05
	-3.279982e-05	-1.239188e-05	0.002382646	-0.01628535	-1.039666e-06	6.390217e-09	0.0006757111	0.003720167
	0.000702981	0.003731245	-1.039666e-06	6.390347e-09	0.002402502	-0.01633307	-8.155024e-06	-4.733641e-06
	-3.095717e-05	2.657484e-05	0.0006757186	0.003720164	-8.155024e-06	-4.733641e-06	0.002396825	-0.01622159
8e+07	0.002120165	-0.01894581	-3.150381e-05	-1.276318e-05	0.0008955535	0.00422693	-2.890383e-05	2.817015e-05
	-3.150381e-05	-1.276318e-05	0.001804269	-0.0188613	-1.046507e-06	-7.518408e-08	0.0008553646	0.004219193
	0.0008955455	0.004226931	-1.046507e-06	-7.518394e-08	0.001846191	-0.01890681	-8.214811e-06	-5.1724e-06
	-2.890383e-05	2.817015e-05	0.0008553739	0.004219187	-8.214811e-06	-5.172399e-06	0.001818083	-0.01879007
9e+07	0.00142987	-0.02151723	-3.031591e-05	-1.285444e-05	0.001109836	0.004711246	-2.658087e-05	2.910825e-05
	-3.031591e-05	-1.285444e-05	0.001086698	-0.02142339	-1.05656e-06	-1.472214e-07	0.001055739	0.004708119
	0.00110983	0.004711249	-1.05656e-06	-1.472213e-07	0.001156193	-0.02146647	-8.329565e-06	-5.534511e-06
	-2.658087e-05	2.910825e-05	0.001055746	0.004708113	-8.329565e-06	-5.53451e-06	0.001099604	-0.02134489
1e+08	0.000608915	-0.0240674	-2.915736e-05	-1.242996e-05	0.001345332	0.005183532	-2.420248e-05	2.849716e-05
	-2.915736e-05	-1.242996e-05	0.0002335553	-0.02396362	-1.069506e-06	-2.172032e-07	0.001276464	0.005186831
	0.001345332	0.005183532	-1.069506e-06	-2.172032e-07	0.000336858	-0.02400106	-8.48948e-06	-5.795398e-06
	-2.420248e-05	2.849716e-05	0.001276464	0.005186831	-8.48948e-06	-5.795398e-06	0.0002449442	-0.02387803
1.1e+08	-0.0003391649	-0.02659513	-2.904162e-05	-1.17626e-05	0.001602018	0.005642048	-1.845988e-05	2.709491e-05
	-2.904162e-05	-1.17626e-05	-0.0007525343	-0.02647638	-1.069744e-06	-2.798865e-07	0.001519473	0.005652283
	0.001602018	0.005642048	-1.069744e-06	-2.798865e-07	-0.0005985416	-0.02651551	-8.801935e-06	-5.995618e-06
	-1.845988e-05	2.709491e-05	0.001519473	0.005652283	-8.801935e-06	-5.995618e-06	-0.000742804	-0.02638272
1.2e+08	-0.001412745	-0.02908363	-2.90511e-05	-1.145508e-05	0.001878328	0.006085622	-1.227459e-05	2.679507e-05
	-2.90511e-05	-1.145508e-05	-0.001867442	-0.02894697	-1.072865e-06	-3.302384e-07	0.00178086	0.006103042
	0.001878328	0.006085622	-1.072865e-06	-3.302384e-07	-0.001660777	-0.02899668	-9.156237e-06	-6.195971e-06
	-1.227459e-05	2.679507e-05	0.00178086	0.006103042	-9.156237e-06	-6.195971e-06	-0.001859838	-0.02884563
1.3e+08	-0.002607286	-0.03152737	-2.912676e-05	-1.123236e-05	0.002173568	0.006513648	-5.831729e-06	2.665048e-05
	-2.912676e-05	-1.123236e-05	-0.003106896	-0.03137001	-1.07868e-06	-3.73618e-07	0.002060101	0.006539118
	0.002173568	0.006513648	-1.07868e-06	-3.73618e-07	-0.002844988	-0.03143574	-9.544633e-06	-6.365116e-06
	-5.831729e-06	2.665048e-05	0.002060101	0.006539118	-9.544633e-06	-6.365116e-06	-0.003102059	-0.03126118
1.4e+08	-0.003918786	-0.03392105	-2.925436e-05	-1.103708e-05	0.00248693	0.006925271	8.267692e-07	2.642766e-05
	-2.925436e-05	-1.103708e-05	-0.004466819	-0.0337398	-1.086975e-06	-4.116442e-07	0.002356488	0.006959843
	0.002486929	0.00692527	-1.086975e-06	-4.116442e-07	-0.004147093	-0.03382644	-9.962562e-06	-6.496061e-06
	8.267692e-07	2.642766e-05	0.002356488	0.006959843	-9.962562e-06	-6.496061e-06	-0.004465431	-0.03362345
1.5e+08	-0.005343555	-0.03625962	-2.942507e-05	-1.084325e-05	0.002817541	0.00731964	7.671369e-06	2.600251e-05
	-2.942507e-05	-1.084325e-05	-0.005943298	-0.03605087	-1.097558e-06	-4.45239e-07	0.002669245	0.007364487
	0.002817541	0.00731964	-1.097558e-06	-4.45239e-07	-0.005563315	-0.03616323	-1.040581e-05	-6.585267e-06
	7.671369e-06	2.600251e-05	0.002669245	0.007364487	-1.040581e-05	-6.585267e-06	-0.005946018	-0.03592679
1.6e+08	-0.006878044	-0.03853821	-2.963195e-05	-1.063638e-05	0.003164482	0.007695943	1.467487e-05	2.529419e-05
	-2.963195e-05	-1.063638e-05	-0.007532494	-0.03829803	-1.110255e-06	-4.750006e-07	0.002997541	0.007752323
	0.003164482	0.007695943	-1.110255e-06	-4.750006e-07	-0.007090018	-0.0384409	-1.087027e-05	-6.630507e-06
	1.467487e-05	2.529419e-05	0.002997541	0.007752323	-1.087027e-05	-6.630507e-06	-0.007539922	-0.03816587
1.7e+08	-0.00851875	-0.04075212	-2.986903e-05	-1.040744e-05	0.00352679	0.008053408	2.180963e-05	2.424436e-05
	-2.986903e-05	-1.040744e-05	-0.009230579	-0.0404763	-1.124901e-06	-5.013442e-07	0.003340502	0.008122657
	0.00352679	0.008053408	-1.124901e-06	-5.013442e-07	-0.008723611	-0.04065454	-1.135189e-05	-6.630251e-06
	2.180963e-05	2.424436e-05	0.003340502	0.008122657	-1.135189e-05	-6.630251e-06	-0.009243242	-0.04033564
1.8e+08	-0.01026214	-0.04289682	-3.013088e-05	-1.015048e-05	0.003903463	0.008391314	2.904696e-05	2.280854e-05
	-3.013088e-05	-1.015048e-05	-0.01103368	-0.04258091	-1.141342e-06	-5.245676e-07	0.003697215	0.008474827
	0.003903463	0.008391314	-1.141342e-06	-5.245676e-07	-0.01046049	-0.04279949	-1.184664e-05	-6.583444e-06
	2.904696e-05	2.280854e-05	0.003697215	0.008474827	-1.184664e-05	-6.583444e-06	-0.01105204	-0.04243127
1.9e+08	-0.01210461	-0.04496792	-3.041247e-05	-9.861425e-06	0.004293466	0.008708988	3.635678e-05	2.095171e-05
	-3.041247e-05	-9.861425e-06	-0.01293787	-0.04460733	-1.15943e-06	-5.4489e-07	0.004066734	0.008808217
	0.004293466	0.008708988	-1.15943e-06	-5.4489e-07	-0.01229699	-0.04487125	-1.235052e-05	-6.489402e-06
	3.635678e-05	2.095171e-05	0.004066734	0.008808217	-1.235052e-05	-6.489402e-06	-0.01296231	-0.04444818
2e+08	-0.01404247	-0.04696121	-3.070899e-05	-9.537477e-06	0.004695731	0.009005809	4.370778e-05	1.864596e-05
	-3.070899e-05	-9.537477e-06	-0.01493912	-0.04655118	-1.179019e-06	-5.624761e-07	0.004448082	0.009122254
	0.004695731	0.009005809	-1.179019e-06	-5.624761e-07	-0.01422937	-0.04686555	-1.285954e-05	-6.347768e-06
	4.370778e-05	1.864596e-05	0.004448082	0.009122254	-1.285954e-05	-6.347768e-06	-0.01496996	-0.04638198
2.1e+08	-0.0160719	-0.04887267	-3.101588e-05	-9.176733e-06	0.00510916	0.009281213	5.106734e-05	1.58691e-05
	-3.101588e-05	-9.176733e-06	-0.0170333	-0.04840833	-1.19997e-06	-5.774523e-07	0.004840255	0.009416415
	0.00510916	0.009281213	-1.19997e-06	-5.774523e-07	-0.01625379	-0.04877831	-1.336978e-05	-6.158481e-06
	5.106734e-05	1.58691e-05	0.004840255	0.009416415	-1.336978e-05	-6.158481e-06	-0.01707081	-0.0482285
2.2e+08	-0.01818899	-0.05069844	-3.132874e-05	-8.777998e-06	0.00553263	0.009534689	5.840185e-05	1.260371e-05
	-3.132874e-05	-8.777998e-06	-0.01921616	-0.05017483	-1.222142e-06	-5.899171e-07	0.005242223	0.009690226
	0.00553263	0.009534689	-1.222142e-06	-5.899171e-07	-0.01836631	-0.05060564	-1.387735e-05	-5.921765e-06
	5.840185e-05	1.260371e-05	0.005242223	0.009690226	-1.387735e-05	-5.921765e-06	-0.01926056	-0.04998379
2.3e+08	-0.02038969	-0.05243485	-3.164333e-05	-8.340659e-06	0.005964995	0.009765784	6.5677e-05	8.836517e-06
	-3.164333e-05	-8.340659e-06	-0.02148334	-0.05184692	-1.245399e-06	-5.999495e-07	0.005652936	0.009943265
	0.005964995	0.009765784	-1.245399e-06	-5.999495e-07	-0.02056286	-0.05234383	-1.437842e-05	-5.638124e-06
	6.5677e-05	8.836517e-06	0.005652936	0.009943265	-1.437842e-05	-5.638124e-06	-0.02153481	-0.05164409
2.4e+08	-0.02266984	-0.05407843	-3.195558e-05	-7.864529e-06	0.006405087	0.009974104	7.285741e-05	4.558185e-06
	-3.195558e-05	-7.864529e-06	-0.02383039	-0.05342107	-1.269605e-06	-6.076146e-07	0.006071323	0.01017516
	0.006405087	0.009974104	-1.269605e-06	-6.076146e-07	-0.02283928	-0.05398938	-1.486925e-05	-5.308317e-06
	7.285741e-05	4.558185e-06	0.006071323	0.01017516	-1.486925e-05	-5.308317e-06	-0.02388907	-0.05320586
2.5e+08	-0.02502518	-0.05562591	-3.226158e-05	-7.349855e-06	0.006851723	0.01015931	7.990744e-05	-2.37191e-07
	-3.226158e-05	-7.349855e-06	-0.02625272	-0.05489396	-1.294626e-06	-6.129686e-07	0.0064963	0.01038561
	0.006851723	0.01015931	-1.294626e-06	-6.129686e-07	-0.0251913	-0.05553898	-1.534619e-05	-4.93337e-06
	7.990744e-05	-2.37191e-07	0.0064963	0.01038561	-1.534619e-05	-4.93337e-06	-0.02631871	-0.05466577
2.6e+08	-0.02745134	-0.05707421	-3.255754e-05	-6.797217e-06	0.007303704	0.01032114	8.679096e-05	-5.552099e-06
	-3.255754e-05	-6.797217e-06	-0.02874564	-0.05626247	-1.320328e-06	-6.160615e-07	0.006926766	0.01057433
	0.007303704	0.01032114	-1.320328e-06	-6.160615e-07	-0.02761453	-0.05698955	-1.580569e-05	-4.514552e-06
	8.679096e-05	-5.552099e-06	0.006926766	0.01057433	-1.580569e-05	-4.514552e-06	-0.028819	-0.05602069
2.7e+08	-0.02994382	-0.05842047	-3.283986e-05	-6.207536e-06	0.00775982	0.01045937	9.34721e-05	-1.138609e-05
	-3.283986e-05	-6.207536e-06	-0.03130438	-0.05752372	-1.346578e-06	-6.169405e-07	0.007361614	0.01074114
	0.00775982	0.01045937	-1.346578e-06	-6.169405e-07	-0.0301045	-0.05833818	-1.624434e-05	-4.053384e-06
	9.34721e-05	-1.138609e-05	0.007361614	0.01074114	-1.624434e-05	-4.053384e-06	-0.03138514	-0.05726775
2.8e+08	-0.03249808	-0.05966203	-3.310509e-05	-5.581999e-06	0.008218854	0.01057385	9.991453e-05	-1.773548e-05
	-3.310509e-05	-5.581999e-06	-0.03392404	-0.05867503	-1.373246e-06	-6.156514e-07	0.007799728	0.01088588
	0.008218854	0.01057385	-1.373246e-06	-6.156514e-07	-0.03265665	-0.05958217	-1.665885e-05	-3.551609e-06
	9.991453e-05	-1.773548e-05	0.007799728	0.01088588	-1.665885e-05	-3.551609e-06	-0.03401221	-0.05840425
2.9e+08	-0.03510947	-0.06079644	-3.334998e-05	-4.922052e-06	0.008679583	0.01066449	0.0001060822	-2.459367e-05
	-3.334998e-05	-4.922052e-06	-0.03659968	-0.05971397	-1.400202e-06	-6.122407e-07	0.008239987	0.01100846
	0.008679583	0.01066449	-1.400202e-06	-6.122407e-07	-0.03526632	-0.06071907	-1.704611e-05	-3.011189e-06
	0.0001060822	-2.459367e-05	0.008239987	0.01100846	-1.704611e-05	-3.011189e-06	-0.03669522	-0.05942775
3e+08	-0.03777326	-0.06182147	-3.357141e-05	-4.229402e-06	0.009140786	0.01073127	0.0001119401	-3.195161e-05
	-3.357141e-05	-4.229402e-06	-0.03932625	-0.06063832	-1.427317e-06	-6.067573e-07	0.008681271	0.01110884
	0.009140786	0.01073127	-1.427317e-06	-6.067573e-07	-0.03792877	-0.06174659	-1.740315e-05	-2.434307e-06
	0.0001119401	-3.195161e-05	0.008681271	0.01110884	-1.740315e-05	-2.434307e-06	-0.0394291	-0.06033604
3.1e+08	-0.04048465	-0.06273508	-3.376651e-05	-3.505949e-06	0.009601241	0.01077422	0.0001174527	-3.979706e-05
	-3.376651e-05	-3.505949e-06	-0.04209865	-0.06144608	-1.454468e-06	-5.992525e-07	0.00912246	0.01118705
	0.009601241	0.01077422	-1.454468e-06	-5.992525e-07	-0.04063923	-0.06266268	-1.77272e-05	-1.823326e-06
	0.0001174527	-3.979706e-05	0.00912246	0.01118705	-1.77272e-05	-1.823326e-06	-0.0422087	-0.06112712
3.2e+08	-0.04323881	-0.06353547	-3.393253e-05	-2.753798e-06	0.01005973	0.01079343	0.0001225856	-4.811509e-05
	-3.393253e-05	-2.753798e-06	-0.04491172	-0.06213552	-1.48153e-06	-5.897819e-07	0.009562442	0.01124317
	0.01005973	0.01079343	-1.48153e-06	-5.897819e-07	-0.04339282	-0.0634655	-1.801568e-05	-1.180795e-06
	0.0001225856	-4.811509e-05	0.009562442	0.01124317	-1.801568e-05	-1.180795e-06	-0.04502882	-0.06179922
3.3e+08	-0.04603083	-0.06422104	-3.406705e-05	-1.975273e-06	0.01051505	0.01078906	0.0001273105	-5.689273e-05
	-3.406705e-05	-1.975273e-06	-0.04776023	-0.06270508	-1.508384e-06	-5.784056e-07	0.01000011	0.01127732
	0.01051505	0.01078906	-1.508384e-06	-5.784056e-07	-0.04618463	-0.06415344	-1.826624e-05	-5.094669e-07
	0.0001273105	-5.689273e-05	0.01000011	0.01127732	-1.826624e-05	-5.094669e-07	-0.04788423	-0.06235083
3.4e+08	-0.04885576	-0.06479042	-3.414693e-05	-1.163031e-06	0.010966	0.01076134	0.0001295966	-6.444262e-05
	-3.414693e-05	-1.163031e-06	-0.05063895	-0.06315349	-1.534888e-06	-5.653992e-07	0.01043437	0.01128969
	0.010966	0.01076134	-1.534888e-06	-5.653992e-07	-0.04900972	-0.06472507	-1.845469e-05	1.972733e-07
	0.0001295966	-6.444262e-05	0.01043437	0.01128969	-1.845469e-05	1.972733e-07	-0.05076963	-0.06278064
3.5e+08	-0.05170864	-0.06524242	-3.418635e-05	-3.290182e-07	0.01141141	0.01071053	0.0001312063	-7.208959e-05
	-3.418635e-05	-3.290182e-07	-0.05354259	-0.06347967	-1.56097e-06	-5.506787e-07	0.01086413	0.01128052
	0.01141141	0.01071053	-1.56097e-06	-5.506787e-07	-0.0518631	-0.06517921	-1.859631e-05	9.271748e-07
	0.0001312063	-7.208959e-05	0.01086413	0.01128052	-1.859631e-05	9.271748e-07	-0.05367969	-0.0630876
3.6e+08	-0.05458446	-0.06557611	-3.418651e-05	5.22408e-07	0.0118501	0.01063698	0.0001324148	-8.005572e-05
	-3.418651e-05	5.22408e-07	-0.05646585	-0.06368279	-1.586534e-06	-5.342887e-07	0.01128834	0.01125012
	0.0118501	0.01063698	-1.586534e-06	-5.342887e-07	-0.05473975	-0.06551487	-1.869265e-05	1.675498e-06
	0.0001324148	-8.005572e-05	0.01128834	0.01125012	-1.869265e-05	1.675498e-06	-0.05660908	-0.06327087
3.7e+08	-0.0574782	-0.06579073	-3.414586e-05	1.388303e-06	0.01228094	0.01054109	0.0001331944	-8.831751e-05
	-3.414586e-05	1.388303e-06	-0.0594034	-0.06376225	-1.611481e-06	-5.163098e-07	0.01170595	0.01119882
	0.01228094	0.01054109	-1.611481e-06	-5.163098e-07	-0.05763464	-0.06573131	-1.874232e-05	2.438891e-06
	0.0001331944	-8.831751e-05	0.01170595	0.01119882	-1.874232e-05	2.438891e-06	-0.05955245	-0.06332987
3.8e+08	-0.06038484	-0.06588577	-3.40631e-05	2.265631e-06	0.0127028	0.01042329	0.0001335191	-9.68495e-05
	-3.40631e-05	2.265631e-06	-0.06234994	-0.06371768	-1.63572e-06	-4.968274e-07	0.01211592	0.01112702
	0.0127028	0.01042329	-1.63572e-06	-4.968274e-07	-0.06054274	-0.06582795	-1.874419e-05	3.213927e-06
	0.0001335191	-9.68495e-05	0.01211592	0.01112702	-1.874419e-05	3.213927e-06	-0.06250445	-0.06326421
3.9e+08	-0.06329936	-0.0658609	-3.393712e-05	3.151301e-06	0.0131146	0.01028409	0.0001333646	-0.0001056243
	-3.393712e-05	3.151301e-06	-0.06530016	-0.06354893	-1.659167e-06	-4.759318e-07	0.01251726	0.01103517
	0.0131146	0.01028409	-1.659167e-06	-4.759318e-07	-0.06345899	-0.06580447	-1.869738e-05	3.997119e-06
	0.0001333646	-0.0001056243	0.01251726	0.01103517	-1.869738e-05	3.997119e-06	-0.06545971	-0.06307378
4e+08	-0.06621674	-0.06571602	-3.376709e-05	4.042152e-06	0.01351528	0.01012405	0.0001327083	-0.000114613
	-3.376709e-05	4.042152e-06	-0.06824875	-0.06325609	-1.681744e-06	-4.537187e-07	0.012909	0.01092377
	0.01351528	0.01012405	-1.681744e-06	-4.537187e-07	-0.06637836	-0.06566075	-1.860125e-05	4.784935e-06
	0.0001327083	-0.000114613	0.012909	0.01092377	-1.860125e-05	4.784935e-06	-0.06841291	-0.06275866
4.1e+08	-0.06913197	-0.06545123	-3.35524e-05	4.935003e-06	0.01390379	0.009943789	0.00013153	-0.000123785
	-3.35524e-05	4.935003e-06	-0.07119046	-0.06283945	-1.703383e-06	-4.302871e-07	0.01329018	0.01079334
	0.01390379	0.009943789	-1.703383e-06	-4.302871e-07	-0.06929583	-0.06539686	-1.845543e-05	5.573821e-06
	0.00013153	-0.000123785	0.01329018	0.01079334	-1.845543e-05	5.573821e-06	-0.07135875	-0.06231917
4.2e+08	-0.07204007	-0.06506684	-3.329269e-05	5.826659e-06	0.01427914	0.009743951	0.000129811	-0.0001331084
	-3.329269e-05	5.826659e-06	-0.07412005	-0.06229955	-1.724023e-06	-4.057393e-07	0.01365989	0.01064448
	0.01427914	0.009743951	-1.724023e-06	-4.057393e-07	-0.07220641	-0.0650131	-1.825981e-05	6.360224e-06
	0.000129811	-0.0001331084	0.01365989	0.01064448	-1.825981e-05	6.360224e-06	-0.07429196	-0.06175586
4.3e+08	-0.07493612	-0.06456337	-3.298781e-05	6.713921e-06	0.01464037	0.009525245	0.0001275349	-0.0001425499
	-3.298781e-05	6.713921e-06	-0.07703233	-0.06163712	-1.743613e-06	-3.801808e-07	0.01401725	0.01047781
	0.01464037	0.009525245	-1.743613e-06	-3.801808e-07	-0.07510512	-0.06450997	-1.801451e-05	7.140598e-06
	0.0001275349	-0.0001425499	0.01401725	0.01047781	-1.801451e-05	7.140598e-06	-0.0772073	-0.06106949
4.4e+08	-0.07781519	-0.06394152	-3.263786e-05	7.593602e-06	0.01498655	0.009288422	0.0001246877	-0.0001520752
	-3.263786e-05	7.593602e-06	-0.07992216	-0.06085314	-1.76211e-06	-3.537201e-07	0.0143614	0.010294
	0.01498655	0.009288422	-1.76211e-06	-3.537201e-07	-0.07798706	-0.06388816	-1.771992e-05	7.911426e-06
	0.0001246877	-0.0001520752	0.0143614	0.010294	-1.771992e-05	7.911426e-06	-0.08009961	-0.06026106
4.5e+08	-0.08067243	-0.06320221	-3.224317e-05	8.46254e-06	0.0153168	0.009034275	0.0001212575	-0.0001616492
	-3.224317e-05	8.46254e-06	-0.08278446	-0.05994877	-1.77948e-06	-3.26468e-07	0.01469152	0.01009375
	0.0153168	0.009034275	-1.77948e-06	-3.26468e-07	-0.08084733	-0.06314858	-1.737668e-05	8.669233e-06
	0.0001212575	-0.0001616492	0.01469152	0.01009375	-1.737668e-05	8.669233e-06	-0.08296376	-0.05933174
4.6e+08	-0.08350305	-0.06234654	-3.180427e-05	9.317637e-06	0.01563027	0.008763638	0.0001172345	-0.0001712356
	-3.180427e-05	9.317637e-06	-0.08561422	-0.0589254	-1.7957e-06	-2.985341e-07	0.01500686	0.009877807
	0.01563027	0.008763638	-1.7957e-06	-2.985341e-07	-0.08368111	-0.06229232	-1.698564e-05	9.410618e-06
	0.0001172345	-0.0001712356	0.01500686	0.009877807	-1.698564e-05	9.410618e-06	-0.08579472	-0.05828296
4.7e+08	-0.08630228	-0.06137583	-3.132193e-05	1.015583e-05	0.01592618	0.008477385	0.0001126116	-0.0001807977
	-3.132193e-05	1.015583e-05	-0.08840649	-0.05778461	-1.810757e-06	-2.700319e-07	0.01530665	0.009646951
