!$
! Info: Touchstone file created by Circ.  Input file=Tx_2in_Rx_93ohms_TxVia_35mils_RxVia_45mils.circ
!$
# Hz S RI R 50
0	0.00197148	4.616061e-26	7.552388e-10	3.352676e-28	3.025235e-05	3.595202e-24	3.764448e-10	7.544493e-29
	7.552389e-10	3.352458e-28	0.001969848	5.318072e-26	2.536196e-09	1.280578e-27	3.010762e-05	4.353122e-24
	3.006582e-05	3.580109e-24	2.536196e-09	1.280587e-27	0.00198246	4.617849e-26	7.577902e-10	3.588349e-28
	3.764447e-10	7.543836e-29	2.82611e-05	4.374811e-24	7.577907e-10	3.588499e-28	0.001983083	4.98007e-26
1e+07	0.002825735	0.0002019164	9.429449e-10	1.440946e-09	5.613244e-05	0.0005635495	5.635917e-10	7.720121e-10
	9.429449e-10	1.440946e-09	0.002880877	0.0002006517	3.639744e-09	7.013078e-09	5.532354e-05	0.0005613166
	5.612725e-05	0.0005635506	3.639744e-09	7.013078e-09	0.002897614	0.0002087543	9.48614e-10	1.457642e-09
	5.635917e-10	7.720121e-10	5.526397e-05	0.0005613268	9.486138e-10	1.457641e-09	0.002839603	0.0002034603
2e+07	0.003459655	-0.0002339186	1.250503e-09	2.544772e-09	8.29997e-05	0.001130589	7.860723e-10	1.32956e-09
	1.250503e-09	2.544772e-09	0.003497926	-0.0002576545	4.807411e-09	1.236849e-08	8.077236e-05	0.001126578
	8.300114e-05	0.001130593	4.807411e-09	1.236849e-08	0.003521494	-0.0002424719	1.25434e-09	2.568421e-09
	7.860722e-10	1.329561e-09	8.076448e-05	0.001126612	1.25434e-09	2.568421e-09	0.003468077	-0.0002316297
3e+07	0.003904272	-0.0009245237	1.508739e-09	3.596012e-09	0.0001539151	0.001678721	9.959284e-10	1.856612e-09
	1.508739e-09	3.596012e-09	0.003924715	-0.0009564529	5.628143e-09	1.755116e-08	0.0001456304	0.001673838
	0.0001539176	0.00167872	5.628143e-09	1.755116e-08	0.003959071	-0.0009351036	1.502513e-09	3.628243e-09
	9.959284e-10	1.856612e-09	0.0001456304	0.001673843	1.502513e-09	3.628243e-09	0.003903904	-0.0009205632
4e+07	0.004234022	-0.001715199	1.772227e-09	4.609617e-09	0.0002585378	0.002216984	1.22582e-09	2.357793e-09
	1.772227e-09	4.609617e-09	0.004234377	-0.001751601	6.358826e-09	2.263286e-08	0.0002446425	0.002211643
	0.0002585384	0.002216982	6.358826e-09	2.263286e-08	0.004283629	-0.001724957	1.74974e-09	4.652212e-09
	1.22582e-09	2.357793e-09	0.0002446371	0.002211641	1.74974e-09	4.652212e-09	0.004221345	-0.001709298
5e+07	0.004475572	-0.002566869	2.04548e-09	5.588744e-09	0.0003859154	0.002746462	1.477829e-09	2.833066e-09
	2.04548e-09	5.588744e-09	0.004453031	-0.002604954	7.030569e-09	2.762185e-08	0.0003651276	0.002741208
	0.0003859155	0.002746462	7.030569e-09	2.762185e-08	0.004521278	-0.002574541	2.001118e-09	5.643825e-09
	1.477829e-09	2.833066e-09	0.0003651239	0.002741207	2.001118e-09	5.643825e-09	0.004446811	-0.002558216
6e+07	0.004641882	-0.003459974	2.327841e-09	6.538131e-09	0.0005358393	0.003266826	1.750653e-09	3.283953e-09
	2.327841e-09	6.538131e-09	0.004593733	-0.003497198	7.650309e-09	3.25408e-08	0.0005069095	0.003262267
	0.0005358403	0.003266826	7.650309e-09	3.25408e-08	0.004684673	-0.003464855	2.256521e-09	6.608055e-09
	1.750653e-09	3.283953e-09	0.0005069118	0.003262266	2.256521e-09	6.608055e-09	0.004593501	-0.003447464
7e+07	0.004740385	-0.004382264	2.619917e-09	7.461728e-09	0.0007079949	0.003777444	2.043663e-09	3.711866e-09
	2.619917e-09	7.461728e-09	0.004663942	-0.004416262	8.227829e-09	3.740893e-08	0.0006697079	0.003774255
	0.000707997	0.003777444	8.227829e-09	3.740893e-08	0.004781063	-0.00438389	2.516939e-09	7.54912e-09
	2.043663e-09	3.711866e-09	0.0006697154	0.003774251	2.516939e-09	7.54912e-09	0.004668905	-0.004364748
8e+07	0.004775844	-0.005324795	2.922938e-09	8.361494e-09	0.0009020031	0.004277513	2.356441e-09	4.117322e-09
	2.922938e-09	8.361494e-09	0.004668336	-0.005353161	8.77431e-09	4.223729e-08	0.0008531736	0.004276439
	0.0009020054	0.004277512	8.774311e-09	4.223729e-08	0.004815094	-0.005322778	2.783876e-09	8.469451e-09
	2.356441e-09	4.117322e-09	0.0008531829	0.004276433	2.783876e-09	8.469452e-09	0.004677651	-0.005300982
9e+07	0.004751743	-0.006279923	3.237827e-09	9.237733e-09	0.001117412	0.004766113	2.686989e-09	4.498385e-09
	3.237827e-09	9.237733e-09	0.004610343	-0.00629991	9.298873e-09	4.702813e-08	0.001056886	0.004767991
	0.001117413	0.004766112	9.298873e-09	4.702813e-08	0.004790192	-0.006273777	3.057783e-09	9.368548e-09
	2.686989e-09	4.498385e-09	0.001056893	0.004767986	3.057783e-09	9.368549e-09	0.004623082	-0.006248194
1e+08	0.004671983	-0.007236677	3.561774e-09	1.008559e-08	0.001353682	0.005242113	3.023621e-09	4.844092e-09
	3.561774e-09	1.008559e-08	0.004494125	-0.007244289	9.803005e-09	5.176829e-08	0.001280365	0.005247974
	0.001353682	0.005242113	9.803005e-09	5.176829e-08	0.004710448	-0.007224977	3.335792e-09	1.024233e-08
	3.023621e-09	4.844092e-09	0.001280365	0.005247974	3.335792e-09	1.024233e-08	0.004509089	-0.007194927
1.1e+08	0.004558288	-0.00821178	3.898002e-09	1.091778e-08	0.001609004	0.00570512	3.380723e-09	5.17248e-09
	3.898002e-09	1.091778e-08	0.004345735	-0.008204177	1.028296e-08	5.648911e-08	0.001522453	0.00571567
	0.001609004	0.00570512	1.028296e-08	5.648911e-08	0.004601337	-0.008195162	3.626579e-09	1.111166e-08
	3.380723e-09	5.17248e-09	0.001522453	0.00571567	3.626579e-09	1.111166e-08	0.004359408	-0.008155614
1.2e+08	0.00438524	-0.00919688	4.244361e-09	1.17281e-08	0.001884123	0.006154603	3.757736e-09	5.472789e-09
	4.244361e-09	1.17281e-08	0.004135127	-0.009173932	1.073825e-08	6.119267e-08	0.001783186	0.006170645
	0.001884122	0.006154603	1.073825e-08	6.119267e-08	0.00443253	-0.009177856	3.924611e-09	1.196045e-08
	3.757736e-09	5.472789e-09	0.001783186	0.006170645	3.924611e-09	1.196045e-08	0.00414728	-0.009125307
1.3e+08	0.004156635	-0.01018269	4.599967e-09	1.25169e-08	0.00217835	0.006589395	4.150966e-09	5.745771e-09
	4.599967e-09	1.25169e-08	0.003866182	-0.01014277	1.117248e-08	6.588417e-08	0.002061983	0.006611933
	0.00217835	0.006589395	1.117248e-08	6.588417e-08	0.00420787	-0.01016248	4.228537e-09	1.278991e-08
	4.150966e-09	5.745771e-09	0.002061983	0.006611933	4.228537e-09	1.278991e-08	0.003876252	-0.01009394
1.4e+08	0.003874821	-0.01116509	4.965202e-09	1.32837e-08	0.002490937	0.007008536	4.559317e-09	5.990503e-09
	4.965202e-09	1.32837e-08	0.003541333	-0.01110597	1.158942e-08	7.056703e-08	0.002358182	0.007038673
	0.002490937	0.007008536	1.158942e-08	7.056703e-08	0.00392969	-0.01114452	4.538676e-09	1.360031e-08
	4.559317e-09	5.990503e-09	0.002358182	0.007038673	4.538676e-09	1.360031e-08	0.003548677	-0.01105676
1.5e+08	0.003541626	-0.0121409	5.341636e-09	1.402713e-08	0.002821082	0.007411131	4.982568e-09	6.205208e-09
	5.341636e-09	1.402713e-08	0.003162562	-0.01205992	1.199219e-08	7.524365e-08	0.002671064	0.007450046
	0.002821082	0.007411131	1.199219e-08	7.524365e-08	0.00359983	-0.01212056	4.856714e-09	1.439097e-08
	4.982568e-09	6.205208e-09	0.002671065	0.007450046	4.856714e-09	1.439097e-08	0.003166536	-0.01201009
1.6e+08	0.003158585	-0.01310737	5.725527e-09	1.474801e-08	0.003167941	0.00779634	5.4172e-09	6.390373e-09
	5.725527e-09	1.474801e-08	0.002731604	-0.01300154	1.238332e-08	7.991581e-08	0.002999868	0.007845278
	0.003167941	0.00779634	1.238332e-08	7.991581e-08	0.00321985	-0.01308772	5.179205e-09	1.516327e-08
	5.4172e-09	6.390373e-09	0.002999868	0.007845278	5.179205e-09	1.516327e-08	0.002731606	-0.01295078
1.7e+08	0.00272706	-0.01406198	6.116051e-09	1.544586e-08	0.003530628	0.008163368	5.861584e-09	6.545238e-09
	6.116051e-09	1.544586e-08	0.002250046	-0.01392805	1.276484e-08	8.458494e-08	0.003343787	0.008223631
	0.003530627	0.008163368	1.276484e-08	8.458494e-08	0.002791142	-0.0140434	5.505674e-09	1.591719e-08
	5.861584e-09	6.545238e-09	0.003343787	0.008223631	5.505674e-09	1.591719e-08	0.002245528	-0.013876
1.8e+08	0.002248316	-0.01500239	6.512235e-09	1.612018e-08	0.003908218	0.008511468	6.313993e-09	6.669119e-09
	6.512235e-09	1.612018e-08	0.00171939	-0.0148369	1.313835e-08	8.925222e-08	0.003701982	0.008584411
	0.003908218	0.008511468	1.313835e-08	8.925222e-08	0.002314996	-0.01498519	5.835541e-09	1.665265e-08
	6.313993e-09	6.669119e-09	0.003701982	0.008584411	5.835541e-09	1.665265e-08	0.001709865	-0.01478315
1.9e+08	0.001723573	-0.01592635	6.912984e-09	1.677056e-08	0.004299756	0.008839938	6.772626e-09	6.761433e-09
	6.912984e-09	1.677056e-08	0.001141098	-0.01572568	1.350519e-08	9.39187e-08	0.00407358	0.008926965
	0.004299756	0.008839938	1.350519e-08	9.39187e-08	0.00179265	-0.01591082	6.168132e-09	1.736951e-08
	6.772626e-09	6.761433e-09	0.00407358	0.008926965	6.168132e-09	1.736951e-08	0.001126133	-0.01566981
2e+08	0.001154038	-0.01683174	7.31711e-09	1.739661e-08	0.004704251	0.009148124	7.23562e-09	6.821702e-09
	7.31711e-09	1.739661e-08	0.0005166225	-0.01659212	1.386646e-08	9.858537e-08	0.004457674	0.009250682
	0.004704251	0.009148124	1.386646e-08	9.858537e-08	0.001225322	-0.01681813	6.502691e-09	1.806764e-08
	7.23562e-09	6.821702e-09	0.004457674	0.009250682	6.502691e-09	1.806764e-08	0.0004958328	-0.01653369
2.1e+08	0.0005409283	-0.01771649	7.723351e-09	1.799803e-08	0.005120684	0.009435422	7.701067e-09	6.849556e-09
	7.723351e-09	1.799803e-08	-0.0001525773	-0.01743405	1.422313e-08	1.032532e-07	0.004853331	0.009554994
	0.005120684	0.009435422	1.422313e-08	1.032532e-07	0.0006142293	-0.01770509	6.838389e-09	1.874693e-08
	7.701067e-09	6.849556e-09	0.004853331	0.009554994	6.838389e-09	1.874693e-08	-0.0001795339	-0.01737263
2.2e+08	-0.0001145171	-0.01857865	8.130387e-09	1.85746e-08	0.005548005	0.009701272	8.167027e-09	6.844743e-09
	8.130387e-09	1.85746e-08	-0.0008650188	-0.01824941	1.457607e-08	1.079231e-07	0.005259591	0.009839379
	0.005548004	0.009701272	1.457607e-08	1.079231e-07	-3.939157e-05	-0.0185697	7.174334e-09	1.940727e-08
	8.167027e-09	6.844743e-09	0.005259591	0.009839379	7.174334e-09	1.940727e-08	-0.0008984476	-0.01818455
2.3e+08	-0.000811024	-0.01941633	8.536855e-09	1.912615e-08	0.00598514	0.00994517	8.631538e-09	6.807121e-09
	8.536855e-09	1.912615e-08	-0.001619184	-0.01903623	1.492606e-08	1.125959e-07	0.005675468	0.01010336
	0.00598514	0.00994517	1.492606e-08	1.125959e-07	-0.0007342747	-0.01941009	7.509586e-09	2.00486e-08
	8.631538e-09	6.807121e-09	0.005675468	0.01010336	7.509586e-09	2.00486e-08	-0.001659361	-0.01896749
2.4e+08	-0.001547283	-0.02022771	8.941355e-09	1.96526e-08	0.006430991	0.01016666	9.092624e-09	6.736662e-09
	8.941355e-09	1.96526e-08	-0.002413521	-0.01979262	1.527388e-08	1.172725e-07	0.006099956	0.0103465
	0.006430991	0.01016666	1.527388e-08	1.172725e-07	-0.001469126	-0.02022442	7.843157e-09	2.06709e-08
	9.092624e-09	6.736662e-09	0.006099956	0.0103465	7.843157e-09	2.06709e-08	-0.002460698	-0.01971956
2.5e+08	-0.002321942	-0.02101107	9.342469e-09	2.015397e-08	0.006884438	0.01036534	9.548305e-09	6.633453e-09
	9.342469e-09	2.015397e-08	-0.003246433	-0.02051681	1.562026e-08	1.219538e-07	0.006532026	0.01056843
	0.006884438	0.01036534	1.562026e-08	1.219538e-07	-0.002242607	-0.02101097	8.174038e-09	2.127421e-08
	9.548305e-09	6.633453e-09	0.006532026	0.01056843	8.174038e-09	2.127421e-08	-0.003300837	-0.02043897
2.6e+08	-0.003133605	-0.02176473	9.730955e-09	2.06271e-08	0.007344342	0.01054086	9.996601e-09	6.497819e-09
	9.730955e-09	2.06271e-08	-0.004116285	-0.02120709	1.596126e-08	1.266373e-07	0.006970633	0.01076881
	0.007344342	0.01054086	1.596126e-08	1.266373e-07	-0.003053345	-0.02176806	8.493303e-09	2.185537e-08
	9.996601e-09	6.497819e-09	0.006970633	0.01076881	8.493303e-09	2.185537e-08	-0.004178118	-0.02112401
2.7e+08	-0.003980833	-0.02248711	1.01111e-08	2.107535e-08	0.007809547	0.01069293	1.043556e-08	6.329977e-09
	1.01111e-08	2.107535e-08	-0.005021387	-0.02186185	1.630106e-08	1.313268e-07	0.007414716	0.01094736
	0.007809547	0.01069293	1.630106e-08	1.313268e-07	-0.003899917	-0.0224941	8.805682e-09	2.241775e-08
	1.043556e-08	6.329977e-09	0.007414716	0.01094736	8.805682e-09	2.241775e-08	-0.005090835	-0.02177307
2.8e+08	-0.004862147	-0.0231767	1.04827e-08	2.149961e-08	0.008278884	0.01082132	1.086324e-08	6.130322e-09
	1.04827e-08	2.149961e-08	-0.005960016	-0.02247955	1.664116e-08	1.360235e-07	0.007863202	0.01110384
	0.008278884	0.01082132	1.664116e-08	1.360235e-07	-0.004780865	-0.02318757	9.11138e-09	2.296219e-08
	1.086324e-08	6.130322e-09	0.007863202	0.01110384	9.11138e-09	2.296219e-08	-0.006037245	-0.02238461
2.9e+08	-0.005776029	-0.02383207	1.084433e-08	2.190028e-08	0.008751173	0.01092583	1.12777e-08	5.899375e-09
	1.084433e-08	2.190028e-08	-0.006930402	-0.02305876	1.698236e-08	1.407283e-07	0.008315005	0.01123808
	0.008751173	0.01092583	1.698236e-08	1.407283e-07	-0.005694683	-0.02384701	9.40933e-09	2.348903e-08
	1.12777e-08	5.899375e-09	0.008315005	0.01123808	9.40933e-09	2.348903e-08	-0.007015557	-0.02295718
3e+08	-0.006720912	-0.02445187	1.119456e-08	2.227783e-08	0.009225224	0.01100635	1.167705e-08	5.637763e-09
	1.119456e-08	2.227783e-08	-0.007930734	-0.02359813	1.732545e-08	1.454418e-07	0.008769033	0.01134995
	0.009225224	0.01100635	1.732545e-08	1.454418e-07	-0.00663983	-0.02447106	9.698467e-09	2.399868e-08
	1.167705e-08	5.637763e-09	0.008769033	0.01134995	9.698467e-09	2.399868e-08	-0.00802394	-0.02348942
3.1e+08	-0.007695204	-0.02503479	1.153195e-08	2.263282e-08	0.009699844	0.01106282	1.205942e-08	5.346216e-09
	1.153195e-08	2.263282e-08	-0.008959165	-0.02409639	1.767124e-08	1.501649e-07	0.009224189	0.01143938
	0.009699844	0.01106282	1.767124e-08	1.501649e-07	-0.007614726	-0.02505841	9.977726e-09	2.44916e-08
	1.205942e-08	5.346216e-09	0.009224189	0.01143938	9.977726e-09	2.44916e-08	-0.009060528	-0.02398006
3.2e+08	-0.008697266	-0.02557964	1.185511e-08	2.29659e-08	0.01017383	0.01109522	1.242297e-08	5.025564e-09
	1.185511e-08	2.29659e-08	-0.01001381	-0.02455236	1.802058e-08	1.548982e-07	0.009679372	0.01150634
	0.01017383	0.01109522	1.802058e-08	1.548982e-07	-0.008617752	-0.02560784	1.024605e-08	2.496831e-08
	1.242297e-08	5.025564e-09	0.009679372	0.01150634	1.024605e-08	2.496831e-08	-0.01012341	-0.02442792
3.3e+08	-0.009725432	-0.02608529	1.216262e-08	2.327776e-08	0.010646	0.01110361	1.276591e-08	4.676738e-09
	1.216262e-08	2.327776e-08	-0.01109276	-0.02496497	1.83743e-08	1.596422e-07	0.01013348	0.01155086
	0.010646	0.01110361	1.83743e-08	1.596422e-07	-0.009647253	-0.02611819	1.05024e-08	2.542941e-08
	1.276591e-08	4.676738e-09	0.01013348	0.01155086	1.05024e-08	2.542941e-08	-0.01121066	-0.02483191
3.4e+08	-0.010778	-0.02655067	1.245314e-08	2.35692e-08	0.01111514	0.0110881	1.30865e-08	4.300766e-09
	1.245314e-08	2.35692e-08	-0.01219405	-0.02533321	1.87333e-08	1.643975e-07	0.01058542	0.01157303
	0.01111514	0.0110881	1.87333e-08	1.643975e-07	-0.01070154	-0.02658838	1.074573e-08	2.587553e-08
	1.30865e-08	4.300766e-09	0.01058542	0.01157303	1.074573e-08	2.587553e-08	-0.01232028	-0.025191
3.5e+08	-0.01185324	-0.02697481	1.27253e-08	2.38411e-08	0.01158008	0.01104886	1.338305e-08	3.898766e-09
	1.27253e-08	2.38411e-08	-0.01331573	-0.02565618	1.909845e-08	1.691647e-07	0.01103408	0.01157299
	0.01158008	0.01104886	1.909845e-08	1.691647e-07	-0.01177891	-0.02701741	1.097505e-08	2.63074e-08
	1.338305e-08	3.898766e-09	0.01103408	0.01157299	1.097505e-08	2.63074e-08	-0.0134503	-0.0255043
3.6e+08	-0.0129494	-0.02735679	1.29778e-08	2.409442e-08	0.01203963	0.01098611	1.365392e-08	3.471954e-09
	1.29778e-08	2.409442e-08	-0.01445578	-0.02593304	1.947066e-08	1.739442e-07	0.0114784	0.01155093
	0.01203963	0.01098611	1.947066e-08	1.739442e-07	-0.0128776	-0.02740435	1.118936e-08	2.672579e-08
	1.365392e-08	3.471954e-09	0.0114784	0.01155093	1.118936e-08	2.672579e-08	-0.01459868	-0.02577098
3.7e+08	-0.0140647	-0.02769578	1.320936e-08	2.433018e-08	0.01249262	0.01090013	1.389754e-08	3.021629e-09
	1.320936e-08	2.433018e-08	-0.0156122	-0.02616308	1.985085e-08	1.787364e-07	0.01191729	0.01150709
	0.01249262	0.01090013	1.985085e-08	1.787364e-07	-0.01399585	-0.02774834	1.138771e-08	2.713154e-08
	1.389754e-08	3.021629e-09	0.01191729	0.01150709	1.138771e-08	2.713154e-08	-0.01576338	-0.02599029
3.8e+08	-0.01519734	-0.02799104	1.341874e-08	2.45495e-08	0.0129379	0.01079127	1.41124e-08	2.549178e-09
	1.341874e-08	2.45495e-08	-0.01678293	-0.02634565	2.023995e-08	1.835418e-07	0.01234968	0.01144176
	0.0129379	0.01079127	2.023995e-08	1.835418e-07	-0.01513186	-0.02804861	1.156916e-08	2.752556e-08
	1.41124e-08	2.549178e-09	0.01234968	0.01144176	1.156916e-08	2.752556e-08	-0.01694233	-0.0261616
3.9e+08	-0.01634548	-0.02824188	1.360475e-08	2.475356e-08	0.01337435	0.01065992	1.429706e-08	2.056071e-09
	1.360475e-08	2.475356e-08	-0.01796594	-0.02648019	2.063891e-08	1.883607e-07	0.01277454	0.01135529
	0.01337435	0.01065992	2.063891e-08	1.883607e-07	-0.01628382	-0.02830446	1.173282e-08	2.79088e-08
	1.429706e-08	2.056071e-09	0.01277454	0.01135529	1.173282e-08	2.79088e-08	-0.01813345	-0.02628435
4e+08	-0.0175073	-0.02844769	1.376625e-08	2.494364e-08	0.01380083	0.01050654	1.445016e-08	1.543855e-09
	1.376625e-08	2.494364e-08	-0.01915915	-0.02656624	2.104867e-08	1.931933e-07	0.01319083	0.01124807
	0.01380083	0.01050654	2.104867e-08	1.931933e-07	-0.01744989	-0.02851525	1.187785e-08	2.828231e-08
	1.445016e-08	1.543855e-09	0.01319083	0.01124807	1.187785e-08	2.828231e-08	-0.01933465	-0.02635807
4.1e+08	-0.01868093	-0.02860795	1.390214e-08	2.512108e-08	0.01421625	0.01033162	1.45704e-08	1.014152e-09
	1.390214e-08	2.512108e-08	-0.02036049	-0.02660342	2.147021e-08	1.980399e-07	0.01359753	0.01112056
	0.01421625	0.01033162	2.147021e-08	1.980399e-07	-0.01862821	-0.02868043	1.200343e-08	2.864715e-08
	1.45704e-08	1.014152e-09	0.01359753	0.01112056	1.200343e-08	2.864715e-08	-0.02054382	-0.02638238
4.2e+08	-0.01986451	-0.02872221	1.401141e-08	2.52873e-08	0.01461956	0.01013574	1.465658e-08	4.686573e-10
	1.401141e-08	2.52873e-08	-0.02156787	-0.02659144	2.190449e-08	2.029008e-07	0.01399367	0.01097324
	0.01461956	0.01013574	2.190449e-08	2.029008e-07	-0.01981693	-0.02879952	1.21088e-08	2.900449e-08
	1.465658e-08	4.686573e-10	0.01399367	0.01097324	1.21088e-08	2.900449e-08	-0.02175886	-0.02635701
4.3e+08	-0.02105616	-0.02879008	1.409308e-08	2.544378e-08	0.01500971	0.009919489	1.470758e-08	-9.086901e-11
	1.409308e-08	2.544378e-08	-0.02277923	-0.0265301	2.235249e-08	2.07776e-07	0.01437828	0.01080665
	0.01500971	0.009919489	2.235249e-08	2.07776e-07	-0.02101417	-0.02887212	1.219326e-08	2.935551e-08
	1.470758e-08	-9.086901e-11	0.01437828	0.01080665	1.219326e-08	2.935551e-08	-0.02297766	-0.02628175
4.4e+08	-0.02225399	-0.02881127	1.414626e-08	2.559209e-08	0.01538568	0.009683541	1.472236e-08	-6.626025e-10
	1.414626e-08	2.559209e-08	-0.02399248	-0.02641928	2.28152e-08	2.126656e-07	0.01475041	0.01062138
	0.01538568	0.009683541	2.28152e-08	2.126656e-07	-0.02221804	-0.02889791	1.225615e-08	2.970149e-08
	1.472236e-08	-6.626025e-10	0.01475041	0.01062138	1.225615e-08	2.970149e-08	-0.02419811	-0.0261565
4.5e+08	-0.02345611	-0.02878555	1.417014e-08	2.573385e-08	0.0157465	0.009428603	1.469997e-08	-1.24466e-09
	1.417014e-08	2.573385e-08	-0.02520553	-0.02625896	2.329362e-08	2.175699e-07	0.01510918	0.01041807
	0.0157465	0.009428603	2.329362e-08	2.175699e-07	-0.02342664	-0.02887663	1.229688e-08	3.004372e-08
	1.469997e-08	-1.24466e-09	0.01510918	0.01041807	1.229688e-08	3.004372e-08	-0.0254181	-0.02598122
4.6e+08	-0.02466063	-0.02871277	1.416396e-08	2.587075e-08	0.01609124	0.009155431	1.463957e-08	-1.835105e-09
	1.416396e-08	2.587075e-08	-0.02641633	-0.02604919	2.378872e-08	2.224886e-07	0.01545369	0.01019739
	0.01609124	0.009155431	2.378872e-08	2.224886e-07	-0.02463809	-0.0288081	1.231493e-08	3.038357e-08
	1.463957e-08	-1.835105e-09	0.01545369	0.01019739	1.231493e-08	3.038357e-08	-0.02663554	-0.025756
4.7e+08	-0.02586566	-0.02859285	1.412707e-08	2.600454e-08	0.01641897	0.008864828	1.45404e-08	-2.43195e-09
	1.412707e-08	2.600454e-08	-0.0276228	-0.02579011	2.430151e-08	2.27422e-07	0.01578311	0.009960043
	0.01641897	0.008864828	2.430151e-08	2.27422e-07	-0.02585049	-0.02869222	1.230983e-08	3.072245e-08
	1.45404e-08	-2.43195e-09	0.01578311	0.009960043	1.230983e-08	3.072245e-08	-0.02784834	-0.02548099
4.8e+08	-0.02706931	-0.0284258	1.405891e-08	2.613703e-08	0.01672885	0.00855764	1.440181e-08	-3.033161e-09
	1.405891e-08	2.613703e-08	-0.02882291	-0.02548196	2.4833e-08	2.323697e-07	0.01609663	0.009706798
	0.01672885	0.00855764	2.4833e-08	2.323697e-07	-0.02706193	-0.02852897	1.228121e-08	3.106181e-08
