!$
! Info: Touchstone file created by Circ.  Input file=Tx_2in_Rx_100ohms_TxVia_35mils_RxVia_45mils.circ
!$
# Hz S RI R 50
0	0.002214382	4.617931e-26	7.548697e-10	3.678532e-28	3.026034e-05	4.051112e-24	3.762592e-10	8.051991e-29
	7.548697e-10	3.678314e-28	0.002212748	5.320554e-26	2.534961e-09	1.428189e-27	3.011585e-05	4.905654e-24
	3.007383e-05	4.034105e-24	2.534961e-09	1.428198e-27	0.002225351	4.619715e-26	7.574198e-10	3.938692e-28
	3.762592e-10	8.051336e-29	2.826928e-05	4.930055e-24	7.574202e-10	3.938842e-28	0.002225979	4.982431e-26
1e+07	0.003113125	0.001744458	9.446807e-10	1.442855e-09	0.0001213178	0.0005701137	5.639004e-10	7.747957e-10
	9.446807e-10	1.442855e-09	0.003144238	0.001743177	3.659291e-09	7.005743e-09	0.0001205588	0.0005687723
	0.0001213126	0.0005701148	3.659291e-09	7.005743e-09	0.003160747	0.001754002	9.508045e-10	1.459633e-09
	5.639004e-10	7.747957e-10	0.0001204992	0.0005687824	9.508043e-10	1.459633e-09	0.003127746	0.001752984
2e+07	0.003893567	0.002825879	1.250616e-09	2.544022e-09	0.0001295506	0.001167186	7.88226e-10	1.333177e-09
	1.250616e-09	2.544022e-09	0.003914025	0.002811267	4.875224e-09	1.234074e-08	0.0001266558	0.001164708
	0.000129552	0.00116719	4.875224e-09	1.234074e-08	0.003936792	0.002831911	1.255684e-09	2.567564e-09
	7.882259e-10	1.333177e-09	0.0001266478	0.001164742	1.255684e-09	2.567564e-09	0.003905459	0.002841772
3e+07	0.00454116	0.003622493	1.512594e-09	3.587367e-09	0.0001710691	0.001727263	9.998755e-10	1.862496e-09
	1.512594e-09	3.587367e-09	0.004549774	0.00360283	5.771338e-09	1.74909e-08	0.0001646896	0.001723892
	0.0001710715	0.001727263	5.771338e-09	1.74909e-08	0.004582314	0.003632418	1.508836e-09	3.618989e-09
	9.998755e-10	1.862496e-09	0.0001646896	0.001723897	1.508836e-09	3.618989e-09	0.00454823	0.003646144
4e+07	0.005133993	0.004301291	1.785393e-09	4.591731e-09	0.0002475827	0.002273811	1.233131e-09	2.3679e-09
	1.785393e-09	4.591731e-09	0.00512878	0.004278704	6.605415e-09	2.252769e-08	0.0002363783	0.002269865
	0.0002475833	0.00227381	6.605415e-09	2.252769e-08	0.005174773	0.00431646	1.767094e-09	4.632946e-09
	1.233131e-09	2.3679e-09	0.0002363729	0.002269863	1.767094e-09	4.632946e-09	0.005134009	0.004332558
5e+07	0.005699608	0.004901754	2.072458e-09	5.557257e-09	0.0003877979	0.002805433	1.489445e-09	2.847524e-09
	2.072458e-09	5.557257e-09	0.005678203	0.004878033	7.40695e-09	2.745789e-08	0.0003704572	0.002801298
	0.000387798	0.002805432	7.40695e-09	2.745789e-08	0.005741333	0.004922561	2.034455e-09	5.609893e-09
	1.489445e-09	2.847524e-09	0.0003704536	0.002801297	2.034455e-09	5.609893e-09	0.005690073	0.004940999
6e+07	0.00625103	0.005442364	2.373418e-09	6.489221e-09	0.0005491494	0.003325762	1.767704e-09	3.303055e-09
	2.373418e-09	6.489221e-09	0.00621123	0.005419228	8.18193e-09	3.230334e-08	0.0005244054	0.003321936
	0.0005491504	0.003325762	8.18193e-09	3.230334e-08	0.006294794	0.005468859	2.311052e-09	6.555318e-09
	1.767704e-09	3.303055e-09	0.0005244077	0.003321935	2.311052e-09	6.555318e-09	0.006229668	0.005490175
7e+07	0.00679534	0.005933588	2.687442e-09	7.388075e-09	0.0007315093	0.003834566	2.062742e-09	3.726444e-09
	2.687442e-09	7.388075e-09	0.006734994	0.005912624	8.935931e-09	3.707212e-08	0.0006981346	0.003831617
	0.0007315114	0.003834566	8.935931e-09	3.707212e-08	0.006842091	0.005965659	2.596149e-09	7.469293e-09
	2.062742e-09	3.726443e-09	0.0006981422	0.003831614	2.596149e-09	7.469293e-09	0.006759902	0.005990523
8e+07	0.007336692	0.006382292	3.014813e-09	8.25298e-09	0.0009345752	0.004331167	2.372444e-09	4.117018e-09
	3.014813e-09	8.25298e-09	0.007253558	0.006365107	9.678821e-09	4.177397e-08	0.0008913722	0.004329731
	0.0009345776	0.004331167	9.678821e-09	4.177397e-08	0.007387274	0.006419761	2.890253e-09	8.351466e-09
	2.372444e-09	4.117018e-09	0.0008913816	0.004329725	2.890253e-09	8.351467e-09	0.007284764	0.006448973
9e+07	0.007877762	0.006793835	3.35814e-09	9.086797e-09	0.001157859	0.004814445	2.698828e-09	4.48235e-09
	3.35814e-09	9.086797e-09	0.007769517	0.006782287	1.042166e-08	4.641833e-08	0.001103656	0.004815232
	0.001157861	0.004814444	1.042167e-08	4.641833e-08	0.00793295	0.006836561	3.196377e-09	9.205805e-09
	2.698828e-09	4.48235e-09	0.001103663	0.004815227	3.196377e-09	9.205806e-09	0.007806746	0.006871122
1e+08	0.00842138	0.007176256	3.720629e-09	9.887086e-09	0.001400276	0.005281326	3.038186e-09	4.824419e-09
	3.720629e-09	9.887086e-09	0.00828583	0.007172999	1.117166e-08	5.100302e-08	0.001333924	0.00528513
	0.001400276	0.005281326	1.117166e-08	5.100302e-08	0.00848203	0.007224598	3.517915e-09	1.003077e-08
	3.038186e-09	4.824419e-09	0.001333924	0.00528513	3.517915e-09	1.003077e-08	0.008328602	0.007265355
1.1e+08	0.008985629	0.007512458	4.106551e-09	1.067736e-08	0.001653155	0.005737323	3.399734e-09	5.150556e-09
	4.106551e-09	1.067736e-08	0.008823456	0.007520114	1.19232e-08	5.555989e-08	0.001573796	0.005744928
	0.001653155	0.005737323	1.19232e-08	5.555989e-08	0.009054861	0.007565897	3.863018e-09	1.085506e-08
	3.399734e-09	5.150556e-09	0.001573796	0.005744928	3.863018e-09	1.085506e-08	0.008870152	0.007617009
1.2e+08	0.009547076	0.007809313	4.499994e-09	1.144424e-08	0.001926408	0.006183503	3.781519e-09	5.44854e-09
	4.499994e-09	1.144424e-08	0.00935614	0.007828107	1.26655e-08	6.008036e-08	0.001832958	0.006195856
	0.001926408	0.006183504	1.26655e-08	6.008036e-08	0.009624986	0.007865806	4.212964e-09	1.165689e-08
	3.781519e-09	5.44854e-09	0.001832958	0.006195856	4.212964e-09	1.165689e-08	0.009406883	0.007929512
1.3e+08	0.01010814	0.008073117	4.903002e-09	1.218601e-08	0.002218947	0.006616429	4.180013e-09	5.719048e-09
	4.903002e-09	1.218601e-08	0.009886272	0.008104255	1.340274e-08	6.456736e-08	0.002110401	0.006634554
	0.002218947	0.006616429	1.340274e-08	6.456736e-08	0.01019478	0.008131414	4.56935e-09	1.243536e-08
	4.180013e-09	5.719048e-09	0.002110401	0.006634554	4.56935e-09	1.243536e-08	0.009940894	0.008209796
1.4e+08	0.01066976	0.008305657	5.315317e-09	1.290219e-08	0.002529962	0.007034659	4.593541e-09	5.961575e-09
	5.315317e-09	1.290219e-08	0.01041483	0.008350817	1.413766e-08	6.902303e-08	0.002405392	0.00705965
	0.002529962	0.007034659	1.413766e-08	6.902303e-08	0.01076514	0.008364787	4.931833e-09	1.319071e-08
	4.593541e-09	5.961575e-09	0.002405392	0.00705965	4.931833e-09	1.319071e-08	0.01047307	0.008460196
1.5e+08	0.01123227	0.008507927	5.736286e-09	1.35922e-08	0.002858644	0.007437083	5.020634e-09	6.175334e-09
	5.736286e-09	1.35922e-08	0.01094225	0.008569126	1.48721e-08	7.344861e-08	0.0027172	0.007470094
	0.002858644	0.007437083	1.48721e-08	7.344861e-08	0.0113364	0.008567078	5.299865e-09	1.392301e-08
	5.020634e-09	6.175334e-09	0.0027172	0.007470094	5.299865e-09	1.392301e-08	0.01100384	0.008682141
1.6e+08	0.01179565	0.008680581	6.164954e-09	1.425547e-08	0.003204156	0.00782274	5.459752e-09	6.359515e-09
	6.164954e-09	1.425547e-08	0.01146865	0.008760105	1.560717e-08	7.784485e-08	0.003045063	0.007864981
	0.003204156	0.00782274	1.560717e-08	7.784485e-08	0.01190853	0.008739038	5.672727e-09	1.463226e-08
	5.459752e-09	6.359515e-09	0.003045063	0.007864981	5.672727e-09	1.463226e-08	0.01153335	0.008876623
1.7e+08	0.0123596	0.008824109	6.600154e-09	1.489146e-08	0.003565628	0.00819076	5.909262e-09	6.513349e-09
	6.600154e-09	1.489146e-08	0.01199392	0.008924451	1.634336e-08	8.221223e-08	0.003388189	0.008243491
	0.003565628	0.00819076	1.634336e-08	8.221223e-08	0.01248124	0.008881213	6.049563e-09	1.531836e-08
	5.909262e-09	6.513349e-09	0.003388189	0.008243491	6.049563e-09	1.531836e-08	0.0120615	0.009044388
1.8e+08	0.01292364	0.008938916	7.040557e-09	1.54997e-08	0.00394216	0.008540345	6.367445e-09	6.636139e-09
	7.040557e-09	1.54997e-08	0.01251777	0.009062733	1.708075e-08	8.655111e-08	0.003745755	0.008604876
	0.00394216	0.008540345	1.708075e-08	8.655111e-08	0.01305406	0.008994034	6.429404e-09	1.598121e-08
	6.367445e-09	6.636139e-09	0.003745755	0.008604876	6.429404e-09	1.598121e-08	0.01258805	0.009186032
1.9e+08	0.01348718	0.009025367	7.484719e-09	1.60798e-08	0.004332819	0.00887076	6.832512e-09	6.727281e-09
	7.484719e-09	1.60798e-08	0.01303978	0.009175448	1.781904e-08	9.086181e-08	0.004116907	0.008948441
	0.004332819	0.00887076	1.781904e-08	9.086181e-08	0.0136264	0.009077873	6.811187e-09	1.662072e-08
	6.832512e-09	6.727281e-09	0.004116907	0.008948441	6.811187e-09	1.662072e-08	0.01311263	0.00930206
2e+08	0.01404953	0.009083798	7.931107e-09	1.663146e-08	0.004736644	0.00918132	7.302615e-09	6.786273e-09
	7.931107e-09	1.663146e-08	0.01355948	0.00926304	1.855769e-08	9.514468e-08	0.004500763	0.009273543
	0.004736644	0.00918132	1.855769e-08	9.514468e-08	0.01419757	0.009133067	7.193771e-09	1.723682e-08
	7.302615e-09	6.786273e-09	0.004500763	0.009273543	7.193771e-09	1.723682e-08	0.01363477	0.009392921
2.1e+08	0.01460995	0.009114539	8.378126e-09	1.715449e-08	0.005152644	0.009471398	7.775863e-09	6.812723e-09
	8.378126e-09	1.715449e-08	0.0140763	0.009325929	1.929601e-08	9.940012e-08	0.004896413	0.009579588
	0.005152644	0.009471398	1.929601e-08	9.940012e-08	0.01476679	0.009159938	7.575952e-09	1.782949e-08
	7.775863e-09	6.812723e-09	0.004896413	0.009579588	7.575952e-09	1.782949e-08	0.01415393	0.009459024
2.2e+08	0.01516764	0.009117919	8.824137e-09	1.764879e-08	0.0055798	0.009740414	8.250333e-09	6.806345e-09
	8.824137e-09	1.764879e-08	0.01458963	0.009364515	2.003314e-08	1.036286e-07	0.005302922	0.00986603
	0.0055798	0.009740414	2.003314e-08	1.036286e-07	0.01533326	0.009158805	7.95648e-09	1.839876e-08
	8.250333e-09	6.806345e-09	0.005302922	0.00986603	7.95648e-09	1.839876e-08	0.01466952	0.009500766
2.3e+08	0.01572179	0.009094279	9.267473e-09	1.811438e-08	0.006017071	0.009987841	8.72408e-09	6.766968e-09
	9.267473e-09	1.811438e-08	0.01509885	0.009379201	2.076817e-08	1.078307e-07	0.005719331	0.01013237
	0.006017071	0.009987841	2.076817e-08	1.078307e-07	0.01589611	0.00913	8.334067e-09	1.894475e-08
	8.72408e-09	6.766968e-09	0.005719331	0.01013237	8.334067e-09	1.894475e-08	0.0151809	0.009518541
2.4e+08	0.01627154	0.009043962	9.706454e-09	1.855137e-08	0.006463389	0.0102132	9.195148e-09	6.69453e-09
	9.706454e-09	1.855137e-08	0.01560328	0.009370378	2.150013e-08	1.120069e-07	0.006144658	0.01037816
	0.006463389	0.0102132	2.150013e-08	1.120069e-07	0.01645447	0.009073859	8.707406e-09	1.946763e-08
	9.195148e-09	6.69453e-09	0.006144658	0.01037816	8.707406e-09	1.946763e-08	0.01568741	0.009512732
2.5e+08	0.01681603	0.008967329	1.013939e-08	1.895998e-08	0.006917667	0.01041608	9.661573e-09	6.589077e-09
	1.013939e-08	1.895998e-08	0.01610226	0.009338451	2.222803e-08	1.161581e-07	0.006577903	0.01060298
	0.006917667	0.01041608	2.222803e-08	1.161581e-07	0.01700743	0.008990739	9.075172e-09	1.996764e-08
	9.661573e-09	6.589077e-09	0.006577903	0.01060298	9.075172e-09	1.996764e-08	0.01618838	0.009483742
2.6e+08	0.01735439	0.008864752	1.056461e-08	1.934053e-08	0.007378797	0.0105961	1.01214e-08	6.450768e-09
	1.056461e-08	1.934053e-08	0.01659508	0.009283827	2.295086e-08	1.202849e-07	0.007018047	0.0108065
	0.007378797	0.0105961	2.295086e-08	1.202849e-07	0.01755409	0.008881014	9.436039e-09	2.044513e-08
	1.01214e-08	6.450768e-09	0.007018047	0.0108065	9.436039e-09	2.044513e-08	0.0166831	0.009431971
2.7e+08	0.01788573	0.008736629	1.098044e-08	1.969343e-08	0.007845656	0.01075294	1.057267e-08	6.279866e-09
	1.098044e-08	1.969343e-08	0.01708106	0.009206922	2.366762e-08	1.243881e-07	0.007464054	0.01098839
	0.007845656	0.01075294	2.366762e-08	1.243881e-07	0.01809351	0.008745077	9.788685e-09	2.090049e-08
	1.057267e-08	6.279866e-09	0.007464054	0.01098839	9.788685e-09	2.090049e-08	0.01717087	0.009357835
2.8e+08	0.01840918	0.008583372	1.138522e-08	2.00192e-08	0.008317105	0.01088634	1.101344e-08	6.076739e-09
	1.138522e-08	2.00192e-08	0.01755949	0.009108167	2.437734e-08	1.284686e-07	0.007914876	0.01114841
	0.008317105	0.01088634	2.437734e-08	1.284686e-07	0.01862477	0.008583353	1.01318e-08	2.13342e-08
	1.101344e-08	6.076739e-09	0.007914876	0.01114841	1.01318e-08	2.13342e-08	0.01765099	0.009261772
2.9e+08	0.01892384	0.00840542	1.177734e-08	2.031842e-08	0.008791993	0.0109961	1.144181e-08	5.841863e-09
	1.177734e-08	2.031842e-08	0.01802968	0.008988006	2.507904e-08	1.325274e-07	0.008369452	0.01128634
	0.008791993	0.0109961	2.507904e-08	1.325274e-07	0.01914694	0.008396286	1.046408e-08	2.174683e-08
	1.144181e-08	5.841863e-09	0.008369452	0.01128634	1.046408e-08	2.174683e-08	0.01812275	0.009144223
3e+08	0.01942883	0.00820323	1.215519e-08	2.05918e-08	0.009269162	0.01108205	1.185588e-08	5.575813e-09
	1.215519e-08	2.05918e-08	0.01849094	0.008846895	2.57718e-08	1.365653e-07	0.008826713	0.01140203
	0.009269162	0.01108205	2.57718e-08	1.365653e-07	0.0196591	0.008184348	1.078426e-08	2.2139e-08
	1.185588e-08	5.575813e-09	0.008826713	0.01140203	1.078426e-08	2.2139e-08	0.01858545	0.009005654
3.1e+08	0.01992327	0.007977293	1.251721e-08	2.084012e-08	0.009747443	0.0111441	1.225378e-08	5.279266e-09
	1.251721e-08	2.084012e-08	0.01894256	0.008685311	2.645471e-08	1.405835e-07	0.009285584	0.01149538
	0.009747443	0.0111441	2.645471e-08	1.405835e-07	0.02016032	0.007948043	1.10911e-08	2.251143e-08
	1.225378e-08	5.279266e-09	0.009285584	0.01149538	1.10911e-08	2.251143e-08	0.01903838	0.008846547
3.2e+08	0.02040628	0.007728116	1.286188e-08	2.106423e-08	0.01022567	0.01118222	1.263369e-08	4.952997e-09
	1.286188e-08	2.106423e-08	0.01938386	0.008503741	2.712691e-08	1.44583e-07	0.009744982	0.01156633
	0.01022567	0.01118222	2.712691e-08	1.44583e-07	0.02064969	0.007687898	1.138339e-08	2.286488e-08
	1.263369e-08	4.952997e-09	0.009744982	0.01156633	1.138339e-08	2.286488e-08	0.01948085	0.008667402
3.3e+08	0.02087701	0.007456242	1.318772e-08	2.126508e-08	0.01070266	0.01119641	1.299381e-08	4.597877e-09
	1.318772e-08	2.126508e-08	0.01981417	0.008302699	2.778758e-08	1.485648e-07	0.01020383	0.01161487
	0.01070266	0.01119641	2.778758e-08	1.485648e-07	0.02112631	0.007404473	1.165996e-08	2.32002e-08
	1.299381e-08	4.597877e-09	0.01020383	0.01161487	1.165996e-08	2.32002e-08	0.01991218	0.008468735
3.4e+08	0.02133459	0.007162241	1.349329e-08	2.144371e-08	0.01117724	0.01118674	1.333242e-08	4.214872e-09
	1.349329e-08	2.144371e-08	0.02023282	0.008082712	2.843593e-08	1.525301e-07	0.01066104	0.01164106
	0.01117724	0.01118674	2.843593e-08	1.525301e-07	0.02158928	0.007098361	1.191967e-08	2.351831e-08
	1.333242e-08	4.214872e-09	0.01066104	0.01164106	1.191967e-08	2.351831e-08	0.02033171	0.008251089
3.5e+08	0.02177819	0.006846708	1.377721e-08	2.160121e-08	0.01164826	0.01115334	1.364781e-08	3.80504e-09
	1.377721e-08	2.160121e-08	0.02063916	0.007844328	2.907122e-08	1.564802e-07	0.01111553	0.01164499
	0.01164826	0.01115334	2.907122e-08	1.564802e-07	0.02203772	0.006770187	1.216146e-08	2.382017e-08
	1.364781e-08	3.80504e-09	0.01111553	0.01164499	1.216146e-08	2.382017e-08	0.02073877	0.00801502
3.6e+08	0.02220697	0.006510273	1.403816e-08	2.173877e-08	0.01211454	0.0110964	1.393834e-08	3.369526e-09
	1.403816e-08	2.173877e-08	0.02103254	0.007588115	2.969277e-08	1.604161e-07	0.01156623	0.01162682
	0.01211454	0.0110964	2.969277e-08	1.604161e-07	0.02247078	0.0064206	1.238427e-08	2.410681e-08
	1.393834e-08	3.369526e-09	0.01156623	0.01162682	1.238427e-08	2.410681e-08	0.02113271	0.007761107
3.7e+08	0.02262013	0.006153592	1.427487e-08	2.185763e-08	0.01257494	0.01101615	1.420243e-08	2.909563e-09
	1.427487e-08	2.185763e-08	0.02141234	0.007314658	3.029992e-08	1.643392e-07	0.01201208	0.01158675
	0.01257494	0.01101615	3.029992e-08	1.643392e-07	0.0228876	0.00605029	1.258713e-08	2.437934e-08
	1.420243e-08	2.909563e-09	0.01201208	0.01158675	1.258713e-08	2.437934e-08	0.02151291	0.007489948
3.8e+08	0.02301687	0.005777354	1.448614e-08	2.195912e-08	0.01302831	0.01091289	1.443855e-08	2.426467e-09
	1.448614e-08	2.195912e-08	0.02177794	0.007024567	3.089209e-08	1.682507e-07	0.01245201	0.01152503
	0.01302831	0.01091289	3.089209e-08	1.682507e-07	0.02328737	0.005659974	1.276912e-08	2.46389e-08
	1.443855e-08	2.426467e-09	0.01245201	0.01152503	1.276912e-08	2.46389e-08	0.02187876	0.007202162
3.9e+08	0.02339643	0.005382277	1.467081e-08	2.204461e-08	0.01347352	0.01078696	1.464525e-08	1.921634e-09
	1.467081e-08	2.204461e-08	0.02212875	0.006718469	3.146875e-08	1.72152e-07	0.01288499	0.01144197
	0.01347352	0.01078696	3.146875e-08	1.72152e-07	0.02366929	0.005250402	1.292937e-08	2.488668e-08
	1.464525e-08	1.921634e-09	0.01288499	0.01144197	1.292937e-08	2.488668e-08	0.02222966	0.006898389
4e+08	0.02375806	0.004969106	1.482783e-08	2.211556e-08	0.01390946	0.01063876	1.482115e-08	1.396535e-09
	1.482783e-08	2.211556e-08	0.0224642	0.006397014	3.20294e-08	1.760443e-07	0.01330998	0.01133791
	0.01390946	0.01063876	3.20294e-08	1.760443e-07	0.02403257	0.004822353	1.306706e-08	2.512392e-08
	1.482115e-08	1.396535e-09	0.01330998	0.01133791	1.306706e-08	2.512392e-08	0.02256503	0.006579288
4.1e+08	0.02410102	0.004538623	1.495618e-08	2.217346e-08	0.01433505	0.01046876	1.496491e-08	8.527165e-10
	1.495618e-08	2.217346e-08	0.02278372	0.00606087	3.257363e-08	1.799291e-07	0.01372598	0.01121325
	0.01433505	0.01046876	3.257363e-08	1.799291e-07	0.02437646	0.004376646	1.318146e-08	2.535192e-08
	1.496491e-08	8.527165e-10	0.01372598	0.01121325	1.318146e-08	2.535192e-08	0.02288434	0.00624554
4.2e+08	0.02442463	0.004091634	1.505495e-08	2.221989e-08	0.01474922	0.01027746	1.507531e-08	2.917938e-10
	1.505495e-08	2.221989e-08	0.0230868	0.005710725	3.310105e-08	1.838076e-07	0.01413199	0.01106846
	0.01474922	0.01027746	3.310105e-08	1.838076e-07	0.02470025	0.003914117	1.327188e-08	2.557202e-08
	1.507531e-08	2.917938e-10	0.01413199	0.01106846	1.327188e-08	2.557202e-08	0.02318703	0.00589784
4.3e+08	0.0247282	0.00362897	1.512328e-08	2.225644e-08	0.01515091	0.01006541	1.515119e-08	-2.845521e-10
	1.512328e-08	2.225644e-08	0.0233729	0.005347286	3.361137e-08	1.876814e-07	0.01452703	0.01090401
	0.01515091	0.01006541	3.361137e-08	1.876814e-07	0.02500324	0.003435644	1.333771e-08	2.578557e-08
	1.515119e-08	-2.845521e-10	0.01452703	0.01090401	1.333771e-08	2.578557e-08	0.0234726	0.005536911
4.4e+08	0.02501111	0.003151499	1.51604e-08	2.228478e-08	0.01553911	0.009833229	1.519146e-08	-8.745774e-10
	1.51604e-08	2.228478e-08	0.02364155	0.00497128	3.410433e-08	1.915517e-07	0.01491017	0.01072046
	0.01553911	0.009833229	3.410433e-08	1.915517e-07	0.02528476	0.002942126	1.337841e-08	2.599398e-08
	1.519146e-08	-8.745774e-10	0.01491017	0.01072046	1.337841e-08	2.599398e-08	0.02374058	0.005163484
4.5e+08	0.02527274	0.002660106	1.516562e-08	2.230662e-08	0.01591284	0.00958157	1.519513e-08	-1.476481e-09
	1.516562e-08	2.230662e-08	0.02389229	0.004583451	3.457975e-08	1.954202e-07	0.01528048	0.01051838
	0.01591284	0.00958157	3.457975e-08	1.954202e-07	0.0255442	0.002434494	1.33935e-08	2.61987e-08
	1.519513e-08	-1.476481e-09	0.01528048	0.01051838	1.33935e-08	2.61987e-08	0.0239905	0.004778318
4.6e+08	0.02551252	0.00215571	1.513833e-08	2.232369e-08	0.01627113	0.009311139	1.51613e-08	-2.088407e-09
	1.513833e-08	2.232369e-08	0.02412467	0.004184561	3.50375e-08	1.992881e-07	0.01563706	0.01029841
	0.01627113	0.009311139	3.50375e-08	1.992881e-07	0.02578095	0.001913703	1.338257e-08	2.640118e-08
	1.51613e-08	-2.088407e-09	0.01563706	0.01029841	1.338257e-08	2.640118e-08	0.02422192	0.004382182
4.7e+08	0.0257299	0.001639246	1.5078e-08	2.233778e-08	0.01661306	0.009022684	1.508914e-08	-2.70845e-09
	1.5078e-08	2.233778e-08	0.02433829	0.003775391	3.547753e-08	2.03157e-07	0.01597906	0.01006122
	0.01661306	0.009022684	3.547753e-08	2.03157e-07	0.02599446	0.001380738	1.33453e-08	2.660291e-08
	1.508914e-08	-2.70845e-09	0.01597906	0.01006122	1.33453e-08	2.660291e-08	0.02443444	0.003975862
4.8e+08	0.02592437	0.001111685	1.498421e-08	2.235071e-08	0.01693774	0.008717001	1.497793e-08	-3.334658e-09
	1.498421e-08	2.235071e-08	0.02453277	0.003356733	3.589985e-08	2.070284e-07	0.01630565	0.009807526
	0.01693774	0.008717001	3.589985e-08	2.070284e-07	0.0261842	0.000836605	1.328141e-08	2.680542e-08
	1.497793e-08	-3.334658e-09	0.01630565	0.009807526	1.328141e-08	2.680542e-08	0.02462769	0.003560165
4.9e+08	0.02609548	0.0005740096	1.485661e-08	2.23643e-08	0.01724433	0.008394926	1.482705e-08	-3.965038e-09
