!$
! Info: Touchstone file created by Circ.  Input file=Tx_2in_Rx_85ohms_TxVia_35mils_RxVia_45mils.circ
!$
# Hz S RI R 50
0	0.001746556	4.623766e-26	7.555751e-10	3.054367e-28	3.029501e-05	3.173036e-24	3.766108e-10	7.089905e-29
	7.555752e-10	3.05415e-28	0.001744926	5.327654e-26	2.537334e-09	1.144426e-27	3.015005e-05	3.841486e-24
	3.010845e-05	3.159716e-24	2.537335e-09	1.144436e-27	0.001757546	4.625552e-26	7.581274e-10	3.267558e-28
	3.766108e-10	7.089248e-29	2.830357e-05	3.860662e-24	7.581278e-10	3.267708e-28	0.001758165	4.989016e-26
1e+07	0.002405173	-0.001552694	9.426166e-10	1.451724e-09	5.651444e-05	0.0005582312	5.687613e-10	7.822311e-10
	9.426166e-10	1.451724e-09	0.002410197	-0.001554503	3.623843e-09	7.043005e-09	5.572186e-05	0.0005582375
	5.650925e-05	0.0005582323	3.623843e-09	7.043005e-09	0.002427466	-0.001539824	9.482987e-10	1.469192e-09
	5.687612e-10	7.82231e-10	5.566233e-05	0.0005582477	9.482985e-10	1.469191e-09	0.002418539	-0.001544749
2e+07	0.002939678	-0.003676355	1.231745e-09	2.563914e-09	0.0001066183	0.001101688	7.783449e-10	1.345874e-09
	1.231745e-09	2.563914e-09	0.002936459	-0.003682418	4.719992e-09	1.2432e-08	0.0001035698	0.001101898
	0.0001066197	0.001101692	4.719992e-09	1.2432e-08	0.002962119	-0.003654221	1.23364e-09	2.589159e-09
	7.783449e-10	1.345874e-09	0.0001035621	0.001101932	1.233639e-09	2.589159e-09	0.002946613	-0.003661389
3e+07	0.003199205	-0.006079358	1.46705e-09	3.622684e-09	0.0001799969	0.001638598	9.775393e-10	1.874548e-09
	1.46705e-09	3.622684e-09	0.003183626	-0.006087181	5.436879e-09	1.765188e-08	0.0001732754	0.001639266
	0.0001799994	0.001638597	5.436879e-09	1.765188e-08	0.003222565	-0.006046575	1.456596e-09	3.657053e-09
	9.775393e-10	1.874548e-09	0.0001732754	0.001639271	1.456596e-09	3.657053e-09	0.003195203	-0.006056588
4e+07	0.00326184	-0.008577938	1.702866e-09	4.647168e-09	0.0002774233	0.002169091	1.196769e-09	2.376898e-09
	1.702866e-09	4.647168e-09	0.003229566	-0.008586435	6.030566e-09	2.27791e-08	0.0002656265	0.002170562
	0.0002774239	0.002169089	6.030566e-09	2.27791e-08	0.003286813	-0.008534519	1.673305e-09	4.692487e-09
	1.196769e-09	2.376898e-09	0.0002656211	0.00217056	1.673305e-09	4.692487e-09	0.003242303	-0.008546943
5e+07	0.003156077	-0.01112632	1.943691e-09	5.639216e-09	0.0003986601	0.002692287	1.437859e-09	2.851945e-09
	1.943691e-09	5.639216e-09	0.003102617	-0.01113395	6.534068e-09	2.782408e-08	0.0003804166	0.002695015
	0.0003986602	0.002692286	6.534068e-09	2.782408e-08	0.003183178	-0.01107253	1.888902e-09	5.697724e-09
	1.437859e-09	2.851945e-09	0.0003804129	0.002695014	1.888902e-09	5.697724e-09	0.003116193	-0.01108602
6e+07	0.002896231	-0.0137006	2.189374e-09	6.603906e-09	0.0005432598	0.00320729	1.699703e-09	3.301297e-09
	2.189374e-09	6.603906e-09	0.002817387	-0.01370554	6.955844e-09	3.281131e-08	0.0005172494	0.003211826
	0.0005432608	0.00320729	6.955844e-09	3.281131e-08	0.00292585	-0.01363679	2.103814e-09	6.678128e-09
	1.699703e-09	3.301297e-09	0.0005172516	0.003211825	2.103814e-09	6.678129e-09	0.00283146	-0.01364953
7e+07	0.00249093	-0.01628502	2.441018e-09	7.545461e-09	0.0007107631	0.003713197	1.981883e-09	3.726315e-09
	2.441018e-09	7.545461e-09	0.002382646	-0.01628535	7.30703e-09	3.776181e-08	0.0006757111	0.003720167
	0.0007107652	0.003713197	7.30703e-09	3.776181e-08	0.002523366	-0.01621156	2.319568e-09	7.638231e-09
	1.981883e-09	3.726315e-09	0.0006757186	0.003720164	2.319567e-09	7.638232e-09	0.002396825	-0.01622159
8e+07	0.001946067	-0.01886769	2.700434e-09	8.466034e-09	0.0009006967	0.004209086	2.284286e-09	4.127319e-09
	2.700434e-09	8.466034e-09	0.001804269	-0.0188613	7.600272e-09	4.268845e-08	0.0008553646	0.004219193
	0.000900699	0.004209085	7.600272e-09	4.268845e-08	0.00198154	-0.01878495	2.538297e-09	8.580688e-09
	2.284287e-09	4.127319e-09	0.0008553739	0.004219187	2.538297e-09	8.580688e-09	0.001818083	-0.01879007
9e+07	0.001266119	-0.0214389	2.969402e-09	9.365944e-09	0.001112557	0.004694091	2.606572e-09	4.503757e-09
	2.969402e-09	9.365944e-09	0.001086698	-0.02142339	7.847262e-09	4.759722e-08	0.001055739	0.004708119
	0.001112558	0.00469409	7.847262e-09	4.759722e-08	0.001304786	-0.02134724	2.762113e-09	9.506537e-09
	2.606572e-09	4.503757e-09	0.001055746	0.004708113	2.762113e-09	9.506538e-09	0.001099604	-0.02134489
1e+08	0.000454649	-0.02399113	3.250025e-09	1.024376e-08	0.001345935	0.005168014	2.947766e-09	4.854669e-09
	3.250025e-09	1.024376e-08	0.0002335553	-0.02396362	8.058475e-09	5.248924e-08	0.001276464	0.005186831
	0.001345935	0.005168014	8.058475e-09	5.248924e-08	0.0004966266	-0.0238908	2.993534e-09	1.041523e-08
	2.947766e-09	4.854669e-09	0.001276464	0.005186831	2.993534e-09	1.041523e-08	0.0002449442	-0.02387803
1.1e+08	-0.0004871566	-0.02652021	3.54088e-09	1.110817e-08	0.001602479	0.00562784	3.306323e-09	5.179242e-09
	3.54088e-09	1.110817e-08	-0.0007525343	-0.02647638	8.223269e-09	5.738169e-08	0.001519473	0.005652283
	0.001602479	0.00562784	8.223269e-09	5.738169e-08	-0.0004409649	-0.02641099	3.234479e-09	1.132002e-08
	3.306323e-09	5.179242e-09	0.001519473	0.005652283	3.234479e-09	1.132002e-08	-0.000742804	-0.02638272
1.2e+08	-0.001554488	-0.02900945	3.836632e-09	1.195629e-08	0.001878521	0.006071937	3.680537e-09	5.477499e-09
	3.836632e-09	1.195629e-08	-0.001867442	-0.02894697	8.33831e-09	6.228213e-08	0.00178086	0.006103042
	0.001878521	0.006071937	8.33831e-09	6.228213e-08	-0.001504159	-0.02889229	3.476912e-09	1.221048e-08
	3.680537e-09	5.477499e-09	0.00178086	0.006103042	3.476912e-09	1.221048e-08	-0.001859838	-0.02884563
1.3e+08	-0.002743032	-0.03145404	4.138811e-09	1.278776e-08	0.002173442	0.006500231	4.069407e-09	5.748749e-09
	4.138811e-09	1.278776e-08	-0.003106896	-0.03137001	8.410648e-09	6.719658e-08	0.002060101	0.006539118
	0.002173441	0.006500231	8.410648e-09	6.719658e-08	-0.002688761	-0.03132957	3.72212e-09	1.308703e-08
	4.069407e-09	5.748749e-09	0.002060101	0.006539118	3.72212e-09	1.308703e-08	-0.003102059	-0.03126118
1.4e+08	-0.004048813	-0.03384874	4.448617e-09	1.360211e-08	0.002486448	0.006911978	4.472301e-09	5.991808e-09
	4.448617e-09	1.360211e-08	-0.004466819	-0.0337398	8.445905e-09	7.212978e-08	0.002356488	0.006959843
	0.002486448	0.006911978	8.445905e-09	7.212978e-08	-0.003990837	-0.0337174	3.971296e-09	1.394996e-08
	4.472301e-09	5.991808e-09	0.002356488	0.006959843	3.971296e-09	1.394996e-08	-0.004465431	-0.03362345
1.5e+08	-0.005468116	-0.03618845	4.76475e-09	1.43995e-08	0.002816675	0.007306383	4.887016e-09	6.20634e-09
	4.76475e-09	1.43995e-08	-0.005943298	-0.03605087	8.448936e-09	7.708549e-08	0.002669245	0.007364487
	0.002816675	0.007306383	8.448936e-09	7.708549e-08	-0.005406664	-0.03605055	4.223344e-09	1.480014e-08
	4.887016e-09	6.20634e-09	0.002669245	0.007364487	4.223344e-09	1.480014e-08	-0.005946018	-0.03592679
1.6e+08	-0.006997351	-0.03846829	5.08699e-09	1.517956e-08	0.003163207	0.007682661	5.312055e-09	6.391537e-09
	5.08699e-09	1.517956e-08	-0.007532494	-0.03829803	8.423988e-09	8.206676e-08	0.002997541	0.007752323
	0.003163207	0.007682661	8.423988e-09	8.206676e-08	-0.006932627	-0.03832404	4.478361e-09	1.563777e-08
	5.312055e-09	6.391537e-09	0.002997541	0.007752323	4.478361e-09	1.563777e-08	-0.007539922	-0.03816587
1.7e+08	-0.008632972	-0.04068354	5.414918e-09	1.594185e-08	0.003525083	0.00804006	5.745782e-09	6.546662e-09
	5.414918e-09	1.594185e-08	-0.009230579	-0.0404763	8.374844e-09	8.707622e-08	0.003340502	0.008122657
	0.003525083	0.00804006	8.374844e-09	8.707622e-08	-0.008565144	-0.04053311	4.736326e-09	1.646292e-08
	5.745782e-09	6.546662e-09	0.003340502	0.008122657	4.736326e-09	1.646292e-08	-0.009243242	-0.04033564
1.8e+08	-0.01037141	-0.04282967	5.747959e-09	1.668594e-08	0.003901303	0.00837787	6.186457e-09	6.671073e-09
	5.747959e-09	1.668594e-08	-0.01103368	-0.04258091	8.304949e-09	9.211619e-08	0.003697215	0.008474827
	0.003901303	0.00837787	8.304949e-09	9.211619e-08	-0.01030061	-0.04267318	4.997106e-09	1.727555e-08
	6.186457e-09	6.671073e-09	0.003697215	0.008474827	4.997106e-09	1.727555e-08	-0.01105204	-0.04243127
1.9e+08	-0.01220903	-0.04490229	6.085412e-09	1.741139e-08	0.004290832	0.008695427	6.632255e-09	6.764236e-09
	6.085412e-09	1.741139e-08	-0.01293787	-0.04460733	8.217511e-09	9.718877e-08	0.004066734	0.008808217
	0.004290832	0.008695427	8.217511e-09	9.718877e-08	-0.01213538	-0.04473988	5.260472e-09	1.807555e-08
	6.632255e-09	6.764236e-09	0.004066734	0.008808217	5.260472e-09	1.807555e-08	-0.01296231	-0.04444818
2e+08	-0.01414212	-0.04689722	6.426475e-09	1.811783e-08	0.004692603	0.008992119	7.081293e-09	6.82573e-09
	6.426475e-09	1.811783e-08	-0.01493912	-0.04655118	8.115577e-09	1.022959e-07	0.004448082	0.009122254
	0.004692603	0.008992119	8.115577e-09	1.022959e-07	-0.01406571	-0.04672898	5.526102e-09	1.886277e-08
	7.081293e-09	6.82573e-09	0.004448082	0.009122254	5.526102e-09	1.886277e-08	-0.01496996	-0.04638198
2.1e+08	-0.01616685	-0.04881042	6.770258e-09	1.880488e-08	0.00510552	0.009267385	7.531641e-09	6.855253e-09
	6.770258e-09	1.880488e-08	-0.0170333	-0.04840833	8.002094e-09	1.074394e-07	0.004840255	0.009416415
	0.00510552	0.009267385	8.002094e-09	1.074394e-07	-0.01608777	-0.04863648	5.793592e-09	1.963704e-08
	7.531641e-09	6.855253e-09	0.004840255	0.009416415	5.793592e-09	1.963704e-08	-0.01707081	-0.0482285
2.2e+08	-0.01827929	-0.05063806	7.115804e-09	1.947225e-08	0.00552846	0.00952072	7.981338e-09	6.852624e-09
	7.115804e-09	1.947225e-08	-0.01921616	-0.05017483	7.879959e-09	1.12621e-07	0.005242223	0.009690226
	0.00552846	0.00952072	7.879959e-09	1.12621e-07	-0.01819762	-0.05045852	6.062462e-09	2.039818e-08
	7.981338e-09	6.852624e-09	0.005242223	0.009690226	6.062462e-09	2.039818e-08	-0.01926056	-0.04998379
2.3e+08	-0.02047541	-0.05237648	7.462094e-09	2.011967e-08	0.005960276	0.009751674	8.428406e-09	6.817779e-09
	7.462094e-09	2.011967e-08	-0.02148334	-0.05184692	7.752047e-09	1.178421e-07	0.005652936	0.009943265
	0.005960276	0.009751674	7.752047e-09	1.178421e-07	-0.02039123	-0.05219145	6.332168e-09	2.114604e-08
	8.428406e-09	6.817779e-09	0.005652936	0.009943265	6.332168e-09	2.114604e-08	-0.02153481	-0.05164409
2.4e+08	-0.02275104	-0.0540222	7.808058e-09	2.074694e-08	0.006399804	0.009959854	8.870859e-09	6.750776e-09
	7.808058e-09	2.074694e-08	-0.02383039	-0.05342107	7.621236e-09	1.231043e-07	0.006071323	0.01017516
	0.006399804	0.009959854	7.621236e-09	1.231043e-07	-0.02266443	-0.05383181	6.602102e-09	2.188046e-08
	8.870859e-09	6.750776e-09	0.006071323	0.01017516	6.602102e-09	2.188046e-08	-0.02388907	-0.05320586
2.5e+08	-0.02510192	-0.05557197	8.152577e-09	2.135392e-08	0.006845858	0.01014493	9.306709e-09	6.651789e-09
	8.152577e-09	2.135392e-08	-0.02625272	-0.05489396	7.490425e-09	1.284088e-07	0.0064963	0.01038561
	0.006845858	0.01014493	7.490425e-09	1.284088e-07	-0.02501298	-0.05537633	6.871604e-09	2.26013e-08
	9.306709e-09	6.651789e-09	0.0064963	0.01038561	6.871604e-09	2.26013e-08	-0.02631871	-0.05466577
2.6e+08	-0.02752368	-0.05702271	8.494496e-09	2.19405e-08	0.00729724	0.01030663	9.733979e-09	6.521106e-09
	8.494496e-09	2.19405e-08	-0.02874564	-0.05626247	7.362539e-09	1.337569e-07	0.006926766	0.01057433
	0.00729724	0.01030663	7.362539e-09	1.337569e-07	-0.02743252	-0.05682192	7.139962e-09	2.330848e-08
	9.733979e-09	6.521106e-09	0.006926766	0.01057433	7.139962e-09	2.330848e-08	-0.028819	-0.05602069
2.7e+08	-0.03001185	-0.05837155	8.832623e-09	2.250668e-08	0.007752742	0.01044474	1.015071e-08	6.359133e-09
	8.832623e-09	2.250668e-08	-0.03130438	-0.05752372	7.24054e-09	1.391495e-07	0.007361614	0.01074114
	0.007752742	0.01044474	7.24054e-09	1.391495e-07	-0.02991857	-0.05816573	7.406421e-09	2.400194e-08
	1.015071e-08	6.359133e-09	0.007361614	0.01074114	7.406421e-09	2.400194e-08	-0.03138514	-0.05726775
2.8e+08	-0.03256188	-0.05961584	9.165733e-09	2.305249e-08	0.008211146	0.01055911	1.055495e-08	6.166384e-09
	9.165733e-09	2.305249e-08	-0.03392404	-0.05867503	7.127425e-09	1.445876e-07	0.007799728	0.01088588
	0.008211146	0.01055911	7.127425e-09	1.445876e-07	-0.0324666	-0.05940507	7.670187e-09	2.468166e-08
	1.055495e-08	6.166384e-09	0.007799728	0.01088588	7.670187e-09	2.468166e-08	-0.03401221	-0.05840425
2.9e+08	-0.03516911	-0.06075312	9.492575e-09	2.357805e-08	0.008671231	0.01064965	1.09448e-08	5.943484e-09
	9.492575e-09	2.357805e-08	-0.03659968	-0.05971397	7.026224e-09	1.500719e-07	0.008239987	0.01100846
	0.008671231	0.01064965	7.026224e-09	1.500719e-07	-0.03507197	-0.0605375	7.930425e-09	2.534766e-08
	1.09448e-08	5.943484e-09	0.008239987	0.01100846	7.930425e-09	2.534766e-08	-0.03669522	-0.05942775
3e+08	-0.03782884	-0.06178115	9.811879e-09	2.408353e-08	0.009131774	0.01071634	1.131838e-08	5.691167e-09
	9.811879e-09	2.408353e-08	-0.03932625	-0.06063832	6.940005e-09	1.556031e-07	0.008681271	0.01110884
	0.009131774	0.01071634	6.940005e-09	1.556031e-07	-0.03772996	-0.06156075	8.186279e-09	2.600003e-08
	1.131838e-08	5.691167e-09	0.008681271	0.01110884	8.186279e-09	2.600003e-08	-0.0394291	-0.06033604
3.1e+08	-0.04053627	-0.06269789	1.011881e-08	2.456844e-08	0.009591555	0.01075921	1.167386e-08	5.410329e-09
	1.011881e-08	2.456844e-08	-0.04209865	-0.06144608	6.869751e-09	1.611804e-07	0.00912246	0.01118705
	0.009591555	0.01075921	6.869751e-09	1.611804e-07	-0.04043581	-0.06247279	8.433285e-09	2.663816e-08
	1.167386e-08	5.410329e-09	0.00912246	0.01118705	8.433285e-09	2.663816e-08	-0.0422087	-0.06112712
3.2e+08	-0.04328656	-0.06350154	1.040804e-08	2.503289e-08	0.01004936	0.01077836	1.200948e-08	5.101979e-09
	1.040804e-08	2.503289e-08	-0.04491172	-0.06213552	6.816142e-09	1.66803e-07	0.009562442	0.01124317
	0.01004936	0.01077836	6.816142e-09	1.66803e-07	-0.04318468	-0.06327179	8.666463e-09	2.726201e-08
	1.200948e-08	5.101979e-09	0.009562442	0.01124317	8.666463e-09	2.726201e-08	-0.04502882	-0.06179922
3.3e+08	-0.04607481	-0.06419049	1.068517e-08	2.547911e-08	0.01050398	0.01077395	1.232348e-08	4.767039e-09
	1.068517e-08	2.547911e-08	-0.04776023	-0.06270508	6.786425e-09	1.724736e-07	0.01000011	0.01127732
	0.01050398	0.01077395	6.786425e-09	1.724736e-07	-0.04597166	-0.06395613	8.891885e-09	2.787366e-08
	1.232348e-08	4.767039e-09	0.01000011	0.01127732	8.891885e-09	2.787366e-08	-0.04788423	-0.06235083
3.4e+08	-0.04889608	-0.06476335	1.094894e-08	2.590769e-08	0.01095421	0.0107462	1.261418e-08	4.406642e-09
	1.094894e-08	2.590769e-08	-0.05063895	-0.06315349	6.783756e-09	1.781923e-07	0.01043437	0.01128969
	0.01095421	0.0107462	6.783756e-09	1.781923e-07	-0.04879182	-0.06452441	9.108649e-09	2.84735e-08
	1.261418e-08	4.406642e-09	0.01043437	0.01128969	9.108649e-09	2.84735e-08	-0.05076963	-0.06278064
3.5e+08	-0.05174541	-0.06521895	1.119808e-08	2.631927e-08	0.01139889	0.01069539	1.287996e-08	4.022016e-09
	1.119808e-08	2.631927e-08	-0.05354259	-0.06347967	6.81131e-09	1.839587e-07	0.01086413	0.01128052
	0.01139889	0.01069539	6.81131e-09	1.839587e-07	-0.05164019	-0.06497544	9.315863e-09	2.906199e-08
	1.287996e-08	4.022016e-09	0.01086413	0.01128052	9.315863e-09	2.906199e-08	-0.05367969	-0.0630876
3.6e+08	-0.05461778	-0.06555633	1.143133e-08	2.67146e-08	0.01183685	0.01062184	1.311925e-08	3.614476e-09
	1.143133e-08	2.67146e-08	-0.05646585	-0.06368279	6.872255e-09	1.897726e-07	0.01128834	0.01125012
	0.01183685	0.01062184	6.872255e-09	1.897726e-07	-0.05451178	-0.06530825	9.512632e-09	2.963965e-08
	1.311925e-08	3.614476e-09	0.01128834	0.01125012	9.512632e-09	2.963965e-08	-0.05660908	-0.06327087
3.7e+08	-0.05750819	-0.06577475	1.164748e-08	2.709452e-08	0.01226693	0.01052597	1.333057e-08	3.185424e-09
	1.164748e-08	2.709452e-08	-0.0594034	-0.06376225	6.969758e-09	1.956335e-07	0.01170595	0.01119882
	0.01226693	0.01052597	6.969758e-09	1.956335e-07	-0.05740157	-0.06552208	9.698072e-09	3.020707e-08
	1.333057e-08	3.185424e-09	0.01170595	0.01119882	9.698072e-09	3.020707e-08	-0.05955245	-0.06332987
3.8e+08	-0.06041161	-0.06587366	1.18453e-08	2.745994e-08	0.01268804	0.01040821	1.351251e-08	2.736345e-09
	1.18453e-08	2.745994e-08	-0.06234994	-0.06371768	7.106965e-09	2.015406e-07	0.01211592	0.01112702
	0.01268804	0.01040821	7.106965e-09	2.015406e-07	-0.06030453	-0.06561637	9.87131e-09	3.076491e-08
	1.351251e-08	2.736345e-09	0.01211592	0.01112702	9.87131e-09	3.076491e-08	-0.06250445	-0.06326421
3.9e+08	-0.06332301	-0.06585275	1.202361e-08	2.781187e-08	0.01309907	0.01026907	1.366373e-08	2.268801e-09
	1.202361e-08	2.781187e-08	-0.06530016	-0.06354893	7.287e-09	2.074931e-07	0.01251726	0.01103517
	0.01309907	0.01026907	7.287e-09	2.074931e-07	-0.06321563	-0.0655908	1.003149e-08	3.131392e-08
	1.366373e-08	2.268801e-09	0.01251726	0.01103517	1.003149e-08	3.131392e-08	-0.06545971	-0.06307378
4e+08	-0.06623737	-0.0657119	1.218129e-08	2.81514e-08	0.01349896	0.01010912	1.378297e-08	1.78443e-09
	1.218129e-08	2.81514e-08	-0.06824875	-0.06325609	7.512957e-09	2.134901e-07	0.012909	0.01092377
	0.01349896	0.01010912	7.512957e-09	2.134901e-07	-0.06612986	-0.06544524	1.017779e-08	3.185488e-08
	1.378297e-08	1.78443e-09	0.012909	0.01092377	1.017779e-08	3.185488e-08	-0.06841291	-0.06275866
4.1e+08	-0.0691497	-0.06545122	1.231723e-08	2.847973e-08	0.01388667	0.009928956	1.386906e-08	1.284939e-09
	1.231723e-08	2.847973e-08	-0.07119046	-0.06283945	7.78789e-09	2.195302e-07	0.01329018	0.01079334
	0.01388667	0.009928956	7.78789e-09	2.195302e-07	-0.06904221	-0.06517977	1.03094e-08	3.238868e-08
	1.386906e-08	1.284939e-09	0.01329018	0.01079334	1.03094e-08	3.238868e-08	-0.07135875	-0.06231917
4.2e+08	-0.07205502	-0.06507101	1.243037e-08	2.879812e-08	0.01426122	0.00972924	1.392092e-08	7.720988e-10
	1.243037e-08	2.879812e-08	-0.07412005	-0.06229955	8.114802e-09	2.256122e-07	0.01365989	0.01064448
	0.01426122	0.00972924	8.114802e-09	2.256122e-07	-0.0719477	-0.06479468	1.042556e-08	3.291626e-08
	1.392092e-08	7.720988e-10	0.01365989	0.01064448	1.042556e-08	3.291626e-08	-0.07429196	-0.06175586
4.3e+08	-0.07494838	-0.06457177	1.251975e-08	2.910793e-08	0.01462164	0.009510678	1.393757e-08	2.477443e-10
	1.251975e-08	2.910793e-08	-0.07703233	-0.06163712	8.496645e-09	2.317344e-07	0.01401725	0.01047781
	0.01462164	0.009510678	8.496645e-09	2.317344e-07	-0.07484138	-0.06429047	1.052554e-08	3.343865e-08
	1.393757e-08	2.477443e-10	0.01401725	0.01047781	1.052554e-08	3.343865e-08	-0.0772073	-0.06106949
4.4e+08	-0.07782488	-0.06395422	1.258442e-08	2.941061e-08	0.014967	0.009274021	1.391811e-08	-2.862354e-10
	1.258442e-08	2.941061e-08	-0.07992216	-0.06085314	8.9363e-09	2.378953e-07	0.0143614	0.010294
	0.014967	0.009274021	8.9363e-09	2.378953e-07	-0.07771833	-0.06366785	1.060868e-08	3.395692e-08
	1.391811e-08	-2.862354e-10	0.0143614	0.010294	1.060868e-08	3.395692e-08	-0.08009961	-0.06026106
4.5e+08	-0.08067966	-0.06321926	1.262355e-08	2.970768e-08	0.01529642	0.009020062	1.386174e-08	-8.278994e-10
	1.262355e-08	2.970768e-08	-0.08278446	-0.05994877	9.436583e-09	2.440928e-07	0.01469152	0.01009375
	0.01529642	0.009020062	9.436583e-09	2.440928e-07	-0.08057369	-0.06292769	1.067435e-08	3.447223e-08
	1.386174e-08	-8.278994e-10	0.01469152	0.01009375	1.067435e-08	3.447223e-08	-0.08296376	-0.05933174
4.6e+08	-0.08350791	-0.062368	1.263635e-08	3.000074e-08	0.01560906	0.008749637	1.376777e-08	-1.37526e-09
	1.263635e-08	3.000074e-08	-0.08561422	-0.0589254	1.000022e-08	2.503251e-07	0.01500686	0.009877807
	0.01560906	0.008749637	1.000022e-08	2.503251e-07	-0.08340266	-0.0620711	1.0722e-08	3.498579e-08
	1.376777e-08	-1.37526e-09	0.01500686	0.009877807	1.0722e-08	3.498579e-08	-0.08579472	-0.05828296
4.7e+08	-0.08630489	-0.06140174	1.262214e-08	3.029148e-08	0.01590412	0.008463618	1.36356e-08	-1.92629e-09
	1.262214e-08	3.029148e-08	-0.08840649	-0.05778461	1.062987e-08	2.565899e-07	0.01530665	0.009646951
	0.01590412	0.008463618	1.062987e-08	2.565899e-07	-0.08620047	-0.06109937	1.075113e-08	3.549889e-08
	1.36356e-08	-1.92629e-09	0.01530665	0.009646951	1.075113e-08	3.549889e-08	-0.08858751	-0.05711633
4.8e+08	-0.08906594	-0.06032196	1.258033e-08	3.058164e-08	0.01618084	0.008162915	1.346474e-08	-2.478923e-09
	1.258033e-08	3.058164e-08	-0.09115644	-0.05652818	1.132806e-08	2.628849e-07	0.01559022	0.009401987
	0.01618084	0.008162915	1.132806e-08	2.628849e-07	-0.08896245	-0.06001396	1.076132e-08	3.601287e-08
