!$
! Info: Touchstone file created by Circ.  Input file=Tx_2in_Rx_85ohms_TxVia_35mils_RxVia_45mils.circ
!$
# Hz S RI R 50
0	0.001748336	4.971229e-26	-1.096703e-05	4.203316e-26	3.152567e-05	3.194273e-24	-1.096688e-05	3.401608e-26
	-1.096703e-05	4.243383e-26	0.001744926	5.327654e-26	-1.096683e-05	4.726734e-26	3.015005e-05	3.841486e-24
	3.205069e-05	3.235852e-24	-1.096683e-05	4.659698e-26	0.001756725	4.851309e-26	-1.096741e-05	1.290893e-25
	-1.096688e-05	3.429426e-26	2.830357e-05	3.860662e-24	-1.096742e-05	1.296372e-25	0.001758165	4.989016e-26
1e+07	0.002416272	-0.001586135	-1.031658e-06	-2.863966e-06	4.092306e-05	0.0005592025	-4.853046e-07	-3.297452e-06
	-1.031658e-06	-2.863967e-06	0.002410197	-0.001554503	-1.932926e-06	-2.457371e-07	5.572186e-05	0.0005582375
	4.094674e-05	0.0005592038	-1.932926e-06	-2.457372e-07	0.002698782	-0.001500876	-4.271864e-06	8.561088e-08
	-4.853046e-07	-3.297452e-06	5.566233e-05	0.0005582477	-4.271864e-06	8.561091e-08	0.002418539	-0.001544749
2e+07	0.002919993	-0.003737302	-9.562827e-07	-1.214265e-06	8.298748e-05	0.00111567	-1.746695e-07	-1.757527e-06
	-9.562828e-07	-1.214265e-06	0.002936459	-0.003682418	-4.550886e-06	-3.611617e-06	0.0001035698	0.001101898
	8.299526e-05	0.001115655	-4.550886e-06	-3.611617e-06	0.003213437	-0.003690972	-6.050555e-06	-2.163526e-06
	-1.746695e-07	-1.757527e-06	0.0001035621	0.001101932	-6.050555e-06	-2.163526e-06	0.002946613	-0.003661389
3e+07	0.003155376	-0.006149509	-9.112607e-07	-8.396441e-07	0.0001620049	0.001657368	-2.401166e-07	-1.415942e-06
	-9.112607e-07	-8.396441e-07	0.003183626	-0.006087181	-6.575141e-06	-4.358848e-06	0.0001732754	0.001639266
	0.0001620049	0.001657365	-6.575141e-06	-4.358848e-06	0.003457742	-0.006113393	-7.421311e-06	-2.573903e-06
	-2.401166e-07	-1.415942e-06	0.0001732754	0.001639271	-7.421311e-06	-2.573903e-06	0.003195203	-0.006056588
4e+07	0.003197416	-0.008651311	-8.745491e-07	-6.555905e-07	0.000264307	0.002190723	-4.557377e-07	-1.215577e-06
	-8.745491e-07	-6.555905e-07	0.003229566	-0.008586435	-8.282453e-06	-4.432396e-06	0.0002656265	0.002170562
	0.0002643089	0.002190724	-8.282453e-06	-4.432396e-06	0.003507505	-0.008622472	-8.57257e-06	-2.513019e-06
	-4.557377e-07	-1.215577e-06	0.0002656211	0.00217056	-8.57257e-06	-2.513019e-06	0.003242303	-0.008546943
5e+07	0.003073426	-0.01119919	-8.422751e-07	-5.41156e-07	0.000389927	0.00271573	-6.436231e-07	-1.055145e-06
	-8.422751e-07	-5.41156e-07	0.003102617	-0.01113395	-9.771306e-06	-4.125711e-06	0.0003804166	0.002695015
	0.0003899282	0.00271573	-9.771306e-06	-4.125711e-06	0.003390323	-0.01117741	-9.571061e-06	-2.187142e-06
	-6.436231e-07	-1.055145e-06	0.0003804129	0.002695014	-9.571061e-06	-2.187142e-06	0.003116193	-0.01108602
6e+07	0.00279718	-0.01377012	-8.124982e-07	-4.595369e-07	0.0005385477	0.003231807	-8.093488e-07	-9.028962e-07
	-8.124982e-07	-4.595369e-07	0.002817387	-0.01370554	-1.108809e-05	-3.544379e-06	0.0005172494	0.003211826
	0.0005385453	0.003231807	-1.108809e-05	-3.544379e-06	0.003120025	-0.01375598	-1.0448e-05	-1.669709e-06
	-8.093487e-07	-9.028961e-07	0.0005172516	0.003211825	-1.0448e-05	-1.669709e-06	0.00283146	-0.01364953
7e+07	0.002377041	-0.01634868	-7.839937e-07	-3.956019e-07	0.0007097766	0.00373818	-9.556755e-07	-7.455124e-07
	-7.839936e-07	-3.956018e-07	0.002382646	-0.01628535	-1.225593e-05	-2.730512e-06	0.0006757111	0.003720167
	0.0007097705	0.003738181	-1.225593e-05	-2.730512e-06	0.002704951	-0.01634314	-1.121868e-05	-9.894134e-07
	-9.556755e-07	-7.455124e-07	0.0006757186	0.003720164	-1.121868e-05	-9.894135e-07	0.002396825	-0.01622159
8e+07	0.001818792	-0.018923	-7.558183e-07	-3.41855e-07	0.0009031712	0.004233963	-1.083558e-06	-5.7453e-07
	-7.558182e-07	-3.41855e-07	0.001804269	-0.0188613	-1.328349e-05	-1.688993e-06	0.0008553646	0.004219193
	0.0009031639	0.004233966	-1.328349e-05	-1.688993e-06	0.002150816	-0.01892734	-1.188831e-05	-1.48475e-07
	-1.083558e-06	-5.7453e-07	0.0008553739	0.004219187	-1.188831e-05	-1.48475e-07	0.001818083	-0.01879007
9e+07	0.001126969	-0.02148289	-7.26958e-07	-2.938062e-07	0.001118226	0.004718216	-1.191934e-06	-3.79644e-07
	-7.26958e-07	-2.938062e-07	0.001086698	-0.02142339	-1.416392e-05	-3.766808e-07	0.001055739	0.004708119
	0.001118221	0.00471822	-1.416392e-05	-3.766807e-07	0.001462001	-0.02149897	-1.245092e-05	8.856673e-07
	-1.191934e-06	-3.79644e-07	0.001055746	0.004708113	-1.245092e-05	8.856674e-07	0.001099604	-0.02134489
1e+08	0.0003059551	-0.02401741	-6.949773e-07	-2.458504e-07	0.001354394	0.005190104	-1.270171e-06	-1.189161e-07
	-6.949773e-07	-2.458504e-07	0.0002335553	-0.02396362	-1.481845e-05	1.520007e-06	0.001276464	0.005186831
	0.001354394	0.005190104	-1.481845e-05	1.520007e-06	0.0006421464	-0.02404992	-1.284708e-05	2.344469e-06
	-1.270171e-06	-1.189161e-07	0.001276464	0.005186831	-1.284708e-05	2.344469e-06	0.0002449442	-0.02387803
1.1e+08	-0.0006311419	-0.02653168	-6.785988e-07	-2.040213e-07	0.001611109	0.005648336	-1.188432e-06	9.948398e-08
	-6.785988e-07	-2.040213e-07	-0.0007525343	-0.02647638	-1.416633e-05	3.12901e-06	0.001519473	0.005652283
	0.001611109	0.005648336	-1.416633e-05	3.12901e-06	-0.0003046923	-0.02657741	-1.259923e-05	2.20806e-06
	-1.188432e-06	9.948398e-08	0.001519473	0.005652283	-1.259923e-05	2.20806e-06	-0.000742804	-0.02638272
1.2e+08	-0.001694821	-0.02901229	-6.692739e-07	-1.695685e-07	0.001887496	0.006091924	-1.118784e-06	2.438291e-07
	-6.692739e-07	-1.695685e-07	-0.001867442	-0.02894697	-1.392938e-05	2.874688e-06	0.00178086	0.006103042
	0.001887496	0.006091924	-1.392938e-05	2.874688e-06	-0.001377426	-0.0290664	-1.245448e-05	1.758085e-06
	-1.118784e-06	2.438291e-07	0.00178086	0.006103042	-1.245448e-05	1.758085e-06	-0.001859838	-0.02884563
1.3e+08	-0.002880177	-0.0314505	-6.614332e-07	-1.393233e-07	0.002182838	0.006520067	-1.067632e-06	3.035582e-07
	-6.614332e-07	-1.393233e-07	-0.003106896	-0.03137001	-1.376758e-05	2.446517e-06	0.002060101	0.006539118
	0.002182838	0.006520067	-1.376758e-05	2.446517e-06	-0.002571743	-0.03151113	-1.230731e-05	1.448396e-06
	-1.067632e-06	3.035582e-07	0.002060101	0.006539118	-1.230731e-05	1.448396e-06	-0.003102059	-0.03126118
1.4e+08	-0.004183117	-0.03384017	-6.541344e-07	-1.121684e-07	0.002496324	0.006931867	-1.053202e-06	2.350786e-07
	-6.541344e-07	-1.121684e-07	-0.004466819	-0.0337398	-1.360648e-05	2.130008e-06	0.002356488	0.006959843
	0.002496324	0.006931867	-1.360648e-05	2.130008e-06	-0.00388368	-0.03390603	-1.216323e-05	1.221916e-06
	-1.053202e-06	2.350786e-07	0.002356488	0.006959843	-1.216323e-05	1.221916e-06	-0.004465431	-0.03362345
1.5e+08	-0.005599868	-0.03617578	-6.468914e-07	-8.750405e-08	0.002827085	0.007326451	-1.03946e-06	1.779488e-07
	-6.468914e-07	-8.750405e-08	-0.005943298	-0.03605087	-1.344914e-05	1.889179e-06	0.002669245	0.007364487
	0.002827084	0.007326451	-1.344914e-05	1.889179e-06	-0.0053095	-0.03624584	-1.20236e-05	1.051717e-06
	-1.03946e-06	1.779488e-07	0.002669245	0.007364487	-1.20236e-05	1.051717e-06	-0.005946018	-0.03592679
1.6e+08	-0.007126803	-0.0384522	-6.396828e-07	-6.48004e-08	0.003174199	0.007702993	-1.026577e-06	1.292332e-07
	-6.396828e-07	-6.48004e-08	-0.007532494	-0.03829803	-1.329663e-05	1.703426e-06	0.002997541	0.007752323
	0.003174199	0.007702993	-1.329663e-05	1.703426e-06	-0.006845576	-0.03852556	-1.188904e-05	9.225586e-07
	-1.026577e-06	1.292332e-07	0.002997541	0.007752323	-1.188904e-05	9.225586e-07	-0.007539922	-0.03816587
1.7e+08	-0.008760349	-0.04066455	-6.324887e-07	-4.36871e-08	0.003536703	0.008060712	-1.014614e-06	8.701826e-08
	-6.324887e-07	-4.36871e-08	-0.009230579	-0.0404763	-1.314926e-05	1.559564e-06	0.003340502	0.008122657
	0.003536703	0.008060712	-1.314926e-05	1.559564e-06	-0.008488317	-0.04074042	-1.175966e-05	8.24673e-07
	-1.014614e-06	8.701826e-08	0.003340502	0.008122657	-1.175966e-05	8.24673e-07	-0.009243242	-0.04033564
1.8e+08	-0.01049691	-0.04280817	-6.252915e-07	-2.389373e-08	0.003913597	0.008398878	-1.003579e-06	4.997936e-08
	-6.252915e-07	-2.389373e-08	-0.01103368	-0.04258091	-1.300698e-05	1.448601e-06	0.003697215	0.008474827
	0.003913597	0.008398878	-1.300698e-05	1.448601e-06	-0.01023411	-0.04288584	-1.16353e-05	7.513855e-07
	-1.003579e-06	4.997936e-08	0.003697215	0.008474827	-1.16353e-05	7.513855e-07	-0.01105204	-0.04243127
1.9e+08	-0.01233285	-0.04487861	-6.180758e-07	-5.216295e-09	0.004303843	0.008716812	-9.934605e-07	1.715293e-08
	-6.180758e-07	-5.216295e-09	-0.01293787	-0.04460733	-1.286958e-05	1.364084e-06	0.004066734	0.008808217
	0.004303843	0.008716812	-1.286958e-05	1.364084e-06	-0.01207929	-0.04495742	-1.151569e-05	6.979013e-07
	-9.934605e-07	1.715293e-08	0.004066734	0.008808217	-1.151569e-05	6.979013e-07	-0.01296231	-0.04444818
2e+08	-0.01426442	-0.04687161	-6.108284e-07	1.250269e-08	0.004706372	0.009013892	-9.842331e-07	-1.218263e-08
	-6.108284e-07	1.250269e-08	-0.01493912	-0.04655118	-1.273677e-05	1.301227e-06	0.004448082	0.009122254
	0.004706372	0.009013892	-1.273677e-05	1.301227e-06	-0.01402011	-0.04695095	-1.140054e-05	6.606576e-07
	-9.842331e-07	-1.218263e-08	0.004448082	0.009122254	-1.140054e-05	6.606576e-07	-0.01496996	-0.04638198
2.1e+08	-0.0162878	-0.04878309	-6.035379e-07	2.93873e-08	0.005120085	0.009289546	-9.758693e-07	-3.858468e-08
	-6.035379e-07	2.93873e-08	-0.0170333	-0.04840833	-1.260825e-05	1.256362e-06	0.004840255	0.009416415
	0.005120085	0.009289546	-1.260825e-05	1.256362e-06	-0.01605273	-0.04886241	-1.128955e-05	6.369238e-07
	-9.758693e-07	-3.858468e-08	0.004840255	0.009416415	-1.128955e-05	6.369238e-07	-0.01707081	-0.0482285
2.2e+08	-0.01839904	-0.05060918	-5.961944e-07	4.553643e-08	0.005543857	0.009543262	-9.683385e-07	-6.248881e-08
	-5.961944e-07	4.553643e-08	-0.01921616	-0.05017483	-1.24837e-05	1.226633e-06	0.005242223	0.009690226
	0.005543857	0.009543262	-1.24837e-05	1.226633e-06	-0.01817318	-0.05068796	-1.11824e-05	6.245699e-07
	-9.683385e-07	-6.248881e-08	0.005242223	0.009690226	-1.11824e-05	6.245699e-07	-0.01926056	-0.04998379
2.3e+08	-0.02059409	-0.05234618	-5.887895e-07	6.102959e-08	0.005976541	0.009774586	-9.616078e-07	-8.423972e-08
	-5.887895e-07	6.102959e-08	-0.02148334	-0.05184692	-1.236279e-05	1.209779e-06	0.005652936	0.009943265
	0.005976541	0.009774586	-1.236279e-05	1.209779e-06	-0.02037743	-0.05242393	-1.107879e-05	6.219084e-07
	-9.616078e-07	-8.423972e-08	0.005652936	0.009943265	-1.107879e-05	6.219084e-07	-0.02153481	-0.05164409
2.4e+08	-0.0228688	-0.05399061	-5.813163e-07	7.59324e-08	0.006416968	0.00998312	-9.556502e-07	-1.0412e-07
	-5.813163e-07	7.59324e-08	-0.02383039	-0.05342107	-1.224524e-05	1.20395e-06	0.006071323	0.01017516
	0.006416968	0.00998312	-1.224524e-05	1.20395e-06	-0.02266129	-0.05406687	-1.097846e-05	6.275609e-07
	-9.556502e-07	-1.0412e-07	0.006071323	0.01017516	-1.097846e-05	6.275609e-07	-0.02388907	-0.05320586
2.5e+08	-0.02521888	-0.05553917	-5.737686e-07	9.029848e-08	0.006863953	0.01016853	-9.504369e-07	-1.223569e-07
	-5.737686e-07	9.029848e-08	-0.02625272	-0.05489396	-1.213077e-05	1.207646e-06	0.0064963	0.01038561
	0.006863953	0.01016853	-1.213077e-05	1.207646e-06	-0.0250205	-0.0556135	-1.088115e-05	6.404083e-07
	-9.504369e-07	-1.223569e-07	0.0064963	0.01038561	-1.088115e-05	6.404083e-07	-0.02631871	-0.05466577
2.6e+08	-0.02763997	-0.05698877	-5.661414e-07	1.041727e-07	0.007316294	0.01033053	-9.45942e-07	-1.391399e-07
	-5.661414e-07	1.041727e-07	-0.02874564	-0.05626247	-1.201911e-05	1.219618e-06	0.006926766	0.01057433
	0.007316294	0.01033053	-1.201911e-05	1.219618e-06	-0.02745068	-0.05706075	-1.078662e-05	6.595182e-07
	-9.45942e-07	-1.391399e-07	0.006926766	0.01057433	-1.078662e-05	6.595182e-07	-0.028819	-0.05602069
2.7e+08	-0.03012759	-0.05833653	-5.5843e-07	1.175922e-07	0.007772781	0.01046892	-9.421379e-07	-1.546245e-07
	-5.5843e-07	1.175922e-07	-0.03130438	-0.05752372	-1.191e-05	1.238824e-06	0.007361614	0.01074114
	0.007772781	0.01046892	-1.191e-05	1.238824e-06	-0.02994735	-0.05840575	-1.069463e-05	6.841142e-07
	-9.421379e-07	-1.546245e-07	0.007361614	0.01074114	-1.069463e-05	6.841142e-07	-0.03138514	-0.05726775
2.8e+08	-0.03267717	-0.05957977	-5.506312e-07	1.305886e-07	0.008232195	0.01058355	-9.390028e-07	-1.689418e-07
	-5.506312e-07	1.305886e-07	-0.03392404	-0.05867503	-1.18032e-05	1.264376e-06	0.007799728	0.01088588
	0.008232195	0.01058355	-1.18032e-05	1.264376e-06	-0.03250595	-0.05964583	-1.060498e-05	7.135363e-07
	-9.390028e-07	-1.689418e-07	0.007799728	0.01088588	-1.060498e-05	7.135363e-07	-0.03401221	-0.05840425
2.9e+08	-0.03528407	-0.06071603	-5.427419e-07	1.431888e-07	0.008693312	0.01067431	-9.365152e-07	-1.822015e-07
	-5.427419e-07	1.431888e-07	-0.03659968	-0.05971397	-1.169851e-05	1.295519e-06	0.008239987	0.01100846
	0.008693312	0.01067431	-1.169851e-05	1.295519e-06	-0.03512182	-0.06077854	-1.051747e-05	7.472225e-07
	-9.365152e-07	-1.822015e-07	0.008239987	0.01100846	-1.051747e-05	7.472225e-07	-0.03669522	-0.05942775
3e+08	-0.03794356	-0.06174305	-5.347594e-07	1.554151e-07	0.009154908	0.01074118	-9.346521e-07	-1.944963e-07
	-5.347594e-07	1.554151e-07	-0.03932625	-0.06063832	-1.15957e-05	1.331602e-06	0.008681271	0.01110884
	0.009154908	0.01074118	-1.15957e-05	1.331602e-06	-0.03779024	-0.06180164	-1.04319e-05	7.846909e-07
	-9.346521e-07	-1.944963e-07	0.008681271	0.01110884	-1.04319e-05	7.846909e-07	-0.0394291	-0.06033604
3.1e+08	-0.04065085	-0.06265879	-5.266807e-07	1.672874e-07	0.009615761	0.01078421	-9.333964e-07	-2.059042e-07
	-5.266807e-07	1.672874e-07	-0.04209865	-0.06144608	-1.149455e-05	1.372061e-06	0.00912246	0.01118705
	0.009615761	0.01078421	-1.149455e-05	1.372061e-06	-0.04050641	-0.06271307	-1.034813e-05	8.255238e-07
	-9.333964e-07	-2.059042e-07	0.00912246	0.01118705	-1.034813e-05	8.255238e-07	-0.0422087	-0.06112712
3.2e+08	-0.04340109	-0.06346142	-5.185026e-07	1.788222e-07	0.01007465	0.01080348	-9.327293e-07	-2.164918e-07
	-5.185026e-07	1.788222e-07	-0.04491172	-0.06213552	-1.139484e-05	1.416399e-06	0.009562442	0.01124317
	0.01007465	0.01080348	-1.139484e-05	1.416399e-06	-0.04326548	-0.06351103	-1.026598e-05	8.693569e-07
	-9.327293e-07	-2.164918e-07	0.009562442	0.01124317	-1.026598e-05	8.693569e-07	-0.04502882	-0.06179922
3.3e+08	-0.04618938	-0.06414933	-5.102266e-07	1.900334e-07	0.01053037	0.01079914	-9.326308e-07	-2.26316e-07
	-5.102266e-07	1.900334e-07	-0.04776023	-0.06270508	-1.129646e-05	1.464178e-06	0.01000011	0.01127732
	0.01053037	0.01079914	-1.129646e-05	1.464178e-06	-0.04606253	-0.0641939	-1.01853e-05	9.158706e-07
	-9.326308e-07	-2.26316e-07	0.01000011	0.01127732	-1.01853e-05	9.158706e-07	-0.04788423	-0.06235083
3.4e+08	-0.04901076	-0.06472113	-5.018526e-07	2.009331e-07	0.01098173	0.01077143	-9.330793e-07	-2.354264e-07
	-5.018526e-07	2.009331e-07	-0.05063895	-0.06315349	-1.119922e-05	1.515009e-06	0.01043437	0.01128969
	0.01098173	0.01077143	-1.119922e-05	1.515009e-06	-0.04889261	-0.06476028	-1.010591e-05	9.647707e-07
	-9.330793e-07	-2.354264e-07	0.01043437	0.01128969	-1.010591e-05	9.647707e-07	-0.05076963	-0.06278064
3.5e+08	-0.05186027	-0.06517563	-4.933796e-07	2.115319e-07	0.01142753	0.01072062	-9.340634e-07	-2.438628e-07
	-4.933796e-07	2.115319e-07	-0.05354259	-0.06347967	-1.110297e-05	1.568545e-06	0.01086413	0.01128052
	0.01142753	0.01072062	-1.110297e-05	1.568545e-06	-0.05175075	-0.06520901	-1.00277e-05	1.015814e-06
	-9.340634e-07	-2.438628e-07	0.01086413	0.01128052	-1.00277e-05	1.015814e-06	-0.05367969	-0.0630876
3.6e+08	-0.05473288	-0.06551187	-4.848074e-07	2.218395e-07	0.01186662	0.01064704	-9.355694e-07	-2.516591e-07
	-4.848074e-07	2.218395e-07	-0.05646585	-0.06368279	-1.100761e-05	1.624476e-06	0.01128834	0.01125012
	0.01186662	0.01064704	-1.100761e-05	1.624476e-06	-0.05463191	-0.06553911	-9.950564e-06	1.068782e-06
	-9.355694e-07	-2.516591e-07	0.01128834	0.01125012	-9.950564e-06	1.068782e-06	-0.05660908	-0.06327087
3.7e+08	-0.0576236	-0.06572909	-4.76136e-07	2.31864e-07	0.01229785	0.01055108	-9.375822e-07	-2.588449e-07
	-4.76136e-07	2.31864e-07	-0.0594034	-0.06376225	-1.091301e-05	1.682523e-06	0.01170595	0.01119882
	0.01229785	0.01055108	-1.091301e-05	1.682523e-06	-0.05753107	-0.06574983	-9.874383e-06	1.123473e-06
	-9.375822e-07	-2.588449e-07	0.01170595	0.01119882	-9.874383e-06	1.123473e-06	-0.05955245	-0.06332987
3.8e+08	-0.06052737	-0.06582676	-4.673655e-07	2.416122e-07	0.01272011	0.0104332	-9.400865e-07	-2.654453e-07
	-4.673655e-07	2.416122e-07	-0.06234994	-0.06371768	-1.081905e-05	1.742433e-06	0.01211592	0.01112702
	0.01272011	0.0104332	-1.081905e-05	1.742433e-06	-0.06044319	-0.06584063	-9.799044e-06	1.179707e-06
	-9.400865e-07	-2.654453e-07	0.01211592	0.01112702	-9.799044e-06	1.179707e-06	-0.06250445	-0.06326421
3.9e+08	-0.06343917	-0.06580455	-4.584962e-07	2.510902e-07	0.01313229	0.01029391	-9.430681e-07	-2.714811e-07
	-4.584962e-07	2.510902e-07	-0.06530016	-0.06354893	-1.072561e-05	1.80397e-06	0.01251726	0.01103517
	0.01313229	0.01029391	-1.072561e-05	1.80397e-06	-0.06336323	-0.0658112	-9.724441e-06	1.237317e-06
	-9.430681e-07	-2.714811e-07	0.01251726	0.01103517	-9.724441e-06	1.237317e-06	-0.06545971	-0.06307378
4e+08	-0.06635398	-0.06566235	-4.495285e-07	2.60303e-07	0.01353334	0.01013375	-9.465115e-07	-2.769706e-07
	-4.495285e-07	2.60303e-07	-0.06824875	-0.06325609	-1.063257e-05	1.866921e-06	0.012909	0.01092377
	0.01353334	0.01013375	-1.063257e-05	1.866921e-06	-0.06628616	-0.06566141	-9.650469e-06	1.296151e-06
	-9.465115e-07	-2.769706e-07	0.012909	0.01092377	-9.650469e-06	1.296151e-06	-0.06841291	-0.06275866
4.1e+08	-0.06926678	-0.06540024	-4.404633e-07	2.692553e-07	0.01392221	0.009953348	-9.504028e-07	-2.819285e-07
	-4.404633e-07	2.692553e-07	-0.07119046	-0.06283945	-1.053984e-05	1.931085e-06	0.01329018	0.01079334
	0.01392221	0.009953348	-1.053984e-05	1.931085e-06	-0.06920694	-0.06539136	-9.577037e-06	1.356069e-06
	-9.504028e-07	-2.819285e-07	0.01329018	0.01079334	-9.577037e-06	1.356069e-06	-0.07135875	-0.06231917
4.2e+08	-0.07217259	-0.06501854	-4.313013e-07	2.779508e-07	0.01429792	0.009753348	-9.547286e-07	-2.863666e-07
	-4.313013e-07	2.779508e-07	-0.07412005	-0.06229955	-1.044731e-05	1.99628e-06	0.01365989	0.01064448
	0.01429792	0.009753348	-1.044731e-05	1.99628e-06	-0.07212059	-0.06500136	-9.504055e-06	1.416945e-06
	-9.547286e-07	-2.863666e-07	0.01365989	0.01064448	-9.504055e-06	1.416945e-06	-0.07429196	-0.06175586
4.3e+08	-0.07506647	-0.06451774	-4.220435e-07	2.863929e-07	0.01465949	0.009534462	-9.59475e-07	-2.902946e-07
	-4.220435e-07	2.863929e-07	-0.07703233	-0.06163712	-1.035491e-05	2.062334e-06	0.01401725	0.01047781
	0.01465949	0.009534462	-1.035491e-05	2.062334e-06	-0.07502215	-0.06449192	-9.431441e-06	1.478659e-06
	-9.59475e-07	-2.902946e-07	0.01401725	0.01047781	-9.431441e-06	1.478659e-06	-0.0772073	-0.06106949
4.4e+08	-0.0779435	-0.06389856	-4.126908e-07	2.945842e-07	0.015006	0.009297439	-9.646278e-07	-2.937207e-07
	-4.126908e-07	2.945842e-07	-0.07992216	-0.06085314	-1.026255e-05	2.129082e-06	0.0143614	0.010294
	0.015006	0.009297439	-1.026255e-05	2.129082e-06	-0.07790668	-0.06386374	-9.359112e-06	1.541099e-06
	-9.646278e-07	-2.937207e-07	0.0143614	0.010294	-9.359112e-06	1.541099e-06	-0.08009961	-0.06026106
4.5e+08	-0.08079882	-0.0631619	-4.032445e-07	3.025272e-07	0.01533657	0.009043074	-9.701724e-07	-2.966517e-07
	-4.032445e-07	3.025272e-07	-0.08278446	-0.05994877	-1.017014e-05	2.196372e-06	0.01469152	0.01009375
	0.01533657	0.009043074	-1.017014e-05	2.196372e-06	-0.08076932	-0.06311774	-9.286991e-06	1.604158e-06
	-9.701724e-07	-2.966517e-07	0.01469152	0.01009375	-9.286991e-06	1.604158e-06	-0.08296376	-0.05933174
4.6e+08	-0.08362761	-0.06230886	-3.937058e-07	3.102236e-07	0.01565034	0.008772201	-9.760956e-07	-2.990914e-07
	-3.937058e-07	3.102236e-07	-0.08561422	-0.0589254	-1.007763e-05	2.264061e-06	0.01500686	0.009877807
	0.01565034	0.008772201	-1.007763e-05	2.264061e-06	-0.08360524	-0.06225502	-9.215008e-06	1.667741e-06
	-9.760956e-07	-2.990914e-07	0.01500686	0.009877807	-9.215008e-06	1.667741e-06	-0.08579472	-0.05828296
4.7e+08	-0.08642512	-0.06134074	-3.840761e-07	3.176751e-07	0.01594653	0.008485694	-9.823816e-07	-3.01045e-07
	-3.840761e-07	3.176751e-07	-0.08840649	-0.05778461	-9.98494e-06	2.332006e-06	0.01530665	0.009646951
