!$
! Info: Touchstone file created by Circ.  Input file=Tx_2in_Rx_85ohms_TxVia_35mils_RxVia_45mils.circ
!$
# Hz S RI R 50
0	0.001748336	4.971228e-26	1.969963e-12	7.788957e-29	3.152567e-05	3.194273e-24	3.09274e-12	5.254589e-29
	1.969961e-12	7.788959e-29	0.001744926	5.327654e-26	5.085162e-12	1.265664e-28	3.015005e-05	3.841486e-24
	3.205069e-05	3.235852e-24	5.085163e-12	1.265663e-28	0.001756725	4.851309e-26	3.075894e-12	8.291875e-29
	3.09274e-12	5.254593e-29	2.830357e-05	3.860662e-24	3.075896e-12	8.291886e-29	0.001758165	4.989016e-26
1e+07	0.002416272	-0.001586135	5.84985e-12	7.618484e-12	4.092306e-05	0.0005592025	7.985937e-12	1.394085e-11
	5.84985e-12	7.618485e-12	0.002410197	-0.001554503	8.077567e-12	9.76767e-12	5.572186e-05	0.0005582375
	4.094674e-05	0.0005592038	8.077567e-12	9.76767e-12	0.002698782	-0.001500876	6.266532e-12	8.484219e-12
	7.985937e-12	1.394085e-11	5.566233e-05	0.0005582477	6.266531e-12	8.484219e-12	0.002418539	-0.001544749
2e+07	0.002919993	-0.003737302	7.22315e-12	1.361232e-11	8.298748e-05	0.00111567	9.740129e-12	2.539266e-11
	7.223152e-12	1.361232e-11	0.002936459	-0.003682418	1.037451e-11	1.644229e-11	0.0001035698	0.001101898
	8.299526e-05	0.001115655	1.037451e-11	1.644229e-11	0.003213437	-0.003690972	8.113953e-12	1.444967e-11
	9.740129e-12	2.539266e-11	0.0001035621	0.001101932	8.113953e-12	1.444967e-11	0.002946613	-0.003661389
3e+07	0.003155376	-0.006149509	8.198153e-12	1.90479e-11	0.0001620049	0.001657368	1.107166e-11	3.619426e-11
	8.198153e-12	1.90479e-11	0.003183626	-0.006087181	1.236937e-11	2.249294e-11	0.0001732754	0.001639266
	0.0001620049	0.001657365	1.236937e-11	2.249294e-11	0.003457742	-0.006113393	9.485223e-12	1.963031e-11
	1.107166e-11	3.619426e-11	0.0001732754	0.001639271	9.485223e-12	1.963031e-11	0.003195203	-0.006056588
4e+07	0.003197416	-0.008651311	8.857388e-12	2.401537e-11	0.000264307	0.002190723	1.182866e-11	4.646079e-11
	8.857386e-12	2.401537e-11	0.003229566	-0.008586435	1.416582e-11	2.801061e-11	0.0002656265	0.002170562
	0.0002643089	0.002190724	1.416582e-11	2.801061e-11	0.003507505	-0.008622472	1.012272e-11	2.403295e-11
	1.182866e-11	4.646079e-11	0.0002656211	0.00217056	1.012272e-11	2.403295e-11	0.003242303	-0.008546943
5e+07	0.003073426	-0.01119919	9.14063e-12	2.864421e-11	0.000389927	0.00271573	1.198589e-11	5.648551e-11
	9.140629e-12	2.864421e-11	0.003102617	-0.01113395	1.566123e-11	3.302426e-11	0.0003804166	0.002695015
	0.0003899282	0.00271573	1.566123e-11	3.302426e-11	0.003390323	-0.01117741	9.9417e-12	2.802073e-11
	1.198589e-11	5.648551e-11	0.0003804129	0.002695014	9.9417e-12	2.802073e-11	0.003116193	-0.01108602
6e+07	0.00279718	-0.01377012	8.938014e-12	3.30266e-11	0.0005385477	0.003231807	1.158015e-11	6.642918e-11
	8.938015e-12	3.30266e-11	0.002817387	-0.01370554	1.672118e-11	3.760973e-11	0.0005172494	0.003211826
	0.0005385453	0.003231807	1.672118e-11	3.760973e-11	0.003120025	-0.01375598	8.917701e-12	3.178072e-11
	1.158015e-11	6.642918e-11	0.0005172516	0.003211825	8.917701e-12	3.178072e-11	0.00283146	-0.01364953
7e+07	0.002377041	-0.01634868	8.121556e-12	3.726573e-11	0.0007097766	0.00373818	1.064041e-11	7.638794e-11
	8.121563e-12	3.726573e-11	0.002382646	-0.01628535	1.720886e-11	4.187077e-11	0.0006757111	0.003720167
	0.0007097705	0.003738181	1.720886e-11	4.187077e-11	0.002704951	-0.01634314	7.00511e-12	3.544947e-11
	1.064041e-11	7.638794e-11	0.0006757186	0.003720164	7.00511e-12	3.544947e-11	0.002396825	-0.01622159
8e+07	0.001818792	-0.018923	6.5377e-12	4.148414e-11	0.0009031712	0.004233963	9.161883e-12	8.643689e-11
	6.537712e-12	4.148414e-11	0.001804269	-0.0188613	1.697723e-11	4.593722e-11	0.0008553646	0.004219193
	0.0009031639	0.004233966	1.697723e-11	4.593722e-11	0.002150816	-0.01892734	4.11452e-12	3.91653e-11
	9.161883e-12	8.643689e-11	0.0008553739	0.004219187	4.114519e-12	3.91653e-11	0.001818083	-0.01879007
9e+07	0.001126969	-0.02148289	3.968903e-12	4.585115e-11	0.001118226	0.004718216	7.082556e-12	9.667112e-11
	3.968914e-12	4.585115e-11	0.001086698	-0.02142339	1.582373e-11	4.997966e-11	0.001055739	0.004708119
	0.001118221	0.00471822	1.582373e-11	4.997966e-11	0.001462001	-0.02149897	6.581532e-14	4.311863e-11
	7.082555e-12	9.667112e-11	0.001055746	0.004708113	6.581494e-14	4.311863e-11	0.001099604	-0.02134489
1e+08	0.0003059551	-0.02401741	-1.560727e-13	5.07773e-11	0.001354394	0.005190104	4.061472e-12	1.073736e-10
	-1.560727e-13	5.07773e-11	0.0002335553	-0.02396362	1.30666e-11	5.439945e-11	0.001276464	0.005186831
	0.001354394	0.005190104	1.30666e-11	5.439945e-11	0.0006421464	-0.02404992	-5.897013e-12	4.786228e-11
	4.061472e-12	1.073736e-10	0.001276464	0.005186831	-5.897013e-12	4.786228e-11	0.0002449442	-0.02387803
1.1e+08	-0.0006311419	-0.02653168	-3.623089e-12	5.73663e-11	0.001611109	0.005648336	2.746017e-12	1.182723e-10
	-3.623089e-12	5.73663e-11	-0.0007525343	-0.02647638	1.266235e-11	6.02313e-11	0.001519473	0.005652283
	0.001611109	0.005648336	1.266235e-11	6.02313e-11	-0.0003046923	-0.02657741	-1.012475e-11	5.473243e-11
	2.746017e-12	1.182723e-10	0.001519473	0.005652283	-1.012475e-11	5.473243e-11	-0.000742804	-0.02638272
1.2e+08	-0.001694821	-0.02901229	-5.013871e-12	6.28008e-11	0.001887496	0.006091924	1.74614e-12	1.290383e-10
	-5.013871e-12	6.28008e-11	-0.001867442	-0.02894697	1.43577e-11	6.514901e-11	0.00178086	0.006103042
	0.001887496	0.006091924	1.43577e-11	6.514901e-11	-0.001377426	-0.0290664	-1.190613e-11	6.02994e-11
	1.74614e-12	1.290383e-10	0.00178086	0.006103042	-1.190613e-11	6.02994e-11	-0.001859838	-0.02884563
1.3e+08	-0.002880177	-0.0314505	-6.149745e-12	6.815213e-11	0.002182838	0.006520067	5.356751e-13	1.400445e-10
	-6.149745e-12	6.815213e-11	-0.003106896	-0.03137001	1.616328e-11	6.999429e-11	0.002060101	0.006539118
	0.002182838	0.006520067	1.616328e-11	6.999429e-11	-0.002571743	-0.03151113	-1.345139e-11	6.581479e-11
	5.356751e-13	1.400445e-10	0.002060101	0.006539118	-1.345139e-11	6.581479e-11	-0.003102059	-0.03126118
1.4e+08	-0.004183117	-0.03384017	-7.288805e-12	7.363478e-11	0.002496324	0.006931867	-7.426995e-13	1.512348e-10
	-7.288805e-12	7.363478e-11	-0.004466819	-0.0337398	1.78307e-11	7.490832e-11	0.002356488	0.006959843
	0.002496324	0.006931867	1.78307e-11	7.490832e-11	-0.00388368	-0.03390603	-1.503461e-11	7.151849e-11
	-7.426995e-13	1.512348e-10	0.002356488	0.006959843	-1.503461e-11	7.151849e-11	-0.004465431	-0.03362345
1.5e+08	-0.005599868	-0.03617578	-8.600902e-12	7.931412e-11	0.002827085	0.007326451	-2.192801e-12	1.626982e-10
	-8.600902e-12	7.931412e-11	-0.005943298	-0.03605087	1.940446e-11	7.986884e-11	0.002669245	0.007364487
	0.002827084	0.007326451	1.940446e-11	7.986884e-11	-0.0053095	-0.03624584	-1.686038e-11	7.74913e-11
	-2.192801e-12	1.626982e-10	0.002669245	0.007364487	-1.686038e-11	7.74913e-11	-0.005946018	-0.03592679
1.6e+08	-0.007126803	-0.0384522	-1.005796e-11	8.518566e-11	0.003174199	0.007702993	-3.780874e-12	1.744402e-10
	-1.005796e-11	8.518566e-11	-0.007532494	-0.03829803	2.090614e-11	8.486016e-11	0.002997541	0.007752323
	0.003174199	0.007702993	2.090614e-11	8.486016e-11	-0.006845576	-0.03852556	-1.889045e-11	8.372585e-11
	-3.780874e-12	1.744402e-10	0.002997541	0.007752323	-1.889045e-11	8.372585e-11	-0.007539922	-0.03816587
1.7e+08	-0.008760349	-0.04066455	-1.163921e-11	9.124797e-11	0.003536703	0.008060712	-5.479068e-12	1.864675e-10
	-1.163921e-11	9.124797e-11	-0.009230579	-0.0404763	2.234706e-11	8.987095e-11	0.003340502	0.008122657
	0.003536703	0.008060712	2.234706e-11	8.987095e-11	-0.008488317	-0.04074042	-2.109751e-11	9.021973e-11
	-5.479068e-12	1.864675e-10	0.003340502	0.008122657	-2.109751e-11	9.021973e-11	-0.009243242	-0.04033564
1.8e+08	-0.01049691	-0.04280817	-1.332791e-11	9.750125e-11	0.003913597	0.008398878	-7.262844e-12	1.987871e-10
	-1.332791e-11	9.750125e-11	-0.01103368	-0.04258091	2.373285e-11	9.489272e-11	0.003697215	0.008474827
	0.003913597	0.008398878	2.373285e-11	9.489272e-11	-0.01023411	-0.04288584	-2.345999e-11	9.69733e-11
	-7.262844e-12	1.987871e-10	0.003697215	0.008474827	-2.345999e-11	9.69733e-11	-0.01105204	-0.04243127
1.9e+08	-0.01233285	-0.04487861	-1.51097e-11	1.039465e-10	0.004303843	0.008716812	-9.109575e-12	2.11406e-10
	-1.51097e-11	1.039465e-10	-0.01293787	-0.04460733	2.506575e-11	9.991894e-11	0.004066734	0.008808217
	0.004303843	0.008716812	2.506575e-11	9.991894e-11	-0.01207929	-0.04495742	-2.595946e-11	1.039885e-10
	-9.109575e-12	2.11406e-10	0.004066734	0.008808217	-2.595946e-11	1.039885e-10	-0.01296231	-0.04444818
2e+08	-0.01426442	-0.04687161	-1.697179e-11	1.105852e-10	0.004706372	0.009013892	-1.099774e-11	2.243312e-10
	-1.697179e-11	1.105852e-10	-0.01493912	-0.04655118	2.634585e-11	1.049447e-10	0.004448082	0.009122254
	0.004706372	0.009013892	2.634585e-11	1.049447e-10	-0.01402011	-0.04695095	-2.857935e-11	1.112682e-10
	-1.099774e-11	2.243312e-10	0.004448082	0.009122254	-2.857935e-11	1.112682e-10	-0.01496996	-0.04638198
2.1e+08	-0.0162878	-0.04878309	-1.890252e-11	1.174191e-10	0.005120085	0.009289546	-1.290644e-11	2.37569e-10
	-1.890252e-11	1.174191e-10	-0.0170333	-0.04840833	2.757179e-11	1.099663e-10	0.004840255	0.009416415
	0.005120085	0.009289546	2.757179e-11	1.099663e-10	-0.01605273	-0.04886241	-3.130412e-11	1.188159e-10
	-1.290644e-11	2.37569e-10	0.004840255	0.009416415	-3.130412e-11	1.188159e-10	-0.01707081	-0.0482285
2.2e+08	-0.01839904	-0.05060918	-2.089109e-11	1.2445e-10	0.005543857	0.009543262	-1.481503e-11	2.511257e-10
	-2.089109e-11	1.2445e-10	-0.01921616	-0.05017483	2.874121e-11	1.14981e-10	0.005242223	0.009690226
	0.005543857	0.009543262	2.874121e-11	1.14981e-10	-0.01817318	-0.05068796	-3.411889e-11	1.266353e-10
	-1.481503e-11	2.511257e-10	0.005242223	0.009690226	-3.411889e-11	1.266353e-10	-0.01926056	-0.04998379
2.3e+08	-0.02059409	-0.05234618	-2.292738e-11	1.316803e-10	0.005976541	0.009774586	-1.670297e-11	2.650067e-10
	-2.292738e-11	1.316803e-10	-0.02148334	-0.05184692	2.985104e-11	1.199874e-10	0.005652936	0.009943265
	0.005976541	0.009774586	2.985104e-11	1.199874e-10	-0.02037743	-0.05242393	-3.700913e-11	1.347305e-10
	-1.670297e-11	2.650067e-10	0.005652936	0.009943265	-3.700913e-11	1.347305e-10	-0.02153481	-0.05164409
2.4e+08	-0.0228688	-0.05399061	-2.500161e-11	1.391122e-10	0.006416968	0.00998312	-1.854961e-11	2.792169e-10
	-2.500161e-11	1.391122e-10	-0.02383039	-0.05342107	3.089775e-11	1.249843e-10	0.006071323	0.01017516
	0.006416968	0.00998312	3.089775e-11	1.249843e-10	-0.02266129	-0.05406687	-3.99604e-11	1.431052e-10
	-1.854961e-11	2.792169e-10	0.006071323	0.01017516	-3.99604e-11	1.431052e-10	-0.02388907	-0.05320586
2.5e+08	-0.02521888	-0.05553917	-2.710411e-11	1.467485e-10	0.006863953	0.01016853	-2.033416e-11	2.937599e-10
	-2.710411e-11	1.467485e-10	-0.02625272	-0.05489396	3.187741e-11	1.299718e-10	0.0064963	0.01038561
	0.006863953	0.01016853	3.187741e-11	1.299718e-10	-0.0250205	-0.0556135	-4.295829e-11	1.517631e-10
	-2.033416e-11	2.937599e-10	0.0064963	0.01038561	-4.295829e-11	1.517631e-10	-0.02631871	-0.05466577
2.6e+08	-0.02763997	-0.05698877	-2.922548e-11	1.545923e-10	0.007316294	0.01033053	-2.2036e-11	3.086399e-10
	-2.922548e-11	1.545923e-10	-0.02874564	-0.05626247	3.278584e-11	1.349502e-10	0.006926766	0.01057433
	0.007316294	0.01033053	3.278584e-11	1.349502e-10	-0.02745068	-0.05706075	-4.598836e-11	1.607077e-10
	-2.2036e-11	3.086399e-10	0.006926766	0.01057433	-4.598836e-11	1.607077e-10	-0.028819	-0.05602069
2.7e+08	-0.03012759	-0.05833653	-3.135582e-11	1.626467e-10	0.007772781	0.01046892	-2.363414e-11	3.238592e-10
	-3.135582e-11	1.626467e-10	-0.03130438	-0.05752372	3.36187e-11	1.39921e-10	0.007361614	0.01074114
	0.007772781	0.01046892	3.36187e-11	1.39921e-10	-0.02994735	-0.05840575	-4.903601e-11	1.699422e-10
	-2.363414e-11	3.238592e-10	0.007361614	0.01074114	-4.903601e-11	1.699422e-10	-0.03138514	-0.05726775
2.8e+08	-0.03267717	-0.05957977	-3.348491e-11	1.709149e-10	0.008232195	0.01058355	-2.510748e-11	3.394197e-10
	-3.348491e-11	1.709149e-10	-0.03392404	-0.05867503	3.43715e-11	1.448859e-10	0.007799728	0.01088588
	0.008232195	0.01058355	3.43715e-11	1.448859e-10	-0.03250595	-0.05964583	-5.208657e-11	1.794694e-10
	-2.510748e-11	3.394197e-10	0.007799728	0.01088588	-5.208657e-11	1.794694e-10	-0.03401221	-0.05840425
2.9e+08	-0.03528407	-0.06071603	-3.560215e-11	1.793996e-10	0.008693312	0.01067431	-2.643475e-11	3.553222e-10
	-3.560215e-11	1.793996e-10	-0.03659968	-0.05971397	3.503968e-11	1.498473e-10	0.008239987	0.01100846
	0.008693312	0.01067431	3.503968e-11	1.498473e-10	-0.03512182	-0.06077854	-5.512521e-11	1.892914e-10
	-2.643475e-11	3.553222e-10	0.008239987	0.01100846	-5.512521e-11	1.892914e-10	-0.03669522	-0.05942775
3e+08	-0.03794356	-0.06174305	-3.769655e-11	1.881032e-10	0.009154908	0.01074118	-2.75945e-11	3.715665e-10
	-3.769655e-11	1.881032e-10	-0.03932625	-0.06063832	3.561872e-11	1.548082e-10	0.008681271	0.01110884
	0.009154908	0.01074118	3.561872e-11	1.548082e-10	-0.03779024	-0.06180164	-5.813694e-11	1.994103e-10
	-2.75945e-11	3.715665e-10	0.008681271	0.01110884	-5.813694e-11	1.994103e-10	-0.0394291	-0.06033604
3.1e+08	-0.04065085	-0.06265879	-3.977164e-11	1.970228e-10	0.009615761	0.01078421	-2.856525e-11	3.881518e-10
	-3.977164e-11	1.970228e-10	-0.04209865	-0.06144608	3.608198e-11	1.597539e-10	0.00912246	0.01118705
	0.009615761	0.01078421	3.608198e-11	1.597539e-10	-0.04050641	-0.06271307	-6.110672e-11	2.098276e-10
	-2.856525e-11	3.881518e-10	0.00912246	0.01118705	-6.110672e-11	2.098276e-10	-0.0422087	-0.06112712
3.2e+08	-0.04340109	-0.06346142	-4.183263e-11	2.061567e-10	0.01007465	0.01080348	-2.932531e-11	4.05076e-10
	-4.183263e-11	2.061567e-10	-0.04491172	-0.06213552	3.639923e-11	1.646707e-10	0.009562442	0.01124317
	0.01007465	0.01080348	3.639923e-11	1.646707e-10	-0.04326548	-0.06351103	-6.401933e-11	2.205444e-10
	-2.932531e-11	4.05076e-10	0.009562442	0.01124317	-6.401933e-11	2.205444e-10	-0.04502882	-0.06179922
3.3e+08	-0.04618938	-0.06414933	-4.383919e-11	2.155168e-10	0.01053037	0.01079914	-2.985296e-11	4.223358e-10
	-4.383919e-11	2.155168e-10	-0.04776023	-0.06270508	3.660887e-11	1.696011e-10	0.01000011	0.01127732
	0.01053037	0.01079914	3.660887e-11	1.696011e-10	-0.04606253	-0.0641939	-6.685938e-11	2.315603e-10
	-2.985296e-11	4.223358e-10	0.01000011	0.01127732	-6.685938e-11	2.315603e-10	-0.04788423	-0.06235083
3.4e+08	-0.04901076	-0.06472113	-4.577961e-11	2.251042e-10	0.01098173	0.01077143	-3.012642e-11	4.399273e-10
	-4.577961e-11	2.251042e-10	-0.05063895	-0.06315349	3.666039e-11	1.745208e-10	0.01043437	0.01128969
	0.01098173	0.01077143	3.666039e-11	1.745208e-10	-0.04889261	-0.06476028	-6.964011e-11	2.428695e-10
	-3.012642e-11	4.399273e-10	0.01043437	0.01128969	-6.964011e-11	2.428695e-10	-0.05076963	-0.06278064
3.5e+08	-0.05186027	-0.06517563	-4.764206e-11	2.34919e-10	0.01142753	0.01072062	-3.012394e-11	4.57845e-10
	-4.764206e-11	2.34919e-10	-0.05354259	-0.06347967	3.656059e-11	1.794478e-10	0.01086413	0.01128052
	0.01142753	0.01072062	3.656059e-11	1.794478e-10	-0.05175075	-0.06520901	-7.233857e-11	2.54475e-10
	-3.012394e-11	4.57845e-10	0.01086413	0.01128052	-7.233857e-11	2.54475e-10	-0.05367969	-0.0630876
3.6e+08	-0.05473288	-0.06551187	-4.941475e-11	2.449605e-10	0.01186662	0.01064704	-2.982399e-11	4.760825e-10
	-4.941475e-11	2.449605e-10	-0.05646585	-0.06368279	3.633624e-11	1.844097e-10	0.01128834	0.01125012
	0.01186662	0.01064704	3.633624e-11	1.844097e-10	-0.05463191	-0.06553911	-7.492043e-11	2.663798e-10
	-2.982399e-11	4.760825e-10	0.01128834	0.01125012	-7.492043e-11	2.663798e-10	-0.05660908	-0.06327087
3.7e+08	-0.0576236	-0.06572909	-5.108584e-11	2.552278e-10	0.01229785	0.01055108	-2.920509e-11	4.946319e-10
	-5.108584e-11	2.552278e-10	-0.0594034	-0.06376225	3.598405e-11	1.894144e-10	0.01170595	0.01119882
	0.01229785	0.01055108	3.598405e-11	1.894144e-10	-0.05753107	-0.06574983	-7.737013e-11	2.785816e-10
	-2.920509e-11	4.946319e-10	0.01170595	0.01119882	-7.737013e-11	2.785816e-10	-0.05955245	-0.06332987
3.8e+08	-0.06052737	-0.06582676	-5.264349e-11	2.657197e-10	0.01272011	0.0104332	-2.824597e-11	5.134846e-10
	-5.264349e-11	2.657197e-10	-0.06234994	-0.06371768	3.55011e-11	1.944701e-10	0.01211592	0.01112702
	0.01272011	0.0104332	3.55011e-11	1.944701e-10	-0.06044319	-0.06584063	-7.96721e-11	2.910778e-10
	-2.824597e-11	5.134846e-10	0.01211592	0.01112702	-7.96721e-11	2.910778e-10	-0.06250445	-0.06326421
3.9e+08	-0.06343917	-0.06580455	-5.407584e-11	2.764345e-10	0.01313229	0.01029391	-2.692565e-11	5.326308e-10
	-5.407584e-11	2.764345e-10	-0.06530016	-0.06354893	3.488488e-11	1.995857e-10	0.01251726	0.01103517
	0.01313229	0.01029391	3.488488e-11	1.995857e-10	-0.06336323	-0.0658112	-8.181084e-11	3.038649e-10
	-2.692565e-11	5.326308e-10	0.01251726	0.01103517	-8.181084e-11	3.038649e-10	-0.06545971	-0.06307378
4e+08	-0.06635398	-0.06566235	-5.537103e-11	2.873698e-10	0.01353334	0.01013375	-2.522343e-11	5.520592e-10
	-5.537103e-11	2.873698e-10	-0.06824875	-0.06325609	3.413334e-11	2.047705e-10	0.012909	0.01092377
	0.01353334	0.01013375	3.413334e-11	2.047705e-10	-0.06628616	-0.06566141	-8.37709e-11	3.169387e-10
	-2.522343e-11	5.520592e-10	0.012909	0.01092377	-8.37709e-11	3.169387e-10	-0.06841291	-0.06275866
4.1e+08	-0.06926678	-0.06540024	-5.651729e-11	2.98523e-10	0.01392221	0.009953348	-2.311904e-11	5.717577e-10
	-5.651729e-11	2.98523e-10	-0.07119046	-0.06283945	3.324492e-11	2.100343e-10	0.01329018	0.01079334
	0.01392221	0.009953348	3.324492e-11	2.100343e-10	-0.06920694	-0.06539136	-8.553699e-11	3.302946e-10
	-2.311904e-11	5.717577e-10	0.01329018	0.01079334	-8.553699e-11	3.302946e-10	-0.07135875	-0.06231917
4.2e+08	-0.07217259	-0.06501854	-5.750284e-11	3.098909e-10	0.01429792	0.009753348	-2.059269e-11	5.917129e-10
	-5.750284e-11	3.098909e-10	-0.07412005	-0.06229955	3.221859e-11	2.153874e-10	0.01365989	0.01064448
	0.01429792	0.009753348	3.221859e-11	2.153874e-10	-0.07212059	-0.06500136	-8.709396e-11	3.43927e-10
	-2.059269e-11	5.917129e-10	0.01365989	0.01064448	-8.709396e-11	3.43927e-10	-0.07429196	-0.06175586
4.3e+08	-0.07506647	-0.06451774	-5.831601e-11	3.214698e-10	0.01465949	0.009534462	-1.762512e-11	6.119104e-10
	-5.831601e-11	3.214698e-10	-0.07703233	-0.06163712	3.105392e-11	2.208404e-10	0.01401725	0.01047781
	0.01465949	0.009534462	3.105392e-11	2.208404e-10	-0.07502215	-0.06449192	-8.842685e-11	3.578298e-10
	-1.762512e-11	6.119104e-10	0.01401725	0.01047781	-8.842685e-11	3.578298e-10	-0.0772073	-0.06106949
4.4e+08	-0.0779435	-0.06389856	-5.894512e-11	3.332553e-10	0.015006	0.009297439	-1.419762e-11	6.323344e-10
	-5.894512e-11	3.332553e-10	-0.07992216	-0.06085314	2.975115e-11	2.264045e-10	0.0143614	0.010294
	0.015006	0.009297439	2.975115e-11	2.264045e-10	-0.07790668	-0.06386374	-8.95208e-11	3.719963e-10
	-1.419762e-11	6.323344e-10	0.0143614	0.010294	-8.95208e-11	3.719963e-10	-0.08009961	-0.06026106
4.5e+08	-0.08079882	-0.0631619	-5.937864e-11	3.45243e-10	0.01533657	0.009043074	-1.029216e-11	6.529682e-10
	-5.937864e-11	3.45243e-10	-0.08278446	-0.05994877	2.831123e-11	2.320912e-10	0.01469152	0.01009375
	0.01533657	0.009043074	2.831123e-11	2.320912e-10	-0.08076932	-0.06311774	-9.036121e-11	3.864191e-10
	-1.029216e-11	6.529682e-10	0.01469152	0.01009375	-9.036121e-11	3.864191e-10	-0.08296376	-0.05933174
4.6e+08	-0.08362761	-0.06230886	-5.960513e-11	3.574274e-10	0.01565034	0.008772201	-5.89143e-12	6.737941e-10
	-5.960513e-11	3.574274e-10	-0.08561422	-0.0589254	2.673578e-11	2.379124e-10	0.01500686	0.009877807
	0.01565034	0.008772201	2.673578e-11	2.379124e-10	-0.08360524	-0.06225502	-9.093377e-11	4.010901e-10
	-5.89143e-12	6.737941e-10	0.01500686	0.009877807	-9.093377e-11	4.010901e-10	-0.08579472	-0.05828296
4.7e+08	-0.08642512	-0.06134074	-5.961322e-11	3.698029e-10	0.01594653	0.008485694	-9.788659e-13	6.947932e-10
	-5.961322e-11	3.698029e-10	-0.08840649	-0.05778461	2.502732e-11	2.438802e-10	0.01530665	0.009646951
	0.01594653	0.008485694	2.502732e-11	2.438802e-10	-0.08640968	-0.06127689	-9.122431e-11	4.160005e-10
	-9.788659e-13	6.947932e-10	0.01530665	0.009646951	-9.122431e-11	4.160005e-10	-0.08858751	-0.05711633
4.8e+08	-0.08918669	-0.06025904	-5.939181e-11	3.823632e-10	0.01622438	0.008184463	4.461159e-12	7.159456e-10
