!$
! Info: Touchstone file created by Circ.  Input file=Tx_2in_Rx_93ohms_TxVia_35mils_RxVia_45mils.circ
!$
# Hz S RI R 50
0	0.001971955	4.784211e-26	7.767047e-10	1.844747e-28	3.075353e-05	3.608914e-24	2.579737e-09	7.773543e-29
	7.767055e-10	1.843573e-28	0.001969848	5.318072e-26	4.113534e-10	2.663173e-28	3.010762e-05	4.353122e-24
	3.126416e-05	3.659366e-24	4.113531e-10	2.663552e-28	0.001984468	4.651737e-26	7.97241e-10	1.780845e-28
	2.579737e-09	7.77241e-29	2.82611e-05	4.374811e-24	7.972414e-10	1.780464e-28	0.001983083	4.98007e-26
1e+07	0.002914791	0.0003282095	1.00752e-09	1.467051e-09	5.537008e-05	0.0005288721	4.017082e-09	6.989873e-09
	1.00752e-09	1.467051e-09	0.002880877	0.0002006517	5.976016e-10	8.68052e-10	5.532354e-05	0.0005613166
	5.539997e-05	0.0005288673	5.976015e-10	8.68052e-10	0.002743042	0.0002172182	1.048686e-09	1.52488e-09
	4.017082e-09	6.989873e-09	5.526397e-05	0.0005613268	1.048686e-09	1.52488e-09	0.002839603	0.0002034603
2e+07	0.003640977	-5.350393e-05	1.410833e-09	2.566072e-09	0.0001088409	0.001069548	5.961369e-09	1.214737e-08
	1.410833e-09	2.566072e-09	0.003497926	-0.0002576545	7.926787e-10	1.506094e-09	8.077236e-05	0.001126578
	0.0001088423	0.001069526	7.926787e-10	1.506094e-09	0.003412031	-0.0001721286	1.480157e-09	2.653373e-09
	5.961369e-09	1.214737e-08	8.076448e-05	0.001126612	1.480157e-09	2.653373e-09	0.003468077	-0.0002316297
3e+07	0.004157242	-0.0007295493	1.819385e-09	3.593776e-09	0.000184215	0.001607303	7.970904e-09	1.700517e-08
	1.819385e-09	3.593776e-09	0.003924715	-0.0009564529	9.549489e-10	2.112498e-09	0.0001456304	0.001673838
	0.0001842089	0.001607301	9.549489e-10	2.112498e-09	0.0038848	-0.0008476909	1.914116e-09	3.706261e-09
	7.970904e-09	1.700517e-08	0.0001456304	0.001673843	1.914116e-09	3.706261e-09	0.003903904	-0.0009205632
4e+07	0.004547466	-0.00152144	2.287726e-09	4.564768e-09	0.0002829138	0.002140926	1.029761e-08	2.161358e-08
	2.287726e-09	4.564768e-09	0.004234377	-0.001751601	1.121508e-09	2.696986e-09	0.0002446425	0.002211643
	0.0002829143	0.00214093	1.121508e-09	2.696986e-09	0.004239333	-0.001631992	2.411393e-09	4.6999e-09
	1.029761e-08	2.161358e-08	0.0002446371	0.002211641	2.411393e-09	4.6999e-09	0.004221345	-0.001709298
5e+07	0.004841707	-0.002384834	2.817877e-09	5.477098e-09	0.0004049935	0.002668961	1.295451e-08	2.59554e-08
	2.817877e-09	5.477098e-09	0.004453031	-0.002604954	1.295411e-09	3.259458e-09	0.0003651276	0.002741208
	0.0004049957	0.002668963	1.295411e-09	3.259458e-09	0.004503415	-0.002482485	2.974468e-09	5.631825e-09
	1.295451e-08	2.59554e-08	0.0003651239	0.002741207	2.974468e-09	5.631825e-09	0.004446811	-0.002558216
6e+07	0.005054509	-0.003297968	3.408952e-09	6.332155e-09	0.0005501904	0.003190305	1.593299e-08	3.003229e-08
	3.408952e-09	6.332155e-09	0.004593733	-0.003497198	1.479522e-09	3.801531e-09	0.0005069095	0.003262267
	0.0005501889	0.003190304	1.479522e-09	3.801531e-09	0.004690496	-0.003378313	3.600329e-09	6.504154e-09
	1.593299e-08	3.003229e-08	0.0005069118	0.003262266	3.600329e-09	6.504154e-09	0.004593501	-0.003447464
7e+07	0.005194094	-0.004247715	4.058204e-09	7.132225e-09	0.000718205	0.003704036	1.922445e-08	3.384673e-08
	4.058204e-09	7.132224e-09	0.004663942	-0.004416262	1.671937e-09	4.326156e-09	0.0006697079	0.003774255
	0.000718199	0.003704036	1.671937e-09	4.326156e-09	0.004808226	-0.004306679	4.287625e-09	7.318659e-09
	1.922445e-08	3.384673e-08	0.0006697154	0.003774251	4.287625e-09	7.318659e-09	0.004668905	-0.004364748
8e+07	0.005265511	-0.005225248	4.765441e-09	7.87696e-09	0.0009087382	0.004209395	2.282529e-08	3.739202e-08
	4.765441e-09	7.87696e-09	0.004668336	-0.005353161	1.873568e-09	4.834474e-09	0.0008531736	0.004276439
	0.0009087302	0.004209396	1.873568e-09	4.834474e-09	0.00486141	-0.005258511	5.036031e-09	8.075012e-09
	2.282529e-08	3.739202e-08	0.0008531829	0.004276433	5.036031e-09	8.075013e-09	0.004677651	-0.005300982
9e+07	0.00527197	-0.006224606	5.530642e-09	8.564066e-09	0.001121531	0.004705994	2.673048e-08	4.065396e-08
	5.530642e-09	8.564066e-09	0.004610343	-0.00629991	2.085253e-09	5.326626e-09	0.001056886	0.004767991
	0.001121525	0.004705997	2.085253e-09	5.326626e-09	0.004853408	-0.006226551	5.845323e-09	8.770901e-09
	2.673048e-08	4.065396e-08	0.001056893	0.004767986	5.845323e-09	8.770901e-09	0.004623082	-0.006248194
1e+08	0.005214471	-0.007246045	6.35548e-09	9.189183e-09	0.001356854	0.005196256	3.0933e-08	4.361276e-08
	6.35548e-09	9.189183e-09	0.004494125	-0.007244289	2.307734e-09	5.802023e-09	0.001280365	0.005247974
	0.001356854	0.005196256	2.307734e-09	5.802023e-09	0.004787239	-0.007203067	6.716477e-09	9.402117e-09
	3.0933e-08	4.361276e-08	0.001280365	0.005247974	6.716477e-09	9.402117e-09	0.004509089	-0.007194927
1.1e+08	0.005075654	-0.008275089	7.233345e-09	9.761865e-09	0.001599928	0.005676299	3.539968e-08	4.625976e-08
	7.233345e-09	9.761865e-09	0.004345735	-0.008204177	2.538865e-09	6.265401e-09	0.001522453	0.00571567
	0.001599928	0.005676299	2.538865e-09	6.265401e-09	0.004673475	-0.008194923	7.644485e-09	9.976878e-09
	3.539968e-08	4.625976e-08	0.001522453	0.00571567	7.644485e-09	9.976878e-09	0.004359408	-0.008155614
1.2e+08	0.004880932	-0.009293188	8.152754e-09	1.02744e-08	0.001862597	0.006137114	4.01091e-08	4.858934e-08
	8.152754e-09	1.02744e-08	0.004135127	-0.009173932	2.776964e-09	6.713863e-09	0.001783186	0.006170645
	0.001862597	0.006137114	2.776964e-09	6.713863e-09	0.004501182	-0.009191571	8.617474e-09	1.048715e-08
	4.01091e-08	4.858934e-08	0.001783186	0.006170645	8.617474e-09	1.048715e-08	0.00414728	-0.009125307
1.3e+08	0.004632038	-0.01030403	9.113798e-09	1.072352e-08	0.00214485	0.006581452	4.504932e-08	5.058722e-08
	9.113798e-09	1.072352e-08	0.003866182	-0.01014277	3.022143e-09	7.147027e-09	0.002061983	0.006611933
	0.00214485	0.006581452	3.022143e-09	7.147027e-09	0.004273455	-0.01018737	9.634865e-09	1.092978e-08
	4.504932e-08	5.058722e-08	0.002061983	0.006611933	9.634865e-09	1.092978e-08	0.003876252	-0.01009394
1.4e+08	0.0043309	-0.01130645	1.011464e-08	1.110608e-08	0.002445999	0.007009197	5.020488e-08	5.223927e-08
	1.011464e-08	1.110608e-08	0.003541333	-0.01110597	3.274477e-09	7.564236e-09	0.002358182	0.007038673
	0.002445999	0.007009197	3.274477e-09	7.564236e-09	0.003992489	-0.01117892	1.069458e-08	1.130155e-08
	5.020488e-08	5.223927e-08	0.002358182	0.007038673	1.069458e-08	1.130155e-08	0.003548677	-0.01105676
1.5e+08	0.003979136	-0.01229871	1.115164e-08	1.141988e-08	0.002765246	0.007419847	5.555823e-08	5.35315e-08
	1.115164e-08	1.141988e-08	0.003162562	-0.01205992	3.532978e-09	7.965346e-09	0.002671064	0.007450046
	0.002765246	0.007419847	3.532978e-09	7.965346e-09	0.003660051	-0.01216335	1.179275e-08	1.160014e-08
	5.555823e-08	5.35315e-08	0.002671065	0.007450046	1.179275e-08	1.160014e-08	0.003166536	-0.01201009
1.6e+08	0.003578144	-0.01327891	1.222135e-08	1.166236e-08	0.003101734	0.007812776	6.109009e-08	5.445054e-08
	1.222135e-08	1.166236e-08	0.002731604	-0.01300154	3.796985e-09	8.349931e-09	0.002999868	0.007845278
	0.003101734	0.007812776	3.796985e-09	8.349931e-09	0.003277653	-0.01313808	1.29257e-08	1.182287e-08
	6.109009e-08	5.445054e-08	0.002999868	0.007845278	1.29257e-08	1.182287e-08	0.002731606	-0.01295078
1.7e+08	0.003129187	-0.01424506	1.331999e-08	1.183114e-08	0.003454561	0.008187324	6.677973e-08	5.498388e-08
	1.331999e-08	1.183114e-08	0.002250046	-0.01392805	4.065734e-09	8.717589e-09	0.003343787	0.008223631
	0.00345456	0.008187324	4.065734e-09	8.717589e-09	0.002846651	-0.0141007	1.408939e-08	1.196719e-08
	6.677973e-08	5.498388e-08	0.003343787	0.008223631	1.408939e-08	1.196719e-08	0.002245528	-0.013876
1.8e+08	0.002633459	-0.01519519	1.444347e-08	1.192399e-08	0.003822789	0.008542833	7.26052e-08	5.512015e-08
	1.444347e-08	1.192399e-08	0.00171939	-0.0148369	4.338372e-09	9.067961e-09	0.003701982	0.008584411
	0.003822789	0.008542833	4.338372e-09	9.067961e-09	0.002368305	-0.01504895	1.527952e-08	1.203077e-08
	7.26052e-08	5.512015e-08	0.003701982	0.008584411	1.527952e-08	1.203077e-08	0.001709865	-0.01478315
1.9e+08	0.00209213	-0.01612731	1.558751e-08	1.193895e-08	0.004205447	0.008878661	7.854355e-08	5.484917e-08
	1.558751e-08	1.193895e-08	0.001141098	-0.01572568	4.613985e-09	9.400737e-09	0.00407358	0.008926965
	0.004205446	0.008878661	4.613985e-09	9.400737e-09	0.001843831	-0.01598063	1.64915e-08	1.20115e-08
	7.854355e-08	5.484917e-08	0.00407358	0.008926965	1.64915e-08	1.20115e-08	0.001126133	-0.01566981
2e+08	0.001506371	-0.01703948	1.674763e-08	1.187429e-08	0.004601529	0.009194194	8.4571e-08	5.41621e-08
	1.674763e-08	1.187429e-08	0.0005166225	-0.01659212	4.891603e-09	9.715665e-09	0.004457674	0.009250682
	0.004601529	0.009194194	4.891603e-09	9.715665e-09	0.001274434	-0.01689367	1.77206e-08	1.190754e-08
	8.4571e-08	5.41621e-08	0.004457674	0.009250682	1.77206e-08	1.190754e-08	0.0004958328	-0.01653369
2.1e+08	0.0008773301	-0.01792987	1.791914e-08	1.172848e-08	0.005015191	0.009486354	9.066298e-08	5.305138e-08
	1.791914e-08	1.172848e-08	-0.0001525773	-0.01743405	5.17011e-09	1.001248e-08	0.004853331	0.009554994
	0.005015191	0.009486354	5.17011e-09	1.001248e-08	0.0006612732	-0.01778611	1.896133e-08	1.171698e-08
	9.066298e-08	5.305138e-08	0.004853331	0.009554994	1.896133e-08	1.171698e-08	-0.0001795339	-0.01737263
2.2e+08	0.0002062128	-0.01879664	1.909728e-08	1.150029e-08	0.005445955	0.009753901	9.679443e-08	5.151094e-08
	1.909728e-08	1.150029e-08	-0.0008650188	-0.01824941	5.44843e-09	1.029106e-08	0.005259591	0.009839379
	0.005445955	0.009753901	5.44843e-09	1.029106e-08	5.557756e-06	-0.01865602	2.020845e-08	1.143851e-08
	9.679443e-08	5.151094e-08	0.005259591	0.009839379	2.020845e-08	1.143851e-08	-0.0008984476	-0.01818455
2.3e+08	-0.0005056593	-0.01963791	2.027724e-08	1.118886e-08	0.005886426	0.009999251	1.0294e-07	4.953611e-08
	2.027724e-08	1.118886e-08	-0.001619184	-0.01903623	5.725633e-09	1.05514e-08	0.005675468	0.01010336
	0.005886426	0.009999251	5.725633e-09	1.05514e-08	-0.0006913957	-0.01950147	2.14574e-08	1.107152e-08
	1.0294e-07	4.953611e-08	0.005675468	0.01010336	2.14574e-08	1.107152e-08	-0.001659361	-0.01896749
2.4e+08	-0.001256976	-0.02045196	2.145411e-08	1.079349e-08	0.006335515	0.01022197	1.09074e-07	4.712364e-08
	2.145411e-08	1.079349e-08	-0.002413521	-0.01979262	6.000646e-09	1.07935e-08	0.006099956	0.0103465
	0.006335515	0.01022197	6.000646e-09	1.07935e-08	-0.001428293	-0.02032066	2.270295e-08	1.06153e-08
	1.09074e-07	4.712364e-08	0.006099956	0.0103465	2.270295e-08	1.06153e-08	-0.002460698	-0.01971956
2.5e+08	-0.002046383	-0.02123711	2.262288e-08	1.031381e-08	0.006792103	0.01042169	1.151704e-07	4.427166e-08
	2.262288e-08	1.031381e-08	-0.003246433	-0.02051681	6.272388e-09	1.101741e-08	0.006532026	0.01056843
	0.006792103	0.01042169	6.272388e-09	1.101741e-08	-0.002203795	-0.02111186	2.393979e-08	1.006942e-08
	1.151704e-07	4.427166e-08	0.006532026	0.01056843	2.393979e-08	1.006942e-08	-0.003300837	-0.02043897
2.6e+08	-0.00287248	-0.02199177	2.377852e-08	9.749672e-09	0.007255054	0.01059808	1.212029e-07	4.097975e-08
	2.377852e-08	9.749672e-09	-0.004116285	-0.02120709	6.539768e-09	1.122326e-08	0.006970633	0.01076881
	0.007255054	0.01059808	6.539768e-09	1.122326e-08	-0.003016525	-0.02187342	2.516255e-08	9.433754e-09
	1.212029e-07	4.097975e-08	0.006970633	0.01076881	2.516255e-08	9.433754e-09	-0.004178118	-0.02112401
2.7e+08	-0.003733822	-0.02271441	2.491598e-08	9.101242e-09	0.007723215	0.01075085	1.271452e-07	3.724891e-08
	2.491598e-08	9.101242e-09	-0.005021387	-0.02186185	6.801695e-09	1.141121e-08	0.007414716	0.01094736
	0.007723215	0.01075085	6.801695e-09	1.141121e-08	-0.003865056	-0.02260376	2.636586e-08	8.70847e-09
	1.271452e-07	3.724891e-08	0.007414716	0.01094736	2.636586e-08	8.70847e-09	-0.005090835	-0.02177307
2.8e+08	-0.004628922	-0.02340355	2.603017e-08	8.368946e-09	0.008195418	0.01087979	1.329712e-07	3.308159e-08
	2.603017e-08	8.368946e-09	-0.005960016	-0.02247955	7.057081e-09	1.15815e-08	0.007863202	0.01110384
	0.008195418	0.01087979	7.057081e-09	1.15815e-08	-0.004747927	-0.02330136	2.754433e-08	7.894027e-09
	1.329712e-07	3.308159e-08	0.007863202	0.01110384	2.754433e-08	7.894027e-09	-0.006037245	-0.02238461
2.9e+08	-0.005556252	-0.02405782	2.711602e-08	7.553488e-09	0.008670485	0.01098473	1.386544e-07	2.848166e-08
	2.711602e-08	7.553488e-09	-0.006930402	-0.02305876	7.304841e-09	1.173444e-08	0.008315005	0.01123808
	0.008670485	0.01098473	7.304841e-09	1.173444e-08	-0.005663631	-0.02396479	2.869255e-08	6.99118e-09
	1.386544e-07	2.848166e-08	0.008315005	0.01123808	2.869255e-08	6.99118e-09	-0.007015557	-0.02295718
3e+08	-0.006514244	-0.0246759	2.816848e-08	6.655851e-09	0.009147229	0.01106556	1.441689e-07	2.345439e-08
	2.816848e-08	6.655851e-09	-0.007930734	-0.02359813	7.543899e-09	1.18704e-08	0.008769033	0.01134995
	0.009147229	0.01106556	7.543899e-09	1.18704e-08	-0.006610621	-0.02459269	2.980515e-08	6.000978e-09
	1.441689e-07	2.345439e-08	0.008769033	0.01134995	2.980515e-08	6.000978e-09	-0.00802394	-0.02348942
3.1e+08	-0.007501296	-0.02525653	2.918252e-08	5.677294e-09	0.009624457	0.01112223	1.494888e-07	1.80065e-08
	2.918252e-08	5.677294e-09	-0.008959165	-0.02409639	7.773194e-09	1.198978e-08	0.009224189	0.01143938
	0.009624457	0.01112223	7.773194e-09	1.198978e-08	-0.007587314	-0.02518376	3.087679e-08	4.924765e-09
	1.494888e-07	1.80065e-08	0.009224189	0.01143938	3.087679e-08	4.924765e-09	-0.009060528	-0.02398006
3.2e+08	-0.008515766	-0.02579856	3.015315e-08	4.619353e-09	0.01010097	0.01115473	1.545884e-07	1.21461e-08
	3.015315e-08	4.619353e-09	-0.01001381	-0.02455236	7.991677e-09	1.209309e-08	0.009679372	0.01150634
	0.01010097	0.01115473	7.991677e-09	1.209309e-08	-0.008592088	-0.02573679	3.190217e-08	3.764179e-09
	1.545884e-07	1.21461e-08	0.009679372	0.01150634	3.190217e-08	3.764179e-09	-0.01012341	-0.02442792
3.3e+08	-0.00955598	-0.02630088	3.107544e-08	3.48384e-09	0.01057559	0.01116313	1.594425e-07	5.882703e-09
	3.107544e-08	3.48384e-09	-0.01109276	-0.02496497	8.198323e-09	1.218087e-08	0.01013348	0.01155086
	0.01057559	0.01116313	8.198323e-09	1.218087e-08	-0.009623285	-0.02625062	3.287607e-08	2.521151e-09
	1.594425e-07	5.882703e-09	0.01013348	0.01155086	3.287607e-08	2.521151e-09	-0.01121066	-0.02483191
3.4e+08	-0.01062023	-0.02676246	3.194456e-08	2.272838e-09	0.0110471	0.01114755	1.640262e-07	-7.727984e-10
	3.194456e-08	2.272838e-09	-0.01219405	-0.02533321	8.392126e-09	1.225373e-08	0.01058542	0.01157303
	0.0110471	0.01114755	8.392126e-09	1.225373e-08	-0.01067922	-0.02672419	3.379332e-08	1.197901e-09
	1.640262e-07	-7.727984e-10	0.01058542	0.01157303	3.379332e-08	1.197901e-09	-0.01232028	-0.025191
3.5e+08	-0.0117068	-0.02718237	3.275572e-08	9.88703e-10	0.01151433	0.01110816	1.683153e-07	-7.808151e-09
	3.275572e-08	9.88703e-10	-0.01331573	-0.02565618	8.57211e-09	1.231233e-08	0.01103408	0.01157299
	0.01151433	0.01110816	8.57211e-09	1.231233e-08	-0.01175817	-0.0271565	3.464887e-08	-2.030626e-10
	1.683153e-07	-7.808151e-09	0.01103408	0.01157299	3.464887e-08	-2.030626e-10	-0.0134503	-0.0255043
3.6e+08	-0.01281392	-0.0275597	3.350426e-08	-3.6594e-10	0.0119761	0.01104519	1.72286e-07	-1.520976e-08
	3.350426e-08	-3.6594e-10	-0.01445578	-0.02593304	8.737327e-09	1.23574e-08	0.0114784	0.01155093
	0.0119761	0.01104519	8.737327e-09	1.23574e-08	-0.01285838	-0.02754663	3.543776e-08	-1.678948e-09
	1.72286e-07	-1.520976e-08	0.0114784	0.01155093	3.543776e-08	-1.678948e-09	-0.01459868	-0.02577098
3.7e+08	-0.0139398	-0.02789367	3.418562e-08	-1.788203e-09	0.01243124	0.01095893	1.759151e-07	-2.296271e-08
	3.418562e-08	-1.788203e-09	-0.0156122	-0.02616308	8.886863e-09	1.238972e-08	0.01191729	0.01150709
	0.01243124	0.01095893	8.886863e-09	1.238972e-08	-0.0139781	-0.02789372	3.615517e-08	-3.226683e-09
	1.759151e-07	-2.296271e-08	0.01191729	0.01150709	3.615517e-08	-3.226683e-09	-0.01576338	-0.02599029
3.8e+08	-0.01508265	-0.02818355	3.47954e-08	-3.274936e-09	0.0128786	0.01084973	1.791802e-07	-3.10508e-08
	3.47954e-08	-3.274936e-09	-0.01678293	-0.02634565	9.019842e-09	1.241013e-08	0.01234968	0.01144176
	0.0128786	0.01084973	9.019842e-09	1.241013e-08	-0.01511551	-0.02819702	3.679641e-08	-4.84292e-09
	1.791802e-07	-3.10508e-08	0.01234968	0.01144176	3.679641e-08	-4.84292e-09	-0.01694233	-0.0261616
3.9e+08	-0.01624064	-0.02842868	3.53293e-08	-4.822734e-09	0.01331705	0.010718	1.820596e-07	-3.945659e-08
	3.53293e-08	-4.822734e-09	-0.01796594	-0.02648019	9.135428e-09	1.241953e-08	0.01277454	0.01135529
	0.01331705	0.010718	9.135428e-09	1.241953e-08	-0.0162688	-0.02845582	3.735693e-08	-6.524041e-09
	1.820596e-07	-3.945659e-08	0.01277454	0.01135529	3.735693e-08	-6.524041e-09	-0.01813345	-0.02628435
4e+08	-0.01741194	-0.02862848	3.578321e-08	-6.427944e-09	0.01374548	0.01056418	1.845325e-07	-4.816139e-08
	3.578321e-08	-6.427944e-09	-0.01915915	-0.02656624	9.232829e-09	1.241885e-08	0.01319083	0.01124807
	0.01374548	0.01056418	9.232829e-09	1.241885e-08	-0.01743614	-0.02866949	3.783238e-08	-8.266167e-09
	1.845325e-07	-4.816139e-08	0.01319083	0.01124807	3.783238e-08	-8.266167e-09	-0.01933465	-0.02635807
4.1e+08	-0.01859468	-0.02878245	3.615318e-08	-8.086668e-09	0.01416279	0.01038879	1.865791e-07	-5.714537e-08
	3.615318e-08	-8.086668e-09	-0.02036049	-0.02660342	9.311301e-09	1.24091e-08	0.01359753	0.01112056
	0.01416279	0.01038879	9.311301e-09	1.24091e-08	-0.01861567	-0.02883749	3.821856e-08	-1.006516e-08
	1.865791e-07	-5.714537e-08	0.01359753	0.01112056	3.821856e-08	-1.006516e-08	-0.02054382	-0.02638238
4.2e+08	-0.019787	-0.02889015	3.643544e-08	-9.794774e-09	0.01456791	0.01019239	1.881803e-07	-6.638751e-08
	3.643544e-08	-9.794774e-09	-0.02156787	-0.02659144	9.370148e-09	1.239133e-08	0.01399367	0.01097324
	0.01456791	0.01019239	9.370148e-09	1.239133e-08	-0.01980553	-0.02895935	3.851148e-08	-1.191664e-08
	1.881803e-07	-6.638751e-08	0.01399367	0.01097324	3.851148e-08	-1.191664e-08	-0.02175886	-0.02635701
4.3e+08	-0.02098702	-0.02895123	3.662642e-08	-1.154791e-08	0.01495982	0.009975591	1.893182e-07	-7.586576e-08
	3.662642e-08	-1.154791e-08	-0.02277923	-0.0265301	9.408728e-09	1.236661e-08	0.01437828	0.01080665
	0.01495982	0.009975591	9.408728e-09	1.236661e-08	-0.02100383	-0.02903466	3.870737e-08	-1.381598e-08
	1.893182e-07	-7.586576e-08	0.01437828	0.01080665	3.870737e-08	-1.381598e-08	-0.02297766	-0.02628175
4.4e+08	-0.02219286	-0.0289654	3.672278e-08	-1.334148e-08	0.01533749	0.009739063	1.899759e-07	-8.555699e-08
	3.672278e-08	-1.334148e-08	-0.02399248	-0.02641928	9.426457e-09	1.233608e-08	0.01475041	0.01062138
	0.01533749	0.009739063	9.426457e-09	1.233608e-08	-0.0222087	-0.02906311	3.880267e-08	-1.575832e-08
	1.899759e-07	-8.555699e-08	0.01475041	0.01062138	3.880267e-08	-1.575832e-08	-0.02419811	-0.0261565
4.5e+08	-0.02340263	-0.02893247	3.672147e-08	-1.517066e-08	0.01569996	0.009483517	1.901379e-07	-9.543708e-08
	3.672147e-08	-1.517066e-08	-0.02520553	-0.02625896	9.422807e-09	1.230091e-08	0.01510918	0.01041807
	0.01569996	0.009483517	9.422807e-09	1.230091e-08	-0.02341823	-0.02904445	3.879416e-08	-1.773855e-08
	1.901379e-07	-9.543708e-08	0.01510918	0.01041807	3.879416e-08	-1.773855e-08	-0.0254181	-0.02598122
4.6e+08	-0.02461445	-0.02885229	3.660589e-08	-1.703848e-08	0.01604628	0.009209713	1.897794e-07	-1.054805e-07
	3.660589e-08	-1.703848e-08	-0.02641633	-0.02604919	9.397298e-09	1.226277e-08	0.01545369	0.01019739
	0.01604628	0.009209713	9.397298e-09	1.226277e-08	-0.02463054	-0.02897851	3.86649e-08	-1.975937e-08
	1.897794e-07	-1.054805e-07	0.01545369	0.01019739	3.86649e-08	-1.975937e-08	-0.02663554	-0.025756
4.7e+08	-0.02582641	-0.02872481	3.638494e-08	-1.893224e-08	0.01637556	0.008918455	1.888962e-07	-1.15661e-07
	3.638494e-08	-1.893224e-08	-0.0276228	-0.02579011	9.349572e-09	1.222253e-08	0.01578311	0.009960043
	0.01637556	0.008918455	9.349572e-09	1.222253e-08	-0.02584372	-0.02886518	3.842377e-08	-2.180779e-08
	1.888962e-07	-1.15661e-07	0.01578311	0.009960043	3.842377e-08	-2.180779e-08	-0.02784834	-0.02548099
4.8e+08	-0.02703663	-0.02855004	3.605765e-08	-2.084567e-08	0.01668693	0.008610593	1.874772e-07	-1.259519e-07
	3.605765e-08	-2.084567e-08	-0.02882291	-0.02548196	9.279303e-09	1.218141e-08	0.01609663	0.009706798
