!$
! Info: Touchstone file created by Circ.  Input file=Tx_2in_Rx_93ohms_TxVia_35mils_RxVia_45mils.circ
!$
# Hz S RI R 50
0	0.001973259	4.963222e-26	-1.093398e-05	4.209005e-26	3.148247e-05	3.619175e-24	-1.093382e-05	3.407232e-26
	-1.093398e-05	4.248951e-26	0.001969848	5.318072e-26	-1.093378e-05	4.732086e-26	3.010762e-05	4.353122e-24
	3.200744e-05	3.666286e-24	-1.093377e-05	4.665253e-26	0.001981638	4.843501e-26	-1.093436e-05	1.291238e-25
	-1.093382e-05	3.434967e-26	2.82611e-05	4.374811e-24	-1.093436e-05	1.296701e-25	0.001983083	4.98007e-26
1e+07	0.002727633	0.000216267	-1.91337e-07	-4.096287e-06	5.550659e-05	0.0005314636	-1.901267e-07	-4.203391e-06
	-1.91337e-07	-4.096287e-06	0.002880877	0.0002006517	-1.263312e-06	-8.596068e-07	5.532354e-05	0.0005613166
	5.553027e-05	0.0005314649	-1.263312e-06	-8.596069e-07	0.002930235	0.0003310659	-4.315216e-06	-1.305107e-06
	-1.901268e-07	-4.203391e-06	5.526397e-05	0.0005613268	-4.315216e-06	-1.305107e-06	0.002839603	0.0002034603
2e+07	0.003395172	-0.0001728977	-1.11996e-06	-2.893714e-06	0.0001068122	0.001074038	-1.224597e-06	-3.071924e-06
	-1.11996e-06	-2.893714e-06	0.003497926	-0.0002576545	-4.599349e-06	-4.865168e-06	8.077236e-05	0.001126578
	0.00010682	0.001074023	-4.599349e-06	-4.865168e-06	0.003658157	-4.901408e-05	-4.735677e-06	1.992587e-07
	-1.224597e-06	-3.071923e-06	8.076448e-05	0.001126612	-4.735677e-06	1.992587e-07	0.003468077	-0.0002316297
3e+07	0.003866012	-0.0008480006	-1.849079e-06	-2.616705e-06	0.0001805866	0.001612508	-2.035711e-06	-2.806204e-06
	-1.849079e-06	-2.616705e-06	0.003924715	-0.0009564529	-7.181831e-06	-5.775106e-06	0.0001456304	0.001673838
	0.0001805865	0.001612505	-7.181831e-06	-5.775106e-06	0.004176513	-0.0007238721	-5.102938e-06	3.172539e-08
	-2.035711e-06	-2.806204e-06	0.0001456304	0.001673843	-5.102938e-06	3.172536e-08	0.003903904	-0.0009205632
4e+07	0.004218164	-0.001631421	-2.464703e-06	-2.382162e-06	0.0002779579	0.002146467	-2.720003e-06	-2.563011e-06
	-2.464703e-06	-2.382162e-06	0.004234377	-0.001751601	-9.360174e-06	-5.861599e-06	0.0002446425	0.002211643
	0.0002779598	0.002146469	-9.360174e-06	-5.861599e-06	0.004569216	-0.001515038	-5.404676e-06	9.224866e-08
	-2.720003e-06	-2.563011e-06	0.0002446371	0.002211641	-5.404676e-06	9.224874e-08	0.004221345	-0.001709298
5e+07	0.004479501	-0.002480556	-3.000605e-06	-2.116945e-06	0.0003988676	0.002674633	-3.31554e-06	-2.276642e-06
	-3.000605e-06	-2.116945e-06	0.004453031	-0.002604954	-1.125852e-05	-5.476049e-06	0.0003651276	0.002741208
	0.0003988689	0.002674633	-1.125852e-05	-5.476049e-06	0.004866243	-0.002378208	-5.659048e-06	2.640162e-07
	-3.31554e-06	-2.276642e-06	0.0003651239	0.002741207	-5.659048e-06	2.640162e-07	0.004446811	-0.002558216
6e+07	0.004663573	-0.003374518	-3.472683e-06	-1.80431e-06	0.0005430014	0.003195958	-3.840312e-06	-1.933157e-06
	-3.472683e-06	-1.80431e-06	0.004593733	-0.003497198	-1.293556e-05	-4.7465e-06	0.0005069095	0.003262267
	0.000542999	0.003195958	-1.293556e-05	-4.7465e-06	0.005082043	-0.003291638	-5.874102e-06	5.086882e-07
	-3.840312e-06	-1.933157e-06	0.0005069118	0.003262266	-5.874102e-06	5.086882e-07	0.004593501	-0.003447464
7e+07	0.004778114	-0.004300504	-3.888647e-06	-1.437061e-06	0.0007100226	0.003709538	-4.303154e-06	-1.526276e-06
	-3.888647e-06	-1.43706e-06	0.004663942	-0.004416262	-1.441982e-05	-3.724907e-06	0.0006697079	0.003774255
	0.0007100165	0.003709539	-1.441982e-05	-3.724907e-06	0.005224754	-0.004242198	-6.053264e-06	8.111547e-07
	-4.303154e-06	-1.526276e-06	0.0006697154	0.003774251	-6.053264e-06	8.111546e-07	0.004668905	-0.004364748
8e+07	0.00482801	-0.005249454	-4.25102e-06	-1.006362e-06	0.0008996	0.004214604	-4.707232e-06	-1.046709e-06
	-4.25102e-06	-1.006362e-06	0.004668336	-0.005353161	-1.572152e-05	-2.41772e-06	0.0008531736	0.004276439
	0.0008995927	0.004214607	-1.572152e-05	-2.41772e-06	0.005299347	-0.005221047	-6.207182e-06	1.11077e-06
	-4.707232e-06	-1.046709e-06	0.0008531829	0.004276433	-6.207182e-06	1.11077e-06	0.004677651	-0.005300982
9e+07	0.004816683	-0.006214131	-4.55649e-06	-4.915204e-07	0.001111441	0.004710725	-5.050183e-06	-4.708231e-07
	-4.55649e-06	-4.915204e-07	0.004610343	-0.00629991	-1.683187e-05	-7.716858e-07	0.001056886	0.004767991
	0.001111436	0.004710728	-1.683187e-05	-7.716858e-07	0.005308967	-0.006222207	-6.410933e-06	1.044954e-06
	-5.050183e-06	-4.708231e-07	0.001056893	0.004767986	-6.410934e-06	1.044954e-06	0.004623082	-0.006248194
1e+08	0.004747202	-0.00718683	-4.773749e-06	2.206278e-07	0.001345735	0.005200034	-5.297893e-06	3.300774e-07
	-4.773749e-06	2.206278e-07	0.004494125	-0.007244289	-1.76461e-05	1.603059e-06	0.001280365	0.005247974
	0.001345735	0.005200034	-1.76461e-05	1.603059e-06	0.00525454	-0.007245946	-6.635116e-06	8.441701e-07
	-5.297893e-06	3.300774e-07	0.001280365	0.005247974	-6.635116e-06	8.441701e-07	0.004509089	-0.007194927
1.1e+08	0.004629985	-0.008174641	-4.526833e-06	8.117535e-07	0.001588907	0.005678893	-5.019696e-06	9.994834e-07
	-4.526833e-06	8.117535e-07	0.004345735	-0.008204177	-1.682571e-05	3.595392e-06	0.001522453	0.00571567
	0.001588907	0.005678893	-1.682571e-05	3.595392e-06	0.005119665	-0.008276542	-6.560511e-06	5.769189e-07
	-5.019696e-06	9.994834e-07	0.001522453	0.00571567	-6.560511e-06	5.769189e-07	0.004359408	-0.008155614
1.2e+08	0.004454364	-0.009166703	-4.318046e-06	1.200344e-06	0.001851718	0.006139013	-4.839746e-06	1.207184e-06
	-4.318046e-06	1.200344e-06	0.004135127	-0.009173932	-1.637122e-05	3.940126e-06	0.001783186	0.006170645
	0.001851718	0.006139013	-1.637122e-05	3.940126e-06	0.004928659	-0.009297355	-6.474662e-06	4.482121e-07
	-4.839746e-06	1.207184e-06	0.001783186	0.006170645	-6.474662e-06	4.482121e-07	0.00414728	-0.009125307
1.3e+08	0.004223487	-0.01015746	-4.253404e-06	1.069046e-06	0.002134105	0.006582832	-4.779896e-06	9.9852e-07
	-4.253404e-06	1.069046e-06	0.003866182	-0.01014277	-1.61767e-05	3.412703e-06	0.002061983	0.006611933
	0.002134105	0.006582832	-1.61767e-05	3.412703e-06	0.004683033	-0.01031172	-6.39362e-06	3.692702e-07
	-4.779896e-06	9.9852e-07	0.002061983	0.006611933	-6.39362e-06	3.692702e-07	0.003876252	-0.01009394
1.4e+08	0.003939576	-0.01114359	-4.200771e-06	9.34259e-07	0.002435375	0.007010165	-4.720594e-06	8.377121e-07
	-4.200771e-06	9.34259e-07	0.003541333	-0.01110597	-1.59811e-05	3.024087e-06	0.002358182	0.007038673
	0.002435375	0.007010165	-1.59811e-05	3.024087e-06	0.004384663	-0.01131817	-6.314399e-06	3.182839e-07
	-4.720594e-06	8.377121e-07	0.002358182	0.007038673	-6.314399e-06	3.182839e-07	0.003548677	-0.01105676
1.5e+08	0.003604407	-0.01212227	-4.149086e-06	8.282341e-07	0.002754733	0.007420476	-4.662959e-06	7.095815e-07
	-4.149086e-06	8.282341e-07	0.003162562	-0.01205992	-1.578851e-05	2.729269e-06	0.002671064	0.007450046
	0.002754733	0.007420475	-1.578851e-05	2.729269e-06	0.004035196	-0.01231478	-6.238108e-06	2.865559e-07
	-4.662959e-06	7.095815e-07	0.002671065	0.007450046	-6.238108e-06	2.865559e-07	0.003166536	-0.01201009
1.6e+08	0.003219494	-0.01309096	-4.098843e-06	7.432737e-07	0.003091321	0.007813119	-4.607485e-06	6.054022e-07
	-4.098843e-06	7.432737e-07	0.002731604	-0.01300154	-1.560052e-05	2.502537e-06	0.002999868	0.007845278
	0.003091321	0.007813118	-1.560052e-05	2.502537e-06	0.003636096	-0.01329949	-6.164263e-06	2.684293e-07
	-4.607485e-06	6.054022e-07	0.002999868	0.007845278	-6.164263e-06	2.684293e-07	0.002731606	-0.01295078
1.7e+08	0.002786191	-0.01404729	-4.050229e-06	6.743967e-07	0.00344424	0.008187422	-4.554338e-06	5.195527e-07
	-4.050229e-06	6.743967e-07	0.002250046	-0.01392805	-1.541767e-05	2.327427e-06	0.003343787	0.008223631
	0.00344424	0.008187422	-1.541767e-05	2.327427e-06	0.003188694	-0.01427026	-6.092818e-06	2.605842e-07
	-4.554338e-06	5.195527e-07	0.003343787	0.008223631	-6.092818e-06	2.605842e-07	0.002245528	-0.013876
1.8e+08	0.002305758	-0.01498899	-4.003281e-06	6.181792e-07	0.003812553	0.008542716	-4.503527e-06	4.481713e-07
	-4.003281e-06	6.181792e-07	0.00171939	-0.0148369	-1.524003e-05	2.192709e-06	0.003701982	0.008584411
	0.003812553	0.008542716	-1.524003e-05	2.192709e-06	0.002694249	-0.01522507	-6.023645e-06	2.607471e-07
	-4.503527e-06	4.481713e-07	0.003701982	0.008584411	-6.023645e-06	2.607471e-07	0.001709865	-0.01478315
1.9e+08	0.001779415	-0.0159139	-3.957967e-06	5.721467e-07	0.004195264	0.008878363	-4.45499e-06	3.884695e-07
	-3.957967e-06	5.721467e-07	0.001141098	-0.01572568	-1.506747e-05	2.090323e-06	0.00407358	0.008926965
	0.004195264	0.008878363	-1.506747e-05	2.090323e-06	0.002153976	-0.01616194	-5.95659e-06	2.672814e-07
	-4.45499e-06	3.884695e-07	0.00407358	0.008926965	-5.95659e-06	2.672814e-07	0.001126133	-0.01566981
2e+08	0.001208277	-0.01682006	-3.914044e-06	5.344071e-07	0.004602261	0.009188769	-4.408559e-06	3.383574e-07
	-3.914044e-06	5.344071e-07	0.0005166225	-0.01659212	-1.489965e-05	2.014272e-06	0.004457674	0.009250682
	0.004602261	0.009188769	-1.489965e-05	2.014272e-06	0.001568991	-0.01707905	-5.891434e-06	2.789566e-07
	-4.408559e-06	3.383574e-07	0.004457674	0.009250682	-5.891434e-06	2.789566e-07	0.0004958328	-0.01653369
2.1e+08	0.0005936312	-0.01770536	-3.871612e-06	5.035834e-07	0.005021756	0.009477711	-4.364197e-06	2.962468e-07
	-3.871612e-06	5.035834e-07	-0.0001525773	-0.01743405	-1.473632e-05	1.959981e-06	0.004853331	0.009554994
	0.005021756	0.009477711	-1.473632e-05	1.959981e-06	0.0009405784	-0.01797441	-5.828072e-06	2.948477e-07
	-4.364197e-06	2.962468e-07	0.004853331	0.009554994	-5.828072e-06	2.948477e-07	-0.0001795339	-0.01737263
2.2e+08	-6.32779e-05	-0.01856786	-3.830596e-06	4.78567e-07	0.005452035	0.009744956	-4.321794e-06	2.608903e-07
	-3.830596e-06	4.78567e-07	-0.0008650188	-0.01824941	-1.457718e-05	1.92388e-06	0.005259591	0.009839379
	0.005452035	0.009744956	-1.457718e-05	1.92388e-06	0.0002699778	-0.01884615	-5.766357e-06	3.142221e-07
	-4.321794e-06	2.608903e-07	0.005259591	0.009839379	-5.766357e-06	3.142221e-07	-0.0008984476	-0.01818455
2.3e+08	-0.0007611777	-0.01940568	-3.790905e-06	4.584769e-07	0.005892026	0.009990029	-4.281232e-06	2.312992e-07
	-3.790905e-06	4.584769e-07	-0.001619184	-0.01903623	-1.442187e-05	1.903136e-06	0.005675468	0.01010336
	0.005892025	0.009990029	-1.442187e-05	1.903136e-06	-0.0004415433	-0.01969251	-5.706142e-06	3.364958e-07
	-4.281232e-06	2.312992e-07	0.005675468	0.01010336	-5.706142e-06	3.364958e-07	-0.001659361	-0.01896749
2.4e+08	-0.00149876	-0.02021705	-3.752463e-06	4.425906e-07	0.006340634	0.0102125	-4.24241e-06	2.066643e-07
	-3.752463e-06	4.425906e-07	-0.002413521	-0.01979262	-1.427011e-05	1.895435e-06	0.006099956	0.0103465
	0.006340634	0.0102125	-1.427011e-05	1.895435e-06	-0.001192686	-0.02051176	-5.647304e-06	3.611925e-07
	-4.24241e-06	2.066643e-07	0.006099956	0.0103465	-5.647304e-06	3.611925e-07	-0.002460698	-0.01971956
2.5e+08	-0.002274675	-0.02100025	-3.71519e-06	4.303225e-07	0.006796741	0.01041198	-4.205223e-06	1.863301e-07
	-3.71519e-06	4.303225e-07	-0.003246433	-0.02051681	-1.41216e-05	1.898899e-06	0.006532026	0.01056843
	0.006796741	0.01041198	-1.41216e-05	1.898899e-06	-0.001982107	-0.02130224	-5.589723e-06	3.879227e-07
	-4.205223e-06	1.863301e-07	0.006532026	0.01056843	-5.589723e-06	3.879227e-07	-0.003300837	-0.02043897
2.6e+08	-0.003087528	-0.02175364	-3.678999e-06	4.211771e-07	0.007259212	0.01058815	-4.169577e-06	1.697511e-07
	-3.678999e-06	4.211771e-07	-0.004116285	-0.02120709	-1.397589e-05	1.91195e-06	0.006970633	0.01076881
	0.007259212	0.01058815	-1.397589e-05	1.91195e-06	-0.002808425	-0.02206234	-5.533291e-06	4.163606e-07
	-4.169577e-06	1.697511e-07	0.006970633	0.01076881	-5.533291e-06	4.163606e-07	-0.004178118	-0.02112401
2.7e+08	-0.003935881	-0.02247564	-3.643828e-06	4.147546e-07	0.007726892	0.01074073	-4.135374e-06	1.564747e-07
	-3.643828e-06	4.147546e-07	-0.005021387	-0.02186185	-1.383285e-05	1.933289e-06	0.007414716	0.01094736
	0.007726892	0.01074073	-1.383285e-05	1.933289e-06	-0.003670208	-0.02279054	-5.477904e-06	4.46235e-07
	-4.135374e-06	1.564747e-07	0.007414716	0.01094736	-5.477904e-06	4.46235e-07	-0.005090835	-0.02177307
2.8e+08	-0.004818258	-0.02316475	-3.609621e-06	4.10712e-07	0.008198614	0.01086949	-4.102534e-06	1.461172e-07
	-3.609621e-06	4.10712e-07	-0.005960016	-0.02247955	-1.369229e-05	1.961805e-06	0.007863202	0.01110384
	0.008198614	0.01086949	-1.369229e-05	1.961805e-06	-0.004565991	-0.02348537	-5.423475e-06	4.773155e-07
	-4.102534e-06	1.461172e-07	0.007863202	0.01110384	-5.423475e-06	4.773155e-07	-0.006037245	-0.02238461
2.9e+08	-0.005733141	-0.02381956	-3.576321e-06	4.087568e-07	0.008673199	0.01097427	-4.070981e-06	1.383533e-07
	-3.576321e-06	4.087568e-07	-0.006930402	-0.02305876	-1.355399e-05	1.996551e-06	0.008315005	0.01123808
	0.008673199	0.01097427	-1.355399e-05	1.996551e-06	-0.005494263	-0.02414542	-5.369921e-06	5.094049e-07
	-4.070981e-06	1.383533e-07	0.008315005	0.01123808	-5.369921e-06	5.094049e-07	-0.007015557	-0.02295718
3e+08	-0.006678967	-0.02443871	-3.543868e-06	4.086394e-07	0.00914946	0.01105495	-4.040634e-06	1.329059e-07
	-3.543868e-06	4.086394e-07	-0.007930734	-0.02359813	-1.341773e-05	2.036717e-06	0.008769033	0.01134995
	0.00914946	0.01105495	-1.341773e-05	2.036717e-06	-0.00645347	-0.02476937	-5.317162e-06	5.423333e-07
	-4.040634e-06	1.329059e-07	0.008769033	0.01134995	-5.317162e-06	5.423333e-07	-0.00802394	-0.02348942
3.1e+08	-0.007654141	-0.02502092	-3.512216e-06	4.101449e-07	0.009626205	0.01111149	-4.011432e-06	1.295368e-07
	-3.512216e-06	4.101449e-07	-0.008959165	-0.02409639	-1.328332e-05	2.081597e-06	0.009224189	0.01143938
	0.009626205	0.01111149	-1.328332e-05	2.081597e-06	-0.007442024	-0.02535596	-5.265135e-06	5.759546e-07
	-4.011432e-06	1.295368e-07	0.009224189	0.01143938	-5.265135e-06	5.759546e-07	-0.009060528	-0.02398006
3.2e+08	-0.00865703	-0.025565	-3.481318e-06	4.13087e-07	0.01010224	0.01114388	-3.983309e-06	1.280397e-07
	-3.481318e-06	4.13087e-07	-0.01001381	-0.02455236	-1.31506e-05	2.130576e-06	0.009679372	0.01150634
	0.01010224	0.01114388	-1.31506e-05	2.130576e-06	-0.0084583	-0.02590401	-5.213774e-06	6.10141e-07
	-3.983309e-06	1.280397e-07	0.009679372	0.01150634	-5.213774e-06	6.10141e-07	-0.01012341	-0.02442792
3.3e+08	-0.009685967	-0.02606982	-3.451125e-06	4.173036e-07	0.01057636	0.01115218	-3.956198e-06	1.282353e-07
	-3.451125e-06	4.173036e-07	-0.01109276	-0.02496497	-1.301938e-05	2.183115e-06	0.01013348	0.01155086
	0.01057636	0.01115218	-1.301938e-05	2.183115e-06	-0.009500632	-0.02641238	-5.163016e-06	6.447791e-07
	-3.956198e-06	1.282353e-07	0.01013348	0.01155086	-5.163016e-06	6.447791e-07	-0.01121066	-0.02483191
3.4e+08	-0.01073925	-0.02653432	-3.421601e-06	4.226538e-07	0.01104739	0.0111365	-3.93005e-06	1.299683e-07
	-3.421601e-06	4.226538e-07	-0.01219405	-0.02533321	-1.288951e-05	2.238739e-06	0.01058542	0.01157303
	0.01104739	0.0111365	-1.288951e-05	2.238739e-06	-0.01056733	-0.02688005	-5.112812e-06	6.797711e-07
	-3.93005e-06	1.299683e-07	0.01058542	0.01157303	-5.112812e-06	6.797711e-07	-0.01232028	-0.025191
3.5e+08	-0.01181516	-0.02695753	-3.392707e-06	4.290129e-07	0.01151413	0.01109704	-3.904806e-06	1.331012e-07
	-3.392707e-06	4.290129e-07	-0.01331573	-0.02565618	-1.276085e-05	2.297023e-06	0.01103408	0.01157299
	0.01151413	0.01109704	-1.276085e-05	2.297023e-06	-0.01165667	-0.02730604	-5.063109e-06	7.150287e-07
	-3.904806e-06	1.331012e-07	0.01103408	0.01157299	-5.063109e-06	7.150287e-07	-0.0134503	-0.0255043
3.6e+08	-0.01291193	-0.02733854	-3.364409e-06	4.362721e-07	0.01197541	0.01103401	-3.88042e-06	1.375144e-07
	-3.364409e-06	4.362721e-07	-0.01445578	-0.02593304	-1.263328e-05	2.357591e-06	0.0114784	0.01155093
	0.01197541	0.01103401	-1.263328e-05	2.357591e-06	-0.01276689	-0.02768944	-5.013865e-06	7.50475e-07
	-3.88042e-06	1.375144e-07	0.0114784	0.01155093	-5.013865e-06	7.50475e-07	-0.01459868	-0.02577098
3.7e+08	-0.01402779	-0.02767654	-3.336675e-06	4.44335e-07	0.01243006	0.01094771	-3.856845e-06	1.431017e-07
	-3.336675e-06	4.44335e-07	-0.0156122	-0.02616308	-1.250667e-05	2.420103e-06	0.01191729	0.01150709
	0.01243006	0.01094771	-1.250667e-05	2.420103e-06	-0.01389622	-0.02802945	-4.965037e-06	7.860404e-07
	-3.856845e-06	1.431017e-07	0.01191729	0.01150709	-4.965037e-06	7.860404e-07	-0.01576338	-0.02599029
3.8e+08	-0.01516093	-0.02797075	-3.309474e-06	4.531161e-07	0.01287693	0.01083848	-3.834035e-06	1.497693e-07
	-3.309474e-06	4.531161e-07	-0.01678293	-0.02634565	-1.23809e-05	2.484255e-06	0.01234968	0.01144176
	0.01287693	0.01083848	-1.23809e-05	2.484255e-06	-0.01504286	-0.02832531	-4.916587e-06	8.216623e-07
	-3.834035e-06	1.497693e-07	0.01234968	0.01144176	-4.916587e-06	8.216623e-07	-0.01694233	-0.0261616
3.9e+08	-0.01630953	-0.02822053	-3.282778e-06	4.625393e-07	0.01331489	0.01070673	-3.811947e-06	1.574335e-07
	-3.282778e-06	4.625393e-07	-0.01796594	-0.02648019	-1.225588e-05	2.549768e-06	0.01277454	0.01135529
	0.01331489	0.01070673	-1.225588e-05	2.549768e-06	-0.01620499	-0.02857634	-4.868477e-06	8.572847e-07
	-3.811947e-06	1.574335e-07	0.01277454	0.01135529	-4.868477e-06	8.572847e-07	-0.01813345	-0.02628435
4e+08	-0.01747175	-0.02842525	-3.256557e-06	4.72536e-07	0.01374282	0.0105529	-3.790539e-06	1.660191e-07
	-3.256557e-06	4.72536e-07	-0.01915915	-0.02656624	-1.21315e-05	2.616387e-06	0.01319083	0.01124807
	0.01374282	0.0105529	-1.21315e-05	2.616387e-06	-0.01738076	-0.02878195	-4.820674e-06	8.928557e-07
	-3.790539e-06	1.660191e-07	0.01319083	0.01124807	-4.820674e-06	8.928557e-07	-0.01933465	-0.02635807
4.1e+08	-0.01864574	-0.0285844	-3.230789e-06	4.83046e-07	0.01415963	0.01037752	-3.769774e-06	1.754594e-07
	-3.230789e-06	4.83046e-07	-0.02036049	-0.02660342	-1.200767e-05	2.683884e-06	0.01359753	0.01112056
	0.01415963	0.01037752	-1.200767e-05	2.683884e-06	-0.01856833	-0.0289416	-4.773147e-06	9.283291e-07
	-3.769774e-06	1.754594e-07	0.01359753	0.01112056	-4.773147e-06	9.283291e-07	-0.02054382	-0.02638238
4.2e+08	-0.01982963	-0.02869752	-3.20545e-06	4.940151e-07	0.01456426	0.01018114	-3.749616e-06	1.856954e-07
	-3.20545e-06	4.940151e-07	-0.02156787	-0.02659144	-1.188431e-05	2.752044e-06	0.01399367	0.01097324
	0.01456426	0.01018114	-1.188431e-05	2.752044e-06	-0.01976581	-0.02905485	-4.725869e-06	9.636635e-07
	-3.749616e-06	1.856954e-07	0.01399367	0.01097324	-4.725869e-06	9.636635e-07	-0.02175886	-0.02635701
4.3e+08	-0.02102153	-0.02876424	-3.180519e-06	5.053951e-07	0.01495567	0.009964372	-3.730031e-06	1.966735e-07
	-3.180519e-06	5.053951e-07	-0.02277923	-0.0265301	-1.176136e-05	2.820675e-06	0.01437828	0.01080665
	0.01495567	0.009964372	-1.176136e-05	2.820675e-06	-0.02097133	-0.02912132	-4.678813e-06	9.988203e-07
	-3.730031e-06	1.966735e-07	0.01437828	0.01080665	-4.678813e-06	9.988203e-07	-0.02297766	-0.02628175
4.4e+08	-0.02221958	-0.02878427	-3.155973e-06	5.171417e-07	0.01533284	0.00972789	-3.710983e-06	2.083449e-07
	-3.155973e-06	5.171417e-07	-0.02399248	-0.02641928	-1.163873e-05	2.889592e-06	0.01475041	0.01062138
	0.01533284	0.00972789	-1.163873e-05	2.889592e-06	-0.02218301	-0.02914071	-4.631955e-06	1.033764e-06
	-3.710983e-06	2.083449e-07	0.01475041	0.01062138	-4.631955e-06	1.033764e-06	-0.02419811	-0.0261565
4.5e+08	-0.02342187	-0.02875738	-3.131792e-06	5.292149e-07	0.01569481	0.009472403	-3.692441e-06	2.206652e-07
	-3.131792e-06	5.292149e-07	-0.02520553	-0.02625896	-1.151636e-05	2.958626e-06	0.01510918	0.01041807
	0.01569481	0.009472403	-1.151636e-05	2.958626e-06	-0.02339895	-0.02911279	-4.58527e-06	1.068461e-06
	-3.692441e-06	2.206652e-07	0.01510918	0.01041807	-4.58527e-06	1.068461e-06	-0.0254181	-0.02598122
4.6e+08	-0.02462651	-0.02868342	-3.10796e-06	5.415796e-07	0.01604064	0.00919867	-3.674362e-06	2.335889e-07
	-3.10796e-06	5.415796e-07	-0.02641633	-0.02604919	-1.139418e-05	3.027604e-06	0.01545369	0.01019739
	0.01604064	0.00919867	-1.139418e-05	3.027604e-06	-0.02461724	-0.02903742	-4.538694e-06	1.102859e-06
	-3.674362e-06	2.335889e-07	0.01545369	0.01019739	-4.538694e-06	1.102859e-06	-0.02663554	-0.025756
4.7e+08	-0.02583161	-0.02856231	-3.084455e-06	5.542018e-07	0.01636942	0.008907498	-3.656726e-06	2.470834e-07
	-3.084455e-06	5.542018e-07	-0.0276228	-0.02579011	-1.12721e-05	3.09634e-06	0.01578311	0.009960043
