!$
! Info: Touchstone file created by Circ.  Input file=Tx_2in_Rx_100ohms_TxVia_35mils_RxVia_45mils.circ
!$
# Hz S RI R 50
0	0.002214859	4.786087e-26	-1.098402e-05	3.921704e-24	3.076139e-05	4.066405e-24	-1.099643e-05	5.455499e-24
	-1.098403e-05	3.922097e-24	0.002212748	5.320554e-26	-1.096468e-05	1.580283e-24	3.011585e-05	4.905654e-24
	3.127196e-05	4.123254e-24	-1.096468e-05	1.579602e-24	0.002227361	4.653566e-26	-1.098286e-05	3.821408e-24
	-1.099644e-05	5.45577e-24	2.826928e-05	4.930055e-24	-1.098286e-05	3.821969e-24	0.002225979	4.982431e-26
1e+07	0.002933576	0.001780175	-1.70087e-05	-8.826857e-06	4.95461e-05	0.0005529841	-4.866963e-05	2.299676e-05
	-1.70087e-05	-8.826856e-06	0.003144238	0.001743177	-6.168918e-06	-3.1373e-06	0.0001205588	0.0005687723
	4.9576e-05	0.0005529793	-6.168918e-06	-3.1373e-06	0.00306746	0.001737091	-1.735816e-06	-2.960309e-06
	-4.866963e-05	2.299676e-05	0.0001204992	0.0005687824	-1.735815e-06	-2.960309e-06	0.003127746	0.001752984
2e+07	0.00378664	0.002952138	-7.93801e-06	-1.742388e-05	8.854006e-05	0.001110281	-5.780407e-05	1.626349e-05
	-7.93801e-06	-1.742388e-05	0.003914025	0.002811267	-4.702465e-06	-3.635905e-06	0.0001266558	0.001164708
	8.854153e-05	0.001110259	-4.702465e-06	-3.635905e-06	0.003852864	0.002836562	-1.904988e-06	-1.8185e-07
	-5.780407e-05	1.626349e-05	0.0001266478	0.001164742	-1.904988e-06	-1.818505e-07	0.003905459	0.002841772
3e+07	0.004490666	0.003775998	-2.1644e-06	-2.006106e-05	0.0001531996	0.001657163	-6.502084e-05	1.257886e-05
	-2.1644e-06	-2.006106e-05	0.004549774	0.00360283	-3.61431e-06	-3.949881e-06	0.0001646896	0.001723892
	0.0001531935	0.001657161	-3.61431e-06	-3.949881e-06	0.004505686	0.003641358	-2.171218e-06	-7.446881e-07
	-6.502084e-05	1.257886e-05	0.0001646896	0.001723897	-2.171218e-06	-7.446882e-07	0.00454823	0.003646144
4e+07	0.005131355	0.004464768	-9.069804e-06	-1.992048e-05	0.000243145	0.002197574	-7.144499e-05	8.707967e-06
	-9.069804e-06	-1.992048e-05	0.00512878	0.004278704	-2.713658e-06	-4.106584e-06	0.0002363783	0.002269865
	0.0002431455	0.002197578	-2.713658e-06	-4.106584e-06	0.005104389	0.004326084	-2.504148e-06	-1.5879e-06
	-7.144499e-05	8.707967e-06	0.0002363729	0.002269863	-2.504148e-06	-1.5879e-06	0.005134009	0.004332558
5e+07	0.005738924	0.005065318	-1.511176e-05	-1.847147e-05	0.0003576953	0.002731051	-7.750295e-05	4.492847e-06
	-1.511176e-05	-1.847147e-05	0.005678203	0.004878033	-1.925966e-06	-4.160466e-06	0.0003704572	0.002801298
	0.0003576975	0.002731053	-1.925966e-06	-4.160466e-06	0.005676513	0.004931222	-2.886229e-06	-2.32953e-06
	-7.750295e-05	4.492847e-06	0.0003704536	0.002801297	-2.886229e-06	-2.32953e-06	0.005690073	0.004940999
6e+07	0.006327626	0.005598773	-2.047331e-05	-1.602633e-05	0.0004961932	0.003256871	-8.342571e-05	-9.230702e-08
	-2.047331e-05	-1.602633e-05	0.00621123	0.005419228	-1.210601e-06	-4.13311e-06	0.0005244054	0.003321936
	0.0004961917	0.00325687	-1.210601e-06	-4.13311e-06	0.006235023	0.005475444	-3.321005e-06	-3.011203e-06
	-8.342571e-05	-9.230711e-08	0.0005244077	0.003321935	-3.321005e-06	-3.011203e-06	0.006229668	0.005490175
7e+07	0.006905164	0.006076754	-2.52421e-05	-1.271204e-05	0.0006614943	0.003773694	-8.937023e-05	-5.100975e-06
	-2.52421e-05	-1.271204e-05	0.006734994	0.005912624	-9.457668e-07	-3.965463e-06	0.0006981346	0.003831617
	0.0006614883	0.003773694	-9.457667e-07	-3.965463e-06	0.006786938	0.005969311	-3.809619e-06	-3.647665e-06
	-8.937023e-05	-5.100975e-06	0.0006981422	0.003831614	-3.809619e-06	-3.647665e-06	0.006759902	0.005990523
8e+07	0.007475948	0.006506387	-2.94489e-05	-8.536631e-06	0.0008502593	0.004281028	-9.547393e-05	-1.067209e-05
	-2.94489e-05	-8.536631e-06	0.007253558	0.006365107	-1.66372e-06	-3.520594e-06	0.0008913722	0.004329731
	0.0008502514	0.004281029	-1.66372e-06	-3.520594e-06	0.007336348	0.006419752	-4.353344e-06	-4.246433e-06
	-9.547393e-05	-1.067209e-05	0.0008913816	0.004329725	-4.353345e-06	-4.246433e-06	0.007284764	0.006448973
9e+07	0.008042505	0.006892145	-3.306518e-05	-3.346523e-06	0.001061174	0.004778336	-0.0001019115	-1.716724e-05
	-3.306518e-05	-3.346522e-06	0.007769517	0.006782287	-2.288316e-06	-2.927724e-06	0.001103656	0.004815232
	0.001061168	0.004778338	-2.288316e-06	-2.927724e-06	0.007885868	0.006832167	-4.956273e-06	-4.820168e-06
	-0.0001019115	-1.716724e-05	0.001103663	0.004815227	-4.956273e-06	-4.820168e-06	0.007806746	0.006871122
1e+08	0.008605708	0.007234902	-3.578415e-05	3.978635e-06	0.001294115	0.00526612	-0.0001092128	-2.654917e-05
	-3.578415e-05	3.978635e-06	0.00828583	0.007172999	-2.770646e-06	-2.026547e-06	0.001333924	0.00528513
	0.001294115	0.00526612	-2.770646e-06	-2.026547e-06	0.008438292	0.00721461	-5.636619e-06	-5.417532e-06
	-0.0001092128	-2.654917e-05	0.001333924	0.00528513	-5.636619e-06	-5.417532e-06	0.008328602	0.007265355
1.1e+08	0.009158134	0.007538017	-3.404346e-05	9.144424e-06	0.001552823	0.005739522	-0.0001095609	-3.715446e-05
	-3.404346e-05	9.144424e-06	0.008823456	0.007520114	-2.569872e-06	-1.30103e-06	0.001573796	0.005744928
	0.001552823	0.005739522	-2.569872e-06	-1.30103e-06	0.009011832	0.007550273	-6.182723e-06	-6.021066e-06
	-0.0001095609	-3.715446e-05	0.001573796	0.005744928	-6.182723e-06	-6.021066e-06	0.008870152	0.007617009
1.2e+08	0.009709879	0.007815193	-3.431964e-05	6.469438e-06	0.001830893	0.006196633	-0.0001096654	-4.427675e-05
	-3.431964e-05	6.469438e-06	0.00935614	0.007828107	-2.44303e-06	-8.525181e-07	0.001832958	0.006195856
	0.001830893	0.006196632	-2.44303e-06	-8.525181e-07	0.009582718	0.007845599	-6.750928e-06	-6.487138e-06
	-0.0001096654	-4.427675e-05	0.001832958	0.006195856	-6.750928e-06	-6.487138e-06	0.009406883	0.007929512
1.3e+08	0.01026198	0.008064261	-3.457536e-05	4.519611e-06	0.002127954	0.006638133	-0.0001099253	-5.005876e-05
	-3.457536e-05	4.519611e-06	0.009886272	0.008104255	-2.329016e-06	-5.070043e-07	0.002110401	0.006634554
	0.002127954	0.006638133	-2.329016e-06	-5.070043e-07	0.0101533	0.00810699	-7.354752e-06	-6.868492e-06
	-0.0001099253	-5.005876e-05	0.002110401	0.006634554	-7.354752e-06	-6.868492e-06	0.009940894	0.008209796
1.4e+08	0.01081512	0.008285076	-3.484708e-05	3.018716e-06	0.002443334	0.00706348	-0.0001103848	-5.497265e-05
	-3.484708e-05	3.018716e-06	0.01041483	0.008350817	-2.221908e-06	-2.23761e-07	0.002405392	0.00705965
	0.002443334	0.00706348	-2.221908e-06	-2.23761e-07	0.01072447	0.008336323	-7.992694e-06	-7.175467e-06
	-0.0001103848	-5.497265e-05	0.002405392	0.00705965	-7.992694e-06	-7.175467e-06	0.01047307	0.008460196
1.5e+08	0.0113695	0.008477694	-3.514562e-05	1.839539e-06	0.00277628	0.007471985	-0.0001110481	-5.924173e-05
	-3.514562e-05	1.839539e-06	0.01094225	0.008569126	-2.119213e-06	1.639605e-08	0.0027172	0.007470094
	0.00277628	0.007471985	-2.119213e-06	1.639605e-08	0.01129654	0.008534653	-8.661445e-06	-7.412051e-06
	-0.0001110481	-5.924173e-05	0.0027172	0.007470094	-8.661445e-06	-7.412051e-06	0.01100384	0.008682141
1.6e+08	0.01192497	0.008642232	-3.547334e-05	9.098945e-07	0.003125982	0.007862931	-0.0001119071	-6.29949e-05
	-3.547334e-05	9.098945e-07	0.01146865	0.008760105	-2.019587e-06	2.245487e-07	0.003045063	0.007864981
	0.003125982	0.007862931	-2.019587e-06	2.245487e-07	0.01186948	0.008702675	-9.357035e-06	-7.579935e-06
	-0.0001119071	-6.29949e-05	0.003045063	0.007864981	-9.357035e-06	-7.579935e-06	0.01153335	0.008876623
1.7e+08	0.01248116	0.008778843	-3.582913e-05	1.84032e-07	0.003491588	0.008235603	-0.0001129495	-6.631499e-05
	-3.582913e-05	1.84032e-07	0.01199392	0.008924451	-1.922213e-06	4.077979e-07	0.003388189	0.008243491
	0.003491588	0.008235603	-1.922213e-06	4.077979e-07	0.01244298	0.008840904	-1.007517e-05	-7.679802e-06
	-0.0001129495	-6.631499e-05	0.003388189	0.008243491	-1.007517e-05	-7.679802e-06	0.0120615	0.009044388
1.8e+08	0.01303756	0.008887714	-3.62101e-05	-3.689501e-07	0.003872208	0.008589313	-0.0001141612	-6.925883e-05
	-3.62101e-05	-3.689501e-07	0.01251777	0.009062733	-1.82653e-06	5.710501e-07	0.003745755	0.008604876
	0.003872208	0.008589313	-1.82653e-06	5.710501e-07	0.01301655	0.008949757	-1.081137e-05	-7.711887e-06
	-0.0001141612	-6.925883e-05	0.003745755	0.008604876	-1.081137e-05	-7.711887e-06	0.01258805	0.009186032
1.9e+08	0.01359353	0.008969055	-3.66132e-05	-7.704628e-07	0.004266915	0.008923402	-0.0001155279	-7.186746e-05
	-3.66132e-05	-7.704628e-07	0.01303978	0.009175448	-1.795095e-06	5.812439e-07	0.004116907	0.008948441
	0.004266915	0.008923402	-1.795095e-06	5.812439e-07	0.01358957	0.009029603	-1.156167e-05	-7.675668e-06
	-0.0001155279	-7.186746e-05	0.004116907	0.008948441	-1.156167e-05	-7.675668e-06	0.01311263	0.00930206
2e+08	0.01414835	0.009023103	-3.703389e-05	-1.036882e-06	0.00467475	0.009237244	-0.0001170349	-7.417172e-05
	-3.703389e-05	-1.036882e-06	0.01355948	0.00926304	-1.81208e-06	4.955954e-07	0.004500763	0.009273543
	0.00467475	0.009237244	-1.81208e-06	4.955954e-07	0.01416136	0.009080779	-1.232117e-05	-7.571295e-06
	-0.0001170349	-7.417172e-05	0.004500763	0.009273543	-1.232117e-05	-7.571295e-06	0.01363477	0.009392921
2.1e+08	0.01470126	0.009050111	-3.746713e-05	-1.1812e-06	0.005094726	0.009530257	-0.0001186681	-7.619558e-05
	-3.746713e-05	-1.1812e-06	0.0140763	0.009325929	-1.82996e-06	4.21446e-07	0.004896413	0.009579588
	0.005094726	0.009530257	-1.82996e-06	4.21446e-07	0.01473112	0.009103612	-1.308461e-05	-7.399356e-06
	-0.0001186681	-7.619558e-05	0.004896413	0.009579588	-1.308461e-05	-7.399356e-06	0.01415393	0.009459024
2.2e+08	0.01525146	0.009050351	-3.79082e-05	-1.213335e-06	0.005525825	0.009801896	-0.0001204137	-7.795825e-05
	-3.79082e-05	-1.213335e-06	0.01458963	0.009364515	-1.848621e-06	3.573114e-07	0.005302922	0.00986603
	0.005525825	0.009801896	-1.848621e-06	3.573114e-07	0.01529806	0.00909843	-1.38472e-05	-7.160178e-06
	-0.0001204137	-7.795825e-05	0.005302922	0.00986603	-1.38472e-05	-7.160178e-06	0.01466952	0.009500766
2.3e+08	0.01579814	0.009024122	-3.83523e-05	-1.141335e-06	0.005967005	0.01005166	-0.0001222584	-7.947557e-05
	-3.83523e-05	-1.141335e-06	0.01509885	0.009379201	-1.867915e-06	3.020239e-07	0.005719331	0.01013237
	0.005967005	0.01005166	-1.867915e-06	3.020239e-07	0.01586131	0.00906557	-1.460415e-05	-6.854296e-06
	-0.0001222584	-7.947557e-05	0.005719331	0.01013237	-1.460415e-05	-6.854296e-06	0.0151809	0.009518541
2.4e+08	0.01634044	0.008971729	-3.879469e-05	-9.720713e-07	0.006417198	0.01027911	-0.0001241894	-8.076099e-05
	-3.879469e-05	-9.720713e-07	0.01560328	0.009370378	-1.887714e-06	2.545922e-07	0.006144658	0.01037816
	0.006417198	0.01027911	-1.887714e-06	2.545922e-07	0.01641998	0.009005375	-1.535073e-05	-6.482471e-06
	-0.0001241894	-8.076099e-05	0.006144658	0.01037816	-1.535073e-05	-6.482471e-06	0.01568741	0.009512732
2.5e+08	0.0168775	0.008893506	-3.92306e-05	-7.114348e-07	0.006875316	0.01048383	-0.0001261945	-8.18262e-05
	-3.92306e-05	-7.114348e-07	0.01610226	0.009338451	-1.907863e-06	2.142223e-07	0.006577903	0.01060298
	0.006875316	0.01048383	-1.907863e-06	2.142223e-07	0.01697319	0.008918211	-1.608219e-05	-6.045718e-06
	-0.0001261945	-8.18262e-05	0.006577903	0.01060298	-1.608219e-05	-6.045718e-06	0.01618838	0.009483742
2.6e+08	0.01740847	0.0087898	-3.965536e-05	-3.647112e-07	0.007340252	0.01066547	-0.000128262	-8.268159e-05
	-3.965536e-05	-3.647112e-07	0.01659508	0.009283827	-1.928216e-06	1.802326e-07	0.007018047	0.0108065
	0.007340252	0.01066547	-1.928216e-06	1.802326e-07	0.01752001	0.008804455	-1.679389e-05	-5.545317e-06
	-0.000128262	-8.268159e-05	0.007018047	0.0108065	-1.679389e-05	-5.545317e-06	0.0166831	0.009431971
2.7e+08	0.01793246	0.008660984	-4.00643e-05	6.328999e-08	0.007810879	0.01082372	-0.0001303805	-8.333676e-05
	-4.00643e-05	6.328999e-08	0.01708106	0.009206922	-1.948615e-06	1.520499e-07	0.007464054	0.01098839
	0.007810879	0.01082372	-1.948615e-06	1.520499e-07	0.01805954	0.008664508	-1.748123e-05	-4.982826e-06
	-0.0001303805	-8.333676e-05	0.007464054	0.01098839	-1.748123e-05	-4.982826e-06	0.01717087	0.009357835
2.8e+08	0.01844861	0.00850745	-4.045295e-05	5.680329e-07	0.008286059	0.01095834	-0.0001325394	-8.380049e-05
	-4.045295e-05	5.680329e-07	0.01755949	0.009108167	-1.968922e-06	1.291662e-07	0.007914876	0.01114841
	0.008286059	0.01095834	-1.968922e-06	1.291662e-07	0.01859085	0.008498796	-1.813975e-05	-4.360066e-06
	-0.0001325394	-8.380049e-05	0.007914876	0.01114841	-1.813975e-05	-4.360066e-06	0.01765099	0.009261772
2.9e+08	0.01895603	0.008329616	-4.081695e-05	1.145178e-06	0.008764638	0.01106913	-0.0001347286	-8.408109e-05
	-4.081695e-05	1.145178e-06	0.01802968	0.008988006	-1.988996e-06	1.111356e-07	0.008369452	0.01128634
	0.008764638	0.01106913	-1.988996e-06	1.111356e-07	0.01911301	0.008307769	-1.876509e-05	-3.679133e-06
	-0.0001347286	-8.408109e-05	0.008369452	0.01128634	-1.876509e-05	-3.679133e-06	0.01812275	0.009144223
3e+08	0.01945385	0.008127921	-4.115201e-05	1.79051e-06	0.009245456	0.01115595	-0.0001369383	-8.41867e-05
	-4.115201e-05	1.79051e-06	0.01849094	0.008846895	-2.008698e-06	9.756457e-08	0.008826713	0.01140203
	0.009245456	0.01115595	-2.008698e-06	9.756457e-08	0.0196251	0.008091898	-1.935302e-05	-2.942409e-06
	-0.0001369383	-8.41867e-05	0.008826713	0.01140203	-1.935302e-05	-2.942409e-06	0.01858545	0.009005654
3.1e+08	0.0199412	0.007902839	-4.14541e-05	2.499863e-06	0.009727344	0.0112187	-0.0001391597	-8.412497e-05
	-4.14541e-05	2.499863e-06	0.01894256	0.008685311	-2.027905e-06	8.809268e-08	0.009285584	0.01149538
	0.009727344	0.0112187	-2.027905e-06	8.809268e-08	0.02012621	0.007851691	-1.98995e-05	-2.152517e-06
	-0.0001391597	-8.412497e-05	0.009285584	0.01149538	-1.98995e-05	-2.152517e-06	0.01903838	0.008846547
3.2e+08	0.02041721	0.007654863	-4.171931e-05	3.269076e-06	0.01020913	0.01125735	-0.0001413841	-8.390347e-05
	-4.171931e-05	3.269076e-06	0.01938386	0.008503741	-2.046498e-06	8.239249e-08	0.009744982	0.01156633
	0.01020913	0.01125735	-2.046498e-06	8.239249e-08	0.02061542	0.007587675	-2.040068e-05	-1.312344e-06
	-0.0001413841	-8.390347e-05	0.009744982	0.01156633	-2.040068e-05	-1.312344e-06	0.01948085	0.008667402
3.3e+08	0.02088103	0.007384517	-4.194391e-05	4.093967e-06	0.01068964	0.01127192	-0.0001436034	-8.352993e-05
	-4.194391e-05	4.093967e-06	0.01981417	0.008302699	-2.064357e-06	8.016356e-08	0.01020383	0.01161487
	0.01068964	0.01127192	-2.064357e-06	8.016356e-08	0.02109183	0.007300416	-2.085283e-05	-4.250558e-07
	-0.0001436034	-8.352993e-05	0.01020383	0.01161487	-2.085283e-05	-4.250558e-07	0.01991218	0.008468735
3.4e+08	0.02133181	0.007092357	-4.212441e-05	4.970313e-06	0.01116769	0.0112625	-0.0001458102	-8.301167e-05
	-4.212441e-05	4.970313e-06	0.02023282	0.008082712	-2.081383e-06	8.112449e-08	0.01066104	0.01164106
	0.01116769	0.0112625	-2.081383e-06	8.112449e-08	0.02155457	0.006990503	-2.125252e-05	5.059828e-07
	-0.0001458102	-8.301167e-05	0.01066104	0.01164106	-2.125252e-05	5.059828e-07	0.02033171	0.008251089
3.5e+08	0.02176871	0.006778967	-4.225751e-05	5.893818e-06	0.01164213	0.01122921	-0.0001479973	-8.235621e-05
	-4.225751e-05	5.893818e-06	0.02063916	0.007844328	-2.097483e-06	8.501026e-08	0.01111553	0.01164499
	0.01164213	0.01122921	-2.097483e-06	8.501026e-08	0.02200275	0.006658565	-2.159621e-05	1.476872e-06
	-0.0001479973	-8.235621e-05	0.01111553	0.01164499	-2.159621e-05	1.476872e-06	0.02073877	0.00801502
3.6e+08	0.02219091	0.006444962	-4.234019e-05	6.860113e-06	0.01211177	0.01117224	-0.0001501573	-8.157052e-05
	-4.234019e-05	6.860113e-06	0.02103254	0.007588115	-2.111319e-06	9.190188e-08	0.01156623	0.01162682
	0.01211177	0.01117224	-2.111319e-06	9.190188e-08	0.0224355	0.006305249	-2.196772e-05	2.574465e-06
	-0.0001501573	-8.157052e-05	0.01156623	0.01162682	-2.196772e-05	2.574465e-06	0.02113271	0.007761107
3.7e+08	0.02259761	0.006090984	-4.236963e-05	7.86477e-06	0.01257548	0.01109184	-0.0001522853	-8.066233e-05
	-4.236963e-05	7.86477e-06	0.02141234	0.007314658	-2.123751e-06	1.012143e-07	0.01201208	0.01158675
	0.01257548	0.01109184	-2.123751e-06	1.012143e-07	0.022852	0.005931248	-2.228924e-05	3.724928e-06
	-0.0001522853	-8.066233e-05	0.01201208	0.01158675	-2.228924e-05	3.724928e-06	0.02151291	0.007489948
3.8e+08	0.02298802	0.00571771	-4.234327e-05	8.903279e-06	0.01303211	0.01098831	-0.000154376	-7.963919e-05
	-4.234327e-05	8.903279e-06	0.02177794	0.007024567	-2.134959e-06	1.126439e-07	0.01245201	0.01152503
	0.01303211	0.01098831	-2.134959e-06	1.126439e-07	0.02325143	0.005537278	-2.254067e-05	4.906223e-06
	-0.000154376	-7.963919e-05	0.01245201	0.01152503	-2.254067e-05	4.906223e-06	0.02187876	0.007202162
3.9e+08	0.02336137	0.005325848	-4.225883e-05	9.971051e-06	0.01348053	0.01086199	-0.0001564247	-7.850839e-05
	-4.225883e-05	9.971051e-06	0.02212875	0.006718469	-2.144892e-06	1.259691e-07	0.01288499	0.01144197
	0.01348053	0.01086199	-2.144892e-06	1.259691e-07	0.02363297	0.005124087	-2.271987e-05	6.113841e-06
	-0.0001564247	-7.850839e-05	0.01288499	0.01144197	-2.271987e-05	6.113841e-06	0.02222966	0.006898389
4e+08	0.02371692	0.004916136	-4.211428e-05	1.106342e-05	0.01391962	0.01071329	-0.0001584271	-7.727751e-05
	-4.211428e-05	1.106342e-05	0.0224642	0.006397014	-2.153508e-06	1.409772e-07	0.01330998	0.01133791
	0.01391962	0.01071329	-2.153508e-06	1.409772e-07	0.02399587	0.004692461	-2.282499e-05	7.343096e-06
	-0.0001584271	-7.727751e-05	0.01330998	0.01133791	-2.282499e-05	7.343096e-06	0.02256503	0.006579288
4.1e+08	0.02405395	0.004489341	-4.19079e-05	1.217569e-05	0.0143483	0.01054268	-0.0001603794	-7.595398e-05
	-4.19079e-05	1.217569e-05	0.02278372	0.00606087	-2.160776e-06	1.574648e-07	0.01372598	0.01121325
	0.0143483	0.01054268	-2.160776e-06	1.574648e-07	0.02433936	0.004243212	-2.285447e-05	8.589193e-06
	-0.0001603794	-7.595398e-05	0.01372598	0.01121325	-2.285447e-05	8.589193e-06	0.02288434	0.00624554
4.2e+08	0.02437176	0.004046258	-4.163824e-05	1.330308e-05	0.01476549	0.01035067	-0.0001622784	-7.454494e-05
	-4.163824e-05	1.330308e-05	0.0230868	0.005710725	-2.166674e-06	1.75236e-07	0.01413199	0.01106846
	0.01476549	0.01035067	-2.166674e-06	1.75236e-07	0.02466273	0.003777179	-2.280708e-05	9.847239e-06
	-0.0001622784	-7.454494e-05	0.01413199	0.01106846	-2.280708e-05	9.847239e-06	0.02318703	0.00589784
4.3e+08	0.02466969	0.003587715	-4.130417e-05	1.444079e-05	0.01517015	0.01013782	-0.0001641216	-7.305763e-05
	-4.130417e-05	1.444079e-05	0.0233729	0.005347286	-2.171193e-06	1.941033e-07	0.01452703	0.01090401
	0.01517015	0.01013782	-2.171193e-06	1.941033e-07	0.0249653	0.003295241	-2.268187e-05	1.111225e-05
	-0.0001641216	-7.305763e-05	0.01452703	0.01090401	-2.268187e-05	1.111225e-05	0.0234726	0.005536911
4.4e+08	0.0249471	0.003114564	-4.090482e-05	1.5584e-05	0.01556125	0.009904732	-0.0001659067	-7.149925e-05
	-4.090482e-05	1.5584e-05	0.02364155	0.00497128	-2.17433e-06	2.138855e-07	0.01491017	0.01072046
	0.01556125	0.009904732	-2.17433e-06	2.138855e-07	0.02524639	0.002798296	-2.247827e-05	1.237918e-05
	-0.0001659067	-7.149925e-05	0.01491017	0.01072046	-2.247827e-05	1.237918e-05	0.02374058	0.005163484
4.5e+08	0.02520338	0.002627688	-4.043967e-05	1.672786e-05	0.01593782	0.00965208	-0.0001676316	-6.987784e-05
	-4.043967e-05	1.672786e-05	0.02389229	0.004583451	-2.176092e-06	2.344094e-07	0.01528048	0.01051838
	0.01593782	0.00965208	-2.176092e-06	2.344094e-07	0.02550539	0.002287275	-2.219599e-05	1.364295e-05
	-0.0001676316	-6.987784e-05	0.01528048	0.01051838	-2.219599e-05	1.364295e-05	0.0239905	0.004778318
4.6e+08	0.02543797	0.002127992	-3.990882e-05	1.786758e-05	0.01629889	0.009380568	-0.0001692815	-6.822286e-05
	-3.990882e-05	1.786758e-05	0.02412467	0.004184561	-2.176494e-06	2.555133e-07	0.01563706	0.01029841
	0.01629889	0.009380568	-2.176494e-06	2.555133e-07	0.0257417	0.001763134	-2.183546e-05	1.489849e-05
	-0.0001692815	-6.822286e-05	0.01563706	0.01029841	-2.183546e-05	1.489849e-05	0.02422192	0.004382182
4.7e+08	0.02565032	0.001616408	-3.926877e-05	1.899332e-05	0.01664353	0.009090949	-0.0001726029	-6.353924e-05
	-3.926877e-05	1.899332e-05	0.02433829	0.003775391	-2.175915e-06	2.765722e-07	0.01597906	0.01006122
	0.01664353	0.009090949	-2.175915e-06	2.765722e-07	0.02595477	0.001226855	-2.135173e-05	1.613421e-05
