!$
! Info: Touchstone file created by Circ.  Input file=Tx_2in_Rx_100ohms_TxVia_35mils_RxVia_45mils.circ
!$
# Hz S RI R 50
0	0.00221616	4.96501e-26	1.969107e-12	7.810026e-29	3.148987e-05	4.07804e-24	3.091033e-12	5.298964e-29
	1.969105e-12	7.810029e-29	0.002212748	5.320554e-26	5.081635e-12	1.270903e-28	3.011585e-05	4.905654e-24
	3.201478e-05	4.131125e-24	5.081636e-12	1.270902e-28	0.002224529	4.845257e-26	3.074219e-12	8.325333e-29
	3.091033e-12	5.298968e-29	2.826928e-05	4.930055e-24	3.074221e-12	8.325344e-29	0.002225979	4.982431e-26
1e+07	0.003051756	0.00172988	5.954913e-12	7.948327e-12	4.967214e-05	0.000554921	8.354052e-12	1.454358e-11
	5.954914e-12	7.948327e-12	0.003144238	0.001743177	8.529665e-12	1.067985e-11	0.0001205588	0.0005687723
	4.969582e-05	0.0005549223	8.529664e-12	1.067985e-11	0.002949293	0.001788422	6.757745e-12	9.056037e-12
	8.354052e-12	1.454358e-11	0.0001204992	0.0005687824	6.757745e-12	9.056037e-12	0.003127746	0.001752984
2e+07	0.003834838	0.002823327	7.626695e-12	1.378237e-11	8.870006e-05	0.0011141	1.074744e-11	2.555218e-11
	7.626697e-12	1.378237e-11	0.003914025	0.002811267	1.220365e-11	1.700325e-11	0.0001266558	0.001164708
	8.870796e-05	0.001114085	1.220365e-11	1.700325e-11	0.003806255	0.002966819	9.608432e-12	1.470022e-11
	1.074744e-11	2.555218e-11	0.0001266478	0.001164742	9.608432e-12	1.470022e-11	0.003905459	0.002841772
3e+07	0.004484306	0.003622454	9.178849e-12	1.872796e-11	0.0001535297	0.001662834	1.316821e-11	3.544285e-11
	9.17885e-12	1.872796e-11	0.004549774	0.00360283	1.565925e-11	2.223379e-11	0.0001646896	0.001723892
	0.0001535297	0.001662831	1.565925e-11	2.223379e-11	0.004514647	0.003795797	1.193162e-11	1.933027e-11
	1.316821e-11	3.544285e-11	0.0001646896	0.001723897	1.193162e-11	1.933027e-11	0.00454823	0.003646144
4e+07	0.005078657	0.004302037	1.043801e-11	2.311767e-11	0.0002437385	0.002205051	1.499849e-11	4.45345e-11
	1.043801e-11	2.311767e-11	0.00512878	0.004278704	1.870538e-11	2.632374e-11	0.0002363783	0.002269865
	0.0002437404	0.002205053	1.870538e-11	2.632374e-11	0.00516035	0.004488855	1.349657e-11	2.295902e-11
	1.499849e-11	4.45345e-11	0.0002363729	0.002269863	1.349657e-11	2.295902e-11	0.005134009	0.004332558
5e+07	0.005645531	0.004902641	1.130066e-11	2.70368e-11	0.0003586324	0.00274031	1.614398e-11	5.311916e-11
	1.130066e-11	2.70368e-11	0.005678203	0.004878033	2.124251e-11	2.954063e-11	0.0003704572	0.002801298
	0.0003586337	0.00274031	2.124251e-11	2.954063e-11	0.005773544	0.005092899	1.416678e-11	2.597032e-11
	1.614398e-11	5.311916e-11	0.0003704536	0.002801297	1.416678e-11	2.597032e-11	0.005690073	0.004940999
6e+07	0.006197997	0.005442993	1.163222e-11	3.060113e-11	0.000497558	0.003267886	1.659029e-11	6.140788e-11
	1.163222e-11	3.060114e-11	0.00621123	0.005419228	2.306394e-11	3.203211e-11	0.0005244054	0.003321936
	0.0004975555	0.003267886	2.306394e-11	3.203211e-11	0.006368405	0.005629056	1.387182e-11	2.859696e-11
	1.659029e-11	6.140788e-11	0.0005244077	0.003321935	1.387182e-11	2.859696e-11	0.006229668	0.005490175
7e+07	0.006743171	0.005933685	1.125048e-11	3.388597e-11	0.0006640172	0.003786328	1.629966e-11	6.95245e-11
	1.125049e-11	3.388597e-11	0.006734994	0.005912624	2.387772e-11	3.377381e-11	0.0006981346	0.003831617
	0.0006640112	0.003786329	2.387772e-11	3.377381e-11	0.006952554	0.006108942	1.250287e-11	3.098354e-11
	1.629966e-11	6.95245e-11	0.0006981422	0.003831614	1.250287e-11	3.098354e-11	0.006759902	0.005990523
8e+07	0.007285233	0.006381668	9.957679e-12	3.702271e-11	0.000853438	0.004295323	1.519272e-11	7.758612e-11
	9.95769e-12	3.702271e-11	0.007253558	0.006365107	2.344073e-11	3.498567e-11	0.0008913722	0.004329731
	0.0008534306	0.004295326	2.344073e-11	3.498567e-11	0.007530322	0.006539679	9.882729e-12	3.32324e-11
	1.519272e-11	7.758612e-11	0.0008913816	0.004329725	9.882729e-12	3.32324e-11	0.007284764	0.006448973
9e+07	0.007826876	0.006792346	7.53124e-12	4.029213e-11	0.001065077	0.004794249	1.313981e-11	8.58131e-11
	7.531251e-12	4.029214e-11	0.007769517	0.006782287	2.145855e-11	3.60959e-11	0.001103656	0.004815232
	0.001065071	0.004794251	2.145855e-11	3.60959e-11	0.008104155	0.006925706	5.79511e-12	3.56954e-11
	1.313981e-11	8.58131e-11	0.001103663	0.004815227	5.79511e-12	3.56954e-11	0.007806746	0.006871122
1e+08	0.008370958	0.007173774	3.274488e-12	4.424623e-11	0.001298804	0.005283593	9.500594e-12	9.476465e-11
	3.274488e-12	4.424623e-11	0.00828583	0.007172999	1.671584e-11	3.784621e-11	0.001333924	0.00528513
	0.001298804	0.005283593	1.671584e-11	3.784621e-11	0.008674802	0.007267695	-7.448177e-13	3.919047e-11
	9.500594e-12	9.476465e-11	0.001333924	0.00528513	-7.448177e-13	3.919047e-11	0.008328602	0.007265355
1.1e+08	0.008935562	0.007508944	5.607391e-14	5.042397e-11	0.001558374	0.0057585	6.464807e-12	1.061306e-10
	5.607391e-14	5.042397e-11	0.008823456	0.007520114	1.317452e-11	4.376782e-11	0.001573796	0.005744928
	0.001558374	0.0057585	1.317452e-11	4.376782e-11	0.009235184	0.007570731	-6.389308e-12	4.645873e-11
	6.464807e-12	1.061306e-10	0.001573796	0.005744928	-6.389308e-12	4.645873e-11	0.008870152	0.007617009
1.2e+08	0.009497186	0.007804632	-2.020145e-12	5.615343e-11	0.001837357	0.006217099	5.629097e-12	1.162613e-10
	-2.020145e-12	5.615343e-11	0.00935614	0.007828107	1.306085e-11	4.841519e-11	0.001832958	0.006195856
	0.001837357	0.006217099	1.306085e-11	4.841519e-11	0.009795066	0.00784671	-9.914663e-12	5.286759e-11
	5.629097e-12	1.162613e-10	0.001832958	0.006195856	-9.914663e-12	5.286759e-11	0.009406883	0.007929512
1.3e+08	0.01005824	0.008067173	-2.024021e-12	6.043659e-11	0.002135382	0.006660058	6.128957e-12	1.254488e-10
	-2.024021e-12	6.043659e-11	0.009886272	0.008104255	1.618509e-11	5.138424e-11	0.002110401	0.006634554
	0.002135382	0.006660058	1.618509e-11	5.138424e-11	0.01035522	0.008093605	-1.016897e-11	5.715853e-11
	6.128957e-12	1.254488e-10	0.002110401	0.006634554	-1.016897e-11	5.715853e-11	0.009940894	0.008209796
1.4e+08	0.01061968	0.008298396	-2.230443e-12	6.486321e-11	0.002451785	0.00708683	6.42409e-12	1.348102e-10
	-2.230443e-12	6.486321e-11	0.01041483	0.008350817	1.912509e-11	5.437927e-11	0.002405392	0.00705965
	0.002451785	0.007086829	1.912509e-11	5.437927e-11	0.01091624	0.008311503	-1.072471e-11	6.167725e-11
	6.42409e-12	1.348102e-10	0.002405392	0.00705965	-1.072471e-11	6.167725e-11	0.01047307	0.008460196
1.5e+08	0.01118185	0.008499324	-2.592575e-12	6.941169e-11	0.002785811	0.007496721	6.569762e-12	1.443309e-10
	-2.592575e-12	6.941169e-11	0.01094225	0.008569126	2.194697e-11	5.735814e-11	0.0027172	0.007470094
	0.002785811	0.007496721	2.194697e-11	5.735814e-11	0.01147834	0.008500626	-1.150988e-11	6.639175e-11
	6.569762e-12	1.443309e-10	0.0027172	0.007470094	-1.150988e-11	6.639175e-11	0.01100384	0.008682141
1.6e+08	0.01174471	0.008670635	-3.084964e-12	7.407199e-11	0.003136654	0.007889008	6.600061e-12	1.540052e-10
	-3.084964e-12	7.407199e-11	0.01146865	0.008760105	2.467929e-11	6.029546e-11	0.003045063	0.007864981
	0.003136654	0.007889008	2.467929e-11	6.029546e-11	0.01204143	0.008661195	-1.248589e-11	7.128769e-11
	6.600061e-12	1.540052e-10	0.003045063	0.007864981	-1.248589e-11	7.128769e-11	0.01153335	0.008876623
1.7e+08	0.01230798	0.008812837	-3.691155e-12	7.883887e-11	0.003503459	0.008262974	6.539119e-12	1.638311e-10
	-3.691155e-12	7.883887e-11	0.01199392	0.008924451	2.733424e-11	6.317365e-11	0.003388189	0.008243491
	0.003503459	0.008262974	2.733424e-11	6.317365e-11	0.01260519	0.008793411	-1.362764e-11	7.635769e-11
	6.539119e-12	1.638311e-10	0.003388189	0.008243491	-1.362764e-11	7.635769e-11	0.0120615	0.009044388
1.8e+08	0.01287121	0.008926348	-4.399516e-12	8.370979e-11	0.003885335	0.008617927	6.405593e-12	1.738082e-10
	-4.399516e-12	8.370979e-11	0.01251777	0.009062733	2.991508e-11	6.59802e-11	0.003745755	0.008604876
	0.003885335	0.008617927	2.991508e-11	6.59802e-11	0.01316913	0.008897473	-1.491725e-11	8.159845e-11
	6.405593e-12	1.738082e-10	0.003745755	0.008604876	-1.491725e-11	8.159845e-11	0.01258805	0.009186032
1.9e+08	0.0134338	0.009011539	-5.189991e-12	8.867631e-11	0.004281354	0.008953202	6.21707e-12	1.839347e-10
	-5.189991e-12	8.867631e-11	0.01303978	0.009175448	3.241983e-11	6.870585e-11	0.004116907	0.008948441
	0.004281354	0.008953202	3.241983e-11	6.870585e-11	0.01373264	0.008973587	-1.634078e-11	8.700907e-11
	6.21707e-12	1.839347e-10	0.004116907	0.008948441	-1.634078e-11	8.700907e-11	0.01311263	0.00930206
2e+08	0.01399508	0.009068757	-6.05837e-12	9.37402e-11	0.004690555	0.009268173	5.985316e-12	1.942139e-10
	-6.05837e-12	9.37402e-11	0.01355948	0.00926304	3.48435e-11	7.134435e-11	0.004500763	0.009273543
	0.004690555	0.009268173	3.48435e-11	7.134435e-11	0.01429504	0.009021968	-1.788659e-11	9.25903e-11
	5.985316e-12	1.942139e-10	0.004500763	0.009273543	-1.788659e-11	9.25903e-11	0.01363477	0.009392921
2.1e+08	0.0145543	0.009098337	-7.007895e-12	9.8909e-11	0.005111946	0.009562251	5.720528e-12	2.046497e-10
	-7.007895e-12	9.8909e-11	0.0140763	0.009325929	3.717938e-11	7.38917e-11	0.004896413	0.009579588
	0.005111946	0.009562251	3.717938e-11	7.38917e-11	0.01485554	0.009042839	-1.95444e-11	9.834394e-11
	5.720528e-12	2.046497e-10	0.004896413	0.009579588	-1.95444e-11	9.834394e-11	0.01415393	0.009459024
2.2e+08	0.01511069	0.009100612	-8.033141e-12	1.041849e-10	0.005544507	0.009834893	5.433627e-12	2.152446e-10
	-8.033141e-12	1.041849e-10	0.01458963	0.009364515	3.941931e-11	7.634568e-11	0.005302922	0.00986603
	0.005544507	0.009834893	3.941931e-11	7.634568e-11	0.01541335	0.00903645	-2.130481e-11	1.042726e-10
	5.433627e-12	2.152446e-10	0.005302922	0.00986603	-2.130481e-11	1.042726e-10	0.01466952	0.009500766
2.3e+08	0.01566342	0.009075928	-9.129054e-12	1.095707e-10	0.005987193	0.0100856	5.135005e-12	2.260015e-10
	-9.129054e-12	1.095707e-10	0.01509885	0.009379201	4.155431e-11	7.870586e-11	0.005719331	0.01013237
	0.005987193	0.0100856	4.155431e-11	7.870586e-11	0.01596762	0.00900307	-2.31589e-11	1.103795e-10
	5.135005e-12	2.260015e-10	0.005719331	0.01013237	-2.31589e-11	1.103795e-10	0.0151809	0.009518541
2.4e+08	0.01621166	0.009024632	-1.029074e-11	1.150694e-10	0.006438933	0.01031391	4.834748e-12	2.369233e-10
	-1.029074e-11	1.150694e-10	0.01560328	0.009370378	4.357503e-11	8.0973e-11	0.006144658	0.01037816
	0.006438933	0.01031391	4.357503e-11	8.0973e-11	0.01651746	0.008942986	-2.509795e-11	1.166679e-10
	4.834748e-12	2.369233e-10	0.006144658	0.01037816	-2.509795e-11	1.166679e-10	0.01568741	0.009512732
2.5e+08	0.01675453	0.008947091	-1.151341e-11	1.206843e-10	0.006898637	0.01051942	4.542749e-12	2.480128e-10
	-1.151341e-11	1.206843e-10	0.01610226	0.009338451	4.54719e-11	8.314937e-11	0.006577903	0.01060298
	0.006898637	0.01051942	4.54719e-11	8.314937e-11	0.01706199	0.008856517	-2.711335e-11	1.231417e-10
	4.542749e-12	2.480128e-10	0.006577903	0.01060298	-2.711335e-11	1.231417e-10	0.01618838	0.009483742
2.6e+08	0.01729118	0.00884368	-1.279228e-11	1.264191e-10	0.007365191	0.01070179	4.268797e-12	2.592728e-10
	-1.279228e-11	1.264191e-10	0.01659508	0.009283827	4.723531e-11	8.523836e-11	0.007018047	0.0108065
	0.007365191	0.01070179	4.723531e-11	8.523836e-11	0.01760029	0.008743998	-2.919646e-11	1.298047e-10
	4.268797e-12	2.592728e-10	0.007018047	0.0108065	-2.919646e-11	1.298047e-10	0.0166831	0.009431971
2.7e+08	0.01782072	0.008714799	-1.412246e-11	1.322775e-10	0.007837469	0.01086069	4.02268e-12	2.707061e-10
	-1.412246e-11	1.322775e-10	0.01708106	0.009206922	4.88558e-11	8.724464e-11	0.007464054	0.01098839
	0.007837469	0.01086069	4.88558e-11	8.724464e-11	0.01813147	0.008605798	-3.133848e-11	1.366607e-10
	4.02268e-12	2.707061e-10	0.007464054	0.01098839	-3.133848e-11	1.366607e-10	0.01717087	0.009357835
2.8e+08	0.01834227	0.00856087	-1.549899e-11	1.382635e-10	0.008314326	0.01099589	3.814153e-12	2.82315e-10
	-1.549899e-11	1.382635e-10	0.01755949	0.009108167	5.032411e-11	8.917369e-11	0.007914876	0.01114841
	0.008314326	0.01099589	5.032411e-11	8.917369e-11	0.01865459	0.008442311	-3.353055e-11	1.437135e-10
	3.814153e-12	2.82315e-10	0.007914876	0.01114841	-3.353055e-11	1.437135e-10	0.01765099	0.009261772
2.9e+08	0.01885495	0.008382331	-1.691667e-11	1.44381e-10	0.008794607	0.01110718	3.653043e-12	2.94102e-10
	-1.691667e-11	1.44381e-10	0.01802968	0.008988006	5.16313e-11	9.103198e-11	0.008369452	0.01128634
	0.008794607	0.01110718	5.16313e-11	9.103198e-11	0.01916874	0.008253958	-3.576358e-11	1.509667e-10
	3.653043e-12	2.94102e-10	0.008369452	0.01128634	-3.576358e-11	1.509667e-10	0.01812275	0.009144223
3e+08	0.01935788	0.008179645	-1.837003e-11	1.506342e-10	0.009277147	0.01119441	3.549318e-12	3.060691e-10
	-1.837003e-11	1.506342e-10	0.01849094	0.008846895	5.276887e-11	9.282701e-11	0.008826713	0.01140203
	0.009277147	0.01119441	5.276887e-11	9.282701e-11	0.019673	0.00804119	-3.802827e-11	1.584239e-10
	3.549318e-12	3.060691e-10	0.008826713	0.01140203	-3.802827e-11	1.584239e-10	0.01858545	0.009005654
3.1e+08	0.01985019	0.007953306	-1.985338e-11	1.570271e-10	0.009760774	0.01125751	3.512977e-12	3.182182e-10
	-1.985338e-11	1.570271e-10	0.01894256	0.008685311	5.372868e-11	9.456684e-11	0.009285584	0.01149538
	0.009760774	0.01125751	5.372868e-11	9.456684e-11	0.02016647	0.007804493	-4.031518e-11	1.660884e-10
	3.512977e-12	3.182182e-10	0.009285584	0.01149538	-4.031518e-11	1.660884e-10	0.01903838	0.008846547
3.2e+08	0.020331	0.007703829	-2.136068e-11	1.635638e-10	0.01024431	0.01129642	3.55422e-12	3.305509e-10
	-2.136068e-11	1.635638e-10	0.01938386	0.008503741	5.450315e-11	9.626042e-11	0.009744982	0.01156633
	0.01024431	0.01129642	5.450315e-11	9.626042e-11	0.02064824	0.007544371	-4.261461e-11	1.739631e-10
	3.55422e-12	3.305509e-10	0.009744982	0.01156633	-4.261461e-11	1.739631e-10	0.01948085	0.008667402
3.3e+08	0.02079946	0.007431755	-2.288554e-11	1.702481e-10	0.01072658	0.01131118	3.683436e-12	3.430683e-10
	-2.288554e-11	1.702481e-10	0.01981417	0.008302699	5.508531e-11	9.791749e-11	0.01020383	0.01161487
	0.01072658	0.01131118	5.508531e-11	9.791749e-11	0.02111742	0.007261373	-4.491661e-11	1.820509e-10
	3.683436e-12	3.430683e-10	0.01020383	0.01161487	-4.491661e-11	1.820509e-10	0.01991218	0.008468735
3.4e+08	0.02125471	0.007137663	-2.442133e-11	1.770838e-10	0.01120641	0.01130187	3.911064e-12	3.557715e-10
	-2.442133e-11	1.770838e-10	0.02023282	0.008082712	5.546866e-11	9.954822e-11	0.01066104	0.01164106
	0.01120641	0.01130187	5.546866e-11	9.954822e-11	0.02157312	0.006956071	-4.721113e-11	1.903542e-10
	3.911064e-12	3.557715e-10	0.01066104	0.01164106	-4.721113e-11	1.903542e-10	0.02033171	0.008251089
3.5e+08	0.02169592	0.006822148	-2.596104e-11	1.840744e-10	0.01168261	0.01126861	4.247771e-12	3.686608e-10
	-2.596104e-11	1.840744e-10	0.02063916	0.007844328	5.564746e-11	1.011635e-10	0.01111553	0.01164499
	0.01168261	0.01126861	5.564746e-11	1.011635e-10	0.02201448	0.006629075	-4.948786e-11	1.98875e-10
	4.247771e-12	3.686608e-10	0.01111553	0.01164499	-4.948786e-11	1.98875e-10	0.02073877	0.00801502
3.6e+08	0.02212227	0.006485842	-2.750141e-11	1.912217e-10	0.01215403	0.01121159	4.701878e-12	3.817362e-10
	-2.750141e-11	1.912217e-10	0.02103254	0.007588115	5.561653e-11	1.027747e-10	0.01156623	0.01162682
	0.01215403	0.01121159	5.561653e-11	1.027747e-10	0.02244064	0.006281018	-5.173638e-11	2.076151e-10
	4.701878e-12	3.817362e-10	0.01156623	0.01162682	-5.173638e-11	2.076151e-10	0.02113271	0.007761107
3.7e+08	0.02253295	0.006129409	-2.903146e-11	1.985303e-10	0.01261951	0.01113106	5.286338e-12	3.949976e-10
	-2.903146e-11	1.985303e-10	0.02141234	0.007314658	5.537142e-11	1.043937e-10	0.01201208	0.01158675
	0.01261951	0.01113106	5.537142e-11	1.043937e-10	0.02285078	0.005912576	-5.39461e-11	2.165756e-10
	5.286338e-12	3.949976e-10	0.01201208	0.01158675	-5.39461e-11	2.165756e-10	0.02151291	0.007489948
3.8e+08	0.02292717	0.005753535	-3.054309e-11	2.060031e-10	0.01307789	0.01102731	6.01229e-12	4.084444e-10
	-3.054309e-11	2.060031e-10	0.02177794	0.007024567	5.490838e-11	1.060327e-10	0.01245201	0.01152503
	0.01307789	0.01102731	5.490838e-11	1.060327e-10	0.02324407	0.005524451	-5.610625e-11	2.257576e-10
	6.01229e-12	4.084444e-10	0.01245201	0.01152503	-5.610625e-11	2.257576e-10	0.02187876	0.007202162
3.9e+08	0.02330417	0.005358944	-3.202827e-11	2.136424e-10	0.01352806	0.01090071	6.890744e-12	4.22075e-10
	-3.202827e-11	2.136424e-10	0.02212875	0.006718469	5.422442e-11	1.077043e-10	0.01288499	0.01144197
	0.01352806	0.01090071	5.422442e-11	1.077043e-10	0.02361973	0.005117378	-5.820599e-11	2.351613e-10
	6.890744e-12	4.22075e-10	0.01288499	0.01144197	-5.820599e-11	2.351613e-10	0.02222966	0.006898389
4e+08	0.02366321	0.00494638	-3.347871e-11	2.214504e-10	0.01396889	0.01075165	7.932789e-12	4.358879e-10
	-3.347871e-11	2.214504e-10	0.0224642	0.006397014	5.331731e-11	1.094215e-10	0.01330998	0.01133791
	0.01396889	0.01075165	5.331731e-11	1.094215e-10	0.02397699	0.004692123	-6.023431e-11	2.447868e-10
	7.932789e-12	4.358879e-10	0.01330998	0.01133791	-6.023431e-11	2.447868e-10	0.02256503	0.006579288
4.1e+08	0.02400357	0.004516631	-3.488597e-11	2.294288e-10	0.01439928	0.0105806	9.149487e-12	4.498807e-10
	-3.488597e-11	2.294288e-10	0.02278372	0.00606087	5.218556e-11	1.111977e-10	0.01372598	0.01121325
	0.01439928	0.0105806	5.218556e-11	1.111977e-10	0.02431511	0.004249487	-6.218023e-11	2.546335e-10
	9.149487e-12	4.498807e-10	0.01372598	0.01121325	-6.218023e-11	2.546335e-10	0.02288434	0.00624554
4.2e+08	0.02432455	0.004070496	-3.624145e-11	2.375788e-10	0.01481816	0.01038807	1.055189e-11	4.640506e-10
	-3.624145e-11	2.375788e-10	0.0230868	0.005710725	5.082844e-11	1.130461e-10	0.01413199	0.01106846
	0.01481816	0.01038807	5.082844e-11	1.130461e-10	0.02463336	0.003790295	-6.403268e-11	2.647006e-10
	1.055189e-11	4.640506e-10	0.01413199	0.01106846	-6.403268e-11	2.647006e-10	0.02318703	0.00589784
4.3e+08	0.0246255	0.003608818	-3.753639e-11	2.459014e-10	0.01522449	0.01017462	1.215104e-11	4.783943e-10
	-3.753639e-11	2.459014e-10	0.0233729	0.005347286	4.924599e-11	1.149805e-10	0.01452703	0.01090401
	0.01522449	0.01017462	4.924599e-11	1.149805e-10	0.02493107	0.003315407	-6.578062e-11	2.749864e-10
	1.215104e-11	4.783943e-10	0.01452703	0.01090401	-6.578062e-11	2.749864e-10	0.0234726	0.005536911
4.4e+08	0.02490578	0.003132455	-3.876185e-11	2.543972e-10	0.01561724	0.009940871	1.395792e-11	4.929081e-10
	-3.876185e-11	2.543972e-10	0.02364155	0.00497128	4.74391e-11	1.170147e-10	0.01491017	0.01072046
	0.01561724	0.009940871	4.74391e-11	1.170147e-10	0.02520758	0.002825709	-6.741294e-11	2.85489e-10
	1.395792e-11	4.929081e-10	0.01491017	0.01072046	-6.741294e-11	2.85489e-10	0.02374058	0.005163484
4.5e+08	0.02516478	0.002642303	-3.990879e-11	2.630661e-10	0.01599542	0.00968748	1.598347e-11	5.075875e-10
	-3.990879e-11	2.630661e-10	0.02389229	0.004583451	4.540951e-11	1.191625e-10	0.01528048	0.01051838
	0.01599542	0.00968748	4.540951e-11	1.191625e-10	0.02546228	0.00232212	-6.891853e-11	2.96206e-10
	1.598347e-11	5.075875e-10	0.01528048	0.01051838	-6.891853e-11	2.96206e-10	0.0239905	0.004778318
4.6e+08	0.02540194	0.002139273	-4.096789e-11	2.719083e-10	0.01635807	0.009415158	1.823863e-11	5.22428e-10
	-4.096789e-11	2.719083e-10	0.02412467	0.004184561	4.313481e-11	1.214357e-10	0.01563706	0.01029841
	0.01635807	0.009415158	4.313481e-11	1.214357e-10	0.02569456	0.001805577	-7.030006e-11	3.07139e-10
	1.823863e-11	5.22428e-10	0.01563706	0.01029841	-7.030006e-11	3.07139e-10	0.02422192	0.004382182
4.7e+08	0.02561671	0.001624306	-4.192886e-11	2.809237e-10	0.01670425	0.00912466	2.073462e-11	5.374244e-10
	-4.192886e-11	2.809237e-10	0.02433829	0.003775391	4.053214e-11	1.238459e-10	0.01597906	0.01006122
	0.01670425	0.00912466	4.053214e-11	1.238459e-10	0.02590388	0.00127705	-7.159315e-11	3.18305e-10
	2.073462e-11	5.374244e-10	0.01597906	0.01006122	-7.159315e-11	3.18305e-10	0.02443444	0.003975862
4.8e+08	0.02580861	0.001098366	-4.278374e-11	2.901099e-10	0.01703307	0.008816786	2.348132e-11	5.525704e-10
	-4.278374e-11	2.901099e-10	0.02453277	0.003356733	3.771538e-11	1.26419e-10	0.01630565	0.009807526
	0.01703307	0.008816786	3.771538e-11	1.26419e-10	0.02608973	0.0007375311	-7.272566e-11	3.296811e-10
	2.348132e-11	5.525704e-10	0.01630565	0.009807526	-7.272566e-11	3.296811e-10	0.02462769	0.003560165
