!$
! Info: Touchstone file created by Circ.  Input file=Tx_2in_Rx_100ohms_TxVia_35mils_RxVia_45mils.circ
!$
# Hz S RI R 50
0	0.002214382	4.617931e-26	-1.098369e-05	3.887962e-24	3.026034e-05	4.051112e-24	-1.096442e-05	1.533969e-24
	-1.09837e-05	3.888528e-24	0.002212748	5.320554e-26	-1.099603e-05	5.431067e-24	3.011585e-05	4.905654e-24
	3.007383e-05	4.034105e-24	-1.099603e-05	5.430588e-24	0.002225351	4.619715e-26	-1.098212e-05	3.734138e-24
	-1.096443e-05	1.534414e-24	2.826928e-05	4.930055e-24	-1.098212e-05	3.734497e-24	0.002225979	4.982431e-26
1e+07	0.003113125	0.001744458	-3.910099e-05	5.495107e-07	0.0001213178	0.0005701137	-1.476723e-05	-2.352157e-06
	-3.910099e-05	5.495106e-07	0.003144238	0.001743177	-4.631691e-06	2.389973e-05	0.0001205588	0.0005687723
	0.0001213126	0.0005701148	-4.63169e-06	2.389973e-05	0.003160747	0.001754002	-3.910324e-05	5.246329e-07
	-1.476723e-05	-2.352158e-06	0.0001204992	0.0005687824	-3.910324e-05	5.246322e-07	0.003127746	0.001752984
2e+07	0.003893567	0.002825879	-2.945031e-05	-1.663275e-05	0.0001295506	0.001167186	-1.136005e-05	-4.339285e-06
	-2.945031e-05	-1.663275e-05	0.003914025	0.002811267	-1.641348e-05	3.800887e-05	0.0001266558	0.001164708
	0.000129552	0.00116719	-1.641348e-05	3.800887e-05	0.003936792	0.002831911	-2.945698e-05	-1.667803e-05
	-1.136005e-05	-4.339286e-06	0.0001266478	0.001164742	-2.945698e-05	-1.667803e-05	0.003905459	0.002841772
3e+07	0.00454116	0.003622493	-2.226947e-05	-2.260149e-05	0.0001710691	0.001727263	-8.891371e-06	-6.538107e-06
	-2.226947e-05	-2.260149e-05	0.004549774	0.00360283	-3.339373e-05	4.098062e-05	0.0001646896	0.001723892
	0.0001710715	0.001727263	-3.339373e-05	4.098062e-05	0.004582314	0.003632418	-2.227951e-05	-2.267149e-05
	-8.891371e-06	-6.538107e-06	0.0001646896	0.001723897	-2.227951e-05	-2.267149e-05	0.00454823	0.003646144
4e+07	0.005133993	0.004301291	-1.64116e-05	-2.593227e-05	0.0002475827	0.002273811	-6.855707e-06	-7.676783e-06
	-1.64116e-05	-2.593227e-05	0.00512878	0.004278704	-4.790032e-05	4.051219e-05	0.0002363783	0.002269865
	0.0002475833	0.00227381	-4.790032e-05	4.051219e-05	0.005174773	0.00431646	-1.64242e-05	-2.602872e-05
	-6.855707e-06	-7.676783e-06	0.0002363729	0.002269863	-1.64242e-05	-2.602872e-05	0.005134009	0.004332558
5e+07	0.005699608	0.004901754	-1.138176e-05	-2.795179e-05	0.0003877979	0.002805433	-5.085149e-06	-8.315105e-06
	-1.138176e-05	-2.795179e-05	0.005678203	0.004878033	-6.101401e-05	3.807926e-05	0.0003704572	0.002801298
	0.000387798	0.002805432	-6.101401e-05	3.807926e-05	0.005741333	0.004922561	-1.139599e-05	-2.80765e-05
	-5.085149e-06	-8.315105e-06	0.0003704536	0.002801297	-1.139599e-05	-2.80765e-05	0.005690073	0.004940999
6e+07	0.00625103	0.005442364	-6.915948e-06	-2.911789e-05	0.0005491494	0.003325762	-3.490588e-06	-8.644773e-06
	-6.915948e-06	-2.911789e-05	0.00621123	0.005419228	-7.332083e-05	3.421986e-05	0.0005244054	0.003321936
	0.0005491504	0.003325762	-7.332083e-05	3.421986e-05	0.006294794	0.005468859	-6.930879e-06	-2.927284e-05
	-3.490588e-06	-8.644773e-06	0.0005244077	0.003321935	-6.93088e-06	-2.927284e-05	0.006229668	0.005490175
7e+07	0.00679534	0.005933588	-8.387308e-06	-2.86961e-05	0.0007315093	0.003834566	-2.004672e-06	-8.716131e-06
	-8.387308e-06	-2.86961e-05	0.006734994	0.005912624	-8.519898e-05	2.912808e-05	0.0006981346	0.003831617
	0.0007315114	0.003834566	-8.519898e-05	2.912808e-05	0.006842091	0.005965659	-8.402454e-06	-2.887927e-05
	-2.004672e-06	-8.716132e-06	0.0006981422	0.003831614	-8.402455e-06	-2.887927e-05	0.006759902	0.005990523
8e+07	0.007336692	0.006382292	-1.365762e-05	-2.669777e-05	0.0009345752	0.004331167	-2.940022e-06	-8.104464e-06
	-1.365762e-05	-2.669777e-05	0.007253558	0.006365107	-9.696158e-05	2.269835e-05	0.0008913722	0.004329731
	0.0009345776	0.004331167	-9.696158e-05	2.269835e-05	0.007387274	0.006419761	-1.366944e-05	-2.690749e-05
	-2.940022e-06	-8.104465e-06	0.0008913816	0.004329725	-1.366944e-05	-2.690749e-05	0.007284764	0.006448973
9e+07	0.007877762	0.006793835	-1.840344e-05	-2.361528e-05	0.001157859	0.004814444	-4.428917e-06	-7.006025e-06
	-1.840344e-05	-2.361528e-05	0.007769517	0.006782287	-0.0001089734	1.436105e-05	0.001103656	0.004815232
	0.001157861	0.004814444	-0.0001089734	1.436105e-05	0.00793295	0.006836561	-1.840991e-05	-2.385291e-05
	-4.428917e-06	-7.006026e-06	0.001103663	0.004815227	-1.840991e-05	-2.385291e-05	0.007806746	0.006871122
1e+08	0.00842138	0.007176256	-2.234607e-05	-1.841465e-05	0.001400276	0.005281326	-5.60967e-06	-5.207324e-06
	-2.234606e-05	-1.841465e-05	0.00828583	0.007172999	-0.0001222032	7.357947e-07	0.001333924	0.00528513
	0.001400276	0.005281326	-0.0001222032	7.357947e-07	0.00848203	0.007224598	-2.234348e-05	-1.86826e-05
	-5.60967e-06	-5.207324e-06	0.001333924	0.00528513	-2.234348e-05	-1.86826e-05	0.008328602	0.007265355
1.1e+08	0.008985629	0.007512458	-2.189702e-05	-1.420263e-05	0.001653155	0.005737323	-5.297886e-06	-3.764183e-06
	-2.189702e-05	-1.420263e-05	0.008823456	0.007520114	-0.0001230047	-1.523854e-05	0.001573796	0.005744928
	0.001653155	0.005737323	-0.0001230047	-1.523854e-05	0.009054861	0.007565897	-2.188483e-05	-1.450588e-05
	-5.297886e-06	-3.764183e-06	0.001573796	0.005744928	-2.188483e-05	-1.450588e-05	0.008870152	0.007617009
1.2e+08	0.009547076	0.007809313	-2.177253e-05	-1.177794e-05	0.001926408	0.006183503	-5.097683e-06	-2.927026e-06
	-2.177253e-05	-1.177794e-05	0.00935614	0.007828107	-0.0001231108	-2.533387e-05	0.001832958	0.006195856
	0.001926408	0.006183504	-0.0001231108	-2.533387e-05	0.009624986	0.007865806	-2.175295e-05	-1.211793e-05
	-5.097683e-06	-2.927026e-06	0.001832958	0.006195856	-2.175295e-05	-1.211793e-05	0.009406883	0.007929512
1.3e+08	0.01010814	0.008073117	-2.176373e-05	-9.943691e-06	0.002218947	0.006616429	-4.930222e-06	-2.298305e-06
	-2.176373e-05	-9.943691e-06	0.009886272	0.008104255	-0.0001232823	-3.32612e-05	0.002110401	0.006634554
	0.002218947	0.006616429	-0.0001232823	-3.32612e-05	0.01019478	0.008131414	-2.173779e-05	-1.032241e-05
	-4.930222e-06	-2.298305e-06	0.002110401	0.006634554	-2.173779e-05	-1.032241e-05	0.009940894	0.008209796
1.4e+08	0.01066976	0.008305657	-2.182667e-05	-8.441042e-06	0.002529962	0.007034659	-4.779638e-06	-1.793302e-06
	-2.182667e-05	-8.441042e-06	0.01041483	0.008350817	-0.0001236148	-3.983544e-05	0.002405392	0.00705965
	0.002529962	0.007034659	-0.0001236148	-3.983544e-05	0.01076514	0.008364787	-2.179538e-05	-8.860641e-06
	-4.779638e-06	-1.793302e-06	0.002405392	0.00705965	-2.179538e-05	-8.860641e-06	0.01047307	0.008460196
1.5e+08	0.01123227	0.008507927	-2.19413e-05	-7.148164e-06	0.002858644	0.007437083	-4.639769e-06	-1.372392e-06
	-2.19413e-05	-7.148164e-06	0.01094225	0.008569126	-0.0001241321	-4.543917e-05	0.0027172	0.007470094
	0.002858644	0.007437083	-0.0001241321	-4.543917e-05	0.0113364	0.008567078	-2.190579e-05	-7.610894e-06
	-4.639769e-06	-1.372392e-06	0.0027172	0.007470094	-2.190579e-05	-7.610894e-06	0.01100384	0.008682141
1.6e+08	0.01179565	0.008680581	-2.209531e-05	-5.994844e-06	0.003204156	0.00782274	-4.507432e-06	-1.013009e-06
	-2.209531e-05	-5.994844e-06	0.01146865	0.008760105	-0.0001248357	-5.02919e-05	0.003045063	0.007864981
	0.003204156	0.00782274	-0.0001248357	-5.02919e-05	0.01190853	0.008739038	-2.205696e-05	-6.503005e-06
	-4.507432e-06	-1.013009e-06	0.003045063	0.007864981	-2.205696e-05	-6.503005e-06	0.01153335	0.008876623
1.7e+08	0.0123596	0.008824109	-2.227979e-05	-4.935937e-06	0.003565628	0.00819076	-4.38076e-06	-7.00831e-07
	-2.227979e-05	-4.935937e-06	0.01199392	0.008924451	-0.0001257183	-5.453401e-05	0.003388189	0.008243491
	0.003565628	0.00819076	-0.0001257183	-5.453401e-05	0.01248124	0.008881213	-2.224019e-05	-5.491855e-06
	-4.38076e-06	-7.00831e-07	0.003388189	0.008243491	-2.224019e-05	-5.491855e-06	0.0120615	0.009044388
1.8e+08	0.01292364	0.008938916	-2.248754e-05	-3.940452e-06	0.00394216	0.008540345	-4.258569e-06	-4.26118e-07
	-2.248754e-05	-3.940452e-06	0.01251777	0.009062733	-0.0001267687	-5.826131e-05	0.003745755	0.008604876
	0.00394216	0.008540345	-0.0001267687	-5.826131e-05	0.01305406	0.008994034	-2.244854e-05	-4.546454e-06
	-4.258569e-06	-4.26118e-07	0.003745755	0.008604876	-2.244854e-05	-4.546454e-06	0.01258805	0.009186032
1.9e+08	0.01348718	0.009025367	-2.271233e-05	-2.986097e-06	0.004332819	0.00887076	-4.140057e-06	-1.819144e-07
	-2.271233e-05	-2.986097e-06	0.01303978	0.009175448	-0.000127974	-6.154263e-05	0.004116907	0.008948441
	0.004332819	0.00887076	-0.000127974	-6.154263e-05	0.0136264	0.009077873	-2.267603e-05	-3.644484e-06
	-4.140057e-06	-1.819144e-07	0.004116907	0.008948441	-2.267603e-05	-3.644484e-06	0.01311263	0.00930206
2e+08	0.01404953	0.009083798	-2.294848e-05	-2.056347e-06	0.004736644	0.00918132	-4.024656e-06	3.693605e-08
	-2.294848e-05	-2.056347e-06	0.01355948	0.00926304	-0.0001293208	-6.44293e-05	0.004500763	0.009273543
	0.004736644	0.00918132	-0.0001293208	-6.44293e-05	0.01419757	0.009133067	-2.291723e-05	-2.769374e-06
	-4.024656e-06	3.693605e-08	0.004500763	0.009273543	-2.291723e-05	-2.769374e-06	0.01363477	0.009392921
2.1e+08	0.01460995	0.009114539	-2.319066e-05	-1.138654e-06	0.005152644	0.009471398	-3.91195e-06	2.343626e-07
	-2.319066e-05	-1.138654e-06	0.0140763	0.009325929	-0.0001307953	-6.69609e-05	0.004896413	0.009579588
	0.005152644	0.009471398	-0.0001307953	-6.69609e-05	0.01476679	0.009159938	-2.316708e-05	-1.908504e-06
	-3.91195e-06	2.343626e-07	0.004896413	0.009579588	-2.316708e-05	-1.908504e-06	0.01415393	0.009459024
2.2e+08	0.01516764	0.009117919	-2.34338e-05	-2.234154e-07	0.0055798	0.009740414	-3.801622e-06	4.134308e-07
	-2.34338e-05	-2.234154e-07	0.01458963	0.009364515	-0.0001323842	-6.916876e-05	0.005302922	0.00986603
	0.0055798	0.009740414	-0.0001323842	-6.916876e-05	0.01533326	0.009158805	-2.342078e-05	-1.052177e-06
	-3.801622e-06	4.134308e-07	0.005302922	0.00986603	-2.342078e-05	-1.052177e-06	0.01466952	0.009500766
2.3e+08	0.01572179	0.009094279	-2.367302e-05	6.967104e-07	0.006017071	0.009987841	-3.693423e-06	5.76581e-07
	-2.367302e-05	6.967104e-07	0.01509885	0.009379201	-0.0001340741	-7.107823e-05	0.005719331	0.01013237
	0.006017071	0.009987841	-0.0001340741	-7.107823e-05	0.01589611	0.00913	-2.367372e-05	-1.929319e-07
	-3.693423e-06	5.76581e-07	0.005719331	0.01013237	-2.367372e-05	-1.929319e-07	0.0151809	0.009518541
2.4e+08	0.01627154	0.009043962	-2.390358e-05	1.627439e-06	0.006463389	0.0102132	-3.58716e-06	7.2578e-07
	-2.390358e-05	1.627439e-06	0.01560328	0.009370378	-0.0001358524	-7.271053e-05	0.006144658	0.01037816
	0.006463389	0.0102132	-0.0001358524	-7.271053e-05	0.01645447	0.009073859	-2.39214e-05	6.750881e-07
	-3.58716e-06	7.2578e-07	0.006144658	0.01037816	-2.39214e-05	6.750881e-07	0.01568741	0.009512732
2.5e+08	0.01681603	0.008967329	-2.412087e-05	2.573031e-06	0.006917667	0.01041608	-3.48267e-06	8.626421e-07
	-2.412087e-05	2.573031e-06	0.01610226	0.009338451	-0.0001377067	-7.408362e-05	0.006577903	0.01060298
	0.006917667	0.01041608	-0.0001377067	-7.408362e-05	0.01700743	0.008990739	-2.415947e-05	1.556309e-06
	-3.48267e-06	8.626421e-07	0.006577903	0.01060298	-2.415947e-05	1.556309e-06	0.01618838	0.009483742
2.6e+08	0.01735439	0.008864752	-2.432041e-05	3.536648e-06	0.007378797	0.0105961	-3.379823e-06	9.885031e-07
	-2.432041e-05	3.536648e-06	0.01659508	0.009283827	-0.0001396253	-7.521311e-05	0.007018047	0.0108065
	0.007378797	0.0105961	-0.0001396253	-7.521311e-05	0.01755409	0.008881014	-2.438367e-05	2.454079e-06
	-3.379823e-06	9.885031e-07	0.007018047	0.0108065	-2.438367e-05	2.454079e-06	0.0166831	0.009431971
2.7e+08	0.01788573	0.008736629	-2.449784e-05	4.520443e-06	0.007845656	0.01075294	-3.278501e-06	1.104485e-06
	-2.449784e-05	4.520443e-06	0.01708106	0.009206922	-0.0001415967	-7.611289e-05	0.007464054	0.01098839
	0.007845656	0.01075294	-0.0001415967	-7.611289e-05	0.01809351	0.008745077	-2.45899e-05	3.370761e-06
	-3.278501e-06	1.104485e-06	0.007464054	0.01098839	-2.45899e-05	3.370761e-06	0.01717087	0.009357835
2.8e+08	0.01840918	0.008583372	-2.464895e-05	5.525804e-06	0.008317105	0.01088634	-3.178614e-06	1.211531e-06
	-2.464895e-05	5.525804e-06	0.01755949	0.009108167	-0.00014361	-7.679543e-05	0.007914876	0.01114841
	0.008317105	0.01088634	-0.00014361	-7.679543e-05	0.01862477	0.008583353	-2.477415e-05	4.307975e-06
	-3.178614e-06	1.211531e-06	0.007914876	0.01114841	-2.477415e-05	4.307975e-06	0.01765099	0.009261772
2.9e+08	0.01892384	0.00840542	-2.476964e-05	6.553401e-06	0.008791993	0.0109961	-3.080079e-06	1.310443e-06
	-2.476964e-05	6.553401e-06	0.01802968	0.008988006	-0.0001456553	-7.727216e-05	0.008369452	0.01128634
	0.008791993	0.0109961	-0.0001456553	-7.727216e-05	0.01914694	0.008396286	-2.493255e-05	5.266641e-06
	-3.080079e-06	1.310443e-06	0.008369452	0.01128634	-2.493255e-05	5.266641e-06	0.01812275	0.009144223
3e+08	0.01942883	0.00820323	-2.485602e-05	7.603242e-06	0.009269162	0.01108205	-2.982825e-06	1.401911e-06
	-2.485602e-05	7.603242e-06	0.01849094	0.008846895	-0.0001477223	-7.755385e-05	0.008826713	0.01140203
	0.009269162	0.01108205	-0.0001477223	-7.755385e-05	0.0196591	0.008184348	-2.506137e-05	6.247038e-06
	-2.982825e-06	1.401911e-06	0.008826713	0.01140203	-2.506137e-05	6.247038e-06	0.01858545	0.009005654
3.1e+08	0.01992327	0.007977293	-2.490433e-05	8.674833e-06	0.009747443	0.0111441	-2.886794e-06	1.486527e-06
	-2.490433e-05	8.674833e-06	0.01894256	0.008685311	-0.0001498023	-7.765049e-05	0.009285584	0.01149538
	0.009747443	0.0111441	-0.0001498023	-7.765049e-05	0.02016032	0.007948043	-2.515704e-05	7.248963e-06
	-2.886794e-06	1.486527e-06	0.009285584	0.01149538	-2.515704e-05	7.248963e-06	0.01903838	0.008846547
3.2e+08	0.02040628	0.007728116	-2.491099e-05	9.767159e-06	0.01022567	0.01118222	-2.791934e-06	1.564802e-06
	-2.491099e-05	9.767159e-06	0.01938386	0.008503741	-0.0001518864	-7.757167e-05	0.009744982	0.01156633
	0.01022567	0.01118222	-0.0001518864	-7.757167e-05	0.02064969	0.007687898	-2.521612e-05	8.271707e-06
	-2.791934e-06	1.564802e-06	0.009744982	0.01156633	-2.521612e-05	8.271707e-06	0.01948085	0.008667402
3.3e+08	0.02087701	0.007456242	-2.487265e-05	1.087873e-05	0.01070266	0.01119641	-2.698196e-06	1.637187e-06
	-2.487265e-05	1.087873e-05	0.01981417	0.008302699	-0.0001539663	-7.732681e-05	0.01020383	0.01161487
	0.01070266	0.01119641	-0.0001539663	-7.732681e-05	0.02112631	0.007404473	-2.523541e-05	9.314103e-06
	-2.698196e-06	1.637187e-06	0.01020383	0.01161487	-2.523541e-05	9.314103e-06	0.01991218	0.008468735
3.4e+08	0.02133459	0.007162241	-2.478615e-05	1.20077e-05	0.01117724	0.01118674	-2.605546e-06	1.704067e-06
	-2.478615e-05	1.20077e-05	0.02023282	0.008082712	-0.0001560346	-7.692481e-05	0.01066104	0.01164106
	0.01117724	0.01118674	-0.0001560346	-7.692481e-05	0.02158928	0.007098361	-2.521185e-05	1.037464e-05
	-2.605546e-06	1.704067e-06	0.01066104	0.01164106	-2.521185e-05	1.037464e-05	0.02033171	0.008251089
3.5e+08	0.02177819	0.006846708	-2.464855e-05	1.315182e-05	0.01164826	0.01115334	-2.51395e-06	1.765786e-06
	-2.464855e-05	1.315182e-05	0.02063916	0.007844328	-0.0001580841	-7.637455e-05	0.01111553	0.01164499
	0.01164826	0.01115334	-0.0001580841	-7.637455e-05	0.02203772	0.006770187	-2.514261e-05	1.145143e-05
	-2.51395e-06	1.765786e-06	0.01111553	0.01164499	-2.514261e-05	1.145143e-05	0.02073877	0.00801502
3.6e+08	0.02220697	0.006510273	-2.445716e-05	1.430854e-05	0.01211454	0.0110964	-2.423386e-06	1.822642e-06
	-2.445716e-05	1.430854e-05	0.02103254	0.007588115	-0.0001601084	-7.568454e-05	0.01156623	0.01162682
	0.01211454	0.0110964	-0.0001601084	-7.568454e-05	0.02247078	0.0064206	-2.502505e-05	1.254229e-05
	-2.423386e-06	1.822642e-06	0.01156623	0.01162682	-2.502505e-05	1.254229e-05	0.02113271	0.007761107
3.7e+08	0.02262013	0.006153592	-2.420955e-05	1.547502e-05	0.01257494	0.01101615	-2.333831e-06	1.874901e-06
	-2.420955e-05	1.547502e-05	0.02141234	0.007314658	-0.0001621015	-7.486327e-05	0.01201208	0.01158675
	0.01257494	0.01101615	-0.0001621015	-7.486327e-05	0.0228876	0.00605029	-2.485678e-05	1.364472e-05
	-2.333831e-06	1.874901e-06	0.01201208	0.01158675	-2.485678e-05	1.364472e-05	0.02151291	0.007489948
3.8e+08	0.02301687	0.005777354	-2.390353e-05	1.664811e-05	0.01302831	0.01091289	-2.245273e-06	1.922795e-06
	-2.390353e-05	1.664811e-05	0.02177794	0.007024567	-0.0001640579	-7.391915e-05	0.01245201	0.01152503
	0.01302831	0.01091289	-0.0001640579	-7.391915e-05	0.02328737	0.005659974	-2.463564e-05	1.4756e-05
	-2.245273e-06	1.922795e-06	0.01245201	0.01152503	-2.463564e-05	1.4756e-05	0.02187876	0.007202162
3.9e+08	0.02339643	0.005382277	-2.353721e-05	1.782447e-05	0.01347352	0.01078696	-2.157702e-06	1.966533e-06
	-2.353721e-05	1.782447e-05	0.02212875	0.006718469	-0.0001659729	-7.28604e-05	0.01288499	0.01144197
	0.01347352	0.01078696	-0.0001659729	-7.28604e-05	0.02366929	0.005250402	-2.435972e-05	1.587314e-05
	-2.157702e-06	1.966533e-06	0.01288499	0.01144197	-2.435972e-05	1.587314e-05	0.02222966	0.006898389
4e+08	0.02375806	0.004969106	-2.310897e-05	1.900053e-05	0.01390946	0.01063876	-2.071113e-06	2.006299e-06
	-2.310897e-05	1.900053e-05	0.0224642	0.006397014	-0.0001678419	-7.169532e-05	0.01330998	0.01133791
	0.01390946	0.01063876	-0.0001678419	-7.169532e-05	0.02403257	0.004822353	-2.402737e-05	1.699298e-05
	-2.071113e-06	2.006299e-06	0.01330998	0.01133791	-2.402737e-05	1.699298e-05	0.02256503	0.006579288
4.1e+08	0.02410102	0.004538623	-2.261749e-05	2.017252e-05	0.01433505	0.01046876	-1.985509e-06	2.042258e-06
	-2.261749e-05	2.017252e-05	0.02278372	0.00606087	-0.0001696611	-7.043203e-05	0.01372598	0.01121325
	0.01433505	0.01046876	-0.0001696611	-7.043203e-05	0.02437646	0.004376646	-2.36372e-05	1.811215e-05
	-1.985509e-06	2.042258e-06	0.01372598	0.01121325	-2.36372e-05	1.811215e-05	0.02288434	0.00624554
4.2e+08	0.02442463	0.004091634	-2.206175e-05	2.133657e-05	0.01474922	0.01027746	-1.900895e-06	2.074556e-06
	-2.206175e-05	2.133657e-05	0.0230868	0.005710725	-0.0001714275	-6.907836e-05	0.01413199	0.01106846
	0.01474922	0.01027746	-0.0001714275	-6.907836e-05	0.02470025	0.003914117	-2.31881e-05	1.922717e-05
	-1.900895e-06	2.074556e-06	0.01413199	0.01106846	-2.31881e-05	1.922717e-05	0.02318703	0.00589784
4.3e+08	0.0247282	0.00362897	-2.144103e-05	2.248865e-05	0.01515091	0.01006541	-1.817285e-06	2.103325e-06
	-2.144103e-05	2.248865e-05	0.0233729	0.005347286	-0.0001731384	-6.764215e-05	0.01452703	0.01090401
	0.01515091	0.01006541	-0.0001731384	-6.764215e-05	0.02500324	0.003435644	-2.267922e-05	2.03344e-05
	-1.817285e-06	2.103325e-06	0.01452703	0.01090401	-2.267922e-05	2.03344e-05	0.0234726	0.005536911
4.4e+08	0.02501111	0.003151499	-2.075493e-05	2.362461e-05	0.01553911	0.009833229	-1.734694e-06	2.128686e-06
	-2.075493e-05	2.362461e-05	0.02364155	0.00497128	-0.0001747915	-6.613109e-05	0.01491017	0.01072046
	0.01553911	0.009833229	-0.0001747915	-6.613109e-05	0.02528476	0.002942126	-2.211003e-05	2.14301e-05
	-1.734694e-06	2.128686e-06	0.01491017	0.01072046	-2.211003e-05	2.14301e-05	0.02374058	0.005163484
4.5e+08	0.02527274	0.002660106	-2.000337e-05	2.474027e-05	0.01591284	0.00958157	-1.653142e-06	2.150746e-06
	-2.000337e-05	2.474027e-05	0.02389229	0.004583451	-0.0001763851	-6.455296e-05	0.01528048	0.01051838
	0.01591284	0.00958157	-0.0001763851	-6.455296e-05	0.0255442	0.002434494	-2.148026e-05	2.251047e-05
	-1.653142e-06	2.150746e-06	0.01528048	0.01051838	-2.148026e-05	2.251047e-05	0.0239905	0.004778318
4.6e+08	0.02551252	0.00215571	-1.918657e-05	2.583136e-05	0.01627113	0.009311139	-1.572651e-06	2.1696e-06
	-1.918657e-05	2.583136e-05	0.02412467	0.004184561	-0.0001779184	-6.291484e-05	0.01563706	0.01029841
	0.01627113	0.009311139	-0.0001779184	-6.291484e-05	0.02578095	0.001913703	-2.078993e-05	2.357162e-05
	-1.572651e-06	2.1696e-06	0.01563706	0.01029841	-2.078993e-05	2.357162e-05	0.02422192	0.004382182
4.7e+08	0.0257299	0.001639246	-1.830507e-05	2.689358e-05	0.01661306	0.009022684	-1.493196e-06	2.185304e-06
	-1.830507e-05	2.689358e-05	0.02433829	0.003775391	-0.0001793903	-6.122447e-05	0.01597906	0.01006122
	0.01661306	0.009022684	-0.0001793903	-6.122447e-05	0.02599446	0.001380738	-2.003935e-05	2.460963e-05
	-1.493196e-06	2.185304e-06	0.01597906	0.01006122	-2.003935e-05	2.460963e-05	0.02443444	0.003975862
