!$
! Info: Touchstone file created by Circ.  Input file=Tx_2in_Rx_100ohms_TxVia_35mils_RxVia_45mils.circ
!$
# Hz S RI R 50
0	0.002214859	4.786087e-26	7.763247e-10	1.978812e-28	3.076139e-05	4.066405e-24	2.578479e-09	8.310207e-29
	7.763255e-10	1.97764e-28	0.002212748	5.320554e-26	4.111528e-10	2.847953e-28	3.011585e-05	4.905654e-24
	3.127196e-05	4.123254e-24	4.111525e-10	2.848332e-28	0.002227361	4.653566e-26	7.968505e-10	1.904983e-28
	2.578479e-09	8.309074e-29	2.826928e-05	4.930055e-24	7.968509e-10	1.904602e-28	0.002225979	4.982431e-26
1e+07	0.002933576	0.001780175	1.007565e-09	1.466301e-09	4.95461e-05	0.0005529841	4.01293e-09	6.994486e-09
	1.007565e-09	1.466301e-09	0.003144238	0.001743177	6.000946e-10	8.719285e-10	0.0001205588	0.0005687723
	4.9576e-05	0.0005529793	6.000946e-10	8.719285e-10	0.00306746	0.001737091	1.048247e-09	1.519716e-09
	4.01293e-09	6.994486e-09	0.0001204992	0.0005687824	1.048247e-09	1.519716e-09	0.003127746	0.001752984
2e+07	0.00378664	0.002952138	1.419921e-09	2.564666e-09	8.854006e-05	0.001110281	5.954416e-09	1.215775e-08
	1.419921e-09	2.564666e-09	0.003914025	0.002811267	8.038886e-10	1.513741e-09	0.0001266558	0.001164708
	8.854153e-05	0.001110259	8.038885e-10	1.513741e-09	0.003852864	0.002836562	1.481631e-09	2.643622e-09
	5.954416e-09	1.215775e-08	0.0001266478	0.001164742	1.481631e-09	2.643622e-09	0.003905459	0.002841772
3e+07	0.004490666	0.003775998	1.838765e-09	3.593736e-09	0.0001531996	0.001657163	7.957571e-09	1.702598e-08
	1.838765e-09	3.593736e-09	0.004549774	0.00360283	9.777054e-10	2.126688e-09	0.0001646896	0.001723892
	0.0001531935	0.001657161	9.777054e-10	2.126688e-09	0.004505686	0.003641358	1.919721e-09	3.693429e-09
	7.957571e-09	1.702598e-08	0.0001646896	0.001723897	1.919721e-09	3.693429e-09	0.00454823	0.003646144
4e+07	0.005131355	0.004464768	2.318055e-09	4.562676e-09	0.000243145	0.002197574	1.027245e-08	2.164229e-08
	2.318055e-09	4.562676e-09	0.00512878	0.004278704	1.156879e-09	2.712304e-09	0.0002363783	0.002269865
	0.0002431455	0.002197578	1.156879e-09	2.712304e-09	0.005104389	0.004326084	2.422868e-09	4.684165e-09
	1.027245e-08	2.164229e-08	0.0002363729	0.002269863	2.422868e-09	4.684165e-09	0.005134009	0.004332558
5e+07	0.005738924	0.005065318	2.859915e-09	5.471065e-09	0.0003576953	0.002731051	1.291318e-08	2.599396e-08
	2.859915e-09	5.471065e-09	0.005678203	0.004878033	1.345036e-09	3.274378e-09	0.0003704572	0.002801298
	0.0003576975	0.002731053	1.345036e-09	3.274378e-09	0.005676513	0.004931222	2.993296e-09	5.613038e-09
	1.291318e-08	2.599396e-08	0.0003704536	0.002801297	2.993296e-09	5.613038e-09	0.005690073	0.004940999
6e+07	0.006327626	0.005598773	3.461508e-09	6.321876e-09	0.0004961932	0.003256871	1.586838e-08	3.008477e-08
	3.461508e-09	6.321876e-09	0.00621123	0.005419228	1.541705e-09	3.815668e-09	0.0005244054	0.003321936
	0.0004961917	0.00325687	1.541705e-09	3.815668e-09	0.006235023	0.005475444	3.627986e-09	6.482079e-09
	1.586838e-08	3.008477e-08	0.0005244077	0.003321935	3.627986e-09	6.482079e-09	0.006229668	0.005490175
7e+07	0.006905164	0.006076754	4.121168e-09	7.116575e-09	0.0006614943	0.003773694	1.913187e-08	3.39171e-08
	4.121168e-09	7.116575e-09	0.006734994	0.005912624	1.746971e-09	4.338247e-09	0.0006981346	0.003831617
	0.0006614883	0.003773694	1.746971e-09	4.338247e-09	0.006786938	0.005969311	4.325301e-09	7.292422e-09
	1.913187e-08	3.39171e-08	0.0006981422	0.003831614	4.325301e-09	7.292422e-09	0.006759902	0.005990523
8e+07	0.007475948	0.006506387	4.837979e-09	7.854338e-09	0.0008502593	0.004281028	2.27002e-08	3.748511e-08
	4.837979e-09	7.854338e-09	0.007253558	0.006365107	1.961156e-09	4.842904e-09	0.0008913722	0.004329731
	0.0008502513	0.004281029	1.961156e-09	4.842904e-09	0.007336348	0.006419752	5.084511e-09	8.043006e-09
	2.27002e-08	3.748511e-08	0.0008913816	0.004329725	5.084511e-09	8.043007e-09	0.007284764	0.006448973
9e+07	0.008042505	0.006892145	5.611746e-09	8.534001e-09	0.001061174	0.004778336	2.656839e-08	4.077554e-08
	5.611746e-09	8.534001e-09	0.007769517	0.006782287	2.18477e-09	5.330618e-09	0.001103656	0.004815232
	0.001061168	0.004778338	2.18477e-09	5.330618e-09	0.007885868	0.006832167	5.905724e-09	8.732206e-09
	2.656839e-08	4.077554e-08	0.001103663	0.004815227	5.905724e-09	8.732206e-09	0.007806746	0.006871122
1e+08	0.008605708	0.007234902	6.442331e-09	9.152252e-09	0.001294115	0.00526612	3.072824e-08	4.377042e-08
	6.442331e-09	9.152252e-09	0.00828583	0.007172999	2.416421e-09	5.801697e-09	0.001333924	0.00528513
	0.001294115	0.00526612	2.416421e-09	5.801697e-09	0.008438292	0.00721461	6.790092e-09	9.355502e-09
	3.072824e-08	4.377042e-08	0.001333924	0.00528513	6.790092e-09	9.355502e-09	0.008328602	0.007265355
1.1e+08	0.009158134	0.007538017	7.327726e-09	9.719193e-09	0.001552823	0.005739522	3.515131e-08	4.646011e-08
	7.327726e-09	9.719193e-09	0.008823456	0.007520114	2.658531e-09	6.260566e-09	0.001573796	0.005744928
	0.001552823	0.005739522	2.658531e-09	6.260566e-09	0.009011832	0.007550273	7.731142e-09	9.91944e-09
	3.515131e-08	4.646011e-08	0.001573796	0.005744928	7.731142e-09	9.91944e-09	0.008870152	0.007617009
1.2e+08	0.009709879	0.007815193	8.26231e-09	1.022097e-08	0.001830893	0.006196633	3.982541e-08	4.883216e-08
	8.26231e-09	1.022097e-08	0.00935614	0.007828107	2.919653e-09	6.698578e-09	0.001832958	0.006195856
	0.001830893	0.006196632	2.919653e-09	6.698578e-09	0.009582718	0.007845599	8.717074e-09	1.041801e-08
	3.982541e-08	4.883216e-08	0.001832958	0.006195856	8.717074e-09	1.041801e-08	0.009406883	0.007929512
1.3e+08	0.01026198	0.008064261	9.238964e-09	1.065821e-08	0.002127954	0.006638133	4.472923e-08	5.0879e-08
	9.238964e-09	1.065821e-08	0.009886272	0.008104255	3.188618e-09	7.119722e-09	0.002110401	0.006634554
	0.002127954	0.006638133	3.188618e-09	7.119722e-09	0.0101533	0.00810699	9.747481e-09	1.084801e-08
	4.472923e-08	5.0879e-08	0.002110401	0.006634554	9.747481e-09	1.084801e-08	0.009940894	0.008209796
1.4e+08	0.01081512	0.008285076	1.025516e-08	1.102827e-08	0.002443334	0.00706348	4.984808e-08	5.258676e-08
	1.025516e-08	1.102827e-08	0.01041483	0.008350817	3.46519e-09	7.523497e-09	0.002405392	0.00705965
	0.002443334	0.00706348	3.46519e-09	7.523497e-09	0.01072447	0.008336323	1.081966e-08	1.120669e-08
	4.984808e-08	5.258676e-08	0.002405392	0.00705965	1.081966e-08	1.120669e-08	0.01047307	0.008460196
1.5e+08	0.0113695	0.008477694	1.130779e-08	1.132851e-08	0.00277628	0.007471985	5.516513e-08	5.394171e-08
	1.130779e-08	1.132851e-08	0.01094225	0.008569126	3.748824e-09	7.909402e-09	0.0027172	0.007470094
	0.00277628	0.007471985	3.748824e-09	7.909402e-09	0.01129654	0.008534653	1.193029e-08	1.149136e-08
	5.516513e-08	5.394171e-08	0.0027172	0.007470094	1.193029e-08	1.149136e-08	0.01100384	0.008682141
1.6e+08	0.01192497	0.008642232	1.239331e-08	1.155642e-08	0.003125982	0.007862931	6.06618e-08	5.493072e-08
	1.239331e-08	1.155642e-08	0.01146865	0.008760105	4.038792e-09	8.276952e-09	0.003045063	0.007864981
	0.003125982	0.007862931	4.038792e-09	8.276952e-09	0.01186948	0.008702675	1.30756e-08	1.169937e-08
	6.06618e-08	5.493072e-08	0.003045063	0.007864981	1.30756e-08	1.169937e-08	0.01153335	0.008876623
1.7e+08	0.01248116	0.008778843	1.350784e-08	1.170966e-08	0.003491588	0.008235603	6.631809e-08	5.554148e-08
	1.350784e-08	1.170966e-08	0.01199392	0.008924451	4.334242e-09	8.625701e-09	0.003388189	0.008243491
	0.003491588	0.008235603	4.334242e-09	8.625701e-09	0.01244298	0.008840904	1.425147e-08	1.182829e-08
	6.631809e-08	5.554148e-08	0.003388189	0.008243491	1.425147e-08	1.182829e-08	0.0120615	0.009044388
1.8e+08	0.01303756	0.008887714	1.464723e-08	1.17861e-08	0.003872208	0.008589313	7.21128e-08	5.576276e-08
	1.464723e-08	1.17861e-08	0.01251777	0.009062733	4.634226e-09	8.955254e-09	0.003745755	0.008604876
	0.003872208	0.008589313	4.634226e-09	8.955254e-09	0.01301655	0.008949757	1.545352e-08	1.187587e-08
	7.21128e-08	5.576276e-08	0.003745755	0.008604876	1.545352e-08	1.187587e-08	0.01258805	0.009186032
1.9e+08	0.01359353	0.008969055	1.580733e-08	1.178356e-08	0.004266915	0.008923402	7.802375e-08	5.558449e-08
	1.580733e-08	1.178356e-08	0.01303978	0.009175448	4.937908e-09	9.265096e-09	0.004116907	0.008948441
	0.004266915	0.008923402	4.937908e-09	9.265096e-09	0.01358957	0.009029603	1.667734e-08	1.183982e-08
	7.802375e-08	5.558449e-08	0.004116907	0.008948441	1.667734e-08	1.183982e-08	0.01311263	0.00930206
2e+08	0.01414835	0.009023103	1.698351e-08	1.170045e-08	0.00467475	0.009237244	8.402795e-08	5.499785e-08
	1.698351e-08	1.170045e-08	0.01355948	0.00926304	5.244159e-09	9.554984e-09	0.004500763	0.009273543
	0.00467475	0.009237244	5.244159e-09	9.554984e-09	0.01416136	0.009080779	1.791805e-08	1.171846e-08
	8.402795e-08	5.499785e-08	0.004500763	0.009273543	1.791805e-08	1.171846e-08	0.01363477	0.009392921
2.1e+08	0.01470126	0.009050111	1.817093e-08	1.153559e-08	0.005094726	0.009530257	9.010175e-08	5.399533e-08
	1.817093e-08	1.153559e-08	0.0140763	0.009325929	5.551732e-09	9.824837e-09	0.004896413	0.009579588
	0.005094726	0.009530257	5.551732e-09	9.824837e-09	0.01473112	0.009103612	1.917053e-08	1.151053e-08
	9.010175e-08	5.399533e-08	0.004896413	0.009579588	1.917053e-08	1.151053e-08	0.01415393	0.009459024
2.2e+08	0.01525146	0.009050351	1.936481e-08	1.128788e-08	0.005525825	0.009801896	9.622096e-08	5.257074e-08
	1.936481e-08	1.128788e-08	0.01458963	0.009364515	5.859493e-09	1.007451e-08	0.005302922	0.00986603
	0.005525825	0.009801896	5.859493e-09	1.007451e-08	0.01529806	0.00909843	2.042971e-08	1.121486e-08
	9.622096e-08	5.257074e-08	0.005302922	0.00986603	2.042971e-08	1.121486e-08	0.01466952	0.009500766
2.3e+08	0.01579814	0.009024122	2.056027e-08	1.095649e-08	0.005967005	0.01005166	1.02361e-07	5.071923e-08
	2.056027e-08	1.095649e-08	0.01509885	0.009379201	6.166285e-09	1.030393e-08	0.005719331	0.01013237
	0.005967005	0.01005166	6.166285e-09	1.030393e-08	0.01586131	0.00906557	2.169046e-08	1.083057e-08
	1.02361e-07	5.071923e-08	0.005719331	0.01013237	2.169046e-08	1.083057e-08	0.0151809	0.009518541
2.4e+08	0.01634044	0.008971729	2.17524e-08	1.054086e-08	0.006417198	0.01027911	1.084968e-07	4.84373e-08
	2.17524e-08	1.054086e-08	0.01560328	0.009370378	6.470939e-09	1.051309e-08	0.006144658	0.01037816
	0.006417198	0.01027911	6.470939e-09	1.051309e-08	0.01641998	0.009005375	2.294753e-08	1.035705e-08
	1.084968e-07	4.84373e-08	0.006144658	0.01037816	2.294753e-08	1.035705e-08	0.01568741	0.009512732
2.5e+08	0.0168775	0.008893506	2.293622e-08	1.00407e-08	0.006875316	0.01048383	1.146032e-07	4.572282e-08
	2.293622e-08	1.00407e-08	0.01610226	0.009338451	6.772275e-09	1.070205e-08	0.006577903	0.01060298
	0.006875316	0.01048383	6.772275e-09	1.070205e-08	0.01697319	0.008918211	2.419567e-08	9.794011e-09
	1.146032e-07	4.572282e-08	0.006577903	0.01060298	2.419567e-08	9.794011e-09	0.01618838	0.009483742
2.6e+08	0.01740847	0.0087898	2.410673e-08	9.456015e-09	0.007340252	0.01066547	1.206549e-07	4.257501e-08
	2.410673e-08	9.456015e-09	0.01659508	0.009283827	7.069112e-09	1.087091e-08	0.007018047	0.0108065
	0.007340252	0.01066547	7.069112e-09	1.087091e-08	0.01752001	0.008804455	2.542959e-08	9.141429e-09
	1.206549e-07	4.257501e-08	0.007018047	0.0108065	2.542959e-08	9.141429e-09	0.0166831	0.009431971
2.7e+08	0.01793246	0.008660984	2.525893e-08	8.787055e-09	0.007810879	0.01082372	1.266264e-07	3.899446e-08
	2.525893e-08	8.787055e-09	0.01708106	0.009206922	7.360266e-09	1.101988e-08	0.007464054	0.01098839
	0.007810879	0.01082372	7.360266e-09	1.101988e-08	0.01805954	0.008664508	2.664397e-08	8.399582e-09
	1.266264e-07	3.899446e-08	0.007464054	0.01098839	2.664397e-08	8.399582e-09	0.01717087	0.009357835
2.8e+08	0.01844861	0.00850745	2.638782e-08	8.034356e-09	0.008286059	0.01095834	1.324922e-07	3.498312e-08
	2.638782e-08	8.034356e-09	0.01755949	0.009108167	7.644561e-09	1.114921e-08	0.007914876	0.01114841
	0.008286059	0.01095834	7.644561e-09	1.114921e-08	0.01859085	0.008498796	2.783352e-08	7.569032e-09
	1.324922e-07	3.498312e-08	0.007914876	0.01114841	2.783352e-08	7.569032e-09	0.01765099	0.009261772
2.9e+08	0.01895603	0.008329616	2.748841e-08	7.198718e-09	0.008764638	0.01106913	1.382268e-07	3.05443e-08
	2.748841e-08	7.198718e-09	0.01802968	0.008988006	7.920827e-09	1.12592e-08	0.008369452	0.01128634
	0.008764638	0.01106913	7.920827e-09	1.12592e-08	0.01911301	0.008307769	2.899295e-08	6.650628e-09
	1.382268e-07	3.05443e-08	0.008369452	0.01128634	2.899295e-08	6.650628e-09	0.01812275	0.009144223
3e+08	0.01945385	0.008127921	2.855576e-08	6.281213e-09	0.009245456	0.01115595	1.438049e-07	2.568266e-08
	2.855576e-08	6.281213e-09	0.01849094	0.008846895	8.187905e-09	1.135025e-08	0.008826713	0.01140203
	0.009245456	0.01115595	8.187905e-09	1.135025e-08	0.0196251	0.008091898	3.011703e-08	5.645503e-09
	1.438049e-07	2.568266e-08	0.008826713	0.01140203	3.011703e-08	5.645503e-09	0.01858545	0.009005654
3.1e+08	0.0199412	0.007902839	2.958496e-08	5.283172e-09	0.009727344	0.0112187	1.492014e-07	2.040421e-08
	2.958496e-08	5.283172e-09	0.01894256	0.008685311	8.444652e-09	1.14228e-08	0.009285584	0.01149538
	0.009727344	0.0112187	8.444652e-09	1.14228e-08	0.02012621	0.007851691	3.120054e-08	4.55507e-09
	1.492014e-07	2.040421e-08	0.009285584	0.01149538	3.120054e-08	4.55507e-09	0.01903838	0.008846547
3.2e+08	0.02041721	0.007654863	3.057118e-08	4.206193e-09	0.01020913	0.01125735	1.543913e-07	1.471632e-08
	3.057118e-08	4.206193e-09	0.01938386	0.008503741	8.689945e-09	1.147735e-08	0.009744982	0.01156633
	0.01020913	0.01125735	8.689945e-09	1.147735e-08	0.02061542	0.007587675	3.223837e-08	3.381023e-09
	1.543913e-07	1.471632e-08	0.009744982	0.01156633	3.223837e-08	3.381023e-09	0.01948085	0.008667402
3.3e+08	0.02088103	0.007384517	3.150963e-08	3.052134e-09	0.01068964	0.01127192	1.593501e-07	8.627663e-09
	3.150963e-08	3.052134e-09	0.01981417	0.008302699	8.922681e-09	1.151448e-08	0.01020383	0.01161487
	0.01068964	0.01127192	8.922681e-09	1.151448e-08	0.02109183	0.007300416	3.322545e-08	2.125329e-09
	1.593501e-07	8.627663e-09	0.01020383	0.01161487	3.322545e-08	2.125329e-09	0.01991218	0.008468735
3.4e+08	0.02133181	0.007092357	3.239563e-08	1.823104e-09	0.01116769	0.0112625	1.640535e-07	2.148244e-09
	3.239563e-08	1.823104e-09	0.02023282	0.008082712	9.141784e-09	1.15348e-08	0.01066104	0.01164106
	0.01116769	0.0112625	9.141784e-09	1.15348e-08	0.02155457	0.006990503	3.415681e-08	7.902261e-10
	1.640535e-07	2.148244e-09	0.01066104	0.01164106	3.415681e-08	7.902261e-10	0.02033171	0.008251089
3.5e+08	0.02176871	0.006778967	3.32246e-08	5.214685e-10	0.01164213	0.01122921	1.684777e-07	-4.710636e-09
	3.32246e-08	5.214685e-10	0.02063916	0.007844328	9.346206e-09	1.153903e-08	0.01111553	0.01164499
	0.01164213	0.01122921	9.346206e-09	1.153903e-08	0.02200275	0.006658565	3.502761e-08	-6.217792e-10
	1.684777e-07	-4.710636e-09	0.01111553	0.01164499	3.502761e-08	-6.217792e-10	0.02073877	0.00801502
3.6e+08	0.02219091	0.006444962	3.399205e-08	-8.501516e-10	0.01211177	0.01117224	1.725991e-07	-1.193637e-08
	3.399205e-08	-8.501516e-10	0.02103254	0.007588115	9.534542e-09	1.15276e-08	0.01156623	0.01162682
	0.01211177	0.01117224	9.534542e-09	1.15276e-08	0.0224355	0.006305249	3.583272e-08	-2.108007e-09
	1.725991e-07	-1.193637e-08	0.01156623	0.01162682	3.583272e-08	-2.108007e-09	0.02113271	0.007761107
3.7e+08	0.02259761	0.006090984	3.469362e-08	-2.288911e-09	0.01257548	0.01109184	1.763952e-07	-1.951508e-08
	3.469362e-08	-2.288911e-09	0.02141234	0.007314658	9.706097e-09	1.150158e-08	0.01201208	0.01158675
	0.01257548	0.01109184	9.706097e-09	1.150158e-08	0.022852	0.005931248	3.656781e-08	-3.665341e-09
	1.763952e-07	-1.951508e-08	0.01201208	0.01158675	3.656781e-08	-3.665341e-09	0.02151291	0.007489948
3.8e+08	0.02298802	0.00571771	3.53251e-08	-3.791722e-09	0.01303211	0.01098831	1.798443e-07	-2.743169e-08
	3.53251e-08	-3.791722e-09	0.02177794	0.007024567	9.860005e-09	1.146188e-08	0.01245201	0.01152503
	0.01303211	0.01098831	9.860005e-09	1.146188e-08	0.02325143	0.005537278	3.722848e-08	-5.290486e-09
	1.798443e-07	-2.743169e-08	0.01245201	0.01152503	3.722848e-08	-5.290486e-09	0.02187876	0.007202162
3.9e+08	0.02336137	0.005325848	3.58824e-08	-5.355265e-09	0.01348053	0.01086199	1.829248e-07	-3.566991e-08
	3.58824e-08	-5.355265e-09	0.02212875	0.006718469	9.995365e-09	1.140943e-08	0.01288499	0.01144197
	0.01348053	0.01086199	9.995365e-09	1.140943e-08	0.02363297	0.005124087	3.781042e-08	-6.979925e-09
	1.829248e-07	-3.566991e-08	0.01288499	0.01144197	3.781042e-08	-6.979925e-09	0.02222966	0.006898389
4e+08	0.02371692	0.004916136	3.636161e-08	-6.975995e-09	0.01391962	0.01071329	1.856164e-07	-4.421229e-08
	3.636161e-08	-6.975995e-09	0.0224642	0.006397014	1.011132e-08	1.134519e-08	0.01330998	0.01133791
	0.01391962	0.01071329	1.011132e-08	1.134519e-08	0.02399587	0.004692461	3.830948e-08	-8.729903e-09
	1.856164e-07	-4.421229e-08	0.01330998	0.01133791	3.830948e-08	-8.729903e-09	0.02256503	0.006579288
4.1e+08	0.02405395	0.004489341	3.675898e-08	-8.650154e-09	0.0143483	0.01054268	1.878991e-07	-5.304024e-08
	3.675898e-08	-8.650154e-09	0.02278372	0.00606087	1.020707e-08	1.127019e-08	0.01372598	0.01121325
	0.0143483	0.01054268	1.020707e-08	1.127019e-08	0.02433936	0.004243212	3.872168e-08	-1.053644e-08
	1.878991e-07	-5.304024e-08	0.01372598	0.01121325	3.872168e-08	-1.053644e-08	0.02288434	0.00624554
4.2e+08	0.02437176	0.004046258	3.707093e-08	-1.037377e-08	0.01476549	0.01035067	1.897543e-07	-6.213407e-08
	3.707093e-08	-1.037377e-08	0.0230868	0.005710725	1.028184e-08	1.118548e-08	0.01413199	0.01106846
	0.01476549	0.01035067	1.028184e-08	1.118548e-08	0.02466273	0.003777179	3.904326e-08	-1.239533e-08
	1.897543e-07	-6.213407e-08	0.01413199	0.01106846	3.904326e-08	-1.239533e-08	0.02318703	0.00589784
4.3e+08	0.02466969	0.003587715	3.729408e-08	-1.214268e-08	0.01517015	0.01013782	1.911639e-07	-7.147301e-08
	3.729408e-08	-1.214268e-08	0.0233729	0.005347286	1.033494e-08	1.10922e-08	0.01452703	0.01090401
	0.01517015	0.01013782	1.033494e-08	1.10922e-08	0.0249653	0.003295241	3.927064e-08	-1.430217e-08
	1.911639e-07	-7.147301e-08	0.01452703	0.01090401	3.927064e-08	-1.430217e-08	0.0234726	0.005536911
4.4e+08	0.0249471	0.003114564	3.742526e-08	-1.395253e-08	0.01556125	0.009904732	1.92111e-07	-8.103532e-08
	3.742526e-08	-1.395253e-08	0.02364155	0.00497128	1.036572e-08	1.099148e-08	0.01491017	0.01072046
	0.01556125	0.009904732	1.036572e-08	1.099148e-08	0.02524639	0.002798296	3.940045e-08	-1.625235e-08
	1.92111e-07	-8.103532e-08	0.01491017	0.01072046	3.940045e-08	-1.625235e-08	0.02374058	0.005163484
4.5e+08	0.02520338	0.002627688	3.746149e-08	-1.579876e-08	0.01593782	0.00965208	1.925797e-07	-9.079826e-08
	3.746149e-08	-1.579876e-08	0.02389229	0.004583451	1.037358e-08	1.088452e-08	0.01528048	0.01051838
	0.01593782	0.00965208	1.037358e-08	1.088452e-08	0.02550539	0.002287275	3.942955e-08	-1.824104e-08
	1.925797e-07	-9.079826e-08	0.01528048	0.01051838	3.942955e-08	-1.824104e-08	0.0239905	0.004778318
4.6e+08	0.02543797	0.002127992	3.740014e-08	-1.767662e-08	0.01629889	0.009380568	1.925554e-07	-1.007382e-07
	3.740014e-08	-1.767662e-08	0.02412467	0.004184561	1.035798e-08	1.077256e-08	0.01563706	0.01029841
	0.01629889	0.009380568	1.035798e-08	1.077256e-08	0.0257417	0.001763134	3.935515e-08	-2.026323e-08
	1.925554e-07	-1.007382e-07	0.01563706	0.01029841	3.935515e-08	-2.026323e-08	0.02422192	0.004382182
4.7e+08	0.02565032	0.001616408	3.722378e-08	-1.958791e-08	0.01664353	0.009090949	1.920138e-07	-1.10829e-07
	3.722378e-08	-1.958791e-08	0.02433829	0.003775391	1.031852e-08	1.065733e-08	0.01597906	0.01006122
	0.01664353	0.009090949	1.031852e-08	1.065733e-08	0.02595477	0.001226855	3.915951e-08	-2.232038e-08
	1.920138e-07	-1.10829e-07	0.01597906	0.01006122	3.915951e-08	-2.232038e-08	0.02443444	0.003975862
4.8e+08	0.02583992	0.001093893	3.694241e-08	-2.152129e-08	0.01697085	0.008784022	1.909516e-07	-1.210459e-07
	3.694241e-08	-2.152129e-08	0.02453277	0.003356733	1.025477e-08	1.053976e-08	0.01630565	0.009807526
	0.01697085	0.008784022	1.025477e-08	1.053976e-08	0.02614409	0.000679446	3.885263e-08	-2.440091e-08
	1.909516e-07	-1.210459e-07	0.01630565	0.009807526	3.885263e-08	-2.440091e-08	0.02462769	0.003560165
