!$
! Info: Touchstone file created by Circ.  Input file=Tx_2in_Rx_85ohms_TxVia_35mils_RxVia_45mils.circ
!$
# Hz S RI R 50
0	0.001747029	4.792136e-26	7.77051e-10	1.724084e-28	3.079631e-05	3.185284e-24	2.580896e-09	7.29205e-29
	7.770518e-10	1.72291e-28	0.001744926	5.327654e-26	4.115335e-10	2.49757e-28	3.015005e-05	3.841486e-24
	3.1307e-05	3.229812e-24	4.115331e-10	2.49795e-28	0.001759553	4.659428e-26	7.975968e-10	1.669458e-28
	2.580897e-09	7.290915e-29	2.830357e-05	3.860662e-24	7.975971e-10	1.669076e-28	0.001758165	4.989016e-26
1e+07	0.002683443	-0.001506403	1.007878e-09	1.468583e-09	4.079308e-05	0.0005568547	4.024431e-09	6.990365e-09
	1.007878e-09	1.468583e-09	0.002410197	-0.001554503	5.954129e-10	8.700347e-10	5.572186e-05	0.0005582375
	4.082296e-05	0.0005568498	5.954129e-10	8.700347e-10	0.002431594	-0.001582243	1.050315e-09	1.524225e-09
	4.024431e-09	6.990365e-09	5.566233e-05	0.0005582477	1.050315e-09	1.524225e-09	0.002418539	-0.001544749
2e+07	0.00319562	-0.003700419	1.413314e-09	2.57215e-09	8.134716e-05	0.001111534	5.984987e-09	1.214765e-08
	1.413314e-09	2.57215e-09	0.002936459	-0.003682418	7.847618e-10	1.512502e-09	0.0001035698	0.001101898
	8.134847e-05	0.001111512	7.847618e-10	1.512503e-09	0.00293645	-0.003730619	1.482331e-09	2.655276e-09
	5.984987e-09	1.214765e-08	0.0001035621	0.001101932	1.482331e-09	2.655276e-09	0.002946613	-0.003661389
3e+07	0.003437613	-0.006125724	1.824484e-09	3.606763e-09	0.0001591216	0.001652235	8.023324e-09	1.700387e-08
	1.824484e-09	3.606762e-09	0.003183626	-0.006087181	9.434388e-10	2.125754e-09	0.0001732754	0.001639266
	0.0001591155	0.001652233	9.434387e-10	2.125754e-09	0.003173265	-0.00614026	1.917159e-09	3.713514e-09
	8.023324e-09	1.700387e-08	0.0001732754	0.001639271	1.917159e-09	3.713514e-09	0.003195203	-0.006056588
4e+07	0.00348507	-0.008637075	2.295051e-09	4.586732e-09	0.0002603265	0.002184897	1.038738e-08	2.160763e-08
	2.295051e-09	4.586732e-09	0.003229566	-0.008586435	1.105254e-09	2.719219e-09	0.0002656265	0.002170562
	0.0002603271	0.002184901	1.105254e-09	2.719219e-09	0.003217009	-0.008639856	2.414668e-09	4.714277e-09
	1.038738e-08	2.160763e-08	0.0002656211	0.00217056	2.414668e-09	4.714277e-09	0.003242303	-0.008546943
5e+07	0.003365618	-0.01119373	2.826776e-09	5.50963e-09	0.0003849483	0.002709395	1.30892e-08	2.594018e-08
	2.826776e-09	5.50963e-09	0.003102617	-0.01113395	1.27323e-09	3.292568e-09	0.0003804166	0.002695015
	0.0003849505	0.002709396	1.27323e-09	3.292568e-09	0.003094908	-0.01118594	2.977301e-09	5.654791e-09
	1.30892e-08	2.594018e-08	0.0003804129	0.002695014	2.977301e-09	5.654791e-09	0.003116193	-0.01108602
6e+07	0.003093148	-0.01377349	3.416679e-09	6.377463e-09	0.0005326371	0.003225106	1.611636e-08	3.000325e-08
	3.416679e-09	6.377463e-09	0.002817387	-0.01370554	1.447165e-09	3.848228e-09	0.0005172494	0.003211826
	0.0005326356	0.003225105	1.447165e-09	3.848228e-09	0.002820646	-0.01375548	3.602009e-09	6.537005e-09
	1.611636e-08	3.000325e-08	0.0005172516	0.003211825	3.602009e-09	6.537005e-09	0.00283146	-0.01364953
7e+07	0.00267607	-0.01636136	4.063548e-09	7.191827e-09	0.0007029871	0.003731245	1.946167e-08	3.379748e-08
	4.063547e-09	7.191827e-09	0.002382646	-0.01628535	1.62767e-09	4.38841e-09	0.0006757111	0.003720167
	0.000702981	0.003731245	1.62767e-09	4.38841e-09	0.002402502	-0.01633307	4.287485e-09	7.362523e-09
	1.946167e-08	3.379748e-08	0.0006757186	0.003720164	4.287485e-09	7.362523e-09	0.002396825	-0.01622159
8e+07	0.002120165	-0.01894581	4.766929e-09	7.952411e-09	0.0008955535	0.00422693	2.31205e-08	3.731529e-08
	4.766929e-09	7.952411e-09	0.001804269	-0.0188613	1.815624e-09	4.914308e-09	0.0008553646	0.004219193
	0.0008955455	0.004226931	1.815624e-09	4.914308e-09	0.001846191	-0.01890681	5.033234e-09	8.130976e-09
	2.31205e-08	3.731529e-08	0.0008553739	0.004219187	5.033234e-09	8.130976e-09	0.001818083	-0.01879007
9e+07	0.00142987	-0.02151723	5.526296e-09	8.657107e-09	0.001109836	0.004711246	2.708647e-08	4.054185e-08
	5.526296e-09	8.657107e-09	0.001086698	-0.02142339	2.01175e-09	5.426178e-09	0.001055739	0.004708119
	0.00110983	0.004711249	2.01175e-09	5.426178e-09	0.001156193	-0.02146647	5.838716e-09	8.840103e-09
	2.708647e-08	4.054185e-08	0.001055746	0.004708113	5.838716e-09	8.840103e-09	0.001099604	-0.02134489
1e+08	0.000608915	-0.0240674	6.341237e-09	9.302405e-09	0.001345332	0.005183532	3.134968e-08	4.345768e-08
	6.341237e-09	9.302405e-09	0.0002335553	-0.02396362	2.216165e-09	5.923717e-09	0.001276464	0.005186831
	0.001345332	0.005183532	2.216165e-09	5.923717e-09	0.0003368579	-0.02400106	6.703662e-09	9.486084e-09
	3.134968e-08	4.345768e-08	0.001276464	0.005186831	6.703662e-09	9.486084e-09	0.0002449442	-0.02387803
1.1e+08	-0.0003391649	-0.02659513	7.203826e-09	9.887857e-09	0.001602018	0.005642048	3.587244e-08	4.604323e-08
	7.203826e-09	9.887857e-09	-0.0007525343	-0.02647638	2.425129e-09	6.404577e-09	0.001519473	0.005652283
	0.001602018	0.005642048	2.425129e-09	6.404577e-09	-0.0005985416	-0.02651551	7.620904e-09	1.006857e-08
	3.587244e-08	4.604323e-08	0.001519473	0.005652283	7.620904e-09	1.006857e-08	-0.000742804	-0.02638272
1.2e+08	-0.001412745	-0.02908363	8.109417e-09	1.041221e-08	0.001878328	0.006085622	4.063988e-08	4.829887e-08
	8.109417e-09	1.041221e-08	-0.001867442	-0.02894697	2.640305e-09	6.871513e-09	0.00178086	0.006103042
	0.001878328	0.006085622	2.640305e-09	6.871513e-09	-0.001660777	-0.02899668	8.583648e-09	1.05858e-08
	4.063988e-08	4.829887e-08	0.00178086	0.006103042	8.583648e-09	1.05858e-08	-0.001859838	-0.02884563
1.3e+08	-0.002607286	-0.03152737	9.056352e-09	1.087295e-08	0.002173568	0.006513648	4.563732e-08	5.02108e-08
	9.056352e-09	1.087295e-08	-0.003106896	-0.03137001	2.861278e-09	7.324493e-09	0.002060101	0.006539118
	0.002173568	0.006513648	2.861278e-09	7.324493e-09	-0.002844988	-0.03143574	9.590286e-09	1.103507e-08
	4.563732e-08	5.02108e-08	0.002060101	0.006539118	9.590286e-09	1.103507e-08	-0.003102059	-0.03126118
1.4e+08	-0.003918786	-0.03392105	1.004194e-08	1.126753e-08	0.00248693	0.006925271	5.084773e-08	5.176478e-08
	1.004194e-08	1.126753e-08	-0.004466819	-0.0337398	3.087694e-09	7.763269e-09	0.002356488	0.006959843
	0.002486929	0.00692527	3.087694e-09	7.763269e-09	-0.004147093	-0.03382644	1.063797e-08	1.141365e-08
	5.084773e-08	5.176478e-08	0.002356488	0.006959843	1.063797e-08	1.141365e-08	-0.004465431	-0.03362345
1.5e+08	-0.005343555	-0.03625962	1.106304e-08	1.159333e-08	0.002817541	0.00731964	5.625212e-08	5.294672e-08
	1.106304e-08	1.159333e-08	-0.005943298	-0.03605087	3.319071e-09	8.187526e-09	0.002669245	0.007364487
	0.002817541	0.00731964	3.319071e-09	8.187526e-09	-0.005563315	-0.03616323	1.172335e-08	1.171883e-08
	5.625212e-08	5.294672e-08	0.002669245	0.007364487	1.172335e-08	1.171883e-08	-0.005946018	-0.03592679
1.6e+08	-0.006878044	-0.03853821	1.211609e-08	1.184785e-08	0.003164482	0.007695943	6.182975e-08	5.374325e-08
	1.211609e-08	1.184785e-08	-0.007532494	-0.03829803	3.55481e-09	8.596936e-09	0.002997541	0.007752323
	0.003164482	0.007695943	3.55481e-09	8.596936e-09	-0.007090018	-0.0384409	1.284263e-08	1.194793e-08
	6.182975e-08	5.374325e-08	0.002997541	0.007752323	1.284263e-08	1.194793e-08	-0.007539922	-0.03816587
1.7e+08	-0.00851875	-0.04075212	1.319724e-08	1.202869e-08	0.00352679	0.008053408	6.755846e-08	5.414202e-08
	1.319724e-08	1.202869e-08	-0.009230579	-0.0404763	3.794215e-09	8.991189e-09	0.003340502	0.008122657
	0.00352679	0.008053408	3.794215e-09	8.991189e-09	-0.008723611	-0.04065454	1.399171e-08	1.209842e-08
	6.755846e-08	5.414202e-08	0.003340502	0.008122657	1.399171e-08	1.209842e-08	-0.009243242	-0.04033564
1.8e+08	-0.01026214	-0.04289682	1.430235e-08	1.213367e-08	0.003903463	0.008391314	7.34149e-08	5.413188e-08
	1.430235e-08	1.213367e-08	-0.01103368	-0.04258091	4.036513e-09	9.370012e-09	0.003697215	0.008474827
	0.003903463	0.008391314	4.036513e-09	9.370012e-09	-0.01046049	-0.04279949	1.516618e-08	1.216798e-08
	7.34149e-08	5.413188e-08	0.003697215	0.008474827	1.516618e-08	1.216798e-08	-0.01105204	-0.04243127
1.9e+08	-0.01210461	-0.04496792	1.542707e-08	1.216082e-08	0.004293466	0.008708988	7.937468e-08	5.370306e-08
	1.542707e-08	1.216082e-08	-0.01293787	-0.04460733	4.280872e-09	9.733178e-09	0.004066734	0.008808217
	0.004293466	0.008708988	4.280872e-09	9.733178e-09	-0.01229699	-0.04487125	1.636139e-08	1.215452e-08
	7.937468e-08	5.370306e-08	0.004066734	0.008808217	1.636139e-08	1.215452e-08	-0.01296231	-0.04444818
2e+08	-0.01404247	-0.04696121	1.656685e-08	1.210843e-08	0.004695731	0.009005809	8.541266e-08	5.284723e-08
	1.656685e-08	1.210843e-08	-0.01493912	-0.04655118	4.526416e-09	1.008051e-08	0.004448082	0.009122254
	0.004695731	0.009005809	4.526416e-09	1.008051e-08	-0.01422937	-0.04686555	1.75725e-08	1.205622e-08
	8.541266e-08	5.284723e-08	0.004448082	0.009122254	1.75725e-08	1.205622e-08	-0.01496996	-0.04638198
2.1e+08	-0.0160719	-0.04887267	1.771698e-08	1.197505e-08	0.00510916	0.009281213	9.150302e-08	5.155754e-08
	1.771698e-08	1.197505e-08	-0.0170333	-0.04840833	4.772234e-09	1.041189e-08	0.004840255	0.009416415
	0.00510916	0.009281213	4.772234e-09	1.041189e-08	-0.01625379	-0.04877831	1.879451e-08	1.187154e-08
	9.150302e-08	5.155754e-08	0.004840255	0.009416415	1.879451e-08	1.187154e-08	-0.01707081	-0.0482285
2.2e+08	-0.01818899	-0.05069844	1.887265e-08	1.175947e-08	0.00553263	0.009534689	9.761944e-08	4.982865e-08
	1.887265e-08	1.175947e-08	-0.01921616	-0.05017483	5.017388e-09	1.072725e-08	0.005242223	0.009690226
	0.00553263	0.009534689	5.017388e-09	1.072725e-08	-0.01836631	-0.05060564	2.002225e-08	1.159919e-08
	9.761944e-08	4.982865e-08	0.005242223	0.009690226	2.002225e-08	1.159919e-08	-0.01926056	-0.04998379
2.3e+08	-0.02038969	-0.05243485	2.002892e-08	1.14608e-08	0.005964995	0.009765784	1.037352e-07	4.765675e-08
	2.002892e-08	1.14608e-08	-0.02148334	-0.05184692	5.260925e-09	1.102659e-08	0.005652936	0.009943265
	0.005964995	0.009765784	5.260925e-09	1.102659e-08	-0.02056286	-0.05234383	2.125047e-08	1.123823e-08
	1.037352e-07	4.765675e-08	0.005652936	0.009943265	2.125047e-08	1.123823e-08	-0.02153481	-0.05164409
2.4e+08	-0.02266984	-0.05407843	2.118077e-08	1.10784e-08	0.006405087	0.009974104	1.098234e-07	4.503959e-08
	2.118077e-08	1.10784e-08	-0.02383039	-0.05342107	5.501874e-09	1.130995e-08	0.006071323	0.01017516
	0.006405087	0.009974104	5.501874e-09	1.130995e-08	-0.02283928	-0.05398938	2.247382e-08	1.078797e-08
	1.098234e-07	4.503959e-08	0.006071323	0.01017516	2.247382e-08	1.078797e-08	-0.02388907	-0.05320586
2.5e+08	-0.02502518	-0.05562591	2.232313e-08	1.061192e-08	0.006851723	0.01015931	1.158568e-07	4.197644e-08
	2.232313e-08	1.061192e-08	-0.02625272	-0.05489396	5.739261e-09	1.157744e-08	0.0064963	0.01038561
	0.006851723	0.01015931	5.739261e-09	1.157744e-08	-0.0251913	-0.05553898	2.368689e-08	1.024805e-08
	1.158568e-07	4.197644e-08	0.0064963	0.01038561	2.368689e-08	1.024805e-08	-0.02631871	-0.05466577
2.6e+08	-0.02745134	-0.05707421	2.345088e-08	1.00613e-08	0.007303704	0.01032114	1.218083e-07	3.846809e-08
	2.345088e-08	1.00613e-08	-0.02874564	-0.05626247	5.972107e-09	1.182923e-08	0.006926766	0.01057433
	0.007303704	0.01032114	5.972107e-09	1.182923e-08	-0.02761453	-0.05698955	2.48842e-08	9.618412e-09
	1.218083e-07	3.846809e-08	0.006926766	0.01057433	2.48842e-08	9.618412e-09	-0.028819	-0.05602069
2.7e+08	-0.02994382	-0.05842047	2.455886e-08	9.426749e-09	0.00775982	0.01045937	1.276505e-07	3.451691e-08
	2.455886e-08	9.426749e-09	-0.03130438	-0.05752372	6.199431e-09	1.206556e-08	0.007361614	0.01074114
	0.00775982	0.01045937	6.199431e-09	1.206556e-08	-0.0301045	-0.05833818	2.606027e-08	8.89929e-09
	1.276505e-07	3.451691e-08	0.007361614	0.01074114	2.606027e-08	8.89929e-09	-0.03138514	-0.05726775
2.8e+08	-0.03249808	-0.05966203	2.564189e-08	8.708791e-09	0.008218854	0.01057385	1.333563e-07	3.012674e-08
	2.564189e-08	8.708791e-09	-0.03392404	-0.05867503	6.420261e-09	1.228669e-08	0.007799728	0.01088588
	0.008218854	0.01057385	6.420261e-09	1.228669e-08	-0.03265665	-0.05958217	2.720957e-08	8.091242e-09
	1.333563e-07	3.012674e-08	0.007799728	0.01088588	2.720957e-08	8.091242e-09	-0.03401221	-0.05840425
2.9e+08	-0.03510947	-0.06079644	2.669481e-08	7.908223e-09	0.008679583	0.01066449	1.388989e-07	2.530297e-08
	2.669481e-08	7.908223e-09	-0.03659968	-0.05971397	6.633631e-09	1.249297e-08	0.008239987	0.01100846
	0.008679583	0.01066449	6.633631e-09	1.249297e-08	-0.03526632	-0.06071907	2.832661e-08	7.19513e-09
	1.388989e-07	2.530297e-08	0.008239987	0.01100846	2.832661e-08	7.19513e-09	-0.03669522	-0.05942775
3e+08	-0.03777326	-0.06182147	2.771247e-08	7.02614e-09	0.009140786	0.01073127	1.442514e-07	2.005247e-08
	2.771247e-08	7.02614e-09	-0.03932625	-0.06063832	6.838587e-09	1.26848e-08	0.008681271	0.01110884
	0.009140786	0.01073127	6.838587e-09	1.26848e-08	-0.03792877	-0.06174659	2.940589e-08	6.212128e-09
	1.442514e-07	2.005247e-08	0.008681271	0.01110884	2.940589e-08	6.212128e-09	-0.0394291	-0.06033604
3.1e+08	-0.04048465	-0.06273508	2.868975e-08	6.063926e-09	0.009601241	0.01077422	1.493876e-07	1.438362e-08
	2.868975e-08	6.063926e-09	-0.04209865	-0.06144608	7.03419e-09	1.286264e-08	0.00912246	0.01118705
	0.009601241	0.01077422	7.03419e-09	1.286264e-08	-0.04063923	-0.06266268	3.044196e-08	5.143719e-09
	1.493876e-07	1.438362e-08	0.00912246	0.01118705	3.044196e-08	5.143719e-09	-0.0422087	-0.06112712
3.2e+08	-0.04323881	-0.06353547	2.962158e-08	5.023253e-09	0.01005973	0.01079343	1.542814e-07	8.306232e-09
	2.962158e-08	5.023253e-09	-0.04491172	-0.06213552	7.21952e-09	1.302701e-08	0.009562442	0.01124317
	0.01005973	0.01079343	7.21952e-09	1.302701e-08	-0.04339282	-0.0634655	3.142942e-08	3.991695e-09
	1.542814e-07	8.306232e-09	0.009562442	0.01124317	3.142942e-08	3.991695e-09	-0.04502882	-0.06179922
3.3e+08	-0.04603083	-0.06422104	3.050295e-08	3.90611e-09	0.01051505	0.01078906	1.589074e-07	1.831589e-09
	3.050295e-08	3.90611e-09	-0.04776023	-0.06270508	7.393684e-09	1.317847e-08	0.01000011	0.01127732
	0.01051505	0.01078906	7.393684e-09	1.317847e-08	-0.04618463	-0.06415344	3.236296e-08	2.758179e-09
	1.589074e-07	1.831589e-09	0.01000011	0.01127732	3.236296e-08	2.758179e-09	-0.04788423	-0.06235083
3.4e+08	-0.04885576	-0.06479042	3.13223e-08	2.707104e-09	0.010966	0.01076134	1.632345e-07	-5.0302e-09
	3.13223e-08	2.707104e-09	-0.05063895	-0.06315349	7.555708e-09	1.331784e-08	0.01043437	0.01128969
	0.010966	0.01076134	7.555708e-09	1.331784e-08	-0.04900972	-0.06472507	3.323057e-08	1.437906e-09
	1.632345e-07	-5.0302e-09	0.01043437	0.01128969	3.323057e-08	1.437906e-09	-0.05076963	-0.06278064
3.5e+08	-0.05170864	-0.06524242	3.207984e-08	1.435227e-09	0.01141141	0.01071053	1.672433e-07	-1.226253e-08
	3.207984e-08	1.435227e-09	-0.05354259	-0.06347967	7.704841e-09	1.344566e-08	0.01086413	0.01128052
	0.01141141	0.01071053	7.704841e-09	1.344566e-08	-0.0518631	-0.06517921	3.403227e-08	4.006604e-11
	1.672433e-07	-1.226253e-08	0.01086413	0.01128052	3.403227e-08	4.006604e-11	-0.05367969	-0.0630876
3.6e+08	-0.05458446	-0.06557611	3.277182e-08	9.447651e-11	0.0118501	0.01063698	1.709111e-07	-1.984952e-08
	3.277182e-08	9.447651e-11	-0.05646585	-0.06368279	7.840292e-09	1.356265e-08	0.01128834	0.01125012
	0.0118501	0.01063698	7.840292e-09	1.356265e-08	-0.05473975	-0.06551487	3.4764e-08	-1.43115e-09
	1.709111e-07	-1.984952e-08	0.01128834	0.01125012	3.4764e-08	-1.43115e-09	-0.05660908	-0.06327087
3.7e+08	-0.0574782	-0.06579073	3.339364e-08	-1.312004e-09	0.01228094	0.01054109	1.742152e-07	-2.777439e-08
	3.339364e-08	-1.312004e-09	-0.0594034	-0.06376225	7.961295e-09	1.366961e-08	0.01170595	0.01119882
	0.01228094	0.01054109	7.961295e-09	1.366961e-08	-0.05763464	-0.06573131	3.542088e-08	-2.972395e-09
	1.742152e-07	-2.777439e-08	0.01170595	0.01119882	3.542088e-08	-2.972395e-09	-0.05955245	-0.06332987
3.8e+08	-0.06038484	-0.06588577	3.394085e-08	-2.780798e-09	0.0127028	0.01042329	1.771336e-07	-3.601908e-08
	3.394085e-08	-2.780798e-09	-0.06234994	-0.06371768	8.067121e-09	1.376735e-08	0.01211592	0.01112702
	0.0127028	0.01042329	8.067121e-09	1.376735e-08	-0.06054274	-0.06582795	3.599819e-08	-4.580032e-09
	1.771336e-07	-3.601908e-08	0.01211592	0.01112702	3.599819e-08	-4.580032e-09	-0.06250445	-0.06326421
3.9e+08	-0.06329936	-0.0658609	3.440915e-08	-4.308219e-09	0.0131146	0.01028409	1.796454e-07	-4.456429e-08
	3.440915e-08	-4.308219e-09	-0.06530016	-0.06354893	8.157088e-09	1.385678e-08	0.01251726	0.01103517
	0.0131146	0.01028409	8.157088e-09	1.385678e-08	-0.06345899	-0.06580447	3.649135e-08	-6.25014e-09
	1.796454e-07	-4.456429e-08	0.01251726	0.01103517	3.649135e-08	-6.25014e-09	-0.06545971	-0.06307378
4e+08	-0.06621674	-0.06571602	3.479445e-08	-5.890322e-09	0.01351528	0.01012405	1.817304e-07	-5.338954e-08
	3.479445e-08	-5.890322e-09	-0.06824875	-0.06325609	8.230557e-09	1.393883e-08	0.012909	0.01092377
	0.01351528	0.01012405	8.230557e-09	1.393883e-08	-0.06637836	-0.06566075	3.689602e-08	-7.978524e-09
	1.817304e-07	-5.338954e-08	0.012909	0.01092377	3.689602e-08	-7.978524e-09	-0.06841291	-0.06275866
4.1e+08	-0.06913197	-0.06545123	3.509281e-08	-7.522906e-09	0.01390379	0.009943789	1.833698e-07	-6.247321e-08
	3.509281e-08	-7.522906e-09	-0.07119046	-0.06283945	8.286943e-09	1.401446e-08	0.01329018	0.01079334
	0.01390379	0.009943789	8.286943e-09	1.401446e-08	-0.06929583	-0.06539686	3.720804e-08	-9.76072e-09
	1.833698e-07	-6.247321e-08	0.01329018	0.01079334	3.720804e-08	-9.76072e-09	-0.07135875	-0.06231917
4.2e+08	-0.07204007	-0.06506684	3.530053e-08	-9.201527e-09	0.01427914	0.009743951	1.845456e-07	-7.17926e-08
	3.530053e-08	-9.201527e-09	-0.07412005	-0.06229955	8.32571e-09	1.40847e-08	0.01365989	0.01064448
	0.01427914	0.009743951	8.32571e-09	1.40847e-08	-0.07220641	-0.0650131	3.742345e-08	-1.159201e-08
	1.845456e-07	-7.17926e-08	0.01365989	0.01064448	3.742345e-08	-1.159201e-08	-0.07429196	-0.06175586
4.3e+08	-0.07493612	-0.06456337	3.541412e-08	-1.092151e-08	0.01464037	0.009525245	1.852411e-07	-8.132399e-08
	3.541412e-08	-1.092151e-08	-0.07703233	-0.06163712	8.346381e-09	1.415059e-08	0.01401725	0.01047781
	0.01464037	0.009525245	8.346381e-09	1.415059e-08	-0.07510512	-0.06450997	3.753856e-08	-1.346742e-08
	1.852411e-07	-8.132399e-08	0.01401725	0.01047781	3.753856e-08	-1.346742e-08	-0.0772073	-0.06106949
4.4e+08	-0.07781519	-0.06394152	3.543034e-08	-1.267794e-08	0.01498655	0.009288422	1.854409e-07	-9.104267e-08
	3.543034e-08	-1.267794e-08	-0.07992216	-0.06085314	8.348533e-09	1.421324e-08	0.0143614	0.010294
	0.01498655	0.009288422	8.348533e-09	1.421324e-08	-0.07798706	-0.06388816	3.754993e-08	-1.538176e-08
	1.854409e-07	-9.104267e-08	0.0143614	0.010294	3.754993e-08	-1.538176e-08	-0.08009961	-0.06026106
4.5e+08	-0.08067243	-0.06320221	3.534618e-08	-1.446572e-08	0.0153168	0.009034275	1.851306e-07	-1.009231e-07
	3.534618e-08	-1.446572e-08	-0.08278446	-0.05994877	8.331809e-09	1.427375e-08	0.01469152	0.01009375
	0.0153168	0.009034275	8.331809e-09	1.427375e-08	-0.08084733	-0.06314858	3.745436e-08	-1.732959e-08
	1.851306e-07	-1.009231e-07	0.01469152	0.01009375	3.745436e-08	-1.732959e-08	-0.08296376	-0.05933174
4.6e+08	-0.08350305	-0.06234654	3.51589e-08	-1.627952e-08	0.01563027	0.008763638	1.842973e-07	-1.109387e-07
	3.51589e-08	-1.627952e-08	-0.08561422	-0.0589254	8.295909e-09	1.433328e-08	0.01500686	0.009877807
	0.01563027	0.008763638	8.295909e-09	1.433328e-08	-0.08368111	-0.06229232	3.724895e-08	-1.930528e-08
	1.842973e-07	-1.109387e-07	0.01500686	0.009877807	3.724895e-08	-1.930528e-08	-0.08579472	-0.05828296
4.7e+08	-0.08630228	-0.06137583	3.486606e-08	-1.811386e-08	0.01592618	0.008477385	1.829295e-07	-1.210624e-07
	3.486606e-08	-1.811386e-08	-0.08840649	-0.05778461	8.240603e-09	1.439299e-08	0.01530665	0.009646951
	0.01592618	0.008477385	8.240603e-09	1.439299e-08	-0.08648364	-0.06132068	3.693109e-08	-2.130301e-08
	1.829295e-07	-1.210624e-07	0.01530665	0.009646951	3.693109e-08	-2.130301e-08	-0.08858751	-0.05711633
4.8e+08	-0.08906548	-0.06029155	3.446548e-08	-1.996306e-08	0.01620375	0.008176423	1.810169e-07	-1.312662e-07
	3.446548e-08	-1.996306e-08	-0.09115644	-0.05652818	8.165726e-09	1.445409e-08	0.01559022	0.009401987
