!$
! Info: Touchstone file created by Circ.  Input file=Tx_2in_Rx_85ohms_TxVia_35mils_RxVia_45mils.circ
!$
# Hz S RI R 50
0	0.001746556	4.623766e-26	-1.099842e-05	3.889765e-24	3.029501e-05	3.173036e-24	-1.097913e-05	1.534669e-24
	-1.099843e-05	3.890332e-24	0.001744926	5.327654e-26	-1.101077e-05	5.433594e-24	3.015005e-05	3.841486e-24
	3.010845e-05	3.159716e-24	-1.101077e-05	5.433114e-24	0.001757546	4.625552e-26	-1.099685e-05	3.735869e-24
	-1.097914e-05	1.535114e-24	2.830357e-05	3.860662e-24	-1.099685e-05	3.736228e-24	0.001758165	4.989016e-26
1e+07	0.002405173	-0.001552694	-2.278501e-05	-6.758888e-06	5.651444e-05	0.0005582312	-1.671531e-06	-5.894981e-07
	-2.278501e-05	-6.758888e-06	0.002410197	-0.001554503	-9.199098e-06	1.528545e-05	5.572186e-05	0.0005582375
	5.650925e-05	0.0005582323	-9.199097e-06	1.528545e-05	0.002427466	-0.001539824	-2.278826e-05	-6.782142e-06
	-1.67153e-06	-5.894981e-07	5.566233e-05	0.0005582477	-2.278826e-05	-6.782142e-06	0.002418539	-0.001544749
2e+07	0.002939678	-0.003676355	-2.158386e-05	6.629887e-07	0.0001066183	0.001101688	-1.013962e-06	-3.588311e-06
	-2.158386e-05	6.629886e-07	0.002936459	-0.003682418	-1.369143e-05	1.967743e-05	0.0001035698	0.001101898
	0.0001066197	0.001101692	-1.369143e-05	1.967743e-05	0.002962119	-0.003654221	-2.158688e-05	6.125459e-07
	-1.013962e-06	-3.588312e-06	0.0001035621	0.001101932	-2.158688e-05	6.125453e-07	0.002946613	-0.003661389
3e+07	0.003199205	-0.006079358	-2.096653e-05	-1.43146e-06	0.0001799969	0.001638598	-3.072085e-06	-4.64386e-06
	-2.096653e-05	-1.43146e-06	0.003183626	-0.006087181	-1.650602e-05	2.38428e-05	0.0001732754	0.001639266
	0.0001799994	0.001638597	-1.650602e-05	2.38428e-05	0.003222565	-0.006046575	-2.096956e-05	-1.506593e-06
	-3.072085e-06	-4.64386e-06	0.0001732754	0.001639271	-2.096956e-05	-1.506593e-06	0.003195203	-0.006056588
4e+07	0.00326184	-0.008577938	-2.053222e-05	-2.6798e-06	0.0002774233	0.002169091	-4.816124e-06	-4.951892e-06
	-2.053222e-05	-2.6798e-06	0.003229566	-0.008586435	-1.828402e-05	2.745577e-05	0.0002656265	0.002170562
	0.0002774239	0.002169089	-1.828402e-05	2.745577e-05	0.003286813	-0.008534519	-2.053449e-05	-2.780233e-06
	-4.816124e-06	-4.951891e-06	0.0002656211	0.00217056	-2.053449e-05	-2.780233e-06	0.003242303	-0.008546943
5e+07	0.003156077	-0.01112632	-2.02316e-05	-3.57444e-06	0.0003986601	0.002692287	-6.346009e-06	-4.85231e-06
	-2.02316e-05	-3.57444e-06	0.003102617	-0.01113395	-1.928478e-05	3.057276e-05	0.0003804166	0.002695015
	0.0003986602	0.002692286	-1.928478e-05	3.057276e-05	0.003183178	-0.01107253	-2.023235e-05	-3.701008e-06
	-6.346009e-06	-4.85231e-06	0.0003804129	0.002695014	-2.023235e-05	-3.701008e-06	0.003116193	-0.01108602
6e+07	0.002896231	-0.0137006	-2.00375e-05	-4.273182e-06	0.0005432598	0.00320729	-7.708891e-06	-4.465682e-06
	-2.00375e-05	-4.273182e-06	0.002817387	-0.01370554	-1.965583e-05	3.319503e-05	0.0005172494	0.003211826
	0.0005432608	0.00320729	-1.965583e-05	3.319503e-05	0.00292585	-0.01363679	-2.003611e-05	-4.426976e-06
	-7.708891e-06	-4.465682e-06	0.0005172516	0.003211825	-2.003611e-05	-4.426976e-06	0.00283146	-0.01364953
7e+07	0.00249093	-0.01628502	-1.993286e-05	-4.843533e-06	0.0007107631	0.003713197	-8.928587e-06	-3.841156e-06
	-1.993286e-05	-4.843533e-06	0.002382646	-0.01628535	-1.950367e-05	3.527385e-05	0.0006757111	0.003720167
	0.0007107652	0.003713197	-1.950367e-05	3.527385e-05	0.002523366	-0.01621156	-1.992884e-05	-5.025846e-06
	-8.928587e-06	-3.841156e-06	0.0006757186	0.003720164	-1.992884e-05	-5.025846e-06	0.002396825	-0.01622159
8e+07	0.001946067	-0.01886769	-1.990599e-05	-5.319402e-06	0.0009006967	0.004209086	-1.001462e-05	-2.988385e-06
	-1.990599e-05	-5.319402e-06	0.001804269	-0.0188613	-1.892484e-05	3.669813e-05	0.0008553646	0.004219193
	0.000900699	0.004209085	-1.892484e-05	3.669813e-05	0.00198154	-0.01878495	-1.989902e-05	-5.531692e-06
	-1.001462e-05	-2.988386e-06	0.0008553739	0.004219187	-1.989902e-05	-5.531691e-06	0.001818083	-0.01879007
9e+07	0.001266119	-0.0214389	-1.994864e-05	-5.720182e-06	0.001112557	0.004694091	-1.096159e-05	-1.86983e-06
	-1.994864e-05	-5.720182e-06	0.001086698	-0.02142339	-1.803721e-05	3.721918e-05	0.001055739	0.004708119
	0.001112558	0.00469409	-1.803721e-05	3.721918e-05	0.001304786	-0.02134724	-1.99385e-05	-5.964069e-06
	-1.096159e-05	-1.86983e-06	0.001055746	0.004708113	-1.99385e-05	-5.964069e-06	0.001099604	-0.02134489
1e+08	0.000454649	-0.02399113	-2.005796e-05	-6.063403e-06	0.001345935	0.005168014	-1.169694e-05	-1.931484e-07
	-2.005796e-05	-6.063403e-06	0.0002335553	-0.02396362	-1.714871e-05	3.562906e-05	0.001276464	0.005186831
	0.001345935	0.005168014	-1.714871e-05	3.562906e-05	0.0004966266	-0.0238908	-2.004443e-05	-6.340774e-06
	-1.169694e-05	-1.931484e-07	0.001276464	0.005186831	-2.004443e-05	-6.340774e-06	0.0002449442	-0.02387803
1.1e+08	-0.0004871566	-0.02652021	-2.019678e-05	-6.364994e-06	0.001602479	0.00562784	-1.120255e-05	1.223046e-06
	-2.019678e-05	-6.364994e-06	-0.0007525343	-0.02647638	-1.16454e-05	3.300627e-05	0.001519473	0.005652283
	0.001602479	0.00562784	-1.16454e-05	3.300627e-05	-0.0004409649	-0.02641099	-2.017982e-05	-6.677498e-06
	-1.120255e-05	1.223046e-06	0.001519473	0.005652283	-2.017982e-05	-6.677498e-06	-0.000742804	-0.02638272
1.2e+08	-0.001554488	-0.02900945	-2.037835e-05	-6.596852e-06	0.001878521	0.006071937	-1.078835e-05	2.118343e-06
	-2.037835e-05	-6.596852e-06	-0.001867442	-0.02894697	-5.600697e-06	3.202051e-05	0.00178086	0.006103042
	0.001878521	0.006071937	-5.600697e-06	3.202051e-05	-0.001504159	-0.02889229	-2.035865e-05	-6.946311e-06
	-1.078835e-05	2.118343e-06	0.00178086	0.006103042	-2.035865e-05	-6.946311e-06	-0.001859838	-0.02884563
1.3e+08	-0.002743032	-0.03145404	-2.060159e-05	-6.769095e-06	0.002173442	0.006500231	-1.045601e-05	2.622855e-06
	-2.060159e-05	-6.769095e-06	-0.003106896	-0.03137001	7.289717e-07	3.136993e-05	0.002060101	0.006539118
	0.002173441	0.006500231	7.289717e-07	3.136993e-05	-0.002688761	-0.03132957	-2.058001e-05	-7.157495e-06
	-1.045601e-05	2.622855e-06	0.002060101	0.006539118	-2.058001e-05	-7.157495e-06	-0.003102059	-0.03126118
1.4e+08	-0.004048813	-0.03384874	-2.086378e-05	-6.883758e-06	0.002486448	0.006911978	-1.035114e-05	2.324295e-06
	-2.086378e-05	-6.883758e-06	-0.004466819	-0.0337398	7.289968e-06	3.074525e-05	0.002356488	0.006959843
	0.002486448	0.006911978	7.289968e-06	3.074525e-05	-0.003990837	-0.0337174	-2.08414e-05	-7.313105e-06
	-1.035114e-05	2.324295e-06	0.002356488	0.006959843	-2.08414e-05	-7.313105e-06	-0.004465431	-0.03362345
1.5e+08	-0.005468116	-0.03618845	-2.115734e-05	-6.943804e-06	0.002816675	0.007306383	-1.024798e-05	2.096244e-06
	-2.115734e-05	-6.943804e-06	-0.005943298	-0.03605087	1.404777e-05	2.998759e-05	0.002669245	0.007364487
	0.002816675	0.007306383	1.404777e-05	2.998759e-05	-0.005406664	-0.03605055	-2.11354e-05	-7.416245e-06
	-1.024798e-05	2.096244e-06	0.002669245	0.007364487	-2.11354e-05	-7.416245e-06	-0.005946018	-0.03592679
1.6e+08	-0.006997351	-0.03846829	-2.147758e-05	-6.950184e-06	0.003163207	0.007682661	-1.014776e-05	1.919497e-06
	-2.147758e-05	-6.950184e-06	-0.007532494	-0.03829803	2.097253e-05	2.899655e-05	0.002997541	0.007752323
	0.003163207	0.007682661	2.097253e-05	2.899655e-05	-0.006932627	-0.03832404	-2.145757e-05	-7.467891e-06
	-1.014776e-05	1.919497e-06	0.002997541	0.007752323	-2.145757e-05	-7.467891e-06	-0.007539922	-0.03816587
1.7e+08	-0.008632972	-0.04068354	-2.181989e-05	-6.903541e-06	0.003525083	0.00804006	-1.005088e-05	1.781902e-06
	-2.181989e-05	-6.903541e-06	-0.009230579	-0.0404763	2.803497e-05	2.770148e-05	0.003340502	0.008122657
	0.003525083	0.00804006	2.803497e-05	2.770148e-05	-0.008565144	-0.04053311	-2.180357e-05	-7.468682e-06
	-1.005088e-05	1.781902e-06	0.003340502	0.008122657	-2.180357e-05	-7.468682e-06	-0.009243242	-0.04033564
1.8e+08	-0.01037141	-0.04282967	-2.217971e-05	-6.804391e-06	0.003901303	0.00837787	-9.957412e-06	1.675221e-06
	-2.217971e-05	-6.804391e-06	-0.01103368	-0.04258091	3.520535e-05	2.604963e-05	0.003697215	0.008474827
	0.003901303	0.00837787	3.520535e-05	2.604963e-05	-0.01030061	-0.04267318	-2.21691e-05	-7.419111e-06
	-9.957412e-06	1.675221e-06	0.003697215	0.008474827	-2.21691e-05	-7.419111e-06	-0.01105204	-0.04243127
1.9e+08	-0.01220903	-0.04490229	-2.255257e-05	-6.653239e-06	0.004290832	0.008695427	-9.867224e-06	1.593561e-06
	-2.255257e-05	-6.653239e-06	-0.01293787	-0.04460733	4.245283e-05	2.400014e-05	0.004066734	0.008808217
	0.004290832	0.008695427	4.245283e-05	2.400014e-05	-0.01213538	-0.04473988	-2.254995e-05	-7.319633e-06
	-9.867224e-06	1.593561e-06	0.004066734	0.008808217	-2.254995e-05	-7.319633e-06	-0.01296231	-0.04444818
2e+08	-0.01414212	-0.04689722	-2.293404e-05	-6.450652e-06	0.004692603	0.008992119	-9.780101e-06	1.532568e-06
	-2.293404e-05	-6.450652e-06	-0.01493912	-0.04655118	4.974562e-05	2.152083e-05	0.004448082	0.009122254
	0.004692603	0.008992119	4.974562e-05	2.152083e-05	-0.01406571	-0.04672898	-2.294198e-05	-7.17074e-06
	-9.780101e-06	1.532568e-06	0.004448082	0.009122254	-2.294198e-05	-7.17074e-06	-0.01496996	-0.04638198
2.1e+08	-0.01616685	-0.04881042	-2.331983e-05	-6.197304e-06	0.00510552	0.009267385	-9.695794e-06	1.488909e-06
	-2.331983e-05	-6.197304e-06	-0.0170333	-0.04840833	5.705068e-05	1.858622e-05	0.004840255	0.009416415
	0.00510552	0.009267385	5.705068e-05	1.858622e-05	-0.01608777	-0.04863648	-2.334114e-05	-6.973007e-06
	-9.695794e-06	1.488909e-06	0.004840255	0.009416415	-2.334114e-05	-6.973007e-06	-0.01707081	-0.0482285
2.2e+08	-0.01827929	-0.05063806	-2.370568e-05	-5.894017e-06	0.00552846	0.00952072	-9.614026e-06	1.459998e-06
	-2.370568e-05	-5.894017e-06	-0.01921616	-0.05017483	6.433409e-05	1.51764e-05	0.005242223	0.009690226
	0.00552846	0.00952072	6.433409e-05	1.51764e-05	-0.01819762	-0.05045852	-2.374346e-05	-6.727135e-06
	-9.614026e-06	1.459998e-06	0.005242223	0.009690226	-2.374346e-05	-6.727135e-06	-0.01926056	-0.04998379
2.3e+08	-0.02047541	-0.05237648	-2.408748e-05	-5.54179e-06	0.005960276	0.009751674	-9.534501e-06	1.443791e-06
	-2.408748e-05	-5.54179e-06	-0.02148334	-0.05184692	7.156136e-05	1.127607e-05	0.005652936	0.009943265
	0.005960276	0.009751674	7.156136e-05	1.127607e-05	-0.02039123	-0.05219145	-2.414506e-05	-6.433977e-06
	-9.534501e-06	1.443791e-06	0.005652936	0.009943265	-2.414506e-05	-6.433977e-06	-0.02153481	-0.05164409
2.4e+08	-0.02275104	-0.0540222	-2.446119e-05	-5.141796e-06	0.006399804	0.009959854	-9.456947e-06	1.438609e-06
	-2.446119e-05	-5.141796e-06	-0.02383039	-0.05342107	7.869687e-05	6.874281e-06	0.006071323	0.01017516
	0.006399804	0.009959854	7.869687e-05	6.874281e-06	-0.02266443	-0.05383181	-2.454217e-05	-6.094534e-06
	-9.456947e-06	1.438609e-06	0.006071323	0.01017516	-2.454217e-05	-6.094534e-06	-0.02388907	-0.05320586
2.5e+08	-0.02510192	-0.05557197	-2.482293e-05	-4.695412e-06	0.006845858	0.01014493	-9.381081e-06	1.443095e-06
	-2.482293e-05	-4.695412e-06	-0.02625272	-0.05489396	8.570489e-05	1.9638e-06	0.0064963	0.01038561
	0.006845858	0.01014493	8.570489e-05	1.9638e-06	-0.02501298	-0.05537633	-2.493113e-05	-5.709991e-06
	-9.381081e-06	1.443095e-06	0.0064963	0.01038561	-2.493113e-05	-5.709991e-06	-0.02631871	-0.05466577
2.6e+08	-0.02752368	-0.05702271	-2.516892e-05	-4.204207e-06	0.00729724	0.01030663	-9.306634e-06	1.456106e-06
	-2.516892e-05	-4.204207e-06	-0.02874564	-0.05626247	9.254907e-05	-3.45896e-06	0.006926766	0.01057433
	0.00729724	0.01030663	9.254907e-05	-3.45896e-06	-0.02743252	-0.05682192	-2.53084e-05	-5.281701e-06
	-9.306634e-06	1.456106e-06	0.006926766	0.01057433	-2.53084e-05	-5.281701e-06	-0.028819	-0.05602069
2.7e+08	-0.03001185	-0.05837155	-2.549553e-05	-3.669968e-06	0.007752742	0.01044474	-9.233329e-06	1.47669e-06
	-2.549553e-05	-3.669968e-06	-0.03130438	-0.05752372	9.919356e-05	-9.394538e-06	0.007361614	0.01074114
	0.007752742	0.01044474	9.919356e-05	-9.394538e-06	-0.02991857	-0.05816573	-2.567055e-05	-4.811212e-06
	-9.233329e-06	1.47669e-06	0.007361614	0.01074114	-2.567055e-05	-4.811212e-06	-0.03138514	-0.05726775
2.8e+08	-0.03256188	-0.05961584	-2.579931e-05	-3.094666e-06	0.008211146	0.01055911	-9.16092e-06	1.504023e-06
	-2.579931e-05	-3.094666e-06	-0.03392404	-0.05867503	0.0001056019	-1.584006e-05	0.007799728	0.01088588
	0.008211146	0.01055911	0.0001056019	-1.584006e-05	-0.0324666	-0.05940507	-2.601434e-05	-4.300237e-06
	-9.16092e-06	1.504023e-06	0.007799728	0.01088588	-2.601434e-05	-4.300237e-06	-0.03401221	-0.05840425
2.9e+08	-0.03516911	-0.06075312	-2.607696e-05	-2.480465e-06	0.008671231	0.01064965	-9.089163e-06	1.537395e-06
	-2.607696e-05	-2.480465e-06	-0.03659968	-0.05971397	0.0001117379	-2.278955e-05	0.008239987	0.01100846
	0.008671231	0.01064965	0.0001117379	-2.278955e-05	-0.03507197	-0.0605375	-2.633666e-05	-3.750663e-06
	-9.089163e-06	1.537395e-06	0.008239987	0.01100846	-2.633666e-05	-3.750663e-06	-0.03669522	-0.05942775
3e+08	-0.03782884	-0.06178115	-2.632537e-05	-1.829737e-06	0.009131774	0.01071634	-9.017811e-06	1.576187e-06
	-2.632537e-05	-1.829737e-06	-0.03932625	-0.06063832	0.0001175674	-3.02353e-05	0.008681271	0.01110884
	0.009131774	0.01071634	0.0001175674	-3.02353e-05	-0.03772996	-0.06156075	-2.663454e-05	-3.164563e-06
	-9.017811e-06	1.576187e-06	0.008681271	0.01110884	-2.663454e-05	-3.164563e-06	-0.0394291	-0.06033604
3.1e+08	-0.04053627	-0.06269789	-2.653429e-05	-1.14094e-06	0.009591555	0.01075921	-8.946632e-06	1.619782e-06
	-2.653429e-05	-1.14094e-06	-0.04209865	-0.06144608	0.0001222641	-3.758457e-05	0.00912246	0.01118705
	0.009591555	0.01075921	0.0001222641	-3.758457e-05	-0.04043581	-0.06247279	-2.68983e-05	-2.540083e-06
	-8.946632e-06	1.619782e-06	0.00912246	0.01118705	-2.68983e-05	-2.540083e-06	-0.0422087	-0.06112712
3.2e+08	-0.04328656	-0.06350154	-2.669246e-05	-4.133087e-07	0.01004936	0.01077836	-8.8754e-06	1.667602e-06
	-2.669246e-05	-4.133087e-07	-0.04491172	-0.06213552	0.0001250617	-4.418496e-05	0.009562442	0.01124317
	0.01004936	0.01077836	0.0001250617	-4.418496e-05	-0.04318468	-0.06327179	-2.711724e-05	-1.876042e-06
	-8.8754e-06	1.667602e-06	0.009562442	0.01124317	-2.711724e-05	-1.876042e-06	-0.04502882	-0.06179922
3.3e+08	-0.04607481	-0.06419049	-2.681166e-05	3.416719e-07	0.01050398	0.01077395	-8.803937e-06	1.719324e-06
	-2.681166e-05	3.416719e-07	-0.04776023	-0.06270508	0.000127553	-5.116648e-05	0.01000011	0.01127732
	0.01050398	0.01077395	0.000127553	-5.116648e-05	-0.04597166	-0.06395613	-2.730244e-05	-1.183537e-06
	-8.803937e-06	1.719324e-06	0.01000011	0.01127732	-2.730244e-05	-1.183537e-06	-0.04788423	-0.06235083
3.4e+08	-0.04889608	-0.06476335	-2.688965e-05	1.120885e-06	0.01095421	0.0107462	-8.73202e-06	1.77453e-06
	-2.688965e-05	1.120885e-06	-0.05063895	-0.06315349	0.0001297034	-5.851051e-05	0.01043437	0.01128969
	0.01095421	0.0107462	0.0001297034	-5.851051e-05	-0.04879182	-0.06452441	-2.745172e-05	-4.653208e-07
	-8.73202e-06	1.77453e-06	0.01043437	0.01128969	-2.745172e-05	-4.653208e-07	-0.05076963	-0.06278064
3.5e+08	-0.05174541	-0.06521895	-2.692449e-05	1.921076e-06	0.01139889	0.01069539	-8.659489e-06	1.832844e-06
	-2.692449e-05	1.921076e-06	-0.05354259	-0.06347967	0.0001314822	-6.619811e-05	0.01086413	0.01128052
	0.01139889	0.01069539	0.0001314822	-6.619811e-05	-0.05164019	-0.06497544	-2.756317e-05	2.757309e-07
	-8.659489e-06	1.832844e-06	0.01086413	0.01128052	-2.756317e-05	2.757309e-07	-0.05367969	-0.0630876
3.6e+08	-0.05461778	-0.06555633	-2.691445e-05	2.738898e-06	0.01183685	0.01062184	-8.586193e-06	1.893916e-06
	-2.691445e-05	2.738898e-06	-0.05646585	-0.06368279	0.0001328597	-7.420783e-05	0.01128834	0.01125012
	0.01183685	0.01062184	0.0001328597	-7.420783e-05	-0.05451178	-0.06530825	-2.76351e-05	1.036652e-06
	-8.586193e-06	1.893916e-06	0.01128834	0.01125012	-2.76351e-05	1.036652e-06	-0.05660908	-0.06327087
3.7e+08	-0.05750819	-0.06577475	-2.68581e-05	3.570906e-06	0.01226693	0.01052597	-8.511973e-06	1.957412e-06
	-2.68581e-05	3.570906e-06	-0.0594034	-0.06376225	0.0001338081	-8.251636e-05	0.01170595	0.01119882
	0.01226693	0.01052597	0.0001338081	-8.251636e-05	-0.05740157	-0.06552208	-2.766603e-05	1.814387e-06
	-8.511973e-06	1.957412e-06	0.01170595	0.01119882	-2.766603e-05	1.814387e-06	-0.05955245	-0.06332987
3.8e+08	-0.06041161	-0.06587366	-2.675422e-05	4.413578e-06	0.01268804	0.01040821	-8.43668e-06	2.023018e-06
	-2.675422e-05	4.413578e-06	-0.06234994	-0.06371768	0.0001343012	-9.109849e-05	0.01211592	0.01112702
	0.01268804	0.01040821	0.0001343012	-9.109849e-05	-0.06030453	-0.06561637	-2.765472e-05	2.605807e-06
	-8.43668e-06	2.023018e-06	0.01211592	0.01112702	-2.765472e-05	2.605807e-06	-0.06250445	-0.06326421
3.9e+08	-0.06332301	-0.06585275	-2.660186e-05	5.263344e-06	0.01309907	0.01026907	-8.360178e-06	2.090428e-06
	-2.660186e-05	5.263344e-06	-0.06530016	-0.06354893	0.0001343147	-9.992705e-05	0.01251726	0.01103517
	0.01309907	0.01026907	0.0001343147	-9.992705e-05	-0.06321563	-0.0655908	-2.760014e-05	3.407736e-06
	-8.360178e-06	2.090428e-06	0.01251726	0.01103517	-2.760014e-05	3.407736e-06	-0.06545971	-0.06307378
4e+08	-0.06623737	-0.0657119	-2.640033e-05	6.116587e-06	0.01349896	0.01010912	-8.282342e-06	2.15935e-06
	-2.640033e-05	6.116587e-06	-0.06824875	-0.06325609	0.0001338258	-0.0001089733	0.012909	0.01092377
	0.01349896	0.01010912	0.0001338258	-0.0001089733	-0.06612986	-0.06544524	-2.75015e-05	4.216954e-06
	-8.282342e-06	2.15935e-06	0.012909	0.01092377	-2.75015e-05	4.216954e-06	-0.06841291	-0.06275866
4.1e+08	-0.0691497	-0.06545122	-2.614922e-05	6.969674e-06	0.01388667	0.009928956	-8.203063e-06	2.229505e-06
	-2.614922e-05	6.969674e-06	-0.07119046	-0.06283945	0.0001328141	-0.0001182069	0.01329018	0.01079334
	0.01388667	0.009928956	0.0001328141	-0.0001182069	-0.06904221	-0.06517977	-2.735826e-05	5.030222e-06
	-8.203063e-06	2.229505e-06	0.01329018	0.01079334	-2.735826e-05	5.030222e-06	-0.07135875	-0.06231917
4.2e+08	-0.07205502	-0.06507101	-2.584835e-05	7.818976e-06	0.01426122	0.00972924	-8.122246e-06	2.300619e-06
	-2.584835e-05	7.818976e-06	-0.07412005	-0.06229955	0.0001312609	-0.000127596	0.01365989	0.01064448
	0.01426122	0.00972924	0.0001312609	-0.000127596	-0.0719477	-0.06479468	-2.717008e-05	5.8443e-06
	-8.122246e-06	2.300619e-06	0.01365989	0.01064448	-2.717008e-05	5.8443e-06	-0.07429196	-0.06175586
4.3e+08	-0.07494838	-0.06457177	-2.549783e-05	8.660873e-06	0.01462164	0.009510678	-8.03981e-06	2.372428e-06
	-2.549783e-05	8.660873e-06	-0.07703233	-0.06163712	0.0001291495	-0.0001371077	0.01401725	0.01047781
	0.01462164	0.009510678	0.0001291495	-0.0001371077	-0.07484138	-0.06429047	-2.693688e-05	6.655951e-06
	-8.03981e-06	2.372428e-06	0.01401725	0.01047781	-2.693688e-05	6.655951e-06	-0.0772073	-0.06106949
4.4e+08	-0.07782488	-0.06395422	-2.5098e-05	9.491776e-06	0.014967	0.009274021	-7.955682e-06	2.444673e-06
	-2.5098e-05	9.491776e-06	-0.07992216	-0.06085314	0.0001264658	-0.0001467076	0.0143614	0.010294
	0.014967	0.009274021	0.0001264658	-0.0001467076	-0.07771833	-0.06366785	-2.665879e-05	7.461962e-06
	-7.955682e-06	2.444673e-06	0.0143614	0.010294	-2.665879e-05	7.461962e-06	-0.08009961	-0.06026106
4.5e+08	-0.08067966	-0.06321926	-2.464947e-05	1.030814e-05	0.01529642	0.009020062	-7.869806e-06	2.517101e-06
	-2.464947e-05	1.030814e-05	-0.08278446	-0.05994877	0.0001231976	-0.0001563606	0.01469152	0.01009375
	0.01529642	0.009020062	0.0001231976	-0.0001563606	-0.08057369	-0.06292769	-2.633616e-05	8.259151e-06
	-7.869806e-06	2.517101e-06	0.01469152	0.01009375	-2.633616e-05	8.259151e-06	-0.08296376	-0.05933174
4.6e+08	-0.08350791	-0.062368	-2.415307e-05	1.11065e-05	0.01560906	0.008749637	-7.782144e-06	2.589469e-06
	-2.415307e-05	1.11065e-05	-0.08561422	-0.0589254	0.0001193351	-0.0001660308	0.01500686	0.009877807
	0.01560906	0.008749637	0.0001193351	-0.0001660308	-0.08340266	-0.0620711	-2.596957e-05	9.044403e-06
	-7.782144e-06	2.589469e-06	0.01500686	0.009877807	-2.596957e-05	9.044403e-06	-0.08579472	-0.05828296
4.7e+08	-0.08630489	-0.06140174	-2.36099e-05	1.188344e-05	0.01590412	0.008463618	-7.692662e-06	2.661534e-06
	-2.36099e-05	1.188344e-05	-0.08840649	-0.05778461	0.0001148707	-0.0001756814	0.01530665	0.009646951
