!$
! Info: Touchstone file created by Circ.  Input file=Tx_2in_Rx_93ohms_TxVia_35mils_RxVia_45mils.circ
!$
# Hz S RI R 50
0	0.001970929	4.715714e-26	1.783634e-08	4.341993e-27	2.968459e-05	3.66501e-24	3.471245e-08	9.885135e-28
	1.783636e-08	4.340753e-27	0.001969848	5.318072e-26	3.463793e-08	1.549945e-26	3.010762e-05	4.353122e-24
	2.785014e-05	3.763845e-24	3.463794e-08	1.549979e-26	0.001983676	4.497169e-26	2.117056e-08	5.135098e-27
	3.471245e-08	9.891827e-28	2.82611e-05	4.374811e-24	2.117057e-08	5.136272e-27	0.001983083	4.98007e-26
1e+07	0.00288264	0.0002008497	2.474363e-08	5.205749e-08	5.605624e-05	0.0005611634	6.454003e-08	1.571319e-07
	2.474363e-08	5.205749e-08	0.002880877	0.0002006517	5.798577e-08	1.596104e-07	5.532354e-05	0.0005613166
	5.599706e-05	0.0005611673	5.798576e-08	1.596104e-07	0.002841662	0.0002035991	2.917756e-08	6.221708e-08
	6.454002e-08	1.571319e-07	5.526397e-05	0.0005613268	2.917756e-08	6.221708e-08	0.002839603	0.0002034603
2e+07	0.003505057	-0.0002573378	3.518306e-08	9.478605e-08	8.364815e-05	0.001126108	1.026715e-07	2.840232e-07
	3.518305e-08	9.478605e-08	0.003497926	-0.0002576545	7.8801e-08	2.914497e-07	8.077236e-05	0.001126578
	8.363619e-05	0.001126145	7.8801e-08	2.914497e-07	0.003476366	-0.0002314689	4.161076e-08	1.131525e-07
	1.026714e-07	2.840232e-07	8.076448e-05	0.001126612	4.161076e-08	1.131525e-07	0.003468077	-0.0002316297
3e+07	0.003940527	-0.0009567404	4.554062e-08	1.354904e-07	0.0001520022	0.001672803	1.451951e-07	4.045942e-07
	4.554062e-08	1.354904e-07	0.003924715	-0.0009564529	9.406907e-08	4.19375e-07	0.0001456304	0.001673838
	0.0001520047	0.001672809	9.406907e-08	4.19375e-07	0.003922243	-0.0009212464	5.390359e-08	1.616716e-07
	1.451951e-07	4.045942e-07	0.0001456304	0.001673843	5.390359e-08	1.616716e-07	0.003903904	-0.0009205632
4e+07	0.004262335	-0.001752988	5.715245e-08	1.747746e-07	0.0002558485	0.002209735	1.960745e-07	5.201005e-07
	5.715245e-08	1.747746e-07	0.004234377	-0.001751601	1.078772e-07	5.452101e-07	0.0002446425	0.002211643
	0.0002558437	0.00220973	1.078772e-07	5.452101e-07	0.004253722	-0.001711395	6.764819e-08	2.085415e-07
	1.960745e-07	5.201005e-07	0.0002446371	0.002211641	6.764818e-08	2.085415e-07	0.004221345	-0.001709298
5e+07	0.004496691	-0.00260849	7.01056e-08	2.126626e-07	0.0003824818	0.002738002	2.554952e-07	6.301339e-07
	7.01056e-08	2.126626e-07	0.004453031	-0.002604954	1.208339e-07	6.692337e-07	0.0003651276	0.002741208
	0.0003824776	0.002738001	1.208339e-07	6.692337e-07	0.004497327	-0.00256296	8.299488e-08	2.537753e-07
	2.554952e-07	6.301339e-07	0.0003651239	0.002741207	8.299488e-08	2.537753e-07	0.004446811	-0.002558216
6e+07	0.004656355	-0.003504203	8.435147e-08	2.492324e-07	0.0005316753	0.003257252	3.231899e-07	7.345582e-07
	8.435147e-08	2.492325e-07	0.004593733	-0.003497198	1.330881e-07	7.918431e-07	0.0005069095	0.003262267
	0.0005316792	0.003257252	1.330881e-07	7.918431e-07	0.004665896	-0.003456403	9.988512e-08	2.974414e-07
	3.231899e-07	7.345582e-07	0.0005069118	0.003262266	9.988513e-08	2.974414e-07	0.004593501	-0.003447464
7e+07	0.004748664	-0.004428106	9.987165e-08	2.845344e-07	0.0007031069	0.003766849	3.989575e-07	8.332266e-07
	9.987167e-08	2.845344e-07	0.004663942	-0.004416262	1.447825e-07	9.133557e-07	0.0006697079	0.003774255
	0.0007031187	0.003766846	1.447825e-07	9.133557e-07	0.004766776	-0.004379468	1.182803e-07	3.395982e-07
	3.989575e-07	8.332266e-07	0.0006697154	0.003774251	1.182803e-07	3.395982e-07	0.004668905	-0.004364748
8e+07	0.004778338	-0.005371331	1.166619e-07	3.18561e-07	0.0008963981	0.004265993	4.826378e-07	9.258637e-07
	1.166619e-07	3.18561e-07	0.004668336	-0.005353161	1.560444e-07	1.033961e-06	0.0008531736	0.004276439
	0.0008964127	0.004265986	1.560444e-07	1.033961e-06	0.004804668	-0.005323196	1.38164e-07	3.802529e-07
	4.826378e-07	9.258637e-07	0.0008531829	0.004276433	1.38164e-07	3.802529e-07	0.004677651	-0.005300982
9e+07	0.004748863	-0.006326144	1.347088e-07	3.512565e-07	0.001111103	0.004753779	5.740433e-07	1.012075e-06
	1.347088e-07	3.512566e-07	0.004610343	-0.00629991	1.669555e-07	1.153756e-06	0.001056886	0.004767991
	0.001111113	0.004753772	1.669555e-07	1.153756e-06	0.004783001	-0.006279916	1.595194e-07	4.193609e-07
	5.740434e-07	1.012075e-06	0.001056893	0.004767986	1.595194e-07	4.193609e-07	0.004623082	-0.006248194
1e+08	0.004664376	-0.007280653	1.539824e-07	3.825327e-07	0.001346712	0.005229183	6.729325e-07	1.09138e-06
	1.539824e-07	3.825327e-07	0.004494125	-0.007244289	1.775562e-07	1.272778e-06	0.001280365	0.005247974
	0.001346712	0.005229183	1.775562e-07	1.272778e-06	0.004705653	-0.007238578	1.823185e-07	4.56838e-07
	6.729325e-07	1.09138e-06	0.001280365	0.005247974	1.823185e-07	4.56838e-07	0.004509089	-0.007194927
1.1e+08	0.004548819	-0.008255396	1.743241e-07	4.124052e-07	0.001601778	0.005691519	7.785092e-07	1.163309e-06
	1.743241e-07	4.124052e-07	0.004345735	-0.008204177	1.879695e-07	1.391165e-06	0.001522453	0.00571567
	0.001601778	0.005691519	1.879695e-07	1.391165e-06	0.004594787	-0.008215666	2.064122e-07	4.926192e-07
	7.785092e-07	1.163309e-06	0.001522453	0.00571567	2.064122e-07	4.926192e-07	0.004359408	-0.008155614
1.2e+08	0.004373653	-0.009240793	1.956546e-07	4.408699e-07	0.001876571	0.006140164	8.904673e-07	1.227748e-06
	1.956546e-07	4.408699e-07	0.004135127	-0.009173932	1.979541e-07	1.509157e-06	0.001783186	0.006170645
	0.001876571	0.006140164	1.979541e-07	1.509157e-06	0.004424341	-0.009203495	2.31676e-07	5.267389e-07
	8.904673e-07	1.227748e-06	0.001783186	0.006170645	2.31676e-07	5.267389e-07	0.00414728	-0.009125307
1.3e+08	0.004143047	-0.01022686	2.179307e-07	4.678827e-07	0.002170426	0.006574075	1.008459e-06	1.284329e-06
	2.179307e-07	4.678827e-07	0.003866182	-0.01014277	2.076074e-07	1.626844e-06	0.002061983	0.006611933
	0.002170426	0.006574075	2.076074e-07	1.626844e-06	0.004198036	-0.01019256	2.580589e-07	5.591474e-07
	1.008459e-06	1.284329e-06	0.002061983	0.006611933	2.580589e-07	5.591474e-07	0.003876252	-0.01009394
1.4e+08	0.003859427	-0.01120951	2.410955e-07	4.933939e-07	0.002482597	0.006992319	1.132085e-06	1.332682e-06
	2.410955e-07	4.933939e-07	0.003541333	-0.01110597	2.169997e-07	1.744289e-06	0.002358182	0.007038673
	0.002482597	0.006992319	2.169997e-07	1.744289e-06	0.00391819	-0.01117861	2.854945e-07	5.897871e-07
	1.132085e-06	1.332682e-06	0.002358182	0.007038673	2.854945e-07	5.897871e-07	0.003548677	-0.01105676
1.5e+08	0.003524599	-0.01218565	2.650821e-07	5.173506e-07	0.002812289	0.007394019	1.260906e-06	1.372445e-06
	2.650821e-07	5.173506e-07	0.003162562	-0.01205992	2.261856e-07	1.861539e-06	0.002671064	0.007450046
	0.002812289	0.007394019	2.261856e-07	1.861539e-06	0.003586629	-0.01215837	3.139046e-07	6.18597e-07
	1.260906e-06	1.372445e-06	0.002671065	0.007450046	3.139046e-07	6.18597e-07	0.003166536	-0.01201009
1.6e+08	0.003140041	-0.01315255	2.898145e-07	5.397004e-07	0.003158658	0.007778342	1.394446e-06	1.403273e-06
	2.898145e-07	5.397004e-07	0.002731604	-0.01300154	2.352069e-07	1.978628e-06	0.002999868	0.007845278
	0.003158658	0.007778342	2.352069e-07	1.978628e-06	0.003204898	-0.01312903	3.432009e-07	6.455159e-07
	1.394446e-06	1.403273e-06	0.002999868	0.007845278	3.432009e-07	6.455159e-07	0.002731606	-0.01295078
1.7e+08	0.00270705	-0.01410774	3.152093e-07	5.603931e-07	0.003520822	0.008144499	1.532198e-06	1.424842e-06
	3.152093e-07	5.603931e-07	0.002250046	-0.01392805	2.440952e-07	2.095584e-06	0.003343787	0.008223631
	0.003520822	0.008144499	2.440952e-07	2.095584e-06	0.002774372	-0.01408803	3.732857e-07	6.704851e-07
	1.532198e-06	1.424842e-06	0.003343787	0.008223631	3.732857e-07	6.704851e-07	0.002245528	-0.013876
1.8e+08	0.002226832	-0.01504883	3.411765e-07	5.793823e-07	0.00389786	0.008491748	1.67363e-06	1.436855e-06
	3.411765e-07	5.793823e-07	0.00171939	-0.0148369	2.528748e-07	2.21243e-06	0.003701982	0.008584411
	0.003897859	0.008491748	2.528748e-07	2.21243e-06	0.002296331	-0.01503298	4.040539e-07	6.934503e-07
	1.67363e-06	1.436855e-06	0.003701982	0.008584411	4.040539e-07	6.934503e-07	0.001709865	-0.01478315
1.9e+08	0.00170056	-0.01597358	3.676208e-07	5.966262e-07	0.004288816	0.008819393	1.818184e-06	1.439044e-06
	3.676208e-07	5.966262e-07	0.001141098	-0.01572568	2.615639e-07	2.32919e-06	0.00407358	0.008926965
	0.004288816	0.008819393	2.615639e-07	2.32919e-06	0.001772005	-0.01596163	4.35394e-07	7.143624e-07
	1.818184e-06	1.439044e-06	0.00407358	0.008926965	4.35394e-07	7.143624e-07	0.001126133	-0.01566981
2e+08	0.001129411	-0.01687982	3.944423e-07	6.120885e-07	0.004692704	0.009126783	1.965283e-06	1.431171e-06
	3.944423e-07	6.120885e-07	0.0005166225	-0.01659212	2.701772e-07	2.445884e-06	0.004457674	0.009250682
	0.004692704	0.009126783	2.701772e-07	2.445884e-06	0.001202606	-0.01687184	4.67189e-07	7.331786e-07
	1.965283e-06	1.431171e-06	0.004457674	0.009250682	4.67189e-07	7.331786e-07	0.0004958328	-0.01653369
2.1e+08	0.0005145812	-0.01776545	4.215374e-07	6.257383e-07	0.005108506	0.009413313	2.114334e-06	1.413033e-06
	4.215374e-07	6.257383e-07	-0.0001525773	-0.01743405	2.787261e-07	2.562532e-06	0.004853331	0.009554994
	0.005108506	0.009413313	2.787261e-07	2.562532e-06	0.0005893533	-0.01776154	4.993177e-07	7.498628e-07
	2.114334e-06	1.413033e-06	0.004853331	0.009554994	4.993177e-07	7.498628e-07	-0.0001795339	-0.01737263
2.2e+08	-0.0001426989	-0.01862849	4.487997e-07	6.37551e-07	0.005535175	0.009678429	2.264728e-06	1.384457e-06
	4.487997e-07	6.37551e-07	-0.0008650188	-0.01824941	2.872207e-07	2.679157e-06	0.005259591	0.009839379
	0.005535175	0.009678429	2.872207e-07	2.679157e-06	-6.651569e-05	-0.01862876	5.316553e-07	7.643857e-07
	2.264728e-06	1.384457e-06	0.005259591	0.009839379	5.316553e-07	7.643857e-07	-0.0008984476	-0.01818455
2.3e+08	-0.0008411538	-0.01946701	4.761203e-07	6.475079e-07	0.00597164	0.009921627	2.415845e-06	1.345305e-06
	4.761203e-07	6.475079e-07	-0.001619184	-0.01903623	2.956697e-07	2.795778e-06	0.005675468	0.01010336
	0.00597164	0.009921627	2.956697e-07	2.795778e-06	-0.0007637318	-0.01947161	5.640741e-07	7.767253e-07
	2.415845e-06	1.345305e-06	0.005675468	0.01010336	5.640741e-07	7.767253e-07	-0.001659361	-0.01896749
2.4e+08	-0.001579469	-0.02027917	5.033884e-07	6.555966e-07	0.006416805	0.01014245	2.567057e-06	1.295475e-06
	5.033884e-07	6.555966e-07	-0.002413521	-0.01979262	3.040815e-07	2.912416e-06	0.006099956	0.0103465
	0.006416805	0.01014245	3.040815e-07	2.912416e-06	-0.001500994	-0.02028826	5.964443e-07	7.868669e-07
	2.567057e-06	1.295475e-06	0.006099956	0.0103465	5.964443e-07	7.868669e-07	-0.002460698	-0.01971956
2.5e+08	-0.002356281	-0.02106321	5.304919e-07	6.618109e-07	0.006869551	0.01034051	2.717726e-06	1.234899e-06
	5.304919e-07	6.618109e-07	-0.003246433	-0.02051681	3.124646e-07	3.029093e-06	0.006532026	0.01056843
	0.006869551	0.01034051	3.124646e-07	3.029093e-06	-0.002276957	-0.02107697	6.286344e-07	7.948031e-07
	2.717726e-06	1.234899e-06	0.006532026	0.01056843	6.286344e-07	7.948031e-07	-0.003300837	-0.02043897
2.6e+08	-0.003170186	-0.02181746	5.57317e-07	6.661509e-07	0.007328743	0.01051544	2.867209e-06	1.163542e-06
	5.57317e-07	6.661509e-07	-0.004116285	-0.02120709	3.208273e-07	3.14583e-06	0.006970633	0.01076881
	0.007328743	0.01051544	3.208273e-07	3.14583e-06	-0.003090236	-0.02183608	6.605117e-07	8.005343e-07
	2.867209e-06	1.163542e-06	0.006970633	0.01076881	6.605117e-07	8.005343e-07	-0.004178118	-0.02112401
2.7e+08	-0.004019727	-0.02254031	5.837504e-07	6.686234e-07	0.007793227	0.01066696	3.01486e-06	1.081408e-06
	5.837504e-07	6.686234e-07	-0.005021387	-0.02186185	3.291788e-07	3.262648e-06	0.007414716	0.01094736
	0.007793227	0.01066696	3.291788e-07	3.262648e-06	-0.003939401	-0.02256397	6.91943e-07	8.040678e-07
	3.01486e-06	1.081408e-06	0.007414716	0.01094736	6.91943e-07	8.040678e-07	-0.005090835	-0.02177307
2.8e+08	-0.00490341	-0.02323026	6.096783e-07	6.692415e-07	0.008261836	0.01079484	3.160033e-06	9.885335e-07
	6.096783e-07	6.692415e-07	-0.005960016	-0.02247955	3.375285e-07	3.379566e-06	0.007863202	0.01110384
	0.008261836	0.01079484	3.375285e-07	3.379566e-06	-0.004822985	-0.02325913	7.227948e-07	8.05419e-07
	3.160033e-06	9.885335e-07	0.007863202	0.01110384	7.227948e-07	8.05419e-07	-0.006037245	-0.02238461
2.9e+08	-0.0058197	-0.02388585	6.349871e-07	6.680248e-07	0.008733392	0.01089888	3.30208e-06	8.84992e-07
	6.349871e-07	6.680248e-07	-0.006930402	-0.02305876	3.458869e-07	3.496607e-06	0.008315005	0.01123808
	0.008733392	0.01089888	3.458869e-07	3.496607e-06	-0.005739474	-0.02392012	7.529338e-07	8.046105e-07
	3.30208e-06	8.84992e-07	0.008315005	0.01123808	7.529338e-07	8.046105e-07	-0.007015557	-0.02295718
3e+08	-0.006767021	-0.02450572	6.595633e-07	6.64999e-07	0.009206709	0.01097898	3.440355e-06	7.708917e-07
	6.595633e-07	6.64999e-07	-0.007930734	-0.02359813	3.542648e-07	3.613789e-06	0.008769033	0.01134995
	0.009206709	0.01097898	3.542648e-07	3.613789e-06	-0.006687317	-0.02454554	7.822274e-07	8.016723e-07
	3.440355e-06	7.708917e-07	0.008769033	0.01134995	7.822274e-07	8.016723e-07	-0.00802394	-0.02348942
3.1e+08	-0.007743762	-0.02508859	6.832949e-07	6.601965e-07	0.009680595	0.01103506	3.574217e-06	6.463766e-07
	6.832949e-07	6.601965e-07	-0.008959165	-0.02409639	3.626742e-07	3.731132e-06	0.009224189	0.01143938
	0.009680595	0.01103506	3.626742e-07	3.731132e-06	-0.007664923	-0.02513411	8.105439e-07	7.966421e-07
	3.574217e-06	6.463766e-07	0.009224189	0.01143938	8.105439e-07	7.966421e-07	-0.009060528	-0.02398006
3.2e+08	-0.008748278	-0.02563325	7.060705e-07	6.536559e-07	0.01015386	0.01106712	3.703032e-06	5.116259e-07
	7.060705e-07	6.536559e-07	-0.01001381	-0.02455236	3.711276e-07	3.848656e-06	0.009679372	0.01150634
	0.01015385	0.01106712	3.711276e-07	3.848656e-06	-0.008670667	-0.0256846	8.377533e-07	7.89565e-07
	3.703032e-06	5.116259e-07	0.009679372	0.01150634	8.377533e-07	7.89565e-07	-0.01012341	-0.02442792
3.3e+08	-0.009778885	-0.02613857	7.277807e-07	6.45422e-07	0.01062529	0.01107521	3.826171e-06	3.668536e-07
	7.277807e-07	6.45422e-07	-0.01109276	-0.02496497	3.796386e-07	3.966379e-06	0.01013348	0.01155086
	0.01062529	0.01107521	3.796386e-07	3.966379e-06	-0.009702883	-0.02619586	8.637273e-07	7.804933e-07
	3.826171e-06	3.668536e-07	0.01013348	0.01155086	8.637273e-07	7.804933e-07	-0.01121066	-0.02483191
3.4e+08	-0.01083388	-0.02660348	7.483179e-07	6.355461e-07	0.01109372	0.01105944	3.943015e-06	2.123085e-07
	7.483179e-07	6.355461e-07	-0.01219405	-0.02533321	3.882214e-07	4.08432e-06	0.01058542	0.01157303
	0.01109372	0.01105944	3.882214e-07	4.08432e-06	-0.01075988	-0.0266668	8.883398e-07	7.694867e-07
	3.943015e-06	2.123085e-07	0.01058542	0.01157303	8.883398e-07	7.694867e-07	-0.01232028	-0.025191
3.5e+08	-0.01191152	-0.02702702	7.675765e-07	6.240856e-07	0.01155795	0.01101998	4.052959e-06	4.827358e-08
	7.675765e-07	6.240856e-07	-0.01331573	-0.02565618	3.968911e-07	4.202494e-06	0.01103408	0.01157299
	0.01155795	0.01101998	3.968911e-07	4.202494e-06	-0.01183993	-0.02709643	9.114676e-07	7.566121e-07
	4.052959e-06	4.827358e-08	0.01103408	0.01157299	9.114676e-07	7.566121e-07	-0.0134503	-0.0255043
3.6e+08	-0.01301004	-0.02740828	7.854539e-07	6.111038e-07	0.01201681	0.01095705	4.155407e-06	-1.249344e-07
	7.854539e-07	6.111038e-07	-0.01445578	-0.02593304	4.056637e-07	4.320921e-06	0.0114784	0.01155093
	0.01201681	0.01095705	4.056637e-07	4.320921e-06	-0.01294128	-0.02748381	9.329901e-07	7.419435e-07
	4.155407e-06	-1.249344e-07	0.0114784	0.01155093	9.329901e-07	7.419435e-07	-0.01459868	-0.02577098
3.7e+08	-0.01412765	-0.02774642	8.018502e-07	5.966703e-07	0.01246912	0.01087094	4.249781e-06	-3.069655e-07
	8.018502e-07	5.966703e-07	-0.0156122	-0.02616308	4.145559e-07	4.439614e-06	0.01191729	0.01150709
	0.01246912	0.01087094	4.145559e-07	4.439614e-06	-0.01406215	-0.02782811	9.527907e-07	7.255618e-07
	4.249781e-06	-3.069655e-07	0.01191729	0.01150709	9.527907e-07	7.255618e-07	-0.01576338	-0.02599029
3.8e+08	-0.01526255	-0.02804071	8.166686e-07	5.808603e-07	0.01291375	0.01076199	4.335518e-06	-4.974375e-07
	8.166686e-07	5.808603e-07	-0.01678293	-0.02634565	4.235854e-07	4.55859e-06	0.01234968	0.01144176
	0.01291375	0.01076199	4.235854e-07	4.55859e-06	-0.01520075	-0.02812854	9.707561e-07	7.075548e-07
	4.335518e-06	-4.974375e-07	0.01234968	0.01144176	9.707561e-07	7.075548e-07	-0.01694233	-0.0261616
3.9e+08	-0.0164129	-0.02829045	8.298163e-07	5.63755e-07	0.01334955	0.01063058	4.412073e-06	-6.959362e-07
	8.298163e-07	5.63755e-07	-0.01796594	-0.02648019	4.327704e-07	4.677862e-06	0.01277454	0.01135529
	0.01334955	0.01063058	4.327704e-07	4.677862e-06	-0.01635523	-0.02838439	9.867776e-07	6.880169e-07
	4.412073e-06	-6.959362e-07	0.01277454	0.01135529	9.867776e-07	6.880169e-07	-0.01813345	-0.02628435
4e+08	-0.01757686	-0.02849506	8.412039e-07	5.454408e-07	0.01377542	0.01047718	4.478922e-06	-9.02017e-07
	8.412039e-07	5.454408e-07	-0.01915915	-0.02656624	4.421301e-07	4.797446e-06	0.01319083	0.01124807
	0.01377542	0.01047718	4.421301e-07	4.797446e-06	-0.01752378	-0.02859506	1.000751e-06	6.67049e-07
	4.478922e-06	-9.02017e-07	0.01319083	0.01124807	1.000751e-06	6.67049e-07	-0.01933465	-0.02635807
4.1e+08	-0.01875257	-0.02865401	8.507468e-07	5.260099e-07	0.01419025	0.01030228	4.535562e-06	-1.115205e-06
	8.507468e-07	5.260099e-07	-0.02036049	-0.02660342	4.516843e-07	4.917352e-06	0.01359753	0.01112056
	0.01419025	0.01030228	4.516843e-07	4.917352e-06	-0.01870451	-0.02875998	1.012576e-06	6.447582e-07
	4.535562e-06	-1.115205e-06	0.01359753	0.01112056	1.012576e-06	6.447582e-07	-0.02054382	-0.02638238
4.2e+08	-0.01993815	-0.02876684	8.583644e-07	5.055592e-07	0.01459299	0.01010645	4.581514e-06	-1.334997e-06
	8.583644e-07	5.055592e-07	-0.02156787	-0.02659144	4.614536e-07	5.037594e-06	0.01399367	0.01097324
	0.01459299	0.01010645	4.614536e-07	5.037594e-06	-0.01989557	-0.02887868	1.02216e-06	6.212575e-07
	4.581514e-06	-1.334997e-06	0.01399367	0.01097324	1.02216e-06	6.212575e-07	-0.02175886	-0.02635701
4.3e+08	-0.02113172	-0.02883319	8.639812e-07	4.841911e-07	0.0149826	0.00989029	4.616322e-06	-1.560862e-06
	8.639812e-07	4.841911e-07	-0.02277923	-0.0265301	4.714593e-07	5.158181e-06	0.01437828	0.01080665
	0.0149826	0.00989029	4.714593e-07	5.158181e-06	-0.02109507	-0.02895077	1.029413e-06	5.966659e-07
	4.616322e-06	-1.560862e-06	0.01437828	0.01080665	1.029413e-06	5.966659e-07	-0.02297766	-0.02628175
4.4e+08	-0.02233139	-0.02885275	8.67527e-07	4.620123e-07	0.01535807	0.009654465	4.639559e-06	-1.792241e-06
	8.67527e-07	4.620123e-07	-0.02399248	-0.02641928	4.817233e-07	5.279124e-06	0.01475041	0.01062138
	0.01535807	0.009654465	4.817233e-07	5.279124e-06	-0.02230112	-0.02897591	1.034254e-06	5.711076e-07
	4.639559e-06	-1.792241e-06	0.01475041	0.01062138	1.034254e-06	5.711076e-07	-0.02419811	-0.0261565
4.5e+08	-0.02353527	-0.02882531	8.689367e-07	4.391342e-07	0.01571843	0.00939968	4.650822e-06	-2.028552e-06
	8.689367e-07	4.391342e-07	-0.02520553	-0.02625896	4.922684e-07	5.400433e-06	0.01510918	0.01041807
	0.01571843	0.00939968	4.922684e-07	5.400433e-06	-0.02351182	-0.02895388	1.036606e-06	5.447123e-07
	4.650822e-06	-2.028552e-06	0.01510918	0.01041807	1.036606e-06	5.447123e-07	-0.0254181	-0.02598122
4.6e+08	-0.02474145	-0.02875071	8.68151e-07	4.156724e-07	0.01606273	0.009126692	4.649741e-06	-2.269189e-06
	8.68151e-07	4.156724e-07	-0.02641633	-0.02604919	5.031175e-07	5.522114e-06	0.01545369	0.01019739
	0.01606273	0.009126692	5.031175e-07	5.522114e-06	-0.02472527	-0.02888448	1.036398e-06	5.176144e-07
	4.649741e-06	-2.269189e-06	0.01545369	0.01019739	1.036398e-06	5.176144e-07	-0.02663554	-0.025756
4.7e+08	-0.02594803	-0.02862889	8.651166e-07	3.917464e-07	0.01639007	0.0088363	4.635973e-06	-2.513521e-06
	8.651166e-07	3.917464e-07	-0.0276228	-0.02579011	5.142947e-07	5.644174e-06	0.01578311	0.009960043
	0.01639007	0.0088363	5.142947e-07	5.644174e-06	-0.02593956	-0.02876763	1.033569e-06	4.89953e-07
	4.635973e-06	-2.513521e-06	0.01578311	0.009960043	1.033569e-06	4.89953e-07	-0.02784834	-0.02548099
4.8e+08	-0.02715313	-0.02845984	8.597864e-07	3.674793e-07	0.01669958	0.00852935	4.609208e-06	-2.7609e-06
	8.597864e-07	3.674793e-07	-0.02882291	-0.02548196	5.258243e-07	5.766619e-06	0.01609663	0.009706798
