!$
! Info: Touchstone file created by Circ.  Input file=Tx_2in_Rx_100ohms_TxVia_35mils_RxVia_45mils.circ
!$
# Hz S RI R 50
0	0.00221383	4.717759e-26	1.782765e-08	4.874988e-27	2.969296e-05	4.12975e-24	3.469555e-08	1.103988e-27
	1.782767e-08	4.873747e-27	0.002212748	5.320554e-26	3.462105e-08	1.745577e-26	3.011585e-05	4.905654e-24
	2.785838e-05	4.241083e-24	3.462105e-08	1.745611e-26	0.002226567	4.499133e-26	2.116025e-08	5.768512e-27
	3.469555e-08	1.104657e-27	2.826928e-05	4.930055e-24	2.116025e-08	5.769687e-27	0.002225979	4.982431e-26
1e+07	0.003145568	0.001743449	2.479794e-08	5.19796e-08	0.0001212615	0.0005686312	6.444717e-08	1.570719e-07
	2.479794e-08	5.19796e-08	0.003144238	0.001743177	5.842907e-08	1.593461e-07	0.0001205588	0.0005687723
	0.0001212023	0.000568635	5.842907e-08	1.59346e-07	0.003129372	0.001753197	2.924197e-08	6.212483e-08
	6.444717e-08	1.570719e-07	0.0001204992	0.0005687824	2.924197e-08	6.212483e-08	0.003127746	0.001752984
2e+07	0.003919454	0.002811829	3.543434e-08	9.460844e-08	0.0001294049	0.00116426	1.023979e-07	2.839293e-07
	3.543434e-08	9.460844e-08	0.003914025	0.002811267	8.047294e-08	2.907373e-07	0.0001266558	0.001164708
	0.0001293928	0.001164297	8.047293e-08	2.907373e-07	0.003912051	0.002842175	4.190434e-08	1.129429e-07
	1.023977e-07	2.839293e-07	0.0001266478	0.001164742	4.190434e-08	1.129429e-07	0.003905459	0.002841772
3e+07	0.004561807	0.003603099	4.60911e-08	1.352025e-07	0.000170781	0.00172289	1.446219e-07	4.045094e-07
	4.60911e-08	1.352025e-07	0.004549774	0.00360283	9.76741e-08	4.180428e-07	0.0001646896	0.001723892
	0.0001707835	0.001722895	9.76741e-08	4.180428e-07	0.004562797	0.003646013	5.45477e-08	1.613302e-07
	1.446219e-07	4.045094e-07	0.0001646896	0.001723897	5.45477e-08	1.613302e-07	0.00454823	0.003646144
4e+07	0.005150087	0.004278382	5.809993e-08	1.743562e-07	0.0002470944	0.002268004	1.950866e-07	5.200826e-07
	5.809993e-08	1.743562e-07	0.00512878	0.004278704	1.140937e-07	5.430414e-07	0.0002363783	0.002269865
	0.0002470896	0.002268	1.140937e-07	5.430414e-07	0.005159744	0.004331522	6.875872e-08	2.080431e-07
	1.950866e-07	5.200826e-07	0.0002363729	0.002269863	6.875871e-08	2.080431e-07	0.005134009	0.004332558
5e+07	0.005711562	0.004876314	7.152375e-08	2.120352e-07	0.0003870608	0.002798203	2.539761e-07	6.302386e-07
	7.152375e-08	2.120352e-07	0.005678203	0.004878033	1.30303e-07	6.659567e-07	0.0003704572	0.002801298
	0.0003870567	0.002798202	1.30303e-07	6.659567e-07	0.005730299	0.004938067	8.466276e-08	2.53036e-07
	2.539761e-07	6.302386e-07	0.0003704536	0.002801297	8.466276e-08	2.53036e-07	0.005690073	0.004940999
6e+07	0.006259143	0.005415091	8.632023e-08	2.483504e-07	0.0005481103	0.003317124	3.210348e-07	7.348703e-07
	8.632023e-08	2.483504e-07	0.00621123	0.005419228	1.464301e-07	7.871653e-07	0.0005244054	0.003321936
	0.0005481141	0.003317124	1.464301e-07	7.871653e-07	0.006287365	0.0054841	1.022071e-07	2.964088e-07
	3.210348e-07	7.348703e-07	0.0005244077	0.003321935	1.022071e-07	2.964088e-07	0.006229668	0.005490175
7e+07	0.006799861	0.005905049	1.024661e-07	2.833489e-07	0.0007301155	0.003824539	3.960696e-07	8.33846e-07
	1.024661e-07	2.833489e-07	0.006734994	0.005912624	1.625944e-07	9.0695e-07	0.0006981346	0.003831617
	0.0007301273	0.003824537	1.625944e-07	9.0695e-07	0.006837932	0.005980072	1.213478e-07	3.382167e-07
	3.960696e-07	8.33846e-07	0.0006981422	0.003831614	1.213478e-07	3.382167e-07	0.006759902	0.005990523
8e+07	0.007337847	0.006353008	1.19952e-07	3.170205e-07	0.0009327777	0.004319776	4.789295e-07	9.269064e-07
	1.19952e-07	3.170205e-07	0.007253558	0.006365107	1.788982e-07	1.025465e-06	0.0008913722	0.004329731
	0.0009327924	0.00431977	1.788982e-07	1.025465e-06	0.007386081	0.006432839	1.420629e-07	3.784629e-07
	4.789295e-07	9.269064e-07	0.0008913816	0.004329725	1.42063e-07	3.784629e-07	0.007284764	0.006448973
9e+07	0.00787578	0.006764378	1.387585e-07	3.493072e-07	0.001155613	0.004801714	5.694375e-07	1.013672e-06
	1.387585e-07	3.493072e-07	0.007769517	0.006782287	1.953956e-07	1.142769e-06	0.001103656	0.004815232
	0.001155623	0.004801707	1.953956e-07	1.142769e-06	0.007934423	0.006847748	1.64329e-07	4.170998e-07
	5.694375e-07	1.013672e-06	0.001103663	0.004815227	1.64329e-07	4.170998e-07	0.007806746	0.006871122
1e+08	0.008416626	0.007147712	1.588445e-07	3.801213e-07	0.001397537	0.005267281	6.673604e-07	1.093681e-06
	1.588445e-07	3.801213e-07	0.00828583	0.007172999	2.12092e-07	1.258869e-06	0.001333924	0.00528513
	0.001397537	0.005267281	2.12092e-07	1.258869e-06	0.00848573	0.007232828	1.881057e-07	4.540434e-07
	6.673604e-07	1.093681e-06	0.001333924	0.00528513	1.881057e-07	4.540434e-07	0.008328602	0.007265355
1.1e+08	0.008979272	0.007483248	1.800701e-07	4.094993e-07	0.001649881	0.005721998	7.719329e-07	1.166486e-06
	1.800701e-07	4.094993e-07	0.008823456	0.007520114	2.290975e-07	1.373893e-06	0.001573796	0.005744928
	0.001649881	0.005721998	2.290975e-07	1.373893e-06	0.009058282	0.007571392	2.132625e-07	4.892468e-07
	7.719329e-07	1.166486e-06	0.001573796	0.005744928	2.132625e-07	4.892468e-07	0.008870152	0.007617009
1.2e+08	0.009538981	0.007779462	2.023535e-07	4.374051e-07	0.001922555	0.006166925	8.828635e-07	1.231965e-06
	2.023535e-07	4.374051e-07	0.00935614	0.007828107	2.461506e-07	1.488033e-06	0.001832958	0.006195856
	0.001922555	0.006166925	2.461506e-07	1.488033e-06	0.009628288	0.007869662	2.396723e-07	5.227137e-07
	8.828635e-07	1.231965e-06	0.001832958	0.006195856	2.396723e-07	5.227137e-07	0.009406883	0.007929512
1.3e+08	0.01009847	0.00804288	2.256422e-07	4.637946e-07	0.002214473	0.006598628	9.998166e-07	1.28976e-06
	2.256422e-07	4.637946e-07	0.009886272	0.008104255	2.633153e-07	1.601349e-06	0.002110401	0.006634554
	0.002214473	0.006598628	2.633153e-07	1.601349e-06	0.01019806	0.008134054	2.672743e-07	5.543932e-07
	9.998166e-07	1.28976e-06	0.002110401	0.006634554	2.672743e-07	5.543932e-07	0.009940894	0.008209796
1.4e+08	0.01065876	0.008275155	2.498743e-07	4.886156e-07	0.002524827	0.00701567	1.122409e-06	1.339512e-06
	2.498743e-07	4.886156e-07	0.01041483	0.008350817	2.806308e-07	1.713875e-06	0.002405392	0.00705965
	0.002524827	0.00701567	2.806308e-07	1.713875e-06	0.01076849	0.008366449	2.95997e-07	5.842251e-07
	1.122409e-06	1.339512e-06	0.002405392	0.00705965	2.95997e-07	5.842251e-07	0.01047307	0.008460196
1.5e+08	0.01122015	0.008477159	2.749785e-07	5.118132e-07	0.002852809	0.007416943	1.25022e-06	1.380867e-06
	2.749785e-07	5.118132e-07	0.01094225	0.008569126	2.981193e-07	1.825629e-06	0.0027172	0.007470094
	0.002852809	0.007416943	2.981193e-07	1.825629e-06	0.01133989	0.008567903	3.257575e-07	6.121451e-07
	1.25022e-06	1.380867e-06	0.0027172	0.007470094	3.257575e-07	6.121451e-07	0.01100384	0.008682141
1.6e+08	0.01178254	0.008649474	3.008749e-07	5.333328e-07	0.003197584	0.007801486	1.382792e-06	1.413483e-06
	3.008749e-07	5.333328e-07	0.01146865	0.008760105	3.157886e-07	1.936619e-06	0.003045063	0.007864981
	0.003197584	0.007801486	3.157886e-07	1.936619e-06	0.01191222	0.008739108	3.564626e-07	6.380895e-07
	1.382792e-06	1.413483e-06	0.003045063	0.007864981	3.564626e-07	6.380895e-07	0.01153335	0.008876623
1.7e+08	0.01234558	0.008792558	3.274759e-07	5.531227e-07	0.003558285	0.008168433	1.51964e-06	1.437042e-06
	3.274759e-07	5.531227e-07	0.01199392	0.008924451	3.336352e-07	2.046849e-06	0.003388189	0.008243491
	0.003558285	0.008168433	3.336352e-07	2.046849e-06	0.01248517	0.008880577	3.880103e-07	6.61997e-07
	1.51964e-06	1.437042e-06	0.003388189	0.008243491	3.880103e-07	6.61997e-07	0.0120615	0.009044388
1.8e+08	0.01290874	0.008906811	3.546876e-07	5.711349e-07	0.003934014	0.008516988	1.660249e-06	1.451249e-06
	3.546876e-07	5.711349e-07	0.01251777	0.009062733	3.516467e-07	2.156319e-06	0.003745755	0.008604876
	0.003934014	0.008516988	3.516467e-07	2.156319e-06	0.01305827	0.008992722	4.202908e-07	6.838111e-07
	1.660249e-06	1.451249e-06	0.003745755	0.008604876	4.202908e-07	6.838111e-07	0.01258805	0.009186032
1.9e+08	0.01347136	0.008992614	3.824106e-07	5.873264e-07	0.004323841	0.008846416	1.804085e-06	1.455837e-06
	3.824106e-07	5.873264e-07	0.01303978	0.009175448	3.69804e-07	2.265032e-06	0.004116907	0.008948441
	0.004323841	0.008846416	3.69804e-07	2.265032e-06	0.0136309	0.009075903	4.531882e-07	7.034807e-07
	1.804085e-06	1.455837e-06	0.004116907	0.008948441	4.531882e-07	7.034807e-07	0.01311263	0.00930206
2e+08	0.01403273	0.009050328	4.105415e-07	6.016598e-07	0.004726806	0.009156036	1.950592e-06	1.450567e-06
	4.105415e-07	6.016598e-07	0.01355948	0.00926304	3.880827e-07	2.372989e-06	0.004500763	0.009273543
	0.004726806	0.009156036	3.880827e-07	2.372989e-06	0.01420236	0.009130458	4.865812e-07	7.209613e-07
	1.950592e-06	1.450567e-06	0.004500763	0.009273543	4.865812e-07	7.209613e-07	0.01363477	0.009392921
2.1e+08	0.01459208	0.009080314	4.389732e-07	6.141035e-07	0.005141922	0.009445219	2.099197e-06	1.435232e-06
	4.389732e-07	6.141035e-07	0.0140763	0.009325929	4.064551e-07	2.480195e-06	0.004896413	0.009579588
	0.005141922	0.009445219	4.064551e-07	2.480195e-06	0.01477189	0.009156705	5.203443e-07	7.362152e-07
	2.099197e-06	1.435232e-06	0.004896413	0.009579588	5.203443e-07	7.362152e-07	0.01415393	0.009459024
2.2e+08	0.01514862	0.009082929	4.675956e-07	6.246323e-07	0.005568173	0.009713389	2.249316e-06	1.409656e-06
	4.675956e-07	6.246323e-07	0.01458963	0.009364515	4.248905e-07	2.586656e-06	0.005302922	0.00986603
	0.005568173	0.009713389	4.248905e-07	2.586656e-06	0.01533865	0.009154966	5.543486e-07	7.492119e-07
	2.249316e-06	1.409656e-06	0.005302922	0.00986603	5.543486e-07	7.492119e-07	0.01466952	0.009500766
2.3e+08	0.01570151	0.009058542	4.962966e-07	6.332269e-07	0.006004519	0.009960019	2.400349e-06	1.373694e-06
	4.962966e-07	6.332269e-07	0.01509885	0.009379201	4.43357e-07	2.692379e-06	0.005719331	0.01013237
	0.006004519	0.009960019	4.43357e-07	2.692379e-06	0.0159018	0.009125576	5.884624e-07	7.599282e-07
	2.400349e-06	1.373694e-06	0.005719331	0.01013237	5.884624e-07	7.599282e-07	0.0151809	0.009518541
2.4e+08	0.01624991	0.009007516	5.249623e-07	6.398747e-07	0.006449895	0.01018463	2.55169e-06	1.327237e-06
	5.249623e-07	6.398747e-07	0.01560328	0.009370378	4.61821e-07	2.797376e-06	0.006144658	0.01037816
	0.006449895	0.01018463	4.61821e-07	2.797376e-06	0.01646046	0.009068868	6.225519e-07	7.683483e-07
	2.55169e-06	1.327237e-06	0.006144658	0.01037816	6.225519e-07	7.683483e-07	0.01568741	0.009512732
2.5e+08	0.01679297	0.008930236	5.534776e-07	6.445693e-07	0.006903216	0.01038681	2.702723e-06	1.270205e-06
	5.534776e-07	6.445693e-07	0.01610226	0.009338451	4.802488e-07	2.901658e-06	0.006577903	0.01060298
	0.006903216	0.01038681	4.802488e-07	2.901658e-06	0.01701373	0.008985208	6.56482e-07	7.744641e-07
	2.702723e-06	1.270205e-06	0.006577903	0.01060298	6.56482e-07	7.744641e-07	0.01618838	0.009483742
2.6e+08	0.01732982	0.008827092	5.817266e-07	6.473107e-07	0.007363379	0.01056618	2.852826e-06	1.202553e-06
	5.817266e-07	6.473107e-07	0.01659508	0.009283827	4.986061e-07	3.00524e-06	0.007018047	0.0108065
	0.007363379	0.01056618	4.986061e-07	3.00524e-06	0.0175607	0.008874966	6.901164e-07	7.782747e-07
	2.852826e-06	1.202553e-06	0.007018047	0.0108065	6.901164e-07	7.782747e-07	0.0166831	0.009431971
2.7e+08	0.0178596	0.008698487	6.095931e-07	6.481056e-07	0.007829262	0.01072243	3.001375e-06	1.124269e-06
	6.095931e-07	6.481056e-07	0.01708106	0.009206922	5.16859e-07	3.10814e-06	0.007464054	0.01098839
	0.007829262	0.01072243	5.16859e-07	3.10814e-06	0.01810044	0.008738538	7.233185e-07	7.797872e-07
	3.001375e-06	1.124269e-06	0.007464054	0.01098839	7.233185e-07	7.797872e-07	0.01717087	0.009357835
2.8e+08	0.01838143	0.008544845	6.369606e-07	6.469667e-07	0.008299728	0.01085529	3.147742e-06	1.035376e-06
	6.369606e-07	6.469667e-07	0.01755949	0.009108167	5.349737e-07	3.210374e-06	0.007914876	0.01114841
	0.008299728	0.01085529	5.349737e-07	3.210374e-06	0.01863204	0.00857635	7.559512e-07	7.790159e-07
	3.147742e-06	1.035376e-06	0.007914876	0.01114841	7.559512e-07	7.790159e-07	0.01765099	0.009261772
2.9e+08	0.01889444	0.00836661	6.637133e-07	6.439134e-07	0.008773631	0.01096456	3.291299e-06	9.359289e-07
	6.637133e-07	6.439134e-07	0.01802968	0.008988006	5.529169e-07	3.311965e-06	0.008369452	0.01128634
	0.008773631	0.01096456	5.529169e-07	3.311965e-06	0.01915457	0.008388842	7.878783e-07	7.759827e-07
	3.291299e-06	9.359289e-07	0.008369452	0.01128634	7.878783e-07	7.759827e-07	0.01812275	0.009144223
3e+08	0.01939776	0.008164242	6.897358e-07	6.389714e-07	0.009249813	0.01105008	3.431419e-06	8.260174e-07
	6.897358e-07	6.389714e-07	0.01849094	0.008846895	5.706561e-07	3.412933e-06	0.008826713	0.01140203
	0.009249813	0.01105008	5.706561e-07	3.412933e-06	0.0196671	0.008176486	8.18964e-07	7.707169e-07
	3.431419e-06	8.260174e-07	0.008826713	0.01140203	8.18964e-07	7.707169e-07	0.01858545	0.009005654
3.1e+08	0.01989052	0.007938232	7.14914e-07	6.321726e-07	0.00972711	0.01111175	3.567478e-06	7.057645e-07
	7.14914e-07	6.321726e-07	0.01894256	0.008685311	5.881595e-07	3.513303e-06	0.009285584	0.01149538
	0.00972711	0.01111175	5.881595e-07	3.513303e-06	0.02016872	0.007939785	8.490737e-07	7.632553e-07
	3.567478e-06	7.057645e-07	0.009285584	0.01149538	8.490737e-07	7.632553e-07	0.01903838	0.008846547
3.2e+08	0.02037185	0.007689087	7.391348e-07	6.235552e-07	0.01020435	0.01114953	3.698857e-06	5.75327e-07
	7.391348e-07	6.235552e-07	0.01938386	0.008503741	6.053961e-07	3.613101e-06	0.009744982	0.01156633
	0.01020435	0.01114953	6.053961e-07	3.613101e-06	0.02065852	0.007679265	8.780744e-07	7.536422e-07
	3.698857e-06	5.75327e-07	0.009744982	0.01156633	8.780744e-07	7.536422e-07	0.01948085	0.008667402
3.3e+08	0.0208409	0.007417349	7.622871e-07	6.131636e-07	0.01068037	0.01116344	3.824942e-06	4.348948e-07
	7.622871e-07	6.131636e-07	0.01981417	0.008302699	6.223359e-07	3.712352e-06	0.01020383	0.01161487
	0.01068037	0.01116344	6.223359e-07	3.712352e-06	0.02113559	0.007395483	9.058349e-07	7.419288e-07
	3.824942e-06	4.348948e-07	0.01020383	0.01161487	9.058349e-07	7.419288e-07	0.01991218	0.008468735
3.4e+08	0.02129682	0.007123586	7.842616e-07	6.010484e-07	0.011154	0.01115355	3.945129e-06	2.846912e-07
	7.842616e-07	6.010484e-07	0.02023282	0.008082712	6.389503e-07	3.811087e-06	0.01066104	0.01164106
	0.011154	0.01115355	6.389503e-07	3.811087e-06	0.02159906	0.007089031	9.322264e-07	7.281738e-07
	3.945129e-06	2.846912e-07	0.01066104	0.01164106	9.322264e-07	7.281738e-07	0.02033171	0.008251089
3.5e+08	0.02173878	0.00680839	8.049512e-07	5.872659e-07	0.01162406	0.01111997	4.058821e-06	1.249723e-07
	8.049512e-07	5.872659e-07	0.02063916	0.007844328	6.552114e-07	3.909335e-06	0.01111553	0.01164499
	0.01162406	0.01111997	6.552114e-07	3.909335e-06	0.02204803	0.006760528	9.571228e-07	7.124429e-07
	4.058821e-06	1.249723e-07	0.01111553	0.01164499	9.571228e-07	7.124429e-07	0.02073877	0.00801502
3.6e+08	0.02216596	0.006472388	8.242517e-07	5.718788e-07	0.01208941	0.01106291	4.165436e-06	-4.397323e-08
	8.242517e-07	5.718788e-07	0.02103254	0.007588115	6.71093e-07	4.007128e-06	0.01156623	0.01162682
	0.01208941	0.01106291	6.71093e-07	4.007128e-06	0.02248166	0.006410626	9.804008e-07	6.948086e-07
	4.165436e-06	-4.397323e-08	0.01156623	0.01162682	9.804008e-07	6.948086e-07	0.02113271	0.007761107
3.7e+08	0.02257755	0.006116231	8.420615e-07	5.549551e-07	0.01254889	0.01098258	4.264401e-06	-2.218251e-07
	8.420615e-07	5.549551e-07	0.02141234	0.007314658	6.8657e-07	4.104499e-06	0.01201208	0.01158675
	0.01254889	0.01098258	6.8657e-07	4.104499e-06	0.02289909	0.006040008	1.001941e-06	6.753505e-07
	4.264401e-06	-2.218251e-07	0.01201208	0.01158675	1.001941e-06	6.753505e-07	0.02151291	0.007489948
3.8e+08	0.02297277	0.005740607	8.582825e-07	5.365688e-07	0.01300137	0.0108793	4.35516e-06	-4.082313e-07
	8.582825e-07	5.365688e-07	0.02177794	0.007024567	7.016187e-07	4.201482e-06	0.01245201	0.01152503
	0.01300137	0.0108793	7.016187e-07	4.201482e-06	0.02329951	0.005649389	1.021626e-06	6.541546e-07
	4.35516e-06	-4.082313e-07	0.01245201	0.01152503	1.021626e-06	6.541546e-07	0.02187876	0.007202162
3.9e+08	0.02335085	0.005346226	8.728199e-07	5.167992e-07	0.01344571	0.01075339	4.437173e-06	-6.028095e-07
	8.728199e-07	5.167992e-07	0.02212875	0.006718469	7.162171e-07	4.298114e-06	0.01288499	0.01144197
	0.01344571	0.01075339	7.162171e-07	4.298114e-06	0.02368212	0.005239517	1.039346e-06	6.313136e-07
	4.437173e-06	-6.028095e-07	0.01288499	0.01144197	1.039346e-06	6.313136e-07	0.02222966	0.006898389
4e+08	0.02371104	0.004933838	8.855827e-07	4.957311e-07	0.01388081	0.01060527	4.509918e-06	-8.051469e-07
	8.855827e-07	4.957311e-07	0.0224642	0.006397014	7.303447e-07	4.394431e-06	0.01330998	0.01133791
	0.01388081	0.01060527	7.303447e-07	4.394431e-06	0.02404615	0.00481117	1.054992e-06	6.069264e-07
	4.509918e-06	-8.051469e-07	0.01330998	0.01133791	1.054992e-06	6.069264e-07	0.02256503	0.006579288
4.1e+08	0.02405262	0.004504215	8.964841e-07	4.734543e-07	0.01430558	0.01043538	4.572891e-06	-1.014802e-06
	8.964841e-07	4.734543e-07	0.02278372	0.00606087	7.439825e-07	4.490471e-06	0.01372598	0.01121325
	0.01430558	0.01043538	7.439825e-07	4.490471e-06	0.02439083	0.004365161	1.068461e-06	5.81098e-07
	4.572891e-06	-1.014802e-06	0.01372598	0.01121325	1.068461e-06	5.81098e-07	0.02288434	0.00624554
4.2e+08	0.02437491	0.004058161	9.054414e-07	4.500637e-07	0.01471896	0.01024424	4.625611e-06	-1.231305e-06
	9.054414e-07	4.500637e-07	0.0230868	0.005710725	7.571136e-07	4.586273e-06	0.01413199	0.01106846
	0.01471896	0.01024424	7.571136e-07	4.586273e-06	0.02471545	0.003902325	1.079656e-06	5.539392e-07
	4.625611e-06	-1.231305e-06	0.01413199	0.01106846	1.079656e-06	5.539392e-07	0.02318703	0.00589784
4.3e+08	0.02467723	0.003596507	9.12377e-07	4.256591e-07	0.0151199	0.01003239	4.667618e-06	-1.454158e-06
	9.12377e-07	4.256591e-07	0.0233729	0.005347286	7.697224e-07	4.681879e-06	0.01452703	0.01090401
	0.0151199	0.01003239	7.697224e-07	4.681879e-06	0.02501933	0.003423537	1.088485e-06	5.255666e-07
	4.667618e-06	-1.454158e-06	0.01452703	0.01090401	1.088485e-06	5.255666e-07	0.0234726	0.005536911
4.4e+08	0.02495894	0.003120113	9.172175e-07	4.003446e-07	0.01550739	0.009800457	4.698477e-06	-1.682838e-06
	9.172175e-07	4.003446e-07	0.02364155	0.00497128	7.817957e-07	4.777329e-06	0.01491017	0.01072046
	0.01550739	0.009800457	7.817957e-07	4.777329e-06	0.02530178	0.002929693	1.09486e-06	4.961022e-07
	4.698477e-06	-1.682838e-06	0.01491017	0.01072046	1.09486e-06	4.961022e-07	0.02374058	0.005163484
4.5e+08	0.02521945	0.002629866	9.198951e-07	3.742288e-07	0.01588044	0.009549083	4.717777e-06	-1.916796e-06
	9.198951e-07	3.742288e-07	0.02389229	0.004583451	7.933219e-07	4.872666e-06	0.01528048	0.01051838
	0.01588044	0.009549083	7.933219e-07	4.872666e-06	0.0255622	0.002421722	1.098701e-06	4.656729e-07
	4.717777e-06	-1.916796e-06	0.01528048	0.01051838	1.098701e-06	4.656729e-07	0.0239905	0.004778318
4.6e+08	0.02545817	0.002126679	9.203473e-07	3.474243e-07	0.01623809	0.009278974	4.725135e-06	-2.15546e-06
	9.203473e-07	3.474243e-07	0.02412467	0.004184561	8.042915e-07	4.967932e-06	0.01563706	0.01029841
	0.01623809	0.009278974	8.042915e-07	4.967932e-06	0.02579999	0.001900577	1.099933e-06	4.344106e-07
	4.725135e-06	-2.15546e-06	0.01563706	0.01029841	1.099933e-06	4.344106e-07	0.02422192	0.004382182
4.7e+08	0.02567457	0.001611489	9.185168e-07	3.200476e-07	0.01657943	0.008990878	4.720194e-06	-2.398234e-06
	9.185168e-07	3.200476e-07	0.02433829	0.003775391	8.146968e-07	5.063171e-06	0.01597906	0.01006122
	0.01657943	0.008990878	8.146968e-07	5.063171e-06	0.02601457	0.001367235	1.098487e-06	4.02452e-07
	4.720194e-06	-2.398234e-06	0.01597906	0.01006122	1.098487e-06	4.02452e-07	0.02443444	0.003975862
4.8e+08	0.02586815	0.001085256	9.143525e-07	2.922188e-07	0.01690356	0.008685587	4.702628e-06	-2.644503e-06
	9.143525e-07	2.922188e-07	0.02453277	0.003356733	8.245327e-07	5.158429e-06	0.01630565	0.009807526
	0.01690356	0.008685587	8.245327e-07	5.158429e-06	0.02620544	0.0008227035	1.094304e-06	3.699376e-07
	4.702628e-06	-2.644503e-06	0.01630565	0.009807526	1.094304e-06	3.699376e-07	0.02462769	0.003560165
4.9e+08	0.02603844	0.0005489644	9.078091e-07	2.640611e-07	0.01720964	0.008363936	4.672141e-06	-2.89363e-06
