!$
! Info: Touchstone file created by Circ.  Input file=Tx_2in_Rx_93ohms_TxVia_35mils_RxVia_45mils.circ
!$
# Hz S RI R 50
0	0.00197148	4.616061e-26	-1.096535e-05	3.888954e-24	3.025235e-05	3.595202e-24	-1.094607e-05	1.534386e-24
	-1.096536e-05	3.889519e-24	0.001969848	5.318072e-26	-1.09777e-05	5.432434e-24	3.010762e-05	4.353122e-24
	3.006582e-05	3.580109e-24	-1.09777e-05	5.431956e-24	0.00198246	4.617849e-26	-1.096378e-05	3.73509e-24
	-1.094608e-05	1.534831e-24	2.82611e-05	4.374811e-24	-1.096378e-05	3.735449e-24	0.001983083	4.98007e-26
1e+07	0.002825735	0.0002019164	-5.101118e-05	-2.675591e-06	5.613244e-05	0.0005635495	-1.00429e-05	-2.290598e-06
	-5.101118e-05	-2.675591e-06	0.002880877	0.0002006517	-2.794365e-05	1.063324e-05	5.532354e-05	0.0005613166
	5.612725e-05	0.0005635506	-2.794365e-05	1.063324e-05	0.002897614	0.0002087543	-5.100152e-05	-2.224848e-06
	-1.00429e-05	-2.290598e-06	5.526397e-05	0.0005613268	-5.100152e-05	-2.224848e-06	0.002839603	0.0002034603
2e+07	0.003459655	-0.0002339186	-4.140395e-05	-1.468562e-05	8.29997e-05	0.001130589	-3.487386e-06	-1.193162e-05
	-4.140395e-05	-1.468562e-05	0.003497926	-0.0002576545	-2.815504e-05	3.566834e-06	8.077236e-05	0.001126578
	8.300114e-05	0.001130593	-2.815504e-05	3.566833e-06	0.003521494	-0.0002424719	-4.103539e-05	-1.555886e-05
	-3.487385e-06	-1.193162e-05	8.076448e-05	0.001126612	-4.103539e-05	-1.555886e-05	0.003468077	-0.0002316297
3e+07	0.003904272	-0.0009245237	-3.435699e-05	-2.09501e-05	0.0001539151	0.001678721	-3.627354e-06	-1.476712e-05
	-3.435699e-05	-2.09501e-05	0.003924715	-0.0009564529	-2.821873e-05	1.481249e-06	0.0001456304	0.001673838
	0.0001539176	0.00167872	-2.821873e-05	1.481249e-06	0.003959071	-0.0009351036	-3.370183e-05	-2.198415e-05
	-3.627354e-06	-1.476712e-05	0.0001456304	0.001673843	-3.370183e-05	-2.198415e-05	0.003903904	-0.0009205632
4e+07	0.004234022	-0.001715199	-2.860202e-05	-2.437007e-05	0.0002585378	0.002216984	-8.646834e-06	-1.549878e-05
	-2.860202e-05	-2.437007e-05	0.004234377	-0.001751601	-2.821216e-05	9.631254e-08	0.0002446425	0.002211643
	0.0002585384	0.002216982	-2.821216e-05	9.631264e-08	0.004283629	-0.001724957	-2.770785e-05	-2.550177e-05
	-8.646834e-06	-1.549878e-05	0.0002446371	0.002211641	-2.770785e-05	-2.550177e-05	0.004221345	-0.001709298
5e+07	0.004475572	-0.002566869	-2.365966e-05	-2.641612e-05	0.0003859154	0.002746462	-1.305187e-05	-1.517814e-05
	-2.365966e-05	-2.641612e-05	0.004453031	-0.002604954	-2.814682e-05	-1.090937e-06	0.0003651276	0.002741208
	0.0003859155	0.002746462	-2.814682e-05	-1.090937e-06	0.004521278	-0.002574541	-2.25548e-05	-2.761022e-05
	-1.305187e-05	-1.517814e-05	0.0003651239	0.002741207	-2.25548e-05	-2.761022e-05	0.004446811	-0.002558216
6e+07	0.004641882	-0.003459974	-1.927039e-05	-2.758741e-05	0.0005358393	0.003266826	-1.697468e-05	-1.409364e-05
	-1.927039e-05	-2.758741e-05	0.004593733	-0.003497198	-2.803217e-05	-2.260148e-06	0.0005069095	0.003262267
	0.0005358403	0.003266826	-2.803217e-05	-2.260148e-06	0.004684673	-0.003464855	-1.797277e-05	-2.8819e-05
	-1.697468e-05	-1.409364e-05	0.0005069118	0.003262266	-1.797277e-05	-2.8819e-05	0.004593501	-0.003447464
7e+07	0.004740385	-0.004382264	-1.526624e-05	-2.808272e-05	0.0007079949	0.003777444	-2.048106e-05	-1.236456e-05
	-1.526624e-05	-2.808272e-05	0.004663942	-0.004416262	-2.788178e-05	-3.518296e-06	0.0006697079	0.003774255
	0.000707997	0.003777444	-2.788178e-05	-3.518296e-06	0.004781063	-0.00438389	-1.378698e-05	-2.933057e-05
	-2.048106e-05	-1.236456e-05	0.0006697154	0.003774251	-1.378698e-05	-2.933057e-05	0.004668905	-0.004364748
8e+07	0.004775844	-0.005324795	-1.151744e-05	-2.79475e-05	0.0009020031	0.004277513	-2.359582e-05	-1.001125e-05
	-1.151744e-05	-2.79475e-05	0.004668336	-0.005353161	-2.771775e-05	-4.967635e-06	0.0008531736	0.004276439
	0.0009020054	0.004277512	-2.771775e-05	-4.967635e-06	0.004815094	-0.005322778	-9.862134e-06	-2.918941e-05
	-2.359582e-05	-1.001125e-05	0.0008531829	0.004276433	-9.862135e-06	-2.918941e-05	0.004677651	-0.005300982
9e+07	0.004751743	-0.006279923	-7.892554e-06	-2.706242e-05	0.001117412	0.004766113	-2.629828e-05	-6.923426e-06
	-7.892554e-06	-2.706242e-05	0.004610343	-0.00629991	-2.758093e-05	-6.763872e-06	0.001056886	0.004767991
	0.001117413	0.004766112	-2.758093e-05	-6.763872e-06	0.004790192	-0.006273777	-7.863152e-06	-2.790625e-05
	-2.629828e-05	-6.923427e-06	0.001056893	0.004767986	-7.863153e-06	-2.790625e-05	0.004623082	-0.006248194
1e+08	0.004671983	-0.007236677	-9.862857e-06	-2.3179e-05	0.001353682	0.005242113	-2.835512e-05	-2.265551e-06
	-9.862857e-06	-2.3179e-05	0.004494125	-0.007244289	-2.761608e-05	-9.560719e-06	0.001280365	0.005247974
	0.001353682	0.005242113	-2.761608e-05	-9.560719e-06	0.004710448	-0.007224977	-1.202838e-05	-2.33258e-05
	-2.835512e-05	-2.265551e-06	0.001280365	0.005247974	-1.202838e-05	-2.33258e-05	0.004509089	-0.007194927
1.1e+08	0.004558288	-0.00821178	-9.884528e-06	-1.967835e-05	0.001609004	0.00570512	-2.69999e-05	1.607642e-06
	-9.884528e-06	-1.967835e-05	0.004345735	-0.008204177	-2.523966e-05	-1.282858e-05	0.001522453	0.00571567
	0.001609004	0.00570512	-2.523966e-05	-1.282858e-05	0.004601337	-0.008195162	-1.193864e-05	-1.960198e-05
	-2.69999e-05	1.607642e-06	0.001522453	0.00571567	-1.193864e-05	-1.960198e-05	0.004359408	-0.008155614
1.2e+08	0.00438524	-0.00919688	-1.019219e-05	-1.778045e-05	0.001884123	0.006154603	-2.588282e-05	4.038711e-06
	-1.019219e-05	-1.778045e-05	0.004135127	-0.009173932	-2.269546e-05	-1.505235e-05	0.001783186	0.006170645
	0.001884122	0.006154603	-2.269546e-05	-1.505235e-05	0.00443253	-0.009177856	-1.215125e-05	-1.75742e-05
	-2.588282e-05	4.038711e-06	0.001783186	0.006170645	-1.215125e-05	-1.75742e-05	0.00414728	-0.009125307
1.3e+08	0.004156635	-0.01018269	-1.059813e-05	-1.639544e-05	0.00217835	0.006589395	-2.484069e-05	5.946819e-06
	-1.059813e-05	-1.639544e-05	0.003866182	-0.01014277	-2.011865e-05	-1.696171e-05	0.002061983	0.006611933
	0.00217835	0.006589395	-2.011865e-05	-1.696171e-05	0.00420787	-0.01016248	-1.246776e-05	-1.609541e-05
	-2.484069e-05	5.946819e-06	0.002061983	0.006611933	-1.246776e-05	-1.609541e-05	0.003876252	-0.01009394
1.4e+08	0.003874821	-0.01116509	-1.106529e-05	-1.528809e-05	0.002490937	0.007008536	-2.39913e-05	7.054281e-06
	-1.106529e-05	-1.528809e-05	0.003541333	-0.01110597	-1.752782e-05	-1.873093e-05	0.002358182	0.007038673
	0.002490937	0.007008536	-1.752782e-05	-1.873093e-05	0.00392969	-0.01114452	-1.284931e-05	-1.491779e-05
	-2.39913e-05	7.054281e-06	0.002358182	0.007038673	-1.284931e-05	-1.491779e-05	0.003548677	-0.01105676
1.5e+08	0.003541626	-0.0121409	-1.158062e-05	-1.434599e-05	0.002821082	0.007411131	-2.371975e-05	6.374341e-06
	-1.158062e-05	-1.434599e-05	0.003162562	-0.01205992	-1.493115e-05	-2.044929e-05	0.002671064	0.007450046
	0.002821082	0.007411131	-1.493115e-05	-2.044929e-05	0.00359983	-0.01212056	-1.328237e-05	-1.392281e-05
	-2.371975e-05	6.374341e-06	0.002671065	0.007450046	-1.328237e-05	-1.392281e-05	0.003166536	-0.01201009
1.6e+08	0.003158585	-0.01310737	-1.212621e-05	-1.351044e-05	0.003167941	0.00779634	-2.345298e-05	5.836118e-06
	-1.212621e-05	-1.351044e-05	0.002731604	-0.01300154	-1.233449e-05	-2.217301e-05	0.002999868	0.007845278
	0.003167941	0.00779634	-1.233449e-05	-2.217301e-05	0.00321985	-0.01308772	-1.374851e-05	-1.304859e-05
	-2.345298e-05	5.836118e-06	0.002999868	0.007845278	-1.374851e-05	-1.304859e-05	0.002731606	-0.01295078
1.7e+08	0.00272706	-0.01406198	-1.269421e-05	-1.274158e-05	0.003530628	0.008163368	-2.319275e-05	5.405015e-06
	-1.269421e-05	-1.274158e-05	0.002250046	-0.01392805	-9.743725e-06	-2.394146e-05	0.003343787	0.008223631
	0.003530627	0.008163368	-9.743725e-06	-2.394146e-05	0.002791142	-0.0140434	-1.423989e-05	-1.225304e-05
	-2.319275e-05	5.405015e-06	0.003343787	0.008223631	-1.423989e-05	-1.225304e-05	0.002245528	-0.013876
1.8e+08	0.002248316	-0.01500239	-1.327825e-05	-1.201228e-05	0.003908218	0.008511468	-2.293959e-05	5.057944e-06
	-1.327825e-05	-1.201228e-05	0.00171939	-0.0148369	-7.16527e-06	-2.578406e-05	0.003701982	0.008584411
	0.003908218	0.008511468	-7.16527e-06	-2.578406e-05	0.002314996	-0.01498519	-1.475021e-05	-1.150747e-05
	-2.293959e-05	5.057944e-06	0.003701982	0.008584411	-1.475021e-05	-1.150747e-05	0.001709865	-0.01478315
1.9e+08	0.001723573	-0.01592635	-1.387271e-05	-1.130325e-05	0.004299756	0.008839938	-2.269349e-05	4.778364e-06
	-1.387271e-05	-1.130325e-05	0.001141098	-0.01572568	-4.606396e-06	-2.772372e-05	0.00407358	0.008926965
	0.004299756	0.008839938	-4.606396e-06	-2.772372e-05	0.00179265	-0.01591082	-1.527401e-05	-1.079141e-05
	-2.269349e-05	4.778364e-06	0.00407358	0.008926965	-1.527401e-05	-1.079141e-05	0.001126133	-0.01566981
2e+08	0.001154038	-0.01683174	-1.447245e-05	-1.06003e-05	0.004704251	0.009148124	-2.245417e-05	4.554034e-06
	-1.447245e-05	-1.06003e-05	0.0005166225	-0.01659212	-2.075102e-06	-2.977878e-05	0.004457674	0.009250682
	0.004704251	0.009148124	-2.075102e-06	-2.977878e-05	0.001225322	-0.01681813	-1.580634e-05	-1.008978e-05
	-2.245417e-05	4.554034e-06	0.004457674	0.009250682	-1.580634e-05	-1.008978e-05	0.0004958328	-0.01653369
2.1e+08	0.0005409284	-0.01771649	-1.507261e-05	-9.892841e-06	0.005120684	0.009435422	-2.222127e-05	4.375573e-06
	-1.507261e-05	-9.892841e-06	-0.0001525773	-0.01743405	4.195814e-07	-3.196405e-05	0.004853331	0.009554994
	0.005120684	0.009435422	4.195814e-07	-3.196405e-05	0.0006142293	-0.01770509	-1.634257e-05	-9.391232e-06
	-2.222127e-05	4.375573e-06	0.004853331	0.009554994	-1.634257e-05	-9.391232e-06	-0.0001795339	-0.01737263
2.2e+08	-0.0001145171	-0.01857865	-1.566851e-05	-9.172865e-06	0.005548005	0.009701272	-2.19943e-05	4.235689e-06
	-1.566851e-05	-9.172865e-06	-0.0008650188	-0.01824941	2.86787e-06	-3.429162e-05	0.005259591	0.009839379
	0.005548004	0.009701272	2.86787e-06	-3.429162e-05	-3.939157e-05	-0.0185697	-1.687825e-05	-8.687136e-06
	-2.19943e-05	4.235689e-06	0.005259591	0.009839379	-1.687825e-05	-8.687136e-06	-0.0008984476	-0.01818455
2.3e+08	-0.000811024	-0.01941633	-1.625567e-05	-8.434387e-06	0.00598514	0.00994517	-2.177274e-05	4.128627e-06
	-1.625567e-05	-8.434387e-06	-0.001619184	-0.01903623	5.259893e-06	-3.677162e-05	0.005675468	0.01010336
	0.00598514	0.00994517	5.259893e-06	-3.677162e-05	-0.0007342747	-0.01941009	-1.740914e-05	-7.970949e-06
	-2.177274e-05	4.128627e-06	0.005675468	0.01010336	-1.740914e-05	-7.970949e-06	-0.001659361	-0.01896749
2.4e+08	-0.001547283	-0.02022771	-1.682968e-05	-7.672863e-06	0.006430991	0.01016666	-2.155613e-05	4.049657e-06
	-1.682968e-05	-7.672863e-06	-0.002413521	-0.01979262	7.5842e-06	-3.941178e-05	0.006099956	0.0103465
	0.006430991	0.01016666	7.5842e-06	-3.941178e-05	-0.001469126	-0.02022442	-1.793109e-05	-7.23762e-06
	-2.155613e-05	4.049657e-06	0.006099956	0.0103465	-1.793109e-05	-7.23762e-06	-0.002460698	-0.01971956
2.5e+08	-0.002321942	-0.02101107	-1.73863e-05	-6.885054e-06	0.006884438	0.01036534	-2.134397e-05	3.994956e-06
	-1.73863e-05	-6.885054e-06	-0.003246433	-0.02051681	9.833189e-06	-4.222067e-05	0.006532026	0.01056843
	0.006884438	0.01036534	9.833189e-06	-4.222067e-05	-0.002242607	-0.02101097	-1.844011e-05	-6.48344e-06
	-2.134397e-05	3.994956e-06	0.006532026	0.01056843	-1.844011e-05	-6.48344e-06	-0.003300837	-0.02043897
2.6e+08	-0.003133605	-0.02176473	-1.790433e-05	-6.056284e-06	0.007344342	0.01054086	-2.113576e-05	3.961186e-06
	-1.790433e-05	-6.056284e-06	-0.004116285	-0.02120709	9.712013e-06	-4.37743e-05	0.006970633	0.01076881
	0.007344342	0.01054086	9.712013e-06	-4.37743e-05	-0.003053345	-0.02176806	-1.891618e-05	-5.693562e-06
	-2.113576e-05	3.961186e-06	0.006970633	0.01076881	-1.891618e-05	-5.693562e-06	-0.004178118	-0.02112401
2.7e+08	-0.003980833	-0.02248711	-1.839208e-05	-5.196083e-06	0.007809547	0.01069293	-2.093104e-05	3.945778e-06
	-1.839208e-05	-5.196083e-06	-0.005021387	-0.02186185	9.21372e-06	-4.518645e-05	0.007414716	0.01094736
	0.007809547	0.01069293	9.21372e-06	-4.518645e-05	-0.003899917	-0.0224941	-1.936715e-05	-4.876768e-06
	-2.093104e-05	3.945778e-06	0.007414716	0.01094736	-1.936715e-05	-4.876768e-06	-0.005090835	-0.02177307
2.8e+08	-0.004862147	-0.0231767	-1.884839e-05	-4.306035e-06	0.008278884	0.01082132	-2.072944e-05	3.946475e-06
	-1.884839e-05	-4.306035e-06	-0.005960016	-0.02247955	8.715827e-06	-4.669586e-05	0.007863202	0.01110384
	0.008278884	0.01082132	8.715827e-06	-4.669586e-05	-0.004780865	-0.02318757	-1.979193e-05	-4.034146e-06
	-2.072944e-05	3.946475e-06	0.007863202	0.01110384	-1.979193e-05	-4.034146e-06	-0.006037245	-0.02238461
2.9e+08	-0.005776029	-0.02383207	-1.926953e-05	-3.38622e-06	0.008751173	0.01092583	-2.053056e-05	3.961325e-06
	-1.926953e-05	-3.38622e-06	-0.006930402	-0.02305876	8.20434e-06	-4.830619e-05	0.008315005	0.01123808
	0.008751173	0.01092583	8.20434e-06	-4.830619e-05	-0.005694683	-0.02384701	-2.018702e-05	-3.16534e-06
	-2.053056e-05	3.961325e-06	0.008315005	0.01123808	-2.018702e-05	-3.16534e-06	-0.007015557	-0.02295718
3e+08	-0.006720912	-0.02445187	-1.965197e-05	-2.437297e-06	0.009225224	0.01100635	-2.033398e-05	3.988654e-06
	-1.965197e-05	-2.437297e-06	-0.007930734	-0.02359813	7.665694e-06	-5.00201e-05	0.008769033	0.01134995
	0.009225224	0.01100635	7.665694e-06	-5.00201e-05	-0.00663983	-0.02447106	-2.054906e-05	-2.270569e-06
	-2.033398e-05	3.988654e-06	0.008769033	0.01134995	-2.054906e-05	-2.270569e-06	-0.00802394	-0.02348942
3.1e+08	-0.007695204	-0.02503479	-1.999232e-05	-1.460369e-06	0.009699844	0.01106282	-2.013939e-05	4.026992e-06
	-1.999232e-05	-1.460369e-06	-0.008959165	-0.02409639	7.085763e-06	-5.183858e-05	0.009224189	0.01143938
	0.009699844	0.01106282	7.085763e-06	-5.183858e-05	-0.007614726	-0.02505841	-2.087486e-05	-1.350495e-06
	-2.013939e-05	4.026992e-06	0.009224189	0.01143938	-2.087486e-05	-1.350495e-06	-0.009060528	-0.02398006
3.2e+08	-0.008697266	-0.02557964	-2.028739e-05	-4.569801e-07	0.01017383	0.01109522	-1.994646e-05	4.07505e-06
	-2.028739e-05	-4.569801e-07	-0.01001381	-0.02455236	6.450913e-06	-5.376162e-05	0.009679372	0.01150634
	0.01017383	0.01109522	6.450913e-06	-5.376162e-05	-0.008617752	-0.02560784	-2.116139e-05	-4.062166e-07
	-1.994646e-05	4.07505e-06	0.009679372	0.01150634	-2.116139e-05	-4.062166e-07	-0.01012341	-0.02442792
3.3e+08	-0.009725432	-0.02608529	-2.053423e-05	5.709218e-07	0.010646	0.01110361	-1.975483e-05	4.131688e-06
	-2.053423e-05	5.709218e-07	-0.01109276	-0.02496497	5.74785e-06	-5.57882e-05	0.01013348	0.01155086
	0.010646	0.01110361	5.74785e-06	-5.57882e-05	-0.009647253	-0.02611819	-2.140581e-05	5.60767e-07
	-1.975483e-05	4.131688e-06	0.01013348	0.01155086	-2.140581e-05	5.60767e-07	-0.01121066	-0.02483191
3.4e+08	-0.010778	-0.02655067	-2.073005e-05	1.621072e-06	0.01111514	0.0110881	-1.956424e-05	4.195891e-06
	-2.073005e-05	1.621072e-06	-0.01219405	-0.02533321	4.963203e-06	-5.791597e-05	0.01058542	0.01157303
	0.01111514	0.0110881	4.963203e-06	-5.791597e-05	-0.01070154	-0.02658838	-2.160549e-05	1.548647e-06
	-1.956424e-05	4.195891e-06	0.01058542	0.01157303	-2.160549e-05	1.548647e-06	-0.01232028	-0.025191
3.5e+08	-0.01185324	-0.02697481	-2.087234e-05	2.690887e-06	0.01158008	0.01104886	-1.937442e-05	4.266742e-06
	-2.087234e-05	2.690887e-06	-0.01331573	-0.02565618	4.084075e-06	-6.014161e-05	0.01103408	0.01157299
	0.01158008	0.01104886	4.084075e-06	-6.014161e-05	-0.01177891	-0.02701741	-2.175797e-05	2.555297e-06
	-1.937442e-05	4.266742e-06	0.01103408	0.01157299	-2.175797e-05	2.555297e-06	-0.0134503	-0.0255043
3.6e+08	-0.0129494	-0.02735679	-2.095879e-05	3.777522e-06	0.01203963	0.01098611	-1.918511e-05	4.343414e-06
	-2.095879e-05	3.777522e-06	-0.01445578	-0.02593304	3.097803e-06	-6.246066e-05	0.0114784	0.01155093
	0.01203963	0.01098611	3.097803e-06	-6.246066e-05	-0.0128776	-0.02740435	-2.186104e-05	3.578336e-06
	-1.918511e-05	4.343414e-06	0.0114784	0.01155093	-2.186104e-05	3.578336e-06	-0.01459868	-0.02577098
3.7e+08	-0.0140647	-0.02769578	-2.098737e-05	4.877878e-06	0.01249262	0.01090013	-1.899611e-05	4.425154e-06
	-2.098737e-05	4.877878e-06	-0.0156122	-0.02616308	1.992202e-06	-6.486776e-05	0.01191729	0.01150709
	0.01249262	0.01090013	1.992202e-06	-6.486776e-05	-0.01399585	-0.02774834	-2.19127e-05	4.615133e-06
	-1.899611e-05	4.425154e-06	0.01191729	0.01150709	-2.19127e-05	4.615133e-06	-0.01576338	-0.02599029
3.8e+08	-0.01519734	-0.02799104	-2.09563e-05	5.988643e-06	0.0129379	0.01079127	-1.880718e-05	4.511275e-06
	-2.09563e-05	5.988643e-06	-0.01678293	-0.02634565	7.555427e-07	-6.735659e-05	0.01234968	0.01144176
	0.0129379	0.01079127	7.555427e-07	-6.735659e-05	-0.01513186	-0.02804861	-2.191119e-05	5.662841e-06
	-1.880718e-05	4.511275e-06	0.01234968	0.01144176	-2.191119e-05	5.662841e-06	-0.01694233	-0.0261616
3.9e+08	-0.01634548	-0.02824188	-2.086408e-05	7.106324e-06	0.01337435	0.01065992	-1.861814e-05	4.601141e-06
	-2.086408e-05	7.106324e-06	-0.01796594	-0.02648019	-6.234308e-07	-6.991985e-05	0.01277454	0.01135529
	0.01337435	0.01065992	-6.234308e-07	-6.991985e-05	-0.01628382	-0.02830446	-2.185499e-05	6.71844e-06
	-1.861814e-05	4.601141e-06	0.01277454	0.01135529	-2.185499e-05	6.71844e-06	-0.01813345	-0.02628435
4e+08	-0.0175073	-0.02844769	-2.070947e-05	8.227262e-06	0.01380083	0.01050654	-1.842881e-05	4.694162e-06
	-2.070947e-05	8.227262e-06	-0.01915915	-0.02656624	-2.155391e-06	-7.254946e-05	0.01319083	0.01124807
	0.01380083	0.01050654	-2.155391e-06	-7.254946e-05	-0.01744989	-0.02851525	-2.174283e-05	7.778736e-06
	-1.842881e-05	4.694162e-06	0.01319083	0.01124807	-2.174283e-05	7.778736e-06	-0.01933465	-0.02635807
4.1e+08	-0.01868093	-0.02860795	-2.049155e-05	9.347668e-06	0.01421625	0.01033162	-1.823904e-05	4.789792e-06
	-2.049155e-05	9.347668e-06	-0.02036049	-0.02660342	-3.850447e-06	-7.523646e-05	0.01359753	0.01112056
	0.01421625	0.01033162	-3.850447e-06	-7.523646e-05	-0.01862821	-0.02868043	-2.157371e-05	8.840409e-06
	-1.823904e-05	4.789792e-06	0.01359753	0.01112056	-2.157371e-05	8.840409e-06	-0.02054382	-0.02638238
4.2e+08	-0.01986451	-0.02872221	-2.020965e-05	1.046365e-05	0.01461956	0.01013574	-1.804868e-05	4.887522e-06
	-2.020965e-05	1.046365e-05	-0.02156787	-0.02659144	-5.718085e-06	-7.797103e-05	0.01399367	0.01097324
	0.01461956	0.01013574	-5.718085e-06	-7.797103e-05	-0.01981693	-0.02879952	-2.134687e-05	9.900033e-06
	-1.804868e-05	4.887522e-06	0.01399367	0.01097324	-2.134687e-05	9.900033e-06	-0.02175886	-0.02635701
4.3e+08	-0.02105616	-0.02879008	-1.98634e-05	1.157124e-05	0.01500971	0.009919489	-1.785763e-05	4.986874e-06
	-1.98634e-05	1.157124e-05	-0.02277923	-0.0265301	-7.767095e-06	-8.074273e-05	0.01437828	0.01080665
	0.01500971	0.009919489	-7.767095e-06	-8.074273e-05	-0.02101417	-0.02887212	-2.106182e-05	1.095409e-05
	-1.785763e-05	4.986874e-06	0.01437828	0.01080665	-2.106182e-05	1.095409e-05	-0.02297766	-0.02628175
4.4e+08	-0.02225399	-0.02881127	-1.945275e-05	1.266639e-05	0.01538568	0.009683541	-1.766578e-05	5.087396e-06
	-1.945275e-05	1.266639e-05	-0.02399248	-0.02641928	-1.000553e-05	-8.354032e-05	0.01475041	0.01062138
	0.01538568	0.009683541	-1.000553e-05	-8.354032e-05	-0.02221804	-0.02889791	-2.071834e-05	1.199898e-05
	-1.766578e-05	5.087396e-06	0.01475041	0.01062138	-2.071834e-05	1.199898e-05	-0.02419811	-0.0261565
4.5e+08	-0.02345611	-0.02878555	-1.897794e-05	1.374504e-05	0.0157465	0.009428603	-1.747303e-05	5.188663e-06
	-1.897794e-05	1.374504e-05	-0.02520553	-0.02625896	-1.244067e-05	-8.635202e-05	0.01510918	0.01041807
	0.0157465	0.009428603	-1.244067e-05	-8.635202e-05	-0.02342664	-0.02887663	-2.031649e-05	1.303109e-05
	-1.747303e-05	5.188663e-06	0.01510918	0.01041807	-2.031649e-05	1.303109e-05	-0.0254181	-0.02598122
4.6e+08	-0.02466063	-0.02871277	-1.843948e-05	1.480309e-05	0.01609124	0.009155431	-1.727931e-05	5.290266e-06
	-1.843948e-05	1.480309e-05	-0.02641633	-0.02604919	-1.507906e-05	-8.916538e-05	0.01545369	0.01019739
	0.01609124	0.009155431	-1.507906e-05	-8.916538e-05	-0.02463809	-0.0288081	-1.985655e-05	1.404676e-05
	-1.727931e-05	5.290266e-06	0.01545369	0.01019739	-1.985655e-05	1.404676e-05	-0.02663554	-0.025756
4.7e+08	-0.02586566	-0.02859285	-1.783819e-05	1.583647e-05	0.01641897	0.008864828	-1.708456e-05	5.391821e-06
