!$
! Info: Touchstone file created by Circ.  Input file=Tx_2in_Rx_85ohms_TxVia_35mils_RxVia_45mils.circ
!$
# Hz S RI R 50
0	0.001746006	4.723819e-26	0.9981132	-4.230813e-26	2.97269e-05	3.234667e-24	-2.780588e-05	2.067224e-21
	0.9981132	-4.352711e-26	0.001744926	5.327654e-26	-2.81789e-05	2.112917e-21	3.015005e-05	3.841486e-24
	2.789256e-05	3.321928e-24	-2.830736e-05	2.128668e-21	0.001758762	4.504879e-26	0.9980972	-3.957607e-26
	-2.818752e-05	2.113981e-21	2.830357e-05	3.860662e-24	0.9980972	-3.953522e-26	0.001758165	4.989016e-26
1e+07	0.002412469	-0.001554427	0.9971795	-0.023944	5.649495e-05	0.0005580859	-4.212807e-05	-6.794481e-05
	0.9971795	-0.023944	0.002410197	-0.001554503	-4.213149e-05	-6.793496e-05	5.572186e-05	0.0005582375
	5.643581e-05	0.0005580898	-4.219027e-05	-6.792647e-05	0.002421105	-0.001544716	0.9971687	-0.02403822
	-4.218685e-05	-6.793632e-05	5.566233e-05	0.0005582477	0.9971687	-0.02403822	0.002418539	-0.001544749
2e+07	0.00294556	-0.003682429	0.995592	-0.04721907	0.000106614	0.001101427	-5.215081e-05	-0.0001241033
	0.995592	-0.04721907	0.002936459	-0.003682418	-5.21555e-05	-0.0001241062	0.0001035698	0.001101898
	0.0001066022	0.001101464	-5.217146e-05	-0.0001240653	0.002956874	-0.003661529	0.9955722	-0.04740855
	-5.216886e-05	-0.0001240616	0.0001035621	0.001101932	0.9955722	-0.04740855	0.002946613	-0.003661389
3e+07	0.003203834	-0.006088155	0.9936397	-0.07014939	0.0001800194	0.001638209	-6.030106e-05	-0.000177715
	0.9936397	-0.07014939	0.003183626	-0.006087181	-6.033062e-05	-0.0001777103	0.0001732754	0.001639266
	0.000180022	0.001638214	-6.032953e-05	-0.0001777036	0.003217943	-0.006057925	0.993607	-0.07043217
	-6.030008e-05	-0.0001777079	0.0001732754	0.001639271	0.993607	-0.07043217	0.003195203	-0.006056588
4e+07	0.003265292	-0.00858909	0.9912435	-0.09291107	0.0002774818	0.002168576	-6.746512e-05	-0.0002299316
	0.9912435	-0.09291107	0.003229566	-0.008586435	-6.751178e-05	-0.0002299167	0.0002656265	0.002170562
	0.000277477	0.002168572	-6.751757e-05	-0.0002299222	0.00328245	-0.008550277	0.9911935	-0.09328598
	-6.747113e-05	-0.0002299377	0.0002656211	0.00217056	0.9911935	-0.09328598	0.003242303	-0.008546943
5e+07	0.003158343	-0.01113963	0.9883782	-0.1155353	0.000398767	0.002691643	-7.365674e-05	-0.0002815637
	0.9883782	-0.1155353	0.003102617	-0.01113395	-7.372629e-05	-0.0002815428	0.0003804166	0.002695015
	0.0003987629	0.002691642	-7.373122e-05	-0.0002815452	0.003178771	-0.01109288	0.9883066	-0.116001
	-7.366198e-05	-0.0002815664	0.0003804129	0.002695014	0.9883066	-0.116001	0.003116193	-0.01108602
6e+07	0.002897277	-0.01371593	0.9850333	-0.1380318	0.0005434242	0.003206517	-7.90742e-05	-0.0003332312
	0.9850333	-0.1380318	0.002817387	-0.01370554	-7.917536e-05	-0.000333201	0.0005172494	0.003211826
	0.0005434281	0.003206517	-7.917072e-05	-0.0003332002	0.00292111	-0.01366183	0.9849362	-0.1385869
	-7.90691e-05	-0.0003332302	0.0005172516	0.003211825	0.9849362	-0.1385869	0.00283146	-0.01364953
7e+07	0.002490719	-0.01630223	0.9812035	-0.1604015	0.000710994	0.003712294	-8.387839e-05	-0.0003853245
	0.9812035	-0.1604015	0.002382646	-0.01628535	-8.401641e-05	-0.0003852782	0.0006757111	0.003720167
	0.0007110058	0.003712292	-8.400132e-05	-0.0003852785	0.00251802	-0.01624134	0.9810769	-0.1610447
	-8.386186e-05	-0.0003853247	0.0006757186	0.003720164	0.9810769	-0.1610447	0.002396825	-0.01622159
8e+07	0.001944554	-0.01888666	0.9768863	-0.1826408	0.0009010056	0.004208057	-8.813282e-05	-0.000438206
	0.9768863	-0.1826408	0.001804269	-0.0188613	-8.83095e-05	-0.0004381361	0.0008553646	0.004219193
	0.0009010201	0.00420805	-8.828966e-05	-0.00043814	0.001975334	-0.01881949	0.9767263	-0.1833707
	-8.811108e-05	-0.0004382101	0.0008553739	0.004219187	0.9767262	-0.1833707	0.001818083	-0.01879007
9e+07	0.001263254	-0.02145951	0.9720812	-0.2047434	0.001112958	0.004692937	-9.188196e-05	-0.0004923683
	0.9720812	-0.2047434	0.001086698	-0.02142339	-9.209673e-05	-0.0004922682	0.001055739	0.004708119
	0.001112968	0.004692929	-9.208147e-05	-0.0004922736	0.001297477	-0.02138655	0.9718836	-0.2055586
	-9.186525e-05	-0.0004923742	0.001055746	0.004708113	0.9718836	-0.2055586	0.001099604	-0.02134489
1e+08	0.0004503952	-0.02401318	0.9667888	-0.2267009	0.001346444	0.005166733	-9.536373e-05	-0.0005490411
	0.9667888	-0.2267009	0.0002335553	-0.02396362	-9.561431e-05	-0.0005489047	0.001276464	0.005186831
	0.001346444	0.005166733	-9.561431e-05	-0.0005489046	0.0004879681	-0.02393497	0.9665497	-0.2275994
	-9.536373e-05	-0.0005490411	0.001276464	0.005186831	0.9665497	-0.2275994	0.0002449442	-0.02387803
1.1e+08	-0.0004935984	-0.02654482	0.9610173	-0.2485042	0.001603107	0.005626436	-0.0001020418	-0.0006062752
	0.9610173	-0.2485042	-0.0007525343	-0.02647638	-0.000102333	-0.0006060886	0.001519473	0.005652283
	0.001603107	0.005626436	-0.0001023329	-0.0006060886	-0.000451747	-0.02646012	0.9607337	-0.2494844
	-0.0001020418	-0.0006062751	0.001519473	0.005652283	0.9607337	-0.2494844	-0.000742804	-0.02638272
1.2e+08	-0.001563127	-0.02903579	0.954763	-0.2701496	0.00187928	0.006070407	-0.0001083721	-0.000663954
	0.954763	-0.2701496	-0.001867442	-0.02894697	-0.0001087038	-0.0006637145	0.00178086	0.006103042
	0.00187928	0.006070407	-0.0001087038	-0.0006637145	-0.001517217	-0.02894596	0.9544312	-0.27121
	-0.0001083721	-0.000663954	0.00178086	0.006103042	0.9544312	-0.27121	-0.001859838	-0.02884563
1.3e+08	-0.002753668	-0.03148158	0.9480288	-0.2916262	0.002174344	0.006498572	-0.0001148361	-0.0007231803
	0.9480288	-0.2916262	-0.003106896	-0.03137001	-0.0001152085	-0.0007228833	0.002060101	0.006539118
	0.002174344	0.006498572	-0.0001152085	-0.0007228833	-0.002704209	-0.03138753	0.9476452	-0.2927649
	-0.0001148361	-0.0007231802	0.002060101	0.006539118	0.9476452	-0.2927649	-0.003102059	-0.03126118
1.4e+08	-0.004061205	-0.03387718	0.9408182	-0.3129237	0.002487505	0.00691019	-0.0001217815	-0.0007843066
	0.9408182	-0.3129237	-0.004466819	-0.0337398	-0.0001221947	-0.0007839464	0.002356488	0.006959843
	0.002487505	0.00691019	-0.0001221947	-0.0007839464	-0.004008774	-0.03377943	0.940379	-0.3141389
	-0.0001217815	-0.0007843066	0.002356488	0.006959843	0.940379	-0.3141389	-0.004465431	-0.03362345
1.5e+08	-0.005482058	-0.03621767	0.9331348	-0.3340322	0.002817899	0.007304464	-0.000129533	-0.0008475569
	0.9331348	-0.3340322	-0.005943298	-0.03605087	-0.0001299863	-0.0008471265	0.002669245	0.007364487
	0.002817899	0.007304464	-0.0001299863	-0.0008471265	-0.00542719	-0.03611649	0.9326365	-0.3353217
	-0.000129533	-0.0008475569	0.002669245	0.007364487	0.9326365	-0.3353217	-0.005946018	-0.03592679
1.6e+08	-0.007012703	-0.03849827	0.9249831	-0.3549414	0.003164611	0.00768061	-0.0001384103	-0.0009130926
	0.9249831	-0.3549414	-0.007532494	-0.03829803	-0.000138902	-0.0009125846	0.002997541	0.007752323
	0.003164611	0.00768061	-0.000138902	-0.0009125846	-0.00695585	-0.03839377	0.9244222	-0.3563032
	-0.0001384102	-0.0009130926	0.002997541	0.007752323	0.9244222	-0.3563032	-0.007539922	-0.03816587
1.7e+08	-0.008649664	-0.04071431	0.9163676	-0.3756415	0.003526679	0.008037875	-0.0001487347	-0.0009810323
	0.9163676	-0.3756415	-0.009230579	-0.0404763	-0.0001492623	-0.0009804389	0.003340502	0.008122657
	0.003526679	0.008037875	-0.0001492623	-0.0009804389	-0.008591179	-0.04060649	0.9157407	-0.3770732
	-0.0001487347	-0.0009810323	0.003340502	0.008122657	0.9157407	-0.3770732	-0.009243242	-0.04033564
1.8e+08	-0.01038943	-0.04286126	0.9072934	-0.3961223	0.003903106	0.00837555	-0.0001608322	-0.001051459
	0.9072934	-0.3961223	-0.01103368	-0.04258091	-0.000161392	-0.001050772	0.003697215	0.008474827
	0.003903106	0.00837555	-0.000161392	-0.001050772	-0.01032958	-0.04275009	0.906597	-0.3976216
	-0.0001608322	-0.001051459	0.003697215	0.008474827	0.906597	-0.3976216	-0.01105204	-0.04243127
1.9e+08	-0.01222842	-0.04493475	0.8977657	-0.416374	0.004292855	0.00869297	-0.0001750336	-0.001124423
	0.8977657	-0.416374	-0.01293787	-0.04460733	-0.0001756209	-0.001123635	0.004066734	0.008808217
	0.004292855	0.00869297	-0.0001756209	-0.001123635	-0.01216742	-0.04482017	0.8969967	-0.4179383
	-0.0001750336	-0.001124423	0.004066734	0.008808217	0.8969967	-0.4179383	-0.01296231	-0.04444818
2e+08	-0.01416295	-0.04693054	0.8877901	-0.4363868	0.004694861	0.008989523	-0.0001916743	-0.001199943
	0.8877901	-0.4363868	-0.01493912	-0.04655118	-0.0001922833	-0.001199046	0.004448082	0.009122254
	0.004694861	0.008989523	-0.0001922833	-0.001199046	-0.01410093	-0.04681253	0.8869454	-0.4380136
	-0.0001916743	-0.001199943	0.004448082	0.009122254	0.8869454	-0.4380136	-0.01496996	-0.04638198
2.1e+08	-0.01618921	-0.04884461	0.8773726	-0.456151	0.005108027	0.009264648	-0.0002110926	-0.001278005
	0.8773726	-0.456151	-0.0170333	-0.04840833	-0.0002117165	-0.001276992	0.004840255	0.009416415
	0.005108027	0.009264648	-0.0002117165	-0.001276992	-0.01612631	-0.04872312	0.876449	-0.4578375
	-0.0002110926	-0.001278005	0.004840255	0.009416415	0.876449	-0.4578375	-0.01707081	-0.0482285
2.2e+08	-0.01830329	-0.05067307	0.8665194	-0.475657	0.00553123	0.009517838	-0.0002336284	-0.001358567
	0.8665194	-0.475657	-0.01921616	-0.05017483	-0.0002342595	-0.001357431	0.005242223	0.009690226
	0.00553123	0.009517838	-0.0002342595	-0.001357431	-0.0182396	-0.05054809	0.8655138	-0.4774004
	-0.0002336284	-0.001358567	0.005242223	0.009690226	0.8655138	-0.4774004	-0.01926056	-0.04998379
2.3e+08	-0.02050113	-0.05241224	0.8552367	-0.4948954	0.005963326	0.009748643	-0.000259621	-0.001441554
	0.8552367	-0.4948954	-0.02148334	-0.05184692	-0.0002602506	-0.001440289	0.005652936	0.009943265
	0.005963326	0.009748643	-0.0002602506	-0.001440289	-0.02043675	-0.05228378	0.8541464	-0.4966928
	-0.000259621	-0.001441554	0.005652936	0.009943265	0.8541464	-0.4966928	-0.02153481	-0.05164409
2.4e+08	-0.02277859	-0.05405863	0.8435314	-0.5138569	0.006403148	0.009956671	-0.000289407	-0.001526862
	0.8435314	-0.5138569	-0.02383039	-0.05342107	-0.0002900258	-0.001525461	0.006071323	0.01017516
	0.006403148	0.009956671	-0.0002900258	-0.001525461	-0.0227136	-0.05392672	0.8423533	-0.5157053
	-0.000289407	-0.001526862	0.006071323	0.01017516	0.8423533	-0.5157053	-0.02388907	-0.05320586
2.5e+08	-0.02513138	-0.05560896	0.8314102	-0.5325324	0.006849511	0.01014159	-0.0003233187	-0.001614354
	0.8314102	-0.5325324	-0.02625272	-0.05489396	-0.0003239163	-0.001612813	0.0064963	0.01038561
	0.006849511	0.01014159	-0.0003239163	-0.001612813	-0.02506589	-0.05547362	0.8301417	-0.5344286
	-0.0003233187	-0.001614354	0.0064963	0.01038561	0.8301417	-0.5344286	-0.02631871	-0.05466577
2.6e+08	-0.02755511	-0.05706014	0.8188804	-0.5509129	0.007301219	0.01030313	-0.0003616812	-0.001703868
	0.8188804	-0.5509129	-0.02874564	-0.05626247	-0.0003622467	-0.001702183	0.006926766	0.01057433
	0.007301219	0.01030313	-0.0003622467	-0.001702183	-0.02748924	-0.0569214	0.8175188	-0.5528539
	-0.0003616812	-0.001703868	0.006926766	0.01057433	0.8175188	-0.5528539	-0.028819	-0.05602069
2.7e+08	-0.03004532	-0.0584093	0.8059492	-0.5689898	0.007757063	0.01044107	-0.0004048109	-0.001795209
	0.8059492	-0.5689898	-0.03130438	-0.05752372	-0.0004053328	-0.001793376	0.007361614	0.01074114
	0.007757063	0.01044107	-0.0004053328	-0.001793376	-0.02997918	-0.0582672	0.804492	-0.5709722
	-0.0004048109	-0.001795209	0.007361614	0.01074114	0.804492	-0.5709722	-0.03138514	-0.05726775
2.8e+08	-0.03259741	-0.05965377	0.7926242	-0.5867544	0.008215825	0.01055527	-0.000453013	-0.001888155
	0.7926242	-0.5867544	-0.03392404	-0.05867503	-0.0004534792	-0.001886173	0.007799728	0.01088588
	0.008215825	0.01055527	-0.0004534792	-0.001886173	-0.03253115	-0.05950833	0.7910689	-0.5887748
	-0.000453013	-0.001888155	0.007799728	0.01088588	0.7910689	-0.5887748	-0.03401221	-0.05840425
2.9e+08	-0.03520674	-0.06079108	0.7789133	-0.6041983	0.008676284	0.01064563	-0.0005065798	-0.001982459
	0.7789133	-0.6041983	-0.03659968	-0.05971397	-0.0005069777	-0.001980326	0.008239987	0.01100846
	0.008676284	0.01064563	-0.0005069777	-0.001980326	-0.0351405	-0.06064233	0.7772574	-0.6062533
	-0.0005065798	-0.001982459	0.008239987	0.01100846	0.7772574	-0.6062533	-0.03669522	-0.05942775
3e+08	-0.03786858	-0.06181901	0.7648242	-0.6213135	0.009137218	0.01071213	-0.0005657884	-0.002077845
	0.7648242	-0.6213135	-0.03932625	-0.06063832	-0.0005661052	-0.002075561	0.008681271	0.01110884
	0.009137218	0.01071213	-0.0005661052	-0.002075561	-0.03780251	-0.06166696	0.7630656	-0.6233995
	-0.0005657884	-0.002077845	0.008681271	0.01110884	0.7630656	-0.6233995	-0.0394291	-0.06033604
3.1e+08	-0.04057811	-0.06273551	0.7503651	-0.6380919	0.009597406	0.01075481	-0.0006308992	-0.002174012
	0.7503651	-0.6380919	-0.04209865	-0.06144608	-0.0006311215	-0.002171578	0.00912246	0.01118705
	0.009597406	0.01075481	-0.0006311215	-0.002171578	-0.04051238	-0.06258016	0.7485017	-0.6402053
	-0.0006308992	-0.002174012	0.00912246	0.01118705	0.7485017	-0.6402053	-0.0422087	-0.06112712
3.2e+08	-0.0433305	-0.06353879	0.7355445	-0.6545259	0.01005563	0.01077376	-0.0007021535	-0.002270637
	0.7355445	-0.6545259	-0.04491172	-0.06213552	-0.0007022681	-0.002268054	0.009562442	0.01124317
	0.01005563	0.01077376	-0.0007022681	-0.002268054	-0.04326527	-0.0633801	0.733574	-0.6566629
	-0.0007021535	-0.002270637	0.009562442	0.01124317	0.733574	-0.6566629	-0.04502882	-0.06179922
3.3e+08	-0.04612082	-0.06422722	0.7203706	-0.6706078	0.01051069	0.01076914	-0.0007797726	-0.002367373
	0.7203706	-0.6706078	-0.04776023	-0.06270508	-0.0007797659	-0.002364644	0.01000011	0.01127732
	0.01051069	0.01076914	-0.0007797659	-0.002364644	-0.04605628	-0.06406519	0.7182912	-0.6727648
	-0.0007797726	-0.002367373	0.01000011	0.01127732	0.7182912	-0.6727648	-0.04788423	-0.06235083
3.4e+08	-0.04894413	-0.06479944	0.7048521	-0.6863305	0.01096139	0.01074117	-0.0008639552	-0.002463851
	0.7048521	-0.6863305	-0.05063895	-0.06315349	-0.0008638138	-0.002460981	0.01043437	0.01128969
	0.01096139	0.01074117	-0.0008638138	-0.002460981	-0.04888045	-0.064634	0.7026621	-0.6885034
	-0.0008639552	-0.002463851	0.01043437	0.01128969	0.7026621	-0.6885034	-0.05076963	-0.06278064
3.5e+08	-0.05179544	-0.06525427	0.6889978	-0.7016868	0.01140654	0.01069012	-0.000954877	-0.002559686
	0.6889978	-0.7016868	-0.05354259	-0.06347967	-0.0009545874	-0.00255668	0.01086413	0.01128052
	0.01140654	0.01069012	-0.0009545874	-0.00255668	-0.0517328	-0.06508537	0.6866954	-0.7038718
	-0.000954877	-0.002559686	0.01086413	0.01128052	0.6866954	-0.7038718	-0.05367969	-0.0630876
3.6e+08	-0.05466975	-0.06559075	0.6728165	-0.7166699	0.01184499	0.01061634	-0.001052688	-0.002654472
	0.6728165	-0.7166699	-0.05646585	-0.06368279	-0.001052237	-0.002651336	0.01128834	0.01125012
	0.01184499	0.01061634	-0.001052237	-0.002651336	-0.05460833	-0.06541831	0.6704002	-0.718863
	-0.001052688	-0.002654472	0.01128834	0.01125012	0.6704002	-0.718863	-0.05660908	-0.06327087
3.7e+08	-0.05756204	-0.06580815	0.6563174	-0.7312732	0.01227559	0.01052021	-0.001157513	-0.002747788
	0.6563174	-0.7312732	-0.0594034	-0.06376225	-0.001156888	-0.002744531	0.01170595	0.01119882
	0.01227559	0.01052021	-0.001156888	-0.002744531	-0.05750201	-0.06563207	0.6537858	-0.7334703
	-0.001157513	-0.002747788	0.01170595	0.01119882	0.6537858	-0.7334703	-0.05955245	-0.06332987
3.8e+08	-0.06046727	-0.06590593	0.6395096	-0.7454904	0.01269722	0.01040218	-0.001269449	-0.0028392
	0.6395096	-0.7454904	-0.06234994	-0.06371768	-0.001268636	-0.002835829	0.01211592	0.01112702
	0.01269722	0.01040218	-0.001268636	-0.002835829	-0.0604088	-0.0657261	0.6368612	-0.7476873
	-0.001269449	-0.0028392	0.01211592	0.01112702	0.6368612	-0.7476873	-0.06250445	-0.06326421
3.9e+08	-0.06338042	-0.06588379	0.6224023	-0.7593152	0.0131088	0.01026277	-0.001388563	-0.002928259
	0.6224023	-0.7593152	-0.06530016	-0.06354893	-0.001387551	-0.002924785	0.01251726	0.01103517
	0.0131088	0.01026277	-0.001387551	-0.002924785	-0.06332367	-0.06570008	0.619636	-0.7615079
	-0.001388563	-0.002928259	0.01251726	0.01103517	0.619636	-0.7615079	-0.06545971	-0.06307378
4e+08	-0.06629645	-0.0657416	0.6050049	-0.7727419	0.01350925	0.01010252	-0.001514894	-0.003014509
	0.6050049	-0.7727419	-0.06824875	-0.06325609	-0.001513671	-0.003010942	0.012909	0.01092377
	0.01350925	0.01010252	-0.001513671	-0.003010942	-0.06624158	-0.06555389	0.6021197	-0.774926
	-0.001514894	-0.003014509	0.012909	0.01092377	0.6021197	-0.774926	-0.06841291	-0.06275866
4.1e+08	-0.06921037	-0.06547949	0.5873269	-0.7857648	0.01389755	0.009922054	-0.001648452	-0.003097483
	0.5873269	-0.7857648	-0.07119046	-0.06283945	-0.001647008	-0.003093835	0.01329018	0.01079334
	0.01389755	0.009922054	-0.001647008	-0.003093835	-0.06915752	-0.0652876	0.5843219	-0.787936
	-0.001648452	-0.003097483	0.01329018	0.01079334	0.5843219	-0.787936	-0.07135875	-0.06231917
4.2e+08	-0.0721172	-0.06509775	0.5693779	-0.7983783	0.0142727	0.009722017	-0.001789215	-0.003176709
	0.5693779	-0.7983783	-0.07412005	-0.06229955	-0.001787538	-0.003172994	0.01365989	0.01064448
	0.0142727	0.009722017	-0.001787538	-0.003172994	-0.07206651	-0.06490153	0.5662522	-0.8005324
	-0.001789215	-0.003176709	0.01365989	0.01064448	0.5662522	-0.8005324	-0.07429196	-0.06175586
4.3e+08	-0.07501197	-0.06459689	0.5511675	-0.8105775	0.01463373	0.009503116	-0.001937129	-0.003251711
	0.5511675	-0.8105775	-0.07703233	-0.06163712	-0.001935211	-0.003247942	0.01401725	0.01047781
	0.01463373	0.009503116	-0.001935211	-0.003247942	-0.07496358	-0.06439616	0.5479204	-0.81271
	-0.001937129	-0.003251711	0.01401725	0.01047781	0.5479204	-0.81271	-0.0772073	-0.06106949
4.4e+08	-0.07788979	-0.06397764	0.5327054	-0.8223572	0.01497973	0.009266103	-0.002092109	-0.00332201
	0.5327054	-0.8223572	-0.07992216	-0.06085314	-0.002089941	-0.003318203	0.0143614	0.010294
	0.01497973	0.009266103	-0.002089941	-0.003318203	-0.07784381	-0.06377221	0.5293365	-0.8244639
	-0.002092109	-0.00332201	0.0143614	0.010294	0.5293365	-0.8244639	-0.08009961	-0.06026106
4.5e+08	-0.0807458	-0.0632409	0.5140014	-0.8337129	0.0153098	0.009011771	-0.002254041	-0.003387129
	0.5140014	-0.8337129	-0.08278446	-0.05994877	-0.002251615	-0.003383299	0.01469152	0.01009375
	0.0153098	0.009011771	-0.002251615	-0.003383299	-0.08070233	-0.06303058	0.5105103	-0.8357892
	-0.002254041	-0.003387129	0.01469152	0.01009375	0.5105103	-0.8357892	-0.08296376	-0.05933174
4.6e+08	-0.08357517	-0.06238778	0.4950655	-0.8446401	0.01562311	0.008740952	-0.002422774	-0.003446591
	0.4950655	-0.8446401	-0.08561422	-0.0589254	-0.002420085	-0.003442755	0.01500686	0.009877807
	0.01562311	0.008740952	-0.002420085	-0.003442755	-0.08353432	-0.06217236	0.4914519	-0.8466815
	-0.002422774	-0.003446591	0.01500686	0.009877807	0.4914519	-0.8466815	-0.08579472	-0.05828296
4.7e+08	-0.08637318	-0.06141959	0.4759074	-0.8551345	0.01591886	0.00845452	-0.00259813	-0.003499925
	0.4759074	-0.8551345	-0.08840649	-0.05778461	-0.002595172	-0.0034961	0.01530665	0.009646951
	0.01591886	0.00845452	-0.002595172	-0.0034961	-0.08633503	-0.06119884	0.4721713	-0.8571366
	-0.00259813	-0.003499925	0.01530665	0.009646951	0.4721713	-0.8571366	-0.08858751	-0.05711633
4.8e+08	-0.08913514	-0.06033782	0.4565372	-0.8651922	0.01619629	0.008153382	-0.002779898	-0.003546666
	0.4565372	-0.8651922	-0.09115644	-0.05652818	-0.002776665	-0.003542869	0.01559022	0.009401987
	0.01619629	0.008153382	-0.002776665	-0.003542869	-0.08909976	-0.06011153	0.4526786	-0.8671504
	-0.002779898	-0.003546666	0.01559022	0.009401987	0.4526786	-0.8671504	-0.09133725	-0.05583366
4.9e+08	-0.09185645	-0.05914414	0.4369649	-0.8748093	0.0164547	0.007838482	-0.002967834	-0.003586356
	0.4369649	-0.8748093	-0.0938593	-0.05515811	-0.002964325	-0.003582606	0.0158569	0.009143756
	0.0164547	0.007838482	-0.002964325	-0.003582606	-0.09182391	-0.05891207	0.4329839	-0.8767192
	-0.002967834	-0.003586356	0.0158569	0.009143756	0.4329839	-0.8767192	-0.09403915	-0.05443697
5e+08	-0.09453261	-0.05784041	0.4172005	-0.8839824	0.01669343	0.007510791	-0.003161666	-0.00361855
	0.4172005	-0.8839824	-0.0965104	-0.05367657	-0.003157879	-0.003614866	0.01610608	0.008873126
	0.01669343	0.007510791	-0.003157879	-0.003614866	-0.09450294	-0.05760232	0.4130975	-0.8858395
