!$
! Info: Touchstone file created by Circ.  Input file=Tx_2in_Rx_100ohms_TxVia_35mils_RxVia_45mils.circ
!$
# Hz S RI R 50
0	0.00221383	4.717759e-26	0.9976453	-4.224302e-26	2.969296e-05	4.12975e-24	-2.77719e-05	2.066255e-21
	0.9976453	-4.346067e-26	0.002212748	5.320554e-26	-2.814474e-05	2.111927e-21	3.011585e-05	4.905654e-24
	2.785838e-05	4.241083e-24	-2.82731e-05	2.127671e-21	0.002226567	4.499133e-26	0.9976293	-3.951435e-26
	-2.815331e-05	2.11299e-21	2.826928e-05	4.930055e-24	0.9976293	-3.947363e-26	0.002225979	4.982431e-26
1e+07	0.003145568	0.001743449	0.9965547	-0.02321035	0.0001212615	0.0005686312	-0.0001100113	-0.0001225213
	0.9965547	-0.02321035	0.003144238	0.001743177	-0.0001100149	-0.0001225105	0.0001205588	0.0005687723
	0.0001212023	0.000568635	-0.0001100736	-0.0001225021	0.003129372	0.001753197	0.9965691	-0.02330408
	-0.0001100701	-0.0001225128	0.0001204992	0.0005687824	0.9965691	-0.02330408	0.003127746	0.001752984
2e+07	0.003919454	0.002811829	0.9950221	-0.04567195	0.0001294049	0.00116426	-8.704024e-05	-0.0002742801
	0.9950221	-0.04567195	0.003914025	0.002811267	-8.704601e-05	-0.000274282	0.0001266558	0.001164708
	0.0001293928	0.001164297	-8.7062e-05	-0.0002742411	0.003912051	0.002842175	0.9950224	-0.04586985
	-8.705831e-05	-0.0002742384	0.0001266478	0.001164742	0.9950224	-0.04586985	0.003905459	0.002841772
3e+07	0.004561807	0.003603099	0.9931675	-0.06781141	0.000170781	0.00172289	-7.78916e-05	-0.0003918703
	0.9931675	-0.06781141	0.004549774	0.00360283	-7.792342e-05	-0.0003918652	0.0001646896	0.001723892
	0.0001707835	0.001722895	-7.792234e-05	-0.0003918585	0.004562797	0.003646013	0.9931511	-0.06810547
	-7.789063e-05	-0.0003918632	0.0001646896	0.001723897	0.9931511	-0.06810547	0.00454823	0.003646144
4e+07	0.005150087	0.004278382	0.9909115	-0.08978989	0.0002470944	0.002268004	-8.426089e-05	-0.0004992528
	0.9909115	-0.08978989	0.00512878	0.004278704	-8.431134e-05	-0.0004992382	0.0002363783	0.002269865
	0.0002470896	0.002268	-8.431712e-05	-0.0004992437	0.005159744	0.004331522	0.9908745	-0.09017748
	-8.426689e-05	-0.000499259	0.0002363729	0.002269863	0.9908745	-0.09017748	0.005134009	0.004332558
5e+07	0.005711562	0.004876314	0.9882281	-0.1116389	0.0003870608	0.002798203	-0.0001349843	-0.0005961762
	0.9882281	-0.1116389	0.005678203	0.004878033	-0.0001350592	-0.0005961548	0.0003704572	0.002801298
	0.0003870567	0.002798202	-0.0001350641	-0.0005961572	0.005730299	0.004938067	0.988167	-0.1121178
	-0.0001349895	-0.000596179	0.0003704536	0.002801297	0.988167	-0.1121178	0.005690073	0.004940999
6e+07	0.006259143	0.005415091	0.9851065	-0.1333697	0.0005481103	0.003317124	-0.0001879049	-0.0006872963
	0.9851065	-0.1333697	0.00621123	0.005419228	-0.0001880129	-0.0006872646	0.0005244054	0.003321936
	0.0005481141	0.003317124	-0.0001880083	-0.0006872637	0.006287365	0.0054841	0.9850176	-0.1339382
	-0.0001878998	-0.0006872952	0.0005244077	0.003321935	0.9850176	-0.1339382	0.006229668	0.005490175
7e+07	0.006799861	0.005905049	0.981541	-0.1549855	0.0007301155	0.003824539	-0.0002432699	-0.0007731844
	0.981541	-0.1549855	0.006734994	0.005912624	-0.0002434163	-0.0007731354	0.0006981346	0.003831617
	0.0007301273	0.003824537	-0.0002434013	-0.0007731357	0.006837932	0.005980072	0.9814208	-0.1556417
	-0.0002432534	-0.0007731845	0.0006981422	0.003831614	0.9814208	-0.1556417	0.006759902	0.005990523
8e+07	0.007337847	0.006353008	0.9775285	-0.1764853	0.0009327777	0.004319776	-0.0003010307	-0.000853966
	0.9775285	-0.1764853	0.007253558	0.006365107	-0.0003012174	-0.0008538922	0.0008913722	0.004329731
	0.0009327924	0.00431977	-0.0003011976	-0.000853896	0.007386081	0.006432839	0.9773732	-0.1772274
	-0.0003010089	-0.00085397	0.0008913816	0.004329725	0.9773732	-0.1772274	0.007284764	0.006448973
9e+07	0.00787578	0.006764378	0.9730673	-0.1978659	0.001155613	0.004801714	-0.0003609218	-0.0009294115
	0.9730673	-0.1978659	0.007769517	0.006782287	-0.0003611483	-0.0009293061	0.001103656	0.004815232
	0.001155623	0.004801707	-0.0003611331	-0.0009293114	0.007934423	0.006847748	0.9728732	-0.198692
	-0.0003609051	-0.0009294173	0.001103663	0.004815227	0.9728732	-0.198692	0.007806746	0.006871122
1e+08	0.008416626	0.007147712	0.9681556	-0.219127	0.001397537	0.005267281	-0.000422125	-0.0009974105
	0.9681556	-0.219127	0.00828583	0.007172999	-0.0004223887	-0.0009972672	0.001333924	0.00528513
	0.001397537	0.005267281	-0.0004223887	-0.0009972672	0.00848573	0.007232828	0.9679193	-0.2200345
	-0.000422125	-0.0009974105	0.001333924	0.00528513	0.9679193	-0.2200345	0.008328602	0.007265355
1.1e+08	0.008979272	0.007483248	0.9627793	-0.2402442	0.001649881	0.005721998	-0.0004772661	-0.001064272
	0.9627793	-0.2402442	0.008823456	0.007520114	-0.0004775723	-0.001064078	0.001573796	0.005744928
	0.001649881	0.005721998	-0.0004775723	-0.001064078	0.009058282	0.007571392	0.9624998	-0.2412317
	-0.0004772661	-0.001064272	0.001573796	0.005744928	0.9624998	-0.2412317	0.008870152	0.007617009
1.2e+08	0.009538981	0.007779462	0.9569619	-0.2612106	0.001922555	0.006166925	-0.000536085	-0.001132202
	0.9569619	-0.2612106	0.00935614	0.007828107	-0.000536434	-0.001131954	0.001832958	0.006195856
	0.001922555	0.006166925	-0.000536434	-0.001131954	0.009628288	0.007869662	0.9566355	-0.2622773
	-0.0005360849	-0.001132202	0.001832958	0.006195856	0.9566355	-0.2622773	0.009406883	0.007929512
1.3e+08	0.01009847	0.00804288	0.950704	-0.2820243	0.002214473	0.006598628	-0.0005981238	-0.001198596
	0.950704	-0.2820243	0.009886272	0.008104255	-0.0005985162	-0.001198289	0.002110401	0.006634554
	0.002214473	0.006598628	-0.0005985161	-0.001198289	0.01019806	0.008134054	0.9503271	-0.2831688
	-0.0005981238	-0.001198596	0.002110401	0.006634554	0.9503271	-0.2831688	0.009940894	0.008209796
1.4e+08	0.01065876	0.008275155	0.9440077	-0.3026785	0.002524827	0.00701567	-0.0006632262	-0.001262818
	0.9440077	-0.3026785	0.01041483	0.008350817	-0.0006636623	-0.001262446	0.002405392	0.00705965
	0.002524827	0.00701567	-0.0006636622	-0.001262446	0.01076849	0.008366449	0.9435767	-0.3038993
	-0.0006632262	-0.001262818	0.002405392	0.00705965	0.9435767	-0.3038993	0.01047307	0.008460196
1.5e+08	0.01122015	0.008477159	0.9368755	-0.3231656	0.002852809	0.007416943	-0.000731259	-0.001324531
	0.9368755	-0.3231656	0.01094225	0.008569126	-0.0007317384	-0.001324087	0.0027172	0.007470094
	0.002852809	0.007416943	-0.0007317383	-0.001324087	0.01133989	0.008567903	0.936387	-0.3244608
	-0.000731259	-0.001324531	0.0027172	0.007470094	0.936387	-0.3244608	0.01100384	0.008682141
1.6e+08	0.01178254	0.008649473	0.9293104	-0.3434778	0.003197584	0.007801486	-0.0008020903	-0.001383511
	0.9293104	-0.3434778	0.01146865	0.008760105	-0.0008026116	-0.001382988	0.003045063	0.007864981
	0.003197584	0.007801486	-0.0008026116	-0.001382988	0.01191222	0.008739108	0.928761	-0.3448453
	-0.0008020903	-0.001383511	0.003045063	0.007864981	0.928761	-0.3448453	0.01153335	0.008876623
1.7e+08	0.01234558	0.008792558	0.9213157	-0.3636067	0.003558285	0.008168433	-0.000875586	-0.001439599
	0.9213157	-0.3636067	0.01199392	0.008924451	-0.000876147	-0.001438988	0.003388189	0.008243491
	0.003558285	0.008168433	-0.000876147	-0.001438988	0.01248517	0.008880577	0.9207021	-0.3650445
	-0.000875586	-0.001439599	0.003388189	0.008243491	0.9207021	-0.3650445	0.0120615	0.009044388
1.8e+08	0.01290874	0.008906811	0.912895	-0.3835442	0.003934014	0.008516988	-0.0009516108	-0.00149267
	0.912895	-0.3835442	0.01251777	0.009062733	-0.0009522081	-0.001491963	0.003745755	0.008604876
	0.003934014	0.008516988	-0.0009522081	-0.001491963	0.01305827	0.008992722	0.9122139	-0.3850501
	-0.0009516108	-0.00149267	0.003745755	0.008604876	0.9122139	-0.3850501	0.01258805	0.009186032
1.9e+08	0.01347136	0.008992614	0.9040522	-0.4032819	0.004323841	0.008846416	-0.001030029	-0.001542625
	0.9040522	-0.4032819	0.01303978	0.009175448	-0.001030658	-0.001541814	0.004116907	0.008948441
	0.004323841	0.008846416	-0.001030658	-0.001541814	0.0136309	0.009075903	0.9033005	-0.4048535
	-0.001030029	-0.001542625	0.004116907	0.008948441	0.9033005	-0.4048535	0.01311263	0.00930206
2e+08	0.01403273	0.009050328	0.8947915	-0.4228115	0.004726806	0.009156036	-0.001110703	-0.001589385
	0.8947915	-0.4228115	0.01355948	0.00926304	-0.001111359	-0.001588461	0.004500763	0.009273543
	0.004726806	0.009156036	-0.001111359	-0.001588461	0.01420236	0.009130458	0.893966	-0.4244464
	-0.001110703	-0.001589385	0.004500763	0.009273543	0.893966	-0.4244464	0.01363477	0.009392921
2.1e+08	0.01459208	0.009080314	0.8851172	-0.4421247	0.005141922	0.009445219	-0.001193499	-0.001632881
	0.8851172	-0.4421247	0.0140763	0.009325929	-0.001194174	-0.001631837	0.004896413	0.009579588
	0.005141922	0.009445219	-0.001194174	-0.001631837	0.01477189	0.009156705	0.8842149	-0.4438204
	-0.001193499	-0.001632881	0.004896413	0.009579588	0.8842149	-0.4438204	0.01415393	0.009459024
2.2e+08	0.01514862	0.009082929	0.8750339	-0.4612133	0.005568173	0.009713389	-0.00127828	-0.001673059
	0.8750339	-0.4612133	0.01458963	0.009364515	-0.001278968	-0.001671887	0.005302922	0.00986603
	0.005568173	0.009713389	-0.001278968	-0.001671887	0.01533865	0.009154966	0.8740519	-0.462967
	-0.00127828	-0.001673059	0.005302922	0.00986603	0.8740519	-0.462967	0.01466952	0.009500766
2.3e+08	0.01570151	0.009058542	0.8645464	-0.4800689	0.006004519	0.009960019	-0.001364913	-0.001709872
	0.8645464	-0.4800689	0.01509885	0.009379201	-0.001365605	-0.001708566	0.005719331	0.01013237
	0.006004519	0.009960019	-0.001365605	-0.001708566	0.0159018	0.009125576	0.8634817	-0.481878
	-0.001364913	-0.001709872	0.005719331	0.01013237	0.8634817	-0.481878	0.0151809	0.009518541
2.4e+08	0.01624991	0.009007516	0.8536597	-0.4986833	0.006449895	0.01018463	-0.001453265	-0.001743283
	0.8536597	-0.4986833	0.01560328	0.009370378	-0.001453952	-0.001741836	0.006144658	0.01037816
	0.006449895	0.01018463	-0.001453952	-0.001741836	0.01646046	0.009068868	0.8525096	-0.5005449
	-0.001453265	-0.001743283	0.006144658	0.01037816	0.8525096	-0.5005449	0.01568741	0.009512732
2.5e+08	0.01679297	0.008930236	0.842379	-0.5170486	0.006903216	0.01038681	-0.001543205	-0.001773261
	0.842379	-0.5170486	0.01610226	0.009338451	-0.001543876	-0.001771667	0.006577903	0.01060298
	0.006903216	0.01038681	-0.001543876	-0.001771667	0.01701373	0.008985208	0.8411407	-0.5189598
	-0.001543205	-0.001773261	0.006577903	0.01060298	0.8411407	-0.5189598	0.01618838	0.009483742
2.6e+08	0.01732982	0.008827092	0.8307096	-0.5351566	0.007363379	0.01056618	-0.001634602	-0.001799782
	0.8307096	-0.5351566	0.01659508	0.009283827	-0.001635247	-0.001798036	0.007018047	0.0108065
	0.007363379	0.01056618	-0.001635247	-0.001798036	0.0175607	0.008874966	0.8293806	-0.5371143
	-0.001634602	-0.001799782	0.007018047	0.0108065	0.8293806	-0.5371143	0.0166831	0.009431971
2.7e+08	0.0178596	0.008698487	0.8186572	-0.5529993	0.007829262	0.01072243	-0.00172733	-0.001822828
	0.8186572	-0.5529993	0.01708106	0.009206922	-0.001727937	-0.001820926	0.007464054	0.01098839
	0.007829262	0.01072243	-0.001727937	-0.001820926	0.01810044	0.008738538	0.817235	-0.5550005
	-0.00172733	-0.001822828	0.007464054	0.01098839	0.817235	-0.5550005	0.01717087	0.009357835
2.8e+08	0.01838143	0.008544845	0.8062275	-0.570569	0.008299728	0.01085529	-0.001821261	-0.001842388
	0.8062275	-0.570569	0.01755949	0.009108167	-0.001821818	-0.001840326	0.007914876	0.01114841
	0.008299728	0.01085529	-0.001821818	-0.001840326	0.01863204	0.00857635	0.8047096	-0.5726105
	-0.001821261	-0.001842388	0.007914876	0.01114841	0.8047096	-0.5726105	0.01765099	0.009261772
2.9e+08	0.01889444	0.00836661	0.7934265	-0.5878579	0.008773631	0.01096456	-0.001916274	-0.001858453
	0.7934265	-0.5878579	0.01802968	0.008988006	-0.001916767	-0.00185623	0.008369452	0.01128634
	0.008773631	0.01096456	-0.001916767	-0.00185623	0.01915457	0.008388842	0.7918105	-0.5899364
	-0.001916274	-0.001858453	0.008369452	0.01128634	0.7918105	-0.5899364	0.01812275	0.009144223
3e+08	0.01939776	0.008164242	0.7802603	-0.6048584	0.009249813	0.01105008	-0.002012245	-0.001871023
	0.7802603	-0.6048584	0.01849094	0.008846895	-0.002012663	-0.001868637	0.008826713	0.01140203
	0.009249813	0.01105008	-0.002012663	-0.001868637	0.0196671	0.008176486	0.778544	-0.6069706
	-0.002012245	-0.001871023	0.008826713	0.01140203	0.778544	-0.6069706	0.01858545	0.009005654
3.1e+08	0.01989052	0.007938232	0.7667352	-0.621563	0.00972711	0.01111175	-0.002109058	-0.0018801
	0.7667352	-0.621563	0.01894256	0.008685311	-0.002109386	-0.001877551	0.009285584	0.01149538
	0.00972711	0.01111175	-0.002109386	-0.001877551	0.02016872	0.007939785	0.7649163	-0.6237054
	-0.002109058	-0.0018801	0.009285584	0.01149538	0.7649163	-0.6237054	0.01903838	0.008846547
3.2e+08	0.02037185	0.007689087	0.7528575	-0.6379643	0.01020435	0.01114953	-0.002206597	-0.001885692
	0.7528575	-0.6379643	0.01938386	0.008503741	-0.002206821	-0.001882981	0.009744982	0.01156633
	0.01020435	0.01114953	-0.002206821	-0.001882981	0.02065852	0.007679265	0.7509342	-0.6401333
	-0.002206597	-0.001885692	0.009744982	0.01156633	0.7509342	-0.6401333	0.01948085	0.008667402
3.3e+08	0.0208409	0.007417349	0.738634	-0.654055	0.01068037	0.01116344	-0.002304749	-0.00188781
	0.738634	-0.654055	0.01981417	0.008302699	-0.002304856	-0.001884939	0.01020383	0.01161487
	0.01068037	0.01116344	-0.002304856	-0.001884939	0.02113559	0.007395483	0.7366042	-0.6562472
	-0.002304749	-0.00188781	0.01020383	0.01161487	0.7366042	-0.6562472	0.01991218	0.008468735
3.4e+08	0.02129682	0.007123586	0.7240715	-0.669828	0.011154	0.01115355	-0.002403406	-0.001886469
	0.7240715	-0.669828	0.02023282	0.008082712	-0.002403381	-0.001883441	0.01066104	0.01164106
	0.011154	0.01115355	-0.002403381	-0.001883441	0.02159906	0.007089031	0.7219334	-0.6720396
	-0.002403406	-0.001886469	0.01066104	0.01164106	0.7219334	-0.6720396	0.02033171	0.008251089
3.5e+08	0.02173878	0.00680839	0.7091767	-0.6852763	0.01162406	0.01111997	-0.002502462	-0.001881689
	0.7091767	-0.6852763	0.02063916	0.007844328	-0.00250229	-0.001878508	0.01111553	0.01164499
	0.01162406	0.01111997	-0.00250229	-0.001878508	0.02204803	0.006760528	0.7069286	-0.6875037
	-0.002502462	-0.001881689	0.01111553	0.01164499	0.7069286	-0.6875037	0.02073877	0.00801502
3.6e+08	0.02216596	0.006472388	0.6939569	-0.700393	0.01208941	0.01106291	-0.002601814	-0.00187349
	0.6939569	-0.700393	0.02103254	0.007588115	-0.002601482	-0.001870162	0.01156623	0.01162682
	0.01208941	0.01106291	-0.002601482	-0.001870162	0.02248166	0.006410626	0.6915971	-0.7026325
	-0.002601814	-0.00187349	0.01156623	0.01162682	0.6915971	-0.7026325	0.02113271	0.007761107
3.7e+08	0.02257755	0.006116231	0.6784193	-0.7151716	0.01254889	0.01098258	-0.002701364	-0.001861898
	0.6784193	-0.7151716	0.02141234	0.007314658	-0.002700858	-0.001858429	0.01201208	0.01158675
	0.01254889	0.01098258	-0.002700858	-0.001858429	0.02289909	0.006040008	0.6759463	-0.7174192
	-0.002701364	-0.001861898	0.01201208	0.01158675	0.6759463	-0.7174192	0.02151291	0.007489948
3.8e+08	0.02297277	0.005740607	0.6625711	-0.7296054	0.01300137	0.0108793	-0.002801018	-0.001846939
	0.6625711	-0.7296054	0.02177794	0.007024567	-0.002800323	-0.001843337	0.01245201	0.01152503
	0.01300137	0.0108793	-0.002800323	-0.001843337	0.02329951	0.005649389	0.6599836	-0.7318572
	-0.002801018	-0.001846939	0.01245201	0.01152503	0.6599836	-0.7318572	0.02187876	0.007202162
3.9e+08	0.02335085	0.005346226	0.64642	-0.743688	0.01344571	0.01075339	-0.002900684	-0.001828644
	0.64642	-0.743688	0.02212875	0.006718469	-0.002899787	-0.001824918	0.01288499	0.01144197
	0.01344571	0.01075339	-0.002899787	-0.001824918	0.02368212	0.005239517	0.6437166	-0.7459402
	-0.002900684	-0.001828644	0.01288499	0.01144197	0.6437166	-0.7459402	0.02222966	0.006898389
4e+08	0.02371104	0.004933838	0.6299736	-0.7574132	0.01388081	0.01060527	-0.003000276	-0.001807043
	0.6299736	-0.7574132	0.0224642	0.006397014	-0.002999164	-0.001803204	0.01330998	0.01133791
	0.01388081	0.01060527	-0.002999164	-0.001803204	0.02404615	0.00481117	0.6271532	-0.7596617
	-0.003000276	-0.001807043	0.01330998	0.01133791	0.6271532	-0.7596617	0.02256503	0.006579288
4.1e+08	0.02405262	0.004504215	0.6132396	-0.7707749	0.01430558	0.01043538	-0.00309971	-0.00178217
	0.6132396	-0.7707749	0.02278372	0.00606087	-0.00309837	-0.001778228	0.01372598	0.01121325
	0.01430558	0.01043538	-0.00309837	-0.001778228	0.02439083	0.004365161	0.6103011	-0.7730156
	-0.00309971	-0.00178217	0.01372598	0.01121325	0.6103011	-0.7730156	0.02288434	0.00624554
4.2e+08	0.02437491	0.004058161	0.5962261	-0.7837672	0.01471896	0.01024424	-0.003198906	-0.001754058
	0.5962261	-0.7837672	0.0230868	0.005710725	-0.003197328	-0.001750025	0.01413199	0.01106846
	0.01471896	0.01024424	-0.003197328	-0.001750025	0.02471545	0.003902325	0.5931686	-0.7859961
	-0.003198906	-0.001754058	0.01413199	0.01106846	0.5931686	-0.7859961	0.02318703	0.00589784
4.3e+08	0.02467723	0.003596507	0.5789409	-0.7963844	0.0151199	0.01003239	-0.003297791	-0.001722743
	0.5789409	-0.7963844	0.0233729	0.005347286	-0.003295961	-0.001718633	0.01452703	0.01090401
	0.0151199	0.01003239	-0.003295961	-0.001718633	0.02501933	0.003423537	0.5757636	-0.7985973
	-0.003297791	-0.001722743	0.01452703	0.01090401	0.5757636	-0.7985973	0.0234726	0.005536911
4.4e+08	0.02495894	0.003120113	0.5613922	-0.8086209	0.01550739	0.009800457	-0.003396291	-0.001688259
	0.5613922	-0.8086209	0.02364155	0.00497128	-0.0033942	-0.001684087	0.01491017	0.01072046
	0.01550739	0.009800457	-0.0033942	-0.001684087	0.02530178	0.002929693	0.5580944	-0.8108136
	-0.003396291	-0.001688259	0.01491017	0.01072046	0.5580944	-0.8108136	0.02374058	0.005163484
4.5e+08	0.02521945	0.002629866	0.5435884	-0.8204712	0.01588044	0.009549083	-0.003494338	-0.001650643
	0.5435884	-0.8204712	0.02389229	0.004583451	-0.003491977	-0.001646424	0.01528048	0.01051838
	0.01588044	0.009549083	-0.003491977	-0.001646424	0.0255622	0.002421722	0.5401696	-0.8226395
	-0.003494338	-0.001650643	0.01528048	0.01051838	0.5401696	-0.8226395	0.0239905	0.004778318
4.6e+08	0.02545817	0.002126679	0.5255378	-0.8319302	0.01623809	0.009278974	-0.003591869	-0.00160993
	0.5255378	-0.8319302	0.02412467	0.004184561	-0.003589228	-0.001605681	0.01563706	0.01029841
	0.01623809	0.009278974	-0.003589228	-0.001605681	0.02579999	0.001900577	0.5219975	-0.8340699
	-0.003591869	-0.00160993	0.01563706	0.01029841	0.5219975	-0.8340699	0.02422192	0.004382182
4.7e+08	0.02567457	0.001611489	0.5072488	-0.8429928	0.01657943	0.008990878	-0.003688823	-0.001566156
	0.5072488	-0.8429928	0.02433829	0.003775391	-0.003685895	-0.001561894	0.01597906	0.01006122
	0.01657943	0.008990878	-0.003685895	-0.001561894	0.02601457	0.001367235	0.5035868	-0.8450996
	-0.003688823	-0.001566156	0.01597906	0.01006122	0.5035868	-0.8450996	0.02443444	0.003975862
4.8e+08	0.02586815	0.001085256	0.4887301	-0.8536541	0.01690356	0.008685587	-0.003785141	-0.001519356
	0.4887301	-0.8536541	0.02453277	0.003356733	-0.003781919	-0.001515099	0.01630565	0.009807526
	0.01690356	0.008685587	-0.003781919	-0.001515099	0.02620544	0.0008227035	0.4849462	-0.8557237
	-0.003785141	-0.001519356	0.01630565	0.009807526	0.4849462	-0.8557237	0.02462769	0.003560165
4.9e+08	0.02603844	0.0005489644	0.4699904	-0.8639094	0.01720964	0.008363936	-0.003880769	-0.001469563
	0.4699904	-0.8639094	0.02470776	0.002929401	-0.003877249	-0.00146533	0.01661602	0.009538074
	0.01720964	0.008363936	-0.003877249	-0.00146533	0.02637213	0.0002680123	0.4660845	-0.8659375
	-0.003880769	-0.001469563	0.01661602	0.009538074	0.4660845	-0.8659375	0.02480133	0.003135911
5e+08	0.02618502	3.61656e-06	0.4510385	-0.8737543	0.01749686	0.008026799	-0.003975656	-0.001416809
	0.4510385	-0.8737543	0.02486294	0.002494215	-0.003971833	-0.00141262	0.01690942	0.009253654
	0.01749686	0.008026799	-0.003971833	-0.00141262	0.02651419	-0.0002957936	0.4470107	-0.8757365
	-0.003975656	-0.001416809	0.01690942	0.009253654	0.4470107	-0.8757365	0.02495504	0.002703928
5.1e+08	0.0263075	-0.0005497657	0.4318832	-0.8831844	0.01776445	0.007675092	-0.004069752	-0.001361127
	0.4318832	-0.8831844	0.024998	0.002052012	-0.004065625	-0.001357001	0.01718511	0.008955092
