!$
! Info: Touchstone file created by Circ.  Input file=Tx_2in_Rx_93ohms_TxVia_35mils_RxVia_45mils.circ
!$
# Hz S RI R 50
0	0.001973259	4.963222e-26	1.97245e-12	7.780903e-29	3.148247e-05	3.619175e-24	3.094906e-12	5.267875e-29
	1.972448e-12	7.780906e-29	0.001969848	5.318072e-26	5.086505e-12	1.265243e-28	3.010762e-05	4.353122e-24
	3.200744e-05	3.666286e-24	5.086507e-12	1.265243e-28	0.001981638	4.843501e-26	3.078217e-12	8.288698e-29
	3.094907e-12	5.267879e-29	2.82611e-05	4.374811e-24	3.078219e-12	8.288709e-29	0.001983083	4.98007e-26
1e+07	0.002727633	0.000216267	6.302525e-12	7.65504e-12	5.550659e-05	0.0005314636	8.617864e-12	1.381964e-11
	6.302526e-12	7.655041e-12	0.002880877	0.0002006517	8.579679e-12	9.470282e-12	5.532354e-05	0.0005613166
	5.553027e-05	0.0005314649	8.579679e-12	9.470282e-12	0.002930235	0.0003310659	6.777926e-12	8.292268e-12
	8.617864e-12	1.381964e-11	5.526397e-05	0.0005613268	6.777925e-12	8.292267e-12	0.002839603	0.0002034603
2e+07	0.003395172	-0.0001728977	8.39237e-12	1.27783e-11	0.0001068122	0.001074038	1.014804e-11	2.529893e-11
	8.392372e-12	1.277831e-11	0.003497926	-0.0002576545	1.079113e-11	1.608382e-11	8.077236e-05	0.001126578
	0.00010682	0.001074023	1.079113e-11	1.608382e-11	0.003658157	-4.901408e-05	8.613157e-12	1.411408e-11
	1.014804e-11	2.529893e-11	8.076448e-05	0.001126612	8.613157e-12	1.411408e-11	0.003468077	-0.0002316297
3e+07	0.003866012	-0.0008480006	9.983218e-12	1.708564e-11	0.0001805866	0.001612508	1.175914e-11	3.592146e-11
	9.983219e-12	1.708564e-11	0.003924715	-0.0009564529	1.300299e-11	2.196815e-11	0.0001456304	0.001673838
	0.0001805865	0.001612505	1.300299e-11	2.196815e-11	0.004176513	-0.0007238721	1.031454e-11	1.895628e-11
	1.175914e-11	3.592146e-11	0.0001456304	0.001673843	1.031454e-11	1.895628e-11	0.003903904	-0.0009205632
4e+07	0.004218164	-0.001631421	1.115309e-11	2.072857e-11	0.0002779579	0.002146467	1.287205e-11	4.597444e-11
	1.115309e-11	2.072857e-11	0.004234377	-0.001751601	1.502449e-11	2.728991e-11	0.0002446425	0.002211643
	0.0002779598	0.002146469	1.502449e-11	2.728991e-11	0.004569216	-0.001515038	1.127571e-11	2.290947e-11
	1.287205e-11	4.597444e-11	0.0002446371	0.002211641	1.127571e-11	2.290947e-11	0.004221345	-0.001709298
5e+07	0.004479501	-0.002480556	1.176805e-11	2.383328e-11	0.0003988676	0.002674633	1.344318e-11	5.572889e-11
	1.176805e-11	2.383328e-11	0.004453031	-0.002604954	1.673339e-11	3.208707e-11	0.0003651276	0.002741208
	0.0003988689	0.002674633	1.673339e-11	3.208707e-11	0.004866243	-0.002378208	1.140509e-11	2.63682e-11
	1.344318e-11	5.572889e-11	0.0003651239	0.002741207	1.140508e-11	2.63682e-11	0.004446811	-0.002558216
6e+07	0.004663573	-0.003374518	1.167069e-11	2.654083e-11	0.0005430014	0.003195958	1.350172e-11	6.534904e-11
	1.167069e-11	2.654083e-11	0.004593733	-0.003497198	1.809164e-11	3.640317e-11	0.0005069095	0.003262267
	0.000542999	0.003195958	1.809164e-11	3.640317e-11	0.005082043	-0.003291638	1.068328e-11	2.952201e-11
	1.350172e-11	6.534904e-11	0.0005069118	0.003262266	1.068328e-11	2.952201e-11	0.004593501	-0.003447464
7e+07	0.004778114	-0.004300504	1.068263e-11	2.900381e-11	0.0007100226	0.003709538	1.306768e-11	7.493261e-11
	1.068263e-11	2.900382e-11	0.004663942	-0.004416262	1.893073e-11	4.035832e-11	0.0006697079	0.003774255
	0.0007100165	0.003709539	1.893073e-11	4.035832e-11	0.005224754	-0.004242198	9.043297e-12	3.252217e-11
	1.306768e-11	7.493261e-11	0.0006697154	0.003774251	9.043297e-12	3.252217e-11	0.004668905	-0.004364748
8e+07	0.00482801	-0.005249454	8.587981e-12	3.140318e-11	0.0008996	0.004214604	1.218074e-11	8.452974e-11
	8.587993e-12	3.140319e-11	0.004668336	-0.005353161	1.911722e-11	4.408708e-11	0.0008531736	0.004276439
	0.0008995927	0.004214607	1.911722e-11	4.408708e-11	0.005299347	-0.005221047	6.41281e-12	3.550565e-11
	1.218074e-11	8.452974e-11	0.0008531829	0.004276433	6.41281e-12	3.550565e-11	0.004677651	-0.005300982
9e+07	0.004816683	-0.006214131	5.077252e-12	3.398647e-11	0.001111441	0.004710725	1.116502e-11	9.399555e-11
	5.077263e-12	3.398648e-11	0.004610343	-0.00629991	1.888131e-11	4.762143e-11	0.001056886	0.004767991
	0.001111436	0.004710728	1.888131e-11	4.762143e-11	0.005308967	-0.006222207	2.901562e-12	3.850433e-11
	1.116502e-11	9.399555e-11	0.001056893	0.004767986	2.901562e-12	3.850433e-11	0.004623082	-0.006248194
1e+08	0.004747202	-0.00718683	-8.139195e-13	3.734706e-11	0.001345735	0.005200034	9.556182e-12	1.035861e-10
	-8.139196e-13	3.734706e-11	0.004494125	-0.007244289	1.736312e-11	5.111274e-11	0.001280365	0.005247974
	0.001345735	0.005200034	1.736312e-11	5.111274e-11	0.00525454	-0.007245946	-2.411919e-12	4.207434e-11
	9.556182e-12	1.035861e-10	0.001280365	0.005247974	-2.411919e-12	4.207434e-11	0.004509089	-0.007194927
1.1e+08	0.004629985	-0.008174641	-5.686479e-12	4.367924e-11	0.001588907	0.005678893	8.222088e-12	1.144408e-10
	-5.686479e-12	4.367924e-11	0.004345735	-0.008204177	1.671866e-11	5.686051e-11	0.001522453	0.00571567
	0.001588907	0.005678893	1.671866e-11	5.686051e-11	0.005119665	-0.008276542	-7.077956e-12	4.880131e-11
	8.222088e-12	1.144408e-10	0.001522453	0.00571567	-7.077956e-12	4.880131e-11	0.004359408	-0.008155614
1.2e+08	0.004454364	-0.009166703	-8.185743e-12	4.892612e-11	0.001851718	0.006139013	7.183636e-12	1.252678e-10
	-8.185743e-12	4.892612e-11	0.004135127	-0.009173932	1.747245e-11	6.196626e-11	0.001783186	0.006170645
	0.001851718	0.006139013	1.747245e-11	6.196626e-11	0.004928659	-0.009297355	-9.546007e-12	5.451713e-11
	7.183636e-12	1.252678e-10	0.001783186	0.006170645	-9.546007e-12	5.451713e-11	0.00414728	-0.009125307
1.3e+08	0.004223487	-0.01015746	-8.552605e-12	5.300239e-11	0.002134105	0.006582832	7.076605e-12	1.355486e-10
	-8.552605e-12	5.300239e-11	0.003866182	-0.01014277	1.982495e-11	6.626447e-11	0.002061983	0.006611933
	0.002134105	0.006582832	1.982495e-11	6.626447e-11	0.004683033	-0.01031172	-1.032492e-11	5.931593e-11
	7.076605e-12	1.355486e-10	0.002061983	0.006611933	-1.032492e-11	5.931593e-11	0.003876252	-0.01009394
1.4e+08	0.003939576	-0.01114359	-9.108372e-12	5.725007e-11	0.002435375	0.007010165	6.883868e-12	1.459581e-10
	-9.108372e-12	5.725007e-11	0.003541333	-0.01110597	2.212941e-11	7.055228e-11	0.002358182	0.007038673
	0.002435375	0.007010165	2.212941e-11	7.055228e-11	0.004384663	-0.01131817	-1.135068e-11	6.434489e-11
	6.883868e-12	1.459581e-10	0.002358182	0.007038673	-1.135068e-11	6.434489e-11	0.003548677	-0.01105676
1.5e+08	0.003604407	-0.01212227	-9.863558e-12	6.168498e-11	0.002754733	0.007420476	6.583688e-12	1.565393e-10
	-9.863558e-12	6.168498e-11	0.003162562	-0.01205992	2.435672e-11	7.482858e-11	0.002671064	0.007450046
	0.002754733	0.007420475	2.435672e-11	7.482858e-11	0.004035196	-0.01231478	-1.248241e-11	6.954033e-11
	6.583688e-12	1.565393e-10	0.002671065	0.007450046	-1.248241e-11	6.954033e-11	0.003166536	-0.01201009
1.6e+08	0.003219494	-0.01309096	-1.078359e-11	6.629579e-11	0.003091321	0.007813119	6.182337e-12	1.673086e-10
	-1.078359e-11	6.629579e-11	0.002731604	-0.01300154	2.652581e-11	7.907676e-11	0.002999868	0.007845278
	0.003091321	0.007813118	2.652581e-11	7.907676e-11	0.003636096	-0.01329949	-1.380625e-11	7.495052e-11
	6.182337e-12	1.673086e-10	0.002999868	0.007845278	-1.380625e-11	7.495052e-11	0.002731606	-0.01295078
1.7e+08	0.002786191	-0.01404729	-1.18454e-11	7.107642e-11	0.00344424	0.008187422	5.702543e-12	1.782683e-10
	-1.18454e-11	7.107642e-11	0.002250046	-0.01392805	2.864404e-11	8.328377e-11	0.003343787	0.008223631
	0.00344424	0.008187422	2.864404e-11	8.328377e-11	0.003188694	-0.01427026	-1.52967e-11	8.057026e-11
	5.702543e-12	1.782683e-10	0.003343787	0.008223631	-1.52967e-11	8.057026e-11	0.002245528	-0.013876
1.8e+08	0.002305758	-0.01498899	-1.303215e-11	7.602385e-11	0.003812553	0.008542716	5.163195e-12	1.894214e-10
	-1.303215e-11	7.602385e-11	0.00171939	-0.0148369	3.071298e-11	8.743991e-11	0.003701982	0.008584411
	0.003812553	0.008542716	3.071298e-11	8.743991e-11	0.002694249	-0.01522507	-1.693472e-11	8.639769e-11
	5.163195e-12	1.894214e-10	0.003701982	0.008584411	-1.693472e-11	8.639769e-11	0.001709865	-0.01478315
1.9e+08	0.001779415	-0.0159139	-1.433045e-11	8.113687e-11	0.004195264	0.008878363	4.580888e-12	2.007715e-10
	-1.433045e-11	8.113687e-11	0.001141098	-0.01572568	3.273072e-11	9.153791e-11	0.00407358	0.008926965
	0.004195264	0.008878363	3.273072e-11	9.153791e-11	0.002153976	-0.01616194	-1.870482e-11	9.243292e-11
	4.580888e-12	2.007715e-10	0.00407358	0.008926965	-1.870482e-11	9.243292e-11	0.001126133	-0.01566981
2e+08	0.001208277	-0.01682006	-1.572967e-11	8.641457e-11	0.004602261	0.009188769	3.970865e-12	2.123205e-10
	-1.572967e-11	8.641457e-11	0.0005166225	-0.01659212	3.469289e-11	9.557219e-11	0.004457674	0.009250682
	0.004602261	0.009188769	3.469289e-11	9.557219e-11	0.001568991	-0.01707905	-2.059481e-11	9.867558e-11
	3.970865e-12	2.123205e-10	0.004457674	0.009250682	-2.059481e-11	9.867558e-11	0.0004958328	-0.01653369
2.1e+08	0.0005936311	-0.01770536	-1.721952e-11	9.185843e-11	0.005021756	0.009477711	3.347368e-12	2.240734e-10
	-1.721952e-11	9.185843e-11	-0.0001525773	-0.01743405	3.659423e-11	9.953921e-11	0.004853331	0.009554994
	0.005021756	0.009477711	3.659423e-11	9.953921e-11	0.0009405784	-0.01797441	-2.259156e-11	1.051295e-10
	3.347368e-12	2.240734e-10	0.004853331	0.009554994	-2.259156e-11	1.051295e-10	-0.0001795339	-0.01737263
2.2e+08	-6.327791e-05	-0.01856786	-1.879133e-11	9.747007e-11	0.005452035	0.009744956	2.72393e-12	2.36034e-10
	-1.879133e-11	9.747007e-11	-0.0008650188	-0.01824941	3.842833e-11	1.034366e-10	0.005259591	0.009839379
	0.005452035	0.009744956	3.842833e-11	1.034366e-10	0.0002699778	-0.01884615	-2.46836e-11	1.117977e-10
	2.72393e-12	2.36034e-10	0.005259591	0.009839379	-2.46836e-11	1.117977e-10	-0.0008984476	-0.01818455
2.3e+08	-0.0007611777	-0.01940568	-2.043696e-11	1.032515e-10	0.005892026	0.009990029	2.11399e-12	2.482061e-10
	-2.043696e-11	1.032515e-10	-0.001619184	-0.01903623	4.018809e-11	1.072634e-10	0.005675468	0.01010336
	0.005892025	0.009990029	4.018809e-11	1.072634e-10	-0.0004415433	-0.01969251	-2.685996e-11	1.186834e-10
	2.11399e-12	2.482061e-10	0.005675468	0.01010336	-2.685996e-11	1.186834e-10	-0.001659361	-0.01896749
2.4e+08	-0.00149876	-0.02021705	-2.214863e-11	1.09205e-10	0.006340634	0.0102125	1.530849e-12	2.605929e-10
	-2.214863e-11	1.09205e-10	-0.002413521	-0.01979262	4.186608e-11	1.110194e-10	0.006099956	0.0103465
	0.006340634	0.0102125	4.186608e-11	1.110194e-10	-0.001192686	-0.02051176	-2.910983e-11	1.257899e-10
	1.530849e-12	2.605929e-10	0.006099956	0.0103465	-2.910983e-11	1.257899e-10	-0.002460698	-0.01971956
2.5e+08	-0.002274675	-0.02100025	-2.391874e-11	1.153332e-10	0.006796741	0.01041198	9.877409e-13	2.731974e-10
	-2.391874e-11	1.153332e-10	-0.003246433	-0.02051681	4.345464e-11	1.147058e-10	0.006532026	0.01056843
	0.006796741	0.01041198	4.345464e-11	1.147058e-10	-0.001982107	-0.02130224	-3.142249e-11	1.331208e-10
	9.877409e-13	2.731974e-10	0.006532026	0.01056843	-3.142249e-11	1.331208e-10	-0.003300837	-0.02043897
2.6e+08	-0.003087528	-0.02175364	-2.577279e-11	1.216233e-10	0.007259212	0.01058815	4.979059e-13	2.860225e-10
	-2.577279e-11	1.216233e-10	-0.004116285	-0.02120709	4.489684e-11	1.182797e-10	0.006970633	0.01076881
	0.007259212	0.01058815	4.489684e-11	1.182797e-10	-0.002808425	-0.02206234	-3.378703e-11	1.406802e-10
	4.979059e-13	2.860225e-10	0.006970633	0.01076881	-3.378703e-11	1.406802e-10	-0.004178118	-0.02112401
2.7e+08	-0.003935881	-0.02247564	-2.767847e-11	1.280934e-10	0.007726892	0.01074073	7.46278e-14	2.990704e-10
	-2.767847e-11	1.280934e-10	-0.005021387	-0.02186185	4.622098e-11	1.217818e-10	0.007414716	0.01094736
	0.007726892	0.01074073	4.622098e-11	1.217818e-10	-0.003670208	-0.02279054	-3.619262e-11	1.484711e-10
	7.46278e-14	2.990704e-10	0.007414716	0.01094736	-3.619262e-11	1.484711e-10	-0.005090835	-0.02177307
2.8e+08	-0.004818258	-0.02316475	-2.962256e-11	1.347499e-10	0.008198614	0.01086949	-2.688025e-13	3.123427e-10
	-2.962256e-11	1.347499e-10	-0.005960016	-0.02247955	4.742718e-11	1.252236e-10	0.007863202	0.01110384
	0.008198614	0.01086949	4.742718e-11	1.252236e-10	-0.004565991	-0.02348537	-3.862833e-11	1.564962e-10
	-2.688025e-13	3.123427e-10	0.007863202	0.01110384	-3.862833e-11	1.564962e-10	-0.006037245	-0.02238461
2.9e+08	-0.005733141	-0.02381956	-3.159685e-11	1.415964e-10	0.008673199	0.01097427	-5.190086e-13	3.258409e-10
	-3.159685e-11	1.415964e-10	-0.006930402	-0.02305876	4.850782e-11	1.286097e-10	0.008315005	0.01123808
	0.008673199	0.01097427	4.850782e-11	1.286097e-10	-0.005494263	-0.02414542	-4.108302e-11	1.647587e-10
	-5.190086e-13	3.258409e-10	0.008315005	0.01123808	-4.108302e-11	1.647587e-10	-0.007015557	-0.02295718
3e+08	-0.006678967	-0.02443871	-3.359284e-11	1.486363e-10	0.00914946	0.01105495	-6.624867e-13	3.39566e-10
	-3.359284e-11	1.486363e-10	-0.007930734	-0.02359813	4.945552e-11	1.319459e-10	0.008769033	0.01134995
	0.00914946	0.01105495	4.945552e-11	1.319459e-10	-0.00645347	-0.02476937	-4.354536e-11	1.732611e-10
	-6.624867e-13	3.39566e-10	0.008769033	0.01134995	-4.354536e-11	1.732611e-10	-0.00802394	-0.02348942
3.1e+08	-0.007654141	-0.02502092	-3.560185e-11	1.558727e-10	0.009626205	0.01111149	-6.856955e-13	3.535183e-10
	-3.560185e-11	1.558727e-10	-0.008959165	-0.02409639	5.026306e-11	1.352383e-10	0.009224189	0.01143938
	0.009626205	0.01111149	5.026306e-11	1.352383e-10	-0.007442024	-0.02535596	-4.600394e-11	1.820057e-10
	-6.856955e-13	3.535183e-10	0.009224189	0.01143938	-4.600394e-11	1.820057e-10	-0.009060528	-0.02398006
3.2e+08	-0.00865703	-0.025565	-3.761489e-11	1.633086e-10	0.01010224	0.01114388	-5.749468e-13	3.676979e-10
	-3.761489e-11	1.633086e-10	-0.01001381	-0.02455236	5.092356e-11	1.384939e-10	0.009679372	0.01150634
	0.01010224	0.01114388	5.092356e-11	1.384939e-10	-0.0084583	-0.02590401	-4.844717e-11	1.909945e-10
	-5.749468e-13	3.676979e-10	0.009679372	0.01150634	-4.844717e-11	1.909945e-10	-0.01012341	-0.02442792
3.3e+08	-0.009685967	-0.02606982	-3.96227e-11	1.709468e-10	0.01057636	0.01115218	-3.164204e-13	3.821042e-10
	-3.96227e-11	1.709468e-10	-0.01109276	-0.02496497	5.143052e-11	1.417203e-10	0.01013348	0.01155086
	0.01057636	0.01115218	5.143052e-11	1.417203e-10	-0.009500632	-0.02641238	-5.086324e-11	2.002292e-10
	-3.164204e-13	3.821042e-10	0.01013348	0.01155086	-5.086324e-11	2.002292e-10	-0.01121066	-0.02483191
3.4e+08	-0.01073925	-0.02653432	-4.161594e-11	1.787897e-10	0.01104739	0.0111365	1.03715e-13	3.967357e-10
	-4.161594e-11	1.787897e-10	-0.01219405	-0.02533321	5.17777e-11	1.449258e-10	0.01058542	0.01157303
	0.01104739	0.0111365	5.17777e-11	1.449258e-10	-0.01056733	-0.02688005	-5.324033e-11	2.097108e-10
	1.03715e-13	3.967357e-10	0.01058542	0.01157303	-5.324033e-11	2.097108e-10	-0.01232028	-0.025191
3.5e+08	-0.01181516	-0.02695753	-4.358498e-11	1.868394e-10	0.01151413	0.01109704	6.994038e-13	4.115909e-10
	-4.358498e-11	1.868394e-10	-0.01331573	-0.02565618	5.195937e-11	1.481191e-10	0.01103408	0.01157299
	0.01151413	0.01109704	5.195937e-11	1.481191e-10	-0.01165667	-0.02730604	-5.556642e-11	2.194403e-10
	6.994038e-13	4.115909e-10	0.01103408	0.01157299	-5.556642e-11	2.194403e-10	-0.0134503	-0.0255043
3.6e+08	-0.01291193	-0.02733854	-4.552011e-11	1.950976e-10	0.01197541	0.01103401	1.484581e-12	4.266671e-10
	-4.552011e-11	1.950976e-10	-0.01445578	-0.02593304	5.197019e-11	1.513097e-10	0.0114784	0.01155093
	0.01197541	0.01103401	5.197019e-11	1.513097e-10	-0.01276689	-0.02768944	-5.782946e-11	2.294178e-10
	1.484581e-12	4.266671e-10	0.0114784	0.01155093	-5.782946e-11	2.294178e-10	-0.01459868	-0.02577098
3.7e+08	-0.01402779	-0.02767654	-4.741139e-11	2.035656e-10	0.01243006	0.01094771	2.47321e-12	4.419614e-10
	-4.741139e-11	2.035656e-10	-0.0156122	-0.02616308	5.18053e-11	1.545074e-10	0.01191729	0.01150709
	0.01243006	0.01094771	5.18053e-11	1.545074e-10	-0.01389622	-0.02802945	-6.001728e-11	2.396431e-10
	2.47321e-12	4.419614e-10	0.01191729	0.01150709	-6.001728e-11	2.396431e-10	-0.01576338	-0.02599029
3.8e+08	-0.01516093	-0.02797075	-4.924876e-11	2.122447e-10	0.01287693	0.01083848	3.679225e-12	4.574698e-10
	-4.924876e-11	2.122447e-10	-0.01678293	-0.02634565	5.146042e-11	1.577228e-10	0.01234968	0.01144176
	0.01287693	0.01083848	5.146042e-11	1.577228e-10	-0.01504286	-0.02832531	-6.211768e-11	2.501157e-10
	3.679225e-12	4.574698e-10	0.01234968	0.01144176	-6.211768e-11	2.501157e-10	-0.01694233	-0.0261616
3.9e+08	-0.01630953	-0.02822053	-5.102203e-11	2.211353e-10	0.01331489	0.01070673	5.1165e-12	4.731879e-10
	-5.102203e-11	2.211353e-10	-0.01796594	-0.02648019	5.093177e-11	1.609668e-10	0.01277454	0.01135529
	0.01331489	0.01070673	5.093177e-11	1.609668e-10	-0.01620499	-0.02857634	-6.411839e-11	2.608345e-10
	5.1165e-12	4.731879e-10	0.01277454	0.01135529	-6.411839e-11	2.608345e-10	-0.01813345	-0.02628435
4e+08	-0.01747175	-0.02842525	-5.272084e-11	2.302379e-10	0.01374282	0.0105529	6.798841e-12	4.891106e-10
	-5.272084e-11	2.302379e-10	-0.01915915	-0.02656624	5.021622e-11	1.642509e-10	0.01319083	0.01124807
	0.01374282	0.0105529	5.021622e-11	1.642509e-10	-0.01738076	-0.02878195	-6.600711e-11	2.717977e-10
	6.798841e-12	4.891106e-10	0.01319083	0.01124807	-6.600711e-11	2.717977e-10	-0.01933465	-0.02635807
4.1e+08	-0.01864574	-0.0285844	-5.433477e-11	2.395522e-10	0.01415963	0.01037752	8.739897e-12	5.052321e-10
	-5.433477e-11	2.395522e-10	-0.02036049	-0.02660342	4.931124e-11	1.675869e-10	0.01359753	0.01112056
	0.01415963	0.01037752	4.931124e-11	1.675869e-10	-0.01856833	-0.0289416	-6.777156e-11	2.830034e-10
	8.739897e-12	5.052321e-10	0.01359753	0.01112056	-6.777156e-11	2.830034e-10	-0.02054382	-0.02638238
4.2e+08	-0.01982963	-0.02869752	-5.585331e-11	2.490777e-10	0.01456426	0.01018114	1.095315e-11	5.215459e-10
	-5.585331e-11	2.490777e-10	-0.02156787	-0.02659144	4.821492e-11	1.709871e-10	0.01399367	0.01097324
	0.01456426	0.01018114	4.821492e-11	1.709871e-10	-0.01976581	-0.02905485	-6.939953e-11	2.944488e-10
	1.095315e-11	5.215459e-10	0.01399367	0.01097324	-6.939953e-11	2.944488e-10	-0.02175886	-0.02635701
4.3e+08	-0.02102153	-0.02876424	-5.726591e-11	2.588134e-10	0.01495567	0.009964372	1.345188e-11	5.380446e-10
	-5.726591e-11	2.588134e-10	-0.02277923	-0.0265301	4.692606e-11	1.744641e-10	0.01437828	0.01080665
	0.01495567	0.009964372	4.692606e-11	1.744641e-10	-0.02097133	-0.02912132	-7.087884e-11	3.061307e-10
	1.345188e-11	5.380446e-10	0.01437828	0.01080665	-7.087884e-11	3.061307e-10	-0.02297766	-0.02628175
4.4e+08	-0.02221958	-0.02878427	-5.856188e-11	2.68758e-10	0.01533284	0.00972789	1.624917e-11	5.547205e-10
	-5.856188e-11	2.68758e-10	-0.02399248	-0.02641928	4.544421e-11	1.780309e-10	0.01475041	0.01062138
	0.01533284	0.00972789	4.544421e-11	1.780309e-10	-0.02218301	-0.02914071	-7.219732e-11	3.180457e-10
	1.624917e-11	5.547205e-10	0.01475041	0.01062138	-7.219732e-11	3.180457e-10	-0.02419811	-0.0261565
4.5e+08	-0.02342187	-0.02875738	-5.973052e-11	2.789095e-10	0.01569481	0.009472403	1.935782e-11	5.71565e-10
	-5.973052e-11	2.789095e-10	-0.02520553	-0.02625896	4.376975e-11	1.817008e-10	0.01510918	0.01041807
	0.01569481	0.009472403	4.376975e-11	1.817008e-10	-0.02339895	-0.02911279	-7.334288e-11	3.301893e-10
	1.935782e-11	5.71565e-10	0.01510918	0.01041807	-7.334288e-11	3.301893e-10	-0.0254181	-0.02598122
4.6e+08	-0.02462651	-0.02868342	-6.07608e-11	2.892662e-10	0.01604064	0.00919867	2.279063e-11	5.88569e-10
	-6.07608e-11	2.892662e-10	-0.02641633	-0.02604919	4.186574e-11	1.85481e-10	0.01545369	0.01019739
	0.01604064	0.00919867	4.186574e-11	1.85481e-10	-0.02461724	-0.02903742	-7.432435e-11	3.425639e-10
	2.279063e-11	5.88569e-10	0.01545369	0.01019739	-7.432435e-11	3.425639e-10	-0.02663554	-0.025756
4.7e+08	-0.02583161	-0.02856231	-6.164137e-11	2.998259e-10	0.01636942	0.008907498	2.656028e-11	6.057229e-10
	-6.164137e-11	2.998259e-10	-0.0276228	-0.02579011	3.967756e-11	1.893806e-10	0.01578311	0.009960043
	0.01636942	0.008907498	3.967756e-11	1.893806e-10	-0.02583601	-0.02891451	-7.515888e-11	3.551763e-10
	2.656028e-11	6.057229e-10	0.01578311	0.009960043	-7.515888e-11	3.551763e-10	-0.02784834	-0.02548099
4.8e+08	-0.02703528	-0.02839406	-6.236239e-11	3.105841e-10	0.01668028	0.008599734	3.067782e-11	6.230155e-10
