!$
! Info: Touchstone file created by Circ.  Input file=Tx_4in_Rx_85ohms_TxVia_35mils_RxVia_45mils.circ
!$
# Hz S RI R 50
0	0.003345993	6.667116e-26	7.519392e-10	5.938359e-28	4.112191e-05	6.175196e-24	3.741382e-10	1.373574e-28
	7.519392e-10	5.938143e-28	0.003344349	7.901023e-26	2.528001e-09	2.231384e-27	4.097861e-05	7.479943e-24
	4.093553e-05	6.149272e-24	2.528001e-09	2.231393e-27	0.003356915	6.668022e-26	7.544088e-10	6.354125e-28
	3.741382e-10	1.373509e-28	3.913183e-05	7.516984e-24	7.544092e-10	6.354279e-28	0.003357562	7.400749e-26
1e+07	0.004537413	-0.003397942	9.488915e-10	1.430441e-09	0.0001076449	0.0008954493	5.88327e-10	7.519865e-10
	9.488915e-10	1.430441e-09	0.004546669	-0.003400478	3.586661e-09	7.012028e-09	0.000106149	0.0008966447
	0.0001076397	0.0008954503	3.586661e-09	7.012028e-09	0.004566521	-0.00338303	9.506695e-10	1.449524e-09
	5.883269e-10	7.519864e-10	0.0001060892	0.000896655	9.506694e-10	1.449524e-09	0.004548328	-0.003390152
2e+07	0.005290807	-0.007909472	1.260074e-09	2.511635e-09	0.0002440045	0.00175887	8.440844e-10	1.272327e-09
	1.260074e-09	2.511635e-09	0.005283524	-0.007918455	4.607312e-09	1.23827e-08	0.0002382224	0.001761796
	0.0002440059	0.001758874	4.607312e-09	1.23827e-08	0.005319312	-0.007885828	1.247853e-09	2.542788e-09
	8.440843e-10	1.272327e-09	0.0002382146	0.00176183	1.247853e-09	2.542788e-09	0.005288169	-0.007894042
3e+07	0.005278679	-0.01294566	1.528467e-09	3.528722e-09	0.0004511713	0.00259958	1.115833e-09	1.738063e-09
	1.528467e-09	3.528722e-09	0.005246711	-0.01295521	5.208683e-09	1.759912e-08	0.0004384564	0.002605077
	0.0004511738	0.002599579	5.208683e-09	1.759912e-08	0.005308021	-0.0129105	1.488558e-09	3.576304e-09
	1.115833e-09	1.738063e-09	0.0004384564	0.002605082	1.488558e-09	3.576304e-09	0.005253267	-0.01292007
4e+07	0.004653565	-0.01810942	1.805129e-09	4.500056e-09	0.000728482	0.003413452	1.426001e-09	2.15506e-09
	1.805129e-09	4.500056e-09	0.004588722	-0.01811545	5.644778e-09	2.27468e-08	0.0007063163	0.003422698
	0.0007284825	0.003413451	5.644778e-09	2.27468e-08	0.004684877	-0.01806264	1.726052e-09	4.570112e-09
	1.426001e-09	2.15506e-09	0.0007063109	0.003422696	1.726052e-09	4.570112e-09	0.004596371	-0.01807059
5e+07	0.003476637	-0.02327911	2.092338e-09	5.426229e-09	0.001073284	0.004194747	1.771575e-09	2.51885e-09
	2.092338e-09	5.426229e-09	0.003370944	-0.02327651	5.952378e-09	2.784364e-08	0.001039327	0.004209254
	0.001073284	0.004194746	5.952378e-09	2.784364e-08	0.003510761	-0.02322107	1.964156e-09	5.526086e-09
	1.771575e-09	2.51885e-09	0.001039323	0.004209253	1.964156e-09	5.526086e-09	0.00337884	-0.02322246
6e+07	0.001785285	-0.02837848	2.387988e-09	6.311145e-09	0.001482123	0.004937846	2.146783e-09	2.828271e-09
	2.387988e-09	6.311145e-09	0.001631551	-0.02836118	6.144409e-09	3.292068e-08	0.001434255	0.004959424
	0.001482124	0.004937846	6.144409e-09	3.292068e-08	0.00182285	-0.02830969	2.202217e-09	6.449082e-09
	2.146783e-09	2.828271e-09	0.001434257	0.004959423	2.202217e-09	6.449082e-09	0.001638849	-0.02829824
7e+07	-0.000391052	-0.03334904	2.691247e-09	7.157743e-09	0.001951043	0.005637396	2.546472e-09	3.08229e-09
	2.691247e-09	7.157743e-09	-0.000599272	-0.03331028	6.237008e-09	3.800507e-08	0.001887379	0.005668112
	0.001951045	0.005637396	6.237008e-09	3.800507e-08	-0.0003495818	-0.03327007	2.440676e-09	7.342967e-09
	2.546472e-09	3.08229e-09	0.001887387	0.005668108	2.440676e-09	7.342968e-09	-0.0005934389	-0.03323856
8e+07	-0.003025432	-0.03814162	3.001816e-09	7.966791e-09	0.002475623	0.006288388	2.965489e-09	3.279244e-09
	3.001816e-09	7.966791e-09	-0.003293915	-0.03807395	6.248536e-09	4.311537e-08	0.002394528	0.006330547
	0.002475626	0.006288388	6.248537e-09	4.311537e-08	-0.002979732	-0.03805309	2.680483e-09	8.209621e-09
	2.965489e-09	3.279244e-09	0.002394537	0.00633054	2.680482e-09	8.209622e-09	-0.003290455	-0.03799339
9e+07	-0.006091131	-0.04271328	3.319096e-09	8.737089e-09	0.00305103	0.006886355	3.398072e-09	3.417188e-09
	3.319096e-09	8.737089e-09	-0.006424932	-0.04260844	6.197268e-09	4.826267e-08	0.002951134	0.006942479
	0.003051031	0.006886354	6.197268e-09	4.826267e-08	-0.006040993	-0.04261574	2.922426e-09	9.049125e-09
	3.398072e-09	3.417188e-09	0.002951141	0.006942474	2.922426e-09	9.049126e-09	-0.006424778	-0.04251884
1e+08	-0.009561191	-0.04702717	3.642613e-09	9.464575e-09	0.003672525	0.007428522	3.837392e-09	3.494684e-09
	3.642613e-09	9.464575e-09	-0.00996446	-0.04687602	6.101516e-09	5.345173e-08	0.003552759	0.007501336
	0.003672525	0.007428522	6.101516e-09	5.345173e-08	-0.009506454	-0.04692104	3.167669e-09	9.858723e-09
	3.837392e-09	3.494684e-09	0.003552759	0.007501336	3.167669e-09	9.858723e-09	-0.009968596	-0.04677711
1.1e+08	-0.01341026	-0.05104912	3.975043e-09	1.016221e-08	0.004338363	0.007906361	4.277529e-09	3.511804e-09
	3.975043e-09	1.016221e-08	-0.01388436	-0.05084138	5.96182e-09	5.870605e-08	0.004198234	0.007998574
	0.004338363	0.007906361	5.96182e-09	5.870605e-08	-0.01334953	-0.05093493	3.423418e-09	1.065563e-08
	4.277529e-09	3.511804e-09	0.004198234	0.007998574	3.423418e-09	1.065563e-08	-0.01389302	-0.05073174
1.2e+08	-0.01760263	-0.05473764	4.302289e-09	1.08257e-08	0.005036059	0.008316398	4.711112e-09	3.468168e-09
	4.302289e-09	1.08257e-08	-0.01814956	-0.05446448	5.778027e-09	6.403521e-08	0.004875065	0.008431005
	0.005036059	0.008316399	5.778027e-09	6.403521e-08	-0.01753643	-0.0546167	3.673912e-09	1.142829e-08
	4.711112e-09	3.468168e-09	0.004875065	0.008431005	3.673912e-09	1.142829e-08	-0.01816349	-0.05434369
1.3e+08	-0.02210511	-0.05806753	4.623366e-09	1.145292e-08	0.005759787	0.008657812	5.131518e-09	3.364367e-09
	4.623366e-09	1.145292e-08	-0.02272585	-0.05771931	5.566215e-09	6.94466e-08	0.005577812	0.00879791
	0.005759787	0.008657812	5.566215e-09	6.94466e-08	-0.022034	-0.05794063	3.919106e-09	1.217525e-08
	5.131518e-09	3.364367e-09	0.005577812	0.00879791	3.919106e-09	1.217525e-08	-0.02274584	-0.05758668
1.4e+08	-0.02688304	-0.06101532	4.936898e-09	1.204238e-08	0.006503091	0.008929076	5.532724e-09	3.20054e-09
	4.936898e-09	1.204238e-08	-0.02757741	-0.06058197	5.341042e-09	7.494607e-08	0.006300407	0.009097819
	0.006503091	0.008929076	5.341042e-09	7.494607e-08	-0.02680756	-0.06088301	4.158803e-09	1.28956e-08
	5.532724e-09	3.20054e-09	0.006300407	0.009097819	4.158803e-09	1.28956e-08	-0.02760413	-0.06043653
1.5e+08	-0.03190075	-0.06356066	5.237139e-09	1.259545e-08	0.007259336	0.00912912	5.90688e-09	2.97999e-09
	5.237139e-09	1.259545e-08	-0.03266737	-0.06303186	5.116719e-09	8.05376e-08	0.007036606	0.009329671
	0.007259336	0.00912912	5.116719e-09	8.05376e-08	-0.03182142	-0.06342328	4.38865e-09	1.359104e-08
	5.90688e-09	2.97999e-09	0.007036606	0.009329671	4.38865e-09	1.359104e-08	-0.03270125	-0.06287245
1.6e+08	-0.03712174	-0.06568637	5.520261e-09	1.311247e-08	0.008021823	0.009257447	6.247462e-09	2.705294e-09
	5.520261e-09	1.311247e-08	-0.03795796	-0.06505177	4.907043e-09	8.622345e-08	0.007780094	0.009492937
	0.008021823	0.009257447	4.907043e-09	8.622345e-08	-0.037039	-0.06554416	4.606297e-09	1.426197e-08
	6.247462e-09	2.705294e-09	0.007780094	0.009492937	4.606297e-09	1.426197e-08	-0.03799922	-0.06487709
1.7e+08	-0.04250881	-0.06737847	5.782111e-09	1.359424e-08	0.00878386	0.009314167	6.548152e-09	2.379754e-09
	5.782111e-09	1.359424e-08	-0.04341071	-0.06662786	4.72547e-09	9.200442e-08	0.00852456	0.009587652
	0.00878386	0.009314167	4.72547e-09	9.200442e-08	-0.04242306	-0.0672316	4.809104e-09	1.490906e-08
	6.548152e-09	2.379754e-09	0.00852456	0.009587652	4.809104e-09	1.490906e-08	-0.04345933	-0.06643659
1.8e+08	-0.04802424	-0.06862618	6.018319e-09	1.404213e-08	0.009538834	0.009299998	6.802941e-09	2.007367e-09
	6.018319e-09	1.404213e-08	-0.04898668	-0.06774966	4.585128e-09	9.787989e-08	0.009263761	0.009614416
	0.009538834	0.009299998	4.585128e-09	9.787989e-08	-0.04793585	-0.06847476	4.994207e-09	1.553327e-08
	6.802941e-09	2.007367e-09	0.009263762	0.009614416	4.994207e-09	1.553327e-08	-0.04904243	-0.06754045
1.9e+08	-0.05362998	-0.06942189	6.224402e-09	1.445809e-08	0.01028027	0.00921625	7.006222e-09	1.592788e-09
	6.224402e-09	1.445809e-08	-0.05464661	-0.06841	4.498801e-09	1.038479e-07	0.009991581	0.009574384
	0.01028027	0.00921625	4.498801e-09	1.038479e-07	-0.05353928	-0.06926601	5.158583e-09	1.613594e-08
	7.006222e-09	1.592788e-09	0.009991581	0.009574383	5.158583e-09	1.613594e-08	-0.05470907	-0.06818156
2e+08	-0.05928786	-0.06976116	6.395873e-09	1.484469e-08	0.01100188	0.009064808	7.152861e-09	1.141276e-09
	6.395873e-09	1.484469e-08	-0.06035123	-0.06860504	4.478899e-09	1.099053e-07	0.01070208	0.009469248
	0.01100188	0.009064808	4.478899e-09	1.099053e-07	-0.05919517	-0.06960089	5.299127e-09	1.671888e-08
	7.152861e-09	1.141276e-09	0.01070208	0.009469248	5.299127e-09	1.671888e-08	-0.06041978	-0.0683561
2.1e+08	-0.06495982	-0.06964272	6.528343e-09	1.520517e-08	0.01169764	0.008848108	7.238271e-09	6.586391e-10
	6.528343e-09	1.520517e-08	-0.06606139	-0.0683342	4.53739e-09	1.160475e-07	0.01138953	0.009301212
	0.01169764	0.008848108	4.53739e-09	1.160475e-07	-0.06486544	-0.06947809	5.412735e-09	1.728432e-08
	7.238271e-09	6.586391e-10	0.01138953	0.009301212	5.412735e-09	1.728432e-08	-0.06613527	-0.06806358
2.2e+08	-0.07060811	-0.06906836	6.617625e-09	1.554342e-08	0.01236179	0.008569101	7.258461e-09	1.511654e-10
	6.617625e-09	1.554342e-08	-0.07173838	-0.06760008	4.685738e-09	1.222689e-07	0.0120485	0.009072964
	0.01236179	0.008569101	4.685738e-09	1.222689e-07	-0.07051235	-0.06889938	5.49639e-09	1.783503e-08
	7.258461e-09	1.511654e-10	0.0120485	0.009072964	5.49639e-09	1.783503e-08	-0.07181668	-0.0673067
2.3e+08	-0.07619553	-0.06804291	6.659842e-09	1.586398e-08	0.01298892	0.00823122	7.210082e-09	-3.744408e-10
	6.659842e-09	1.586398e-08	-0.07734408	-0.06640843	4.934812e-09	1.285626e-07	0.01267383	0.00878764
	0.01298892	0.00823122	4.934812e-09	1.285626e-07	-0.07609868	-0.06786957	5.54725e-09	1.837429e-08
	7.210082e-09	-3.744408e-10	0.01267383	0.00878764	5.54725e-09	1.837429e-08	-0.07742576	-0.0660913
2.4e+08	-0.08168563	-0.06657417	6.651526e-09	1.617202e-08	0.01357398	0.007838345	7.090464e-09	-9.111289e-10
	6.651526e-09	1.617202e-08	-0.08284126	-0.06476806	5.294785e-09	1.349205e-07	0.01326074	0.008448793
	0.01357398	0.007838345	5.294785e-09	1.349205e-07	-0.08158801	-0.06639641	5.562746e-09	1.890588e-08
	7.090464e-09	-9.111289e-10	0.01326074	0.008448793	5.562746e-09	1.890588e-08	-0.08292516	-0.06442628
2.5e+08	-0.08704296	-0.06467278	6.589725e-09	1.647329e-08	0.01411235	0.007394758	6.897641e-09	-1.451573e-09
	6.589725e-09	1.647329e-08	-0.08819375	-0.0626907	5.775046e-09	1.413337e-07	0.01380479	0.008060351
	0.01411235	0.007394758	5.775046e-09	1.413337e-07	-0.08694485	-0.06449053	5.540665e-09	1.943407e-08
	6.897641e-09	-1.451573e-09	0.01380479	0.008060351	5.540665e-09	1.943407e-08	-0.08827862	-0.0623235
2.6e+08	-0.09223324	-0.06235216	6.472092e-09	1.677408e-08	0.01459981	0.006905101	6.630375e-09	-1.988241e-09
	6.472092e-09	1.677408e-08	-0.09336669	-0.06019092	6.384087e-09	1.477918e-07	0.01430196	0.007626583
	0.01459981	0.006905101	6.384087e-09	1.477918e-07	-0.09213493	-0.06216529	5.479248e-09	1.996358e-08
	6.630375e-09	-1.988241e-09	0.01430196	0.007626583	5.479248e-09	1.996358e-08	-0.09345117	-0.05979765
2.7e+08	-0.09722359	-0.05962835	6.296982e-09	1.708115e-08	0.01503262	0.006374337	6.288163e-09	-2.513467e-09
	6.296982e-09	1.708115e-08	-0.0983267	-0.05728598	7.129406e-09	1.542838e-07	0.01474863	0.00715205
	0.01503262	0.006374337	7.129406e-09	1.542838e-07	-0.09712533	-0.0594367	5.377269e-09	2.049952e-08
	6.288163e-09	-2.513467e-09	0.01474863	0.00715205	5.377269e-09	2.049952e-08	-0.09840936	-0.05686613
2.8e+08	-0.1019827	-0.05651986	6.063524e-09	1.740163e-08	0.01540751	0.005807699	5.87125e-09	-3.019517e-09
	6.063524e-09	1.740163e-08	-0.1030421	-0.0539957	8.017409e-09	1.607978e-07	0.01514164	0.006641573
	0.01540751	0.005807699	8.017409e-09	1.607978e-07	-0.1018847	-0.05632325	5.234107e-09	2.104737e-08
	5.87125e-09	-3.019517e-09	0.01514164	0.006641573	5.234107e-09	2.104737e-08	-0.1031214	-0.05354887
2.9e+08	-0.1064809	-0.05304758	5.771693e-09	1.774294e-08	0.0157217	0.005210648	5.380628e-09	-3.498658e-09
	5.771693e-09	1.774294e-08	-0.1074831	-0.05034225	9.05331e-09	1.673209e-07	0.01547825	0.006100186
	0.0157217	0.005210648	9.05331e-09	1.673209e-07	-0.1063835	-0.05284579	5.049818e-09	2.161282e-08
	5.380628e-09	-3.498658e-09	0.01547825	0.006100186	5.049818e-09	2.161282e-08	-0.1075575	-0.04986821
3e+08	-0.1106906	-0.04923457	5.422378e-09	1.811268e-08	0.01597291	0.004588828	4.81803e-09	-3.943228e-09
	5.422378e-09	1.811268e-08	-0.1116218	-0.04635006	1.024106e-08	1.738398e-07	0.01575621	0.005533097
	0.01597291	0.004588828	1.024106e-08	1.738398e-07	-0.1105939	-0.04902734	4.825199e-09	2.220175e-08
	4.81803e-09	-3.943228e-09	0.01575621	0.005533097	4.825199e-09	2.220175e-08	-0.1116897	-0.04584871
3.1e+08	-0.1145861	-0.0451059	5.013418e-09	1.852463e-08	0.01615937	0.003948021	4.186075e-09	-4.345717e-09
	5.013418e-09	1.852463e-08	-0.1154327	-0.04204556	1.15798e-08	1.80342e-07	0.01597372	0.004945648
	0.01615937	0.003948021	1.15798e-08	1.80342e-07	-0.1144903	-0.04489295	4.557809e-09	2.282629e-08
	4.186075e-09	-4.345717e-09	0.01597372	0.004945648	4.557809e-09	2.282629e-08	-0.1154925	-0.04151696
3.2e+08	-0.118144	-0.0406885	4.545291e-09	1.899444e-08	0.01627982	0.003294104	3.488117e-09	-4.698879e-09
	4.545291e-09	1.899444e-08	-0.1188924	-0.03745703	1.306772e-08	1.868161e-07	0.01612945	0.004343274
	0.01627982	0.003294104	1.306772e-08	1.868161e-07	-0.1180492	-0.04046952	4.247701e-09	2.350048e-08
	3.488117e-09	-4.698879e-09	0.01612945	0.004343274	4.247701e-09	2.350048e-08	-0.1189424	-0.03690141
3.3e+08	-0.1213431	-0.03601091	4.031009e-09	1.951795e-08	0.01633351	0.002633004	2.727733e-09	-4.995638e-09
	4.031009e-09	1.951795e-08	-0.1219801	-0.03261442	1.471191e-08	1.932443e-07	0.01622253	0.003731466
	0.01633351	0.002633004	1.471191e-08	1.932443e-07	-0.1212494	-0.03578558	3.907327e-09	2.421835e-08
	2.727733e-09	-4.995638e-09	0.01622253	0.003731466	3.907327e-09	2.421835e-08	-0.1220186	-0.03203215
3.4e+08	-0.1241646	-0.03110318	3.475754e-09	2.010195e-08	0.01632021	0.00197066	1.90947e-09	-5.229246e-09
	3.475754e-09	2.010195e-08	-0.1246774	-0.02754908	1.651077e-08	1.996117e-07	0.01625256	0.003115733
	0.01632021	0.00197066	1.651077e-08	1.996117e-07	-0.124072	-0.03087117	3.541107e-09	2.498508e-08
	1.90947e-09	-5.229246e-09	0.01625256	0.003115733	3.541107e-09	2.498508e-08	-0.1247029	-0.02694071
3.5e+08	-0.1265923	-0.02599661	2.885631e-09	2.07527e-08	0.01624018	0.00131298	1.038524e-09	-5.393329e-09
	2.885631e-09	2.07527e-08	-0.1269686	-0.02229365	1.84612e-08	2.059035e-07	0.0162196	0.002501568
	0.01624018	0.00131298	1.84612e-08	2.059035e-07	-0.1265008	-0.02575757	3.154224e-09	2.580537e-08
	1.038524e-09	-5.393329e-09	0.0162196	0.002501568	3.154224e-09	2.580537e-08	-0.1269794	-0.02165989
3.6e+08	-0.1286124	-0.02072357	2.267602e-09	2.147583e-08	0.01609417	0.0006658053	1.207132e-10	-5.481939e-09
	2.267602e-09	2.147583e-08	-0.1288407	-0.01688176	2.05585e-08	2.121049e-07	0.01612415	0.001894412
	0.01609417	0.0006658053	2.05585e-08	2.121049e-07	-0.128522	-0.02047715	2.752563e-09	2.668338e-08
	1.207132e-10	-5.481939e-09	0.01612415	0.001894412	2.752563e-09	2.668338e-08	-0.1288351	-0.01622348
3.7e+08	-0.1302139	-0.0153173	1.629415e-09	2.227621e-08	0.01588343	3.48705e-05	-8.375606e-10	-5.489614e-09
	1.629415e-09	2.227621e-08	-0.1302833	-0.01134787	2.279647e-08	2.182015e-07	0.01596717	0.001299622
	0.01588343	3.48705e-05	2.279647e-08	2.182015e-07	-0.1301245	-0.01506316	2.342653e-09	2.762262e-08
	-8.375606e-10	-5.489614e-09	0.01596717	0.001299622	2.342653e-09	2.762262e-08	-0.1302599	-0.01066611
3.8e+08	-0.1313882	-0.009811707	9.795151e-10	2.315785e-08	0.01560965	-0.0005742296	-1.829347e-09	-5.411423e-09
	9.795151e-10	2.315785e-08	-0.1312889	-0.005727053	2.516736e-08	2.241795e-07	0.01575003	0.0007224395
	0.01560965	-0.0005742296	2.516736e-08	2.241795e-07	-0.1312996	-0.009549518	1.931582e-09	2.86258e-08
	-1.829347e-09	-5.411423e-09	0.01575003	0.0007224395	1.931582e-09	2.86258e-08	-0.1312463	-0.005022991
3.9e+08	-0.1321296	-0.00424118	3.269412e-10	2.41238e-08	0.015275	-0.001156075	-2.847188e-09	-5.243017e-09
	3.269412e-10	2.41238e-08	-0.1318528	-5.474626e-05	2.766192e-08	2.300254e-07	0.01547453	0.0001679607
	0.015275	-0.001156075	2.766192e-08	2.300254e-07	-0.1320417	-0.003970612	1.526905e-09	2.969483e-08
	-2.847188e-09	-5.243017e-09	0.01547453	0.0001679607	1.526905e-09	2.969483e-08	-0.1317896	0.0006702727
4e+08	-0.1324351	0.001359647	-3.187903e-10	2.517605e-08	0.01488205	-0.001705451	-3.883167e-09	-4.980676e-09
	-3.187903e-10	2.517605e-08	-0.1319732	0.005633427	3.026949e-08	2.357268e-07	0.01514285	-0.0003588923
	0.01488205	-0.001705451	3.026949e-08	2.357268e-07	-0.1323477	0.001638902	1.136538e-09	3.083068e-08
	-3.883167e-09	-4.980676e-09	0.01514285	-0.0003588923	1.136538e-09	3.083068e-08	-0.1318882	0.006377922
4.1e+08	-0.1323043	0.00695608	-9.478164e-10	2.631548e-08	0.01443384	-0.002217383	-4.92895e-09	-4.621347e-09
	-9.478164e-10	2.631548e-08	-0.1316509	0.01130189	3.297805e-08	2.412721e-07	0.01475758	-0.0008533989
	0.01443384	-0.002217383	3.297805e-08	2.412721e-07	-0.1322172	0.007244309	7.686396e-10	3.203335e-08
	-4.92895e-09	-4.621347e-09	0.01475758	-0.0008533989	7.686396e-10	3.203335e-08	-0.131543	0.01206425
4.2e+08	-0.1317396	0.01251356	-1.550065e-09	2.754182e-08	0.01393376	-0.002687161	-5.975845e-09	-4.162693e-09
	-1.550065e-09	2.754182e-08	-0.1308896	0.01691532	3.577432e-08	2.466509e-07	0.01432167	-0.001311066
	0.01393376	-0.002687161	3.577432e-08	2.466509e-07	-0.1316524	0.01281103	4.314828e-10	3.330182e-08
	-5.975845e-09	-4.162693e-09	0.01432167	-0.001311066	4.314828e-10	3.330182e-08	-0.1307578	0.0176938
4.3e+08	-0.1307461	0.01799788	-2.115403e-09	2.885356e-08	0.01338559	-0.003110369	-7.014853e-09	-3.603121e-09
	-2.115403e-09	2.885356e-08	-0.1296958	0.02243885	3.864385e-08	2.51854e-07	0.01383842	-0.001727654
	0.01338559	-0.003110369	3.864385e-08	2.51854e-07	-0.1306585	0.01830482	1.333237e-10	3.463403e-08
	-7.014853e-09	-3.603121e-09	0.01383842	-0.001727654	1.333237e-10	3.463403e-08	-0.1295393	0.0232316
4.4e+08	-0.1293313	0.02337536	-2.633786e-09	3.024801e-08	0.01279348	-0.003482916	-8.036726e-09	-2.941821e-09
	-2.633786e-09	3.024801e-08	-0.1280787	0.02783828	4.157117e-08	2.568735e-07	0.01331146	-0.002099201
	0.01279348	-0.003482916	4.157117e-08	2.568735e-07	-0.1292431	0.02369198	-1.177374e-10	3.602687e-08
	-8.036726e-09	-2.941821e-09	0.01331146	-0.002099201	-1.177374e-10	3.602687e-08	-0.1278969	0.02864334
4.5e+08	-0.1275056	0.02861306	-3.095416e-09	3.172125e-08	0.01216189	-0.003801054	-9.032033e-09	-2.178795e-09
	-3.095416e-09	3.172125e-08	-0.1260502	0.03308027	4.45399e-08	2.61703e-07	0.01274474	-0.002422043
	0.01216189	-0.003801054	4.45399e-08	2.61703e-07	-0.1274163	0.02893953	-3.138963e-10	3.74762e-08
	-9.032033e-09	-2.178795e-09	0.01274474	-0.002422043	-3.138963e-10	3.74762e-08	-0.1258425	0.03389563
4.6e+08	-0.1252818	0.03367895	-3.490889e-09	3.326818e-08	0.01149558	-0.004061409	-9.991223e-09	-1.314883e-09
	-3.490889e-09	3.326818e-08	-0.1236245	0.03813255	4.753291e-08	2.663377e-07	0.01214251	-0.002692843
	0.01149558	-0.004061409	4.753291e-08	2.663377e-07	-0.125191	0.03401542	-4.477815e-10	3.897686e-08
	-9.991223e-09	-1.314883e-09	0.01214251	-0.002692843	-4.477815e-10	3.897686e-08	-0.1233906	0.0389561
4.7e+08	-0.1226751	0.03854213	-3.811348e-09	3.488257e-08	0.0107996	-0.004260999	-1.090469e-08	-3.517837e-10
	-3.811348e-09	3.488257e-08	-0.1208186	0.04296411	5.053248e-08	2.707743e-07	0.01150926	-0.002908605
	0.0107996	-0.004260999	5.053248e-08	2.707743e-07	-0.1225824	0.03888868	-5.125904e-10	4.052274e-08
	-1.090469e-08	-3.517837e-10	0.01150926	-0.002908605	-5.125904e-10	4.052274e-08	-0.1205585	0.0437937
4.8e+08	-0.119703	0.04317297	-4.048626e-09	3.655713e-08	0.01007925	-0.004397259	-1.176286e-08	7.079257e-10
	-4.048626e-09	3.655713e-08	-0.1176518	0.04754536	5.352046e-08	2.750114e-07	0.01084974	-0.003066702
	0.01007925	-0.004397259	5.352046e-08	2.750114e-07	-0.119608	0.04352967	-5.022143e-10	4.210686e-08
