!$
! Info: Touchstone file created by Circ.  Input file=Tx_4in_Rx_85ohms_TxVia_35mils_RxVia_45mils.circ
!$
# Hz S RI R 50
0	0.003345993	6.667116e-26	-2.189317e-05	3.860059e-24	4.112191e-05	6.175196e-24	-2.187386e-05	1.509586e-24
	-2.189318e-05	3.861188e-24	0.003344349	7.901023e-26	-2.190526e-05	5.401956e-24	4.097861e-05	7.479943e-24
	4.093553e-05	6.149272e-24	-2.190525e-05	5.400999e-24	0.003356915	6.668022e-26	-2.189129e-05	3.70733e-24
	-2.187387e-05	1.510473e-24	3.913183e-05	7.516984e-24	-2.189129e-05	3.708045e-24	0.003357562	7.400749e-26
1e+07	0.004537413	-0.003397942	-4.558439e-05	-1.248123e-05	0.0001076449	0.0008954493	-3.33336e-06	-1.064452e-06
	-4.558439e-05	-1.248123e-05	0.004546669	-0.003400478	-1.742568e-05	3.120441e-05	0.000106149	0.0008966447
	0.0001076397	0.0008954503	-1.742568e-05	3.120441e-05	0.004566521	-0.00338303	-4.558718e-05	-1.250001e-05
	-3.333358e-06	-1.064452e-06	0.0001060892	0.000896655	-4.558718e-05	-1.250001e-05	0.004548328	-0.003390152
2e+07	0.005290807	-0.007909472	-4.283219e-05	3.113868e-06	0.0002440045	0.00175887	-2.253064e-06	-6.977405e-06
	-4.283219e-05	3.113868e-06	0.005283524	-0.007918455	-2.463116e-05	4.094205e-05	0.0002382224	0.001761796
	0.0002440059	0.001758874	-2.463116e-05	4.094205e-05	0.005319312	-0.007885828	-4.283311e-05	3.065329e-06
	-2.253063e-06	-6.977407e-06	0.0002382146	0.00176183	-4.283311e-05	3.065328e-06	0.005288169	-0.007894042
3e+07	0.005278679	-0.01294566	-4.18031e-05	-2.477955e-07	0.0004511713	0.00259958	-6.569997e-06	-8.764555e-06
	-4.18031e-05	-2.477955e-07	0.005246711	-0.01295521	-2.762105e-05	5.013347e-05	0.0004384564	0.002605077
	0.0004511738	0.002599579	-2.762105e-05	5.013347e-05	0.005308021	-0.0129105	-4.180298e-05	-3.216865e-07
	-6.569997e-06	-8.764555e-06	0.0004384564	0.002605082	-4.180298e-05	-3.216867e-07	0.005253267	-0.01292007
4e+07	0.004653565	-0.01810942	-4.118321e-05	-1.917572e-06	0.000728482	0.003413452	-1.02147e-05	-8.968012e-06
	-4.118321e-05	-1.917572e-06	0.004588722	-0.01811545	-2.776913e-05	5.788498e-05	0.0007063163	0.003422698
	0.0007284825	0.003413451	-2.776913e-05	5.788498e-05	0.004684877	-0.01806264	-4.118106e-05	-2.019209e-06
	-1.02147e-05	-8.968011e-06	0.0007063109	0.003422696	-4.118106e-05	-2.019209e-06	0.004596371	-0.01807059
5e+07	0.003476637	-0.02327911	-4.086211e-05	-2.854913e-06	0.001073284	0.004194747	-1.337064e-05	-8.281605e-06
	-4.086211e-05	-2.854913e-06	0.003370944	-0.02327651	-2.571152e-05	6.409905e-05	0.001039327	0.004209254
	0.001073284	0.004194746	-2.571152e-05	6.409905e-05	0.003510761	-0.02322107	-4.085747e-05	-2.987342e-06
	-1.337064e-05	-8.281605e-06	0.001039323	0.004209253	-4.085747e-05	-2.987342e-06	0.00337884	-0.02322246
6e+07	0.001785285	-0.02837848	-4.077164e-05	-3.358042e-06	0.001482123	0.004937846	-1.611597e-05	-6.958632e-06
	-4.077164e-05	-3.358042e-06	0.001631551	-0.02836118	-2.189413e-05	6.859836e-05	0.001434255	0.004959424
	0.001482124	0.004937846	-2.189413e-05	6.859836e-05	0.00182285	-0.02830969	-4.076479e-05	-3.524893e-06
	-1.611597e-05	-6.958632e-06	0.001434257	0.004959423	-4.076479e-05	-3.524893e-06	0.001638849	-0.02829824
7e+07	-0.000391052	-0.03334904	-4.086278e-05	-3.549033e-06	0.001951043	0.005637396	-1.848084e-05	-5.10929e-06
	-4.086278e-05	-3.549033e-06	-0.000599272	-0.03331028	-1.671749e-05	7.113683e-05	0.001887379	0.005668112
	0.001951045	0.005637396	-1.671749e-05	7.113683e-05	-0.0003495818	-0.03327007	-4.085488e-05	-3.754355e-06
	-1.848084e-05	-5.10929e-06	0.001887387	0.005668108	-4.085488e-05	-3.754354e-06	-0.0005934389	-0.03323856
8e+07	-0.003025432	-0.03814162	-4.109648e-05	-3.486196e-06	0.002475623	0.006288388	-2.046211e-05	-2.76634e-06
	-4.109648e-05	-3.486196e-06	-0.003293915	-0.03807395	-1.06072e-05	7.138054e-05	0.002394528	0.006330547
	0.002475626	0.006288388	-1.06072e-05	7.138054e-05	-0.002979732	-0.03805309	-4.108958e-05	-3.734306e-06
	-2.046212e-05	-2.76634e-06	0.002394537	0.00633054	-4.108958e-05	-3.734305e-06	-0.003290455	-0.03799339
9e+07	-0.006091131	-0.04271328	-4.144031e-05	-3.201549e-06	0.00305103	0.006886355	-2.201292e-05	1.265339e-07
	-4.144031e-05	-3.201549e-06	-0.006424932	-0.04260844	-4.107295e-06	6.877175e-05	0.002951134	0.006942479
	0.003051031	0.006886354	-4.107295e-06	6.877175e-05	-0.006040993	-0.04261574	-4.143743e-05	-3.496928e-06
	-2.201292e-05	1.26534e-07	0.002951141	0.006942474	-4.143743e-05	-3.496928e-06	-0.006424778	-0.04251884
1e+08	-0.009561191	-0.04702717	-4.187575e-05	-2.722819e-06	0.003672525	0.007428522	-2.285775e-05	4.099909e-06
	-4.187575e-05	-2.722819e-06	-0.00996446	-0.04687602	1.475509e-06	6.098471e-05	0.003552759	0.007501336
	0.003672525	0.007428522	1.475509e-06	6.098471e-05	-0.009506454	-0.04692104	-4.188075e-05	-3.070292e-06
	-2.285775e-05	4.099909e-06	0.003552759	0.007501336	-4.188075e-05	-3.070292e-06	-0.009968596	-0.04677711
1.1e+08	-0.01341026	-0.05104912	-4.232941e-05	-2.104618e-06	0.004338363	0.007906361	-2.126632e-05	7.121554e-06
	-4.232941e-05	-2.104618e-06	-0.01388436	-0.05084138	1.519411e-05	4.833293e-05	0.004198234	0.007998574
	0.004338363	0.007906361	1.519411e-05	4.833293e-05	-0.01334953	-0.05093493	-4.23468e-05	-2.507937e-06
	-2.126632e-05	7.121554e-06	0.004198234	0.007998574	-4.23468e-05	-2.507937e-06	-0.01389302	-0.05073174
1.2e+08	-0.01760263	-0.05473764	-4.278553e-05	-1.283767e-06	0.005036059	0.008316398	-1.995091e-05	9.113541e-06
	-4.278553e-05	-1.283767e-06	-0.01814956	-0.05446448	2.987238e-05	3.732087e-05	0.004875065	0.008431005
	0.005036059	0.008316398	2.987238e-05	3.732087e-05	-0.01753643	-0.0546167	-4.282172e-05	-1.745943e-06
	-1.995091e-05	9.113541e-06	0.004875065	0.008431005	-4.282172e-05	-1.745943e-06	-0.01816349	-0.05434369
1.3e+08	-0.02210511	-0.05806753	-4.322982e-05	-2.825983e-07	0.005759787	0.008657812	-1.890826e-05	1.034417e-05
	-4.322982e-05	-2.825983e-07	-0.02272585	-0.05771931	4.438319e-05	2.549541e-05	0.005577812	0.00879791
	0.005759787	0.008657812	4.438319e-05	2.549541e-05	-0.022034	-0.05794063	-4.329208e-05	-8.061977e-07
	-1.890826e-05	1.034417e-05	0.005577812	0.00879791	-4.329208e-05	-8.061977e-07	-0.02274584	-0.05758668
1.4e+08	-0.02688304	-0.06101532	-4.364259e-05	8.896431e-07	0.006503091	0.008929076	-1.866923e-05	1.009813e-05
	-4.364259e-05	8.896431e-07	-0.02757741	-0.06058197	5.831241e-05	1.232195e-05	0.006300407	0.009097819
	0.006503091	0.008929076	5.831241e-05	1.232195e-05	-0.02680756	-0.06088301	-4.373893e-05	3.029548e-07
	-1.866923e-05	1.009813e-05	0.006300407	0.009097819	-4.373893e-05	3.029548e-07	-0.02760413	-0.06043653
1.5e+08	-0.03190075	-0.06356066	-4.399514e-05	2.212135e-06	0.007259336	0.00912912	-1.840984e-05	9.985524e-06
	-4.399514e-05	2.212135e-06	-0.03266737	-0.06303186	7.132834e-05	-2.410431e-06	0.007036606	0.009329671
	0.007259336	0.00912912	7.132834e-05	-2.410431e-06	-0.03182142	-0.06342328	-4.413425e-05	1.561361e-06
	-1.840984e-05	9.985524e-06	0.007036606	0.009329671	-4.413425e-05	1.561361e-06	-0.03270125	-0.06287245
1.6e+08	-0.03712174	-0.06568637	-4.42669e-05	3.669797e-06	0.008021823	0.009257447	-1.813542e-05	9.96888e-06
	-4.42669e-05	3.669797e-06	-0.03795796	-0.06505177	8.313171e-05	-1.87665e-05	0.007780094	0.009492937
	0.008021823	0.009257447	8.313171e-05	-1.87665e-05	-0.037039	-0.06554416	-4.44581e-05	2.955044e-06
	-1.813542e-05	9.96888e-06	0.007780094	0.009492937	-4.44581e-05	2.955044e-06	-0.03799922	-0.06487709
1.7e+08	-0.04250881	-0.06737847	-4.443939e-05	5.246251e-06	0.00878386	0.009314167	-1.784822e-05	1.002422e-05
	-4.443939e-05	5.246251e-06	-0.04341071	-0.06662786	9.344464e-05	-3.672155e-05	0.00852456	0.009587652
	0.00878386	0.009314167	9.344464e-05	-3.672155e-05	-0.04242306	-0.0672316	-4.469244e-05	4.468848e-06
	-1.784822e-05	1.002422e-05	0.00852456	0.009587652	-4.469244e-05	4.468848e-06	-0.04345933	-0.06643659
1.8e+08	-0.04802424	-0.06862618	-4.449644e-05	6.923815e-06	0.009538834	0.009299998	-1.754901e-05	1.0135e-05
	-4.449644e-05	6.923815e-06	-0.04898668	-0.06774966	0.0001020097	-5.618647e-05	0.009263761	0.009614416
	0.009538834	0.009299998	0.0001020097	-5.618647e-05	-0.04793585	-0.06847476	-4.482142e-05	6.086413e-06
	-1.754901e-05	1.0135e-05	0.009263762	0.009614416	-4.482142e-05	6.086413e-06	-0.04904243	-0.06754045
1.9e+08	-0.05362998	-0.06942189	-4.442446e-05	8.683659e-06	0.01028027	0.00921625	-1.723787e-05	1.028911e-05
	-4.442446e-05	8.683659e-06	-0.05464661	-0.06841	0.0001085913	-7.702177e-05	0.009991581	0.009574384
	0.01028027	0.00921625	0.0001085913	-7.702177e-05	-0.05353928	-0.06926601	-4.483157e-05	7.790304e-06
	-1.723787e-05	1.028911e-05	0.009991581	0.009574383	-4.483157e-05	7.790304e-06	-0.05470907	-0.06818156
2e+08	-0.05928786	-0.06976116	-4.421256e-05	1.050603e-05	0.01100188	0.009064808	-1.691447e-05	1.047731e-05
	-4.421256e-05	1.050603e-05	-0.06035123	-0.06860504	0.0001129784	-9.904685e-05	0.01070208	0.009469248
	0.01100188	0.009064808	0.0001129784	-9.904685e-05	-0.05919517	-0.06960089	-4.471189e-05	9.562206e-06
	-1.691447e-05	1.047731e-05	0.01070208	0.009469248	-4.471189e-05	9.562206e-06	-0.06041978	-0.0683561
2.1e+08	-0.06495982	-0.06964272	-4.38526e-05	1.237054e-05	0.01169764	0.008848108	-1.657838e-05	1.069221e-05
	-4.38526e-05	1.237054e-05	-0.06606139	-0.0683342	0.0001149869	-0.0001220469	0.01138953	0.009301212
	0.01169764	0.008848108	0.0001149869	-0.0001220469	-0.06486544	-0.06947809	-4.445397e-05	1.138319e-05
	-1.657838e-05	1.069221e-05	0.01138953	0.009301212	-4.445397e-05	1.138319e-05	-0.06613527	-0.06806358
2.2e+08	-0.07060811	-0.06906836	-4.333925e-05	1.425646e-05	0.01236179	0.008569101	-1.622912e-05	1.092779e-05
	-4.333925e-05	1.425646e-05	-0.07173838	-0.06760008	0.0001144625	-0.0001457789	0.0120485	0.009072964
	0.01236179	0.008569101	0.0001144625	-0.0001457789	-0.07051235	-0.06889938	-4.405197e-05	1.323398e-05
	-1.622912e-05	1.092779e-05	0.0120485	0.009072964	-4.405197e-05	1.323398e-05	-0.07181668	-0.0673067
2.3e+08	-0.07619553	-0.06804291	-4.266992e-05	1.614302e-05	0.01298892	0.00823122	-1.586619e-05	1.117897e-05
	-4.266992e-05	1.614302e-05	-0.07734408	-0.06640843	0.0001112831	-0.0001699776	0.01267383	0.00878764
	0.01298892	0.00823122	0.0001112831	-0.0001699776	-0.07609868	-0.06786957	-4.350262e-05	1.50952e-05
	-1.586619e-05	1.117897e-05	0.01267383	0.00878764	-4.350262e-05	1.50952e-05	-0.07742576	-0.0660913
2.4e+08	-0.08168563	-0.06657417	-4.184478e-05	1.800979e-05	0.01357398	0.007838345	-1.548926e-05	1.144133e-05
	-4.184478e-05	1.800979e-05	-0.08284126	-0.06476806	0.0001053594	-0.0001943592	0.01326074	0.008448793
	0.01357398	0.007838345	0.0001053594	-0.0001943592	-0.08158801	-0.06639641	-4.280518e-05	1.694775e-05
	-1.548926e-05	1.144133e-05	0.01326074	0.008448793	-4.280518e-05	1.694775e-05	-0.08292516	-0.06442628
2.5e+08	-0.08704296	-0.06467278	-4.086658e-05	1.98369e-05	0.01411235	0.007394758	-1.509805e-05	1.171102e-05
	-4.086658e-05	1.98369e-05	-0.08819375	-0.0626907	9.663779e-05	-0.0002186279	0.01380479	0.008060351
	0.01411235	0.007394758	9.663779e-05	-0.0002186279	-0.08694485	-0.06449053	-4.19613e-05	1.8773e-05
	-1.509805e-05	1.171102e-05	0.01380479	0.008060351	-4.19613e-05	1.8773e-05	-0.08827862	-0.0623235
2.6e+08	-0.09223324	-0.06235216	-3.974053e-05	2.160539e-05	0.01459981	0.006905101	-1.469248e-05	1.198459e-05
	-3.974053e-05	2.160539e-05	-0.09336669	-0.06019092	8.509983e-05	-0.0002424793	0.01430196	0.007626583
	0.01459981	0.006905101	8.509983e-05	-0.0002424793	-0.09213493	-0.06216529	-4.097492e-05	2.055312e-05
	-1.469248e-05	1.198459e-05	0.01430196	0.007626583	-4.097492e-05	2.055312e-05	-0.09345117	-0.05979765
2.7e+08	-0.09722359	-0.05962835	-3.84741e-05	2.32974e-05	0.01503262	0.006374337	-1.427254e-05	1.225892e-05
	-3.84741e-05	2.32974e-05	-0.0983267	-0.05728598	7.076412e-05	-0.0002656072	0.01474863	0.00715205
	0.01503262	0.006374337	7.076412e-05	-0.0002656072	-0.09712533	-0.0594367	-3.985207e-05	2.227119e-05
	-1.427254e-05	1.225892e-05	0.01474863	0.00715205	-3.985207e-05	2.227119e-05	-0.09840936	-0.05686613
2.8e+08	-0.1019827	-0.05651986	-3.707688e-05	2.489651e-05	0.01540751	0.005807699	-1.383848e-05	1.253118e-05
	-3.707688e-05	2.489651e-05	-0.1030421	-0.0539957	5.368428e-05	-0.0002877054	0.01514164	0.006641573
	0.01540751	0.005807699	5.368428e-05	-0.0002877054	-0.1018847	-0.05632325	-3.860076e-05	2.391161e-05
	-1.383848e-05	1.253118e-05	0.01514164	0.006641573	-3.860076e-05	2.391161e-05	-0.1031214	-0.05354887
2.9e+08	-0.1064809	-0.05304758	-3.556027e-05	2.638786e-05	0.0157217	0.005210648	-1.339064e-05	1.279881e-05
	-3.556027e-05	2.638786e-05	-0.1074831	-0.05034225	3.394925e-05	-0.0003084733	0.01547825	0.006100186
	0.0157217	0.005210648	3.394925e-05	-0.0003084733	-0.1063835	-0.05284579	-3.72307e-05	2.54601e-05
	-1.339064e-05	1.279881e-05	0.01547825	0.006100186	-3.72307e-05	2.54601e-05	-0.1075575	-0.04986821
3e+08	-0.1106906	-0.04923457	-3.393732e-05	2.775835e-05	0.01597291	0.004588828	-1.292955e-05	1.305947e-05
	-3.393732e-05	2.775835e-05	-0.1116218	-0.04635006	1.168386e-05	-0.0003276243	0.01575621	0.005533097
	0.01597291	0.004588828	1.168386e-05	-0.0003276243	-0.1105939	-0.04902734	-3.575314e-05	2.690396e-05
	-1.292955e-05	1.305947e-05	0.01575621	0.005533097	-3.575314e-05	2.690396e-05	-0.1116897	-0.04584871
3.1e+08	-0.1145861	-0.0451059	-3.22023e-05	2.89885e-05	0.01615937	0.003948021	-1.245611e-05	1.331088e-05
	-3.22023e-05	2.89885e-05	-0.1154327	-0.04204556	-1.365551e-05	-0.0003429526	0.01597372	0.004945648
	0.01615937	0.003948021	-1.365551e-05	-0.0003429526	-0.1144903	-0.04489295	-3.416063e-05	2.822469e-05
	-1.245611e-05	1.331088e-05	0.01597372	0.004945648	-3.416063e-05	2.822469e-05	-0.1154925	-0.04151696
3.2e+08	-0.118144	-0.0406885	-3.035135e-05	3.005555e-05	0.01627982	0.003294104	-1.197142e-05	1.3551e-05
	-3.035135e-05	3.005555e-05	-0.1188924	-0.03745703	-4.2253e-05	-0.0003521686	0.01612945	0.004343274
	0.01627982	0.003294104	-4.2253e-05	-0.0003521686	-0.1180492	-0.04046952	-3.244726e-05	2.94004e-05
	-1.197142e-05	1.3551e-05	0.01612945	0.004343274	-3.244726e-05	2.94004e-05	-0.1189424	-0.03690141
3.3e+08	-0.1213431	-0.03601091	-2.844243e-05	3.096647e-05	0.01633351	0.002633004	-1.147606e-05	1.377853e-05
	-2.844243e-05	3.096647e-05	-0.1219801	-0.03261442	-7.231353e-05	-0.0003589015	0.01622253	0.003731466
	0.01633351	0.002633004	-7.231353e-05	-0.0003589015	-0.1212494	-0.03578558	-3.066865e-05	3.043618e-05
	-1.147606e-05	1.377853e-05	0.01622253	0.003731466	-3.066865e-05	3.043618e-05	-0.1220186	-0.03203215
3.4e+08	-0.1241646	-0.03110318	-2.649322e-05	3.171637e-05	0.01632021	0.00197066	-1.0971e-05	1.399188e-05
	-2.649322e-05	3.171637e-05	-0.1246774	-0.02754908	-0.0001035938	-0.0003629611	0.01625256	0.003115733
	0.01632021	0.00197066	-0.0001035938	-0.0003629611	-0.124072	-0.03087117	-2.884048e-05	3.132649e-05
	-1.0971e-05	1.399188e-05	0.01625256	0.003115733	-2.884048e-05	3.132649e-05	-0.1247029	-0.02694071
3.5e+08	-0.1265923	-0.02599661	-2.452173e-05	3.23026e-05	0.01624018	0.00131298	-1.045743e-05	1.418989e-05
	-2.452173e-05	3.23026e-05	-0.1269686	-0.02229365	-0.0001358268	-0.0003641916	0.0162196	0.002501568
	0.01624018	0.00131298	-0.0001358268	-0.0003641916	-0.1265008	-0.02575757	-2.697895e-05	3.206792e-05
	-1.045743e-05	1.418989e-05	0.0162196	0.002501568	-2.697895e-05	3.206792e-05	-0.1269794	-0.02165989
3.6e+08	-0.1286124	-0.02072357	-2.254603e-05	3.272477e-05	0.01609417	0.0006658053	-9.936587e-06	1.437154e-05
	-2.254603e-05	3.272477e-05	-0.1288407	-0.01688176	-0.000168728	-0.0003624659	0.01612415	0.001894412
	0.01609417	0.0006658053	-0.000168728	-0.0003624659	-0.128522	-0.02047715	-2.510034e-05	3.265896e-05
	-9.936587e-06	1.437154e-05	0.01612415	0.001894412	-2.510034e-05	3.265896e-05	-0.1288351	-0.01622348
3.7e+08	-0.1302139	-0.0153173	-2.058396e-05	3.298455e-05	0.01588343	3.48705e-05	-9.409712e-06	1.4536e-05
	-2.058396e-05	3.298455e-05	-0.1302833	-0.01134787	-0.0002019983	-0.0003576894	0.01596717	0.001299622
	0.01588343	3.48705e-05	-0.0002019983	-0.0003576894	-0.1301245	-0.01506316	-2.322082e-05	3.310001e-05
	-9.409712e-06	1.4536e-05	0.01596717	0.001299622	-2.322082e-05	3.310001e-05	-0.1302599	-0.01066611
3.8e+08	-0.1313882	-0.009811707	-1.86529e-05	3.308571e-05	0.01560965	-0.0005742296	-8.878067e-06	1.46826e-05
	-1.86529e-05	3.308571e-05	-0.1312889	-0.005727053	-0.0002353282	-0.0003498002	0.01575003	0.0007224395
	0.01560965	-0.0005742296	-0.0002353282	-0.0003498002	-0.1312996	-0.009549518	-2.135625e-05	3.33933e-05
	-8.878067e-06	1.46826e-05	0.01575003	0.0007224395	-2.135625e-05	3.33933e-05	-0.1312463	-0.005022991
3.9e+08	-0.1321296	-0.00424118	-1.676955e-05	3.303401e-05	0.015275	-0.001156075	-8.342921e-06	1.481084e-05
	-1.676955e-05	3.303401e-05	-0.1318528	-5.474626e-05	-0.0002684011	-0.0003387702	0.01547453	0.0001679607
	0.015275	-0.001156075	-0.0002684011	-0.0003387702	-0.1320417	-0.003970612	-1.9522e-05	3.354289e-05
	-8.342921e-06	1.481084e-05	0.01547453	0.0001679607	-1.9522e-05	3.354289e-05	-0.1317896	0.0006702727
4e+08	-0.1324351	0.001359647	-1.494975e-05	3.283704e-05	0.01488205	-0.001705451	-7.80552e-06	1.492041e-05
	-1.494975e-05	3.283704e-05	-0.1319732	0.005633427	-0.0003008975	-0.0003246061	0.01514285	-0.0003588923
	0.01488205	-0.001705451	-0.0003008975	-0.0003246061	-0.1323477	0.001638902	-1.773276e-05	3.355452e-05
	-7.80552e-06	1.492041e-05	0.01514285	-0.0003588923	-1.773276e-05	3.355452e-05	-0.1318882	0.006377922
4.1e+08	-0.1323043	0.00695608	-1.320825e-05	3.250419e-05	0.01443384	-0.002217383	-7.267085e-06	1.501114e-05
	-1.320825e-05	3.250419e-05	-0.1316509	0.01130189	-0.000332499	-0.0003073493	0.01475758	-0.0008533989
	0.01443384	-0.002217383	-0.000332499	-0.0003073493	-0.1322172	0.007244309	-1.60024e-05	3.343554e-05
	-7.267085e-06	1.501114e-05	0.01475758	-0.0008533989	-1.60024e-05	3.343554e-05	-0.131543	0.01206425
4.2e+08	-0.1317396	0.01251356	-1.155855e-05	3.204646e-05	0.01393376	-0.002687161	-6.728785e-06	1.508302e-05
	-1.155855e-05	3.204646e-05	-0.1308896	0.01691532	-0.0003628915	-0.0002870749	0.01432167	-0.001311066
	0.01393376	-0.002687161	-0.0003628915	-0.0002870749	-0.1316524	0.01281103	-1.434371e-05	3.319482e-05
	-6.728785e-06	1.508302e-05	0.01432167	-0.001311066	-1.434371e-05	3.319482e-05	-0.1307578	0.0176938
4.3e+08	-0.1307461	0.01799788	-1.001275e-05	3.147632e-05	0.01338559	-0.003110369	-6.191728e-06	1.513616e-05
	-1.001275e-05	3.147632e-05	-0.1296958	0.02243885	-0.0003917696	-0.0002638922	0.01383842	-0.001727654
	0.01338559	-0.003110369	-0.0003917696	-0.0002638922	-0.1306585	0.01830482	-1.27684e-05	3.284259e-05
	-6.191728e-06	1.513616e-05	0.01383842	-0.001727654	-1.27684e-05	3.284259e-05	-0.1295393	0.0232316
4.4e+08	-0.1293313	0.02337536	-8.581372e-06	3.080748e-05	0.01279348	-0.003482916	-5.656943e-06	1.517075e-05
	-8.581372e-06	3.080748e-05	-0.1280787	0.02783828	-0.0004188401	-0.0002379428	0.01331146	-0.002099201
	0.01279348	-0.003482916	-0.0004188401	-0.0002379428	-0.1292431	0.02369198	-1.128683e-05	3.239031e-05
	-5.656943e-06	1.517075e-05	0.01331146	-0.002099201	-1.128683e-05	3.239031e-05	-0.1278969	0.02864334
4.5e+08	-0.1275056	0.02861306	-7.273257e-06	3.005482e-05	0.01216189	-0.003801054	-5.12538e-06	1.518709e-05
	-7.273257e-06	3.005482e-05	-0.1260502	0.03308027	-0.0004438254	-0.0002093995	0.01274474	-0.002422043
	0.01216189	-0.003801054	-0.0004438254	-0.0002093995	-0.1274163	0.02893953	-9.907991e-06	3.185053e-05
	-5.12538e-06	1.518709e-05	0.01274474	-0.002422043	-9.907991e-06	3.185053e-05	-0.1258425	0.03389563
4.6e+08	-0.1252818	0.03367895	-6.095437e-06	2.92341e-05	0.01149558	-0.004061409	-4.597905e-06	1.518556e-05
	-6.095437e-06	2.92341e-05	-0.1236245	0.03813255	-0.0004664667	-0.0001784641	0.01214251	-0.002692843
	0.01149558	-0.004061409	-0.0004664667	-0.0001784641	-0.125191	0.03401542	-8.639315e-06	3.123673e-05
	-4.597905e-06	1.518556e-05	0.01214251	-0.002692843	-8.639315e-06	3.123673e-05	-0.1233906	0.0389561
4.7e+08	-0.1226751	0.03854213	-5.053054e-06	2.836181e-05	0.0107996	-0.004260999	-4.075293e-06	1.516657e-05
	-5.053054e-06	2.836181e-05	-0.1208186	0.04296411	-0.0004865275	-0.0001453655	0.01150926	-0.002908605
	0.0107996	-0.004260999	-0.0004865275	-0.0001453655	-0.1225824	0.03888868	-7.48664e-06	3.056315e-05
