!$
! Info: Touchstone file created by Circ.  Input file=Tx_4in_Rx_85ohms_TxVia_35mils_RxVia_45mils.circ
!$
# Hz S RI R 50
0	0.003347769	7.062628e-26	7.480195e-13	1.55191e-28	4.234868e-05	6.215827e-24	1.830551e-12	8.796437e-29
	7.480178e-13	1.551911e-28	0.003344349	7.901023e-26	3.794845e-12	2.521556e-28	4.097861e-05	7.479943e-24
	4.287335e-05	6.296742e-24	3.794846e-12	2.521555e-28	0.003356088	6.893298e-26	1.754507e-12	1.651913e-28
	1.830551e-12	8.796445e-29	3.913183e-05	7.516984e-24	1.754508e-12	1.651915e-28	0.003357562	7.400749e-26
1e+07	0.004557594	-0.003465621	6.368456e-12	6.644162e-12	7.663449e-05	0.0008981785	8.194722e-12	1.261115e-11
	6.368456e-12	6.644163e-12	0.004546669	-0.003400478	7.877136e-12	7.842881e-12	0.000106149	0.0008966447
	7.665824e-05	0.0008981798	7.877135e-12	7.842881e-12	0.005107748	-0.00331436	6.17604e-12	7.193119e-12
	8.194722e-12	1.261115e-11	0.0001060892	0.000896655	6.17604e-12	7.193119e-12	0.004548328	-0.003390152
2e+07	0.005246362	-0.00803031	7.824399e-12	1.123083e-11	0.0001981099	0.001788827	9.424786e-12	2.280466e-11
	7.824401e-12	1.123083e-11	0.005283524	-0.007918455	1.050764e-11	1.17276e-11	0.0002382224	0.001761796
	0.0001981176	0.001788812	1.050764e-11	1.17276e-11	0.005815412	-0.007974192	8.335639e-12	1.065907e-11
	9.424786e-12	2.280466e-11	0.0002382146	0.00176183	8.335639e-12	1.065907e-11	0.005288169	-0.007894042
3e+07	0.005183155	-0.01308168	8.29439e-12	1.483785e-11	0.0004176086	0.002639408	9.628428e-12	3.213569e-11
	8.294391e-12	1.483785e-11	0.005246711	-0.01295521	1.251768e-11	1.449724e-11	0.0004384564	0.002605077
	0.0004176085	0.002639405	1.251768e-11	1.449724e-11	0.005766419	-0.01306346	8.998377e-12	1.28415e-11
	9.628428e-12	3.213569e-11	0.0004384564	0.002605082	8.998377e-12	1.28415e-11	0.005253267	-0.01292007
4e+07	0.004514441	-0.01824746	7.642565e-12	1.777487e-11	0.0007057827	0.003458993	8.445756e-12	4.096953e-11
	7.642564e-12	1.777487e-11	0.004588722	-0.01811545	1.369177e-11	1.643713e-11	0.0007063163	0.003422698
	0.0007057847	0.003458995	1.369177e-11	1.643713e-11	0.005108146	-0.01826114	7.757065e-12	1.398934e-11
	8.445756e-12	4.096953e-11	0.0007063109	0.003422696	7.757065e-12	1.398934e-11	0.004596371	-0.01807059
5e+07	0.00329932	-0.02341072	5.741506e-12	2.045718e-11	0.001060468	0.004243622	5.834407e-12	4.984894e-11
	5.741505e-12	2.045718e-11	0.003370944	-0.02327651	1.382154e-11	1.773492e-11	0.001039327	0.004209254
	0.001060469	0.004243622	1.382154e-11	1.773492e-11	0.003900151	-0.02345548	4.431337e-12	1.48353e-11
	5.834407e-12	4.984894e-11	0.001039323	0.004209253	4.431337e-12	1.48353e-11	0.00337884	-0.02322246
6e+07	0.001574326	-0.02849715	2.449611e-12	2.321089e-11	0.001478418	0.004988326	1.843292e-12	5.914258e-11
	2.449613e-12	2.321089e-11	0.001631551	-0.02836118	1.270246e-11	1.862684e-11	0.001434255	0.004959424
	0.001478416	0.004988326	1.270246e-11	1.862684e-11	0.002179046	-0.02857362	-1.05105e-12	1.589276e-11
	1.843292e-12	5.914258e-11	0.001434257	0.004959423	-1.05105e-12	1.589276e-11	0.001638849	-0.02829824
7e+07	-0.000631418	-0.03344914	-2.352942e-12	2.637982e-11	0.001955761	0.005688043	-3.453378e-12	6.915692e-11
	-2.352935e-12	2.637982e-11	-0.000599272	-0.03331028	1.014147e-11	1.938483e-11	0.001887379	0.005668112
	0.001955755	0.005688044	1.014147e-11	1.938483e-11	-2.612768e-05	-0.03355854	-8.734895e-12	1.763954e-11
	-3.453378e-12	6.915692e-11	0.001887387	0.005668108	-8.734896e-12	1.763954e-11	-0.0005934389	-0.03323856
8e+07	-0.003290934	-0.03821781	-8.780087e-12	3.035071e-11	0.002488083	0.006337867	-9.98809e-12	8.019294e-11
	-8.780076e-12	3.035072e-11	-0.003293915	-0.03807395	5.935397e-12	2.033394e-11	0.002394528	0.006330547
	0.002488076	0.00633787	5.935396e-12	2.033394e-11	-0.002688613	-0.0383618	-1.866991e-11	2.059447e-11
	-9.98809e-12	8.019294e-11	0.002394537	0.00633054	-1.866992e-11	2.059447e-11	-0.003290455	-0.03799339
9e+07	-0.006377	-0.04275951	-1.69931e-11	3.563028e-11	0.003070463	0.006933227	-1.772772e-11	9.262335e-11
	-1.699309e-11	3.563029e-11	-0.006424932	-0.04260844	-2.023681e-13	2.191068e-11	0.002951134	0.006942479
	0.003070458	0.00693323	-2.023685e-13	2.191068e-11	-0.005781698	-0.04294067	-3.097328e-11	2.543274e-11
	-1.772772e-11	9.262335e-11	0.002951141	0.006942474	-3.097328e-11	2.543274e-11	-0.006424778	-0.04251884
1e+08	-0.009859658	-0.04703148	-2.757654e-11	4.341756e-11	0.003697631	0.007470222	-2.695472e-11	1.073608e-10
	-2.757654e-11	4.341756e-11	-0.00996446	-0.04687602	-9.343535e-12	2.521358e-11	0.003552759	0.007501336
	0.003697631	0.007470221	-9.343535e-12	2.521358e-11	-0.009277886	-0.04725731	-4.650705e-11	3.38722e-11
	-2.695472e-11	1.073608e-10	0.003552759	0.007501336	-4.650705e-11	3.38722e-11	-0.009968596	-0.04677711
1.1e+08	-0.01369393	-0.05102232	-3.56401e-11	5.486978e-11	0.004364081	0.007944513	-3.247575e-11	1.218617e-10
	-3.56401e-11	5.486978e-11	-0.01388436	-0.05084138	-1.325445e-11	3.114541e-11	0.004198234	0.007998574
	0.004364081	0.007944513	-1.325445e-11	3.114541e-11	-0.01314704	-0.05128202	-5.684682e-11	4.618959e-11
	-3.247575e-11	1.218617e-10	0.004198234	0.007998574	-5.684682e-11	4.618959e-11	-0.01389302	-0.05073174
1.2e+08	-0.01787507	-0.05469153	-4.073485e-11	6.297919e-11	0.005063048	0.008352962	-3.751169e-11	1.362406e-10
	-4.073485e-11	6.297919e-11	-0.01814956	-0.05446448	-1.384177e-11	3.447958e-11	0.004875065	0.008431005
	0.005063048	0.008352962	-1.384177e-11	3.447958e-11	-0.01736077	-0.05497425	-6.364293e-11	5.479773e-11
	-3.751169e-11	1.362406e-10	0.004875065	0.008431005	-6.364293e-11	5.479773e-11	-0.01816349	-0.05434369
1.3e+08	-0.02236762	-0.05800649	-4.545056e-11	7.103568e-11	0.005788296	0.008693361	-4.26927e-11	1.516067e-10
	-4.545056e-11	7.103568e-11	-0.02272585	-0.05771931	-1.448955e-11	3.771152e-11	0.005577812	0.00879791
	0.005788296	0.008693361	-1.448955e-11	3.771152e-11	-0.02188542	-0.0583071	-7.012025e-11	6.351279e-11
	-4.26927e-11	1.516067e-10	0.005577812	0.00879791	-7.012025e-11	6.351279e-11	-0.02274584	-0.05758668
1.4e+08	-0.02713646	-0.06094208	-5.000851e-11	7.969204e-11	0.006533285	0.00896388	-4.775288e-11	1.677758e-10
	-5.000851e-11	7.969204e-11	-0.02757741	-0.06058197	-1.555211e-11	4.128506e-11	0.006300407	0.009097819
	0.006533285	0.00896388	-1.555211e-11	4.128506e-11	-0.02668612	-0.06125662	-7.647098e-11	7.307112e-11
	-4.775288e-11	1.677758e-10	0.006300407	0.009097819	-7.647098e-11	7.307112e-11	-0.02760413	-0.06043653
1.5e+08	-0.03214571	-0.06347709	-5.466516e-11	8.914356e-11	0.00729134	0.009163302	-5.275823e-11	1.849812e-10
	-5.466516e-11	8.914356e-11	-0.03266737	-0.06303186	-1.694499e-11	4.516393e-11	0.007036606	0.009329671
	0.00729134	0.009163302	-1.694499e-11	4.516393e-11	-0.03172703	-0.06380221	-8.299483e-11	8.371183e-11
	-5.275823e-11	1.849812e-10	0.007036606	0.009329671	-8.299483e-11	8.371183e-11	-0.03270125	-0.06287245
1.6e+08	-0.03735876	-0.06559387	-5.932054e-11	9.937302e-11	0.00805573	0.009291047	-5.757738e-11	2.03213e-10
	-5.932054e-11	9.937302e-11	-0.03795796	-0.06505177	-1.862584e-11	4.933015e-11	0.007780094	0.009492937
	0.00805573	0.009291047	-1.862584e-11	4.933015e-11	-0.03697146	-0.06592658	-8.955585e-11	9.540869e-11
	-5.757738e-11	2.03213e-10	0.007780094	0.009492937	-8.955585e-11	9.540869e-11	-0.03799922	-0.06487709
1.7e+08	-0.04273832	-0.06727811	-6.38854e-11	1.103664e-10	0.008819743	0.009347171	-6.208644e-11	2.224579e-10
	-6.38854e-11	1.103664e-10	-0.04341071	-0.06662786	-2.056911e-11	5.377748e-11	0.00852456	0.009587652
	0.008819743	0.009347171	-2.056911e-11	5.377748e-11	-0.04238203	-0.06761568	-9.603478e-11	1.081422e-10
	-6.208644e-11	2.224579e-10	0.00852456	0.009587652	-9.603478e-11	1.081422e-10	-0.04345933	-0.06643659
1.8e+08	-0.0482466	-0.0685188	-6.827662e-11	1.221084e-10	0.009576745	0.009332353	-6.616608e-11	2.426953e-10
	-6.827662e-11	1.221084e-10	-0.04898668	-0.06774966	-2.275801e-11	5.85073e-11	0.009263761	0.009614416
	0.009576745	0.009332353	-2.275801e-11	5.85073e-11	-0.04792087	-0.06885874	-1.023212e-10	1.218929e-10
	-6.616608e-11	2.426953e-10	0.009263762	0.009614416	-1.023212e-10	1.218929e-10	-0.04904243	-0.06754045
1.9e+08	-0.05384551	-0.06930817	-7.241526e-11	1.345806e-10	0.01032024	0.009247878	-6.970044e-11	2.638963e-10
	-7.241526e-11	1.345806e-10	-0.05464661	-0.06841	-2.51803e-11	6.352653e-11	0.009991581	0.009574384
	0.01032024	0.009247878	-2.51803e-11	6.352653e-11	-0.05354979	-0.06964816	-1.083101e-10	1.366381e-10
	-6.970044e-11	2.638963e-10	0.009991581	0.009574383	-1.083101e-10	1.366381e-10	-0.05470907	-0.06818156
2e+08	-0.05949684	-0.06964167	-7.622591e-11	1.477601e-10	0.01104394	0.009095614	-7.257698e-11	2.860227e-10
	-7.622591e-11	1.477601e-10	-0.06035123	-0.06860504	-2.782595e-11	6.884667e-11	0.01070208	0.009469248
	0.01104394	0.009095614	-2.782595e-11	6.884667e-11	-0.0592305	-0.06997954	-1.139003e-10	1.523499e-10
	-7.257698e-11	2.860227e-10	0.01070208	0.009469248	-1.139003e-10	1.523499e-10	-0.06041978	-0.0683561
2.1e+08	-0.06516247	-0.0695179	-7.963644e-11	1.616195e-10	0.01174177	0.008877982	-7.468695e-11	3.090261e-10
	-7.963644e-11	1.616195e-10	-0.06606139	-0.0683342	-3.068545e-11	7.448297e-11	0.01138953	0.009301212
	0.01174177	0.008877982	-3.068545e-11	7.448297e-11	-0.06492483	-0.06985163	-1.18994e-10	1.689946e-10
	-7.468695e-11	3.090261e-10	0.01138953	0.009301212	-1.18994e-10	1.689946e-10	-0.06613527	-0.06806358
2.2e+08	-0.07080464	-0.0689386	-8.257802e-11	1.761267e-10	0.01240799	0.008597926	-7.592594e-11	3.328483e-10
	-8.257802e-11	1.761267e-10	-0.07173838	-0.06760008	-3.374874e-11	8.045415e-11	0.0120485	0.009072964
	0.01240799	0.008597926	-3.374874e-11	8.045415e-11	-0.07059491	-0.06926631	-1.234967e-10	1.865319e-10
	-7.592594e-11	3.328483e-10	0.0120485	0.009072964	-1.234967e-10	1.865319e-10	-0.07181668	-0.0673067
2.3e+08	-0.07638609	-0.06790853	-8.498487e-11	1.912454e-10	0.01303715	0.008258875	-7.619471e-11	3.574212e-10
	-8.498487e-11	1.912454e-10	-0.07734408	-0.06640843	-3.700411e-11	8.678204e-11	0.01267383	0.00878764
	0.01303715	0.008258875	-3.700411e-11	8.678204e-11	-0.07620347	-0.06822843	-1.273172e-10	2.049148e-10
	-7.619471e-11	3.574212e-10	0.01267383	0.00878764	-1.273172e-10	2.049148e-10	-0.07742576	-0.0660913
2.4e+08	-0.08187038	-0.06643544	-8.67944e-11	2.069347e-10	0.01362422	0.007864705	-7.54004e-11	3.826665e-10
	-8.67944e-11	2.069347e-10	-0.08284126	-0.06476806	-4.043752e-11	9.349074e-11	0.01326074	0.008448793
	0.01362422	0.007864705	-4.043752e-11	9.349074e-11	-0.08171397	-0.06674587	-1.303682e-10	2.240887e-10
	-7.54004e-11	3.826665e-10	0.01326074	0.008448793	-1.303682e-10	2.240887e-10	-0.08292516	-0.06442628
2.5e+08	-0.087222	-0.06452994	-8.794687e-11	2.231492e-10	0.01416453	0.007419697	-7.345752e-11	4.084962e-10
	-8.794687e-11	2.231492e-10	-0.08819375	-0.0626907	-4.403173e-11	1.006066e-10	0.01380479	0.008060351
	0.01416453	0.007419697	-4.403173e-11	1.006066e-10	-0.08709086	-0.06482933	-1.325665e-10	2.439926e-10
	-7.345752e-11	4.084962e-10	0.01380479	0.008060351	-1.325665e-10	2.439926e-10	-0.08827862	-0.0623235
2.6e+08	-0.09240666	-0.06220541	-8.838567e-11	2.398398e-10	0.01465387	0.006928496	-7.028765e-11	4.348148e-10
	-8.838567e-11	2.398398e-10	-0.09336669	-0.06019092	-4.776577e-11	1.081574e-10	0.01430196	0.007626583
	0.01465387	0.006928496	-4.776577e-11	1.081574e-10	-0.09229981	-0.06249228	-1.338337e-10	2.645581e-10
	-7.028765e-11	4.348148e-10	0.01430196	0.007626583	-1.338337e-10	2.645581e-10	-0.09345117	-0.05979765
2.7e+08	-0.09739145	-0.05947787	-8.80571e-11	2.569523e-10	0.01508848	0.006396067	-6.582171e-11	4.615177e-10
	-8.80571e-11	2.569523e-10	-0.0983267	-0.05728598	-5.161414e-11	1.161719e-10	0.01474863	0.00715205
	0.01508848	0.006396067	-5.161414e-11	1.161719e-10	-0.09730784	-0.05975084	-1.340964e-10	2.857101e-10
	-6.582171e-11	4.615177e-10	0.01474863	0.00715205	-1.340964e-10	2.857101e-10	-0.09840936	-0.05686613
2.8e+08	-0.102145	-0.05636582	-8.691122e-11	2.744273e-10	0.01546508	0.005827646	-6.000055e-11	4.88493e-10
	-8.691122e-11	2.744273e-10	-0.1030421	-0.0539957	-5.554673e-11	1.246788e-10	0.01514164	0.006641573
	0.01546508	0.005827646	-5.554673e-11	1.246788e-10	-0.1020835	-0.05662359	-1.332875e-10	3.073665e-10
	-6.000055e-11	4.88493e-10	0.01514164	0.006641573	-1.332875e-10	3.073665e-10	-0.1031214	-0.05354887
2.9e+08	-0.1066377	-0.05289014	-8.490227e-11	2.922008e-10	0.01578088	0.0052287	-5.277556e-11	5.156221e-10
	-8.490227e-11	2.922008e-10	-0.1074831	-0.05034225	-5.952818e-11	1.337064e-10	0.01547825	0.006100186
	0.01578088	0.0052287	-5.952818e-11	1.337064e-10	-0.1065973	-0.05313149	-1.313461e-10	3.294393e-10
	-5.277556e-11	5.156221e-10	0.01547825	0.006100186	-1.313461e-10	3.294393e-10	-0.1075575	-0.04986821
3e+08	-0.1108419	-0.04907387	-8.198912e-11	3.102038e-10	0.01603359	0.004604879	-4.410922e-11	5.427807e-10
	-8.198912e-11	3.102038e-10	-0.1116218	-0.04635006	-6.351753e-11	1.432813e-10	0.01575621	0.005533097
	0.01603359	0.004604879	-6.351753e-11	1.432813e-10	-0.1108213	-0.04929768	-1.282182e-10	3.518343e-10
	-4.410922e-11	5.427807e-10	0.01575621	0.005533097	-1.282182e-10	3.518343e-10	-0.1116897	-0.04584871
3.1e+08	-0.1147319	-0.04494208	-7.815486e-11	3.283808e-10	0.01622144	0.003961971	-3.397581e-11	5.698404e-10
	-7.815486e-11	3.283808e-10	-0.1154327	-0.04204556	-6.751395e-11	1.534289e-10	0.01597372	0.004945648
	0.01622144	0.003961971	-6.751395e-11	1.534289e-10	-0.1147299	-0.04514733	-1.238572e-10	3.744522e-10
	-3.397581e-11	5.698404e-10	0.01597372	0.004945648	-1.238572e-10	3.744522e-10	-0.1154925	-0.04151696
3.2e+08	-0.1182842	-0.04052171	-7.338343e-11	3.466785e-10	0.01634316	0.003305859	-2.236178e-11	5.966688e-10
	-7.338343e-11	3.466785e-10	-0.1188924	-0.03745703	-7.151056e-11	1.641806e-10	0.01612945	0.004343274
	0.01634316	0.003305859	-7.151056e-11	1.641806e-10	-0.1182995	-0.04070742	-1.182242e-10	3.971883e-10
	-2.236178e-11	5.966688e-10	0.01612945	0.004343274	-1.182242e-10	3.971883e-10	-0.1189424	-0.03690141
3.3e+08	-0.1214776	-0.0358413	-6.76106e-11	3.649826e-10	0.01639799	0.002642479	-9.267168e-12	6.231314e-10
	-6.76106e-11	3.649826e-10	-0.1219801	-0.03261442	-7.535674e-11	1.755543e-10	0.01622253	0.003731466
	0.01639799	0.002642479	-7.535674e-11	1.755543e-10	-0.121509	-0.03600663	-1.112913e-10	4.199331e-10
	-9.267168e-12	6.231314e-10	0.01622253	0.003731466	-1.112913e-10	4.199331e-10	-0.1220186	-0.03203215
3.4e+08	-0.1242934	-0.03093092	-6.081731e-11	3.832086e-10	0.0163857	0.001977777	5.296083e-12	6.490923e-10
	-6.081731e-11	3.832086e-10	-0.1246774	-0.02754908	-7.906447e-11	1.875848e-10	0.01625256	0.003115733
	0.0163857	0.001977777	-7.906447e-11	1.875848e-10	-0.1243396	-0.03107508	-1.030621e-10	4.426151e-10
	5.296083e-12	6.490923e-10	0.01625256	0.003115733	-1.030621e-10	4.426151e-10	-0.1247029	-0.02694071
3.5e+08	-0.1267153	-0.02582186	-5.299342e-11	4.012686e-10	0.01630653	0.001317671	2.130176e-11	6.744164e-10
	-5.299342e-11	4.012686e-10	-0.1269686	-0.02229365	-8.253497e-11	2.002783e-10	0.0162196	0.002501568
	0.01630653	0.001317671	-8.253497e-11	2.002783e-10	-0.1267748	-0.02594418	-9.351033e-11	4.651107e-10
	2.130176e-11	6.744164e-10	0.0162196	0.002501568	-9.351033e-11	4.651107e-10	-0.1269794	-0.02165989
3.6e+08	-0.1287295	-0.02054651	-4.413694e-11	4.190727e-10	0.01616123	0.0006680108	3.871019e-11	6.989704e-10
	-4.413694e-11	4.190727e-10	-0.1288407	-0.01688176	-8.564176e-11	2.136157e-10	0.01612415	0.001894412
	0.01616123	0.0006680108	-8.564176e-11	2.136157e-10	-0.128801	-0.02064639	-8.261647e-11	4.872747e-10
	3.871019e-11	6.989704e-10	0.01612415	0.001894412	-8.261647e-11	4.872747e-10	-0.1288351	-0.01622348
3.7e+08	-0.130325	-0.01513813	-3.42527e-11	4.3653e-10	0.01595105	3.45398e-05	5.746901e-11	7.226233e-10
	-3.42527e-11	4.3653e-10	-0.1302833	-0.01134787	-8.830895e-11	2.275827e-10	0.01596717	0.001299622
	0.01595105	3.45398e-05	-8.830895e-11	2.275827e-10	-0.1304071	-0.01521507	-7.038968e-11	5.089866e-10
	5.746901e-11	7.226233e-10	0.01596717	0.001299622	-7.038968e-11	5.089866e-10	-0.1302599	-0.01066611
3.8e+08	-0.1314932	-0.009630647	-2.335354e-11	4.535486e-10	0.01567767	-0.0005771371	7.751295e-11	7.452489e-10
	-2.335354e-11	4.535486e-10	-0.1312889	-0.005727053	-9.045947e-11	2.421559e-10	0.01575003	0.0007224395
	0.01567767	-0.0005771371	-9.045947e-11	2.421559e-10	-0.1315845	-0.00968425	-5.684993e-11	5.301248e-10
	7.751295e-11	7.452489e-10	0.01575003	0.0007224395	-5.684993e-11	5.301248e-10	-0.1312463	-0.005022991
3.9e+08	-0.1322284	-0.004058452	-1.146046e-11	4.700368e-10	0.01534326	-0.00116159	9.876421e-11	7.66726e-10
	-1.146046e-11	4.700368e-10	-0.1318528	-5.474626e-05	-9.201642e-11	2.573017e-10	0.01547453	0.0001679607
	0.01534326	-0.00116159	-9.201642e-11	2.573017e-10	-0.1323275	-0.004088406	-4.202824e-11	5.505684e-10
	9.876421e-11	7.66726e-10	0.01547453	0.0001679607	-4.202824e-11	5.505684e-10	-0.1317896	0.0006702727
4e+08	-0.1325277	0.001543798	1.397237e-12	4.85903e-10	0.01495039	-0.001713594	1.211329e-10	7.869404e-10
	1.397237e-12	4.85903e-10	-0.1319732	0.005633427	-9.29043e-11	2.729765e-10	0.01514285	-0.0003588923
	0.01495039	-0.001713594	-9.29043e-11	2.729765e-10	-0.132633	0.001537708	-2.596678e-11	5.701974e-10
	1.211329e-10	7.869404e-10	0.01514285	-0.0003588923	-2.596678e-11	5.701974e-10	-0.1318882	0.006377922
4.1e+08	-0.1323906	0.007141393	1.518185e-11	5.010574e-10	0.01450209	-0.002228162	1.445179e-10	8.057857e-10
	1.518185e-11	5.010574e-10	-0.1316509	0.01130189	-9.305059e-11	2.891264e-10	0.01475758	-0.0008533989
	0.01450209	-0.002228162	-9.305059e-11	2.891264e-10	-0.1325008	0.007159284	-8.718996e-12	5.888944e-10
	1.445179e-10	8.057857e-10	0.01475758	-0.0008533989	-8.718996e-12	5.888944e-10	-0.131543	0.01206425
4.2e+08	-0.1318195	0.01269976	2.984726e-11	5.154119e-10	0.01400175	-0.002700575	1.688071e-10	8.231647e-10
	2.984726e-11	5.154119e-10	-0.1308896	0.01691532	-9.238721e-11	3.056875e-10	0.01432167	-0.001311066
	0.01400175	-0.002700575	-9.238721e-11	3.056875e-10	-0.1319332	0.01274165	9.650496e-12	6.065452e-10
	1.688071e-10	8.231647e-10	0.01432167	-0.001311066	9.650496e-12	6.065452e-10	-0.1307578	0.0176938
4.3e+08	-0.1308194	0.01818467	4.5339e-11	5.288812e-10	0.01345316	-0.003126406	1.938791e-10	8.389903e-10
	4.5339e-11	5.288812e-10	-0.1296958	0.02243885	-9.085192e-11	3.225859e-10	0.01383842	-0.001727654
	0.01345316	-0.003126406	-9.085192e-11	3.225859e-10	-0.1309352	0.0182505	2.906603e-11	6.230399e-10
	1.938791e-10	8.389903e-10	0.01383842	-0.001727654	2.906603e-11	6.230399e-10	-0.1295393	0.0232316
4.4e+08	-0.1293982	0.02356243	6.159431e-11	5.413835e-10	0.01286045	-0.003501551	2.196033e-10	8.531862e-10
	6.159431e-11	5.413835e-10	-0.1280787	0.02783828	-8.838976e-11	3.397389e-10	0.01331146	-0.002099201
	0.01286045	-0.003501551	-8.838976e-11	3.397389e-10	-0.1295146	0.02365202	4.944118e-11	6.382741e-10
	2.196033e-10	8.531862e-10	0.01331146	-0.002099201	4.944118e-11	6.382741e-10	-0.1278969	0.02864334
4.5e+08	-0.127566	0.02880009	7.854234e-11	5.528414e-10	0.01222809	-0.00382225	2.458416e-10	8.656885e-10
	7.854234e-11	5.528414e-10	-0.1260502	0.03308027	-8.495451e-11	3.570552e-10	0.01274474	-0.002422043
	0.01222809	-0.00382225	-8.495451e-11	3.570552e-10	-0.1276817	0.02891319	7.067898e-11	6.521495e-10
	2.458416e-10	8.656885e-10	0.01274474	-0.002422043	7.067898e-11	6.521495e-10	-0.1258425	0.03389563
4.6e+08	-0.1253356	0.03386561	9.610432e-11	5.631823e-10	0.01156085	-0.004085118	2.724494e-10	8.764456e-10
	9.610432e-11	5.631823e-10	-0.1236245	0.03813255	-8.051001e-11	3.74436e-10	0.01214251	-0.002692843
	0.01156085	-0.004085118	-8.051001e-11	3.74436e-10	-0.1254493	0.03400187	9.267244e-11	6.645758e-10
	2.724494e-10	8.764456e-10	0.01214251	-0.002692843	9.267244e-11	6.645758e-10	-0.1233906	0.0389561
4.7e+08	-0.1227223	0.03872806	1.141939e-10	5.723398e-10	0.01086377	-0.004287161	2.992766e-10	8.854191e-10
	1.141939e-10	5.723398e-10	-0.1208186	0.04296411	-7.503112e-11	3.917766e-10	0.01150926	-0.002908605
	0.01086377	-0.004287161	-7.503112e-11	3.917766e-10	-0.1228327	0.03888704	1.15305e-10	6.754708e-10
	2.992766e-10	8.854191e-10	0.01150926	-0.002908605	1.15305e-10	6.754708e-10	-0.1205585	0.0437937
4.8e+08	-0.1197437	0.04335782	1.327176e-10	5.80254e-10	0.01014216	-0.0044258	3.261691e-10	8.925849e-10
