!$
! Info: Touchstone file created by Circ.  Input file=Tx_4in_Rx_93ohms_TxVia_35mils_RxVia_45mils.circ
!$
# Hz S RI R 50
0	0.003794299	6.649921e-26	7.512717e-10	6.532261e-28	4.102713e-05	7.016635e-24	3.738096e-10	1.463879e-28
	7.512718e-10	6.532045e-28	0.003792652	7.87961e-26	2.525738e-09	2.50265e-27	4.088428e-05	8.49971e-24
	4.08408e-05	6.987178e-24	2.525738e-09	2.502659e-27	0.003805202	6.650829e-26	7.537396e-10	6.9928e-28
	3.738095e-10	1.463815e-28	3.903741e-05	8.541758e-24	7.537401e-10	6.992955e-28	0.003805858	7.380748e-26
1e+07	0.005448963	8.617589e-05	9.48891e-10	1.409121e-09	0.0001066359	0.0009056619	5.772713e-10	7.322072e-10
	9.48891e-10	1.409121e-09	0.005557886	8.261983e-05	3.617035e-09	6.951978e-09	0.0001050132	0.000902397
	0.0001066307	0.000905663	3.617035e-09	6.951978e-09	0.005576399	8.697688e-05	9.50603e-10	1.426676e-09
	5.772713e-10	7.322072e-10	0.0001049534	0.0009024071	9.506028e-10	1.426676e-09	0.005460616	8.118237e-05
2e+07	0.006613615	-0.0010944	1.2949e-09	2.471926e-09	0.0001975678	0.001817594	8.568694e-10	1.239264e-09
	1.2949e-09	2.471926e-09	0.0066872	-0.001141819	4.775504e-09	1.224981e-08	0.0001930646	0.001812058
	0.0001975692	0.001817598	4.775503e-09	1.224981e-08	0.006717738	-0.001134904	1.286358e-09	2.499708e-09
	8.568693e-10	1.239264e-09	0.0001930565	0.001812092	1.286357e-09	2.499708e-09	0.006612907	-0.001104337
3e+07	0.007321725	-0.002789788	1.605978e-09	3.469941e-09	0.0004000792	0.002681942	1.148083e-09	1.699599e-09
	1.605978e-09	3.469941e-09	0.007358155	-0.002851365	5.574912e-09	1.737719e-08	0.0003835873	0.0026766
	0.0004000816	0.002681941	5.574912e-09	1.737719e-08	0.007407989	-0.00284427	1.574085e-09	3.512617e-09
	1.148083e-09	1.699599e-09	0.0003835873	0.002676605	1.574085e-09	3.512617e-09	0.007301251	-0.002802033
4e+07	0.007712539	-0.004678922	1.932834e-09	4.412727e-09	0.0006913537	0.003511967	1.477711e-09	2.111065e-09
	1.932834e-09	4.412727e-09	0.007707678	-0.004745217	6.268942e-09	2.240697e-08	0.0006639336	0.003508041
	0.0006913542	0.003511966	6.268942e-09	2.240697e-08	0.007783907	-0.004740973	1.867108e-09	4.47592e-09
	1.477711e-09	2.111065e-09	0.0006639282	0.003508039	1.867108e-09	4.47592e-09	0.007664888	-0.004690986
5e+07	0.007836377	-0.006670811	2.277311e-09	5.30307e-09	0.001047676	0.004307066	1.84374e-09	2.471039e-09
	2.277311e-09	5.30307e-09	0.007785516	-0.006734276	6.888249e-09	2.734989e-08	0.001007086	0.004306282
	0.001047676	0.004307065	6.888249e-09	2.734989e-08	0.00789485	-0.006737183	2.168648e-09	5.393479e-09
	1.84374e-09	2.471039e-09	0.001007082	0.004306281	2.168648e-09	5.393479e-09	0.007754155	-0.006679015
6e+07	0.007719138	-0.008714381	2.635626e-09	6.144041e-09	0.001466284	0.005063002	2.240369e-09	2.778237e-09
	2.635626e-09	6.144041e-09	0.007617924	-0.008767761	7.439983e-09	3.223092e-08	0.001410466	0.005067323
	0.001466285	0.005063002	7.439984e-09	3.223092e-08	0.007766227	-0.008782986	2.476212e-09	6.26918e-09
	2.240369e-09	2.778237e-09	0.001410468	0.005067321	2.476212e-09	6.26918e-09	0.007595563	-0.008714113
7e+07	0.007377548	-0.01077375	3.005259e-09	6.938091e-09	0.001943777	0.00577516	2.662453e-09	3.031775e-09
	3.005259e-09	6.938092e-09	0.007222096	-0.01080977	7.934432e-09	3.707155e-08	0.001870887	0.005786776
	0.001943779	0.00577516	7.934432e-09	3.707155e-08	0.0074145	-0.01084303	2.788399e-09	7.1063e-09
	2.662453e-09	3.031775e-09	0.001870895	0.005786772	2.788399e-09	7.106301e-09	0.007206372	-0.01075975
8e+07	0.006824578	-0.01282023	3.384098e-09	7.68589e-09	0.002476222	0.006438889	3.104789e-09	3.230467e-09
	3.384098e-09	7.68589e-09	0.006611475	-0.01283128	8.383504e-09	4.188513e-08	0.002384655	0.006460221
	0.002476224	0.006438888	8.383505e-09	4.188513e-08	0.006852502	-0.01288884	3.104165e-09	7.906557e-09
	3.10479e-09	3.230467e-09	0.002384665	0.006460215	3.104165e-09	7.906557e-09	0.006599972	-0.01278658
9e+07	0.006072128	-0.01482846	3.769353e-09	8.38682e-09	0.003059178	0.007049667	3.558081e-09	3.370812e-09
	3.769353e-09	8.38682e-09	0.005798609	-0.01480624	8.795906e-09	4.667467e-08	0.002947598	0.007083376
	0.00305918	0.007049666	8.795907e-09	4.667467e-08	0.006092159	-0.01489493	3.41978e-09	8.668168e-09
	3.558081e-09	3.370812e-09	0.002947605	0.007083371	3.41978e-09	8.668169e-09	0.00578874	-0.01476842
1e+08	0.005135665	-0.01676801	4.149131e-09	9.033715e-09	0.00368768	0.007602945	3.988875e-09	3.441293e-09
	4.149131e-09	9.033715e-09	0.004800479	-0.01670204	9.163898e-09	5.141999e-08	0.003555127	0.007652082
	0.003687679	0.007602945	9.163898e-09	5.141999e-08	0.005149727	-0.01682926	3.723819e-09	9.385573e-09
	3.988875e-09	3.441293e-09	0.003555127	0.007652082	3.723819e-09	9.385573e-09	0.004788846	-0.01667392
1.1e+08	0.004057253	-0.01866425	4.535653e-09	9.645928e-09	0.004354424	0.008096366	4.433919e-09	3.466524e-09
	4.535653e-09	9.645928e-09	0.003666362	-0.01854912	9.501317e-09	5.616917e-08	0.00420111	0.00816327
	0.004354424	0.008096366	9.501317e-09	5.616917e-08	0.00407325	-0.01872342	4.038811e-09	1.008788e-08
	4.433919e-09	3.466524e-09	0.00420111	0.00816327	4.038811e-09	1.008788e-08	0.003645852	-0.01852674
1.2e+08	0.002794625	-0.0204903	4.918909e-09	1.021128e-08	0.005056339	0.008527064	4.880441e-09	3.424579e-09
	4.918909e-09	1.021128e-08	0.002345257	-0.02032206	9.807005e-09	6.091975e-08	0.004881499	0.008614332
	0.005056339	0.008527064	9.807005e-09	6.091975e-08	0.002810661	-0.02055129	4.350503e-09	1.075169e-08
	4.880441e-09	3.424579e-09	0.004881499	0.008614332	4.350503e-09	1.075169e-08	0.002315498	-0.02030245
1.3e+08	0.001364321	-0.02221959	5.293301e-09	1.073075e-08	0.005787512	0.008891771	5.317796e-09	3.320113e-09
	5.293301e-09	1.073075e-08	0.0008550879	-0.02199169	1.008548e-08	6.567907e-08	0.005590821	0.00900234
	0.005787512	0.008891771	1.008548e-08	6.567907e-08	0.001379088	-0.02228392	4.653769e-09	1.137897e-08
	5.317796e-09	3.320113e-09	0.005590821	0.00900234	4.653769e-09	1.137897e-08	0.0008150722	-0.02197328
1.4e+08	-0.0002202386	-0.02383604	5.655619e-09	1.120405e-08	0.006541809	0.00918811	5.739214e-09	3.153678e-09
	5.655619e-09	1.120405e-08	-0.0007897321	-0.0235411	1.03425e-08	7.045208e-08	0.00632333	0.009325038
	0.006541809	0.009188111	1.03425e-08	7.045208e-08	-0.0002079232	-0.02390454	4.946373e-09	1.197007e-08
	5.739214e-09	3.153678e-09	0.00632333	0.009325038	4.946373e-09	1.197007e-08	-0.0008410049	-0.02352237
1.5e+08	-0.001945869	-0.0253263	6.004479e-09	1.162903e-08	0.007312915	0.009414325	6.138915e-09	2.924277e-09
	6.004479e-09	1.162903e-08	-0.002575014	-0.02495647	1.058349e-08	7.524235e-08	0.007073093	0.009580718
	0.007312915	0.009414325	1.058349e-08	7.524235e-08	-0.001937094	-0.0253994	5.228091e-09	1.252329e-08
	6.138915e-09	2.924277e-09	0.007073093	0.009580718	5.228091e-09	1.252329e-08	-0.002638407	-0.02493587
1.6e+08	-0.003799245	-0.02667881	6.330098e-09	1.201073e-08	0.008094395	0.009569258	6.507614e-09	2.637806e-09
	6.330098e-09	1.201073e-08	-0.004486407	-0.02622606	1.08135e-08	8.005266e-08	0.007834051	0.009768223
	0.008094395	0.009569258	1.08135e-08	8.005266e-08	-0.003795021	-0.02675671	5.490497e-09	1.304381e-08
	6.507614e-09	2.637806e-09	0.007834051	0.009768223	5.490497e-09	1.304381e-08	-0.0045626	-0.02620198
1.7e+08	-0.00576678	-0.02788353	6.6277e-09	1.235082e-08	0.008879746	0.009652347	6.838747e-09	2.297188e-09
	6.6277e-09	1.235082e-08	-0.006509308	-0.02733978	1.10372e-08	8.488511e-08	0.008600071	0.009886947
	0.008879746	0.009652347	1.10372e-08	8.488511e-08	-0.005768046	-0.02796623	5.730184e-09	1.353329e-08
	6.838747e-09	2.297188e-09	0.008600071	0.009886947	5.730184e-09	1.353329e-08	-0.006598782	-0.0273106
1.8e+08	-0.007834584	-0.02893171	6.892458e-09	1.265155e-08	0.00966245	0.009663622	7.126007e-09	1.90603e-09
	6.892458e-09	1.265155e-08	-0.00862883	-0.02828906	1.125892e-08	8.974134e-08	0.009365001	0.009936831
	0.00966245	0.009663622	1.125892e-08	8.974134e-08	-0.007842224	-0.0290191	5.943699e-09	1.399371e-08
	7.126007e-09	1.90603e-09	0.009365001	0.009936831	5.943699e-09	1.399371e-08	-0.008731872	-0.02825313
1.9e+08	-0.009988464	-0.02981591	7.119588e-09	1.291571e-08	0.01043603	0.009603697	7.363433e-09	1.468603e-09
	7.119588e-09	1.291571e-08	-0.01082981	-0.02906669	1.14828e-08	9.462258e-08	0.01012272	0.009918365
	0.01043603	0.009603697	1.14828e-08	9.462258e-08	-0.01000332	-0.02990778	6.127606e-09	1.442742e-08
	7.363433e-09	1.468603e-09	0.01012272	0.009918365	6.127606e-09	1.442742e-08	-0.01094653	-0.02902239
2e+08	-0.01221395	-0.03052991	7.304434e-09	1.314671e-08	0.0111941	0.009473765	7.545481e-09	9.898053e-10
	7.304434e-09	1.314671e-08	-0.01309686	-0.02966686	1.171283e-08	9.952972e-08	0.01086717	0.009832578
	0.0111941	0.009473765	1.171283e-08	9.952972e-08	-0.01223682	-0.03062597	6.27854e-09	1.483719e-08
	7.545481e-09	9.898053e-10	0.01086717	0.009832578	6.27854e-09	1.483719e-08	-0.0132272	-0.02961261
2.1e+08	-0.01449633	-0.03106875	7.442554e-09	1.334851e-08	0.0119304	0.009275581	7.667093e-09	4.751182e-10
	7.442554e-09	1.334851e-08	-0.0154144	-0.03008508	1.195284e-08	1.044634e-07	0.01159243	0.009681025
	0.0119304	0.009275581	1.195284e-08	1.044634e-07	-0.01452802	-0.03116863	6.393275e-09	1.522617e-08
	7.667093e-09	4.751182e-10	0.01159243	0.009681025	6.393275e-09	1.522617e-08	-0.01555815	-0.03001934
2.2e+08	-0.01682076	-0.03142869	7.529797e-09	1.352565e-08	0.0126389	0.00901145	7.723755e-09	-6.944814e-11
	7.529797e-09	1.352565e-08	-0.01776676	-0.0303182	1.22066e-08	1.094238e-07	0.01229274	0.00946578
	0.0126389	0.00901145	1.22066e-08	1.094238e-07	-0.01686202	-0.03153195	6.468779e-09	1.559798e-08
	7.723755e-09	-6.944814e-11	0.01229274	0.00946578	6.468779e-09	1.559798e-08	-0.01792356	-0.03023946
2.3e+08	-0.01917224	-0.03160719	7.562388e-09	1.368323e-08	0.01331375	0.008684206	7.711545e-09	-6.374133e-10
	7.562388e-09	1.368323e-08	-0.02013821	-0.03036435	1.24778e-08	1.14411e-07	0.01296258	0.00918941
	0.01331375	0.008684206	1.24778e-08	1.14411e-07	-0.01922381	-0.03171331	6.502288e-09	1.595661e-08
	7.711545e-09	-6.374133e-10	0.01296258	0.00918941	6.502288e-09	1.595661e-08	-0.02030758	-0.03027118
2.4e+08	-0.0215358	-0.03160296	7.536989e-09	1.382685e-08	0.01394943	0.008297184	7.627179e-09	-1.221886e-09
	7.536989e-09	1.382685e-08	-0.02251306	-0.03022298	1.277004e-08	1.194247e-07	0.01359664	0.008854957
	0.01394943	0.008297184	1.277004e-08	1.194247e-07	-0.0215984	-0.03171135	6.491359e-09	1.630649e-08
	7.627179e-09	-1.221886e-09	0.01359664	0.008854957	6.491359e-09	1.630649e-08	-0.0226944	-0.03011401
2.5e+08	-0.0238965	-0.03141589	7.450806e-09	1.396261e-08	0.01454072	0.007854199	7.468044e-09	-1.815629e-09
	7.450806e-09	1.396261e-08	-0.02487578	-0.02989481	1.308687e-08	1.244644e-07	0.01418995	0.008465912
	0.01454072	0.007854199	1.308687e-08	1.244644e-07	-0.02397079	-0.03152588	6.433959e-09	1.665241e-08
	7.468044e-09	-1.815629e-09	0.01418995	0.008465912	6.433959e-09	1.665241e-08	-0.02506835	-0.02976873
2.6e+08	-0.02623952	-0.03104709	7.288063e-09	1.410647e-08	0.01508278	0.007359509	7.232555e-09	-2.411023e-09
	7.288063e-09	1.410647e-08	-0.02721104	-0.02938182	1.342231e-08	1.295309e-07	0.01473784	0.008026187
	0.01508278	0.007359509	1.342231e-08	1.295309e-07	-0.02632618	-0.03115793	6.31485e-09	1.700908e-08
	7.232555e-09	-2.411023e-09	0.01473784	0.008026187	6.31485e-09	1.700908e-08	-0.02741399	-0.02923739
2.7e+08	-0.02855027	-0.03049882	7.059393e-09	1.42604e-08	0.01557115	0.006817782	6.919308e-09	-3.000483e-09
	7.059393e-09	1.42604e-08	-0.0295038	-0.02868721	1.378769e-08	1.34623e-07	0.01523604	0.007540082
	0.01557115	0.006817782	1.378769e-08	1.34623e-07	-0.0286499	-0.03060968	6.145242e-09	1.737692e-08
	6.919308e-09	-3.000483e-09	0.01523604	0.007540082	6.145242e-09	1.737692e-08	-0.02971618	-0.02852328
2.8e+08	-0.03081448	-0.02977449	6.766713e-09	1.443023e-08	0.01600183	0.006234058	6.527796e-09	-3.57616e-09
	6.766713e-09	1.443023e-08	-0.03173942	-0.02781537	1.418809e-08	1.397391e-07	0.01568066	0.007012251
	0.01600183	0.006234058	1.418809e-08	1.397391e-07	-0.03092762	-0.02988447	5.927409e-09	1.776026e-08
	6.527796e-09	-3.57616e-09	0.01568066	0.007012251	5.927409e-09	1.776026e-08	-0.0319602	-0.02763089
2.9e+08	-0.03301825	-0.02887863	6.410377e-09	1.462334e-08	0.01637128	0.005613712	6.058311e-09	-4.130104e-09
	6.410377e-09	1.462334e-08	-0.03390375	-0.02677187	1.462687e-08	1.448774e-07	0.01606824	0.006447664
	0.01637128	0.005613712	1.462687e-08	1.448774e-07	-0.03314538	-0.02898674	5.661892e-09	1.816492e-08
	6.058311e-09	-4.130104e-09	0.01606824	0.006447664	5.661892e-09	1.816492e-08	-0.03413177	-0.02656584
3e+08	-0.03514814	-0.02781683	5.991537e-09	1.48472e-08	0.01667643	0.004962405	5.511901e-09	-4.654344e-09
	5.991537e-09	1.48472e-08	-0.03598318	-0.02556336	1.510727e-08	1.50036e-07	0.01639577	0.005851571
	0.01667643	0.004962405	1.510727e-08	1.50036e-07	-0.03528967	-0.02792203	5.349877e-09	1.859679e-08
	5.511901e-09	-4.654344e-09	0.01639577	0.005851571	5.349877e-09	1.859679e-08	-0.03621723	-0.02533493
3.1e+08	-0.03719125	-0.02659573	5.51217e-09	1.510931e-08	0.01691477	0.004286045	4.890369e-09	-5.140963e-09
	5.51217e-09	1.510931e-08	-0.03796477	-0.02419756	1.563238e-08	1.552124e-07	0.01666074	0.005229458
	0.01691477	0.004286045	1.563238e-08	1.552124e-07	-0.03734751	-0.02669691	4.993216e-09	1.906179e-08
	4.890369e-09	-5.140963e-09	0.01666074	0.005229458	4.993216e-09	1.906179e-08	-0.03820354	-0.02394594
3.2e+08	-0.0391353	-0.02522294	4.9751e-09	1.54171e-08	0.01708429	0.003590736	4.196273e-09	-5.582154e-09
	4.9751e-09	1.54171e-08	-0.03983628	-0.02268316	1.620508e-08	1.60404e-07	0.0168611	0.004587004
	0.01708429	0.003590736	1.620508e-08	1.60404e-07	-0.03930652	-0.02531894	4.59445e-09	1.956576e-08
	4.196273e-09	-5.582154e-09	0.0168611	0.004587004	4.59445e-09	1.956576e-08	-0.04007839	-0.02240772
3.3e+08	-0.04096868	-0.023707	4.384003e-09	1.577779e-08	0.01718353	0.002882734	3.432915e-09	-5.970294e-09
	4.384003e-09	1.577779e-08	-0.04158626	-0.02102982	1.682804e-08	1.656076e-07	0.01699533	0.003930038
	0.01718353	0.002882734	1.682804e-08	1.656076e-07	-0.04115501	-0.0237966	4.15682e-09	2.011436e-08
	3.432915e-09	-5.970294e-09	0.01699533	0.003930038	4.15682e-09	2.011436e-08	-0.04183027	-0.02073003
3.4e+08	-0.04268055	-0.02205731	3.743404e-09	1.619836e-08	0.01721161	0.002168395	2.604331e-09	-6.298001e-09
	3.743404e-09	1.619836e-08	-0.04320412	-0.01924803	1.750371e-08	1.708202e-07	0.01706241	0.003264497
	0.01721161	0.002168395	1.750371e-08	1.708202e-07	-0.04288203	-0.02213926	3.684255e-09	2.071304e-08
	2.604331e-09	-6.298001e-09	0.01706241	0.003264497	3.684255e-09	2.071304e-08	-0.04344855	-0.01892347
3.5e+08	-0.04426086	-0.02028409	3.058659e-09	1.668541e-08	0.01716819	0.001454128	1.71527e-09	-6.558205e-09
	3.058659e-09	1.668541e-08	-0.04468019	-0.01734907	1.823425e-08	1.76038e-07	0.01706187	0.002596377
	0.01716819	0.001454128	1.823425e-08	1.76038e-07	-0.04447742	-0.02035709	3.181369e-09	2.136691e-08
	1.71527e-09	-6.558205e-09	0.01706187	0.002596377	3.181369e-09	2.136691e-08	-0.04492351	-0.01699949
3.6e+08	-0.04570043	-0.01839827	2.335926e-09	1.724504e-08	0.01705353	0.0007463456	7.711737e-10	-6.744206e-09
	2.335926e-09	1.724504e-08	-0.04600577	-0.01534494	1.902152e-08	1.812573e-07	0.01699373	0.001931689
	0.01705353	0.0007463456	1.902152e-08	1.812573e-07	-0.0459319	-0.01846104	2.65343e-09	2.208066e-08
	7.711737e-10	-6.744206e-09	0.01699373	0.001931689	2.65343e-09	2.208066e-08	-0.04624642	-0.0149702
3.7e+08	-0.04699101	-0.01641148	1.582123e-09	1.78828e-08	0.01686841	5.14127e-05	-2.2185e-10	-6.849735e-09
	1.582123e-09	1.78828e-08	-0.04717318	-0.01324826	1.986708e-08	1.864741e-07	0.01685856	0.001276413
	0.01686841	5.14127e-05	1.986708e-08	1.864741e-07	-0.04723709	-0.01646269	2.106324e-09	2.285849e-08
	-2.2185e-10	-6.849735e-09	0.01685856	0.001276413	2.106324e-09	2.285849e-08	-0.04740957	-0.01284837
3.8e+08	-0.04812528	-0.01433591	8.048754e-10	1.860356e-08	0.0166142	-0.0006244004	-1.25706e-09	-6.86902e-09
	8.048754e-10	1.860356e-08	-0.04817579	-0.0110722	2.077211e-08	1.91684e-07	0.01665743	0.0006364569
	0.0166142	-0.0006244004	2.077211e-08	1.91684e-07	-0.04838557	-0.01437425	1.546509e-09	2.370401e-08
	-1.25706e-09	-6.86902e-09	0.01665743	0.0006364569	1.546509e-09	2.370401e-08	-0.04840635	-0.0106473
3.9e+08	-0.04909694	-0.01218427	1.244369e-11	1.941142e-08	0.01629281	-0.001274966	-2.327116e-09	-6.796839e-09
	1.244369e-11	1.941142e-08	-0.04900808	-0.008830379	2.173741e-08	1.968825e-07	0.01639194	1.760721e-05
	0.01629281	-0.001274966	2.173741e-08	1.968825e-07	-0.04937091	-0.01220843	9.809567e-10	2.462017e-08
	-2.327116e-09	-6.796839e-09	0.01639194	1.76072e-05	9.809567e-10	2.462017e-08	-0.04923123	-0.008380762
4e+08	-0.04990073	-0.009969719	-7.863517e-10	2.030966e-08	0.01590667	-0.001894345	-3.424123e-09	-6.628578e-09
	-7.863517e-10	2.030966e-08	-0.04966565	-0.006536782	2.276339e-08	2.020651e-07	0.01606417	-0.00057451
	0.01590667	-0.001894345	2.276339e-08	2.020651e-07	-0.05018773	-0.009978421	4.170765e-10	2.560921e-08
	-3.424123e-09	-6.628578e-09	0.01606417	-0.00057451	4.170765e-10	2.560921e-08	-0.04987983	-0.00606288
4.1e+08	-0.05053243	-0.007705741	-1.582223e-09	2.130061e-08	0.01545874	-0.002476835	-4.539677e-09	-6.360289e-09
	-1.582223e-09	2.130061e-08	-0.05014524	-0.004205667	2.385002e-08	2.072269e-07	0.01567669	-0.001134472
	0.01545874	-0.002476835	2.385002e-08	2.072269e-07	-0.05083169	-0.007697735	-1.373595e-10	2.667254e-08
	-4.539677e-09	-6.360289e-09	0.01567669	-0.001134472	-1.373595e-10	2.667254e-08	-0.05034893	-0.003708057
4.2e+08	-0.05098891	-0.005406105	-2.365515e-09	2.238565e-08	0.01495246	-0.003017009	-5.664913e-09	-5.988738e-09
	-2.365515e-09	2.238565e-08	-0.05044475	-0.001851485	2.499681e-08	2.123632e-07	0.01523252	-0.001657101
	0.01495246	-0.003017009	2.499681e-08	2.123632e-07	-0.05129955	-0.005380186	-6.743073e-10	2.781075e-08
	-5.664913e-09	-5.988738e-09	0.01523252	-0.001657101	-6.743073e-10	2.781075e-08	-0.05063649	-0.001330877
4.3e+08	-0.05126813	-0.003084756	-3.126313e-09	2.356512e-08	0.01439174	-0.003509759	-6.790564e-09	-5.511455e-09
	-3.126313e-09	2.356512e-08	-0.05056327	0.0005112325	2.620281e-08	2.17469e-07	0.01473513	-0.002137497
	0.01439174	-0.003509759	2.620281e-08	2.17469e-07	-0.05158916	-0.003039772	-1.185549e-09	2.902355e-08
	-6.790564e-09	-5.511455e-09	0.01473513	-0.002137497	-1.185549e-09	2.902355e-08	-0.05074164	0.001053992
4.4e+08	-0.05136918	-0.000755739	-3.85456e-09	2.483829e-08	0.01378091	-0.003950335	-7.907025e-09	-4.926781e-09
	-3.85456e-09	2.483829e-08	-0.05050103	0.002867947	2.746657e-08	2.225394e-07	0.01418839	-0.002571081
	0.01378091	-0.003950335	2.746657e-08	2.225394e-07	-0.05169947	-0.0006906044	-1.662793e-09	3.030971e-08
	-7.907025e-09	-4.926781e-09	0.01418839	-0.002571081	-1.662793e-09	3.030971e-08	-0.05066468	0.003431882
4.5e+08	-0.0512922	0.001566891	-4.540176e-09	2.620332e-08	0.01312472	-0.004334381	-9.004416e-09	-4.233907e-09
	-4.540176e-09	2.620332e-08	-0.05025942	0.005204218	2.878617e-08	2.275695e-07	0.01359657	-0.002953624
	0.01312472	-0.004334381	2.878617e-08	2.275695e-07	-0.05163055	0.001653184	-2.097787e-09	3.166708e-08
	-9.004416e-09	-4.233907e-09	0.01359657	-0.002953624	-2.097787e-09	3.166708e-08	-0.05040711	0.005788232
4.6e+08	-0.0510385	0.003869156	-5.173186e-09	2.765729e-08	0.0124283	-0.004657966	-1.007265e-08	-3.432913e-09
	-5.173186e-09	2.765729e-08	-0.04984101	0.007505787	3.015916e-08	2.325547e-07	0.01296428	-0.00328128
	0.0124283	-0.004657966	3.015916e-08	2.325547e-07	-0.05138359	0.003977527	-2.482421e-09	3.309255e-08
	-1.007265e-08	-3.432913e-09	0.01296428	-0.00328128	-2.482421e-09	3.309255e-08	-0.04997159	0.008108686
4.7e+08	-0.05061044	0.006137242	-5.743844e-09	2.919617e-08	0.01169707	-0.004917618	-1.110153e-08	-2.524794e-09
	-5.743844e-09	2.919617e-08	-0.04924947	0.009758669	3.158261e-08	2.374901e-07	0.01229645	-0.003550612
	0.01169707	-0.004917618	3.158261e-08	2.374901e-07	-0.05096084	0.006268501	-2.808851e-09	3.458211e-08
	-1.110153e-08	-2.524794e-09	0.01229645	-0.003550612	-2.808851e-09	3.458211e-08	-0.04936187	0.01037914
4.8e+08	-0.05001146	0.00835755	-6.242761e-09	3.081485e-08	0.01093679	-0.005110348	-1.208079e-08	-1.511489e-09
	-6.242761e-09	3.081485e-08	-0.04848957	0.01194924	3.305306e-08	2.423715e-07	0.0115983	-0.003758624
