!$
! Info: Touchstone file created by Circ.  Input file=Tx_4in_Rx_93ohms_TxVia_35mils_RxVia_45mils.circ
!$
# Hz S RI R 50
0	0.003796074	7.044788e-26	-2.178617e-05	1.842153e-26	4.225282e-05	7.06272e-24	-2.178594e-05	1.129058e-26
	-2.178618e-05	1.921749e-26	0.003792652	7.87961e-26	-2.178575e-05	2.442203e-26	4.088428e-05	8.49971e-24
	4.277739e-05	7.15466e-24	-2.178574e-05	2.309031e-26	0.003804374	6.875899e-26	-2.178624e-05	1.062841e-25
	-2.178594e-05	1.184321e-26	3.903741e-05	8.541758e-24	-2.178625e-05	1.073725e-25	0.003805858	7.380748e-26
1e+07	0.005253855	0.0001181032	-5.509698e-07	-8.13639e-06	0.0001040853	0.0008421638	-5.531671e-07	-8.349778e-06
	-5.509699e-07	-8.13639e-06	0.005557886	8.261983e-05	-2.542932e-06	-1.649656e-06	0.0001050132	0.000902397
	0.0001041091	0.0008421651	-2.542932e-06	-1.649656e-06	0.005646283	0.0003305997	-8.629463e-06	-2.407366e-06
	-5.531671e-07	-8.349778e-06	0.0001049534	0.0009024071	-8.629463e-06	-2.407366e-06	0.005460616	8.118237e-05
2e+07	0.006489813	-0.0009694872	-2.458961e-06	-5.645726e-06	0.0002403989	0.00170397	-2.678536e-06	-5.993621e-06
	-2.458962e-06	-5.645726e-06	0.0066872	-0.001141819	-9.513954e-06	-9.268612e-06	0.0001930646	0.001812058
	0.0002404068	0.001703955	-9.513954e-06	-9.268612e-06	0.007004415	-0.0007586953	-9.380784e-06	7.952612e-07
	-2.678536e-06	-5.993621e-06	0.0001930565	0.001812092	-9.380784e-06	7.952611e-07	0.006612907	-0.001104337
3e+07	0.007254094	-0.002635874	-3.977035e-06	-4.949766e-06	0.0004452628	0.002548422	-4.365486e-06	-5.309023e-06
	-3.977035e-06	-4.949766e-06	0.007358155	-0.002851365	-1.490262e-05	-1.056393e-05	0.0003835873	0.0026766
	0.0004452628	0.002548419	-1.490262e-05	-1.056393e-05	0.007863242	-0.002446948	-1.010419e-05	6.968073e-07
	-4.365486e-06	-5.309023e-06	0.0003835873	0.002676605	-1.010419e-05	6.968072e-07	0.007301251	-0.002802033
4e+07	0.007693016	-0.004513875	-5.247174e-06	-4.301672e-06	0.0007190284	0.003370627	-5.776045e-06	-4.629723e-06
	-5.247174e-06	-4.301672e-06	0.007707678	-0.004745217	-1.940666e-05	-1.009607e-05	0.0006639336	0.003508041
	0.0007190303	0.003370628	-1.940666e-05	-1.009607e-05	0.008379969	-0.004364518	-1.066765e-05	1.06732e-06
	-5.776045e-06	-4.629723e-06	0.0006639282	0.003508039	-1.066765e-05	1.06732e-06	0.007664888	-0.004690986
5e+07	0.007859073	-0.006505209	-6.327607e-06	-3.563851e-06	0.00105972	0.004164277	-6.97658e-06	-3.833421e-06
	-6.327607e-06	-3.563851e-06	0.007785516	-0.006734276	-2.324948e-05	-8.590212e-06	0.001007086	0.004306282
	0.001059721	0.004164277	-2.324948e-05	-8.590212e-06	0.008610756	-0.00640908	-1.110417e-05	1.669067e-06
	-6.97658e-06	-3.833421e-06	0.001007082	0.004306281	-1.110417e-05	1.669067e-06	0.007754155	-0.006679015
6e+07	0.007779087	-0.008555941	-7.242785e-06	-2.709946e-06	0.001464521	0.004923617	-7.995238e-06	-2.899644e-06
	-7.242785e-06	-2.709946e-06	0.007617924	-0.008767761	-2.652635e-05	-6.322275e-06	0.001410466	0.005067323
	0.001464519	0.004923617	-2.652635e-05	-6.322275e-06	0.008583834	-0.008524403	-1.142604e-05	2.421141e-06
	-7.995238e-06	-2.899644e-06	0.001410468	0.005067321	-1.142604e-05	2.42114e-06	0.007595563	-0.008714113
7e+07	0.007470147	-0.01062886	-8.000991e-06	-1.732681e-06	0.001930158	0.005643377	-8.841928e-06	-1.823068e-06
	-8.000991e-06	-1.732681e-06	0.007222096	-0.01080977	-2.927031e-05	-3.417302e-06	0.001870887	0.005786776
	0.001930152	0.005643378	-2.927031e-05	-3.417302e-06	0.0083167	-0.01067203	-1.163592e-05	3.288235e-06
	-8.841928e-06	-1.823068e-06	0.001870895	0.005786772	-1.163592e-05	3.288235e-06	0.007206372	-0.01075975
8e+07	0.006945195	-0.01269476	-8.598852e-06	-6.223116e-07	0.002453	0.006318822	-9.513686e-06	-5.930683e-07
	-8.598852e-06	-6.223116e-07	0.006611475	-0.01283128	-3.147238e-05	8.783112e-08	0.002384655	0.006460221
	0.002452992	0.006318825	-3.147238e-05	8.783117e-08	0.007821989	-0.01282254	-1.176677e-05	4.148643e-06
	-9.513686e-06	-5.930683e-07	0.002384665	0.006460215	-1.176677e-05	4.148643e-06	0.006599972	-0.01278658
9e+07	0.006215623	-0.01472874	-9.016342e-06	6.519132e-07	0.003029262	0.006946172	-9.991132e-06	8.279347e-07
	-9.016342e-06	6.519132e-07	0.005798609	-0.01480624	-3.306843e-05	4.268242e-06	0.002947598	0.007083376
	0.003029257	0.006946175	-3.306843e-05	4.268243e-06	0.007109731	-0.01495265	-1.208816e-05	4.315716e-06
	-9.991132e-06	8.279347e-07	0.002947605	0.007083371	-1.208816e-05	4.315716e-06	0.00578874	-0.01476842
1e+08	0.005293848	-0.01670596	-9.140494e-06	2.287629e-06	0.003656745	0.007526666	-1.014904e-05	2.66757e-06
	-9.140494e-06	2.287629e-06	0.004800479	-0.01670204	-3.366997e-05	9.814664e-06	0.003555127	0.007652082
	0.003656745	0.007526666	-3.366997e-05	9.814664e-06	0.006184888	-0.01705108	-1.249343e-05	4.235249e-06
	-1.014904e-05	2.66757e-06	0.003555127	0.007652082	-1.249343e-05	4.235249e-06	0.004788846	-0.01667392
1.1e+08	0.004203809	-0.01862855	-8.362966e-06	3.495883e-06	0.004305353	0.008056187	-9.279519e-06	4.039869e-06
	-8.362966e-06	3.495883e-06	0.003666362	-0.01854912	-3.107291e-05	1.396905e-05	0.00420111	0.00816327
	0.004305353	0.008056187	-3.107291e-05	1.396905e-05	0.005028462	-0.01906527	-1.236358e-05	3.911885e-06
	-9.279519e-06	4.039869e-06	0.00420111	0.00816327	-1.236358e-05	3.911885e-06	0.003645852	-0.01852674
1.2e+08	0.002932941	-0.02046985	-7.712727e-06	4.306895e-06	0.004988154	0.008513587	-8.759998e-06	4.533124e-06
	-7.712727e-06	4.306895e-06	0.002345257	-0.02032206	-2.977875e-05	1.501474e-05	0.004881499	0.008614332
	0.004988154	0.008513587	-2.977875e-05	1.501474e-05	0.003698656	-0.02096908	-1.217206e-05	3.853427e-06
	-8.759998e-06	4.533124e-06	0.004881499	0.008614332	-1.217206e-05	3.853427e-06	0.002315498	-0.02030245
1.3e+08	0.001495439	-0.0222103	-7.56693e-06	4.169493e-06	0.005701531	0.008902229	-8.659462e-06	4.267931e-06
	-7.56693e-06	4.169493e-06	0.0008550879	-0.02199169	-2.938045e-05	1.446933e-05	0.005590821	0.00900234
	0.005701531	0.008902229	-2.938045e-05	1.446933e-05	0.002204002	-0.02275965	-1.197585e-05	3.892564e-06
	-8.659462e-06	4.267931e-06	0.005590821	0.00900234	-1.197585e-05	3.892564e-06	0.0008150722	-0.02197328
1.4e+08	-9.569817e-05	-0.02383536	-7.454166e-06	4.027469e-06	0.006439675	0.009221117	-8.548686e-06	4.092819e-06
	-7.454166e-06	4.027469e-06	-0.0007897321	-0.0235411	-2.894035e-05	1.418069e-05	0.00632333	0.009325038
	0.006439675	0.009221117	-2.894035e-05	1.418069e-05	0.0005565654	-0.02442608	-1.17721e-05	3.980052e-06
	-8.548686e-06	4.092819e-06	0.00632333	0.009325038	-1.17721e-05	3.980052e-06	-0.0008410049	-0.02352237
1.5e+08	-0.001827451	-0.02533241	-7.335486e-06	3.937561e-06	0.007196376	0.009469085	-8.432924e-06	3.978298e-06
	-7.335486e-06	3.937561e-06	-0.002575014	-0.02495647	-2.847621e-05	1.406221e-05	0.007073093	0.009580718
	0.007196376	0.009469085	-2.847621e-05	1.406221e-05	-0.001230911	-0.02595751	-1.156511e-05	4.100649e-06
	-8.432924e-06	3.978298e-06	0.007073093	0.009580718	-1.156511e-05	4.100649e-06	-0.002638407	-0.02493587
1.6e+08	-0.003686568	-0.02669034	-7.213392e-06	3.885032e-06	0.007965226	0.009645264	-8.314793e-06	3.907598e-06
	-7.213392e-06	3.885032e-06	-0.004486407	-0.02622606	-2.799611e-05	1.406436e-05	0.007834051	0.009768223
	0.007965226	0.009645264	-2.799611e-05	1.406436e-05	-0.003145232	-0.02734386	-1.135478e-05	4.241842e-06
	-8.314793e-06	3.907598e-06	0.007834051	0.009768223	-1.135478e-05	4.241842e-06	-0.0045626	-0.02620198
1.7e+08	-0.005659501	-0.02789938	-7.089177e-06	3.860343e-06	0.008739724	0.009749235	-8.195552e-06	3.869966e-06
	-7.089177e-06	3.860343e-06	-0.006509308	-0.02733978	-2.750403e-05	1.415534e-05	0.008600071	0.009886947
	0.008739724	0.009749235	-2.750403e-05	1.415534e-05	-0.005172819	-0.02857609	-1.114172e-05	4.397306e-06
	-8.195552e-06	3.869966e-06	0.008600071	0.009886947	-1.114172e-05	4.397306e-06	-0.006598782	-0.0273106
1.8e+08	-0.007732385	-0.028951	-6.963515e-06	3.856938e-06	0.009513337	0.009781091	-8.075793e-06	3.858019e-06
	-6.963515e-06	3.856938e-06	-0.00862883	-0.02828906	-2.70019e-05	1.431335e-05	0.009365001	0.009936831
	0.009513337	0.009781091	-2.70019e-05	1.431335e-05	-0.007299731	-0.02964619	-1.092618e-05	4.562692e-06
	-8.075793e-06	3.858019e-06	0.009365001	0.009936831	-1.092618e-05	4.562692e-06	-0.008731872	-0.02825313
1.9e+08	-0.00989104	-0.02983791	-6.836779e-06	3.870088e-06	0.01027953	0.009741492	-7.955777e-06	3.866437e-06
	-6.836779e-06	3.870088e-06	-0.01082981	-0.02906669	-2.649067e-05	1.452266e-05	0.01012272	0.009918365
	0.01027953	0.009741492	-2.649067e-05	1.452266e-05	-0.009511706	-0.03054726	-1.070823e-05	4.734856e-06
	-7.955777e-06	3.866437e-06	0.01012272	0.009918365	-1.070823e-05	4.734856e-06	-0.01094653	-0.02902239
2e+08	-0.0121214	-0.0305542	-6.708651e-06	3.895803e-06	0.01104712	0.009615972	-7.83536e-06	3.891093e-06
	-6.708651e-06	3.895803e-06	-0.01309686	-0.02966686	-2.597057e-05	1.477138e-05	0.01086717	0.009832578
	0.01104712	0.009615972	-2.597057e-05	1.477138e-05	-0.01179459	-0.03127374	-1.048768e-05	4.911312e-06
	-7.83536e-06	3.891093e-06	0.01086717	0.009832578	-1.048768e-05	4.911312e-06	-0.0132272	-0.02961261
2.1e+08	-0.01440846	-0.03109479	-6.579767e-06	3.931815e-06	0.0117936	0.009420487	-7.714739e-06	3.929096e-06
	-6.579767e-06	3.931815e-06	-0.0154144	-0.03008508	-2.544183e-05	1.505052e-05	0.01159243	0.009681025
	0.0117936	0.009420487	-2.544183e-05	1.505052e-05	-0.01413329	-0.03182083	-1.026463e-05	5.090357e-06
	-7.714739e-06	3.929096e-06	0.01159243	0.009681025	-1.026463e-05	5.090357e-06	-0.01555815	-0.03001934
2.2e+08	-0.01673733	-0.03145602	-6.450196e-06	3.976044e-06	0.01251194	0.00915835	-7.593835e-06	3.97808e-06
	-6.450196e-06	3.976044e-06	-0.01776676	-0.0303182	-2.490438e-05	1.535288e-05	0.01229274	0.00946578
	0.01251194	0.00915835	-2.490438e-05	1.535288e-05	-0.01651282	-0.03218508	-1.003901e-05	5.270556e-06
	-7.593835e-06	3.97808e-06	0.01229274	0.00946578	-1.003901e-05	5.270556e-06	-0.01792356	-0.03023946
2.3e+08	-0.01909305	-0.03163541	-6.319927e-06	4.026815e-06	0.01319631	0.008832468	-7.472509e-06	4.036155e-06
	-6.319927e-06	4.026815e-06	-0.02013821	-0.03036435	-2.435803e-05	1.567266e-05	0.01296258	0.00918941
	0.01319631	0.008832468	-2.435803e-05	1.567266e-05	-0.01891814	-0.03236424	-9.810748e-06	5.450735e-06
	-7.472509e-06	4.036155e-06	0.01296258	0.00918941	-9.810748e-06	5.450735e-06	-0.02030758	-0.03027118
2.4e+08	-0.02146063	-0.03163171	-6.188957e-06	4.082769e-06	0.01384119	0.008446235	-7.350636e-06	4.101779e-06
	-6.188957e-06	4.082769e-06	-0.02251306	-0.03022298	-2.380266e-05	1.600503e-05	0.01359664	0.008854957
	0.01384119	0.008446235	-2.380266e-05	1.600503e-05	-0.02133417	-0.03235724	-9.579777e-06	5.62993e-06
	-7.350636e-06	4.101779e-06	0.01359664	0.008854957	-9.579777e-06	5.62993e-06	-0.0226944	-0.03011401
2.5e+08	-0.02382514	-0.03144488	-6.057253e-06	4.142802e-06	0.01444136	0.008003519	-7.228059e-06	4.173693e-06
	-6.057253e-06	4.142802e-06	-0.02487578	-0.02989481	-2.323809e-05	1.634596e-05	0.01418995	0.008465912
	0.01444136	0.008003519	-2.323809e-05	1.634596e-05	-0.02374591	-0.03216419	-9.346044e-06	5.807333e-06
	-7.228059e-06	4.173693e-06	0.01418995	0.008465912	-9.346044e-06	5.807333e-06	-0.02506835	-0.02976873
2.6e+08	-0.02617178	-0.03107604	-5.924757e-06	4.20594e-06	0.01499199	0.007508625	-7.104632e-06	4.250843e-06
	-5.924757e-06	4.20594e-06	-0.02721104	-0.02938182	-2.266374e-05	1.669157e-05	0.01473784	0.008026187
	0.01499199	0.007508625	-2.266374e-05	1.669157e-05	-0.02613847	-0.03178637	-9.109523e-06	5.982251e-06
	-7.104632e-06	4.250843e-06	0.01473784	0.008026187	-9.109523e-06	5.982251e-06	-0.02741399	-0.02923739
2.7e+08	-0.02848597	-0.03052751	-5.791449e-06	4.271463e-06	0.01548862	0.006966265	-6.980192e-06	4.332336e-06
	-5.791449e-06	4.271463e-06	-0.0295038	-0.02868721	-2.207993e-05	1.703921e-05	0.01523604	0.007540082
	0.01548862	0.006966265	-2.207993e-05	1.703921e-05	-0.02849718	-0.03122623	-8.870173e-06	6.154086e-06
	-6.980192e-06	4.332336e-06	0.01523604	0.007540082	-8.870173e-06	6.154086e-06	-0.02971618	-0.02852328
2.8e+08	-0.03075343	-0.0298027	-5.657303e-06	4.338737e-06	0.01592724	0.006381515	-6.854599e-06	4.417415e-06
	-5.657303e-06	4.338737e-06	-0.03173942	-0.02781537	-2.148677e-05	1.73864e-05	0.01568066	0.007012251
	0.01592724	0.006381515	-2.148677e-05	1.73864e-05	-0.03080771	-0.03048734	-8.627995e-06	6.32232e-06
	-6.854599e-06	4.417415e-06	0.01568066	0.007012251	-8.627995e-06	6.32232e-06	-0.0319602	-0.02763089
2.9e+08	-0.03296028	-0.02890619	-5.522283e-06	4.407212e-06	0.01630433	0.005759783	-6.727717e-06	4.505423e-06
	-5.522283e-06	4.407212e-06	-0.03390375	-0.02677187	-2.088428e-05	1.773082e-05	0.01606824	0.006447664
	0.01630433	0.005759783	-2.088428e-05	1.773082e-05	-0.03305606	-0.02957437	-8.383e-06	6.486493e-06
	-6.727717e-06	4.505423e-06	0.01606824	0.006447664	-8.383e-06	6.486493e-06	-0.03413177	-0.02656584
3e+08	-0.03509307	-0.02784359	-5.386345e-06	4.476408e-06	0.01661683	0.005106761	-6.599401e-06	4.595779e-06
	-5.386345e-06	4.476408e-06	-0.03598318	-0.02556336	-2.027253e-05	1.807044e-05	0.01639577	0.005851571
	0.01661683	0.005106761	-2.027253e-05	1.807044e-05	-0.03522874	-0.02849308	-8.135204e-06	6.646185e-06
	-6.599401e-06	4.595779e-06	0.01639577	0.005851571	-8.135204e-06	6.646185e-06	-0.03621723	-0.02533493
3.1e+08	-0.03713893	-0.02662154	-5.249462e-06	4.545919e-06	0.01686221	0.004428384	-6.469534e-06	4.687982e-06
	-5.249462e-06	4.545919e-06	-0.03796477	-0.02419756	-1.965171e-05	1.840343e-05	0.01666074	0.005229458
	0.01686221	0.004428384	-1.965171e-05	1.840343e-05	-0.03731277	-0.02725022	-7.884659e-06	6.80103e-06
	-6.469534e-06	4.687982e-06	0.01666074	0.005229458	-7.884659e-06	6.80103e-06	-0.03820354	-0.02394594
3.2e+08	-0.03908556	-0.02524768	-5.111601e-06	4.615385e-06	0.01703848	0.003730782	-6.337997e-06	4.781575e-06
	-5.111601e-06	4.615385e-06	-0.03983628	-0.02268316	-1.902202e-05	1.872815e-05	0.0168611	0.004587004
	0.01703848	0.003730782	-1.902202e-05	1.872815e-05	-0.03929581	-0.02585355	-7.631419e-06	6.950689e-06
	-6.337997e-06	4.781575e-06	0.0168611	0.004587004	-7.631419e-06	6.950689e-06	-0.04007839	-0.02240772
3.3e+08	-0.04092139	-0.02373057	-4.972724e-06	4.684479e-06	0.01714419	0.003020231	-6.204669e-06	4.876142e-06
	-4.972724e-06	4.684479e-06	-0.04158626	-0.02102982	-1.838371e-05	1.904307e-05	0.01699533	0.003930038
	0.01714419	0.003020231	-1.838371e-05	1.904307e-05	-0.04116618	-0.02431176	-7.375547e-06	7.094841e-06
	-6.204669e-06	4.876142e-06	0.01699533	0.003930038	-7.375547e-06	7.094841e-06	-0.04183027	-0.02073003
3.4e+08	-0.04263555	-0.02207962	-4.832813e-06	4.752922e-06	0.01717844	0.002303111	-6.069456e-06	4.971312e-06
	-4.832813e-06	4.752922e-06	-0.04320412	-0.01924803	-1.773715e-05	1.934685e-05	0.01706241	0.003264497
	0.01717844	0.002303111	-1.773715e-05	1.934685e-05	-0.04291297	-0.02263437	-7.117138e-06	7.233205e-06
	-6.069456e-06	4.971312e-06	0.01706241	0.003264497	-7.117138e-06	7.233205e-06	-0.04344855	-0.01892347
3.5e+08	-0.04421801	-0.02030505	-4.69184e-06	4.820453e-06	0.01714092	0.001585848	-5.932259e-06	5.066735e-06
	-4.69184e-06	4.820453e-06	-0.04468019	-0.01734907	-1.708271e-05	1.963823e-05	0.01706187	0.002596377
	0.01714092	0.001585848	-1.708271e-05	1.963823e-05	-0.04452608	-0.02083174	-6.856288e-06	7.36551e-06
	-5.932259e-06	5.066735e-06	0.01706187	0.002596377	-6.856288e-06	7.36551e-06	-0.04492351	-0.01699949
3.6e+08	-0.04565961	-0.01841784	-4.54979e-06	4.886843e-06	0.01703187	0.0008748718	-5.793e-06	5.162093e-06
	-4.54979e-06	4.886843e-06	-0.04600577	-0.01534494	-1.642085e-05	1.991608e-05	0.01699373	0.001931689
	0.01703187	0.0008748718	-1.642085e-05	1.991608e-05	-0.04599627	-0.01891495	-6.593117e-06	7.491511e-06
	-5.793e-06	5.162093e-06	0.01699373	0.001931689	-6.593117e-06	7.491511e-06	-0.04624642	-0.0149702
3.7e+08	-0.04695208	-0.01642958	-4.406648e-06	4.951876e-06	0.01685209	0.0001765641	-5.651602e-06	5.257086e-06
	-4.406648e-06	4.951876e-06	-0.04717318	-0.01324826	-1.575208e-05	2.017938e-05	0.01685856	0.001276413
	0.01685209	0.0001765641	-1.575208e-05	2.017938e-05	-0.04731522	-0.01689575	-6.327752e-06	7.610978e-06
	-5.651602e-06	5.257086e-06	0.01685856	0.001276413	-6.327752e-06	7.610978e-06	-0.04740957	-0.01284837
3.8e+08	-0.04808813	-0.0143525	-4.262403e-06	5.015354e-06	0.01660296	-0.0005027897	-5.508001e-06	5.351426e-06
	-4.262403e-06	5.015354e-06	-0.04817579	-0.0110722	-1.507693e-05	2.042718e-05	0.01665743	0.0006364569
	0.01660296	-0.0005027897	-1.507693e-05	2.042718e-05	-0.04847558	-0.01478647	-6.060339e-06	7.723694e-06
	-5.508001e-06	5.351426e-06	0.01665743	0.0006364569	-6.060339e-06	7.723694e-06	-0.04840635	-0.0106473
3.9e+08	-0.04906145	-0.01219933	-4.117051e-06	5.077092e-06	0.01628637	-0.001157048	-5.362142e-06	5.444844e-06
	-4.117051e-06	5.077092e-06	-0.04900808	-0.008830379	-1.439601e-05	2.065863e-05	0.01639194	1.760721e-05
	0.01628637	-0.001157048	-1.439601e-05	2.065863e-05	-0.04947101	-0.01259998	-5.791033e-06	7.829456e-06
	-5.362142e-06	5.444844e-06	0.01639194	1.76072e-05	-5.791033e-06	7.829456e-06	-0.04923123	-0.008380762
4e+08	-0.04986679	-0.009983201	-3.970589e-06	5.136913e-06	0.01590476	-0.001780259	-5.213979e-06	5.537074e-06
	-3.970589e-06	5.136913e-06	-0.04966565	-0.006536782	-1.370994e-05	2.087295e-05	0.01606417	-0.00057451
	0.01590476	-0.001780259	-1.370994e-05	2.087295e-05	-0.0502962	-0.01034956	-5.520005e-06	7.928074e-06
	-5.213979e-06	5.537074e-06	0.01606417	-0.00057451	-5.520005e-06	7.928074e-06	-0.04987983	-0.00606288
4.1e+08	-0.05049993	-0.007717631	-3.823025e-06	5.194654e-06	0.01546111	-0.002366707	-5.06348e-06	5.627871e-06
	-3.823025e-06	5.194654e-06	-0.05014524	-0.004205667	-1.30194e-05	2.106947e-05	0.01567669	-0.001134472
	0.01546111	-0.002366707	-1.30194e-05	2.106947e-05	-0.0509469	-0.008048843	-5.247439e-06	8.019375e-06
	-5.06348e-06	5.627871e-06	0.01567669	-0.001134472	-5.247439e-06	8.019375e-06	-0.05034893	-0.003708057
4.2e+08	-0.05095777	-0.005416386	-3.674371e-06	5.25016e-06	0.01495884	-0.002910954	-4.910624e-06	5.716994e-06
	-3.674371e-06	5.25016e-06	-0.05044475	-0.001851485	-1.232509e-05	2.124757e-05	0.01523252	-0.001657101
	0.01495884	-0.002910954	-1.232509e-05	2.124757e-05	-0.05141996	-0.005711751	-4.973532e-06	8.103199e-06
	-4.910624e-06	5.716994e-06	0.01523252	-0.001657101	-4.973532e-06	8.103199e-06	-0.05063649	-0.001330877
4.3e+08	-0.05123825	-0.003093419	-3.524646e-06	5.303285e-06	0.01440187	-0.003407881	-4.755399e-06	5.804213e-06
	-3.524646e-06	5.303285e-06	-0.05056327	0.0005112325	-1.162777e-05	2.140674e-05	0.01473513	-0.002137497
	0.01440187	-0.003407881	-1.162777e-05	2.140674e-05	-0.05171331	-0.003352369	-4.698494e-06	8.179402e-06
	-4.755399e-06	5.804213e-06	0.01473513	-0.002137497	-4.698494e-06	8.179402e-06	-0.05074164	0.001053992
4.4e+08	-0.05134047	-0.0007627788	-3.373872e-06	5.353882e-06	0.01379454	-0.003852726	-4.597804e-06	5.889302e-06
	-3.373872e-06	5.353882e-06	-0.05050103	0.002867947	-1.092818e-05	2.154649e-05	0.01418839	-0.002571081
	0.01379454	-0.003852726	-1.092818e-05	2.154649e-05	-0.05182603	-0.0009848924	-4.422544e-06	8.247846e-06
	-4.597804e-06	5.889302e-06	0.01418839	-0.002571081	-4.422544e-06	8.247846e-06	-0.05066468	0.003431882
4.5e+08	-0.05126459	0.001561475	-3.222083e-06	5.401816e-06	0.01314159	-0.004241122	-4.437852e-06	5.972039e-06
	-3.222083e-06	5.401816e-06	-0.05025942	0.005204218	-1.022712e-05	2.166644e-05	0.01359657	-0.002953624
	0.01314159	-0.004241122	-1.022712e-05	2.166644e-05	-0.05175827	0.001376477	-4.145914e-06	8.308412e-06
	-4.437852e-06	5.972039e-06	0.01359657	-0.002953624	-4.145914e-06	8.308412e-06	-0.05040711	0.005788232
4.6e+08	-0.05101191	0.003865355	-3.069316e-06	5.446958e-06	0.01244815	-0.004569129	-4.275563e-06	6.052172e-06
	-3.069316e-06	5.446958e-06	-0.04984101	0.007505787	-9.525419e-06	2.176623e-05	0.01296428	-0.00328128
	0.01244815	-0.004569129	-9.525419e-06	2.176623e-05	-0.05151133	0.003717613	-3.868833e-06	8.360828e-06
	-4.275563e-06	6.052172e-06	0.01296428	-0.00328128	-3.868833e-06	8.360828e-06	-0.04997159	0.008108686
4.7e+08	-0.05058479	0.006135034	-2.915616e-06	5.489176e-06	0.01171967	-0.004833265	-4.110977e-06	6.129532e-06
	-2.915616e-06	5.489176e-06	-0.04924947	0.009758669	-8.823975e-06	2.184553e-05	0.01229645	-0.003550612
