!$
! Info: Touchstone file created by Circ.  Input file=Tx_4in_Rx_85ohms_TxVia_35mils_RxVia_45mils.circ
!$
# Hz S RI R 50
0	0.003347769	7.062628e-26	-2.186185e-05	1.828689e-26	4.234868e-05	6.215827e-24	-2.186162e-05	1.115801e-26
	-2.186186e-05	1.908561e-26	0.003344349	7.901023e-26	-2.186142e-05	2.42948e-26	4.097861e-05	7.479943e-24
	4.287335e-05	6.296742e-24	-2.186141e-05	2.295847e-26	0.003356088	6.893298e-26	-2.186191e-05	1.061949e-25
	-2.186162e-05	1.171256e-26	3.913183e-05	7.516984e-24	-2.186192e-05	1.072871e-25	0.003357562	7.400749e-26
1e+07	0.004557594	-0.003465621	-2.164748e-06	-5.657359e-06	7.663449e-05	0.0008981785	-1.094214e-06	-6.541455e-06
	-2.164748e-06	-5.657359e-06	0.004546669	-0.003400478	-3.853688e-06	-4.0828e-07	0.000106149	0.0008966447
	7.665824e-05	0.0008981798	-3.853687e-06	-4.082802e-07	0.005107748	-0.00331436	-8.494542e-06	3.440426e-07
	-1.094214e-06	-6.541455e-06	0.0001060892	0.000896655	-8.494541e-06	3.440426e-07	0.004548328	-0.003390152
2e+07	0.005246362	-0.00803031	-1.993252e-06	-2.334053e-06	0.0001981099	0.001788827	-4.800356e-07	-3.472509e-06
	-1.993252e-06	-2.334053e-06	0.005283524	-0.007918455	-9.310879e-06	-6.820049e-06	0.0002382224	0.001761796
	0.0001981176	0.001788812	-9.310879e-06	-6.820049e-06	0.005815412	-0.007974192	-1.218264e-05	-3.828531e-06
	-4.800356e-07	-3.472509e-06	0.0002382146	0.00176183	-1.218264e-05	-3.828531e-06	0.005288169	-0.007894042
3e+07	0.005183155	-0.01308168	-1.903028e-06	-1.55271e-06	0.0004176086	0.002639408	-6.333691e-07	-2.771548e-06
	-1.903028e-06	-1.55271e-06	0.005246711	-0.01295521	-1.352424e-05	-7.898819e-06	0.0004384564	0.002605077
	0.0004176085	0.002639405	-1.352424e-05	-7.898819e-06	0.005766419	-0.01306346	-1.500737e-05	-4.26106e-06
	-6.333691e-07	-2.771548e-06	0.0004384564	0.002605082	-1.500737e-05	-4.26106e-06	0.005253267	-0.01292007
4e+07	0.004514441	-0.01824746	-1.829284e-06	-1.152712e-06	0.0007057827	0.003458993	-1.078925e-06	-2.325702e-06
	-1.829284e-06	-1.152712e-06	0.004588722	-0.01811545	-1.705094e-05	-7.544862e-06	0.0007063163	0.003422698
	0.0007057847	0.003458995	-1.705094e-05	-7.544862e-06	0.005108146	-0.01826114	-1.734796e-05	-3.694995e-06
	-1.078925e-06	-2.325702e-06	0.0007063109	0.003422696	-1.734796e-05	-3.694995e-06	0.004596371	-0.01807059
5e+07	0.00329932	-0.02341072	-1.762495e-06	-8.931362e-07	0.001060468	0.004243622	-1.460197e-06	-1.949917e-06
	-1.762495e-06	-8.931362e-07	0.003370944	-0.02327651	-2.007048e-05	-6.359357e-06	0.001039327	0.004209254
	0.001060469	0.004243622	-2.007048e-05	-6.359357e-06	0.003900151	-0.02345548	-1.932529e-05	-2.552826e-06
	-1.460197e-06	-1.949917e-06	0.001039323	0.004209253	-1.932529e-05	-2.552826e-06	0.00337884	-0.02322246
6e+07	0.001574326	-0.02849715	-1.698063e-06	-7.009192e-07	0.001478418	0.004988326	-1.78581e-06	-1.583065e-06
	-1.698063e-06	-7.009192e-07	0.001631551	-0.02836118	-2.265879e-05	-4.566277e-06	0.001434255	0.004959424
	0.001478416	0.004988326	-2.265879e-05	-4.566277e-06	0.002179046	-0.02857362	-2.09897e-05	-9.906812e-07
	-1.78581e-06	-1.583065e-06	0.001434257	0.004959423	-2.09897e-05	-9.906812e-07	0.001638849	-0.02829824
7e+07	-0.000631418	-0.03344914	-1.63315e-06	-5.46345e-07	0.001955761	0.005688043	-2.058879e-06	-1.200678e-06
	-1.63315e-06	-5.46345e-07	-0.000599272	-0.03331028	-2.484399e-05	-2.262623e-06	0.001887379	0.005668112
	0.001955755	0.005688044	-2.484399e-05	-2.262623e-06	-2.612768e-05	-0.03355854	-2.235866e-05	9.245529e-07
	-2.058879e-06	-1.200678e-06	0.001887387	0.005668108	-2.235866e-05	9.245528e-07	-0.0005934389	-0.03323856
8e+07	-0.003290934	-0.03821781	-1.5656e-06	-4.150719e-07	0.002488083	0.006337867	-2.278412e-06	-7.881844e-07
	-1.5656e-06	-4.150719e-07	-0.003293915	-0.03807395	-2.662031e-05	5.272602e-07	0.002394528	0.006330547
	0.002488076	0.00633787	-2.662031e-05	5.272603e-07	-0.002688613	-0.0383618	-2.34259e-05	3.177408e-06
	-2.278412e-06	-7.881844e-07	0.002394537	0.00633054	-2.34259e-05	3.177408e-06	-0.003290455	-0.03799339
9e+07	-0.006377	-0.04275951	-1.493003e-06	-2.991048e-07	0.003070463	0.006933227	-2.437614e-06	-3.281397e-07
	-1.493002e-06	-2.991048e-07	-0.006424932	-0.04260844	-2.793616e-05	3.869243e-06	0.002951134	0.006942479
	0.003070458	0.00693323	-2.793616e-05	3.869244e-06	-0.005781698	-0.04294067	-2.415189e-05	5.817452e-06
	-2.437614e-06	-3.281397e-07	0.002951141	0.006942474	-2.415189e-05	5.817452e-06	-0.006424778	-0.04251884
1e+08	-0.009859658	-0.04703148	-1.408779e-06	-1.897859e-07	0.003697631	0.007470222	-2.497817e-06	2.546569e-07
	-1.408779e-06	-1.897859e-07	-0.00996446	-0.04687602	-2.849562e-05	8.331689e-06	0.003552759	0.007501336
	0.003697631	0.007470221	-2.849562e-05	8.331689e-06	-0.009277886	-0.04725731	-2.431581e-05	9.262723e-06
	-2.497817e-06	2.546569e-07	0.003552759	0.007501336	-2.431581e-05	9.262723e-06	-0.009968596	-0.04677711
1.1e+08	-0.01369393	-0.05102232	-1.357332e-06	-9.322507e-08	0.004364081	0.007944513	-2.246124e-06	6.962298e-07
	-1.357332e-06	-9.322507e-08	-0.01388436	-0.05084138	-2.646783e-05	1.175371e-05	0.004198234	0.007998574
	0.004364081	0.007944513	-2.646783e-05	1.175371e-05	-0.01314704	-0.05128202	-2.373673e-05	9.34415e-06
	-2.246124e-06	6.962298e-07	0.004198234	0.007998574	-2.373673e-05	9.34415e-06	-0.01389302	-0.05073174
1.2e+08	-0.01787507	-0.05469153	-1.323178e-06	-5.168613e-09	0.005063048	0.008352962	-2.035048e-06	9.915815e-07
	-1.323178e-06	-5.168612e-09	-0.01814956	-0.05446448	-2.59344e-05	1.165469e-05	0.004875065	0.008431005
	0.005063048	0.008352962	-2.59344e-05	1.165469e-05	-0.01736077	-0.05497425	-2.350383e-05	8.846868e-06
	-2.035048e-06	9.915815e-07	0.004875065	0.008431005	-2.350383e-05	8.846868e-06	-0.01816349	-0.05434369
1.3e+08	-0.02236762	-0.05800649	-1.291678e-06	7.501488e-08	0.005788296	0.008693361	-1.888816e-06	1.123668e-06
	-1.291678e-06	7.501488e-08	-0.02272585	-0.05771931	-2.564166e-05	1.123902e-05	0.005577812	0.00879791
	0.005788296	0.008693361	-2.564166e-05	1.123902e-05	-0.02188542	-0.0583071	-2.323005e-05	8.619579e-06
	-1.888816e-06	1.123668e-06	0.005577812	0.00879791	-2.323005e-05	8.619579e-06	-0.02274584	-0.05758668
1.4e+08	-0.02713646	-0.06094208	-1.260429e-06	1.485746e-07	0.006533285	0.00896388	-1.873816e-06	1.020026e-06
	-1.260429e-06	1.485746e-07	-0.02757741	-0.06058197	-2.531952e-05	1.103574e-05	0.006300407	0.009097819
	0.006533285	0.00896388	-2.531952e-05	1.103574e-05	-0.02668612	-0.06125662	-2.293846e-05	8.551119e-06
	-1.873816e-06	1.020026e-06	0.006300407	0.009097819	-2.293846e-05	8.551119e-06	-0.02760413	-0.06043653
1.5e+08	-0.03214571	-0.06347709	-1.228331e-06	2.160848e-07	0.00729134	0.009163302	-1.858594e-06	9.380576e-07
	-1.228331e-06	2.160848e-07	-0.03266737	-0.06303186	-2.498089e-05	1.097543e-05	0.007036606	0.009329671
	0.00729134	0.009163302	-2.498089e-05	1.097543e-05	-0.03172703	-0.06380221	-2.263643e-05	8.588425e-06
	-1.858594e-06	9.380576e-07	0.007036606	0.009329671	-2.263643e-05	8.588425e-06	-0.03270125	-0.06287245
1.6e+08	-0.03735876	-0.06559387	-1.195357e-06	2.786025e-07	0.00805573	0.009291047	-1.843996e-06	8.72172e-07
	-1.195357e-06	2.786025e-07	-0.03795796	-0.06505177	-2.46311e-05	1.101823e-05	0.007780094	0.009492937
	0.00805573	0.009291047	-2.46311e-05	1.101823e-05	-0.03697146	-0.06592658	-2.232752e-05	8.702104e-06
	-1.843996e-06	8.72172e-07	0.007780094	0.009492937	-2.232752e-05	8.702104e-06	-0.03799922	-0.06487709
1.7e+08	-0.04273832	-0.06727811	-1.16149e-06	3.368561e-07	0.008819743	0.009347171	-1.83044e-06	8.187521e-07
	-1.16149e-06	3.368561e-07	-0.04341071	-0.06662786	-2.427239e-05	1.113849e-05	0.00852456	0.009587652
	0.008819743	0.009347171	-2.427239e-05	1.113849e-05	-0.04238203	-0.06761568	-2.201305e-05	8.873256e-06
	-1.83044e-06	8.187521e-07	0.00852456	0.009587652	-2.201305e-05	8.873256e-06	-0.04345933	-0.06643659
1.8e+08	-0.0482466	-0.0685188	-1.126725e-06	3.913686e-07	0.009576745	0.009332353	-1.818124e-06	7.753198e-07
	-1.126725e-06	3.913686e-07	-0.04898668	-0.06774966	-2.390549e-05	1.131863e-05	0.009263761	0.009614416
	0.009576745	0.009332353	-2.390549e-05	1.131863e-05	-0.04792087	-0.06885874	-2.169325e-05	9.088877e-06
	-1.818124e-06	7.753198e-07	0.009263762	0.009614416	-2.169325e-05	9.088877e-06	-0.04904243	-0.06754045
1.9e+08	-0.05384551	-0.06930817	-1.091064e-06	4.425269e-07	0.01032024	0.009247878	-1.807139e-06	7.400977e-07
	-1.091064e-06	4.425269e-07	-0.05464661	-0.06841	-2.353038e-05	1.154585e-05	0.009991581	0.009574384
	0.01032024	0.009247878	-2.353038e-05	1.154585e-05	-0.05354979	-0.06964816	-2.136786e-05	9.339525e-06
	-1.807139e-06	7.400977e-07	0.009991581	0.009574383	-2.136786e-05	9.339525e-06	-0.05470907	-0.06818156
2e+08	-0.05949684	-0.06964167	-1.054519e-06	4.906228e-07	0.01104394	0.009095614	-1.797506e-06	7.117771e-07
	-1.054519e-06	4.906228e-07	-0.06035123	-0.06860504	-2.314667e-05	1.181053e-05	0.01070208	0.009469248
	0.01104394	0.009095614	-2.314667e-05	1.181053e-05	-0.0592305	-0.06997954	-2.103633e-05	9.618071e-06
	-1.797506e-06	7.117771e-07	0.01070208	0.009469248	-2.103633e-05	9.618071e-06	-0.06041978	-0.0683561
2.1e+08	-0.06516247	-0.0695179	-1.017102e-06	5.358799e-07	0.01174177	0.008877982	-1.789215e-06	6.893691e-07
	-1.017102e-06	5.358799e-07	-0.06606139	-0.0683342	-2.275379e-05	1.210511e-05	0.01138953	0.009301212
	0.01174177	0.008877982	-2.275379e-05	1.210511e-05	-0.06492483	-0.06985163	-2.0698e-05	9.918929e-06
	-1.789215e-06	6.893691e-07	0.01138953	0.009301212	-2.0698e-05	9.918929e-06	-0.06613527	-0.06806358
2.2e+08	-0.07080464	-0.0689386	-9.788351e-07	5.7847e-07	0.01240799	0.008597926	-1.782223e-06	6.72119e-07
	-9.788351e-07	5.7847e-07	-0.07173838	-0.06760008	-2.235107e-05	1.242356e-05	0.0120485	0.009072964
	0.01240799	0.008597926	-2.235107e-05	1.242356e-05	-0.07059491	-0.06926631	-2.035217e-05	1.023761e-05
	-1.782223e-06	6.72119e-07	0.0120485	0.009072964	-2.035217e-05	1.023761e-05	-0.07181668	-0.0673067
2.3e+08	-0.07638609	-0.06790853	-9.397419e-07	6.185253e-07	0.01303715	0.008258875	-1.776464e-06	6.594442e-07
	-9.397419e-07	6.185253e-07	-0.07734408	-0.06640843	-2.19378e-05	1.276089e-05	0.01267383	0.00878764
	0.01303715	0.008258875	-2.19378e-05	1.276089e-05	-0.07620347	-0.06822843	-1.999813e-05	1.057042e-05
	-1.776464e-06	6.594442e-07	0.01267383	0.00878764	-1.999813e-05	1.057042e-05	-0.07742576	-0.0660913
2.4e+08	-0.08187038	-0.06643544	-8.998509e-07	6.561496e-07	0.01362422	0.007864705	-1.771871e-06	6.50885e-07
	-8.998509e-07	6.561496e-07	-0.08284126	-0.06476806	-2.151339e-05	1.311288e-05	0.01326074	0.008448793
	0.01362422	0.007864705	-2.151339e-05	1.311288e-05	-0.08171397	-0.06674587	-1.963525e-05	1.091421e-05
	-1.771871e-06	6.50885e-07	0.01326074	0.008448793	-1.963525e-05	1.091421e-05	-0.08292516	-0.06442628
2.5e+08	-0.087222	-0.06452994	-8.591949e-07	6.914219e-07	0.01416453	0.007419697	-1.768358e-06	6.460817e-07
	-8.591949e-07	6.914219e-07	-0.08819375	-0.0626907	-2.107721e-05	1.34759e-05	0.01380479	0.008060351
	0.01416453	0.007419697	-2.107721e-05	1.34759e-05	-0.08709086	-0.06482933	-1.926288e-05	1.126628e-05
	-1.768358e-06	6.460817e-07	0.01380479	0.008060351	-1.926288e-05	1.126628e-05	-0.08827862	-0.0623235
2.6e+08	-0.09240666	-0.06220541	-8.178099e-07	7.244034e-07	0.01465387	0.006928496	-1.765834e-06	6.447456e-07
	-8.178099e-07	7.244034e-07	-0.09336669	-0.06019092	-2.062878e-05	1.384679e-05	0.01430196	0.007626583
	0.01465387	0.006928496	-2.062878e-05	1.384679e-05	-0.09229981	-0.06249228	-1.88805e-05	1.162426e-05
	-1.765834e-06	6.447456e-07	0.01430196	0.007626583	-1.88805e-05	1.162426e-05	-0.09345117	-0.05979765
2.7e+08	-0.09739145	-0.05947787	-7.75736e-07	7.551394e-07	0.01508848	0.006396067	-1.764195e-06	6.466454e-07
	-7.75736e-07	7.551394e-07	-0.0983267	-0.05728598	-2.016762e-05	1.422271e-05	0.01474863	0.00715205
	0.01508848	0.006396067	-2.016762e-05	1.422271e-05	-0.09730784	-0.05975084	-1.848757e-05	1.198599e-05
	-1.764195e-06	6.466454e-07	0.01474863	0.00715205	-1.848757e-05	1.198599e-05	-0.09840936	-0.05686613
2.8e+08	-0.102145	-0.05636582	-7.330173e-07	7.836647e-07	0.01546508	0.005827646	-1.763338e-06	6.515959e-07
	-7.330173e-07	7.836647e-07	-0.1030421	-0.0539957	-1.969341e-05	1.460111e-05	0.01514164	0.006641573
	0.01546508	0.005827646	-1.969341e-05	1.460111e-05	-0.1020835	-0.05662359	-1.808372e-05	1.234957e-05
	-1.763338e-06	6.515959e-07	0.01514164	0.006641573	-1.808372e-05	1.234957e-05	-0.1031214	-0.05354887
2.9e+08	-0.1066377	-0.05289014	-6.897016e-07	8.100041e-07	0.01578088	0.0052287	-1.763152e-06	6.594459e-07
	-6.897016e-07	8.100041e-07	-0.1074831	-0.05034225	-1.920589e-05	1.497966e-05	0.01547825	0.006100186
	0.01578088	0.0052287	-1.920589e-05	1.497966e-05	-0.1065973	-0.05313149	-1.766859e-05	1.271321e-05
	-1.763152e-06	6.594459e-07	0.01547825	0.006100186	-1.766859e-05	1.271321e-05	-0.1075575	-0.04986821
3e+08	-0.1108419	-0.04907387	-6.458404e-07	8.34175e-07	0.01603359	0.004604879	-1.763516e-06	6.70068e-07
	-6.458404e-07	8.34175e-07	-0.1116218	-0.04635006	-1.87049e-05	1.535623e-05	0.01575621	0.005533097
	0.01603359	0.004604879	-1.87049e-05	1.535623e-05	-0.1108213	-0.04929768	-1.724189e-05	1.307526e-05
	-1.763516e-06	6.70068e-07	0.01575621	0.005533097	-1.724189e-05	1.307526e-05	-0.1116897	-0.04584871
3.1e+08	-0.1147319	-0.04494208	-6.014873e-07	8.561872e-07	0.01622144	0.003961971	-1.764314e-06	6.833604e-07
	-6.014873e-07	8.561872e-07	-0.1154327	-0.04204556	-1.81903e-05	1.572874e-05	0.01597372	0.004945648
	0.01622144	0.003961971	-1.81903e-05	1.572874e-05	-0.1147299	-0.04514733	-1.680347e-05	1.343419e-05
	-1.764314e-06	6.833604e-07	0.01597372	0.004945648	-1.680347e-05	1.343419e-05	-0.1154925	-0.04151696
3.2e+08	-0.1182842	-0.04052171	-5.566997e-07	8.76046e-07	0.01634316	0.003305859	-1.765419e-06	6.992333e-07
	-5.566997e-07	8.76046e-07	-0.1188924	-0.03745703	-1.766206e-05	1.609521e-05	0.01612945	0.004343274
	0.01634316	0.003305859	-1.766206e-05	1.609521e-05	-0.1182995	-0.04070742	-1.635322e-05	1.378855e-05
	-1.765419e-06	6.992333e-07	0.01612945	0.004343274	-1.635322e-05	1.378855e-05	-0.1189424	-0.03690141
3.3e+08	-0.1214776	-0.0358413	-5.11546e-07	8.93761e-07	0.01639799	0.002642479	-1.7667e-06	7.176054e-07
	-5.11546e-07	8.93761e-07	-0.1219801	-0.03261442	-1.712049e-05	1.645412e-05	0.01622253	0.003731466
	0.01639799	0.002642479	-1.712049e-05	1.645412e-05	-0.121509	-0.03600663	-1.589106e-05	1.413696e-05
	-1.7667e-06	7.176054e-07	0.01622253	0.003731466	-1.589106e-05	1.413696e-05	-0.1220186	-0.03203215
3.4e+08	-0.1242934	-0.03093092	-4.660959e-07	9.093368e-07	0.0163857	0.001977777	-1.768015e-06	7.38387e-07
	-4.660959e-07	9.093368e-07	-0.1246774	-0.02754908	-1.656578e-05	1.680373e-05	0.01625256	0.003115733
	0.0163857	0.001977777	-1.656578e-05	1.680373e-05	-0.1243396	-0.03107508	-1.541698e-05	1.447798e-05
	-1.768015e-06	7.38387e-07	0.01625256	0.003115733	-1.541698e-05	1.447798e-05	-0.1247029	-0.02694071
3.5e+08	-0.1267153	-0.02582186	-4.204189e-07	9.227761e-07	0.01630653	0.001317671	-1.769241e-06	7.615303e-07
	-4.204189e-07	9.22776e-07	-0.1269686	-0.02229365	-1.599827e-05	1.714256e-05	0.0162196	0.002501568
	0.01630653	0.001317671	-1.599827e-05	1.714256e-05	-0.1267748	-0.02594418	-1.493116e-05	1.481046e-05
	-1.769241e-06	7.615303e-07	0.0162196	0.002501568	-1.493116e-05	1.481046e-05	-0.1269794	-0.02165989
3.6e+08	-0.1287295	-0.02054651	-3.745877e-07	9.340818e-07	0.01616123	0.0006680108	-1.770247e-06	7.869786e-07
	-3.745877e-07	9.340818e-07	-0.1288407	-0.01688176	-1.541845e-05	1.746933e-05	0.01612415	0.001894412
	0.01616123	0.0006680108	-1.541845e-05	1.746933e-05	-0.128801	-0.02064639	-1.443381e-05	1.513327e-05
	-1.770247e-06	7.869786e-07	0.01612415	0.001894412	-1.443381e-05	1.513327e-05	-0.1288351	-0.01622348
3.7e+08	-0.130325	-0.01513813	-3.286799e-07	9.43258e-07	0.01595105	3.45398e-05	-1.770894e-06	8.146715e-07
	-3.286799e-07	9.43258e-07	-0.1302833	-0.01134787	-1.48268e-05	1.778272e-05	0.01596717	0.001299622
	0.01595105	3.45398e-05	-1.48268e-05	1.778272e-05	-0.1304071	-0.01521507	-1.392519e-05	1.54453e-05
	-1.770894e-06	8.146715e-07	0.01596717	0.001299622	-1.392519e-05	1.54453e-05	-0.1302599	-0.01066611
3.8e+08	-0.1314932	-0.009630647	-2.827758e-07	9.503106e-07	0.01567767	-0.0005771371	-1.771044e-06	8.445478e-07
	-2.827758e-07	9.503106e-07	-0.1312889	-0.005727053	-1.422387e-05	1.808151e-05	0.01575003	0.0007224395
	0.01567767	-0.0005771371	-1.422387e-05	1.808151e-05	-0.1315845	-0.00968425	-1.340562e-05	1.574546e-05
	-1.771044e-06	8.445478e-07	0.01575003	0.0007224395	-1.340562e-05	1.574546e-05	-0.1312463	-0.005022991
3.9e+08	-0.1322284	-0.004058452	-2.369586e-07	9.552481e-07	0.01534326	-0.00116159	-1.770558e-06	8.765458e-07
	-2.369586e-07	9.552481e-07	-0.1318528	-5.474626e-05	-1.36103e-05	1.836456e-05	0.01547453	0.0001679607
	0.01534326	-0.00116159	-1.36103e-05	1.836456e-05	-0.1323275	-0.004088406	-1.287549e-05	1.603274e-05
	-1.770558e-06	8.765458e-07	0.01547453	0.0001679607	-1.287549e-05	1.603274e-05	-0.1317896	0.0006702727
4e+08	-0.1325277	0.001543798	-1.913137e-07	9.58082e-07	0.01495039	-0.001713594	-1.769299e-06	9.105987e-07
	-1.913137e-07	9.58082e-07	-0.1319732	0.005633427	-1.298676e-05	1.863082e-05	0.01514285	-0.0003588923
	0.01495039	-0.001713594	-1.298676e-05	1.863082e-05	-0.132633	0.001537708	-1.233527e-05	1.630618e-05
	-1.769299e-06	9.105987e-07	0.01514285	-0.0003588923	-1.233527e-05	1.630618e-05	-0.1318882	0.006377922
4.1e+08	-0.1323906	0.007141393	-1.459286e-07	9.588276e-07	0.01450209	-0.002228162	-1.767128e-06	9.466388e-07
	-1.459286e-07	9.588276e-07	-0.1316509	0.01130189	-1.235403e-05	1.887934e-05	0.01475758	-0.0008533989
	0.01450209	-0.002228162	-1.235403e-05	1.887934e-05	-0.1325008	0.007159284	-1.178547e-05	1.656487e-05
	-1.767128e-06	9.466388e-07	0.01475758	-0.0008533989	-1.178547e-05	1.656487e-05	-0.131543	0.01206425
4.2e+08	-0.1318195	0.01269976	-1.008919e-07	9.575043e-07	0.01400175	-0.002700575	-1.76391e-06	9.845959e-07
	-1.008919e-07	9.575043e-07	-0.1308896	0.01691532	-1.17129e-05	1.910924e-05	0.01432167	-0.001311066
	0.01400175	-0.002700575	-1.17129e-05	1.910924e-05	-0.1319332	0.01274165	-1.122667e-05	1.680795e-05
	-1.76391e-06	9.845959e-07	0.01432167	-0.001311066	-1.122667e-05	1.680795e-05	-0.1307578	0.0176938
4.3e+08	-0.1308194	0.01818467	-5.629334e-08	9.541362e-07	0.01345316	-0.003126406	-1.75951e-06	1.024394e-06
	-5.629334e-08	9.541362e-07	-0.1296958	0.02243885	-1.106423e-05	1.931972e-05	0.01383842	-0.001727654
	0.01345316	-0.003126406	-1.106423e-05	1.931972e-05	-0.1309352	0.0182505	-1.065951e-05	1.703464e-05
	-1.75951e-06	1.024394e-06	0.01383842	-0.001727654	-1.065951e-05	1.703464e-05	-0.1295393	0.0232316
4.4e+08	-0.1293982	0.02356243	-1.222287e-08	9.487518e-07	0.01286045	-0.003501551	-1.753794e-06	1.065952e-06
	-1.222287e-08	9.487518e-07	-0.1280787	0.02783828	-1.040893e-05	1.951006e-05	0.01331146	-0.002099201
	0.01286045	-0.003501551	-1.040893e-05	1.951006e-05	-0.1295146	0.02365202	-1.008468e-05	1.724419e-05
	-1.753794e-06	1.065952e-06	0.01331146	-0.002099201	-1.008468e-05	1.724419e-05	-0.1278969	0.02864334
4.5e+08	-0.127566	0.02880009	3.122946e-08	9.413851e-07	0.01222809	-0.00382225	-1.746633e-06	1.109181e-06
	3.122946e-08	9.413851e-07	-0.1260502	0.03308027	-9.747924e-06	1.967964e-05	0.01274474	-0.002422043
	0.01222809	-0.00382225	-9.747924e-06	1.967964e-05	-0.1276817	0.02891319	-9.502906e-06	1.743592e-05
	-1.746633e-06	1.109181e-06	0.01274474	-0.002422043	-9.502906e-06	1.743592e-05	-0.1258425	0.03389563
4.6e+08	-0.1253356	0.03386561	7.397451e-08	9.320751e-07	0.01156085	-0.004085118	-1.7379e-06	1.153993e-06
	7.397451e-08	9.320751e-07	-0.1236245	0.03813255	-9.082186e-06	1.982789e-05	0.01214251	-0.002692843
	0.01156085	-0.004085118	-9.082186e-06	1.982789e-05	-0.1254493	0.03400187	-8.914971e-06	1.760922e-05
	-1.7379e-06	1.153993e-06	0.01214251	-0.002692843	-8.914971e-06	1.760922e-05	-0.1233906	0.0389561
4.7e+08	-0.1227223	0.03872806	1.159244e-07	9.208658e-07	0.01086377	-0.004287161	-1.727471e-06	1.200284e-06
	1.159244e-07	9.208658e-07	-0.1208186	0.04296411	-8.41271e-06	1.995432e-05	0.01150926	-0.002908605
	0.01086377	-0.004287161	-8.41271e-06	1.995432e-05	-0.1228327	0.03888704	-8.321697e-06	1.776351e-05
	-1.727471e-06	1.200284e-06	0.01150926	-0.002908605	-8.321697e-06	1.776351e-05	-0.1205585	0.0437937
