!$
! Info: Touchstone file created by Circ.  Input file=Tx_4in_Rx_100ohms_TxVia_35mils_RxVia_45mils.circ
!$
# Hz S RI R 50
0	0.004278212	6.651661e-26	7.505395e-10	7.180712e-28	4.103252e-05	7.924906e-24	3.734424e-10	1.56466e-28
	7.505395e-10	7.180497e-28	0.00427656	7.882054e-26	2.523284e-09	2.796609e-27	4.089016e-05	9.600472e-24
	4.084624e-05	7.891636e-24	2.523284e-09	2.796619e-27	0.004289095	6.652564e-26	7.530049e-10	7.689993e-28
	3.734424e-10	1.564595e-28	3.904319e-05	9.647925e-24	7.530054e-10	7.690149e-28	0.004289758	7.38311e-26
1e+07	0.006083815	0.003150441	9.525868e-10	1.412864e-09	0.0002363226	0.0009155044	5.781161e-10	7.377594e-10
	9.525868e-10	1.412864e-09	0.00614494	0.003147775	3.655604e-09	6.936598e-09	0.0002348368	0.0009140088
	0.0002363173	0.0009155054	3.655604e-09	6.936598e-09	0.006163107	0.003157572	9.552119e-10	1.430562e-09
	5.78116e-10	7.377594e-10	0.000234777	0.0009140188	9.552117e-10	1.430562e-09	0.006097261	0.003159334
2e+07	0.007722502	0.00496157	1.295488e-09	2.470954e-09	0.0002923978	0.001885504	8.617134e-10	1.24623e-09
	1.295488e-09	2.470954e-09	0.007761421	0.004933579	4.90767e-09	1.218941e-08	0.0002866969	0.001883057
	0.0002923992	0.001885508	4.90767e-09	1.218941e-08	0.007790807	0.004951438	1.289395e-09	2.498409e-09
	8.617134e-10	1.24623e-09	0.0002866886	0.001883092	1.289395e-09	2.498409e-09	0.00772981	0.004978417
3e+07	0.009129349	0.006163809	1.612589e-09	3.45389e-09	0.000438585	0.002774769	1.157276e-09	1.710731e-09
	1.612589e-09	3.45389e-09	0.009143725	0.006127755	5.85035e-09	1.724128e-08	0.0004260448	0.002772181
	0.0004385875	0.002774769	5.85035e-09	1.724128e-08	0.009190945	0.00615146	1.585524e-09	3.495022e-09
	1.157276e-09	1.710731e-09	0.0004260447	0.002772186	1.585524e-09	3.495022e-09	0.009126023	0.006189729
4e+07	0.01044611	0.007089387	1.95456e-09	4.378327e-09	0.0006762606	0.003624547	1.495166e-09	2.129733e-09
	1.95456e-09	4.378327e-09	0.01043228	0.007051013	6.736821e-09	2.216159e-08	0.0006543653	0.003622925
	0.0006762612	0.003624545	6.736821e-09	2.216159e-08	0.01050384	0.007077841	1.89688e-09	4.438038e-09
	1.495166e-09	2.129733e-09	0.0006543599	0.003622923	1.89688e-09	4.438038e-09	0.01042763	0.007125436
5e+07	0.01171887	0.007817006	2.319837e-09	5.240927e-09	0.001058578	0.004421365	1.871922e-09	2.496979e-09
	2.319837e-09	5.240927e-09	0.01167282	0.007781282	7.591775e-09	2.695597e-08	0.001024972	0.004422067
	0.001058578	0.004421365	7.591775e-09	2.695597e-08	0.01177489	0.007807352	2.223143e-09	5.325099e-09
	1.871922e-09	2.496979e-09	0.001024968	0.004422066	2.223143e-09	5.325099e-09	0.0116806	0.007865187
6e+07	0.01296672	0.008383217	2.704277e-09	6.045561e-09	0.001499382	0.005174477	2.282178e-09	2.811298e-09
	2.704277e-09	6.045561e-09	0.01288482	0.008355123	8.417551e-09	3.164589e-08	0.001451906	0.005179188
	0.001499383	0.005174477	8.417551e-09	3.164589e-08	0.0130228	0.008375789	2.561342e-09	6.160813e-09
	2.282178e-09	2.811298e-09	0.001451908	0.005179187	2.561342e-09	6.160813e-09	0.01290447	0.008446184
7e+07	0.01419764	0.008808486	3.100182e-09	6.788615e-09	0.001995573	0.005880345	2.707199e-09	3.056237e-09
	3.100182e-09	6.788615e-09	0.01407665	0.008793077	9.210126e-09	3.623088e-08	0.001932277	0.005890997
	0.001995575	0.005880345	9.210127e-09	3.623088e-08	0.01425529	0.008803227	2.904008e-09	6.941245e-09
	2.7072e-09	3.056237e-09	0.001932284	0.005890994	2.904008e-09	6.941245e-09	0.01410753	0.008889256
8e+07	0.0154143	0.009106232	3.501245e-09	7.466288e-09	0.00254331	0.006534865	3.13649e-09	3.230845e-09
	3.501245e-09	7.466288e-09	0.01525131	0.009108823	9.974305e-09	4.072162e-08	0.002462463	0.006553617
	0.002543313	0.006534864	9.974305e-09	4.072162e-08	0.01547483	0.009102887	3.245655e-09	7.663758e-09
	3.13649e-09	3.230845e-09	0.002462473	0.006553611	3.245655e-09	7.663759e-09	0.01529263	0.009208233
9e+07	0.01661687	0.009286978	3.907339e-09	8.082706e-09	0.003137967	0.007133451	3.572952e-09	3.348425e-09
	3.907339e-09	8.082706e-09	0.01640937	0.009313395	1.072074e-08	4.513393e-08	0.003038075	0.00716268
	0.003137969	0.007133451	1.072074e-08	4.513393e-08	0.01668148	0.009285284	3.587663e-09	8.334498e-09
	3.572952e-09	3.348425e-09	0.003038082	0.007162675	3.587663e-09	8.334498e-09	0.01646012	0.009414173
1e+08	0.01780746	0.009365983	4.317188e-09	8.631943e-09	0.00377275	0.007668408	4.007477e-09	3.415647e-09
	4.317188e-09	8.631943e-09	0.01755391	0.009423417	1.145245e-08	4.94657e-08	0.00365257	0.007710693
	0.00377275	0.007668408	1.145245e-08	4.94657e-08	0.01787769	0.0093665	3.929837e-09	8.949073e-09
	4.007477e-09	3.415647e-09	0.00365257	0.007710693	3.929837e-09	8.949073e-09	0.01761245	0.009522937
1.1e+08	0.0190095	0.009309465	4.753209e-09	9.149773e-09	0.004429818	0.008151831	4.461192e-09	3.439052e-09
	4.753209e-09	9.149773e-09	0.01871304	0.00940276	1.21796e-08	5.376356e-08	0.004288692	0.008209798
	0.004429817	0.008151831	1.21796e-08	5.376356e-08	0.01909037	0.009309365	4.300352e-09	9.548278e-09
	4.461192e-09	3.439052e-09	0.004288692	0.008209798	4.300352e-09	9.548278e-09	0.01877588	0.00950277
1.2e+08	0.02017222	0.00913325	5.1752e-09	9.621579e-09	0.005124722	0.008580434	4.917499e-09	3.395185e-09
	5.1752e-09	9.621579e-09	0.01983076	0.009265829	1.287385e-08	5.801118e-08	0.004961971	0.008656929
	0.005124722	0.008580434	1.287385e-08	5.801118e-08	0.02026268	0.009129022	4.656491e-09	1.010883e-08
	4.917499e-09	3.395185e-09	0.004961971	0.008656929	4.656491e-09	1.010883e-08	0.01989791	0.009366879
1.3e+08	0.0212959	0.008851826	5.581483e-09	1.004364e-08	0.005850219	0.008946707	5.366139e-09	3.288383e-09
	5.581483e-09	1.004364e-08	0.02090823	0.009028746	1.353632e-08	6.221219e-08	0.005665502	0.009044691
	0.005850219	0.008946707	1.353632e-08	6.221219e-08	0.02139511	0.008841359	4.996979e-09	1.062793e-08
	5.366139e-09	3.288383e-09	0.005665502	0.009044691	4.996979e-09	1.062793e-08	0.0209792	0.009130652
1.4e+08	0.02237721	0.008471672	5.967677e-09	1.041687e-08	0.006600126	0.009247293	5.799801e-09	3.12023e-09
	5.967677e-09	1.041687e-08	0.02194283	0.008698626	1.416696e-08	6.637087e-08	0.006393454	0.009369798
	0.006600126	0.009247293	1.416696e-08	6.637087e-08	0.02248428	0.008453323	5.318277e-09	1.110714e-08
	5.799801e-09	3.12023e-09	0.006393454	0.009369798	5.318277e-09	1.110714e-08	0.022017	0.008801242
1.5e+08	0.02341193	0.007998073	6.329051e-09	1.074277e-08	0.007368249	0.00947991	6.21162e-09	2.892224e-09
	6.329051e-09	1.074277e-08	0.02293109	0.008281107	1.476504e-08	7.049104e-08	0.007139987	0.009629998
	0.007368249	0.00947991	1.476504e-08	7.049104e-08	0.02352595	0.007970474	5.616705e-09	1.154844e-08
	6.21162e-09	2.892224e-09	0.007139988	0.009629998	5.616705e-09	1.154844e-08	0.02300788	0.008384378
1.6e+08	0.02439544	0.007435978	6.660749e-09	1.10235e-08	0.00814832	0.009643026	6.594882e-09	2.606393e-09
	6.660749e-09	1.10235e-08	0.02386918	0.007781315	1.532936e-08	7.457639e-08	0.007899188	0.009823752
	0.00814832	0.009643026	1.532936e-08	7.457639e-08	0.02451545	0.007397947	5.888579e-09	1.195421e-08
	6.594882e-09	2.606393e-09	0.007899188	0.009823752	5.888579e-09	1.195421e-08	0.02394804	0.007885253
1.7e+08	0.02532294	0.006790334	6.957949e-09	1.126179e-08	0.008934013	0.00973576	6.943055e-09	2.265392e-09
	6.957949e-09	1.126179e-08	0.02475307	0.00720423	1.585839e-08	7.863067e-08	0.00866508	0.009950133
	0.008934013	0.00973576	1.585839e-08	7.863067e-08	0.02544794	0.006740821	6.130315e-09	1.232723e-08
	6.943055e-09	2.265392e-09	0.00866508	0.009950133	6.130315e-09	1.232723e-08	0.02483353	0.007308888
1.8e+08	0.02618962	0.006066243	7.215986e-09	1.146089e-08	0.009718985	0.009757837	7.24985e-09	1.872522e-09
	7.215986e-09	1.146089e-08	0.02557871	0.006554867	1.635049e-08	8.265778e-08	0.009431663	0.01000879
	0.009718984	0.009757837	1.635049e-08	8.265778e-08	0.02631855	0.006004306	6.338496e-09	1.26706e-08
	7.24985e-09	1.872522e-09	0.009431663	0.01000879	6.338496e-09	1.26706e-08	0.02566033	0.006660322
1.9e+08	0.02699076	0.005269048	7.430436e-09	1.162459e-08	0.01049691	0.009709571	7.509293e-09	1.431722e-09
	7.430436e-09	1.162459e-08	0.02634215	0.005838381	1.680403e-08	8.666183e-08	0.01019295	0.009999911
	0.01049691	0.009709571	1.680403e-08	8.666183e-08	0.02712247	0.005193842	6.509934e-09	1.298777e-08
	7.509293e-09	1.431722e-09	0.01019295	0.009999911	6.509934e-09	1.298777e-08	0.02642453	0.005944719
2e+08	0.02772184	0.004404349	7.597196e-09	1.175717e-08	0.01126153	0.009591844	7.715791e-09	9.47532e-10
	7.597196e-09	1.175717e-08	0.02703955	0.005060098	1.721748e-08	9.064716e-08	0.010943	0.009924239
	0.01126153	0.009591844	1.721748e-08	9.064716e-08	0.02785513	0.004315128	6.641713e-09	1.32825e-08
	7.715791e-09	9.47532e-10	0.010943	0.009924239	6.641713e-09	1.32825e-08	0.02712234	0.005167417
2.1e+08	0.02837859	0.00347803	7.712537e-09	1.186333e-08	0.01200671	0.009406093	7.864196e-09	4.250635e-10
	7.712537e-09	1.186333e-08	0.02766734	0.00422555	1.758953e-08	9.461834e-08	0.01167598	0.009783027
	0.01200671	0.009406093	1.758953e-08	9.461834e-08	0.02851216	0.003374149	6.731233e-09	1.355884e-08
	7.864196e-09	4.250635e-10	0.01167598	0.009783027	6.731233e-09	1.355884e-08	0.02775019	0.004333946
2.2e+08	0.02895709	0.002496246	7.773157e-09	1.194818e-08	0.01272644	0.009154295	7.949856e-09	-1.300555e-10
	7.773157e-09	1.194818e-08	0.02822222	0.003340469	1.791917e-08	9.858012e-08	0.0123862	0.009578039
	0.01272644	0.009154295	1.791917e-08	9.858012e-08	0.02908956	0.002377173	6.77624e-09	1.38211e-08
	7.949856e-09	-1.300555e-10	0.0123862	0.009578039	6.77624e-09	1.38211e-08	0.02830478	0.003450048
2.3e+08	0.02945379	0.001465422	7.776223e-09	1.201718e-08	0.01341495	0.008838949	7.968662e-09	-7.117303e-10
	7.776223e-09	1.201718e-08	0.02870122	0.00241079	1.820568e-08	1.025374e-07	0.01306812	0.00931153
	0.01341495	0.008838949	1.820568e-08	1.025374e-07	0.02958371	0.00133075	6.774858e-09	1.407382e-08
	7.968662e-09	-7.117303e-10	0.01306812	0.00931153	6.774858e-09	1.407382e-08	0.02878317	0.002521674
2.4e+08	0.02986554	0.0003922067	7.719396e-09	1.20761e-08	0.01406668	0.008463053	7.91709e-09	-1.313452e-09
	7.719396e-09	1.20761e-08	0.02910173	0.001442611	1.844875e-08	1.064953e-07	0.01371645	0.008986231
	0.01406668	0.008463053	1.844875e-08	1.064953e-07	0.02999138	0.0002416648	6.725606e-09	1.432174e-08
	7.91709e-09	-1.313452e-09	0.01371645	0.008986231	6.725606e-09	1.432174e-08	0.02918273	0.00155494
2.5e+08	0.03018965	-0.0007165349	7.600866e-09	1.213095e-08	0.01467637	0.008030083	7.792232e-09	-1.928357e-09
	7.600866e-09	1.213095e-08	0.02942156	0.0004421998	1.864844e-08	1.10459e-07	0.01432615	0.008605322
	0.01467637	0.008030083	1.864844e-08	1.10459e-07	0.03030984	-0.000883069	6.627418e-09	1.456975e-08
	7.792232e-09	-1.928357e-09	0.01432615	0.008605322	6.627418e-09	1.456975e-08	0.02950129	0.000556138
2.6e+08	0.03042393	-0.001853766	7.419369e-09	1.218797e-08	0.01523908	0.007543966	7.591827e-09	-2.549282e-09
	7.419369e-09	1.218797e-08	0.02965892	-0.0005840563	1.880526e-08	1.144335e-07	0.01489247	0.008172412
	0.01523908	0.007543966	1.880526e-08	1.144335e-07	0.03053684	-0.002036258	6.479659e-09	1.482287e-08
	7.591827e-09	-2.549282e-09	0.01489247	0.008172412	6.479659e-09	1.482287e-08	0.02973705	-0.0004683205
2.7e+08	0.03056666	-0.003012304	7.174205e-09	1.225355e-08	0.01575022	0.007009051	7.314279e-09	-3.168825e-09
	7.174205e-09	1.225355e-08	0.02981246	-0.001629674	1.892013e-08	1.184242e-07	0.01541099	0.007691509
	0.01575022	0.007009051	1.892013e-08	1.184242e-07	0.03067063	-0.00321056	6.282137e-09	1.508623e-08
	7.314279e-09	-3.168825e-09	0.01541099	0.007691509	6.282137e-09	1.508623e-08	0.02988868	-0.001511922
2.8e+08	0.03061665	-0.00418486	6.865252e-09	1.23342e-08	0.01620562	0.006430073	6.95868e-09	-3.779402e-09
	6.865252e-09	1.23342e-08	0.0298813	-0.002688096	1.899441e-08	1.224361e-07	0.01587766	0.007166992
	0.01620562	0.006430073	1.899441e-08	1.224361e-07	0.03071003	-0.00439851	6.035105e-09	1.5365e-08
	6.95868e-09	-3.779402e-09	0.01587766	0.007166992	6.035105e-09	1.5365e-08	0.02995532	-0.002568072
2.9e+08	0.03057326	-0.005364078	6.492976e-09	1.24365e-08	0.01660151	0.005812122	6.524819e-09	-4.373309e-09
	6.492976e-09	1.24365e-08	0.02986501	-0.003752735	1.902993e-08	1.264744e-07	0.01628883	0.006603578
	0.01660151	0.005812122	1.902993e-08	1.264744e-07	0.03065438	-0.005592584	5.739275e-09	1.566438e-08
	6.524819e-09	-4.373309e-09	0.01628883	0.006603578	5.739275e-09	1.566438e-08	0.02993654	-0.003630156
3e+08	0.03043637	-0.006542579	6.058443e-09	1.256704e-08	0.0169346	0.005160601	6.013192e-09	-4.942774e-09
	6.058443e-09	1.256704e-08	0.02976363	-0.004817006	1.902894e-08	1.305441e-07	0.01664126	0.006006286
	0.0169346	0.005160601	1.902894e-08	1.305441e-07	0.0305036	-0.006785227	5.395818e-09	1.598956e-08
	6.013192e-09	-4.942774e-09	0.01664126	0.006006286	5.395818e-09	1.598956e-08	0.02983242	-0.004691554
3.1e+08	0.03020642	-0.007712988	5.563315e-09	1.273241e-08	0.01720208	0.004481187	5.425009e-09	-5.480024e-09
	5.563315e-09	1.273241e-08	0.02957768	-0.005874348	1.899415e-08	1.346499e-07	0.01693215	0.005380402
	0.01720208	0.004481187	1.899415e-08	1.346499e-07	0.03025816	-0.007968889	5.006369e-09	1.634569e-08
	5.425009e-09	-5.480024e-09	0.01693215	0.005380402	5.006369e-09	1.634569e-08	0.02964349	-0.005745677
3.2e+08	0.0298844	-0.008867994	5.009863e-09	1.29391e-08	0.01740163	0.003779792	4.762193e-09	-5.977337e-09
	5.009863e-09	1.29391e-08	0.02930815	-0.006918278	1.892869e-08	1.387966e-07	0.01715919	0.004731435
	0.01740163	0.003779792	1.892869e-08	1.387966e-07	0.02991911	-0.009136088	4.573028e-09	1.673784e-08
	4.762193e-09	-5.977337e-09	0.01715919	0.004731435	4.573028e-09	1.673784e-08	0.0293708	-0.00678601
3.3e+08	0.02947183	-0.01000038	4.400965e-09	1.319349e-08	0.01753146	0.003062511	4.027378e-09	-6.427103e-09
	4.400965e-09	1.319349e-08	0.0289565	-0.007942412	1.883612e-08	1.429886e-07	0.01732054	0.004065081
	0.01753146	0.003062511	1.883612e-08	1.429886e-07	0.02948807	-0.01027944	4.098362e-09	1.717097e-08
	4.027378e-09	-6.427103e-09	0.01732054	0.004065081	4.098362e-09	1.717097e-08	0.02901581	-0.007806149
3.4e+08	0.0289708	-0.01110305	3.740101e-09	1.35018e-08	0.01759034	0.002335582	3.223905e-09	-6.821881e-09
	3.740101e-09	1.35018e-08	0.02852465	-0.008940497	1.872043e-08	1.4723e-07	0.01741487	0.003387181
	0.01759034	0.002335582	1.872043e-08	1.4723e-07	0.02896719	-0.01139169	3.585404e-09	1.764988e-08
	3.223905e-09	-6.821881e-09	0.01741487	0.003387181	3.585404e-09	1.764988e-08	0.02858051	-0.008799817
3.5e+08	0.02838393	-0.01216911	3.031353e-09	1.387003e-08	0.01757756	0.001605337	2.355809e-09	-7.154459e-09
	3.031353e-09	1.387003e-08	0.02801497	-0.009906457	1.858601e-08	1.515248e-07	0.01744136	0.00270367
	0.01757756	0.001605337	1.858601e-08	1.515248e-07	0.02835923	-0.01246579	3.037648e-09	1.817921e-08
	2.355809e-09	-7.154459e-09	0.01744136	0.00270367	3.037648e-09	1.817921e-08	0.02806729	-0.009760922
3.6e+08	0.02771433	-0.01319187	2.279393e-09	1.430389e-08	0.01749299	0.0008781543	1.427813e-09	-7.417908e-09
	2.279393e-09	1.430389e-08	0.02743028	-0.01083441	1.84376e-08	1.558764e-07	0.01739969	0.002020544
	0.01749299	0.0008781543	1.84376e-08	1.558764e-07	0.02766741	-0.01349492	2.459049e-09	1.876335e-08
	1.427813e-09	-7.417908e-09	0.01739969	0.002020544	2.459049e-09	1.876335e-08	0.02747902	-0.01068357
3.7e+08	0.02696566	-0.01416489	1.48948e-09	1.480879e-08	0.01733704	0.0001604096	4.453038e-10	-7.605644e-09
	1.48948e-09	1.480879e-08	0.02677382	-0.01171873	1.828036e-08	1.602882e-07	0.0172901	0.001343803
	0.01733704	0.0001604096	1.828036e-08	1.602882e-07	0.02689553	-0.01447249	1.854013e-09	1.940644e-08
	4.453038e-10	-7.605644e-09	0.0172901	0.001343803	1.854013e-09	1.940644e-08	0.026819	-0.01156212
3.8e+08	0.02614203	-0.01508206	6.674373e-10	1.538976e-08	0.01711069	-0.0005415727	-5.856858e-10	-7.711482e-09
	6.674373e-10	1.538976e-08	0.02604923	-0.01255403	1.811976e-08	1.647627e-07	0.01711331	0.0006794164
	0.01711069	-0.0005415727	1.811976e-08	1.647627e-07	0.02604788	-0.01539228	1.227391e-09	2.011233e-08
	-5.856858e-10	-7.711482e-09	0.01711331	0.0006794164	1.227391e-09	2.011233e-08	0.0260909	-0.01239119
3.9e+08	0.02524805	-0.01593758	-1.80358e-10	1.605139e-08	0.01681548	-0.001221567	-1.658499e-09	-7.729697e-09
	-1.80358e-10	1.605139e-08	0.02526057	-0.01333523	1.796159e-08	1.693024e-07	0.01687058	3.327135e-05
	0.01681548	-0.001221567	1.796159e-08	1.693024e-07	0.0251292	-0.01624837	5.844645e-10	2.088449e-08
	-1.658499e-09	-7.729697e-09	0.01687058	3.327134e-05	5.844645e-10	2.088449e-08	0.02529883	-0.01316571
4e+08	0.02428873	-0.01672601	-1.047004e-09	1.679779e-08	0.01645348	-0.001873496	-2.765888e-09	-7.655078e-09
	-1.047004e-09	1.679779e-08	0.02441223	-0.01405759	1.781193e-08	1.739092e-07	0.01656369	-0.0005888688
	0.01645348	-0.001873496	1.781193e-08	1.739092e-07	0.02414471	-0.01703526	-6.906853e-11	2.172602e-08
	-2.765888e-09	-7.655078e-09	0.01656369	-0.0005888688	-6.906853e-11	2.172602e-08	0.02444723	-0.01388092
4.1e+08	0.02326954	-0.01744234	-1.925099e-09	1.763254e-08	0.0160273	-0.002491476	-3.900046e-09	-7.482986e-09
	-1.925099e-09	1.763254e-08	0.02350898	-0.0147167	1.767713e-08	1.785845e-07	0.01619488	-0.001181409
	0.0160273	-0.002491476	1.767713e-08	1.785845e-07	0.02310004	-0.01774785	-7.271156e-10	2.263958e-08
	-3.900046e-09	-7.482986e-09	0.01619488	-0.001181409	-7.271156e-10	2.263958e-08	0.02354091	-0.01453244
4.2e+08	0.02219628	-0.01808198	-2.806778e-09	1.855861e-08	0.01554004	-0.003069864	-5.052643e-09	-7.209411e-09
	-2.806778e-09	1.855861e-08	0.02255588	-0.01530854	1.756376e-08	1.833289e-07	0.01576691	-0.001738966
	0.01554004	-0.003069864	1.756376e-08	1.833289e-07	0.02200121	-0.01838149	-1.383213e-09	2.362734e-08
	-5.052643e-09	-7.209411e-09	0.01576691	-0.001738966	-1.383213e-09	2.362734e-08	0.02258498	-0.01511627
4.3e+08	0.02107512	-0.01864083	-3.68375e-09	1.957831e-08	0.01499531	-0.003603298	-6.214876e-09	-6.831024e-09
	-3.68375e-09	1.957831e-08	0.02155828	-0.01582949	1.747854e-08	1.881429e-07	0.01528299	-0.002256405
	0.01499531	-0.003603298	1.747854e-08	1.881429e-07	0.0208546	-0.01893203	-2.030555e-09	2.469095e-08
	-6.214876e-09	-6.831024e-09	0.01528299	-0.002256405	-2.030555e-09	2.469095e-08	0.02158484	-0.0156288
4.4e+08	0.01991256	-0.01911525	-4.547348e-09	2.069325e-08	0.01439717	-0.004086746	-7.377514e-09	-6.345229e-09
	-4.547348e-09	2.069325e-08	0.02052181	-0.01627634	1.742835e-08	1.93026e-07	0.01474675	-0.002728887
	0.01439717	-0.004086746	1.742835e-08	1.93026e-07	0.01966689	-0.01939583	-2.662034e-09	2.583148e-08
	-7.377514e-09	-6.345229e-09	0.01474675	-0.002728887	-2.662034e-09	2.583148e-08	0.02054614	-0.01606685
4.5e+08	0.01871533	-0.01950214	-5.388583e-09	2.190428e-08	0.01375014	-0.00451554	-8.530954e-09	-5.750218e-09
	-5.388583e-09	2.190428e-08	0.01945229	-0.01664635	1.742016e-08	1.979774e-07	0.01416225	-0.003151898
	0.01375014	-0.00451554	1.742016e-08	1.979774e-07	0.01844505	-0.01976978	-3.270281e-09	2.704937e-08
	-8.530954e-09	-5.750218e-09	0.01416225	-0.003151898	-3.270281e-09	2.704937e-08	0.01947476	-0.0164277
4.6e+08	0.01749043	-0.01979893	-6.198199e-09	2.321145e-08	0.01305911	-0.004885414	-9.665285e-09	-5.045014e-09
	-6.198199e-09	2.321145e-08	0.01835577	-0.01693722	1.746096e-08	2.029953e-07	0.01353394	-0.00352129
	0.01305911	-0.004885414	1.746096e-08	2.029953e-07	0.01719628	-0.02005133	-3.847709e-09	2.834439e-08
	-9.665285e-09	-5.045014e-09	0.01353394	-0.00352129	-3.847709e-09	2.834439e-08	0.01837678	-0.01670909
4.7e+08	0.01624502	-0.0200036	-6.966753e-09	2.461392e-08	0.01232935	-0.00519254	-1.077035e-08	-4.229516e-09
	-6.966753e-09	2.461392e-08	0.01723844	-0.01714711	1.755772e-08	2.080776e-07	0.01286661	-0.003833308
	0.01232935	-0.00519254	1.755772e-08	2.080776e-07	0.01592797	-0.02023851	-4.386578e-09	2.971563e-08
	-1.077035e-08	-4.229516e-09	0.01286661	-0.003833308	-4.386578e-09	2.971563e-08	0.01725839	-0.01690918
4.8e+08	0.01498642	-0.02011473	-7.684673e-09	2.611e-08	0.01156645	-0.00543356	-1.183583e-08	-3.304536e-09
	-7.684673e-09	2.611e-08	0.01610659	-0.01727468	1.771733e-08	2.132213e-07	0.01216536	-0.004084626
	0.01156645	-0.00543356	1.771733e-08	2.132213e-07	0.01464765	-0.02032995	-4.879044e-09	3.116142e-08
	-1.183583e-08	-3.304536e-09	0.01216536	-0.004084626	-4.879044e-09	3.116142e-08	0.01612596	-0.01702672
