!$
! Info: Touchstone file created by Circ.  Input file=Tx_4in_Rx_93ohms_TxVia_35mils_RxVia_45mils.circ
!$
# Hz S RI R 50
0	0.003793744	6.871557e-26	0.9960654	-6.561548e-26	4.046219e-05	7.152709e-24	-3.854109e-05	2.062983e-21
	0.9960654	-6.721693e-26	0.003792652	7.87961e-26	-3.891321e-05	2.108582e-21	4.088428e-05	8.49971e-24
	3.862681e-05	7.345336e-24	-3.904121e-05	2.124301e-21	0.003806418	6.551778e-26	0.9960495	-6.179405e-26
	-3.892175e-05	2.109643e-21	3.903741e-05	8.541758e-24	0.9960495	-6.170356e-26	0.003805858	7.380748e-26
1e+07	0.005561379	8.292892e-05	0.9933179	-0.04416454	0.0001064616	0.0009020606	-6.743099e-05	-9.378804e-05
	0.9933179	-0.04416454	0.005557886	8.261983e-05	-6.743671e-05	-9.37763e-05	0.0001050132	0.000902397
	0.0001064022	0.0009020644	-6.74951e-05	-9.376664e-05	0.005464686	8.136198e-05	0.9934105	-0.044258
	-6.748938e-05	-9.377839e-05	0.0001049534	0.0009024071	0.9934105	-0.044258	0.005460616	8.118237e-05
2e+07	0.006701156	-0.001141899	0.9891233	-0.08679157	0.0001987168	0.001810889	-4.839794e-05	-0.0002043435
	0.9891233	-0.08679157	0.0066872	-0.001141819	-4.841202e-05	-0.000204342	0.0001930646	0.001812058
	0.0001987046	0.001810926	-4.842626e-05	-0.0002043007	0.006629093	-0.00110484	0.9891793	-0.08701791
	-4.841422e-05	-0.0002043012	0.0001930565	0.001812092	0.9891793	-0.08701791	0.006612907	-0.001104337
3e+07	0.007389194	-0.002853833	0.9834625	-0.1286961	0.0003960533	0.002673791	-6.393121e-05	-0.0002849613
	0.9834625	-0.1286961	0.007358155	-0.002851365	-6.398046e-05	-0.0002849456	0.0003835873	0.0026766
	0.0003960558	0.002673796	-6.397898e-05	-0.000284939	0.007337165	-0.002805577	0.9834789	-0.1290272
	-6.392981e-05	-0.0002849544	0.0003835873	0.002676605	0.9834789	-0.1290272	0.007301251	-0.002802033
4e+07	0.00776233	-0.004752481	0.9762085	-0.1701104	0.0006857061	0.003502495	-0.0001031114	-0.0003536709
	0.9762085	-0.1701104	0.007707678	-0.004745217	-0.0001031906	-0.0003536331	0.0006639336	0.003508041
	0.0006857012	0.003502491	-0.0001031967	-0.000353638	0.007728022	-0.004700359	0.9761796	-0.1705375
	-0.0001031178	-0.0003536765	0.0006639282	0.003508039	0.9761796	-0.1705375	0.007664888	-0.004690986
5e+07	0.007870098	-0.006749878	0.9673289	-0.2110427	0.001040498	0.004296564	-0.0001412727	-0.0004169004
	0.9673289	-0.2110427	0.007785516	-0.006734276	-0.0001413894	-0.0004168378	0.001007086	0.004306282
	0.001040494	0.004296562	-0.0001413946	-0.0004168397	0.007851769	-0.006698328	0.9672489	-0.2115593
	-0.0001412782	-0.0004169025	0.001007082	0.004306281	0.9672489	-0.2115593	0.007754155	-0.006679015
6e+07	0.00773809	-0.008796056	0.9568194	-0.2514628	0.001457643	0.005051712	-0.0001791082	-0.0004767449
	0.9568194	-0.2514628	0.007617924	-0.008767761	-0.0001792709	-0.0004766462	0.001410466	0.005067323
	0.001457647	0.005051712	-0.0001792662	-0.0004766459	0.007734127	-0.008748415	0.9566825	-0.2520633
	-0.000179103	-0.0004767444	0.001410468	0.005067321	0.9566825	-0.2520633	0.007595563	-0.008714113
7e+07	0.007382926	-0.01085565	0.9446878	-0.2913257	0.001933737	0.005763309	-0.0002171448	-0.0005344188
	0.9446878	-0.2913257	0.007222096	-0.01080977	-0.0002173562	-0.0005342683	0.001870887	0.005786776
	0.001933748	0.005763306	-0.0002173413	-0.0005342707	0.007391696	-0.0108147	0.944488	-0.2920046
	-0.0002171285	-0.0005344213	0.001870895	0.005786772	0.944488	-0.2920046	0.007206372	-0.01075975
8e+07	0.006817585	-0.01290019	0.9309485	-0.3305794	0.002464859	0.006426704	-0.0002557843	-0.0005907711
	0.9309485	-0.3305794	0.006611475	-0.01283128	-0.0002560413	-0.0005905526	0.002384655	0.006460221
	0.002464874	0.006426698	-0.0002560224	-0.0005905595	0.006837346	-0.01286843	0.9306803	-0.3313309
	-0.0002557636	-0.0005907785	0.002384665	0.006460215	0.9306803	-0.3313309	0.006599972	-0.01278658
9e+07	0.006054118	-0.01490423	0.915621	-0.3691697	0.003046595	0.007037399	-0.0002954132	-0.0006464803
	0.915621	-0.3691697	0.005798609	-0.01480624	-0.0002957084	-0.0006461788	0.002947598	0.007083376
	0.003046606	0.007037392	-0.0002956944	-0.0006461867	0.006082904	-0.01488417	0.9152789	-0.3699875
	-0.0002953979	-0.000646489	0.002947605	0.007083371	0.9152789	-0.3699875	0.00578874	-0.01476842
1e+08	0.005108881	-0.01683578	0.8987241	-0.4070501	0.003674089	0.007591029	-0.000336499	-0.0007019524
	0.8987241	-0.4070501	0.004800479	-0.01670204	-0.0003368208	-0.0007015543	0.003555127	0.007652082
	0.003674089	0.007591029	-0.0003368208	-0.0007015542	0.005143834	-0.01683129	0.8983038	-0.4079261
	-0.000336499	-0.0007019524	0.003555127	0.007652082	0.8983038	-0.4079261	0.004788846	-0.01667392
1.1e+08	0.004027741	-0.01872731	0.8802542	-0.4441157	0.004340626	0.008084518	-0.0003792124	-0.000757713
	0.8802542	-0.4441157	0.003666362	-0.01854912	-0.0003795518	-0.0007571931	0.00420111	0.00816327
	0.004340626	0.008084518	-0.0003795518	-0.0007571931	0.004062921	-0.01873531	0.8797575	-0.4450473
	-0.0003792124	-0.000757713	0.00420111	0.00816327	0.8797575	-0.4450473	0.003645852	-0.01852674
1.2e+08	0.002761787	-0.02055056	0.8602998	-0.4803119	0.005042183	0.008514999	-0.0004248718	-0.0008148888
	0.8602998	-0.4803119	0.002345257	-0.02032206	-0.0004252137	-0.0008142407	0.004881499	0.008614332
	0.005042183	0.008514999	-0.0004252137	-0.0008142407	0.002796652	-0.02056971	0.8597201	-0.4812968
	-0.0004248718	-0.0008148888	0.004881499	0.008614332	0.8597201	-0.4812968	0.002315498	-0.02030245
1.3e+08	0.001328335	-0.0222774	0.8388915	-0.5155948	0.005772932	0.008879433	-0.0004743178	-0.0008732883
	0.8388915	-0.5155948	0.0008550879	-0.02199169	-0.0004746467	-0.0008725053	0.005590821	0.00900234
	0.005772932	0.008879433	-0.0004746466	-0.0008725053	0.001361573	-0.0223075	0.8382232	-0.5166283
	-0.0004743178	-0.0008732883	0.005590821	0.00900234	0.8382232	-0.5166283	0.0008150722	-0.02197328
1.4e+08	-0.0002591121	-0.02389163	0.8160667	-0.5499106	0.006526761	0.009175499	-0.0005283346	-0.0009327494
	0.8160667	-0.5499106	-0.0007897321	-0.0235411	-0.0005286333	-0.0009318257	0.00632333	0.009325038
	0.006526761	0.009175499	-0.0005286333	-0.0009318257	-0.0002288672	-0.02393237	0.8153046	-0.5509874
	-0.0005283346	-0.0009327494	0.00632333	0.009325038	0.8153046	-0.5509874	-0.0008410049	-0.02352237
1.5e+08	-0.001987423	-0.02537988	0.7918662	-0.5832056	0.007297374	0.009401467	-0.0005876744	-0.0009930031
	0.7918662	-0.5832056	-0.002575014	-0.02495647	-0.0005879244	-0.0009919342	0.007073093	0.009580718
	0.007297374	0.009401467	-0.0005879244	-0.0009919342	-0.001961436	-0.02543079	0.7910053	-0.5843196
	-0.0005876744	-0.0009930031	0.007073093	0.009580718	0.7910053	-0.5843196	-0.002638407	-0.02493587
1.6e+08	-0.003843351	-0.02673056	0.7663332	-0.6154268	0.008078347	0.009556195	-0.0006530526	-0.001053662
	0.7663332	-0.6154268	-0.004486407	-0.02622606	-0.0006532336	-0.001052445	0.007834051	0.009768223
	0.008078347	0.009556195	-0.0006532335	-0.001052445	-0.003822743	-0.02679109	0.7653693	-0.6165716
	-0.0006530526	-0.001053662	0.007834051	0.009768223	0.7653693	-0.6165716	-0.0045626	-0.02620198
1.7e+08	-0.005813379	-0.02793356	0.7395137	-0.6465227	0.008863188	0.009639133	-0.0007251374	-0.001114221
	0.7395137	-0.6465227	-0.006509308	-0.02733978	-0.0007252272	-0.001112855	0.008600071	0.009886947
	0.008863188	0.009639133	-0.0007252272	-0.001112855	-0.005799144	-0.0280031	0.7384428	-0.6476917
	-0.0007251374	-0.001114221	0.008600071	0.009886947	0.7384428	-0.6476917	-0.006598782	-0.0273106
1.8e+08	-0.007883665	-0.02898007	0.7114559	-0.6764436	0.009645392	0.009650314	-0.0008045369	-0.001174057
	0.7114559	-0.6764436	-0.00862883	-0.02828906	-0.0008045124	-0.001172546	0.009365001	0.009936831
	0.009645392	0.009650314	-0.0008045124	-0.001172546	-0.007876684	-0.02905801	0.7102744	-0.6776295
	-0.0008045369	-0.001174057	0.009365001	0.009936831	0.7102744	-0.6776295	-0.008731872	-0.02825313
1.9e+08	-0.01004003	-0.02986256	0.6822101	-0.7051414	0.01041849	0.009590357	-0.0008917859	-0.001232443
	0.6822101	-0.7051414	-0.01082981	-0.02906669	-0.000891623	-0.001230792	0.01012272	0.009918365
	0.01041849	0.009590357	-0.000891623	-0.001230792	-0.01004111	-0.02994828	0.6809148	-0.7063371
	-0.0008917859	-0.001232443	0.01012272	0.009918365	0.6809148	-0.7063371	-0.01094653	-0.02902239
2e+08	-0.01226801	-0.03057478	0.6518286	-0.7325704	0.01117611	0.009460454	-0.0009873319	-0.001288547
	0.6518286	-0.7325704	-0.01309686	-0.02966686	-0.0009870065	-0.001286767	0.01086717	0.009832578
	0.01117611	0.009460454	-0.0009870065	-0.001286767	-0.0122779	-0.03066764	0.6504168	-0.7337684
	-0.0009873319	-0.001288547	0.01086717	0.009832578	0.6504168	-0.7337684	-0.0132272	-0.02961261
2.1e+08	-0.01455288	-0.03111169	0.6203656	-0.7586869	0.01191201	0.009262362	-0.001091522	-0.001341451
	0.6203656	-0.7586869	-0.0154144	-0.03008508	-0.001091011	-0.001339556	0.01159243	0.009681025
	0.01191201	0.009262362	-0.001091011	-0.001339556	-0.0145723	-0.03121107	0.6188352	-0.7598794
	-0.001091522	-0.001341451	0.01159243	0.009681025	0.6188352	-0.7598794	-0.01555815	-0.03001934
2.2e+08	-0.01687973	-0.03146951	0.5878772	-0.7834495	0.01262014	0.008998382	-0.001204593	-0.001390159
	0.5878772	-0.7834495	-0.01776676	-0.0303182	-0.001203873	-0.001388166	0.01229274	0.00946578
	0.01262014	0.008998382	-0.001203873	-0.001388166	-0.01690939	-0.03157476	0.5862263	-0.7846285
	-0.001204593	-0.001390159	0.01229274	0.00946578	0.5862263	-0.7846285	-0.01792356	-0.03023946
2.3e+08	-0.01923356	-0.03164568	0.5544209	-0.8068191	0.0132947	0.008671344	-0.001326657	-0.001433612
	0.5544209	-0.8068191	-0.02013821	-0.03036435	-0.001325707	-0.001431542	0.01296258	0.00918941
	0.0132947	0.008671344	-0.001325707	-0.001431542	-0.01927414	-0.03175613	0.5526483	-0.8079765
	-0.001326657	-0.001433612	0.01296258	0.00918941	0.5526483	-0.8079765	-0.02030758	-0.03027118
2.4e+08	-0.02159932	-0.0316389	0.520056	-0.828759	0.01393015	0.008284579	-0.001457697	-0.001470704
	0.520056	-0.828759	-0.02251306	-0.03022298	-0.001456499	-0.001468583	0.01359664	0.008854957
	0.01393015	0.008284579	-0.001456499	-0.001468583	-0.02165149	-0.03175381	0.5181607	-0.8298867
	-0.001457697	-0.001470704	0.01359664	0.008854957	0.5181607	-0.8298867	-0.0226944	-0.03011401
2.5e+08	-0.02396203	-0.03144906	0.4848429	-0.8492351	0.01452128	0.007841896	-0.001597558	-0.001500297
	0.4848429	-0.8492351	-0.02487578	-0.02989481	-0.001596097	-0.001498153	0.01418995	0.008465912
	0.01452128	0.007841896	-0.001596097	-0.001498153	-0.02402645	-0.03156766	0.4828246	-0.8503248
	-0.001597558	-0.001500297	0.01418995	0.008465912	0.4828246	-0.8503248	-0.02506835	-0.02976873
2.6e+08	-0.02630687	-0.03107727	0.4488435	-0.8682157	0.01506327	0.007347545	-0.001745941	-0.001521242
	0.4488435	-0.8682157	-0.02721104	-0.02938182	-0.001744205	-0.001519106	0.01473784	0.008026187
	0.01506327	0.007347545	-0.001744205	-0.001519106	-0.02638414	-0.03119871	0.4467023	-0.869259
	-0.001745941	-0.001521242	0.01473784	0.008026187	0.4467023	-0.869259	-0.02741399	-0.02923739
2.7e+08	-0.02861919	-0.03052582	0.4121207	-0.8856719	0.01555165	0.006806187	-0.001902404	-0.001532393
	0.4121207	-0.8856719	-0.0295038	-0.02868721	-0.001900386	-0.001530299	0.01523604	0.007540082
	0.01555165	0.006806187	-0.001900386	-0.001530299	-0.02870988	-0.0306492	0.4098571	-0.8866604
	-0.001902404	-0.001532393	0.01523604	0.007540082	0.4098571	-0.8866604	-0.02971618	-0.02852328
2.8e+08	-0.03088467	-0.02979814	0.3747386	-0.9015773	0.01598244	0.006222855	-0.00206636	-0.001532627
	0.3747386	-0.9015773	-0.03173942	-0.02781537	-0.002064057	-0.001530611	0.01568066	0.007012251
	0.01598244	0.006222855	-0.002064057	-0.001530611	-0.03098933	-0.02992248	0.3723537	-0.9025025
	-0.00206636	-0.001532627	0.01568066	0.007012251	0.3723537	-0.9025025	-0.0319602	-0.02763089
2.9e+08	-0.03308939	-0.02889878	0.3367619	-0.915908	0.01635209	0.005602912	-0.00223708	-0.001520865
	0.3367619	-0.915908	-0.03390375	-0.02677187	-0.002234493	-0.001518961	0.01606824	0.006447664
	0.01635209	0.005602912	-0.002234493	-0.001518961	-0.0332085	-0.02902305	0.3342574	-0.9167615
	-0.00223708	-0.001520865	0.01606824	0.006447664	0.3342574	-0.9167615	-0.03413177	-0.02656584
3e+08	-0.03521989	-0.02783338	0.2982565	-0.9286431	0.01665755	0.004952011	-0.002413693	-0.001496082
	0.2982565	-0.9286431	-0.03598318	-0.02556336	-0.00241083	-0.001494328	0.01639577	0.005851571
	0.01665755	0.004952011	-0.00241083	-0.001494328	-0.03535385	-0.02795646	0.2956345	-0.9294165
	-0.002413693	-0.001496082	0.01639577	0.005851571	0.2956345	-0.9294165	-0.03621723	-0.02533493
3.1e+08	-0.03726325	-0.02660861	0.2592887	-0.9397643	0.0168963	0.004276048	-0.002595201	-0.001457334
	0.2592887	-0.9397643	-0.03796477	-0.02419756	-0.002592073	-0.001455766	0.01666074	0.005229458
	0.0168963	0.004276048	-0.002592073	-0.001455766	-0.03741239	-0.02672934	0.2565517	-0.9404492
	-0.002595201	-0.001457334	0.01666074	0.005229458	0.2565517	-0.9404492	-0.03820354	-0.02394594
3.2e+08	-0.03920718	-0.02523211	0.2199256	-0.9492558	0.01706633	0.00358112	-0.00278048	-0.001403766
	0.2199256	-0.9492558	-0.03983628	-0.02268316	-0.002777103	-0.001402419	0.0168611	0.004587004
	0.01706633	0.00358112	-0.002777103	-0.001402419	-0.03937175	-0.02534926	0.2170767	-0.949844
	-0.00278048	-0.001403766	0.0168611	0.004587004	0.2170767	-0.949844	-0.04007839	-0.02240772
3.3e+08	-0.04104007	-0.02371246	0.1802344	-0.9571049	0.01716619	0.002873468	-0.002968293	-0.001334632
	0.1802344	-0.9571049	-0.04158626	-0.02102982	-0.002964689	-0.001333539	0.01699533	0.003930038
	0.01716619	0.002873468	-0.002964689	-0.001333539	-0.0412202	-0.02382477	0.1772772	-0.9575883
	-0.002968293	-0.001334632	0.01699533	0.003930038	0.1772772	-0.9575883	-0.04183027	-0.02073003
3.4e+08	-0.04275107	-0.0220591	0.1402831	-0.9633015	0.01719499	0.002159441	-0.003157305	-0.001249308
	0.1402831	-0.9633015	-0.04320412	-0.01924803	-0.003153501	-0.0012485	0.01706241	0.003264497
	0.01719499	0.002159441	-0.003153501	-0.0012485	-0.04294681	-0.02216526	0.1372216	-0.963672
	-0.003157305	-0.001249308	0.01706241	0.003264497	0.1372216	-0.963672	-0.04344855	-0.01892347
3.5e+08	-0.04433015	-0.02028228	0.1001395	-0.967838	0.0171524	0.001445434	-0.003346093	-0.001147304
	0.1001395	-0.967838	-0.04468019	-0.01734907	-0.00334212	-0.001146808	0.01706187	0.002596377
	0.0171524	0.001445434	-0.00334212	-0.001146808	-0.04454141	-0.02038097	0.09697832	-0.9680879
	-0.003346093	-0.001147304	0.01706187	0.002596377	0.09697832	-0.9680879	-0.04492351	-0.01699949
3.6e+08	-0.04576811	-0.01839299	0.05987184	-0.97071	0.01703865	0.0007378502	-0.003533166	-0.001028271
	0.05987184	-0.97071	-0.04600577	-0.01534494	-0.003529057	-0.001028111	0.01699373	0.001931689
	0.01703865	0.0007378502	-0.003529057	-0.001028111	-0.04599472	-0.01848284	0.05661596	-0.9708315
	-0.003533166	-0.001028271	0.01699373	0.001931689	0.05661596	-0.9708315	-0.04624642	-0.0149702
3.7e+08	-0.04705673	-0.01640286	0.01954827	-0.9719153	0.01685455	4.304369e-05	-0.003716976	-0.0008920156
	0.01954827	-0.9719153	-0.04717318	-0.01324826	-0.00371277	-0.0008922113	0.01685856	0.001276413
	0.01685455	4.304369e-05	-0.00371277	-0.0008922113	-0.04729838	-0.01648253	0.01620314	-0.9719012
	-0.003716976	-0.0008920156	0.01685856	0.001276413	0.01620314	-0.9719012	-0.04740957	-0.01284837
3.8e+08	-0.04818869	-0.01432414	-0.02076316	-0.9714549	0.01660145	-0.0006327254	-0.00389594	-0.0007385026
	-0.02076316	-0.9714549	-0.04817579	-0.0110722	-0.003891677	-0.0007390682	0.01665743	0.0006364569
	0.01660145	-0.0006327254	-0.003891677	-0.0007390682	-0.04844496	-0.01439226	-0.02419164	-0.9712979
	-0.00389594	-0.0007385026	0.01665743	0.0006364569	-0.02419164	-0.9712979	-0.04840635	-0.0106473
3.9e+08	-0.04915773	-0.01216956	-0.06099458	-0.9693322	0.01628125	-0.001283339	-0.004068457	-0.0005678596
	-0.06099458	-0.9693322	-0.04900808	-0.008830379	-0.004064182	-0.0005688041	0.01639194	1.760721e-05
	0.01628125	-0.001283339	-0.004064182	-0.0005688041	-0.04942807	-0.0122248	-0.06450004	-0.9690254
	-0.004068457	-0.0005678596	0.01639194	1.76072e-05	-0.06450004	-0.9690254	-0.04923123	-0.008380762
4e+08	-0.04995858	-0.009952301	-0.1010784	-0.9655534	0.01589638	-0.001902868	-0.004232928	-0.0003803796
	-0.1010784	-0.9655534	-0.04966565	-0.006536782	-0.004228683	-0.0003817064	0.01606417	-0.00057451
	0.01589638	-0.001902868	-0.004228683	-0.0003817064	-0.05024233	-0.009993356	-0.1046541	-0.9650903
	-0.004232928	-0.0003803796	0.01606417	-0.00057451	-0.1046541	-0.9650903	-0.04987983	-0.00606288
4.1e+08	-0.05058705	-0.007685889	-0.1409474	-0.9601273	0.01544978	-0.002485618	-0.004387769	-0.0001765207
	-0.1409474	-0.9601273	-0.05014524	-0.004205667	-0.004383601	-0.0001782275	0.01567669	-0.001134472
	0.01544978	-0.002485618	-0.004383601	-0.0001782275	-0.05088343	-0.007711483	-0.1445861	-0.9595016
	-0.004387769	-0.0001765207	0.01567669	-0.001134472	-0.1445861	-0.9595016	-0.05034893	-0.003708057
4.2e+08	-0.05104003	-0.005384114	-0.1805348	-0.9530655	0.01494488	-0.00302617	-0.004531439	4.3096e-05
	-0.1805348	-0.9530655	-0.05044475	-0.001851485	-0.004527392	4.101776e-05	0.01523252	-0.001657101
	0.01494488	-0.00302617	-0.004527392	4.101776e-05	-0.05134814	-0.005393022	-0.184229	-0.9522712
	-0.004531439	4.3096e-05	0.01523252	-0.001657101	-0.184229	-0.9522712	-0.05063649	-0.001330877
4.3e+08	-0.05131553	-0.003060942	-0.2197746	-0.944382	0.0143856	-0.003519423	-0.004662451	0.0002776917
	-0.2197746	-0.944382	-0.05056327	0.0005112325	-0.004658569	0.0002752564	0.01473513	-0.002137497
	0.0143856	-0.003519423	-0.004658569	0.0002752564	-0.05163434	-0.003052002	-0.2235163	-0.9434137
	-0.004662451	0.0002776917	0.01473513	-0.002137497	-0.2235163	-0.9434137	-0.05074164	0.001053992
4.4e+08	-0.05141263	-0.0007304426	-0.2586013	-0.9340936	0.01377624	-0.003960634	-0.004779391	0.0005263361
	-0.2586013	-0.9340936	-0.05050103	0.002867947	-0.004775716	0.000523564	0.01418839	-0.002571081
	0.01377624	-0.003960634	-0.004775716	0.000523564	-0.05174102	-0.0007025603	-0.2623821	-0.9329459
	-0.004779391	0.0005263361	0.01418839	-0.002571081	-0.2623821	-0.9329459	-0.05066468	0.003431882
4.5e+08	-0.05133152	0.00159331	-0.29695	-0.9222195	0.01312155	-0.004345451	-0.004880936	0.0007879563
	-0.29695	-0.9222195	-0.05025942	0.005204218	-0.004877508	0.0007848733	0.01359657	-0.002953624
	0.01312155	-0.004345451	-0.004877508	0.0007848733	-0.05166828	0.001641149	-0.3007614	-0.9208878
	-0.004880936	0.0007879563	0.01359657	-0.002953624	-0.3007614	-0.9208878	-0.05040711	0.005788232
4.6e+08	-0.05107354	0.003896316	-0.3347572	-0.9087815	0.01242664	-0.004669948	-0.004965871	0.001061347
	-0.3347572	-0.9087815	-0.04984101	0.007505787	-0.004962725	0.001057985	0.01296428	-0.00328128
	0.01242664	-0.004669948	-0.004962725	0.001057985	-0.05141733	0.003965055	-0.33859	-0.9072613
	-0.004965871	0.001061347	0.01296428	-0.00328128	-0.33859	-0.9072613	-0.04997159	0.008108686
4.7e+08	-0.05064106	0.006164736	-0.3719597	-0.8938039	0.01169693	-0.004930656	-0.005033098	0.001345185
	-0.3719597	-0.8938039	-0.04924947	0.009758669	-0.005030267	0.001341579	0.01229645	-0.003550612
	0.01169693	-0.004930656	-0.005030267	0.001341579	-0.05099047	0.006255202	-0.3758049	-0.8920913
	-0.005033098	0.001345185	0.01229645	-0.003550612	-0.3758049	-0.8920913	-0.04936187	0.01037914
4.8e+08	-0.05003757	0.008384973	-0.4084959	-0.8773134	0.01093814	-0.005124588	-0.005081654	0.00163804
	-0.4084959	-0.8773134	-0.04848957	0.01194924	-0.005079165	0.001634232	0.0115983	-0.003758624
	0.01093814	-0.005124588	-0.005079165	0.001634232	-0.05039109	0.008497885	-0.4123437	-0.875405
	-0.005081654	0.00163804	0.0115983	-0.003758624	-0.4123437	-0.875405	-0.04858285	0.01258586
4.9e+08	-0.04926758	0.01054375	-0.4443049	-0.8593391	0.01015625	-0.005249264	-0.005110718	0.001938394
	-0.4443049	-0.8593391	-0.04756715	0.01406432	-0.005108592	0.001934427	0.01087529	-0.003902777
	0.01015625	-0.005249264	-0.005108592	0.001934427	-0.04962363	0.01067972	-0.4481457	-0.8572319
	-0.005110718	0.001938394	0.01087529	-0.003902777	-0.4481457	-0.8572319	-0.04764049	0.01471559
5e+08	-0.04833666	0.01262822	-0.4793273	-0.8399127	0.009357424	-0.00530273	-0.005119622	0.002244653
	-0.4793273	-0.8399127	-0.04648908	0.01609125	-0.005117876	0.002240575	0.01013309	-0.003981011
