!$
! Info: Touchstone file created by Circ.  Input file=Tx_4in_Rx_85ohms_TxVia_35mils_RxVia_45mils.circ
!$
# Hz S RI R 50
0	0.003345439	6.889661e-26	1.778634e-08	7.410201e-27	4.055627e-05	6.294972e-24	3.461637e-08	1.670492e-27
	1.778636e-08	7.408958e-27	0.003344349	7.901023e-26	3.454193e-08	2.660516e-26	4.097861e-05	7.479943e-24
	3.872112e-05	6.464532e-24	3.454194e-08	2.66055e-26	0.003358131	6.569004e-26	2.111138e-08	8.771604e-27
	3.461637e-08	1.671159e-27	3.913183e-05	7.516984e-24	2.111138e-08	8.772779e-27	0.003357562	7.400749e-26
1e+07	0.004551173	-0.003400435	2.561487e-08	5.134188e-08	0.0001076783	0.0008963091	7.081005e-08	1.537072e-07
	2.561488e-08	5.134188e-08	0.004546669	-0.003400478	5.691192e-08	1.593096e-07	0.000106149	0.0008966447
	0.000107619	0.0008963131	5.691192e-08	1.593095e-07	0.004553407	-0.003390206	3.021016e-08	6.136788e-08
	7.081005e-08	1.537072e-07	0.0001060892	0.000896655	3.021016e-08	6.136788e-08	0.004548328	-0.003390152
2e+07	0.005301378	-0.007919367	3.834675e-08	9.265303e-08	0.00024421	0.001760606	1.251711e-07	2.730233e-07
	3.834674e-08	9.265303e-08	0.005283524	-0.007918455	7.501482e-08	2.910357e-07	0.0002382224	0.001761796
	0.0002441982	0.001760644	7.501482e-08	2.910357e-07	0.005308259	-0.007895324	4.536038e-08	1.10628e-07
	1.251709e-07	2.730233e-07	0.0002382146	0.00176183	4.536038e-08	1.10628e-07	0.005288169	-0.007894042
3e+07	0.005286393	-0.01295963	5.214573e-08	1.31127e-07	0.0004516568	0.002602161	1.925138e-07	3.808878e-07
	5.214573e-08	1.31127e-07	0.005246711	-0.01295521	8.576525e-08	4.192698e-07	0.0004384564	0.002605077
	0.0004516594	0.002602167	8.576525e-08	4.192698e-07	0.005297835	-0.01292551	6.172692e-08	1.565098e-07
	1.925138e-07	3.808878e-07	0.0004384564	0.002605082	6.172692e-08	1.565098e-07	0.005253267	-0.01292007
4e+07	0.004658521	-0.01812661	6.816636e-08	1.671348e-07	0.0007293532	0.003416856	2.757342e-07	4.769215e-07
	6.816637e-08	1.671348e-07	0.004588722	-0.01811545	9.329754e-08	5.460597e-07	0.0007063163	0.003422698
	0.0007293483	0.003416852	9.329754e-08	5.460597e-07	0.004674657	-0.01808381	8.069131e-08	1.995058e-07
	2.757342e-07	4.769215e-07	0.0007063109	0.003422696	8.069131e-08	1.995058e-07	0.004596371	-0.01807059
5e+07	0.003478813	-0.02329899	8.628391e-08	2.004949e-07	0.001074648	0.004198939	3.737251e-07	5.593059e-07
	8.628391e-08	2.004949e-07	0.003370944	-0.02327651	9.82967e-08	6.71898e-07	0.001039327	0.004209254
	0.001074644	0.004198938	9.82967e-08	6.71898e-07	0.003499727	-0.02324863	1.021527e-07	2.393817e-07
	3.737251e-07	5.593059e-07	0.001039323	0.004209253	1.021527e-07	2.393817e-07	0.00337884	-0.02322246
6e+07	0.00178463	-0.02840062	1.062327e-07	2.311143e-07	0.001484079	0.004942786	4.848455e-07	6.266773e-07
	1.062327e-07	2.311143e-07	0.001631551	-0.02836118	1.010044e-07	7.973826e-07	0.001434255	0.004959424
	0.001484083	0.004942786	1.010044e-07	7.973826e-07	0.001810282	-0.0283437	1.257901e-07	2.760027e-07
	4.848455e-07	6.266773e-07	0.001434257	0.004959423	1.257901e-07	2.760027e-07	0.001638849	-0.02829824
7e+07	-0.0003945878	-0.03337305	1.277624e-07	2.588927e-07	0.001953688	0.005643038	6.074147e-07	6.777991e-07
	1.277625e-07	2.588927e-07	-0.000599272	-0.03331028	1.016703e-07	9.230266e-07	0.001887379	0.005668112
	0.0019537	0.005643035	1.016703e-07	9.230266e-07	-0.0003643559	-0.03331044	1.512881e-07	3.092537e-07
	6.074147e-07	6.777991e-07	0.001887387	0.005668108	1.512881e-07	3.092538e-07	-0.0005934389	-0.03323856
8e+07	-0.003031889	-0.03816715	1.50616e-07	2.836956e-07	0.002479053	0.006294684	7.396579e-07	7.114568e-07
	1.506161e-07	2.836956e-07	-0.003293915	-0.03807395	1.005473e-07	1.049212e-06	0.002394528	0.006330547
	0.002479068	0.006294677	1.005473e-07	1.049212e-06	-0.002997336	-0.03809965	1.78335e-07	3.389962e-07
	7.396579e-07	7.114568e-07	0.002394537	0.00633054	1.78335e-07	3.389962e-07	-0.003290455	-0.03799339
9e+07	-0.006100531	-0.04273992	1.745056e-07	3.053698e-07	0.003055339	0.006893247	8.796311e-07	7.265013e-07
	1.745056e-07	3.053698e-07	-0.006424932	-0.04260844	9.786355e-08	1.176219e-06	0.002951134	0.006942479
	0.003055349	0.006893239	9.786356e-08	1.176219e-06	-0.006062006	-0.04266828	2.065973e-07	3.65072e-07
	8.796311e-07	7.265013e-07	0.002951141	0.006942474	2.065973e-07	3.65072e-07	-0.006424778	-0.04251884
1e+08	-0.009573478	-0.04705442	1.991059e-07	3.237655e-07	0.003677806	0.007435945	1.025199e-06	7.219265e-07
	1.991059e-07	3.237655e-07	-0.00996446	-0.04687602	9.381273e-08	1.304268e-06	0.003552759	0.007501336
	0.003677806	0.007435945	9.381273e-08	1.304268e-06	-0.009531475	-0.04697943	2.357077e-07	3.873213e-07
	1.025199e-06	7.219265e-07	0.003552759	0.007501336	2.357077e-07	3.873213e-07	-0.009968596	-0.04677711
1.1e+08	-0.01342634	-0.05107749	2.239892e-07	3.38896e-07	0.004344696	0.007914247	1.17374e-06	6.9717e-07
	2.239892e-07	3.38896e-07	-0.01388436	-0.05084138	8.875191e-08	1.433691e-06	0.004198234	0.007998574
	0.004344696	0.007914247	8.875191e-08	1.433691e-06	-0.01337993	-0.05099861	2.651628e-07	4.056775e-07
	1.17374e-06	6.9717e-07	0.004198234	0.007998574	2.651628e-07	4.056775e-07	-0.01389302	-0.05073174
1.2e+08	-0.01762219	-0.05476627	2.487861e-07	3.507493e-07	0.005043522	0.008324671	1.323082e-06	6.519334e-07
	2.487861e-07	3.507493e-07	-0.01814956	-0.05446448	8.264767e-08	1.564786e-06	0.004875065	0.008431005
	0.005043522	0.008324671	8.264767e-08	1.564786e-06	-0.01757234	-0.05468472	2.945144e-07	4.201696e-07
	1.323082e-06	6.519334e-07	0.004875065	0.008431005	2.945144e-07	4.201696e-07	-0.01816349	-0.05434369
1.3e+08	-0.0221277	-0.05809586	2.731496e-07	3.593219e-07	0.00576845	0.00866639	1.4709e-06	5.860065e-07
	2.731496e-07	3.593219e-07	-0.02272585	-0.05771931	7.579538e-08	1.697767e-06	0.005577812	0.00879791
	0.00576845	0.00866639	7.579538e-08	1.697767e-06	-0.02207555	-0.05801231	3.233536e-07	4.307981e-07
	1.4709e-06	5.860065e-07	0.005577812	0.00879791	3.233536e-07	4.307981e-07	-0.02274584	-0.05758668
1.4e+08	-0.02690823	-0.06104307	2.967199e-07	3.646417e-07	0.00651302	0.008937874	1.61482e-06	4.994107e-07
	2.967199e-07	3.646417e-07	-0.02757741	-0.06058197	6.849515e-08	1.832804e-06	0.006300407	0.009097819
	0.00651302	0.008937874	6.849515e-08	1.832804e-06	-0.02685485	-0.06095773	3.512579e-07	4.375998e-07
	1.61482e-06	4.994107e-07	0.006300407	0.009097819	3.512579e-07	4.375998e-07	-0.02760413	-0.06043653
1.5e+08	-0.03192823	-0.0635877	3.191303e-07	3.667723e-07	0.007270593	0.00913805	1.752451e-06	3.924165e-07
	3.191303e-07	3.667723e-07	-0.03266737	-0.06303186	6.104868e-08	1.970022e-06	0.007036606	0.009329671
	0.007270593	0.00913805	6.104868e-08	1.970022e-06	-0.0318745	-0.06350048	3.777978e-07	4.406533e-07
	1.752451e-06	3.924165e-07	0.007036606	0.009329671	3.777978e-07	4.406533e-07	-0.03270125	-0.06287245
1.6e+08	-0.03715131	-0.06571265	3.400134e-07	3.65816e-07	0.008034461	0.009266418	1.881415e-06	2.655515e-07
	3.400134e-07	3.65816e-07	-0.03795796	-0.06505177	5.375918e-08	2.109512e-06	0.007780094	0.009492937
	0.008034461	0.009266418	5.375918e-08	2.109512e-06	-0.03709792	-0.0656233	4.025436e-07	4.40082e-07
	1.881415e-06	2.655515e-07	0.007780094	0.009492937	4.025436e-07	4.40082e-07	-0.03799922	-0.06487709
1.7e+08	-0.04254034	-0.06740395	3.590068e-07	3.619158e-07	0.008797929	0.009323084	1.999379e-06	1.196005e-07
	3.590068e-07	3.619158e-07	-0.04341071	-0.06662786	4.693157e-08	2.251333e-06	0.00852456	0.009587652
	0.008797929	0.009323084	4.693157e-08	2.251333e-06	-0.04248785	-0.06731214	4.250723e-07	4.360565e-07
	1.999379e-06	1.196005e-07	0.00852456	0.009587652	4.250723e-07	4.360565e-07	-0.04345933	-0.06643659
1.8e+08	-0.04805768	-0.06865079	3.757586e-07	3.552551e-07	0.009554377	0.009308763	2.104088e-06	-4.439915e-08
	3.757586e-07	3.552551e-07	-0.04898668	-0.06774966	4.087222e-08	2.395512e-06	0.009263761	0.009614416
	0.009554377	0.009308763	4.087222e-08	2.395512e-06	-0.04800649	-0.06855616	4.449738e-07	4.287943e-07
	2.104088e-06	-4.439915e-08	0.009263762	0.009614416	4.449738e-07	4.287943e-07	-0.04904243	-0.06754045
1.9e+08	-0.05366529	-0.06944552	3.899331e-07	3.460573e-07	0.01029732	0.009224763	2.193391e-06	-2.251669e-07
	3.899331e-07	3.460573e-07	-0.05464661	-0.06841	3.588812e-08	2.542044e-06	0.009991581	0.009574384
	0.01029732	0.009224763	3.588812e-08	2.542044e-06	-0.05361572	-0.06934773	4.618576e-07	4.18559e-07
	2.193391e-06	-2.251669e-07	0.009991581	0.009574383	4.618576e-07	4.18559e-07	-0.05470907	-0.06818156
2e+08	-0.05932502	-0.06978369	4.012155e-07	3.34584e-07	0.01102048	0.009072967	2.265267e-06	-4.211911e-07
	4.012155e-07	3.34584e-07	-0.06035123	-0.06860504	3.228533e-08	2.690891e-06	0.01070208	0.009469248
	0.01102048	0.009072967	3.228533e-08	2.690891e-06	-0.05927731	-0.06968239	4.753581e-07	4.056582e-07
	2.265267e-06	-4.211911e-07	0.01070208	0.009469248	4.753581e-07	4.056582e-07	-0.06041978	-0.0683561
2.1e+08	-0.06499879	-0.06966396	4.093171e-07	3.211328e-07	0.0117178	0.008855809	2.317853e-06	-6.307444e-07
	4.093171e-07	3.211328e-07	-0.06606139	-0.0683342	3.036701e-08	2.841985e-06	0.01138953	0.009301212
	0.0117178	0.008855809	3.036701e-08	2.841985e-06	-0.06495313	-0.06955885	4.851405e-07	3.904409e-07
	2.317853e-06	-6.307444e-07	0.01138953	0.009301212	4.851405e-07	3.904409e-07	-0.06613527	-0.06806358
2.2e+08	-0.07064881	-0.06908811	4.139787e-07	3.060346e-07	0.01238354	0.008576238	2.349461e-06	-8.519012e-07
	4.139787e-07	3.060346e-07	-0.07173838	-0.06760008	3.043075e-08	2.995222e-06	0.0120485	0.009072964
	0.01238354	0.008576238	3.043075e-08	2.995222e-06	-0.0706054	-0.06897888	4.909047e-07	3.732938e-07
	2.349461e-06	-8.519012e-07	0.0120485	0.009072964	4.909047e-07	3.732938e-07	-0.07181668	-0.0673067
2.3e+08	-0.07623785	-0.06806097	4.149751e-07	2.896499e-07	0.01301226	0.008237687	2.358599e-06	-1.082557e-06
	4.149751e-07	2.896499e-07	-0.07734408	-0.06640843	3.276572e-08	3.150468e-06	0.01267383	0.00878764
	0.01301226	0.008237687	3.276572e-08	3.150468e-06	-0.07619683	-0.06794731	4.923905e-07	3.546379e-07
	2.358599e-06	-1.082557e-06	0.01267383	0.00878764	4.923905e-07	3.546379e-07	-0.07742576	-0.0660913
2.4e+08	-0.08172943	-0.06659031	4.121182e-07	2.723658e-07	0.01359893	0.007844034	2.34399e-06	-1.32045e-06
	4.121182e-07	2.723658e-07	-0.08284126	-0.06476806	3.764923e-08	3.307554e-06	0.01326074	0.008448793
	0.01359893	0.007844034	3.764923e-08	3.307554e-06	-0.08169096	-0.06647192	4.893806e-07	3.349242e-07
	2.34399e-06	-1.32045e-06	0.01326074	0.008448793	4.893806e-07	3.349242e-07	-0.08292516	-0.06442628
2.5e+08	-0.08708806	-0.06468681	4.052596e-07	2.545915e-07	0.0141389	0.00739956	2.304584e-06	-1.563183e-06
	4.052596e-07	2.545915e-07	-0.08819375	-0.0626907	4.534331e-08	3.466279e-06	0.01380479	0.008060351
	0.0141389	0.00739956	4.534331e-08	3.466279e-06	-0.08705227	-0.06456336	4.817041e-07	3.146284e-07
	2.304584e-06	-1.563183e-06	0.01380479	0.008060351	4.817041e-07	3.146284e-07	-0.08827862	-0.0623235
2.6e+08	-0.09227943	-0.06236389	3.942936e-07	2.367544e-07	0.01462797	0.006908909	2.23957e-06	-1.808243e-06
	3.942936e-07	2.367544e-07	-0.09336669	-0.06019092	5.609103e-08	3.626412e-06	0.01430196	0.007626583
	0.01462797	0.006908909	5.609103e-08	3.626412e-06	-0.09224644	-0.06223504	4.692389e-07	2.942469e-07
	2.23957e-06	-1.808243e-06	0.01430196	0.007626583	4.692389e-07	2.942469e-07	-0.09345117	-0.05979765
2.7e+08	-0.0972706	-0.05963761	3.791585e-07	2.192951e-07	0.01506236	0.006377042	2.148386e-06	-2.053033e-06
	3.791585e-07	2.192951e-07	-0.0983267	-0.05728598	7.011284e-08	3.787692e-06	0.01474863	0.00715205
	0.01506236	0.006377042	7.011284e-08	3.787692e-06	-0.0972405	-0.059503	4.519143e-07	2.742909e-07
	2.148386e-06	-2.053033e-06	0.01474863	0.00715205	4.519143e-07	2.742909e-07	-0.09840936	-0.05686613
2.8e+08	-0.1020302	-0.05652652	3.598383e-07	2.026635e-07	0.01543882	0.005809191	2.03073e-06	-2.294887e-06
	3.598383e-07	2.026635e-07	-0.1030421	-0.0539957	8.76031e-08	3.949827e-06	0.01514164	0.006641573
	0.01543882	0.005809191	8.76031e-08	3.949827e-06	-0.1020031	-0.05638578	4.297116e-07	2.552818e-07
	2.03073e-06	-2.294887e-06	0.01514164	0.006641573	4.297116e-07	2.552818e-07	-0.1031214	-0.05354887
2.9e+08	-0.1065287	-0.05305155	3.363636e-07	1.873134e-07	0.01575455	0.00521082	1.886558e-06	-2.531102e-06
	3.363636e-07	1.873134e-07	-0.1074831	-0.05034225	1.087265e-07	4.112505e-06	0.01547825	0.006100186
	0.01575455	0.00521082	1.087265e-07	4.112505e-06	-0.1065046	-0.05290426	4.026658e-07	2.377452e-07
	1.886558e-06	-2.531102e-06	0.01547825	0.006100186	4.026658e-07	2.377452e-07	-0.1075575	-0.04986821
3e+08	-0.1107384	-0.04923578	3.088122e-07	1.736981e-07	0.01600727	0.004587572	1.716093e-06	-2.758958e-06
	3.088122e-07	1.736981e-07	-0.1116218	-0.04635006	1.336149e-07	4.275389e-06	0.01575621	0.005533097
	0.01600727	0.004587572	1.336149e-07	4.275389e-06	-0.1107172	-0.04908153	3.708658e-07	2.22206e-07
	1.716093e-06	-2.758958e-06	0.01575621	0.005533097	3.708658e-07	2.22206e-07	-0.1116897	-0.04584871
3.1e+08	-0.1146335	-0.04510431	2.773082e-07	1.622655e-07	0.01619519	0.003945231	1.519823e-06	-2.975747e-06
	2.773082e-07	1.622655e-07	-0.1154327	-0.04204556	1.623646e-07	4.438122e-06	0.01597372	0.004945648
	0.01619519	0.003945231	1.623646e-07	4.438122e-06	-0.1146153	-0.04494268	3.344541e-07	2.091825e-07
	1.519823e-06	-2.975747e-06	0.01597372	0.004945648	3.344541e-07	2.091825e-07	-0.1154925	-0.04151696
3.2e+08	-0.1181907	-0.04068412	2.420223e-07	1.534535e-07	0.01631707	0.003289674	1.298499e-06	-3.178791e-06
	2.420223e-07	1.534535e-07	-0.1188924	-0.03745703	1.950339e-07	4.600336e-06	0.01612945	0.004343274
	0.01631707	0.003289674	1.950339e-07	4.600336e-06	-0.1181753	-0.04051466	2.936261e-07	1.991814e-07
	1.298499e-06	-3.178791e-06	0.01612945	0.004343274	2.936261e-07	1.991814e-07	-0.1189424	-0.03690141
3.3e+08	-0.1213888	-0.03600379	2.031716e-07	1.476843e-07	0.01637214	0.00262683	1.053135e-06	-3.365474e-06
	2.031716e-07	1.476843e-07	-0.1219801	-0.03261442	2.316408e-07	4.76165e-06	0.01622253	0.003731466
	0.01637214	0.00262683	2.316408e-07	4.76165e-06	-0.1213761	-0.03582606	2.48629e-07	1.926927e-07
	1.053135e-06	-3.365474e-06	0.01622253	0.003731466	2.48629e-07	1.926927e-07	-0.1220186	-0.03203215
3.4e+08	-0.124209	-0.03109339	1.61016e-07	1.453611e-07	0.01636016	0.001962641	7.849966e-07	-3.533258e-06
	1.61016e-07	1.453611e-07	-0.1246774	-0.02754908	2.721617e-07	4.921676e-06	0.01625256	0.003115733
	0.01636016	0.001962641	2.721617e-07	4.921676e-06	-0.1241988	-0.03090696	1.997593e-07	1.901848e-07
	7.849966e-07	-3.533258e-06	0.01625256	0.003115733	1.997593e-07	1.901848e-07	-0.1247029	-0.02694071
3.5e+08	-0.126635	-0.02598425	1.158576e-07	1.468633e-07	0.01628138	0.001303016	4.955998e-07	-3.679713e-06
	1.158576e-07	1.468633e-07	-0.1269686	-0.02229365	3.165305e-07	5.080027e-06	0.0162196	0.002501568
	0.01628138	0.001303016	3.165305e-07	5.080027e-06	-0.1266271	-0.02578869	1.473629e-07	1.920981e-07
	4.955998e-07	-3.679713e-06	0.0162196	0.002501568	1.473629e-07	1.920981e-07	-0.1269794	-0.02165989
3.6e+08	-0.1286532	-0.02070878	6.803768e-08	1.525423e-07	0.01613656	0.0006537992	1.866979e-07	-3.802534e-06
	6.803768e-08	1.525423e-07	-0.1288407	-0.01688176	3.64638e-07	5.236318e-06	0.01612415	0.001894412
	0.01613656	0.0006537992	3.64638e-07	5.236318e-06	-0.1286472	-0.02050368	9.183043e-08	1.988421e-07
	1.866979e-07	-3.802534e-06	0.01612415	0.001894412	9.183043e-08	1.988421e-07	-0.1288351	-0.01622348
3.7e+08	-0.1302524	-0.01530026	1.793427e-08	1.627175e-07	0.01592692	2.072873e-05	-1.397284e-07	-3.899563e-06
	1.793427e-08	1.627175e-07	-0.1302833	-0.01134787	4.163323e-07	5.390173e-06	0.01596717	0.001299622
	0.01592692	2.072873e-05	4.163323e-07	5.390173e-06	-0.130248	-0.01508523	3.359442e-08	2.107904e-07
	-1.397284e-07	-3.899563e-06	0.01596717	0.001299622	3.359442e-08	2.107904e-07	-0.1302599	-0.01066611
3.8e+08	-0.1314242	-0.009792622	-3.404104e-08	1.776731e-07	0.01565416	-0.0005905972	-4.814832e-07	-3.968813e-06
	-3.404104e-08	1.776731e-07	-0.1312889	-0.005727053	4.714193e-07	5.541228e-06	0.01575003	0.0007224395
	0.01565416	-0.0005905972	4.714193e-07	5.541228e-06	-0.1314211	-0.009567303	-2.687381e-08	2.282767e-07
	-4.814832e-07	-3.968813e-06	0.01575003	0.0007224395	-2.687381e-08	2.282767e-07	-0.1312463	-0.005022991
3.9e+08	-0.1321628	-0.004220266	-8.74466e-08	1.976546e-07	0.01532043	-0.001174754	-8.3617e-07	-4.008484e-06
	-8.74466e-08	1.976546e-07	-0.1318528	-5.474626e-05	5.296645e-07	5.68914e-06	0.01547453	0.0001679607
	0.01532043	-0.001174754	5.296645e-07	5.68914e-06	-0.1321606	-0.00398433	-8.906797e-08	2.515912e-07
	-8.3617e-07	-4.008484e-06	0.01547453	0.0001679607	-8.906797e-08	2.515912e-07	-0.1317896	0.0006702727
4e+08	-0.1324653	0.001382141	-1.418144e-07	2.228659e-07	0.01492832	-0.001726524	-1.201207e-06	-4.016983e-06
	-1.418144e-07	2.228659e-07	-0.1319732	0.005633427	5.907945e-07	5.833588e-06	0.01514285	-0.0003588923
	0.01492832	-0.001726524	5.907945e-07	5.833588e-06	-0.1324634	0.001628985	-1.52451e-07	2.809774e-07
	-1.201207e-06	-4.016983e-06	0.01514285	-0.0003588923	-1.52451e-07	2.809774e-07	-0.1318882	0.006377922
4.1e+08	-0.1323313	0.006979885	-1.966541e-07	2.534668e-07	0.01448083	-0.002240925	-1.573846e-06	-3.992938e-06
	-1.966541e-07	2.534668e-07	-0.1316509	0.01130189	6.545003e-07	5.974275e-06	0.01475758	-0.0008533989
	0.01448083	-0.002240925	6.545003e-07	5.974275e-06	-0.1323293	0.007237885	-2.164592e-07	3.166289e-07
	-1.573846e-06	-3.992938e-06	0.01475758	-0.0008533989	-2.164592e-07	3.166289e-07	-0.131543	0.01206425
4.2e+08	-0.1317633	0.01253839	-2.514572e-07	2.895709e-07	0.01398136	-0.002713243	-1.951187e-06	-3.935219e-06
	-2.514572e-07	2.895709e-07	-0.1308896	0.01691532	7.204395e-07	6.11094e-06	0.01432167	-0.001311066
	0.01398136	-0.002713243	7.204395e-07	6.11094e-06	-0.1317605	0.01280775	-2.805072e-07	3.58687e-07
	-1.951187e-06	-3.935219e-06	0.01432167	-0.001311066	-2.805072e-07	3.58687e-07	-0.1307578	0.0176938
4.3e+08	-0.1307662	0.01802342	-3.057015e-07	3.31244e-07	0.01343369	-0.003139056	-2.330203e-06	-3.84295e-06
	-3.057015e-07	3.31244e-07	-0.1296958	0.02243885	7.882407e-07	6.243354e-06	0.01383842	-0.001727654
	0.01343369	-0.003139056	7.882407e-07	6.243354e-06	-0.1307622	0.01830429	-3.439924e-07	4.07239e-07
	-2.330203e-06	-3.84295e-06	0.01383842	-0.001727654	-3.439924e-07	4.07239e-07	-0.1295393	0.0232316
4.4e+08	-0.1293477	0.02340129	-3.588555e-07	3.785026e-07	0.01284195	-0.003514264	-2.707758e-06	-3.715519e-06
	-3.588555e-07	3.785026e-07	-0.1280787	0.02783828	8.575069e-07	6.371327e-06	0.01331146	-0.002099201
	0.01284195	-0.003514264	8.575069e-07	6.371327e-06	-0.129342	0.02369378	-4.063003e-07	4.623158e-07
	-2.707758e-06	-3.715519e-06	0.01331146	-0.002099201	-4.063003e-07	4.623158e-07	-0.1278969	0.02864334
4.5e+08	-0.1275183	0.02863905	-4.103829e-07	4.313132e-07	0.0122106	-0.003835115	-3.08063e-06	-3.552593e-06
	-4.103829e-07	4.313132e-07	-0.1260502	0.03308027	9.278202e-07	6.494712e-06	0.01274474	-0.002422043
	0.0122106	-0.003835115	9.278202e-07	6.494712e-06	-0.1275101	0.02894321	-4.668094e-07	5.238915e-07
	-3.08063e-06	-3.552593e-06	0.01274474	-0.002422043	-4.668094e-07	5.238915e-07	-0.1258425	0.03389563
4.6e+08	-0.1252906	0.03370465	-4.597477e-07	4.895915e-07	0.0115444	-0.004098224	-3.445534e-06	-3.354129e-06
	-4.597477e-07	4.895915e-07	-0.1236245	0.03813255	9.987464e-07	6.613402e-06	0.01214251	-0.002692843
	0.0115444	-0.004098224	9.987464e-07	6.613402e-06	-0.1252794	0.03402048	-5.248962e-07	5.918822e-07
	-3.445534e-06	-3.354129e-06	0.01214251	-0.002692843	-5.248962e-07	5.918822e-07	-0.1233906	0.0389561
4.7e+08	-0.1226799	0.03856718	-5.064183e-07	5.53203e-07	0.01084839	-0.004300602	-3.799148e-06	-3.120376e-06
	-5.064183e-07	5.53203e-07	-0.1208186	0.04296411	1.06984e-06	6.727336e-06	0.01150926	-0.002908605
	0.01084839	-0.004300602	1.06984e-06	6.727336e-06	-0.1226651	0.03889462	-5.79941e-07	6.661457e-07
	-3.799148e-06	-3.120376e-06	0.01150926	-0.002908605	-5.79941e-07	6.661457e-07	-0.1205585	0.0437937
4.8e+08	-0.1197038	0.043197	-5.498726e-07	6.219628e-07	0.01012787	-0.004439674	-4.138136e-06	-2.851889e-06
	-5.498726e-07	6.219628e-07	-0.1176518	0.04754536	1.140648e-06	6.8365e-06	0.01084974	-0.003066702
	0.01012787	-0.004439674	1.140648e-06	6.8365e-06	-0.1196849	0.04353594	-6.313324e-07	7.464819e-07
