!$
! Info: Touchstone file created by Circ.  Input file=Tx_4in_Rx_85ohms_TxVia_35mils_RxVia_45mils.circ
!$
# Hz S RI R 50
0	0.003346483	6.884459e-26	-2.189355e-05	3.893601e-24	4.162244e-05	6.197793e-24	-2.190585e-05	5.426549e-24
	-2.189356e-05	3.894385e-24	0.003344349	7.901023e-26	-2.1874e-05	1.55565e-24	4.097861e-05	7.479943e-24
	4.213273e-05	6.284445e-24	-2.187399e-05	1.55429e-24	0.00335893	6.691367e-26	-2.189205e-05	3.794455e-24
	-2.190586e-05	5.42709e-24	3.913183e-05	7.516984e-24	-2.189206e-05	3.795571e-24	0.003357562	7.400749e-26
1e+07	0.005092419	-0.003318991	-9.441808e-05	-1.572082e-05	7.637054e-05	0.0008938125	-6.656095e-05	3.770653e-05
	-9.441808e-05	-1.572082e-05	0.004546669	-0.003400478	-2.576629e-06	-6.420969e-06	0.000106149	0.0008966447
	7.640033e-05	0.0008938074	-2.576629e-06	-6.420969e-06	0.004572892	-0.003463458	-1.979704e-05	-7.542377e-06
	-6.656095e-05	3.770653e-05	0.0001060892	0.000896655	-1.979704e-05	-7.542378e-06	0.004548328	-0.003390152
2e+07	0.005796254	-0.007981039	-8.562452e-05	-2.482924e-06	0.0001946336	0.00178132	-6.731104e-05	3.351401e-05
	-8.562452e-05	-2.482923e-06	0.005283524	-0.007918455	-2.383937e-06	-2.054181e-06	0.0002382224	0.001761796
	0.0001946347	0.001781298	-2.383937e-06	-2.05418e-06	0.005262716	-0.008027232	-1.805091e-05	3.318227e-07
	-6.731104e-05	3.351401e-05	0.0002382146	0.00176183	-1.805091e-05	3.318222e-07	0.005288169	-0.007894042
3e+07	0.005744311	-0.01307049	-8.041415e-05	-9.272102e-06	0.0004114821	0.002630448	-6.548232e-05	3.892466e-05
	-8.041415e-05	-9.272102e-06	0.005246711	-0.01295521	-2.276648e-06	-9.111647e-07	0.0004384564	0.002605077
	0.0004114759	0.002630446	-2.276648e-06	-9.111646e-07	0.005200692	-0.01307802	-1.742915e-05	-2.331125e-06
	-6.548232e-05	3.892466e-05	0.0004384564	0.002605082	-1.742915e-05	-2.331125e-06	0.005253267	-0.01292007
4e+07	0.005083711	-0.01826734	-7.639842e-05	-1.253027e-05	0.0006973067	0.00344924	-6.171238e-05	4.488862e-05
	-7.639842e-05	-1.253027e-05	0.004588722	-0.01811545	-2.178811e-06	-2.77954e-07	0.0007063163	0.003422698
	0.0006973073	0.003449244	-2.178811e-06	-2.779542e-07	0.004533211	-0.01824369	-1.713832e-05	-3.883564e-06
	-6.171238e-05	4.488862e-05	0.0007063109	0.003422696	-1.713832e-05	-3.883564e-06	0.004596371	-0.01807059
5e+07	0.003874029	-0.0234601	-7.316017e-05	-1.424107e-05	0.001049855	0.004233505	-5.62821e-05	5.021173e-05
	-7.316017e-05	-1.424107e-05	0.003370944	-0.02327651	-2.083183e-06	1.575846e-07	0.001039327	0.004209254
	0.001049858	0.004233507	-2.083183e-06	1.575845e-07	0.003319239	-0.02340733	-1.709458e-05	-4.926803e-06
	-5.62821e-05	5.021173e-05	0.001039323	0.004209253	-1.709458e-05	-4.926803e-06	0.00337884	-0.02322246
6e+07	0.00215195	-0.02857602	-7.046338e-05	-1.504683e-05	0.001465839	0.004978192	-4.944224e-05	5.43466e-05
	-7.046338e-05	-1.504683e-05	0.001631551	-0.02836118	-1.986675e-06	4.929647e-07	0.001434255	0.004959424
	0.001465837	0.004978191	-1.986675e-06	4.929648e-07	0.001595175	-0.0284946	-1.724375e-05	-5.643869e-06
	-4.944224e-05	5.43466e-05	0.001434257	0.004959423	-1.724375e-05	-5.643869e-06	0.001638849	-0.02829824
7e+07	-5.340066e-05	-0.03355821	-6.814912e-05	-1.521031e-05	0.001941372	0.005678203	-4.146367e-05	5.689674e-05
	-6.814912e-05	-1.521031e-05	-0.000599272	-0.03331028	-1.959987e-06	5.101684e-07	0.001887379	0.005668112
	0.001941366	0.005678203	-1.959986e-06	5.101686e-07	-0.0006099725	-0.03344787	-1.754504e-05	-6.104751e-06
	-4.146367e-05	5.689674e-05	0.001887387	0.005668108	-1.754504e-05	-6.104751e-06	-0.0005934389	-0.03323856
8e+07	-0.002715188	-0.03835835	-6.608894e-05	-1.483533e-05	0.00247205	0.00632863	-3.266622e-05	5.748424e-05
	-6.608894e-05	-1.483533e-05	-0.003293915	-0.03807395	-1.974978e-06	4.133797e-07	0.002394528	0.006330547
	0.002472042	0.006328632	-1.974978e-06	4.133799e-07	-0.003269317	-0.03821814	-1.796184e-05	-6.337282e-06
	-3.266622e-05	5.748424e-05	0.002394537	0.00633054	-1.796184e-05	-6.337282e-06	-0.003290455	-0.03799339
9e+07	-0.005806621	-0.04293377	-6.415185e-05	-1.390965e-05	0.003052985	0.006924939	-2.347481e-05	5.561304e-05
	-6.415185e-05	-1.390965e-05	-0.006424932	-0.04260844	-1.996383e-06	3.358844e-07	0.002951134	0.006942479
	0.00305298	0.006924942	-1.996383e-06	3.358846e-07	-0.006355699	-0.04276172	-1.845844e-05	-6.346308e-06
	-2.347482e-05	5.561304e-05	0.002951141	0.006942474	-1.845844e-05	-6.346308e-06	-0.006424778	-0.04251884
1e+08	-0.009300017	-0.04724644	-6.205885e-05	-1.198851e-05	0.003679066	0.007463534	-1.487345e-05	4.954543e-05
	-6.205885e-05	-1.198851e-05	-0.00996446	-0.04687602	-2.024667e-06	2.623956e-07	0.003552759	0.007501336
	0.003679065	0.007463534	-2.024667e-06	2.623956e-07	-0.009839193	-0.04703572	-1.898797e-05	-6.081304e-06
	-1.487345e-05	4.954543e-05	0.003552759	0.007501336	-1.898797e-05	-6.081304e-06	-0.009968596	-0.04677711
1.1e+08	-0.01316592	-0.05126841	-6.184118e-05	-9.222651e-06	0.004345712	0.007938947	-4.310986e-07	3.947088e-05
	-6.184118e-05	-9.222651e-06	-0.01388436	-0.05084138	-2.024938e-06	2.001033e-07	0.004198234	0.007998574
	0.004345712	0.007938946	-2.024938e-06	2.001033e-07	-0.01367455	-0.05102863	-1.975929e-05	-5.587647e-06
	-4.310986e-07	3.947088e-05	0.004198234	0.007998574	-1.975929e-05	-5.587647e-06	-0.01389302	-0.05073174
1.2e+08	-0.01737531	-0.05495797	-6.190485e-05	-7.078721e-06	0.005044691	0.008347977	1.463328e-05	3.001008e-05
	-6.190485e-05	-7.078721e-06	-0.01814956	-0.05446448	-2.028016e-06	1.635316e-07	0.004875065	0.008431005
	0.005044691	0.008347977	-2.028016e-06	1.635316e-07	-0.01785751	-0.05470006	-2.0554e-05	-5.021289e-06
	1.463328e-05	3.001008e-05	0.004875065	0.008431005	-2.0554e-05	-5.021289e-06	-0.01816349	-0.05434369
1.3e+08	-0.02189441	-0.05828843	-6.203462e-05	-5.035998e-06	0.005769881	0.008688787	2.944135e-05	1.938578e-05
	-6.203462e-05	-5.035998e-06	-0.02272585	-0.05771931	-2.034058e-06	1.416853e-07	0.005577812	0.00879791
	0.005769881	0.008688787	-2.034058e-06	1.416853e-07	-0.02235259	-0.05801719	-2.13335e-05	-4.326551e-06
	2.944135e-05	1.938578e-05	0.005577812	0.00879791	-2.13335e-05	-4.326551e-06	-0.02274584	-0.05758668
1.4e+08	-0.02668846	-0.06123621	-6.217309e-05	-2.991109e-06	0.006514765	0.00895963	4.362118e-05	7.210265e-06
	-6.217309e-05	-2.991109e-06	-0.02757741	-0.06058197	-2.042439e-06	1.313376e-07	0.006300407	0.009097819
	0.006514764	0.00895963	-2.042439e-06	1.313376e-07	-0.02712463	-0.06095473	-2.207316e-05	-3.498702e-06
	4.362118e-05	7.210265e-06	0.006300407	0.009097819	-2.207316e-05	-3.498702e-06	-0.02760413	-0.06043653
1.5e+08	-0.03172183	-0.06378093	-6.228347e-05	-9.033514e-07	0.007272677	0.009159332	5.685891e-05	-6.65936e-06
	-6.228347e-05	-9.033514e-07	-0.03266737	-0.06303186	-2.05249e-06	1.306248e-07	0.007036606	0.009329671
	0.007272677	0.009159331	-2.05249e-06	1.306248e-07	-0.0321377	-0.06349138	-2.275133e-05	-2.542196e-06
	5.685891e-05	-6.65936e-06	0.007036606	0.009329671	-2.275133e-05	-2.542196e-06	-0.03270125	-0.06287245
1.6e+08	-0.03695806	-0.06590541	-6.233724e-05	1.243509e-06	0.008036899	0.009287337	6.886481e-05	-2.224927e-05
	-6.233724e-05	1.243509e-06	-0.03795796	-0.06505177	-2.063538e-06	1.382783e-07	0.007780094	0.009492937
	0.008036898	0.009287337	-2.063538e-06	1.382783e-07	-0.03735512	-0.06560939	-2.334854e-05	-1.466129e-06
	6.886481e-05	-2.224927e-05	0.007780094	0.009492937	-2.334854e-05	-1.466129e-06	-0.03799922	-0.06487709
1.7e+08	-0.04235998	-0.06759569	-6.231092e-05	3.453215e-06	0.008800723	0.009343719	7.936687e-05	-3.951034e-05
	-6.231092e-05	3.453215e-06	-0.04341071	-0.06662786	-2.074929e-06	1.533288e-07	0.00852456	0.009587652
	0.008800723	0.009343719	-2.074929e-06	1.533288e-07	-0.04273952	-0.06729441	-2.38476e-05	-2.827281e-07
	7.936687e-05	-3.951034e-05	0.00852456	0.009587652	-2.38476e-05	-2.827281e-07	-0.04345933	-0.06643659
1.8e+08	-0.04788988	-0.06884097	-6.218484e-05	5.721994e-06	0.009557523	0.009329169	8.811163e-05	-5.833692e-05
	-6.218484e-05	5.721994e-06	-0.04898668	-0.06774966	-2.086034e-06	1.749724e-07	0.009263761	0.009614416
	0.009557523	0.009329169	-2.086034e-06	1.749724e-07	-0.04825306	-0.06853535	-2.423367e-05	9.934268e-07
	8.811163e-05	-5.833692e-05	0.009263762	0.009614416	-2.423367e-05	9.934268e-07	-0.04904243	-0.06754045
1.9e+08	-0.05350974	-0.06963366	-6.194274e-05	8.041196e-06	0.01030081	0.009244979	9.486638e-05	-7.857775e-05
	-6.194274e-05	8.041196e-06	-0.05464661	-0.06841	-2.096259e-06	2.024923e-07	0.009991581	0.009574384
	0.01030081	0.009244979	-2.096259e-06	2.024923e-07	-0.05385757	-0.06932442	-2.449436e-05	2.345951e-06
	9.486638e-05	-7.857775e-05	0.009991581	0.009574383	-2.449436e-05	2.345951e-06	-0.05470907	-0.06818156
2e+08	-0.05918138	-0.0699693	-6.157144e-05	1.039881e-05	0.0110243	0.009093023	9.942237e-05	-0.0001000436
	-6.157144e-05	1.039881e-05	-0.06035123	-0.06860504	-2.105053e-06	2.352131e-07	0.01070208	0.009469248
	0.0110243	0.009093023	-2.105053e-06	2.352131e-07	-0.05951478	-0.06965703	-2.46199e-05	3.757107e-06
	9.942237e-05	-0.0001000436	0.01070208	0.009469248	-2.46199e-05	3.757107e-06	-0.06041978	-0.0683561
2.1e+08	-0.06486672	-0.06984663	-6.106075e-05	1.278057e-05	0.01172194	0.008875726	0.0001015974	-0.0001225129
	-6.106075e-05	1.278057e-05	-0.06606139	-0.0683342	-2.111923e-06	2.724745e-07	0.01138953	0.009301212
	0.01172194	0.008875726	-2.111923e-06	2.724745e-07	-0.06518653	-0.06953177	-2.460319e-05	5.208236e-06
	0.0001015974	-0.0001225129	0.01138953	0.009301212	-2.460319e-05	5.208236e-06	-0.06613527	-0.06806358
2.2e+08	-0.07052799	-0.06926746	-6.04034e-05	1.517065e-05	0.01238797	0.008596034	0.0001012386	-0.0001457379
	-6.04034e-05	1.517065e-05	-0.07173838	-0.06760008	-2.11644e-06	3.136167e-07	0.0120485	0.009072964
	0.01238797	0.008596034	-2.11644e-06	3.136167e-07	-0.07083496	-0.06895033	-2.443978e-05	6.680137e-06
	0.0001012386	-0.0001457379	0.0120485	0.009072964	-2.443978e-05	6.680137e-06	-0.07181668	-0.0673067
2.3e+08	-0.07612796	-0.06823663	-5.959494e-05	1.755225e-05	0.01301698	0.008257376	9.822543e-05	-0.000169449
	-5.959494e-05	1.755225e-05	-0.07734408	-0.06640843	-2.118248e-06	3.579736e-07	0.01267383	0.00878764
	0.01301698	0.008257376	-2.118248e-06	3.579736e-07	-0.07642278	-0.06791748	-2.412793e-05	8.153432e-06
	9.822543e-05	-0.000169449	0.01267383	0.00878764	-2.412793e-05	8.153432e-06	-0.07742576	-0.0660913
2.4e+08	-0.08163018	-0.06676196	-5.863359e-05	1.990823e-05	0.0136039	0.007863626	9.246986e-05	-0.0001933595
	-5.863359e-05	1.990823e-05	-0.08284126	-0.06476806	-2.117081e-06	4.048748e-07	0.01326074	0.008448793
	0.0136039	0.007863626	-2.117081e-06	4.048748e-07	-0.08191348	-0.06644095	-2.366846e-05	9.608962e-06
	9.246986e-05	-0.0001933595	0.01326074	0.008448793	-2.366846e-05	9.608962e-06	-0.08292516	-0.06442628
2.5e+08	-0.08699916	-0.06485414	-5.752017e-05	2.222142e-05	0.01414411	0.007419067	8.391936e-05	-0.000217171
	-5.752017e-05	2.222142e-05	-0.08819375	-0.0626907	-2.112757e-06	4.536488e-07	0.01380479	0.008060351
	0.01414411	0.007419067	-2.112757e-06	4.536488e-07	-0.08727149	-0.06453134	-2.306474e-05	1.102807e-05
	8.391936e-05	-0.000217171	0.01380479	0.008060351	-2.306474e-05	1.102807e-05	-0.08827862	-0.0623235
2.6e+08	-0.09220061	-0.06252659	-5.625788e-05	2.447504e-05	0.01463338	0.00692834	7.255681e-05	-0.0002405775
	-5.625788e-05	2.447504e-05	-0.09336669	-0.06019092	-2.105196e-06	5.03633e-07	0.01430196	0.007626583
	0.01463338	0.00692834	-2.105196e-06	5.03633e-07	-0.09246246	-0.06220202	-2.232244e-05	1.239295e-05
	7.255681e-05	-0.0002405775	0.01430196	0.007626583	-2.232244e-05	1.239295e-05	-0.09345117	-0.05979765
2.7e+08	-0.09720162	-0.05979541	-5.485216e-05	2.665296e-05	0.01506797	0.006396405	5.84017e-05	-0.0002632709
	-5.485216e-05	2.665296e-05	-0.0983267	-0.05728598	-2.094407e-06	5.54181e-07	0.01474863	0.00715205
	0.01506797	0.006396405	-2.094407e-06	5.54181e-07	-0.09745341	-0.05946902	-2.144945e-05	1.368686e-05
	5.84017e-05	-0.0002632709	0.01474863	0.00715205	-2.144945e-05	1.368686e-05	-0.09840936	-0.05686613
2.8e+08	-0.1019708	-0.05667914	-5.331053e-05	2.874008e-05	0.01544458	0.005828498	4.150865e-05	-0.0002849439
	-5.331053e-05	2.874008e-05	-0.1030421	-0.0539957	-2.080503e-06	6.046821e-07	0.01514164	0.006641573
	0.01544458	0.005828498	-2.080503e-06	6.046821e-07	-0.1022129	-0.05635085	-2.045563e-05	1.489443e-05
	4.150865e-05	-0.0002849439	0.01514164	0.006641573	-2.045563e-05	1.489443e-05	-0.1031214	-0.05354887
2.9e+08	-0.1064787	-0.05319872	-5.164229e-05	3.07225e-05	0.01576045	0.005230081	2.196771e-05	-0.0003052955
	-5.164229e-05	3.07225e-05	-0.1074831	-0.05034225	-2.063687e-06	6.545696e-07	0.01547825	0.006100186
	0.01576045	0.005230081	-2.063687e-06	6.545696e-07	-0.1067113	-0.05286839	-1.935259e-05	1.600186e-05
	2.196771e-05	-0.0003052955	0.01547825	0.006100186	-1.935259e-05	1.600186e-05	-0.1075575	-0.04986821
3e+08	-0.1106975	-0.04937722	-4.985835e-05	3.258764e-05	0.01601328	0.004606797	-9.641438e-08	-0.0003240359
	-4.985835e-05	3.258764e-05	-0.1116218	-0.04635006	-2.044246e-06	7.033323e-07	0.01575621	0.005533097
	0.01601328	0.004606797	-2.044246e-06	7.033323e-07	-0.1109209	-0.0490447	-1.815347e-05	1.699702e-05
	-9.641438e-08	-0.0003240359	0.01575621	0.005533097	-1.815347e-05	1.699702e-05	-0.1116897	-0.04584871
3.1e+08	-0.1146016	-0.04523977	-4.7971e-05	3.432453e-05	0.0162013	0.003964432	-2.452748e-05	-0.0003408878
	-4.7971e-05	3.432453e-05	-0.1154327	-0.04204556	-2.022551e-06	7.505341e-07	0.01597372	0.004945648
	0.0162013	0.003964432	-2.022551e-06	7.505341e-07	-0.1148158	-0.04490489	-1.687266e-05	1.786972e-05
	-2.452748e-05	-0.0003408878	0.01597372	0.004945648	-1.687266e-05	1.786972e-05	-0.1154925	-0.04151696
3.2e+08	-0.1181675	-0.04081332	-4.59936e-05	3.592382e-05	0.01632324	0.003308864	-5.113835e-05	-0.0003555915
	-4.59936e-05	3.592382e-05	-0.1188924	-0.03745703	-1.999034e-06	7.958183e-07	0.01612945	0.004343274
	0.01632324	0.003308864	-1.999034e-06	7.958183e-07	-0.1183726	-0.04047589	-1.552556e-05	1.861166e-05
	-5.113835e-05	-0.0003555915	0.01612945	0.004343274	-1.552556e-05	1.861166e-05	-0.1189424	-0.03690141
3.3e+08	-0.1213741	-0.03612647	-4.394064e-05	3.737804e-05	0.01637835	0.002646022	-7.970973e-05	-0.0003679229
	-4.394064e-05	3.737804e-05	-0.1219801	-0.03261442	-1.974179e-06	8.38924e-07	0.01622253	0.003731466
	0.01637835	0.002646022	-1.974179e-06	8.38924e-07	-0.1215701	-0.03578632	-1.412844e-05	1.921668e-05
	-7.970973e-05	-0.0003679229	0.01622253	0.003731466	-1.412844e-05	1.921668e-05	-0.1220186	-0.03203215
3.4e+08	-0.1242026	-0.03120928	-4.177537e-05	3.865127e-05	0.01636639	0.00198185	-0.0001112056	-0.000372327
	-4.177537e-05	3.865127e-05	-0.1246774	-0.02754908	-1.94925e-06	8.793385e-07	0.01625256	0.003115733
	0.01636639	0.00198185	-1.94925e-06	8.793385e-07	-0.1243893	-0.03086625	-1.264652e-05	1.964777e-05
	-0.0001112056	-0.000372327	0.01625256	0.003115733	-1.264652e-05	1.964777e-05	-0.1247029	-0.02694071
3.5e+08	-0.1266367	-0.02609308	-3.955971e-05	3.975809e-05	0.01628761	0.001322257	-0.0001438457	-0.0003730906
	-3.955971e-05	3.975809e-05	-0.1269686	-0.02229365	-1.924286e-06	9.174139e-07	0.0162196	0.002501568
	0.01628761	0.001322257	-1.924286e-06	9.174139e-07	-0.126814	-0.02574703	-1.114345e-05	1.992356e-05
	-0.0001438457	-0.0003730906	0.0162196	0.002501568	-1.114345e-05	1.992356e-05	-0.1269794	-0.02165989
3.6e+08	-0.1286628	-0.02081027	-3.731796e-05	4.070067e-05	0.01614276	0.0006730895	-0.00017713	-0.0003708787
	-3.731796e-05	4.070067e-05	-0.1288407	-0.01688176	-1.899716e-06	9.532881e-07	0.01612415	0.001894412
	0.01614276	0.0006730895	-1.899716e-06	9.532881e-07	-0.1288304	-0.02046111	-9.644787e-06	2.004876e-05
	-0.00017713	-0.0003708787	0.01612415	0.001894412	-9.644787e-06	2.004876e-05	-0.1288351	-0.01622348
3.7e+08	-0.1302696	-0.01539414	-3.506653e-05	4.147905e-05	0.01593308	4.008524e-05	-0.0002107579	-0.0003655978
	-3.506653e-05	4.147905e-05	-0.1302833	-0.01134787	-1.876049e-06	9.871416e-07	0.01596717	0.001299622
	0.01593308	4.008525e-05	-1.876049e-06	9.871416e-07	-0.1304273	-0.01504178	-8.167969e-06	2.002576e-05
	-0.0002107579	-0.0003655978	0.01596717	0.001299622	-8.167969e-06	2.002576e-05	-0.1302599	-0.01066611
3.8e+08	-0.1314489	-0.009878608	-3.282159e-05	4.209512e-05	0.01566026	-0.0005711562	-0.0002444181	-0.0003571875
	-3.282159e-05	4.209512e-05	-0.1312889	-0.005727053	-1.853756e-06	1.019254e-06	0.01575003	0.0007224395
	0.01566026	-0.0005711562	-1.853756e-06	1.019254e-06	-0.1315962	-0.009523045	-6.729927e-06	1.985902e-05
	-0.0002444181	-0.0003571875	0.01575003	0.0007224395	-6.729927e-06	1.985902e-05	-0.1312463	-0.005022991
3.9e+08	-0.1321947	-0.004298085	-3.059886e-05	4.255257e-05	0.01532645	-0.00115521	-0.000277793	-0.0003456211
	-3.059886e-05	4.255257e-05	-0.1318528	-5.474626e-05	-1.833252e-06	1.049996e-06	0.01547453	0.0001679607
	0.01532645	-0.00115521	-1.833252e-06	1.049996e-06	-0.1323314	-0.003939348	-5.346854e-06	1.95549e-05
	-0.000277793	-0.0003456211	0.01547453	0.0001679607	-5.346854e-06	1.95549e-05	-0.1317896	0.0006702727
4e+08	-0.1325042	0.001312769	-2.841345e-05	4.285676e-05	0.01493424	-0.001706856	-0.0003105617	-0.0003309072
	-2.841345e-05	4.285676e-05	-0.1319732	0.005633427	-1.814883e-06	1.07982e-06	0.01514285	-0.0003588923
	0.01493424	-0.001706856	-1.814883e-06	1.07982e-06	-0.1326297	0.001674587	-4.034022e-06	1.912159e-05
	-0.0003105617	-0.0003309072	0.01514285	-0.0003588923	-4.034022e-06	1.912159e-05	-0.1318882	0.006377922
4.1e+08	-0.1323769	0.006919236	-2.627968e-05	4.301471e-05	0.01448664	-0.002221113	-0.0003424048	-0.0003130888
	-2.627968e-05	4.301471e-05	-0.1316509	0.01130189	-1.79891e-06	1.109245e-06	0.01475758	-0.0008533989
	0.01448664	-0.002221113	-1.79891e-06	1.109245e-06	-0.1324909	0.007283981	-2.805581e-06	1.856903e-05
	-0.0003424048	-0.0003130888	0.01475758	-0.0008533989	-2.805581e-06	1.856903e-05	-0.131543	0.01206425
4.2e+08	-0.1318153	0.01248674	-2.421086e-05	4.303496e-05	0.01398705	-0.002693264	-0.0003730073	-0.0002922427
	-2.421086e-05	4.303496e-05	-0.1308896	0.01691532	-1.785501e-06	1.138848e-06	0.01432167	-0.001311066
	0.01398705	-0.002693264	-1.785501e-06	1.138848e-06	-0.1319172	0.01285419	-1.674381e-06	1.790869e-05
	-0.0003730073	-0.0002922427	0.01432167	-0.001311066	-1.674381e-06	1.790869e-05	-0.1307578	0.0176938
4.3e+08	-0.1308243	0.01798104	-2.221925e-05	4.292743e-05	0.01343924	-0.003118889	-0.0004020632	-0.0002684804
	-2.221925e-05	4.292743e-05	-0.1296958	0.02243885	-1.77472e-06	1.169239e-06	0.01383842	-0.001727654
	0.01343924	-0.003118889	-1.77472e-06	1.169239e-06	-0.1309137	0.01835091	-6.51829e-07	1.715347e-05
	-0.0004020632	-0.0002684804	0.01383842	-0.001727654	-6.51829e-07	1.715347e-05	-0.1295393	0.0232316
4.4e+08	-0.1294117	0.02336846	-2.03158e-05	4.270328e-05	0.01284736	-0.003493886	-0.0004292785	-0.0002419455
	-2.03158e-05	4.270328e-05	-0.1280787	0.02783828	-1.766522e-06	1.201049e-06	0.01331146	-0.002099201
	0.01284736	-0.003493886	-1.766522e-06	1.201049e-06	-0.1294881	0.02374038	2.522674e-07	1.631749e-05
	-0.0004292785	-0.0002419455	0.01331146	-0.002099201	2.522674e-07	1.631749e-05	-0.1278969	0.02864334
4.5e+08	-0.1275878	0.02861602	-1.851014e-05	4.237479e-05	0.01221585	-0.003814502	-0.0004543754	-0.0002128129
	-1.851014e-05	4.237479e-05	-0.1260502	0.03308027	-1.760753e-06	1.234904e-06	0.01274474	-0.002422043
	0.01221585	-0.003814502	-1.760753e-06	1.234904e-06	-0.1276506	0.02898956	1.02981e-06	1.541592e-05
	-0.0004543754	-0.0002128129	0.01274474	-0.002422043	1.02981e-06	1.541592e-05	-0.1258425	0.03389563
4.6e+08	-0.1253653	0.0336917	-1.681036e-05	4.195524e-05	0.01154948	-0.004077351	-0.0004770948	-0.0001812865
	-1.681036e-05	4.195524e-05	-0.1236245	0.03813255	-1.757145e-06	1.271419e-06	0.01214251	-0.002692843
	0.01154948	-0.004077351	-1.757145e-06	1.271419e-06	-0.1254142	0.03406635	1.674542e-06	1.446485e-05
	-0.0004770948	-0.0001812865	0.01214251	-0.002692843	1.674542e-06	1.446485e-05	-0.1233906	0.0389561
4.7e+08	-0.1227595	0.03856455	-1.522299e-05	4.145866e-05	0.0108533	-0.004279444	-0.0004972004	-0.0001475974
	-1.522299e-05	4.145866e-05	-0.1208186	0.04296411	-1.75533e-06	1.311165e-06	0.01150926	-0.002908605
	0.0108533	-0.004279444	-1.75533e-06	1.311165e-06	-0.1227939	0.03893974	2.182113e-06	1.348097e-05
