!$
! Info: Touchstone file created by Circ.  Input file=Tx_4in_Rx_100ohms_TxVia_35mils_RxVia_45mils.circ
!$
# Hz S RI R 50
0	0.004278712	6.868485e-26	7.718962e-10	3.862154e-28	4.153255e-05	7.953572e-24	2.5666e-09	1.617402e-28
	7.71897e-10	3.860987e-28	0.00427656	7.882054e-26	4.082173e-10	5.594535e-28	4.089016e-05	9.600472e-24
	4.204261e-05	8.064775e-24	4.08217e-10	5.594911e-28	0.004291114	6.675878e-26	7.922753e-10	3.721602e-28
	2.5666e-09	1.61729e-28	3.904319e-05	9.647925e-24	7.922756e-10	3.721223e-28	0.004289758	7.38311e-26
1e+07	0.005728069	0.003227084	1.048022e-09	1.41241e-09	9.302503e-05	0.0008852876	4.267078e-09	6.7785e-09
	1.048022e-09	1.41241e-09	0.00614494	0.003147775	6.099346e-10	8.528037e-10	0.0002348368	0.0009140088
	9.305486e-05	0.0008852828	6.099346e-10	8.528036e-10	0.005976827	0.003132276	1.091946e-09	1.465614e-09
	4.267078e-09	6.7785e-09	0.000234777	0.0009140188	1.091946e-09	1.465613e-09	0.006097261	0.003159334
2e+07	0.007520482	0.005216485	1.585938e-09	2.421446e-09	0.0002064956	0.001777474	6.863401e-09	1.154104e-08
	1.585938e-09	2.421446e-09	0.007761421	0.004933579	8.457571e-10	1.470647e-09	0.0002866969	0.001883057
	0.000206497	0.001777452	8.45757e-10	1.470647e-09	0.007625118	0.004976232	1.654894e-09	2.496923e-09
	6.863401e-09	1.154104e-08	0.0002866886	0.001883092	1.654894e-09	2.496923e-09	0.00772981	0.004978417
3e+07	0.009047393	0.006466706	2.194546e-09	3.319789e-09	0.0003949461	0.002640342	9.854884e-09	1.579777e-08
	2.194546e-09	3.319789e-09	0.009143725	0.006127755	1.066494e-09	2.05066e-09	0.0004260448	0.002772181
	0.0003949399	0.00264034	1.066494e-09	2.05066e-09	0.009041677	0.006191294	2.291355e-09	3.409345e-09
	9.854884e-09	1.579777e-08	0.0004260447	0.002772186	2.291355e-09	3.409345e-09	0.009126023	0.006189729
4e+07	0.0104656	0.007402657	2.916006e-09	4.100212e-09	0.0006556796	0.003477577	1.344119e-08	1.952425e-08
	2.916006e-09	4.100212e-09	0.01043228	0.007051013	1.301701e-09	2.585528e-09	0.0006543653	0.003622925
	0.00065568	0.003477581	1.301701e-09	2.585528e-09	0.01036901	0.007125046	3.051367e-09	4.204786e-09
	1.344119e-08	1.952425e-08	0.0006543599	0.003622923	3.051367e-09	4.204786e-09	0.01042763	0.007125436
5e+07	0.01182599	0.00811859	3.742031e-09	4.754778e-09	0.0009854606	0.004284548	1.75845e-08	2.266204e-08
	3.742031e-09	4.754778e-09	0.01167282	0.007781282	1.553376e-09	3.081069e-09	0.001024972	0.004422067
	0.0009854628	0.004284549	1.553376e-09	3.081069e-09	0.01165327	0.007858332	3.925536e-09	4.87009e-09
	1.75845e-08	2.266204e-08	0.001024968	0.004422066	3.925536e-09	4.87009e-09	0.0116806	0.007865187
6e+07	0.01314954	0.008656812	4.659432e-09	5.279332e-09	0.001380819	0.005056195	2.221997e-08	2.517271e-08
	4.659432e-09	5.279332e-09	0.01288482	0.008355123	1.818343e-09	3.53883e-09	0.001451906	0.005179188
	0.001380817	0.005056194	1.818343e-09	3.53883e-09	0.0129134	0.008427949	4.899534e-09	5.398563e-09
	2.221997e-08	2.517271e-08	0.001451908	0.005179187	4.899534e-09	5.398563e-09	0.01290447	0.008446184
7e+07	0.01444495	0.009040678	5.655065e-09	5.668188e-09	0.001844531	0.005785521	2.728565e-08	2.702027e-08
	5.655065e-09	5.668188e-09	0.01407665	0.008793077	2.093602e-09	3.959585e-09	0.001932277	0.005890997
	0.001844525	0.005785521	2.093602e-09	3.959585e-09	0.0141572	0.008854522	5.95951e-09	5.783122e-09
	2.728565e-08	2.702027e-08	0.001932284	0.005890994	5.95951e-09	5.783122e-09	0.01410753	0.008889256
8e+07	0.01571478	0.009284821	6.715422e-09	5.914216e-09	0.002367104	0.006468934	3.271797e-08	2.816495e-08
	6.715421e-09	5.914216e-09	0.01525131	0.009108823	2.375994e-09	4.343067e-09	0.002462463	0.006553617
	0.002367096	0.006468935	2.375994e-09	4.343067e-09	0.01538718	0.009151579	7.091445e-09	6.015435e-09
	3.271797e-08	2.816495e-08	0.002462473	0.006553611	7.091445e-09	6.015435e-09	0.01529263	0.009208233
9e+07	0.01695805	0.009398914	7.828463e-09	6.011971e-09	0.002942757	0.007102784	3.844673e-08	2.856552e-08
	7.828463e-09	6.011971e-09	0.01640937	0.009313395	2.663198e-09	4.690431e-09	0.003038075	0.00716268
	0.002942751	0.007102786	2.663198e-09	4.690431e-09	0.01660332	0.009329698	8.282776e-09	6.088484e-09
	3.844673e-08	2.856552e-08	0.003038082	0.007162675	8.282777e-09	6.088484e-09	0.01646012	0.009414173
1e+08	0.01816981	0.009386274	8.981787e-09	5.954317e-09	0.003568176	0.007685366	4.439417e-08	2.81833e-08
	8.981787e-09	5.954317e-09	0.01755391	0.009423417	2.949584e-09	5.003137e-09	0.00365257	0.007710693
	0.003568176	0.007685366	2.949584e-09	5.003137e-09	0.01780763	0.009404126	9.521756e-09	5.991706e-09
	4.439417e-08	2.81833e-08	0.00365257	0.007710693	9.521756e-09	5.991706e-09	0.01761245	0.009522937
1.1e+08	0.01933348	0.009264181	1.017121e-08	5.759349e-09	0.004245157	0.008203382	5.047376e-08	2.700893e-08
	1.017121e-08	5.759349e-09	0.01871304	0.00940276	3.242856e-09	5.287613e-09	0.004288692	0.008209798
	0.004245157	0.008203382	3.242856e-09	5.287613e-09	0.01902344	0.009341147	1.079205e-08	5.740501e-09
	5.047376e-08	2.700893e-08	0.004288692	0.008209798	1.079205e-08	5.740501e-09	0.01877588	0.00950277
1.2e+08	0.02046556	0.009048123	1.13671e-08	5.399611e-09	0.004956321	0.008653875	5.659585e-08	2.500987e-08
	1.13671e-08	5.399611e-09	0.01983076	0.009265829	3.550668e-09	5.522412e-09	0.004961971	0.008656929
	0.004956321	0.008653875	3.550668e-09	5.522412e-09	0.02019934	0.009156591	1.205866e-08	5.325125e-09
	5.659585e-08	2.500987e-08	0.004961971	0.008656929	1.205866e-08	5.325125e-09	0.01989791	0.009366879
1.3e+08	0.02156095	0.008736979	1.254677e-08	4.88231e-09	0.005697085	0.009036994	6.266423e-08	2.219266e-08
	1.254677e-08	4.88231e-09	0.02090823	0.009028746	3.850931e-09	5.720123e-09	0.005665502	0.009044691
	0.005697085	0.009036994	3.850931e-09	5.720123e-09	0.02133551	0.008865109	1.33081e-08	4.741928e-09
	6.266423e-08	2.219266e-08	0.005665502	0.009044691	1.33081e-08	4.741928e-09	0.0209792	0.009130652
1.4e+08	0.02261533	0.008333667	1.369389e-08	4.207217e-09	0.006461723	0.009351084	6.859101e-08	1.855478e-08
	1.369389e-08	4.207217e-09	0.02194283	0.008698626	4.140348e-09	5.880951e-09	0.006393454	0.009369798
	0.006461723	0.009351084	4.140348e-09	5.880951e-09	0.02242847	0.008473345	1.452297e-08	3.990738e-09
	6.859101e-08	1.855478e-08	0.006393454	0.009369798	1.452297e-08	3.990738e-09	0.022017	0.008801242
1.5e+08	0.02362407	0.007841751	1.479152e-08	3.375897e-09	0.007244206	0.009594679	7.428612e-08	1.410286e-08
	1.479152e-08	3.375897e-09	0.02293109	0.008281107	4.415251e-09	6.005586e-09	0.007139987	0.009629998
	0.007244206	0.009594679	4.415251e-09	6.005586e-09	0.02347393	0.007986724	1.568518e-08	3.073336e-09
	7.428612e-08	1.410286e-08	0.007139988	0.009629998	1.568518e-08	3.073336e-09	0.02300788	0.008384378
1.6e+08	0.02458234	0.007265192	1.582245e-08	2.391766e-09	0.008038329	0.009766725	7.965885e-08	8.852911e-09
	1.582245e-08	2.391766e-09	0.02386918	0.007781315	4.671845e-09	6.095159e-09	0.007899188	0.009823752
	0.008038329	0.009766725	4.671845e-09	6.095159e-09	0.02446717	0.007410308	1.677642e-08	1.993428e-09
	7.965885e-08	8.852911e-09	0.007899188	0.009823752	1.677642e-08	1.993428e-09	0.02394804	0.007885253
1.7e+08	0.02548523	0.006608302	1.676956e-08	1.260084e-09	0.008837788	0.009866652	8.461914e-08	2.830462e-09
	1.676956e-08	1.260084e-09	0.02475307	0.00720423	4.90633e-09	6.151229e-09	0.00866508	0.009950133
	0.008837788	0.009866652	4.90633e-09	6.151229e-09	0.02540329	0.006749155	1.777847e-08	7.566498e-10
	8.461914e-08	2.830462e-09	0.00866508	0.009950133	1.777847e-08	7.566498e-10	0.02483353	0.007308888
1.8e+08	0.02632787	0.005875761	1.761609e-08	-1.206338e-11	0.009636238	0.009894412	8.907881e-08	-3.92945e-09
	1.761609e-08	-1.206338e-11	0.02557871	0.006554867	5.114983e-09	6.175784e-09	0.009431663	0.01000879
	0.009636238	0.009894412	5.114983e-09	6.175784e-09	0.02627741	0.006008473	1.867354e-08	-6.294429e-10
	8.907881e-08	-3.92945e-09	0.009431663	0.01000879	1.867354e-08	-6.294429e-10	0.02566033	0.006660322
1.9e+08	0.02710554	0.005072596	1.834577e-08	-1.416496e-09	0.01042734	0.009850484	9.295262e-08	-1.138248e-08
	1.834577e-08	-1.416496e-09	0.02634215	0.005838381	5.294316e-09	6.170788e-09	0.01019295	0.009999911
	0.01042734	0.009850484	5.294316e-09	6.170788e-09	0.0270847	0.005193708	1.944437e-08	-2.156096e-09
	9.295262e-08	-1.138248e-08	0.01019295	0.009999911	1.944437e-08	-2.156096e-09	0.02642453	0.005944719
2e+08	0.02781374	0.004204177	1.894309e-08	-2.942454e-09	0.01120483	0.009735885	9.615938e-08	-1.947532e-08
	1.894309e-08	-2.942454e-09	0.02703955	0.005060098	5.440843e-09	6.139143e-09	0.010943	0.009924239
	0.01120483	0.009735885	5.440843e-09	6.139143e-09	0.02782055	0.004310575	2.007448e-08	-3.811888e-09
	9.615938e-08	-1.947532e-08	0.010943	0.009924239	2.007448e-08	-3.811888e-09	0.02712234	0.005167417
2.1e+08	0.02844824	0.003276193	1.939358e-08	-4.577202e-09	0.01196253	0.00955216	9.862283e-08	-2.814611e-08
	1.939358e-08	-4.577202e-09	0.02766734	0.00422555	5.551337e-09	6.084343e-09	0.01167598	0.009783027
	0.01196253	0.00955216	5.551337e-09	6.084343e-09	0.02848063	0.003365077	2.054853e-08	-5.583332e-09
	9.862283e-08	-2.814611e-08	0.01167598	0.009783027	2.054853e-08	-5.583332e-09	0.02775019	0.004333946
2.2e+08	0.02900516	0.002294639	1.968397e-08	-6.307001e-09	0.01269443	0.009301379	1.002725e-07	-3.732494e-08
	1.968397e-08	-6.307001e-09	0.02822222	0.003340469	5.622951e-09	6.009905e-09	0.0123862	0.009578039
	0.01269443	0.009301379	5.622951e-09	6.009905e-09	0.02906091	0.002363505	2.085241e-08	-7.455845e-09
	1.002725e-07	-3.732494e-08	0.0123862	0.009578039	2.085241e-08	-7.455845e-09	0.02830478	0.003450048
2.3e+08	0.02948099	0.001265794	1.980224e-08	-8.116705e-09	0.01339472	0.008986121	1.010447e-07	-4.693446e-08
	1.980224e-08	-8.116705e-09	0.02870122	0.00241079	5.653165e-09	5.919657e-09	0.01306812	0.00931153
	0.01339472	0.008986121	5.653165e-09	5.919657e-09	0.02955778	0.00131242	2.097338e-08	-9.413357e-09
	1.010447e-07	-4.693446e-08	0.01306812	0.00931153	2.097338e-08	-9.413357e-09	0.02878317	0.002521674
2.4e+08	0.02987267	0.0001961741	1.97378e-08	-9.98989e-09	0.01405781	0.008609457	1.008828e-07	-5.689054e-08
	1.97378e-08	-9.98989e-09	0.02910173	0.001442611	5.639817e-09	5.817708e-09	0.01371645	0.008986231
	0.01405781	0.008609457	5.639817e-09	5.817708e-09	0.02996803	0.0002186211	2.090019e-08	-1.143844e-08
	1.008828e-07	-5.689054e-08	0.01371645	0.008986231	2.090019e-08	-1.143844e-08	0.02918273	0.00155494
2.5e+08	0.03017754	-0.0009074795	1.948163e-08	-1.190899e-08	0.01467844	0.008174931	9.973849e-08	-6.710296e-08
	1.948163e-08	-1.190899e-08	0.02942156	0.0004421998	5.581133e-09	5.708412e-09	0.01432615	0.008605322
	0.01467844	0.008174931	5.581133e-09	5.708412e-09	0.03028893	-0.000910863	2.062324e-08	-1.351247e-08
	9.973849e-08	-6.710296e-08	0.01432615	0.008605322	2.062324e-08	-1.351247e-08	0.02950129	0.000556138
2.6e+08	0.03039347	-0.00203825	1.902634e-08	-1.385545e-08	0.01525162	0.00768653	9.757184e-08	-7.747616e-08
	1.902634e-08	-1.385545e-08	0.02965892	-0.0005840563	5.475756e-09	5.596332e-09	0.01489247	0.008172412
	0.01525162	0.00768653	5.475756e-09	5.596332e-09	0.03051823	-0.002068833	2.013468e-08	-1.561576e-08
	9.757184e-08	-7.747616e-08	0.01489247	0.008172412	2.013468e-08	-1.561576e-08	0.02973705	-0.0004683205
2.7e+08	0.03051878	-0.003189072	1.83663e-08	-1.580985e-08	0.01577277	0.007148661	9.435211e-08	-8.791009e-08
	1.83663e-08	-1.580985e-08	0.02981246	-0.001629674	5.322759e-09	5.4862e-09	0.01541099	0.007691509
	0.01577277	0.007148661	5.322759e-09	5.4862e-09	0.03065422	-0.003247935	1.942851e-08	-1.772771e-08
	9.435211e-08	-8.791009e-08	0.01541099	0.007691509	1.942851e-08	-1.772771e-08	0.02988868	-0.001511922
2.8e+08	0.03055235	-0.00435277	1.749773e-08	-1.775212e-08	0.01623768	0.006566115	9.005808e-08	-9.830104e-08
	1.749773e-08	-1.775212e-08	0.0298813	-0.002688096	5.121671e-09	5.382878e-09	0.01587766	0.007166992
	0.01623768	0.006566115	5.121671e-09	5.382878e-09	0.03069571	-0.004440704	1.85007e-08	-1.982703e-08
	9.005808e-08	-9.830104e-08	0.01587766	0.007166992	1.85007e-08	-1.982703e-08	0.02995532	-0.002568072
2.9e+08	0.03049354	-0.0055221	1.641871e-08	-1.966165e-08	0.01664258	0.005944034	8.467845e-08	-1.085425e-07
	1.641871e-08	-1.966165e-08	0.02986501	-0.003752735	4.872488e-09	5.291313e-09	0.01628883	0.006603578
	0.01664258	0.005944034	4.872488e-09	5.291313e-09	0.03064206	-0.005639611	1.734918e-08	-2.189187e-08
	8.467845e-08	-1.085425e-07	0.01628883	0.006603578	1.734918e-08	-2.189187e-08	0.02993654	-0.003630156
3e+08	0.03034228	-0.006689791	1.512931e-08	-2.151749e-08	0.01698415	0.005287874	7.821209e-08	-1.185262e-07
	1.512931e-08	-2.151749e-08	0.02976363	-0.004817006	4.575684e-09	5.216498e-09	0.01664126	0.006006286
	0.01698415	0.005287874	4.575684e-09	5.216498e-09	0.03049319	-0.0068371	1.5974e-08	-2.389998e-08
	7.821209e-08	-1.185262e-07	0.01664126	0.006006286	1.5974e-08	-2.389998e-08	0.02983242	-0.004691554
3.1e+08	0.03009903	-0.007848572	1.363158e-08	-2.329853e-08	0.01725957	0.004603362	7.066826e-08	-1.281427e-07
	1.363158e-08	-2.329853e-08	0.02957768	-0.005874348	4.232218e-09	5.163423e-09	0.01693215	0.005380402
	0.01725957	0.004603362	4.232218e-09	5.163423e-09	0.03024959	-0.008025622	1.437727e-08	-2.582898e-08
	7.066826e-08	-1.281427e-07	0.01693215	0.005380402	1.437727e-08	-2.582898e-08	0.02964349	-0.005745677
3.2e+08	0.0297648	-0.008991235	1.192958e-08	-2.498366e-08	0.01746652	0.003896455	6.206674e-08	-1.372828e-07
	1.192958e-08	-2.498366e-08	0.02930815	-0.006918278	3.843536e-09	5.137032e-09	0.01715919	0.004731435
	0.01746652	0.003896455	3.843536e-09	5.137032e-09	0.0299123	-0.009197694	1.256328e-08	-2.765646e-08
	6.206674e-08	-1.372828e-07	0.01715919	0.004731435	1.256328e-08	-2.765646e-08	0.0293708	-0.00678601
3.3e+08	0.02934113	-0.01011066	1.002941e-08	-2.655197e-08	0.01760321	0.003173298	5.243788e-08	-1.458384e-07
	1.002941e-08	-2.655197e-08	0.0289565	-0.007942412	3.411573e-09	5.142179e-09	0.01732054	0.004065081
	0.01760321	0.003173298	3.411573e-09	5.142179e-09	0.02948297	-0.01034593	1.053845e-08	-2.936021e-08
	5.243788e-08	-1.458384e-07	0.01732054	0.004065081	1.053845e-08	-2.936021e-08	0.02901581	-0.007806149
3.4e+08	0.02883011	-0.01119986	7.939176e-09	-2.79829e-08	0.01766837	0.002440174	4.182251e-08	-1.53703e-07
	7.939176e-09	-2.79829e-08	0.02852465	-0.008940497	2.938747e-09	5.183578e-09	0.01741487	0.003387181
	0.01766837	0.002440174	2.938747e-09	5.183578e-09	0.02896374	-0.01146309	8.311333e-09	-3.091843e-08
	4.182251e-08	-1.53703e-07	0.01741487	0.003387181	8.311333e-09	-3.091843e-08	0.02858051	-0.008799817
3.5e+08	0.02823434	-0.01225202	5.669007e-09	-2.92565e-08	0.01766132	0.001703461	3.027188e-08	-1.607734e-07
	5.669007e-09	-2.92565e-08	0.02801497	-0.009906457	2.42795e-09	5.265763e-09	0.01744136	0.00270367
	0.01766132	0.001703461	2.42795e-09	5.265763e-09	0.02835737	-0.01254211	5.892629e-09	-3.230989e-08
	3.027188e-08	-1.607734e-07	0.01744136	0.00270367	5.892629e-09	-3.230989e-08	0.02806729	-0.009760922
3.6e+08	0.02755697	-0.01326054	3.231009e-09	-3.035351e-08	0.01758191	0.0009695782	1.784722e-08	-1.669491e-07
	3.231009e-09	-3.035351e-08	0.02743028	-0.01083441	1.881838e-09	5.393062e-09	0.01739969	0.002020544
	0.01758191	0.0009695782	1.881838e-09	5.393062e-09	0.02766711	-0.01357618	3.294815e-09	-3.351375e-08
	1.784722e-08	-1.669491e-07	0.01739969	0.002020544	3.294815e-09	-3.351375e-08	0.02747902	-0.01068357
3.7e+08	0.02680161	-0.0142191	6.391722e-10	-3.125565e-08	0.01743056	0.0002449453	4.6201e-09	-1.721363e-07
	6.391722e-10	-3.125565e-08	0.02677382	-0.01171873	1.304771e-09	5.569544e-09	0.0172901	0.001343803
	0.01743056	0.0002449453	1.304771e-09	5.569544e-09	0.02689675	-0.01455872	5.330151e-10	-3.451083e-08
	4.6201e-09	-1.721363e-07	0.0172901	0.001343803	5.330151e-10	-3.451083e-08	0.026819	-0.01156212
3.8e+08	0.02597237	-0.01512163	-2.090651e-09	-3.194572e-08	0.01720826	-0.0004640728	-9.328676e-09	-1.762465e-07
	-2.090651e-09	-3.194572e-08	0.02604923	-0.01255403	7.01111e-10	5.798919e-09	0.01711331	0.0006794164
	0.01720826	-0.0004640728	7.01111e-10	5.798919e-09	0.02605057	-0.01548351	-2.37592e-09	-3.528294e-08
	-9.328676e-09	-1.762465e-07	0.01711331	0.0006794164	-2.37592e-09	-3.528294e-08	0.0260909	-0.01239119
3.9e+08	0.02507384	-0.01596243	-4.940838e-09	-3.240781e-08	0.01691654	-0.001151211	-2.390933e-08	-1.791976e-07
	-4.940838e-09	-3.240781e-08	0.02526057	-0.01333523	7.547872e-11	6.08454e-09	0.01687058	3.327135e-05
	0.01691654	-0.001151211	7.547872e-11	6.08454e-09	0.02513332	-0.01634464	-5.413331e-09	-3.581315e-08
	-2.390933e-08	-1.791976e-07	0.01687058	3.327134e-05	-5.413331e-09	-3.581315e-08	0.02529883	-0.01316571
4e+08	0.02411102	-0.01673614	-7.8921e-09	-3.262748e-08	0.01655748	-0.001810353	-3.902361e-08	-1.809152e-07
	-7.8921e-09	-3.262748e-08	0.02441223	-0.01405759	-5.671397e-10	6.429357e-09	0.01656369	-0.0005888688
	0.01655748	-0.001810353	-5.671397e-10	6.429357e-09	0.02415024	-0.0171366	-8.558783e-09	-3.608609e-08
	-3.902361e-08	-1.809152e-07	0.01656369	-0.0005888688	-8.558783e-09	-3.608609e-08	0.02444723	-0.01388092
4.1e+08	0.02308932	-0.01743783	-1.09236e-08	-3.259191e-08	0.0161337	-0.002435579	-5.456547e-08	-1.813332e-07
	-1.09236e-08	-3.259191e-08	0.02350898	-0.0147167	-1.221425e-09	6.835883e-09	0.01619488	-0.001181409
	0.0161337	-0.002435579	-1.221425e-09	6.835883e-09	0.02310694	-0.0178543	-1.17902e-08	-3.608809e-08
	-5.456547e-08	-1.813332e-07	0.01619488	-0.001181409	-1.17902e-08	-3.608809e-08	0.02354091	-0.01453244
4.2e+08	0.02201454	-0.01806297	-1.401308e-08	-3.229005e-08	0.01564833	-0.003021208	-7.042169e-08	-1.803946e-07
	-1.401308e-08	-3.229005e-08	0.02255588	-0.01530854	-1.881762e-09	7.306157e-09	0.01576691	-0.001738966
	0.01564833	-0.003021208	-1.881762e-09	7.306157e-09	0.02200945	-0.0184931	-1.508398e-08	-3.580737e-08
	-7.042169e-08	-1.803946e-07	0.01576691	-0.001738966	-1.508398e-08	-3.580737e-08	0.02258498	-0.01511627
4.3e+08	0.02089281	-0.01860752	-1.713702e-08	-3.171279e-08	0.01510497	-0.003561849	-8.647275e-08	-1.780524e-07
	-1.713702e-08	-3.171279e-08	0.02155828	-0.01582949	-2.542283e-09	7.841711e-09	0.01528299	-0.002256405
	0.01510497	-0.003561849	-2.542283e-09	7.841711e-09	0.02086414	-0.01904886	-1.841518e-08	-3.52342e-08
	-8.647275e-08	-1.780524e-07	0.01528299	-0.002256405	-1.841518e-08	-3.52342e-08	0.02158484	-0.0156288
4.4e+08	0.01973057	-0.01906792	-2.027077e-08	-3.08531e-08	0.01450771	-0.004052433	-1.025936e-07	-1.742702e-07
	-2.027077e-08	-3.08531e-08	0.02052181	-0.01627634	-3.196908e-09	8.443542e-09	0.01474675	-0.002728887
	0.01450771	-0.004052433	-3.196908e-09	8.443542e-09	0.0196777	-0.01951793	-2.175766e-08	-3.436103e-08
	-1.025936e-07	-1.742702e-07	0.01474675	-0.002728887	-2.175766e-08	-3.436103e-08	0.02054614	-0.01606685
4.5e+08	0.01853454	-0.01944112	-2.338877e-08	-2.970612e-08	0.01386108	-0.004488262	-1.186547e-07	-1.690224e-07
	-2.338877e-08	-2.970612e-08	0.01945229	-0.01664635	-3.839398e-09	9.112087e-09	0.01416225	-0.003151898
	0.01386108	-0.004488262	-3.839398e-09	9.112087e-09	0.01845709	-0.01989721	-2.508429e-08	-3.318264e-08
	-1.186547e-07	-1.690224e-07	0.01416225	-0.003151898	-2.508429e-08	-3.318264e-08	0.01947476	-0.0164277
4.6e+08	0.01731165	-0.01972461	-2.646459e-08	-2.826935e-08	0.01316998	-0.004865043	-1.345228e-07	-1.622955e-07
	-2.646459e-08	-2.826935e-08	0.01835577	-0.01693722	-4.463412e-09	9.8472e-09	0.01353394	-0.00352129
	0.01316998	-0.004865043	-4.463412e-09	9.8472e-09	0.01720951	-0.02018416	-2.836702e-08	-3.16963e-08
	-1.345228e-07	-1.622955e-07	0.01353394	-0.00352129	-2.836702e-08	-3.16963e-08	0.01837678	-0.01670909
4.7e+08	0.01606902	-0.01991641	-2.948767e-08	-2.653451e-08	0.0124397	-0.00517892	-1.500593e-07	-1.540765e-07
	-2.948767e-08	-2.653451e-08	0.01723844	-0.01714711	-5.061576e-09	1.06483e-08	0.01286661	-0.003833308
	0.0124397	-0.00517892	-5.061576e-09	1.06483e-08	0.01594235	-0.02037682	-3.159368e-08	-2.989336e-08
	-1.500593e-07	-1.540765e-07	0.01286661	-0.003833308	-3.159368e-08	-2.989336e-08	0.01725839	-0.01690918
4.8e+08	0.01481393	-0.02001516	-3.241547e-08	-2.450996e-08	0.01167588	-0.005426508	-1.651274e-07	-1.443864e-07
	-3.241547e-08	-2.450996e-08	0.01610659	-0.01727468	-5.628265e-09	1.151377e-08	0.01216536	-0.004084626
