!$
! Info: Touchstone file created by Circ.  Input file=Tx_4in_Rx_100ohms_TxVia_35mils_RxVia_45mils.circ
!$
# Hz S RI R 50
0	0.004277656	6.873529e-26	1.775306e-08	9.455174e-27	4.046833e-05	8.078572e-24	3.455164e-08	2.113351e-27
	1.775308e-08	9.45393e-27	0.00427656	7.882054e-26	3.447726e-08	3.411283e-26	4.089016e-05	9.600472e-24
	3.86327e-05	8.296098e-24	3.447726e-08	3.411316e-26	0.00429031	6.553686e-26	2.107186e-08	1.120197e-26
	3.455164e-08	2.114015e-27	3.904319e-05	9.647925e-24	2.107187e-08	1.120315e-26	0.004289758	7.38311e-26
1e+07	0.006147571	0.003148251	2.581591e-08	5.102999e-08	0.0002362255	0.0009136982	7.026692e-08	1.534591e-07
	2.581591e-08	5.102999e-08	0.00614494	0.003147775	5.874149e-08	1.580857e-07	0.0002348368	0.0009140088
	0.0002361661	0.0009137019	5.874149e-08	1.580857e-07	0.006100468	0.003159681	3.045363e-08	6.101234e-08
	7.026692e-08	1.534591e-07	0.000234777	0.0009140188	3.045363e-08	6.101234e-08	0.006097261	0.003159334
2e+07	0.007772008	0.004934131	3.92805e-08	9.196999e-08	0.0002920976	0.001881945	1.235187e-07	2.729346e-07
	3.928049e-08	9.196999e-08	0.007761421	0.004933579	8.188789e-08	2.877393e-07	0.0002866969	0.001883057
	0.0002920852	0.001881982	8.188788e-08	2.877393e-07	0.007742635	0.00497854	4.646332e-08	1.098375e-07
	1.235185e-07	2.729346e-07	0.0002866886	0.001883092	4.646332e-08	1.098375e-07	0.00772981	0.004978417
3e+07	0.009167324	0.006126869	5.421184e-08	1.29969e-07	0.0004379564	0.002769478	1.892152e-07	3.814273e-07
	5.421184e-08	1.29969e-07	0.009143725	0.006127755	1.005788e-07	4.128344e-07	0.0004260448	0.002772181
	0.0004379589	0.002769483	1.005788e-07	4.128344e-07	0.009154508	0.006187762	6.416268e-08	1.551601e-07
	1.892152e-07	3.814273e-07	0.0004260447	0.002772186	6.416268e-08	1.551601e-07	0.009126023	0.006189729
4e+07	0.01047394	0.007046965	7.17352e-08	1.653398e-07	0.000675176	0.00361757	2.703538e-07	4.787111e-07
	7.17352e-08	1.653398e-07	0.01043228	0.007051013	1.187445e-07	5.3508e-07	0.0006543653	0.003622925
	0.0006751712	0.003617566	1.187445e-07	5.3508e-07	0.01047779	0.00711928	8.490053e-08	1.974083e-07
	2.703538e-07	4.787111e-07	0.0006543599	0.003622923	8.490053e-08	1.974083e-07	0.01042763	0.007125436
5e+07	0.01173746	0.007771396	9.165434e-08	1.977881e-07	0.001056929	0.004412754	3.659585e-07	5.630742e-07
	9.165434e-08	1.977881e-07	0.01167282	0.007781282	1.368277e-07	6.546507e-07	0.001024972	0.004422067
	0.001056925	0.004412753	1.368277e-07	6.546507e-07	0.0117583	0.0078516	1.085018e-07	2.362305e-07
	3.659585e-07	5.630742e-07	0.001024968	0.004422066	1.085018e-07	2.362305e-07	0.0116806	0.007865187
6e+07	0.01297683	0.00833609	1.137078e-07	2.272661e-07	0.001497059	0.005164294	4.745703e-07	6.332847e-07
	1.137078e-07	2.272661e-07	0.01288482	0.008355123	1.548582e-07	7.719062e-07	0.001451906	0.005179188
	0.001497062	0.005164294	1.548582e-07	7.719062e-07	0.01301491	0.00842117	1.346484e-07	2.715325e-07
	4.745703e-07	6.332847e-07	0.001451908	0.005179187	1.346484e-07	2.715325e-07	0.01290447	0.008446184
7e+07	0.01419998	0.008761213	1.376222e-07	2.536521e-07	0.001992471	0.005868667	5.946978e-07	6.881834e-07
	1.376222e-07	2.536521e-07	0.01407665	0.008793077	1.728526e-07	8.871068e-07	0.001932277	0.005890997
	0.001992483	0.005868665	1.728526e-07	8.871068e-07	0.0142554	0.008848386	1.630004e-07	3.031717e-07
	5.946978e-07	6.881834e-07	0.001932284	0.005890994	1.630004e-07	3.031717e-07	0.01410753	0.008889256
8e+07	0.01540958	0.009060051	1.631174e-07	2.767899e-07	0.002539337	0.006521779	7.247723e-07	7.266008e-07
	1.631174e-07	2.767899e-07	0.01525131	0.009108823	1.908097e-07	1.000392e-06	0.002462463	0.006553617
	0.002539352	0.006521773	1.908097e-07	1.000392e-06	0.01548223	0.009146613	1.932211e-07	3.309813e-07
	7.247723e-07	7.266008e-07	0.002462473	0.006553611	1.932211e-07	3.309814e-07	0.01529263	0.009208233
9e+07	0.01660589	0.009243163	1.898814e-07	2.965054e-07	0.003133041	0.007119054	8.630709e-07	7.473935e-07
	1.898814e-07	2.965054e-07	0.01640937	0.009313395	2.086788e-07	1.111816e-06	0.003038075	0.00716268
	0.003133052	0.007119047	2.086788e-07	1.111816e-06	0.01669539	0.009326332	2.249496e-07	3.547755e-07
	8.630709e-07	7.473935e-07	0.003038082	0.007162675	2.249496e-07	3.547755e-07	0.01646012	0.009414173
1e+08	0.01779155	0.009326663	2.1756e-07	3.126309e-07	0.003766802	0.0076528	1.007697e-06	7.495001e-07
	2.1756e-07	3.126309e-07	0.01755391	0.009423417	2.263657e-07	1.221384e-06	0.00365257	0.007710693
	0.003766802	0.0076528	2.263657e-07	1.221384e-06	0.01789681	0.009402775	2.577864e-07	3.743697e-07
	1.007697e-06	7.495001e-07	0.00365257	0.007710693	2.577864e-07	3.743697e-07	0.01761245	0.009522937
1.1e+08	0.01899145	0.009272436	2.45726e-07	3.251814e-07	0.004422787	0.008135124	1.156121e-06	7.322577e-07
	2.45726e-07	3.251814e-07	0.01871304	0.00940276	2.438345e-07	1.329233e-06	0.004288692	0.008209798
	0.004422787	0.008135124	2.438345e-07	1.329233e-06	0.01911017	0.009342399	2.912241e-07	3.896867e-07
	1.156121e-06	7.322577e-07	0.004288692	0.008209798	2.912241e-07	3.896867e-07	0.01877588	0.00950277
1.2e+08	0.02015186	0.009097855	2.739865e-07	3.341013e-07	0.005116556	0.008562738	1.306428e-06	6.953744e-07
	2.739865e-07	3.341013e-07	0.01983076	0.009265829	2.607414e-07	1.43563e-06	0.004961971	0.008656929
	0.005116556	0.008562738	2.607414e-07	1.43563e-06	0.02028393	0.009160584	3.247874e-07	4.007108e-07
	1.306428e-06	6.953744e-07	0.004961971	0.008656929	3.247874e-07	4.007108e-07	0.01989791	0.009366879
1.3e+08	0.02127354	0.00881805	3.019676e-07	3.393685e-07	0.005840875	0.008928137	1.456507e-06	6.384861e-07
	3.019676e-07	3.393685e-07	0.02090823	0.009028746	2.770606e-07	1.540672e-06	0.005665502	0.009044691
	0.005840875	0.008928137	2.770606e-07	1.540672e-06	0.02141818	0.008872	3.580365e-07	4.074153e-07
	1.456507e-06	6.384861e-07	0.005665502	0.009044691	3.580365e-07	4.074153e-07	0.0209792	0.009130652
1.4e+08	0.0223532	0.008439439	3.292842e-07	3.409904e-07	0.006589572	0.00922797	1.604169e-06	5.614397e-07
	3.292842e-07	3.409904e-07	0.02194283	0.008698626	2.927381e-07	1.644447e-06	0.006393454	0.009369798
	0.006589572	0.00922797	2.927381e-07	1.644447e-06	0.02250947	0.008483275	3.905174e-07	4.098081e-07
	1.604169e-06	5.614397e-07	0.006393454	0.009369798	3.905174e-07	4.098081e-07	0.022017	0.008801242
1.5e+08	0.02338653	0.00796724	3.55543e-07	3.390095e-07	0.007356467	0.009459958	1.747179e-06	4.643001e-07
	3.55543e-07	3.390095e-07	0.02293109	0.008281107	3.077062e-07	1.747039e-06	0.007139987	0.009629998
	0.007356467	0.009459958	3.077062e-07	1.747039e-06	0.02355347	0.007999813	4.217665e-07	4.079383e-07
	1.747179e-06	4.643001e-07	0.007139988	0.009629998	4.217665e-07	4.079383e-07	0.02300788	0.008384378
1.6e+08	0.02436883	0.007406387	3.803478e-07	3.335074e-07	0.008135304	0.009622571	1.883285e-06	3.473614e-07
	3.803478e-07	3.335074e-07	0.02386918	0.007781315	3.218884e-07	1.848532e-06	0.007899188	0.009823752
	0.008135304	0.009622571	3.218884e-07	1.848532e-06	0.02454549	0.007426653	4.513165e-07	4.01901e-07
	1.883285e-06	3.473614e-07	0.007899188	0.009823752	4.513165e-07	4.01901e-07	0.02394804	0.007885253
1.7e+08	0.0252952	0.00676185	4.03305e-07	3.246065e-07	0.00891977	0.009714928	2.010249e-06	2.111508e-07
	4.03305e-07	3.246065e-07	0.02475307	0.00720423	3.352035e-07	1.949018e-06	0.00866508	0.009950133
	0.00891977	0.009714928	3.352035e-07	1.949018e-06	0.02548063	0.006768825	4.787027e-07	3.918391e-07
	2.010249e-06	2.111508e-07	0.00866508	0.009950133	4.787027e-07	3.918391e-07	0.02483353	0.007308888
1.8e+08	0.02616077	0.006038773	4.240288e-07	3.124703e-07	0.009703533	0.009736754	2.125869e-06	5.643006e-08
	4.240288e-07	3.124703e-07	0.02557871	0.006554867	3.475694e-07	2.048596e-06	0.009431663	0.01000879
	0.009703533	0.009736754	3.475694e-07	2.048596e-06	0.02635398	0.00603151	5.034692e-07	3.77944e-07
	2.125869e-06	5.643006e-08	0.009431663	0.01000879	5.034692e-07	3.77944e-07	0.02566033	0.006660322
1.9e+08	0.02696078	0.005242554	4.421461e-07	2.973032e-07	0.01048028	0.00968836	2.228006e-06	-1.158085e-07
	4.421461e-07	2.973032e-07	0.02634215	0.005838381	3.589064e-07	2.147374e-06	0.01019295	0.009999911
	0.01048028	0.00968836	3.589064e-07	2.147374e-06	0.02716073	0.005220128	5.251754e-07	3.604551e-07
	2.228006e-06	-1.158085e-07	0.01019295	0.009999911	5.251754e-07	3.604551e-07	0.02642453	0.005944719
2e+08	0.02769072	0.004378849	4.573016e-07	2.793492e-07	0.01124377	0.009570625	2.314613e-06	-3.043477e-07
	4.573016e-07	2.793492e-07	0.02703955	0.005060098	3.691398e-07	2.245472e-06	0.010943	0.009924239
	0.01124377	0.009570625	3.691398e-07	2.245472e-06	0.02789626	0.004340373	5.434009e-07	3.396587e-07
	2.314613e-06	-3.043477e-07	0.010943	0.009924239	5.434009e-07	3.396587e-07	0.02712234	0.005167417
2.1e+08	0.02834632	0.003453589	4.691621e-07	2.5889e-07	0.01198787	0.009384983	2.383753e-06	-5.077544e-07
	4.691621e-07	2.5889e-07	0.02766734	0.00422555	3.782025e-07	2.343015e-06	0.01167598	0.009783027
	0.01198787	0.009384983	3.782025e-07	2.343015e-06	0.02855623	0.003398223	5.577512e-07	3.158859e-07
	2.383753e-06	-5.077544e-07	0.01167598	0.009783027	5.577512e-07	3.158859e-07	0.02775019	0.004333946
2.2e+08	0.02892367	0.002472966	4.774203e-07	2.362433e-07	0.0127066	0.009133403	2.433624e-06	-7.24391e-07
	4.774203e-07	2.362433e-07	0.02822222	0.003340469	3.860364e-07	2.440141e-06	0.0123862	0.009578039
	0.0127066	0.009133403	3.860364e-07	2.440141e-06	0.02913659	0.002399941	5.678622e-07	2.8951e-07
	2.433624e-06	-7.24391e-07	0.0123862	0.009578039	5.678622e-07	2.8951e-07	0.02830478	0.003450048
2.3e+08	0.02941927	0.001443431	4.817987e-07	2.117598e-07	0.01339418	0.008818377	2.462578e-06	-9.524283e-07
	4.817987e-07	2.117598e-07	0.02870122	0.00241079	3.925945e-07	2.536992e-06	0.01306812	0.00931153
	0.01339418	0.008818377	3.925945e-07	2.536992e-06	0.02963374	0.001352075	5.734048e-07	2.609436e-07
	2.462578e-06	-9.524283e-07	0.01306812	0.00931153	5.734048e-07	2.609436e-07	0.02878317	0.002521674
2.4e+08	0.02982999	0.0003716426	4.820531e-07	1.858203e-07	0.01404507	0.008442898	2.469142e-06	-1.189861e-06
	4.820531e-07	1.858203e-07	0.02910173	0.001442611	3.978416e-07	2.633718e-06	0.01371645	0.008986231
	0.01404507	0.008442898	3.978416e-07	2.633718e-06	0.03004444	0.0002614003	5.74089e-07	2.306352e-07
	2.469142e-06	-1.189861e-06	0.01371645	0.008986231	5.74089e-07	2.306352e-07	0.02918273	0.00155494
2.5e+08	0.03015318	-0.0007355267	4.779752e-07	1.588328e-07	0.01465401	0.008010431	2.452033e-06	-1.434523e-06
	4.779752e-07	1.588328e-07	0.02942156	0.0004421998	4.017556e-07	2.730475e-06	0.01432615	0.008605322
	0.01465401	0.008010431	4.017556e-07	2.730475e-06	0.03036595	-0.00086507	5.696672e-07	1.990651e-07
	2.452033e-06	-1.434523e-06	0.01432615	0.008605322	5.696672e-07	1.990651e-07	0.02950129	0.000556138
2.6e+08	0.03038668	-0.001871044	4.693961e-07	1.31229e-07	0.01521608	0.007524896	2.410175e-06	-1.684107e-06
	4.693961e-07	1.31229e-07	0.02965892	-0.0005840563	4.043284e-07	2.82742e-06	0.01489247	0.008172412
	0.01521608	0.007524896	4.043284e-07	2.82742e-06	0.03059601	-0.002020151	5.599378e-07	1.667419e-07
	2.410175e-06	-1.684107e-06	0.01489247	0.008172412	5.599378e-07	1.667419e-07	0.02973705	-0.0004683205
2.7e+08	0.03052881	-0.003027744	4.561879e-07	1.034603e-07	0.01572671	0.006990628	2.342716e-06	-1.936186e-06
	4.561879e-07	1.034603e-07	0.02981246	-0.001629674	4.05566e-07	2.924716e-06	0.01541099	0.007691509
	0.01572671	0.006990628	4.05566e-07	2.924716e-06	0.03073288	-0.003196508	5.447477e-07	1.341979e-07
	2.342716e-06	-1.936186e-06	0.01541099	0.007691509	5.447477e-07	1.341979e-07	0.02988868	-0.001511922
2.8e+08	0.03057839	-0.004198354	4.38266e-07	7.599417e-08	0.0161817	0.006412355	2.249033e-06	-2.188228e-06
	4.38266e-07	7.599417e-08	0.0298813	-0.002688096	4.054895e-07	3.022523e-06	0.01587766	0.007166992
	0.0161817	0.006412355	4.054895e-07	3.022523e-06	0.03077537	-0.004386681	5.239951e-07	1.019844e-07
	2.249033e-06	-2.188228e-06	0.01587766	0.007166992	5.239951e-07	1.019844e-07	0.02995532	-0.002568072
2.9e+08	0.03053481	-0.005375542	4.155911e-07	4.931026e-08	0.01657733	0.005795152	2.12875e-06	-2.437625e-06
	4.155911e-07	4.931026e-08	0.02986501	-0.003752735	4.041349e-07	3.121005e-06	0.01628883	0.006603578
	0.01657733	0.005795152	4.041349e-07	3.121005e-06	0.0307228	-0.005583156	4.976311e-07	7.066697e-08
	2.12875e-06	-2.437625e-06	0.01628883	0.006603578	4.976311e-07	7.066697e-08	0.02993654	-0.003630156
3e+08	0.03039797	-0.006551953	3.881702e-07	2.38959e-08	0.01691028	0.005144412	1.981742e-06	-2.681712e-06
	3.881702e-07	2.38959e-08	0.02976363	-0.004817006	4.015537e-07	3.220321e-06	0.01664126	0.006006286
	0.01691028	0.005144412	4.015537e-07	3.220321e-06	0.03057509	-0.006778382	4.656618e-07	4.082081e-08
	1.981742e-06	-2.681712e-06	0.01664126	0.006006286	4.656618e-07	4.082081e-08	0.02983242	-0.004691554
3.1e+08	0.03016832	-0.007720241	3.560574e-07	2.419194e-10	0.01717775	0.004465799	1.80814e-06	-2.91779e-06
	3.560574e-07	2.419194e-10	0.02957768	-0.005874348	3.978124e-07	3.320628e-06	0.01693215	0.005380402
	0.01717775	0.004465799	3.978124e-07	3.320628e-06	0.0303327	-0.007964819	4.281488e-07	1.302525e-08
	1.80814e-06	-2.91779e-06	0.01693215	0.005380402	4.281488e-07	1.302525e-08	0.02964349	-0.005745677
3.2e+08	0.02984684	-0.008873122	3.193552e-07	-2.116173e-08	0.01737744	0.003765211	1.608341e-06	-3.143154e-06
	3.193552e-07	-2.116173e-08	0.02930815	-0.006918278	3.929927e-07	3.422078e-06	0.01715919	0.004731435
	0.01737744	0.003765211	3.929927e-07	3.422078e-06	0.02999666	-0.009134986	3.852106e-07	-1.214129e-08
	1.608341e-06	-3.143154e-06	0.01715919	0.004731435	3.852106e-07	-1.214129e-08	0.0293708	-0.00678601
3.3e+08	0.02943508	-0.0100034	2.782139e-07	-3.983055e-08	0.01750755	0.003048731	1.383003e-06	-3.355113e-06
	2.782139e-07	-3.983055e-08	0.0289565	-0.007942412	3.871912e-07	3.524817e-06	0.01732054	0.004065081
	0.01750755	0.003048731	3.871912e-07	3.524817e-06	0.02956858	-0.01028151	3.370222e-07	-3.41066e-08
	1.383003e-06	-3.355113e-06	0.01732054	0.004065081	3.370222e-07	-3.41066e-08	0.02901581	-0.007806149
3.4e+08	0.02893512	-0.01110403	2.328316e-07	-5.528997e-08	0.01756684	0.002322582	1.13305e-06	-3.55102e-06
	2.328316e-07	-5.528997e-08	0.02852465	-0.008940497	3.805189e-07	3.628985e-06	0.01741487	0.003387181
	0.01756684	0.002322582	3.805189e-07	3.628985e-06	0.02905062	-0.01139713	2.838152e-07	-5.231011e-08
	1.13305e-06	-3.55102e-06	0.01741487	0.003387181	2.838152e-07	-5.231011e-08	0.02858051	-0.008799817
3.5e+08	0.02834956	-0.01216812	1.834542e-07	-6.707991e-08	0.01755461	0.001593085	8.596644e-07	-3.728292e-06
	1.834542e-07	-6.707991e-08	0.02801497	-0.009906457	3.731009e-07	3.734712e-06	0.01744136	0.00270367
	0.01755461	0.001593085	3.731009e-07	3.734712e-06	0.02844549	-0.01247481	2.258772e-07	-6.620813e-08
	8.596644e-07	-3.728292e-06	0.01744136	0.00270367	2.258772e-07	-6.620813e-08	0.02806729	-0.009760922
3.6e+08	0.02768154	-0.01318902	1.303733e-07	-7.475927e-08	0.01747073	0.0008666021	5.642875e-07	-3.884437e-06
	1.303733e-07	-7.475927e-08	0.02743028	-0.01083441	3.650753e-07	3.842117e-06	0.01739969	0.002020544
	0.01747073	0.0008666021	3.650753e-07	3.842117e-06	0.02775642	-0.01350772	1.635502e-07	-7.527924e-08
	5.642875e-07	-3.884437e-06	0.01739969	0.002020544	1.635502e-07	-7.527924e-08	0.02747902	-0.01068357
3.7e+08	0.02693467	-0.01416032	7.39259e-08	-7.791039e-08	0.01731561	0.0001494971	2.48608e-07	-4.017081e-06
	7.39259e-08	-7.791039e-08	0.02677382	-0.01171873	3.565931e-07	3.951308e-06	0.0172901	0.001343803
	0.01731561	0.0001494971	3.565931e-07	3.951308e-06	0.02698718	-0.01448929	9.722913e-08	-7.902958e-08
	2.48608e-07	-4.017081e-06	0.0172901	0.001343803	9.722913e-08	-7.902958e-08	0.026819	-0.01156212
3.8e+08	0.02611308	-0.01507591	1.449164e-08	-7.614343e-08	0.01709021	-0.000551919	-8.544578e-08	-4.123986e-06
	1.449164e-08	-7.614343e-08	0.02604923	-0.01255403	3.478169e-07	4.062382e-06	0.01711331	0.0006794164
	0.01709021	-0.000551919	3.478169e-07	4.062382e-06	0.02614204	-0.01541327	2.735986e-08	-7.699789e-08
	-8.544578e-08	-4.123986e-06	0.01711331	0.0006794164	2.735986e-08	-7.699789e-08	0.0260909	-0.01239119
3.9e+08	0.02522135	-0.01593003	-4.750888e-08	-6.910057e-08	0.01679608	-0.001231433	-4.357175e-07	-4.20308e-06
	-4.750888e-08	-6.910057e-08	0.02526057	-0.01333523	3.389199e-07	4.17542e-06	0.01687058	3.327135e-05
	0.01679608	-0.001231433	3.389199e-07	4.17542e-06	0.02522575	-0.01627377	-4.556378e-08	-6.876057e-08
	-4.357175e-07	-4.20308e-06	0.01687058	3.327134e-05	-4.556378e-08	-6.876057e-08	0.02529883	-0.01316571
4e+08	0.02426448	-0.01671726	-1.11617e-07	-5.646011e-08	0.01643527	-0.00188298	-7.998371e-07	-4.252471e-06
	-1.11617e-07	-5.646011e-08	0.02441223	-0.01405759	3.300847e-07	4.290488e-06	0.01656369	-0.0005888688
	0.01643527	-0.00188298	3.300847e-07	4.290488e-06	0.02424349	-0.01706525	-1.21003e-07	-5.393641e-08
	-7.998371e-07	-4.252471e-06	0.01656369	-0.0005888688	-1.21003e-07	-5.393641e-08	0.02444723	-0.01388092
4.1e+08	0.02324791	-0.01743261	-1.77339e-07	-3.794029e-08	0.01601038	-0.002500688	-1.175237e-06	-4.270476e-06
	-1.77339e-07	-3.794029e-08	0.02350898	-0.0147167	3.215023e-07	4.407637e-06	0.01619488	-0.001181409
	0.01601038	-0.002500688	3.215023e-07	4.407637e-06	0.02320088	-0.01778263	-1.983777e-07	-3.219118e-08
	-1.175237e-06	-4.270476e-06	0.01619488	-0.001181409	-1.983777e-07	-3.219118e-08	0.02354091	-0.01453244
4.2e+08	0.02217744	-0.01807151	-2.441494e-07	-1.330294e-08	0.01552451	-0.003078923	-1.559168e-06	-4.255636e-06
	-2.441494e-07	-1.330294e-08	0.02255588	-0.01530854	3.133708e-07	4.5269e-06	0.01576691	-0.001738966
	0.01552451	-0.003078923	3.133708e-07	4.5269e-06	0.02210393	-0.01842124	-2.770703e-07	-3.241762e-09
	-1.559168e-06	-4.255636e-06	0.01576691	-0.001738966	-2.770703e-07	-3.241762e-09	0.02258498	-0.01511627
4.3e+08	0.02105922	-0.01862986	-3.114952e-07	1.764325e-08	0.01498126	-0.003612337	-1.948723e-06	-4.206735e-06
	-3.114952e-07	1.764325e-08	0.02155828	-0.01582949	3.058932e-07	4.648292e-06	0.01528299	-0.002256405
	0.01498126	-0.003612337	3.058932e-07	4.648292e-06	0.020959	-0.01897693	-3.564306e-07	3.313981e-08
	-1.948723e-06	-4.206735e-06	0.01528299	-0.002256405	-3.564306e-07	3.313981e-08	0.02158484	-0.0156288
4.4e+08	0.01989971	-0.01910405	-3.787994e-07	5.503963e-08	0.01438468	-0.004095903	-2.340855e-06	-4.122816e-06
	-3.787994e-07	5.503963e-08	0.02052181	-0.01627634	2.992769e-07	4.771811e-06	0.01474675	-0.002728887
	0.01438468	-0.004095903	2.992769e-07	4.771811e-06	0.01977275	-0.01944605	-4.357802e-07	7.712293e-08
	-2.340855e-06	-4.122816e-06	0.01474675	-0.002728887	-4.357802e-07	7.712293e-08	0.02054614	-0.01606685
4.5e+08	0.01870564	-0.01949099	-4.454658e-07	9.897502e-08	0.01373927	-0.004524963	-2.7324e-06	-4.003195e-06
	-4.454658e-07	9.897502e-08	0.01945229	-0.01664635	2.93731e-07	4.897433e-06	0.01416225	-0.003151898
	0.01373927	-0.004524963	2.93731e-07	4.897433e-06	0.01855215	-0.01982547	-5.144182e-07	1.288152e-07
	-2.7324e-06	-4.003195e-06	0.01416225	-0.003151898	-5.144182e-07	1.288152e-07	0.01947476	-0.0164277
4.6e+08	0.01748398	-0.01978812	-5.108839e-07	1.494834e-07	0.01304991	-0.004895259	-3.120106e-06	-3.847476e-06
	-5.108839e-07	1.494834e-07	0.01835577	-0.01693722	2.894653e-07	5.025116e-06	0.01353394	-0.00352129
	0.01304991	-0.004895259	2.894653e-07	5.025116e-06	0.01730437	-0.02011264	-5.916263e-07	1.8826e-07
	-3.120106e-06	-3.847476e-06	0.01353394	-0.00352129	-5.916263e-07	1.8826e-07	0.01837678	-0.01670909
4.7e+08	0.01624186	-0.01999344	-5.744336e-07	2.06542e-07	0.01232186	-0.005202968	-3.500653e-06	-3.655557e-06
	-5.744336e-07	2.06542e-07	0.01723844	-0.01714711	2.866884e-07	5.154799e-06	0.01286661	-0.003833308
	0.01232186	-0.005202968	2.866884e-07	5.154799e-06	0.01603677	-0.02030555	-6.666747e-07	2.554354e-07
	-3.500653e-06	-3.655557e-06	0.01286661	-0.003833308	-6.666747e-07	2.554354e-07	0.01725839	-0.01690918
4.8e+08	0.01498659	-0.02010554	-6.354905e-07	2.700701e-07	0.01156069	-0.005444736	-3.870684e-06	-3.427641e-06
	-6.354905e-07	2.700701e-07	0.01610659	-0.01727468	2.856049e-07	5.286398e-06	0.01216536	-0.004084626
	0.01156069	-0.005444736	2.856049e-07	5.286398e-06	0.0147569	-0.02040282	-7.388289e-07	3.302488e-07
