!$
! Info: Touchstone file created by Circ.  Input file=Tx_4in_Rx_93ohms_TxVia_35mils_RxVia_45mils.circ
!$
# Hz S RI R 50
0	0.003794794	6.866779e-26	-2.181785e-05	3.891992e-24	4.152742e-05	7.042151e-24	-2.183014e-05	5.424245e-24
	-2.181785e-05	3.892773e-24	0.003792652	7.87961e-26	-2.179831e-05	1.555088e-24	4.088428e-05	8.49971e-24
	4.20376e-05	7.14061e-24	-2.17983e-05	1.553733e-24	0.00380722	6.674209e-26	-2.181634e-05	3.792884e-24
	-2.183014e-05	5.424784e-24	3.903741e-05	8.541758e-24	-2.181635e-05	3.793997e-24	0.003805858	7.380748e-26
1e+07	0.005630848	0.0003312895	-0.0001064051	-3.272304e-05	0.0001037951	0.0008373198	-6.199769e-05	4.78855e-05
	-0.0001064051	-3.272304e-05	0.005557886	8.261983e-05	-1.239128e-06	-3.441189e-06	0.0001050132	0.000902397
	0.0001038249	0.0008373148	-1.239129e-06	-3.44119e-06	0.005269207	0.0001143984	-6.050989e-06	-8.320134e-08
	-6.199769e-05	4.78855e-05	0.0001049534	0.0009024071	-6.050988e-06	-8.320185e-08	0.005460616	8.118237e-05
2e+07	0.006986885	-0.0007557379	-0.0001103012	-6.804357e-06	0.0002441655	0.001695487	-7.941866e-05	5.185929e-05
	-0.0001103012	-6.804355e-06	0.0066872	-0.001141819	-1.585388e-06	-2.216574e-06	0.0001930646	0.001812058
	0.0002441668	0.001695465	-1.585389e-06	-2.216573e-06	0.006506485	-0.0009782141	-1.172432e-06	-1.104036e-05
	-7.941865e-05	5.185929e-05	0.0001930565	0.001812092	-1.172432e-06	-1.104036e-05	0.006612907	-0.001104337
3e+07	0.007843559	-0.00244087	-0.0001130798	5.206825e-06	0.0004520034	0.00253859	-9.15787e-05	5.682969e-05
	-0.0001130798	5.206825e-06	0.007358155	-0.002851365	-3.711259e-06	-3.44278e-06	0.0003835873	0.0026766
	0.0004519972	0.002538588	-3.711259e-06	-3.44278e-06	0.007272339	-0.002650079	-6.821806e-06	-1.411246e-05
	-9.15787e-05	5.682969e-05	0.0003835873	0.002676605	-6.821806e-06	-1.411246e-05	0.007301251	-0.002802033
4e+07	0.008358069	-0.004354589	-0.0001149234	1.566976e-05	0.0007282164	0.003360108	-0.0001009852	6.052364e-05
	-0.0001149234	1.566976e-05	0.007707678	-0.004745217	-5.48926e-06	-3.669434e-06	0.0006639336	0.003508041
	0.0007282169	0.003360112	-5.48926e-06	-3.669434e-06	0.007712997	-0.00453417	-1.183152e-05	-1.521457e-05
	-0.0001009852	6.052364e-05	0.0006639282	0.003508039	-1.183152e-05	-1.521457e-05	0.007664888	-0.004690986
5e+07	0.008586707	-0.006394573	-0.0001161365	2.49829e-05	0.001071057	0.004153416	-0.0001086482	6.303992e-05
	-0.0001161365	2.49829e-05	0.007785516	-0.006734276	-7.009448e-06	-3.373565e-06	0.001007086	0.004306282
	0.001071059	0.004153418	-7.009448e-06	-3.373566e-06	0.007880793	-0.006532256	-1.638063e-05	-1.514235e-05
	-0.0001086482	6.303992e-05	0.001007082	0.004306281	-1.638063e-05	-1.514235e-05	0.007754155	-0.006679015
6e+07	0.008557854	-0.008504604	-0.000118801	2.591281e-05	0.001477825	0.00491265	-0.0001151826	6.439687e-05
	-0.000118801	2.591281e-05	0.007617924	-0.008767761	-8.329082e-06	-2.714187e-06	0.001410466	0.005067323
	0.001477823	0.004912649	-8.329082e-06	-2.714187e-06	0.007802396	-0.008590416	-2.054564e-05	-1.418083e-05
	-0.0001151826	6.439687e-05	0.001410468	0.005067321	-2.054564e-05	-1.418083e-05	0.007595563	-0.008714113
7e+07	0.008289141	-0.01064627	-0.0001215314	2.693434e-05	0.001945326	0.005632501	-0.0001210284	6.446742e-05
	-0.0001215314	2.693434e-05	0.007222096	-0.01080977	-9.44586e-06	-1.77126e-06	0.001870887	0.005786776
	0.00194532	0.0056325	-9.445859e-06	-1.771259e-06	0.007494747	-0.01067141	-2.434447e-05	-1.245038e-05
	-0.0001210284	6.446742e-05	0.001870895	0.005786772	-2.434447e-05	-1.245038e-05	0.007206372	-0.01075975
8e+07	0.00779333	-0.01279021	-0.0001244171	2.790455e-05	0.002470005	0.006308243	-0.0001266387	6.295445e-05
	-0.0001244171	2.790455e-05	0.006611475	-0.01283128	-1.035702e-05	-5.726727e-07	0.002384655	0.006460221
	0.002469997	0.006308244	-1.035702e-05	-5.726725e-07	0.006970663	-0.012746	-2.775482e-05	-9.983332e-06
	-0.0001266387	6.295445e-05	0.002384665	0.006460215	-2.775482e-05	-9.983332e-06	0.006599972	-0.01278658
9e+07	0.007080566	-0.01491319	-0.0001276018	2.858854e-05	0.003048166	0.006936169	-0.0001326339	5.915942e-05
	-0.0001276018	2.858854e-05	0.005798609	-0.01480624	-1.10384e-05	9.006437e-07	0.002947598	0.007083376
	0.00304816	0.006936171	-1.10384e-05	9.006437e-07	0.006241426	-0.0147892	-3.070317e-05	-6.711506e-06
	-0.0001326339	5.915942e-05	0.002947605	0.007083371	-3.070317e-05	-6.711505e-06	0.00578874	-0.01476842
1e+08	0.006155954	-0.01700396	-0.0001316526	2.784156e-05	0.003677881	0.00751803	-0.0001409364	4.946127e-05
	-0.0001316526	2.784156e-05	0.004800479	-0.01670204	-1.135138e-05	2.898978e-06	0.003555127	0.007652082
	0.003677881	0.00751803	-1.135138e-05	2.898978e-06	0.005319373	-0.01677612	-3.285743e-05	-2.026679e-06
	-0.0001409364	4.946127e-05	0.003555127	0.007652082	-3.285743e-05	-2.026679e-06	0.004788846	-0.01667392
1.1e+08	0.004999113	-0.01901084	-0.0001316621	2.568775e-05	0.004326761	0.008049651	-0.0001362893	3.41247e-05
	-0.0001316621	2.568775e-05	0.003666362	-0.01854912	-1.050703e-05	4.379502e-06	0.00420111	0.00816327
	0.004326761	0.008049651	-1.050703e-05	4.379502e-06	0.004228681	-0.01870869	-3.233744e-05	1.634076e-06
	-0.0001362893	3.41247e-05	0.00420111	0.00816327	-3.233744e-05	1.634076e-06	0.003645852	-0.01852674
1.2e+08	0.003670071	-0.02090639	-0.0001311033	2.568758e-05	0.0050096	0.00850823	-0.0001299238	2.419567e-05
	-0.0001311033	2.568758e-05	0.002345257	-0.02032206	-9.802045e-06	5.35394e-06	0.004881499	0.008614332
	0.0050096	0.00850823	-9.802045e-06	5.35394e-06	0.002956291	-0.0205604	-3.211955e-05	4.289613e-06
	-0.0001299238	2.419567e-05	0.004881499	0.008614332	-3.211955e-05	4.289613e-06	0.002315498	-0.02030245
1.3e+08	0.002177502	-0.02268823	-0.0001304266	2.657121e-05	0.005722992	0.00889771	-0.0001234149	1.567257e-05
	-0.0001304266	2.657121e-05	0.0008550879	-0.02199169	-9.134458e-06	6.130842e-06	0.005590821	0.00900234
	0.005722992	0.00889771	-9.134458e-06	6.130842e-06	0.001516351	-0.02231151	-3.194949e-05	6.669709e-06
	-0.0001234149	1.567257e-05	0.005590821	0.00900234	-3.194949e-05	6.669709e-06	0.0008150722	-0.02197328
1.4e+08	0.0005334036	-0.02434589	-0.0001296778	2.804765e-05	0.006461156	0.009217226	-0.0001170918	7.647531e-06
	-0.0001296778	2.804765e-05	-0.0007897321	-0.0235411	-8.926137e-06	6.089441e-06	0.00632333	0.009325038
	0.006461156	0.009217226	-8.926137e-06	6.089441e-06	-7.815128e-05	-0.02394734	-3.176523e-05	8.93375e-06
	-0.0001170918	7.647531e-06	0.00632333	0.009325038	-3.176523e-05	8.93375e-06	-0.0008410049	-0.02352237
1.5e+08	-0.001249615	-0.02586877	-0.0001288517	2.996584e-05	0.007217889	0.009465672	-0.0001111443	-3.030203e-07
	-0.0001288517	2.996584e-05	-0.002575014	-0.02495647	-8.71001e-06	6.091416e-06	0.007073093	0.009580718
	0.007217889	0.009465672	-8.71001e-06	6.091416e-06	-0.001814185	-0.02545514	-3.152426e-05	1.114566e-05
	-0.0001111443	-3.030203e-07	0.007073093	0.009580718	-3.152426e-05	1.114566e-05	-0.002638407	-0.02493587
1.6e+08	-0.00315851	-0.02724695	-0.0001279334	3.223375e-05	0.007986786	0.009642216	-0.0001057173	-8.408563e-06
	-0.0001279334	3.223375e-05	-0.004486407	-0.02622606	-8.482311e-06	6.13102e-06	0.007834051	0.009768223
	0.007986786	0.009642216	-8.482311e-06	6.13102e-06	-0.003678484	-0.02682371	-3.119741e-05	1.333852e-05
	-0.0001057173	-8.408563e-06	0.007834051	0.009768223	-3.119741e-05	1.333852e-05	-0.0045626	-0.02620198
1.7e+08	-0.005179837	-0.02847147	-0.0001269038	3.478537e-05	0.008761347	0.009746461	-0.0001009367	-1.679544e-05
	-0.0001269038	3.478537e-05	-0.006509308	-0.02733978	-8.244804e-06	6.196756e-06	0.008600071	0.009886947
	0.008761347	0.009746461	-8.244804e-06	6.196756e-06	-0.005657482	-0.02804317	-3.076081e-05	1.552727e-05
	-0.0001009367	-1.679544e-05	0.008600071	0.009886947	-3.076081e-05	1.552727e-05	-0.006598782	-0.0273106
1.8e+08	-0.007299768	-0.02953437	-0.0001257435	3.756855e-05	0.009535038	0.009778514	-9.691701e-05	-2.552511e-05
	-0.0001257435	3.756855e-05	-0.00862883	-0.02828906	-7.998485e-06	6.280682e-06	0.009365001	0.009936831
	0.009535038	0.009778514	-7.998485e-06	6.280682e-06	-0.007737288	-0.02910493	-3.019445e-05	1.771559e-05
	-9.691701e-05	-2.552511e-05	0.009365001	0.009936831	-3.019445e-05	1.771559e-05	-0.008731872	-0.02825313
1.9e+08	-0.009504119	-0.03042879	-0.0001244341	4.053905e-05	0.01030136	0.009739015	-9.376399e-05	-3.461387e-05
	-0.0001244341	4.053905e-05	-0.01082981	-0.02906669	-7.743979e-06	6.376975e-06	0.01012272	0.009918365
	0.01030136	0.009739015	-7.743979e-06	6.376975e-06	-0.009903705	-0.03000163	-2.948162e-05	1.989959e-05
	-9.376399e-05	-3.461387e-05	0.01012272	0.009918365	-2.948162e-05	1.989959e-05	-0.01094653	-0.02902239
2e+08	-0.0117784	-0.031149	-0.0001229589	4.365735e-05	0.01105388	0.009629149	-9.15747e-05	-4.404404e-05
	-0.0001229589	4.365735e-05	-0.01309686	-0.02966686	-7.481714e-06	6.48119e-06	0.01086717	0.009832578
	0.01105388	0.009629149	-7.481714e-06	6.48119e-06	-0.01214225	-0.03072709	-2.860879e-05	2.206995e-05
	-9.15747e-05	-4.404404e-05	0.01086717	0.009832578	-2.860879e-05	2.206995e-05	-0.0132272	-0.02961261
2.1e+08	-0.01410809	-0.03169048	-0.0001213039	4.68868e-05	0.0117933	0.009442904	-9.04371e-05	-5.377152e-05
	-0.0001213039	4.68868e-05	-0.0154144	-0.03008508	-7.210801e-06	6.589027e-06	0.01159243	0.009681025
	0.0117933	0.009442904	-7.210801e-06	6.589027e-06	-0.01443842	-0.03127646	-2.755242e-05	2.421523e-05
	-9.04371e-05	-5.377152e-05	0.01159243	0.009681025	-2.755242e-05	2.421523e-05	-0.01555815	-0.03001934
2.2e+08	-0.01647834	-0.03204983	-0.0001194579	5.019284e-05	0.01251339	0.009180802	-9.042923e-05	-6.373011e-05
	-0.0001194579	5.019284e-05	-0.01776676	-0.0303182	-6.93148e-06	6.697368e-06	0.01229274	0.00946578
	0.01251339	0.009180802	-6.93148e-06	6.697368e-06	-0.0167774	-0.031646	-2.630153e-05	2.631738e-05
	-9.042923e-05	-6.373011e-05	0.01229274	0.00946578	-2.630153e-05	2.631738e-05	-0.01792356	-0.03023946
2.3e+08	-0.01887389	-0.0322247	-0.0001174126	5.354248e-05	0.01319949	0.008854841	-9.161794e-05	-7.383523e-05
	-0.0001174126	5.354248e-05	-0.02013821	-0.03036435	-6.645627e-06	6.804689e-06	0.01296258	0.00918941
	0.01319949	0.008854841	-6.645627e-06	6.804689e-06	-0.01914396	-0.03183305	-2.486753e-05	2.835482e-05
	-9.161794e-05	-7.383523e-05	0.01296258	0.00918941	-2.486753e-05	2.835482e-05	-0.02030758	-0.03027118
2.4e+08	-0.02127969	-0.03221407	-0.000115163	5.690388e-05	0.01384606	0.008468416	-9.405801e-05	-8.398766e-05
	-0.000115163	5.690388e-05	-0.02251306	-0.03022298	-6.353642e-06	6.908937e-06	0.01359664	0.008854957
	0.01384606	0.008468416	-6.353642e-06	6.908937e-06	-0.02152309	-0.03183631	-2.324999e-05	3.030768e-05
	-9.405801e-05	-8.398766e-05	0.01359664	0.008854957	-2.324999e-05	3.030768e-05	-0.0226944	-0.03011401
2.5e+08	-0.02368077	-0.03201808	-0.0001127071	6.024636e-05	0.01444788	0.008025402	-9.77904e-05	-9.407631e-05
	-0.0001127071	6.024636e-05	-0.02487578	-0.02989481	-6.055962e-06	7.008347e-06	0.01418995	0.008465912
	0.01444788	0.008025402	-6.055962e-06	7.008347e-06	-0.02389979	-0.03165565	-2.145179e-05	3.215537e-05
	-9.77904e-05	-9.407631e-05	0.01418995	0.008465912	-2.145179e-05	3.215537e-05	-0.02506835	-0.02976873
2.6e+08	-0.02606226	-0.03163807	-0.0001100461	6.35404e-05	0.0150001	0.007530109	-0.0001028421	-0.0001039805
	-0.0001100461	6.35404e-05	-0.02721104	-0.02938182	-5.753077e-06	7.101348e-06	0.01473784	0.008026187
	0.0150001	0.007530109	-5.753077e-06	7.101348e-06	-0.02625923	-0.03129214	-1.947895e-05	3.38772e-05
	-0.0001028421	-0.0001039805	0.01473784	0.008026187	-1.947895e-05	3.38772e-05	-0.02741399	-0.02923739
2.7e+08	-0.02840956	-0.03107653	-0.0001071842	6.675795e-05	0.01549829	0.006987253	-0.0001092245	-0.0001135728
	-0.0001071842	6.675795e-05	-0.0295038	-0.02868721	-5.445581e-06	7.186618e-06	0.01523604	0.007540082
	0.01549829	0.006987253	-5.445581e-06	7.186618e-06	-0.02858676	-0.03074801	-1.734065e-05	3.545283e-05
	-0.0001092245	-0.0001135728	0.01523604	0.007540082	-1.734065e-05	3.545283e-05	-0.02971618	-0.02852328
2.8e+08	-0.03070834	-0.03033707	-0.000104129	6.987261e-05	0.01593842	0.006401915	-0.0001169344	-0.0001227206
	-0.000104129	6.987261e-05	-0.03173942	-0.02781537	-5.13414e-06	7.26299e-06	0.01568066	0.007012251
	0.01593842	0.006401915	-5.13414e-06	7.26299e-06	-0.03086805	-0.03002663	-1.504897e-05	3.686282e-05
	-0.0001169344	-0.0001227206	0.01568066	0.007012251	-1.504897e-05	3.686282e-05	-0.0319602	-0.02763089
2.9e+08	-0.0329447	-0.02942443	-0.0001008904	7.285967e-05	0.01631696	0.005779508	-0.0001259523	-0.0001312887
	-0.0001008904	7.285967e-05	-0.03390375	-0.02677187	-4.819484e-06	7.329445e-06	0.01606824	0.006447664
	0.01631696	0.005779508	-4.819484e-06	7.329445e-06	-0.03308913	-0.0291325	-1.261874e-05	3.808903e-05
	-0.0001259523	-0.0001312887	0.01606824	0.006447664	-1.261874e-05	3.808903e-05	-0.03413177	-0.02656584
3e+08	-0.03510518	-0.02834439	-9.748129e-05	7.569636e-05	0.01663085	0.005125729	-0.0001362427	-0.0001391419
	-9.748129e-05	7.569636e-05	-0.03598318	-0.02556336	-4.502403e-06	7.385112e-06	0.01639577	0.005851571
	0.01663085	0.005125729	-4.502403e-06	7.385112e-06	-0.03523649	-0.02807118	-1.006737e-05	3.911494e-05
	-0.0001362427	-0.0001391419	0.01639577	0.005851571	-1.006737e-05	3.911494e-05	-0.03621723	-0.02533493
3.1e+08	-0.0371769	-0.02710376	-9.391685e-05	7.836226e-05	0.01687757	0.004446516	-0.0001477548	-0.0001461461
	-9.391685e-05	7.836226e-05	-0.03796477	-0.02419756	-4.183765e-06	7.429272e-06	0.01666074	0.005229458
	0.01687757	0.004446516	-4.183765e-06	7.429272e-06	-0.03729716	-0.02684928	-7.414467e-06	3.992611e-05
	-0.0001477548	-0.0001461461	0.01666074	0.005229458	-7.414467e-06	3.992611e-05	-0.03820354	-0.02394594
3.2e+08	-0.03914756	-0.02571033	-9.021438e-05	8.083926e-05	0.01705511	0.003748004	-0.0001604221	-0.0001521709
	-9.021438e-05	8.083926e-05	-0.03983628	-0.02268316	-3.864483e-06	7.461342e-06	0.0168611	0.004587004
	0.01705511	0.003748004	-3.864483e-06	7.461342e-06	-0.03925877	-0.02547439	-4.68163e-06	4.051037e-05
	-0.0001604221	-0.0001521709	0.0168611	0.004587004	-4.68163e-06	4.051037e-05	-0.04007839	-0.02240772
3.3e+08	-0.0410056	-0.02417281	-8.639299e-05	8.311175e-05	0.01716202	0.003036476	-0.0001741629	-0.0001570924
	-8.639299e-05	8.311175e-05	-0.04158626	-0.02102982	-3.545508e-06	7.480881e-06	0.01699533	0.003930038
	0.01716202	0.003036476	-3.545508e-06	7.480881e-06	-0.04110962	-0.02395502	-1.892102e-06	4.085811e-05
	-0.0001741629	-0.0001570924	0.01699533	0.003930038	-1.892102e-06	4.085811e-05	-0.04183027	-0.02073003
3.4e+08	-0.04274017	-0.02250074	-8.247344e-05	8.516702e-05	0.01719741	0.002318313	-0.0001888818	-0.000160793
	-8.247344e-05	8.516702e-05	-0.04320412	-0.01924803	-3.227835e-06	7.487596e-06	0.01706241	0.003264497
	0.01719741	0.002318313	-3.227835e-06	7.487596e-06	-0.04283877	-0.02230057	9.296384e-07	4.096253e-05
	-0.0001888818	-0.000160793	0.01706241	0.003264497	9.296384e-07	4.096253e-05	-0.04344855	-0.01892347
3.5e+08	-0.04434128	-0.02070449	-7.847759e-05	8.699505e-05	0.01716095	0.001599947	-0.0002044699	-0.000163165
	-7.847759e-05	8.699505e-05	-0.04468019	-0.01734907	-2.912467e-06	7.481329e-06	0.01706187	0.002596377
	0.01716095	0.001599947	-2.912467e-06	7.481329e-06	-0.04443608	-0.02052124	3.758186e-06	4.081971e-05
	-0.0002044699	-0.000163165	0.01706187	0.002596377	3.758186e-06	4.081971e-05	-0.04492351	-0.01699949
3.6e+08	-0.04579977	-0.01879515	-7.44282e-05	8.858885e-05	0.01705289	0.0008878133	-0.0002208063	-0.0001641105
	-7.44282e-05	8.858885e-05	-0.04600577	-0.01534494	-2.600417e-06	7.462066e-06	0.01699373	0.001931689
	0.01705289	0.0008878133	-2.600417e-06	7.462066e-06	-0.04589226	-0.01862799	6.56764e-06	4.042878e-05
	-0.0002208063	-0.0001641105	0.01699373	0.001931689	6.56764e-06	4.042878e-05	-0.04624642	-0.0149702
3.7e+08	-0.04710742	-0.01678445	-7.034851e-05	8.994434e-05	0.01687403	0.0001882971	-0.0002377592	-0.0001635441
	-7.034851e-05	8.994434e-05	-0.04717318	-0.01324826	-2.29268e-06	7.429928e-06	0.01685856	0.001276413
	0.01687403	0.0001882971	-2.29268e-06	7.429928e-06	-0.04719896	-0.01663244	9.331967e-06	3.979193e-05
	-0.0002377592	-0.0001635441	0.01685856	0.001276413	9.331967e-06	3.979193e-05	-0.04740957	-0.01284837
3.8e+08	-0.04825699	-0.01468472	-6.62619e-05	9.106038e-05	0.01662573	-0.0004923111	-0.0002551873	-0.0001613938
	-6.62619e-05	9.106038e-05	-0.04817579	-0.0110722	-1.990224e-06	7.385168e-06	0.01665743	0.0006364569
	0.01662573	-0.0004923111	-1.990224e-06	7.385168e-06	-0.04834876	-0.0145468	1.20254e-05	3.891443e-05
	-0.0002551873	-0.0001613938	0.01665743	0.0006364569	1.20254e-05	3.891443e-05	-0.04840635	-0.0106473
3.9e+08	-0.04924222	-0.01250879	-6.21915e-05	9.193876e-05	0.01630989	-0.001147865	-0.0002729414	-0.0001576017
	-6.21915e-05	9.193876e-05	-0.04900808	-0.008830379	-1.693972e-06	7.32816e-06	0.01639194	1.760721e-05
	0.01630989	-0.001147865	-1.693972e-06	7.32816e-06	-0.04933525	-0.01238382	1.462283e-05	3.780457e-05
	-0.0002729414	-0.0001576017	0.01639194	1.76072e-05	1.462283e-05	3.780457e-05	-0.04923123	-0.008380762
4e+08	-0.05005789	-0.0102699	-5.81599e-05	9.258405e-05	0.01592897	-0.001772408	-0.0002908661	-0.0001521256
	-5.81599e-05	9.258405e-05	-0.04966565	-0.006536782	-1.404787e-06	7.259394e-06	0.01606417	-0.00057451
	0.01592897	-0.001772408	-1.404787e-06	7.259394e-06	-0.05015306	-0.01015668	1.710018e-05	3.647358e-05
	-0.0002908661	-0.0001521256	0.01606417	-0.00057451	1.710018e-05	3.647358e-05	-0.04987983	-0.00606288
4.1e+08	-0.05069985	-0.007981659	-5.418882e-05	9.300363e-05	0.0154859	-0.002360219	-0.0003088014	-0.0001449389
	-5.418882e-05	9.300363e-05	-0.05014524	-0.004205667	-1.123458e-06	7.179468e-06	0.01567669	-0.001134472
	0.0154859	-0.002360219	-1.123458e-06	7.179468e-06	-0.05079786	-0.007878934	1.943477e-05	3.493548e-05
	-0.0003088014	-0.0001449389	0.01567669	-0.001134472	1.943477e-05	3.493548e-05	-0.05034893	-0.003708057
4.2e+08	-0.05116504	-0.00565792	-5.029873e-05	9.32074e-05	0.01498414	-0.002905855	-0.0003265845	-0.0001360307
	-5.029873e-05	9.32074e-05	-0.05044475	-0.001851485	-8.506937e-07	7.089074e-06	0.01523252	-0.001657101
	0.01498414	-0.002905855	-8.506937e-07	7.089074e-06	-0.05126643	-0.005564394	2.160564e-05	3.320687e-05
	-0.0003265845	-0.0001360307	0.01523252	-0.001657101	2.160564e-05	3.320687e-05	-0.05063649	-0.001330877
4.3e+08	-0.05145148	-0.003312714	-4.65086e-05	9.320765e-05	0.01442759	-0.003404193	-0.0003440518	-0.0001254072
	-4.65086e-05	9.320765e-05	-0.05056327	0.0005112325	-5.870999e-07	6.988979e-06	0.01473513	-0.002137497
	0.01442759	-0.003404193	-5.870999e-07	6.988979e-06	-0.05155663	-0.003227073	2.359388e-05	3.130673e-05
	-0.0003440518	-0.0001254072	0.01473513	-0.002137497	2.359388e-05	3.130673e-05	-0.05074164	0.001053992
4.4e+08	-0.05155832	-0.0009601637	-4.283562e-05	9.301878e-05	0.0138206	-0.003850465	-0.0003610403	-0.0001130917
	-4.283562e-05	9.301878e-05	-0.05050103	0.002867947	-3.331783e-07	6.880012e-06	0.01418839	-0.002571081
	0.0138206	-0.003850465	-3.331783e-07	6.880012e-06	-0.05166743	-0.000881093	2.53829e-05	2.925617e-05
	-0.0003610403	-0.0001130917	0.01418839	-0.002571081	2.53829e-05	2.925617e-05	-0.05066468	0.003431882
4.5e+08	-0.05148578	0.001385603	-3.929516e-05	9.265769e-05	0.01316791	-0.0042403	-0.0003774034	-9.917101e-05
	-3.929516e-05	9.265769e-05	-0.05025942	0.005204218	-8.930874e-08	6.763042e-06	0.01359657	-0.002953624
	0.01316791	-0.0042403	-8.930874e-08	6.763042e-06	-0.05159892	0.001459407	2.695851e-05	2.707869e-05
	-0.0003774034	-9.917101e-05	0.01359657	-0.002953624	2.695851e-05	2.707869e-05	-0.05040711	0.005788232
4.6e+08	-0.05123525	0.003710558	-3.587959e-05	9.205787e-05	0.01247464	-0.004569753	-0.0003909026	-7.72446e-05
	-3.587959e-05	9.205787e-05	-0.04984101	0.007505787	1.430633e-07	6.639957e-06	0.01296428	-0.00328128
	0.01247464	-0.004569753	1.430633e-07	6.639957e-06	-0.05135229	0.003780351	2.83272e-05	2.471246e-05
	-0.0003909026	-7.72446e-05	0.01296428	-0.00328128	2.83272e-05	2.471246e-05	-0.04997159	0.008108686
4.7e+08	-0.05080913	0.006000799	-3.26277e-05	9.131174e-05	0.01174623	-0.004835335	-0.0004026941	-5.335598e-05
	-3.26277e-05	9.131174e-05	-0.04924947	0.009758669	3.649817e-07	6.511023e-06	0.01229645	-0.003550612
