!$
! Info: Touchstone file created by Circ.  Input file=Tx_4in_Rx_93ohms_TxVia_35mils_RxVia_45mils.circ
!$
# Hz S RI R 50
0	0.003793744	6.871557e-26	1.777033e-08	8.393384e-27	4.046219e-05	7.152709e-24	3.458524e-08	1.883327e-27
	1.777035e-08	8.392141e-27	0.003792652	7.87961e-26	3.451082e-08	3.021545e-26	4.088428e-05	8.49971e-24
	3.862681e-05	7.345336e-24	3.451083e-08	3.021578e-26	0.003806418	6.551778e-26	2.109237e-08	9.940124e-27
	3.458524e-08	1.883993e-27	3.903741e-05	8.541758e-24	2.109238e-08	9.9413e-27	0.003805858	7.380748e-26
1e+07	0.005561379	8.292892e-05	2.571263e-08	5.118618e-08	0.0001064616	0.0009020606	7.045866e-08	1.535691e-07
	2.571263e-08	5.118618e-08	0.005557886	8.261983e-05	5.787142e-08	1.586294e-07	0.0001050132	0.000902397
	0.0001064022	0.0009020644	5.787142e-08	1.586294e-07	0.005464686	8.136198e-05	3.033107e-08	6.119728e-08
	7.045866e-08	1.535691e-07	0.0001049534	0.0009024071	3.033107e-08	6.119728e-08	0.005460616	8.118237e-05
2e+07	0.006701156	-0.001141899	3.880257e-08	9.234024e-08	0.0001987168	0.001810889	1.240854e-07	2.730684e-07
	3.880257e-08	9.234024e-08	0.0066872	-0.001141819	7.863132e-08	2.892877e-07	0.0001930646	0.001812058
	0.0001987046	0.001810926	7.863131e-08	2.892877e-07	0.006629093	-0.00110484	4.590473e-08	1.102735e-07
	1.240853e-07	2.730684e-07	0.0001930565	0.001812092	4.590473e-08	1.102735e-07	0.006612907	-0.001104337
3e+07	0.007389194	-0.002853833	5.317039e-08	1.305978e-07	0.0003960533	0.002673791	1.903866e-07	3.814319e-07
	5.317039e-08	1.305978e-07	0.007358155	-0.002851365	9.361244e-08	4.159006e-07	0.0003835873	0.0026766
	0.0003960558	0.002673796	9.361244e-08	4.159006e-07	0.007337165	-0.002805577	6.294343e-08	1.559024e-07
	1.903866e-07	3.814319e-07	0.0003835873	0.002676605	6.294343e-08	1.559024e-07	0.007301251	-0.002802033
4e+07	0.00776233	-0.004752481	6.995496e-08	1.662986e-07	0.0006857061	0.003502495	2.723295e-07	4.78374e-07
	6.995496e-08	1.662986e-07	0.007707678	-0.004745217	1.068412e-07	5.40333e-07	0.0006639336	0.003508041
	0.0006857012	0.003502491	1.068412e-07	5.40333e-07	0.007728022	-0.004700359	8.281227e-08	1.985424e-07
	2.723295e-07	4.78374e-07	0.0006639282	0.003508039	8.281227e-08	1.985424e-07	0.007664888	-0.004690986
5e+07	0.007870098	-0.006749878	8.902827e-08	1.992606e-07	0.001040498	0.004296564	3.68915e-07	5.62158e-07
	8.902827e-08	1.992606e-07	0.007785516	-0.006734276	1.188928e-07	6.629239e-07	0.001007086	0.004306282
	0.001040494	0.004296562	1.188928e-07	6.629239e-07	0.007851769	-0.006698328	1.054066e-07	2.379571e-07
	3.68915e-07	5.62158e-07	0.001007082	0.004306281	1.054066e-07	2.379571e-07	0.007754155	-0.006679015
6e+07	0.00773809	-0.008796056	1.101178e-07	2.293768e-07	0.001457643	0.005051712	4.786204e-07	6.314755e-07
	1.101178e-07	2.293768e-07	0.007617924	-0.008767761	1.298977e-07	7.84124e-07	0.001410466	0.005067323
	0.001457647	0.005051712	1.298977e-07	7.84124e-07	0.007734127	-0.008748415	1.303988e-07	2.739948e-07
	4.786204e-07	6.314755e-07	0.001410468	0.005067321	1.303988e-07	2.739948e-07	0.007595563	-0.008714113
7e+07	0.007382926	-0.01085565	1.32967e-07	2.56531e-07	0.001933737	0.005763309	5.998936e-07	6.851227e-07
	1.32967e-07	2.565311e-07	0.007222096	-0.01080977	1.399887e-07	9.043028e-07	0.001870887	0.005786776
	0.001933748	0.005763306	1.399887e-07	9.043028e-07	0.007391696	-0.0108147	1.574676e-07	3.065217e-07
	5.998936e-07	6.851227e-07	0.001870895	0.005786772	1.574676e-07	3.065217e-07	0.007206372	-0.01075975
8e+07	0.006817585	-0.01290019	1.573129e-07	2.805715e-07	0.002464859	0.006426704	7.310971e-07	7.218942e-07
	1.573129e-07	2.805716e-07	0.006611475	-0.01283128	1.492909e-07	1.023701e-06	0.002384655	0.006460221
	0.002464874	0.006426698	1.492909e-07	1.023701e-06	0.006837346	-0.01286843	1.86295e-07	3.353777e-07
	7.310971e-07	7.218942e-07	0.002384665	0.006460215	1.862951e-07	3.353777e-07	0.006599972	-0.01278658
9e+07	0.006054118	-0.01490423	1.828608e-07	3.013257e-07	0.003046595	0.007037399	8.704316e-07	7.406195e-07
	1.828608e-07	3.013258e-07	0.005798609	-0.01480624	1.57892e-07	1.142465e-06	0.002947598	0.007083376
	0.003046606	0.007037392	1.57892e-07	1.142465e-06	0.006082904	-0.01488417	2.165401e-07	3.603808e-07
	8.704316e-07	7.406195e-07	0.002947605	0.007083371	2.165401e-07	3.603808e-07	0.00578874	-0.01476842
1e+08	0.005108881	-0.01683578	2.092811e-07	3.186177e-07	0.003674089	0.007591029	1.015922e-06	7.402163e-07
	2.092811e-07	3.186177e-07	0.004800479	-0.01670204	1.658542e-07	1.260672e-06	0.003555127	0.007652082
	0.003674089	0.007591029	1.658542e-07	1.260672e-06	0.005143834	-0.01683129	2.478304e-07	3.813404e-07
	1.015922e-06	7.402163e-07	0.003555127	0.007652082	2.478304e-07	3.813404e-07	0.004788846	-0.01667392
1.1e+08	0.004027741	-0.01872731	2.361026e-07	3.324342e-07	0.004340626	0.008084518	1.164913e-06	7.200147e-07
	2.361026e-07	3.324342e-07	0.003666362	-0.01854912	1.7325e-07	1.378479e-06	0.00420111	0.00816327
	0.004340626	0.008084518	1.7325e-07	1.378479e-06	0.004062921	-0.01873531	2.796177e-07	3.981568e-07
	1.164913e-06	7.200147e-07	0.00420111	0.00816327	2.796177e-07	3.981568e-07	0.003645852	-0.01852674
1.2e+08	0.002761787	-0.02055056	2.629572e-07	3.427775e-07	0.005042183	0.008514999	1.315416e-06	6.797776e-07
	2.629572e-07	3.427775e-07	0.002345257	-0.02032206	1.798768e-07	1.496241e-06	0.004881499	0.008614332
	0.005042183	0.008514999	1.798768e-07	1.496241e-06	0.002796652	-0.02056971	3.11452e-07	4.108713e-07
	1.315416e-06	6.797776e-07	0.004881499	0.008614332	3.11452e-07	4.108713e-07	0.002315498	-0.02030245
1.3e+08	0.001328335	-0.0222774	2.894915e-07	3.496207e-07	0.005772932	0.008879433	1.46524e-06	6.191661e-07
	2.894915e-07	3.496207e-07	0.0008550879	-0.02199169	1.858709e-07	1.614092e-06	0.005590821	0.00900234
	0.005772932	0.008879433	1.858709e-07	1.614092e-06	0.001361573	-0.0223075	3.42916e-07	4.194548e-07
	1.46524e-06	6.191661e-07	0.005590821	0.00900234	3.42916e-07	4.194548e-07	0.0008150722	-0.02197328
1.4e+08	-0.0002591121	-0.02389163	3.153322e-07	3.529715e-07	0.006526761	0.009175499	1.612113e-06	5.380714e-07
	3.153322e-07	3.529715e-07	-0.0007897321	-0.0235411	1.913379e-07	1.732142e-06	0.00632333	0.009325038
	0.006526761	0.009175499	1.913379e-07	1.732142e-06	-0.0002288672	-0.02393237	3.735704e-07	4.239183e-07
	1.612113e-06	5.380714e-07	0.00632333	0.009325038	3.735704e-07	4.239183e-07	-0.0008410049	-0.02352237
1.5e+08	-0.001987423	-0.02537988	3.400961e-07	3.528739e-07	0.007297374	0.009401467	1.75372e-06	4.366181e-07
	3.400961e-07	3.528739e-07	-0.002575014	-0.02495647	1.963721e-07	1.850482e-06	0.007073093	0.009580718
	0.007297374	0.009401467	1.963721e-07	1.850482e-06	-0.001961436	-0.02543079	4.029646e-07	4.243145e-07
	1.75372e-06	4.366181e-07	0.007073093	0.009580718	4.029646e-07	4.243145e-07	-0.002638407	-0.02493587
1.6e+08	-0.003843351	-0.02673056	3.633961e-07	3.49411e-07	0.008078347	0.009556195	1.887739e-06	3.15173e-07
	3.633961e-07	3.49411e-07	-0.004486407	-0.02622606	2.010606e-07	1.969191e-06	0.007834051	0.009768223
	0.008078347	0.009556195	2.010606e-07	1.969191e-06	-0.003822743	-0.02679109	4.306438e-07	4.207424e-07
	1.887739e-06	3.15173e-07	0.007834051	0.009768223	4.306438e-07	4.207424e-07	-0.0045626	-0.02620198
1.7e+08	-0.005813379	-0.02793356	3.848471e-07	3.427071e-07	0.008863188	0.009639133	2.011866e-06	1.743494e-07
	3.848471e-07	3.427071e-07	-0.006509308	-0.02733978	2.054856e-07	2.088335e-06	0.008600071	0.009886947
	0.008863188	0.009639133	2.054856e-07	2.088335e-06	-0.005799144	-0.0280031	4.561553e-07	4.133488e-07
	2.011866e-06	1.743494e-07	0.008600071	0.009886947	4.561553e-07	4.133488e-07	-0.006598782	-0.0273106
1.8e+08	-0.007883665	-0.02898007	4.04071e-07	3.329283e-07	0.009645392	0.009650314	2.123844e-06	1.500637e-08
	4.04071e-07	3.329283e-07	-0.00862883	-0.02828906	2.097272e-07	2.207975e-06	0.009365001	0.009936831
	0.009645392	0.009650314	2.097272e-07	2.207975e-06	-0.007876684	-0.02905801	4.790555e-07	4.023296e-07
	2.123844e-06	1.500637e-08	0.009365001	0.009936831	4.790555e-07	4.023296e-07	-0.008731872	-0.02825313
1.9e+08	-0.01004003	-0.02986256	4.207029e-07	3.202822e-07	0.01041849	0.009590357	2.221496e-06	-1.61756e-07
	4.207029e-07	3.202822e-07	-0.01082981	-0.02906669	2.138648e-07	2.328164e-06	0.01012272	0.009918365
	0.01041849	0.009590357	2.138648e-07	2.328164e-06	-0.01004111	-0.02994828	4.989158e-07	3.879289e-07
	2.221496e-06	-1.61756e-07	0.01012272	0.009918365	4.989158e-07	3.879289e-07	-0.01094653	-0.02902239
2e+08	-0.01226801	-0.03057478	4.343952e-07	3.050168e-07	0.01117611	0.009460454	2.302746e-06	-3.546041e-07
	4.343952e-07	3.050168e-07	-0.01309686	-0.02966686	2.179788e-07	2.448948e-06	0.01086717	0.009832578
	0.01117611	0.009460454	2.179788e-07	2.448948e-06	-0.0122779	-0.03066764	5.153285e-07	3.704385e-07
	2.302746e-06	-3.546041e-07	0.01086717	0.009832578	5.153285e-07	3.704385e-07	-0.0132272	-0.02961261
2.1e+08	-0.01455288	-0.03111169	4.448233e-07	2.874192e-07	0.01191201	0.009262362	2.365643e-06	-5.619817e-07
	4.448233e-07	2.874192e-07	-0.0154144	-0.03008508	2.22151e-07	2.570368e-06	0.01159243	0.009681025
	0.01191201	0.009262362	2.22151e-07	2.570368e-06	-0.0145723	-0.03121107	5.279126e-07	3.501951e-07
	2.365643e-06	-5.619817e-07	0.01159243	0.009681025	5.279126e-07	3.501951e-07	-0.01555815	-0.03001934
2.2e+08	-0.01687973	-0.03146951	4.516894e-07	2.678128e-07	0.01262014	0.008998382	2.408391e-06	-7.821231e-07
	4.516894e-07	2.678128e-07	-0.01776676	-0.0303182	2.264656e-07	2.692458e-06	0.01229274	0.00946578
	0.01262014	0.008998382	2.264656e-07	2.692458e-06	-0.01690939	-0.03157476	5.36319e-07	3.275784e-07
	2.408391e-06	-7.821231e-07	0.01229274	0.00946578	5.36319e-07	3.275784e-07	-0.01792356	-0.03023946
2.3e+08	-0.01923356	-0.03164568	4.547268e-07	2.465548e-07	0.0132947	0.008671344	2.429363e-06	-1.013068e-06
	4.547268e-07	2.465548e-07	-0.02013821	-0.03036435	2.310088e-07	2.815245e-06	0.01296258	0.00918941
	0.0132947	0.008671344	2.310088e-07	2.815245e-06	-0.01927414	-0.03175613	5.402347e-07	3.030073e-07
	2.429363e-06	-1.013068e-06	0.01296258	0.00918941	5.402347e-07	3.030073e-07	-0.02030758	-0.03027118
2.4e+08	-0.02159932	-0.0316389	4.537036e-07	2.240336e-07	0.01393015	0.008284579	2.427124e-06	-1.25268e-06
	4.537036e-07	2.240336e-07	-0.02251306	-0.03022298	2.358693e-07	2.938748e-06	0.01359664	0.008854957
	0.01393015	0.008284579	2.358693e-07	2.938748e-06	-0.02165149	-0.03175381	5.393878e-07	2.76937e-07
	2.427124e-06	-1.25268e-06	0.01359664	0.008854957	5.393878e-07	2.76937e-07	-0.0226944	-0.03011401
2.5e+08	-0.02396203	-0.03144906	4.484263e-07	2.006646e-07	0.01452128	0.007841896	2.400447e-06	-1.498665e-06
	4.484263e-07	2.006646e-07	-0.02487578	-0.02989481	2.411375e-07	3.062978e-06	0.01418995	0.008465912
	0.01452128	0.007841896	2.411375e-07	3.062978e-06	-0.02402645	-0.03156766	5.335511e-07	2.498538e-07
	2.400447e-06	-1.498665e-06	0.01418995	0.008465912	5.335511e-07	2.498538e-07	-0.02506835	-0.02976873
2.6e+08	-0.02630687	-0.03107727	4.387414e-07	1.768868e-07	0.01506327	0.007347545	2.348332e-06	-1.748589e-06
	4.387414e-07	1.768868e-07	-0.02721104	-0.02938182	2.46905e-07	3.187938e-06	0.01473784	0.008026187
	0.01506327	0.007347545	2.46905e-07	3.187938e-06	-0.02638414	-0.03119871	5.225455e-07	2.222719e-07
	2.348332e-06	-1.748589e-06	0.01473784	0.008026187	5.225455e-07	2.222719e-07	-0.02741399	-0.02923739
2.7e+08	-0.02861919	-0.03052582	4.245414e-07	1.531587e-07	0.01555165	0.006806187	2.270016e-06	-1.999906e-06
	4.245414e-07	1.531587e-07	-0.0295038	-0.02868721	2.532645e-07	3.313622e-06	0.01523604	0.007540082
	0.01555165	0.006806187	2.532645e-07	3.313622e-06	-0.02870988	-0.0306492	5.062432e-07	1.947275e-07
	2.270016e-06	-1.999906e-06	0.01523604	0.007540082	5.062432e-07	1.947275e-07	-0.02971618	-0.02852328
2.8e+08	-0.03088467	-0.02979814	4.057641e-07	1.299533e-07	0.01598244	0.006222855	2.164987e-06	-2.249976e-06
	4.057641e-07	1.299533e-07	-0.03173942	-0.02781537	2.603084e-07	3.440013e-06	0.01568066	0.007012251
	0.01598244	0.006222855	2.603084e-07	3.440013e-06	-0.03098933	-0.02992248	4.8457e-07	1.677745e-07
	2.164987e-06	-2.249976e-06	0.01568066	0.007012251	4.8457e-07	1.677745e-07	-0.0319602	-0.02763089
2.9e+08	-0.03308939	-0.02889878	3.823948e-07	1.077544e-07	0.01635209	0.005602912	2.032991e-06	-2.496091e-06
	3.823948e-07	1.077544e-07	-0.03390375	-0.02677187	2.681284e-07	3.567088e-06	0.01606824	0.006447664
	0.01635209	0.005602912	2.681284e-07	3.567088e-06	-0.0332085	-0.02902305	4.575075e-07	1.419786e-07
	2.032991e-06	-2.496091e-06	0.01606824	0.006447664	4.575075e-07	1.419786e-07	-0.03413177	-0.02656584
3e+08	-0.03521989	-0.02783338	3.544681e-07	8.705112e-08	0.01665755	0.004952011	1.874042e-06	-2.735499e-06
	3.544681e-07	8.705112e-08	-0.03598318	-0.02556336	2.768142e-07	3.694811e-06	0.01639577	0.005851571
	0.01665755	0.004952011	2.768142e-07	3.694811e-06	-0.03535385	-0.02795646	4.250943e-07	1.17912e-07
	1.874042e-06	-2.735499e-06	0.01639577	0.005851571	4.250943e-07	1.17912e-07	-0.03621723	-0.02533493
3.1e+08	-0.03726325	-0.02660861	3.220684e-07	6.833316e-08	0.0168963	0.004276048	1.688423e-06	-2.965433e-06
	3.220684e-07	6.833316e-08	-0.03796477	-0.02419756	2.864528e-07	3.823138e-06	0.01666074	0.005229458
	0.0168963	0.004276048	2.864528e-07	3.823138e-06	-0.03741239	-0.02672934	3.874272e-07	9.614772e-08
	1.688423e-06	-2.965433e-06	0.01666074	0.005229458	3.874272e-07	9.614772e-08	-0.03820354	-0.02394594
3.2e+08	-0.03920718	-0.02523211	2.853303e-07	5.208596e-08	0.01706633	0.00358112	1.476693e-06	-3.18313e-06
	2.853303e-07	5.208596e-08	-0.03983628	-0.02268316	2.971273e-07	3.952016e-06	0.0168611	0.004587004
	0.01706633	0.00358112	2.971273e-07	3.952016e-06	-0.03937175	-0.02534926	3.446613e-07	7.72538e-08
	1.476693e-06	-3.18313e-06	0.0168611	0.004587004	3.446613e-07	7.72538e-08	-0.04007839	-0.02240772
3.3e+08	-0.04104007	-0.02371246	2.444384e-07	3.87854e-08	0.01716619	0.002873468	1.239682e-06	-3.385866e-06
	2.444384e-07	3.87854e-08	-0.04158626	-0.02102982	3.089163e-07	4.081383e-06	0.01699533	0.003930038
	0.01716619	0.002873468	3.089163e-07	4.081383e-06	-0.0412202	-0.02382477	2.970099e-07	6.178728e-08
	1.239682e-06	-3.385866e-06	0.01699533	0.003930038	2.970099e-07	6.178728e-08	-0.04183027	-0.02073003
3.4e+08	-0.04275107	-0.0220591	1.996265e-07	2.889281e-08	0.01719499	0.002159441	9.784932e-07	-3.570975e-06
	1.996265e-07	2.889281e-08	-0.04320412	-0.01924803	3.218926e-07	4.211167e-06	0.01706241	0.003264497
	0.01719499	0.002159441	3.218926e-07	4.211167e-06	-0.04294681	-0.02216526	2.447434e-07	5.028852e-08
	9.784932e-07	-3.570975e-06	0.01706241	0.003264497	2.447434e-07	5.028852e-08	-0.04344855	-0.01892347
3.5e+08	-0.04433015	-0.02028228	1.511767e-07	2.285003e-08	0.0171524	0.001445434	6.944936e-07	-3.735877e-06
	1.511767e-07	2.285003e-08	-0.04468019	-0.01734907	3.361221e-07	4.341289e-06	0.01706187	0.002596377
	0.0171524	0.001445434	3.361221e-07	4.341289e-06	-0.04454141	-0.02038097	1.881883e-07	4.327544e-08
	6.944936e-07	-3.735877e-06	0.01706187	0.002596377	1.881883e-07	4.327544e-08	-0.04492351	-0.01699949
3.6e+08	-0.04576811	-0.01839299	9.941717e-08	2.107439e-08	0.01703865	0.0007378502	3.893103e-07	-3.878104e-06
	9.941717e-08	2.107439e-08	-0.04600577	-0.01534494	3.516635e-07	4.471662e-06	0.01699373	0.001931689
	0.01703865	0.0007378502	3.516635e-07	4.471662e-06	-0.04599472	-0.01848284	1.27725e-07	4.123782e-08
	3.893103e-07	-3.878104e-06	0.01699373	0.001931689	1.27725e-07	4.123782e-08	-0.04624642	-0.0149702
3.7e+08	-0.04705673	-0.01640286	4.472023e-08	2.395412e-08	0.01685455	4.304368e-05	6.481922e-08	-3.995327e-06
	4.472023e-08	2.395412e-08	-0.04717318	-0.01324826	3.685669e-07	4.602192e-06	0.01685856	0.001276413
	0.01685455	4.304368e-05	3.685669e-07	4.602192e-06	-0.04729838	-0.01648253	6.378527e-08	4.46319e-08
	6.481922e-08	-3.995327e-06	0.01685856	0.001276413	6.378527e-08	4.46319e-08	-0.04740957	-0.01284837
3.8e+08	-0.04818869	-0.01432414	-1.250041e-08	3.184373e-08	0.01660145	-0.0006327254	-2.768665e-07	-4.085374e-06
	-1.250041e-08	3.184373e-08	-0.04817579	-0.0110722	3.868733e-07	4.732779e-06	0.01665743	0.0006364569
	0.01660145	-0.0006327254	3.868733e-07	4.732779e-06	-0.04844496	-0.01439226	-3.15097e-09	5.387517e-08
	-2.768665e-07	-4.085374e-06	0.01665743	0.0006364569	-3.15097e-09	5.387517e-08	-0.04840635	-0.0106473
3.9e+08	-0.04915773	-0.01216956	-7.179288e-08	4.505988e-08	0.01628125	-0.001283339	-6.334106e-07	-4.14626e-06
	-7.179288e-08	4.505988e-08	-0.04900808	-0.008830379	4.066139e-07	4.863318e-06	0.01639194	1.760721e-05
	0.01628125	-0.001283339	4.066139e-07	4.863318e-06	-0.04942807	-0.0122248	-7.2559e-08	6.934148e-08
	-6.334106e-07	-4.14626e-06	0.01639194	1.76072e-05	-7.2559e-08	6.934148e-08	-0.04923123	-0.008380762
4e+08	-0.04995858	-0.009952301	-1.326707e-07	6.387735e-08	0.01589638	-0.001902868	-1.00227e-06	-4.176202e-06
	-1.326707e-07	6.387735e-08	-0.04966565	-0.006536782	4.278093e-07	4.9937e-06	0.01606417	-0.00057451
	0.01589638	-0.001902868	4.278093e-07	4.9937e-06	-0.05024233	-0.009993356	-1.438736e-07	9.13565e-08
	-1.00227e-06	-4.176202e-06	0.01606417	-0.00057451	-1.438736e-07	9.13565e-08	-0.04987983	-0.00606288
4.1e+08	-0.05058705	-0.007685889	-1.946168e-07	8.852556e-08	0.01544978	-0.002485618	-1.380712e-06	-4.173644e-06
	-1.946168e-07	8.852556e-08	-0.05014524	-0.004205667	4.504696e-07	5.123814e-06	0.01567669	-0.001134472
	0.01544978	-0.002485618	4.504696e-07	5.123814e-06	-0.05088343	-0.007711483	-2.164935e-07	1.201935e-07
	-1.380712e-06	-4.173644e-06	0.01567669	-0.001134472	-2.164935e-07	1.201935e-07	-0.05034893	-0.003708057
4.2e+08	-0.05104003	-0.005384114	-2.570879e-07	1.191853e-07	0.01494488	-0.00302617	-1.765837e-06	-4.137273e-06
	-2.570879e-07	1.191853e-07	-0.05044475	-0.001851485	4.745934e-07	5.253543e-06	0.01523252	-0.001657101
	0.01494488	-0.00302617	4.745934e-07	5.253543e-06	-0.05134814	-0.005393022	-2.897865e-07	1.560698e-07
	-1.765837e-06	-4.137273e-06	0.01523252	-0.001657101	-2.897865e-07	1.560698e-07	-0.05063649	-0.001330877
4.3e+08	-0.05131553	-0.003060942	-3.195192e-07	1.559862e-07	0.0143856	-0.003519423	-2.154597e-06	-4.066039e-06
	-3.195192e-07	1.559862e-07	-0.05056327	0.0005112325	5.001679e-07	5.382775e-06	0.01473513	-0.002137497
	0.0143856	-0.003519423	5.001679e-07	5.382775e-06	-0.05163434	-0.003052002	-3.630944e-07	1.991435e-07
	-2.154597e-06	-4.066039e-06	0.01473513	-0.002137497	-3.630944e-07	1.991435e-07	-0.05074164	0.001053992
4.4e+08	-0.05141263	-0.0007304426	-3.813291e-07	1.990043e-07	0.01377624	-0.003960634	-2.54382e-06	-3.959163e-06
	-3.813291e-07	1.990043e-07	-0.05050103	0.002867947	5.271688e-07	5.511395e-06	0.01418839	-0.002571081
	0.01377624	-0.003960634	5.271688e-07	5.511395e-06	-0.05174102	-0.0007025602	-4.357392e-07	2.495106e-07
	-2.54382e-06	-3.959163e-06	0.01418839	-0.002571081	-4.357392e-07	2.495106e-07	-0.05066468	0.003431882
4.5e+08	-0.05133152	0.00159331	-4.419246e-07	2.482601e-07	0.01312155	-0.004345451	-2.930238e-06	-3.816159e-06
	-4.419246e-07	2.482601e-07	-0.05025942	0.005204218	5.555604e-07	5.639288e-06	0.01359657	-0.002953624
	0.01312155	-0.004345451	5.555604e-07	5.639288e-06	-0.05166828	0.001641149	-5.070286e-07	3.07203e-07
	-2.930238e-06	-3.816159e-06	0.01359657	-0.002953624	-5.070286e-07	3.07203e-07	-0.05040711	0.005788232
4.6e+08	-0.05107354	0.003896316	-5.007068e-07	3.037178e-07	0.01242664	-0.004669948	-3.310509e-06	-3.636838e-06
	-5.007068e-07	3.037178e-07	-0.04984101	0.007505787	5.852955e-07	5.766346e-06	0.01296428	-0.00328128
	0.01242664	-0.004669948	5.852955e-07	5.766346e-06	-0.05141733	0.003965055	-5.762621e-07	3.721886e-07
	-3.310509e-06	-3.636838e-06	0.01296428	-0.00328128	-5.762621e-07	3.721886e-07	-0.04997159	0.008108686
4.7e+08	-0.05064106	0.006164736	-5.570759e-07	3.652841e-07	0.01169693	-0.004930656	-3.681243e-06	-3.421316e-06
	-5.570759e-07	3.652841e-07	-0.04924947	0.009758669	6.163158e-07	5.892462e-06	0.01229645	-0.003550612
	0.01169693	-0.004930656	6.163158e-07	5.892462e-06	-0.05099047	0.006255202	-6.427373e-07	4.443657e-07
	-3.681243e-06	-3.421316e-06	0.01229645	-0.003550612	-6.427373e-07	4.443657e-07	-0.04936187	0.01037914
4.8e+08	-0.05003757	0.008384973	-6.104367e-07	4.328083e-07	0.01093814	-0.005124588	-4.039037e-06	-3.170026e-06
