!$
! Info: Touchstone file created by Circ.  Input file=Tx_4in_Rx_100ohms_TxVia_35mils_RxVia_45mils.circ
!$
# Hz S RI R 50
0	0.004277656	6.873529e-26	0.9955815	-6.563754e-26	4.046833e-05	8.078572e-24	-3.854719e-05	2.061981e-21
	0.9955815	-6.723909e-26	0.00427656	7.882054e-26	-3.891913e-05	2.107557e-21	4.089016e-05	9.600472e-24
	3.86327e-05	8.296098e-24	-3.904702e-05	2.123269e-21	0.00429031	6.553686e-26	0.9955656	-6.181544e-26
	-3.892761e-05	2.108618e-21	3.904319e-05	9.647925e-24	0.9955656	-6.172488e-26	0.004289758	7.38311e-26
1e+07	0.006147571	0.003148251	0.9928965	-0.04362789	0.0002362255	0.0009136982	-0.0002021027	-0.0001490263
	0.9928965	-0.04362789	0.00614494	0.003147775	-0.0002021084	-0.0001490141	0.0002348368	0.0009140088
	0.0002361661	0.0009137019	-0.0002021668	-0.0001490044	0.006100468	0.003159681	0.9929404	-0.04372189
	-0.0002021611	-0.0001490166	0.000234777	0.0009140188	0.9929404	-0.04372189	0.006097261	0.003159334
2e+07	0.007772008	0.004934131	0.9886838	-0.0857005	0.0002920976	0.001881945	-0.000160915	-0.000360972
	0.9886838	-0.0857005	0.007761421	0.004933579	-0.0001609301	-0.00036097	0.0002866969	0.001883057
	0.0002920852	0.001881982	-0.0001609444	-0.0003609287	0.007742635	0.00497854	0.9887005	-0.08590945
	-0.0001609313	-0.0003609298	0.0002866886	0.001883092	0.9887005	-0.08590945	0.00772981	0.004978417
3e+07	0.009167324	0.006126869	0.9830801	-0.1269982	0.0004379564	0.002769478	-0.0001480605	-0.0005052124
	0.9830801	-0.1269982	0.009143725	0.006127755	-0.0001481118	-0.0005051969	0.0004260448	0.002772181
	0.0004379589	0.002769483	-0.0001481104	-0.0005051903	0.009154508	0.006187762	0.9830649	-0.1273052
	-0.0001480591	-0.0005052054	0.0004260447	0.002772186	0.9830649	-0.1273052	0.009126023	0.006189729
4e+07	0.01047394	0.007046965	0.9759496	-0.167795	0.000675176	0.00361757	-0.0001661312	-0.0006279733
	0.9759496	-0.167795	0.01043228	0.007051013	-0.0001662137	-0.0006279374	0.0006543653	0.003622925
	0.0006751712	0.003617566	-0.0001662199	-0.0006279424	0.01047779	0.00711928	0.9758961	-0.1681941
	-0.0001661377	-0.0006279789	0.0006543599	0.003622923	0.9758961	-0.1681941	0.01042763	0.007125436
5e+07	0.01173746	0.007771396	0.9672569	-0.2081105	0.001056929	0.004412754	-0.0002704877	-0.0007212465
	0.9672569	-0.2081105	0.01167282	0.007781282	-0.000270608	-0.0007211852	0.001024972	0.004422067
	0.001056925	0.004412753	-0.0002706132	-0.0007211871	0.0117583	0.0078516	0.9671587	-0.2085967
	-0.0002704932	-0.0007212486	0.001024968	0.004422066	0.9671587	-0.2085967	0.0116806	0.007865187
6e+07	0.01297683	0.00833609	0.9569958	-0.2479221	0.001497059	0.005164294	-0.0003773777	-0.0007995173
	0.9569958	-0.2479221	0.01288482	0.008355123	-0.0003775438	-0.0007994191	0.001451906	0.005179188
	0.001497062	0.005164294	-0.0003775391	-0.0007994188	0.01301491	0.00842117	0.9568467	-0.248491
	-0.0003773726	-0.0007995168	0.001451908	0.005179187	0.9568467	-0.248491	0.01290447	0.008446184
7e+07	0.01419998	0.008761213	0.9451721	-0.287191	0.001992471	0.005868667	-0.0004865891	-0.0008640289
	0.9451721	-0.287191	0.01407665	0.008793077	-0.000486803	-0.0008638784	0.001932277	0.005890997
	0.001992483	0.005868665	-0.0004867882	-0.0008638807	0.0142554	0.008848386	0.944966	-0.2878378
	-0.0004865729	-0.0008640313	0.001932284	0.005890994	0.944966	-0.2878378	0.01410753	0.008889256
8e+07	0.01540958	0.009060051	0.9317988	-0.3258702	0.002539337	0.006521779	-0.0005974163	-0.0009152379
	0.9317988	-0.3258702	0.01525131	0.009108823	-0.0005976746	-0.0009150192	0.002462463	0.006553617
	0.002539352	0.006521773	-0.0005976557	-0.0009150261	0.01548223	0.009146613	0.9315298	-0.3265901
	-0.0005973956	-0.0009152452	0.002462473	0.006553611	0.9315298	-0.3265901	0.01529263	0.009208233
9e+07	0.01660589	0.009243163	0.9168936	-0.36391	0.003133041	0.007119054	-0.000708708	-0.0009529485
	0.9168936	-0.36391	0.01640937	0.009313395	-0.0007090026	-0.0009526473	0.003038075	0.00716268
	0.003133052	0.007119047	-0.0007089886	-0.0009526551	0.01669539	0.009326332	0.9165559	-0.3646977
	-0.0007086926	-0.0009529571	0.003038082	0.007162675	0.9165559	-0.3646977	0.01646012	0.009414173
1e+08	0.01779155	0.009326663	0.900474	-0.4012664	0.003766802	0.0076528	-0.0008175081	-0.000973527
	0.900474	-0.4012664	0.01755391	0.009423417	-0.0008178272	-0.0009731306	0.00365257	0.007710693
	0.003766802	0.0076528	-0.0008178272	-0.0009731306	0.01789681	0.009402775	0.9000628	-0.4021153
	-0.0008175081	-0.000973527	0.00365257	0.007710693	0.9000628	-0.4021153	0.01761245	0.009522937
1.1e+08	0.01899145	0.009272436	0.8825411	-0.4378456	0.004422787	0.008135124	-0.0009109653	-0.0009927052
	0.8825411	-0.4378456	0.01871304	0.00940276	-0.0009113012	-0.0009921905	0.004288692	0.008209798
	0.004422787	0.008135124	-0.0009113011	-0.0009921905	0.01911017	0.009342399	0.8820554	-0.4387525
	-0.0009109653	-0.0009927052	0.004288692	0.008209798	0.8820554	-0.4387525	0.01877588	0.00950277
1.2e+08	0.02015186	0.009097855	0.8631704	-0.4735986	0.005116556	0.008562738	-0.001008874	-0.001011081
	0.8631704	-0.4735986	0.01983076	0.009265829	-0.001009213	-0.001010442	0.004961971	0.008656929
	0.005116556	0.008562738	-0.001009213	-0.001010442	0.02028393	0.009160584	0.8626041	-0.4745601
	-0.001008874	-0.001011081	0.004961971	0.008656929	0.8626041	-0.4745601	0.01989791	0.009366879
1.3e+08	0.02127354	0.00881805	0.8423902	-0.5084825	0.005840875	0.008928137	-0.001109076	-0.001023994
	0.8423902	-0.5084825	0.02090823	0.009028746	-0.001109402	-0.001023223	0.005665502	0.009044691
	0.005840875	0.008928137	-0.001109402	-0.001023223	0.02141818	0.008872	0.8417379	-0.5094938
	-0.001109076	-0.001023994	0.005665502	0.009044691	0.8417379	-0.5094938	0.0209792	0.009130652
1.4e+08	0.0223532	0.008439439	0.8202347	-0.5424466	0.006589572	0.00922797	-0.001210742	-0.001030531
	0.8202347	-0.5424466	0.02194283	0.008698626	-0.001211041	-0.001029623	0.006393454	0.009369798
	0.006589572	0.00922797	-0.001211041	-0.001029623	0.02250947	0.008483275	0.8194914	-0.5435024
	-0.001210742	-0.001030531	0.006393454	0.009369798	0.8194914	-0.5435024	0.022017	0.008801242
1.5e+08	0.02338653	0.00796724	0.796741	-0.5754398	0.007356467	0.009459958	-0.001313234	-0.001030375
	0.796741	-0.5754398	0.02293109	0.008281107	-0.001313487	-0.001029325	0.007139987	0.009629998
	0.007356467	0.009459958	-0.001313487	-0.001029325	0.02355347	0.007999813	0.795902	-0.5765343
	-0.001313234	-0.001030375	0.007139988	0.009629998	0.795902	-0.5765343	0.02300788	0.008384378
1.6e+08	0.02436883	0.007406387	0.7719489	-0.6074119	0.008135304	0.009622571	-0.001415997	-0.001023456
	0.7719489	-0.6074119	0.02386918	0.007781315	-0.001416184	-0.00102226	0.007899188	0.009823752
	0.008135304	0.009622571	-0.001416184	-0.00102226	0.02454549	0.007426653	0.7710098	-0.608539
	-0.001415997	-0.001023456	0.007899188	0.009823752	0.7710098	-0.608539	0.02394804	0.007885253
1.7e+08	0.0252952	0.00676185	0.7459002	-0.6383138	0.00891977	0.009714928	-0.001518539	-0.001009839
	0.7459002	-0.6383138	0.02475307	0.00720423	-0.001518639	-0.001008497	0.00866508	0.009950133
	0.00891977	0.009714928	-0.001518639	-0.001008497	0.02548063	0.006768825	0.7448572	-0.639467
	-0.001518539	-0.001009839	0.00866508	0.009950133	0.7448572	-0.639467	0.02483353	0.007308888
1.8e+08	0.02616077	0.006038773	0.7186392	-0.668098	0.009703533	0.009736754	-0.001620422	-0.0009896741
	0.7186392	-0.668098	0.02557871	0.006554867	-0.001620414	-0.0009881882	0.009431663	0.01000879
	0.009703533	0.009736754	-0.001620414	-0.0009881882	0.02635398	0.00603151	0.7174886	-0.6692706
	-0.001620422	-0.0009896741	0.009431663	0.01000879	0.7174886	-0.6692706	0.02566033	0.006660322
1.9e+08	0.02696078	0.005242554	0.6902119	-0.6967183	0.01048028	0.00968836	-0.001721266	-0.0009631683
	0.6902119	-0.6967183	0.02634215	0.005838381	-0.001721125	-0.0009615438	0.01019295	0.009999911
	0.01048028	0.00968836	-0.001721125	-0.0009615438	0.02716073	0.005220128	0.6889506	-0.6979033
	-0.001721266	-0.0009631683	0.01019295	0.009999911	0.6889506	-0.6979033	0.02642453	0.005944719
2e+08	0.02769072	0.004378849	0.6606664	-0.7241303	0.01124377	0.009570625	-0.001820739	-0.0009305645
	0.6606664	-0.7241303	0.02703955	0.005060098	-0.001820442	-0.0009288103	0.010943	0.009924239
	0.01124377	0.009570625	-0.001820442	-0.0009288103	0.02789626	0.004340373	0.6592916	-0.7253205
	-0.001820739	-0.0009305646	0.010943	0.009924239	0.6592916	-0.7253205	0.02712234	0.005167417
2.1e+08	0.02834632	0.003453589	0.6300526	-0.7502915	0.01198787	0.009384983	-0.001918566	-0.000892128
	0.6300526	-0.7502915	0.02766734	0.00422555	-0.001918089	-0.0008902567	0.01167598	0.009783027
	0.01198787	0.009384983	-0.001918089	-0.0008902567	0.02855623	0.003398223	0.628562	-0.7514795
	-0.001918566	-0.000892128	0.01167598	0.009783027	0.628562	-0.7514795	0.02775019	0.004333946
2.2e+08	0.02892367	0.002472966	0.5984221	-0.7751614	0.0127066	0.009133403	-0.002014519	-0.0008481349
	0.5984221	-0.7751614	0.02822222	0.003340469	-0.00201384	-0.0008461629	0.0123862	0.009578039
	0.0127066	0.009133403	-0.00201384	-0.0008461629	0.02913659	0.002399941	0.5968137	-0.7763396
	-0.002014519	-0.0008481349	0.0123862	0.009578039	0.5968137	-0.7763396	0.02830478	0.003450048
2.3e+08	0.02941927	0.001443431	0.565828	-0.7987013	0.01339418	0.008818377	-0.002108421	-0.0007988623
	0.565828	-0.7987013	0.02870122	0.00241079	-0.00210752	-0.0007968099	0.01306812	0.00931153
	0.01339418	0.008818377	-0.00210752	-0.0007968099	0.02963374	0.001352075	0.5641003	-0.799862
	-0.002108421	-0.0007988623	0.01306812	0.00931153	0.5641003	-0.799862	0.02878317	0.002521674
2.4e+08	0.02982999	0.0003716426	0.532325	-0.8208747	0.01404507	0.008442898	-0.00220014	-0.0007445802
	0.532325	-0.8208747	0.02910173	0.001442611	-0.002198997	-0.0007424711	0.01371645	0.008986231
	0.01404507	0.008442898	-0.002198997	-0.0007424711	0.03004444	0.0002614003	0.530477	-0.82201
	-0.00220014	-0.0007445802	0.01371645	0.008986231	0.530477	-0.82201	0.02918273	0.00155494
2.5e+08	0.03015318	-0.0007355267	0.4979694	-0.8416474	0.01465401	0.008010431	-0.002289585	-0.0006855438
	0.4979694	-0.8416474	0.02942156	0.0004421998	-0.002288186	-0.000683405	0.01432615	0.008605322
	0.01465401	0.008010431	-0.002288186	-0.000683405	0.03036595	-0.00086507	0.4960005	-0.8427493
	-0.002289585	-0.0006855438	0.01432615	0.008605322	0.4960005	-0.8427493	0.02950129	0.000556138
2.6e+08	0.03038668	-0.001871044	0.4628186	-0.8609871	0.01521608	0.007524896	-0.002376705	-0.0006219876
	0.4628186	-0.8609871	0.02965892	-0.0005840563	-0.002375036	-0.000619849	0.01489247	0.008172412
	0.01521608	0.007524896	-0.002375036	-0.000619849	0.03059601	-0.002020151	0.4607286	-0.8620477
	-0.002376705	-0.0006219876	0.01489247	0.008172412	0.4607286	-0.8620477	0.02973705	-0.0004683205
2.7e+08	0.03052881	-0.003027744	0.4269314	-0.8788641	0.01572671	0.006990628	-0.002461479	-0.0005541199
	0.4269314	-0.8788641	0.02981246	-0.001629674	-0.002459532	-0.0005520136	0.01541099	0.007691509
	0.01572671	0.006990628	-0.002459532	-0.0005520136	0.03073288	-0.003196508	0.4247205	-0.8798752
	-0.002461479	-0.0005541199	0.01541099	0.007691509	0.4247205	-0.8798752	0.02988868	-0.001511922
2.8e+08	0.03057839	-0.004198354	0.3903677	-0.895251	0.0161817	0.006412355	-0.002543914	-0.0004821181
	0.3903677	-0.895251	0.0298813	-0.002688096	-0.002541685	-0.0004800782	0.01587766	0.007166992
	0.0161817	0.006412355	-0.002541685	-0.0004800782	0.03077537	-0.004386681	0.3880367	-0.8962043
	-0.002543914	-0.0004821181	0.01587766	0.007166992	0.3880367	-0.8962043	0.02995532	-0.002568072
2.9e+08	0.03053481	-0.005375542	0.3531884	-0.9101225	0.01657733	0.005795152	-0.002624037	-0.0004061253
	0.3531884	-0.9101225	0.02986501	-0.003752735	-0.002621526	-0.0004041872	0.01628883	0.006603578
	0.01657733	0.005795152	-0.002621526	-0.0004041872	0.0307228	-0.005583156	0.3507386	-0.91101
	-0.002624037	-0.0004061253	0.01628883	0.006603578	0.3507386	-0.91101	0.02993654	-0.003630156
3e+08	0.03039797	-0.006551953	0.3154555	-0.9234561	0.01691028	0.005144412	-0.002701893	-0.0003262478
	0.3154555	-0.9234561	0.02976363	-0.004817006	-0.002699104	-0.0003244472	0.01664126	0.006006286
	0.01691028	0.005144412	-0.002699104	-0.0003244472	0.03057509	-0.006778382	0.3128885	-0.9242696
	-0.002701893	-0.0003262478	0.01664126	0.006006286	0.3128885	-0.9242696	0.02983242	-0.004691554
3.1e+08	0.03016832	-0.007720241	0.2772317	-0.9352315	0.01717775	0.004465799	-0.00277753	-0.0002425529
	0.2772317	-0.9352315	0.02957768	-0.005874348	-0.002774475	-0.0002409257	0.01693215	0.005380402
	0.01717775	0.004465799	-0.002774475	-0.0002409257	0.0303327	-0.007964819	0.2745496	-0.9359629
	-0.00277753	-0.0002425529	0.01693215	0.005380402	0.2745496	-0.9359629	0.02964349	-0.005745677
3.2e+08	0.02984684	-0.008873122	0.2385807	-0.9454311	0.01737744	0.003765211	-0.002851002	-0.0001550688
	0.2385807	-0.9454311	0.02930815	-0.006918278	-0.002847694	-0.0001536499	0.01715919	0.004731435
	0.01737744	0.003765211	-0.002847694	-0.0001536499	0.02999666	-0.009134986	0.2357861	-0.9460723
	-0.002851002	-0.0001550688	0.01715919	0.004731435	0.2357861	-0.9460723	0.0293708	-0.00678601
3.3e+08	0.02943508	-0.0100034	0.1995665	-0.9540397	0.01750755	0.003048731	-0.002922355	-6.378419e-05
	0.1995665	-0.9540397	0.0289565	-0.007942412	-0.002918813	-6.260715e-05	0.01732054	0.004065081
	0.01750755	0.003048731	-0.002918813	-6.260715e-05	0.02956858	-0.01028151	0.1966625	-0.9545828
	-0.002922355	-6.378419e-05	0.01732054	0.004065081	0.1966625	-0.9545828	0.02901581	-0.007806149
3.4e+08	0.02893512	-0.01110403	0.1602539	-0.9610448	0.01756684	0.002322582	-0.002991622	3.135042e-05
	0.1602539	-0.9610448	0.02852465	-0.008940497	-0.002987872	3.225436e-05	0.01741487	0.003387181
	0.01756684	0.002322582	-0.002987872	3.225436e-05	0.02905062	-0.01139713	0.157244	-0.9614818
	-0.002991622	3.135042e-05	0.01741487	0.003387181	0.157244	-0.9614818	0.02858051	-0.008799817
3.5e+08	0.02834956	-0.01216812	0.1207081	-0.9664364	0.01755461	0.001593085	-0.003058821	0.0001304204
	0.1207081	-0.9664364	0.02801497	-0.009906457	-0.003054891	0.0001310228	0.01744136	0.00270367
	0.01755461	0.001593085	-0.003054891	0.0001310228	0.02844549	-0.01247481	0.1175964	-0.9667595
	-0.003058821	0.0001304204	0.01744136	0.00270367	0.1175964	-0.9667595	0.02806729	-0.009760922
3.6e+08	0.02768154	-0.01318902	0.08099485	-0.970207	0.01747073	0.0008666021	-0.003123941	0.0002335445
	0.08099485	-0.970207	0.02743028	-0.01083441	-0.003119863	0.0002338204	0.01739969	0.002020544
	0.01747073	0.0008666021	-0.003119863	0.0002338204	0.02775642	-0.01350772	0.07778565	-0.9704087
	-0.003123941	0.0002335445	0.01739969	0.002020544	0.07778565	-0.9704087	0.02747902	-0.01068357
3.7e+08	0.02693467	-0.01416032	0.04117979	-0.972352	0.01731561	0.0001494971	-0.003186943	0.0003408707
	0.04117979	-0.972352	0.02677382	-0.01171873	-0.003182754	0.0003407992	0.0172901	0.001343803
	0.01731561	0.0001494971	-0.003182754	0.0003407992	0.02698718	-0.01448929	0.03787805	-0.9724248
	-0.003186943	0.0003408707	0.0172901	0.001343803	0.03787805	-0.9724248	0.026819	-0.01156212
3.8e+08	0.02611308	-0.01507591	0.001328942	-0.9728692	0.01709021	-0.000551919	-0.003247751	0.0004525716
	0.001328942	-0.9728692	0.02604923	-0.01255403	-0.00324349	0.0004521364	0.01711331	0.0006794164
	0.01709021	-0.000551919	-0.00324349	0.0004521364	0.02614204	-0.01541327	-0.002060003	-0.972806
	-0.003247751	0.0004525716	0.01711331	0.0006794164	-0.002060003	-0.972806	0.0260909	-0.01239119
3.9e+08	0.02522135	-0.01593003	-0.03849168	-0.9717592	0.01679608	-0.001231433	-0.003306248	0.0005688394
	-0.03849168	-0.9717592	0.02526057	-0.01333523	-0.003301956	0.0005680292	0.01687058	3.327135e-05
	0.01679608	-0.001231433	-0.003301956	0.0005680292	0.02522575	-0.01627377	-0.04196205	-0.9715529
	-0.003306248	0.0005688394	0.01687058	3.327134e-05	-0.04196205	-0.9715529	0.02529883	-0.01316571
4e+08	0.02426448	-0.01671726	-0.07821613	-0.9690251	0.01643527	-0.00188298	-0.003362274	0.0006898799
	-0.07821613	-0.9690251	0.02441223	-0.01405759	-0.003357995	0.0006886888	0.01656369	-0.0005888688
	0.01643527	-0.00188298	-0.003357995	0.0006886888	0.02424349	-0.01706525	-0.08176172	-0.9686689
	-0.003362274	0.0006898799	0.01656369	-0.0005888688	-0.08176172	-0.9686689	0.02444723	-0.01388092
4.1e+08	0.02324791	-0.01743261	-0.1177786	-0.9646728	0.01601038	-0.002500688	-0.003415621	0.0008159056
	-0.1177786	-0.9646728	0.02350898	-0.0147167	-0.003411399	0.0008143333	0.01619488	-0.001181409
	0.01601038	-0.002500688	-0.003411399	0.0008143334	0.02320088	-0.01778263	-0.1213928	-0.9641603
	-0.003415621	0.0008159056	0.01619488	-0.001181409	-0.1213928	-0.9641603	0.02354091	-0.01453244
4.2e+08	0.02217744	-0.01807151	-0.1571137	-0.9587108	0.01552451	-0.003078923	-0.003466029	0.0009471292
	-0.1571137	-0.9587108	0.02255588	-0.01530854	-0.00346191	0.0009451814	0.01576691	-0.001738966
	0.01552451	-0.003078923	-0.00346191	0.0009451814	0.02210393	-0.01842124	-0.1607894	-0.9580357
	-0.003466029	0.0009471292	0.01576691	-0.001738966	-0.1607894	-0.9580357	0.02258498	-0.01511627
4.3e+08	0.02105922	-0.01862986	-0.1961561	-0.9511501	0.01498126	-0.003612337	-0.00351319	0.001083756
	-0.1961561	-0.9511501	0.02155828	-0.01582949	-0.003509217	0.001081444	0.01528299	-0.002256405
	0.01498126	-0.003612337	-0.003509217	0.001081444	0.020959	-0.01897693	-0.1998861	-0.9503067
	-0.00351319	0.001083756	0.01528299	-0.002256405	-0.1998861	-0.9503067	0.02158484	-0.0156288
4.4e+08	0.01989971	-0.01910405	-0.2348414	-0.9420045	0.01438468	-0.004095903	-0.003556743	0.001225977
	-0.2348414	-0.9420045	0.02052181	-0.01627634	-0.003552958	0.001223318	0.01474675	-0.002728887
	0.01438468	-0.004095903	-0.003552958	0.001223318	0.01977275	-0.01944605	-0.2386177	-0.9409871
	-0.003556743	0.001225977	0.01474675	-0.002728887	-0.2386177	-0.9409871	0.02054614	-0.01606685
4.5e+08	0.01870564	-0.01949099	-0.2731053	-0.9312903	0.01373927	-0.004524963	-0.003596275	0.001373959
	-0.2731053	-0.9312903	0.01945229	-0.01664635	-0.00359272	0.001370977	0.01416225	-0.003151898
	0.01373927	-0.004524963	-0.00359272	0.001370977	0.01855215	-0.01982547	-0.2769198	-0.9300939
	-0.003596275	0.001373959	0.01416225	-0.003151898	-0.2769198	-0.9300939	0.01947476	-0.0164277
4.6e+08	0.01748398	-0.01978812	-0.3108847	-0.9190265	0.01304991	-0.004895259	-0.003631325	0.001527842
	-0.3108847	-0.9190265	0.01835577	-0.01693722	-0.003628037	0.001524564	0.01353394	-0.00352129
	0.01304991	-0.004895259	-0.003628037	0.001524564	0.01730437	-0.02011264	-0.3147289	-0.9176462
	-0.003631325	0.001527842	0.01353394	-0.00352129	-0.3147289	-0.9176462	0.01837678	-0.01670909
4.7e+08	0.01624186	-0.01999344	-0.3481169	-0.9052345	0.01232186	-0.005202968	-0.003661385	0.001687726
	-0.3481169	-0.9052345	0.01723844	-0.01714711	-0.003658399	0.001684186	0.01286661	-0.003833308
	0.01232186	-0.005202968	-0.003658399	0.001684186	0.01603677	-0.02030555	-0.3519819	-0.9036659
	-0.003661385	0.001687726	0.01286661	-0.003833308	-0.3519819	-0.9036659	0.01725839	-0.01690918
4.8e+08	0.01498659	-0.02010554	-0.3847403	-0.8899384	0.01156069	-0.005444736	-0.003685903	0.001853667
	-0.3847403	-0.8899384	0.01610659	-0.01727468	-0.003683248	0.001849904	0.01216536	-0.004084626
	0.01156069	-0.005444736	-0.003683248	0.001849904	0.0147569	-0.02040282	-0.3886171	-0.8881775
	-0.003685903	0.001853667	0.01216536	-0.004084626	-0.3886171	-0.8881775	0.01612596	-0.01702672
4.9e+08	0.01372556	-0.02012355	-0.4206943	-0.8731645	0.01077228	-0.005617703	-0.00370429	0.00202567
	-0.4206943	-0.8731645	0.01496664	-0.0173191	-0.003701991	0.002021725	0.01143559	-0.004272369
	0.01077228	-0.005617703	-0.003701991	0.002021725	0.01347238	-0.02040367	-0.4245734	-0.871208
	-0.00370429	0.00202567	0.01143559	-0.004272369	-0.4245734	-0.871208	0.0149859	-0.01706087
5e+08	0.01246621	-0.02004723	-0.4559194	-0.8549419	0.009962736	-0.005719529	-0.003715923	0.002203682
	-0.4559194	-0.8549419	0.013825	-0.01727999	-0.003713997	0.002199602	0.01068292	-0.004394135
	0.009962736	-0.005719529	-0.003713997	0.002199602	0.01219086	-0.02030792	-0.4597911	-0.8527866
	-0.003715923	0.002203682	0.01068292	-0.004394135	-0.4597911	-0.8527866	0.01384467	-0.01701134
5.1e+08	0.01121599	-0.01987689	-0.4903573	-0.835302	0.009138359	-0.005748413	-0.00372015	0.002387589
