!$
! Info: Touchstone file created by Circ.  Input file=Tx_4in_Rx_93ohms_TxVia_35mils_RxVia_45mils.circ
!$
# Hz S RI R 50
0	0.003794299	6.649921e-26	-2.181746e-05	3.858464e-24	4.102713e-05	7.016635e-24	-2.179817e-05	1.509044e-24
	-2.181747e-05	3.859589e-24	0.003792652	7.87961e-26	-2.182954e-05	5.399664e-24	4.088428e-05	8.49971e-24
	4.08408e-05	6.987178e-24	-2.182953e-05	5.398711e-24	0.003805202	6.650829e-26	-2.181559e-05	3.705799e-24
	-2.179818e-05	1.509927e-24	3.903741e-05	8.541758e-24	-2.181559e-05	3.706511e-24	0.003805858	7.380748e-26
1e+07	0.005448963	8.617589e-05	-0.000101528	-3.111495e-06	0.0001066359	0.0009056619	-2.004577e-05	-4.075664e-06
	-0.000101528	-3.111495e-06	0.005557886	8.261983e-05	-5.502226e-05	2.280508e-05	0.0001050132	0.000902397
	0.0001066307	0.000905663	-5.502225e-05	2.280508e-05	0.005576399	8.697688e-05	-0.0001014854	-2.188801e-06
	-2.004576e-05	-4.075665e-06	0.0001049534	0.0009024071	-0.0001014854	-2.188801e-06	0.005460616	8.118237e-05
2e+07	0.006613615	-0.0010944	-8.337748e-05	-2.565155e-05	0.0001975678	0.001817594	-7.866913e-06	-2.32956e-05
	-8.337748e-05	-2.565155e-05	0.0066872	-0.001141819	-5.526002e-05	1.039037e-05	0.0001930646	0.001812058
	0.0001975692	0.001817598	-5.526002e-05	1.039037e-05	0.006717738	-0.001134904	-8.270632e-05	-2.736442e-05
	-7.866911e-06	-2.32956e-05	0.0001930565	0.001812092	-8.270632e-05	-2.736442e-05	0.006612907	-0.001104337
3e+07	0.007321725	-0.002789788	-7.062419e-05	-3.717729e-05	0.0004000792	0.002681942	-8.924641e-06	-2.868436e-05
	-7.062419e-05	-3.717729e-05	0.007358155	-0.002851365	-5.489562e-05	7.848327e-06	0.0003835873	0.0026766
	0.0004000816	0.002681941	-5.489562e-05	7.848326e-06	0.007407989	-0.00284427	-6.943216e-05	-3.923085e-05
	-8.924641e-06	-2.868436e-05	0.0003835873	0.002676605	-6.943216e-05	-3.923085e-05	0.007301251	-0.002802033
4e+07	0.007712539	-0.004678922	-6.050612e-05	-4.333328e-05	0.0006913537	0.003511967	-1.950714e-05	-2.912457e-05
	-6.050612e-05	-4.333328e-05	0.007707678	-0.004745217	-5.415534e-05	6.603056e-06	0.0006639336	0.003508041
	0.0006913542	0.003511966	-5.415534e-05	6.603056e-06	0.007783907	-0.004740973	-5.888983e-05	-4.561622e-05
	-1.950714e-05	-2.912457e-05	0.0006639282	0.003508039	-5.888983e-05	-4.561622e-05	0.007664888	-0.004690986
5e+07	0.007836377	-0.006670811	-5.202124e-05	-4.698445e-05	0.001047676	0.004307066	-2.867969e-05	-2.722822e-05
	-5.202124e-05	-4.698445e-05	0.007785516	-0.006734276	-5.308697e-05	5.585257e-06	0.001007086	0.004306282
	0.001047676	0.004307065	-5.308697e-05	5.585258e-06	0.00789485	-0.006737183	-5.003786e-05	-4.943965e-05
	-2.867969e-05	-2.722822e-05	0.001007082	0.004306281	-5.003786e-05	-4.943965e-05	0.007754155	-0.006679015
6e+07	0.007719138	-0.008714381	-4.460547e-05	-4.908539e-05	0.001466284	0.005063002	-3.665558e-05	-2.36159e-05
	-4.460547e-05	-4.908539e-05	0.007617924	-0.008767761	-5.175022e-05	4.375248e-06	0.001410466	0.005067323
	0.001466285	0.005063002	-5.175022e-05	4.375248e-06	0.007766227	-0.008782986	-4.229053e-05	-5.167573e-05
	-3.665558e-05	-2.361591e-05	0.001410468	0.005067321	-4.229053e-05	-5.167573e-05	0.007595563	-0.008714113
7e+07	0.007377548	-0.01077375	-3.78727e-05	-5.001271e-05	0.001943777	0.00577516	-4.351398e-05	-1.857031e-05
	-3.78727e-05	-5.001271e-05	0.007222096	-0.01080977	-5.023262e-05	2.706223e-06	0.001870887	0.005786776
	0.001943779	0.00577516	-5.023262e-05	2.706222e-06	0.0074145	-0.01084303	-3.524708e-05	-5.270832e-05
	-4.351398e-05	-1.857032e-05	0.001870895	0.005786772	-3.524708e-05	-5.270832e-05	0.007206372	-0.01075975
8e+07	0.006824578	-0.01282023	-3.149693e-05	-4.985706e-05	0.002476222	0.006438889	-4.924093e-05	-1.218226e-05
	-3.149693e-05	-4.985706e-05	0.006611475	-0.01283128	-4.866331e-05	3.337356e-07	0.002384655	0.006460221
	0.002476224	0.006438888	-4.866331e-05	3.337353e-07	0.006852502	-0.01288884	-2.856866e-05	-5.262693e-05
	-4.924093e-05	-1.218227e-05	0.002384665	0.006460215	-2.856866e-05	-5.262694e-05	0.006599972	-0.01278658
9e+07	0.006072128	-0.01482846	-2.510177e-05	-4.841066e-05	0.003059178	0.007049667	-5.368835e-05	-4.297438e-06
	-2.510177e-05	-4.841066e-05	0.005798609	-0.01480624	-4.7246e-05	-3.067662e-06	0.002947598	0.007083376
	0.00305918	0.007049666	-4.7246e-05	-3.067663e-06	0.006092159	-0.01489493	-2.525946e-05	-4.989229e-05
	-5.368835e-05	-4.297439e-06	0.002947605	0.007083371	-2.525947e-05	-4.989229e-05	0.00578874	-0.01476842
1e+08	0.005135665	-0.01676801	-2.840104e-05	-3.924597e-05	0.00368768	0.007602945	-5.597764e-05	6.573784e-06
	-2.840104e-05	-3.924597e-05	0.004800479	-0.01670204	-4.657721e-05	-8.718062e-06	0.003555127	0.007652082
	0.003687679	0.007602945	-4.657721e-05	-8.718062e-06	0.005149727	-0.01682926	-3.259279e-05	-3.853175e-05
	-5.597764e-05	6.573784e-06	0.003555127	0.007652082	-3.259279e-05	-3.853175e-05	0.004788846	-0.01667392
1.1e+08	0.004057253	-0.01866425	-2.772665e-05	-3.149142e-05	0.004354424	0.008096366	-5.160118e-05	1.45861e-05
	-2.772665e-05	-3.149142e-05	0.003666362	-0.01854912	-4.161782e-05	-1.665484e-05	0.00420111	0.00816327
	0.004354424	0.008096366	-4.161782e-05	-1.665484e-05	0.00407325	-0.01872342	-3.159498e-05	-3.029994e-05
	-5.160118e-05	1.45861e-05	0.00420111	0.00816327	-3.159498e-05	-3.029994e-05	0.003645852	-0.01852674
1.2e+08	0.002794625	-0.0204903	-2.800203e-05	-2.67054e-05	0.005056339	0.008527064	-4.805961e-05	1.976652e-05
	-2.800203e-05	-2.67054e-05	0.002345257	-0.02032206	-3.620596e-05	-2.321751e-05	0.004881499	0.008614332
	0.005056339	0.008527064	-3.620596e-05	-2.321751e-05	0.002810661	-0.02055129	-3.160634e-05	-2.52217e-05
	-4.805961e-05	1.976652e-05	0.004881499	0.008614332	-3.160634e-05	-2.52217e-05	0.002315498	-0.02030245
1.3e+08	0.001364321	-0.02221959	-2.849518e-05	-2.282506e-05	0.005787512	0.008891771	-4.474263e-05	2.38552e-05
	-2.849518e-05	-2.282506e-05	0.0008550879	-0.02199169	-3.092561e-05	-2.978644e-05	0.005590821	0.00900234
	0.005787512	0.008891771	-3.092561e-05	-2.978644e-05	0.001379088	-0.02228392	-3.18568e-05	-2.112515e-05
	-4.474263e-05	2.38552e-05	0.005590821	0.00900234	-3.18568e-05	-2.112515e-05	0.0008150722	-0.02197328
1.4e+08	-0.0002202386	-0.02383604	-2.905612e-05	-1.940586e-05	0.006541809	0.00918811	-4.207584e-05	2.639861e-05
	-2.905612e-05	-1.940586e-05	-0.0007897321	-0.0235411	-2.595162e-05	-3.668631e-05	0.00632333	0.009325038
	0.006541809	0.009188111	-2.595162e-05	-3.668631e-05	-0.0002079232	-0.02390454	-3.219057e-05	-1.754046e-05
	-4.207584e-05	2.639861e-05	0.00632333	0.009325038	-3.219057e-05	-1.754046e-05	-0.0008410049	-0.02352237
1.5e+08	-0.001945869	-0.0253263	-2.961727e-05	-1.623386e-05	0.007312915	0.009414325	-4.142514e-05	2.576907e-05
	-2.961727e-05	-1.623386e-05	-0.002575014	-0.02495647	-2.141617e-05	-4.406557e-05	0.007073093	0.009580718
	0.007312915	0.009414325	-2.141617e-05	-4.406557e-05	-0.001937094	-0.0253994	-3.253819e-05	-1.424065e-05
	-4.142514e-05	2.576907e-05	0.007073093	0.009580718	-3.253819e-05	-1.424065e-05	-0.002638407	-0.02493587
1.6e+08	-0.003799245	-0.02667881	-3.011577e-05	-1.322083e-05	0.008094395	0.009569258	-4.073816e-05	2.539786e-05
	-3.011577e-05	-1.322083e-05	-0.004486407	-0.02622606	-1.743874e-05	-5.199545e-05	0.007834051	0.009768223
	0.008094395	0.009569258	-1.743874e-05	-5.199545e-05	-0.003795021	-0.02675671	-3.283612e-05	-1.113044e-05
	-4.073816e-05	2.539786e-05	0.007834051	0.009768223	-3.283612e-05	-1.113044e-05	-0.0045626	-0.02620198
1.7e+08	-0.00576678	-0.02788353	-3.051636e-05	-1.030583e-05	0.008879746	0.009652347	-4.002437e-05	2.521772e-05
	-3.051636e-05	-1.030583e-05	-0.006509308	-0.02733978	-1.413285e-05	-6.050088e-05	0.008600071	0.009886947
	0.008879746	0.009652347	-1.413285e-05	-6.050088e-05	-0.005768046	-0.02796623	-3.304912e-05	-8.143283e-06
	-4.002437e-05	2.521772e-05	0.008600071	0.009886947	-3.304912e-05	-8.143283e-06	-0.006598782	-0.0273106
1.8e+08	-0.007834584	-0.02893171	-3.079146e-05	-7.454628e-06	0.00966245	0.009663622	-3.928828e-05	2.518337e-05
	-3.079146e-05	-7.454628e-06	-0.00862883	-0.02828906	-1.160706e-05	-6.957407e-05	0.009365001	0.009936831
	0.00966245	0.009663622	-1.160706e-05	-6.957407e-05	-0.007842224	-0.0290191	-3.314977e-05	-5.240549e-06
	-3.928828e-05	2.518337e-05	0.009365001	0.009936831	-3.314977e-05	-5.240549e-06	-0.008731872	-0.02825313
1.9e+08	-0.009988464	-0.02981591	-3.091889e-05	-4.649877e-06	0.01043603	0.009603697	-3.853226e-05	2.526211e-05
	-3.091889e-05	-4.649877e-06	-0.01082981	-0.02906669	-9.964634e-06	-7.918157e-05	0.01012272	0.009918365
	0.01043603	0.009603697	-9.964634e-06	-7.918157e-05	-0.01000332	-0.02990778	-3.311612e-05	-2.401247e-06
	-3.853226e-05	2.526211e-05	0.01012272	0.009918365	-3.311612e-05	-2.401247e-06	-0.01094653	-0.02902239
2e+08	-0.01221395	-0.03052991	-3.088092e-05	-1.885694e-06	0.0111941	0.009473765	-3.775744e-05	2.542943e-05
	-3.088092e-05	-1.885694e-06	-0.01309686	-0.02966686	-9.302007e-06	-8.92688e-05	0.01086717	0.009832578
	0.0111941	0.009473765	-9.302007e-06	-8.92688e-05	-0.01223682	-0.03062597	-3.293057e-05	3.837037e-07
	-3.775744e-05	2.542943e-05	0.01086717	0.009832578	-3.293057e-05	3.837037e-07	-0.0132272	-0.02961261
2.1e+08	-0.01449633	-0.03106875	-3.066375e-05	8.358145e-07	0.0119304	0.009275581	-3.696439e-05	2.566629e-05
	-3.066375e-05	8.358145e-07	-0.0154144	-0.03008508	-9.707915e-06	-9.976275e-05	0.01159243	0.009681025
	0.0119304	0.009275581	-9.707915e-06	-9.976275e-05	-0.01452802	-0.03116863	-3.257934e-05	3.115065e-06
	-3.696439e-05	2.566629e-05	0.01159243	0.009681025	-3.257934e-05	3.115065e-06	-0.01555815	-0.03001934
2.2e+08	-0.01682076	-0.03142869	-3.025731e-05	3.506742e-06	0.0126389	0.00901145	-3.615329e-05	2.595761e-05
	-3.025731e-05	3.506742e-06	-0.01776676	-0.0303182	-1.126156e-05	-0.0001105746	0.01229274	0.00946578
	0.0126389	0.00901145	-1.126156e-05	-0.0001105746	-0.01686202	-0.03153195	-3.205222e-05	5.787556e-06
	-3.615329e-05	2.595761e-05	0.01229274	0.00946578	-3.205222e-05	5.787556e-06	-0.01792356	-0.03023946
2.3e+08	-0.01917224	-0.03160719	-2.965524e-05	6.114981e-06	0.01331375	0.008684206	-3.532406e-05	2.62912e-05
	-2.965524e-05	6.114981e-06	-0.02013821	-0.03036435	-1.403038e-05	-0.0001216032	0.01296258	0.00918941
	0.01331375	0.008684206	-1.403038e-05	-0.0001216032	-0.01922381	-0.03171331	-3.134257e-05	8.391487e-06
	-3.532406e-05	2.62912e-05	0.01296258	0.00918941	-3.134257e-05	8.391487e-06	-0.02030758	-0.03027118
2.4e+08	-0.0215358	-0.03160296	-2.885457e-05	8.645648e-06	0.01394943	0.008297184	-3.447681e-05	2.665684e-05
	-2.885457e-05	8.645648e-06	-0.02251306	-0.03022298	-1.807106e-05	-0.000132734	0.01359664	0.008854957
	0.01394943	0.008297184	-1.807106e-05	-0.000132734	-0.0215984	-0.03171135	-3.04469e-05	1.091422e-05
	-3.447681e-05	2.665684e-05	0.01359664	0.008854957	-3.04469e-05	1.091422e-05	-0.0226944	-0.03011401
2.5e+08	-0.0238965	-0.03141589	-2.785595e-05	1.108188e-05	0.01454072	0.007854199	-3.361151e-05	2.704601e-05
	-2.785595e-05	1.108188e-05	-0.02487578	-0.02989481	-2.342142e-05	-0.0001438516	0.01418995	0.008465912
	0.01454072	0.007854199	-2.342142e-05	-0.0001438516	-0.02397079	-0.03152588	-2.936521e-05	1.334097e-05
	-3.361151e-05	2.704601e-05	0.01418995	0.008465912	-2.936521e-05	1.334097e-05	-0.02506835	-0.02976873
2.6e+08	-0.02623952	-0.03104709	-2.660779e-05	1.339627e-05	0.01508278	0.007359509	-3.272863e-05	2.745091e-05
	-2.660779e-05	1.339627e-05	-0.02721104	-0.02938182	-3.278174e-05	-0.0001501313	0.01473784	0.008026187
	0.01508278	0.007359509	-3.278174e-05	-0.0001501313	-0.02632618	-0.03115793	-2.804632e-05	1.564764e-05
	-3.272863e-05	2.745091e-05	0.01473784	0.008026187	-2.804632e-05	1.564764e-05	-0.02741399	-0.02923739
2.7e+08	-0.02855027	-0.03049882	-2.516292e-05	1.557048e-05	0.01557115	0.006817782	-3.182816e-05	2.786562e-05
	-2.516292e-05	1.557048e-05	-0.0295038	-0.02868721	-4.348681e-05	-0.0001551882	0.01523604	0.007540082
	0.01557115	0.006817782	-4.348681e-05	-0.0001551882	-0.0286499	-0.03060968	-2.654075e-05	1.781673e-05
	-3.182816e-05	2.786562e-05	0.01523604	0.007540082	-2.654075e-05	1.781673e-05	-0.02971618	-0.02852328
2.8e+08	-0.03081448	-0.02977449	-2.354178e-05	1.758736e-05	0.01600183	0.006234058	-3.091048e-05	2.828472e-05
	-2.354178e-05	1.758736e-05	-0.03173942	-0.02781537	-5.504865e-05	-0.000159683	0.01568066	0.007012251
	0.01600183	0.006234058	-5.504865e-05	-0.000159683	-0.03092762	-0.02988447	-2.48675e-05	1.983234e-05
	-3.091048e-05	2.828472e-05	0.01568066	0.007012251	-2.48675e-05	1.983234e-05	-0.0319602	-0.02763089
2.9e+08	-0.03301825	-0.02887863	-2.175845e-05	1.942969e-05	0.01637128	0.005613712	-2.99761e-05	2.870337e-05
	-2.175845e-05	1.942969e-05	-0.03390375	-0.02677187	-6.744752e-05	-0.0001635	0.01606824	0.006447664
	0.01637128	0.005613712	-6.744752e-05	-0.0001635	-0.03314538	-0.02898674	-2.303926e-05	2.167852e-05
	-2.99761e-05	2.870337e-05	0.01606824	0.006447664	-2.303926e-05	2.167852e-05	-0.03413177	-0.02656584
3e+08	-0.03514814	-0.02781683	-1.982969e-05	2.108159e-05	0.01667643	0.004962405	-2.902561e-05	2.911729e-05
	-1.982969e-05	2.108159e-05	-0.03598318	-0.02556336	-8.064796e-05	-0.0001665252	0.01639577	0.005851571
	0.01667643	0.004962405	-8.064796e-05	-0.0001665252	-0.03528967	-0.02792203	-2.107129e-05	2.334042e-05
	-2.902561e-05	2.911729e-05	0.01639577	0.005851571	-2.107129e-05	2.334042e-05	-0.03621723	-0.02533493
3.1e+08	-0.03719125	-0.02659573	-1.777447e-05	2.252899e-05	0.01691477	0.004286045	-2.805985e-05	2.952272e-05
	-1.777447e-05	2.252899e-05	-0.03796477	-0.02419756	-9.460008e-05	-0.0001686456	0.01666074	0.005229458
	0.01691477	0.004286045	-9.460008e-05	-0.0001686456	-0.03734751	-0.02669691	-1.898098e-05	2.480476e-05
	-2.805985e-05	2.952272e-05	0.01666074	0.005229458	-1.898098e-05	2.480476e-05	-0.03820354	-0.02394594
3.2e+08	-0.0391353	-0.02522294	-1.561384e-05	2.375992e-05	0.01708429	0.003590736	-2.707974e-05	2.99163e-05
	-1.561384e-05	2.375992e-05	-0.03983628	-0.02268316	-0.0001092389	-0.0001697531	0.0168611	0.004587004
	0.01708429	0.003590736	-0.0001092389	-0.0001697531	-0.03930652	-0.02531894	-1.678772e-05	2.606013e-05
	-2.707974e-05	2.99163e-05	0.0168611	0.004587004	-1.678772e-05	2.606013e-05	-0.04007839	-0.02240772
3.3e+08	-0.04096868	-0.023707	-1.337053e-05	2.476482e-05	0.01718353	0.002882734	-2.608627e-05	3.029503e-05
	-1.337053e-05	2.476482e-05	-0.04158626	-0.02102982	-0.0001244853	-0.0001697464	0.01699533	0.003930038
	0.01718353	0.002882734	-0.0001244853	-0.0001697464	-0.04115501	-0.0237966	-1.451255e-05	2.709727e-05
	-2.608627e-05	3.029503e-05	0.01699533	0.003930038	-1.451255e-05	2.709727e-05	-0.04183027	-0.02073003
3.4e+08	-0.04268055	-0.02205731	-1.106852e-05	2.553677e-05	0.01721161	0.002168395	-2.508066e-05	3.065633e-05
	-1.106852e-05	2.553677e-05	-0.04320412	-0.01924803	-0.0001402471	-0.000168531	0.01706241	0.003264497
	0.01721161	0.002168395	-0.0001402471	-0.000168531	-0.04288203	-0.02213926	-1.217777e-05	2.790931e-05
	-2.508066e-05	3.065633e-05	0.01706241	0.003264497	-1.217777e-05	2.790931e-05	-0.04344855	-0.01892347
3.5e+08	-0.04426086	-0.02028409	-8.732743e-06	2.607168e-05	0.01716819	0.001454128	-2.406413e-05	3.099788e-05
	-8.732743e-06	2.607168e-05	-0.04468019	-0.01734907	-0.0001564197	-0.0001660225	0.01706187	0.002596377
	0.01716819	0.001454128	-0.0001564197	-0.0001660225	-0.04447742	-0.02035709	-9.806615e-06	2.849193e-05
	-2.406413e-05	3.099788e-05	0.01706187	0.002596377	-9.806615e-06	2.849193e-05	-0.04492351	-0.01699949
3.6e+08	-0.04570043	-0.01839827	-6.388624e-06	2.636836e-05	0.01705353	0.0007463456	-2.303806e-05	3.131773e-05
	-6.388624e-06	2.636836e-05	-0.04600577	-0.01534494	-0.0001728876	-0.0001621469	0.01699373	0.001931689
	0.01705353	0.0007463456	-0.0001728876	-0.0001621469	-0.0459319	-0.01846104	-7.42291e-06	2.884352e-05
	-2.303806e-05	3.131773e-05	0.01699373	0.001931689	-7.42291e-06	2.884352e-05	-0.04624642	-0.0149702
3.7e+08	-0.04699101	-0.01641148	-4.061749e-06	2.642863e-05	0.01686841	5.14127e-05	-2.200385e-05	3.161415e-05
	-4.061749e-06	2.642863e-05	-0.04717318	-0.01324826	-0.0001895253	-0.0001568427	0.01685856	0.001276413
	0.01686841	5.14127e-05	-0.0001895253	-0.0001568427	-0.04723709	-0.01646269	-5.050707e-06	2.89652e-05
	-2.200385e-05	3.161415e-05	0.01685856	0.001276413	-5.050707e-06	2.89652e-05	-0.04740957	-0.01284837
3.8e+08	-0.04812528	-0.01433591	-1.77745e-06	2.625728e-05	0.0166142	-0.0006244004	-2.096297e-05	3.188571e-05
	-1.77745e-06	2.625728e-05	-0.04817579	-0.0110722	-0.0002061991	-0.0001500616	0.01665743	0.0006364569
	0.0166142	-0.0006244004	-0.0002061991	-0.0001500616	-0.04838557	-0.01437425	-2.713924e-06	2.886086e-05
	-2.096297e-05	3.188571e-05	0.01665743	0.0006364569	-2.713924e-06	2.886086e-05	-0.04840635	-0.0106473
3.9e+08	-0.04909694	-0.01218427	4.396195e-07	2.586209e-05	0.01629281	-0.001274966	-1.991689e-05	3.213123e-05
	4.396195e-07	2.586209e-05	-0.04900808	-0.008830379	-0.0002227684	-0.0001417697	0.01639194	1.760721e-05
	0.01629281	-0.001274966	-0.0002227684	-0.0001417697	-0.04937091	-0.01220843	-4.359483e-07	2.853716e-05
	-1.991689e-05	3.213123e-05	0.01639194	1.76072e-05	-4.359483e-07	2.853716e-05	-0.04923123	-0.008380762
4e+08	-0.04990073	-0.009969719	2.565803e-06	2.525366e-05	0.01590667	-0.001894345	-1.886712e-05	3.234971e-05
	2.565803e-06	2.525366e-05	-0.04966565	-0.006536782	-0.0002390878	-0.0001319479	0.01606417	-0.00057451
	0.01590667	-0.001894345	-0.0002390878	-0.0001319479	-0.05018773	-0.009978421	1.760661e-06	2.80034e-05
	-1.886712e-05	3.234971e-05	0.01606417	-0.00057451	1.760661e-06	2.80034e-05	-0.04987983	-0.00606288
4.1e+08	-0.05053243	-0.007705741	4.578844e-06	2.444535e-05	0.01545874	-0.002476835	-1.781516e-05	3.254044e-05
	4.578844e-06	2.444535e-05	-0.05014524	-0.004205667	-0.0002550082	-0.0001205928	0.01567669	-0.001134472
	0.01545874	-0.002476835	-0.0002550082	-0.0001205928	-0.05083169	-0.007697735	3.854549e-06	2.727147e-05
	-1.781516e-05	3.254044e-05	0.01567669	-0.001134472	3.854549e-06	2.727147e-05	-0.05034893	-0.003708057
4.2e+08	-0.05098891	-0.005406105	6.458234e-06	2.345302e-05	0.01495246	-0.003017009	-1.676248e-05	3.270287e-05
	6.458234e-06	2.345302e-05	-0.05044475	-0.001851485	-0.000270379	-0.000107717	0.01523252	-0.001657101
	0.01495246	-0.003017009	-0.000270379	-0.000107717	-0.05129955	-0.005380186	5.825892e-06	2.635563e-05
	-1.676248e-05	3.270287e-05	0.01523252	-0.001657101	5.825892e-06	2.635563e-05	-0.05063649	-0.001330877
4.3e+08	-0.05126813	-0.003084756	8.185468e-06	2.229484e-05	0.01439174	-0.003509759	-1.571052e-05	3.283665e-05
	8.185468e-06	2.229484e-05	-0.05056327	0.0005112325	-0.0002850501	-9.334893e-05	0.01473513	-0.002137497
	0.01439174	-0.003509759	-0.0002850501	-9.334893e-05	-0.05158916	-0.003039772	7.656637e-06	2.527237e-05
	-1.571052e-05	3.283665e-05	0.01473513	-0.002137497	7.656637e-06	2.527237e-05	-0.05074164	0.001053992
4.4e+08	-0.05136918	-0.000755739	9.744364e-06	2.099103e-05	0.01378091	-0.003950335	-1.466068e-05	3.294155e-05
	9.744364e-06	2.099103e-05	-0.05050103	0.002867947	-0.0002988733	-7.753339e-05	0.01418839	-0.002571081
	0.01378091	-0.003950335	-0.0002988733	-7.753339e-05	-0.05169947	-0.0006906044	9.330804e-06	2.404011e-05
	-1.466068e-05	3.294155e-05	0.01418839	-0.002571081	9.330804e-06	2.404011e-05	-0.05066468	0.003431882
4.5e+08	-0.0512922	0.001566891	1.112127e-05	1.956355e-05	0.01312472	-0.004334381	-1.361429e-05	3.301753e-05
	1.112127e-05	1.956355e-05	-0.05025942	0.005204218	-0.0003117042	-6.033088e-05	0.01359657	-0.002953624
	0.01312472	-0.004334381	-0.0003117042	-6.033088e-05	-0.05163055	0.001653184	1.083469e-05	2.267901e-05
	-1.361429e-05	3.301753e-05	0.01359657	-0.002953624	1.083469e-05	2.267901e-05	-0.05040711	0.005788232
4.6e+08	-0.0510385	0.003869156	1.23053e-05	1.803575e-05	0.0124283	-0.004657966	-1.25726e-05	3.306461e-05
	1.23053e-05	1.803575e-05	-0.04984101	0.007505787	-0.000323404	-4.181709e-05	0.01296428	-0.00328128
	0.0124283	-0.004657966	-0.000323404	-4.181709e-05	-0.05138359	0.003977527	1.21571e-05	2.121051e-05
	-1.25726e-05	3.306461e-05	0.01296428	-0.00328128	1.21571e-05	2.121051e-05	-0.04997159	0.008108686
4.7e+08	-0.05061044	0.006137242	1.328847e-05	1.643203e-05	0.01169707	-0.004917618	-1.15368e-05	3.308295e-05
