!$
! Info: Touchstone file created by Circ.  Input file=Tx_4in_Rx_100ohms_TxVia_35mils_RxVia_45mils.circ
!$
# Hz S RI R 50
0	0.004279986	7.046318e-26	-2.181217e-05	1.833322e-26	4.225704e-05	7.976878e-24	-2.181193e-05	1.120867e-26
	-2.181217e-05	1.913013e-26	0.00427656	7.882054e-26	-2.181174e-05	2.433342e-26	4.089016e-05	9.600472e-24
	4.27815e-05	8.080719e-24	-2.181173e-05	2.300012e-26	0.004288265	6.877413e-26	-2.181223e-05	1.061564e-25
	-2.181194e-05	1.176196e-26	3.904319e-05	9.647925e-24	-2.181224e-05	1.072461e-25	0.004289758	7.38311e-26
1e+07	0.005960627	0.003123508	-8.506008e-07	-4.317953e-06	9.326718e-05	0.00088884	-5.65386e-07	-5.94057e-06
	-8.506008e-07	-4.317953e-06	0.00614494	0.003147775	-5.420904e-07	-1.272004e-06	0.0002348368	0.0009140088
	9.329094e-05	0.0008888413	-5.420904e-07	-1.272004e-06	0.005744277	0.003237122	-1.316333e-06	-1.730976e-06
	-5.653859e-07	-5.94057e-06	0.000234777	0.0009140188	-1.316333e-06	-1.730976e-06	0.006097261	0.003159334
2e+07	0.007605101	0.004960238	-2.016797e-06	-1.429249e-07	0.0002070204	0.001784472	-5.122906e-07	-2.22081e-06
	-2.016797e-06	-1.429249e-07	0.007761421	0.004933579	-6.921663e-06	-9.779721e-06	0.0002866969	0.001883057
	0.0002070284	0.001784457	-6.921663e-06	-9.779721e-06	0.007543688	0.00523358	-8.704656e-06	-9.82215e-06
	-5.122908e-07	-2.22081e-06	0.0002866886	0.001883092	-8.704656e-06	-9.82215e-06	0.00772981	0.004978417
3e+07	0.009016028	0.006168886	-3.205068e-06	-1.061726e-06	0.000396104	0.002650665	-5.149348e-07	-1.321054e-06
	-3.205068e-06	-1.061726e-06	0.009143725	0.006127755	-1.261107e-05	-1.133325e-05	0.0004260448	0.002772181
	0.000396104	0.002650662	-1.261107e-05	-1.133325e-05	0.009078124	0.006488042	-1.441083e-05	-1.120134e-05
	-5.149348e-07	-1.321054e-06	0.0004260447	0.002772186	-1.441083e-05	-1.120134e-05	0.009126023	0.006189729
4e+07	0.01033605	0.007097331	-4.192075e-06	-1.249522e-06	0.0006577601	0.003491101	-5.120544e-07	-8.528647e-07
	-4.192075e-06	-1.249522e-06	0.01043228	0.007051013	-1.736493e-05	-1.098093e-05	0.0006543653	0.003622925
	0.000657762	0.003491102	-1.736493e-05	-1.098093e-05	0.01050464	0.007426496	-1.916897e-05	-1.069984e-05
	-5.120544e-07	-8.528647e-07	0.0006543599	0.003622923	-1.916897e-05	-1.069984e-05	0.01042763	0.007125436
5e+07	0.01161155	0.007826602	-5.026654e-06	-1.07915e-06	0.0009887283	0.004301158	-4.999704e-07	-5.461647e-07
	-5.026654e-06	-1.07915e-06	0.01167282	0.007781282	-2.14109e-05	-9.514278e-06	0.001024972	0.004422067
	0.0009887296	0.004301159	-2.14109e-05	-9.514278e-06	0.01187404	0.008143305	-2.320885e-05	-9.091011e-06
	-4.999704e-07	-5.461647e-07	0.001024968	0.004422066	-2.320885e-05	-9.091011e-06	0.0116806	0.007865187
6e+07	0.01286166	0.008393643	-5.728249e-06	-6.789084e-07	0.00138553	0.005075763	-4.778033e-07	-3.188715e-07
	-5.728249e-06	-6.789083e-07	0.01288482	0.008355123	-2.484398e-05	-7.239744e-06	0.001451906	0.005179188
	0.001385527	0.005075763	-2.484398e-05	-7.239744e-06	0.01320712	0.008680787	-2.662609e-05	-6.675759e-06
	-4.778033e-07	-3.188714e-07	0.001451908	0.005179187	-2.662609e-05	-6.675759e-06	0.01290447	0.008446184
7e+07	0.01409444	0.008819171	-6.3027e-06	-1.054828e-07	0.001852153	0.005807508	-4.445571e-07	-1.376516e-07
	-6.3027e-06	-1.054827e-07	0.01407665	0.008793077	-2.769276e-05	-4.296426e-06	0.001932277	0.005890997
	0.001852147	0.005807509	-2.769276e-05	-4.296426e-06	0.0145124	0.009062283	-2.945273e-05	-3.59348e-06
	-4.445571e-07	-1.376516e-07	0.001932284	0.005890994	-2.945273e-05	-3.59348e-06	0.01410753	0.008889256
8e+07	0.01531261	0.009116802	-6.746909e-06	6.170117e-07	0.002376745	0.006493459	-3.99723e-07	1.287427e-08
	-6.746909e-06	6.170118e-07	0.01525131	0.009108823	-2.994608e-05	-7.35071e-07	0.002462463	0.006553617
	0.002376738	0.006493462	-2.994608e-05	-7.350709e-07	0.01579225	0.009302421	-3.167576e-05	1.089651e-07
	-3.997229e-07	1.28743e-08	0.002462473	0.006553611	-3.167576e-05	1.089651e-07	0.01529263	0.009208233
9e+07	0.01651636	0.009297158	-7.046017e-06	1.49251e-06	0.002954607	0.00712965	-3.424549e-07	1.400579e-07
	-7.046017e-06	1.49251e-06	0.01640937	0.009313395	-3.153516e-05	3.501918e-06	0.003038075	0.00716268
	0.002954602	0.007129653	-3.153516e-05	3.501918e-06	0.01704545	0.009410816	-3.322391e-05	4.494806e-06
	-3.424549e-07	1.400579e-07	0.003038082	0.007162675	-3.322391e-05	4.494806e-06	0.01646012	0.009414173
1e+08	0.01770788	0.009375512	-7.112156e-06	2.655176e-06	0.003582394	0.007714343	-2.676979e-07	2.468105e-07
	-7.112156e-06	2.655176e-06	0.01755391	0.009423417	-3.205341e-05	9.082987e-06	0.00365257	0.007710693
	0.003582394	0.007714343	-3.205341e-05	9.082987e-06	0.01826667	0.009390441	-3.368377e-05	1.025158e-05
	-2.676979e-07	2.468105e-07	0.00365257	0.007710693	-3.368377e-05	1.025158e-05	0.01761245	0.009522937
1.1e+08	0.01891044	0.00931807	-6.503952e-06	3.494134e-06	0.004261887	0.00823428	-2.108791e-07	3.249721e-07
	-6.503952e-06	3.494134e-06	0.01871304	0.00940276	-2.936381e-05	1.315513e-05	0.004288692	0.008209798
	0.004261887	0.00823428	-2.936381e-05	1.315513e-05	0.0194397	0.009260623	-3.085471e-05	1.44651e-05
	-2.108791e-07	3.249721e-07	0.004288692	0.008209798	-3.085471e-05	1.44651e-05	0.01877588	0.00950277
1.2e+08	0.02007319	0.009140868	-6.382914e-06	3.346892e-06	0.004975711	0.008686513	-2.127809e-07	3.215642e-07
	-6.382914e-06	3.346892e-06	0.01983076	0.009265829	-2.722792e-05	1.564012e-05	0.004961971	0.008656929
	0.004975711	0.008686513	-2.722792e-05	1.564012e-05	0.02058065	0.009035429	-2.924181e-05	1.586071e-05
	-2.127809e-07	3.215642e-07	0.004961971	0.008656929	-2.924181e-05	1.586071e-05	0.01989791	0.009366879
1.3e+08	0.02119648	0.00885845	-6.270007e-06	3.270095e-06	0.005719262	0.009071162	-2.372065e-07	3.060077e-07
	-6.270007e-06	3.270095e-06	0.02090823	0.009028746	-2.680235e-05	1.505689e-05	0.005665502	0.009044691
	0.005719262	0.009071162	-2.680235e-05	1.505689e-05	0.02168406	0.008713827	-2.879884e-05	1.527214e-05
	-2.372065e-07	3.060077e-07	0.005665502	0.009044691	-2.879884e-05	1.527214e-05	0.0209792	0.009130652
1.4e+08	0.02227701	0.00847737	-6.145819e-06	3.241161e-06	0.006486802	0.009386556	-2.588184e-07	2.962917e-07
	-6.145819e-06	3.241161e-06	0.02194283	0.008698626	-2.632657e-05	1.472691e-05	0.006393454	0.009369798
	0.006486802	0.009386556	-2.632657e-05	1.472691e-05	0.02274554	0.008299011	-2.83078e-05	1.494205e-05
	-2.588184e-07	2.962917e-07	0.006393454	0.009369798	-2.83078e-05	1.494205e-05	0.022017	0.008801242
1.5e+08	0.02331061	0.008002969	-6.014941e-06	3.24251e-06	0.007272281	0.009631217	-2.78095e-07	2.912341e-07
	-6.014941e-06	3.24251e-06	0.02293109	0.008281107	-2.582259e-05	1.456088e-05	0.007139987	0.009629998
	0.007272281	0.009631217	-2.582259e-05	1.456088e-05	0.02376046	0.007794747	-2.778961e-05	1.478132e-05
	-2.78095e-07	2.912341e-07	0.007139988	0.009629998	-2.778961e-05	1.478132e-05	0.02300788	0.008384378
1.6e+08	0.02429268	0.007440241	-5.879611e-06	3.264125e-06	0.008069476	0.009804081	-2.953286e-07	2.899509e-07
	-5.879611e-06	3.264125e-06	0.02386918	0.007781315	-2.530016e-05	1.450892e-05	0.007899188	0.009823752
	0.008069476	0.009804081	-2.530016e-05	1.450892e-05	0.02472402	0.007205117	-2.725411e-05	1.473878e-05
	-2.953286e-07	2.899509e-07	0.007899188	0.009823752	-2.725411e-05	1.473878e-05	0.02394804	0.007885253
1.7e+08	0.02521846	0.006794169	-5.741099e-06	3.29965e-06	0.008872065	0.009904572	-3.107305e-07	2.917617e-07
	-5.741099e-06	3.29965e-06	0.02475307	0.00720423	-2.47646e-05	1.453902e-05	0.00866508	0.009950133
	0.008872065	0.009904572	-2.47646e-05	1.453902e-05	0.02563134	0.006534504	-2.670656e-05	1.478162e-05
	-3.107305e-07	2.917617e-07	0.00866508	0.009950133	-2.670656e-05	1.478162e-05	0.02483353	0.007308888
1.8e+08	0.02608319	0.006069887	-5.600185e-06	3.344784e-06	0.00967368	0.009932636	-3.24465e-07	2.961377e-07
	-5.600185e-06	3.344784e-06	0.02557871	0.006554867	-2.421897e-05	1.462933e-05	0.009431663	0.01000879
	0.00967368	0.009932636	-2.421897e-05	1.462933e-05	0.02647753	0.005787625	-2.614996e-05	1.488747e-05
	-3.24465e-07	2.961377e-07	0.009431663	0.01000879	-2.614996e-05	1.488747e-05	0.02566033	0.006660322
1.9e+08	0.02688218	0.005272755	-5.457461e-06	3.396802e-06	0.01046797	0.00988875	-3.366629e-07	3.026736e-07
	-5.457461e-06	3.396802e-06	0.02634215	0.005838381	-2.366521e-05	1.476418e-05	0.01019295	0.009999911
	0.01046797	0.00988875	-2.366521e-05	1.476418e-05	0.02725784	0.004969543	-2.558614e-05	1.504025e-05
	-3.366629e-07	3.026736e-07	0.01019295	0.009999911	-2.558614e-05	1.504025e-05	0.02642453	0.005944719
2e+08	0.02761095	0.004408395	-5.313253e-06	3.453417e-06	0.01124862	0.009773928	-3.47442e-07	3.110286e-07
	-5.313253e-06	3.453417e-06	0.02703955	0.005060098	-2.310457e-05	1.493193e-05	0.010943	0.009924239
	0.01124862	0.009773928	-2.310457e-05	1.493193e-05	0.02796771	0.004085662	-2.501627e-05	1.522807e-05
	-3.47442e-07	3.110286e-07	0.010943	0.009924239	-2.501627e-05	1.522807e-05	0.02712234	0.005167417
2.1e+08	0.02826526	0.003482701	-5.167802e-06	3.512667e-06	0.01200946	0.009589718	-3.569119e-07	3.209268e-07
	-5.167802e-06	3.512667e-06	0.02766734	0.00422555	-2.2538e-05	1.512371e-05	0.01167598	0.009783027
	0.01200946	0.009589718	-2.2538e-05	1.512371e-05	0.02860284	0.003141715	-2.444117e-05	1.544184e-05
	-3.569119e-07	3.209268e-07	0.01167598	0.009783027	-2.444117e-05	1.544184e-05	0.02775019	0.004333946
2.2e+08	0.02884122	0.00250184	-5.021357e-06	3.573262e-06	0.01274445	0.009338193	-3.651651e-07	3.321562e-07
	-5.021357e-06	3.573262e-06	0.02822222	0.003340469	-2.196619e-05	1.533262e-05	0.0123862	0.009578039
	0.01274445	0.009338193	-2.196619e-05	1.533262e-05	0.02915929	0.002143763	-2.386143e-05	1.567451e-05
	-3.651651e-07	3.321562e-07	0.0123862	0.009578039	-2.386143e-05	1.567451e-05	0.02830478	0.003450048
2.3e+08	0.0293353	0.001472243	-4.874125e-06	3.634203e-06	0.01344775	0.009021936	-3.722814e-07	3.445482e-07
	-4.874125e-06	3.634203e-06	0.02870122	0.00241079	-2.138965e-05	1.55532e-05	0.01306812	0.00931153
	0.01344775	0.009021936	-2.138965e-05	1.55532e-05	0.02963346	0.001098164	-2.327747e-05	1.592052e-05
	-3.722814e-07	3.445482e-07	0.01306812	0.00931153	-2.327747e-05	1.592052e-05	0.02878317	0.002521674
2.4e+08	0.02974441	0.0004005653	-4.726306e-06	3.694705e-06	0.01411376	0.008644028	-3.783331e-07	3.579686e-07
	-4.726306e-06	3.694705e-06	0.02910173	0.001442611	-2.080891e-05	1.578106e-05	0.01371645	0.008986231
	0.01411376	0.008644028	-2.080891e-05	1.578106e-05	0.0300222	1.152957e-05	-2.268968e-05	1.617538e-05
	-3.783331e-07	3.579686e-07	0.01371645	0.008986231	-2.268968e-05	1.617538e-05	0.02918273	0.00155494
2.5e+08	0.03006589	-0.0007063217	-4.578069e-06	3.754155e-06	0.01473719	0.008208018	-3.833804e-07	3.723128e-07
	-4.578069e-06	3.754155e-06	0.02942156	0.0004421998	-2.022439e-05	1.601264e-05	0.01432615	0.008605322
	0.01473719	0.008208018	-2.022439e-05	1.601264e-05	0.03032282	-0.001109285	-2.209838e-05	1.643549e-05
	-3.833804e-07	3.723128e-07	0.01432615	0.008605322	-2.209838e-05	1.643549e-05	0.02950129	0.000556138
2.6e+08	0.03029756	-0.001841386	-4.429575e-06	3.812068e-06	0.01531304	0.007717906	-3.874742e-07	3.874996e-07
	-4.429575e-06	3.812068e-06	0.02965892	-0.0005840563	-1.963648e-05	1.624503e-05	0.01489247	0.008172412
	0.01531304	0.007717906	-1.963648e-05	1.624503e-05	0.03053311	-0.002257237	-2.150388e-05	1.669787e-05
	-3.874742e-07	3.874996e-07	0.01489247	0.008172412	-2.150388e-05	1.669787e-05	0.02973705	-0.0004683205
2.7e+08	0.03043774	-0.002997446	-4.280963e-06	3.86806e-06	0.0158367	0.00717811	-3.906543e-07	4.034679e-07
	-4.280963e-06	3.86806e-06	0.02981246	-0.001629674	-1.904555e-05	1.647581e-05	0.01541099	0.007691509
	0.0158367	0.00717811	-1.904555e-05	1.647581e-05	0.03065137	-0.003425125	-2.09064e-05	1.696006e-05
	-3.906543e-07	4.034679e-07	0.01541099	0.007691509	-2.09064e-05	1.696006e-05	0.02988868	-0.001511922
2.8e+08	0.03048528	-0.004167215	-4.132373e-06	3.921834e-06	0.01630396	0.006593436	-3.929509e-07	4.201713e-07
	-4.132373e-06	3.921834e-06	0.0298813	-0.002688096	-1.845199e-05	1.670299e-05	0.01587766	0.007166992
	0.01630396	0.006593436	-1.845199e-05	1.670299e-05	0.03067643	-0.004605625	-2.030622e-05	1.722004e-05
	-3.929509e-07	4.201713e-07	0.01587766	0.007166992	-2.030622e-05	1.722004e-05	0.02995532	-0.002568072
2.9e+08	0.03043957	-0.005343347	-3.983929e-06	3.973158e-06	0.01671101	0.00596904	-3.943839e-07	4.375769e-07
	-3.983929e-06	3.973158e-06	0.02986501	-0.003752735	-1.785616e-05	1.69249e-05	0.01628883	0.006603578
	0.01671101	0.00596904	-1.785616e-05	1.69249e-05	0.03060767	-0.005791347	-1.970359e-05	1.74761e-05
	-3.943839e-07	4.375769e-07	0.01628883	0.006603578	-1.970359e-05	1.74761e-05	0.02993654	-0.003630156
3e+08	0.03030051	-0.006518475	-3.83574e-06	4.021851e-06	0.01705454	0.005310393	-3.949623e-07	4.556613e-07
	-3.83574e-06	4.021851e-06	0.02976363	-0.004817006	-1.725838e-05	1.714013e-05	0.01664126	0.006006286
	0.01705454	0.005310393	-1.725838e-05	1.714013e-05	0.03044503	-0.006974864	-1.909873e-05	1.772681e-05
	-3.949623e-07	4.556613e-07	0.01664126	0.006006286	-1.909873e-05	1.772681e-05	0.02983242	-0.004691554
3.1e+08	0.03006857	-0.007685235	-3.687914e-06	4.067782e-06	0.0173317	0.004623242	-3.946852e-07	4.744078e-07
	-3.687914e-06	4.067782e-06	0.02957768	-0.005874348	-1.665905e-05	1.734751e-05	0.01693215	0.005380402
	0.0173317	0.004623242	-1.665905e-05	1.734751e-05	0.03018899	-0.008148752	-1.84919e-05	1.797097e-05
	-3.946852e-07	4.744078e-07	0.01693215	0.005380402	-1.84919e-05	1.797097e-05	0.02964349	-0.005745677
3.2e+08	0.02974477	-0.00883633	-3.540543e-06	4.110851e-06	0.01754016	0.003913562	-3.935419e-07	4.938051e-07
	-3.540543e-06	4.110851e-06	0.02930815	-0.006918278	-1.605849e-05	1.754605e-05	0.01715919	0.004731435
	0.01754016	0.003913562	-1.605849e-05	1.754605e-05	0.0298406	-0.009305652	-1.788332e-05	1.820756e-05
	-3.935419e-07	4.938051e-07	0.01715919	0.004731435	-1.788332e-05	1.820756e-05	0.0293708	-0.00678601
3.3e+08	0.02933067	-0.009964562	-3.393706e-06	4.150984e-06	0.01767812	0.003187516	-3.915116e-07	5.138451e-07
	-3.393706e-06	4.150984e-06	0.0289565	-0.007942412	-1.545704e-05	1.773491e-05	0.01732054	0.004065081
	0.01767812	0.003187516	-1.545704e-05	1.773491e-05	0.02940148	-0.0104383	-1.727319e-05	1.84357e-05
	-3.915116e-07	5.138451e-07	0.01732054	0.004065081	-1.727319e-05	1.84357e-05	0.02901581	-0.007806149
3.4e+08	0.02882838	-0.01106286	-3.24748e-06	4.188135e-06	0.01774431	0.002451409	-3.885642e-07	5.345195e-07
	-3.24748e-06	4.188135e-06	0.02852465	-0.008940497	-1.485505e-05	1.791337e-05	0.01741487	0.003387181
	0.01774431	0.002451409	-1.485505e-05	1.791337e-05	0.02887378	-0.01153955	-1.666175e-05	1.865464e-05
	-3.885642e-07	5.345195e-07	0.01741487	0.003387181	-1.666175e-05	1.865464e-05	0.02858051	-0.008799817
3.5e+08	0.02824051	-0.01212435	-3.101928e-06	4.222273e-06	0.01773803	0.001711638	-3.846613e-07	5.558202e-07
	-3.101928e-06	4.222273e-06	0.02801497	-0.009906457	-1.425283e-05	1.808085e-05	0.01744136	0.00270367
	0.01773803	0.001711638	-1.425283e-05	1.808085e-05	0.02826022	-0.01260248	-1.60492e-05	1.886375e-05
	-3.846613e-07	5.558202e-07	0.01744136	0.00270367	-1.60492e-05	1.886375e-05	0.02806729	-0.009760922
3.6e+08	0.02757024	-0.01314236	-2.957109e-06	4.253372e-06	0.01765914	0.0009746448	-3.797567e-07	5.777348e-07
	-2.957109e-06	4.253372e-06	0.02743028	-0.01083441	-1.365074e-05	1.823684e-05	0.01739969	0.002020544
	0.01765914	0.0009746448	-1.365074e-05	1.823684e-05	0.02756403	-0.01362036	-1.543576e-05	1.906247e-05
	-3.797567e-07	5.777348e-07	0.01739969	0.002020544	-1.543576e-05	1.906247e-05	0.02747902	-0.01068357
3.7e+08	0.02682122	-0.0141105	-2.81307e-06	4.281437e-06	0.01750805	0.0002468704	-3.737961e-07	6.002499e-07
	-2.81307e-06	4.281437e-06	0.02677382	-0.01171873	-1.304909e-05	1.838092e-05	0.0172901	0.001343803
	0.01750805	0.0002468704	-1.304909e-05	1.838092e-05	0.02678896	-0.01458672	-1.482164e-05	1.925032e-05
	-3.737961e-07	6.002499e-07	0.0172901	0.001343803	-1.482164e-05	1.925032e-05	0.026819	-0.01156212
3.8e+08	0.02599758	-0.01502267	-2.669852e-06	4.306473e-06	0.01728574	-0.0004652984	-3.66719e-07	6.233458e-07
	-2.669852e-06	4.306473e-06	0.02604923	-0.01255403	-1.244821e-05	1.851273e-05	0.01711331	0.0006794164
	0.01728574	-0.0004652984	-1.244821e-05	1.851273e-05	0.02593925	-0.01549542	-1.420705e-05	1.94269e-05
	-3.66719e-07	6.233458e-07	0.01711331	0.0006794164	-1.420705e-05	1.94269e-05	0.0260909	-0.01239119
3.9e+08	0.02510395	-0.01587309	-2.527486e-06	4.328485e-06	0.01699375	-0.001155574	-3.584597e-07	6.469966e-07
	-2.527486e-06	4.328485e-06	0.02526057	-0.01333523	-1.184841e-05	1.863197e-05	0.01687058	3.327135e-05
	0.01699375	-0.001155574	-1.184841e-05	1.863197e-05	0.02501962	-0.01634066	-1.359219e-05	1.959182e-05
	-3.584597e-07	6.469966e-07	0.01687058	3.327134e-05	-1.359219e-05	1.959182e-05	0.02529883	-0.01316571
4e+08	0.02414534	-0.01665637	-2.386001e-06	4.347482e-06	0.01663416	-0.00181782	-3.48948e-07	6.711692e-07
	-2.386001e-06	4.347482e-06	0.02441223	-0.01405759	-1.125002e-05	1.873839e-05	0.01656369	-0.0005888688
	0.01663416	-0.00181782	-1.125002e-05	1.873839e-05	0.02403523	-0.017117	-1.297726e-05	1.974474e-05
	-3.48948e-07	6.711692e-07	0.01656369	-0.0005888688	-1.297726e-05	1.974474e-05	0.02444723	-0.01388092
4.1e+08	0.02312723	-0.01736753	-2.245421e-06	4.363476e-06	0.0162096	-0.002446093	-3.381102e-07	6.958221e-07
	-2.245421e-06	4.363476e-06	0.02350898	-0.0147167	-1.065334e-05	1.883179e-05	0.01619488	-0.001181409
	0.0162096	-0.002446093	-1.065334e-05	1.883179e-05	0.02299166	-0.01781944	-1.236247e-05	1.988539e-05
	-3.381102e-07	6.958221e-07	0.01619488	-0.001181409	-1.236247e-05	1.988539e-05	0.02354091	-0.01453244
4.2e+08	0.02205543	-0.01800201	-2.105766e-06	4.376479e-06	0.01572318	-0.003034692	-3.258708e-07	7.209057e-07
	-2.105766e-06	4.376479e-06	0.02255588	-0.01530854	-1.005869e-05	1.891199e-05	0.01576691	-0.001738966
	0.01572318	-0.003034692	-1.005869e-05	1.891199e-05	0.02189487	-0.01844341	-1.174804e-05	2.00135e-05
	-3.258708e-07	7.209057e-07	0.01576691	-0.001738966	-1.174804e-05	2.00135e-05	0.02258498	-0.01511627
4.3e+08	0.02093613	-0.01855574	-1.967052e-06	4.386502e-06	0.01517854	-0.003578204	-3.121531e-07	7.463608e-07
	-1.967052e-06	4.386502e-06	0.02155828	-0.01582949	-9.466386e-06	1.897887e-05	0.01528299	-0.002256405
	0.01517854	-0.003578204	-9.466386e-06	1.897887e-05	0.02075117	-0.01898482	-1.113419e-05	2.012884e-05
	-3.121531e-07	7.463608e-07	0.01528299	-0.002256405	-1.113419e-05	2.012884e-05	0.02158484	-0.0156288
4.4e+08	0.01977579	-0.01902512	-1.829296e-06	4.39355e-06	0.01457976	-0.004071542	-2.968809e-07	7.72119e-07
	-1.829296e-06	4.39355e-06	0.02052181	-0.01627634	-8.876733e-06	1.903233e-05	0.01474675	-0.002728887
	0.01457976	-0.004071542	-8.876733e-06	1.903233e-05	0.01956717	-0.01944009	-1.052113e-05	2.023119e-05
	-2.968809e-07	7.72119e-07	0.01474675	-0.002728887	-1.052113e-05	2.023119e-05	0.02054614	-0.01606685
4.5e+08	0.01858117	-0.01940709	-1.692513e-06	4.397628e-06	0.01393138	-0.004509988	-2.799795e-07	7.981022e-07
	-1.692513e-06	4.397628e-06	0.01945229	-0.01664635	-8.290041e-06	1.907226e-05	0.01416225	-0.003151898
	0.01393138	-0.004509988	-8.290041e-06	1.907226e-05	0.01834977	-0.01980619	-9.909101e-06	2.032034e-05
	-2.799795e-07	7.981022e-07	0.01416225	-0.003151898	-9.909101e-06	2.032034e-05	0.01947476	-0.0164277
4.6e+08	0.01735924	-0.01969911	-1.556717e-06	4.398739e-06	0.01323832	-0.004889229	-2.613771e-07	8.242224e-07
	-1.556717e-06	4.398739e-06	0.01835577	-0.01693722	-7.706675e-06	1.90986e-05	0.01353394	-0.00352129
	0.01323832	-0.004889229	-7.706675e-06	1.90986e-05	0.0171061	-0.02008059	-9.298336e-06	2.039612e-05
	-2.613771e-07	8.242224e-07	0.01353394	-0.00352129	-9.298336e-06	2.039612e-05	0.01837678	-0.01670909
4.7e+08	0.01611716	-0.0198992	-1.421923e-06	4.39688e-06	0.0125059	-0.005205395	-2.410063e-07	8.503734e-07
	-1.421923e-06	4.39688e-06	0.01723844	-0.01714711	-7.127135e-06	1.91112e-05	0.01286661	-0.003833308
	0.0125059	-0.005205395	-7.127135e-06	1.91112e-05	0.01584344	-0.02026137	-8.689103e-06	2.045828e-05
	-2.410063e-07	8.503734e-07	0.01286661	-0.003833308	-8.689103e-06	2.045828e-05	0.01725839	-0.01690918
