!$
! Info: Touchstone file created by Circ.  Input file=Tx_4in_Rx_93ohms_TxVia_35mils_RxVia_45mils.circ
!$
# Hz S RI R 50
0	0.003794794	6.866779e-26	7.7265e-10	3.595802e-28	4.152742e-05	7.042151e-24	2.5691e-09	1.510814e-28
	7.726508e-10	3.594634e-28	0.003792652	7.87961e-26	4.086144e-10	5.227575e-28	4.088428e-05	8.49971e-24
	4.20376e-05	7.14061e-24	4.08614e-10	5.227952e-28	0.00380722	6.674209e-26	7.930498e-10	3.475045e-28
	2.5691e-09	1.510701e-28	3.903741e-05	8.541758e-24	7.930502e-10	3.474667e-28	0.003805858	7.380748e-26
1e+07	0.005630848	0.0003312895	1.048003e-09	1.413852e-09	0.0001037951	0.0008373198	4.275066e-09	6.768949e-09
	1.048003e-09	1.413852e-09	0.005557886	8.261983e-05	6.048669e-10	8.452147e-10	0.0001050132	0.000902397
	0.0001038249	0.0008373148	6.048669e-10	8.452147e-10	0.005269207	0.0001143984	1.093159e-09	1.47578e-09
	4.275066e-09	6.768949e-09	0.0001049534	0.0009024071	1.093159e-09	1.47578e-09	0.005460616	8.118237e-05
2e+07	0.006986885	-0.0007557379	1.568292e-09	2.425151e-09	0.0002441655	0.001695487	6.876064e-09	1.151915e-08
	1.568293e-09	2.425151e-09	0.0066872	-0.001141819	8.231056e-10	1.456503e-09	0.0001930646	0.001812058
	0.0002441668	0.001695465	8.231055e-10	1.456503e-09	0.006506485	-0.0009782141	1.653264e-09	2.516156e-09
	6.876064e-09	1.151915e-08	0.0001930565	0.001812092	1.653264e-09	2.516156e-09	0.006612907	-0.001104337
3e+07	0.007843559	-0.00244087	2.156741e-09	3.322829e-09	0.0004520034	0.00253859	9.877556e-09	1.575288e-08
	2.156741e-09	3.322829e-09	0.007358155	-0.002851365	1.020192e-09	2.025593e-09	0.0003835873	0.0026766
	0.0004519972	0.002538588	1.020192e-09	2.025593e-09	0.007272339	-0.002650079	2.28285e-09	3.43499e-09
	9.877556e-09	1.575288e-08	0.0003835873	0.002676605	2.28285e-09	3.43499e-09	0.007301251	-0.002802033
4e+07	0.008358069	-0.004354589	2.857772e-09	4.110216e-09	0.0007282164	0.003360108	1.348389e-08	1.945829e-08
	2.857772e-09	4.110216e-09	0.007707678	-0.004745217	1.23031e-09	2.561236e-09	0.0006639336	0.003508041
	0.0007282169	0.003360112	1.23031e-09	2.561236e-09	0.007712997	-0.00453417	3.033067e-09	4.236934e-09
	1.348389e-08	1.945829e-08	0.0006639282	0.003508039	3.033067e-09	4.236934e-09	0.007664888	-0.004690986
5e+07	0.008586707	-0.006394573	3.663188e-09	4.776175e-09	0.001071057	0.004153416	1.765352e-08	2.256718e-08
	3.663188e-09	4.776175e-09	0.007785516	-0.006734276	1.454246e-09	3.061687e-09	0.001007086	0.004306282
	0.001071059	0.004153418	1.454246e-09	3.061687e-09	0.007880793	-0.006532256	3.89518e-09	4.909501e-09
	1.765352e-08	2.256718e-08	0.001007082	0.004306281	3.89518e-09	4.909501e-09	0.007754155	-0.006679015
6e+07	0.008557854	-0.008504604	4.563325e-09	5.312633e-09	0.001477825	0.00491265	2.232505e-08	2.503476e-08
	4.563325e-09	5.312633e-09	0.007617924	-0.008767761	1.69526e-09	3.52559e-09	0.001410466	0.005067323
	0.001477823	0.004912649	1.69526e-09	3.52559e-09	0.007802396	-0.008590416	4.854994e-09	5.446183e-09
	2.232505e-08	2.503476e-08	0.001410468	0.005067321	4.854994e-09	5.446183e-09	0.007595563	-0.008714113
7e+07	0.008289141	-0.01064627	5.543335e-09	5.715377e-09	0.001945326	0.005632501	2.743026e-08	2.682516e-08
	5.543335e-09	5.715377e-09	0.007222096	-0.01080977	1.946781e-09	3.95563e-09	0.001870887	0.005786776
	0.00194532	0.0056325	1.946781e-09	3.95563e-09	0.007494747	-0.01067141	5.899635e-09	5.840929e-09
	2.743026e-08	2.682516e-08	0.001870895	0.005786772	5.899635e-09	5.840929e-09	0.007206372	-0.01075975
8e+07	0.00779333	-0.01279021	6.591491e-09	5.977366e-09	0.002470005	0.006308243	3.290317e-08	2.789634e-08
	6.591491e-09	5.977366e-09	0.006611475	-0.01283128	2.207095e-09	4.351852e-09	0.002384655	0.006460221
	0.002469997	0.006308244	2.207095e-09	4.351852e-09	0.006970663	-0.012746	7.016442e-09	6.086381e-09
	3.290317e-08	2.789634e-08	0.002384665	0.006460215	7.016442e-09	6.086381e-09	0.006599972	-0.01278658
9e+07	0.007080566	-0.01491319	7.69547e-09	6.090448e-09	0.003048166	0.006936169	3.867094e-08	2.820484e-08
	7.69547e-09	6.090448e-09	0.005798609	-0.01480624	2.474252e-09	4.713558e-09	0.002947598	0.007083376
	0.00304816	0.006936171	2.474252e-09	4.713558e-09	0.006241426	-0.0147892	8.192005e-09	6.174167e-09
	3.867094e-08	2.820484e-08	0.002947605	0.007083371	8.192005e-09	6.174167e-09	0.00578874	-0.01476842
1e+08	0.006155954	-0.01700396	8.845405e-09	6.044082e-09	0.003677881	0.00751803	4.46544e-08	2.770771e-08
	8.845405e-09	6.044082e-09	0.004800479	-0.01670204	2.746232e-09	5.039485e-09	0.003555127	0.007652082
	0.003677881	0.00751803	2.746232e-09	5.039485e-09	0.005319373	-0.01677612	9.414552e-09	6.094214e-09
	4.46544e-08	2.770771e-08	0.003555127	0.007652082	9.414552e-09	6.094214e-09	0.004788846	-0.01667392
1.1e+08	0.004999113	-0.01901084	1.002744e-08	5.858133e-09	0.004326761	0.008049651	5.075662e-08	2.640139e-08
	1.002744e-08	5.858133e-09	0.003666362	-0.01854912	3.02208e-09	5.338543e-09	0.00420111	0.00816327
	0.004326761	0.008049651	3.02208e-09	5.338543e-09	0.004228681	-0.01870869	1.067124e-08	5.864006e-09
	5.075662e-08	2.640139e-08	0.00420111	0.00816327	1.067124e-08	5.864006e-09	0.003645852	-0.01852674
1.2e+08	0.003670071	-0.02090639	1.120569e-08	5.519436e-09	0.0050096	0.00850823	5.687585e-08	2.427401e-08
	1.120569e-08	5.519436e-09	0.002345257	-0.02032206	3.293633e-09	5.604569e-09	0.004881499	0.008614332
	0.0050096	0.00850823	3.293633e-09	5.604569e-09	0.002956291	-0.0205604	1.192572e-08	5.469363e-09
	5.687585e-08	2.427401e-08	0.004881499	0.008614332	1.192572e-08	5.469363e-09	0.002315498	-0.02030245
1.3e+08	0.002177502	-0.02268823	1.236803e-08	5.023669e-09	0.005722992	0.00889771	6.292584e-08	2.131419e-08
	1.236803e-08	5.023669e-09	0.0008550879	-0.02199169	3.558236e-09	5.837356e-09	0.005590821	0.00900234
	0.005722992	0.00889771	3.558236e-09	5.837356e-09	0.001516351	-0.02231151	1.316387e-08	4.906487e-09
	6.292584e-08	2.131419e-08	0.005590821	0.00900234	1.316387e-08	4.906487e-09	0.0008150722	-0.02197328
1.4e+08	0.0005334036	-0.02434589	1.349852e-08	4.368858e-09	0.006461156	0.009217226	6.881522e-08	1.75211e-08
	1.349852e-08	4.368858e-09	-0.0007897321	-0.0235411	3.813095e-09	6.03649e-09	0.00632333	0.009325038
	0.006461156	0.009217226	3.813095e-09	6.03649e-09	-7.815128e-05	-0.02394734	1.436848e-08	4.173479e-09
	6.881522e-08	1.75211e-08	0.00632333	0.009325038	1.436848e-08	4.173479e-09	-0.0008410049	-0.02352237
1.5e+08	-0.001249615	-0.02586877	1.457922e-08	3.557593e-09	0.007217889	0.009465672	7.445075e-08	1.290341e-08
	1.457922e-08	3.557593e-09	-0.002575014	-0.02495647	4.054108e-09	6.203507e-09	0.007073093	0.009580718
	0.007217889	0.009465672	4.054108e-09	6.203507e-09	-0.001814185	-0.02545514	1.552036e-08	3.273065e-09
	7.445075e-08	1.290341e-08	0.007073093	0.009580718	1.552036e-08	3.273065e-09	-0.002638407	-0.02493587
1.6e+08	-0.00315851	-0.02724695	1.559255e-08	2.593035e-09	0.007986786	0.009642216	7.973874e-08	7.479638e-09
	1.559255e-08	2.593035e-09	-0.004486407	-0.02622606	4.277763e-09	6.339518e-09	0.007834051	0.009768223
	0.007986786	0.009642216	4.277763e-09	6.339518e-09	-0.003678484	-0.02682371	1.660071e-08	2.208638e-09
	7.973874e-08	7.479638e-09	0.007834051	0.009768223	1.660071e-08	2.208638e-09	-0.0045626	-0.02620198
1.7e+08	-0.005179837	-0.02847147	1.652092e-08	1.480253e-09	0.008761347	0.009746461	8.458642e-08	1.278307e-09
	1.652092e-08	1.480253e-09	-0.006509308	-0.02733978	4.480557e-09	6.446023e-09	0.008600071	0.009886947
	0.008761347	0.009746461	4.480557e-09	6.446023e-09	-0.005657482	-0.02804317	1.759072e-08	9.856001e-10
	8.458642e-08	1.278307e-09	0.008600071	0.009886947	1.759072e-08	9.856001e-10	-0.006598782	-0.0273106
1.8e+08	-0.007299768	-0.02953437	1.734698e-08	2.262485e-10	0.009535038	0.009778514	8.890323e-08	-5.662087e-09
	1.734698e-08	2.262485e-10	-0.00862883	-0.02828906	4.659063e-09	6.524926e-09	0.009365001	0.009936831
	0.009535038	0.009778514	4.659063e-09	6.524926e-09	-0.007737288	-0.02910493	1.847188e-08	-3.88596e-10
	8.890323e-08	-5.662087e-09	0.009365001	0.009936831	1.847188e-08	-3.88596e-10	-0.008731872	-0.02825313
1.9e+08	-0.009504119	-0.03042879	1.805392e-08	-1.160063e-09	0.01030136	0.009739015	9.260201e-08	-1.329331e-08
	1.805392e-08	-1.160063e-09	-0.01082981	-0.02906669	4.809988e-09	6.578526e-09	0.01012272	0.009918365
	0.01030136	0.009739015	4.809988e-09	6.578526e-09	-0.009903705	-0.03000163	1.922622e-08	-1.904473e-09
	9.260201e-08	-1.329331e-08	0.01012272	0.009918365	1.922622e-08	-1.904473e-09	-0.01094653	-0.02902239
2e+08	-0.0117784	-0.031149	1.862566e-08	-2.667905e-09	0.01105388	0.009629149	9.560003e-08	-2.155774e-08
	1.862566e-08	-2.667905e-09	-0.01309686	-0.02966686	4.930229e-09	6.609509e-09	0.01086717	0.009832578
	0.01105388	0.009629149	4.930229e-09	6.609509e-09	-0.01214225	-0.03072709	1.983656e-08	-3.550577e-09
	9.560003e-08	-2.155774e-08	0.01086717	0.009832578	1.983656e-08	-3.550577e-09	-0.0132272	-0.02961261
2.1e+08	-0.01410809	-0.03169048	1.904695e-08	-4.284739e-09	0.0117933	0.009442904	9.781988e-08	-3.038876e-08
	1.904695e-08	-4.284739e-09	-0.0154144	-0.03008508	5.016681e-09	6.620981e-09	0.01159243	0.009681025
	0.0117933	0.009442904	5.016681e-09	6.620981e-09	-0.01443842	-0.03127646	2.028557e-08	-5.313199e-09
	9.781988e-08	-3.038876e-08	0.01159243	0.009681025	2.028557e-08	-5.313199e-09	-0.01555815	-0.03001934
2.2e+08	-0.01647834	-0.03204983	1.930381e-08	-5.996288e-09	0.01251339	0.009180802	9.919075e-08	-3.971143e-08
	1.930381e-08	-5.996288e-09	-0.01776676	-0.0303182	5.06671e-09	6.616405e-09	0.01229274	0.00946578
	0.01251339	0.009180802	5.06671e-09	6.616405e-09	-0.0167774	-0.031646	2.055807e-08	-7.176776e-09
	9.919075e-08	-3.971143e-08	0.01229274	0.00946578	2.055807e-08	-7.176776e-09	-0.01792356	-0.03023946
2.3e+08	-0.01887389	-0.0322247	1.938374e-08	-7.786666e-09	0.01319949	0.008854841	9.964934e-08	-4.94434e-08
	1.938374e-08	-7.786666e-09	-0.02013821	-0.03036435	5.078361e-09	6.599424e-09	0.01296258	0.00918941
	0.01319949	0.008854841	5.078361e-09	6.599424e-09	-0.01914396	-0.03183305	2.064201e-08	-9.124744e-09
	9.964934e-08	-4.94434e-08	0.01296258	0.00918941	2.064201e-08	-9.124744e-09	-0.02030758	-0.03027118
2.4e+08	-0.02127969	-0.03221407	1.927564e-08	-9.638574e-09	0.01384606	0.008468416	9.914014e-08	-5.949526e-08
	1.927564e-08	-9.638574e-09	-0.02251306	-0.03022298	5.049751e-09	6.574006e-09	0.01359664	0.008854957
	0.01384606	0.008468416	5.049751e-09	6.574006e-09	-0.02152309	-0.03183631	2.052557e-08	-1.11387e-08
	9.914014e-08	-5.949526e-08	0.01359664	0.008854957	2.052557e-08	-1.11387e-08	-0.0226944	-0.03011401
2.5e+08	-0.02368077	-0.03201808	1.897008e-08	-1.153341e-08	0.01444788	0.008025402	9.761636e-08	-6.977149e-08
	1.897008e-08	-1.153341e-08	-0.02487578	-0.02989481	4.979393e-09	6.544355e-09	0.01418995	0.008465912
	0.01444788	0.008025402	4.979393e-09	6.544355e-09	-0.02389979	-0.03165565	2.01987e-08	-1.319888e-08
	9.761636e-08	-6.977149e-08	0.01418995	0.008465912	2.01987e-08	-1.319888e-08	-0.02506835	-0.02976873
2.6e+08	-0.02606226	-0.03163807	1.845944e-08	-1.345143e-08	0.0150001	0.007530109	9.504052e-08	-8.017127e-08
	1.845944e-08	-1.345143e-08	-0.02721104	-0.02938182	4.866213e-09	6.514871e-09	0.01473784	0.008026187
	0.0150001	0.007530109	4.866213e-09	6.514871e-09	-0.02625923	-0.03129214	1.965328e-08	-1.528429e-08
	9.504052e-08	-8.017127e-08	0.01473784	0.008026187	1.965328e-08	-1.528429e-08	-0.02741399	-0.02923739
2.7e+08	-0.02840956	-0.03107653	1.773807e-08	-1.537194e-08	0.01549829	0.006987253	9.138498e-08	-9.058942e-08
	1.773807e-08	-1.537194e-08	-0.0295038	-0.02868721	4.709589e-09	6.490109e-09	0.01523604	0.007540082
	0.01549829	0.006987253	4.709589e-09	6.490109e-09	-0.02858676	-0.03074801	1.888324e-08	-1.737292e-08
	9.138498e-08	-9.058942e-08	0.01523604	0.007540082	1.888324e-08	-1.737292e-08	-0.02971618	-0.02852328
2.8e+08	-0.03070834	-0.03033707	1.680235e-08	-1.727344e-08	0.01593842	0.006401915	8.663238e-08	-1.009173e-07
	1.680235e-08	-1.727344e-08	-0.03173942	-0.02781537	4.509357e-09	6.474731e-09	0.01568066	0.007012251
	0.01593842	0.006401915	4.509357e-09	6.474731e-09	-0.03086805	-0.03002663	1.788471e-08	-1.944197e-08
	8.663238e-08	-1.009173e-07	0.01568066	0.007012251	1.788471e-08	-1.944197e-08	-0.0319602	-0.02763089
2.9e+08	-0.0329447	-0.02942443	1.565081e-08	-1.91339e-08	0.01631696	0.005779508	8.077594e-08	-1.11044e-07
	1.565081e-08	-1.91339e-08	-0.03390375	-0.02677187	4.265831e-09	6.473462e-09	0.01606824	0.006447664
	0.01631696	0.005779508	4.265831e-09	6.473462e-09	-0.03308913	-0.0291325	1.665608e-08	-2.146799e-08
	8.077594e-08	-1.11044e-07	0.01606824	0.006447664	1.665608e-08	-2.146799e-08	-0.03413177	-0.02656584
3e+08	-0.03510518	-0.02834439	1.42842e-08	-2.093091e-08	0.01663085	0.005125729	7.381979e-08	-1.208569e-07
	1.42842e-08	-2.093091e-08	-0.03598318	-0.02556336	3.979813e-09	6.491042e-09	0.01639577	0.005851571
	0.01663085	0.005125729	3.979813e-09	6.491042e-09	-0.03523649	-0.02807118	1.519806e-08	-2.342718e-08
	7.381979e-08	-1.208569e-07	0.01639577	0.005851571	1.519806e-08	-2.342718e-08	-0.03621723	-0.02533493
3.1e+08	-0.0371769	-0.02710376	1.270553e-08	-2.264191e-08	0.01687757	0.004446516	6.577907e-08	-1.302431e-07
	1.270553e-08	-2.264191e-08	-0.03796477	-0.02419756	3.652595e-09	6.53217e-09	0.01666074	0.005229458
	0.01687757	0.004446516	3.652595e-09	6.53217e-09	-0.03729716	-0.02684928	1.351381e-08	-2.529557e-08
	6.577907e-08	-1.302431e-07	0.01666074	0.005229458	1.351381e-08	-2.529557e-08	-0.03820354	-0.02394594
3.2e+08	-0.03914756	-0.02571033	1.092011e-08	-2.424447e-08	0.01705511	0.003748004	5.668002e-08	-1.390905e-07
	1.092011e-08	-2.424447e-08	-0.03983628	-0.02268316	3.285961e-09	6.601461e-09	0.0168611	0.004587004
	0.01705511	0.003748004	3.285961e-09	6.601461e-09	-0.03925877	-0.02547439	1.160888e-08	-2.704929e-08
	5.668002e-08	-1.390905e-07	0.0168611	0.004587004	1.160888e-08	-2.704929e-08	-0.04007839	-0.02240772
3.3e+08	-0.0410056	-0.02417281	8.93556e-09	-2.571642e-08	0.01716202	0.003036476	4.655996e-08	-1.472883e-07
	8.93556e-09	-2.571642e-08	-0.04158626	-0.02102982	2.882183e-09	6.70339e-09	0.01699533	0.003930038
	0.01716202	0.003036476	2.882183e-09	6.70339e-09	-0.04110962	-0.02395502	9.491267e-09	-2.866479e-08
	4.655996e-08	-1.472883e-07	0.01699533	0.003930038	9.491267e-09	-2.866479e-08	-0.04183027	-0.02073003
3.4e+08	-0.04274017	-0.02250074	6.76177e-09	-2.70362e-08	0.01719741	0.002318313	3.546717e-08	-1.547289e-07
	6.76177e-09	-2.70362e-08	-0.04320412	-0.01924803	2.444004e-09	6.842245e-09	0.01706241	0.003264497
	0.01719741	0.002318313	2.444004e-09	6.842245e-09	-0.04283877	-0.02230057	7.171402e-09	-3.011912e-08
	3.546717e-08	-1.547289e-07	0.01706241	0.003264497	7.171402e-09	-3.011912e-08	-0.04344855	-0.01892347
3.5e+08	-0.04434128	-0.02070449	4.410881e-09	-2.818299e-08	0.01716095	0.001599947	2.346068e-08	-1.613081e-07
	4.410881e-09	-2.818299e-08	-0.04468019	-0.01734907	1.974628e-09	7.022072e-09	0.01706187	0.002596377
	0.01716095	0.001599947	1.974628e-09	7.022072e-09	-0.04443608	-0.02052124	4.662082e-09	-3.139011e-08
	2.346068e-08	-1.613081e-07	0.01706187	0.002596377	4.662082e-09	-3.139011e-08	-0.04492351	-0.01699949
3.6e+08	-0.04579977	-0.01879515	1.897212e-09	-2.913702e-08	0.01705289	0.0008878133	1.060994e-08	-1.669267e-07
	1.897212e-09	-2.913702e-08	-0.04600577	-0.01534494	1.477693e-09	7.246633e-09	0.01699373	0.001931689
	0.01705289	0.0008878133	1.477693e-09	7.246633e-09	-0.04589226	-0.01862799	1.978417e-09	-3.245669e-08
	1.060994e-08	-1.669267e-07	0.01699373	0.001931689	1.978417e-09	-3.245669e-08	-0.04624642	-0.0149702
3.7e+08	-0.04710742	-0.01678445	-7.628294e-10	-2.987972e-08	0.01687403	0.0001882971	-3.005575e-09	-1.714912e-07
	-7.628294e-10	-2.987972e-08	-0.04717318	-0.01324826	9.572492e-10	7.519355e-09	0.01685856	0.001276413
	0.01687403	0.0001882971	9.572492e-10	7.519355e-09	-0.04719896	-0.01663244	-8.622634e-10	-3.329906e-08
	-3.005575e-09	-1.714912e-07	0.01685856	0.001276413	-8.622634e-10	-3.329906e-08	-0.04740957	-0.01284837
3.8e+08	-0.04825699	-0.01468472	-3.550855e-09	-3.039401e-08	0.01662573	-0.0004923111	-1.729683e-08	-1.74915e-07
	-3.550855e-09	-3.039401e-08	-0.04817579	-0.0110722	4.177233e-10	7.843289e-09	0.01665743	0.0006364569
	0.01662573	-0.0004923111	4.177233e-10	7.843289e-09	-0.04834876	-0.0145468	-3.840524e-09	-3.389897e-08
	-1.729683e-08	-1.74915e-07	0.01665743	0.0006364569	-3.840524e-09	-3.389897e-08	-0.04840635	-0.0106473
3.9e+08	-0.04924222	-0.01250879	-6.446634e-09	-3.066445e-08	0.01630989	-0.001147865	-3.216585e-08	-1.771189e-07
	-6.446634e-09	-3.066445e-08	-0.04900808	-0.008830379	-1.361158e-10	8.221072e-09	0.01639194	1.760721e-05
	0.01630989	-0.001147865	-1.361158e-10	8.221072e-09	-0.04933525	-0.01238382	-6.934965e-09	-3.423989e-08
	-3.216585e-08	-1.771189e-07	0.01639194	1.76072e-05	-6.934965e-09	-3.423989e-08	-0.04923123	-0.008380762
4e+08	-0.05005789	-0.0102699	-9.428243e-09	-3.067745e-08	0.01592897	-0.001772408	-4.750635e-08	-1.780325e-07
	-9.428243e-09	-3.067745e-08	-0.04966565	-0.006536782	-6.991982e-10	8.654883e-09	0.01606417	-0.00057451
	0.01592897	-0.001772408	-6.991982e-10	8.654883e-09	-0.05015306	-0.01015668	-1.012238e-08	-3.430727e-08
	-4.750635e-08	-1.780325e-07	0.01606417	-0.00057451	-1.012238e-08	-3.430727e-08	-0.04987983	-0.00606288
4.1e+08	-0.05069985	-0.007981659	-1.247225e-08	-3.042145e-08	0.0154859	-0.002360219	-6.320454e-08	-1.775948e-07
	-1.247225e-08	-3.042145e-08	-0.05014524	-0.004205667	-1.266198e-09	9.146419e-09	0.01567669	-0.001134472
	0.0154859	-0.002360219	-1.266198e-09	9.146419e-09	-0.05079786	-0.007878934	-1.337796e-08	-3.408867e-08
	-6.320454e-08	-1.775948e-07	0.01567669	-0.001134472	-1.337796e-08	-3.408867e-08	-0.05034893	-0.003708057
4.2e+08	-0.05116504	-0.00565792	-1.55539e-08	-2.988709e-08	0.01498414	-0.002905855	-7.913986e-08	-1.757546e-07
	-1.55539e-08	-2.988709e-08	-0.05044475	-0.001851485	-1.83158e-09	9.696862e-09	0.01523252	-0.001657101
	0.01498414	-0.002905855	-1.83158e-09	9.696862e-09	-0.05126643	-0.005564394	-1.667546e-08	-3.357396e-08
	-7.913986e-08	-1.757546e-07	0.01523252	-0.001657101	-1.667546e-08	-3.357396e-08	-0.05063649	-0.001330877
4.3e+08	-0.05145148	-0.003312714	-1.864733e-08	-2.906733e-08	0.01442759	-0.003404193	-9.518597e-08	-1.724718e-07
	-1.864733e-08	-2.906733e-08	-0.05056327	0.0005112325	-2.389653e-09	1.030686e-08	0.01473513	-0.002137497
	0.01442759	-0.003404193	-2.389653e-09	1.030686e-08	-0.05155663	-0.003227073	-1.998745e-08	-3.275548e-08
	-9.518597e-08	-1.724718e-07	0.01473513	-0.002137497	-1.998745e-08	-3.275548e-08	-0.05074164	0.001053992
4.4e+08	-0.05155832	-0.0009601637	-2.17258e-08	-2.795757e-08	0.0138206	-0.003850465	-1.112116e-07	-1.677176e-07
	-2.17258e-08	-2.795757e-08	-0.05050103	0.002867947	-2.934619e-09	1.09765e-08	0.01418839	-0.002571081
	0.0138206	-0.003850465	-2.934619e-09	1.09765e-08	-0.05166743	-0.000881093	-2.328553e-08	-3.162815e-08
	-1.112116e-07	-1.677176e-07	0.01418839	-0.002571081	-2.328553e-08	-3.162815e-08	-0.05066468	0.003431882
4.5e+08	-0.05148578	0.001385603	-2.476177e-08	-2.65558e-08	0.01316791	-0.0042403	-1.270818e-07	-1.614752e-07
	-2.476177e-08	-2.65558e-08	-0.05025942	0.005204218	-3.460638e-09	1.170532e-08	0.01359657	-0.002953624
	0.01316791	-0.0042403	-3.460638e-09	1.170532e-08	-0.05159892	0.001459407	-2.654046e-08	-3.018963e-08
	-1.270818e-07	-1.614752e-07	0.01359657	-0.002953624	-2.654046e-08	-3.018963e-08	-0.05040711	0.005788232
4.6e+08	-0.05123525	0.003710558	-2.774632e-08	-2.485618e-08	0.01247464	-0.004569753	-1.426572e-07	-1.537288e-07
	-2.774632e-08	-2.485618e-08	-0.04984101	0.007505787	-3.960875e-09	1.249253e-08	0.01296428	-0.00328128
	0.01247464	-0.004569753	-3.960875e-09	1.249253e-08	-0.05135229	0.003780351	-2.974163e-08	-2.84336e-08
	-1.426572e-07	-1.537288e-07	0.01296428	-0.00328128	-2.974163e-08	-2.84336e-08	-0.04997159	0.008108686
4.7e+08	-0.05080913	0.006000799	-3.063368e-08	-2.286636e-08	0.01174623	-0.004835335	-1.577976e-07	-1.444971e-07
	-3.063368e-08	-2.286636e-08	-0.04924947	0.009758669	-4.430367e-09	1.333615e-08	0.01229645	-0.003550612
	0.01174623	-0.004835335	-4.430367e-09	1.333615e-08	-0.05092982	0.006067812	-3.284135e-08	-2.636793e-08
	-1.577976e-07	-1.444971e-07	0.01229645	-0.003550612	-3.284135e-08	-2.636793e-08	-0.04936187	0.01037914
