!$
! Info: Touchstone file created by Circ.  Input file=Tx_4in_Rx_100ohms_TxVia_35mils_RxVia_45mils.circ
!$
# Hz S RI R 50
0	0.004278712	6.868485e-26	-2.184381e-05	3.890022e-24	4.153255e-05	7.953572e-24	-2.185609e-05	5.421534e-24
	-2.184382e-05	3.890804e-24	0.00427656	7.882054e-26	-2.182429e-05	1.554256e-24	4.089016e-05	9.600472e-24
	4.204261e-05	8.064775e-24	-2.182428e-05	1.552899e-24	0.004291114	6.675878e-26	-2.184231e-05	3.790966e-24
	-2.185609e-05	5.422073e-24	3.904319e-05	9.647925e-24	-2.184231e-05	3.79208e-24	0.004289758	7.38311e-26
1e+07	0.005728069	0.003227084	-3.41562e-05	-1.669615e-05	9.302503e-05	0.0008852876	-9.581184e-05	4.836175e-05
	-3.41562e-05	-1.669615e-05	0.00614494	0.003147775	-1.238511e-05	-5.928245e-06	0.0002348368	0.0009140088
	9.305486e-05	0.0008852828	-1.238511e-05	-5.928245e-06	0.005976827	0.003132276	-3.534966e-06	-5.67733e-06
	-9.581184e-05	4.836175e-05	0.000234777	0.0009140188	-3.534965e-06	-5.67733e-06	0.006097261	0.003159334
2e+07	0.007520482	0.005216485	-1.721663e-05	-3.367492e-05	0.0002064956	0.001777474	-0.0001135901	3.83519e-05
	-1.721663e-05	-3.367491e-05	0.007761421	0.004933579	-9.621198e-06	-6.750152e-06	0.0002866969	0.001883057
	0.000206497	0.001777452	-9.621198e-06	-6.750152e-06	0.007625118	0.004976232	-3.767119e-06	5.499344e-08
	-0.0001135901	3.83519e-05	0.0002866886	0.001883092	-3.767119e-06	5.49924e-08	0.00772981	0.004978417
3e+07	0.009047393	0.006466706	-6.842962e-06	-3.910085e-05	0.0003949461	0.002640342	-0.0001276861	3.501524e-05
	-6.842962e-06	-3.910085e-05	0.009143725	0.006127755	-7.631862e-06	-7.281823e-06	0.0004260448	0.002772181
	0.0003949399	0.00264034	-7.631862e-06	-7.281823e-06	0.009041677	0.006191294	-4.409238e-06	-8.092552e-07
	-0.0001276861	3.501524e-05	0.0004260447	0.002772186	-4.409238e-06	-8.092553e-07	0.009126023	0.006189729
4e+07	0.0104656	0.007402657	-2.130995e-05	-3.7351e-05	0.0006556796	0.003477577	-0.0001404102	3.191574e-05
	-2.130995e-05	-3.7351e-05	0.01043228	0.007051013	-6.011099e-06	-7.542479e-06	0.0006543653	0.003622925
	0.00065568	0.003477581	-6.011098e-06	-7.542479e-06	0.01036901	0.007125046	-5.289491e-06	-2.162595e-06
	-0.0001404102	3.191574e-05	0.0006543599	0.003622923	-5.289491e-06	-2.162595e-06	0.01042763	0.007125436
5e+07	0.01182599	0.00811859	-3.37155e-05	-3.261307e-05	0.0009854606	0.004284548	-0.0001526033	2.872556e-05
	-3.37155e-05	-3.261307e-05	0.01167282	0.007781282	-4.603653e-06	-7.643475e-06	0.001024972	0.004422067
	0.0009854628	0.004284549	-4.603653e-06	-7.643475e-06	0.01165327	0.007858332	-6.318686e-06	-3.235045e-06
	-0.0001526033	2.872556e-05	0.001024968	0.004422066	-6.318686e-06	-3.235045e-06	0.0116806	0.007865187
6e+07	0.01314954	0.008656812	-4.434655e-05	-2.558646e-05	0.001380819	0.005056195	-0.0001647161	2.540551e-05
	-4.434655e-05	-2.558646e-05	0.01288482	0.008355123	-3.32194e-06	-7.625818e-06	0.001451906	0.005179188
	0.001380817	0.005056194	-3.32194e-06	-7.625818e-06	0.0129134	0.008427949	-7.491607e-06	-4.095482e-06
	-0.0001647161	2.540551e-05	0.001451908	0.005179187	-7.491607e-06	-4.095482e-06	0.01290447	0.008446184
7e+07	0.01444495	0.009040678	-5.32902e-05	-1.659692e-05	0.001844531	0.005785521	-0.0001770645	2.187693e-05
	-5.32902e-05	-1.659692e-05	0.01407665	0.008793077	-2.878624e-06	-7.262145e-06	0.001932277	0.005890997
	0.001844525	0.005785521	-2.878623e-06	-7.262145e-06	0.0141572	0.008854522	-8.793535e-06	-4.759034e-06
	-0.0001770645	2.187693e-05	0.001932284	0.005890994	-8.793536e-06	-4.759035e-06	0.01410753	0.008889256
8e+07	0.01571478	0.009284821	-6.050416e-05	-5.743258e-06	0.002367104	0.006468934	-0.0001899608	1.791094e-05
	-6.050416e-05	-5.743258e-06	0.01525131	0.009108823	-4.241373e-06	-6.069982e-06	0.002462463	0.006553617
	0.002367096	0.006468935	-4.241373e-06	-6.069982e-06	0.01538718	0.009151579	-1.020974e-05	-5.228971e-06
	-0.0001899608	1.791094e-05	0.002462473	0.006553611	-1.020974e-05	-5.228971e-06	0.01529263	0.009208233
9e+07	0.01695805	0.009398914	-6.578037e-05	7.165933e-06	0.002942757	0.007102784	-0.0002038878	1.288254e-05
	-6.578037e-05	7.165933e-06	0.01640937	0.009313395	-5.314584e-06	-4.581526e-06	0.003038075	0.00716268
	0.002942751	0.007102786	-5.314584e-06	-4.581526e-06	0.01660332	0.009329698	-1.173614e-05	-5.521665e-06
	-0.0002038878	1.288254e-05	0.003038082	0.007162675	-1.173614e-05	-5.521665e-06	0.01646012	0.009414173
1e+08	0.01816981	0.009386274	-6.797649e-05	2.406937e-05	0.003568176	0.007685366	-0.0002206909	3.251929e-06
	-6.797649e-05	2.406937e-05	0.01755391	0.009423417	-5.924206e-06	-2.528225e-06	0.00365257	0.007710693
	0.003568176	0.007685366	-5.924206e-06	-2.528225e-06	0.01780763	0.009404126	-1.34128e-05	-5.71071e-06
	-0.0002206909	3.251929e-06	0.00365257	0.007710693	-1.34128e-05	-5.71071e-06	0.01761245	0.009522937
1.1e+08	0.01933348	0.009264181	-6.190576e-05	3.499076e-05	0.004245157	0.008203382	-0.0002249214	-1.098915e-05
	-6.190576e-05	3.499076e-05	0.01871304	0.00940276	-5.232044e-06	-1.100983e-06	0.004288692	0.008209798
	0.004245157	0.008203382	-5.232044e-06	-1.100983e-06	0.01902344	0.009341147	-1.482637e-05	-5.868072e-06
	-0.0002249214	-1.098915e-05	0.004288692	0.008209798	-1.482637e-05	-5.868072e-06	0.01877588	0.00950277
1.2e+08	0.02046556	0.009048123	-6.291651e-05	3.167373e-05	0.004956321	0.008653875	-0.0002275075	-1.843956e-05
	-6.291651e-05	3.167373e-05	0.01983076	0.009265829	-4.772979e-06	-1.74696e-07	0.004961971	0.008656929
	0.004956321	0.008653875	-4.772979e-06	-1.74696e-07	0.02019934	0.009156591	-1.617534e-05	-5.662735e-06
	-0.0002275075	-1.843956e-05	0.004961971	0.008656929	-1.617534e-05	-5.662735e-06	0.01989791	0.009366879
1.3e+08	0.02156095	0.008736979	-6.362277e-05	2.982172e-05	0.005697085	0.009036994	-0.0002298731	-2.314794e-05
	-6.362277e-05	2.982172e-05	0.02090823	0.009028746	-4.354426e-06	5.403839e-07	0.005665502	0.009044691
	0.005697085	0.009036994	-4.354426e-06	5.403839e-07	0.02133551	0.008865109	-1.74876e-05	-5.191429e-06
	-0.0002298731	-2.314794e-05	0.005665502	0.009044691	-1.74876e-05	-5.191429e-06	0.0209792	0.009130652
1.4e+08	0.02261533	0.008333667	-6.415176e-05	2.890154e-05	0.006461723	0.009351084	-0.0002321924	-2.60346e-05
	-6.415176e-05	2.890154e-05	0.02194283	0.008698626	-3.955104e-06	1.122338e-06	0.006393454	0.009369798
	0.006461723	0.009351084	-3.955104e-06	1.122338e-06	0.02242847	0.008473345	-1.874429e-05	-4.481545e-06
	-0.0002321924	-2.60346e-05	0.006393454	0.009369798	-1.874429e-05	-4.481545e-06	0.022017	0.008801242
1.5e+08	0.02362407	0.007841751	-6.453725e-05	2.865976e-05	0.007244206	0.009594679	-0.0002344926	-2.755488e-05
	-6.453725e-05	2.865976e-05	0.02293109	0.008281107	-3.566537e-06	1.608037e-06	0.007139987	0.009629998
	0.007244206	0.009594679	-3.566537e-06	1.608037e-06	0.02347393	0.007986724	-1.992179e-05	-3.55217e-06
	-0.0002344926	-2.755488e-05	0.007139988	0.009629998	-1.992179e-05	-3.55217e-06	0.02300788	0.008384378
1.6e+08	0.02458234	0.007265192	-6.478313e-05	2.894471e-05	0.008038329	0.009766725	-0.0002367576	-2.798901e-05
	-6.478313e-05	2.894471e-05	0.02386918	0.007781315	-3.184557e-06	2.018738e-06	0.007899188	0.009823752
	0.008038329	0.009766725	-3.184557e-06	2.018738e-06	0.02446717	0.007410308	-2.099589e-05	-2.421085e-06
	-0.0002367576	-2.798901e-05	0.007899188	0.009823752	-2.099589e-05	-2.421085e-06	0.02394804	0.007885253
1.7e+08	0.02548523	0.006608302	-6.488181e-05	2.965267e-05	0.008837788	0.009866652	-0.0002389579	-2.753282e-05
	-6.488181e-05	2.965267e-05	0.02475307	0.00720423	-2.806967e-06	2.368001e-06	0.00866508	0.009950133
	0.008837788	0.009866652	-2.806967e-06	2.368001e-06	0.02540329	0.006749155	-2.194326e-05	-1.106877e-06
	-0.0002389579	-2.753282e-05	0.00866508	0.009950133	-2.194326e-05	-1.106877e-06	0.02483353	0.007308888
1.8e+08	0.02632787	0.005875761	-6.482091e-05	3.070606e-05	0.009636238	0.009894412	-0.0002410611	-2.633515e-05
	-6.482091e-05	3.070606e-05	0.02557871	0.006554867	-2.432548e-06	2.665115e-06	0.009431663	0.01000879
	0.009636238	0.009894412	-2.432548e-06	2.665115e-06	0.02627741	0.006008473	-2.274221e-05	3.703024e-07
	-0.0002410611	-2.633515e-05	0.009431663	0.01000879	-2.274221e-05	3.703024e-07	0.02566033	0.006660322
1.9e+08	0.02710554	0.005072596	-6.458743e-05	3.204484e-05	0.01042734	0.009850484	-0.0002430369	-2.451656e-05
	-6.458743e-05	3.204484e-05	0.02634215	0.005838381	-2.272521e-06	2.712854e-06	0.01019295	0.009999911
	0.01042734	0.009850484	-2.272521e-06	2.712854e-06	0.0270847	0.005193708	-2.337382e-05	1.99096e-06
	-0.0002430369	-2.451656e-05	0.01019295	0.009999911	-2.337382e-05	1.99096e-06	0.02642453	0.005944719
2e+08	0.02781374	0.004204177	-6.416748e-05	3.361516e-05	0.01120483	0.009735885	-0.0002448594	-2.217918e-05
	-6.416748e-05	3.361516e-05	0.02703955	0.005060098	-2.268916e-06	2.615568e-06	0.010943	0.009924239
	0.01120483	0.009735885	-2.268916e-06	2.615568e-06	0.02782055	0.004310575	-2.382051e-05	3.730798e-06
	-0.0002448594	-2.217918e-05	0.010943	0.009924239	-2.382051e-05	3.730798e-06	0.02712234	0.005167417
2.1e+08	0.02844824	0.003276193	-6.354889e-05	3.536763e-05	0.01196253	0.00955216	-0.0002465086	-1.941221e-05
	-6.354889e-05	3.536763e-05	0.02766734	0.00422555	-2.260874e-06	2.537372e-06	0.01167598	0.009783027
	0.01196253	0.00955216	-2.260874e-06	2.537372e-06	0.02848063	0.003365077	-2.406765e-05	5.562594e-06
	-0.0002465086	-1.941221e-05	0.01167598	0.009783027	-2.406765e-05	5.562594e-06	0.02775019	0.004333946
2.2e+08	0.02900516	0.002294639	-6.272218e-05	3.725878e-05	0.01269443	0.009301379	-0.0002479708	-1.629514e-05
	-6.272218e-05	3.725878e-05	0.02822222	0.003340469	-2.24856e-06	2.474889e-06	0.0123862	0.009578039
	0.01269443	0.009301379	-2.24856e-06	2.474889e-06	0.02906091	0.002363505	-2.410429e-05	7.459633e-06
	-0.0002479708	-1.629514e-05	0.0123862	0.009578039	-2.410429e-05	7.459633e-06	0.02830478	0.003450048
2.3e+08	0.02948099	0.001265794	-6.168039e-05	3.924804e-05	0.01339472	0.008986121	-0.0002492384	-1.28998e-05
	-6.168039e-05	3.924804e-05	0.02870122	0.00241079	-2.232083e-06	2.425356e-06	0.01306812	0.00931153
	0.01339472	0.008986121	-2.232083e-06	2.425356e-06	0.02955778	0.00131242	-2.392281e-05	9.394181e-06
	-0.0002492384	-1.28998e-05	0.01306812	0.00931153	-2.392281e-05	9.394181e-06	0.02878317	0.002521674
2.4e+08	0.02987267	0.0001961741	-6.041974e-05	4.129693e-05	0.01405781	0.008609457	-0.0002503112	-9.290865e-06
	-6.041974e-05	4.129693e-05	0.02910173	0.001442611	-2.211656e-06	2.386399e-06	0.01371645	0.008986231
	0.01405781	0.008609457	-2.211656e-06	2.386399e-06	0.02996803	0.0002186211	-2.351904e-05	1.133791e-05
	-0.0002503112	-9.290865e-06	0.01371645	0.008986231	-2.351904e-05	1.133791e-05	0.02918273	0.00155494
2.5e+08	0.03017754	-0.0009074795	-5.893938e-05	4.336896e-05	0.01467844	0.008174931	-0.0002511945	-5.526891e-06
	-5.893938e-05	4.336896e-05	0.02942156	0.0004421998	-2.187458e-06	2.356039e-06	0.01432615	0.008605322
	0.01467844	0.008174931	-2.187458e-06	2.356039e-06	0.03028893	-0.000910863	-2.289235e-05	1.326224e-05
	-0.0002511945	-5.526891e-06	0.01432615	0.008605322	-2.289235e-05	1.326224e-05	0.02950129	0.000556138
2.6e+08	0.03039347	-0.00203825	-5.724174e-05	4.542938e-05	0.01525162	0.00768653	-0.0002519001	-1.660133e-06
	-5.724174e-05	4.542938e-05	0.02965892	-0.0005840563	-2.159736e-06	2.332563e-06	0.01489247	0.008172412
	0.01525162	0.00768653	-2.159736e-06	2.332563e-06	0.03051823	-0.002068833	-2.204565e-05	1.513881e-05
	-0.0002519001	-1.660133e-06	0.01489247	0.008172412	-2.204565e-05	1.513881e-05	0.02973705	-0.0004683205
2.7e+08	0.03051878	-0.003189072	-5.533233e-05	4.744525e-05	0.01577277	0.007148661	-0.0002524447	2.262762e-06
	-5.533233e-05	4.744525e-05	0.02981246	-0.001629674	-2.128754e-06	2.314503e-06	0.01541099	0.007691509
	0.01577277	0.007148661	-2.128754e-06	2.314503e-06	0.03065422	-0.003247935	-2.098536e-05	1.693985e-05
	-0.0002524447	2.262762e-06	0.01541099	0.007691509	-2.098536e-05	1.693985e-05	0.02988868	-0.001511922
2.8e+08	0.03055235	-0.00435277	-5.322e-05	4.93856e-05	0.01623768	0.006566115	-0.0002528507	6.202046e-06
	-5.322e-05	4.93856e-05	0.0298813	-0.002688096	-2.094853e-06	2.300589e-06	0.01587766	0.007166992
	0.01623768	0.006566115	-2.094853e-06	2.300589e-06	0.03069571	-0.004440704	-1.972134e-05	1.863866e-05
	-0.0002528507	6.202046e-06	0.01587766	0.007166992	-1.972134e-05	1.863866e-05	0.02995532	-0.002568072
2.9e+08	0.03049354	-0.0055221	-5.091659e-05	5.122155e-05	0.01664258	0.005944034	-0.0002531442	1.012423e-05
	-5.091659e-05	5.122155e-05	0.02986501	-0.003752735	-2.058411e-06	2.289731e-06	0.01628883	0.006603578
	0.01664258	0.005944034	-2.058411e-06	2.289731e-06	0.03064206	-0.005639611	-1.826672e-05	2.020997e-05
	-0.0002531442	1.012423e-05	0.01628883	0.006603578	-1.826672e-05	2.020997e-05	0.02993654	-0.003630156
3e+08	0.03034228	-0.006689791	-4.843679e-05	5.292649e-05	0.01698415	0.005287874	-0.0002533551	1.400183e-05
	-4.843679e-05	5.292649e-05	0.02976363	-0.004817006	-2.019833e-06	2.281e-06	0.01664126	0.006006286
	0.01698415	0.005287874	-2.019833e-06	2.281e-06	0.03049319	-0.0068371	-1.663768e-05	2.163034e-05
	-0.0002533551	1.400183e-05	0.01664126	0.006006286	-1.663768e-05	2.163034e-05	0.02983242	-0.004691554
3.1e+08	0.03009903	-0.007848572	-4.57981e-05	5.447645e-05	0.01725957	0.004603362	-0.0002535166	1.781506e-05
	-4.57981e-05	5.447645e-05	0.02957768	-0.005874348	-1.979581e-06	2.273616e-06	0.01693215	0.005380402
	0.01725957	0.004603362	-1.979581e-06	2.273616e-06	0.03024959	-0.008025622	-1.485326e-05	2.287858e-05
	-0.0002535166	1.781506e-05	0.01693215	0.005380402	-1.485326e-05	2.287858e-05	0.02964349	-0.005745677
3.2e+08	0.0297648	-0.008991235	-4.302038e-05	5.585015e-05	0.01746652	0.003896455	-0.0002536634	2.155048e-05
	-4.302038e-05	5.585015e-05	0.02930815	-0.006918278	-1.938133e-06	2.266938e-06	0.01715919	0.004731435
	0.01746652	0.003896455	-1.938133e-06	2.266938e-06	0.0299123	-0.009197694	-1.293504e-05	2.393604e-05
	-0.0002536634	2.155048e-05	0.01715919	0.004731435	-1.293504e-05	2.393604e-05	0.0293708	-0.00678601
3.3e+08	0.02934113	-0.01011066	-4.012558e-05	5.702922e-05	0.01760321	0.003173298	-0.0002538315	2.520087e-05
	-4.012558e-05	5.702922e-05	0.0289565	-0.007942412	-1.895984e-06	2.260448e-06	0.01732054	0.004065081
	0.01760321	0.003173298	-1.895984e-06	2.260448e-06	0.02948297	-0.01034593	-1.090676e-05	2.478681e-05
	-0.0002538315	2.520087e-05	0.01732054	0.004065081	-1.090676e-05	2.478681e-05	0.02901581	-0.007806149
3.4e+08	0.02883011	-0.01119986	-3.713759e-05	5.799853e-05	0.01766837	0.002440174	-0.0002540578	2.876698e-05
	-3.713759e-05	5.799853e-05	0.02852465	-0.008940497	-1.853655e-06	2.253761e-06	0.01741487	0.003387181
	0.01766837	0.002440174	-1.853655e-06	2.253761e-06	0.02896374	-0.01146309	-8.79404e-06	2.541818e-05
	-0.0002540578	2.876698e-05	0.01741487	0.003387181	-8.79404e-06	2.541818e-05	0.02858051	-0.008799817
3.5e+08	0.02823434	-0.01225202	-3.408166e-05	5.874616e-05	0.01766132	0.001703461	-0.0002543783	3.225552e-05
	-3.408166e-05	5.874616e-05	0.02801497	-0.009906457	-1.811671e-06	2.24661e-06	0.01744136	0.00270367
	0.01766132	0.001703461	-1.811671e-06	2.24661e-06	0.02835737	-0.01254211	-6.623836e-06	2.58199e-05
	-0.0002543783	3.225552e-05	0.01744136	0.00270367	-6.623836e-06	2.58199e-05	0.02806729	-0.009760922
3.6e+08	0.02755697	-0.01326054	-3.098423e-05	5.926365e-05	0.01758191	0.0009695782	-0.0002548261	3.567806e-05
	-3.098423e-05	5.926365e-05	0.02743028	-0.01083441	-1.768483e-06	2.236499e-06	0.01739969	0.002020544
	0.01758191	0.0009695782	-1.768483e-06	2.236499e-06	0.02766711	-0.01357618	-4.442561e-06	2.622912e-05
	-0.0002548261	3.567806e-05	0.01739969	0.002020544	-4.442561e-06	2.622912e-05	0.02747902	-0.01068357
3.7e+08	0.02680161	-0.0142191	-2.78723e-05	5.954604e-05	0.01743056	0.0002449453	-0.0002554358	3.905626e-05
	-2.78723e-05	5.954604e-05	0.02677382	-0.01171873	-1.726559e-06	2.22497e-06	0.0172901	0.001343803
	0.01743056	0.0002449453	-1.726559e-06	2.22497e-06	0.02689675	-0.01455872	-2.242631e-06	2.644645e-05
	-0.0002554358	3.905626e-05	0.0172901	0.001343803	-2.242631e-06	2.644645e-05	0.026819	-0.01156212
3.8e+08	0.02597237	-0.01512163	-2.477316e-05	5.959182e-05	0.01720826	-0.0004640728	-0.0002562381	4.241645e-05
	-2.477316e-05	5.959182e-05	0.02604923	-0.01255403	-1.686845e-06	2.212552e-06	0.01711331	0.0006794164
	0.01720826	-0.0004640728	-1.686845e-06	2.212552e-06	0.02605057	-0.01548351	-4.769858e-08	2.642366e-05
	-0.0002562381	4.241645e-05	0.01711331	0.0006794164	-4.769858e-08	2.642366e-05	0.0260909	-0.01239119
3.9e+08	0.02507384	-0.01596243	-2.171396e-05	5.940301e-05	0.01691654	-0.001151211	-0.0002572594	4.579037e-05
	-2.171396e-05	5.940301e-05	0.02526057	-0.01333523	-1.64981e-06	2.199433e-06	0.01687058	3.327135e-05
	0.01691654	-0.001151211	-1.64981e-06	2.199433e-06	0.02513332	-0.01634464	2.113295e-06	2.616443e-05
	-0.0002572594	4.579037e-05	0.01687058	3.327134e-05	2.113295e-06	2.616443e-05	0.02529883	-0.01316571
4e+08	0.02411102	-0.01673614	-1.872128e-05	5.898504e-05	0.01655748	-0.001810353	-0.0002585217	4.921413e-05
	-1.872128e-05	5.898504e-05	0.02441223	-0.01405759	-1.615873e-06	2.185894e-06	0.01656369	-0.0005888688
	0.01655748	-0.001810353	-1.615873e-06	2.185894e-06	0.02415024	-0.0171366	4.212145e-06	2.567589e-05
	-0.0002585217	4.921413e-05	0.01656369	-0.0005888688	4.212145e-06	2.567589e-05	0.02444723	-0.01388092
4.1e+08	0.02308932	-0.01743783	-1.582074e-05	5.83467e-05	0.0161337	-0.002435579	-0.0002600422	5.272867e-05
	-1.582074e-05	5.83467e-05	0.02350898	-0.0147167	-1.585397e-06	2.172297e-06	0.01619488	-0.001181409
	0.0161337	-0.002435579	-1.585397e-06	2.172297e-06	0.02310694	-0.0178543	6.221818e-06	2.496866e-05
	-0.0002600422	5.272867e-05	0.01619488	-0.001181409	6.221818e-06	2.496866e-05	0.02354091	-0.01453244
4.2e+08	0.02201454	-0.01806297	-1.30366e-05	5.749993e-05	0.01564833	-0.003021209	-0.0002618325	5.637923e-05
	-1.30366e-05	5.749993e-05	0.02255588	-0.01530854	-1.558678e-06	2.15908e-06	0.01576691	-0.001738966
	0.01564833	-0.003021208	-1.558678e-06	2.15908e-06	0.02200945	-0.0184931	8.116887e-06	2.405662e-05
	-0.0002618325	5.637923e-05	0.01576691	-0.001738966	8.116887e-06	2.405662e-05	0.02258498	-0.01511627
4.3e+08	0.02089281	-0.01860752	-1.039137e-05	5.645965e-05	0.01510497	-0.003561849	-0.0002638982	6.021383e-05
	-1.039137e-05	5.645965e-05	0.02155828	-0.01582949	-1.535935e-06	2.146745e-06	0.01528299	-0.002256405
	0.01510497	-0.003561849	-1.535935e-06	2.146745e-06	0.02086414	-0.01904886	9.873907e-06	2.295669e-05
	-0.0002638982	6.021383e-05	0.01528299	-0.002256405	9.873907e-06	2.295669e-05	0.02158484	-0.0156288
4.4e+08	0.01973057	-0.01906792	-7.905468e-06	5.524344e-05	0.01450771	-0.004052433	-0.0002662384	6.428258e-05
	-7.905468e-06	5.524344e-05	0.02052181	-0.01627634	-1.517302e-06	2.135841e-06	0.01474675	-0.002728887
	0.01450771	-0.004052433	-1.517302e-06	2.135841e-06	0.0196777	-0.01951793	1.14718e-05	2.168855e-05
	-0.0002662384	6.428258e-05	0.01474675	-0.002728887	1.14718e-05	2.168855e-05	0.02054614	-0.01606685
4.5e+08	0.01853454	-0.01944112	-5.59694e-06	5.387138e-05	0.01386108	-0.004488262	-0.0002688461	6.863505e-05
	-5.59694e-06	5.387138e-05	0.01945229	-0.01664635	-1.502823e-06	2.126958e-06	0.01416225	-0.003151898
	0.01386108	-0.004488262	-1.502823e-06	2.126958e-06	0.01845709	-0.01989721	1.289215e-05	2.027439e-05
	-0.0002688461	6.863505e-05	0.01416225	-0.003151898	1.289215e-05	2.027439e-05	0.01947476	-0.0164277
4.6e+08	0.01731165	-0.01972461	-3.481226e-06	5.236629e-05	0.01316998	-0.004865043	-0.0002717232	7.327511e-05
	-3.481226e-06	5.236629e-05	0.01835577	-0.01693722	-1.492441e-06	2.120709e-06	0.01353394	-0.00352129
	0.01316998	-0.004865043	-1.492441e-06	2.120709e-06	0.01720951	-0.02018416	1.411948e-05	1.873914e-05
	-0.0002717232	7.327511e-05	0.01353394	-0.00352129	1.411948e-05	1.873914e-05	0.01837678	-0.01670909
4.7e+08	0.01606902	-0.01991641	-1.563388e-06	5.06628e-05	0.0124397	-0.00517892	-0.0002724328	8.457503e-05
	-1.563388e-06	5.06628e-05	0.01723844	-0.01714711	-1.487e-06	2.118958e-06	0.01286661	-0.003833308
	0.0124397	-0.00517892	-1.487e-06	2.118958e-06	0.01594235	-0.02037682	1.514573e-05	1.701744e-05
	-0.0002724328	8.457503e-05	0.01286661	-0.003833308	1.514573e-05	1.701744e-05	0.01725839	-0.01690918
