!$
! Info: Touchstone file created by Circ.  Input file=Tx_4in_Rx_100ohms_TxVia_35mils_RxVia_45mils.circ
!$
# Hz S RI R 50
0	0.004279986	7.046318e-26	7.497227e-13	1.554682e-28	4.225704e-05	7.976878e-24	1.830664e-12	8.878551e-29
	7.497211e-13	1.554682e-28	0.00427656	7.882054e-26	3.791401e-12	2.52969e-28	4.089016e-05	9.600472e-24
	4.27815e-05	8.080719e-24	3.791403e-12	2.529688e-28	0.004288265	6.877413e-26	1.75485e-12	1.657068e-28
	1.830664e-12	8.878558e-29	3.904319e-05	9.647925e-24	1.754851e-12	1.65707e-28	0.004289758	7.38311e-26
1e+07	0.005960627	0.003123508	6.594564e-12	7.283845e-12	9.326718e-05	0.00088884	8.970572e-12	1.377891e-11
	6.594564e-12	7.283845e-12	0.00614494	0.003147775	8.801355e-12	9.633166e-12	0.0002348368	0.0009140088
	9.329094e-05	0.0008888413	8.801355e-12	9.633166e-12	0.005744277	0.003237122	7.184326e-12	8.291746e-12
	8.970572e-12	1.377891e-11	0.000234777	0.0009140188	7.184326e-12	8.291746e-12	0.006097261	0.003159334
2e+07	0.007605101	0.004960238	8.627845e-12	1.14901e-11	0.0002070204	0.001784472	1.143342e-11	2.298429e-11
	8.627847e-12	1.14901e-11	0.007761421	0.004933579	1.408001e-11	1.266713e-11	0.0002866969	0.001883057
	0.0002070284	0.001784457	1.408e-11	1.266713e-11	0.007543688	0.00523358	1.128101e-11	1.094756e-11
	1.143342e-11	2.298429e-11	0.0002866886	0.001883092	1.128101e-11	1.094756e-11	0.00772981	0.004978417
3e+07	0.009016028	0.006168886	1.010377e-11	1.399004e-11	0.000396104	0.002650665	1.355898e-11	3.026087e-11
	1.010377e-11	1.399004e-11	0.009143725	0.006127755	1.870864e-11	1.354883e-11	0.0004260448	0.002772181
	0.000396104	0.002650662	1.870864e-11	1.354883e-11	0.009078124	0.006488042	1.362776e-11	1.178117e-11
	1.355898e-11	3.026087e-11	0.0004260447	0.002772186	1.362776e-11	1.178117e-11	0.009126023	0.006189729
4e+07	0.01033605	0.007097331	1.036898e-11	1.561981e-11	0.0006577601	0.003491101	1.402598e-11	3.646765e-11
	1.036897e-11	1.561981e-11	0.01043228	0.007051013	2.180084e-11	1.238205e-11	0.0006543653	0.003622925
	0.000657762	0.003491102	2.180084e-11	1.238205e-11	0.01050464	0.007426496	1.381976e-11	1.110345e-11
	1.402598e-11	3.646765e-11	0.0006543599	0.003622923	1.381976e-11	1.110345e-11	0.01042763	0.007125436
5e+07	0.01161155	0.007826602	9.188014e-12	1.675115e-11	0.0009887283	0.004301158	1.261537e-11	4.222203e-11
	9.188013e-12	1.675115e-11	0.01167282	0.007781282	2.313714e-11	9.902906e-12	0.001024972	0.004422067
	0.0009887296	0.004301159	2.313714e-11	9.902906e-12	0.01187404	0.008143305	1.15508e-11	9.757723e-12
	1.261537e-11	4.222203e-11	0.001024968	0.004422066	1.15508e-11	9.757723e-12	0.0116806	0.007865187
6e+07	0.01286166	0.008393643	6.369787e-12	1.780414e-11	0.00138553	0.005075763	9.268827e-12	4.807801e-11
	6.369789e-12	1.780414e-11	0.01288482	0.008355123	2.236675e-11	6.583229e-12	0.001451906	0.005179188
	0.001385527	0.005075763	2.236675e-11	6.583229e-12	0.01320712	0.008680787	6.663149e-12	8.424465e-12
	9.268827e-12	4.807801e-11	0.001451908	0.005179187	6.66315e-12	8.424465e-12	0.01290447	0.008446184
7e+07	0.01409444	0.008819171	1.687841e-12	1.913574e-11	0.001852153	0.005807508	3.941974e-12	5.450229e-11
	1.687848e-12	1.913574e-11	0.01407665	0.008793077	1.896247e-11	2.58424e-12	0.001932277	0.005890997
	0.001852147	0.005807509	1.896247e-11	2.58424e-12	0.0145124	0.009062283	-9.913671e-13	7.693552e-12
	3.941974e-12	5.450229e-11	0.001932284	0.005890994	-9.913672e-13	7.69355e-12	0.01410753	0.008889256
8e+07	0.01531261	0.009116802	-5.030819e-12	2.121884e-11	0.002376745	0.006493459	-3.394764e-12	6.199859e-11
	-5.030808e-12	2.121884e-11	0.01525131	0.009108823	1.257761e-11	-1.453705e-12	0.002462463	0.006553617
	0.002376738	0.006493462	1.257761e-11	-1.453705e-12	0.01579225	0.009302421	-1.159794e-11	8.124788e-12
	-3.394764e-12	6.199859e-11	0.002462473	0.006553611	-1.159794e-11	8.124785e-12	0.01529263	0.009208233
9e+07	0.01651636	0.009297158	-1.386713e-11	2.482592e-11	0.002954607	0.00712965	-1.271294e-11	7.130315e-11
	-1.386712e-11	2.482593e-11	0.01640937	0.009313395	2.89584e-12	-4.460544e-12	0.003038075	0.00716268
	0.002954602	0.007129653	2.89584e-12	-4.460544e-12	0.01704545	0.009410816	-2.520668e-11	1.079528e-11
	-1.271294e-11	7.130315e-11	0.003038082	0.007162675	-2.520668e-11	1.079528e-11	0.01646012	0.009414173
1e+08	0.01770788	0.009375512	-2.544965e-11	3.15437e-11	0.003582394	0.007714343	-2.453436e-11	8.413453e-11
	-2.544965e-11	3.15437e-11	0.01755391	0.009423417	-1.186058e-11	-4.356771e-12	0.00365257	0.007710693
	0.003582394	0.007714343	-1.186058e-11	-4.356771e-12	0.01826667	0.009390441	-4.279385e-11	1.812652e-11
	-2.453436e-11	8.413453e-11	0.00365257	0.007710693	-4.279385e-11	1.812652e-11	0.01761245	0.009522937
1.1e+08	0.01891044	0.00931807	-3.330756e-11	4.2689e-11	0.004261887	0.00823428	-3.280496e-11	1.018151e-10
	-3.330756e-11	4.2689e-11	0.01871304	0.00940276	-2.232952e-11	4.002618e-12	0.004288692	0.008209798
	0.004261887	0.00823428	-2.232952e-11	4.002618e-12	0.0194397	0.009260623	-5.550507e-11	3.278165e-11
	-3.280496e-11	1.018151e-10	0.004288692	0.008209798	-5.550507e-11	3.278165e-11	0.01877588	0.00950277
1.2e+08	0.02007319	0.009140868	-3.917059e-11	5.269886e-11	0.004975711	0.008686513	-3.788435e-11	1.161162e-10
	-3.917059e-11	5.269886e-11	0.01983076	0.009265829	-2.700458e-11	8.896822e-12	0.004961971	0.008656929
	0.004975711	0.008686513	-2.700458e-11	8.896822e-12	0.02058065	0.009035429	-6.457262e-11	4.518533e-11
	-3.788435e-11	1.161162e-10	0.004961971	0.008656929	-6.457262e-11	4.518533e-11	0.01989791	0.009366879
1.3e+08	0.02119648	0.00885845	-4.264491e-11	5.874179e-11	0.005719262	0.009071162	-4.145433e-11	1.280493e-10
	-4.264491e-11	5.874179e-11	0.02090823	0.009028746	-2.705044e-11	9.244275e-12	0.005665502	0.009044691
	0.005719262	0.009071162	-2.705044e-11	9.244275e-12	0.02168406	0.008713827	-6.956795e-11	5.177832e-11
	-4.145433e-11	1.280493e-10	0.005665502	0.009044691	-6.956795e-11	5.177832e-11	0.0209792	0.009130652
1.4e+08	0.02227701	0.00847737	-4.639412e-11	6.551705e-11	0.006486802	0.009386556	-4.524438e-11	1.408774e-10
	-4.639412e-11	6.551705e-11	0.02194283	0.008698626	-2.771282e-11	9.999733e-12	0.006393454	0.009369798
	0.006486802	0.009386556	-2.771282e-11	9.999733e-12	0.02274554	0.008299011	-7.496043e-11	5.943002e-11
	-4.524438e-11	1.408774e-10	0.006393454	0.009369798	-7.496043e-11	5.943002e-11	0.022017	0.008801242
1.5e+08	0.02331061	0.008002969	-5.029928e-11	7.297289e-11	0.007272281	0.009631217	-4.910948e-11	1.545514e-10
	-5.029928e-11	7.297289e-11	0.02293109	0.008281107	-2.886769e-11	1.10917e-11	0.007139987	0.009629998
	0.007272281	0.009631217	-2.886769e-11	1.10917e-11	0.02376046	0.007794747	-8.056967e-11	6.805633e-11
	-4.910948e-11	1.545514e-10	0.007139988	0.009629998	-8.056967e-11	6.805633e-11	0.02300788	0.008384378
1.6e+08	0.02429268	0.007440241	-5.427113e-11	8.108593e-11	0.008069476	0.009804081	-5.293482e-11	1.690454e-10
	-5.427113e-11	8.108593e-11	0.02386918	0.007781315	-3.045109e-11	1.249343e-11	0.007899188	0.009823752
	0.008069476	0.009804081	-3.045109e-11	1.249343e-11	0.02472402	0.007205117	-8.626508e-11	7.761648e-11
	-5.293482e-11	1.690454e-10	0.007899188	0.009823752	-8.626508e-11	7.761648e-11	0.02394804	0.007885253
1.7e+08	0.02521846	0.006794169	-5.823295e-11	8.984072e-11	0.008872065	0.009904572	-5.661993e-11	1.84339e-10
	-5.823295e-11	8.984072e-11	0.02475307	0.00720423	-3.242377e-11	1.419759e-11	0.00866508	0.009950133
	0.008872065	0.009904572	-3.242377e-11	1.419759e-11	0.02563134	0.006534504	-9.193684e-11	8.808204e-11
	-5.661993e-11	1.84339e-10	0.00866508	0.009950133	-9.193684e-11	8.808204e-11	0.02483353	0.007308888
1.8e+08	0.02608319	0.006069887	-6.211475e-11	9.922376e-11	0.00967368	0.009932636	-6.007284e-11	2.004115e-10
	-6.211475e-11	9.922376e-11	0.02557871	0.006554867	-3.47585e-11	1.620808e-11	0.009431663	0.01000879
	0.00967368	0.009932636	-3.47585e-11	1.620808e-11	0.02647753	0.005787625	-9.748641e-11	9.942822e-11
	-6.007284e-11	2.004115e-10	0.009431663	0.01000879	-9.748641e-11	9.942822e-11	0.02566033	0.006660322
1.9e+08	0.02688218	0.005272755	-6.583758e-11	1.092006e-10	0.01046797	0.00988875	-6.320679e-11	2.172339e-10
	-6.583758e-11	1.092006e-10	0.02634215	0.005838381	-3.743463e-11	1.85353e-11	0.01019295	0.009999911
	0.01046797	0.00988875	-3.743463e-11	1.85353e-11	0.02725784	0.004969543	-1.028225e-10	1.116294e-10
	-6.320679e-11	2.172339e-10	0.01019295	0.009999911	-1.028225e-10	1.116294e-10	0.02642453	0.005944719
2e+08	0.02761095	0.004408395	-6.934378e-11	1.197585e-10	0.01124862	0.009773928	-6.594025e-11	2.347824e-10
	-6.934378e-11	1.197585e-10	0.02703955	0.005060098	-4.043295e-11	2.119459e-11	0.010943	0.009924239
	0.01124862	0.009773928	-4.043295e-11	2.119459e-11	0.02796771	0.004085662	-1.078587e-10	1.246571e-10
	-6.594025e-11	2.347824e-10	0.010943	0.009924239	-1.078587e-10	1.246571e-10	0.02712234	0.005167417
2.1e+08	0.02826526	0.003482701	-7.258479e-11	1.308936e-10	0.01200946	0.009589718	-6.819644e-11	2.530281e-10
	-7.258479e-11	1.308936e-10	0.02766734	0.00422555	-4.373401e-11	2.420418e-11	0.01167598	0.009783027
	0.01200946	0.009589718	-4.373401e-11	2.420418e-11	0.02860284	0.003141715	-1.125131e-10	1.384785e-10
	-6.819644e-11	2.530281e-10	0.01167598	0.009783027	-1.125131e-10	1.384785e-10	0.02775019	0.004333946
2.2e+08	0.02884122	0.00250184	-7.550282e-11	1.425826e-10	0.01274445	0.009338193	-6.99013e-11	2.719337e-10
	-7.550282e-11	1.425826e-10	0.02822222	0.003340469	-4.731859e-11	2.758413e-11	0.0123862	0.009578039
	0.01274445	0.009338193	-4.731859e-11	2.758413e-11	0.02915929	0.002143763	-1.167081e-10	1.530562e-10
	-6.99013e-11	2.719337e-10	0.0123862	0.009578039	-1.167081e-10	1.530562e-10	0.02830478	0.003450048
2.3e+08	0.0293353	0.001472243	-7.804251e-11	1.547984e-10	0.01344775	0.009021936	-7.098465e-11	2.914568e-10
	-7.804251e-11	1.547984e-10	0.02870122	0.00241079	-5.116617e-11	3.13559e-11	0.01306812	0.00931153
	0.01344775	0.009021936	-5.116617e-11	3.13559e-11	0.02963346	0.001098164	-1.2037e-10	1.683482e-10
	-7.098465e-11	2.914568e-10	0.01306812	0.00931153	-1.2037e-10	1.683482e-10	0.02878317	0.002521674
2.4e+08	0.02974441	0.0004005653	-8.015143e-11	1.675097e-10	0.01411376	0.008644028	-7.138077e-11	3.115496e-10
	-8.015143e-11	1.675097e-10	0.02910173	0.001442611	-5.525461e-11	3.554106e-11	0.01371645	0.008986231
	0.01411376	0.008644028	-5.525461e-11	3.554106e-11	0.0300222	1.152957e-05	-1.234294e-10	1.843071e-10
	-7.138077e-11	3.115496e-10	0.01371645	0.008986231	-1.234294e-10	1.843071e-10	0.02918273	0.00155494
2.5e+08	0.03006589	-0.0007063217	-8.178012e-11	1.806814e-10	0.01473719	0.008208018	-7.102834e-11	3.321594e-10
	-8.178012e-11	1.806814e-10	0.02942156	0.0004421998	-5.955979e-11	4.016159e-11	0.01432615	0.008605322
	0.01473719	0.008208018	-5.955979e-11	4.016159e-11	0.03032282	-0.001109285	-1.258217e-10	2.008807e-10
	-7.102834e-11	3.321594e-10	0.01432615	0.008605322	-1.258217e-10	2.008807e-10	0.02950129	0.000556138
2.6e+08	0.03029756	-0.001841386	-8.288248e-11	1.942745e-10	0.01531304	0.007717906	-6.987096e-11	3.532289e-10
	-8.288248e-11	1.942745e-10	0.02965892	-0.0005840563	-6.405553e-11	4.523897e-11	0.01489247	0.008172412
	0.01531304	0.007717906	-6.405553e-11	4.523897e-11	0.03053311	-0.002257237	-1.274869e-10	2.180123e-10
	-6.987096e-11	3.532289e-10	0.01489247	0.008172412	-1.274869e-10	2.180123e-10	0.02973705	-0.0004683205
2.7e+08	0.03043774	-0.002997446	-8.341581e-11	2.082469e-10	0.0158367	0.00717811	-6.785718e-11	3.746961e-10
	-8.341581e-11	2.082469e-10	0.02981246	-0.001629674	-6.87133e-11	5.079419e-11	0.01541099	0.007691509
	0.0158367	0.00717811	-6.87133e-11	5.079419e-11	0.03065137	-0.003425125	-1.283701e-10	2.356407e-10
	-6.785718e-11	3.746961e-10	0.01541099	0.007691509	-1.283701e-10	2.356407e-10	0.02988868	-0.001511922
2.8e+08	0.03048528	-0.004167215	-8.334139e-11	2.225529e-10	0.01630396	0.006593436	-6.494119e-11	3.964954e-10
	-8.334139e-11	2.225529e-10	0.0298813	-0.002688096	-7.350261e-11	5.684696e-11	0.01587766	0.007166992
	0.01630396	0.006593436	-7.350261e-11	5.684696e-11	0.03067643	-0.004605625	-1.28422e-10	2.537006e-10
	-6.494119e-11	3.964954e-10	0.01587766	0.007166992	-1.28422e-10	2.537006e-10	0.02995532	-0.002568072
2.9e+08	0.03043957	-0.005343347	-8.26244e-11	2.37144e-10	0.01671101	0.00596904	-6.108275e-11	4.185572e-10
	-8.26244e-11	2.37144e-10	0.02986501	-0.003752735	-7.839071e-11	6.341577e-11	0.01628883	0.006603578
	0.01671101	0.00596904	-7.839071e-11	6.341577e-11	0.03060767	-0.005791347	-1.27599e-10	2.721232e-10
	-6.108275e-11	4.185572e-10	0.01628883	0.006603578	-1.27599e-10	2.721232e-10	0.02993654	-0.003630156
3e+08	0.03030051	-0.006518475	-8.123401e-11	2.519691e-10	0.01705454	0.005310393	-5.62473e-11	4.40809e-10
	-8.123401e-11	2.519691e-10	0.02976363	-0.004817006	-8.334253e-11	7.051765e-11	0.01664126	0.006006286
	0.01705454	0.005310393	-8.334253e-11	7.051765e-11	0.03044503	-0.006974864	-1.258633e-10	2.908363e-10
	-5.62473e-11	4.40809e-10	0.01664126	0.006006286	-1.258633e-10	2.908363e-10	0.02983242	-0.004691554
3.1e+08	0.03006857	-0.007685235	-7.914394e-11	2.669746e-10	0.0173317	0.004623242	-5.040659e-11	4.631755e-10
	-7.914394e-11	2.669746e-10	0.02957768	-0.005874348	-8.832122e-11	7.816761e-11	0.01693215	0.005380402
	0.0173317	0.004623242	-8.832122e-11	7.816761e-11	0.03018899	-0.008148752	-1.231833e-10	3.09765e-10
	-5.040659e-11	4.631755e-10	0.01693215	0.005380402	-1.231833e-10	3.09765e-10	0.02964349	-0.005745677
3.2e+08	0.02974477	-0.00883633	-7.633227e-11	2.821052e-10	0.01754016	0.003913562	-4.353837e-11	4.855789e-10
	-7.633227e-11	2.821052e-10	0.02930815	-0.006918278	-9.32877e-11	8.637876e-11	0.01715919	0.004731435
	0.01754016	0.003913562	-9.32877e-11	8.637876e-11	0.0298406	-0.009305652	-1.195338e-10	3.288323e-10
	-4.353837e-11	4.855789e-10	0.01715919	0.004731435	-1.195338e-10	3.288323e-10	0.0293708	-0.00678601
3.3e+08	0.02933067	-0.009964562	-7.278154e-11	2.973035e-10	0.01767812	0.003187516	-3.562664e-11	5.079396e-10
	-7.278154e-11	2.973035e-10	0.0289565	-0.007942412	-9.820081e-11	9.516197e-11	0.01732054	0.004065081
	0.01767812	0.003187516	-9.820081e-11	9.516197e-11	0.02940148	-0.0104383	-1.148958e-10	3.479591e-10
	-3.562664e-11	5.079396e-10	0.01732054	0.004065081	-1.148958e-10	3.479591e-10	0.02901581	-0.007806149
3.4e+08	0.02882838	-0.01106286	-6.847926e-11	3.125112e-10	0.01774431	0.002451409	-2.666208e-11	5.301769e-10
	-6.847926e-11	3.125112e-10	0.02852465	-0.008940497	-1.030178e-10	1.045255e-10	0.01741487	0.003387181
	0.01774431	0.002451409	-1.030178e-10	1.045255e-10	0.02887378	-0.01153955	-1.092571e-10	3.670654e-10
	-2.666208e-11	5.301769e-10	0.01741487	0.003387181	-1.092571e-10	3.670654e-10	0.02858051	-0.008799817
3.5e+08	0.02824051	-0.01212435	-6.341751e-11	3.276688e-10	0.01773803	0.001711638	-1.664176e-11	5.522086e-10
	-6.341751e-11	3.276688e-10	0.02801497	-0.009906457	-1.076941e-10	1.144751e-10	0.01744136	0.00270367
	0.01773803	0.001711638	-1.076941e-10	1.144751e-10	0.02826022	-0.01260248	-1.026117e-10	3.860701e-10
	-1.664176e-11	5.522086e-10	0.01744136	0.00270367	-1.026117e-10	3.860701e-10	0.02806729	-0.009760922
3.6e+08	0.02757024	-0.01314236	-5.759771e-11	3.427193e-10	0.01765914	0.0009746448	-5.570623e-12	5.739559e-10
	-5.759771e-11	3.427193e-10	0.02743028	-0.01083441	-1.121834e-10	1.250133e-10	0.01739969	0.002020544
	0.01765914	0.0009746448	-1.121834e-10	1.250133e-10	0.02756403	-0.01362036	-9.496047e-11	4.048923e-10
	-5.570623e-12	5.739559e-10	0.01739969	0.002020544	-9.496047e-11	4.048923e-10	0.02747902	-0.01068357
3.7e+08	0.02682122	-0.0141105	-5.101713e-11	3.576005e-10	0.01750805	0.0002468704	6.542589e-12	5.953337e-10
	-5.101713e-11	3.576005e-10	0.02677382	-0.01171873	-1.164381e-10	1.361399e-10	0.0172901	0.001343803
	0.01750805	0.0002468704	-1.164381e-10	1.361399e-10	0.02678896	-0.01458672	-8.631058e-11	4.234509e-10
	6.542589e-12	5.953337e-10	0.0172901	0.001343803	-8.631058e-11	4.234509e-10	0.026819	-0.01156212
3.8e+08	0.02599758	-0.01502267	-4.368184e-11	3.722525e-10	0.01728574	-0.0004652984	1.968106e-11	6.162597e-10
	-4.368184e-11	3.722525e-10	0.02604923	-0.01255403	-1.204091e-10	1.478508e-10	0.01711331	0.0006794164
	0.01728574	-0.0004652984	-1.204091e-10	1.478508e-10	0.02593925	-0.01549542	-7.667565e-11	4.416658e-10
	1.968106e-11	6.162597e-10	0.01711331	0.0006794164	-7.667565e-11	4.416658e-10	0.0260909	-0.01239119
3.9e+08	0.02510395	-0.01587309	-3.560298e-11	3.86616e-10	0.01699375	-0.001155574	3.382125e-11	6.366531e-10
	-3.560298e-11	3.86616e-10	0.02526057	-0.01333523	-1.240462e-10	1.601388e-10	0.01687058	3.327135e-05
	0.01699375	-0.001155574	-1.240462e-10	1.601388e-10	0.02501962	-0.01634066	-6.607555e-11	4.59458e-10
	3.382125e-11	6.366531e-10	0.01687058	3.327134e-05	-6.607555e-11	4.59458e-10	0.02529883	-0.01316571
4e+08	0.02414534	-0.01665637	-2.679619e-11	4.006327e-10	0.01663416	-0.00181782	4.893314e-11	6.564345e-10
	-2.679619e-11	4.006327e-10	0.02441223	-0.01405759	-1.272982e-10	1.729927e-10	0.01656369	-0.0005888688
	0.01663416	-0.00181782	-1.272982e-10	1.729927e-10	0.02403523	-0.017117	-5.453627e-11	4.767501e-10
	4.893314e-11	6.564345e-10	0.01656369	-0.0005888688	-5.453627e-11	4.767501e-10	0.02444723	-0.01388092
4.1e+08	0.02312723	-0.01736753	-1.728157e-11	4.142456e-10	0.0162096	-0.002446093	6.498024e-11	6.755266e-10
	-1.728157e-11	4.142456e-10	0.02350898	-0.0147167	-1.301132e-10	1.863969e-10	0.01619488	-0.001181409
	0.0162096	-0.002446093	-1.301132e-10	1.863969e-10	0.02299166	-0.01781944	-4.208979e-11	4.934669e-10
	6.498024e-11	6.755266e-10	0.01619488	-0.001181409	-4.208979e-11	4.934669e-10	0.02354091	-0.01453244
4.2e+08	0.02205543	-0.01800201	-7.083488e-12	4.273993e-10	0.01572318	-0.003034692	8.19198e-11	6.938544e-10
	-7.083488e-12	4.273993e-10	0.02255588	-0.01530854	-1.324389e-10	2.00332e-10	0.01576691	-0.001738966
	0.01572318	-0.003034692	-1.324389e-10	2.00332e-10	0.02189487	-0.01844341	-2.877382e-11	5.095356e-10
	8.19198e-11	6.938544e-10	0.01576691	-0.001738966	-2.877382e-11	5.095356e-10	0.02258498	-0.01511627
4.3e+08	0.02093613	-0.01855574	3.769625e-12	4.400401e-10	0.01517854	-0.003578204	9.970296e-11	7.11346e-10
	3.769625e-12	4.400401e-10	0.02155828	-0.01582949	-1.342228e-10	2.147737e-10	0.01528299	-0.002256405
	0.01517854	-0.003578204	-1.342228e-10	2.147737e-10	0.02075117	-0.01898482	-1.463158e-11	5.248863e-10
	9.970296e-11	7.11346e-10	0.01528299	-0.002256405	-1.463158e-11	5.248863e-10	0.02158484	-0.0156288
4.4e+08	0.01977579	-0.01902512	1.524544e-11	4.521165e-10	0.01457976	-0.004071542	1.182749e-10	7.279326e-10
	1.524544e-11	4.521165e-10	0.02052181	-0.01627634	-1.354124e-10	2.296929e-10	0.01474675	-0.002728887
	0.01457976	-0.004071542	-1.354124e-10	2.296929e-10	0.01956717	-0.01944009	2.88432e-13	5.394522e-10
	1.182749e-10	7.279326e-10	0.01474675	-0.002728887	2.88432e-13	5.394522e-10	0.02054614	-0.01606685
4.5e+08	0.01858117	-0.01940709	2.730787e-11	4.63579e-10	0.01393138	-0.004509988	1.375752e-10	7.435493e-10
	2.730787e-11	4.63579e-10	0.01945229	-0.01664635	-1.359561e-10	2.450555e-10	0.01416225	-0.003151898
	0.01393138	-0.004509988	-1.359561e-10	2.450555e-10	0.01834977	-0.01980619	1.59327e-11	5.531699e-10
	1.375752e-10	7.435493e-10	0.01416225	-0.003151898	1.59327e-11	5.531699e-10	0.01947476	-0.0164277
4.6e+08	0.01735924	-0.01969911	3.99175e-11	4.743807e-10	0.01323832	-0.004889229	1.575378e-10	7.581354e-10
	3.99175e-11	4.743807e-10	0.01835577	-0.01693722	-1.358104e-10	2.608427e-10	0.01353394	-0.00352129
	0.01323832	-0.004889229	-1.358104e-10	2.608427e-10	0.0171061	-0.02008059	3.225326e-11	5.659985e-10
	1.575378e-10	7.581354e-10	0.01353394	-0.00352129	3.225326e-11	5.659985e-10	0.01837678	-0.01670909
4.7e+08	0.01611716	-0.0198992	5.303189e-11	4.844767e-10	0.0125059	-0.005205395	1.780916e-10	7.716335e-10
	5.303189e-11	4.844767e-10	0.01723844	-0.01714711	-1.349384e-10	2.770767e-10	0.01286661	-0.003833308
	0.0125059	-0.005205395	-1.349384e-10	2.770767e-10	0.01584344	-0.02026137	4.923454e-11	5.779404e-10
	1.780916e-10	7.716335e-10	0.01286661	-0.003833308	4.923454e-11	5.779404e-10	0.01725839	-0.01690918
4.8e+08	0.01486225	-0.02000596	6.660408e-11	4.938264e-10	0.01173973	-0.005455083	1.991602e-10	7.839944e-10
	6.660408e-11	4.938264e-10	0.01610659	-0.01727468	-1.33254e-10	2.936143e-10	0.01216536	-0.004084626
