!$
! Info: Touchstone file created by Circ.  Input file=Tx_4in_Rx_85ohms_TxVia_35mils_RxVia_45mils.circ
!$
# Hz S RI R 50
0	0.003345439	6.889661e-26	0.9965137	-6.581131e-26	4.055627e-05	6.294972e-24	-3.863521e-05	2.063911e-21
	0.9965137	-6.741623e-26	0.003344349	7.901023e-26	-3.90075e-05	2.109531e-21	4.097861e-05	7.479943e-24
	3.872112e-05	6.464532e-24	-3.91356e-05	2.125257e-21	0.003358131	6.569004e-26	0.9964978	-6.198038e-26
	-3.901608e-05	2.110593e-21	3.913183e-05	7.516984e-24	0.9964978	-6.188949e-26	0.003357562	7.400749e-26
1e+07	0.004551173	-0.003400435	0.9941065	-0.04513383	0.0001076783	0.0008963091	-6.271034e-05	-4.401365e-05
	0.9941065	-0.04513383	0.004546669	-0.003400478	-6.271578e-05	-4.400323e-05	0.000106149	0.0008966447
	0.000107619	0.0008963131	-6.277423e-05	-4.399352e-05	0.004553407	-0.003390206	0.9941004	-0.04522767
	-6.276879e-05	-4.400395e-05	0.0001060892	0.000896655	0.9941004	-0.04522767	0.004548328	-0.003390152
2e+07	0.005301378	-0.007919367	0.9896717	-0.0888671	0.00024421	0.001760606	-7.072905e-05	-6.823333e-05
	0.9896717	-0.0888671	0.005283524	-0.007918455	-7.074222e-05	-6.823337e-05	0.0002382224	0.001761796
	0.0002441982	0.001760644	-7.075641e-05	-6.819194e-05	0.005308259	-0.007895324	0.9896493	-0.08905759
	-7.074529e-05	-6.819102e-05	0.0002382146	0.00176183	0.9896493	-0.08905759	0.005288169	-0.007894042
3e+07	0.005286393	-0.01295963	0.983682	-0.131764	0.0004516568	0.002602161	-6.839531e-05	-8.982393e-05
	0.983682	-0.131764	0.005246711	-0.01295521	-6.844234e-05	-8.980971e-05	0.0004384564	0.002605077
	0.0004516594	0.002602167	-6.844084e-05	-8.980313e-05	0.005297835	-0.01292551	0.983636	-0.1320467
	-6.83939e-05	-8.981696e-05	0.0004384564	0.002605082	0.983636	-0.1320467	0.005253267	-0.01292007
4e+07	0.004658521	-0.01812661	0.9760039	-0.1741175	0.0007293532	0.003416856	-5.763053e-05	-0.0001128517
	0.9760039	-0.1741175	0.004588722	-0.01811545	-5.770555e-05	-0.0001128162	0.0007063163	0.003422698
	0.0007293483	0.003416852	-5.771175e-05	-0.0001128212	0.004674657	-0.01808381	0.9759267	-0.1744895
	-5.7637e-05	-0.0001128573	0.0007063109	0.003422696	0.9759267	-0.1744895	0.004596371	-0.01807059
5e+07	0.003478813	-0.02329899	0.9666056	-0.2159359	0.001074648	0.004198939	-3.943089e-05	-0.0001401601
	0.9666056	-0.2159359	0.003370944	-0.02327651	-3.954092e-05	-0.000140101	0.001039327	0.004209254
	0.001074644	0.004198938	-3.954605e-05	-0.0001401028	0.003499727	-0.02324863	0.9664896	-0.216394
	-3.943635e-05	-0.0001401622	0.001039323	0.004209253	0.9664896	-0.216394	0.00337884	-0.02322246
6e+07	0.00178463	-0.02840062	0.955486	-0.2571825	0.001484079	0.004942786	-1.518236e-05	-0.000174046
	0.955486	-0.2571825	0.001631551	-0.02836118	-1.533528e-05	-0.0001739524	0.001434255	0.004959424
	0.001484083	0.004942786	-1.53306e-05	-0.0001739521	0.001810282	-0.0283437	0.9553241	-0.2577235
	-1.517719e-05	-0.0001740456	0.001434257	0.004959423	0.9553241	-0.2577235	0.001638849	-0.02829824
7e+07	-0.0003945878	-0.03337305	0.9426578	-0.2978044	0.001953688	0.005643038	1.355271e-05	-0.0002163191
	0.9426578	-0.2978044	-0.000599272	-0.03331028	1.335481e-05	-0.0002161759	0.001887379	0.005668112
	0.0019537	0.005643035	1.336962e-05	-0.0002161784	-0.0003643559	-0.03331044	0.942443	-0.2984244
	1.356897e-05	-0.0002163216	0.001887387	0.005668108	0.942443	-0.2984244	-0.0005934389	-0.03323856
8e+07	-0.003031889	-0.03816715	0.9281422	-0.3377407	0.002479053	0.006294684	4.508537e-05	-0.0002685405
	0.9281422	-0.3377407	-0.003293915	-0.03807395	4.484605e-05	-0.0002683326	0.002394528	0.006330547
	0.002479068	0.006294677	4.486489e-05	-0.0002683397	-0.002997336	-0.03809965	0.9278677	-0.3384357
	4.510603e-05	-0.0002685481	0.002394537	0.00633054	0.9278677	-0.3384357	-0.003290455	-0.03799339
9e+07	-0.006100531	-0.04273992	0.9119671	-0.3769272	0.003055339	0.006893247	7.749509e-05	-0.0003322178
	0.9119671	-0.3769272	-0.006424932	-0.04260844	7.722231e-05	-0.0003319313	0.002951134	0.006942479
	0.003055349	0.006893239	7.723626e-05	-0.0003319393	-0.006062006	-0.04266828	0.9116263	-0.3776928
	7.751036e-05	-0.0003322266	0.002951141	0.006942474	0.9116263	-0.3776928	-0.006424778	-0.04251884
1e+08	-0.009573478	-0.04705442	0.8941666	-0.415297	0.003677806	0.007435945	0.0001080789	-0.0004099014
	0.8941666	-0.415297	-0.00996446	-0.04687602	0.0001077842	-0.0004095238	0.003552759	0.007501336
	0.003677806	0.007435945	0.0001077842	-0.0004095238	-0.009531475	-0.04697943	0.893753	-0.416128
	0.0001080789	-0.0004099013	0.003552759	0.007501336	0.893753	-0.416128	-0.009968596	-0.04677711
1.1e+08	-0.01342634	-0.05107749	0.8747877	-0.45279	0.004344696	0.007914247	0.000129353	-0.0004964512
	0.8747877	-0.45279	-0.01388436	-0.05084138	0.0001290453	-0.0004959591	0.004198234	0.007998574
	0.004344696	0.007914247	0.0001290454	-0.0004959591	-0.01337993	-0.05099861	0.8742966	-0.4536816
	0.000129353	-0.0004964512	0.004198234	0.007998574	0.8742966	-0.4536816	-0.01389302	-0.05073174
1.2e+08	-0.01762219	-0.05476627	0.8538604	-0.4893467	0.005043522	0.008324671	0.0001466906	-0.0005922285
	0.8538604	-0.4893467	-0.01814956	-0.05446448	0.0001463847	-0.0005916164	0.004875065	0.008431005
	0.005043522	0.008324671	0.0001463847	-0.0005916164	-0.01757234	-0.05468472	0.8532859	-0.4902938
	0.0001466906	-0.0005922285	0.004875065	0.008431005	0.8532859	-0.4902938	-0.01816349	-0.05434369
1.3e+08	-0.0221277	-0.05809586	0.8314303	-0.5249027	0.00576845	0.00866639	0.0001571594	-0.0006987924
	0.8314303	-0.5249027	-0.02272585	-0.05771931	0.0001568702	-0.0006980551	0.005577812	0.00879791
	0.00576845	0.00866639	0.0001568703	-0.0006980551	-0.02207555	-0.05801231	0.8307669	-0.5258996
	0.0001571594	-0.0006987924	0.005577812	0.00879791	0.8307669	-0.5258996	-0.02274584	-0.05758668
1.4e+08	-0.02690823	-0.06104307	0.8075456	-0.5593972	0.00651302	0.008937874	0.0001583478	-0.0008159573
	0.8075456	-0.5593972	-0.02757741	-0.06058197	0.0001580916	-0.0008150902	0.006300407	0.009097819
	0.00651302	0.008937874	0.0001580917	-0.0008150902	-0.02685485	-0.06095773	0.8067882	-0.560438
	0.0001583478	-0.0008159573	0.006300407	0.009097819	0.8067882	-0.560438	-0.02760413	-0.06043653
1.5e+08	-0.03192823	-0.0635877	0.7822575	-0.5927726	0.007270593	0.00913805	0.0001480068	-0.0009429939
	0.7822575	-0.5927726	-0.03266737	-0.06303186	0.0001478012	-0.0009419937	0.007036606	0.009329671
	0.007270593	0.00913805	0.0001478013	-0.0009419937	-0.0318745	-0.06350048	0.7814014	-0.5938506
	0.0001480068	-0.000942994	0.007036606	0.009329671	0.7814014	-0.5938506	-0.03270125	-0.06287245
1.6e+08	-0.03715131	-0.06571265	0.7556199	-0.6249735	0.008034461	0.009266418	0.0001240454	-0.001078773
	0.7556199	-0.6249735	-0.03795796	-0.06505177	0.0001239097	-0.001077639	0.007780094	0.009492937
	0.008034461	0.009266418	0.0001239097	-0.001077639	-0.03709792	-0.0656233	0.7546606	-0.6260822
	0.0001240454	-0.001078773	0.007780094	0.009492937	0.7546606	-0.6260822	-0.03799922	-0.06487709
1.7e+08	-0.04254034	-0.06740395	0.7276886	-0.6559478	0.008797929	0.009323084	8.455596e-05	-0.001221828
	0.7276886	-0.6559478	-0.04341071	-0.06662786	8.451058e-05	-0.00122056	0.00852456	0.009587652
	0.008797929	0.009323084	8.451059e-05	-0.00122056	-0.04248785	-0.06731214	0.7266224	-0.6570801
	8.455597e-05	-0.001221828	0.00852456	0.009587652	0.7266224	-0.6570801	-0.04345933	-0.06643659
1.8e+08	-0.04805768	-0.06865079	0.6985218	-0.6856461	0.009554377	0.009308763	2.784532e-05	-0.001370393
	0.6985218	-0.6856461	-0.04898668	-0.06774966	2.791175e-05	-0.001368995	0.009263761	0.009614416
	0.009554377	0.009308763	2.791176e-05	-0.001368995	-0.04800649	-0.06855616	0.6973452	-0.6867947
	2.784533e-05	-0.001370393	0.009263762	0.009614416	0.6973452	-0.6867947	-0.04904243	-0.06754045
1.9e+08	-0.05366529	-0.06944552	0.6681795	-0.7140221	0.01029732	0.009224763	-4.753424e-05	-0.001522444
	0.6681795	-0.7140221	-0.05464661	-0.06841	-4.733401e-05	-0.001520923	0.009991581	0.009574384
	0.01029732	0.009224763	-4.7334e-05	-0.001520923	-0.05361572	-0.06934773	0.6668893	-0.7151794
	-4.753424e-05	-0.001522444	0.009991581	0.009574383	0.6668893	-0.7151794	-0.05470907	-0.06818156
2e+08	-0.05932502	-0.06978369	0.6367231	-0.7410323	0.01102048	0.009072967	-0.0001427562	-0.001675736
	0.6367231	-0.7410323	-0.06035123	-0.06860504	-0.0001424003	-0.001674103	0.01070208	0.009469248
	0.01102048	0.009072967	-0.0001424003	-0.001674103	-0.05927731	-0.06968239	0.6353168	-0.7421908
	-0.0001427562	-0.001675736	0.01070208	0.009469248	0.6353168	-0.7421908	-0.06041978	-0.0683561
2.1e+08	-0.06499879	-0.06966396	0.6042155	-0.7666368	0.0117178	0.008855809	-0.0002586954	-0.001827842
	0.6042155	-0.7666368	-0.06606139	-0.0683342	-0.0002581626	-0.001826111	0.01138953	0.009301212
	0.0117178	0.008855809	-0.0002581626	-0.001826111	-0.06495313	-0.06955885	0.6026911	-0.7677884
	-0.0002586954	-0.001827842	0.01138953	0.009301212	0.6026911	-0.7677884	-0.06613527	-0.06806358
2.2e+08	-0.07064881	-0.06908811	0.5707209	-0.7907982	0.01238354	0.008576238	-0.0003959075	-0.001976195
	0.5707209	-0.7907982	-0.07173838	-0.06760008	-0.0003951778	-0.001974384	0.0120485	0.009072964
	0.01238354	0.008576238	-0.0003951778	-0.001974384	-0.0706054	-0.06897888	0.5690765	-0.791935
	-0.0003959075	-0.001976195	0.0120485	0.009072964	0.5690765	-0.791935	-0.07181668	-0.0673067
2.3e+08	-0.07623785	-0.06806097	0.5363041	-0.8134828	0.01301226	0.008237687	-0.0005546141	-0.002118134
	0.5363041	-0.8134828	-0.07734408	-0.06640843	-0.0005536698	-0.002116264	0.01267383	0.00878764
	0.01301226	0.008237687	-0.0005536698	-0.002116264	-0.07619683	-0.06794731	0.5345387	-0.8145964
	-0.0005546141	-0.002118134	0.01267383	0.00878764	0.5345387	-0.8145964	-0.07742576	-0.0660913
2.4e+08	-0.08172943	-0.06659031	0.5010311	-0.8346594	0.01359893	0.007844034	-0.0007346935	-0.002250943
	0.5010311	-0.8346594	-0.08284126	-0.06476806	-0.0007335193	-0.002249039	0.01326074	0.008448793
	0.01359893	0.007844034	-0.0007335193	-0.002249039	-0.08169096	-0.06647192	0.4991438	-0.8357416
	-0.0007346935	-0.002250943	0.01326074	0.008448793	0.4991438	-0.8357416	-0.08292516	-0.06442628
2.5e+08	-0.08708806	-0.06468681	0.4649683	-0.8543002	0.0141389	0.00739956	-0.0009356766	-0.002371901
	0.4649683	-0.8543002	-0.08819375	-0.0626907	-0.0009342601	-0.00236999	0.01380479	0.008060351
	0.0141389	0.00739956	-0.0009342601	-0.00236999	-0.08705227	-0.06456336	0.462959	-0.8553425
	-0.0009356766	-0.002371901	0.01380479	0.008060351	0.462959	-0.8553425	-0.08827862	-0.0623235
2.6e+08	-0.09227943	-0.06236389	0.4281826	-0.8723803	0.01462797	0.006908909	-0.001156748	-0.002478324
	0.4281826	-0.8723803	-0.09336669	-0.06019092	-0.001155081	-0.002476435	0.01430196	0.007626583
	0.01462797	0.006908909	-0.001155081	-0.002476435	-0.09224644	-0.06223504	0.4260514	-0.8733743
	-0.001156748	-0.002478324	0.01430196	0.007626583	0.4260514	-0.8733743	-0.09345117	-0.05979765
2.7e+08	-0.0972706	-0.05963761	0.3907411	-0.8888776	0.01506236	0.006377042	-0.001396754	-0.00256761
	0.3907411	-0.8888776	-0.0983267	-0.05728598	-0.001394831	-0.002565774	0.01474863	0.00715205
	0.01506236	0.006377042	-0.001394831	-0.002565774	-0.0972405	-0.059503	0.3884888	-0.8898147
	-0.001396754	-0.00256761	0.01474863	0.00715205	0.3884888	-0.8898147	-0.09840936	-0.05686613
2.8e+08	-0.1020302	-0.05652652	0.3527112	-0.903773	0.01543882	0.005809191	-0.001654215	-0.002637278
	0.3527112	-0.903773	-0.1030421	-0.0539957	-0.001652036	-0.002635529	0.01514164	0.006641573
	0.01543882	0.005809191	-0.001652036	-0.002635529	-0.1020031	-0.05638578	0.3503391	-0.9046448
	-0.001654215	-0.002637278	0.01514164	0.006641573	0.3503391	-0.9046448	-0.1031214	-0.05354887
2.9e+08	-0.1065287	-0.05305155	0.3141603	-0.9170502	0.01575455	0.00521082	-0.001927341	-0.002685015
	0.3141603	-0.9170502	-0.1074831	-0.05034225	-0.001924911	-0.002683385	0.01547825	0.006100186
	0.01575455	0.00521082	-0.001924911	-0.002683385	-0.1065046	-0.05290426	0.3116702	-0.9178481
	-0.001927341	-0.002685015	0.01547825	0.006100186	0.3116702	-0.9178481	-0.1075575	-0.04986821
3e+08	-0.1107384	-0.04923578	0.2751558	-0.9286955	0.01600727	0.004587572	-0.002214057	-0.002708703
	0.2751558	-0.9286955	-0.1116218	-0.04635006	-0.002211385	-0.002707226	0.01575621	0.005533097
	0.01600727	0.004587572	-0.002211385	-0.002707226	-0.1107172	-0.04908153	0.2725499	-0.9294111
	-0.002214057	-0.002708703	0.01575621	0.005533097	0.2725499	-0.9294111	-0.1116897	-0.04584871
3.1e+08	-0.1146335	-0.04510432	0.2357649	-0.9386978	0.01619519	0.003945231	-0.002512029	-0.002706465
	0.2357649	-0.9386978	-0.1154327	-0.04204556	-0.002509127	-0.002705171	0.01597372	0.004945648
	0.01619519	0.003945231	-0.002509127	-0.002705171	-0.1146153	-0.04494268	0.2330461	-0.9393227
	-0.002512029	-0.002706465	0.01597372	0.004945648	0.2330461	-0.9393227	-0.1154925	-0.04151696
3.2e+08	-0.1181907	-0.04068412	0.1960545	-0.9470488	0.01631707	0.003289674	-0.002818689	-0.002676683
	0.1960545	-0.9470488	-0.1188924	-0.03745703	-0.002815575	-0.002675605	0.01612945	0.004343274
	0.01631707	0.003289674	-0.002815575	-0.002675605	-0.1181753	-0.04051466	0.193226	-0.9475747
	-0.002818689	-0.002676683	0.01612945	0.004343274	0.193226	-0.9475747	-0.1189424	-0.03690141
3.3e+08	-0.1213888	-0.03600379	0.1560914	-0.9537424	0.01637214	0.00262683	-0.003131276	-0.002618035
	0.1560914	-0.9537424	-0.1219801	-0.03261442	-0.003127973	-0.002617201	0.01622253	0.003731466
	0.01637214	0.00262683	-0.003127973	-0.002617201	-0.1213761	-0.03582606	0.153157	-0.954161
	-0.003131276	-0.002618035	0.01622253	0.003731466	0.153157	-0.954161	-0.1220186	-0.03203215
3.4e+08	-0.124209	-0.03109339	0.1159418	-0.9587749	0.01636016	0.001962641	-0.003446867	-0.00252951
	0.1159418	-0.9587749	-0.1246774	-0.02754908	-0.003443402	-0.002528946	0.01625256	0.003115733
	0.01636016	0.001962641	-0.003443402	-0.002528946	-0.1241988	-0.03090696	0.1129057	-0.9590784
	-0.003446867	-0.00252951	0.01625256	0.003115733	0.1129057	-0.9590784	-0.1247029	-0.02694071
3.5e+08	-0.126635	-0.02598425	0.07567155	-0.9621451	0.01628138	0.001303016	-0.003762418	-0.002410429
	0.07567155	-0.9621451	-0.1269686	-0.02229365	-0.00375882	-0.002410157	0.0162196	0.002501568
	0.01628138	0.001303016	-0.00375882	-0.002410156	-0.1266271	-0.02578869	0.07253864	-0.9623257
	-0.003762418	-0.002410429	0.0162196	0.002501568	0.07253864	-0.9623257	-0.1269794	-0.02165989
3.6e+08	-0.1286532	-0.02070878	0.03534615	-0.963854	0.01613656	0.0006537992	-0.004074802	-0.002260453
	0.03534615	-0.963854	-0.1288407	-0.01688176	-0.004071105	-0.002260492	0.01612415	0.001894412
	0.01613656	0.0006537992	-0.004071105	-0.002260492	-0.1286472	-0.02050368	0.03212163	-0.963904
	-0.004074802	-0.002260453	0.01612415	0.001894412	0.03212163	-0.963904	-0.1288351	-0.01622348
3.7e+08	-0.1302524	-0.01530026	-0.004969475	-0.9639046	0.01592692	2.072874e-05	-0.004380852	-0.002079597
	-0.004969475	-0.9639046	-0.1302833	-0.01134787	-0.004377092	-0.002079962	0.01596717	0.001299622
	0.01592692	2.072874e-05	-0.004377092	-0.002079962	-0.130248	-0.01508523	-0.00827991	-0.9638166
	-0.004380852	-0.002079597	0.01596717	0.001299622	-0.00827991	-0.9638166	-0.1302599	-0.01066611
3.8e+08	-0.1314242	-0.009792622	-0.0452109	-0.9623022	0.01565416	-0.0005905972	-0.004677401	-0.001868229
	-0.0452109	-0.9623022	-0.1312889	-0.005727053	-0.004673615	-0.001868929	0.01575003	0.0007224395
	0.01565416	-0.0005905972	-0.004673615	-0.001868929	-0.1314211	-0.009567303	-0.04860109	-0.9620692
	-0.004677401	-0.001868229	0.01575003	0.0007224395	-0.04860109	-0.9620692	-0.1312463	-0.005022991
3.9e+08	-0.1321628	-0.004220266	-0.08531421	-0.9590542	0.01532043	-0.001174754	-0.004961323	-0.001627067
	-0.08531421	-0.9590542	-0.1318528	-5.474626e-05	-0.004957552	-0.001628107	0.01547453	0.0001679607
	0.01532043	-0.001174754	-0.004957552	-0.001628107	-0.1321606	-0.00398433	-0.08877755	-0.9586694
	-0.004961323	-0.001627067	0.01547453	0.0001679607	-0.08877755	-0.9586694	-0.1317896	0.0006702727
4e+08	-0.1324653	0.001382141	-0.125216	-0.9541698	0.01492832	-0.001726524	-0.005229576	-0.001357174
	-0.125216	-0.9541698	-0.1319732	0.005633427	-0.00522586	-0.001358553	0.01514285	-0.0003588923
	0.01492832	-0.001726524	-0.00522586	-0.001358553	-0.1324634	0.001628985	-0.1287455	-0.9536267
	-0.005229576	-0.001357174	0.01514285	-0.0003588923	-0.1287455	-0.9536267	-0.1318882	0.006377922
4.1e+08	-0.1323313	0.006979885	-0.1648536	-0.9476605	0.01448083	-0.002240925	-0.005479238	-0.001059945
	-0.1648536	-0.9476605	-0.1316509	0.01130189	-0.005475617	-0.001061658	0.01475758	-0.0008533989
	0.01448083	-0.002240925	-0.005475617	-0.001061658	-0.1323293	0.007237885	-0.1684418	-0.9469529
	-0.005479238	-0.001059945	0.01475758	-0.0008533989	-0.1684418	-0.9469529	-0.131543	0.01206425
4.2e+08	-0.1317633	0.01253839	-0.2041646	-0.9395395	0.01398136	-0.002713243	-0.005707549	-0.0007370923
	-0.2041646	-0.9395395	-0.1308896	0.01691532	-0.005704063	-0.0007391268	0.01432167	-0.001311066
	0.01398136	-0.002713243	-0.005704063	-0.0007391268	-0.1317605	0.01280775	-0.2078037	-0.9386616
	-0.005707549	-0.0007370923	0.01432167	-0.001311066	-0.2078037	-0.9386616	-0.1307578	0.0176938
4.3e+08	-0.1307662	0.01802342	-0.2430875	-0.9298221	0.01343369	-0.003139056	-0.005911942	-0.0003906238
	-0.2430875	-0.9298221	-0.1296958	0.02243885	-0.00590863	-0.0003929632	0.01383842	-0.001727654
	0.01343369	-0.003139056	-0.00590863	-0.0003929632	-0.1307622	0.01830429	-0.2467692	-0.9287685
	-0.005911942	-0.0003906238	0.01383842	-0.001727654	-0.2467692	-0.9287685	-0.1295393	0.0232316
4.4e+08	-0.1293477	0.02340129	-0.281561	-0.9185255	0.01284195	-0.003514264	-0.00609008	-2.281871e-05
	-0.281561	-0.9185255	-0.1280787	0.02783828	-0.006086979	-2.544085e-05	0.01331146	-0.002099201
	0.01284195	-0.003514264	-0.006086979	-2.544085e-05	-0.129342	0.02369378	-0.2852769	-0.9172912
	-0.00609008	-2.281871e-05	0.01331146	-0.002099201	-0.2852769	-0.9172912	-0.1278969	0.02864334
4.5e+08	-0.1275183	0.02863905	-0.3195247	-0.9056688	0.0122106	-0.003835115	-0.006239883	0.0003638003
	-0.3195247	-0.9056688	-0.1260502	0.03308027	-0.006237026	0.0003609225	0.01274474	-0.002422043
	0.0122106	-0.003835115	-0.006237026	0.0003609225	-0.1275101	0.02894321	-0.3232659	-0.9042491
	-0.006239883	0.0003638003	0.01274474	-0.002422043	-0.3232659	-0.9042491	-0.1258425	0.03389563
4.6e+08	-0.1252906	0.03370465	-0.3569187	-0.891273	0.0115444	-0.004098224	-0.006359557	0.0007664986
	-0.3569187	-0.891273	-0.1236245	0.03813255	-0.006356973	0.0007633968	0.01214251	-0.002692843
	0.0115444	-0.004098224	-0.006356973	0.0007633968	-0.1252794	0.03402048	-0.3606759	-0.8896638
	-0.006359557	0.0007664986	0.01214251	-0.002692843	-0.3606759	-0.8896638	-0.1233906	0.0389561
4.7e+08	-0.1226799	0.03856718	-0.3936837	-0.8753611	0.01084839	-0.004300602	-0.006447613	0.001182364
	-0.3936837	-0.8753611	-0.1208186	0.04296411	-0.006445328	0.001179074	0.01150926	-0.002908605
	0.01084839	-0.004300602	-0.006445328	0.001179074	-0.1226651	0.03889462	-0.3974474	-0.8735587
	-0.006447613	0.001182364	0.01150926	-0.002908605	-0.3974474	-0.8735587	-0.1205585	0.0437937
4.8e+08	-0.1197038	0.043197	-0.429761	-0.8579581	0.01012787	-0.004439674	-0.00650289	0.001608342
	-0.429761	-0.8579581	-0.1176518	0.04754536	-0.006500924	0.001604903	0.01084974	-0.003066702
	0.01012787	-0.004439674	-0.006500924	0.001604903	-0.1196849	0.04353594	-0.4335215	-0.8559592
	-0.00650289	0.001608342	0.01084974	-0.003066702	-0.4335215	-0.8559592	-0.1173655	0.04837881
4.9e+08	-0.1163823	0.04756594	-0.4650926	-0.8390909	0.009388327	-0.004513299	-0.006524563	0.002041277
	-0.4650926	-0.8390909	-0.1141455	0.05184832	-0.006522933	0.002037732	0.01016894	-0.003164888
	0.009388327	-0.004513299	-0.006522933	0.002037732	-0.1163585	0.04791621	-0.4688399	-0.8368928
	-0.006524563	0.002041277	0.01016894	-0.003164888	-0.4688399	-0.8368928	-0.1138333	0.05268343
5e+08	-0.1127374	0.05164746	-0.4996212	-0.8187884	0.008635464	-0.004519793	-0.00651216	0.002477952
	-0.4996212	-0.8187884	-0.1103235	0.05584683	-0.006510874	0.002474345	0.009472007	-0.003201324
	0.008635464	-0.004519793	-0.006510874	0.002474345	-0.1127081	0.05200884	-0.503345	-0.8163888
	-0.00651216	0.002477952	0.009472007	-0.003201324	-0.503345	-0.8163888	-0.1099859	0.05668141
