!$
! Info: Touchstone file created by Circ.  Input file=Tx_4in_Rx_100ohms_TxVia_35mils_RxVia_45mils.circ
!$
# Hz S RI R 50
0	0.004278212	6.651661e-26	-2.184342e-05	3.856511e-24	4.103252e-05	7.924906e-24	-2.182415e-05	1.508235e-24
	-2.184343e-05	3.857638e-24	0.00427656	7.882054e-26	-2.185549e-05	5.396964e-24	4.089016e-05	9.600472e-24
	4.084624e-05	7.891636e-24	-2.185548e-05	5.39601e-24	0.004289095	6.652564e-26	-2.184155e-05	3.703923e-24
	-2.182416e-05	1.509119e-24	3.904319e-05	9.647925e-24	-2.184155e-05	3.704636e-24	0.004289758	7.38311e-26
1e+07	0.006083815	0.003150441	-7.76561e-05	2.900082e-06	0.0002363226	0.0009155044	-2.942298e-05	-3.968805e-06
	-7.76561e-05	2.900082e-06	0.00614494	0.003147775	-8.200014e-06	4.823552e-05	0.0002348368	0.0009140088
	0.0002363173	0.0009155054	-8.200011e-06	4.823552e-05	0.006163107	0.003157572	-7.765688e-05	2.877917e-06
	-2.942297e-05	-3.968806e-06	0.000234777	0.0009140188	-7.765688e-05	2.877916e-06	0.006097261	0.003159334
2e+07	0.007722502	0.00496157	-5.980031e-05	-3.03048e-05	0.0002923978	0.001885504	-2.288942e-05	-7.532003e-06
	-5.980031e-05	-3.03048e-05	0.007761421	0.004933579	-2.961954e-05	7.798214e-05	0.0002866969	0.001883057
	0.0002923992	0.001885508	-2.961954e-05	7.798214e-05	0.007790807	0.004951438	-5.980775e-05	-3.03429e-05
	-2.288942e-05	-7.532004e-06	0.0002866886	0.001883092	-5.980775e-05	-3.03429e-05	0.00772981	0.004978417
3e+07	0.009129349	0.006163809	-4.691562e-05	-4.164909e-05	0.000438585	0.002774769	-1.841815e-05	-1.168601e-05
	-4.691562e-05	-4.164909e-05	0.009143725	0.006127755	-6.152858e-05	8.728087e-05	0.0004260448	0.002772181
	0.0004385875	0.002774769	-6.152858e-05	8.728087e-05	0.009190945	0.00615146	-4.692815e-05	-4.171199e-05
	-1.841815e-05	-1.168601e-05	0.0004260447	0.002772186	-4.692815e-05	-4.171199e-05	0.009126023	0.006189729
4e+07	0.01044611	0.007089387	-3.674881e-05	-4.805279e-05	0.0006762606	0.003624547	-1.481345e-05	-1.385803e-05
	-3.674881e-05	-4.805279e-05	0.01043228	0.007051013	-8.870047e-05	9.080721e-05	0.0006543653	0.003622925
	0.0006762612	0.003624545	-8.870047e-05	9.080721e-05	0.01050384	0.007077841	-3.676544e-05	-4.814478e-05
	-1.481345e-05	-1.385803e-05	0.0006543599	0.003622923	-3.676544e-05	-4.814478e-05	0.01042763	0.007125436
5e+07	0.01171887	0.007817006	-2.825433e-05	-5.207898e-05	0.001058578	0.004421365	-1.172738e-05	-1.513664e-05
	-2.825433e-05	-5.207898e-05	0.01167282	0.007781282	-0.0001133329	9.14256e-05	0.001024972	0.004422067
	0.001058578	0.004421365	-0.0001133329	9.14256e-05	0.01177489	0.007807352	-2.827444e-05	-5.220471e-05
	-1.172738e-05	-1.513664e-05	0.001024968	0.004422066	-2.827444e-05	-5.220471e-05	0.0116806	0.007865187
6e+07	0.01296672	0.008383217	-2.086186e-05	-5.46006e-05	0.001499382	0.005174477	-8.975016e-06	-1.589579e-05
	-2.086186e-05	-5.46006e-05	0.01288482	0.008355123	-0.0001366363	9.018418e-05	0.001451906	0.005179188
	0.001499383	0.005174477	-0.0001366363	9.018418e-05	0.0130228	0.008375789	-2.088545e-05	-5.476518e-05
	-8.975016e-06	-1.589579e-05	0.001451908	0.005179187	-2.088545e-05	-5.476518e-05	0.01290447	0.008446184
7e+07	0.01419764	0.008808486	-2.475662e-05	-5.261446e-05	0.001995573	0.005880345	-6.383452e-06	-1.621334e-05
	-2.475662e-05	-5.261446e-05	0.01407665	0.008793077	-0.0001593949	8.750917e-05	0.001932277	0.005890997
	0.001995575	0.005880345	-0.0001593949	8.750917e-05	0.01425529	0.008803227	-2.478393e-05	-5.281524e-05
	-6.383452e-06	-1.621334e-05	0.001932284	0.005890994	-2.478393e-05	-5.281524e-05	0.01410753	0.008889256
8e+07	0.0154143	0.009106232	-3.545447e-05	-4.616924e-05	0.00254331	0.006534865	-8.284535e-06	-1.452459e-05
	-3.545447e-05	-4.616924e-05	0.01525131	0.009108823	-0.0001823366	8.324936e-05	0.002462463	0.006553617
	0.002543313	0.006534864	-0.0001823366	8.324936e-05	0.01547483	0.009102887	-3.548004e-05	-4.640545e-05
	-8.284535e-06	-1.452459e-05	0.002462473	0.006553611	-3.548004e-05	-4.640545e-05	0.01529263	0.009208233
9e+07	0.01661687	0.009286978	-4.446471e-05	-3.737197e-05	0.003137967	0.007133451	-1.100303e-05	-1.163865e-05
	-4.446471e-05	-3.737197e-05	0.01640937	0.009313395	-0.0002064797	7.641093e-05	0.003038075	0.00716268
	0.003137969	0.007133451	-0.0002064797	7.641093e-05	0.01668148	0.009285284	-4.448761e-05	-3.76485e-05
	-1.100303e-05	-1.163865e-05	0.003038082	0.007162675	-4.448761e-05	-3.76485e-05	0.01646012	0.009414173
1e+08	0.01780746	0.009365983	-5.07221e-05	-2.442765e-05	0.00377275	0.007668408	-1.27182e-05	-7.447787e-06
	-5.07221e-05	-2.442765e-05	0.01755391	0.009423417	-0.0002351738	6.090598e-05	0.00365257	0.007710693
	0.00377275	0.007668408	-0.0002351738	6.090598e-05	0.01787769	0.0093665	-5.073963e-05	-2.475235e-05
	-1.27182e-05	-7.447787e-06	0.00365257	0.007710693	-5.073963e-05	-2.475235e-05	0.01761245	0.009522937
1.1e+08	0.0190095	0.009309465	-4.848636e-05	-1.504844e-05	0.004429818	0.008151831	-1.158236e-05	-4.554651e-06
	-4.848636e-05	-1.504844e-05	0.01871304	0.00940276	-0.0002414601	3.677347e-05	0.004288692	0.008209798
	0.004429817	0.008151831	-0.0002414601	3.677347e-05	0.01909037	0.009309365	-4.850302e-05	-1.543273e-05
	-1.158236e-05	-4.554651e-06	0.004288692	0.008209798	-4.850302e-05	-1.543273e-05	0.01877588	0.00950277
1.2e+08	0.02017222	0.00913325	-4.731547e-05	-9.013992e-06	0.005124722	0.008580434	-1.084431e-05	-2.812337e-06
	-4.731547e-05	-9.013992e-06	0.01983076	0.009265829	-0.000244495	2.389571e-05	0.004961971	0.008656929
	0.005124722	0.008580434	-0.000244495	2.389571e-05	0.02026268	0.009129022	-4.734031e-05	-9.460057e-06
	-1.084431e-05	-2.812337e-06	0.004961971	0.008656929	-4.734031e-05	-9.460057e-06	0.01989791	0.009366879
1.3e+08	0.0212959	0.008851826	-4.639528e-05	-4.06885e-06	0.005850219	0.008946707	-1.021379e-05	-1.481756e-06
	-4.639528e-05	-4.06885e-06	0.02090823	0.009028746	-0.000246941	1.533498e-05	0.005665502	0.009044691
	0.005850219	0.008946707	-0.000246941	1.533498e-05	0.02139511	0.008841359	-4.643589e-05	-4.579917e-06
	-1.021379e-05	-1.481756e-06	0.005665502	0.009044691	-4.643589e-05	-4.579917e-06	0.0209792	0.009130652
1.4e+08	0.02237721	0.008471672	-4.555612e-05	2.713687e-07	0.006600126	0.009247293	-9.636267e-06	-4.049679e-07
	-4.555612e-05	2.713687e-07	0.02194283	0.008698626	-0.0002491634	9.518277e-06	0.006393454	0.009369798
	0.006600126	0.009247293	-0.0002491634	9.518277e-06	0.02248428	0.008453323	-4.562061e-05	-3.075089e-07
	-9.636267e-06	-4.049679e-07	0.006393454	0.009369798	-4.562061e-05	-3.075089e-07	0.022017	0.008801242
1.5e+08	0.02341193	0.007998073	-4.471651e-05	4.229728e-06	0.007368249	0.00947991	-9.090855e-06	4.93679e-07
	-4.471651e-05	4.229728e-06	0.02293109	0.008281107	-0.0002512652	5.685141e-06	0.007139987	0.009629998
	0.007368249	0.00947991	-0.0002512652	5.685141e-06	0.02352595	0.007970474	-4.481368e-05	3.581001e-06
	-9.090855e-06	4.93679e-07	0.007139988	0.009629998	-4.481368e-05	3.581001e-06	0.02300788	0.008384378
1.6e+08	0.02439544	0.007435978	-4.382498e-05	7.927976e-06	0.00814832	0.009643026	-8.56722e-06	1.257596e-06
	-4.382498e-05	7.927975e-06	0.02386918	0.007781315	-0.0002532679	3.381095e-06	0.007899188	0.009823752
	0.00814832	0.009643026	-0.0002532679	3.381095e-06	0.02451545	0.007397947	-4.396427e-05	7.208329e-06
	-8.56722e-06	1.257596e-06	0.007899188	0.009823752	-4.396427e-05	7.208329e-06	0.02394804	0.007885253
1.7e+08	0.02532294	0.006790334	-4.284424e-05	1.143724e-05	0.008934013	0.00973576	-8.059684e-06	1.914528e-06
	-4.284424e-05	1.143724e-05	0.02475307	0.00720423	-0.000255163	2.299445e-06	0.00866508	0.009950133
	0.008934013	0.00973576	-0.000255163	2.299445e-06	0.02544794	0.006740821	-4.303568e-05	1.064672e-05
	-8.059684e-06	1.914528e-06	0.00866508	0.009950133	-4.303568e-05	1.064672e-05	0.02483353	0.007308888
1.8e+08	0.02618962	0.006066243	-4.174547e-05	1.479914e-05	0.009718985	0.009757837	-7.564955e-06	2.483477e-06
	-4.174547e-05	1.479914e-05	0.02557871	0.006554867	-0.0002569307	2.216041e-06	0.009431663	0.01000879
	0.009718984	0.009757837	-0.0002569307	2.216041e-06	0.02631855	0.006004306	-4.19995e-05	1.393905e-05
	-7.564955e-06	2.483477e-06	0.009431663	0.01000879	-4.19995e-05	1.393905e-05	0.02566033	0.006660322
1.9e+08	0.02699076	0.005269048	-4.050571e-05	1.803658e-05	0.01049691	0.009709571	-7.081079e-06	2.978123e-06
	-4.050571e-05	1.803658e-05	0.02634215	0.005838381	-0.0002585487	2.956618e-06	0.01019295	0.009999911
	0.01049691	0.009709571	-0.0002585487	2.956618e-06	0.02712247	0.005193842	-4.083307e-05	1.710956e-05
	-7.081079e-06	2.978123e-06	0.01019295	0.009999911	-4.083307e-05	1.710956e-05	0.02642453	0.005944719
2e+08	0.02772184	0.004404349	-3.910679e-05	2.115964e-05	0.01126153	0.009591844	-6.606902e-06	3.4087e-06
	-3.910679e-05	2.115964e-05	0.02703955	0.005060098	-0.0002599965	4.379353e-06	0.010943	0.009924239
	0.01126153	0.009591844	-0.0002599965	4.379353e-06	0.02785513	0.004315128	-3.951828e-05	2.016974e-05
	-6.606902e-06	3.4087e-06	0.010943	0.009924239	-3.951828e-05	2.016974e-05	0.02712234	0.005167417
2.1e+08	0.02837859	0.00347803	-3.753463e-05	2.416941e-05	0.01200671	0.009406093	-6.141783e-06	3.783096e-06
	-3.753463e-05	2.416941e-05	0.02766734	0.00422555	-0.0002612576	6.364804e-06	0.01167598	0.009783027
	0.01200671	0.009406093	-0.0002612576	6.364804e-06	0.02851216	0.003374149	-3.8041e-05	2.312216e-05
	-6.141783e-06	3.783096e-06	0.01167598	0.009783027	-3.8041e-05	2.312216e-05	0.02775019	0.004333946
2.2e+08	0.02895709	0.002496246	-3.577914e-05	2.706036e-05	0.01272644	0.009154295	-5.685418e-06	4.10755e-06
	-3.577914e-05	2.706036e-05	0.02822222	0.003340469	-0.0002623211	8.809998e-06	0.0123862	0.009578039
	0.01272644	0.009154295	-0.0002623211	8.809998e-06	0.02908956	0.002377173	-3.639084e-05	2.596276e-05
	-5.685418e-06	4.10755e-06	0.0123862	0.009578039	-3.639084e-05	2.596276e-05	0.02830478	0.003450048
2.3e+08	0.02945379	0.001465422	-3.383411e-05	2.982207e-05	0.01341495	0.008838949	-5.237721e-06	4.387111e-06
	-3.383411e-05	2.982207e-05	0.02870122	0.00241079	-0.000263181	1.162459e-05	0.01306812	0.00931153
	0.01341495	0.008838949	-0.000263181	1.162459e-05	0.02958371	0.00133075	-3.456109e-05	2.868263e-05
	-5.237721e-06	4.387111e-06	0.01306812	0.00931153	-3.456109e-05	2.868263e-05	0.02878317	0.002521674
2.4e+08	0.02986554	0.0003922067	-3.169691e-05	3.244085e-05	0.01406668	0.008463053	-4.798776e-06	4.625933e-06
	-3.169691e-05	3.244085e-05	0.02910173	0.001442611	-0.0002638387	1.472883e-05	0.01371645	0.008986231
	0.01406668	0.008463053	-0.0002638387	1.472883e-05	0.02999138	0.0002416648	-3.254843e-05	3.126949e-05
	-4.798776e-06	4.625933e-06	0.01371645	0.008986231	-3.254843e-05	3.126949e-05	0.02918273	0.00155494
2.5e+08	0.03018965	-0.0007165349	-2.93687e-05	3.49005e-05	0.01467637	0.008030083	-4.368773e-06	4.82751e-06
	-2.93687e-05	3.49005e-05	0.02942156	0.0004421998	-0.0002643005	1.805195e-05	0.01432615	0.008605322
	0.01467637	0.008030083	-0.0002643005	1.805195e-05	0.03030984	-0.000883069	-3.035312e-05	3.370853e-05
	-4.368773e-06	4.82751e-06	0.01432615	0.008605322	-3.035312e-05	3.370853e-05	0.02950129	0.000556138
2.6e+08	0.03042393	-0.001853766	-2.685417e-05	3.718345e-05	0.01523908	0.007543966	-3.947983e-06	4.994821e-06
	-2.685417e-05	3.718345e-05	0.02965892	-0.0005840563	-0.0002645792	2.153159e-05	0.01489247	0.008172412
	0.01523908	0.007543966	-0.0002645792	2.153159e-05	0.03053684	-0.002036258	-2.797877e-05	3.598347e-05
	-3.947983e-06	4.994821e-06	0.01489247	0.008172412	-2.797877e-05	3.598347e-05	0.02973705	-0.0004683205
2.7e+08	0.03056666	-0.003012304	-2.416162e-05	3.927132e-05	0.01575022	0.007009051	-3.536718e-06	5.130447e-06
	-2.416162e-05	3.927132e-05	0.02981246	-0.001629674	-0.0002646921	2.511273e-05	0.01541099	0.007691509
	0.01575022	0.007009051	-0.0002646921	2.511273e-05	0.03067063	-0.00321056	-2.54324e-05	3.80771e-05
	-3.536718e-06	5.130447e-06	0.01541099	0.007691509	-2.54324e-05	3.80771e-05	0.02988868	-0.001511922
2.8e+08	0.03061665	-0.00418486	-2.130264e-05	4.114585e-05	0.01620562	0.006430073	-3.135357e-06	5.236658e-06
	-2.130264e-05	4.114585e-05	0.0298813	-0.002688096	-0.0002646622	2.874852e-05	0.01587766	0.007166992
	0.01620562	0.006430073	-0.0002646622	2.874852e-05	0.03071003	-0.00439851	-2.272415e-05	3.997219e-05
	-3.135357e-06	5.236658e-06	0.01587766	0.007166992	-2.272415e-05	3.997219e-05	0.02995532	-0.002568072
2.9e+08	0.03057326	-0.005364078	-1.829202e-05	4.278935e-05	0.01660151	0.005812122	-2.744293e-06	5.315478e-06
	-1.829202e-05	4.278935e-05	0.02986501	-0.003752735	-0.0002645165	3.239944e-05	0.01628883	0.006603578
	0.01660151	0.005812122	-0.0002645165	3.239944e-05	0.03065438	-0.005592584	-1.986723e-05	4.165189e-05
	-2.744293e-06	5.315478e-06	0.01628883	0.006603578	-1.986723e-05	4.165189e-05	0.02993654	-0.003630156
3e+08	0.03043637	-0.006542579	-1.51476e-05	4.41852e-05	0.0169346	0.005160601	-2.363932e-06	5.368734e-06
	-1.51476e-05	4.41852e-05	0.02976363	-0.004817006	-0.0002642851	3.603294e-05	0.01664126	0.006006286
	0.0169346	0.005160601	-0.0002642851	3.603294e-05	0.0305036	-0.006785227	-1.687775e-05	4.310026e-05
	-2.363932e-06	5.368734e-06	0.01664126	0.006006286	-1.687775e-05	4.310026e-05	0.02983242	-0.004691554
3.1e+08	0.03020642	-0.007712988	-1.188987e-05	4.53185e-05	0.01720208	0.004481187	-1.994711e-06	5.398104e-06
	-1.188987e-05	4.53185e-05	0.02957768	-0.005874348	-0.0002640017	3.962483e-05	0.01693215	0.005380402
	0.01720208	0.004481187	-0.0002640017	3.962483e-05	0.03025816	-0.007968889	-1.377438e-05	4.430286e-05
	-1.994711e-06	5.398104e-06	0.01693215	0.005380402	-1.377438e-05	4.430286e-05	0.02964349	-0.005745677
3.2e+08	0.0298844	-0.008867994	-8.541789e-06	4.617634e-05	0.01740163	0.003779792	-1.637059e-06	5.405141e-06
	-8.541789e-06	4.617634e-05	0.02930815	-0.006918278	-0.0002637018	4.315784e-05	0.01715919	0.004731435
	0.01740163	0.003779792	-0.0002637018	4.315784e-05	0.02991911	-0.009136088	-1.057816e-05	4.524702e-05
	-1.637059e-06	5.405141e-06	0.01715919	0.004731435	-1.057816e-05	4.524702e-05	0.0293708	-0.00678601
3.3e+08	0.02947183	-0.01000038	-5.128463e-06	4.67482e-05	0.01753146	0.003062511	-1.291397e-06	5.391301e-06
	-5.128463e-06	4.67482e-05	0.0289565	-0.007942412	-0.0002634216	4.662162e-05	0.01732054	0.004065081
	0.01753146	0.003062511	-0.0002634216	4.662162e-05	0.02948807	-0.01027944	-7.312237e-06	4.592222e-05
	-1.291397e-06	5.391301e-06	0.01732054	0.004065081	-7.312237e-06	4.592222e-05	0.02901581	-0.007806149
3.4e+08	0.0289708	-0.01110305	-1.676657e-06	4.702634e-05	0.01759034	0.002335582	-9.581564e-07	5.357969e-06
	-1.676657e-06	4.702634e-05	0.02852465	-0.008940497	-0.0002631985	5.001403e-05	0.01741487	0.003387181
	0.01759034	0.002335582	-0.0002631985	5.001403e-05	0.02896719	-0.01139169	-4.001402e-06	4.632049e-05
	-9.581564e-07	5.357969e-06	0.01741487	0.003387181	-4.001402e-06	4.632049e-05	0.02858051	-0.008799817
3.5e+08	0.02838393	-0.01216911	1.78548e-06	4.700595e-05	0.01757756	0.001605337	-6.377472e-07	5.306469e-06
	1.78548e-06	4.700595e-05	0.02801497	-0.009906457	-0.000263069	5.333938e-05	0.01744136	0.00270367
	0.01757756	0.001605337	-0.000263069	5.333938e-05	0.02835923	-0.01246579	-6.718297e-07	4.643653e-05
	-6.377472e-07	5.306469e-06	0.01744136	0.00270367	-6.718297e-07	4.643653e-05	0.02806729	-0.009760922
3.6e+08	0.02771433	-0.01319187	5.228915e-06	4.668542e-05	0.01749299	0.0008781543	-3.305704e-07	5.238084e-06
	5.228915e-06	4.668542e-05	0.02743028	-0.01083441	-0.0002630686	5.660954e-05	0.01739969	0.002020544
	0.01749299	0.0008781543	-0.0002630686	5.660954e-05	0.02766741	-0.01349492	2.649373e-06	4.6268e-05
	-3.305704e-07	5.238084e-06	0.01739969	0.002020544	2.649373e-06	4.6268e-05	0.02747902	-0.01068357
3.7e+08	0.02696566	-0.01416489	8.624095e-06	4.606643e-05	0.01733704	0.0001604096	-3.700154e-08	5.154066e-06
	8.624095e-06	4.606643e-05	0.02677382	-0.01171873	-0.0002632306	5.984263e-05	0.0172901	0.001343803
	0.01733704	0.0001604096	-0.0002632306	5.984263e-05	0.02689553	-0.01447249	5.934509e-06	4.581561e-05
	-3.700154e-08	5.154066e-06	0.0172901	0.001343803	5.934509e-06	4.581561e-05	0.026819	-0.01156212
3.8e+08	0.02614203	-0.01508206	1.194141e-05	4.515406e-05	0.01711069	-0.0005415727	2.42611e-07	5.055646e-06
	1.194141e-05	4.515406e-05	0.02604923	-0.01255403	-0.0002635854	6.306295e-05	0.01711331	0.0006794164
	0.01711069	-0.0005415727	-0.0002635854	6.306295e-05	0.02604788	-0.01539228	9.155716e-06	4.508324e-05
	2.42611e-07	5.055646e-06	0.01711331	0.0006794164	9.155716e-06	4.508324e-05	0.0260909	-0.01239119
3.9e+08	0.02524805	-0.01593758	1.515167e-05	4.395678e-05	0.01681548	-0.001221567	5.079494e-07	4.944036e-06
	1.515167e-05	4.395678e-05	0.02526057	-0.01333523	-0.0002641597	6.630075e-05	0.01687058	3.327135e-05
	0.01681548	-0.001221567	-0.0002641597	6.630075e-05	0.0251292	-0.01624837	1.228541e-05	4.407792e-05
	5.079494e-07	4.944036e-06	0.01687058	3.327134e-05	1.228541e-05	4.407792e-05	0.02529883	-0.01316571
4e+08	0.02428873	-0.01672601	1.82265e-05	4.248641e-05	0.01645348	-0.001873496	7.587368e-07	4.820442e-06
	1.82265e-05	4.248641e-05	0.02441223	-0.01405759	-0.000264976	6.959104e-05	0.01656369	-0.0005888688
	0.01645348	-0.001873496	-0.000264976	6.959104e-05	0.02414471	-0.01703526	1.529667e-05	4.280984e-05
	7.587368e-07	4.820442e-06	0.01656369	-0.0005888688	1.529667e-05	4.280984e-05	0.02444723	-0.01388092
4.1e+08	0.02326954	-0.01744234	2.113878e-05	4.075805e-05	0.0160273	-0.002491476	9.947364e-07	4.686065e-06
	2.113878e-05	4.075805e-05	0.02350898	-0.0147167	-0.000266052	7.29738e-05	0.01619488	-0.001181409
	0.0160273	-0.002491476	-0.000266052	7.29738e-05	0.02310004	-0.01774785	1.816363e-05	4.12923e-05
	9.947364e-07	4.686065e-06	0.01619488	-0.001181409	1.816363e-05	4.12923e-05	0.02354091	-0.01453244
4.2e+08	0.02219628	-0.01808198	2.386314e-05	3.878989e-05	0.01554004	-0.003069864	1.21576e-06	4.5421e-06
	2.386314e-05	3.878989e-05	0.02255588	-0.01530854	-0.0002673993	7.649325e-05	0.01576691	-0.001738966
	0.01554004	-0.003069864	-0.0002673993	7.649325e-05	0.02200121	-0.01838149	2.086196e-05	3.954149e-05
	1.21576e-06	4.5421e-06	0.01576691	-0.001738966	2.086196e-05	3.954149e-05	0.02258498	-0.01511627
4.3e+08	0.02107512	-0.01864083	2.637623e-05	3.6603e-05	0.01499531	-0.003603298	1.421676e-06	4.389745e-06
	2.637623e-05	3.6603e-05	0.02155828	-0.01582949	-0.0002690239	8.019665e-05	0.01528299	-0.002256405
	0.01499531	-0.003603298	-0.0002690239	8.019665e-05	0.0208546	-0.01893203	2.336911e-05	3.757639e-05
	1.421676e-06	4.389745e-06	0.01528299	-0.002256405	2.336911e-05	3.757639e-05	0.02158484	-0.0156288
4.4e+08	0.01991256	-0.01911525	2.865717e-05	3.422111e-05	0.01439717	-0.004086746	1.612414e-06	4.23019e-06
	2.865717e-05	3.422111e-05	0.02052181	-0.01627634	-0.0002709251	8.413348e-05	0.01474675	-0.002728887
	0.01439717	-0.004086746	-0.0002709251	8.413348e-05	0.01966689	-0.01939583	2.566475e-05	3.541851e-05
	1.612414e-06	4.23019e-06	0.01474675	-0.002728887	2.566475e-05	3.541851e-05	0.02054614	-0.01606685
4.5e+08	0.01871533	-0.01950214	3.068779e-05	3.167027e-05	0.01375014	-0.00451554	1.787971e-06	4.064619e-06
	3.068779e-05	3.167027e-05	0.01945229	-0.01664635	-0.0002730957	8.835453e-05	0.01416225	-0.003151898
	0.01375014	-0.00451554	-0.0002730957	8.835453e-05	0.01844505	-0.01976978	2.7731e-05	3.309162e-05
	1.787971e-06	4.064619e-06	0.01416225	-0.003151898	2.7731e-05	3.309162e-05	0.01947476	-0.0164277
4.6e+08	0.01749043	-0.01979893	3.245305e-05	2.897849e-05	0.01305911	-0.004885414	1.948412e-06	3.894188e-06
	3.245305e-05	2.897849e-05	0.01835577	-0.01693722	-0.000275521	9.291231e-05	0.01353394	-0.00352129
	0.01305911	-0.004885414	-0.000275521	9.291231e-05	0.01719628	-0.02005133	2.955281e-05	3.062142e-05
	1.948412e-06	3.894188e-06	0.01353394	-0.00352129	2.955281e-05	3.062142e-05	0.01837678	-0.01670909
4.7e+08	0.01624502	-0.0200036	3.394111e-05	2.617537e-05	0.01232935	-0.00519254	2.093868e-06	3.719877e-06
	3.394111e-05	2.617537e-05	0.01723844	-0.01714711	-0.0002781798	9.785735e-05	0.01286661	-0.003833308
	0.01232935	-0.00519254	-0.0002781798	9.785735e-05	0.01592797	-0.02023851	3.111807e-05	2.803516e-05
	2.093868e-06	3.719877e-06	0.01286661	-0.003833308	3.111807e-05	2.803516e-05	0.01725839	-0.01690918
4.8e+08	0.01498642	-0.02011473	3.51437e-05	2.329183e-05	0.01156645	-0.00543356	2.224557e-06	3.543034e-06
