!$
! Info: Touchstone file created by Circ.  Input file=Tx_4in_Rx_93ohms_TxVia_35mils_RxVia_45mils.circ
!$
# Hz S RI R 50
0	0.003796074	7.044788e-26	7.546037e-13	1.54962e-28	4.225282e-05	7.06272e-24	1.836547e-12	8.819886e-29
	7.546021e-13	1.549621e-28	0.003792652	7.87961e-26	3.799233e-12	2.519611e-28	4.088428e-05	8.49971e-24
	4.277739e-05	7.15466e-24	3.799235e-12	2.519609e-28	0.003804374	6.875899e-26	1.760894e-12	1.650554e-28
	1.836547e-12	8.819893e-29	3.903741e-05	8.541758e-24	1.760895e-12	1.650556e-28	0.003805858	7.380748e-26
1e+07	0.005253855	0.0001181032	7.264636e-12	6.687376e-12	0.0001040853	0.0008421637	9.436339e-12	1.232455e-11
	7.264637e-12	6.687377e-12	0.005557886	8.261983e-05	8.850343e-12	7.235715e-12	0.0001050132	0.000902397
	0.0001041091	0.0008421651	8.850343e-12	7.235714e-12	0.005646283	0.0003305997	7.176281e-12	6.782459e-12
	9.436339e-12	1.232455e-11	0.0001049534	0.0009024071	7.17628e-12	6.782459e-12	0.005460616	8.118237e-05
2e+07	0.006489813	-0.0009694872	1.003036e-11	9.442838e-12	0.0002403989	0.00170397	1.02249e-11	2.258211e-11
	1.003036e-11	9.442839e-12	0.0066872	-0.001141819	1.124371e-11	1.098697e-11	0.0001930646	0.001812058
	0.0002404068	0.001703955	1.124371e-11	1.098697e-11	0.007004415	-0.0007586953	9.27256e-12	9.946493e-12
	1.02249e-11	2.258211e-11	0.0001930565	0.001812092	9.27256e-12	9.946494e-12	0.006612907	-0.001104337
3e+07	0.007254094	-0.002635874	1.145604e-11	1.067277e-11	0.0004452628	0.002548422	1.09526e-11	3.151599e-11
	1.145604e-11	1.067277e-11	0.007358155	-0.002851365	1.354964e-11	1.33888e-11	0.0003835873	0.0026766
	0.0004452628	0.002548419	1.354964e-11	1.33888e-11	0.007863242	-0.002446948	1.048655e-11	1.13998e-11
	1.09526e-11	3.151599e-11	0.0003835873	0.002676605	1.048655e-11	1.13998e-11	0.007301251	-0.002802033
4e+07	0.007693016	-0.004513875	1.136725e-11	1.08483e-11	0.0007190284	0.003370627	1.042343e-11	3.986401e-11
	1.136725e-11	1.08483e-11	0.007707678	-0.004745217	1.496178e-11	1.490721e-11	0.0006639336	0.003508041
	0.0007190303	0.003370628	1.496178e-11	1.490721e-11	0.008379969	-0.004364518	9.709182e-12	1.159606e-11
	1.042343e-11	3.986401e-11	0.0006639282	0.003508039	9.709182e-12	1.159606e-11	0.007664888	-0.004690986
5e+07	0.007859073	-0.006505209	9.470598e-12	1.04373e-11	0.00105972	0.004164277	8.551268e-12	4.812608e-11
	9.470597e-12	1.04373e-11	0.007785516	-0.006734276	1.523101e-11	1.577009e-11	0.001007086	0.004306282
	0.001059721	0.004164277	1.523101e-11	1.577009e-11	0.008610756	-0.00640908	6.742625e-12	1.134714e-11
	8.551268e-12	4.812608e-11	0.001007082	0.004306281	6.742625e-12	1.134714e-11	0.007754155	-0.006679015
6e+07	0.007779087	-0.008555941	5.531163e-12	9.927615e-12	0.001464521	0.004923617	5.368338e-12	5.66778e-11
	5.531165e-12	9.927615e-12	0.007617924	-0.008767761	1.433506e-11	1.615172e-11	0.001410466	0.005067323
	0.001464519	0.004923617	1.433506e-11	1.615172e-11	0.008583834	-0.008524403	1.52089e-12	1.118646e-11
	5.368339e-12	5.66778e-11	0.001410468	0.005067321	1.52089e-12	1.118646e-11	0.007595563	-0.008714113
7e+07	0.007470147	-0.01062886	-6.496647e-13	9.83402e-12	0.001930158	0.005643377	9.316066e-13	6.582921e-11
	-6.496578e-13	9.834022e-12	0.007222096	-0.01080977	1.202717e-11	1.637849e-11	0.001870887	0.005786776
	0.001930152	0.005643378	1.202717e-11	1.637849e-11	0.0083167	-0.01067203	-6.035638e-12	1.164273e-11
	9.316065e-13	6.582921e-11	0.001870895	0.005786772	-6.035638e-12	1.164273e-11	0.007206372	-0.01075975
8e+07	0.006945195	-0.01269476	-9.263255e-12	1.07412e-11	0.002453	0.006318822	-4.622772e-12	7.580202e-11
	-9.263244e-12	1.074121e-11	0.006611475	-0.01283128	8.144966e-12	1.679865e-11	0.002384655	0.006460221
	0.002452992	0.006318825	8.144965e-12	1.679865e-11	0.007821989	-0.01282254	-1.593801e-11	1.32387e-11
	-4.622772e-12	7.580202e-11	0.002384665	0.006460215	-1.593801e-11	1.32387e-11	0.006599972	-0.01278658
9e+07	0.006215623	-0.01472874	-2.057126e-11	1.340961e-11	0.003029262	0.006946172	-1.071619e-11	8.624858e-11
	-2.057124e-11	1.340961e-11	0.005798609	-0.01480624	3.207069e-12	1.746003e-11	0.002947598	0.007083376
	0.003029257	0.006946175	3.207069e-12	1.746003e-11	0.007109731	-0.01495265	-2.783351e-11	1.621622e-11
	-1.071619e-11	8.624858e-11	0.002947605	0.007083371	-2.783351e-11	1.621622e-11	0.00578874	-0.01476842
1e+08	0.005293848	-0.01670596	-3.571154e-11	1.965367e-11	0.003656745	0.007526666	-1.796389e-11	9.802587e-11
	-3.571154e-11	1.965367e-11	0.004800479	-0.01670204	-4.248342e-12	1.905271e-11	0.003555127	0.007652082
	0.003656745	0.007526666	-4.248342e-12	1.905271e-11	0.006184888	-0.01705108	-4.290078e-11	2.236063e-11
	-1.796389e-11	9.802587e-11	0.003555127	0.007652082	-4.290078e-11	2.236063e-11	0.004788846	-0.01667392
1.1e+08	0.004203809	-0.01862855	-4.689955e-11	3.197145e-11	0.004305353	0.008056187	-2.342734e-11	1.125309e-10
	-4.689955e-11	3.197145e-11	0.003666362	-0.01854912	-8.954102e-12	2.527274e-11	0.00420111	0.00816327
	0.004305353	0.008056187	-8.954102e-12	2.527274e-11	0.005028462	-0.01906527	-5.42517e-11	3.483986e-11
	-2.342734e-11	1.125309e-10	0.00420111	0.00816327	-5.42517e-11	3.483986e-11	0.003645852	-0.01852674
1.2e+08	0.002932941	-0.02046985	-5.433399e-11	4.123051e-11	0.004988154	0.008513587	-2.822118e-11	1.272278e-10
	-5.433399e-11	4.123051e-11	0.002345257	-0.02032206	-1.155046e-11	2.978315e-11	0.004881499	0.008614332
	0.004988154	0.008513587	-1.155046e-11	2.978315e-11	0.003698656	-0.02096908	-6.216856e-11	4.452553e-11
	-2.822118e-11	1.272278e-10	0.004881499	0.008614332	-6.216856e-11	4.452553e-11	0.002315498	-0.02030245
1.3e+08	0.001495439	-0.0222103	-5.880332e-11	4.730647e-11	0.005701531	0.008902229	-3.175464e-11	1.406039e-10
	-5.880332e-11	4.730647e-11	0.0008550879	-0.02199169	-1.187894e-11	3.215312e-11	0.005590821	0.00900234
	0.005701531	0.008902229	-1.187894e-11	3.215312e-11	0.002204002	-0.02275965	-6.777641e-11	5.180047e-11
	-3.175464e-11	1.406039e-10	0.005590821	0.00900234	-6.777641e-11	5.180047e-11	0.0008150722	-0.02197328
1.4e+08	-9.569818e-05	-0.02383536	-6.353449e-11	5.418556e-11	0.006439675	0.009221117	-3.531104e-11	1.546233e-10
	-6.353449e-11	5.418556e-11	-0.0007897321	-0.0235411	-1.252852e-11	3.472969e-11	0.00632333	0.009325038
	0.006439675	0.009221117	-1.252852e-11	3.472969e-11	0.0005565654	-0.02442608	-7.368593e-11	6.008638e-11
	-3.531104e-11	1.546233e-10	0.00632333	0.009325038	-7.368593e-11	6.008638e-11	-0.0008410049	-0.02352237
1.5e+08	-0.001827451	-0.02533241	-6.847885e-11	6.192231e-11	0.007196376	0.009469085	-3.884189e-11	1.694042e-10
	-6.847885e-11	6.192231e-11	-0.002575014	-0.02495647	-1.354649e-11	3.754989e-11	0.007073093	0.009580718
	0.007196376	0.009469085	-1.354649e-11	3.754989e-11	-0.001230911	-0.02595751	-7.961033e-11	6.92088e-11
	-3.884189e-11	1.694042e-10	0.007073093	0.009580718	-7.961033e-11	6.92088e-11	-0.002638407	-0.02493587
1.6e+08	-0.003686568	-0.02669034	-7.352238e-11	7.048923e-11	0.007965226	0.009645264	-4.227171e-11	1.849738e-10
	-7.352238e-11	7.048923e-11	-0.004486407	-0.02622606	-1.489075e-11	4.060205e-11	0.007834051	0.009768223
	0.007965226	0.009645264	-1.489075e-11	4.060205e-11	-0.003145232	-0.02734386	-8.562086e-11	7.930157e-11
	-4.227171e-11	1.849738e-10	0.007834051	0.009768223	-8.562086e-11	7.930157e-11	-0.0045626	-0.02620198
1.7e+08	-0.005659501	-0.02789938	-7.856869e-11	7.986797e-11	0.008739724	0.009749235	-4.550535e-11	2.013187e-10
	-7.856869e-11	7.986797e-11	-0.006509308	-0.02733978	-1.654024e-11	4.38839e-11	0.008600071	0.009886947
	0.008739724	0.009749235	-1.654024e-11	4.38839e-11	-0.005172819	-0.02857609	-9.16067e-11	9.034304e-11
	-4.550535e-11	2.013187e-10	0.008600071	0.009886947	-9.16067e-11	9.034304e-11	-0.006598782	-0.0273106
1.8e+08	-0.007732385	-0.028951	-8.353062e-11	9.004265e-11	0.009513337	0.009781091	-4.845314e-11	2.184227e-10
	-8.353062e-11	9.004265e-11	-0.00862883	-0.02828906	-1.848152e-11	4.740145e-11	0.009365001	0.009936831
	0.009513337	0.009781091	-1.848152e-11	4.740145e-11	-0.007299731	-0.02964619	-9.746707e-11	1.023136e-10
	-4.845314e-11	2.184227e-10	0.009365001	0.009936831	-9.746707e-11	1.023136e-10	-0.008731872	-0.02825313
1.9e+08	-0.00989104	-0.02983791	-8.832658e-11	1.009962e-10	0.01027953	0.009741492	-5.102939e-11	2.362644e-10
	-8.832658e-11	1.009962e-10	-0.01082981	-0.02906669	-2.070471e-11	5.116634e-11	0.01012272	0.009918365
	0.01027953	0.009741492	-2.070471e-11	5.116634e-11	-0.009511706	-0.03054726	-1.031072e-10	1.151919e-10
	-5.102939e-11	2.362644e-10	0.01012272	0.009918365	-1.031072e-10	1.151919e-10	-0.01094653	-0.02902239
2e+08	-0.0121214	-0.0305542	-9.287838e-11	1.12708e-10	0.01104712	0.009615972	-5.315118e-11	2.548133e-10
	-9.287838e-11	1.12708e-10	-0.01309686	-0.02966686	-2.319942e-11	5.519471e-11	0.01086717	0.009832578
	0.01104712	0.009615972	-2.319942e-11	5.519471e-11	-0.01179459	-0.03127374	-1.084386e-10	1.289502e-10
	-5.315118e-11	2.548133e-10	0.01086717	0.009832578	-1.084386e-10	1.289502e-10	-0.0132272	-0.02961261
2.1e+08	-0.01440846	-0.03109479	-9.711208e-11	1.251547e-10	0.0117936	0.009420487	-5.474058e-11	2.740386e-10
	-9.711208e-11	1.251547e-10	-0.0154144	-0.03008508	-2.595855e-11	5.95056e-11	0.01159243	0.009681025
	0.0117936	0.009420487	-2.595855e-11	5.95056e-11	-0.01413329	-0.03182083	-1.133729e-10	1.435611e-10
	-5.474058e-11	2.740386e-10	0.01159243	0.009681025	-1.133729e-10	1.435611e-10	-0.01555815	-0.03001934
2.2e+08	-0.01673733	-0.03145602	-1.009564e-10	1.383087e-10	0.01251194	0.00915835	-5.572185e-11	2.93902e-10
	-1.009564e-10	1.383087e-10	-0.01776676	-0.0303182	-2.897241e-11	6.412118e-11	0.01229274	0.00946578
	0.01251194	0.00915835	-2.897241e-11	6.412118e-11	-0.01651282	-0.03218508	-1.178265e-10	1.589898e-10
	-5.572185e-11	2.93902e-10	0.01229274	0.00946578	-1.178265e-10	1.589898e-10	-0.01792356	-0.03023946
2.3e+08	-0.01909305	-0.03163541	-1.043428e-10	1.52138e-10	0.01319631	0.008832468	-5.602302e-11	3.143578e-10
	-1.043428e-10	1.52138e-10	-0.02013821	-0.03036435	-3.22293e-11	6.906605e-11	0.01296258	0.00918941
	0.01319631	0.008832468	-3.22293e-11	6.906605e-11	-0.01891814	-0.03236424	-1.21719e-10	1.751959e-10
	-5.602302e-11	3.143578e-10	0.01296258	0.00918941	-1.21719e-10	1.751959e-10	-0.02030758	-0.03027118
2.4e+08	-0.02146063	-0.03163171	-1.072056e-10	1.666057e-10	0.01384119	0.008446235	-5.557648e-11	3.353542e-10
	-1.072056e-10	1.666057e-10	-0.02251306	-0.03022298	-3.571519e-11	7.43663e-11	0.01359664	0.008854957
	0.01384119	0.008446235	-3.571519e-11	7.43663e-11	-0.02133417	-0.03235724	-1.249741e-10	1.921328e-10
	-5.557648e-11	3.353542e-10	0.01359664	0.008854957	-1.249741e-10	1.921328e-10	-0.0226944	-0.03011401
2.5e+08	-0.02382514	-0.03144488	-1.094823e-10	1.816705e-10	0.01444136	0.008003519	-5.431923e-11	3.568335e-10
	-1.094823e-10	1.816705e-10	-0.02487578	-0.02989481	-3.941287e-11	8.004958e-11	0.01418995	0.008465912
	0.01444136	0.008003519	-3.941287e-11	8.004958e-11	-0.02374591	-0.03216419	-1.275189e-10	2.097486e-10
	-5.431923e-11	3.568335e-10	0.01418995	0.008465912	-1.275189e-10	2.097486e-10	-0.02506835	-0.02976873
2.6e+08	-0.02617178	-0.03107604	-1.111694e-10	1.973128e-10	0.01499199	0.007508625	-5.21928e-11	3.787325e-10
	-1.111694e-10	1.973128e-10	-0.02721104	-0.02938182	-4.340798e-11	8.612971e-11	0.01473784	0.008026187
	0.01499199	0.007508625	-4.340798e-11	8.612971e-11	-0.02613847	-0.03178637	-1.292828e-10	2.279861e-10
	-5.21928e-11	3.787325e-10	0.01473784	0.008026187	-1.292828e-10	2.279861e-10	-0.02741399	-0.02923739
2.7e+08	-0.02848597	-0.03052751	-1.121615e-10	2.134702e-10	0.01548862	0.006966265	-4.914541e-11	4.009823e-10
	-1.121615e-10	2.134702e-10	-0.0295038	-0.02868721	-4.759093e-11	9.265887e-11	0.01523604	0.007540082
	0.01548862	0.006966265	-4.759093e-11	9.265887e-11	-0.02849718	-0.03122623	-1.302037e-10	2.467815e-10
	-4.914541e-11	4.009823e-10	0.01523604	0.007540082	-1.302037e-10	2.467815e-10	-0.02971618	-0.02852328
2.8e+08	-0.03075343	-0.0298027	-1.123953e-10	2.300838e-10	0.01592724	0.006381515	-4.51312e-11	4.235093e-10
	-1.123953e-10	2.300838e-10	-0.03173942	-0.02781537	-5.191463e-11	9.966928e-11	0.01568066	0.007012251
	0.01592724	0.006381515	-5.191463e-11	9.966928e-11	-0.03080771	-0.03048734	-1.302233e-10	2.660659e-10
	-4.51312e-11	4.235093e-10	0.01568066	0.007012251	-1.302233e-10	2.660659e-10	-0.0319602	-0.02763089
2.9e+08	-0.03296028	-0.02890619	-1.118211e-10	2.47094e-10	0.01630433	0.005759783	-4.011059e-11	4.462358e-10
	-1.118211e-10	2.47094e-10	-0.03390375	-0.02677187	-5.634526e-11	1.071889e-10	0.01606824	0.006447664
	0.01630433	0.005759783	-5.634526e-11	1.071889e-10	-0.03305606	-0.02957437	-1.292888e-10	2.857659e-10
	-4.011059e-11	4.462358e-10	0.01606824	0.006447664	-1.292888e-10	2.857659e-10	-0.03413177	-0.02656584
3e+08	-0.03509307	-0.02784359	-1.10394e-10	2.644367e-10	0.01661683	0.005106761	-3.405075e-11	4.6908e-10
	-1.10394e-10	2.644367e-10	-0.03598318	-0.02556336	-6.08445e-11	1.152443e-10	0.01639577	0.005851571
	0.01661683	0.005106761	-6.08445e-11	1.152443e-10	-0.03522874	-0.02849308	-1.273529e-10	3.058034e-10
	-3.405075e-11	4.6908e-10	0.01639577	0.005851571	-1.273529e-10	3.058034e-10	-0.03621723	-0.02533493
3.1e+08	-0.03713893	-0.02662154	-1.080741e-10	2.820436e-10	0.01686221	0.004428384	-2.692621e-11	4.919572e-10
	-1.080741e-10	2.820436e-10	-0.03796477	-0.02419756	-6.537004e-11	1.238594e-10	0.01666074	0.005229458
	0.01686221	0.004428384	-6.537004e-11	1.238594e-10	-0.03731277	-0.02725022	-1.243749e-10	3.26096e-10
	-2.692621e-11	4.919572e-10	0.01666074	0.005229458	-1.243749e-10	3.26096e-10	-0.03820354	-0.02394594
3.2e+08	-0.03908556	-0.02524768	-1.048269e-10	2.998428e-10	0.01703848	0.003730782	-1.871884e-11	5.147798e-10
	-1.048269e-10	2.998428e-10	-0.03983628	-0.02268316	-6.987512e-11	1.330557e-10	0.0168611	0.004587004
	0.01703848	0.003730782	-6.987512e-11	1.330557e-10	-0.03929581	-0.02585355	-1.203209e-10	3.465578e-10
	-1.871884e-11	5.147798e-10	0.0168611	0.004587004	-1.203209e-10	3.465578e-10	-0.04007839	-0.02240772
3.3e+08	-0.04092139	-0.02373057	-1.006234e-10	3.177587e-10	0.01714419	0.003020231	-9.418161e-12	5.374581e-10
	-1.006234e-10	3.177587e-10	-0.04158626	-0.02102982	-7.430875e-11	1.428507e-10	0.01699533	0.003930038
	0.01714419	0.003020231	-7.430875e-11	1.428507e-10	-0.04116618	-0.02431176	-1.151637e-10	3.670992e-10
	-9.418161e-12	5.374581e-10	0.01699533	0.003930038	-1.151637e-10	3.670992e-10	-0.04183027	-0.02073003
3.4e+08	-0.04263555	-0.02207962	-9.544142e-11	3.357132e-10	0.01717844	0.002303111	9.7821e-13	5.599011e-10
	-9.544142e-11	3.357132e-10	-0.04320412	-0.01924803	-7.861635e-11	1.53258e-10	0.01706241	0.003264497
	0.01717844	0.002303111	-7.861635e-11	1.53258e-10	-0.04291297	-0.02263437	-1.088837e-10	3.876282e-10
	9.7821e-13	5.599011e-10	0.01706241	0.003264497	-1.088837e-10	3.876282e-10	-0.04344855	-0.01892347
3.5e+08	-0.04421801	-0.02030505	-8.926463e-11	3.536253e-10	0.01714092	0.001585848	1.246469e-11	5.820171e-10
	-8.926463e-11	3.536253e-10	-0.04468019	-0.01734907	-8.273967e-11	1.64286e-10	0.01706187	0.002596377
	0.01714092	0.001585848	-8.273967e-11	1.64286e-10	-0.04452608	-0.02083174	-1.014691e-10	4.080504e-10
	1.246469e-11	5.820171e-10	0.01706187	0.002596377	-1.014691e-10	4.080504e-10	-0.04492351	-0.01699949
3.6e+08	-0.04565961	-0.01841784	-8.208368e-11	3.714125e-10	0.01703187	0.0008748718	2.502742e-11	6.037142e-10
	-8.208368e-11	3.714125e-10	-0.04600577	-0.01534494	-8.661754e-11	1.759379e-10	0.01699373	0.001931689
	0.01703187	0.0008748718	-8.661754e-11	1.759379e-10	-0.04599627	-0.01891495	-9.291587e-11	4.2827e-10
	2.502742e-11	6.037142e-10	0.01699373	0.001931689	-9.291587e-11	4.2827e-10	-0.04624642	-0.0149702
3.7e+08	-0.04695208	-0.01642958	-7.389595e-11	3.889907e-10	0.01685209	0.0001765641	3.864437e-11	6.249015e-10
	-7.389595e-11	3.889907e-10	-0.04717318	-0.01324826	-9.018622e-11	1.882107e-10	0.01685856	0.001276413
	0.01685209	0.0001765641	-9.018622e-11	1.882107e-10	-0.04731522	-0.01689575	-8.322788e-11	4.481902e-10
	3.864437e-11	6.249015e-10	0.01685856	0.001276413	-8.322788e-11	4.481902e-10	-0.04740957	-0.01284837
3.8e+08	-0.04808813	-0.0143525	-6.470582e-11	4.062748e-10	0.01660296	-0.0005027897	5.328533e-11	6.454891e-10
	-6.470582e-11	4.062748e-10	-0.04817579	-0.0110722	-9.338012e-11	2.010947e-10	0.01665743	0.0006364569
	0.01660296	-0.0005027897	-9.338012e-11	2.010947e-10	-0.04847558	-0.01478647	-7.241734e-11	4.677137e-10
	5.328533e-11	6.454891e-10	0.01665743	0.0006364569	-7.241734e-11	4.677137e-10	-0.04840635	-0.0106473
3.9e+08	-0.04906145	-0.01219933	-5.452481e-11	4.231796e-10	0.01628637	-0.001157048	6.891195e-11	6.653894e-10
	-5.452481e-11	4.231796e-10	-0.04900808	-0.008830379	-9.613252e-11	2.145734e-10	0.01639194	1.760721e-05
	0.01628637	-0.001157048	-9.613252e-11	2.145734e-10	-0.04947101	-0.01259998	-6.050471e-11	4.867437e-10
	6.891195e-11	6.653894e-10	0.01639194	1.76072e-05	-6.050471e-11	4.867437e-10	-0.04923123	-0.008380762
4e+08	-0.04986679	-0.009983201	-4.33716e-11	4.396199e-10	0.01590476	-0.001780259	8.547801e-11	6.845178e-10
	-4.33716e-11	4.396199e-10	-0.04966565	-0.006536782	-9.837632e-11	2.286225e-10	0.01606417	-0.00057451
	0.01590476	-0.001780259	-9.837632e-11	2.286225e-10	-0.0502962	-0.01034956	-4.75187e-11	5.051843e-10
	8.547801e-11	6.845178e-10	0.01606417	-0.00057451	-4.75187e-11	5.051843e-10	-0.04987983	-0.00606288
4.1e+08	-0.05049993	-0.007717631	-3.127219e-11	4.555115e-10	0.01546111	-0.002366707	1.029295e-10	7.02793e-10
	-3.127219e-11	4.555115e-10	-0.05014524	-0.004205667	-1.000451e-10	2.432104e-10	0.01567669	-0.001134472
	0.01546111	-0.002366707	-1.000451e-10	2.432104e-10	-0.0509469	-0.008048843	-3.349639e-11	5.229413e-10
	1.029295e-10	7.02793e-10	0.01567669	-0.001134472	-3.349639e-11	5.229413e-10	-0.05034893	-0.003708057
4.2e+08	-0.05095777	-0.005416386	-1.825978e-11	4.707716e-10	0.01495884	-0.002910954	1.21205e-10	7.201382e-10
	-1.825978e-11	4.707716e-10	-0.05044475	-0.001851485	-1.010738e-10	2.582976e-10	0.01523252	-0.001657101
	0.01495884	-0.002910954	-1.010738e-10	2.582976e-10	-0.05141996	-0.005711751	-1.848307e-11	5.399229e-10
	1.21205e-10	7.201382e-10	0.01523252	-0.001657101	-1.848307e-11	5.399229e-10	-0.05063649	-0.001330877
4.3e+08	-0.05123825	-0.003093419	-4.374756e-12	4.853193e-10	0.01440187	-0.003407881	1.40236e-10	7.364814e-10
	-4.374756e-12	4.853193e-10	-0.05056327	0.0005112325	-1.014e-10	2.738366e-10	0.01473513	-0.002137497
	0.01440187	-0.003407881	-1.014e-10	2.738366e-10	-0.05171331	-0.003352369	-2.532131e-12	5.560405e-10
	1.40236e-10	7.364814e-10	0.01473513	-0.002137497	-2.532131e-12	5.560405e-10	-0.05074164	0.001053992
4.4e+08	-0.05134047	-0.0007627788	1.033542e-11	4.990763e-10	0.01379454	-0.003852726	1.599474e-10	7.51756e-10
	1.033542e-11	4.990763e-10	-0.05050103	0.002867947	-1.009646e-10	2.897724e-10	0.01418839	-0.002571081
	0.01379454	-0.003852726	-1.009646e-10	2.897724e-10	-0.05182603	-0.0009848924	1.429519e-11	5.71209e-10
	1.599474e-10	7.51756e-10	0.01418839	-0.002571081	1.429519e-11	5.71209e-10	-0.05066468	0.003431882
4.5e+08	-0.05126459	0.001561475	2.581633e-11	5.119674e-10	0.01314159	-0.004241122	1.802578e-10	7.659018e-10
	2.581633e-11	5.119674e-10	-0.05025942	0.005204218	-9.971291e-11	3.060421e-10	0.01359657	-0.002953624
	0.01314159	-0.004241122	-9.971291e-11	3.060421e-10	-0.05175827	0.001376477	3.192992e-11	5.853477e-10
	1.802578e-10	7.659018e-10	0.01359657	-0.002953624	3.192992e-11	5.853477e-10	-0.05040711	0.005788232
4.6e+08	-0.05101191	0.003865355	4.200752e-11	5.239208e-10	0.01244815	-0.004569129	2.010802e-10	7.788638e-10
	4.200752e-11	5.239208e-10	-0.04984101	0.007505787	-9.760857e-11	3.226068e-10	0.01296428	-0.00328128
	0.01244815	-0.004569129	-9.760857e-11	3.226068e-10	-0.05151133	0.003717613	5.031337e-11	5.984089e-10
	2.010802e-10	7.788638e-10	0.01296428	-0.00328128	5.031337e-11	5.984089e-10	-0.04997159	0.008108686
4.7e+08	-0.05058479	0.006135034	5.884168e-11	5.34869e-10	0.01171967	-0.004833265	2.223221e-10	7.905952e-10
	5.884168e-11	5.34869e-10	-0.04924947	0.009758669	-9.461583e-11	3.394313e-10	0.01229645	-0.003550612
	0.01171967	-0.004833265	-9.461583e-11	3.394313e-10	-0.05108757	0.006024552	6.939568e-11	6.103565e-10
	2.223221e-10	7.905952e-10	0.01229645	-0.003550612	6.939568e-11	6.103565e-10	-0.04936187	0.01037914
