!$
! Info: Touchstone file created by Circ.  Input file=Tx_4in_Rx_85ohms_TxVia_35mils_RxVia_45mils.circ
!$
# Hz S RI R 50
0	0.003346483	6.884459e-26	7.733374e-10	3.355984e-28	4.162244e-05	6.197793e-24	2.571405e-09	1.415147e-28
	7.733382e-10	3.354815e-28	0.003344349	7.901023e-26	4.089709e-10	4.898582e-28	4.097861e-05	7.479943e-24
	4.213273e-05	6.284445e-24	4.089705e-10	4.898959e-28	0.00335893	6.691367e-26	7.93756e-10	3.253731e-28
	2.571406e-09	1.415035e-28	3.913183e-05	7.516984e-24	7.937564e-10	3.253352e-28	0.003357562	7.400749e-26
1e+07	0.005092419	-0.003318991	1.048869e-09	1.416779e-09	7.637054e-05	0.0008938125	4.289818e-09	6.769142e-09
	1.048869e-09	1.416779e-09	0.004546669	-0.003400478	6.006563e-10	8.491989e-10	0.000106149	0.0008966447
	7.640033e-05	0.0008938074	6.006562e-10	8.491989e-10	0.004572892	-0.003463458	1.096396e-09	1.474303e-09
	4.289818e-09	6.769142e-09	0.0001060892	0.000896655	1.096396e-09	1.474303e-09	0.004548328	-0.003390152
2e+07	0.005796254	-0.007981039	1.574052e-09	2.436597e-09	0.0001946336	0.00178132	6.923107e-09	1.151506e-08
	1.574052e-09	2.436597e-09	0.005283524	-0.007918455	8.080923e-10	1.469656e-09	0.0002382224	0.001761796
	0.0001946347	0.001781298	8.080923e-10	1.469656e-09	0.005262716	-0.008027232	1.657882e-09	2.519398e-09
	6.923107e-09	1.151506e-08	0.0002382146	0.00176183	1.657882e-09	2.519398e-09	0.005288169	-0.007894042
3e+07	0.005744311	-0.01307049	2.169143e-09	3.346755e-09	0.0004114821	0.002630448	9.980488e-09	1.573546e-08
	2.169143e-09	3.346755e-09	0.005246711	-0.01295521	9.993132e-10	2.052738e-09	0.0004384564	0.002605077
	0.0004114759	0.002630446	9.993132e-10	2.052738e-09	0.005200692	-0.01307802	2.290141e-09	3.447994e-09
	9.980488e-09	1.573546e-08	0.0004384564	0.002605082	2.290141e-09	3.447994e-09	0.005253267	-0.01292007
4e+07	0.005083711	-0.01826734	2.876974e-09	4.149817e-09	0.0006973067	0.00344924	1.365651e-08	1.941325e-08
	2.876974e-09	4.149817e-09	0.004588722	-0.01811545	1.202171e-09	2.606756e-09	0.0007063163	0.003422698
	0.0006973073	0.003449244	1.202171e-09	2.606756e-09	0.004533211	-0.01824369	3.042505e-09	4.262616e-09
	1.365651e-08	1.941325e-08	0.0007063109	0.003422696	3.042505e-09	4.262616e-09	0.004596371	-0.01807059
5e+07	0.003874029	-0.0234601	3.688844e-09	4.833554e-09	0.001049855	0.004233505	1.79052e-08	2.247578e-08
	3.688844e-09	4.833554e-09	0.003370944	-0.02327651	1.417547e-09	3.129537e-09	0.001039327	0.004209254
	0.001049858	0.004233507	1.417547e-09	3.129537e-09	0.003319239	-0.02340733	3.906196e-09	4.950016e-09
	1.79052e-08	2.247578e-08	0.001039323	0.004209253	3.906196e-09	4.950016e-09	0.00337884	-0.02322246
6e+07	0.00215195	-0.02857602	4.591329e-09	5.391609e-09	0.001465839	0.004978192	2.265532e-08	2.487888e-08
	4.591329e-09	5.391609e-09	0.001631551	-0.02836118	1.643106e-09	3.622018e-09	0.001434255	0.004959424
	0.001465837	0.004978191	1.643106e-09	3.622018e-09	0.001595175	-0.0284946	4.86694e-09	5.503209e-09
	2.265532e-08	2.487888e-08	0.001434257	0.004959423	4.86694e-09	5.503209e-09	0.001638849	-0.02829824
7e+07	-5.340066e-05	-0.03355821	5.572414e-09	5.817913e-09	0.001941372	0.005678203	2.783798e-08	2.658229e-08
	5.572414e-09	5.817913e-09	-0.000599272	-0.03331028	1.87729e-09	4.085096e-09	0.001887379	0.005668112
	0.001941366	0.005678203	1.87729e-09	4.085096e-09	-0.0006099725	-0.03344787	5.911833e-09	5.915618e-09
	2.783798e-08	2.658229e-08	0.001887387	0.005668108	5.911833e-09	5.915618e-09	-0.0005934389	-0.03323856
8e+07	-0.002715188	-0.03835835	6.619865e-09	6.10547e-09	0.00247205	0.00632863	3.338181e-08	2.754311e-08
	6.619865e-09	6.10547e-09	-0.003293915	-0.03807395	2.118535e-09	4.518991e-09	0.002394528	0.006330547
	0.002472042	0.006328632	2.118535e-09	4.518991e-09	-0.003269317	-0.03821814	7.02776e-09	6.179721e-09
	3.338181e-08	2.754311e-08	0.002394537	0.00633054	7.02776e-09	6.179722e-09	-0.003290455	-0.03799339
9e+07	-0.005806621	-0.04293377	7.720419e-09	6.24661e-09	0.003052985	0.006924939	3.92081e-08	2.771835e-08
	7.720419e-09	6.24661e-09	-0.006424932	-0.04260844	2.364923e-09	4.923324e-09	0.002951134	0.006942479
	0.00305298	0.006924942	2.364923e-09	4.923324e-09	-0.006355699	-0.04276172	8.20056e-09	6.287269e-09
	3.92081e-08	2.771835e-08	0.002951141	0.006942474	8.200561e-09	6.287269e-09	-0.006424778	-0.04251884
1e+08	-0.009300017	-0.04724644	8.86063e-09	6.23324e-09	0.003679066	0.007463534	4.522972e-08	2.706912e-08
	8.86063e-09	6.23324e-09	-0.00996446	-0.04687602	2.613559e-09	5.297651e-09	0.003552759	0.007501336
	0.003679065	0.007463534	2.613559e-09	5.297651e-09	-0.009839193	-0.04703572	9.416074e-09	6.229341e-09
	4.522972e-08	2.706912e-08	0.003552759	0.007501336	9.416074e-09	6.229341e-09	-0.009968596	-0.04677711
1.1e+08	-0.01316592	-0.05126841	1.001934e-08	6.06799e-09	0.004345712	0.007938947	5.133141e-08	2.557833e-08
	1.001934e-08	6.06799e-09	-0.01388436	-0.05084138	2.857913e-09	5.638412e-09	0.004198234	0.007998574
	0.004345712	0.007938946	2.857913e-09	5.638412e-09	-0.01367455	-0.05102863	1.065308e-08	6.009279e-09
	5.133141e-08	2.557833e-08	0.004198234	0.007998574	1.065308e-08	6.009279e-09	-0.01389302	-0.05073174
1.2e+08	-0.01737531	-0.05495797	1.117581e-08	5.746923e-09	0.005044691	0.008347977	5.742422e-08	2.324419e-08
	1.117581e-08	5.746923e-09	-0.01814956	-0.05446448	3.098299e-09	5.949144e-09	0.004875065	0.008431005
	0.005044691	0.008347977	3.098299e-09	5.949144e-09	-0.01785751	-0.05470006	1.188712e-08	5.622687e-09
	5.742422e-08	2.324419e-08	0.004875065	0.008431005	1.188712e-08	5.622687e-09	-0.01816349	-0.05434369
1.3e+08	-0.02189441	-0.05828843	1.231457e-08	5.267979e-09	0.005769881	0.008688787	6.341504e-08	2.006176e-08
	1.231457e-08	5.267979e-09	-0.02272585	-0.05771931	3.331361e-09	6.230544e-09	0.005577812	0.00879791
	0.005769881	0.008688787	3.331361e-09	6.230544e-09	-0.02235259	-0.05801719	1.310193e-08	5.067154e-09
	6.341504e-08	2.006176e-08	0.005577812	0.00879791	1.310193e-08	5.067154e-09	-0.02274584	-0.05758668
1.4e+08	-0.02668846	-0.06123621	1.341835e-08	4.631116e-09	0.006514765	0.00895963	6.920807e-08	1.603544e-08
	1.341835e-08	4.631116e-09	-0.02757741	-0.06058197	3.554051e-09	6.483294e-09	0.006300407	0.009097819
	0.006514764	0.00895963	3.554051e-09	6.483294e-09	-0.02712463	-0.06095473	1.42791e-08	4.342662e-09
	6.920807e-08	1.603544e-08	0.006300407	0.009097819	1.42791e-08	4.342662e-09	-0.02760413	-0.06043653
1.5e+08	-0.03172183	-0.06378093	1.446934e-08	3.838079e-09	0.007272677	0.009159332	7.470655e-08	1.117963e-08
	1.446934e-08	3.838079e-09	-0.03266737	-0.06303186	3.763282e-09	6.708348e-09	0.007036606	0.009329671
	0.007272677	0.009159331	3.763282e-09	6.708348e-09	-0.0321377	-0.06349138	1.53996e-08	3.451139e-09
	7.470655e-08	1.117963e-08	0.007036606	0.009329671	1.53996e-08	3.451139e-09	-0.03270125	-0.06287245
1.6e+08	-0.03695806	-0.06590541	1.544949e-08	2.892533e-09	0.008036899	0.009287337	7.981426e-08	5.519103e-09
	1.544949e-08	2.892533e-09	-0.03795796	-0.06505177	3.955964e-09	6.906981e-09	0.007780094	0.009492937
	0.008036898	0.009287337	3.955964e-09	6.906981e-09	-0.03735512	-0.06560939	1.644417e-08	2.396558e-09
	7.981426e-08	5.519103e-09	0.007780094	0.009492937	1.644417e-08	2.396558e-09	-0.03799922	-0.06487709
1.7e+08	-0.04235998	-0.06759569	1.634083e-08	1.800131e-09	0.008800723	0.009343719	8.443689e-08	-9.109014e-10
	1.634083e-08	1.800131e-09	-0.04341071	-0.06662786	4.12906e-09	7.080817e-09	0.00852456	0.009587652
	0.008800723	0.009343719	4.12906e-09	7.080817e-09	-0.04273952	-0.06729441	1.739363e-08	1.185006e-09
	8.443689e-08	-9.109014e-10	0.00852456	0.009587652	1.739363e-08	1.185006e-09	-0.04345933	-0.06643659
1.8e+08	-0.04788988	-0.06884097	1.712572e-08	5.685397e-10	0.009557523	0.009329169	8.848338e-08	-8.064891e-09
	1.712572e-08	5.685397e-10	-0.04898668	-0.06774966	4.279645e-09	7.231836e-09	0.009263761	0.009614416
	0.009557523	0.009329169	4.279645e-09	7.231836e-09	-0.04825306	-0.06853535	1.822918e-08	-1.752929e-10
	8.848338e-08	-8.064891e-09	0.009263762	0.009614416	1.822918e-08	-1.752929e-10	-0.04904243	-0.06754045
1.9e+08	-0.05350974	-0.06963366	1.778714e-08	-7.925805e-10	0.01030081	0.009244979	9.186714e-08	-1.588749e-08
	1.778714e-08	-7.925805e-10	-0.05464661	-0.06841	4.404955e-09	7.362363e-09	0.009991581	0.009574384
	0.01030081	0.009244979	4.404955e-09	7.362363e-09	-0.05385757	-0.06932442	1.893269e-08	-1.674001e-09
	9.186714e-08	-1.588749e-08	0.009991581	0.009574383	1.893269e-08	-1.674001e-09	-0.05470907	-0.06818156
2e+08	-0.05918138	-0.0699693	1.830891e-08	-2.271628e-09	0.0110243	0.009093023	9.450714e-08	-2.431398e-08
	1.830891e-08	-2.271628e-09	-0.06035123	-0.06860504	4.502442e-09	7.475048e-09	0.01070208	0.009469248
	0.0110243	0.009093023	4.502442e-09	7.475048e-09	-0.05951478	-0.06965703	1.948692e-08	-3.298721e-09
	9.450714e-08	-2.431398e-08	0.01070208	0.009469248	1.948692e-08	-3.298721e-09	-0.06041978	-0.0683561
2.1e+08	-0.06486672	-0.06984663	1.867591e-08	-3.855143e-09	0.01172194	0.008875726	9.632891e-08	-3.327092e-08
	1.867591e-08	-3.855143e-09	-0.06606139	-0.0683342	4.569814e-09	7.57285e-09	0.01138953	0.009301212
	0.01172194	0.008875726	4.569814e-09	7.57285e-09	-0.06518653	-0.06953177	1.987579e-08	-5.035092e-09
	9.632891e-08	-3.327092e-08	0.01138953	0.009301212	1.987579e-08	-5.035092e-09	-0.06613527	-0.06806358
2.2e+08	-0.07052799	-0.06926746	1.887434e-08	-5.527917e-09	0.01238797	0.008596034	9.726543e-08	-4.267694e-08
	1.887434e-08	-5.527917e-09	-0.07173838	-0.06760008	4.605072e-09	7.659001e-09	0.0120485	0.009072964
	0.01238797	0.008596034	4.605072e-09	7.659001e-09	-0.07083496	-0.06895033	2.008461e-08	-6.8669e-09
	9.726543e-08	-4.267694e-08	0.0120485	0.009072964	2.008461e-08	-6.8669e-09	-0.07181668	-0.0673067
2.3e+08	-0.07612796	-0.06823663	1.88919e-08	-7.273124e-09	0.01301698	0.008257376	9.725789e-08	-5.244348e-08
	1.88919e-08	-7.273124e-09	-0.07734408	-0.06640843	4.606549e-09	7.73698e-09	0.01267383	0.00878764
	0.01301698	0.008257376	4.606549e-09	7.73698e-09	-0.07642278	-0.06791748	2.010027e-08	-8.776223e-09
	9.725789e-08	-5.244348e-08	0.01267383	0.00878764	2.010027e-08	-8.776223e-09	-0.07742576	-0.0660913
2.4e+08	-0.08163018	-0.06676196	1.871796e-08	-9.07248e-09	0.0136039	0.007863626	9.625642e-08	-6.247572e-08
	1.871796e-08	-9.07248e-09	-0.08284126	-0.06476806	4.572935e-09	7.810472e-09	0.01326074	0.008448793
	0.0136039	0.007863626	4.572935e-09	7.810472e-09	-0.08191348	-0.06644095	1.991147e-08	-1.074359e-08
	9.625642e-08	-6.247572e-08	0.01326074	0.008448793	1.991147e-08	-1.074359e-08	-0.08292516	-0.06442628
2.5e+08	-0.08699916	-0.06485414	1.834373e-08	-1.090641e-08	0.01414411	0.007419067	9.422061e-08	-7.267348e-08
	1.834373e-08	-1.090641e-08	-0.08819375	-0.0626907	4.503303e-09	7.883332e-09	0.01380479	0.008060351
	0.01414411	0.007419067	4.503303e-09	7.883332e-09	-0.08727149	-0.06453134	1.950883e-08	-1.274819e-08
	9.422061e-08	-7.267348e-08	0.01380479	0.008060351	1.950883e-08	-1.274819e-08	-0.08827862	-0.0623235
2.6e+08	-0.09220061	-0.06252659	1.776242e-08	-1.275424e-08	0.01463338	0.00692834	9.112004e-08	-8.293217e-08
	1.776242e-08	-1.275424e-08	-0.09336669	-0.06019092	4.397129e-09	7.959542e-09	0.01430196	0.007626583
	0.01463338	0.00692834	4.397129e-09	7.959542e-09	-0.09246246	-0.06220202	1.888513e-08	-1.476801e-08
	9.112004e-08	-8.293217e-08	0.01430196	0.007626583	1.888513e-08	-1.476801e-08	-0.09345117	-0.05979765
2.7e+08	-0.09720162	-0.05979541	1.696937e-08	-1.459441e-08	0.01506797	0.006396405	8.693462e-08	-9.314375e-08
	1.696937e-08	-1.459441e-08	-0.0983267	-0.05728598	4.254311e-09	8.04317e-09	0.01474863	0.00715205
	0.01506797	0.006396405	4.254311e-09	8.04317e-09	-0.09745341	-0.05946902	1.803536e-08	-1.678015e-08
	8.693462e-08	-9.314375e-08	0.01474863	0.00715205	1.803536e-08	-1.678015e-08	-0.09840936	-0.05686613
2.8e+08	-0.1019708	-0.05667914	1.596212e-08	-1.640469e-08	0.01544458	0.005828498	8.165492e-08	-1.031978e-07
	1.596212e-08	-1.640469e-08	-0.1030421	-0.0539957	4.075174e-09	8.138321e-09	0.01514164	0.006641573
	0.01544458	0.005828498	4.075174e-09	8.138321e-09	-0.1022129	-0.05635085	1.695688e-08	-1.876095e-08
	8.165492e-08	-1.031978e-07	0.01514164	0.006641573	1.695688e-08	-1.876095e-08	-0.1031214	-0.05354887
2.9e+08	-0.1064787	-0.05319872	1.474054e-08	-1.81624e-08	0.01576045	0.005230081	7.528233e-08	-1.129824e-07
	1.474054e-08	-1.81624e-08	-0.1074831	-0.05034225	3.860479e-09	8.249098e-09	0.01547825	0.006100186
	0.01576045	0.005230081	3.860479e-09	8.249098e-09	-0.1067113	-0.05286839	1.564947e-08	-2.068631e-08
	7.528233e-08	-1.129824e-07	0.01547825	0.006100186	1.564947e-08	-2.068631e-08	-0.1075575	-0.04986821
3e+08	-0.1106975	-0.04937722	1.330683e-08	-1.984468e-08	0.01601328	0.004606797	6.782921e-08	-1.223854e-07
	1.330683e-08	-1.984468e-08	-0.1116218	-0.04635006	3.611426e-09	8.379548e-09	0.01575621	0.005533097
	0.01601328	0.004606797	3.611426e-09	8.379548e-09	-0.1109209	-0.0490447	1.411541e-08	-2.25319e-08
	6.782921e-08	-1.223854e-07	0.01575621	0.005533097	1.411541e-08	-2.25319e-08	-0.1116897	-0.04584871
3.1e+08	-0.1146016	-0.04523977	1.166558e-08	-2.142869e-08	0.0162013	0.003964432	5.931886e-08	-1.312952e-07
	1.166558e-08	-2.142869e-08	-0.1154327	-0.04204556	3.329642e-09	8.533618e-09	0.01597372	0.004945648
	0.0162013	0.003964432	3.329642e-09	8.533618e-09	-0.1148158	-0.04490489	1.235951e-08	-2.427346e-08
	5.931886e-08	-1.312952e-07	0.01597372	0.004945648	1.235951e-08	-2.427346e-08	-0.1154925	-0.04151696
3.2e+08	-0.1181675	-0.04081332	9.82378e-09	-2.289191e-08	0.01632324	0.003308864	4.978548e-08	-1.396016e-07
	9.82378e-09	-2.289191e-08	-0.1188924	-0.03745703	3.01718e-09	8.715114e-09	0.01612945	0.004343274
	0.01632324	0.003308864	3.01718e-09	8.715114e-09	-0.1183726	-0.04047589	1.038911e-08	-2.588699e-08
	4.978548e-08	-1.396016e-07	0.01612945	0.004343274	1.038911e-08	-2.588699e-08	-0.1189424	-0.03690141
3.3e+08	-0.1213741	-0.03612647	7.790832e-09	-2.421232e-08	0.01637835	0.002646022	3.927403e-08	-1.471975e-07
	7.790832e-09	-2.421232e-08	-0.1219801	-0.03261442	2.676501e-09	8.927646e-09	0.01622253	0.003731466
	0.01637835	0.002646022	2.676501e-09	8.927646e-09	-0.1215701	-0.03578632	8.214083e-09	-2.734906e-08
	3.927403e-08	-1.471975e-07	0.01622253	0.003731466	8.214083e-09	-2.734906e-08	-0.1220186	-0.03203215
3.4e+08	-0.1242026	-0.03120928	5.561607e-09	-2.537294e-08	0.01636639	0.00198185	2.783234e-08	-1.539733e-07
	5.561607e-09	-2.537294e-08	-0.1246774	-0.02754908	2.310704e-09	9.175138e-09	0.01625256	0.003115733
	0.01636639	0.00198185	2.310704e-09	9.175138e-09	-0.1243893	-0.03086625	5.829776e-09	-2.86412e-08
	2.783234e-08	-1.539733e-07	0.01625256	0.003115733	5.829776e-09	-2.86412e-08	-0.1247029	-0.02694071
3.5e+08	-0.1266367	-0.02609308	3.163718e-09	-2.634866e-08	0.01628761	0.001322257	1.553351e-08	-1.598336e-07
	3.163718e-09	-2.634866e-08	-0.1269686	-0.02229365	1.92289e-09	9.46024e-09	0.0162196	0.002501568
	0.01628761	0.001322257	1.92289e-09	9.46024e-09	-0.126814	-0.02574703	3.2647e-09	-2.9737e-08
	1.553351e-08	-1.598336e-07	0.0162196	0.002501568	3.2647e-09	-2.9737e-08	-0.1269794	-0.02165989
3.6e+08	-0.1286628	-0.02081027	6.158515e-10	-2.711977e-08	0.01614276	0.0006730895	2.454348e-09	-1.646858e-07
	6.158515e-10	-2.711977e-08	-0.1288407	-0.01688176	1.516584e-09	9.785649e-09	0.01612415	0.001894412
	0.01614276	0.0006730895	1.516584e-09	9.785649e-09	-0.1288304	-0.02046111	5.384649e-10	-3.061548e-08
	2.454348e-09	-1.646858e-07	0.01612415	0.001894412	5.384649e-10	-3.061548e-08	-0.1288351	-0.01622348
3.7e+08	-0.1302696	-0.01539414	-2.063733e-09	-2.76688e-08	0.01593308	4.008524e-05	-1.132025e-08	-1.684425e-07
	-2.063733e-09	-2.76688e-08	-0.1302833	-0.01134787	1.095642e-09	1.015379e-08	0.01596717	0.001299622
	0.01593308	4.008524e-05	1.095642e-09	1.015379e-08	-0.1304273	-0.01504178	-2.329644e-09	-3.125796e-08
	-1.132025e-08	-1.684425e-07	0.01596717	0.001299622	-2.329644e-09	-3.125796e-08	-0.1302599	-0.01066611
3.8e+08	-0.1314489	-0.009878608	-4.854896e-09	-2.797997e-08	0.01566026	-0.0005711562	-2.56966e-08	-1.710241e-07
	-4.854896e-09	-2.797997e-08	-0.1312889	-0.005727053	6.641834e-10	1.056672e-08	0.01575003	0.0007224395
	0.01566026	-0.0005711562	6.641834e-10	1.056672e-08	-0.1315962	-0.009523045	-5.318337e-09	-3.164751e-08
	-2.56966e-08	-1.710241e-07	0.01575003	0.0007224395	-5.318337e-09	-3.164751e-08	-0.1312463	-0.005022991
3.9e+08	-0.1321947	-0.004298085	-7.735787e-09	-2.803944e-08	0.01532645	-0.00115521	-4.057289e-08	-1.723584e-07
	-7.735787e-09	-2.803944e-08	-0.1318528	-5.474626e-05	2.265554e-10	1.102606e-08	0.01547453	0.0001679607
	0.01532645	-0.00115521	2.265554e-10	1.102606e-08	-0.1323314	-0.003939348	-8.404493e-09	-3.176924e-08
	-4.057289e-08	-1.723584e-07	0.01547453	0.0001679607	-8.404493e-09	-3.176924e-08	-0.1317896	0.0006702727
4e+08	-0.1325042	0.001312769	-1.068303e-08	-2.78354e-08	0.01493424	-0.001706856	-5.583979e-08	-1.723827e-07
	-1.068303e-08	-2.78354e-08	-0.1319732	0.005633427	-2.127124e-10	1.153304e-08	0.01514285	-0.0003588923
	0.01493424	-0.001706856	-2.127124e-10	1.153304e-08	-0.1326297	0.001674587	-1.156336e-08	-3.161042e-08
	-5.583979e-08	-1.723827e-07	0.01514285	-0.0003588923	-1.156336e-08	-3.161042e-08	-0.1318882	0.006377922
4.1e+08	-0.1323769	0.006919236	-1.367194e-08	-2.735833e-08	0.01448664	-0.002221113	-7.138126e-08	-1.710432e-07
	-1.367194e-08	-2.735833e-08	-0.1316509	0.01130189	-6.489511e-10	1.208842e-08	0.01475758	-0.0008533989
	0.01448664	-0.002221113	-6.489511e-10	1.208842e-08	-0.1324909	0.007283981	-1.476876e-08	-3.116068e-08
	-7.138126e-08	-1.710432e-07	0.01475758	-0.0008533989	-1.476876e-08	-3.116068e-08	-0.131543	0.01206425
4.2e+08	-0.1318153	0.01248674	-1.667674e-08	-2.660106e-08	0.01398705	-0.002693264	-8.707529e-08	-1.682966e-07
	-1.667674e-08	-2.660106e-08	-0.1308896	0.01691532	-1.077398e-09	1.26925e-08	0.01432167	-0.001311066
	0.01398705	-0.002693264	-1.077398e-09	1.26925e-08	-0.1319172	0.01285419	-1.799335e-08	-3.041218e-08
	-8.707529e-08	-1.682966e-07	0.01432167	-0.001311066	-1.799335e-08	-3.041218e-08	-0.1307578	0.0176938
4.3e+08	-0.1308243	0.01798104	-1.967079e-08	-2.55589e-08	0.01343924	-0.003118889	-1.027948e-07	-1.641104e-07
	-1.967079e-08	-2.55589e-08	-0.1296958	0.02243885	-1.493241e-09	1.334513e-08	0.01383842	-0.001727654
	0.01343924	-0.003118889	-1.493241e-09	1.334513e-08	-0.1309137	0.01835091	-2.120882e-08	-2.935966e-08
	-1.027948e-07	-1.641104e-07	0.01383842	-0.001727654	-2.120882e-08	-2.935966e-08	-0.1295393	0.0232316
4.4e+08	-0.1294117	0.02336846	-2.262683e-08	-2.422974e-08	0.01284736	-0.003493886	-1.184085e-07	-1.584631e-07
	-2.262683e-08	-2.422974e-08	-0.1280787	0.02783828	-1.891668e-09	1.404566e-08	0.01331146	-0.002099201
	0.01284736	-0.003493886	-1.891668e-09	1.404566e-08	-0.1294881	0.02374038	-2.438619e-08	-2.80006e-08
	-1.184085e-07	-1.584631e-07	0.01331146	-0.002099201	-2.438619e-08	-2.80006e-08	-0.1278969	0.02864334
4.5e+08	-0.1275878	0.02861602	-2.551727e-08	-2.26141e-08	0.01221585	-0.003814502	-1.337818e-07	-1.51345e-07
	-2.551727e-08	-2.26141e-08	-0.1260502	0.03308027	-2.267913e-09	1.479299e-08	0.01274474	-0.002422043
	0.01221585	-0.003814502	-2.267913e-09	1.479299e-08	-0.1276506	0.02898956	-2.749605e-08	-2.633528e-08
	-1.337818e-07	-1.51345e-07	0.01274474	-0.002422043	-2.749605e-08	-2.633528e-08	-0.1258425	0.03389563
4.6e+08	-0.1253653	0.0336917	-2.831439e-08	-2.071518e-08	0.01154948	-0.004077351	-1.487781e-07	-1.427588e-07
	-2.831439e-08	-2.071518e-08	-0.1236245	0.03813255	-2.617299e-09	1.558557e-08	0.01214251	-0.002692843
	0.01154948	-0.004077351	-2.617299e-09	1.558557e-08	-0.1254142	0.03406635	-3.050886e-08	-2.436678e-08
	-1.487781e-07	-1.427588e-07	0.01214251	-0.002692843	-3.050886e-08	-2.436678e-08	-0.1233906	0.0389561
4.7e+08	-0.1227595	0.03856455	-3.099064e-08	-1.853884e-08	0.0108533	-0.004279444	-1.632593e-07	-1.327192e-07
	-3.099064e-08	-1.853884e-08	-0.1208186	0.04296411	-2.935282e-09	1.642138e-08	0.01150926	-0.002908605
	0.0108533	-0.004279444	-2.935282e-09	1.642138e-08	-0.1227939	0.03893974	-3.33952e-08	-2.210107e-08
	-1.632593e-07	-1.327192e-07	0.01150926	-0.002908605	-3.33952e-08	-2.210107e-08	-0.1205585	0.0437937
4.8e+08	-0.1197879	0.04320494	-3.35189e-08	-1.609364e-08	0.0101326	-0.004418205	-1.770875e-07	-1.212538e-07
