!$
! Info: Touchstone file created by Circ.  Input file=Tx_6in_Rx_93ohms_TxVia_35mils_RxVia_45mils.circ
!$
# Hz S RI R 50
0	0.005609911	9.011382e-26	1.77047e-08	1.24298e-26	5.115966e-05	1.062769e-23	3.445872e-08	2.77477e-27
	1.770472e-08	1.242855e-26	0.005608807	1.042212e-25	3.438441e-08	4.487763e-26	5.158082e-05	1.263117e-23
	4.932335e-05	1.091376e-23	3.438442e-08	4.487797e-26	0.005622511	8.591122e-26	2.101461e-08	1.472743e-26
	3.445872e-08	2.775432e-27	4.97336e-05	1.269351e-23	2.101462e-08	1.47286e-26	0.005621983	9.763592e-26
1e+07	0.008218152	-0.0001455336	2.663905e-08	5.028133e-08	0.000170585	0.00123871	7.619279e-08	1.497852e-07
	2.663905e-08	5.028133e-08	0.008212936	-0.0001458813	5.771796e-08	1.576616e-07	0.0001684331	0.001239258
	0.0001705253	0.001238714	5.771795e-08	1.576616e-07	0.008066215	-0.0001490829	3.143485e-08	6.01372e-08
	7.619279e-08	1.497852e-07	0.0001683731	0.001239268	3.143485e-08	6.01372e-08	0.008060146	-0.0001492196
2e+07	0.009792499	-0.002278341	4.218515e-08	8.962695e-08	0.0003684747	0.002479251	1.443917e-07	2.604806e-07
	4.218514e-08	8.962695e-08	0.00977182	-0.002277311	7.829125e-08	2.871663e-07	0.0003601314	0.002481339
	0.0003684624	0.002479289	7.829125e-08	2.871663e-07	0.009678663	-0.00222687	4.992009e-08	1.070762e-07
	1.443915e-07	2.604806e-07	0.0003601231	0.002481374	4.992009e-08	1.070762e-07	0.009654714	-0.002225065
3e+07	0.01055556	-0.005139347	6.009234e-08	1.248628e-07	0.0007575387	0.003629887	2.320953e-07	3.53155e-07
	6.009234e-08	1.248628e-07	0.01050979	-0.005132889	9.275394e-08	4.125389e-07	0.0007392861	0.003635181
	0.0007575412	0.003629892	9.275394e-08	4.125389e-07	0.01047197	-0.005074757	7.114885e-08	1.491327e-07
	2.320953e-07	3.53155e-07	0.0007392861	0.003635186	7.114885e-08	1.491327e-07	0.0104191	-0.005066268
4e+07	0.01070618	-0.008246687	8.112751e-08	1.559695e-07	0.001313093	0.004698303	3.402667e-07	4.253481e-07
	8.112751e-08	1.559695e-07	0.01062636	-0.008229402	1.05069e-07	5.357265e-07	0.001281565	0.004709099
	0.001313088	0.004698298	1.05069e-07	5.357265e-07	0.01064842	-0.008180536	9.605275e-08	1.863438e-07
	3.402667e-07	4.253481e-07	0.00128156	0.004709097	9.605275e-08	1.863438e-07	0.01055636	-0.008159121
5e+07	0.01032102	-0.01143807	1.047415e-07	1.825149e-07	0.001988563	0.005678144	4.654938e-07	4.736584e-07
	1.047415e-07	1.825149e-07	0.01019913	-0.01140264	1.157879e-07	6.571716e-07	0.001940862	0.005697372
	0.001988559	0.005678143	1.157879e-07	6.571716e-07	0.01028533	-0.01137731	1.240271e-07	2.181707e-07
	4.654938e-07	4.736584e-07	0.001940859	0.005697371	1.240271e-07	2.181707e-07	0.01014491	-0.0113345
6e+07	0.00944704	-0.01461047	1.302062e-07	2.042163e-07	0.002772371	0.00655678	6.036065e-07	4.955883e-07
	1.302062e-07	2.042163e-07	0.009276615	-0.0145481	1.250423e-07	7.774233e-07	0.002706163	0.006587876
	0.002772375	0.00655678	1.250423e-07	7.774233e-07	0.009429767	-0.01456014	1.542001e-07	2.442549e-07
	6.036065e-07	4.955883e-07	0.002706166	0.006587875	1.542001e-07	2.442549e-07	0.009233619	-0.0144858
7e+07	0.008122798	-0.01768511	1.567787e-07	2.208603e-07	0.003650961	0.007322278	7.501966e-07	4.892122e-07
	1.567787e-07	2.208604e-07	0.007898988	-0.01758601	1.329852e-07	8.96946e-07	0.00356453	0.007369085
	0.003650973	0.007322275	1.329852e-07	8.96946e-07	0.008120163	-0.01764918	1.856751e-07	2.643523e-07
	7.501967e-07	4.892122e-07	0.003564538	0.007369081	1.856751e-07	2.643523e-07	0.007862781	-0.01753202
8e+07	0.006385759	-0.02059635	1.836824e-07	2.322839e-07	0.004609135	0.007964088	9.005943e-07	4.531101e-07
	1.836824e-07	2.322839e-07	0.006105307	-0.02044991	1.397799e-07	1.016072e-06	0.004501422	0.008030762
	0.00460915	0.007964081	1.3978e-07	1.016072e-06	0.006393746	-0.02057807	2.175321e-07	2.78293e-07
	9.005943e-07	4.531101e-07	0.004501432	0.008030756	2.175321e-07	2.78293e-07	0.00607144	-0.0204059
9e+07	0.004275985	-0.02328647	2.10093e-07	2.383986e-07	0.005630302	0.008473427	1.049857e-06	3.864574e-07
	2.100931e-07	2.383987e-07	0.00393731	-0.02308145	1.455704e-07	1.135032e-06	0.005500953	0.008564355
	0.005630313	0.00847342	1.455704e-07	1.135032e-06	0.004290155	-0.02328877	2.488126e-07	2.859934e-07
	1.049857e-06	3.864574e-07	0.00550096	0.008564349	2.488126e-07	2.859934e-07	0.003901153	-0.02304863
1e+08	0.00184531	-0.02569377	2.351502e-07	2.392113e-07	0.006696771	0.008843325	1.192839e-06	2.891021e-07
	2.351502e-07	2.392113e-07	0.001448673	-0.02541844	1.504966e-07	1.253969e-06	0.006546174	0.008963023
	0.006696771	0.008843325	1.504966e-07	1.253969e-06	0.00185953	-0.02572094	2.785259e-07	2.874718e-07
	1.192839e-06	2.891021e-07	0.006546174	0.008963023	2.785259e-07	2.874718e-07	0.001404163	-0.02539933
1.1e+08	-0.0008259832	-0.02785752	2.578836e-07	2.350201e-07	0.007788125	0.009070761	1.323872e-06	1.621341e-07
	2.578836e-07	2.350201e-07	-0.001275472	-0.02749961	1.546441e-07	1.373105e-06	0.007617735	0.009223523
	0.007788125	0.009070761	1.546441e-07	1.373105e-06	-0.000820969	-0.02790347	3.055074e-07	2.830064e-07
	1.323872e-06	1.621341e-07	0.007617735	0.009223523	3.055074e-07	2.830064e-07	-0.001337992	-0.02748613
1.2e+08	-0.003778175	-0.02971497	2.774987e-07	2.262124e-07	0.00888791	0.009154267	1.438353e-06	7.387374e-09
	2.774987e-07	2.262124e-07	-0.004277141	-0.02926427	1.579539e-07	1.492913e-06	0.008699548	0.009344434
	0.00888791	0.009154267	1.579539e-07	1.492913e-06	-0.003783281	-0.02977612	3.288181e-07	2.730883e-07
	1.438353e-06	7.387374e-09	0.008699548	0.009344434	3.288181e-07	2.730883e-07	-0.004357239	-0.02925081
1.3e+08	-0.006952482	-0.03121968	2.932379e-07	2.132217e-07	0.009977337	0.009093969	1.531611e-06	-1.728713e-07
	2.932379e-07	2.132217e-07	-0.00749556	-0.03066566	1.606872e-07	1.61356e-06	0.009773601	0.009325662
	0.009977337	0.009093969	1.606872e-07	1.61356e-06	-0.006969746	-0.031294	3.475658e-07	2.582324e-07
	1.531611e-06	-1.728713e-07	0.009773601	0.009325662	3.475658e-07	2.582324e-07	-0.007593753	-0.03064857
1.4e+08	-0.01029678	-0.03234582	3.043897e-07	1.96606e-07	0.01103783	0.008892725	1.599271e-06	-3.756284e-07
	3.043897e-07	1.96606e-07	-0.01087647	-0.03167828	1.630809e-07	1.735185e-06	0.01082205	0.009169715
	0.01103783	0.008892725	1.630809e-07	1.735185e-06	-0.0103281	-0.03243119	3.609138e-07	2.390982e-07
	1.599271e-06	-3.756284e-07	0.01082205	0.009169715	3.609138e-07	2.390982e-07	-0.01099304	-0.03165415
1.5e+08	-0.01375921	-0.03307613	3.103136e-07	1.770363e-07	0.01205139	0.008555819	1.637378e-06	-5.97189e-07
	3.103136e-07	1.770363e-07	-0.01436598	-0.03228576	1.653687e-07	1.857885e-06	0.01182758	0.008881408
	0.01205139	0.008555819	1.653687e-07	1.857885e-06	-0.01380617	-0.0331703	3.681104e-07	2.164769e-07
	1.637378e-06	-5.97189e-07	0.01182758	0.008881408	3.681104e-07	2.164769e-07	-0.01450076	-0.03225129
1.6e+08	-0.01728797	-0.03340051	3.104609e-07	1.552875e-07	0.01300091	0.008090823	1.642506e-06	-8.332374e-07
	3.104609e-07	1.552875e-07	-0.0179104	-0.03247936	1.677833e-07	1.981725e-06	0.01277367	0.008467738
	0.01300091	0.008090823	1.677833e-07	1.981725e-06	-0.01735179	-0.03350118	3.685119e-07	1.912808e-07
	1.642506e-06	-8.332374e-07	0.01277367	0.008467738	3.685119e-07	1.912808e-07	-0.01806281	-0.03243142
1.7e+08	-0.02083164	-0.03331553	3.043925e-07	1.322261e-07	0.01387045	0.007507437	1.611856e-06	-1.078915e-06
	3.043925e-07	1.322261e-07	-0.02145676	-0.03225735	1.705558e-07	2.106735e-06	0.01364491	0.007937737
	0.01387045	0.007507437	1.705558e-07	2.106735e-06	-0.0209132	-0.03342036	3.616036e-07	1.645288e-07
	1.611856e-06	-1.078915e-06	0.01364491	0.007937737	3.616036e-07	1.645288e-07	-0.02162574	-0.03219299
1.8e+08	-0.02433964	-0.03282403	2.91795e-07	1.087939e-07	0.01464553	0.006817309	1.543336e-06	-1.328912e-06
	2.91795e-07	1.087939e-07	-0.02495323	-0.03162455	1.739141e-07	2.232912e-06	0.01442722	0.007302301
	0.01464553	0.006817309	1.739141e-07	2.232912e-06	-0.02443957	-0.03293072	3.470182e-07	1.373269e-07
	1.543336e-06	-1.328912e-06	0.01442722	0.007302301	3.470182e-07	1.373269e-07	-0.02513735	-0.03154108
1.9e+08	-0.02776283	-0.03193489	2.724929e-07	8.598957e-08	0.01531332	0.006033816	1.435632e-06	-1.577575e-06
	2.724929e-07	8.598957e-08	-0.02834978	-0.03059201	1.78081e-07	2.360219e-06	0.01510806	0.006573994
	0.01531332	0.006033816	1.78081e-07	2.360219e-06	-0.02788149	-0.03204114	3.245502e-07	1.108474e-07
	1.435632e-06	-1.577575e-06	0.01510806	0.006573994	3.245502e-07	1.108474e-07	-0.02854724	-0.03048702
2e+08	-0.03105406	-0.0306627	2.464593e-07	6.484835e-08	0.01586283	0.005171831	1.288256e-06	-1.819015e-06
	2.464593e-07	6.484835e-08	-0.03159869	-0.02917662	1.832706e-07	2.48859e-06	0.01567664	0.005766826
	0.01586283	0.005171831	1.832706e-07	2.48859e-06	-0.03119159	-0.03076627	2.941675e-07	8.630435e-08
	1.288256e-06	-1.819015e-06	0.01567664	0.005766826	2.941675e-07	8.630435e-08	-0.03180742	-0.02904804
2.1e+08	-0.03416869	-0.0290275	2.138216e-07	4.641931e-08	0.01628514	0.004247465	1.101583e-06	-2.047232e-06
	2.138216e-07	4.641931e-08	-0.03465515	-0.02740078	1.896852e-07	2.617925e-06	0.01612407	0.004896013
	0.01628514	0.004247465	1.896852e-07	2.617925e-06	-0.03432503	-0.02912614	2.560183e-07	6.492788e-08
	1.101583e-06	-2.047232e-06	0.01612407	0.004896013	2.560183e-07	6.492788e-08	-0.03487282	-0.02724685
2.2e+08	-0.03706519	-0.0270543	1.748648e-07	3.174248e-08	0.01657346	0.003277794	8.768634e-07	-2.256238e-06
	1.748648e-07	3.174248e-08	-0.03747779	-0.02529189	1.975108e-07	2.748095e-06	0.01644349	0.003977725
	0.01657346	0.003277794	1.975108e-07	2.748095e-06	-0.03724008	-0.02714581	2.104347e-07	4.793721e-08
	8.768634e-07	-2.256238e-06	0.01644349	0.003977725	2.104347e-07	4.793721e-08	-0.03770189	-0.02511123
2.3e+08	-0.0397056	-0.02477273	1.300306e-07	2.182514e-08	0.01672326	0.002280574	6.162262e-07	-2.440182e-06
	1.300306e-07	2.182514e-08	-0.04002914	-0.02288193	2.069137e-07	2.878942e-06	0.01663014	0.003028816
	0.01672326	0.002280574	2.069137e-07	2.878942e-06	-0.03989857	-0.02485491	1.579313e-07	3.651346e-08
	6.162262e-07	-2.440182e-06	0.01663014	0.003028816	1.579313e-07	3.651346e-08	-0.04025701	-0.02267352
2.4e+08	-0.04205599	-0.0222165	7.991331e-08	1.76185e-08	0.01673232	0.00127395	3.226574e-07	-2.593472e-06
	7.991331e-08	1.76185e-08	-0.04227613	-0.02020692	2.180356e-07	3.010283e-06	0.01668148	0.002066555
	0.01673232	0.00127395	2.180356e-07	3.010283e-06	-0.04226635	-0.0222872	9.920074e-08	3.177258e-08
	3.226574e-07	-2.593472e-06	0.01668148	0.002066555	9.920074e-08	3.177258e-08	-0.04250502	-0.01997011
2.5e+08	-0.04408688	-0.01942295	2.525195e-08	1.99949e-08	0.01660076	0.0002761582	-3.469796e-11	-2.7109e-06
	2.525195e-08	1.99949e-08	-0.04419046	-0.01730636	2.309907e-07	3.141915e-06	0.01659712	0.001108347
	0.01660076	0.0002761582	2.309907e-07	3.141915e-06	-0.04431372	-0.01948005	3.510437e-08	3.473906e-08
	-3.469796e-11	-2.7109e-06	0.01659712	0.001108347	3.510437e-08	3.473906e-08	-0.04441755	-0.01704087
2.6e+08	-0.04577361	-0.01643242	-3.308148e-08	2.972739e-08	0.01633101	-0.0006947601	-3.472719e-07	-2.787755e-06
	-3.308148e-08	2.972739e-08	-0.04574894	-0.01422261	2.458617e-07	3.273614e-06	0.01637891	0.0001714616
	0.01633101	-0.0006947601	2.458617e-07	3.273614e-06	-0.04601574	-0.0164739	-3.334059e-08	4.632115e-08
	-3.472719e-07	-2.787755e-06	0.01637891	0.0001714616	-3.334059e-08	4.632115e-08	-0.04597138	-0.01392856
2.7e+08	-0.04709651	-0.01328773	-9.409453e-08	4.746715e-08	0.01592776	-0.001621252	-7.137733e-07	-2.819932e-06
	-9.409453e-08	4.746715e-08	-0.04693368	-0.01100032	2.626978e-07	3.405144e-06	0.01603082	-0.0007272383
	0.01592776	-0.001621252	2.626978e-07	3.405144e-06	-0.04735256	-0.01331163	-1.049775e-07	6.728799e-08
	-7.137733e-07	-2.819932e-06	0.01603082	-0.0007272383	-1.049775e-07	6.728799e-08	-0.04714869	-0.01067817
2.8e+08	-0.04804123	-0.01003349	-1.566933e-07	7.372823e-08	0.01539789	-0.002486526	-1.093638e-06	-2.804031e-06
	-1.566933e-07	7.372823e-08	-0.04773237	-0.007685689	2.815121e-07	3.536261e-06	0.0155589	-0.001571557
	0.01539789	-0.002486526	2.815121e-07	3.536261e-06	-0.04830957	-0.010038	-1.7853e-07	9.824917e-08
	-1.093638e-06	-2.804031e-06	0.0155589	-0.001571557	-1.7853e-07	9.824917e-08	-0.04793725	-0.007336297
2.9e+08	-0.04859885	-0.006715554	-2.197019e-07	1.088722e-07	0.01475033	-0.003274816	-1.480439e-06	-2.737443e-06
	-2.197019e-07	1.088722e-07	-0.04813836	-0.004325891	3.022812e-07	3.666718e-06	0.01497119	-0.002346213
	0.01475033	-0.003274816	3.022812e-07	3.666718e-06	-0.04887762	-0.006698998	-2.526247e-07	1.396373e-07
	-1.480439e-06	-2.737443e-06	0.01497119	-0.002346213	-2.526247e-07	1.396373e-07	-0.04833053	-0.003950443
3e+08	-0.04876594	-0.003380314	-2.818839e-07	1.530961e-07	0.01399593	-0.003971627	-1.867332e-06	-2.618426e-06
	-2.818839e-07	1.530961e-07	-0.0481507	-0.0009683372	3.249444e-07	3.796271e-06	0.01427756	-0.003037072
	0.01399593	-0.003971627	3.249444e-07	3.796271e-06	-0.04905309	-0.003341213	-3.258162e-07	1.916941e-07
	-1.867332e-06	-2.618426e-06	0.01427756	-0.003037072	-3.258162e-07	1.916941e-07	-0.04832776	-0.0005683555
3.1e+08	-0.0485446	-7.407829e-05	-3.419658e-07	2.064233e-07	0.01314729	-0.004563961	-2.247169e-06	-2.446167e-06
	-3.419658e-07	2.064233e-07	-0.0477741	0.002339975	3.494048e-07	3.924686e-06	0.01348955	-0.003631366
	0.01314729	-0.004563961	3.494048e-07	3.924686e-06	-0.04883783	-1.117149e-05	-3.966139e-07	2.544592e-07
	-2.247169e-06	-2.446167e-06	0.01348955	-0.003631366	-3.966139e-07	2.544592e-07	-0.04793385	0.002762657
3.2e+08	-0.04794234	0.003157554	-3.986619e-07	2.686984e-07	0.01221854	-0.005040519	-2.612628e-06	-2.220824e-06
	-3.986619e-07	2.686984e-07	-0.04701883	0.005553111	3.755307e-07	4.051742e-06	0.01262022	-0.004117878
	0.01221854	-0.005040519	3.755307e-07	4.051742e-06	-0.0482392	0.003245279	-4.635105e-07	3.277645e-07
	-2.612628e-06	-2.220824e-06	0.01262022	-0.004117878	-4.635105e-07	3.277645e-07	-0.04715932	0.005996379
3.3e+08	-0.04697198	0.006270322	-4.506991e-07	3.395853e-07	0.01122513	-0.005391877	-2.956338e-06	-1.943556e-06
	-4.506991e-07	3.395853e-07	-0.04590052	0.008626846	4.031583e-07	4.177235e-06	0.01168391	-0.004487122
	0.01122513	-0.005391877	4.031583e-07	4.177235e-06	-0.04726985	0.0063836	-5.250111e-07	4.112306e-07
	-2.956338e-06	-1.943556e-06	0.01168391	-0.004487122	-5.250111e-07	4.112306e-07	-0.04602008	0.009088333
3.4e+08	-0.04565141	0.009221914	-4.968426e-07	4.185689e-07	0.01018358	-0.005610634	-3.271018e-06	-1.616533e-06
	-4.968426e-07	4.185689e-07	-0.04443991	0.01151929	4.320946e-07	4.300989e-06	0.01069604	-0.004731483
	0.01018358	-0.005610634	4.320946e-07	4.300989e-06	-0.04594755	0.009361176	-5.796625e-07	5.042689e-07
	-3.271018e-06	-1.616533e-06	0.01069604	-0.004731483	-5.796625e-07	5.042689e-07	-0.0445372	0.01199641
3.5e+08	-0.04400334	0.01197252	-5.359206e-07	5.049604e-07	0.009111224	-0.005691533	-3.549613e-06	-1.242934e-06
	-5.359206e-07	5.049604e-07	-0.04266252	0.01419143	4.621214e-07	4.422851e-06	0.009672859	-0.004845335
	0.009111224	-0.005691533	4.621214e-07	4.422851e-06	-0.04429493	0.01213788	-6.260821e-07	6.060869e-07
	-3.549613e-06	-1.242934e-06	0.009672859	-0.004845335	-6.260821e-07	6.060869e-07	-0.04273652	0.01468145
3.6e+08	-0.04205498	0.01448539	-5.668482e-07	5.979058e-07	0.008025949	-0.005631544	-3.785428e-06	-8.269154e-07
	-5.668482e-07	5.979058e-07	-0.04059827	0.01660771	4.929999e-07	4.542702e-06	0.008631215	-0.004825131
	0.008025949	-0.005631544	4.929999e-07	4.542702e-06	-0.04233913	0.01467661	-6.629861e-07	7.156975e-07
	-3.785428e-06	-8.269154e-07	0.008631215	-0.004825131	-6.629861e-07	7.156975e-07	-0.04064834	0.01710773
3.7e+08	-0.03983759	0.0167273	-5.886502e-07	6.963982e-07	0.006945898	-0.005429918	-3.972268e-06	-3.735743e-07
	-5.886502e-07	6.963982e-07	-0.03828102	0.01873648	5.244749e-07	4.660456e-06	0.007588273	-0.004669461
	0.006945898	-0.005429918	5.244749e-07	4.660456e-06	-0.04011143	0.0169438	-6.892163e-07	8.319327e-07
	-3.972268e-06	-3.735743e-07	0.007588273	-0.004669461	-6.892163e-07	8.319327e-07	-0.03830689	0.01924356
3.8e+08	-0.03738607	0.01866903	-6.004819e-07	7.992924e-07	0.005889198	-0.005088211	-4.104558e-06	1.111154e-07
	-6.004819e-07	7.992924e-07	-0.03574808	0.02055045	5.562804e-07	4.77606e-06	0.00656126	-0.004379083
	0.005889198	-0.005088211	5.562804e-07	4.77606e-06	-0.03764676	0.01890987	-7.037644e-07	9.534599e-07
	-4.104558e-06	1.111154e-07	0.00656126	-0.004379083	-7.037644e-07	9.534599e-07	-0.03574986	0.02106158
3.9e+08	-0.03473848	0.02028573	-6.016477e-07	9.053227e-07	0.004873668	-0.004610263	-4.177472e-06	6.203795e-07
	-6.016477e-07	9.053227e-07	-0.03303966	0.02202704	5.881443e-07	4.8895e-06	0.005567196	-0.003956911
	0.004873668	-0.004610263	5.881443e-07	4.8895e-06	-0.03498326	0.02054962	-7.057946e-07	1.078802e-06
	-4.177472e-06	6.203795e-07	0.005567196	-0.003956911	-7.057946e-07	1.078802e-06	-0.03301788	0.02253925
4e+08	-0.03193545	0.02155724	-5.916172e-07	1.013123e-06	0.003916534	-0.004002154	-4.187038e-06	1.146738e-06
	-5.916172e-07	1.013123e-06	-0.03019829	0.02314868	6.197931e-07	5.000794e-06	0.004622629	-0.003407987
	0.003916534	-0.004002154	6.197931e-07	5.000794e-06	-0.03216169	0.02184256	-6.946631e-07	1.206362e-06
	-4.187038e-06	1.146738e-06	0.004622629	-0.003407987	-6.946631e-07	1.206362e-06	-0.03015385	0.02365907
4.1e+08	-0.02901966	0.02246843	-5.700388e-07	1.121248e-06	0.003034157	-0.003272117	-4.130244e-06	1.682116e-06
	-5.700388e-07	1.121248e-06	-0.02726819	0.02390307	6.509575e-07	5.110001e-06	0.00374337	-0.002739406
	0.003034157	-0.003272117	6.509575e-07	5.110001e-06	-0.0292249	0.0227732	-6.699345e-07	1.334444e-06
	-4.130244e-06	1.682116e-06	0.00374337	-0.002739406	-6.699345e-07	1.334444e-06	-0.02720238	0.02440885
4.2e+08	-0.0260352	0.02300928	-5.367499e-07	1.228197e-06	0.002241761	-0.002430418	-4.005119e-06	2.217962e-06
	-5.367499e-07	1.228197e-06	-0.02429466	0.0242833	6.81376e-07	5.217208e-06	0.002944241	-0.001960219
	0.002241761	-0.002430418	6.81376e-07	5.217208e-06	-0.0262172	0.02333122	-6.313949e-07	1.461286e-06
	-4.005119e-06	2.217962e-06	0.002944241	-0.001960219	-6.313949e-07	1.461286e-06	-0.02420913	0.02478187
4.3e+08	-0.02302699	0.02317513	-4.917844e-07	1.332442e-06	0.001553184	-0.001489211	-3.810805e-06	2.745392e-06
	-4.917844e-07	1.332442e-06	-0.02132339	0.02428796	7.107995e-07	5.32254e-06	0.002238836	-0.001081298
	0.001553184	-0.001489211	7.107995e-07	5.32254e-06	-0.02318376	0.02351165	-5.790612e-07	1.585085e-06
	-3.810805e-06	2.745392e-06	0.002238836	-0.001081298	-5.790612e-07	1.585085e-06	-0.02122015	0.02477693
4.4e+08	-0.02004011	0.02296665	-4.353769e-07	1.432445e-06	0.0009806471	-0.0004623516	-3.547609e-06	3.255326e-06
	-4.353769e-07	1.432445e-06	-0.01839985	0.02392113	7.389951e-07	5.426149e-06	0.001639297	-0.0001151788
	0.0009806471	-0.0004623516	7.389951e-07	5.426149e-06	-0.02016996	0.0233149	-5.13187e-07	1.704029e-06
	-3.547609e-06	3.255326e-06	0.001639297	-0.0001151788	-5.13187e-07	1.704029e-06	-0.0182812	0.02439836
4.5e+08	-0.0171192	0.02238984	-3.679636e-07	1.526695e-06	0.0005345403	0.0006348142	-3.217037e-06	3.738647e-06
	-3.679636e-07	1.526695e-06	-0.01556858	0.0231923	7.657485e-07	5.528216e-06	0.001156108	0.0009241338
	0.0005345403	0.0006348142	7.657485e-07	5.528216e-06	-0.01722076	0.02274677	-4.342643e-07	1.816326e-06
	-3.217037e-06	3.738647e-06	0.001156108	0.0009241338	-4.342643e-07	1.816326e-06	-0.01543712	0.02365597
4.6e+08	-0.01430779	0.02145599	-2.901799e-07	1.613722e-06	0.0002232429	0.001785684	-2.821805e-06	4.186359e-06
	-2.901799e-07	1.613722e-06	-0.0128726	0.02211622	7.908683e-07	5.628947e-06	0.0007979174	0.002021376
	0.0002232429	0.001785684	7.908683e-07	5.628947e-06	-0.01438005	0.02181834	-3.430205e-07	1.920236e-06
	-2.821805e-06	4.186359e-06	0.0007979174	0.002021376	-3.430205e-07	1.920236e-06	-0.01273114	0.02256488
4.7e+08	-0.01164774	0.02018141	-2.028549e-07	1.692135e-06	5.296837e-05	0.002972664	-2.365836e-06	4.589743e-06
	-2.028549e-07	1.692135e-06	-0.01035276	0.0207127	8.141863e-07	5.72857e-06	0.000571384	0.003160267
	5.296836e-05	0.002972664	8.141863e-07	5.72857e-06	-0.01169008	0.02054577	-2.404158e-07	2.014104e-06
	-2.365836e-06	4.589743e-06	0.000571384	0.003160267	-2.404158e-07	2.014104e-06	-0.01020433	0.02114522
