!$
! Info: Touchstone file created by Circ.  Input file=Tx_6in_Rx_85ohms_TxVia_35mils_RxVia_45mils.circ
!$
# Hz S RI R 50
0	0.00494031	8.697111e-26	-3.271677e-05	3.830525e-24	5.187801e-05	9.167745e-24	-3.269744e-05	1.484659e-24
	-3.271678e-05	3.832214e-24	0.004938653	1.045758e-25	-3.272859e-05	5.370495e-24	5.173636e-05	1.110675e-23
	5.169181e-05	9.129258e-24	-3.272858e-05	5.369065e-24	0.004951165	8.697143e-26	-3.271459e-05	3.678958e-24
	-3.269745e-05	1.485984e-24	4.988927e-05	1.11616e-23	-3.271459e-05	3.680026e-24	0.00495184	9.796722e-26
1e+07	0.006579284	-0.005323583	-6.841644e-05	-1.725742e-05	0.0001728318	0.001228777	-4.998567e-06	-1.455061e-06
	-6.841644e-05	-1.725742e-05	0.006592689	-0.005326999	-2.473554e-05	4.75322e-05	0.000170688	0.001231186
	0.0001728265	0.001228779	-2.473554e-05	4.75322e-05	0.006615229	-0.005306905	-6.841869e-05	-1.727172e-05
	-4.998565e-06	-1.455061e-06	0.0001706281	0.001231196	-6.841868e-05	-1.727172e-05	0.006587756	-0.005315843
2e+07	0.007264694	-0.01229857	-6.372537e-05	7.181432e-06	0.0004354882	0.002398538	-3.724847e-06	-1.021169e-05
	-6.372537e-05	7.181432e-06	0.007253137	-0.01231004	-3.283391e-05	6.317158e-05	0.0004272306	0.002404382
	0.0004354897	0.002398542	-3.283391e-05	6.317158e-05	0.007299338	-0.01227388	-6.372431e-05	7.134434e-06
	-3.724847e-06	-1.021169e-05	0.0004272228	0.002404416	-6.372431e-05	7.134432e-06	0.007252616	-0.01228188
3e+07	0.006474106	-0.01996617	-6.239603e-05	3.337902e-06	0.0008387106	0.00351257	-1.047373e-05	-1.241559e-05
	-6.239604e-05	3.337903e-06	0.006425809	-0.01997532	-3.334025e-05	7.745989e-05	0.0008207011	0.003523562
	0.0008387131	0.003512569	-3.334025e-05	7.745989e-05	0.006509687	-0.01992936	-6.239354e-05	3.264075e-06
	-1.047373e-05	-1.241559e-05	0.0008207012	0.003523567	-6.239354e-05	3.264074e-06	0.006427957	-0.01993515
4e+07	0.004450614	-0.02765827	-6.169046e-05	2.063626e-06	0.001375846	0.004555838	-1.612729e-05	-1.210767e-05
	-6.169046e-05	2.063626e-06	0.00435439	-0.02765648	-2.86226e-05	8.853941e-05	0.001344827	0.004574375
	0.001375846	0.004555837	-2.86226e-05	8.853941e-05	0.004488784	-0.0276092	-6.168636e-05	1.958189e-06
	-1.612729e-05	-1.210767e-05	0.001344822	0.004574373	-6.168636e-05	1.958189e-06	0.004357878	-0.02760562
5e+07	0.001314449	-0.0351244	-6.141087e-05	1.958338e-06	0.00203598	0.005512065	-2.093271e-05	-1.035269e-05
	-6.141087e-05	1.958338e-06	0.001160301	-0.03510117	-2.004309e-05	9.585593e-05	0.001989196	0.005541162
	0.00203598	0.005512064	-2.004309e-05	9.585593e-05	0.001356403	-0.03506363	-6.140668e-05	1.815579e-06
	-2.093271e-05	-1.035269e-05	0.001989193	0.005541161	-6.140668e-05	1.815579e-06	0.001163829	-0.03504013
6e+07	-0.002837792	-0.04218894	-6.141714e-05	2.595313e-06	0.002805711	0.006366433	-2.497923e-05	-7.55299e-06
	-6.141714e-05	2.595313e-06	-0.003057853	-0.04213211	-8.777266e-06	9.885756e-05	0.002741003	0.006409617
	0.002805712	0.006366433	-8.777266e-06	9.885756e-05	-0.0027912	-0.04211732	-6.141646e-05	2.409023e-06
	-2.497923e-05	-7.55299e-06	0.002741006	0.006409616	-6.141647e-05	2.409024e-06	-0.003055519	-0.04206094
7e+07	-0.007911362	-0.04871062	-6.1596e-05	3.798855e-06	0.003669768	0.007106052	-2.828176e-05	-3.897816e-06
	-6.1596e-05	3.798855e-06	-0.008203177	-0.04860676	3.983951e-06	9.702783e-05	0.003585632	0.00716725
	0.00366977	0.007106052	3.983951e-06	9.702783e-05	-0.007859568	-0.04862908	-6.160463e-05	3.562895e-06
	-2.828176e-05	-3.897816e-06	0.00358564	0.007167246	-6.160463e-05	3.562896e-06	-0.008203201	-0.04852517
8e+07	-0.01380677	-0.0545709	-6.184948e-05	5.477419e-06	0.004611356	0.007720273	-3.079828e-05	5.342009e-07
	-6.184948e-05	5.477419e-06	-0.01417398	-0.05440564	1.694009e-05	8.987703e-05	0.004506987	0.007803713
	0.004611358	0.007720272	1.694009e-05	8.987703e-05	-0.01374945	-0.0544804	-6.187545e-05	5.186274e-06
	-3.079828e-05	5.34201e-07	0.004506996	0.007803707	-6.187545e-05	5.186275e-06	-0.01417745	-0.05431306
9e+07	-0.02041795	-0.0596702	-6.209237e-05	7.569094e-06	0.005612568	0.008201076	-3.240149e-05	5.783782e-06
	-6.209237e-05	7.569094e-06	-0.02086188	-0.05942839	2.852267e-05	7.677327e-05	0.005487906	0.008311187
	0.005612569	0.008201075	2.852267e-05	7.677327e-05	-0.02035499	-0.05957164	-6.214583e-05	7.21836e-06
	-3.240149e-05	5.783782e-06	0.005487912	0.008311181	-6.214583e-05	7.21836e-06	-0.02086976	-0.05932398
1e+08	-0.02763351	-0.06392832	-6.226728e-05	1.001556e-05	0.006655727	0.00854465	-3.248792e-05	1.252248e-05
	-6.226728e-05	1.001556e-05	-0.0281529	-0.06359415	3.551422e-05	5.485227e-05	0.006511499	0.008685948
	0.006655727	0.008544651	3.551422e-05	5.485227e-05	-0.02756486	-0.06382232	-6.236037e-05	9.601916e-06
	-3.248792e-05	1.252248e-05	0.006511499	0.008685948	-6.236037e-05	9.601916e-06	-0.02816612	-0.063477
1.1e+08	-0.03533896	-0.06727681	-6.227413e-05	1.268445e-05	0.007726055	0.008739924	-2.902158e-05	1.715847e-05
	-6.227413e-05	1.268445e-05	-0.03592798	-0.06683471	5.05879e-05	2.229548e-05	0.007564036	0.00891664
	0.007726054	0.008739924	5.05879e-05	2.229548e-05	-0.03526322	-0.06716486	-6.241947e-05	1.220777e-05
	-2.902158e-05	1.715847e-05	0.007564036	0.008916641	-6.241947e-05	1.220777e-05	-0.03594641	-0.06670288
1.2e+08	-0.04340248	-0.06965697	-6.203061e-05	1.563165e-05	0.008794479	0.008787736	-2.612046e-05	2.026407e-05
	-6.203061e-05	1.563165e-05	-0.04405504	-0.06909307	6.454487e-05	-9.157888e-06	0.008616845	0.009004147
	0.008794479	0.008787737	6.454487e-05	-9.157888e-06	-0.04332084	-0.06954055	-6.224274e-05	1.509543e-05
	-2.612046e-05	2.026407e-05	0.008616845	0.009004147	-6.224274e-05	1.509543e-05	-0.044079	-0.0689452
1.3e+08	-0.05169755	-0.0710398	-6.150892e-05	1.878725e-05	0.009842988	0.008692864	-2.376822e-05	2.22585e-05
	-6.150892e-05	1.878725e-05	-0.05240502	-0.07034051	7.477245e-05	-4.23094e-05	0.009652715	0.008952966
	0.009842988	0.008692864	7.477245e-05	-4.23094e-05	-0.05161115	-0.07091969	-6.180267e-05	1.819767e-05
	-2.376822e-05	2.22585e-05	0.009652715	0.008952966	-6.180267e-05	1.819767e-05	-0.05243461	-0.07017506
1.4e+08	-0.0600961	-0.07141059	-6.06771e-05	2.209664e-05	0.01085337	0.008460779	-2.308834e-05	2.232569e-05
	-6.06771e-05	2.209664e-05	-0.06084739	-0.07056332	8.028624e-05	-7.720975e-05	0.01065419	0.008768159
	0.01085337	0.008460779	8.028624e-05	-7.720975e-05	-0.06000596	-0.07128719	-6.106677e-05	2.146297e-05
	-2.308834e-05	2.232569e-05	0.01065419	0.008768159	-6.106677e-05	2.146297e-05	-0.06088228	-0.07037855
1.5e+08	-0.06847121	-0.07077031	-5.950537e-05	2.547692e-05	0.01180836	0.008099029	-2.231981e-05	2.256195e-05
	-5.950537e-05	2.547692e-05	-0.06925291	-0.06976399	8.041681e-05	-0.0001133836	0.01160466	0.008456736
	0.01180836	0.008099029	8.041681e-05	-0.0001133836	-0.06837822	-0.07064381	-6.000443e-05	2.481111e-05
	-2.231981e-05	2.256195e-05	0.01160466	0.008456736	-6.000443e-05	2.481111e-05	-0.06929232	-0.06955815
1.6e+08	-0.0766988	-0.06913529	-5.798264e-05	2.88619e-05	0.01269197	0.007617178	-2.147583e-05	2.290907e-05
	-5.798264e-05	2.88619e-05	-0.07749547	-0.06796074	7.47092e-05	-0.0001501066	0.01248875	0.008027616
	0.01269197	0.007617178	7.47092e-05	-0.0001501066	-0.07660375	-0.06900569	-5.860301e-05	2.817892e-05
	-2.147583e-05	2.290907e-05	0.01248875	0.008027616	-5.860301e-05	2.817892e-05	-0.07753821	-0.06773221
1.7e+08	-0.08465931	-0.06653645	-5.610952e-05	3.218723e-05	0.0134898	0.007026612	-2.056343e-05	2.332783e-05
	-5.610952e-05	3.218723e-05	-0.08545378	-0.06518678	6.290176e-05	-0.0001865144	0.01329254	0.007491446
	0.0134898	0.007026613	6.290176e-05	-0.0001865144	-0.08456286	-0.06640366	-5.686088e-05	3.150478e-05
	-2.056343e-05	2.332783e-05	0.01329254	0.007491446	-5.686088e-05	3.150478e-05	-0.08549826	-0.06493414
1.8e+08	-0.09223912	-0.06301846	-5.389767e-05	3.539206e-05	0.01418919	0.006340297	-1.958708e-05	2.378954e-05
	-5.389767e-05	3.539206e-05	-0.09301288	-0.06148932	4.492169e-05	-0.0002216668	0.01400375	0.006860368
	0.01418919	0.006340297	4.492169e-05	-0.0002216668	-0.09214186	-0.06288231	-5.47869e-05	3.47302e-05
	-1.958708e-05	2.378954e-05	0.01400375	0.006860368	-5.47869e-05	3.47302e-05	-0.0930572	-0.06121145
1.9e+08	-0.09933199	-0.05863876	-5.13688e-05	3.842063e-05	0.01477939	0.005572507	-1.855038e-05	2.427191e-05
	-5.13688e-05	3.842063e-05	-0.1000655	-0.05692858	2.088079e-05	-0.0002545959	0.01461188	0.006147775
	0.01477939	0.005572507	2.088079e-05	-0.0002545959	-0.09923444	-0.05849902	-5.239945e-05	3.780125e-05
	-1.855038e-05	2.427191e-05	0.01461188	0.006147775	-5.239945e-05	3.780125e-05	-0.1001076	-0.05662468
2e+08	-0.1058403	-0.05346643	-4.85533e-05	4.122359e-05	0.01525167	0.004738555	-1.745676e-05	2.475692e-05
	-4.85533e-05	4.122359e-05	-0.1065136	-0.05157655	-8.930688e-06	-0.0002843471	0.01510829	0.005368054
	0.01525167	0.004738555	-8.930688e-06	-0.0002843471	-0.1057429	-0.05332284	-4.972525e-05	4.06698e-05
	-1.745676e-05	2.475692e-05	0.01510829	0.005368054	-4.972525e-05	4.06698e-05	-0.1065511	-0.05124619
2.1e+08	-0.1116761	-0.04758102	-4.548884e-05	4.375911e-05	0.01559936	0.003854519	-1.631001e-05	2.522964e-05
	-4.548884e-05	4.375911e-05	-0.1122691	-0.04551579	-4.405488e-05	-0.0003100127	0.01548632	0.004536336
	0.01559936	0.003854519	-4.405488e-05	-0.0003100127	-0.1115792	-0.04743326	-4.679796e-05	4.329454e-05
	-1.631001e-05	2.522964e-05	0.01548632	0.004536336	-4.679796e-05	4.329454e-05	-0.1122997	-0.0451589
2.2e+08	-0.1167621	-0.04107122	-4.221868e-05	4.599358e-05	0.0158179	0.002936979	-1.511432e-05	2.567751e-05
	-4.221868e-05	4.599358e-05	-0.1172551	-0.03883801	-8.388019e-05	-0.0003307628	0.01574121	0.00366825
	0.0158179	0.002936979	-8.388019e-05	-0.0003307628	-0.1166662	-0.04091894	-4.365674e-05	4.564167e-05
	-1.511432e-05	2.567751e-05	0.01574121	0.00366825	-4.365674e-05	4.564167e-05	-0.1172764	-0.0384549
2.3e+08	-0.1210328	-0.03403351	-3.879013e-05	4.79021e-05	0.01590482	0.002002761	-1.387436e-05	2.608994e-05
	-3.879013e-05	4.79021e-05	-0.1214067	-0.03164266	-0.0001276591	-0.0003458724	0.0158702	0.002779689
	0.01590482	0.002002761	-0.0001276591	-0.0003458724	-0.1209381	-0.03387631	-4.03448e-05	4.768529e-05
	-1.387436e-05	2.608994e-05	0.0158702	0.002779689	-4.03448e-05	4.768529e-05	-0.1214163	-0.03123404
2.4e+08	-0.1244345	-0.02657076	-3.525291e-05	4.946874e-05	0.01585973	0.001068698	-1.259539e-05	2.645803e-05
	-3.525291e-05	4.946874e-05	-0.1246716	-0.02403547	-0.0001745306	-0.0003547408	0.01587244	0.001886591
	0.01585973	0.001068698	-0.0001745306	-0.0003547408	-0.1243412	-0.0264082	-3.690789e-05	4.940773e-05
	-1.259539e-05	2.645803e-05	0.01587244	0.001886591	-3.690789e-05	4.940773e-05	-0.1246672	-0.0236024
2.5e+08	-0.1269265	-0.01879072	-3.165763e-05	5.068642e-05	0.01568424	0.0001513977	-1.128305e-05	2.677443e-05
	-3.165763e-05	5.068642e-05	-0.1270106	-0.01612695	-0.0002235429	-0.0003569112	0.01574897	0.00100473
	0.01568424	0.0001513978	-0.0002235429	-0.0003569112	-0.1268347	-0.01862235	-3.339297e-05	5.079945e-05
	-1.128305e-05	2.677443e-05	0.01574897	0.00100473	-3.339297e-05	5.079945e-05	-0.12699	-0.01567084
2.6e+08	-0.1284809	-0.0108046	-2.805432e-05	5.155672e-05	0.01538193	-0.0007329633	-9.943311e-06	2.703316e-05
	-2.805432e-05	5.155672e-05	-0.1283979	-0.0080308	-0.0002736798	-0.0003520821	0.01550264	0.0001495243
	0.01538193	-0.0007329633	-0.0002736798	-0.0003520821	-0.1283906	-0.01062995	-2.984687e-05	5.185885e-05
	-9.943311e-06	2.703316e-05	0.01550264	0.0001495242	-2.984687e-05	5.185885e-05	-0.1283591	-0.007553413
2.7e+08	-0.1290831	-0.002725583	-2.449114e-05	5.20893e-05	0.01495824	-0.001568843	-8.582333e-06	2.722948e-05
	-2.449114e-05	5.20893e-05	-0.1288214	0.0001375651	-0.0003238876	-0.0003401181	0.01513808	-0.0006641459
	0.01495824	-0.001568843	-0.0003238876	-0.0003401181	-0.1289944	-0.00254417	-2.631508e-05	5.259188e-05
	-8.582333e-06	2.722948e-05	0.01513808	-0.0006641459	-2.631508e-05	5.259188e-05	-0.1287626	0.0006341762
2.8e+08	-0.1287318	0.00533272	-2.101316e-05	5.230156e-05	0.01442039	-0.002341515	-7.206408e-06	2.73599e-05
	-2.101316e-05	5.230156e-05	-0.1282824	0.008262598	-0.0003731036	-0.0003210492	0.01466157	-0.001422105
	0.01442039	-0.002341515	-0.0003731036	-0.0003210492	-0.1286447	0.005521371	-2.28407e-05	5.301167e-05
	-7.206408e-06	2.73599e-05	0.01466157	-0.001422105	-2.28407e-05	5.301167e-05	-0.1282022	0.008776098
2.9e+08	-0.1274391	0.01325768	-1.766123e-05	5.221769e-05	0.01377724	-0.003037249	-5.821787e-06	2.742196e-05
	-1.766123e-05	5.221769e-05	-0.1267959	0.0162301	-0.0004202828	-0.0002950718	0.01408096	-0.002111043
	0.01377724	-0.003037249	-0.0004202828	-0.0002950718	-0.1273533	0.01345403	-1.94634e-05	5.313786e-05
	-5.821787e-06	2.742196e-05	0.01408096	-0.002111043	-1.94634e-05	5.313786e-05	-0.126693	0.01675792
3e+08	-0.1252296	0.02093911	-1.447113e-05	5.186793e-05	0.01303921	-0.003643464	-4.434558e-06	2.741415e-05
	-1.447113e-05	5.186793e-05	-0.1243899	0.02392874	-0.0004644263	-0.0002625496	0.0134056	-0.002718663
	0.01303921	-0.003643464	-0.0004644263	-0.0002625496	-0.125145	0.02114359	-1.621856e-05	5.299587e-05
	-4.434558e-06	2.741415e-05	0.0134056	-0.002718663	-1.621856e-05	5.299587e-05	-0.1242636	0.0244681
3.1e+08	-0.1221408	0.0282707	-1.146144e-05	5.125295e-05	0.01221814	-0.004148892	-3.05112e-06	2.733613e-05
	-1.146144e-05	5.125295e-05	-0.1211054	0.03125147	-0.0005037077	-0.0002209229	0.01264618	-0.003233832
	0.01221814	-0.004148892	-0.0005037077	-0.0002209229	-0.122057	0.02848373	-1.312422e-05	5.258211e-05
	-3.05112e-06	2.733613e-05	0.01264618	-0.003233832	-1.312422e-05	5.258211e-05	-0.1209551	0.03179943
3.2e+08	-0.1182222	0.03515135	-8.655853e-06	5.037305e-05	0.01132714	-0.004543717	-1.677443e-06	2.718855e-05
	-8.655853e-06	5.037305e-05	-0.1169953	0.03809693	-0.0005356133	-0.0001680457	0.01181467	-0.003646711
	0.01132714	-0.004543717	-0.0005356133	-0.0001680457	-0.1181388	0.0353733	-1.020409e-05	5.189221e-05
	-1.677443e-06	2.718855e-05	0.01181467	-0.003646711	-1.020409e-05	5.189221e-05	-0.116821	0.03865045
3.3e+08	-0.1135345	0.0414865	-6.099375e-06	4.93406e-05	0.01038045	-0.004819712	-3.176155e-07	2.697157e-05
	-6.099375e-06	4.93406e-05	-0.1121241	0.04437077	-0.0005608859	-0.0001111031	0.01092412	-0.00394889
	0.01038045	-0.004819712	-0.0005608859	-0.0001111031	-0.1134512	0.04171766	-7.50745e-06	5.103262e-05
	-3.176155e-07	2.697157e-05	0.01092412	-0.00394889	-7.50745e-06	5.103262e-05	-0.1119261	0.04492677
3.4e+08	-0.1081492	0.04718936	-3.800671e-06	4.820238e-05	0.009393267	-0.00497037	1.02351e-06	2.668601e-05
	-3.800671e-06	4.820238e-05	-0.1065669	0.04998689	-0.0005789964	-5.105936e-05	0.009988591	-0.004133516
	0.009393267	-0.00497037	-0.0005789964	-5.105936e-05	-0.1080655	0.04742996	-5.046188e-06	5.004594e-05
	1.02351e-06	2.668601e-05	0.009988591	-0.004133516	-5.046188e-06	5.004594e-05	-0.1063459	0.05054232
3.5e+08	-0.1021473	0.05218207	-1.760041e-06	4.700595e-05	0.008381556	-0.004991018	2.341514e-06	2.633354e-05
	-1.760041e-06	4.700595e-05	-0.1004082	0.05486865	-0.0005895765	1.104041e-05	0.009022927	-0.00419541
	0.008381556	-0.004991018	-0.0005895765	1.104041e-05	-0.1020627	0.05243225	-2.824513e-06	4.897639e-05
	2.341514e-06	2.633354e-05	0.009022927	-0.00419541	-2.824513e-06	4.897639e-05	-0.1001656	0.05542051
3.6e+08	-0.09561864	0.05639674	3.073265e-08	4.579804e-05	0.007361873	-0.004878922	3.632319e-06	2.591604e-05
	3.073265e-08	4.579804e-05	-0.09374146	0.0589499	-0.0005924243	7.410846e-05	0.008042627	-0.004131173
	0.007361873	-0.004878922	-0.0005924243	7.410846e-05	-0.09553252	0.05665658	-8.387768e-07	4.78679e-05
	3.632319e-06	2.591604e-05	0.008042627	-0.004131173	-8.387768e-07	4.78679e-05	-0.09347881	0.05949531
3.7e+08	-0.08866027	0.05977644	1.588173e-06	4.462291e-05	0.006351135	-0.004633374	4.892137e-06	2.543544e-05
	1.588173e-06	4.462291e-05	-0.08666697	0.06217591	-0.0005875112	0.00013704	0.007063632	-0.003939286
	0.006351135	-0.004633374	-0.0005875112	0.00013704	-0.08857211	0.06004596	9.225125e-07	4.676287e-05
	4.892137e-06	2.543544e-05	0.007063632	-0.003939286	9.225125e-07	4.676287e-05	-0.08638631	0.06271218
3.8e+08	-0.08137559	0.06227605	2.936743e-06	4.352093e-05	0.005366391	-0.004255765	6.117437e-06	2.489384e-05
	2.936743e-06	4.352093e-05	-0.07929116	0.06450425	-0.0005749818	0.000198743	0.006102117	-0.003620185
	0.005366391	-0.004255765	-0.0005749818	0.000198743	-0.08128485	0.06255517	2.478478e-06	4.570077e-05
	6.117437e-06	2.489384e-05	0.006102117	-0.003620185	2.478478e-06	4.570077e-05	-0.07899493	0.06502893
3.9e+08	-0.07387278	0.06386294	4.108205e-06	4.252715e-05	0.004424569	-0.003749625	7.304896e-06	2.429345e-05
	4.108205e-06	4.252715e-05	-0.07172491	0.06590541	-0.0005551495	0.0002581667	0.005174255	-0.003176323
	0.004424569	-0.003749625	-0.0005551495	0.0002581667	-0.0737789	0.0641515	3.855421e-06	4.471678e-05
	7.304896e-06	2.429345e-05	0.005174255	-0.003176323	3.855421e-06	4.471678e-05	-0.0714159	0.06641634
4e+08	-0.06626337	0.06451754	5.140631e-06	4.166988e-05	0.003542216	-0.003120646	8.451362e-06	2.363662e-05
	5.140631e-06	4.166988e-05	-0.06408204	0.06636332	-0.000528488	0.0003143292	0.004295975	-0.002612202
	0.003542216	-0.003120646	-0.000528488	0.0003143292	-0.0661658	0.06481529	5.086034e-06	4.38404e-05
	8.451362e-06	2.363662e-05	0.004295975	-0.002612202	5.086034e-06	4.38404e-05	-0.0637634	0.06685871
4.1e+08	-0.05866067	0.06423371	6.077216e-06	4.096947e-05	0.002735214	-0.002376659	9.553822e-06	2.29258e-05
	6.077216e-06	4.096947e-05	-0.05647775	0.06587573	-0.0004956169	0.0003663434	0.003482698	-0.001934371
	0.002735214	-0.002376659	-0.0004956169	0.0003663434	-0.05855892	0.06454032	6.208407e-06	4.309418e-05
	9.553822e-06	2.29258e-05	0.003482698	-0.001934371	6.208407e-06	4.309418e-05	-0.05615287	0.06635417
4.2e+08	-0.05117821	0.06301897	6.96475e-06	4.043725e-05	0.0020185	-0.001527589	1.060938e-05	2.216359e-05
	6.96475e-06	4.043725e-05	-0.04902691	0.06445432	-0.0004572838	0.0004134407	0.002749062	-0.001151398
	0.0020185	-0.001527589	-0.0004572838	0.0004134407	-0.05107181	0.06333402	7.264714e-06	4.249262e-05
	1.060938e-05	2.216359e-05	0.002749062	-0.001151398	7.264714e-06	4.249262e-05	-0.04869945	0.06491484
4.3e+08	-0.04392805	0.06089449	7.851844e-06	4.007474e-05	0.001405771	-0.0005853546	1.161526e-05	2.135277e-05
	7.851844e-06	4.007474e-05	-0.04184241	0.06212466	-0.0004143425	0.0004549906	0.002108646	-0.000273794
	0.001405771	-0.0005853546	-0.0004143425	0.0004549906	-0.04381659	0.0612175	8.299622e-06	4.204132e-05
	1.161526e-05	2.135277e-05	0.002108646	-0.000273794	8.299622e-06	4.204132e-05	-0.04151619	0.06256678
4.4e+08	-0.03701917	0.05789496	8.786964e-06	3.987324e-05	0.0009092038	0.0004362666	1.25688e-05	2.049628e-05
	8.786964e-06	3.987324e-05	-0.03503345	0.05892598	-0.0003677269	0.000490517	0.001573691	0.0006860988
	0.0009092038	0.0004362666	-0.0003677269	0.000490517	-0.03690232	0.05822537	9.358502e-06	4.173639e-05
	1.25688e-05	2.049628e-05	0.001573692	0.0006860987	9.358502e-06	4.173639e-05	-0.0347124	0.05934973
4.5e+08	-0.03055577	0.05406812	9.816357e-06	3.981381e-05	0.0005391794	0.001521823	1.346746e-05	1.959728e-05
	9.816357e-06	3.981381e-05	-0.02870385	0.05491069	-0.0003184236	0.0005197092	0.001154836	0.00171427
	0.0005391794	0.001521823	-0.0003184236	0.0005197092	-0.03043326	0.05440532	1.04855e-05	4.156426e-05
	1.346746e-05	1.959728e-05	0.001154836	0.00171427	1.04855e-05	4.156426e-05	-0.02839196	0.05531659
4.6e+08	-0.0246357	0.04947424	1.098196e-05	3.986768e-05	0.0003040301	0.002654418	1.430893e-05	1.865916e-05
	1.098196e-05	3.986768e-05	-0.02295045	0.05014366	-0.0002674409	0.0005424289	0.0008608586	0.002795241
	0.0003040301	0.002654418	-0.0002674409	0.0005424289	-0.02450737	0.04981755	1.172157e-05	4.150195e-05
	1.430893e-05	1.865916e-05	0.0008608586	0.002795241	1.172157e-05	4.150195e-05	-0.02265168	0.05053281
4.7e+08	-0.0193489	0.04418527	1.231924e-05	3.999712e-05	0.0002098146	0.003815983	1.509106e-05	1.768548e-05
	1.231924e-05	3.999712e-05	-0.01786155	0.04470138	-0.0002157791	0.0005587095	0.000698458	0.003912319
	0.0002098146	0.003815983	-0.0002157791	0.0005587095	-0.01921467	0.04453399	1.310238e-05	4.151762e-05
	1.509106e-05	1.768548e-05	0.000698458	0.003912319	1.310238e-05	4.151762e-05	-0.01757977	0.0450754
