!$
! Info: Touchstone file created by Circ.  Input file=Tx_6in_Rx_93ohms_TxVia_35mils_RxVia_45mils.circ
!$
# Hz S RI R 50
0	0.005609911	9.011382e-26	0.9942493	-8.883666e-26	5.115966e-05	1.062769e-23	-4.92385e-05	2.059221e-21
	0.9942493	-9.081929e-26	0.005608807	1.042212e-25	-4.960981e-05	2.104737e-21	5.158082e-05	1.263117e-23
	4.932335e-05	1.091376e-23	-4.973741e-05	2.120428e-21	0.005622511	8.591122e-26	0.9942334	-8.392973e-26
	-4.961829e-05	2.105797e-21	4.97336e-05	1.269351e-23	0.9942334	-8.378977e-26	0.005621983	9.763592e-26
1e+07	0.008218152	-0.0001455336	0.9894507	-0.0647259	0.000170585	0.00123871	-9.099603e-05	-9.165626e-05
	0.9894507	-0.0647259	0.008212936	-0.0001458813	-9.100371e-05	-9.164312e-05	0.0001684331	0.001239258
	0.0001705253	0.001238714	-9.106172e-05	-9.163228e-05	0.008066215	-0.0001490829	0.9895965	-0.06482214
	-9.105403e-05	-9.164542e-05	0.0001683731	0.001239268	0.9895965	-0.06482214	0.008060146	-0.0001492196
2e+07	0.009792499	-0.002278341	0.9813541	-0.1269652	0.0003684747	0.002479251	-5.988638e-05	-0.0002111378
	0.9813541	-0.1269652	0.00977182	-0.002277311	-5.990852e-05	-0.0002111314	0.0003601314	0.002481339
	0.0003684624	0.002479289	-5.992101e-05	-0.0002110897	0.009678663	-0.00222687	0.9814434	-0.1272149
	-5.990087e-05	-0.0002110951	0.0003601231	0.002481374	0.9814434	-0.1272149	0.009654714	-0.002225065
3e+07	0.01055556	-0.005139347	0.969923	-0.1878187	0.0007575387	0.003629887	-7.624526e-05	-0.0002858839
	0.969923	-0.1878187	0.01050979	-0.005132889	-7.631006e-05	-0.0002858537	0.0007392861	0.003635181
	0.0007575412	0.003629892	-7.630818e-05	-0.0002858472	0.01047197	-0.005074757	0.9699519	-0.1881783
	-7.624345e-05	-0.0002858771	0.0007392861	0.003635186	0.9699519	-0.1881783	0.0104191	-0.005066268
4e+07	0.01070618	-0.008246687	0.9550108	-0.2475181	0.001313093	0.004698303	-0.0001234453	-0.0003427862
	0.9550108	-0.2475181	0.01062636	-0.008229402	-0.0001235469	-0.0003427175	0.001281565	0.004709099
	0.001313088	0.004698298	-0.0001235535	-0.000342722	0.01064842	-0.008180536	0.9549716	-0.2479727
	-0.0001234522	-0.0003427912	0.00128156	0.004709097	0.9549716	-0.2479727	0.01055636	-0.008159121
5e+07	0.01032102	-0.01143807	0.9366155	-0.3059632	0.001988563	0.005678144	-0.00016555	-0.0003942194
	0.9366155	-0.3059632	0.01019913	-0.01140264	-0.0001656932	-0.0003941013	0.001940862	0.005697372
	0.001988559	0.005678143	-0.0001656985	-0.0003941027	0.01028533	-0.01137731	0.9365004	-0.3065015
	-0.0001655556	-0.000394221	0.001940859	0.005697371	0.9365004	-0.3065015	0.01014491	-0.0113345
6e+07	0.00944704	-0.01461047	0.9147838	-0.3629979	0.002772371	0.00655678	-0.0002045048	-0.0004442846
	0.9147838	-0.3629979	0.009276615	-0.0145481	-0.0002046913	-0.0004440967	0.002706163	0.006587876
	0.002772375	0.00655678	-0.0002046866	-0.000444097	0.009429767	-0.01456014	0.9145853	-0.3636095
	-0.0002044997	-0.0004442847	0.002706166	0.006587875	0.9145853	-0.3636095	0.009233619	-0.0144858
7e+07	0.008122798	-0.01768511	0.8895885	-0.4184471	0.003650961	0.007322278	-0.0002423094	-0.0004955304
	0.8895885	-0.4184471	0.007898988	-0.01758601	-0.000242531	-0.0004952495	0.00356453	0.007369085
	0.003650973	0.007322275	-0.0002425167	-0.0004952539	0.008120163	-0.01764918	0.8892993	-0.4191216
	-0.0002422938	-0.0004955351	0.003564538	0.007369081	0.8892993	-0.4191216	0.007862781	-0.01753202
8e+07	0.006385759	-0.02059635	0.8611206	-0.4721303	0.004609135	0.007964088	-0.0002810417	-0.0005496042
	0.8611206	-0.4721303	0.006105307	-0.02044991	-0.0002812809	-0.000549209	0.004501422	0.008030762
	0.00460915	0.007964081	-0.0002812635	-0.0005492188	0.006393746	-0.02057807	0.8607343	-0.4728569
	-0.0002810225	-0.0005496148	0.004501432	0.008030756	0.8607343	-0.4728569	0.00607144	-0.0204059
9e+07	0.004275985	-0.02328647	0.829486	-0.5238685	0.005630302	0.008473427	-0.0003229026	-0.0006074594
	0.829486	-0.5238685	0.00393731	-0.02308145	-0.0003231349	-0.0006069334	0.005500953	0.008564355
	0.005630313	0.00847342	-0.0003231226	-0.0006069437	0.004290155	-0.02328877	0.828997	-0.5246355
	-0.0003228891	-0.0006074706	0.00550096	0.008564349	0.828997	-0.5246355	0.003901153	-0.02304863
1e+08	0.00184531	-0.02569377	0.7947941	-0.573499	0.006696771	0.008843325	-0.0003701869	-0.0006691304
	0.7947941	-0.573499	0.001448673	-0.02541844	-0.0003703816	-0.0006684628	0.006546174	0.008963023
	0.006696771	0.008843325	-0.0003703816	-0.0006684628	0.00185953	-0.02572094	0.7941996	-0.5742922
	-0.0003701869	-0.0006691304	0.006546174	0.008963023	0.7941996	-0.5742922	0.001404163	-0.02539933
1.1e+08	-0.0008259832	-0.02785752	0.7571435	-0.6207718	0.007788125	0.009070761	-0.0004242407	-0.0007347804
	0.7571435	-0.6207718	-0.001275472	-0.02749961	-0.0004243627	-0.0007339514	0.007617735	0.009223523
	0.007788125	0.009070761	-0.0004243626	-0.0007339513	-0.000820969	-0.02790347	0.756448	-0.6215872
	-0.0004242406	-0.0007347804	0.007617735	0.009223523	0.756448	-0.6215872	-0.001337992	-0.02748613
1.2e+08	-0.003778175	-0.02971497	0.7167659	-0.6655423	0.00888791	0.009154267	-0.0004888509	-0.0008046231
	0.7167659	-0.6655423	-0.004277141	-0.02926427	-0.000488865	-0.0008036423	0.008699548	0.009344434
	0.00888791	0.009154267	-0.000488865	-0.0008036423	-0.003783281	-0.02977612	0.7159618	-0.6663736
	-0.0004888509	-0.0008046231	0.008699548	0.009344434	0.7159618	-0.6663736	-0.004357239	-0.02925081
1.3e+08	-0.006952482	-0.03121968	0.6738086	-0.7076747	0.009977337	0.009093969	-0.0005663165	-0.0008766541
	0.6738086	-0.7076747	-0.00749556	-0.03066566	-0.0005661894	-0.000875536	0.009773601	0.009325662
	0.009977337	0.009093969	-0.0005661894	-0.000875536	-0.006969746	-0.031294	0.6728906	-0.7085123
	-0.0005663165	-0.0008766541	0.009773601	0.009325662	0.6728906	-0.7085123	-0.007593753	-0.03064857
1.4e+08	-0.01029678	-0.03234582	0.6284368	-0.7470281	0.01103783	0.008892725	-0.0006585511	-0.0009486349
	0.6284368	-0.7470281	-0.01087647	-0.03167828	-0.0006582516	-0.000947399	0.01082205	0.009169715
	0.01103783	0.008892725	-0.0006582516	-0.000947399	-0.0103281	-0.03243119	0.6274008	-0.7478613
	-0.0006585511	-0.0009486349	0.01082205	0.009169715	0.6274008	-0.7478613	-0.01099304	-0.03165415
1.5e+08	-0.01375921	-0.03307613	0.5808254	-0.78347	0.01205139	0.008555819	-0.0007670164	-0.00101792
	0.5808254	-0.78347	-0.01436598	-0.03228576	-0.0007665155	-0.001016591	0.01182758	0.008881408
	0.01205139	0.008555819	-0.0007665155	-0.001016591	-0.01380617	-0.0331703	0.5796687	-0.7842875
	-0.0007670164	-0.00101792	0.01182758	0.008881408	0.5796687	-0.7842875	-0.01450076	-0.03225129
1.6e+08	-0.01728797	-0.03340051	0.5311578	-0.8168779	0.01300091	0.008090823	-0.0008926522	-0.001081522
	0.5311578	-0.8168779	-0.0179104	-0.03247936	-0.0008919246	-0.001080131	0.01277367	0.008467738
	0.01300091	0.008090823	-0.0008919245	-0.001080131	-0.01735179	-0.03350118	0.5298784	-0.817668
	-0.0008926522	-0.001081522	0.01277367	0.008467738	0.5298784	-0.817668	-0.01806281	-0.03243142
1.7e+08	-0.02083164	-0.03331553	0.4796242	-0.8471407	0.01387045	0.007507437	-0.001035821	-0.001136205
	0.4796242	-0.8471407	-0.02145676	-0.03225735	-0.001034846	-0.00113479	0.01364491	0.007937737
	0.01387045	0.007507437	-0.001034846	-0.00113479	-0.0209132	-0.03342036	0.4782215	-0.8478912
	-0.001035821	-0.001136205	0.01364491	0.007937737	0.4782215	-0.8478912	-0.02162574	-0.03219299
1.8e+08	-0.02433964	-0.03282403	0.4264211	-0.8741588	0.01464553	0.006817309	-0.001196268	-0.001178596
	0.4264211	-0.8741588	-0.02495323	-0.03162455	-0.00119503	-0.001177197	0.01442722	0.007302301
	0.01464553	0.006817309	-0.00119503	-0.001177197	-0.02443957	-0.03293072	0.4248955	-0.8748574
	-0.001196268	-0.001178596	0.01442722	0.007302301	0.4248955	-0.8748574	-0.02513735	-0.03154108
1.9e+08	-0.02776283	-0.03193489	0.3717502	-0.8978447	0.01531332	0.006033816	-0.001373101	-0.001205295
	0.3717502	-0.8978447	-0.02834978	-0.03059201	-0.001371593	-0.001203957	0.01510806	0.006573994
	0.01531332	0.006033816	-0.001371593	-0.001203957	-0.02788149	-0.03204114	0.3701032	-0.8984791
	-0.001373101	-0.001205295	0.01510806	0.006573994	0.3701032	-0.8984791	-0.02854724	-0.03048702
2e+08	-0.03105406	-0.0306627	0.3158176	-0.9181234	0.01586283	0.005171831	-0.001564792	-0.001212992
	0.3158176	-0.9181234	-0.03159869	-0.02917662	-0.001563015	-0.001211764	0.01567664	0.005766826
	0.01586283	0.005171831	-0.001563015	-0.001211764	-0.03119159	-0.03076627	0.3140517	-0.9186812
	-0.001564792	-0.001212992	0.01567664	0.005766826	0.3140517	-0.9186812	-0.03180742	-0.02904804
2.1e+08	-0.03416869	-0.0290275	0.2588329	-0.9349323	0.01628514	0.004247465	-0.001769195	-0.001198586
	0.2588329	-0.9349323	-0.03465515	-0.02740078	-0.00176716	-0.001197517	0.01612407	0.004896013
	0.01628514	0.004247465	-0.00176716	-0.001197517	-0.03432503	-0.02912614	0.2569518	-0.9354014
	-0.001769195	-0.001198586	0.01612407	0.004896013	0.2569518	-0.9354014	-0.03487282	-0.02724685
2.2e+08	-0.03706519	-0.0270543	0.2010087	-0.9482216	0.01657346	0.003277794	-0.001983591	-0.001159293
	0.2010087	-0.9482216	-0.03747779	-0.02529189	-0.001981318	-0.001158432	0.01644349	0.003977725
	0.01657346	0.003277794	-0.001981318	-0.001158432	-0.03724008	-0.02714581	0.1990171	-0.9485898
	-0.001983591	-0.001159293	0.01644349	0.003977725	0.1990171	-0.9485898	-0.03770189	-0.02511123
2.3e+08	-0.0397056	-0.02477273	0.1425593	-0.9579541	0.01672326	0.002280574	-0.002204746	-0.001092748
	0.1425593	-0.9579541	-0.04002914	-0.02288193	-0.002202264	-0.00109214	0.01663014	0.003028816
	0.01672326	0.002280574	-0.002202264	-0.00109214	-0.03989857	-0.02485491	0.140463	-0.9582098
	-0.002204746	-0.001092748	0.01663014	0.003028816	0.140463	-0.9582098	-0.04025701	-0.02267352
2.4e+08	-0.04205599	-0.0222165	0.0837004	-0.9641056	0.01673232	0.00127395	-0.002428987	-0.0009970911
	0.0837004	-0.9641056	-0.04227613	-0.02020692	-0.002426336	-0.0009967765	0.01668148	0.002066555
	0.01673232	0.00127395	-0.002426337	-0.0009967765	-0.04226635	-0.0222872	0.08150623	-0.9642374
	-0.002428987	-0.0009970911	0.01668148	0.002066555	0.08150623	-0.9642374	-0.04250502	-0.01997011
2.5e+08	-0.04408688	-0.01942295	0.02464805	-0.9666645	0.01660076	0.0002761582	-0.002652299	-0.0008710458
	0.02464805	-0.9666645	-0.04419046	-0.01730636	-0.002649526	-0.0008710573	0.01659712	0.001108347
	0.01660076	0.0002761582	-0.002649526	-0.0008710573	-0.04431372	-0.01948005	0.02236378	-0.9666615
	-0.002652299	-0.0008710458	0.01659712	0.001108347	0.02236378	-0.9666615	-0.04441755	-0.01704087
2.6e+08	-0.04577361	-0.01643242	-0.03438188	-0.9656319	0.01633101	-0.0006947601	-0.002870423	-0.0007139719
	-0.03438188	-0.9656319	-0.04574894	-0.01422261	-0.002867582	-0.0007143334	0.01637891	0.0001714616
	0.01633101	-0.0006947601	-0.002867582	-0.0007143334	-0.04601574	-0.0164739	-0.03674751	-0.9654836
	-0.002870423	-0.0007139719	0.01637891	0.0001714616	-0.03674751	-0.9654836	-0.04597138	-0.01392856
2.7e+08	-0.04709651	-0.01328773	-0.09317455	-0.9610213	0.01592776	-0.001621252	-0.003078971	-0.0005259023
	-0.09317455	-0.9610213	-0.04693368	-0.01100032	-0.003076121	-0.0005266275	0.01603082	-0.0007272383
	0.01592776	-0.001621252	-0.003076121	-0.0005266275	-0.04735256	-0.01331163	-0.09561186	-0.960718
	-0.003078971	-0.0005259023	0.01603082	-0.0007272383	-0.09561186	-0.960718	-0.04714869	-0.01067817
2.8e+08	-0.04804123	-0.01003349	-0.1515167	-0.952859	0.01539789	-0.002486526	-0.003273543	-0.0003075606
	-0.1515167	-0.952859	-0.04773237	-0.007685689	-0.003270746	-0.0003086518	0.0155589	-0.001571557
	0.01539789	-0.002486526	-0.003270746	-0.0003086518	-0.04830957	-0.010038	-0.1540152	-0.9523914
	-0.003273543	-0.0003075606	0.0155589	-0.001571557	-0.1540152	-0.9523914	-0.04793725	-0.007336297
2.9e+08	-0.04859885	-0.006715554	-0.2091975	-0.9411831	0.01475033	-0.003274816	-0.003449843	-6.035638e-05
	-0.2091975	-0.9411831	-0.04813836	-0.004325891	-0.00344716	-6.180382e-05	0.01497119	-0.002346213
	0.01475033	-0.003274816	-0.00344716	-6.180382e-05	-0.04887762	-0.006698998	-0.2117457	-0.9405429
	-0.003449843	-6.035638e-05	0.01497119	-0.002346213	-0.2117457	-0.9405429	-0.04833053	-0.003950443
3e+08	-0.04876594	-0.003380314	-0.266009	-0.9260441	0.01399593	-0.003971627	-0.003603794	0.0002136402
	-0.266009	-0.9260441	-0.0481507	-0.0009683372	-0.003601286	0.0002118583	0.01427756	-0.003037072
	0.01399593	-0.003971627	-0.003601286	0.0002118583	-0.04905309	-0.003341213	-0.2685947	-0.9252238
	-0.003603794	0.0002136402	0.01427756	-0.003037072	-0.2685947	-0.9252238	-0.04832776	-0.0005683555
3.1e+08	-0.0485446	-7.407829e-05	-0.3217467	-0.9075043	0.01314729	-0.004563961	-0.003731648	0.0005117431
	-0.3217467	-0.9075043	-0.0477741	0.002339975	-0.00372937	0.0005096604	0.01348955	-0.003631366
	0.01314729	-0.004563961	-0.00372937	0.0005096604	-0.04883783	-1.11715e-05	-0.3243571	-0.9064972
	-0.003731648	0.0005117431	0.01348955	-0.003631366	-0.3243571	-0.9064972	-0.04793385	0.002762657
3.2e+08	-0.04794234	0.003157554	-0.3762105	-0.8856376	0.01221854	-0.005040519	-0.003830082	0.0008307136
	-0.3762105	-0.8856376	-0.04701883	0.005553111	-0.003828082	0.0008283741	0.01262022	-0.004117878
	0.01221854	-0.005040519	-0.003828082	0.0008283741	-0.0482392	0.003245279	-0.378832	-0.8844378
	-0.003830082	0.0008307136	0.01262022	-0.004117878	-0.378832	-0.8844378	-0.04715932	0.005996379
3.3e+08	-0.04697198	0.006270322	-0.429205	-0.8605292	0.01122513	-0.005391877	-0.003896287	0.001166839
	-0.429205	-0.8605292	-0.04590052	0.008626846	-0.003894605	0.001164296	0.01168391	-0.004487122
	0.01122513	-0.005391877	-0.003894605	0.001164296	-0.04726985	0.0063836	-0.4318236	-0.859132
	-0.003896287	0.001166839	0.01168391	-0.004487122	-0.4318236	-0.859132	-0.04602008	0.009088333
3.4e+08	-0.04565141	0.009221914	-0.4805402	-0.8322755	0.01018358	-0.005610634	-0.003928035	0.001516026
	-0.4805402	-0.8322755	-0.04443991	0.01151929	-0.003926701	0.001513341	0.01069604	-0.004731483
	0.01018358	-0.005610634	-0.003926701	0.001513341	-0.04594755	0.009361176	-0.4831412	-0.8306771
	-0.003928035	0.001516026	0.01069604	-0.004731483	-0.4831412	-0.8306771	-0.0445372	0.01199641
3.5e+08	-0.04400334	0.01197252	-0.5300322	-0.8009837	0.009111224	-0.005691533	-0.003923736	0.001873905
	-0.5300322	-0.8009837	-0.04266252	0.01419143	-0.003922766	0.001871143	0.009672859	-0.004845335
	0.009111224	-0.005691533	-0.003922766	0.001871143	-0.04429493	0.01213788	-0.5326005	-0.7991815
	-0.003923736	0.001873905	0.009672859	-0.004845335	-0.5326005	-0.7991815	-0.04273652	0.01468145
3.6e+08	-0.04205498	0.01448539	-0.5775034	-0.7667716	0.008025949	-0.005631544	-0.003882468	0.002235936
	-0.5775034	-0.7667716	-0.04059827	0.01660771	-0.003881864	0.002233167	0.008631215	-0.004825131
	0.008025949	-0.005631544	-0.003881864	0.002233167	-0.04233913	0.01467661	-0.5800237	-0.7647638
	-0.003882468	0.002235936	0.008631215	-0.004825131	-0.5800237	-0.7647638	-0.04064834	0.01710773
3.7e+08	-0.03983759	0.0167273	-0.6227835	-0.729767	0.006945898	-0.005429918	-0.003803992	0.00259753
	-0.6227835	-0.729767	-0.03828102	0.01873648	-0.003803743	0.002594822	0.007588273	-0.004669461
	0.006945898	-0.005429918	-0.003803743	0.002594822	-0.04011143	0.0169438	-0.6252401	-0.7275532
	-0.003803992	0.00259753	0.007588273	-0.004669461	-0.6252401	-0.7275532	-0.03830689	0.01924356
3.8e+08	-0.03738607	0.01866903	-0.66571	-0.6901075	0.005889198	-0.005088211	-0.003688745	0.002954158
	-0.66571	-0.6901075	-0.03574808	0.02055045	-0.003688827	0.002951577	0.00656126	-0.004379083
	0.005889198	-0.005088211	-0.003688827	0.002951577	-0.03764676	0.01890987	-0.6680868	-0.6876883
	-0.003688745	0.002954158	0.00656126	-0.004379083	-0.6680868	-0.6876883	-0.03574986	0.02106158
3.9e+08	-0.03473848	0.02028573	-0.7061283	-0.6479401	0.004873668	-0.004610263	-0.003537816	0.003301464
	-0.7061283	-0.6479401	-0.03303966	0.02202704	-0.00353819	0.003299069	0.005567196	-0.003956911
	0.004873668	-0.004610263	-0.00353819	0.003299069	-0.03498326	0.02054962	-0.7084094	-0.6453174
	-0.003537816	0.003301464	0.005567196	-0.003956911	-0.7084094	-0.6453174	-0.03301788	0.02253925
4e+08	-0.03193545	0.02155724	-0.7438928	-0.6034208	0.003916534	-0.004002154	-0.003352897	0.003635367
	-0.7438928	-0.6034208	-0.03019829	0.02314868	-0.003353513	0.00363321	0.004622629	-0.003407987
	0.003916534	-0.004002154	-0.003353513	0.00363321	-0.03216169	0.02184256	-0.7460621	-0.6005976
	-0.003352897	0.003635367	0.004622629	-0.003407987	-0.7460621	-0.6005976	-0.03015385	0.02365907
4.1e+08	-0.02901966	0.02246843	-0.7788672	-0.556714	0.003034157	-0.003272117	-0.003136221	0.003952157
	-0.7788672	-0.556714	-0.02726819	0.02390307	-0.003137019	0.003950279	0.00374337	-0.002739406
	0.003034157	-0.003272117	-0.003137019	0.003950279	-0.0292249	0.0227732	-0.7809087	-0.5536945
	-0.003136221	0.003952157	0.00374337	-0.002739406	-0.7809087	-0.5536945	-0.02720238	0.02440885
4.2e+08	-0.0260352	0.02300928	-0.8109251	-0.5079923	0.002241761	-0.002430418	-0.002890484	0.004248572
	-0.8109251	-0.5079923	-0.02429466	0.0242833	-0.002891395	0.004247001	0.002944241	-0.001960219
	0.002241761	-0.002430418	-0.002891395	0.004247001	-0.0262172	0.02333122	-0.8128227	-0.504782
	-0.002890484	0.004248572	0.002944241	-0.001960219	-0.8128227	-0.504782	-0.02420913	0.02478187
4.3e+08	-0.02302699	0.02317513	-0.8399502	-0.4574356	0.001553184	-0.001489211	-0.002618758	0.004521866
	-0.8399502	-0.4574356	-0.02132339	0.02428796	-0.002619708	0.004520614	0.002238836	-0.001081298
	0.001553184	-0.001489211	-0.002619708	0.004520614	-0.02318376	0.02351165	-0.8416883	-0.454041
	-0.002618758	0.004521866	0.002238836	-0.001081298	-0.8416883	-0.454041	-0.02122015	0.02477693
4.4e+08	-0.02004011	0.02296665	-0.8658371	-0.4052307	0.0009806471	-0.0004623516	-0.002324385	0.004769851
	-0.8658371	-0.4052307	-0.01839985	0.02392113	-0.002325297	0.004768916	0.001639297	-0.0001151788
	0.0009806471	-0.0004623516	-0.002325297	0.004768916	-0.02016996	0.0233149	-0.8674002	-0.4016597
	-0.002324385	0.004769851	0.001639297	-0.0001151788	-0.8674002	-0.4016597	-0.0182812	0.02439836
4.5e+08	-0.0171192	0.02238984	-0.8884918	-0.3515707	0.0005345403	0.0006348142	-0.002010874	0.004990928
	-0.8884918	-0.3515707	-0.01556858	0.0231923	-0.002011673	0.004990291	0.001156108	0.0009241338
	0.0005345403	0.0006348142	-0.002011673	0.004990291	-0.01722076	0.02274677	-0.8898649	-0.3478323
	-0.002010874	0.004990928	0.001156108	0.0009241338	-0.8898649	-0.3478323	-0.01543712	0.02365597
4.6e+08	-0.01430779	0.02145599	-0.907832	-0.2966544	0.0002232429	0.001785684	-0.001681794	0.005184091
	-0.907832	-0.2966544	-0.0128726	0.02211622	-0.001682408	0.005183717	0.0007979174	0.002021376
	0.0002232429	0.001785684	-0.001682408	0.005183717	-0.01438005	0.02181834	-0.9090004	-0.2927588
	-0.001681794	0.005184091	0.0007979174	0.002021376	-0.9090004	-0.2927588	-0.01273114	0.02256488
4.7e+08	-0.01164774	0.02018141	-0.9237872	-0.2406855	5.296836e-05	0.002972664	-0.001340666	0.005348919
	-0.9237872	-0.2406855	-0.01035276	0.0207127	-0.00134103	0.005348758	0.000571384	0.003160267
	5.296836e-05	0.002972664	-0.00134103	0.005348758	-0.01169008	0.02054577	-0.9247369	-0.236644
	-0.001340666	0.005348919	0.000571384	0.003160267	-0.9247369	-0.236644	-0.01020433	0.02114522
4.8e+08	-0.009178617	0.01858731	-0.9362996	-0.1838719	2.764555e-05	0.004177443	-0.0009908594	0.005485539
	-0.9362996	-0.1838719	-0.008047181	0.01900626	-0.0009909196	0.005485527	0.000481055	0.004323761
	2.764555e-05	0.004177443	-0.0009909196	0.005485527	-0.009190829	0.01895015	-0.9370171	-0.179697
	-0.0009908593	0.005485539	0.0004810551	0.004323761	-0.9370171	-0.179697	-0.007894939	0.01942193
4.9e+08	-0.006937143	0.01669938	-0.9453242	-0.1264249	0.0001488347	0.005381293	-0.000635502	0.005594578
	-0.9453242	-0.1264249	-0.005990668	0.0170258	-0.0006352173	0.005594639	0.0005292771	0.005494324
	0.0001488347	0.005381293	-0.0006352173	0.005594639	-0.006919453	0.01705714	-0.9457968	-0.1221301
	-0.000635502	0.005594578	0.0005292771	0.005494324	-0.9457968	-0.1221301	-0.005837895	0.01742432
5e+08	-0.004956682	0.01454751	-0.9508289	-0.06855864	0.0004156814	0.006565373	-0.0002773962	0.005677099
	-0.9508289	-0.06855864	-0.004214256	0.01480416	-0.0002767412	0.005677148	0.0007161417	0.006654216
