!$
! Info: Touchstone file created by Circ.  Input file=Tx_6in_Rx_93ohms_TxVia_35mils_RxVia_45mils.circ
!$
# Hz S RI R 50
0	0.005610469	8.668668e-26	7.473331e-10	9.69744e-28	5.17218e-05	1.042559e-23	3.711959e-10	2.169465e-28
	7.473332e-10	9.697227e-28	0.005608807	1.042212e-25	2.515344e-09	3.719827e-27	5.158082e-05	1.263117e-23
	5.153567e-05	1.038182e-23	2.515344e-09	3.719836e-27	0.005621296	8.668705e-26	7.497185e-10	1.038187e-27
	3.711959e-10	2.169402e-28	4.97336e-05	1.269351e-23	7.497189e-10	1.038203e-27	0.005621983	9.763592e-26
1e+07	0.008050966	-0.0001378223	9.532426e-10	1.377622e-09	0.0001709069	0.001243509	5.886116e-10	6.92544e-10
	9.532426e-10	1.377622e-09	0.008212936	-0.0001458813	3.591986e-09	6.8926e-09	0.0001684331	0.001239258
	0.0001709016	0.00124351	3.591986e-09	6.8926e-09	0.008233058	-0.0001453203	9.510421e-10	1.39622e-09
	5.886116e-10	6.925439e-10	0.0001683731	0.001239268	9.510419e-10	1.39622e-09	0.008060146	-0.0001492196
2e+07	0.009665457	-0.002203769	1.331852e-09	2.397073e-09	0.0003670134	0.002488185	9.174293e-10	1.144537e-09
	1.331852e-09	2.397073e-09	0.00977182	-0.002277311	4.734204e-09	1.213577e-08	0.0003601314	0.002481339
	0.0003670148	0.00248819	4.734204e-09	1.213577e-08	0.009808585	-0.002279151	1.311324e-09	2.429981e-09
	9.174292e-10	1.144537e-09	0.0003601231	0.002481374	1.311323e-09	2.429981e-09	0.009654714	-0.002225065
3e+07	0.01046133	-0.005040497	1.684413e-09	3.335713e-09	0.000763897	0.003639976	1.27461e-09	1.526475e-09
	1.684413e-09	3.335713e-09	0.01050979	-0.005132889	5.501444e-09	1.721366e-08	0.0007392861	0.003635181
	0.0007638995	0.003639975	5.501444e-09	1.721366e-08	0.01057314	-0.005141712	1.628371e-09	3.391794e-09
	1.27461e-09	1.526475e-09	0.0007392861	0.003635186	1.628371e-09	3.391794e-09	0.0104191	-0.005066268
4e+07	0.0106411	-0.008135074	2.055448e-09	4.197322e-09	0.001321963	0.004709478	1.677598e-09	1.828537e-09
	2.055448e-09	4.197322e-09	0.01062636	-0.008229402	6.145091e-09	2.22022e-08	0.001281565	0.004709099
	0.001321963	0.004709476	6.145091e-09	2.22022e-08	0.01072539	-0.008251401	1.950508e-09	4.287566e-09
	1.677598e-09	1.828537e-09	0.00128156	0.004709097	1.950508e-09	4.287566e-09	0.01055636	-0.008159121
5e+07	0.01028236	-0.01132055	2.441969e-09	4.984243e-09	0.001999748	0.005689898	2.116624e-09	2.045324e-09
	2.441969e-09	4.984243e-09	0.01019913	-0.01140264	6.696784e-09	2.711641e-08	0.001940862	0.005697372
	0.001999748	0.005689897	6.696784e-09	2.711641e-08	0.0103417	-0.01144605	2.277639e-09	5.121637e-09
	2.116624e-09	2.045324e-09	0.001940859	0.005697371	2.277639e-09	5.121637e-09	0.01014491	-0.0113345
6e+07	0.009432367	-0.0144921	2.834589e-09	5.698452e-09	0.002785685	0.006568687	2.577369e-09	2.173713e-09
	2.834589e-09	5.698452e-09	0.009276615	-0.0145481	7.165735e-09	3.198514e-08	0.002706163	0.006587876
	0.002785686	0.006568688	7.165735e-09	3.198514e-08	0.009468771	-0.01462263	2.603226e-09	5.897377e-09
	2.577369e-09	2.173713e-09	0.002706166	0.006587875	2.603226e-09	5.897377e-09	0.009233619	-0.0144858
7e+07	0.008129676	-0.01757002	3.225026e-09	6.342055e-09	0.003666207	0.007333953	3.046108e-09	2.212554e-09
	3.225026e-09	6.342055e-09	0.007898988	-0.01758601	7.564962e-09	3.683334e-08	0.00356453	0.007369085
	0.003666209	0.007333953	7.564962e-09	3.683334e-08	0.008144896	-0.01770231	2.921698e-09	6.618091e-09
	3.046108e-09	2.212554e-09	0.003564538	0.007369081	2.921698e-09	6.618092e-09	0.007862781	-0.01753202
8e+07	0.006411587	-0.02048816	3.60508e-09	6.916249e-09	0.004626079	0.007975163	3.509042e-09	2.162108e-09
	3.60508e-09	6.91625e-09	0.006105307	-0.02044991	7.909683e-09	4.16775e-08	0.004501422	0.008030762
	0.004626081	0.007975163	7.909683e-09	4.16775e-08	0.006407331	-0.02061933	3.227634e-09	7.286204e-09
	3.509042e-09	2.162108e-09	0.004501432	0.008030756	3.227634e-09	7.286204e-09	0.00607144	-0.0204059
9e+07	0.004317752	-0.02318871	3.965519e-09	7.422108e-09	0.005648648	0.008483528	3.946028e-09	2.023e-09
	3.965519e-09	7.422108e-09	0.00393731	-0.02308145	8.210677e-09	4.65224e-08	0.005500953	0.008564355
	0.00564865	0.008483528	8.210677e-09	4.65224e-08	0.004295952	-0.02331584	3.511013e-09	7.901411e-09
	3.946028e-09	2.023e-09	0.00550096	0.008564349	3.511013e-09	7.901412e-09	0.003901153	-0.02304863
1e+08	0.001898183	-0.02561167	4.282204e-09	7.856545e-09	0.006716002	0.00885187	4.299858e-09	1.800391e-09
	4.282204e-09	7.856545e-09	0.001448673	-0.02541844	8.451522e-09	5.134559e-08	0.006546174	0.008963023
	0.006716002	0.00885187	8.451522e-09	5.134559e-08	0.001862468	-0.02572993	3.749781e-09	8.462662e-09
	4.299858e-09	1.800391e-09	0.006546174	0.008963023	3.749781e-09	8.462662e-09	0.001404163	-0.02539933
1.1e+08	-0.0007708677	-0.0277854	4.576586e-09	8.242342e-09	0.00780709	0.009078383	4.630787e-09	1.513677e-09
	4.576586e-09	8.242342e-09	-0.001275472	-0.02749961	8.670679e-09	5.620448e-08	0.007617735	0.009223523
	0.00780709	0.009078383	8.670679e-09	5.620448e-08	-0.0008104247	-0.02790098	3.981746e-09	9.000725e-09
	4.630787e-09	1.513677e-09	0.007617735	0.009223523	3.981746e-09	9.000725e-09	-0.001337992	-0.02748613
1.2e+08	-0.003719756	-0.02964992	4.826613e-09	8.569007e-09	0.008906825	0.009161351	4.905015e-09	1.141729e-09
	4.826613e-09	8.569007e-09	-0.004277141	-0.02926427	8.867428e-09	6.109252e-08	0.008699548	0.009344434
	0.008906825	0.009161351	8.867428e-09	6.109252e-08	-0.003767027	-0.02976685	4.179694e-09	9.492363e-09
	4.905015e-09	1.141729e-09	0.008699548	0.009344434	4.179694e-09	9.492363e-09	-0.004357239	-0.02925081
1.3e+08	-0.006891089	-0.03116094	5.020403e-09	8.843957e-09	0.009996238	0.009100596	5.106569e-09	7.01708e-10
	5.020403e-09	8.843957e-09	-0.00749556	-0.03066566	9.050448e-09	6.601783e-08	0.009773601	0.009325662
	0.009996238	0.009100596	9.050448e-09	6.601783e-08	-0.006948419	-0.03127998	4.333631e-09	9.944697e-09
	5.106569e-09	7.01708e-10	0.009773601	0.009325662	4.333631e-09	9.944697e-09	-0.007593753	-0.03064857
1.4e+08	-0.01023287	-0.03229288	5.149906e-09	9.073387e-09	0.0110567	0.00889891	5.223813e-09	2.042953e-10
	5.149906e-09	9.073387e-09	-0.01087647	-0.03167828	9.230532e-09	7.098464e-08	0.01082205	0.009169715
	0.0110567	0.00889891	9.230532e-09	7.098464e-08	-0.01030214	-0.03241381	4.437678e-09	1.036282e-08
	5.223813e-09	2.042953e-10	0.01082205	0.009169715	4.437678e-09	1.036282e-08	-0.01099304	-0.03165415
1.5e+08	-0.01369318	-0.03302862	5.209507e-09	9.261434e-09	0.01207019	0.00856155	5.246508e-09	-3.413465e-10
	5.209507e-09	9.261434e-09	-0.01436598	-0.03228576	9.41809e-09	7.599495e-08	0.01182758	0.008881408
	0.01207019	0.00856155	9.41809e-09	7.599495e-08	-0.01377596	-0.03315064	4.488334e-09	1.07493e-08
	5.246508e-09	-3.413465e-10	0.01182758	0.008881408	4.488334e-09	1.07493e-08	-0.01450076	-0.03225129
1.6e+08	-0.01722016	-0.03335817	5.186068e-09	9.425935e-09	0.01301956	0.008096077	5.165449e-09	-9.150278e-10
	5.186068e-09	9.425935e-09	-0.0179104	-0.03247936	9.623283e-09	8.104915e-08	0.01277367	0.008467738
	0.01301956	0.008096077	9.623283e-09	8.104915e-08	-0.01731769	-0.03348012	4.474474e-09	1.111989e-08
	5.165449e-09	-9.150278e-10	0.01277367	0.008467738	4.474474e-09	1.111989e-08	-0.01806281	-0.03243142
1.7e+08	-0.02076233	-0.03327818	5.073513e-09	9.579354e-09	0.01388887	0.007512195	4.974755e-09	-1.501304e-09
	5.073513e-09	9.579354e-09	-0.02145676	-0.03225735	9.855547e-09	8.61462e-08	0.01364491	0.007937737
	0.01388887	0.007512195	9.855547e-09	8.61462e-08	-0.0208756	-0.03339867	4.391697e-09	1.148459e-08
	4.974755e-09	-1.501304e-09	0.01364491	0.007937737	4.391697e-09	1.148459e-08	-0.02162574	-0.03219299
1.8e+08	-0.02426913	-0.0327916	4.867451e-09	9.735569e-09	0.0146636	0.006821556	4.670752e-09	-2.083838e-09
	4.867451e-09	9.735569e-09	-0.02495323	-0.03162455	1.012372e-08	9.128379e-08	0.01442722	0.007302301
	0.0146636	0.006821556	1.012372e-08	9.128379e-08	-0.02439888	-0.03290904	4.236922e-09	1.185451e-08
	4.670752e-09	-2.083838e-09	0.01442722	0.007302301	4.236922e-09	1.185451e-08	-0.02513735	-0.03154108
1.9e+08	-0.02769145	-0.03190737	4.565512e-09	9.909626e-09	0.0153309	0.00603755	4.25209e-09	-2.645698e-09
	4.565512e-09	9.909626e-09	-0.02834978	-0.03059201	1.043604e-08	9.645854e-08	0.01510806	0.006573994
	0.0153309	0.00603755	1.043604e-08	9.645854e-08	-0.02783818	-0.03202005	4.00867e-09	1.224164e-08
	4.25209e-09	-2.645698e-09	0.01510806	0.006573994	4.00867e-09	1.224164e-08	-0.02854724	-0.03048702
2e+08	-0.03098216	-0.03064013	4.167634e-09	1.011743e-08	0.0158798	0.005175067	3.719824e-09	-3.169677e-09
	4.167634e-09	1.011743e-08	-0.03159869	-0.02917662	1.080005e-08	1.01666e-07	0.01567664	0.005766826
	0.0158798	0.005175067	1.080005e-08	1.01666e-07	-0.03114616	-0.03074624	3.707303e-09	1.265866e-08
	3.719824e-09	-3.169677e-09	0.01567664	0.005766826	3.707303e-09	1.265866e-08	-0.03180742	-0.02904804
2.1e+08	-0.03409672	-0.02900991	3.676297e-09	1.037535e-08	0.01630136	0.004250236	3.077443e-09	-3.638615e-09
	3.676297e-09	1.037535e-08	-0.03465515	-0.02740078	1.122263e-08	1.069009e-07	0.01612407	0.004896013
	0.01630136	0.004250236	1.122263e-08	1.069009e-07	-0.03427804	-0.02910758	3.335232e-09	1.31186e-08
	3.077443e-09	-3.638615e-09	0.01612407	0.004896013	3.335232e-09	1.31186e-08	-0.03487282	-0.02724685
2.2e+08	-0.03699363	-0.02704171	3.096678e-09	1.069981e-08	0.01658878	0.003280154	2.330864e-09	-4.035727e-09
	3.096678e-09	1.069981e-08	-0.03747779	-0.02529189	1.170984e-08	1.121568e-07	0.01644349	0.003977725
	0.01658878	0.003280154	1.170984e-08	1.121568e-07	-0.03719212	-0.027129	2.897061e-09	1.363451e-08
	2.330864e-09	-4.035727e-09	0.01644349	0.003977725	2.897061e-09	1.363451e-08	-0.03770189	-0.02511123
2.3e+08	-0.03963499	-0.02476511	2.436738e-09	1.110681e-08	0.01673753	0.002282598	1.488375e-09	-4.344918e-09
	2.436738e-09	1.110681e-08	-0.04002914	-0.02288193	1.226693e-08	1.174267e-07	0.01663014	0.003028816
	0.01673753	0.002282598	1.226693e-08	1.174267e-07	-0.03985025	-0.02484005	2.399668e-09	1.421909e-08
	1.488375e-09	-4.344918e-09	0.01663014	0.003028816	2.399668e-09	1.421909e-08	-0.04025701	-0.02267352
2.4e+08	-0.04198692	-0.02221376	1.707204e-09	1.161144e-08	0.01674541	0.001275735	5.605551e-10	-4.551095e-09
	1.707204e-09	1.161144e-08	-0.04227613	-0.02020692	1.289818e-08	1.227027e-07	0.01668148	0.002066555
	0.01674541	0.001275735	1.289818e-08	1.227027e-07	-0.04221832	-0.02227439	1.852201e-09	1.488422e-08
	5.605551e-10	-4.551095e-09	0.01668148	0.002066555	1.852201e-09	1.488422e-08	-0.04250502	-0.01997011
2.5e+08	-0.04401994	-0.0194249	9.214805e-10	1.222733e-08	0.01661253	0.0002778261	-4.398529e-10	-4.640465e-09
	9.214805e-10	1.222733e-08	-0.04419046	-0.01730636	1.360685e-08	1.279763e-07	0.01659712	0.001108347
	0.01661253	0.0002778261	1.360685e-08	1.279763e-07	-0.04426661	-0.01946929	1.266007e-09	1.564055e-08
	-4.398529e-10	-4.640465e-09	0.01659712	0.001108347	1.266007e-09	1.564055e-08	-0.04441755	-0.01704087
2.6e+08	-0.04570937	-0.01643883	9.685373e-11	1.299054e-08	0.01634133	-0.0006930681	-1.497783e-09	-4.601282e-09
	9.685373e-11	1.299054e-08	-0.04574894	-0.01422261	1.439024e-08	1.33248e-07	0.01637891	0.0001714616
	0.01634133	-0.0006930681	1.439024e-08	1.33248e-07	-0.04597021	-0.01646505	6.559512e-10	1.652161e-08
	-1.497783e-09	-4.601282e-09	0.01637891	0.0001714616	6.559512e-10	1.652161e-08	-0.04597138	-0.01392856
2.7e+08	-0.04703555	-0.01329824	-7.432351e-10	1.389098e-08	0.01593652	-0.001619374	-2.59705e-09	-4.422936e-09
	-7.432351e-10	1.389098e-08	-0.04693368	-0.01100032	1.525594e-08	1.385011e-07	0.01603082	-0.0007272383
	0.01593652	-0.001619374	1.525594e-08	1.385011e-07	-0.04730921	-0.01330449	4.255869e-11	1.751474e-08
	-2.59705e-09	-4.422936e-09	0.01603082	-0.0007272383	4.255869e-11	1.751474e-08	-0.04714869	-0.01067817
2.8e+08	-0.04798411	-0.01004768	-1.578317e-09	1.492998e-08	0.01540501	-0.002484281	-3.719572e-09	-4.097081e-09
	-1.578317e-09	1.492998e-08	-0.04773237	-0.007685689	1.620478e-08	1.437237e-07	0.0155589	-0.001571557
	0.01540501	-0.002484281	1.620478e-08	1.437237e-07	-0.04826897	-0.01003225	-5.569858e-10	1.861923e-08
	-3.719572e-09	-4.097081e-09	0.0155589	-0.001571557	-5.569858e-10	1.861923e-08	-0.04793725	-0.007336297
2.9e+08	-0.04854607	-0.00673292	-2.387055e-09	1.610966e-08	0.01475573	-0.003272007	-4.845849e-09	-3.617757e-09
	-2.387055e-09	1.610966e-08	-0.04813836	-0.004325891	1.723508e-08	1.489052e-07	0.01497119	-0.002346213
	0.01475573	-0.003272007	1.723508e-08	1.489052e-07	-0.04884029	-0.006694255	-1.12493e-09	1.98356e-08
	-4.845849e-09	-3.617757e-09	0.01497119	-0.002346213	-1.12493e-09	1.98356e-08	-0.04833053	-0.003950443
3e+08	-0.04871794	-0.003400271	-3.147534e-09	1.742872e-08	0.01399958	-0.003968045	-5.955304e-09	-2.981538e-09
	-3.147534e-09	1.742872e-08	-0.0481507	-0.0009683372	1.83436e-08	1.540349e-07	0.01427756	-0.003037072
	0.01399958	-0.003968045	1.83436e-08	1.540349e-07	-0.04901947	-0.003336997	-1.643195e-09	2.116145e-08
	-5.955304e-09	-2.981538e-09	0.01427756	-0.003037072	-1.643195e-09	2.116145e-08	-0.04832776	-0.0005683555
3.1e+08	-0.04850174	-9.598206e-05	-3.837832e-09	1.888235e-08	0.01314917	-0.004559386	-7.026593e-09	-2.187704e-09
	-3.837832e-09	1.888235e-08	-0.0477741	0.002339975	1.952555e-08	1.591027e-07	0.01348955	-0.003631366
	0.01314917	-0.004559386	1.952555e-08	1.591027e-07	-0.04880831	-6.937112e-06	-2.093881e-09	2.259141e-08
	-7.026593e-09	-2.187704e-09	0.01348955	-0.003631366	-2.093881e-09	2.259141e-08	-0.04793385	0.002762657
3.2e+08	-0.0479049	0.003134395	-4.43662e-09	2.046223e-08	0.01221865	-0.005034724	-8.037945e-09	-1.238387e-09
	-4.43662e-09	2.046223e-08	-0.04701883	0.005553111	2.077449e-08	1.640985e-07	0.01262022	-0.004117878
	0.01221865	-0.005034724	2.077449e-08	1.640985e-07	-0.04821406	0.003250134	-2.459791e-09	2.41171e-08
	-8.037945e-09	-1.238387e-09	0.01262022	-0.004117878	-2.459791e-09	2.41171e-08	-0.04715932	0.005996379
3.3e+08	-0.04694015	0.006246642	-4.923753e-09	2.215658e-08	0.01122352	-0.005384633	-8.967534e-09	-1.386719e-10
	-4.923753e-09	2.215658e-08	-0.04590052	0.008626846	2.208246e-08	1.690132e-07	0.01168391	-0.004487122
	0.01122352	-0.005384633	2.208246e-08	1.690132e-07	-0.0472493	0.006389722	-2.724963e-09	2.572727e-08
	-8.967534e-09	-1.386719e-10	0.01168391	-0.004487122	-2.724963e-09	2.572727e-08	-0.04602008	0.009088333
3.4e+08	-0.04562528	0.009198468	-5.280847e-09	2.395041e-08	0.01018031	-0.005601713	-9.793865e-09	1.103336e-09
	-5.280847e-09	2.395041e-08	-0.04443991	0.01151929	2.344001e-08	1.738386e-07	0.01069604	-0.004731483
	0.01018031	-0.005601713	2.344001e-08	1.738386e-07	-0.04593169	0.009369245	-2.875153e-09	2.740804e-08
	-9.793865e-09	1.103336e-09	0.01069604	-0.004731483	-2.875153e-09	2.740804e-08	-0.0445372	0.01199641
3.5e+08	-0.04398291	0.01195007	-5.491809e-09	2.582581e-08	0.009106404	-0.005680712	-1.049619e-08	2.476507e-09
	-5.491809e-09	2.582581e-08	-0.04266252	0.01419143	2.48363e-08	1.785677e-07	0.009672859	-0.004845335
	0.009106404	-0.005680712	2.48363e-08	1.785677e-07	-0.04428379	0.01214859	-2.898306e-09	2.914314e-08
	-1.049619e-08	2.476507e-09	0.009672859	-0.004845335	-2.898306e-09	2.914314e-08	-0.04273652	0.01468145
3.6e+08	-0.04204013	0.0144647	-5.543305e-09	2.776234e-08	0.008019703	-0.005618609	-1.105491e-08	3.966729e-09
	-5.543305e-09	2.776234e-08	-0.04059827	0.01660771	2.625929e-08	1.831948e-07	0.008631215	-0.004825131
	0.008019703	-0.005618609	2.625929e-08	1.831948e-07	-0.04233262	0.01469067	-2.784943e-09	3.091434e-08
	-1.105491e-08	3.966729e-09	0.008631215	-0.004825131	-2.784943e-09	3.091434e-08	-0.04064834	0.01710773
3.7e+08	-0.03982813	0.01670913	-5.425164e-09	2.973752e-08	0.006938384	-0.005414671	-1.145205e-08	5.557008e-09
	-5.425164e-09	2.973752e-08	-0.03828102	0.01873648	2.769593e-08	1.877162e-07	0.007588273	-0.004669461
	0.006938384	-0.005414671	2.769593e-08	1.877162e-07	-0.04010936	0.01696191	-2.528482e-09	3.270191e-08
	-1.145205e-08	5.557008e-09	0.007588273	-0.004669461	-2.528482e-09	3.270191e-08	-0.03830689	0.01924356
3.8e+08	-0.0373817	0.01865408	-5.130668e-09	3.172733e-08	0.0058806	-0.005070468	-1.167164e-08	7.227643e-09
	-5.130668e-09	3.172733e-08	-0.03574808	0.02055045	2.913237e-08	1.921296e-07	0.00656126	-0.004379083
	0.0058806	-0.005070468	2.913237e-08	1.921296e-07	-0.03764884	0.01893271	-2.125471e-09	3.448509e-08
	-1.167164e-08	7.227643e-09	0.00656126	-0.004379083	-2.125471e-09	3.448509e-08	-0.03574986	0.02106158
3.9e+08	-0.03473881	0.02027469	-4.656764e-09	3.370683e-08	0.004864196	-0.004589864	-1.170014e-08	8.956449e-09
	-4.656764e-09	3.370683e-08	-0.03303966	0.02202704	3.055425e-08	1.964349e-07	0.005567196	-0.003956911
	0.004864196	-0.004589864	3.055425e-08	1.964349e-07	-0.0349891	0.02057783	-1.57572e-09	3.624264e-08
	-1.170014e-08	8.956449e-09	0.005567196	-0.003956911	-1.57572e-09	3.624264e-08	-0.03301788	0.02253925
4e+08	-0.03194	0.02155074	-4.004152e-09	3.565076e-08	0.003906421	-0.003978962	-1.152683e-08	1.071906e-08
	-4.004152e-09	3.565076e-08	-0.03019829	0.02314868	3.194699e-08	2.00634e-07	0.004622629	-0.003407987
	0.003906421	-0.003978962	3.194699e-08	2.00634e-07	-0.03217083	0.02187673	-8.823315e-10	3.795343e-08
	-1.152683e-08	1.071906e-08	0.004622629	-0.003407987	-8.823315e-10	3.795343e-08	-0.03015385	0.02365907
4.1e+08	-0.02902788	0.02246703	-3.177278e-09	3.753411e-08	0.003023654	-0.003246022	-1.114417e-08	1.248929e-08
	-3.177278e-09	3.753411e-08	-0.02726819	0.02390307	3.329608e-08	2.047308e-07	0.00374337	-0.002739406
	0.003023654	-0.003246022	3.329608e-08	2.047308e-07	-0.02923677	0.02281385	-5.163674e-11	3.959692e-08
	-1.114417e-08	1.248929e-08	0.00374337	-0.002739406	-5.163674e-11	3.959692e-08	-0.02720238	0.02440885
4.2e+08	-0.02604647	0.02301349	-2.184217e-09	3.933272e-08	0.002231136	-0.002401341	-1.054811e-08	1.423956e-08
	-2.184217e-09	3.933272e-08	-0.02429466	0.0242833	3.458744e-08	2.087314e-07	0.002944241	-0.001960219
	0.002231136	-0.002401341	3.458744e-08	2.087314e-07	-0.02623118	0.02337882	9.069757e-10	4.115372e-08
	-1.054811e-08	1.423956e-08	0.002944241	-0.001960219	9.069757e-10	4.115372e-08	-0.02420913	0.02478187
4.3e+08	-0.02304063	0.02318535	-1.036462e-09	4.102383e-08	0.001542717	-0.001457106	-9.738317e-09	1.594135e-08
	-1.036462e-09	4.102383e-08	-0.02132339	0.02428796	3.580769e-08	2.12644e-07	0.002238836	-0.001081298
	0.001542717	-0.001457106	3.580769e-08	2.12644e-07	-0.02319915	0.02356658	1.981307e-09	4.260606e-08
	-9.738317e-09	1.594135e-08	0.002238836	-0.001081298	1.981307e-09	4.260606e-08	-0.02122015	0.02477693
4.4e+08	-0.02005538	0.02298321	2.513655e-10	4.258654e-08	0.0009706256	-0.0004272053	-8.718394e-09	1.756575e-08
	2.513655e-10	4.258654e-08	-0.01839985	0.02392113	3.69445e-08	2.164788e-07	0.001639297	-0.0001151788
	0.0009706256	-0.0004272053	3.69445e-08	2.164788e-07	-0.020186	0.02337745	3.156678e-09	4.393817e-08
	-8.718394e-09	1.756575e-08	0.001639297	-0.0001151788	3.156678e-09	4.393817e-08	-0.0182812	0.02439836
4.5e+08	-0.01713531	0.02241298	1.661881e-09	4.400226e-08	0.000525256	0.0006729783	-7.49595e-09	1.908401e-08
	1.661881e-09	4.400226e-08	-0.01556858	0.0231923	3.798684e-08	2.202475e-07	0.001156108	0.0009241338
	0.000525256	0.0006729783	3.798684e-08	2.202475e-07	-0.01723666	0.02281712	4.416314e-09	4.513664e-08
	-7.49595e-09	1.908401e-08	0.001156108	0.0009241338	4.416314e-09	4.513664e-08	-0.01543712	0.02365597
4.6e+08	-0.01432394	0.02148584	3.175352e-09	4.525501e-08	0.0002149866	0.001826807	-6.082645e-09	2.046811e-08
	3.175352e-09	4.525501e-08	-0.0128726	0.02211622	3.89253e-08	2.239638e-07	0.0007979174	0.002021376
	0.0002149866	0.001826807	3.89253e-08	2.239638e-07	-0.014395	0.02189656	5.741771e-09	4.619064e-08
	-6.082645e-09	2.046811e-08	0.0007979174	0.002021376	5.741771e-09	4.619064e-08	-0.01273114	0.02256488
4.7e+08	-0.01166308	0.02021804	4.770142e-09	4.633173e-08	4.602606e-05	0.00301665	-4.494108e-09	2.169138e-08
	4.770142e-09	4.633173e-08	-0.01035276	0.0207127	3.975228e-08	2.276425e-07	0.000571384	0.003160267
	4.602606e-05	0.00301665	3.975228e-08	2.276425e-07	-0.01170324	0.02063186	7.113386e-09	4.709215e-08
	-4.494108e-09	2.169138e-08	0.000571384	0.003160267	7.113386e-09	4.709215e-08	-0.01020433	0.02114522
4.8e+08	-0.009192319	0.01863062	6.423182e-09	4.722239e-08	2.229308e-05	0.004224161	-2.749777e-09	2.272904e-08
