!$
! Info: Touchstone file created by Circ.  Input file=Tx_6in_Rx_100ohms_TxVia_35mils_RxVia_45mils.circ
!$
# Hz S RI R 50
0	0.006332959	9.011197e-26	0.9935262	-8.883565e-26	5.115316e-05	1.201109e-23	-4.923194e-05	2.057724e-21
	0.9935262	-9.081787e-26	0.00633185	1.042205e-25	-4.960298e-05	2.103206e-21	5.157393e-05	1.42759e-23
	4.931648e-05	1.233437e-23	-4.973041e-05	2.118885e-21	0.00634553	8.59099e-26	0.9935103	-8.39293e-26
	-4.961138e-05	2.104265e-21	4.972657e-05	1.434631e-23	0.9935104	-8.378932e-26	0.006345015	9.763635e-26
1e+07	0.00918676	0.004420408	0.9888371	-0.06389667	0.0003640938	0.001251299	-0.0002950007	-0.0001692294
	0.9888371	-0.06389667	0.009182829	0.004419782	-0.0002950083	-0.0001692156	0.000362031	0.001251806
	0.000364034	0.001251302	-0.0002950662	-0.0001692048	0.009109213	0.004434863	0.9889101	-0.06399226
	-0.0002950587	-0.0001692186	0.0003619708	0.001251816	0.9889101	-0.06399226	0.009104428	0.004434448
2e+07	0.01175452	0.006723651	0.9807658	-0.1252759	0.0005107268	0.002577962	-0.0002429715	-0.0004350763
	0.9807658	-0.1252759	0.01173883	0.006723525	-0.0002429952	-0.000435069	0.000502757	0.002579947
	0.0005107141	0.002578	-0.0002430077	-0.0004350273	0.01170478	0.00678375	0.9807976	-0.1254974
	-0.000242986	-0.0004350337	0.0005027484	0.002579981	0.9807976	-0.1254974	0.01168581	0.006784405
3e+07	0.01400187	0.008061653	0.969517	-0.185198	0.0008259328	0.003766507	-0.0002338465	-0.0005990414
	0.969517	-0.185198	0.01396702	0.008065057	-0.0002339145	-0.0005990112	0.0008084965	0.003771582
	0.0008259352	0.003766512	-0.0002339127	-0.0005990048	0.01397786	0.008141829	0.9695009	-0.1855188
	-0.0002338447	-0.0005990346	0.0008084963	0.003771587	0.9695009	-0.1855188	0.01393589	0.008147266
4e+07	0.01611708	0.008915346	0.9549303	-0.2439661	0.001306802	0.004868305	-0.0002701743	-0.0007278554
	0.9549303	-0.2439661	0.01605611	0.008926247	-0.0002702814	-0.000727789	0.001276673	0.004878672
	0.001306797	0.0048683	-0.0002702879	-0.0007277935	0.01611852	0.009007207	0.9548577	-0.2443761
	-0.0002701811	-0.0007278605	0.001276667	0.00487867	0.9548577	-0.2443761	0.01604529	0.009022222
5e+07	0.01815031	0.009401888	0.9369979	-0.3015055	0.002022376	0.005846238	-0.0004299197	-0.0007992778
	0.9369979	-0.3015055	0.01805691	0.009425817	-0.0004300688	-0.0007991609	0.001976746	0.005864594
	0.002022372	0.005846236	-0.0004300741	-0.0007991622	0.01817702	0.009499404	0.9368603	-0.3019958
	-0.0004299253	-0.0007992794	0.001976742	0.005864593	0.9368603	-0.3019958	0.01806505	0.00953066
6e+07	0.02011422	0.009577964	0.9157603	-0.35768	0.002838799	0.006716224	-0.0005884506	-0.0008432447
	0.9157603	-0.35768	0.01998329	0.00962159	-0.0005886427	-0.000843057	0.002775395	0.006745814
	0.002838803	0.006716224	-0.000588638	-0.0008430573	0.0201657	0.009675968	0.9155495	-0.3582423
	-0.0005884455	-0.0008432448	0.002775398	0.006745813	0.9155495	-0.3582423	0.02000898	0.009731478
7e+07	0.02200626	0.009477766	0.8912832	-0.4123315	0.003743126	0.007468571	-0.000744162	-0.0008624403
	0.8912832	-0.4123315	0.02183392	0.009548506	-0.0007443883	-0.0008621591	0.003660252	0.007513026
	0.003743138	0.007468569	-0.0007443741	-0.0008621634	0.02208159	0.009571546	0.8909916	-0.412957
	-0.0007441463	-0.0008624448	0.00366026	0.007513023	0.8909916	-0.412957	0.02187557	0.009660193
8e+07	0.02381718	0.009126537	0.8636497	-0.4652942	0.00472053	0.008094088	-0.0008948957	-0.0008586004
	0.8636497	-0.4652942	0.0236007	0.009232414	-0.0008951385	-0.0008582052	0.0046171	0.008157345
	0.004720545	0.008094082	-0.0008951211	-0.0008582149	0.02391491	0.009211655	0.8632703	-0.4659738
	-0.0008948765	-0.0008586108	0.00461711	0.008157339	0.8632703	-0.4659738	0.02365639	0.009343038
9e+07	0.02553541	0.008546615	0.8329561	-0.5164022	0.005754344	0.008584428	-0.001037922	-0.000832715
	0.8329561	-0.5164022	0.02527328	0.008696186	-0.001038157	-0.0008321903	0.005629924	0.008670649
	0.005754356	0.008584421	-0.001038144	-0.0008322005	0.02565345	0.008618749	0.8324828	-0.5171261
	-0.001037909	-0.0008327261	0.005629931	0.008670644	0.8324828	-0.5171261	0.02534069	0.008803108
1e+08	0.02715587	0.007768042	0.7993032	-0.5655016	0.006823511	0.008928939	-0.001167058	-0.0007814093
	0.7993032	-0.5655016	0.02684792	0.007970276	-0.001167254	-0.0007807458	0.006678349	0.009042428
	0.006823511	0.008928939	-0.001167254	-0.0007807458	0.02729067	0.007822037	0.7987314	-0.5662581
	-0.001167058	-0.0007814092	0.006678349	0.009042428	0.7987314	-0.5662581	0.02692353	0.008070116
1.1e+08	0.02869205	0.00674145	0.7627867	-0.6123662	0.007897106	0.009149714	-0.001267422	-0.000733031
	0.7627867	-0.6123662	0.02834249	0.007006015	-0.001267547	-0.0007322101	0.007732492	0.009294617
	0.007897106	0.009149714	-0.001267547	-0.0007322101	0.0288388	0.006778539	0.762117	-0.6131497
	-0.001267421	-0.000733031	0.007732492	0.009294617	0.762117	-0.6131497	0.02842103	0.007101943
1.2e+08	0.03005851	0.005513387	0.7236087	-0.6568596	0.008987182	0.009238706	-0.001368545	-0.0006837765
	0.7236087	-0.6568596	0.02966935	0.005847881	-0.001368566	-0.0006828067	0.008804751	0.009419185
	0.008987182	0.009238706	-0.001368566	-0.0006828067	0.03021582	0.005532701	0.7228342	-0.6576629
	-0.001368545	-0.0006837765	0.008804751	0.009419185	0.7228342	-0.6576629	0.02975072	0.005941098
1.3e+08	0.03125097	0.004118668	0.6819036	-0.6988495	0.01007222	0.009189529	-0.001466196	-0.0006282919
	0.6819036	-0.6988495	0.03082575	0.004531205	-0.001466082	-0.0006271861	0.009874325	0.00940956
	0.01007222	0.009189529	-0.001466082	-0.0006271861	0.03141642	0.00411882	0.6810194	-0.699663
	-0.001466196	-0.0006282919	0.009874325	0.00940956	0.6810194	-0.699663	0.03090898	0.004621966
1.4e+08	0.0322592	0.002581542	0.6378224	-0.7381993	0.01113358	0.009002942	-0.001559247	-0.0005663001
	0.6378224	-0.7381993	0.03180313	0.003080182	-0.001558967	-0.0005650765	0.01092327	0.00926619
	0.01113358	0.009002942	-0.001558967	-0.0005650765	0.03243017	0.002561502	0.6368243	-0.7390129
	-0.001559247	-0.0005663001	0.01092327	0.00926619	0.6368243	-0.7390129	0.03188716	0.00316879
1.5e+08	0.03307328	0.0009254092	0.591525	-0.7747797	0.01215341	0.008682715	-0.001647161	-0.000498264
	0.591525	-0.7747797	0.03259322	0.001517663	-0.001646686	-0.0004969459	0.01193438	0.008992428
	0.01215341	0.008682715	-0.001646686	-0.0004969459	0.03324714	0.000884495	0.59041	-0.7755826
	-0.001647161	-0.000498264	0.01193438	0.008992428	0.59041	-0.7755826	0.0326771	0.001604532
1.6e+08	0.03368461	-0.0008261312	0.5431797	-0.8084698	0.01311473	0.00823509	-0.001729737	-0.0004248719
	0.5431797	-0.8084698	0.03318895	-0.0001336963	-0.001729042	-0.0004234882	0.01289123	0.008593997
	0.01311473	0.00823509	-0.001729042	-0.0004234882	0.03385874	-0.000888323	0.5419457	-0.8092508
	-0.001729737	-0.0004248719	0.01289123	0.008593997	0.5419457	-0.8092508	0.03327181	-4.807943e-05
1.7e+08	0.03408641	-0.002649055	0.4929619	-0.8391582	0.01400155	0.007668523	-0.001807023	-0.0003468493
	0.4929619	-0.8391582	0.03358483	-0.001851118	-0.001806087	-0.0003454344	0.01377836	0.008078747
	0.01400155	0.007668523	-0.001806087	-0.0003454344	0.03425818	-0.002732672	0.4916076	-0.8399057
	-0.001807023	-0.0003468493	0.01377836	0.008078747	0.4916076	-0.8399057	0.03366594	-0.001766214
1.8e+08	0.03427402	-0.004518932	0.4410533	-0.8667435	0.0147992	0.00699348	-0.001879268	-0.0002648615
	0.4410533	-0.8667435	0.03377724	-0.003611642	-0.001878075	-0.000263455	0.01458149	0.007456463
	0.0147992	0.006993479	-0.001878075	-0.0002634551	0.03444079	-0.004623866	0.4395786	-0.8674458
	-0.001879268	-0.0002648616	0.01458149	0.007456463	0.4395786	-0.8674458	0.03385596	-0.003526879
1.9e+08	0.0342451	-0.006411068	0.3876417	-0.891135	0.01549448	0.006222232	-0.001946873	-0.0001794522
	0.3876417	-0.891135	0.0337646	-0.005392205	-0.001945413	-0.0001780979	0.01528772	0.00673867
	0.01549448	0.006222232	-0.001945413	-0.0001780979	0.03440419	-0.00653694	0.3860475	-0.8917804
	-0.001946873	-0.0001794522	0.01528772	0.00673867	0.3860475	-0.8917804	0.03384039	-0.00530699
2e+08	0.03399976	-0.008300739	0.3329198	-0.9122531	0.01607586	0.005368644	-0.002010345	-9.100292e-05
	0.3329198	-0.9122531	0.03354755	-0.007169815	-0.002008618	-8.974758e-05	0.01588573	0.005938439
	0.01607586	0.005368644	-0.002008618	-8.97476e-05	0.03414849	-0.008446863	0.3312079	-0.9128294
	-0.002010345	-9.100293e-05	0.01588573	0.005938439	0.3312079	-0.9128294	0.03361993	-0.00708353
2.1e+08	0.03354063	-0.01016342	0.2770848	-0.9300291	0.01653371	0.004447936	-0.002070253	2.914059e-07
	0.2770848	-0.9300291	0.03312894	-0.008921746	-0.002068266	1.399452e-06	0.01636597	0.005070163
	0.01653371	0.004447936	-0.002068267	1.399439e-06	0.03367634	-0.01032878	0.2752581	-0.9305246
	-0.002070253	2.913936e-07	0.01636597	0.005070163	0.2752581	-0.9305246	0.03319752	-0.008833754
2.2e+08	0.03287291	-0.01197506	0.2203377	-0.9444062	0.01686038	0.003476436	-0.002127179	9.443524e-05
	0.2203377	-0.9444062	0.03251395	-0.01062577	-0.00212495	9.534812e-05	0.01672077	0.004149327
	0.01686038	0.003476436	-0.00212495	9.53481e-05	0.032993	-0.0121583	0.2183999	-0.9448091
	-0.002127179	9.443523e-05	0.01672077	0.004149327	0.2183999	-0.9448091	0.03257838	-0.01053541
2.3e+08	0.03200433	-0.01371235	0.1628823	-0.9553393	0.01705039	0.00247132	-0.002181669	0.000191634
	0.1628823	-0.9553393	0.03171	-0.01226038	-0.002179226	0.0001923062	0.01694448	0.00319226
	0.01705039	0.00247132	-0.002179226	0.0001923062	0.03210629	-0.01391172	0.1608385	-0.955638
	-0.002181669	0.000191634	0.01694448	0.00319226	0.1608385	-0.955638	0.03177002	-0.01216696
2.4e+08	0.03094505	-0.015353	0.104925	-0.9627954	0.01710045	0.00145033	-0.002234189	0.0002922844
	0.104925	-0.9627954	0.03072672	-0.01380507	-0.002231567	0.000292675	0.01703354	0.002215876
	0.01710045	0.00145033	-0.002231567	0.000292675	0.03102657	-0.01556641	0.102781	-0.9629786
	-0.002234189	0.0002922844	0.01703354	0.002215876	0.102781	-0.9629786	0.03078214	-0.01370787
2.5e+08	0.02970764	-0.01687603	0.04667388	-0.9667536	0.01700959	0.0004314949	-0.002285079	0.000396957
	0.04667388	-0.9667536	0.02957586	-0.01524054	-0.002282322	0.0003970312	0.01698657	0.001237403
	0.01700959	0.0004314949	-0.002282322	0.0003970312	0.02976664	-0.01710102	0.04443648	-0.9668102
	-0.002285079	0.000396957	0.01698657	0.001237403	0.04443648	-0.9668102	0.02962658	-0.01513882
2.6e+08	0.02830686	-0.01826199	-0.0116623	-0.9672051	0.01677909	-0.0005671638	-0.002334516	0.0005063678
	-0.0116623	-0.9672051	0.02827118	-0.01654895	-0.002331675	0.0005060993	0.01680436	0.0002741166
	0.01677909	-0.0005671638	-0.002331675	0.0005060993	0.02834154	-0.01849577	-0.01398529	-0.9671247
	-0.002334516	0.0005063678	0.01680436	0.0002741166	-0.01398529	-0.9671247	0.02831715	-0.01644194
2.7e+08	0.02675956	-0.01949324	-0.06987446	-0.9641536	0.01641256	-0.001527918	-0.00238248	0.0006213446
	-0.06987446	-0.9641536	0.02682822	-0.0177141	-0.002379614	0.0006207166	0.01648988	-0.0006569399
	0.01641256	-0.001527918	-0.002379614	0.0006207166	0.02676844	-0.01973273	-0.07227431	-0.9639261
	-0.00238248	0.0006213446	0.01648988	-0.0006569399	-0.07227431	-0.9639261	0.02686954	-0.01760104
2.8e+08	0.02508439	-0.02055414	-0.1277541	-0.9576151	0.01591579	-0.00243362	-0.002428732	0.000742786
	-0.1277541	-0.9576151	0.02526422	-0.01872166	-0.002425899	0.0007417925	0.01604821	-0.001539222
	0.01591579	-0.00243362	-0.002425899	0.0007417925	0.02506645	-0.02079601	-0.1302211	-0.9572311
	-0.002428732	0.000742786	0.01604821	-0.001539222	-0.1302211	-0.9572311	0.02530105	-0.0186018
2.9e+08	0.02330168	-0.02143131	-0.1850938	-0.947618	0.01529674	-0.00326798	-0.002472792	0.0008716155
	-0.1850938	-0.947618	0.02359782	-0.01955933	-0.002470054	0.0008702623	0.0154865	-0.00235695
	0.01529674	-0.00326798	-0.002470054	0.0008702623	0.02325629	-0.02167201	-0.1876176	-0.9470685
	-0.002472792	0.0008716155	0.0154865	-0.00235695	-0.1876176	-0.9470685	0.02363043	-0.01943192
3e+08	0.02143309	-0.02211372	-0.2416884	-0.9342028	0.01456537	-0.00401583	-0.002513931	0.001008733
	-0.2416884	-0.9342028	0.02184887	-0.020217	-0.002511349	0.001007038	0.01481381	-0.003095357
	0.01456537	-0.00401583	-0.002511349	0.001007038	0.02136011	-0.02234959	-0.2442577	-0.9334797
	-0.002513931	0.001008733	0.01481381	-0.003095357	-0.2442577	-0.9334797	0.02187763	-0.02008132
3.1e+08	0.01950138	-0.0225929	-0.2973354	-0.9174222	0.01373351	-0.004663373	-0.002551177	0.001154966
	-0.2973354	-0.9174222	0.02003818	-0.02068683	-0.002548807	0.001152958	0.01404102	-0.00374093
	0.01373351	-0.004663373	-0.002548807	0.001152958	0.01940117	-0.02282021	-0.2999381	-0.9165181
	-0.002551177	0.001154966	0.01404102	-0.00374093	-0.2999381	-0.9165181	0.02006358	-0.02054223
3.2e+08	0.01753013	-0.02286304	-0.3518357	-0.8973408	0.01281467	-0.005198407	-0.002583317	0.001311017
	-0.3518357	-0.8973408	0.01818728	-0.02096341	-0.00258121	0.001308736	0.01318063	-0.004281625
	0.01281467	-0.005198407	-0.00258121	0.001308736	0.01740357	-0.02307806	-0.3544588	-0.8962493
	-0.002583317	0.001311017	0.01318063	-0.004281625	-0.3544588	-0.8962493	0.01820987	-0.02080928
3.3e+08	0.0155434	-0.02292105	-0.4049943	-0.8740352	0.01182379	-0.005610531	-0.002608924	0.001477418
	-0.4049943	-0.8740352	0.01631809	-0.02104377	-0.002607123	0.001474914	0.01224657	-0.004707061
	0.01182379	-0.005610531	-0.002607123	0.001474914	0.01539187	-0.02312011	-0.4076245	-0.8727506
	-0.002608924	0.001477418	0.01224657	-0.004707061	-0.4076245	-0.8727506	0.01633852	-0.02087957
3.4e+08	0.01356546	-0.02276663	-0.4566212	-0.8475934	0.01077708	-0.005891315	-0.00262638	0.001654485
	-0.4566212	-0.8475934	0.01445272	-0.02092743	-0.002624918	0.001651815	0.01125398	-0.005008691
	0.01077708	-0.005891315	-0.002624918	0.001651815	0.01339086	-0.02294621	-0.4592444	-0.846111
	-0.00262638	0.001654485	0.01125398	-0.005008691	-0.4592444	-0.846111	0.01447172	-0.02075274
3.5e+08	0.01162043	-0.02240225	-0.506532	-0.8181145	0.009691694	-0.006034446	-0.002633917	0.001842281
	-0.506532	-0.8181145	0.01261311	-0.02061642	-0.002632815	0.00183951	0.01021899	-0.005179942
	0.009691694	-0.006034446	-0.002632815	0.00183951	0.01142513	-0.02255906	-0.5091336	-0.8164307
	-0.002633917	0.001842281	0.01021899	-0.005179942	-0.5091336	-0.8164307	0.01263147	-0.02043088
3.6e+08	0.009731977	-0.02183315	-0.5545486	-0.7857088	0.008585466	-0.006035836	-0.002629657	0.002040581
	-0.5545486	-0.7857088	0.01082083	-0.02011521	-0.002628923	0.002037775	0.009158414	-0.005216323
	0.008585466	-0.006035836	-0.002628922	0.002037775	0.009518849	-0.02196418	-0.5571135	-0.783821
	-0.002629657	0.002040581	0.009158414	-0.005216323	-0.5571135	-0.783821	0.01083937	-0.0199186
3.7e+08	0.007923009	-0.02106726	-0.6004997	-0.750497	0.007476653	-0.005893694	-0.002611662	0.00224885
	-0.6004997	-0.750497	0.009096723	-0.0194307	-0.002611291	0.002246079	0.008089541	-0.005115502
	0.007476653	-0.005893694	-0.002611291	0.002246079	0.007695332	-0.02116985	-0.6030125	-0.7484036
	-0.002611662	0.00224885	0.008089541	-0.005115502	-0.6030125	-0.7484036	0.00911633	-0.01922289
3.8e+08	0.006215361	-0.0201151	-0.6442217	-0.7126097	0.006383613	-0.005608565	-0.002577991	0.002466228
	-0.6442217	-0.7126097	0.007460713	-0.01857207	-0.002577964	0.002463558	0.007029823	-0.004877346
	0.006383613	-0.005608565	-0.002577964	0.002463558	0.005976802	-0.02018699	-0.6466667	-0.7103105
	-0.002577991	0.002466228	0.007029823	-0.004877346	-0.6466667	-0.7103105	0.007482267	-0.01835306
3.9e+08	0.004629498	-0.01898962	-0.6855593	-0.6721874	0.005324517	-0.005183329	-0.002526751	0.002691522
	-0.6855593	-0.6721874	0.005931502	-0.01755068	-0.002527036	0.002689015	0.005996608	-0.004503931
	0.005324517	-0.005183329	-0.002527036	0.002689015	0.004384056	-0.01902903	-0.6879204	-0.6696832
	-0.002526751	0.002691522	0.005996608	-0.004503931	-0.6879204	-0.6696832	0.005955889	-0.0173206
4e+08	0.003184246	-0.01770608	-0.7243657	-0.6293795	0.004317053	-0.004623157	-0.002456157	0.002923213
	-0.7243657	-0.6293795	0.004526349	-0.01637995	-0.002456709	0.002920925	0.005006859	-0.003999512
	0.004317053	-0.004623157	-0.002456709	0.002920925	0.00293619	-0.01771173	-0.7266268	-0.6266724
	-0.002456157	0.002923213	0.005006859	-0.003999512	-0.7266268	-0.6266724	0.004554437	-0.01613903
4.1e+08	0.001896526	-0.0162818	-0.7605038	-0.5843442	0.003378136	-0.00393544	-0.00236459	0.003159468
	-0.7605038	-0.5843442	0.003260839	-0.01507513	-0.002365354	0.003157444	0.004076882	-0.003370454
	0.003378136	-0.00393544	-0.002365354	0.003157444	0.001650332	-0.01625295	-0.7626488	-0.5814374
	-0.00236459	0.003159468	0.004076882	-0.003370454	-0.7626488	-0.5814374	0.003293465	-0.01482374
4.2e+08	0.0007811332	-0.01473592	-0.7938462	-0.5372474	0.002523632	-0.003129675	-0.002250646	0.003398166
	-0.7938462	-0.5372474	0.002148691	-0.01365311	-0.002251556	0.00339644	0.003222062	-0.002625143
	0.002523632	-0.003129675	-0.002251556	0.00339644	0.0005414071	-0.01467243	-0.7958589	-0.5341454
	-0.002250646	0.003398166	0.003222062	-0.002625143	-0.7958589	-0.5341454	0.002186638	-0.01339171
4.3e+08	-0.0001494727	-0.01308919	-0.8242757	-0.4882625	0.001768094	-0.002217314	-0.002113189	0.00363693
	-0.8242757	-0.4882625	0.001201577	-0.01213222	-0.002114175	0.003635523	0.002456619	-0.001773845
	0.001768094	-0.002217314	-0.002114175	0.003635523	-0.0003780621	-0.0129915	-0.8261402	-0.4849711
	-0.002113189	0.00363693	0.002456619	-0.001773845	-0.8261402	-0.4849711	0.001245568	-0.01186139
4.4e+08	-0.0008853305	-0.01136364	-0.8516862	-0.4375695	0.001124531	-0.001211585	-0.001951391	0.003873171
	-0.8516862	-0.4375695	0.000428982	-0.01053194	-0.001952377	0.003872087	0.001793373	-0.0008285544
	0.001124531	-0.001211585	-0.001952377	0.003872087	-0.001098138	-0.01123281	-0.8533868	-0.4340956
	-0.001951391	0.003873171	0.001793373	-0.0008285544	-0.8533868	-0.4340956	0.0004796557	-0.01025237
4.5e+08	-0.00141912	-0.009582306	-0.8759825	-0.3853544	0.0006041797	-0.0001272869	-0.001764771	0.004104134
	-0.8759825	-0.3853544	-0.0001619219	-0.008872686	-0.001765682	0.004103363	0.001243541	0.0001972042
	0.0006041797	-0.0001272869	-0.001765682	0.004103363	-0.001611597	-0.009419991	-0.8775038	-0.3817063
	-0.001764771	0.004104134	0.001243541	0.0001972042	-0.8775038	-0.3817063	-0.000104017	-0.00858512
4.6e+08	-0.001746256	-0.007768891	-0.8970812	-0.3318085	0.0002163301	0.001019451	-0.001553218	0.004326953
	-0.8970812	-0.3318085	-0.0005663579	-0.007175499	-0.00155398	0.004326468	0.0008165526	0.001288583
	0.0002163301	0.001019451	-0.00155398	0.004326468	-0.001914036	-0.00757736	-0.8984082	-0.3279956
	-0.001553218	0.004326953	0.0008165526	0.001288583	-0.8984082	-0.3279956	-0.0005007782	-0.006880774
4.7e+08	-0.001864955	-0.005947459	-0.9149105	-0.2771277	-3.183765e-05	0.002211422	-0.001317013	0.004538712
	-0.9149105	-0.2771277	-0.0007820008	-0.005461786	-0.001317558	0.004538472	0.0005198972	0.002429652
	-3.183766e-05	0.002211422	-0.001317558	0.004538472	-0.002003901	-0.00572953	-0.9160288	-0.2731605
	-0.001317013	0.004538712	0.0005198972	0.002429652	-0.9160288	-0.2731605	-0.0007083904	-0.005160768
4.8e+08	-0.001776253	-0.004142091	-0.9294107	-0.2215116	-0.0001353723	0.00343062	-0.001056831	0.004736503
	-0.9294107	-0.2215116	-0.0008089991	-0.003753019	-0.001057098	0.004736452	0.0003590026	0.003603646
	-0.0001353723	0.00343062	-0.001057098	0.004736452	-0.00188258	-0.00390116	-0.9303064	-0.2174019
	-0.001056831	0.004736503	0.0003590026	0.003603646	-0.9303064	-0.2174019	-0.0007271407	-0.003446646
4.9e+08	-0.00148399	-0.002376564	-0.9405345	-0.1651628	-9.163727e-05	0.004658526	-0.0007737415	0.004917491
	-0.9405345	-0.1651628	-0.0006499592	-0.002070465	-0.0007736833	0.004917559	0.0003371454	0.004793237
	-9.163727e-05	0.004658526	-0.0007736833	0.004917559	-0.001554324	-0.002116536	-0.9411945	-0.1609235
	-0.0007737415	0.004917491	0.0003371454	0.004793237	-0.9411945	-0.1609235	-0.0005597672	-0.001759703
5e+08	-0.0009947507	-0.0006740108	-0.9482469	-0.1082863	9.964107e-05	0.005876406	-0.000469194	0.005078972
	-0.9482469	-0.1082863	-0.0003099044	-0.000434888	-0.0004687759	0.00507908	0.0004553966	0.005980806
	9.964107e-05	0.005876406	-0.0004687759	0.00507908	-0.001026193	-0.0003992481	-0.9486588	-0.1039313
