!$
! Info: Touchstone file created by Circ.  Input file=Tx_6in_Rx_100ohms_TxVia_35mils_RxVia_45mils.circ
!$
# Hz S RI R 50
0	0.006335289	9.110148e-26	-3.258091e-05	-5.169548e-27	5.293372e-05	1.185961e-23	-3.25806e-05	-1.141194e-26
	-3.258092e-05	-3.97919e-27	0.00633185	1.042205e-25	-3.258026e-05	1.593326e-27	5.157393e-05	1.42759e-23
	5.345774e-05	1.2014e-23	-3.258024e-05	-3.982562e-28	0.006343478	8.892505e-26	-3.258066e-05	8.345474e-26
	-3.25806e-05	-1.058549e-26	4.972657e-05	1.434631e-23	-3.258067e-05	8.508246e-26	0.006345015	9.763635e-26
1e+07	0.008907384	0.004388756	-1.410868e-06	-6.406564e-06	0.0001502037	0.001218678	-1.038048e-06	-8.835251e-06
	-1.410868e-06	-6.406564e-06	0.009182829	0.004419782	-8.450321e-07	-1.876608e-06	0.000362031	0.001251806
	0.0001502276	0.00121868	-8.450321e-07	-1.876608e-06	0.008580943	0.004561794	-2.016072e-06	-2.533065e-06
	-1.038048e-06	-8.835251e-06	0.0003619708	0.001251816	-2.016072e-06	-2.533065e-06	0.009104428	0.004434448
2e+07	0.01150801	0.006771144	-3.013342e-06	-7.670874e-08	0.0003781632	0.002437965	-9.058995e-07	-3.26207e-06
	-3.013343e-06	-7.670874e-08	0.01173883	0.006723525	-1.09186e-05	-1.408975e-05	0.000502757	0.002579947
	0.0003781713	0.00243795	-1.09186e-05	-1.408975e-05	0.01142543	0.007174859	-1.357646e-05	-1.404111e-05
	-9.058996e-07	-3.26207e-06	0.0005027484	0.002579981	-1.357646e-05	-1.404111e-05	0.01168581	0.006784405
3e+07	0.01378133	0.008135003	-4.860085e-06	-1.260054e-06	0.0007529227	0.003593609	-8.911469e-07	-1.893356e-06
	-4.860085e-06	-1.260054e-06	0.01396702	0.008065057	-1.977698e-05	-1.56061e-05	0.0008084965	0.003771582
	0.0007529227	0.003593606	-1.977698e-05	-1.56061e-05	0.01389267	0.008592497	-2.243541e-05	-1.524791e-05
	-8.911469e-07	-1.893356e-06	0.0008084963	0.003771587	-2.243541e-05	-1.524791e-05	0.01393589	0.008147266
4e+07	0.01591912	0.009002441	-6.359679e-06	-1.309074e-06	0.001265593	0.004682794	-8.628029e-07	-1.16889e-06
	-6.359679e-06	-1.309074e-06	0.01605611	0.008926247	-2.704806e-05	-1.407e-05	0.001276673	0.004878672
	0.001265594	0.004682795	-2.704806e-05	-1.407e-05	0.01619526	0.009455171	-2.968198e-05	-1.344278e-05
	-8.628029e-07	-1.16889e-06	0.001276667	0.00487867	-2.968198e-05	-1.344278e-05	0.01604529	0.009022222
5e+07	0.01797272	0.009496963	-7.576709e-06	-7.949402e-07	0.001905419	0.00569128	-8.12455e-07	-6.88185e-07
	-7.57671e-06	-7.949403e-07	0.01805691	0.009425817	-3.302608e-05	-1.072676e-05	0.001976746	0.005864594
	0.00190542	0.005691281	-3.302608e-05	-1.072676e-05	0.0183899	0.009907706	-3.561378e-05	-9.844174e-06
	-8.12455e-07	-6.88185e-07	0.001976742	0.005864593	-3.561378e-05	-9.844174e-06	0.01806505	0.00953066
6e+07	0.01995492	0.009676751	-8.532858e-06	7.689976e-08	0.002660229	0.006605107	-7.387487e-07	-3.314946e-07
	-8.532857e-06	7.689981e-08	0.01998329	0.00962159	-3.78166e-05	-6.093928e-06	0.002775395	0.006745814
	0.002660226	0.006605107	-3.78166e-05	-6.093928e-06	0.02049089	0.0100177	-4.033714e-05	-4.961675e-06
	-7.387487e-07	-3.314945e-07	0.002775398	0.006745813	-4.033714e-05	-4.961675e-06	0.02000898	0.009731478
7e+07	0.0218632	0.00957692	-9.230037e-06	1.207418e-06	0.003527104	0.007406509	-6.407369e-07	-5.187123e-08
	-9.230037e-06	1.207418e-06	0.02183392	0.009548506	-4.142543e-05	-4.404152e-07	0.003660252	0.007513026
	0.003527098	0.00740651	-4.142543e-05	-4.404151e-07	0.0224956	0.009825673	-4.38665e-05	9.347002e-07
	-6.407368e-07	-5.187118e-08	0.00366026	0.007513023	-4.38665e-05	9.347001e-07	0.02187557	0.009660193
8e+07	0.02368829	0.009223352	-9.65687e-06	2.544561e-06	0.004479944	0.008088336	-5.193482e-07	1.708428e-07
	-9.656869e-06	2.544561e-06	0.0236007	0.009232414	-4.380125e-05	6.087835e-06	0.0046171	0.008157345
	0.004479936	0.008088339	-4.380125e-05	6.087835e-06	0.02439356	0.009360699	-4.614566e-05	7.705385e-06
	-5.19348e-07	1.708428e-07	0.00461711	0.008157339	-4.614566e-05	7.705386e-06	0.02365639	0.009343038
9e+07	0.02541846	0.00863864	-9.782255e-06	4.073701e-06	0.005502338	0.008642239	-3.758707e-07	3.446339e-07
	-9.782254e-06	4.073701e-06	0.02527328	0.008696186	-4.479228e-05	1.348576e-05	0.005629924	0.008670649
	0.005502332	0.008642242	-4.479228e-05	1.348576e-05	0.02616998	0.008646064	-4.701627e-05	1.535381e-05
	-3.758705e-07	3.446339e-07	0.005629931	0.008670644	-4.701627e-05	1.535381e-05	0.02534069	0.008803108
1e+08	0.02704765	0.007851915	-9.43175e-06	5.944102e-06	0.006579905	0.009064043	-2.062128e-07	4.678388e-07
	-9.43175e-06	5.944102e-06	0.02684792	0.007970276	-4.357668e-05	2.252182e-05	0.006678349	0.009042428
	0.006579905	0.009064043	-4.357668e-05	2.252182e-05	0.02780421	0.007697767	-4.564083e-05	2.467559e-05
	-2.062128e-07	4.678388e-07	0.006678349	0.009042428	-4.564083e-05	2.467559e-05	0.02692353	0.008070116
1.1e+08	0.02858741	0.006820032	-8.157895e-06	7.111966e-06	0.007701624	0.009333219	-8.030937e-08	5.424229e-07
	-8.157895e-06	7.111966e-06	0.02834249	0.007006015	-3.792543e-05	2.829699e-05	0.007732492	0.009294617
	0.007701624	0.009333219	-3.792543e-05	2.829699e-05	0.02926839	0.00656132	-3.970571e-05	3.065737e-05
	-8.030937e-08	5.424229e-07	0.007732492	0.009294617	-3.970571e-05	3.065737e-05	0.02842103	0.007101943
1.2e+08	0.02995701	0.00558804	-7.888354e-06	6.988624e-06	0.008831952	0.009451327	-6.773131e-08	5.241296e-07
	-7.888354e-06	6.988624e-06	0.02966935	0.005847881	-3.343061e-05	3.179039e-05	0.008804751	0.009419185
	0.008831952	0.009451326	-3.343061e-05	3.179039e-05	0.03057803	0.005260477	-3.629389e-05	3.27989e-05
	-6.77313e-08	5.241296e-07	0.008804751	0.009419185	-3.629389e-05	3.27989e-05	0.02975072	0.005941098
1.3e+08	0.03115157	0.004189886	-7.613584e-06	6.97052e-06	0.009954713	0.009422237	-9.320149e-08	5.020171e-07
	-7.613584e-06	6.97052e-06	0.03082575	0.004531205	-3.24063e-05	3.138747e-05	0.009874325	0.00940956
	0.009954713	0.009422237	-3.24063e-05	3.138747e-05	0.03171646	0.003808465	-3.522934e-05	3.243733e-05
	-9.320149e-08	5.020171e-07	0.009874325	0.00940956	-3.522934e-05	3.243733e-05	0.03090898	0.004621966
1.4e+08	0.03216093	0.002649909	-7.309691e-06	7.006859e-06	0.01105201	0.00924913	-1.145783e-07	4.866388e-07
	-7.309691e-06	7.006859e-06	0.03180313	0.003080182	-3.124369e-05	3.129561e-05	0.01092327	0.00926619
	0.01105201	0.00924913	-3.124369e-05	3.129561e-05	0.03267157	0.002224981	-3.402674e-05	3.239473e-05
	-1.145783e-07	4.866388e-07	0.01092327	0.00926619	-3.402674e-05	3.239473e-05	0.03188716	0.00316879
1.5e+08	0.03297541	0.0009915891	-6.98748e-06	7.073398e-06	0.01210616	0.008937011	-1.329397e-07	4.766584e-07
	-6.98748e-06	7.073398e-06	0.03259322	0.001517663	-2.999357e-05	3.138995e-05	0.01193438	0.008992428
	0.01210616	0.008937011	-2.999357e-05	3.138995e-05	0.03343296	0.000531276	-3.273482e-05	3.254596e-05
	-1.329397e-07	4.766584e-07	0.01193438	0.008992428	-3.273482e-05	3.254596e-05	0.0326771	0.001604532
1.6e+08	0.03358662	-0.0007614703	-6.652723e-06	7.156396e-06	0.01310011	0.008492923	-1.489981e-07	4.711208e-07
	-6.652723e-06	7.156396e-06	0.03318895	-0.0001336963	-2.868072e-05	3.160012e-05	0.01289123	0.008593997
	0.01310011	0.008492923	-2.868072e-05	3.160012e-05	0.03399198	-0.001250366	-3.137849e-05	3.281877e-05
	-1.489981e-07	4.711208e-07	0.01289123	0.008593997	-3.137849e-05	3.281877e-05	0.03327181	-4.807943e-05
1.7e+08	0.03398796	-0.002585281	-6.309023e-06	7.247268e-06	0.01401779	0.007925916	-1.63267e-07	4.693703e-07
	-6.309023e-06	7.247268e-06	0.03358483	-0.001851118	-2.732011e-05	3.188099e-05	0.01377836	0.008078747
	0.01401779	0.007925916	-2.732011e-05	3.188099e-05	0.03434194	-0.003096838	-2.99726e-05	3.31668e-05
	-1.63267e-07	4.693703e-07	0.01377836	0.008078747	-2.99726e-05	3.31668e-05	0.03366594	-0.001766214
1.8e+08	0.0341749	-0.00445547	-5.958832e-06	7.340351e-06	0.01484437	0.007246942	-1.761115e-07	4.709815e-07
	-5.958832e-06	7.340351e-06	0.03377724	-0.003611642	-2.592162e-05	3.220184e-05	0.01458149	0.007456463
	0.01484437	0.007246942	-2.592162e-05	3.220184e-05	0.0344783	-0.004984385	-2.852688e-05	3.35584e-05
	-1.761115e-07	4.709815e-07	0.01458149	0.007456463	-2.852688e-05	3.35584e-05	0.03385596	-0.003526879
1.9e+08	0.03414518	-0.006347412	-5.603687e-06	7.432393e-06	0.0155665	0.006468699	-1.877538e-07	4.757126e-07
	-5.603687e-06	7.432393e-06	0.0337646	-0.005392205	-2.44924e-05	3.254077e-05	0.01528772	0.00673867
	0.0155665	0.006468699	-2.44924e-05	3.254077e-05	0.03439885	-0.006888834	-2.704823e-05	3.397102e-05
	-1.877538e-07	4.757126e-07	0.01528772	0.00673867	-2.704823e-05	3.397102e-05	0.03384039	-0.00530699
2e+08	0.03389899	-0.008236436	-5.244878e-06	7.520494e-06	0.01617252	0.00560544	-1.98344e-07	4.834156e-07
	-5.244878e-06	7.520494e-06	0.03354755	-0.007169815	-2.303791e-05	3.288169e-05	0.01588573	0.005938439
	0.01617252	0.00560544	-2.303791e-05	3.288169e-05	0.03410383	-0.008785856	-2.554187e-05	3.438798e-05
	-1.98344e-07	4.834156e-07	0.01588573	0.005938439	-2.554187e-05	3.438798e-05	0.03361993	-0.00708353
2.1e+08	0.03343898	-0.01009806	-4.883702e-06	7.60217e-06	0.01665269	0.004672756	-2.079472e-07	4.940337e-07
	-4.883702e-06	7.60217e-06	0.03312894	-0.008921746	-2.156265e-05	3.321249e-05	0.01636597	0.005070163
	0.01665269	0.004672756	-2.156265e-05	3.321249e-05	0.033596	-0.01065124	-2.401201e-05	3.479673e-05
	-2.079472e-07	4.940337e-07	0.01636597	0.005070163	-2.401201e-05	3.479673e-05	0.03319752	-0.008833754
2.2e+08	0.03277039	-0.01190827	-4.521052e-06	7.676039e-06	0.01699925	0.003687328	-2.16517e-07	5.075762e-07
	-4.521052e-06	7.676039e-06	0.03251395	-0.01062577	-2.007034e-05	3.35239e-05	0.01672077	0.004149327
	0.01699925	0.003687328	-2.007034e-05	3.35239e-05	0.0328807	-0.01246116	-2.246215e-05	3.518754e-05
	-2.16517e-07	5.075762e-07	0.01672077	0.004149327	-2.246215e-05	3.518754e-05	0.03257838	-0.01053541
2.3e+08	0.03190096	-0.01364377	-4.157645e-06	7.741105e-06	0.01720664	0.002666677	-2.239205e-07	5.24079e-07
	-4.157645e-06	7.741105e-06	0.03171	-0.01226038	-1.856417e-05	3.380867e-05	0.01694448	0.00319226
	0.01720664	0.002666677	-1.856417e-05	3.380867e-05	0.03196583	-0.01419251	-2.089519e-05	3.555278e-05
	-2.239205e-07	5.24079e-07	0.01694448	0.00319226	-2.089519e-05	3.555278e-05	0.03177002	-0.01216696
2.4e+08	0.0308409	-0.01528228	-3.794089e-06	7.796654e-06	0.01727154	0.00162888	-2.299509e-07	5.435822e-07
	-3.794089e-06	7.796654e-06	0.03072672	-0.01380507	-1.704709e-05	3.406112e-05	0.01703354	0.002215876
	0.01727154	0.00162888	-1.704709e-05	3.406112e-05	0.03086176	-0.01582314	-1.931386e-05	3.58864e-05
	-2.299509e-07	5.435822e-07	0.01703354	0.002215876	-1.931386e-05	3.58864e-05	0.03078214	-0.01370787
2.5e+08	0.0296028	-0.01680282	-3.43087e-06	7.842162e-06	0.01719293	0.0005922882	-2.343305e-07	5.6611e-07
	-3.43087e-06	7.842162e-06	0.02957586	-0.01524054	-1.55217e-05	3.427669e-05	0.01698657	0.001237403
	0.01719293	0.0005922882	-1.55217e-05	3.427669e-05	0.02958124	-0.01733221	-1.772052e-05	3.618344e-05
	-2.343305e-07	5.6611e-07	0.01698657	0.001237403	-1.772052e-05	3.618344e-05	0.02962658	-0.01513882
2.6e+08	0.02820146	-0.01818595	-3.068398e-06	7.877244e-06	0.01697213	-0.0004247593	-2.367245e-07	5.916547e-07
	-3.068398e-06	7.877244e-06	0.02827118	-0.01654895	-1.399047e-05	3.44517e-05	0.01680436	0.0002741166
	0.01697213	-0.0004247593	-1.399047e-05	3.44517e-05	0.0281393	-0.01870041	-1.611744e-05	3.643987e-05
	-2.367245e-07	5.916547e-07	0.01680436	0.0002741166	-1.611744e-05	3.643987e-05	0.02831715	-0.01644194
2.7e+08	0.02665376	-0.01941404	-2.707001e-06	7.901592e-06	0.01661276	-0.001404231	-2.367501e-07	6.201629e-07
	-2.707001e-06	7.901592e-06	0.02682822	-0.0177141	-1.245564e-05	3.45831e-05	0.01648988	-0.0006569399
	0.01661276	-0.001404231	-1.245564e-05	3.45831e-05	0.02655302	-0.01991023	-1.450668e-05	3.665226e-05
	-2.367501e-07	6.201629e-07	0.01648988	-0.0006569399	-1.450668e-05	3.665226e-05	0.02686954	-0.01760104
2.8e+08	0.02497844	-0.02047148	-2.346975e-06	7.914966e-06	0.01612068	-0.002328688	-2.339912e-07	6.515235e-07
	-2.346975e-06	7.914966e-06	0.02526422	-0.01872166	-1.091947e-05	3.466846e-05	0.01604821	-0.001539222
	0.01612068	-0.002328688	-1.091947e-05	3.466846e-05	0.02484136	-0.02094622	-1.289031e-05	3.681775e-05
	-2.339912e-07	6.515235e-07	0.01604821	-0.001539222	-1.289031e-05	3.681775e-05	0.02530105	-0.0186018
2.9e+08	0.02319585	-0.02134488	-1.988575e-06	7.917154e-06	0.01550394	-0.003181565	-2.280107e-07	6.855612e-07
	-1.988575e-06	7.917154e-06	0.02359782	-0.01955933	-9.384096e-06	3.470572e-05	0.0154865	-0.00235695
	0.01550394	-0.003181565	-9.384096e-06	3.470572e-05	0.02302492	-0.02179515	-1.127037e-05	3.693389e-05
	-2.280107e-07	6.855612e-07	0.0154865	-0.00235695	-1.127037e-05	3.693389e-05	0.02363043	-0.01943192
3e+08	0.02132769	-0.02202327	-1.632035e-06	7.907949e-06	0.0147726	-0.003947436	-2.18364e-07	7.220304e-07
	-1.632035e-06	7.907949e-06	0.02184887	-0.020217	-7.85162e-06	3.469311e-05	0.01481381	-0.003095357
	0.0147726	-0.003947436	-7.85162e-06	3.469311e-05	0.02112566	-0.02244623	-9.64883e-06	3.699849e-05
	-2.18364e-07	7.220304e-07	0.01481381	-0.003095357	-9.64883e-06	3.699849e-05	0.02187763	-0.02008132
3.1e+08	0.0193968	-0.0224982	-1.27759e-06	7.88716e-06	0.01393864	-0.004612264	-2.046143e-07	7.606114e-07
	-1.27759e-06	7.88716e-06	0.02003818	-0.02068683	-6.324175e-06	3.462924e-05	0.01404102	-0.00374093
	0.01393864	-0.004612264	-6.324175e-06	3.462924e-05	0.01916666	-0.02289124	-8.027785e-06	3.700971e-05
	-2.046143e-07	7.606114e-07	0.01404102	-0.00374093	-8.027785e-06	3.700971e-05	0.02006358	-0.02054223
3.2e+08	0.01742678	-0.02276392	-9.254843e-07	7.854585e-06	0.0130157	-0.005163629	-1.86346e-07	8.009122e-07
	-9.254843e-07	7.854585e-06	0.01818728	-0.02096341	-4.80389e-06	3.451288e-05	0.01318063	-0.004281625
	0.0130157	-0.005163629	-4.80389e-06	3.451288e-05	0.01717174	-0.02312466	-6.409341e-06	3.696588e-05
	-1.86346e-07	8.009122e-07	0.01318063	-0.004281625	-6.409341e-06	3.696588e-05	0.01820987	-0.02080928
3.3e+08	0.01544174	-0.0228174	-5.759788e-07	7.810002e-06	0.01201893	-0.005590934	-1.631775e-07	8.424698e-07
	-5.759788e-07	7.810002e-06	0.01631809	-0.02104377	-3.292917e-06	3.434297e-05	0.01224657	-0.004707061
	0.01201893	-0.005590934	-3.292917e-06	3.434297e-05	0.01516526	-0.02314374	-4.795679e-06	3.686549e-05
	-1.631775e-07	8.424698e-07	0.01224657	-0.004707061	-4.795679e-06	3.686549e-05	0.01633852	-0.02087957
3.4e+08	0.01346597	-0.0226584	-2.293726e-07	7.753201e-06	0.01096471	-0.005885578	-1.347763e-07	8.84754e-07
	-2.293726e-07	7.753201e-06	0.01445272	-0.02092743	-1.793482e-06	3.411872e-05	0.01125398	-0.005008691
	0.01096471	-0.005885578	-1.793482e-06	3.411872e-05	0.01317171	-0.02294854	-3.189106e-06	3.670729e-05
	-1.347763e-07	8.84754e-07	0.01125398	-0.005008691	-3.189106e-06	3.670729e-05	0.01447172	-0.02075274
3.5e+08	0.0115236	-0.02228946	1.13996e-07	7.683957e-06	0.009870396	-0.006041102	-1.008683e-07	9.27176e-07
	1.13996e-07	7.683957e-06	0.01261311	-0.02061642	-3.078599e-07	3.383943e-05	0.01021899	-0.005179942
	0.009870396	-0.006041102	-3.078599e-07	3.383943e-05	0.01121543	-0.02254193	-1.592027e-06	3.649014e-05
	-1.008683e-07	9.27176e-07	0.01021899	-0.005179942	-1.592027e-06	3.649014e-05	0.01263147	-0.02043088
3.6e+08	0.009638332	-0.02171589	4.537205e-07	7.60205e-06	0.008754046	-0.006053297	-6.125214e-08	9.690942e-07
	4.537205e-07	7.60205e-06	0.01082083	-0.02011521	1.161596e-06	3.350463e-05	0.009158414	-0.005216323
	0.008754046	-0.006053297	1.161596e-06	3.350463e-05	0.009320263	-0.0219296	-6.976978e-09	3.621312e-05
	-6.125214e-08	9.690942e-07	0.009158414	-0.005216323	-6.976978e-09	3.621312e-05	0.01083937	-0.0199186
3.7e+08	0.007833061	-0.0209457	7.893761e-07	7.507277e-06	0.007634134	-0.00592028	-1.580097e-08	1.009829e-06
	7.893761e-07	7.507277e-06	0.009096723	-0.0194307	2.612464e-06	3.311397e-05	0.008089541	-0.005115502
	0.007634134	-0.00592028	2.612464e-06	3.311397e-05	0.007509253	-0.02111992	1.563388e-06	3.587547e-05
	-1.580097e-08	1.009829e-06	0.008089541	-0.005115502	1.563388e-06	3.587547e-05	0.00911633	-0.01922289
3.8e+08	0.006129606	-0.01998947	1.120465e-06	7.399445e-06	0.006529247	-0.005642532	3.552483e-08	1.048672e-06
	1.120465e-06	7.399445e-06	0.007460713	-0.01857207	4.042242e-06	3.266728e-05	0.007029823	-0.004877346
	0.006529247	-0.005642532	4.042242e-06	3.266728e-05	0.005804314	-0.02012391	3.116285e-06	3.547663e-05
	3.552483e-08	1.048672e-06	0.007029823	-0.004877346	3.116285e-06	3.547663e-05	0.007482267	-0.01835306
3.9e+08	0.004548415	-0.01886025	1.446427e-06	7.278392e-06	0.005457786	-0.005222892	9.267428e-08	1.084895e-06
	1.446427e-06	7.278392e-06	0.005931502	-0.01755068	5.448348e-06	3.216455e-05	0.005996608	-0.004503931
	0.005457786	-0.005222892	5.448348e-06	3.216455e-05	0.004225948	-0.01895504	4.648803e-06	3.501623e-05
	9.267428e-08	1.084895e-06	0.005996608	-0.004503931	4.648803e-06	3.501623e-05	0.005955889	-0.0173206
4e+08	0.003108272	-0.01757336	1.766644e-06	7.143986e-06	0.004437666	-0.004666523	1.555034e-07	1.11777e-06
	1.766644e-06	7.143986e-06	0.004526349	-0.01637995	6.828124e-06	3.160595e-05	0.005006859	-0.003999512
	0.004437666	-0.004666523	6.828124e-06	3.160595e-05	0.002792955	-0.01762906	6.157913e-06	3.449412e-05
	1.555034e-07	1.11777e-06	0.005006859	-0.003999512	6.157913e-06	3.449412e-05	0.004554437	-0.01613903
4.1e+08	0.001826066	-0.01614617	2.08044e-06	6.996153e-06	0.003486025	-0.003980831	2.237738e-07	1.146578e-06
	2.08044e-06	6.996153e-06	0.003260839	-0.01507513	8.178848e-06	3.099184e-05	0.004076882	-0.003370454
	0.003486025	-0.003980831	8.178848e-06	3.099184e-05	0.00152218	-0.01616382	7.640492e-06	3.39104e-05
	2.237738e-07	1.146578e-06	0.004076882	-0.003370454	7.640492e-06	3.39104e-05	0.003293465	-0.01482374
4.2e+08	0.0007165282	-0.01459791	2.38709e-06	6.834871e-06	0.002618945	-0.003175352	2.971551e-07	1.170624e-06
	2.38709e-06	6.834871e-06	0.002148691	-0.01365311	9.497739e-06	3.032281e-05	0.003222062	-0.002625143
	0.002618945	-0.003175352	9.497739e-06	3.032281e-05	0.000428276	-0.01457899	9.093329e-06	3.326543e-05
	2.971551e-07	1.170624e-06	0.003222062	-0.002625143	9.093329e-06	3.326543e-05	0.002186638	-0.01339171
4.3e+08	-0.0002079341	-0.01294936	2.685824e-06	6.66019e-06	0.001851186	-0.002261604	3.752281e-07	1.189248e-06
	2.685824e-06	6.66019e-06	0.001201577	-0.01213222	1.078197e-05	2.959963e-05	0.002456619	-0.001773845
	0.001851186	-0.002261604	1.078197e-05	2.959963e-05	-0.0004764938	-0.01289582	1.051315e-05	3.255983e-05
	3.752281e-07	1.189248e-06	0.002456619	-0.001773845	1.051315e-05	3.255983e-05	0.001245568	-0.01186139
4.4e+08	-0.0009374353	-0.01122261	2.97583e-06	6.47223e-06	0.00119595	-0.001252903	4.57491e-07	1.201842e-06
	2.97583e-06	6.47223e-06	0.000428982	-0.01053194	1.202869e-05	2.882329e-05	0.001793373	-0.0008285544
	0.00119595	-0.001252903	1.202869e-05	2.882329e-05	-0.001182428	-0.01113683	1.189665e-05	3.179446e-05
	4.57491e-07	1.201842e-06	0.001793373	-0.0008285544	1.189665e-05	3.179446e-05	0.0004796557	-0.01025237
4.5e+08	-0.001464724	-0.00944073	3.256271e-06	6.271194e-06	0.0006646547	-0.0001641538	5.433657e-07	1.207856e-06
	3.256271e-06	6.271194e-06	-0.0001619219	-0.008872686	1.3235e-05	2.799501e-05	0.001243541	0.0001972042
	0.0006646547	-0.0001641538	1.3235e-05	2.799501e-05	-0.001682523	-0.009325539	1.324048e-05	3.097051e-05
	5.433657e-07	1.207856e-06	0.001243541	0.0001972042	1.324048e-05	3.097051e-05	-0.000104017	-0.00858512
4.6e+08	-0.001785299	-0.007627445	3.526296e-06	6.057377e-06	0.0002667516	0.000988386	6.322082e-07	1.20681e-06
	3.526296e-06	6.057377e-06	-0.0005663579	-0.007175499	1.4398e-05	2.71163e-05	0.0008165526	0.001288583
	0.0002667516	0.000988386	1.4398e-05	2.71163e-05	-0.001972565	-0.007486074	1.454133e-05	3.008944e-05
	6.322082e-07	1.20681e-06	0.0008165526	0.001288583	1.454133e-05	3.008944e-05	-0.0005007782	-0.006880774
4.7e+08	-0.001897459	-0.005806837	3.785043e-06	5.831156e-06	9.565244e-06	0.002187368	7.233059e-07	1.198292e-06
	3.785043e-06	5.831156e-06	-0.0007820008	-0.005461786	1.551469e-05	2.618895e-05	0.0005198972	0.002429652
	9.565246e-06	0.002187368	1.551469e-05	2.618895e-05	-0.002051178	-0.005642887	1.579582e-05	2.915293e-05
	7.233059e-07	1.198292e-06	0.0005198972	0.002429652	1.579582e-05	2.915293e-05	-0.0007083904	-0.005160768
