!$
! Info: Touchstone file created by Circ.  Input file=Tx_6in_Rx_85ohms_TxVia_35mils_RxVia_45mils.circ
!$
# Hz S RI R 50
0	0.004942083	9.140358e-26	-3.268553e-05	-5.304669e-27	5.31009e-05	9.227709e-24	-3.268521e-05	-1.155109e-26
	-3.268554e-05	-4.110489e-27	0.004938653	1.045758e-25	-3.268487e-05	1.471912e-27	5.173636e-05	1.110675e-23
	5.362523e-05	9.347834e-24	-3.268485e-05	-5.260654e-28	0.004950332	8.921941e-26	-3.268527e-05	8.344925e-26
	-3.268522e-05	-1.072199e-26	4.988927e-05	1.11616e-23	-3.268529e-05	8.508219e-26	0.00495184	9.796722e-26
1e+07	0.006607116	-0.005425517	-3.397048e-06	-8.380203e-06	0.0001266268	0.001233768	-1.824412e-06	-9.730707e-06
	-3.397048e-06	-8.380203e-06	0.006592689	-0.005326999	-5.760737e-06	-4.90426e-07	0.000170688	0.001231186
	0.0001266506	0.001233769	-5.760736e-06	-4.904262e-07	0.007424676	-0.005219367	-1.266618e-05	7.669663e-07
	-1.824412e-06	-9.730706e-06	0.0001706281	0.001231196	-1.266618e-05	7.669664e-07	0.006587756	-0.005315843
2e+07	0.007191299	-0.01247654	-3.105923e-06	-3.359851e-06	0.0003688252	0.002445796	-9.123907e-07	-5.14151e-06
	-3.105923e-06	-3.359851e-06	0.007253137	-0.01231004	-1.42573e-05	-9.624225e-06	0.0004272306	0.002404382
	0.0003688329	0.002445781	-1.42573e-05	-9.624226e-06	0.008032517	-0.01243154	-1.837374e-05	-5.007149e-06
	-9.123907e-07	-5.14151e-06	0.0004272228	0.002404416	-1.837374e-05	-5.007149e-06	0.007252616	-0.01228188
3e+07	0.006320535	-0.020161	-2.965242e-06	-2.139821e-06	0.0007921575	0.003574618	-1.172606e-06	-4.060536e-06
	-2.965242e-06	-2.139821e-06	0.006425809	-0.01997532	-2.078328e-05	-1.061168e-05	0.0008207011	0.003523562
	0.0007921574	0.003574615	-2.078328e-05	-1.061168e-05	0.007176975	-0.02019135	-2.269689e-05	-5.076299e-06
	-1.172606e-06	-4.060536e-06	0.0008207012	0.003523567	-2.269689e-05	-5.0763e-06	0.006427957	-0.01993515
4e+07	0.004229178	-0.02784837	-2.847155e-06	-1.492449e-06	0.001347218	0.004625902	-1.855606e-06	-3.321839e-06
	-2.847155e-06	-1.492449e-06	0.00435439	-0.02765648	-2.617584e-05	-9.320711e-06	0.001344827	0.004574375
	0.00134722	0.004625904	-2.617584e-05	-9.320711e-06	0.005092773	-0.02794454	-2.620513e-05	-3.564153e-06
	-1.855606e-06	-3.321839e-06	0.001344822	0.004574373	-2.620513e-05	-3.564153e-06	0.004357878	-0.02760562
5e+07	0.001034823	-0.03529567	-2.734903e-06	-1.0583e-06	0.002023715	0.005586087	-2.425934e-06	-2.674522e-06
	-2.734903e-06	-1.0583e-06	0.001160301	-0.03510117	-3.067428e-05	-6.677804e-06	0.001989196	0.005541162
	0.002023717	0.005586087	-3.067428e-05	-6.677804e-06	0.00189806	-0.03545553	-2.905826e-05	-1.122308e-06
	-2.425934e-06	-2.674522e-06	0.001989193	0.005541161	-2.905826e-05	-1.122308e-06	0.001163829	-0.03504013
6e+07	-0.003166836	-0.04233064	-2.620852e-06	-7.291307e-07	0.002808456	0.00644139	-2.892544e-06	-2.031325e-06
	-2.620852e-06	-7.291306e-07	-0.003057853	-0.04213211	-3.436323e-05	-3.042805e-06	0.002741003	0.006409617
	0.002808454	0.00644139	-3.436323e-05	-3.042805e-06	-0.002311362	-0.04255379	-3.131074e-05	1.997055e-06
	-2.892544e-06	-2.031325e-06	0.002741006	0.006409616	-3.131074e-05	1.997055e-06	-0.003055519	-0.04206094
7e+07	-0.00828121	-0.04881383	-2.500686e-06	-4.616954e-07	0.003686202	0.007179427	-3.256424e-06	-1.359882e-06
	-2.500686e-06	-4.616953e-07	-0.008203177	-0.04860676	-3.725342e-05	1.412764e-06	0.003585632	0.00716725
	0.003686196	0.007179428	-3.725342e-05	1.412764e-06	-0.007440988	-0.0491003	-3.296635e-05	5.673564e-06
	-3.256424e-06	-1.359882e-06	0.00358564	0.007167246	-3.296635e-05	5.673564e-06	-0.008203201	-0.04852517
8e+07	-0.01420844	-0.05462763	-2.371503e-06	-2.35902e-07	0.004640069	0.007789785	-3.511852e-06	-6.432926e-07
	-2.371503e-06	-2.35902e-07	-0.01417398	-0.05440564	-3.929757e-05	6.620113e-06	0.004506987	0.007803713
	0.004640062	0.007789788	-3.929757e-05	6.620113e-06	-0.01339125	-0.0549777	-3.398814e-05	9.859031e-06
	-3.511852e-06	-6.432927e-07	0.004506996	0.007803707	-3.398814e-05	9.859031e-06	-0.01417745	-0.05431306
9e+07	-0.0208413	-0.05967222	-2.23021e-06	-4.164932e-08	0.005651908	0.008264414	-3.642114e-06	1.377284e-07
	-2.230209e-06	-4.164941e-08	-0.02086188	-0.05942839	-4.035904e-05	1.263031e-05	0.005487906	0.008311187
	0.005651903	0.008264418	-4.035904e-05	1.263031e-05	-0.02005575	-0.0600869	-3.427446e-05	1.459108e-05
	-3.642114e-06	1.377283e-07	0.005487912	0.008311181	-3.427446e-05	1.459108e-05	-0.02086976	-0.05932398
1e+08	-0.02806238	-0.06386031	-2.066687e-06	1.295233e-07	0.006702913	0.008598131	-3.565493e-06	1.07721e-06
	-2.066687e-06	1.295233e-07	-0.0281529	-0.06359415	-3.979335e-05	2.016127e-05	0.006511499	0.008685948
	0.006702913	0.008598131	-3.979335e-05	2.016127e-05	-0.02732167	-0.06434656	-3.334819e-05	2.039436e-05
	-3.565493e-06	1.07721e-06	0.006511499	0.008685948	-3.334819e-05	2.039436e-05	-0.02816612	-0.063477
1.1e+08	-0.03573531	-0.06716203	-1.956969e-06	2.828935e-07	0.007773914	0.008786979	-3.04222e-06	1.718975e-06
	-1.956969e-06	2.828936e-07	-0.03592798	-0.06683471	-3.545452e-05	2.540132e-05	0.007564036	0.00891664
	0.007773914	0.008786979	-3.545452e-05	2.540132e-05	-0.03506887	-0.06769642	-3.21397e-05	2.10019e-05
	-3.04222e-06	1.718975e-06	0.007564036	0.008916641	-3.21397e-05	2.10019e-05	-0.03594641	-0.06670288
1.2e+08	-0.04377349	-0.06951232	-1.872109e-06	4.338992e-07	0.008844248	0.008830923	-2.602355e-06	2.143767e-06
	-1.872109e-06	4.338992e-07	-0.04405504	-0.06909307	-3.427982e-05	2.581759e-05	0.008616845	0.009004147
	0.008844248	0.008830923	-3.427982e-05	2.581759e-05	-0.04317577	-0.07007692	-3.16191e-05	2.085112e-05
	-2.602355e-06	2.143767e-06	0.008616845	0.009004147	-3.16191e-05	2.085112e-05	-0.044079	-0.0689452
1.3e+08	-0.05204557	-0.07087203	-1.789129e-06	5.730495e-07	0.009895005	0.008732842	-2.299765e-06	2.336772e-06
	-1.789129e-06	5.730495e-07	-0.05240502	-0.07034051	-3.35628e-05	2.582821e-05	0.009652715	0.008952966
	0.009895005	0.008732842	-3.35628e-05	2.582821e-05	-0.05151453	-0.07145687	-3.09554e-05	2.108025e-05
	-2.299765e-06	2.336772e-06	0.009652715	0.008952966	-3.09554e-05	2.108025e-05	-0.05243461	-0.07017506
1.4e+08	-0.06042258	-0.07122406	-1.704441e-06	7.003666e-07	0.01090778	0.008497792	-2.274346e-06	2.224672e-06
	-1.704441e-06	7.003666e-07	-0.06084739	-0.07056332	-3.272536e-05	2.612752e-05	0.01065419	0.008768159
	0.01090778	0.008497792	-3.272536e-05	2.612752e-05	-0.05995644	-0.0718211	-3.020087e-05	2.152598e-05
	-2.274346e-06	2.224672e-06	0.01065419	0.008768159	-3.020087e-05	2.152598e-05	-0.06088228	-0.07037855
1.5e+08	-0.06877716	-0.07056824	-1.616843e-06	8.156404e-07	0.01186518	0.008133131	-2.245049e-06	2.143553e-06
	-1.616843e-06	8.156404e-07	-0.06925291	-0.06976399	-3.179619e-05	2.661276e-05	0.01160466	0.008456736
	0.01186518	0.00813313	-3.179619e-05	2.661276e-05	-0.06837403	-0.07117048	-2.93738e-05	2.210751e-05
	-2.245049e-06	2.143553e-06	0.01160466	0.008456736	-2.93738e-05	2.210751e-05	-0.06929232	-0.06955815
1.6e+08	-0.07698502	-0.06892017	-1.52638e-06	9.203669e-07	0.01275117	0.007648322	-2.213771e-06	2.085549e-06
	-1.52638e-06	9.203669e-07	-0.07749547	-0.06796074	-3.078778e-05	2.722272e-05	0.01248875	0.008027616
	0.01275117	0.007648322	-3.078778e-05	2.722272e-05	-0.07664277	-0.06952139	-2.848256e-05	2.277945e-05
	-2.213771e-06	2.085549e-06	0.01248875	0.008027616	-2.848256e-05	2.277945e-05	-0.07753821	-0.06773221
1.7e+08	-0.08492643	-0.06631031	-1.433154e-06	1.015527e-06	0.01355128	0.007054698	-2.181436e-06	2.045596e-06
	-1.433154e-06	1.015527e-06	-0.08545378	-0.06518678	-2.970623e-05	2.791626e-05	0.01329254	0.007491446
	0.01355128	0.007054698	-2.970623e-05	2.791626e-05	-0.08464267	-0.06690494	-2.753088e-05	2.351102e-05
	-2.181436e-06	2.045596e-06	0.01329254	0.007491446	-2.753088e-05	2.351102e-05	-0.08549826	-0.06493414
1.8e+08	-0.09248767	-0.06278304	-1.337309e-06	1.101783e-06	0.01425281	0.006365195	-2.148457e-06	2.020232e-06
	-1.337309e-06	1.101783e-06	-0.09301288	-0.06148932	-2.855471e-05	2.86634e-05	0.01400375	0.006860368
	0.01425281	0.006365195	-2.855471e-05	2.86634e-05	-0.09225977	-0.06336604	-2.65204e-05	2.427965e-05
	-2.148457e-06	2.020232e-06	0.01400375	0.006860368	-2.65204e-05	2.427965e-05	-0.0930572	-0.06121145
1.9e+08	-0.09956241	-0.05839554	-1.239026e-06	1.179587e-06	0.01484496	0.005594077	-2.114973e-06	2.006981e-06
	-1.239026e-06	1.179587e-06	-0.1000655	-0.05692858	-2.733524e-05	2.944093e-05	0.01461188	0.006147775
	0.01484496	0.005594077	-2.733524e-05	2.944093e-05	-0.09938754	-0.05896239	-2.545202e-05	2.506766e-05
	-2.114973e-06	2.006981e-06	0.01461188	0.006147775	-2.545202e-05	2.506766e-05	-0.1001076	-0.05662468
2e+08	-0.1060529	-0.05321677	-1.138522e-06	1.249247e-06	0.01531897	0.004756655	-2.08095e-06	2.004006e-06
	-1.138522e-06	1.249247e-06	-0.1065136	-0.05157655	-2.604942e-05	3.023007e-05	0.01510829	0.005368054
	0.01531897	0.004756655	-2.604942e-05	3.023007e-05	-0.1059281	-0.0537634	-2.43264e-05	2.586054e-05
	-2.08095e-06	2.004006e-06	0.01510829	0.005368054	-2.43264e-05	2.586054e-05	-0.1065511	-0.05124619
2.1e+08	-0.1118713	-0.04732613	-1.036047e-06	1.310975e-06	0.01566814	0.003869019	-2.046254e-06	2.009903e-06
	-1.036047e-06	1.310975e-06	-0.1122691	-0.04551579	-2.469898e-05	3.101502e-05	0.01548632	0.004536336
	0.01566814	0.003869019	-2.469898e-05	3.101502e-05	-0.1117933	-0.04784893	-2.314438e-05	2.664599e-05
	-2.046254e-06	2.009903e-06	0.01548632	0.004536336	-2.314438e-05	2.664599e-05	-0.1122997	-0.0451589
2.2e+08	-0.1169403	-0.04081226	-9.318816e-07	1.364913e-06	0.01588789	0.002947764	-2.010673e-06	2.02357e-06
	-9.318816e-07	1.364913e-06	-0.1172551	-0.03883801	-2.328597e-05	3.178221e-05	0.01574121	0.00366825
	0.01588789	0.002947764	-2.328597e-05	3.178221e-05	-0.1169059	-0.04130798	-2.190711e-05	2.741326e-05
	-2.010673e-06	2.02357e-06	0.01574121	0.00366825	-2.190711e-05	2.741326e-05	-0.1172764	-0.0384549
2.3e+08	-0.1211941	-0.03377156	-8.263408e-07	1.411162e-06	0.01597571	0.002009735	-1.973937e-06	2.044116e-06
	-8.263408e-07	1.411162e-06	-0.1214067	-0.03164266	-2.18128e-05	3.251974e-05	0.0158702	0.002779689
	0.01597571	0.002009735	-2.18128e-05	3.251974e-05	-0.1211999	-0.03423738	-2.061611e-05	2.815277e-05
	-1.973937e-06	2.044116e-06	0.0158702	0.002779689	-2.061611e-05	2.815277e-05	-0.1214163	-0.03123404
2.4e+08	-0.1245792	-0.02630685	-7.197664e-07	1.449797e-06	0.01593121	0.001071787	-1.935763e-06	2.070798e-06
	-7.197664e-07	1.449797e-06	-0.1246716	-0.02403547	-2.028255e-05	3.321709e-05	0.01587244	0.001886591
	0.01593121	0.001071787	-2.028255e-05	3.321709e-05	-0.1246218	-0.02674029	-1.927347e-05	2.885593e-05
	-1.935763e-06	2.070798e-06	0.01587244	0.001886591	-1.927347e-05	2.885593e-05	-0.1246672	-0.0236024
2.5e+08	-0.1270548	-0.01852587	-6.125287e-07	1.480883e-06	0.01575599	0.000150558	-1.89583e-06	2.102979e-06
	-6.125287e-07	1.480883e-06	-0.1270106	-0.01612695	-1.869876e-05	3.386488e-05	0.01574897	0.00100473
	0.01575599	0.000150558	-1.869876e-05	3.386488e-05	-0.1271306	-0.01892482	-1.788173e-05	2.951495e-05
	-1.89583e-06	2.102979e-06	0.01574897	0.00100473	-1.788173e-05	2.951495e-05	-0.12699	-0.01567084
2.6e+08	-0.1285931	-0.01053983	-5.050202e-07	1.504489e-06	0.0154536	-0.000737749	-1.853817e-06	2.140095e-06
	-5.050202e-07	1.504489e-06	-0.1283979	-0.0080308	-1.706555e-05	3.445474e-05	0.01550264	0.0001495243
	0.0154536	-0.000737749	-1.706555e-05	3.445474e-05	-0.1286985	-0.0109025	-1.644396e-05	3.012276e-05
	-1.853817e-06	2.140095e-06	0.01550264	0.0001495242	-1.644396e-05	3.012276e-05	-0.1283591	-0.007553413
2.7e+08	-0.1291795	-0.002461882	-3.976536e-07	1.520693e-06	0.01502949	-0.00157756	-1.809387e-06	2.181628e-06
	-3.976536e-07	1.520693e-06	-0.1288214	0.0001375651	-1.538752e-05	3.49792e-05	0.01513808	-0.0006641459
	0.01502949	-0.00157756	-1.538752e-05	3.49792e-05	-0.129311	-0.002786834	-1.496367e-05	3.067289e-05
	-1.809387e-06	2.181628e-06	0.01513808	-0.0006641459	-1.496367e-05	3.067289e-05	-0.1287626	0.0006341762
2.8e+08	-0.1288128	0.005594354	-2.908558e-07	1.529596e-06	0.01449085	-0.002354118	-1.762209e-06	2.227102e-06
	-2.908558e-07	1.529596e-06	-0.1282824	0.008262598	-1.366981e-05	3.543169e-05	0.01466157	-0.001422105
	0.01449085	-0.002354118	-1.366981e-05	3.543169e-05	-0.1289668	0.00530824	-1.344493e-05	3.115959e-05
	-1.762209e-06	2.227102e-06	0.01466157	-0.001422105	-1.344493e-05	3.115959e-05	-0.1282022	0.008776098
2.9e+08	-0.1275049	0.01351625	-1.850614e-07	1.531323e-06	0.01384657	-0.003053654	-1.711957e-06	2.276063e-06
	-1.850614e-07	1.531323e-06	-0.1267959	0.0162301	-1.191797e-05	3.580648e-05	0.01408096	-0.002111043
	0.01384657	-0.003053654	-1.191797e-05	3.580648e-05	-0.1276777	0.01326977	-1.189219e-05	3.157769e-05
	-1.711957e-06	2.276063e-06	0.01408096	-0.002111043	-1.189219e-05	3.157769e-05	-0.126693	0.01675792
3e+08	-0.1252807	0.02119362	-8.070839e-08	1.526028e-06	0.01310706	-0.003663557	-1.658305e-06	2.328056e-06
	-8.070839e-08	1.526028e-06	-0.1243899	0.02392874	-1.013795e-05	3.609859e-05	0.0134056	-0.002718663
	0.01310706	-0.003663557	-1.013795e-05	3.609859e-05	-0.1254688	0.02098728	-1.031033e-05	3.192258e-05
	-1.658305e-06	2.328056e-06	0.0134056	-0.002718663	-1.031033e-05	3.192258e-05	-0.1242636	0.0244681
3.1e+08	-0.1221777	0.02852017	2.176979e-08	1.513898e-06	0.01228416	-0.004172521	-1.600946e-06	2.382649e-06
	2.176979e-08	1.513898e-06	-0.1211054	0.03125147	-8.336052e-06	3.630365e-05	0.01264618	-0.003233832
	0.01228416	-0.004172521	-8.336052e-06	3.630365e-05	-0.1223776	0.02835413	-8.7046e-06	3.219038e-05
	-1.600946e-06	2.382649e-06	0.01264618	-0.003233832	-8.7046e-06	3.219038e-05	-0.1209551	0.03179943
3.2e+08	-0.1182453	0.0353948	1.219502e-07	1.49515e-06	0.01139099	-0.004570692	-1.539581e-06	2.439396e-06
	1.219502e-07	1.49515e-06	-0.1169953	0.03809693	-6.518911e-06	3.641802e-05	0.01181467	-0.003646711
	0.01139099	-0.004570692	-6.518911e-06	3.641802e-05	-0.1184535	0.03526894	-7.080549e-06	3.237774e-05
	-1.539581e-06	2.439396e-06	0.01181467	-0.003646711	-7.080549e-06	3.237774e-05	-0.116821	0.03865045
3.3e+08	-0.1135445	0.04172295	2.194248e-07	1.470051e-06	0.01044182	-0.004849809	-1.473926e-06	2.497839e-06
	2.194248e-07	1.470051e-06	-0.1121241	0.04437077	-4.69327e-06	3.643962e-05	0.01092412	-0.00394889
	0.01044182	-0.004849809	-4.69327e-06	3.643962e-05	-0.1137577	0.04163687	-5.443989e-06	3.248191e-05
	-1.473926e-06	2.497839e-06	0.01092412	-0.00394889	-5.443989e-06	3.248191e-05	-0.1119261	0.04492677
3.4e+08	-0.1081467	0.04741787	3.138086e-07	1.438894e-06	0.009451846	-0.005003329	-1.403731e-06	2.557471e-06
	3.138086e-07	1.438894e-06	-0.1065669	0.04998689	-2.866146e-06	3.636636e-05	0.009988591	-0.004133516
	0.009451846	-0.005003329	-2.866146e-06	3.636636e-05	-0.1083616	0.04737087	-3.801057e-06	3.250054e-05
	-1.403731e-06	2.557471e-06	0.009988591	-0.004133516	-3.801057e-06	3.250054e-05	-0.1063459	0.05054232
3.5e+08	-0.1021332	0.05240171	4.047465e-07	1.401995e-06	0.008437072	-0.005026542	-1.32875e-06	2.617861e-06
	4.047465e-07	1.401995e-06	-0.1004082	0.05486865	-1.044519e-06	3.619722e-05	0.009022927	-0.00419541
	0.008437072	-0.005026542	-1.044519e-06	3.619722e-05	-0.1023466	0.05239282	-2.157923e-06	3.243241e-05
	-1.32875e-06	2.617861e-06	0.009022927	-0.00419541	-2.157923e-06	3.243241e-05	-0.1001656	0.05542051
3.6e+08	-0.09559363	0.05660664	4.919143e-07	1.359694e-06	0.007414078	-0.004916681	-1.248766e-06	2.678528e-06
	4.919143e-07	1.359694e-06	-0.09374146	0.0589499	7.646712e-07	3.593194e-05	0.008042627	-0.004131173
	0.007414078	-0.004916681	7.646712e-07	3.593194e-05	-0.09580268	0.05663461	-5.208531e-07	3.227682e-05
	-1.248766e-06	2.678528e-06	0.008042627	-0.004131173	-5.208531e-07	3.227682e-05	-0.09347881	0.05949531
3.7e+08	-0.08862536	0.05997579	5.750227e-07	1.312357e-06	0.006399813	-0.004673009	-1.163592e-06	2.738964e-06
	5.750227e-07	1.312357e-06	-0.08666697	0.06217591	2.554451e-06	3.557079e-05	0.007063632	-0.003939286
	0.006399813	-0.004673009	2.554451e-06	3.557079e-05	-0.08882719	0.06003912	1.103818e-06	3.20336e-05
	-1.163592e-06	2.738964e-06	0.007063632	-0.003939286	1.103818e-06	3.20336e-05	-0.08638631	0.06271218
3.8e+08	-0.08133179	0.06246412	6.538206e-07	1.260363e-06	0.005411364	-0.004296888	-1.073075e-06	2.798641e-06
	6.538206e-07	1.260363e-06	-0.07929116	0.06450425	4.317929e-06	3.511469e-05	0.006102117	-0.003620185
	0.005411364	-0.004296888	4.317929e-06	3.511469e-05	-0.08152379	0.06256105	2.709769e-06	3.17032e-05
	-1.073075e-06	2.798641e-06	0.006102117	-0.003620185	2.709769e-06	3.17032e-05	-0.07899493	0.06502893
3.9e+08	-0.0738212	0.06403906	7.280971e-07	1.204103e-06	0.004465703	-0.003791824	-9.770968e-07	2.857014e-06
	7.280971e-07	1.204103e-06	-0.07172491	0.06590541	6.048354e-06	3.456521e-05	0.005174255	-0.003176323
	0.004465703	-0.003791824	6.048354e-06	3.456521e-05	-0.07400099	0.06416763	4.29076e-06	3.128667e-05
	-9.770968e-07	2.857014e-06	0.005174255	-0.003176323	4.29076e-06	3.128667e-05	-0.0714159	0.06641634
4e+08	-0.06620517	0.06468115	7.97681e-07	1.143971e-06	0.003579421	-0.00316349	-8.755858e-07	2.913518e-06
	7.97681e-07	1.143971e-06	-0.06408204	0.06636332	7.739157e-06	3.392452e-05	0.004295975	-0.002612202
	0.003579421	-0.00316349	7.739157e-06	3.392452e-05	-0.0663706	0.06483917	5.840679e-06	3.078566e-05
	-8.755858e-07	2.913518e-06	0.004295975	-0.002612202	5.840679e-06	3.078566e-05	-0.0637634	0.06685871
4.1e+08	-0.0585971	0.06438434	8.624403e-07	1.080362e-06	0.002768452	-0.002419704	-7.685138e-07	2.96758e-06
	8.624403e-07	1.080362e-06	-0.05647775	0.06587573	9.384027e-06	3.319542e-05	0.003482698	-0.001934371
	0.002768452	-0.002419704	9.384027e-06	3.319542e-05	-0.0587463	0.06456947	7.353615e-06	3.020242e-05
	-7.685138e-07	2.96758e-06	0.003482698	-0.001934371	7.353615e-06	3.020242e-05	-0.05615287	0.06635417
4.2e+08	-0.05111056	0.06315627	9.222808e-07	1.01366e-06	0.002047783	-0.001570383	-6.559019e-07	3.018612e-06
	9.222808e-07	1.01366e-06	-0.04902691	0.06445432	1.097695e-05	3.238128e-05	0.002749062	-0.001151398
	0.002047783	-0.001570383	1.097695e-05	3.238128e-05	-0.05124194	0.063366	8.823915e-06	2.953972e-05
	-6.559019e-07	3.018612e-06	0.002749062	-0.001151398	8.823915e-06	2.953972e-05	-0.04869945	0.06491484
4.3e+08	-0.04385768	0.06101824	9.771422e-07	9.44241e-07	0.001431166	-0.0006274444	-5.378265e-07	3.066021e-06
	9.771422e-07	9.44241e-07	-0.04184241	0.06212466	1.251226e-05	3.148598e-05	0.002108646	-0.000273794
	0.001431166	-0.0006274444	1.251226e-05	3.148598e-05	-0.04396994	0.06124995	1.024623e-05	2.880086e-05
	-5.378265e-07	3.066021e-06	0.002108646	-0.000273794	1.024623e-05	2.880086e-05	-0.04151619	0.06256678
4.4e+08	-0.03694744	0.05800506	1.026995e-06	8.724626e-07	0.0009308329	0.0003953268	-4.144227e-07	3.109212e-06
	1.026995e-06	8.724626e-07	-0.03503345	0.05892598	1.39847e-05	3.051388e-05	0.001573691	0.0006860988
	0.0009308329	0.0003953268	1.39847e-05	3.051388e-05	-0.03703961	0.05825603	1.161557e-05	2.79896e-05
	-4.144227e-07	3.109212e-06	0.001573692	0.0006860987	1.161557e-05	2.79896e-05	-0.0347124	0.05934973
4.5e+08	-0.03048408	0.05416463	1.071834e-06	7.986642e-07	0.0005572193	0.001482466	-2.858875e-07	3.147592e-06
	1.071834e-06	7.986642e-07	-0.02870385	0.05491069	1.538942e-05	2.94698e-05	0.001154836	0.00171427
	0.0005572193	0.001482466	1.538942e-05	2.94698e-05	-0.03055551	0.05443208	1.292733e-05	2.71101e-05
	-2.858875e-07	3.147592e-06	0.001154836	0.00171427	1.292733e-05	2.71101e-05	-0.02839196	0.05531659
4.6e+08	-0.02456544	0.04955734	1.111678e-06	7.231632e-07	0.0003187107	0.002617054	-1.524746e-07	3.180585e-06
	1.111678e-06	7.231632e-07	-0.02295045	0.05014366	1.672211e-05	2.835893e-05	0.0008608586	0.002795241
	0.0003187107	0.002617054	1.672211e-05	2.835893e-05	-0.02461582	0.0498385	1.417739e-05	2.616694e-05
	-1.524746e-07	3.180585e-06	0.0008608586	0.002795241	1.417739e-05	2.616694e-05	-0.02265168	0.05053281
4.7e+08	-0.01928144	0.0442553	1.146559e-06	6.462546e-07	0.000221417	0.003780995	-1.450897e-08	3.207631e-06
	1.146559e-06	6.462546e-07	-0.01786155	0.04470138	1.797891e-05	2.718679e-05	0.000698458	0.003912319
	0.000221417	0.003780995	1.797891e-05	2.718679e-05	-0.0193108	0.0445474	1.536204e-05	2.516497e-05
	-1.450897e-08	3.207631e-06	0.000698458	0.003912319	1.536204e-05	2.516497e-05	-0.01757977	0.0450754
