!$
! Info: Touchstone file created by Circ.  Input file=Tx_6in_Rx_100ohms_TxVia_35mils_RxVia_45mils.circ
!$
# Hz S RI R 50
0	0.006332959	9.011197e-26	1.767893e-08	1.401622e-26	5.115316e-05	1.201109e-23	3.440862e-08	3.118424e-27
	1.767895e-08	1.401498e-26	0.00633185	1.042205e-25	3.433436e-08	5.070094e-26	5.157393e-05	1.42759e-23
	4.931648e-05	1.233437e-23	3.433436e-08	5.070128e-26	0.00634553	8.59099e-26	2.098403e-08	1.661277e-26
	3.440862e-08	3.119084e-27	4.972657e-05	1.434631e-23	2.098404e-08	1.661395e-26	0.006345015	9.763635e-26
1e+07	0.00918676	0.004420408	2.678608e-08	5.004676e-08	0.0003640938	0.001251299	7.589696e-08	1.496357e-07
	2.678608e-08	5.004676e-08	0.009182829	0.004419782	5.899791e-08	1.568246e-07	0.000362031	0.001251806
	0.000364034	0.001251302	5.89979e-08	1.568246e-07	0.009109213	0.004434863	3.160946e-08	5.985955e-08
	7.589695e-08	1.496357e-07	0.0003619708	0.001251816	3.160946e-08	5.985955e-08	0.009104428	0.004434448
2e+07	0.01175452	0.006723651	4.28646e-08	8.905251e-08	0.0005107268	0.002577962	1.435205e-07	2.603651e-07
	4.286459e-08	8.905251e-08	0.01173883	0.006723525	8.303707e-08	2.846683e-07	0.000502757	0.002579947
	0.0005107141	0.002578	8.303706e-08	2.846683e-07	0.01170478	0.00678375	5.071472e-08	1.064011e-07
	1.435204e-07	2.603651e-07	0.0005027484	0.002579981	5.071472e-08	1.064011e-07	0.01168581	0.006784405
3e+07	0.01400187	0.008061653	6.156141e-08	1.238527e-07	0.0008259328	0.003766507	2.303365e-07	3.534045e-07
	6.156141e-08	1.238527e-07	0.01396702	0.008065057	1.027974e-07	4.073793e-07	0.0008084965	0.003771582
	0.0008259352	0.003766512	1.027974e-07	4.073793e-07	0.01397786	0.008141829	7.28705e-08	1.479443e-07
	2.303365e-07	3.534045e-07	0.0008084963	0.003771587	7.28705e-08	1.479443e-07	0.01393589	0.008147266
4e+07	0.01611708	0.008915346	8.361383e-08	1.54381e-07	0.001306802	0.004868305	3.374088e-07	4.264187e-07
	8.361384e-08	1.54381e-07	0.01605611	0.008926247	1.220069e-07	5.265936e-07	0.001276673	0.004878672
	0.001306797	0.0048683	1.220069e-07	5.265936e-07	0.01611852	0.009007207	9.897394e-08	1.844728e-07
	3.374088e-07	4.264187e-07	0.001276667	0.00487867	9.897394e-08	1.844728e-07	0.01604529	0.009022222
5e+07	0.01815031	0.009401888	1.083425e-07	1.800503e-07	0.002022376	0.005846238	4.614274e-07	4.760674e-07
	1.083425e-07	1.800503e-07	0.01805691	0.009425817	1.409037e-07	6.424609e-07	0.001976746	0.005864594
	0.002022372	0.005846236	1.409037e-07	6.424609e-07	0.01817702	0.009499404	1.282858e-07	2.152878e-07
	4.614274e-07	4.760674e-07	0.001976742	0.005864593	1.282858e-07	2.152878e-07	0.01806505	0.00953066
6e+07	0.02011422	0.009577964	1.35035e-07	2.006656e-07	0.002838799	0.006716224	5.984066e-07	4.999607e-07
	1.35035e-07	2.006656e-07	0.01998329	0.00962159	1.593489e-07	7.55364e-07	0.002775395	0.006745814
	0.002838803	0.006716224	1.593489e-07	7.55364e-07	0.0201657	0.009675968	1.599467e-07	2.401136e-07
	5.984066e-07	4.999607e-07	0.002775398	0.006745813	1.599467e-07	2.401136e-07	0.02000898	0.009731478
7e+07	0.02200626	0.009477766	1.629162e-07	2.160112e-07	0.003743126	0.007468571	7.441224e-07	4.962079e-07
	1.629162e-07	2.160112e-07	0.02183392	0.009548506	1.771874e-07	8.656021e-07	0.003660252	0.007513026
	0.003743138	0.007468569	1.771874e-07	8.656021e-07	0.02208159	0.009571546	1.930235e-07	2.586981e-07
	7.441224e-07	4.962079e-07	0.00366026	0.007513023	1.930236e-07	2.586981e-07	0.02187557	0.009660193
8e+07	0.02381718	0.009126537	1.911805e-07	2.259255e-07	0.00472053	0.008094088	8.941017e-07	4.633818e-07
	1.911806e-07	2.259255e-07	0.0236007	0.009232414	1.942522e-07	9.733819e-07	0.0046171	0.008157345
	0.004720545	0.008094082	1.942522e-07	9.733819e-07	0.02391491	0.009211655	2.265629e-07	2.708678e-07
	8.941017e-07	4.633818e-07	0.00461711	0.008157339	2.265629e-07	2.708678e-07	0.02365639	0.009343038
9e+07	0.02553541	0.008546615	2.189778e-07	2.303259e-07	0.005754344	0.008584428	1.043604e-06	4.006051e-07
	2.189778e-07	2.303259e-07	0.02527328	0.008696186	2.103361e-07	1.078854e-06	0.005629924	0.008670649
	0.005754356	0.008584421	2.103361e-07	1.078854e-06	0.02565345	0.008618749	2.595745e-07	2.765397e-07
	1.043604e-06	4.006051e-07	0.005629931	0.008670644	2.595745e-07	2.765397e-07	0.02534069	0.008803108
1e+08	0.02715587	0.007768042	2.45419e-07	2.292404e-07	0.006823511	0.008928939	1.187677e-06	3.076352e-07
	2.45419e-07	2.292404e-07	0.02684792	0.007970276	2.252046e-07	1.182141e-06	0.006678349	0.009042428
	0.006823511	0.008928939	2.252046e-07	1.182141e-06	0.02729067	0.007822037	2.910323e-07	2.757489e-07
	1.187677e-06	3.076352e-07	0.006678349	0.009042428	2.910323e-07	2.757489e-07	0.02692353	0.008070116
1.1e+08	0.02869205	0.00674145	2.696088e-07	2.229824e-07	0.007897106	0.009149714	1.320889e-06	1.853991e-07
	2.696088e-07	2.229824e-07	0.02834249	0.007006015	2.386561e-07	1.283537e-06	0.007732492	0.009294617
	0.007897106	0.009149714	2.386561e-07	1.283537e-06	0.0288388	0.006778539	3.198376e-07	2.687809e-07
	1.320889e-06	1.853991e-07	0.007732492	0.009294617	3.198376e-07	2.687809e-07	0.02842103	0.007101943
1.2e+08	0.03005851	0.005513387	2.906954e-07	2.118631e-07	0.008987182	0.009238706	1.438741e-06	3.54829e-08
	2.906954e-07	2.118631e-07	0.02966935	0.005847881	2.502823e-07	1.38352e-06	0.008804751	0.009419185
	0.008987182	0.009238706	2.502823e-07	1.38352e-06	0.03021582	0.005532701	3.449898e-07	2.560493e-07
	1.438741e-06	3.54829e-08	0.008804751	0.009419185	3.449898e-07	2.560493e-07	0.02975072	0.005941098
1.3e+08	0.03125097	0.004118668	3.07895e-07	1.963216e-07	0.01007222	0.009189529	1.53666e-06	-1.400708e-07
	3.07895e-07	1.963216e-07	0.03082575	0.004531205	2.599908e-07	1.482377e-06	0.009874325	0.00940956
	0.01007222	0.009189529	2.599908e-07	1.482377e-06	0.03141642	0.00411882	3.65562e-07	2.380709e-07
	1.53666e-06	-1.400708e-07	0.009874325	0.00940956	3.65562e-07	2.380709e-07	0.03090898	0.004621966
1.4e+08	0.0322592	0.002581542	3.204765e-07	1.76908e-07	0.01113358	0.009002942	1.610329e-06	-3.38513e-07
	3.204765e-07	1.76908e-07	0.03180313	0.003080182	2.676852e-07	1.580408e-06	0.01092327	0.00926619
	0.01113358	0.009002942	2.676852e-07	1.580408e-06	0.03243017	0.002561502	3.806883e-07	2.15494e-07
	1.610329e-06	-3.38513e-07	0.01092327	0.00926619	3.806883e-07	2.15494e-07	0.03188716	0.00316879
1.5e+08	0.03307328	0.0009254092	3.277786e-07	1.542811e-07	0.01215341	0.008682715	1.655795e-06	-5.564343e-07
	3.277786e-07	1.542811e-07	0.03259322	0.001517663	2.732862e-07	1.677924e-06	0.01193438	0.008992428
	0.01215341	0.008682715	2.732862e-07	1.677924e-06	0.03324714	0.000884495	3.895848e-07	1.890962e-07
	1.655795e-06	-5.564343e-07	0.01193438	0.008992428	3.895848e-07	1.890962e-07	0.0326771	0.001604532
1.6e+08	0.03368461	-0.0008261312	3.292275e-07	1.292017e-07	0.01311473	0.00823509	1.669583e-06	-7.898147e-07
	3.292275e-07	1.292017e-07	0.03318895	-0.0001336963	2.7674e-07	1.775249e-06	0.01289123	0.008593997
	0.01311473	0.00823509	2.7674e-07	1.775249e-06	0.03385874	-0.000888323	3.915708e-07	1.597754e-07
	1.669583e-06	-7.898147e-07	0.01289123	0.008593997	3.915708e-07	1.597754e-07	0.03327181	-4.807943e-05
1.7e+08	0.03408641	-0.002649055	3.243532e-07	1.025208e-07	0.01400155	0.007668523	1.64878e-06	-1.03409e-06
	3.243532e-07	1.025208e-07	0.03358483	-0.001851118	2.780242e-07	1.872714e-06	0.01377836	0.008078747
	0.01400155	0.007668523	2.780242e-07	1.872714e-06	0.03425818	-0.002732672	3.860886e-07	1.285367e-07
	1.64878e-06	-1.03409e-06	0.01377836	0.008078747	3.860886e-07	1.285367e-07	0.03366594	-0.001766214
1.8e+08	0.03427402	-0.004518932	3.128047e-07	7.516564e-08	0.0147992	0.00699348	1.591125e-06	-1.284232e-06
	3.128047e-07	7.516564e-08	0.03377724	-0.003611642	2.771532e-07	1.970663e-06	0.01458149	0.007456463
	0.0147992	0.006993479	2.771532e-07	1.970663e-06	0.03444079	-0.004623866	3.727201e-07	9.647553e-08
	1.591125e-06	-1.284232e-06	0.01458149	0.007456463	3.727201e-07	9.647553e-08	0.03385596	-0.003526879
1.9e+08	0.0342451	-0.006411068	2.943611e-07	4.812338e-08	0.01549448	0.006222232	1.495074e-06	-1.534841e-06
	2.943611e-07	4.812338e-08	0.0337646	-0.005392205	2.741824e-07	2.06944e-06	0.01528772	0.00673867
	0.01549448	0.006222232	2.741824e-07	2.06944e-06	0.03440419	-0.00653694	3.512016e-07	6.47583e-08
	1.495074e-06	-1.534841e-06	0.01528772	0.00673867	3.512016e-07	6.47583e-08	0.03384039	-0.00530699
2e+08	0.03399976	-0.008300739	2.689417e-07	2.242262e-08	0.01607586	0.005368644	1.359859e-06	-1.780251e-06
	2.689417e-07	2.242262e-08	0.03354755	-0.007169815	2.692105e-07	2.169389e-06	0.01588573	0.005938439
	0.01607586	0.005368644	2.692105e-07	2.169389e-06	0.03414849	-0.008446863	3.214349e-07	3.460083e-08
	1.359859e-06	-1.780251e-06	0.01588573	0.005938439	3.214349e-07	3.460083e-08	0.03361993	-0.00708353
2.1e+08	0.03354063	-0.01016342	2.366129e-07	-8.860645e-10	0.01653371	0.004447936	1.185526e-06	-2.014636e-06
	2.366129e-07	-8.860645e-10	0.03312894	-0.008921746	2.623818e-07	2.270846e-06	0.01636597	0.005070163
	0.01653371	0.004447936	2.623818e-07	2.270846e-06	0.03367634	-0.01032878	2.834957e-07	7.245089e-09
	1.185526e-06	-2.014636e-06	0.01636597	0.005070163	2.834957e-07	7.245089e-09	0.03319752	-0.008833754
2.2e+08	0.03287291	-0.01197506	1.975918e-07	-2.075072e-08	0.01686038	0.003476436	9.729633e-07	-2.232129e-06
	1.975918e-07	-2.075072e-08	0.03251395	-0.01062577	2.538857e-07	2.374133e-06	0.01672077	0.004149327
	0.01686038	0.003476436	2.538857e-07	2.374133e-06	0.032993	-0.0121583	2.376377e-07	-1.606513e-08
	9.729633e-07	-2.232129e-06	0.01672077	0.004149327	2.376377e-07	-1.606513e-08	0.03257838	-0.01053541
2.3e+08	0.03200433	-0.01371235	1.522477e-07	-3.613917e-08	0.01705039	0.00247132	7.239041e-07	-2.426935e-06
	1.522477e-07	-3.613917e-08	0.03171	-0.01226038	2.439568e-07	2.479551e-06	0.01694448	0.00319226
	0.01705039	0.00247132	2.439568e-07	2.479551e-06	0.03210629	-0.01391172	1.842946e-07	-3.410926e-08
	7.239041e-07	-2.426935e-06	0.01694448	0.00319226	1.842946e-07	-3.410926e-08	0.03177002	-0.01216696
2.4e+08	0.03094505	-0.015353	1.011004e-07	-4.60603e-08	0.01710045	0.00145033	4.409241e-07	-2.593458e-06
	1.011004e-07	-4.60603e-08	0.03072672	-0.01380507	2.328729e-07	2.587375e-06	0.01703354	0.002215876
	0.01710045	0.00145033	2.328729e-07	2.587375e-06	0.03102657	-0.01556641	1.24078e-07	-4.571514e-08
	4.409241e-07	-2.593458e-06	0.01703354	0.002215876	1.24078e-07	-4.571514e-08	0.03078214	-0.01370787
2.5e+08	0.02970764	-0.01687603	4.481514e-08	-4.95853e-08	0.01700959	0.0004314949	1.274148e-07	-2.726412e-06
	4.481514e-08	-4.95853e-08	0.02957586	-0.01524054	2.20952e-07	2.697846e-06	0.01698657	0.001237403
	0.01700959	0.0004314949	2.20952e-07	2.697846e-06	0.02976664	-0.01710102	5.777134e-08	-4.978417e-08
	1.274148e-07	-2.726412e-06	0.01698657	0.001237403	5.777134e-08	-4.978417e-08	0.02962658	-0.01513882
2.6e+08	0.02830686	-0.01826199	-1.580416e-08	-4.586836e-08	0.01677909	-0.0005671638	-2.124563e-07	-2.820941e-06
	-1.580416e-08	-4.586836e-08	0.02827118	-0.01654895	2.085492e-07	2.811164e-06	0.01680436	0.0002741166
	0.01677909	-0.0005671638	2.085492e-07	2.811164e-06	0.02834154	-0.01849577	-1.367837e-08	-4.531565e-08
	-2.124563e-07	-2.820941e-06	0.01680436	0.0002741166	-1.367837e-08	-4.531565e-08	0.02831715	-0.01644194
2.7e+08	0.02675956	-0.01949324	-7.982591e-08	-3.416647e-08	0.01641256	-0.001527918	-5.738021e-07	-2.872724e-06
	-7.982591e-08	-3.416647e-08	0.02682822	-0.0177141	1.960513e-07	2.927488e-06	0.01648988	-0.0006569399
	0.01641256	-0.001527918	1.960513e-07	2.927488e-06	0.02676844	-0.01973273	-8.917336e-08	-3.14302e-08
	-5.738021e-07	-2.872724e-06	0.01648988	-0.0006569399	-8.917336e-08	-3.14302e-08	0.02686954	-0.01760104
2.8e+08	0.02508439	-0.02055414	-1.462037e-07	-1.3858e-08	0.01591579	-0.00243362	-9.510866e-07	-2.878082e-06
	-1.462037e-07	-1.3858e-08	0.02526422	-0.01872166	1.838719e-07	3.046923e-06	0.01604821	-0.001539222
	0.01591579	-0.00243362	1.838719e-07	3.046923e-06	0.02506645	-0.02079601	-1.674804e-07	-7.391588e-09
	-9.510866e-07	-2.878082e-06	0.01604821	-0.001539222	-1.674804e-07	-7.391588e-09	0.02530105	-0.0186018
2.9e+08	0.02330168	-0.02143131	-2.137922e-07	1.554036e-08	0.01529674	-0.00326798	-1.338209e-06	-2.834065e-06
	-2.137922e-07	1.554036e-08	0.02359782	-0.01955933	1.72445e-07	3.169521e-06	0.0154865	-0.00235695
	0.01529674	-0.00326798	1.72445e-07	3.169521e-06	0.02325629	-0.02167201	-2.472496e-07	2.73734e-08
	-1.338209e-06	-2.834065e-06	0.0154865	-0.00235695	-2.472496e-07	2.73734e-08	0.02363043	-0.01943192
3e+08	0.02143309	-0.02211372	-2.813651e-07	5.435872e-08	0.01456537	-0.00401583	-1.728603e-06	-2.738536e-06
	-2.813651e-07	5.435872e-08	0.02184887	-0.020217	1.622174e-07	3.295276e-06	0.01481381	-0.003095357
	0.01456537	-0.00401583	1.622174e-07	3.295276e-06	0.02136011	-0.02234959	-3.27036e-07	7.325742e-08
	-1.728603e-06	-2.738536e-06	0.01481381	-0.003095357	-3.27036e-07	7.325742e-08	0.02187763	-0.02008132
3.1e+08	0.01950138	-0.0225929	-3.476361e-07	1.027613e-07	0.01373351	-0.004663373	-2.115345e-06	-2.59024e-06
	-3.476361e-07	1.027613e-07	0.02003818	-0.02068683	1.536416e-07	3.42412e-06	0.01404102	-0.00374093
	0.01373351	-0.004663373	1.536416e-07	3.42412e-06	0.01940117	-0.02282021	-4.053233e-07	1.304578e-07
	-2.115345e-06	-2.59024e-06	0.01404102	-0.00374093	-4.053233e-07	1.304578e-07	0.02006358	-0.02054223
3.2e+08	0.01753013	-0.02286304	-4.112807e-07	1.607366e-07	0.01281467	-0.005198407	-2.49127e-06	-2.388856e-06
	-4.112807e-07	1.607366e-07	0.01818728	-0.02096341	1.471672e-07	3.555924e-06	0.01318063	-0.004281625
	0.01281467	-0.005198407	1.471672e-07	3.555924e-06	0.01740357	-0.02307806	-4.805508e-07	1.989653e-07
	-2.49127e-06	-2.388856e-06	0.01318063	-0.004281625	-4.805508e-07	1.989653e-07	0.01820987	-0.02080928
3.3e+08	0.0155434	-0.02292105	-4.709606e-07	2.280906e-07	0.01182379	-0.005610531	-2.849101e-06	-2.135035e-06
	-4.709606e-07	2.280906e-07	0.01631809	-0.02104377	1.432323e-07	3.690494e-06	0.01224657	-0.004707061
	0.01182379	-0.005610531	1.432323e-07	3.690494e-06	0.01539187	-0.02312011	-5.511409e-07	2.785556e-07
	-2.849101e-06	-2.135035e-06	0.01224657	-0.004707061	-5.511409e-07	2.785556e-07	0.01633852	-0.02087957
3.4e+08	0.01356546	-0.02276663	-5.253486e-07	3.044431e-07	0.01077708	-0.005891315	-3.181579e-06	-1.830422e-06
	-5.253486e-07	3.044431e-07	0.01445272	-0.02092743	1.422547e-07	3.827576e-06	0.01125398	-0.005008691
	0.01077708	-0.005891315	1.422547e-07	3.827576e-06	0.01339086	-0.02294621	-6.155294e-07	3.687857e-07
	-3.181579e-06	-1.830422e-06	0.01125398	-0.005008691	-6.155294e-07	3.687857e-07	0.01447172	-0.02075274
3.5e+08	0.01162043	-0.02240225	-5.731547e-07	3.892273e-07	0.009691694	-0.006034446	-3.481599e-06	-1.477657e-06
	-5.731547e-07	3.892273e-07	0.01261311	-0.02061642	1.446229e-07	3.966852e-06	0.01021899	-0.005179942
	0.009691694	-0.006034446	1.446229e-07	3.966852e-06	0.01142513	-0.02255906	-6.721952e-07	4.689934e-07
	-3.481599e-06	-1.477657e-06	0.01021899	-0.005179942	-6.721952e-07	4.689934e-07	0.01263147	-0.02043088
3.6e+08	0.009731977	-0.02183315	-6.131522e-07	4.81694e-07	0.008585466	-0.006035836	-3.742343e-06	-1.080363e-06
	-6.131522e-07	4.81694e-07	0.01082083	-0.02011521	1.506869e-07	4.107949e-06	0.009158414	-0.005216323
	0.008585466	-0.006035836	1.506869e-07	4.107949e-06	0.009518849	-0.02196418	-7.196911e-07	5.78302e-07
	-3.742343e-06	-1.080363e-06	0.009158414	-0.005216323	-7.196911e-07	5.78302e-07	0.01083937	-0.0199186
3.7e+08	0.007923009	-0.02106726	-6.442034e-07	5.809179e-07	0.007476653	-0.005893694	-3.957415e-06	-6.431106e-07
	-6.442034e-07	5.809179e-07	0.009096723	-0.0194307	1.607507e-07	4.250443e-06	0.008089541	-0.005115502
	0.007476653	-0.005893694	1.607507e-07	4.250443e-06	0.007695332	-0.02116985	-7.566743e-07	6.95628e-07
	-3.957415e-06	-6.431106e-07	0.008089541	-0.005115502	-7.566743e-07	6.95628e-07	0.00911633	-0.01922289
3.8e+08	0.006215361	-0.0201151	-6.652849e-07	6.858097e-07	0.006383613	-0.005608565	-4.120975e-06	-1.713663e-07
	-6.652849e-07	6.858097e-07	0.007460713	-0.01857207	1.750631e-07	4.393859e-06	0.007029823	-0.004877346
	0.006383613	-0.005608565	1.750631e-07	4.393859e-06	0.005976802	-0.02018699	-7.819354e-07	8.196947e-07
	-4.120975e-06	-1.713663e-07	0.007029823	-0.004877346	-7.819354e-07	8.196947e-07	0.007482267	-0.01835306
3.9e+08	0.004629498	-0.01898962	-6.755112e-07	7.951293e-07	0.005324517	-0.005183329	-4.227857e-06	3.28576e-07
	-6.755112e-07	7.951293e-07	0.005931502	-0.01755068	1.938117e-07	4.537687e-06	0.005996608	-0.004503931
	0.005324517	-0.005183329	1.938117e-07	4.537687e-06	0.004384056	-0.01902903	-7.944264e-07	9.490489e-07
	-4.227857e-06	3.28576e-07	0.005996608	-0.004503931	-7.944264e-07	9.490489e-07	0.005955889	-0.0173206
4e+08	0.003184246	-0.01770608	-6.741565e-07	9.075051e-07	0.004317053	-0.004623157	-4.273685e-06	8.496811e-07
	-6.741565e-07	9.075051e-07	0.004526349	-0.01637995	2.17116e-07	4.681383e-06	0.005006859	-0.003999512
	0.004317053	-0.004623157	2.17116e-07	4.681383e-06	0.00293619	-0.01771173	-7.932857e-07	1.082082e-06
	-4.273685e-06	8.496811e-07	0.005006859	-0.003999512	-7.932857e-07	1.082082e-06	0.004554437	-0.01613903
4.1e+08	0.001896526	-0.0162818	-6.606738e-07	1.021455e-06	0.003378136	-0.00393544	-4.254979e-06	1.384276e-06
	-6.606738e-07	1.021455e-06	0.003260839	-0.01507513	2.450228e-07	4.824381e-06	0.004076882	-0.003370454
	0.003378136	-0.00393544	2.450228e-07	4.824381e-06	0.001650332	-0.01625295	-7.77861e-07	1.217054e-06
	-4.254979e-06	1.384276e-06	0.004076882	-0.003370454	-7.77861e-07	1.217054e-06	0.003293465	-0.01482374
4.2e+08	0.0007811332	-0.01473592	-6.347116e-07	1.135408e-06	0.002523632	-0.003129675	-4.169243e-06	1.924162e-06
	-6.347116e-07	1.135408e-06	0.002148691	-0.01365311	2.775022e-07	4.966104e-06	0.003222062	-0.002625143
	0.002523632	-0.003129675	2.775022e-07	4.966104e-06	0.0005414071	-0.01467243	-7.477286e-07	1.352123e-06
	-4.169243e-06	1.924162e-06	0.003222062	-0.002625143	-7.477286e-07	1.352123e-06	0.002186638	-0.01339171
4.3e+08	-0.0001494727	-0.01308919	-5.961267e-07	1.247736e-06	0.001768094	-0.002217314	-4.015038e-06	2.460749e-06
	-5.961267e-07	1.247736e-06	0.001201577	-0.01213222	3.144456e-07	5.105975e-06	0.002456619	-0.001773845
	0.001768094	-0.002217314	3.144456e-07	5.105975e-06	-0.0003780621	-0.0129915	-7.027084e-07	1.485374e-06
	-4.015038e-06	2.460749e-06	0.002456619	-0.001773845	-7.027084e-07	1.485374e-06	0.001245568	-0.01186139
4.4e+08	-0.0008853305	-0.01136364	-5.449938e-07	1.356777e-06	0.001124531	-0.001211585	-3.792041e-06	2.985189e-06
	-5.449938e-07	1.356777e-06	0.000428982	-0.01053194	3.556652e-07	5.243424e-06	0.001793373	-0.0008285544
	0.001124531	-0.001211585	3.556652e-07	5.243424e-06	-0.001098138	-0.01123281	-6.42875e-07	1.614855e-06
	-3.792041e-06	2.985189e-06	0.001793373	-0.0008285544	-6.42875e-07	1.614855e-06	0.0004796557	-0.01025237
4.5e+08	-0.00141912	-0.009582306	-4.816101e-07	1.460866e-06	0.0006041797	-0.0001272869	-3.501085e-06	3.488525e-06
	-4.816101e-07	1.460866e-06	-0.0001619219	-0.008872686	4.008946e-07	5.377904e-06	0.001243541	0.0001972042
	0.0006041797	-0.0001272869	4.008946e-07	5.377904e-06	-0.001611597	-0.009419991	-5.685642e-07	1.738607e-06
	-3.501085e-06	3.488525e-06	0.001243541	0.0001972042	-5.685642e-07	1.738607e-06	-0.000104017	-0.00858512
4.6e+08	-0.001746256	-0.007768891	-4.064974e-07	1.558369e-06	0.0002163301	0.001019451	-3.144177e-06	3.961843e-06
	-4.064974e-07	1.558369e-06	-0.0005663579	-0.007175499	4.497918e-07	5.508901e-06	0.0008165526	0.001288583
	0.0002163301	0.001019451	4.497918e-07	5.508901e-06	-0.001914036	-0.00757736	-4.803745e-07	1.854705e-06
	-3.144177e-06	3.961843e-06	0.0008165526	0.001288583	-4.803745e-07	1.854705e-06	-0.0005007782	-0.006880774
4.7e+08	-0.001864955	-0.005947459	-3.203979e-07	1.647709e-06	-3.183765e-05	0.002211422	-2.724498e-06	4.396425e-06
	-3.203979e-07	1.647709e-06	-0.0007820008	-0.005461786	5.019437e-07	5.635941e-06	0.0005198972	0.002429652
	-3.183766e-05	0.002211422	5.019437e-07	5.635941e-06	-0.002003901	-0.00572953	-3.791622e-07	1.961288e-06
	-2.724498e-06	4.396425e-06	0.0005198972	0.002429652	-3.791622e-07	1.961288e-06	-0.0007083904	-0.005160768
4.8e+08	-0.001776253	-0.004142091	-2.242673e-07	1.727398e-06	-0.0001353723	0.00343062	-2.246379e-06	4.783908e-06
