!$
! Info: Touchstone file created by Circ.  Input file=Tx_6in_Rx_85ohms_TxVia_35mils_RxVia_45mils.circ
!$
# Hz S RI R 50
0	0.004939753	9.041349e-26	1.772858e-08	1.096014e-26	5.131483e-05	9.345482e-24	3.450518e-08	2.456647e-27
	1.77286e-08	1.095889e-26	0.004938653	1.045758e-25	3.443084e-08	3.948078e-26	5.173636e-05	1.110675e-23
	4.947887e-05	9.597075e-24	3.443084e-08	3.948111e-26	0.00495238	8.61964e-26	2.104297e-08	1.298071e-26
	3.450518e-08	2.45731e-27	4.988927e-05	1.11616e-23	2.104297e-08	1.298189e-26	0.00495184	9.796722e-26
1e+07	0.006599409	-0.005327083	2.649902e-08	5.051395e-08	0.0001729615	0.001230635	7.672667e-08	1.49964e-07
	2.649902e-08	5.051395e-08	0.006592689	-0.005326999	5.630559e-08	1.587045e-07	0.000170688	0.001231186
	0.0001729019	0.001230639	5.630558e-08	1.587045e-07	0.006595329	-0.005316091	3.126064e-08	6.039233e-08
	7.672667e-08	1.49964e-07	0.0001706281	0.001231196	3.126064e-08	6.039233e-08	0.006587756	-0.005315843
2e+07	0.007279584	-0.01231258	4.152581e-08	9.010618e-08	0.000436073	0.002402235	1.459986e-07	2.602494e-07
	4.152581e-08	9.010618e-08	0.007253137	-0.01231004	7.300581e-08	2.899783e-07	0.0004272306	0.002404382
	0.0004360611	0.002402272	7.30058e-08	2.899783e-07	0.007282343	-0.01228511	4.913049e-08	1.076198e-07
	1.459984e-07	2.602494e-07	0.0004272228	0.002404416	4.913049e-08	1.076198e-07	0.007252616	-0.01228188
3e+07	0.006484242	-0.01998555	5.861078e-08	1.256992e-07	0.0008400304	0.003518017	2.351176e-07	3.518704e-07
	5.861078e-08	1.256992e-07	0.006425809	-0.01997532	8.138643e-08	4.182135e-07	0.0008207011	0.003523562
	0.000840033	0.003518023	8.138643e-08	4.182135e-07	0.006493513	-0.01994734	6.938504e-08	1.500932e-07
	2.351176e-07	3.518704e-07	0.0008207012	0.003523567	6.938504e-08	1.500932e-07	0.006427957	-0.01993515
4e+07	0.004456115	-0.02768153	7.8549e-08	1.573288e-07	0.001378171	0.004562936	3.448241e-07	4.221984e-07
	7.8549e-08	1.573288e-07	0.00435439	-0.02765648	8.566593e-08	5.457306e-07	0.001344827	0.004574375
	0.001378166	0.004562931	8.566593e-08	5.457306e-07	0.00447184	-0.02763475	9.298473e-08	1.879109e-07
	3.448241e-07	4.221984e-07	0.001344822	0.004574373	9.298473e-08	1.879109e-07	0.004357878	-0.02760562
5e+07	0.001315302	-0.03515055	1.007979e-07	1.845757e-07	0.002039568	0.005520675	4.714081e-07	4.677313e-07
	1.007979e-07	1.845757e-07	0.001160301	-0.03510117	8.667656e-08	6.732838e-07	0.001989196	0.005541162
	0.002039564	0.005520674	8.667656e-08	6.732838e-07	0.001337316	-0.03509688	1.193316e-07	2.205526e-07
	4.714081e-07	4.677313e-07	0.001989193	0.005541161	1.193316e-07	2.205526e-07	0.001163829	-0.03504013
6e+07	-0.002841597	-0.04221715	1.246442e-07	2.07192e-07	0.002810797	0.006376393	6.103836e-07	4.859652e-07
	1.246442e-07	2.07192e-07	-0.003057853	-0.04213211	8.485583e-08	8.017036e-07	0.002741003	0.006409617
	0.002810801	0.006376393	8.485583e-08	8.017036e-07	-0.002813659	-0.04215801	1.475685e-07	2.477031e-07
	6.103836e-07	4.859652e-07	0.002741006	0.006409616	1.475685e-07	2.477031e-07	-0.003055519	-0.04206094
7e+07	-0.007919796	-0.04874013	1.493615e-07	2.250035e-07	0.003676566	0.007117177	7.570256e-07	4.750545e-07
	1.493615e-07	2.250035e-07	-0.008203177	-0.04860676	8.069403e-08	9.317068e-07	0.003585632	0.00716725
	0.003676578	0.007117174	8.069404e-08	9.317068e-07	-0.007886489	-0.04867674	1.768161e-07	2.691675e-07
	7.570256e-07	4.750545e-07	0.00358564	0.007167246	1.768161e-07	2.691675e-07	-0.008203201	-0.04852517
8e+07	-0.01381975	-0.05460098	1.741942e-07	2.378906e-07	0.004620059	0.007732359	9.063646e-07	4.337489e-07
	1.741942e-07	2.378907e-07	-0.01417398	-0.05440564	7.473054e-08	1.063844e-06	0.004506987	0.007803713
	0.004620073	0.007732352	7.473055e-08	1.063844e-06	-0.01378178	-0.05453438	2.06179e-07	2.848313e-07
	9.063646e-07	4.337489e-07	0.004506996	0.007803707	2.06179e-07	2.848313e-07	-0.01417745	-0.05431306
9e+07	-0.0204353	-0.05970014	1.98346e-07	2.458132e-07	0.005623347	0.008213901	1.053197e-06	3.61483e-07
	1.98346e-07	2.458132e-07	-0.02086188	-0.05942839	6.752375e-08	1.198523e-06	0.005487906	0.008311187
	0.005623357	0.008213893	6.752377e-08	1.198523e-06	-0.02039355	-0.05963119	2.347329e-07	2.946709e-07
	1.053197e-06	3.61483e-07	0.005487912	0.008311181	2.347329e-07	2.946709e-07	-0.02086976	-0.05932398
1e+08	-0.02765489	-0.06395722	2.209918e-07	2.488361e-07	0.006668728	0.008557972	1.192176e-06	2.584834e-07
	2.209918e-07	2.488361e-07	-0.0281529	-0.06359415	5.963614e-08	1.336035e-06	0.006511499	0.008685948
	0.006668728	0.008557972	5.963614e-08	1.336035e-06	-0.02761042	-0.06388677	2.615306e-07	2.987763e-07
	1.192176e-06	2.584834e-07	0.006511499	0.008685948	2.615306e-07	2.987763e-07	-0.02816612	-0.063477
1.1e+08	-0.03536499	-0.06730453	2.412575e-07	2.472955e-07	0.007741387	0.008753494	1.317771e-06	1.261644e-07
	2.412575e-07	2.472955e-07	-0.03592798	-0.06683471	5.181576e-08	1.476712e-06	0.007564036	0.00891664
	0.007741387	0.008753494	5.181576e-08	1.476712e-06	-0.03531732	-0.06723258	2.855163e-07	2.974779e-07
	1.317771e-06	1.261644e-07	0.007564036	0.008916641	2.855163e-07	2.974779e-07	-0.03594641	-0.06670288
1.2e+08	-0.04343236	-0.06968272	2.583708e-07	2.415789e-07	0.008812227	0.008801293	1.425174e-06	-3.342762e-08
	2.583708e-07	2.415789e-07	-0.04405504	-0.06909307	4.444065e-08	1.620785e-06	0.008616845	0.009004147
	0.008812227	0.008801293	4.444065e-08	1.620785e-06	-0.04338324	-0.06960992	3.057887e-07	2.912713e-07
	1.425174e-06	-3.342762e-08	0.008616845	0.009004147	3.057887e-07	2.912713e-07	-0.044079	-0.0689452
1.3e+08	-0.05173043	-0.07106312	2.716321e-07	2.321633e-07	0.009863207	0.008706142	1.50974e-06	-2.175822e-07
	2.716321e-07	2.321633e-07	-0.05240502	-0.07034051	3.822679e-08	1.768333e-06	0.009652715	0.008952966
	0.009863207	0.008706142	3.822679e-08	1.768333e-06	-0.05168154	-0.07098946	3.215302e-07	2.807247e-07
	1.50974e-06	-2.175822e-07	0.009652715	0.008952966	3.215302e-07	2.807247e-07	-0.05243461	-0.07017506
1.4e+08	-0.06013128	-0.0714313	2.804025e-07	2.196355e-07	0.01087609	0.008473511	1.567229e-06	-4.228869e-07
	2.804025e-07	2.196355e-07	-0.06084739	-0.07056332	3.389296e-08	1.919302e-06	0.01065419	0.008768159
	0.01087609	0.008473511	3.389296e-08	1.919302e-06	-0.06008397	-0.07135626	3.319977e-07	2.665321e-07
	1.567229e-06	-4.228869e-07	0.01065419	0.008768159	3.319977e-07	2.665321e-07	-0.06088228	-0.07037855
1.5e+08	-0.06850814	-0.07078839	2.841254e-07	2.04684e-07	0.01183358	0.008110948	1.593912e-06	-6.452816e-07
	2.841254e-07	2.04684e-07	-0.06925291	-0.06976399	3.214114e-08	2.073512e-06	0.01160466	0.008456736
	0.01183358	0.008110948	3.214114e-08	2.073512e-06	-0.06846341	-0.07071117	3.365454e-07	2.495036e-07
	1.593912e-06	-6.452816e-07	0.01160466	0.008456736	3.365454e-07	2.495036e-07	-0.06929232	-0.06955815
1.6e+08	-0.07673709	-0.06915073	2.82344e-07	1.880874e-07	0.01271967	0.007628021	1.586669e-06	-8.801363e-07
	2.82344e-07	1.880874e-07	-0.07749547	-0.06796074	3.363962e-08	2.230661e-06	0.01248875	0.008027616
	0.01271967	0.007628021	3.363962e-08	2.230661e-06	-0.07669557	-0.06907044	3.346456e-07	2.305522e-07
	1.586669e-06	-8.801363e-07	0.01248875	0.008027616	3.346456e-07	2.305522e-07	-0.07753821	-0.06773221
1.7e+08	-0.08469864	-0.06654924	2.747173e-07	1.706995e-07	0.01351992	0.007036121	1.543077e-06	-1.122346e-06
	2.747173e-07	1.706995e-07	-0.08545378	-0.06518678	3.900576e-08	2.390332e-06	0.01329254	0.007491446
	0.01351992	0.007036121	3.900576e-08	2.390332e-06	-0.0846607	-0.06646497	3.25906e-07	2.106758e-07
	1.543077e-06	-1.122346e-06	0.01329254	0.007491446	3.25906e-07	2.106758e-07	-0.08549826	-0.06493414
1.8e+08	-0.0922792	-0.06302856	2.610326e-07	1.534316e-07	0.01422166	0.006348221	1.461469e-06	-1.366436e-06
	2.610326e-07	1.534316e-07	-0.09301288	-0.06148932	4.878859e-08	2.551998e-06	0.01400375	0.006860368
	0.01422166	0.006348221	4.878859e-08	2.551998e-06	-0.09224502	-0.06293944	3.100833e-07	1.909372e-07
	1.461469e-06	-1.366436e-06	0.01400375	0.006860368	3.100833e-07	1.909372e-07	-0.0930572	-0.06121145
1.9e+08	-0.09937253	-0.05864608	2.412148e-07	1.372325e-07	0.01481411	0.005578605	1.340986e-06	-1.606674e-06
	2.412148e-07	1.372325e-07	-0.1000655	-0.05692858	6.345146e-08	2.715036e-06	0.01461188	0.006147775
	0.01481411	0.005578605	6.345146e-08	2.715036e-06	-0.09934212	-0.05855131	2.870934e-07	1.724405e-07
	1.340986e-06	-1.606674e-06	0.01461188	0.006147775	2.870934e-07	1.724405e-07	-0.1001076	-0.05662468
2e+08	-0.105881	-0.0534709	2.153321e-07	1.230675e-07	0.01528853	0.004742597	1.181604e-06	-1.837189e-06
	2.153321e-07	1.230675e-07	-0.1065136	-0.05157655	8.335582e-08	2.878737e-06	0.01510829	0.005368054
	0.01528853	0.004742597	8.335582e-08	2.878737e-06	-0.1058542	-0.05336975	2.570173e-07	1.563075e-07
	1.181604e-06	-1.837189e-06	0.01510829	0.005368054	2.570173e-07	1.563075e-07	-0.1065511	-0.05124619
2.1e+08	-0.1117165	-0.04758257	1.835982e-07	1.118966e-07	0.01563821	0.003856288	9.841535e-07	-2.052087e-06
	1.835982e-07	1.118966e-07	-0.1122691	-0.04551579	1.087468e-07	3.042327e-06	0.01548632	0.004536336
	0.01563821	0.003856288	1.087468e-07	3.042327e-06	-0.1116933	-0.04747436	2.201034e-07	1.43653e-07
	9.841535e-07	-2.052087e-06	0.01548632	0.004536336	2.201034e-07	1.43653e-07	-0.1122997	-0.0451589
2.2e+08	-0.116802	-0.04106981	1.463712e-07	1.046526e-07	0.01585858	0.002936272	7.503092e-07	-2.245571e-06
	1.463712e-07	1.046526e-07	-0.1172551	-0.03883801	1.397415e-07	3.204981e-06	0.01574121	0.00366825
	0.01585858	0.002936272	1.397415e-07	3.204981e-06	-0.116782	-0.04095392	1.767659e-07	1.355598e-07
	7.503092e-07	-2.245571e-06	0.01574121	0.00366825	1.767659e-07	1.355598e-07	-0.1172764	-0.0384549
2.3e+08	-0.1210716	-0.03402914	1.041491e-07	1.022201e-07	0.01594715	0.001999389	4.825782e-07	-2.412053e-06
	1.041491e-07	1.022201e-07	-0.1214067	-0.03164266	1.763203e-07	3.365847e-06	0.0158702	0.002779689
	0.01594715	0.001999389	1.763203e-07	3.365847e-06	-0.1210546	-0.033905	1.275791e-07	1.330552e-07
	4.825782e-07	-2.412053e-06	0.0158702	0.002779689	1.275791e-07	1.330552e-07	-0.1214163	-0.03123404
2.4e+08	-0.1244719	-0.0265635	5.756215e-08	1.054149e-07	0.01590351	0.00106249	1.842658e-07	-2.546268e-06
	5.756215e-08	1.054149e-07	-0.1246716	-0.02403547	2.183219e-07	3.524072e-06	0.01587244	0.001886591
	0.01590351	0.00106249	2.183219e-07	3.524072e-06	-0.1244574	-0.02643057	7.326907e-08	1.370885e-07
	1.842658e-07	-2.546268e-06	0.01587244	0.001886591	7.326907e-08	1.370885e-07	-0.1246672	-0.0236024
2.5e+08	-0.1269618	-0.01878072	7.362532e-09	1.149653e-07	0.01572926	0.0001421996	-1.405679e-07	-2.643377e-06
	7.362532e-09	1.149653e-07	-0.1270106	-0.01612695	2.654433e-07	3.67882e-06	0.01574897	0.00100473
	0.01572926	0.0001421996	2.654433e-07	3.67882e-06	-0.1269496	-0.01863849	1.470219e-08	1.48509e-07
	-1.405679e-07	-2.643377e-06	0.01574897	0.00100473	1.470219e-08	1.48509e-07	-0.12699	-0.01567084
2.6e+08	-0.1285138	-0.01079209	-4.558852e-08	1.31495e-07	0.01542797	-0.0007452858	-4.871651e-07	-2.699065e-06
	-4.558852e-08	1.31495e-07	-0.1283979	-0.0080308	3.172427e-07	3.829302e-06	0.01550264	0.0001495243
	0.01542797	-0.0007452858	3.172427e-07	3.829302e-06	-0.1285033	-0.01064011	-4.712952e-08	1.680475e-07
	-4.871651e-07	-2.699065e-06	0.01550264	0.0001495242	-4.712952e-08	1.680475e-07	-0.1283591	-0.007553413
2.7e+08	-0.1291131	-0.002710849	-1.003359e-07	1.555081e-07	0.01500506	-0.001584403	-8.501374e-07	-2.709634e-06
	-1.003359e-07	1.555081e-07	-0.1288214	0.0001375651	3.73148e-07	3.974796e-06	0.01513808	-0.0006641459
	0.01500506	-0.001584403	3.73148e-07	3.974796e-06	-0.1291038	-0.002548704	-1.11125e-07	1.962991e-07
	-8.501374e-07	-2.709634e-06	0.01513808	-0.0006641459	-1.11125e-07	1.962991e-07	-0.1287626	0.0006341762
2.8e+08	-0.1287586	0.005349305	-1.558477e-07	1.873761e-07	0.01446772	-0.002360406	-1.223544e-06	-2.672087e-06
	-1.558477e-07	1.873761e-07	-0.1282824	0.008262598	4.32469e-07	4.114669e-06	0.01466157	-0.001422105
	0.01446772	-0.002360406	4.32469e-07	4.114669e-06	-0.1287498	0.005521959	-1.76093e-07	2.337081e-07
	-1.223544e-06	-2.672087e-06	0.01466157	-0.001422105	-1.76093e-07	2.337081e-07	-0.1282022	0.008776098
2.9e+08	-0.1274622	0.01327568	-2.110333e-07	2.273276e-07	0.01382483	-0.003059537	-1.600977e-06	-2.584201e-06
	-2.110333e-07	2.273276e-07	-0.1267959	0.0162301	4.944135e-07	4.248399e-06	0.01408096	-0.002111043
	0.01382483	-0.003059537	4.944135e-07	4.248399e-06	-0.1274534	0.01345912	-2.407724e-07	2.805566e-07
	-1.600977e-06	-2.584201e-06	0.01408096	-0.002111043	-2.407724e-07	2.805566e-07	-0.126693	0.01675792
3e+08	-0.1252488	0.02095803	-2.647636e-07	2.754407e-07	0.01308679	-0.003669192	-1.975663e-06	-2.44459e-06
	-2.647636e-07	2.754407e-07	-0.1243899	0.02392874	5.581059e-07	4.375587e-06	0.0134056	-0.002718663
	0.01308679	-0.003669192	5.581059e-07	4.375587e-06	-0.1252392	0.02115247	-3.038539e-07	3.369544e-07
	-1.975663e-06	-2.44459e-06	0.0134056	-0.002718663	-3.038539e-07	3.369544e-07	-0.1242636	0.0244681
3.1e+08	-0.1221559	0.02829002	-3.158912e-07	3.316378e-07	0.01226542	-0.004178077	-2.34056e-06	-2.252766e-06
	-3.158912e-07	3.316378e-07	-0.1211054	0.03125147	6.2261e-07	4.495973e-06	0.01264618	-0.003233832
	0.01226542	-0.004178077	6.2261e-07	4.495973e-06	-0.1221447	0.02849556	-3.640035e-07	4.028329e-07
	-2.34056e-06	-2.252766e-06	0.01264618	-0.003233832	-3.640035e-07	4.028329e-07	-0.1209551	0.03179943
3.2e+08	-0.1182329	0.0351705	-3.632711e-07	3.956831e-07	0.01137384	-0.004576346	-2.688476e-06	-2.009175e-06
	-3.632711e-07	3.956831e-07	-0.1169953	0.03809693	6.869518e-07	4.609443e-06	0.01181467	-0.003646711
	0.01137384	-0.004576346	6.869518e-07	4.609443e-06	-0.1182195	0.03538715	-4.198853e-07	4.779413e-07
	-2.688476e-06	-2.009175e-06	0.01181467	-0.003646711	-4.198853e-07	4.779413e-07	-0.116821	0.03865045
3.3e+08	-0.1135409	0.04150488	-4.057827e-07	4.671817e-07	0.01042629	-0.004855746	-3.012182e-06	-1.71523e-06
	-4.057827e-07	4.671817e-07	-0.1121241	0.04437077	7.501444e-07	4.716033e-06	0.01092412	-0.00394889
	0.01042629	-0.004855746	7.501444e-07	4.716033e-06	-0.1135244	0.04173256	-4.701859e-07	5.618454e-07
	-3.012182e-06	-1.71523e-06	0.01092412	-0.00394889	-4.701859e-07	5.618454e-07	-0.1119261	0.04492677
3.4e+08	-0.1081512	0.04720635	-4.423503e-07	5.455841e-07	0.009437952	-0.005009739	-3.304542e-06	-1.373332e-06
	-4.423503e-07	5.455841e-07	-0.1065669	0.04998689	8.112127e-07	4.815926e-06	0.009988591	-0.004133516
	0.009437952	-0.005009739	8.112127e-07	4.815926e-06	-0.1081309	0.04744489	-5.13638e-07	6.539313e-07
	-3.304542e-06	-1.373332e-06	0.009988591	-0.004133516	-5.13638e-07	6.539313e-07	-0.1063459	0.05054232
3.5e+08	-0.1021451	0.05219703	-4.719637e-07	6.301915e-07	0.008424811	-0.00503362	-3.558638e-06	-9.86866e-07
	-4.719637e-07	6.301915e-07	-0.1004082	0.05486865	8.692171e-07	4.909452e-06	0.009022927	-0.00419541
	0.008424811	-0.00503362	8.692171e-07	4.909452e-06	-0.1021201	0.05244614	-5.490452e-07	7.534069e-07
	-3.558638e-06	-9.86866e-07	0.009022927	-0.00419541	-5.490452e-07	7.534069e-07	-0.1001656	0.05542051
3.6e+08	-0.09561229	0.05640906	-4.936982e-07	7.201636e-07	0.007403425	-0.004924625	-3.767903e-06	-5.601935e-07
	-4.936982e-07	7.201636e-07	-0.09374146	0.0589499	9.232752e-07	4.997074e-06	0.008042627	-0.004131173
	0.007403425	-0.004924625	9.232752e-07	4.997074e-06	-0.09558193	0.05666834	-5.753048e-07	8.593133e-07
	-3.767903e-06	-5.601935e-07	0.008042627	-0.004131173	-5.753048e-07	8.593133e-07	-0.09347881	0.05949531
3.7e+08	-0.08865008	0.05978553	-5.067332e-07	8.145294e-07	0.006390723	-0.004682017	-3.926258e-06	-9.861865e-08
	-5.067332e-07	8.145294e-07	-0.08666697	0.06217591	9.725827e-07	5.079379e-06	0.007063632	-0.003939286
	0.006390723	-0.004682017	9.725827e-07	5.079379e-06	-0.08861365	0.06005447	-5.914305e-07	9.705346e-07
	-3.926258e-06	-9.861865e-08	0.007063632	-0.003939286	-5.914305e-07	9.705346e-07	-0.08638631	0.06271218
3.8e+08	-0.08136191	0.06228135	-5.103699e-07	9.121998e-07	0.005403769	-0.004307155	-4.028241e-06	3.916586e-07
	-5.103699e-07	9.121998e-07	-0.07929116	0.06450425	1.016429e-06	5.15706e-06	0.006102117	-0.003620185
	0.005403769	-0.004307155	1.016429e-06	5.15706e-06	-0.08131876	0.06255934	-5.965734e-07	1.085812e-06
	-4.028241e-06	3.916586e-07	0.006102117	-0.003620185	-5.965734e-07	1.085812e-06	-0.07899493	0.06502893
3.9e+08	-0.07385604	0.06386394	-5.040473e-07	1.011983e-06	0.00445951	-0.003803541	-4.06914e-06	9.036095e-07
	-5.040473e-07	1.011983e-06	-0.07172491	0.06590541	1.054211e-06	5.230901e-06	0.005174255	-0.003176323
	0.00445951	-0.003803541	1.054211e-06	5.230901e-06	-0.07380558	0.06415027	-5.900423e-07	1.203758e-06
	-4.06914e-06	9.036095e-07	0.005174255	-0.003176323	-5.900423e-07	1.203758e-06	-0.0714159	0.06641634
4e+08	-0.06624405	0.06451377	-4.87356e-07	1.1126e-06	0.003574515	-0.003176839	-4.045119e-06	1.429463e-06
	-4.87356e-07	1.1126e-06	-0.06408204	0.06636332	1.085443e-06	5.301754e-06	0.004295975	-0.002612202
	0.003574515	-0.003176839	1.085443e-06	5.301754e-06	-0.06618581	0.06480765	-5.713213e-07	1.322881e-06
	-4.045119e-06	1.429463e-06	0.004295975	-0.002612202	-5.713213e-07	1.322881e-06	-0.0637634	0.06685871
4.1e+08	-0.05863933	0.06422477	-4.60051e-07	1.212707e-06	0.002764692	-0.002434857	-3.953332e-06	1.960813e-06
	-4.60051e-07	1.212707e-06	-0.05647775	0.06587573	1.109759e-06	5.370522e-06	0.003482698	-0.001934371
	0.002764692	-0.002434857	1.109759e-06	5.370522e-06	-0.05857291	0.06452532	-5.400866e-07	1.4416e-06
	-3.953332e-06	1.960813e-06	0.003482698	-0.001934371	-5.400866e-07	1.4416e-06	-0.05615287	0.06635417
4.2e+08	-0.05115547	0.06300453	-4.220614e-07	1.310912e-06	0.002045009	-0.001587495	-3.792032e-06	2.48874e-06
	-4.220614e-07	1.310912e-06	-0.04902691	0.06445432	1.126922e-06	5.43814e-06	0.002749062	-0.001151398
	0.002045009	-0.001587495	1.126922e-06	5.43814e-06	-0.0510806	0.06331081	-4.96219e-07	1.558274e-06
	-3.792032e-06	2.48874e-06	0.002749062	-0.001151398	-4.96219e-07	1.558274e-06	-0.04869945	0.06491484
4.3e+08	-0.04390458	0.0608743	-3.734982e-07	1.4058e-06	0.001429194	-0.0006466538	-3.560657e-06	3.003957e-06
	-3.734982e-07	1.4058e-06	-0.04184241	0.06212466	1.136813e-06	5.505555e-06	0.002108646	-0.000273794
	0.001429194	-0.0006466538	1.136813e-06	5.505555e-06	-0.0438211	0.06118532	-4.398155e-07	1.671224e-06
	-3.560657e-06	3.003957e-06	0.002108646	-0.000273794	-4.398155e-07	1.671224e-06	-0.04151619	0.06256678
4.4e+08	-0.03699566	0.05786885	-3.146594e-07	1.495951e-06	0.0009294611	0.0003739039	-3.259902e-06	3.496966e-06
	-3.146594e-07	1.495951e-06	-0.03503345	0.05892598	1.139435e-06	5.573709e-06	0.001573691	0.0006860988
	0.0009294611	0.0003739039	1.139435e-06	5.573709e-06	-0.03690356	0.05818358	-3.711962e-07	1.778764e-06
	-3.259902e-06	3.496966e-06	0.001573692	0.0006860987	-3.711962e-07	1.778764e-06	-0.0347124	0.05934973
4.5e+08	-0.03053296	0.05403602	-2.460323e-07	1.579972e-06	0.0005562277	0.001458738	-2.891771e-06	3.958234e-06
	-2.460323e-07	1.579972e-06	-0.02870385	0.05491069	1.134898e-06	5.64353e-06	0.001154836	0.00171427
	0.0005562277	0.001458738	1.134898e-06	5.64353e-06	-0.03043236	0.05435342	-2.909092e-07	1.87923e-06
	-2.891771e-06	3.958234e-06	0.001154836	0.00171427	-2.909092e-07	1.87923e-06	-0.02839196	0.05531659
4.6e+08	-0.02461434	0.04943617	-1.682932e-07	1.656514e-06	0.000317866	0.002590958	-2.459601e-06	4.378378e-06
	-1.682932e-07	1.656514e-06	-0.02295045	0.05014366	1.123421e-06	5.715913e-06	0.0008608586	0.002795241
	0.000317866	0.002590958	1.123421e-06	5.715913e-06	-0.0245055	0.04975519	-1.997304e-07	1.971005e-06
	-2.459601e-06	4.378378e-06	0.0008608586	0.002795241	-1.997304e-07	1.971005e-06	-0.02265168	0.05053281
4.7e+08	-0.01932973	0.04414135	-8.230361e-08	1.7243e-06	0.0002204752	0.003752497	-1.96806e-06	4.748351e-06
	-8.230361e-08	1.7243e-06	-0.01786155	0.04470138	1.105314e-06	5.791716e-06	0.000698458	0.003912319
	0.0002204752	0.003752497	1.105314e-06	5.791716e-06	-0.01921307	0.04446097	-9.866079e-08	2.05256e-06
	-1.96806e-06	4.748351e-06	0.000698458	0.003912319	-9.866079e-08	2.05256e-06	-0.01757977	0.0450754
4.8e+08	-0.01475972	0.03823427	1.089604e-08	1.782151e-06	0.0002676948	0.004924423	-1.423115e-06	5.059646e-06
	1.089604e-08	1.782151e-06	-0.01351545	0.03867084	1.080973e-06	5.871753e-06	0.000672057	0.005047878
