!$
! Info: Touchstone file created by Circ.  Input file=Tx_6in_Rx_100ohms_TxVia_35mils_RxVia_45mils.circ
!$
# Hz S RI R 50
0	0.006334042	8.933396e-26	7.675028e-10	5.734505e-28	5.22132e-05	1.182469e-23	2.554802e-09	2.39911e-28
	7.675036e-10	5.733342e-28	0.00633185	1.042205e-25	4.053079e-10	8.324691e-28	5.157393e-05	1.42759e-23
	5.272274e-05	1.199002e-23	4.053076e-10	8.325065e-28	0.006346345	8.681208e-26	7.877365e-10	5.527427e-28
	2.554803e-09	2.398998e-28	4.972657e-05	1.434631e-23	7.877369e-10	5.527052e-28	0.006345015	9.763635e-26
1e+07	0.008564168	0.004550007	1.08581e-09	1.357432e-09	0.0001497791	0.001213526	4.510362e-09	6.553876e-09
	1.08581e-09	1.357432e-09	0.009182829	0.004419782	6.188446e-10	8.334899e-10	0.000362031	0.001251806
	0.0001498089	0.001213521	6.188446e-10	8.334899e-10	0.00892414	0.004399051	1.133008e-09	1.410259e-09
	4.510362e-09	6.553876e-09	0.0003619708	0.001251816	1.133008e-09	1.410259e-09	0.009104428	0.004434448
2e+07	0.01139847	0.007155698	1.737766e-09	2.266687e-09	0.000377018	0.002427853	7.711662e-09	1.085826e-08
	1.737767e-09	2.266687e-09	0.01173883	0.006723525	8.834139e-10	1.424748e-09	0.000502757	0.002579947
	0.0003770193	0.002427831	8.834139e-10	1.424748e-09	0.01153022	0.00678971	1.813865e-09	2.338266e-09
	7.711662e-09	1.085826e-08	0.0005027484	0.002579981	1.813865e-09	2.338266e-09	0.01168581	0.006784405
3e+07	0.01385512	0.008570505	2.510064e-09	3.008088e-09	0.00075039	0.00357881	1.157261e-08	1.436335e-08
	2.510064e-09	3.008088e-09	0.01396702	0.008065057	1.14422e-09	1.965338e-09	0.0008084965	0.003771582
	0.0007503838	0.003578808	1.14422e-09	1.965338e-09	0.01381159	0.008160355	2.621701e-09	3.086208e-09
	1.157261e-08	1.436335e-08	0.0008084963	0.003771587	2.621701e-09	3.086208e-09	0.01393589	0.008147266
4e+07	0.01614647	0.009433223	3.424063e-09	3.554688e-09	0.001261099	0.004663598	1.619932e-08	1.695571e-08
	3.424063e-09	3.554688e-09	0.01605611	0.008926247	1.422331e-09	2.439017e-09	0.001276673	0.004878672
	0.0012611	0.004663602	1.422331e-09	2.439017e-09	0.01595973	0.009032612	3.587489e-09	3.638464e-09
	1.619932e-08	1.695571e-08	0.001276667	0.00487867	3.587489e-09	3.638464e-09	0.01604529	0.009022222
5e+07	0.01832944	0.009888471	4.451556e-09	3.889831e-09	0.001898448	0.005668003	2.145342e-08	1.852124e-08
	4.451556e-09	3.889831e-09	0.01805691	0.009425817	1.716219e-09	2.853467e-09	0.001976746	0.005864594
	0.00189845	0.005668005	1.716219e-09	2.853467e-09	0.01802549	0.009529655	4.679998e-09	3.969833e-09
	2.145342e-08	1.852124e-08	0.001976742	0.005864593	4.679998e-09	3.969833e-09	0.01806505	0.00953066
6e+07	0.02041871	0.01000378	5.558798e-09	4.003357e-09	0.002650307	0.006578113	2.716227e-08	1.898231e-08
	5.558798e-09	4.003357e-09	0.01998329	0.00962159	2.017762e-09	3.209601e-09	0.002775395	0.006745814
	0.002650305	0.006578112	2.017762e-09	3.209601e-09	0.02002122	0.009709425	5.862371e-09	4.065855e-09
	2.716227e-08	1.898231e-08	0.002775398	0.006745813	5.862371e-09	4.065855e-09	0.02000898	0.009731478
7e+07	0.02241205	0.009819613	6.71028e-09	3.886501e-09	0.00351212	0.007377024	3.31504e-08	1.82812e-08
	6.71028e-09	3.886501e-09	0.02183392	0.009548506	2.318545e-09	3.508227e-09	0.003660252	0.007513026
	0.003512114	0.007377023	2.318545e-09	3.508227e-09	0.02194394	0.0096069	7.096553e-09	3.915267e-09
	3.31504e-08	1.82812e-08	0.00366026	0.007513023	7.096553e-09	3.915267e-09	0.02187557	0.009660193
8e+07	0.02429937	0.009364959	7.868949e-09	3.532996e-09	0.004461117	0.008056204	3.923526e-08	1.637554e-08
	7.868949e-09	3.532996e-09	0.0236007	0.009232414	2.60968e-09	3.750161e-09	0.0046171	0.008157345
	0.004461109	0.008056205	2.60968e-09	3.750161e-09	0.02378388	0.009247856	8.343054e-09	3.509796e-09
	3.923526e-08	1.637554e-08	0.00461711	0.008157339	8.343054e-09	3.509796e-09	0.02365639	0.009343038
9e+07	0.02606634	0.008663051	9.000951e-09	2.942272e-09	0.005479405	0.008607971	4.52243e-08	1.32428e-08
	9.000951e-09	2.942272e-09	0.02527328	0.008696186	2.88435e-09	3.939079e-09	0.005629924	0.008670649
	0.005479399	0.008607973	2.88435e-09	3.939079e-09	0.02552884	0.008654885	9.565215e-09	2.84666e-09
	4.52243e-08	1.32428e-08	0.005629931	0.008670644	9.565215e-09	2.84666e-09	0.02534069	0.008803108
1e+08	0.02769305	0.007730157	1.007246e-08	2.115377e-09	0.00655269	0.009028195	5.091782e-08	8.885933e-09
	1.007246e-08	2.115377e-09	0.02684792	0.007970276	3.13183e-09	4.080929e-09	0.006678349	0.009042428
	0.00655269	0.009028194	3.13183e-09	4.080929e-09	0.02717232	0.007857174	1.072692e-08	1.92202e-09
	5.091782e-08	8.885933e-09	0.006678349	0.009042428	1.072692e-08	1.92202e-09	0.02692353	0.008070116
1.1e+08	0.02915121	0.006609327	1.107173e-08	1.085241e-09	0.007670003	0.009296263	5.61302e-08	3.361049e-09
	1.107173e-08	1.085241e-09	0.02834249	0.007006015	3.363757e-09	4.183698e-09	0.007732492	0.009294617
	0.007670003	0.009296263	3.363757e-09	4.183698e-09	0.02872578	0.006811643	1.179688e-08	7.721933e-10
	5.61302e-08	3.361049e-09	0.007732492	0.009294617	1.179688e-08	7.721933e-10	0.02842103	0.007101943
1.2e+08	0.03045659	0.005325258	1.193287e-08	-1.663801e-10	0.008795811	0.009413766	6.064884e-08	-3.290338e-09
	1.193287e-08	-1.663801e-10	0.02966935	0.005847881	3.579598e-09	4.217628e-09	0.008804751	0.009419185
	0.008795811	0.009413766	3.579598e-09	4.217628e-09	0.03010758	0.005563483	1.27107e-08	-5.944382e-10
	6.064884e-08	-3.290338e-09	0.008804751	0.009419185	1.27107e-08	-5.944382e-10	0.02975072	0.005941098
1.3e+08	0.03159302	0.003890964	1.261809e-08	-1.60604e-09	0.009914014	0.009384609	6.428856e-08	-1.094589e-08
	1.261809e-08	-1.60604e-09	0.03082575	0.004531205	3.750141e-09	4.210414e-09	0.009874325	0.00940956
	0.009914014	0.009384609	3.750141e-09	4.210414e-09	0.0313125	0.004146965	1.343731e-08	-2.162042e-09
	6.428856e-08	-1.094589e-08	0.009874325	0.00940956	1.343731e-08	-2.162042e-09	0.03090898	0.004621966
1.4e+08	0.03254839	0.002325706	1.30966e-08	-3.210602e-09	0.01100679	0.009211976	6.688101e-08	-1.948581e-08
	1.30966e-08	-3.210602e-09	0.03180313	0.003080182	3.869173e-09	4.167848e-09	0.01092327	0.00926619
	0.01100679	0.009211976	3.869173e-09	4.167848e-09	0.03233013	0.002586752	1.394387e-08	-3.905894e-09
	6.688101e-08	-1.948581e-08	0.01092327	0.00926619	1.394387e-08	-3.905894e-09	0.03188716	0.00316879
1.5e+08	0.03331221	0.0006503834	1.334026e-08	-4.951892e-09	0.0120565	0.008900871	6.82733e-08	-2.876386e-08
	1.334026e-08	-4.951892e-09	0.03259322	0.001517663	3.930889e-09	4.097008e-09	0.01193438	0.008992428
	0.0120565	0.008900871	3.930889e-09	4.097008e-09	0.03315053	0.0009066575	1.420027e-08	-5.795819e-09
	6.82733e-08	-2.876386e-08	0.01193438	0.008992428	1.420027e-08	-5.795819e-09	0.0326771	0.001604532
1.6e+08	0.03387576	-0.001112981	1.332448e-08	-6.79717e-09	0.01304618	0.00845832	6.833241e-08	-3.860988e-08
	1.332448e-08	-6.79717e-09	0.03318895	-0.0001336963	3.930299e-09	4.006009e-09	0.01289123	0.008593997
	0.01304618	0.00845832	3.930299e-09	4.006009e-09	0.03376514	-0.0008693761	1.418028e-08	-7.796858e-09
	6.833241e-08	-3.860988e-08	0.01289123	0.008593997	1.418028e-08	-7.796858e-09	0.03327181	-4.807943e-05
1.7e+08	0.0342323	-0.002941497	1.302908e-08	-8.709741e-09	0.0139598	0.007893354	6.694901e-08	-4.88327e-08
	1.302908e-08	-8.709741e-09	0.03358483	-0.001851118	3.863459e-09	3.903833e-09	0.01377836	0.008078747
	0.0139598	0.007893354	3.863459e-09	3.903833e-09	0.03416718	-0.002717002	1.386242e-08	-9.86989e-09
	6.694901e-08	-4.88327e-08	0.01377836	0.008078747	1.386242e-08	-9.86989e-09	0.03366594	-0.001766214
1.8e+08	0.03437722	-0.00481161	1.243894e-08	-1.064961e-08	0.01478261	0.007216893	6.404075e-08	-5.92236e-08
	1.243894e-08	-1.064961e-08	0.03377724	-0.003611642	3.727641e-09	3.800159e-09	0.01458149	0.007456463
	0.01478261	0.007216893	3.727641e-09	3.800159e-09	0.03435201	-0.004611471	1.323055e-08	-1.197231e-08
	6.404075e-08	-5.92236e-08	0.01458149	0.007456463	1.323055e-08	-1.197231e-08	0.03385596	-0.003526879
1.9e+08	0.03430829	-0.00669936	1.154374e-08	-1.257488e-08	0.01550131	0.0064416	5.955484e-08	-6.956014e-08
	1.154374e-08	-1.257488e-08	0.0337646	-0.005392205	3.52124e-09	3.704676e-09	0.01528772	0.00673867
	0.01550131	0.0064416	3.52124e-09	3.704676e-09	0.03431729	-0.006527766	1.227375e-08	-1.405946e-08
	5.955484e-08	-6.956014e-08	0.01528772	0.00673867	1.227375e-08	-1.405946e-08	0.03384039	-0.00530699
2e+08	0.0340257	-0.008580638	1.033985e-08	-1.444076e-08	0.01610429	0.005581683	5.347018e-08	-7.961043e-08
	1.033985e-08	-1.444076e-08	0.03354755	-0.007169815	3.244231e-09	3.628136e-09	0.01588573	0.005938439
	0.01610429	0.005581683	3.244231e-09	3.628136e-09	0.03406317	-0.00844081	1.098811e-08	-1.608369e-08
	5.347018e-08	-7.961043e-08	0.01588573	0.005938439	1.098811e-08	-1.608369e-08	0.03361993	-0.00708353
2.1e+08	0.03353216	-0.01043147	8.830384e-09	-1.620126e-08	0.01658184	0.004652681	4.579872e-08	-8.913757e-08
	8.830384e-09	-1.620126e-08	0.03312894	-0.008921746	2.898297e-09	3.581609e-09	0.01636597	0.005070163
	0.01658184	0.004652681	2.898297e-09	3.581609e-09	0.03359233	-0.01032571	9.376925e-09	-1.799612e-08
	4.579872e-08	-8.913757e-08	0.01636597	0.005070163	9.376925e-09	-1.799612e-08	0.03319752	-0.008833754
2.2e+08	0.03283292	-0.0122283	7.024445e-09	-1.781086e-08	0.01692626	0.003671224	3.658629e-08	-9.790425e-08
	7.024445e-09	-1.781086e-08	0.03251395	-0.01062577	2.486518e-09	3.575663e-09	0.01672077	0.004149327
	0.01692626	0.003671224	2.486518e-09	3.575663e-09	0.03291008	-0.01215803	7.449818e-09	-1.974832e-08
	3.658629e-08	-9.790425e-08	0.01672077	0.004149327	7.449818e-09	-1.974832e-08	0.03257838	-0.01053541
2.3e+08	0.03193573	-0.01394825	4.937593e-09	-1.922479e-08	0.01713201	0.00265477	2.591273e-08	-1.056775e-07
	4.937593e-09	-1.922479e-08	0.03171	-0.01226038	2.013501e-09	3.620554e-09	0.01694448	0.00319226
	0.01713201	0.00265477	2.013501e-09	3.620554e-09	0.03202431	-0.01391406	5.223304e-09	-2.129265e-08
	2.591273e-08	-1.056775e-07	0.01694448	0.00319226	5.223304e-09	-2.129265e-08	0.03177002	-0.01216696
2.4e+08	0.03085082	-0.01556946	2.591819e-09	-2.03999e-08	0.0171958	0.001621333	1.389143e-08	-1.122332e-07
	2.591819e-09	-2.03999e-08	0.03072672	-0.01380507	1.485347e-09	3.726017e-09	0.01703354	0.002215876
	0.0171958	0.001621333	1.485347e-09	3.726017e-09	0.03094542	-0.01557114	2.720724e-09	-2.25832e-08
	1.389143e-08	-1.122332e-07	0.01703354	0.002215876	2.720724e-09	-2.25832e-08	0.03078214	-0.01370787
2.5e+08	0.02959071	-0.01707132	1.537498e-11	-2.129558e-08	0.01711662	0.0005892018	6.682611e-10	-1.173613e-07
	1.537498e-11	-2.129558e-08	0.02957586	-0.01524054	9.095984e-10	3.901052e-09	0.01698657	0.001237403
	0.01711662	0.0005892018	9.095984e-10	3.901052e-09	0.02968624	-0.01710792	-2.793091e-11	-2.357677e-08
	6.682611e-10	-1.173613e-07	0.01698657	0.001237403	-2.793091e-11	-2.357677e-08	0.02962658	-0.01513882
2.6e+08	0.02817018	-0.01843474	-2.757512e-09	-2.187462e-08	0.0168958	-0.0004233531	-1.358018e-08	-1.208694e-07
	-2.757512e-09	-2.187462e-08	0.02827118	-0.01654895	2.95149e-10	4.153717e-09	0.01680436	0.0002741166
	0.0168958	-0.0004233531	2.95149e-10	4.153717e-09	0.02826189	-0.01850462	-2.986316e-09	-2.423372e-08
	-1.358018e-08	-1.208694e-07	0.01680436	0.0002741166	-2.986316e-09	-2.423372e-08	0.02831715	-0.01644194
2.7e+08	0.02660601	-0.01964242	-5.687033e-09	-2.210404e-08	0.01653695	-0.001398367	-2.864886e-08	-1.225879e-07
	-5.687033e-09	-2.210404e-08	0.02682822	-0.0177141	-3.478701e-10	4.490936e-09	0.01648988	-0.0006569399
	0.01653695	-0.001398367	-3.478701e-10	4.490936e-09	0.02668959	-0.01974331	-6.112151e-09	-2.451892e-08
	-2.864886e-08	-1.225879e-07	0.01648988	-0.0006569399	-6.112151e-09	-2.451892e-08	0.02686954	-0.01760104
2.8e+08	0.02491684	-0.02067903	-8.728315e-09	-2.195588e-08	0.01604593	-0.002318467	-4.430713e-08	-1.223736e-07
	-8.728315e-09	-2.195588e-08	0.02526422	-0.01872166	-1.008233e-09	4.918309e-09	0.01604821	-0.001539222
	0.01604593	-0.002318467	-1.008233e-09	4.918309e-09	0.02498847	-0.02080813	-9.357767e-09	-2.440258e-08
	-4.430713e-08	-1.223736e-07	0.01604821	-0.001539222	-9.357767e-09	-2.440258e-08	0.02530105	-0.0186018
2.9e+08	0.02312288	-0.02153149	-1.183204e-08	-2.140796e-08	0.01543077	-0.003167154	-6.030224e-08	-1.201133e-07
	-1.183204e-08	-2.140796e-08	0.02359782	-0.01955933	-1.67379e-09	5.439954e-09	0.0154865	-0.00235695
	0.01543077	-0.003167154	-1.67379e-09	5.439954e-09	0.02317932	-0.02168549	-1.267076e-08	-2.386103e-08
	-6.030224e-08	-1.201133e-07	0.0154865	-0.00235695	-1.267076e-08	-2.386103e-08	0.02363043	-0.01943192
3e+08	0.02124572	-0.02218904	-1.494516e-08	-2.044459e-08	0.01470152	-0.003929062	-7.636315e-08	-1.157272e-07
	-1.494516e-08	-2.044459e-08	0.02184887	-0.020217	-2.331657e-09	6.058357e-09	0.01481381	-0.003095357
	0.01470152	-0.003929062	-2.331657e-09	6.058357e-09	0.02128431	-0.02236428	-1.599475e-08	-2.287747e-08
	-7.636315e-08	-1.157272e-07	0.01481381	-0.003095357	-1.599475e-08	-2.287747e-08	0.02187763	-0.02008132
3.1e+08	0.01930802	-0.02264347	-1.801176e-08	-1.905706e-08	0.01387011	-0.004590215	-9.220493e-08	-1.091713e-07
	-1.801176e-08	-1.905706e-08	0.02003818	-0.02068683	-2.968438e-09	6.774252e-09	0.01404102	-0.00374093
	0.01387011	-0.004590215	-2.968438e-09	6.774252e-09	0.01932674	-0.02283599	-1.927029e-08	-2.144255e-08
	-9.220493e-08	-1.091713e-07	0.01404102	-0.00374093	-1.927029e-08	-2.144255e-08	0.02006358	-0.02054223
3.2e+08	0.01733323	-0.02288921	-2.097396e-08	-1.724421e-08	0.01295016	-0.005138247	-1.075335e-07	-1.004402e-07
	-2.097396e-08	-1.724421e-08	0.01818728	-0.02096341	-3.570458e-09	7.586529e-09	0.01318063	-0.004281625
	0.01295016	-0.005138247	-3.570458e-09	7.586529e-09	0.01733074	-0.02309484	-2.243582e-08	-1.955493e-08
	-1.075335e-07	-1.004402e-07	0.01318063	-0.004281625	-2.243582e-08	-1.955493e-08	0.01820987	-0.02080928
3.3e+08	0.01534528	-0.02292339	-2.377292e-08	-1.501278e-08	0.01195676	-0.00556261	-1.220508e-07	-8.956775e-08
	-2.377292e-08	-1.501278e-08	0.01631809	-0.02104377	-4.124017e-09	8.492176e-09	0.01224657	-0.004707061
	0.01195676	-0.00556261	-4.124017e-09	8.492176e-09	0.0153209	-0.02313787	-2.542876e-08	-1.722165e-08
	-1.220508e-07	-8.956775e-08	0.01224657	-0.004707061	-2.542876e-08	-1.722165e-08	0.01633852	-0.02087957
3.4e+08	0.01336828	-0.02274591	-2.634991e-08	-1.23776e-08	0.01090623	-0.005854747	-1.3546e-07	-7.662877e-08
	-2.634991e-08	-1.23776e-08	0.01445272	-0.02092743	-4.615657e-09	9.486246e-09	0.01125398	-0.005008691
	0.01090623	-0.005854747	-4.615657e-09	9.486246e-09	0.01332201	-0.02296495	-2.818661e-08	-1.445837e-08
	-1.3546e-07	-7.662877e-08	0.01125398	-0.005008691	-2.818661e-08	-1.445837e-08	0.01447172	-0.02075274
3.5e+08	0.01142619	-0.02235943	-2.864744e-08	-9.36173e-09	0.009815891	-0.006008236	-1.474709e-07	-6.17387e-08
	-2.864744e-08	-9.36173e-09	0.01261311	-0.02061642	-5.032428e-09	1.056187e-08	0.01021899	-0.005179942
	0.009815891	-0.006008236	-5.032428e-09	1.056187e-08	0.0113587	-0.02257883	-3.064818e-08	-1.128952e-08
	-1.474709e-07	-6.17387e-08	0.01021899	-0.005179942	-3.064818e-08	-1.128952e-08	0.01263147	-0.02043088
3.6e+08	0.009542515	-0.02176933	-3.061041e-08	-5.996361e-09	0.008703732	-0.006018897	-1.578044e-07	-4.505279e-08
	-3.061041e-08	-5.996361e-09	0.01082083	-0.02011521	-5.362596e-09	1.171068e-08	0.009158414	-0.005216323
	0.008703732	-0.006018897	-5.362596e-09	1.171068e-08	0.009455101	-0.02198509	-3.275442e-08	-7.747854e-09
	-1.578044e-07	-4.505279e-08	0.009158414	-0.005216323	-3.275442e-08	-7.747854e-09	0.01083937	-0.0199186
3.7e+08	0.007739977	-0.0209837	-3.218727e-08	-2.320575e-09	0.007588166	-0.005884871	-1.662015e-07	-2.676639e-08
	-3.218727e-08	-2.320575e-09	0.009096723	-0.0194307	-5.59463e-09	1.292188e-08	0.008089541	-0.005115502
	0.007588166	-0.005884871	-5.59463e-09	1.292188e-08	0.007634551	-0.02119204	-3.445061e-08	-3.875247e-09
	-1.662015e-07	-2.676639e-08	0.008089541	-0.005115502	-3.445061e-08	-3.875247e-09	0.00911633	-0.01922289
3.8e+08	0.006040224	-0.02001315	-3.333113e-08	1.619043e-09	0.006487715	-0.005606653	-1.72426e-07	-7.111103e-09
	-3.333113e-08	1.619043e-09	0.007460713	-0.01857207	-5.718658e-09	1.418322e-08	0.007029823	-0.004877346
	0.006487715	-0.005606653	-5.718658e-09	1.418322e-08	0.005919254	-0.02021067	-3.568692e-08	2.787273e-10
	-1.72426e-07	-7.111103e-09	0.007029823	-0.004877346	-3.568692e-08	2.787273e-10	0.007482267	-0.01835306
3.9e+08	0.004463536	-0.01887075	-3.40009e-08	5.768971e-09	0.005420713	-0.005187089	-1.762695e-07	1.364759e-08
	-3.40009e-08	5.768971e-09	0.005931502	-0.01755068	-5.726467e-09	1.548105e-08	0.005996608	-0.004503931
	0.005420713	-0.005187089	-5.726467e-09	1.548105e-08	0.004329985	-0.01905444	-3.641958e-08	4.65718e-09
	-1.762695e-07	1.364759e-08	0.005996608	-0.004503931	-3.641958e-08	4.65718e-09	0.005955889	-0.0173206
4e+08	0.00302854	-0.01757182	-3.41623e-08	1.006949e-08	0.004405009	-0.00463134	-1.775573e-07	3.52138e-08
	-3.41623e-08	1.006949e-08	0.004526349	-0.01637995	-5.611634e-09	1.680043e-08	0.005006859	-0.003999512
	0.004405009	-0.00463134	-5.611634e-09	1.680043e-08	0.002885818	-0.01773916	-3.661204e-08	9.196622e-09
	-1.775573e-07	3.52138e-08	0.005006859	-0.003999512	-3.661204e-08	9.196622e-09	0.004554437	-0.01613903
4.1e+08	0.001751968	-0.01613374	-3.378877e-08	1.445559e-08	0.003457674	-0.003946802	-1.761521e-07	5.726552e-08
	-3.378877e-08	1.445559e-08	0.003260839	-0.01507513	-5.369717e-09	1.812542e-08	0.004076882	-0.003370454
	0.003457674	-0.003946802	-5.369717e-09	1.812542e-08	0.001603848	-0.01628275	-3.623601e-08	1.382792e-08
	-1.761521e-07	5.726552e-08	0.004076882	-0.003370454	-3.623601e-08	1.382792e-08	0.003293465	-0.01482374
4.2e+08	0.0006484188	-0.01457569	-3.28623e-08	1.8858e-08	0.002594726	-0.003142995	-1.719581e-07	7.945944e-08
	-3.28623e-08	1.8858e-08	0.002148691	-0.01365311	-4.99842e-09	1.943931e-08	0.003222062	-0.002625143
	0.002594726	-0.003142995	-4.99842e-09	1.943931e-08	0.0004989586	-0.01470495	-3.52723e-08	1.84774e-08
	-1.719581e-07	7.945944e-08	0.003222062	-0.002625143	-3.52723e-08	1.84774e-08	0.002186638	-0.01339171
4.3e+08	-0.0002698341	-0.01291843	-3.137409e-08	2.320432e-08	0.001830866	-0.002231411	-1.649239e-07	1.014364e-07
	-3.137409e-08	2.320432e-08	0.001201577	-0.01213222	-4.497706e-09	2.072493e-08	0.002456619	-0.001773845
	0.001830866	-0.002231411	-4.497706e-09	2.072493e-08	-0.000416368	-0.01302716	-3.371152e-08	2.306808e-08
	-1.649239e-07	1.014364e-07	0.002456619	-0.001773845	-3.371152e-08	2.306808e-08	0.001245568	-0.01186139
4.4e+08	-0.0009930175	-0.01118399	-2.932506e-08	2.742034e-08	0.001179234	-0.001225333	-1.550454e-07	1.228274e-07
	-2.932506e-08	2.742034e-08	0.000428982	-0.01053194	-3.869879e-09	2.196497e-08	0.001793373	-0.0008285544
	0.001179234	-0.001225333	-3.869879e-09	2.196497e-08	-0.001132245	-0.01127202	-3.15546e-08	2.752103e-08
	-1.550454e-07	1.228274e-07	0.001793373	-0.0008285544	-3.15546e-08	2.752103e-08	0.0004796557	-0.01025237
4.5e+08	-0.001513987	-0.009395368	-2.672612e-08	3.143136e-08	0.000651197	-0.0001396285	-1.423669e-07	1.432598e-07
	-2.672612e-08	3.143136e-08	-0.0001619219	-0.008872686	-3.119613e-09	2.314231e-08	0.001243541	0.0001972042
	0.000651197	-0.0001396285	-3.119613e-09	2.314231e-08	-0.001641502	-0.009463219	-2.881314e-08	3.17568e-08
	-1.423669e-07	1.432598e-07	0.001243541	0.0001972042	-2.881314e-08	3.17568e-08	-0.000104017	-0.00858512
4.6e+08	-0.001828333	-0.007576244	-2.359832e-08	3.516352e-08	0.0002561571	0.001009492	-1.269823e-07	1.623637e-07
	-2.359832e-08	3.516352e-08	-0.0005663579	-0.007175499	-2.253935e-09	2.424036e-08	0.0008165526	0.001288583
	0.0002561571	0.001009492	-2.253935e-09	2.424036e-08	-0.001939793	-0.007625058	-2.550951e-08	3.56969e-08
	-1.269823e-07	1.623637e-07	0.0008165526	0.001288583	-2.550951e-08	3.56969e-08	-0.0005007782	-0.006880774
4.7e+08	-0.001934405	-0.005750602	-1.997501e-08	3.85498e-08	1.396461e-06	0.00220473	-1.090258e-07	1.797655e-07
	-1.997501e-08	3.85498e-08	-0.0007820008	-0.005461786	-1.281951e-09	2.524224e-08	0.0005198972	0.002429652
	1.396453e-06	0.00220473	-1.281951e-09	2.524224e-08	-0.002025647	-0.005782187	-2.167879e-08	3.92697e-08
	-1.090258e-07	1.797655e-07	0.0005198972	0.002429652	-2.167879e-08	3.92697e-08	-0.0007083904	-0.005160768
