!$
! Info: Touchstone file created by Circ.  Input file=Tx_6in_Rx_100ohms_TxVia_35mils_RxVia_45mils.circ
!$
# Hz S RI R 50
0	0.006335289	9.110148e-26	-4.543999e-13	2.321931e-28	5.293372e-05	1.185961e-23	5.860411e-13	1.242905e-28
	-4.544018e-13	2.321931e-28	0.00633185	1.042205e-25	2.517236e-12	3.778048e-28	5.157393e-05	1.42759e-23
	5.345774e-05	1.2014e-23	2.517238e-12	3.778045e-28	0.006343478	8.892505e-26	4.519618e-13	2.474771e-28
	5.860409e-13	1.242906e-28	4.972657e-05	1.434631e-23	4.519621e-13	2.474773e-28	0.006345015	9.763635e-26
1e+07	0.008907384	0.004388756	7.18315e-12	6.595431e-12	0.0001502037	0.001218678	9.518709e-12	1.297791e-11
	7.18315e-12	6.595431e-12	0.009182829	0.004419782	9.017602e-12	8.592926e-12	0.000362031	0.001251806
	0.0001502276	0.00121868	9.017602e-12	8.592925e-12	0.008580943	0.004561794	7.559019e-12	7.519164e-12
	9.518709e-12	1.297791e-11	0.0003619708	0.001251816	7.559018e-12	7.519164e-12	0.009104428	0.004434448
2e+07	0.01150801	0.006771144	9.268292e-12	9.098772e-12	0.0003781632	0.002437965	1.169994e-11	2.035004e-11
	9.268293e-12	9.098772e-12	0.01173883	0.006723525	1.546575e-11	8.251921e-12	0.000502757	0.002579947
	0.0003781713	0.00243795	1.546575e-11	8.251921e-12	0.01142543	0.007174859	1.238617e-11	7.046695e-12
	1.169994e-11	2.035004e-11	0.0005027484	0.002579981	1.238617e-11	7.046696e-12	0.01168581	0.006784405
3e+07	0.01378133	0.008135003	9.942285e-12	9.166698e-12	0.0007529227	0.003593609	1.272051e-11	2.507802e-11
	9.942285e-12	9.166698e-12	0.01396702	0.008065057	2.034711e-11	4.726862e-12	0.0008084965	0.003771582
	0.0007529227	0.003593606	2.034711e-11	4.726862e-12	0.01389267	0.008592497	1.367316e-11	4.097926e-12
	1.272051e-11	2.507802e-11	0.0008084963	0.003771587	1.367316e-11	4.097926e-12	0.01393589	0.008147266
4e+07	0.01591912	0.009002441	8.07419e-12	8.370254e-12	0.001265593	0.004682794	1.057769e-11	2.884857e-11
	8.074189e-12	8.370253e-12	0.01605611	0.008926247	2.202002e-11	-1.481814e-12	0.001276673	0.004878672
	0.001265594	0.004682795	2.202002e-11	-1.481814e-12	0.01619526	0.009455171	1.080638e-11	-4.056909e-13
	1.057769e-11	2.884857e-11	0.001276667	0.00487867	1.080638e-11	-4.056906e-13	0.01604529	0.009022222
5e+07	0.01797272	0.009496963	3.373578e-12	7.606805e-12	0.001905419	0.00569128	5.028095e-12	3.287041e-11
	3.373577e-12	7.606805e-12	0.01805691	0.009425817	2.019603e-11	-8.95048e-12	0.001976746	0.005864594
	0.00190542	0.005691281	2.019603e-11	-8.95048e-12	0.0183899	0.009907706	3.428126e-12	-4.822869e-12
	5.028095e-12	3.287041e-11	0.001976742	0.005864593	3.428126e-12	-4.822868e-12	0.01806505	0.00953066
6e+07	0.01995492	0.009676751	-4.234608e-12	7.824771e-12	0.002660229	0.006605107	-3.8229e-12	3.828513e-11
	-4.234606e-12	7.824772e-12	0.01998329	0.00962159	1.450181e-11	-1.665613e-11	0.002775395	0.006745814
	0.002660226	0.006605107	1.450181e-11	-1.665613e-11	0.02049089	0.0100177	-8.45548e-12	-7.707099e-12
	-3.8229e-12	3.828513e-11	0.002775398	0.006745813	-8.45548e-12	-7.7071e-12	0.02000898	0.009731478
7e+07	0.0218632	0.00957692	-1.475999e-11	9.872252e-12	0.003527104	0.007406509	-1.571722e-11	4.611502e-11
	-1.475999e-11	9.872254e-12	0.02183392	0.009548506	4.347366e-12	-2.398792e-11	0.003660252	0.007513026
	0.003527098	0.00740651	4.347366e-12	-2.398792e-11	0.0224956	0.009825673	-2.464903e-11	-7.740359e-12
	-1.571722e-11	4.611502e-11	0.00366026	0.007513023	-2.464903e-11	-7.740361e-12	0.02187557	0.009660193
8e+07	0.02368829	0.009223352	-2.798015e-11	1.47095e-11	0.004479944	0.008088336	-3.020635e-11	5.73974e-11
	-2.798014e-11	1.47095e-11	0.0236007	0.009232414	-1.04156e-11	-2.967789e-11	0.0046171	0.008157345
	0.004479936	0.008088339	-1.04156e-11	-2.967789e-11	0.02439356	0.009360699	-4.482472e-11	-3.688784e-12
	-3.020635e-11	5.73974e-11	0.00461711	0.008157339	-4.482472e-11	-3.688788e-12	0.02365639	0.009343038
9e+07	0.02541846	0.00863864	-4.331172e-11	2.362871e-11	0.005502338	0.008642239	-4.651417e-11	7.340464e-11
	-4.331171e-11	2.362871e-11	0.02527328	0.008696186	-2.965713e-11	-3.189586e-11	0.005629924	0.008670649
	0.005502332	0.008642242	-2.965713e-11	-3.189586e-11	0.02616998	0.008646064	-6.811929e-11	6.299903e-12
	-4.651417e-11	7.340464e-11	0.005629931	0.008670644	-6.811929e-11	6.2999e-12	0.02534069	0.008803108
1e+08	0.02704765	0.007851915	-6.02926e-11	3.91987e-11	0.006579905	0.009064043	-6.388357e-11	9.692814e-11
	-6.02926e-11	3.91987e-11	0.02684792	0.007970276	-5.473301e-11	-2.703255e-11	0.006678349	0.009042428
	0.006579905	0.009064043	-5.473301e-11	-2.703255e-11	0.02780421	0.007697767	-9.400489e-11	2.619008e-11
	-6.388357e-11	9.692814e-11	0.006678349	0.009042428	-9.400489e-11	2.619008e-11	0.02692353	0.008070116
1.1e+08	0.02858741	0.006820032	-6.892112e-11	5.983473e-11	0.007701624	0.009333219	-7.249647e-11	1.259851e-10
	-6.892112e-11	5.983473e-11	0.02834249	0.007006015	-7.052177e-11	-1.119972e-11	0.007732492	0.009294617
	0.007701624	0.009333219	-7.052177e-11	-1.119972e-11	0.02926839	0.00656132	-1.081938e-10	5.468605e-11
	-7.249647e-11	1.259851e-10	0.007732492	0.009294617	-1.081938e-10	5.468605e-11	0.02842103	0.007101943
1.2e+08	0.02995701	0.00558804	-7.45822e-11	7.835942e-11	0.008831952	0.009451327	-7.795106e-11	1.491863e-10
	-7.45822e-11	7.835942e-11	0.02966935	0.005847881	-7.900808e-11	-1.411526e-12	0.008804751	0.009419185
	0.008831952	0.009451326	-7.900808e-11	-1.411526e-12	0.03057803	0.005260477	-1.173269e-10	7.905598e-11
	-7.795106e-11	1.491863e-10	0.008804751	0.009419185	-1.173269e-10	7.905598e-11	0.02975072	0.005941098
1.3e+08	0.03115157	0.004189886	-7.91637e-11	9.053649e-11	0.009954713	0.009422237	-8.243593e-11	1.687909e-10
	-7.91637e-11	9.053649e-11	0.03082575	0.004531205	-8.316709e-11	1.010302e-12	0.009874325	0.00940956
	0.009954713	0.009422237	-8.316709e-11	1.010302e-12	0.03171646	0.003808465	-1.239064e-10	9.403105e-11
	-8.243593e-11	1.687909e-10	0.009874325	0.00940956	-1.239064e-10	9.403105e-11	0.03090898	0.004621966
1.4e+08	0.03216093	0.002649909	-8.321074e-11	1.041603e-10	0.01105201	0.00924913	-8.609737e-11	1.900954e-10
	-8.321074e-11	1.041603e-10	0.03180313	0.003080182	-8.793198e-11	4.68534e-12	0.01092327	0.00926619
	0.01105201	0.00924913	-8.793198e-11	4.68534e-12	0.03267157	0.002224981	-1.297795e-10	1.110571e-10
	-8.609737e-11	1.900954e-10	0.01092327	0.00926619	-1.297795e-10	1.110571e-10	0.03188716	0.00316879
1.5e+08	0.03297541	0.0009915891	-8.648927e-11	1.190295e-10	0.01210616	0.008937011	-8.865235e-11	2.128686e-10
	-8.648927e-11	1.190295e-10	0.03259322	0.001517663	-9.307154e-11	9.479429e-12	0.01193438	0.008992428
	0.01210616	0.008937011	-9.307154e-11	9.479429e-12	0.03343296	0.000531276	-1.346064e-10	1.298341e-10
	-8.865235e-11	2.128686e-10	0.01193438	0.008992428	-1.346064e-10	1.298341e-10	0.0326771	0.001604532
1.6e+08	0.03358662	-0.0007614703	-8.88047e-11	1.349784e-10	0.01310011	0.008492923	-8.986329e-11	2.369051e-10
	-8.88047e-11	1.349784e-10	0.03318895	-0.0001336963	-9.842523e-11	1.53283e-11	0.01289123	0.008593997
	0.01310011	0.008492923	-9.842523e-11	1.53283e-11	0.03399198	-0.001250366	-1.381144e-10	1.501198e-10
	-8.986329e-11	2.369051e-10	0.01289123	0.008593997	-1.381144e-10	1.501198e-10	0.03327181	-4.807943e-05
1.7e+08	0.03398796	-0.002585281	-8.999102e-11	1.518427e-10	0.01401779	0.007925916	-8.952732e-11	2.619972e-10
	-8.999102e-11	1.518427e-10	0.03358483	-0.001851118	-1.03863e-10	2.219252e-11	0.01377836	0.008078747
	0.01401779	0.007925916	-1.03863e-10	2.219252e-11	0.03434194	-0.003096838	-1.400753e-10	1.716789e-10
	-8.952732e-11	2.619972e-10	0.01377836	0.008078747	-1.400753e-10	1.716789e-10	0.03366594	-0.001766214
1.8e+08	0.0341749	-0.00445547	-8.99072e-11	1.694515e-10	0.01484437	0.007246942	-8.747323e-11	2.879263e-10
	-8.99072e-11	1.694515e-10	0.03377724	-0.003611642	-1.092702e-10	3.004306e-11	0.01458149	0.007456463
	0.01484437	0.007246942	-1.092702e-10	3.004306e-11	0.0344783	-0.004984385	-1.402979e-10	1.942701e-10
	-8.747323e-11	2.879263e-10	0.01458149	0.007456463	-1.402979e-10	1.942701e-10	0.03385596	-0.003526879
1.9e+08	0.03414518	-0.006347412	-8.842993e-11	1.875954e-10	0.0155665	0.006468699	-8.356276e-11	3.144562e-10
	-8.842993e-11	1.875954e-10	0.0337646	-0.005392205	-1.14543e-10	3.885407e-11	0.01528772	0.00673867
	0.0155665	0.006468699	-1.14543e-10	3.885407e-11	0.03439885	-0.006888834	-1.386257e-10	2.176414e-10
	-8.356276e-11	3.144562e-10	0.01528772	0.00673867	-1.386257e-10	2.176414e-10	0.03384039	-0.00530699
2e+08	0.03389899	-0.008236436	-8.547253e-11	2.06093e-10	0.01617252	0.00560544	-7.768312e-11	3.413479e-10
	-8.547253e-11	2.06093e-10	0.03354755	-0.007169815	-1.195805e-10	4.859881e-11	0.01588573	0.005938439
	0.01617252	0.00560544	-1.195805e-10	4.859881e-11	0.03410383	-0.008785856	-1.349365e-10	2.415305e-10
	-7.768312e-11	3.413479e-10	0.01588573	0.005938439	-1.349365e-10	2.415305e-10	0.03361993	-0.00708353
2.1e+08	0.03343898	-0.01009806	-8.097474e-11	2.24772e-10	0.01665269	0.004672756	-6.975564e-11	3.683514e-10
	-8.097474e-11	2.24772e-10	0.03312894	-0.008921746	-1.242844e-10	5.924675e-11	0.01636597	0.005070163
	0.01665269	0.004672756	-1.242844e-10	5.924675e-11	0.033596	-0.01065124	-1.291427e-10	2.656656e-10
	-6.975564e-11	3.683514e-10	0.01636597	0.005070163	-1.291427e-10	2.656656e-10	0.03319752	-0.008833754
2.2e+08	0.03277039	-0.01190827	-7.48943e-11	2.434308e-10	0.01699925	0.003687328	-5.973382e-11	3.952061e-10
	-7.48943e-11	2.434308e-10	0.03251395	-0.01062577	-1.285603e-10	7.076343e-11	0.01672077	0.004149327
	0.01699925	0.003687328	-1.285603e-10	7.076343e-11	0.0328807	-0.01246116	-1.211915e-10	2.897691e-10
	-5.973382e-11	3.952061e-10	0.01672077	0.004149327	-1.211915e-10	2.897691e-10	0.03257838	-0.01053541
2.3e+08	0.03190096	-0.01364377	-6.721443e-11	2.618646e-10	0.01720664	0.002666677	-4.760369e-11	4.21647e-10
	-6.721443e-11	2.618646e-10	0.03171	-0.01226038	-1.323158e-10	8.310925e-11	0.01694448	0.00319226
	0.01720664	0.002666677	-1.323158e-10	8.310925e-11	0.03196583	-0.01419251	-1.110644e-10	3.135605e-10
	-4.760369e-11	4.21647e-10	0.01694448	0.00319226	-1.110644e-10	3.135605e-10	0.03177002	-0.01216696
2.4e+08	0.0308409	-0.01528228	-5.794442e-11	2.798683e-10	0.01727154	0.00162888	-3.338469e-11	4.474079e-10
	-5.794442e-11	2.798683e-10	0.03072672	-0.01380507	-1.35461e-10	9.623815e-11	0.01703354	0.002215876
	0.01727154	0.00162888	-1.35461e-10	9.623815e-11	0.03086176	-0.01582314	-9.877819e-11	3.367593e-10
	-3.338469e-11	4.474079e-10	0.01703354	0.002215876	-9.877819e-11	3.367593e-10	0.03078214	-0.01370787
2.5e+08	0.0296028	-0.01680282	-4.711859e-11	2.972393e-10	0.01719293	0.0005922882	-1.712881e-11	4.722254e-10
	-4.711859e-11	2.972393e-10	0.02957586	-0.01524054	-1.379074e-10	1.100976e-10	0.01698657	0.001237403
	0.01719293	0.0005922882	-1.379074e-10	1.100976e-10	0.02958124	-0.01733221	-8.438319e-11	3.59089e-10
	-1.712881e-11	4.722254e-10	0.01698657	0.001237403	-8.438319e-11	3.59089e-10	0.02962658	-0.01513882
2.6e+08	0.02820146	-0.01818595	-3.479596e-11	3.137805e-10	0.01697213	-0.0004247593	1.079363e-12	4.958419e-10
	-3.479596e-11	3.137805e-10	0.02827118	-0.01654895	-1.395689e-10	1.246276e-10	0.01680436	0.0002741166
	0.01697213	-0.0004247593	-1.395689e-10	1.246276e-10	0.0281393	-0.01870041	-6.796314e-11	3.802806e-10
	1.079363e-12	4.958419e-10	0.01680436	0.0002741166	-6.796314e-11	3.802806e-10	0.02831715	-0.01644194
2.7e+08	0.02665377	-0.01941404	-2.105888e-11	3.293023e-10	0.01661276	-0.001404231	2.112382e-11	5.18009e-10
	-2.105888e-11	3.293023e-10	0.02682822	-0.0177141	-1.403613e-10	1.397601e-10	0.01648988	-0.0006569399
	0.01661276	-0.001404231	-1.403613e-10	1.397601e-10	0.02655302	-0.01991023	-4.963343e-11	4.000754e-10
	2.112382e-11	5.18009e-10	0.01648988	-0.0006569399	-4.963343e-11	4.000754e-10	0.02686954	-0.01760104
2.8e+08	0.02497844	-0.02047148	-6.012188e-12	3.436258e-10	0.01612068	-0.002328688	4.285776e-11	5.384918e-10
	-6.012188e-12	3.436258e-10	0.02526422	-0.01872166	-1.402039e-10	1.554182e-10	0.01604821	-0.001539222
	0.01612068	-0.002328688	-1.402039e-10	1.554182e-10	0.02484136	-0.02094622	-2.954036e-11	4.182291e-10
	4.285776e-11	5.384918e-10	0.01604821	-0.001539222	-2.954036e-11	4.182291e-10	0.02530105	-0.0186018
2.9e+08	0.02319585	-0.02134488	1.021858e-11	3.565845e-10	0.01550394	-0.003181565	6.610531e-11	5.570711e-10
	1.021858e-11	3.565845e-10	0.02359782	-0.01955933	-1.390193e-10	1.715156e-10	0.0154865	-0.00235695
	0.01550394	-0.003181565	-1.390193e-10	1.715156e-10	0.02302492	-0.02179515	-7.858888e-12	4.345142e-10
	6.610531e-11	5.570711e-10	0.0154865	-0.00235695	-7.858888e-12	4.345142e-10	0.02363043	-0.01943192
3e+08	0.02132769	-0.02202327	2.748876e-11	3.680259e-10	0.0147726	-0.003947436	9.066328e-11	5.735473e-10
	2.748876e-11	3.680259e-10	0.02184887	-0.020217	-1.367349e-10	1.879555e-10	0.01481381	-0.003095357
	0.0147726	-0.003947436	-1.367349e-10	1.879555e-10	0.02112566	-0.02244623	1.520929e-11	4.487229e-10
	9.066328e-11	5.735473e-10	0.01481381	-0.003095357	1.520929e-11	4.487229e-10	0.02187763	-0.02008132
3.1e+08	0.0193968	-0.0224982	4.563607e-11	3.778143e-10	0.01393864	-0.004612264	1.163029e-10	5.877434e-10
	4.563607e-11	3.778143e-10	0.02003818	-0.02068683	-1.332842e-10	2.046306e-10	0.01404102	-0.00374093
	0.01393864	-0.004612264	-1.332842e-10	2.046306e-10	0.01916666	-0.02289124	3.943764e-11	4.606704e-10
	1.163029e-10	5.877434e-10	0.01404102	-0.00374093	3.943764e-11	4.606704e-10	0.02006358	-0.02054223
3.2e+08	0.01742678	-0.02276392	6.448248e-11	3.858313e-10	0.0130157	-0.005163629	1.427724e-10	5.995077e-10
	6.448248e-11	3.858313e-10	0.01818728	-0.02096341	-1.286083e-10	2.214222e-10	0.01318063	-0.004281625
	0.0130157	-0.005163629	-1.286083e-10	2.214222e-10	0.01717174	-0.02312466	6.457749e-11	4.701967e-10
	1.427724e-10	5.995077e-10	0.01318063	-0.004281625	6.457749e-11	4.701967e-10	0.01820987	-0.02080928
3.3e+08	0.01544174	-0.0228174	8.3836e-11	3.919776e-10	0.01201893	-0.005590934	1.697993e-10	6.087164e-10
	8.3836e-11	3.919776e-10	0.01631809	-0.02104377	-1.226575e-10	2.382e-10	0.01224657	-0.004707061
	0.01201893	-0.005590934	-1.226575e-10	2.382e-10	0.01516526	-0.02314374	9.036037e-11	4.771688e-10
	1.697993e-10	6.087164e-10	0.01224657	-0.004707061	9.036037e-11	4.771688e-10	0.01633852	-0.02087957
3.4e+08	0.01346597	-0.0226584	1.034925e-10	3.961747e-10	0.01096471	-0.005885578	1.970937e-10	6.152771e-10
	1.034925e-10	3.961747e-10	0.01445272	-0.02092743	-1.153944e-10	2.548224e-10	0.01125398	-0.005008691
	0.01096471	-0.005885578	-1.153944e-10	2.548224e-10	0.01317171	-0.02294854	1.165008e-10	4.814836e-10
	1.970937e-10	6.152771e-10	0.01125398	-0.005008691	1.165008e-10	4.814836e-10	0.01447172	-0.02075274
3.5e+08	0.0115236	-0.02228946	1.232377e-10	3.983653e-10	0.009870396	-0.006041102	2.24351e-10	6.191299e-10
	1.232377e-10	3.983653e-10	0.01261311	-0.02061642	-1.067954e-10	2.711368e-10	0.01021899	-0.005179942
	0.009870396	-0.006041102	-1.067954e-10	2.711368e-10	0.01121543	-0.02254193	1.426993e-10	4.83069e-10
	2.24351e-10	6.191299e-10	0.01021899	-0.005179942	1.426993e-10	4.83069e-10	0.01263147	-0.02043088
3.6e+08	0.009638332	-0.02171589	1.428498e-10	3.985177e-10	0.008754046	-0.006053297	2.512602e-10	6.202524e-10
	1.428498e-10	3.985177e-10	0.01082083	-0.02011521	-9.685345e-11	2.869807e-10	0.009158414	-0.005216323
	0.008754046	-0.006053297	-9.685345e-11	2.869807e-10	0.009320263	-0.0219296	1.686451e-10	4.818861e-10
	2.512602e-10	6.202524e-10	0.009158414	-0.005216323	1.686451e-10	4.818861e-10	0.01083937	-0.0199186
3.7e+08	0.007833061	-0.0209457	1.621001e-10	3.966176e-10	0.007634134	-0.00592028	2.774957e-10	6.186544e-10
	1.621001e-10	3.966176e-10	0.009096723	-0.0194307	-8.558107e-11	3.021835e-10	0.008089541	-0.005115502
	0.007634134	-0.00592028	-8.558107e-11	3.021835e-10	0.007509253	-0.02111992	1.940198e-10	4.779301e-10
	2.774957e-10	6.186544e-10	0.008089541	-0.005115502	1.940198e-10	4.779301e-10	0.00911633	-0.01922289
3.8e+08	0.006129606	-0.01998947	1.807552e-10	3.926783e-10	0.006529247	-0.005642532	3.027318e-10	6.143866e-10
	1.807552e-10	3.926783e-10	0.007460713	-0.01857207	-7.301233e-11	3.165683e-10	0.007029823	-0.004877346
	0.006529247	-0.005642532	-7.301233e-11	3.165683e-10	0.005804314	-0.02012391	2.185006e-10	4.712324e-10
	3.027318e-10	6.143866e-10	0.007029823	-0.004877346	2.185006e-10	4.712324e-10	0.007482267	-0.01835306
3.9e+08	0.004548415	-0.01886025	1.985801e-10	3.867384e-10	0.005457786	-0.005222892	3.26645e-10	6.075392e-10
	1.985801e-10	3.867384e-10	0.005931502	-0.01755068	-5.920536e-11	3.299548e-10	0.005996608	-0.004503931
	0.005457786	-0.005222892	-5.920536e-11	3.299548e-10	0.004225948	-0.01895504	2.417638e-10	4.618606e-10
	3.26645e-10	6.075392e-10	0.005996608	-0.004503931	2.417638e-10	4.618606e-10	0.005955889	-0.0173206
4e+08	0.003108272	-0.01757336	2.153398e-10	3.788627e-10	0.004437666	-0.004666523	3.489176e-10	5.982422e-10
	2.153398e-10	3.788627e-10	0.004526349	-0.01637995	-4.424426e-11	3.421626e-10	0.005006859	-0.003999512
	0.004437666	-0.004666523	-4.424426e-11	3.421626e-10	0.002792955	-0.01762906	2.634889e-10	4.499201e-10
	3.489176e-10	5.982422e-10	0.005006859	-0.003999512	2.634889e-10	4.499201e-10	0.004554437	-0.01613903
4.1e+08	0.001826066	-0.01614617	2.308025e-10	3.691426e-10	0.003486025	-0.003980831	3.692434e-10	5.866658e-10
	2.308025e-10	3.691426e-10	0.003260839	-0.01507513	-2.824048e-11	3.530155e-10	0.004076882	-0.003370454
	0.003486025	-0.003980831	-2.824048e-11	3.530155e-10	0.00152218	-0.01616382	2.833626e-10	4.355541e-10
	3.692434e-10	5.866658e-10	0.004076882	-0.003370454	2.833626e-10	4.355541e-10	0.003293465	-0.01482374
4.2e+08	0.0007165282	-0.01459791	2.44742e-10	3.576966e-10	0.002618945	-0.003175352	3.873322e-10	5.730189e-10
	2.44742e-10	3.576966e-10	0.002148691	-0.01365311	-1.133362e-11	3.623456e-10	0.003222062	-0.002625143
	0.002618945	-0.003175352	-1.133362e-11	3.623456e-10	0.000428276	-0.01457899	3.010829e-10	4.189439e-10
	3.873322e-10	5.730189e-10	0.003222062	-0.002625143	3.010829e-10	4.189439e-10	0.002186638	-0.01339171
4.3e+08	-0.0002079341	-0.01294936	2.569404e-10	3.446707e-10	0.001851186	-0.002261604	4.029153e-10	5.575488e-10
	2.569404e-10	3.446707e-10	0.001201577	-0.01213222	6.308666e-12	3.69998e-10	0.002456619	-0.001773845
	0.001851186	-0.002261604	6.308666e-12	3.69998e-10	-0.0004764938	-0.01289582	3.163639e-10	4.003082e-10
	4.029153e-10	5.575488e-10	0.002456619	-0.001773845	3.163639e-10	4.003082e-10	0.001245568	-0.01186139
4.4e+08	-0.0009374353	-0.01122261	2.671918e-10	3.302381e-10	0.00119595	-0.001252903	4.157498e-10	5.405383e-10
	2.671918e-10	3.302381e-10	0.000428982	-0.01053194	2.449152e-11	3.758364e-10	0.001793373	-0.0008285544
	0.00119595	-0.001252903	2.449152e-11	3.758364e-10	-0.001182428	-0.01113683	3.289401e-10	3.799025e-10
	4.157498e-10	5.405383e-10	0.001793373	-0.0008285544	3.289401e-10	3.799025e-10	0.0004796557	-0.01025237
4.5e+08	-0.001464724	-0.00944073	2.753054e-10	3.145992e-10	0.0006646546	-0.0001641538	4.256244e-10	5.223037e-10
	2.753054e-10	3.145992e-10	-0.0001619219	-0.008872686	4.299479e-11	3.797474e-10	0.001243541	0.0001972042
	0.0006646547	-0.0001641538	4.299479e-11	3.797474e-10	-0.001682523	-0.009325539	3.385713e-10	3.580176e-10
	4.256244e-10	5.223037e-10	0.001243541	0.0001972042	3.385713e-10	3.580176e-10	-0.000104017	-0.00858512
4.6e+08	-0.001785299	-0.007627445	2.81109e-10	2.979803e-10	0.0002667516	0.000988386	4.323632e-10	5.031914e-10
	2.81109e-10	2.979803e-10	-0.0005663579	-0.007175499	6.158223e-11	3.816285e-10	0.0008165526	0.001288583
	0.0002667516	0.0009883859	6.158223e-11	3.816285e-10	-0.001972565	-0.007486074	3.450663e-10	3.349526e-10
	4.323632e-10	5.031914e-10	0.0008165526	0.001288583	3.450663e-10	3.349526e-10	-0.0005007782	-0.006880774
4.7e+08	-0.001897459	-0.005806837	2.84453e-10	2.806324e-10	9.565242e-06	0.002187368	4.358295e-10	4.835738e-10
	2.84453e-10	2.806324e-10	-0.0007820008	-0.005461786	7.999828e-11	3.8135e-10	0.0005198972	0.002429652
	9.565242e-06	0.002187368	7.999828e-11	3.8135e-10	-0.002051178	-0.005642887	3.482949e-10	3.109571e-10
	4.358295e-10	4.835738e-10	0.0005198972	0.002429652	3.482949e-10	3.109571e-10	-0.0007083904	-0.005160768
4.8e+08	-0.001802325	-0.004002998	2.852137e-10	2.62831e-10	-0.0001018285	0.003414628	4.359338e-10	4.638439e-10
