!$
! Info: Touchstone file created by Circ.  Input file=Tx_6in_Rx_100ohms_TxVia_35mils_RxVia_45mils.circ
!$
# Hz S RI R 50
0	0.006333519	8.668316e-26	-3.261206e-05	3.825288e-24	5.171419e-05	1.17827e-23	-3.259279e-05	1.482702e-24
	-3.261208e-05	3.826971e-24	0.00633185	1.042205e-25	-3.262386e-05	5.363099e-24	5.157393e-05	1.42759e-23
	5.152814e-05	1.173324e-23	-3.262385e-05	5.361673e-24	0.006344315	8.668344e-26	-3.260989e-05	3.673928e-24
	-3.25928e-05	1.484023e-24	4.972657e-05	1.434631e-23	-3.26099e-05	3.674993e-24	0.006345015	9.763635e-26
1e+07	0.009092135	0.004425142	-0.0001156544	6.926703e-06	0.0003642444	0.001253425	-4.3958e-05	-4.894445e-06
	-0.0001156544	6.926703e-06	0.009182829	0.004419782	-1.076279e-05	7.279664e-05	0.000362031	0.001251806
	0.000364239	0.001253426	-1.076279e-05	7.279664e-05	0.009202601	0.004428492	-0.0001156535	6.907108e-06
	-4.3958e-05	-4.894446e-06	0.0003619708	0.001251816	-0.0001156535	6.907106e-06	0.009104428	0.004434448
2e+07	0.01168296	0.006766245	-9.089387e-05	-4.114583e-05	0.0005112302	0.002582136	-3.452394e-05	-9.638662e-06
	-9.089387e-05	-4.114582e-05	0.01173883	0.006723525	-3.955225e-05	0.0001194097	0.000502757	0.002579947
	0.0005112316	0.00258214	-3.955225e-05	0.0001194097	0.01177454	0.006738098	-9.090145e-05	-4.117706e-05
	-3.452393e-05	-9.638664e-06	0.0005027484	0.002579981	-9.090145e-05	-4.117706e-05	0.01168581	0.006784405
3e+07	0.01394918	0.00811787	-7.359755e-05	-5.716809e-05	0.0008270048	0.003772662	-2.844495e-05	-1.548039e-05
	-7.359755e-05	-5.716809e-05	0.01396702	0.008065057	-8.385377e-05	0.0001379493	0.0008084965	0.003771582
	0.0008270073	0.003772662	-8.385377e-05	0.0001379493	0.01402799	0.008081224	-7.361195e-05	-5.722462e-05
	-2.844495e-05	-1.548039e-05	0.0008084963	0.003771587	-7.361195e-05	-5.722463e-05	0.01393589	0.008147266
4e+07	0.01608111	0.008978576	-6.046081e-05	-6.616771e-05	0.001308652	0.004876333	-2.366529e-05	-1.852448e-05
	-6.046081e-05	-6.616771e-05	0.01605611	0.008926247	-0.0001209081	0.0001493479	0.001276673	0.004878672
	0.001308653	0.004876331	-0.0001209081	0.0001493479	0.01615095	0.008938364	-6.048189e-05	-6.625674e-05
	-2.366529e-05	-1.852448e-05	0.001276667	0.00487867	-6.048189e-05	-6.625674e-05	0.01604529	0.009022222
5e+07	0.01812945	0.009468184	-4.983479e-05	-7.186031e-05	0.002025177	0.005856014	-1.965147e-05	-2.036022e-05
	-4.983479e-05	-7.186031e-05	0.01805691	0.009425817	-0.0001539594	0.0001577474	0.001976746	0.005864594
	0.002025177	0.005856013	-0.0001539594	0.0001577474	0.01819315	0.009426373	-4.986399e-05	-7.198956e-05
	-1.965147e-05	-2.036022e-05	0.001976742	0.005864593	-4.986399e-05	-7.198956e-05	0.01806505	0.00953066
6e+07	0.020107	0.009644409	-4.080254e-05	-7.550138e-05	0.002842714	0.006727596	-1.612383e-05	-2.153545e-05
	-4.080254e-05	-7.550138e-05	0.01998329	0.00962159	-0.0001847814	0.0001646443	0.002775395	0.006745814
	0.002842715	0.006727596	-0.0001847814	0.0001646443	0.02016682	0.009601751	-4.084324e-05	-7.567897e-05
	-1.612383e-05	-2.153545e-05	0.002775398	0.006745813	-4.084324e-05	-7.567897e-05	0.02000898	0.009731478
7e+07	0.0220112	0.009541994	-4.750424e-05	-7.048931e-05	0.003748295	0.007481364	-1.276281e-05	-2.215355e-05
	-4.750424e-05	-7.048931e-05	0.02183392	0.009548506	-0.0002144833	0.0001706767	0.003660252	0.007513026
	0.003748297	0.007481364	-0.0002144833	0.0001706767	0.02206898	0.009498591	-4.755959e-05	-7.071164e-05
	-1.276281e-05	-2.215355e-05	0.00366026	0.007513023	-4.755959e-05	-7.071164e-05	0.02187557	0.009660193
8e+07	0.0238327	0.009186493	-6.28084e-05	-5.707941e-05	0.004727063	0.008108105	-1.547896e-05	-1.891683e-05
	-6.28084e-05	-5.707941e-05	0.0236007	0.009232414	-0.0002442085	0.0001756612	0.0046171	0.008157345
	0.004727066	0.008108105	-0.0002442085	0.0001756612	0.02388995	0.009142095	-6.287388e-05	-5.73466e-05
	-1.547896e-05	-1.891683e-05	0.00461711	0.008157339	-6.287388e-05	-5.73466e-05	0.02365639	0.009343038
9e+07	0.02555968	0.008600348	-7.44089e-05	-4.011502e-05	0.00576232	0.008599461	-1.892339e-05	-1.366084e-05
	-7.44089e-05	-4.011502e-05	0.02527328	0.008696186	-0.0002757943	0.0001783364	0.005629924	0.008670649
	0.005762321	0.008599461	-0.0002757943	0.0001783364	0.02561776	0.008554634	-7.448882e-05	-4.043387e-05
	-1.892339e-05	-1.366084e-05	0.005629931	0.008670644	-7.448882e-05	-4.043387e-05	0.02534069	0.008803108
1e+08	0.027186	0.007812706	-8.005597e-05	-1.752018e-05	0.006832975	0.008944772	-2.03211e-05	-6.739609e-06
	-8.005597e-05	-1.752018e-05	0.02684792	0.007970276	-0.0003160112	0.0001709001	0.006678349	0.009042428
	0.006832974	0.008944772	-0.0003160112	0.0001709001	0.02724692	0.007766324	-8.015423e-05	-1.790135e-05
	-2.03211e-05	-6.739609e-06	0.006678349	0.009042428	-8.015423e-05	-1.790135e-05	0.02692353	0.008070116
1.1e+08	0.02872376	0.006780431	-7.371524e-05	-2.605266e-06	0.007908071	0.009166122	-1.781804e-05	-2.585631e-06
	-7.371524e-05	-2.605266e-06	0.02834249	0.007006015	-0.0003266227	0.0001452755	0.007732492	0.009294617
	0.007908071	0.009166122	-0.0003266227	0.0001452755	0.02879301	0.006727866	-7.384716e-05	-3.061745e-06
	-1.781804e-05	-2.585631e-06	0.007732492	0.009294617	-7.384716e-05	-3.061745e-06	0.02842103	0.007101943
1.2e+08	0.03009208	0.005547968	-6.939763e-05	7.575934e-06	0.00899964	0.009255475	-1.61449e-05	-3.827266e-08
	-6.939763e-05	7.575934e-06	0.02966935	0.005847881	-0.0003294027	0.0001348463	0.008804751	0.009419185
	0.008999639	0.009255475	-0.0003294027	0.0001348463	0.0301665	0.005485069	-6.958186e-05	7.048592e-06
	-1.61449e-05	-3.827267e-08	0.008804751	0.009419185	-6.958186e-05	7.048592e-06	0.02975072	0.005941098
1.3e+08	0.03128589	0.004149208	-6.535589e-05	1.606824e-05	0.01008613	0.009206441	-1.469659e-05	1.894096e-06
	-6.535589e-05	1.606824e-05	0.03082575	0.004531205	-0.0003299344	0.0001301188	0.009874325	0.00940956
	0.01008613	0.009206441	-0.0003299344	0.0001301188	0.03136297	0.004073837	-6.560907e-05	1.547436e-05
	-1.469659e-05	1.894096e-06	0.009874325	0.00940956	-6.560907e-05	1.547436e-05	0.03090898	0.004621966
1.4e+08	0.03229496	0.002608389	-6.124713e-05	2.349399e-05	0.01114887	0.009019788	-1.336536e-05	3.426879e-06
	-6.124713e-05	2.349399e-05	0.03180313	0.003080182	-0.000329103	0.0001287823	0.01092327	0.00926619
	0.01114887	0.009019788	-0.000329103	0.0001287823	0.03237224	0.002519195	-6.158559e-05	2.284044e-05
	-1.336536e-05	3.426879e-06	0.01092327	0.00926619	-6.158559e-05	2.284044e-05	0.03188716	0.00316879
1.5e+08	0.0331095	0.0009489165	-5.692375e-05	3.011288e-05	0.01216998	0.008699295	-1.211037e-05	4.667528e-06
	-5.692375e-05	3.011288e-05	0.03259322	0.001517663	-0.0003272587	0.0001296548	0.01193438	0.008992428
	0.01216998	0.008699296	-0.0003272587	0.0001296548	0.03318453	0.0008450847	-5.736317e-05	2.940959e-05
	-1.211037e-05	4.667528e-06	0.01193438	0.008992428	-5.736317e-05	2.940959e-05	0.0326771	0.001604532
1.6e+08	0.03372102	-0.0008056578	-5.231259e-05	3.604174e-05	0.01313244	0.00825122	-1.09125e-05	5.679159e-06
	-5.231259e-05	3.604174e-05	0.03318895	-0.0001336963	-0.0003245965	0.0001319945	0.01289123	0.008593997
	0.01313244	0.00825122	-0.0003245965	0.0001319945	0.03379137	-0.0009245141	-5.286744e-05	3.530179e-05
	-1.09125e-05	5.679159e-06	0.01289123	0.008593997	-5.286744e-05	3.530179e-05	0.03327181	-4.807943e-05
1.7e+08	0.03412283	-0.002631382	-4.738127e-05	4.132746e-05	0.01402026	0.007684038	-9.76206e-06	6.503198e-06
	-4.738127e-05	4.132746e-05	0.03358483	-0.001851118	-0.0003212621	0.0001352854	0.01377836	0.008078747
	0.01402026	0.007684038	-0.0003212621	0.0001352854	0.03418608	-0.002765274	-4.80642e-05	4.056696e-05
	-9.76206e-06	6.503198e-06	0.01377836	0.008078747	-4.80642e-05	4.056696e-05	0.03366594	-0.001766214
1.8e+08	0.03431029	-0.0045039	-4.212559e-05	4.5979e-05	0.01481872	0.007008237	-8.654107e-06	7.168923e-06
	-4.212559e-05	4.5979e-05	0.03377724	-0.003611642	-0.0003173883	0.0001391504	0.01458149	0.007456463
	0.01481872	0.007008237	-0.0003173883	0.0001391504	0.03436404	-0.004652492	-4.294679e-05	4.52168e-05
	-8.654107e-06	7.168923e-06	0.01458149	0.007456463	-4.294679e-05	4.52168e-05	0.03385596	-0.003526879
1.9e+08	0.03428108	-0.006398587	-3.656317e-05	4.998484e-05	0.01551461	0.006236117	-7.586235e-06	7.698195e-06
	-3.656317e-05	4.998484e-05	0.0337646	-0.005392205	-0.0003131099	0.0001433091	0.01528772	0.00673867
	0.01551461	0.006236117	-0.0003131099	0.0001433091	0.03432296	-0.006561201	-3.752982e-05	4.924214e-05
	-7.586235e-06	7.698195e-06	0.01528772	0.00673867	-3.752982e-05	4.924214e-05	0.03384039	-0.00530699
2e+08	0.03403526	-0.008290763	-3.072972e-05	5.332362e-05	0.01609639	0.005381567	-6.557475e-06	8.108057e-06
	-3.072972e-05	5.332362e-05	0.03354755	-0.007169815	-0.0003085677	0.0001475558	0.01588573	0.005938439
	0.01609639	0.005381567	-0.0003085677	0.0001475558	0.03406299	-0.008466382	-3.18455e-05	5.262342e-05
	-6.557475e-06	8.108057e-06	0.01588573	0.005938439	-3.18455e-05	5.262342e-05	0.03361993	-0.00708353
2.1e+08	0.03357545	-0.01015593	-2.46761e-05	5.597146e-05	0.0165544	0.00445984	-5.5677e-06	8.412274e-06
	-2.46761e-05	5.597146e-05	0.03312894	-0.008921746	-0.0003039084	0.0001517475	0.01636597	0.005070163
	0.0165544	0.00445984	-0.0003039084	0.0001517475	0.03358683	-0.0103432	-2.594081e-05	5.533795e-05
	-5.5677e-06	8.412274e-06	0.01636597	0.005070163	-2.594081e-05	5.533795e-05	0.03319752	-0.008833754
2.2e+08	0.03290678	-0.01197002	-1.846589e-05	5.790708e-05	0.016881	0.003487297	-4.617263e-06	8.622292e-06
	-1.846589e-05	5.790708e-05	0.03251395	-0.01062577	-0.0002992812	0.0001557955	0.01672077	0.004149327
	0.016881	0.003487297	-0.0002992812	0.0001557955	0.03289975	-0.01216726	-1.987519e-05	5.736491e-05
	-4.617263e-06	8.622292e-06	0.01672077	0.004149327	-1.987519e-05	5.736491e-05	0.03257838	-0.01053541
2.3e+08	0.03203694	-0.01370972	-1.217296e-05	5.911568e-05	0.0170707	0.002481147	-3.706772e-06	8.747877e-06
	-1.217296e-05	5.911568e-05	0.03171	-0.01226038	-0.000294833	0.0001596604	0.01694448	0.00319226
	0.0170707	0.002481147	-0.000294833	0.0001596604	0.03200963	-0.01391491	-1.371821e-05	5.868921e-05
	-3.706772e-06	8.747877e-06	0.01694448	0.00319226	-1.371821e-05	5.868921e-05	0.03177002	-0.01216696
2.4e+08	0.03097609	-0.01535269	-5.878307e-06	5.959194e-05	0.01712022	0.001459165	-2.836986e-06	8.797545e-06
	-5.878307e-06	5.959194e-05	0.03072672	-0.01380507	-0.0002907047	0.0001633479	0.01703354	0.002215876
	0.01712022	0.001459165	-0.0002907047	0.0001633479	0.03092686	-0.01556351	-7.546636e-06	5.930443e-05
	-2.836986e-06	8.797545e-06	0.01703354	0.002215876	-7.546636e-06	5.930443e-05	0.03078214	-0.01370787
2.5e+08	0.02973674	-0.0168779	3.321679e-07	5.934184e-05	0.01702857	0.0004394141	-2.008691e-06	8.778862e-06
	3.321679e-07	5.934184e-05	0.02957586	-0.01524054	-0.0002870241	0.0001669037	0.01698657	0.001237403
	0.01702857	0.0004394141	-0.0002870241	0.0001669037	0.02966425	-0.01709175	-1.442291e-06	5.921468e-05
	-2.008691e-06	8.778862e-06	0.01698657	0.001237403	-1.442291e-06	5.921468e-05	0.02962658	-0.01513882
2.6e+08	0.02833368	-0.01826584	6.370847e-06	5.838409e-05	0.01679707	-0.0005600518	-1.222656e-06	8.69867e-06
	6.370847e-06	5.838409e-05	0.02827118	-0.01654895	-0.0002839018	0.0001704098	0.01680436	0.0002741166
	0.01679707	-0.0005600517	-0.0002839018	0.0001704098	0.02823689	-0.01847988	4.510957e-06	5.843601e-05
	-1.222656e-06	8.69867e-06	0.01680436	0.0002741166	4.510957e-06	5.843601e-05	0.02831715	-0.01644194
2.7e+08	0.02678374	-0.01949881	1.215097e-05	5.67506e-05	0.01642932	-0.001521473	-4.795597e-07	8.563237e-06
	1.215097e-05	5.67506e-05	0.02682822	-0.0177141	-0.0002814246	0.0001739776	0.01648988	-0.0006569399
	0.01642932	-0.001521473	-0.0002814246	0.0001739776	0.02666198	-0.01970999	1.022963e-05	5.699703e-05
	-4.795597e-07	8.563237e-06	0.01648988	-0.0006569399	1.022963e-05	5.699703e-05	0.02686954	-0.01760104
2.8e+08	0.02510562	-0.02056113	1.758977e-05	5.448661e-05	0.01593115	-0.002427673	2.199949e-07	8.378392e-06
	1.758977e-05	5.448661e-05	0.02526422	-0.01872166	-0.0002796531	0.0001777457	0.01604821	-0.001539222
	0.01593115	-0.002427673	-0.0002796531	0.0001777457	0.02495863	-0.02076622	1.563363e-05	5.493903e-05
	2.199949e-07	8.378392e-06	0.01604821	-0.001539222	1.563363e-05	5.493903e-05	0.02530105	-0.0186018
2.9e+08	0.02331967	-0.02143932	2.261098e-05	5.164997e-05	0.01531053	-0.003262334	8.75556e-07	8.149601e-06
	2.261098e-05	5.164997e-05	0.02359782	-0.01955933	-0.0002786165	0.0001818715	0.0154865	-0.00235695
	0.01531053	-0.003262334	-0.0002786165	0.0001818715	0.02314761	-0.02163502	2.064864e-05	5.231544e-05
	8.75556e-07	8.149601e-06	0.0154865	-0.00235695	2.064864e-05	5.231544e-05	0.02363043	-0.01943192
3e+08	0.0214476	-0.02212234	2.714716e-05	4.831003e-05	0.01457745	-0.004010264	1.486853e-06	7.882029e-06
	2.714716e-05	4.831003e-05	0.02184887	-0.020217	-0.0002783098	0.0001865243	0.01481381	-0.003095357
	0.01457745	-0.004010264	-0.0002783098	0.0001865243	0.02125108	-0.02230529	2.520838e-05	4.919085e-05
	1.486853e-06	7.882029e-06	0.01481381	-0.003095357	2.520838e-05	4.919085e-05	0.02187763	-0.02008132
3.1e+08	0.01951224	-0.02260167	3.114217e-05	4.454606e-05	0.01374376	-0.004657647	2.053783e-06	7.580602e-06
	3.114217e-05	4.454606e-05	0.02003818	-0.02068683	-0.0002786926	0.0001918817	0.01404102	-0.00374093
	0.01374376	-0.004657647	-0.0002786926	0.0001918817	0.01929233	-0.02276851	2.925698e-05	4.563957e-05
	2.053783e-06	7.580602e-06	0.01404102	-0.00374093	2.925698e-05	4.563957e-05	0.02006358	-0.02054223
3.2e+08	0.01753721	-0.02287145	3.455274e-05	4.044521e-05	0.01282301	-0.005192264	2.57648e-06	7.250006e-06
	3.455274e-05	4.044521e-05	0.01818728	-0.02096341	-0.000279688	0.0001981196	0.01318063	-0.004281625
	0.01282301	-0.005192264	-0.000279688	0.0001981196	0.01729545	-0.02301893	3.275054e-05	4.174374e-05
	2.57648e-06	7.250006e-06	0.01318063	-0.004281625	3.275054e-05	4.174374e-05	0.01820987	-0.02080928
3.3e+08	0.01554665	-0.0229286	3.734983e-05	3.610021e-05	0.01183019	-0.005603702	3.055318e-06	6.894704e-06
	3.734983e-05	3.610021e-05	0.01631809	-0.02104377	-0.0002811829	0.0002054056	0.01224657	-0.004707061
	0.01183019	-0.005603702	-0.0002811829	0.0002054056	0.01528505	-0.02305358	3.565847e-05	3.759124e-05
	3.055318e-06	6.894704e-06	0.01224657	-0.004707061	3.565847e-05	3.759124e-05	0.01633852	-0.02087957
3.4e+08	0.0135649	-0.02277277	3.951977e-05	3.160675e-05	0.01078152	-0.005883523	3.490907e-06	6.51895e-06
	3.951977e-05	3.160675e-05	0.01445272	-0.02092743	-0.0002830295	0.0002138947	0.01125398	-0.005008691
	0.01078152	-0.005883523	-0.0002830295	0.0002138947	0.01328589	-0.02287236	3.796468e-05	3.327325e-05
	3.490907e-06	6.51895e-06	0.01125398	-0.005008691	3.796468e-05	3.327325e-05	0.01447172	-0.02075274
3.5e+08	0.01161614	-0.02240647	4.106441e-05	2.706085e-05	0.009694201	-0.006025412	3.884124e-06	6.126755e-06
	4.106441e-05	2.706085e-05	0.01261311	-0.02061642	-0.0002850481	0.0002237201	0.01021899	-0.005179942
	0.009694201	-0.006025412	-0.0002850481	0.0002237201	0.0113226	-0.02247801	3.966779e-05	2.88817e-05
	3.884124e-06	6.126755e-06	0.01021899	-0.005179942	3.966779e-05	2.88817e-05	0.01263147	-0.02043088
3.6e+08	0.009724129	-0.02183492	4.200122e-05	2.255601e-05	0.008586108	-0.006025283	4.236093e-06	5.72188e-06
	4.200122e-05	2.255601e-05	0.01082083	-0.02011521	-0.0002870304	0.0002349898	0.009158414	-0.005216323
	0.008586108	-0.006025283	-0.0002870304	0.0002349898	0.009419295	-0.02187612	4.078132e-05	2.450668e-05
	4.236093e-06	5.72188e-06	0.009158414	-0.005216323	4.078132e-05	2.450668e-05	0.01083937	-0.0199186
3.7e+08	0.00791183	-0.02106608	4.236251e-05	1.818056e-05	0.007475532	-0.005881352	4.548182e-06	5.307803e-06
	4.236251e-05	1.818056e-05	0.009096723	-0.0194307	-0.0002887443	0.0002477794	0.008089541	-0.005115502
	0.007475532	-0.005881352	-0.0002887443	0.0002477794	0.007599313	-0.02107502	4.133302e-05	2.023388e-05
	4.548182e-06	5.307803e-06	0.008089541	-0.005115502	4.133302e-05	2.023388e-05	0.00911633	-0.01922289
3.8e+08	0.006201148	-0.02011049	4.219437e-05	1.401516e-05	0.006380868	-0.005594178	4.821984e-06	4.887691e-06
	4.219437e-05	1.401516e-05	0.007460713	-0.01857207	-0.0002899397	0.0002621287	0.007029823	-0.004877346
	0.006380868	-0.005594178	-0.0002899397	0.0002621287	0.00588485	-0.02008569	4.136399e-05	1.614213e-05
	4.821984e-06	4.887691e-06	0.007029823	-0.004877346	4.136399e-05	1.614213e-05	0.007482267	-0.01835306
3.9e+08	0.004612614	-0.01898117	4.155511e-05	1.013036e-05	0.005320323	-0.005166655	5.059271e-06	4.464376e-06
	4.155511e-05	1.013036e-05	0.005931502	-0.01755068	-0.0002903537	0.0002780388	0.005996608	-0.004503931
	0.005320323	-0.005166655	-0.0002903537	0.0002780388	0.00429668	-0.01892162	4.092724e-05	1.23012e-05
	5.059271e-06	4.464376e-06	0.005996608	-0.004503931	4.092724e-05	1.23012e-05	0.005955889	-0.0173206
4e+08	0.003165101	-0.01769338	4.051322e-05	6.584753e-06	0.004311616	-0.004603978	5.261965e-06	4.040328e-06
	4.051322e-05	6.584753e-06	0.004526349	-0.01637995	-0.0002897186	0.0002954685	0.005006859	-0.003999512
	0.004311616	-0.004603978	-0.0002897186	0.0002954685	0.002853864	-0.01759861	4.00859e-05	8.769827e-06
	5.261965e-06	4.040328e-06	0.005006859	-0.003999512	4.00859e-05	8.769827e-06	0.004554437	-0.01613903
4.1e+08	0.00187559	-0.01626452	3.914509e-05	3.423286e-06	0.003371693	-0.003913564	5.432077e-06	3.617653e-06
	3.914509e-05	3.423286e-06	0.003260839	-0.01507513	-0.0002877675	0.000314335	0.004076882	-0.003370454
	0.003371693	-0.003913564	-0.0002877675	0.000314335	0.001573499	-0.01613459	3.891109e-05	5.59415e-06
	5.432077e-06	3.617653e-06	0.004076882	-0.003370454	3.891109e-05	5.59415e-06	0.003293465	-0.01482374
4.2e+08	0.0007589178	-0.01471378	3.753244e-05	6.761263e-07	0.002516444	-0.003104939	5.571653e-06	3.19808e-06
	3.753244e-05	6.761263e-07	0.002148691	-0.01365311	-0.0002842415	0.0003345132	0.003222062	-0.002625143
	0.002516444	-0.003104939	-0.0002842415	0.0003345132	0.0004704632	-0.01454934	3.747952e-05	2.806512e-06
	5.571653e-06	3.19808e-06	0.003222062	-0.002625143	3.747952e-05	2.806512e-06	0.002186638	-0.01339171
4.3e+08	-0.0001724215	-0.01306198	3.575951e-05	-1.64195e-06	0.001760448	-0.002189589	5.682717e-06	2.78297e-06
	3.575951e-05	-1.64195e-06	0.001201577	-0.01213222	-0.0002788973	0.0003558369	0.002456619	-0.001773845
	0.001760448	-0.002189589	-0.0002788973	0.0003558369	-0.0004427676	-0.01286424	3.587093e-05	4.247947e-07
	5.682717e-06	2.78297e-06	0.002456619	-0.001773845	3.587093e-05	4.247947e-07	0.001245568	-0.01186139
4.4e+08	-0.0009084362	-0.01133122	3.391026e-05	-3.531721e-06	0.001116728	-0.00118078	5.767208e-06	2.373328e-06
	3.391026e-05	-3.531721e-06	0.000428982	-0.01053194	-0.0002715136	0.0003781012	0.001793373	-0.0008285544
	0.001116728	-0.00118078	-0.0002715136	0.0003781012	-0.001156311	-0.01110197	3.416541e-05	-1.54784e-06
	5.767208e-06	2.373328e-06	0.001793373	-0.0008285544	3.416541e-05	-1.54784e-06	0.0004796557	-0.01025237
4.5e+08	-0.001441788	-0.009544591	3.206557e-05	-5.009099e-06	0.0005965365	-9.334767e-05	5.826923e-06	1.969846e-06
	3.206557e-05	-5.009099e-06	-0.0001619219	-0.008872686	-0.0002618978	0.0004010663	0.001243541	0.0001972042
	0.0005965365	-9.334767e-05	-0.0002618978	0.0004010663	-0.001663004	-0.009286202	3.244076e-05	-3.122665e-06
	5.826923e-06	1.969846e-06	0.001243541	0.0001972042	3.244076e-05	-3.122665e-06	-0.000104017	-0.00858512
4.6e+08	-0.001767875	-0.007725882	3.030049e-05	-6.104323e-06	0.0002091705	0.001056537	5.863439e-06	1.572922e-06
	3.030049e-05	-6.104323e-06	-0.0005663579	-0.007175499	-0.0002498894	0.0004244625	0.0008165526	0.001288583
	0.0002091705	0.001056537	-0.0002498894	0.0004244625	-0.001958505	-0.007441277	3.076998e-05	-4.324701e-06
	5.863439e-06	1.572922e-06	0.0008165526	0.001288583	3.076998e-05	-4.324701e-06	-0.0005007782	-0.006880774
4.7e+08	-0.001884892	-0.005899212	2.868179e-05	-6.860517e-06	-3.818696e-05	0.002251626	5.877884e-06	1.182543e-06
	2.868179e-05	-6.860517e-06	-0.0007820008	-0.005461786	-0.0002353689	0.0004479945	0.0005198972	0.002429652
	-3.818696e-05	0.002251626	-0.0002353689	0.0004479945	-0.002041354	-0.005591858	2.921866e-05	-5.191559e-06
	5.877884e-06	1.182543e-06	0.0005198972	0.002429652	2.921866e-05	-5.191559e-06	-0.0007083904	-0.005160768
