!$
! Info: Touchstone file created by Circ.  Input file=Tx_6in_Rx_93ohms_TxVia_35mils_RxVia_45mils.circ
!$
# Hz S RI R 50
0	0.005612241	9.110886e-26	-4.497434e-13	2.315468e-28	5.294308e-05	1.04937e-23	5.921118e-13	1.234626e-28
	-4.497452e-13	2.315469e-28	0.005608807	1.042212e-25	2.526166e-12	3.764768e-28	5.158082e-05	1.263117e-23
	5.346726e-05	1.063031e-23	2.526169e-12	3.764766e-28	0.005620461	8.893194e-26	4.581451e-13	2.466203e-28
	5.921116e-13	1.234627e-28	4.97336e-05	1.269351e-23	4.581453e-13	2.466206e-28	0.005621983	9.763592e-26
1e+07	0.00776067	-8.448097e-05	8.150662e-12	5.687331e-12	0.0001651999	0.001149046	1.012525e-11	1.079029e-11
	8.150663e-12	5.687331e-12	0.008212936	-0.0001458813	9.016709e-12	5.030842e-12	0.0001684331	0.001239258
	0.0001652237	0.001149047	9.016708e-12	5.030842e-12	0.008344808	0.0002166604	7.476435e-12	5.284873e-12
	1.012525e-11	1.079029e-11	0.0001683731	0.001239268	7.476434e-12	5.284873e-12	0.008060146	-0.0001492196
2e+07	0.009488387	-0.002011229	1.117971e-11	5.981041e-12	0.000424097	0.002316814	9.885131e-12	1.989927e-11
	1.117971e-11	5.981041e-12	0.00977182	-0.002277311	1.120958e-11	5.960325e-12	0.0003601314	0.002481339
	0.0004241049	0.002316799	1.120958e-11	5.960324e-12	0.01025739	-0.00173532	9.367822e-12	5.794499e-12
	9.885131e-12	1.989927e-11	0.0003601231	0.002481374	9.367822e-12	5.794499e-12	0.009654714	-0.002225065
3e+07	0.01037403	-0.004807418	1.159305e-11	4.168083e-12	0.0008194088	0.003438215	9.170959e-12	2.734971e-11
	1.159306e-11	4.168083e-12	0.01050979	-0.005132889	1.288079e-11	4.985869e-12	0.0007392861	0.003635181
	0.0008194088	0.003438212	1.288079e-11	4.985868e-12	0.01128266	-0.004590568	9.15935e-12	4.025804e-12
	9.170959e-12	2.734971e-11	0.0007392861	0.003635186	9.15935e-12	4.025804e-12	0.0104191	-0.005066268
4e+07	0.01063052	-0.007890496	8.942428e-12	1.268616e-12	0.001346817	0.004497648	6.225846e-12	3.451821e-11
	8.942427e-12	1.268615e-12	0.01062636	-0.008229402	1.260913e-11	3.016824e-12	0.001281565	0.004709099
	0.001346819	0.004497649	1.260913e-11	3.016824e-12	0.01164839	-0.007761394	5.24007e-12	1.063697e-12
	6.225846e-12	3.451821e-11	0.00128156	0.004709097	5.24007e-12	1.063698e-12	0.01055636	-0.008159121
5e+07	0.01033821	-0.0110821	2.852946e-12	-1.653575e-12	0.001997368	0.005478293	1.014944e-12	4.22833e-11
	2.852945e-12	-1.653575e-12	0.01019913	-0.01140264	1.005394e-11	6.129145e-13	0.001940862	0.005697372
	0.00199737	0.005478294	1.005394e-11	6.129145e-13	0.01143961	-0.01106202	-2.590047e-12	-1.602192e-12
	1.014945e-12	4.22833e-11	0.001940859	0.005697371	-2.590047e-12	-1.602191e-12	0.01014491	-0.0113345
6e+07	0.009545317	-0.01427264	-6.815321e-12	-3.516821e-12	0.002759678	0.00636512	-6.276437e-12	5.136418e-11
	-6.81532e-12	-3.516821e-12	0.009276615	-0.0145481	5.26937e-12	-1.795509e-12	0.002706163	0.006587876
	0.002759675	0.00636512	5.26937e-12	-1.795509e-12	0.01070609	-0.01437801	-1.425237e-11	-2.844506e-12
	-6.276437e-12	5.136418e-11	0.002706166	0.006587875	-1.425237e-11	-2.844507e-12	0.009233619	-0.0144858
7e+07	0.008290578	-0.01737985	-2.000843e-11	-3.223919e-12	0.003620609	0.007144991	-1.534795e-11	6.238487e-11
	-2.000842e-11	-3.223917e-12	0.007898988	-0.01758601	-1.947226e-12	-3.54071e-12	0.00356453	0.007369085
	0.003620603	0.007144992	-1.947227e-12	-3.54071e-12	0.009486799	-0.01762384	-2.954111e-11	-1.534754e-12
	-1.534795e-11	6.238487e-11	0.003564538	0.007369081	-2.954111e-11	-1.534756e-12	0.007862781	-0.01753202
8e+07	0.006610906	-0.02033621	-3.650684e-11	3.87585e-13	0.004565644	0.007806899	-2.573422e-11	7.578169e-11
	-3.650682e-11	3.875886e-13	0.006105307	-0.02044991	-1.16148e-11	-3.943788e-12	0.004501422	0.008030762
	0.004565637	0.007806902	-1.16148e-11	-3.943788e-12	0.007817856	-0.02073002	-4.800999e-11	3.397497e-12
	-2.573422e-11	7.578169e-11	0.004501432	0.008030756	-4.800999e-11	3.397495e-12	0.00607144	-0.0204059
9e+07	0.004544763	-0.02308375	-5.597926e-11	8.703812e-12	0.005579503	0.008342628	-3.658224e-11	9.091737e-11
	-5.597925e-11	8.703816e-12	0.00393731	-0.02308145	-2.278811e-11	-2.924034e-12	0.005500953	0.008564355
	0.005579498	0.008342631	-2.278811e-11	-2.924034e-12	0.005735157	-0.02363894	-6.867422e-11	1.24465e-11
	-3.658224e-11	9.091737e-11	0.00550096	0.008564349	-6.867422e-11	1.244649e-11	0.003901153	-0.02304863
1e+08	0.00213607	-0.02556883	-7.859126e-11	2.488111e-11	0.00664995	0.008752067	-4.812176e-11	1.093153e-10
	-7.859126e-11	2.488111e-11	0.001448673	-0.02541844	-3.703596e-11	1.003334e-12	0.006546174	0.008963023
	0.00664995	0.008752066	-3.703596e-11	1.003334e-12	0.003268322	-0.02631227	-9.185228e-11	2.877262e-11
	-4.812176e-11	1.093153e-10	0.006546174	0.008963023	-9.185228e-11	2.877262e-11	0.001404163	-0.02539933
1.1e+08	-0.0005579476	-0.02778084	-9.191656e-11	4.877022e-11	0.00772451	0.009036711	-5.515561e-11	1.311345e-10
	-9.191656e-11	4.877022e-11	-0.001275472	-0.02749961	-4.552406e-11	1.120232e-11	0.007617735	0.009223523
	0.00772451	0.009036711	-4.552406e-11	1.120232e-11	0.0004298165	-0.02864792	-1.058518e-10	5.311635e-11
	-5.515561e-11	1.311345e-10	0.007617735	0.009223523	-1.058518e-10	5.311635e-11	-0.001337992	-0.02748613
1.2e+08	-0.0035247	-0.0296679	-1.009131e-10	6.725568e-11	0.008805855	0.009164874	-6.055994e-11	1.533546e-10
	-1.009131e-10	6.725568e-11	-0.004277141	-0.02926427	-5.173051e-11	1.863618e-11	0.008699548	0.009344434
	0.008805855	0.009164873	-5.173051e-11	1.863618e-11	-0.002664783	-0.03061329	-1.158569e-10	7.261925e-11
	-6.055994e-11	1.533546e-10	0.008699548	0.009344434	-1.158569e-10	7.261925e-11	-0.004357239	-0.02925081
1.3e+08	-0.006711674	-0.03119525	-1.071589e-10	8.054983e-11	0.009879749	0.009145065	-6.461921e-11	1.735156e-10
	-1.071589e-10	8.054983e-11	-0.00749556	-0.03066566	-5.577097e-11	2.271409e-11	0.009773601	0.009325662
	0.009879749	0.009145065	-5.577097e-11	2.271409e-11	-0.00597421	-0.03219633	-1.235878e-10	8.832113e-11
	-6.461921e-11	1.735156e-10	0.009773601	0.009325662	-1.235878e-10	8.832113e-11	-0.007593753	-0.03064857
1.4e+08	-0.01006772	-0.03233953	-1.128008e-10	9.550915e-11	0.01092825	0.008981752	-6.785734e-11	1.948671e-10
	-1.128008e-10	9.550915e-11	-0.01087647	-0.03167828	-6.015784e-11	2.762212e-11	0.01082205	0.009169715
	0.01092825	0.008981752	-6.015784e-11	2.762212e-11	-0.009448765	-0.033379	-1.305587e-10	1.060551e-10
	-6.785734e-11	1.948671e-10	0.01082205	0.009169715	-1.305587e-10	1.060551e-10	-0.01099304	-0.03165415
1.5e+08	-0.01354127	-0.0330847	-1.17612e-10	1.121066e-10	0.01193349	0.008680784	-7.002337e-11	2.174811e-10
	-1.17612e-10	1.121066e-10	-0.01436598	-0.03228576	-6.488166e-11	3.344768e-11	0.01182758	0.008881408
	0.01193349	0.008680784	-6.488166e-11	3.344768e-11	-0.01303705	-0.03414805	-1.363038e-10	1.253785e-10
	-7.002337e-11	2.174811e-10	0.01182758	0.008881408	-1.363038e-10	1.253785e-10	-0.01450076	-0.03225129
1.6e+08	-0.01708059	-0.03342143	-1.21329e-10	1.30158e-10	0.01287835	0.008249908	-7.091354e-11	2.412486e-10
	-1.21329e-10	1.30158e-10	-0.0179104	-0.03247936	-6.981431e-11	4.017681e-11	0.01277367	0.008467738
	0.01287835	0.008249908	-6.981431e-11	4.017681e-11	-0.01668712	-0.034496	-1.407433e-10	1.463663e-10
	-7.091354e-11	2.412486e-10	0.01277367	0.008467738	-1.407433e-10	1.463663e-10	-0.01806281	-0.03243142
1.7e+08	-0.02063431	-0.03334684	-1.237233e-10	1.494779e-10	0.01374677	0.007698825	-7.033289e-11	2.65988e-10
	-1.237233e-10	1.494779e-10	-0.02145676	-0.03225735	-7.485429e-11	4.78084e-11	0.01364491	0.007937737
	0.01374677	0.007698825	-7.485429e-11	4.78084e-11	-0.02034724	-0.03442137	-1.436179e-10	1.688007e-10
	-7.033289e-11	2.65988e-10	0.01364491	0.007937737	-1.436179e-10	1.688007e-10	-0.02162574	-0.03219299
1.8e+08	-0.02415193	-0.03286421	-1.245947e-10	1.698684e-10	0.01452408	0.00703909	-6.811324e-11	2.914996e-10
	-1.245947e-10	1.698684e-10	-0.02495323	-0.03162455	-7.990357e-11	5.634796e-11	0.01442722	0.007302301
	0.01452408	0.00703909	-7.990357e-11	5.634796e-11	-0.02396651	-0.03392859	-1.447013e-10	1.924493e-10
	-6.811324e-11	2.914996e-10	0.01442722	0.007302301	-1.447013e-10	1.924493e-10	-0.02513735	-0.03154108
1.9e+08	-0.02758438	-0.03198275	-1.237712e-10	1.911153e-10	0.0151972	0.006284003	-6.41145e-11	3.175655e-10
	-1.237712e-10	1.911153e-10	-0.02834978	-0.03059201	-8.486275e-11	6.580152e-11	0.01510806	0.006573994
	0.0151972	0.006284003	-8.486275e-11	6.580152e-11	-0.02749546	-0.03302788	-1.437994e-10	2.170603e-10
	-6.41145e-11	3.175655e-10	0.01510806	0.006573994	-1.437994e-10	2.170603e-10	-0.02854724	-0.03048702
2e+08	-0.03088537	-0.03071721	-1.211065e-10	2.12984e-10	0.01576623	0.0054223	-5.822728e-11	3.439434e-10
	-1.211065e-10	2.12984e-10	-0.03159869	-0.02917662	-8.962324e-11	7.616853e-11	0.01567664	0.005766826
	0.01576623	0.0054223	-8.962324e-11	7.616853e-11	-0.03088746	-0.03173492	-1.40754e-10	2.423578e-10
	-5.822728e-11	3.439434e-10	0.01567664	0.005766826	-1.40754e-10	2.423578e-10	-0.03180742	-0.02904804
2.1e+08	-0.03400967	-0.02908773	-1.164901e-10	2.352296e-10	0.01620763	0.004495077	-5.037447e-11	3.703912e-10
	-1.164901e-10	2.352296e-10	-0.03465515	-0.02740078	-9.408233e-11	8.744704e-11	0.01612407	0.004896013
	0.01620763	0.004495077	-9.408233e-11	8.744704e-11	-0.03409693	-0.03007069	-1.354378e-10	2.680567e-10
	-5.037447e-11	3.703912e-10	0.01612407	0.004896013	-1.354378e-10	2.680567e-10	-0.03487282	-0.02724685
2.2e+08	-0.03691577	-0.02711944	-1.098406e-10	2.575924e-10	0.01651381	0.003521182	-4.051016e-11	3.966509e-10
	-1.098406e-10	2.575924e-10	-0.03747779	-0.02529189	-9.812737e-11	9.962405e-11	0.01644349	0.003977725
	0.01651381	0.003521182	-9.812737e-11	9.962405e-11	-0.03708207	-0.02806113	-1.277624e-10	2.938527e-10
	-4.051016e-11	3.966509e-10	0.01644349	0.003977725	-1.277624e-10	2.938527e-10	-0.03770189	-0.02511123
2.3e+08	-0.03956576	-0.02484202	-1.011096e-10	2.798024e-10	0.01668025	0.002518547	-2.862399e-11	4.224567e-10
	-1.011096e-10	2.798024e-10	-0.04002914	-0.02288193	-1.016409e-10	1.126746e-10	0.01663014	0.003028816
	0.01668025	0.002518547	-1.016409e-10	1.126746e-10	-0.03980473	-0.02573668	-1.176786e-10	3.194304e-10
	-2.862399e-11	4.224567e-10	0.01663014	0.003028816	-1.176786e-10	3.194304e-10	-0.04025701	-0.02267352
2.4e+08	-0.04192578	-0.02228923	-9.028392e-11	3.015828e-10	0.01670471	0.001505475	-1.474171e-11	4.475406e-10
	-9.028392e-11	3.015828e-10	-0.04227613	-0.02020692	-1.045025e-10	1.265595e-10	0.01668148	0.002066555
	0.01670471	0.001505475	-1.045025e-10	1.265595e-10	-0.04223083	-0.02313187	-1.051781e-10	3.444667e-10
	-1.474171e-11	4.475406e-10	0.01668148	0.002066555	-1.051781e-10	3.444667e-10	-0.04250502	-0.01997011
2.5e+08	-0.04396638	-0.0194984	-7.738527e-11	3.226539e-10	0.01658732	0.0005003512	1.07489e-12	4.716367e-10
	-7.738527e-11	3.226539e-10	-0.04419046	-0.01730636	-1.065905e-10	1.412231e-10	0.01659712	0.001108347
	0.01658732	0.0005003512	-1.065905e-10	1.412231e-10	-0.04433077	-0.02028472	-9.029445e-11	3.686362e-10
	1.07489e-12	4.716367e-10	0.01659712	0.001108347	-9.029445e-11	3.686362e-10	-0.04441755	-0.01704087
2.6e+08	-0.04566288	-0.01650986	-6.248236e-11	3.42812e-10	0.0163305	-0.0004786474	1.87285e-11	4.944851e-10
	-6.248236e-11	3.42812e-10	-0.04574894	-0.01422261	-1.078777e-10	1.566426e-10	0.01637891	0.0001714616
	0.0163305	-0.0004786474	-1.078777e-10	1.566426e-10	-0.04607973	-0.0172363	-7.310184e-11	3.916128e-10
	1.87285e-11	4.944851e-10	0.01637891	0.0001714616	-7.310184e-11	3.916128e-10	-0.04597138	-0.01392856
2.7e+08	-0.04699563	-0.0133664	-4.563968e-11	3.61725e-10	0.01593897	-0.001413838	3.808538e-11	5.158387e-10
	-4.563968e-11	3.61725e-10	-0.04693368	-0.01100032	-1.081543e-10	1.726949e-10	0.01603082	-0.0007272383
	0.01593897	-0.001413838	-1.081543e-10	1.726949e-10	-0.04745799	-0.01403008	-5.372121e-11	4.130832e-10
	3.808538e-11	5.158387e-10	0.01603082	-0.0007272383	-5.372121e-11	4.130832e-10	-0.04714869	-0.01067817
2.8e+08	-0.04795028	-0.01011262	-2.698246e-11	3.791138e-10	0.01541961	-0.00228831	5.897847e-11	5.354663e-10
	-2.698246e-11	3.791138e-10	-0.04773237	-0.007685689	-1.072931e-10	1.892569e-10	0.0155589	-0.001571557
	0.01541961	-0.002288311	-1.072931e-10	1.892569e-10	-0.04845116	-0.01071132	-3.231378e-11	4.327454e-10
	5.897847e-11	5.354663e-10	0.0155589	-0.001571557	-3.231378e-11	4.327454e-10	-0.04793725	-0.007336297
2.9e+08	-0.04851786	-0.006794313	-6.674756e-12	3.94725e-10	0.01478138	-0.003086188	8.120915e-11	5.531574e-10
	-6.674756e-12	3.94725e-10	-0.04813836	-0.004325891	-1.05196e-10	2.061935e-10	0.01497119	-0.002346213
	0.01478138	-0.003086188	-1.05196e-10	2.061935e-10	-0.04905028	-0.007326509	-9.080892e-12	4.503158e-10
	8.120915e-11	5.531574e-10	0.01497119	-0.002346213	-9.080892e-12	4.503158e-10	-0.04833053	-0.003950443
3e+08	-0.04869491	-0.003457859	1.508521e-11	4.083237e-10	0.01403517	-0.003792868	1.045498e-10	5.687257e-10
	1.508521e-11	4.083237e-10	-0.0481507	-0.0009683372	-1.017805e-10	2.233508e-10	0.01427756	-0.003037072
	0.01403517	-0.003792868	-1.017805e-10	2.233508e-10	-0.04925194	-0.003922656	1.573769e-11	4.655337e-10
	1.045498e-10	5.687257e-10	0.01427756	-0.003037072	1.573769e-11	4.655337e-10	-0.04832776	-0.0005683555
3.1e+08	-0.04848343	-0.0001495411	3.806675e-11	4.196982e-10	0.01319359	-0.004395258	1.28747e-10	5.820142e-10
	3.806675e-11	4.196982e-10	-0.0477741	0.002339975	-9.698445e-11	2.405583e-10	0.01348955	-0.003631366
	0.01319359	-0.004395258	-9.698445e-11	2.405583e-10	-0.04905824	-0.0005466847	4.186613e-11	4.781678e-10
	1.28747e-10	5.820142e-10	0.01348955	-0.003631366	4.186613e-11	4.781678e-10	-0.04793385	0.002762657
3.2e+08	-0.04789088	0.003085055	6.200954e-11	4.28664e-10	0.01227082	-0.004881964	1.535248e-10	5.928974e-10
	6.200954e-11	4.28664e-10	-0.04701883	0.005553111	-9.076865e-11	2.576319e-10	0.01262022	-0.004117878
	0.01227082	-0.004881964	-9.076865e-11	2.576319e-10	-0.04847679	0.002755206	6.899624e-11	4.880199e-10
	1.535248e-10	5.928974e-10	0.01262022	-0.004117878	6.899624e-11	4.880199e-10	-0.04715932	0.005996379
3.3e+08	-0.04692999	0.006201675	8.662675e-11	4.350677e-10	0.01128233	-0.005243477	1.785895e-10	6.012848e-10
	8.662675e-11	4.350677e-10	-0.04590052	0.008626846	-8.312022e-11	2.743766e-10	0.01168391	-0.004487122
	0.01128233	-0.005243477	-8.312022e-11	2.743766e-10	-0.04752051	0.005938161	9.679137e-11	4.949298e-10
	1.785895e-10	6.012848e-10	0.01168391	-0.004487122	9.679137e-11	4.949298e-10	-0.04602008	0.009088333
3.4e+08	-0.04561858	0.009157995	1.116088e-10	4.387915e-10	0.0102447	-0.005472316	2.036335e-10	6.071236e-10
	1.116088e-10	4.387915e-10	-0.04443991	0.01151929	-7.40552e-11	2.905916e-10	0.01069604	-0.004731483
	0.0102447	-0.005472316	-7.40552e-11	2.905916e-10	-0.04620743	0.00895929	1.24891e-10	4.987793e-10
	2.036335e-10	6.071236e-10	0.01069604	-0.004731483	1.24891e-10	4.987793e-10	-0.0445372	0.01199641
3.5e+08	-0.04397928	0.01191419	1.366276e-10	4.397556e-10	0.009175299	-0.005563148	2.283405e-10	6.103999e-10
	1.366276e-10	4.397556e-10	-0.04266252	0.01419143	-6.361988e-11	3.060743e-10	0.009672859	-0.004845335
	0.009175299	-0.005563148	-6.361988e-11	3.060743e-10	-0.04456048	0.01177822	1.529162e-10	4.994952e-10
	2.283405e-10	6.103999e-10	0.009672859	-0.004845335	1.529162e-10	4.994952e-10	-0.04273652	0.01468145
3.6e+08	-0.04203918	0.01443348	1.613414e-10	4.379214e-10	0.008092065	-0.005512875	2.523902e-10	6.111406e-10
	1.613414e-10	4.379214e-10	-0.04059827	0.01660771	-5.189176e-11	3.206261e-10	0.008631215	-0.004825131
	0.008092065	-0.005512875	-5.189176e-11	3.206261e-10	-0.04260706	0.01435765	1.804748e-10	4.970529e-10
	2.523902e-10	6.111406e-10	0.008631215	-0.004825131	1.804748e-10	4.970529e-10	-0.04064834	0.01710773
3.7e+08	-0.03982949	0.0166826	1.854e-10	4.332937e-10	0.007013195	-0.005320686	2.75464e-10	6.094135e-10
	1.854e-10	4.332937e-10	-0.03828102	0.01873648	-3.897921e-11	3.34057e-10	0.007588273	-0.004669461
	0.007013195	-0.005320686	-3.897921e-11	3.34057e-10	-0.04037874	0.01666384	2.071684e-10	4.914775e-10
	2.75464e-10	6.094135e-10	0.007588273	-0.004669461	2.071684e-10	4.914775e-10	-0.03830689	0.01924356
3.8e+08	-0.03738501	0.01863228	2.084498e-10	4.259216e-10	0.005956868	-0.004988076	2.972497e-10	6.053274e-10
	2.084498e-10	4.259216e-10	-0.03574808	0.02055045	-2.50203e-11	3.46191e-10	0.00656126	-0.004379083
	0.005956868	-0.004988076	-2.50203e-11	3.46191e-10	-0.03791072	0.01866706	2.325978e-10	4.828455e-10
	2.972497e-10	6.053274e-10	0.00656126	-0.004379083	2.325978e-10	4.828455e-10	-0.03574986	0.02106158
3.9e+08	-0.03474372	0.02025759	2.301403e-10	4.159001e-10	0.004940961	-0.004518834	3.174471e-10	5.990314e-10
	2.301403e-10	4.159001e-10	-0.03303966	0.02202704	-1.018059e-11	3.568714e-10	0.005567196	-0.003956911
	0.004940961	-0.004518834	-1.018059e-11	3.568714e-10	-0.03524141	0.02034199	2.563705e-10	4.712853e-10
	3.174471e-10	5.990314e-10	0.005567196	-0.003956911	2.563705e-10	4.712853e-10	-0.03301788	0.02253925
4e+08	-0.03194618	0.02153834	2.50129e-10	4.033695e-10	0.00398276	-0.003918994	3.357731e-10	5.907134e-10
	2.50129e-10	4.033695e-10	-0.03019829	0.02314868	5.34996e-12	3.659653e-10	0.004622629	-0.003407987
	0.00398276	-0.003918994	5.34996e-12	3.659653e-10	-0.03241186	0.02166805	2.781069e-10	4.569767e-10
	3.357731e-10	5.907134e-10	0.004622629	-0.003407987	2.781069e-10	4.569767e-10	-0.03015385	0.02365907
4.1e+08	-0.02903501	0.02245928	2.680885e-10	3.885155e-10	0.003098686	-0.003196747	3.519666e-10	5.80598e-10
	2.680885e-10	3.885155e-10	-0.02726819	0.02390307	2.136097e-11	3.733672e-10	0.00374337	-0.002739406
	0.003098686	-0.003196747	2.136097e-11	3.733672e-10	-0.02946517	0.02262969	2.974479e-10	4.401494e-10
	3.519666e-10	5.80598e-10	0.00374337	-0.002739406	2.974479e-10	4.401494e-10	-0.02720238	0.02440885
4.2e+08	-0.02605424	0.02301032	2.837116e-10	3.715668e-10	0.002304027	-0.002362325	3.657933e-10	5.68944e-10
	2.837116e-10	3.715668e-10	-0.02429466	0.0242833	3.762628e-11	3.790026e-10	0.002944241	-0.001960219
	0.002304027	-0.002362325	3.762628e-11	3.790026e-10	-0.0264459	0.02321655	3.140607e-10	4.210809e-10
	3.657933e-10	5.68944e-10	0.002944241	-0.001960219	3.140607e-10	4.210809e-10	-0.02420913	0.02478187
4.3e+08	-0.02304874	0.02318669	2.967179e-10	3.527936e-10	0.001612685	-0.001427853	3.770498e-10	5.560409e-10
	2.967179e-10	3.527936e-10	-0.02132339	0.02428796	5.390903e-11	3.828301e-10	0.002238836	-0.001081298
	0.001612685	-0.001427853	5.390903e-11	3.828301e-10	-0.02339947	0.02342365	3.276459e-10	4.000933e-10
	3.770498e-10	5.560409e-10	0.002238836	-0.001081298	3.276459e-10	4.000933e-10	-0.02122015	0.02477693
4.4e+08	-0.02006355	0.02298897	3.068587e-10	3.325039e-10	0.001036945	-0.000407162	3.85568e-10	5.422052e-10
	3.068587e-10	3.325039e-10	-0.01839985	0.02392113	6.996712e-11	3.848426e-10	0.001639297	-0.0001151788
	0.001036945	-0.000407162	6.996712e-11	3.848426e-10	-0.02037148	0.02325139	3.379432e-10	3.775488e-10
	3.85568e-10	5.422052e-10	0.001639297	-0.0001151788	3.379432e-10	3.775488e-10	-0.0182812	0.02439836
4.5e+08	-0.01714329	0.02242305	3.139225e-10	3.110398e-10	0.0005872624	0.000684417	3.912179e-10	5.277759e-10
	3.139225e-10	3.110398e-10	-0.01556858	0.0231923	8.555866e-11	3.850679e-10	0.001156108	0.0009241338
	0.0005872624	0.000684417	8.555866e-11	3.850679e-10	-0.01740713	0.02270558	3.44737e-10	3.538454e-10
	3.912179e-10	5.277759e-10	0.001156108	0.0009241338	3.44737e-10	3.538454e-10	-0.01543712	0.02365597
4.6e+08	-0.01433147	0.02150009	3.177402e-10	2.887721e-10	0.0002720808	0.001830293	3.939092e-10	5.131107e-10
	3.177402e-10	2.887721e-10	-0.0128726	0.02211622	1.004503e-10	3.835441e-10	0.0007979174	0.002021376
	0.0002720808	0.001830293	1.004503e-10	3.835441e-10	-0.0145505	0.02179732	3.478859e-10	3.293681e-10
	3.939092e-10	5.131107e-10	0.0007979174	0.002021376	3.478859e-10	3.293681e-10	-0.01273114	0.02256488
4.7e+08	-0.01166995	0.02023631	3.181879e-10	2.660957e-10	9.76781e-05	0.003012876	3.935975e-10	4.985808e-10
	3.181879e-10	2.660957e-10	-0.01035276	0.0207127	1.144044e-10	3.803192e-10	0.000571384	0.003160267
	9.76781e-05	0.003012876	1.144044e-10	3.803192e-10	-0.01184403	0.02054287	3.472916e-10	3.044942e-10
	3.935975e-10	4.985808e-10	0.000571384	0.003160267	3.472916e-10	3.044942e-10	-0.01020433	0.02114522
