!$
! Info: Touchstone file created by Circ.  Input file=Tx_6in_Rx_93ohms_TxVia_35mils_RxVia_45mils.circ
!$
# Hz S RI R 50
0	0.005610984	8.933872e-26	7.686243e-10	5.337622e-28	5.222121e-05	1.046286e-23	2.558528e-09	2.240333e-28
	7.686251e-10	5.336458e-28	0.005608807	1.042212e-25	4.058973e-10	7.77812e-28	5.158082e-05	1.263117e-23
	5.273093e-05	1.060916e-23	4.05897e-10	7.778494e-28	0.005623322	8.681652e-26	7.888888e-10	5.16015e-28
	2.558528e-09	2.240222e-28	4.97336e-05	1.269351e-23	7.888892e-10	5.159774e-28	0.005621983	9.763592e-26
1e+07	0.008329527	0.0002208771	1.085882e-09	1.359501e-09	0.0001646639	0.001141984	4.521844e-09	6.539072e-09
	1.085882e-09	1.359501e-09	0.008212936	-0.0001458813	6.111286e-10	8.223497e-10	0.0001684331	0.001239258
	0.0001646936	0.001141979	6.111286e-10	8.223497e-10	0.00777577	-9.28127e-05	1.135314e-09	1.425248e-09
	4.521844e-09	6.539072e-09	0.0001683731	0.001239268	1.135314e-09	1.425248e-09	0.008060146	-0.0001492196
2e+07	0.01024012	-0.001724958	1.712169e-09	2.273449e-09	0.0004292516	0.00230427	7.728625e-09	1.082375e-08
	1.712169e-09	2.273449e-09	0.00977182	-0.002277311	8.491941e-10	1.405218e-09	0.0003601314	0.002481339
	0.0004292528	0.002304248	8.491941e-10	1.405218e-09	0.009504089	-0.002029348	1.813322e-09	2.36653e-09
	7.728625e-09	1.082375e-08	0.0003601231	0.002481374	1.813321e-09	2.36653e-09	0.009654714	-0.002225065
3e+07	0.011264	-0.004572864	2.455201e-09	3.016634e-09	0.0008286481	0.003423502	1.159993e-08	1.42914e-08
	2.455201e-09	3.016634e-09	0.01050979	-0.005132889	1.074026e-09	1.932599e-09	0.0007392861	0.003635181
	0.0008286419	0.0034235	1.074026e-09	1.932599e-09	0.01038996	-0.004835864	2.612871e-09	3.124032e-09
	1.159993e-08	1.42914e-08	0.0007392861	0.003635186	2.612871e-09	3.124032e-09	0.0104191	-0.005066268
4e+07	0.01162897	-0.007735473	3.341339e-09	3.577117e-09	0.001359349	0.004481654	1.624948e-08	1.684486e-08
	3.341339e-09	3.577117e-09	0.01062636	-0.008229402	1.3153e-09	2.411709e-09	0.001281565	0.004709099
	0.00135935	0.004481658	1.3153e-09	2.411709e-09	0.01064615	-0.007929912	3.566832e-09	3.686183e-09
	1.624948e-08	1.684486e-08	0.00128156	0.004709097	3.566833e-09	3.686183e-09	0.01055636	-0.008159121
5e+07	0.01142024	-0.01102712	4.342837e-09	3.932841e-09	0.002012742	0.005461457	2.153015e-08	1.835489e-08
	4.342837e-09	3.932841e-09	0.01019913	-0.01140264	1.569632e-09	2.839082e-09	0.001940862	0.005697372
	0.002012745	0.005461458	1.569632e-09	2.839082e-09	0.01035276	-0.01113311	4.645092e-09	4.028576e-09
	2.153015e-08	1.835489e-08	0.001940859	0.005697371	4.645092e-09	4.028576e-09	0.01014491	-0.0113345
6e+07	0.0106878	-0.01433351	5.430295e-09	4.066502e-09	0.002777624	0.006347714	2.726981e-08	1.873276e-08
	5.430295e-09	4.066502e-09	0.009276615	-0.0145481	1.83812e-09	3.210325e-09	0.002706163	0.006587876
	0.002777622	0.006347713	1.83812e-09	3.210325e-09	0.009557821	-0.01433575	5.811021e-09	4.13677e-09
	2.726981e-08	1.873276e-08	0.002706166	0.006587875	5.811021e-09	4.13677e-09	0.009233619	-0.0144858
7e+07	0.009470768	-0.01756927	6.565828e-09	3.970939e-09	0.003640983	0.007127228	3.328049e-08	1.792259e-08
	6.565828e-09	3.970939e-09	0.007898988	-0.01758601	2.107532e-09	3.529169e-09	0.00356453	0.007369085
	0.003640977	0.007127228	2.107532e-09	3.529169e-09	0.008299871	-0.01745546	7.028212e-09	4.000357e-09
	3.328049e-08	1.792259e-08	0.003564538	0.007369081	7.028212e-09	4.000357e-09	0.007862781	-0.01753202
8e+07	0.007805424	-0.02066511	7.714607e-09	3.638496e-09	0.004588419	0.007788991	3.93718e-08	1.588058e-08
	7.714606e-09	3.638496e-09	0.006105307	-0.02044991	2.371301e-09	3.796194e-09	0.004501422	0.008030762
	0.004588411	0.007788993	2.371301e-09	3.796194e-09	0.006615686	-0.02042454	8.259306e-09	3.611413e-09
	3.93718e-08	1.588058e-08	0.004501432	0.008030756	8.259306e-09	3.611413e-09	0.00607144	-0.0204059
9e+07	0.005727772	-0.02356363	8.840506e-09	3.064224e-09	0.005604804	0.008324866	4.534276e-08	1.258414e-08
	8.840505e-09	3.064224e-09	0.00393731	-0.02308145	2.622584e-09	4.012131e-09	0.005500953	0.008564355
	0.005604798	0.008324869	2.622584e-09	4.012131e-09	0.004543626	-0.0231848	9.465477e-09	2.965155e-09
	4.534276e-08	1.258414e-08	0.00550096	0.008564349	9.465477e-09	2.965155e-09	0.003901153	-0.02304863
1e+08	0.003267588	-0.02622664	9.91053e-09	2.243108e-09	0.006678432	0.008735374	5.098579e-08	8.033894e-09
	9.91053e-09	2.243108e-09	0.001448673	-0.02541844	2.854672e-09	4.177906e-09	0.006546174	0.008963023
	0.006678432	0.008735374	2.854672e-09	4.177906e-09	0.002127557	-0.0256824	1.061023e-08	2.058208e-09
	5.098579e-08	8.033894e-09	0.006546174	0.008963023	1.061023e-08	2.058208e-09	0.001404163	-0.02539933
1.1e+08	0.0004356908	-0.0285525	1.089874e-08	1.215536e-09	0.007753654	0.009022516	5.610114e-08	2.304021e-09
	1.089874e-08	1.215536e-09	-0.001275472	-0.02749961	3.06767e-09	4.307712e-09	0.007617735	0.009223523
	0.007753653	0.009022516	3.06767e-09	4.307712e-09	-0.0005749335	-0.02790656	1.1667e-08	9.283425e-10
	5.610114e-08	2.304021e-09	0.007617735	0.009223523	1.1667e-08	9.283425e-10	-0.001337992	-0.02748613
1.2e+08	-0.002650161	-0.03050824	1.173741e-08	-1.5124e-11	0.008835116	0.009151914	6.047203e-08	-4.524228e-09
	1.173741e-08	-1.5124e-11	-0.004277141	-0.02926427	3.245088e-09	4.397586e-09	0.008699548	0.009344434
	0.008835115	0.009151913	3.245088e-09	4.397586e-09	-0.00355183	-0.02980518	1.256638e-08	-4.218663e-10
	6.047203e-08	-4.524228e-09	0.008699548	0.009344434	1.256638e-08	-4.218663e-10	-0.004357239	-0.02925081
1.3e+08	-0.00594881	-0.03208249	1.23968e-08	-1.434696e-09	0.009909013	0.009132855	6.391611e-08	-1.235276e-08
	1.23968e-08	-1.434696e-09	-0.00749556	-0.03066566	3.380943e-09	4.451796e-09	0.009773601	0.009325662
	0.009909013	0.009132855	3.380943e-09	4.451796e-09	-0.006750531	-0.03134321	1.327514e-08	-1.975891e-09
	6.391611e-08	-1.235276e-08	0.009773601	0.009325662	1.327514e-08	-1.975891e-09	-0.007593753	-0.03064857
1.4e+08	-0.009410898	-0.03325773	1.284437e-08	-3.021571e-09	0.01095746	0.008969985	6.626195e-08	-2.105138e-08
	1.284437e-08	-3.021571e-09	-0.01087647	-0.03167828	3.469401e-09	4.47495e-09	0.01082205	0.009169715
	0.01095746	0.008969985	3.469401e-09	4.47495e-09	-0.01011974	-0.03249701	1.375817e-08	-3.710376e-09
	6.626195e-08	-2.105138e-08	0.01082205	0.009169715	1.375817e-08	-3.710376e-09	-0.01099304	-0.03165415
1.5e+08	-0.01298541	-0.03402099	1.305054e-08	-4.744172e-09	0.01196263	0.00866924	6.735563e-08	-3.046278e-08
	1.305054e-08	-4.744172e-09	-0.01436598	-0.03228576	3.5047e-09	4.475366e-09	0.01182758	0.008881408
	0.01196263	0.00866924	3.5047e-09	4.475366e-09	-0.01360771	-0.03325031	1.39836e-08	-5.591717e-09
	6.735563e-08	-3.046278e-08	0.01182758	0.008881408	1.39836e-08	-5.591717e-09	-0.01450076	-0.03225129
1.6e+08	-0.01662076	-0.03436496	1.298956e-08	-6.568046e-09	0.01290739	0.008238417	6.706527e-08	-4.040517e-08
	1.298956e-08	-6.568046e-09	-0.0179104	-0.03247936	3.48244e-09	4.460922e-09	0.01277367	0.008467738
	0.01290739	0.008238417	3.48244e-09	4.460922e-09	-0.01716253	-0.03359361	1.392369e-08	-7.583126e-09
	6.706527e-08	-4.040517e-08	0.01277367	0.008467738	1.392369e-08	-7.583126e-09	-0.01806281	-0.03243142
1.7e+08	-0.02026555	-0.03428821	1.264044e-08	-8.454305e-09	0.01377568	0.007687251	6.528499e-08	-5.067554e-08
	1.264044e-08	-8.454305e-09	-0.02145676	-0.03225735	3.399313e-09	4.440281e-09	0.01364491	0.007937737
	0.01377568	0.007687251	3.399313e-09	4.440281e-09	-0.02073264	-0.03352388	1.35558e-08	-9.6431e-09
	6.528499e-08	-5.067554e-08	0.01364491	0.007937737	1.35558e-08	-9.6431e-09	-0.02162574	-0.03219299
1.8e+08	-0.02386914	-0.0337952	1.198773e-08	-1.036032e-08	0.01455284	0.00702732	6.193832e-08	-6.105354e-08
	1.198773e-08	-1.036032e-08	-0.02495323	-0.03162455	3.253252e-09	4.422742e-09	0.01442722	0.007302301
	0.01455284	0.00702732	3.253252e-09	4.422742e-09	-0.02426731	-0.03304428	1.286318e-08	-1.172615e-08
	6.193832e-08	-6.105354e-08	0.01442722	0.007302301	1.286318e-08	-1.172615e-08	-0.02513735	-0.03154108
1.9e+08	-0.02738231	-0.03289611	1.102222e-08	-1.224056e-08	0.01522582	0.006271885	5.698077e-08	-7.130581e-08
	1.102222e-08	-1.224056e-08	-0.02834978	-0.03059201	3.043555e-09	4.418052e-09	0.01510806	0.006573994
	0.01522582	0.006271885	3.043555e-09	4.418052e-09	-0.02771726	-0.03216392	1.183572e-08	-1.378368e-08
	5.698077e-08	-7.130581e-08	0.01510806	0.006573994	1.183572e-08	-1.378368e-08	-0.02854724	-0.03048702
2e+08	-0.03075784	-0.03160671	9.741412e-09	-1.404754e-08	0.01578341	0.005435688	5.040189e-08	-8.119066e-08
	9.741412e-09	-1.404754e-08	-0.03159869	-0.02917662	2.770975e-09	4.436188e-09	0.01567664	0.005766826
	0.01578341	0.005435688	2.770975e-09	4.436188e-09	-0.03103522	-0.03089758	1.047045e-08	-1.576498e-08
	5.040189e-08	-8.119066e-08	0.01567664	0.005766826	1.047045e-08	-1.576498e-08	-0.03180742	-0.02904804
2.1e+08	-0.03395145	-0.0299479	8.149769e-09	-1.573277e-08	0.016221	0.004522198	4.222639e-08	-9.04627e-08
	8.149769e-09	-1.573277e-08	-0.03465515	-0.02740078	2.43759e-09	4.487458e-09	0.01612407	0.004896013
	0.016221	0.004522198	2.43759e-09	4.487458e-09	-0.03417681	-0.02926532	8.771168e-09	-1.761666e-08
	4.222639e-08	-9.04627e-08	0.01612407	0.004896013	8.771168e-09	-1.761666e-08	-0.03487282	-0.02724685
2.2e+08	-0.03692168	-0.02794548	6.259168e-09	-1.724792e-08	0.01652971	0.003546727	3.251493e-08	-9.887842e-08
	6.259168e-09	-1.724792e-08	-0.03747779	-0.02529189	2.047248e-09	4.581784e-09	0.01644349	0.003977725
	0.01652971	0.003546727	2.047248e-09	4.581784e-09	-0.03710045	-0.02729213	6.750614e-09	-1.928629e-08
	3.251493e-08	-9.887842e-08	0.01644349	0.003977725	6.750614e-09	-1.928629e-08	-0.03770189	-0.02511123
2.3e+08	-0.03963007	-0.0256299	4.088972e-09	-1.854591e-08	0.01669845	0.002542325	2.13637e-08	-1.062015e-07
	4.088972e-09	-1.854591e-08	-0.04002914	-0.02288193	1.605498e-09	4.728112e-09	0.01663014	0.003028816
	0.01669845	0.002542325	1.605498e-09	4.728112e-09	-0.03976751	-0.02500772	4.430238e-09	-2.072537e-08
	2.13637e-08	-1.062015e-07	0.01663014	0.003028816	4.430238e-09	-2.072537e-08	-0.04025701	-0.02267352
2.4e+08	-0.04204275	-0.02303561	1.665565e-09	-1.9582e-08	0.01672498	0.001527312	8.903502e-09	-1.122069e-07
	1.665565e-09	-1.9582e-08	-0.04227613	-0.02020692	1.11907e-09	4.935039e-09	0.01668148	0.002066555
	0.01672498	0.001527312	1.11907e-09	4.935039e-09	-0.04214391	-0.02244589	1.837968e-09	-2.188605e-08
	8.903502e-09	-1.122069e-07	0.01668148	0.002066555	1.837968e-09	-2.188605e-08	-0.04250502	-0.01997011
2.5e+08	-0.04413026	-0.0202006	-9.777968e-10	-2.031486e-08	0.01660941	0.0005201023	-4.701763e-09	-1.166865e-07
	-9.777968e-10	-2.031486e-08	-0.04419046	-0.01730636	5.960339e-10	5.210257e-09	0.01659712	0.001108347
	0.01660941	0.0005201023	5.960339e-10	5.210257e-09	-0.04419992	-0.01964401	-9.909503e-10	-2.272414e-08
	-4.701763e-09	-1.166865e-07	0.01659712	0.001108347	-9.909503e-10	-2.272414e-08	-0.04441755	-0.01704087
2.6e+08	-0.04586799	-0.01716584	-3.801469e-09	-2.07076e-08	0.01635418	-0.0004611022	-1.92573e-08	-1.194532e-07
	-3.801469e-09	-2.07076e-08	-0.04574894	-0.01422261	4.566282e-11	5.560346e-09	0.01637891	0.0001714616
	0.01635418	-0.0004611022	4.566282e-11	5.560346e-09	-0.04591064	-0.01664251	-4.014457e-09	-2.32001e-08
	-1.92573e-08	-1.194532e-07	0.01637891	0.0001714616	-4.014457e-09	-2.32001e-08	-0.04597138	-0.01392856
2.7e+08	-0.04723641	-0.01397468	-6.760044e-09	-2.072879e-08	0.01596398	-0.001398593	-3.45403e-08	-1.203458e-07
	-6.760044e-09	-2.072879e-08	-0.04693368	-0.01100032	-5.217221e-10	5.990587e-09	0.01603082	-0.0007272383
	0.01596398	-0.001398593	-5.217221e-10	5.990587e-09	-0.04725617	-0.01348426	-7.184339e-09	-2.328017e-08
	-3.45403e-08	-1.203458e-07	0.01603082	-0.0007272383	-7.184339e-09	-2.328017e-08	-0.04714869	-0.01067817
2.8e+08	-0.04822128	-0.01067228	-9.80314e-09	-2.035326e-08	0.01544571	-0.002275434	-5.030335e-08	-1.192325e-07
	-9.80314e-09	-2.035326e-08	-0.04773237	-0.007685689	-1.094944e-09	6.504811e-09	0.0155589	-0.001571557
	0.01544571	-0.002275434	-1.094944e-09	6.504811e-09	-0.04822192	-0.01021402	-1.044705e-08	-2.293722e-08
	-5.030335e-08	-1.192325e-07	0.0155589	-0.001571557	-1.044705e-08	-2.293722e-08	-0.04793725	-0.007336297
2.9e+08	-0.04881383	-0.007304957	-1.28763e-08	-1.956289e-08	0.01480832	-0.003075725	-6.62784e-08	-1.160146e-07
	-1.28763e-08	-1.956289e-08	-0.04813836	-0.004325891	-1.662179e-09	7.105261e-09	0.01497119	-0.002346213
	0.01480832	-0.003075725	-1.662179e-09	7.105261e-09	-0.0487987	-0.006877755	-1.374467e-08	-2.21516e-08
	-6.62784e-08	-1.160146e-07	0.01497119	-0.002346213	-1.374467e-08	-2.21516e-08	-0.04833053	-0.003950443
3e+08	-0.04901079	-0.003919556	-1.592203e-08	-1.834725e-08	0.0140627	-0.003784841	-8.218117e-08	-1.106297e-07
	-1.592203e-08	-1.834725e-08	-0.0481507	-0.0009683372	-2.211191e-09	7.792503e-09	0.01427756	-0.003037072
	0.0140627	-0.003784841	-2.211191e-09	7.792503e-09	-0.04898284	-0.003522043	-1.701596e-08	-2.091175e-08
	-8.218117e-08	-1.106297e-07	0.01427756	-0.003037072	-1.701596e-08	-2.091175e-08	-0.04832776	-0.0005683555
3.1e+08	-0.04881442	-0.0005627945	-1.888087e-08	-1.670398e-08	0.01322147	-0.004389662	-9.771605e-08	-1.030535e-07
	-1.888087e-08	-1.670398e-08	-0.0477741	0.002339975	-2.729571e-09	8.565357e-09	0.01348955	-0.003631366
	0.01322147	-0.004389662	-2.729571e-09	8.565357e-09	-0.04877618	-0.0001933963	-2.019756e-08	-1.921476e-08
	-9.771605e-08	-1.030535e-07	0.01348955	-0.003631366	-2.019756e-08	-1.921476e-08	-0.04793385	0.002762657
3.2e+08	-0.04823243	0.002719346	-2.169261e-08	-1.463917e-08	0.01229881	-0.004878775	-1.125812e-07	-9.330234e-08
	-2.169261e-08	-1.463917e-08	-0.04701883	0.005553111	-3.20499e-09	9.420876e-09	0.01262022	-0.004117878
	0.01229881	-0.004878775	-3.20499e-09	9.420876e-09	-0.048186	0.003062343	-2.322521e-08	-1.706664e-08
	-1.125812e-07	-9.330234e-08	0.01262022	-0.004117878	-2.322521e-08	-1.706664e-08	-0.04715932	0.005996379
3.3e+08	-0.04727783	0.005882257	-2.429747e-08	-1.216739e-08	0.01131021	-0.005242648	-1.264738e-07	-8.143353e-08
	-2.429747e-08	-1.216739e-08	-0.04590052	0.008626846	-3.625455e-09	1.035435e-08	0.01168391	-0.004487122
	0.01131021	-0.005242648	-3.625455e-09	1.035435e-08	-0.04722491	0.006200639	-2.6035e-08	-1.448251e-08
	-1.264738e-07	-8.143353e-08	0.01168391	-0.004487122	-2.6035e-08	-1.448251e-08	-0.04602008	0.009088333
3.4e+08	-0.04596875	0.008883304	-2.663733e-08	-9.31171e-09	0.01027224	-0.005473779	-1.390962e-07	-6.75462e-08
	-2.663733e-08	-9.31171e-09	-0.04443991	0.01151929	-3.979554e-09	1.135938e-08	0.01069604	-0.004731483
	0.01027224	-0.005473779	-3.979554e-09	1.135938e-08	-0.04591064	0.009178876	-2.856475e-08	-1.148649e-08
	-1.390962e-07	-6.75462e-08	0.01069604	-0.004731483	-2.856475e-08	-1.148649e-08	-0.0445372	0.01199641
3.5e+08	-0.04432811	0.01168239	-2.865692e-08	-6.103405e-09	0.009202289	-0.005566816	-1.501609e-07	-5.178073e-08
	-2.865692e-08	-6.103405e-09	-0.04266252	0.01419143	-4.256704e-09	1.24279e-08	0.009672859	-0.004845335
	0.009202289	-0.005566816	-4.256704e-09	1.24279e-08	-0.04426573	0.01195691	-3.07552e-08	-8.111517e-09
	-1.501609e-07	-5.178073e-08	0.009672859	-0.004845335	-3.07552e-08	-8.111517e-09	-0.04273652	0.01468145
3.6e+08	-0.04238334	0.01424248	-3.030497e-08	-2.581569e-09	0.008118311	-0.005518642	-1.593964e-07	-3.43177e-08
	-3.030497e-08	-2.581569e-09	-0.04059827	0.01660771	-4.447369e-09	1.355039e-08	0.008631215	-0.004825131
	0.008118311	-0.005518642	-4.447369e-09	1.355039e-08	-0.04231728	0.01449763	-3.25513e-08	-4.398919e-09
	-1.593964e-07	-3.43177e-08	0.008631215	-0.004825131	-3.25513e-08	-4.398919e-09	-0.04064834	0.01710773
3.7e+08	-0.04016596	0.01653013	-3.153533e-08	1.207464e-09	0.007038513	-0.005328428	-1.665531e-07	-1.537593e-08
	-3.153533e-08	1.207464e-09	-0.03828102	0.01873648	-4.543272e-09	1.471593e-08	0.007588273	-0.004669461
	0.007038513	-0.005328428	-4.543272e-09	1.471593e-08	-0.04009649	0.01676745	-3.390336e-08	-3.978009e-10
	-1.665531e-07	-1.537593e-08	0.007588273	-0.004669461	-3.390336e-08	-3.978009e-10	-0.03830689	0.01924356
3.8e+08	-0.03771112	0.01851589	-3.230794e-08	5.21084e-09	0.00598109	-0.004997655	-1.714079e-07	4.790085e-09
	-3.230794e-08	5.21084e-09	-0.03574808	0.02055045	-4.537581e-09	1.591242e-08	0.00656126	-0.004379083
	0.00598109	-0.004997655	-4.537581e-09	1.591242e-08	-0.03763823	0.01873674	-3.476813e-08	3.835693e-09
	-1.714079e-07	4.790085e-09	0.00656126	-0.004379083	-3.476813e-08	3.835693e-09	-0.03574986	0.02106158
3.9e+08	-0.03505711	0.02017472	-3.258969e-08	9.370034e-09	0.004963935	-0.004530097	-1.737698e-07	2.589357e-08
	-3.258969e-08	9.370034e-09	-0.03303966	0.02202704	-4.425062e-09	1.712681e-08	0.005567196	-0.003956911
	0.004963935	-0.004530097	-4.425062e-09	1.712681e-08	-0.03498058	0.02038028	-3.510977e-08	8.23928e-09
	-1.737698e-07	2.589357e-08	0.005567196	-0.003956911	-3.510977e-08	8.23928e-09	-0.03301788	0.02253925
4e+08	-0.03224483	0.0214863	-3.235523e-08	1.362182e-08	0.004004352	-0.003931775	-1.734843e-07	4.761949e-08
	-3.235523e-08	1.362182e-08	-0.03019829	0.02314868	-4.202212e-09	1.834523e-08	0.004622629	-0.003407987
	0.004004352	-0.003931775	-4.202212e-09	1.834523e-08	-0.03216424	0.0216775	-3.490066e-08	1.274556e-08
	-1.734843e-07	4.761949e-08	0.004622629	-0.003407987	-3.490066e-08	1.274556e-08	-0.03015385	0.02365907
4.1e+08	-0.02931721	0.02243534	-3.158754e-08	1.789933e-08	0.003118781	-0.003210869	-1.704372e-07	6.962926e-08
	-3.158754e-08	1.789933e-08	-0.02726819	0.02390307	-3.867361e-09	1.955331e-08	0.00374337	-0.002739406
	0.003118781	-0.003210869	-3.867361e-09	1.955331e-08	-0.029232	0.02261287	-3.412206e-08	1.728315e-08
	-1.704372e-07	6.962926e-08	0.00374337	-0.002739406	-3.412206e-08	1.728315e-08	-0.02720238	0.02440885
4.2e+08	-0.02631861	0.02301171	-3.027841e-08	2.213318e-08	0.002322529	-0.002377602	-1.645582e-07	9.156598e-08
	-3.027841e-08	2.213318e-08	-0.02429466	0.0242833	-3.420733e-09	2.073638e-08	0.002944241	-0.001960219
	0.002322529	-0.002377602	-3.420733e-09	2.073638e-08	-0.02622813	0.02317601	-3.276467e-08	2.177788e-08
	-1.645582e-07	9.156598e-08	0.002944241	-0.001960219	-3.276467e-08	2.177788e-08	-0.02420913	0.02478187
4.3e+08	-0.02329418	0.02321063	-2.842873e-08	2.625265e-08	0.001629519	-0.001444092	-1.558237e-07	1.130602e-07
	-2.842873e-08	2.625265e-08	-0.02132339	0.02428796	-2.86449e-09	2.187973e-08	0.002238836	-0.001081298
	0.001629519	-0.001444092	-2.86449e-09	2.187973e-08	-0.02319775	0.02336187	-3.082893e-08	2.615404e-08
	-1.558237e-07	1.130602e-07	0.002238836	-0.001081298	-3.082893e-08	2.615404e-08	-0.02122015	0.02477693
4.4e+08	-0.02028929	0.02303269	-2.604868e-08	3.018685e-08	0.001052055	-0.0004241665	-1.44259e-07	1.33736e-07
	-2.604868e-08	3.018685e-08	-0.01839985	0.02392113	-2.202729e-09	2.296883e-08	0.001639297	-0.0001151788
	0.001052055	-0.0004241665	-2.202729e-09	2.296883e-08	-0.02018621	0.02317078	-2.832524e-08	3.03357e-08
	-1.44259e-07	1.33736e-07	0.001639297	-0.0001151788	-2.832524e-08	3.03357e-08	-0.0182812	0.02439836
4.5e+08	-0.01734882	0.02248384	-2.315761e-08	3.386592e-08	0.0006006158	0.0006668484	-1.29939e-07	1.532176e-07
	-2.315761e-08	3.386592e-08	-0.01556858	0.0231923	-1.441464e-09	2.398965e-08	0.001156108	0.0009241338
	0.0006006157	0.0006668484	-1.441464e-09	2.398965e-08	-0.01723845	0.02260845	-2.52739e-08	3.424793e-08
	-1.29939e-07	1.532176e-07	0.001156108	0.0009241338	-2.52739e-08	3.424793e-08	-0.01543712	0.02365597
4.6e+08	-0.01451654	0.02157533	-1.978881e-08	3.723026e-08	0.0002836651	0.001812362	-1.129806e-07	1.711246e-07
	-1.978881e-08	3.723026e-08	-0.0128726	0.02211622	-5.882644e-10	2.49277e-08	0.0007979174	0.002021376
	0.0002836651	0.001812362	-5.882644e-10	2.49277e-08	-0.01439834	0.02168587	-2.170951e-08	3.782615e-08
	-1.129806e-07	1.711246e-07	0.0007979174	0.002021376	-2.170951e-08	3.782615e-08	-0.01273114	0.02256488
4.7e+08	-0.01183457	0.02032344	-1.597395e-08	4.020708e-08	0.0001075026	0.002994782	-9.356876e-08	1.871081e-07
	-1.597395e-08	4.020708e-08	-0.01035276	0.0207127	3.466735e-10	2.577153e-08	0.000571384	0.003160267
	0.0001075026	0.002994782	3.466735e-10	2.577153e-08	-0.01170814	0.02041912	-1.76663e-08	4.099276e-08
	-9.356876e-08	1.871081e-07	0.000571384	0.003160267	-1.76663e-08	4.099276e-08	-0.01020433	0.02114522
