!$
! Info: Touchstone file created by Circ.  Input file=Tx_6in_Rx_85ohms_TxVia_35mils_RxVia_45mils.circ
!$
# Hz S RI R 50
0	0.00494031	8.697111e-26	7.483268e-10	8.810634e-28	5.187801e-05	9.167745e-24	3.716839e-10	2.034917e-28
	7.483268e-10	8.81042e-28	0.004938653	1.045758e-25	2.518719e-09	3.314476e-27	5.173636e-05	1.110675e-23
	5.169181e-05	9.129258e-24	2.518719e-09	3.314485e-27	0.004951165	8.697143e-26	7.507144e-10	9.428188e-28
	3.716838e-10	2.034854e-28	4.988927e-05	1.11616e-23	7.507148e-10	9.428346e-28	0.00495184	9.796722e-26
1e+07	0.006579284	-0.005323583	9.542026e-10	1.409214e-09	0.0001728318	0.001228777	6.062136e-10	7.2119e-10
	9.542026e-10	1.409214e-09	0.006592689	-0.005326999	3.548543e-09	6.982905e-09	0.000170688	0.001231186
	0.0001728265	0.001228779	3.548543e-09	6.982905e-09	0.006615229	-0.005306905	9.521597e-10	1.430078e-09
	6.062136e-10	7.2119e-10	0.0001706281	0.001231196	9.521595e-10	1.430078e-09	0.006587756	-0.005315843
2e+07	0.007264694	-0.01229857	1.283731e-09	2.458429e-09	0.0004354882	0.002398538	9.022126e-10	1.194455e-09
	1.283731e-09	2.458429e-09	0.007253137	-0.01231004	4.492178e-09	1.234327e-08	0.0004272306	0.002404382
	0.0004354897	0.002398542	4.492178e-09	1.234327e-08	0.007299337	-0.01227388	1.258007e-09	2.49664e-09
	9.022125e-10	1.194455e-09	0.0004272228	0.002404416	1.258006e-09	2.49664e-09	0.007252616	-0.01228188
3e+07	0.006474106	-0.01996617	1.577595e-09	3.430846e-09	0.0008387106	0.00351257	1.233211e-09	1.587185e-09
	1.577595e-09	3.430846e-09	0.006425809	-0.01997532	4.978406e-09	1.757483e-08	0.0008207011	0.003523562
	0.0008387131	0.003512569	4.978406e-09	1.757483e-08	0.006509687	-0.01992936	1.510276e-09	3.495146e-09
	1.233211e-09	1.587185e-09	0.0008207012	0.003523567	1.510276e-09	3.495146e-09	0.006427957	-0.01993515
4e+07	0.004450614	-0.02765827	1.882419e-09	4.343582e-09	0.001375846	0.004555838	1.610346e-09	1.901568e-09
	1.882419e-09	4.343582e-09	0.00435439	-0.02765648	5.263329e-09	2.277652e-08	0.001344827	0.004574375
	0.001375846	0.004555837	5.263329e-09	2.277652e-08	0.004488784	-0.0276092	1.758915e-09	4.446036e-09
	1.610346e-09	1.901568e-09	0.001344822	0.004574373	1.758915e-09	4.446036e-09	0.004357878	-0.02760562
5e+07	0.001314449	-0.0351244	2.196864e-09	5.195699e-09	0.00203598	0.005512065	2.021763e-09	2.129673e-09
	2.196864e-09	5.195699e-09	0.001160301	-0.03510117	5.392826e-09	2.797688e-08	0.001989196	0.005541162
	0.00203598	0.005512064	5.392826e-09	2.797688e-08	0.001356403	-0.03506363	2.005864e-09	5.350701e-09
	2.021763e-09	2.129673e-09	0.001989193	0.005541161	2.005864e-09	5.350701e-09	0.001163829	-0.03504013
6e+07	-0.002837792	-0.04218894	2.515205e-09	5.98983e-09	0.002805711	0.006366433	2.452793e-09	2.268764e-09
	2.515205e-09	5.98983e-09	-0.003057853	-0.04213211	5.390657e-09	3.321557e-08	0.002741003	0.006409617
	0.002805712	0.006366433	5.390657e-09	3.321557e-08	-0.0027912	-0.04211732	2.248643e-09	6.21336e-09
	2.452793e-09	2.268764e-09	0.002741006	0.006409616	2.248643e-09	6.21336e-09	-0.003055519	-0.04206094
7e+07	-0.007911362	-0.04871062	2.832625e-09	6.727805e-09	0.003669768	0.007106052	2.889263e-09	2.317803e-09
	2.832625e-09	6.727805e-09	-0.008203177	-0.04860676	5.285236e-09	3.852655e-08	0.003585632	0.00716725
	0.00366977	0.007106052	5.285236e-09	3.852655e-08	-0.007859568	-0.04862908	2.485535e-09	7.037133e-09
	2.889263e-09	2.317803e-09	0.00358564	0.007167246	2.485535e-09	7.037133e-09	-0.008203201	-0.04852517
8e+07	-0.01380677	-0.0545709	3.144196e-09	7.409591e-09	0.004611356	0.007720273	3.316893e-09	2.276784e-09
	3.144196e-09	7.409592e-09	-0.01417398	-0.05440564	5.108658e-09	4.393326e-08	0.004506987	0.007803713
	0.004611358	0.007720272	5.108658e-09	4.393326e-08	-0.01374945	-0.0544804	2.714797e-09	7.823201e-09
	3.316893e-09	2.276784e-09	0.004506996	0.007803707	2.714796e-09	7.823201e-09	-0.01417745	-0.05431306
9e+07	-0.02041795	-0.0596702	3.443855e-09	8.033664e-09	0.005612568	0.008201076	3.720911e-09	2.147257e-09
	3.443855e-09	8.033664e-09	-0.02086188	-0.05942839	4.894243e-09	4.944925e-08	0.005487906	0.008311187
	0.005612569	0.008201075	4.894243e-09	4.944925e-08	-0.02035499	-0.05957164	2.933815e-09	8.571084e-09
	3.720912e-09	2.147257e-09	0.005487912	0.008311181	2.933815e-09	8.571085e-09	-0.02086976	-0.05932398
1e+08	-0.02763351	-0.06392832	3.724106e-09	8.595223e-09	0.006655727	0.00854465	4.085956e-09	1.933424e-09
	3.724106e-09	8.595223e-09	-0.0281529	-0.06359415	4.676284e-09	5.50781e-08	0.006511499	0.008685948
	0.006655727	0.008544651	4.676284e-09	5.50781e-08	-0.02756486	-0.06382232	3.13886e-09	9.276614e-09
	4.085956e-09	1.933424e-09	0.006511499	0.008685948	3.13886e-09	9.276614e-09	-0.02816612	-0.063477
1.1e+08	-0.03533896	-0.06727681	3.991116e-09	9.109441e-09	0.007726055	0.008739924	4.400074e-09	1.642203e-09
	3.991116e-09	9.109441e-09	-0.03592798	-0.06683471	4.476226e-09	6.084079e-08	0.007564036	0.00891664
	0.007726054	0.008739924	4.476226e-09	6.084079e-08	-0.03526322	-0.06716486	3.342345e-09	9.957597e-09
	4.400074e-09	1.642203e-09	0.007564036	0.008916641	3.342345e-09	9.957597e-09	-0.03594641	-0.06670288
1.2e+08	-0.04340248	-0.06965697	4.219302e-09	9.578355e-09	0.008794479	0.008787736	4.648942e-09	1.280696e-09
	4.219302e-09	9.578355e-09	-0.04405504	-0.06909307	4.30547e-09	6.674272e-08	0.008616845	0.009004147
	0.008794479	0.008787737	4.30547e-09	6.674272e-08	-0.04332084	-0.06954055	3.51869e-09	1.060764e-08
	4.648942e-09	1.280696e-09	0.008616845	0.009004147	3.51869e-09	1.060764e-08	-0.044079	-0.0689452
1.3e+08	-0.05169755	-0.0710398	4.401263e-09	1.000267e-08	0.009842988	0.008692864	4.82079e-09	8.590381e-10
	4.401263e-09	1.000267e-08	-0.05240502	-0.07034051	4.19605e-09	7.278172e-08	0.009652715	0.008952966
	0.009842988	0.008692864	4.19605e-09	7.278172e-08	-0.05161115	-0.07091969	3.6629e-09	1.122634e-08
	4.82079e-09	8.590381e-10	0.009652715	0.008952966	3.6629e-09	1.122634e-08	-0.05243461	-0.07017506
1.4e+08	-0.0600961	-0.07141059	4.530087e-09	1.038581e-08	0.01085337	0.008460779	4.905587e-09	3.873583e-10
	4.530087e-09	1.038581e-08	-0.06084739	-0.07056332	4.177677e-09	7.895183e-08	0.01065419	0.008768159
	0.01085337	0.008460779	4.177677e-09	7.895183e-08	-0.06000596	-0.07128719	3.77045e-09	1.181565e-08
	4.905587e-09	3.873583e-10	0.01065419	0.008768159	3.77045e-09	1.181565e-08	-0.06088228	-0.07037855
1.5e+08	-0.06847121	-0.07077031	4.594512e-09	1.073811e-08	0.01180836	0.008099029	4.893987e-09	-1.185773e-10
	4.594512e-09	1.073811e-08	-0.06925291	-0.06976399	4.278289e-09	8.52423e-08	0.01160466	0.008456736
	0.01180836	0.008099029	4.278289e-09	8.52423e-08	-0.06837822	-0.07064381	3.832372e-09	1.238385e-08
	4.893987e-09	-1.185773e-10	0.01160466	0.008456736	3.832372e-09	1.238385e-08	-0.06929232	-0.06955815
1.6e+08	-0.0766988	-0.06913529	4.586936e-09	1.106922e-08	0.01269197	0.007617178	4.779508e-09	-6.441956e-10
	4.586936e-09	1.106922e-08	-0.07749547	-0.06796074	4.523461e-09	9.163786e-08	0.01248875	0.008027616
	0.01269197	0.007617178	4.523461e-09	9.163786e-08	-0.07660375	-0.06900569	3.843069e-09	1.293815e-08
	4.779508e-09	-6.441956e-10	0.01248875	0.008027616	3.843069e-09	1.293815e-08	-0.07753821	-0.06773221
1.7e+08	-0.08465931	-0.06653645	4.501004e-09	1.139076e-08	0.0134898	0.007026612	4.557788e-09	-1.173936e-09
	4.501004e-09	1.139076e-08	-0.08545378	-0.06518678	4.935982e-09	9.811911e-08	0.01329254	0.007491446
	0.0134898	0.007026612	4.935982e-09	9.811911e-08	-0.08456286	-0.06640366	3.797832e-09	1.348732e-08
	4.557788e-09	-1.173936e-09	0.01329254	0.007491446	3.797832e-09	1.348732e-08	-0.08549826	-0.06493414
1.8e+08	-0.09223912	-0.06301846	4.332115e-09	1.171606e-08	0.01418919	0.006340297	4.226725e-09	-1.691573e-09
	4.332115e-09	1.171606e-08	-0.09301288	-0.06148932	5.535359e-09	1.04663e-07	0.01400375	0.006860368
	0.01418919	0.006340297	5.535359e-09	1.04663e-07	-0.09214186	-0.06288231	3.693276e-09	1.404152e-08
	4.226725e-09	-1.691573e-09	0.01400375	0.006860368	3.693276e-09	1.404152e-08	-0.0930572	-0.06121145
1.9e+08	-0.09933199	-0.05863876	4.077875e-09	1.205986e-08	0.01477939	0.005572507	3.786556e-09	-2.180549e-09
	4.077875e-09	1.205986e-08	-0.1000655	-0.05692858	6.337349e-09	1.112432e-07	0.01461188	0.006147775
	0.01477939	0.005572507	6.337349e-09	1.112432e-07	-0.09923444	-0.05849902	3.527734e-09	1.461209e-08
	3.786556e-09	-2.180549e-09	0.01461188	0.006147775	3.527734e-09	1.461209e-08	-0.1001076	-0.05662468
2e+08	-0.1058403	-0.05346643	3.738466e-09	1.243787e-08	0.01525167	0.004738555	3.239882e-09	-2.624303e-09
	3.738466e-09	1.243787e-08	-0.1065136	-0.05157655	7.353526e-09	1.178308e-07	0.01510829	0.005368054
	0.01525167	0.004738555	7.353526e-09	1.178308e-07	-0.1057429	-0.05332284	3.301592e-09	1.521117e-08
	3.239882e-09	-2.624303e-09	0.01510829	0.005368054	3.301592e-09	1.521117e-08	-0.1065511	-0.05124619
2.1e+08	-0.1116761	-0.04758102	3.316925e-09	1.286632e-08	0.01559936	0.003854519	2.591651e-09	-3.006593e-09
	3.316925e-09	1.286632e-08	-0.1122691	-0.04551579	8.590913e-09	1.24395e-07	0.01548632	0.004536336
	0.01559936	0.003854519	8.590913e-09	1.24395e-07	-0.1115792	-0.04743326	3.017552e-09	1.585136e-08
	2.591651e-09	-3.006593e-09	0.01548632	0.004536336	3.017552e-09	1.585136e-08	-0.1122997	-0.0451589
2.2e+08	-0.1167621	-0.04107122	2.819317e-09	1.336132e-08	0.0158179	0.002936979	1.849099e-09	-3.311806e-09
	2.819317e-09	1.336132e-08	-0.1172551	-0.03883801	1.005168e-08	1.309035e-07	0.01574121	0.00366825
	0.0158179	0.002936979	1.005168e-08	1.309035e-07	-0.1166662	-0.04091894	2.680792e-09	1.654515e-08
	1.849099e-09	-3.311806e-09	0.01574121	0.00366825	2.680792e-09	1.654515e-08	-0.1172764	-0.0384549
2.3e+08	-0.1210328	-0.03403351	2.254776e-09	1.393831e-08	0.01590482	0.002002761	1.021649e-09	-3.525255e-09
	2.254776e-09	1.393831e-08	-0.1214067	-0.03164266	1.173296e-08	1.373233e-07	0.0158702	0.002779689
	0.01590482	0.002002761	1.173296e-08	1.373233e-07	-0.1209381	-0.03387631	2.299025e-09	1.730447e-08
	1.021649e-09	-3.525255e-09	0.0158702	0.002779689	2.299025e-09	1.730447e-08	-0.1214163	-0.03123404
2.4e+08	-0.1244345	-0.02657076	1.635426e-09	1.461142e-08	0.01585973	0.001068698	1.207885e-10	-3.633451e-09
	1.635426e-09	1.461142e-08	-0.1246716	-0.02403547	1.362674e-08	1.436219e-07	0.01587244	0.001886591
	0.01585973	0.001068698	1.362674e-08	1.436219e-07	-0.1243412	-0.0264082	1.882425e-09	1.814013e-08
	1.207885e-10	-3.633451e-09	0.01587244	0.001886591	1.882425e-09	1.814013e-08	-0.1246672	-0.0236024
2.5e+08	-0.1269265	-0.01879072	9.761698e-10	1.539289e-08	0.01568424	0.0001513977	-8.40086e-10	-3.624366e-09
	9.761698e-10	1.539289e-08	-0.1270106	-0.01612695	1.571986e-08	1.497675e-07	0.01574897	0.00100473
	0.01568424	0.0001513978	1.571986e-08	1.497675e-07	-0.1268347	-0.01862235	1.443455e-09	1.906127e-08
	-8.40086e-10	-3.624366e-09	0.01574897	0.00100473	1.443455e-09	1.906127e-08	-0.12699	-0.01567084
2.6e+08	-0.1284809	-0.0108046	2.943519e-10	1.62925e-08	0.01538193	-0.0007329633	-1.845851e-09	-3.487668e-09
	2.943519e-10	1.62925e-08	-0.1283979	-0.0080308	1.799421e-08	1.5573e-07	0.01550264	0.0001495243
	0.01538193	-0.0007329633	1.799421e-08	1.5573e-07	-0.1283906	-0.01062995	9.965642e-10	2.007491e-08
	-1.845851e-09	-3.487668e-09	0.01550264	0.0001495242	9.965642e-10	2.007491e-08	-0.1283591	-0.007553413
2.7e+08	-0.1290831	-0.002725583	-3.906857e-10	1.731708e-08	0.01495824	-0.001568843	-2.87986e-09	-3.214941e-09
	-3.906857e-10	1.731708e-08	-0.1288214	0.0001375651	2.042695e-08	1.614821e-07	0.01513808	-0.0006641459
	0.01495824	-0.001568843	2.042695e-08	1.614821e-07	-0.1289944	-0.00254417	5.577859e-10	2.11855e-08
	-2.87986e-09	-3.214941e-09	0.01513808	-0.0006641459	5.577859e-10	2.11855e-08	-0.1287626	0.0006341762
2.8e+08	-0.1287318	0.00533272	-1.058153e-09	1.847012e-08	0.01442039	-0.002341515	-3.924168e-09	-2.799885e-09
	-1.058153e-09	1.847012e-08	-0.1282824	0.008262598	2.299092e-08	1.669994e-07	0.01466157	-0.001422105
	0.01442039	-0.002341515	2.299092e-08	1.669994e-07	-0.1286447	0.005521371	1.442442e-10	2.23946e-08
	-3.924168e-09	-2.799885e-09	0.01466157	-0.001422105	1.442442e-10	2.23946e-08	-0.1282022	0.008776098
2.9e+08	-0.1274391	0.01325768	-1.686431e-09	1.97515e-08	0.01377724	-0.003037249	-4.959781e-09	-2.238489e-09
	-1.686431e-09	1.97515e-08	-0.1267959	0.0162301	2.56551e-08	1.722615e-07	0.01408096	-0.002111043
	0.01377724	-0.003037249	2.56551e-08	1.722615e-07	-0.1273533	0.01345403	-2.264089e-10	2.370061e-08
	-4.959781e-09	-2.238489e-09	0.01408096	-0.002111043	-2.264089e-10	2.370061e-08	-0.126693	0.01675792
3e+08	-0.1252296	0.02093911	-2.253763e-09	2.115728e-08	0.01303921	-0.003643464	-5.966922e-09	-1.529185e-09
	-2.253763e-09	2.115728e-08	-0.1243899	0.02392874	2.838527e-08	1.772527e-07	0.0134056	-0.002718663
	0.01303921	-0.003643464	2.838527e-08	1.772527e-07	-0.125145	0.02114359	-5.366188e-10	2.509868e-08
	-5.966922e-09	-1.529185e-09	0.0134056	-0.002718663	-5.366188e-10	2.509868e-08	-0.1242636	0.0244681
3.1e+08	-0.1221408	0.0282707	-2.732015e-09	2.268835e-08	0.01221814	-0.004148892	-6.925334e-09	-6.732313e-10
	-2.732015e-09	2.268835e-08	-0.1211054	0.03125147	3.114517e-08	1.819657e-07	0.01264618	-0.003233832
	0.01221814	-0.004148892	3.114517e-08	1.819657e-07	-0.122057	0.02848373	-7.625328e-10	2.658938e-08
	-6.925334e-09	-6.732313e-10	0.01264618	-0.003233832	-7.625328e-10	2.658938e-08	-0.1209551	0.03179943
3.2e+08	-0.1182222	0.03515135	-3.089338e-09	2.433903e-08	0.01132714	-0.004543717	-7.814728e-09	3.254204e-10
	-3.089338e-09	2.433903e-08	-0.1169953	0.03809693	3.389886e-08	1.863979e-07	0.01181467	-0.003646711
	0.01132714	-0.004543717	3.389886e-08	1.863979e-07	-0.1181388	0.0353733	-8.766405e-10	2.816724e-08
	-7.814728e-09	3.254204e-10	0.01181467	-0.003646711	-8.766405e-10	2.816724e-08	-0.116821	0.03865045
3.3e+08	-0.1135345	0.0414865	-3.319771e-09	2.607442e-08	0.01038045	-0.004819712	-8.614855e-09	1.46088e-09
	-3.319771e-09	2.607442e-08	-0.1121241	0.04437077	3.660675e-08	1.905409e-07	0.01092412	-0.00394889
	0.01038045	-0.004819712	3.660675e-08	1.905409e-07	-0.1134512	0.04171766	-8.776393e-10	2.979804e-08
	-8.614855e-09	1.46088e-09	0.01092412	-0.00394889	-8.776393e-10	2.979804e-08	-0.1119261	0.04492677
3.4e+08	-0.1081492	0.04718936	-3.408803e-09	2.78751e-08	0.009393267	-0.00497037	-9.305903e-09	2.723991e-09
	-3.408803e-09	2.78751e-08	-0.1065669	0.04998689	3.922886e-08	1.943996e-07	0.009988591	-0.004133516
	0.009393267	-0.00497037	3.922886e-08	1.943996e-07	-0.1080655	0.04742996	-7.55458e-10	3.146379e-08
	-9.305903e-09	2.723991e-09	0.009988591	-0.004133516	-7.55458e-10	3.146379e-08	-0.1063459	0.05054232
3.5e+08	-0.1021473	0.05218207	-3.345334e-09	2.971924e-08	0.008381556	-0.004991018	-9.868894e-09	4.10282e-09
	-3.345334e-09	2.971924e-08	-0.1004082	0.05486865	4.172584e-08	1.979849e-07	0.009022927	-0.00419541
	0.008381556	-0.004991018	4.172584e-08	1.979849e-07	-0.1020627	0.05243225	-5.033057e-10	3.314466e-08
	-9.868894e-09	4.10282e-09	0.009022927	-0.00419541	-5.033057e-10	3.314466e-08	-0.1001656	0.05542051
3.6e+08	-0.09561864	0.05639674	-3.122042e-09	3.158326e-08	0.007361873	-0.004878922	-1.028607e-08	5.582689e-09
	-3.122042e-09	3.158326e-08	-0.09374146	0.0589499	4.405975e-08	2.01313e-07	0.008042627	-0.004131173
	0.007361873	-0.004878922	4.405975e-08	2.01313e-07	-0.09553252	0.05665658	-1.179544e-10	3.48197e-08
	-1.028607e-08	5.582689e-09	0.008042627	-0.004131173	-1.179544e-10	3.48197e-08	-0.09347881	0.05949531
3.7e+08	-0.08866027	0.05977644	-2.735658e-09	3.344255e-08	0.006351135	-0.004633374	-1.054127e-08	7.14627e-09
	-2.735658e-09	3.344255e-08	-0.08666697	0.06217591	4.619491e-08	2.044056e-07	0.007063632	-0.003939286
	0.006351135	-0.004633374	4.619491e-08	2.044056e-07	-0.08857211	0.06004596	4.000683e-10	3.64675e-08
	-1.054127e-08	7.14627e-09	0.007063632	-0.003939286	4.000683e-10	3.64675e-08	-0.08638631	0.06271218
3.8e+08	-0.08137559	0.06227605	-2.187073e-09	3.527224e-08	0.005366391	-0.004255765	-1.062035e-08	8.773728e-09
	-2.187073e-09	3.527224e-08	-0.07929116	0.06450425	4.809861e-08	2.072893e-07	0.006102117	-0.003620185
	0.005366391	-0.004255765	4.809861e-08	2.072893e-07	-0.08128485	0.06255517	1.046446e-09	3.806691e-08
	-1.062035e-08	8.773728e-09	0.006102117	-0.003620185	1.046446e-09	3.806691e-08	-0.07899493	0.06502893
3.9e+08	-0.07387278	0.06386294	-1.481299e-09	3.704794e-08	0.004424569	-0.003749625	-1.051153e-08	1.044292e-08
	-1.481299e-09	3.704794e-08	-0.07172491	0.06590541	4.97418e-08	2.099951e-07	0.005174255	-0.003176323
	0.004424569	-0.003749625	4.97418e-08	2.099951e-07	-0.0737789	0.0641515	1.813194e-09	3.95978e-08
	-1.051153e-08	1.044292e-08	0.005174255	-0.003176323	1.813194e-09	3.95978e-08	-0.0714159	0.06641634
4e+08	-0.06626337	0.06451754	-6.272702e-10	3.874652e-08	0.003542216	-0.003120646	-1.020583e-08	1.212966e-08
	-6.272702e-10	3.874652e-08	-0.06408204	0.06636332	5.10997e-08	2.125581e-07	0.004295975	-0.002612202
	0.003542216	-0.003120646	5.10997e-08	2.125581e-07	-0.0661658	0.06481529	2.688925e-09	4.104174e-08
	-1.020583e-08	1.212966e-08	0.004295975	-0.002612202	2.688925e-09	4.104174e-08	-0.0637634	0.06685871
4.1e+08	-0.05866067	0.06423371	3.624942e-10	4.034675e-08	0.002735214	-0.002376659	-9.697352e-09	1.380805e-08
	3.624942e-10	4.034675e-08	-0.05647775	0.06587573	5.21522e-08	2.150165e-07	0.003482698	-0.001934371
	0.002735214	-0.002376659	5.21522e-08	2.150165e-07	-0.05855892	0.06454032	3.659258e-09	4.238259e-08
	-9.697352e-09	1.380805e-08	0.003482698	-0.001934371	3.659258e-09	4.238259e-08	-0.05615287	0.06635417
4.2e+08	-0.0511782	0.06301897	1.472362e-09	4.182992e-08	0.0020185	-0.001527589	-8.983686e-09	1.545089e-08
	1.472362e-09	4.182992e-08	-0.04902691	0.06445432	5.288433e-08	2.17411e-07	0.002749062	-0.001151398
	0.0020185	-0.001527589	5.288433e-08	2.17411e-07	-0.05107181	0.06333402	4.707348e-09	4.360701e-08
	-8.983686e-09	1.545089e-08	0.002749062	-0.001151398	4.707348e-09	4.360701e-08	-0.04869945	0.06491484
4.3e+08	-0.04392805	0.06089449	2.68415e-09	4.318024e-08	0.001405771	-0.0005853547	-8.06613e-09	1.70301e-08
	2.68415e-09	4.318024e-08	-0.04184241	0.06212466	5.328642e-08	2.197844e-07	0.002108646	-0.000273794
	0.001405771	-0.0005853547	5.328642e-08	2.197844e-07	-0.04381659	0.0612175	5.814502e-09	4.47049e-08
	-8.06613e-09	1.70301e-08	0.002108646	-0.000273794	5.814502e-09	4.47049e-08	-0.04151619	0.06256678
4.4e+08	-0.03701917	0.05789496	3.977768e-09	4.438522e-08	0.0009092038	0.0004362666	-6.949921e-09	1.851731e-08
	3.977768e-09	4.438522e-08	-0.03503345	0.05892598	5.335434e-08	2.221805e-07	0.001573691	0.0006860988
	0.0009092038	0.0004362666	5.335434e-08	2.221805e-07	-0.03690232	0.05822537	6.960867e-09	4.566954e-08
	-6.949921e-09	1.851731e-08	0.001573692	0.0006860987	6.960867e-09	4.566954e-08	-0.0347124	0.05934973
4.5e+08	-0.03055577	0.05406812	5.331892e-09	4.543585e-08	0.0005391794	0.001521823	-5.644376e-09	1.988436e-08
	5.331892e-09	4.543585e-08	-0.02870385	0.05491069	5.308948e-08	2.246435e-07	0.001154836	0.00171427
	0.0005391794	0.001521823	5.308948e-08	2.246435e-07	-0.03043326	0.05440532	8.12613e-09	4.649775e-08
	-5.644376e-09	1.988436e-08	0.001154836	0.00171427	8.12613e-09	4.649775e-08	-0.02839196	0.05531659
4.6e+08	-0.0246357	0.04947424	6.724635e-09	4.632655e-08	0.0003040301	0.002654418	-4.162937e-09	2.110396e-08
	6.724635e-09	4.632655e-08	-0.02295045	0.05014366	5.249876e-08	2.272172e-07	0.0008608586	0.002795241
	0.0003040301	0.002654418	5.249876e-08	2.272172e-07	-0.02450737	0.04981755	9.290215e-09	4.718974e-08
	-4.162937e-09	2.110396e-08	0.0008608586	0.002795241	9.290215e-09	4.718974e-08	-0.02265168	0.05053281
4.7e+08	-0.0193489	0.04418527	8.134182e-09	4.705513e-08	0.0002098146	0.003815983	-2.523119e-09	2.21503e-08
	8.134182e-09	4.705513e-08	-0.01786155	0.04470138	5.159448e-08	2.299449e-07	0.000698458	0.003912319
	0.0002098146	0.003815983	5.159448e-08	2.299449e-07	-0.01921467	0.04453399	1.043392e-08	4.774892e-08
	-2.523119e-09	2.21503e-08	0.000698458	0.003912319	1.043392e-08	4.774892e-08	-0.01757977	0.0450754
4.8e+08	-0.01477595	0.03828381	9.539347e-09	4.762247e-08	0.0002601316	0.004987589	-7.463539e-10	2.299974e-08
	9.539347e-09	4.762247e-08	-0.01351545	0.03867084	5.039414e-08	2.328679e-07	0.000672057	0.005047878
	0.0002601316	0.004987589	5.039414e-08	2.328679e-07	-0.01463587	0.03863721	1.153945e-08	4.818153e-08
