!$
! Info: Touchstone file created by Circ.  Input file=Tx_6in_Rx_85ohms_TxVia_35mils_RxVia_45mils.circ
!$
# Hz S RI R 50
0	0.004942083	9.140358e-26	-4.620014e-13	2.319913e-28	5.31009e-05	9.227709e-24	5.806574e-13	1.231572e-28
	-4.620033e-13	2.319914e-28	0.004938653	1.045758e-25	2.517067e-12	3.769327e-28	5.173636e-05	1.110675e-23
	5.362523e-05	9.347834e-24	2.517069e-12	3.769324e-28	0.004950332	8.921941e-26	4.459885e-13	2.469316e-28
	5.806572e-13	1.231573e-28	4.988927e-05	1.11616e-23	4.459887e-13	2.469319e-28	0.00495184	9.796722e-26
1e+07	0.006607116	-0.005425517	6.821552e-12	5.666019e-12	0.0001266268	0.001233768	8.298223e-12	1.128408e-11
	6.821552e-12	5.666019e-12	0.006592689	-0.005326999	7.602906e-12	5.958012e-12	0.000170688	0.001231186
	0.0001266506	0.001233769	7.602906e-12	5.958012e-12	0.007424676	-0.005219367	6.010662e-12	5.939111e-12
	8.298223e-12	1.128408e-11	0.0001706281	0.001231196	6.010662e-12	5.93911e-12	0.006587756	-0.005315843
2e+07	0.007191299	-0.01247654	8.078354e-12	8.823528e-12	0.0003688252	0.002445796	8.710158e-12	2.028124e-11
	8.078355e-12	8.823528e-12	0.007253137	-0.01231004	1.024868e-11	7.091024e-12	0.0004272306	0.002404382
	0.0003688329	0.002445781	1.024868e-11	7.091023e-12	0.008032517	-0.01243154	8.05536e-12	6.914566e-12
	8.710158e-12	2.028124e-11	0.0004272228	0.002404416	8.055361e-12	6.914567e-12	0.007252616	-0.01228188
3e+07	0.006320535	-0.020161	7.483925e-12	1.069713e-11	0.0007921575	0.003574618	7.263415e-12	2.837437e-11
	7.483926e-12	1.069713e-11	0.006425809	-0.01997532	1.167824e-11	6.67885e-12	0.0008207011	0.003523562
	0.0007921574	0.003574615	1.167824e-11	6.67885e-12	0.007176975	-0.02019135	7.182964e-12	6.286734e-12
	7.263415e-12	2.837437e-11	0.0008207012	0.003523567	7.182964e-12	6.286734e-12	0.006427957	-0.01993515
4e+07	0.004229178	-0.02784837	4.677755e-12	1.197763e-11	0.001347218	0.004625902	3.422819e-12	3.633719e-11
	4.677754e-12	1.197763e-11	0.00435439	-0.02765648	1.134812e-11	5.300536e-12	0.001344827	0.004574375
	0.00134722	0.004625904	1.134812e-11	5.300536e-12	0.005092773	-0.02794454	2.830441e-12	4.765621e-12
	3.422819e-12	3.633719e-11	0.001344822	0.004574373	2.830441e-12	4.765622e-12	0.004357878	-0.02760562
5e+07	0.001034823	-0.03529567	-4.68851e-13	1.353562e-11	0.002023715	0.005586087	-2.775954e-12	4.510873e-11
	-4.688521e-13	1.353562e-11	0.001160301	-0.03510117	8.961415e-12	3.409825e-12	0.001989196	0.005541162
	0.002023717	0.005586087	8.961415e-12	3.409825e-12	0.00189806	-0.03545553	-5.18716e-12	3.689328e-12
	-2.775954e-12	4.510873e-11	0.001989193	0.005541161	-5.18716e-12	3.689328e-12	0.001163829	-0.03504013
6e+07	-0.003166836	-0.04233064	-8.003743e-12	1.609768e-11	0.002808456	0.00644139	-1.112611e-11	5.540093e-11
	-8.003741e-12	1.609768e-11	-0.003057853	-0.04213211	4.290509e-12	1.516008e-12	0.002741003	0.006409617
	0.002808454	0.00644139	4.290509e-12	1.516008e-12	-0.002311362	-0.04255379	-1.681625e-11	4.12943e-12
	-1.112611e-11	5.540093e-11	0.002741006	0.006409616	-1.681625e-11	4.12943e-12	-0.003055519	-0.04206094
7e+07	-0.00828121	-0.04881383	-1.784725e-11	2.039744e-11	0.003686202	0.007179427	-2.13064e-11	6.784063e-11
	-1.784725e-11	2.039744e-11	-0.008203177	-0.04860676	-2.832972e-12	1.756947e-13	0.003585632	0.00716725
	0.003686196	0.007179428	-2.832973e-12	1.756945e-13	-0.007440988	-0.0491003	-3.183602e-11	7.115148e-12
	-2.13064e-11	6.784063e-11	0.00358564	0.007167246	-3.183602e-11	7.115146e-12	-0.008203201	-0.04852517
8e+07	-0.01420844	-0.05462763	-2.980569e-11	2.720582e-11	0.004640069	0.007789785	-3.29124e-11	8.302888e-11
	-2.980568e-11	2.720582e-11	-0.01417398	-0.05440564	-1.254255e-11	2.870259e-14	0.004506987	0.007803713
	0.004640062	0.007789788	-1.254255e-11	2.870225e-14	-0.01339125	-0.0549777	-4.988414e-11	1.371831e-11
	-3.29124e-11	8.302888e-11	0.004506996	0.007803707	-4.988414e-11	1.37183e-11	-0.01417745	-0.05431306
9e+07	-0.0208413	-0.05967222	-4.360404e-11	3.744796e-11	0.005651908	0.008264414	-4.546327e-11	1.016426e-10
	-4.360403e-11	3.744796e-11	-0.02086188	-0.05942839	-2.501005e-11	1.904226e-12	0.005487906	0.008311187
	0.005651903	0.008264418	-2.501005e-11	1.904226e-12	-0.02005575	-0.0600869	-7.048652e-11	2.521953e-11
	-4.546327e-11	1.016426e-10	0.005487912	0.008311181	-7.048652e-11	2.521953e-11	-0.02086976	-0.05932398
1e+08	-0.02806238	-0.06386031	-5.906562e-11	5.318103e-11	0.006702913	0.008598131	-5.851862e-11	1.252165e-10
	-5.906562e-11	5.318103e-11	-0.0281529	-0.06359415	-4.122129e-11	7.814939e-12	0.006511499	0.008685948
	0.006702913	0.008598131	-4.122129e-11	7.814939e-12	-0.02732167	-0.06434656	-9.351964e-11	4.462554e-11
	-5.851862e-11	1.252165e-10	0.006511499	0.008685948	-9.351964e-11	4.462554e-11	-0.02816612	-0.063477
1.1e+08	-0.03573531	-0.06716203	-6.838338e-11	7.370704e-11	0.007773914	0.008786979	-6.588697e-11	1.471326e-10
	-6.838338e-11	7.370704e-11	-0.03592798	-0.06683471	-4.874127e-11	1.674103e-11	0.007564036	0.00891664
	0.007773914	0.008786979	-4.874127e-11	1.674103e-11	-0.03506887	-0.06769642	-1.062873e-10	6.817837e-11
	-6.588697e-11	1.471326e-10	0.007564036	0.008916641	-1.062873e-10	6.817837e-11	-0.03594641	-0.06670288
1.2e+08	-0.04377349	-0.06951232	-7.509843e-11	8.842049e-11	0.008844248	0.008830923	-7.227916e-11	1.690833e-10
	-7.509843e-11	8.842049e-11	-0.04405504	-0.06909307	-5.270789e-11	2.117526e-11	0.008616845	0.009004147
	0.008844248	0.008830923	-5.270789e-11	2.117526e-11	-0.04317577	-0.07007692	-1.157174e-10	8.537975e-11
	-7.227916e-11	1.690833e-10	0.008616845	0.009004147	-1.157174e-10	8.537975e-11	-0.044079	-0.0689452
1.3e+08	-0.05204557	-0.07087203	-8.096605e-11	1.032726e-10	0.009895005	0.008732842	-7.777993e-11	1.929165e-10
	-8.096605e-11	1.032726e-10	-0.05240502	-0.07034051	-5.698175e-11	2.57952e-11	0.009652715	0.008952966
	0.009895005	0.008732842	-5.698175e-11	2.57952e-11	-0.05151453	-0.07145687	-1.242249e-10	1.031376e-10
	-7.777993e-11	1.929165e-10	0.009652715	0.008952966	-1.242249e-10	1.031376e-10	-0.05243461	-0.07017506
1.4e+08	-0.06042258	-0.07122406	-8.572235e-11	1.192883e-10	0.01090778	0.008497792	-8.200134e-11	2.181766e-10
	-8.572235e-11	1.192883e-10	-0.06084739	-0.07056332	-6.176918e-11	3.141893e-11	0.01065419	0.008768159
	0.01090778	0.008497792	-6.176918e-11	3.141893e-11	-0.05995644	-0.0718211	-1.313741e-10	1.225861e-10
	-8.200134e-11	2.181766e-10	0.01065419	0.008768159	-1.313741e-10	1.225861e-10	-0.06088228	-0.07037855
1.5e+08	-0.06877716	-0.07056824	-8.956999e-11	1.367324e-10	0.01186518	0.008133131	-8.478017e-11	2.45088e-10
	-8.956999e-11	1.367324e-10	-0.06925291	-0.06976399	-6.690105e-11	3.800749e-11	0.01160466	0.008456736
	0.01186518	0.00813313	-6.690105e-11	3.800749e-11	-0.06837403	-0.07117048	-1.373718e-10	1.440386e-10
	-8.478017e-11	2.45088e-10	0.01160466	0.008456736	-1.373718e-10	1.440386e-10	-0.06929232	-0.06955815
1.6e+08	-0.07698502	-0.06892017	-9.22732e-11	1.55446e-10	0.01275117	0.007648322	-8.58239e-11	2.734382e-10
	-9.22732e-11	1.55446e-10	-0.07749547	-0.06796074	-7.225994e-11	4.555492e-11	0.01248875	0.008027616
	0.01275117	0.007648322	-7.225994e-11	4.555492e-11	-0.07664277	-0.06952139	-1.418908e-10	1.672794e-10
	-8.58239e-11	2.734382e-10	0.01248875	0.008027616	-1.418908e-10	1.672794e-10	-0.07753821	-0.06773221
1.7e+08	-0.08492643	-0.06631031	-9.362188e-11	1.752582e-10	0.01355128	0.007054698	-8.487242e-11	3.029856e-10
	-9.362188e-11	1.752582e-10	-0.08545378	-0.06518678	-7.774032e-11	5.407225e-11	0.01329254	0.007491446
	0.01355128	0.007054698	-7.774032e-11	5.407225e-11	-0.08464267	-0.06690494	-1.446406e-10	1.920802e-10
	-8.487242e-11	3.029856e-10	0.01329254	0.007491446	-1.446406e-10	1.920802e-10	-0.08549826	-0.06493414
1.8e+08	-0.09248767	-0.06278304	-9.343003e-11	1.959799e-10	0.01425281	0.006365195	-8.170029e-11	3.33457e-10
	-9.343003e-11	1.959799e-10	-0.09301288	-0.06148932	-8.323722e-11	6.357771e-11	0.01400375	0.006860368
	0.01425281	0.006365195	-8.323722e-11	6.357771e-11	-0.09225977	-0.06336604	-1.453634e-10	2.181892e-10
	-8.170029e-11	3.33457e-10	0.01400375	0.006860368	-1.453634e-10	2.181892e-10	-0.0930572	-0.06121145
1.9e+08	-0.09956241	-0.05839554	-9.153707e-11	2.174022e-10	0.01484496	0.005594077	-7.612082e-11	3.645481e-10
	-9.153707e-11	2.174022e-10	-0.1000655	-0.05692858	-8.864016e-11	7.409007e-11	0.01461188	0.006147775
	0.01484496	0.005594077	-8.864016e-11	7.409007e-11	-0.09938754	-0.05896239	-1.438346e-10	2.453279e-10
	-7.612082e-11	3.645481e-10	0.01461188	0.006147775	-1.438346e-10	2.453279e-10	-0.1001076	-0.05662468
2e+08	-0.1060529	-0.05321677	-8.780988e-11	2.392964e-10	0.01531897	0.004756655	-6.799036e-11	3.959277e-10
	-8.780988e-11	2.392964e-10	-0.1065136	-0.05157655	-9.383009e-11	8.56237e-11	0.01510829	0.005368054
	0.01531897	0.004756655	-9.383009e-11	8.56237e-11	-0.1059281	-0.0537634	-1.398656e-10	2.731903e-10
	-6.799036e-11	3.959277e-10	0.01510829	0.005368054	-1.398656e-10	2.731903e-10	-0.1065511	-0.05124619
2.1e+08	-0.1118713	-0.04732613	-8.214526e-11	2.61417e-10	0.01566814	0.003869019	-5.721255e-11	4.272419e-10
	-8.214526e-11	2.61417e-10	-0.1122691	-0.04551579	-9.867812e-11	9.818366e-11	0.01548632	0.004536336
	0.01566814	0.003869019	-9.867812e-11	9.818366e-11	-0.1117933	-0.04784893	-1.333072e-10	3.014455e-10
	-5.721255e-11	4.272419e-10	0.01548632	0.004536336	-1.333072e-10	3.014455e-10	-0.1122997	-0.0451589
2.2e+08	-0.1169403	-0.04081226	-7.447189e-11	2.835037e-10	0.01588789	0.002947764	-4.37418e-11	4.581204e-10
	-7.447189e-11	2.835037e-10	-0.1172551	-0.03883801	-1.030456e-10	1.117615e-10	0.01574121	0.00366825
	0.01588789	0.002947764	-1.030456e-10	1.117615e-10	-0.1169059	-0.04130798	-1.240534e-10	3.297412e-10
	-4.37418e-11	4.581204e-10	0.01574121	0.00366825	-1.240534e-10	3.297412e-10	-0.1172764	-0.0384549
2.3e+08	-0.1211941	-0.03377156	-6.475187e-11	3.052858e-10	0.01597571	0.002009735	-2.758584e-11	4.881838e-10
	-6.475187e-11	3.052858e-10	-0.1214067	-0.03164266	-1.067857e-10	1.26331e-10	0.0158702	0.002779689
	0.01597571	0.002009735	-1.067857e-10	1.26331e-10	-0.1211999	-0.03423738	-1.12044e-10	3.577077e-10
	-2.758584e-11	4.881838e-10	0.0158702	0.002779689	-1.12044e-10	3.577077e-10	-0.1214163	-0.03123404
2.4e+08	-0.1245792	-0.02630685	-5.298277e-11	3.264846e-10	0.01593121	0.001071787	-8.808259e-12	5.170505e-10
	-5.298277e-11	3.264846e-10	-0.1246716	-0.02403547	-1.097457e-10	1.418443e-10	0.01587244	0.001886591
	0.01593121	0.001071787	-1.097457e-10	1.418443e-10	-0.1246218	-0.02674029	-9.726854e-11	3.849633e-10
	-8.808259e-12	5.170505e-10	0.01587244	0.001886591	-9.726854e-11	3.849633e-10	-0.1246672	-0.0236024
2.5e+08	-0.1270548	-0.01852587	-3.919828e-11	3.468181e-10	0.01575599	0.000150558	1.247124e-11	5.443456e-10
	-3.919828e-11	3.468181e-10	-0.1270106	-0.01612695	-1.117714e-10	1.582288e-10	0.01574897	0.00100473
	0.01575599	0.000150558	-1.117714e-10	1.582288e-10	-0.1271306	-0.01892482	-7.976775e-11	4.111203e-10
	1.247124e-11	5.443456e-10	0.01574897	0.00100473	-7.976775e-11	4.111203e-10	-0.12699	-0.01567084
2.6e+08	-0.1285931	-0.01053983	-2.346904e-11	3.660051e-10	0.0154536	-0.000737749	3.608024e-11	5.69708e-10
	-2.346904e-11	3.660051e-10	-0.1283979	-0.0080308	-1.127112e-10	1.753848e-10	0.01550264	0.0001495243
	0.0154536	-0.000737749	-1.127112e-10	1.753848e-10	-0.1286985	-0.0109025	-5.963577e-11	4.357918e-10
	3.608024e-11	5.69708e-10	0.01550264	0.0001495242	-5.963577e-11	4.357918e-10	-0.1283591	-0.007553413
2.7e+08	-0.1291795	-0.002461882	-5.903817e-12	3.837688e-10	0.01502949	-0.00157756	6.179192e-11	5.927987e-10
	-5.903817e-12	3.837688e-10	-0.1288214	0.0001375651	-1.124215e-10	1.931841e-10	0.01513808	-0.0006641459
	0.01502949	-0.00157756	-1.124215e-10	1.931841e-10	-0.129311	-0.002786834	-3.702042e-11	4.58598e-10
	6.179192e-11	5.927987e-10	0.01513808	-0.0006641459	-3.702042e-11	4.58598e-10	-0.1287626	0.0006341762
2.8e+08	-0.1288128	0.005594354	1.334991e-11	3.998418e-10	0.01449085	-0.002354118	8.932929e-11	6.133086e-10
	1.334991e-11	3.998418e-10	-0.1282824	0.008262598	-1.107734e-10	2.114705e-10	0.01466157	-0.001422105
	0.01449085	-0.002354118	-1.107734e-10	2.114705e-10	-0.1289668	0.00530824	-1.212367e-11	4.791744e-10
	8.932929e-11	6.133086e-10	0.01466157	-0.001422105	-1.212367e-11	4.791744e-10	-0.1282022	0.008776098
2.9e+08	-0.1275049	0.01351625	3.410637e-11	4.139716e-10	0.01384657	-0.003053654	1.183697e-10	6.309657e-10
	3.410637e-11	4.139716e-10	-0.1267959	0.0162301	-1.076585e-10	2.300603e-10	0.01408096	-0.002111043
	0.01384657	-0.003053654	-1.076585e-10	2.300603e-10	-0.1276777	0.01326977	1.479995e-11	4.971784e-10
	1.183697e-10	6.309657e-10	0.01408096	-0.002111043	1.479995e-11	4.971784e-10	-0.126693	0.01675792
3e+08	-0.1252807	0.02119362	5.614252e-11	4.259257e-10	0.01310706	-0.003663557	1.485499e-10	6.455418e-10
	5.614252e-11	4.259257e-10	-0.1243899	0.02392874	-1.029947e-10	2.48746e-10	0.0134056	-0.002718663
	0.01310706	-0.003663557	-1.029947e-10	2.48746e-10	-0.1254688	0.02098728	4.34455e-11	5.122973e-10
	1.485499e-10	6.455418e-10	0.0134056	-0.002718663	4.34455e-11	5.122973e-10	-0.1242636	0.0244681
3.1e+08	-0.1221777	0.02852017	7.921462e-11	4.355248e-10	0.01228416	-0.004172521	1.794729e-10	6.568577e-10
	7.921462e-11	4.355248e-10	-0.1211054	0.03125147	-9.67567e-11	2.673256e-10	0.01264618	-0.003233832
	0.01228416	-0.004172521	-9.67567e-11	2.673256e-10	-0.1223776	0.02835413	7.346123e-11	5.24255e-10
	1.794729e-10	6.568577e-10	0.01264618	-0.003233832	7.346123e-11	5.24255e-10	-0.1209551	0.03179943
3.2e+08	-0.1182453	0.0353948	1.030619e-10	4.426126e-10	0.01139099	-0.004570692	2.107139e-10	6.647887e-10
	1.030619e-10	4.426126e-10	-0.1169953	0.03809693	-8.894148e-11	2.855816e-10	0.01181467	-0.003646711
	0.01139099	-0.004570692	-8.894148e-11	2.855816e-10	-0.1184535	0.03526894	1.044523e-10	5.328195e-10
	2.107139e-10	6.647887e-10	0.01181467	-0.003646711	1.044523e-10	5.328195e-10	-0.116821	0.03865045
3.3e+08	-0.1135445	0.04172295	1.273405e-10	4.469877e-10	0.01044182	-0.004849809	2.418285e-10	6.692687e-10
	1.273405e-10	4.469877e-10	-0.1121241	0.04437077	-7.952203e-11	3.032096e-10	0.01092412	-0.00394889
	0.01044182	-0.004849809	-7.952203e-11	3.032096e-10	-0.1137577	0.04163687	1.359853e-10	5.378117e-10
	2.418285e-10	6.692687e-10	0.01092412	-0.00394889	1.359853e-10	5.378117e-10	-0.1119261	0.04492677
3.4e+08	-0.1081467	0.04741787	1.517041e-10	4.48547e-10	0.009451846	-0.005003329	2.723603e-10	6.70291e-10
	1.517041e-10	4.48547e-10	-0.1065669	0.04998689	-6.857883e-11	3.2e-10	0.009988591	-0.004133516
	0.009451846	-0.005003329	-6.857883e-11	3.2e-10	-0.1083616	0.04737087	1.676461e-10	5.391405e-10
	2.723603e-10	6.70291e-10	0.009988591	-0.004133516	1.676461e-10	5.391405e-10	-0.1063459	0.05054232
3.5e+08	-0.1021332	0.05240171	1.757853e-10	4.472343e-10	0.008437072	-0.005026542	3.01851e-10	6.679133e-10
	1.757853e-10	4.472343e-10	-0.1004082	0.05486865	-5.621215e-11	3.356815e-10	0.009022927	-0.00419541
	0.008437072	-0.005026542	-5.621215e-11	3.356815e-10	-0.1023466	0.05239282	1.989457e-10	5.367158e-10
	3.01851e-10	6.679133e-10	0.009022927	-0.00419541	1.989457e-10	5.367158e-10	-0.1001656	0.05542051
3.6e+08	-0.09559363	0.05660664	1.992027e-10	4.430435e-10	0.007414078	-0.004916681	3.298488e-10	6.622561e-10
	1.992027e-10	4.430435e-10	-0.09374146	0.0589499	-4.257769e-11	3.499918e-10	0.008042627	-0.004131173
	0.007414078	-0.004916681	-4.257769e-11	3.499918e-10	-0.09580268	0.05663461	2.293497e-10	5.305118e-10
	3.298488e-10	6.622561e-10	0.008042627	-0.004131173	2.293497e-10	5.305118e-10	-0.09347881	0.05949531
3.7e+08	-0.08862536	0.05997579	2.215689e-10	4.360197e-10	0.006399813	-0.004673009	3.559158e-10	6.535005e-10
	2.215689e-10	4.360197e-10	-0.08666697	0.06217591	-2.788104e-11	3.627287e-10	0.007063632	-0.003939286
	0.006399813	-0.004673009	-2.788104e-11	3.627287e-10	-0.08882719	0.06003912	2.583465e-10	5.205989e-10
	3.559158e-10	6.535005e-10	0.007063632	-0.003939286	2.583465e-10	5.205989e-10	-0.08638631	0.06271218
3.8e+08	-0.08133179	0.06246412	2.424967e-10	4.26262e-10	0.005411364	-0.004296888	3.79637e-10	6.418873e-10
	2.424967e-10	4.26262e-10	-0.07929116	0.06450425	-1.236277e-11	3.737256e-10	0.006102117	-0.003620185
	0.005411364	-0.004296888	-1.236277e-11	3.737256e-10	-0.08152379	0.06256105	2.854276e-10	5.071191e-10
	3.79637e-10	6.418873e-10	0.006102117	-0.003620185	2.854276e-10	5.071191e-10	-0.07899493	0.06502893
3.9e+08	-0.0738212	0.06403906	2.61607e-10	4.139243e-10	0.004465703	-0.003791824	4.006286e-10	6.277133e-10
	2.61607e-10	4.139243e-10	-0.07172491	0.06590541	3.70849e-12	3.828574e-10	0.005174255	-0.003176323
	0.004465703	-0.003791824	3.70849e-12	3.828574e-10	-0.07400099	0.06416763	3.100985e-10	4.902865e-10
	4.006286e-10	6.277133e-10	0.005174255	-0.003176323	3.100985e-10	4.902865e-10	-0.0714159	0.06641634
4e+08	-0.06620517	0.06468115	2.785369e-10	3.992147e-10	0.003579421	-0.00316349	4.18545e-10	6.113275e-10
	2.785369e-10	3.992147e-10	-0.06408204	0.06636332	2.004433e-11	3.900459e-10	0.004295975	-0.002612202
	0.003579421	-0.00316349	2.004433e-11	3.900459e-10	-0.0663706	0.06483917	3.31889e-10	4.703861e-10
	4.18545e-10	6.113275e-10	0.004295975	-0.002612202	3.31889e-10	4.703861e-10	-0.0637634	0.06685871
4.1e+08	-0.0585971	0.06438434	2.929477e-10	3.823944e-10	0.002768452	-0.002419704	4.330861e-10	5.931252e-10
	2.929477e-10	3.823944e-10	-0.05647775	0.06587573	3.634573e-11	3.952629e-10	0.003482698	-0.001934371
	0.002768452	-0.002419704	3.634573e-11	3.952629e-10	-0.0587463	0.06456947	3.503642e-10	4.47771e-10
	4.330861e-10	5.931252e-10	0.003482698	-0.001934371	3.503642e-10	4.47771e-10	-0.05615287	0.06635417
4.2e+08	-0.05111056	0.06315627	3.04533e-10	3.637745e-10	0.002047783	-0.001570383	4.440032e-10	5.735421e-10
	3.04533e-10	3.637745e-10	-0.04902691	0.06445432	5.231271e-11	3.985311e-10	0.002749062	-0.001151398
	0.002047783	-0.001570383	5.231271e-11	3.985311e-10	-0.05124194	0.063366	3.651342e-10	4.228579e-10
	4.440032e-10	5.735421e-10	0.002749062	-0.001151398	3.651342e-10	4.228579e-10	-0.04869945	0.06491484
4.3e+08	-0.04385768	0.06101824	3.130266e-10	3.437116e-10	0.001431166	-0.0006274444	4.511039e-10	5.530475e-10
	3.130266e-10	3.437116e-10	-0.04184241	0.06212466	6.765408e-11	3.999235e-10	0.002108646	-0.000273794
	0.001431166	-0.0006274444	6.765408e-11	3.999235e-10	-0.04396994	0.06124995	3.758644e-10	3.961209e-10
	4.511039e-10	5.530475e-10	0.002108646	-0.000273794	3.758644e-10	3.961209e-10	-0.04151619	0.06256678
4.4e+08	-0.03694744	0.05800506	3.182092e-10	3.226031e-10	0.0009308329	0.0003953268	4.542566e-10	5.321363e-10
	3.182092e-10	3.226031e-10	-0.03503345	0.05892598	8.209659e-11	3.995604e-10	0.001573691	0.0006860988
	0.0009308329	0.0003953268	8.209659e-11	3.995604e-10	-0.03703961	0.05825603	3.822839e-10	3.68084e-10
	4.542566e-10	5.321363e-10	0.001573692	0.0006860987	3.822839e-10	3.68084e-10	-0.0347124	0.05934973
4.5e+08	-0.03048408	0.05416463	3.199153e-10	3.008796e-10	0.0005572193	0.001482466	4.533936e-10	5.113217e-10
	3.199153e-10	3.008796e-10	-0.02870385	0.05491069	9.539332e-11	3.976043e-10	0.001154836	0.00171427
	0.0005572193	0.001482466	9.539332e-11	3.976043e-10	-0.03055551	0.05443208	3.841933e-10	3.393113e-10
	4.533936e-10	5.113217e-10	0.001154836	0.00171427	3.841933e-10	3.393113e-10	-0.02839196	0.05531659
4.6e+08	-0.02456544	0.04955734	3.180382e-10	2.789978e-10	0.0003187107	0.002617054	4.485132e-10	4.911264e-10
	3.180382e-10	2.789978e-10	-0.02295045	0.05014366	1.073307e-10	3.942543e-10	0.0008608586	0.002795241
	0.0003187107	0.002617054	1.073307e-10	3.942543e-10	-0.02461582	0.0498385	3.814713e-10	3.103972e-10
	4.485132e-10	4.911264e-10	0.0008608586	0.002795241	3.814713e-10	3.103972e-10	-0.02265168	0.05053281
4.7e+08	-0.01928144	0.0442553	3.125343e-10	2.574316e-10	0.000221417	0.003780995	4.396808e-10	4.720743e-10
	3.125343e-10	2.574316e-10	-0.01786155	0.04470138	1.177338e-10	3.897376e-10	0.000698458	0.003912319
	0.000221417	0.003780995	1.177338e-10	3.897376e-10	-0.0193108	0.0445474	3.740784e-10	2.819544e-10
	4.396808e-10	4.720743e-10	0.000698458	0.003912319	3.740784e-10	2.819544e-10	-0.01757977	0.0450754
4.8e+08	-0.01471265	0.03834125	3.034258e-10	2.366623e-10	0.0002689834	0.004955325	4.270288e-10	4.54682e-10
	3.034258e-10	2.366623e-10	-0.01351545	0.03867084	1.264704e-10	3.843018e-10	0.000672057	0.005047878
