!$
! Info: Touchstone file created by Circ.  Input file=Tx_6in_Rx_100ohms_TxVia_35mils_RxVia_45mils.circ
!$
# Hz S RI R 50
0	0.006334042	8.933396e-26	-3.26125e-05	3.858571e-24	5.22132e-05	1.182469e-23	-3.262465e-05	5.387805e-24
	-3.261251e-05	3.859739e-24	0.00633185	1.042205e-25	-3.259281e-05	1.528433e-24	5.157393e-05	1.42759e-23
	5.272274e-05	1.199002e-23	-3.25928e-05	1.526407e-24	0.006346345	8.681208e-26	-3.261067e-05	3.760745e-24
	-3.262466e-05	5.38861e-24	4.972657e-05	1.434631e-23	-3.261068e-05	3.762408e-24	0.006345015	9.763635e-26
1e+07	0.008564168	0.004550007	-5.145128e-05	-2.369679e-05	0.0001497791	0.001213526	-0.0001414239	7.583999e-05
	-5.145128e-05	-2.369678e-05	0.009182829	0.004419782	-1.865276e-05	-8.40541e-06	0.000362031	0.001251806
	0.0001498089	0.001213521	-1.865276e-05	-8.40541e-06	0.00892414	0.004399051	-5.438316e-06	-8.261254e-06
	-0.0001414239	7.583999e-05	0.0003619708	0.001251816	-5.438314e-06	-8.261255e-06	0.009104428	0.004434448
2e+07	0.01139847	0.007155698	-2.778878e-05	-4.881713e-05	0.000377018	0.002427853	-0.0001670119	6.576056e-05
	-2.778878e-05	-4.881713e-05	0.01173883	0.006723525	-1.474071e-05	-9.388779e-06	0.000502757	0.002579947
	0.0003770193	0.002427831	-1.474071e-05	-9.388779e-06	0.01153022	0.00678971	-5.629164e-06	5.121767e-07
	-0.0001670119	6.576056e-05	0.0005027484	0.002579981	-5.629163e-06	5.121751e-07	0.01168581	0.006784405
3e+07	0.01385512	0.008570505	-1.393345e-05	-5.706508e-05	0.00075039	0.00357881	-0.0001869337	6.653186e-05
	-1.393345e-05	-5.706508e-05	0.01396702	0.008065057	-1.201256e-05	-1.00402e-05	0.0008084965	0.003771582
	0.0007503838	0.003578808	-1.201256e-05	-1.00402e-05	0.01381159	0.008160355	-6.725082e-06	-4.54003e-07
	-0.0001869337	6.653186e-05	0.0008084963	0.003771587	-6.725082e-06	-4.540031e-07	0.01393589	0.008147266
4e+07	0.01614647	0.009433223	-3.63503e-05	-5.214782e-05	0.001261099	0.004663598	-0.0002046621	6.853326e-05
	-3.63503e-05	-5.214782e-05	0.01605611	0.008926247	-9.822883e-06	-1.034027e-05	0.001276673	0.004878672
	0.0012611	0.004663602	-9.822883e-06	-1.034027e-05	0.01595973	0.009032612	-8.291299e-06	-2.014469e-06
	-0.0002046621	6.853327e-05	0.001276667	0.00487867	-8.291299e-06	-2.014469e-06	0.01604529	0.009022222
5e+07	0.01832944	0.009888471	-5.500503e-05	-4.222503e-05	0.001898448	0.005668003	-0.0002213672	7.122342e-05
	-5.500503e-05	-4.222503e-05	0.01805691	0.009425817	-7.935184e-06	-1.046192e-05	0.001976746	0.005864594
	0.00189845	0.005668005	-7.935184e-06	-1.046192e-05	0.01802549	0.009529655	-1.009619e-05	-3.00668e-06
	-0.0002213672	7.122342e-05	0.001976742	0.005864593	-1.009618e-05	-3.00668e-06	0.01806505	0.00953066
6e+07	0.02041871	0.01000378	-7.019253e-05	-2.851085e-05	0.002650307	0.006578113	-0.0002376378	7.451474e-05
	-7.019253e-05	-2.851085e-05	0.01998329	0.00962159	-6.212949e-06	-1.046688e-05	0.002775395	0.006745814
	0.002650305	0.006578112	-6.212948e-06	-1.046688e-05	0.02002122	0.009709425	-1.209244e-05	-3.517021e-06
	-0.0002376378	7.451474e-05	0.002775398	0.006745813	-1.209244e-05	-3.517021e-06	0.02000898	0.009731478
7e+07	0.02241205	0.009819613	-8.19054e-05	-1.166896e-05	0.00351212	0.007377024	-0.0002538872	7.827363e-05
	-8.19054e-05	-1.166896e-05	0.02183392	0.009548506	-5.643406e-06	-9.867518e-06	0.003660252	0.007513026
	0.003512114	0.007377023	-5.643406e-06	-9.867518e-06	0.02194394	0.0096069	-1.420957e-05	-3.559497e-06
	-0.0002538872	7.827363e-05	0.00366026	0.007513023	-1.420957e-05	-3.559497e-06	0.02187557	0.009660193
8e+07	0.02429937	0.009364959	-8.993508e-05	7.946181e-06	0.004461117	0.008056204	-0.0002705788	8.21709e-05
	-8.993507e-05	7.94618e-06	0.0236007	0.009232414	-7.485658e-06	-7.67022e-06	0.0046171	0.008157345
	0.004461109	0.008056205	-7.485658e-06	-7.67022e-06	0.02378388	0.009247856	-1.637727e-05	-3.141006e-06
	-0.0002705788	8.21709e-05	0.00461711	0.008157339	-1.637727e-05	-3.141006e-06	0.02365639	0.009343038
9e+07	0.02606634	0.008663051	-9.378202e-05	3.03455e-05	0.005479405	0.008607971	-0.0002885658	8.537688e-05
	-9.378202e-05	3.03455e-05	0.02527328	0.008696186	-8.735278e-06	-5.071299e-06	0.005629924	0.008670649
	0.005479399	0.008607973	-8.735277e-06	-5.071299e-06	0.02552884	0.008654885	-1.855132e-05	-2.295627e-06
	-0.0002885658	8.537688e-05	0.005629931	0.008670644	-1.855132e-05	-2.295627e-06	0.02534069	0.008803108
1e+08	0.02769305	0.007730157	-9.107908e-05	5.776922e-05	0.00655269	0.009028195	-0.0003115951	8.330075e-05
	-9.107908e-05	5.776922e-05	0.02684792	0.007970276	-9.04629e-06	-1.773847e-06	0.006678349	0.009042428
	0.00655269	0.009028194	-9.04629e-06	-1.773847e-06	0.02717232	0.007857174	-2.076972e-05	-1.12301e-06
	-0.0003115951	8.330075e-05	0.006678349	0.009042428	-2.076972e-05	-1.12301e-06	0.02692353	0.008070116
1.1e+08	0.02915121	0.006609327	-7.730901e-05	7.381287e-05	0.007670003	0.009296263	-0.0003177559	7.125336e-05
	-7.730901e-05	7.381287e-05	0.02834249	0.007006015	-7.586995e-06	2.005971e-07	0.007732492	0.009294617
	0.007670003	0.009296263	-7.586995e-06	2.005971e-07	0.02872578	0.006811643	-2.24584e-05	1.060606e-07
	-0.0003177559	7.125336e-05	0.007732492	0.009294617	-2.24584e-05	1.060606e-07	0.02842103	0.007101943
1.2e+08	0.03045659	0.005325258	-7.791896e-05	7.135531e-05	0.008795811	0.009413766	-0.0003194154	6.836507e-05
	-7.791896e-05	7.135531e-05	0.02966935	0.005847881	-6.568497e-06	1.516266e-06	0.008804751	0.009419185
	0.008795811	0.009413766	-6.568497e-06	1.516266e-06	0.03010758	0.005563483	-2.374535e-05	1.867837e-06
	-0.0003194154	6.836507e-05	0.008804751	0.009419185	-2.374535e-05	1.867837e-06	0.02975072	0.005941098
1.3e+08	0.03159302	0.003890964	-7.753597e-05	7.088967e-05	0.009914014	0.009384609	-0.0003196447	6.897945e-05
	-7.753597e-05	7.088967e-05	0.03082575	0.004531205	-5.639644e-06	2.499058e-06	0.009874325	0.00940956
	0.009914014	0.009384609	-5.639644e-06	2.499058e-06	0.0313125	0.004146965	-2.467498e-05	3.993403e-06
	-0.0003196447	6.897945e-05	0.009874325	0.00940956	-2.467498e-05	3.993403e-06	0.03090898	0.004621966
1.4e+08	0.03254839	0.002325706	-7.64433e-05	7.16175e-05	0.01100679	0.009211976	-0.0003189206	7.169679e-05
	-7.64433e-05	7.16175e-05	0.03180313	0.003080182	-4.757288e-06	3.25929e-06	0.01092327	0.00926619
	0.01100679	0.009211976	-4.757288e-06	3.25929e-06	0.03233013	0.002586752	-2.521359e-05	6.388693e-06
	-0.0003189206	7.169679e-05	0.01092327	0.00926619	-2.521359e-05	6.388693e-06	0.03188716	0.00316879
1.5e+08	0.03331221	0.0006503834	-7.473555e-05	7.312374e-05	0.0120565	0.008900871	-0.0003174287	7.576585e-05
	-7.473555e-05	7.312374e-05	0.03259322	0.001517663	-3.905812e-06	3.849754e-06	0.01193438	0.008992428
	0.0120565	0.008900871	-3.905812e-06	3.849754e-06	0.03315053	0.0009066575	-2.532936e-05	8.966078e-06
	-0.0003174287	7.576585e-05	0.01193438	0.008992428	-2.532936e-05	8.966078e-06	0.0326771	0.001604532
1.6e+08	0.03387576	-0.001112981	-7.245458e-05	7.513342e-05	0.01304618	0.00845832	-0.0003152813	8.069239e-05
	-7.245458e-05	7.513342e-05	0.03318895	-0.0001336963	-3.078905e-06	4.301354e-06	0.01289123	0.008593997
	0.01304618	0.00845832	-3.078905e-06	4.301354e-06	0.03376514	-0.0008693761	-2.500092e-05	1.163803e-05
	-0.0003152813	8.069239e-05	0.01289123	0.008593997	-2.500092e-05	1.163803e-05	0.03327181	-4.807943e-05
1.7e+08	0.0342323	-0.002941497	-6.962824e-05	7.743981e-05	0.0139598	0.007893354	-0.0003125768	8.611891e-05
	-6.962824e-05	7.743981e-05	0.03358483	-0.001851118	-2.274489e-06	4.634274e-06	0.01377836	0.008078747
	0.0139598	0.007893354	-2.274489e-06	4.634274e-06	0.03416718	-0.002717002	-2.422032e-05	1.43169e-05
	-0.0003125768	8.611891e-05	0.01377836	0.008078747	-2.422032e-05	1.43169e-05	0.03366594	-0.001766214
1.8e+08	0.03437722	-0.00481161	-6.628427e-05	7.987619e-05	0.01478261	0.007216893	-0.0003094187	9.177639e-05
	-6.628427e-05	7.987619e-05	0.03377724	-0.003611642	-1.492576e-06	4.862815e-06	0.01458149	0.007456463
	0.01478261	0.007216893	-1.492576e-06	4.862815e-06	0.03435201	-0.004611471	-2.299407e-05	1.691641e-05
	-0.0003094187	9.177639e-05	0.01458149	0.007456463	-2.299407e-05	1.691641e-05	0.03385596	-0.003526879
1.9e+08	0.03430829	-0.00669936	-6.245528e-05	8.230704e-05	0.01550131	0.0064416	-0.0003059226	9.746185e-05
	-6.245528e-05	8.230704e-05	0.0337646	-0.005392205	-1.13205e-06	4.82954e-06	0.01528772	0.00673867
	0.01550131	0.0064416	-1.13205e-06	4.82954e-06	0.03431729	-0.006527766	-2.134171e-05	1.935804e-05
	-0.0003059226	9.746185e-05	0.01528772	0.00673867	-2.134171e-05	1.935804e-05	0.03384039	-0.00530699
2e+08	0.0340257	-0.008580638	-5.818388e-05	8.461148e-05	0.01610429	0.005581683	-0.0003022159	0.0001030271
	-5.818388e-05	8.461148e-05	0.03354755	-0.007169815	-1.070464e-06	4.668676e-06	0.01588573	0.005938439
	0.01610429	0.005581683	-1.070464e-06	4.668676e-06	0.03406317	-0.00844081	-1.929796e-05	2.15631e-05
	-0.0003022159	0.0001030271	0.01588573	0.005938439	-1.929796e-05	2.15631e-05	0.03361993	-0.00708353
2.1e+08	0.03353216	-0.01043147	-5.352436e-05	8.668482e-05	0.01658184	0.004652681	-0.0002984356	0.0001083728
	-5.352436e-05	8.668482e-05	0.03312894	-0.008921746	-1.003317e-06	4.526271e-06	0.01636597	0.005070163
	0.01658184	0.004652681	-1.003317e-06	4.526271e-06	0.03359233	-0.01032571	-1.691228e-05	2.345925e-05
	-0.0002984356	0.0001083728	0.01636597	0.005070163	-1.691228e-05	2.345925e-05	0.03319752	-0.008833754
2.2e+08	0.03283292	-0.0122283	-4.853934e-05	8.844281e-05	0.01692626	0.003671224	-0.0002947237	0.0001134449
	-4.853934e-05	8.844281e-05	0.03251395	-0.01062577	-9.325762e-07	4.397955e-06	0.01672077	0.004149327
	0.01692626	0.003671224	-9.325762e-07	4.397955e-06	0.03291008	-0.01215803	-1.424471e-05	2.498782e-05
	-0.0002947237	0.0001134449	0.01672077	0.004149327	-1.424471e-05	2.498782e-05	0.03257838	-0.01053541
2.3e+08	0.03193573	-0.01394825	-4.329937e-05	8.981788e-05	0.01713201	0.00265477	-0.0002912215	0.000118231
	-4.329937e-05	8.981788e-05	0.03171	-0.01226038	-8.600025e-07	4.280455e-06	0.01694448	0.00319226
	0.01713201	0.00265477	-8.600025e-07	4.280455e-06	0.03202431	-0.01391406	-1.136478e-05	2.610225e-05
	-0.0002912215	0.000118231	0.01694448	0.00319226	-1.136478e-05	2.610225e-05	0.03177002	-0.01216696
2.4e+08	0.03085082	-0.01556946	-3.788182e-05	9.075926e-05	0.0171958	0.001621333	-0.0002880651	0.0001227591
	-3.788182e-05	9.075926e-05	0.03072672	-0.01380507	-7.873789e-07	4.171372e-06	0.01703354	0.002215876
	0.0171958	0.001621333	-7.873789e-07	4.171372e-06	0.03094542	-0.01557114	-8.349301e-06	2.67697e-05
	-0.0002880651	0.0001227591	0.01703354	0.002215876	-8.349301e-06	2.67697e-05	0.03078214	-0.01370787
2.5e+08	0.02959071	-0.01707132	-3.236805e-05	9.1233e-05	0.01711662	0.0005892018	-0.0002853783	0.0001270928
	-3.236805e-05	9.1233e-05	0.02957586	-0.01524054	-7.1625e-07	4.069068e-06	0.01698657	0.001237403
	0.01711662	0.0005892018	-7.1625e-07	4.069068e-06	0.02968624	-0.01710792	-5.279672e-06	2.697196e-05
	-0.0002853783	0.0001270928	0.01698657	0.001237403	-5.279672e-06	2.697196e-05	0.02962658	-0.01513882
2.6e+08	0.02817018	-0.01843474	-2.684147e-05	9.12219e-05	0.0168958	-0.0004233531	-0.000283268	0.0001313291
	-2.684147e-05	9.12219e-05	0.02827118	-0.01654895	-6.480536e-07	3.972542e-06	0.01680436	0.0002741166
	0.0168958	-0.0004233531	-6.480536e-07	3.972542e-06	0.02826189	-0.01850462	-2.239226e-06	2.670617e-05
	-0.000283268	0.0001313291	0.01680436	0.0002741166	-2.239226e-06	2.670617e-05	0.02831715	-0.01644194
2.7e+08	0.02660601	-0.01964242	-2.138471e-05	9.072506e-05	0.01653695	-0.001398367	-0.0002818184	0.0001355922
	-2.138471e-05	9.072506e-05	0.02682822	-0.0177141	-5.839968e-07	3.881325e-06	0.01648988	-0.0006569399
	0.01653695	-0.001398367	-5.839968e-07	3.881325e-06	0.02668959	-0.01974331	6.896123e-07	2.598477e-05
	-0.0002818184	0.0001355922	0.01648988	-0.0006569399	6.896123e-07	2.598477e-05	0.02686954	-0.01760104
2.8e+08	0.02491684	-0.02067903	-1.607745e-05	8.975743e-05	0.01604593	-0.002318467	-0.0002810868	0.000140031
	-1.607745e-05	8.975743e-05	0.02526422	-0.01872166	-5.251106e-07	3.795426e-06	0.01604821	-0.001539222
	0.01604593	-0.002318467	-5.251106e-07	3.795426e-06	0.02498847	-0.02080813	3.428111e-06	2.483522e-05
	-0.0002810868	0.000140031	0.01604821	-0.001539222	3.428111e-06	2.483522e-05	0.02530105	-0.0186018
2.9e+08	0.02312288	-0.02153149	-1.099377e-05	8.83485e-05	0.01543077	-0.003167154	-0.0002810996	0.0001448119
	-1.099377e-05	8.83485e-05	0.02359782	-0.01955933	-4.721548e-07	3.715241e-06	0.0154865	-0.00235695
	0.01543077	-0.003167154	-4.721548e-07	3.715241e-06	0.02317932	-0.02168549	5.903904e-06	2.329895e-05
	-0.0002810996	0.0001448119	0.0154865	-0.00235695	5.903904e-06	2.329895e-05	0.02363043	-0.01943192
3e+08	0.02124572	-0.02218904	-6.199779e-06	8.654084e-05	0.01470152	-0.003929062	-0.0002818495	0.0001501122
	-6.199779e-06	8.654084e-05	0.02184887	-0.020217	-4.255707e-07	3.641468e-06	0.01481381	-0.003095357
	0.01470152	-0.003929062	-4.255707e-07	3.641468e-06	0.02128431	-0.02236428	8.053443e-06	2.142998e-05
	-0.0002818495	0.0001501122	0.01481381	-0.003095357	8.053443e-06	2.142998e-05	0.02187763	-0.02008132
3.1e+08	0.01930802	-0.02264347	-1.751778e-06	8.438857e-05	0.01387011	-0.004590215	-0.0002832933	0.0001561158
	-1.751778e-06	8.438857e-05	0.02003818	-0.02068683	-3.854966e-07	3.575058e-06	0.01404102	-0.00374093
	0.01387011	-0.004590215	-3.854966e-07	3.575058e-06	0.01932674	-0.02283599	9.824201e-06	1.929319e-05
	-0.0002832933	0.0001561158	0.01404102	-0.00374093	9.824201e-06	1.929319e-05	0.02006358	-0.02054223
3.2e+08	0.01733323	-0.02288921	2.305636e-06	8.195495e-05	0.01295016	-0.005138247	-0.0002853516	0.0001630043
	2.305636e-06	8.195495e-05	0.01818728	-0.02096341	-3.517034e-07	3.517111e-06	0.01318063	-0.004281625
	0.01295016	-0.005138247	-3.517034e-07	3.517111e-06	0.01733074	-0.02309484	1.117646e-05	1.6962e-05
	-0.0002853516	0.0001630043	0.01318063	-0.004281625	1.117646e-05	1.6962e-05	0.01820987	-0.02080928
3.3e+08	0.01534528	-0.02292339	5.940892e-06	7.930999e-05	0.01195676	-0.00556261	-0.0002879088	0.0001709504
	5.940892e-06	7.930999e-05	0.01631809	-0.02104377	-3.235816e-07	3.468786e-06	0.01224657	-0.004707061
	0.01195676	-0.00556261	-3.235816e-07	3.468786e-06	0.0153209	-0.02313787	1.208462e-05	1.451581e-05
	-0.0002879088	0.0001709504	0.01224657	-0.004707061	1.208462e-05	1.451581e-05	0.01633852	-0.02087957
3.4e+08	0.01336828	-0.02274591	9.136262e-06	7.652823e-05	0.01090623	-0.005854747	-0.0002908148	0.0001801132
	9.136262e-06	7.652823e-05	0.01445272	-0.02092743	-3.00162e-07	3.431249e-06	0.01125398	-0.005008691
	0.01090623	-0.005854747	-3.00162e-07	3.431249e-06	0.01332201	-0.02296495	1.253821e-05	1.203751e-05
	-0.0002908148	0.0001801132	0.01125398	-0.005008691	1.253821e-05	1.203751e-05	0.01447172	-0.02075274
3.5e+08	0.01142619	-0.02235943	1.188839e-05	7.368563e-05	0.009815891	-0.006008236	-0.0002938874	0.0001906297
	1.188839e-05	7.368563e-05	0.01261311	-0.02061642	-2.801023e-07	3.405571e-06	0.01021899	-0.005179942
	0.009815891	-0.006008236	-2.801023e-07	3.405571e-06	0.0113587	-0.02257883	1.254157e-05	9.609439e-06
	-0.0002938874	0.0001906297	0.01021899	-0.005179942	1.254157e-05	9.609439e-06	0.01263147	-0.02043088
3.6e+08	0.009542515	-0.02176933	1.420818e-05	7.085728e-05	0.008703732	-0.006018897	-0.0002969169	0.0002026067
	1.420818e-05	7.085728e-05	0.01082083	-0.02011521	-2.628838e-07	3.388449e-06	0.009158414	-0.005216323
	0.008703732	-0.006018897	-2.628838e-07	3.388449e-06	0.009455101	-0.02198509	1.232101e-05	7.60881e-06
	-0.0002969169	0.0002026067	0.009158414	-0.005216323	1.232101e-05	7.60881e-06	0.01083937	-0.0199186
3.7e+08	0.007739977	-0.0209837	1.612041e-05	6.811434e-05	0.007588166	-0.005884871	-0.0002996684	0.0002161265
	1.612041e-05	6.811434e-05	0.009096723	-0.0194307	-2.462353e-07	3.384219e-06	0.008089541	-0.005115502
	0.007588166	-0.005884871	-2.462353e-07	3.384219e-06	0.007634551	-0.02119204	1.178133e-05	5.842949e-06
	-0.0002996684	0.0002161265	0.008089541	-0.005115502	1.178133e-05	5.842949e-06	0.00911633	-0.01922289
3.8e+08	0.006040224	-0.02001315	1.766259e-05	6.552173e-05	0.006487715	-0.005606653	-0.0003018889	0.0002312322
	1.766259e-05	6.552173e-05	0.007460713	-0.01857207	-2.276722e-07	3.39409e-06	0.007029823	-0.004877346
	0.006487715	-0.005606653	-2.276722e-07	3.39409e-06	0.005919254	-0.02021067	1.09301e-05	4.315997e-06
	-0.0003018889	0.0002312322	0.007029823	-0.004877346	1.09301e-05	4.315997e-06	0.007482267	-0.01835306
3.9e+08	0.004463536	-0.01887075	1.888357e-05	6.313592e-05	0.005420713	-0.005187089	-0.0003033129	0.0002479267
	1.888357e-05	6.313592e-05	0.005931502	-0.01755068	-2.047041e-07	3.418004e-06	0.005996608	-0.004503931
	0.005420713	-0.005187089	-2.047041e-07	3.418004e-06	0.004329985	-0.01905444	9.824009e-06	3.083476e-06
	-0.0003033129	0.0002479267	0.005996608	-0.004503931	9.824009e-06	3.083476e-06	0.005955889	-0.0173206
4e+08	0.00302854	-0.01757182	1.984175e-05	6.100284e-05	0.004405009	-0.00463134	-0.0003036699	0.0002661706
	1.984175e-05	6.100284e-05	0.004526349	-0.01637995	-1.747504e-07	3.455442e-06	0.005006859	-0.003999512
	0.004405009	-0.00463134	-1.747504e-07	3.455442e-06	0.002885818	-0.01773916	8.529221e-06	2.188922e-06
	-0.0003036699	0.0002661706	0.005006859	-0.003999512	8.529221e-06	2.188922e-06	0.004554437	-0.01613903
4.1e+08	0.001751968	-0.01613374	2.060288e-05	5.91564e-05	0.003457674	-0.003946802	-0.0003026904	0.0002858822
	2.060288e-05	5.91564e-05	0.003260839	-0.01507513	-1.352377e-07	3.505405e-06	0.004076882	-0.003370454
	0.003457674	-0.003946802	-1.352377e-07	3.505405e-06	0.001603848	-0.01628275	7.119073e-06	1.662418e-06
	-0.0003026904	0.0002858822	0.004076882	-0.003370454	7.119073e-06	1.662418e-06	0.003293465	-0.01482374
4.2e+08	0.0006484188	-0.01457569	2.123772e-05	5.761728e-05	0.002594726	-0.003142995	-0.0003001126	0.0003069375
	2.123772e-05	5.761728e-05	0.002148691	-0.01365311	-8.370162e-08	3.566412e-06	0.003222062	-0.002625143
	0.002594726	-0.003142995	-8.370162e-08	3.566412e-06	0.0004989586	-0.01470495	5.671438e-06	1.519454e-06
	-0.0003001126	0.0003069375	0.003222062	-0.002625143	5.671438e-06	1.519454e-06	0.002186638	-0.01339171
4.3e+08	-0.000269834	-0.01291843	2.181944e-05	5.639219e-05	0.001830866	-0.002231411	-0.0002956904	0.000329171
	2.181944e-05	5.639219e-05	0.001201577	-0.01213222	-1.788629e-08	3.636502e-06	0.002456619	-0.001773845
	0.001830866	-0.002231411	-1.788629e-08	3.636502e-06	-0.000416368	-0.01302716	4.265867e-06	1.760293e-06
	-0.0002956904	0.000329171	0.002456619	-0.001773845	4.265867e-06	1.760293e-06	0.001245568	-0.01186139
4.4e+08	-0.0009930175	-0.01118399	2.242093e-05	5.547368e-05	0.001179234	-0.001225333	-0.0002891995	0.0003523782
	2.242093e-05	5.547368e-05	0.000428982	-0.01053194	6.415256e-08	3.71328e-06	0.001793373	-0.0008285544
	0.001179234	-0.001225333	6.415256e-08	3.71328e-06	-0.001132245	-0.01127202	2.980753e-06	2.369921e-06
	-0.0002891995	0.0003523782	0.001793373	-0.0008285544	2.980753e-06	2.369921e-06	0.0004796557	-0.01025237
4.5e+08	-0.001513987	-0.009395368	2.311221e-05	5.484046e-05	0.000651197	-0.0001396285	-0.000280447	0.0003763179
	2.311221e-05	5.484046e-05	-0.0001619219	-0.008872686	1.639599e-07	3.793973e-06	0.001243541	0.0001972042
	0.000651197	-0.0001396285	1.639599e-07	3.793973e-06	-0.001641502	-0.009463219	1.89048e-06	3.318513e-06
	-0.000280447	0.0003763179	0.001243541	0.0001972042	1.89048e-06	3.318513e-06	-0.000104017	-0.00858512
4.6e+08	-0.001828333	-0.007576244	2.39585e-05	5.445862e-05	0.0002561571	0.001009492	-0.000269342	0.0004006934
	2.39585e-05	5.445862e-05	-0.0005663579	-0.007175499	2.825951e-07	3.875504e-06	0.0008165526	0.001288583
	0.0002561571	0.001009492	2.825951e-07	3.875504e-06	-0.001939793	-0.007625058	1.063355e-06	4.56283e-06
	-0.000269342	0.0004006934	0.0008165526	0.001288583	1.063355e-06	4.56283e-06	-0.0005007782	-0.006880774
4.7e+08	-0.001934405	-0.005750602	2.493113e-05	5.422552e-05	1.396461e-06	0.00220473	-0.0002461459	0.0004282528
	2.493113e-05	5.422552e-05	-0.0007820008	-0.005461786	4.221797e-07	3.955427e-06	0.0005198972	0.002429652
	1.396459e-06	0.00220473	4.221797e-07	3.955427e-06	-0.002025647	-0.005782187	4.711096e-07	5.993379e-06
	-0.0002461459	0.0004282528	0.0005198972	0.002429652	4.711096e-07	5.993379e-06	-0.0007083904	-0.005160768
