!$
! Info: Touchstone file created by Circ.  Input file=Tx_6in_Rx_85ohms_TxVia_35mils_RxVia_45mils.circ
!$
# Hz S RI R 50
0	0.004940817	8.963106e-26	7.696477e-10	4.98014e-28	5.237778e-05	9.200659e-24	2.561966e-09	2.097774e-28
	7.696485e-10	4.978974e-28	0.004938653	1.045758e-25	4.064268e-10	7.287921e-28	5.173636e-05	1.110675e-23
	5.288767e-05	9.3293e-24	4.064265e-10	7.288295e-28	0.004953188	8.710025e-26	7.899401e-10	4.830352e-28
	2.561966e-09	2.097663e-28	4.988927e-05	1.11616e-23	7.899404e-10	4.829975e-28	0.00495184	9.796722e-26
1e+07	0.007409402	-0.005223098	1.087389e-09	1.363676e-09	0.0001261491	0.001227408	4.543988e-09	6.538171e-09
	1.087389e-09	1.363676e-09	0.006592689	-0.005326999	6.050571e-10	8.283432e-10	0.000170688	0.001231186
	0.0001261788	0.001227402	6.05057e-10	8.283432e-10	0.006622317	-0.005425073	1.140122e-09	1.42278e-09
	4.543988e-09	6.538171e-09	0.0001706281	0.001231196	1.140122e-09	1.42278e-09	0.006587756	-0.005315843
2e+07	0.008012285	-0.01243569	1.721878e-09	2.28945e-09	0.0003632763	0.002435105	7.798168e-09	1.081072e-08
	1.721879e-09	2.28945e-09	0.007253137	-0.01231004	8.278862e-10	1.42536e-09	0.0004272306	0.002404382
	0.0003632772	0.002435083	8.278862e-10	1.42536e-09	0.007207243	-0.01247703	1.820561e-09	2.370495e-09
	7.798168e-09	1.081072e-08	0.0004272228	0.002404416	1.820561e-09	2.370495e-09	0.007252616	-0.01228188
3e+07	0.007153646	-0.02019292	2.476608e-09	3.049053e-09	0.0007824086	0.003562271	1.174816e-08	1.424372e-08
	2.476608e-09	3.049053e-09	0.006425809	-0.01997532	1.04584e-09	1.973944e-09	0.0008207011	0.003523562
	0.0007824024	0.003562269	1.04584e-09	1.973944e-09	0.006337021	-0.0201628	2.625243e-09	3.141031e-09
	1.174816e-08	1.424372e-08	0.0008207012	0.003523567	2.625243e-09	3.141031e-09	0.006427957	-0.01993515
4e+07	0.005067858	-0.02794227	3.375568e-09	3.629025e-09	0.001333759	0.00461299	1.648859e-08	1.673079e-08
	3.375568e-09	3.629025e-09	0.00435439	-0.02765648	1.27942e-09	2.480775e-09	0.001344827	0.004574375
	0.00133376	0.004612994	1.27942e-09	2.480775e-09	0.004245869	-0.02785197	3.584262e-09	3.719402e-09
	1.648859e-08	1.673079e-08	0.001344822	0.004574373	3.584262e-09	3.719402e-09	0.004357878	-0.02760562
5e+07	0.001873063	-0.03544863	4.389968e-09	4.0054e-09	0.002006929	0.005573354	2.186008e-08	1.813623e-08
	4.389968e-09	4.0054e-09	0.001160301	-0.03510117	1.525581e-09	2.941708e-09	0.001989196	0.005541162
	0.002006932	0.005573356	1.525581e-09	2.941708e-09	0.001051199	-0.03530151	4.667224e-09	4.079789e-09
	2.186008e-08	1.813623e-08	0.001989193	0.005541161	4.667224e-09	4.079789e-09	0.001163829	-0.03504013
6e+07	-0.002334881	-0.04254182	5.485161e-09	4.164003e-09	0.00278869	0.006429438	2.767155e-08	1.837601e-08
	5.485161e-09	4.164003e-09	-0.003057853	-0.04213211	1.777897e-09	3.356579e-09	0.002741003	0.006409617
	0.002788689	0.006429438	1.777897e-09	3.356579e-09	-0.003151457	-0.04233904	5.83702e-09	4.206847e-09
	2.767155e-08	1.837601e-08	0.002741006	0.006409616	5.83702e-09	4.206847e-09	-0.003055519	-0.04206094
7e+07	-0.007461421	-0.04908311	6.626684e-09	4.094305e-09	0.003663809	0.007168782	3.372808e-08	1.73912e-08
	6.626684e-09	4.094305e-09	-0.008203177	-0.04860676	2.030576e-09	3.725908e-09	0.003585632	0.00716725
	0.003663803	0.007168783	2.030576e-09	3.725908e-09	-0.008267628	-0.04882496	7.056619e-09	4.089266e-09
	3.372808e-08	1.73912e-08	0.00358564	0.007167246	7.056619e-09	4.089266e-09	-0.008203201	-0.04852517
8e+07	-0.01340697	-0.05495541	7.778521e-09	3.788845e-09	0.004615439	0.007780942	3.982703e-08	1.514309e-08
	7.77852e-09	3.788845e-09	-0.01417398	-0.05440564	2.277614e-09	4.050492e-09	0.004506987	0.007803713
	0.004615432	0.007780945	2.277614e-09	4.050492e-09	-0.01419753	-0.05464151	8.287392e-09	3.719047e-09
	3.982703e-08	1.514309e-08	0.004506996	0.007803707	8.287393e-09	3.719047e-09	-0.01417745	-0.05431306
9e+07	-0.02006508	-0.06005985	8.902871e-09	3.243814e-09	0.005625508	0.00825789	4.575622e-08	1.161809e-08
	8.902871e-09	3.243814e-09	-0.02086188	-0.05942839	2.512634e-09	4.331506e-09	0.005487906	0.008311187
	0.005625503	0.008257893	2.512634e-09	4.331506e-09	-0.02083395	-0.05968866	9.488864e-09	3.092056e-09
	4.575623e-08	1.161809e-08	0.005487912	0.008311181	9.488865e-09	3.092056e-09	-0.02086976	-0.05932398
1e+08	-0.02732276	-0.06431494	9.962111e-09	2.459083e-09	0.006675535	0.008594796	5.129763e-08	6.833051e-09
	9.962111e-09	2.459083e-09	-0.0281529	-0.06359415	2.728289e-09	4.571205e-09	0.006511499	0.008685948
	0.006675535	0.008594796	2.728289e-09	4.571205e-09	-0.02805944	-0.06387895	1.062091e-08	2.207709e-09
	5.129763e-08	6.833051e-09	0.006511499	0.008685948	1.062091e-08	2.207709e-09	-0.02816612	-0.063477
1.1e+08	-0.03506074	-0.06766226	1.091426e-08	1.455639e-09	0.007747383	0.008785783	5.622045e-08	8.622271e-10
	1.091426e-08	1.455639e-09	-0.03592798	-0.06683471	2.913788e-09	4.768199e-09	0.007564036	0.00891664
	0.007747383	0.008785783	2.913788e-09	4.768199e-09	-0.03573728	-0.06718249	1.164039e-08	1.089188e-09
	5.622045e-08	8.622271e-10	0.007564036	0.008916641	1.164039e-08	1.089188e-09	-0.03594641	-0.06670288
1.2e+08	-0.04315711	-0.07004174	1.171491e-08	2.459274e-10	0.008818228	0.008831129	6.033216e-08	-6.196727e-09
	1.171491e-08	2.459274e-10	-0.04405504	-0.06909307	3.067527e-09	4.930041e-09	0.008616845	0.009004147
	0.008818227	0.008831129	3.067527e-09	4.930041e-09	-0.04378136	-0.06953401	1.249722e-08	-2.498896e-10
	6.033216e-08	-6.196727e-09	0.008616845	0.009004147	1.249722e-08	-2.498896e-10	-0.044079	-0.0689452
1.3e+08	-0.05148413	-0.07142239	1.23302e-08	-1.150527e-09	0.00986941	0.00873421	6.3449e-08	-1.422543e-08
	1.23302e-08	-1.150527e-09	-0.05240502	-0.07034051	3.183239e-09	5.062271e-09	0.009652715	0.008952966
	0.00986941	0.00873421	3.183239e-09	5.062271e-09	-0.0520602	-0.0708941	1.315556e-08	-1.789082e-09
	6.3449e-08	-1.422543e-08	0.009652715	0.008952966	1.315556e-08	-1.789082e-09	-0.05243461	-0.07017506
1.4e+08	-0.05991354	-0.07178934	1.272721e-08	-2.707564e-09	0.01088258	0.008500195	6.540325e-08	-2.307709e-08
	1.272721e-08	-2.707564e-09	-0.06084739	-0.07056332	3.255883e-09	5.170854e-09	0.01065419	0.008768159
	0.01088258	0.008500195	3.255883e-09	5.170854e-09	-0.06044459	-0.07124548	1.358029e-08	-3.500468e-09
	6.540325e-08	-2.307709e-08	0.01065419	0.008768159	1.358029e-08	-3.500468e-09	-0.06088228	-0.07037855
1.5e+08	-0.06831835	-0.0711436	1.287633e-08	-4.393492e-09	0.01184038	0.008136495	6.604839e-08	-3.257901e-08
	1.287633e-08	-4.393492e-09	-0.06925291	-0.06976399	3.281256e-09	5.262513e-09	0.01160466	0.008456736
	0.01184038	0.008136495	3.281256e-09	5.262513e-09	-0.06880697	-0.07058786	1.373979e-08	-5.350161e-09
	6.604839e-08	-3.257901e-08	0.01160466	0.008456736	1.373979e-08	-5.350161e-09	-0.06929232	-0.06955815
1.6e+08	-0.07657448	-0.06950151	1.275236e-08	-6.17155e-09	0.01272678	0.007652601	6.526325e-08	-4.253579e-08
	1.275236e-08	-6.17155e-09	-0.07749547	-0.06796074	3.256124e-09	5.344663e-09	0.01248875	0.008027616
	0.01272678	0.007652601	3.256124e-09	5.344663e-09	-0.07702286	-0.06893677	1.360717e-08	-7.298897e-09
	6.526325e-08	-4.253579e-08	0.01248875	0.008027616	1.360717e-08	-7.298897e-09	-0.07753821	-0.06773221
1.7e+08	-0.08456233	-0.06689405	1.233549e-08	-8.000587e-09	0.01352734	0.007059859	6.295555e-08	-5.273315e-08
	1.233549e-08	-8.000587e-09	-0.08545378	-0.06518678	3.17834e-09	5.425278e-09	0.01329254	0.007491446
	0.01352734	0.007059859	3.17834e-09	5.425278e-09	-0.0849723	-0.06632267	1.316125e-08	-9.302751e-09
	6.295555e-08	-5.273315e-08	0.01329254	0.007491446	1.316125e-08	-9.302751e-09	-0.08549826	-0.06493414
1.8e+08	-0.09216826	-0.06336597	1.1612e-08	-9.835882e-09	0.01422936	0.006371213	5.906457e-08	-6.294235e-08
	1.1612e-08	-9.835882e-09	-0.09301288	-0.06148932	3.046955e-09	5.512729e-09	0.01400375	0.006860368
	0.01422936	0.006371213	3.046955e-09	5.512729e-09	-0.0925414	-0.06278993	1.238741e-08	-1.131402e-08
	5.906457e-08	-6.294235e-08	0.01400375	0.006860368	1.238741e-08	-1.131402e-08	-0.0930572	-0.06121145
1.9e+08	-0.09928597	-0.05897477	1.057501e-08	-1.163011e-08	0.01482206	0.005600928	5.356318e-08	-7.292484e-08
	1.057501e-08	-1.163011e-08	-0.1000655	-0.05692858	2.862285e-09	5.615599e-09	0.01461188	0.006147775
	0.01482206	0.005600928	2.862285e-09	5.615599e-09	-0.09962363	-0.05839578	1.12782e-08	-1.328226e-08
	5.356318e-08	-7.292484e-08	0.01461188	0.006147775	1.12782e-08	-1.328226e-08	-0.1001076	-0.05662468
2e+08	-0.1058178	-0.05378962	9.224821e-09	-1.33344e-08	0.01529669	0.004764313	4.645906e-08	-8.243715e-08
	9.224821e-09	-1.33344e-08	-0.1065136	-0.05157655	2.625959e-09	5.742479e-09	0.01510829	0.005368054
	0.01529669	0.004764313	2.625959e-09	5.742479e-09	-0.1061211	-0.05320922	9.833883e-09	-1.515535e-08
	4.645906e-08	-8.243715e-08	0.01510829	0.005368054	9.833883e-09	-1.515535e-08	-0.1065511	-0.05124619
2.1e+08	-0.1116757	-0.04789017	7.569283e-09	-1.489948e-08	0.01564656	0.003877451	3.779519e-08	-9.123586e-08
	7.569283e-09	-1.489948e-08	-0.1122691	-0.04551579	2.340917e-09	5.901771e-09	0.01548632	0.004536336
	0.01564656	0.003877451	2.340917e-09	5.901771e-09	-0.1119458	-0.04730975	8.062678e-09	-1.688077e-08
	3.779519e-08	-9.123586e-08	0.01548632	0.004536336	8.062678e-09	-1.688077e-08	-0.1122997	-0.0451589
2.2e+08	-0.1167825	-0.04136521	5.623819e-09	-1.627683e-08	0.01586708	0.00295693	2.76497e-08	-9.908249e-08
	5.623819e-09	-1.627683e-08	-0.1172551	-0.03883801	2.011386e-09	6.101482e-09	0.01574121	0.00366825
	0.01586708	0.00295693	2.011386e-09	6.101482e-09	-0.1170202	-0.04078608	5.980862e-09	-1.840678e-08
	2.76497e-08	-9.908249e-08	0.01574121	0.00366825	5.980862e-09	-1.840678e-08	-0.1172764	-0.0384549
2.3e+08	-0.1210724	-0.03431133	3.411349e-09	-1.741988e-08	0.01595576	0.002019587	1.613508e-08	-1.057483e-07
	3.411349e-09	-1.741988e-08	-0.1214067	-0.03164266	1.642816e-09	6.349026e-09	0.0158702	0.002779689
	0.01595576	0.002019587	1.642816e-09	6.349026e-09	-0.1212786	-0.03373472	3.61267e-09	-1.968365e-08
	1.613508e-08	-1.057483e-07	0.0158702	0.002779689	3.61267e-09	-1.968365e-08	-0.1214163	-0.03123404
2.4e+08	-0.1244919	-0.0268315	9.619919e-10	-1.828511e-08	0.01591219	0.001082266	3.396735e-09	-1.11019e-07
	9.619919e-10	-1.828511e-08	-0.1246716	-0.02403547	1.241792e-09	6.651044e-09	0.01587244	0.001886591
	0.01591219	0.001082266	1.241792e-09	6.651044e-09	-0.1246672	-0.02625862	9.899829e-10	-2.06649e-08
	3.396735e-09	-1.11019e-07	0.01587244	0.001886591	9.899829e-10	-2.06649e-08	-0.1246672	-0.0236024
2.5e+08	-0.1270001	-0.01903363	-1.687396e-09	-1.883322e-08	0.01573799	0.0001615934	-1.038898e-08	-1.14699e-07
	-1.687396e-09	-1.883322e-08	-0.1270106	-0.01612695	8.159121e-10	7.013232e-09	0.01574897	0.00100473
	0.01573799	0.0001615934	8.159121e-10	7.013232e-09	-0.1271452	-0.01846565	-1.848145e-09	-2.130847e-08
	-1.038898e-08	-1.14699e-07	0.01574897	0.00100473	-1.848145e-09	-2.130847e-08	-0.12699	-0.01567084
2.6e+08	-0.1285692	-0.01102902	-4.493854e-09	-1.903009e-08	0.0154367	-0.0007262384	-2.501719e-08	-1.166155e-07
	-4.493854e-09	-1.903009e-08	-0.1283979	-0.0080308	3.736438e-10	7.440197e-09	0.01550264	0.0001495243
	0.0154367	-0.0007262384	3.736438e-10	7.440197e-09	-0.1286846	-0.01046716	-4.85615e-09	-2.157773e-08
	-2.501719e-08	-1.166155e-07	0.01550264	0.0001495242	-4.85615e-09	-2.157773e-08	-0.1283591	-0.007553413
2.7e+08	-0.1291846	-0.00293098	-7.409094e-09	-1.884768e-08	0.01501375	-0.001565666	-4.02575e-08	-1.166225e-07
	-7.409094e-09	-1.884768e-08	-0.1288214	0.0001375651	-7.583736e-11	7.935328e-09	0.01513808	-0.0006641459
	0.01501375	-0.001565666	-7.583736e-11	7.935328e-09	-0.1292708	-0.002376449	-7.982766e-09	-2.14425e-08
	-4.02575e-08	-1.166225e-07	0.01513808	-0.0006641459	-7.982766e-09	-2.14425e-08	-0.1287626	0.0006341762
2.8e+08	-0.128845	0.005146763	-1.038042e-08	-1.826488e-08	0.01447634	-0.002341944	-5.58574e-08	-1.146042e-07
	-1.038042e-08	-1.826488e-08	-0.1282824	0.008262598	-5.2283e-10	8.500706e-09	0.01466157	-0.001422105
	0.01447634	-0.002341944	-5.2283e-10	8.500706e-09	-0.1289026	0.005692696	-1.117198e-08	-2.087989e-08
	-5.58574e-08	-1.146042e-07	0.01466157	-0.001422105	-1.117198e-08	-2.087989e-08	-0.1282022	0.008776098
2.9e+08	-0.1275623	0.01309147	-1.335173e-08	-1.726807e-08	0.01383334	-0.003041314	-7.154602e-08	-1.104778e-07
	-1.335173e-08	-1.726807e-08	-0.1267959	0.0162301	-9.572973e-10	9.137032e-09	0.01408096	-0.002111043
	0.01383334	-0.003041314	-9.572973e-10	9.137032e-09	-0.1275918	0.01362748	-1.436411e-08	-1.987494e-08
	-7.154602e-08	-1.104778e-07	0.01408096	-0.002111043	-1.436411e-08	-1.987494e-08	-0.126693	0.01675792
3e+08	-0.1253614	0.02079284	-1.626466e-08	-1.585166e-08	0.01309516	-0.003651173	-8.703834e-08	-1.041961e-07
	-1.626466e-08	-1.585166e-08	-0.1243899	0.02392874	-1.369065e-09	9.843583e-09	0.0134056	-0.002718663
	0.01309516	-0.003651173	-1.369065e-09	9.843583e-09	-0.1253633	0.02131755	-1.749693e-08	-1.84212e-08
	-8.703834e-08	-1.041961e-07	0.0134056	-0.002718663	-1.749693e-08	-1.84212e-08	-0.1242636	0.0244681
3.1e+08	-0.1222797	0.02814447	-1.905968e-08	-1.40184e-08	0.01227363	-0.004160222	-1.020397e-07	-9.575006e-08
	-1.905968e-08	-1.40184e-08	-0.1211054	0.03125147	-1.748022e-09	1.061821e-08	0.01264618	-0.003233832
	0.01227363	-0.004160222	-1.748022e-09	1.061821e-08	-0.1222547	0.02865643	-2.050694e-08	-1.652107e-08
	-1.020397e-07	-9.575006e-08	0.01264618	-0.003233832	-2.050694e-08	-1.652107e-08	-0.1209551	0.03179943
3.2e+08	-0.1183667	0.03504515	-2.167739e-08	-1.17795e-08	0.01138184	-0.004558616	-1.162506e-07	-8.517e-08
	-2.167739e-08	-1.17795e-08	-0.1169953	0.03809693	-2.084317e-09	1.145734e-08	0.01181467	-0.003646711
	0.01138184	-0.004558616	-2.084317e-09	1.145734e-08	-0.1183153	0.03554285	-2.333061e-08	-1.418594e-08
	-1.162506e-07	-8.517e-08	0.01181467	-0.003646711	-2.333061e-08	-1.418594e-08	-0.116821	0.03865045
3.3e+08	-0.1136832	0.04140022	-2.405962e-08	-9.154627e-09	0.01043405	-0.004838099	-1.293718e-07	-7.252682e-08
	-2.405962e-08	-9.154627e-09	-0.1121241	0.04437077	-2.368551e-09	1.235604e-08	0.01092412	-0.00394889
	0.01043405	-0.004838099	-2.368551e-09	1.235604e-08	-0.1136063	0.04188209	-2.590563e-08	-1.143627e-08
	-1.293718e-07	-7.252682e-08	0.01092412	-0.00394889	-2.590563e-08	-1.143627e-08	-0.1119261	0.04492677
3.4e+08	-0.1083007	0.04712282	-2.616713e-08	-6.164882e-09	0.009445456	-0.004992129	-1.411054e-07	-5.792524e-08
	-2.616713e-08	-6.164882e-09	-0.1065669	0.04998689	-2.591027e-09	1.330811e-08	0.009988591	-0.004133516
	0.009445456	-0.004992129	-2.591027e-09	1.330811e-08	-0.1081991	0.04758721	-2.818866e-08	-8.294268e-09
	-1.411054e-07	-5.792524e-08	0.009988591	-0.004133516	-2.818866e-08	-8.294268e-09	-0.1063459	0.05054232
3.5e+08	-0.1023003	0.05213495	-2.793226e-08	-2.850218e-09	0.008432027	-0.005016001	-1.5117e-07	-4.152618e-08
	-2.793226e-08	-2.850218e-09	-0.1004082	0.05486865	-2.744546e-09	1.430583e-08	0.009022927	-0.00419541
	0.008432027	-0.005016001	-2.744546e-09	1.430583e-08	-0.102175	0.05258022	-3.010803e-08	-4.802014e-09
	-1.5117e-07	-4.152618e-08	0.009022927	-0.00419541	-3.010803e-08	-4.802014e-09	-0.1001656	0.05542051
3.6e+08	-0.09577167	0.05636865	-2.930495e-08	7.450642e-10	0.007410332	-0.004906947	-1.593002e-07	-2.352414e-08
	-2.930495e-08	7.450642e-10	-0.09374146	0.0589499	-2.822282e-09	1.534062e-08	0.008042627	-0.004131173
	0.007410332	-0.004906947	-2.822282e-09	1.534062e-08	-0.095624	0.05679313	-3.160993e-08	-1.006363e-09
	-1.593002e-07	-2.352414e-08	0.008042627	-0.004131173	-3.160993e-08	-1.006363e-09	-0.09347881	0.05949531
3.7e+08	-0.08881213	0.0597669	-3.02435e-08	4.570884e-09	0.006397303	-0.004664225	-1.652523e-07	-4.150827e-09
	-3.02435e-08	4.570884e-09	-0.08666697	0.06217591	-2.818373e-09	1.640295e-08	0.007063632	-0.003939286
	0.006397303	-0.004664225	-2.818373e-09	1.640295e-08	-0.08864339	0.06016896	-3.264919e-08	3.039529e-09
	-1.652523e-07	-4.150827e-09	0.007063632	-0.003939286	-3.264919e-08	3.039529e-09	-0.08638631	0.06271218
3.8e+08	-0.08152506	0.06228449	-3.071286e-08	8.571314e-09	0.005410009	-0.004289194	-1.688102e-07	1.632604e-08
	-3.071286e-08	8.571314e-09	-0.07929116	0.06450425	-2.728171e-09	1.748244e-08	0.006102117	-0.003620185
	0.005410009	-0.004289194	-2.728171e-09	1.748244e-08	-0.08133682	0.06266253	-3.318768e-08	7.276138e-09
	-1.688102e-07	1.632604e-08	0.006102117	-0.003620185	-3.318768e-08	7.276138e-09	-0.07899493	0.06502893
3.9e+08	-0.0740187	0.06388872	-3.068544e-08	1.268551e-08	0.004465404	-0.003785352	-1.697907e-07	3.760582e-08
	-3.068544e-08	1.268551e-08	-0.07172491	0.06590541	-2.548349e-09	1.856805e-08	0.005174255	-0.003176323
	0.004465404	-0.003785352	-2.548349e-09	1.856805e-08	-0.07381272	0.06424118	-3.31952e-08	1.163855e-08
	-1.697907e-07	3.760582e-08	0.005174255	-0.003176323	-3.31952e-08	1.163855e-08	-0.0714159	0.06641634
4e+08	-0.06640464	0.06455991	-3.014171e-08	1.684876e-08	0.003580062	-0.003158363	-1.680484e-07	5.935888e-08
	-3.014171e-08	1.684876e-08	-0.06408204	0.06636332	-2.276985e-09	1.96482e-08	0.004295975	-0.002612202
	0.003580061	-0.003158363	-2.276985e-09	1.96482e-08	-0.06618288	0.06488536	-3.265014e-08	1.605756e-08
	-1.680484e-07	5.935888e-08	0.004295975	-0.002612202	-3.265014e-08	1.605756e-08	-0.0637634	0.06685871
4.1e+08	-0.05879628	0.06429185	-2.90707e-08	2.099354e-08	0.002769899	-0.002416033	-1.634803e-07	8.123125e-08
	-2.90707e-08	2.099354e-08	-0.05647775	0.06587573	-1.913634e-09	2.071099e-08	0.003482698	-0.001934371
	0.002769899	-0.002416033	-1.913634e-09	2.071099e-08	-0.05856089	0.06458897	-3.154003e-08	2.046081e-08
	-1.634803e-07	8.123125e-08	0.003482698	-0.001934371	-3.154003e-08	2.046081e-08	-0.05615287	0.06635417
4.2e+08	-0.05130721	0.06309198	-2.747028e-08	2.505067e-08	0.00204989	-0.001568263	-1.560298e-07	1.0285e-07
	-2.747028e-08	2.505067e-08	-0.04902691	0.06445432	-1.459379e-09	2.17443e-08	0.002749062	-0.001151398
	0.00204989	-0.001568263	-1.459379e-09	2.17443e-08	-0.05106054	0.06335963	-2.986195e-08	2.477404e-08
	-1.560298e-07	1.0285e-07	0.002749062	-0.001151398	-2.986195e-08	2.477404e-08	-0.04869945	0.06491484
4.3e+08	-0.0440496	0.06098141	-2.534742e-08	2.89505e-08	0.001433772	-0.000626957	-1.456902e-07	1.238296e-07
	-2.534742e-08	2.89505e-08	-0.04184241	0.06212466	-9.168738e-10	2.273604e-08	0.002108646	-0.000273794
	0.001433772	-0.000626957	-9.168738e-10	2.273604e-08	-0.04379418	0.06121862	-2.762271e-08	2.892232e-08
	-1.456902e-07	1.238296e-07	0.002108646	-0.000273794	-2.762271e-08	2.892232e-08	-0.04151619	0.06256678
4.4e+08	-0.0371325	0.05799475	-2.271809e-08	3.262403e-08	0.0009337667	0.0003941217	-1.32507e-07	1.437781e-07
	-2.271809e-08	3.262403e-08	-0.03503345	0.05892598	-2.903549e-10	2.367432e-08	0.001573691	0.0006860988
	0.0009337667	0.0003941217	-2.903549e-10	2.367432e-08	-0.03687102	0.05820079	-2.483894e-08	3.283133e-08
	-1.32507e-07	1.437781e-07	0.001573692	0.0006860987	-2.483894e-08	3.283133e-08	-0.0347124	0.05934973
4.5e+08	-0.03066024	0.0541797	-1.960727e-08	3.600408e-08	0.000560299	0.001479528	-1.165798e-07	1.623049e-07
	-1.960727e-08	3.600408e-08	-0.02870385	0.05491069	4.143512e-10	2.454761e-08	0.001154836	0.00171427
	0.000560299	0.001479528	4.143512e-10	2.454761e-08	-0.03039552	0.05435408	-2.153696e-08	3.642861e-08
	-1.165798e-07	1.623049e-07	0.001154836	0.00171427	-2.153696e-08	3.642861e-08	-0.02839196	0.05531659
4.6e+08	-0.02473077	0.04959648	-1.60486e-08	3.902638e-08	0.0003217487	0.002612365	-9.806267e-08	1.790284e-07
	-1.60486e-08	3.902638e-08	-0.02295045	0.05014366	1.189852e-09	2.534501e-08	0.0008608586	0.002795241
	0.0003217487	0.002612365	1.189852e-09	2.534501e-08	-0.02446574	0.049739	-1.775253e-08	3.964475e-08
	-9.806267e-08	1.790284e-07	0.0008608586	0.002795241	-1.775253e-08	3.964475e-08	-0.02265168	0.05053281
4.7e+08	-0.01943414	0.04431699	-1.208403e-08	4.163064e-08	0.0002242217	0.003774559	-7.716363e-08	1.935831e-07
	-1.208403e-08	4.163064e-08	-0.01786155	0.04470138	2.027229e-09	2.60564e-08	0.000698458	0.003912319
	0.0002242217	0.003774559	2.027229e-09	2.60564e-08	-0.01917181	0.04442773	-1.353046e-08	4.24146e-08
	-7.716363e-08	1.935831e-07	0.000698458	0.003912319	-1.353046e-08	4.24146e-08	-0.01757977	0.0450754
4.8e+08	-0.01485106	0.03842383	-7.763355e-09	4.376158e-08	0.000271363	0.004947171	-5.414305e-08	2.056283e-07
