!$
! Info: Touchstone file created by Circ.  Input file=Tx_6in_Rx_93ohms_TxVia_35mils_RxVia_45mils.circ
!$
# Hz S RI R 50
0	0.005610984	8.933872e-26	-3.258945e-05	3.86148e-24	5.222121e-05	1.046286e-23	-3.260162e-05	5.391824e-24
	-3.258946e-05	3.862647e-24	0.005608807	1.042212e-25	-3.256973e-05	1.529643e-24	5.158082e-05	1.263117e-23
	5.273093e-05	1.060916e-23	-3.256972e-05	1.527618e-24	0.005623322	8.681652e-26	-3.258761e-05	3.763579e-24
	-3.260162e-05	5.392628e-24	4.97336e-05	1.269351e-23	-3.258763e-05	3.765241e-24	0.005621983	9.763592e-26
1e+07	0.008329527	0.0002208771	-0.000159709	-4.543212e-05	0.0001646639	0.001141984	-9.090015e-05	7.39024e-05
	-0.000159709	-4.543212e-05	0.008212936	-0.0001458813	-1.94636e-06	-5.054203e-06	0.0001684331	0.001239258
	0.0001646936	0.001141979	-1.946361e-06	-5.054204e-06	0.00777577	-9.28127e-05	-9.014412e-06	1.351594e-07
	-9.090014e-05	7.390241e-05	0.0001683731	0.001239268	-9.014411e-06	1.351586e-07	0.008060146	-0.0001492196
2e+07	0.01024012	-0.001724958	-0.0001646482	-3.3494e-06	0.0004292516	0.00230427	-0.000114638	8.319831e-05
	-0.0001646482	-3.349398e-06	0.00977182	-0.002277311	-2.47262e-06	-3.129211e-06	0.0003601314	0.002481339
	0.0004292528	0.002304248	-2.47262e-06	-3.12921e-06	0.009504089	-0.002029348	-2.428485e-06	-1.620951e-05
	-0.000114638	8.319831e-05	0.0003601231	0.002481374	-2.428486e-06	-1.620951e-05	0.009654714	-0.002225065
3e+07	0.011264	-0.004572864	-0.0001676905	1.799658e-05	0.0008286481	0.003423502	-0.0001297438	9.43396e-05
	-0.0001676905	1.799658e-05	0.01050979	-0.005132889	-5.776791e-06	-4.675346e-06	0.0007392861	0.003635181
	0.0008286419	0.0034235	-5.776791e-06	-4.675346e-06	0.01038996	-0.004835864	-1.146896e-05	-2.008339e-05
	-0.0001297438	9.43396e-05	0.0007392861	0.003635186	-1.146896e-05	-2.008339e-05	0.0104191	-0.005066268
4e+07	0.01162897	-0.007735473	-0.0001688411	3.70489e-05	0.001359349	0.004481654	-0.0001401438	0.0001036232
	-0.0001688411	3.70489e-05	0.01062636	-0.008229402	-8.493542e-06	-4.65748e-06	0.001281565	0.004709099
	0.00135935	0.004481658	-8.493542e-06	-4.657481e-06	0.01064615	-0.007929912	-1.947823e-05	-2.071972e-05
	-0.0001401438	0.0001036232	0.00128156	0.004709097	-1.947823e-05	-2.071972e-05	0.01055636	-0.008159121
5e+07	0.01142024	-0.01102712	-0.0001686088	5.439619e-05	0.002012742	0.005461457	-0.0001475068	0.0001109658
	-0.0001686088	5.439619e-05	0.01019913	-0.01140264	-1.074455e-05	-3.809538e-06	0.001940862	0.005697372
	0.002012745	0.005461458	-1.074455e-05	-3.809538e-06	0.01035276	-0.01113311	-2.665471e-05	-1.933215e-05
	-0.0001475068	0.0001109658	0.001940859	0.005697371	-2.665471e-05	-1.933215e-05	0.01014491	-0.0113345
6e+07	0.0106878	-0.01433351	-0.0001713835	5.967398e-05	0.002777624	0.006347714	-0.000152961	0.0001162458
	-0.0001713835	5.967398e-05	0.009276615	-0.0145481	-1.260787e-05	-2.376236e-06	0.002706163	0.006587876
	0.002777622	0.006347713	-1.260787e-05	-2.376236e-06	0.009557821	-0.01433575	-3.304138e-05	-1.637293e-05
	-0.000152961	0.0001162458	0.002706166	0.006587875	-3.304138e-05	-1.637293e-05	0.009233619	-0.0144858
7e+07	0.009470768	-0.01756927	-0.0001740846	6.529964e-05	0.003640983	0.007127228	-0.0001574151	0.0001191812
	-0.0001740846	6.529964e-05	0.007898988	-0.01758601	-1.406097e-05	-5.02637e-07	0.00356453	0.007369085
	0.003640977	0.007127228	-1.406097e-05	-5.026368e-07	0.008299871	-0.01745546	-3.859096e-05	-1.205773e-05
	-0.0001574151	0.0001191812	0.003564538	0.007369081	-3.859096e-05	-1.205773e-05	0.007862781	-0.01753202
8e+07	0.007805424	-0.02066511	-0.0001768357	7.108297e-05	0.004588419	0.007788991	-0.0001618775	0.0001193383
	-0.0001768357	7.108297e-05	0.006105307	-0.02044991	-1.508442e-05	1.748292e-06	0.004501422	0.008030762
	0.004588411	0.007788993	-1.508442e-05	1.748292e-06	0.006615686	-0.02042454	-4.31897e-05	-6.485391e-06
	-0.0001618776	0.0001193383	0.004501432	0.008030756	-4.31897e-05	-6.48539e-06	0.00607144	-0.0204059
9e+07	0.005727772	-0.02356363	-0.0001798795	7.671806e-05	0.005604804	0.008324866	-0.0001677466	0.0001158368
	-0.0001798795	7.671806e-05	0.00393731	-0.02308145	-1.561873e-05	4.376968e-06	0.005500953	0.008564355
	0.005604798	0.008324869	-1.561873e-05	4.376968e-06	0.004543626	-0.0231848	-4.662817e-05	3.711364e-07
	-0.0001677466	0.0001158368	0.00550096	0.008564349	-4.662817e-05	3.711367e-07	0.003901153	-0.02304863
1e+08	0.003267588	-0.02622664	-0.000184361	8.070769e-05	0.006678432	0.008735374	-0.0001792215	0.0001040184
	-0.000184361	8.070769e-05	0.001448673	-0.02541844	-1.536967e-05	7.687705e-06	0.006546174	0.008963023
	0.006678432	0.008735374	-1.536967e-05	7.687705e-06	0.002127557	-0.0256824	-4.816283e-05	9.248786e-06
	-0.0001792215	0.0001040184	0.006546174	0.008963023	-4.816283e-05	9.248786e-06	0.001404163	-0.02539933
1.1e+08	0.0004356908	-0.0285525	-0.0001832375	8.161797e-05	0.007753654	0.009022516	-0.0001746303	7.9897e-05
	-0.0001832375	8.161797e-05	-0.001275472	-0.02749961	-1.349194e-05	9.872953e-06	0.007617735	0.009223523
	0.007753653	0.009022516	-1.349194e-05	9.872953e-06	-0.0005749335	-0.02790656	-4.572471e-05	1.58747e-05
	-0.0001746303	7.9897e-05	0.007617735	0.009223523	-4.572471e-05	1.58747e-05	-0.001337992	-0.02748613
1.2e+08	-0.002650161	-0.03050824	-0.0001804782	8.544593e-05	0.008835116	0.009151914	-0.0001673725	6.245266e-05
	-0.0001804782	8.544593e-05	-0.004277141	-0.02926427	-1.191043e-05	1.12966e-05	0.008699548	0.009344434
	0.008835115	0.009151913	-1.191043e-05	1.12966e-05	-0.00355183	-0.02980518	-4.370357e-05	2.10254e-05
	-0.0001673725	6.245266e-05	0.008699548	0.009344434	-4.370357e-05	2.10254e-05	-0.004357239	-0.02925081
1.3e+08	-0.00594881	-0.03208249	-0.0001770233	9.041114e-05	0.009909013	0.009132855	-0.0001609178	4.641744e-05
	-0.0001770233	9.041114e-05	-0.00749556	-0.03066566	-1.040556e-05	1.23883e-05	0.009773601	0.009325662
	0.009909013	0.009132855	-1.040556e-05	1.23883e-05	-0.006750531	-0.03134321	-4.154302e-05	2.56775e-05
	-0.0001609178	4.641744e-05	0.009773601	0.009325662	-4.154302e-05	2.56775e-05	-0.007593753	-0.03064857
1.4e+08	-0.009410898	-0.03325773	-0.0001729828	9.605303e-05	0.01095746	0.008969985	-0.0001561031	3.078305e-05
	-0.0001729828	9.605303e-05	-0.01087647	-0.03167828	-9.847686e-06	1.2424e-05	0.01082205	0.009169715
	0.01095746	0.008969985	-9.847686e-06	1.2424e-05	-0.01011974	-0.03249701	-3.911816e-05	3.00094e-05
	-0.0001561031	3.078305e-05	0.01082205	0.009169715	-3.911816e-05	3.00094e-05	-0.01099304	-0.03165415
1.5e+08	-0.01298541	-0.03402099	-0.0001683749	0.0001020949	0.01196263	0.00866924	-0.0001534144	1.526137e-05
	-0.0001683749	0.0001020949	-0.01436598	-0.03228576	-9.264195e-06	1.249702e-05	0.01182758	0.008881408
	0.01196263	0.00866924	-9.264195e-06	1.249702e-05	-0.01360771	-0.03325031	-3.636544e-05	3.405422e-05
	-0.0001534144	1.526137e-05	0.01182758	0.008881408	-3.636544e-05	3.405422e-05	-0.01450076	-0.03225129
1.6e+08	-0.01662076	-0.03436496	-0.0001632026	0.0001083452	0.01290739	0.008238417	-0.0001531826	-1.275649e-07
	-0.0001632026	0.0001083452	-0.0179104	-0.03247936	-8.649898e-06	1.259607e-05	0.01277367	0.008467738
	0.01290739	0.008238417	-8.649898e-06	1.259607e-05	-0.01716253	-0.03359361	-3.325646e-05	3.780496e-05
	-0.0001531826	-1.275649e-07	0.01277367	0.008467738	-3.325646e-05	3.780496e-05	-0.01806281	-0.03243142
1.7e+08	-0.02026555	-0.03428821	-0.0001574698	0.0001146503	0.01377568	0.007687251	-0.0001556335	-1.519313e-05
	-0.0001574698	0.0001146503	-0.02145676	-0.03225735	-8.011087e-06	1.270394e-05	0.01364491	0.007937737
	0.01377568	0.007687251	-8.011087e-06	1.270394e-05	-0.02073264	-0.03352388	-2.978436e-05	4.123084e-05
	-0.0001556335	-1.519313e-05	0.01364491	0.007937737	-2.978436e-05	4.123084e-05	-0.02162574	-0.03219299
1.8e+08	-0.02386914	-0.0337952	-0.0001511881	0.0001208789	0.01455284	0.00702732	-0.0001609008	-2.963984e-05
	-0.0001511881	0.0001208789	-0.02495323	-0.03162455	-7.352519e-06	1.280858e-05	0.01442722	0.007302301
	0.01455284	0.00702732	-7.352519e-06	1.280858e-05	-0.02426731	-0.03304428	-2.596007e-05	4.428938e-05
	-0.0001609008	-2.963984e-05	0.01442722	0.007302301	-2.596007e-05	4.428938e-05	-0.02513735	-0.03154108
1.9e+08	-0.02738231	-0.03289611	-0.0001443796	0.0001269163	0.01522582	0.006271885	-0.0001690314	-4.310731e-05
	-0.0001443796	0.0001269163	-0.02834978	-0.03059201	-6.678281e-06	1.290114e-05	0.01510806	0.006573994
	0.01522582	0.006271885	-6.678281e-06	1.290114e-05	-0.02771726	-0.03216392	-2.181004e-05	4.693382e-05
	-0.0001690314	-4.310731e-05	0.01510806	0.006573994	-2.181004e-05	4.693382e-05	-0.02854724	-0.03048702
2e+08	-0.03075784	-0.03160671	-0.0001370782	0.0001326615	0.01578341	0.005435688	-0.0001799866	-5.519914e-05
	-0.0001370782	0.0001326615	-0.03159869	-0.02917662	-5.992153e-06	1.297496e-05	0.01567664	0.005766826
	0.01578341	0.005435688	-5.992153e-06	1.297496e-05	-0.03103522	-0.03089758	-1.737442e-05	4.911821e-05
	-0.0001799866	-5.519914e-05	0.01567664	0.005766826	-1.737442e-05	4.911821e-05	-0.03180742	-0.02904804
2.1e+08	-0.03395145	-0.0299479	-0.0001293283	0.0001380267	0.016221	0.004522198	-0.0001936449	-6.550634e-05
	-0.0001293283	0.0001380267	-0.03465515	-0.02740078	-5.296424e-06	1.302232e-05	0.01612407	0.004896013
	0.016221	0.004522198	-5.296424e-06	1.302232e-05	-0.03417681	-0.02926532	-1.268155e-05	5.078879e-05
	-0.0001936449	-6.550634e-05	0.01612407	0.004896013	-1.268155e-05	5.078879e-05	-0.03487282	-0.02724685
2.2e+08	-0.03692168	-0.02794548	-0.0001211849	0.0001429371	0.01652971	0.003546727	-0.0002098049	-7.362495e-05
	-0.0001211849	0.0001429371	-0.03747779	-0.02529189	-4.595114e-06	1.30389e-05	0.01644349	0.003977725
	0.01652971	0.003546727	-4.595114e-06	1.30389e-05	-0.03710045	-0.02729213	-7.791281e-06	5.190258e-05
	-0.0002098049	-7.362495e-05	0.01644349	0.003977725	-7.791281e-06	5.190258e-05	-0.03770189	-0.02511123
2.3e+08	-0.03963007	-0.0256299	-0.0001127106	0.0001473319	0.01669845	0.002542325	-0.0002281893	-7.917269e-05
	-0.0001127106	0.0001473319	-0.04002914	-0.02288193	-3.893774e-06	1.302518e-05	0.01663014	0.003028816
	0.01669845	0.002542325	-3.893774e-06	1.302518e-05	-0.03976751	-0.02500772	-2.803595e-06	5.244784e-05
	-0.0002281893	-7.917269e-05	0.01663014	0.003028816	-2.803595e-06	5.244784e-05	-0.04025701	-0.02267352
2.4e+08	-0.04204275	-0.02303561	-0.0001039753	0.0001511639	0.01672498	0.001527312	-0.0002484534	-8.180512e-05
	-0.0001039753	0.0001511639	-0.04227613	-0.02020692	-3.196073e-06	1.297943e-05	0.01668148	0.002066555
	0.01672498	0.001527312	-3.196073e-06	1.297943e-05	-0.04214391	-0.02244589	2.205182e-06	5.241215e-05
	-0.0002484534	-8.180512e-05	0.01668148	0.002066555	2.205182e-06	5.241215e-05	-0.04250502	-0.01997011
2.5e+08	-0.04413026	-0.0202006	-9.505281e-05	0.0001543998	0.01660941	0.0005201023	-0.0002701922	-8.122845e-05
	-9.505281e-05	0.0001543998	-0.04419046	-0.01730636	-2.505573e-06	1.290077e-05	0.01659712	0.001108347
	0.01660941	0.0005201023	-2.505573e-06	1.290077e-05	-0.04419992	-0.01964401	7.155821e-06	5.179554e-05
	-0.0002701922	-8.122845e-05	0.01659712	0.001108347	7.155821e-06	5.179554e-05	-0.04441755	-0.01704087
2.6e+08	-0.04586799	-0.01716584	-8.601959e-05	0.0001570203	0.01635418	-0.0004611022	-0.0002929513	-7.720915e-05
	-8.601959e-05	0.0001570203	-0.04574894	-0.01422261	-1.825717e-06	1.278894e-05	0.01637891	0.0001714616
	0.01635418	-0.0004611022	-1.825717e-06	1.278894e-05	-0.04591064	-0.01664251	1.196888e-05	5.061095e-05
	-0.0002929513	-7.720915e-05	0.01637891	0.0001714616	1.196888e-05	5.061095e-05	-0.04597138	-0.01392856
2.7e+08	-0.04723641	-0.01397468	-7.695187e-05	0.0001590203	0.01596398	-0.001398593	-0.0003162379	-6.958367e-05
	-7.695187e-05	0.0001590203	-0.04693368	-0.01100032	-1.159738e-06	1.26445e-05	0.01603082	-0.0007272383
	0.01596398	-0.001398593	-1.159738e-06	1.26445e-05	-0.04725617	-0.01348426	1.656708e-05	4.888415e-05
	-0.0003162379	-6.958367e-05	0.01603082	-0.0007272383	1.656708e-05	4.888415e-05	-0.04714869	-0.01067817
2.8e+08	-0.04822128	-0.01067228	-6.792388e-05	0.0001604079	0.01544571	-0.002275434	-0.0003395343	-5.826225e-05
	-6.792388e-05	0.0001604079	-0.04773237	-0.007685689	-5.106003e-07	1.246857e-05	0.0155589	-0.001571557
	0.01544571	-0.002275434	-5.106003e-07	1.246857e-05	-0.04822192	-0.01021402	2.087781e-05	4.665329e-05
	-0.0003395343	-5.826225e-05	0.0155589	-0.001571557	2.087781e-05	4.665329e-05	-0.04793725	-0.007336297
2.9e+08	-0.04881383	-0.007304957	-5.900552e-05	0.0001612033	0.01480832	-0.003075725	-0.0003623099	-4.323423e-05
	-5.900552e-05	0.0001612033	-0.04813836	-0.004325891	1.190866e-07	1.226271e-05	0.01497119	-0.002346213
	0.01480832	-0.003075725	1.190866e-07	1.226271e-05	-0.0487987	-0.006877755	2.483528e-05	4.396786e-05
	-0.0003623099	-4.323423e-05	0.01497119	-0.002346213	2.483528e-05	4.396786e-05	-0.04833053	-0.003950443
3e+08	-0.04901079	-0.003919556	-5.026052e-05	0.0001614378	0.0140627	-0.003784841	-0.0003840349	-2.456999e-05
	-5.026052e-05	0.0001614378	-0.0481507	-0.0009683372	7.271303e-07	1.202888e-05	0.01427756	-0.003037072
	0.0140627	-0.003784841	7.271303e-07	1.202888e-05	-0.04898284	-0.003522043	2.838241e-05	4.088738e-05
	-0.0003840349	-2.456999e-05	0.01427756	-0.003037072	2.838241e-05	4.088738e-05	-0.04832776	-0.0005683555
3.1e+08	-0.04881442	-0.0005627945	-4.174489e-05	0.0001611522	0.01322147	-0.004389662	-0.0004041943	-2.417263e-06
	-4.174489e-05	0.0001611522	-0.0477741	0.002339975	1.311772e-06	1.176935e-05	0.01348955	-0.003631366
	0.01322147	-0.004389662	1.311772e-06	1.176935e-05	-0.04877618	-0.0001933963	3.147269e-05	3.747972e-05
	-0.0004041943	-2.417263e-06	0.01348955	-0.003631366	3.147269e-05	3.747972e-05	-0.04793385	0.002762657
3.2e+08	-0.04823243	0.002719346	-3.350538e-05	0.0001603954	0.01229881	-0.004878775	-0.0004222996	2.299952e-05
	-3.350538e-05	0.0001603954	-0.04701883	0.005553111	1.871732e-06	1.148657e-05	0.01262022	-0.004117878
	0.01229881	-0.004878775	1.871732e-06	1.148657e-05	-0.048186	0.003062343	3.407135e-05	3.381916e-05
	-0.0004222996	2.299952e-05	0.01262022	-0.004117878	3.407135e-05	3.381916e-05	-0.04715932	0.005996379
3.3e+08	-0.04727783	0.005882257	-2.557856e-05	0.0001592216	0.01131021	-0.005242648	-0.0004379021	5.13847e-05
	-2.557856e-05	0.0001592216	-0.04590052	0.008626846	2.406213e-06	1.118303e-05	0.01168391	-0.004487122
	0.01131021	-0.005242648	2.406213e-06	1.118303e-05	-0.04722491	0.006200639	3.615634e-05	2.998419e-05
	-0.0004379021	5.13847e-05	0.01168391	-0.004487122	3.615634e-05	2.998419e-05	-0.04602008	0.009088333
3.4e+08	-0.04596875	0.008883304	-1.799005e-05	0.0001576897	0.01027224	-0.005473779	-0.0004506026	8.238145e-05
	-1.799005e-05	0.0001576897	-0.04443991	0.01151929	2.914864e-06	1.086122e-05	0.01069604	-0.004731483
	0.01027224	-0.005473779	2.914864e-06	1.086122e-05	-0.04591064	0.009178876	3.7719e-05	2.605528e-05
	-0.0004506026	8.238145e-05	0.01069604	-0.004731483	3.7719e-05	2.605528e-05	-0.0445372	0.01199641
3.5e+08	-0.04432811	0.01168239	-1.075422e-05	0.0001558596	0.009202289	-0.005566816	-0.0004600618	0.0001155778
	-1.075422e-05	0.0001558596	-0.04266252	0.01419143	3.397761e-06	1.05235e-05	0.009672859	-0.004845335
	0.009202289	-0.005566816	3.397761e-06	1.05235e-05	-0.04426573	0.01195691	3.876404e-05	2.211248e-05
	-0.0004600618	0.0001155778	0.009672859	-0.004845335	3.876404e-05	2.211248e-05	-0.04273652	0.01468145
3.6e+08	-0.04238334	0.01424248	-3.874161e-06	0.0001537914	0.008118311	-0.005518642	-0.0004660069	0.0001505197
	-3.874161e-06	0.0001537914	-0.04059827	0.01660771	3.855338e-06	1.017199e-05	0.008631215	-0.004825131
	0.008118311	-0.005518642	3.855338e-06	1.017199e-05	-0.04231728	0.01449763	3.930937e-05	1.823311e-05
	-0.0004660069	0.0001505197	0.008631215	-0.004825131	3.930937e-05	1.823311e-05	-0.04064834	0.01710773
3.7e+08	-0.04016596	0.01653013	2.657822e-06	0.0001515424	0.007038513	-0.005328428	-0.0004682379	0.0001867207
	2.657822e-06	0.0001515424	-0.03828102	0.01873648	4.288322e-06	9.808565e-06	0.007588273	-0.004669461
	0.007038513	-0.005328428	4.288322e-06	9.808565e-06	-0.04009649	0.01676745	3.938534e-05	1.448949e-05
	-0.0004682379	0.0001867207	0.007588273	-0.004669461	3.938534e-05	1.448949e-05	-0.03830689	0.01924356
3.8e+08	-0.03771112	0.01851589	8.859478e-06	0.0001491658	0.00598109	-0.004997655	-0.0004666316	0.0002236752
	8.859478e-06	0.0001491658	-0.03574808	0.02055045	4.697648e-06	9.434751e-06	0.00656126	-0.004379083
	0.00598109	-0.004997655	4.697648e-06	9.434751e-06	-0.03763823	0.01873674	3.903364e-05	1.094687e-05
	-0.0004666316	0.0002236752	0.00656126	-0.004379083	3.903364e-05	1.094687e-05	-0.03574986	0.02106158
3.9e+08	-0.03505711	0.02017472	1.475753e-05	0.0001467083	0.004963935	-0.004530097	-0.0004611424	0.0002608712
	1.475753e-05	0.0001467083	-0.03303966	0.02202704	5.08437e-06	9.051724e-06	0.005567196	-0.003956911
	0.004963935	-0.004530097	5.08437e-06	9.051724e-06	-0.03498058	0.02038028	3.830589e-05	7.661527e-06
	-0.0004611424	0.0002608712	0.005567196	-0.003956911	3.830589e-05	7.661527e-06	-0.03301788	0.02253925
4e+08	-0.03224483	0.0214863	2.038621e-05	0.0001442093	0.004004352	-0.003931775	-0.0004518026	0.0002978024
	2.038621e-05	0.0001442093	-0.03019829	0.02314868	5.449567e-06	8.660295e-06	0.004622629	-0.003407987
	0.004004352	-0.003931775	5.449567e-06	8.660295e-06	-0.03216424	0.0216775	3.726184e-05	4.679196e-06
	-0.0004518026	0.0002978024	0.004622629	-0.003407987	3.726184e-05	4.679196e-06	-0.03015385	0.02365907
4.1e+08	-0.02931721	0.02243534	2.578569e-05	0.0001416991	0.003118781	-0.003210869	-0.0004387184	0.0003339814
	2.578569e-05	0.0001416991	-0.02726819	0.02390307	5.794265e-06	8.260936e-06	0.00374337	-0.002739406
	0.003118781	-0.003210869	5.794265e-06	8.260936e-06	-0.029232	0.02261287	3.596738e-05	2.033818e-06
	-0.0004387184	0.0003339814	0.00374337	-0.002739406	3.596738e-05	2.033818e-06	-0.02720238	0.02440885
4.2e+08	-0.02631861	0.02301171	3.100022e-05	0.000139198	0.002322529	-0.002377602	-0.0004220651	0.0003689521
	3.100022e-05	0.000139198	-0.02429466	0.0242833	6.119347e-06	7.85381e-06	0.002944241	-0.001960219
	0.002322529	-0.002377602	6.119347e-06	7.85381e-06	-0.02622813	0.02317601	3.449229e-05	-2.533504e-07
	-0.0004220651	0.0003689521	0.002944241	-0.001960219	3.449229e-05	-2.533504e-07	-0.02420913	0.02478187
4.3e+08	-0.02329418	0.02321063	3.607612e-05	0.0001367163	0.001629519	-0.001444092	-0.0004020805	0.0004022986
	3.607612e-05	0.0001367163	-0.02132339	0.02428796	6.425495e-06	7.438818e-06	0.002238836	-0.001081298
	0.001629519	-0.001444092	6.425495e-06	7.438818e-06	-0.02319775	0.02336187	3.290789e-05	-2.174176e-06
	-0.0004020805	0.0004022986	0.002238836	-0.001081298	3.290789e-05	-2.174176e-06	-0.02122015	0.02477693
4.4e+08	-0.02028929	0.02303269	4.105965e-05	0.0001342533	0.001052055	-0.0004241665	-0.0003790578	0.0004336547
	4.105965e-05	0.0001342533	-0.01839985	0.02392113	6.713133e-06	7.015659e-06	0.001639297	-0.0001151788
	0.001052055	-0.0004241665	6.713133e-06	7.015659e-06	-0.02018621	0.02317078	3.128463e-05	-3.733675e-06
	-0.0003790578	0.0004336547	0.001639297	-0.0001151788	3.128463e-05	-3.733675e-06	-0.0182812	0.02439836
4.5e+08	-0.01734882	0.02248384	4.59956e-05	0.0001317986	0.0006006158	0.0006668484	-0.0003534018	0.0004626838
	4.59956e-05	0.0001317986	-0.01556858	0.0231923	6.982381e-06	6.583897e-06	0.001156108	0.0009241338
	0.0006006158	0.0006668484	6.982381e-06	6.583897e-06	-0.01723845	0.02260845	2.969033e-05	-4.949096e-06
	-0.0003534018	0.0004626838	0.001156108	0.0009241338	2.969033e-05	-4.949096e-06	-0.01543712	0.02365597
4.6e+08	-0.01451654	0.02157533	5.083771e-05	0.0001292643	0.0002836651	0.001812362	-0.0003159146	0.0004924866
	5.083771e-05	0.0001292643	-0.0128726	0.02211622	7.234578e-06	6.144141e-06	0.0007979174	0.002021376
	0.0002836651	0.001812362	7.234578e-06	6.144141e-06	-0.01439834	0.02168587	2.809954e-05	-5.914145e-06
	-0.0003159146	0.0004924866	0.0007979174	0.002021376	2.809954e-05	-5.914145e-06	-0.01273114	0.02256488
4.7e+08	-0.01183457	0.02032344	5.569165e-05	0.0001266948	0.0001075026	0.002994782	-0.0002751949	0.0005186391
	5.569165e-05	0.0001266948	-0.01035276	0.0207127	7.467994e-06	5.694465e-06	0.000571384	0.003160267
	0.0001075026	0.002994782	7.467994e-06	5.694465e-06	-0.01170814	0.02041912	2.663921e-05	-6.597818e-06
