!$
! Info: Touchstone file created by Circ.  Input file=Tx_6in_Rx_100ohms_TxVia_35mils_RxVia_45mils.circ
!$
# Hz S RI R 50
0	0.006333519	8.668316e-26	7.462438e-10	1.066526e-27	5.171419e-05	1.17827e-23	3.706512e-10	2.319566e-28
	7.462439e-10	1.066505e-27	0.00633185	1.042205e-25	2.511687e-09	4.158886e-27	5.157393e-05	1.42759e-23
	5.152814e-05	1.173324e-23	2.511687e-09	4.158895e-27	0.006344315	8.668344e-26	7.486256e-10	1.142246e-27
	3.706511e-10	2.319504e-28	4.972657e-05	1.434631e-23	7.486261e-10	1.142262e-27	0.006345015	9.763635e-26
1e+07	0.009092135	0.004425142	9.59117e-10	1.383113e-09	0.0003642444	0.001253425	5.902208e-10	7.008383e-10
	9.59117e-10	1.383113e-09	0.009182829	0.004419782	3.649034e-09	6.868503e-09	0.000362031	0.001251806
	0.000364239	0.001253426	3.649034e-09	6.868503e-09	0.009202601	0.004428492	9.582905e-10	1.401889e-09
	5.902207e-10	7.008383e-10	0.0003619708	0.001251816	9.582904e-10	1.401888e-09	0.009104428	0.004434448
2e+07	0.01168296	0.006766245	1.333342e-09	2.396362e-09	0.0005112302	0.002582136	9.254807e-10	1.154556e-09
	1.333342e-09	2.396362e-09	0.01173883	0.006723525	4.926959e-09	1.203827e-08	0.000502757	0.002579947
	0.0005112316	0.00258214	4.926958e-09	1.203827e-08	0.01177454	0.006738098	1.316458e-09	2.428612e-09
	9.254806e-10	1.154556e-09	0.0005027484	0.002579981	1.316457e-09	2.428612e-09	0.01168581	0.006784405
3e+07	0.01394918	0.00811787	1.692975e-09	3.313737e-09	0.0008270048	0.003772662	1.290269e-09	1.542093e-09
	1.692976e-09	3.313737e-09	0.01396702	0.008065057	5.896699e-09	1.698865e-08	0.0008084965	0.003771582
	0.0008270073	0.003772662	5.896699e-09	1.698865e-08	0.01402799	0.008081224	1.643973e-09	3.367032e-09
	1.290269e-09	1.542093e-09	0.0008084963	0.003771587	1.643973e-09	3.367032e-09	0.01393589	0.008147266
4e+07	0.01608111	0.008978576	2.081824e-09	4.149135e-09	0.001308652	0.004876333	1.707739e-09	1.853812e-09
	2.081824e-09	4.149135e-09	0.01605611	0.008926247	6.804527e-09	2.178738e-08	0.001276673	0.004878672
	0.001308653	0.004876331	6.804527e-09	2.178738e-08	0.01615095	0.008938364	1.988333e-09	4.23315e-09
	1.707739e-09	1.853812e-09	0.001276667	0.00487867	1.988333e-09	4.23315e-09	0.01604529	0.009022222
5e+07	0.01812945	0.009468184	2.490058e-09	4.896407e-09	0.002025177	0.005856014	2.165621e-09	2.078827e-09
	2.490058e-09	4.896407e-09	0.01805691	0.009425817	7.668043e-09	2.644038e-08	0.001976746	0.005864594
	0.002025177	0.005856013	7.668043e-09	2.644038e-08	0.01819315	0.009426373	2.342277e-09	5.022645e-09
	2.165621e-09	2.078827e-09	0.001976742	0.005864593	2.342277e-09	5.022645e-09	0.01806505	0.00953066
6e+07	0.020107	0.009644409	2.906665e-09	5.559349e-09	0.002842714	0.006727596	2.650205e-09	2.213768e-09
	2.906665e-09	5.559349e-09	0.01998329	0.00962159	8.483888e-09	3.097078e-08	0.002775395	0.006745814
	0.002842715	0.006727596	8.483888e-09	3.097078e-08	0.02016682	0.009601751	2.697328e-09	5.740596e-09
	2.650205e-09	2.213768e-09	0.002775398	0.006745813	2.697328e-09	5.740596e-09	0.02000898	0.009731478
7e+07	0.0220112	0.009541994	3.31323e-09	6.133961e-09	0.003748295	0.007481364	3.122319e-09	2.24057e-09
	3.31323e-09	6.133961e-09	0.02183392	0.009548506	9.234753e-09	3.537466e-08	0.003660252	0.007513026
	0.003748297	0.007481364	9.234753e-09	3.537466e-08	0.02206898	0.009498591	3.036052e-09	6.382853e-09
	3.12232e-09	2.24057e-09	0.00366026	0.007513023	3.036051e-09	6.382854e-09	0.02187557	0.009660193
8e+07	0.0238327	0.009186493	3.693503e-09	6.618205e-09	0.004727063	0.008108105	3.559504e-09	2.164698e-09
	3.693503e-09	6.618205e-09	0.0236007	0.009232414	9.918738e-09	3.966836e-08	0.0046171	0.008157345
	0.004727066	0.008108105	9.918739e-09	3.966836e-08	0.02388995	0.009142095	3.344461e-09	6.949041e-09
	3.559504e-09	2.164697e-09	0.00461711	0.008157339	3.344461e-09	6.949042e-09	0.02365639	0.009343038
9e+07	0.02555968	0.008600348	4.042569e-09	7.021162e-09	0.00576232	0.008599461	3.965756e-09	2.007241e-09
	4.042569e-09	7.021162e-09	0.02527328	0.008696186	1.054649e-08	4.387726e-08	0.005629924	0.008670649
	0.005762321	0.008599461	1.054649e-08	4.387726e-08	0.02561776	0.008554634	3.621249e-09	7.450548e-09
	3.965756e-09	2.00724e-09	0.005629931	0.008670644	3.621249e-09	7.450548e-09	0.02534069	0.008803108
1e+08	0.027186	0.007812706	4.350144e-09	7.338527e-09	0.006832975	0.008944772	4.32821e-09	1.785175e-09
	4.350144e-09	7.338527e-09	0.02684792	0.007970276	1.111588e-08	4.80043e-08	0.006678349	0.009042428
	0.006832974	0.008944772	1.111588e-08	4.80043e-08	0.02724692	0.007766324	3.859064e-09	7.884498e-09
	4.32821e-09	1.785175e-09	0.006678349	0.009042428	3.859064e-09	7.884498e-09	0.02692353	0.008070116
1.1e+08	0.02872376	0.006780431	4.661373e-09	7.606867e-09	0.007908071	0.009166122	4.67697e-09	1.49765e-09
	4.661373e-09	7.606867e-09	0.02834249	0.007006015	1.165784e-08	5.210383e-08	0.007732492	0.009294617
	0.007908071	0.009166122	1.165784e-08	5.210383e-08	0.02879301	0.006727866	4.111209e-09	8.290786e-09
	4.67697e-09	1.49765e-09	0.007732492	0.009294617	4.111209e-09	8.290786e-09	0.02842103	0.007101943
1.2e+08	0.03009208	0.005547968	4.913545e-09	7.829238e-09	0.00899964	0.009255475	4.971984e-09	1.123463e-09
	4.913545e-09	7.829238e-09	0.02966935	0.005847881	1.212647e-08	5.616481e-08	0.008804751	0.009419185
	0.008999639	0.009255475	1.212647e-08	5.616481e-08	0.0301665	0.005485069	4.313092e-09	8.662813e-09
	4.971984e-09	1.123463e-09	0.008804751	0.009419185	4.313092e-09	8.662813e-09	0.02975072	0.005941098
1.3e+08	0.03128589	0.004149208	5.099692e-09	8.005481e-09	0.01008613	0.009206441	5.197678e-09	6.786955e-10
	5.099692e-09	8.005481e-09	0.03082575	0.004531205	1.252101e-08	6.019628e-08	0.009874325	0.00940956
	0.01008613	0.009206441	1.252101e-08	6.019628e-08	0.03136297	0.004073837	4.459454e-09	9.000205e-09
	5.197678e-09	6.786955e-10	0.009874325	0.00940956	4.459454e-09	9.000205e-09	0.03090898	0.004621966
1.4e+08	0.03229496	0.002608389	5.212783e-09	8.143981e-09	0.01114887	0.009019788	5.342244e-09	1.750819e-10
	5.212783e-09	8.143981e-09	0.03180313	0.003080182	1.28414e-08	6.420937e-08	0.01092327	0.00926619
	0.01114887	0.009019788	1.28414e-08	6.420937e-08	0.03237224	0.002519195	4.545258e-09	9.31051e-09
	5.342244e-09	1.750819e-10	0.01092327	0.00926619	4.545258e-09	9.31051e-09	0.03188716	0.00316879
1.5e+08	0.0331095	0.0009489165	5.246587e-09	8.25461e-09	0.01216998	0.008699295	5.395543e-09	-3.752316e-10
	5.246587e-09	8.25461e-09	0.03259322	0.001517663	1.308801e-08	6.821504e-08	0.01193438	0.008992428
	0.01216998	0.008699296	1.308801e-08	6.821504e-08	0.03318453	0.0008450847	4.566265e-09	9.602307e-09
	5.395543e-09	-3.752316e-10	0.01193438	0.008992428	4.566265e-09	9.602307e-09	0.0326771	0.001604532
1.6e+08	0.03372102	-0.0008056578	5.196019e-09	8.34846e-09	0.01313244	0.00825122	5.349141e-09	-9.588852e-10
	5.196019e-09	8.34846e-09	0.03318895	-0.0001336963	1.32618e-08	7.22242e-08	0.01289123	0.008593997
	0.01313244	0.00825122	1.32618e-08	7.22242e-08	0.03379137	-0.0009245141	4.51925e-09	9.884978e-09
	5.349141e-09	-9.588852e-10	0.01289123	0.008593997	4.51925e-09	9.884978e-09	0.03327181	-4.807943e-05
1.7e+08	0.03412283	-0.002631382	5.057359e-09	8.437553e-09	0.01402026	0.007684038	5.19646e-09	-1.56138e-09
	5.057359e-09	8.437553e-09	0.03358483	-0.001851118	1.336452e-08	7.624776e-08	0.01377836	0.008078747
	0.01402026	0.007684038	1.336452e-08	7.624776e-08	0.03418608	-0.002765274	4.402124e-09	1.016845e-08
	5.19646e-09	-1.56138e-09	0.01377836	0.008078747	4.402124e-09	1.016845e-08	0.03366594	-0.001766214
1.8e+08	0.03431029	-0.0045039	4.828405e-09	8.534617e-09	0.01481872	0.007008237	4.932936e-09	-2.167275e-09
	4.828405e-09	8.534617e-09	0.03377724	-0.003611642	1.339889e-08	8.029658e-08	0.01458149	0.007456463
	0.01481872	0.007008237	1.339889e-08	8.029658e-08	0.03436404	-0.004652492	4.214015e-09	1.046305e-08
	4.932936e-09	-2.167275e-09	0.01458149	0.007456463	4.214015e-09	1.046305e-08	0.03385596	-0.003526879
1.9e+08	0.03428108	-0.006398587	4.508596e-09	8.652872e-09	0.01551461	0.006236117	4.556132e-09	-2.760438e-09
	4.508596e-09	8.652872e-09	0.0337646	-0.005392205	1.33687e-08	8.438134e-08	0.01528772	0.00673867
	0.01551461	0.006236117	1.33687e-08	8.438134e-08	0.03432296	-0.006561201	3.955324e-09	1.07793e-08
	4.556132e-09	-2.760438e-09	0.01528772	0.00673867	3.955324e-09	1.07793e-08	0.03384039	-0.00530699
2e+08	0.03403526	-0.008290763	4.099092e-09	8.805827e-09	0.01609639	0.005381567	4.065833e-09	-3.324316e-09
	4.099092e-09	8.805827e-09	0.03354755	-0.007169815	1.327891e-08	8.851248e-08	0.01588573	0.005938439
	0.01609639	0.005381567	1.327891e-08	8.851248e-08	0.03406299	-0.008466382	3.627772e-09	1.112786e-08
	4.065833e-09	-3.324316e-09	0.01588573	0.005938439	3.627772e-09	1.112786e-08	0.03361993	-0.00708353
2.1e+08	0.03357545	-0.01015593	3.602836e-09	9.007064e-09	0.0165544	0.00445984	3.464088e-09	-3.842217e-09
	3.602836e-09	9.007064e-09	0.03312894	-0.008921746	1.313568e-08	9.270003e-08	0.01636597	0.005070163
	0.0165544	0.00445984	1.313568e-08	9.270003e-08	0.03358683	-0.0103432	3.234428e-09	1.151928e-08
	3.464088e-09	-3.842217e-09	0.01636597	0.005070163	3.234428e-09	1.151928e-08	0.03319752	-0.008833754
2.2e+08	0.03290678	-0.01197002	3.0246e-09	9.270026e-09	0.016881	0.003487297	2.755236e-09	-4.297596e-09
	3.0246e-09	9.270026e-09	0.03251395	-0.01062577	1.294641e-08	9.695343e-08	0.01672077	0.004149327
	0.016881	0.003487297	1.294641e-08	9.695343e-08	0.03289975	-0.01216726	2.779735e-09	1.196397e-08
	2.755236e-09	-4.297596e-09	0.01672077	0.004149327	2.779735e-09	1.196397e-08	0.03257838	-0.01053541
2.3e+08	0.03203694	-0.01370972	2.371e-09	9.607794e-09	0.0170707	0.002481147	1.94588e-09	-4.674338e-09
	2.371e-09	9.607794e-09	0.03171	-0.01226038	1.271971e-08	1.012814e-07	0.01694448	0.00319226
	0.0170707	0.002481147	1.271971e-08	1.012814e-07	0.03200963	-0.01391491	2.269525e-09	1.247194e-08
	1.94588e-09	-4.674338e-09	0.01694448	0.00319226	2.269525e-09	1.247194e-08	0.03177002	-0.01216696
2.4e+08	0.03097609	-0.01535269	1.650501e-09	1.003286e-08	0.01712022	0.001459165	1.044857e-09	-4.957043e-09
	1.650501e-09	1.003286e-08	0.03072672	-0.01380507	1.246539e-08	1.056918e-07	0.01703354	0.002215876
	0.01712022	0.001459165	1.246539e-08	1.056918e-07	0.03092686	-0.01556351	1.711019e-09	1.305275e-08
	1.044857e-09	-4.957043e-09	0.01703354	0.002215876	1.711019e-09	1.305275e-08	0.03078214	-0.01370787
2.5e+08	0.02973674	-0.0168779	8.733963e-10	1.055689e-08	0.01702857	0.0004394141	6.315378e-11	-5.131302e-09
	8.733963e-10	1.055689e-08	0.02957586	-0.01524054	1.219436e-08	1.101915e-07	0.01698657	0.001237403
	0.01702857	0.0004394141	1.219436e-08	1.101915e-07	0.02966425	-0.01709175	1.112828e-09	1.371522e-08
	6.315378e-11	-5.131302e-09	0.01698657	0.001237403	1.112828e-09	1.371522e-08	0.02962658	-0.01513882
2.6e+08	0.02833368	-0.01826584	5.176167e-11	1.119049e-08	0.01679707	-0.0005600518	-9.861864e-10	-5.18397e-09
	5.176167e-11	1.119049e-08	0.02827118	-0.01654895	1.191862e-08	1.147859e-07	0.01680436	0.0002741166
	0.01679707	-0.0005600517	1.191862e-08	1.147859e-07	0.02823689	-0.01847988	4.849257e-10	1.446736e-08
	-9.861864e-10	-5.18397e-09	0.01680436	0.0002741166	4.849257e-10	1.446736e-08	0.02831715	-0.01644194
2.7e+08	0.02678374	-0.01949881	-8.00616e-10	1.19429e-08	0.01642932	-0.001521473	-2.088196e-09	-5.103435e-09
	-8.00616e-10	1.19429e-08	0.02682822	-0.0177141	1.165107e-08	1.194792e-07	0.01648988	-0.0006569399
	0.01642932	-0.001521473	1.165107e-08	1.194792e-07	0.02666198	-0.01970999	-1.613921e-10	1.53161e-08
	-2.088196e-09	-5.103435e-09	0.01648988	-0.0006569399	-1.613921e-10	1.53161e-08	0.02686954	-0.01760104
2.8e+08	0.02510562	-0.02056113	-1.668351e-09	1.282179e-08	0.01593115	-0.002427673	-3.226143e-09	-4.879876e-09
	-1.668351e-09	1.282179e-08	0.02526422	-0.01872166	1.140541e-08	1.24274e-07	0.01604821	-0.001539222
	0.01593115	-0.002427673	1.140541e-08	1.24274e-07	0.02495863	-0.02076622	-8.135808e-10	1.626711e-08
	-3.226143e-09	-4.879876e-09	0.01604821	-0.001539222	-8.135808e-10	1.626711e-08	0.02530105	-0.0186018
2.9e+08	0.02331967	-0.02143932	-2.534605e-09	1.383298e-08	0.01531053	-0.003262334	-4.38172e-09	-4.505517e-09
	-2.534605e-09	1.383298e-08	0.02359782	-0.01955933	1.119599e-08	1.291712e-07	0.0154865	-0.00235695
	0.01531053	-0.003262334	1.119599e-08	1.291712e-07	0.02314761	-0.02163502	-1.457947e-09	1.732457e-08
	-4.38172e-09	-4.505517e-09	0.0154865	-0.00235695	-1.457947e-09	1.732457e-08	0.02363043	-0.01943192
3e+08	0.0214476	-0.02212234	-3.381283e-09	1.498016e-08	0.01457745	-0.004010264	-5.535273e-09	-3.974861e-09
	-3.381283e-09	1.498016e-08	0.02184887	-0.020217	1.10376e-08	1.341699e-07	0.01481381	-0.003095357
	0.01457745	-0.004010264	1.10376e-08	1.341699e-07	0.02125108	-0.02230529	-2.079791e-09	1.849098e-08
	-5.535273e-09	-3.974861e-09	0.01481381	-0.003095357	-2.079791e-09	1.849098e-08	0.02187763	-0.02008132
3.1e+08	0.01951224	-0.02260167	-4.189272e-09	1.626462e-08	0.01374376	-0.004657647	-6.666063e-09	-3.284912e-09
	-4.189272e-09	1.626462e-08	0.02003818	-0.02068683	1.094521e-08	1.392672e-07	0.01404102	-0.00374093
	0.01374376	-0.004657647	1.094521e-08	1.392672e-07	0.01929233	-0.02276851	-2.663592e-09	1.976689e-08
	-6.666063e-09	-3.284912e-09	0.01404102	-0.00374093	-2.663592e-09	1.976689e-08	0.02006358	-0.02054223
3.2e+08	0.01753721	-0.02287145	-4.938736e-09	1.768509e-08	0.01282301	-0.005192264	-7.752563e-09	-2.435372e-09
	-4.938736e-09	1.768509e-08	0.01818728	-0.02096341	1.09338e-08	1.444579e-07	0.01318063	-0.004281625
	0.01282301	-0.005192264	1.09338e-08	1.444579e-07	0.01729545	-0.02301893	-3.193235e-09	2.115076e-08
	-7.752563e-09	-2.435372e-09	0.01318063	-0.004281625	-3.193235e-09	2.115076e-08	0.01820987	-0.02080928
3.3e+08	0.01554665	-0.0229286	-5.609462e-09	1.923746e-08	0.01183019	-0.005603702	-8.772795e-09	-1.428807e-09
	-5.609462e-09	1.923746e-08	0.01631809	-0.02104377	1.1018e-08	1.497351e-07	0.01224657	-0.004707061
	0.01183019	-0.005603702	1.1018e-08	1.497351e-07	0.01528505	-0.02305358	-3.652296e-09	2.263874e-08
	-8.772795e-09	-1.428807e-09	0.01224657	-0.004707061	-3.652296e-09	2.263874e-08	0.01633852	-0.02087957
3.4e+08	0.0135649	-0.02277277	-6.181246e-09	2.09147e-08	0.01078152	-0.005883523	-9.704699e-09	-2.707735e-10
	-6.181246e-09	2.09147e-08	0.01445272	-0.02092743	1.121182e-08	1.550894e-07	0.01125398	-0.005008691
	0.01078152	-0.005883523	1.121182e-08	1.550894e-07	0.01328589	-0.02287236	-4.024359e-09	2.422453e-08
	-9.704699e-09	-2.707735e-10	0.01125398	-0.005008691	-4.024359e-09	2.422453e-08	0.01447172	-0.02075274
3.5e+08	0.01161614	-0.02240647	-6.634332e-09	2.270671e-08	0.009694201	-0.006025412	-1.052654e-08	1.030096e-09
	-6.634332e-09	2.270671e-08	0.01261311	-0.02061642	1.152834e-08	1.605094e-07	0.01021899	-0.005179942
	0.009694201	-0.006025412	1.152834e-08	1.605094e-07	0.0113226	-0.02247801	-4.293385e-09	2.589931e-08
	-1.052654e-08	1.030096e-09	0.01021899	-0.005179942	-4.293385e-09	2.589931e-08	0.01263147	-0.02043088
3.6e+08	0.009724129	-0.02183492	-6.949879e-09	2.46003e-08	0.008586108	-0.006025283	-1.121732e-08	2.462063e-09
	-6.949879e-09	2.46003e-08	0.01082083	-0.02011521	1.197935e-08	1.659818e-07	0.009158414	-0.005216323
	0.008586108	-0.006025283	1.197935e-08	1.659818e-07	0.009419295	-0.02187612	-4.444112e-09	2.765166e-08
	-1.121732e-08	2.462063e-09	0.009158414	-0.005216323	-4.444112e-09	2.765166e-08	0.01083937	-0.0199186
3.7e+08	0.00791183	-0.02106608	-7.110459e-09	2.657924e-08	0.007475532	-0.005881352	-1.175726e-08	4.010321e-09
	-7.110459e-09	2.657924e-08	0.009096723	-0.0194307	1.257505e-08	1.71491e-07	0.008089541	-0.005115502
	0.007475532	-0.005881352	1.257505e-08	1.71491e-07	0.007599313	-0.02107502	-4.462483e-09	2.946761e-08
	-1.175726e-08	4.010321e-09	0.008089541	-0.005115502	-4.462483e-09	2.946761e-08	0.00911633	-0.01922289
3.8e+08	0.006201148	-0.02011049	-7.10056e-09	2.862438e-08	0.006380868	-0.005594178	-1.212822e-08	5.657087e-09
	-7.10056e-09	2.862438e-08	0.007460713	-0.01857207	1.332369e-08	1.770199e-07	0.007029823	-0.004877346
	0.006380868	-0.005594178	1.332369e-08	1.770199e-07	0.00588485	-0.02008569	-4.336088e-09	3.133075e-08
	-1.212822e-08	5.657087e-09	0.007029823	-0.004877346	-4.336088e-09	3.133075e-08	0.007482267	-0.01835306
3.9e+08	0.004612614	-0.01898117	-6.907085e-09	3.071388e-08	0.005320323	-0.005166654	-1.23142e-08	7.381781e-09
	-6.907085e-09	3.071388e-08	0.005931502	-0.01755068	1.423132e-08	1.825498e-07	0.005996608	-0.004503931
	0.005320323	-0.005166654	1.423132e-08	1.825498e-07	0.00429668	-0.01892162	-4.054594e-09	3.322238e-08
	-1.23142e-08	7.381781e-09	0.005996608	-0.004503931	-4.054594e-09	3.322238e-08	0.005955889	-0.0173206
4e+08	0.003165101	-0.01769338	-6.519835e-09	3.28235e-08	0.004311616	-0.004603978	-1.230173e-08	9.161269e-09
	-6.519835e-09	3.28235e-08	0.004526349	-0.01637995	1.530143e-08	1.88061e-07	0.005006859	-0.003999512
	0.004311616	-0.004603978	1.530143e-08	1.88061e-07	0.002853864	-0.01759861	-3.61018e-09	3.512181e-08
	-1.230173e-08	9.161269e-09	0.005006859	-0.003999512	-3.61018e-09	3.512181e-08	0.004554437	-0.01613903
4.1e+08	0.00187559	-0.01626452	-5.931942e-09	3.492701e-08	0.003371693	-0.003913564	-1.208034e-08	1.097019e-08
	-5.931942e-09	3.492701e-08	0.003260839	-0.01507513	1.65348e-08	1.935326e-07	0.004076882	-0.003370454
	0.003371693	-0.003913564	1.65348e-08	1.935326e-07	0.001573499	-0.01613459	-2.997908e-09	3.700668e-08
	-1.208034e-08	1.097019e-08	0.004076882	-0.003370454	-2.997908e-09	3.700668e-08	0.003293465	-0.01482374
4.2e+08	0.0007589178	-0.01471378	-5.140249e-09	3.699666e-08	0.002516444	-0.003104939	-1.16429e-08	1.278133e-08
	-5.140249e-09	3.699666e-08	0.002148691	-0.01365311	1.792926e-08	1.989434e-07	0.003222062	-0.002625143
	0.002516444	-0.003104939	1.792926e-08	1.989434e-07	0.0004704632	-0.01454934	-2.216065e-09	3.88534e-08
	-1.16429e-08	1.278133e-08	0.003222062	-0.002625143	-2.216065e-09	3.88534e-08	0.002186638	-0.01339171
4.3e+08	-0.0001724215	-0.01306198	-4.145619e-09	3.900373e-08	0.001760448	-0.002189589	-1.098597e-08	1.456614e-08
	-4.145619e-09	3.900373e-08	0.001201577	-0.01213222	1.947962e-08	2.042722e-07	0.002456619	-0.001773845
	0.001760448	-0.002189589	1.947962e-08	2.042722e-07	-0.0004427676	-0.01286424	-1.266432e-09	4.063764e-08
	-1.098597e-08	1.456614e-08	0.002456619	-0.001773845	-1.266432e-09	4.063764e-08	0.001245568	-0.01186139
4.4e+08	-0.0009084362	-0.01133122	-2.953153e-09	4.091919e-08	0.001116728	-0.00118078	-1.011002e-08	1.629519e-08
	-2.953153e-09	4.091919e-08	0.000428982	-0.01053194	2.117755e-08	2.094981e-07	0.001793373	-0.0008285544
	0.001116728	-0.00118078	2.117755e-08	2.094981e-07	-0.001156311	-0.01110197	-1.544676e-10	4.233488e-08
	-1.011002e-08	1.629519e-08	0.001793373	-0.0008285544	-1.544676e-10	4.233488e-08	0.0004796557	-0.01025237
4.5e+08	-0.001441788	-0.009544591	-1.572298e-09	4.27143e-08	0.0005965365	-9.334767e-05	-9.019631e-09	1.793877e-08
	-1.572298e-09	4.27143e-08	-0.0001619219	-0.008872686	2.301168e-08	2.146012e-07	0.001243541	0.0001972042
	0.0005965365	-9.334767e-05	2.301168e-08	2.146012e-07	-0.001663004	-0.009286202	1.110602e-09	4.392101e-08
	-9.019631e-09	1.793877e-08	0.001243541	0.0001972042	1.110602e-09	4.392101e-08	-0.000104017	-0.00858512
4.6e+08	-0.001767875	-0.007725882	-1.68424e-11	4.436134e-08	0.0002091705	0.001056537	-7.723554e-09	1.946752e-08
	-1.68424e-11	4.436134e-08	-0.0005663579	-0.007175499	2.496765e-08	2.195631e-07	0.0008165526	0.001288583
	0.0002091705	0.001056537	2.496765e-08	2.195631e-07	-0.001958505	-0.007441277	2.5158e-09	4.53729e-08
	-7.723554e-09	1.946752e-08	0.0008165526	0.001288583	2.5158e-09	4.53729e-08	-0.0005007782	-0.006880774
4.7e+08	-0.001884892	-0.005899212	1.695184e-09	4.583428e-08	-3.818697e-05	0.002251626	-6.234717e-09	2.085299e-08
	1.695184e-09	4.583428e-08	-0.0007820008	-0.005461786	2.702831e-08	2.24367e-07	0.0005198972	0.002429652
	-3.818696e-05	0.002251626	2.702831e-08	2.24367e-07	-0.002041354	-0.005591858	4.044507e-09	4.666909e-08
	-6.234717e-09	2.085299e-08	0.0005198972	0.002429652	4.044507e-09	4.666909e-08	-0.0007083904	-0.005160768
4.8e+08	-0.001793905	-0.00408877	3.541777e-09	4.710946e-08	-0.0001405872	0.003473872	-4.570093e-09	2.206833e-08
	3.541777e-09	4.710946e-08	-0.0008089991	-0.003753019	2.917402e-08	2.289984e-07	0.0003590026	0.003603646
