!$
! Info: Touchstone file created by Circ.  Input file=Tx_6in_Rx_85ohms_TxVia_35mils_RxVia_45mils.circ
!$
# Hz S RI R 50
0	0.004940817	8.963106e-26	-3.271721e-05	3.863854e-24	5.237778e-05	9.200659e-24	-3.272939e-05	5.395238e-24
	-3.271722e-05	3.865026e-24	0.004938653	1.045758e-25	-3.269746e-05	1.530453e-24	5.173636e-05	1.110675e-23
	5.288767e-05	9.3293e-24	-3.269745e-05	1.52842e-24	0.004953188	8.710025e-26	-3.271537e-05	3.765896e-24
	-3.27294e-05	5.396045e-24	4.988927e-05	1.11616e-23	-3.271538e-05	3.767565e-24	0.00495184	9.796722e-26
1e+07	0.007409402	-0.005223098	-0.0001413801	-2.064863e-05	0.0001261491	0.001227408	-9.787793e-05	5.868725e-05
	-0.0001413801	-2.064863e-05	0.006592689	-0.005326999	-4.025491e-06	-9.469312e-06	0.000170688	0.001231186
	0.0001261788	0.001227402	-4.025492e-06	-9.469313e-06	0.006622317	-0.005425073	-2.976681e-05	-1.061008e-05
	-9.787792e-05	5.868725e-05	0.0001706281	0.001231196	-2.976681e-05	-1.061008e-05	0.006587756	-0.005315843
2e+07	0.008012285	-0.01243569	-0.0001278042	1.272554e-06	0.0003632763	0.002435105	-9.685298e-05	5.454231e-05
	-0.0001278042	1.272556e-06	0.007253137	-0.01231004	-3.646424e-06	-2.854877e-06	0.0004272306	0.002404382
	0.0003632772	0.002435083	-3.646425e-06	-2.854876e-06	0.007207243	-0.01247703	-2.693145e-05	1.675423e-06
	-9.685298e-05	5.454231e-05	0.0004272228	0.002404416	-2.693145e-05	1.675423e-06	0.007252616	-0.01228188
3e+07	0.007153646	-0.02019292	-0.0001206149	-6.872151e-06	0.0007824086	0.003562271	-9.0618e-05	6.395911e-05
	-0.0001206149	-6.87215e-06	0.006425809	-0.01997532	-3.433195e-06	-1.066074e-06	0.0008207011	0.003523562
	0.0007824024	0.003562269	-3.433195e-06	-1.066074e-06	0.006337021	-0.0201628	-2.62613e-05	-1.735204e-06
	-9.0618e-05	6.395911e-05	0.0008207012	0.003523567	-2.62613e-05	-1.735204e-06	0.006427957	-0.01993515
4e+07	0.005067858	-0.02794227	-0.000115221	-9.848228e-06	0.001333759	0.00461299	-8.050306e-05	7.297422e-05
	-0.000115221	-9.848228e-06	0.00435439	-0.02765648	-3.226576e-06	-4.744593e-08	0.001344827	0.004574375
	0.00133376	0.004612994	-3.226576e-06	-4.744626e-08	0.004245869	-0.02785197	-2.611681e-05	-3.429838e-06
	-8.050306e-05	7.297422e-05	0.001344822	0.004574373	-2.611681e-05	-3.429838e-06	0.004357878	-0.02760562
5e+07	0.001873063	-0.03544863	-0.0001109553	-1.055618e-05	0.002006929	0.005573354	-6.732578e-05	7.942674e-05
	-0.0001109553	-1.055618e-05	0.001160301	-0.03510117	-3.014001e-06	6.680846e-07	0.001989196	0.005541162
	0.002006932	0.005573356	-3.014001e-06	6.680844e-07	0.001051199	-0.03530151	-2.634144e-05	-4.280475e-06
	-6.732578e-05	7.942674e-05	0.001989193	0.005541161	-2.634144e-05	-4.280475e-06	0.001163829	-0.03504013
6e+07	-0.002334881	-0.04254182	-0.0001074165	-9.920844e-06	0.00278869	0.006429438	-5.195765e-05	8.222782e-05
	-0.0001074165	-9.920844e-06	-0.003057853	-0.04213211	-2.790615e-06	1.226221e-06	0.002741003	0.006409617
	0.002788689	0.006429438	-2.790615e-06	1.226221e-06	-0.003151457	-0.04233904	-2.681784e-05	-4.545885e-06
	-5.195765e-05	8.222782e-05	0.002741006	0.006409616	-2.681784e-05	-4.545885e-06	-0.003055519	-0.04206094
7e+07	-0.007461421	-0.04908311	-0.0001043153	-8.320617e-06	0.003663809	0.007168782	-3.538189e-05	8.064177e-05
	-0.0001043153	-8.320616e-06	-0.008203177	-0.04860676	-2.71058e-06	1.317118e-06	0.003585632	0.00716725
	0.003663803	0.007168783	-2.71058e-06	1.317118e-06	-0.008267628	-0.04882496	-2.744636e-05	-4.326507e-06
	-3.538189e-05	8.064177e-05	0.00358564	0.007167246	-2.744636e-05	-4.326507e-06	-0.008203201	-0.04852517
8e+07	-0.01340697	-0.05495541	-0.0001014028	-5.916643e-06	0.004615439	0.007780942	-1.872018e-05	7.410832e-05
	-0.0001014028	-5.916643e-06	-0.01417398	-0.05440564	-2.713284e-06	1.244219e-06	0.004506987	0.007803713
	0.004615432	0.007780945	-2.713284e-06	1.244219e-06	-0.01419753	-0.05464151	-2.813274e-05	-3.671134e-06
	-1.872018e-05	7.410832e-05	0.004506996	0.007803707	-2.813274e-05	-3.671133e-06	-0.01417745	-0.05431306
9e+07	-0.02006508	-0.06005985	-9.841176e-05	-2.720325e-06	0.005625508	0.00825789	-3.321446e-06	6.206582e-05
	-9.841176e-05	-2.720325e-06	-0.02086188	-0.05942839	-2.723013e-06	1.199986e-06	0.005487906	0.008311187
	0.005625503	0.008257893	-2.723013e-06	1.199986e-06	-0.02083395	-0.05968866	-2.878439e-05	-2.604799e-06
	-3.321447e-06	6.206582e-05	0.005487912	0.008311181	-2.878439e-05	-2.604799e-06	-0.02086976	-0.05932398
1e+08	-0.02732276	-0.06431494	-9.474149e-05	1.837457e-06	0.006675535	0.008594796	8.26877e-06	4.242775e-05
	-9.474149e-05	1.837457e-06	-0.0281529	-0.06359415	-2.742864e-06	1.161036e-06	0.006511499	0.008685948
	0.006675535	0.008594796	-2.742864e-06	1.161036e-06	-0.02805944	-0.06387895	-2.928258e-05	-1.08029e-06
	8.26877e-06	4.242775e-05	0.006511499	0.008685948	-2.928258e-05	-1.08029e-06	-0.02816612	-0.063477
1.1e+08	-0.03506074	-0.06766226	-9.33508e-05	8.09135e-06	0.007747383	0.008785783	2.489988e-05	1.39515e-05
	-9.33508e-05	8.09135e-06	-0.03592798	-0.06683471	-2.714625e-06	1.129971e-06	0.007564036	0.00891664
	0.007747383	0.008785783	-2.714625e-06	1.129971e-06	-0.03573728	-0.06718249	-2.992629e-05	8.640837e-07
	2.489988e-05	1.39515e-05	0.007564036	0.008916641	-2.992629e-05	8.640837e-07	-0.03594641	-0.06670288
1.2e+08	-0.04315711	-0.07004174	-9.226771e-05	1.346942e-05	0.008818228	0.008831129	3.972307e-05	-1.486375e-05
	-9.226771e-05	1.346942e-05	-0.04405504	-0.06909307	-2.682456e-06	1.136534e-06	0.008616845	0.009004147
	0.008818227	0.008831129	-2.682456e-06	1.136534e-06	-0.04378136	-0.06953401	-3.040873e-05	2.909421e-06
	3.972307e-05	-1.486375e-05	0.008616845	0.009004147	-3.040873e-05	2.909421e-06	-0.044079	-0.0689452
1.3e+08	-0.05148413	-0.07142239	-9.103883e-05	1.865697e-05	0.00986941	0.00873421	5.065283e-05	-4.587913e-05
	-9.103883e-05	1.865697e-05	-0.05240502	-0.07034051	-2.647928e-06	1.163081e-06	0.009652715	0.008952966
	0.00986941	0.00873421	-2.647928e-06	1.163081e-06	-0.0520602	-0.0708941	-3.065171e-05	5.095538e-06
	5.065283e-05	-4.587913e-05	0.009652715	0.008952966	-3.065171e-05	5.095538e-06	-0.05243461	-0.07017506
1.4e+08	-0.05991354	-0.07178934	-8.955444e-05	2.375522e-05	0.01088258	0.008500195	5.679706e-05	-7.8937e-05
	-8.955444e-05	2.375522e-05	-0.06084739	-0.07056332	-2.610048e-06	1.203896e-06	0.01065419	0.008768159
	0.01088258	0.008500195	-2.610048e-06	1.203896e-06	-0.06044459	-0.07124548	-3.061834e-05	7.385542e-06
	5.679706e-05	-7.8937e-05	0.01065419	0.008768159	-3.061834e-05	7.385542e-06	-0.06088228	-0.07037855
1.5e+08	-0.06831835	-0.0711436	-8.775738e-05	2.877592e-05	0.01184038	0.008136495	5.752617e-05	-0.0001134657
	-8.775738e-05	2.877592e-05	-0.06925291	-0.06976399	-2.567759e-06	1.255169e-06	0.01160466	0.008456736
	0.01184038	0.008136495	-2.567759e-06	1.255169e-06	-0.06880697	-0.07058786	-3.028688e-05	9.729331e-06
	5.752617e-05	-0.0001134657	0.01160466	0.008456736	-3.028688e-05	9.729331e-06	-0.06929232	-0.06955815
1.6e+08	-0.07657448	-0.06950151	-8.561628e-05	3.369692e-05	0.01272678	0.007652601	5.240702e-05	-0.000148687
	-8.561628e-05	3.369692e-05	-0.07749547	-0.06796074	-2.520194e-06	1.313859e-06	0.01248875	0.008027616
	0.01272678	0.007652601	-2.520194e-06	1.313859e-06	-0.07702286	-0.06893677	-2.964841e-05	1.207233e-05
	5.240702e-05	-0.000148687	0.01248875	0.008027616	-2.964841e-05	1.207233e-05	-0.07753821	-0.06773221
1.7e+08	-0.08456233	-0.06689405	-8.311764e-05	3.848113e-05	0.01352734	0.007059859	4.119189e-05	-0.0001837032
	-8.311764e-05	3.848113e-05	-0.08545378	-0.06518678	-2.466784e-06	1.377298e-06	0.01329254	0.007491446
	0.01352734	0.007059859	-2.466784e-06	1.377298e-06	-0.0849723	-0.06632267	-2.870573e-05	1.435955e-05
	4.119189e-05	-0.0001837032	0.01329254	0.007491446	-2.870573e-05	1.435955e-05	-0.08549826	-0.06493414
1.8e+08	-0.09216826	-0.06336597	-8.026232e-05	4.308524e-05	0.01422936	0.006371213	2.38175e-05	-0.0002175526
	-8.026232e-05	4.308524e-05	-0.09301288	-0.06148932	-2.407309e-06	1.443075e-06	0.01400375	0.006860368
	0.01422936	0.006371213	-2.407309e-06	1.443075e-06	-0.0925414	-0.06278993	-2.747242e-05	1.653828e-05
	2.38175e-05	-0.0002175526	0.01400375	0.006860368	-2.747242e-05	1.653828e-05	-0.0930572	-0.06121145
1.9e+08	-0.09928597	-0.05897477	-7.70631e-05	4.746484e-05	0.01482206	0.005600928	4.026176e-07	-0.0002492533
	-7.70631e-05	4.746484e-05	-0.1000655	-0.05692858	-2.341935e-06	1.509001e-06	0.01461188	0.006147775
	0.01482206	0.005600928	-2.341935e-06	1.509001e-06	-0.09962363	-0.05839578	-2.597156e-05	1.856019e-05
	4.026176e-07	-0.0002492533	0.01461188	0.006147775	-2.597156e-05	1.856019e-05	-0.1001076	-0.05662468
2e+08	-0.1058178	-0.05378962	-7.354276e-05	5.157759e-05	0.01529669	0.004764313	-2.875728e-05	-0.0002778412
	-7.354276e-05	5.157759e-05	-0.1065136	-0.05157655	-2.271203e-06	1.573134e-06	0.01510829	0.005368054
	0.01529669	0.004764313	-2.271203e-06	1.573134e-06	-0.1061211	-0.05320922	-2.423434e-05	2.038283e-05
	-2.875728e-05	-0.0002778412	0.01510829	0.005368054	-2.423434e-05	2.038283e-05	-0.1065511	-0.05124619
2.1e+08	-0.1116757	-0.04789017	-6.973231e-05	5.538545e-05	0.01564656	0.003877451	-6.320032e-05	-0.0003024025
	-6.973231e-05	5.538545e-05	-0.1122691	-0.04551579	-2.196015e-06	1.633832e-06	0.01548632	0.004536336
	0.01564656	0.003877451	-2.196015e-06	1.633832e-06	-0.1119458	-0.04730975	-2.229856e-05	2.197091e-05
	-6.320032e-05	-0.0003024025	0.01548632	0.004536336	-2.229856e-05	2.197091e-05	-0.1122997	-0.0451589
2.2e+08	-0.1167825	-0.04136521	-6.566929e-05	5.885613e-05	0.01586708	0.00295693	-0.0001023119	-0.0003221039
	-6.566929e-05	5.885613e-05	-0.1172551	-0.03883801	-2.117576e-06	1.689806e-06	0.01574121	0.00366825
	0.01586708	0.00295693	-2.117576e-06	1.689806e-06	-0.1170202	-0.04078608	-2.020699e-05	2.329706e-05
	-0.0001023119	-0.0003221039	0.01574121	0.00366825	-2.020699e-05	2.329706e-05	-0.1172764	-0.0384549
2.3e+08	-0.1210724	-0.03431133	-6.139617e-05	6.1964e-05	0.01595576	0.002019587	-0.0001453427	-0.0003362182
	-6.139617e-05	6.1964e-05	-0.1214067	-0.03164266	-2.037321e-06	1.740169e-06	0.0158702	0.002779689
	0.01595576	0.002019587	-2.037321e-06	1.740169e-06	-0.1212786	-0.03373472	-1.800581e-05	2.43423e-05
	-0.0001453427	-0.0003362182	0.0158702	0.002779689	-1.800581e-05	2.43423e-05	-0.1214163	-0.03123404
2.4e+08	-0.1244919	-0.0268315	-5.695869e-05	6.469083e-05	0.01591219	0.001082266	-0.0001914302	-0.0003441444
	-5.695869e-05	6.469083e-05	-0.1246716	-0.02403547	-1.956841e-06	1.784479e-06	0.01587244	0.001886591
	0.01591219	0.001082266	-1.956841e-06	1.784479e-06	-0.1246672	-0.02625862	-1.5743e-05	2.509633e-05
	-0.0001914302	-0.0003441444	0.01587244	0.001886591	-1.5743e-05	2.509633e-05	-0.1246672	-0.0236024
2.5e+08	-0.1270001	-0.01903363	-5.240453e-05	6.702586e-05	0.01573799	0.0001615934	-0.0002396221	-0.0003454261
	-5.240453e-05	6.702586e-05	-0.1270106	-0.01612695	-1.877763e-06	1.822749e-06	0.01574897	0.00100473
	0.01573799	0.0001615934	-1.877763e-06	1.822749e-06	-0.1271452	-0.01846565	-1.346681e-05	2.555735e-05
	-0.0002396221	-0.0003454261	0.01574897	0.00100473	-1.346681e-05	2.555735e-05	-0.12699	-0.01567084
2.6e+08	-0.1285692	-0.01102902	-4.778176e-05	6.896594e-05	0.0154367	-0.0007262384	-0.0002889024	-0.0003397631
	-4.778176e-05	6.896594e-05	-0.1283979	-0.0080308	-1.80166e-06	1.855452e-06	0.01550264	0.0001495243
	0.0154367	-0.0007262384	-1.80166e-06	1.855452e-06	-0.1286846	-0.01046716	-1.122439e-05	2.573188e-05
	-0.0002889024	-0.0003397631	0.01550264	0.0001495242	-1.122439e-05	2.573188e-05	-0.1283591	-0.007553413
2.7e+08	-0.1291846	-0.00293098	-4.313778e-05	7.051517e-05	0.01501375	-0.001565666	-0.0003382183	-0.0003270213
	-4.313778e-05	7.051517e-05	-0.1288214	0.0001375651	-1.729935e-06	1.883481e-06	0.01513808	-0.0006641459
	0.01501375	-0.001565666	-1.729935e-06	1.883481e-06	-0.1292708	-0.002376449	-9.060511e-06	2.563418e-05
	-0.0003382183	-0.0003270213	0.01513808	-0.0006641459	-9.060511e-06	2.563418e-05	-0.1287626	0.0006341762
2.8e+08	-0.128845	0.005146763	-3.851803e-05	7.168479e-05	0.01447634	-0.002341944	-0.0003865087	-0.0003072328
	-3.851803e-05	7.168479e-05	-0.1282824	0.008262598	-1.663736e-06	1.90811e-06	0.01466157	-0.001422105
	0.01447634	-0.002341944	-1.663736e-06	1.90811e-06	-0.1289026	0.005692696	-7.01635e-06	2.528578e-05
	-0.0003865087	-0.0003072328	0.01466157	-0.001422105	-7.01635e-06	2.528578e-05	-0.1282022	0.008776098
2.9e+08	-0.1275623	0.01309147	-3.396497e-05	7.24925e-05	0.01383334	-0.003041314	-0.0004327305	-0.0002805965
	-3.396497e-05	7.24925e-05	-0.1267959	0.0162301	-1.603864e-06	1.930916e-06	0.01408096	-0.002111043
	0.01383334	-0.003041314	-1.603864e-06	1.930916e-06	-0.1275918	0.01362748	-5.128486e-06	2.47146e-05
	-0.0004327305	-0.0002805965	0.01408096	-0.002111043	-5.128486e-06	2.47146e-05	-0.126693	0.01675792
3e+08	-0.1253614	0.02079284	-2.951722e-05	7.296185e-05	0.01309516	-0.003651173	-0.0004758869	-0.0002474745
	-2.951722e-05	7.296185e-05	-0.1243899	0.02392874	-1.550713e-06	1.953678e-06	0.0134056	-0.002718663
	0.01309516	-0.003651173	-1.550713e-06	1.953678e-06	-0.1253633	0.02131755	-3.428003e-06	2.395414e-05
	-0.0004758869	-0.0002474745	0.0134056	-0.002718663	-3.428003e-06	2.395414e-05	-0.1242636	0.0244681
3.1e+08	-0.1222797	0.02814447	-2.520864e-05	7.31216e-05	0.01227363	-0.004160222	-0.0005150516	-0.0002083765
	-2.520864e-05	7.31216e-05	-0.1211054	0.03125147	-1.504231e-06	1.978296e-06	0.01264618	-0.003233832
	0.01227363	-0.004160222	-1.504231e-06	1.978296e-06	-0.1222547	0.02865643	-1.939662e-06	2.304254e-05
	-0.0005150516	-0.0002083765	0.01264618	-0.003233832	-1.939662e-06	2.304254e-05	-0.1209551	0.03179943
3.2e+08	-0.1183667	0.03504516	-2.10676e-05	7.300481e-05	0.01138184	-0.004558616	-0.0005493923	-0.00016395
	-2.10676e-05	7.300481e-05	-0.1169953	0.03809693	-1.463901e-06	2.006659e-06	0.01181467	-0.003646711
	0.01138184	-0.004558616	-1.463901e-06	2.006659e-06	-0.1183153	0.03554285	-6.812766e-07	2.202148e-05
	-0.0005493923	-0.00016395	0.01181467	-0.003646711	-6.812766e-07	2.202148e-05	-0.116821	0.03865045
3.3e+08	-0.1136832	0.04140022	-1.711647e-05	7.264851e-05	0.01043405	-0.004838099	-0.000578201	-0.0001149831
	-1.711647e-05	7.264851e-05	-0.1121241	0.04437077	-1.428746e-06	2.040549e-06	0.01092412	-0.00394889
	0.01043405	-0.004838099	-1.428746e-06	2.040549e-06	-0.1136063	0.04188209	3.367489e-07	2.093533e-05
	-0.000578201	-0.0001149831	0.01092412	-0.00394889	3.367489e-07	2.093533e-05	-0.1119261	0.04492677
3.4e+08	-0.1083007	0.04712282	-1.33618e-05	7.199318e-05	0.009445456	-0.004992129	-0.00059697	-5.478601e-05
	-1.33618e-05	7.199318e-05	-0.1065669	0.04998689	-1.398385e-06	2.082854e-06	0.009988591	-0.004133516
	0.009445456	-0.004992129	-1.398385e-06	2.082854e-06	-0.1081991	0.04758721	1.117114e-06	1.973008e-05
	-0.00059697	-5.478601e-05	0.009988591	-0.004133516	1.117114e-06	1.973008e-05	-0.1063459	0.05054232
3.5e+08	-0.1023003	0.05213495	-9.837968e-06	7.116193e-05	0.008432027	-0.005016001	-0.0006075993	8.633103e-06
	-9.837968e-06	7.116193e-05	-0.1004082	0.05486865	-1.369843e-06	2.134018e-06	0.009022927	-0.00419541
	0.008432027	-0.005016001	-1.369843e-06	2.134018e-06	-0.102175	0.05258022	1.64268e-06	1.853515e-05
	-0.0006075993	8.633103e-06	0.009022927	-0.00419541	1.64268e-06	1.853515e-05	-0.1001656	0.05542051
3.6e+08	-0.09577167	0.05636865	-6.548987e-06	7.021304e-05	0.007410332	-0.004906947	-0.0006104006	7.301125e-05
	-6.548987e-06	7.021304e-05	-0.09374146	0.0589499	-1.340832e-06	2.194654e-06	0.008042627	-0.004131173
	0.007410332	-0.004906947	-1.340832e-06	2.194654e-06	-0.095624	0.05679313	1.925189e-06	1.741212e-05
	-0.0006104006	7.301125e-05	0.008042627	-0.004131173	1.925189e-06	1.741212e-05	-0.09347881	0.05949531
3.7e+08	-0.08881213	0.0597669	-3.488522e-06	6.918918e-05	0.006397303	-0.004664225	-0.0006053468	0.0001372358
	-3.488522e-06	6.918918e-05	-0.08666697	0.06217591	-1.309071e-06	2.26509e-06	0.007063632	-0.003939286
	0.006397303	-0.004664225	-1.309071e-06	2.26509e-06	-0.08864339	0.06016896	1.98677e-06	1.640508e-05
	-0.0006053468	0.0001372358	0.007063632	-0.003939286	1.98677e-06	1.640508e-05	-0.08638631	0.06271218
3.8e+08	-0.08152506	0.06228449	-6.426371e-07	6.813055e-05	0.005410009	-0.004289194	-0.0005925848	0.0002002071
	-6.426371e-07	6.813055e-05	-0.07929116	0.06450425	-1.272218e-06	2.345171e-06	0.006102117	-0.003620185
	0.005410009	-0.004289194	-1.272218e-06	2.345171e-06	-0.08133682	0.06266253	1.857493e-06	1.555373e-05
	-0.0005925848	0.0002002071	0.006102117	-0.003620185	1.857493e-06	1.555373e-05	-0.07899493	0.06502893
3.9e+08	-0.0740187	0.06388872	2.009811e-06	6.707349e-05	0.004465404	-0.003785352	-0.0005724305	0.0002608676
	2.009811e-06	6.707349e-05	-0.07172491	0.06590541	-1.227979e-06	2.434263e-06	0.005174255	-0.003176323
	0.004465404	-0.003785352	-1.227979e-06	2.434263e-06	-0.07381272	0.06424118	1.574667e-06	1.489194e-05
	-0.0005724305	0.0002608676	0.005174255	-0.003176323	1.574667e-06	1.489194e-05	-0.0714159	0.06641634
4e+08	-0.06640464	0.06455991	4.496433e-06	6.604912e-05	0.003580062	-0.003158363	-0.0005453614	0.0003182282
	4.496433e-06	6.604912e-05	-0.06408204	0.06636332	-1.17421e-06	2.531278e-06	0.004295975	-0.002612202
	0.003580061	-0.003158363	-1.17421e-06	2.531278e-06	-0.06618288	0.06488536	1.181833e-06	1.444641e-05
	-0.0005453614	0.0003182282	0.004295975	-0.002612202	1.181833e-06	1.444641e-05	-0.0637634	0.06685871
4.1e+08	-0.05879628	0.06429185	6.85038e-06	6.508207e-05	0.002769899	-0.002416033	-0.0005120012	0.0003713959
	6.85038e-06	6.508207e-05	-0.05647775	0.06587573	-1.109007e-06	2.634727e-06	0.003482698	-0.001934371
	0.002769899	-0.002416033	-1.109007e-06	2.634727e-06	-0.05856089	0.06458897	7.275055e-07	1.423539e-05
	-0.0005120012	0.0003713959	0.003482698	-0.001934371	7.275055e-07	1.423539e-05	-0.05615287	0.06635417
4.2e+08	-0.05130721	0.06309198	9.109096e-06	6.418935e-05	0.00204989	-0.001568263	-0.000473102	0.0004195962
	9.109096e-06	6.418935e-05	-0.04902691	0.06445432	-1.030774e-06	2.742782e-06	0.002749062	-0.001151398
	0.00204989	-0.001568263	-1.030774e-06	2.742782e-06	-0.05106054	0.06335963	2.636157e-07	1.426762e-05
	-0.000473102	0.0004195962	0.002749062	-0.001151398	2.636157e-07	1.426762e-05	-0.04869945	0.06491484
4.3e+08	-0.0440496	0.06098141	1.131276e-05	6.337947e-05	0.001433772	-0.000626957	-0.0004295226	0.0004621935
	1.131276e-05	6.337947e-05	-0.04184241	0.06212466	-9.382841e-07	2.853359e-06	0.002108646	-0.000273794
	0.001433772	-0.000626957	-9.382841e-07	2.853359e-06	-0.04379418	0.06121862	-1.563068e-07	1.454166e-05
	-0.0004295226	0.0004621935	0.002108646	-0.000273794	-1.563068e-07	1.454166e-05	-0.04151619	0.06256678
4.4e+08	-0.0371325	0.05799475	1.350254e-05	6.265181e-05	0.0009337667	0.0003941217	-0.0003822026	0.000498707
	1.350254e-05	6.265181e-05	-0.03503345	0.05892598	-8.307112e-07	2.964199e-06	0.001573691	0.0006860988
	0.0009337667	0.0003941217	-8.307112e-07	2.964199e-06	-0.03687102	0.05820079	-4.791324e-07	1.50454e-05
	-0.0003822026	0.000498707	0.001573692	0.0006860987	-4.791324e-07	1.50454e-05	-0.0347124	0.05934973
4.5e+08	-0.03066024	0.0541797	1.571874e-05	6.199646e-05	0.000560299	0.001479528	-0.0003321342	0.0005288221
	1.571874e-05	6.199646e-05	-0.02870385	0.05491069	-7.076388e-07	3.072958e-06	0.001154836	0.00171427
	0.000560299	0.001479528	-7.076388e-07	3.072958e-06	-0.03039552	0.05435408	-6.542589e-07	1.575612e-05
	-0.0003321342	0.0005288221	0.001154836	0.00171427	-6.542589e-07	1.575612e-05	-0.02839196	0.05531659
4.6e+08	-0.02473077	0.04959648	1.799885e-05	6.139431e-05	0.0003217487	0.002612365	-0.0002803318	0.000552397
	1.799885e-05	6.139431e-05	-0.02295045	0.05014366	-5.690412e-07	3.17729e-06	0.0008608586	0.002795241
	0.0003217487	0.002612365	-5.690412e-07	3.17729e-06	-0.02446574	0.049739	-6.357401e-07	1.664088e-05
	-0.0002803318	0.000552397	0.0008608586	0.002795241	-6.357401e-07	1.664088e-05	-0.02265168	0.05053281
4.7e+08	-0.01943414	0.04431699	2.037546e-05	6.081771e-05	0.0002242217	0.003774559	-0.0002278015	0.0005694625
	2.037546e-05	6.081771e-05	-0.01786155	0.04470138	-4.152775e-07	3.274913e-06	0.000698458	0.003912319
	0.0002242217	0.003774559	-4.152775e-07	3.274913e-06	-0.01917181	0.04442773	-3.844583e-07	1.76575e-05
	-0.0002278015	0.0005694625	0.000698458	0.003912319	-3.844583e-07	1.76575e-05	-0.01757977	0.0450754
