!$
! Info: Touchstone file created by Circ.  Input file=Tx_6in_Rx_85ohms_TxVia_35mils_RxVia_45mils.circ
!$
# Hz S RI R 50
0	0.004939753	9.041349e-26	0.9949194	-8.91609e-26	5.131483e-05	9.345482e-24	-4.939373e-05	2.060609e-21
	0.9949194	-9.114924e-26	0.004938653	1.045758e-25	-4.97653e-05	2.106156e-21	5.173636e-05	1.110675e-23
	4.947887e-05	9.597075e-24	-4.989304e-05	2.121857e-21	0.00495238	8.61964e-26	0.9949035	-8.423829e-26
	-4.977384e-05	2.107216e-21	4.988927e-05	1.11616e-23	0.9949035	-8.409767e-26	0.00495184	9.796722e-26
1e+07	0.006599409	-0.005327083	0.9905907	-0.06621156	0.0001729615	0.001230635	-8.070292e-05	-1.812538e-05
	0.9905907	-0.06621156	0.006592689	-0.005326999	-8.07103e-05	-1.811421e-05	0.000170688	0.001231186
	0.0001729019	0.001230639	-8.076838e-05	-1.81033e-05	0.006595329	-0.005316091	0.9905892	-0.06630524
	-8.0761e-05	-1.811447e-05	0.0001706281	0.001231196	0.9905892	-0.06630524	0.006587756	-0.005315843
2e+07	0.007279584	-0.01231258	0.9820113	-0.1301209	0.000436073	0.002402235	-7.831346e-05	-9.732591e-06
	0.9820113	-0.1301209	0.007253137	-0.01231004	-7.833446e-05	-9.728434e-06	0.0004272306	0.002404382
	0.0004360611	0.002402272	-7.834688e-05	-9.686579e-06	0.007282343	-0.01228511	0.981986	-0.1303124
	-7.832787e-05	-9.68977e-06	0.0004272228	0.002404416	0.981986	-0.1303124	0.007252616	-0.01228188
3e+07	0.006484242	-0.01998555	0.9698901	-0.1924367	0.0008400304	0.003518017	-5.146396e-05	-3.039603e-06
	0.9698901	-0.1924367	0.006425809	-0.01997532	-5.15258e-05	-3.011721e-06	0.0008207011	0.003523562
	0.000840033	0.003518023	-5.152391e-05	-3.005267e-06	0.006493513	-0.01994734	0.9698308	-0.1927185
	-5.146213e-05	-3.03276e-06	0.0008207012	0.003523567	0.9698308	-0.1927185	0.006427957	-0.01993515
4e+07	0.004456115	-0.02768153	0.9540782	-0.2534635	0.001378171	0.004562936	-4.811324e-06	-7.536684e-06
	0.9540782	-0.2534635	0.00435439	-0.02765648	-4.907318e-06	-7.471744e-06	0.001344827	0.004574375
	0.001378166	0.004562931	-4.913879e-06	-7.476172e-06	0.00447184	-0.02763475	0.9539739	-0.2538306
	-4.818202e-06	-7.541684e-06	0.001344822	0.004574373	0.9539739	-0.2538306	0.004357878	-0.02760562
5e+07	0.001315302	-0.03515055	0.9345862	-0.313085	0.002039568	0.005520675	5.719642e-05	-3.001669e-05
	0.9345862	-0.313085	0.001160301	-0.03510117	5.706232e-05	-2.990461e-05	0.001989196	0.005541162
	0.002039564	0.005520674	5.705705e-05	-2.990595e-05	0.001337316	-0.03509688	0.9344266	-0.3135314
	5.719079e-05	-3.001825e-05	0.001989193	0.005541161	0.9344266	-0.3135314	0.001163829	-0.03504013
6e+07	-0.002841597	-0.04221715	0.9114809	-0.3711218	0.002810797	0.006376393	0.0001289211	-7.56138e-05
	0.9114809	-0.3711218	-0.003057853	-0.04213211	0.0001287479	-7.543547e-05	0.002741003	0.006409617
	0.002810801	0.006376393	0.0001287526	-7.543575e-05	-0.002813659	-0.04215801	0.9112563	-0.371641
	0.0001289263	-7.561401e-05	0.002741006	0.006409616	0.9112563	-0.371641	-0.003055519	-0.04206094
7e+07	-0.007919796	-0.04874013	0.8848604	-0.4273762	0.003676566	0.007117177	0.0002039431	-0.000147838
	0.8848604	-0.4273762	-0.008203177	-0.04860676	0.0002037395	-0.0001475716	0.003585632	0.00716725
	0.003676578	0.007117174	0.0002037537	-0.0001475762	-0.007886489	-0.04867674	0.8845614	-0.4279611
	0.0002039588	-0.0001478428	0.00358564	0.007167246	0.8845614	-0.4279611	-0.008203201	-0.04852517
8e+07	-0.01381975	-0.05460098	0.8548458	-0.4816477	0.004620059	0.007732359	0.000275315	-0.0002487661
	0.8548458	-0.4816477	-0.01417398	-0.05440564	0.0002750983	-0.0002483924	0.004506987	0.007803713
	0.004620073	0.007732352	0.0002751157	-0.0002484024	-0.01378178	-0.05453438	0.854464	-0.4822902
	0.000275334	-0.0002487769	0.004506996	0.007803707	0.854464	-0.4822902	-0.01417745	-0.05431306
9e+07	-0.0204353	-0.05970014	0.8215775	-0.5337397	0.005623347	0.008213901	0.0003356418	-0.0003792242
	0.8215775	-0.5337397	-0.02086188	-0.05942839	0.0003354364	-0.000378729	0.005487906	0.008311187
	0.005623357	0.008213893	0.0003354486	-0.0003787394	-0.02039355	-0.05963119	0.8211047	-0.5344309
	0.0003356551	-0.0003792356	0.005487912	0.008311181	0.8211047	-0.5344309	-0.02086976	-0.05932398
1e+08	-0.02765489	-0.06395722	0.785213	-0.583462	0.006668728	0.008557972	0.0003762234	-0.0005402617
	0.785213	-0.583462	-0.0281529	-0.06359415	0.0003760588	-0.0005396368	0.006511499	0.008685948
	0.006668728	0.008557972	0.0003760588	-0.0005396367	-0.02761042	-0.06388677	0.7846422	-0.5841922
	0.0003762234	-0.0005402617	0.006511499	0.008685948	0.7846422	-0.5841922	-0.02816612	-0.063477
1.1e+08	-0.03536499	-0.06730453	0.7459324	-0.6306492	0.007741387	0.008753494	0.0003840714	-0.0007191264
	0.7459324	-0.6306492	-0.03592798	-0.06683471	0.0003839806	-0.000718354	0.007564036	0.00891664
	0.007741387	0.008753494	0.0003839806	-0.000718354	-0.03531732	-0.06723258	0.7452586	-0.6314092
	0.0003840714	-0.0007191264	0.007564036	0.008916641	0.7452586	-0.6314092	-0.03594641	-0.06670288
1.2e+08	-0.04343236	-0.06968272	0.7038988	-0.6751388	0.008812227	0.008801293	0.0003644965	-0.0009137616
	0.7038988	-0.6751388	-0.04405504	-0.06909307	0.0003645123	-0.0009128531	0.008616845	0.009004147
	0.008812227	0.008801293	0.0003645123	-0.0009128531	-0.04338324	-0.06960992	0.7031161	-0.6759184
	0.0003644965	-0.0009137616	0.008616845	0.009004147	0.7031161	-0.6759184	-0.044079	-0.0689452
1.3e+08	-0.05173043	-0.07106312	0.6593034	-0.7167775	0.009863207	0.008706142	0.0003108824	-0.001121266
	0.6593034	-0.7167775	-0.05240502	-0.07034051	0.000311035	-0.001120237	0.009652715	0.008952966
	0.009863207	0.008706142	0.000311035	-0.001120237	-0.05168154	-0.07098946	0.658407	-0.7175657
	0.0003108825	-0.001121266	0.009652715	0.008952966	0.658407	-0.7175657	-0.05243461	-0.07017506
1.4e+08	-0.06013128	-0.0714313	0.6123438	-0.7554288	0.01087609	0.008473511	0.0002187847	-0.001335719
	0.6123438	-0.7554288	-0.06084739	-0.07056332	0.0002191018	-0.00133459	0.01065419	0.008768159
	0.01087609	0.008473511	0.0002191018	-0.00133459	-0.06008397	-0.07135626	0.6113299	-0.7562141
	0.0002187847	-0.001335719	0.01065419	0.008768159	0.6113299	-0.7562141	-0.06088228	-0.07037855
1.5e+08	-0.06850814	-0.07078839	0.5632237	-0.7909714	0.01183358	0.008110948	8.522119e-05	-0.001550094
	0.5632237	-0.7909714	-0.06925291	-0.06976399	8.572782e-05	-0.00154889	0.01160466	0.008456736
	0.01183358	0.008110948	8.572783e-05	-0.00154889	-0.06846341	-0.07071117	0.5620897	-0.7917419
	8.522121e-05	-0.001550094	0.01160466	0.008456736	0.5620897	-0.7917419	-0.06929232	-0.06955815
1.6e+08	-0.07673709	-0.06915073	0.512151	-0.8232988	0.01271967	0.007628021	-9.129852e-05	-0.001756715
	0.512151	-0.8232988	-0.07749547	-0.06796074	-9.058099e-05	-0.001755466	0.01248875	0.008027616
	0.01271967	0.007628021	-9.058098e-05	-0.001755466	-0.07669557	-0.06907044	0.5108953	-0.8240423
	-9.129851e-05	-0.001756715	0.01248875	0.008027616	0.5108953	-0.8240423	-0.07753821	-0.06773221
1.7e+08	-0.08469864	-0.06654924	0.4593372	-0.8523191	0.01351992	0.007036121	-0.0003107333	-0.001947594
	0.4593372	-0.8523191	-0.08545378	-0.06518678	-0.0003097882	-0.001946335	0.01329254	0.007491446
	0.01351992	0.007036121	-0.0003097882	-0.001946335	-0.0846607	-0.06646497	0.4579593	-0.8530231
	-0.0003107333	-0.001947594	0.01329254	0.007491446	0.4579593	-0.8530231	-0.08549826	-0.06493414
1.8e+08	-0.0922792	-0.06302856	0.4049954	-0.8779545	0.01422166	0.006348221	-0.0005715067	-0.002114745
	0.4049954	-0.8779545	-0.09301288	-0.06148932	-0.0005703234	-0.002113515	0.01400375	0.006860368
	0.01422166	0.006348221	-0.0005703234	-0.002113515	-0.09224502	-0.06293944	0.4034959	-0.8786064
	-0.0005715067	-0.002114745	0.01400375	0.006860368	0.4034959	-0.8786064	-0.0930572	-0.06121145
1.9e+08	-0.09937253	-0.05864608	0.34934	-0.9001408	0.01481411	0.005578605	-0.0008705506	-0.002250476
	0.34934	-0.9001408	-0.1000655	-0.05692858	-0.0008691254	-0.002249318	0.01461188	0.006147775
	0.01481411	0.005578605	-0.0008691254	-0.002249318	-0.09934212	-0.05855131	0.3477206	-0.9007282
	-0.0008705506	-0.002250476	0.01461188	0.006147775	0.3477206	-0.9007282	-0.1001076	-0.05662468
2e+08	-0.105881	-0.0534709	0.2925852	-0.9188271	0.01528853	0.004742597	-0.001203394	-0.002347661
	0.2925852	-0.9188271	-0.1065136	-0.05157655	-0.001201732	-0.002346618	0.01510829	0.005368054
	0.01528853	0.004742597	-0.001201732	-0.002346618	-0.1058542	-0.05336975	0.2908486	-0.9193375
	-0.001203394	-0.002347661	0.01510829	0.005368054	0.2908486	-0.9193375	-0.1065511	-0.05124619
2.1e+08	-0.1117165	-0.04758257	0.2349448	-0.9339751	0.01563821	0.003856288	-0.001564298	-0.002399985
	0.2349448	-0.9339751	-0.1122691	-0.04551579	-0.001562411	-0.002399101	0.01548632	0.004536336
	0.01563821	0.003856288	-0.001562411	-0.002399101	-0.1116933	-0.04747436	0.2330949	-0.934396
	-0.001564298	-0.002399985	0.01548632	0.004536336	0.2330949	-0.934396	-0.1122997	-0.0451589
2.2e+08	-0.116802	-0.04106981	0.1766311	-0.945558	0.01585858	0.002936272	-0.001946424	-0.00240216
	0.1766311	-0.945558	-0.1172551	-0.03883801	-0.001944334	-0.002401477	0.01574121	0.00366825
	0.01585858	0.002936272	-0.001944334	-0.002401477	-0.116782	-0.04095392	0.1746728	-0.9458775
	-0.001946424	-0.00240216	0.01574121	0.00366825	0.1746728	-0.9458775	-0.1172764	-0.0384549
2.3e+08	-0.1210716	-0.03402914	0.1178548	-0.9535609	0.01594715	0.001999389	-0.002342042	-0.002350102
	0.1178548	-0.9535609	-0.1214067	-0.03164266	-0.00233978	-0.00234966	0.0158702	0.002779689
	0.01594715	0.001999389	-0.00233978	-0.00234966	-0.1210546	-0.033905	0.1157942	-0.953767
	-0.002342042	-0.002350102	0.0158702	0.002779689	0.1157942	-0.953767	-0.1214163	-0.03123404
2.4e+08	-0.1244719	-0.0265635	0.05882464	-0.9579792	0.01590351	0.00106249	-0.002742756	-0.002241068
	0.05882464	-0.9579792	-0.1246716	-0.02403547	-0.00274036	-0.0022409	0.01587244	0.001886591
	0.01590351	0.00106249	-0.00274036	-0.0022409	-0.1244574	-0.02643057	0.05666874	-0.9580604
	-0.002742756	-0.002241068	0.01587244	0.001886591	0.05666874	-0.9580604	-0.1246672	-0.0236024
2.5e+08	-0.1269618	-0.01878072	-0.0002530756	-0.9588187	0.01572926	0.0001421996	-0.003139751	-0.00207375
	-0.0002530756	-0.9588187	-0.1270106	-0.01612695	-0.003137266	-0.002073882	0.01574897	0.00100473
	0.01572926	0.0001421996	-0.003137266	-0.002073882	-0.1269496	-0.01863849	-0.002496222	-0.9587642
	-0.003139751	-0.00207375	0.01574897	0.00100473	-0.002496222	-0.9587642	-0.12699	-0.01567084
2.6e+08	-0.1285138	-0.01079209	-0.0591744	-0.956095	0.01542797	-0.0007452858	-0.003524051	-0.001848326
	-0.0591744	-0.956095	-0.1283979	-0.0080308	-0.003521527	-0.001848775	0.01550264	0.0001495243
	0.01542797	-0.0007452858	-0.003521527	-0.001848775	-0.1285033	-0.01064011	-0.06149576	-0.9558943
	-0.003524051	-0.001848326	0.01550264	0.0001495242	-0.06149576	-0.9558943	-0.1283591	-0.007553413
2.7e+08	-0.1291131	-0.002710849	-0.1177379	-0.949833	0.01500506	-0.001584403	-0.003886779	-0.001566458
	-0.1177379	-0.949833	-0.1288214	0.0001375651	-0.00388427	-0.001567233	0.01513808	-0.0006641459
	0.01500506	-0.001584403	-0.00388427	-0.001567233	-0.1291038	-0.002548704	-0.1201275	-0.9494764
	-0.003886779	-0.001566458	0.01513808	-0.0006641459	-0.1201275	-0.9494764	-0.1287626	0.0006341762
2.8e+08	-0.1287586	0.005349305	-0.1757448	-0.940067	0.01446772	-0.002360406	-0.004219406	-0.001231258
	-0.1757448	-0.940067	-0.1282824	0.008262598	-0.004216969	-0.001232355	0.01466157	-0.001422105
	0.01446772	-0.002360406	-0.004216969	-0.001232355	-0.1287498	0.005521959	-0.1781917	-0.9395454
	-0.004219406	-0.001231258	0.01466157	-0.001422105	-0.1781917	-0.9395454	-0.1282022	0.008776098
2.9e+08	-0.1274622	0.01327568	-0.2329986	-0.9268399	0.01382483	-0.003059536	-0.004514001	-0.000847201
	-0.2329986	-0.9268399	-0.1267959	0.0162301	-0.00451169	-0.0008486073	0.01408096	-0.002111043
	0.01382483	-0.003059536	-0.00451169	-0.0008486073	-0.1274534	0.01345912	-0.2354912	-0.9261449
	-0.004514001	-0.000847201	0.01408096	-0.002111043	-0.2354912	-0.9261449	-0.126693	0.01675792
3e+08	-0.1252488	0.02095803	-0.2893058	-0.9102035	0.01308679	-0.003669192	-0.004763447	-0.0004200026
	-0.2893058	-0.9102035	-0.1243899	0.02392874	-0.004761315	-0.0004216932	0.0134056	-0.002718663
	0.01308679	-0.003669192	-0.004761315	-0.0004216932	-0.1252392	0.02115247	-0.2918315	-0.9093279
	-0.004763447	-0.0004200026	0.0134056	-0.002718663	-0.2918315	-0.9093279	-0.1242636	0.0244681
3.1e+08	-0.1221559	0.02829002	-0.3444749	-0.8902187	0.01226542	-0.004178077	-0.004961646	4.353971e-05
	-0.3444749	-0.8902187	-0.1211054	0.03125147	-0.00495974	4.159974e-05	0.01264618	-0.003233832
	0.01226542	-0.004178077	-0.00495974	4.159974e-05	-0.1221447	0.02849556	-0.3470206	-0.8891558
	-0.004961646	4.353971e-05	0.01264618	-0.003233832	-0.3470206	-0.8891558	-0.1209551	0.03179943
3.2e+08	-0.1182329	0.0351705	-0.3983175	-0.866955	0.01137384	-0.004576346	-0.005103681	0.000535737
	-0.3983175	-0.866955	-0.1169953	0.03809693	-0.005102041	0.0005335915	0.01181467	-0.003646711
	0.01137384	-0.004576346	-0.005102041	0.0005335915	-0.1182195	0.03538715	-0.4008693	-0.8656992
	-0.005103681	0.000535737	0.01181467	-0.003646711	-0.4008693	-0.8656992	-0.116821	0.03865045
3.3e+08	-0.1135409	0.04150488	-0.4506477	-0.840491	0.01042629	-0.004855746	-0.005185954	0.001048225
	-0.4506477	-0.840491	-0.1121241	0.04437077	-0.005184611	0.001045926	0.01092412	-0.00394889
	0.01042629	-0.004855746	-0.005184611	0.001045926	-0.1135244	0.04173256	-0.4531911	-0.8390378
	-0.005185954	0.001048225	0.01092412	-0.00394889	-0.4531911	-0.8390378	-0.1119261	0.04492677
3.4e+08	-0.1081512	0.04720635	-0.5012826	-0.8109145	0.009437952	-0.005009739	-0.005206279	0.001572202
	-0.5012826	-0.8109145	-0.1065669	0.04998689	-0.005205253	0.001569807	0.009988591	-0.004133516
	0.009437952	-0.005009739	-0.005205253	0.001569807	-0.1081309	0.04744489	-0.5038026	-0.8092605
	-0.005206279	0.001572202	0.009988591	-0.004133516	-0.5038026	-0.8092605	-0.1063459	0.05054232
3.5e+08	-0.1021451	0.05219703	-0.5500424	-0.7783231	0.008424811	-0.00503362	-0.005163932	0.002098676
	-0.5500424	-0.7783231	-0.1004082	0.05486865	-0.005163232	0.002096246	0.009022927	-0.00419541
	0.008424811	-0.00503362	-0.005163232	0.002096246	-0.1021201	0.05244614	-0.5525236	-0.7764658
	-0.005163932	0.002098676	0.009022927	-0.00419541	-0.5525236	-0.7764658	-0.1001656	0.05542051
3.6e+08	-0.09561229	0.05640906	-0.5967509	-0.7428237	0.007403425	-0.004924625	-0.005059663	0.002618722
	-0.5967509	-0.7428237	-0.09374146	0.0589499	-0.005059285	0.002616319	0.008042627	-0.004131173
	0.007403425	-0.004924625	-0.005059285	0.002616319	-0.09558193	0.05666834	-0.5991776	-0.7407621
	-0.005059663	0.002618722	0.008042627	-0.004131173	-0.5991776	-0.7407621	-0.09347881	0.05949531
3.7e+08	-0.08865008	0.05978553	-0.6412358	-0.7045338	0.006390723	-0.004682017	-0.004895654	0.003123736
	-0.6412358	-0.7045338	-0.08666697	0.06217591	-0.004895581	0.003121422	0.007063632	-0.003939286
	0.006390723	-0.004682017	-0.004895581	0.003121422	-0.08861365	0.06005447	-0.6435919	-0.7022677
	-0.004895654	0.003123736	0.007063632	-0.003939286	-0.6435919	-0.7022677	-0.08638631	0.06271218
3.8e+08	-0.08136191	0.06228135	-0.6833295	-0.663581	0.005403769	-0.004307155	-0.004675444	0.003605682
	-0.6833295	-0.663581	-0.07929116	0.06450425	-0.004675646	0.003603513	0.006102117	-0.003620185
	0.005403769	-0.004307155	-0.004675646	0.003603513	-0.08131876	0.06255934	-0.6855988	-0.6611115
	-0.004675444	0.003605682	0.006102117	-0.003620185	-0.6855988	-0.6611115	-0.07899493	0.06502893
3.9e+08	-0.07385604	0.06386394	-0.7228696	-0.6201033	0.00445951	-0.003803541	-0.004403795	0.004057316
	-0.7228696	-0.6201033	-0.07172491	0.06590541	-0.004404231	0.004055344	0.005174255	-0.003176323
	0.00445951	-0.003803541	-0.004404231	0.004055344	-0.07380558	0.06415027	-0.7250358	-0.6174329
	-0.004403795	0.004057316	0.005174255	-0.003176323	-0.7250358	-0.6174329	-0.0714159	0.06641634
4e+08	-0.06624405	0.06451377	-0.7596997	-0.5742498	0.003574515	-0.003176839	-0.004086538	0.004472395
	-0.7596997	-0.5742498	-0.06408204	0.06636332	-0.004087157	0.004470661	0.004295975	-0.002612202
	0.003574515	-0.003176839	-0.004087157	0.004470661	-0.06618581	0.06480765	-0.7617465	-0.5713821
	-0.004086538	0.004472395	0.004295975	-0.002612202	-0.7617465	-0.5713821	-0.0637634	0.06685871
4.1e+08	-0.05863933	0.06422477	-0.7936707	-0.5261804	0.002764692	-0.002434857	-0.003730364	0.004845845
	-0.7936707	-0.5261804	-0.05647775	0.06587573	-0.003731104	0.004844378	0.003482698	-0.001934371
	0.002764692	-0.002434857	-0.003731104	0.004844378	-0.05857291	0.06452532	-0.7955818	-0.5231202
	-0.003730364	0.004845845	0.003482698	-0.001934371	-0.7955818	-0.5231202	-0.05615287	0.06635417
4.2e+08	-0.05115547	0.06300453	-0.8246409	-0.4760656	0.002045009	-0.001587495	-0.003342597	0.005173892
	-0.8246409	-0.4760656	-0.04902691	0.06445432	-0.003343393	0.00517271	0.002749062	-0.001151398
	0.002045009	-0.001587495	-0.003343393	0.00517271	-0.0510806	0.06331081	-0.8264002	-0.4728192
	-0.003342597	0.005173892	0.002749062	-0.001151398	-0.8264002	-0.4728192	-0.04869945	0.06491484
4.3e+08	-0.04390458	0.0608743	-0.8524781	-0.424087	0.001429194	-0.0006466538	-0.002930943	0.005454154
	-0.8524781	-0.424087	-0.04184241	0.06212466	-0.002931724	0.00545326	0.002108646	-0.000273794
	0.001429194	-0.0006466538	-0.002931724	0.00545326	-0.0438211	0.06118532	-0.8540698	-0.4206616
	-0.002930943	0.005454154	0.002108646	-0.000273794	-0.8540698	-0.4206616	-0.04151619	0.06256678
4.4e+08	-0.03699566	0.05786885	-0.87706	-0.3704363	0.0009294611	0.0003739039	-0.002503221	0.005685679
	-0.87706	-0.3704363	-0.03503345	0.05892598	-0.002503916	0.005685061	0.001573691	0.0006860988
	0.0009294611	0.0003739039	-0.002503916	0.005685061	-0.03690356	0.05818358	-0.8784685	-0.3668407
	-0.002503221	0.005685679	0.001573692	0.0006860987	-0.8784685	-0.3668407	-0.0347124	0.05934973
4.5e+08	-0.03053296	0.05403602	-0.8982755	-0.3153154	0.0005562277	0.001458738	-0.002067092	0.005868933
	-0.8982755	-0.3153154	-0.02870385	0.05491069	-0.002067633	0.005868562	0.001154836	0.00171427
	0.0005562277	0.001458738	-0.002067633	0.005868562	-0.03043236	0.05435342	-0.8994859	-0.3115593
	-0.002067092	0.005868933	0.001154836	0.00171427	-0.8994859	-0.3115593	-0.02839196	0.05531659
4.6e+08	-0.02461434	0.04943617	-0.9160261	-0.2589355	0.000317866	0.002590958	-0.001629796	0.006005738
	-0.9160261	-0.2589355	-0.02295045	0.05014366	-0.001630121	0.006005571	0.0008608586	0.002795241
	0.000317866	0.002590958	-0.001630121	0.006005571	-0.0245055	0.04975519	-0.9170238	-0.25503
	-0.001629796	0.006005738	0.0008608586	0.002795241	-0.9170238	-0.25503	-0.02265168	0.05053281
4.7e+08	-0.01932973	0.04414135	-0.9302267	-0.2015163	0.0002204752	0.003752497	-0.001197898	0.006099154
	-0.9302267	-0.2015163	-0.01786155	0.04470138	-0.001197952	0.006099136	0.000698458	0.003912319
	0.0002204752	0.003752497	-0.001197952	0.006099136	-0.01921307	0.04446097	-0.9309977	-0.1974737
	-0.001197898	0.006099154	0.000698458	0.003912319	-0.9309977	-0.1974737	-0.01757977	0.0450754
4.8e+08	-0.01475972	0.03823427	-0.9408068	-0.1432854	0.0002676948	0.004924423	-0.0007770638	0.006153321
	-0.9408068	-0.1432854	-0.01351545	0.03867084	-0.0007768073	0.006153383	0.000672057	0.005047878
	0.0002676948	0.004924423	-0.0007768073	0.006153383	-0.01463579	0.0385535	-0.9413379	-0.139119
	-0.0007770638	0.006153321	0.000672057	0.005047878	-0.9413379	-0.139119	-0.01325437	0.03903187
4.9e+08	-0.01097418	0.0318071	-0.9477114	-0.08447663	0.0004605627	0.006087291	-0.0003718746	0.006173252
	-0.9477114	-0.08447663	-0.009979182	0.0321482	-0.0003712796	0.006173314	0.0007836555	0.006183685
	0.0004605627	0.006087291	-0.0003712796	0.006173314	-0.01084371	0.03212503	-0.9479902	-0.08020112
	-0.0003718746	0.006173252	0.0007836555	0.006183685	-0.9479902	-0.08020112	-0.009742275	0.03249893
5e+08	-0.008031158	0.0249601	-0.9509018	-0.0253294	0.000797426	0.007221513	1.432347e-05	0.006164593
	-0.9509018	-0.0253294	-0.007307375	0.02523736	1.526769e-05	0.006164571	0.001032731	0.007301253
	0.000797426	0.007221513	1.526769e-05	0.006164571	-0.007894995	0.02527588	-0.9509169	-0.02096026
	1.432347e-05	0.006164593	0.001032731	0.007301253	-0.9509169	-0.02096026	-0.007097798	0.02558094
