!$
! Info: Touchstone file created by Circ.  Input file=Tx_6in_Rx_93ohms_TxVia_35mils_RxVia_45mils.circ
!$
# Hz S RI R 50
0	0.005610469	8.668668e-26	-3.258901e-05	3.828173e-24	5.17218e-05	1.042559e-23	-3.256971e-05	1.483878e-24
	-3.258903e-05	3.829855e-24	0.005608807	1.042212e-25	-3.260082e-05	5.3671e-24	5.158082e-05	1.263117e-23
	5.153567e-05	1.038182e-23	-3.260081e-05	5.365675e-24	0.005621296	8.668705e-26	-3.258684e-05	3.676699e-24
	-3.256972e-05	1.485198e-24	4.97336e-05	1.269351e-23	-3.258684e-05	3.677762e-24	0.005621983	9.763592e-26
1e+07	0.008050966	-0.0001378223	-0.0001515323	-1.432203e-06	0.0001709069	0.001243509	-3.000815e-05	-5.392519e-06
	-0.0001515323	-1.432204e-06	0.008212936	-0.0001458813	-8.125699e-05	3.629036e-05	0.0001684331	0.001239258
	0.0001709016	0.00124351	-8.125698e-05	3.629036e-05	0.008233058	-0.0001453203	-0.0001514375	-4.45947e-08
	-3.000814e-05	-5.39252e-06	0.0001683731	0.001239268	-0.0001514375	-4.459591e-08	0.008060146	-0.0001492196
2e+07	0.009665457	-0.002203769	-0.0001257539	-3.305709e-05	0.0003670134	0.002488185	-1.310561e-05	-3.409984e-05
	-0.0001257539	-3.305709e-05	0.00977182	-0.002277311	-8.116032e-05	2.000822e-05	0.0003601314	0.002481339
	0.0003670148	0.00248819	-8.116032e-05	2.000822e-05	0.009808585	-0.002279151	-0.0001248514	-3.562428e-05
	-1.310561e-05	-3.409984e-05	0.0003601231	0.002481374	-0.0001248514	-3.562428e-05	0.009654714	-0.002225065
3e+07	0.01046133	-0.005040497	-0.0001084276	-4.877647e-05	0.000763897	0.003639976	-1.579994e-05	-4.169612e-05
	-0.0001084276	-4.877647e-05	0.01050979	-0.005132889	-7.957568e-05	1.827181e-05	0.0007392861	0.003635181
	0.0007638995	0.003639975	-7.957568e-05	1.82718e-05	0.01057314	-0.005141712	-0.0001068271	-5.190094e-05
	-1.579994e-05	-4.169612e-05	0.0007392861	0.003635186	-0.0001068271	-5.190094e-05	0.0104191	-0.005066268
4e+07	0.0106411	-0.008135074	-9.508875e-05	-5.682551e-05	0.001321963	0.004709478	-3.233482e-05	-4.076138e-05
	-9.508875e-05	-5.682551e-05	0.01062636	-0.008229402	-7.700469e-05	1.811677e-05	0.001281565	0.004709099
	0.001321963	0.004709476	-7.700469e-05	1.811677e-05	0.01072539	-0.008251401	-9.29412e-05	-6.035903e-05
	-3.233482e-05	-4.076138e-05	0.00128156	0.004709097	-9.29412e-05	-6.035903e-05	0.01055636	-0.008159121
5e+07	0.01028236	-0.01132055	-8.417465e-05	-6.139066e-05	0.001999748	0.005689898	-4.640194e-05	-3.598007e-05
	-8.417465e-05	-6.139066e-05	0.01019913	-0.01140264	-7.36383e-05	1.778401e-05	0.001940862	0.005697372
	0.001999748	0.005689897	-7.36383e-05	1.778401e-05	0.0103417	-0.01144605	-8.157179e-05	-6.52636e-05
	-4.640194e-05	-3.598007e-05	0.001940859	0.005697371	-8.157179e-05	-6.52636e-05	0.01014491	-0.0113345
6e+07	0.009432367	-0.0144921	-7.477265e-05	-6.385063e-05	0.002785685	0.006568687	-5.823718e-05	-2.837053e-05
	-7.477265e-05	-6.385063e-05	0.009276615	-0.0145481	-6.973377e-05	1.65172e-05	0.002706163	0.006587876
	0.002785686	0.006568688	-6.973377e-05	1.65172e-05	0.009468771	-0.01462263	-7.177346e-05	-6.802197e-05
	-5.823718e-05	-2.837053e-05	0.002706166	0.006587875	-7.177346e-05	-6.802197e-05	0.009233619	-0.0144858
7e+07	0.008129676	-0.01757002	-6.623001e-05	-6.476061e-05	0.003666207	0.007333953	-6.787751e-05	-1.844968e-05
	-6.623001e-05	-6.476061e-05	0.007898988	-0.01758601	-6.563819e-05	1.383352e-05	0.00356453	0.007369085
	0.003666209	0.007333953	-6.563819e-05	1.383352e-05	0.008144896	-0.01770231	-6.2871e-05	-6.919981e-05
	-6.787751e-05	-1.844969e-05	0.003564538	0.007369081	-6.2871e-05	-6.919981e-05	0.007862781	-0.01753202
8e+07	0.006411587	-0.02048816	-5.796475e-05	-6.429027e-05	0.004626079	0.007975163	-7.520953e-05	-6.463159e-06
	-5.796475e-05	-6.429027e-05	0.006105307	-0.02044991	-6.180748e-05	9.343762e-06	0.004501422	0.008030762
	0.004626081	0.007975163	-6.180748e-05	9.343761e-06	0.006407331	-0.02061933	-5.426164e-05	-6.89659e-05
	-7.520954e-05	-6.463161e-06	0.004501432	0.008030756	-5.426164e-05	-6.89659e-05	0.00607144	-0.0204059
9e+07	0.004317752	-0.02318871	-4.926171e-05	-6.222911e-05	0.005648648	0.008483528	-7.98634e-05	7.667476e-06
	-4.926171e-05	-6.222911e-05	0.00393731	-0.02308145	-5.886018e-05	2.62211e-06	0.005500953	0.008564355
	0.00564865	0.008483528	-5.886018e-05	2.62211e-06	0.004295952	-0.02331584	-4.985075e-05	-6.429453e-05
	-7.98634e-05	7.667476e-06	0.00550096	0.008564349	-4.985075e-05	-6.429453e-05	0.003901153	-0.02304863
1e+08	0.001898183	-0.02561167	-5.240169e-05	-4.647333e-05	0.006716002	0.00885187	-7.996388e-05	2.574013e-05
	-5.240169e-05	-4.647333e-05	0.001448673	-0.02541844	-5.823628e-05	-7.877799e-06	0.006546174	0.008963023
	0.006716002	0.00885187	-5.823628e-05	-7.877799e-06	0.001862468	-0.02572993	-5.832188e-05	-4.416978e-05
	-7.996388e-05	2.574013e-05	0.006546174	0.008963023	-5.832188e-05	-4.416978e-05	0.001404163	-0.02539933
1.1e+08	-0.0007708677	-0.0277854	-4.952204e-05	-3.390172e-05	0.00780709	0.009078383	-7.060429e-05	3.758819e-05
	-4.952204e-05	-3.390172e-05	-0.001275472	-0.02749961	-5.299022e-05	-2.361525e-05	0.007617735	0.009223523
	0.00780709	0.009078383	-5.299022e-05	-2.361525e-05	-0.0008104247	-0.02790098	-5.479252e-05	-3.087833e-05
	-7.060429e-05	3.758819e-05	0.007617735	0.009223523	-5.479252e-05	-3.087833e-05	-0.001337992	-0.02748613
1.2e+08	-0.003719756	-0.02964992	-4.844635e-05	-2.545931e-05	0.008906825	0.009161351	-6.299107e-05	4.528535e-05
	-4.844635e-05	-2.545931e-05	-0.004277141	-0.02926427	-4.790364e-05	-3.817912e-05	0.008699548	0.009344434
	0.008906825	0.009161351	-4.790364e-05	-3.817912e-05	-0.003767027	-0.02976685	-5.319251e-05	-2.198389e-05
	-6.299107e-05	4.528535e-05	0.008699548	0.009344434	-5.319251e-05	-2.198389e-05	-0.004357239	-0.02925081
1.3e+08	-0.006891089	-0.03116094	-4.759003e-05	-1.834254e-05	0.009996238	0.009100596	-5.582592e-05	5.122512e-05
	-4.759003e-05	-1.834254e-05	-0.00749556	-0.03066566	-4.437432e-05	-5.324494e-05	0.009773601	0.009325662
	0.009996238	0.009100596	-4.437432e-05	-5.324494e-05	-0.006948419	-0.03127998	-5.185638e-05	-1.453037e-05
	-5.582592e-05	5.122512e-05	0.009773601	0.009325662	-5.185638e-05	-1.453037e-05	-0.007593753	-0.03064857
1.4e+08	-0.01023287	-0.03229288	-4.663736e-05	-1.1975e-05	0.0110567	0.00889891	-4.99908e-05	5.494874e-05
	-4.663736e-05	-1.1975e-05	-0.01087647	-0.03167828	-4.290264e-05	-6.899776e-05	0.01082205	0.009169715
	0.0110567	0.00889891	-4.290264e-05	-6.899776e-05	-0.01030214	-0.03241381	-5.045492e-05	-7.903347e-06
	-4.99908e-05	5.494874e-05	0.01082205	0.009169715	-5.045492e-05	-7.903347e-06	-0.01099304	-0.03165415
1.5e+08	-0.01369318	-0.03302862	-4.544633e-05	-6.097686e-06	0.01207019	0.00856155	-4.825547e-05	5.477204e-05
	-4.544633e-05	-6.097686e-06	-0.01436598	-0.03228576	-4.384488e-05	-8.533115e-05	0.01182758	0.008881408
	0.01207019	0.00856155	-4.384488e-05	-8.533115e-05	-0.01377596	-0.03315064	-4.884031e-05	-1.823425e-06
	-4.825547e-05	5.477204e-05	0.01182758	0.008881408	-4.884031e-05	-1.823425e-06	-0.01450076	-0.03225129
1.6e+08	-0.01722016	-0.03335817	-4.393228e-05	-6.579998e-07	0.01301956	0.008096077	-4.637078e-05	5.490328e-05
	-4.393228e-05	-6.579998e-07	-0.0179104	-0.03247936	-4.747134e-05	-0.0001019939	0.01277367	0.008467738
	0.01301956	0.008096077	-4.747134e-05	-0.0001019939	-0.01731769	-0.03348012	-4.692547e-05	3.773858e-06
	-4.637078e-05	5.490328e-05	0.01277367	0.008467738	-4.692547e-05	3.773858e-06	-0.01806281	-0.03243142
1.7e+08	-0.02076233	-0.03327818	-4.206016e-05	4.377361e-06	0.01388887	0.007512195	-4.436222e-05	5.524125e-05
	-4.206016e-05	4.377361e-06	-0.02145676	-0.03225735	-5.397527e-05	-0.0001186439	0.01364491	0.007937737
	0.01388887	0.007512195	-5.397527e-05	-0.0001186439	-0.0208756	-0.03339867	-4.467322e-05	8.931309e-06
	-4.436222e-05	5.524125e-05	0.01364491	0.007937737	-4.467322e-05	8.931309e-06	-0.02162574	-0.03219299
1.8e+08	-0.02426913	-0.0327916	-3.982094e-05	9.007753e-06	0.0146636	0.006821556	-4.224491e-05	5.571571e-05
	-3.982094e-05	9.007753e-06	-0.02495323	-0.03162455	-6.34721e-05	-0.0001348792	0.01442722	0.007302301
	0.0146636	0.006821556	-6.34721e-05	-0.0001348792	-0.02439888	-0.03290904	-4.20725e-05	1.365562e-05
	-4.224491e-05	5.571571e-05	0.01442722	0.007302301	-4.20725e-05	1.365562e-05	-0.02513735	-0.03154108
1.9e+08	-0.02769145	-0.03190737	-3.722574e-05	1.321468e-05	0.0153309	0.00603755	-4.002978e-05	5.627445e-05
	-3.722574e-05	1.321468e-05	-0.02834978	-0.03059201	-7.599729e-05	-0.0001502598	0.01510806	0.006573994
	0.0153309	0.00603755	-7.599729e-05	-0.0001502598	-0.02783818	-0.03202005	-3.913224e-05	1.793411e-05
	-4.002978e-05	5.627445e-05	0.01510806	0.006573994	-3.913224e-05	1.793411e-05	-0.02854724	-0.03048702
2e+08	-0.03098216	-0.03064013	-3.430226e-05	1.697156e-05	0.0158798	0.005175067	-3.772551e-05	5.687717e-05
	-3.430226e-05	1.697156e-05	-0.03159869	-0.02917662	-9.150437e-05	-0.0001643274	0.01567664	0.005766826
	0.0158798	0.005175067	-9.150437e-05	-0.0001643274	-0.03114616	-0.03074624	-3.587776e-05	2.174469e-05
	-3.772551e-05	5.687717e-05	0.01567664	0.005766826	-3.587776e-05	2.174469e-05	-0.03180742	-0.02904804
2.1e+08	-0.03409672	-0.02900991	-3.109188e-05	2.025024e-05	0.01630136	0.004250236	-3.534003e-05	5.749177e-05
	-3.109188e-05	2.025024e-05	-0.03465515	-0.02740078	-0.0001098655	-0.0001766216	0.01612407	0.004896013
	0.01630136	0.004250236	-0.0001098655	-0.0001766216	-0.03427804	-0.02910758	-3.234783e-05	2.506271e-05
	-3.534003e-05	5.749177e-05	0.01612407	0.004896013	-3.234783e-05	2.506271e-05	-0.03487282	-0.02724685
2.2e+08	-0.03699363	-0.02704171	-2.764721e-05	2.302562e-05	0.01658878	0.003280154	-3.288084e-05	5.809222e-05
	-2.764721e-05	2.302562e-05	-0.03747779	-0.02529189	-0.0001308732	-0.0001866963	0.01644349	0.003977725
	0.01658878	0.003280154	-0.0001308732	-0.0001866963	-0.03719212	-0.027129	-2.859235e-05	2.786549e-05
	-3.288084e-05	5.809222e-05	0.01644349	0.003977725	-2.859235e-05	2.786549e-05	-0.03770189	-0.02511123
2.3e+08	-0.03963499	-0.02476511	-2.402974e-05	2.527889e-05	0.01673753	0.002282598	-3.035535e-05	5.865708e-05
	-2.402974e-05	2.527889e-05	-0.04002914	-0.02288193	-0.0001542442	-0.0001941358	0.01663014	0.003028816
	0.01673753	0.002282598	-0.0001542442	-0.0001941358	-0.03985025	-0.02484005	-2.467006e-05	3.013574e-05
	-3.035535e-05	5.865708e-05	0.01663014	0.003028816	-2.467006e-05	3.013574e-05	-0.04025701	-0.02267352
2.4e+08	-0.04198692	-0.02221376	-2.030682e-05	2.700001e-05	0.01674541	0.001275735	-2.777152e-05	5.916856e-05
	-2.030682e-05	2.700001e-05	-0.04227613	-0.02020692	-0.000179627	-0.0001985639	0.01668148	0.002066555
	0.01674541	0.001275735	-0.000179627	-0.0001985639	-0.04221832	-0.02227439	-2.064568e-05	3.186402e-05
	-2.777152e-05	5.916856e-05	0.01668148	0.002066555	-2.064568e-05	3.186402e-05	-0.04250502	-0.01997011
2.5e+08	-0.04401994	-0.0194249	-1.654971e-05	2.818922e-05	0.01661253	0.0002778261	-2.513735e-05	5.961186e-05
	-1.654971e-05	2.818922e-05	-0.04419046	-0.01730636	-0.0002066081	-0.000199673	0.01659712	0.001108347
	0.01661253	0.0002778261	-0.0002066081	-0.000199673	-0.04426661	-0.01946929	-1.658803e-05	3.30504e-05
	-2.513735e-05	5.961186e-05	0.01659712	0.001108347	-1.658803e-05	3.30504e-05	-0.04441755	-0.01704087
2.6e+08	-0.04570937	-0.01643883	-1.277453e-05	2.878164e-05	0.01634133	-0.0006930681	-2.24625e-05	5.997482e-05
	-1.277453e-05	2.878164e-05	-0.04574894	-0.01422261	-0.0002348059	-0.0001890377	0.01637891	0.0001714616
	0.01634133	-0.0006930681	-0.0002348059	-0.0001890377	-0.04597021	-0.01646505	-1.251019e-05	3.363167e-05
	-2.24625e-05	5.997482e-05	0.01637891	0.0001714616	-1.251019e-05	3.363167e-05	-0.04597138	-0.01392856
2.7e+08	-0.04703555	-0.01329824	-9.11298e-06	2.885245e-05	0.01593652	-0.001619374	-1.975451e-05	6.02477e-05
	-9.11298e-06	2.885245e-05	-0.04693368	-0.01100032	-0.000262571	-0.0001734054	0.01603082	-0.0007272383
	0.01593652	-0.001619374	-0.000262571	-0.0001734054	-0.04730921	-0.01330449	-8.542341e-06	3.367909e-05
	-1.975451e-05	6.02477e-05	0.01603082	-0.0007272383	-8.542341e-06	3.367909e-05	-0.04714869	-0.01067817
2.8e+08	-0.04798411	-0.01004768	-5.64386e-06	2.844985e-05	0.01540501	-0.002484281	-1.702187e-05	6.042255e-05
	-5.64386e-06	2.844985e-05	-0.04773237	-0.007685689	-0.0002893013	-0.0001541439	0.0155589	-0.001571557
	0.01540501	-0.002484281	-0.0002893013	-0.0001541439	-0.04826897	-0.01003225	-4.762387e-06	3.32382e-05
	-1.702187e-05	6.042255e-05	0.0155589	-0.001571557	-4.762387e-06	3.32382e-05	-0.04793725	-0.007336297
2.9e+08	-0.04854607	-0.00673292	-2.429e-06	2.762075e-05	0.01475573	-0.003272007	-1.427329e-05	6.049308e-05
	-2.429e-06	2.762075e-05	-0.04813836	-0.004325891	-0.0003144867	-0.0001313236	0.01497119	-0.002346213
	0.01475573	-0.003272007	-0.0003144867	-0.0001313236	-0.04884029	-0.006694255	-1.231851e-06	3.235332e-05
	-1.427329e-05	6.049308e-05	0.01497119	-0.002346213	-1.231851e-06	3.235332e-05	-0.04833053	-0.003950443
3e+08	-0.04871794	-0.003400271	4.781714e-07	2.642133e-05	0.01399958	-0.003968045	-1.151735e-05	6.045447e-05
	4.781713e-07	2.642133e-05	-0.0481507	-0.0009683372	-0.0003376249	-0.0001050961	0.01427756	-0.003037072
	0.01399958	-0.003968045	-0.0003376249	-0.0001050961	-0.04901947	-0.003336997	1.995381e-06	3.107779e-05
	-1.151735e-05	6.045447e-05	0.01427756	-0.003037072	1.995381e-06	3.107779e-05	-0.04832776	-0.0005683555
3.1e+08	-0.04850174	-9.598206e-05	3.034517e-06	2.491538e-05	0.01314917	-0.004559386	-8.762622e-06	6.03034e-05
	3.034517e-06	2.491538e-05	-0.0477741	0.002339975	-0.0003582342	-7.5689e-05	0.01348955	-0.003631366
	0.01314917	-0.004559386	-0.0003582342	-7.5689e-05	-0.04880831	-6.937112e-06	4.87494e-06	2.947254e-05
	-8.762622e-06	6.03034e-05	0.01348955	-0.003631366	4.87494e-06	2.947254e-05	-0.04793385	0.002762657
3.2e+08	-0.0479049	0.003134395	5.20833e-06	2.317243e-05	0.01221865	-0.005034724	-6.017383e-06	6.003762e-05
	5.20833e-06	2.317243e-05	-0.04701883	0.005553111	-0.0003758671	-4.34049e-05	0.01262022	-0.004117878
	0.01221865	-0.005034724	-0.0003758671	-4.34049e-05	-0.04821406	0.003250134	7.373088e-06	2.760437e-05
	-6.017383e-06	6.003762e-05	0.01262022	-0.004117878	7.373088e-06	2.760437e-05	-0.04715932	0.005996379
3.3e+08	-0.04694015	0.006246642	6.980214e-06	2.126572e-05	0.01122352	-0.005384633	-3.289613e-06	5.965587e-05
	6.980214e-06	2.126572e-05	-0.04590052	0.008626846	-0.0003901218	-8.61479e-06	0.01168391	-0.004487122
	0.01122352	-0.005384633	-0.0003901218	-8.61479e-06	-0.0472493	0.006389722	9.467632e-06	2.554403e-05
	-3.289613e-06	5.965587e-05	0.01168391	-0.004487122	9.467632e-06	2.554403e-05	-0.04602008	0.009088333
3.4e+08	-0.04562528	0.009198468	8.343757e-06	1.926982e-05	0.01018031	-0.005601713	-5.870289e-07	5.915792e-05
	8.343757e-06	1.926982e-05	-0.04443991	0.01151929	-0.0004006528	2.825205e-05	0.01069604	-0.004731483
	0.01018031	-0.005601713	-0.0004006528	2.825205e-05	-0.04593169	0.009369245	1.114867e-05	2.336411e-05
	-5.870289e-07	5.915792e-05	0.01069604	-0.004731483	1.114867e-05	2.336411e-05	-0.0445372	0.01199641
3.5e+08	-0.04398291	0.01195007	9.30548e-06	1.725844e-05	0.009106404	-0.005680712	2.083024e-06	5.854421e-05
	9.30548e-06	1.725844e-05	-0.04266252	0.01419143	-0.0004071804	6.671603e-05	0.009672859	-0.004845335
	0.009106404	-0.005680712	-0.0004071804	6.671603e-05	-0.04428379	0.01214859	1.241861e-05	2.113691e-05
	2.083024e-06	5.854421e-05	0.009672859	-0.004845335	1.241861e-05	2.113691e-05	-0.04273652	0.01468145
3.6e+08	-0.04204013	0.0144647	9.884573e-06	1.530205e-05	0.008019703	-0.005618609	4.713543e-06	5.781587e-05
	9.884573e-06	1.530205e-05	-0.04059827	0.01660771	-0.0004094973	0.0001062595	0.008631215	-0.004825131
	0.008019703	-0.005618609	-0.0004094973	0.0001062595	-0.04233262	0.01469067	1.329206e-05	1.893223e-05
	4.713543e-06	5.781587e-05	0.008631215	-0.004825131	1.329206e-05	1.893223e-05	-0.04064834	0.01710773
3.7e+08	-0.03982813	0.01670913	1.011207e-05	1.346576e-05	0.006938384	-0.005414671	7.297889e-06	5.697455e-05
	1.011207e-05	1.346576e-05	-0.03828102	0.01873648	-0.000407475	0.0001463385	0.007588273	-0.004669461
	0.006938384	-0.005414671	-0.000407475	0.0001463385	-0.04010936	0.01696191	1.379511e-05	1.681536e-05
	7.297889e-06	5.697455e-05	0.007588273	-0.004669461	1.379511e-05	1.681536e-05	-0.03830689	0.01924356
3.8e+08	-0.0373817	0.01865408	1.002974e-05	1.180729e-05	0.0058806	-0.005070468	9.829758e-06	5.602236e-05
	1.002974e-05	1.180729e-05	-0.03574808	0.02055045	-0.0004010658	0.0001863958	0.00656126	-0.004379083
	0.0058806	-0.005070468	-0.0004010658	0.0001863958	-0.03764884	0.01893271	1.39644e-05	1.484512e-05
	9.829758e-06	5.602236e-05	0.00656126	-0.004379083	1.39644e-05	1.484512e-05	-0.03574986	0.02106158
3.9e+08	-0.03473881	0.02027469	9.688606e-06	1.037509e-05	0.004864196	-0.004589864	1.230315e-05	5.496179e-05
	9.688606e-06	1.037509e-05	-0.03303966	0.02202704	-0.0003903043	0.0002258743	0.005567196	-0.003956911
	0.004864196	-0.004589864	-0.0003903043	0.0002258743	-0.0349891	0.02057783	1.384585e-05	1.307202e-05
	1.230315e-05	5.496179e-05	0.005567196	-0.003956911	1.384585e-05	1.307202e-05	-0.03301788	0.02253925
4e+08	-0.03194	0.02155074	9.147088e-06	9.206913e-06	0.003906421	-0.003978962	1.471233e-05	5.379564e-05
	9.147088e-06	9.206913e-06	-0.03019829	0.02314868	-0.0003753062	0.0002642303	0.004622629	-0.003407987
	0.003906421	-0.003978962	-0.0003753062	0.0002642303	-0.03217083	0.02187673	1.349296e-05	1.153689e-05
	1.471233e-05	5.379564e-05	0.004622629	-0.003407987	1.349296e-05	1.153689e-05	-0.03015385	0.02365907
4.1e+08	-0.02902788	0.02246703	8.468992e-06	8.328615e-06	0.003023654	-0.003246022	1.705184e-05	5.252705e-05
	8.468992e-06	8.328615e-06	-0.02726819	0.02390307	-0.0003562642	0.0003009462	0.00374337	-0.002739406
	0.003023654	-0.003246022	-0.0003562642	0.0003009462	-0.02923677	0.02281385	1.2965e-05	1.026958e-05
	1.705184e-05	5.252705e-05	0.00374337	-0.002739406	1.2965e-05	1.026958e-05	-0.02720238	0.02440885
4.2e+08	-0.02604647	0.02301349	7.721256e-06	7.753327e-06	0.002231136	-0.002401341	1.931643e-05	5.115945e-05
	7.721256e-06	7.753327e-06	-0.02429466	0.0242833	-0.0003334425	0.0003355425	0.002944241	-0.001960219
	0.002231136	-0.002401341	-0.0003334425	0.0003355425	-0.02623118	0.02337882	1.232497e-05	9.288147e-06
	1.931643e-05	5.115945e-05	0.002944241	-0.001960219	1.232497e-05	9.288147e-06	-0.02420913	0.02478187
4.3e+08	-0.02304063	0.02318535	6.971541e-06	7.481169e-06	0.001542717	-0.001457106	2.150108e-05	4.969656e-05
	6.971541e-06	7.481169e-06	-0.02132339	0.02428796	-0.0003071695	0.0003675885	0.002238836	-0.001081298
	0.001542717	-0.001457106	-0.0003071695	0.0003675885	-0.02319915	0.02356658	1.163733e-05	8.598406e-06
	2.150108e-05	4.969656e-05	0.002238836	-0.001081298	1.163733e-05	8.598406e-06	-0.02122015	0.02477693
4.4e+08	-0.02005538	0.02298321	6.285847e-06	7.499272e-06	0.0009706256	-0.0004272053	2.360094e-05	4.814233e-05
	6.285847e-06	7.499272e-06	-0.01839985	0.02392113	-0.0002778285	0.0003967116	0.001639297	-0.0001151788
	0.0009706256	-0.0004272053	-0.0002778285	0.0003967116	-0.020186	0.02337745	1.096579e-05	8.193866e-06
	2.360094e-05	4.814233e-05	0.001639297	-0.0001151788	1.096579e-05	8.193866e-06	-0.0182812	0.02439836
4.5e+08	-0.01713531	0.02241298	5.726122e-06	7.782334e-06	0.000525256	0.0006729783	2.561137e-05	4.6501e-05
	5.726122e-06	7.782334e-06	-0.01556858	0.0231923	-0.0002458469	0.0004226047	0.001156108	0.0009241338
	0.000525256	0.0006729783	-0.0002458469	0.0004226047	-0.01723666	0.02281712	1.037108e-05	8.056098e-06
	2.561137e-05	4.6501e-05	0.001156108	0.0009241338	1.037108e-05	8.056098e-06	-0.01543712	0.02365597
4.6e+08	-0.01432394	0.02148584	5.34798e-06	8.293458e-06	0.0002149866	0.001826807	2.752787e-05	4.477707e-05
	5.34798e-06	8.293458e-06	-0.0128726	0.02211622	-0.0002116841	0.0004450321	0.0007979174	0.002021376
	0.0002149866	0.001826807	-0.0002116841	0.0004450321	-0.014395	0.02189656	9.908636e-06	8.155307e-06
	2.752787e-05	4.477707e-05	0.0007979174	0.002021376	9.908636e-06	8.155307e-06	-0.01273114	0.02256488
4.7e+08	-0.01166308	0.02021804	5.198641e-06	8.98562e-06	4.602606e-05	0.00301665	2.934622e-05	4.297539e-05
	5.198641e-06	8.98562e-06	-0.01035276	0.0207127	-0.00017582	0.0004638327	0.000571384	0.003160267
	4.602606e-05	0.00301665	-0.00017582	0.0004638327	-0.01170324	0.02063186	9.627027e-06	8.451935e-06
