!$
! Info: Touchstone file created by Circ.  Input file=Tx_6in_Rx_93ohms_TxVia_35mils_RxVia_45mils.circ
!$
# Hz S RI R 50
0	0.005612241	9.110886e-26	-3.255781e-05	-5.071739e-27	5.294308e-05	1.04937e-23	-3.25575e-05	-1.132243e-26
	-3.255782e-05	-3.882225e-27	0.005608807	1.042212e-25	-3.255716e-05	1.692701e-27	5.158082e-05	1.263117e-23
	5.346726e-05	1.063031e-23	-3.255714e-05	-2.974687e-28	0.005620461	8.893194e-26	-3.255756e-05	8.36128e-26
	-3.25575e-05	-1.049656e-26	4.97336e-05	1.269351e-23	-3.255757e-05	8.523936e-26	0.005621983	9.763592e-26
1e+07	0.00776067	-8.448097e-05	-1.075667e-06	-1.211757e-05	0.0001651999	0.001149046	-1.085543e-06	-1.243571e-05
	-1.075667e-06	-1.211757e-05	0.008212936	-0.0001458813	-3.836806e-06	-2.372216e-06	0.0001684331	0.001239258
	0.0001652237	0.001149047	-3.836806e-06	-2.372216e-06	0.008344808	0.0002166604	-1.293837e-05	-3.3147e-06
	-1.085543e-06	-1.243571e-05	0.0001683731	0.001239268	-1.293837e-05	-3.3147e-06	0.008060146	-0.0001492196
2e+07	0.009488387	-0.002011229	-4.005309e-06	-8.248438e-06	0.000424097	0.002316814	-4.349335e-06	-8.756402e-06
	-4.005309e-06	-8.248438e-06	0.00977182	-0.002277311	-1.471011e-05	-1.320334e-05	0.0003601314	0.002481339
	0.0004241049	0.002316799	-1.471011e-05	-1.320334e-05	0.01025739	-0.00173532	-1.391558e-05	1.767001e-06
	-4.349335e-06	-8.756402e-06	0.0003601231	0.002481374	-1.391558e-05	1.767e-06	0.009654714	-0.002225065
3e+07	0.01037403	-0.004807418	-6.3531e-06	-6.985261e-06	0.0008194088	0.003438215	-6.95714e-06	-7.492993e-06
	-6.3531e-06	-6.985261e-06	0.01050979	-0.005132889	-2.306404e-05	-1.434687e-05	0.0007392861	0.003635181
	0.0008194088	0.003438212	-2.306404e-05	-1.434687e-05	0.01128266	-0.004590568	-1.495288e-05	1.961272e-06
	-6.95714e-06	-7.492993e-06	0.0007392861	0.003635186	-1.495288e-05	1.961272e-06	0.0104191	-0.005066268
4e+07	0.01063052	-0.007890496	-8.285396e-06	-5.739879e-06	0.001346817	0.004497648	-9.103888e-06	-6.179372e-06
	-8.285396e-06	-5.739879e-06	0.01062636	-0.008229402	-2.99371e-05	-1.267473e-05	0.001281565	0.004709099
	0.001346819	0.004497649	-2.99371e-05	-1.267473e-05	0.01164839	-0.007761394	-1.569293e-05	2.872293e-06
	-9.103888e-06	-6.179372e-06	0.00128156	0.004709097	-1.569293e-05	2.872293e-06	0.01055636	-0.008159121
5e+07	0.01033821	-0.0110821	-9.874536e-06	-4.322368e-06	0.001997368	0.005478293	-1.087335e-05	-4.649011e-06
	-9.874536e-06	-4.322368e-06	0.01019913	-0.01140264	-3.56233e-05	-9.317731e-06	0.001940862	0.005697372
	0.00199737	0.005478294	-3.56233e-05	-9.317731e-06	0.01143961	-0.01106202	-1.618047e-05	4.134074e-06
	-1.087335e-05	-4.649011e-06	0.001940859	0.005697371	-1.618047e-05	4.134074e-06	0.01014491	-0.0113345
6e+07	0.009545317	-0.01427264	-1.114598e-05	-2.707892e-06	0.002759678	0.00636512	-1.229555e-05	-2.886146e-06
	-1.114598e-05	-2.707892e-06	0.009276615	-0.0145481	-4.022994e-05	-4.73038e-06	0.002706163	0.006587876
	0.002759675	0.00636512	-4.022994e-05	-4.73038e-06	0.01070609	-0.01437801	-1.642891e-05	5.615222e-06
	-1.229555e-05	-2.886146e-06	0.002706166	0.006587875	-1.642891e-05	5.615222e-06	0.009233619	-0.0144858
7e+07	0.008290578	-0.01737985	-1.210219e-05	-9.008011e-07	0.003620609	0.007144991	-1.337402e-05	-8.981874e-07
	-1.210219e-05	-9.00801e-07	0.007898988	-0.01758601	-4.377051e-05	8.545733e-07	0.00356453	0.007369085
	0.003620603	0.007144992	-4.377051e-05	8.545734e-07	0.009486799	-0.01762384	-1.643763e-05	7.251076e-06
	-1.337402e-05	-8.981875e-07	0.003564538	0.007369081	-1.643763e-05	7.251076e-06	0.007862781	-0.01753202
8e+07	0.006610906	-0.02033621	-1.272744e-05	1.096217e-06	0.004565644	0.007806899	-1.40916e-05	1.313353e-06
	-1.272744e-05	1.096217e-06	0.006105307	-0.02044991	-4.619021e-05	7.328863e-06	0.004501422	0.008030762
	0.004565637	0.007806902	-4.619021e-05	7.328863e-06	0.007817856	-0.02073002	-1.62746e-05	8.857253e-06
	-1.40916e-05	1.313353e-06	0.004501432	0.008030756	-1.62746e-05	8.857253e-06	0.00607144	-0.0204059
9e+07	0.004544763	-0.02308375	-1.297551e-05	3.306109e-06	0.005579503	0.008342628	-1.43994e-05	3.78285e-06
	-1.297551e-05	3.306109e-06	0.00393731	-0.02308145	-4.733001e-05	1.473449e-05	0.005500953	0.008564355
	0.005579498	0.008342631	-4.733001e-05	1.473449e-05	0.005735157	-0.02363894	-1.651173e-05	9.485711e-06
	-1.43994e-05	3.78285e-06	0.00550096	0.008564349	-1.651173e-05	9.485711e-06	0.003901153	-0.02304863
1e+08	0.00213607	-0.02556883	-1.261398e-05	5.964476e-06	0.00664995	0.008752067	-1.403513e-05	6.787145e-06
	-1.261398e-05	5.964476e-06	0.001448673	-0.02541844	-4.636958e-05	2.391014e-05	0.006546174	0.008963023
	0.00664995	0.008752066	-4.636958e-05	2.391014e-05	0.003268322	-0.02631227	-1.6923e-05	9.776505e-06
	-1.403513e-05	6.787145e-06	0.006546174	0.008963023	-1.6923e-05	9.776505e-06	0.001404163	-0.02539933
1.1e+08	-0.0005579476	-0.02778084	-1.098805e-05	7.704814e-06	0.00772451	0.009036711	-1.221476e-05	8.781222e-06
	-1.098805e-05	7.704814e-06	-0.001275472	-0.02749961	-4.085857e-05	3.0046e-05	0.007617735	0.009223523
	0.00772451	0.009036711	-4.085857e-05	3.0046e-05	0.0004298165	-0.02864792	-1.664429e-05	9.561731e-06
	-1.221476e-05	8.781222e-06	0.007617735	0.009223523	-1.664429e-05	9.561731e-06	-0.001337992	-0.02748613
1.2e+08	-0.0035247	-0.0296679	-9.622393e-06	8.862725e-06	0.008805855	0.009164874	-1.11295e-05	9.552761e-06
	-9.622393e-06	8.862725e-06	-0.004277141	-0.02926427	-3.807036e-05	3.191669e-05	0.008699548	0.009344434
	0.008805855	0.009164873	-3.807036e-05	3.191669e-05	-0.002664783	-0.03061329	-1.620565e-05	9.715366e-06
	-1.11295e-05	9.552761e-06	0.008699548	0.009344434	-1.620565e-05	9.715366e-06	-0.004357239	-0.02925081
1.3e+08	-0.006711674	-0.03119525	-9.293345e-06	8.792156e-06	0.009879749	0.009145065	-1.090292e-05	9.346468e-06
	-9.293345e-06	8.792156e-06	-0.00749556	-0.03066566	-3.710117e-05	3.172625e-05	0.009773601	0.009325662
	0.009879749	0.009145065	-3.710117e-05	3.172625e-05	-0.00597421	-0.03219633	-1.572584e-05	1.000525e-05
	-1.090292e-05	9.346468e-06	0.009773601	0.009325662	-1.572584e-05	1.000525e-05	-0.007593753	-0.03064857
1.4e+08	-0.01006772	-0.03233953	-9.020567e-06	8.718772e-06	0.01092825	0.008981752	-1.063825e-05	9.261991e-06
	-9.020567e-06	8.718772e-06	-0.01087647	-0.03167828	-3.599063e-05	3.186816e-05	0.01082205	0.009169715
	0.01092825	0.008981752	-3.599063e-05	3.186816e-05	-0.009448765	-0.033379	-1.521187e-05	1.034843e-05
	-1.063825e-05	9.261991e-06	0.01082205	0.009169715	-1.521187e-05	1.034843e-05	-0.01099304	-0.03165415
1.5e+08	-0.01354127	-0.0330847	-8.724235e-06	8.710434e-06	0.01193349	0.008680784	-1.034813e-05	9.256449e-06
	-8.724235e-06	8.710434e-06	-0.01436598	-0.03228576	-3.477987e-05	3.221707e-05	0.01182758	0.008881408
	0.01193349	0.008680784	-3.477987e-05	3.221707e-05	-0.01303705	-0.03414805	-1.467195e-05	1.072478e-05
	-1.034813e-05	9.256449e-06	0.01182758	0.008881408	-1.467195e-05	1.072478e-05	-0.01450076	-0.03225129
1.6e+08	-0.01708059	-0.03342143	-8.410468e-06	8.746022e-06	0.01287835	0.008249908	-1.003895e-05	9.305555e-06
	-8.410468e-06	8.746022e-06	-0.0179104	-0.03247936	-3.348893e-05	3.269998e-05	0.01277367	0.008467738
	0.01287835	0.008249908	-3.348893e-05	3.269998e-05	-0.01668712	-0.034496	-1.410937e-05	1.111327e-05
	-1.003895e-05	9.305555e-06	0.01277367	0.008467738	-1.410937e-05	1.111327e-05	-0.01806281	-0.03243142
1.7e+08	-0.02063431	-0.03334684	-8.082733e-06	8.811748e-06	0.01374677	0.007698825	-9.714032e-06	9.393551e-06
	-8.082733e-06	8.811748e-06	-0.02145676	-0.03225735	-3.212899e-05	3.326888e-05	0.01364491	0.007937737
	0.01374677	0.007698825	-3.212899e-05	3.326888e-05	-0.02034724	-0.03442137	-1.352654e-05	1.150435e-05
	-9.714032e-06	9.393551e-06	0.01364491	0.007937737	-1.352654e-05	1.150435e-05	-0.02162574	-0.03219299
1.8e+08	-0.02415193	-0.03286421	-7.743136e-06	8.898035e-06	0.01452408	0.00703909	-9.375225e-06	9.509425e-06
	-7.743136e-06	8.898035e-06	-0.02495323	-0.03162455	-3.070697e-05	3.388981e-05	0.01442722	0.007302301
	0.01452408	0.00703909	-3.070697e-05	3.388981e-05	-0.02396651	-0.03392859	-1.292503e-05	1.189121e-05
	-9.375225e-06	9.509425e-06	0.01442722	0.007302301	-1.292503e-05	1.189121e-05	-0.02513735	-0.03154108
1.9e+08	-0.02758438	-0.03198275	-7.393081e-06	8.997893e-06	0.0151972	0.006284003	-9.023641e-06	9.645071e-06
	-7.393081e-06	8.997893e-06	-0.02834978	-0.03059201	-2.922771e-05	3.453742e-05	0.01510806	0.006573994
	0.0151972	0.006284003	-2.922771e-05	3.453742e-05	-0.02749546	-0.03302788	-1.230601e-05	1.226869e-05
	-9.023641e-06	9.645071e-06	0.01510806	0.006573994	-1.230601e-05	1.226869e-05	-0.02854724	-0.03048702
2e+08	-0.03088537	-0.03071721	-7.033047e-06	9.104693e-06	0.01576623	0.0054223	-8.659735e-06	9.793786e-06
	-7.033047e-06	9.104693e-06	-0.03159869	-0.02917662	-2.769493e-05	3.519162e-05	0.01567664	0.005766826
	0.01576623	0.0054223	-2.769493e-05	3.519162e-05	-0.03088746	-0.03173492	-1.167032e-05	1.263236e-05
	-8.659735e-06	9.793786e-06	0.01567664	0.005766826	-1.167032e-05	1.263236e-05	-0.03180742	-0.02904804
2.1e+08	-0.03400967	-0.02908773	-6.664436e-06	9.215608e-06	0.01620763	0.004495077	-8.284277e-06	9.951129e-06
	-6.664436e-06	9.215608e-06	-0.03465515	-0.02740078	-2.611217e-05	3.583684e-05	0.01612407	0.004896013
	0.01620763	0.004495077	-2.611217e-05	3.583684e-05	-0.03409693	-0.03007069	-1.101909e-05	1.297929e-05
	-8.284277e-06	9.951129e-06	0.01612407	0.004896013	-1.101909e-05	1.297929e-05	-0.03487282	-0.02724685
2.2e+08	-0.03691577	-0.02711944	-6.287888e-06	9.327425e-06	0.01651381	0.003521182	-7.897638e-06	1.011314e-05
	-6.287888e-06	9.327425e-06	-0.03747779	-0.02529189	-2.44827e-05	3.646e-05	0.01644349	0.003977725
	0.01651381	0.003521182	-2.44827e-05	3.646e-05	-0.03708207	-0.02806113	-1.035327e-05	1.330673e-05
	-7.897638e-06	1.011314e-05	0.01644349	0.003977725	-1.035327e-05	1.330673e-05	-0.03770189	-0.02511123
2.3e+08	-0.03956576	-0.02484202	-5.903903e-06	9.43745e-06	0.01668025	0.002518547	-7.500094e-06	1.027648e-05
	-5.903903e-06	9.43745e-06	-0.04002914	-0.02288193	-2.28098e-05	3.705005e-05	0.01663014	0.003028816
	0.01668025	0.002518547	-2.28098e-05	3.705005e-05	-0.03980473	-0.02573668	-9.67384e-06	1.361228e-05
	-7.500094e-06	1.027648e-05	0.01663014	0.003028816	-9.67384e-06	1.361228e-05	-0.04025701	-0.02267352
2.4e+08	-0.04192578	-0.02228923	-5.512989e-06	9.543441e-06	0.01670471	0.001505475	-7.09197e-06	1.043832e-05
	-5.512989e-06	9.543441e-06	-0.04227613	-0.02020692	-2.109707e-05	3.75976e-05	0.01668148	0.002066555
	0.01670471	0.001505475	-2.109707e-05	3.75976e-05	-0.04223083	-0.02313187	-8.981859e-06	1.38939e-05
	-7.09197e-06	1.043832e-05	0.01668148	0.002066555	-8.981859e-06	1.38939e-05	-0.04250502	-0.01997011
2.5e+08	-0.04396638	-0.0194984	-5.115602e-06	9.643494e-06	0.01658732	0.0005003512	-6.673575e-06	1.059622e-05
	-5.115602e-06	9.643494e-06	-0.04419046	-0.01730636	-1.934824e-05	3.809456e-05	0.01659712	0.001108347
	0.01658732	0.0005003512	-1.934824e-05	3.809456e-05	-0.04433077	-0.02028472	-8.27846e-06	1.414975e-05
	-6.673575e-06	1.059622e-05	0.01659712	0.001108347	-8.27846e-06	1.414975e-05	-0.04441755	-0.01704087
2.6e+08	-0.04566288	-0.01650986	-4.712236e-06	9.735857e-06	0.0163305	-0.0004786474	-6.245277e-06	1.074801e-05
	-4.712236e-06	9.735857e-06	-0.04574894	-0.01422261	-1.756718e-05	3.853268e-05	0.01637891	0.0001714616
	0.0163305	-0.0004786474	-1.756718e-05	3.853268e-05	-0.04607973	-0.0172363	-7.564882e-06	1.437826e-05
	-6.245277e-06	1.074801e-05	0.01637891	0.0001714616	-7.564882e-06	1.437826e-05	-0.04597138	-0.01392856
2.7e+08	-0.04699563	-0.0133664	-4.303361e-06	9.819198e-06	0.01593897	-0.001413838	-5.807472e-06	1.089175e-05
	-4.303361e-06	9.819198e-06	-0.04693368	-0.01100032	-1.575849e-05	3.890703e-05	0.01603082	-0.0007272383
	0.01593897	-0.001413838	-1.575849e-05	3.890703e-05	-0.04745799	-0.01403008	-6.84242e-06	1.457797e-05
	-5.807472e-06	1.089175e-05	0.01603082	-0.0007272383	-6.84242e-06	1.457797e-05	-0.04714869	-0.01067817
2.8e+08	-0.04795028	-0.01011262	-3.889493e-06	9.892289e-06	0.01541961	-0.002288311	-5.360647e-06	1.102574e-05
	-3.889493e-06	9.892289e-06	-0.04773237	-0.007685689	-1.392682e-05	3.921271e-05	0.0155589	-0.001571557
	0.01541961	-0.002288311	-1.392682e-05	3.921271e-05	-0.04845116	-0.01071132	-6.112489e-06	1.474764e-05
	-5.360647e-06	1.102574e-05	0.0155589	-0.001571557	-6.112489e-06	1.474764e-05	-0.04793725	-0.007336297
2.9e+08	-0.04851786	-0.006794313	-3.471178e-06	9.954014e-06	0.01478138	-0.003086188	-4.905348e-06	1.114841e-05
	-3.471178e-06	9.954014e-06	-0.04813836	-0.004325891	-1.207697e-05	3.94454e-05	0.01497119	-0.002346213
	0.01478138	-0.003086188	-1.207697e-05	3.94454e-05	-0.04905028	-0.007326509	-5.376591e-06	1.488619e-05
	-4.905348e-06	1.114841e-05	0.01497119	-0.002346213	-5.376591e-06	1.488619e-05	-0.04833053	-0.003950443
3e+08	-0.04869491	-0.003457859	-3.04899e-06	1.000336e-05	0.01403517	-0.003792868	-4.442179e-06	1.125834e-05
	-3.04899e-06	1.000336e-05	-0.0481507	-0.0009683372	-1.021391e-05	3.960141e-05	0.01427756	-0.003037072
	0.01403517	-0.003792868	-1.021391e-05	3.960141e-05	-0.04925194	-0.003922656	-4.636307e-06	1.499267e-05
	-4.442179e-06	1.125834e-05	0.01427756	-0.003037072	-4.636307e-06	1.499267e-05	-0.04832776	-0.0005683555
3.1e+08	-0.04848343	-0.0001495411	-2.623557e-06	1.003947e-05	0.01319359	-0.004395258	-3.971837e-06	1.135425e-05
	-2.623557e-06	1.003947e-05	-0.0477741	0.002339975	-8.342841e-06	3.967788e-05	0.01348955	-0.003631366
	0.01319359	-0.004395258	-8.342841e-06	3.967788e-05	-0.04905824	-0.0005466847	-3.893312e-06	1.50663e-05
	-3.971837e-06	1.135425e-05	0.01348955	-0.003631366	-3.893312e-06	1.50663e-05	-0.04793385	0.002762657
3.2e+08	-0.04789088	0.003085055	-2.195543e-06	1.006153e-05	0.01227082	-0.004881964	-3.495076e-06	1.143499e-05
	-2.195543e-06	1.006153e-05	-0.04701883	0.005553111	-6.469044e-06	3.967252e-05	0.01262022	-0.004117878
	0.01227082	-0.004881964	-6.469044e-06	3.967252e-05	-0.04847679	0.002755206	-3.149338e-06	1.510647e-05
	-3.495076e-06	1.143499e-05	0.01262022	-0.004117878	-3.149338e-06	1.510647e-05	-0.04715932	0.005996379
3.3e+08	-0.04692999	0.006201675	-1.765654e-06	1.006883e-05	0.01128233	-0.005243477	-3.012719e-06	1.149949e-05
	-1.765654e-06	1.006883e-05	-0.04590052	0.008626846	-4.597888e-06	3.95836e-05	0.01168391	-0.004487122
	0.01128233	-0.005243477	-4.597888e-06	3.95836e-05	-0.04752051	0.005938161	-2.406183e-06	1.511269e-05
	-3.012719e-06	1.149949e-05	0.01168391	-0.004487122	-2.406183e-06	1.511269e-05	-0.04602008	0.009088333
3.4e+08	-0.04561858	0.009157995	-1.334641e-06	1.006076e-05	0.0102447	-0.005472316	-2.52566e-06	1.154684e-05
	-1.334641e-06	1.006076e-05	-0.04443991	0.01151929	-2.734808e-06	3.941012e-05	0.01069604	-0.004731483
	0.0102447	-0.005472316	-2.734808e-06	3.941012e-05	-0.04620743	0.00895929	-1.665696e-06	1.508465e-05
	-2.52566e-06	1.154684e-05	0.01069604	-0.004731483	-1.665696e-06	1.508465e-05	-0.0445372	0.01199641
3.5e+08	-0.04397928	0.01191419	-9.032949e-07	1.003679e-05	0.009175299	-0.005563148	-2.034851e-06	1.15762e-05
	-9.032949e-07	1.003679e-05	-0.04266252	0.01419143	-8.85232e-07	3.915152e-05	0.009672859	-0.004845335
	0.009175299	-0.005563148	-8.85232e-07	3.915152e-05	-0.04456048	0.01177822	-9.297607e-07	1.502219e-05
	-2.034851e-06	1.15762e-05	0.009672859	-0.004845335	-9.297607e-07	1.502219e-05	-0.04273652	0.01468145
3.6e+08	-0.04203918	0.01443348	-4.724465e-07	9.996462e-06	0.008092065	-0.005512875	-1.541302e-06	1.158685e-05
	-4.724465e-07	9.996462e-06	-0.04059827	0.01660771	9.454436e-07	3.880785e-05	0.008631215	-0.004825131
	0.008092065	-0.005512875	9.454436e-07	3.880785e-05	-0.04260706	0.01435765	-2.002868e-07	1.492532e-05
	-1.541302e-06	1.158685e-05	0.008631215	-0.004825131	-2.002868e-07	1.492532e-05	-0.04064834	0.01710773
3.7e+08	-0.03982949	0.0166826	-4.295789e-08	9.93941e-06	0.007013195	-0.005320686	-1.046068e-06	1.157821e-05
	-4.295789e-08	9.93941e-06	-0.03828102	0.01873648	2.751901e-06	3.837966e-05	0.007588273	-0.004669461
	0.007013195	-0.005320686	2.751901e-06	3.837966e-05	-0.04037874	0.01666384	5.208062e-07	1.479419e-05
	-1.046068e-06	1.157821e-05	0.007588273	-0.004669461	5.208062e-07	1.479419e-05	-0.03830689	0.01924356
3.8e+08	-0.03738501	0.01863228	3.842776e-07	9.865339e-06	0.005956868	-0.004988076	-5.502461e-07	1.154975e-05
	3.842776e-07	9.865339e-06	-0.03574808	0.02055045	4.528932e-06	3.786793e-05	0.00656126	-0.004379083
	0.005956868	-0.004988076	4.528932e-06	3.786793e-05	-0.03791072	0.01866706	1.2316e-06	1.46291e-05
	-5.502461e-07	1.154975e-05	0.00656126	-0.004379083	1.2316e-06	1.46291e-05	-0.03574986	0.02106158
3.9e+08	-0.03474372	0.02025759	8.083409e-07	9.77404e-06	0.004940961	-0.004518834	-5.496902e-08	1.15011e-05
	8.083409e-07	9.77404e-06	-0.03303966	0.02202704	6.271469e-06	3.727414e-05	0.005567196	-0.003956911
	0.004940961	-0.004518834	6.271469e-06	3.727414e-05	-0.03524141	0.02034199	1.930195e-06	1.443054e-05
	-5.496902e-08	1.15011e-05	0.005567196	-0.003956911	1.930195e-06	1.443054e-05	-0.03301788	0.02253925
4e+08	-0.03194618	0.02153834	1.228291e-06	9.665378e-06	0.00398276	-0.003918994	4.386044e-07	1.143196e-05
	1.228291e-06	9.665378e-06	-0.03019829	0.02314868	7.974609e-06	3.660015e-05	0.004622629	-0.003407987
	0.00398276	-0.003918994	7.974609e-06	3.660015e-05	-0.03241186	0.02166805	2.614716e-06	1.41991e-05
	4.386044e-07	1.143196e-05	0.004622629	-0.003407987	2.614716e-06	1.41991e-05	-0.03015385	0.02365907
4.1e+08	-0.02903501	0.02245928	1.643173e-06	9.539306e-06	0.003098686	-0.003196747	9.293007e-07	1.134216e-05
	1.643173e-06	9.539306e-06	-0.02726819	0.02390307	9.633657e-06	3.584823e-05	0.00374337	-0.002739406
	0.003098686	-0.003196747	9.633657e-06	3.584823e-05	-0.02946517	0.02262969	3.283333e-06	1.393554e-05
	9.293007e-07	1.134216e-05	0.00374337	-0.002739406	3.283333e-06	1.393554e-05	-0.02720238	0.02440885
4.2e+08	-0.02605424	0.02301032	2.052025e-06	9.395861e-06	0.002304027	-0.002362325	1.41594e-06	1.123163e-05
	2.052025e-06	9.395861e-06	-0.02429466	0.0242833	1.124414e-05	3.502103e-05	0.002944241	-0.001960219
	0.002304027	-0.002362325	1.124414e-05	3.502103e-05	-0.0264459	0.02321655	3.934273e-06	1.364078e-05
	1.41594e-06	1.123163e-05	0.002944241	-0.001960219	3.934273e-06	1.364078e-05	-0.02420913	0.02478187
4.3e+08	-0.02304874	0.02318669	2.453882e-06	9.235156e-06	0.001612685	-0.001427853	1.897343e-06	1.11004e-05
	2.453882e-06	9.235156e-06	-0.02132339	0.02428796	1.280185e-05	3.412151e-05	0.002238836	-0.001081298
	0.001612685	-0.001427853	1.280185e-05	3.412151e-05	-0.02339947	0.02342365	4.56583e-06	1.331584e-05
	1.897343e-06	1.11004e-05	0.002238836	-0.001081298	4.56583e-06	1.331584e-05	-0.02122015	0.02477693
4.4e+08	-0.02006355	0.02298897	2.84778e-06	9.057383e-06	0.001036945	-0.000407162	2.37234e-06	1.094861e-05
	2.84778e-06	9.057383e-06	-0.01839985	0.02392113	1.430281e-05	3.315294e-05	0.001639297	-0.0001151788
	0.001036945	-0.000407162	1.430281e-05	3.315294e-05	-0.02037148	0.02325139	5.176371e-06	1.296187e-05
	2.37234e-06	1.094861e-05	0.001639297	-0.0001151788	5.176371e-06	1.296187e-05	-0.0182812	0.02439836
4.5e+08	-0.01714329	0.02242305	3.232765e-06	8.86281e-06	0.0005872624	0.000684417	2.839777e-06	1.077648e-05
	3.232765e-06	8.86281e-06	-0.01556858	0.0231923	1.574335e-05	3.211885e-05	0.001156108	0.0009241338
	0.0005872624	0.000684417	1.574335e-05	3.211885e-05	-0.01740713	0.02270558	5.764354e-06	1.258014e-05
	2.839777e-06	1.077648e-05	0.001156108	0.0009241338	5.764354e-06	1.258014e-05	-0.01543712	0.02365597
4.6e+08	-0.01433147	0.02150009	3.607904e-06	8.651788e-06	0.0002720808	0.001830293	3.298474e-06	1.058428e-05
	3.607904e-06	8.651788e-06	-0.0128726	0.02211622	1.712007e-05	3.102303e-05	0.0007979174	0.002021376
	0.0002720808	0.001830293	1.712007e-05	3.102303e-05	-0.0145505	0.02179732	6.328108e-06	1.217182e-05
	3.298474e-06	1.058428e-05	0.0007979174	0.002021376	6.328108e-06	1.217182e-05	-0.01273114	0.02256488
4.7e+08	-0.01166995	0.02023631	3.972275e-06	8.424734e-06	9.76781e-05	0.003012876	3.747385e-06	1.037246e-05
	3.972275e-06	8.424734e-06	-0.01035276	0.0207127	1.842985e-05	2.986944e-05	0.000571384	0.003160267
	9.76781e-05	0.003012876	1.842985e-05	2.986944e-05	-0.01184403	0.02054287	6.866286e-06	1.173845e-05
