!$
! Info: Touchstone file created by Circ.  Input file=Tx_8in_Rx_93ohms_TxVia_35mils_RxVia_45mils.circ
!$
# Hz S RI R 50
0	0.007421794	1.116164e-25	-4.324956e-05	-2.839122e-26	6.355392e-05	1.39122e-23	-4.324917e-05	-3.376812e-26
	-4.324957e-05	-2.681107e-26	0.007418349	1.294575e-25	-4.324868e-05	-2.086853e-26	6.21979e-05	1.674759e-23
	6.40777e-05	1.409331e-23	-4.324866e-05	-2.351228e-26	0.007429936	1.089551e-25	-4.3249e-05	6.110864e-26
	-4.324918e-05	-3.267105e-26	6.035033e-05	1.683014e-23	-4.324901e-05	6.326934e-26	0.007431496	1.212875e-25
1e+07	0.01024388	-0.00039005	-1.761311e-06	-1.603544e-05	0.0002386229	0.001451628	-1.782997e-06	-1.64567e-05
	-1.761311e-06	-1.603544e-05	0.01084161	-0.0004832419	-5.142252e-06	-3.028071e-06	0.0002453262	0.001571375
	0.0002386468	0.001451629	-5.142252e-06	-3.028071e-06	0.01102122	-9.29039e-06	-1.723582e-05	-4.030172e-06
	-1.782997e-06	-1.64567e-05	0.000245266	0.001571385	-1.723582e-05	-4.030172e-06	0.01063387	-0.0004861826
2e+07	0.01237184	-0.003287862	-5.745957e-06	-1.069197e-05	0.0006560486	0.002908675	-6.223528e-06	-1.135036e-05
	-5.745958e-06	-1.069197e-05	0.01273237	-0.00365308	-2.015386e-05	-1.66622e-05	0.0005801212	0.003130149
	0.0006560565	0.00290866	-2.015386e-05	-1.66622e-05	0.01339622	-0.002968486	-1.831889e-05	3.101568e-06
	-6.223527e-06	-1.135036e-05	0.0005801128	0.003130184	-1.831889e-05	3.101568e-06	0.01257432	-0.003582942
3e+07	0.01318335	-0.007324396	-8.94491e-06	-8.707832e-06	0.001295878	0.004269326	-9.777437e-06	-9.342588e-06
	-8.94491e-06	-8.707832e-06	0.0133371	-0.007761104	-3.156905e-05	-1.710928e-05	0.001205664	0.004536019
	0.001295878	0.004269323	-3.156905e-05	-1.710928e-05	0.01438791	-0.007115758	-1.959818e-05	3.80046e-06
	-9.777436e-06	-9.342588e-06	0.001205664	0.004536024	-1.959818e-05	3.80046e-06	0.01321533	-0.007673696
4e+07	0.01296304	-0.01166454	-1.151618e-05	-6.679697e-06	0.002141873	0.00549964	-1.26388e-05	-7.194171e-06
	-1.151618e-05	-6.679697e-06	0.01292388	-0.01210482	-4.07541e-05	-1.358473e-05	0.002078112	0.005785085
	0.002141875	0.005499641	-4.07541e-05	-1.358473e-05	0.01429872	-0.01160656	-2.03878e-05	5.462094e-06
	-1.26388e-05	-7.194171e-06	0.002078106	0.005785083	-2.03878e-05	5.462094e-06	0.01282976	-0.01201485
5e+07	0.01183363	-0.01601583	-1.353563e-05	-4.381486e-06	0.003168848	0.006566614	-1.48973e-05	-4.710491e-06
	-1.353563e-05	-4.381486e-06	0.01161387	-0.01641155	-4.804239e-05	-7.667935e-06	0.003123403	0.006861459
	0.00316885	0.006566615	-4.804239e-05	-7.667936e-06	0.01325668	-0.01613601	-2.07422e-05	7.580948e-06
	-1.48973e-05	-4.710491e-06	0.003123399	0.006861458	-2.07422e-05	7.580948e-06	0.0115398	-0.01632673
6e+07	0.009887944	-0.02018382	-1.502303e-05	-1.805453e-06	0.004346103	0.007442651	-1.657678e-05	-1.896072e-06
	-1.502303e-05	-1.805453e-06	0.009502199	-0.02049488	-5.352759e-05	-3.553235e-08	0.004311398	0.00774176
	0.004346101	0.007442651	-5.352759e-05	-3.553232e-08	0.01135639	-0.02050067	-2.067485e-05	9.96303e-06
	-1.657678e-05	-1.896072e-06	0.0043114	0.007741759	-2.067485e-05	9.96303e-06	0.009441057	-0.02041966
7e+07	0.007216669	-0.0240181	-1.597079e-05	1.015963e-06	0.005638938	0.008106151	-1.766818e-05	1.212175e-06
	-1.597079e-05	1.015963e-06	0.006683241	-0.02420932	-5.718157e-05	8.921653e-06	0.005607824	0.008406846
	0.005638932	0.008106152	-5.718157e-05	8.921653e-06	0.008689043	-0.02454312	-2.018262e-05	1.250093e-05
	-1.766818e-05	1.212175e-06	0.005607832	0.008406843	-2.018262e-05	1.250093e-05	0.006628192	-0.02414609
8e+07	0.003916615	-0.02739693	-1.634792e-05	4.049092e-06	0.00700991	0.008542108	-1.813458e-05	4.581129e-06
	-1.634792e-05	4.049092e-06	0.003258264	-0.02743673	-5.888329e-05	1.896343e-05	0.006975407	0.008843044
	0.007009903	0.008542111	-5.888329e-05	1.896343e-05	0.005350947	-0.02813625	-1.938369e-05	1.49448e-05
	-1.813458e-05	4.581129e-06	0.006975417	0.008843038	-1.938369e-05	1.49448e-05	0.003202681	-0.02738641
9e+07	9.319284e-05	-0.03022166	-1.607875e-05	7.284853e-06	0.00842053	0.008742994	-1.788925e-05	8.216535e-06
	-1.607875e-05	7.284853e-06	-0.0006615347	-0.03008088	-5.835197e-05	3.001704e-05	0.00837497	0.009042818
	0.008420524	0.008742997	-5.835197e-05	3.001704e-05	0.001444809	-0.03117858	-1.924621e-05	1.616992e-05
	-1.788925e-05	8.216535e-06	0.008374977	0.009042812	-1.924621e-05	1.616992e-05	-0.0007242544	-0.03004338
1e+08	-0.004135955	-0.03241165	-1.479076e-05	1.093631e-05	0.009838038	0.008714428	-1.65031e-05	1.237622e-05
	-1.479076e-05	1.093631e-05	-0.004943252	-0.03205543	-5.42359e-05	4.28541e-05	0.009766544	0.009004766
	0.009838038	0.008714427	-5.42359e-05	4.28541e-05	-0.00293201	-0.03360227	-1.938864e-05	1.698648e-05
	-1.65031e-05	1.237622e-05	0.009766544	0.009004766	-1.938864e-05	1.698648e-05	-0.00502156	-0.0320316
1.1e+08	-0.008641979	-0.03395318	-1.199898e-05	1.300525e-05	0.01118216	0.008477018	-1.335689e-05	1.477827e-05
	-1.199898e-05	1.300525e-05	-0.009436029	-0.03341796	-4.458252e-05	5.036374e-05	0.0111086	0.008736477
	0.01118216	0.008477017	-4.458252e-05	5.036374e-05	-0.007681337	-0.03526643	-1.877907e-05	1.697375e-05
	-1.335689e-05	1.477827e-05	0.0111086	0.008736477	-1.877907e-05	1.697375e-05	-0.00954016	-0.03339446
1.2e+08	-0.01334284	-0.03478503	-9.641825e-06	1.431203e-05	0.01243389	0.0080023	-1.144247e-05	1.570942e-05
	-9.641825e-06	1.431203e-05	-0.01412424	-0.03408425	-3.945639e-05	5.283794e-05	0.01236628	0.008250655
	0.01243389	0.0080023	-3.945639e-05	5.283794e-05	-0.01259332	-0.03615869	-1.785804e-05	1.739019e-05
	-1.144247e-05	1.570942e-05	0.01236628	0.008250655	-1.785804e-05	1.739019e-05	-0.01425148	-0.03405292
1.3e+08	-0.01810891	-0.03488588	-8.972299e-06	1.429964e-05	0.0135646	0.007318227	-1.092095e-05	1.559925e-05
	-8.972299e-06	1.429964e-05	-0.01886539	-0.03402131	-3.725866e-05	5.308287e-05	0.01350474	0.007564929
	0.01356459	0.007318227	-3.725866e-05	5.308287e-05	-0.01755572	-0.03628476	-1.682434e-05	1.795295e-05
	-1.092095e-05	1.559925e-05	0.01350474	0.007564929	-1.682434e-05	1.795295e-05	-0.01901425	-0.03397652
1.4e+08	-0.02281718	-0.03425983	-8.37999e-06	1.428438e-05	0.01454318	0.006451165	-1.031402e-05	1.561952e-05
	-8.37999e-06	1.428438e-05	-0.02353255	-0.033233	-3.475716e-05	5.364284e-05	0.01449281	0.006702813
	0.01454318	0.006451165	-3.475716e-05	5.364284e-05	-0.02244723	-0.0356563	-1.571137e-05	1.854229e-05
	-1.031402e-05	1.561952e-05	0.01449281	0.006702813	-1.571137e-05	1.854229e-05	-0.023701	-0.03316987
1.5e+08	-0.02735025	-0.03293102	-7.736686e-06	1.43269e-05	0.01534249	0.005431239	-9.64583e-06	1.571443e-05
	-7.736686e-06	1.43269e-05	-0.02800614	-0.03174544	-3.20302e-05	5.435367e-05	0.01530383	0.005692608
	0.01534249	0.005431239	-3.20302e-05	5.435367e-05	-0.02715026	-0.03430204	-1.453212e-05	1.913215e-05
	-9.64583e-06	1.571443e-05	0.01530383	0.005692608	-1.453212e-05	1.913215e-05	-0.02819142	-0.03165971
1.6e+08	-0.03159838	-0.03094171	-7.054269e-06	1.439993e-05	0.01594055	0.004292167	-8.929052e-06	1.585181e-05
	-7.054269e-06	1.439993e-05	-0.03217537	-0.02960385	-2.912067e-05	5.511586e-05	0.01591636	0.004566511
	0.01594054	0.004292167	-2.912067e-05	5.511586e-05	-0.03155443	-0.03226779	-1.329932e-05	1.969157e-05
	-8.929052e-06	1.585181e-05	0.01591636	0.004566511	-1.329932e-05	1.969157e-05	-0.03237409	-0.02949201
1.7e+08	-0.03546172	-0.02835044	-6.340194e-06	1.448519e-05	0.01632123	0.003070489	-8.171211e-06	1.600998e-05
	-6.340194e-06	1.448519e-05	-0.03594035	-0.02687027	-2.605751e-05	5.586106e-05	0.01631469	0.003359653
	0.01632123	0.003070489	-2.605751e-05	5.586106e-05	-0.0355592	-0.02961516	-1.202015e-05	2.020639e-05
	-8.171211e-06	1.600998e-05	0.01631469	0.003359653	-1.202015e-05	2.020639e-05	-0.03614859	-0.0267296
1.8e+08	-0.03885231	-0.02523009	-5.599698e-06	1.456962e-05	0.01647474	0.001804619	-7.377525e-06	1.617317e-05
	-5.599698e-06	1.456962e-05	-0.03921394	-0.02362123	-2.286339e-05	5.653909e-05	0.0164892	0.002109093
	0.01647474	0.001804619	-2.286339e-05	5.653909e-05	-0.03907597	-0.02641975	-1.070068e-05	2.066586e-05
	-7.377525e-06	1.617317e-05	0.0164892	0.002109093	-1.070068e-05	2.066586e-05	-0.0394274	-0.02344986
1.9e+08	-0.04169575	-0.02166564	-4.836925e-06	1.464339e-05	0.01639775	0.0005338705	-6.552156e-06	1.632928e-05
	-4.836925e-06	1.464339e-05	-0.04192346	-0.01994533	-1.955844e-05	5.711138e-05	0.01643655	0.0008527799
	0.01639775	0.0005338704	-1.955844e-05	5.711138e-05	-0.04202993	-0.02276913	-9.346598e-06	2.10615e-05
	-6.552156e-06	1.632928e-05	0.01643655	0.0008527799	-9.346598e-06	2.10615e-05	-0.04213768	-0.01974227
2e+08	-0.04393364	-0.01775117	-4.055632e-06	1.469654e-05	0.01609524	-0.0007334221	-5.698774e-06	1.64678e-05
	-4.055632e-06	1.469654e-05	-0.04401212	-0.01594076	-1.616193e-05	5.7547e-05	0.01615968	-0.0003714781
	0.01609524	-0.0007334221	-1.616193e-05	5.7547e-05	-0.04436238	-0.01875979	-7.963615e-06	2.138573e-05
	-5.698774e-06	1.64678e-05	0.01615968	-0.0003714781	-7.963615e-06	2.138573e-05	-0.04422256	-0.01570587
2.1e+08	-0.04552176	-0.01358923	-3.259236e-06	1.472532e-05	0.01557074	-0.001927219	-4.821028e-06	1.658179e-05
	-3.259236e-06	1.472532e-05	-0.04543997	-0.01171256	-1.269306e-05	5.782234e-05	0.01566768	-0.001527029
	0.01557074	-0.001927219	-1.269306e-05	5.782234e-05	-0.04602903	-0.01449655	-6.557651e-06	2.163356e-05
	-4.821028e-06	1.658179e-05	0.01566768	-0.001527029	-6.557651e-06	2.163356e-05	-0.04564219	-0.01144655
2.2e+08	-0.04643368	-0.00928667	-2.450906e-06	1.472491e-05	0.01484048	-0.00300975	-3.922447e-06	1.666478e-05
	-2.450906e-06	1.472491e-05	-0.0461846	-0.007369912	-9.171259e-06	5.791825e-05	0.01497546	-0.002579341
	0.01484048	-0.00300975	-9.171259e-06	5.791825e-05	-0.04700357	-0.01008844	-5.134814e-06	2.180041e-05
	-3.922447e-06	1.666478e-05	0.01497546	-0.002579341	-5.134814e-06	2.180041e-05	-0.0463744	-0.007074271
2.3e+08	-0.04666028	-0.004952359	-1.633794e-06	1.469122e-05	0.01392656	-0.00394851	-3.00664e-06	1.671133e-05
	-1.633794e-06	1.469122e-05	-0.04624132	-0.003023362	-5.616314e-06	5.781976e-05	0.01410334	-0.003496896
	0.01392656	-0.003948511	-5.616314e-06	5.781976e-05	-0.04727718	-0.00564638	-3.701487e-06	2.188256e-05
	-3.00664e-06	1.671133e-05	0.01410334	-0.003496896	-3.701487e-06	2.188256e-05	-0.04641485	-0.002700297
2.4e+08	-0.04620966	-0.0006945433	-8.111609e-07	1.462091e-05	0.012856	-0.00471517	-2.077436e-06	1.671692e-05
	-8.111609e-07	1.462091e-05	-0.04562302	0.001217971	-2.048523e-06	5.751577e-05	0.01307645	-0.004252003
	0.012856	-0.00471517	-2.048523e-06	5.751577e-05	-0.04685841	-0.00128054	-2.264334e-06	2.187722e-05
	-2.077436e-06	1.671692e-05	0.01307645	-0.004252003	-2.264334e-06	2.187722e-05	-0.04577689	0.001565606
2.5e+08	-0.04510667	0.003381776	1.367732e-08	1.451128e-05	0.01166005	-0.005286291	-1.1388e-06	1.66778e-05
	1.367732e-08	1.451128e-05	-0.04435961	0.005249063	1.511707e-06	5.699852e-05	0.01192404	-0.004821504
	0.01166005	-0.005286291	1.511707e-06	5.699852e-05	-0.04577279	0.002902268	-8.302333e-07	2.178242e-05
	-1.1388e-06	1.66778e-05	0.01192404	-0.004821504	-8.302333e-07	2.178242e-05	-0.04449101	0.005617862
2.6e+08	-0.04339219	0.007177351	8.371827e-07	1.436005e-05	0.01037333	-0.005643931	-1.94884e-07	1.659095e-05
	8.371827e-07	1.436005e-05	-0.04249708	0.008971592	5.0431e-06	5.626171e-05	0.01067871	-0.005187364
	0.01037333	-0.005643931	5.0431e-06	5.626171e-05	-0.04406199	0.00680113	5.9377e-07	2.159706e-05
	-1.94884e-07	1.659095e-05	0.01067871	-0.005187364	5.9377e-07	2.159706e-05	-0.04260378	0.00935766
2.7e+08	-0.04112191	0.01060105	1.655934e-06	1.416571e-05	0.009032888	-0.005776105	7.500283e-07	1.6454e-05
	1.655934e-06	1.416571e-05	-0.04009607	0.0122962	8.525844e-06	5.530529e-05	0.009375521	-0.005337136
	0.009032888	-0.005776105	8.525844e-06	5.530529e-05	-0.04178264	0.01032338	2.000539e-06	2.132077e-05
	7.500283e-07	1.6454e-05	0.009375521	-0.005337136	2.000539e-06	2.132077e-05	-0.0401766	0.01269533
2.8e+08	-0.03836483	0.01357203	2.466358e-06	1.392718e-05	0.007677197	-0.005677098	1.691528e-06	1.626525e-05
	2.466358e-06	1.392718e-05	-0.03723033	0.01514472	1.194019e-05	5.41306e-05	0.008051103	-0.00526428
	0.007677197	-0.005677098	1.194019e-05	5.41306e-05	-0.03900484	0.01338678	3.38291e-06	2.095407e-05
	1.691528e-06	1.626525e-05	0.008051103	-0.00526428	3.38291e-06	2.095407e-05	-0.03728394	0.01555252
2.9e+08	-0.03520151	0.0160216	3.264814e-06	1.364379e-05	0.00634516	-0.005347618	2.625144e-06	1.602361e-05
	3.264814e-06	1.364379e-05	-0.03398469	0.01745203	1.526691e-05	5.274111e-05	0.006742648	-0.004968341
	0.00634516	-0.005347618	1.526691e-05	5.274111e-05	-0.03581034	0.01592144	4.733781e-06	2.049823e-05
	2.625144e-06	1.602361e-05	0.006742648	-0.004968341	4.733781e-06	2.049823e-05	-0.03401143	0.017864
3e+08	-0.03172195	0.01789482	4.047641e-06	1.331531e-05	0.005075045	-0.004794786	3.546382e-06	1.572852e-05
	4.047641e-06	1.331531e-05	-0.03045286	0.01916754	1.848757e-05	5.114249e-05	0.005486946	-0.004454972
	0.005075045	-0.004794786	1.848757e-05	5.114249e-05	-0.03229048	0.01787138	6.046192e-06	1.995525e-05
	3.546382e-06	1.572852e-05	0.005486946	-0.004454972	6.046192e-06	1.995525e-05	-0.03045355	0.01957924
3.1e+08	-0.02802331	0.01915182	4.811192e-06	1.294199e-05	0.003903449	-0.004031966	4.450787e-06	1.538006e-05
	4.811192e-06	1.294199e-05	-0.02673502	0.02025641	2.158478e-05	4.934258e-05	0.004319392	-0.003735803
	0.003903449	-0.004031966	2.158478e-05	4.934258e-05	-0.02854384	0.01919584	7.313417e-06	1.932793e-05
	4.450787e-06	1.538006e-05	0.004319392	-0.003735803	7.313417e-06	1.932793e-05	-0.02671123	0.02066356
3.2e+08	-0.02420753	0.01976863	5.551862e-06	1.252446e-05	0.002864302	-0.003078425	5.333981e-06	1.497879e-05
	5.551862e-06	1.252446e-05	-0.0229352	0.02070024	2.454226e-05	4.735098e-05	0.003273033	-0.002828154
	0.002864302	-0.003078425	2.454226e-05	4.735098e-05	-0.02467381	0.01987019	8.529029e-06	1.861967e-05
	5.333981e-06	1.497879e-05	0.003273033	-0.002828154	8.529029e-06	1.861967e-05	-0.02288924	0.02109888
3.3e+08	-0.02037869	0.01973771	6.266123e-06	1.206375e-05	0.001987924	-0.00195884	6.191712e-06	1.452576e-05
	6.266123e-06	1.206375e-05	-0.01915867	0.02049752	2.734507e-05	4.517885e-05	0.00237766	-0.001754596
	0.001987924	-0.00195884	2.734507e-05	4.517885e-05	-0.020786	0.01988642	9.686958e-06	1.783452e-05
	6.191712e-06	1.452576e-05	0.00237766	-0.001754596	9.686958e-06	1.783452e-05	-0.01909351	0.0208841
3.4e+08	-0.01664043	0.01906808	6.950574e-06	1.15613e-05	0.001300161	-0.0007026497	7.019922e-06	1.402252e-05
	6.950574e-06	1.15613e-05	-0.0155092	0.01966351	2.99797e-05	4.283886e-05	0.001658975	-0.0005423662
	0.001300161	-0.0007026497	2.99797e-05	4.283886e-05	-0.01698562	0.01925328	1.078159e-05	1.697711e-05
	7.019922e-06	1.402252e-05	0.001658975	-0.0005423663	1.078159e-05	1.697711e-05	-0.01542843	0.02003502
3.5e+08	-0.01309337	0.01778499	7.601957e-06	1.101888e-05	0.000821648	0.0006567299	7.814762e-06	1.347101e-05
	7.601957e-06	1.101888e-05	-0.01208649	0.01822978	3.243412e-05	4.034478e-05	0.001137858	0.0007773491
	0.000821648	0.0006567299	3.243412e-05	4.034478e-05	-0.01337484	0.01799594	1.180776e-05	1.605255e-05
	7.814762e-06	1.347101e-05	0.001137858	0.0007773491	1.180776e-05	1.605255e-05	-0.01199418	0.01858384
3.6e+08	-0.009832589	0.01592922	8.217205e-06	1.04386e-05	0.0005671849	0.002082809	8.572659e-06	1.287356e-05
	8.217205e-06	1.04386e-05	-0.008983575	0.0162433	3.469792e-05	3.771135e-05	0.0008297603	0.002170249
	0.0005671849	0.002082809	3.469792e-05	3.771135e-05	-0.01005027	0.01615533	1.276088e-05	1.50664e-05
	8.572659e-06	1.287356e-05	0.0008297603	0.002170249	1.276088e-05	1.50664e-05	-0.008884202	0.01657826
3.7e+08	-0.006945263	0.01355597	8.793461e-06	9.822873e-06	0.0005452801	0.003537028	9.290325e-06	1.223282e-05
	8.793461e-06	9.822873e-06	-0.006284507	0.01376519	3.676229e-05	3.495405e-05	0.0007442286	0.003599855
	0.0005452802	0.003537028	3.676229e-05	3.495405e-05	-0.007100567	0.01378699	1.363687e-05	1.402456e-05
	9.290325e-06	1.223282e-05	0.0007442286	0.003599855	1.363687e-05	1.402456e-05	-0.006182804	0.01408015
3.8e+08	-0.00450847	0.01073346	9.328108e-06	9.174394e-06	0.0007578591	0.004979835	9.964785e-06	1.155172e-05
	9.328108e-06	9.174394e-06	-0.004062221	0.01086901	3.862001e-05	3.208884e-05	0.0008846016	0.005028517
	0.0007578591	0.004979835	3.862001e-05	3.208884e-05	-0.004604212	0.01095968	1.443226e-05	1.293323e-05
	9.964785e-06	1.155172e-05	0.0008846016	0.005028517	1.443226e-05	1.293323e-05	-0.003963057	0.01116392
3.9e+08	-0.0025873	0.007541077	9.818795e-06	8.496086e-06	0.001200159	0.006371804	1.05934e-05	1.083341e-05
	9.818795e-06	8.496086e-06	-0.00237671	0.007638883	4.026549e-05	2.9132e-05	0.001247871	0.00641847
	0.001200159	0.006371804	4.026549e-05	2.9132e-05	-0.002627601	0.007753491	1.514417e-05	1.179882e-05
	1.05934e-05	1.083341e-05	0.001247871	0.00641847	1.514417e-05	1.179882e-05	-0.002284952	0.007914518
4e+08	-0.001233246	0.004067349	1.026345e-05	7.79108e-06	0.001860817	0.007674769	1.117386e-05	1.008122e-05
	1.026345e-05	7.79108e-06	-0.001273539	0.00416718	4.169466e-05	2.609993e-05	0.001824728	0.007732908
	0.001860817	0.007674769	4.169466e-05	2.609993e-05	-0.001223399	0.004257848	1.57703e-05	1.06279e-05
	1.117386e-05	1.008122e-05	0.001824728	0.007732908	1.57703e-05	1.06279e-05	-0.0011939	0.00442515
4.1e+08	-0.0004829482	0.0004076536	1.06603e-05	7.062682e-06	0.002722149	0.00885293	1.170421e-05	9.298627e-06
	1.06603e-05	7.062682e-06	-0.0007827351	0.0005521393	4.290497e-05	2.300898e-05	0.002599793	0.008937039
	0.002722149	0.00885293	4.290497e-05	2.300898e-05	-0.0004292785	0.0005691565	1.630894e-05	9.427106e-06
	1.170421e-05	9.298627e-06	0.002599793	0.008937039	1.630894e-05	9.427106e-06	-0.0007196367	0.0007948632
4.2e+08	-0.0003573365	-0.00333825	1.100789e-05	6.314331e-06	0.003760623	0.009873908	1.218283e-05	8.489159e-06
	1.100789e-05	6.314331e-06	-0.0009180932	-0.003104736	4.389528e-05	1.98753e-05	0.003552023	0.009999093
	0.003760623	0.009873908	4.389528e-05	1.98753e-05	-0.0002670257	-0.003211666	1.675898e-05	8.203114e-06
	1.218283e-05	8.489159e-06	0.003552023	0.009999093	1.675898e-05	8.203114e-06	-0.0008755303	-0.002874089
4.3e+08	-0.0008611584	-0.00706878	1.130508e-05	5.549558e-06	0.004947506	0.0107097	1.260844e-05	7.656406e-06
	1.130508e-05	5.549558e-06	-0.001676904	-0.006701334	4.466575e-05	1.67147e-05	0.004655297	0.01089125
	0.004947506	0.0107097	4.466575e-05	1.67147e-05	-0.0007420644	-0.006981781	1.711985e-05	6.962554e-06
	1.260844e-05	7.656406e-06	0.004655297	0.01089125	1.711985e-05	6.962554e-06	-0.001658315	-0.006478916
4.4e+08	-0.001982942	-0.01068313	1.155106e-05	4.771952e-06	0.006249676	0.01133752	1.298002e-05	6.803951e-06
	1.155106e-05	4.771952e-06	-0.003040119	-0.01013758	4.521768e-05	1.354255e-05	0.005879153	0.01159045
	0.006249676	0.01133752	4.521768e-05	1.354255e-05	-0.0018434	-0.01063905	1.739152e-05	5.711966e-06
	1.298002e-05	6.803951e-06	0.005879153	0.01159045	1.739152e-05	5.711966e-06	-0.003048275	-0.009918966
4.5e+08	-0.003695362	-0.01408384	1.17453e-05	3.985124e-06	0.007630569	0.01174048	1.329688e-05	5.935354e-06
	1.17453e-05	3.985124e-06	-0.004972933	-0.01331803	4.555349e-05	1.037371e-05	0.007189651	0.01207907
	0.007630569	0.01174048	4.555349e-05	1.037371e-05	-0.003543982	-0.01408464	1.757446e-05	4.457767e-06
	1.329688e-05	5.935354e-06	0.007189651	0.01207907	1.757446e-05	4.457767e-06	-0.005009844	-0.01309834
4.6e+08	-0.00595602	-0.01717924	1.188761e-05	3.192669e-06	0.009051231	0.01190812	1.355844e-05	5.054124e-06
	1.188761e-05	3.192669e-06	-0.007425795	-0.01615432	4.567645e-05	7.222455e-06	0.008550352	0.01234545
	0.009051231	0.01190812	4.567645e-05	7.222455e-06	-0.00580147	-0.01722552	1.766912e-05	3.206221e-06
	1.355844e-05	5.054124e-06	0.008550352	0.01234545	1.766912e-05	3.206221e-06	-0.007492611	-0.01592836
4.7e+08	-0.008708598	-0.01988579	1.197807e-05	2.398143e-06	0.01047145	0.01183668	1.376461e-05	4.163708e-06
	1.197807e-05	2.398143e-06	-0.01033576	-0.01856741	4.559057e-05	4.102549e-06	0.009923368	0.01238422
	0.01047145	0.01183668	4.559057e-05	4.102549e-06	-0.008559406	-0.01997678	1.767695e-05	1.963481e-06
	1.376461e-05	4.163708e-06	0.009923368	0.01238422	1.767695e-05	1.963481e-06	-0.01043277	-0.01832979
