!$
! Info: Touchstone file created by Circ.  Input file=Tx_8in_Rx_93ohms_TxVia_35mils_RxVia_45mils.circ
!$
# Hz S RI R 50
0	0.007421794	1.116164e-25	-1.640741e-12	3.075683e-28	6.355392e-05	1.39122e-23	-6.38554e-13	1.584721e-28
	-1.640743e-12	3.075684e-28	0.007418349	1.294575e-25	1.267147e-12	5.000792e-28	6.21979e-05	1.674759e-23
	6.40777e-05	1.409331e-23	1.26715e-12	5.000788e-28	0.007429936	1.089551e-25	-8.301913e-13	3.275869e-28
	-6.385545e-13	1.584723e-28	6.035033e-05	1.683014e-23	-8.301916e-13	3.275872e-28	0.007431496	1.212875e-25
1e+07	0.01024388	-0.00039005	8.960545e-12	4.659708e-12	0.0002386229	0.001451628	1.068432e-11	9.225373e-12
	8.960546e-12	4.659708e-12	0.01084161	-0.0004832419	9.082521e-12	2.859741e-12	0.0002453262	0.001571375
	0.0002386468	0.001451629	9.082521e-12	2.859741e-12	0.01102122	-9.29039e-06	7.681249e-12	3.804664e-12
	1.068432e-11	9.225373e-12	0.000245266	0.001571385	7.681248e-12	3.804664e-12	0.01063387	-0.0004861826
2e+07	0.01237184	-0.003287862	1.183912e-11	2.451079e-12	0.0006560486	0.002908675	9.141502e-12	1.729976e-11
	1.183912e-11	2.451079e-12	0.01273237	-0.00365308	1.070824e-11	1.046063e-12	0.0005801212	0.003130149
	0.0006560565	0.00290866	1.070824e-11	1.046063e-12	0.01339622	-0.002968486	8.915143e-12	1.720784e-12
	9.141502e-12	1.729976e-11	0.0005801128	0.003130184	8.915143e-12	1.720785e-12	0.01257432	-0.003582942
3e+07	0.01318335	-0.007324396	1.042222e-11	-2.20334e-12	0.001295878	0.004269326	6.480974e-12	2.358918e-11
	1.042222e-11	-2.20334e-12	0.0133371	-0.007761104	1.106129e-11	-3.084628e-12	0.001205664	0.004536019
	0.001295878	0.004269323	1.106129e-11	-3.084628e-12	0.01438791	-0.007115758	6.410392e-12	-2.92356e-12
	6.480974e-12	2.358918e-11	0.001205664	0.004536024	6.410392e-12	-2.92356e-12	0.01321533	-0.007673696
4e+07	0.01296304	-0.01166454	4.047166e-12	-7.444611e-12	0.002141873	0.00549964	5.089135e-13	3.03199e-11
	4.047165e-12	-7.444611e-12	0.01292388	-0.01210482	8.149169e-12	-8.000998e-12	0.002078112	0.005785085
	0.002141875	0.005499641	8.14917e-12	-8.000998e-12	0.01429872	-0.01160656	-1.851397e-12	-8.086686e-12
	5.089133e-13	3.03199e-11	0.002078106	0.005785083	-1.851397e-12	-8.086686e-12	0.01282976	-0.01201485
5e+07	0.01183363	-0.01601583	-7.532351e-12	-1.133121e-11	0.003168848	0.006566614	-8.569851e-12	3.889253e-11
	-7.532352e-12	-1.133121e-11	0.01161387	-0.01641155	1.641197e-12	-1.264848e-11	0.003123403	0.006861459
	0.00316885	0.006566615	1.641197e-12	-1.264848e-11	0.01325668	-0.01613601	-1.582539e-11	-1.132102e-11
	-8.569851e-12	3.889253e-11	0.003123399	0.006861458	-1.582539e-11	-1.132102e-11	0.0115398	-0.01632673
6e+07	0.009887944	-0.02018382	-2.401394e-11	-1.197007e-11	0.004346103	0.007442651	-2.01534e-11	5.044954e-11
	-2.401394e-11	-1.197007e-11	0.009502199	-0.02049488	-8.186253e-12	-1.621282e-11	0.004311398	0.00774176
	0.004346101	0.007442651	-8.186253e-12	-1.621282e-11	0.01135639	-0.02050067	-3.491193e-11	-1.069572e-11
	-2.01534e-11	5.044954e-11	0.0043114	0.007741759	-3.491193e-11	-1.069573e-11	0.009441057	-0.02041966
7e+07	0.007216669	-0.0240181	-4.461597e-11	-7.575176e-12	0.005638938	0.008106151	-3.337443e-11	6.591784e-11
	-4.461596e-11	-7.575175e-12	0.006683241	-0.02420932	-2.12655e-11	-1.75843e-11	0.005607824	0.008406846
	0.005638932	0.008106152	-2.12655e-11	-1.75843e-11	0.008689043	-0.02454312	-5.811087e-11	-4.391422e-12
	-3.337443e-11	6.591784e-11	0.005607832	0.008406843	-5.811087e-11	-4.391423e-12	0.006628192	-0.02414609
8e+07	0.003916615	-0.02739693	-6.811541e-11	3.539314e-12	0.00700991	0.008542108	-4.710966e-11	8.582113e-11
	-6.81154e-11	3.539318e-12	0.003258264	-0.02743673	-3.718634e-11	-1.571726e-11	0.006975407	0.008843044
	0.007009903	0.008542111	-3.718634e-11	-1.571726e-11	0.005350947	-0.02813625	-8.39137e-11	9.128565e-12
	-4.710966e-11	8.582112e-11	0.006975417	0.008843038	-8.39137e-11	9.128563e-12	0.003202681	-0.02738641
9e+07	9.319284e-05	-0.03022166	-9.286539e-11	2.3108e-11	0.00842053	0.008742994	-6.017495e-11	1.090409e-10
	-9.286538e-11	2.3108e-11	-0.0006615347	-0.03008088	-5.434297e-11	-1.059068e-11	0.00837497	0.009042818
	0.008420524	0.008742997	-5.434298e-11	-1.059068e-11	0.001444809	-0.03117858	-1.101484e-10	3.032601e-11
	-6.017495e-11	1.090409e-10	0.008374977	0.009042812	-1.101484e-10	3.0326e-11	-0.0007242544	-0.03004338
1e+08	-0.004135955	-0.03241165	-1.168066e-10	5.491576e-11	0.009838038	0.008714428	-7.184256e-11	1.374348e-10
	-1.168066e-10	5.491576e-11	-0.004943252	-0.03205543	-7.37721e-11	1.182551e-15	0.009766544	0.009004766
	0.009838038	0.008714427	-7.37721e-11	1.182585e-15	-0.00293201	-0.03360227	-1.350336e-10	6.307319e-11
	-7.184256e-11	1.374348e-10	0.009766544	0.009004766	-1.350336e-10	6.307319e-11	-0.00502156	-0.0320316
1.1e+08	-0.008641979	-0.03395318	-1.242173e-10	9.301652e-11	0.01118216	0.008477018	-7.532168e-11	1.683411e-10
	-1.242173e-10	9.301652e-11	-0.009436029	-0.03341796	-8.341897e-11	1.720949e-11	0.0111086	0.008736477
	0.01118216	0.008477017	-8.341897e-11	1.720949e-11	-0.007681337	-0.03526643	-1.433385e-10	1.024455e-10
	-7.532168e-11	1.683411e-10	0.0111086	0.008736477	-1.433385e-10	1.024455e-10	-0.00954016	-0.03339446
1.2e+08	-0.01334284	-0.03478503	-1.272808e-10	1.229575e-10	0.01243389	0.0080023	-7.545348e-11	1.991539e-10
	-1.272808e-10	1.229575e-10	-0.01412424	-0.03408425	-9.082506e-11	3.075295e-11	0.01236628	0.008250655
	0.01243389	0.0080023	-9.082506e-11	3.075295e-11	-0.01259332	-0.03615869	-1.474207e-10	1.345364e-10
	-7.545348e-11	1.991539e-10	0.01236628	0.008250655	-1.474207e-10	1.345364e-10	-0.01425148	-0.03405292
1.3e+08	-0.01810891	-0.03488588	-1.283393e-10	1.458595e-10	0.0135646	0.007318227	-7.411661e-11	2.269917e-10
	-1.283393e-10	1.458595e-10	-0.01886539	-0.03402131	-9.647866e-11	4.013129e-11	0.01350474	0.007564929
	0.01356459	0.007318227	-9.647866e-11	4.013129e-11	-0.01755572	-0.03628476	-1.493459e-10	1.614254e-10
	-7.411661e-11	2.269917e-10	0.01350474	0.007564929	-1.493459e-10	1.614254e-10	-0.01901425	-0.03397652
1.4e+08	-0.02281718	-0.03425983	-1.266245e-10	1.703692e-10	0.01454318	0.006451165	-7.023686e-11	2.556802e-10
	-1.266245e-10	1.703692e-10	-0.02353255	-0.033233	-1.017399e-10	5.105112e-11	0.01449281	0.006702813
	0.01454318	0.006451165	-1.017399e-10	5.105112e-11	-0.02244723	-0.0356563	-1.479386e-10	1.902811e-10
	-7.023686e-11	2.556802e-10	0.01449281	0.006702813	-1.479386e-10	1.902811e-10	-0.023701	-0.03316987
1.5e+08	-0.02735025	-0.03293102	-1.217788e-10	1.960365e-10	0.01534249	0.005431239	-6.339871e-11	2.849364e-10
	-1.217788e-10	1.960365e-10	-0.02800614	-0.03174544	-1.064398e-10	6.35436e-11	0.01530383	0.005692608
	0.01534249	0.005431239	-1.064398e-10	6.35436e-11	-0.02715026	-0.03430204	-1.427061e-10	2.200429e-10
	-6.339871e-11	2.849364e-10	0.01530383	0.005692608	-1.427061e-10	2.200429e-10	-0.02819142	-0.03165971
1.6e+08	-0.03159838	-0.03094171	-1.135333e-10	2.221916e-10	0.01594054	0.004292167	-5.343051e-11	3.142468e-10
	-1.135333e-10	2.221916e-10	-0.03217537	-0.02960385	-1.102923e-10	7.745344e-11	0.01591636	0.004566511
	0.01594054	0.004292167	-1.102923e-10	7.745344e-11	-0.03155443	-0.03226779	-1.335273e-10	2.503433e-10
	-5.343051e-11	3.142468e-10	0.01591636	0.004566511	-1.335273e-10	2.503433e-10	-0.03237409	-0.02949201
1.7e+08	-0.03546172	-0.02835044	-1.01736e-10	2.481584e-10	0.01632123	0.003070489	-4.025956e-11	3.430204e-10
	-1.01736e-10	2.481584e-10	-0.03594035	-0.02687027	-1.130554e-10	9.262167e-11	0.01631469	0.003359653
	0.01632123	0.003070489	-1.130554e-10	9.262167e-11	-0.0355592	-0.02961516	-1.202367e-10	2.804024e-10
	-4.025956e-11	3.430204e-10	0.01631469	0.003359653	-1.202367e-10	2.804024e-10	-0.03614859	-0.0267296
1.8e+08	-0.03885231	-0.02523009	-8.63524e-11	2.732526e-10	0.01647474	0.001804619	-2.391818e-11	3.706615e-10
	-8.63524e-11	2.732526e-10	-0.03921394	-0.02362123	-1.14505e-10	1.088682e-10	0.0164892	0.002109093
	0.01647474	0.001804619	-1.14505e-10	1.088682e-10	-0.03907597	-0.02641975	-1.028042e-10	3.094313e-10
	-2.391818e-11	3.706615e-10	0.0164892	0.002109093	-1.028042e-10	3.094313e-10	-0.0394274	-0.02344986
1.9e+08	-0.04169575	-0.02166564	-6.746827e-11	2.967915e-10	0.01639775	0.0005338705	-4.545451e-12	3.965825e-10
	-6.746827e-11	2.967915e-10	-0.04192346	-0.01994533	-1.144371e-10	1.259828e-10	0.01643655	0.0008527799
	0.01639775	0.0005338704	-1.144371e-10	1.259828e-10	-0.04202993	-0.02276913	-8.133854e-11	3.366433e-10
	-4.545451e-12	3.965825e-10	0.01643655	0.0008527799	-8.133854e-11	3.366433e-10	-0.04213768	-0.01974227
2e+08	-0.04393364	-0.01775117	-4.528933e-11	3.181025e-10	0.01609524	-0.0007334221	1.760611e-11	4.202104e-10
	-4.528933e-11	3.181025e-10	-0.04401212	-0.01594076	-1.126692e-10	1.437101e-10	0.01615968	-0.0003714781
	0.01609524	-0.0007334221	-1.126692e-10	1.437101e-10	-0.04436238	-0.01875979	-5.609301e-11	3.612668e-10
	1.760611e-11	4.202104e-10	0.01615968	-0.0003714781	-5.609301e-11	3.612668e-10	-0.04422256	-0.01570587
2.1e+08	-0.04552176	-0.01358923	-2.014401e-11	3.365626e-10	0.01557074	-0.001927219	4.219302e-11	4.410358e-10
	-2.014401e-11	3.365626e-10	-0.04543997	-0.01171256	-1.09064e-10	1.617809e-10	0.01566768	-0.001527029
	0.01557074	-0.001927219	-1.09064e-10	1.617809e-10	-0.04602903	-0.01449655	-2.744927e-11	3.825854e-10
	4.219302e-11	4.410358e-10	0.01566768	-0.001527029	-2.744927e-11	3.825854e-10	-0.04564219	-0.01144655
2.2e+08	-0.04643368	-0.00928667	7.529077e-12	3.515984e-10	0.01484048	-0.00300975	6.877528e-11	4.585976e-10
	7.529077e-12	3.515984e-10	-0.0461846	-0.007369912	-1.035203e-10	1.798856e-10	0.01497546	-0.002579341
	0.01484048	-0.00300975	-1.035203e-10	1.798856e-10	-0.04700357	-0.01008844	4.077522e-12	3.999422e-10
	6.877528e-11	4.585976e-10	0.01497546	-0.002579341	4.077522e-12	3.999422e-10	-0.0463744	-0.007074271
2.3e+08	-0.04666028	-0.004952359	3.718699e-11	3.627097e-10	0.01392656	-0.00394851	9.682646e-11	4.725098e-10
	3.718699e-11	3.627097e-10	-0.04624132	-0.003023362	-9.598802e-11	1.976878e-10	0.01410334	-0.003496896
	0.01392656	-0.003948511	-9.598802e-11	1.976878e-10	-0.04727718	-0.00564638	3.785204e-11	4.127665e-10
	9.682646e-11	4.725098e-10	0.01410334	-0.003496896	3.785204e-11	4.127665e-10	-0.04641485	-0.002700297
2.4e+08	-0.04620966	-0.0006945433	6.819432e-11	3.694883e-10	0.012856	-0.00471517	1.257479e-10	4.824769e-10
	6.819432e-11	3.694883e-10	-0.04562302	0.001217971	-8.64765e-11	2.148328e-10	0.01307645	-0.004252003
	0.012856	-0.00471517	-8.64765e-11	2.148328e-10	-0.04685841	-0.00128054	7.313266e-11	4.205962e-10
	1.257479e-10	4.824769e-10	0.01307645	-0.004252003	7.313266e-11	4.205962e-10	-0.04577689	0.001565606
2.5e+08	-0.04510667	0.003381776	9.983931e-11	3.716336e-10	0.01166005	-0.005286291	1.548849e-10	4.883061e-10
	9.983931e-11	3.716336e-10	-0.04435961	0.005249063	-7.50605e-11	2.309594e-10	0.01192404	-0.004821504
	0.01166005	-0.005286291	-7.50605e-11	2.309594e-10	-0.04577279	0.002902268	1.090906e-10	4.230957e-10
	1.548849e-10	4.883061e-10	0.01192404	-0.004821504	1.090906e-10	4.230957e-10	-0.04449101	0.005617862
2.6e+08	-0.04339219	0.007177351	1.31423e-10	3.690121e-10	0.01037333	-0.005643931	1.835437e-10	4.899171e-10
	1.31423e-10	3.690121e-10	-0.04249708	0.008971592	-6.19081e-11	2.457658e-10	0.01067871	-0.005187364
	0.01037333	-0.005643931	-6.19081e-11	2.457658e-10	-0.04406199	0.00680113	1.448287e-10	4.200689e-10
	1.835437e-10	4.899171e-10	0.01067871	-0.005187364	1.448287e-10	4.200689e-10	-0.04260378	0.00935766
2.7e+08	-0.04112191	0.01060105	1.620973e-10	3.615091e-10	0.009032888	-0.005776105	2.110129e-10	4.87351e-10
	1.620973e-10	3.615091e-10	-0.04009607	0.0122962	-4.719286e-11	2.58857e-10	0.009375521	-0.005337136
	0.009032888	-0.005776105	-4.719286e-11	2.58857e-10	-0.04178264	0.01032338	1.794125e-10	4.114812e-10
	2.110129e-10	4.87351e-10	0.009375521	-0.005337136	1.794125e-10	4.114812e-10	-0.0401766	0.01269533
2.8e+08	-0.03836483	0.01357203	1.910211e-10	3.492002e-10	0.007677197	-0.005677098	2.365833e-10	4.807715e-10
	1.910211e-10	3.492002e-10	-0.03723033	0.01514472	-3.11959e-11	2.699197e-10	0.008051103	-0.00526428
	0.007677197	-0.005677098	-3.11959e-11	2.699197e-10	-0.03900484	0.01338678	2.118932e-10	3.974582e-10
	2.365833e-10	4.807715e-10	0.008051103	-0.00526428	2.118932e-10	3.974582e-10	-0.03728394	0.01555252
2.9e+08	-0.03520151	0.0160216	2.173707e-10	3.32315e-10	0.00634516	-0.005347618	2.595693e-10	4.704649e-10
	2.173707e-10	3.32315e-10	-0.03398469	0.01745203	-1.426528e-11	2.787031e-10	0.006742648	-0.004968341
	0.00634516	-0.005347618	-1.426528e-11	2.787031e-10	-0.03581034	0.01592144	2.41336e-10	3.782902e-10
	2.595693e-10	4.704649e-10	0.006742648	-0.004968341	2.41336e-10	3.782902e-10	-0.03401143	0.017864
3e+08	-0.03172195	0.01789482	2.403544e-10	3.112261e-10	0.005075045	-0.004794786	2.793302e-10	4.568356e-10
	2.403544e-10	3.112261e-10	-0.03045286	0.01916754	3.200762e-12	2.850222e-10	0.005486946	-0.004454972
	0.005075045	-0.004794786	3.200762e-12	2.850222e-10	-0.03229048	0.01787138	2.668499e-10	3.544306e-10
	2.793302e-10	4.568356e-10	0.005486946	-0.004454972	2.668499e-10	3.544306e-10	-0.03045355	0.01957924
3.1e+08	-0.02802331	0.01915182	2.592386e-10	2.864453e-10	0.003903449	-0.004031965	2.952906e-10	4.403994e-10
	2.592386e-10	2.864453e-10	-0.02673502	0.02025641	2.076791e-11	2.887686e-10	0.004319392	-0.003735803
	0.003903449	-0.004031966	2.076791e-11	2.887686e-10	-0.02854384	0.01919584	2.876168e-10	3.264897e-10
	2.952906e-10	4.403994e-10	0.004319392	-0.003735803	2.876168e-10	3.264897e-10	-0.02671123	0.02066356
3.2e+08	-0.02420753	0.01976863	2.733712e-10	2.586131e-10	0.002864302	-0.003078425	3.069591e-10	4.217717e-10
	2.733712e-10	2.586131e-10	-0.0229352	0.02070024	3.79822e-11	2.899167e-10	0.003273033	-0.002828154
	0.002864302	-0.003078425	3.79822e-11	2.899167e-10	-0.02467381	0.01987019	3.029188e-10	2.952211e-10
	3.069591e-10	4.217717e-10	0.003273033	-0.002828154	3.029188e-10	2.952211e-10	-0.02288924	0.02109888
3.3e+08	-0.02037869	0.01973771	2.822052e-10	2.284857e-10	0.001987924	-0.00195884	3.139453e-10	4.016531e-10
	2.822052e-10	2.284857e-10	-0.01915867	0.02049752	5.438769e-11	2.885276e-10	0.00237766	-0.001754596
	0.001987924	-0.00195884	5.438769e-11	2.885276e-10	-0.020786	0.01988642	3.121633e-10	2.615048e-10
	3.139453e-10	4.016531e-10	0.00237766	-0.001754596	3.121633e-10	2.615048e-10	-0.01909351	0.0208841
3.4e+08	-0.01664043	0.01906808	2.853192e-10	1.969163e-10	0.001300161	-0.0007026497	3.159744e-10	3.808128e-10
	2.853192e-10	1.969163e-10	-0.0155092	0.01966351	6.954443e-11	2.847468e-10	0.001658975	-0.0005423662
	0.001300161	-0.0007026497	6.954443e-11	2.847468e-10	-0.01698562	0.01925328	3.149065e-10	2.263249e-10
	3.159744e-10	3.808128e-10	0.001658975	-0.0005423663	3.149065e-10	2.263249e-10	-0.01542843	0.02003502
3.5e+08	-0.01309337	0.01778499	2.824346e-10	1.648338e-10	0.000821648	0.0006567299	3.128985e-10	3.600687e-10
	2.824346e-10	1.648338e-10	-0.01208649	0.01822978	8.30452e-11	2.787995e-10	0.001137858	0.0007773491
	0.000821648	0.0006567299	8.30452e-11	2.787995e-10	-0.01337484	0.01799594	3.1087e-10	1.90744e-10
	3.128985e-10	3.600687e-10	0.001137858	0.0007773491	3.1087e-10	1.90744e-10	-0.01199418	0.01858384
3.6e+08	-0.009832589	0.01592922	2.734285e-10	1.332172e-10	0.0005671849	0.002082809	3.047048e-10	3.402663e-10
	2.734285e-10	1.332172e-10	-0.008983575	0.0162433	9.453057e-11	2.709811e-10	0.0008297603	0.002170249
	0.0005671849	0.002082809	9.453057e-11	2.709811e-10	-0.01005027	0.01615533	2.999551e-10	1.558729e-10
	3.047048e-10	3.402663e-10	0.0008297603	0.002170249	2.999551e-10	1.558729e-10	-0.008884202	0.01657826
3.7e+08	-0.006945263	0.01355597	2.583429e-10	1.030689e-10	0.0005452801	0.003537028	2.915204e-10	3.222564e-10
	2.583429e-10	1.030689e-10	-0.006284507	0.01376519	1.037009e-10	2.616453e-10	0.0007442286	0.003599855
	0.0005452802	0.003537028	1.037009e-10	2.616453e-10	-0.007100567	0.01378699	2.822505e-10	1.228401e-10
	2.915204e-10	3.222564e-10	0.0007442286	0.003599855	2.822505e-10	1.228401e-10	-0.006182804	0.01408015
3.8e+08	-0.00450847	0.01073346	2.373876e-10	7.538551e-11	0.0007578591	0.004979835	2.736126e-10	3.068711e-10
	2.373876e-10	7.538551e-11	-0.004062221	0.01086901	1.103249e-10	2.511903e-10	0.0008846016	0.005028517
	0.0007578591	0.004979835	1.103249e-10	2.511903e-10	-0.004604212	0.01095968	2.58034e-10	9.275849e-11
	2.736126e-10	3.068711e-10	0.0008846016	0.005028517	2.58034e-10	9.275849e-11	-0.003963057	0.01116392
3.9e+08	-0.0025873	0.007541077	2.109391e-10	5.112914e-11	0.001200159	0.006371804	2.513864e-10	2.949014e-10
	2.109391e-10	5.112914e-11	-0.00237671	0.007638883	1.14245e-10	2.400439e-10	0.001247871	0.00641847
	0.001200159	0.006371804	1.14245e-10	2.400439e-10	-0.002627601	0.007753491	2.277691e-10	6.669295e-11
	2.513864e-10	2.949014e-10	0.001247871	0.00641847	2.277691e-10	6.669295e-11	-0.002284952	0.007914518
4e+08	-0.001233246	0.004067349	1.795336e-10	3.119871e-11	0.001860817	0.007674769	2.253775e-10	2.870739e-10
	1.795336e-10	3.119871e-11	-0.001273539	0.00416718	1.153785e-10	2.286484e-10	0.001824728	0.007732908
	0.001860817	0.007674769	1.153785e-10	2.286484e-10	-0.001223399	0.004257848	1.920948e-10	4.562874e-11
	2.253775e-10	2.870739e-10	0.001824728	0.007732908	1.920948e-10	4.562874e-11	-0.0011939	0.00442515
4.1e+08	-0.0004829482	0.0004076536	1.438547e-10	1.640281e-11	0.002722149	0.00885293	1.962415e-10	2.840293e-10
	1.438547e-10	1.640281e-11	-0.0007827351	0.0005521393	1.137161e-10	2.174471e-10	0.002599793	0.008937039
	0.002722149	0.00885293	1.137161e-10	2.174471e-10	-0.0004292785	0.0005691565	1.51811e-10	3.044195e-11
	1.962415e-10	2.840293e-10	0.002599793	0.008937039	1.51811e-10	3.044195e-11	-0.0007196367	0.0007948632
4.2e+08	-0.0003573365	-0.00333825	1.047174e-10	7.435527e-12	0.003760623	0.009873908	1.647399e-10	2.863025e-10
	1.047174e-10	7.435527e-12	-0.0009180932	-0.003104736	1.093171e-10	2.068721e-10	0.003552023	0.009999093
	0.003760623	0.009873908	1.093171e-10	2.068721e-10	-0.0002670257	-0.003211666	1.078574e-10	2.187357e-11
	1.647399e-10	2.863025e-10	0.003552023	0.009999093	1.078574e-10	2.187357e-11	-0.0008755303	-0.002874089
4.3e+08	-0.0008611584	-0.00706878	6.304661e-11	4.855387e-12	0.004947506	0.0107097	1.317225e-10	2.943053e-10
	6.304661e-11	4.855387e-12	-0.001676904	-0.006701334	1.023034e-10	1.973342e-10	0.004655297	0.01089125
	0.004947506	0.0107097	1.023034e-10	1.973342e-10	-0.0007420644	-0.006981781	6.128994e-11	2.050752e-11
	1.317225e-10	2.943053e-10	0.004655297	0.01089125	6.128994e-11	2.050752e-11	-0.001658315	-0.006478916
4.4e+08	-0.001982942	-0.01068313	1.985418e-11	9.068637e-12	0.006249676	0.01133752	9.810733e-11	3.083122e-10
	1.985418e-11	9.068637e-12	-0.003040119	-0.01013758	9.285198e-11	1.892158e-10	0.005879153	0.01159045
	0.006249676	0.01133752	9.285198e-11	1.892158e-10	-0.0018434	-0.01063905	1.325252e-11	2.675362e-11
	9.810733e-11	3.083122e-10	0.005879153	0.01159045	1.325252e-11	2.675362e-11	-0.003048275	-0.009918966
4.5e+08	-0.003695362	-0.01408384	-2.378795e-11	2.031653e-11	0.007630569	0.01174048	6.485756e-11	3.284487e-10
	-2.378795e-11	2.031653e-11	-0.004972933	-0.01331803	8.118761e-11	1.828657e-10	0.007189651	0.01207907
	0.007630569	0.01174048	8.118761e-11	1.828657e-10	-0.003543982	-0.01408464	-3.505225e-11	4.083526e-11
	6.485756e-11	3.284487e-10	0.007189651	0.01207907	-3.505225e-11	4.083526e-11	-0.005009844	-0.01309834
4.6e+08	-0.00595602	-0.01717924	-6.677614e-11	3.866853e-11	0.009051231	0.01190812	3.295853e-11	3.546875e-10
	-6.677614e-11	3.866853e-11	-0.007425795	-0.01615432	6.751148e-11	1.785873e-10	0.008550352	0.01234545
	0.009051231	0.01190812	6.751148e-11	1.785873e-10	-0.00580147	-0.01722552	-8.246199e-11	6.276353e-11
	3.295853e-11	3.546875e-10	0.008550352	0.01234545	-8.246199e-11	6.276353e-11	-0.007492611	-0.01592836
4.7e+08	-0.008708598	-0.01988579	-1.080012e-10	6.40198e-11	0.01047145	0.01183668	3.391383e-12	3.868383e-10
	-1.080012e-10	6.40198e-11	-0.01033576	-0.01856741	5.202364e-11	1.766751e-10	0.009923368	0.01238422
	0.01047145	0.01183668	5.202364e-11	1.766751e-10	-0.008559406	-0.01997678	-1.278567e-10	9.238779e-11
	3.391383e-12	3.868383e-10	0.009923368	0.01238422	-1.278567e-10	9.238779e-11	-0.01043277	-0.01832979
