!$
! Info: Touchstone file created by Circ.  Input file=Tx_8in_Rx_100ohms_TxVia_35mils_RxVia_45mils.circ
!$
# Hz S RI R 50
0	0.008382121	1.115667e-25	-4.325942e-05	-2.847596e-26	6.352078e-05	1.572635e-23	-4.325903e-05	-3.38435e-26
	-4.325943e-05	-2.689544e-26	0.00837867	1.294074e-25	-4.325854e-05	-2.095684e-26	6.216802e-05	1.893206e-23
	6.404435e-05	1.593108e-23	-4.325852e-05	-2.360119e-26	0.008390222	1.089069e-25	-4.325886e-05	6.0942e-26
	-4.325904e-05	-3.274617e-26	6.032026e-05	1.902533e-23	-4.325887e-05	6.31032e-26	0.008391802	1.21242e-25
1e+07	0.01188653	0.005524985	-2.057283e-06	-8.445452e-06	0.0002202095	0.001543934	-1.632577e-06	-1.167491e-05
	-2.057283e-06	-8.445452e-06	0.01225224	0.005558647	-1.167981e-06	-2.460343e-06	0.0005017233	0.001581726
	0.0002202334	0.001543936	-1.167981e-06	-2.460343e-06	0.01145394	0.005761576	-2.74161e-06	-3.294107e-06
	-1.632577e-06	-1.167491e-05	0.0005016629	0.001581736	-2.74161e-06	-3.294106e-06	0.01214363	0.005577734
2e+07	0.01551594	0.008248933	-3.993544e-06	7.757265e-08	0.0006001345	0.003070554	-1.383876e-06	-4.250726e-06
	-3.993544e-06	7.757267e-08	0.01581813	0.008174332	-1.522706e-05	-1.799231e-05	0.0007723846	0.003251177
	0.0006001427	0.003070539	-1.522706e-05	-1.799231e-05	0.01542367	0.008782543	-1.874364e-05	-1.778241e-05
	-1.383876e-06	-4.250726e-06	0.0007723757	0.003251212	-1.874364e-05	-1.778241e-05	0.01574543	0.008252796
3e+07	0.01870735	0.009502209	-6.517984e-06	-1.240529e-06	0.00121668	0.004478853	-1.333324e-06	-2.399343e-06
	-6.517984e-06	-1.240529e-06	0.018946	0.009396851	-2.737118e-05	-1.890785e-05	0.001304058	0.004708561
	0.00121668	0.00447885	-2.737118e-05	-1.890785e-05	0.01888408	0.01008857	-3.085071e-05	-1.82263e-05
	-1.333324e-06	-2.399343e-06	0.001304058	0.004708566	-3.085071e-05	-1.82263e-05	0.01890429	0.009500494
4e+07	0.02168045	0.009985915	-8.504558e-06	-1.001533e-06	0.002047833	0.005751897	-1.255281e-06	-1.40606e-06
	-8.504558e-06	-1.001534e-06	0.02185188	0.009874072	-3.709021e-05	-1.551508e-05	0.002083065	0.00600731
	0.002047835	0.005751899	-3.709021e-05	-1.551508e-05	0.02208104	0.01054065	-4.049e-05	-1.442168e-05
	-1.255281e-06	-1.40606e-06	0.002083059	0.006007308	-4.049e-05	-1.442168e-05	0.02183863	0.009991944
5e+07	0.02447231	0.009874145	-1.002837e-05	1.12158e-08	0.003066448	0.006860152	-1.13582e-06	-7.4474e-07
	-1.002837e-05	1.121575e-08	0.02457291	0.009773489	-4.471361e-05	-9.575959e-06	0.003181566	0.007076596
	0.003066449	0.006860152	-4.471361e-05	-9.575959e-06	0.02505699	0.01034376	-4.799591e-05	-8.095166e-06
	-1.13582e-06	-7.447401e-07	0.003181562	0.007076595	-4.799591e-05	-8.095166e-06	0.02458566	0.009898368
6e+07	0.02707276	0.00925752	-1.111095e-05	1.500533e-06	0.004241349	0.007777334	-9.749595e-07	-2.613742e-07
	-1.111095e-05	1.500533e-06	0.0271014	0.009185229	-5.034083e-05	-1.882392e-06	0.004411208	0.007941752
	0.004241347	0.007777334	-5.034083e-05	-1.882392e-06	0.02780256	0.009603708	-5.346879e-05	-2.852522e-08
	-9.749595e-07	-2.613742e-07	0.00441121	0.007941751	-5.346879e-05	-2.852529e-08	0.02713742	0.009311552
7e+07	0.02945472	0.008199795	-1.175039e-05	3.309851e-06	0.005550536	0.008473755	-7.747255e-07	1.019027e-07
	-1.175039e-05	3.309851e-06	0.02941294	0.008172436	-5.394575e-05	7.099643e-06	0.00573912	0.008587304
	0.00555053	0.008473756	-5.394575e-05	7.099643e-06	0.03028984	0.008394225	-5.68987e-05	9.311782e-06
	-7.747253e-07	1.019028e-07	0.005739128	0.008587301	-5.68987e-05	9.311782e-06	0.02946907	0.008295684
8e+07	0.0315859	0.006756055	-1.192947e-05	5.343141e-06	0.006942506	0.008940527	-5.416878e-07	3.684556e-07
	-1.192947e-05	5.343141e-06	0.03147779	0.006789448	-5.543933e-05	1.705685e-05	0.007129241	0.00900184
	0.006942499	0.00894053	-5.543933e-05	1.705685e-05	0.03248473	0.00677775	-5.818659e-05	1.962107e-05
	-5.416876e-07	3.684556e-07	0.007129251	0.009001835	-5.818659e-05	1.962107e-05	0.03155042	0.006905916
9e+07	0.03343486	0.00497995	-1.1605e-05	7.548951e-06	0.008377705	0.009169562	-2.845078e-07	5.465213e-07
	-1.1605e-05	7.548951e-06	0.03326734	0.005089238	-5.459366e-05	2.783503e-05	0.008542978	0.009178735
	0.008377699	0.009169565	-5.459366e-05	2.783503e-05	0.0343518	0.004812594	-5.709102e-05	3.075486e-05
	-2.845076e-07	5.465212e-07	0.008542986	0.00917873	-5.709102e-05	3.075486e-05	0.03335222	0.005195877
1e+08	0.03498347	0.002933761	-1.051073e-05	1.004658e-05	0.009820034	0.009161101	-7.997369e-09	6.294358e-07
	-1.051073e-05	1.004658e-05	0.03476745	0.003134239	-5.012727e-05	4.008869e-05	0.009935885	0.009113068
	0.009820034	0.009161101	-5.012727e-05	4.008869e-05	0.03585195	0.002551862	-5.230115e-05	4.339953e-05
	-7.997368e-09	6.294358e-07	0.009935885	0.009113068	-5.230115e-05	4.339953e-05	0.03485864	0.003227703
1.1e+08	0.03622198	0.0005895414	-8.362083e-06	1.134393e-05	0.01123366	0.008898026	1.796657e-07	6.520838e-07
	-8.362083e-06	1.134393e-05	0.03597511	0.0008867047	-4.050234e-05	4.675658e-05	0.011261	0.008846069
	0.01123366	0.008898026	-4.050234e-05	4.675658e-05	0.0369518	9.011074e-05	-4.219005e-05	5.03089e-05
	1.796657e-07	6.520838e-07	0.011261	0.008846069	-4.219005e-05	5.03089e-05	0.03606595	0.000972314
1.2e+08	0.0370511	-0.001948356	-7.850432e-06	1.122669e-05	0.01255924	0.008400878	1.939119e-07	5.962488e-07
	-7.850432e-06	1.122669e-05	0.03678284	-0.00154874	-3.283055e-05	5.053938e-05	0.01251795	0.008373709
	0.01255924	0.008400878	-3.283055e-05	5.053938e-05	0.03766913	-0.002518833	-3.624675e-05	5.272725e-05
	1.939119e-07	5.962488e-07	0.01251795	0.008373709	-3.624675e-05	5.272725e-05	0.03687311	-0.001468913
1.3e+08	0.03747094	-0.004604633	-7.303203e-06	1.12385e-05	0.01376435	0.007691455	1.576498e-07	5.547327e-07
	-7.303203e-06	1.12385e-05	0.03719394	-0.004096896	-3.072163e-05	5.024857e-05	0.01366681	0.007704814
	0.01376435	0.007691455	-3.072163e-05	5.024857e-05	0.03798575	-0.005223242	-3.403163e-05	5.254664e-05
	1.576498e-07	5.547327e-07	0.01366681	0.007704815	-3.403163e-05	5.254664e-05	0.03728226	-0.004021745
1.4e+08	0.03747875	-0.007314955	-6.707348e-06	1.129439e-05	0.014817	0.00679388	1.235022e-07	5.223005e-07
	-6.707348e-06	1.129439e-05	0.03720746	-0.006695429	-2.83634e-05	5.024821e-05	0.01467523	0.006859044
	0.014817	0.00679388	-2.83634e-05	5.024821e-05	0.03789616	-0.007964588	-3.156049e-05	5.266414e-05
	1.235022e-07	5.223005e-07	0.01467523	0.006859044	-3.156049e-05	5.266414e-05	0.03729249	-0.00662377
1.5e+08	0.0370778	-0.01001717	-6.08203e-06	1.136612e-05	0.01568907	0.00573677	9.026466e-08	4.985455e-07
	-6.08203e-06	1.136612e-05	0.03682785	-0.009284796	-2.584681e-05	5.038751e-05	0.01551541	0.005861738
	0.01568907	0.00573677	-2.584681e-05	5.038751e-05	0.03740294	-0.01068379	-2.892124e-05	5.292728e-05
	9.026466e-08	4.985455e-07	0.01551541	0.005861738	-2.892124e-05	5.292728e-05	0.03690848	-0.009215337
1.6e+08	0.0362785	-0.01265109	-5.43777e-06	1.1438e-05	0.01635735	0.004552779	5.748008e-08	4.833542e-07
	-5.43777e-06	1.1438e-05	0.0360661	-0.01180774	-2.321894e-05	5.058072e-05	0.01616446	0.004742674
	0.01635735	0.004552779	-2.321894e-05	5.058072e-05	0.03651644	-0.01332268	-2.616138e-05	5.32473e-05
	5.748008e-08	4.833542e-07	0.01616446	0.004742674	-2.616138e-05	5.32473e-05	0.03614147	-0.01173913
1.7e+08	0.03509871	-0.01515902	-4.781175e-06	1.150049e-05	0.01680423	0.00327782	2.521613e-08	4.768245e-07
	-4.781175e-06	1.150049e-05	0.03494	-0.01420972	-2.050981e-05	5.077291e-05	0.01660485	0.003535068
	0.01680423	0.00327782	-2.050981e-05	5.077291e-05	0.03525471	-0.01582513	-2.331102e-05	5.356698e-05
	2.521613e-08	4.768245e-07	0.01660485	0.003535068	-2.331102e-05	5.356698e-05	0.03500951	-0.01414058
1.8e+08	0.03356369	-0.01748669	-4.116696e-06	1.154747e-05	0.01701821	0.001950126	-6.029651e-09	4.791431e-07
	-4.116696e-06	1.154747e-05	0.03347415	-0.01643957	-1.774041e-05	5.09267e-05	0.01682484	0.002274598
	0.01701821	0.001950126	-1.774041e-05	5.09267e-05	0.03364332	-0.01813809	-2.039119e-05	5.38471e-05
	-6.029651e-09	4.791431e-07	0.01682484	0.002274598	-2.039119e-05	5.38471e-05	0.03353741	-0.01636856
1.9e+08	0.03170581	-0.01958417	-3.446648e-06	1.157542e-05	0.01699423	0.00060924	-3.537098e-08	4.904666e-07
	-3.446648e-06	1.157542e-05	0.03169959	-0.01845041	-1.492679e-05	5.101544e-05	0.0168188	0.0009983885
	0.01699423	0.00060924	-1.492679e-05	5.101544e-05	0.03171495	-0.02021273	-1.741794e-05	5.405943e-05
	-3.537098e-08	4.904666e-07	0.0168188	0.0009983885	-1.741794e-05	5.405943e-05	0.03175642	-0.01837618
2e+08	0.029564	-0.02140686	-2.773434e-06	1.158104e-05	0.01673378	-0.0007050484	-6.171509e-08	5.108178e-07
	-2.773434e-06	1.158104e-05	0.02965334	-0.02020043	-1.208195e-05	5.101946e-05	0.01658729	-0.0002560103
	0.01673378	-0.0007050484	-1.208195e-05	5.101946e-05	0.02950888	-0.02200542	-1.440433e-05	5.418282e-05
	-6.171508e-08	5.108178e-07	0.01658729	-0.0002560103	-1.440433e-05	5.418282e-05	0.02970377	-0.02012168
2.1e+08	0.02718301	-0.0229164	-2.099663e-06	1.156158e-05	0.01624489	-0.00195378	-8.377742e-08	5.400399e-07
	-2.099663e-06	1.156158e-05	0.02737773	-0.02165371	-9.217162e-06	5.092384e-05	0.01613707	-0.001451658
	0.01624489	-0.00195378	-9.217162e-06	5.092384e-05	0.02707018	-0.02347872	-1.136173e-05	5.420101e-05
	-8.377742e-08	5.400399e-07	0.01613707	-0.001451658	-1.136173e-05	5.420101e-05	0.02742195	-0.02156919
2.2e+08	0.02461257	-0.02408144	-1.426916e-06	1.151535e-05	0.01554188	-0.003099882	-1.001132e-07	5.777233e-07
	-1.426916e-06	1.151535e-05	0.02491958	-0.02278092	-6.342515e-06	5.071693e-05	0.01548091	-0.002553235
	0.01554188	-0.003099882	-6.342515e-06	5.071693e-05	0.02444889	-0.02460217	-8.300454e-06	5.410109e-05
	-1.001132e-07	5.777233e-07	0.01548091	-0.002553235	-8.300454e-06	5.410109e-05	0.02495793	-0.02268945
2.3e+08	0.02190631	-0.02487838	-7.565866e-07	1.144089e-05	0.014645	-0.004109181	-1.092297e-07	6.231684e-07
	-7.565866e-07	1.144089e-05	0.02232921	-0.02355995	-3.467417e-06	5.038943e-05	0.01463723	-0.003528004
	0.014645	-0.004109181	-3.467417e-06	5.038943e-05	0.02169892	-0.02535305	-5.230221e-06	5.387254e-05
	-1.092297e-07	6.231684e-07	0.01463723	-0.003528004	-5.230221e-06	5.387254e-05	0.02236224	-0.02346041
2.4e+08	0.01912061	-0.02529184	-9.003483e-08	1.133692e-05	0.01357987	-0.004951334	-1.096734e-07	6.753738e-07
	-9.003483e-08	1.133692e-05	0.01965942	-0.0239763	-6.0115e-07	4.993397e-05	0.01362958	-0.004346712
	0.01357987	-0.004951334	-6.0115e-07	4.993397e-05	0.01887689	-0.02571683	-2.160749e-06	5.350681e-05
	-1.096734e-07	6.753738e-07	0.01362958	-0.004346712	-2.160749e-06	5.350681e-05	0.01968783	-0.02386769
2.5e+08	0.01631341	-0.025315	5.713559e-07	1.120226e-05	0.01237677	-0.00560067	-1.001003e-07	7.330377e-07
	5.713559e-07	1.120226e-05	0.01696438	-0.02402342	2.247143e-06	4.934451e-05	0.01248603	-0.004984387
	0.01237677	-0.00560067	2.247143e-06	4.934451e-05	0.01604092	-0.02568759	8.982606e-07	5.299679e-05
	-1.001003e-07	7.330377e-07	0.01248603	-0.004984387	8.982606e-07	5.299679e-05	0.01698901	-0.02390484
2.6e+08	0.01354285	-0.02494978	1.226078e-06	1.103579e-05	0.01106981	-0.006036892	-7.935349e-08	7.94582e-07
	1.226078e-06	1.103579e-05	0.01429841	-0.02370279	5.068126e-06	4.861631e-05	0.01123839	-0.005421027
	0.01106981	-0.006036892	5.068126e-06	4.861631e-05	0.01324929	-0.02526815	3.936781e-06	5.23367e-05
	-7.935349e-08	7.94582e-07	0.01123839	-0.005421027	3.936781e-06	5.23367e-05	0.01432026	-0.0235735
2.7e+08	0.01086607	-0.02420679	1.872456e-06	1.083646e-05	0.009695985	-0.006245645	-4.652332e-08	8.58189e-07
	1.872456e-06	1.083646e-05	0.01171484	-0.0230239	7.852244e-06	4.774564e-05	0.009921334	-0.005642152
	0.009695985	-0.006245645	7.852244e-06	4.774564e-05	0.01055918	-0.02447003	6.944434e-06	5.152185e-05
	-4.652332e-08	8.58189e-07	0.009921334	-0.005642152	6.944434e-06	5.152185e-05	0.01173501	-0.02288333
2.8e+08	0.008337841	-0.02310505	2.508589e-06	1.060335e-05	0.008294173	-0.006218915	-1.004882e-09	9.218524e-07
	2.508589e-06	1.060335e-05	0.00926485	-0.02200396	1.058957e-05	4.672993e-05	0.008571463	-0.005639205
	0.008294173	-0.006218915	1.058957e-05	4.672993e-05	0.008025338	-0.02331317	9.910343e-06	5.054884e-05
	-1.004881e-09	9.218525e-07	0.008571463	-0.005639205	9.910343e-06	5.054884e-05	0.009284532	-0.02185174
2.9e+08	0.006009344	-0.02167157	3.132342e-06	1.033571e-05	0.006904044	-0.005955253	5.746508e-08	9.834398e-07
	3.132342e-06	1.033571e-05	0.006996303	-0.02066754	1.326983e-05	4.556763e-05	0.007226284	-0.005409785
	0.006904044	-0.005955253	1.326983e-05	4.556763e-05	0.005698816	-0.02182552	1.282316e-05	4.941541e-05
	5.746508e-08	9.834398e-07	0.007226284	-0.005409785	1.282316e-05	4.941541e-05	0.007016745	-0.0205035
3e+08	0.003927006	-0.01994071	3.741333e-06	1.003296e-05	0.00556496	-0.005459823	1.287836e-07	1.04076e-06
	3.741333e-06	1.003296e-05	0.004952729	-0.01904596	1.58824e-05	4.425821e-05	0.005923192	-0.004957721
	0.00556496	-0.005459823	1.58824e-05	4.425821e-05	0.003625822	-0.02004237	1.567111e-05	4.812046e-05
	1.287836e-07	1.04076e-06	0.005923192	-0.004957721	1.567111e-05	4.812046e-05	0.004975204	-0.01887015
3.1e+08	0.002131449	-0.01795341	4.332951e-06	9.694793e-06	0.004314887	-0.004744258	2.124684e-07	1.091636e-06
	4.332951e-06	9.694793e-06	0.003172369	-0.01717655	1.841635e-05	4.280239e-05	0.004698439	-0.004292968
	0.004314887	-0.004744258	1.841635e-05	4.280239e-05	0.001846645	-0.01800556	1.844203e-05	4.666431e-05
	2.124684e-07	1.091636e-06	0.004698439	-0.004292968	1.844203e-05	4.666431e-05	0.003198128	-0.01698923
3.2e+08	0.0006565458	-0.01575616	4.904381e-06	9.32122e-06	0.003189337	-0.00382634	3.076681e-07	1.133976e-06
	4.904381e-06	9.32122e-06	0.001687324	-0.01510178	2.086054e-05	4.120199e-05	0.003586132	-0.003431329
	0.003189337	-0.00382634	2.086054e-05	4.120199e-05	0.0003947076	-0.01576245	2.112349e-05	4.504856e-05
	3.076681e-07	1.133976e-06	0.003586132	-0.003431329	2.112349e-05	4.504856e-05	0.001717567	-0.01490347
3.3e+08	-0.0004713397	-0.01339996	5.45264e-06	8.912589e-06	0.002220376	-0.002729507	4.131825e-07	1.165844e-06
	5.45264e-06	8.912589e-06	0.0005228875	-0.01286832	2.320366e-05	3.946003e-05	0.002617302	-0.00239402
	0.002220376	-0.002729507	2.320366e-05	3.946003e-05	-0.0007041742	-0.01336488	2.37029e-05	4.327618e-05
	4.131825e-07	1.165844e-06	0.002617302	-0.00239402	2.37029e-05	4.327618e-05	0.0005587082	-0.01265971
3.4e+08	-0.00123394	-0.0109391	5.974647e-06	8.469664e-06	0.001435742	-0.001482205	5.274951e-07	1.185523e-06
	5.974647e-06	8.469664e-06	-0.0003030008	-0.01052586	2.543443e-05	3.758089e-05	0.001819046	-0.001207091
	0.001435742	-0.001482205	2.543443e-05	3.758089e-05	-0.001432403	-0.0108679	2.616774e-05	4.13517e-05
	5.274951e-07	1.185523e-06	0.001819046	-0.001207091	2.616774e-05	4.13517e-05	-0.0002606382	-0.01030785
3.5e+08	-0.001621496	-0.008429885	6.467271e-06	7.99362e-06	0.0008580675	-0.000117096	6.488234e-07	1.191565e-06
	6.467271e-06	7.99362e-06	-0.0007801143	-0.008126066	2.754169e-05	3.557019e-05	0.001213789	9.930153e-05
	0.0008580675	-0.000117096	2.754169e-05	3.557019e-05	-0.001780983	-0.008328488	2.850563e-05	3.928104e-05
	6.488234e-07	1.191565e-06	0.001213789	9.930152e-05	2.850563e-05	3.928104e-05	-0.0007304156	-0.00789971
3.6e+08	-0.001632941	-0.00592928	6.927398e-06	7.486087e-06	0.000504254	0.001329849	7.751695e-07	1.182837e-06
	6.927398e-06	7.486087e-06	-0.000906115	-0.005721303	2.95146e-05	3.343489e-05	0.0008186719	0.001491716
	0.000504254	0.001329849	2.95146e-05	3.343489e-05	-0.001749714	-0.00580419	3.070465e-05	3.707161e-05
	7.751695e-07	1.182837e-06	0.0008186719	0.001491716	3.070465e-05	3.707161e-05	-0.0008484828	-0.005487797
3.7e+08	-0.001275894	-0.003493602	7.352043e-06	6.949117e-06	0.0003850058	0.002820345	9.043939e-07	1.158549e-06
	7.352043e-06	6.949117e-06	-0.0006865529	-0.00336348	3.134277e-05	3.118324e-05	0.0006450831	0.002934354
	0.0003850058	0.002820345	3.134277e-05	3.118324e-05	-0.001347157	-0.003351787	3.275342e-05	3.473221e-05
	9.043939e-07	1.158549e-06	0.0006450831	0.002934354	3.275342e-05	3.473221e-05	-0.0006206088	-0.003124113
3.8e+08	-0.000566438	-0.001177172	7.738383e-06	6.385195e-06	0.0005045355	0.004314854	1.034272e-06	1.118269e-06
	7.738383e-06	6.385195e-06	-0.000134675	-0.001102847	3.301643e-05	2.88247e-05	0.0006983574	0.004390034
	0.0005045355	0.004314854	3.301643e-05	2.88247e-05	-0.00059041	-0.001025938	3.464134e-05	3.227295e-05
	1.034272e-06	1.118269e-06	0.0006983574	0.004390034	3.464134e-05	3.227295e-05	-6.027605e-05	-0.000858966
3.9e+08	0.000471303	0.0009689425	8.083837e-06	5.797207e-06	0.0008604508	0.005773676	1.162564e-06	1.061925e-06
	8.083837e-06	5.797207e-06	0.0007289402	0.00101314	3.452665e-05	2.636993e-05	0.0009776352	0.005821214
	0.0008604508	0.005773676	3.452665e-05	2.636993e-05	0.0004953414	0.001122097	3.635876e-05	2.97052e-05
	1.162564e-06	1.061925e-06	0.0009776352	0.005821214	3.635876e-05	2.97052e-05	0.0008116938	0.001260174
4e+08	0.001805778	0.002898126	8.386134e-06	5.188397e-06	0.001443822	0.007158045	1.287079e-06	9.897941e-07
	8.386134e-06	5.188397e-06	0.001876919	0.002940885	3.586541e-05	2.383067e-05	0.001475895	0.007191013
	0.001443822	0.007158045	3.586541e-05	2.383067e-05	0.001877453	0.003045658	3.789711e-05	2.704136e-05
	1.287079e-06	9.897941e-07	0.001475895	0.007191013	3.789711e-05	2.704136e-05	0.001967684	0.003189745
4.1e+08	0.003398801	0.004569288	8.643379e-06	4.562323e-06	0.002239431	0.008431189	1.405731e-06	9.024789e-07
	8.643379e-06	4.562323e-06	0.003275785	0.004641631	3.702585e-05	2.121962e-05	0.00218015	0.008464213
	0.002239431	0.008431189	3.702585e-05	2.121962e-05	0.003516638	0.004703771	3.924908e-05	2.429482e-05
	1.405731e-06	9.024789e-07	0.00218015	0.008464213	3.924908e-05	2.429482e-05	0.003373982	0.004891059
4.2e+08	0.005206493	0.005947803	8.85409e-06	3.922786e-06	0.00322619	0.009559341	1.516596e-06	8.008734e-07
	8.85409e-06	3.922786e-06	0.004886782	0.006082294	3.800236e-05	1.855028e-05	0.003071812	0.00960821
	0.00322619	0.009559341	3.800236e-05	1.855028e-05	0.005367931	0.006062081	4.040872e-05	2.14797e-05
	1.516596e-06	8.008734e-07	0.003071812	0.00960821	4.040872e-05	2.14797e-05	0.004991611	0.006331147
4.3e+08	0.007180362	0.007006292	9.017239e-06	3.273764e-06	0.004377717	0.01051266	1.617949e-06	6.861208e-07
	9.017239e-06	3.273764e-06	0.006666825	0.007236179	3.879067e-05	1.58368e-05	0.004127198	0.0105939
	0.004377717	0.01051266	3.879067e-05	1.58368e-05	0.007381793	0.007093643	4.137151e-05	1.861068e-05
	1.617949e-06	6.861208e-07	0.004127198	0.0105939	4.137151e-05	1.861068e-05	0.006777287	0.007483468
4.4e+08	0.009268482	0.007725218	9.13226e-06	2.619338e-06	0.005663059	0.01126604	1.708299e-06	5.595659e-07
	9.13226e-06	2.619338e-06	0.00856953	0.008083534	3.938793e-05	1.309377e-05	0.005318175	0.01139644
	0.005663059	0.01126604	3.938793e-05	1.309377e-05	0.009505316	0.007779508	4.213438e-05	1.57028e-05
	1.708299e-06	5.595659e-07	0.005318175	0.01139644	4.213438e-05	1.57028e-05	0.008684458	0.008328454
4.5e+08	0.01141675	0.008093308	9.199069e-06	1.963616e-06	0.007047531	0.0117998	1.786404e-06	4.227035e-07
	9.199069e-06	1.963616e-06	0.01054632	0.008611932	3.979277e-05	1.033603e-05	0.006612925	0.01199594
	0.007047531	0.0117998	3.979277e-05	1.033603e-05	0.0116835	0.008109133	4.269575e-05	1.277127e-05
	1.786404e-06	4.227035e-07	0.006612925	0.01199594	4.269575e-05	1.277127e-05	0.01066441	0.008853893
4.6e+08	0.01357019	0.00810775	9.21805e-06	1.31066e-06	0.008493651	0.01210023	1.851287e-06	2.771269e-07
	9.21805e-06	1.31066e-06	0.01254758	0.008816489	4.000527e-05	7.578538e-06	0.007976798	0.01237799
	0.008493651	0.01210023	4.000527e-05	7.578538e-06	0.01386058	0.00808057	4.305552e-05	9.831277e-06
	1.851287e-06	2.771269e-07	0.007976798	0.01237799	4.305552e-05	9.831277e-06	0.01266743	0.009055138
4.7e+08	0.01567426	0.007774209	9.190026e-06	6.644175e-07	0.009962159	0.01215991	1.902198e-06	1.244789e-07
	9.190026e-06	6.644175e-07	0.01452378	0.008699896	4.002676e-05	4.836299e-06	0.009373243	0.012534
	0.009962159	0.01215991	4.002676e-05	4.836299e-06	0.01598137	0.007700446	4.321479e-05	6.897864e-06
	1.902198e-06	1.244789e-07	0.009373243	0.012534	4.321479e-05	6.897864e-06	0.01464395	0.008935097
4.8e+08	0.01767613	0.007106637	9.116245e-06	2.865527e-08	0.01141307	0.01197802	1.938693e-06	-3.359416e-08
