!$
! Info: Touchstone file created by Circ.  Input file=Tx_8in_Rx_100ohms_TxVia_35mils_RxVia_45mils.circ
!$
# Hz S RI R 50
0	0.008382121	1.115667e-25	-1.643452e-12	3.082809e-28	6.352078e-05	1.572635e-23	-6.430343e-13	1.595072e-28
	-1.643454e-12	3.08281e-28	0.00837867	1.294074e-25	1.258938e-12	5.016075e-28	6.216802e-05	1.893206e-23
	6.404435e-05	1.593108e-23	1.258941e-12	5.016071e-28	0.008390222	1.089069e-25	-8.346521e-13	3.285704e-28
	-6.430347e-13	1.595074e-28	6.032026e-05	1.902533e-23	-8.346524e-13	3.285708e-28	0.008391802	1.21242e-25
1e+07	0.01188653	0.005524985	7.720422e-12	5.886485e-12	0.0002202095	0.001543934	9.997366e-12	1.214556e-11
	7.720423e-12	5.886486e-12	0.01225224	0.005558647	9.179973e-12	7.561796e-12	0.0005017233	0.001581726
	0.0002202334	0.001543936	9.179973e-12	7.561796e-12	0.01145394	0.005761576	7.882527e-12	6.741345e-12
	9.997366e-12	1.214556e-11	0.0005016629	0.001581736	7.882526e-12	6.741344e-12	0.01214363	0.005577734
2e+07	0.01551594	0.008248933	9.545256e-12	6.655238e-12	0.0006001345	0.003070554	1.154851e-11	1.770385e-11
	9.545257e-12	6.655238e-12	0.01581813	0.008174332	1.63676e-11	3.810169e-12	0.0007723846	0.003251177
	0.0006001427	0.003070539	1.63676e-11	3.810168e-12	0.01542367	0.008782543	1.292123e-11	3.069761e-12
	1.154851e-11	1.770385e-11	0.0007723757	0.003251212	1.292123e-11	3.069762e-12	0.01574543	0.008252796
3e+07	0.01870735	0.009502209	8.71565e-12	4.458521e-12	0.00121668	0.004478853	1.069057e-11	2.012191e-11
	8.715651e-12	4.458521e-12	0.018946	0.009396851	2.061284e-11	-4.016633e-12	0.001304058	0.004708561
	0.00121668	0.00447885	2.061284e-11	-4.016633e-12	0.01888408	0.01008857	1.2102e-11	-3.421331e-12
	1.069057e-11	2.012191e-11	0.001304058	0.004708566	1.2102e-11	-3.421331e-12	0.01890429	0.009500494
4e+07	0.02168045	0.009985915	3.709319e-12	1.890308e-12	0.002047833	0.005751897	4.859613e-12	2.225967e-11
	3.709318e-12	1.890308e-12	0.02185188	0.009874072	1.953421e-11	-1.471672e-11	0.002083065	0.00600731
	0.002047835	0.005751899	1.953421e-11	-1.471672e-11	0.02208104	0.01054065	4.687875e-12	-1.080572e-11
	4.859613e-12	2.225967e-11	0.002083059	0.006007308	4.687875e-12	-1.080572e-11	0.02183863	0.009991944
5e+07	0.02447231	0.009874145	-5.606488e-12	6.317902e-13	0.003066448	0.006860152	-5.95829e-12	2.619713e-11
	-5.606489e-12	6.317899e-13	0.02457291	0.009773489	1.293747e-11	-2.593243e-11	0.003181566	0.007076596
	0.003066449	0.006860153	1.293747e-11	-2.593243e-11	0.02505699	0.01034376	-9.420984e-12	-1.628245e-11
	-5.95829e-12	2.619713e-11	0.003181562	0.007076595	-9.420984e-12	-1.628245e-11	0.02458566	0.009898368
6e+07	0.02707276	0.00925752	-1.88467e-11	2.336013e-12	0.004241349	0.007777334	-2.109543e-11	3.384483e-11
	-1.88467e-11	2.336013e-12	0.0271014	0.009185229	6.914116e-13	-3.588471e-11	0.004411208	0.007941752
	0.004241347	0.007777334	6.914114e-13	-3.588471e-11	0.02780256	0.009603708	-2.956395e-11	-1.739235e-11
	-2.109543e-11	3.384483e-11	0.00441121	0.007941751	-2.956395e-11	-1.739235e-11	0.02713742	0.009311552
7e+07	0.02945472	0.008199795	-3.534969e-11	8.411541e-12	0.005550536	0.008473755	-3.947545e-11	4.682692e-11
	-3.534968e-11	8.411543e-12	0.02941294	0.008172436	-1.750731e-11	-4.333602e-11	0.00573912	0.008587304
	0.00555053	0.008473756	-1.750731e-11	-4.333602e-11	0.03028984	0.008394225	-5.455744e-11	-1.200831e-11
	-3.947545e-11	4.682692e-11	0.005739128	0.008587301	-5.455744e-11	-1.200831e-11	0.02946907	0.008295684
8e+07	0.0315859	0.006756055	-5.395513e-11	2.019465e-11	0.006942506	0.008940527	-5.956059e-11	6.65628e-11
	-5.395512e-11	2.019465e-11	0.03147779	0.006789448	-4.114134e-11	-4.636372e-11	0.007129241	0.00900184
	0.006942499	0.00894053	-4.114134e-11	-4.636372e-11	0.03248473	0.00677775	-8.280295e-11	1.632216e-12
	-5.956059e-11	6.65628e-11	0.007129251	0.009001835	-8.280295e-11	1.632212e-12	0.03155042	0.006905916
9e+07	0.03343486	0.00497995	-7.280345e-11	3.912115e-11	0.008377705	0.009169562	-7.914756e-11	9.441875e-11
	-7.280344e-11	3.912115e-11	0.03326734	0.005089238	-6.905763e-11	-4.255923e-11	0.008542978	0.009178735
	0.008377699	0.009169565	-6.905763e-11	-4.255923e-11	0.0343518	0.004812594	-1.11656e-10	2.563853e-11
	-7.914756e-11	9.441875e-11	0.008542986	0.00917873	-1.11656e-10	2.563853e-11	0.03335222	0.005195877
1e+08	0.03498347	0.002933761	-8.93863e-11	6.791768e-11	0.009820034	0.009161101	-9.513415e-11	1.332933e-10
	-8.93863e-11	6.791768e-11	0.03476745	0.003134239	-1.011738e-10	-2.720918e-11	0.009935885	0.009113068
	0.009820034	0.009161101	-1.011738e-10	-2.720918e-11	0.03585195	0.002551862	-1.376938e-10	6.436223e-11
	-9.513415e-11	1.332933e-10	0.009935885	0.009113068	-1.376938e-10	6.436223e-11	0.03485864	0.003227703
1.1e+08	0.03622198	0.0005895414	-9.180427e-11	9.951614e-11	0.01123366	0.008898026	-9.577406e-11	1.750546e-10
	-9.180427e-11	9.951614e-11	0.03597511	0.0008867047	-1.176133e-10	-4.964549e-13	0.011261	0.008846069
	0.01123366	0.008898026	-1.176133e-10	-4.964549e-13	0.0369518	9.011074e-05	-1.434753e-10	1.088221e-10
	-9.577406e-11	1.750546e-10	0.011261	0.008846069	-1.434753e-10	1.088221e-10	0.03606595	0.000972314
1.2e+08	0.0370511	-0.001948356	-9.013186e-11	1.271515e-10	0.01255924	0.008400878	-9.413811e-11	2.082473e-10
	-9.013186e-11	1.271515e-10	0.03678284	-0.00154874	-1.258745e-10	1.726619e-11	0.01251795	0.008373709
	0.01255924	0.008400878	-1.258745e-10	1.726619e-11	0.03766913	-0.002518833	-1.428583e-10	1.461546e-10
	-9.413811e-11	2.082473e-10	0.01251795	0.008373709	-1.428583e-10	1.461546e-10	0.03687311	-0.001468913
1.3e+08	0.03747094	-0.004604633	-8.978448e-11	1.467596e-10	0.01376435	0.007691455	-9.229946e-11	2.367666e-10
	-8.978448e-11	1.467596e-10	0.03719394	-0.004096896	-1.312122e-10	2.551994e-11	0.01366681	0.007704814
	0.01376435	0.007691455	-1.312122e-10	2.551994e-11	0.03798575	-0.005223242	-1.428047e-10	1.714221e-10
	-9.229946e-11	2.367666e-10	0.01366681	0.007704815	-1.428047e-10	1.714221e-10	0.03728226	-0.004021745
1.4e+08	0.03747875	-0.007314955	-8.711233e-11	1.676015e-10	0.014817	0.00679388	-8.745911e-11	2.666499e-10
	-8.711233e-11	1.676015e-10	0.03720746	-0.006695429	-1.362758e-10	3.576216e-11	0.01467523	0.006859044
	0.014817	0.00679388	-1.362758e-10	3.576216e-11	0.03789616	-0.007964588	-1.396045e-10	1.984847e-10
	-8.745911e-11	2.666499e-10	0.01467523	0.006859044	-1.396045e-10	1.984847e-10	0.03729249	-0.00662377
1.5e+08	0.0370778	-0.01001717	-8.189501e-11	1.890956e-10	0.01568907	0.00573677	-7.934988e-11	2.972066e-10
	-8.189501e-11	1.890956e-10	0.03682785	-0.009284796	-1.40723e-10	4.766765e-11	0.01551541	0.005861738
	0.01568907	0.00573677	-1.40723e-10	4.766765e-11	0.03740294	-0.01068379	-1.329332e-10	2.265174e-10
	-7.934988e-11	2.972066e-10	0.01551541	0.005861738	-1.329332e-10	2.265174e-10	0.03690848	-0.009215337
1.6e+08	0.0362785	-0.01265109	-7.399557e-11	2.107101e-10	0.01635735	0.004552779	-6.780873e-11	3.277849e-10
	-7.399557e-11	2.107101e-10	0.0360661	-0.01180774	-1.442961e-10	6.099966e-11	0.01616446	0.004742674
	0.01635735	0.004552779	-1.442961e-10	6.099966e-11	0.03651644	-0.01332268	-1.225946e-10	2.547781e-10
	-6.780873e-11	3.277849e-10	0.01616446	0.004742674	-1.225946e-10	2.547781e-10	0.03614147	-0.01173913
1.7e+08	0.03509871	-0.01515902	-6.336275e-11	2.319274e-10	0.01680423	0.00327782	-5.277723e-11	3.577435e-10
	-6.336275e-11	2.319274e-10	0.03494	-0.01420972	-1.46786e-10	7.554787e-11	0.01660485	0.003535068
	0.01680423	0.00327782	-1.46786e-10	7.554787e-11	0.03525471	-0.01582513	-1.08513e-10	2.825503e-10
	-5.277723e-11	3.577435e-10	0.01660485	0.003535068	-1.08513e-10	2.825503e-10	0.03500951	-0.01414058
1.8e+08	0.03356369	-0.01748669	-5.002905e-11	2.522415e-10	0.01701821	0.001950126	-3.430141e-11	3.864503e-10
	-5.002905e-11	2.522415e-10	0.03347415	-0.01643957	-1.480172e-10	9.110888e-11	0.01682484	0.002274598
	0.01701821	0.001950126	-1.480172e-10	9.110888e-11	0.03364332	-0.01813809	-9.072876e-11	3.091365e-10
	-3.430141e-11	3.864503e-10	0.01682484	0.002274598	-9.072876e-11	3.091365e-10	0.03353741	-0.01636856
1.9e+08	0.03170581	-0.01958417	-3.411234e-11	2.711322e-10	0.01699423	0.00060924	-1.25331e-11	4.132876e-10
	-3.411234e-11	2.711322e-10	0.03169959	-0.01845041	-1.478435e-10	1.074785e-10	0.0168188	0.0009983885
	0.01699423	0.00060924	-1.478435e-10	1.074785e-10	0.03171495	-0.02021273	-6.939393e-11	3.338636e-10
	-1.25331e-11	4.132876e-10	0.0168188	0.0009983885	-6.939393e-11	3.338636e-10	0.03175642	-0.01837618
2e+08	0.029564	-0.02140686	-1.580886e-11	2.881479e-10	0.01673378	-0.0007050484	1.228431e-11	4.376691e-10
	-1.580886e-11	2.881479e-10	0.02965334	-0.02020043	-1.461402e-10	1.244443e-10	0.01658729	-0.0002560103
	0.01673378	-0.0007050484	-1.461402e-10	1.244443e-10	0.02950888	-0.02200542	-4.476814e-11	3.560929e-10
	1.228431e-11	4.376691e-10	0.01658729	-0.0002560103	-4.476814e-11	3.560929e-10	0.02970377	-0.02012168
2.1e+08	0.02718301	-0.0229164	4.616753e-12	3.028882e-10	0.01624489	-0.00195378	3.980632e-11	4.59051e-10
	4.616753e-12	3.028882e-10	0.02737773	-0.02165371	-1.428043e-10	1.417823e-10	0.01613707	-0.001451658
	0.01624489	-0.00195378	-1.428043e-10	1.417823e-10	0.02707018	-0.02347872	-1.721299e-11	3.752328e-10
	3.980632e-11	4.59051e-10	0.01613707	-0.001451658	-1.721299e-11	3.752328e-10	0.02742195	-0.02156919
2.2e+08	0.02461257	-0.02408144	2.683118e-11	3.149696e-10	0.01554188	-0.003099882	6.959731e-11	4.7694e-10
	2.683118e-11	3.149696e-10	0.02491958	-0.02278092	-1.377583e-10	1.59259e-10	0.01548091	-0.002553235
	0.01554188	-0.003099882	-1.377583e-10	1.59259e-10	0.02444889	-0.02460217	1.281559e-11	3.907515e-10
	6.959731e-11	4.7694e-10	0.01548091	-0.002553235	1.281559e-11	3.907515e-10	0.02495793	-0.02268945
2.3e+08	0.02190631	-0.02487838	5.043986e-11	3.240613e-10	0.014645	-0.004109181	1.011381e-10	4.909093e-10
	5.043986e-11	3.240613e-10	0.02232921	-0.02355995	-1.309491e-10	1.766291e-10	0.01463723	-0.003528004
	0.014645	-0.004109181	-1.309491e-10	1.766291e-10	0.02169892	-0.02535305	4.477605e-11	4.021887e-10
	1.011381e-10	4.909093e-10	0.01463723	-0.003528004	4.477605e-11	4.021887e-10	0.02236224	-0.02346041
2.4e+08	0.01912061	-0.02529184	7.49943e-11	3.298937e-10	0.01357987	-0.004951334	1.338348e-10	5.006124e-10
	7.49943e-11	3.298937e-10	0.01965942	-0.0239763	-1.223521e-10	1.936346e-10	0.01362958	-0.004346712
	0.01357987	-0.004951334	-1.223521e-10	1.936346e-10	0.01887689	-0.02571683	7.805065e-11	4.09168e-10
	1.338348e-10	5.006124e-10	0.01362958	-0.004346712	7.805065e-11	4.09168e-10	0.01968783	-0.02386769
2.5e+08	0.01631341	-0.025315	1.000014e-10	3.322654e-10	0.01237677	-0.00560067	1.670301e-10	5.057938e-10
	1.000014e-10	3.322654e-10	0.01696438	-0.02402342	-1.119732e-10	2.100061e-10	0.01248603	-0.004984387
	0.01237677	-0.00560067	-1.119732e-10	2.100061e-10	0.01604092	-0.02568759	1.119579e-10	4.114072e-10
	1.670301e-10	5.057938e-10	0.01248603	-0.004984387	1.119579e-10	4.114072e-10	0.01698901	-0.02390484
2.6e+08	0.01354285	-0.02494978	1.249327e-10	3.310494e-10	0.01106981	-0.006036892	2.000165e-10	5.063009e-10
	1.249327e-10	3.310494e-10	0.01429841	-0.02370279	-9.985422e-11	2.254641e-10	0.01123839	-0.005421027
	0.01106981	-0.006036892	-9.985422e-11	2.254641e-10	0.01324929	-0.02526815	1.457653e-10	4.087282e-10
	2.000165e-10	5.063009e-10	0.01123839	-0.005421027	1.457653e-10	4.087282e-10	0.01432026	-0.0235735
2.7e+08	0.01086607	-0.02420679	1.492347e-10	3.261984e-10	0.009695985	-0.006245645	2.320512e-10	5.020923e-10
	1.492347e-10	3.261984e-10	0.01171484	-0.0230239	-8.607722e-11	2.39723e-10	0.009921334	-0.005642152
	0.009695985	-0.006245645	-8.607722e-11	2.39723e-10	0.01055918	-0.02447003	1.787035e-10	4.010646e-10
	2.320512e-10	5.020923e-10	0.009921334	-0.005642152	1.787035e-10	4.010646e-10	0.01173501	-0.02288333
2.8e+08	0.008337841	-0.02310505	1.723398e-10	3.177488e-10	0.008294173	-0.006218915	2.623731e-10	4.93246e-10
	1.723398e-10	3.177488e-10	0.00926485	-0.02200396	-7.076985e-11	2.524955e-10	0.008571463	-0.005639205
	0.008294173	-0.006218915	-7.076985e-11	2.524955e-10	0.008025338	-0.02331317	2.099829e-10	3.884701e-10
	2.623731e-10	4.93246e-10	0.008571463	-0.005639205	2.099829e-10	3.884701e-10	0.009284532	-0.02185174
2.9e+08	0.006009344	-0.02167157	1.936779e-10	3.058242e-10	0.006904044	-0.005955253	2.902213e-10	4.799645e-10
	1.936779e-10	3.058242e-10	0.006996303	-0.02066754	-5.410942e-11	2.635002e-10	0.007226284	-0.005409785
	0.006904044	-0.005955253	-5.410942e-11	2.635002e-10	0.005698816	-0.02182552	2.388102e-10	3.711221e-10
	2.902213e-10	4.799645e-10	0.007226284	-0.005409785	2.388102e-10	3.711221e-10	0.007016745	-0.0205035
3e+08	0.003927006	-0.01994071	2.126881e-10	2.906361e-10	0.00556496	-0.005459823	3.148551e-10	4.625762e-10
	2.126881e-10	2.906361e-10	0.004952729	-0.01904596	-3.63262e-11	2.724704e-10	0.005923192	-0.004957721
	0.00556496	-0.005459823	-3.63262e-11	2.724704e-10	0.003625822	-0.02004237	2.644076e-10	3.493245e-10
	3.148551e-10	4.625762e-10	0.005923192	-0.004957721	2.644076e-10	3.493245e-10	0.004975204	-0.01887015
3.1e+08	0.002131449	-0.01795341	2.288323e-10	2.724857e-10	0.004314887	-0.004744258	3.355754e-10	4.415359e-10
	2.288323e-10	2.724857e-10	0.003172369	-0.01717655	-1.770494e-11	2.79165e-10	0.004698439	-0.004292968
	0.004314887	-0.004744258	-1.770494e-11	2.79165e-10	0.001846645	-0.01800556	2.860322e-10	3.23509e-10
	3.355754e-10	4.415359e-10	0.004698439	-0.004292968	2.860322e-10	3.23509e-10	0.003198128	-0.01698923
3.2e+08	0.0006565458	-0.01575616	2.416079e-10	2.517619e-10	0.003189337	-0.00382634	3.517458e-10	4.174192e-10
	2.416079e-10	2.517619e-10	0.001687324	-0.01510178	1.416333e-12	2.833801e-10	0.003586132	-0.003431329
	0.003189337	-0.00382634	1.416333e-12	2.833801e-10	0.0003947076	-0.01576245	3.029965e-10	2.942314e-10
	3.517458e-10	4.174192e-10	0.003586132	-0.003431329	3.029965e-10	2.942314e-10	0.001717567	-0.01490347
3.3e+08	-0.0004713397	-0.01339996	2.505623e-10	2.289388e-10	0.002220376	-0.002729507	3.628139e-10	3.909146e-10
	2.505623e-10	2.289388e-10	0.0005228875	-0.01286832	2.065025e-11	2.849624e-10	0.002617302	-0.00239402
	0.002220376	-0.002729507	2.065025e-11	2.849624e-10	-0.0007041742	-0.01336488	3.146889e-10	2.621662e-10
	3.628139e-10	3.909146e-10	0.002617302	-0.00239402	3.146889e-10	2.621662e-10	0.0005587082	-0.01265971
3.4e+08	-0.00123394	-0.0109391	2.553073e-10	2.045704e-10	0.001435742	-0.001482205	3.683323e-10	3.628117e-10
	2.553073e-10	2.045704e-10	-0.0003030008	-0.01052586	3.956757e-11	2.838211e-10	0.001819046	-0.001207091
	0.001435742	-0.001482205	3.956757e-11	2.838211e-10	-0.001432403	-0.0108679	3.205955e-10	2.280968e-10
	3.683323e-10	3.628117e-10	0.001819046	-0.001207091	3.205955e-10	2.280968e-10	-0.0002606382	-0.01030785
3.5e+08	-0.001621496	-0.008429885	2.555334e-10	1.792832e-10	0.0008580675	-0.000117096	3.679772e-10	3.339849e-10
	2.555334e-10	1.792832e-10	-0.0007801143	-0.008126066	5.770795e-11	2.799399e-10	0.001213789	9.930153e-05
	0.0008580675	-0.000117096	5.770795e-11	2.799399e-10	-0.001780983	-0.008328488	3.203191e-10	1.929026e-10
	3.679772e-10	3.339849e-10	0.001213789	9.930152e-05	3.203191e-10	1.929026e-10	-0.0007304156	-0.00789971
3.6e+08	-0.001632941	-0.00592928	2.510241e-10	1.537612e-10	0.000504254	0.001329849	3.615677e-10	3.053672e-10
	2.510241e-10	1.537612e-10	-0.000906115	-0.005721303	7.459395e-11	2.733857e-10	0.0008186719	0.001491716
	0.000504254	0.001329849	7.459395e-11	2.733857e-10	-0.001749714	-0.00580419	3.135982e-10	1.575412e-10
	3.615677e-10	3.053672e-10	0.0008186719	0.001491716	3.135982e-10	1.575412e-10	-0.0008484828	-0.005487797
3.7e+08	-0.001275894	-0.003493602	2.416664e-10	1.287438e-10	0.0003850058	0.002820345	3.49069e-10	2.779434e-10
	2.416664e-10	1.287438e-10	-0.0006865529	-0.00336348	8.97479e-11	2.643153e-10	0.0006450831	0.002934354
	0.0003850058	0.002820345	8.97479e-11	2.643153e-10	-0.001347157	-0.003351787	3.003231e-10	1.230277e-10
	3.49069e-10	2.779434e-10	0.0006450831	0.002934354	3.003231e-10	1.230277e-10	-0.0006206088	-0.003124113
3.8e+08	-0.000566438	-0.001177172	2.274655e-10	1.05001e-10	0.0005045355	0.004314854	3.30612e-10	2.527104e-10
	2.274655e-10	1.05001e-10	-0.000134675	-0.001102847	1.027105e-10	2.529779e-10	0.0006983574	0.004390034
	0.0005045355	0.004314854	1.027105e-10	2.529779e-10	-0.00059041	-0.001025938	2.80548e-10	9.040967e-11
	3.30612e-10	2.527104e-10	0.0006983574	0.004390034	2.80548e-10	9.040967e-11	-6.027605e-05	-0.000858966
3.9e+08	0.000471303	0.0009689425	2.085522e-10	8.331537e-11	0.0008604508	0.005773676	3.064947e-10	2.306523e-10
	2.085522e-10	8.331537e-11	0.0007289402	0.00101314	1.130604e-10	2.397124e-10	0.0009776352	0.005821214
	0.0008604508	0.005773676	1.130604e-10	2.397124e-10	0.0004953414	0.001122097	2.545003e-10	6.073982e-11
	3.064947e-10	2.306523e-10	0.0009776352	0.005821214	2.545003e-10	6.073982e-11	0.0008116938	0.001260174
4e+08	0.001805778	0.002898126	1.851879e-10	6.446163e-11	0.001443822	0.007158045	2.771808e-10	2.127114e-10
	1.851879e-10	6.446163e-11	0.001876919	0.002940885	1.204335e-10	2.249413e-10	0.001475895	0.007191013
	0.001443822	0.007158045	1.204335e-10	2.249413e-10	0.001877453	0.003045658	2.225837e-10	3.504584e-11
	2.771808e-10	2.127114e-10	0.001475895	0.007191013	2.225837e-10	3.504584e-11	0.001967684	0.003189745
4.1e+08	0.003398801	0.004569288	1.577664e-10	4.918285e-11	0.002239431	0.008431189	2.432933e-10	1.997596e-10
	1.577664e-10	4.918285e-11	0.003275785	0.004641631	1.245408e-10	2.091593e-10	0.00218015	0.008464213
	0.002239431	0.008431189	1.245408e-10	2.091593e-10	0.003516638	0.004703771	1.853767e-10	1.429897e-11
	2.432933e-10	1.997596e-10	0.00218015	0.008464213	1.853767e-10	1.429897e-11	0.003373982	0.004891059
4.2e+08	0.005206493	0.005947803	1.268104e-10	3.816664e-11	0.00322619	0.009559341	2.056031e-10	1.925696e-10
	1.268104e-10	3.816664e-11	0.004886782	0.006082294	1.251831e-10	1.929178e-10	0.003071812	0.00960821
	0.00322619	0.009559341	1.251831e-10	1.929178e-10	0.005367931	0.006062081	1.436239e-10	-6.171711e-13
	2.056031e-10	1.925696e-10	0.003071812	0.00960821	1.436239e-10	-6.171711e-13	0.004991611	0.006331147
4.3e+08	0.007180362	0.007006292	9.296361e-11	3.202113e-11	0.004377717	0.01051266	1.650119e-10	1.917894e-10
	9.296361e-11	3.202113e-11	0.006666825	0.007236179	1.222628e-10	1.768063e-10	0.004127198	0.0105939
	0.004377717	0.01051266	1.222628e-10	1.768063e-10	0.007381793	0.007093643	9.822224e-11	-8.936813e-12
	1.650119e-10	1.917894e-10	0.004127198	0.0105939	9.822224e-11	-8.936813e-12	0.006777287	0.007483468
4.4e+08	0.009268482	0.007725218	5.697786e-11	3.125242e-11	0.005663059	0.01126604	1.225303e-10	1.979198e-10
	5.697786e-11	3.125242e-11	0.00856953	0.008083534	1.157903e-10	1.614316e-10	0.005318175	0.01139644
	0.005663059	0.01126604	1.157903e-10	1.614316e-10	0.009505316	0.007779508	5.020096e-11	-1.003942e-11
	1.225303e-10	1.979198e-10	0.005318175	0.01139644	5.020096e-11	-1.003942e-11	0.008684458	0.008328454
4.5e+08	0.01141675	0.008093308	1.969554e-11	3.62439e-11	0.007047531	0.0117998	7.925234e-11	2.112957e-10
	1.969554e-11	3.62439e-11	0.01054632	0.008611932	1.058865e-10	1.473959e-10	0.006612925	0.01199594
	0.007047531	0.0117998	1.058865e-10	1.473959e-10	0.0116835	0.008109133	6.961412e-13	-3.473791e-12
	7.925234e-11	2.112957e-10	0.006612925	0.01199594	6.961412e-13	-3.473791e-12	0.01066441	0.008853893
4.6e+08	0.01357019	0.00810775	-1.79723e-11	4.723973e-11	0.008493651	0.01210023	3.632642e-11	2.320727e-10
	-1.79723e-11	4.723973e-11	0.01254758	0.008816489	9.273229e-11	1.352655e-10	0.007976798	0.01237799
	0.008493651	0.01210023	9.273229e-11	1.352655e-10	0.01386058	0.00808057	-4.912051e-11	1.100478e-11
	3.632642e-11	2.320727e-10	0.007976798	0.01237799	-4.912051e-11	1.100478e-11	0.01266743	0.009055138
4.7e+08	0.01567426	0.007774209	-5.507021e-11	6.433352e-11	0.009962159	0.01215991	-5.074594e-12	2.60221e-10
	-5.507021e-11	6.433352e-11	0.01452378	0.008699896	7.648117e-11	1.25575e-10	0.009373243	0.012534
	0.009962159	0.01215991	7.648117e-11	1.25575e-10	0.01598137	0.007700446	-9.815522e-11	3.343666e-11
	-5.074594e-12	2.60221e-10	0.009373243	0.012534	-9.815522e-11	3.343666e-11	0.01464395	0.008935097
4.8e+08	0.01767613	0.007106637	-9.062667e-11	8.745456e-11	0.01141307	0.01197802	-4.378791e-11	2.955156e-10
