!$
! Info: Touchstone file created by Circ.  Input file=Tx_8in_Rx_93ohms_TxVia_35mils_RxVia_45mils.circ
!$
# Hz S RI R 50
0	0.007420027	1.067243e-25	7.434228e-10	1.284831e-27	6.233703e-05	1.382213e-23	3.686035e-10	2.871236e-28
	7.434229e-10	1.28481e-27	0.007418349	1.294575e-25	2.505013e-09	4.932138e-27	6.21979e-05	1.674759e-23
	6.21511e-05	1.37641e-23	2.505013e-09	4.932147e-27	0.007430778	1.06716e-25	7.457265e-10	1.375565e-27
	3.686035e-10	2.871174e-28	6.035033e-05	1.683014e-23	7.457269e-10	1.375582e-27	0.007431496	1.212875e-25
1e+07	0.01062741	-0.0004685249	9.560475e-10	1.346521e-09	0.000248686	0.001576566	5.976631e-10	6.531352e-10
	9.560475e-10	1.346521e-09	0.01084161	-0.0004832419	3.564707e-09	6.835019e-09	0.0002453262	0.001571375
	0.0002486807	0.001576567	3.564707e-09	6.835019e-09	0.01086318	-0.0004865205	9.499877e-10	1.366342e-09
	5.976631e-10	6.531352e-10	0.000245266	0.001571385	9.499875e-10	1.366342e-09	0.01063387	-0.0004861826
2e+07	0.01259592	-0.00355122	1.361403e-09	2.320924e-09	0.0005894654	0.003138086	9.675758e-10	1.046423e-09
	1.361403e-09	2.320924e-09	0.01273237	-0.00365308	4.684095e-09	1.202708e-08	0.0005801212	0.003130149
	0.0005894668	0.00313809	4.684095e-09	1.202708e-08	0.01277459	-0.003664096	1.329362e-09	2.359918e-09
	9.675758e-10	1.046423e-09	0.0005801128	0.003130184	1.329362e-09	2.359918e-09	0.01257432	-0.003582942
3e+07	0.01328063	-0.007637236	1.743747e-09	3.195951e-09	0.001238185	0.004539287	1.374053e-09	1.341101e-09
	1.743747e-09	3.195951e-09	0.0133371	-0.007761104	5.409568e-09	1.706275e-08	0.001205664	0.004536019
	0.001238187	0.004539287	5.409568e-09	1.706275e-08	0.01341184	-0.007787246	1.665417e-09	3.268184e-09
	1.374053e-09	1.341101e-09	0.001205664	0.004536024	1.665417e-09	3.268184e-09	0.01321533	-0.007673696
4e+07	0.01295271	-0.01198501	2.138863e-09	3.970189e-09	0.002130611	0.005779923	1.820975e-09	1.520466e-09
	2.138863e-09	3.970189e-09	0.01292388	-0.01210482	5.991825e-09	2.202321e-08	0.002078112	0.005785085
	0.002130612	0.005779921	5.991825e-09	2.202321e-08	0.01304101	-0.01215615	1.999688e-09	4.093185e-09
	1.820975e-09	1.520465e-09	0.002078106	0.005785083	1.999688e-09	4.093185e-09	0.01282976	-0.01201485
5e+07	0.011732	-0.01631817	2.536575e-09	4.646697e-09	0.003198373	0.006842358	2.286685e-09	1.578448e-09
	2.536575e-09	4.646697e-09	0.01161387	-0.01641155	6.465845e-09	2.692937e-08	0.003123403	0.006861459
	0.003198373	0.006842357	6.465845e-09	2.692937e-08	0.01178065	-0.01650088	2.327283e-09	4.840726e-09
	2.286685e-09	1.578448e-09	0.003123399	0.006861458	2.327283e-09	4.840726e-09	0.0115398	-0.01632673
6e+07	0.009710635	-0.02044954	2.919393e-09	5.228505e-09	0.004410154	0.007702706	2.744415e-09	1.513959e-09
	2.919393e-09	5.228505e-09	0.009502199	-0.02049488	6.845768e-09	3.181484e-08	0.004311398	0.00774176
	0.004410155	0.007702706	6.845768e-09	3.181484e-08	0.009722436	-0.02063679	2.636e-09	5.51532e-09
	2.744415e-09	1.513959e-09	0.0043114	0.007741759	2.636e-09	5.51532e-09	0.009441057	-0.02041966
7e+07	0.006979474	-0.02423316	3.270851e-09	5.7205e-09	0.005730388	0.00834152	3.168709e-09	1.331007e-09
	3.270851e-09	5.7205e-09	0.006683241	-0.02420932	7.150579e-09	3.670826e-08	0.005607824	0.008406846
	0.00573039	0.00834152	7.150579e-09	3.670826e-08	0.006957174	-0.0244192	2.914516e-09	6.122607e-09
	3.168709e-09	1.331007e-09	0.005607832	0.008406843	2.914516e-09	6.122607e-09	0.006628192	-0.02414609
8e+07	0.00363608	-0.02755027	3.574555e-09	6.128666e-09	0.007120427	0.008745054	3.535322e-09	1.038062e-09
	3.574555e-09	6.128666e-09	0.003258264	-0.02743673	7.402275e-09	4.16286e-08	0.006975407	0.008843044
	0.00712043	0.008745053	7.402275e-09	4.16286e-08	0.003582618	-0.02773005	3.151641e-09	6.668821e-09
	3.535322e-09	1.038062e-09	0.006975417	0.008843038	3.151641e-09	6.668821e-09	0.003202681	-0.02738641
9e+07	-0.0002123627	-0.03030382	3.8134e-09	6.461294e-09	0.008539671	0.008905929	3.813625e-09	6.491128e-10
	3.8134e-09	6.461294e-09	-0.0006615347	-0.03008088	7.61707e-09	4.658154e-08	0.00837497	0.009042818
	0.008539673	0.008905929	7.617071e-09	4.658154e-08	-0.0002934833	-0.03047257	3.330193e-09	7.160027e-09
	3.813625e-09	6.491127e-10	0.008374977	0.009042812	3.330193e-09	7.160027e-09	-0.0007242544	-0.03004338
1e+08	-0.004439086	-0.03240801	3.951572e-09	6.729137e-09	0.0099465	0.008822959	3.931872e-09	2.04915e-10
	3.951572e-09	6.729137e-09	-0.004943252	-0.03205543	7.772727e-09	5.15453e-08	0.009766544	0.009004766
	0.0099465	0.00882296	7.772727e-09	5.15453e-08	-0.004541567	-0.0325592	3.418777e-09	7.607994e-09
	3.931872e-09	2.04915e-10	0.009766544	0.009004766	3.418777e-09	7.607994e-09	-0.00502156	-0.0320316
1.1e+08	-0.008901816	-0.03390348	4.019678e-09	6.958253e-09	0.0112974	0.008506399	3.971774e-09	-2.901048e-10
	4.019678e-09	6.958253e-09	-0.009436029	-0.03341796	7.936705e-09	5.657569e-08	0.0111086	0.008736477
	0.0112974	0.008506399	7.936705e-09	5.657569e-08	-0.009014282	-0.03404636	3.469465e-09	8.040742e-09
	3.971774e-09	-2.901048e-10	0.0111086	0.008736477	3.469465e-09	8.040742e-09	-0.00954016	-0.03339446
1.2e+08	-0.01357129	-0.0347088	3.985644e-09	7.151826e-09	0.01255853	0.007969003	3.880135e-09	-8.389044e-10
	3.985644e-09	7.151826e-09	-0.01412424	-0.03408425	8.110075e-09	6.166016e-08	0.01236628	0.008250655
	0.01255853	0.007969003	8.110075e-09	6.166016e-08	-0.01369902	-0.03484619	3.443275e-09	8.446478e-09
	3.880135e-09	-8.389044e-10	0.01236628	0.008250655	3.443275e-09	8.446478e-09	-0.01425148	-0.03405292
1.3e+08	-0.01830999	-0.03479145	3.836297e-09	7.333124e-09	0.01369383	0.007229169	3.646218e-09	-1.403784e-09
	3.836297e-09	7.333124e-09	-0.01886539	-0.03402131	8.307912e-09	6.680295e-08	0.01350474	0.007564929
	0.01369383	0.007229169	8.307912e-09	6.680295e-08	-0.0184554	-0.03492245	3.329178e-09	8.844872e-09
	3.646218e-09	-1.403784e-09	0.01350474	0.007564929	3.329178e-09	8.844872e-09	-0.01901425	-0.03397652
1.4e+08	-0.02299353	-0.03415282	3.566041e-09	7.524191e-09	0.01467133	0.006311651	3.264287e-09	-1.956367e-09
	3.566041e-09	7.524191e-09	-0.02353255	-0.033233	8.547245e-09	7.200204e-08	0.01449281	0.006702813
	0.01467133	0.006311651	8.547245e-09	7.200204e-08	-0.02315799	-0.0342754	3.123165e-09	9.253244e-09
	3.264287e-09	-1.956367e-09	0.01449281	0.006702813	3.123165e-09	9.253244e-09	-0.023701	-0.03316987
1.5e+08	-0.02750396	-0.03281557	3.17458e-09	7.744631e-09	0.01546392	0.005246191	2.732056e-09	-2.470337e-09
	3.17458e-09	7.744631e-09	-0.02800614	-0.03174544	8.843744e-09	7.725165e-08	0.01530383	0.005692608
	0.01546392	0.005246191	8.843744e-09	7.725165e-08	-0.02768803	-0.03292719	2.825694e-09	9.68601e-09
	2.732056e-09	-2.470337e-09	0.01530383	0.005692608	2.825694e-09	9.68601e-09	-0.02819142	-0.03165971
1.6e+08	-0.03173129	-0.03082105	2.661115e-09	8.032142e-09	0.01604996	0.004066543	2.056871e-09	-2.909064e-09
	2.661115e-09	8.032142e-09	-0.03217537	-0.02960385	9.211781e-09	8.254298e-08	0.01591636	0.004566511
	0.01604996	0.004066543	9.211781e-09	8.254298e-08	-0.03193482	-0.03091889	2.435787e-09	1.017524e-08
	2.056871e-09	-2.909064e-09	0.01591636	0.004566511	2.435787e-09	1.017524e-08	-0.03237409	-0.02949201
1.7e+08	-0.03557551	-0.02822714	2.035606e-09	8.414624e-09	0.01641391	0.00280944	1.250217e-09	-3.243874e-09
	2.035606e-09	8.414624e-09	-0.03594035	-0.02687027	9.663417e-09	8.786462e-08	0.01631469	0.003359653
	0.01641391	0.00280944	9.663417e-09	8.786462e-08	-0.03579771	-0.02830835	1.962112e-09	1.074321e-08
	1.250217e-09	-3.243874e-09	0.01631469	0.003359653	1.962112e-09	1.074321e-08	-0.03614859	-0.0267296
1.8e+08	-0.03894849	-0.02510622	1.314253e-09	8.918713e-09	0.01654661	0.001513528	3.288928e-10	-3.44802e-09
	1.314253e-09	8.918713e-09	-0.03921394	-0.02362123	1.020835e-08	9.320299e-08	0.0164892	0.002109093
	0.01654661	0.001513528	1.020835e-08	9.320299e-08	-0.03918805	-0.02516798	1.418476e-09	1.141107e-08
	3.288928e-10	-3.44802e-09	0.0164892	0.002109093	1.418476e-09	1.141107e-08	-0.0394274	-0.02344986
1.9e+08	-0.04177576	-0.02154289	5.193783e-10	9.568279e-09	0.01644551	0.0002182613	-6.853057e-10	-3.497577e-09
	5.193783e-10	9.568279e-09	-0.04192346	-0.01994533	1.085364e-08	9.854266e-08	0.01643655	0.0008527799
	0.01644551	0.0002182613	1.085364e-08	9.854266e-08	-0.04203082	-0.02158255	8.237305e-10	1.219757e-08
	-6.853057e-10	-3.497577e-09	0.01643655	0.0008527799	8.237305e-10	1.219757e-08	-0.04213768	-0.01974227
2e+08	-0.04399788	-0.01763165	-3.210743e-10	1.038294e-08	0.01611464	-0.001037189	-1.766045e-09	-3.372313e-09
	-3.210743e-10	1.038294e-08	-0.04401212	-0.01594076	1.160342e-08	1.038668e-07	0.01615968	-0.0003714781
	0.01611464	-0.001037189	1.160342e-08	1.038668e-07	-0.04426614	-0.0176468	2.013422e-10	1.311781e-08
	-1.766045e-09	-3.372313e-09	0.01615968	-0.0003714781	2.013422e-10	1.311781e-08	-0.04422256	-0.01570587
2.1e+08	-0.04557158	-0.01347435	-1.174424e-09	1.137671e-08	0.01556444	-0.002215005	-2.883048e-09	-3.056485e-09
	-1.174424e-09	1.137671e-08	-0.04543997	-0.01171256	1.245864e-08	1.091577e-07	0.01566768	-0.001527029
	0.01556444	-0.002215005	1.245864e-08	1.091577e-07	-0.04585031	-0.01346287	-4.213824e-10	1.418205e-08
	-2.883048e-09	-3.056485e-09	0.01566768	-0.001527029	-4.213824e-10	1.418205e-08	-0.04564219	-0.01144655
2.2e+08	-0.04647047	-0.009177599	-2.004486e-09	1.255684e-08	0.0148114	-0.003279734	-4.002829e-09	-2.539554e-09
	-2.004486e-09	1.255684e-08	-0.0461846	-0.007369912	1.34169e-08	1.14397e-07	0.01497546	-0.002579341
	0.0148114	-0.003279734	1.34169e-08	1.14397e-07	-0.04675657	-0.009137722	-1.014381e-09	1.539474e-08
	-4.002829e-09	-2.539554e-09	0.01497546	-0.002579341	-1.014381e-09	1.539474e-08	-0.0463744	-0.007074271
2.3e+08	-0.0466854	-0.004850058	-2.773085e-09	1.392295e-08	0.01387761	-0.004199231	-5.089543e-09	-1.816798e-09
	-2.773085e-09	1.392295e-08	-0.04624132	-0.003023362	1.447226e-08	1.195668e-07	0.01410334	-0.003496896
	0.01387761	-0.004199231	1.447226e-08	1.195668e-07	-0.04697545	-0.004780451	-1.546176e-09	1.675382e-08
	-5.089543e-09	-1.816798e-09	0.01410334	-0.003496896	-1.546176e-09	1.675382e-08	-0.04641485	-0.002700297
2.4e+08	-0.04622442	-0.0005997974	-3.441763e-09	1.546663e-08	0.0127901	-0.004945499	-6.105953e-09	-8.898035e-10
	-3.441763e-09	1.546663e-08	-0.04562302	0.001217971	1.561525e-08	1.246497e-07	0.01307645	-0.004252003
	0.0127901	-0.004945499	1.561525e-08	1.246497e-07	-0.04651475	-0.000499597	-1.985381e-09	1.825036e-08
	-6.105953e-09	-8.898035e-10	0.01307645	-0.004252003	-1.985381e-09	1.825036e-08	-0.04577689	0.001565606
2.5e+08	-0.04511239	0.00346834	-3.973632e-09	1.71713e-08	0.01158008	-0.005495423	-7.014507e-09	2.331932e-10
	-3.973632e-09	1.71713e-08	-0.04435961	0.005249063	1.683292e-08	1.296301e-07	0.01192404	-0.004821504
	0.01158008	-0.005495423	1.683292e-08	1.296301e-07	-0.04539912	0.00359947	-2.302336e-09	1.986856e-08
	-7.014507e-09	2.331932e-10	0.01192404	-0.004821504	-2.302336e-09	1.986856e-08	-0.04449101	0.005617862
2.6e+08	-0.04339012	0.007255253	-4.306654e-09	1.902727e-08	0.01028212	-0.005831369	-7.778934e-09	1.536553e-09
	-4.306654e-09	1.902727e-08	-0.04249708	0.008971592	1.811575e-08	1.34502e-07	0.01067871	-0.005187364
	0.01028212	-0.005831369	1.811575e-08	1.34502e-07	-0.04366929	0.007417124	-2.441878e-09	2.160083e-08
	-7.778934e-09	1.536553e-09	0.01067871	-0.005187364	-2.441878e-09	2.160083e-08	-0.04260378	0.00935766
2.7e+08	-0.04111328	0.01066995	-4.429741e-09	2.098152e-08	0.008933209	-0.00594165	-8.364471e-09	2.999064e-09
	-4.429741e-09	2.098152e-08	-0.04009607	0.0122962	1.944216e-08	1.392447e-07	0.009375521	-0.005337136
	0.008933209	-0.00594165	1.944216e-08	1.392447e-07	-0.04138085	0.01086175	-2.399979e-09	2.339737e-08
	-8.364471e-09	2.999064e-09	0.009375521	-0.005337136	-2.399979e-09	2.339737e-08	-0.0401766	0.01269533
2.8e+08	-0.03835085	0.01363169	-4.327422e-09	2.299212e-08	0.007571744	-0.005820838	-8.73969e-09	4.59248e-09
	-4.327422e-09	2.299212e-08	-0.03723033	0.01514472	2.078889e-08	1.438487e-07	0.008051103	-0.00526428
	0.007571744	-0.005820838	2.078889e-08	1.438487e-07	-0.03860283	0.01385199	-2.167563e-09	2.522084e-08
	-8.73969e-09	4.59248e-09	0.008051103	-0.00526428	-2.167563e-09	2.522084e-08	-0.03728394	0.01555252
2.9e+08	-0.03518332	0.01607193	-3.988022e-09	2.501658e-08	0.006236524	-0.005469916	-8.87777e-09	6.282345e-09
	-3.988022e-09	2.501658e-08	-0.03398469	0.01745203	2.213164e-08	1.4831e-07	0.006742648	-0.004968341
	0.006236524	-0.005469916	2.213164e-08	1.4831e-07	-0.03541591	0.01631867	-1.738551e-09	2.703451e-08
	-8.87777e-09	6.282345e-09	0.006742648	-0.004968341	-1.738551e-09	2.703451e-08	-0.03401143	0.017864
3e+08	-0.03170065	0.01793582	-3.40846e-09	2.70105e-08	0.004965692	-0.004896269	-8.75765e-09	8.02881e-09
	-3.40846e-09	2.70105e-08	-0.03045286	0.01916754	2.344503e-08	1.526292e-07	0.005486946	-0.004454972
	0.004965692	-0.004896269	2.344503e-08	1.526292e-07	-0.03191029	0.01820636	-1.114499e-09	2.880077e-08
	-8.75765e-09	8.02881e-09	0.005486946	-0.004454972	-1.114499e-09	2.880077e-08	-0.03045355	0.01957924
3.1e+08	-0.02799998	0.01918361	-2.594404e-09	2.892947e-08	0.003795699	-0.004113508	-8.365126e-09	9.787604e-09
	-2.594404e-09	2.892947e-08	-0.02673502	0.02025641	2.470355e-08	1.568118e-07	0.004319392	-0.003735803
	0.003795699	-0.004113508	2.470355e-08	1.568118e-07	-0.02818346	0.0194747	-3.045596e-10	3.048287e-08
	-8.365126e-09	9.787604e-09	0.004319392	-0.003735803	-3.045596e-10	3.048287e-08	-0.02671123	0.02066356
3.2e+08	-0.02418316	0.01979141	-1.560019e-09	3.07308e-08	0.002760307	-0.003141132	-7.693796e-09	1.151124e-08
	-1.560019e-09	3.07308e-08	-0.0229352	0.02070024	2.588251e-08	1.608684e-07	0.003273033	-0.002828154
	0.002760307	-0.003141132	2.588251e-08	1.608684e-07	-0.02433774	0.0200993	6.749182e-10	3.204649e-08
	-7.693796e-09	1.151124e-08	0.003273033	-0.002828154	6.749182e-10	3.204649e-08	-0.02288924	0.02109888
3.3e+08	-0.02035421	0.01975179	-3.273201e-10	3.237527e-08	0.001889642	-0.002004029	-6.745776e-09	1.315041e-08
	-3.273201e-10	3.237527e-08	-0.01915867	0.02049752	2.695908e-08	1.64814e-07	0.00237766	-0.001754596
	0.001889642	-0.002004029	2.695908e-08	1.64814e-07	-0.02047769	0.02007226	1.801172e-09	3.346118e-08
	-6.745776e-09	1.315041e-08	0.00237766	-0.001754596	1.801172e-09	3.346118e-08	-0.01909351	0.0208841
3.4e+08	-0.01661672	0.01907385	1.074813e-09	3.382846e-08	0.001209339	-0.000731824	-5.532157e-09	1.46556e-08
	1.074813e-09	3.382846e-08	-0.0155092	0.01966351	2.791313e-08	1.686682e-07	0.001658975	-0.0005423662
	0.001209339	-0.000731824	2.791313e-08	1.686682e-07	-0.01670754	0.01940229	3.046096e-09	3.470155e-08
	-5.532157e-09	1.46556e-08	0.001658975	-0.0005423663	3.046096e-09	3.470155e-08	-0.01542843	0.02003502
3.5e+08	-0.01307122	0.0177829	2.611846e-09	3.506193e-08	0.0007398013	0.0006419037	-4.07315e-09	1.597877e-08
	2.611846e-09	3.506193e-08	-0.01208649	0.01822978	2.872815e-08	1.724543e-07	0.001137858	0.0007773491
	0.0007398013	0.0006419037	2.872815e-08	1.724543e-07	-0.01312852	0.01811443	4.377499e-09	3.574811e-08
	-4.07315e-09	1.597877e-08	0.001137858	0.0007773491	4.377499e-09	3.574811e-08	-0.01199418	0.01858384
3.6e+08	-0.009812731	0.0159198	4.244956e-09	3.605396e-08	0.000495581	0.002080533	-2.397885e-09	1.707509e-08
	4.244956e-09	3.605396e-08	-0.008983575	0.0162433	2.939192e-08	1.761986e-07	0.0008297603	0.002170249
	0.000495581	0.002080533	2.939192e-08	1.761986e-07	-0.00983639	0.01624936	5.76047e-09	3.658775e-08
	-2.397885e-09	1.707509e-08	0.0008297603	0.002170249	5.76047e-09	3.658775e-08	-0.008884202	0.01657826
3.7e+08	-0.006928323	0.01353982	5.932441e-09	3.679001e-08	0.0004849263	0.003545402	-5.438536e-10	1.790469e-08
	5.932441e-09	3.679001e-08	-0.006284507	0.01376519	2.989703e-08	1.799296e-07	0.0007442286	0.003599855
	0.0004849263	0.003545402	2.989703e-08	1.799296e-07	-0.006919026	0.0138623	7.15874e-09	3.721396e-08
	-5.438536e-10	1.790469e-08	0.0007442286	0.003599855	7.15874e-09	3.721396e-08	-0.006182804	0.01408015
3.8e+08	-0.004494992	0.01071121	7.63109e-09	3.726286e-08	0.0007094937	0.004996894	1.443994e-09	1.843424e-08
	7.63109e-09	3.726286e-08	-0.004062221	0.01086901	3.024122e-08	1.836771e-07	0.0008846016	0.005028517
	0.0007094937	0.004996894	3.024122e-08	1.836771e-07	-0.004454226	0.01102156	8.535958e-09	3.762664e-08
	1.443994e-09	1.843424e-08	0.0008846016	0.005028517	8.535958e-09	3.762664e-08	-0.003963057	0.01116392
3.9e+08	-0.002577735	0.007513411	9.29744e-09	3.747243e-08	0.001164247	0.006395549	3.514489e-09	1.863839e-08
	9.29744e-09	3.747243e-08	-0.00237671	0.007638883	3.042755e-08	1.874711e-07	0.001247871	0.00641847
	0.001164247	0.006395549	3.042755e-08	1.874711e-07	-0.002507789	0.0078068	9.856806e-09	3.783174e-08
	3.514489e-09	1.863839e-08	0.001247871	0.00641847	9.856806e-09	3.783174e-08	-0.002284952	0.007914518
4e+08	-0.001227946	0.004034973	1.088887e-08	3.742549e-08	0.00183755	0.007703206	5.61176e-09	1.850095e-08
	1.088887e-08	3.742549e-08	-0.001273539	0.00416718	3.046431e-08	1.913408e-07	0.001824728	0.007732908
	0.00183755	0.007703206	3.046431e-08	1.913408e-07	-0.001131887	0.004306901	1.10879e-08	3.784068e-08
	5.61176e-09	1.850095e-08	0.001824728	0.007732908	1.10879e-08	3.784068e-08	-0.0011939	0.00442515
4.1e+08	-0.0004821725	0.0003712891	1.236452e-08	3.713519e-08	0.002711452	0.008884105	7.676973e-09	1.801571e-08
	1.236452e-08	3.713519e-08	-0.0007827351	0.0005521393	3.036482e-08	1.95314e-07	0.002599793	0.008937039
	0.002711452	0.008884105	3.036482e-08	1.95314e-07	-0.0003637901	0.0006177234	1.219847e-08	3.766971e-08
	7.676973e-09	1.801571e-08	0.002599793	0.008937039	1.219847e-08	3.766971e-08	-0.0007196367	0.0007948632
4.2e+08	-0.0003612435	-0.003377876	1.368601e-08	3.662055e-08	0.003762163	0.009905939	9.650218e-09	1.718694e-08
	1.368601e-08	3.662055e-08	-0.0009180932	-0.003104736	3.014701e-08	1.994158e-07	0.003552023	0.009999093
	0.003762163	0.009905939	3.014701e-08	1.994158e-07	-0.0002249846	-0.003160385	1.316084e-08	3.733919e-08
	9.650218e-09	1.718694e-08	0.003552023	0.009999093	1.316084e-08	3.733919e-08	-0.0008755303	-0.002874089
4.3e+08	-0.0008698125	-0.007110948	1.481803e-08	3.590594e-08	0.004960708	0.01074081	1.147247e-08	1.602953e-08
	1.481803e-08	3.590594e-08	-0.001676904	-0.006701334	2.983289e-08	2.036682e-07	0.004655297	0.01089125
	0.004960708	0.01074081	2.983289e-08	2.036682e-07	-0.0007206864	-0.006925156	1.395069e-08	3.687306e-08
	1.147247e-08	1.602953e-08	0.004655297	0.01089125	1.395069e-08	3.687306e-08	-0.001658315	-0.006478916
4.4e+08	-0.001996314	-0.01072714	1.572886e-08	3.502065e-08	0.006273743	0.01136608	1.308749e-08	1.456865e-08
	1.572886e-08	3.502065e-08	-0.003040119	-0.01013758	2.944794e-08	2.080895e-07	0.005879153	0.01159045
	0.006273743	0.01136608	2.944794e-08	2.080895e-07	-0.001839784	-0.01057501	1.454725e-08	3.629827e-08
	1.308749e-08	1.456865e-08	0.005879153	0.01159045	1.454725e-08	3.629827e-08	-0.003048275	-0.009918966
4.5e+08	-0.003713337	-0.01412903	1.639075e-08	3.399848e-08	0.007664505	0.01176502	1.44437e-08	1.283914e-08
	1.639075e-08	3.399848e-08	-0.004972933	-0.01331803	2.902044e-08	2.126934e-07	0.007189651	0.01207907
	0.007664505	0.01176502	2.902044e-08	2.126934e-07	-0.003555189	-0.01401166	1.493338e-08	3.564438e-08
	1.44437e-08	1.283914e-08	0.007189651	0.01207907	1.493338e-08	3.564438e-08	-0.005009844	-0.01309834
4.6e+08	-0.005978394	-0.01722499	1.678045e-08	3.28774e-08	0.009093869	0.01192734	1.549579e-08	1.088457e-08
	1.678045e-08	3.28774e-08	-0.007425795	-0.01615432	2.858069e-08	2.174895e-07	0.008550352	0.01234545
	0.009093869	0.01192734	2.858069e-08	2.174895e-07	-0.005824611	-0.01714256	1.509576e-08	3.494331e-08
	1.549579e-08	1.088457e-08	0.008550352	0.01234545	1.509576e-08	3.494331e-08	-0.007492611	-0.01592836
4.7e+08	-0.008735095	-0.01993155	1.687973e-08	3.169925e-08	0.01052148	0.01184953	1.620616e-08	8.755918e-09
	1.687973e-08	3.169925e-08	-0.01033576	-0.01856741	2.816034e-08	2.224821e-07	0.009923368	0.01238422
	0.01052148	0.01184953	2.816034e-08	2.224821e-07	-0.008591695	-0.01988325	1.502507e-08	3.422912e-08
	1.620616e-08	8.755918e-09	0.009923368	0.01238422	1.502507e-08	3.422912e-08	-0.01043277	-0.01832979
4.8e+08	-0.01191466	-0.02217536	1.667597e-08	3.05093e-08	0.01190692	0.0115349	1.654605e-08	6.510183e-09
