!$
! Info: Touchstone file created by Circ.  Input file=Tx_8in_Rx_85ohms_TxVia_35mils_RxVia_45mils.circ
!$
# Hz S RI R 50
0	0.006528972	1.117899e-25	1.76711e-08	1.449856e-26	6.20031e-05	1.238624e-23	3.439453e-08	3.240195e-27
	1.767112e-08	1.449731e-26	0.006527861	1.299744e-25	3.432027e-08	5.231513e-26	6.242382e-05	1.472197e-23
	6.016632e-05	1.271961e-23	3.432028e-08	5.231546e-26	0.006541535	1.065689e-25	2.09749e-08	1.71762e-26
	3.439453e-08	3.240856e-27	6.057642e-05	1.479457e-23	2.09749e-08	1.717737e-26	0.006541023	1.217705e-25
1e+07	0.008554228	-0.007330107	2.734371e-08	4.96535e-08	0.0002521234	0.001560485	8.245348e-08	1.459894e-07
	2.734371e-08	4.96535e-08	0.008545308	-0.007329803	5.567939e-08	1.581281e-07	0.0002491191	0.001561281
	0.0002520636	0.001560489	5.567939e-08	1.581281e-07	0.00854393	-0.007318113	3.226462e-08	5.937795e-08
	8.245348e-08	1.459894e-07	0.000249059	0.001561291	3.226462e-08	5.937795e-08	0.008533885	-0.007317566
2e+07	0.008870524	-0.01682889	4.446418e-08	8.731833e-08	0.0006802933	0.003021828	1.655606e-07	2.458435e-07
	4.446418e-08	8.731833e-08	0.008835703	-0.01682402	7.09346e-08	2.890889e-07	0.0006687039	0.003025162
	0.0006802814	0.003021866	7.09346e-08	2.890889e-07	0.008869488	-0.01679774	5.261589e-08	1.043248e-07
	1.655604e-07	2.458436e-07	0.000668696	0.003025196	5.261589e-08	1.043248e-07	0.00883038	-0.01679177
3e+07	0.006791157	-0.02705314	6.431215e-08	1.195489e-07	0.001337453	0.00437156	2.734687e-07	3.179642e-07
	6.431215e-08	1.195489e-07	0.006714978	-0.02703485	7.694442e-08	4.176782e-07	0.001312413	0.004380452
	0.001337456	0.004371565	7.694442e-08	4.176782e-07	0.00679876	-0.02701071	7.613823e-08	1.428183e-07
	2.734687e-07	3.179642e-07	0.001312413	0.004380457	7.613823e-08	1.428183e-07	0.006713372	-0.02698926
4e+07	0.002690266	-0.03698989	8.710667e-08	1.460272e-07	0.002202478	0.005575721	4.03356e-07	3.572754e-07
	8.710667e-08	1.460272e-07	0.002559604	-0.03694601	7.811646e-08	5.465781e-07	0.002159969	0.005594319
	0.002202473	0.005575717	7.811646e-08	5.465781e-07	0.002706164	-0.03693923	1.031139e-07	1.745411e-07
	4.03356e-07	3.572754e-07	0.002159964	0.005594317	1.031139e-07	1.745411e-07	0.002559931	-0.03688867
5e+07	-0.00319245	-0.04619478	1.116444e-07	1.661686e-07	0.003245562	0.00660202	5.47312e-07	3.589915e-07
	1.116444e-07	1.661686e-07	-0.003387659	-0.04610976	7.55789e-08	6.768649e-07	0.003182657	0.006635422
	0.003245558	0.006602019	7.557889e-08	6.768649e-07	-0.003168816	-0.04613818	1.321589e-07	1.987756e-07
	5.47312e-07	3.589915e-07	0.003182653	0.006635421	1.321589e-07	1.987756e-07	-0.00338706	-0.0460411
6e+07	-0.01062409	-0.05434407	1.365211e-07	1.797399e-07	0.004431286	0.007424022	6.963976e-07	3.204993e-07
	1.365211e-07	1.797399e-07	-0.01088988	-0.0542	7.01537e-08	8.096213e-07	0.004346329	0.007477991
	0.00443129	0.007424022	7.01537e-08	8.096213e-07	-0.01059358	-0.05428339	1.615936e-07	2.152308e-07
	6.963976e-07	3.204993e-07	0.004346332	0.00747799	1.615936e-07	2.152308e-07	-0.01089048	-0.05411975
7e+07	-0.01935531	-0.06118431	1.603176e-07	1.867612e-07	0.005720385	0.008022214	8.414045e-07	2.410124e-07
	1.603176e-07	1.867612e-07	-0.01969345	-0.060962	6.279527e-08	9.45733e-07	0.005613089	0.008102893
	0.005720397	0.008022211	6.279529e-08	9.45733e-07	-0.01931907	-0.06112103	1.897226e-07	2.239527e-07
	8.414045e-07	2.410124e-07	0.005613096	0.008102889	1.897226e-07	2.239527e-07	-0.01969645	-0.06086941
8e+07	-0.02911731	-0.06651973	1.816188e-07	1.87492e-07	0.007071248	0.008384601	9.730844e-07	1.215171e-07
	1.816188e-07	1.87492e-07	-0.02952521	-0.06619965	5.457695e-08	1.085814e-06	0.006942734	0.008498233
	0.007071262	0.008384593	5.457697e-08	1.085814e-06	-0.02907666	-0.06645496	2.148828e-07	2.252819e-07
	9.730844e-07	1.215171e-07	0.006942744	0.008498227	2.148828e-07	2.252819e-07	-0.02953154	-0.06609356
9e+07	-0.03962525	-0.07020885	1.990452e-07	1.824533e-07	0.008441528	0.008507118	1.082427e-06	-3.517269e-08
	1.990453e-07	1.824533e-07	-0.04009604	-0.06977187	4.664166e-08	1.230202e-06	0.008294348	0.008659766
	0.008441538	0.00850711	4.664168e-08	1.230202e-06	-0.03958169	-0.07014335	2.354766e-07	2.19856e-07
	1.082427e-06	-3.517269e-08	0.008294354	0.008659759	2.354766e-07	2.19856e-07	-0.04010627	-0.06965085
1e+08	-0.05058605	-0.072165	2.113094e-07	1.724382e-07	0.009791133	0.008395078	1.161022e-06	-2.244098e-07
	2.113094e-07	1.724382e-07	-0.05110863	-0.07159327	4.015623e-08	1.378967e-06	0.009629232	0.008592329
	0.009791133	0.008395078	4.015623e-08	1.378967e-06	-0.05054131	-0.07209937	2.500253e-07	2.086138e-07
	1.161022e-06	-2.244098e-07	0.009629232	0.008592329	2.500253e-07	2.086138e-07	-0.05112313	-0.07145585
1.1e+08	-0.06170561	-0.07234529	2.172638e-07	1.586454e-07	0.01108393	0.008047649	1.201424e-06	-4.394688e-07
	2.172638e-07	1.586454e-07	-0.06226213	-0.07162366	3.644571e-08	1.532051e-06	0.01091278	0.008294017
	0.01108393	0.008047649	3.644571e-08	1.532051e-06	-0.06165994	-0.07227968	2.571396e-07	1.929219e-07
	1.201424e-06	-4.394688e-07	0.01091278	0.008294017	2.571396e-07	1.929219e-07	-0.06227993	-0.07146767
1.2e+08	-0.072676	-0.07075457	2.160477e-07	1.42404e-07	0.01227064	0.007485557	1.197966e-06	-6.72581e-07
	2.160477e-07	1.42404e-07	-0.07324896	-0.06987131	3.640342e-08	1.689123e-06	0.0120964	0.007784817
	0.01227064	0.007485557	3.640342e-08	1.689123e-06	-0.07263164	-0.0706886	2.558365e-07	1.743665e-07
	1.197966e-06	-6.72581e-07	0.0120964	0.007784817	2.558365e-07	1.743665e-07	-0.07326927	-0.06969493
1.3e+08	-0.08321382	-0.06745746	2.070728e-07	1.25188e-07	0.0133202	0.00673463	1.146382e-06	-9.148988e-07
	2.070728e-07	1.25188e-07	-0.08378244	-0.06640372	4.115533e-08	1.84955e-06	0.01314999	0.007089322
	0.0133202	0.00673463	4.115533e-08	1.84955e-06	-0.08317256	-0.06739007	2.454382e-07	1.546778e-07
	1.146382e-06	-9.148988e-07	0.01314999	0.007089322	2.454382e-07	1.546778e-07	-0.08380397	-0.06620521
1.4e+08	-0.09305244	-0.06256002	1.900385e-07	1.085924e-07	0.01420499	0.005823298	1.044136e-06	-1.156776e-06
	1.900385e-07	1.085924e-07	-0.09359333	-0.06133093	5.167836e-08	2.012421e-06	0.01404662	0.006234525
	0.01420499	0.005823298	5.167836e-08	2.012421e-06	-0.09301545	-0.06248973	2.256029e-07	1.3572e-07
	1.044136e-06	-1.156776e-06	0.01404662	0.006234525	2.256029e-07	1.3572e-07	-0.09361418	-0.06110879
1.5e+08	-0.1019494	-0.05620745	1.649566e-07	9.427428e-08	0.01490268	0.004783353	8.905591e-07	-1.388094e-06
	1.649566e-07	9.427428e-08	-0.1024374	-0.05480285	6.873751e-08	2.176592e-06	0.01476434	0.005250641
	0.01490268	0.004783353	6.873751e-08	2.176592e-06	-0.1019172	-0.05613268	1.963516e-07	1.194249e-07
	8.905591e-07	-1.388094e-06	0.01476434	0.005250641	1.963516e-07	1.194249e-07	-0.1024551	-0.05455599
1.6e+08	-0.1096913	-0.04857935	1.321637e-07	8.38922e-08	0.01539669	0.003649101	6.869182e-07	-1.598607e-06
	1.321637e-07	8.38922e-08	-0.1101008	-0.04700424	9.283455e-08	2.340735e-06	0.01528665	0.00417031
	0.01539669	0.003649101	9.283455e-08	2.340735e-06	-0.1096639	-0.0484986	1.580801e-07	1.077222e-07
	6.869182e-07	-1.598607e-06	0.01528665	0.00417031	1.580801e-07	1.077222e-07	-0.1101125	-0.04673219
1.7e+08	-0.1160985	-0.03988433	9.232038e-08	7.904266e-08	0.01567639	0.0024564	4.364184e-07	-1.778298e-06
	9.232038e-08	7.904266e-08	-0.1164041	-0.03814899	1.241685e-07	2.503399e-06	0.01560261	0.003027713
	0.01567639	0.0024564	1.241685e-07	2.503399e-06	-0.1160756	-0.03979627	1.115566e-07	1.024682e-07
	4.364184e-07	-1.778298e-06	0.01560261	0.003027713	1.115566e-07	1.024682e-07	-0.1164069	-0.03785194
1.8e+08	-0.1210277	-0.03035417	4.639733e-08	8.119851e-08	0.01573703	0.001241732	1.441473e-07	-1.91772e-06
	4.639733e-08	8.119851e-08	-0.1212058	-0.02847408	1.626105e-07	2.663083e-06	0.0157069	0.001857705
	0.01573703	0.001241732	1.626105e-07	2.663083e-06	-0.1210087	-0.03025771	5.790576e-08	1.053762e-07
	1.441473e-07	-1.91772e-06	0.0157069	0.001857705	5.790576e-08	1.053762e-07	-0.1211966	-0.02815294
1.9e+08	-0.1243748	-0.02023782	-4.349909e-09	9.165086e-08	0.01557969	4.133689e-05	-1.830388e-07	-2.00833e-06
	-4.349909e-09	9.165086e-08	-0.1244045	-0.01823331	2.076956e-07	2.818312e-06	0.01559965	0.0006950066
	0.01557969	4.133688e-05	2.076956e-07	2.818312e-06	-0.124359	-0.02013208	-1.420379e-09	1.179509e-07
	-1.830388e-07	-2.00833e-06	0.01559965	0.0006950066	-1.420379e-09	1.179509e-07	-0.1243804	-0.01788969
2e+08	-0.1260766	-0.009795243	-5.841691e-08	1.11457e-07	0.01521097	-0.001109588	-5.366782e-07	-2.04279e-06
	-5.841691e-08	1.11457e-07	-0.1259404	-0.007690982	2.586322e-07	2.967709e-06	0.01528622	-0.0004265238
	0.01521097	-0.001109588	2.586322e-07	2.967709e-06	-0.1260631	-0.009679531	-6.468269e-08	1.414305e-07
	-5.366782e-07	-2.04279e-06	0.01528622	-0.0004265238	-6.468269e-08	1.414305e-07	-0.1258988	-0.007327104
2.1e+08	-0.1261108	0.0007088185	-1.140951e-07	1.413956e-07	0.01464272	-0.002177605	-9.069146e-07	-2.015242e-06
	-1.140951e-07	1.413956e-07	-0.1257959	0.002884522	3.143299e-07	3.110073e-06	0.01477699	-0.001474562
	0.01464272	-0.002177605	3.143299e-07	3.110073e-06	-0.1260988	0.0008350041	-1.299048e-07	1.767355e-07
	-9.069146e-07	-2.015242e-06	0.01477699	-0.001474562	-1.299048e-07	1.767355e-07	-0.1257346	0.003265852
2.2e+08	-0.1244967	0.01101095	-1.695235e-07	1.819314e-07	0.01389168	-0.0031317	-1.282747e-06	-1.921552e-06
	-1.695235e-07	1.819314e-07	-0.1239953	0.01322697	3.734439e-07	3.244441e-06	0.01408696	-0.002418927
	0.01389168	-0.0031317	3.734439e-07	3.244441e-06	-0.1244852	0.01114795	-1.949306e-07	2.244277e-07
	-1.282747e-06	-1.921552e-06	0.01408696	-0.002418927	-1.949306e-07	2.244277e-07	-0.1239126	0.01362248
2.3e+08	-0.1212937	0.02085509	-2.227467e-07	2.331884e-07	0.01297904	-0.003943886	-1.65232e-06	-1.759517e-06
	-2.227467e-07	2.331884e-07	-0.1206035	0.02307841	4.344335e-07	3.370142e-06	0.01323547	-0.003232148
	0.01297904	-0.003943886	4.344335e-07	3.370142e-06	-0.1212817	0.0210031	-2.574886e-07	2.846796e-07
	-1.65232e-06	-1.759517e-06	0.01323547	-0.003232148	-2.574886e-07	2.846796e-07	-0.1204985	0.02348447
2.4e+08	-0.1165996	0.0299983	-2.717752e-07	2.949345e-07	0.01193005	-0.004589764	-2.003242e-06	-1.529017e-06
	-2.717752e-07	2.949345e-07	-0.1157246	0.03219507	4.95631e-07	3.486829e-06	0.01224577	-0.003889998
	0.01193005	-0.004589765	4.95631e-07	3.486829e-06	-0.1165863	0.03015736	-3.1526e-07	3.572536e-07
	-2.003242e-06	-1.529017e-06	0.01224577	-0.003889998	-3.1526e-07	3.572536e-07	-0.115597	0.03260782
2.5e+08	-0.1105486	0.0382163	-3.146492e-07	3.665755e-07	0.01077344	-0.005049053	-2.32294e-06	-1.232141e-06
	-3.146492e-07	3.665755e-07	-0.109499	0.0403529	5.553168e-07	3.594504e-06	0.01114456	-0.004371998
	0.01077344	-0.005049053	5.553168e-07	3.594504e-06	-0.1105329	0.03838632	-3.659499e-07	4.414938e-07
	-2.32294e-06	-1.232141e-06	0.01114456	-0.004371998	-3.659499e-07	4.414938e-07	-0.1093491	0.04076837
2.6e+08	-0.1033077	0.0453086	-3.495017e-07	4.471608e-07	0.009540908	-0.005306074	-2.599033e-06	-8.732386e-07
	-3.495017e-07	4.471608e-07	-0.1020998	0.0473528	6.117963e-07	3.693516e-06	0.009961539	-0.0046619
	0.009540908	-0.005306074	6.117963e-07	3.693516e-06	-0.1032887	0.04548935	-4.073605e-07	5.363282e-07
	-2.599033e-06	-8.732386e-07	0.009961539	-0.0046619	-4.073605e-07	5.363282e-07	-0.1019288	0.04776705
2.7e+08	-0.09507297	0.05110322	-3.746216e-07	5.353985e-07	0.008266485	-0.005350203	-2.819726e-06	-4.589276e-07
	-3.746216e-07	5.353985e-07	-0.09372922	0.05302528	6.634719e-07	3.784541e-06	0.008728818	-0.004748139
	0.008266485	-0.005350203	6.634719e-07	3.784541e-06	-0.09504984	0.0512943	-4.37463e-07	6.402834e-07
	-2.819726e-06	-4.589276e-07	0.008728818	-0.004748139	-4.37463e-07	6.402834e-07	-0.09353902	0.05343455
2.8e+08	-0.08606516	0.05546086	-3.885129e-07	6.296821e-07	0.006985796	-0.005176263	-2.974219e-06	1.97105e-09
	-3.885129e-07	6.296821e-07	-0.08461365	0.05723468	7.08909e-07	3.868554e-06	0.007480263	-0.004624246
	0.006985796	-0.005176263	7.08909e-07	3.868554e-06	-0.08603697	0.05566173	-4.544689e-07	7.515107e-07
	-2.974219e-06	1.97105e-09	0.007480264	-0.004624246	-4.544689e-07	7.515107e-07	-0.08440684	0.05763549
2.9e+08	-0.0765243	0.05827843	-3.899505e-07	7.281254e-07	0.005735269	-0.00478484	-3.053111e-06	4.985668e-07
	-3.899505e-07	7.281254e-07	-0.07499819	0.05988258	7.46889e-07	3.946778e-06	0.006250763	-0.004289187
	0.005735269	-0.00478484	7.46889e-07	3.946778e-06	-0.07649026	0.05848841	-4.568963e-07	8.678247e-07
	-3.053111e-06	4.985668e-07	0.006250763	-0.004289187	-4.568963e-07	8.678247e-07	-0.07477805	0.06027192
3e+08	-0.06670417	0.05949188	-3.780302e-07	8.286085e-07	0.004551235	-0.004182502	-3.048797e-06	1.018109e-06
	-3.780302e-07	8.286085e-07	-0.0651409	0.06091056	7.764482e-07	4.02063e-06	0.005075391	-0.003747623
	0.004551235	-0.004182502	7.764482e-07	4.02063e-06	-0.0666636	0.05971014	-4.436322e-07	9.867522e-07
	-3.048797e-06	1.018109e-06	0.005075391	-0.003747623	-4.436322e-07	9.867522e-07	-0.06491129	0.06128594
3.1e+08	-0.05686609	0.05907816	-3.522109e-07	9.288307e-07	0.003468961	-0.003381879	-2.95584e-06	1.546275e-06
	-3.522109e-07	9.288307e-07	-0.05530642	0.06030202	7.969019e-07	4.091665e-06	0.003988484	-0.003010038
	0.003468961	-0.003381879	7.969019e-07	4.091665e-06	-0.05681842	0.05930371	-4.139863e-07	1.105594e-06
	-2.95584e-06	1.546275e-06	0.003988484	-0.003010038	-4.139863e-07	1.105594e-06	-0.05507169	0.06066161
3.2e+08	-0.04727236	0.05705617	-3.123498e-07	1.026371e-06	0.002521602	-0.002401586	-2.771299e-06	2.067534e-06
	-3.123498e-07	1.026371e-06	-0.04575925	0.05808301	8.078523e-07	4.161509e-06	0.003022643	-0.002092719
	0.002521602	-0.002401586	8.078523e-07	4.161509e-06	-0.04721721	0.05728791	-3.677361e-07	1.221494e-06
	-2.771299e-06	2.067534e-06	0.003022643	-0.002092719	-3.677361e-07	1.221494e-06	-0.04552415	0.05842573
3.3e+08	-0.03817961	0.05348679	-2.587278e-07	1.118759e-06	0.001739139	-0.001265947	-2.495e-06	2.565586e-06
	-2.587278e-07	1.118759e-06	-0.03675696	0.05432197	8.091824e-07	4.231812e-06	0.002207703	-0.001017549
	0.001739139	-0.001265947	8.091824e-07	4.231812e-06	-0.03811677	0.05372354	-3.05161e-07	1.331521e-06
	-2.495e-06	2.565586e-06	0.002207703	-0.001017549	-3.05161e-07	1.331521e-06	-0.03652648	0.0546476
3.4e+08	-0.02983194	0.04847173	-1.920616e-07	1.203542e-06	0.001147315	-4.508253e-06	-2.129728e-06	3.023866e-06
	-1.920616e-07	1.203542e-06	-0.02854325	0.04912849	8.010412e-07	4.304192e-06	0.001569691	0.000188413
	0.001147315	-4.508252e-06	8.010412e-07	4.304192e-06	-0.02976138	0.0487123	-2.270615e-07	1.432755e-06
	-2.129728e-06	3.023866e-06	0.001569691	0.000188413	-2.270615e-07	1.432755e-06	-0.02832245	0.04943772
3.5e+08	-0.02245433	0.04215133	-1.13506e-07	1.278366e-06	0.0007666375	0.001348667	-1.681323e-06	3.426092e-06
	-1.13506e-07	1.278366e-06	-0.02134129	0.04265071	7.838182e-07	4.380207e-06	0.001129838	0.001493561
	0.0007666375	0.001348667	7.838182e-07	4.380207e-06	-0.02237627	0.04239444	-1.347679e-07	1.52238e-06
	-1.681323e-06	3.426092e-06	0.001129838	0.001493561	-1.347679e-07	1.52238e-06	-0.02113521	0.0429451
3.6e+08	-0.01624641	0.03470108	-2.464335e-08	1.341052e-06	0.0006114954	0.002755936	-1.158675e-06	3.756851e-06
	-2.464335e-08	1.341052e-06	-0.01534746	0.03507175	7.581186e-07	4.46132e-06	0.0009036921	0.002862598
	0.0006114954	0.002755936	7.581186e-07	4.46132e-06	-0.01616129	0.03494549	-3.01265e-08	1.597784e-06
	-1.158675e-06	3.756851e-06	0.0009036921	0.002862598	-3.01265e-08	1.597784e-06	-0.01516091	0.03535375
3.7e+08	-0.01137668	0.02632721	7.254165e-08	1.389671e-06	0.0006894471	0.004177206	-5.735887e-07	4.002191e-06
	7.254165e-08	1.389671e-06	-0.01072564	0.02660487	7.247373e-07	4.548887e-06	0.0009003932	0.004257594
	0.0006894471	0.004177206	7.247373e-07	4.548887e-06	-0.01128521	0.0265717	8.452807e-08	1.656646e-06
	-5.735887e-07	4.002191e-06	0.0009003933	0.004257594	8.452807e-08	1.656646e-06	-0.01056309	0.02687784
3.8e+08	-0.007977712	0.01726113	1.757001e-07	1.422623e-06	0.001000738	0.005571235	5.9461e-08	4.150196e-06
	1.757001e-07	1.422623e-06	-0.007602491	0.01748781	6.84638e-07	4.644143e-06	0.001122157	0.005639209
	0.001000738	0.005571235	6.84638e-07	4.644143e-06	-0.007880826	0.01750463	2.064194e-07	1.69704e-06
	5.9461e-08	4.150196e-06	0.001122157	0.005639209	2.064194e-07	1.69704e-06	-0.007467859	0.0177559
3.9e+08	-0.006142179	0.007753175	2.821719e-07	1.438703e-06	0.001538089	0.00689704	7.237032e-07	4.19151e-06
	2.821719e-07	1.438703e-06	-0.006063588	0.007976177	6.389385e-07	4.748202e-06	0.001564022	0.00696803
	0.001538089	0.00689704	6.389385e-07	4.748202e-06	-0.006041047	0.007994765	3.323944e-07	1.717511e-06
	7.237032e-07	4.19151e-06	0.001564022	0.00696803	3.323944e-07	1.717511e-06	-0.005960136	0.008244279
4e+08	-0.005920135	-0.001934407	3.890524e-07	1.437165e-06	0.00228678	0.008115361	1.400551e-06	4.119793e-06
	3.890524e-07	1.437165e-06	-0.006150915	-0.001663739	5.889033e-07	4.862043e-06	0.002213877	0.008205974
	0.00228678	0.008115361	5.889033e-07	4.862043e-06	-0.005816121	-0.001695451	4.590058e-07	1.717158e-06
	1.400551e-06	4.119793e-06	0.002213877	0.008205974	4.590058e-07	1.717158e-06	-0.00608109	-0.001390101
4.1e+08	-0.00731753	-0.01153486	4.932721e-07	1.417775e-06	0.003225059	0.009190093	2.070179e-06	3.932077e-06
	4.932721e-07	1.417775e-06	-0.007861591	-0.01116255	5.359417e-07	4.986507e-06	0.003052799	0.009317664
	0.003225059	0.009190093	5.359417e-07	4.986507e-06	-0.007212157	-0.011299	5.826107e-07	1.69569e-06
	2.070179e-06	3.932077e-06	0.003052799	0.009317664	5.826107e-07	1.69569e-06	-0.007826916	-0.01087736
4.2e+08	-0.01029609	-0.02078446	5.91688e-07	1.380841e-06	0.004324837	0.01008962	2.712167e-06	3.629002e-06
	5.91688e-07	1.380841e-06	-0.01114801	-0.02025548	4.816087e-07	5.122274e-06	0.004055678	0.01027172
	0.004324837	0.01008962	4.816087e-07	5.122274e-06	-0.01019099	-0.02055188	6.994829e-07	1.653472e-06
	2.712167e-06	3.629002e-06	0.004055678	0.01027172	6.994829e-07	1.653472e-06	-0.01114899	-0.0199524
4.3e+08	-0.01477454	-0.02943006	6.811835e-07	1.327243e-06	0.005552672	0.01078796	3.306191e-06	3.214915e-06
	6.811835e-07	1.327243e-06	-0.01591937	-0.02868993	4.276047e-07	5.269843e-06	0.005192106	0.0110419
	0.005552672	0.01078796	4.276047e-07	5.269843e-06	-0.01467143	-0.0292006	8.059342e-07	1.591544e-06
	3.306191e-06	3.214915e-06	0.005192106	0.0110419	8.059342e-07	1.591544e-06	-0.01595542	-0.02836245
4.4e+08	-0.0206312	-0.03723609	7.587745e-07	1.258427e-06	0.00687097	0.01126574	3.832726e-06	2.697835e-06
	7.587745e-07	1.258427e-06	-0.0220445	-0.03623262	3.757702e-07	5.42949e-06	0.006427495	0.01160801
	0.00687097	0.01126574	3.757702e-07	5.42949e-06	-0.02053175	-0.0370093	8.984429e-07	1.511622e-06
	3.832726e-06	2.697835e-06	0.006427495	0.01160801	8.984429e-07	1.511622e-06	-0.02211393	-0.03587428
4.5e+08	-0.0277077	-0.04399116	8.217173e-07	1.176388e-06	0.008239351	0.01151079	4.27373e-06	2.089269e-06
	8.217173e-07	1.176388e-06	-0.02935597	-0.0426761	3.280687e-07	5.601229e-06	0.007724344	0.01195653
	0.008239351	0.01151079	3.280687e-07	5.601229e-06	-0.02761353	-0.04376623	9.737807e-07	1.416065e-06
	4.27373e-06	2.089269e-06	0.007724344	0.01195653	9.737807e-07	1.416065e-06	-0.02945595	-0.04228064
4.6e+08	-0.03581381	-0.04951368	8.676139e-07	1.083629e-06	0.009616105	0.01151848	4.613277e-06	1.4039e-06
	8.676139e-07	1.083629e-06	-0.03765517	-0.04784426	2.865563e-07	5.784766e-06	0.0090436	0.01208101
	0.009616105	0.01151848	2.865563e-07	5.784766e-06	-0.03572641	-0.04928949	1.029136e-06	1.307825e-06
	4.613277e-06	1.4039e-06	0.0090436	0.01208101	1.029136e-06	1.307825e-06	-0.03778181	-0.04740587
4.7e+08	-0.04473318	-0.05365652	8.945092e-07	9.830965e-07	0.01095966	0.01129181	4.838114e-06	6.591597e-07
	8.945092e-07	9.830965e-07	-0.04671832	-0.05159698	2.533344e-07	5.979455e-06	0.01034604	0.01198213
	0.01095966	0.01129181	2.533344e-07	5.979455e-06	-0.04465381	-0.05343164	1.062226e-06	1.190366e-06
	4.838114e-06	6.591597e-07	0.01034604	0.01198213	1.062226e-06	1.190366e-06	-0.04686667	-0.05111044
4.8e+08	-0.05422957	-0.05631059	9.009761e-07	8.780986e-07	0.01222999	0.01084106	4.938123e-06	-1.252979e-07
	9.009761e-07	8.780986e-07	-0.05630299	-0.05383339	2.304851e-07	6.184257e-06	0.01159359	0.01166743
