!$
! Info: Touchstone file created by Circ.  Input file=Tx_8in_Rx_93ohms_TxVia_35mils_RxVia_45mils.circ
!$
# Hz S RI R 50
0	0.007420027	1.067243e-25	-4.328067e-05	3.79808e-24	6.233703e-05	1.382213e-23	-4.326136e-05	1.458889e-24
	-4.328069e-05	3.800314e-24	0.007418349	1.294575e-25	-4.329222e-05	5.33474e-24	6.21979e-05	1.674759e-23
	6.21511e-05	1.37641e-23	-4.32922e-05	5.332847e-24	0.007430778	1.06716e-25	-4.32782e-05	3.647789e-24
	-4.326138e-05	1.460641e-24	6.035033e-05	1.683014e-23	-4.327821e-05	3.649201e-24	0.007431496	1.212875e-25
1e+07	0.01062741	-0.0004685249	-0.0002009646	2.318607e-06	0.000248686	0.001576566	-3.991377e-05	-6.249705e-06
	-0.0002009646	2.318607e-06	0.01084161	-0.0004832419	-0.0001065956	5.104069e-05	0.0002453262	0.001571375
	0.0002486807	0.001576567	-0.0001065955	5.104069e-05	0.01086318	-0.0004865205	-0.0002007991	4.163606e-06
	-3.991376e-05	-6.249707e-06	0.000245266	0.001571385	-0.0002007991	4.163604e-06	0.01063387	-0.0004861826
2e+07	0.01259592	-0.00355122	-0.0001683131	-3.692944e-05	0.0005894654	0.003138086	-1.914806e-05	-4.430507e-05
	-0.0001683131	-3.692944e-05	0.01273237	-0.00365308	-0.0001056144	3.225182e-05	0.0005801212	0.003130149
	0.0005894668	0.00313809	-0.0001056144	3.225182e-05	0.01277459	-0.003664096	-0.0001672503	-4.036126e-05
	-1.914806e-05	-4.430508e-05	0.0005801128	0.003130184	-0.0001672503	-4.036126e-05	0.01257432	-0.003582942
3e+07	0.01328063	-0.007637236	-0.000147324	-5.56782e-05	0.001238185	0.004539287	-2.413053e-05	-5.368841e-05
	-0.000147324	-5.56782e-05	0.0133371	-0.007761104	-0.000101757	3.229693e-05	0.001205664	0.004536019
	0.001238187	0.004539287	-0.000101757	3.229693e-05	0.01341184	-0.007787246	-0.0001454457	-5.991318e-05
	-2.413053e-05	-5.368841e-05	0.001205664	0.004536024	-0.0001454457	-5.991318e-05	0.01321533	-0.007673696
4e+07	0.01295271	-0.01198501	-0.0001316255	-6.461074e-05	0.002130611	0.005779923	-4.6846e-05	-5.02359e-05
	-0.0001316255	-6.461074e-05	0.01292388	-0.01210482	-9.602601e-05	3.366434e-05	0.002078112	0.005785085
	0.002130612	0.005779921	-9.602601e-05	3.366434e-05	0.01304101	-0.01215615	-0.0001291457	-6.947091e-05
	-4.6846e-05	-5.02359e-05	0.002078106	0.005785083	-0.0001291457	-6.947091e-05	0.01282976	-0.01201485
5e+07	0.011732	-0.01631817	-0.0001190551	-6.917569e-05	0.003198373	0.006842358	-6.569315e-05	-4.122215e-05
	-0.0001190551	-6.917569e-05	0.01161387	-0.01641155	-8.900454e-05	3.376156e-05	0.003123403	0.006861459
	0.003198373	0.006842357	-8.900454e-05	3.376156e-05	0.01178065	-0.01650088	-0.0001161096	-7.458356e-05
	-6.569315e-05	-4.122215e-05	0.003123399	0.006861458	-0.0001161096	-7.458356e-05	0.0115398	-0.01632673
6e+07	0.009710635	-0.02044954	-0.0001083071	-7.116959e-05	0.004410154	0.007702706	-8.086617e-05	-2.815459e-05
	-0.0001083071	-7.116959e-05	0.009502199	-0.02049488	-8.145934e-05	3.144275e-05	0.004311398	0.00774176
	0.004410155	0.007702706	-8.145934e-05	3.144275e-05	0.009722436	-0.02063679	-0.0001049887	-7.708299e-05
	-8.086617e-05	-2.815459e-05	0.0043114	0.007741759	-0.0001049887	-7.708299e-05	0.009441057	-0.02041966
7e+07	0.006979474	-0.02423316	-9.842158e-05	-7.136276e-05	0.005730388	0.00834152	-9.23038e-05	-1.188675e-05
	-9.842158e-05	-7.136276e-05	0.006683241	-0.02420932	-7.434555e-05	2.607179e-05	0.005607824	0.008406846
	0.00573039	0.00834152	-7.434555e-05	2.607179e-05	0.006957174	-0.0244192	-9.479295e-05	-7.775179e-05
	-9.230381e-05	-1.188675e-05	0.005607832	0.008406843	-9.479295e-05	-7.775179e-05	0.006628192	-0.02414609
8e+07	0.00363608	-0.02755027	-8.852425e-05	-7.008412e-05	0.007120427	0.008745054	-9.974045e-05	7.056707e-06
	-8.852425e-05	-7.008412e-05	0.003258264	-0.02743673	-6.879862e-05	1.731041e-05	0.006975407	0.008843044
	0.00712043	0.008745053	-6.879862e-05	1.731041e-05	0.003582618	-0.02773005	-8.461917e-05	-7.691783e-05
	-9.974045e-05	7.056706e-06	0.006975417	0.008843038	-8.461917e-05	-7.691783e-05	0.003202681	-0.02738641
9e+07	-0.0002123627	-0.03030382	-7.751755e-05	-6.726725e-05	0.008539671	0.008905929	-0.0001025158	2.849877e-05
	-7.751755e-05	-6.726725e-05	-0.0006615347	-0.03008088	-6.61762e-05	4.973517e-06	0.00837497	0.009042818
	0.008539673	0.008905929	-6.61762e-05	4.973516e-06	-0.0002934833	-0.03047257	-7.876701e-05	-6.978389e-05
	-0.0001025158	2.849877e-05	0.008374977	0.009042812	-7.876701e-05	-6.978389e-05	-0.0007242544	-0.03004338
1e+08	-0.004439086	-0.03240801	-7.824835e-05	-4.415067e-05	0.0099465	0.008822959	-9.752247e-05	5.404343e-05
	-7.824835e-05	-4.415067e-05	-0.004943252	-0.03205543	-6.911795e-05	-1.222364e-05	0.009766544	0.009004766
	0.0099465	0.00882296	-6.911795e-05	-1.222364e-05	-0.004541567	-0.0325592	-8.540622e-05	-3.958843e-05
	-9.752247e-05	5.404343e-05	0.009766544	0.009004766	-8.540622e-05	-3.958843e-05	-0.00502156	-0.0320316
1.1e+08	-0.008901816	-0.03390348	-7.106769e-05	-2.693261e-05	0.0112974	0.008506399	-8.104741e-05	6.873344e-05
	-7.106769e-05	-2.693261e-05	-0.009436029	-0.03341796	-6.950196e-05	-3.751215e-05	0.0111086	0.008736477
	0.0112974	0.008506399	-6.950196e-05	-3.751215e-05	-0.009014282	-0.03404636	-7.710904e-05	-2.144883e-05
	-8.104741e-05	6.873344e-05	0.0111086	0.008736477	-7.710904e-05	-2.144883e-05	-0.00954016	-0.03339446
1.2e+08	-0.01357129	-0.0347088	-6.670849e-05	-1.496251e-05	0.01255853	0.007969003	-6.752636e-05	7.800171e-05
	-6.670849e-05	-1.496251e-05	-0.01412424	-0.03408425	-7.214408e-05	-6.098054e-05	0.01236628	0.008250655
	0.01255853	0.007969003	-7.214408e-05	-6.098054e-05	-0.01369902	-0.03484619	-7.183867e-05	-8.898331e-06
	-6.752636e-05	7.800171e-05	0.01236628	0.008250655	-7.183867e-05	-8.898331e-06	-0.01425148	-0.03405292
1.3e+08	-0.01830999	-0.03479145	-6.254552e-05	-5.013957e-06	0.01369383	0.007229169	-5.479756e-05	8.466813e-05
	-6.254552e-05	-5.013957e-06	-0.01886539	-0.03402131	-7.927956e-05	-8.384937e-05	0.01350474	0.007564929
	0.01369383	0.007229169	-7.927956e-05	-8.384937e-05	-0.0184554	-0.03492245	-6.683197e-05	1.471835e-06
	-5.479756e-05	8.466813e-05	0.01350474	0.007564929	-6.683197e-05	1.471835e-06	-0.01901425	-0.03397652
1.4e+08	-0.02299353	-0.03415282	-5.813034e-05	3.532228e-06	0.01467133	0.006311651	-4.42955e-05	8.849758e-05
	-5.813034e-05	3.532228e-06	-0.02353255	-0.033233	-9.147212e-05	-0.0001055708	0.01449281	0.006702813
	0.01467133	0.006311651	-9.147212e-05	-0.0001055708	-0.02315799	-0.0342754	-6.161524e-05	1.032816e-05
	-4.42955e-05	8.849758e-05	0.01449281	0.006702813	-6.161524e-05	1.032816e-05	-0.023701	-0.03316987
1.5e+08	-0.02750396	-0.03281557	-5.331061e-05	1.093167e-05	0.01546392	0.005246191	-4.036658e-05	8.85195e-05
	-5.331061e-05	1.093167e-05	-0.02800614	-0.03174544	-0.0001088641	-0.00012526	0.01530383	0.005692608
	0.01546392	0.005246191	-0.0001088641	-0.00012526	-0.02768803	-0.03292719	-5.602393e-05	1.795058e-05
	-4.036658e-05	8.85195e-05	0.01530383	0.005692608	-5.602393e-05	1.795058e-05	-0.02819142	-0.03165971
1.6e+08	-0.03173129	-0.03082105	-4.809693e-05	1.719026e-05	0.01604996	0.004066543	-3.612539e-05	8.874284e-05
	-4.809693e-05	1.719026e-05	-0.03217537	-0.02960385	-0.0001312863	-0.0001419188	0.01591636	0.004566511
	0.01604996	0.004066543	-0.0001312863	-0.0001419188	-0.03193482	-0.03091889	-5.006331e-05	2.435875e-05
	-3.612539e-05	8.874284e-05	0.01591636	0.004566511	-5.006331e-05	2.435875e-05	-0.03237409	-0.02949201
1.7e+08	-0.03557551	-0.02822714	-4.25598e-05	2.233497e-05	0.01641391	0.00280944	-3.163381e-05	8.902899e-05
	-4.25598e-05	2.233497e-05	-0.03594035	-0.02687027	-0.000158294	-0.0001545476	0.01631469	0.003359653
	0.01641391	0.00280944	-0.000158294	-0.0001545476	-0.03579771	-0.02830835	-4.379911e-05	2.9589e-05
	-3.163381e-05	8.902899e-05	0.01631469	0.003359653	-4.379911e-05	2.9589e-05	-0.03614859	-0.0267296
1.8e+08	-0.03894849	-0.02510622	-3.681202e-05	2.638188e-05	0.01654661	0.001513528	-2.693761e-05	8.927941e-05
	-3.681202e-05	2.638188e-05	-0.03921394	-0.02362123	-0.0001891971	-0.0001622241	0.0164892	0.002109093
	0.01654661	0.001513528	-0.0001891971	-0.0001622241	-0.03918805	-0.02516798	-3.734047e-05	3.366308e-05
	-2.693761e-05	8.927941e-05	0.0164892	0.002109093	-3.734047e-05	3.366308e-05	-0.0394274	-0.02344986
1.9e+08	-0.04177576	-0.02154289	-3.099084e-05	2.93568e-05	0.01644551	0.0002182613	-2.207643e-05	8.942057e-05
	-3.099084e-05	2.93568e-05	-0.04192346	-0.01994533	-0.0002230946	-0.0001641643	0.01643655	0.0008527799
	0.01644551	0.0002182613	-0.0002230946	-0.0001641643	-0.04203082	-0.02158255	-3.082206e-05	3.660972e-05
	-2.207643e-05	8.942057e-05	0.01643655	0.0008527799	-3.082206e-05	3.660972e-05	-0.04213768	-0.01974227
2e+08	-0.04399788	-0.01763165	-2.524444e-05	3.13061e-05	0.01611464	-0.001037189	-1.708677e-05	8.939658e-05
	-2.524444e-05	3.13061e-05	-0.04401212	-0.01594076	-0.0002589174	-0.000159771	0.01615968	-0.0003714781
	0.01611464	-0.001037189	-0.0002589174	-0.000159771	-0.04426614	-0.0176468	-2.439062e-05	3.847611e-05
	-1.708677e-05	8.939658e-05	0.01615968	-0.0003714781	-2.439062e-05	3.847611e-05	-0.04422256	-0.01570587
2.1e+08	-0.04557158	-0.01347435	-1.972005e-05	3.230165e-05	0.01556444	-0.002215005	-1.200391e-05	8.916482e-05
	-1.972005e-05	3.230165e-05	-0.04543997	-0.01171256	-0.0002954771	-0.0001486684	0.01566768	-0.001527029
	0.01556444	-0.002215005	-0.0002954771	-0.0001486684	-0.04585031	-0.01346287	-1.819331e-05	3.933341e-05
	-1.200391e-05	8.916482e-05	0.01566768	-0.001527029	-1.819331e-05	3.933341e-05	-0.04564219	-0.01144655
2.2e+08	-0.04647047	-0.009177599	-1.455419e-05	3.244159e-05	0.0148114	-0.003279734	-6.862099e-06	8.869322e-05
	-1.455419e-05	3.244159e-05	-0.0461846	-0.007369912	-0.0003315193	-0.0001307243	0.01497546	-0.002579341
	0.0148114	-0.003279734	-0.0003315193	-0.0001307243	-0.04675657	-0.009137722	-1.236812e-05	3.927806e-05
	-6.862099e-06	8.869322e-05	0.01497546	-0.002579341	-1.236812e-05	3.927806e-05	-0.0463744	-0.007074271
2.3e+08	-0.0466854	-0.004850058	-9.864195e-06	3.184821e-05	0.01387761	-0.004199231	-1.69464e-06	8.795825e-05
	-9.864195e-06	3.184821e-05	-0.04624132	-0.003023362	-0.0003657808	-0.0001060623	0.01410334	-0.003496896
	0.01387761	-0.004199231	-0.0003657808	-0.0001060623	-0.04697545	-0.004780451	-7.035563e-06	3.843017e-05
	-1.69464e-06	8.795825e-05	0.01410334	-0.003496896	-7.035563e-06	3.843017e-05	-0.04641485	-0.002700297
2.4e+08	-0.04622442	-0.0005997974	-5.740828e-06	3.066313e-05	0.0127901	-0.004945499	3.465601e-06	8.694383e-05
	-5.740828e-06	3.066313e-05	-0.04562302	0.001217971	-0.0003970444	-7.505077e-05	0.01307645	-0.004252003
	0.0127901	-0.004945499	-0.0003970444	-7.505077e-05	-0.04651475	-0.000499597	-2.291195e-06	3.692929e-05
	3.465601e-06	8.694383e-05	0.01307645	-0.004252003	-2.291195e-06	3.692929e-05	-0.04577689	0.001565606
2.5e+08	-0.04511239	0.00346834	-2.243876e-06	2.904147e-05	0.01158008	-0.005495423	8.587127e-06	8.56399e-05
	-2.243876e-06	2.904147e-05	-0.04435961	0.005249063	-0.0004241996	-3.83091e-05	0.01192404	-0.004821504
	0.01158008	-0.005495423	-0.0004241996	-3.83091e-05	-0.04539912	0.00359947	1.798746e-06	3.492904e-05
	8.587127e-06	8.56399e-05	0.01192404	-0.004821504	1.798746e-06	3.492904e-05	-0.04449101	0.005617862
2.6e+08	-0.04339012	0.007255253	5.90069e-07	2.701876e-05	0.01028212	-0.005831369	1.363856e-05	8.404346e-05
	5.90069e-07	2.701876e-05	-0.04249708	0.008971592	-0.0004409456	1.290225e-05	0.01067871	-0.005187364
	0.01028212	-0.005831369	-0.0004409456	1.290225e-05	-0.04366929	0.007417124	5.193021e-06	3.246527e-05
	1.363856e-05	8.404346e-05	0.01067871	-0.005187364	5.193021e-06	3.246527e-05	-0.04260378	0.00935766
2.7e+08	-0.04111328	0.01066995	2.751599e-06	2.486463e-05	0.008933209	-0.00594165	1.859264e-05	8.215301e-05
	2.751599e-06	2.486463e-05	-0.04009607	0.0122962	-0.0004493667	6.850474e-05	0.009375521	-0.005337136
	0.008933209	-0.00594165	-0.0004493667	6.850474e-05	-0.04138085	0.01086175	7.870811e-06	2.980722e-05
	1.859264e-05	8.215301e-05	0.009375521	-0.005337136	7.870811e-06	2.980722e-05	-0.0401766	0.01269533
2.8e+08	-0.03835085	0.01363169	4.287104e-06	2.275399e-05	0.007571744	-0.005820838	2.342247e-05	7.997163e-05
	4.287104e-06	2.275399e-05	-0.03723033	0.01514472	-0.0004498378	0.0001255338	0.008051103	-0.00526428
	0.007571744	-0.005820838	-0.0004498378	0.0001255338	-0.03860283	0.01385199	9.868135e-06	2.713267e-05
	2.342247e-05	7.997163e-05	0.008051103	-0.00526428	9.868135e-06	2.713267e-05	-0.03728394	0.01555252
2.9e+08	-0.03518332	0.01607193	5.275203e-06	2.082166e-05	0.006236524	-0.005469916	2.810259e-05	7.750577e-05
	5.275203e-06	2.082166e-05	-0.03398469	0.01745203	-0.000442221	0.0001826582	0.006742648	-0.004968341
	0.006236524	-0.005469916	-0.000442221	0.0001826582	-0.03541591	0.01631867	1.125361e-05	2.458178e-05
	2.810259e-05	7.750577e-05	0.006742648	-0.004968341	1.125361e-05	2.458178e-05	-0.03401143	0.017864
3e+08	-0.03170065	0.01793582	5.821087e-06	1.917703e-05	0.004965692	-0.004896269	3.260922e-05	7.476439e-05
	5.821087e-06	1.917703e-05	-0.03045286	0.01916754	-0.0004266365	0.0002385508	0.005486946	-0.004454972
	0.004965692	-0.004896269	-0.0004266365	0.0002385508	-0.03191029	0.01820636	1.212286e-05	2.227157e-05
	3.260922e-05	7.476439e-05	0.005486946	-0.004454972	1.212286e-05	2.227157e-05	-0.03045355	0.01957924
3.1e+08	-0.02799998	0.01918361	6.049999e-06	1.789833e-05	0.003795699	-0.004113508	3.692026e-05	7.175904e-05
	6.049999e-06	1.789833e-05	-0.02673502	0.02025641	-0.0004034506	0.0002919464	0.004319392	-0.003735803
	0.003795699	-0.004113508	-0.0004034506	0.0002919464	-0.02818346	0.0194747	1.259261e-05	2.029019e-05
	3.692026e-05	7.175904e-05	0.004319392	-0.003735803	1.259261e-05	2.029019e-05	-0.02671123	0.02066356
3.2e+08	-0.02418316	0.01979141	6.09923e-06	1.702908e-05	0.002760307	-0.003141132	4.10152e-05	6.850308e-05
	6.09923e-06	1.702908e-05	-0.0229352	0.02070024	-0.000373258	0.0003416886	0.003273033	-0.002828154
	0.002760307	-0.003141132	-0.000373258	0.0003416886	-0.02433774	0.0200993	1.279328e-05	1.869314e-05
	4.10152e-05	6.850308e-05	0.003273033	-0.002828154	1.279328e-05	1.869314e-05	-0.02288924	0.02109888
3.3e+08	-0.02035421	0.01975179	6.109491e-06	1.657639e-05	0.001889642	-0.002004029	4.487515e-05	6.501158e-05
	6.109491e-06	1.657639e-05	-0.01915867	0.02049752	-0.0003368509	0.0003867752	0.00237766	-0.001754596
	0.001889642	-0.002004029	-0.0003368509	0.0003867752	-0.02047769	0.02007226	1.286087e-05	1.750122e-05
	4.487515e-05	6.501158e-05	0.00237766	-0.001754596	1.286087e-05	1.750122e-05	-0.01909351	0.0208841
3.4e+08	-0.01661672	0.01907385	6.216162e-06	1.651107e-05	0.001209339	-0.000731824	4.84829e-05	6.130133e-05
	6.216162e-06	1.651107e-05	-0.0155092	0.01966351	-0.0002951764	0.0004263951	0.001658975	-0.0005423662
	0.001209339	-0.000731824	-0.0002951764	0.0004263951	-0.01670754	0.01940229	1.292866e-05	1.670018e-05
	4.84829e-05	6.130133e-05	0.001658975	-0.0005423663	1.292866e-05	1.670018e-05	-0.01542843	0.02003502
3.5e+08	-0.01307122	0.0177829	6.540607e-06	1.677023e-05	0.0007398013	0.0006419037	5.182285e-05	5.739044e-05
	6.540607e-06	1.677023e-05	-0.01208649	0.01822978	-0.0002492922	0.0004599531	0.001137858	0.0007773491
	0.0007398013	0.0006419037	-0.0002492922	0.0004599531	-0.01312852	0.01811443	1.311887e-05	1.624268e-05
	5.182285e-05	5.739044e-05	0.001137858	0.0007773491	1.311887e-05	1.624268e-05	-0.01199418	0.01858384
3.6e+08	-0.009812731	0.0159198	7.182391e-06	1.726165e-05	0.000495581	0.002080533	5.488114e-05	5.329834e-05
	7.182391e-06	1.726165e-05	-0.008983575	0.0162433	-0.0002003139	0.000487084	0.0008297603	0.002170249
	0.000495581	0.002080533	-0.0002003139	0.000487084	-0.00983639	0.01624936	1.353502e-05	1.605201e-05
	5.488114e-05	5.329834e-05	0.0008297603	0.002170249	1.353502e-05	1.605201e-05	-0.008884202	0.01657826
3.7e+08	-0.006928323	0.01353982	8.212685e-06	1.78702e-05	0.0004849263	0.003545402	5.764566e-05	4.904554e-05
	8.212685e-06	1.78702e-05	-0.006284507	0.01376519	-0.000149364	0.0005076555	0.0007442286	0.003599855
	0.0004849263	0.003545402	-0.000149364	0.0005076555	-0.006919026	0.0138623	1.425539e-05	1.602778e-05
	5.764566e-05	4.904554e-05	0.0007442286	0.003599855	1.425539e-05	1.602778e-05	-0.006182804	0.01408015
3.8e+08	-0.004494992	0.01071121	9.669418e-06	1.846552e-05	0.0007094937	0.004996894	6.010615e-05	4.465346e-05
	9.669418e-06	1.846552e-05	-0.004062221	0.01086901	-9.752045e-05	0.0005217574	0.0008846016	0.005028517
	0.0007094937	0.004996894	-9.752045e-05	0.0005217574	-0.004454226	0.01102156	1.532793e-05	1.605289e-05
	6.010615e-05	4.465346e-05	0.0008846016	0.005028517	1.532793e-05	1.605289e-05	-0.003963057	0.01116392
3.9e+08	-0.002577735	0.007513411	1.155443e-05	1.891074e-05	0.001164247	0.006395549	6.225422e-05	4.01443e-05
	1.155443e-05	1.891074e-05	-0.00237671	0.007638883	-4.576985e-05	0.0005296811	0.001247871	0.00641847
	0.001164247	0.006395549	-4.576985e-05	0.0005296811	-0.002507789	0.0078068	1.676715e-05	1.600159e-05
	6.225422e-05	4.01443e-05	0.001247871	0.00641847	1.676715e-05	1.600159e-05	-0.002284952	0.007914518
4e+08	-0.001227946	0.004034973	1.383286e-05	1.907188e-05	0.00183755	0.007703206	6.40834e-05	3.554081e-05
	1.383286e-05	1.907188e-05	-0.001273539	0.00416718	5.032068e-06	0.0005318884	0.001824728	0.007732908
	0.00183755	0.007703206	5.032068e-06	0.0005318884	-0.001131887	0.004306901	1.855293e-05	1.574822e-05
	6.40834e-05	3.554081e-05	0.001824728	0.007732908	1.855293e-05	1.574822e-05	-0.0011939	0.00442515
4.1e+08	-0.0004821725	0.0003712891	1.64349e-05	1.882691e-05	0.002711452	0.008884105	6.558922e-05	3.08661e-05
	1.64349e-05	1.882691e-05	-0.0007827351	0.0005521393	5.419191e-05	0.0005289721	0.002599793	0.008937039
	0.002711452	0.008884105	5.419191e-05	0.0005289721	-0.0003637901	0.0006177234	2.063166e-05	1.517592e-05
	6.558922e-05	3.08661e-05	0.002599793	0.008937039	2.063166e-05	1.517592e-05	-0.0007196367	0.0007948632
4.2e+08	-0.0003612435	-0.003377876	1.925969e-05	1.807427e-05	0.003762163	0.009905939	6.676912e-05	2.614348e-05
	1.925969e-05	1.807427e-05	-0.0009180932	-0.003104736	0.0001011993	0.0005216111	0.003552023	0.009999093
	0.003762163	0.009905939	0.0001011993	0.0005216111	-0.0002249846	-0.003160385	2.291941e-05	1.418478e-05
	6.676912e-05	2.614348e-05	0.003552023	0.009999093	2.291941e-05	1.418478e-05	-0.0008755303	-0.002874089
4.3e+08	-0.0008698125	-0.007110948	2.218139e-05	1.674025e-05	0.004960708	0.01074081	6.762246e-05	2.13962e-05
	2.218139e-05	1.674025e-05	-0.001676904	-0.006701334	0.0001457356	0.0005105229	0.004655297	0.01089125
	0.004960708	0.01074081	0.0001457356	0.0005105229	-0.0007206864	-0.006925156	2.530714e-05	1.269913e-05
	6.762246e-05	2.13962e-05	0.004655297	0.01089125	2.530714e-05	1.269913e-05	-0.001658315	-0.006478916
4.4e+08	-0.001996314	-0.01072714	2.505684e-05	1.478455e-05	0.006273743	0.01136608	6.815037e-05	1.664732e-05
	2.505684e-05	1.478455e-05	-0.003040119	-0.01013758	0.0001876712	0.0004964153	0.005879153	0.01159045
	0.006273743	0.01136608	0.0001876712	0.0004964153	-0.001839784	-0.01057501	2.766756e-05	1.067317e-05
	6.815037e-05	1.664732e-05	0.005879153	0.01159045	2.766756e-05	1.067317e-05	-0.003048275	-0.009918966
4.5e+08	-0.003713337	-0.01412903	2.773439e-05	1.22038e-05	0.007664505	0.01176502	6.835578e-05	1.19196e-05
	2.773439e-05	1.22038e-05	-0.004972933	-0.01331803	0.000227052	0.0004799411	0.007189651	0.01207907
	0.007664505	0.01176502	0.000227052	0.0004799411	-0.003555189	-0.01401166	2.986315e-05	8.094799e-06
	6.835578e-05	1.19196e-05	0.007189651	0.01207907	2.986315e-05	8.094799e-06	-0.005009844	-0.01309834
4.6e+08	-0.005978394	-0.01722499	3.006328e-05	9.032662e-06	0.009093869	0.01192734	6.824314e-05	7.235333e-06
	3.006328e-05	9.032662e-06	-0.007425795	-0.01615432	0.0002640746	0.0004616585	0.008550352	0.01234545
	0.009093869	0.01192734	0.0002640746	0.0004616585	-0.005824611	-0.01714256	3.175465e-05	4.987215e-06
	6.824314e-05	7.235333e-06	0.008550352	0.01234545	3.175465e-05	4.987215e-06	-0.007492611	-0.01592836
4.7e+08	-0.008735095	-0.01993155	3.190323e-05	5.342767e-06	0.01052148	0.01184953	6.781871e-05	2.616318e-06
	3.190323e-05	5.342767e-06	-0.01033576	-0.01856741	0.0002990533	0.000441998	0.009923368	0.01238422
	0.01052148	0.01184953	0.0002990533	0.000441998	-0.008591695	-0.01988325	3.321086e-05	1.408371e-06
