!$
! Info: Touchstone file created by Circ.  Input file=Tx_8in_Rx_93ohms_TxVia_35mils_RxVia_45mils.circ
!$
# Hz S RI R 50
0	0.007420562	1.098562e-25	7.646274e-10	7.070273e-28	6.283555e-05	1.387112e-23	2.54802e-09	2.965942e-28
	7.646282e-10	7.069113e-28	0.007418349	1.294575e-25	4.032021e-10	1.031491e-27	6.21979e-05	1.674759e-23
	6.334481e-05	1.406507e-23	4.032018e-10	1.031528e-27	0.007432813	1.067419e-25	7.847577e-10	6.836224e-28
	2.54802e-09	2.965831e-28	6.035033e-05	1.683014e-23	7.84758e-10	6.835851e-28	0.007431496	1.212875e-25
1e+07	0.01100624	-1.571627e-06	1.121141e-09	1.304117e-09	0.0002377516	0.001442385	4.757148e-09	6.300771e-09
	1.121141e-09	1.304117e-09	0.01084161	-0.0004832419	6.164004e-10	7.994964e-10	0.0002453262	0.001571375
	0.0002377812	0.00144238	6.164004e-10	7.994964e-10	0.01025854	-0.0004029718	1.175114e-09	1.373387e-09
	4.757148e-09	6.300771e-09	0.000245266	0.001571385	1.175114e-09	1.373387e-09	0.01063387	-0.0004861826
2e+07	0.01337982	-0.002950812	1.841813e-09	2.11221e-09	0.0006622423	0.002892031	8.514355e-09	1.0067e-08
	1.841813e-09	2.11221e-09	0.01273237	-0.00365308	8.708852e-10	1.352598e-09	0.0005801212	0.003130149
	0.0006622433	0.002892009	8.708852e-10	1.352598e-09	0.0123858	-0.003315205	1.959506e-09	2.205688e-09
	8.514355e-09	1.0067e-08	0.0005801128	0.003130184	1.959506e-09	2.205688e-09	0.01257432	-0.003582942
3e+07	0.01437166	-0.007086729	2.711393e-09	2.680486e-09	0.001306988	0.004249555	1.311594e-08	1.264651e-08
	2.711393e-09	2.680486e-09	0.0133371	-0.007761104	1.115967e-09	1.834938e-09	0.001205664	0.004536019
	0.001306981	0.004249553	1.115967e-09	1.834938e-09	0.01319526	-0.007366595	2.900168e-09	2.778674e-09
	1.311594e-08	1.264651e-08	0.001205664	0.004536024	2.900168e-09	2.778674e-09	0.01321533	-0.007673696
4e+07	0.01428428	-0.0115654	3.728443e-09	2.981007e-09	0.00215681	0.005477825	1.853118e-08	1.385126e-08
	3.728443e-09	2.981007e-09	0.01292388	-0.01210482	1.374921e-09	2.252376e-09	0.002078112	0.005785085
	0.00215681	0.005477829	1.374921e-09	2.252376e-09	0.01297131	-0.01172197	4.001048e-09	3.06352e-09
	1.853118e-08	1.385126e-08	0.002078106	0.005785083	4.001048e-09	3.06352e-09	0.01282976	-0.01201485
5e+07	0.0132459	-0.01608229	4.834792e-09	2.983908e-09	0.00318698	0.006543264	2.444701e-08	1.350774e-08
	4.834792e-09	2.983908e-09	0.01161387	-0.01641155	1.638087e-09	2.60072e-09	0.003123403	0.006861459
	0.003186982	0.006543265	1.638087e-09	2.60072e-09	0.01183642	-0.01608866	5.19873e-09	3.027227e-09
	2.444701e-08	1.350774e-08	0.003123399	0.006861458	5.19873e-09	3.027227e-09	0.0115398	-0.01632673
6e+07	0.01135133	-0.02043429	5.969533e-09	2.669642e-09	0.004367036	0.007418062	3.051835e-08	1.152253e-08
	5.969533e-09	2.669642e-09	0.009502199	-0.02049488	1.901778e-09	2.874018e-09	0.004311398	0.00774176
	0.004367035	0.007418062	1.901778e-09	2.874018e-09	0.009883214	-0.02027189	6.422037e-09	2.655206e-09
	3.051835e-08	1.152253e-08	0.0043114	0.007741759	6.422037e-09	2.655206e-09	0.009441057	-0.02041966
7e+07	0.008691858	-0.02446441	7.061668e-09	2.039895e-09	0.005662446	0.008080536	3.638238e-08	7.883698e-09
	7.061668e-09	2.039895e-09	0.006683241	-0.02420932	2.144544e-09	3.080086e-09	0.005607824	0.008406846
	0.00566244	0.008080535	2.144544e-09	3.080086e-09	0.007202262	-0.0241209	7.599804e-09	1.945063e-09
	3.638238e-08	7.883698e-09	0.005607832	0.008406843	7.599804e-09	1.945063e-09	0.006628192	-0.02414609
8e+07	0.005363846	-0.02804594	8.044742e-09	1.102342e-09	0.007035919	0.00851566	4.168026e-08	2.63254e-09
	8.044742e-09	1.102342e-09	0.003258264	-0.02743673	2.353674e-09	3.223704e-09	0.006975407	0.008843044
	0.007035912	0.008515662	2.353674e-09	3.223704e-09	0.003890343	-0.02751355	8.660769e-09	9.053239e-10
	4.168026e-08	2.632539e-09	0.006975417	0.008843038	8.660769e-09	9.05324e-10	0.003202681	-0.02738641
9e+07	0.001469964	-0.03107783	8.853342e-09	-1.246707e-10	0.008449181	0.008715975	4.605744e-08	-4.12437e-09
	8.853342e-09	-1.246706e-10	-0.0006615347	-0.03008088	2.516959e-09	3.311486e-09	0.00837497	0.009042818
	0.008449176	0.008715978	2.516959e-09	3.311486e-09	5.29309e-05	-0.03035077	9.534782e-09	-4.43775e-10
	4.605744e-08	-4.12437e-09	0.008374977	0.009042812	9.534782e-09	-4.43775e-10	-0.0007242544	-0.03004338
1e+08	-0.00289243	-0.03349257	9.429357e-09	-1.616979e-09	0.009870276	0.008687745	4.917652e-08	-1.221641e-08
	9.429357e-09	-1.616979e-09	-0.004943252	-0.03205543	2.623506e-09	3.351606e-09	0.009766544	0.009004766
	0.009870276	0.008687744	2.623506e-09	3.351606e-09	-0.00419218	-0.03255153	1.015876e-08	-2.07376e-09
	4.917652e-08	-1.221641e-08	0.009766544	0.009004766	1.015876e-08	-2.07376e-09	-0.00502156	-0.0320316
1.1e+08	-0.007626989	-0.0351493	9.741084e-09	-3.293386e-09	0.01121519	0.008452892	5.076634e-08	-2.136622e-08
	9.741084e-09	-3.293386e-09	-0.009436029	-0.03341796	2.676525e-09	3.366311e-09	0.0111086	0.008736477
	0.01121519	0.008452892	2.676525e-09	3.366311e-09	-0.008715515	-0.03410191	1.049843e-08	-3.904481e-09
	5.076634e-08	-2.136622e-08	0.0111086	0.008736477	1.049843e-08	-3.904481e-09	-0.00954016	-0.03339446
1.2e+08	-0.01252188	-0.03603629	9.701008e-09	-5.10253e-09	0.01246676	0.007979281	5.056046e-08	-3.125561e-08
	9.701008e-09	-5.10253e-09	-0.01412424	-0.03408425	2.654067e-09	3.360993e-09	0.01236628	0.008250655
	0.01246676	0.007979281	2.654067e-09	3.360993e-09	-0.01343539	-0.03494016	1.046338e-08	-5.88314e-09
	5.056046e-08	-3.125561e-08	0.01236628	0.008250655	1.046338e-08	-5.88314e-09	-0.01425148	-0.03405292
1.3e+08	-0.01746548	-0.03616001	9.278987e-09	-6.984536e-09	0.01359703	0.007295752	4.837842e-08	-4.153975e-08
	9.278987e-09	-6.984536e-09	-0.01886539	-0.03402131	2.551264e-09	3.349621e-09	0.01350474	0.007564929
	0.01359703	0.007295752	2.551264e-09	3.349621e-09	-0.01822172	-0.03504457	1.00196e-08	-7.943651e-09
	4.837842e-08	-4.153975e-08	0.01350474	0.007564929	1.00196e-08	-7.943651e-09	-0.01901425	-0.03397652
1.4e+08	-0.0223373	-0.0355325	8.450826e-09	-8.867605e-09	0.01457503	0.00642889	4.410524e-08	-5.183103e-08
	8.450826e-09	-8.867605e-09	-0.02353255	-0.033233	2.365033e-09	3.346821e-09	0.01449281	0.006702813
	0.01457503	0.00642889	2.365033e-09	3.346821e-09	-0.02295097	-0.03441897	9.140589e-09	-1.00088e-08
	4.410524e-08	-5.183103e-08	0.01449281	0.006702813	9.140589e-09	-1.00088e-08	-0.023701	-0.03316987
1.5e+08	-0.02702054	-0.03418264	7.209409e-09	-1.066908e-08	0.01537364	0.005408935	3.769987e-08	-6.171646e-08
	7.209409e-09	-1.066908e-08	-0.02800614	-0.03174544	2.095979e-09	3.371247e-09	0.01530383	0.005692608
	0.01537364	0.005408935	2.095979e-09	3.371247e-09	-0.02750518	-0.03308736	7.817919e-09	-1.199017e-08
	3.769987e-08	-6.171646e-08	0.01530383	0.005692608	7.817919e-09	-1.199017e-08	-0.02819142	-0.03165971
1.6e+08	-0.03140553	-0.03215614	5.561875e-09	-1.230593e-08	0.01597089	0.004269671	2.920044e-08	-7.077196e-08
	5.561875e-09	-1.230593e-08	-0.03217537	-0.02960385	1.747904e-09	3.43994e-09	0.01591636	0.004566511
	0.01597089	0.004269671	1.747904e-09	3.43994e-09	-0.03177409	-0.03109195	6.058514e-09	-1.379869e-08
	2.920044e-08	-7.077196e-08	0.01591636	0.004566511	6.058514e-09	-1.379869e-08	-0.03237409	-0.02949201
1.7e+08	-0.03539233	-0.02951439	3.531694e-09	-1.369537e-08	0.01635068	0.00304769	1.872653e-08	-7.857757e-08
	3.531694e-09	-1.369537e-08	-0.03594035	-0.02687027	1.327961e-09	3.569406e-09	0.01631469	0.003359653
	0.01635068	0.00304769	1.327961e-09	3.569406e-09	-0.0356573	-0.02849133	3.886768e-09	-1.534549e-08
	1.872653e-08	-7.857757e-08	0.01631469	0.003359653	3.886768e-09	-1.534549e-08	-0.03614859	-0.0267296
1.8e+08	-0.03889284	-0.02633271	1.158811e-09	-1.475821e-08	0.0165032	0.001781443	6.478549e-09	-8.473288e-08
	1.158811e-09	-1.475821e-08	-0.03921394	-0.02362123	8.465921e-10	3.774951e-09	0.0164892	0.002109093
	0.0165032	0.001781443	8.465921e-10	3.774951e-09	-0.03906632	-0.02535851	1.344712e-09	-1.654544e-08
	6.478549e-09	-8.473288e-08	0.0164892	0.002109093	1.344712e-09	-1.654544e-08	-0.0394274	-0.02344986
1.9e+08	-0.04183264	-0.02269832	-1.500952e-09	-1.542217e-08	0.01642513	0.0005102053	-7.265883e-09	-8.887218e-08
	-1.500952e-09	-1.542217e-08	-0.04192346	-0.01994533	3.173139e-10	4.070017e-09	0.01643655	0.0008527799
	0.01642513	0.0005102053	3.173139e-10	4.070017e-09	-0.04192628	-0.02177867	-1.508602e-09	-1.73206e-08
	-7.265883e-09	-8.887218e-08	0.01643655	0.0008527799	-1.508602e-09	-1.73206e-08	-0.04213768	-0.01974227
2e+08	-0.04415247	-0.01870809	-4.377197e-09	-1.562505e-08	0.01611973	-0.0007269687	-2.215831e-08	-9.067886e-08
	-4.377197e-09	-1.562505e-08	-0.04401212	-0.01594076	-2.436387e-10	4.465561e-09	0.01615968	-0.0003714781
	0.01611973	-0.0007269687	-2.436387e-10	4.465561e-09	-0.04417738	-0.0178469	-4.598448e-09	-1.760373e-08
	-2.215831e-08	-9.067886e-08	0.01615968	-0.0003714781	-4.598448e-09	-1.760373e-08	-0.04422256	-0.01570587
2.1e+08	-0.04580977	-0.0144656	-7.38697e-09	-1.531763e-08	0.01559637	-0.001906445	-3.778821e-08	-8.989834e-08
	-7.38697e-09	-1.531763e-08	-0.04543997	-0.01171256	-8.176352e-10	4.969964e-09	0.01566768	-0.001527029
	0.01559637	-0.001906445	-8.176352e-10	4.969964e-09	-0.04577645	-0.01366522	-7.835611e-09	-1.733907e-08
	-3.778821e-08	-8.989834e-08	0.01566768	-0.001527029	-7.835611e-09	-1.733907e-08	-0.04564219	-0.01144655
2.2e+08	-0.0467785	-0.01007916	-1.043712e-08	-1.446622e-08	0.01486772	-0.002992578	-5.369457e-08	-8.634998e-08
	-1.043712e-08	-1.446622e-08	-0.0461846	-0.007369912	-1.384274e-09	5.587728e-09	0.01497546	-0.002579341
	0.01486772	-0.002992578	-1.384274e-09	5.587728e-09	-0.04669671	-0.009340607	-1.111937e-08	-1.648942e-08
	-5.369457e-08	-8.634998e-08	0.01497546	-0.002579341	-1.111937e-08	-1.648942e-08	-0.0463744	-0.007074271
2.3e+08	-0.04704947	-0.005659687	-1.342733e-08	-1.305475e-08	0.01395486	-0.003934973	-6.937961e-08	-7.993648e-08
	-1.342733e-08	-1.305475e-08	-0.04624132	-0.003023362	-1.922545e-09	6.318918e-09	0.01410334	-0.003496896
	0.01395486	-0.003934973	-1.922545e-09	6.318918e-09	-0.04692818	-0.0049828	-1.434324e-08	-1.503948e-08
	-6.937961e-08	-7.993648e-08	0.01410334	-0.003496896	-1.434324e-08	-1.503948e-08	-0.04641485	-0.002700297
2.4e+08	-0.04663138	-0.001316899	-1.625372e-08	-1.108587e-08	0.01288486	-0.004705245	-8.432304e-08	-7.065021e-08
	-1.625372e-08	-1.108587e-08	-0.04562302	0.001217971	-2.411109e-09	7.160176e-09	0.01307645	-0.004252003
	0.01288486	-0.004705245	-2.411109e-09	7.160176e-09	-0.04647871	-0.000700562	-1.739605e-08	-1.299127e-08
	-8.432304e-08	-7.065021e-08	0.01307645	-0.004252003	-1.739605e-08	-1.299127e-08	-0.04577689	0.001565606
2.5e+08	-0.04554983	0.002842872	-1.881233e-08	-8.581697e-09	0.01168899	-0.005279888	-9.79985e-08	-5.857786e-08
	-1.881233e-08	-8.581697e-09	-0.04435961	0.005249063	-2.829138e-09	8.104155e-09	0.01192404	-0.004821504
	0.01168899	-0.005279888	-2.829138e-09	8.104155e-09	-0.04537299	0.003400545	-2.016635e-08	-1.036761e-08
	-9.79985e-08	-5.857786e-08	0.01192404	-0.004821504	-2.016635e-08	-1.036761e-08	-0.04449101	0.005617862
2.6e+08	-0.0438465	0.0067192	-2.100281e-08	-5.583762e-09	0.01040188	-0.005640902	-1.098905e-07	-4.390186e-08
	-2.100281e-08	-5.583762e-09	-0.04249708	0.008971592	-3.157063e-09	9.139626e-09	0.01067871	-0.005187364
	0.01040188	-0.005640902	-3.157063e-09	9.139626e-09	-0.04365181	0.007220684	-2.254639e-08	-7.212124e-09
	-1.098905e-07	-4.390186e-08	0.01067871	-0.005187364	-2.254639e-08	-7.212124e-09	-0.04260378	0.00935766
2.7e+08	-0.04157799	0.01021993	-2.273207e-08	-2.152234e-09	0.009060625	-0.005776248	-1.195116e-07	-2.689888e-08
	-2.273207e-08	-2.152234e-09	-0.04009607	0.0122962	-3.37729e-09	1.025173e-08	0.009375521	-0.005337136
	0.009060625	-0.005776248	-3.37729e-09	1.025173e-08	-0.04137084	0.01066811	-2.443597e-08	-3.588449e-09
	-1.195116e-07	-2.689888e-08	0.009375521	-0.005337136	-2.443597e-08	-3.588449e-09	-0.0401766	0.01269533
2.8e+08	-0.03881426	0.01326333	-2.391768e-08	1.635529e-09	0.007703746	-0.005680164	-1.264193e-07	-7.935217e-09
	-2.391768e-08	1.635529e-09	-0.03723033	0.01514472	-3.474854e-09	1.142237e-08	0.008051103	-0.00526428
	0.007703746	-0.005680164	-3.474854e-09	1.142237e-08	-0.03859918	0.01366134	-2.574615e-08	4.212688e-10
	-1.264193e-07	-7.935217e-09	0.008051103	-0.00526428	-2.574615e-08	4.212688e-10	-0.03728394	0.01555252
2.9e+08	-0.03563688	0.01578	-2.4491e-08	5.687057e-09	0.006370189	-0.005353316	-1.302325e-07	1.254077e-08
	-2.4491e-08	5.687057e-09	-0.03398469	0.01745203	-3.43799e-09	1.263068e-08	0.006742648	-0.004968341
	0.006370189	-0.005353316	-3.43799e-09	1.263068e-08	-0.03541759	0.01613109	-2.640257e-08	4.718537e-09
	-1.302325e-07	1.254077e-08	0.006742648	-0.004968341	-2.640257e-08	4.718537e-09	-0.03401143	0.017864
3e+08	-0.03213687	0.01771445	-2.439981e-08	9.897377e-09	0.005098271	-0.00480279	-1.306461e-07	3.400913e-08
	-2.439981e-08	9.897377e-09	-0.03045286	0.01916754	-3.258606e-09	1.385365e-08	0.005486946	-0.004454972
	0.005098271	-0.00480279	-3.258606e-09	1.385365e-08	-0.03191635	0.01802182	-2.634835e-08	9.191283e-09
	-1.306461e-07	3.400913e-08	0.005486946	-0.004454972	-2.634835e-08	9.191283e-09	-0.03045355	0.01957924
3.1e+08	-0.02841247	0.01902635	-2.361044e-08	1.415206e-08	0.003924642	-0.004041922	-1.274443e-07	5.589152e-08
	-2.361044e-08	1.415206e-08	-0.02673502	0.02025641	-2.932652e-09	1.506675e-08	0.004319392	-0.003735803
	0.003924642	-0.004041922	-2.932652e-09	1.506675e-08	-0.02819304	0.01929311	-2.554644e-08	1.371709e-08
	-1.274443e-07	5.589152e-08	0.004319392	-0.003735803	-2.554644e-08	1.371709e-08	-0.02671123	0.02066356
3.2e+08	-0.02456663	0.01969146	-2.21093e-08	1.83306e-08	0.00288329	-0.003089962	-1.205116e-07	7.756668e-08
	-2.21093e-08	1.83306e-08	-0.0229352	0.02070024	-2.460356e-09	1.624467e-08	0.003273033	-0.002828154
	0.00288329	-0.003089962	-2.460356e-09	1.624467e-08	-0.02435004	0.01992048	-2.398127e-08	1.816679e-08
	-1.205116e-07	7.756668e-08	0.003273033	-0.002828154	-2.398127e-08	1.816679e-08	-0.02288924	0.02109888
3.3e+08	-0.02070447	0.0197021	-1.99038e-08	2.230994e-08	0.002004588	-0.001971572	-1.098405e-07	9.838797e-08
	-1.99038e-08	2.230994e-08	-0.01915867	0.02049752	-1.846342e-09	1.736206e-08	0.00237766	-0.001754596
	0.002004588	-0.001971572	-1.846342e-09	1.736206e-08	-0.02049202	0.01989599	-2.165982e-08	2.240831e-08
	-1.098405e-07	9.838797e-08	0.00237766	-0.001754596	-2.165982e-08	2.240831e-08	-0.01909351	0.0208841
3.4e+08	-0.01693063	0.01906726	-1.702262e-08	2.596818e-08	0.001314442	-0.0007161861	-9.553676e-08	1.177025e-07
	-1.702262e-08	2.596818e-08	-0.0155092	0.01966351	-1.099628e-09	1.839423e-08	0.001658975	-0.0005423662
	0.001314442	-0.0007161861	-1.099628e-09	1.839423e-08	-0.01672325	0.0192283	-1.8612e-08	2.631059e-08
	-9.553676e-08	1.177025e-07	0.001658975	-0.0005423663	-1.8612e-08	2.631059e-08	-0.01542843	0.02003502
3.5e+08	-0.01334666	0.01781228	-1.351536e-08	2.918815e-08	0.0008335438	0.0006427761	-7.782131e-08	1.348709e-07
	-1.351536e-08	2.918815e-08	-0.01208649	0.01822978	-2.334931e-10	1.931799e-08	0.001137858	0.0007773491
	0.0008335438	0.0006427761	-2.334931e-10	1.931799e-08	-0.01314506	0.01794243	-1.489023e-08	2.974752e-08
	-7.782131e-08	1.348709e-07	0.001137858	0.0007773491	-1.489023e-08	2.974752e-08	-0.01199418	0.01858384
3.6e+08	-0.01004856	0.01597815	-9.451614e-09	3.186093e-08	0.0005767474	0.002068814	-5.702792e-08	1.49288e-07
	-9.451614e-09	3.186093e-08	-0.008983575	0.0162433	7.347665e-10	2.011227e-08	0.0008297603	0.002170249
	0.0005767474	0.002068814	7.347665e-10	2.011227e-08	-0.00985327	0.01607903	-1.056856e-08	3.260174e-08
	-5.702792e-08	1.49288e-07	0.0008297603	0.002170249	-1.056856e-08	3.260174e-08	-0.008884202	0.01657826
3.7e+08	-0.007124307	0.01362039	-4.91949e-09	3.388914e-08	0.0005526139	0.00352335	-3.359788e-08	1.604027e-07
	-4.91949e-09	3.388914e-08	-0.006284507	0.01376519	1.784195e-09	2.075883e-08	0.0007442286	0.003599855
	0.0005526139	0.00352335	1.784195e-09	2.075883e-08	-0.006935819	0.01369331	-5.741e-09	3.476819e-08
	-3.359788e-08	1.604027e-07	0.0007442286	0.003599855	-5.741e-09	3.476819e-08	-0.006182804	0.01408015
3.8e+08	-0.004651742	0.01080758	-2.361696e-11	3.51899e-08	0.000763118	0.004966807	-8.070759e-09	1.67737e-07
	-2.361696e-11	3.51899e-08	-0.004062221	0.01086901	2.890636e-09	2.124287e-08	0.0008846016	0.005028517
	0.000763118	0.004966807	2.890636e-09	2.124287e-08	-0.004470564	0.01085358	-5.19465e-10	3.615741e-08
	-8.070759e-09	1.67737e-07	0.0008846016	0.005028517	-5.19465e-10	3.615741e-08	-0.003963057	0.01116392
3.9e+08	-0.002696627	0.007619583	5.117253e-09	3.569754e-08	0.001203542	0.006359729	1.892809e-08	1.709039e-07
	5.117253e-09	3.569754e-08	-0.00237671	0.007638883	4.027292e-09	2.155358e-08	0.001247871	0.00641847
	0.001203542	0.006359729	4.027292e-09	2.155358e-08	-0.002523355	0.007639486	4.96889e-09	3.669837e-08
	1.892809e-08	1.709039e-07	0.001247871	0.00641847	4.96889e-09	3.669837e-08	-0.002284952	0.007914518
4e+08	-0.001311033	0.004145463	1.037304e-08	3.536581e-08	0.001862561	0.007663911	4.670336e-08	1.696223e-07
	1.037304e-08	3.536581e-08	-0.001273539	0.00416718	5.165366e-09	2.168456e-08	0.001824728	0.007732908
	0.001862561	0.007663911	5.165366e-09	2.168456e-08	-0.00114641	0.004139927	1.058469e-08	3.634098e-08
	4.670336e-08	1.696223e-07	0.001824728	0.007732908	1.058469e-08	3.634098e-08	-0.0011939	0.00442515
4.1e+08	-0.0005320947	0.0004811708	1.560547e-08	3.416974e-08	0.002722524	0.008843514	7.450809e-08	1.637293e-07
	1.560547e-08	3.416974e-08	-0.0007827351	0.0005521393	6.27478e-09	2.163423e-08	0.002599793	0.008937039
	0.002722524	0.008843514	6.27478e-09	2.163423e-08	-0.0003770391	0.000450765	1.617971e-08	3.505804e-08
	7.450809e-08	1.637293e-07	0.002599793	0.008937039	1.617971e-08	3.505804e-08	-0.0007196367	0.0007948632
4.2e+08	-0.0003811325	-0.00327292	2.067142e-08	3.210703e-08	0.003759926	0.009866109	1.015644e-07	1.531899e-07
	2.067142e-08	3.210703e-08	-0.0009180932	-0.003104736	7.324963e-09	2.140605e-08	0.003552023	0.009999093
	0.003759926	0.009866109	7.324963e-09	2.140605e-08	-0.0002367628	-0.003327641	2.16006e-08	3.28467e-08
	1.015644e-07	1.531899e-07	0.003552023	0.009999093	2.16006e-08	3.28467e-08	-0.0008755303	-0.002874089
4.3e+08	-0.0008631922	-0.007014591	2.542658e-08	2.91989e-08	0.004946055	0.01070365	1.270855e-07	1.381021e-07
	2.542658e-08	2.91989e-08	-0.001676904	-0.006701334	8.285683e-09	2.100865e-08	0.004655297	0.01089125
	0.004946055	0.01070365	8.285683e-09	2.100865e-08	-0.0007308255	-0.007093014	2.66927e-08	2.972939e-08
	1.270855e-07	1.381021e-07	0.004655297	0.01089125	2.66927e-08	2.972939e-08	-0.001658315	-0.006478916
4.4e+08	-0.001967002	-0.01064239	2.972915e-08	2.549047e-08	0.006247799	0.01133329	1.502989e-07	1.186984e-07
	2.972915e-08	2.549047e-08	-0.003040119	-0.01013758	9.127913e-09	2.04558e-08	0.005879153	0.01159045
	0.006247799	0.01133329	9.127913e-09	2.04558e-08	-0.001848138	-0.01074377	3.130419e-08	2.575412e-08
	1.502989e-07	1.186984e-07	0.005879153	0.01159045	3.130419e-08	2.575412e-08	-0.003048275	-0.009918966
4.5e+08	-0.003665344	-0.01405821	3.344381e-08	2.105053e-08	0.007628599	0.01173811	1.704699e-07	9.534366e-08
	3.344381e-08	2.105053e-08	-0.004972933	-0.01331803	9.824725e-09	1.976633e-08	0.007189651	0.01207907
	0.007628599	0.01173811	9.824725e-09	1.976633e-08	-0.003561636	-0.0141816	3.529022e-08	2.099427e-08
	1.704699e-07	9.534366e-08	0.007189651	0.01207907	3.529022e-08	2.099427e-08	-0.005009844	-0.01309834
4.6e+08	-0.005915821	-0.01716978	3.643983e-08	1.596623e-08	0.009049497	0.01190757	1.869001e-07	6.851832e-08
	3.643983e-08	1.596623e-08	-0.007425795	-0.01615432	1.035093e-08	1.89639e-08	0.008550352	0.01234545
	0.009049497	0.01190757	1.035093e-08	1.89639e-08	-0.00582904	-0.01731395	3.851106e-08	1.554279e-08
	1.869001e-07	6.851832e-08	0.008550352	0.01234545	3.851106e-08	1.554279e-08	-0.007492611	-0.01592836
4.7e+08	-0.00866207	-0.01989293	3.860938e-08	1.035343e-08	0.01047027	0.01183788	1.990137e-07	3.884312e-08
	3.860938e-08	1.035343e-08	-0.01033576	-0.01856741	1.068745e-08	1.807666e-08	0.009923368	0.01238422
	0.01047027	0.01183788	1.068745e-08	1.807666e-08	-0.008594013	-0.02005638	4.085134e-08	9.523359e-09
	1.990137e-07	3.884312e-08	0.009923368	0.01238422	4.085134e-08	9.523359e-09	-0.01043277	-0.01832979
