!$
! Info: Touchstone file created by Circ.  Input file=Tx_8in_Rx_93ohms_TxVia_35mils_RxVia_45mils.circ
!$
# Hz S RI R 50
0	0.007419465	1.113532e-25	1.763942e-08	1.645133e-26	6.177766e-05	1.409001e-23	3.43329e-08	3.66286e-27
	1.763944e-08	1.645008e-26	0.007418349	1.294575e-25	3.42587e-08	5.94863e-26	6.21979e-05	1.674759e-23
	5.994044e-05	1.44692e-23	3.42587e-08	5.948663e-26	0.007431993	1.061533e-25	2.093728e-08	1.949711e-26
	3.43329e-08	3.663519e-27	6.035033e-05	1.683014e-23	2.093729e-08	1.949828e-26	0.007431496	1.212875e-25
1e+07	0.01084854	-0.0004829275	2.752188e-08	4.93449e-08	0.0002481682	0.001570587	8.173463e-08	1.457891e-07
	2.752188e-08	4.93449e-08	0.01084161	-0.0004832419	5.752634e-08	1.567085e-07	0.0002453262	0.001571375
	0.0002481083	0.001570591	5.752634e-08	1.567085e-07	0.01064192	-0.0004861717	3.248767e-08	5.903914e-08
	8.173463e-08	1.457891e-07	0.000245266	0.001571385	3.248767e-08	5.903914e-08	0.01063387	-0.0004861826
2e+07	0.01275963	-0.0036556	4.531201e-08	8.666818e-08	0.0005910534	0.003126932	1.634691e-07	2.463657e-07
	4.5312e-08	8.666818e-08	0.01273237	-0.00365308	7.778648e-08	2.850979e-07	0.0005801212	0.003130149
	0.0005910409	0.00312697	7.778648e-08	2.850979e-07	0.01260584	-0.003586671	5.363434e-08	1.035865e-07
	1.634689e-07	2.463657e-07	0.0005801128	0.003130184	5.363434e-08	1.035865e-07	0.01257432	-0.003582942
3e+07	0.01339689	-0.007773274	6.621719e-08	1.183832e-07	0.001229314	0.004527576	2.697554e-07	3.202593e-07
	6.621719e-08	1.183832e-07	0.0133371	-0.007761104	9.151394e-08	4.093336e-07	0.001205664	0.004536019
	0.001229317	0.004527582	9.151394e-08	4.093336e-07	0.01328431	-0.007689109	7.841326e-08	1.41478e-07
	2.697554e-07	3.202593e-07	0.001205664	0.004536024	7.841326e-08	1.41478e-07	0.01321533	-0.007673696
4e+07	0.01302672	-0.01213593	9.041288e-08	1.440855e-07	0.002118342	0.005767591	3.982546e-07	3.625916e-07
	9.041288e-08	1.440855e-07	0.01292388	-0.01210482	1.026181e-07	5.314955e-07	0.002078112	0.005785085
	0.002118337	0.005767587	1.026181e-07	5.314955e-07	0.01294819	-0.01205267	1.070628e-07	1.72298e-07
	3.982546e-07	3.625916e-07	0.002078106	0.005785083	1.070628e-07	1.72298e-07	0.01282976	-0.01201485
5e+07	0.01176803	-0.01647364	1.166823e-07	1.631536e-07	0.003183082	0.006830167	5.416411e-07	3.685772e-07
	1.166823e-07	1.631536e-07	0.01161387	-0.01641155	1.11656e-07	6.521805e-07	0.003123403	0.006861459
	0.003183077	0.006830165	1.11656e-07	6.521805e-07	0.01171709	-0.01640084	1.381851e-07	1.95278e-07
	5.416411e-07	3.685772e-07	0.003123399	0.006861458	1.381851e-07	1.952779e-07	0.0115398	-0.01632673
6e+07	0.009712854	-0.02060189	1.435883e-07	1.752842e-07	0.004392231	0.007691276	6.915392e-07	3.353766e-07
	1.435883e-07	1.752842e-07	0.009502199	-0.02049488	1.188067e-07	7.720825e-07	0.004311398	0.00774176
	0.004392235	0.007691276	1.188067e-07	7.720825e-07	0.00968306	-0.02054611	1.700646e-07	2.100382e-07
	6.915392e-07	3.353766e-07	0.0043114	0.007741759	1.700646e-07	2.100382e-07	0.009441057	-0.02041966
7e+07	0.006952287	-0.02437626	1.696663e-07	1.804193e-07	0.005710263	0.008331389	8.392184e-07	2.617786e-07
	1.696663e-07	1.804193e-07	0.006683241	-0.02420932	1.243066e-07	8.917994e-07	0.005607824	0.008406846
	0.005710275	0.008331386	1.243067e-07	8.917994e-07	0.006936966	-0.02434213	2.009519e-07	2.165247e-07
	8.392184e-07	2.617786e-07	0.005607832	0.008406843	2.009519e-07	2.165247e-07	0.006628192	-0.02414609
8e+07	0.003584294	-0.02767903	1.934356e-07	1.787354e-07	0.0070986	0.008736691	9.757637e-07	1.481761e-07
	1.934356e-07	1.787354e-07	0.003258264	-0.02743673	1.284368e-07	1.01178e-06	0.006975407	0.008843044
	0.007098615	0.008736684	1.284368e-07	1.01178e-06	0.003576505	-0.02766974	2.29102e-07	2.149726e-07
	9.757637e-07	1.481761e-07	0.006975417	0.008843038	2.29102e-07	2.149727e-07	0.003202681	-0.02738641
9e+07	-0.0002832441	-0.03041376	2.13425e-07	1.706714e-07	0.008516736	0.00889976	1.0923e-06	-3.333465e-09
	2.13425e-07	1.706715e-07	-0.0006615347	-0.03008088	1.314903e-07	1.132344e-06	0.00837497	0.009042818
	0.008516747	0.008899752	1.314903e-07	1.132344e-06	-0.0002908976	-0.03043148	2.528018e-07	2.059176e-07
	1.0923e-06	-3.333467e-09	0.008374977	0.009042812	2.528018e-07	2.059176e-07	-0.0007242544	-0.03004338
1e+08	-0.004520753	-0.03249336	2.282263e-07	1.569386e-07	0.00992339	0.008819566	1.180303e-06	-1.889263e-07
	2.282263e-07	1.569386e-07	-0.004943252	-0.03205543	1.337831e-07	1.253683e-06	0.009766544	0.009004766
	0.00992339	0.008819566	1.337831e-07	1.253683e-06	-0.004537993	-0.03254105	2.704209e-07	1.902e-07
	1.180303e-06	-1.889263e-07	0.009766544	0.009004766	2.704209e-07	1.902e-07	-0.00502156	-0.0320316
1.1e+08	-0.008983216	-0.03397324	2.364932e-07	1.387205e-07	0.01127553	0.008504647	1.231713e-06	-4.023921e-07
	2.364932e-07	1.387205e-07	-0.009436029	-0.03341796	1.355281e-07	1.376067e-06	0.0111086	0.008736477
	0.01127553	0.008504647	1.355281e-07	1.376067e-06	-0.00902142	-0.03404004	2.803317e-07	1.691608e-07
	1.231713e-06	-4.023921e-07	0.0111086	0.008736477	2.803317e-07	1.691608e-07	-0.00954016	-0.03339446
1.2e+08	-0.01365394	-0.03476676	2.372613e-07	1.173678e-07	0.01253762	0.007968384	1.240667e-06	-6.364201e-07
	2.372613e-07	1.173678e-07	-0.01412424	-0.03408425	1.369405e-07	1.499994e-06	0.01236628	0.008250655
	0.01253762	0.007968384	1.369405e-07	1.499994e-06	-0.01371339	-0.03484608	2.814081e-07	1.444167e-07
	1.240667e-06	-6.364201e-07	0.01236628	0.008250655	2.814081e-07	1.444167e-07	-0.01425148	-0.03405292
1.3e+08	-0.0183933	-0.03483899	2.297762e-07	9.436202e-08	0.01367391	0.007229503	1.202252e-06	-8.826802e-07
	2.297762e-07	9.436202e-08	-0.01886539	-0.03402131	1.385079e-07	1.625552e-06	0.01350474	0.007564929
	0.01367391	0.007229503	1.385079e-07	1.625552e-06	-0.01847557	-0.03492604	2.727649e-07	1.177161e-07
	1.202252e-06	-8.826802e-07	0.01350474	0.007564929	2.727649e-07	1.177161e-07	-0.01901425	-0.03397652
1.4e+08	-0.02307675	-0.03419092	2.135622e-07	7.135746e-08	0.01465249	0.006312817	1.113169e-06	-1.131803e-06
	2.135622e-07	7.135746e-08	-0.02353255	-0.033233	1.406851e-07	1.752757e-06	0.01449281	0.006702813
	0.01465249	0.006312817	1.406851e-07	1.752757e-06	-0.02318287	-0.03428101	2.538453e-07	9.100604e-08
	1.113169e-06	-1.131803e-06	0.01449281	0.006702813	2.538453e-07	9.100605e-08	-0.023701	-0.03316987
1.5e+08	-0.02758639	-0.03284506	1.884619e-07	5.011749e-08	0.01544628	0.005248078	9.719333e-07	-1.373728e-06
	1.884619e-07	5.011749e-08	-0.02800614	-0.03174544	1.439058e-07	1.881538e-06	0.01530383	0.005692608
	0.01544628	0.005248078	1.439058e-07	1.881538e-06	-0.02771664	-0.0329336	2.244664e-07	6.63593e-08
	9.719333e-07	-1.373728e-06	0.01530383	0.005692608	2.244664e-07	6.63593e-08	-0.02819142	-0.03165971
1.6e+08	-0.03181228	-0.0308426	1.546611e-07	3.245196e-08	0.01603368	0.004069029	7.790007e-07	-1.598052e-06
	1.546611e-07	3.245196e-08	-0.03217537	-0.02960385	1.485724e-07	2.011735e-06	0.01591636	0.004566511
	0.01603368	0.004069029	1.485724e-07	2.011735e-06	-0.03196621	-0.03092521	1.84847e-07	4.590137e-08
	7.790007e-07	-1.598052e-06	0.01591636	0.004566511	1.84847e-07	4.590137e-08	-0.03237409	-0.02949201
1.7e+08	-0.03565442	-0.02824134	1.127004e-07	2.01499e-08	0.01639914	0.002812381	5.368366e-07	-1.794401e-06
	1.127004e-07	2.01499e-08	-0.03594035	-0.02687027	1.550427e-07	2.143112e-06	0.01631469	0.003359653
	0.01639914	0.002812381	1.550427e-07	2.143112e-06	-0.03583095	-0.02831392	1.356207e-07	3.173218e-08
	5.368366e-07	-1.794401e-06	0.01631469	0.003359653	1.356207e-07	3.173218e-08	-0.03614859	-0.0267296
1.8e+08	-0.03902471	-0.02511357	6.347316e-08	1.490962e-08	0.01653352	0.00151675	2.499058e-07	-1.952807e-06
	6.347316e-08	1.490962e-08	-0.03921394	-0.02362123	1.636181e-07	2.275362e-06	0.0164892	0.002109093
	0.01653352	0.00151675	1.636181e-07	2.275362e-06	-0.03922216	-0.02517238	7.783277e-08	2.584516e-08
	2.499058e-07	-1.952807e-06	0.0164892	0.002109093	7.783277e-08	2.584516e-08	-0.0394274	-0.02344986
1.9e+08	-0.04184863	-0.02154392	8.208469e-09	1.826959e-08	0.01643425	0.0002215595	-7.540592e-08	-2.064089e-06
	8.208469e-09	1.826959e-08	-0.04192346	-0.01994533	1.745315e-07	2.408121e-06	0.01643655	0.0008527799
	0.01643425	0.0002215595	1.745315e-07	2.408121e-06	-0.04206486	-0.02158558	1.292063e-08	3.00472e-08
	-7.540592e-08	-2.064089e-06	0.01643655	0.0008527799	1.292063e-08	3.00472e-08	-0.04213768	-0.01974227
2e+08	-0.04406672	-0.01762692	-5.15593e-08	3.154297e-08	0.01610533	-0.001034051	-4.309404e-07	-2.120204e-06
	-5.15593e-08	3.154297e-08	-0.04401212	-0.01594076	1.879376e-07	2.540981e-06	0.01615968	-0.0003714781
	0.01610533	-0.001034051	1.879376e-07	2.540981e-06	-0.04429918	-0.01764843	-5.732196e-08	4.588291e-08
	-4.309404e-07	-2.120204e-06	0.01615968	-0.0003714781	-5.732196e-08	4.588291e-08	-0.04422256	-0.01570587
2.1e+08	-0.04563571	-0.0134645	-1.14034e-07	5.575862e-08	0.01555717	-0.002212292	-8.069783e-07	-2.114577e-06
	-1.14034e-07	5.575862e-08	-0.04543997	-0.01171256	2.039058e-07	2.673507e-06	0.01566768	-0.001527029
	0.01555717	-0.002212292	2.039058e-07	2.673507e-06	-0.04588147	-0.01346329	-1.307949e-07	7.456638e-08
	-8.069783e-07	-2.114577e-06	0.01566768	-0.001527029	-1.307949e-07	7.456638e-08	-0.04564219	-0.01144655
2.2e+08	-0.04652924	-0.009163359	-1.772124e-07	9.161116e-08	0.01480625	-0.003277737	-1.192509e-06	-2.042384e-06
	-1.772124e-07	9.161116e-08	-0.0461846	-0.007369912	2.224164e-07	2.805252e-06	0.01497546	-0.002579341
	0.01480625	-0.003277737	2.224164e-07	2.805252e-06	-0.04678503	-0.009137304	-2.051546e-07	1.169231e-07
	-1.192509e-06	-2.042384e-06	0.01497546	-0.002579341	-2.051546e-07	1.169231e-07	-0.0463744	-0.007074271
2.3e+08	-0.04673822	-0.004832289	-2.389482e-07	1.394221e-07	0.0138746	-0.00419826	-1.575551e-06	-1.900793e-06
	-2.389482e-07	1.394221e-07	-0.04624132	-0.003023362	2.433601e-07	2.935778e-06	0.01410334	-0.003496896
	0.0138746	-0.00419826	2.433601e-07	2.935778e-06	-0.0470005	-0.004779729	-2.778879e-07	1.733444e-07
	-1.575551e-06	-1.900793e-06	0.01410334	-0.003496896	-2.778879e-07	1.733444e-07	-0.04641485	-0.002700297
2.4e+08	-0.04627082	-0.000579465	-2.970226e-07	1.991135e-07	0.0127892	-0.004945876	-1.943507e-06	-1.689138e-06
	-2.970226e-07	1.991135e-07	-0.04562302	0.001217971	2.665415e-07	3.064672e-06	0.01307645	-0.004252003
	0.0127892	-0.004945876	2.665415e-07	3.064672e-06	-0.04653581	-0.0004992545	-3.463935e-07	2.437566e-07
	-1.943507e-06	-1.689138e-06	0.01307645	-0.004252003	-3.463935e-07	2.437566e-07	-0.04577689	0.001565606
2.5e+08	-0.04515201	0.003490175	-3.492192e-07	2.701959e-07	0.01158121	-0.005497472	-2.28356e-06	-1.409037e-06
	-3.492192e-07	2.701959e-07	-0.04435961	0.005249063	2.916861e-07	3.191564e-06	0.01192404	-0.004821504
	0.01158121	-0.005497472	2.916861e-07	3.191564e-06	-0.04541575	0.003598631	-4.080684e-07	3.276053e-07
	-2.28356e-06	-1.409037e-06	0.01192404	-0.004821504	-4.080684e-07	3.276053e-07	-0.04449101	0.005617862
2.6e+08	-0.04342281	0.007277502	-3.933999e-07	3.517703e-07	0.01028515	-0.005835409	-2.583079e-06	-1.064434e-06
	-3.933999e-07	3.517703e-07	-0.04249708	0.008971592	3.184507e-07	3.316137e-06	0.01067871	-0.005187364
	0.01028515	-0.005835409	3.184507e-07	3.316137e-06	-0.04368122	0.007414175	-4.603965e-07	4.23856e-07
	-2.583079e-06	-1.064434e-06	0.01067871	-0.005187364	-4.603965e-07	4.23856e-07	-0.04260378	0.00935766
2.7e+08	-0.04113903	0.01069145	-4.275814e-07	4.425418e-07	0.008937953	-0.005947987	-2.830033e-06	-6.615746e-07
	-4.275814e-07	4.425418e-07	-0.04009607	0.0122962	3.464354e-07	3.438145e-06	0.009375521	-0.005337136
	0.008937953	-0.005947987	3.464354e-07	3.438145e-06	-0.04138801	0.01085573	-5.010364e-07	5.310113e-07
	-2.830033e-06	-6.615746e-07	0.009375521	-0.005337136	-5.010364e-07	5.310113e-07	-0.0401766	0.01269533
2.8e+08	-0.03836982	0.01365128	-4.500058e-07	5.408515e-07	0.007577968	-0.005829751	-3.013408e-06	-2.089069e-07
	-4.500058e-07	5.408515e-07	-0.03723033	0.01514472	3.751988e-07	3.557419e-06	0.008051103	-0.00526428
	0.007577968	-0.005829751	3.751988e-07	3.557419e-06	-0.03860536	0.01384194	-5.279045e-07	6.471434e-07
	-3.013408e-06	-2.089069e-07	0.008051103	-0.00526428	-5.279045e-07	6.471434e-07	-0.03728394	0.01555252
2.9e+08	-0.0351959	0.01608846	-4.59205e-07	6.447179e-07	0.006243946	-0.00548165	-3.123601e-06	2.830911e-07
	-4.59205e-07	6.447179e-07	-0.03398469	0.01745203	4.042736e-07	3.67387e-06	0.006742648	-0.004968341
	0.006243946	-0.00548165	4.042736e-07	3.67387e-06	-0.03541411	0.01630363	-5.392521e-07	7.699415e-07
	-3.123601e-06	2.830911e-07	0.006742648	-0.004968341	-5.392521e-07	7.699415e-07	-0.03401143	0.017864
3e+08	-0.0317074	0.01794823	-4.540579e-07	7.518896e-07	0.004973985	-0.004911027	-3.152783e-06	8.021513e-07
	-4.540579e-07	7.518896e-07	-0.03045286	0.01916754	4.331823e-07	3.787495e-06	0.005486946	-0.004454972
	0.004973985	-0.004911027	4.331823e-07	3.787495e-06	-0.03190468	0.01818544	-5.337329e-07	8.967722e-07
	-3.152783e-06	8.021513e-07	0.005486946	-0.004454972	-5.337329e-07	8.967722e-07	-0.03045355	0.01957924
3.1e+08	-0.02800164	0.01919092	-4.338369e-07	8.599078e-07	0.003804503	-0.004131443	-3.095225e-06	1.334522e-06
	-4.338369e-07	8.599078e-07	-0.02673502	0.02025641	4.614527e-07	3.898376e-06	0.004319392	-0.003735803
	0.003804503	-0.004131443	4.614527e-07	3.898376e-06	-0.02817471	0.01944709	-5.104593e-07	1.024751e-06
	-3.095225e-06	1.334522e-06	0.004319392	-0.003735803	-5.104593e-07	1.024751e-06	-0.02671123	0.02066356
3.2e+08	-0.02418063	0.01979279	-3.98243e-07	9.661755e-07	0.002769232	-0.00316234	-2.947573e-06	1.865331e-06
	-3.98243e-07	9.661755e-07	-0.0229352	0.02070024	4.886316e-07	4.006671e-06	0.003273033	-0.002828154
	0.002769232	-0.00316234	4.886316e-07	4.006671e-06	-0.0243267	0.02006432	-4.690457e-07	1.150823e-06
	-2.947573e-06	1.865331e-06	0.003273033	-0.002828154	-4.690457e-07	1.150823e-06	-0.02288924	0.02109888
3.3e+08	-0.02034852	0.01974655	-3.474288e-07	1.068033e-06	0.001898282	-0.002028544	-2.709053e-06	2.378997e-06
	-3.474288e-07	1.068033e-06	-0.01915867	0.02049752	5.142979e-07	4.112615e-06	0.00237766	-0.001754596
	0.001898282	-0.002028544	5.142979e-07	4.112615e-06	-0.02046534	0.02002938	-4.09638e-07	1.271853e-06
	-2.709053e-06	2.378997e-06	0.00237766	-0.001754596	-4.09638e-07	1.271853e-06	-0.01909351	0.0208841
3.4e+08	-0.016609	0.0190615	-2.820085e-07	1.162834e-06	0.001217281	-0.0007596158	-2.381612e-06	2.859683e-06
	-2.820085e-07	1.162834e-06	-0.0155092	0.01966351	5.380727e-07	4.216507e-06	0.001658975	-0.0005423662
	0.001217281	-0.0007596158	5.380727e-07	4.216507e-06	-0.01669494	0.01935114	-3.329272e-07	1.384711e-06
	-2.381612e-06	2.859683e-06	0.001658975	-0.0005423663	-3.329272e-07	1.384711e-06	-0.01542843	0.02003502
3.5e+08	-0.0130627	0.01776315	-2.030551e-07	1.248029e-06	0.000746632	0.0006109324	-1.969976e-06	3.291772e-06
	-2.030551e-07	1.248029e-06	-0.01208649	0.01822978	5.596282e-07	4.318707e-06	0.001137858	0.0007773491
	0.000746632	0.0006109324	5.596282e-07	4.318707e-06	-0.01311683	0.01805484	-2.401481e-07	1.486375e-06
	-1.969976e-06	3.291772e-06	0.001137858	0.0007773491	-2.401481e-07	1.486375e-06	-0.01199418	0.01858384
3.6e+08	-0.009804638	0.01589256	-1.120843e-07	1.321237e-06	0.000500904	0.002046545	-1.481625e-06	3.660357e-06
	-1.120843e-07	1.321237e-06	-0.008983575	0.0162433	5.786946e-07	4.419621e-06	0.0008297603	0.002170249
	0.000500904	0.002046545	5.786946e-07	4.419621e-06	-0.009826792	0.01618137	-1.330624e-07	1.574016e-06
	-1.481625e-06	3.660357e-06	0.0008297603	0.002170249	-1.330624e-07	1.574016e-06	-0.008884202	0.01657826
3.7e+08	-0.006921912	0.01350521	-1.102593e-08	1.380323e-06	0.0004883693	0.003508626	-9.266798e-07	3.951726e-06
	-1.102593e-08	1.380323e-06	-0.006284507	0.01376519	5.950655e-07	4.519696e-06	0.0007442286	0.003599855
	0.0004883693	0.003508626	5.950655e-07	4.519696e-06	-0.006912708	0.01378614	-1.39257e-08	1.645091e-06
	-9.266798e-07	3.951726e-06	0.0007442286	0.003599855	-1.39257e-08	1.645091e-06	-0.006182804	0.01408015
3.8e+08	-0.004491476	0.01066957	9.781667e-08	1.423473e-06	0.0007107201	0.004957617	-3.177058e-07	4.153834e-06
	9.781667e-08	1.423473e-06	-0.004062221	0.01086901	6.086018e-07	4.61941e-06	0.0008846016	0.005028517
	0.0007107201	0.004957617	6.086018e-07	4.61941e-06	-0.004452339	0.01093769	1.145591e-07	1.69743e-06
	-3.177058e-07	4.153834e-06	0.0008846016	0.005028517	1.145591e-07	1.69743e-06	-0.003963057	0.01116392
3.9e+08	-0.002578257	0.007465275	2.118184e-07	1.449248e-06	0.001162966	0.006354115	3.305702e-07	4.256736e-06
	2.118184e-07	1.449248e-06	-0.00237671	0.007638883	6.192358e-07	4.719264e-06	0.001247871	0.00641847
	0.001162966	0.006354115	6.192358e-07	4.719264e-06	-0.002511413	0.007715868	2.493034e-07	1.729308e-06
	3.305702e-07	4.256736e-06	0.001247871	0.00641847	2.493034e-07	1.729308e-06	-0.002284952	0.007914518
4e+08	-0.001233548	0.003981071	3.280947e-07	1.456647e-06	0.001833526	0.007660005	1.00162e-06	4.252972e-06
	3.280947e-07	1.456647e-06	-0.001273539	0.00416718	6.269731e-07	4.819771e-06	0.001824728	0.007732908
	0.001833526	0.007660005	6.269731e-07	4.819771e-06	-0.001141988	0.004209746	3.869068e-07	1.739517e-06
	1.00162e-06	4.252972e-06	0.001824728	0.007732908	3.869068e-07	1.739517e-06	-0.0011939	0.00442515
4.1e+08	-0.0004937612	0.0003125185	4.435729e-07	1.44515e-06	0.002704511	0.008839566	1.677542e-06	4.137894e-06
	4.435729e-07	1.44515e-06	-0.0007827351	0.0005521393	6.318962e-07	4.921452e-06	0.002599793	0.008937039
	0.002704511	0.008839566	6.318962e-07	4.921452e-06	-0.0003811965	0.0005153509	5.237424e-07	1.727416e-06
	1.677542e-06	4.137894e-06	0.002599793	0.008937039	5.237424e-07	1.727416e-06	-0.0007196367	0.0007948632
4.2e+08	-0.0003795649	-0.00344047	5.550716e-07	1.414753e-06	0.003752201	0.009860519	2.339551e-06	3.909909e-06
	5.550716e-07	1.414753e-06	-0.0009180932	-0.003104736	6.34166e-07	5.024819e-06	0.003552023	0.009999093
	0.003752201	0.009860519	6.34166e-07	5.024819e-06	-0.0002503511	-0.003266823	6.560515e-07	1.692977e-06
	2.339551e-06	3.909909e-06	0.003552023	0.009999093	6.560515e-07	1.692977e-06	-0.0008755303	-0.002874089
4.3e+08	-0.0008954291	-0.007176207	6.593866e-07	1.365988e-06	0.004947695	0.01069499	2.968504e-06	3.570641e-06
	6.593866e-07	1.365988e-06	-0.001676904	-0.006701334	6.340241e-07	5.130372e-06	0.004655297	0.01089125
	0.004947695	0.01069499	6.340241e-07	5.130372e-06	-0.0007544724	-0.007034394	7.800462e-07	1.636808e-06
	2.968504e-06	3.570641e-06	0.004655297	0.01089125	7.800462e-07	1.636808e-06	-0.001658315	-0.006478916
4.4e+08	-0.002029586	-0.01079382	7.53381e-07	1.299935e-06	0.006257728	0.01132033	3.545464e-06	3.124998e-06
	7.53381e-07	1.299935e-06	-0.003040119	-0.01013758	6.317938e-07	5.238585e-06	0.005879153	0.01159045
	0.006257728	0.01132033	6.317938e-07	5.238585e-06	-0.001882232	-0.01068571	8.920176e-07	1.560164e-06
	3.545464e-06	3.124998e-06	0.005879153	0.01159045	8.920176e-07	1.560164e-06	-0.003048275	-0.009918966
4.5e+08	-0.003754408	-0.01419582	8.340781e-07	1.218212e-06	0.007645613	0.01171981	4.052267e-06	2.58114e-06
	8.340781e-07	1.218212e-06	-0.004972933	-0.01331803	6.278794e-07	5.349892e-06	0.007189651	0.01207907
	0.007645613	0.01171981	6.278794e-07	5.349892e-06	-0.003606318	-0.01412243	9.884456e-07	1.464937e-06
	4.052267e-06	2.58114e-06	0.007189651	0.01207907	9.884456e-07	1.464937e-06	-0.005009844	-0.01309834
4.6e+08	-0.006027195	-0.01729058	8.987543e-07	1.122952e-06	0.009072304	0.01188314	4.472087e-06	1.950349e-06
	8.987543e-07	1.122952e-06	-0.007425795	-0.01615432	6.227641e-07	5.464671e-06	0.008550352	0.01234545
	0.009072304	0.01188314	6.227641e-07	5.464671e-06	-0.005884182	-0.01725205	1.066106e-06	1.353626e-06
	4.472087e-06	1.950349e-06	0.008550352	0.01234545	1.066106e-06	1.353626e-06	-0.007492611	-0.01592836
4.7e+08	-0.008791332	-0.01999461	9.450299e-07	1.016767e-06	0.01049752	0.01180674	4.789973e-06	1.246793e-06
	9.450299e-07	1.016767e-06	-0.01033576	-0.01856741	6.170064e-07	5.583236e-06	0.009923368	0.01238422
	0.01049752	0.01180674	6.170064e-07	5.583236e-06	-0.008659265	-0.01999012	1.122187e-06	1.229298e-06
	4.789973e-06	1.246793e-06	0.009923368	0.01238422	1.122187e-06	1.229298e-06	-0.01043277	-0.01832979
4.8e+08	-0.0119778	-0.02223467	9.709537e-07	9.026919e-07	0.01188092	0.0114939	4.993347e-06	4.87207e-07
