!$
! Info: Touchstone file created by Circ.  Input file=Tx_8in_Rx_85ohms_TxVia_35mils_RxVia_45mils.circ
!$
# Hz S RI R 50
0	0.006531301	1.120452e-25	-1.660216e-12	3.08294e-28	6.378287e-05	1.222997e-23	-6.570608e-13	1.581261e-28
	-1.660219e-12	3.082941e-28	0.006527861	1.299744e-25	1.251706e-12	5.009034e-28	6.242382e-05	1.472197e-23
	6.430685e-05	1.238918e-23	1.251709e-12	5.00903e-28	0.006539482	1.093734e-25	-8.497862e-13	3.281436e-28
	-6.570612e-13	1.581262e-28	6.057642e-05	1.479457e-23	-8.497864e-13	3.28144e-28	0.006541023	1.217705e-25
1e+07	0.00856191	-0.007461509	7.210361e-12	4.687485e-12	0.0001906943	0.001565379	8.298022e-12	9.96575e-12
	7.210362e-12	4.687486e-12	0.008545308	-0.007329803	7.257987e-12	4.115091e-12	0.0002491191	0.001561281
	0.0001907181	0.00156538	7.257987e-12	4.11509e-12	0.009646207	-0.00721146	5.773897e-12	4.72549e-12
	8.298021e-12	9.96575e-12	0.000249059	0.001561291	5.773897e-12	4.725489e-12	0.008533885	-0.007317566
2e+07	0.008745435	-0.01704257	7.989899e-12	6.429051e-12	0.0005933014	0.003081976	7.609646e-12	1.786763e-11
	7.989901e-12	6.429051e-12	0.008835703	-0.01682402	9.612424e-12	2.560074e-12	0.0006687039	0.003025162
	0.000593309	0.003081961	9.612424e-12	2.560073e-12	0.009853849	-0.017029	7.288239e-12	3.268677e-12
	7.609646e-12	1.786763e-11	0.000668696	0.003025196	7.28824e-12	3.268678e-12	0.00883038	-0.01679177
3e+07	0.006562218	-0.0272742	5.800514e-12	6.772763e-12	0.001278049	0.004448521	4.041149e-12	2.506323e-11
	5.800515e-12	6.772763e-12	0.006714978	-0.02703485	9.896356e-12	-8.584208e-13	0.001312413	0.004380452
	0.001278049	0.004448518	9.896356e-12	-8.584209e-13	0.007680849	-0.02738228	4.10688e-12	1.70442e-13
	4.041149e-12	2.506323e-11	0.001312413	0.004380457	4.10688e-12	1.70442e-13	0.006713372	-0.02698926
4e+07	0.002375862	-0.03718941	1.055334e-13	6.991159e-12	0.00216718	0.00565991	-3.024155e-12	3.291879e-11
	1.055322e-13	6.991158e-12	0.002559604	-0.03694601	7.25236e-12	-5.141313e-12	0.002159969	0.005594319
	0.002167182	0.005659911	7.25236e-12	-5.141313e-12	0.003490134	-0.03740496	-4.419702e-12	-3.125833e-12
	-3.024155e-12	3.291879e-11	0.002159964	0.005594317	-4.419703e-12	-3.125832e-12	0.002559931	-0.03688867
5e+07	-0.003576673	-0.04635396	-9.07061e-12	8.598525e-12	0.00323157	0.006687654	-1.3288e-11	4.291663e-11
	-9.070611e-12	8.598525e-12	-0.003387659	-0.04610976	1.349791e-12	-9.437015e-12	0.003182657	0.006635422
	0.003231571	0.006687654	1.349791e-12	-9.437015e-12	-0.002480573	-0.04667186	-1.826812e-11	-4.414248e-12
	-1.3288e-11	4.291663e-11	0.003182653	0.006635421	-1.826812e-11	-4.414248e-12	-0.00338706	-0.0460411
6e+07	-0.01106328	-0.05444919	-2.143607e-11	1.287211e-11	0.004435978	0.007506882	-2.612574e-11	5.620822e-11
	-2.143607e-11	1.287211e-11	-0.01088988	-0.0542	-7.959179e-12	-1.283333e-11	0.004346329	0.007477991
	0.004435975	0.007506883	-7.95918e-12	-1.283333e-11	-0.009998777	-0.05486587	-3.691932e-11	-1.854222e-12
	-2.612574e-11	5.620822e-11	0.004346332	0.00747799	-3.691932e-11	-1.854222e-12	-0.01089048	-0.05411975
7e+07	-0.01983465	-0.06122488	-3.637446e-11	2.101356e-11	0.005741109	0.008098947	-4.063824e-11	7.375581e-11
	-3.637446e-11	2.101356e-11	-0.01969345	-0.060962	-2.06596e-11	-1.437049e-11	0.005613089	0.008102893
	0.005741103	0.008098949	-2.06596e-11	-1.437049e-11	-0.0188149	-0.06173663	-5.941982e-11	6.249644e-12
	-4.063824e-11	7.375581e-11	0.005613096	0.008102889	-5.941982e-11	6.249642e-12	-0.01969645	-0.06086941
8e+07	-0.02962142	-0.06648743	-5.295702e-11	3.414804e-11	0.007105184	0.008452383	-5.569047e-11	9.636431e-11
	-5.295701e-11	3.414805e-11	-0.02952521	-0.06619965	-3.658669e-11	-1.300152e-11	0.006942734	0.008498233
	0.007105178	0.008452387	-3.658669e-11	-1.300152e-11	-0.02865952	-0.06709012	-8.439987e-11	2.149084e-11
	-5.569047e-11	9.636431e-11	0.006942744	0.008498227	-8.439988e-11	2.149084e-11	-0.02953154	-0.06609356
9e+07	-0.0401372	-0.07009622	-6.9939e-11	5.343077e-11	0.008485484	0.008563341	-6.989481e-11	1.247656e-10
	-6.993898e-11	5.343078e-11	-0.04009604	-0.06977187	-5.546891e-11	-7.460972e-12	0.008294348	0.008659766
	0.008485479	0.008563345	-5.546891e-11	-7.460972e-12	-0.03924689	-0.07078584	-1.100485e-10	4.550759e-11
	-6.989481e-11	1.247656e-10	0.008294354	0.008659759	-1.100485e-10	4.550758e-11	-0.04010627	-0.06965085
1e+08	-0.05108007	-0.07195824	-8.548483e-11	8.126889e-11	0.009840183	0.008435859	-8.137196e-11	1.605804e-10
	-8.548483e-11	8.126889e-11	-0.05110863	-0.07159327	-7.755263e-11	5.139625e-12	0.009629232	0.008592329
	0.009840183	0.008435859	-7.755263e-11	5.139625e-12	-0.05028161	-0.07273658	-1.339825e-10	8.192168e-11
	-8.137196e-11	1.605804e-10	0.009629232	0.008592329	-1.339825e-10	8.192168e-11	-0.05112313	-0.07145585
1.1e+08	-0.06213704	-0.07208459	-8.967201e-11	1.129161e-10	0.01112922	0.008079283	-8.538321e-11	1.92131e-10
	-8.967201e-11	1.129161e-10	-0.06226213	-0.07162366	-8.696612e-11	2.000721e-11	0.01091278	0.008294017
	0.01112922	0.008079282	-8.696612e-11	2.000721e-11	-0.06146331	-0.0729111	-1.412342e-10	1.200536e-10
	-8.538321e-11	1.92131e-10	0.01091278	0.008294017	-1.412342e-10	1.200536e-10	-0.06227993	-0.07146767
1.2e+08	-0.073058	-0.07046197	-9.262537e-11	1.364331e-10	0.01231399	0.007511512	-8.721874e-11	2.235321e-10
	-9.262537e-11	1.364331e-10	-0.07324896	-0.06987131	-9.337205e-11	2.879939e-11	0.0120964	0.007784817
	0.01231399	0.007511512	-9.337205e-11	2.879939e-11	-0.07249752	-0.07131081	-1.462094e-10	1.493185e-10
	-8.721874e-11	2.235321e-10	0.0120964	0.007784817	-1.462094e-10	1.493185e-10	-0.07326927	-0.06969493
1.3e+08	-0.08355158	-0.06714266	-9.351283e-11	1.598904e-10	0.01336199	0.006756137	-8.584009e-11	2.568474e-10
	-9.351283e-11	1.598904e-10	-0.08378244	-0.06640372	-9.99348e-11	3.846205e-11	0.01314999	0.007089322
	0.01336199	0.006756137	-9.99348e-11	3.846205e-11	-0.08309822	-0.06799786	-1.485046e-10	1.791062e-10
	-8.584009e-11	2.568474e-10	0.01314999	0.007089322	-1.485046e-10	1.791062e-10	-0.08380397	-0.06620521
1.4e+08	-0.09334944	-0.06222951	-9.123745e-11	1.84196e-10	0.01424534	0.005841096	-8.088615e-11	2.910591e-10
	-9.123745e-11	1.84196e-10	-0.09359333	-0.06133093	-1.063621e-10	5.005946e-11	0.01404662	0.006234525
	0.01424534	0.005841095	-1.063621e-10	5.005946e-11	-0.09299734	-0.06307805	-1.466403e-10	2.103039e-10
	-8.088615e-11	2.910591e-10	0.01404662	0.006234525	-1.466403e-10	2.103039e-10	-0.09361418	-0.06110879
1.5e+08	-0.1022082	-0.05586616	-8.592478e-11	2.094034e-10	0.01494159	0.004797963	-7.200235e-11	3.259619e-10
	-8.592478e-11	2.094034e-10	-0.1024374	-0.05480285	-1.12275e-10	6.345447e-11	0.01476434	0.005250641
	0.01494159	0.004797963	-1.12275e-10	6.345447e-11	-0.1019512	-0.05669689	-1.406958e-10	2.429043e-10
	-7.200235e-11	3.259619e-10	0.01476434	0.005250641	-1.406958e-10	2.429043e-10	-0.1024551	-0.05455599
1.6e+08	-0.1099142	-0.04823133	-7.732943e-11	2.34894e-10	0.0154341	0.003660929	-5.895916e-11	3.607744e-10
	-7.732943e-11	2.34894e-10	-0.1101008	-0.04700424	-1.173513e-10	7.852576e-11	0.01528665	0.00417031
	0.0154341	0.003660929	-1.173513e-10	7.852576e-11	-0.1097457	-0.04903464	-1.303122e-10	2.760591e-10
	-5.895916e-11	3.607744e-10	0.01528665	0.00417031	-1.303122e-10	2.760591e-10	-0.1101125	-0.04673219
1.7e+08	-0.1162872	-0.03953306	-6.531389e-11	2.600234e-10	0.01571219	0.002465788	-4.167363e-11	3.946827e-10
	-6.531389e-11	2.600234e-10	-0.1164041	-0.03814899	-1.21281e-10	9.513136e-11	0.01560261	0.003027713
	0.01571219	0.002465788	-1.21281e-10	9.513136e-11	-0.1162002	-0.04030069	-1.15281e-10	3.088864e-10
	-4.167363e-11	3.946827e-10	0.01560261	0.003027713	-1.15281e-10	3.088864e-10	-0.1164069	-0.03785194
1.8e+08	-0.121184	-0.03000277	-4.985565e-11	2.841271e-10	0.01577112	0.001248988	-2.02179e-11	4.268588e-10
	-4.985565e-11	2.841271e-10	-0.1212058	-0.02847408	-1.237639e-10	1.130885e-10	0.0157069	0.001857705
	0.01577112	0.001248988	-1.237639e-10	1.130885e-10	-0.1211714	-0.03072765	-9.555216e-11	3.40476e-10
	-2.02179e-11	4.268588e-10	0.0157069	0.001857705	-9.555216e-11	3.40476e-10	-0.1211966	-0.02815294
1.9e+08	-0.1245005	-0.01988912	-3.105359e-11	3.065339e-10	0.01561193	4.675204e-05	5.17626e-12	4.56486e-10
	-3.105359e-11	3.065339e-10	-0.1244045	-0.01823331	-1.245179e-10	1.321612e-10	0.01559965	0.0006950066
	0.01561193	4.675202e-05	-1.245179e-10	1.321612e-10	-0.1245548	-0.0205653	-7.124223e-11	3.699074e-10
	5.17626e-12	4.56486e-10	0.01559965	0.0006950066	-7.124223e-11	3.699074e-10	-0.1243804	-0.01788969
2e+08	-0.1261733	-0.009451811	-9.131068e-12	3.265853e-10	0.01524124	-0.001105728	3.411865e-11	4.827875e-10
	-9.131068e-12	3.265853e-10	-0.1259404	-0.007690982	-1.232914e-10	1.520548e-10	0.01528622	-0.0004265238
	0.01524124	-0.001105728	-1.232914e-10	1.520548e-10	-0.1262869	-0.01007437	-4.263921e-11	3.962754e-10
	3.411865e-11	4.827875e-10	0.01528622	-0.0004265238	-4.263921e-11	3.962754e-10	-0.1258988	-0.007327104
2.1e+08	-0.1261806	0.00104464	1.556415e-11	3.436568e-10	0.0146709	-0.002175015	6.60674e-11	5.050561e-10
	1.556415e-11	3.436568e-10	-0.1257959	0.002884522	-1.198791e-10	1.72415e-10	0.01477699	-0.001474562
	0.0146709	-0.002175015	-1.198791e-10	1.72415e-10	-0.1263457	0.0004796625	-1.020283e-11	4.187188e-10
	6.60674e-11	5.050561e-10	0.01477699	-0.001474562	-1.020283e-11	4.187188e-10	-0.1257346	0.003265852
2.2e+08	-0.1245413	0.01133705	4.256458e-11	3.571793e-10	0.01391766	-0.003130086	1.003421e-10	5.226826e-10
	4.256458e-11	3.571793e-10	-0.1239953	0.01322697	-1.141397e-10	1.928342e-10	0.01408696	-0.002418927
	0.01391766	-0.003130086	-1.141397e-10	1.928342e-10	-0.1247503	0.01083268	2.544115e-11	4.364517e-10
	1.003421e-10	5.226826e-10	0.01408696	-0.002418927	2.544115e-11	4.364517e-10	-0.1239126	0.01362248
2.3e+08	-0.1213152	0.02116957	7.129151e-11	3.666613e-10	0.01300273	-0.003942945	1.361422e-10	5.351822e-10
	7.129151e-11	3.666613e-10	-0.1206035	0.02307841	-1.060117e-10	2.12863e-10	0.01323547	-0.003232148
	0.01300273	-0.003942945	-1.060117e-10	2.12863e-10	-0.1215602	0.02072798	6.351237e-11	4.487936e-10
	1.361422e-10	5.351822e-10	0.01323547	-0.003232148	6.351237e-11	4.487936e-10	-0.1204985	0.02348447
2.4e+08	-0.1166	0.03029949	1.010669e-10	3.717101e-10	0.01195138	-0.004589184	1.725702e-10	5.422178e-10
	1.010669e-10	3.717101e-10	-0.1157246	0.03219507	-9.552761e-11	2.320271e-10	0.01224577	-0.003889998
	0.01195138	-0.004589184	-9.552761e-11	2.320271e-10	-0.1168736	0.02992199	1.030927e-10	4.552002e-10
	1.725702e-10	5.422178e-10	0.01224577	-0.003889998	1.030927e-10	4.552002e-10	-0.115597	0.03260782
2.5e+08	-0.1105301	0.03850276	1.311302e-10	3.720505e-10	0.01079237	-0.00504851	2.086605e-10	5.436182e-10
	1.311302e-10	3.720505e-10	-0.109499	0.0403529	-8.282301e-11	2.498496e-10	0.01114456	-0.004371998
	0.01079237	-0.00504851	-8.282301e-11	2.498496e-10	-0.1108246	0.03818985	1.431502e-10	4.552902e-10
	2.086605e-10	5.436182e-10	0.01114456	-0.004371998	1.431502e-10	4.552902e-10	-0.1093491	0.04076837
2.6e+08	-0.1032725	0.04557912	1.606593e-10	3.675422e-10	0.00955743	-0.005305237	2.434116e-10	5.393875e-10
	1.606593e-10	3.675422e-10	-0.1020998	0.0473528	-6.813967e-11	2.658761e-10	0.009961539	-0.0046619
	0.00955743	-0.005305237	-6.813967e-11	2.658761e-10	-0.1035805	0.04533047	1.825684e-10	4.488686e-10
	2.434116e-10	5.393875e-10	0.009961539	-0.0046619	1.825684e-10	4.488686e-10	-0.1019288	0.04776705
2.7e+08	-0.09502333	0.05135679	1.887926e-10	3.581925e-10	0.008280628	-0.005348735	2.75817e-10	5.297149e-10
	1.887926e-10	3.581925e-10	-0.09372922	0.05302528	-5.182158e-11	2.797012e-10	0.008728818	-0.004748139
	0.008280628	-0.005348735	-5.182158e-11	2.797012e-10	-0.09533786	0.05117131	2.201799e-10	4.359452e-10
	2.75817e-10	5.297149e-10	0.008728818	-0.004748139	2.201799e-10	4.359452e-10	-0.09353902	0.05343455
2.8e+08	-0.08600332	0.05569672	2.146568e-10	3.441669e-10	0.006997628	-0.005173824	3.04901e-10	5.149746e-10
	2.146568e-10	3.441669e-10	-0.08461365	0.05723468	-3.430385e-11	2.909943e-10	0.007480263	-0.004624246
	0.006997628	-0.005173824	-3.430385e-11	2.909943e-10	-0.08631753	0.05557254	2.548053e-10	4.167464e-10
	3.04901e-10	5.149746e-10	0.007480264	-0.004624246	2.548053e-10	4.167464e-10	-0.08440684	0.05763549
2.9e+08	-0.07645257	0.05849605	2.373967e-10	3.257935e-10	0.005744903	-0.004781098	3.297524e-10	4.957182e-10
	2.373967e-10	3.257935e-10	-0.07499819	0.05988258	-1.60938e-11	2.995222e-10	0.006250763	-0.004289187
	0.005744903	-0.004781098	-1.60938e-11	2.995222e-10	-0.07676005	0.05843059	2.852947e-10	3.917202e-10
	3.297524e-10	4.957182e-10	0.006250763	-0.004289187	2.852947e-10	3.917202e-10	-0.07477805	0.06027192
3e+08	-0.06662485	0.05969094	2.562057e-10	3.035621e-10	0.004558833	-0.004177134	3.495568e-10	4.726627e-10
	2.562057e-10	3.035621e-10	-0.0651409	0.06091056	2.253787e-12	3.051663e-10	0.005075391	-0.003747623
	0.004558833	-0.004177134	2.253787e-12	3.051663e-10	-0.06691968	0.05968091	3.105699e-10	3.615318e-10
	3.495568e-10	4.726627e-10	0.005075391	-0.003747623	3.105699e-10	3.615318e-10	-0.06491129	0.06128594
3.1e+08	-0.05678146	0.05925858	2.703945e-10	2.781009e-10	0.003474731	-0.003374582	3.636267e-10	4.466717e-10
	2.703945e-10	2.781009e-10	-0.05530642	0.06030202	2.016234e-11	3.079353e-10	0.003988484	-0.003010038
	0.003474731	-0.003374582	2.016234e-11	3.079353e-10	-0.05705826	0.05930004	3.296675e-10	3.270514e-10
	3.636267e-10	4.466717e-10	0.003988484	-0.003010038	3.296675e-10	3.270514e-10	-0.05507169	0.06066161
3.2e+08	-0.0471847	0.0572181	2.793755e-10	2.501493e-10	0.002525799	-0.002392086	3.714266e-10	4.187319e-10
	2.793755e-10	2.501493e-10	-0.04575925	0.05808301	3.706539e-11	3.079478e-10	0.003022643	-0.002092719
	0.002525799	-0.002392086	3.706539e-11	3.079478e-10	-0.04743873	0.05730653	3.417792e-10	2.893332e-10
	3.714266e-10	4.187319e-10	0.003022643	-0.002092719	3.417792e-10	2.893332e-10	-0.04552415	0.05842573
3.3e+08	-0.03809112	0.05363062	2.825902e-10	2.206308e-10	0.001742062	-0.001254007	3.725958e-10	3.899247e-10
	2.825902e-10	2.206308e-10	-0.03675696	0.05432197	5.244641e-11	3.054442e-10	0.002207703	-0.001017549
	0.001742063	-0.001254007	5.244641e-11	3.054442e-10	-0.03831835	0.05376102	3.462904e-10	2.495867e-10
	3.725958e-10	3.899247e-10	0.002207703	-0.001017549	3.462904e-10	2.495867e-10	-0.03652648	0.0546476
3.4e+08	-0.02974473	0.04859811	2.797184e-10	1.905457e-10	0.001149304	1.00604e-05	3.669605e-10	3.613956e-10
	2.797184e-10	1.905457e-10	-0.02854325	0.04912849	6.585281e-11	3.00752e-10	0.001569691	0.000188413
	0.001149304	1.00604e-05	6.585281e-11	3.00752e-10	-0.02994191	0.04876509	3.428501e-10	2.090684e-10
	3.669605e-10	3.613956e-10	0.001569691	0.000188413	3.428501e-10	2.090684e-10	-0.02832245	0.04943772
3.5e+08	-0.02237042	0.04226113	2.706243e-10	1.609585e-10	0.0007680641	0.001365999	3.545499e-10	3.343177e-10
	2.706243e-10	1.609585e-10	-0.02134129	0.04265071	7.690955e-11	2.943093e-10	0.001129838	0.001493561
	0.0007680641	0.001365999	7.690955e-11	2.943093e-10	-0.02253514	0.04245898	3.31265e-10	1.691736e-10
	3.545499e-10	3.343177e-10	0.001129838	0.001493561	3.31265e-10	1.691736e-10	-0.02113521	0.0429451
3.6e+08	-0.01616766	0.03479538	2.553686e-10	1.329592e-10	0.0006127532	0.002776103	3.355956e-10	3.098574e-10
	2.553686e-10	1.329592e-10	-0.01534746	0.03507175	8.536497e-11	2.866389e-10	0.0009036921	0.002862598
	0.0006127532	0.002776103	8.536497e-11	2.866389e-10	-0.0162984	0.03501824	3.11599e-10	1.313713e-10
	3.355956e-10	3.098574e-10	0.0009036921	0.002862598	3.11599e-10	1.313713e-10	-0.01516091	0.03535375
3.7e+08	-0.01130479	0.02640728	2.342117e-10	1.076245e-10	0.0006909418	0.004200212	3.105282e-10	2.891394e-10
	2.342117e-10	1.076245e-10	-0.01072564	0.02660487	9.109006e-11	2.782719e-10	0.0009003932	0.004257594
	0.0006909418	0.004200212	9.109006e-11	2.782719e-10	-0.01140095	0.02664923	2.842132e-10	9.706757e-11
	3.105282e-10	2.891394e-10	0.0009003933	0.004257594	2.842132e-10	9.706757e-11	-0.01056309	0.02687784
3.8e+08	-0.007914203	0.01732842	2.076091e-10	8.597862e-11	0.001002874	0.005597013	2.799697e-10	2.732129e-10
	2.076091e-10	8.597862e-11	-0.007602491	0.01748781	9.407284e-11	2.697339e-10	0.001122157	0.005639209
	0.001002874	0.005597013	9.407284e-11	2.697339e-10	-0.007976064	0.01758369	2.497221e-10	6.759315e-11
	2.799697e-10	2.732129e-10	0.001122157	0.005639209	2.497221e-10	6.759315e-11	-0.007467859	0.0177559
3.9e+08	-0.006088354	0.007809298	1.76199e-10	6.895612e-11	0.001541254	0.006925452	2.447189e-10	2.630187e-10
	1.76199e-10	6.895612e-11	-0.006063588	0.007976177	9.440757e-11	2.615168e-10	0.001564022	0.00696803
	0.001541254	0.006925452	9.440757e-11	2.615168e-10	-0.006117082	0.008072349	2.089752e-10	4.415494e-11
	2.447189e-10	2.630187e-10	0.001564022	0.00696803	2.089752e-10	4.415494e-11	-0.005960136	0.008244279
4e+08	-0.005877072	-0.001887726	1.407811e-10	5.7368e-11	0.002291336	0.0081462	2.057315e-10	2.593601e-10
	1.407811e-10	5.7368e-11	-0.006150915	-0.001663739	9.227701e-11	2.540567e-10	0.002213877	0.008205974
	0.002291336	0.0081462	9.227701e-11	2.540567e-10	-0.005874641	-0.001622027	1.630275e-10	2.779368e-11
	2.057315e-10	2.593601e-10	0.002213877	0.008205974	1.630275e-10	2.779368e-11	-0.00608109	-0.001390101
4.1e+08	-0.007286061	-0.0114958	1.022897e-10	5.187326e-11	0.003231324	0.009223088	1.640959e-10	2.628771e-10
	1.022897e-10	5.187326e-11	-0.007861591	-0.01116255	8.792994e-11	2.477184e-10	0.003052799	0.009317664
	0.003231324	0.009223088	8.792994e-11	2.477184e-10	-0.00725518	-0.01123206	1.131035e-10	1.934852e-11
	1.640959e-10	2.628771e-10	0.003052799	0.009317664	1.131035e-10	1.934852e-11	-0.007826916	-0.01087736
4.2e+08	-0.0102768	-0.02075115	6.176095e-11	5.295767e-11	0.004333076	0.01012445	1.210043e-10	2.740253e-10
	6.176095e-11	5.295767e-11	-0.01114801	-0.02025548	8.165641e-11	2.42788e-10	0.004055678	0.01027172
	0.004333076	0.01012445	8.165641e-11	2.42788e-10	-0.0102208	-0.02049335	6.055413e-11	1.943121e-11
	1.210043e-10	2.740253e-10	0.004055678	0.01027172	6.055413e-11	1.943121e-11	-0.01114899	-0.0199524
4.3e+08	-0.01476776	-0.02940058	2.029808e-11	6.092004e-11	0.005563086	0.01082426	7.772132e-11	2.930595e-10
	2.029808e-11	6.092004e-11	-0.01591937	-0.02868993	7.37634e-11	2.394735e-10	0.005192106	0.0110419
	0.005563086	0.01082426	7.37634e-11	2.394735e-10	-0.01469049	-0.02915196	6.810978e-12	2.841013e-11
	7.772132e-11	2.930595e-10	0.005192106	0.0110419	6.810978e-12	2.841013e-11	-0.01595542	-0.02836245
4.4e+08	-0.020637	-0.03720856	-2.096493e-11	7.586655e-11	0.006883689	0.01130312	3.554945e-11	3.200235e-10
	-2.096493e-11	7.586655e-11	-0.0220445	-0.03623262	6.455335e-11	2.37913e-10	0.006427495	0.01160801
	0.006883689	0.01130312	6.455335e-11	2.37913e-10	-0.02054265	-0.03697159	-4.666014e-11	4.640453e-11
	3.554945e-11	3.200235e-10	0.006427495	0.01160801	-4.666014e-11	4.640453e-11	-0.02211393	-0.03587428
4.5e+08	-0.0277259	-0.04396374	-6.089844e-11	9.771222e-11	0.00825443	0.01154882	-4.206253e-12	3.547445e-10
	-6.089844e-11	9.771222e-11	-0.02935597	-0.0426761	5.430782e-11	2.381885e-10	0.007724344	0.01195653
	0.00825443	0.01154882	5.430782e-11	2.381885e-10	-0.0276189	-0.04374004	-9.840418e-11	7.328788e-11
	-4.206253e-12	3.547445e-10	0.007724344	0.01195653	-9.840418e-11	7.328788e-11	-0.02945595	-0.04228064
4.6e+08	-0.03584402	-0.04948459	-9.84098e-11	1.261892e-10	0.009633523	0.01155677	-4.027447e-11	3.968346e-10
	-9.84098e-11	1.261892e-10	-0.03765517	-0.04784426	4.327764e-11	2.403432e-10	0.0090436	0.01208101
	0.009633523	0.01155677	4.327764e-11	2.403432e-10	-0.03572884	-0.04927497	-1.470182e-10	1.086996e-10
	-4.027447e-11	3.968346e-10	0.0090436	0.01208101	-1.470182e-10	1.086996e-10	-0.03778181	-0.04740587
4.7e+08	-0.04477476	-0.05362409	-1.324717e-10	1.608604e-10	0.01097932	0.01132994	-7.145301e-11	4.456978e-10
	-1.324717e-10	1.608604e-10	-0.04671832	-0.05159698	3.168086e-11	2.444011e-10	0.01034604	0.01198213
	0.01097932	0.01132994	3.168086e-11	2.444011e-10	-0.0446558	-0.05342853	-1.911873e-10	1.520638e-10
	-7.145301e-11	4.456978e-10	0.01034604	0.01198213	-1.911873e-10	1.520638e-10	-0.04686667	-0.05111044
4.8e+08	-0.0542817	-0.0562733	-1.62147e-10	2.011371e-10	0.01225174	0.01087868	-9.664343e-11	5.005426e-10
	-1.62147e-10	2.011371e-10	-0.05630299	-0.05383339	1.970762e-11	2.50384e-10	0.01159359	0.01166743
