!$
! Info: Touchstone file created by Circ.  Input file=Tx_8in_Rx_85ohms_TxVia_35mils_RxVia_45mils.circ
!$
# Hz S RI R 50
0	0.006529532	1.071385e-25	-4.346975e-05	3.801164e-24	6.256384e-05	1.215073e-23	-4.34504e-05	1.459886e-24
	-4.346977e-05	3.803408e-24	0.006527861	1.299744e-25	-4.348131e-05	5.339211e-24	6.242382e-05	1.472197e-23
	6.237781e-05	1.209972e-23	-4.348129e-05	5.33731e-24	0.00654032	1.071301e-25	-4.346726e-05	3.650751e-24
	-4.345042e-05	1.461646e-24	6.057642e-05	1.479457e-23	-4.346727e-05	3.652169e-24	0.006541023	1.217705e-25
1e+07	0.008527844	-0.007325361	-9.125637e-05	-2.109629e-05	0.0002518545	0.001557638	-6.66383e-06	-1.762378e-06
	-9.125637e-05	-2.109629e-05	0.008545308	-0.007329803	-3.111079e-05	6.422215e-05	0.0002491191	0.001561281
	0.0002518492	0.001557639	-3.111079e-05	6.422215e-05	0.008570638	-0.007307191	-9.125794e-05	-2.110613e-05
	-6.663826e-06	-1.762378e-06	0.000249059	0.001561291	-9.125794e-05	-2.110613e-05	0.008533885	-0.007317566
2e+07	0.008851702	-0.01681049	-8.418549e-05	1.283702e-05	0.0006791643	0.003016223	-5.415522e-06	-1.328428e-05
	-8.418549e-05	1.283702e-05	0.008835703	-0.01682402	-3.824332e-05	8.605563e-05	0.0006687039	0.003025162
	0.0006791658	0.003016227	-3.824332e-05	8.605563e-05	0.008892524	-0.01678522	-8.418262e-05	1.279125e-05
	-5.415521e-06	-1.328429e-05	0.000668696	0.003025196	-8.418262e-05	1.279125e-05	0.00883038	-0.01679177
3e+07	0.006779269	-0.02702821	-8.255791e-05	9.307094e-06	0.001334946	0.004363396	-1.473933e-05	-1.557937e-05
	-8.255791e-05	9.307094e-06	0.006714978	-0.02703485	-3.370276e-05	0.0001048698	0.001312413	0.004380452
	0.001334949	0.004363396	-3.370276e-05	0.0001048698	0.006821262	-0.02699047	-8.255402e-05	9.232438e-06
	-1.473933e-05	-1.557937e-05	0.001312413	0.004380457	-8.255402e-05	9.232437e-06	0.006713372	-0.02698926
4e+07	0.002685153	-0.03696068	-8.169289e-05	9.272541e-06	0.002198113	0.005565262	-2.245955e-05	-1.434063e-05
	-8.169289e-05	9.272541e-06	0.002559604	-0.03694601	-2.137947e-05	0.0001173783	0.002159969	0.005594319
	0.002198113	0.005565261	-2.137947e-05	0.0001173783	0.002730516	-0.03691044	-8.168987e-05	9.161717e-06
	-2.245955e-05	-1.434063e-05	0.002159964	0.005594317	-8.168987e-05	9.161716e-06	0.002559931	-0.03688867
5e+07	-0.003190859	-0.04616287	-8.125979e-05	1.090617e-05	0.003238904	0.006589603	-2.88622e-05	-1.102366e-05
	-8.125979e-05	1.090617e-05	-0.003387659	-0.04610976	-4.043107e-06	0.0001223385	0.003182657	0.006635422
	0.003238904	0.006589603	-4.043107e-06	0.0001223385	-0.003140612	-0.04610108	-8.126306e-05	1.075129e-05
	-2.88622e-05	-1.102366e-05	0.003182653	0.006635421	-8.126306e-05	1.075129e-05	-0.00338706	-0.0460411
6e+07	-0.01061594	-0.05431082	-8.099902e-05	1.364126e-05	0.00442197	0.007410044	-3.402124e-05	-6.201593e-06
	-8.099902e-05	1.364126e-05	-0.01088988	-0.0542	1.562963e-05	0.0001188648	0.004346329	0.007477991
	0.004421971	0.007410044	1.562963e-05	0.0001188648	-0.01055984	-0.05423876	-8.10178e-05	1.343507e-05
	-3.402124e-05	-6.201593e-06	0.004346332	0.00747799	-8.10178e-05	1.343507e-05	-0.01089048	-0.05411975
7e+07	-0.01934087	-0.06115094	-8.069135e-05	1.721642e-05	0.005708114	0.008007113	-3.790765e-05	-1.702049e-07
	-8.069135e-05	1.721642e-05	-0.01969345	-0.060962	3.487755e-05	0.0001065074	0.005613089	0.008102893
	0.005708116	0.008007113	3.487755e-05	0.0001065074	-0.01927842	-0.06107003	-8.07385e-05	1.69536e-05
	-3.790765e-05	-1.702048e-07	0.005613096	0.008102889	-8.07385e-05	1.69536e-05	-0.01969645	-0.06086941
8e+07	-0.02909698	-0.06648738	-8.014992e-05	2.145839e-05	0.007055795	0.008368847	-4.04082e-05	6.907475e-06
	-8.014992e-05	2.145839e-05	-0.02952521	-0.06619965	5.081869e-05	8.525915e-05	0.006942734	0.008498233
	0.007055797	0.008368846	5.081869e-05	8.525915e-05	-0.02902808	-0.06639899	-8.024142e-05	2.113679e-05
	-4.04082e-05	6.907475e-06	0.006942744	0.008498227	-8.024142e-05	2.113679e-05	-0.02953154	-0.06609356
9e+07	-0.0395996	-0.07017858	-7.92227e-05	2.621596e-05	0.008422737	0.008491204	-4.127409e-05	1.499655e-05
	-7.92227e-05	2.621596e-05	-0.04009604	-0.06977187	6.028689e-05	5.535599e-05	0.008294348	0.008659766
	0.008422739	0.008491204	6.028689e-05	5.535599e-05	-0.03952447	-0.07008392	-7.93768e-05	2.583755e-05
	-4.127409e-05	1.499655e-05	0.008294354	0.008659759	-7.93768e-05	2.583755e-05	-0.04010627	-0.06965085
1e+08	-0.05055598	-0.07213797	-7.781666e-05	3.133974e-05	0.009768924	0.008379513	-3.946449e-05	2.475346e-05
	-7.781666e-05	3.133974e-05	-0.05110863	-0.07159327	5.753754e-05	1.485338e-05	0.009629232	0.008592329
	0.009768924	0.008379513	5.753754e-05	1.485338e-05	-0.05047489	-0.07203786	-7.805306e-05	3.091072e-05
	-3.946449e-05	2.475346e-05	0.009629232	0.008592329	-7.805306e-05	3.091072e-05	-0.05112313	-0.07145585
1.1e+08	-0.06167121	-0.07232213	-7.585588e-05	3.656571e-05	0.01105831	0.00803293	-3.316518e-05	3.074355e-05
	-7.585588e-05	3.656571e-05	-0.06226213	-0.07162366	5.802416e-05	-4.071934e-05	0.01091278	0.008294017
	0.01105831	0.008032931	5.802416e-05	-4.071934e-05	-0.06158327	-0.07221888	-7.61922e-05	3.609828e-05
	-3.316518e-05	3.074355e-05	0.01091278	0.008294017	-7.61922e-05	3.609828e-05	-0.06227993	-0.07146767
1.2e+08	-0.07263862	-0.07073576	-7.321285e-05	4.186611e-05	0.01224168	0.007472178	-2.780612e-05	3.467524e-05
	-7.321285e-05	4.186611e-05	-0.07324896	-0.06987131	5.253125e-05	-9.266681e-05	0.0120964	0.007784817
	0.01224168	0.007472178	5.253125e-05	-9.266681e-05	-0.07254594	-0.07063062	-7.366495e-05	4.137941e-05
	-2.780612e-05	3.467524e-05	0.0120964	0.007784817	-7.366495e-05	4.137941e-05	-0.07326927	-0.06969493
1.3e+08	-0.08317475	-0.0674431	-6.990377e-05	4.708189e-05	0.01328803	0.006723062	-2.335132e-05	3.71359e-05
	-6.990377e-05	4.708189e-05	-0.08378244	-0.06640372	3.731852e-05	-0.0001427322	0.01314999	0.007089322
	0.01328803	0.006723062	3.731852e-05	-0.0001427322	-0.08307907	-0.06733647	-7.048394e-05	4.659947e-05
	-2.335132e-05	3.71359e-05	0.01314999	0.007089322	-7.048394e-05	4.659947e-05	-0.08380397	-0.06620521
1.4e+08	-0.09301271	-0.06254994	-6.595027e-05	5.208312e-05	0.0141698	0.005813983	-2.165765e-05	3.751229e-05
	-6.595027e-05	5.208312e-05	-0.09359333	-0.06133093	1.176694e-05	-0.0001894565	0.01404662	0.006234525
	0.0141698	0.005813983	1.176694e-05	-0.0001894565	-0.09291549	-0.06244174	-6.666534e-05	5.163205e-05
	-2.165765e-05	3.751229e-05	0.01404662	0.006234525	-6.666534e-05	5.163205e-05	-0.09361418	-0.06110879
1.5e+08	-0.1019097	-0.05620137	-6.140575e-05	5.671121e-05	0.01486473	0.0047767	-1.976174e-05	3.80087e-05
	-6.140575e-05	5.671121e-05	-0.1024374	-0.05480285	-2.387936e-05	-0.0002309067	0.01476434	0.005250641
	0.01486473	0.0047767	-2.387936e-05	-0.0002309067	-0.1018122	-0.05609125	-6.2257e-05	5.632075e-05
	-1.976174e-05	3.80087e-05	0.01476434	0.005250641	-6.2257e-05	5.632075e-05	-0.1024551	-0.05455599
1.6e+08	-0.1096524	-0.048577	-5.634849e-05	6.085652e-05	0.01535629	0.003645477	-1.769775e-05	3.854045e-05
	-5.634849e-05	6.085652e-05	-0.1101008	-0.04700424	-6.87451e-05	-0.0002651067	0.01528665	0.00417031
	0.01535629	0.003645477	-6.87451e-05	-0.0002651067	-0.1095555	-0.04846442	-5.733046e-05	6.055703e-05
	-1.769775e-05	3.854045e-05	0.01528665	0.00417031	-5.733046e-05	6.055703e-05	-0.1101125	-0.04673219
1.7e+08	-0.1160608	-0.03988544	-5.087484e-05	6.443318e-05	0.01563387	0.002456127	-1.549101e-05	3.904815e-05
	-5.087484e-05	6.443318e-05	-0.1164041	-0.03814899	-0.0001214355	-0.000290247	0.01560261	0.003027713
	0.01563387	0.002456127	-0.0001214355	-0.000290247	-0.1159652	-0.03976979	-5.197499e-05	6.425442e-05
	-1.549101e-05	3.904815e-05	0.01560261	0.003027713	-5.197499e-05	6.425442e-05	-0.1164069	-0.03785194
1.8e+08	-0.1209916	-0.0303585	-4.509327e-05	6.738085e-05	0.01569278	0.001245085	-1.316377e-05	3.948755e-05
	-4.509327e-05	6.738085e-05	-0.1212058	-0.02847408	-0.0001801326	-0.0003048235	0.0157069	0.001857705
	0.01569278	0.001245085	-0.0001801326	-0.0003048235	-0.1208979	-0.03023908	-4.629212e-05	6.735021e-05
	-1.316377e-05	3.948755e-05	0.0157069	0.001857705	-4.629212e-05	6.735021e-05	-0.1211966	-0.02815294
1.9e+08	-0.124341	-0.0202451	-3.911852e-05	6.966529e-05	0.01553412	4.853609e-05	-1.073759e-05	3.982488e-05
	-3.911852e-05	6.966529e-05	-0.1244045	-0.01823331	-0.0002426978	-0.0003077339	0.01559965	0.0006950066
	0.01553412	4.853612e-05	-0.0002426978	-0.0003077339	-0.1242496	-0.02012122	-4.039026e-05	6.980609e-05
	-1.073759e-05	3.982488e-05	0.01559965	0.0006950066	-4.039026e-05	6.980609e-05	-0.1243804	-0.01788969
2e+08	-0.1260454	-0.009805159	-3.306602e-05	7.127774e-05	0.01516452	-0.001098374	-8.234093e-06	4.003429e-05
	-3.306602e-05	7.127774e-05	-0.1259404	-0.007690982	-0.0003067822	-0.0002983429	0.01528622	-0.0004265238
	0.01516452	-0.001098374	-0.0003067822	-0.0002983429	-0.1259565	-0.009676084	-3.437946e-05	7.160768e-05
	-8.234093e-06	4.003429e-05	0.01528622	-0.0004265238	-3.437946e-05	7.160768e-05	-0.1258988	-0.007327104
2.1e+08	-0.1260828	0.0006966528	-2.704685e-05	7.223344e-05	0.01459585	-0.002162268	-5.675127e-06	4.009646e-05
	-2.704685e-05	7.223344e-05	-0.1257959	0.002884522	-0.0003699412	-0.0002765168	0.01477699	-0.001474562
	0.01459585	-0.002162268	-0.0003699412	-0.0002765168	-0.1259966	0.0008316521	-2.836688e-05	7.276332e-05
	-5.675127e-06	4.009646e-05	0.01477699	-0.001474562	-2.836688e-05	7.276332e-05	-0.1257346	0.003265852
2.2e+08	-0.1244723	0.01099702	-2.116335e-05	7.256938e-05	0.01384485	-0.003112189	-3.08251e-06	3.999757e-05
	-2.116335e-05	7.256938e-05	-0.1239953	0.01322697	-0.0004297502	-0.0002426326	0.01408696	-0.002418927
	0.01384485	-0.003112189	-0.0004297502	-0.0002426326	-0.1243888	0.01113866	-2.245257e-05	7.330222e-05
	-3.08251e-06	3.999757e-05	0.01408696	-0.002418927	-2.245257e-05	7.330222e-05	-0.1239126	0.01362248
2.3e+08	-0.1212732	0.02083996	-1.550524e-05	7.234151e-05	0.01293274	-0.003920212	-4.776633e-07	3.972848e-05
	-1.550524e-05	7.234151e-05	-0.1206035	0.02307841	-0.0004839169	-0.0001975606	0.01323547	-0.003232148
	0.01293274	-0.003920212	-0.0004839169	-0.0001975606	-0.1211923	0.02098896	-1.672591e-05	7.327205e-05
	-4.776633e-07	3.972848e-05	0.01323547	-0.003232148	-1.672591e-05	7.327205e-05	-0.1204985	0.02348447
2.4e+08	-0.1165835	0.02998265	-1.01463e-05	7.162156e-05	0.01188475	-0.004562003	2.118498e-06	3.92842e-05
	-1.01463e-05	7.162156e-05	-0.1157246	0.03219507	-0.0005303849	-0.0001426206	0.01224577	-0.003889998
	0.01188475	-0.004562003	-0.0005303849	-0.0001426206	-0.1165048	0.03013966	-1.126233e-05	7.273625e-05
	2.118498e-06	3.92842e-05	0.01224577	-0.003889998	-1.126233e-05	7.273625e-05	-0.115597	0.03260782
2.5e+08	-0.110537	0.03820089	-5.141774e-06	7.049313e-05	0.01072961	-0.005017345	4.68611e-06	3.866313e-05
	-5.141774e-06	7.049313e-05	-0.109499	0.0403529	-0.000567426	-7.952253e-05	0.01114456	-0.004371998
	0.01072961	-0.005017345	-0.000567426	-7.952253e-05	-0.1104603	0.03836653	-6.120713e-06	7.177068e-05
	4.68611e-06	3.866313e-05	0.01114456	-0.004371998	-6.120713e-06	7.177068e-05	-0.1093491	0.04076837
2.6e+08	-0.1033007	0.04529424	-5.262505e-07	6.904764e-05	0.009499003	-0.005270625	7.206429e-06	3.786661e-05
	-5.262505e-07	6.904764e-05	-0.1020998	0.0473528	-0.0005937151	-1.028252e-05	0.009961539	-0.0046619
	0.009499003	-0.005270625	-0.0005937151	-1.028252e-05	-0.1032255	0.04546906	-1.341133e-06	7.045997e-05
	7.206429e-06	3.786661e-05	0.009961539	-0.0046619	-1.341133e-06	7.045997e-05	-0.1019288	0.04776705
2.7e+08	-0.09507062	0.05109076	3.687543e-06	6.737958e-05	0.008226933	-0.005311284	9.662057e-06	3.68983e-05
	3.687543e-06	6.737958e-05	-0.09372922	0.05302528	-0.0006083883	6.286867e-05	0.008728818	-0.004748139
	0.008226933	-0.005311284	-0.0006083883	6.286867e-05	-0.0949962	0.0512752	3.056625e-06	6.889332e-05
	9.662057e-06	3.68983e-05	0.008728818	-0.004748139	3.056625e-06	6.889332e-05	-0.09353902	0.05343455
2.8e+08	-0.08606714	0.05545115	7.509257e-06	6.558177e-05	0.006948988	-0.005134207	1.203691e-05	3.576389e-05
	7.509257e-06	6.558177e-05	-0.08461365	0.05723468	-0.0006110743	0.0001375973	0.007480263	-0.004624246
	0.006948988	-0.005134207	-0.0006110743	0.0001375973	-0.08599296	0.05564556	7.073959e-06	6.716008e-05
	1.203691e-05	3.576389e-05	0.007480264	-0.004624246	7.073959e-06	6.716008e-05	-0.08440684	0.05763549
2.9e+08	-0.07653024	0.0582723	1.097023e-05	6.373996e-05	0.005701549	-0.00474004	1.431626e-05	3.447065e-05
	1.097023e-05	6.373996e-05	-0.07499819	0.05988258	-0.0006019054	0.0002115753	0.006250763	-0.004289187
	0.005701549	-0.00474004	-0.0006019054	0.0002115753	-0.07645556	0.0584769	1.073325e-05	6.534466e-05
	1.431626e-05	3.447065e-05	0.006250763	-0.004289187	1.073325e-05	6.534466e-05	-0.07477805	0.06027192
3e+08	-0.06671353	0.05949008	1.412164e-05	6.192775e-05	0.004520893	-0.004135403	1.648668e-05	3.302711e-05
	1.412164e-05	6.192775e-05	-0.0651409	0.06091056	-0.0005815083	0.0002825861	0.005075391	-0.003747623
	0.004520893	-0.004135403	-0.0005815083	0.0002825861	-0.06663758	0.05970495	1.407654e-05	6.352163e-05
	1.648668e-05	3.302711e-05	0.005075391	-0.003747623	1.407654e-05	6.352163e-05	-0.06491129	0.06128594
3.1e+08	-0.05687818	0.05908134	1.700627e-05	6.01607e-05	0.00344222	-0.003332974	1.853621e-05	3.144376e-05
	1.700627e-05	6.01607e-05	-0.05530642	0.06030202	-0.0005474783	0.0003511904	0.003988484	-0.003010038
	0.00344222	-0.003332974	-0.0005474783	0.0003511904	-0.05680017	0.05930642	1.713902e-05	6.1709e-05
	1.853621e-05	3.144376e-05	0.003988484	-0.003010038	1.713902e-05	6.1709e-05	-0.05507169	0.06066161
3.2e+08	-0.04728638	0.05706486	1.966292e-05	5.844683e-05	0.002498613	-0.002351401	2.045457e-05	2.973182e-05
	1.966292e-05	5.844683e-05	-0.04575925	0.05808301	-0.0004970318	0.0004169867	0.003022643	-0.002092719
	0.002498613	-0.002351401	-0.0004970318	0.0004169867	-0.04720553	0.05729995	1.995239e-05	5.991881e-05
	2.045457e-05	2.973182e-05	0.003022643	-0.002092719	1.995239e-05	5.991881e-05	-0.04552415	0.05842573
3.3e+08	-0.03819465	0.05350138	2.222498e-05	5.688953e-05	0.00171997	-0.001215034	2.223173e-05	2.790084e-05
	2.222498e-05	5.688953e-05	-0.03675696	0.05432197	-0.0004387715	0.0004728404	0.002207703	-0.001017549
	0.00171997	-0.001215034	-0.0004387715	0.0004728404	-0.03811021	0.05374609	2.264142e-05	5.826345e-05
	2.223173e-05	2.790084e-05	0.002207703	-0.001017549	2.264142e-05	5.826345e-05	-0.03652648	0.0546476
3.4e+08	-0.02984698	0.04849249	2.47845e-05	5.547599e-05	0.00113195	4.656763e-05	2.38585e-05	2.596269e-05
	2.47845e-05	5.547599e-05	-0.02854325	0.04912849	-0.0003749211	0.0005178675	0.001569691	0.000188413
	0.00113195	4.656764e-05	-0.0003749211	0.0005178675	-0.02975831	0.04874624	2.529397e-05	5.673911e-05
	2.38585e-05	2.596269e-05	0.001569691	0.000188413	2.529397e-05	5.673911e-05	-0.02832245	0.04943772
3.5e+08	-0.02246833	0.04217832	2.742659e-05	5.416643e-05	0.0007549735	0.001399345	2.532758e-05	2.393052e-05
	2.742659e-05	5.416643e-05	-0.02134129	0.04265071	-0.0003078	0.0005516997	0.001129838	0.001493561
	0.0007549735	0.001399345	-0.0003078	0.0005516997	-0.0223749	0.04244041	2.79938e-05	5.531614e-05
	2.532758e-05	2.393052e-05	0.001129838	0.001493561	2.79938e-05	5.531614e-05	-0.02113521	0.0429451
3.6e+08	-0.0162583	0.03473417	3.022171e-05	5.289618e-05	0.0006033392	0.002805672	2.663294e-05	2.181804e-05
	3.022171e-05	5.289618e-05	-0.01534746	0.03507175	-0.0002396837	0.000574495	0.0009036921	0.002862598
	0.0006033392	0.002805672	-0.0002396837	0.000574495	-0.0161597	0.03500379	3.081251e-05	5.394e-05
	2.663294e-05	2.181804e-05	0.0009036921	0.002862598	3.081251e-05	5.394e-05	-0.01516091	0.03535375
3.7e+08	-0.01138543	0.02636604	3.32185e-05	5.158007e-05	0.0006845211	0.004225488	2.776987e-05	1.963931e-05
	3.32185e-05	5.158007e-05	-0.01072564	0.02660487	-0.0001726845	0.0005869064	0.0009003932	0.004257594
	0.0006845211	0.004225488	-0.0001726845	0.0005869064	-0.01128145	0.02664231	3.380269e-05	5.253521e-05
	2.776987e-05	1.963931e-05	0.0009003933	0.004257594	3.380269e-05	5.253521e-05	-0.01056309	0.02687784
3.8e+08	-0.007982347	0.01730518	3.643839e-05	5.011914e-05	0.0009986848	0.005617596	2.87352e-05	1.740866e-05
	3.643839e-05	5.011914e-05	-0.007602491	0.01748781	-0.0001086385	0.0005900241	0.001122157	0.005639209
	0.0009986848	0.005617596	-0.0001086385	0.0005900241	-0.007872948	0.01758716	3.699235e-05	5.101124e-05
	2.87352e-05	1.740866e-05	0.001122157	0.005639209	3.699235e-05	5.101124e-05	-0.007467859	0.0177559
3.9e+08	-0.006141824	0.007801749	3.987211e-05	4.840871e-05	0.001538478	0.006941074	2.95273e-05	1.514048e-05
	3.987211e-05	4.840871e-05	-0.006063588	0.007976177	-4.900991e-05	0.0005852892	0.001564022	0.00696803
	0.001538478	0.006941074	-4.900991e-05	0.0005852892	-0.006027187	0.008088476	4.038104e-05	4.926986e-05
	2.95273e-05	1.514048e-05	0.001564022	0.00696803	4.038104e-05	4.926986e-05	-0.005960136	0.008244279
4e+08	-0.005914044	-0.001882176	4.347865e-05	4.634738e-05	0.002289123	0.008156731	3.014606e-05	1.284889e-05
	4.347865e-05	4.634738e-05	-0.006150915	-0.001663739	5.176483e-06	0.0005743879	0.002213877	0.008205974
	0.002289123	0.008156731	5.176483e-06	0.0005743879	-0.005794561	-0.001591618	4.393824e-05	4.721362e-05
	3.014606e-05	1.284889e-05	0.002213877	0.008205974	4.393824e-05	4.721362e-05	-0.00608109	-0.001390101
4.1e+08	-0.007305113	-0.01147996	4.718702e-05	4.384611e-05	0.003228815	0.009228542	3.059276e-05	1.054757e-05
	4.718702e-05	4.384611e-05	-0.007861591	-0.01116255	5.337727e-05	0.0005591308	0.003052799	0.009317664
	0.003228815	0.009228542	5.337727e-05	0.0005591308	-0.007181388	-0.01118641	4.760442e-05	4.47545e-05
	3.059276e-05	1.054757e-05	0.003052799	0.009317664	4.760442e-05	4.47545e-05	-0.007826916	-0.01087736
4.2e+08	-0.01027694	-0.02072801	5.090051e-05	4.08365e-05	0.004329432	0.01012498	3.086986e-05	8.249535e-06
	5.090051e-05	4.08365e-05	-0.01114801	-0.02025548	9.553854e-05	0.0005413266	0.004055678	0.01027172
	0.004329432	0.01012498	9.553854e-05	0.0005413266	-0.01014976	-0.02043215	5.129451e-05	4.182192e-05
	3.086986e-05	8.249535e-06	0.004055678	0.01027172	5.129451e-05	4.182192e-05	-0.01114899	-0.0199524
4.3e+08	-0.01474845	-0.0293732	5.450332e-05	3.727755e-05	0.005557511	0.01082016	3.09808e-05	5.967051e-06
	5.450332e-05	3.727755e-05	-0.01591937	-0.02868993	0.0001320707	0.0005226588	0.005192106	0.0110419
	0.005557511	0.01082016	0.0001320707	0.0005226588	-0.01461879	-0.02907556	5.490372e-05	3.836954e-05
	3.09808e-05	5.967051e-06	0.005192106	0.0110419	5.490372e-05	3.836954e-05	-0.01595542	-0.02836245
4.4e+08	-0.02059818	-0.03718003	5.78689e-05	3.316012e-05	0.00687545	0.01129479	3.092973e-05	3.711595e-06
	5.78689e-05	3.316012e-05	-0.0220445	-0.03623262	0.0001637944	0.0005045734	0.006427495	0.01160801
	0.00687545	0.01129479	0.0001637944	0.0005045734	-0.0204671	-0.03688092	5.831496e-05	3.437994e-05
	3.092973e-05	3.711595e-06	0.006427495	0.01160801	5.831496e-05	3.437994e-05	-0.02211393	-0.03587428
4.5e+08	-0.02766795	-0.04393709	6.086921e-05	2.850884e-05	0.008242881	0.01153678	3.072135e-05	1.493927e-06
	6.086921e-05	2.850884e-05	-0.02935597	-0.0426761	0.0001918592	0.0004881859	0.007724344	0.01195653
	0.008242881	0.01153678	0.0001918592	0.0004881859	-0.02753661	-0.04363657	6.140743e-05	2.986694e-05
	3.072135e-05	1.493927e-06	0.007724344	0.01195653	6.140743e-05	2.986694e-05	-0.02945595	-0.04228064
4.6e+08	-0.03576777	-0.04946274	6.338408e-05	2.338115e-05	0.009618115	0.01154163	3.036077e-05	-6.757949e-07
	6.338408e-05	2.338115e-05	-0.03765517	-0.04784426	0.0002176428	0.0004742124	0.0090436	0.01208101
	0.009618115	0.01154163	0.0002176428	0.0004742124	-0.03563735	-0.04916061	6.40653e-05	2.487529e-05
	3.036077e-05	-6.757949e-07	0.0090436	0.01208101	6.40653e-05	2.487529e-05	-0.03778181	-0.04740587
4.7e+08	-0.04468146	-0.05360976	6.530965e-05	1.786389e-05	0.01095962	0.01131239	2.985344e-05	-2.787884e-06
	6.530965e-05	1.786389e-05	-0.04671832	-0.05159698	0.0002426366	0.0004629299	0.01034604	0.01198213
	0.01095962	0.01131239	0.0002426366	0.0004629299	-0.04455309	-0.05330556	6.618574e-05	1.947801e-05
	2.985344e-05	-2.787884e-06	0.01034604	0.01198213	6.618574e-05	1.947801e-05	-0.04686667	-0.05111044
4.8e+08	-0.05417299	-0.05626896	6.656556e-05	1.20675e-05	0.01222741	0.01085944	2.920525e-05	-4.833017e-06
