!$
! Info: Touchstone file created by Circ.  Input file=Tx_8in_Rx_85ohms_TxVia_35mils_RxVia_45mils.circ
!$
# Hz S RI R 50
0	0.006529532	1.071385e-25	7.447377e-10	1.167126e-27	6.256384e-05	1.215073e-23	3.692475e-10	2.693043e-28
	7.447377e-10	1.167105e-27	0.006527861	1.299744e-25	2.509486e-09	4.393721e-27	6.242382e-05	1.472197e-23
	6.237781e-05	1.209972e-23	2.509486e-09	4.393731e-27	0.00654032	1.071301e-25	7.470441e-10	1.248982e-27
	3.692474e-10	2.692981e-28	6.057642e-05	1.479457e-23	7.470446e-10	1.248998e-27	0.006541023	1.217705e-25
1e+07	0.008527844	-0.007325361	9.5857e-10	1.388084e-09	0.0002518545	0.001557638	6.224144e-10	6.899239e-10
	9.5857e-10	1.388084e-09	0.008545308	-0.007329803	3.509577e-09	6.955654e-09	0.0002491191	0.001561281
	0.0002518492	0.001557639	3.509577e-09	6.955654e-09	0.008570638	-0.007307191	9.527961e-10	1.410888e-09
	6.224143e-10	6.899239e-10	0.000249059	0.001561291	9.52796e-10	1.410888e-09	0.008533885	-0.007317566
2e+07	0.008851702	-0.01681049	1.302796e-09	2.404663e-09	0.0006791643	0.003016223	9.524737e-10	1.112984e-09
	1.302796e-09	2.404663e-09	0.008835703	-0.01682402	4.375405e-09	1.231374e-08	0.0006687039	0.003025162
	0.0006791658	0.003016227	4.375405e-09	1.231374e-08	0.008892524	-0.01678522	1.264274e-09	2.451023e-09
	9.524736e-10	1.112984e-09	0.000668696	0.003025196	1.264274e-09	2.451023e-09	0.00883038	-0.01679177
3e+07	0.006779269	-0.02702821	1.614544e-09	3.330418e-09	0.001334946	0.004363396	1.328256e-09	1.424934e-09
	1.614544e-09	3.330418e-09	0.006714978	-0.02703485	4.749393e-09	1.757866e-08	0.001312413	0.004380452
	0.001334949	0.004363396	4.749393e-09	1.757866e-08	0.006821262	-0.02699047	1.522274e-09	3.414638e-09
	1.328256e-09	1.424934e-09	0.001312413	0.004380457	1.522274e-09	3.414638e-09	0.006713372	-0.02698926
4e+07	0.002685153	-0.03696068	1.934675e-09	4.18119e-09	0.002198113	0.005565262	1.745679e-09	1.625063e-09
	1.934675e-09	4.18119e-09	0.002559604	-0.03694601	4.895587e-09	2.286602e-08	0.002159969	0.005594319
	0.002198113	0.005565261	4.895587e-09	2.286602e-08	0.002730516	-0.03691044	1.773e-09	4.322694e-09
	1.745679e-09	1.625063e-09	0.002159964	0.005594317	1.773e-09	4.322694e-09	0.002559931	-0.03688867
5e+07	-0.003190859	-0.04616287	2.256497e-09	4.954783e-09	0.003238904	0.006589603	2.179764e-09	1.70444e-09
	2.256497e-09	4.954783e-09	-0.003387659	-0.04610976	4.876287e-09	2.821611e-08	0.003182657	0.006635422
	0.003238904	0.006589603	4.876287e-09	2.821611e-08	-0.003140612	-0.04610108	2.015783e-09	5.176132e-09
	2.179764e-09	1.70444e-09	0.003182653	0.006635421	2.015783e-09	5.176132e-09	-0.00338706	-0.0460411
6e+07	-0.01061594	-0.05431082	2.568445e-09	5.653344e-09	0.00442197	0.007410044	2.603103e-09	1.663029e-09
	2.568445e-09	5.653344e-09	-0.01088988	-0.0542	4.734473e-09	3.367605e-08	0.004346329	0.007477991
	0.004421971	0.007410044	4.734473e-09	3.367605e-08	-0.01055984	-0.05423876	2.245091e-09	5.978691e-09
	2.603103e-09	1.663029e-09	0.004346332	0.00747799	2.245091e-09	5.978691e-09	-0.01089048	-0.05411975
7e+07	-0.01934087	-0.06115094	2.85896e-09	6.279231e-09	0.005708114	0.008007113	2.98962e-09	1.505747e-09
	2.85896e-09	6.279231e-09	-0.01969345	-0.060962	4.519821e-09	3.928279e-08	0.005613089	0.008102893
	0.005708116	0.008007112	4.519821e-09	3.928279e-08	-0.01927842	-0.06107003	2.455206e-09	6.73338e-09
	2.98962e-09	1.505747e-09	0.005613096	0.008102889	2.455206e-09	6.733381e-09	-0.01969645	-0.06086941
8e+07	-0.02909698	-0.06648738	3.115342e-09	6.834564e-09	0.007055795	0.008368847	3.314484e-09	1.241658e-09
	3.115342e-09	6.834564e-09	-0.02952521	-0.06619965	4.287139e-09	4.505777e-08	0.006942734	0.008498233
	0.007055797	0.008368846	4.287139e-09	4.505777e-08	-0.02902808	-0.06639899	2.639274e-09	7.442261e-09
	3.314484e-09	1.241658e-09	0.006942744	0.008498227	2.639274e-09	7.442262e-09	-0.02953154	-0.06609356
9e+07	-0.0395996	-0.07017858	3.322841e-09	7.322239e-09	0.008422737	0.008491204	3.554425e-09	8.843077e-10
	3.322841e-09	7.322239e-09	-0.04009604	-0.06977187	4.092923e-09	5.100689e-08	0.008294348	0.008659766
	0.008422739	0.008491204	4.092924e-09	5.100689e-08	-0.03952447	-0.07008392	2.788484e-09	8.107302e-09
	3.554425e-09	8.843076e-10	0.008294354	0.008659759	2.788484e-09	8.107303e-09	-0.04010627	-0.06965085
1e+08	-0.05055598	-0.07213797	3.463395e-09	7.74399e-09	0.009768924	0.008379513	3.688506e-09	4.525915e-10
	3.463395e-09	7.74399e-09	-0.05110863	-0.07159327	3.993296e-09	5.711924e-08	0.009629232	0.008592329
	0.009768924	0.008379513	3.993296e-09	5.711924e-08	-0.05047489	-0.07203786	2.890664e-09	8.728151e-09
	3.688506e-09	4.525915e-10	0.009629232	0.008592329	2.890664e-09	8.728151e-09	-0.05112313	-0.07145585
1.1e+08	-0.06167121	-0.07232213	3.54555e-09	8.119771e-09	0.01105831	0.00803293	3.703491e-09	-3.168242e-11
	3.54555e-09	8.119771e-09	-0.06226213	-0.07162366	4.034298e-09	6.339409e-08	0.01091278	0.008294017
	0.01105831	0.008032931	4.034298e-09	6.339409e-08	-0.06158327	-0.07221888	2.961619e-09	9.323732e-09
	3.703491e-09	-3.168242e-11	0.01091278	0.008294017	2.961619e-09	9.323732e-09	-0.06227993	-0.07146767
1.2e+08	-0.07263862	-0.07073576	3.535917e-09	8.471073e-09	0.01224168	0.007472178	3.585127e-09	-5.450748e-10
	3.535917e-09	8.471073e-09	-0.07324896	-0.06987131	4.240378e-09	6.981557e-08	0.0120964	0.007784817
	0.01224168	0.007472178	4.240378e-09	6.981557e-08	-0.07254594	-0.07063062	2.968695e-09	9.90379e-09
	3.585127e-09	-5.450748e-10	0.0120964	0.007784817	2.968695e-09	9.90379e-09	-0.07326927	-0.06969493
1.3e+08	-0.08317475	-0.0674431	3.423852e-09	8.812605e-09	0.01328803	0.006723062	3.326123e-09	-1.060514e-09
	3.423852e-09	8.812605e-09	-0.08378244	-0.06640372	4.654778e-09	7.635073e-08	0.01314999	0.007089322
	0.01328803	0.006723062	4.654778e-09	7.635073e-08	-0.08307907	-0.06733647	2.903493e-09	1.047808e-08
	3.326123e-09	-1.060514e-09	0.01314999	0.007089322	2.903493e-09	1.047808e-08	-0.08380397	-0.06620521
1.4e+08	-0.09301271	-0.06254994	3.204138e-09	9.164041e-09	0.0141698	0.005813983	2.923774e-09	-1.551683e-09
	3.204138e-09	9.164041e-09	-0.09359333	-0.06133093	5.312557e-09	8.295953e-08	0.01404662	0.006234525
	0.0141698	0.005813983	5.312557e-09	8.295953e-08	-0.09291549	-0.06244174	2.76223e-09	1.106086e-08
	2.923774e-09	-1.551683e-09	0.01404662	0.006234525	2.76223e-09	1.106086e-08	-0.09361418	-0.06110879
1.5e+08	-0.1019097	-0.05620137	2.87259e-09	9.555307e-09	0.01486473	0.0047767	2.381481e-09	-1.986987e-09
	2.87259e-09	9.555307e-09	-0.1024374	-0.05480285	6.239742e-09	8.959435e-08	0.01476434	0.005250641
	0.01486473	0.0047767	6.239742e-09	8.959435e-08	-0.1018122	-0.05609125	2.541187e-09	1.167615e-08
	2.381481e-09	-1.986987e-09	0.01476434	0.005250641	2.541187e-09	1.167615e-08	-0.1024551	-0.05455599
1.6e+08	-0.1096524	-0.048577	2.434094e-09	1.001375e-08	0.01535629	0.003645477	1.707896e-09	-2.338625e-09
	2.434094e-09	1.001375e-08	-0.1101008	-0.04700424	7.451716e-09	9.620185e-08	0.01528665	0.00417031
	0.01535629	0.003645477	7.451716e-09	9.620185e-08	-0.1095555	-0.04846442	2.244583e-09	1.234524e-08
	1.707896e-09	-2.338625e-09	0.01528665	0.00417031	2.244583e-09	1.234524e-08	-0.1101125	-0.04673219
1.7e+08	-0.1160608	-0.03988544	1.900259e-09	1.056657e-08	0.01563387	0.002456127	9.167592e-10	-2.580314e-09
	1.900259e-09	1.056657e-08	-0.1164041	-0.03814899	8.952286e-09	1.027252e-07	0.01560261	0.003027713
	0.01563387	0.002456127	8.952286e-09	1.027252e-07	-0.1159652	-0.03976979	1.882196e-09	1.30893e-08
	9.167592e-10	-2.580314e-09	0.01560261	0.003027713	1.882196e-09	1.30893e-08	-0.1164069	-0.03785194
1.8e+08	-0.1209916	-0.0303585	1.289533e-09	1.123897e-08	0.01569278	0.001245085	2.661786e-11	-2.688159e-09
	1.289533e-09	1.123897e-08	-0.1212058	-0.02847408	1.073309e-08	1.091063e-07	0.0157069	0.001857705
	0.01569278	0.001245085	1.073309e-08	1.091063e-07	-0.1208979	-0.03023908	1.469479e-09	1.392777e-08
	2.661786e-11	-2.688159e-09	0.0157069	0.001857705	1.469479e-09	1.392777e-08	-0.1211966	-0.02815294
1.9e+08	-0.124341	-0.0202451	6.267909e-10	1.205235e-08	0.01553412	4.853609e-05	-9.396002e-10	-2.64145e-09
	6.267909e-10	1.205235e-08	-0.1244045	-0.01823331	1.277348e-08	1.152888e-07	0.01559965	0.0006950066
	0.01553412	4.853612e-05	1.277348e-08	1.152888e-07	-0.1242496	-0.02012122	1.027196e-09	1.487675e-08
	-9.396002e-10	-2.64145e-09	0.01559965	0.0006950066	1.027196e-09	1.487675e-08	-0.1243804	-0.01788969
2e+08	-0.1260454	-0.009805159	-5.758411e-11	1.302254e-08	0.01516452	-0.001098374	-1.955118e-09	-2.42339e-09
	-5.758411e-11	1.302254e-08	-0.1259404	-0.007690982	1.504093e-08	1.212201e-07	0.01528622	-0.0004265238
	0.01516452	-0.001098374	1.504093e-08	1.212201e-07	-0.1259565	-0.009676084	5.805871e-10	1.594751e-08
	-1.955118e-09	-2.42339e-09	0.01528622	-0.0004265238	5.805871e-10	1.594751e-08	-0.1258988	-0.007327104
2.1e+08	-0.1260828	0.0006966528	-7.290891e-10	1.415842e-08	0.01459585	-0.002162268	-2.989943e-09	-2.021736e-09
	-7.290891e-10	1.415842e-08	-0.1257959	0.002884522	1.749195e-08	1.26854e-07	0.01477699	-0.001474562
	0.01459585	-0.002162268	1.749195e-08	1.26854e-07	-0.1259966	0.0008316521	1.581184e-10	1.714524e-08
	-2.989943e-09	-2.021736e-09	0.01477699	-0.001474562	1.581184e-10	1.714524e-08	-0.1257346	0.003265852
2.2e+08	-0.1244723	0.01099702	-1.350853e-09	1.546086e-08	0.01384485	-0.003112189	-4.011587e-09	-1.429349e-09
	-1.350853e-09	1.546086e-08	-0.1239953	0.01322697	2.007353e-08	1.32153e-07	0.01408696	-0.002418927
	0.01384485	-0.003112189	2.007353e-08	1.32153e-07	-0.1243888	0.01113866	-2.101178e-10	1.846817e-08
	-4.011587e-09	-1.429349e-09	0.01408696	-0.002418927	-2.101178e-10	1.846817e-08	-0.1239126	0.01362248
2.3e+08	-0.1212732	0.02083996	-1.885647e-09	1.692217e-08	0.01293274	-0.003920212	-4.985871e-09	-6.44659e-10
	-1.885647e-09	1.692217e-08	-0.1206035	0.02307841	2.272498e-08	1.370901e-07	0.01323547	-0.003232148
	0.01293274	-0.003920212	2.272498e-08	1.370901e-07	-0.1211923	0.02098896	-4.942241e-10	1.990717e-08
	-4.985871e-09	-6.44659e-10	0.01323547	-0.003232148	-4.942241e-10	1.990717e-08	-0.1204985	0.02348447
2.4e+08	-0.1165835	0.02998265	-2.298001e-09	1.852607e-08	0.01188475	-0.004562003	-5.877805e-09	3.279832e-10
	-2.298001e-09	1.852607e-08	-0.1157246	0.03219507	2.538019e-08	1.416503e-07	0.01224577	-0.003889998
	0.01188475	-0.004562003	2.538019e-08	1.416503e-07	-0.1165048	0.03013966	-6.664082e-10	2.144582e-08
	-5.877805e-09	3.279832e-10	0.01224577	-0.003889998	-6.664082e-10	2.144582e-08	-0.115597	0.03260782
2.5e+08	-0.110537	0.03820089	-2.556291e-09	2.024825e-08	0.01072961	-0.005017345	-6.652547e-09	1.478061e-09
	-2.556291e-09	2.024825e-08	-0.109499	0.0403529	2.797008e-08	1.458314e-07	0.01114456	-0.004371998
	0.01072961	-0.005017345	2.797008e-08	1.458314e-07	-0.1104603	0.03836653	-7.028427e-10	2.306103e-08
	-6.652547e-09	1.478061e-09	0.01114456	-0.004371998	-7.028427e-10	2.306103e-08	-0.1093491	0.04076837
2.6e+08	-0.1033007	0.04529424	-2.634625e-09	2.205743e-08	0.009499003	-0.005270625	-7.276426e-09	2.788778e-09
	-2.634625e-09	2.205743e-08	-0.1020998	0.0473528	3.042524e-08	1.496444e-07	0.009961539	-0.0046619
	0.009499003	-0.005270625	3.042524e-08	1.496444e-07	-0.1032255	0.04546906	-5.853139e-10	2.472416e-08
	-7.276426e-09	2.788778e-09	0.009961539	-0.0046619	-5.853139e-10	2.472416e-08	-0.1019288	0.04776705
2.7e+08	-0.09507062	0.05109076	-2.514408e-09	2.391692e-08	0.008226933	-0.005311284	-7.718027e-09	4.237102e-09
	-2.514408e-09	2.391692e-08	-0.09372922	0.05302528	3.267856e-08	1.531137e-07	0.008728818	-0.004748139
	0.008226933	-0.005311284	3.267856e-08	1.531137e-07	-0.0949962	0.0512752	-3.025439e-10	2.640254e-08
	-7.718027e-09	4.237102e-09	0.008728818	-0.004748139	-3.025439e-10	2.640254e-08	-0.09353902	0.05343455
2.8e+08	-0.08606714	0.05545115	-2.185434e-09	2.578652e-08	0.006948988	-0.005134207	-7.949325e-09	5.793974e-09
	-2.185434e-09	2.578652e-08	-0.08461365	0.05723468	3.466775e-08	1.562759e-07	0.007480263	-0.004624246
	0.006948988	-0.005134207	3.466775e-08	1.562759e-07	-0.08599296	0.05564556	1.489679e-10	2.806134e-08
	-7.949325e-09	5.793974e-09	0.007480264	-0.004624246	1.489679e-10	2.806134e-08	-0.08440684	0.05763549
2.9e+08	-0.07653024	0.0582723	-1.646456e-09	2.762462e-08	0.005701549	-0.00474004	-7.946834e-09	7.424722e-09
	-1.646456e-09	2.762462e-08	-0.07499819	0.05988258	3.633761e-08	1.59179e-07	0.006250763	-0.004289187
	0.005701549	-0.00474004	3.633761e-08	1.59179e-07	-0.07645556	0.0584769	7.646201e-10	2.966557e-08
	-7.946834e-09	7.424722e-09	0.006250763	-0.004289187	7.646201e-10	2.966557e-08	-0.07477805	0.06027192
3e+08	-0.06671353	0.05949008	-9.05194e-10	2.939039e-08	0.004520893	-0.004135403	-7.692747e-09	9.089703e-09
	-9.05194e-10	2.939039e-08	-0.0651409	0.06091056	3.764203e-08	1.618807e-07	0.005075391	-0.003747623
	0.004520893	-0.004135403	3.764203e-08	1.618807e-07	-0.06663758	0.05970495	1.531931e-09	3.118217e-08
	-7.692747e-09	9.089703e-09	0.005075391	-0.003747623	1.531931e-09	3.118217e-08	-0.06491129	0.06128594
3.1e+08	-0.05687818	0.05908134	3.593703e-11	3.104027e-08	0.00344222	-0.003332974	-7.176345e-09	1.074517e-08
	3.593703e-11	3.104027e-08	-0.05530642	0.06030202	3.854928e-08	1.644454e-07	0.003988484	-0.003010038
	0.00344222	-0.003332974	3.854928e-08	1.644454e-07	-0.05680017	0.05930642	2.445126e-09	3.25762e-08
	-7.176345e-09	1.074517e-08	0.003988484	-0.003010038	2.445126e-09	3.25762e-08	-0.05507169	0.06066161
3.2e+08	-0.04728638	0.05706486	1.164137e-09	3.252573e-08	0.002498613	-0.002351401	-6.394643e-09	1.234468e-08
	1.164137e-09	3.252573e-08	-0.04575925	0.05808301	3.903866e-08	1.669395e-07	0.003022643	-0.002092719
	0.002498613	-0.002351401	3.903866e-08	1.669395e-07	-0.04720553	0.05729995	3.489479e-09	3.380842e-08
	-6.394643e-09	1.234468e-08	0.003022643	-0.002092719	3.489479e-09	3.380842e-08	-0.04552415	0.05842573
3.3e+08	-0.03819465	0.05350138	2.418347e-09	3.382676e-08	0.00171997	-0.001215034	-5.352089e-09	1.38401e-08
	2.418347e-09	3.382676e-08	-0.03675696	0.05432197	3.908969e-08	1.694384e-07	0.002207703	-0.001017549
	0.00171997	-0.001215034	3.908969e-08	1.694384e-07	-0.03811021	0.05374609	4.603376e-09	3.486893e-08
	-5.352089e-09	1.38401e-08	0.002207703	-0.001017549	4.603376e-09	3.486893e-08	-0.03652648	0.0546476
3.4e+08	-0.02984698	0.04849249	3.762037e-09	3.492475e-08	0.00113195	4.656763e-05	-4.062806e-09	1.518318e-08
	3.762037e-09	3.492475e-08	-0.02854325	0.04912849	3.870233e-08	1.720185e-07	0.001569691	0.000188413
	0.00113195	4.656763e-05	3.870233e-08	1.720185e-07	-0.02975831	0.04874624	5.751721e-09	3.574927e-08
	-4.062806e-09	1.518318e-08	0.001569691	0.000188413	5.751721e-09	3.574927e-08	-0.02832245	0.04943772
3.5e+08	-0.02246833	0.04217832	5.15696e-09	3.580911e-08	0.0007549735	0.001399345	-2.550178e-09	1.632742e-08
	5.15696e-09	3.580911e-08	-0.02134129	0.04265071	3.788921e-08	1.74756e-07	0.001129838	0.001493561
	0.0007549735	0.001399345	3.788921e-08	1.74756e-07	-0.0223749	0.04244041	6.899536e-09	3.644889e-08
	-2.550178e-09	1.632742e-08	0.001129838	0.001493561	6.899536e-09	3.644889e-08	-0.02113521	0.0429451
3.6e+08	-0.0162583	0.03473417	6.56511e-09	3.647684e-08	0.0006033392	0.002805672	-8.466956e-10	1.722998e-08
	6.56511e-09	3.647684e-08	-0.01534746	0.03507175	3.667533e-08	1.777246e-07	0.0009036921	0.002862598
	0.0006033392	0.002805672	3.667533e-08	1.777246e-07	-0.0161597	0.03500379	8.013929e-09	3.697439e-08
	-8.466956e-10	1.722998e-08	0.0009036921	0.002862598	8.013929e-09	3.697439e-08	-0.01516091	0.03535375
3.7e+08	-0.01138543	0.02636604	7.95031e-09	3.693176e-08	0.0006845211	0.004225488	1.006623e-09	1.785359e-08
	7.95031e-09	3.693176e-08	-0.01072564	0.02660487	3.509741e-08	1.809937e-07	0.0009003932	0.004257594
	0.0006845211	0.004225488	3.509741e-08	1.809937e-07	-0.01128145	0.02664231	9.065618e-09	3.733834e-08
	1.006623e-09	1.785359e-08	0.0009003933	0.004257594	9.065618e-09	3.733834e-08	-0.01056309	0.02687784
3.8e+08	-0.007982347	0.01730518	9.279347e-09	3.718321e-08	0.0009986848	0.005617596	2.961253e-09	1.816833e-08
	9.279347e-09	3.718321e-08	-0.007602491	0.01748781	3.320311e-08	1.846269e-07	0.001122157	0.005639209
	0.0009986848	0.005617596	3.320311e-08	1.846269e-07	-0.007872948	0.01758716	1.002994e-08	3.755773e-08
	2.961253e-09	1.816833e-08	0.001122157	0.005639209	1.002994e-08	3.755773e-08	-0.007467859	0.0177559
3.9e+08	-0.006141824	0.007801749	1.052259e-08	3.724479e-08	0.001538478	0.006941074	4.9626e-09	1.815325e-08
	1.052259e-08	3.724479e-08	-0.006063588	0.007976177	3.105009e-08	1.886805e-07	0.001564022	0.00696803
	0.001538478	0.006941074	3.105009e-08	1.886805e-07	-0.006027187	0.008088476	1.088729e-08	3.765231e-08
	4.9626e-09	1.815325e-08	0.001564022	0.00696803	1.088729e-08	3.765231e-08	-0.005960136	0.008244279
4e+08	-0.005914044	-0.001882176	1.165405e-08	3.713299e-08	0.002289123	0.008156731	6.951804e-09	1.779761e-08
	1.165405e-08	3.713299e-08	-0.006150915	-0.001663739	2.870497e-08	1.93202e-07	0.002213877	0.008205974
	0.002289123	0.008156731	2.870497e-08	1.93202e-07	-0.005794561	-0.001591618	1.162288e-08	3.764297e-08
	6.951804e-09	1.779761e-08	0.002213877	0.008205974	1.162288e-08	3.764297e-08	-0.00608109	-0.001390101
4.1e+08	-0.007305113	-0.01147996	1.265107e-08	3.686621e-08	0.003228815	0.009228542	8.867819e-09	1.710174e-08
	1.265107e-08	3.686621e-08	-0.007861591	-0.01116255	2.624219e-08	1.982289e-07	0.003052799	0.009317664
	0.003228815	0.009228542	2.624219e-08	1.982289e-07	-0.007181388	-0.01118641	1.222613e-08	3.755053e-08
	8.867819e-09	1.710174e-08	0.003052799	0.009317664	1.222613e-08	3.755053e-08	-0.007826916	-0.01087736
4.2e+08	-0.01027694	-0.02072801	1.349363e-08	3.646406e-08	0.004329432	0.01012498	1.064966e-08	1.607746e-08
	1.349363e-08	3.646406e-08	-0.01114801	-0.02025548	2.374281e-08	2.037878e-07	0.004055678	0.01027172
	0.004329432	0.01012498	2.374281e-08	2.037878e-07	-0.01014976	-0.02043215	1.268961e-08	3.739482e-08
	1.064966e-08	1.607746e-08	0.004055678	0.01027172	1.268961e-08	3.739482e-08	-0.01114899	-0.0199524
4.3e+08	-0.01474845	-0.0293732	1.416363e-08	3.59472e-08	0.005557511	0.01082016	1.223872e-08	1.474791e-08
	1.416363e-08	3.59472e-08	-0.01591937	-0.02868993	2.1293e-08	2.098929e-07	0.005192106	0.0110419
	0.005557511	0.01082016	2.1293e-08	2.098929e-07	-0.01461879	-0.02907556	1.300789e-08	3.719449e-08
	1.223872e-08	1.474791e-08	0.005192106	0.0110419	1.300789e-08	3.719449e-08	-0.01595542	-0.02836245
4.4e+08	-0.02059818	-0.03718003	1.464421e-08	3.533764e-08	0.00687545	0.01129479	1.358092e-08	1.314697e-08
	1.464421e-08	3.533764e-08	-0.0220445	-0.03623262	1.898252e-08	2.165451e-07	0.006427495	0.01160801
	0.00687545	0.01129479	1.898252e-08	2.165451e-07	-0.0204671	-0.03688092	1.317647e-08	3.696722e-08
	1.358092e-08	1.314697e-08	0.006427495	0.01160801	1.317647e-08	3.696722e-08	-0.02211393	-0.03587428
4.5e+08	-0.02766795	-0.04393709	1.491948e-08	3.465933e-08	0.008242881	0.01153678	1.462879e-08	1.131813e-08
	1.491948e-08	3.465933e-08	-0.02935597	-0.0426761	1.690278e-08	2.23731e-07	0.007724344	0.01195653
	0.008242881	0.01153678	1.690278e-08	2.23731e-07	-0.02753661	-0.04363657	1.319103e-08	3.673045e-08
	1.462879e-08	1.131813e-08	0.007724344	0.01195653	1.319103e-08	3.673045e-08	-0.02945595	-0.04228064
4.6e+08	-0.03576777	-0.04946274	1.497458e-08	3.393908e-08	0.009618115	0.01154163	1.534312e-08	9.313115e-09
	1.497458e-08	3.393908e-08	-0.03765517	-0.04784426	1.514474e-08	2.314223e-07	0.0090436	0.01208101
	0.009618115	0.01154163	1.514474e-08	2.314223e-07	-0.03563735	-0.04916061	1.304714e-08	3.650239e-08
	1.534312e-08	9.313115e-09	0.0090436	0.01208101	1.304714e-08	3.650239e-08	-0.03778181	-0.04740587
4.7e+08	-0.04468146	-0.05360976	1.479633e-08	3.320742e-08	0.01095962	0.01131239	1.569433e-08	7.190069e-09
	1.479633e-08	3.320742e-08	-0.04671832	-0.05159698	1.379652e-08	2.395754e-07	0.01034604	0.01198213
	0.01095962	0.01131239	1.379652e-08	2.395754e-07	-0.04455309	-0.05330556	1.274048e-08	3.630314e-08
	1.569433e-08	7.190069e-09	0.01034604	0.01198213	1.274048e-08	3.630314e-08	-0.04686667	-0.05111044
4.8e+08	-0.05417299	-0.05626896	1.437435e-08	3.249925e-08	0.01222741	0.01085944	1.566339e-08	5.011682e-09
	1.437435e-08	3.249925e-08	-0.05630299	-0.05383339	1.294071e-08	2.481312e-07	0.01159359	0.01166743
	0.01222741	0.01085944	1.294071e-08	2.481312e-07	-0.0540477	-0.05596197	1.226769e-08	3.615564e-08
