!$
! Info: Touchstone file created by Circ.  Input file=Tx_8in_Rx_85ohms_TxVia_35mils_RxVia_45mils.circ
!$
# Hz S RI R 50
0	0.006531301	1.120452e-25	-4.343858e-05	-2.874264e-26	6.378287e-05	1.222997e-23	-4.343818e-05	-3.411233e-26
	-4.343859e-05	-2.715559e-26	0.006527861	1.299744e-25	-4.343769e-05	-2.120244e-26	6.242382e-05	1.472197e-23
	6.430685e-05	1.238918e-23	-4.343767e-05	-2.385774e-26	0.006539482	1.093734e-25	-4.343801e-05	6.085116e-26
	-4.343819e-05	-3.301045e-26	6.057642e-05	1.479457e-23	-4.343803e-05	6.302132e-26	0.006541023	1.217705e-25
1e+07	0.00856191	-0.007461509	-4.725541e-06	-1.103076e-05	0.0001906943	0.001565379	-2.672986e-06	-1.286276e-05
	-4.725542e-06	-1.103076e-05	0.008545308	-0.007329803	-7.651889e-06	-4.936214e-07	0.0002491191	0.001561281
	0.0001907181	0.00156538	-7.651889e-06	-4.936217e-07	0.009646207	-0.00721146	-1.678308e-05	1.351058e-06
	-2.672986e-06	-1.286276e-05	0.000249059	0.001561291	-1.678308e-05	1.351058e-06	0.008533885	-0.007317566
2e+07	0.008745435	-0.01704257	-4.288282e-06	-4.289073e-06	0.0005933014	0.003081976	-1.46723e-06	-6.759164e-06
	-4.288283e-06	-4.289073e-06	0.008835703	-0.01682402	-1.936731e-05	-1.20214e-05	0.0006687039	0.003025162
	0.000593309	0.003081961	-1.936731e-05	-1.20214e-05	0.009853849	-0.017029	-2.459948e-05	-5.702966e-06
	-1.46723e-06	-6.759164e-06	0.000668696	0.003025196	-2.459948e-05	-5.702966e-06	0.00883038	-0.01679177
3e+07	0.006562218	-0.0272742	-4.086685e-06	-2.597534e-06	0.001278049	0.004448521	-1.849835e-06	-5.274183e-06
	-4.086685e-06	-2.597534e-06	0.006714978	-0.02703485	-2.828919e-05	-1.248788e-05	0.001312413	0.004380452
	0.001278049	0.004448518	-2.828919e-05	-1.248788e-05	0.007680849	-0.02738228	-3.042719e-05	-5.022994e-06
	-1.849835e-06	-5.274183e-06	0.001312413	0.004380457	-3.042719e-05	-5.022995e-06	0.006713372	-0.02698926
4e+07	0.002375862	-0.03718941	-3.909938e-06	-1.671255e-06	0.00216718	0.00565991	-2.771186e-06	-4.19275e-06
	-3.909938e-06	-1.671255e-06	0.002559604	-0.03694601	-3.55293e-05	-9.742794e-06	0.002159969	0.005594319
	0.002167182	0.005659911	-3.55293e-05	-9.742794e-06	0.003490134	-0.03740496	-3.502163e-05	-2.125061e-06
	-2.771187e-06	-4.19275e-06	0.002159964	0.005594317	-3.502163e-05	-2.12506e-06	0.002559931	-0.03688867
5e+07	-0.003576673	-0.04635396	-3.732849e-06	-1.034345e-06	0.00323157	0.006687654	-3.516851e-06	-3.216426e-06
	-3.732849e-06	-1.034345e-06	-0.003387659	-0.04610976	-4.135956e-05	-5.059233e-06	0.003182657	0.006635422
	0.003231571	0.006687654	-4.135956e-05	-5.059233e-06	-0.002480573	-0.04667186	-3.856179e-05	2.093502e-06
	-3.516851e-06	-3.216426e-06	0.003182653	0.006635421	-3.856179e-05	2.093502e-06	-0.00338706	-0.0460411
6e+07	-0.01106328	-0.05444919	-3.544976e-06	-5.449795e-07	0.004435978	0.007506882	-4.093166e-06	-2.235976e-06
	-3.544976e-06	-5.449795e-07	-0.01088988	-0.0542	-4.584542e-05	1.042825e-06	0.004346329	0.007477991
	0.004435975	0.007506883	-4.584542e-05	1.042825e-06	-0.009998777	-0.05486587	-4.108635e-05	7.264895e-06
	-4.093166e-06	-2.235976e-06	0.004346332	0.00747799	-4.108635e-05	7.264895e-06	-0.01089048	-0.05411975
7e+07	-0.01983465	-0.06122488	-3.341503e-06	-1.477662e-07	0.005741109	0.008098947	-4.496389e-06	-1.215599e-06
	-3.341502e-06	-1.477662e-07	-0.01969345	-0.060962	-4.895047e-05	8.286303e-06	0.005613089	0.008102893
	0.005741103	0.008098949	-4.895047e-05	8.286303e-06	-0.0188149	-0.06173663	-4.256464e-05	1.319025e-05
	-4.496389e-06	-1.215599e-06	0.005613096	0.008102889	-4.256464e-05	1.319025e-05	-0.01969645	-0.06086941
8e+07	-0.02962142	-0.06648743	-3.12027e-06	1.819876e-07	0.007105184	0.008452383	-4.713401e-06	-1.415662e-07
	-3.12027e-06	1.819876e-07	-0.02952521	-0.06619965	-5.055302e-05	1.651494e-05	0.006942734	0.008498233
	0.007105178	0.008452387	-5.055302e-05	1.651494e-05	-0.02865952	-0.06709012	-4.290669e-05	1.975462e-05
	-4.713401e-06	-1.415663e-07	0.006942744	0.008498227	-4.290669e-05	1.975462e-05	-0.02953154	-0.06609356
9e+07	-0.0401372	-0.07009622	-2.879523e-06	4.55384e-07	0.008485484	0.008563341	-4.714139e-06	9.993236e-07
	-2.879523e-06	4.553838e-07	-0.04009604	-0.06977187	-5.038998e-05	2.569912e-05	0.008294348	0.008659766
	0.008485479	0.008563345	-5.038998e-05	2.569912e-05	-0.03924689	-0.07078584	-4.192103e-05	2.693285e-05
	-4.714138e-06	9.993234e-07	0.008294354	0.008659759	-4.192103e-05	2.693285e-05	-0.04010627	-0.06965085
1e+08	-0.05108007	-0.07195824	-2.608544e-06	6.782532e-07	0.009840183	0.008435859	-4.362456e-06	2.299156e-06
	-2.608544e-06	6.782532e-07	-0.05110863	-0.07159327	-4.735558e-05	3.6538e-05	0.009629232	0.008592329
	0.009840183	0.008435859	-4.735558e-05	3.6538e-05	-0.05028161	-0.07273658	-3.879584e-05	3.52295e-05
	-4.362456e-06	2.299156e-06	0.009629232	0.008592329	-3.879584e-05	3.52295e-05	-0.05112313	-0.07145585
1.1e+08	-0.06213704	-0.07208459	-2.416031e-06	8.836822e-07	0.01112922	0.008079283	-3.457687e-06	3.083511e-06
	-2.416031e-06	8.836822e-07	-0.06226213	-0.07162366	-3.954914e-05	4.327398e-05	0.01091278	0.008294017
	0.01112922	0.008079282	-3.954914e-05	4.327398e-05	-0.06146331	-0.0729111	-3.640998e-05	3.65385e-05
	-3.457687e-06	3.083511e-06	0.01091278	0.008294017	-3.640998e-05	3.65385e-05	-0.06227993	-0.07146767
1.2e+08	-0.073058	-0.07046197	-2.247279e-06	1.097385e-06	0.01231399	0.007511512	-2.693573e-06	3.578336e-06
	-2.247279e-06	1.097385e-06	-0.07324896	-0.06987131	-3.706538e-05	4.436825e-05	0.0120964	0.007784817
	0.01231399	0.007511512	-3.706538e-05	4.436825e-05	-0.07249752	-0.07131081	-3.509769e-05	3.700264e-05
	-2.693573e-06	3.578336e-06	0.0120964	0.007784817	-3.509769e-05	3.700264e-05	-0.07326927	-0.06969493
1.3e+08	-0.08355158	-0.06714266	-2.076388e-06	1.292624e-06	0.01336199	0.006756137	-2.164365e-06	3.786386e-06
	-2.076388e-06	1.292624e-06	-0.08378244	-0.06640372	-3.526179e-05	4.5007e-05	0.01314999	0.007089322
	0.01336199	0.006756137	-3.526179e-05	4.5007e-05	-0.08309822	-0.06799786	-3.344753e-05	3.788941e-05
	-2.164365e-06	3.786386e-06	0.01314999	0.007089322	-3.344753e-05	3.788941e-05	-0.08380397	-0.06620521
1.4e+08	-0.09334944	-0.06222951	-1.899879e-06	1.466745e-06	0.01424534	0.005841096	-2.098123e-06	3.676052e-06
	-1.899879e-06	1.466745e-06	-0.09359333	-0.06133093	-3.316255e-05	4.592581e-05	0.01404662	0.006234525
	0.01424534	0.005841095	-3.316255e-05	4.592581e-05	-0.09299734	-0.06307805	-3.155686e-05	3.897997e-05
	-2.098123e-06	3.676052e-06	0.01404662	0.006234525	-3.155686e-05	3.897997e-05	-0.09361418	-0.06110879
1.5e+08	-0.1022082	-0.05586616	-1.717715e-06	1.618115e-06	0.01494159	0.004797963	-2.020309e-06	3.603083e-06
	-1.717715e-06	1.618115e-06	-0.1024374	-0.05480285	-3.08243e-05	4.69816e-05	0.01476434	0.005250641
	0.01494159	0.004797963	-3.08243e-05	4.69816e-05	-0.1019512	-0.05669689	-2.946595e-05	4.015814e-05
	-2.020309e-06	3.603083e-06	0.01476434	0.005250641	-2.946595e-05	4.015814e-05	-0.1024551	-0.05455599
1.6e+08	-0.1099142	-0.04823133	-1.530443e-06	1.748372e-06	0.0154341	0.003660929	-1.934131e-06	3.557459e-06
	-1.530443e-06	1.748372e-06	-0.1101008	-0.04700424	-2.827783e-05	4.808286e-05	0.01528665	0.00417031
	0.0154341	0.003660929	-2.827783e-05	4.808286e-05	-0.1097457	-0.04903464	-2.719663e-05	4.135393e-05
	-1.934131e-06	3.557459e-06	0.01528665	0.00417031	-2.719663e-05	4.135393e-05	-0.1101125	-0.04673219
1.7e+08	-0.1162872	-0.03953306	-1.338825e-06	1.858495e-06	0.01571219	0.002465788	-1.841139e-06	3.532569e-06
	-1.338825e-06	1.858495e-06	-0.1164041	-0.03814899	-2.55449e-05	4.916367e-05	0.01560261	0.003027713
	0.01571219	0.002465788	-2.55449e-05	4.916367e-05	-0.1162002	-0.04030069	-2.476447e-05	4.251596e-05
	-1.841139e-06	3.532569e-06	0.01560261	0.003027713	-2.476447e-05	4.251596e-05	-0.1164069	-0.03785194
1.8e+08	-0.121184	-0.03000277	-1.1438e-06	1.949098e-06	0.01577112	0.001248988	-1.742025e-06	3.523736e-06
	-1.1438e-06	1.949098e-06	-0.1212058	-0.02847408	-2.264409e-05	5.017314e-05	0.0157069	0.001857705
	0.01577112	0.001248988	-2.264409e-05	5.017314e-05	-0.1211714	-0.03072765	-2.218323e-05	4.360373e-05
	-1.742025e-06	3.523736e-06	0.0157069	0.001857705	-2.218323e-05	4.360373e-05	-0.1211966	-0.02815294
1.9e+08	-0.1245005	-0.01988912	-9.46452e-07	2.02061e-06	0.01561193	4.675204e-05	-1.637049e-06	3.527459e-06
	-9.46452e-07	2.02061e-06	-0.1244045	-0.01823331	-1.959367e-05	5.107028e-05	0.01559965	0.0006950066
	0.01561193	4.675202e-05	-1.959367e-05	5.107028e-05	-0.1245548	-0.0205653	-1.946685e-05	4.458397e-05
	-1.637049e-06	3.527459e-06	0.01559965	0.0006950066	-1.946685e-05	4.458397e-05	-0.1243804	-0.01788969
2e+08	-0.1261733	-0.009451811	-7.479826e-07	2.073384e-06	0.01524124	-0.001105728	-1.526217e-06	3.54099e-06
	-7.479826e-07	2.073384e-06	-0.1259404	-0.007690982	-1.641267e-05	5.182132e-05	0.01528622	-0.0004265238
	0.01524124	-0.001105728	-1.641267e-05	5.182132e-05	-0.1262869	-0.01007437	-1.663033e-05	4.542869e-05
	-1.526217e-06	3.54099e-06	0.01528622	-0.0004265238	-1.663033e-05	4.542869e-05	-0.1258988	-0.007327104
2.1e+08	-0.1261806	0.00104464	-5.496807e-07	2.107785e-06	0.0146709	-0.002175015	-1.40941e-06	3.562094e-06
	-5.496807e-07	2.107785e-06	-0.1257959	0.002884522	-1.31215e-05	5.239834e-05	0.01477699	-0.001474562
	0.0146709	-0.002175015	-1.31215e-05	5.239834e-05	-0.1263457	0.0004796625	-1.369018e-05	4.611424e-05
	-1.40941e-06	3.562094e-06	0.01477699	-0.001474562	-1.369018e-05	4.611424e-05	-0.1257346	0.003265852
2.2e+08	-0.1245413	0.01133705	-3.528921e-07	2.124236e-06	0.01391766	-0.003130086	-1.286431e-06	3.588884e-06
	-3.528921e-07	2.124236e-06	-0.1239953	0.01322697	-9.741924e-06	5.277838e-05	0.01408696	-0.002418927
	0.01391766	-0.003130086	-9.741924e-06	5.277838e-05	-0.1247503	0.01083268	-1.066439e-05	4.662077e-05
	-1.286431e-06	3.588884e-06	0.01408696	-0.002418927	-1.066439e-05	4.662077e-05	-0.1239126	0.01362248
2.3e+08	-0.1213152	0.02116957	-1.589857e-07	2.123258e-06	0.01300273	-0.003942945	-1.157031e-06	3.619704e-06
	-1.589857e-07	2.123258e-06	-0.1206035	0.02307841	-6.296994e-06	5.294293e-05	0.01323547	-0.003232148
	0.01300273	-0.003942945	-6.296994e-06	5.294293e-05	-0.1215602	0.02072798	-7.572379e-06	4.693187e-05
	-1.157031e-06	3.619704e-06	0.01323547	-0.003232148	-7.572379e-06	4.693187e-05	-0.1204985	0.02348447
2.4e+08	-0.1166	0.03029949	3.068967e-08	2.105491e-06	0.01195138	-0.004589184	-1.020981e-06	3.653083e-06
	3.068968e-08	2.105491e-06	-0.1157246	0.03219507	-2.811012e-06	5.287776e-05	0.01224577	-0.003889998
	0.01195138	-0.004589184	-2.811012e-06	5.287776e-05	-0.1168736	0.02992199	-4.434914e-06	4.703454e-05
	-1.020981e-06	3.653083e-06	0.01224577	-0.003889998	-4.434914e-06	4.703454e-05	-0.115597	0.03260782
2.5e+08	-0.1105301	0.03850276	2.148341e-07	2.0717e-06	0.01079237	-0.00504851	-8.780372e-07	3.687653e-06
	2.148341e-07	2.0717e-06	-0.109499	0.0403529	6.909794e-07	5.257254e-05	0.01114456	-0.004371998
	0.01079237	-0.00504851	6.909794e-07	5.257254e-05	-0.1108246	0.03818985	-1.273739e-06	4.691903e-05
	-8.780372e-07	3.687653e-06	0.01114456	-0.004371998	-1.273739e-06	4.691903e-05	-0.1093491	0.04076837
2.6e+08	-0.1032725	0.04557912	3.922341e-07	2.022772e-06	0.00955743	-0.005305237	-7.279915e-07	3.722126e-06
	3.922341e-07	2.022772e-06	-0.1020998	0.0473528	4.18338e-06	5.202079e-05	0.009961539	-0.0046619
	0.00955743	-0.005305237	4.18338e-06	5.202079e-05	-0.1035805	0.04533047	1.888641e-06	4.65788e-05
	-7.279915e-07	3.722126e-06	0.009961539	-0.0046619	1.888641e-06	4.65788e-05	-0.1019288	0.04776705
2.7e+08	-0.09502333	0.05135679	5.617875e-07	1.9597e-06	0.008280628	-0.005348735	-5.706601e-07	3.755242e-06
	5.617875e-07	1.9597e-06	-0.09372922	0.05302528	7.640464e-06	5.121962e-05	0.008728818	-0.004748139
	0.008280628	-0.005348735	7.640464e-06	5.121962e-05	-0.09533786	0.05117131	5.029325e-06	4.601042e-05
	-5.706601e-07	3.755242e-06	0.008728818	-0.004748139	5.029325e-06	4.601042e-05	-0.09353902	0.05343455
2.8e+08	-0.08600332	0.05569672	7.225281e-07	1.883563e-06	0.006997628	-0.005173824	-4.059134e-07	3.785772e-06
	7.225281e-07	1.883563e-06	-0.08461365	0.05723468	1.103667e-05	5.01698e-05	0.007480263	-0.004624246
	0.006997628	-0.005173824	1.103667e-05	5.01698e-05	-0.08631753	0.05557254	8.125323e-06	4.521368e-05
	-4.059134e-07	3.785772e-06	0.007480264	-0.004624246	8.125323e-06	4.521368e-05	-0.08440684	0.05763549
2.9e+08	-0.07645257	0.05849605	8.736389e-07	1.795499e-06	0.005744903	-0.004781098	-2.336857e-07	3.812481e-06
	8.736389e-07	1.795499e-06	-0.07499819	0.05988258	1.434703e-05	4.88754e-05	0.006250763	-0.004289187
	0.005744903	-0.004781098	1.434703e-05	4.88754e-05	-0.07676005	0.05843059	1.115394e-05	4.419136e-05
	-2.336857e-07	3.812481e-06	0.006250763	-0.004289187	1.115394e-05	4.419136e-05	-0.07477805	0.06027192
3e+08	-0.06662485	0.05969094	1.014457e-06	1.696672e-06	0.004558833	-0.004177134	-5.399622e-08	3.834107e-06
	1.014457e-06	1.696672e-06	-0.0651409	0.06091056	1.754749e-05	4.734363e-05	0.005075391	-0.003747623
	0.004558833	-0.004177134	1.754749e-05	4.734363e-05	-0.06691968	0.05968091	1.409314e-05	4.294913e-05
	-5.399622e-08	3.834107e-06	0.005075391	-0.003747623	1.409314e-05	4.294913e-05	-0.06491129	0.06128594
3.1e+08	-0.05678146	0.05925858	1.14447e-06	1.588245e-06	0.003474731	-0.003374582	1.330334e-07	3.84939e-06
	1.14447e-06	1.588245e-06	-0.05530642	0.06030202	2.061507e-05	4.558454e-05	0.003988484	-0.003010038
	0.003474731	-0.003374582	2.061507e-05	4.558454e-05	-0.05705826	0.05930004	1.69219e-05	4.149551e-05
	1.330334e-07	3.84939e-06	0.003988484	-0.003010038	1.69219e-05	4.149551e-05	-0.05507169	0.06066161
3.2e+08	-0.0471847	0.0572181	1.263307e-06	1.471345e-06	0.002525799	-0.002392086	3.271523e-07	3.857039e-06
	1.263307e-06	1.471345e-06	-0.04575925	0.05808301	2.352838e-05	4.361093e-05	0.003022643	-0.002092719
	0.002525799	-0.002392086	2.352838e-05	4.361093e-05	-0.04743873	0.05730653	1.962058e-05	3.984151e-05
	3.271523e-07	3.857039e-06	0.003022643	-0.002092719	1.962058e-05	3.984151e-05	-0.04552415	0.05842573
3.3e+08	-0.03809112	0.05363062	1.370719e-06	1.347068e-06	0.001742062	-0.001254007	5.279562e-07	3.855752e-06
	1.370719e-06	1.347068e-06	-0.03675696	0.05432197	2.626874e-05	4.143873e-05	0.002207703	-0.001017549
	0.001742063	-0.001254007	2.626874e-05	4.143873e-05	-0.03831835	0.05376102	2.217114e-05	3.800038e-05
	5.279562e-07	3.855752e-06	0.002207703	-0.001017549	2.217114e-05	3.800038e-05	-0.03652648	0.0546476
3.4e+08	-0.02974473	0.04859811	1.466561e-06	1.216434e-06	0.001149304	1.00604e-05	7.348154e-07	3.844206e-06
	1.466561e-06	1.216434e-06	-0.02854325	0.04912849	2.8819e-05	3.908533e-05	0.001569691	0.000188413
	0.001149304	1.006039e-05	2.8819e-05	3.908533e-05	-0.02994191	0.04876509	2.455715e-05	3.598725e-05
	7.348154e-07	3.844206e-06	0.001569691	0.000188413	2.455715e-05	3.598725e-05	-0.02832245	0.04943772
3.5e+08	-0.02237042	0.04226113	1.550752e-06	1.080377e-06	0.0007680641	0.001365999	9.470366e-07	3.821214e-06
	1.550752e-06	1.080377e-06	-0.02134129	0.04265071	3.116477e-05	3.657003e-05	0.001129838	0.001493561
	0.0007680641	0.001365999	3.116477e-05	3.657003e-05	-0.02253514	0.04245898	2.676504e-05	3.381935e-05
	9.470366e-07	3.821214e-06	0.001129838	0.001493561	2.676504e-05	3.381935e-05	-0.02113521	0.0429451
3.6e+08	-0.01616766	0.03479538	1.623255e-06	9.397572e-07	0.0006127532	0.002776103	1.163703e-06	3.785619e-06
	1.623255e-06	9.397572e-07	-0.01534746	0.03507175	3.329442e-05	3.391352e-05	0.0009036921	0.002862598
	0.0006127532	0.002776103	3.329442e-05	3.391352e-05	-0.0162984	0.03501824	2.878353e-05	3.151508e-05
	1.163703e-06	3.785619e-06	0.0009036921	0.002862598	2.878353e-05	3.151508e-05	-0.01516091	0.03535375
3.7e+08	-0.01130479	0.02640728	1.684055e-06	7.953629e-07	0.0006909418	0.004200212	1.383702e-06	3.736355e-06
	1.684055e-06	7.953629e-07	-0.01072564	0.02660487	3.519885e-05	3.113723e-05	0.0009003932	0.004257594
	0.0006909418	0.004200212	3.519885e-05	3.113723e-05	-0.01140095	0.02664923	3.060365e-05	2.909359e-05
	1.383702e-06	3.736355e-06	0.0009003933	0.004257594	3.060365e-05	2.909359e-05	-0.01056309	0.02687784
3.8e+08	-0.007914203	0.01732842	1.733137e-06	6.479267e-07	0.001002874	0.005597013	1.605749e-06	3.6725e-06
	1.733137e-06	6.479267e-07	-0.007602491	0.01748781	3.687178e-05	2.826309e-05	0.001122157	0.005639209
	0.001002874	0.005597013	3.687178e-05	2.826309e-05	-0.007976064	0.01758369	3.221899e-05	2.657454e-05
	1.605749e-06	3.6725e-06	0.001122157	0.005639209	3.221899e-05	2.657454e-05	-0.007467859	0.0177559
3.9e+08	-0.006088354	0.007809298	1.770468e-06	4.981421e-07	0.001541254	0.006925452	1.828413e-06	3.593308e-06
	1.770468e-06	4.981421e-07	-0.006063588	0.007976177	3.830965e-05	2.531303e-05	0.001564022	0.00696803
	0.001541254	0.006925452	3.830965e-05	2.531303e-05	-0.006117082	0.008072349	3.362563e-05	2.397765e-05
	1.828413e-06	3.593308e-06	0.001564022	0.00696803	3.362563e-05	2.397765e-05	-0.005960136	0.008244279
4e+08	-0.005877072	-0.001887726	1.795989e-06	3.466879e-07	0.002291336	0.0081462	2.050137e-06	3.498233e-06
	1.795989e-06	3.466879e-07	-0.006150915	-0.001663739	3.951154e-05	2.230858e-05	0.002213877	0.008205974
	0.002291336	0.0081462	3.951154e-05	2.230858e-05	-0.005874641	-0.001622027	3.482201e-05	2.132235e-05
	2.050137e-06	3.498233e-06	0.002213877	0.008205974	3.482201e-05	2.132235e-05	-0.00608109	-0.001390101
4.1e+08	-0.007286061	-0.0114958	1.809616e-06	1.942512e-07	0.003231324	0.009223088	2.269288e-06	3.386958e-06
	1.809616e-06	1.942512e-07	-0.007861591	-0.01116255	4.0479e-05	1.927049e-05	0.003052799	0.009317664
	0.003231324	0.009223088	4.0479e-05	1.927049e-05	-0.00725518	-0.01123206	3.580885e-05	1.86274e-05
	2.269288e-06	3.386958e-06	0.003052799	0.009317664	3.580885e-05	1.86274e-05	-0.007826916	-0.01087736
4.2e+08	-0.0102768	-0.02075115	1.81125e-06	4.154879e-08	0.004333076	0.01012445	2.484196e-06	3.259402e-06
	1.81125e-06	4.154879e-08	-0.01114801	-0.02025548	4.121576e-05	1.621838e-05	0.004055678	0.01027172
	0.004333076	0.01012445	4.121576e-05	1.621838e-05	-0.0102208	-0.02049335	3.658885e-05	1.591061e-05
	2.484196e-06	3.259402e-06	0.004055678	0.01027172	3.658885e-05	1.591061e-05	-0.01114899	-0.0199524
4.3e+08	-0.01476776	-0.02940058	1.800783e-06	-1.106535e-07	0.005563086	0.01082426	2.693194e-06	3.115722e-06
	1.800783e-06	-1.106535e-07	-0.01591937	-0.02868993	4.172741e-05	1.317047e-05	0.005192106	0.0110419
	0.005563086	0.01082426	4.172741e-05	1.317047e-05	-0.01469049	-0.02915196	3.716646e-05	1.318855e-05
	2.693194e-06	3.115722e-06	0.005192106	0.0110419	3.716646e-05	1.318855e-05	-0.01595542	-0.02836245
4.4e+08	-0.020637	-0.03720856	1.778126e-06	-2.615291e-07	0.006883689	0.01130312	2.894664e-06	2.956305e-06
	1.778126e-06	-2.615291e-07	-0.0220445	-0.03623262	4.202104e-05	1.01434e-05	0.006427495	0.01160801
	0.006883689	0.01130312	4.202104e-05	1.01434e-05	-0.02054265	-0.03697159	3.754751e-05	1.047642e-05
	2.894664e-06	2.956305e-06	0.006427495	0.01160801	3.754751e-05	1.047642e-05	-0.02211393	-0.03587428
4.5e+08	-0.0277259	-0.04396374	1.743224e-06	-4.101822e-07	0.00825443	0.01154882	3.087074e-06	2.781749e-06
	1.743224e-06	-4.101822e-07	-0.02935597	-0.0426761	4.21049e-05	7.152105e-06	0.007724344	0.01195653
	0.00825443	0.01154882	4.21049e-05	7.152105e-06	-0.0276189	-0.04374004	3.773891e-05	7.787917e-06
	3.087074e-06	2.781749e-06	0.007724344	0.01195653	3.773891e-05	7.787917e-06	-0.02945595	-0.04228064
4.6e+08	-0.03584402	-0.04948459	1.696083e-06	-5.556494e-07	0.009633523	0.01155677	3.269022e-06	2.592834e-06
	1.696083e-06	-5.556494e-07	-0.03765517	-0.04784426	4.198802e-05	4.209835e-06	0.0090436	0.01208101
	0.009633523	0.01155677	4.198802e-05	4.209835e-06	-0.03572884	-0.04927497	3.77484e-05	5.135207e-06
	3.269022e-06	2.592834e-06	0.0090436	0.01208101	3.77484e-05	5.135207e-06	-0.03778181	-0.04740587
4.7e+08	-0.04477476	-0.05362409	1.636792e-06	-6.969049e-07	0.01097932	0.01132994	3.439241e-06	2.390496e-06
	1.636792e-06	-6.969049e-07	-0.04671832	-0.05159698	4.167987e-05	1.328186e-06	0.01034604	0.01198213
	0.01097932	0.01132994	4.167987e-05	1.328186e-06	-0.0446558	-0.05342853	3.758411e-05	2.528947e-06
	3.439241e-06	2.390496e-06	0.01034604	0.01198213	3.758411e-05	2.528947e-06	-0.04686667	-0.05111044
4.8e+08	-0.0542817	-0.0562733	1.565543e-06	-8.328728e-07	0.01225174	0.01087868	3.596648e-06	2.175774e-06
