!$
! Info: Touchstone file created by Circ.  Input file=Tx_8in_Rx_100ohms_TxVia_35mils_RxVia_45mils.circ
!$
# Hz S RI R 50
0	0.008380901	1.098099e-25	7.631443e-10	7.595951e-28	6.280419e-05	1.567985e-23	2.543085e-09	3.17618e-28
	7.631451e-10	7.594793e-28	0.00837867	1.294074e-25	4.024244e-10	1.103856e-27	6.216802e-05	1.893206e-23
	6.331322e-05	1.589909e-23	4.02424e-10	1.103893e-27	0.008393106	1.066972e-25	7.832338e-10	7.322548e-28
	2.543086e-09	3.17607e-28	6.032026e-05	1.902533e-23	7.832342e-10	7.322176e-28	0.008391802	1.21242e-25
1e+07	0.01143652	0.005748087	1.120921e-09	1.301493e-09	0.0002195372	0.001537201	4.742537e-09	6.321134e-09
	1.120922e-09	1.301493e-09	0.01225224	0.005558647	6.26831e-10	8.1403e-10	0.0005017233	0.001581726
	0.0002195669	0.001537196	6.268309e-10	8.140299e-10	0.0119039	0.005536774	1.171418e-09	1.353775e-09
	4.742537e-09	6.321134e-09	0.0005016629	0.001581736	1.171417e-09	1.353775e-09	0.01214363	0.005577734
2e+07	0.01539284	0.008761674	1.87471e-09	2.101763e-09	0.0005981219	0.003057412	8.49469e-09	1.011519e-08
	1.87471e-09	2.101763e-09	0.01581813	0.008174332	9.167062e-10	1.376448e-09	0.0007723846	0.003251177
	0.0005981232	0.00305739	9.167062e-10	1.376448e-09	0.01554052	0.008269871	1.957818e-09	2.169012e-09
	8.49469e-09	1.011519e-08	0.0007723757	0.003251212	1.957818e-09	2.169012e-09	0.01574543	0.008252796
3e+07	0.01883976	0.01006679	2.78168e-09	2.664415e-09	0.001212257	0.004459817	1.308943e-08	1.274802e-08
	2.78168e-09	2.664415e-09	0.018946	0.009396851	1.210014e-09	1.872296e-09	0.001304058	0.004708561
	0.00121225	0.004459815	1.210014e-09	1.872296e-09	0.01874251	0.009529914	2.90702e-09	2.729872e-09
	1.308943e-08	1.274802e-08	0.001304058	0.004708566	2.90702e-09	2.729872e-09	0.01890429	0.009500494
4e+07	0.02202304	0.01052214	3.831778e-09	2.943036e-09	0.002040083	0.005727542	1.848623e-08	1.401296e-08
	3.831778e-09	2.943036e-09	0.02185188	0.009874072	1.516379e-09	2.277251e-09	0.002083065	0.00600731
	0.002040083	0.005727546	1.516379e-09	2.277251e-09	0.02172891	0.01001729	4.02028e-09	3.002438e-09
	1.848623e-08	1.401296e-08	0.002083059	0.006007308	4.02028e-09	3.002438e-09	0.02183863	0.009991944
5e+07	0.02498563	0.01033233	4.966199e-09	2.916137e-09	0.003054579	0.006831139	2.438882e-08	1.375567e-08
	4.966199e-09	2.916137e-09	0.02457291	0.009773489	1.82865e-09	2.601869e-09	0.003181566	0.007076596
	0.003054581	0.006831141	1.82865e-09	2.601869e-09	0.02453599	0.009905623	5.232835e-09	2.953133e-09
	2.438882e-08	1.375567e-08	0.003181562	0.007076595	5.232835e-09	2.953132e-09	0.02458566	0.009898368
6e+07	0.02771879	0.009602894	6.120285e-09	2.575263e-09	0.004224689	0.007744427	3.045879e-08	1.189666e-08
	6.120285e-09	2.575263e-09	0.0271014	0.009185229	2.131613e-09	2.848511e-09	0.004411208	0.007941752
	0.004224688	0.007744426	2.131613e-09	2.848511e-09	0.02715269	0.009285247	6.473689e-09	2.567746e-09
	3.045879e-08	1.189666e-08	0.00441121	0.007941751	6.473689e-09	2.567747e-09	0.02713742	0.009311552
7e+07	0.03019531	0.008407321	7.226906e-09	1.920615e-09	0.005526544	0.008439137	3.635395e-08	8.415726e-09
	7.226906e-09	1.920615e-09	0.02941294	0.008172436	2.409662e-09	3.021128e-09	0.00573912	0.008587304
	0.005526538	0.008439137	2.409662e-09	3.021128e-09	0.02955111	0.008219833	7.670069e-09	1.843553e-09
	3.635395e-08	8.415726e-09	0.005739128	0.008587301	7.670069e-09	1.843553e-09	0.02946907	0.008295684
8e+07	0.03238168	0.00680766	8.218621e-09	9.629769e-10	0.006912743	0.008904075	4.173031e-08	3.348628e-09
	8.21862e-09	9.629769e-10	0.03147779	0.006789448	2.647134e-09	3.125706e-09	0.007129241	0.00900184
	0.006912735	0.008904076	2.647134e-09	3.125706e-09	0.03169807	0.006764495	8.748928e-09	7.896115e-10
	4.173031e-08	3.348628e-09	0.007129251	0.009001835	8.748928e-09	7.896116e-10	0.03155042	0.006905916
9e+07	0.03424317	0.004861851	9.036313e-09	-2.747883e-10	0.008342001	0.009132238	4.624722e-08	-3.207813e-09
	9.036312e-09	-2.747882e-10	0.03326734	0.005089238	2.832702e-09	3.172656e-09	0.008542978	0.009178735
	0.008341995	0.00913224	2.832702e-09	3.172656e-09	0.03356135	0.004973115	9.644875e-09	-5.724108e-10
	4.624722e-08	-3.207813e-09	0.008542986	0.00917873	9.644876e-09	-5.724108e-10	0.03335222	0.005195877
1e+08	0.03574174	0.002622877	9.625328e-09	-1.762154e-09	0.009778407	0.009123895	4.958015e-08	-1.109194e-08
	9.625328e-09	-1.762154e-09	0.03476745	0.003134239	2.952124e-09	3.177259e-09	0.009935885	0.009113068
	0.009778407	0.009123894	2.952124e-09	3.177259e-09	0.03512206	0.00290834	1.029641e-08	-2.215773e-09
	4.958015e-08	-1.109194e-08	0.009935885	0.009113068	1.029641e-08	-2.215773e-09	0.03485864	0.003227703
1.1e+08	0.03684327	0.0001823126	9.969881e-09	-3.435383e-09	0.01118623	0.008861774	5.146547e-08	-2.006481e-08
	9.969881e-09	-3.435383e-09	0.03597511	0.0008867047	3.021085e-09	3.150837e-09	0.011261	0.008846069
	0.01118623	0.008861774	3.021085e-09	3.150837e-09	0.03637013	0.000542526	1.066428e-08	-4.062076e-09
	5.146547e-08	-2.006481e-08	0.011261	0.008846069	1.066428e-08	-4.062076e-09	0.03606595	0.000972314
1.2e+08	0.03756551	-0.002405633	9.975602e-09	-5.27048e-09	0.01250621	0.008366456	5.161501e-08	-2.986637e-08
	9.975602e-09	-5.27048e-09	0.03678284	-0.00154874	3.028608e-09	3.063961e-09	0.01251795	0.008373709
	0.01250621	0.008366456	3.028608e-09	3.063961e-09	0.03720516	-0.002019185	1.066754e-08	-6.055515e-09
	5.161501e-08	-2.986637e-08	0.01251795	0.008373709	1.066754e-08	-6.055515e-09	0.03687311	-0.001468913
1.3e+08	0.03789059	-0.005089733	9.610005e-09	-7.185228e-09	0.01370608	0.007659715	4.984962e-08	-4.012965e-08
	9.610005e-09	-7.185228e-09	0.03719394	-0.004096896	2.947127e-09	2.964896e-09	0.01366681	0.007704814
	0.01370608	0.007659715	2.947127e-09	2.964896e-09	0.03762697	-0.004700703	1.027463e-08	-8.135017e-09
	4.984962e-08	-4.012965e-08	0.01366681	0.007704815	1.027463e-08	-8.135017e-09	0.03728226	-0.004021745
1.4e+08	0.03781278	-0.007812139	8.85086e-09	-9.110383e-09	0.01475399	0.006765611	4.604236e-08	-5.048788e-08
	8.85086e-09	-9.110383e-09	0.03720746	-0.006695429	2.773276e-09	2.869991e-09	0.01467523	0.006859044
	0.01475399	0.006765611	2.773276e-09	2.869991e-09	0.0376326	-0.0074369	9.461709e-09	-1.022659e-08
	4.604236e-08	-5.048788e-08	0.01467523	0.006859044	9.461709e-09	-1.022659e-08	0.03729249	-0.00662377
1.5e+08	0.03733425	-0.01051431	7.688226e-09	-1.097123e-08	0.01562194	0.005712673	4.013467e-08	-6.054625e-08
	7.688226e-09	-1.097123e-08	0.03682785	-0.009284796	2.506398e-09	2.796907e-09	0.01551541	0.005861738
	0.01562194	0.005712673	2.506398e-09	2.796907e-09	0.03722526	-0.01016483	8.218046e-09	-1.22503e-08
	4.013467e-08	-6.054625e-08	0.01551541	0.005861738	8.218046e-09	-1.22503e-08	0.03690848	-0.009215337
1.6e+08	0.03646498	-0.0131385	6.125775e-09	-1.268999e-08	0.01628683	0.004533449	3.214197e-08	-6.989513e-08
	6.125775e-09	-1.268999e-08	0.0360661	-0.01180774	2.149007e-09	2.763814e-09	0.01616446	0.004742674
	0.01628683	0.004533449	2.149007e-09	2.763814e-09	0.03641543	-0.01282352	6.547487e-09	-1.412306e-08
	3.214197e-08	-6.989513e-08	0.01616446	0.004742674	6.547487e-09	-1.412306e-08	0.03614147	-0.01173913
1.7e+08	0.0352226	-0.01562891	4.181571e-09	-1.418849e-08	0.01673112	0.003263727	2.215687e-08	-7.812396e-08
	4.181571e-09	-1.418849e-08	0.03494	-0.01420972	1.706981e-09	2.788721e-09	0.01660485	0.003535068
	0.01673112	0.003263727	1.706981e-09	2.788721e-09	0.03522115	-0.01535452	4.469244e-09	-1.576142e-08
	2.215687e-08	-7.812396e-08	0.01660485	0.003535068	4.469244e-09	-1.576142e-08	0.03500951	-0.01414058
1.8e+08	0.03363228	-0.01793283	1.888328e-09	-1.53908e-08	0.01694339	0.001941607	1.034965e-08	-8.483559e-08
	1.888328e-09	-1.53908e-08	0.03347415	-0.01643957	1.189591e-09	2.88882e-09	0.01682484	0.002274598
	0.01694339	0.001941607	1.189591e-09	2.88882e-09	0.03366799	-0.01770283	2.018157e-09	-1.708435e-08
	1.034965e-08	-8.483559e-08	0.01682484	0.002274598	2.018157e-09	-1.708435e-08	0.03353741	-0.01636856
1.9e+08	0.03172627	-0.02000169	-7.080902e-10	-1.622598e-08	0.01691862	0.0006064878	-3.033867e-09	-8.966064e-08
	-7.080902e-10	-1.622598e-08	0.03169959	-0.01845041	6.088902e-10	3.079553e-09	0.0168188	0.0009983885
	0.01691862	0.0006064878	6.088902e-10	3.079553e-09	0.03178877	-0.01981785	-7.56835e-10	-1.801618e-08
	-3.033867e-09	-8.966064e-08	0.0168188	0.0009983885	-7.56835e-10	-1.801618e-08	0.03175642	-0.01837618
2e+08	0.02954337	-0.02179211	-3.546524e-09	-1.663013e-08	0.01665831	-0.0007019908	-1.767709e-08	-9.227148e-08
	-3.546524e-09	-1.663013e-08	0.02965334	-0.02020043	-1.939538e-11	3.37487e-09	0.01658729	-0.0002560103
	0.01665831	-0.0007019908	-1.939538e-11	3.37487e-09	0.02962296	-0.02165436	-3.79061e-09	-1.848878e-08
	-1.767709e-08	-9.227148e-08	0.01658729	-0.0002560103	-3.79061e-09	-1.848878e-08	0.02970377	-0.02012168
2.1e+08	0.02712813	-0.02326682	-6.552591e-09	-1.654997e-08	0.01617049	-0.001945019	-3.319994e-08	-9.239528e-08
	-6.552591e-09	-1.654997e-08	0.02737773	-0.02165371	-6.76471e-10	3.78599e-09	0.01613707	-0.001451658
	0.01617049	-0.001945019	-6.76471e-10	3.78599e-09	0.02721597	-0.02317351	-7.004019e-09	-1.844531e-08
	-3.319994e-08	-9.239528e-08	0.01613707	-0.001451658	-7.004019e-09	-1.844531e-08	0.02742195	-0.02156919
2.2e+08	0.02453001	-0.0243955	-9.642068e-09	-1.5945e-08	0.01546945	-0.003085672	-4.916841e-08	-8.982577e-08
	-9.642068e-09	-1.5945e-08	0.02491958	-0.02278092	-1.341648e-09	4.320618e-09	0.01548091	-0.002553235
	0.01546945	-0.003085672	-1.341648e-09	4.320618e-09	0.02461828	-0.02434356	-1.030736e-08	-1.784253e-08
	-4.916841e-08	-8.982577e-08	0.01548091	-0.002553235	-1.030736e-08	-1.784253e-08	0.02495793	-0.02268945
2.3e+08	0.02180229	-0.02515544	-1.27221e-08	-1.478947e-08	0.01457539	-0.004089913	-6.510628e-08	-8.443341e-08
	-1.27221e-08	-1.478947e-08	0.02232921	-0.02355995	-1.992542e-09	4.982765e-09	0.01463723	-0.003528004
	0.01457539	-0.004089913	-1.992542e-09	4.982765e-09	0.02188435	-0.02514065	-1.360173e-08	-1.665291e-08
	-6.510628e-08	-8.443341e-08	0.01463723	-0.003528004	-1.360173e-08	-1.665291e-08	0.02236224	-0.02346041
2.4e+08	0.01900096	-0.02553208	-1.569376e-08	-1.307417e-08	0.01351385	-0.004927534	-8.050874e-08	-7.617345e-08
	-1.569376e-08	-1.307417e-08	0.01965942	-0.0239763	-2.605729e-09	5.772394e-09	0.01362958	-0.004346712
	0.01351385	-0.004927534	-2.605729e-09	5.772394e-09	0.01907143	-0.02554928	-1.678175e-08	-1.48665e-08
	-8.050874e-08	-7.617345e-08	0.01362958	-0.004346712	-1.678175e-08	-1.48665e-08	0.01968783	-0.02386769
2.5e+08	0.01618346	-0.02551931	-1.8455e-08	-1.080769e-08	0.01231501	-0.005572976	-9.485737e-08	-6.509165e-08
	-1.8455e-08	-1.080769e-08	0.01696438	-0.02402342	-3.157478e-09	6.685181e-09	0.01248603	-0.004984387
	0.01231501	-0.005572976	-3.157478e-09	6.685181e-09	0.01623835	-0.02556268	-1.97387e-08	-1.249235e-08
	-9.485737e-08	-6.509165e-08	0.01248603	-0.004984387	-1.97387e-08	-1.249235e-08	0.01698901	-0.02390484
2.6e+08	0.01340745	-0.02511964	-2.090389e-08	-8.017317e-09	0.01101288	-0.006006043	-1.076364e-07	-5.13273e-08
	-2.090389e-08	-8.017317e-09	0.01429841	-0.02370279	-3.624541e-09	7.712405e-09	0.01123839	-0.005421027
	0.01101288	-0.006006043	-3.624541e-09	7.712405e-09	0.01344417	-0.02518298	-2.236396e-08	-9.559363e-09
	-1.076364e-07	-5.13273e-08	0.01123839	-0.005421027	-2.236396e-08	-9.559363e-09	0.01432026	-0.0235735
2.7e+08	0.01072949	-0.02434419	-2.2942e-08	-4.749173e-09	0.009644319	-0.006212461	-1.183495e-07	-3.511346e-08
	-2.2942e-08	-4.749173e-09	0.01171484	-0.0230239	-3.984975e-09	8.840992e-09	0.009921334	-0.005642152
	0.009644319	-0.006212461	-3.984975e-09	8.840992e-09	0.01074687	-0.02442114	-2.455264e-08	-6.11656e-09
	-1.183495e-07	-3.511346e-08	0.009921334	-0.005642152	-2.455264e-08	-6.11656e-09	0.01173501	-0.02288333
2.8e+08	0.008203775	-0.02321235	-2.4478e-08	-1.067836e-09	0.008248078	-0.006184272	-1.265368e-07	-1.677406e-08
	-2.4478e-08	-1.067836e-09	0.00926485	-0.02200396	-4.218957e-09	1.005371e-08	0.008571463	-0.005639205
	0.008248078	-0.006184272	-4.218957e-09	1.005371e-08	0.008202018	-0.02329671	-2.620735e-08	-2.232602e-09
	-1.265368e-07	-1.677406e-08	0.008571463	-0.005639205	-2.620735e-08	-2.232602e-09	0.009284532	-0.02185174
2.9e+08	0.005880903	-0.02175143	-2.543109e-08	2.944777e-09	0.006863676	-0.005920066	-1.317911e-07	3.281968e-09
	-2.543109e-08	2.944777e-09	0.006996303	-0.02066754	-4.309583e-09	1.132952e-08	0.007226284	-0.005409785
	0.006863676	-0.005920066	-4.309583e-09	1.132952e-08	0.005861507	-0.02183736	-2.724192e-08	2.005364e-09
	-1.317911e-07	3.281968e-09	0.007226284	-0.005409785	-2.724192e-08	2.005364e-09	0.007016745	-0.0205035
3e+08	0.00380672	-0.01999601	-2.573433e-08	7.191199e-09	0.005530329	-0.005425018	-1.337741e-07	2.456963e-08
	-2.573433e-08	7.191199e-09	0.004952729	-0.01904596	-4.243596e-09	1.264411e-08	0.005923192	-0.004957721
	0.005530329	-0.005425018	-4.243596e-09	1.264411e-08	0.003772356	-0.02007826	-2.758496e-08	6.493612e-09
	-1.337741e-07	2.456963e-08	0.005923192	-0.004957721	-2.758496e-08	6.493612e-09	0.004975204	-0.01887015
3.1e+08	0.002021286	-0.0179871	-2.533767e-08	1.156085e-08	0.004285855	-0.00471075	-1.322298e-07	4.653972e-08
	-2.533767e-08	1.156085e-08	0.003172369	-0.01717655	-4.012028e-09	1.397051e-08	0.004698439	-0.004292968
	0.004285855	-0.00471075	-4.012028e-09	1.397051e-08	0.001975639	-0.01806121	-2.718301e-08	1.111443e-08
	-1.322298e-07	4.653972e-08	0.004698439	-0.004292968	-2.718301e-08	1.111443e-08	0.003198128	-0.01698923
3.2e+08	0.0005579352	-0.01577122	-2.421052e-08	1.593307e-08	0.003165618	-0.003795008	-1.269968e-07	6.859319e-08
	-2.421052e-08	1.593307e-08	0.001687324	-0.01510178	-3.610711e-09	1.527992e-08	0.003586132	-0.003431329
	0.003165618	-0.003795008	-3.610711e-09	1.527992e-08	0.0005055269	-0.0158337	-2.600335e-08	1.573936e-08
	-1.269968e-07	6.859319e-08	0.003586132	-0.003431329	-2.600335e-08	1.573936e-08	0.001717567	-0.01490347
3.3e+08	-0.0005574657	-0.01339935	-2.234366e-08	2.018069e-08	0.002201553	-0.002701174	-1.180177e-07	9.009785e-08
	-2.234366e-08	2.018069e-08	0.0005228875	-0.01286832	-3.040641e-09	1.654258e-08	0.002617302	-0.00239402
	0.002201553	-0.002701174	-3.040641e-09	1.654258e-08	-0.0006114864	-0.01344777	-2.403604e-08	2.023299e-08
	-1.180177e-07	9.009785e-08	0.002617302	-0.00239402	-2.403604e-08	2.023299e-08	0.0005587082	-0.01265971
3.4e+08	-0.00130711	-0.01092563	-1.975061e-08	2.417395e-08	0.001421267	-0.001457616	-1.053452e-07	1.104067e-07
	-1.975061e-08	2.417395e-08	-0.0003030008	-0.01052586	-2.30817e-09	1.772869e-08	0.001819046	-0.001207091
	0.001421267	-0.001457616	-2.30817e-09	1.772869e-08	-0.001357193	-0.01095876	-2.129535e-08	2.445715e-08
	-1.053452e-07	1.104067e-07	0.001819046	-0.001207091	-2.129535e-08	2.445715e-08	-0.0002606382	-0.01030785
3.5e+08	-0.001681644	-0.008406224	-1.646814e-08	2.778471e-08	0.0008472845	-9.689639e-05	-8.914534e-08	1.288777e-07
	-1.646814e-08	2.778471e-08	-0.0007801143	-0.008126066	-1.425015e-09	1.880947e-08	0.001213789	9.930153e-05
	0.0008472845	-9.689638e-05	-1.425015e-09	1.880947e-08	-0.001722068	-0.008424022	-1.78203e-08	2.827537e-08
	-8.914534e-08	1.288777e-07	0.001213789	9.930152e-05	-1.78203e-08	2.827537e-08	-0.0007304156	-0.00789971
3.6e+08	-0.001680356	-0.005897882	-1.255599e-08	3.089069e-08	0.0004964118	0.001345126	-6.969599e-08	1.448919e-07
	-1.255599e-08	3.089069e-08	-0.000906115	-0.005721303	-4.081476e-10	1.975819e-08	0.0008186719	0.001491716
	0.0004964118	0.001345126	-4.081476e-10	1.975819e-08	-0.001705467	-0.005901535	-1.367407e-08	3.155683e-08
	-6.969599e-08	1.448919e-07	0.0008186719	0.001491716	-1.367407e-08	3.155683e-08	-0.0008484828	-0.005487797
3.7e+08	-0.001311168	-0.003456678	-8.095746e-09	3.337975e-08	0.0003792789	0.002830294	-4.73857e-08	1.57878e-07
	-8.095746e-09	3.337975e-08	-0.0006865529	-0.00336348	7.208011e-10	2.055074e-08	0.0006450831	0.002934354
	0.0003792789	0.002830294	7.208011e-10	2.055074e-08	-0.001315605	-0.003448554	-8.943897e-09	3.418244e-08
	-4.73857e-08	1.57878e-07	0.0006450831	0.002934354	-8.943897e-09	3.418244e-08	-0.0006206088	-0.003124113
3.8e+08	-0.0005904068	-0.001136676	-3.188991e-09	3.51538e-08	0.0005000449	0.004319207	-2.270272e-08	1.673284e-07
	-3.188991e-09	3.51538e-08	-0.000134675	-0.001102847	1.93585e-09	2.116695e-08	0.0006983574	0.004390034
	0.0005000449	0.004319207	1.93585e-09	2.116695e-08	-0.0005693231	-0.001120242	-3.737933e-09	3.604793e-08
	-2.270272e-08	1.673284e-07	0.0006983574	0.004390034	-3.737933e-09	3.604793e-08	-6.027605e-05	-0.000858966
3.9e+08	0.0004576114	0.001011335	2.045343e-09	3.613234e-08	0.0008562868	0.00577231	3.775536e-09	1.728169e-07
	2.045343e-09	3.613234e-08	0.0007289402	0.00101314	3.20744e-09	2.159121e-08	0.0009776352	0.005821214
	0.0008562868	0.00577231	3.20744e-09	2.159121e-08	0.0005083502	0.00103163	1.817306e-09	3.706767e-08
	3.775536e-09	1.728169e-07	0.0009776352	0.005821214	1.817306e-09	3.706767e-08	0.0008116938	0.001260174
4e+08	0.001801198	0.00294102	7.474228e-09	3.625553e-08	0.001439068	0.00715098	3.139662e-08	1.74015e-07
	7.474228e-09	3.625553e-08	0.001876919	0.002940885	4.503289e-09	2.181305e-08	0.001475895	0.007191013
	0.001439068	0.00715098	4.503289e-09	2.181305e-08	0.001884839	0.002959887	7.580347e-09	3.717801e-08
	3.139662e-08	1.74015e-07	0.001475895	0.007191013	7.580347e-09	3.717801e-08	0.001967684	0.003189745
4.1e+08	0.003402075	0.004611568	1.29543e-08	3.548653e-08	0.002233186	0.008418595	5.945011e-08	1.707041e-07
	1.29543e-08	3.548653e-08	0.003275785	0.004641631	5.789317e-09	2.18276e-08	0.00218015	0.008464213
	0.002233186	0.008418595	5.789317e-09	2.18276e-08	0.003520836	0.00462306	1.339877e-08	3.633979e-08
	5.945011e-08	1.707041e-07	0.00218015	0.008464213	1.339877e-08	3.633979e-08	0.003373982	0.004891059
4.2e+08	0.005216322	0.005988622	1.833601e-08	3.381313e-08	0.003217592	0.009541527	8.718678e-08	1.627861e-07
	1.833601e-08	3.381313e-08	0.004886782	0.006082294	7.030641e-09	2.163581e-08	0.003071812	0.00960821
	0.003217592	0.009541527	7.030641e-09	2.163581e-08	0.005371275	0.005986333	1.911363e-08	3.454003e-08
	8.718678e-08	1.627861e-07	0.003071812	0.00960821	1.911363e-08	3.454003e-08	0.004991611	0.006331147
4.3e+08	0.007195443	0.007045058	2.346795e-08	3.124865e-08	0.004365965	0.01049007	1.138394e-07	1.50289e-07
	2.346795e-08	3.124865e-08	0.006666825	0.007236179	8.192597e-09	2.124462e-08	0.004127198	0.0105939
	0.004365965	0.01049007	8.192597e-09	2.124462e-08	0.007386443	0.007022335	2.456404e-08	3.179287e-08
	1.138394e-07	1.50289e-07	0.004127198	0.0105939	2.456404e-08	3.179287e-08	0.006777287	0.007483468
4.4e+08	0.009287545	0.007761575	2.820129e-08	2.783196e-08	0.005647435	0.01123923	1.386442e-07	1.333704e-07
	2.820129e-08	2.783196e-08	0.00856953	0.008083534	9.241752e-09	2.066677e-08	0.005318175	0.01139644
	0.005647435	0.01123923	9.241752e-09	2.066677e-08	0.009513196	0.00771175	2.959192e-08	2.813958e-08
	1.386442e-07	1.333704e-07	0.005318175	0.01139644	2.959192e-08	2.813958e-08	0.008684458	0.008328454
4.5e+08	0.01143859	0.008127111	3.239407e-08	2.362683e-08	0.007027413	0.01176945	1.608631e-07	1.123154e-07
	3.239407e-08	2.362683e-08	0.01054632	0.008611932	1.014688e-08	1.992061e-08	0.006612925	0.01199594
	0.007027413	0.01176945	1.014688e-08	1.992061e-08	0.01169625	0.008043722	3.404651e-08	2.364781e-08
	1.608631e-07	1.123154e-07	0.006612925	0.01199594	3.404651e-08	2.364781e-08	0.01066441	0.008853893
4.6e+08	0.01359368	0.008139041	3.591541e-08	1.872051e-08	0.008468536	0.01206709	1.798049e-07	8.753285e-08
	3.591541e-08	1.872051e-08	0.01254758	0.008816489	1.08799e-08	1.902966e-08	0.007976798	0.01237799
	0.008468536	0.01206709	1.08799e-08	1.902966e-08	0.01387951	0.008016064	3.778884e-08	1.841013e-08
	1.798049e-07	8.753285e-08	0.007976798	0.01237799	3.778884e-08	1.841013e-08	0.01266743	0.009055138
4.7e+08	0.01569841	0.00780316	3.863833e-08	1.321501e-08	0.009931669	0.01212483	1.948192e-07	5.953718e-08
	3.863833e-08	1.321501e-08	0.01452378	0.008699896	1.141548e-08	1.802235e-08	0.009373243	0.012534
	0.009931669	0.01212483	1.141548e-08	1.802235e-08	0.01600742	0.007635249	4.068439e-08	1.253485e-08
	1.948192e-07	5.953718e-08	0.009373243	0.012534	4.068439e-08	1.253485e-08	0.01464395	0.008935097
