!$
! Info: Touchstone file created by Circ.  Input file=Tx_8in_Rx_93ohms_TxVia_35mils_RxVia_45mils.circ
!$
# Hz S RI R 50
0	0.007419465	1.113532e-25	0.9924397	-1.118855e-25	6.177766e-05	1.409001e-23	-5.985644e-05	2.055473e-21
	0.9924397	-1.142464e-25	0.007418349	1.294575e-25	-6.022695e-05	2.100906e-21	6.21979e-05	1.674759e-23
	5.994044e-05	1.44692e-23	-6.035414e-05	2.116568e-21	0.007431993	1.061533e-25	0.9924239	-1.059011e-25
	-6.023537e-05	2.101964e-21	6.035033e-05	1.683014e-23	0.9924239	-1.05712e-25	0.007431496	1.212875e-25
1e+07	0.01084854	-0.0004829275	0.9851736	-0.08514684	0.0002481682	0.001570587	-0.000113881	-8.684096e-05
	0.9851736	-0.08514684	0.01084161	-0.0004832419	-0.0001138905	-8.682627e-05	0.0002453262	0.001571375
	0.0002481083	0.001570591	-0.0001139481	-8.681426e-05	0.01064192	-0.0004861717	0.9853718	-0.0852481
	-0.0001139386	-8.682896e-05	0.000245266	0.001571385	0.9853718	-0.0852481	0.01063387	-0.0004861826
2e+07	0.01275963	-0.0036556	0.9719791	-0.166656	0.0005910534	0.003126932	-6.945309e-05	-0.0002135096
	0.9719791	-0.166656	0.01273237	-0.00365308	-6.948231e-05	-0.0002134972	0.0005801212	0.003130149
	0.0005910409	0.00312697	-6.949304e-05	-0.0002134551	0.01260584	-0.003586671	0.9720994	-0.166932
	-6.946577e-05	-0.0002134665	0.0005801128	0.003130184	0.9720994	-0.166932	0.01257432	-0.003582942
3e+07	0.01339689	-0.007773274	0.9528669	-0.2457878	0.001229314	0.004527576	-8.237418e-05	-0.0002818479
	0.9528669	-0.2457878	0.0133371	-0.007761104	-8.245091e-05	-0.0002817997	0.001205664	0.004536019
	0.001229317	0.004527582	-8.244865e-05	-0.0002817934	0.01328431	-0.007689109	0.9529045	-0.246178
	-8.237197e-05	-0.0002818413	0.001205664	0.004536024	0.9529045	-0.246178	0.01321533	-0.007673696
4e+07	0.01302672	-0.01213593	0.9277297	-0.3226423	0.002118342	0.005767591	-0.0001308409	-0.0003281442
	0.9277297	-0.3226423	0.01292388	-0.01210482	-0.0001309552	-0.0003280382	0.002078112	0.005785085
	0.002118337	0.005767587	-0.0001309621	-0.0003280421	0.01294819	-0.01205267	0.9276753	-0.3231248
	-0.0001308481	-0.0003281487	0.002078106	0.005785083	0.9276753	-0.3231248	0.01282976	-0.01201485
5e+07	0.01176803	-0.01647364	0.8966699	-0.396887	0.003183082	0.006830167	-0.0001694641	-0.0003728357
	0.8966699	-0.396887	0.01161387	-0.01641155	-0.0001696128	-0.0003726529	0.003123403	0.006861459
	0.003183077	0.006830165	-0.0001696181	-0.0003726538	0.01171709	-0.01640084	0.8965143	-0.3974443
	-0.0001694698	-0.0003728367	0.003123399	0.006861458	0.8965143	-0.3974443	0.0115398	-0.01632673
6e+07	0.009712854	-0.02060189	0.8598738	-0.4681242	0.004392231	0.007691276	-0.0002033686	-0.0004225059
	0.8598738	-0.4681242	0.009502199	-0.02049488	-0.0002035401	-0.0004222203	0.004311398	0.00774176
	0.004392235	0.007691276	-0.0002035355	-0.0004222211	0.00968306	-0.02054611	0.8596088	-0.4687398
	-0.0002033635	-0.0004225067	0.0043114	0.007741759	0.8596088	-0.4687398	0.009441057	-0.02041966
7e+07	0.006952287	-0.02437626	0.8175822	-0.5359445	0.005710263	0.008331389	-0.0002381602	-0.000480729
	0.8175822	-0.5359445	0.006683241	-0.02420932	-0.0002383287	-0.0004803158	0.005607824	0.008406846
	0.005710275	0.008331386	-0.0002383153	-0.0004803222	0.006936966	-0.02434213	0.8172007	-0.5366019
	-0.0002381454	-0.0004807358	0.005607832	0.008406843	0.8172007	-0.5366019	0.006628192	-0.02414609
8e+07	0.003584294	-0.02767903	0.7700785	-0.5999468	0.0070986	0.008736691	-0.0002796605	-0.0005488068
	0.7700785	-0.5999468	0.003258264	-0.02743673	-0.0002797884	-0.0005482502	0.006975407	0.008843044
	0.007098615	0.008736684	-0.0002797728	-0.0005482626	0.003576505	-0.02766974	0.7695751	-0.6006288
	-0.0002796434	-0.0005488203	0.006975417	0.008843038	0.7695751	-0.6006288	0.003202681	-0.02738641
9e+07	-0.0002832441	-0.03041376	0.7176819	-0.6597492	0.008516736	0.00889976	-0.0003336057	-0.000626022
	0.7176819	-0.6597492	-0.0006615347	-0.03008088	-0.0003336477	-0.0006253183	0.00837497	0.009042818
	0.008516747	0.008899752	-0.0003336375	-0.0006253305	-0.0002908976	-0.03043148	0.7170534	-0.6604379
	-0.0003335945	-0.0006260353	0.008374977	0.009042812	0.7170534	-0.6604379	-0.0007242544	-0.03004338
1e+08	-0.004520753	-0.03249336	0.6607285	-0.7150081	0.00992339	0.008819566	-0.000405166	-0.0007093954
	0.6607285	-0.7150081	-0.004943252	-0.03205543	-0.0004050729	-0.000708555	0.009766544	0.009004766
	0.00992339	0.008819566	-0.0004050729	-0.000708555	-0.004537993	-0.03254105	0.6599763	-0.7156828
	-0.000405166	-0.0007093954	0.009766544	0.009004766	0.6599763	-0.7156828	-0.00502156	-0.0320316
1.1e+08	-0.008983216	-0.03397324	0.5995764	-0.7652793	0.01127553	0.008504647	-0.0004972439	-0.0007960289
	0.5995764	-0.7652793	-0.009436029	-0.03341796	-0.0004969603	-0.0007950617	0.0111086	0.008736477
	0.01127553	0.008504647	-0.0004969603	-0.0007950617	-0.00902142	-0.03404004	0.5987092	-0.765935
	-0.0004972438	-0.0007960289	0.0111086	0.008736477	0.5987092	-0.765935	-0.00954016	-0.03339446
1.2e+08	-0.01365394	-0.03476676	0.5347487	-0.8103107	0.01253762	0.007968384	-0.0006158379	-0.0008815366
	0.5347487	-0.8103107	-0.01412424	-0.03408425	-0.0006153255	-0.0008804906	0.01236628	0.008250655
	0.01253762	0.007968384	-0.0006153255	-0.0008804906	-0.01371339	-0.03484608	0.5337605	-0.8109362
	-0.0006158379	-0.0008815366	0.01236628	0.008250655	0.5337605	-0.8109362	-0.01425148	-0.03405292
1.3e+08	-0.0183933	-0.03483899	0.4666635	-0.8498628	0.01367391	0.007229503	-0.0007630031	-0.0009586043
	0.4666635	-0.8498628	-0.01886539	-0.03402131	-0.0007622358	-0.000957534	0.01350474	0.007564929
	0.01367391	0.007229503	-0.0007622358	-0.000957534	-0.01847557	-0.03492604	0.4655526	-0.8504434
	-0.0007630031	-0.0009586043	0.01350474	0.007564929	0.4655526	-0.8504434	-0.01901425	-0.03397652
1.4e+08	-0.02307675	-0.03419092	0.395772	-0.8837151	0.01465249	0.006312817	-0.0009390375	-0.001019739
	0.395772	-0.8837151	-0.02353255	-0.033233	-0.0009380022	-0.001018704	0.01449281	0.006702813
	0.01465249	0.006312817	-0.0009380022	-0.001018704	-0.02318287	-0.03428101	0.3945389	-0.8842351
	-0.0009390374	-0.001019739	0.01449281	0.006702813	0.3945389	-0.8842351	-0.023701	-0.03316987
1.5e+08	-0.02758639	-0.03284506	0.3225421	-0.9116821	0.01544628	0.005248078	-0.001142343	-0.001057353
	0.3225421	-0.9116821	-0.02800614	-0.03174544	-0.001141041	-0.001056416	0.01530383	0.005692608
	0.01544628	0.005248078	-0.001141041	-0.001056416	-0.02771664	-0.0329336	0.3211896	-0.9121255
	-0.001142343	-0.001057353	0.01530383	0.005692608	0.3211896	-0.9121255	-0.02819142	-0.03165971
1.6e+08	-0.03181228	-0.0308426	0.2474539	-0.9336154	0.01603368	0.004069029	-0.00136944	-0.001064195
	0.2474539	-0.9336154	-0.03217537	-0.02960385	-0.001367885	-0.001063418	0.01591636	0.004566511
	0.01603368	0.004069029	-0.001367885	-0.001063418	-0.03196621	-0.03092521	0.2459868	-0.9339662
	-0.00136944	-0.001064195	0.01591636	0.004566511	0.2459868	-0.9339662	-0.03237409	-0.02949201
1.7e+08	-0.03565442	-0.02824134	0.1709963	-0.9494048	0.01639914	0.002812381	-0.001615086	-0.001033783
	0.1709963	-0.9494048	-0.03594035	-0.02687027	-0.001613308	-0.001033226	0.01631469	0.003359653
	0.01639914	0.002812381	-0.001613308	-0.001033226	-0.03583095	-0.02831392	0.1694213	-0.9496475
	-0.001615086	-0.001033783	0.01631469	0.003359653	0.1694213	-0.9496475	-0.03614859	-0.0267296
1.8e+08	-0.03902471	-0.02511357	0.09366348	-0.9589789	0.01653352	0.00151675	-0.001872501	-0.0009608058
	0.09366348	-0.9589789	-0.03921394	-0.02362123	-0.001870545	-0.0009605206	0.0164892	0.002109093
	0.01653352	0.00151675	-0.001870545	-0.0009605206	-0.03922216	-0.02517238	0.09198909	-0.9590983
	-0.001872501	-0.0009608058	0.0164892	0.002109093	0.09198909	-0.9590983	-0.0394274	-0.02344986
1.9e+08	-0.04184863	-0.02154392	0.01595176	-0.9623048	0.01643425	0.0002215595	-0.002133674	-0.0008414585
	0.01595176	-0.9623048	-0.04192346	-0.01994533	-0.002131598	-0.0008414876	0.01643655	0.0008527799
	0.01643425	0.0002215595	-0.002131598	-0.0008414876	-0.04206486	-0.02158558	0.0141883	-0.9622866
	-0.002133674	-0.0008414586	0.01643655	0.0008527799	0.0141883	-0.9622866	-0.04213768	-0.01974227
2e+08	-0.04406672	-0.01762692	-0.06164334	-0.959388	0.01610533	-0.001034051	-0.002389742	-0.000673695
	-0.06164334	-0.959388	-0.04401212	-0.01594076	-0.002387612	-0.0006740665	0.01615968	-0.0003714781
	0.01610533	-0.001034051	-0.002387612	-0.0006740665	-0.04429918	-0.01764843	-0.0634839	-0.9592189
	-0.002389742	-0.000673695	0.01615968	-0.0003714781	-0.0634839	-0.9592189	-0.04422256	-0.01570587
2.1e+08	-0.04563571	-0.0134645	-0.1386299	-0.9502721	0.01555717	-0.002212292	-0.002631406	-0.0004573862
	-0.1386299	-0.9502721	-0.04543997	-0.01171256	-0.002629298	-0.0004581119	0.01566768	-0.001527029
	0.01555717	-0.002212292	-0.002629298	-0.0004581119	-0.04588147	-0.01346329	-0.140534	-0.9499398
	-0.002631406	-0.0004573862	0.01566768	-0.001527029	-0.140534	-0.9499398	-0.04564219	-0.01144655
2.2e+08	-0.04652924	-0.009163359	-0.2145223	-0.9350377	0.01480625	-0.003277737	-0.002849385	-0.0001943759
	-0.2145223	-0.9350377	-0.0461846	-0.007369912	-0.002847376	-0.0001954485	0.01497546	-0.002579341
	0.01480625	-0.003277737	-0.002847376	-0.0001954485	-0.04678503	-0.009137304	-0.216475	-0.9345312
	-0.002849385	-0.0001943759	0.01497546	-0.002579341	-0.216475	-0.9345312	-0.0463744	-0.007074271
2.3e+08	-0.04673822	-0.004832289	-0.2888438	-0.9138022	0.0138746	-0.00419826	-0.003034855	0.0001115695
	-0.2888438	-0.9138022	-0.04624132	-0.003023362	-0.00303302	0.0001101765	0.01410334	-0.003496896
	0.0138746	-0.00419826	-0.00303302	0.0001101765	-0.0470005	-0.004779729	-0.2908288	-0.9131119
	-0.003034855	0.0001115695	0.01410334	-0.003496896	-0.2908288	-0.9131119	-0.04641485	-0.002700297
2.4e+08	-0.04627082	-0.000579465	-0.3611292	-0.8867185	0.0127892	-0.004945876	-0.003179868	0.0004549116
	-0.3611292	-0.8867185	-0.04562302	0.001217971	-0.003178275	0.0004532433	0.01307645	-0.004252003
	0.0127892	-0.004945876	-0.003178275	0.0004532433	-0.04653581	-0.0004992545	-0.363129	-0.8858364
	-0.003179868	0.0004549116	0.01307645	-0.004252003	-0.363129	-0.8858364	-0.04577689	0.001565606
2.5e+08	-0.04515201	0.003490175	-0.430927	-0.8539744	0.01158121	-0.005497472	-0.003277727	0.0008285818
	-0.430927	-0.8539744	-0.04435961	0.005249063	-0.003276429	0.0008266999	0.01192404	-0.004821504
	0.01158121	-0.005497472	-0.003276429	0.0008266999	-0.04541575	0.003598631	-0.432923	-0.8528941
	-0.003277727	0.0008285818	0.01192404	-0.004821504	-0.432923	-0.8528941	-0.04449101	0.005617862
2.6e+08	-0.04342281	0.007277502	-0.4978017	-0.8157911	0.01028515	-0.005835409	-0.003323279	0.001224301
	-0.4978017	-0.8157911	-0.04249708	0.008971592	-0.003322315	0.00122228	0.01067871	-0.005187364
	0.01028515	-0.005835409	-0.003322315	0.00122228	-0.04368122	0.007414175	-0.4997747	-0.814508
	-0.003323279	0.001224301	0.01067871	-0.005187364	-0.4997747	-0.814508	-0.04260378	0.00935766
2.7e+08	-0.04113903	0.01069145	-0.5613366	-0.7724223	0.008937953	-0.005947987	-0.003313142	0.001632956
	-0.5613366	-0.7724223	-0.04009607	0.0122962	-0.00331253	0.001630879	0.009375521	-0.005337136
	0.008937953	-0.005947987	-0.00331253	0.001630879	-0.04138801	0.01085573	-0.5632665	-0.7709336
	-0.003313142	0.001632956	0.009375521	-0.005337136	-0.5632665	-0.7709336	-0.0401766	0.01269533
2.8e+08	-0.03836982	0.01365128	-0.6211355	-0.7241528	0.007577968	-0.005829751	-0.003245826	0.002045019
	-0.6211355	-0.7241528	-0.03723033	0.01514472	-0.003245561	0.002042973	0.008051103	-0.00526428
	0.007577968	-0.005829751	-0.003245561	0.002042973	-0.03860536	0.01384194	-0.6230016	-0.7224576
	-0.003245826	0.002045019	0.008051103	-0.00526428	-0.6230016	-0.7224576	-0.03728394	0.01555252
2.9e+08	-0.0351959	0.01608846	-0.6768251	-0.671297	0.006243946	-0.00548165	-0.003121756	0.002450973
	-0.6768251	-0.671297	-0.03398469	0.01745203	-0.00312181	0.00244904	0.006742648	-0.004968341
	0.006243946	-0.00548165	-0.00312181	0.00244904	-0.03541411	0.01630363	-0.6786064	-0.6693966
	-0.003121756	0.002450973	0.006742648	-0.004968341	-0.6786064	-0.6693966	-0.03401143	0.017864
3e+08	-0.0317074	0.01794823	-0.7280573	-0.6141975	0.004973985	-0.004911027	-0.002943196	0.002841734
	-0.7280573	-0.6141975	-0.03045286	0.01916754	-0.002943521	0.002839988	0.005486946	-0.004454972
	0.004973985	-0.004911027	-0.002943521	0.002839988	-0.03190468	0.01818544	-0.7297327	-0.612095
	-0.002943196	0.002841734	0.005486946	-0.004454972	-0.7297327	-0.612095	-0.03045355	0.01957924
3.1e+08	-0.02800164	0.01919092	-0.7745111	-0.5532233	0.003804503	-0.004131443	-0.002714083	0.003209039
	-0.7745111	-0.5532233	-0.02673502	0.02025641	-0.00271461	0.003207538	0.004319392	-0.003735803
	0.003804503	-0.004131443	-0.00271461	0.003207538	-0.02817471	0.01944709	-0.7760595	-0.550924
	-0.002714083	0.003209039	0.004319392	-0.003735803	-0.7760595	-0.550924	-0.02671123	0.02066356
3.2e+08	-0.02418063	0.01979279	-0.815895	-0.4887678	0.002769232	-0.00316234	-0.002439763	0.003545777
	-0.815895	-0.4887678	-0.0229352	0.02070024	-0.00244041	0.003544559	0.003273033	-0.002828154
	0.002769232	-0.00316234	-0.00244041	0.003544559	-0.0243267	0.02006432	-0.8172954	-0.4862789
	-0.002439763	0.003545777	0.003273033	-0.002828154	-0.8172954	-0.4862789	-0.02288924	0.02109888
3.3e+08	-0.02034852	0.01974655	-0.8519485	-0.4212467	0.001898282	-0.002028544	-0.002126678	0.003846249
	-0.8519485	-0.4212467	-0.01915867	0.02049752	-0.002127353	0.00384533	0.00237766	-0.001754596
	0.001898282	-0.002028544	-0.002127352	0.00384533	-0.02046534	0.02002938	-0.8531804	-0.4185777
	-0.002126678	0.003846249	0.00237766	-0.001754596	-0.8531804	-0.4185777	-0.01909351	0.0208841
3.4e+08	-0.016609	0.0190615	-0.8824446	-0.3510959	0.001217281	-0.0007596158	-0.001781986	0.004106345
	-0.8824446	-0.3510959	-0.0155092	0.01966351	-0.001782594	0.004105714	0.001658975	-0.0005423662
	0.001217281	-0.0007596158	-0.001782594	0.004105714	-0.01669494	0.01935114	-0.8834879	-0.3482583
	-0.001781986	0.004106345	0.001658975	-0.0005423663	-0.8834879	-0.3482583	-0.01542843	0.02003502
3.5e+08	-0.0130627	0.01776315	-0.907191	-0.2787688	0.000746632	0.0006109324	-0.00141317	0.00432362
	-0.907191	-0.2787688	-0.01208649	0.01822978	-0.001413621	0.00432324	0.001137858	0.0007773491
	0.000746632	0.0006109324	-0.001413621	0.00432324	-0.01311683	0.01805484	-0.9080266	-0.2757761
	-0.00141317	0.00432362	0.001137858	0.0007773491	-0.9080266	-0.2757761	-0.01199418	0.01858384
3.6e+08	-0.009804638	0.01589256	-0.9260321	-0.2047338	0.000500904	0.002046545	-0.001027631	0.004497277
	-0.9260321	-0.2047338	-0.008983575	0.0162433	-0.001027846	0.004497084	0.0008297603	0.002170249
	0.000500904	0.002046545	-0.001027846	0.004497084	-0.009826792	0.01618137	-0.9266418	-0.2016015
	-0.001027631	0.004497277	0.0008297603	0.002170249	-0.9266418	-0.2016015	-0.008884202	0.01657826
3.7e+08	-0.006921912	0.01350521	-0.9388503	-0.1294711	0.0004883694	0.003508626	-0.0006323114	0.004628047
	-0.9388503	-0.1294711	-0.006284507	0.01376519	-0.0006322308	0.004627957	0.0007442286	0.003599855
	0.0004883693	0.003508626	-0.0006322308	0.004627957	-0.006912708	0.01378614	-0.9392168	-0.1262165
	-0.0006323114	0.004628047	0.0007442286	0.003599855	-0.9392168	-0.1262165	-0.006182804	0.01408015
3.8e+08	-0.004491476	0.01066957	-0.9455668	-0.05346971	0.0007107201	0.004957617	-0.0002333614	0.00471799
	-0.9455668	-0.05346971	-0.004062221	0.01086901	-0.0002329473	0.004717903	0.0008846016	0.005028517
	0.0007107201	0.004957617	-0.0002329473	0.004717903	-0.004452339	0.01093769	-0.9456746	-0.05011217
	-0.0002333614	0.00471799	0.0008846016	0.005028517	-0.9456746	-0.05011217	-0.003963057	0.01116392
3.9e+08	-0.002578257	0.007465275	-0.9461431	0.02277567	0.001162966	0.006354115	0.0001641355	0.004770216
	-0.9461431	0.02277567	-0.00237671	0.007638883	0.0001648919	0.004770019	0.001247871	0.00641847
	0.001162966	0.006354115	0.0001648919	0.004770019	-0.002511413	0.007715868	-0.9459778	0.02621516
	0.0001641355	0.004770216	0.001247871	0.00641847	-0.9459778	0.02621516	-0.002284952	0.007914518
4e+08	-0.001233548	0.003981071	-0.9405812	0.09876821	0.001833526	0.007660005	0.0005563512	0.004788552
	-0.9405812	0.09876821	-0.001273539	0.00416718	0.0005574281	0.004788131	0.001824728	0.007732908
	0.001833526	0.007660005	0.0005574281	0.004788131	-0.001141988	0.004209746	-0.9401303	0.102267
	0.0005563512	0.004788552	0.001824728	0.007732908	-0.9401303	0.102267	-0.0011939	0.00442515
4.1e+08	-0.0004937612	0.0003125185	-0.9289238	0.1740125	0.002704511	0.008839566	0.0009408131	0.004777176
	-0.9289238	0.1740125	-0.0007827351	0.0005521393	0.0009421571	0.00477642	0.002599793	0.008937039
	0.002704511	0.008839566	0.0009421571	0.00477642	-0.0003811965	0.0005153509	-0.9281767	0.1775465
	0.0009408131	0.004777176	0.002599793	0.008937039	-0.9281767	0.1775465	-0.0007196367	0.0007948632
4.2e+08	-0.0003795649	-0.00344047	-0.9112544	0.2480178	0.003752201	0.009860519	0.001316406	0.004740238
	-0.9112544	0.2480178	-0.0009180932	-0.003104736	0.001317934	0.004739053	0.003552023	0.009999093
	0.003752201	0.009860519	0.001317934	0.004739053	-0.0002503511	-0.003266823	-0.9102026	0.2515615
	0.001316406	0.004740238	0.003552023	0.009999093	-0.9102026	0.2515615	-0.0008755303	-0.002874089
4.3e+08	-0.0008954291	-0.007176207	-0.8876969	0.320302	0.004947695	0.01069499	0.00168328	0.004681505
	-0.8876969	0.320302	-0.001676904	-0.006701334	0.001684882	0.004679814	0.004655297	0.01089125
	0.004947695	0.01069499	0.001684882	0.004679814	-0.0007544724	-0.007034394	-0.886334	0.3238287
	0.00168328	0.004681505	0.004655297	0.01089125	-0.886334	0.3238287	-0.001658315	-0.006478916
4.4e+08	-0.002029586	-0.01079382	-0.8584146	0.390395	0.006257728	0.01132033	0.002042666	0.004604027
	-0.8584146	0.390395	-0.003040119	-0.01013758	0.002044212	0.004601783	0.005879153	0.01159045
	0.006257728	0.01132033	0.002044212	0.004601783	-0.001882232	-0.01068571	-0.8567365	0.3938771
	0.002042666	0.004604027	0.005879153	0.01159045	-0.8567365	0.3938771	-0.003048275	-0.009918966
4.5e+08	-0.003754408	-0.01419582	-0.8236089	0.457842	0.007645613	0.01171981	0.002396618	0.004509882
	-0.8236089	0.457842	-0.004972933	-0.01331803	0.002397964	0.004507072	0.007189651	0.01207907
	0.007645613	0.01171981	0.002397964	0.004507072	-0.003606318	-0.01412243	-0.8216142	0.461251
	0.002396618	0.004509882	0.007189651	0.01207907	-0.8216142	0.461251	-0.005009844	-0.01309834
4.6e+08	-0.006027195	-0.01729058	-0.783518	0.5222069	0.009072304	0.01188314	0.002747693	0.004399985
	-0.783518	0.5222069	-0.007425795	-0.01615432	0.002748688	0.00439663	0.008550352	0.01234545
	0.009072304	0.01188314	0.002748688	0.00439663	-0.005884182	-0.01725205	-0.7812078	0.5255139
	0.002747693	0.004399985	0.008550352	0.01234545	-0.7812078	0.5255139	-0.007492611	-0.01592836
4.7e+08	-0.008791332	-0.01999461	-0.7384152	0.5830757	0.01049752	0.01180674	0.003098596	0.004273987
	-0.7384152	0.5830757	-0.01033576	-0.01856741	0.003099097	0.004270148	0.009923368	0.01238422
	0.01049752	0.01180674	0.003099097	0.004270148	-0.008659265	-0.01999012	-0.7357932	0.5862513
	0.003098596	0.004273987	0.009923368	0.01238422	-0.7357932	0.5862513	-0.01043277	-0.01832979
4.8e+08	-0.0119778	-0.02223467	-0.6886063	0.6400588	0.01188092	0.0114939	0.003451812	0.004130277
	-0.6886063	0.6400588	-0.01362824	-0.02048956	0.003451687	0.00412605	0.01127045	0.01219646
	0.01188092	0.0114939	0.003451687	0.00412605	-0.01186243	-0.02226245	-0.6856789	0.6430737
	0.003451812	0.004130277	0.01127045	0.01219646	-0.6856789	0.6430737	-0.01375482	-0.02023486
4.9e+08	-0.015507	-0.02394952	-0.6344273	0.6927942	0.01318325	0.01095468	0.00380924	0.003966072
	-0.6344273	0.6927942	-0.01721893	-0.02186604	0.003808379	0.003961587	0.01255409	0.01178963
	0.01318325	0.01095468	0.003808379	0.003961587	-0.01541379	-0.02400689	-0.6312039	0.6956192
	0.00380924	0.003966072	0.01255409	0.01178963	-0.6312039	0.6956192	-0.01737354	-0.02158894
5e+08	-0.01929081	-0.02509145	-0.5762421	0.7409496	0.01436751	0.01020561	0.00417187	0.003777604
	-0.5762421	0.7409496	-0.02101613	-0.0226564	0.004170197	0.003773016	0.01373858	0.01117739
	0.01436751	0.01020561	0.004170197	0.003773016	-0.01922479	-0.02517483	-0.5727347	0.7435561
	0.00417187	0.003777604	0.01373858	0.01117739	-0.5727347	0.7435561	-0.02119633	-0.02235188
