!$
! Info: Touchstone file created by Circ.  Input file=Tx_8in_Rx_100ohms_TxVia_35mils_RxVia_45mils.circ
!$
# Hz S RI R 50
0	0.008380901	1.098099e-25	-4.329097e-05	3.827349e-24	6.280419e-05	1.567985e-23	-4.330298e-05	5.354311e-24
	-4.329098e-05	3.828899e-24	0.00837867	1.294074e-25	-4.32711e-05	1.502812e-24	6.216802e-05	1.893206e-23
	6.331322e-05	1.589909e-23	-4.327108e-05	1.500122e-24	0.008393106	1.066972e-25	-4.32888e-05	3.730743e-24
	-4.330299e-05	5.35538e-24	6.032026e-05	1.902533e-23	-4.328882e-05	3.732951e-24	0.008391802	1.21242e-25
1e+07	0.01143652	0.005748087	-6.885937e-05	-2.983633e-05	0.0002195372	0.001537201	-0.0001854299	0.0001053544
	-6.885937e-05	-2.983633e-05	0.01225224	0.005558647	-2.495935e-05	-1.057154e-05	0.0005017233	0.001581726
	0.0002195669	0.001537196	-2.495935e-05	-1.057154e-05	0.0119039	0.005536774	-7.438161e-06	-1.071025e-05
	-0.0001854299	0.0001053544	0.0005016629	0.001581736	-7.438159e-06	-1.071025e-05	0.01214363	0.005577734
2e+07	0.01539284	0.008761674	-3.954388e-05	-6.278029e-05	0.0005981219	0.003057412	-0.0002176349	9.826541e-05
	-3.954388e-05	-6.278028e-05	0.01581813	0.008174332	-2.002333e-05	-1.154664e-05	0.0007723846	0.003251177
	0.0005981232	0.00305739	-2.002333e-05	-1.154664e-05	0.01554052	0.008269871	-7.467214e-06	1.190418e-06
	-0.0002176349	9.826541e-05	0.0007723757	0.003251212	-7.467214e-06	1.190416e-06	0.01574543	0.008252796
3e+07	0.01883976	0.01006679	-2.323904e-05	-7.372691e-05	0.001212257	0.004459817	-0.0002416263	0.0001066447
	-2.323904e-05	-7.37269e-05	0.018946	0.009396851	-1.668826e-05	-1.220073e-05	0.001304058	0.004708561
	0.00121225	0.004459815	-1.668826e-05	-1.220073e-05	0.01874251	0.009529914	-9.04637e-06	3.362674e-07
	-0.0002416263	0.0001066447	0.001304058	0.004708566	-9.046371e-06	3.362674e-07	0.01890429	0.009500494
4e+07	0.02202304	0.01052214	-5.369692e-05	-6.399644e-05	0.002040083	0.005727542	-0.0002619468	0.000117623
	-5.369692e-05	-6.399644e-05	0.02185188	0.009874072	-1.404429e-05	-1.245101e-05	0.002083065	0.00600731
	0.002040083	0.005727546	-1.404429e-05	-1.245101e-05	0.02172891	0.01001729	-1.133884e-05	-1.100046e-06
	-0.0002619468	0.000117623	0.002083059	0.006007308	-1.133884e-05	-1.100045e-06	0.02183863	0.009991944
5e+07	0.02498563	0.01033233	-7.802864e-05	-4.699433e-05	0.003054579	0.006831139	-0.0002799753	0.0001302961
	-7.802864e-05	-4.699433e-05	0.02457291	0.009773489	-1.177882e-05	-1.253874e-05	0.003181566	0.007076596
	0.003054581	0.006831141	-1.177882e-05	-1.253874e-05	0.02453599	0.009905623	-1.388118e-05	-1.573636e-06
	-0.0002799753	0.0001302961	0.003181562	0.007076595	-1.388118e-05	-1.573636e-06	0.02458566	0.009898368
6e+07	0.02771879	0.009602894	-9.644344e-05	-2.464912e-05	0.004224689	0.007744427	-0.0002963516	0.0001443685
	-9.644344e-05	-2.464912e-05	0.0271014	0.009185229	-9.709753e-06	-1.255019e-05	0.004411208	0.007941752
	0.004224688	0.007744426	-9.709753e-06	-1.255019e-05	0.02715269	0.009285247	-1.653229e-05	-1.201178e-06
	-0.0002963516	0.0001443685	0.00441121	0.007941751	-1.653229e-05	-1.201178e-06	0.02713742	0.009311552
7e+07	0.03019531	0.008407321	-0.0001087703	1.814237e-06	0.005526544	0.008439137	-0.0003115511	0.0001594913
	-0.0001087703	1.814237e-06	0.02941294	0.008172436	-9.028554e-06	-1.166377e-05	0.00573912	0.008587304
	0.005526538	0.008439137	-9.028553e-06	-1.166377e-05	0.02955111	0.008219833	-1.911326e-05	-2.877705e-08
	-0.0003115511	0.0001594913	0.005739128	0.008587301	-1.911326e-05	-2.877736e-08	0.02946907	0.008295684
8e+07	0.03238168	0.00680766	-0.0001145956	3.152826e-05	0.006912743	0.008904075	-0.0003262213	0.0001751041
	-0.0001145956	3.152826e-05	0.03147779	0.006789448	-1.111072e-05	-8.257672e-06	0.007129241	0.00900184
	0.006912735	0.008904076	-1.111072e-05	-8.257672e-06	0.03169807	0.006764495	-2.145608e-05	1.881699e-06
	-0.0003262213	0.0001751041	0.007129251	0.009001835	-2.145608e-05	1.881699e-06	0.03155042	0.006905916
9e+07	0.03424317	0.004861851	-0.0001131132	6.400686e-05	0.008342001	0.009132238	-0.0003417129	0.0001901444
	-0.0001131132	6.400686e-05	0.03326734	0.005089238	-1.220585e-05	-4.428512e-06	0.008542978	0.009178735
	0.008341995	0.00913224	-1.220585e-05	-4.428512e-06	0.03356135	0.004973115	-2.345383e-05	4.418543e-06
	-0.0003417129	0.0001901444	0.008542986	0.00917873	-2.345383e-05	4.418543e-06	0.03335222	0.005195877
1e+08	0.03574174	0.002622877	-0.0001005703	0.0001011104	0.009778407	0.009123895	-0.0003641824	0.0001995628
	-0.0001005703	0.0001011104	0.03476745	0.003134239	-1.178589e-05	5.803712e-08	0.009935885	0.009113068
	0.009778407	0.009123894	-1.178589e-05	5.803712e-08	0.03512206	0.00290834	-2.51321e-05	7.404701e-06
	-0.0003641824	0.0001995628	0.009935885	0.009113068	-2.51321e-05	7.404701e-06	0.03485864	0.003227703
1.1e+08	0.03684327	0.0001823126	-7.559479e-05	0.0001199418	0.01118623	0.008861774	-0.0003673445	0.0001915491
	-7.559479e-05	0.0001199418	0.03597511	0.0008867047	-9.348404e-06	2.333829e-06	0.011261	0.008846069
	0.01118623	0.008861774	-9.348404e-06	2.333829e-06	0.03637013	0.000542526	-2.585559e-05	1.025835e-05
	-0.0003673445	0.0001915491	0.011261	0.008846069	-2.585559e-05	1.025835e-05	0.03606595	0.000972314
1.2e+08	0.03756551	-0.002405633	-7.378496e-05	0.0001184336	0.01250621	0.008366456	-0.0003623553	0.0001931513
	-7.378496e-05	0.0001184336	0.03678284	-0.00154874	-7.579129e-06	3.852391e-06	0.01251795	0.008373709
	0.01250621	0.008366456	-7.579129e-06	3.852391e-06	0.03720516	-0.002019185	-2.564915e-05	1.348911e-05
	-0.0003623553	0.0001931513	0.01251795	0.008373709	-2.564915e-05	1.348911e-05	0.03687311	-0.001468913
1.3e+08	0.03789059	-0.005089733	-7.004014e-05	0.0001188847	0.01370608	0.007659715	-0.0003546764	0.00019761
	-7.004014e-05	0.0001188847	0.03719394	-0.004096896	-5.986247e-06	4.903042e-06	0.01366681	0.007704814
	0.01370608	0.007659715	-5.986247e-06	4.903042e-06	0.03762697	-0.004700703	-2.464203e-05	1.68083e-05
	-0.0003546764	0.00019761	0.01366681	0.007704815	-2.464203e-05	1.68083e-05	0.03728226	-0.004021745
1.4e+08	0.03781278	-0.007812139	-6.494012e-05	0.000120232	0.01475399	0.006765611	-0.0003454682	0.0002031753
	-6.494012e-05	0.000120232	0.03720746	-0.006695429	-4.501124e-06	5.62431e-06	0.01467523	0.006859044
	0.01475399	0.006765611	-4.501124e-06	5.62431e-06	0.0376326	-0.0074369	-2.287455e-05	2.000421e-05
	-0.0003454682	0.0002031753	0.01467523	0.006859044	-2.287455e-05	2.000421e-05	0.03729249	-0.00662377
1.5e+08	0.03733425	-0.01051431	-5.876783e-05	0.0001218859	0.01562194	0.005712673	-0.0003354085	0.0002089508
	-5.876783e-05	0.0001218859	0.03682785	-0.009284796	-3.101523e-06	6.085678e-06	0.01551541	0.005861738
	0.01562194	0.005712673	-3.101523e-06	6.085678e-06	0.03722526	-0.01016483	-2.041311e-05	2.288888e-05
	-0.0003354085	0.0002089508	0.01551541	0.005861738	-2.041311e-05	2.288888e-05	0.03690848	-0.009215337
1.6e+08	0.03646498	-0.0131385	-5.173346e-05	0.0001234493	0.01628683	0.004533449	-0.0003250339	0.0002144393
	-5.173346e-05	0.0001234493	0.0360661	-0.01180774	-1.78063e-06	6.330354e-06	0.01616446	0.004742674
	0.01628683	0.004533449	-1.78063e-06	6.330354e-06	0.03641543	-0.01282352	-1.735809e-05	2.529917e-05
	-0.0003250339	0.0002144393	0.01616446	0.004742674	-1.735809e-05	2.529917e-05	0.03614147	-0.01173913
1.7e+08	0.0352226	-0.01562891	-4.403252e-05	0.0001246376	0.01673112	0.003263727	-0.0003148179	0.0002193998
	-4.403252e-05	0.0001246376	0.03494	-0.01420972	-5.383187e-07	6.38889e-06	0.01660485	0.003535068
	0.01673112	0.003263727	-5.383187e-07	6.38889e-06	0.03522115	-0.01535452	-1.384152e-05	2.710262e-05
	-0.0003148179	0.0002193998	0.01660485	0.003535068	-1.384152e-05	2.710262e-05	0.03500951	-0.01414058
1.8e+08	0.03363228	-0.01793283	-3.586178e-05	0.0001252485	0.01694339	0.001941607	-0.0003051831	0.0002237832
	-3.586178e-05	0.0001252485	0.03347415	-0.01643957	6.225423e-07	6.285063e-06	0.01682484	0.002274598
	0.01694339	0.001941607	6.225423e-07	6.285063e-06	0.03366799	-0.01770283	-1.002071e-05	2.820343e-05
	-0.0003051831	0.0002237832	0.01682484	0.002274598	-1.002071e-05	2.820343e-05	0.03353741	-0.01636856
1.9e+08	0.03172627	-0.02000169	-2.741684e-05	0.0001251519	0.01691862	0.0006064878	-0.0002964931	0.0002276951
	-2.741684e-05	0.0001251519	0.03169959	-0.01845041	1.131788e-06	6.016973e-06	0.0168188	0.0009983885
	0.01691862	0.0006064878	1.131788e-06	6.016973e-06	0.03178877	-0.01981785	-6.064432e-06	2.855094e-05
	-0.0002964931	0.0002276951	0.0168188	0.0009983885	-6.064432e-06	2.855094e-05	0.03175642	-0.01837618
2e+08	0.02954337	-0.02179211	-1.889932e-05	0.0001242717	0.01665831	-0.0007019908	-0.0002890372	0.0002313655
	-1.889932e-05	0.0001242717	0.02965334	-0.02020043	1.195568e-06	5.726285e-06	0.01658729	-0.0002560103
	0.01665831	-0.0007019908	1.195568e-06	5.726285e-06	0.02962296	-0.02165436	-2.154305e-06	2.81314e-05
	-0.0002890372	0.0002313655	0.01658729	-0.0002560103	-2.154305e-06	2.81314e-05	0.02970377	-0.02012168
2.1e+08	0.02712813	-0.02326682	-1.050811e-05	0.0001225862	0.01617049	-0.001945019	-0.0002830139	0.0002351227
	-1.050811e-05	0.0001225862	0.02737773	-0.02165371	1.255893e-06	5.460933e-06	0.01613707	-0.001451658
	0.01617049	-0.001945019	1.255893e-06	5.460933e-06	0.02721597	-0.02317351	1.52791e-06	2.697474e-05
	-0.0002830139	0.0002351227	0.01613707	-0.001451658	1.52791e-06	2.697474e-05	0.02742195	-0.02156919
2.2e+08	0.02453001	-0.0243955	-2.423526e-06	0.0001201275	0.01546945	-0.003085672	-0.0002785161	0.0002393644
	-2.423526e-06	0.0001201275	0.02491958	-0.02278092	1.310296e-06	5.218644e-06	0.01548091	-0.002553235
	0.01546945	-0.003085672	1.310296e-06	5.218644e-06	0.02461828	-0.02434356	4.818046e-06	2.515634e-05
	-0.0002785161	0.0002393644	0.01548091	-0.002553235	4.818046e-06	2.515634e-05	0.02495793	-0.02268945
2.3e+08	0.02180229	-0.02515544	5.197094e-06	0.0001169704	0.01457539	-0.004089913	-0.0002755213	0.0002445279
	5.197094e-06	0.0001169704	0.02232921	-0.02355995	1.357446e-06	4.998524e-06	0.01463723	-0.003528004
	0.01457539	-0.004089913	1.357446e-06	4.998524e-06	0.02188435	-0.02514065	7.575351e-06	2.278888e-05
	-0.0002755213	0.0002445279	0.01463723	-0.003528004	7.575351e-06	2.278888e-05	0.02236224	-0.02346041
2.4e+08	0.01900096	-0.02553208	1.222584e-05	0.0001132253	0.01351385	-0.004927534	-0.0002738867	0.0002510624
	1.222584e-05	0.0001132253	0.01965942	-0.0239763	1.396883e-06	4.800711e-06	0.01362958	-0.004346712
	0.01351385	-0.004927534	1.396883e-06	4.800711e-06	0.01907143	-0.02554928	9.690736e-06	2.001567e-05
	-0.0002738867	0.0002510624	0.01362958	-0.004346712	9.690736e-06	2.001567e-05	0.01968783	-0.02386769
2.5e+08	0.01618346	-0.02551931	1.857087e-05	0.000109029	0.01231501	-0.005572976	-0.0002733495	0.0002593966
	1.857087e-05	0.000109029	0.01696438	-0.02402342	1.429349e-06	4.625899e-06	0.01248603	-0.004984387
	0.01231501	-0.005572976	1.429349e-06	4.625899e-06	0.01623835	-0.02556268	1.109315e-05	1.700193e-05
	-0.0002733495	0.0002593966	0.01248603	-0.004984387	1.109315e-05	1.700193e-05	0.01698901	-0.02390484
2.6e+08	0.01340745	-0.02511964	2.41798e-05	0.0001045347	0.01101288	-0.006006043	-0.0002735342	0.0002699108
	2.41798e-05	0.0001045347	0.01429841	-0.02370279	1.456571e-06	4.475032e-06	0.01123839	-0.005421027
	0.01101288	-0.006006043	1.456571e-06	4.475032e-06	0.01344417	-0.02518298	1.175376e-05	1.392505e-05
	-0.0002735342	0.0002699108	0.01123839	-0.005421027	1.175376e-05	1.392505e-05	0.01432026	-0.0235735
2.7e+08	0.01072949	-0.02434419	2.904169e-05	9.990136e-05	0.009644319	-0.006212461	-0.0002739659	0.0002829091
	2.904169e-05	9.990136e-05	0.01171484	-0.0230239	1.481299e-06	4.348901e-06	0.009921334	-0.005642152
	0.009644319	-0.006212461	1.481299e-06	4.348901e-06	0.01074687	-0.02442114	1.168757e-05	1.096387e-05
	-0.0002739659	0.0002829091	0.009921334	-0.005642152	1.168757e-05	1.096387e-05	0.01173501	-0.02288333
2.8e+08	0.008203775	-0.02321235	3.31861e-05	9.528411e-05	0.008248078	-0.006184272	-0.0002740882	0.0002985989
	3.31861e-05	9.528411e-05	0.00926485	-0.02200396	1.50709e-06	4.247906e-06	0.008571463	-0.005639205
	0.008248078	-0.006184272	1.50709e-06	4.247906e-06	0.008202018	-0.02329671	1.095254e-05	8.288115e-06
	-0.0002740882	0.0002985989	0.008571463	-0.005639205	1.095254e-05	8.288115e-06	0.009284532	-0.02185174
2.9e+08	0.005880903	-0.02175143	3.668029e-05	9.082363e-05	0.006863676	-0.005920066	-0.0002732869	0.0003170706
	3.668029e-05	9.082363e-05	0.006996303	-0.02066754	1.538171e-06	4.171721e-06	0.007226284	-0.005409785
	0.006863676	-0.005920066	1.538171e-06	4.171721e-06	0.005861507	-0.02183736	9.646065e-06	6.048205e-06
	-0.0002732869	0.0003170706	0.007226284	-0.005409785	9.646065e-06	6.048205e-06	0.007016745	-0.0205035
3e+08	0.00380672	-0.01999601	3.962405e-05	8.663745e-05	0.005530329	-0.005425018	-0.0002709167	0.0003382845
	3.962405e-05	8.663745e-05	0.004952729	-0.01904596	1.579204e-06	4.119057e-06	0.005923192	-0.004957721
	0.005530329	-0.005425018	1.579204e-06	4.119057e-06	0.003772356	-0.02007826	7.899045e-06	4.366167e-06
	-0.0002709167	0.0003382845	0.005923192	-0.004957721	7.899045e-06	4.366167e-06	0.004975204	-0.01887015
3.1e+08	0.002021286	-0.0179871	4.214258e-05	8.281315e-05	0.004285855	-0.00471075	-0.0002663294	0.0003620671
	4.214258e-05	8.281315e-05	0.003172369	-0.01717655	1.634944e-06	4.087571e-06	0.004698439	-0.004292968
	0.004285855	-0.00471075	1.634944e-06	4.087571e-06	0.001975639	-0.01806121	5.868174e-06	3.328476e-06
	-0.0002663294	0.0003620671	0.004698439	-0.004292968	5.868174e-06	3.328476e-06	0.003198128	-0.01698923
3.2e+08	0.0005579352	-0.01577122	4.437793e-05	7.940264e-05	0.003165618	-0.003795008	-0.0002589043	0.0003881085
	4.437793e-05	7.940264e-05	0.001687324	-0.01510178	1.709934e-06	4.073746e-06	0.003586132	-0.003431329
	0.003165618	-0.003795008	1.709934e-06	4.073746e-06	0.0005055269	-0.0158337	3.726408e-06	2.980738e-06
	-0.0002589043	0.0003881085	0.003586132	-0.003431329	3.726408e-06	2.980738e-06	0.001717567	-0.01490347
3.3e+08	-0.0005574657	-0.01339935	4.647952e-05	7.641919e-05	0.002201553	-0.002701174	-0.0002480784	0.0004159696
	4.647952e-05	7.641919e-05	0.0005228875	-0.01286832	1.808155e-06	4.072915e-06	0.002617302	-0.00239402
	0.002201553	-0.002701174	1.808155e-06	4.072915e-06	-0.0006114864	-0.01344777	1.652452e-06	3.324882e-06
	-0.0002480784	0.0004159696	0.002617302	-0.00239402	1.652452e-06	3.324882e-06	0.0005587082	-0.01265971
3.4e+08	-0.00130711	-0.01092563	4.859431e-05	7.383723e-05	0.001421267	-0.001457616	-0.0002333707	0.000445098
	4.859431e-05	7.383723e-05	-0.0003030008	-0.01052586	1.932687e-06	4.079448e-06	0.001819046	-0.001207091
	0.001421267	-0.001457616	1.932687e-06	4.079448e-06	-0.001357193	-0.01095876	-1.797007e-07	4.319227e-06
	-0.0002333707	0.000445098	0.001819046	-0.001207091	-1.797007e-07	4.319227e-06	-0.0002606382	-0.01030785
3.5e+08	-0.001681644	-0.008406224	5.085696e-05	7.159375e-05	0.0008472845	-9.689639e-05	-0.0002144081	0.0004748435
	5.085696e-05	7.159375e-05	-0.0007801143	-0.008126066	2.08544e-06	4.08693e-06	0.001213789	9.930153e-05
	0.0008472845	-9.689638e-05	2.08544e-06	4.08693e-06	-0.001722068	-0.008424022	-1.612943e-06	5.880236e-06
	-0.0002144081	0.0004748435	0.001213789	9.930152e-05	-1.612943e-06	5.880236e-06	-0.0007304156	-0.00789971
3.6e+08	-0.001680356	-0.005897882	5.338111e-05	6.959284e-05	0.0004964118	0.001345126	-0.0001909459	0.000504482
	5.338111e-05	6.959284e-05	-0.000906115	-0.005721303	2.262849e-06	4.086155e-06	0.0008186719	0.001491716
	0.0004964118	0.001345126	2.262849e-06	4.086155e-06	-0.001705467	-0.005901535	-2.052079e-06	8.016433e-06
	-0.0001909459	0.000504482	0.0008186719	0.001491716	-2.052079e-06	8.016433e-06	-0.0008484828	-0.005487797
3.7e+08	-0.001311168	-0.003456678	5.625146e-05	6.771155e-05	0.0003792789	0.002830294	-0.0001628714	0.0005332483
	5.625146e-05	6.771155e-05	-0.0006865529	-0.00336348	2.467038e-06	4.072709e-06	0.0006450831	0.002934354
	0.0003792789	0.002830294	2.467038e-06	4.072709e-06	-0.001315605	-0.003448554	-1.752608e-06	1.039458e-05
	-0.0001628714	0.0005332483	0.0006450831	0.002934354	-1.752608e-06	1.039458e-05	-0.0006206088	-0.003124113
3.8e+08	-0.0005904068	-0.001136676	5.951809e-05	6.580802e-05	0.0005000449	0.004319207	-0.0001302202	0.0005603588
	5.951809e-05	6.580802e-05	-0.000134675	-0.001102847	2.69628e-06	4.040292e-06	0.0006983574	0.004390034
	0.0005000449	0.004319207	2.69628e-06	4.040292e-06	-0.0005693231	-0.001120242	-7.530145e-07	1.281264e-05
	-0.0001302202	0.0005603588	0.0006983574	0.004390034	-7.530145e-07	1.281264e-05	-6.027605e-05	-0.000858966
3.9e+08	0.0004576114	0.001011335	6.319273e-05	6.373049e-05	0.0008562868	0.00577231	-9.317347e-05	0.0005850433
	6.319273e-05	6.373049e-05	0.0007289402	0.00101314	2.946551e-06	3.982749e-06	0.0009776352	0.005821214
	0.0008562868	0.00577231	2.946551e-06	3.982749e-06	0.0005083502	0.00103163	9.549917e-07	1.509188e-05
	-9.317347e-05	0.0005850433	0.0009776352	0.005821214	9.549917e-07	1.509188e-05	0.0008116938	0.001260174
4e+08	0.001801198	0.00294102	6.724721e-05	6.132694e-05	0.001439068	0.00715098	-5.205346e-05	0.000606575
	6.724721e-05	6.132694e-05	0.001876919	0.002940885	3.212507e-06	3.894947e-06	0.001475895	0.007191013
	0.001439068	0.00715098	3.212507e-06	3.894947e-06	0.001884839	0.002959887	3.335604e-06	1.705495e-05
	-5.205346e-05	0.000606575	0.001475895	0.007191013	3.335604e-06	1.705495e-05	0.001967684	0.003189745
4.1e+08	0.003402075	0.004611568	7.161456e-05	5.845498e-05	0.002233186	0.008418595	-7.308612e-06	0.0006242974
	7.161456e-05	5.845498e-05	0.003275785	0.004641631	3.487781e-06	3.773083e-06	0.00218015	0.008464213
	0.002233186	0.008418595	3.487781e-06	3.773083e-06	0.003520836	0.00462306	6.310622e-06	1.853649e-05
	-7.308612e-06	0.0006242974	0.00218015	0.008464213	6.310622e-06	1.853649e-05	0.003373982	0.004891059
4.2e+08	0.005216322	0.005988622	7.619222e-05	5.499096e-05	0.003217592	0.009541527	4.05045e-05	0.0006376477
	7.619222e-05	5.499096e-05	0.004886782	0.006082294	3.76533e-06	3.614897e-06	0.003071812	0.00960821
	0.003217592	0.009541527	3.76533e-06	3.614897e-06	0.005371275	0.005986333	9.763398e-06	1.939301e-05
	4.05045e-05	0.0006376477	0.003071812	0.00960821	9.763398e-06	1.939301e-05	0.004991611	0.006331147
4.3e+08	0.007195443	0.007045058	8.084744e-05	5.08382e-05	0.004365965	0.01049007	9.074193e-05	0.0006461759
	8.084744e-05	5.08382e-05	0.006666825	0.007236179	4.03783e-06	3.419774e-06	0.004127198	0.0105939
	0.004365965	0.01049007	4.03783e-06	3.419774e-06	0.007386443	0.007022335	1.354501e-05	1.951154e-05
	9.074193e-05	0.0006461759	0.004127198	0.0105939	1.354501e-05	1.951154e-05	0.006777287	0.007483468
4.4e+08	0.009287545	0.007761575	8.542449e-05	4.59336e-05	0.005647435	0.01123923	0.0001426982	0.0006495576
	8.542449e-05	4.59336e-05	0.00856953	0.008083534	4.298082e-06	3.188752e-06	0.005318175	0.01139644
	0.005647435	0.01123923	4.298082e-06	3.188752e-06	0.009513196	0.00771175	1.748245e-05	1.881661e-05
	0.0001426982	0.0006495576	0.005318175	0.01139644	1.748245e-05	1.881661e-05	0.008684458	0.008328454
4.5e+08	0.01143859	0.008127111	8.975328e-05	4.025238e-05	0.007027413	0.01176945	0.0001956306	0.0006476044
	8.975328e-05	4.025238e-05	0.01054632	0.008611932	4.539404e-06	2.924419e-06	0.006612925	0.01199594
	0.007027413	0.01176945	4.539404e-06	2.924419e-06	0.01169625	0.008043722	2.138815e-05	1.727496e-05
	0.0001956306	0.0006476044	0.006612925	0.01199594	2.138815e-05	1.727496e-05	0.01066441	0.008853893
4.6e+08	0.01359368	0.008139041	9.365979e-05	3.381057e-05	0.008468536	0.01206709	0.0002487087	0.0006403119
	9.365979e-05	3.381057e-05	0.01254758	0.008816489	4.75598e-06	2.630723e-06	0.007976798	0.01237799
	0.008468536	0.01206709	4.75598e-06	2.630723e-06	0.01387951	0.008016064	2.507131e-05	1.489782e-05
	0.0002487087	0.0006403119	0.007976798	0.01237799	2.507131e-05	1.489782e-05	0.01266743	0.009055138
4.7e+08	0.01569841	0.00780316	9.685008e-05	2.668432e-05	0.009931669	0.01212483	0.0003121441	0.0006201704
	9.685008e-05	2.668432e-05	0.01452378	0.008699896	4.9433e-06	2.312466e-06	0.009373243	0.012534
	0.009931669	0.01212483	4.9433e-06	2.312466e-06	0.01600742	0.007635249	2.822329e-05	1.176096e-05
	0.0003121441	0.0006201704	0.009373243	0.012534	2.822329e-05	1.176096e-05	0.01464395	0.008935097
