!$
! Info: Touchstone file created by Circ.  Input file=Tx_8in_Rx_93ohms_TxVia_35mils_RxVia_45mils.circ
!$
# Hz S RI R 50
0	0.007420562	1.098562e-25	-4.328117e-05	3.831168e-24	6.283555e-05	1.387112e-23	-4.329321e-05	5.359605e-24
	-4.328118e-05	3.832718e-24	0.007418349	1.294575e-25	-4.326127e-05	1.504376e-24	6.21979e-05	1.674759e-23
	6.334481e-05	1.406507e-23	-4.326124e-05	1.501686e-24	0.007432813	1.067419e-25	-4.3279e-05	3.734464e-24
	-4.329321e-05	5.360673e-24	6.035033e-05	1.683014e-23	-4.327902e-05	3.736671e-24	0.007431496	1.212875e-25
1e+07	0.01100624	-1.571627e-06	-0.0002129929	-5.577419e-05	0.0002377516	0.001442385	-0.0001183712	0.0001011571
	-0.0002129929	-5.577419e-05	0.01084161	-0.0004832419	-2.712251e-06	-6.604322e-06	0.0002453262	0.001571375
	0.0002377812	0.00144238	-2.712252e-06	-6.604323e-06	0.01025854	-0.0004029718	-1.194645e-05	4.864935e-07
	-0.0001183712	0.0001011571	0.000245266	0.001571385	-1.194645e-05	4.864925e-07	0.01063387	-0.0004861826
2e+07	0.01337982	-0.002950812	-0.0002181317	4.490144e-06	0.0006622423	0.002892031	-0.0001465641	0.0001176635
	-0.0002181317	4.490147e-06	0.01273237	-0.00365308	-3.413574e-06	-3.928564e-06	0.0005801212	0.003130149
	0.0006622433	0.002892009	-3.413575e-06	-3.928562e-06	0.0123858	-0.003315205	-4.121046e-06	-2.117211e-05
	-0.0001465641	0.0001176635	0.0005801128	0.003130184	-4.121047e-06	-2.117211e-05	0.01257432	-0.003582942
3e+07	0.01437166	-0.007086729	-0.0002202878	3.721189e-05	0.001306988	0.004249555	-0.0001620634	0.0001367687
	-0.0002202878	3.721189e-05	0.0133371	-0.007761104	-7.939234e-06	-5.606264e-06	0.001205664	0.004536019
	0.001306981	0.004249553	-7.939233e-06	-5.606264e-06	0.01319526	-0.007366595	-1.684143e-05	-2.53235e-05
	-0.0001620634	0.0001367687	0.001205664	0.004536024	-1.684143e-05	-2.53235e-05	0.01321533	-0.007673696
4e+07	0.01428428	-0.0115654	-0.0002191036	6.681779e-05	0.00215681	0.005477825	-0.0001704179	0.0001530418
	-0.0002191036	6.681779e-05	0.01292388	-0.01210482	-1.157456e-05	-5.121104e-06	0.002078112	0.005785085
	0.00215681	0.005477829	-1.157456e-05	-5.121104e-06	0.01297131	-0.01172197	-2.800211e-05	-2.476113e-05
	-0.0001704179	0.0001530418	0.002078106	0.005785083	-2.800211e-05	-2.476113e-05	0.01282976	-0.01201485
5e+07	0.0132459	-0.01608229	-0.0002153089	9.404874e-05	0.00318698	0.006543264	-0.0001742075	0.0001660149
	-0.0002153089	9.404874e-05	0.01161387	-0.01641155	-1.446468e-05	-3.482942e-06	0.003123403	0.006861459
	0.003186982	0.006543265	-1.446468e-05	-3.482942e-06	0.01183642	-0.01608866	-3.774547e-05	-2.115233e-05
	-0.0001742075	0.0001660149	0.003123399	0.006861458	-3.774547e-05	-2.115233e-05	0.0115398	-0.01632673
6e+07	0.01135133	-0.02043429	-0.0002163314	0.0001058558	0.004367036	0.007418062	-0.000175387	0.0001753535
	-0.0002163314	0.0001058558	0.009502199	-0.02049488	-1.670011e-05	-1.031239e-06	0.004311398	0.00774176
	0.004367035	0.007418062	-1.670011e-05	-1.031239e-06	0.009883214	-0.02027189	-4.600819e-05	-1.516936e-05
	-0.000175387	0.0001753535	0.0043114	0.007741759	-4.600819e-05	-1.516936e-05	0.009441057	-0.02041966
7e+07	0.008691858	-0.02446441	-0.000216749	0.0001182731	0.005662446	0.008080536	-0.0001756864	0.0001806709
	-0.000216749	0.0001182731	0.006683241	-0.02420932	-1.823064e-05	1.99679e-06	0.005607824	0.008406846
	0.00566244	0.008080535	-1.823064e-05	1.99679e-06	0.007202262	-0.0241209	-5.261187e-05	-7.197431e-06
	-0.0001756864	0.0001806709	0.005607832	0.008406843	-5.261187e-05	-7.197431e-06	0.006628192	-0.02414609
8e+07	0.005363846	-0.02804594	-0.000216689	0.0001310306	0.007035919	0.00851566	-0.000177039	0.0001816183
	-0.000216689	0.0001310306	0.003258264	-0.02743673	-1.901511e-05	5.479199e-06	0.006975407	0.008843044
	0.007035912	0.008515662	-1.901511e-05	5.479198e-06	0.003890343	-0.02751355	-5.729494e-05	2.499532e-06
	-0.000177039	0.0001816183	0.006975417	0.008843038	-5.729494e-05	2.499533e-06	0.003202681	-0.02738641
9e+07	0.001469964	-0.03107783	-0.0002164887	0.0001437345	0.008449181	0.008715975	-0.0001819998	0.0001775745
	-0.0002164887	0.0001437345	-0.0006615347	-0.03008088	-1.895193e-05	9.366174e-06	0.00837497	0.009042818
	0.008449176	0.008715978	-1.895193e-05	9.366173e-06	5.29309e-05	-0.03035077	-5.96633e-05	1.377651e-05
	-0.0001819998	0.0001775745	0.008374977	0.009042812	-5.96633e-05	1.377651e-05	-0.0007242544	-0.03004338
1e+08	-0.00289243	-0.03349257	-0.0002180008	0.0001546914	0.009870276	0.008687745	-0.0001977416	0.0001639652
	-0.0002180008	0.0001546914	-0.004943252	-0.03205543	-1.755631e-05	1.39391e-05	0.009766544	0.009004766
	0.009870276	0.008687744	-1.755631e-05	1.39391e-05	-0.00419218	-0.03255153	-5.845704e-05	2.725636e-05
	-0.0001977416	0.0001639652	0.009766544	0.009004766	-5.845704e-05	2.725636e-05	-0.00502156	-0.0320316
1.1e+08	-0.007626989	-0.0351493	-0.0002126282	0.0001601466	0.01121519	0.008452892	-0.0001979861	0.0001305101
	-0.0002126282	0.0001601466	-0.009436029	-0.03341796	-1.421338e-05	1.655394e-05	0.0111086	0.008736477
	0.01121519	0.008452892	-1.421338e-05	1.655394e-05	-0.008715515	-0.03410191	-5.210675e-05	3.657683e-05
	-0.0001979861	0.0001305101	0.0111086	0.008736477	-5.210675e-05	3.657683e-05	-0.00954016	-0.03339446
1.2e+08	-0.01252188	-0.03603629	-0.0002039787	0.0001685896	0.01246676	0.007979281	-0.0001955275	0.0001052209
	-0.0002039787	0.0001685896	-0.01412424	-0.03408425	-1.139412e-05	1.814394e-05	0.01236628	0.008250655
	0.01246676	0.007979281	-1.139412e-05	1.814394e-05	-0.01343539	-0.03494016	-4.627167e-05	4.369466e-05
	-0.0001955275	0.0001052209	0.01236628	0.008250655	-4.627167e-05	4.369466e-05	-0.01425148	-0.03405292
1.3e+08	-0.01746548	-0.03616001	-0.0001936908	0.0001778149	0.01359703	0.007295752	-0.0001960648	8.263665e-05
	-0.0001936908	0.0001778149	-0.01886539	-0.03402131	-8.729412e-06	1.92246e-05	0.01350474	0.007564929
	0.01359703	0.007295752	-8.729412e-06	1.92246e-05	-0.01822172	-0.03504457	-4.006966e-05	4.969197e-05
	-0.0001960648	8.263665e-05	0.01350474	0.007564929	-4.006966e-05	4.969197e-05	-0.01901425	-0.03397652
1.4e+08	-0.0223373	-0.0355325	-0.0001820522	0.0001871479	0.01457503	0.00642889	-0.0002007472	6.227617e-05
	-0.0001820522	0.0001871479	-0.02353255	-0.033233	-7.622778e-06	1.918423e-05	0.01449281	0.006702813
	0.01457503	0.00642889	-7.622778e-06	1.918423e-05	-0.02295097	-0.03441897	-3.338405e-05	5.470857e-05
	-0.0002007472	6.227617e-05	0.01449281	0.006702813	-3.338405e-05	5.470857e-05	-0.023701	-0.03316987
1.5e+08	-0.02702054	-0.03418264	-0.0001692281	0.0001961439	0.01537364	0.005408935	-0.0002099557	4.45111e-05
	-0.0001692281	0.0001961439	-0.02800614	-0.03174544	-6.482231e-06	1.914259e-05	0.01530383	0.005692608
	0.01537364	0.005408935	-6.482231e-06	1.914259e-05	-0.02750518	-0.03308736	-2.623459e-05	5.871828e-05
	-0.0002099557	4.45111e-05	0.01530383	0.005692608	-2.623459e-05	5.871828e-05	-0.02819142	-0.03165971
1.6e+08	-0.03140553	-0.03215614	-0.0001553673	0.0002044886	0.01597089	0.004269671	-0.0002236463	3.00246e-05
	-0.0001553673	0.0002044886	-0.03217537	-0.02960385	-5.305373e-06	1.908217e-05	0.01591636	0.004566511
	0.01597089	0.004269671	-5.305373e-06	1.908217e-05	-0.03177409	-0.03109195	-1.870696e-05	6.167501e-05
	-0.0002236463	3.00246e-05	0.01591636	0.004566511	-1.870696e-05	6.167501e-05	-0.03237409	-0.02949201
1.7e+08	-0.03539233	-0.02951439	-0.0001406294	0.0002119416	0.01635068	0.00304769	-0.000241455	1.95997e-05
	-0.0001406294	0.0002119416	-0.03594035	-0.02687027	-4.108207e-06	1.898293e-05	0.01631469	0.003359653
	0.01635068	0.00304769	-4.108207e-06	1.898293e-05	-0.0356573	-0.02849133	-1.092871e-05	6.353311e-05
	-0.000241455	1.95997e-05	0.01631469	0.003359653	-1.092871e-05	6.353311e-05	-0.03614859	-0.0267296
1.8e+08	-0.03889284	-0.02633271	-0.0001251894	0.0002183212	0.0165032	0.001781443	-0.0002627518	1.399846e-05
	-0.0001251894	0.0002183212	-0.03921394	-0.02362123	-2.903919e-06	1.883213e-05	0.0164892	0.002109093
	0.0165032	0.001781443	-2.903919e-06	1.883213e-05	-0.03906632	-0.02535851	-3.055208e-06	6.426499e-05
	-0.0002627518	1.399846e-05	0.0164892	0.002109093	-3.055208e-06	6.426499e-05	-0.0394274	-0.02344986
1.9e+08	-0.04183264	-0.02269832	-0.0001092358	0.0002234985	0.01642513	0.0005102053	-0.0002866887	1.388e-05
	-0.0001092358	0.0002234985	-0.04192346	-0.01994533	-1.704111e-06	1.862196e-05	0.01643655	0.0008527799
	0.01642513	0.0005102053	-1.704111e-06	1.862196e-05	-0.04192628	-0.02177867	4.742179e-06	6.387118e-05
	-0.0002866887	1.388e-05	0.01643655	0.0008527799	4.742179e-06	6.387118e-05	-0.04213768	-0.01974227
2e+08	-0.04415247	-0.01870809	-9.29639e-05	0.0002273943	0.01611973	-0.0007269687	-0.0003122466	1.974097e-05
	-9.29639e-05	0.0002273943	-0.04401212	-0.01594076	-5.191711e-07	1.83483e-05	0.01615968	-0.0003714781
	0.01611973	-0.0007269687	-5.191711e-07	1.83483e-05	-0.04417738	-0.0178469	1.228687e-05	6.238528e-05
	-0.0003122466	1.974097e-05	0.01615968	-0.0003714781	1.228687e-05	6.238528e-05	-0.04422256	-0.01570587
2.1e+08	-0.04580977	-0.0144656	-7.656929e-05	0.0002299755	0.01559637	-0.001906445	-0.0003382895	3.18738e-05
	-7.656929e-05	0.0002299755	-0.04543997	-0.01171256	6.415087e-07	1.800512e-05	0.01566768	-0.001527029
	0.01559637	-0.001906445	6.415087e-07	1.800512e-05	-0.04577645	-0.01366522	1.942664e-05	5.983911e-05
	-0.0003382895	3.18738e-05	0.01566768	-0.001527029	1.942664e-05	5.983911e-05	-0.04564219	-0.01144655
2.2e+08	-0.0467785	-0.01007916	-6.023918e-05	0.0002312521	0.01486772	-0.002992578	-0.0003636173	5.034313e-05
	-6.023918e-05	0.0002312521	-0.0461846	-0.007369912	1.768663e-06	1.759313e-05	0.01497546	-0.002579341
	0.01486772	-0.002992578	1.768663e-06	1.759313e-05	-0.04669671	-0.009340607	2.599523e-05	5.632097e-05
	-0.0003636173	5.034313e-05	0.01497546	-0.002579341	2.599523e-05	5.632097e-05	-0.0463744	-0.007074271
2.3e+08	-0.04704947	-0.005659688	-4.414506e-05	0.0002312718	0.01395486	-0.003934973	-0.0003870206	7.497384e-05
	-4.414506e-05	0.0002312718	-0.04624132	-0.003023362	2.855332e-06	1.712099e-05	0.01410334	-0.003496896
	0.01395486	-0.003934973	2.855332e-06	1.712099e-05	-0.04692818	-0.0049828	3.182875e-05	5.200544e-05
	-0.0003870206	7.497384e-05	0.01410334	-0.003496896	3.182875e-05	5.200544e-05	-0.04641485	-0.002700297
2.4e+08	-0.04663138	-0.001316899	-2.843698e-05	0.0002301143	0.01288486	-0.004705245	-0.0004073412	0.0001053532
	-2.843698e-05	0.0002301143	-0.04562302	0.001217971	3.896247e-06	1.659272e-05	0.01307645	-0.004252003
	0.01288486	-0.004705245	3.896247e-06	1.659272e-05	-0.04647871	-0.000700562	3.68207e-05	4.705054e-05
	-0.0004073412	0.0001053532	0.01307645	-0.004252003	3.68207e-05	4.705054e-05	-0.04577689	0.001565606
2.5e+08	-0.04554983	0.002842872	-1.323788e-05	0.0002278841	0.01168899	-0.005279888	-0.0004235214	0.0001408459
	-1.323788e-05	0.0002278841	-0.04435961	0.005249063	4.88759e-06	1.601304e-05	0.01192404	-0.004821504
	0.01168899	-0.005279888	4.88759e-06	1.601304e-05	-0.04537299	0.003400545	4.089927e-05	4.163094e-05
	-0.0004235214	0.0001408459	0.01192404	-0.004821504	4.089927e-05	4.163094e-05	-0.04449101	0.005617862
2.6e+08	-0.0438465	0.0067192	1.359602e-06	0.0002247023	0.01040188	-0.005640902	-0.0004346518	0.0001806229
	1.359602e-06	0.0002247023	-0.04249708	0.008971592	5.826828e-06	1.538681e-05	0.01067871	-0.005187364
	0.01040188	-0.005640902	5.826828e-06	1.538681e-05	-0.04365181	0.007220684	4.403052e-05	3.592965e-05
	-0.0004346518	0.0001806229	0.01067871	-0.005187364	4.403052e-05	3.592965e-05	-0.04260378	0.00935766
2.7e+08	-0.04157799	0.01021993	1.529549e-05	0.0002206998	0.009060625	-0.005776248	-0.0004400092	0.0002236963
	1.529549e-05	0.0002206998	-0.04009607	0.0122962	6.71274e-06	1.471898e-05	0.009375521	-0.005337136
	0.009060625	-0.005776248	6.71274e-06	1.471898e-05	-0.04137084	0.01066811	4.621917e-05	3.012937e-05
	-0.0004400092	0.0002236963	0.009375521	-0.005337136	4.621917e-05	3.012937e-05	-0.0401766	0.01269533
2.8e+08	-0.03881426	0.01326333	2.854201e-05	0.0002160083	0.007703746	-0.005680164	-0.0004390849	0.0002689672
	2.854201e-05	0.0002160083	-0.03723033	0.01514472	7.545056e-06	1.401399e-05	0.008051103	-0.00526428
	0.007703746	-0.005680164	7.545056e-06	1.401399e-05	-0.03859918	0.01366134	4.750761e-05	2.440373e-05
	-0.0004390849	0.0002689672	0.008051103	-0.00526428	4.750761e-05	2.440373e-05	-0.03728394	0.01555252
2.9e+08	-0.03563688	0.01578	4.110189e-05	0.0002107526	0.006370189	-0.005353316	-0.0004316027	0.0003152731
	4.110189e-05	0.0002107526	-0.03398469	0.01745203	8.324204e-06	1.327557e-05	0.006742648	-0.004968341
	0.006370189	-0.005353316	8.324204e-06	1.327557e-05	-0.03541759	0.01613109	4.797261e-05	1.890916e-05
	-0.0004316027	0.0003152731	0.006742648	-0.004968341	4.797261e-05	1.890916e-05	-0.03401143	0.017864
3e+08	-0.03213687	0.01771445	5.300466e-05	0.0002050434	0.005098271	-0.00480279	-0.0004175248	0.0003614388
	5.300466e-05	0.0002050434	-0.03045286	0.01916754	9.05101e-06	1.250664e-05	0.005486946	-0.004454972
	0.005098271	-0.00480279	9.05101e-06	1.250664e-05	-0.03191635	0.01802182	4.772027e-05	1.377769e-05
	-0.0004175248	0.0003614388	0.005486946	-0.004454972	4.772027e-05	1.377769e-05	-0.03045355	0.01957924
3.1e+08	-0.02841247	0.01902635	6.430198e-05	0.000198972	0.003924642	-0.004041922	-0.0003970444	0.0004063314
	6.430198e-05	0.000198972	-0.02673502	0.02025641	9.726363e-06	1.170929e-05	0.004319392	-0.003735803
	0.003924642	-0.004041922	9.726363e-06	1.170929e-05	-0.02819304	0.01929311	4.687963e-05	9.111009e-06
	-0.0003970444	0.0004063314	0.004319392	-0.003735803	4.687963e-05	9.111009e-06	-0.02671123	0.02066356
3.2e+08	-0.02456663	0.01969146	7.506109e-05	0.0001926055	0.00288329	-0.003089962	-0.000370569	0.0004489054
	7.506109e-05	0.0001926055	-0.0229352	0.02070024	1.035092e-05	1.088486e-05	0.003273033	-0.002828154
	0.00288329	-0.003089962	1.035092e-05	1.088486e-05	-0.02435004	0.01992048	4.559471e-05	4.976349e-06
	-0.000370569	0.0004489054	0.003273033	-0.002828154	4.559471e-05	4.976349e-06	-0.02288924	0.02109888
3.3e+08	-0.02070447	0.0197021	8.535767e-05	0.0001859835	0.002004588	-0.001971572	-0.0003386934	0.0004882455
	8.535767e-05	0.0001859835	-0.01915867	0.02049752	1.092484e-05	1.003405e-05	0.00237766	-0.001754596
	0.002004588	-0.001971572	1.092484e-05	1.003405e-05	-0.02049202	0.01989599	4.4016e-05	1.404246e-06
	-0.0003386934	0.0004882455	0.00237766	-0.001754596	4.4016e-05	1.404246e-06	-0.01909351	0.0208841
3.4e+08	-0.01693063	0.01906726	9.526874e-05	0.0001791184	0.001314442	-0.0007161861	-0.0003021598	0.0005236044
	9.526874e-05	0.0001791184	-0.0155092	0.01966351	1.144763e-05	9.157224e-06	0.001658975	-0.0005423662
	0.001314442	-0.0007161861	1.144763e-05	9.157224e-06	-0.01672325	0.0192283	4.229163e-05	-1.611673e-06
	-0.0003021598	0.0005236044	0.001658975	-0.0005423663	4.229163e-05	-1.611673e-06	-0.01542843	0.02003502
3.5e+08	-0.01334666	0.01781228	0.0001048647	0.0001719951	0.0008335438	0.0006427761	-0.0002618174	0.0005544246
	0.0001048647	0.0001719951	-0.01208649	0.01822978	1.191802e-05	8.254587e-06	0.001137858	0.0007773491
	0.0008335438	0.0006427761	1.191802e-05	8.254587e-06	-0.01314506	0.01794243	4.055859e-05	-4.112645e-06
	-0.0002618174	0.0005544246	0.001137858	0.0007773491	4.055859e-05	-4.112645e-06	-0.01199418	0.01858384
3.6e+08	-0.01004856	0.01597815	0.0001142025	0.0001645746	0.0005767474	0.002068814	-0.0002185721	0.0005803549
	0.0001142025	0.0001645746	-0.008983575	0.0162433	1.233393e-05	7.326511e-06	0.0008297603	0.002170249
	0.0005767474	0.002068814	1.233393e-05	7.326511e-06	-0.00985327	0.01607903	3.893481e-05	-6.170802e-06
	-0.0002185721	0.0005803549	0.0008297603	0.002170249	3.893481e-05	-6.170802e-06	-0.008884202	0.01657826
3.7e+08	-0.007124307	0.01362039	0.0001233195	0.0001567982	0.0005526139	0.00352335	-0.000173339	0.0006012515
	0.0001233195	0.0001567982	-0.006284507	0.01376519	1.269258e-05	6.373759e-06	0.0007442286	0.003599855
	0.0005526139	0.00352335	1.269258e-05	6.373759e-06	-0.006935819	0.01369331	3.751229e-05	-7.883271e-06
	-0.000173339	0.0006012515	0.0007442286	0.003599855	3.751229e-05	-7.883271e-06	-0.006182804	0.01408015
3.8e+08	-0.004651742	0.01080758	0.0001322286	0.0001485938	0.000763118	0.004966807	-0.0001269947	0.0006171696
	0.0001322286	0.0001485938	-0.004062221	0.01086901	1.299054e-05	5.397721e-06	0.0008846016	0.005028517
	0.000763118	0.004966807	1.299054e-05	5.397721e-06	-0.004470564	0.01085358	3.635198e-05	-9.364821e-06
	-0.0001269947	0.0006171696	0.0008846016	0.005028517	3.635198e-05	-9.364821e-06	-0.003963057	0.01116392
3.9e+08	-0.002696627	0.007619583	0.000140915	0.0001398824	0.001203542	0.006359729	-8.033155e-05	0.0006283436
	0.000140915	0.0001398824	-0.00237671	0.007638883	1.322395e-05	4.400597e-06	0.001247871	0.00641847
	0.001203542	0.006359729	1.322395e-05	4.400597e-06	-0.002523355	0.007639486	3.548046e-05	-1.073943e-05
	-8.033155e-05	0.0006283436	0.001247871	0.00641847	3.548046e-05	-1.073943e-05	-0.002284952	0.007914518
4e+08	-0.001311033	0.004145463	0.0001493353	0.0001305865	0.001862561	0.007663911	-3.402292e-05	0.0006351574
	0.0001493353	0.0001305865	-0.001273539	0.00416718	1.338874e-05	3.385516e-06	0.001824728	0.007732908
	0.001862561	0.007663911	1.338874e-05	3.385516e-06	-0.00114641	0.004139927	3.488902e-05	-1.213124e-05
	-3.402292e-05	0.0006351574	0.001824728	0.007732908	3.488902e-05	-1.213124e-05	-0.0011939	0.00442515
4.1e+08	-0.0005320947	0.0004811708	0.0001574179	0.0001206373	0.002722524	0.008843514	1.140833e-05	0.0006381076
	0.0001574179	0.0001206373	-0.0007827351	0.0005521393	1.348081e-05	2.356617e-06	0.002599793	0.008937039
	0.002722524	0.008843514	1.348081e-05	2.356617e-06	-0.0003770391	0.000450765	3.453481e-05	-1.365559e-05
	1.140833e-05	0.0006381076	0.002599793	0.008937039	3.453481e-05	-1.365559e-05	-0.0007196367	0.0007948632
4.2e+08	-0.0003811325	-0.00327292	0.0001650659	0.0001099825	0.003759927	0.009866109	5.56093e-05	0.0006377596
	0.0001650659	0.0001099825	-0.0009180932	-0.003104736	1.34963e-05	1.319066e-06	0.003552023	0.009999093
	0.003759926	0.009866109	1.34963e-05	1.319066e-06	-0.0002367628	-0.003327641	3.434433e-05	-1.541058e-05
	5.56093e-05	0.0006377596	0.003552023	0.009999093	3.434433e-05	-1.541058e-05	-0.0008755303	-0.002874089
4.3e+08	-0.0008631922	-0.007014591	0.0001721621	9.859305e-05	0.004946055	0.01070365	9.840275e-05	0.0006347028
	0.0001721621	9.859305e-05	-0.001676904	-0.006701334	1.34318e-05	2.790269e-07	0.004655297	0.01089125
	0.004946055	0.01070365	1.34318e-05	2.790269e-07	-0.0007308255	-0.007093014	3.421898e-05	-1.74697e-05
	9.840275e-05	0.0006347028	0.004655297	0.01089125	3.421898e-05	-1.74697e-05	-0.001658315	-0.006478916
4.4e+08	-0.001967002	-0.01064239	0.0001785744	8.646769e-05	0.006247799	0.01133329	0.0001397831	0.0006295048
	0.0001785744	8.646769e-05	-0.003040119	-0.01013758	1.328457e-05	-7.564059e-07	0.005879153	0.01159045
	0.006247799	0.01133329	1.328457e-05	-7.564059e-07	-0.001848138	-0.01074377	3.404217e-05	-1.987619e-05
	0.0001397831	0.0006295048	0.005879153	0.01159045	3.404217e-05	-1.987619e-05	-0.003048275	-0.009918966
4.5e+08	-0.003665344	-0.01405821	0.0001841648	7.363703e-05	0.007628599	0.01173811	0.0001798196	0.0006227132
	0.0001841648	7.363703e-05	-0.004972933	-0.01331803	1.30527e-05	-1.779302e-06	0.007189651	0.01207907
	0.007628599	0.01173811	1.30527e-05	-1.779302e-06	-0.003561636	-0.0141816	3.368861e-05	-2.263941e-05
	0.0001798196	0.0006227132	0.007189651	0.01207907	3.368861e-05	-2.263941e-05	-0.005009844	-0.01309834
4.6e+08	-0.005915821	-0.01716978	0.0001886812	6.018431e-05	0.009049497	0.01190757	0.0002298725	0.0006075733
	0.0001886812	6.018431e-05	-0.007425795	-0.01615432	1.27355e-05	-2.781437e-06	0.008550352	0.01234545
	0.009049497	0.01190757	1.27355e-05	-2.781437e-06	-0.00582904	-0.01731395	3.2919e-05	-2.571378e-05
	0.0002298725	0.0006075733	0.008550352	0.01234545	3.2919e-05	-2.571378e-05	-0.007492611	-0.01592836
4.7e+08	-0.00866207	-0.01989293	0.0001921011	4.620168e-05	0.01047027	0.01183788	0.0002791072	0.0005890088
	0.0001921011	4.620168e-05	-0.01033576	-0.01856741	1.233297e-05	-3.752883e-06	0.009923368	0.01238422
	0.01047027	0.01183788	1.233297e-05	-3.752883e-06	-0.008594013	-0.02005638	3.171956e-05	-2.904304e-05
	0.0002791072	0.0005890088	0.009923368	0.01238422	3.171956e-05	-2.904304e-05	-0.01043277	-0.01832979
