!$
! Info: Touchstone file created by Circ.  Input file=Tx_8in_Rx_100ohms_TxVia_35mils_RxVia_45mils.circ
!$
# Hz S RI R 50
0	0.008380356	1.066806e-25	-4.329047e-05	3.794293e-24	6.230619e-05	1.56246e-23	-4.32712e-05	1.45737e-24
	-4.329049e-05	3.796528e-24	0.00837867	1.294074e-25	-4.330199e-05	5.329469e-24	6.216802e-05	1.893206e-23
	6.212037e-05	1.555901e-23	-4.330198e-05	5.327576e-24	0.008391067	1.066722e-25	-4.3288e-05	3.644152e-24
	-4.327121e-05	1.459123e-24	6.032026e-05	1.902533e-23	-4.328801e-05	3.645565e-24	0.008391802	1.21242e-25
1e+07	0.01213247	0.00556797	-0.0001530438	1.258494e-05	0.0005046642	0.001583438	-5.83478e-05	-5.145081e-06
	-0.0001530438	1.258494e-05	0.01225224	0.005558647	-1.230282e-05	9.755005e-05	0.0005017233	0.001581726
	0.0005046588	0.001583439	-1.230282e-05	9.755005e-05	0.01227356	0.005566211	-0.0001530413	1.256777e-05
	-5.834779e-05	-5.145082e-06	0.0005016629	0.001581736	-0.0001530413	1.256777e-05	0.01214363	0.005577734
2e+07	0.01574689	0.008232976	-0.0001225202	-4.915768e-05	0.0007835787	0.003252888	-4.618065e-05	-1.067406e-05
	-0.0001225202	-4.915768e-05	0.01581813	0.008174332	-4.605128e-05	0.0001620785	0.0007723846	0.003251177
	0.00078358	0.003252892	-4.605127e-05	0.0001620785	0.01585983	0.008185147	-0.0001225274	-4.918241e-05
	-4.618065e-05	-1.067407e-05	0.0007723757	0.003251212	-0.0001225274	-4.918241e-05	0.01574543	0.008252796
3e+07	0.01892697	0.009466486	-0.0001018986	-6.903185e-05	0.001328259	0.004707445	-3.881229e-05	-1.790361e-05
	-0.0001018986	-6.903185e-05	0.018946	0.009396851	-9.974363e-05	0.0001923797	0.001304058	0.004708561
	0.001328262	0.004707444	-9.974363e-05	0.0001923797	0.0190196	0.009403964	-0.0001019144	-6.908275e-05
	-3.881229e-05	-1.790361e-05	0.001304058	0.004708566	-0.0001019145	-6.908275e-05	0.01890429	0.009500494
4e+07	0.02189021	0.009938132	-8.687842e-05	-7.993633e-05	0.002124277	0.005999505	-3.316824e-05	-2.160215e-05
	-8.687842e-05	-7.993633e-05	0.02185188	0.009874072	-0.0001430348	0.0002148581	0.002083065	0.00600731
	0.002124278	0.005999503	-0.0001430348	0.0002148581	0.02196716	0.009868141	-8.690492e-05	-8.002348e-05
	-3.316824e-05	-2.160215e-05	0.002083059	0.006007308	-8.690492e-05	-8.002348e-05	0.02183863	0.009991944
5e+07	0.02467262	0.009816908	-7.515035e-05	-8.667262e-05	0.003242834	0.007057474	-2.852836e-05	-2.383451e-05
	-7.515035e-05	-8.667262e-05	0.02457291	0.009773489	-0.000180083	0.0002347205	0.003181566	0.007076596
	0.003242834	0.007057473	-0.000180083	0.0002347205	0.02473731	0.009742621	-7.519288e-05	-8.680629e-05
	-2.852836e-05	-2.383451e-05	0.003181562	0.007076595	-7.519288e-05	-8.680629e-05	0.02458566	0.009898368
6e+07	0.02726419	0.00919298	-6.540922e-05	-9.086898e-05	0.004494439	0.007905933	-2.452467e-05	-2.53142e-05
	-6.540923e-05	-9.086898e-05	0.0271014	0.009185229	-0.0002131325	0.0002537332	0.004411208	0.007941752
	0.00449444	0.007905933	-0.0002131325	0.0002537332	0.02731927	0.009115864	-6.547702e-05	-9.105875e-05
	-2.452467e-05	-2.53142e-05	0.00441121	0.007941751	-6.547702e-05	-9.105875e-05	0.02713742	0.009311552
7e+07	0.02963788	0.008129603	-7.466053e-05	-8.12587e-05	0.005845	0.008528995	-2.065458e-05	-2.619035e-05
	-7.466053e-05	-8.12587e-05	0.02941294	0.008172436	-0.0002435297	0.00027258	0.00573912	0.008587304
	0.005845002	0.008528995	-0.0002435297	0.00027258	0.02968542	0.008050205	-7.476138e-05	-8.149777e-05
	-2.065458e-05	-2.619035e-05	0.005739128	0.008587301	-7.476139e-05	-8.149777e-05	0.02946907	0.008295684
8e+07	0.03176129	0.006681412	-9.279975e-05	-5.865544e-05	0.007257178	0.008915071	-2.386425e-05	-2.098216e-05
	-9.279975e-05	-5.865544e-05	0.03147779	0.006789448	-0.0002728608	0.0002909348	0.007129241	0.00900184
	0.00725718	0.00891507	-0.0002728608	0.0002909348	0.0318029	0.006599786	-9.293223e-05	-5.894216e-05
	-2.386426e-05	-2.098216e-05	0.007129251	0.009001835	-9.293223e-05	-5.894216e-05	0.03155042	0.006905916
9e+07	0.03360294	0.00490185	-0.0001042815	-3.174239e-05	0.008691074	0.009057602	-2.734314e-05	-1.294447e-05
	-0.0001042815	-3.174239e-05	0.03326734	0.005089238	-0.0003039584	0.0003073653	0.008542978	0.009178735
	0.008691076	0.009057601	-0.0003039584	0.0003073653	0.03363997	0.00481792	-0.0001044571	-3.208034e-05
	-2.734314e-05	-1.294447e-05	0.008542986	0.00917873	-0.0001044571	-3.208034e-05	0.03335222	0.005195877
1e+08	0.03514463	0.002853265	-0.000105473	1.184156e-06	0.01010096	0.008951982	-2.747809e-05	-3.246574e-06
	-0.000105473	1.184156e-06	0.03476745	0.003134239	-0.0003477808	0.000313518	0.009935885	0.009113068
	0.01010096	0.008951982	-0.0003477808	0.000313518	0.03517946	0.002767919	-0.0001057041	7.886721e-07
	-2.747809e-05	-3.246574e-06	0.009935885	0.009113068	-0.0001057041	7.886721e-07	0.03485864	0.003227703
1.1e+08	0.03637765	0.0005075025	-9.217112e-05	2.079801e-05	0.01143833	0.008640259	-2.311693e-05	1.795683e-06
	-9.217112e-05	2.079801e-05	0.03597511	0.0008867047	-0.0003583219	0.0002889932	0.011261	0.008846069
	0.01143833	0.008640259	-0.0003583219	0.0002889932	0.03641498	0.0004129652	-9.248391e-05	2.033972e-05
	-2.311693e-05	1.795683e-06	0.011261	0.008846069	-9.248391e-05	2.033972e-05	0.03606595	0.000972314
1.2e+08	0.03720209	-0.002032064	-8.207243e-05	3.425746e-05	0.01270212	0.008119101	-2.014071e-05	4.885346e-06
	-8.207243e-05	3.425746e-05	0.03678284	-0.00154874	-0.0003552599	0.0002810866	0.01251795	0.008373709
	0.01270212	0.008119101	-0.0003552599	0.0002810866	0.03723638	-0.002139153	-8.248962e-05	3.375738e-05
	-2.014071e-05	4.885346e-06	0.01251795	0.008373709	-8.248962e-05	3.375738e-05	0.03687311	-0.001468913
1.3e+08	0.03761783	-0.004690145	-7.231777e-05	4.504071e-05	0.01385145	0.007398348	-1.756045e-05	7.15909e-06
	-7.231777e-05	4.504071e-05	0.03719394	-0.004096896	-0.0003481006	0.0002786977	0.01366681	0.007704814
	0.01385145	0.007398348	-0.0003481006	0.0002786977	0.03764492	-0.004810563	-7.285676e-05	4.452072e-05
	-1.756045e-05	7.15909e-06	0.01366681	0.007704815	-7.285676e-05	4.452072e-05	0.03728226	-0.004021745
1.4e+08	0.03762193	-0.007402502	-6.244478e-05	5.381527e-05	0.01485325	0.006498885	-1.520767e-05	8.875645e-06
	-6.244478e-05	5.381527e-05	0.03720746	-0.006695429	-0.0003386937	0.000278972	0.01467523	0.006859044
	0.01485325	0.006498886	-0.0003386937	0.000278972	0.03763806	-0.007535845	-6.311823e-05	5.330113e-05
	-1.520767e-05	8.875645e-06	0.01467523	0.006859044	-6.311823e-05	5.330113e-05	0.03729249	-0.00662377
1.5e+08	0.03721747	-0.01010704	-5.233432e-05	6.083618e-05	0.0156792	0.005447434	-1.301774e-05	1.01723e-05
	-5.233432e-05	6.083618e-05	0.03682785	-0.009284796	-0.0003279976	0.0002804816	0.01551541	0.005861738
	0.0156792	0.005447434	-0.0003279976	0.0002804816	0.03721927	-0.01025204	-5.31491e-05	6.035701e-05
	-1.301774e-05	1.01723e-05	0.01551541	0.005861738	-5.31491e-05	6.035701e-05	0.03690848	-0.009215337
1.6e+08	0.03641471	-0.01274357	-4.200655e-05	6.620996e-05	0.01630617	0.004275254	-1.096086e-05	1.113338e-05
	-4.200655e-05	6.620996e-05	0.0360661	-0.01180774	-0.0003166919	0.0002824196	0.01616446	0.004742674
	0.01630617	0.004275254	-0.0003166919	0.0002824196	0.03639917	-0.01289827	-4.296288e-05	6.579706e-05
	-1.096086e-05	1.113338e-05	0.01616446	0.004742674	-4.296288e-05	6.579706e-05	0.03614147	-0.01173913
1.7e+08	0.03523134	-0.0152544	-3.155789e-05	6.998781e-05	0.01671668	0.003017099	-9.022029e-06	1.181685e-05
	-3.155789e-05	6.998781e-05	0.03494	-0.01420972	-0.0003053342	0.0002843442	0.01660485	0.003535068
	0.01671668	0.003017099	-0.0003053342	0.0002843442	0.0351959	-0.01541624	-3.264872e-05	6.967304e-05
	-9.022029e-06	1.181685e-05	0.01660485	0.003535068	-3.264872e-05	6.967304e-05	0.03500951	-0.01414058
1.8e+08	0.0336925	-0.01758519	-2.113192e-05	7.220855e-05	0.01689936	0.001710179	-7.193359e-06	1.226554e-05
	-2.113192e-05	7.220855e-05	0.03347415	-0.01643957	-0.0002944001	0.0002860682	0.01682484	0.002274598
	0.01689936	0.001710179	-0.0002944001	0.0002860682	0.03363508	-0.0177511	-2.23428e-05	7.202255e-05
	-7.193359e-06	1.226554e-05	0.01682484	0.002274598	-2.23428e-05	7.202255e-05	0.03353741	-0.01636856
1.9e+08	0.03183045	-0.01968594	-1.090029e-05	7.292181e-05	0.0168492	0.0003930929	-5.470622e-06	1.251287e-05
	-1.090029e-05	7.292181e-05	0.03169959	-0.01845041	-0.0002842904	0.0002875967	0.0168188	0.0009983885
	0.0168492	0.0003930929	-0.0002842904	0.0002875967	0.03174951	-0.01985243	-1.220964e-05	7.289224e-05
	-5.470622e-06	1.251287e-05	0.0168188	0.0009983885	-1.220964e-05	7.289224e-05	0.03175642	-0.01837618
2e+08	0.02968403	-0.02151196	-1.047846e-06	7.220095e-05	0.01656771	-0.000895248	-3.85149e-06	1.258591e-05
	-1.047846e-06	7.220095e-05	0.02965334	-0.02020043	-0.000275321	0.0002890844	0.01658729	-0.0002560103
	0.01656771	-0.000895248	-0.000275321	0.0002890844	0.02957861	-0.02167517	-2.427726e-06	7.235071e-05
	-3.85149e-06	1.258591e-05	0.01658729	-0.0002560103	-2.427726e-06	7.235071e-05	0.02970377	-0.02012168
2.1e+08	0.02729793	-0.02302475	8.240674e-06	7.014952e-05	0.01606284	-0.002116707	-2.334659e-06	1.250736e-05
	8.240674e-06	7.014952e-05	0.02737773	-0.02165371	-0.000267712	0.0002908013	0.01613707	-0.001451658
	0.01606284	-0.002116707	-0.000267712	0.0002908013	0.02716778	-0.02318059	6.823364e-06	7.049526e-05
	-2.334659e-06	1.250736e-05	0.01613707	-0.001451658	6.823364e-06	7.049526e-05	0.02742195	-0.02156919
2.2e+08	0.02472184	-0.02419288	1.679214e-05	6.690303e-05	0.01534876	-0.003234977	-9.193021e-07	1.229668e-05
	1.679214e-05	6.690303e-05	0.02491958	-0.02278092	-0.0002615743	0.0002930992	0.01548091	-0.002553235
	0.01534876	-0.003234977	-0.0002615743	0.0002930992	0.02456737	-0.02433708	1.537411e-05	6.745392e-05
	-9.193021e-07	1.229668e-05	0.01548091	-0.002553235	1.537411e-05	6.745392e-05	0.02495793	-0.02268945
2.3e+08	0.02200936	-0.02499258	2.44553e-05	6.262717e-05	0.01444551	-0.004216594	3.952597e-07	1.197092e-05
	2.44553e-05	6.262717e-05	0.02232921	-0.02355995	-0.0002569004	0.0002963786	0.01463723	-0.003528004
	0.01444551	-0.004216594	-0.0002569004	0.0002963786	0.02183179	-0.02512088	2.307501e-05	6.33841e-05
	3.952597e-07	1.197092e-05	0.01463723	-0.003528004	2.307501e-05	6.33841e-05	0.02236224	-0.02346041
2.4e+08	0.01921692	-0.02540836	3.111014e-05	5.751292e-05	0.0133784	-0.00503186	1.609721e-06	1.154527e-05
	3.111014e-05	5.751292e-05	0.01965942	-0.0239763	-0.0002535621	0.0003010591	0.01362958	-0.004346712
	0.0133784	-0.00503186	-0.0002535621	0.0003010591	0.01901821	-0.02551656	2.980577e-05	5.846818e-05
	1.609721e-06	1.154527e-05	0.01362958	-0.004346712	2.980577e-05	5.846818e-05	0.01968783	-0.02386769
2.5e+08	0.01640246	-0.02543326	3.667394e-05	5.176964e-05	0.01217735	-0.00565568	2.724989e-06	1.103343e-05
	3.667394e-05	5.176964e-05	0.01696438	-0.02402342	-0.0002513098	0.000307545	0.01248603	-0.004984387
	0.01217735	-0.00565568	-0.0002513098	0.000307545	0.01618535	-0.02551744	3.548128e-05	5.29071e-05
	2.724989e-06	1.103343e-05	0.01248603	-0.004984387	3.548128e-05	5.29071e-05	0.01698901	-0.02390484
2.6e+08	0.01362423	-0.02506909	4.110618e-05	4.561628e-05	0.01087605	-0.00606826	3.742252e-06	1.044785e-05
	4.110618e-05	4.561628e-05	0.01429841	-0.02370279	-0.000249781	0.0003161973	0.01123839	-0.005421027
	0.01087605	-0.00606826	-0.000249781	0.0003161973	0.01339219	-0.0251257	4.005661e-05	4.691213e-05
	3.742252e-06	1.044785e-05	0.01123839	-0.005421027	4.005661e-05	4.691213e-05	0.01432026	-0.0235735
2.7e+08	0.01093943	-0.02432634	4.441013e-05	3.927185e-05	0.009511053	-0.006255669	4.663073e-06	9.799866e-06
	4.441013e-05	3.927185e-05	0.01171484	-0.0230239	-0.0002485134	0.000327304	0.009921334	-0.005642152
	0.009511053	-0.006255669	-0.0002485134	0.000327304	0.01069662	-0.02435233	4.352885e-05	4.069581e-05
	4.663073e-06	9.799866e-06	0.009921334	-0.005642152	4.352885e-05	4.069581e-05	0.01173501	-0.02288333
2.8e+08	0.008402961	-0.02322392	4.663269e-05	3.294538e-05	0.008120724	-0.006210237	5.489362e-06	9.099828e-06
	4.663269e-05	3.294538e-05	0.00926485	-0.02200396	-0.0002469629	0.00034106	0.008571463	-0.005639205
	0.008120724	-0.006210237	-0.0002469629	0.00034106	0.008154145	-0.02321693	4.593719e-05	3.446235e-05
	5.489362e-06	9.099828e-06	0.008571463	-0.005639205	4.593719e-05	3.446235e-05	0.009284532	-0.02185174
2.9e+08	0.006066136	-0.02178878	4.786097e-05	2.682636e-05	0.006744215	-0.005930776	6.223405e-06	8.357115e-06
	4.786097e-05	2.682636e-05	0.006996303	-0.02066754	-0.0002445278	0.0003575462	0.007226284	-0.005409785
	0.006744215	-0.005930776	-0.0002445278	0.0003575462	0.005816561	-0.02174719	4.736007e-05	2.839842e-05
	6.223405e-06	8.357115e-06	0.007226284	-0.005409785	4.736007e-05	2.839842e-05	0.007016745	-0.0205035
3e+08	0.003975534	-0.02005524	4.821683e-05	2.107627e-05	0.005420351	-0.005422624	6.867801e-06	7.580134e-06
	4.821683e-05	2.107627e-05	0.004952729	-0.01904596	-0.0002405749	0.0003767154	0.005923192	-0.004957721
	0.005420351	-0.005422624	-0.0002405749	0.0003767154	0.003730818	-0.01997828	4.791009e-05	2.266492e-05
	6.867801e-06	7.580134e-06	0.005923192	-0.004957721	4.791009e-05	2.266492e-05	0.004975204	-0.01887015
3.1e+08	0.002171941	-0.01806417	4.784965e-05	1.582131e-05	0.00418656	-0.004697509	7.425345e-06	6.776403e-06
	4.784965e-05	1.582131e-05	0.003172369	-0.01717655	-0.0002344679	0.0003983896	0.004698439	-0.004292968
	0.00418656	-0.004697509	-0.0002344679	0.0003983896	0.001937919	-0.01795204	4.77275e-05	1.738978e-05
	7.425345e-06	6.776403e-06	0.004698439	-0.004292968	4.77275e-05	1.738978e-05	0.003198128	-0.01698923
3.2e+08	0.0006893994	-0.0158621	4.692718e-05	1.114747e-05	0.003077823	-0.003773224	7.898942e-06	5.952514e-06
	4.692718e-05	1.114747e-05	0.001687324	-0.01510178	-0.0002255981	0.0004222561	0.003586132	-0.003431329
	0.003077823	-0.003773224	-0.0002255981	0.0004222561	0.0004719634	-0.01571596	4.697152e-05	1.266303e-05
	7.898942e-06	5.952514e-06	0.003586132	-0.003431329	4.697152e-05	1.266303e-05	0.001717567	-0.01490347
3.3e+08	-0.000445551	-0.01350005	4.562551e-05	7.097822e-06	0.0021257	-0.002673145	8.291449e-06	5.11421e-06
	4.562551e-05	7.097822e-06	0.0005228875	-0.01286832	-0.0002134138	0.0004478753	0.002617302	-0.00239402
	0.0021257	-0.002673145	-0.0002134138	0.0004478753	-0.0006406228	-0.01332207	4.581096e-05	8.533794e-06
	8.291449e-06	5.11421e-06	0.002617302	-0.00239402	4.581096e-05	8.533794e-06	0.0005587082	-0.01265971
3.4e+08	-0.001214473	-0.01103238	4.411898e-05	3.672007e-06	0.001357445	-0.001425581	8.605542e-06	4.266532e-06
	4.411898e-05	3.672007e-06	-0.0003030008	-0.01052586	-0.000197445	0.0004746957	0.001819046	-0.001207091
	0.001357445	-0.001425581	-0.000197445	0.0004746957	-0.00138169	-0.01082571	4.441457e-05	5.009567e-06
	8.605542e-06	4.266532e-06	0.001819046	-0.001207091	4.441457e-05	5.009567e-06	-0.0002606382	-0.01030785
3.5e+08	-0.001607443	-0.00851546	4.256983e-05	8.286401e-07	0.0007952487	-6.299399e-05	8.8436e-06	3.413901e-06
	4.256983e-05	8.286401e-07	-0.0007801143	-0.008126066	-0.0001773291	0.0005020703	0.001213789	9.930153e-05
	0.0007952487	-6.299399e-05	-0.0001773291	0.0005020703	-0.001741772	-0.00828423	4.294115e-05	2.05805e-06
	8.8436e-06	3.413901e-06	0.001213789	9.930152e-05	4.294115e-05	2.05805e-06	-0.0007304156	-0.00789971
3.6e+08	-0.001623244	-0.0060064	4.111901e-05	-1.510254e-06	0.0004556183	0.001378904	9.007615e-06	2.560331e-06
	4.111901e-05	-1.510254e-06	-0.000906115	-0.005721303	-0.0001528273	0.0005292816	0.0008186719	0.001491716
	0.0004556183	0.001378904	-0.0001528273	0.0005292816	-0.001720285	-0.005755601	4.153067e-05	-3.889258e-07
	9.007615e-06	2.560331e-06	0.0008186719	0.001491716	4.153067e-05	-3.889258e-07	-0.0008484828	-0.005487797
3.7e+08	-0.001269365	-0.003561653	3.987831e-05	-3.45247e-06	0.0003489154	0.002862135	9.099158e-06	1.709604e-06
	3.987831e-05	-3.45247e-06	-0.0006865529	-0.00336348	-0.0001238393	0.0005555679	0.0006450831	0.002934354
	0.0003489154	0.002862135	-0.0001238393	0.0005555679	-0.001325495	-0.003297066	4.029644e-05	-2.429263e-06
	9.099158e-06	1.709604e-06	0.0006450831	0.002934354	4.029644e-05	-2.429263e-06	-0.0006206088	-0.003124113
3.8e+08	-0.000561779	-0.001235716	3.892427e-05	-5.12731e-06	0.0004790686	0.00434751	9.119395e-06	8.654776e-07
	3.892427e-05	-5.12731e-06	-0.000134675	-0.001102847	-9.040949e-05	0.0005801525	0.0006983574	0.004390034
	0.0004790686	0.00434751	-9.040949e-05	0.0005801525	-0.000574297	-0.0009637718	3.931916e-05	-4.182939e-06
	9.119395e-06	8.654776e-07	0.0006983574	0.004390034	3.931916e-05	-4.182939e-06	-6.027605e-05	-0.000858966
3.9e+08	0.0004754711	0.0009201555	3.829447e-05	-6.676117e-06	0.0008434639	0.005795706	9.069167e-06	3.188425e-08
	3.829447e-05	-6.676117e-06	0.0007289402	0.00101314	-5.272652e-05	0.000602274	0.0009776352	0.005821214
	0.0008434639	0.005795706	-5.272652e-05	0.000602274	0.0005082312	0.001192524	3.864292e-05	-5.783181e-06
	9.069167e-06	3.188425e-08	0.0009776352	0.005821214	3.864292e-05	-5.783181e-06	0.0008116938	0.001260174
4e+08	0.001810886	0.002859143	3.798607e-05	-8.242075e-06	0.001433015	0.007168355	8.949116e-06	-7.869124e-07
	3.798607e-05	-8.242075e-06	0.001876919	0.002940885	-1.111839e-05	0.0006212151	0.001475895	0.007191013
	0.001433015	0.007168355	-1.111839e-05	0.0006212151	0.001889465	0.003124669	3.827344e-05	-7.366856e-06
	8.949116e-06	-7.869124e-07	0.001475895	0.007191013	3.827344e-05	-7.366856e-06	0.001967684	0.003189745
4.1e+08	0.003406297	0.00453994	3.795703e-05	-9.960183e-06	0.002232413	0.008429095	8.759882e-06	-1.586189e-06
	3.795703e-05	-9.960183e-06	0.003275785	0.004641631	3.396185e-05	0.0006363301	0.00218015	0.008464213
	0.002232413	0.008429095	3.396185e-05	0.0006363301	0.003530048	0.004791213	3.817883e-05	-9.064939e-06
	8.759882e-06	-1.586189e-06	0.00218015	0.008464213	3.817883e-05	-9.064939e-06	0.003373982	0.004891059
4.2e+08	0.00521781	0.005927705	3.812952e-05	-1.194776e-05	0.003220544	0.009544566	8.502303e-06	-2.36071e-06
	3.812952e-05	-1.194776e-05	0.004886782	0.006082294	8.195395e-05	0.0006470672	0.003071812	0.00960821
	0.003220544	0.009544566	8.195395e-05	0.0006470672	0.00538487	0.006157367	3.829239e-05	-1.099339e-05
	8.502303e-06	-2.36071e-06	0.003071812	0.00960821	3.829239e-05	-1.099339e-05	0.004991611	0.006331147
4.3e+08	0.007196881	0.006994838	3.839572e-05	-1.429604e-05	0.004371063	0.01048533	8.177643e-06	-3.104746e-06
	3.839572e-05	-1.429604e-05	0.006666825	0.007236179	0.0001322119	0.0006529882	0.004127198	0.0105939
	0.004371063	0.01048533	0.0001322119	0.0006529882	0.007404174	0.007195788	3.851773e-05	-1.3245e-05
	8.177643e-06	-3.104746e-06	0.004127198	0.0105939	3.851773e-05	-1.3245e-05	0.006777287	0.007483468
4.4e+08	0.0092915	0.007721597	3.862529e-05	-1.706357e-05	0.005653117	0.01122665	7.787796e-06	-3.812146e-06
	3.862529e-05	-1.706357e-05	0.00856953	0.008083534	0.0001840297	0.0006537808	0.005318175	0.01139644
	0.005653117	0.01122665	0.0001840297	0.0006537808	0.009534771	0.00788719	3.873554e-05	-1.588277e-05
	7.787796e-06	-3.812146e-06	0.005318175	0.01139644	3.873554e-05	-1.588277e-05	0.008684458	0.008328454
4.5e+08	0.01144744	0.008096508	3.867436e-05	-2.02715e-05	0.007032171	0.01174922	7.335484e-06	-4.476481e-06
	3.867436e-05	-2.02715e-05	0.01054632	0.008611932	0.0002366687	0.0006492672	0.006612925	0.01199594
	0.007032171	0.01174922	0.0002366687	0.0006492672	0.01172134	0.008220753	3.881184e-05	-1.893515e-05
	7.335484e-06	-4.476481e-06	0.006612925	0.01199594	3.881184e-05	-1.893515e-05	0.01066441	0.008853893
4.6e+08	0.01360959	0.008116579	3.839516e-05	-2.390136e-05	0.00847095	0.01203962	6.824326e-06	-5.091233e-06
	3.839516e-05	-2.390136e-05	0.01254758	0.008816489	0.0002893886	0.0006394026	0.007976798	0.01237799
	0.00847095	0.01203962	0.0002893886	0.0006394026	0.01390773	0.008194327	3.860695e-05	-2.239346e-05
	6.824326e-06	-5.091233e-06	0.007976798	0.01237799	3.860695e-05	-2.239346e-05	0.01266743	0.009055138
4.7e+08	0.01572321	0.007787298	3.764603e-05	-2.789502e-05	0.009930438	0.01209074	6.258487e-06	-5.64998e-06
	3.764603e-05	-2.789502e-05	0.01452378	0.008699896	0.0003414688	0.0006242736	0.009373243	0.012534
	0.009930438	0.01209074	0.0003414688	0.0006242736	0.01603838	0.007814432	3.798476e-05	-2.621142e-05
	6.258487e-06	-5.64998e-06	0.009373243	0.012534	3.798476e-05	-2.621142e-05	0.01464395	0.008935097
