!$
! Info: Touchstone file created by Circ.  Input file=Tx_8in_Rx_85ohms_TxVia_35mils_RxVia_45mils.circ
!$
# Hz S RI R 50
0	0.006528972	1.117899e-25	0.9933302	-1.12358e-25	6.20031e-05	1.238624e-23	-6.008196e-05	2.057318e-21
	0.9933302	-1.147273e-25	0.006527861	1.299744e-25	-6.04528e-05	2.102791e-21	6.242382e-05	1.472197e-23
	6.016632e-05	1.271961e-23	-6.058019e-05	2.118467e-21	0.006541535	1.065689e-25	0.9933143	-1.063509e-25
	-6.046131e-05	2.10385e-21	6.057642e-05	1.479457e-23	0.9933143	-1.061608e-25	0.006541023	1.217705e-25
1e+07	0.008554228	-0.007330107	0.986635	-0.08716805	0.0002521234	0.001560485	-9.597668e-05	9.507496e-06
	0.986635	-0.08716805	0.008545308	-0.007329803	-9.598592e-05	9.519581e-06	0.0002491191	0.001561281
	0.0002520636	0.001560489	-9.604361e-05	9.531683e-06	0.00854393	-0.007318113	0.986638	-0.08726177
	-9.603438e-05	9.519598e-06	0.000249059	0.001561291	0.986638	-0.08726177	0.008533885	-0.007317566
2e+07	0.008870524	-0.01682889	0.9726312	-0.1709062	0.0006802933	0.003021828	-7.467184e-05	4.973982e-05
	0.9726312	-0.1709062	0.008835703	-0.01682402	-7.469989e-05	4.974939e-05	0.0006687039	0.003025162
	0.0006802814	0.003021866	-7.471051e-05	4.97916e-05	0.008869488	-0.01679774	0.972603	-0.1710988
	-7.468442e-05	4.978307e-05	0.000668696	0.003025196	0.972603	-0.1710988	0.00883038	-0.01679177
3e+07	0.006791157	-0.02705314	0.9523395	-0.2519212	0.001337453	0.00437156	-1.038872e-05	7.72157e-05
	0.9523395	-0.2519212	0.006714978	-0.02703485	-1.046197e-05	7.726071e-05	0.001312413	0.004380452
	0.001337456	0.004371565	-1.045969e-05	7.726701e-05	0.00679876	-0.02701071	0.9522667	-0.2522017
	-1.038648e-05	7.722239e-05	0.001312413	0.004380457	0.9522667	-0.2522017	0.006713372	-0.02698926
4e+07	0.002690266	-0.03698989	0.9256697	-0.3303798	0.002202478	0.005575721	8.584745e-05	7.413907e-05
	0.9256697	-0.3303798	0.002559604	-0.03694601	8.573987e-05	7.423977e-05	0.002159969	0.005594319
	0.002202473	0.005575717	8.573299e-05	7.423591e-05	0.002706164	-0.03693923	0.9255387	-0.3307399
	8.584021e-05	7.413467e-05	0.002159964	0.005594317	0.9255387	-0.3307399	0.002559931	-0.03688867
5e+07	-0.00319245	-0.04619478	0.8927708	-0.4059031	0.003245562	0.00660202	0.000201335	2.850047e-05
	0.8927708	-0.4059031	-0.003387659	-0.04610976	0.0002011972	2.867408e-05	0.003182657	0.006635422
	0.003245558	0.006602019	0.0002011918	2.867329e-05	-0.003168816	-0.04613818	0.8925688	-0.4063335
	0.0002013293	2.84995e-05	0.003182653	0.006635421	0.8925688	-0.4063335	-0.00338706	-0.0460411
6e+07	-0.01062409	-0.05434407	0.8538915	-0.4780468	0.004431286	0.007424022	0.0003208298	-6.698895e-05
	0.8538915	-0.4780468	-0.01088988	-0.0542	0.0003206737	-6.671835e-05	0.004346329	0.007477991
	0.00443129	0.007424022	0.0003206782	-6.67192e-05	-0.01059358	-0.05428339	0.8536071	-0.478537
	0.0003208348	-6.698978e-05	0.004346332	0.00747799	0.8536071	-0.478537	-0.01089048	-0.05411975
7e+07	-0.01935531	-0.06118431	0.8093459	-0.5463654	0.005720385	0.008022214	0.000427835	-0.0002147829
	0.8093459	-0.5463654	-0.01969345	-0.060962	0.0004276862	-0.0002143934	0.005613089	0.008102893
	0.005720397	0.008022211	0.0004276996	-0.0002143999	-0.01931907	-0.06112103	0.8089685	-0.5469037
	0.0004278497	-0.0002147899	0.005613096	0.008102889	0.8089685	-0.5469037	-0.01969645	-0.06086941
8e+07	-0.02911731	-0.06651973	0.7594979	-0.6104357	0.007071248	0.008384601	0.0005057447	-0.0004127234
	0.7594979	-0.6104357	-0.02952521	-0.06619965	0.0005056396	-0.000412202	0.006942734	0.008498233
	0.007071262	0.008384593	0.000505655	-0.0004122146	-0.02907666	-0.06645496	0.7590184	-0.6110092
	0.0005057617	-0.000412737	0.006942744	0.008498227	0.7590184	-0.6110092	-0.02953154	-0.06609356
9e+07	-0.03962525	-0.07020885	0.7047517	-0.6698681	0.008441528	0.008507118	0.0005387287	-0.0006544817
	0.7047517	-0.6698681	-0.04009604	-0.06977187	0.0005387101	-0.0006538281	0.008294348	0.008659766
	0.008441538	0.00850711	0.0005387201	-0.0006538404	-0.03958169	-0.07014335	0.7041625	-0.6704626
	0.0005387397	-0.0006544952	0.008294354	0.008659759	0.7041625	-0.6704626	-0.04010627	-0.06965085
1e+08	-0.05058605	-0.072165	0.6455458	-0.7243111	0.009791133	0.008395078	0.0005109144	-0.0009316894
	0.6455458	-0.7243111	-0.05110863	-0.07159327	0.0005110271	-0.0009309168	0.009629232	0.008592329
	0.009791133	0.008395078	0.0005110271	-0.0009309168	-0.05054131	-0.07209937	0.6448411	-0.7249113
	0.0005109144	-0.0009316894	0.009629232	0.008592329	0.6448411	-0.7249113	-0.05112313	-0.07145585
1.1e+08	-0.06170561	-0.07234529	0.5823492	-0.7734774	0.01108393	0.008047649	0.000406792	-0.001215135
	0.5823492	-0.7734774	-0.06226213	-0.07162366	0.0004070863	-0.001214254	0.01091278	0.008294017
	0.01108393	0.008047649	0.0004070864	-0.001214254	-0.06165994	-0.07227968	0.5815262	-0.774069
	0.0004067921	-0.001215135	0.01091278	0.008294017	0.5815262	-0.774069	-0.06227993	-0.07146767
1.2e+08	-0.072676	-0.07075457	0.5156156	-0.8171028	0.01227064	0.007485557	0.0002353426	-0.001493789
	0.5156156	-0.8171028	-0.07324896	-0.06987131	0.0002358513	-0.001492847	0.0120964	0.007784817
	0.01227064	0.007485557	0.0002358513	-0.001492847	-0.07263164	-0.0706886	0.5146711	-0.8176701
	0.0002353426	-0.001493789	0.0120964	0.007784817	0.5146711	-0.8176701	-0.07326927	-0.06969493
1.3e+08	-0.08321382	-0.06745746	0.4458345	-0.8549672	0.0133202	0.00673463	-7.473971e-06	-0.001753051
	0.4458345	-0.8549672	-0.08378244	-0.06640372	-6.730458e-06	-0.001752101	0.01314999	0.007089322
	0.0133202	0.00673463	-6.730437e-06	-0.001752101	-0.08317256	-0.06739007	0.4447675	-0.8554938
	-7.473952e-06	-0.001753051	0.01314999	0.007089322	0.4447675	-0.8554938	-0.08380397	-0.06620521
1.4e+08	-0.09305244	-0.06256002	0.3734994	-0.8868969	0.01420499	0.005823298	-0.0003194494	-0.001975767
	0.3734994	-0.8868969	-0.09359333	-0.06133093	-0.0003184634	-0.001974864	0.01404662	0.006234525
	0.01420499	0.005823298	-0.0003184634	-0.001974864	-0.09301545	-0.06248973	0.372311	-0.8873661
	-0.0003194494	-0.001975767	0.01404662	0.006234525	0.372311	-0.8873661	-0.09361418	-0.06110879
1.5e+08	-0.1019494	-0.05620745	0.299105	-0.9127601	0.01490268	0.004783353	-0.0006937977	-0.002145337
	0.299105	-0.9127601	-0.1024374	-0.05480285	-0.0006925745	-0.002144538	0.01476434	0.005250641
	0.01490268	0.004783353	-0.0006925744	-0.002144538	-0.1019172	-0.05613268	0.2977985	-0.9131551
	-0.0006937977	-0.002145337	0.01476434	0.005250641	0.2977985	-0.9131551	-0.1024551	-0.05455599
1.6e+08	-0.1096913	-0.04857935	0.2231446	-0.9324641	0.01539669	0.003649101	-0.001119692	-0.002246943
	0.2231446	-0.9324641	-0.1101008	-0.04700424	-0.00111825	-0.002246304	0.01528665	0.00417031
	0.01539669	0.003649101	-0.00111825	-0.002246304	-0.1096639	-0.0484986	0.2217249	-0.9327685
	-0.001119692	-0.002246943	0.01528665	0.00417031	0.2217249	-0.9327685	-0.1101125	-0.04673219
1.7e+08	-0.1160985	-0.03988433	0.146107	-0.9459527	0.01567639	0.0024564	-0.001582911	-0.002268493
	0.146107	-0.9459527	-0.1164041	-0.03814899	-0.001581282	-0.002268067	0.01560261	0.003027713
	0.01567639	0.0024564	-0.001581282	-0.002268067	-0.1160756	-0.03979627	0.144581	-0.9461506
	-0.001582911	-0.002268493	0.01560261	0.003027713	0.144581	-0.9461506	-0.1164069	-0.03785194
1.8e+08	-0.1210277	-0.03035417	0.06847474	-0.9532037	0.01573703	0.001241732	-0.002066625	-0.002201343
	0.06847474	-0.9532037	-0.1212058	-0.02847408	-0.002064853	-0.002201172	0.0157069	0.001857705
	0.01573703	0.001241732	-0.002064853	-0.002201172	-0.1210087	-0.03025771	0.06685134	-0.9532797
	-0.002066625	-0.002201343	0.0157069	0.001857705	0.06685134	-0.9532797	-0.1211966	-0.02815294
1.9e+08	-0.1243748	-0.02023782	-0.009276464	-0.9542266	0.01557969	4.133689e-05	-0.002552298	-0.002040791
	-0.009276464	-0.9542266	-0.1244045	-0.01823331	-0.002550436	-0.002040909	0.01559965	0.0006950066
	0.01557969	4.133688e-05	-0.002550436	-0.002040909	-0.124359	-0.02013208	-0.01098668	-0.9541661
	-0.002552298	-0.002040791	0.01559965	0.0006950066	-0.01098668	-0.9541661	-0.1243804	-0.01788969
2e+08	-0.1260766	-0.009795243	-0.08667891	-0.9490601	0.01521097	-0.001109588	-0.003020653	-0.001786348
	-0.08667891	-0.9490601	-0.1259404	-0.007690982	-0.003018766	-0.001786776	0.01528622	-0.0004265238
	0.01521097	-0.001109588	-0.003018766	-0.001786776	-0.1260631	-0.009679531	-0.08846368	-0.9488497
	-0.003020653	-0.001786348	0.01528622	-0.0004265238	-0.08846368	-0.9488497	-0.1258988	-0.007327104
2.1e+08	-0.1261108	0.0007088185	-0.1632728	-0.9377714	0.01464272	-0.002177605	-0.003452664	-0.001441782
	-0.1632728	-0.9377714	-0.1257959	0.002884522	-0.00345082	-0.001442525	0.01477699	-0.001474562
	0.01464272	-0.002177605	-0.00345082	-0.001442525	-0.1260988	0.0008350041	-0.1651183	-0.9373987
	-0.003452664	-0.001441782	0.01477699	-0.001474562	-0.1651183	-0.9373987	-0.1257346	0.003265852
2.2e+08	-0.1244967	0.01101095	-0.2386065	-0.9204544	0.01389168	-0.0031317	-0.003830508	-0.001014932
	-0.2386065	-0.9204544	-0.1239953	0.01322697	-0.003828775	-0.001015976	0.01408696	-0.002418927
	0.01389168	-0.0031317	-0.003828775	-0.001015976	-0.1244852	0.01114795	-0.2404973	-0.9199083
	-0.003830508	-0.001014932	0.01408696	-0.002418927	-0.2404973	-0.9199083	-0.1239126	0.01362248
2.3e+08	-0.1212937	0.02085509	-0.3122359	-0.8972296	0.01297904	-0.003943886	-0.004138451	-0.0005173145
	-0.3122359	-0.8972296	-0.1206035	0.02307841	-0.004136895	-0.0005186307	0.01323547	-0.003232148
	0.01297904	-0.003943886	-0.004136895	-0.0005186307	-0.1212817	0.0210031	-0.3141554	-0.8965007
	-0.004138451	-0.0005173145	0.01323547	-0.003232148	-0.3141554	-0.8965007	-0.1204985	0.02348447
2.4e+08	-0.1165996	0.0299983	-0.3837251	-0.8682441	0.01193005	-0.004589764	-0.004363615	3.644418e-05
	-0.3837251	-0.8682441	-0.1157246	0.03219507	-0.004362291	3.490193e-05	0.01224577	-0.003889998
	0.01193005	-0.004589765	-0.004362291	3.490193e-05	-0.1165863	0.03015736	-0.3856553	-0.8673243
	-0.004363615	3.644418e-05	0.01224577	-0.003889998	-0.3856553	-0.8673243	-0.115597	0.03260782
2.5e+08	-0.1105486	0.0382163	-0.4526461	-0.8336717	0.01077344	-0.005049053	-0.004496592	0.0006293456
	-0.4526461	-0.8336717	-0.109499	0.0403529	-0.004495546	0.0006276373	0.01114456	-0.004371998
	0.01077344	-0.005049053	-0.004495546	0.0006276373	-0.1105329	0.03838632	-0.4545681	-0.8325548
	-0.004496592	0.0006293456	0.01114456	-0.004371998	-0.4545681	-0.8325548	-0.1093491	0.04076837
2.6e+08	-0.1033077	0.0453086	-0.5185795	-0.7937139	0.009540908	-0.005306074	-0.004531883	0.001242866
	-0.5185795	-0.7937139	-0.1020998	0.0473528	-0.004531141	0.001241062	0.009961539	-0.0046619
	0.009540908	-0.005306074	-0.004531141	0.001241062	-0.1032887	0.04548935	-0.5204735	-0.7923957
	-0.004531883	0.001242866	0.009961539	-0.0046619	-0.5204735	-0.7923957	-0.1019288	0.04776705
2.7e+08	-0.09507297	0.05110322	-0.5811156	-0.7486013	0.008266485	-0.005350203	-0.004468125	0.001857887
	-0.5811156	-0.7486013	-0.09372922	0.05302528	-0.004467696	0.001856064	0.008728818	-0.004748139
	0.008266485	-0.005350203	-0.004467696	0.001856064	-0.09504984	0.0512943	-0.582961	-0.7470794
	-0.004468125	0.001857887	0.008728818	-0.004748139	-0.582961	-0.7470794	-0.09353902	0.05343455
2.8e+08	-0.08606516	0.05546086	-0.6398559	-0.6985943	0.006985796	-0.005176263	-0.00430811	0.002455651
	-0.6398559	-0.6985943	-0.08461365	0.05723468	-0.004307981	0.002453887	0.007480263	-0.004624246
	0.006985796	-0.005176263	-0.004307981	0.002453887	-0.08603697	0.05566173	-0.6416317	-0.6968682
	-0.00430811	0.002455651	0.007480264	-0.004624246	-0.6416317	-0.6968682	-0.08440684	0.05763549
2.9e+08	-0.0765243	0.05827843	-0.6944153	-0.6439845	0.005735269	-0.00478484	-0.004058568	0.003018711
	-0.6944153	-0.6439845	-0.07499819	0.05988258	-0.004058707	0.003017076	0.006250763	-0.004289187
	0.005735269	-0.00478484	-0.004058707	0.003017076	-0.07649026	0.05848841	-0.6961001	-0.6420561
	-0.004058568	0.003018711	0.006250763	-0.004289187	-0.6961001	-0.6420561	-0.07477805	0.06027192
3e+08	-0.06670417	0.05949188	-0.7444249	-0.5850959	0.004551235	-0.004182502	-0.003729747	0.003531793
	-0.7444249	-0.5850959	-0.0651409	0.06091056	-0.003730101	0.003530351	0.005075391	-0.003747623
	0.004551235	-0.004182502	-0.003730101	0.003530351	-0.0666636	0.05971014	-0.7459972	-0.5829691
	-0.003729747	0.003531793	0.005075391	-0.003747623	-0.7459972	-0.5829691	-0.06491129	0.06128594
3.1e+08	-0.05686609	0.05907816	-0.7895353	-0.5222854	0.003468961	-0.003381879	-0.003334784	0.003982561
	-0.7895353	-0.5222854	-0.05530642	0.06030202	-0.003335286	0.003981356	0.003988484	-0.003010038
	0.003468961	-0.003381879	-0.003335286	0.003981356	-0.05681842	0.05930371	-0.7909736	-0.5199662
	-0.003334784	0.003982561	0.003988484	-0.003010038	-0.7909736	-0.5199662	-0.05507169	0.06066161
3.2e+08	-0.04727236	0.05705617	-0.8294205	-0.4559428	0.002521602	-0.002401586	-0.002888913	0.004362193
	-0.8294205	-0.4559428	-0.04575925	0.05808301	-0.00288948	0.004361252	0.003022643	-0.002092719
	0.002521602	-0.002401586	-0.00288948	0.004361252	-0.04721721	0.05728791	-0.8307035	-0.4534395
	-0.002888913	0.004362193	0.003022643	-0.002092719	-0.8307035	-0.4534395	-0.04552415	0.05842573
3.3e+08	-0.03817961	0.05348679	-0.8637821	-0.3864906	0.001739139	-0.001265947	-0.002408538	0.004665766
	-0.8637821	-0.3864906	-0.03675696	0.05432197	-0.002409086	0.004665092	0.002207703	-0.001017549
	0.001739139	-0.001265947	-0.002409086	0.004665092	-0.03811677	0.05372354	-0.8648893	-0.3838136
	-0.002408538	0.004665766	0.002207703	-0.001017549	-0.8648893	-0.3838136	-0.03652648	0.0546476
3.4e+08	-0.02983194	0.04847173	-0.8923542	-0.3143824	0.001147315	-4.508248e-06	-0.001910247	0.004892397
	-0.8923542	-0.3143824	-0.02854325	0.04912849	-0.001910688	0.004891966	0.001569691	0.000188413
	0.001147315	-4.508249e-06	-0.001910688	0.004891966	-0.02976138	0.0487123	-0.8932656	-0.3115443
	-0.001910247	0.004892397	0.001569691	0.000188413	-0.8932656	-0.3115443	-0.02832245	0.04943772
3.5e+08	-0.02245433	0.04215133	-0.9149075	-0.2401009	0.0007666375	0.001348667	-0.001409796	0.005045126
	-0.9149075	-0.2401009	-0.02134129	0.04265071	-0.001410053	0.005044891	0.001129838	0.001493561
	0.0007666375	0.001348667	-0.001410053	0.005044891	-0.02237627	0.04239444	-0.915604	-0.2371163
	-0.001409796	0.005045126	0.001129838	0.001493561	-0.915604	-0.2371163	-0.02113521	0.0429451
3.6e+08	-0.01624641	0.03470108	-0.9312542	-0.1641545	0.0006114954	0.002755936	-0.0009211634	0.005130555
	-0.9312542	-0.1641545	-0.01534746	0.03507175	-0.0009211701	0.005130448	0.0009036921	0.002862598
	0.0006114954	0.002755936	-0.0009211701	0.005130448	-0.01616129	0.03494549	-0.931718	-0.1610402
	-0.0009211634	0.005130555	0.0009036921	0.002862598	-0.931718	-0.1610402	-0.01516091	0.03535375
3.7e+08	-0.01137668	0.02632721	-0.9412522	-0.08707369	0.0006894471	0.004177206	-0.0004557105	0.005158242
	-0.9412522	-0.08707369	-0.01072564	0.02660487	-0.0004554229	0.005158173	0.0009003932	0.004257594
	0.0006894471	0.004177206	-0.0004554229	0.005158173	-0.01128521	0.0265717	-0.9414666	-0.08384828
	-0.0004557105	0.005158242	0.0009003933	0.004257594	-0.9414666	-0.08384828	-0.01056309	0.02687784
3.8e+08	-0.007977712	0.01726113	-0.9448085	-0.009405797	0.001000738	0.005571235	-2.153374e-05	0.005139895
	-0.9448085	-0.009405797	-0.007602491	0.01748781	-2.093252e-05	0.005139764	0.001122157	0.005639209
	0.001000738	0.005571235	-2.093252e-05	0.005139764	-0.007880826	0.01750463	-0.9447584	-0.00608982
	-2.153374e-05	0.005139895	0.001122157	0.005639209	-0.9447584	-0.00608982	-0.007467859	0.0177559
3.9e+08	-0.006142179	0.007753175	-0.9418822	0.06829057	0.001538089	0.00689704	0.0003769591	0.005088427
	-0.9418822	0.06829057	-0.006063588	0.007976177	0.0003778646	0.005088126	0.001564022	0.00696803
	0.001538089	0.00689704	0.0003778646	0.005088126	-0.006041047	0.007994765	-0.9415542	0.07167485
	0.0003769591	0.005088427	0.001564022	0.00696803	-0.9415542	0.07167485	-0.005960136	0.008244279
4e+08	-0.005920135	-0.001934407	-0.9324864	0.1454517	0.00228678	0.008115361	0.000739204	0.005016917
	-0.9324864	0.1454517	-0.006150915	-0.001663739	0.0007403743	0.005016341	0.002213877	0.008205974
	0.00228678	0.008115361	0.0007403743	0.005016341	-0.005816121	-0.001695451	-0.931869	0.1488805
	0.000739204	0.005016917	0.002213877	0.008205974	-0.931869	0.1488805	-0.00608109	-0.001390101
4.1e+08	-0.00731753	-0.01153486	-0.9166893	0.2215157	0.003225059	0.009190093	0.001068357	0.004937574
	-0.9166893	0.2215157	-0.007861591	-0.01116255	0.001069723	0.004936628	0.003052799	0.009317664
	0.003225059	0.009190093	0.001069723	0.004936628	-0.007212157	-0.011299	-0.9157731	0.2249637
	0.001068357	0.004937574	0.003052799	0.009317664	-0.9157731	0.2249637	-0.007826916	-0.01087736
4.2e+08	-0.01029609	-0.02078446	-0.8946137	0.2959287	0.004324837	0.01008962	0.001370894	0.004860766
	-0.8946137	0.2959287	-0.01114801	-0.02025548	0.00137236	0.004859373	0.004055678	0.01027172
	0.004324837	0.01008962	0.00137236	0.004859373	-0.01019099	-0.02055188	-0.8933917	0.2993694
	0.001370894	0.004860766	0.004055678	0.01027172	-0.8933917	0.2993694	-0.01114899	-0.0199524
4.3e+08	-0.01477454	-0.02943006	-0.8664361	0.3681523	0.005552672	0.01078796	0.001655969	0.004794193
	-0.8664361	0.3681523	-0.01591937	-0.02868993	0.001657418	0.004792301	0.005192106	0.0110419
	0.005552672	0.01078796	0.001657418	0.004792301	-0.01467143	-0.0292006	-0.8649034	0.371558
	0.001655969	0.004794193	0.005192106	0.0110419	-0.8649034	0.371558	-0.01595542	-0.02836245
4.4e+08	-0.0206312	-0.03723609	-0.8323838	0.4376693	0.00687097	0.01126574	0.001934574	0.004742259
	-0.8323838	0.4376693	-0.0220445	-0.03623262	0.001935874	0.004739847	0.006427495	0.01160801
	0.00687097	0.01126574	0.001935874	0.004739847	-0.02053175	-0.0370093	-0.8305381	0.4410117
	0.001934574	0.004742259	0.006427495	0.01160801	-0.8305381	0.4410117	-0.02211393	-0.03587428
4.5e+08	-0.0277077	-0.04399116	-0.7927317	0.50399	0.008239351	0.01151079	0.00221856	0.004705701
	-0.7927317	0.50399	-0.02935597	-0.0426761	0.002219572	0.004702782	0.007724344	0.01195653
	0.008239351	0.01151079	0.002219572	0.004702782	-0.02761353	-0.04376623	-0.7905734	0.5072399
	0.00221856	0.004705701	0.007724344	0.01195653	-0.7905734	0.5072399	-0.02945595	-0.04228064
4.6e+08	-0.03581381	-0.04951368	-0.747798	0.5666569	0.009616105	0.01151848	0.002519601	0.004681486
	-0.747798	0.5666569	-0.03765517	-0.04784426	0.002520188	0.00467811	0.0090436	0.01208101
	0.009616105	0.01151848	0.002520188	0.00467811	-0.03572641	-0.04928949	-0.7453303	0.5697852
	0.002519601	0.004681486	0.0090436	0.01208101	-0.7453303	0.5697852	-0.03778181	-0.04740587
4.7e+08	-0.04473318	-0.05365652	-0.6979395	0.6252495	0.01095966	0.01129181	0.002848175	0.00466299
	-0.6979395	0.6252495	-0.04671832	-0.05159698	0.002848214	0.00465924	0.01034604	0.01198213
	0.01095966	0.01129181	0.002848214	0.00465924	-0.04465381	-0.05343164	-0.6951682	0.6282266
	0.002848175	0.00466299	0.01034604	0.01198213	-0.6951682	0.6282266	-0.04686667	-0.05111044
4.8e+08	-0.05422957	-0.05631059	-0.6435456	0.679387	0.01222999	0.01084106	0.00321263	0.004640437
	-0.6435456	0.679387	-0.05630299	-0.05383339	0.003212015	0.004636427	0.01159359	0.01166743
	0.01222999	0.01084106	0.003212015	0.004636427	-0.05415927	-0.05608336	-0.6404795	0.6821835
	0.00321263	0.004640437	0.01159359	0.01166743	-0.6404795	0.6821835	-0.0564672	-0.05329428
4.9e+08	-0.06405368	-0.05740717	-0.5850334	0.7287306	0.01338992	0.01018329	0.003618399	0.004601558
	-0.5850334	0.7287306	-0.06615507	-0.05449408	0.003617056	0.004597431	0.01275056	0.01115092
	0.01338992	0.01018329	0.003617056	0.004597431	-0.06399314	-0.0571757	-0.581684	0.7313178
	0.003618399	0.004601558	0.01275056	0.01115092	-0.581684	0.7313178	-0.0663285	-0.05389894
5e+08	-0.07394999	-0.05691907	-0.5228418	0.7729853	0.01440621	0.009341585	0.004067431	0.004532437
	-0.5228418	0.7729853	-0.0760159	-0.05356197	0.004065317	0.004528352	0.01378467	0.01045233
	0.01440621	0.009341585	0.004065317	0.004528352	-0.07389958	-0.05668136	-0.5192235	0.7753351
	0.004067431	0.004532437	0.01378467	0.01045233	-0.5192235	0.7753351	-0.07619127	-0.05290843
5.1e+08	-0.08366365	-0.05486061	-0.457426	0.8118996	0.01525049	0.008344078	0.004557842	0.004418454
