!$
! Info: Touchstone file created by Circ.  Input file=Tx_8in_Rx_100ohms_TxVia_35mils_RxVia_45mils.circ
!$
# Hz S RI R 50
0	0.008379792	1.113094e-25	1.760527e-08	1.855826e-26	6.17483e-05	1.592739e-23	3.426649e-08	4.119235e-27
	1.760529e-08	1.855701e-26	0.00837867	1.294074e-25	3.419235e-08	6.722055e-26	6.216802e-05	1.893206e-23
	5.991059e-05	1.635599e-23	3.419235e-08	6.722088e-26	0.008392281	1.061121e-25	2.089675e-08	2.200105e-26
	3.426649e-08	4.119891e-27	6.032026e-05	1.902533e-23	2.089675e-08	2.200223e-26	0.008391802	1.21242e-25
1e+07	0.01225746	0.005559367	2.770759e-08	4.903225e-08	0.0005044474	0.001580996	8.133039e-08	1.45611e-07
	2.770759e-08	4.903225e-08	0.01225224	0.005558647	5.9199e-08	1.555652e-07	0.0005017233	0.001581726
	0.0005043874	0.001581	5.9199e-08	1.555652e-07	0.01214999	0.005578152	3.27084e-08	5.866916e-08
	8.133039e-08	1.45611e-07	0.0005016629	0.001581736	3.27084e-08	5.866916e-08	0.01214363	0.005577734
2e+07	0.01583883	0.008173626	4.616788e-08	8.588136e-08	0.0007828254	0.003248123	1.62291e-07	2.463291e-07
	4.616788e-08	8.588136e-08	0.01581813	0.008174332	8.391931e-08	2.815477e-07	0.0007723846	0.003251177
	0.0007828124	0.003248161	8.391931e-08	2.815477e-07	0.01577042	0.008250876	5.463618e-08	1.026632e-07
	1.622908e-07	2.463292e-07	0.0007723757	0.003251212	5.463618e-08	1.026632e-07	0.01574543	0.008252796
3e+07	0.01899162	0.009389627	6.804945e-08	1.169638e-07	0.001326649	0.004700491	2.674584e-07	3.209376e-07
	6.804945e-08	1.169638e-07	0.018946	0.009396851	1.043168e-07	4.017668e-07	0.001304058	0.004708561
	0.001326651	0.004700496	1.043167e-07	4.017668e-07	0.01895911	0.009490034	8.056385e-08	1.39812e-07
	2.674584e-07	3.209376e-07	0.001304058	0.004708566	8.056385e-08	1.39812e-07	0.01890429	0.009500494
4e+07	0.02193066	0.009853424	9.347599e-08	1.418092e-07	0.002121514	0.005990567	3.947295e-07	3.647503e-07
	9.347599e-08	1.418092e-07	0.02185188	0.009874072	1.238421e-07	5.178196e-07	0.002083065	0.00600731
	0.002121509	0.005990562	1.238421e-07	5.178196e-07	0.02193303	0.009964627	1.106704e-07	1.696238e-07
	3.947295e-07	3.647503e-07	0.002083059	0.006007308	1.106703e-07	1.696238e-07	0.02183863	0.009991944
5e+07	0.02469146	0.009730313	1.210268e-07	1.59617e-07	0.003238689	0.00704679	5.370322e-07	3.730521e-07
	1.210268e-07	1.59617e-07	0.02457291	0.009773489	1.424585e-07	6.299027e-07	0.003181566	0.007076596
	0.003238684	0.007046788	1.424585e-07	6.299027e-07	0.02472743	0.009843267	1.433467e-07	1.911425e-07
	5.370322e-07	3.730521e-07	0.003181562	0.007076595	1.433467e-07	1.911425e-07	0.02458566	0.009898368
6e+07	0.027264	0.0091089	1.492907e-07	1.70202e-07	0.004488717	0.007893783	6.863713e-07	3.430678e-07
	1.492907e-07	1.70202e-07	0.0271014	0.009185229	1.598057e-07	7.385163e-07	0.004411208	0.007941752
	0.004488721	0.007893783	1.598057e-07	7.385163e-07	0.02733151	0.00921595	1.768968e-07	2.040978e-07
	6.863713e-07	3.430678e-07	0.00441121	0.007941751	1.768968e-07	2.040978e-07	0.02713742	0.009311552
7e+07	0.02962137	0.008051508	1.767605e-07	1.735133e-07	0.005837565	0.008515694	8.343784e-07	2.734981e-07
	1.767605e-07	1.735133e-07	0.02941294	0.008172436	1.755227e-07	8.441211e-07	0.00573912	0.008587304
	0.005837577	0.008515692	1.755227e-07	8.441211e-07	0.02971749	0.008145914	2.095207e-07	2.084333e-07
	8.343784e-07	2.734981e-07	0.005739128	0.008587301	2.095207e-07	2.084333e-07	0.02946907	0.008295684
8e+07	0.03173141	0.006612123	2.019224e-07	1.697358e-07	0.007247954	0.008900955	9.724837e-07	1.645347e-07
	2.019224e-07	1.697358e-07	0.03147779	0.006789448	1.892696e-07	9.471347e-07	0.007129241	0.00900184
	0.007247969	0.008900949	1.892697e-07	9.471347e-07	0.03185225	0.006687915	2.394299e-07	2.043833e-07
	9.724837e-07	1.645347e-07	0.007129251	0.009001835	2.394299e-07	2.043833e-07	0.03155042	0.006905916
9e+07	0.03356302	0.004843761	2.232797e-07	1.59316e-07	0.008680053	0.009043016	1.092109e-06	1.796439e-08
	2.232797e-07	1.59316e-07	0.03326734	0.005089238	2.007085e-07	1.047964e-06	0.008542978	0.009178735
	0.008680065	0.00904301	2.007085e-07	1.047964e-06	0.03370365	0.00489564	2.648724e-07	1.924832e-07
	1.092109e-06	1.796439e-08	0.008542986	0.00917873	2.648724e-07	1.924832e-07	0.03335222	0.005195877
1e+08	0.03509961	0.002809332	2.394004e-07	1.429858e-07	0.0100882	0.008937263	1.184948e-06	-1.627819e-07
	2.394004e-07	1.429858e-07	0.03476745	0.003134239	2.095258e-07	1.147017e-06	0.009935885	0.009113068
	0.0100882	0.008937263	2.095258e-07	1.147017e-06	0.03525288	0.002831796	2.841785e-07	1.735882e-07
	1.184948e-06	-1.627819e-07	0.009935885	0.009113068	2.841785e-07	1.735882e-07	0.03485864	0.003227703
1.1e+08	0.03633301	0.0004725936	2.490297e-07	1.218955e-07	0.01142395	0.008625733	1.243113e-06	-3.72022e-07
	2.490297e-07	1.218955e-07	0.03597511	0.0008867047	2.154668e-07	1.24493e-06	0.011261	0.008846069
	0.01142395	0.008625733	2.154668e-07	1.24493e-06	0.03649119	0.0004685064	2.957908e-07	1.489977e-07
	1.243113e-06	-3.72022e-07	0.011261	0.008846069	2.957908e-07	1.489977e-07	0.03606595	0.000972314
1.2e+08	0.0371574	-0.002059873	2.510893e-07	9.729777e-08	0.01268629	0.008105057	1.260629e-06	-6.030174e-07
	2.510893e-07	9.729777e-08	0.03678284	-0.00154874	2.1822e-07	1.342539e-06	0.01251795	0.008373709
	0.01268629	0.008105057	2.1822e-07	1.342539e-06	0.03731739	-0.002090119	2.984552e-07	1.202316e-07
	1.260629e-06	-6.030174e-07	0.01251795	0.008373709	2.984552e-07	1.202316e-07	0.03687311	-0.001468913
1.3e+08	0.0375738	-0.00471174	2.447661e-07	7.06654e-08	0.0138344	0.007385048	1.232399e-06	-8.479515e-07
	2.447661e-07	7.06654e-08	0.03719394	-0.004096896	2.178184e-07	1.440459e-06	0.01366681	0.007704814
	0.0138344	0.007385048	2.178184e-07	1.440459e-06	0.03773121	-0.004767976	2.912063e-07	8.903077e-08
	1.232399e-06	-8.479515e-07	0.01366681	0.007704815	2.912063e-07	8.903077e-08	0.03728226	-0.004021745
1.4e+08	0.03757919	-0.00741869	2.295151e-07	4.363008e-08	0.01483523	0.006486547	1.1548e-06	-1.097952e-06
	2.295151e-07	4.363008e-08	0.03720746	-0.006695429	2.14361e-07	1.539318e-06	0.01467523	0.006859044
	0.01483523	0.006486547	2.14361e-07	1.539318e-06	0.03772966	-0.007500064	2.733953e-07	5.73259e-08
	1.1548e-06	-1.097952e-06	0.01467523	0.006859044	2.733953e-07	5.73259e-08	0.03729249	-0.00662377
1.5e+08	0.03717651	-0.01011856	2.050916e-07	1.793943e-08	0.01566053	0.005436225	1.025888e-06	-1.343388e-06
	2.050916e-07	1.793943e-08	0.03682785	-0.009284796	2.080364e-07	1.639732e-06	0.01551541	0.005861738
	0.01566053	0.005436225	2.080364e-07	1.639732e-06	0.03731593	-0.01022357	2.447297e-07	2.71854e-08
	1.025888e-06	-1.343388e-06	0.01551541	0.005861738	2.447297e-07	2.71854e-08	0.03690848	-0.009215337
1.6e+08	0.03637587	-0.01275107	1.71577e-07	-4.596354e-09	0.01628717	0.004265284	8.455473e-07	-1.574184e-06
	1.71577e-07	-4.596354e-09	0.0360661	-0.01180774	1.991288e-07	1.742291e-06	0.01616446	0.004742674
	0.01628717	0.004265284	1.991288e-07	1.742291e-06	0.03650042	-0.01287765	2.053025e-07	7.518606e-10
	8.455473e-07	-1.574184e-06	0.01616446	0.004742674	2.053025e-07	7.518606e-10	0.03614147	-0.01173913
1.7e+08	0.0351949	-0.0152584	1.29393e-07	-2.216384e-08	0.01669772	0.003008416	6.155797e-07	-1.780164e-06
	1.29393e-07	-2.216384e-08	0.03494	-0.01420972	1.880198e-07	1.847549e-06	0.01660485	0.003535068
	0.01669772	0.003008416	1.880198e-07	1.847549e-06	0.03530112	-0.01540398	1.556099e-07	-1.982835e-08
	6.155797e-07	-1.780164e-06	0.01660485	0.003535068	1.556099e-07	-1.982835e-08	0.03500951	-0.01414058
1.8e+08	0.03365871	-0.01758616	7.93054e-08	-3.300913e-08	0.01688079	0.001702763	3.397295e-07	-1.951413e-06
	7.93054e-08	-3.300913e-08	0.03347415	-0.01643957	1.751874e-07	1.955997e-06	0.01682484	0.002274598
	0.01688079	0.001702763	1.751874e-07	1.955997e-06	0.03374352	-0.01774764	9.65554e-08	-3.247951e-08
	3.397295e-07	-1.951413e-06	0.01682484	0.002274598	9.65554e-08	-3.247951e-08	0.03353741	-0.01636856
1.9e+08	0.03179957	-0.01968428	2.24165e-08	-3.550184e-08	0.01683138	0.000386861	2.363822e-08	-2.078636e-06
	2.24165e-08	-3.550184e-08	0.03169959	-0.01845041	1.61199e-07	2.068055e-06	0.0168188	0.0009983885
	0.01683138	0.000386861	1.61199e-07	2.068055e-06	0.03186033	-0.01985809	2.944022e-08	-3.527229e-08
	2.363822e-08	-2.078636e-06	0.0168188	0.0009983885	2.944022e-08	-3.527229e-08	0.03175642	-0.01837618
2e+08	0.02965633	-0.02150807	-3.985539e-08	-2.819795e-08	0.01655097	-0.0009004452	-3.252654e-07	-2.15351e-06
	-3.985539e-08	-2.819795e-08	0.02965334	-0.02020043	1.467021e-07	2.184047e-06	0.01658729	-0.0002560103
	0.01655097	-0.0009004452	1.467021e-07	2.184047e-06	0.02969095	-0.02169021	-4.406096e-08	-2.649809e-08
	-3.252654e-07	-2.15351e-06	0.01658729	-0.0002560103	-4.406096e-08	-2.649809e-08	0.02970377	-0.02012168
2.1e+08	0.0272737	-0.02301908	-1.058073e-07	-9.899608e-09	0.01604749	-0.002121079	-6.979414e-07	-2.169022e-06
	-1.058073e-07	-9.899608e-09	0.02737773	-0.02165371	1.324103e-07	2.304191e-06	0.01613707	-0.001451658
	0.01604749	-0.002121079	1.324103e-07	2.304191e-06	0.02728069	-0.02320513	-1.219376e-07	-4.739473e-09
	-6.979414e-07	-2.169022e-06	0.01613707	-0.001451658	-1.219376e-07	-4.739473e-09	0.02742195	-0.02156919
2.2e+08	0.02470135	-0.0241859	-1.734949e-07	2.029053e-08	0.01533508	-0.003238791	-1.083975e-06	-2.119764e-06
	-1.734949e-07	2.029053e-08	0.02491958	-0.02278092	1.190853e-07	2.42858e-06	0.01548091	-0.002553235
	0.01533508	-0.003238791	1.190853e-07	2.42858e-06	0.02467991	-0.02437114	-2.018944e-07	3.106588e-08
	-1.083975e-06	-2.119764e-06	0.01548091	-0.002553235	-2.018944e-07	3.106588e-08	0.02495793	-0.02268945
2.3e+08	0.02199287	-0.02498486	-2.407851e-07	6.292229e-08	0.01443371	-0.004220162	-1.471864e-06	-2.00219e-06
	-2.407851e-07	6.292229e-08	0.02232921	-0.02355995	1.075167e-07	2.557173e-06	0.01463723	-0.003528004
	0.01443371	-0.004220162	1.075167e-07	2.557173e-06	0.02194301	-0.02516436	-2.814142e-07	8.157007e-08
	-1.471864e-06	-2.00219e-06	0.01463723	-0.003528004	-2.814142e-07	8.157007e-08	0.02236224	-0.02346041
2.4e+08	0.01920461	-0.02540049	-3.05419e-07	1.181605e-07	0.01336865	-0.005035535	-1.849359e-06	-1.814819e-06
	-3.05419e-07	1.181605e-07	0.01965942	-0.0239763	9.849824e-08	2.689789e-06	0.01362958	-0.004346712
	0.01336865	-0.005035535	9.849824e-08	2.689789e-06	0.01912715	-0.02556927	-3.578317e-07	1.469712e-07
	-1.849359e-06	-1.814819e-06	0.01362958	-0.004346712	-3.578317e-07	1.469712e-07	0.01968783	-0.02386769
2.5e+08	0.01639443	-0.02542594	-3.650813e-07	1.857587e-07	0.01216975	-0.005659844	-2.203833e-06	-1.558378e-06
	-3.650813e-07	1.857587e-07	0.01696438	-0.02402342	9.280191e-08	2.826098e-06	0.01248603	-0.004984387
	0.01216975	-0.005659844	9.280191e-08	2.826098e-06	0.0162911	-0.02557906	-4.284157e-07	2.269826e-07
	-2.203833e-06	-1.558378e-06	0.01248603	-0.004984387	-4.284157e-07	2.269826e-07	0.01698901	-0.02390484
2.6e+08	0.01362049	-0.02506302	-4.174756e-07	2.65045e-07	0.01087063	-0.006073312	-2.522677e-06	-1.235877e-06
	-4.174756e-07	2.65045e-07	0.01429841	-0.02370279	9.115156e-08	2.96563e-06	0.01123839	-0.005421027
	0.01087063	-0.006073312	9.115156e-08	2.96563e-06	0.01349385	-0.02519579	-4.904573e-07	3.208175e-07
	-2.522677e-06	-1.235877e-06	0.01123839	-0.005421027	-4.904573e-07	3.208175e-07	0.01432026	-0.0235735
2.7e+08	0.01093985	-0.02432226	-4.604026e-07	3.549231e-07	0.009507768	-0.006262013	-2.793717e-06	-8.526137e-07
	-4.604026e-07	3.549231e-07	0.01171484	-0.0230239	9.419565e-08	3.107777e-06	0.009921334	-0.005642152
	0.009507768	-0.006262013	9.419565e-08	3.107777e-06	0.01079335	-0.02443036	-5.413621e-07	4.271891e-07
	-2.793717e-06	-8.526137e-07	0.009921334	-0.005642152	-5.413621e-07	4.271891e-07	0.01173501	-0.02288333
2.8e+08	0.008407294	-0.02322255	-4.918393e-07	4.538866e-07	0.008119468	-0.00621827	-3.005622e-06	-4.161018e-07
	-4.918393e-07	4.538866e-07	0.00926485	-0.02200396	1.024811e-07	3.251807e-06	0.008571463	-0.005639205
	0.008119468	-0.00621827	1.024811e-07	3.251807e-06	0.008245161	-0.02330225	-5.787424e-07	5.443288e-07
	-3.005622e-06	-4.161018e-07	0.008571463	-0.005639205	-5.787424e-07	5.443288e-07	0.009284532	-0.02185174
2.9e+08	0.006074001	-0.02179082	-5.100149e-07	5.600487e-07	0.006744806	-0.005940875	-3.148301e-06	6.40706e-08
	-5.100149e-07	5.600487e-07	0.006996303	-0.02066754	1.164288e-07	3.396879e-06	0.007226284	-0.005409785
	0.006744806	-0.005940875	1.164288e-07	3.396879e-06	0.005901159	-0.02183906	-6.005065e-07	6.70021e-07
	-3.148301e-06	6.40706e-08	0.007226284	-0.005409785	-6.005065e-07	6.70021e-07	0.007016745	-0.0205035
3e+08	0.003986428	-0.02006132	-5.134823e-07	6.711868e-07	0.005422543	-0.005435133	-3.213283e-06	5.764577e-07
	-5.134823e-07	6.711868e-07	0.004952729	-0.01904596	1.363131e-07	3.542069e-06	0.005923192	-0.004957721
	0.005422543	-0.005435133	1.363131e-07	3.542069e-06	0.003808386	-0.02007587	-6.04942e-07	8.016545e-07
	-3.213283e-06	5.764577e-07	0.005923192	-0.004957721	-6.04942e-07	8.016545e-07	0.004975204	-0.01887015
3.1e+08	0.002185247	-0.01807485	-5.011813e-07	7.847997e-07	0.004190045	-0.004712728	-3.194047e-06	1.108037e-06
	-5.011813e-07	7.847997e-07	0.003172369	-0.01717655	1.622439e-07	3.686393e-06	0.004698439	-0.004292968
	0.004190045	-0.004712728	1.622439e-07	3.686393e-06	0.002007948	-0.01805442	-5.907899e-07	9.362906e-07
	-3.194047e-06	1.108037e-06	0.004698439	-0.004292968	-5.907899e-07	9.362906e-07	0.003198128	-0.01698923
3.2e+08	0.0007044026	-0.01587781	-4.724907e-07	8.981776e-07	0.003082243	-0.003791402	-3.086306e-06	1.64455e-06
	-4.724907e-07	8.981776e-07	0.001687324	-0.01510178	1.941555e-07	3.82884e-06	0.003586132	-0.003431329
	0.003082243	-0.003791402	1.941555e-07	3.82884e-06	0.0005340664	-0.01582215	-5.573054e-07	1.070744e-06
	-3.086306e-06	1.64455e-06	0.003586132	-0.003431329	-5.573054e-07	1.070744e-06	0.001717567	-0.01490347
3.3e+08	-0.0004296398	-0.01352111	-4.272681e-07	1.008481e-06	0.002130652	-0.002694465	-2.888235e-06	2.170894e-06
	-4.272681e-07	1.008481e-06	0.0005228875	-0.01286832	2.318003e-07	3.968403e-06	0.002617302	-0.00239402
	0.002130652	-0.002694465	2.318003e-07	3.968403e-06	-0.0005867087	-0.01343103	-5.043047e-07	1.201675e-06
	-2.888235e-06	2.170894e-06	0.002617302	-0.00239402	-5.043047e-07	1.201675e-06	0.0005587082	-0.01265971
3.4e+08	-0.001198498	-0.01105896	-3.658738e-07	1.112829e-06	0.001362496	-0.001450158	-2.600619e-06	2.671553e-06
	-3.658738e-07	1.112829e-06	-0.0003030008	-0.01052586	2.747489e-07	4.104111e-06	0.001819046	-0.001207091
	0.001362496	-0.001450158	2.747489e-07	4.104111e-06	-0.001336087	-0.01093637	-4.321931e-07	1.325691e-06
	-2.600619e-06	2.671553e-06	0.001819046	-0.001207091	-4.321931e-07	1.325691e-06	-0.0002606382	-0.01030785
3.5e+08	-0.001592275	-0.008547605	-2.891791e-07	1.208388e-06	0.0007999485	-9.086818e-05	-2.226935e-06	3.131052e-06
	-2.891791e-07	1.208388e-06	-0.0007801143	-0.008126066	3.223974e-07	4.235067e-06	0.001213789	9.930153e-05
	0.0007999485	-9.086818e-05	3.223974e-07	4.235067e-06	-0.001704462	-0.00839549	-3.419758e-07	1.439454e-06
	-2.226935e-06	3.131052e-06	0.001213789	9.930152e-05	-3.419758e-07	1.439454e-06	-0.0007304156	-0.00789971
3.6e+08	-0.001609758	-0.006043989	-1.985576e-07	1.292465e-06	0.0004595081	0.001347769	-1.773348e-06	3.534429e-06
	-1.985576e-07	1.292465e-06	-0.000906115	-0.005721303	3.739805e-07	4.360477e-06	0.0008186719	0.001491716
	0.0004595081	0.001347769	3.739805e-07	4.360477e-06	-0.001691097	-0.005866372	-2.352479e-07	1.539786e-06
	-1.773348e-06	3.534429e-06	0.0008186719	0.001491716	-2.352479e-07	1.539786e-06	-0.0008484828	-0.005487797
3.7e+08	-0.001258411	-0.003604421	-9.585941e-08	1.362598e-06	0.0003515445	0.002827856	-1.248624e-06	3.867703e-06
	-9.585941e-08	1.362598e-06	-0.0006865529	-0.00336348	4.285907e-07	4.47968e-06	0.0006450831	0.002934354
	0.0003515445	0.002827856	4.285907e-07	4.47968e-06	-0.001304111	-0.003406277	-1.141651e-07	1.623774e-06
	-1.248624e-06	3.867703e-06	0.0006450831	0.002934354	-1.141651e-07	1.623774e-06	-0.0006206088	-0.003124113
3.8e+08	-0.0005541583	-0.001283252	1.663111e-08	1.416638e-06	0.000480007	0.004310278	-6.639641e-07	4.11832e-06
	1.663111e-08	1.416638e-06	-0.000134675	-0.001102847	4.852035e-07	4.592172e-06	0.0006983574	0.004390034
	0.000480007	0.004310278	4.852035e-07	4.592172e-06	-0.0005602511	-0.001070397	1.860399e-08	1.688871e-06
	-6.639641e-07	4.11832e-06	0.0006983574	0.004390034	1.860399e-08	1.688871e-06	-6.027605e-05	-0.000858966
3.9e+08	0.0004790309	0.0008683953	1.362518e-07	1.452827e-06	0.0008423151	0.005755786	-3.276216e-08	4.275581e-06
	1.362518e-07	1.452827e-06	0.0007289402	0.00101314	5.42706e-07	4.697628e-06	0.0009776352	0.005821214
	0.0008423151	0.005755786	5.42706e-07	4.697628e-06	0.000515547	0.001089446	1.599436e-07	1.732983e-06
	-3.276216e-08	4.275581e-06	0.0009776352	0.005821214	1.599436e-07	1.732983e-06	0.0008116938	0.001260174
4e+08	0.001809753	0.00280382	2.60033e-07	1.469864e-06	0.001429428	0.007126078	6.297153e-07	4.331014e-06
	2.60033e-07	1.469864e-06	0.001876919	0.002940885	5.999299e-07	4.795915e-06	0.001475895	0.007191013
	0.001429428	0.007126078	5.999299e-07	4.795915e-06	0.001890792	0.003026014	3.063718e-07	1.754548e-06
	6.297153e-07	4.331014e-06	0.001475895	0.007191013	3.063718e-07	1.754548e-06	0.001967684	0.003189745
4.1e+08	0.003399953	0.004481822	3.847779e-07	1.466952e-06	0.002226093	0.008384848	1.306708e-06	4.278699e-06
	3.847779e-07	1.466952e-06	0.003275785	0.004641631	6.556855e-07	4.887101e-06	0.00218015	0.008464213
	0.002226093	0.008384848	6.556855e-07	4.887101e-06	0.003526252	0.004697753	4.541335e-07	1.752595e-06
	1.306708e-06	4.278699e-06	0.00218015	0.008464213	4.541335e-07	1.752595e-06	0.003373982	0.004891059
4.2e+08	0.005205868	0.00586764	5.071513e-07	1.44384e-06	0.003211263	0.009498788	1.980394e-06	4.115517e-06
	5.071513e-07	1.44384e-06	0.004886782	0.006082294	7.087973e-07	4.971457e-06	0.003071812	0.00960821
	0.003211263	0.009498788	7.087973e-07	4.971457e-06	0.005376921	0.006069749	5.993042e-07	1.72679e-06
	1.980394e-06	4.115517e-06	0.003071812	0.00960821	5.993042e-07	1.72679e-06	0.004991611	0.006331147
4.3e+08	0.007179097	0.006933739	6.237738e-07	1.40084e-06	0.004358667	0.01043849	2.632367e-06	3.841335e-06
	6.237738e-07	1.40084e-06	0.006666825	0.007236179	7.581386e-07	5.049451e-06	0.004127198	0.0105939
	0.004358667	0.01043849	7.581386e-07	5.049451e-06	0.007393135	0.007114523	7.378994e-07	1.677464e-06
	2.632367e-06	3.841335e-06	0.004127198	0.0105939	7.378994e-07	1.677464e-06	0.006777287	0.007483468
4.4e+08	0.009267781	0.007660411	7.31317e-07	1.338833e-06	0.005637529	0.01117926	3.244141e-06	3.459102e-06
	7.31317e-07	1.338833e-06	0.00856953	0.008083534	8.026644e-07	5.121739e-06	0.005318175	0.01139644
	0.005637529	0.01117926	8.026644e-07	5.121739e-06	0.009521776	0.007812636	8.65987e-07	1.605615e-06
	3.244141e-06	3.459102e-06	0.005318175	0.01139644	8.65987e-07	1.605615e-06	0.008684458	0.008328454
4.5e+08	0.01141786	0.008036194	8.265998e-07	1.259258e-06	0.007013401	0.01170178	3.797664e-06	2.974865e-06
	8.265998e-07	1.259258e-06	0.01054632	0.008611932	8.414425e-07	5.189147e-06	0.006612925	0.01199594
	0.007013401	0.01170178	8.414425e-07	5.189147e-06	0.01170757	0.008153108	9.797998e-07	1.512901e-06
	3.797664e-06	2.974865e-06	0.006612925	0.01199594	9.797998e-07	1.512901e-06	0.01066441	0.008853893
4.6e+08	0.01357435	0.00805809	9.066799e-07	1.164081e-06	0.00844909	0.01199264	4.275842e-06	2.397688e-06
	9.066799e-07	1.164081e-06	0.01254758	0.008816489	8.7368e-07	5.252654e-06	0.007976798	0.01237799
	0.00844909	0.01199264	8.7368e-07	5.252654e-06	0.0138944	0.00813362	1.075844e-06	1.401607e-06
	4.275842e-06	2.397688e-06	0.007976798	0.01237799	1.075844e-06	1.401607e-06	0.01266743	0.009055138
4.7e+08	0.01568269	0.007731571	9.689402e-07	1.055759e-06	0.009905666	0.01204471	4.663038e-06	1.7395e-06
	9.689402e-07	1.055759e-06	0.01452378	0.008699896	8.987459e-07	5.313364e-06	0.009373243	0.012534
	0.009905666	0.01204471	8.987459e-07	5.313364e-06	0.01602671	0.007760485	1.151001e-06	1.274596e-06
	4.663038e-06	1.7395e-06	0.009373243	0.012534	1.151001e-06	1.274596e-06	0.01464395	0.008935097
4.8e+08	0.01769002	0.007070394	1.011168e-06	9.371773e-07	0.01134351	0.01185735	4.94555e-06	1.01485e-06
	1.011168e-06	9.371773e-07	0.01642667	0.008272279	9.161912e-07	5.372479e-06	0.01076479	0.0124615
