!$
! Info: Touchstone file created by Circ.  Input file=Tx_8in_Rx_85ohms_TxVia_35mils_RxVia_45mils.circ
!$
# Hz S RI R 50
0	0.006530057	1.102818e-25	-4.347024e-05	3.83428e-24	6.306283e-05	1.219393e-23	-4.34823e-05	5.364101e-24
	-4.347025e-05	3.835837e-24	0.006527861	1.299744e-25	-4.34503e-05	1.505412e-24	6.242382e-05	1.472197e-23
	6.357232e-05	1.236443e-23	-4.345028e-05	1.50271e-24	0.006542351	1.07155e-25	-4.346807e-05	3.737503e-24
	-4.348231e-05	5.365174e-24	6.057642e-05	1.479457e-23	-4.346808e-05	3.739721e-24	0.006541023	1.217705e-25
1e+07	0.009631033	-0.007214289	-0.000188128	-2.368403e-05	0.0001899247	0.001557053	-0.0001278601	8.093588e-05
	-0.000188128	-2.368402e-05	0.008545308	-0.007329803	-5.580181e-06	-1.241763e-05	0.0002491191	0.001561281
	0.0001899543	0.001557047	-5.580182e-06	-1.241763e-05	0.008576939	-0.007462771	-3.978344e-05	-1.324957e-05
	-0.0001278601	8.093588e-05	0.000249059	0.001561291	-3.978344e-05	-1.324957e-05	0.008533885	-0.007317566
2e+07	0.009832816	-0.0170304	-0.0001693734	8.235835e-06	0.0005854607	0.003068306	-0.0001234922	7.786615e-05
	-0.0001693734	8.235837e-06	0.008835703	-0.01682402	-4.948148e-06	-3.524041e-06	0.0006687039	0.003025162
	0.0005854614	0.003068284	-4.948149e-06	-3.52404e-06	0.008760671	-0.01704655	-3.568393e-05	3.730768e-06
	-0.0001234922	7.786614e-05	0.000668696	0.003025196	-3.568393e-05	3.730767e-06	0.00883038	-0.01679177
3e+07	0.007657061	-0.02737836	-0.0001603788	1.045268e-07	0.001264356	0.004433261	-0.000110508	9.126901e-05
	-0.0001603788	1.045272e-07	0.006714978	-0.02703485	-4.582342e-06	-1.052435e-06	0.001312413	0.004380452
	0.00126435	0.004433259	-4.582342e-06	-1.052435e-06	0.006576982	-0.02728124	-3.506201e-05	-3.521594e-08
	-0.000110508	9.126901e-05	0.001312413	0.004380457	-3.506201e-05	-3.521575e-08	0.006713372	-0.02698926
4e+07	0.003466227	-0.0373944	-0.0001536827	-1.252565e-06	0.002148379	0.005644665	-9.150995e-05	0.0001018917
	-0.0001536827	-1.252565e-06	0.002559604	-0.03694601	-4.211951e-06	3.814785e-07	0.002159969	0.005594319
	0.002148379	0.005644669	-4.211951e-06	3.814781e-07	0.002389295	-0.03719986	-3.512148e-05	-1.419945e-06
	-9.150995e-05	0.0001018917	0.002159964	0.005594317	-3.512148e-05	-1.419945e-06	0.002559931	-0.03688867
5e+07	-0.002502049	-0.04665418	-0.0001483197	3.863879e-07	0.003208308	0.00667354	-6.853219e-05	0.0001064005
	-0.0001483197	3.863879e-07	-0.003387659	-0.04610976	-3.818544e-06	1.398071e-06	0.003182657	0.006635422
	0.00320831	0.006673541	-3.818544e-06	1.398071e-06	-0.003565626	-0.04636799	-3.559116e-05	-1.558028e-06
	-6.853219e-05	0.0001064005	0.003182653	0.006635421	-3.559116e-05	-1.558028e-06	-0.00338706	-0.0460411
6e+07	-0.01001532	-0.05484121	-0.0001436715	3.814134e-06	0.004408894	0.007494784	-4.383558e-05	0.0001032172
	-0.0001436715	3.814134e-06	-0.01088988	-0.0542	-3.395857e-06	2.189879e-06	0.004346329	0.007477991
	0.004408892	0.007494783	-3.395857e-06	2.189879e-06	-0.01105582	-0.05446671	-3.624739e-05	-7.973714e-07
	-4.383558e-05	0.0001032172	0.004346332	0.00747799	-3.624739e-05	-7.973713e-07	-0.01089048	-0.05411975
7e+07	-0.01882411	-0.0617057	-0.0001392706	8.507584e-06	0.005710881	0.008089604	-1.989113e-05	9.16048e-05
	-0.0001392706	8.507584e-06	-0.01969345	-0.060962	-3.211848e-06	2.372586e-06	0.005613089	0.008102893
	0.005710875	0.008089604	-3.211847e-06	2.372586e-06	-0.01983201	-0.06124551	-3.689423e-05	6.996724e-07
	-1.989113e-05	9.16048e-05	0.005613096	0.008102889	-3.689423e-05	6.996727e-07	-0.01969645	-0.06086941
8e+07	-0.02865917	-0.06705408	-0.0001347078	1.419254e-05	0.007072562	0.008446434	6.788722e-07	7.1449e-05
	-0.0001347078	1.419254e-05	-0.02952521	-0.06619965	-3.161535e-06	2.346462e-06	0.006942734	0.008498233
	0.007072555	0.008446437	-3.161534e-06	2.346462e-06	-0.02962481	-0.06651048	-3.735342e-05	2.816214e-06
	6.788703e-07	7.1449e-05	0.006942744	0.008498227	-3.735342e-05	2.816214e-06	-0.02953154	-0.06609356
9e+07	-0.03923495	-0.07074623	-0.0001295477	2.075076e-05	0.008451344	0.008561385	1.504605e-05	4.303497e-05
	-0.0001295477	2.075076e-05	-0.04009604	-0.06977187	-3.114672e-06	2.355021e-06	0.008294348	0.008659766
	0.008451338	0.008561388	-3.114671e-06	2.355021e-06	-0.04014769	-0.07012069	-3.746359e-05	5.44878e-06
	1.504605e-05	4.303497e-05	0.008294354	0.008659759	-3.746359e-05	5.44878e-06	-0.04010627	-0.06965085
1e+08	-0.05025593	-0.07269487	-0.0001227886	2.871451e-05	0.009805899	0.008438802	1.858397e-05	5.261038e-06
	-0.0001227886	2.871451e-05	-0.05110863	-0.07159327	-3.079636e-06	2.366675e-06	0.009629232	0.008592329
	0.009805899	0.008438802	-3.079636e-06	2.366675e-06	-0.05109852	-0.07198292	-3.702973e-05	8.573273e-06
	1.858397e-05	5.261038e-06	0.009629232	0.008592329	-3.702973e-05	8.573273e-06	-0.05112313	-0.07145585
1.1e+08	-0.06142299	-0.07287062	-0.0001181598	3.921389e-05	0.01109701	0.008085303	2.1971e-05	-4.4603e-05
	-0.0001181598	3.921389e-05	-0.06226213	-0.07162366	-2.973464e-06	2.368998e-06	0.01091278	0.008294017
	0.01109701	0.008085303	-2.973464e-06	2.368998e-06	-0.06216383	-0.07210837	-3.646041e-05	1.215114e-05
	2.1971e-05	-4.4603e-05	0.01091278	0.008294017	-3.646041e-05	1.215114e-05	-0.06227993	-0.07146767
1.2e+08	-0.072442	-0.07127483	-0.0001137157	4.837279e-05	0.01228335	0.007519676	1.826128e-05	-9.261102e-05
	-0.0001137157	4.837279e-05	-0.07324896	-0.06987131	-2.849973e-06	2.412485e-06	0.0120964	0.007784817
	0.01228335	0.007519676	-2.849973e-06	2.412485e-06	-0.07309383	-0.07048326	-3.544494e-05	1.562318e-05
	1.826128e-05	-9.261102e-05	0.0120964	0.007784817	-3.544494e-05	1.562318e-05	-0.07326927	-0.06969493
1.3e+08	-0.08302741	-0.06796962	-0.0001087479	5.692633e-05	0.01333286	0.006766081	4.610995e-06	-0.0001393881
	-0.0001087479	5.692633e-05	-0.08378244	-0.06640372	-2.715355e-06	2.471318e-06	0.01314999	0.007089322
	0.01333286	0.006766081	-2.715355e-06	2.471318e-06	-0.08359672	-0.06715966	-3.391443e-05	1.897287e-05
	4.610995e-06	-0.0001393881	0.01314999	0.007089322	-3.391443e-05	1.897287e-05	-0.08380397	-0.06620521
1.4e+08	-0.09291197	-0.06306075	-0.0001031499	6.492349e-05	0.01421772	0.00585258	-1.943939e-05	-0.0001832255
	-0.0001031499	6.492349e-05	-0.09359333	-0.06133093	-2.570505e-06	2.535926e-06	0.01404662	0.006234525
	0.01421772	0.00585258	-2.570505e-06	2.535926e-06	-0.09340373	-0.06224036	-3.188736e-05	2.21011e-05
	-1.943939e-05	-0.0001832255	0.01404662	0.006234525	-3.188736e-05	2.21011e-05	-0.09361418	-0.06110879
1.5e+08	-0.1018528	-0.05669349	-9.691527e-05	7.23195e-05	0.01491552	0.004810795	-5.35779e-05	-0.0002220794
	-9.691527e-05	7.23195e-05	-0.1024374	-0.05480285	-2.416709e-06	2.599656e-06	0.01476434	0.005250641
	0.01491552	0.004810795	-2.416709e-06	2.599656e-06	-0.1022711	-0.05586903	-2.941565e-05	2.491047e-05
	-5.35779e-05	-0.0002220794	0.01476434	0.005250641	-2.941565e-05	2.491047e-05	-0.1024551	-0.05455599
1.6e+08	-0.1096363	-0.04904764	-9.008738e-05	7.904625e-05	0.01540966	0.003674938	-9.689392e-05	-0.0002539155
	-9.008738e-05	7.904625e-05	-0.1101008	-0.04700424	-2.256056e-06	2.657534e-06	0.01528665	0.00417031
	0.01540966	0.003674938	-2.256056e-06	2.657534e-06	-0.1099847	-0.04822454	-2.657477e-05	2.731855e-05
	-9.689392e-05	-0.0002539155	0.01528665	0.00417031	-2.657477e-05	2.731855e-05	-0.1101125	-0.04673219
1.7e+08	-0.1160824	-0.04033204	-8.274068e-05	8.503704e-05	0.01568945	0.002480807	-0.0001479727	-0.0002768929
	-8.274068e-05	8.503704e-05	-0.1164041	-0.03814899	-2.091449e-06	2.705991e-06	0.01560261	0.003027713
	0.01568945	0.002480807	-2.091449e-06	2.705991e-06	-0.116364	-0.03951512	-2.345663e-05	2.926363e-05
	-0.0001479727	-0.0002768929	0.01560261	0.003027713	-2.345663e-05	2.926363e-05	-0.1164069	-0.03785194
1.8e+08	-0.1210479	-0.03077874	-7.497003e-05	9.023763e-05	0.01575017	0.001264846	-0.0002049854	-0.0002894902
	-7.497003e-05	9.023763e-05	-0.1212058	-0.02847408	-1.926393e-06	2.742868e-06	0.0157069	0.001857705
	0.01575017	0.001264846	-1.926393e-06	2.742868e-06	-0.1212657	-0.02997244	-2.016303e-05	3.070738e-05
	-0.0002049854	-0.0002894902	0.0157069	0.001857705	-2.016303e-05	3.070738e-05	-0.1211966	-0.02815294
1.9e+08	-0.1244286	-0.02063694	-6.68827e-05	9.461153e-05	0.01559285	6.326832e-05	-0.0002657889	-0.0002905972
	-6.68827e-05	9.461153e-05	-0.1244045	-0.01823331	-1.764684e-06	2.767454e-06	0.01559965	0.0006950066
	0.01559285	6.32683e-05	-1.764684e-06	2.767454e-06	-0.1245853	-0.01984544	-1.679959e-05	3.163569e-05
	-0.0002657889	-0.0002905972	0.01559965	0.0006950066	-1.679959e-05	3.163569e-05	-0.1243804	-0.01788969
2e+08	-0.1261611	-0.01016681	-5.859189e-05	9.814234e-05	0.0152241	-0.001088747	-0.000328034	-0.0002795756
	-5.859189e-05	9.814234e-05	-0.1259404	-0.007690982	-1.610033e-06	2.780464e-06	0.01528622	-0.0004265238
	0.0152241	-0.001088747	-1.610033e-06	2.780464e-06	-0.1262594	-0.009394135	-1.347025e-05	3.205801e-05
	-0.000328034	-0.0002795756	0.01528622	-0.0004265238	-1.347025e-05	3.205801e-05	-0.1258988	-0.007327104
2.1e+08	-0.1262232	0.0003666679	-5.021119e-05	0.0001008343	0.01465577	-0.002157775	-0.0003892795	-0.0002562924
	-5.021119e-05	0.0001008343	-0.1257959	0.002884522	-1.465688e-06	2.783926e-06	0.01477699	-0.001474562
	0.01465577	-0.002157775	-1.465688e-06	2.783926e-06	-0.1262659	0.001116631	-1.027238e-05	3.200582e-05
	-0.0003892795	-0.0002562924	0.01477699	-0.001474562	-1.027238e-05	3.200582e-05	-0.1257346	0.003265852
2.2e+08	-0.1246339	0.01069988	-4.184992e-05	0.0001027115	0.01390457	-0.003112809	-0.0004471073	-0.0002211266
	-4.184992e-05	0.0001027115	-0.1239953	0.01322697	-1.334073e-06	2.780964e-06	0.01408696	-0.002418927
	0.01390457	-0.003112809	-1.334073e-06	2.780964e-06	-0.1246239	0.01142334	-7.292554e-06	3.153028e-05
	-0.0004471073	-0.0002211266	0.01408696	-0.002418927	-7.292554e-06	3.153028e-05	-0.1239126	0.01362248
2.3e+08	-0.1214525	0.02057654	-3.36091e-05	0.0001038165	0.01299172	-0.003925864	-0.0004992337	-0.0001749517
	-3.36091e-05	0.0001038165	-0.1206035	0.02307841	-1.216504e-06	2.775488e-06	0.01323547	-0.003232148
	0.01299172	-0.003925864	-1.216504e-06	2.775488e-06	-0.121393	0.02126982	-4.603011e-06	3.069927e-05
	-0.0004992337	-0.0001749517	0.01323547	-0.003232148	-4.603011e-06	3.069927e-05	-0.1204985	0.02348447
2.4e+08	-0.1167769	0.02975349	-2.557765e-05	0.000104208	0.01194244	-0.004572543	-0.0005436135	-0.0001190905
	-2.557765e-05	0.000104208	-0.1157246	0.03219507	-1.113007e-06	2.771826e-06	0.01224577	-0.003889998
	0.01194244	-0.004572543	-1.113007e-06	2.771826e-06	-0.1166711	0.03041301	-2.258563e-06	2.959404e-05
	-0.0005436135	-0.0001190905	0.01224577	-0.003889998	-2.258563e-06	2.959404e-05	-0.115597	0.03260782
2.5e+08	-0.1107411	0.03800619	-1.78296e-05	0.0001039581	0.01078546	-0.005032558	-0.000578531	-5.525531e-05
	-1.78296e-05	0.0001039581	-0.109499	0.0403529	-1.022246e-06	2.774297e-06	0.01114456	-0.004371998
	0.01078546	-0.005032558	-1.022246e-06	2.774297e-06	-0.1105926	0.03862855	-2.943011e-07	2.830528e-05
	-0.000578531	-5.525531e-05	0.01114456	-0.004371998	-2.943011e-07	2.830528e-05	-0.1093491	0.04076837
2.6e+08	-0.103512	0.0451339	-1.042138e-05	0.0001031491	0.009552492	-0.005290226	-0.0006026753	1.453608e-05
	-1.042138e-05	0.0001031491	-0.1020998	0.0473528	-9.415782e-07	2.786804e-06	0.009961539	-0.0046619
	0.009552492	-0.005290226	-9.415782e-07	2.786804e-06	-0.1033247	0.04571585	1.27618e-06	2.692893e-05
	-0.0006026753	1.453608e-05	0.009961539	-0.0046619	1.27618e-06	2.692893e-05	-0.1019288	0.04776705
2.7e+08	-0.09528567	0.05096431	-3.390119e-06	0.0001018692	0.008277556	-0.005334914	-0.0006151968	8.805329e-05
	-3.390119e-06	0.0001018692	-0.09372922	0.05302528	-8.672352e-07	2.81245e-06	0.008728818	-0.004748139
	0.008277556	-0.005334914	-8.672352e-07	2.81245e-06	-0.09506372	0.05150288	2.461701e-06	2.556144e-05
	-0.0006151968	8.805329e-05	0.008728818	-0.004748139	2.461701e-06	2.556144e-05	-0.09353902	0.05343455
2.8e+08	-0.08628264	0.05535781	3.247703e-06	0.0001002088	0.006996285	-0.005161437	-0.00061574	0.000162964
	3.247703e-06	0.0001002088	-0.08461365	0.05723468	-7.945934e-07	2.853256e-06	0.007480263	-0.004624246
	0.006996285	-0.005161437	-7.945934e-07	2.853256e-06	-0.08603072	0.05585032	3.293653e-06	2.429486e-05
	-0.00061574	0.000162964	0.007480264	-0.004624246	3.293653e-06	2.429486e-05	-0.08440684	0.05763549
2.9e+08	-0.076743	0.05821096	9.496334e-06	9.825522e-05	0.005745114	-0.004770369	-0.0006044531	0.0002369429
	9.496334e-06	9.825522e-05	-0.07499819	0.05988258	-7.185251e-07	2.909943e-06	0.006250763	-0.004289187
	0.005745114	-0.004770369	-7.185251e-07	2.909943e-06	-0.07646606	0.05865509	3.824989e-06	2.321161e-05
	-0.0006044531	0.0002369429	0.006250763	-0.004289187	3.824989e-06	2.321161e-05	-0.07477805	0.06027192
3e+08	-0.06692054	0.0594593	1.537971e-05	9.608778e-05	0.004560389	-0.004168271	-0.0005819743	0.000307782
	1.537971e-05	9.608778e-05	-0.0651409	0.06091056	-6.337864e-07	2.981844e-06	0.005075391	-0.003747623
	0.004560389	-0.004168271	-6.337864e-07	2.981844e-06	-0.06662386	0.05985321	4.128012e-06	2.237934e-05
	-0.0005819743	0.000307782	0.005075391	-0.003747623	4.128012e-06	2.237934e-05	-0.06491129	0.06128594
3.1e+08	-0.05707661	0.05907936	2.093934e-05	9.377313e-05	0.003477388	-0.003367764	-0.0005493863	0.0003735028
	2.093934e-05	9.377313e-05	-0.05530642	0.06030202	-5.353946e-07	3.066954e-06	0.003988484	-0.003010038
	0.003477388	-0.003367764	-5.353946e-07	3.066954e-06	-0.05676578	0.05942173	4.290944e-06	2.184615e-05
	-0.0005493863	0.0003735028	0.003988484	-0.003010038	4.290944e-06	2.184615e-05	-0.05507169	0.06066161
3.2e+08	-0.04747366	0.05708965	2.623061e-05	9.136067e-05	0.002529285	-0.002387458	-0.0005081534	0.0004324466
	2.623061e-05	9.136067e-05	-0.04575925	0.05808301	-4.189779e-07	3.162046e-06	0.003022643	-0.002092719
	0.002529285	-0.002387458	-4.189779e-07	3.162046e-06	-0.04715451	0.05737975	4.413005e-06	2.163643e-05
	-0.0005081534	0.0004324466	0.003022643	-0.002092719	4.413005e-06	2.163643e-05	-0.04552415	0.05842573
3.3e+08	-0.03836848	0.05355062	3.131848e-05	8.887968e-05	0.001746078	-0.001251673	-0.0004600635	0.0004833395
	3.131848e-05	8.887968e-05	-0.03675696	0.05432197	-2.810449e-07	3.262909e-06	0.002207703	-0.001017549
	0.001746078	-0.001251673	-2.810449e-07	3.262909e-06	-0.03804701	0.05378841	4.598594e-06	2.174823e-05
	-0.0004600635	0.0004833395	0.002207703	-0.001017549	4.598594e-06	2.174823e-05	-0.03652648	0.0546476
3.4e+08	-0.03000538	0.04856364	3.617824e-05	8.625395e-05	0.001153533	1.003922e-05	-0.0003964988	0.0005295247
	3.617824e-05	8.625395e-05	-0.02854325	0.04912849	-1.177567e-07	3.366085e-06	0.001569691	0.000188413
	0.001153533	1.003923e-05	-1.177567e-07	3.366085e-06	-0.02968772	0.04874976	4.854977e-06	2.207282e-05
	-0.0003964988	0.0005295247	0.001569691	0.000188413	4.854977e-06	2.207282e-05	-0.02832245	0.04943772
3.5e+08	-0.02260969	0.04226862	4.094045e-05	8.356128e-05	0.0007721771	0.001363612	-0.0003279772	0.0005651274
	4.094045e-05	8.356128e-05	-0.02134129	0.04265071	7.128373e-08	3.464309e-06	0.001129838	0.001493561
	0.0007721771	0.001363612	7.128373e-08	3.464309e-06	-0.0223019	0.04240451	5.344142e-06	2.264531e-05
	-0.0003279772	0.0005651274	0.001129838	0.001493561	5.344142e-06	2.264531e-05	-0.02113521	0.0429451
3.6e+08	-0.01638137	0.03484071	4.56786e-05	8.077708e-05	0.0006164185	0.00277139	-0.0002583212	0.0005895353
	4.56786e-05	8.077708e-05	-0.01534746	0.03507175	2.856968e-07	3.551808e-06	0.0009036921	0.002862598
	0.0006164185	0.00277139	2.856968e-07	3.551808e-06	-0.01608941	0.0349286	6.161568e-06	2.339742e-05
	-0.0002583212	0.0005895353	0.0009036921	0.002862598	6.161568e-06	2.339742e-05	-0.01516091	0.03535375
3.7e+08	-0.01148938	0.02648584	5.043675e-05	7.784268e-05	0.000693833	0.004193267	-0.0001896615	0.0006033911
	5.043675e-05	7.784268e-05	-0.01072564	0.02660487	5.241525e-07	3.623294e-06	0.0009003932	0.004257594
	0.000693833	0.004193267	5.241525e-07	3.623294e-06	-0.01121895	0.02652876	7.365783e-06	2.42259e-05
	-0.0001896615	0.0006033911	0.0009003933	0.004257594	7.365783e-06	2.42259e-05	-0.01056309	0.02687784
3.8e+08	-0.008066761	0.01743519	5.523663e-05	7.468481e-05	0.00100468	0.005587981	-0.0001238528	0.0006077766
	5.523663e-05	7.468481e-05	-0.007602491	0.01748781	7.843355e-07	3.67391e-06	0.001122157	0.005639209
	0.00100468	0.005587981	7.843355e-07	3.67391e-06	-0.007823165	0.01743694	8.98583e-06	2.501297e-05
	-0.0001238528	0.0006077766	0.001122157	0.005639209	8.98583e-06	2.501297e-05	-0.007467859	0.0177559
3.9e+08	-0.006206716	0.007938944	6.007378e-05	7.122248e-05	0.001541689	0.00691453	-6.237826e-05	0.0006041273
	6.007378e-05	7.122248e-05	-0.006063588	0.007976177	1.063102e-06	3.699371e-06	0.001564022	0.00696803
	0.001541689	0.00691453	1.063102e-06	3.699371e-06	-0.005994762	0.00790404	1.101771e-05	2.563466e-05
	-6.237826e-05	0.0006041273	0.001564022	0.00696803	1.101771e-05	2.563466e-05	-0.005960136	0.008244279
4e+08	-0.005959843	-0.001740725	6.491584e-05	6.737518e-05	0.002290148	0.008133631	-6.281654e-06	0.0005941259
	6.491584e-05	6.737518e-05	-0.006150915	-0.001663739	1.356621e-06	3.696049e-06	0.002213877	0.008205974
	0.002290148	0.008133631	1.356621e-06	3.696049e-06	-0.005783714	-0.001807098	1.342334e-05	2.597028e-05
	-6.281654e-06	0.0005941259	0.002213877	0.008205974	1.342334e-05	2.597028e-05	-0.00608109	-0.001390101
4.1e+08	-0.007332649	-0.01133704	6.970345e-05	6.307114e-05	0.003228301	0.009209155	4.38752e-05	0.0005795815
	6.970345e-05	6.307114e-05	-0.007861591	-0.01116255	1.660514e-06	3.66104e-06	0.003052799	0.009317664
	0.003228301	0.009209155	1.660514e-06	3.66104e-06	-0.007195798	-0.01142913	1.613235e-05	2.591176e-05
	4.38752e-05	0.0005795815	0.003052799	0.009317664	1.613235e-05	2.591176e-05	-0.007826916	-0.01087736
4.2e+08	-0.01028741	-0.02058619	7.435349e-05	5.825509e-05	0.004328055	0.01010946	8.802079e-05	0.0005623031
	7.435349e-05	5.825509e-05	-0.01114801	-0.02025548	1.969966e-06	3.592209e-06	0.004055678	0.01027172
	0.004328055	0.01010946	1.969966e-06	3.592209e-06	-0.01019247	-0.02069779	1.904651e-05	2.537231e-05
	8.802079e-05	0.0005623031	0.004055678	0.01027172	1.904651e-05	2.537231e-05	-0.01114899	-0.0199524
4.3e+08	-0.01474341	-0.0292348	7.876461e-05	5.28948e-05	0.00555596	0.01080856	0.0001265484	0.0005439762
	7.876461e-05	5.28948e-05	-0.01591937	-0.02868993	2.279823e-06	3.488244e-06	0.005192106	0.0110419
	0.00555596	0.01080856	2.279823e-06	3.488244e-06	-0.01469209	-0.02935937	2.204658e-05	2.429346e-05
	0.0001265484	0.0005439762	0.005192106	0.0110419	2.204658e-05	2.429346e-05	-0.01595542	-0.02836245
4.4e+08	-0.02057942	-0.03704706	8.282436e-05	4.698565e-05	0.006874408	0.01128705	0.0001602625	0.0005260501
	8.282436e-05	4.698565e-05	-0.0220445	-0.03623262	2.584702e-06	3.348725e-06	0.006427495	0.01160801
	0.006874408	0.01128705	2.584702e-06	3.348725e-06	-0.02057252	-0.03717785	2.500079e-05	2.264977e-05
	0.0001602625	0.0005260501	0.006427495	0.01160801	2.500079e-05	2.264977e-05	-0.02211393	-0.03587428
4.5e+08	-0.02763754	-0.04381122	8.64175e-05	4.055288e-05	0.008243002	0.01153275	0.0001902974	0.0005096449
	8.64175e-05	4.055288e-05	-0.02935597	-0.0426761	2.879135e-06	3.174197e-06	0.007724344	0.01195653
	0.008243002	0.01153275	2.879135e-06	3.174197e-06	-0.02767485	-0.04394143	2.777449e-05	2.045096e-05
	0.0001902974	0.0005096449	0.007724344	0.01195653	2.777449e-05	2.045096e-05	-0.02945595	-0.04228064
4.6e+08	-0.03572792	-0.04934527	8.943433e-05	3.365121e-05	0.009620015	0.01154103	0.0002180165	0.0004954817
	8.943433e-05	3.365121e-05	-0.03765517	-0.04784426	3.157756e-06	2.966215e-06	0.0090436	0.01208101
	0.009620015	0.01154103	3.157756e-06	2.966215e-06	-0.03580826	-0.0494682	3.023971e-05	1.774102e-05
	0.0002180165	0.0004954817	0.0090436	0.01208101	3.023971e-05	1.774102e-05	-0.03778181	-0.04740587
4.7e+08	-0.04463449	-0.05350161	9.177847e-05	2.636231e-05	0.01096386	0.01131487	0.0002448979	0.0004838443
	9.177847e-05	2.636231e-05	-0.04671832	-0.05159698	3.415499e-06	2.727381e-06	0.01034604	0.01198213
	0.01096386	0.01131487	3.415499e-06	2.727381e-06	-0.04475572	-0.05361082	3.228398e-05	1.45949e-05
	0.0002448979	0.0004838443	0.01034604	0.01198213	3.228398e-05	1.45949e-05	-0.04686667	-0.05111044
4.8e+08	-0.05412127	-0.05617064	9.337358e-05	1.878993e-05	0.01223449	0.01086457	0.0002724161	0.0004745681
