!$
! Info: Touchstone file created by Circ.  Input file=Tx_8in_Rx_100ohms_TxVia_35mils_RxVia_45mils.circ
!$
# Hz S RI R 50
0	0.008379792	1.113094e-25	0.9914794	-1.118392e-25	6.17483e-05	1.592739e-23	-5.9827e-05	2.053484e-21
	0.9914794	-1.141989e-25	0.00837867	1.294074e-25	-6.019715e-05	2.098873e-21	6.216802e-05	1.893206e-23
	5.991059e-05	1.635599e-23	-6.032413e-05	2.11452e-21	0.008392281	1.061121e-25	0.9914636	-1.058577e-25
	-6.020547e-05	2.09993e-21	6.032026e-05	1.902533e-23	0.9914636	-1.056687e-25	0.008391802	1.21242e-25
1e+07	0.01225746	0.005559367	0.9843815	-0.08400961	0.0005044474	0.001580996	-0.0003883359	-0.000183152
	0.9843815	-0.08400961	0.01225224	0.005558647	-0.0003883453	-0.0001831365	0.0005017233	0.001581726
	0.0005043874	0.001581	-0.0003884028	-0.0001831245	0.01214999	0.005578152	0.9844833	-0.08410808
	-0.0003883935	-0.00018314	0.0005016629	0.001581736	0.9844833	-0.08410808	0.01214363	0.005577734
2e+07	0.01583883	0.008173626	0.9712961	-0.1643383	0.0007828254	0.003248123	-0.0003314863	-0.0004960898
	0.9712961	-0.1643383	0.01581813	0.008174332	-0.0003315176	-0.0004960759	0.0007723846	0.003251177
	0.0007828124	0.003248161	-0.0003315283	-0.0004960339	0.01577042	0.008250876	0.9713415	-0.1645738
	-0.0003314991	-0.0004960468	0.0007723757	0.003251212	0.9713415	-0.1645738	0.01574543	0.008252796
3e+07	0.01899162	0.009389627	0.9525634	-0.2422126	0.001326649	0.004700491	-0.0003310125	-0.0006719951
	0.9525634	-0.2422126	0.018946	0.009396851	-0.0003310937	-0.0006719466	0.001304058	0.004708561
	0.001326651	0.004700496	-0.0003310914	-0.0006719403	0.01895911	0.009490034	0.9525445	-0.242548
	-0.0003310104	-0.0006719884	0.001304058	0.004708566	0.9525445	-0.242548	0.01890429	0.009500494
4e+07	0.02193066	0.009853424	0.9280553	-0.3178446	0.002121514	0.005990567	-0.0003881064	-0.0007968263
	0.9280553	-0.3178446	0.02185188	0.009874072	-0.0003882286	-0.0007967223	0.002083065	0.00600731
	0.002121509	0.005990562	-0.0003882354	-0.0007967262	0.02193303	0.009964627	0.9279613	-0.3182644
	-0.0003881136	-0.0007968307	0.002083059	0.006007308	0.9279613	-0.3182644	0.02183863	0.009991944
5e+07	0.02469146	0.009730313	0.89786	-0.3909511	0.003238689	0.00704679	-0.0005983631	-0.0008289788
	0.89786	-0.3909511	0.02457291	0.009773489	-0.0005985203	-0.0008287964	0.003181566	0.007076596
	0.003238684	0.007046788	-0.0005985256	-0.0008287973	0.02472743	0.009843267	0.8976809	-0.3914418
	-0.0005983688	-0.0008289799	0.003181562	0.007076595	0.8976809	-0.3914418	0.02458566	0.009898368
6e+07	0.027264	0.0091089	0.8621454	-0.461176	0.004488717	0.007893783	-0.0007974752	-0.0008200933
	0.8621454	-0.461176	0.0271014	0.009185229	-0.000797655	-0.0008198067	0.004411208	0.007941752
	0.004488721	0.007893783	-0.0007976505	-0.0008198075	0.02733151	0.00921595	0.8618723	-0.4617243
	-0.0007974702	-0.0008200941	0.00441121	0.007941751	0.8618723	-0.4617243	0.02713742	0.009311552
7e+07	0.02962137	0.008051508	0.8211298	-0.5281442	0.005837565	0.008515694	-0.000981867	-0.000776055
	0.8211298	-0.5281442	0.02941294	0.008172436	-0.0009820432	-0.0007756402	0.00573912	0.008587304
	0.005837577	0.008515692	-0.0009820297	-0.0007756464	0.02971749	0.008145914	0.8207548	-0.5287365
	-0.0009818522	-0.0007760617	0.005739128	0.008587301	0.8207548	-0.5287365	0.02946907	0.008295684
8e+07	0.03173141	0.006612123	0.7750705	-0.5914839	0.007247953	0.008900955	-0.001147823	-0.0007017847
	0.7750705	-0.5914839	0.03147779	0.006789448	-0.001147958	-0.0007012266	0.007129241	0.00900184
	0.007247969	0.008900949	-0.001147942	-0.0007012388	0.03185225	0.006687915	0.7745871	-0.5921059
	-0.001147806	-0.0007017979	0.007129251	0.009001835	0.7745871	-0.5921059	0.03155042	0.006905916
9e+07	0.03356302	0.004843761	0.7242572	-0.650837	0.008680053	0.009043016	-0.001291381	-0.0006014526
	0.7242572	-0.650837	0.03326734	0.005089238	-0.00129143	-0.0006007485	0.008542978	0.009178735
	0.008680065	0.00904301	-0.00129142	-0.0006007605	0.03370365	0.00489564	0.7236606	-0.6514735
	-0.001291369	-0.0006014658	0.008542986	0.00917873	0.7236606	-0.6514735	0.03335222	0.005195877
1e+08	0.03509961	0.002809332	0.6689966	-0.7058746	0.0100882	0.008937263	-0.001403547	-0.0004744941
	0.6689966	-0.7058746	0.03476745	0.003134239	-0.001403462	-0.0004736556	0.009935885	0.009113068
	0.0100882	0.008937263	-0.001403462	-0.0004736556	0.03525288	0.002831796	0.6682853	-0.7065086
	-0.001403547	-0.0004744941	0.009935885	0.009113068	0.6682853	-0.7065086	0.03485864	0.003227703
1.1e+08	0.03633301	0.0004725936	0.6096216	-0.7561868	0.01142395	0.008625733	-0.001472912	-0.0003642329
	0.6096216	-0.7561868	0.03597511	0.0008867047	-0.001472642	-0.0003632688	0.011261	0.008846069
	0.01142395	0.008625733	-0.001472642	-0.0003632688	0.03649119	0.0004685064	0.6087987	-0.7568105
	-0.001472911	-0.0003642329	0.011261	0.008846069	0.6087987	-0.7568105	0.03606595	0.000972314
1.2e+08	0.0371574	-0.002059873	0.5465957	-0.8015241	0.01268629	0.008105057	-0.001538993	-0.0002595914
	0.5465957	-0.8015241	0.03678284	-0.00154874	-0.0015385	-0.0002585462	0.01251795	0.008373709
	0.01268629	0.008105057	-0.0015385	-0.0002585462	0.03731739	-0.002090119	0.5456561	-0.8021255
	-0.001538993	-0.0002595914	0.01251795	0.008373709	0.5456561	-0.8021255	0.03687311	-0.001468913
1.3e+08	0.0375738	-0.00471174	0.4803037	-0.8416435	0.0138344	0.007385048	-0.001596798	-0.0001553634
	0.4803037	-0.8416435	0.03719394	-0.004096896	-0.001596057	-0.0001542891	0.01366681	0.007704814
	0.0138344	0.007385048	-0.001596057	-0.0001542891	0.03773121	-0.004767976	0.4792453	-0.8422084
	-0.001596798	-0.0001553635	0.01366681	0.007704815	0.4792453	-0.8422084	0.03728226	-0.004021745
1.4e+08	0.03757919	-0.00741869	0.4111616	-0.8763192	0.01483523	0.006486547	-0.001646721	-5.17192e-05
	0.4111616	-0.8763192	0.03720746	-0.006695429	-0.001645716	-5.067266e-05	0.01467523	0.006859044
	0.01483523	0.006486547	-0.001645716	-5.067267e-05	0.03772966	-0.007500064	0.4099842	-0.8768325
	-0.001646721	-5.171922e-05	0.01467523	0.006859044	0.4099842	-0.8768325	0.03729249	-0.00662377
1.5e+08	0.03717651	-0.01011856	0.3396041	-0.905356	0.01566053	0.005436225	-0.001690135	5.088221e-05
	0.3396041	-0.905356	0.03682785	-0.009284796	-0.001688865	5.184077e-05	0.01551541	0.005861738
	0.01566053	0.005436225	-0.001688865	5.184075e-05	0.03731593	-0.01022357	0.3383095	-0.9058023
	-0.001690135	5.088219e-05	0.01551541	0.005861738	0.3383095	-0.9058023	0.03690848	-0.009215337
1.6e+08	0.03637587	-0.01275107	0.2660807	-0.9285915	0.01628717	0.004265284	-0.001728806	0.0001523192
	0.2660807	-0.9285915	0.0360661	-0.01180774	-0.001727283	0.0001531289	0.01616446	0.004742674
	0.01628717	0.004265284	-0.001727283	0.0001531288	0.03650042	-0.01287765	0.2646723	-0.9289554
	-0.001728806	0.0001523192	0.01616446	0.004742674	0.2646723	-0.9289554	0.03614147	-0.01173913
1.7e+08	0.0351949	-0.0152584	0.1910527	-0.9458982	0.01669772	0.003008416	-0.00176459	0.0002530085
	0.1910527	-0.9458982	0.03494	-0.01420972	-0.001762841	0.0002536106	0.01660485	0.003535068
	0.01669772	0.003008416	-0.001762841	0.0002536105	0.03530112	-0.01540398	0.1895359	-0.9461643
	-0.00176459	0.0002530085	0.01660485	0.003535068	0.1895359	-0.9461643	0.03500951	-0.01414058
1.8e+08	0.03365871	-0.01758616	0.1149902	-0.9571842	0.01688079	0.001702763	-0.001799204	0.0003539575
	0.1149902	-0.9571842	0.03347415	-0.01643957	-0.001797268	0.0003542987	0.01682484	0.002274598
	0.01688079	0.001702763	-0.001797268	0.0003542986	0.03374352	-0.01774764	0.1133722	-0.9573377
	-0.001799204	0.0003539574	0.01682484	0.002274598	0.1133722	-0.9573377	0.03353741	-0.01636856
1.9e+08	0.03179957	-0.01968428	0.03836945	-0.9623944	0.01683138	0.000386861	-0.001834025	0.0004567337
	0.03836945	-0.9623944	0.03169959	-0.01845041	-0.001831956	0.0004567701	0.0168188	0.0009983885
	0.01683138	0.000386861	-0.001831956	0.0004567701	0.03186034	-0.01985809	0.03665898	-0.9624208
	-0.001834025	0.0004567337	0.0168188	0.0009983885	0.03665898	-0.9624208	0.03175642	-0.01837618
2e+08	0.02965633	-0.02150807	-0.03833042	-0.9615106	0.01655097	-0.0009004452	-0.001869924	0.0005633755
	-0.03833042	-0.9615106	0.02965334	-0.02020043	-0.001867787	0.0005630759	0.01658729	-0.0002560103
	0.01655097	-0.0009004452	-0.001867787	0.0005630759	0.02969095	-0.02169021	-0.04012285	-0.961396
	-0.001869924	0.0005633755	0.01658729	-0.0002560103	-0.04012285	-0.961396	0.02970377	-0.02012168
2.1e+08	0.0272737	-0.02301908	-0.11463	-0.9545517	0.01604749	-0.002121079	-0.001907134	0.0006762572
	-0.11463	-0.9545517	0.02737773	-0.02165371	-0.001905001	0.0006756059	0.01613707	-0.001451658
	0.01604749	-0.002121079	-0.001905001	0.0006756059	0.02728069	-0.02320513	-0.1164923	-0.9542835
	-0.001907134	0.0006762572	0.01613707	-0.001451658	-0.1164923	-0.9542835	0.02742195	-0.02156919
2.2e+08	0.02470135	-0.0241859	-0.1900529	-0.9415744	0.01533508	-0.003238791	-0.001945154	0.0007979209
	-0.1900529	-0.9415744	0.02491958	-0.02278092	-0.001943101	0.0007969202	0.01548091	-0.002553235
	0.01533508	-0.003238791	-0.001943101	0.0007969202	0.02467991	-0.02437114	-0.1919714	-0.9411408
	-0.001945154	0.0007979209	0.01548091	-0.002553235	-0.1919714	-0.9411408	0.02495793	-0.02268945
2.3e+08	0.02199287	-0.02498486	-0.2641282	-0.9226722	0.01443371	-0.004220162	-0.001982705	0.000930888
	-0.2641282	-0.9226722	0.02232921	-0.02355995	-0.001980807	0.0009295589	0.01463723	-0.003528004
	0.01443371	-0.004220162	-0.001980807	0.0009295589	0.02194301	-0.02516436	-0.2660878	-0.9220627
	-0.001982705	0.000930888	0.01463723	-0.003528004	-0.2660878	-0.9220627	0.02236224	-0.02346041
2.4e+08	0.01920461	-0.02540049	-0.3363938	-0.8979754	0.01336865	-0.005035535	-0.00201773	0.001077459
	-0.3363938	-0.8979754	0.01965942	-0.0239763	-0.002016056	0.001075841	0.01362958	-0.004346712
	0.01336865	-0.005035535	-0.002016056	0.001075841	0.01912715	-0.02556927	-0.3383783	-0.8971809
	-0.00201773	0.001077459	0.01362958	-0.004346712	-0.3383783	-0.8971809	0.01968783	-0.02386769
2.5e+08	0.01639443	-0.02542594	-0.4063995	-0.8676504	0.01216975	-0.005659844	-0.002047445	0.00123952
	-0.4063995	-0.8676504	0.01696438	-0.02402342	-0.002046054	0.00123767	0.01248603	-0.004984387
	0.01216975	-0.005659844	-0.002046054	0.00123767	0.0162911	-0.02557906	-0.4083911	-0.8666633
	-0.002047445	0.00123952	0.01248603	-0.004984387	-0.4083911	-0.8666633	0.01698901	-0.02390484
2.6e+08	0.01362049	-0.02506302	-0.4737091	-0.8318985	0.01087063	-0.006073312	-0.002068439	0.001418357
	-0.4737091	-0.8318985	0.01429841	-0.02370279	-0.002067373	0.001416345	0.01123839	-0.005421027
	0.01087063	-0.006073312	-0.002067373	0.001416345	0.01349385	-0.02519579	-0.4756893	-0.8307129
	-0.002068439	0.001418357	0.01123839	-0.005421027	-0.4756893	-0.8307129	0.01432026	-0.0235735
2.7e+08	0.01093985	-0.02432226	-0.537904	-0.7909549	0.009507768	-0.006262013	-0.002076814	0.001614506
	-0.537904	-0.7909549	0.01171484	-0.0230239	-0.002076097	0.001612413	0.009921334	-0.005642152
	0.009507768	-0.006262013	-0.002076097	0.001612413	0.01079335	-0.02443036	-0.5398533	-0.7895667
	-0.002076814	0.001614506	0.009921334	-0.005642152	-0.5398533	-0.7895667	0.01173501	-0.02288333
2.8e+08	0.008407294	-0.02322255	-0.5985856	-0.7450874	0.008119468	-0.00621827	-0.002068359	0.00182763
	-0.5985856	-0.7450874	0.00926485	-0.02200396	-0.002067994	0.00182554	0.008571463	-0.005639205
	0.008119468	-0.00621827	-0.002067994	0.00182554	0.008245161	-0.02330225	-0.6004838	-0.7434943
	-0.002068359	0.00182763	0.008571463	-0.005639205	-0.6004838	-0.7434943	0.009284532	-0.02185174
2.9e+08	0.006074001	-0.02179082	-0.6553779	-0.6945944	0.006744806	-0.005940875	-0.002038758	0.002056441
	-0.6553779	-0.6945944	0.006996303	-0.02066754	-0.002038725	0.002054439	0.007226284	-0.005409785
	0.006744806	-0.005940875	-0.002038725	0.002054439	0.005901159	-0.02183906	-0.6572043	-0.6927961
	-0.002038758	0.002056441	0.007226284	-0.005409785	-0.6572043	-0.6927961	0.007016745	-0.0205035
3e+08	0.003986428	-0.02006132	-0.7079299	-0.6398033	0.005422543	-0.005435133	-0.001983802	0.002298675
	-0.7079299	-0.6398033	0.004952729	-0.01904596	-0.00198406	0.002296837	0.005923192	-0.004957721
	0.005422543	-0.005435133	-0.00198406	0.002296837	0.003808386	-0.02007587	-0.7096634	-0.6378017
	-0.001983802	0.002298675	0.005923192	-0.004957721	-0.7096634	-0.6378017	0.004975204	-0.01887015
3.1e+08	0.002185247	-0.01807485	-0.7559183	-0.5810682	0.004190045	-0.004712728	-0.001899613	0.002551113
	-0.7559183	-0.5810682	0.003172369	-0.01717655	-0.0019001	0.002549503	0.004698439	-0.004292968
	0.004190045	-0.004712728	-0.0019001	0.002549503	0.002007948	-0.01805442	-0.7575375	-0.5788672
	-0.001899613	0.002551113	0.004698439	-0.004292968	-0.7575375	-0.5788672	0.003198128	-0.01698923
3.2e+08	0.0007044026	-0.01587781	-0.7990488	-0.5187679	0.003082243	-0.003791402	-0.001782857	0.002809652
	-0.7990488	-0.5187679	0.001687324	-0.01510178	-0.001783497	0.002808316	0.003586132	-0.003431329
	0.003082243	-0.003791402	-0.001783497	0.002808316	0.0005340664	-0.01582215	-0.8005327	-0.5163735
	-0.001782857	0.002809652	0.003586132	-0.003431329	-0.8005327	-0.5163735	0.001717567	-0.01490347
3.3e+08	-0.0004296398	-0.01352111	-0.837059	-0.4533029	0.002130652	-0.002694465	-0.001630936	0.003069432
	-0.837059	-0.4533029	0.0005228875	-0.01286832	-0.00163164	0.003068394	0.002617302	-0.00239402
	0.002130652	-0.002694465	-0.00163164	0.003068394	-0.0005867087	-0.01343103	-0.8383867	-0.4507232
	-0.001630936	0.003069432	0.002617302	-0.00239402	-0.8383867	-0.4507232	0.0005587082	-0.01265971
3.4e+08	-0.001198498	-0.01105896	-0.8697193	-0.3850931	0.001362496	-0.001450158	-0.001442149	0.003324989
	-0.8697193	-0.3850931	-0.0003030008	-0.01052586	-0.001442824	0.003324249	0.001819046	-0.001207091
	0.001362496	-0.001450158	-0.001442824	0.003324249	-0.001336087	-0.01093637	-0.8708705	-0.3823386
	-0.001442149	0.003324989	0.001819046	-0.001207091	-0.8708705	-0.3823386	-0.0002606382	-0.01030785
3.5e+08	-0.001592275	-0.008547605	-0.896835	-0.314575	0.0007999485	-9.086818e-05	-0.001215817	0.003570462
	-0.896835	-0.314575	-0.0007801143	-0.008126066	-0.00121637	0.003569992	0.001213789	9.930153e-05
	0.0007999485	-9.086818e-05	-0.00121637	0.003569992	-0.001704462	-0.00839549	-0.8977899	-0.311658
	-0.001215817	0.003570462	0.001213789	9.930152e-05	-0.8977899	-0.311658	-0.0007304156	-0.00789971
3.6e+08	-0.001609758	-0.006043989	-0.9182467	-0.2421986	0.0004595081	0.001347769	-0.0009523529	0.003799803
	-0.9182467	-0.2421986	-0.000906115	-0.005721303	-0.000952702	0.003799552	0.0008186719	0.001491716
	0.0004595081	0.001347769	-0.0009527019	0.003799552	-0.001691097	-0.005866372	-0.9189867	-0.2391336
	-0.0009523529	0.003799803	0.0008186719	0.001491716	-0.9189867	-0.2391336	-0.0008484828	-0.005487797
3.7e+08	-0.001258411	-0.003604421	-0.9338321	-0.1684246	0.0003515445	0.002827856	-0.0006532925	0.004007015
	-0.9338321	-0.1684246	-0.0006865529	-0.00336348	-0.0006533686	0.004006908	0.0006450831	0.002934354
	0.0003515445	0.002827856	-0.0006533686	0.004006908	-0.001304111	-0.003406277	-0.9343396	-0.165228
	-0.0006532925	0.004007015	0.0006450831	0.002934354	-0.9343396	-0.165228	-0.0006206088	-0.003124113
3.8e+08	-0.0005541583	-0.001283252	-0.943506	-0.09372098	0.000480007	0.004310278	-0.0003212627	0.004186379
	-0.943506	-0.09372098	-0.000134675	-0.001102847	-0.0003210182	0.004186323	0.0006983574	0.004390034
	0.000480007	0.004310278	-0.0003210182	0.004186323	-0.0005602511	-0.001070397	-0.9437646	-0.09041119
	-0.0003212627	0.004186379	0.0006983574	0.004390034	-0.9437646	-0.09041119	-6.027605e-05	-0.000858966
3.9e+08	0.0004790309	0.0008683953	-0.947221	-0.01856054	0.0008423151	0.005755786	4.009494e-05	0.004332676
	-0.947221	-0.01856054	0.0007289402	0.00101314	4.068186e-05	0.004332566	0.0009776352	0.005821214
	0.0008423151	0.005755786	4.068186e-05	0.004332566	0.000515547	0.001089446	-0.947216	-0.01515757
	4.009494e-05	0.004332676	0.0009776352	0.005821214	-0.947216	-0.01515757	0.0008116938	0.001260174
4e+08	0.001809753	0.00280382	-0.9449674	0.05658277	0.001429428	0.007126078	0.0004262488	0.004441383
	-0.9449674	0.05658277	0.001876919	0.002940885	0.0004271712	0.004441104	0.001475895	0.007191013
	0.001429428	0.007126078	0.0004271712	0.004441104	0.001890792	0.003026014	-0.9446858	0.06005723
	0.0004262488	0.004441383	0.001475895	0.007191013	-0.9446858	0.06005723	0.001967684	0.003189745
4.1e+08	0.003399953	0.004481822	-0.9367733	0.1312367	0.002226093	0.008384848	0.0008319419	0.004508834
	-0.9367733	0.1312367	0.003275785	0.004641631	0.0008331621	0.004508276	0.00218015	0.008464213
	0.002226093	0.008384848	0.0008331621	0.004508276	0.003526252	0.004697753	-0.9362039	0.1347595
	0.0008319419	0.004508834	0.00218015	0.008464213	-0.9362039	0.1347595	0.003373982	0.004891059
4.2e+08	0.005205868	0.00586764	-0.922704	0.2049335	0.003211263	0.009498788	0.001251386	0.004532343
	-0.922704	0.2049335	0.004886782	0.006082294	0.001252836	0.004531403	0.003071812	0.00960821
	0.003211263	0.009498788	0.001252836	0.004531403	0.005376921	0.006069749	-0.9218376	0.2084802
	0.001251386	0.004532343	0.003071812	0.00960821	-0.9218376	0.2084802	0.004991611	0.006331147
4.3e+08	0.007179097	0.006933739	-0.9028614	0.2772133	0.004358667	0.01043849	0.001678476	0.004510276
	-0.9028614	0.2772133	0.006666825	0.007236179	0.001680062	0.004508869	0.004127198	0.0105939
	0.004358667	0.01043849	0.001680062	0.004508869	0.007393135	0.007114523	-0.9016909	0.2807583
	0.001678476	0.004510276	0.004127198	0.0105939	-0.9016909	0.2807583	0.006777287	0.007483468
4.4e+08	0.009267781	0.007660411	-0.8773832	0.3476265	0.005637529	0.01117926	0.002107016	0.00444208
	-0.8773832	0.3476265	0.00856953	0.008083534	0.002108619	0.004440144	0.005318175	0.01139644
	0.005637529	0.01117926	0.002108619	0.004440144	0.009521776	0.007812636	-0.8759038	0.3511434
	0.002107016	0.00444208	0.005318175	0.01139644	-0.8759038	0.3511434	0.008684458	0.008328454
4.5e+08	0.01141786	0.008036194	-0.8464417	0.4157368	0.007013401	0.01170178	0.002530937	0.00432825
	-0.8464417	0.4157368	0.01054632	0.008611932	0.00253242	0.004325753	0.006612925	0.01199594
	0.007013401	0.01170178	0.00253242	0.004325753	0.01170757	0.008153108	-0.8446508	0.4191983
	0.002530937	0.00432825	0.006612925	0.01199594	-0.8446508	0.4191983	0.01066441	0.008853893
4.6e+08	0.01357435	0.00805809	-0.8102426	0.4811236	0.00844909	0.01199264	0.002944503	0.004170261
	-0.8102426	0.4811236	0.01254758	0.008816489	0.002945722	0.004167204	0.007976798	0.01237799
	0.00844909	0.01199264	0.002945722	0.004167204	0.0138944	0.00813362	-0.80814	0.4845021
	0.002944503	0.004170261	0.007976798	0.01237799	-0.80814	0.4845021	0.01266743	0.009055138
4.7e+08	0.01568269	0.007731571	-0.7690232	0.5433847	0.009905666	0.01204471	0.003342493	0.003970445
	-0.7690232	0.5433847	0.01452378	0.008699896	0.003343302	0.003966867	0.009373243	0.012534
	0.009905666	0.01204471	0.003343302	0.003966867	0.01602671	0.007760485	-0.7666115	0.5466521
	0.003342493	0.003970445	0.009373243	0.012534	-0.7666115	0.5466521	0.01464395	0.008935097
4.8e+08	0.01769002	0.007070394	-0.7230515	0.6021384	0.01134351	0.01185735	0.003720345	0.003731846
	-0.7230515	0.6021384	0.01642667	0.008272279	0.003720606	0.003727821	0.01076479	0.0124615
	0.01134351	0.01185735	0.003720606	0.003727821	0.01805071	0.007048527	-0.7203355	0.6052665
	0.003720345	0.003731846	0.01076479	0.0124615	-0.7203355	0.6052665	0.01654568	0.008504183
4.9e+08	0.0195464	0.006096225	-0.6726235	0.6570258	0.01272336	0.01143641	0.004074266	0.003458036
	-0.6726235	0.6570258	0.01821034	0.0075509	0.004073857	0.003453672	0.01211403	0.01216414
	0.01272336	0.01143641	0.004073857	0.003453672	0.01991579	0.006020605	-0.6696107	0.6599866
	0.004074266	0.003458036	0.01211403	0.01216414	-0.6696107	0.6599866	0.01832674	0.00777992
5e+08	0.02120603	0.004838059	-0.6180622	0.7077126	0.0140074	0.0107941	0.004401286	0.003152922
	-0.6180622	0.7077126	0.01983227	0.00655967	0.00440011	0.003148358	0.01338464	0.01165165
	0.0140074	0.0107941	0.00440011	0.003148358	0.02157562	0.004707018	-0.6147624	0.7104784
	0.004401286	0.003152922	0.01338464	0.01165165	-0.6147624	0.7104784	0.0199447	0.006786472
5.1e+08	0.02262825	0.003331466	-0.5597148	0.7538913	0.01516026	0.009948722	0.00469927	0.002820549
