!$
! Info: Touchstone file created by Circ.  Input file=Tx_8in_Rx_100ohms_TxVia_35mils_RxVia_45mils.circ
!$
# Hz S RI R 50
0	0.008380356	1.066806e-25	7.419824e-10	1.413231e-27	6.230619e-05	1.56246e-23	3.678851e-10	3.069956e-28
	7.419824e-10	1.41321e-27	0.00837867	1.294074e-25	2.500169e-09	5.515059e-27	6.216802e-05	1.893206e-23
	6.212037e-05	1.555901e-23	2.500169e-09	5.515068e-27	0.008391067	1.066722e-25	7.442815e-10	1.513622e-27
	3.67885e-10	3.069895e-28	6.032026e-05	1.902533e-23	7.442819e-10	1.513639e-27	0.008391802	1.21242e-25
1e+07	0.01213247	0.00556797	9.643132e-10	1.353661e-09	0.0005046642	0.001583438	6.002657e-10	6.641335e-10
	9.643132e-10	1.353661e-09	0.01225224	0.005558647	3.639674e-09	6.801569e-09	0.0005017233	0.001581726
	0.0005046588	0.001583439	3.639674e-09	6.801569e-09	0.01227356	0.005566211	9.600898e-10	1.373669e-09
	6.002657e-10	6.641334e-10	0.0005016629	0.001581736	9.600897e-10	1.373669e-09	0.01214363	0.005577734
2e+07	0.01574689	0.008232976	1.364285e-09	2.320908e-09	0.0007835787	0.003252888	9.793349e-10	1.059161e-09
	1.364285e-09	2.320908e-09	0.01581813	0.008174332	4.933421e-09	1.188845e-08	0.0007723846	0.003251177
	0.00078358	0.003252892	4.933421e-09	1.188845e-08	0.01585983	0.008185147	1.337049e-09	2.358803e-09
	9.793348e-10	1.059161e-09	0.0007723757	0.003251212	1.337049e-09	2.358802e-09	0.01574543	0.008252796
3e+07	0.01892697	0.009466486	1.753828e-09	3.169722e-09	0.001328259	0.004707445	1.397326e-09	1.360312e-09
	1.753828e-09	3.169722e-09	0.018946	0.009396851	5.91109e-09	1.673723e-08	0.001304058	0.004708561
	0.001328262	0.004707444	5.91109e-09	1.673723e-08	0.0190196	0.009403964	1.684559e-09	3.237645e-09
	1.397326e-09	1.360312e-09	0.001304058	0.004708566	1.684558e-09	3.237645e-09	0.01890429	0.009500494
4e+07	0.02189021	0.009938132	2.167128e-09	3.912089e-09	0.002124277	0.005999505	1.866061e-09	1.549993e-09
	2.167128e-09	3.912089e-09	0.02185188	0.009874072	6.809983e-09	2.141592e-08	0.002083065	0.00600731
	0.002124278	0.005999503	6.809983e-09	2.141592e-08	0.02196716	0.009868141	2.042243e-09	4.025565e-09
	1.866061e-09	1.549993e-09	0.002083059	0.006007308	2.042243e-09	4.025565e-09	0.02183863	0.009991944
5e+07	0.02467262	0.009816908	2.583279e-09	4.541578e-09	0.003242834	0.007057474	2.360018e-09	1.614704e-09
	2.583279e-09	4.541578e-09	0.02457291	0.009773489	7.639051e-09	2.593388e-08	0.003181566	0.007076596
	0.003242834	0.007057473	7.639051e-09	2.593388e-08	0.02473731	0.009742621	2.393865e-09	4.718683e-09
	2.360018e-09	1.614704e-09	0.003181562	0.007076595	2.393865e-09	4.718682e-09	0.02458566	0.009898368
6e+07	0.02726419	0.00919298	2.98228e-09	5.065361e-09	0.004494439	0.007905933	2.852956e-09	1.552376e-09
	2.98228e-09	5.065361e-09	0.0271014	0.009185229	8.388445e-09	3.031967e-08	0.004411208	0.007941752
	0.00449444	0.007905933	8.388445e-09	3.031967e-08	0.02731927	0.009115864	2.72411e-09	5.325606e-09
	2.852956e-09	1.552376e-09	0.00441121	0.007941751	2.72411e-09	5.325606e-09	0.02713742	0.009311552
7e+07	0.02963788	0.008129603	3.333457e-09	5.485165e-09	0.005845	0.008528995	3.281312e-09	1.354168e-09
	3.333457e-09	5.485165e-09	0.02941294	0.008172436	9.026658e-09	3.457312e-08	0.00573912	0.008587304
	0.005845002	0.008528995	9.026659e-09	3.457312e-08	0.02968542	0.008050205	3.004766e-09	5.847677e-09
	3.281312e-09	1.354168e-09	0.005739128	0.008587301	3.004766e-09	5.847678e-09	0.02946907	0.008295684
8e+07	0.03176129	0.006681412	3.610666e-09	5.807684e-09	0.007257178	0.008915071	3.611286e-09	1.041903e-09
	3.610666e-09	5.807684e-09	0.03147779	0.006789448	9.546861e-09	3.872248e-08	0.007129241	0.00900184
	0.00725718	0.00891507	9.546861e-09	3.872248e-08	0.0318029	0.006599786	3.214189e-09	6.29289e-09
	3.611286e-09	1.041903e-09	0.007129251	0.009001835	3.214189e-09	6.292891e-09	0.03155042	0.006905916
9e+07	0.03360294	0.00490185	3.805744e-09	6.052527e-09	0.008691074	0.009057602	3.850985e-09	6.483301e-10
	3.805744e-09	6.052527e-09	0.03326734	0.005089238	9.963405e-09	4.280663e-08	0.008542978	0.009178735
	0.008691076	0.009057601	9.963405e-09	4.280663e-08	0.03363997	0.00481792	3.350584e-09	6.682e-09
	3.850985e-09	6.483299e-10	0.008542986	0.00917873	3.350584e-09	6.682001e-09	0.03335222	0.005195877
1e+08	0.03514463	0.002853265	3.89986e-09	6.225118e-09	0.01010096	0.008951982	3.990076e-09	2.064533e-10
	3.89986e-09	6.225118e-09	0.03476745	0.003134239	1.027261e-08	4.683943e-08	0.009935885	0.009113068
	0.01010096	0.008951982	1.027261e-08	4.683943e-08	0.03517946	0.002767919	3.400322e-09	7.02011e-09
	3.990076e-09	2.064533e-10	0.009935885	0.009113068	3.400322e-09	7.02011e-09	0.03485864	0.003227703
1.1e+08	0.03637765	0.0005075025	3.96035e-09	6.351646e-09	0.01143833	0.008640259	4.06319e-09	-2.947345e-10
	3.96035e-09	6.351646e-09	0.03597511	0.0008867047	1.052957e-08	5.087537e-08	0.011261	0.008846069
	0.01143833	0.008640259	1.052957e-08	5.087537e-08	0.03641498	0.0004129652	3.440667e-09	7.332824e-09
	4.06319e-09	-2.947345e-10	0.011261	0.008846069	3.440667e-09	7.332824e-09	0.03606595	0.000972314
1.2e+08	0.03720209	-0.002032064	3.915338e-09	6.468564e-09	0.01270212	0.008119101	4.008933e-09	-8.557269e-10
	3.915338e-09	6.468564e-09	0.03678284	-0.00154874	1.067918e-08	5.491955e-08	0.01251795	0.008373709
	0.01270212	0.008119101	1.067918e-08	5.491955e-08	0.03723638	-0.002139153	3.397935e-09	7.644585e-09
	4.008933e-09	-8.557269e-10	0.01251795	0.008373709	3.397935e-09	7.644585e-09	0.03687311	-0.001468913
1.3e+08	0.03761783	-0.004690145	3.756652e-09	6.58511e-09	0.01385145	0.007398348	3.815806e-09	-1.441011e-09
	3.756652e-09	6.58511e-09	0.03719394	-0.004096896	1.072493e-08	5.898962e-08	0.01366681	0.007704814
	0.01385145	0.007398348	1.072493e-08	5.898962e-08	0.03764492	-0.004810563	3.266027e-09	7.961445e-09
	3.815806e-09	-1.441011e-09	0.01366681	0.007704815	3.266027e-09	7.961445e-09	0.03728226	-0.004021745
1.4e+08	0.03762193	-0.007402502	3.482015e-09	6.721384e-09	0.01485325	0.006498885	3.477409e-09	-2.021688e-09
	3.482015e-09	6.721384e-09	0.03720746	-0.006695429	1.067464e-08	6.310527e-08	0.01467523	0.006859044
	0.01485325	0.006498886	1.067464e-08	6.310527e-08	0.03763806	-0.007535845	3.044342e-09	8.299397e-09
	3.477409e-09	-2.021688e-09	0.01467523	0.006859044	3.044342e-09	8.299397e-09	0.03729249	-0.00662377
1.5e+08	0.03721747	-0.01010704	3.092503e-09	6.898917e-09	0.0156792	0.005447434	2.991968e-09	-2.569158e-09
	3.092503e-09	6.898917e-09	0.03682785	-0.009284796	1.053842e-08	6.728511e-08	0.01551541	0.005861738
	0.0156792	0.005447434	1.053842e-08	6.728511e-08	0.03721927	-0.01025204	2.734919e-09	8.675338e-09
	2.991968e-09	-2.569158e-09	0.01551541	0.005861738	2.734919e-09	8.675338e-09	0.03690848	-0.009215337
1.6e+08	0.03641471	-0.01274357	2.592914e-09	7.139872e-09	0.01630617	0.004275254	2.362769e-09	-3.054672e-09
	2.592914e-09	7.139872e-09	0.0360661	-0.01180774	1.032885e-08	7.15464e-08	0.01616446	0.004742674
	0.01630617	0.004275254	1.032885e-08	7.15464e-08	0.03639917	-0.01289827	2.342663e-09	9.106462e-09
	2.362769e-09	-3.054672e-09	0.01616446	0.004742674	2.342663e-09	9.106462e-09	0.03614147	-0.01173913
1.7e+08	0.03523134	-0.0152544	1.991943e-09	7.466288e-09	0.01671668	0.003017099	1.598236e-09	-3.449974e-09
	1.991943e-09	7.466288e-09	0.03494	-0.01420972	1.006093e-08	7.590477e-08	0.01660485	0.003535068
	0.01671668	0.003017099	1.006093e-08	7.590477e-08	0.0351959	-0.01541624	1.875419e-09	9.609688e-09
	1.598236e-09	-3.449974e-09	0.01660485	0.003535068	1.875419e-09	9.609688e-09	0.03500951	-0.01414058
1.8e+08	0.0336925	-0.01758519	1.302293e-09	7.899389e-09	0.01689936	0.001710179	7.118914e-10	-3.728079e-09
	1.302293e-09	7.899389e-09	0.03347415	-0.01643957	9.752104e-09	8.037382e-08	0.01682484	0.002274598
	0.01689936	0.001710179	9.752104e-09	8.037382e-08	0.03363508	-0.0177511	1.344044e-09	1.020118e-08
	7.118914e-10	-3.728079e-09	0.01682484	0.002274598	1.344044e-09	1.020118e-08	0.03353741	-0.01636856
1.9e+08	0.03183045	-0.01968594	5.407093e-10	8.458875e-09	0.0168492	0.0003930929	-2.778039e-10	-3.864095e-09
	5.407093e-10	8.458875e-09	0.03169959	-0.01845041	9.422158e-09	8.496472e-08	0.0168188	0.0009983885
	0.0168492	0.0003930929	9.422158e-09	8.496472e-08	0.03174951	-0.01985243	7.62448e-10	1.089585e-08
	-2.778039e-10	-3.864095e-09	0.0168188	0.0009983885	7.62448e-10	1.089585e-08	0.03175642	-0.01837618
2e+08	0.02968403	-0.02151196	-2.720871e-10	9.162176e-09	0.01656771	-0.000895248	-1.34774e-09	-3.836042e-09
	-2.720871e-10	9.162176e-09	0.02965334	-0.02020043	9.093001e-09	8.968574e-08	0.01658729	-0.0002560103
	0.01656771	-0.000895248	9.093001e-09	8.968574e-08	0.02957861	-0.02167517	1.475713e-10	1.170678e-08
	-1.34774e-09	-3.836042e-09	0.01658729	-0.0002560103	1.475713e-10	1.170678e-08	0.02970377	-0.02012168
2.1e+08	0.02729793	-0.02302475	-1.111597e-09	1.002366e-08	0.01606284	-0.002116707	-2.470567e-09	-3.62566e-09
	-1.111597e-09	1.002366e-08	0.02737773	-0.02165371	8.788368e-09	9.454176e-08	0.01613707	-0.001451658
	0.01606284	-0.002116707	8.788368e-09	9.454176e-08	0.02716778	-0.02318059	-4.807234e-10	1.264467e-08
	-2.470567e-09	-3.62566e-09	0.01613707	-0.001451658	-4.807234e-10	1.264467e-08	0.02742195	-0.02156919
2.2e+08	0.02472184	-0.02419288	-1.949889e-09	1.105381e-08	0.01534876	-0.003234977	-3.615244e-09	-3.219175e-09
	-1.949889e-09	1.105381e-08	0.02491958	-0.02278092	8.533383e-09	9.953387e-08	0.01548091	-0.002553235
	0.01534876	-0.003234977	8.533383e-09	9.953387e-08	0.02456737	-0.02433708	-1.099877e-09	1.371712e-08
	-3.615244e-09	-3.219175e-09	0.01548091	-0.002553235	-1.099877e-09	1.371712e-08	0.02495793	-0.02268945
2.3e+08	0.02200936	-0.02499258	-2.756137e-09	1.225842e-08	0.01444551	-0.004216594	-4.747711e-09	-2.608009e-09
	-2.756137e-09	1.225842e-08	0.02232921	-0.02355995	8.354009e-09	1.046589e-07	0.01463723	-0.003528004
	0.01444551	-0.004216594	8.354009e-09	1.046589e-07	0.02183179	-0.02512088	-1.685012e-09	1.492803e-08
	-4.747711e-09	-2.608009e-09	0.01463723	-0.003528004	-1.685012e-09	1.492803e-08	0.02236224	-0.02346041
2.4e+08	0.01921692	-0.02540836	-3.497351e-09	1.36378e-08	0.0133784	-0.00503186	-5.831705e-09	-1.789422e-09
	-3.497351e-09	1.36378e-08	0.01965942	-0.0239763	8.276362e-09	1.099091e-07	0.01362958	-0.004346712
	0.0133784	-0.00503186	8.276362e-09	1.099091e-07	0.01901821	-0.02551656	-2.209497e-09	1.627685e-08
	-5.831705e-09	-1.789422e-09	0.01362958	-0.004346712	-2.209497e-09	1.627685e-08	0.01968783	-0.02386769
2.5e+08	0.01640246	-0.02543326	-4.139323e-09	1.518614e-08	0.01217735	-0.00565568	-6.829723e-09	-7.670306e-10
	-4.139323e-09	1.518614e-08	0.01696438	-0.02402342	8.325912e-09	1.152719e-07	0.01248603	-0.004984387
	0.01217735	-0.00565568	8.325912e-09	1.152719e-07	0.01618535	-0.02551744	-2.64569e-09	1.775806e-08
	-6.829723e-09	-7.670306e-10	0.01248603	-0.004984387	-2.64569e-09	1.775806e-08	0.01698901	-0.02390484
2.6e+08	0.01362423	-0.02506909	-4.647776e-09	1.689098e-08	0.01087605	-0.00606826	-7.704109e-09	4.487994e-10
	-4.647776e-09	1.689098e-08	0.01429841	-0.02370279	8.526581e-09	1.207298e-07	0.01123839	-0.005421027
	0.01087605	-0.00606826	8.526581e-09	1.207298e-07	0.01339219	-0.0251257	-2.965882e-09	1.936065e-08
	-7.704109e-09	4.487994e-10	0.01123839	-0.005421027	-2.965882e-09	1.936065e-08	0.01432026	-0.0235735
2.7e+08	0.01093943	-0.02432634	-4.989692e-09	1.87329e-08	0.009511053	-0.006255669	-8.418263e-09	1.840756e-09
	-4.989692e-09	1.87329e-08	0.01171484	-0.0230239	8.899769e-09	1.262606e-07	0.009921334	-0.005642152
	0.009511053	-0.006255669	8.899769e-09	1.262606e-07	0.01069662	-0.02435233	-3.143416e-09	2.106786e-08
	-8.418263e-09	1.840756e-09	0.009921334	-0.005642152	-3.143416e-09	2.106786e-08	0.01173501	-0.02288333
2.8e+08	0.008402961	-0.02322392	-5.134762e-09	2.068554e-08	0.008120724	-0.006210237	-8.937936e-09	3.384588e-09
	-5.134762e-09	2.068554e-08	0.00926485	-0.02200396	9.463352e-09	1.318375e-07	0.008571463	-0.005639205
	0.008120724	-0.006210237	9.463352e-09	1.318375e-07	0.008154145	-0.02321693	-3.153922e-09	2.285712e-08
	-8.937936e-09	3.384588e-09	0.008571463	-0.005639205	-3.153922e-09	2.285712e-08	0.009284532	-0.02185174
2.9e+08	0.006066136	-0.02178878	-5.056905e-09	2.271592e-08	0.006744215	-0.005930776	-9.232572e-09	5.049379e-09
	-5.056905e-09	2.271592e-08	0.006996303	-0.02066754	1.02307e-08	1.374298e-07	0.007226284	-0.005409785
	0.006744215	-0.005930776	1.02307e-08	1.374298e-07	0.005816561	-0.02174719	-2.976642e-09	2.470029e-08
	-9.232572e-09	5.049379e-09	0.007226284	-0.005409785	-2.976642e-09	2.470029e-08	0.007016745	-0.0205035
3e+08	0.003975534	-0.02005524	-4.735783e-09	2.478507e-08	0.005420351	-0.005422624	-9.27665e-09	6.798077e-09
	-4.735783e-09	2.478507e-08	0.004952729	-0.01904596	1.120976e-08	1.430035e-07	0.005923192	-0.004957721
	0.005420351	-0.005422624	1.120976e-08	1.430035e-07	0.003730818	-0.01997828	-2.595746e-09	2.656424e-08
	-9.27665e-09	6.798077e-09	0.005923192	-0.004957721	-2.595746e-09	2.656424e-08	0.004975204	-0.01887015
3.1e+08	0.002171941	-0.01806417	-4.158176e-09	2.684915e-08	0.00418656	-0.004697509	-9.050949e-09	8.588333e-09
	-4.158176e-09	2.684915e-08	0.003172369	-0.01717655	1.240231e-08	1.485226e-07	0.004698439	-0.004292968
	0.00418656	-0.004697509	1.240231e-08	1.485226e-07	0.001937919	-0.01795204	-2.001546e-09	2.841175e-08
	-9.050949e-09	8.588333e-09	0.004698439	-0.004292968	-2.001546e-09	2.841175e-08	0.003198128	-0.01698923
3.2e+08	0.0006893994	-0.0158621	-3.31919e-09	2.886076e-08	0.003077823	-0.003773224	-8.543681e-09	1.03736e-08
	-3.31919e-09	2.886076e-08	0.001687324	-0.01510178	1.380337e-08	1.539498e-07	0.003586132	-0.003431329
	0.003077823	-0.003773224	1.380337e-08	1.539498e-07	0.0004719634	-0.01571596	-1.191557e-09	3.020271e-08
	-8.543681e-09	1.03736e-08	0.003586132	-0.003431329	-1.191557e-09	3.020271e-08	0.001717567	-0.01490347
3.3e+08	-0.000445551	-0.01350005	-2.223151e-09	3.077063e-08	0.0021257	-0.002673145	-7.751415e-09	1.210451e-08
	-2.223151e-09	3.077063e-08	0.0005228875	-0.01286832	1.540089e-08	1.592484e-07	0.002617302	-0.00239402
	0.0021257	-0.002673145	1.540089e-08	1.592484e-07	-0.0006406228	-0.01332207	-1.712785e-10	3.189562e-08
	-7.751415e-09	1.210451e-08	0.002617302	-0.00239402	-1.712785e-10	3.189562e-08	0.0005587082	-0.01265971
3.4e+08	-0.001214473	-0.01103238	-8.841147e-10	3.252959e-08	0.001357445	-0.001425581	-6.679735e-09	1.373044e-08
	-8.841147e-10	3.252959e-08	-0.0003030008	-0.01052586	1.71757e-08	1.643834e-07	0.001819046	-0.001207091
	0.001357445	-0.001425581	1.71757e-08	1.643834e-07	-0.00138169	-0.01082571	1.04538e-09	3.344931e-08
	-6.679735e-09	1.373044e-08	0.001819046	-0.001207091	1.04538e-09	3.344931e-08	-0.0002606382	-0.01030785
3.5e+08	-0.001607443	-0.00851546	6.740296e-10	3.409055e-08	0.0007952487	-6.299399e-05	-5.343568e-09	1.520128e-08
	6.740296e-10	3.409055e-08	-0.0007801143	-0.008126066	1.910181e-08	1.693228e-07	0.001213789	9.930153e-05
	0.0007952487	-6.299399e-05	1.910181e-08	1.693228e-07	-0.001741772	-0.00828423	2.436037e-09	3.482472e-08
	-5.343568e-09	1.520128e-08	0.001213789	9.930152e-05	2.436037e-09	3.482472e-08	-0.0007304156	-0.00789971
3.6e+08	-0.001623244	-0.0060064	2.417947e-09	3.541061e-08	0.0004556184	0.001378904	-3.767148e-09	1.646922e-08
	2.417947e-09	3.541061e-08	-0.000906115	-0.005721303	2.114703e-08	1.740394e-07	0.0008186719	0.001491716
	0.0004556183	0.001378904	2.114703e-08	1.740394e-07	-0.001720285	-0.005755601	3.970237e-09	3.598676e-08
	-3.767148e-09	1.646922e-08	0.0008186719	0.001491716	3.970237e-09	3.598676e-08	-0.0008484828	-0.005487797
3.7e+08	-0.001269365	-0.003561653	4.305694e-09	3.645302e-08	0.0003489154	0.002862135	-1.983599e-09	1.749058e-08
	4.305694e-09	3.645302e-08	-0.0006865529	-0.00336348	2.32738e-08	1.785117e-07	0.0006450831	0.002934354
	0.0003489154	0.002862135	2.32738e-08	1.785117e-07	-0.001325495	-0.003297066	5.610257e-09	3.690608e-08
	-1.983599e-09	1.749058e-08	0.0006450831	0.002934354	5.610257e-09	3.690608e-08	-0.0006206088	-0.003124113
3.8e+08	-0.000561779	-0.001235716	6.288008e-09	3.718897e-08	0.0004790686	0.00434751	-3.414292e-11	1.822755e-08
	6.288008e-09	3.718897e-08	-0.000134675	-0.001102847	2.544046e-08	1.827252e-07	0.0006983574	0.004390034
	0.0004790686	0.00434751	2.544046e-08	1.827252e-07	-0.000574297	-0.0009637718	7.312321e-09	3.756058e-08
	-3.414292e-11	1.822755e-08	0.0006983574	0.004390034	7.312321e-09	3.756058e-08	-6.027605e-05	-0.000858966
3.9e+08	0.0004754711	0.0009201555	8.309975e-09	3.759906e-08	0.0008434639	0.005795706	2.033056e-09	1.864967e-08
	8.309975e-09	3.759906e-08	0.0007289402	0.00101314	2.760254e-08	1.86673e-07	0.0009776352	0.005821214
	0.0008434639	0.005795706	2.760254e-08	1.86673e-07	0.0005082312	0.001192524	9.028164e-09	3.793668e-08
	2.033056e-09	1.864967e-08	0.0009776352	0.005821214	9.028164e-09	3.793668e-08	0.0008116938	0.001260174
4e+08	0.001810886	0.002859143	1.031299e-08	3.767434e-08	0.001433015	0.007168355	4.164339e-09	1.87352e-08
	1.031299e-08	3.767434e-08	0.001876919	0.002940885	2.971436e-08	1.903565e-07	0.001475895	0.007191013
	0.001433015	0.007168355	2.971436e-08	1.903565e-07	0.001889465	0.003124669	1.070685e-08	3.803021e-08
	4.164339e-09	1.87352e-08	0.001475895	0.007191013	1.070685e-08	3.803021e-08	0.001967684	0.003189745
4.1e+08	0.003406297	0.00453994	1.223692e-08	3.741699e-08	0.002232413	0.008429095	6.302251e-09	1.847198e-08
	1.223692e-08	3.741699e-08	0.003275785	0.004641631	3.173059e-08	1.937853e-07	0.00218015	0.008464213
	0.002232413	0.008429095	3.173059e-08	1.937853e-07	0.003530048	0.004791213	1.229674e-08	3.784682e-08
	6.302251e-09	1.847198e-08	0.00218015	0.008464213	1.229674e-08	3.784682e-08	0.003373982	0.004891059
4.2e+08	0.00521781	0.005927705	1.402232e-08	3.684038e-08	0.003220544	0.009544566	8.387382e-09	1.785814e-08
	1.402232e-08	3.684038e-08	0.004886782	0.006082294	3.360787e-08	1.969773e-07	0.003071812	0.00960821
	0.003220544	0.009544566	3.360787e-08	1.969773e-07	0.00538487	0.006157367	1.374753e-08	3.7402e-08
	8.387382e-09	1.785814e-08	0.003071812	0.00960821	1.374753e-08	3.7402e-08	0.004991611	0.006331147
4.3e+08	0.007196881	0.006994838	1.561265e-08	3.596878e-08	0.004371063	0.01048533	1.03603e-08	1.690221e-08
	1.561265e-08	3.596878e-08	0.006666825	0.007236179	3.53063e-08	1.999576e-07	0.004127198	0.0105939
	0.004371063	0.01048533	3.53063e-08	1.999576e-07	0.007404174	0.007195788	1.501222e-08	3.672061e-08
	1.03603e-08	1.690221e-08	0.004127198	0.0105939	1.501222e-08	3.672061e-08	0.006777287	0.007483468
4.4e+08	0.0092915	0.007721597	1.695628e-08	3.483655e-08	0.005653117	0.01122665	1.216343e-08	1.562302e-08
	1.695628e-08	3.483655e-08	0.00856953	0.008083534	3.679077e-08	2.027587e-07	0.005318175	0.01139644
	0.005653117	0.01122665	3.679077e-08	2.027587e-07	0.009534771	0.00788719	1.604884e-08	3.583601e-08
	1.216343e-08	1.562302e-08	0.005318175	0.01139644	1.604884e-08	3.583601e-08	0.008684458	0.008328454
4.5e+08	0.01144744	0.008096508	1.800832e-08	3.348695e-08	0.007032171	0.01174922	1.37429e-08	1.404911e-08
	1.800832e-08	3.348695e-08	0.01054632	0.008611932	3.803214e-08	2.054184e-07	0.006612925	0.01199594
	0.007032171	0.01174922	3.803214e-08	2.054184e-07	0.01172134	0.008220753	1.682207e-08	3.478884e-08
	1.37429e-08	1.404911e-08	0.006612925	0.01199594	1.682207e-08	3.478884e-08	0.01066441	0.008853893
4.6e+08	0.01360959	0.008116579	1.873202e-08	3.197065e-08	0.00847095	0.01203962	1.505013e-08	1.221794e-08
	1.873202e-08	3.197065e-08	0.01254758	0.008816489	3.900808e-08	2.079793e-07	0.007976798	0.01237799
	0.00847095	0.01203962	3.900808e-08	2.079793e-07	0.01390773	0.008194327	1.730435e-08	3.362559e-08
	1.505013e-08	1.221794e-08	0.007976798	0.01237799	1.730435e-08	3.362559e-08	0.01266743	0.009055138
4.7e+08	0.01572321	0.007787298	1.909997e-08	3.034403e-08	0.009930438	0.01209074	1.604328e-08	1.017471e-08
	1.909997e-08	3.034403e-08	0.01452378	0.008699896	3.970373e-08	2.104872e-07	0.009373243	0.012534
	0.009930438	0.01209074	3.970373e-08	2.104872e-07	0.01603838	0.007814432	1.747676e-08	3.239688e-08
	1.604328e-08	1.017471e-08	0.009373243	0.012534	1.747676e-08	3.239688e-08	0.01464395	0.008935097
4.8e+08	0.01773528	0.007122515	1.909468e-08	2.866736e-08	0.01137093	0.01190197	1.668835e-08	7.971081e-09
	1.909468e-08	2.866736e-08	0.01642667	0.008272279	4.011199e-08	2.129898e-07	0.01076479	0.0124615
