!$
! Info: Touchstone file created by Circ.  Input file=Tx_8in_Rx_85ohms_TxVia_35mils_RxVia_45mils.circ
!$
# Hz S RI R 50
0	0.006530057	1.102818e-25	7.659817e-10	6.5966e-28	6.306283e-05	1.219393e-23	2.552578e-09	2.777108e-28
	7.659825e-10	6.595438e-28	0.006527861	1.299744e-25	4.039012e-10	9.665664e-28	6.242382e-05	1.472197e-23
	6.357232e-05	1.236443e-23	4.039009e-10	9.666036e-28	0.006542351	1.07155e-25	7.861488e-10	6.39937e-28
	2.552578e-09	2.776997e-28	6.057642e-05	1.479457e-23	7.861491e-10	6.398996e-28	0.006541023	1.217705e-25
1e+07	0.009631033	-0.007214289	1.123407e-09	1.309381e-09	0.0001899247	0.001557053	4.786602e-09	6.29798e-09
	1.123407e-09	1.309381e-09	0.008545308	-0.007329803	6.086227e-10	8.074969e-10	0.0002491191	0.001561281
	0.0001899543	0.001557047	6.086227e-10	8.074969e-10	0.008576939	-0.007462771	1.181445e-09	1.36976e-09
	4.786602e-09	6.29798e-09	0.000249059	0.001561291	1.181445e-09	1.36976e-09	0.008533885	-0.007317566
2e+07	0.009832816	-0.0170304	1.856006e-09	2.131863e-09	0.0005854607	0.003068306	8.604752e-09	1.004059e-08
	1.856006e-09	2.131863e-09	0.008835703	-0.01682402	8.440554e-10	1.379885e-09	0.0006687039	0.003025162
	0.0005854614	0.003068284	8.440553e-10	1.379885e-09	0.008760671	-0.01704655	1.969445e-09	2.209726e-09
	8.604752e-09	1.004059e-08	0.000668696	0.003025196	1.969445e-09	2.209726e-09	0.00883038	-0.01679177
3e+07	0.007657061	-0.02737836	2.742927e-09	2.718668e-09	0.001264356	0.004433261	1.330116e-08	1.255581e-08
	2.742927e-09	2.718668e-09	0.006714978	-0.02703485	1.082414e-09	1.890514e-09	0.001312413	0.004380452
	0.00126435	0.004433259	1.082414e-09	1.890514e-09	0.006576982	-0.02728124	2.918018e-09	2.79775e-09
	1.330116e-08	1.255581e-08	0.001312413	0.004380457	2.918018e-09	2.79775e-09	0.006713372	-0.02698926
4e+07	0.003466227	-0.0373944	3.779208e-09	3.0393e-09	0.002148379	0.005644665	1.881211e-08	1.364395e-08
	3.779208e-09	3.0393e-09	0.002559604	-0.03694601	1.335096e-09	2.344597e-09	0.002159969	0.005594319
	0.002148379	0.005644669	1.335096e-09	2.344597e-09	0.002389295	-0.03719986	4.027042e-09	3.100139e-09
	1.881211e-08	1.364395e-08	0.002159964	0.005594317	4.027042e-09	3.100139e-09	0.002559931	-0.03688867
5e+07	-0.002502049	-0.04665418	4.904416e-09	3.061147e-09	0.003208308	0.00667354	2.480002e-08	1.312723e-08
	4.904416e-09	3.061148e-09	-0.003387659	-0.04610976	1.593087e-09	2.736915e-09	0.003182657	0.006635422
	0.00320831	0.006673541	1.593087e-09	2.736915e-09	-0.003565626	-0.04636799	5.232029e-09	3.081793e-09
	2.480002e-08	1.312723e-08	0.003182653	0.006635421	5.232029e-09	3.081793e-09	-0.00338706	-0.0460411
6e+07	-0.01001532	-0.05484121	6.050845e-09	2.769693e-09	0.004408894	0.007494784	3.089017e-08	1.092841e-08
	6.050845e-09	2.769693e-09	-0.01088988	-0.0542	1.843898e-09	3.067977e-09	0.004346329	0.007477991
	0.004408892	0.007494783	1.843898e-09	3.067977e-09	-0.01105582	-0.05446671	6.460275e-09	2.727033e-09
	3.089017e-08	1.092841e-08	0.004346332	0.00747799	6.460275e-09	2.727033e-09	-0.01089048	-0.05411975
7e+07	-0.01882411	-0.0617057	7.150439e-09	2.162027e-09	0.005710881	0.008089604	3.670584e-08	7.042119e-09
	7.150439e-09	2.162027e-09	-0.01969345	-0.060962	2.075833e-09	3.34054e-09	0.005613089	0.008102893
	0.005710875	0.008089604	2.075833e-09	3.34054e-09	-0.01983201	-0.06124551	7.638647e-09	2.032782e-09
	3.670584e-08	7.042119e-09	0.005613096	0.008102889	7.638647e-09	2.032782e-09	-0.01969645	-0.06086941
8e+07	-0.02865917	-0.06705408	8.134378e-09	1.247079e-09	0.007072562	0.008446434	4.187277e-08	1.530264e-09
	8.134378e-09	1.247079e-09	-0.02952521	-0.06619965	2.2774e-09	3.559435e-09	0.006942734	0.008498233
	0.007072555	0.008446437	2.2774e-09	3.559435e-09	-0.02962481	-0.06651048	8.693305e-09	1.008636e-09
	4.187277e-08	1.530264e-09	0.006942744	0.008498227	8.693305e-09	1.008636e-09	-0.02953154	-0.06609356
9e+07	-0.03923495	-0.07074623	8.934787e-09	4.625052e-11	0.008451343	0.008561385	4.602773e-08	-5.474129e-09
	8.934786e-09	4.625061e-11	-0.04009604	-0.06977187	2.437618e-09	3.731517e-09	0.008294348	0.008659766
	0.008451338	0.008561388	2.437618e-09	3.731517e-09	-0.04014769	-0.07012069	9.5515e-09	-3.225489e-10
	4.602773e-08	-5.474129e-09	0.008294354	0.008659759	9.5515e-09	-3.225489e-10	-0.04010627	-0.06965085
1e+08	-0.05025593	-0.07269487	9.489055e-09	-1.407542e-09	0.009805899	0.008438802	4.88333e-08	-1.376574e-08
	9.489055e-09	-1.407542e-09	-0.05110863	-0.07159327	2.545702e-09	3.866391e-09	0.009629232	0.008592329
	0.009805899	0.008438802	2.545702e-09	3.866391e-09	-0.05109852	-0.07198292	1.014615e-08	-1.926136e-09
	4.88333e-08	-1.376574e-08	0.009629232	0.008592329	1.014615e-08	-1.926136e-09	-0.05112313	-0.07145585
1.1e+08	-0.06142299	-0.07287062	9.741656e-09	-3.048297e-09	0.01109701	0.008085303	4.999177e-08	-2.304261e-08
	9.741656e-09	-3.048297e-09	-0.06226213	-0.07162366	2.588417e-09	3.969816e-09	0.01091278	0.008294017
	0.01109701	0.008085303	2.588417e-09	3.969816e-09	-0.06216383	-0.07210837	1.042002e-08	-3.730956e-09
	4.999177e-08	-2.304261e-08	0.01091278	0.008294017	1.042002e-08	-3.730956e-09	-0.06227993	-0.07146767
1.2e+08	-0.072442	-0.07127483	9.637011e-09	-4.817762e-09	0.01228335	0.007519676	4.928585e-08	-3.297025e-08
	9.637011e-09	-4.817762e-09	-0.07324896	-0.06987131	2.565573e-09	4.057529e-09	0.0120964	0.007784817
	0.01228335	0.007519676	2.565573e-09	4.057529e-09	-0.07309383	-0.07048326	1.031103e-08	-5.67381e-09
	4.928585e-08	-3.297025e-08	0.0120964	0.007784817	1.031103e-08	-5.67381e-09	-0.07326927	-0.06969493
1.3e+08	-0.08302741	-0.06796962	9.143453e-09	-6.646575e-09	0.01333286	0.006766081	4.655788e-08	-4.317697e-08
	9.143453e-09	-6.646575e-09	-0.08378244	-0.06640372	2.472791e-09	4.144169e-09	0.01314999	0.007089322
	0.01333286	0.006766081	2.472791e-09	4.144169e-09	-0.08359672	-0.06715966	9.785479e-09	-7.681285e-09
	4.655788e-08	-4.317697e-08	0.01314999	0.007089322	9.785479e-09	-7.681285e-09	-0.08380397	-0.06620521
1.4e+08	-0.09291197	-0.06306075	8.241389e-09	-8.456302e-09	0.01421772	0.00585258	4.172124e-08	-5.325991e-08
	8.241389e-09	-8.456302e-09	-0.09359333	-0.06133093	2.309083e-09	4.244427e-09	0.01404662	0.006234525
	0.01421772	0.00585258	2.309083e-09	4.244427e-09	-0.09340373	-0.06224036	8.822337e-09	-9.669723e-09
	4.172124e-08	-5.325991e-08	0.01404662	0.006234525	8.822337e-09	-9.669723e-09	-0.09361418	-0.06110879
1.5e+08	-0.1018528	-0.05669349	6.926658e-09	-1.016361e-08	0.01491552	0.004810795	3.476645e-08	-6.279899e-08
	6.926658e-09	-1.016361e-08	-0.1024374	-0.05480285	2.076379e-09	4.373145e-09	0.01476434	0.005250641
	0.01491552	0.004810795	2.076379e-09	4.373145e-09	-0.1022711	-0.05586903	7.416955e-09	-1.155012e-08
	3.476645e-08	-6.279899e-08	0.01476434	0.005250641	7.416955e-09	-1.155012e-08	-0.1024551	-0.05455599
1.6e+08	-0.1096363	-0.04904764	5.21177e-09	-1.16835e-08	0.01540966	0.003674938	2.57641e-08	-7.13714e-08
	5.21177e-09	-1.16835e-08	-0.1101008	-0.04700424	1.779537e-09	4.544803e-09	0.01528665	0.00417031
	0.01540966	0.003674938	1.779537e-09	4.544803e-09	-0.1099847	-0.04822454	5.582424e-09	-1.323166e-08
	2.57641e-08	-7.13714e-08	0.01528665	0.00417031	5.582424e-09	-1.323166e-08	-0.1101125	-0.04673219
1.7e+08	-0.1160824	-0.04033204	3.126364e-09	-1.293275e-08	0.01568945	0.002480807	1.486491e-08	-7.856628e-08
	3.126364e-09	-1.293275e-08	-0.1164041	-0.03814899	1.426262e-09	4.772959e-09	0.01560261	0.003027713
	0.01568945	0.002480807	1.426262e-09	4.772959e-09	-0.116364	-0.03951512	3.350066e-09	-1.462537e-08
	1.486491e-08	-7.856628e-08	0.01560261	0.003027713	3.350066e-09	-1.462537e-08	-0.1164069	-0.03785194
1.8e+08	-0.1210479	-0.03077874	7.168823e-10	-1.383342e-08	0.01575017	0.001264846	2.29719e-09	-8.399918e-08
	7.168823e-10	-1.383342e-08	-0.1212058	-0.02847408	1.026924e-09	5.069702e-09	0.0157069	0.001857705
	0.01575017	0.001264846	1.026924e-09	5.069702e-09	-0.1212657	-0.02997244	7.69093e-10	-1.564785e-08
	2.29719e-09	-8.399918e-08	0.0157069	0.001857705	7.69093e-10	-1.564785e-08	-0.1211966	-0.02815294
1.9e+08	-0.1244286	-0.02063694	-1.954508e-09	-1.431627e-08	0.01559285	6.326831e-05	-1.163821e-08	-8.732583e-08
	-1.954508e-09	-1.431627e-08	-0.1244045	-0.01823331	5.942517e-10	5.445141e-09	0.01559965	0.0006950066
	0.01559285	6.326831e-05	5.942517e-10	5.445141e-09	-0.1245853	-0.01984544	-2.094509e-09	-1.622485e-08
	-1.163821e-08	-8.732583e-08	0.01559965	0.0006950066	-2.094509e-09	-1.622485e-08	-0.1243804	-0.01788969
2e+08	-0.1261611	-0.01016681	-4.811683e-09	-1.432385e-08	0.0152241	-0.001088747	-2.657511e-08	-8.825485e-08
	-4.811683e-09	-1.432385e-08	-0.1259404	-0.007690982	1.429385e-10	5.906962e-09	0.01528622	-0.0004265238
	0.0152241	-0.001088747	1.429385e-10	5.906962e-09	-0.1262594	-0.009394135	-5.159836e-09	-1.629458e-08
	-2.657511e-08	-8.825485e-08	0.01528622	-0.0004265238	-5.159836e-09	-1.629458e-08	-0.1258988	-0.007327104
2.1e+08	-0.1262232	0.0003666679	-7.766953e-09	-1.381324e-08	0.01465577	-0.002157775	-4.209126e-08	-8.655925e-08
	-7.766953e-09	-1.381324e-08	-0.1257959	0.002884522	-3.108354e-10	6.460075e-09	0.01477699	-0.001474562
	0.01465577	-0.002157775	-3.108354e-10	6.460075e-09	-0.1262659	0.001116631	-8.33356e-09	-1.581061e-08
	-4.209126e-08	-8.655925e-08	0.01477699	-0.001474562	-8.33356e-09	-1.581061e-08	-0.1257346	0.003265852
2.2e+08	-0.1246339	0.01069988	-1.072395e-08	-1.275824e-08	0.01390457	-0.003112809	-5.771937e-08	-8.208626e-08
	-1.072395e-08	-1.275824e-08	-0.1239953	0.01322697	-7.499388e-10	7.106359e-09	0.01408696	-0.002418927
	0.01390457	-0.003112809	-7.499388e-10	7.106359e-09	-0.1246239	0.01142334	-1.151297e-08	-1.474423e-08
	-5.771937e-08	-8.208626e-08	0.01408696	-0.002418927	-1.151297e-08	-1.474423e-08	-0.1239126	0.01362248
2.3e+08	-0.1214525	0.02057654	-1.358093e-08	-1.115095e-08	0.01299172	-0.003925864	-7.295973e-08	-7.476556e-08
	-1.358093e-08	-1.115095e-08	-0.1206035	0.02307841	-1.156859e-09	7.84451e-09	0.01323547	-0.003232148
	0.01299172	-0.003925864	-1.156859e-09	7.84451e-09	-0.121393	0.02126982	-1.458944e-08	-1.308618e-08
	-7.295973e-08	-7.476556e-08	0.01323547	-0.003232148	-1.458944e-08	-1.308618e-08	-0.1204985	0.02348447
2.4e+08	-0.1167769	0.02975349	-1.62343e-08	-9.00273e-09	0.01194244	-0.004572543	-8.729418e-08	-6.461548e-08
	-1.62343e-08	-9.00273e-09	-0.1157246	0.03219507	-1.514286e-09	8.670008e-09	0.01224577	-0.003889998
	0.01194244	-0.004572543	-1.514286e-09	8.670008e-09	-0.1166711	0.03041301	-1.745215e-08	-1.084767e-08
	-8.729418e-08	-6.461548e-08	0.01224577	-0.003889998	-1.745215e-08	-1.084767e-08	-0.115597	0.03260782
2.5e+08	-0.1107411	0.03800619	-1.858231e-08	-6.344377e-09	0.01078546	-0.005032558	-1.002012e-07	-5.17471e-08
	-1.858231e-08	-6.344377e-09	-0.109499	0.0403529	-1.805685e-09	9.575177e-09	0.01114456	-0.004371998
	0.01078546	-0.005032558	-1.805685e-09	9.575177e-09	-0.1105926	0.03862855	-1.999201e-08	-8.060707e-09
	-1.002012e-07	-5.17471e-08	0.01114456	-0.004371998	-1.999201e-08	-8.060707e-09	-0.1093491	0.04076837
2.6e+08	-0.103512	0.0451339	-2.052869e-08	-3.22568e-09	0.009552492	-0.005290226	-1.11172e-07	-3.636591e-08
	-2.052869e-08	-3.22568e-09	-0.1020998	0.0473528	-2.015846e-09	1.054935e-08	0.009961539	-0.0046619
	0.009552492	-0.005290226	-2.015846e-09	1.054935e-08	-0.1033247	0.04571585	-2.210551e-08	-4.777623e-09
	-1.11172e-07	-3.636591e-08	0.009961539	-0.0046619	-2.210551e-08	-4.777623e-09	-0.1019288	0.04776705
2.7e+08	-0.09528567	0.05096431	-2.198612e-08	2.857601e-10	0.008277556	-0.005334914	-1.197272e-07	-1.8771e-08
	-2.198612e-08	2.857601e-10	-0.09372922	0.05302528	-2.131392e-09	1.157912e-08	0.008728818	-0.004748139
	0.008277556	-0.005334914	-2.131392e-09	1.157912e-08	-0.09506372	0.05150288	-2.369852e-08	-1.069936e-09
	-1.197272e-07	-1.8771e-08	0.008728818	-0.004748139	-2.369852e-08	-1.069936e-09	-0.09353902	0.05343455
2.8e+08	-0.08628264	0.05535781	-2.287951e-08	4.106323e-09	0.006996285	-0.005161437	-1.254334e-07	6.486811e-10
	-2.287951e-08	4.106323e-09	-0.08461365	0.05723468	-2.141235e-09	1.264864e-08	0.007480263	-0.004624246
	0.006996285	-0.005161437	-2.141235e-09	1.264864e-08	-0.08603072	0.05585032	-2.46897e-08	2.973514e-09
	-1.254334e-07	6.486811e-10	0.007480264	-0.004624246	-2.46897e-08	2.973514e-09	-0.08440684	0.05763549
2.9e+08	-0.076743	0.05821096	-2.314877e-08	8.138731e-09	0.005745114	-0.004770369	-1.279202e-07	2.142097e-08
	-2.314877e-08	8.138731e-09	-0.07499819	0.05988258	-2.036978e-09	1.374006e-08	0.006250763	-0.004289187
	0.005745114	-0.004770369	-2.036978e-09	1.374006e-08	-0.07646606	0.05865509	-2.501361e-08	7.249017e-09
	-1.279202e-07	2.142097e-08	0.006250763	-0.004289187	-2.501361e-08	7.249017e-09	-0.07477805	0.06027192
3e+08	-0.06692054	0.0594593	-2.275113e-08	1.227487e-08	0.004560389	-0.004168271	-1.26896e-07	4.300028e-08
	-2.275113e-08	1.227487e-08	-0.0651409	0.06091056	-1.813249e-09	1.483392e-08	0.005075391	-0.003747623
	0.004560389	-0.004168271	-1.813249e-09	1.483392e-08	-0.06662386	0.05985321	-2.462327e-08	1.164097e-08
	-1.26896e-07	4.300028e-08	0.005075391	-0.003747623	-2.462327e-08	1.164097e-08	-0.06491129	0.06128594
3.1e+08	-0.05707661	0.05907936	-2.166294e-08	1.639898e-08	0.003477388	-0.003367764	-1.221627e-07	6.47805e-08
	-2.166294e-08	1.639898e-08	-0.05530642	0.06030202	-1.467983e-09	1.590966e-08	0.003988484	-0.003010038
	0.003477388	-0.003367764	-1.467983e-09	1.590966e-08	-0.05676578	0.05942173	-2.349213e-08	1.602526e-08
	-1.221627e-07	6.47805e-08	0.003988484	-0.003010038	-2.349213e-08	1.602526e-08	-0.05507169	0.06066161
3.2e+08	-0.04747366	0.05708965	-1.988083e-08	2.039108e-08	0.002529285	-0.002387458	-1.136282e-07	8.611097e-08
	-1.988083e-08	2.039108e-08	-0.04575925	0.05808301	-1.002623e-09	1.694614e-08	0.003022643	-0.002092719
	0.002529285	-0.002387458	-1.002623e-09	1.694614e-08	-0.04715451	0.05737975	-2.161545e-08	2.027292e-08
	-1.136282e-07	8.611097e-08	0.003022643	-0.002092719	-2.161545e-08	2.027292e-08	-0.04552415	0.05842573
3.3e+08	-0.03836848	0.05355062	-1.74222e-08	2.413045e-08	0.001746078	-0.001251673	-1.013165e-07	1.063152e-07
	-1.74222e-08	2.413045e-08	-0.03675696	0.05432197	-4.222635e-10	1.792222e-08	0.002207703	-0.001017549
	0.001746078	-0.001251673	-4.222635e-10	1.792222e-08	-0.03804701	0.05378841	-1.901087e-08	2.425394e-08
	-1.013165e-07	1.063152e-07	0.002207703	-0.001017549	-1.901087e-08	2.425394e-08	-0.03652648	0.0546476
3.4e+08	-0.03000538	0.04856364	-1.433153e-08	2.750869e-08	0.001153533	1.003923e-05	-8.536772e-08	1.247039e-07
	-1.433153e-08	2.750869e-08	-0.02854325	0.04912849	2.646718e-10	1.881647e-08	0.001569691	0.000188413
	0.001153533	1.003923e-05	2.646718e-10	1.881647e-08	-0.02968772	0.04874976	-1.572467e-08	2.785054e-08
	-8.536772e-08	1.247039e-07	0.001569691	0.000188413	-1.572467e-08	2.785054e-08	-0.02832245	0.04943772
3.5e+08	-0.02260969	0.04226862	-1.065931e-08	3.040503e-08	0.0007721771	0.001363612	-6.606251e-08	1.406173e-07
	-1.065931e-08	3.040503e-08	-0.02134129	0.04265071	1.045068e-09	1.961024e-08	0.001129838	0.001493561
	0.0007721771	0.001363612	1.045068e-09	1.961024e-08	-0.0223019	0.04240451	-1.181121e-08	3.09329e-08
	-6.606251e-08	1.406173e-07	0.001129838	0.001493561	-1.181121e-08	3.09329e-08	-0.02113521	0.0429451
3.6e+08	-0.01638137	0.03484071	-6.482071e-09	3.271557e-08	0.0006164185	0.00277139	-4.37986e-08	1.534361e-07
	-6.482071e-09	3.271557e-08	-0.01534746	0.03507175	1.902812e-09	2.02863e-08	0.0009036921	0.002862598
	0.0006164185	0.00277139	1.902812e-09	2.02863e-08	-0.01608941	0.0349286	-7.352484e-09	3.338871e-08
	-4.37986e-08	1.534361e-07	0.0009036921	0.002862598	-7.352484e-09	3.338871e-08	-0.01516091	0.03535375
3.7e+08	-0.01148938	0.02648584	-1.894922e-09	3.435051e-08	0.000693833	0.004193267	-1.908923e-08	1.626063e-07
	-1.894922e-09	3.435051e-08	-0.01072564	0.02660487	2.818589e-09	2.082982e-08	0.0009003932	0.004257594
	0.000693833	0.004193267	2.818589e-09	2.082982e-08	-0.01121895	0.02652876	-2.450543e-09	3.512076e-08
	-1.908923e-08	1.626063e-07	0.0009003933	0.004257594	-2.450543e-09	3.512076e-08	-0.01056309	0.02687784
3.8e+08	-0.008066761	0.01743519	2.991649e-09	3.523549e-08	0.00100468	0.005587981	7.447153e-09	1.676624e-07
	2.991649e-09	3.523549e-08	-0.007602491	0.01748781	3.770168e-09	2.122911e-08	0.001122157	0.005639209
	0.00100468	0.005587981	3.770168e-09	2.122911e-08	-0.007823165	0.01743694	2.775806e-09	3.604855e-08
	7.447153e-09	1.676624e-07	0.001122157	0.005639209	2.775806e-09	3.604855e-08	-0.007467859	0.0177559
3.9e+08	-0.006206716	0.007938944	8.05415e-09	3.531403e-08	0.001541689	0.00691453	3.510314e-08	1.682483e-07
	8.05415e-09	3.531403e-08	-0.006063588	0.007976177	4.732908e-09	2.147627e-08	0.001564022	0.00696803
	0.001541689	0.00691453	4.732908e-09	2.147627e-08	-0.005994762	0.00790404	8.193647e-09	3.611096e-08
	3.510314e-08	1.682483e-07	0.001564022	0.00696803	8.193647e-09	3.611096e-08	-0.005960136	0.008244279
4e+08	-0.005959843	-0.001740725	1.315882e-08	3.454974e-08	0.002290148	0.008133631	6.310277e-08	1.641344e-07
	1.315882e-08	3.454974e-08	-0.006150915	-0.001663739	5.680385e-09	2.156768e-08	0.002213877	0.008205974
	0.002290148	0.008133631	5.680385e-09	2.156768e-08	-0.005783714	-0.001807098	1.365898e-08	3.526866e-08
	6.310277e-08	1.641344e-07	0.002213877	0.008205974	1.365898e-08	3.526866e-08	-0.00608109	-0.001390101
4.1e+08	-0.007332649	-0.01133704	1.816472e-08	3.292808e-08	0.003228301	0.009209155	9.062545e-08	1.552308e-07
	1.816472e-08	3.292808e-08	-0.007861591	-0.01116255	6.585148e-09	2.150439e-08	0.003052799	0.009317664
	0.003228301	0.009209155	6.585148e-09	2.150439e-08	-0.007195798	-0.01142913	1.902013e-08	3.350601e-08
	9.062545e-08	1.552308e-07	0.003052799	0.009317664	1.902013e-08	3.350601e-08	-0.007826916	-0.01087736
4.2e+08	-0.01028741	-0.02058619	2.292707e-08	3.045781e-08	0.004328055	0.01010946	1.168324e-07	1.415959e-07
	2.292707e-08	3.045781e-08	-0.01114801	-0.02025548	7.419582e-09	2.129245e-08	0.004055678	0.01027172
	0.004328055	0.01010946	7.419582e-09	2.129245e-08	-0.01019247	-0.02069779	2.412146e-08	3.083259e-08
	1.168324e-07	1.415959e-07	0.004055678	0.01027172	2.412146e-08	3.083259e-08	-0.01114899	-0.0199524
4.3e+08	-0.01474341	-0.0292348	2.730102e-08	2.717202e-08	0.00555596	0.01080856	1.408948e-07	1.234388e-07
	2.730102e-08	2.717202e-08	-0.01591937	-0.02868993	8.156846e-09	2.0943e-08	0.005192106	0.0110419
	0.00555596	0.01080856	8.156846e-09	2.0943e-08	-0.01469209	-0.02935937	2.880742e-08	2.728419e-08
	1.408948e-07	1.234388e-07	0.005192106	0.0110419	2.880742e-08	2.728419e-08	-0.01595542	-0.02836245
4.4e+08	-0.02057942	-0.03704706	3.114558e-08	2.312856e-08	0.006874408	0.01128705	1.620214e-07	1.011169e-07
	3.114558e-08	2.312856e-08	-0.0220445	-0.03623262	8.771853e-09	2.047219e-08	0.006427495	0.01160801
	0.006874408	0.01128705	8.771853e-09	2.047219e-08	-0.02057252	-0.03717785	3.292691e-08	2.29232e-08
	1.620214e-07	1.011169e-07	0.006427495	0.01160801	3.292691e-08	2.29232e-08	-0.02211393	-0.03587428
4.5e+08	-0.02763754	-0.04381122	3.432795e-08	1.840988e-08	0.008243002	0.01153275	1.794862e-07	7.512784e-08
	3.432795e-08	1.840988e-08	-0.02935597	-0.0426761	9.242246e-09	1.99009e-08	0.007724344	0.01195653
	0.008243002	0.01153275	9.242246e-09	1.99009e-08	-0.02767485	-0.04394143	3.633782e-08	1.783831e-08
	1.794862e-07	7.512784e-08	0.007724344	0.01195653	3.633782e-08	1.783831e-08	-0.02945595	-0.04228064
4.6e+08	-0.03572792	-0.04934527	3.67278e-08	1.312213e-08	0.009620015	0.01154103	1.926536e-07	4.609588e-08
	3.67278e-08	1.312213e-08	-0.03765517	-0.04784426	9.549341e-09	1.925427e-08	0.0090436	0.01208101
	0.009620015	0.01154103	9.549341e-09	1.925427e-08	-0.03580826	-0.0494682	3.891168e-08	1.214343e-08
	1.926536e-07	4.609588e-08	0.0090436	0.01208101	3.891168e-08	1.214343e-08	-0.03778181	-0.04740587
4.7e+08	-0.04463449	-0.05350161	3.824175e-08	7.393399e-09	0.01096386	0.01131487	2.009996e-07	1.475425e-08
	3.824175e-08	7.393399e-09	-0.04671832	-0.05159698	9.678959e-09	1.856102e-08	0.01034604	0.01198213
	0.01096386	0.01131487	9.678959e-09	1.856102e-08	-0.04475572	-0.05361082	4.053828e-08	5.975748e-09
	2.009996e-07	1.475425e-08	0.01034604	0.01198213	4.053828e-08	5.975748e-09	-0.04686667	-0.05111044
4.8e+08	-0.05412127	-0.05617064	3.878753e-08	1.371125e-09	0.01223449	0.01086457	2.041308e-07	-1.807638e-08
