! Created Thu Jun 27 15:57:19 2019
# hz S ma R 50
! 4 Port Network Data from SP1.SP block
! freq  magS11  angS11  magS12  angS12  magS13  angS13  magS14  angS14  
!       magS21  angS21  magS22  angS22  magS23  angS23  magS24  angS24  
!       magS31  angS31  magS32  angS32  magS33  angS33  magS34  angS34  
!       magS41  angS41  magS42  angS42  magS43  angS43  magS44  angS44  
!     
          50000000      0.0488372434         -85.489079     8.33371331e-05        -135.348964       0.0184903984         48.5638348     0.000157842749         -133.93763
                   8.33371327e-05        -135.348964       0.0483371029        -87.7788428     5.74457385e-05        -136.772578       0.0177777317         52.9197972
                     0.0184903964         48.5638454     5.74457198e-05        -136.772583       0.0488617297        -85.4460024      0.00011616937         -137.49219
                   0.000157842759        -133.937629        0.017777728         52.9197879     0.000116169371        -137.492192       0.0484553463        -87.8050232

          60000000      0.0541104261        -96.9519018     9.92356083e-05        -141.528111       0.0214218916         41.0480751     0.000188096186         -140.21825
                    9.9235608e-05        -141.528111       0.0534302894        -99.6162162     6.81001103e-05        -143.395608       0.0206918517         46.5493204
                     0.0214218907         41.0480761     6.81001198e-05        -143.395606       0.0541301268        -96.9089435     0.000138261942        -143.394304
                   0.000188096185        -140.218247       0.0206918485         46.5493175     0.000138261942        -143.394304       0.0535682785        -99.6312578

          70000000      0.0591497483        -107.313728     0.000115419896        -148.004622       0.0240176361         33.4385529     0.000218711955        -146.746067
                   0.000115419896        -148.004622       0.0582094385        -110.427138      7.8735546e-05        -150.224662       0.0233331813         40.2516033
                     0.0240176357         33.4385444     7.87355559e-05        -150.224662       0.0591636579        -107.271204     0.000160651224        -149.704531
                   0.000218711955        -146.746067       0.0233331785         40.2516064     0.000160651233         -149.70453       0.0583637417        -110.430348

          80000000      0.0637568874        -116.840075     0.000131899514        -154.723803       0.0262504736         25.7366839     0.000249717464        -153.466319
                   0.000131899514        -154.723804       0.0624624543        -120.499818     8.93677885e-05        -157.200241       0.0256836685         34.0652491
                     0.0262504729         25.7366669     8.93677888e-05         -157.20024       0.0637636429        -116.797761     0.000183317672        -156.314488
                   0.000249717465        -153.466318        0.025683666         34.0652541     0.000183317672        -156.314488       0.0626295314        -120.491107

          90000000      0.0676745548        -125.901647     0.000148702574        -161.673078       0.0281124446         17.9270838     0.000281181779         -160.36578
                   0.000148702574        -161.673078       0.0659239441        -130.233651     0.000100026103        -164.309544       0.0277441942         28.0147144
                      0.028112452         17.9270525     0.000100026093        -164.309545       0.0676724597         -125.85901     0.000206265922        -163.180659
                   0.000281181779         -160.36578        0.027744201          28.014726     0.000206265923         -163.18066       0.0660995604        -130.212551

         100000000       0.070869359        -134.407817     0.000165727643         -168.80194       0.0295882667         9.99207922     0.000312977581         -167.40162
                   0.000165727644         -168.80194       0.0685481193         -139.56322     0.000110685128        -171.515105       0.0295061726          22.130172
                     0.0295882719         9.99203367     0.000110685126        -171.515104       0.0708568901        -134.364273     0.000229359639         -170.23756
                    0.00031297758         -167.40162       0.0295061975         22.1301927     0.000229359639        -170.237561       0.0687282097        -139.529968

         110000000       0.073264868        -142.430481     0.000182965113        -176.095245        0.030677415         1.88928306     0.000345062765        -174.556198
                   0.000182965114        -176.095245       0.0701939975        -148.577826     0.000121377062        -178.812756       0.0309663649         16.4458227
                     0.0306774114         1.88925233     0.000121377062        -178.812756       0.0732373482        -142.384083     0.000252566928        -177.452037
                   0.000345062765        -174.556198       0.0309663815         16.4458337     0.000252566927        -177.452038       0.0703750731        -148.534477

         120000000      0.0746720225        -150.155454     0.000200259114           176.4678       0.0314052156         -6.4146346     0.000377314498         178.177582
                   0.000200259114           176.4678       0.0707463818        -157.538559     0.000132020774         173.806111       0.0321661437         10.9529341
                     0.0314052125        -6.41465545     0.000132020774         173.806111       0.0746289963        -150.104668     0.000275682732         175.193629
                   0.000377314497         178.177582       0.0321661613         10.9529408      0.00027568273         175.193629       0.0709233291        -157.483423

         130000000      0.0750452597        -157.635101     0.000217536334         168.901928       0.0317988617        -14.9800262     0.000409660572         170.807378
                   0.000217536335         168.901928       0.0701451592        -166.576764     0.000142590888         166.344827       0.0331364325         5.66319863
                      0.031798841        -14.9800345      0.00014259089         166.344828       0.0749864492        -157.578592       0.0002985873         167.719792
                   0.000409660666         170.807381       0.0331364415         5.66319881     0.000298587296         167.719792       0.0703121855           -166.508

         140000000      0.0743872217        -164.553805     0.000234597438         161.293934       0.0318592901        -23.8518718     0.000441823588         163.405419
                   0.000234597438         161.293934       0.0683634903        -175.463623     0.000153021641         158.871687       0.0338735103        0.623606833
                       0.03185927        -23.8518717     0.000153021641         158.871687       0.0743136897        -164.489874      0.00032106209         160.213681
                    0.00044182359         163.405419       0.0338735285        0.623612539     0.000321062085         160.213682       0.0685157263        -175.380097

         150000000      0.0727310073        -171.049137     0.000251433346         153.632505       0.0316543684        -33.1205413     0.000473827532         155.955615
                   0.000251433345         153.632505       0.0654164416         175.524173     0.000163303355         151.367406       0.0344406162        -4.18314476
                     0.0316543668        -33.1205401     0.000163303356         151.367406       0.0726437528        -170.976242     0.000343066461         152.667553
                   0.000473827532         155.955615       0.0344406173        -4.18315114      0.00034306646         152.667553       0.0655486457         175.624425

         160000000      0.0701115152        -177.079314     0.000268003499         145.930327       0.0312418127        -42.8757202     0.000505644528         148.463833
                   0.000268003499         145.930327       0.0613135862         166.226051     0.000173413493         143.837738       0.0348813757        -8.76249829
                     0.0312418114        -42.8757172     0.000173413492         143.837738       0.0700117618        -176.994721     0.000364536736          145.09766
                   0.000505644525         148.463834       0.0348813862        -8.76250113     0.000364536735          145.09766       0.0614202524         166.345529

         170000000      0.0665263529         177.645562     0.000284179493         138.246929       0.0306705846        -53.1997561     0.000537097591         140.978872
                   0.000284179494         138.246929       0.0560077707         156.637935     0.000183319744         136.335388       0.0352114903        -13.0905011
                     0.0306705742        -53.1997479     0.000183319752         136.335389       0.0664169203          177.74548     0.000385382702         137.566431
                   0.000537097591         140.978871       0.0352114999        -13.0904999       0.0003853827         137.566432       0.0560839356         156.780171

         180000000      0.0621883739         173.214613     0.000300028462         130.576289       0.0300426122        -64.1819331     0.000568309427         133.489101
                   0.000300028462         130.576289       0.0496660268         146.376495     0.000193037555         128.848501       0.0354966279        -17.2018049
                     0.0300426109        -64.1819249     0.000193037555         128.848501       0.0620730412         173.335377     0.000405673973         130.068222
                   0.000568309426         133.489101       0.0354966288        -17.2018084     0.000405673973         130.068222        0.049706262         146.545622

         190000000      0.0572841396         169.912374     0.000315593267         122.926835       0.0294582211        -75.8860846     0.000599355813         125.996631
                   0.000315593267         122.926835       0.0424102766         134.917882     0.000202585282         121.382907       0.0357818861         -21.124762
                     0.0294582192        -75.8860656     0.000202585282         121.382907       0.0571684612         170.060879     0.000425487418         122.613435
                   0.000599355811         125.996631       0.0357818867        -21.1247645      0.00042548742         122.613436       0.0424084363         135.119829

         200000000      0.0520339027         168.261868      0.00033085211         115.331552       0.0290236074        -88.3255386     0.000630190022         118.526842
                   0.000330852109         115.331552       0.0343980662         121.330633     0.000211986123         113.971838       0.0360924553        -24.8732344
                     0.0290236049        -88.3255195     0.000211986123         113.971837       0.0519268055         168.448047     0.000444909161         115.237119
                    0.00063019002         118.526842       0.0360924556         -24.873234     0.000444909163         115.237119       0.0343470853         121.569609

         210000000      0.0469635682          168.75966      0.00034594331         107.783228       0.0288692567        -101.419836     0.000661002963          111.06898
                   0.000345943304         107.783229       0.0262111304         103.152871     0.000221300492         106.606338       0.0364812401        -28.5080091
                     0.0288692557        -101.419835     0.000221300493         106.606338       0.0468774154         168.992967      0.00046414764         107.929822
                   0.000661002963          111.06898       0.0364812403        -28.5080087      0.00046414764         107.929822       0.0261022069         103.411725

         220000000      0.0427432226         171.935075     0.000360978514         100.281022       0.0291116983        -114.981517     0.000691923619         103.619477
                   0.000360978428         100.281016       0.0192149702          74.759207     0.000230592915         99.2866228       0.0369845639        -32.0900293
                     0.0291116945        -114.981499     0.000230592915         99.2866227       0.0426950535         172.218297     0.000483416651         100.688242
                   0.000691923616         103.619477       0.0369845641        -32.0900289     0.000483416654         100.688242       0.0190463912          74.896418

         230000000      0.0401958737         178.008899     0.000376037629         92.8287378       0.0298378082        -128.742277     0.000723004117         96.1797916
                   0.000376037629         92.8287379       0.0167378047         30.8441796     0.000239937762         92.0191203       0.0376172257        -35.6690643
                     0.0298378035        -128.742259     0.000239937763         92.0191205       0.0402038886         178.322913     0.000502933949         93.5136009
                   0.000723004115         96.1797917       0.0376172259         -35.669064     0.000502933951         93.5136008       0.0165726517          30.504427

         240000000        0.04025293         -174.19145     0.000391305252         85.4065982       0.0311020856        -142.361878     0.000754450975         88.7324997
                   0.000391305252         85.4065982       0.0216744131        -10.2373171     0.000249424131         84.7846998       0.0384081087        -39.3283355
                      0.031102077        -142.361885     0.000249424131         84.7846996       0.0403266486        -173.895215     0.000522969364          86.379083
                   0.000754450974         88.7324995       0.0384081088        -39.3283354     0.000522969362         86.3790841       0.0216091762        -10.7750343

         250000000      0.0432741045        -167.007438     0.000406875631         78.0002571       0.0329105934        -155.523021     0.000786312342         81.2677693
                   0.000406875631         78.0002571       0.0311814411        -35.4945755      0.00025912675         77.5722635       0.0393709587        -43.1411642
                     0.0329105927        -155.523019      0.00025912675         77.5722635       0.0434058684        -166.777866     0.000543734382         79.2619703
                   0.000786312342         81.2677694       0.0393709587        -43.1411639     0.000543734382         79.2619703       0.0312065813         -35.922464

         260000000      0.0489429342        -162.103479     0.000422826773         70.5962592       0.0352212404        -168.030446      0.00081858921          73.776826
                   0.000422826772         70.5962592       0.0425203832        -52.1625013     0.000269117098         70.3704411       0.0404959394        -47.1521297
                     0.0352212275        -168.030442     0.000269117097         70.3704411       0.0491142655         -161.95757     0.000565392299         72.1423031
                   0.000818589207          73.776826       0.0404959395        -47.1521294     0.000565392303         72.1423031       0.0426085703        -52.4845419

         270000000      0.0566057631        -160.013264     0.000439253825         63.1716535       0.0379663233        -179.777915     0.000851316815         66.2447523
                   0.000439253825         63.1716535       0.0546511101        -64.9078426     0.000279455349         63.1570672       0.0417766241        -51.4132331
                     0.0379663227        -179.777913      0.00027945535         63.1570672       0.0567968434        -159.941363     0.000588071053         64.9887556
                   0.000851316815         66.2447523       0.0417766243        -51.4132328     0.000588071053         64.9887555       0.0547854562        -65.1572209

         280000000      0.0653968784        -160.526015      0.00045611736         55.7052939        0.041065499         169.283975     0.000884325558         58.6612237
                   0.000456117359         55.7052939       0.0669351483          -75.50952     0.000290155213         55.9126318       0.0432126535        -55.9795809
                     0.0410654925         169.283985     0.000290155213         55.9126321       0.0655912422        -160.510361     0.000611752155          57.768212
                   0.000884325556         58.6612238       0.0432126536        -55.9795807     0.000611752157         57.7682117       0.0671039687        -75.7102116

         290000000      0.0748911671        -162.844693     0.000473423589         48.1799845       0.0444296559         159.072278     0.000917515918         51.0165516
                   0.000473423589         48.1799845       0.0792101952        -85.0378948     0.000301234708         48.6188671       0.0447711601        -60.8508609
                     0.0444296556         159.072279     0.000301234709         48.6188671       0.0750771192         -162.87104     0.000636394376         50.4610873
                   0.000917515919         51.0165516       0.0447711601        -60.8508604     0.000636394375         50.4610873       0.0794046539        -85.2038936

         300000000      0.0846541887        -166.481009     0.000491058593         40.5841418       0.0479779395         149.516029     0.000950611715         43.3081572
                   0.000491058592         40.5841417       0.0912227748        -93.8859465     0.000312664613         41.2624316       0.0464323308        -66.0302625
                     0.0479779395          149.51603     0.000312664607         41.2624311        0.084822904        -166.540106     0.000661822322         43.0500734
                   0.000950611716         43.3081572        0.046432332        -66.0302737     0.000661822323         43.0500735       0.0914349307        -94.0262825

         310000000      0.0942361056        -171.139384      0.00050886825         32.9084043       0.0516306597         140.556649     0.000983315942         35.5359432
                   0.000508868251         32.9084043        0.102683604        -102.180788     0.000324367767         33.8319355       0.0481846161        -71.5333076
                     0.0516306533         140.556656     0.000324367767         33.8319357       0.0943802346        -171.225059     0.000687728656         35.5210663
                   0.000983315942         35.5359434        0.048184616        -71.5333074     0.000687728656          35.521066         0.10290619        -102.301526

         320000000       0.103491618         -176.50206     0.000526711456         25.1460738       0.0553205424         132.088215       0.0010153511         27.6987054
                   0.000526711456         25.1460738        0.113526063        -110.120681      0.00033627786         26.3175423       0.0499990468        -77.3331344
                     0.0553205426         132.088216      0.00033627786         26.3175422        0.103605578        -176.610356     0.000713830725         27.8694245
                     0.0010153511         27.6987054       0.0499990469         -77.333134     0.000713830725         27.8694246         0.11375161          -110.2263

         330000000       0.112006393         177.577642     0.000544250898         17.3059737       0.0589902836         124.057331      0.00104615679         19.8103687
                   0.000544250898         17.3059737        0.123373552        -117.750181     0.000348272388         18.7235929       0.0518718321        -83.4113493
                     0.0589902776         124.057337     0.000348272388          18.723593         0.11208535          177.44858     0.000739661478         20.0999304
