! Created Thu Jun 27 15:42:50 2019
# hz S ma R 50
! 4 Port Network Data from SP1.SP block
! freq  magS11  angS11  magS12  angS12  magS13  angS13  magS14  angS14  
!       magS21  angS21  magS22  angS22  magS23  angS23  magS24  angS24  
!       magS31  angS31  magS32  angS32  magS33  angS33  magS34  angS34  
!       magS41  angS41  magS42  angS42  magS43  angS43  magS44  angS44  
!     
          50000000      0.0497189246        -85.3575814         0.96074837        -37.5759671        0.017690799         47.7857166      0.00253198818        -125.617898
                       0.96074837        -37.5759671       0.0483371029        -87.7788428      0.00253311198        -125.609142       0.0177777317         52.9197972
                     0.0176907979         47.7857128      0.00253311355         -125.60906       0.0497451637        -85.4639464        0.960708485        -37.6082539
                    0.00253198976        -125.617821        0.017777728         52.9197879        0.960708485        -37.6082539       0.0484553463        -87.8050232

          60000000      0.0552695404        -96.4492034        0.957840228        -45.0186648       0.0205523995         40.1350627      0.00313616392        -128.209086
                      0.957840228        -45.0186648       0.0534302894        -99.6162162      0.00313786766        -128.205475       0.0206918517         46.5493204
                     0.0205523986         40.1350586      0.00313786923        -128.205441       0.0552904324        -96.5764883        0.957799864        -45.0573331
                    0.00313616549        -128.209052       0.0206918485         46.5493175        0.957799864        -45.0573331       0.0535682785        -99.6312578

          70000000      0.0605528749        -106.439616        0.954688575        -52.4364495       0.0231220629         32.3981072      0.00382425308        -132.032364
                      0.954688575        -52.4364495       0.0582094385        -110.427138       0.0038265816        -132.035123       0.0233331813         40.2516033
                     0.0231220627         32.3981005      0.00382658274        -132.035114       0.0605657643         -106.58722        0.954645726        -52.4814749
                    0.00382425421        -132.032357       0.0233331785         40.2516064        0.954645726        -52.4814749       0.0583637417        -110.430348

          80000000      0.0653663677        -115.603978         0.95133572        -59.8273834       0.0253767082         24.5793415       0.0045945872        -136.912465
                       0.95133572        -59.8273834       0.0624624543        -120.499818      0.00459755468        -136.922016       0.0256836685         34.0652491
                     0.0253767175         24.5793212      0.00459755407        -136.921992        0.065368494         -115.77129        0.951290425        -59.8787233
                    0.00459458659        -136.912441        0.025683666         34.0652541        0.951290425        -59.8787233       0.0626295314        -120.491107

          90000000      0.0694500467        -124.311341        0.947914843        -67.1981427       0.0273111412         16.6681581      0.00544664223         -142.70566
                      0.947914843        -67.1981427       0.0659239441        -130.233651      0.00545022775        -142.721876       0.0277441942         28.0147144
                     0.0273111404         16.6681272      0.00545022468        -142.721827       0.0694389156        -124.497816        0.947867332        -67.2557827
                    0.00544663822         -142.70561        0.027744201          28.014726        0.947867332        -67.2557827       0.0660995604        -130.212551

         100000000      0.0727698193        -132.476088        0.944428163        -74.5426463       0.0289111848         8.65231998      0.00636542137        -149.220696
                      0.944428164        -74.5426463       0.0685481193         -139.56322      0.00636957133        -149.243203       0.0295061726          22.130172
                     0.0289111914           8.652276      0.00636956349        -149.243084       0.0727427621         -132.68122         0.94438083        -74.6065636
                    0.00636541339        -149.220586       0.0295061975         22.1301927         0.94438083        -74.6065636       0.0687282097        -139.529968

         110000000      0.0752317915        -140.168205        0.940902314        -81.8507994       0.0301670859        0.507143969      0.00733570925        -156.274468
                      0.940902315        -81.8507994       0.0701939975        -148.577826      0.00734041598        -156.305982       0.0309663649         16.4458227
                     0.0301670926        0.507111645      0.00734041341        -156.305896       0.0751878322        -140.391582        0.940852776        -81.9209546
                    0.00733570468        -156.274387       0.0309663815         16.4458337        0.940852775        -81.9209546       0.0703750731        -148.534477

         120000000      0.0766702636         -147.56939        0.937465691         -89.145558       0.0311157243        -7.79983859       0.0083540735        -163.803214
                      0.937465692         -89.145558       0.0707463818        -157.538559      0.00835923851        -163.841476       0.0321661437         10.9529341
                     0.0311157312        -7.79986238      0.00835923848        -163.841411       0.0766062512        -147.810921        0.937416299        -89.2219223
                    0.00835407055        -163.803152       0.0321661613         10.9529408        0.937416298        -89.2219223       0.0709233291        -157.483423

         130000000      0.0770370833        -154.732281        0.934180368        -96.4349648       0.0317803222        -16.3130536       0.0094126918        -171.720699
                      0.934180369        -96.4349647       0.0701451592        -166.576764      0.00941823401        -171.764197       0.0331364325         5.66319863
                     0.0317803294        -16.3130679      0.00941823524        -171.764148       0.0769505814        -154.991528        0.934129921        -96.5175376
                    0.00941269023        -171.720647       0.0331364415         5.66319881        0.934129921        -96.5175376       0.0703121855           -166.508

         140000000      0.0763418198        -161.348001         0.93100961         -103.69062       0.0321553011         -25.060952       0.0104837624        -179.868184
                       0.93100961         -103.69062       0.0683634903        -175.463623       0.0104895904        -179.915892       0.0338735103        0.623606832
                     0.0321553084        -25.0609607       0.0104895924         -179.91585       0.0762301319        -161.624045        0.930958668        -103.779434
                     0.0104837606         -179.86814       0.0338735285         0.62361254        0.930958668        -103.779434       0.0685157263        -175.380097

         150000000      0.0746165861        -167.551467        0.927994431        -110.937907       0.0322998542        -34.1050634       0.0115677647         171.788136
                      0.927994431        -110.937907       0.0654164416         175.524173       0.0115737996         171.736982       0.0344406162        -4.18314476
                     0.0322998528        -34.1050677       0.0115738011         171.736999       0.0744781288        -167.843062        0.927943524         -111.03294
                     0.0115677644         171.788158       0.0344406173        -4.18315114        0.927943524         -111.03294       0.0655486457         175.624425

         160000000      0.0718985169        -173.301802        0.925155113        -118.185944       0.0322591514        -43.5025862       0.0126591162         163.284571
                      0.925155113        -118.185944       0.0613135862         166.226051       0.0126652842         163.230559       0.0348813757        -8.76249829
                     0.0322591501        -43.5025888       0.0126652859         163.230577       0.0717323008        -173.607196        0.925104745        -118.287238
                     0.0126591151         163.284589       0.0348813862        -8.76250113        0.925104745        -118.287238       0.0614202524         166.345529

         170000000      0.0681933667        -178.311896        0.922512778        -125.412618       0.0320637728        -53.3012998       0.0137302578         154.708494
                      0.922512778        -125.412618       0.0560077707         156.637935       0.0137364963         154.652077       0.0352114903        -13.0905011
                     0.0320637716        -53.3013006       0.0137364967          154.65209       0.0679984901        -178.628063        0.922462997          -125.5202
                     0.0137302574         154.708507       0.0352114999        -13.0904999        0.922462997          -125.5202       0.0560839356         156.780171

         180000000      0.0637167942          177.50378        0.920022326        -132.639337        0.031791547        -63.5511114       0.0147884282         146.072588
                      0.920022326        -132.639337       0.0496660268         146.376495       0.0147946781         146.014097       0.0354966279        -17.2018049
                      0.031791546        -63.5511103       0.0147946791         146.014105       0.0634933162         177.181932        0.919975175        -132.753242
                     0.0147884291         146.072599       0.0354966288        -17.2018084        0.919975175        -132.753242        0.049706262         146.545622

         190000000      0.0586596094         174.423172        0.917662224        -139.873062       0.0315111635        -74.2875055       0.0158315489         137.393241
                      0.917662224        -139.873062       0.0424102766         134.917882       0.0158377887         137.332986       0.0357818861         -21.124762
                     0.0315111626        -74.2875045       0.0158377897          137.33299       0.0584089328         174.104404        0.917615656        -139.993328
                     0.0158315488         137.393248       0.0357818867        -21.1247645        0.917615656        -139.993328       0.0424084363         135.119829

         200000000       0.053247672         172.963139        0.915451369        -147.099607       0.0312903297         -85.521291       0.0168361866          128.72183
                      0.915451369        -147.099607       0.0343980662         121.330633       0.0168424005         128.659977       0.0360924553        -24.8732344
                      0.031290329        -85.5212897       0.0168424022         128.659981         0.05297296           172.6627        0.915405153        -147.226274
                     0.0168361874         128.721834       0.0360924556         -24.873234        0.915405153        -147.226274       0.0343470853         121.569609

         210000000      0.0480061513         173.609878        0.913319803        -154.330087       0.0312185542        -97.2138495       0.0178102538         120.066266
                      0.913319803        -154.330087       0.0262111304         103.152871       0.0178164437         120.002926       0.0364812401        -28.5080091
                     0.0312185534        -97.2138481       0.0178164443         120.002933       0.0477148896         173.352423        0.913273504        -154.463175
                     0.0178102546         120.066269       0.0364812403        -28.5080087        0.913273504        -154.463175       0.0261022069         103.411725

         220000000      0.0436016398         176.893977        0.911228564        -161.565523       0.0313765132         -109.27777       0.0187523001          111.44212
                      0.911228564        -161.565523       0.0192149702          74.759207       0.0187584844         111.377343       0.0369845639        -32.0900293
                     0.0313765126        -109.277768       0.0187584851         111.377346       0.0433085738         176.713191        0.911181534        -161.705068
                     0.0187523006         111.442126       0.0369845641        -32.0900289        0.911181534        -161.705068       0.0190463912          74.896418

         230000000      0.0408569475        -176.930032        0.909161381        -168.801243       0.0318292607        -121.590135       0.0196497558         102.866926
                      0.909161381        -168.801243       0.0167378047         30.8441796       0.0196559561         102.800675       0.0376172257        -35.6690643
                       0.03182926        -121.590133       0.0196559566         102.800681        0.040586415        -177.005242        0.909114753        -168.947242
                     0.0196497565         102.866929       0.0376172259         -35.669064        0.909114753        -168.947242       0.0165726517          30.504427

         240000000       0.040706411        -168.965966        0.907056166        -176.043276       0.0326329718        -133.966411       0.0205151941         94.3397991
                      0.907056166        -176.043276       0.0216744131        -10.2373171       0.0205214596         94.2719498       0.0384081087        -39.3283355
                     0.0326329713        -133.966409       0.0205214603         94.2719532       0.0404884956        -168.945733        0.907005444        -176.195718
                     0.0205151948         94.3398025       0.0384081088        -39.3283354        0.907005444        -176.195718       0.0216091762        -10.7750343

         250000000      0.0435269371        -161.507613         0.90488013         176.711924       0.0338189764         -146.20383       0.0213473893         85.8746975
                       0.90488013         176.711924       0.0311814411        -35.4945755       0.0213537373          85.805099       0.0393709587        -43.1411642
                     0.0338189758        -146.203829       0.0213537368         85.8051039       0.0433797283        -161.450211        0.904828066         176.553056
                     0.0213473899         85.8747007       0.0393709587        -43.1411639        0.904828066         176.553056       0.0312065813         -35.922464

         260000000      0.0490189574         -156.25981        0.902615045         169.466667       0.0353845849        -158.147239       0.0221415412         77.4712119
                      0.902615045         169.466667       0.0425203832        -52.1625013       0.0221479994         77.3996222       0.0404959394        -47.1521297
                     0.0353845844        -158.147238           0.022148         77.3996254       0.0489421567        -156.226586        0.902559146         169.301392
                     0.0221415415         77.4712173       0.0404959395        -47.1521294        0.902559146         169.301392       0.0426085703        -52.4845419

         270000000      0.0565219789        -153.821476        0.900223451         162.220366       0.0373073788         -169.66486       0.0229058277         69.1242418
                      0.900223451         162.220366       0.0546511101        -64.9078426       0.0229123919         69.0504063       0.0417766241        -51.4132331
                     0.0373073784        -169.664859       0.0229123921         69.0504115       0.0565018829        -153.843394        0.900165057         162.048739
                     0.0229058283         69.1242449       0.0417766243        -51.4132328        0.900165057         162.048739       0.0547854562        -65.1572209

         280000000      0.0651467871        -154.006971        0.897706787         154.978729       0.0395524141         179.358626       0.0236420813          60.845773
                      0.897706787         154.978729       0.0669351483          -75.50952       0.0236487268         60.7693568       0.0432126535        -55.9795809
                     0.0395524138         179.358628       0.0236487265         60.7693589       0.0651666429        -154.089845        0.897643615         154.800801
                     0.0236420818          60.845776       0.0432126536        -55.9795807        0.897643615         154.800801       0.0671039687        -75.7102116

         290000000      0.0744581241        -156.031627        0.895054887         147.739936       0.0420617805         168.918318       0.0243525446         52.6157904
                      0.895054887         147.739936       0.0792101952        -85.0378948       0.0243592066         52.5364779       0.0447711601        -60.8508609
                     0.0420617801         168.918319       0.0243592058         52.5364819       0.0745033178         -156.17058        0.894986748         147.555776
                     0.0243525443         52.6157924       0.0447711601        -60.8508604        0.894986748         147.555776       0.0794046539        -85.2038936

         300000000      0.0840113047        -159.404242         0.89227794         140.508306       0.0447805859         159.011955       0.0250339323         44.4361526
                       0.89227794         140.508306       0.0912227748        -93.8859465       0.0250405059         44.3536338       0.0464323308        -66.0302625
                     0.0447805857         159.011956       0.0250405062         44.3536341       0.0840697366         -159.59171        0.892204875         140.317995
                     0.0250339326         44.4361529        0.046432332        -66.0302737        0.892204875         140.317995       0.0914349307        -94.0262825

         310000000      0.0933442559        -163.821357        0.889373713         133.289788       0.0476504525         149.637073       0.0256960319         36.3061132
                      0.889373713         133.289788        0.102683604        -102.180788       0.0257023479         36.2201279       0.0481846161        -71.5333076
                     0.0476504585         149.637066       0.0257023479         36.2201259       0.0934062885        -164.049924        0.889297827         133.093386
                     0.0256960318         36.3061113        0.048184616        -71.5333074        0.889297827         133.093386         0.10290619        -102.301526

         320000000        0.10231201          -168.9645        0.886373353         126.082096        0.050615269         140.724244       0.0263388272         28.2091847
                      0.886373353         126.082096        0.113526063        -110.120681       0.0263446995         28.1195114       0.0499990468        -77.3331344
                     0.0506152689         140.724244       0.0263446992         28.1195131        0.102369686        -169.228496        0.886293322         125.879684
                     0.0263388268         28.2091864       0.0499990469         -77.333134        0.886293322         125.879684         0.11375161          -110.2263

         330000000       0.110499201        -174.681083         0.88336557         118.891467       0.0536293892         132.245358       0.0269450963         20.1596748
                       0.88336557         118.891467        0.123373552        -117.750181       0.0269502659         20.0661517       0.0518718321        -83.4113493
                     0.0536293892         132.245358       0.0269502655         20.0661533        0.110546464        -174.975691        0.883284179         118.683078
