! Created Thu Jun 27 16:04:48 2019
# hz S ma R 50
! 4 Port Network Data from SP1.SP block
! freq  magS11  angS11  magS12  angS12  magS13  angS13  magS14  angS14  
!       magS21  angS21  magS22  angS22  magS23  angS23  magS24  angS24  
!       magS31  angS31  magS32  angS32  magS33  angS33  magS34  angS34  
!       magS41  angS41  magS42  angS42  magS43  angS43  magS44  angS44  
!     
          50000000    0.000890844028         51.9280649     3.26369743e-07         92.9961499     0.000578993325         86.4504967     2.52621011e-06         86.4799057
                   3.26369744e-07         92.9961532       0.0483371029        -87.7788428     1.13555987e-06         85.9468298       0.0177777317         52.9197972
                   0.000578992745          86.450513     1.13555987e-06         85.9468295     0.000829849131         47.9983254     4.14822267e-06         84.0136774
                   2.52621011e-06         86.4799057        0.017777728         52.9197879     4.14822267e-06         84.0136775       0.0484553463        -87.8050232

          60000000     0.00100171044         55.4478909     4.08386362e-07         94.3174204       0.0006935434         86.7438398     2.98811388e-06         85.5034984
                    4.0838637e-07         94.3174223       0.0534302894        -99.6162162     1.36889304e-06         86.9696904       0.0206918517         46.5493204
                   0.000693543143         86.7438511     1.36889304e-06         86.9696901     0.000923537516         51.6115471      4.9462985e-06         84.1834088
                   2.98811388e-06         85.5034984       0.0206918485         46.5493175     4.94629851e-06         84.1834089       0.0535682785        -99.6312578

          70000000     0.00111443183         58.2556206     4.96870595e-07         94.7222181     0.000807791329          86.935417     3.42999706e-06         84.8028288
                   4.96870611e-07         94.7222184       0.0582094385        -110.427138     1.60927927e-06         87.6003817       0.0233331813         40.2516033
                    0.00080779124         86.9354217     1.60927927e-06         87.6003816      0.00101912065         54.5375641     5.73457471e-06         84.2629566
                   3.42999706e-06         84.8028288       0.0233331785         40.2516064     5.73457472e-06         84.2629566       0.0583637417        -110.430348

          80000000     0.00122867469         60.5252246     5.90486374e-07         94.4266772     0.000921826767         87.0634153     3.85341056e-06         84.3700833
                   5.90486394e-07         94.4266768       0.0624624543        -120.499818     1.85564627e-06         87.9100408       0.0256836685         34.0652491
                   0.000921826754          87.063416     1.85564626e-06         87.9100408      0.00111622131          56.936064     6.51370111e-06         84.3109042
                   3.85341056e-06         84.3700833        0.025683666         34.0652541     6.51370111e-06         84.3109041       0.0626295314        -120.491107

          90000000     0.00134403993         62.3745127     6.87753226e-07         93.5959432      0.00103570047         87.1473187     4.26088939e-06         84.2199465
                   6.87753199e-07         93.5959386       0.0659239441        -130.233651     2.10655086e-06         87.9414542       0.0277441942         28.0147144
                    0.00103570048          87.147318     2.10655086e-06         87.9414548      0.00121448535         58.9120924     7.28477986e-06         84.3621909
                   4.26088939e-06         84.2199464        0.027744201          28.014726     7.28477986e-06         84.3621908       0.0660995604        -130.212551

         100000000     0.00146010584         63.8894631     7.86890513e-07         92.3797416      0.00114943355         87.1986034     4.65904901e-06         84.3269643
                   7.86890362e-07         92.3797312       0.0685481193         -139.56322     2.35954763e-06         87.7532759       0.0295061726          22.130172
                    0.00114943356         87.1986034     2.35954768e-06         87.7532775      0.00131349971         60.5464768      8.0506332e-06         84.4298682
                     4.659049e-06         84.3269642       0.0295061975         22.1301927     8.05063316e-06         84.4298679       0.0687282097        -139.529968

         110000000     0.00157465031         65.3613376      8.8666003e-07         90.8682445      0.00126556465         87.4714288      5.0564381e-06          84.663848
                   8.86659909e-07         90.8682389       0.0701939975        -148.577826     2.61264222e-06         87.3664809       0.0309663649         16.4458227
                    0.00126556466         87.4714287     2.61264226e-06         87.3664818      0.00141073228         62.1883532     8.81739543e-06         84.5111565
                   5.05643809e-06         84.6638479       0.0309663815         16.4458337      8.8173954e-06         84.5111563       0.0703750731        -148.534477

         120000000     0.00169063148         66.5586063     9.85060874e-07         89.1799963      0.00138107435         87.6151582     5.45988211e-06         85.2091776
                   9.85060723e-07         89.1799924       0.0707463818        -157.538559     2.86234519e-06         86.8503488       0.0321661437         10.9529341
                    0.00138107435         87.6151581     2.86234524e-06         86.8503495      0.00150966077         63.5259625      9.5844667e-06         84.6161027
                    5.4598821e-06         85.2091776       0.0321661613         10.9529408     9.58446666e-06         84.6161026       0.0709233291        -157.483423

         130000000     0.00180739897         67.5412179     1.08086799e-06         87.3888986      0.00149607545          87.679754     5.87894884e-06         85.9138314
                    1.0808679e-06         87.3888978       0.0701451592        -166.576764      3.1061074e-06         86.2446382       0.0331364325         5.66319864
                    0.00149607545         87.6797539     3.10610743e-06         86.2446384      0.00160954503         64.6248382     1.03555418e-05         84.7405003
                   5.87894883e-06         85.9138314       0.0331364415         5.66319881     1.03555418e-05         84.7405003       0.0703121855           -166.508

         140000000     0.00192449607         68.3537875     1.17265955e-06         85.5804243      0.00161065024         87.6944673     6.32411826e-06         86.6702525
                   1.17265936e-06         85.5804216       0.0683634903        -175.463623     3.34124776e-06         85.6117054       0.0338735103        0.623606832
                    0.00161065025         87.6944672     3.34124783e-06         85.6117059      0.00170986928         65.5341831     1.11350202e-05         84.8669755
                   6.32411825e-06         86.6702525       0.0338735285         0.62361254     1.11350202e-05         84.8669754       0.0685157263        -175.380097

         150000000     0.00204159333         69.0301395     1.26008402e-06         83.7924541       0.0017248601         87.6770917     6.80189886e-06         87.4184368
                     1.260084e-06          83.792456       0.0654164416         175.524173     3.56627967e-06         84.9802765       0.0344406162        -4.18314476
                     0.0017248601         87.6770916     3.56627968e-06         84.9802763      0.00181026386         66.2915228     1.19255096e-05         84.9870093
                   6.80189886e-06         87.4184369       0.0344406173        -4.18315114     1.19255096e-05         84.9870094       0.0655486457         175.624425

         160000000     0.00215844878         69.5963365     1.34283546e-06          82.061147      0.00183875224         87.6388005     7.31798649e-06         88.0841887
                   1.34283534e-06         82.0611478       0.0613135862         166.226051     3.77986891e-06         84.3855247       0.0348813757        -8.76249829
                    0.00183875225         87.6388004     3.77986896e-06         84.3855246      0.00191045855         66.9258936     1.27295847e-05         85.0882443
                   7.31798648e-06         88.0841887       0.0348813862        -8.76250113     1.27295847e-05         85.0882443       0.0614202524         166.345529

         170000000     0.00227488278          70.072747     1.42055292e-06         80.4342729      0.00195236431          87.586796     7.87567927e-06         88.5774934
                   1.42055279e-06         80.4342727       0.0560077707         156.637935     3.98114172e-06         83.8745356       0.0352114903        -13.0905011
                    0.00195236432         87.5867959     3.98114177e-06         83.8745357      0.00201025347         67.4600568     1.35493621e-05         85.1529623
                   7.87567926e-06         88.5774934       0.0352114999        -13.0904999     1.35493621e-05         85.1529623       0.0560839356         156.780171

         180000000     0.00239076164         70.4754874     1.49391845e-06         78.9218256      0.00206572733         87.5258194     8.47323278e-06          88.856435
                   1.49391844e-06         78.9218268       0.0496660268         146.376495     4.17071821e-06         83.4713286       0.0354966279        -17.2018049
                    0.00206572733         87.5258194     4.17071822e-06         83.4713285      0.00210950015         67.9120631     1.43848205e-05         85.1717089
                   8.47323278e-06         88.8564351       0.0354966288        -17.2018084     1.43848205e-05         85.1717089        0.049706262         146.545622

         190000000     0.00250598646         70.8174472     1.56360826e-06         77.5330003      0.00217886765         87.4590436     9.10698304e-06         88.8857349
                   1.56360825e-06         77.5330012       0.0424102766         134.917882     4.34969953e-06         83.2020434       0.0357818861         -21.124762
                    0.00217886765         87.4590436     4.34969953e-06         83.2020432      0.00220808878          68.296374     1.52353509e-05         85.1348719
                   9.10698304e-06         88.8857349       0.0357818867        -21.1247645     1.52353509e-05         85.1348719       0.0424084363         135.119829

         200000000      0.0026204853         71.1090314     1.63034188e-06         76.2808447       0.0022918082          87.388617     9.77003761e-06         88.6379631
                   1.63034187e-06         76.2808446       0.0343980662         121.330633     4.52012753e-06         83.0942379       0.0360924553        -24.8732344
                     0.0022918082         87.3886169     4.52012753e-06         83.0942379       0.0023059393         68.6246796     1.60991639e-05         85.0328146
                   9.77003761e-06         88.6379631       0.0360924556         -24.873234     1.60991639e-05         85.0328146       0.0343470853         121.569609

         210000000     0.00273420745         71.3587071     1.69547468e-06         75.1452434      0.00240456933         87.3160046     1.04525406e-05         88.1226285
                   1.69547468e-06         75.1452433       0.0262111304         103.152871     4.68523528e-06         83.1537351       0.0364812401        -28.5080091
                    0.00240456933         87.3160046     4.68523528e-06         83.1537351      0.00240299498         68.9065024     1.69728456e-05         84.8639226
                   1.04525406e-05         88.1226285       0.0364812403        -28.5080087     1.69728456e-05         84.8639226       0.0261022069         103.411725

         220000000     0.00284711922         71.5734116     1.76025117e-06         74.1002053      0.00251716931         87.2422077     1.11433244e-05           87.35649
                   1.76025117e-06         74.1002052       0.0192149702          74.759207      4.8488299e-06         83.3797733       0.0369845639        -32.0900293
                    0.00251716931         87.2422076      4.8488299e-06         83.3797733       0.0024992177         69.1496512     1.78522715e-05         84.6286373
                   1.11433244e-05           87.35649       0.0369845641        -32.0900289     1.78522715e-05         84.6286373       0.0190463912          74.896418

         230000000     0.00295920063         71.7588615     1.82570744e-06          73.121642      0.00262962471          87.167908     1.18293392e-05         86.3562906
                   1.82570743e-06         73.1216419       0.0167378047         30.8441796     5.01542436e-06         83.7670252       0.0376172257        -35.6690643
                    0.00262962471          87.167908     5.01542437e-06         83.7670252      0.00259458426         69.3605647     1.87324335e-05         84.3279964
                   1.18293392e-05         86.3562906       0.0376172259         -35.669064     1.87324335e-05         84.3279964       0.0165726517          30.504427

         240000000     0.00307044286         71.9197898     1.89290525e-06         72.1561448      0.00274195059         87.0935648     1.24975837e-05         85.1610972
                   1.89290525e-06         72.1561447       0.0216744131        -10.2373171     5.18964279e-06         84.2858404       0.0384081087        -39.3283355
                    0.00274195059         87.0935648     5.18964279e-06         84.2858405      0.00268908359         69.5445773     1.96078811e-05         83.9701622
                   1.24975837e-05         85.1610972       0.0384081088        -39.3283354     1.96078811e-05         83.9701622       0.0216091762        -10.7750343

         250000000     0.00318084621         72.0601273     1.96243558e-06         71.1467649       0.0028541607          87.019481     1.31351903e-05         83.8152064
                   1.96243558e-06         71.1467648       0.0311814411        -35.4945755     5.37581888e-06           84.89427       0.0393709587        -43.1411642
                     0.0028541607          87.019481     5.37581888e-06           84.89427      0.00278271442         69.7061247     2.04730866e-05         83.5660733
                   1.31351903e-05         83.8152064       0.0393709587        -43.1411639     2.04730866e-05         83.5660733       0.0312065813         -35.922464

         260000000     0.00329041906         72.1831143     2.03428776e-06         70.0530218       0.0029662676         86.9458492     1.37289945e-05          82.349625
                   2.03428776e-06         70.0530217       0.0425203832        -52.1625013      5.5779691e-06         85.5526233       0.0404959394        -47.1521297
                     0.0029662676         86.9458491      5.5779691e-06         85.5526233      0.00287548348         69.8489065     2.13225478e-05         83.1245216
                   1.37289945e-05          82.349625       0.0404959395        -47.1521294     2.13225478e-05         83.1245216       0.0426085703        -52.4845419

         270000000     0.00339916736         72.2918987     2.10795468e-06         68.8244834       0.0030782827         86.8727839     1.42676091e-05         80.8068401
                   2.10795467e-06         68.8244833       0.0546511101        -64.9078426     5.79890667e-06         86.2085337       0.0417766241        -51.4132331
                     0.0030782827         86.8727839     5.79890667e-06         86.2085337       0.0029674039         69.9760152     2.21514375e-05         82.6584637
                   1.42676091e-05         80.8068401       0.0417766243        -51.4132328     2.21514375e-05         82.6584637       0.0547854562        -65.1572209

         280000000     0.00350712352         72.3880243     2.18227087e-06         67.3984653      0.00319021639         86.8003448     1.47430097e-05         79.2503135
                   2.18227087e-06         67.3984652       0.0669351483          -75.50952     6.03925566e-06         86.7963957       0.0432126535        -55.9795809
                    0.00319021639         86.8003448     6.03925566e-06         86.7963957      0.00305849398         70.0900401     2.29563799e-05         82.1869249
                   1.47430097e-05         79.2503135       0.0432126536        -55.9795807     2.29563799e-05         82.1869249       0.0671039687        -75.7102116

         290000000     0.00361429994         72.4739309     2.25547466e-06         65.7620822      0.00330207808         86.7285528     1.51465452e-05         77.7063224
                   2.25547465e-06          65.762082       0.0792101952        -85.0378948     6.29939015e-06         87.2825606       0.0447711601        -60.8508609
                    0.00330207808         86.7285528     6.29939015e-06         87.2825606      0.00314877608         70.1931509     2.37343176e-05         81.7191745
                   1.51465452e-05         77.7063224       0.0447711601        -60.8508604     2.37343176e-05         81.7191745       0.0794046539        -85.2038936

         300000000     0.00372072322         72.5511461     2.32545069e-06         63.8930131      0.00341387626         86.6574025     1.54730026e-05         76.2241047
                   2.32545079e-06         63.8930175       0.0912227748        -93.8859465     6.57763449e-06         87.6270237       0.0464323308        -66.0302625
                    0.00341387626         86.6574025     6.57763443e-06         87.6270233      0.00323827569         70.2871663     2.44837322e-05         81.2699108
                   1.54730026e-05         76.2241047        0.046432332        -66.0302737     2.44837323e-05         81.2699109       0.0914349307        -94.0262825

         310000000      0.0038264205         72.6210214     2.38931812e-06         61.7641992      0.00352561855         86.5868703     1.57240649e-05          74.861093
                   2.38931812e-06         61.7641991        0.102683604        -102.180788     6.86954671e-06         87.7994166       0.0481846161        -71.5333076
                    0.00352561855         86.5868703     6.86954671e-06         87.7994166      0.00332702067         70.3736103     2.52062376e-05         80.8548566
                   1.57240649e-05          74.861093        0.048184616        -71.5333074     2.52062376e-05         80.8548566         0.10290619        -102.301526

         320000000     0.00393142034         72.6846962     2.44429996e-06         59.3863773      0.00363731178         86.5169209     1.59001632e-05          73.652016
                   2.44429996e-06         59.3863772        0.113526063        -110.120681     7.17137318e-06          87.795074       0.0499990468        -77.3331344
                    0.00363731178         86.5169209     7.17137318e-06         87.7950741      0.00341504054          70.453759     2.59032158e-05         80.4821417
                   1.59001632e-05          73.652016       0.0499990469         -77.333134     2.59032158e-05         80.4821417         0.11375161          -110.2263

         330000000     0.00403575229         72.7431268     2.48750533e-06         56.7492363      0.00374896204         86.4475118     1.60091492e-05         72.6613104
                   2.48750532e-06         56.7492362        0.123373552        -117.750181     7.47677324e-06         87.6049277       0.0518718321        -83.4113493
                    0.00374896204         86.4475118     7.47677325e-06         87.6049277      0.00350236596         70.5286793     2.65791071e-05          80.165193
