! Created Thu Jun 27 16:01:09 2019
# hz S ma R 50
! 4 Port Network Data from SP1.SP block
! freq  magS11  angS11  magS12  angS12  magS13  angS13  magS14  angS14  
!       magS21  angS21  magS22  angS22  magS23  angS23  magS24  angS24  
!       magS31  angS31  magS32  angS32  magS33  angS33  magS34  angS34  
!       magS41  angS41  magS42  angS42  magS43  angS43  magS44  angS44  
!     
          50000000    0.000886848547          51.717465     2.77338663e-06         86.1627996     0.000579074058         86.4358515     1.21149233e-07         108.452673
                   2.77338663e-06         86.1627996       0.0483371029        -87.7788428     5.03117847e-06         84.3279733       0.0177777317         52.9197972
                   0.000579074018         86.4358417     5.03117847e-06         84.3279733     0.000828916792         47.9338265     2.67895079e-07          86.742097
                   1.21149228e-07         108.452665        0.017777728         52.9197879     2.67895081e-07         86.7420964       0.0484553463        -87.8050232

          60000000    0.000996708217         55.2392716     3.28585994e-06         85.3985886      0.00069362301         86.7303075     1.61494705e-07         108.568762
                   3.28585994e-06         85.3985886       0.0534302894        -99.6162162     6.00836509e-06         84.6317842       0.0206918517         46.5493204
                   0.000693622969         86.7303045     6.00836509e-06         84.6317842     0.000922332358         51.5461752      3.2465364e-07         88.0217523
                   1.61494696e-07         108.568758       0.0206918485         46.5493175      3.2465364e-07         88.0217518       0.0535682785        -99.6312578

          70000000     0.00110837437         58.0517742     3.77937003e-06          84.846121     0.000807869175          86.922924     2.06294652e-07         107.350393
                   3.77937003e-06          84.846121       0.0582094385        -110.427138     6.98017468e-06         84.8025463       0.0233331813         40.2516033
                   0.000807869143         86.9229239     6.98017468e-06         84.8025463      0.00101760556         54.4761846     3.83840075e-07         88.8048114
                   2.06294637e-07         107.350393       0.0233331785         40.2516064     3.83840073e-07         88.8048111       0.0583637417        -110.430348

          80000000     0.00122154965         60.3273666     4.25542438e-06         84.5070576     0.000921902668         87.0517523     2.54467318e-07         105.275817
                   4.25542438e-06         84.5070576       0.0624624543        -120.499818     7.94669783e-06           84.89862       0.0256836685         34.0652491
                   0.000921902647         87.0517533     7.94669783e-06           84.89862       0.0011144281         56.8768333     4.45119921e-07         89.1787864
                     2.544673e-07         105.275819        0.025683666         34.0652541     4.45119918e-07         89.1787862       0.0626295314        -120.491107

          90000000      0.0013358538         62.1823105      4.7164458e-06         84.3976697      0.00103577299         87.1362775     3.04978193e-07         102.648641
                    4.7164458e-06         84.3976697       0.0659239441        -130.233651     8.90823908e-06         84.9535834       0.0277441942         28.0147144
                    0.00103577297         87.1362783     8.90823908e-06         84.9535834      0.00121241802         58.8550087     5.08024144e-07          89.203139
                   3.04978225e-07          102.64865        0.027744201          28.014726     5.08024144e-07         89.2031402       0.0660995604        -130.212551

         100000000     0.00145086715         63.7018795     5.16867736e-06         84.4979259      0.00114949973         87.1880383     3.56715569e-07         99.6831343
                   5.16867736e-06         84.4979259       0.0685481193         -139.56322     9.86601482e-06         84.9856575       0.0295061726          22.130172
                    0.00114949972         87.1880385      9.8660148e-06         84.9856574       0.0013111608          60.491611     5.71826486e-07          88.952296
                   3.56715726e-07         99.6831529       0.0295061975         22.1301927     5.71826499e-07         88.9522995       0.0687282097        -139.529968

         110000000       0.001564396         65.1535741     5.62081834e-06         84.7821938      0.00126472146         87.4440614     4.09231645e-07         96.5284436
                   5.62081834e-06         84.7821938       0.0701939975        -148.577826     1.08258572e-05          84.990513       0.0309663649         16.4458227
                    0.00126472145         87.4440615     1.08258571e-05          84.990513      0.00140812546         62.1581964     6.36073342e-07         88.4601469
                   4.09231766e-07         96.5284535       0.0309663815         16.4458337     6.36073356e-07          88.460149       0.0703750731        -148.534477

         120000000     0.00167924112         66.3404557     6.07834407e-06         85.2357173      0.00137956905         87.5820842     4.61219968e-07         93.2756701
                   6.07834407e-06         85.2357174       0.0707463818        -157.538559     1.17832678e-05         84.9904847       0.0321661437         10.9529341
                    0.00137956904         87.5820843     1.17832678e-05         84.9904847       0.0015068654         63.5113232     6.99607578e-07         87.8106041
                   4.61220114e-07         93.2756769       0.0321661613         10.9529408     6.99607598e-07         87.8106058       0.0709233291        -157.483423

         130000000     0.00179481164         67.3189221     6.55012113e-06          85.818841      0.00149409418           87.64661     5.12078443e-07         90.0010673
                   6.55012113e-06          85.818841       0.0701451592        -166.576764     1.27399934e-05         84.9895092       0.0331364325         5.66319864
                    0.00149409417           87.64661     1.27399933e-05         84.9895092       0.0016066014         64.6195251     7.61718334e-07         87.0547226
                   5.12078527e-07         90.0010686       0.0331364415         5.66319881     7.61718348e-07         87.0547232       0.0703121855           -166.508

         140000000     0.00191068537         68.1312959     7.04592184e-06         86.4433091      0.00160833423         87.6639821     5.60990863e-07         86.7896698
                   7.04592185e-06         86.4433091       0.0683634903        -175.463623     1.36983968e-05         84.9853326       0.0338735103        0.623606833
                    0.00160833423         87.6639822     1.36983968e-05         84.9853326       0.0017067947         65.5340201     8.21670154e-07         86.2624645
                   5.60991043e-07         86.7896749       0.0338735285        0.623612539     8.21670183e-07         86.2624659       0.0685157263        -175.380097

         150000000     0.00202655328         68.8099118     7.57184653e-06         87.0609315      0.00172231735         87.6504265     6.07958383e-07         83.6691102
                   7.57184653e-06         87.0609315       0.0654164416         175.524173     1.46599772e-05         84.9771586       0.0344406162        -4.18314476
                    0.00172231735         87.6504266     1.46599772e-05         84.9771587      0.00180706187         66.2936941     8.79082647e-07         85.4694031
                   6.07958398e-07         83.6691063       0.0344406173        -4.18315114     8.79082652e-07         85.4694027       0.0655486457         175.624425

         160000000     0.00214218545         69.3798572     8.13332598e-06         87.6110232      0.00183606589         87.6162733     6.52978531e-07         80.6647956
                   8.13332598e-06         87.6110232       0.0613135862         166.226051     1.56263755e-05         84.9620404       0.0348813757        -8.76249829
                    0.00183606589         87.6162733     1.56263755e-05         84.9620405      0.00190712439         66.9285095     9.33635808e-07         84.7149418
                   6.52978653e-07         80.6647943       0.0348813862        -8.76250113     9.33635831e-07          84.714942       0.0614202524         166.345529

         170000000     0.00225740934         69.8608578     8.73366681e-06         88.0184498      0.00194959863         87.5682805     6.95894424e-07         77.8177506
                   8.73366681e-06         88.0184498       0.0560077707         156.637935      1.6599224e-05         84.9343026       0.0352114903        -13.0905011
                    0.00194959863         87.5682805      1.6599224e-05         84.9343026      0.00200677742         67.4618648     9.85126727e-07         84.0485854
                   6.95894543e-07         77.8177515       0.0352114999        -13.0904999     9.85126749e-07         84.0485857       0.0560839356         156.780171

         180000000     0.00237209525         70.2686054     9.37146148e-06          88.246861      0.00206293214         87.5109691     7.37337822e-07         75.1208761
                   9.37146148e-06          88.246861       0.0496660268         146.376495      1.7579108e-05         84.8901867       0.0354966279        -17.2018049
                    0.00206293214         87.5109691      1.7579108e-05         84.8901867      0.00210586966         67.9122527     1.03379054e-06         83.4949605
                   7.37337834e-07         75.1208739       0.0354966288        -17.2018084     1.03379054e-06         83.4949603        0.049706262         146.545622

         190000000     0.00248614629          70.615709     1.00434965e-05         88.2644975      0.00217608152         87.4474171     7.77877375e-07         72.5666454
                   1.00434965e-05         88.2644975       0.0424102766         134.917882     1.85663869e-05         84.8254771       0.0357818861         -21.124762
                    0.00217608152         87.4474171     1.85663869e-05         84.8254771      0.00220428978         68.2944443     1.07998983e-06         83.0788746
                   7.77877384e-07         72.5666438       0.0357818867        -21.1247645     1.07998983e-06         83.0788744       0.0424084363         135.119829

         200000000     0.00259949127         70.9123897     1.07434784e-05         88.0453959      0.00228906085         87.3797481     8.17983927e-07         70.1543907
                   1.07434784e-05         88.0453959       0.0343980662         121.330633     1.95608941e-05         84.7354636       0.0360924553        -24.8732344
                    0.00228906085         87.3797481     1.95608941e-05         84.7354636      0.00230195712          68.620347     1.12431138e-06         82.8249092
                   8.17983931e-07          70.154391       0.0360924556         -24.873234     1.12431138e-06         82.8249092       0.0343470853         121.569609

         210000000      0.0027120794         71.1669959     1.14621651e-05         87.5947824      0.00240188346         87.3094412     8.58641306e-07         67.8422511
                   1.14621651e-05         87.5947824       0.0262111304         103.152871     2.05615091e-05         84.6179779       0.0364812401        -28.5080091
                    0.00240188346         87.3094412     2.05615091e-05         84.6179779      0.00239881497         68.8996373     1.16767001e-06         82.7334863
                   8.58641309e-07         67.8422514       0.0364812403        -28.5080087     1.16767001e-06         82.7334863       0.0261022069         103.411725

         220000000     0.00282387634          71.386391     1.21889459e-05         86.9246483      0.00251456198         87.2375312     9.00707686e-07         65.5832014
                   1.21889459e-05         86.9246483       0.0192149702          74.759207     2.15666557e-05         84.4715962       0.0369845639        -32.0900293
                    0.00251456198         87.2375312     2.15666557e-05         84.4715962       0.0024948256         69.1402318      1.2110958e-06         82.7966575
                   9.00707689e-07         65.5832016       0.0369845641        -32.0900289     1.21109581e-06         82.7966575       0.0190463912          74.896418

         230000000     0.00293486111         71.5762483     1.29113191e-05         86.0477128      0.00262710846         87.1647428     9.44786349e-07           63.33537
                   1.29113191e-05         86.0477128       0.0167378047         30.8441796     2.25742297e-05         84.2951236       0.0376172257        -35.6690643
                    0.00262710846         87.1647428     2.25742297e-05         84.2951236      0.00258996649         69.3486451     1.25573953e-06         83.0008097
                   9.44786352e-07         63.3353702       0.0376172259         -35.669064     1.25573953e-06         83.0008097       0.0165726517          30.504427

         240000000     0.00304502365         71.7412796     1.36166986e-05         84.9969133      0.00273953428          87.091581      9.9164929e-07          61.023902
                   1.36166986e-05         84.9969133       0.0216744131        -10.2373171     2.35816073e-05         84.0902871       0.0384081087        -39.3283355
                    0.00273953428          87.091581     2.35816073e-05         84.0902871      0.00268422742         69.5302638     1.30275018e-06         83.3069609
                   9.91649293e-07         61.0239021       0.0384081088        -39.3283354     1.30275018e-06         83.3069609       0.0216091762        -10.7750343

         250000000     0.00315436278         71.8854129     1.42925291e-05         83.8105995      0.00285185022         87.0183938     1.04176313e-06         58.5759123
                   1.42925291e-05         83.8105995       0.0311814411        -35.4945755     2.45858865e-05          83.860222       0.0393709587        -43.1411642
                    0.00285185022         87.0183938     2.45858865e-05          83.860222      0.00277760811         69.6895587       1.353115e-06         83.6647061
                   1.04176313e-06         58.5759125       0.0393709587        -43.1411639       1.353115e-06         83.6647062       0.0312065813         -35.922464

         260000000     0.00326288462         72.0119333     1.49260158e-05         82.5166085      0.00296406642         86.9454165     1.09512182e-06         55.9415727
                   1.49260158e-05         82.5166085       0.0425203832        -52.1625013     2.55841042e-05         83.6076003       0.0404959394        -47.1521297
                    0.00296406642         86.9454165     2.55841042e-05         83.6076003      0.00287011631         69.8302519     1.40765027e-06         84.0283643
                   1.09512183e-06         55.9415729       0.0404959395        -47.1521294     1.40765027e-06         84.0283643       0.0426085703        -52.4845419

         270000000     0.00337060119         72.1235944      1.5506018e-05         81.1532454      0.00307619232         86.8728025     1.15156705e-06         53.0618237
                    1.5506018e-05         81.1532454       0.0546511101        -64.9078426     2.65733505e-05          83.337137       0.0417766241        -51.4132331
                    0.00307619232         86.8728025     2.65733505e-05          83.337137      0.00296176626         69.9554492     1.46679983e-06         84.3421664
                   1.15156705e-06         53.0618239       0.0417766243        -51.4132328     1.46679983e-06         84.3421664       0.0547854562        -65.1572209

         280000000     0.00347752925         72.2227092     1.60246801e-05         79.7774793      0.00318823674         86.8006463     1.21079157e-06         49.8684919
                   1.60246801e-05         79.7774793       0.0669351483          -75.50952     2.75510769e-05         83.0564905       0.0432126535        -55.9795809
                    0.00318823674         86.8006463     2.75510769e-05         83.0564905      0.00305257735         70.0677463     1.53039665e-06          84.540707
                   1.21079157e-06         49.8684921       0.0432126536        -55.9795807     1.53039665e-06          84.540707       0.0671039687        -75.7102116

         290000000     0.00358368931         72.3112226     1.64736564e-05           78.41423      0.00330020781         86.7289999     1.27187268e-06         46.3484396
                   1.64736564e-05           78.41423       0.0792101952        -85.0378948     2.85151175e-05         82.7696931       0.0447711601        -60.8508609
                    0.00330020781         86.7289999     2.85151175e-05         82.7696931      0.00314257302          70.169314     1.59814769e-06          84.594381
                   1.27187268e-06         46.3484399       0.0447711601        -60.8508604     1.59814769e-06          84.594381       0.0794046539        -85.2038936

         300000000     0.00368910484         72.3907715     1.68479927e-05         77.1083068        0.003412113         86.6578847     1.33392388e-06         42.4806065
                   1.68479927e-05         77.1083068       0.0912227748        -93.8859465     2.94637872e-05         82.4833056       0.0464323308        -66.0302625
                      0.003412113         86.6578847     2.94637872e-05         82.4833056      0.00323177982         70.2619685     1.66923286e-06         84.4700138
                   1.33392385e-06         42.4805981        0.046432332        -66.0302737     1.66923284e-06         84.4700127       0.0914349307        -94.0262825

         310000000     0.00379380148         72.4627336      1.7149418e-05         75.9111214      0.00352395915         86.5873004      1.3959368e-06         38.2323463
                    1.7149418e-05         75.9111214        0.102683604        -102.180788     3.03968165e-05         82.2048029       0.0481846161        -71.5333076
                    0.00352395915         86.5873004     3.03968165e-05         82.2048029      0.00332022661         70.3472287      1.7421484e-06         84.1445714
                   1.39593679e-06         38.2323465        0.048184616        -71.5333074      1.7421484e-06         84.1445714         0.10290619        -102.301526

         320000000      0.0038978065         72.5282688     1.73786173e-05         74.8539756      0.00363575246         86.5172319     1.45671421e-06         33.6126206
                   1.73786173e-05         74.8539756        0.113526063        -110.120681     3.13140857e-05         81.9385637       0.0499990468        -77.3331344
                    0.00363575246         86.5172319     3.13140857e-05         81.9385637      0.00340794392         70.4263633     1.81556704e-06         83.6220632
                   1.45671421e-06         33.6126209       0.0499990469         -77.333134     1.81556704e-06         83.6220632         0.11375161          -110.2263

         330000000     0.00400114822         72.5883525     1.75434782e-05         73.9928527      0.00374749855         86.4476536     1.51547358e-06         28.6116514
                   1.75434782e-05         73.9928527        0.123373552        -117.750181     3.22167555e-05         81.6914784       0.0518718321        -83.4113493
                    0.00374749855         86.4476536     3.22167555e-05         81.6914784      0.00349496329         70.5004306     1.88757282e-06         82.9016707
