! Created Thu Jun 27 15:51:50 2019
# hz S ma R 50
! 4 Port Network Data from SP1.SP block
! freq  magS11  angS11  magS12  angS12  magS13  angS13  magS14  angS14  
!       magS21  angS21  magS22  angS22  magS23  angS23  magS24  angS24  
!       magS31  angS31  magS32  angS32  magS33  angS33  magS34  angS34  
!       magS41  angS41  magS42  angS42  magS43  angS43  magS44  angS44  
!     
          50000000      0.0500889946        -85.2773633     0.000198588974        -132.791817       0.0174225171         46.9357251     4.58787747e-05        -141.017358
                   0.000198588973        -132.791817       0.0483371029        -87.7788428     0.000322538765        -131.353879       0.0177777317         52.9197972
                     0.0174225225         46.9357335     0.000322538765        -131.353879        0.050177613        -85.4097871     0.000202221558        -132.332477
                   4.58787743e-05        -141.017357        0.017777728         52.9197879     0.000202221557        -132.332476       0.0484553463        -87.8050232

          60000000      0.0557863851        -96.0855306     0.000236317878        -139.334215       0.0203068444         39.0959819     5.38708955e-05        -146.714927
                   0.000236317878        -139.334215       0.0534302894        -99.6162162     0.000384263792        -137.913006       0.0206918517         46.5493204
                     0.0203068516          39.095982     0.000384263792        -137.913006       0.0558764768        -96.2197762     0.000240987294        -138.636497
                   5.38708952e-05        -146.714927       0.0206918485         46.5493175     0.000240987294        -138.636496       0.0535682785        -99.6312578

          70000000      0.0611807276        -105.787513     0.000274273234        -146.028754       0.0229369569         31.1839756     6.21146378e-05        -152.634336
                   0.000274273234        -146.028754       0.0582094385        -110.427138     0.000446423622        -144.586876       0.0233331813         40.2516033
                     0.0229369566          31.183968     0.000446423623        -144.586877       0.0612633385        -105.921776     0.000280350031        -145.122531
                   6.21146381e-05        -152.634335       0.0233331785         40.2516064     0.000280350031        -145.122531       0.0583637417        -110.430348

          80000000      0.0660682409        -114.664578     0.000312518223        -152.842763       0.0252927981         23.2053015     7.06918166e-05        -158.781884
                   0.000312518223        -152.842763       0.0624624543        -120.499818     0.000509163807        -151.353654       0.0256836685         34.0652491
                     0.0252927991         23.2052859     0.000509163807        -151.353654       0.0661337042        -114.796892     0.000320402713        -151.763082
                   7.06918167e-05        -158.781884        0.025683666         34.0652541     0.000320402714        -151.763082       0.0626295314        -120.491107

          90000000      0.0701871186        -123.084608     0.000351186705        -159.774721       0.0273712634           15.15361     7.97170628e-05        -165.206882
                   0.000351186706         -159.77472       0.0659239441        -130.233651     0.000572768692        -158.218042       0.0277441942         28.0147144
                     0.0273712648         15.1535835     0.000572768692        -158.218042       0.0702261104         -123.21306     0.000361325688        -158.563293
                   7.97170621e-05        -165.206882        0.027744201          28.014726     0.000361325688        -158.563293       0.0660995604        -130.212551

         100000000       0.073502564        -130.963023      0.00039019682        -166.796609       0.0291594844         7.02131028      8.9150631e-05        -171.875568
                   0.000390196823        -166.796608       0.0685481193         -139.56322     0.000637161948        -165.158469       0.0295061726          22.130172
                     0.0291594945         7.02126581     0.000637161947        -165.158469       0.0735054595        -131.085173     0.000402987176        -165.490485
                   8.91506253e-05        -171.875561       0.0295061975         22.1301927     0.000402987177        -165.490485       0.0687282097        -139.529968

         110000000      0.0759345449        -138.368376     0.000429612283        -173.904816       0.0306565479        -1.21705092     9.90662957e-05        -178.819221
                   0.000429612286        -173.904816       0.0701939975        -148.577826     0.000702399369        -172.170274       0.0309663649         16.4458227
                     0.0306565394        -1.21708052     0.000702399368        -172.170274       0.0758987722        -138.486841     0.000445388766         -172.53629
                   9.90662948e-05         -178.81922       0.0309663815         16.4458337     0.000445388766        -172.536291       0.0703750731        -148.534477

         120000000      0.0773012542        -145.476275     0.000469324164         178.901017       0.0318854044        -9.57504981     0.000109359401          173.98752
                   0.000469324167         178.901017       0.0707463818        -157.538559     0.000768551354        -179.263546       0.0321661437         10.9529341
                     0.0318854145        -9.57506978     0.000768551354        -179.263546       0.0772148335         -145.58641     0.000488456374        -179.702286
                   0.000109359399         173.987521       0.0321661613         10.9529408     0.000488456375        -179.702286       0.0709233291        -157.483423

         130000000      0.0775575827        -152.333015     0.000509330346         171.617435       0.0328671743        -18.0837982     0.000120018197         166.545573
                   0.000509330349         171.617435       0.0701451592        -166.576764     0.000835709489         173.553201       0.0331364325         5.66319863
                     0.0328671569        -18.0838115     0.000835709489         173.553201       0.0774109753        -152.429132     0.000532168641         173.010533
                   0.000120018199         166.545573       0.0331364415         5.66319881      0.00053216864         173.010533       0.0703121855           -166.508

         140000000      0.0767258482        -158.626666     0.000549339282         164.302057       0.0335915719        -26.7587821     0.000130853409         158.976789
                   0.000549339285         164.302057       0.0683634903        -175.463623     0.000903404537         166.330234       0.0338735103        0.623606832
                     0.0335915546        -26.7587862     0.000903404535         166.330233        0.076512315        -158.700856     0.000576101686         165.671919
                   0.000130853409         158.976788       0.0338735285         0.62361254     0.000576101684         165.671919       0.0685157263        -175.380097

         150000000      0.0748437229        -164.482202     0.000589410684         156.930622       0.0341115324        -35.6409639     0.000141902607         151.255707
                   0.000589410685         156.930622       0.0654164416         175.524173     0.000971825493         159.040548       0.0344406162        -4.18314476
                     0.0341115243        -35.6409645     0.000971825493         159.040548       0.0745595381        -164.524514     0.000620356596         158.258949
                   0.000141902608         151.255706       0.0344406173        -4.18315114     0.000620356596          158.25895       0.0655486457         175.624425

         160000000      0.0719585853        -169.847285      0.00062951435         149.500278       0.0344626677        -44.7657813     0.000153145952         143.392809
                   0.000629514351         149.500278       0.0613135862         166.226051      0.00104097731         151.677041       0.0348813757        -8.76249829
                     0.0344626597        -44.7657811      0.00104097731         151.677041       0.0716035724         -169.84355     0.000664907232         150.771426
                   0.000153145952         143.392808       0.0348813862        -8.76250113     0.000664907232         150.771426       0.0614202524         166.345529

         170000000      0.0680988715        -174.419139     0.000669378644         142.051684       0.0346626378        -54.1590695      0.00016441041         135.467961
                   0.000669378645         142.051684       0.0560077707         156.637935      0.00111035015         144.273818       0.0352114903        -13.0905011
                     0.0346626293        -54.1590656      0.00111035015         144.273818       0.0676783333        -174.349326     0.000709376984         143.255202
                   0.000164410409         135.467961       0.0352114999        -13.0904999     0.000709376984         143.255202       0.0560839356         156.780171

         180000000      0.0634987115        -178.092216     0.000709073995         134.569597       0.0347721305        -63.8473711     0.000175772771          127.47539
                   0.000709073994         134.569597       0.0496660268         146.376495      0.00118008759         136.814336       0.0354966279        -17.2018049
                     0.0347721309        -63.8473648      0.00118008759         136.814336       0.0630248828          -177.9275      0.00075392712         135.696743
                   0.000175772771          127.47539       0.0354966288        -17.2018084     0.000753927121         135.696743        0.049706262         146.545622

         190000000      0.0583809178         179.437852     0.000748581108           127.0536       0.0348385646        -73.8497929     0.000187251222          119.42628
                   0.000748581107           127.0536       0.0424102766         134.917882      0.00125013727         129.295444       0.0357818861         -21.124762
                     0.0348385641        -73.8497795      0.00125013727         129.295444       0.0578760787          179.73755     0.000798588654         128.096239
                    0.00018725122         119.426279       0.0357818867        -21.1247645     0.000798588656         128.096239       0.0424084363         135.119829

         200000000      0.0530238925         178.713962     0.000787672976         119.529588       0.0349047514        -84.1727906     0.000198727712         111.365803
                   0.000787672976         119.529588       0.0343980662         121.330633      0.00131994508         121.738819       0.0360924553        -24.8732344
                     0.0349047521        -84.1727919      0.00131994508         121.738819       0.0525265443         179.203568     0.000843057069         120.479462
                   0.000198727712         111.365802       0.0360924556         -24.873234     0.000843057069         120.479462       0.0343470853         121.569609

         210000000      0.0480125577        -179.788771     0.000826410318         111.991415       0.0350330372        -94.7958782     0.000210308541         103.291091
                   0.000826410318         111.991415       0.0262111304         103.152871      0.00138953072          114.13886       0.0364812401        -28.5080091
                     0.0350330356        -94.7958652      0.00138953072          114.13886       0.0475826168        -179.050033     0.000887495363         112.838995
                   0.000210308539         103.291091       0.0364812403        -28.5080087     0.000887495364         112.838995       0.0261022069         103.411725

         220000000      0.0440777538        -175.654873      0.00086476521         104.442813       0.0352782614        -105.677855     0.000222040584         95.2071626
                   0.000864765209         104.442813       0.0192149702          74.759207      0.00145868574         106.499467       0.0369845639        -32.0900293
                     0.0352782594        -105.677843      0.00145868574         106.499467       0.0437998448        -174.638812     0.000931908553         105.175787
                   0.000222040582         95.2071624       0.0369845641        -32.0900289     0.000931908555         105.175787       0.0190463912          74.896418

         230000000      0.0420680021        -168.926193     0.000902613289         96.8932593        0.035685345        -116.767659     0.000233897844          87.124985
                   0.000902613289         96.8932593       0.0167378047         30.8441796       0.0015269643         98.8298163       0.0376172257        -35.6690643
                     0.0356853423        -116.767647       0.0015269643         98.8298163        0.042036666        -167.705053     0.000976131665         97.4965623
                   0.000233897841         87.1249851       0.0376172259         -35.669064     0.000976131674         97.4965621       0.0165726517          30.504427

         240000000      0.0428054065        -161.050731     0.000940057734           89.33724       0.0363004728        -127.974066     0.000246028536         79.0299547
                   0.000940057732           89.33724       0.0216744131        -10.2373171      0.00159438725         91.1281711       0.0384081087        -39.3283355
                     0.0363004614         -127.97406      0.00159438725         91.1281711         0.04307884        -159.825528      0.00102034955         89.7921939
                   0.000246028533         79.0299542       0.0384081088        -39.3283354      0.00102034955         89.7921939       0.0216091762        -10.7750343

         250000000      0.0464515141        -154.261052     0.000977037491         81.7798381        0.037158873        -139.187267     0.000258465539          70.914899
                    0.00097703749         81.7798381       0.0311814411        -35.4945755      0.00166060295         83.4036008       0.0393709587        -43.1411642
                     0.0371588731        -139.187269      0.00166060295         83.4036008       0.0470154247         -153.23457      0.00106445879          82.062882
                   0.000258465539         70.9148989       0.0393709587        -43.1411639      0.00106445879          82.062882       0.0312065813         -35.922464

         260000000       0.052575136         -149.84777      0.00101349466          74.222907       0.0382731684        -150.320056      0.00027121578         62.7720056
                    0.00101349466          74.222907       0.0425203832        -52.1625013      0.00172527115         75.6611905       0.0404959394        -47.1521297
                     0.0382731565        -150.320052      0.00172527115         75.6611905       0.0533671659        -149.102909      0.00110832184         74.3075116
                   0.000271215776         62.7720053       0.0404959395        -47.1521294      0.00110832184         74.3075117       0.0426085703        -52.4845419

         270000000      0.0604969035        -148.092286       0.0010494761         66.6635236       0.0396465961        -161.277329     0.000284360461         54.5836521
                     0.0010494761         66.6635236       0.0546511101        -64.9078426      0.00178830252         67.9037916       0.0417766241        -51.4132331
                      0.039646596         -161.27733      0.00178830252         67.9037916       0.0614440335        -147.609747      0.00115195687          66.520138
                    0.00028436046          54.583652       0.0417766243        -51.4132328      0.00115195687          66.520138       0.0547854562        -65.1572209

         280000000      0.0693596591        -148.721738      0.00108489279         59.1077349       0.0412769102        -171.947504     0.000297872328         46.3351101
                     0.0010848928         59.1077335       0.0669351483          -75.50952       0.0018493264         60.1455161       0.0432126535        -55.9795809
                     0.0412769094        -171.947506       0.0018493264         60.1455161       0.0703979813        -148.444069      0.00119510077         58.7023636
                   0.000297872341         46.3351075       0.0432126536        -55.9795807      0.00119510077         58.7023636       0.0671039687        -75.7102116

         290000000      0.0787783351        -151.012454      0.00111976215         51.5491653       0.0431344338         177.693145     0.000311756305         38.0105623
                    0.00111976215         51.5491653       0.0792101952        -85.0378948      0.00190827484         52.3843424       0.0447711601        -60.8508609
                     0.0431344337         177.693144      0.00190827484         52.3843424       0.0798592655        -150.888867       0.0012376751          50.847892
                   0.000311756304         38.0105623       0.0447711601        -60.8508604       0.0012376751          50.847892       0.0794046539        -85.2038936

         300000000      0.0883320621         -154.52714      0.00115398091         43.9915705       0.0451920332         167.681772     0.000325922434         29.6024025
                    0.00115398099         43.9915727       0.0912227748        -93.8859465      0.00196482908         44.6307037       0.0464323308        -66.0302625
                      0.045192033         167.681771      0.00196482908         44.6307037       0.0894166749        -154.518911      0.00127935176         42.9602106
                   0.000325922436         29.6024027        0.046432332        -66.0302737      0.00127935176         42.9602106       0.0914349307        -94.0262825

         310000000      0.0975715126        -159.002244      0.00118754001         36.4399998       0.0474162455         158.059696     0.000340321997          21.101944
                       0.00118754         36.4399998        0.102683604        -102.180788      0.00201898968         36.8974351       0.0481846161        -71.5333076
                     0.0474162454         158.059695      0.00201898968         36.8974351       0.0986272489         -159.08077      0.00131993468         35.0441225
                   0.000340321996         21.1019439        0.048184616        -71.5333074      0.00131993468         35.0441226         0.10290619        -102.301526

         320000000        0.10636354        -164.155261      0.00122041296         28.8896711       0.0497671445         148.798451     0.000354861967         12.5006143
                    0.00122041296         28.8896711        0.113526063        -110.120681      0.00207075016         29.1840527       0.0499990468        -77.3331344
                     0.0497671444         148.798451      0.00207075016         29.1840527        0.107363228         -164.30094      0.00135921336         27.0976833
                   0.000354861967         12.5006143       0.0499990469         -77.333134      0.00135921336         27.0976833         0.11375161          -110.2263

         330000000       0.114295394        -169.849603      0.00125236404          21.353273       0.0522145026          139.90386     0.000369240118         3.80735008
                    0.00125236404         21.3532731        0.123373552        -117.750181      0.00211964859         21.5097829       0.0518718321        -83.4113493
                     0.0522144968         139.903867      0.00211964859         21.5097829        0.115215385         -170.04926      0.00139652002         19.1370284
