!$
! Info: Touchstone file created by Circ.  Input file=Tx_12in_Rx_85ohms_TxVia_10mils_RxVia_20mils.circ
!$
# Hz S RI R 50
0	0.009685448	8.337649e-26	3.215799e-09	4.140651e-27	7.60998e-05	9.874177e-24	-3.520344e-09	4.645237e-25
	3.215791e-09	4.140801e-27	0.009685047	1.077643e-25	-3.127238e-09	4.312968e-25	7.554672e-05	1.376315e-23
	7.837309e-05	9.896931e-24	-3.125314e-09	4.310589e-25	0.00967784	7.283142e-26	1.256637e-08	1.829144e-29
	-3.517625e-09	4.641891e-25	7.700253e-05	1.416558e-23	1.256646e-08	1.813431e-29	0.009690623	1.027553e-25
1e+07	0.01214678	-0.01163571	5.310204e-09	7.736348e-09	0.0004333503	0.002134338	1.493213e-08	5.49581e-08
	5.310204e-09	7.736348e-09	0.01213795	-0.01163588	-2.935449e-10	5.86593e-08	0.0004293516	0.002135564
	0.0004333985	0.00213431	-2.935447e-10	5.86593e-08	0.01212354	-0.01162736	-7.649044e-09	4.569451e-08
	1.493213e-08	5.49581e-08	0.0004293843	0.002135553	-7.649044e-09	4.569451e-08	0.01211481	-0.01162768
2e+07	0.01081922	-0.02624829	8.661297e-09	1.294034e-08	0.001269275	0.004047651	4.161014e-08	6.78042e-08
	8.661296e-09	1.294034e-08	0.01078521	-0.02624268	1.712908e-09	8.248154e-08	0.001254163	0.004053356
	0.001269267	0.004047625	1.712908e-09	8.248154e-08	0.01080467	-0.02622035	-4.761743e-10	4.622758e-08
	4.161014e-08	6.78042e-08	0.00125416	0.004053334	-4.761751e-10	4.622758e-08	0.01077136	-0.02621468
3e+07	0.004714301	-0.0410752	1.25793e-08	1.675649e-08	0.002530858	0.005665021	7.948056e-08	6.917294e-08
	1.25793e-08	1.675649e-08	0.004641166	-0.04105182	6.061385e-09	1.106676e-07	0.002499232	0.005680724
	0.002530858	0.005665018	6.061385e-09	1.106676e-07	0.00470553	-0.04103587	7.702539e-09	5.147607e-08
	7.948056e-08	6.917294e-08	0.002499227	0.005680722	7.702539e-09	5.147607e-08	0.004635033	-0.04101298
4e+07	-0.005263897	-0.0541271	1.664685e-08	1.895996e-08	0.004129329	0.00689683	1.166557e-07	5.614662e-08
	1.664685e-08	1.895996e-08	-0.005385095	-0.05406921	7.864474e-09	1.389744e-07	0.004077995	0.00692982
	0.004129333	0.006896826	7.864474e-09	1.389744e-07	-0.005268703	-0.05407952	1.708945e-08	5.342695e-08
	1.166557e-07	5.614662e-08	0.004077995	0.006929821	1.708945e-08	5.342695e-08	-0.005385762	-0.05402368
5e+07	-0.01827556	-0.06440011	2.036515e-08	1.957409e-08	0.005952611	0.007677529	1.498003e-07	2.986934e-08
	2.036515e-08	1.957409e-08	-0.01844749	-0.06428825	7.74598e-09	1.687792e-07	0.005881109	0.007736061
	0.005952612	0.007677527	7.74598e-09	1.687792e-07	-0.01827915	-0.06434468	2.611937e-08	5.108841e-08
	1.498003e-07	2.986934e-08	0.005881108	0.007736062	2.611937e-08	5.108841e-08	-0.01844549	-0.06423638
6e+07	-0.03340022	-0.0712348	2.324245e-08	1.874391e-08	0.007877157	0.007973576	1.752308e-07	-8.692501e-09
	2.324245e-08	1.874391e-08	-0.03361871	-0.07104889	6.890413e-09	2.005736e-07	0.007787941	0.008065927
	0.007877157	0.007973578	6.890413e-09	2.005736e-07	-0.03340416	-0.07117006	3.315146e-08	4.50881e-08
	1.752308e-07	-8.692501e-09	0.007787938	0.008065928	3.315146e-08	4.50881e-08	-0.03361516	-0.07098986
7e+07	-0.04965412	-0.07425534	2.482032e-08	1.674975e-08	0.009777987	0.007784561	1.89061e-07	-5.737832e-08
	2.482033e-08	1.674975e-08	-0.04990821	-0.07397698	6.357152e-09	2.343776e-07	0.009676296	0.007918109
	0.009777988	0.007784566	6.357151e-09	2.343776e-07	-0.04965857	-0.07417947	3.693968e-08	3.674356e-08
	1.89061e-07	-5.737832e-08	0.009676291	0.007918112	3.693968e-08	3.674356e-08	-0.04990363	-0.07391007
8e+07	-0.06603756	-0.07335158	2.472097e-08	1.401052e-08	0.01153765	0.007141199	1.879657e-07	-1.126666e-07
	2.472097e-08	1.401052e-08	-0.0663103	-0.0729661	7.094133e-09	2.699217e-07	0.01143114	0.00732161
	0.01153765	0.007141205	7.094133e-09	2.699217e-07	-0.06604169	-0.07326302	3.683456e-08	2.765726e-08
	1.879657e-07	-1.126666e-07	0.01143113	0.007321615	3.683456e-08	2.765726e-08	-0.06630507	-0.07289029
9e+07	-0.08158829	-0.06866132	2.269556e-08	1.106093e-08	0.01305379	0.006101112	1.697443e-07	-1.699487e-07
	2.269557e-08	1.106093e-08	-0.08185813	-0.06815945	9.850875e-09	3.067413e-07	0.01295194	0.006331659
	0.01305379	0.006101115	9.850875e-09	3.067413e-07	-0.08159068	-0.06855893	3.279406e-08	1.94296e-08
	1.697443e-07	-1.699487e-07	0.01295194	0.006331663	3.279406e-08	1.94296e-08	-0.08185206	-0.06807316
1e+08	-0.09543483	-0.06054607	1.866299e-08	8.508726e-09	0.01424693	0.004744226	1.336721e-07	-2.23968e-07
	1.866299e-08	8.508726e-09	-0.09567729	-0.05992517	1.521552e-08	3.440769e-07	0.01416035	0.005025274
	0.01424693	0.004744226	1.521552e-08	3.440769e-07	-0.09543387	-0.06042945	2.52573e-08	1.342243e-08
	1.336721e-07	-2.23968e-07	0.01416035	0.005025274	2.52573e-08	1.342243e-08	-0.0956694	-0.05982681
1.1e+08	-0.1068315	-0.04954491	1.274536e-08	6.971571e-09	0.01505756	0.00314586	8.275493e-08	-2.698909e-07
	1.274536e-08	6.971571e-09	-0.1070215	-0.0488081	2.162195e-08	3.826083e-07	0.01499657	0.003474279
	0.01505756	0.00314586	2.162195e-08	3.826083e-07	-0.1068245	-0.04941248	1.742361e-08	1.168183e-08
	8.275493e-08	-2.698909e-07	0.01499657	0.003474279	1.742361e-08	1.168183e-08	-0.1070091	-0.04869641
1.2e+08	-0.1151824	-0.03635114	5.233091e-09	7.012651e-09	0.01543481	0.001419295	1.709943e-08	-3.032872e-07
	5.233091e-09	7.012652e-09	-0.1152947	-0.03551137	3.055847e-08	4.201381e-07	0.01540974	0.001789227
	0.01543481	0.001419295	3.055847e-08	4.201381e-07	-0.1151658	-0.036203	7.519244e-09	1.202262e-08
	1.709943e-08	-3.032872e-07	0.01540974	0.001789227	7.519244e-09	1.202262e-08	-0.1152745	-0.03538652
1.3e+08	-0.1200958	-0.02177069	-3.429974e-09	9.106485e-09	0.01537194	-0.0003279542	-5.994032e-08	-3.198792e-07
	-3.429974e-09	9.106486e-09	-0.1201093	-0.02084812	4.177424e-08	4.558686e-07	0.01539137	7.446199e-05
	0.01537194	-0.0003279543	4.177424e-08	4.558686e-07	-0.1200662	-0.02160829	-3.877682e-09	1.505388e-08
	-5.994032e-08	-3.198792e-07	0.01539137	7.446198e-05	-3.877682e-09	1.505388e-08	-0.1200781	-0.02071148
1.4e+08	-0.1213795	-0.006664626	-1.266966e-08	1.359965e-08	0.01488268	-0.001993242	-1.438739e-07	-3.163097e-07
	-1.266966e-08	1.359965e-08	-0.1212785	-0.005685476	5.475754e-08	4.890916e-07	0.01495259	-0.001569933
	0.01488268	-0.001993242	5.475754e-08	4.890916e-07	-0.1213336	-0.006490771	-1.602553e-08	2.122189e-08
	-1.438739e-07	-3.163097e-07	0.01495259	-0.001569933	-1.602553e-08	2.122189e-08	-0.1212338	-0.005539503
1.5e+08	-0.1190464	0.008095708	-2.181915e-08	2.06763e-08	0.01400185	-0.003481184	-2.293121e-07	-2.904185e-07
	-2.181915e-08	2.06763e-08	-0.1188227	0.009100737	6.877602e-08	5.192758e-07	0.01412499	-0.00305037
	0.01400185	-0.003481184	6.877602e-08	5.192758e-07	-0.1189817	0.008276963	-2.806457e-08	3.076857e-08
	-2.293121e-07	-2.904185e-07	0.01412499	-0.00305037	-2.806457e-08	3.076857e-08	-0.1187625	0.009252666
1.6e+08	-0.1133096	0.02167382	-3.016469e-08	3.033553e-08	0.01278349	-0.004707125	-3.102681e-07	-2.414664e-07
	-3.016469e-08	3.033553e-08	-0.1129633	0.02267152	8.294536e-08	5.461318e-07	0.0129589	-0.004283077
	0.01278349	-0.004707125	8.294536e-08	5.461318e-07	-0.1132248	0.02185745	-3.907171e-08	4.370279e-08
	-3.102681e-07	-2.414664e-07	0.0129589	-0.004283077	-3.907171e-08	4.370279e-08	-0.1128866	0.0228253
1.7e+08	-0.1045673	0.03331064	-3.699612e-08	4.238153e-08	0.01129858	-0.00560042	-3.805129e-07	-1.702939e-07
	-3.699612e-08	4.238153e-08	-0.1041077	0.03426757	9.631584e-08	5.696494e-07	0.01152135	-0.005197272
	0.01129858	-0.00560042	9.631584e-08	5.696494e-07	-0.1044627	0.03349109	-4.81217e-08	5.978562e-08
	-3.805129e-07	-1.702939e-07	0.01152135	-0.005197272	-4.81217e-08	5.978562e-08	-0.1040147	0.0344187
1.8e+08	-0.0933811	0.04236327	-4.165894e-08	5.642717e-08	0.00963219	-0.006107546	-4.339756e-07	-7.940009e-08
	-4.165894e-08	5.642717e-08	-0.09282654	0.04324819	1.079649e-07	5.901024e-07	0.009893538	-0.005738223
	0.00963219	-0.006107546	1.079649e-07	5.901024e-07	-0.09325856	0.04253488	-5.435166e-08	7.853076e-08
	-4.339756e-07	-7.940009e-08	0.009893538	-0.005738223	-5.435166e-08	7.853076e-08	-0.09271885	0.04339208
1.9e+08	-0.08044512	0.0483385	-4.360437e-08	7.191106e-08	0.007880191	-0.00619502	-4.651759e-07	2.70736e-08
	-4.360437e-08	7.191106e-08	-0.07982266	0.04912485	1.170831e-07	6.080218e-07	0.008167763	-0.005870191
	0.007880191	-0.00619502	1.170831e-07	6.080218e-07	-0.08030822	0.04849607	-5.70254e-08	9.922119e-08
	-4.651759e-07	2.70736e-08	0.008167763	-0.005870191	-5.70254e-08	9.922119e-08	-0.07970316	0.04925728
2e+08	-0.06654966	0.05091979	-4.24341e-08	8.812728e-08	0.006145036	-0.005851965	-4.696673e-07	1.434698e-07
	-4.24341e-08	8.812728e-08	-0.06589374	0.05158803	1.230424e-07	6.241429e-07	0.006443524	-0.005579073
	0.006145036	-0.005851965	1.230424e-07	6.241429e-07	-0.06640354	0.05105907	-5.559377e-08	1.20942e-07
	-4.696673e-07	1.434698e-07	0.006443524	-0.005579073	-5.559377e-08	1.20942e-07	-0.06576658	0.0517055
2.1e+08	-0.05253828	0.04998609	-3.793669e-08	1.04266e-07	0.004530729	-0.005091981	-4.444637e-07	2.628653e-07
	-3.793669e-08	1.04266e-07	-0.05188886	0.05052571	1.254401e-07	6.393375e-07	0.004822727	-0.00487445
	0.004530729	-0.005091981	1.254401e-07	6.393375e-07	-0.05238932	0.05010416	-4.97471e-08	1.426287e-07
	-4.444637e-07	2.628653e-07	0.004822727	-0.00487445	-4.97471e-08	1.426287e-07	-0.05175923	0.05062581
2.2e+08	-0.03926074	0.04562073	-3.011302e-08	1.194631e-07	0.003136917	-0.00395392	-3.884118e-07	3.774479e-07
	-3.011302e-08	1.194631e-07	-0.03866091	0.0460318	1.241153e-07	6.545411e-07	0.003403994	-0.003790585
	0.003136917	-0.00395392	1.241153e-07	6.545411e-07	-0.0391162	0.04571643	-3.945539e-08	1.6313e-07
	-3.884118e-07	3.774479e-07	0.003403994	-0.003790585	-3.945539e-08	1.6313e-07	-0.03853476	0.04611351
2.3e+08	-0.02752388	0.0381092	-1.918901e-08	1.328547e-07	0.002052416	-0.002501096	-3.024664e-07	4.790125e-07
	-1.918901e-08	1.328547e-07	-0.02701701	0.03840322	1.191423e-07	6.706867e-07	0.002276342	-0.002385923
	0.002052416	-0.002501096	1.191423e-07	6.706867e-07	-0.02739142	0.03818332	-2.499258e-08	1.812812e-07
	-3.024664e-07	4.790125e-07	0.002276342	-0.002385923	-2.499258e-08	1.812812e-07	-0.02690066	0.03846713
2.4e+08	-0.01804318	0.02792473	-5.614491e-09	1.436354e-07	0.001348672	-0.0008185953	-1.898262e-07	5.595501e-07
	-5.614491e-09	1.436354e-07	-0.01766986	0.02812478	1.108072e-07	6.886524e-07	0.001512707	-0.0007407357
	0.001348672	-0.0008185953	1.108072e-07	6.886524e-07	-0.0179303	0.02798012	-6.941365e-09	1.959851e-07
	-1.898262e-07	5.595501e-07	0.001512707	-0.0007407357	-6.941365e-09	1.959851e-07	-0.01756953	0.02817316
2.5e+08	-0.01139828	0.01570167	9.952133e-09	1.511152e-07	0.001073839	0.0009914663	-5.589379e-08	6.118883e-07
	9.952133e-09	1.511152e-07	-0.0111932	0.01584162	9.957817e-08	7.092262e-07	0.001164015	0.001047281
	0.001073839	0.0009914663	9.957817e-08	7.092262e-07	-0.0113118	0.01574324	1.382361e-08	2.062942e-07
	-5.589379e-08	6.118883e-07	0.001164015	0.001047281	1.382361e-08	2.062942e-07	-0.01111456	0.01587847
2.6e+08	-0.007996003	0.002197692	2.667319e-08	1.547726e-07	0.00124825	0.002816564	9.195954e-08	6.303231e-07
	2.667319e-08	1.547726e-07	-0.007985065	0.002320616	8.607786e-08	7.330831e-07	0.001254535	0.002869283
	0.00124825	0.002816564	8.607786e-08	7.330831e-07	-0.007941466	0.002232142	3.61751e-08	2.114903e-07
	9.195954e-08	6.303231e-07	0.001254535	0.002869283	3.61751e-08	2.114903e-07	-0.007932789	0.002351481
2.7e+08	-0.008044038	-0.01175314	4.357446e-08	1.543012e-07	0.001861986	0.004541783	2.448229e-07	6.111772e-07
	4.357446e-08	1.543012e-07	-0.008241897	-0.01159731	7.10635e-08	7.607701e-07	0.001779243	0.00461299
	0.001861986	0.004541783	7.10635e-08	7.607701e-07	-0.008025243	-0.01171759	5.879445e-08	2.111519e-07
	2.448229e-07	6.111772e-07	0.001779243	0.00461299	5.879445e-08	2.111519e-07	-0.008219211	-0.01156563
2.8e+08	-0.0115377	-0.02529302	5.960006e-08	1.496462e-07	0.00287501	0.00605845	3.928409e-07	5.532201e-07
	5.960006e-08	1.496462e-07	-0.01194601	-0.02505056	5.541404e-08	7.926874e-07	0.002703671	0.006171064
	0.00287501	0.006058449	5.541404e-08	7.926874e-07	-0.0115563	-0.02524714	8.025203e-08	2.05207e-07
	3.928409e-07	5.532201e-07	0.002703671	0.006171064	8.025203e-08	2.05207e-07	-0.01195437	-0.02501038
2.9e+08	-0.01826122	-0.03759494	7.367763e-08	1.410269e-07	0.004220005	0.007272423	5.259237e-07	4.578965e-07
	7.367763e-08	1.410269e-07	-0.01886774	-0.03721179	4.011866e-08	8.290618e-07	0.003966397	0.007449238
	0.004220005	0.007272423	4.011866e-08	8.290618e-07	-0.01831649	-0.03752906	9.910219e-08	1.939618e-07
	5.259237e-07	4.578965e-07	0.003966397	0.007449238	9.910219e-08	1.939618e-07	-0.01890658	-0.03715504
3e+08	-0.02780348	-0.0479148	8.479085e-08	1.289425e-07	0.005807669	0.008111116	6.345034e-07	3.293337e-07
	8.479085e-08	1.289425e-07	-0.02858207	-0.04734024	2.625712e-08	8.699081e-07	0.005483938	0.008373262
	0.005807669	0.008111116	2.625712e-08	8.699081e-07	-0.02789217	-0.04781944	1.139865e-07	1.781031e-07
	6.345034e-07	3.293337e-07	0.005483938	0.008373262	1.139865e-07	1.781031e-07	-0.02864874	-0.04725896
3.1e+08	-0.03958674	-0.05563696	9.205449e-08	1.141585e-07	0.007533827	0.008528469	7.102623e-07	1.741254e-07
	9.205449e-08	1.141585e-07	-0.04049842	-0.05482721	1.496213e-08	9.149848e-07	0.007157468	0.008893914
	0.007533827	0.008528469	1.496213e-08	9.149848e-07	-0.03970321	-0.05550349	1.237364e-07	1.58672e-07
	7.102623e-07	1.741254e-07	0.007157468	0.008893914	1.237364e-07	1.58672e-07	-0.04058823	-0.05471412
3.2e+08	-0.05290584	-0.06031006	9.478645e-08	9.76706e-08	0.009287535	0.008507438	7.467632e-07	9.150552e-10
	9.478645e-08	9.76706e-08	-0.05390072	-0.05923151	7.357325e-09	9.637538e-07	0.008880526	0.008989634
	0.009287535	0.008507438	7.357325e-09	9.637538e-07	-0.05304224	-0.0601313	1.274679e-07	1.370073e-07
	7.467632e-07	9.150552e-10	0.008880526	0.008989634	1.274679e-07	1.370073e-07	-0.0540071	-0.05908055
3.3e+08	-0.06697433	-0.06167075	9.257023e-08	8.064922e-08	0.01095923	0.008059908	7.399288e-07	-1.801746e-07
	9.257023e-08	8.064922e-08	-0.06799437	-0.06030264	4.470801e-09	1.015357e-06	0.01054683	0.008666684
	0.01095923	0.008059908	4.470801e-09	1.015357e-06	-0.06712102	-0.06144156	1.246567e-07	1.14664e-07
	7.399288e-07	-1.801746e-07	0.01054683	0.008666684	1.246567e-07	1.14664e-07	-0.06810924	-0.06010948
3.4e+08	-0.08097379	-0.05965466	8.529953e-08	6.436514e-08	0.01244812	0.007224331	6.883384e-07	-3.582069e-07
	8.529953e-08	6.436514e-08	-0.08195621	-0.05799098	7.131118e-09	1.068624e-06	0.01205739	0.007957117
	0.01244812	0.007224331	7.131118e-09	1.068624e-06	-0.0811199	-0.05937239	1.151898e-07	9.331273e-08
	6.883384e-07	-3.582069e-07	0.01205739	0.007957117	1.151898e-07	9.331273e-08	-0.08207044	-0.05775338
3.5e+08	-0.09410288	-0.0543945	7.320177e-08	5.010414e-08	0.01366816	0.00606161	5.933327e-07	-5.221318e-07
	7.320177e-08	5.010414e-08	-0.09498393	-0.05244496	1.586011e-08	1.122121e-06	0.01332634	0.006915048
	0.01366816	0.00606161	1.586011e-08	1.122121e-06	-0.09423695	-0.05405921	9.938698e-08	7.46277e-08
	5.933327e-07	-5.221318e-07	0.01332634	0.006915048	9.938698e-08	7.46277e-08	-0.09508787	-0.05216296
3.6e+08	-0.1056228	-0.04620678	5.683632e-08	3.907662e-08	0.01455241	0.00464989	4.589393e-07	-6.614674e-07
	5.683632e-08	3.907662e-08	-0.1063417	-0.04399686	3.077926e-08	1.174238e-06	0.01428517	0.005611872
	0.01455241	0.00464989	3.077926e-08	1.174238e-06	-0.1057334	-0.04582136	7.799023e-08	6.017335e-08
	4.589393e-07	-6.614674e-07	0.01428517	0.005611872	7.799023e-08	6.017335e-08	-0.1064258	-0.04367289
3.7e+08	-0.114897	-0.03556884	3.706742e-08	3.233062e-08	0.01505555	0.003078897	2.916433e-07	-7.669198e-07
	3.706742e-08	3.233062e-08	-0.1153999	-0.03313879	5.154733e-08	1.223314e-06	0.01488535	0.00413104
	0.01505555	0.003078897	5.154733e-08	1.223314e-06	-0.1149736	-0.03513897	5.2124e-08	5.129891e-08
	2.916433e-07	-7.669198e-07	0.01488535	0.00413104	5.2124e-08	5.129891e-08	-0.1154552	-0.03277765
3.8e+08	-0.1214232	-0.02308842	1.501413e-08	3.067539e-08	0.01515499	0.001444352	1.000336e-07	-8.30917e-07
	1.501413e-08	3.067539e-08	-0.1216666	-0.02049141	7.734273e-08	1.267786e-06	0.01509953	0.002562877
	0.01515499	0.001444352	7.734273e-08	1.267786e-06	-0.1214567	-0.02262238	2.323012e-08	4.904779e-08
	1.000336e-07	-8.30917e-07	0.01509953	0.002562877	2.323012e-08	4.904779e-08	-0.1216854	-0.02010007
3.9e+08	-0.1248575	-0.009468031	-8.018234e-09	3.462148e-08	0.01485062	-0.0001572069	-1.056437e-07	-8.480401e-07
	-8.018234e-09	3.462148e-08	-0.1248112	-0.006767399	1.068979e-07	1.306338e-06	0.01492158	0.0009997686
	0.01485062	-0.0001572069	1.068979e-07	1.306338e-06	-0.1248408	-0.008976241	-7.016866e-09	5.408744e-08
	-1.056437e-07	-8.480401e-07	0.01492158	0.0009997686	-7.016866e-09	5.408744e-08	-0.1247877	-0.006354689
4e+08	-0.125029	0.004534042	-3.061936e-08	4.434114e-08	0.01416379	-0.001633041	-3.139999e-07	-8.153502e-07
	-3.061936e-08	4.434114e-08	-0.1246789	0.007268141	1.385849e-07	1.338035e-06	0.01436583	-0.0004681542
	0.01416379	-0.001633041	1.385849e-07	1.338035e-06	-0.1249578	0.005039489	-3.680748e-08	6.66626e-08
	-3.139999e-07	-8.153502e-07	0.01436583	-0.0004681542	-3.680748e-08	6.66626e-08	-0.1246094	0.00769203
4.1e+08	-0.1219468	0.01814409	-5.136193e-08	5.965107e-08	0.01313552	-0.00289826	-5.130678e-07	-7.326064e-07
	-5.136193e-08	5.965107e-08	-0.1212959	0.02083861	1.705442e-07	1.362426e-06	0.01346577	-0.001756859
	0.01313552	-0.00289826	1.705442e-07	1.362426e-06	-0.1218195	0.01865009	-6.430198e-08	8.657318e-08
	-5.130678e-07	-7.326064e-07	0.01346577	-0.001756859	-6.430198e-08	8.657318e-08	-0.1211792	0.02126264
4.2e+08	-0.1157975	0.03061325	-6.889018e-08	8.001758e-08	0.0118244	-0.0038794	-6.909028e-07	-6.023774e-07
	-6.889018e-08	8.001758e-08	-0.1148666	0.0331965	2.008407e-07	1.379598e-06	0.0122723	-0.002791878
	0.0118244	-0.0038794	2.008407e-07	1.379598e-06	-0.115616	0.03110644	-8.773635e-08	1.131765e-07
	-6.909028e-07	-6.023774e-07	0.0122723	-0.002791878	-8.773635e-08	1.131765e-07	-0.1147042	0.0336094
4.3e+08	-0.1069352	0.04125638	-8.2004e-08	1.045831e-07	0.010304	-0.004517645	-8.362091e-07	-4.300368e-07
	-8.2004e-08	1.045831e-07	-0.1057624	0.0436623	2.276288e-07	1.390169e-06	0.01085166	-0.003511513
	0.010304	-0.004517645	2.276288e-07	1.390169e-06	-0.1067043	0.04172388	-1.055251e-07	1.454129e-07
	-8.362091e-07	-4.300368e-07	0.01085166	-0.003511513	-1.055251e-07	1.454129e-07	-0.1055587	0.04405326
4.4e+08	-0.09586304	0.04948797	-8.97336e-08	1.322113e-07	0.008659844	-0.004771735	-9.389805e-07	-2.236337e-07
	-8.97336e-08	1.322113e-07	-0.09450246	0.05166036	2.493054e-07	1.395239e-06	0.00928277	-0.003869855
	0.008659844	-0.004771735	2.493054e-07	1.395239e-06	-0.09559107	0.04991821	-1.163563e-07	1.818534e-07
	-9.389805e-07	-2.236337e-07	0.00928277	-0.003869855	-1.163563e-07	1.818534e-07	-0.09426438	0.05201969
4.5e+08	-0.08320822	0.05485399	-9.14013e-08	1.615493e-07	0.006985763	-0.004620537	-9.91135e-07	6.376985e-09
	-9.14013e-08	1.615493e-07	-0.0817273	0.05675033	2.646329e-07	1.396283e-06	0.007654106	-0.003839549
	0.006985763	-0.004620537	2.646329e-07	1.396283e-06	-0.08290604	0.05523745	-1.192753e-07	2.207676e-07
	-9.91135e-07	6.376985e-09	0.007654106	-0.003839549	-1.192753e-07	2.207676e-07	-0.08146408	0.05707008
4.6e+08	-0.0696893	0.05705792	-8.666718e-08	1.911007e-07	0.005379556	-0.004065079	-9.871143e-07	2.475603e-07
	-8.666718e-08	1.911007e-07	-0.0681654	0.05865257	2.728189e-07	1.395024e-06	0.006059665	-0.003414147
	0.005379556	-0.004065079	2.728189e-07	1.395024e-06	-0.06937011	0.0573878	-1.137533e-07	2.6021e-07
	-9.871143e-07	2.475603e-07	0.006059665	-0.003414147	-1.137533e-07	2.6021e-07	-0.06788821	0.05892712
4.7e+08	-0.05607821	0.0559795	-7.555675e-08	2.193088e-07	0.003937904	-0.003129782	-9.244065e-07	4.860887e-07
	-7.555675e-08	2.193088e-07	-0.05459441	0.05726604	2.735463e-07	1.393291e-06	0.004594202	-0.002609726
	0.003937904	-0.003129782	2.735463e-07	1.393291e-06	-0.05575679	0.0562523	-9.973567e-08	2.981219e-07
	-9.244065e-07	4.860887e-07	0.004594202	-0.002609726	-9.973567e-08	2.981219e-07	-0.05431575	0.05749257
4.8e+08	-0.04315777	0.05168463	-5.846933e-08	2.44643e-07	0.002750653	-0.001862512	-8.039393e-07	7.074883e-07
	-5.846933e-08	2.44643e-07	-0.04179807	0.05267721	2.669571e-07	1.392888e-06	0.003347705	-0.001465409
