!$
! Info: Touchstone file created by Circ.  Input file=Tx_14in_Rx_85ohms_TxVia_10mils_RxVia_20mils.circ
!$
# Hz S RI R 50
0	0.01125956	9.493239e-26	3.20573e-09	4.815721e-27	8.659642e-05	1.148751e-23	-3.508996e-09	4.631172e-25
	3.205722e-09	4.815862e-27	0.01125916	1.232961e-25	-3.167605e-09	4.361129e-25	8.604754e-05	1.601404e-23
	8.886959e-05	1.151395e-23	-3.165688e-09	4.358759e-25	0.01125187	8.294383e-26	1.257802e-08	2.108968e-29
	-3.506287e-09	4.627837e-25	8.750275e-05	1.648228e-23	1.257811e-08	2.093333e-29	0.01126472	1.175534e-25
1e+07	0.01380486	-0.01383893	5.415417e-09	7.565175e-09	0.0005510832	0.002448264	1.715368e-08	5.40312e-08
	5.415417e-09	7.565176e-09	0.0137946	-0.01383891	-4.382195e-10	5.870294e-08	0.0005464651	0.00244979
	0.0005511315	0.002448237	-4.382193e-10	5.870294e-08	0.01377546	-0.0138288	-6.671618e-09	4.568383e-08
	1.715368e-08	5.40312e-08	0.0005464979	0.002449778	-6.671618e-09	4.568383e-08	0.01376532	-0.01382895
2e+07	0.01121857	-0.03092383	8.978399e-09	1.236674e-08	0.001650373	0.004580694	4.676962e-08	6.369641e-08
	8.978399e-09	1.236674e-08	0.0111795	-0.0309157	1.278506e-09	8.261606e-08	0.001633159	0.004588022
	0.001650365	0.004580668	1.278507e-09	8.261606e-08	0.01120034	-0.03089098	1.367294e-09	4.564136e-08
	4.676962e-08	6.369641e-08	0.001633155	0.004588	1.367293e-09	4.564136e-08	0.01116208	-0.0308828
3e+07	0.002454047	-0.04759589	1.302674e-08	1.547246e-08	0.003284038	0.006271187	8.659515e-08	5.831286e-08
	1.302674e-08	1.547246e-08	0.00237163	-0.04756382	5.195023e-09	1.111885e-07	0.003248783	0.006291484
	0.003284038	0.006271184	5.195023e-09	1.111885e-07	0.002443513	-0.04755036	1.041408e-08	4.953482e-08
	8.659515e-08	5.831286e-08	0.003248778	0.006291482	1.041408e-08	4.953482e-08	0.002364101	-0.04751902
4e+07	-0.01110091	-0.06124092	1.692734e-08	1.668537e-08	0.005297311	0.007395048	1.227813e-07	3.588695e-08
	1.692734e-08	1.668537e-08	-0.01123365	-0.06116367	6.599337e-09	1.402978e-07	0.005241852	0.007437425
	0.005297315	0.007395044	6.599337e-09	1.402978e-07	-0.01110585	-0.0611862	2.00307e-08	4.940327e-08
	1.227813e-07	3.588695e-08	0.005241852	0.007437427	2.00307e-08	4.940327e-08	-0.01123406	-0.06111166
5e+07	-0.02803671	-0.07054576	1.999462e-08	1.615257e-08	0.007503256	0.007878679	1.504913e-07	-1.250384e-09
	1.999462e-08	1.615257e-08	-0.02821773	-0.07040004	6.364172e-09	1.713597e-07	0.007429303	0.007952842
	0.007503257	0.007878676	6.364172e-09	1.713597e-07	-0.02803881	-0.07048221	2.81559e-08	4.46387e-08
	1.504913e-07	-1.250384e-09	0.007429303	0.007952842	2.81559e-08	4.46387e-08	-0.02821392	-0.07034115
6e+07	-0.04681334	-0.07477356	2.160309e-08	1.422982e-08	0.009706103	0.007708527	1.649118e-07	-5.026192e-08
	2.160309e-08	1.422982e-08	-0.04703135	-0.07453746	5.95847e-09	2.047802e-07	0.009619239	0.007823274
	0.009706103	0.007708529	5.95847e-09	2.047802e-07	-0.04681382	-0.07469962	3.293427e-08	3.648321e-08
	1.649118e-07	-5.026192e-08	0.009619236	0.007823275	3.293427e-08	3.648321e-08	-0.04702426	-0.0744709
7e+07	-0.06584499	-0.07369171	2.12498e-08	1.147699e-08	0.01172107	0.006928358	1.617996e-07	-1.06536e-07
	2.12498e-08	1.147699e-08	-0.06608041	-0.07334812	6.701279e-09	2.403439e-07	0.01163021	0.007090219
	0.01172107	0.006928363	6.701278e-09	2.403439e-07	-0.06584331	-0.0736056	3.325086e-08	2.693146e-08
	1.617996e-07	-1.06536e-07	0.0116302	0.007090222	3.325086e-08	2.693146e-08	-0.06607022	-0.07327323
8e+07	-0.08361251	-0.06752941	1.863263e-08	8.62426e-09	0.01339019	0.005630406	1.385041e-07	-1.638712e-07
	1.863263e-08	8.624259e-09	-0.08383958	-0.06706873	9.702971e-09	2.77397e-07	0.01330663	0.005842567
	0.01339019	0.005630411	9.702971e-09	2.77397e-07	-0.08360695	-0.06742995	2.89115e-08	1.81559e-08
	1.385041e-07	-1.638712e-07	0.01330662	0.005842572	2.89115e-08	1.81559e-08	-0.08382614	-0.06698461
9e+07	-0.0987706	-0.05691964	1.371226e-08	6.498481e-09	0.01459335	0.003943058	9.460085e-08	-2.151807e-07
	1.371227e-08	6.49848e-09	-0.09896031	-0.05634164	1.570481e-08	3.150013e-07	0.01452954	0.004204642
	0.01459335	0.003943061	1.570481e-08	3.150013e-07	-0.09875879	-0.05680662	2.055842e-08	1.208891e-08
	9.460085e-08	-2.151807e-07	0.01452954	0.004204646	2.055842e-08	1.208891e-08	-0.09894262	-0.05624716
1e+08	-0.1102395	-0.04282301	6.742419e-09	5.925165e-09	0.01525682	0.002018106	3.21423e-08	-2.533556e-07
	6.742419e-09	5.925165e-09	-0.1103628	-0.04213763	2.505054e-08	3.518954e-07	0.01522496	0.002323859
	0.01525682	0.002018106	2.505054e-08	3.518954e-07	-0.1102191	-0.04269737	9.411961e-09	1.0126e-08
	3.21423e-08	-2.533556e-07	0.01522496	0.002323859	9.411961e-09	1.0126e-08	-0.110339	-0.04203217
1.1e+08	-0.1172565	-0.02642407	-1.730789e-09	7.600163e-09	0.01534406	-2.860535e-06	-4.283366e-08	-2.735331e-07
	-1.730789e-09	7.600163e-09	-0.1172879	-0.0256496	3.569957e-08	3.88355e-07	0.01535417	0.0003373117
	0.01534406	-2.860688e-06	3.569957e-08	3.88355e-07	-0.1172247	-0.02628606	-1.750882e-09	1.262919e-08
	-4.283366e-08	-2.735331e-07	0.01535417	0.0003373116	-1.750882e-09	1.262919e-08	-0.1172551	-0.02553351
1.2e+08	-0.1194114	-0.009055888	-1.095539e-08	1.202998e-08	0.01485009	-0.001944672	-1.264244e-07	-2.706482e-07
	-1.095539e-08	1.202998e-08	-0.1193311	-0.008221703	4.850442e-08	4.220255e-07	0.01490968	-0.001582912
	0.01485009	-0.001944672	4.850442e-08	4.220255e-07	-0.1193648	-0.008907883	-1.388548e-08	1.873889e-08
	-1.264244e-07	-2.706482e-07	0.01490968	-0.001582912	-1.388548e-08	1.873889e-08	-0.1192859	-0.008097183
1.3e+08	-0.1166889	0.007907336	-2.003239e-08	1.946625e-08	0.01382926	-0.003655723	-2.1136e-07	-2.41771e-07
	-2.003239e-08	1.946625e-08	-0.1164869	0.008765528	6.250185e-08	4.521737e-07	0.01394148	-0.00328781
	0.01382926	-0.003655723	6.250185e-08	4.521737e-07	-0.1166248	0.008061332	-2.583037e-08	2.878317e-08
	-2.1136e-07	-2.41771e-07	0.01394148	-0.00328781	-2.583037e-08	2.878317e-08	-0.1164273	0.008894945
1.4e+08	-0.1094377	0.02315493	-2.799491e-08	2.986987e-08	0.01236749	-0.005005474	-2.894887e-07	-1.862248e-07
	-2.799491e-08	2.986987e-08	-0.1091159	0.02399831	7.649235e-08	4.784413e-07	0.01253041	-0.004647933
	0.01236749	-0.005005474	7.649235e-08	4.784413e-07	-0.1093551	0.02330964	-3.63334e-08	4.272264e-08
	-2.894887e-07	-1.862248e-07	0.01253041	-0.004647933	-3.63334e-08	4.272264e-08	-0.1090409	0.02412816
1.5e+08	-0.09834169	0.0355292	-3.390094e-08	4.289624e-08	0.01057991	-0.005889744	-3.524336e-07	-1.058439e-07
	-3.390094e-08	4.289624e-08	-0.09791433	0.03631952	8.919747e-08	5.009094e-07	0.01078626	-0.005558529
	0.01057991	-0.005889745	8.919747e-08	5.009094e-07	-0.09824125	0.03567861	-4.416421e-08	6.012828e-08
	-3.524336e-07	-1.058439e-07	0.01078626	-0.005558529	-4.416421e-08	6.012828e-08	-0.0978247	0.03644486
1.6e+08	-0.08436756	0.04410577	-3.692705e-08	5.790955e-08	0.00860508	-0.006236854	-3.923378e-07	-5.059207e-09
	-3.692705e-08	5.790955e-08	-0.08386107	0.04480927	9.942633e-08	5.200938e-07	0.00884249	-0.005945652
	0.00860508	-0.006236854	9.942633e-08	5.200938e-07	-0.08425219	0.04424389	-4.823132e-08	8.019198e-08
	-3.923378e-07	-5.059207e-09	0.00884249	-0.005945652	-4.823132e-08	8.019198e-08	-0.08375927	0.04492524
1.7e+08	-0.06869418	0.04825984	-3.645536e-08	7.402472e-08	0.006597355	-0.006013306	-4.026593e-07	1.09227e-07
	-3.645536e-08	7.402472e-08	-0.06814572	0.04885102	1.062206e-07	5.368757e-07	0.006849129	-0.005771953
	0.006597355	-0.006013306	1.062206e-07	5.368757e-07	-0.06856891	0.04838152	-4.769577e-08	1.01771e-07
	-4.026593e-07	1.09227e-07	0.006849129	-0.005771953	-4.769577e-08	1.01771e-07	-0.06803588	0.04895347
1.8e+08	-0.05262616	0.04771384	-3.214583e-08	9.017434e-08	0.004717336	-0.005228312	-3.789588e-07	2.280139e-07
	-3.214583e-08	9.017434e-08	-0.05208097	0.04817879	1.089542e-07	5.523887e-07	0.004963681	-0.005041456
	0.004717336	-0.005228312	1.089542e-07	5.523887e-07	-0.05249786	0.04781548	-4.20721e-08	1.234658e-07
	-3.789588e-07	2.280139e-07	0.004963681	-0.005041456	-4.20721e-08	1.234658e-07	-0.0519687	0.04826482
1.9e+08	-0.0374956	0.04256187	-2.398718e-08	1.051956e-07	0.003120143	-0.003936072	-3.195954e-07	3.408407e-07
	-2.398718e-08	1.051956e-07	-0.03700333	0.04290073	1.073775e-07	5.678877e-07	0.003339808	-0.003802238
	0.003120143	-0.003936072	1.073775e-07	5.678877e-07	-0.03737241	0.0426421	-3.130618e-08	1.437292e-07
	-3.195954e-07	3.408407e-07	0.003339808	-0.003802238	-3.130618e-08	1.437292e-07	-0.03689525	0.04296924
2e+08	-0.02455778	0.0332669	-1.232118e-08	1.179303e-07	0.001942173	-0.002234572	-2.262306e-07	4.366767e-07
	-1.232118e-08	1.179303e-07	-0.02416805	0.03349523	1.016097e-07	5.846269e-07	0.002114364	-0.002145744
	0.001942173	-0.002234572	1.016097e-07	5.846269e-07	-0.02444836	0.03332694	-1.582029e-08	1.609989e-07
	-2.262306e-07	4.366767e-07	0.002114364	-0.002145744	-1.582029e-08	1.609989e-07	-0.02407127	0.0335472
2.1e+08	-0.0148888	0.02062804	2.162609e-09	1.273305e-07	0.001287644	-0.0002598607	-1.040353e-07	5.050038e-07
	2.162609e-09	1.273305e-07	-0.01464642	0.02077672	9.209693e-08	6.037661e-07	0.00139405	-0.0002016683
	0.001287644	-0.0002598608	9.209693e-08	6.037661e-07	-0.01480148	0.0206719	3.483096e-09	1.738458e-07
	-1.040353e-07	5.050038e-07	0.00139405	-0.0002016683	3.483096e-09	1.738458e-07	-0.01456777	0.02081539
2.2e+08	-0.009294607	0.005718035	1.84626e-08	1.325617e-07	0.001216846	0.00182453	3.848293e-08	5.369818e-07
	1.84626e-08	1.325617e-07	-0.009234769	0.005831614	7.955888e-08	6.263109e-07	0.001243581	0.001871995
	0.001216846	0.001824529	7.955888e-08	6.263109e-07	-0.009236482	0.005752349	2.526412e-08	1.811234e-07
	3.848293e-08	5.369818e-07	0.001243581	0.001871995	2.526412e-08	1.811234e-07	-0.009180115	0.005862414
2.3e+08	-0.008241094	-0.01020534	3.533049e-08	1.330944e-07	0.001738198	0.003842403	1.900669e-07	5.265473e-07
	3.533049e-08	1.330944e-07	-0.008385208	-0.01007173	6.494374e-08	6.530763e-07	0.00167747	0.003903177
	0.001738198	0.003842403	6.494374e-08	6.530763e-07	-0.008217193	-0.01017174	4.783596e-08	1.821033e-07
	1.900669e-07	5.265473e-07	0.00167747	0.003903177	4.783596e-08	1.821033e-07	-0.008358757	-0.01004156
2.4e+08	-0.01181373	-0.02580643	5.136373e-08	1.287777e-07	0.002805893	0.005622282	3.376801e-07	4.712847e-07
	5.136373e-08	1.287777e-07	-0.0121663	-0.02559152	4.939853e-08	6.846544e-07	0.0026572	0.005722612
	0.002805893	0.005622282	4.939853e-08	6.846544e-07	-0.01182635	-0.02576317	6.92988e-08	1.765821e-07
	3.376801e-07	4.712847e-07	0.0026572	0.005722612	6.92988e-08	1.765821e-07	-0.01217002	-0.02555341
2.5e+08	-0.01971197	-0.03978688	6.512077e-08	1.198858e-07	0.004323942	0.007014913	4.677562e-07	3.729252e-07
	6.512077e-08	1.198858e-07	-0.02025894	-0.03942857	3.424604e-08	7.213695e-07	0.004094665	0.007181005
	0.004323942	0.007014913	3.424604e-08	7.213695e-07	-0.01976022	-0.03972296	8.770778e-08	1.649431e-07
	4.677562e-07	3.729252e-07	0.004094665	0.007181005	8.770778e-08	1.649431e-07	-0.02029218	-0.03937339
2.6e+08	-0.03127939	-0.05099675	7.525187e-08	1.071288e-07	0.006156284	0.007908249	5.675697e-07	2.373879e-07
	7.525187e-08	1.071288e-07	-0.03198822	-0.05043782	2.094797e-08	7.632102e-07	0.005861559	0.008163875
	0.006156284	0.007908249	2.094797e-08	7.632102e-07	-0.03135906	-0.05090151	1.012594e-07	1.481633e-07
	5.675697e-07	2.373879e-07	0.005861559	0.008163875	1.012594e-07	1.481633e-07	-0.03204755	-0.05035668
2.7e+08	-0.04556604	-0.05852983	8.063461e-08	9.162247e-08	0.008141381	0.008237702	6.265464e-07	7.434788e-08
	8.063461e-08	9.162247e-08	-0.04638751	-0.05772347	1.103061e-08	8.097509e-07	0.007803244	0.008601892
	0.008141381	0.008237702	1.103061e-08	8.097509e-07	-0.04566977	-0.05839396	1.084766e-07	1.277579e-07
	6.265464e-07	7.434788e-08	0.007803244	0.008601892	1.084766e-07	1.277579e-07	-0.04646687	-0.05760856
2.8e+08	-0.06141518	-0.06179401	8.049933e-08	7.481294e-08	0.01010896	0.007990436	6.373461e-07	-1.036017e-07
	8.049933e-08	7.481294e-08	-0.06228693	-0.06070862	5.959506e-09	8.600865e-07	0.009754813	0.008475485
	0.01010896	0.007990436	5.959506e-09	8.600865e-07	-0.06153293	-0.06161051	1.083713e-07	1.056647e-07
	6.373461e-07	-1.036017e-07	0.009754813	0.008475485	1.083713e-07	1.056647e-07	-0.06237797	-0.06055403
2.9e+08	-0.0775646	-0.06055111	7.452839e-08	5.836079e-08	0.01189642	0.007203664	5.965982e-07	-2.82075e-07
	7.452839e-08	5.836079e-08	-0.07841591	-0.0591739	6.967584e-09	9.128147e-07	0.0115569	0.00781366
	0.01189642	0.007203664	6.967584e-09	9.128147e-07	-0.07768437	-0.06031602	1.005628e-07	8.408032e-08
	5.965982e-07	-2.82075e-07	0.0115569	0.00781366	1.005628e-07	8.408032e-08	-0.07850863	-0.05897624
3e+08	-0.09275155	-0.05492484	6.291463e-08	4.399428e-08	0.0133627	0.005957985	5.052373e-07	-4.461565e-07
	6.291463e-08	4.399428e-08	-0.09350911	-0.05326383	1.48615e-08	9.660935e-07	0.01306923	0.006687997
	0.0133627	0.005957985	1.48615e-08	9.660935e-07	-0.09286036	-0.05463774	8.533849e-08	6.526423e-08
	5.052373e-07	-4.461565e-07	0.01306923	0.006687997	8.533849e-08	6.526423e-08	-0.09359262	-0.05302271
3.1e+08	-0.1058119	-0.04537898	4.636937e-08	3.334809e-08	0.01439849	0.004367421	3.684439e-07	-5.816608e-07
	4.636937e-08	3.334809e-08	-0.1064059	-0.04346333	2.984541e-08	1.017785e-06	0.01418055	0.005203459
	0.01439849	0.004367421	2.984541e-08	1.017785e-06	-0.1058968	-0.04504324	6.364933e-08	5.133328e-08
	3.684439e-07	-5.816608e-07	0.01418055	0.005203459	6.364933e-08	5.133328e-08	-0.1064693	-0.04318151
3.2e+08	-0.1157656	-0.03267082	2.607799e-08	2.780595e-08	0.01493224	0.002567967	1.952465e-07	-6.762773e-07
	2.607799e-08	2.780595e-08	-0.1161359	-0.03054934	5.140474e-08	1.065678e-06	0.01481481	0.003487722
	0.01493224	0.002567967	5.140474e-08	1.065678e-06	-0.1158148	-0.03229349	3.704243e-08	4.406948e-08
	1.952465e-07	-6.762773e-07	0.01481481	0.003487722	3.704243e-08	4.406948e-08	-0.1161693	-0.0302327
3.3e+08	-0.1218843	-0.01778586	3.607681e-09	2.836438e-08	0.01493254	0.0007061529	-2.143061e-09	-7.205308e-07
	3.607681e-09	2.836438e-08	-0.1219856	-0.01552379	7.82838e-08	1.107753e-06	0.01493376	0.001680474
	0.01493254	0.0007061529	7.82838e-08	1.107753e-06	-0.1218882	-0.01737729	7.540612e-09	4.47586e-08
	-2.143061e-09	-7.205308e-07	0.01493376	0.001680474	7.540612e-09	4.47586e-08	-0.121981	-0.01518102
3.4e+08	-0.1237376	-0.001860052	-1.922227e-08	3.553291e-08	0.01440758	-0.001071446	-2.09184e-07	-7.085227e-07
	-1.922227e-08	3.553291e-08	-0.1235441	0.0004654699	1.085728e-07	1.142448e-06	0.0145369	-7.643396e-05
	0.01440758	-0.001071446	1.085728e-07	1.142448e-06	-0.1236897	-0.001433221	-2.25171e-08	5.407286e-08
	-2.09184e-07	-7.085227e-07	0.0145369	-7.643396e-05	-2.25171e-08	5.407286e-08	-0.1234959	0.0008234811
3.5e+08	-0.1212176	0.0139045	-4.049258e-08	4.927735e-08	0.01340264	-0.002627383	-4.099935e-07	-6.384433e-07
	-4.049258e-08	4.927735e-08	-0.120726	0.01621022	1.398975e-07	1.168885e-06	0.01365962	-0.001647693
	0.01340264	-0.002627383	1.398975e-07	1.168885e-06	-0.1211152	0.01433498	-5.065858e-08	7.200229e-08
	-4.099935e-07	-6.384433e-07	0.01365962	-0.001647693	-5.065858e-08	7.200229e-08	-0.120632	0.01657119
3.6e+08	-0.1145426	0.02832571	-5.834485e-08	6.901019e-08	0.01199621	-0.003841291	-5.884244e-07	-5.128531e-07
	-5.834485e-08	6.901019e-08	-0.1137733	0.03052872	1.696843e-07	1.186996e-06	0.01237013	-0.002912203
	0.01199621	-0.003841291	1.696843e-07	1.186996e-06	-0.1143872	0.02874464	-7.447148e-08	9.783958e-08
	-5.884244e-07	-5.128531e-07	0.01237013	-0.002912203	-7.447148e-08	9.783958e-08	-0.1136347	0.03087985
3.7e+08	-0.1042394	0.04032508	-7.113736e-08	9.362682e-08	0.01029513	-0.004616897	-7.292033e-07	-3.387208e-07
	-7.113736e-08	9.362682e-08	-0.103236	0.04234954	1.954557e-07	1.197546e-06	0.01076535	-0.003770023
	0.01029513	-0.004616897	1.954557e-07	1.197546e-06	-0.1040368	0.04071787	-9.179283e-08	1.302144e-07
	-7.292033e-07	-3.387208e-07	0.01076535	-0.003770023	-9.179283e-08	1.302144e-07	-0.1030578	0.04267858
3.8e+08	-0.09110616	0.04900472	-7.758405e-08	1.215832e-07	0.0084286	-0.004888291	-8.191002e-07	-1.271965e-07
	-7.758405e-08	1.215832e-07	-0.08993353	0.05078837	2.151089e-07	1.202045e-06	0.008965788	-0.004148809
	0.0084286	-0.004888291	2.151089e-07	1.202045e-06	-0.0908662	0.0493586	-1.008849e-07	1.671754e-07
	-8.191002e-07	-1.271965e-07	0.008965788	-0.004148809	-1.008849e-07	1.671754e-07	-0.08972403	0.05108461
3.9e+08	-0.07615717	0.05371375	-7.686684e-08	1.510085e-07	0.006540681	-0.004625369	-8.480792e-07	1.069151e-07
	-7.686684e-08	1.510085e-07	-0.07489687	0.0552138	2.271309e-07	1.202553e-06	0.007108817	-0.004009651
	0.006540681	-0.004625369	2.271309e-07	1.202553e-06	-0.0758933	0.05401894	-1.005874e-07	2.06316e-07
	-8.480792e-07	1.069151e-07	0.007108817	-0.004009651	-1.005874e-07	2.06316e-07	-0.07466739	0.05546905
4e+08	-0.06055088	0.05409986	-6.871354e-08	1.79844e-07	0.004781126	-0.003837966	-8.103563e-07	3.460141e-07
	-6.871354e-08	1.79844e-07	-0.05929555	0.05529753	2.307209e-07	1.201449e-06	0.005340117	-0.0033518
	0.004781126	-0.003837966	2.307209e-07	1.201449e-06	-0.06027915	0.05435055	-9.043568e-08	2.449396e-07
	-8.103563e-07	3.460141e-07	0.005340117	-0.0033518	-9.043568e-08	2.449396e-07	-0.05905962	0.05550697
4.1e+08	-0.04550492	0.05014137	-5.343632e-08	2.059981e-07	0.00329441	-0.002577806	-7.052523e-07	5.709055e-07
	-5.343632e-08	2.059981e-07	-0.04435119	0.05104477	2.258098e-07	1.201169e-06	0.003803197	-0.002215413
	0.00329441	-0.002577806	2.258098e-07	1.201169e-06	-0.04524286	0.05033641	-7.073465e-08	2.802563e-07
	-7.052523e-07	5.709055e-07	0.003803197	-0.002215413	-7.073465e-08	2.802563e-07	-0.04412358	0.05120753
4.2e+08	-0.03220288	0.04215552	-3.192794e-08	2.275084e-07	0.00220751	-0.0009372793	-5.377103e-07	7.623061e-07
	-3.192794e-08	2.275084e-07	-0.03124352	0.04280048	2.129925e-07	1.204001e-06	0.002627406	-0.0006812233
	0.00220751	-0.0009372793	2.129925e-07	1.204001e-06	-0.0319681	0.04229885	-4.257932e-08	3.095999e-07
	-5.377103e-07	7.623061e-07	0.002627406	-0.0006812233	-4.257932e-08	3.095999e-07	-0.03103901	0.04291995
4.3e+08	-0.02169944	0.03078018	-5.61584e-09	2.426978e-07	0.00161754	0.0009558248	-3.183438e-07	9.02559e-07
	-5.61584e-09	2.426978e-07	-0.02101531	0.03122866	1.934062e-07	1.211925e-06	0.001915548	0.001133751
	0.00161754	0.0009558248	1.934062e-07	1.211925e-06	-0.02150815	0.03088076	-7.813834e-09	3.306529e-07
	-3.183438e-07	9.02559e-07	0.001915548	0.001133751	-7.813834e-09	3.306529e-07	-0.02084751	0.0313125
4.4e+08	-0.01483224	0.01692778	2.362383e-08	2.503182e-07	0.001580889	0.002947952	-6.291777e-08	9.773921e-07
	2.362383e-08	2.503182e-07	-0.01448487	0.017264	1.685952e-07	1.226535e-06	0.001732707	0.003084893
	0.001580889	0.002947952	1.685952e-07	1.226535e-06	-0.01469785	0.0169991	3.107414e-08	3.416606e-07
	-6.291777e-08	9.773921e-07	0.001732707	0.003084893	3.107414e-08	3.416606e-07	-0.01436496	0.01732367
4.5e+08	-0.01214943	0.001713725	5.35893e-08	2.496697e-07	0.002105716	0.004873292	2.08767e-07	9.775053e-07
	5.35893e-08	2.496697e-07	-0.01217484	0.002038064	1.403973e-07	1.249009e-06	0.002098159	0.005012646
	0.002105716	0.004873292	1.403973e-07	1.249009e-06	-0.01208118	0.00177294	7.11228e-08	3.416148e-07
	2.08767e-07	9.775053e-07	0.002098159	0.005012646	7.11228e-08	3.416148e-07	-0.01211048	0.00208807
4.6e+08	-0.01386101	-0.01363519	8.190903e-08	2.40689e-07	0.003149401	0.006569765	4.745197e-07	8.997593e-07
	8.190903e-08	2.40689e-07	-0.0142655	-0.01321404	1.108679e-07	1.280096e-06	0.002981986	0.006757842
	0.003149401	0.006569765	1.108679e-07	1.280096e-06	-0.01386303	-0.01356858	1.091217e-07	3.303883e-07
	4.745197e-07	8.997593e-07	0.002981986	0.006757842	1.091217e-07	3.303883e-07	-0.01426	-0.01315723
4.7e+08	-0.01982011	-0.02788407	1.062243e-07	2.239954e-07	0.004621832	0.007895366	7.117709e-07	7.477707e-07
	1.062243e-07	2.239954e-07	-0.02057852	-0.02725798	8.223094e-08	1.32009e-06	0.004307351	0.008177644
	0.004621832	0.007895366	8.223094e-08	1.32009e-06	-0.01989081	-0.02778976	1.418784e-07	3.087988e-07
	7.117709e-07	7.477707e-07	0.004307351	0.008177644	1.418784e-07	3.087988e-07	-0.02063037	-0.02717727
4.8e+08	-0.02953676	-0.03989414	1.243887e-07	2.008844e-07	0.006394356	0.008742475	8.997082e-07	5.318006e-07
	1.243887e-07	2.008844e-07	-0.03059345	-0.03896475	5.682694e-08	1.368773e-06	0.00595833	0.009159778
