!$
! Info: Touchstone file created by Circ.  Input file=Tx_16in_Rx_85ohms_TxVia_10mils_RxVia_20mils.circ
!$
# Hz S RI R 50
0	0.01282868	1.064132e-25	0.9870402	-1.163329e-25	9.70247e-05	1.309572e-23	-9.54694e-05	1.219454e-21
	0.9870402	-1.172432e-25	0.01282828	1.38727e-25	-9.533787e-05	1.203603e-21	9.648e-05	1.825778e-23
	9.929775e-05	1.312584e-23	-9.528569e-05	1.197286e-21	0.01282089	9.299095e-26	0.9870104	-1.045112e-25
	-9.587626e-05	1.269354e-21	9.793462e-05	1.879163e-23	0.9870105	-1.090999e-25	0.01283382	1.322557e-25
1e+07	0.0153598	-0.01610048	0.9666017	-0.1689923	0.0006816198	0.002755567	-0.0001153072	0.0001682635
	0.9666017	-0.1689923	0.01534812	-0.0161002	-0.0001153261	0.0001682877	0.0006763984	0.002757415
	0.0006816682	0.00275554	-0.0001152909	0.0001682628	0.01532438	-0.01608834	0.9666219	-0.1690894
	-0.000115272	0.0001682386	0.0006764314	0.002757403	0.9666219	-0.1690894	0.01531283	-0.01608827
2e+07	0.01122171	-0.03558683	0.9188784	-0.3267698	0.002072993	0.005076379	7.6998e-05	0.0003316169
	0.9188784	-0.3267698	0.01117782	-0.03557578	7.701619e-05	0.0003316378	0.002053831	0.00508549
	0.002072984	0.005076354	7.700968e-05	0.0003316104	0.01120023	-0.03554886	0.9188351	-0.3269686
	7.699898e-05	0.000331581	0.002053828	0.005085468	0.9188351	-0.3269686	0.01115727	-0.03553778
3e+07	-0.0005812048	-0.05373363	0.8475716	-0.471712	0.004101288	0.006773012	0.000395555	0.000335819
	0.8475716	-0.471712	-0.0006716798	-0.05369185	0.0003955655	0.0003358075	0.004063029	0.006798283
	0.004101288	0.006773009	0.0003955618	0.0003358044	-0.0005927654	-0.05368182	0.8474429	-0.4719811
	0.0003955511	0.0003358138	0.004063024	0.006798281	0.8474429	-0.4719811	-0.0006799064	-0.05364107
4e+07	-0.01796956	-0.06723398	0.7546151	-0.6014075	0.006519068	0.007687872	0.0007237369	0.0001249546
	0.7546151	-0.6014075	-0.0181104	-0.06713592	0.0007237331	0.0001249322	0.006461112	0.007740102
	0.006519072	0.007687868	0.0007237361	0.0001249318	-0.01797356	-0.06717228	0.7543812	-0.6017214
	0.0007237421	0.0001249571	0.006461112	0.007740103	0.7543812	-0.6017214	-0.0181096	-0.06707765
5e+07	-0.03873251	-0.07451544	0.6429198	-0.7129312	0.00904121	0.007756767	0.0009391712	-0.0002876194
	0.6429198	-0.7129312	-0.03891547	-0.07433509	0.0009391533	-0.0002876607	0.008968053	0.007846573
	0.009041212	0.007756765	0.0009391548	-0.0002876614	-0.03873165	-0.0744443	0.6425656	-0.7132603
	0.0009391747	-0.0002876191	0.008968052	0.007846573	0.6425656	-0.7132603	-0.03890861	-0.07426973
6e+07	-0.06051287	-0.07493146	0.5159133	-0.8038754	0.01138707	0.007015033	0.0009429538	-0.0008286714
	0.5159133	-0.8038754	-0.06071832	-0.0746474	0.0009428965	-0.0008287335	0.01130787	0.007150687
	0.01138707	0.007015035	0.0009428944	-0.000828731	-0.06050791	-0.07484943	0.5154312	-0.8041868
	0.000942949	-0.0008286692	0.01130787	0.007150688	0.5154312	-0.8041868	-0.06070611	-0.07457435
7e+07	-0.08100923	-0.06865295	0.3772941	-0.8724906	0.01331409	0.005584316	0.0006837722	-0.001385661
	0.3772941	-0.8724906	-0.08120881	-0.06825282	0.0006836527	-0.001385715	0.01324139	0.005769977
	0.01331409	0.005584321	0.0006836499	-0.001385708	-0.08099895	-0.06855868	0.3766838	-0.8727503
	0.0006837613	-0.001385652	0.01324139	0.005769981	0.3766838	-0.8727503	-0.08119112	-0.06817176
8e+07	-0.09818757	-0.05655898	0.2308495	-0.9176828	0.01464062	0.003649866	0.0001686361	-0.001834616
	0.2308495	-0.9176828	-0.09834829	-0.05604248	0.0001684639	-0.001834621	0.01458856	0.003884441
	0.01464063	0.003649872	0.000168463	-0.001834611	-0.09816949	-0.05645221	0.2301187	-0.9178567
	0.0001686255	-0.001834601	0.01458856	0.003884446	0.2301187	-0.9178567	-0.09832452	-0.055953
9e+07	-0.1104562	-0.04008801	0.08033054	-0.9389518	0.01525774	0.001434634	-0.0005408179	-0.002068013
	0.08033054	-0.9389518	-0.1105454	-0.03946814	-0.000541003	-0.002067948	0.0152399	0.001711367
	0.01525774	0.001434638	-0.0005410017	-0.00206794	-0.1104274	-0.03997	0.0794946	-0.9390078
	-0.0005408233	-0.002068	0.0152399	0.001711371	0.0794946	-0.9390078	-0.110514	-0.03937002
1e+08	-0.1167905	-0.02105915	-0.0706142	-0.9363126	0.01513439	-0.0008249512	-0.00134826	-0.002016385
	-0.0706142	-0.9363126	-0.1167811	-0.02036152	-0.001348413	-0.002016264	0.01516168	-0.0005181094
	0.01513439	-0.0008249513	-0.001348414	-0.002016265	-0.1167488	-0.02093275	-0.07153228	-0.9362219
	-0.001348261	-0.002016386	0.01516168	-0.0005181095	-0.07153228	-0.9362219	-0.1167398	-0.02025567
1.1e+08	-0.1167803	-0.001467286	-0.2185042	-0.9102591	0.0142983	-0.002919127	-0.002114206	-0.001631861
	-0.2185042	-0.9102591	-0.1166548	-0.0007262669	-0.00211435	-0.00163166	0.01437659	-0.002598662
	0.0142983	-0.002919128	-0.00211435	-0.00163166	-0.1167238	-0.001334768	-0.2194776	-0.909999
	-0.002114206	-0.001631861	0.01437659	-0.002598662	-0.2194776	-0.909999	-0.1166016	-0.0006148995
1.2e+08	-0.1106446	0.01668355	-0.3600009	-0.8616003	0.01283484	-0.004623461	-0.002703839	-0.0009860404
	-0.3600009	-0.8616003	-0.1103989	0.01742484	-0.002703934	-0.0009857645	0.01296441	-0.004307658
	0.01283484	-0.004623461	-0.002703934	-0.0009857646	-0.1105715	0.01681758	-0.3609968	-0.8611515
	-0.00270384	-0.0009860405	0.01296441	-0.004307658	-0.3609968	-0.8611515	-0.1103318	0.01753758
1.3e+08	-0.09921517	0.03157988	-0.4918663	-0.7915617	0.01090157	-0.00576868	-0.003037506	-0.0001664067
	-0.4918663	-0.7915617	-0.098861	0.03227733	-0.003037519	-0.0001660782	0.01107584	-0.005475901
	0.01090157	-0.00576868	-0.003037519	-0.0001660782	-0.09912557	0.03170958	-0.4928474	-0.7909118
	-0.003037506	-0.0001664067	0.01107584	-0.005475901	-0.4928474	-0.7909118	-0.0987803	0.03238638
1.4e+08	-0.0838273	0.0417648	-0.6110081	-0.7017663	0.008694465	-0.006238036	-0.003074522	0.0007138985
	-0.6110081	-0.7017663	-0.08339275	0.04237907	-0.003074434	0.000714247	0.008900119	-0.005984148
	0.008694465	-0.006238036	-0.003074434	0.000714247	-0.08372398	0.04188399	-0.6119337	-0.7009099
	-0.003074522	0.0007138985	0.008900119	-0.005984148	-0.6119337	-0.7009099	-0.0833008	0.04247928
1.5e+08	-0.06619457	0.04627124	-0.7145039	-0.594265	0.006437276	-0.005977027	-0.002824959	0.001537496
	-0.7145039	-0.594265	-0.0657217	0.04677346	-0.002824767	0.001537827	0.006655329	-0.005773014
	0.006437276	-0.005977027	-0.002824767	0.001537827	-0.06608283	0.04637449	-0.7153318	-0.5932048
	-0.002824959	0.001537496	0.006655329	-0.005773014	-0.7153318	-0.5932048	-0.06562299	0.04686044
1.6e+08	-0.04824415	0.04471628	-0.799667	-0.4715696	0.004364052	-0.005001837	-0.002346281	0.002205721
	-0.799667	-0.4715696	-0.04778513	0.0450929	-0.002345998	0.002205999	0.004571718	-0.00485184
	0.004364053	-0.005001837	-0.002345998	0.002205999	-0.04813159	0.04480004	-0.8003543	-0.4703166
	-0.002346281	0.002205721	0.004571718	-0.00485184	-0.8003543	-0.4703166	-0.04768594	0.04516384
1.7e+08	-0.0319267	0.03734442	-0.8641453	-0.3366672	0.00269707	-0.003403123	-0.00172955	0.002657623
	-0.8641453	-0.3366672	-0.03153816	0.03760062	-0.001729201	0.002657825	0.002870259	-0.003303194
	0.00269707	-0.003403123	-0.001729202	0.002657825	-0.03182242	0.03740794	-0.8646505	-0.3352411
	-0.00172955	0.002657623	0.002870259	-0.003303194	-0.8646505	-0.3352411	-0.03144593	0.037655
1.8e+08	-0.01901573	0.02501001	-0.9060463	-0.1929981	0.001621786	-0.001342129	-0.001078125	0.002880584
	-0.9060463	-0.1929981	-0.01875198	0.02517098	-0.001077743	0.0028807	0.001738004	-0.001279896
	0.001621786	-0.001342129	-0.001077743	0.0028807	-0.0189292	0.02505593	-0.9063306	-0.1914272
	-0.001078125	0.002880584	0.001738005	-0.001279896	-0.9063306	-0.1914272	-0.01867442	0.02521101
1.9e+08	-0.01091713	0.009093779	-0.9240673	-0.04438463	0.001262346	0.0009630893	-0.0004835951	0.00290963
	-0.9240673	-0.04438463	-0.01082304	0.009203615	-0.0004832086	0.002909666	0.001303646	0.001007724
	0.001262346	0.0009630892	-0.0004832086	0.002909666	-0.01085689	0.0091282	-0.9240966	-0.04270535
	-0.0004835951	0.00290963	0.001303646	0.001007724	-0.9240966	-0.04270535	-0.01076714	0.009234313
2e+08	-0.008512977	-0.00864279	-0.9176091	0.1050923	0.001662523	0.003261453	-4.827625e-06	0.002815148
	-0.9176091	0.1050923	-0.008617416	-0.008524838	-4.455463e-06	0.002815123	0.001618141	0.003314575
	0.001662523	0.003261453	-4.455481e-06	0.002815123	-0.008485354	-0.008610703	-0.9173559	0.106836
	-4.827644e-06	0.002815148	0.001618141	0.003314575	-0.9173559	0.106836	-0.008588362	-0.008495965
2.1e+08	-0.01206224	-0.02625149	-0.8868495	0.2512588	0.002776905	0.005299932	0.0003443109	0.002681825
	-0.8868495	0.2512588	-0.01237303	-0.02605701	0.0003446651	0.00268176	0.002645223	0.005390978
	0.002776905	0.005299932	0.0003446651	0.00268176	-0.01207025	-0.02621039	-0.8862943	0.2530168
	0.0003443109	0.002681825	0.002645223	0.005390978	-0.8862943	0.2530168	-0.01237333	-0.02602064
2.2e+08	-0.02117466	-0.04181591	-0.8327597	0.3900375	0.004475352	0.00685666	0.000595143	0.002584316
	-0.8327597	0.3900375	-0.02167584	-0.04147498	0.0005954905	0.00258423	0.004264871	0.007015156
	0.004475352	0.00685666	0.0005954905	0.00258423	-0.02121729	-0.04175352	-0.8318925	0.3917554
	0.000595143	0.002584316	0.004264871	0.007015156	-0.8318925	0.3917554	-0.02170472	-0.04142099
2.3e+08	-0.03486272	-0.05366519	-0.7570573	0.517635	0.006560591	0.00776972	0.0008122385	0.002566255
	-0.7570573	0.517635	-0.03551469	-0.05311474	0.0008126001	0.00256615	0.006289724	0.008021776
	0.006560591	0.00776972	0.0008126001	0.00256615	-0.03493472	-0.05356975	-0.7558782	0.5192558
	0.0008122385	0.002566255	0.006289724	0.008021776	-0.7558782	0.5192558	-0.03556787	-0.05303339
2.4e+08	-0.05166354	-0.06055388	-0.6621032	0.6307001	0.008795528	0.007956143	0.001072824	0.002628256
	-0.6621032	0.6307001	-0.05240613	-0.05974568	0.001073222	0.002628122	0.008491169	0.00832112
	0.008795528	0.007956143	0.001073222	0.002628122	-0.05175572	-0.06041568	-0.6606233	0.6321663
	0.001072824	0.002628256	0.008491169	0.00832112	-0.6606233	0.6321663	-0.05247605	-0.05962887
2.5e+08	-0.06981179	-0.06178562	-0.5507607	0.7264365	0.01093467	0.007418198	0.001443383	0.002727822
	-0.5507607	0.7264365	-0.07056998	-0.06069288	0.00144383	0.002727629	0.01062966	0.007905995
	0.01093467	0.007418198	0.00144383	0.002727629	-0.06991182	-0.06159824	-0.5490014	0.7276923
	0.001443383	0.002727822	0.01062966	0.007905995	-0.5490014	0.7276923	-0.07064644	-0.06053519
2.6e+08	-0.08743775	-0.0572687	-0.4262387	0.8026591	0.01275369	0.006237351	0.001959712	0.002790569
	-0.4262387	0.8026591	-0.08812945	-0.05589036	0.001960206	0.002790278	0.01248343	0.006846654
	0.01275369	0.006237351	0.001960206	0.002790278	-0.08753144	-0.05703001	-0.4242318	0.8036521
	0.001959712	0.002790569	0.01248343	0.006846654	-0.4242318	0.8036521	-0.08820065	-0.05568993
2.7e+08	-0.102765	-0.04750316	-0.2919446	0.8577995	0.01407262	0.004558875	0.002615247	0.002729266
	-0.2919446	0.8577995	-0.1033098	-0.04586544	0.002615764	0.002728838	0.01387124	0.005276624
	0.01407262	0.004558875	0.002615764	0.002728838	-0.1028377	-0.04721581	-0.2897311	0.8584827
	0.002615247	0.002729266	0.01387124	0.005276624	-0.2897311	0.8584827	-0.1033635	-0.0456244
2.8e+08	-0.1142853	-0.0335083	-0.1513625	0.8908726	0.01477056	0.002571385	0.003359893	0.002465574
	-0.1513625	0.8908726	-0.1146136	-0.03166323	0.003360388	0.002464976	0.01466702	0.003373554
	0.01477056	0.002571385	0.003360388	0.002464976	-0.1143237	-0.03317971	-0.148992	0.8912058
	0.003359893	0.002465574	0.01466702	0.003373554	-0.148992	0.8912058	-0.1146387	-0.03138769
2.9e+08	-0.1208967	-0.01670481	-0.007966592	0.9014228	0.01479211	0.0004852967	0.004108868	0.001949349
	-0.007966592	0.9014228	-0.1209577	-0.01472591	0.004109282	0.001948571	0.0148067	0.001338931
	0.01479211	0.0004852967	0.004109282	0.001948571	-0.1208901	-0.01634661	-0.005495843	0.9013739
	0.004108868	0.001949349	0.0148067	0.001338931	-0.005495843	0.9013739	-0.1209452	-0.01442556
3e+08	-0.1219961	0.001232734	0.1348311	0.8894676	0.01414728	-0.001487141	0.004759	0.001171567
	0.1348311	0.8894676	-0.1217644	0.003257227	0.004759266	0.00117062	0.01428898	-0.000620808
	0.01414728	-0.001487141	0.004759266	0.00117062	-0.121938	0.001605674	0.1373395	0.8890136
	0.004759	0.001171567	0.01428898	-0.000620808	0.1373395	0.8890136	-0.1217086	0.003569968
3.1e+08	-0.1175243	0.01853833	0.2737064	0.8554537	0.01290704	-0.003149148	0.00520873	0.0001685927
	0.2737064	0.8554537	-0.1170037	0.02051408	0.005208787	0.0001675158	0.01317189	-0.002310809
	0.01290704	-0.003149148	0.005208787	0.0001675158	-0.117413	0.01890933	0.2761852	0.8545817
	0.00520873	0.0001685927	0.01317189	-0.002310809	0.2761852	0.8545817	-0.1169033	0.02082523
3.2e+08	-0.1079636	0.03351953	0.4054349	0.8002344	0.0111959	-0.004334229	0.005377782	-0.0009826528
	0.4054349	0.8002344	-0.1071887	0.03535576	0.005377585	-0.0009837988	0.01156674	-0.003562225
	0.0111959	-0.004334229	0.005377585	-0.0009837988	-0.1078029	0.03387169	0.4078138	0.7989426
	0.005377782	-0.0009826528	0.01156674	-0.003562225	0.4078138	0.7989426	-0.1070469	0.03565113
3.3e+08	-0.09429073	0.04471407	0.5269057	0.7250697	0.009182286	-0.00491912	0.005222783	-0.002177522
	0.5269057	0.7250697	-0.09332481	0.04633343	0.005222309	-0.002178661	0.00962991	-0.004245196
	0.009182286	-0.00491912	0.005222309	-0.002178661	-0.09409	0.04503215	0.5291128	0.7233678
	0.005222783	-0.002177522	0.00962991	-0.004245196	0.5291128	0.7233678	-0.09314933	0.04660021
3.4e+08	-0.07788738	0.05102832	0.635149	0.6316444	0.007066131	-0.004835133	0.004745843	-0.003302029
	0.635149	0.6316444	-0.07681746	0.05237592	0.004745099	-0.003303082	0.007551726	-0.004280674
	0.007066131	-0.004835133	0.004745099	-0.003303082	-0.07766068	0.05130048	0.6371128	0.6295547
	0.004745843	-0.003302029	0.007551727	-0.004280674	0.6371128	0.6295547	-0.07662016	0.05260419
3.5e+08	-0.06041311	0.05184663	0.7273904	0.5220927	0.005062994	-0.004077231	0.003994288	-0.004253373
	0.7273904	0.5220927	-0.0593421	0.05289739	0.003993308	-0.004254269	0.005541788	-0.003650394
	0.005062994	-0.004077231	0.003993308	-0.004254269	-0.0601781	0.05206584	0.7290418	0.51965
	0.003994288	-0.004253373	0.005541788	-0.003650394	0.7290418	0.51965	-0.05913782	0.05308125
3.6e+08	-0.04364732	0.04710075	0.8011318	0.3990143	0.003384321	-0.002709092	0.003051225	-0.004958478
	0.8011318	0.3990143	-0.04268387	0.04786393	0.003050064	-0.004959163	0.00381006	-0.002403198
	0.003384321	-0.002709092	0.003050064	-0.004959163	-0.04342355	0.04726592	0.8024064	0.3962659
	0.003051225	-0.004958478	0.00381006	-0.002403198	0.8024064	0.3962659	-0.04248903	0.04800249
3.7e+08	-0.02931188	0.03728849	0.8542592	0.2654653	0.002214751	-0.0008617858	0.002018498	-0.0053865
	0.8542592	0.2654653	-0.02855886	0.03780884	0.002017222	-0.005386949	0.002544609	-0.0006552175
	0.002214751	-0.0008617858	0.002017222	-0.005386949	-0.02911885	0.03740499	0.8550999	0.2624707
	0.002018498	-0.0053865	0.002544609	-0.0006552175	0.8550999	0.2624707	-0.02838984	0.03790666
3.8e+08	-0.01889101	0.0234343	0.8851617	0.124911	0.001688992	0.00127606	0.0009955007	-0.005552128
	0.8851617	0.124911	-0.01843383	0.02378925	0.0009941712	-0.005552338	0.001888393	0.001418326
	0.001688992	0.00127606	0.0009941712	-0.005552338	-0.01874597	0.02351377	0.8855208	0.1217407
	0.0009955007	-0.005552128	0.001888393	0.001418326	0.8855208	0.1217407	-0.01830512	0.02385618
3.9e+08	-0.01346883	0.006990179	0.8928459	-0.01886698	0.001872236	0.003477294	5.869449e-05	-0.005508426
	0.8928459	-0.01886698	-0.01336502	0.007283143	5.736184e-05	-0.005508419	0.001919039	0.003600594
	0.001872236	0.003477294	5.736185e-05	-0.005508419	-0.01338477	0.007049676	0.892688	-0.02213297
	5.869449e-05	-0.005508426	0.001919039	0.003600594	0.892688	-0.02213297	-0.01328745	0.007333578
4e+08	-0.0136065	-0.01031582	0.877025	-0.1619061	0.002748478	0.00550294	-0.0007529913	-0.005330613
	0.877025	-0.1619061	-0.01387779	-0.009965551	-0.000754298	-0.005330419	0.002636019	0.005658521
	0.002748478	0.00550294	-0.000754298	-0.005330419	-0.01359042	-0.01025543	0.8763286	-0.1651807
	-0.0007529913	-0.005330613	0.002636019	0.005658521	0.8763286	-0.1651807	-0.01385716	-0.009914023
4.1e+08	-0.01927743	-0.02666705	0.8381631	-0.3002301	0.004220164	0.007132634	-0.001442962	-0.005094749
	0.8381631	-0.3002301	-0.01990565	-0.0261368	-0.001444235	-0.005094394	0.003958724	0.007372354
	0.004220164	0.007132634	-0.001444235	-0.005094394	-0.01932925	-0.0265832	0.8369222	-0.3034217
	-0.001442962	-0.005094749	0.003958724	0.007372354	0.8369222	-0.3034217	-0.01994178	-0.02606518
4.2e+08	-0.02987138	-0.04035795	0.7774644	-0.430026	0.006120168	0.008193307	-0.002050594	-0.004856946
	0.7774644	-0.430026	-0.03079875	-0.03953508	-0.002051843	-0.004856446	0.005736622	0.008564027
	0.006120168	0.008193307	-0.002051843	-0.004856446	-0.02998362	-0.04022881	0.7756894	-0.4330418
	-0.002050594	-0.004856946	0.005736622	0.008564027	0.7756894	-0.4330418	-0.03088522	-0.03942503
4.3e+08	-0.04426729	-0.04997926	0.6968079	-0.54781	0.008234205	0.008580717	-0.002635511	-0.004638696
	0.6968079	-0.54781	-0.04540127	-0.0487739	-0.00263675	-0.004638045	0.0077698	0.009119009
	0.008234205	0.008580717	-0.00263675	-0.004638045	-0.04442558	-0.04978615	0.6945254	-0.550559
	-0.002635511	-0.004638696	0.0077698	0.009119009	0.6945254	-0.550559	-0.04552583	-0.04860979
4.4e+08	-0.06096378	-0.05456454	0.5986358	-0.650559	0.01032927	0.008270065	-0.003256937	-0.004422076
	0.5986358	-0.650559	-0.06218596	-0.05292016	-0.003258172	-0.004421248	0.009835731	0.008997864
	0.01032927	0.008270065	-0.003258172	-0.004421248	-0.06114817	-0.0542941	0.5958882	-0.652955
	-0.003256937	-0.004422076	0.009835731	0.008997864	0.5958882	-0.652955	-0.06233172	-0.05269087
4.5e+08	-0.07824782	-0.05368133	0.485816	-0.7357966	0.01218267	0.007314745	-0.003953762	-0.004155744
	0.485816	-0.7357966	-0.07942587	-0.05158173	-0.003954979	-0.004154695	0.01171701	0.008236476
	0.01218267	0.007314745	-0.003954979	-0.004154695	-0.07843474	-0.05332713	0.4826605	-0.7377612
	-0.003953762	-0.004155744	0.01171701	0.008236476	0.4826605	-0.7377612	-0.0795729	-0.05128203
4.6e+08	-0.09437816	-0.04745973	0.3614993	-0.8016296	0.01360669	0.005834934	-0.004730392	-0.003769644
	0.3614993	-0.8016296	-0.09537949	-0.04493185	-0.004731551	-0.00376833	0.01322532	0.006936468
	0.01360669	0.005834934	-0.004731551	-0.00376833	-0.0945428	-0.04702313	0.3580057	-0.803094
	-0.004730392	-0.003769644	0.01322532	0.006936468	0.3580057	-0.803094	-0.0955069	-0.04456312
4.7e+08	-0.1077615	-0.03656095	0.2289893	-0.846741	0.01446601	0.003999592	-0.005551558	-0.003194317
	0.2289893	-0.846741	-0.1084671	-0.03367317	-0.005552589	-0.003192704	0.01421875	0.005249172
	0.01446601	0.003999592	-0.005552589	-0.003192704	-0.1078804	-0.0360512	0.2252383	-0.8476484
	-0.005551558	-0.003194317	0.01421875	0.005249172	0.2252383	-0.8476484	-0.1085552	-0.03324342
4.8e+08	-0.1171038	-0.02209548	0.09163945	-0.8703539	0.01468687	0.002005784	-0.006346738	-0.002380012
	0.09163945	-0.8703539	-0.1174208	-0.01895157	-0.006347549	-0.002378092	0.01461155	0.003356834
	0.01468687	0.002005784	-0.006347549	-0.002378092	-0.1171572	-0.02152898	0.08772087	-0.8706606
	-0.006346738	-0.002380013	0.01461155	0.003356834	0.08772087	-0.8706606	-0.1174531	-0.01847482
4.9e+08	-0.1215246	-0.005503895	-0.04721752	-0.8721819	0.01425915	5.850679e-05	-0.007022676	-0.001311376
	-0.04721752	-0.8721819	-0.1213965	-0.002233342	-0.007023165	-0.001309175	0.01437734	0.001454054
	0.01425915	5.850679e-05	-0.007023165	-0.001309175	-0.1214988	-0.004902721	-0.05120722	-0.8718586
	-0.007022676	-0.001311376	0.01437734	0.001454054	-0.05120722	-0.8718586	-0.1213616	-0.001728359
5e+08	-0.1206298	0.01158566	-0.1843125	-0.8523821	0.01323327	-0.001647198	-0.007480929	-1.487742e-05
	-0.1843125	-0.8523821	-0.1200431	0.01484	-0.007480999	-1.246233e-05	0.01354755	-0.0002689427
	0.01323327	-0.001647198	-0.007480999	-1.246234e-05	-0.1205183	0.0121958	-0.188272	-0.8514145
	-0.007480929	-1.487742e-05	0.01354755	-0.0002689427	-0.188272	-0.8514145	-0.119936	0.01535148
5.1e+08	-0.1145394	0.02751067	-0.3164615	-0.8115214	0.01171351	-0.002941426	-0.007636767	0.001442211
	-0.3164615	-0.8115214	-0.1135264	0.0306066	-0.007636341	0.001444738	0.0122067	-0.001640862
