!$
! Info: Touchstone file created by Circ.  Input file=Tx_14in_Rx_93ohms_TxVia_10mils_RxVia_20mils.circ
!$
# Hz S RI R 50
0	0.01280107	8.756542e-26	-7.485356e-05	1.39157e-25	8.748306e-05	1.359431e-23	-7.487885e-05	2.925556e-24
	-7.485358e-05	1.410417e-25	0.0128017	1.226144e-25	-7.484591e-05	3.345672e-26	8.557731e-05	1.821987e-23
	8.618304e-05	1.324582e-23	-7.484591e-05	3.361944e-26	0.01281619	9.167129e-26	-7.485539e-05	3.274159e-25
	-7.487884e-05	2.923983e-24	8.703194e-05	1.875261e-23	-7.485536e-05	3.241268e-25	0.01280724	1.169054e-25
1e+07	0.01812763	-0.002166171	-0.0003452387	2.540587e-05	0.000540845	0.002472782	-6.913161e-05	-6.19754e-06
	-0.0003452387	2.540586e-05	0.01849834	-0.002213859	-0.0001766861	0.0001024385	0.000535183	0.002465069
	0.0005408008	0.002472785	-0.0001766861	0.0001024385	0.01851644	-0.002233469	-0.0003447768	2.856514e-05
	-6.913161e-05	-6.197537e-06	0.0005352162	0.002465058	-0.0003447768	2.856514e-05	0.0181309	-0.002209532
2e+07	0.02040791	-0.009028446	-0.0002948127	-2.804596e-05	0.001498361	0.004797832	-4.14234e-05	-7.10715e-05
	-0.0002948127	-2.804596e-05	0.02063796	-0.009232156	-0.0001680084	8.279027e-05	0.001483462	0.004787436
	0.001498351	0.00479786	-0.0001680084	8.279027e-05	0.02066507	-0.009275252	-0.0002937095	-3.412285e-05
	-4.142339e-05	-7.10715e-05	0.001483459	0.004787414	-0.0002937095	-3.412284e-05	0.02037015	-0.009105334
3e+07	0.01935564	-0.01721114	-0.000265892	-4.845883e-05	0.003129793	0.006601999	-5.638502e-05	-8.2763e-05
	-0.000265892	-4.845883e-05	0.01945469	-0.01744928	-0.0001493429	9.057686e-05	0.003080284	0.006606637
	0.003129793	0.006602003	-0.0001493429	9.057686e-05	0.01949482	-0.01752241	-0.0002640039	-5.618549e-05
	-5.638502e-05	-8.2763e-05	0.003080279	0.006606634	-0.0002640039	-5.618549e-05	0.01926005	-0.01730158
4e+07	0.0156193	-0.02497178	-0.0002452	-5.325245e-05	0.005213521	0.007813458	-9.739437e-05	-6.475622e-05
	-0.0002452	-5.325245e-05	0.01559489	-0.02519288	-0.0001262272	9.359153e-05	0.005139573	0.007840399
	0.005213517	0.007813456	-0.0001262272	9.359153e-05	0.01564841	-0.02530484	-0.0002430029	-6.235855e-05
	-9.739437e-05	-6.475622e-05	0.005139572	0.0078404	-0.0002430029	-6.235855e-05	0.01545344	-0.02505432
5e+07	0.009730164	-0.03147351	-0.0002285817	-5.159002e-05	0.007509747	0.008383527	-0.0001275672	-3.522783e-05
	-0.0002285817	-5.159002e-05	0.009596411	-0.03163802	-0.0001037717	8.695333e-05	0.007414096	0.008443222
	0.007509745	0.008383527	-0.0001037717	8.695333e-05	0.009659317	-0.03179807	-0.0002264227	-6.194223e-05
	-0.0001275672	-3.522783e-05	0.007414096	0.008443222	-0.0002264227	-6.194223e-05	0.009489166	-0.03152133
6e+07	0.002277682	-0.036163	-0.0002134718	-4.684639e-05	0.009833625	0.008287296	-0.0001465528	1.979307e-06
	-0.0002134718	-4.684639e-05	0.002056156	-0.03623935	-8.746593e-05	7.034049e-05	0.009722665	0.008388989
	0.00983363	0.008287294	-8.746593e-05	7.034049e-05	0.002120163	-0.03645528	-0.0002116231	-5.834287e-05
	-0.0001465528	1.979307e-06	0.009722662	0.00838899	-0.0002116231	-5.834287e-05	0.00196704	-0.0361489
7e+07	-0.006090814	-0.03870674	-0.0001981543	-4.100428e-05	0.01200063	0.007550898	-0.0001537214	4.396409e-05
	-0.0001981543	-4.100428e-05	-0.006371878	-0.03867174	-8.230144e-05	4.630735e-05	0.01188395	0.007701474
	0.01200064	0.007550891	-8.230144e-05	4.630735e-05	-0.006318594	-0.03894826	-0.0001968283	-5.35418e-05
	-0.0001537214	4.396409e-05	0.01188395	0.007701476	-0.0001968283	-5.35418e-05	-0.006456807	-0.03860696
8e+07	-0.01470398	-0.03897554	-0.0001813356	-3.559033e-05	0.01384181	0.006249789	-0.0001482774	8.808667e-05
	-0.0001813356	-3.559033e-05	-0.01501146	-0.03881554	-9.197261e-05	1.95052e-05	0.01373137	0.006452756
	0.01384182	0.006249778	-9.197261e-05	1.95052e-05	-0.01498296	-0.03915296	-0.0001806768	-4.905547e-05
	-0.0001482774	8.808667e-05	0.01373136	0.00645276	-0.0001806768	-4.905547e-05	-0.01510396	-0.03877173
9e+07	-0.02290825	-0.03703188	-0.0001615134	-3.191192e-05	0.01521706	0.004502076	-0.0001288994	0.0001316625
	-0.0001615134	-3.191192e-05	-0.02320628	-0.03674352	-0.00011846	-4.21368e-06	0.01512606	0.004756875
	0.01521707	0.004502066	-0.00011846	-4.213681e-06	-0.02321721	-0.03713707	-0.0001657394	-3.43825e-05
	-0.0001288994	0.0001316625	0.01512606	0.004756879	-0.0001657394	-3.43825e-05	-0.02331528	-0.03671285
1e+08	-0.03009356	-0.03310796	-0.0001401475	9.093263e-06	0.01602467	0.002457723	-8.94626e-05	0.000171693
	-0.0001401475	9.093263e-06	-0.03034274	-0.03269791	-0.0001645953	-1.954951e-05	0.01596666	0.002759449
	0.01602467	0.002457724	-0.0001645953	-1.954951e-05	-0.03040649	-0.03313749	-0.0001463945	2.296558e-05
	-8.94626e-05	0.000171693	0.01596666	0.002759449	-0.0001463945	2.296558e-05	-0.03047692	-0.03267153
1.1e+08	-0.03581706	-0.02770611	-0.0001102105	3.021246e-05	0.01620956	0.0002943773	-4.073088e-05	0.0001804235
	-0.0001102105	3.021246e-05	-0.03598937	-0.02720866	-0.0002185867	-3.471e-05	0.01619522	0.0006312643
	0.01620956	0.0002943774	-0.0002185867	-3.471e-05	-0.03611609	-0.0276824	-0.0001129904	4.472122e-05
	-4.073088e-05	0.0001804235	0.01619522	0.0006312642	-0.0001129904	4.472122e-05	-0.03614693	-0.02716152
1.2e+08	-0.03980401	-0.02117904	-8.903046e-05	4.329665e-05	0.01577411	-0.001813945	-1.186184e-06	0.0001798427
	-8.903046e-05	4.329665e-05	-0.03988936	-0.02061854	-0.0002731802	-2.946079e-05	0.01581027	-0.001454379
	0.01577411	-0.001813945	-0.0002731802	-2.946079e-05	-0.04008648	-0.02110661	-8.889443e-05	5.781269e-05
	-1.186184e-06	0.0001798427	0.01581027	-0.001454379	-8.889443e-05	5.781269e-05	-0.04005424	-0.02054446
1.3e+08	-0.04181251	-0.0140623	-7.073087e-05	5.143064e-05	0.01476156	-0.003699669	3.399976e-05	0.00017263
	-7.073087e-05	5.143064e-05	-0.04180264	-0.01346586	-0.0003265087	-3.812045e-06	0.01485168	-0.003332328
	0.01476156	-0.003699669	-0.0003265087	-3.812045e-06	-0.04207066	-0.01394607	-6.792523e-05	6.547838e-05
	3.399976e-05	0.00017263	0.01485168	-0.003332328	-6.792523e-05	6.547838e-05	-0.04196302	-0.01336402
1.4e+08	-0.04178542	-0.006928062	-5.471092e-05	5.585359e-05	0.01325975	-0.005214323	6.190674e-05	0.0001611413
	-5.471092e-05	5.585359e-05	-0.0416792	-0.00632507	-0.0003729316	4.11273e-05	0.01340269	-0.004855373
	0.01325975	-0.005214323	-0.0003729316	4.11273e-05	-0.04201141	-0.006775162	-4.946739e-05	6.901081e-05
	6.190674e-05	0.0001611413	0.01340269	-0.004855373	-4.946739e-05	6.901081e-05	-0.04182487	-0.006198276
1.5e+08	-0.03982878	-0.0003323616	-4.08143e-05	5.754725e-05	0.011393	-0.006240055	7.591425e-05	0.0001515095
	-4.08143e-05	5.754725e-05	-0.03963351	0.0002477175	-0.0004069914	0.0001023319	0.01158259	-0.005905419
	0.011393	-0.006240055	-0.0004069914	0.0001023319	-0.04001623	-0.0001520861	-3.339523e-05	6.943204e-05
	7.591425e-05	0.0001515095	0.01158259	-0.005905418	-3.339523e-05	6.943204e-05	-0.03975624	0.0003936831
1.6e+08	-0.03619598	0.005227643	-2.91137e-05	5.739824e-05	0.009312242	-0.006698029	8.946625e-05	0.0001405034
	-2.91137e-05	5.739824e-05	-0.03592757	0.005757836	-0.0004244609	0.0001751397	0.009537385	-0.006401786
	0.009312242	-0.006698029	-0.0004244609	0.0001751397	-0.03634089	0.00542438	-1.982664e-05	6.767966e-05
	8.946625e-05	0.0001405034	0.009537385	-0.006401786	-1.982664e-05	6.767966e-05	-0.03602165	0.005914981
1.7e+08	-0.03126335	0.009350033	-1.938724e-05	5.621946e-05	0.007183478	-0.006553905	0.0001021542	0.0001281124
	-1.938724e-05	5.621946e-05	-0.03094559	0.009808445	-0.0004229391	0.0002538658	0.007428736	-0.006306762
	0.007183478	-0.006553905	-0.0004229391	0.0002538658	-0.03136468	0.009551486	-8.585143e-06	6.462516e-05
	0.0001021542	0.0001281124	0.007428736	-0.006306762	-8.585143e-06	6.462516e-05	-0.03100822	0.009967426
1.8e+08	-0.02549792	0.01175629	-1.124472e-05	5.464568e-05	0.005175248	-0.005820157	0.0001136524	0.0001144143
	-1.124472e-05	5.464568e-05	-0.02516093	0.01212844	-0.0004020856	0.0003325755	0.005421928	-0.005628133
	0.005175248	-0.005820157	-0.0004020856	0.0003325755	-0.02555779	0.01195079	6.807768e-07	6.097388e-05
	0.0001136524	0.0001144143	0.005421928	-0.005628133	6.807768e-07	6.097388e-05	-0.02519242	0.01227948
1.9e+08	-0.01941954	0.01230971	-4.176198e-06	5.307755e-05	0.003445888	-0.00455504	0.0001236984	9.955148e-05
	-4.176198e-06	5.307755e-05	-0.0190975	0.01259036	-0.0003635136	0.0004058652	0.003673499	-0.004418504
	0.003445888	-0.00455504	-0.0003635136	0.0004058652	-0.01944312	0.01248658	8.455732e-06	5.720732e-05
	0.0001236984	9.955148e-05	0.003673499	-0.004418504	8.455732e-06	5.720732e-05	-0.01910119	0.01272418
2e+08	-0.01355979	0.01102289	2.363244e-06	5.165301e-05	0.002131407	-0.002858201	0.0001320873	8.371049e-05
	2.363244e-06	5.165301e-05	-0.01328812	0.0112172	-0.0003103851	0.0004695199	0.00231939	-0.002771369
	0.002131407	-0.002858201	-0.0003103851	0.0004695199	-0.01355496	0.0111733	1.527757e-05	5.355031e-05
	0.0001320873	8.371049e-05	0.00231939	-0.002771369	1.527757e-05	5.355031e-05	-0.01327007	0.01132589
2.1e+08	-0.008420724	0.008054005	8.85527e-06	5.025649e-05	0.001334849	-0.000863103	0.0001386664	6.710818e-05
	8.85527e-06	5.025649e-05	-0.008232952	0.008177742	-0.0002467853	0.0005209452	0.001464439	-0.0008140721
	0.001334849	-0.000863103	-0.0002467853	0.0005209452	-0.008397458	0.008171618	2.164182e-05	4.997414e-05
	0.0001386664	6.710818e-05	0.001464439	-0.0008140721	2.164182e-05	4.997414e-05	-0.008201443	0.008255484
2.2e+08	-0.004436401	0.003691874	1.562677e-05	4.856934e-05	0.001118031	0.001273309	0.000143332	4.997862e-05
	1.562677e-05	4.856934e-05	-0.004360999	0.003770756	-0.000176995	0.0005593048	0.001174075	0.001301965
	0.001118031	0.001273309	-0.000176995	0.0005593048	-0.004405985	0.003773386	2.791019e-05	4.624014e-05
	0.000143332	4.997862e-05	0.001174075	0.001301965	2.791019e-05	4.624014e-05	-0.004325784	0.0038144
2.3e+08	-0.00194008	-0.001668688	2.2784e-05	4.615456e-05	0.001496404	0.003382997	0.0001460246	3.256318e-05
	2.2784e-05	4.615456e-05	-0.001997553	-0.001600643	-0.0001047907	0.000585355	0.001468973	0.003413096
	0.001496404	0.003382997	-0.0001047907	0.000585355	-0.001914246	-0.001623305	3.424187e-05	4.197781e-05
	0.0001460246	3.256318e-05	0.001468973	0.003413096	3.424187e-05	4.197781e-05	-0.001969026	-0.001591262
2.4e+08	-0.001139696	-0.00755958	3.01856e-05	4.256146e-05	0.002437608	0.005300343	0.0001467248	1.510385e-05
	3.01856e-05	4.256146e-05	-0.001340201	-0.007462548	-3.287168e-05	0.0006010138	0.002323254	0.005356494
	0.002437608	0.005300343	-3.287168e-05	0.0006010138	-0.001129687	-0.00754707	4.05614e-05	3.67842e-05
	0.0001467248	1.510385e-05	0.002323254	0.005356494	4.05614e-05	3.67842e-05	-0.001328488	-0.007484532
2.5e+08	-0.002103432	-0.01347745	3.746179e-05	3.743512e-05	0.003863996	0.006875636	0.0001454479	-2.16387e-06
	3.746179e-05	3.743512e-05	-0.002445186	-0.01330896	3.742079e-05	0.000608756	0.003666501	0.006983292
	0.003863996	0.006875636	3.742079e-05	0.000608756	-0.002119101	-0.01349153	4.657072e-05	3.033042e-05
	0.0001454479	-2.16387e-06	0.003666501	0.006983292	4.657072e-05	3.033042e-05	-0.002459259	-0.01335655
2.6e+08	-0.004756534	-0.01892398	4.392933e-05	3.064487e-05	0.00565899	0.007987344	0.00014224	-1.901517e-05
	4.392933e-05	3.064487e-05	-0.005225177	-0.01864258	0.0001225638	0.0006023511	0.005389537	0.008170654
	0.00565899	0.007987344	0.0001225638	0.0006023511	-0.004805521	-0.01895589	5.165497e-05	2.248603e-05
	0.00014224	-1.901517e-05	0.005389537	0.008170655	5.165497e-05	2.248603e-05	-0.005272082	-0.01870754
2.7e+08	-0.008889477	-0.02344526	4.912176e-05	2.226558e-05	0.007676781	0.008552019	0.0001371688	-3.523464e-05
	4.912176e-05	2.226558e-05	-0.009458626	-0.02301413	0.0002069729	0.0005860607	0.007353475	0.008831674
	0.007676781	0.008552019	0.0002069729	0.0005860607	-0.008976668	-0.0234844	5.540907e-05	1.331518e-05
	0.0001371688	-3.523464e-05	0.007353475	0.008831674	5.540907e-05	1.331518e-05	-0.009542766	-0.02308647
2.8e+08	-0.01417668	-0.02666685	5.249594e-05	1.261886e-05	0.009754478	0.008530928	0.0001303264	-5.061921e-05
	5.249594e-05	1.261886e-05	-0.01480945	-0.02605731	0.0002888122	0.000562196	0.009401244	0.008922173
	0.009754478	0.008530928	0.0002888122	0.000562196	-0.01430376	-0.02670165	5.733661e-05	3.112139e-06
	0.0001303264	-5.061921e-05	0.009401244	0.008922173	5.733661e-05	3.112139e-06	-0.01493221	-0.02612615
2.9e+08	-0.020204	-0.02832205	5.362655e-05	2.252994e-06	0.0117256	0.007932831	0.000121825	-6.497855e-05
	5.362655e-05	2.252994e-06	-0.02085558	-0.02751654	0.0003694152	0.0005307361	0.01137052	0.008443842
	0.0117256	0.007932831	0.0003694152	0.0005307361	-0.02036929	-0.02834094	5.704134e-05	-7.609141e-06
	0.000121825	-6.497855e-05	0.01137052	0.008443842	5.704134e-05	-7.609141e-06	-0.02101518	-0.02757094
3e+08	-0.02650268	-0.0282711	5.231407e-05	-8.137227e-06	0.01343368	0.006812711	0.0001117957	-7.813505e-05
	5.231407e-05	-8.137227e-06	-0.02712373	-0.02726533	0.0004496856	0.0004904589	0.01310685	0.007443484
	0.01343368	0.006812711	0.0004496856	0.0004904589	-0.0267013	-0.0282634	5.433576e-05	-1.818681e-05
	0.0001117957	-7.813505e-05	0.01310685	0.007443484	5.433576e-05	-1.818681e-05	-0.02731534	-0.02729524
3.1e+08	-0.03258683	-0.02651006	4.862664e-05	-1.781363e-05	0.01474473	0.005266705	0.0001003889	-8.992495e-05
	4.862664e-05	-1.781363e-05	-0.03312741	-0.02531408	0.0005295555	0.0004392733	0.01447589	0.006008589
	0.01474473	0.005266706	0.0005295555	0.0004392733	-0.03281102	-0.02646693	4.928628e-05	-2.790763e-05
	0.0001003889	-8.992495e-05	0.01447589	0.006008589	4.928628e-05	-2.790763e-05	-0.03334349	-0.02531118
3.2e+08	-0.03799137	-0.02316911	4.289654e-05	-2.610449e-05	0.01555761	0.003423795	8.777376e-05	-0.0001002004
	4.289654e-05	-2.610449e-05	-0.03840518	-0.02180725	0.0006076318	0.0003747667	0.01537362	0.004259739
	0.01555761	0.003423795	0.0006076318	0.0003747667	-0.03823118	-0.0230842	4.221557e-05	-3.611219e-05
	8.777376e-05	-0.0001002004	0.01537362	0.004259738	4.221557e-05	-3.611219e-05	-0.03863612	-0.02176565
3.3e+08	-0.04230774	-0.01850049	3.567273e-05	-3.250229e-05	0.01581148	0.001435104	7.413761e-05	-0.0001088326
	3.567273e-05	-3.250229e-05	-0.04255615	-0.01701004	0.0006811116	0.0002948457	0.01573394	0.00234062
	0.01581148	0.001435104	0.0006811116	0.0002948457	-0.04255177	-0.01837054	3.366223e-05	-4.229099e-05
	7.413761e-05	-0.0001088326	0.01573394	0.00234062	3.366223e-05	-4.229099e-05	-0.04279099	-0.01692678
3.4e+08	-0.04521443	-0.01285757	2.763874e-05	-3.673322e-05	0.01548991	-0.000538239	5.968446e-05	-0.0001157152
	2.763874e-05	-3.673322e-05	-0.0452701	-0.01128632	0.0007459735	0.0001983576	0.01553313	0.0004065635
	0.01548991	-0.000538239	0.0007459735	0.0001983576	-0.04545078	-0.01268263	2.430583e-05	-4.615554e-05
	5.968446e-05	-0.0001157152	0.01553313	0.0004065635	2.430583e-05	-4.615554e-05	-0.04549746	-0.01116164
3.5e+08	-0.04650055	-0.006666586	1.951194e-05	-3.878783e-05	0.0146215	-0.002337683	4.46314e-05	-0.0001207675
	1.951194e-05	-3.878783e-05	-0.04635028	-0.005069383	0.0007974115	8.559563e-05	0.01479094	-0.001387476
	0.0146215	-0.002337683	0.0007974115	8.559563e-05	-0.04671778	-0.006450085	1.487203e-05	-4.76735e-05
	4.46314e-05	-0.0001207675	0.01479094	-0.001387476	1.487203e-05	-4.76735e-05	-0.04655924	-0.004906739
3.6e+08	-0.04608072	-0.0003934886	1.193995e-05	-3.890954e-05	0.01327714	-0.003819339	2.920499e-05	-0.0001239365
	1.193995e-05	-3.890954e-05	-0.04572715	0.001171946	0.0008304453	-4.141545e-05	0.01356853	-0.002898612
	0.01327714	-0.003819339	0.0008304453	-4.141545e-05	-0.04626873	-0.000141954	6.032379e-06	-4.70639e-05
	2.920499e-05	-0.0001239365	0.01356853	-0.002898612	6.032379e-06	-4.70639e-05	-0.04590814	0.001366157
3.7e+08	-0.04400042	0.005491761	5.411433e-06	-3.75443e-05	0.01156415	-0.004864759	1.363679e-05	-0.0001251978
	5.411433e-06	-3.75443e-05	-0.0434626	0.006969435	0.0008406051	-0.0001788921	0.01196343	-0.004006603
	0.01156415	-0.004864759	0.0008406051	-0.0001788921	-0.04415131	0.005769185	-1.68461e-06	-4.475454e-05
	1.363679e-05	-0.0001251978	0.01196343	-0.004006603	-1.68461e-06	-4.475454e-05	-0.04360821	0.00718634
3.8e+08	-0.04043163	0.0105508	1.942365e-07	-3.526042e-05	0.009617967	-0.005389716	-1.840553e-06	-0.0001245559
	1.942365e-07	-3.526042e-05	-0.03974421	0.01189109	0.000824582	-0.0003215386	0.01010192	-0.004622665
	0.009617967	-0.005389716	0.000824582	-0.0003215386	-0.04054032	0.01084305	-7.958517e-06	-4.130911e-05
	-1.840553e-06	-0.0001245559	0.01010192	-0.004622665	-7.958517e-06	-4.130911e-05	-0.03984975	0.01212004
3.9e+08	-0.03565911	0.01440983	-3.690097e-06	-3.265139e-05	0.00759177	-0.005350452	-1.699663e-05	-0.0001220433
	-3.690097e-06	-3.265139e-05	-0.03487021	0.01557385	0.0007807399	-0.0004630295	0.00812954	-0.004695976
	0.00759177	-0.005350452	0.0007807399	-0.0004630295	-0.03572383	0.01470481	-1.270856e-05	-3.733565e-05
	-1.699663e-05	-0.0001220433	0.00812954	-0.004695976	-1.270856e-05	-3.733565e-05	-0.0349342	0.01580322
4e+08	-0.03005841	0.01678774	-6.451597e-06	-3.023733e-05	0.005644875	-0.004746989	-3.160626e-05	-0.0001177202
	-6.451597e-06	-3.023733e-05	-0.02922635	0.0177509	0.0007094108	-0.0005966553	0.006200093	-0.004217458
	0.005644875	-0.004746989	0.0007094108	-0.0005966553	-0.03008084	0.01707322	-1.608705e-05	-3.339067e-05
	-3.160626e-05	-0.0001177202	0.006200093	-0.004217458	-1.608705e-05	-3.339067e-05	-0.02925058	0.01796905
4.1e+08	-0.0240671	0.01751708	-8.479818e-06	-2.838024e-05	0.003930595	-0.003623257	-4.54523e-05	-0.0001116741
	-8.479818e-06	-2.838024e-05	-0.0232561	0.01827179	0.000612921	-0.000716036	0.004464073	-0.003220561
	0.003930595	-0.003623257	0.000612921	-0.000716036	-0.02405232	0.01778173	-1.843626e-05	-2.989356e-05
	-4.54523e-05	-0.0001116741	0.004464073	-0.003220562	-1.843626e-05	-2.989356e-05	-0.02324563	0.01846798
4.2e+08	-0.01815142	0.01655669	-1.026226e-05	-2.722689e-05	0.002584405	-0.002063958	-5.832868e-05	-0.0001040195
	-1.026226e-05	-2.722689e-05	-0.01742666	0.01711363	0.0004953484	-0.0008157915	0.00305715	-0.00177892
	0.002584405	-0.002063958	0.0004953484	-0.0008157915	-0.01810751	0.01679096	-2.0215e-05	-2.706502e-05
	-5.832868e-05	-0.0001040195	0.00305715	-0.00177892	-2.0215e-05	-2.706502e-05	-0.01738941	0.0172789
4.3e+08	-0.0127706	0.01399461	-1.228625e-05	-2.668943e-05	0.001713276	-0.0001882847	-7.004416e-05	-9.489754e-05
	-1.228625e-05	-2.668943e-05	-0.01219304	0.01438272	0.0003620467	-0.0008920671	0.002089611	-9.302185e-07
	0.001713276	-0.0001882847	0.0003620467	-0.0008920671	-0.0127081	0.01419154	-2.190642e-05	-2.489999e-05
	-7.004416e-05	-9.489754e-05	0.002089611	-9.302188e-07	-2.190642e-05	-2.489999e-05	-0.01213919	0.01451064
4.4e+08	-0.008341765	0.01004126	-1.494088e-05	-2.646728e-05	0.001387021	0.001859163	-8.042657e-05	-8.447455e-05
	-1.494088e-05	-2.646728e-05	-0.007963042	0.01030613	0.0002190109	-0.0009428363	0.001637558	0.001978447
	0.001387021	0.001859163	0.0002190109	-0.0009428363	-0.00827282	0.0101971	-2.392241e-05	-2.317995e-05
	-8.042657e-05	-8.447455e-05	0.001637558	0.001978447	-2.392241e-05	-2.317995e-05	-0.00790426	0.01039337
4.5e+08	-0.005207914	0.005013116	-1.843565e-05	-2.6108e-05	0.001632423	0.003919648	-8.932742e-05	-7.293992e-05
	-1.843565e-05	-2.6108e-05	-0.005065806	0.005214044	7.218702e-05	-0.0009679352	0.001736652	0.004008148
	0.001632423	0.003919648	7.218702e-05	-0.0009679352	-0.005145353	0.00512767	-2.65209e-05	-2.152366e-05
	-8.932742e-05	-7.293992e-05	0.001736652	0.004008148	-2.65209e-05	-2.152366e-05	-0.005014328	0.005260688
4.6e+08	-0.003611648	-0.0006918128	-2.275091e-05	-2.509681e-05	0.002430742	0.005832925	-9.662573e-05	-6.050209e-05
	-2.275091e-05	-2.509681e-05	-0.0037265	-0.0004860586	-7.316446e-05	-0.0009688319	0.002379006	0.005932947
	0.002430742	0.005832925	-7.316446e-05	-0.0009688319	-0.003567957	-0.0006151127	-2.975016e-05	-1.946747e-05
	-9.662573e-05	-6.050209e-05	0.002379006	0.005932947	-2.975016e-05	-1.946747e-05	-0.00369407	-0.0004764646
4.7e+08	-0.003676709	-0.006624903	-2.763021e-05	-2.296011e-05	0.003718939	0.007450201	-0.0001022321	-4.738412e-05
	-2.763021e-05	-2.296011e-05	-0.004049119	-0.006341184	-0.0002129485	-0.0009481745	0.003513619	0.007605913
