!$
! Info: Touchstone file created by Circ.  Input file=Tx_16in_Rx_85ohms_TxVia_10mils_RxVia_20mils.circ
!$
# Hz S RI R 50
0	0.01282545	1.194785e-25	4.173128e-13	2.227219e-28	9.904751e-05	1.611008e-23	-4.668219e-09	5.714549e-25
	4.189155e-13	2.229074e-28	0.01282828	1.38727e-25	-4.017661e-12	4.427233e-28	9.648e-05	1.825778e-23
	9.909485e-05	1.61195e-23	-4.066175e-12	4.486413e-28	0.01284015	1.197864e-25	-1.279004e-09	1.564823e-25
	-4.666101e-09	5.711956e-25	9.793462e-05	1.879163e-23	-1.279049e-09	1.564878e-25	0.01283382	1.322557e-25
1e+07	0.01535478	-0.01636123	-3.159544e-12	-6.369814e-12	0.0005621117	0.002772111	-5.211912e-09	1.757246e-08
	-3.159539e-12	-6.370086e-12	0.01534812	-0.0161002	-4.852801e-12	-6.90443e-12	0.0006763984	0.002757415
	0.0005621157	0.002772107	-4.852777e-12	-6.904182e-12	0.01748957	-0.01604535	-2.933433e-09	1.653425e-08
	-5.211912e-09	1.757246e-08	0.0006764314	0.002757403	-2.933433e-09	1.653425e-08	0.01531283	-0.01608827
2e+07	0.01092005	-0.03596514	-6.585785e-12	-7.447862e-12	0.001922329	0.005212403	-4.404041e-10	1.483377e-08
	-6.58599e-12	-7.447942e-12	0.01117782	-0.03557578	-7.173809e-12	-1.159226e-11	0.002053831	0.00508549
	0.001922328	0.0052124	-7.173625e-12	-1.159215e-11	0.01301377	-0.03626923	-2.108961e-09	1.411762e-08
	-4.40404e-10	1.483377e-08	0.002053828	0.005085468	-2.108961e-09	1.411762e-08	0.01115727	-0.03553778
3e+07	-0.001099866	-0.05405754	-1.030512e-11	-4.856673e-12	0.004019412	0.006935442	3.588566e-09	1.206232e-08
	-1.030514e-11	-4.856639e-12	-0.0006716798	-0.05369185	-1.308153e-11	-9.860187e-12	0.004063029	0.006798283
	0.004019412	0.006935442	-1.30815e-11	-9.860221e-12	0.0008905879	-0.05472906	3.744229e-09	1.255083e-08
	3.588566e-09	1.206232e-08	0.004063024	0.006798281	3.744229e-09	1.255083e-08	-0.0006799064	-0.05364107
4e+07	-0.01864044	-0.06743463	-1.116905e-11	-8.333567e-13	0.006495107	0.007851584	6.390538e-09	9.1467e-09
	-1.116903e-11	-8.333786e-13	-0.0181104	-0.06713592	-1.284193e-11	-7.274316e-12	0.006461112	0.007740102
	0.006495107	0.007851583	-1.284196e-11	-7.274292e-12	-0.01681724	-0.06840788	7.497708e-09	9.384447e-09
	6.390538e-09	9.1467e-09	0.006461112	0.007740103	7.497708e-09	9.384447e-09	-0.0181096	-0.06707765
5e+07	-0.03949325	-0.07455624	-1.008408e-11	2.20307e-12	0.009064063	0.007906531	8.421297e-09	6.327316e-09
	-1.008408e-11	2.203053e-12	-0.03891547	-0.07433509	-1.094461e-11	-7.342882e-12	0.008968053	0.007846573
	0.009064063	0.00790653	-1.094462e-11	-7.342862e-12	-0.03788919	-0.07577462	9.822722e-09	6.579718e-09
	8.421297e-09	6.327316e-09	0.008968052	0.007846573	9.822722e-09	6.579718e-09	-0.03890861	-0.07426973
6e+07	-0.06130368	-0.07479748	-1.004494e-11	4.491329e-12	0.01144532	0.007141183	1.052599e-08	3.410853e-09
	-1.004491e-11	4.491349e-12	-0.06071832	-0.0746474	-1.16107e-11	-1.017301e-11	0.01130787	0.007150687
	0.01144533	0.007141183	-1.161073e-11	-1.017303e-11	-0.05995708	-0.07620241	1.20284e-08	5.688045e-09
	1.052599e-08	3.410853e-09	0.01130787	0.007150688	1.20284e-08	5.688045e-09	-0.06070611	-0.07457435
7e+07	-0.08177457	-0.06834598	-1.583464e-11	1.58367e-11	0.01339638	0.005681164	1.526655e-08	-1.862481e-09
	-1.583453e-11	1.583672e-11	-0.08120881	-0.06825282	3.281125e-12	-2.652363e-11	0.01324139	0.005769977
	0.01339638	0.005681164	3.281082e-12	-2.652374e-11	-0.08071016	-0.06987711	1.018776e-08	1.228059e-08
	1.526655e-08	-1.862482e-09	0.01324139	0.005769981	1.018776e-08	1.228059e-08	-0.08119112	-0.06817176
8e+07	-0.09887728	-0.05609405	3.762532e-10	3.341747e-10	0.01473588	0.003714767	-2.140028e-08	-2.494034e-08
	3.762532e-10	3.341744e-10	-0.09834829	-0.05604248	-9.63794e-12	1.787792e-11	0.01458856	0.003884441
	0.01473588	0.003714766	-9.637934e-12	1.787786e-11	-0.09810752	-0.05769132	-3.611523e-11	6.264944e-09
	-2.140028e-08	-2.494034e-08	0.01458856	0.003884446	-3.611547e-11	6.264944e-09	-0.09832452	-0.055953
9e+07	-0.1110251	-0.03949068	-7.305443e-11	5.218844e-11	0.015355	0.001467364	-3.188635e-09	5.866345e-10
	-7.305449e-11	5.21884e-11	-0.1105454	-0.03946814	-2.813783e-11	1.754533e-12	0.0152399	0.001711367
	0.015355	0.001467363	-2.813783e-11	1.754539e-12	-0.110553	-0.04109614	-3.425679e-11	1.593799e-09
	-3.188635e-09	5.866344e-10	0.0152399	0.001711371	-3.425681e-11	1.593798e-09	-0.110514	-0.03937002
1e+08	-0.1171856	-0.02036233	-8.584117e-13	2.88013e-11	0.01522006	-0.0008229184	4.908177e-12	3.862917e-11
	-8.584117e-13	2.88013e-11	-0.1167811	-0.02036152	-3.07203e-11	3.46429e-13	0.01516168	-0.0005181094
	0.01522006	-0.0008229185	-3.07203e-11	3.46429e-13	-0.1170173	-0.02192217	-2.928689e-12	4.675002e-11
	4.908177e-12	3.862917e-11	0.01516168	-0.0005181095	-2.928689e-12	4.675002e-11	-0.1167398	-0.02025567
1.1e+08	-0.1169912	-0.0007844651	1.459534e-11	2.676185e-11	0.01436538	-0.002928356	1.614554e-11	3.839076e-11
	1.459534e-11	2.676185e-11	-0.1166548	-0.0007262669	-2.448043e-11	2.437566e-12	0.01437659	-0.002598662
	0.01436538	-0.002928356	-2.448043e-11	2.437566e-12	-0.1170973	-0.002190091	1.695198e-11	4.519701e-11
	1.614554e-11	3.839076e-11	0.01437659	-0.002598662	1.695198e-11	4.519701e-11	-0.1166016	-0.0006148995
1.2e+08	-0.1107177	0.017319	2.562723e-11	2.158349e-11	0.01288862	-0.004639107	2.669504e-11	3.50038e-11
	2.562723e-11	2.158349e-11	-0.1103989	0.01742484	-1.893092e-11	1.574043e-12	0.01296441	-0.004307658
	0.01288862	-0.004639107	-1.893092e-11	1.574043e-12	-0.111023	0.01610401	3.215143e-11	3.902148e-11
	2.669504e-11	3.50038e-11	0.01296441	-0.004307658	3.215143e-11	3.902148e-11	-0.1103318	0.01753758
1.3e+08	-0.0991796	0.03214667	3.497613e-11	1.306165e-11	0.01094375	-0.005787779	3.641798e-11	2.791841e-11
	3.497613e-11	1.306165e-11	-0.098861	0.03227733	-1.353682e-11	-9.375376e-13	0.01107584	-0.005475901
	0.01094375	-0.005787779	-1.353682e-11	-9.375376e-13	-0.09962417	0.03114075	4.523713e-11	2.822087e-11
	3.641798e-11	2.791841e-11	0.01107584	-0.005475901	4.523713e-11	2.822087e-11	-0.0987803	0.03238638
1.4e+08	-0.08371011	0.04224823	4.190791e-11	1.013311e-12	0.008726258	-0.00625814	4.38752e-11	1.747022e-11
	4.190791e-11	1.013311e-12	-0.08339275	0.04237907	-8.759334e-12	-5.15895e-12	0.008900119	-0.005984148
	0.008726258	-0.00625814	-8.759334e-12	-5.15895e-12	-0.08423863	0.04145697	5.502252e-11	1.259883e-11
	4.38752e-11	1.747022e-11	0.008900119	-0.005984148	5.502252e-11	1.259883e-11	-0.0833008	0.04247928
1.5e+08	-0.06602245	0.04666246	4.523566e-11	-1.349912e-11	0.006459897	-0.005995994	4.788618e-11	4.405762e-12
	4.523566e-11	-1.349912e-11	-0.0657217	0.04677346	-5.275467e-12	-1.083611e-11	0.006655329	-0.005773014
	0.006459897	-0.005995994	-5.275467e-12	-1.083611e-11	-0.06658401	0.04608018	5.986103e-11	-6.420907e-12
	4.788618e-11	4.405762e-12	0.006655329	-0.005773014	5.986103e-11	-6.420907e-12	-0.06562299	0.04686044
1.6e+08	-0.04804345	0.04501235	4.406523e-11	-2.920062e-11	0.004378918	-0.005017819	4.751453e-11	-1.005426e-11
	4.406523e-11	-2.920062e-11	-0.04778513	0.0450929	-3.602309e-12	-1.741829e-11	0.004571718	-0.00485184
	0.004378918	-0.005017819	-3.602309e-12	-1.741829e-11	-0.04859281	0.0446233	5.852655e-11	-2.707583e-11
	4.751453e-11	-1.005426e-11	0.004571718	-0.00485184	5.852655e-11	-2.707583e-11	-0.04768594	0.04516384
1.7e+08	-0.03172262	0.03754836	3.800279e-11	-4.4515e-11	0.002705861	-0.003414637	4.229775e-11	-2.437079e-11
	3.800279e-11	-4.4515e-11	-0.03153816	0.03760062	-3.990182e-12	-2.41752e-11	0.002870259	-0.003303194
	0.002705861	-0.003414637	-3.990182e-12	-2.41752e-11	-0.03222181	0.03732824	5.0489e-11	-4.718882e-11
	4.229775e-11	-2.437079e-11	0.002870259	-0.003303194	5.0489e-11	-4.718882e-11	-0.03144593	0.037655
1.8e+08	-0.01883108	0.02513062	2.724351e-11	-5.776775e-11	0.001626421	-0.001348164	3.234684e-11	-3.687734e-11
	2.724351e-11	-5.776775e-11	-0.01875198	0.02517098	-6.372933e-12	-3.033085e-11	0.001738004	-0.001279896
	0.001626421	-0.001348164	-6.372933e-12	-3.033085e-11	-0.01925094	0.02504845	3.603733e-11	-6.445297e-11
	3.234684e-11	-3.687734e-11	0.001738005	-0.001279896	3.603733e-11	-6.445297e-11	-0.01867442	0.02521101
1.9e+08	-0.01077099	0.009145019	1.257667e-11	-6.741256e-11	0.001264876	0.0009629807	1.836666e-11	-4.600101e-11
	1.257667e-11	-6.741256e-11	-0.01082304	0.009203615	-1.03838e-11	-3.520338e-11	0.001303646	0.001007724
	0.001264876	0.0009629807	-1.03838e-11	-3.520338e-11	-0.01109236	0.009165596	1.628424e-11	-7.674937e-11
	1.836666e-11	-4.600101e-11	0.001303646	0.001007724	1.628424e-11	-7.674937e-11	-0.01076714	0.009234313
2e+08	-0.008419395	-0.008642977	-4.698389e-12	-7.224306e-11	0.00166496	0.003267103	1.588156e-12	-5.047694e-11
	-4.698389e-12	-7.224306e-11	-0.008617416	-0.008524838	-1.543125e-11	-3.83178e-11	0.001618141	0.003314575
	0.00166496	0.003267103	-1.543125e-11	-3.83178e-11	-0.008633645	-0.008556206	-6.955747e-12	-8.244322e-11
	1.588156e-12	-5.047694e-11	0.001618141	0.003314575	-6.955747e-12	-8.244322e-11	-0.008588362	-0.008495965
2.1e+08	-0.01202937	-0.02628271	-2.293016e-11	-7.155288e-11	0.002781031	0.005310585	-1.637663e-11	-4.951896e-11
	-2.293016e-11	-7.155288e-11	-0.01237303	-0.02605701	-2.081156e-11	-3.946756e-11	0.002645223	0.005390978
	0.002781031	0.005310585	-2.081156e-11	-3.946756e-11	-0.01213799	-0.02616473	-3.139258e-11	-8.060528e-11
	-1.637663e-11	-4.951896e-11	0.002645223	0.005390978	-3.139258e-11	-8.060528e-11	-0.01237333	-0.02602064
2.2e+08	-0.02120437	-0.04185713	-4.031586e-11	-6.521962e-11	0.004482536	0.006871076	-3.372979e-11	-4.291919e-11
	-4.031586e-11	-6.521962e-11	-0.02167584	-0.04147498	-2.582704e-11	-3.871825e-11	0.004264871	0.007015156
	0.004482536	0.006871076	-2.582704e-11	-3.871825e-11	-0.02121768	-0.04173872	-5.454688e-11	-7.112326e-11
	-3.372979e-11	-4.291919e-11	0.004264871	0.007015156	-5.454688e-11	-7.112326e-11	-0.02170472	-0.04142099
2.3e+08	-0.03495082	-0.05369661	-5.510773e-11	-5.370729e-11	0.006571658	0.007786355	-4.869694e-11	-3.106625e-11
	-5.510773e-11	-5.370729e-11	-0.03551469	-0.05311474	-2.988328e-11	-3.63634e-11	0.006289724	0.008021776
	0.006571658	0.007786355	-2.988328e-11	-3.63634e-11	-0.03488592	-0.05360227	-7.404104e-11	-5.469606e-11
	-4.869694e-11	-3.106625e-11	0.006289724	0.008021776	-7.404104e-11	-5.469606e-11	-0.03556787	-0.05303339
2.4e+08	-0.0518006	-0.06055856	-6.579322e-11	-3.800083e-11	0.008810706	0.007973352	-5.971779e-11	-1.489072e-11
	-6.579322e-11	-3.800083e-11	-0.05240613	-0.05974568	-3.25496e-11	-3.285242e-11	0.008491169	0.00832112
	0.008810706	0.007973352	-3.25496e-11	-3.285242e-11	-0.05167893	-0.06050536	-8.784929e-11	-3.273073e-11
	-5.971779e-11	-1.489072e-11	0.008491169	0.00832112	-8.784929e-11	-3.273073e-11	-0.05247605	-0.05962887
2.5e+08	-0.06998433	-0.06175077	-7.12314e-11	-1.949453e-11	0.01095362	0.007434449	-6.559561e-11	4.243084e-12
	-7.12314e-11	-1.949453e-11	-0.07056998	-0.06069288	-3.357984e-11	-2.871238e-11	0.01062966	0.007905995
	0.01095362	0.007434449	-3.357984e-11	-2.871238e-11	-0.0698291	-0.06174805	-9.448084e-11	-7.176213e-12
	-6.559561e-11	4.243084e-12	0.01062966	0.007905995	-9.448084e-11	-7.176213e-12	-0.07064644	-0.06053519
2.6e+08	-0.08762976	-0.05718646	-7.074213e-11	1.408468e-13	0.01277561	0.006251392	-6.559638e-11	2.46746e-11
	-7.074213e-11	1.408468e-13	-0.08812945	-0.05589036	-3.29008e-11	-2.448244e-11	0.01248343	0.006846654
	0.01277561	0.006251392	-3.29008e-11	-2.448244e-11	-0.08746376	-0.05723632	-9.309212e-11	1.966942e-11
	-6.559638e-11	2.46746e-11	0.01248343	0.006846654	-9.309212e-11	1.966942e-11	-0.08820065	-0.05568993
2.7e+08	-0.1029594	-0.04737097	-6.415433e-11	1.909772e-11	0.01409638	0.004569851	-5.95027e-11	4.459247e-11
	-6.415433e-11	1.909772e-11	-0.1033098	-0.04586544	-3.058324e-11	-2.067178e-11	0.01387124	0.005276624
	0.01409638	0.004569851	-3.058324e-11	-2.067178e-11	-0.1028032	-0.04746926	-8.353943e-11	4.535457e-11
	-5.95027e-11	4.459247e-11	0.01387124	0.005276624	-8.353943e-11	4.535457e-11	-0.1033635	-0.0456244
2.8e+08	-0.1144658	-0.03332873	-5.182226e-11	3.557019e-11	0.01479487	0.00257889	-4.763011e-11	6.218004e-11
	-5.182226e-11	3.557019e-11	-0.1146136	-0.03166323	-2.681326e-11	-1.774195e-11	0.01466702	0.003373554
	0.01479487	0.00257889	-2.681326e-11	-1.774195e-11	-0.1143363	-0.03346644	-6.63879e-11	6.746208e-11
	-4.763011e-11	6.218004e-11	0.01466702	0.003373554	-6.63879e-11	6.746208e-11	-0.1146387	-0.03138769
2.9e+08	-0.1210488	-0.01648504	-3.461397e-11	4.789142e-11	0.01481566	0.0004893712	-3.081268e-11	7.575602e-11
	-3.461397e-11	4.789142e-11	-0.1209577	-0.01472591	-2.187834e-11	-1.610308e-11	0.0148067	0.001338931
	0.01481566	0.0004893712	-2.187834e-11	-1.610308e-11	-0.1209587	-0.01664971	-4.28853e-11	8.379048e-11
	-3.081268e-11	7.575602e-11	0.0148067	0.001338931	-4.28853e-11	8.379048e-11	-0.1209452	-0.01442556
3e+08	-0.1221084	0.001481753	-1.387193e-11	5.467036e-11	0.0141689	-0.001486051	-1.036061e-11	8.391089e-11
	-1.387193e-11	5.467036e-11	-0.1217644	0.003257227	-1.617203e-11	-1.610596e-11	0.01428898	-0.000620808
	0.0141689	-0.001486051	-1.617203e-11	-1.610596e-11	-0.1220659	0.001304627	-1.490226e-11	9.253222e-11
	-1.036061e-11	8.391089e-11	0.01428898	-0.000620808	-1.490226e-11	9.253222e-11	-0.1217086	0.003569968
3.1e+08	-0.1175894	0.01880292	8.656204e-12	5.491847e-11	0.01292575	-0.003150256	1.20132e-11	8.563865e-11
	8.656204e-12	5.491847e-11	-0.1170037	0.02051408	-1.021939e-11	-1.803387e-11	0.01317189	-0.002310809
	0.01292575	-0.003150256	-1.021939e-11	-1.803387e-11	-0.1175979	0.01862863	1.516916e-11	9.244852e-11
	1.20132e-11	8.563865e-11	0.01317189	-0.002310809	1.516916e-11	9.244852e-11	-0.1169033	0.02082523
3.2e+08	-0.1079785	0.03378453	3.092456e-11	4.818604e-11	0.01121103	-0.004336493	3.430419e-11	8.045746e-11
	3.092456e-11	4.818604e-11	-0.1071887	0.03535576	-4.689351e-12	-2.201327e-11	0.01156674	-0.003562225
	0.01121103	-0.004336493	-4.689351e-12	-2.201327e-11	-0.108037	0.03362796	4.456958e-11	8.303244e-11
	3.430419e-11	8.045746e-11	0.01156674	-0.003562225	4.456958e-11	8.303244e-11	-0.1070469	0.03565113
3.3e+08	-0.09425729	0.04496425	5.077434e-11	3.468187e-11	0.009193511	-0.00492133	5.436913e-11	6.850677e-11
	5.077434e-11	3.468187e-11	-0.09332481	0.04633343	-2.76447e-13	-2.788397e-11	0.00962991	-0.004245196
	0.009193511	-0.00492133	-2.76447e-13	-2.788397e-11	-0.0943609	0.04483882	7.038905e-11	6.464084e-11
	5.436913e-11	6.850677e-11	0.00962991	-0.004245196	7.038905e-11	6.464084e-11	-0.09314933	0.04660021
3.4e+08	-0.07781198	0.05124975	6.61161e-11	1.528322e-11	0.007073534	-0.004836025	7.011825e-11	5.060294e-11
	6.61161e-11	1.528322e-11	-0.07681746	0.05237592	2.33683e-12	-3.527147e-11	0.007551726	-0.004280674
	0.007073534	-0.004836025	2.33683e-12	-3.527147e-11	-0.07795243	0.05116656	8.982081e-11	3.855692e-11
	7.011825e-11	5.060294e-11	0.007551727	-0.004280674	8.982081e-11	3.855692e-11	-0.07662016	0.05260419
3.5e+08	-0.06030615	0.05202805	7.516254e-11	-8.460861e-12	0.00506706	-0.004075602	7.974595e-11	2.823202e-11
	7.516254e-11	-8.460861e-12	-0.0593421	0.05289739	2.576035e-12	-4.34988e-11	0.005541788	-0.003650394
	0.00506706	-0.004075602	2.576035e-12	-4.34988e-11	-0.06047262	0.05199504	1.005297e-10	6.987588e-12
	7.974595e-11	2.823202e-11	0.005541788	-0.003650394	1.005297e-10	6.987588e-12	-0.05913782	0.05308125
3.6e+08	-0.04352218	0.04723464	7.666123e-11	-3.443065e-11	0.003385918	-0.002703934	8.195666e-11	3.455282e-12
	7.666123e-11	-3.443065e-11	-0.04268387	0.04786393	1.519808e-13	-5.163863e-11	0.00381006	-0.002403198
	0.003385918	-0.002703934	1.519808e-13	-5.163863e-11	-0.04370245	0.0472561	1.009497e-10	-2.711538e-11
	8.195666e-11	3.455282e-12	0.00381006	-0.002403198	1.009497e-10	-2.711538e-11	-0.04248903	0.04800249
3.7e+08	-0.02918365	0.03737193	7.009271e-11	-6.012634e-11	0.002215064	-0.0008524087	7.616576e-11	-2.127078e-11
	7.009271e-11	-6.012634e-11	-0.02855886	0.03780884	-4.82677e-12	-5.867699e-11	0.002544609	-0.0006552175
	0.002215064	-0.0008524087	-4.82677e-12	-5.867699e-11	-0.02936523	0.03744831	9.053333e-11	-6.032784e-11
	7.616576e-11	-2.127078e-11	0.002544609	-0.0006552175	9.053333e-11	-6.032784e-11	-0.02838984	0.03790666
3.8e+08	-0.01877493	0.02346924	5.57968e-11	-8.293727e-11	0.001689406	0.001289915	6.263101e-11	-4.335406e-11
	5.57968e-11	-8.293727e-11	-0.01843383	0.02378925	-1.18388e-11	-6.368614e-11	0.001888393	0.001418326
	0.001689406	0.001289915	-1.18388e-11	-6.368614e-11	-0.01894627	0.02359745	6.99186e-11	-8.91301e-11
	6.263101e-11	-4.335406e-11	0.001888393	0.001418326	6.99186e-11	-8.91301e-11	-0.01830512	0.02385618
3.9e+08	-0.0133787	0.006983269	3.498834e-11	-1.004569e-10	0.001874176	0.003495391	4.24786e-11	-6.037417e-11
	3.498834e-11	-1.004569e-10	-0.01336502	0.007283143	-2.001634e-11	-6.600277e-11	0.001919039	0.003600594
	0.001874176	0.003495391	-2.001634e-11	-6.600277e-11	-0.01353019	0.007157265	4.092897e-11	-1.103458e-10
	4.24786e-11	-6.037417e-11	0.001919039	0.003600594	4.092897e-11	-1.103458e-10	-0.01328745	0.007333578
4e+08	-0.01355319	-0.01035395	9.646134e-12	-1.107918e-10	0.002753227	0.005524553	1.760646e-11	-7.03887e-11
	9.646134e-12	-1.107918e-10	-0.01387779	-0.009965551	-2.828951e-11	-6.535485e-11	0.002636019	0.005658521
	0.002753227	0.005524553	-2.828951e-11	-6.535485e-11	-0.01367789	-0.01014222	6.394331e-12	-1.215623e-10
	1.760646e-11	-7.03887e-11	0.002636019	0.005658521	6.394331e-12	-1.215623e-10	-0.01385716	-0.009914023
4.1e+08	-0.01926782	-0.02672299	-1.77142e-11	-1.128081e-10	0.004228682	0.007156614	-9.527399e-12	-7.218406e-11
	-1.77142e-11	-1.128081e-10	-0.01990565	-0.0261368	-3.557042e-11	-6.190665e-11	0.003958724	0.007372354
	0.004228682	0.007156614	-3.557042e-11	-6.190665e-11	-0.0193617	-0.02648251	-3.018541e-11	-1.214522e-10
	-9.527399e-12	-7.218406e-11	0.003958724	0.007372354	-3.018541e-11	-1.214522e-10	-0.01994178	-0.02606518
4.2e+08	-0.02990767	-0.04041704	-4.434492e-11	-1.062688e-10	0.006132956	0.008218233	-3.619738e-11	-6.54254e-11
	-4.434492e-11	-1.062688e-10	-0.03079875	-0.03953508	-4.093141e-11	-5.621668e-11	0.005736622	0.008564027
	0.006132956	0.008218233	-4.093141e-11	-5.621668e-11	-0.02996953	-0.04015669	-6.507528e-11	-1.099348e-10
	-3.619738e-11	-6.54254e-11	0.005736622	0.008564027	-6.507528e-11	-1.099348e-10	-0.03088522	-0.03942503
4.3e+08	-0.04434697	-0.05002711	-6.759248e-11	-9.184323e-11	0.008251233	0.008605077	-5.973168e-11	-5.068286e-11
	-6.759248e-11	-9.184323e-11	-0.04540127	-0.0487739	-4.3739e-11	-4.91266e-11	0.0077698	0.009119009
	0.008251233	0.008605077	-4.3739e-11	-4.91266e-11	-0.04437789	-0.04975488	-9.475681e-11	-8.815568e-11
	-5.973168e-11	-5.068286e-11	0.0077698	0.009119009	-9.475681e-11	-8.815568e-11	-0.04552583	-0.04860979
4.4e+08	-0.06108007	-0.05458858	-8.518946e-11	-7.099743e-11	0.01034999	0.008292461	-7.780816e-11	-2.933893e-11
	-8.518946e-11	-7.099743e-11	-0.06218596	-0.05292016	-4.372099e-11	-4.161281e-11	0.009835731	0.008997864
	0.01034999	0.008292461	-4.372099e-11	-4.161281e-11	-0.06108277	-0.05431109	-1.163177e-10	-5.830251e-11
	-7.780816e-11	-2.933893e-11	0.009835731	0.008997864	-1.163177e-10	-5.830251e-11	-0.06233172	-0.05269087
4.5e+08	-0.07839052	-0.05367197	-9.547217e-11	-4.579893e-11	0.01220608	0.007334063	-8.868268e-11	-3.405987e-12
	-9.547217e-11	-4.579893e-11	-0.07942587	-0.05158173	-4.096248e-11	-3.46369e-11	0.01171701	0.008236476
	0.01220608	0.007334063	-4.096248e-11	-3.46369e-11	-0.07836869	-0.05339432	-1.277268e-10	-2.331263e-11
	-8.868268e-11	-3.405987e-12	0.01171701	0.008236476	-1.277268e-10	-2.331263e-11	-0.0795729	-0.05128203
4.6e+08	-0.09453491	-0.04741115	-9.750689e-11	-1.867922e-11	0.0136315	0.005850474	-9.13293e-11	2.470555e-11
	-9.750689e-11	-1.867922e-11	-0.09537949	-0.04493185	-3.584423e-11	-2.902664e-11	0.01322532	0.006936468
	0.0136315	0.005850474	-3.584423e-11	-2.902664e-11	-0.09449261	-0.04713706	-1.279755e-10	1.34665e-11
	-9.13293e-11	2.470555e-11	0.01322532	0.006936468	-1.279755e-10	1.34665e-11	-0.0955069	-0.04456312
4.7e+08	-0.107919	-0.03647154	-9.112963e-11	7.807803e-12	0.01449078	0.004011129	-8.549341e-11	5.242908e-11
	-9.112963e-11	7.807803e-12	-0.1084671	-0.03367317	-2.895011e-11	-2.54073e-11	0.01421875	0.005249172
	0.01449078	0.004011129	-2.895011e-11	-2.54073e-11	-0.1078604	-0.0362036	-1.171004e-10	4.860817e-11
