!$
! Info: Touchstone file created by Circ.  Input file=Tx_16in_Rx_93ohms_TxVia_10mils_RxVia_20mils.circ
!$
# Hz S RI R 50
0	0.01458457	9.823007e-26	-8.523277e-05	1.262972e-25	9.781074e-05	1.549593e-23	-8.525795e-05	2.907562e-24
	-8.523279e-05	1.284431e-25	0.0145852	1.378952e-25	-8.522498e-05	2.180106e-26	9.590697e-05	2.077018e-23
	9.651104e-05	1.509869e-23	-8.522498e-05	2.198631e-26	0.01459964	1.028279e-25	-8.523438e-05	3.144432e-25
	-8.525793e-05	2.905817e-24	9.736093e-05	2.137749e-23	-8.523434e-05	3.106979e-25	0.01459073	1.314653e-25
1e+07	0.02055888	-0.002901951	-0.0003918511	3.695304e-05	0.0006682369	0.002782671	-7.866468e-05	-5.321486e-06
	-0.0003918511	3.695304e-05	0.02097852	-0.002964644	-0.0001979836	0.0001217007	0.0006616475	0.002774168
	0.0006681927	0.002782675	-0.0001979836	0.0001217007	0.02099644	-0.002987714	-0.0003912494	4.053589e-05
	-7.866468e-05	-5.321482e-06	0.0006616808	0.002774156	-0.0003912494	4.05359e-05	0.02055922	-0.002951324
2e+07	0.02267966	-0.01118297	-0.0003360526	-1.833509e-05	0.001903166	0.005331082	-5.012584e-05	-7.860649e-05
	-0.0003360526	-1.83351e-05	0.02293032	-0.01142322	-0.000184746	0.0001034153	0.001885912	0.005320267
	0.001903156	0.00533111	-0.000184746	0.0001034153	0.02295651	-0.01147378	-0.0003350678	-2.527546e-05
	-5.012583e-05	-7.860649e-05	0.00188591	0.005320245	-0.0003350678	-2.527545e-05	0.02263097	-0.01126815
3e+07	0.02058091	-0.02069784	-0.0003048808	-3.669594e-05	0.00393854	0.007167309	-6.927349e-05	-8.986541e-05
	-0.0003048808	-3.669594e-05	0.02067641	-0.02097108	-0.0001584676	0.0001134446	0.003883397	0.00717619
	0.003938541	0.007167314	-0.0001584676	0.0001134446	0.02071357	-0.02105664	-0.0003032452	-4.557398e-05
	-6.927349e-05	-8.986541e-05	0.003883392	0.007176187	-0.0003032452	-4.557398e-05	0.02046456	-0.02079295
4e+07	0.0151543	-0.02924973	-0.0002823478	-3.770448e-05	0.006454651	0.008188466	-0.0001158059	-6.457627e-05
	-0.0002823478	-3.770448e-05	0.01510843	-0.02949276	-0.00012787	0.0001146178	0.006374976	0.008225396
	0.006454647	0.008188464	-0.00012787	0.0001146178	0.01515451	-0.02962274	-0.0002806514	-4.820287e-05
	-0.0001158059	-6.457627e-05	0.006374976	0.008225397	-0.0002806514	-4.820288e-05	0.01495899	-0.0293265
5e+07	0.00723637	-0.03575913	-0.0002636142	-3.187088e-05	0.009109535	0.008352933	-0.0001479787	-2.568537e-05
	-0.0002636142	-3.187088e-05	0.007072694	-0.03592499	-0.0001011206	0.0001022278	0.009011157	0.008429445
	0.009109533	0.008352932	-0.0001011206	0.0001022278	0.007120235	-0.03610819	-0.0002623003	-4.380828e-05
	-0.0001479787	-2.568537e-05	0.009011157	0.008429445	-0.0002623003	-4.380828e-05	0.006962312	-0.03578449
6e+07	-0.002229628	-0.03957599	-0.0002458076	-2.332578e-05	0.01162944	0.007673372	-0.0001651201	2.172601e-05
	-0.0002458076	-2.332578e-05	-0.002477959	-0.03963038	-8.61385e-05	7.814823e-05	0.01152262	0.007798299
	0.01162945	0.007673369	-8.61385e-05	7.814823e-05	-0.00244114	-0.03987241	-0.000245229	-3.653915e-05
	-0.0001651201	2.172601e-05	0.01152262	0.0077983	-0.000245229	-3.653915e-05	-0.002568628	-0.03951917
7e+07	-0.01223809	-0.0404132	-0.0002272519	-1.468327e-05	0.01375982	0.006246189	-0.0001663988	7.350818e-05
	-0.0002272519	-1.468327e-05	-0.01253079	-0.04033547	-8.889321e-05	4.842853e-05	0.01365812	0.006424126
	0.01375984	0.006246181	-8.889321e-05	4.842853e-05	-0.01252	-0.04063671	-0.0002276825	-2.899547e-05
	-0.0001663988	7.350818e-05	0.01365811	0.006424129	-0.0002276825	-2.899548e-05	-0.01261758	-0.04025077
8e+07	-0.02180197	-0.03831994	-0.0002069636	-8.005604e-06	0.01529167	0.004240854	-0.0001510298	0.0001256472
	-0.0002069636	-8.005603e-06	-0.02209541	-0.0381042	-0.000112126	2.161483e-05	0.01521025	0.004471044
	0.01529168	0.004240842	-0.000112126	2.161482e-05	-0.0221267	-0.03845858	-0.0002085856	-2.322475e-05
	-0.0001510298	0.0001256472	0.01521025	0.004471048	-0.0002085856	-2.322476e-05	-0.02219017	-0.03803847
9e+07	-0.03003648	-0.03364464	-0.0001838727	-5.100721e-06	0.0160817	0.001880917	-0.0001179619	0.0001738338
	-0.0001838727	-5.100721e-06	-0.03028776	-0.03329985	-0.000154974	6.86561e-06	0.01603536	0.002156821
	0.01608171	0.001880907	-0.000154974	6.865609e-06	-0.03037531	-0.0336947	-0.0001890568	-6.933464e-06
	-0.0001179619	0.0001738338	0.01603536	0.002156825	-0.0001890568	-6.933466e-06	-0.03039768	-0.03324269
1e+08	-0.03621608	-0.02697987	-0.0001512499	3.814864e-05	0.01606368	-0.0005804463	-6.126705e-05	0.0002121472
	-0.0001512499	3.814864e-05	-0.03638399	-0.02652878	-0.0002166036	1.184402e-05	0.01606514	-0.0002708775
	0.01606368	-0.0005804462	-0.0002166036	1.184402e-05	-0.03653745	-0.02694556	-0.000155011	5.519208e-05
	-6.126705e-05	0.0002121472	0.01606514	-0.0002708777	-0.000155011	5.519208e-05	-0.0365146	-0.02646935
1.1e+08	-0.03993873	-0.01920046	-0.0001129426	5.589958e-05	0.01525597	-0.002877379	-4.012092e-07	0.0002109573
	-0.0001129426	5.589958e-05	-0.04000342	-0.01869266	-0.0002827357	2.459274e-05	0.01531173	-0.002552955
	0.01525597	-0.002877379	-0.0002827357	2.459274e-05	-0.04022611	-0.01911164	-0.0001122586	7.284844e-05
	-4.012092e-07	0.0002109573	0.01531173	-0.002552955	-0.0001122586	7.284844e-05	-0.04014623	-0.01860707
1.2e+08	-0.04105645	-0.01100271	-8.649734e-05	6.596523e-05	0.01376252	-0.004778689	4.762398e-05	0.000199417
	-8.649734e-05	6.596523e-05	-0.04101841	-0.0104733	-0.0003380819	6.38624e-05	0.01387266	-0.004457482
	0.01376252	-0.004778689	-0.0003380819	6.38624e-05	-0.04130647	-0.01086891	-8.216345e-05	8.205723e-05
	4.762398e-05	0.000199417	0.01387266	-0.004457482	-8.216345e-05	8.205723e-05	-0.04115431	-0.01036098
1.3e+08	-0.03959321	-0.003226575	-6.475042e-05	7.106336e-05	0.01174549	-0.006094443	8.829803e-05	0.0001799122
	-6.475042e-05	7.106336e-05	-0.03945916	-0.002710786	-0.0003787733	0.0001258227	0.01190421	-0.005794791
	0.01174549	-0.006094443	-0.0003787733	0.0001258227	-0.03979896	-0.003059175	-5.723911e-05	8.566922e-05
	8.829803e-05	0.0001799122	0.01190421	-0.005794791	-5.723911e-05	8.566922e-05	-0.03957561	-0.002576812
1.4e+08	-0.03585659	0.003357458	-4.660016e-05	7.283984e-05	0.009417483	-0.006695143	0.0001187193	0.0001564651
	-4.660016e-05	7.283984e-05	-0.03564394	0.003827257	-0.000398682	0.0002040181	0.009612637	-0.006433367
	0.009417483	-0.006695143	-0.000398682	0.0002040181	-0.0360133	0.003544834	-3.640119e-05	8.542473e-05
	0.0001187193	0.0001564651	0.009612637	-0.006433367	-3.640119e-05	8.542473e-05	-0.03573236	0.003974041
1.5e+08	-0.03037612	0.00812701	-3.13338e-05	7.254967e-05	0.007019407	-0.006524039	0.0001336194	0.000138662
	-3.13338e-05	7.254967e-05	-0.03011247	0.008525064	-0.0003941708	0.0002901497	0.007233236	-0.006312164
	0.007019407	-0.006524039	-0.0003941708	0.0002901497	-0.03048272	0.008319451	-1.899536e-05	8.268175e-05
	0.0001336194	0.000138662	0.007233236	-0.006312164	-1.899536e-05	8.268175e-05	-0.03016853	0.008673521
1.6e+08	-0.02384083	0.01066545	-1.842144e-05	7.120581e-05	0.004796835	-0.005602018	0.0001467904	0.0001190862
	-1.842144e-05	7.120581e-05	-0.02356175	0.01097602	-0.0003649185	0.0003754724	0.00500756	-0.005445846
	0.004796835	-0.005602018	-0.0003649185	0.0003754724	-0.0239006	0.01084817	-4.544455e-06	7.857985e-05
	0.0001467904	0.0001190862	0.00500756	-0.005445846	-4.544455e-06	7.857985e-05	-0.02358564	0.01111424
1.7e+08	-0.0170252	0.01079763	-7.064167e-06	6.939473e-05	0.002975983	-0.004025278	0.0001577302	9.798912e-05
	-7.064167e-06	6.939473e-05	-0.01677072	0.01101752	-0.0003137819	0.0004522629	0.003160033	-0.003923077
	0.002975983	-0.004025278	-0.0003137819	0.0004522629	-0.01704568	0.01095744	7.719813e-06	7.384279e-05
	0.0001577302	9.798912e-05	0.003160033	-0.003923077	7.719813e-06	7.384279e-05	-0.01676697	0.01113438
1.8e+08	-0.01070894	0.008601233	3.516055e-06	6.726078e-05	0.001741305	-0.001955841	0.0001660835	7.570782e-05
	3.516055e-06	6.726078e-05	-0.01051926	0.008741035	-0.0002459626	0.0005150075	0.001875957	-0.001897853
	0.001741305	-0.001955841	-0.0002459626	0.0005150075	-0.01070132	0.008727896	1.857679e-05	6.8758e-05
	0.0001660835	7.570782e-05	0.001875957	-0.001897853	1.857679e-05	6.8758e-05	-0.01049617	0.008827587
1.9e+08	-0.005598216	0.004392945	1.391444e-05	6.455587e-05	0.001216809	0.000394525	0.0001716139	5.263242e-05
	1.391444e-05	6.455587e-05	-0.00550898	0.00447683	-0.00016774	0.0005610533	0.001282926	0.0004256572
	0.001216809	0.0003945251	-0.00016774	0.0005610533	-0.005576195	0.004480219	2.865858e-05	6.321436e-05
	0.0001716139	5.263242e-05	0.001282926	0.0004256573	2.865858e-05	6.321436e-05	-0.005477636	0.004527418
2e+08	-0.00225545	-0.001308862	2.440266e-05	6.07684e-05	0.001453106	0.00278573	0.0001741874	2.917766e-05
	2.440266e-05	6.07684e-05	-0.002293289	-0.001245021	-8.508181e-05	0.000590602	0.001437668	0.002813596
	0.001453106	0.00278573	-8.508181e-05	0.000590602	-0.002233921	-0.001262588	3.830671e-05	5.681875e-05
	0.0001741874	2.917766e-05	0.001437668	0.002813596	3.830671e-05	5.681875e-05	-0.002266247	-0.001232005
2.1e+08	-0.001044867	-0.007841247	3.485468e-05	5.530876e-05	0.002421866	0.004974139	0.0001737585	5.762727e-06
	3.485468e-05	5.530876e-05	-0.001223609	-0.007753218	-2.442577e-06	0.0006060744	0.002319965	0.005026368
	0.002421866	0.004974139	-2.442577e-06	0.0006060744	-0.001038367	-0.007832806	4.748989e-05	4.9071e-05
	0.0001737585	5.762727e-06	0.002319965	0.005026368	4.748989e-05	4.9071e-05	-0.001213471	-0.00777506
2.2e+08	-0.002099058	-0.01446765	4.476433e-05	4.771302e-05	0.004018595	0.006738131	0.0001703561	-1.720461e-05
	4.476433e-05	4.771302e-05	-0.002417205	-0.01430739	7.797144e-05	0.0006110118	0.003834643	0.006843567
	0.004018595	0.006738131	7.797144e-05	0.0006110118	-0.002120279	-0.01448945	5.580936e-05	3.956146e-05
	0.0001703561	-1.720461e-05	0.003834643	0.006843567	5.580936e-05	3.956146e-05	-0.002435152	-0.01435727
2.3e+08	-0.005309902	-0.0204552	5.335571e-05	3.781658e-05	0.006073737	0.007901534	0.0001640699	-3.933718e-05
	5.335571e-05	3.781658e-05	-0.005749722	-0.02017614	0.0001563185	0.0006087944	0.005821682	0.008087079
	0.006073737	0.007901534	0.0001563185	0.0006087944	-0.005368381	-0.02049602	6.259567e-05	2.81442e-05
	0.0001640699	-3.933718e-05	0.005821682	0.008087079	6.259567e-05	2.81442e-05	-0.005804212	-0.02024381
2.4e+08	-0.01034448	-0.02515017	5.976175e-05	2.585481e-05	0.008370947	0.008352152	0.0001550403	-6.027158e-05
	5.976175e-05	2.585481e-05	-0.01087292	-0.02471269	0.0002346306	0.0006014747	0.008073414	0.008639608
	0.008370947	0.008352152	0.0002346306	0.0006014747	-0.01044562	-0.0251964	6.707455e-05	1.504303e-05
	0.0001550403	-6.027158e-05	0.008073414	0.008639608	6.707455e-05	1.504303e-05	-0.01096868	-0.02478558
2.5e+08	-0.01668381	-0.02804383	6.323064e-05	1.246887e-05	0.01067044	0.00805316	0.000143449	-7.967023e-05
	6.323064e-05	1.246887e-05	-0.01725523	-0.02742022	0.0003157865	0.0005890456	0.01035683	0.008456444
	0.01067044	0.00805316	0.0003157865	0.0005890456	-0.01682833	-0.02808086	6.856461e-05	8.674873e-07
	0.000143449	-7.967023e-05	0.01035683	0.008456444	6.856461e-05	8.674873e-07	-0.01739268	-0.02748473
2.6e+08	-0.02367984	-0.02882178	6.317523e-05	-1.285049e-06	0.0127346	0.00704611	0.0001295162	-9.722053e-05
	6.317523e-05	-1.285049e-06	-0.02424039	-0.0280002	0.0004137264	0.0005517774	0.01243834	0.007569179
	0.0127346	0.00704611	0.0004137264	0.0005517774	-0.02386374	-0.02883563	6.652042e-05	-1.336897e-05
	0.0001295162	-9.722053e-05	0.01243834	0.007569179	6.652042e-05	-1.336897e-05	-0.02441549	-0.0280432
2.7e+08	-0.03062423	-0.02739237	5.969512e-05	-1.435592e-05	0.0143529	0.005445387	0.0001134995	-0.0001126346
	5.969512e-05	-1.435592e-05	-0.03111735	-0.02637906	0.0005136257	0.0004970381	0.01410799	0.006081148
	0.0143529	0.005445387	0.0005136257	0.0004970381	-0.03083925	-0.02737104	6.106485e-05	-2.664579e-05
	0.0001134995	-0.0001126346	0.01410799	0.006081148	6.106485e-05	-2.664579e-05	-0.031322	-0.02638936
2.8e+08	-0.03682155	-0.0238918	5.322336e-05	-2.571285e-05	0.01536323	0.003425071	9.569461e-05	-0.0001256559
	5.322336e-05	-2.571285e-05	-0.03719403	-0.02271155	0.0006112877	0.0004240463	0.01520062	0.004155456
	0.01536323	0.003425071	0.0006112877	0.0004240463	-0.03705598	-0.02382657	5.263855e-05	-3.795096e-05
	9.569461e-05	-0.0001256559	0.01520062	0.004155456	5.263855e-05	-3.795096e-05	-0.03741693	-0.02268111
2.9e+08	-0.04165929	-0.01866631	4.454564e-05	-3.455538e-05	0.01566762	0.001199975	7.643398e-05	-0.0001360646
	4.454564e-05	-3.455538e-05	-0.04186739	-0.01736081	0.000702559	0.0003297784	0.01561164	0.00199723
	0.01566762	0.001199975	0.000702559	0.0003297784	-0.04189923	-0.01855268	4.203126e-05	-4.648505e-05
	7.643398e-05	-0.0001360646	0.01561164	0.00199723	4.203126e-05	-4.648505e-05	-0.04209518	-0.01728562
3e+08	-0.04466807	-0.01223397	3.467915e-05	-4.046483e-05	0.01524092	-0.0009968471	5.608298e-05	-0.0001436849
	3.467915e-05	-4.046483e-05	-0.04468275	-0.01085823	0.0007812712	0.0002127866	0.0153063	-0.0001677343
	0.01524092	-0.0009968471	0.0007812712	0.0002127866	-0.04489887	-0.0120721	3.027302e-05	-5.181423e-05
	5.608298e-05	-0.0001436849	0.0153063	-0.0001677343	3.027302e-05	-5.181423e-05	-0.04490144	-0.01073871
3.1e+08	-0.04556635	-0.005230378	2.468352e-05	-4.346021e-05	0.01413204	-0.002937703	3.503426e-05	-0.0001483928
	2.468352e-05	-4.346021e-05	-0.04537732	-0.003847502	0.0008400856	7.412051e-05	0.01432176	-0.002115661
	0.01413204	-0.002937703	0.0008400856	7.412051e-05	-0.04577414	-0.005025113	1.845429e-05	-5.393404e-05
	3.503426e-05	-0.0001483928	0.01432176	-0.002115661	1.845429e-05	-5.393404e-05	-0.04557371	-0.003688549
3.2e+08	-0.04428608	0.001655958	1.547093e-05	-4.396492e-05	0.012458	-0.004422696	1.369841e-05	-0.0001501215
	1.547093e-05	-4.396492e-05	-0.04390386	0.002981143	0.0008716907	-8.220826e-05	0.01276236	-0.003646628
	0.012458	-0.004422696	0.0008716907	-8.220826e-05	-0.04445919	0.00189558	7.540353e-06	-5.324786e-05
	1.369841e-05	-0.0001501215	0.01276236	-0.003646628	7.540353e-06	-5.324786e-05	-0.04406695	0.003170648
3.3e+08	-0.04097718	0.007752408	7.652834e-06	-4.269482e-05	0.01039163	-0.005299033	-7.505657e-06	-0.000148864
	7.652834e-06	-4.269482e-05	-0.04043309	0.00896019	0.0008701054	-0.0002493543	0.01078858	-0.004603686
	0.01039163	-0.005299033	0.0008701054	-0.0002493543	-0.04110739	0.008014053	-1.783973e-06	-5.04678e-05
	-7.505657e-06	-0.000148864	0.01078858	-0.004603686	-1.783973e-06	-5.04678e-05	-0.04055523	0.009168271
3.4e+08	-0.03599092	0.01246862	1.452658e-06	-4.049229e-05	0.008144203	-0.005475628	-2.81601e-05	-0.0001446744
	1.452658e-06	-4.049229e-05	-0.03533481	0.01351104	0.0008318099	-0.0004183367	0.008601098	-0.004887711
	0.008144203	-0.005475628	0.0008318099	-0.0004183367	-0.03607432	0.0127379	-9.210105e-06	-4.645962e-05
	-2.81601e-05	-0.0001446744	0.008601098	-0.004887711	-9.210105e-06	-4.645962e-05	-0.03541254	0.01372383
3.5e+08	-0.02984389	0.01535439	-3.298517e-06	-3.814138e-05	0.00594463	-0.004931841	-4.78572e-05	-0.0001376666
	-3.298517e-06	-3.814138e-05	-0.02913982	0.01620095	0.0007564799	-0.0005791623	0.006421081	-0.004466812
	0.00594463	-0.004931841	0.0007564799	-0.0005791623	-0.02988133	0.01561635	-1.4823e-05	-4.206381e-05
	-4.78572e-05	-0.0001376666	0.006421081	-0.004466812	-1.4823e-05	-4.206381e-05	-0.02917426	0.01640411
3.6e+08	-0.02316611	0.01614366	-7.084467e-06	-3.620104e-05	0.004016856	-0.003719572	-6.620773e-05	-0.0001280134
	-7.084467e-06	-3.620104e-05	-0.02248624	0.01678537	0.0006471659	-0.0007221691	0.004468618	-0.003379472
	0.004016856	-0.003719572	0.0006471659	-0.0007221691	-0.02316318	0.01638426	-1.903889e-05	-3.79283e-05
	-6.620773e-05	-0.0001280134	0.004468618	-0.003379472	-1.903889e-05	-3.79283e-05	-0.02248306	0.01696559
3.7e+08	-0.01663807	0.01478033	-1.055981e-05	-3.489167e-05	0.002557552	-0.001958411	-8.284959e-05	-0.0001159444
	-1.055981e-05	-3.489167e-05	-0.01605546	0.0152318	0.0005098851	-0.0008393147	0.002940961	-0.001731013
	0.002557552	-0.001958411	0.0005098851	-0.0008393147	-0.0166046	0.01498797	-2.247523e-05	-3.438722e-05
	-8.284959e-05	-0.0001159444	0.002940961	-0.001731013	-2.247523e-05	-3.438722e-05	-0.01602436	0.01537817
3.8e+08	-0.0109228	0.0114234	-1.43699e-05	-3.405918e-05	0.00171612	0.0001759436	-9.74571e-05	-0.0001017427
	-1.43699e-05	-3.405918e-05	-0.01050376	0.01172237	0.0003527072	-0.0009251612	0.001992664	0.000316528
	0.00171612	0.0001759436	0.0003527072	-0.0009251612	-0.01087189	0.01159014	-2.578018e-05	-3.14113e-05
	-9.74571e-05	-0.0001017427	0.001992664	0.000316528	-2.578018e-05	-3.14113e-05	-0.01045748	0.01182759
3.9e+08	-0.006599614	0.006430609	-1.897337e-05	-3.322612e-05	0.001579071	0.002469147	-0.000109751	-8.574002e-05
	-1.897337e-05	-3.322612e-05	-0.006396393	0.006635117	0.0001845222	-0.0009773624	0.001719631	0.002560403
	0.001579071	0.002469147	0.0001845222	-0.0009773624	-0.006546309	0.006553054	-2.945779e-05	-2.864189e-05
	-0.000109751	-8.574002e-05	0.001719631	0.002560403	-2.945779e-05	-2.864189e-05	-0.00634947	0.006696315
4e+08	-0.004106152	0.0003221066	-2.450752e-05	-3.17209e-05	0.002160589	0.004690016	-0.0001195074	-6.830852e-05
	-2.450752e-05	-3.17209e-05	-0.004150826	0.0005053342	1.375065e-05	-0.0009965677	0.002148877	0.004777662
	0.002160589	0.004690016	1.375065e-05	-0.0009965677	-0.004065934	0.0004018504	-3.372831e-05	-2.550311e-05
	-0.0001195074	-6.830852e-05	0.002148877	0.004777662	-3.372831e-05	-2.550311e-05	-0.004118053	0.0005244408
4.1e+08	-0.003694825	-0.00627231	-3.072953e-05	-2.885651e-05	0.003400553	0.006614516	-0.000126566	-4.984976e-05
	-3.072953e-05	-2.885651e-05	-0.003994999	-0.006029031	-0.0001527414	-0.0009857841	0.003235365	0.006748137
	0.003400553	0.006614516	-0.0001527414	-0.0009857841	-0.003681959	-0.006228771	-3.84569e-05	-2.136719e-05
	-0.000126566	-4.984976e-05	0.003235365	0.006748137	-3.84569e-05	-2.136719e-05	-0.003989882	-0.006045406
4.2e+08	-0.005408127	-0.01267704	-3.704902e-05	-2.411791e-05	0.005170519	0.008049338	-0.0001308332	-3.078205e-05
	-3.704902e-05	-2.411791e-05	-0.005945076	-0.01229237	-0.000310298	-0.0009493533	0.004866512	0.008277433
	0.005170519	0.008049338	-0.000310298	-0.0009493533	-0.005434148	-0.01265892	-4.316907e-05	-1.573517e-05
	-0.0001308332	-3.078205e-05	0.004866512	0.008277433	-4.316907e-05	-1.573517e-05	-0.005978379	-0.01233357
4.3e+08	-0.009075468	-0.0182389	-4.264661e-05	-1.731339e-05	0.007287172	0.008852343	-0.0001322836	-1.152734e-05
	-4.264661e-05	-1.731339e-05	-0.009804973	-0.01763998	-0.0004565801	-0.0008917897	0.006874021	0.009217281
	0.007287172	0.008852343	-0.0004565801	-0.0008917897	-0.009147915	-0.01823219	-4.715072e-05	-8.389945e-06
	-0.0001322836	-1.152734e-05	0.006874021	0.009217281	-4.715072e-05	-8.389945e-06	-0.009883533	-0.01769239
4.4e+08	-0.01433172	-0.02239261	-4.665091e-05	-8.652344e-06	0.00953181	0.008947476	-0.000130957	7.500782e-06
	-4.665091e-05	-8.652344e-06	-0.01518763	-0.02152302	-0.0005911304	-0.0008167434	0.009051774	0.009480876
	0.00953181	0.008947476	-0.0005911304	-0.0008167434	-0.01445328	-0.02238153	-4.960935e-05	5.163561e-07
	-0.000130957	7.500782e-06	0.009051774	0.009480876	-4.960935e-05	5.163561e-07	-0.01531358	-0.02157143
4.5e+08	-0.0206553	-0.02471672	-4.833208e-05	1.269231e-06	0.01167359	0.008332398	-0.0001269541	2.59073e-05
	-4.833208e-05	1.269231e-06	-0.02155553	-0.02354294	-0.0007145245	-0.0007263278	0.01117767	0.009051452
	0.01167359	0.008332398	-0.0007145245	-0.0007263278	-0.02082349	-0.02468535	-4.985798e-05	1.046116e-05
	-0.0001269541	2.59073e-05	0.01117767	0.009051452	-4.985798e-05	1.046116e-05	-0.02172606	-0.02357219
4.6e+08	-0.02742163	-0.02497438	-4.726557e-05	1.15719e-05	0.0134938	0.007078061	-0.0001204299	4.332404e-05
	-4.726557e-05	1.15719e-05	-0.02827605	-0.02349012	-0.0008273327	-0.0006209492	0.01303684	0.00798321
	0.0134938	0.007078061	-0.0008273327	-0.0006209492	-0.02762895	-0.02490831	-4.747673e-05	2.06362e-05
	-0.0001204299	4.332404e-05	0.01303684	0.00798321	-4.747673e-05	2.06362e-05	-0.0284836	-0.02348673
4.7e+08	-0.03396605	-0.02313503	-4.342972e-05	2.125925e-05	0.01480845	0.00532047	-0.0001115888	5.941697e-05
	-4.342972e-05	2.125925e-05	-0.03468545	-0.0213629	-0.0009291476	-0.000499667	0.01444367	0.006394728
