!$
! Info: Touchstone file created by Circ.  Input file=Tx_12in_Rx_100ohms_TxVia_10mils_RxVia_20mils.circ
!$
# Hz S RI R 50
0	0.01243831	9.248291e-26	9.51569e-13	1.906085e-28	7.765156e-05	1.562191e-23	-4.672207e-09	5.720042e-25
	9.53175e-13	1.90794e-28	0.01244114	1.071035e-25	-3.363224e-12	3.748253e-28	7.508376e-05	1.770435e-23
	7.769895e-05	1.563104e-23	-3.411731e-12	3.807422e-28	0.01245302	9.272705e-26	-1.280357e-09	1.56688e-25
	-4.670088e-09	5.717447e-25	7.653853e-05	1.822202e-23	-1.280402e-09	1.566935e-25	0.01244669	1.021282e-25
1e+07	0.0178825	0.007323979	6.699201e-12	-9.989542e-12	0.0003801349	0.002108875	-6.861582e-09	1.704601e-08
	6.69923e-12	-9.989812e-12	0.01843035	0.007351081	4.477187e-12	-1.097472e-11	0.0007993785	0.002146742
	0.0003801391	0.002108872	4.477188e-12	-1.097447e-11	0.01724871	0.007694069	-4.509055e-09	1.62733e-08
	-6.861582e-09	1.704601e-08	0.0007994117	0.002146731	-4.509055e-09	1.62733e-08	0.01826405	0.007375765
2e+07	0.02364342	0.01004997	9.84121e-12	-8.707257e-12	0.001138439	0.004128269	-3.213118e-09	1.45773e-08
	9.841023e-12	-8.707372e-12	0.02409607	0.009901324	1.041027e-11	-1.061644e-11	0.001414397	0.004371369
	0.001138437	0.004128266	1.041044e-11	-1.06163e-11	0.02355938	0.01083009	-4.735044e-09	1.359373e-08
	-3.213118e-09	1.45773e-08	0.001414395	0.004371348	-4.735044e-09	1.359373e-08	0.02398959	0.01000534
3e+07	0.02858709	0.01024461	7.343243e-12	-1.130951e-11	0.002335989	0.00585569	1.299824e-10	1.270326e-08
	7.343212e-12	-1.130949e-11	0.02895314	0.0100376	6.990261e-12	-1.664286e-11	0.002506626	0.006170858
	0.002335989	0.00585569	6.990293e-12	-1.664289e-11	0.02892461	0.01104472	1.513598e-10	1.325463e-08
	1.299824e-10	1.270326e-08	0.002506621	0.006170856	1.513598e-10	1.325463e-08	0.02890006	0.01016743
4e+07	0.03291238	0.009017519	3.415265e-12	-1.390828e-11	0.003893232	0.007227081	2.689167e-09	1.098574e-08
	3.415297e-12	-1.390829e-11	0.03319479	0.008788545	3.089327e-12	-2.213882e-11	0.004008124	0.007578749
	0.003893233	0.00722708	3.089293e-12	-2.213881e-11	0.0335775	0.00969728	3.66287e-09	1.164418e-08
	2.689167e-09	1.098574e-08	0.004008123	0.007578751	3.66287e-09	1.164418e-08	0.0331899	0.008922922
5e+07	0.03657088	0.006713697	-2.556354e-12	-1.836777e-11	0.005712532	0.00817542	4.82736e-09	9.578878e-09
	-2.556342e-12	-1.836778e-11	0.0367727	0.006486411	-3.117254e-12	-2.986326e-11	0.005942051	0.00843853
	0.005712533	0.008175419	-3.117268e-12	-2.986324e-11	0.03747354	0.007190502	6.010572e-09	1.046655e-08
	4.82736e-09	9.578878e-09	0.00594205	0.008438531	6.010572e-09	1.046655e-08	0.03680891	0.006612305
6e+07	0.03947126	0.003572884	-1.281496e-11	-2.294652e-11	0.007684267	0.008656057	7.375517e-09	8.593331e-09
	-1.281494e-11	-2.294649e-11	0.03959949	0.00336794	-1.000294e-11	-4.031262e-11	0.007979782	0.008814151
	0.007684269	0.008656056	-1.000295e-11	-4.031266e-11	0.04052203	0.003798433	7.487181e-09	1.14121e-08
	7.375517e-09	8.593331e-09	0.007979779	0.008814152	7.487181e-09	1.14121e-08	0.03966961	0.003476041
7e+07	0.041526	-0.0001895364	-4.45125e-11	-2.567514e-11	0.009705892	0.008634908	1.379884e-08	7.784113e-09
	-4.451242e-11	-2.567505e-11	0.04159117	-0.0003549036	2.368224e-11	-4.9884e-11	0.01000979	0.008700549
	0.009705894	0.008634908	2.368228e-11	-4.988412e-11	0.04263703	-0.0002372892	9.035465e-10	1.642617e-08
	1.379884e-08	7.784112e-09	0.01000978	0.008700551	9.035471e-10	1.642617e-08	0.041687	-0.0002717935
8e+07	0.04267129	-0.004361471	3.472661e-11	6.066361e-10	0.0116431	0.008134877	4.99347e-10	-3.40427e-08
	3.472672e-11	6.066358e-10	0.04268667	-0.004473806	-2.036226e-11	6.587081e-12	0.01192074	0.008116835
	0.0116431	0.008134877	-2.036222e-11	6.587039e-12	0.04375777	-0.004682836	-4.333735e-09	4.922842e-09
	4.993471e-10	-3.40427e-08	0.01192074	0.008116839	-4.333734e-09	4.922841e-09	0.04279866	-0.004420318
9e+07	0.0428769	-0.008730702	-8.424762e-11	-9.403881e-12	0.01338565	0.007194198	-2.725541e-09	-1.980114e-09
	-8.424764e-11	-9.40395e-12	0.04285822	-0.008780378	-3.674556e-11	-1.076086e-11	0.01360723	0.007106237
	0.01338566	0.007194197	-3.674557e-11	-1.076085e-11	0.04385658	-0.009308222	-1.212832e-09	1.126179e-09
	-2.725541e-09	-1.980114e-09	0.01360723	0.007106241	-1.212832e-09	1.126179e-09	0.04297613	-0.008758159
1e+08	0.04216494	-0.01308408	-2.344928e-11	1.686637e-11	0.01484163	0.005875682	-2.389488e-11	3.10148e-11
	-2.344928e-11	1.686637e-11	0.04213156	-0.01306481	-4.192296e-11	-9.563904e-12	0.0149688	0.005732149
	0.01484163	0.005875682	-4.192296e-11	-9.563904e-12	0.04293498	-0.01389219	-3.40009e-11	2.782937e-11
	-2.389488e-11	3.10148e-11	0.0149688	0.005732149	-3.40009e-11	2.782937e-11	0.04224372	-0.01307319
1.1e+08	0.0405551	-0.01732471	-1.596841e-11	2.346662e-11	0.01592459	0.004234639	-1.482188e-11	3.939805e-11
	-1.596841e-11	2.346662e-11	0.04052572	-0.01724469	-4.028579e-11	-8.821681e-13	0.01593987	0.004124358
	0.01592459	0.004234639	-4.028579e-11	-8.821681e-13	0.04105909	-0.01817927	-2.419394e-11	3.817724e-11
	-1.482188e-11	3.939805e-11	0.01593987	0.004124358	-2.419394e-11	3.817724e-11	0.04062459	-0.0172721
1.2e+08	0.03805326	-0.02116632	-7.696881e-12	2.723902e-11	0.01655604	0.002395239	-6.641247e-12	4.432181e-11
	-7.696881e-12	2.723902e-11	0.03803713	-0.02103103	-3.661396e-11	3.893655e-12	0.01650467	0.002344148
	0.01655604	0.002395239	-3.661396e-11	3.893655e-12	0.03835849	-0.02200754	-1.321577e-11	4.441524e-11
	-6.641247e-12	4.432181e-11	0.01650467	0.002344148	-1.321577e-11	4.441524e-11	0.03812325	-0.02107263
1.3e+08	0.03480307	-0.02442808	-1.425804e-12	2.883748e-11	0.016712	0.0004724907	7.572886e-13	4.73841e-11
	-1.425804e-12	2.883748e-11	0.03481042	-0.02424446	-3.272145e-11	5.685121e-12	0.01662344	0.0004899965
	0.016712	0.0004724907	-3.272145e-11	5.685121e-12	0.03494659	-0.02522204	-4.479819e-12	4.738172e-11
	7.572886e-13	4.73841e-11	0.01662344	0.0004899965	-4.479819e-12	4.738172e-11	0.03488283	-0.02429627
1.4e+08	0.03096043	-0.02696964	5.727011e-12	2.914568e-11	0.01639062	-0.001417807	9.243623e-12	4.896004e-11
	5.727011e-12	2.914568e-11	0.03099985	-0.02674693	-2.800796e-11	6.796989e-12	0.01628988	-0.001330912
	0.01639062	-0.001417807	-2.800796e-11	6.796989e-12	0.03097454	-0.02769348	5.497042e-12	4.856677e-11
	9.243623e-12	4.896004e-11	0.01628988	-0.001330912	5.497042e-12	4.856677e-11	0.03105802	-0.02680508
1.5e+08	0.02670132	-0.0286884	1.341663e-11	2.787579e-11	0.01561651	-0.003163303	1.842992e-11	4.870155e-11
	1.341663e-11	2.787579e-11	0.02677891	-0.02843782	-2.267429e-11	6.937691e-12	0.01552466	-0.003012785
	0.01561651	-0.003163303	-2.267429e-11	6.937691e-12	0.02661613	-0.02932751	1.623824e-11	4.756086e-11
	1.842992e-11	4.870155e-11	0.01552466	-0.003012785	1.623824e-11	4.756086e-11	0.02682303	-0.02849855
1.6e+08	0.02221573	-0.02952213	2.1245e-11	2.483638e-11	0.01443973	-0.00466113	2.786068e-11	4.636731e-11
	2.1245e-11	2.483638e-11	0.02233455	-0.02925624	-1.698594e-11	5.901779e-12	0.01437343	-0.004457811
	0.01443973	-0.00466113	-1.698594e-11	5.901779e-12	0.02205938	-0.03006876	2.718871e-11	4.40909e-11
	2.786068e-11	4.636731e-11	0.01437343	-0.004457811	2.718871e-11	4.40909e-11	0.02236552	-0.02931605
1.7e+08	0.01769973	-0.02945072	2.87693e-11	1.993846e-11	0.01293297	-0.005823618	3.702327e-11	4.18312e-11
	2.87693e-11	1.993846e-11	0.01785943	-0.02918266	-1.125691e-11	3.56711e-12	0.01290386	-0.005581923
	0.01293297	-0.005823618	-1.125691e-11	3.56711e-12	0.01749809	-0.02990289	3.77285e-11	3.802823e-11
	3.702327e-11	4.18312e-11	0.01290386	-0.005581923	3.77285e-11	3.802823e-11	0.01787882	-0.02923842
1.8e+08	0.01334689	-0.02849627	3.552183e-11	1.320478e-11	0.01118731	-0.006583187	4.536951e-11	3.509489e-11
	3.552183e-11	1.320478e-11	0.01354355	-0.02823883	-5.830654e-12	-9.939028e-14	0.01120167	-0.006319666
	0.01118731	-0.006583187	-5.830654e-12	-9.939028e-14	0.0131231	-0.02885681	4.720098e-11	2.940206e-11
	4.536951e-11	3.509489e-11	0.01120167	-0.006319666	4.720098e-11	2.940206e-11	0.01355358	-0.02828794
1.9e+08	0.009339615	-0.02672142	4.103262e-11	4.772979e-12	0.009306936	-0.006896113	5.234407e-11	2.629591e-11
	4.103262e-11	4.772979e-12	0.009565893	-0.02648617	-1.058255e-12	-5.036011e-12	0.009365539	-0.006627934
	0.009306936	-0.006896113	-1.058255e-12	-5.036011e-12	0.009113711	-0.02699708	5.494857e-11	1.840993e-11
	5.234407e-11	2.629591e-11	0.009365539	-0.006627934	5.494857e-11	1.840993e-11	0.00956924	-0.02652663
2e+08	0.005840934	-0.02422589	4.48632e-11	-5.093146e-12	0.007403028	-0.006744896	5.741455e-11	1.57149e-11
	4.48632e-11	-5.093146e-12	0.006086381	-0.02402224	2.725752e-12	-1.10866e-11	0.00750138	-0.006488382
	0.007403028	-0.006744896	2.725752e-12	-1.10866e-11	0.005629532	-0.02442643	6.035413e-11	5.420417e-12
	5.741455e-11	1.57149e-11	0.00750138	-0.006488382	6.035413e-11	5.420417e-12	0.006086097	-0.0240528
2.1e+08	0.002987141	-0.02114124	4.663684e-11	-1.601409e-11	0.005587328	-0.00613911	6.011163e-11	3.774946e-12
	4.663684e-11	-1.601409e-11	0.003238803	-0.02097569	5.228281e-12	-1.800494e-11	0.005716185	-0.00590839
	0.005587328	-0.00613911	5.228281e-12	-1.800494e-11	0.002803273	-0.02127859	6.288534e-11	-9.034445e-12
	6.011163e-11	3.774946e-12	0.005716185	-0.00590839	6.288534e-11	-9.034445e-12	0.003238113	-0.02099588
2.2e+08	0.000881733	-0.01762422	4.606425e-11	-2.751339e-11	0.003965647	-0.005114667	6.006539e-11	-8.978126e-12
	4.606425e-11	-2.751339e-11	0.001124937	-0.01749971	6.222635e-12	-2.546511e-11	0.004111857	-0.004920504
	0.003965647	-0.005114667	6.222635e-12	-2.546511e-11	0.0007348116	-0.01771164	6.213865e-11	-2.427905e-11
	6.006539e-11	-8.978126e-12	0.004111857	-0.004920504	6.213865e-11	-2.427905e-11	0.001127067	-0.01750985
2.3e+08	-0.0004090608	-0.01384892	4.297249e-11	-3.903592e-11	0.002631772	-0.003731541	5.703863e-11	-2.189763e-11
	4.297249e-11	-3.903592e-11	-0.0001897523	-0.01376438	5.570063e-12	-3.308061e-11	0.002779367	-0.003580432
	0.002631772	-0.003731541	5.570063e-12	-3.308061e-11	-0.0005131625	-0.01390021	5.787875e-11	-3.952673e-11
	5.703863e-11	-2.189763e-11	0.002779367	-0.003580432	5.787875e-11	-3.952673e-11	-0.0001817657	-0.01376559
2.4e+08	-0.0008589258	-0.009998082	3.732676e-11	-4.997742e-11	0.001662125	-0.00207012	5.095516e-11	-3.426988e-11
	3.732676e-11	-4.997742e-11	-0.0006786626	-0.009948288	3.236186e-12	-4.042903e-11	0.001793592	-0.001963688
	0.001662125	-0.00207012	3.236186e-12	-4.042903e-11	-0.0009176705	-0.01002692	5.006987e-11	-5.392372e-11
	5.095516e-11	-3.426988e-11	0.001793592	-0.001963688	5.006987e-11	-5.392372e-11	-0.0006621549	-0.009942412
2.5e+08	-0.0004821099	-0.006254172	2.924383e-11	-5.972055e-11	0.001111462	-0.0002263795	4.191829e-11	-4.535665e-11
	2.924383e-11	-5.972055e-11	-0.000354659	-0.006229842	-6.997419e-13	-4.708136e-11	0.001209126	-0.0001611275
	0.001111462	-0.0002263795	-6.997419e-13	-4.708136e-11	-0.0004959915	-0.00627347	3.889419e-11	-6.660259e-11
	4.191829e-11	-4.535665e-11	0.001209126	-0.0001611275	3.889419e-11	-6.660259e-11	-0.0003275058	-0.00621935
2.6e+08	0.0006679137	-0.002790466	1.8996e-11	-6.767453e-11	0.00100989	0.001693794	3.021773e-11	-5.444264e-11
	1.8996e-11	-6.767453e-11	0.0007312175	-0.002778658	-6.044231e-12	-5.263385e-11	0.001057305	0.001726368
	0.00100989	0.001693794	-6.044231e-12	-5.263385e-11	0.0006957628	-0.002811856	2.475561e-11	-7.674072e-11
	3.021773e-11	-5.444264e-11	0.001057305	0.001726368	2.475561e-11	-7.674072e-11	0.0007704613	-0.002766487
2.7e+08	0.002501723	0.0002372379	7.003754e-12	-7.331585e-11	0.001361326	0.003580795	1.632281e-11	-6.088468e-11
	7.003754e-12	-7.331585e-11	0.002492912	0.0002524744	-1.249829e-11	-5.673946e-11	0.001344599	0.003593735
	0.001361326	0.003580795	-1.249829e-11	-5.673946e-11	0.002565989	0.0002038252	8.266349e-12	-8.361933e-11
	1.632281e-11	-6.088468e-11	0.001344599	0.003593735	8.266349e-12	-8.361933e-11	0.002544913	0.0002630887
2.8e+08	0.004898949	0.002697958	-6.182379e-12	-7.622679e-11	0.002143498	0.005327647	8.623238e-13	-6.415864e-11
	-6.182379e-12	-7.622679e-11	0.00481418	0.002734686	-1.967518e-11	-5.91362e-11	0.00205244	0.00533774
	0.002143498	0.005327647	-1.967518e-11	-5.91362e-11	0.004992645	0.002644601	-9.782501e-12	-8.667816e-11
	8.623238e-13	-6.415864e-11	0.00205244	0.00533774	-9.782501e-12	-8.667816e-11	0.004878772	0.002740413
2.9e+08	0.007714751	0.004491513	-1.991065e-11	-7.61282e-11	0.003309434	0.00683612	-1.540866e-11	-6.389945e-11
	-1.991065e-11	-7.61282e-11	0.007554821	0.00456883	-2.712594e-11	-5.96694e-11	0.003138483	0.00686283
	0.003309434	0.00683612	-2.712594e-11	-5.96694e-11	0.007829746	0.004412486	-2.84656e-11	-8.556034e-11
	-1.540866e-11	-6.389945e-11	0.003138483	0.00686283	-2.84656e-11	-8.556034e-11	0.007631002	0.004566453
3e+08	0.0107874	0.005552876	-3.346517e-11	-7.290387e-11	0.004790357	0.008022281	-3.165188e-11	-5.993107e-11
	-3.346517e-11	-7.290387e-11	0.01055798	0.005689722	-3.437064e-11	-5.830592e-11	0.004539195	0.008086473
	0.004790357	0.008022281	-3.437064e-11	-5.830592e-11	0.01091495	0.005444729	-4.677904e-11	-8.014372e-11
	-3.165188e-11	-5.993107e-11	0.004539195	0.008086473	-4.677904e-11	-8.014372e-11	0.01064396	0.00567634
3.1e+08	0.01394657	0.005854724	-4.610873e-11	-6.661449e-11	0.00649978	0.008821179	-4.699583e-11	-5.228423e-11
	-4.610873e-11	-6.661449e-11	0.01365815	0.006068635	-4.093235e-11	-5.513883e-11	0.006173606	0.008943716
	0.00649978	0.008821179	-4.093235e-11	-5.513883e-11	0.01407786	0.005716249	-6.370283e-11	-7.055623e-11
	-4.699583e-11	-5.228423e-11	0.006173606	0.008943716	-6.370283e-11	-7.055623e-11	0.01375143	0.006041854
3.2e+08	0.01702193	0.005408049	-5.712803e-11	-5.749939e-11	0.00833855	0.009190399	-6.058851e-11	-4.119975e-11
	-5.712803e-11	-5.749939e-11	0.0166894	0.005713948	-4.6371e-11	-5.038208e-11	0.007947995	0.0093907
	0.00833855	0.009190399	-4.6371e-11	-5.038208e-11	0.0171485	0.005240142	-7.8265e-11	-5.717331e-11
	-6.058851e-11	-4.119975e-11	0.007947995	0.0093907	-7.8265e-11	-5.717331e-11	0.01678695	0.005672042
3.3e+08	0.01985155	0.004260877	-6.587786e-11	-4.596654e-11	0.01020057	0.00911232	-7.164883e-11	-2.711826e-11
	-6.587786e-11	-4.596654e-11	0.01949355	0.004669982	-5.031388e-11	-4.435618e-11	0.009761238	0.009406979
	0.01020057	0.00911232	-5.031388e-11	-4.435618e-11	0.01996579	0.004066323	-8.960235e-11	-4.059882e-11
	-7.164883e-11	-2.711826e-11	0.009761238	0.009406979	-8.960235e-11	-4.059882e-11	0.01959196	0.004612009
3.4e+08	0.02228979	0.002495182	-7.18212e-11	-3.257168e-11	0.01197885	0.00859497	-7.951348e-11	-1.065762e-11
	-7.18212e-11	-3.257168e-11	0.02192774	0.00301408	-5.248076e-11	-3.746636e-11	0.01151052	0.008996515
	0.01197885	0.00859497	-5.248076e-11	-3.746636e-11	0.02238523	0.002278345	-9.70136e-11	-2.16314e-11
	-7.951348e-11	-1.065762e-11	0.01151052	0.008996515	-9.70136e-11	-2.16314e-11	0.02202343	0.002939964
3.5e+08	0.02421421	0.0002221415	-7.456208e-11	-1.79878e-11	0.01357154	0.007671435	-8.367556e-11	7.420644e-12
	-7.456208e-11	-1.79878e-11	0.02387114	0.0008521358	-5.270139e-11	-3.017524e-11	0.01309708	0.008187313
	0.01357154	0.007671435	-5.270139e-11	-3.017524e-11	0.02428584	-1.137376e-05	-1.00001e-10	-1.218844e-12
	-8.367556e-11	7.420644e-12	0.01309708	0.008187313	-1.00001e-10	-1.218844e-12	0.02396056	0.0007626855
3.6e+08	0.02553124	-0.002423921	-7.386929e-11	-2.967465e-12	0.01488771	0.006397887	-8.381297e-11	2.62516e-11
	-7.386929e-11	-2.967465e-12	0.02523045	-0.001687189	-5.092512e-11	-2.297293e-11	0.01443172	0.007029746
	0.01488771	0.006397887	-5.092512e-11	-2.297293e-11	0.02557564	-0.002667673	-9.82991e-11	1.959465e-11
	-8.381297e-11	2.62516e-11	0.01443172	0.007029746	-9.82991e-11	1.959465e-11	0.02531033	-0.001790307
3.7e+08	0.02618028	-0.005292674	-6.969157e-11	1.16961e-11	0.01585239	0.00485034	-7.980891e-11	4.491362e-11
	-6.969157e-11	1.16961e-11	0.02594397	-0.004459261	-4.722233e-11	-1.634658e-11	0.01543976	0.005593654
	0.01585239	0.00485034	-4.722233e-11	-1.634658e-11	0.02619578	-0.005539786	-9.189005e-11	3.972636e-11
	-7.980891e-11	4.491362e-11	0.01543976	0.005593654	-9.189005e-11	3.972636e-11	0.0260115	-0.004573605
3.8e+08	0.02613622	-0.008225588	-6.216087e-11	2.521394e-11	0.0164108	0.003120301	-7.175664e-11	6.247543e-11
	-6.216087e-11	2.521394e-11	0.02598405	-0.007310929	-4.177857e-11	-1.075157e-11	0.01606512	0.003964377
	0.0164108	0.003120301	-4.177857e-11	-1.075157e-11	0.02612282	-0.008469151	-8.100405e-11	5.811214e-11
	-7.175664e-11	6.247543e-11	0.01606512	0.003964377	-8.100405e-11	5.811214e-11	0.02603708	-0.007433413
3.9e+08	0.02541003	-0.01106403	-5.158647e-11	3.684242e-11	0.01653142	0.00130958	-5.995675e-11	7.804302e-11
	-5.158647e-11	3.684242e-11	0.02535786	-0.01008829	-3.488246e-11	-6.58591e-12	0.01627346	0.002237954
	0.01653142	0.00130958	-3.488246e-11	-6.58591e-12	0.02536937	-0.01129749	-6.610815e-11	7.376138e-11
	-5.995675e-11	7.804302e-11	0.01627346	0.002237954	-6.610815e-11	7.376138e-11	0.025395	-0.01021536
4e+08	0.02404765	-0.01365726	-3.844017e-11	4.592181e-11	0.01620774	-0.0004754794	-4.490408e-11	9.080405e-11
	-3.844017e-11	4.592181e-11	0.02410636	-0.01264437	-2.690871e-11	-4.168739e-12	0.01605402	0.0005157225
	0.01620774	-0.0004754794	-2.690871e-11	-4.168739e-12	0.02398283	-0.01387476	-4.788375e-11	8.580739e-11
	-4.490408e-11	9.080405e-11	0.01605402	0.0005157225	-4.788375e-11	8.580739e-11	0.02412714	-0.01277218
4.1e+08	0.02212713	-0.01586995	-2.33337e-11	5.191034e-11	0.01545864	-0.002130034	-2.726625e-11	1.000683e-10
	-2.33337e-11	5.191034e-11	0.02230176	-0.01484634	-1.829749e-11	-3.723473e-12	0.01542026	-0.001101364
	0.01545864	-0.002130034	-1.829749e-11	-3.723473e-12	0.02204247	-0.01606661	-2.719482e-11	9.355145e-11
	-2.726625e-11	1.000683e-10	0.01542026	-0.001101364	-2.719482e-11	9.355145e-11	0.02230664	-0.01497102
4.2e+08	0.01975414	-0.01758879	-6.989699e-12	5.441242e-11	0.01432731	-0.003556694	-7.854438e-12	1.053028e-10
	-6.989699e-12	5.441242e-11	0.02004331	-0.01658199	-9.53118e-12	-5.365908e-12	0.01440905	-0.002518419
	0.01432731	-0.003556694	-9.53118e-12	-5.365908e-12	0.0196549	-0.01776096	-5.047922e-12	9.649922e-11
	-7.854438e-12	1.053028e-10	0.01440905	-0.002518419	-5.047922e-12	9.649922e-11	0.02003368	-0.01669985
4.3e+08	0.01705625	-0.01872803	9.792408e-12	5.320003e-11	0.01287885	-0.004671081	1.241228e-11	1.061603e-10
	9.792408e-12	5.320003e-11	0.01745192	-0.01776504	-1.10949e-12	-9.097336e-12	0.01307859	-0.003651967
	0.01287885	-0.004671081	-1.10949e-12	-9.097336e-12	0.0169483	-0.01887342	1.745433e-11	9.438861e-11
	1.241228e-11	1.061603e-10	0.01307859	-0.003651967	1.745433e-11	9.438861e-11	0.01743006	-0.01787278
4.4e+08	0.01417601	-0.01923343	2.617422e-11	4.822667e-11	0.01119657	-0.005406662	3.254801e-11	1.025013e-10
	2.617422e-11	4.822667e-11	0.01466371	-0.01833914	6.476303e-12	-1.480281e-11	0.01150517	-0.00443467
	0.01119657	-0.005406662	6.476303e-12	-1.480281e-11	0.01406553	-0.01935118	3.916491e-11	8.720801e-11
	3.254801e-11	1.025013e-10	0.01150517	-0.00443467	3.916491e-11	8.720801e-11	0.01463264	-0.01843409
4.5e+08	0.01126349	-0.01908469	4.131851e-11	3.963339e-11	0.009377228	-0.005718582	5.154567e-11	9.440676e-11
	4.131851e-11	3.963339e-11	0.01182283	-0.01828032	1.276917e-11	-2.225458e-11	0.009778796	-0.004819149
	0.009377228	-0.005718582	1.276917e-11	-2.225458e-11	0.01115658	-0.01917539	5.894789e-11	7.5204e-11
	5.154567e-11	9.440676e-11	0.009778796	-0.004819149	5.894789e-11	7.5204e-11	0.01178618	-0.01836057
4.6e+08	0.00846835	-0.01829604	5.443004e-11	2.774652e-11	0.007525522	-0.005586272	6.842559e-11	8.218184e-11
	5.443004e-11	2.774652e-11	0.009074	-0.01759775	1.737438e-11	-3.112643e-11	0.007998137	-0.00478068
	0.007525522	-0.005586272	1.737438e-11	-3.112643e-11	0.008370746	-0.01836162	7.573084e-11	5.887576e-11
	6.842559e-11	8.218184e-11	0.007998137	-0.00478068	7.573084e-11	5.887576e-11	0.009035776	-0.01766231
4.7e+08	0.005932109	-0.01691509	6.479579e-11	1.30672e-11	0.005748084	-0.005014665	8.228383e-11	6.634969e-11
	6.479579e-11	1.30672e-11	0.006555061	-0.0163328	1.997916e-11	-4.101992e-11	0.006264872	-0.00431861
	0.005748084	-0.005014665	1.997916e-11	-4.101992e-11	0.005848888	-0.01695867	8.854445e-11	3.896704e-11
	8.228383e-11	6.634969e-11	0.006264872	-0.00431861	8.854445e-11	3.896704e-11	0.006519449	-0.01638161
