!$
! Info: Touchstone file created by Circ.  Input file=Tx_10in_Rx_100ohms_TxVia_10mils_RxVia_20mils.circ
!$
# Hz S RI R 50
0	0.01041145	7.137731e-26	3.211322e-09	4.433354e-27	6.519083e-05	1.061818e-23	-3.51551e-09	4.63952e-25
	3.211314e-09	4.433499e-27	0.01041105	9.165124e-26	-3.145583e-09	4.334469e-25	6.463934e-05	1.480141e-23
	6.746407e-05	1.064264e-23	-3.143663e-09	4.332094e-25	0.0104038	6.233511e-26	1.257175e-08	1.718514e-29
	-3.512795e-09	4.636179e-25	6.609488e-05	1.52342e-23	1.257184e-08	1.702659e-29	0.01041662	8.740552e-26
1e+07	0.0153192	0.006478265	5.266482e-09	7.76075e-09	0.0006403424	0.001832133	1.219192e-08	5.551267e-08
	5.266482e-09	7.760751e-09	0.0153167	0.006476302	3.944153e-11	5.75422e-08	0.0006374744	0.001832898
	0.0006403912	0.001832107	3.944175e-11	5.75422e-08	0.01518186	0.006496161	-9.259298e-09	4.5165e-08
	1.219192e-08	5.551267e-08	0.0006375073	0.001832887	-9.259299e-09	4.5165e-08	0.0151794	0.006494112
2e+07	0.01991361	0.009133616	8.637467e-09	1.315388e-08	0.001062318	0.003755468	3.48451e-08	7.154102e-08
	8.637466e-09	1.315388e-08	0.01990336	0.009130535	4.522235e-09	7.940667e-08	0.001051451	0.003759034
	0.001062311	0.003755443	4.522235e-09	7.940667e-08	0.01982247	0.009217367	-3.21957e-09	4.56343e-08
	3.48451e-08	7.154102e-08	0.001051449	0.003759012	-3.21957e-09	4.56343e-08	0.01981275	0.00921445
3e+07	0.0239175	0.009916304	1.271208e-08	1.736791e-08	0.001847491	0.005374052	6.891429e-08	8.02291e-08
	1.271208e-08	1.736791e-08	0.02389417	0.009914828	1.298597e-08	1.044131e-07	0.001824273	0.005383779
	0.001847492	0.005374048	1.298597e-08	1.044131e-07	0.0238667	0.01002374	3.880356e-09	5.15886e-08
	6.891429e-08	8.02291e-08	0.001824268	0.005383776	3.880356e-09	5.15886e-08	0.02384551	0.01002216
4e+07	0.02755004	0.009652818	1.721869e-08	2.016357e-08	0.002962184	0.006735656	1.045734e-07	7.808502e-08
	1.721869e-08	2.016357e-08	0.02750927	0.009657327	1.99763e-08	1.278297e-07	0.002923345	0.006756075
	0.002962188	0.006735652	1.99763e-08	1.278297e-07	0.02753658	0.009768119	1.276215e-08	5.504662e-08
	1.045734e-07	7.808502e-08	0.002923345	0.006756076	1.276215e-08	5.504662e-08	0.02749928	0.009771434
5e+07	0.03081656	0.00857657	2.176433e-08	2.146571e-08	0.00446565	0.007729172	1.401434e-07	6.557109e-08
	2.176433e-08	2.146571e-08	0.03075538	0.008592666	2.548258e-08	1.506513e-07	0.004409231	0.007765511
	0.004465651	0.00772917	2.548258e-08	1.506513e-07	0.03083571	0.008689535	2.236796e-08	5.470637e-08
	1.401434e-07	6.557109e-08	0.004409231	0.007765512	2.236796e-08	5.470637e-08	0.03077929	0.008703458
6e+07	0.0336745	0.006831654	2.601556e-08	2.131887e-08	0.006105984	0.008394098	1.735525e-07	4.235798e-08
	2.601556e-08	2.131887e-08	0.03359159	0.00686573	2.997316e-08	1.731926e-07	0.006031648	0.008452229
	0.006105983	0.0083941	2.997316e-08	1.731926e-07	0.03372133	0.00693529	3.145179e-08	5.068633e-08
	1.735525e-07	4.235798e-08	0.006031645	0.00845223	3.145179e-08	5.068633e-08	0.03364498	0.006965862
7e+07	0.03606888	0.004534905	2.960395e-08	1.980661e-08	0.007818498	0.008714122	2.020841e-07	8.597033e-09
	2.960395e-08	1.980661e-08	0.03596476	0.004593636	3.372051e-08	1.955155e-07	0.007727553	0.008799992
	0.007818498	0.008714126	3.372051e-08	1.955155e-07	0.03613834	0.004623826	3.887115e-08	4.362542e-08
	2.020841e-07	8.597032e-09	0.007727548	0.008799994	3.887115e-08	4.362542e-08	0.03604256	0.004676836
8e+07	0.03794746	0.00179683	3.217174e-08	1.70974e-08	0.009535113	0.008684324	2.228435e-07	-3.47188e-08
	3.217174e-08	1.70974e-08	0.03782445	0.001886681	3.689006e-08	2.176483e-07	0.009430486	0.00880355
	0.009535115	0.008684328	3.689006e-08	2.176483e-07	0.03803396	0.001866772	4.380682e-08	3.443583e-08
	2.228435e-07	-3.47188e-08	0.009430481	0.008803553	4.380682e-08	3.443583e-08	0.03792032	0.001948025
9e+07	0.03926907	-0.001271183	3.339813e-08	1.344794e-08	0.01118668	0.008312059	2.3313e-07	-8.573456e-08
	3.339813e-08	1.344794e-08	0.03913116	-0.0011444	3.953203e-08	2.396828e-07	0.01107282	0.008469547
	0.01118669	0.008312062	3.953203e-08	2.396828e-07	0.03936624	-0.001223404	4.582026e-08	2.415061e-08
	2.3313e-07	-8.573456e-08	0.01107281	0.00846955	4.582026e-08	2.415061e-08	0.03923771	-0.001108023
1e+08	0.04002125	-0.004548472	3.302269e-08	9.198386e-09	0.01270003	0.00761399	2.307233e-07	-1.418392e-07
	3.302269e-08	9.198386e-09	0.03987395	-0.004380005	4.171949e-08	2.616418e-07	0.01258269	0.007813586
	0.01270003	0.00761399	4.171949e-08	2.616418e-07	0.04012049	-0.004525599	4.486659e-08	1.378091e-08
	2.307233e-07	-1.418392e-07	0.01258269	0.007813586	4.486659e-08	1.378091e-08	0.03998187	-0.004370567
1.1e+08	0.04019044	-0.008030185	3.089494e-08	4.750165e-09	0.01401372	0.006664744	2.162376e-07	-1.991212e-07
	3.089494e-08	4.750165e-09	0.0400398	-0.007815213	4.121867e-08	2.852221e-07	0.01389936	0.006908565
	0.01401372	0.006664743	4.121867e-08	2.852221e-07	0.04028386	-0.008023307	4.198951e-08	7.95437e-09
	2.162376e-07	-1.991212e-07	0.01389936	0.006908565	4.198951e-08	7.95437e-09	0.04014136	-0.007824557
1.2e+08	0.0396872	-0.01152302	2.693649e-08	5.20484e-10	0.01511295	0.005481566	1.873383e-07	-2.55529e-07
	2.693649e-08	5.20484e-10	0.03954165	-0.01125996	4.00308e-08	3.092e-07	0.01500941	0.005770533
	0.01511295	0.005481566	4.00308e-08	3.092e-07	0.03977486	-0.01152876	3.665857e-08	2.434931e-09
	1.873383e-07	-2.55529e-07	0.01500941	0.005770533	3.665857e-08	2.434931e-09	0.03963682	-0.01128474
1.3e+08	0.03855494	-0.01489649	2.116921e-08	-3.045781e-09	0.01594626	0.004107979	1.439746e-07	-3.075751e-07
	2.116921e-08	-3.045781e-09	0.03842313	-0.01458581	3.826913e-08	3.337275e-07	0.01586159	0.004440998
	0.01594626	0.004107979	3.826913e-08	3.337275e-07	0.03863559	-0.01491248	2.890696e-08	-2.182933e-09
	1.439746e-07	-3.075751e-07	0.01586159	0.004440998	2.890696e-08	-2.182933e-09	0.03851038	-0.01462373
1.4e+08	0.0368392	-0.01803981	1.371632e-08	-5.507472e-09	0.0164794	0.002600492	8.691647e-08	-3.517381e-07
	1.371632e-08	-5.507472e-09	0.03672963	-0.01768395	3.607015e-08	3.589404e-07	0.01642142	0.002974471
	0.0164794	0.002600492	3.607015e-08	3.589404e-07	0.03691184	-0.0180637	1.890349e-08	-5.309654e-09
	8.691647e-08	-3.517381e-07	0.01642142	0.002974471	1.890349e-08	-5.309654e-09	0.03680753	-0.01773271
1.5e+08	0.03459963	-0.02085405	4.802904e-09	-6.447974e-09	0.01669123	0.001021771	1.775886e-08	-3.846563e-07
	4.802904e-09	-6.447974e-09	0.03452026	-0.02045744	3.359512e-08	3.849482e-07	0.01666712	0.001431709
	0.01669123	0.001021771	3.359512e-08	3.849482e-07	0.0346637	-0.02088357	6.953133e-09	-6.389525e-09
	1.775886e-08	-3.846563e-07	0.01666712	0.001431709	6.953133e-09	-6.389525e-09	0.03458767	-0.02051461
1.6e+08	0.03190982	-0.0232534	-5.248453e-09	-5.498085e-09	0.01657406	-0.00056245	-6.111502e-08	-4.033179e-07
	-5.248453e-09	-5.498085e-09	0.03186763	-0.02282229	3.102691e-08	4.118281e-07	0.01658988	-0.0001233001
	0.01657406	-0.0005624501	3.102691e-08	4.118281e-07	0.03196514	-0.02328635	-6.509191e-09	-4.931481e-09
	-6.111502e-08	-4.033179e-07	0.01658988	-0.0001233001	-6.509191e-09	-4.931481e-09	0.03192385	-0.02288538
1.7e+08	0.02885562	-0.025167	-1.602734e-08	-2.358411e-09	0.01613366	-0.002086214	-1.466135e-07	-4.052408e-07
	-1.602734e-08	-2.358411e-09	0.02885625	-0.02470932	2.856489e-08	4.396202e-07	0.01619404	-0.001626098
	0.01613366	-0.002086214	2.856489e-08	4.396202e-07	0.0289024	-0.02520135	-2.093213e-08	-5.389621e-10
	-1.466135e-07	-4.052408e-07	0.01619404	-0.001626098	-2.093213e-08	-5.389621e-10	0.02890099	-0.02477579
1.8e+08	0.02553279	-0.02654069	-2.705052e-08	3.180114e-09	0.01538904	-0.003486087	-2.350574e-07	-3.886337e-07
	-2.705052e-08	3.180114e-09	0.02558012	-0.02606573	2.641818e-08	4.683232e-07	0.01549675	-0.003014421
	0.01538904	-0.003486087	2.641818e-08	4.683232e-07	0.02557155	-0.02657461	-3.566839e-08	7.062975e-09
	-2.350574e-07	-3.886337e-07	0.01549675	-0.003014421	-3.566839e-08	7.062975e-09	0.02561356	-0.0261331
1.9e+08	0.02204416	-0.02733848	-3.778181e-08	1.121888e-08	0.01437155	-0.00470377	-3.223368e-07	-3.525299e-07
	-3.778181e-08	1.121888e-08	0.02214004	-0.02685653	2.479737e-08	4.978909e-07	0.01452731	-0.004230735
	0.01437155	-0.004703771	2.479737e-08	4.978909e-07	0.02207572	-0.02737032	-5.00017e-08	1.800503e-08
	-3.223368e-07	-3.525299e-07	0.01452731	-0.004230735	-5.00017e-08	1.800503e-08	0.02216279	-0.02692242
2e+08	0.01849644	-0.02754341	-4.765618e-08	2.173863e-08	0.01312361	-0.005688487	-4.040973e-07	-2.968829e-07
	-4.765618e-08	2.173863e-08	0.0186404	-0.02706531	2.390511e-08	5.282314e-07	0.01332586	-0.005224564
	0.01312361	-0.005688487	2.390511e-08	5.282314e-07	0.01852187	-0.02757179	-6.31791e-08	3.225703e-08
	-4.040973e-07	-2.968829e-07	0.01332586	-0.005224564	-6.31791e-08	3.225703e-08	0.01865354	-0.02712755
2.1e+08	0.01499685	-0.02715796	-5.610707e-08	3.459202e-08	0.01169695	-0.006399052	-4.759472e-07	-2.226221e-07
	-5.610707e-08	3.459202e-08	0.01518602	-0.0266946	2.392602e-08	5.592076e-07	0.01194178	-0.005954516
	0.01169695	-0.006399052	2.392602e-08	5.592076e-07	0.01501742	-0.02718176	-7.444729e-08	4.961869e-08
	-4.759472e-07	-2.226221e-07	0.01194178	-0.005954516	-7.444729e-08	4.961869e-08	0.015191	-0.02675125
2.2e+08	0.01164973	-0.02620379	-6.259567e-08	4.950233e-08	0.01015048	-0.006805547	-5.336749e-07	-1.316598e-07
	-6.259567e-08	4.950233e-08	0.01187874	-0.02576555	2.50165e-08	5.906406e-07	0.01043168	-0.006389943
	0.01015048	-0.006805547	2.50165e-08	5.906406e-07	0.01166687	-0.02622218	-8.309131e-08	6.971863e-08
	-5.336749e-07	-1.316598e-07	0.01043168	-0.006389943	-8.309131e-08	6.971863e-08	0.01187738	-0.02581502
2.3e+08	0.008553146	-0.02472086	-6.664064e-08	6.606918e-08	0.00854787	-0.006890529	-5.734686e-07	-2.685075e-08
	-6.664064e-08	6.606918e-08	0.008814276	-0.02431704	2.729505e-08	6.223155e-07	0.008857034	-0.006512157
	0.00854787	-0.006890529	2.729505e-08	6.223155e-07	0.008568394	-0.02473331	-8.847354e-08	9.202239e-08
	-5.734686e-07	-2.685075e-08	0.008857034	-0.006512157	-8.847354e-08	9.202239e-08	0.008808659	-0.02435816
2.4e+08	0.005795704	-0.02276593	-6.784666e-08	8.378109e-08	0.006954907	-0.006649725	-5.921236e-07	8.809686e-08
	-6.784666e-08	8.378109e-08	0.006079089	-0.02240427	3.08338e-08	6.539896e-07	0.007281753	-0.00631515
	0.006954907	-0.006649725	3.08338e-08	6.539896e-07	0.005810663	-0.02277227	-9.007087e-08	1.158495e-07
	-5.921236e-07	8.809686e-08	0.007281753	-0.00631515	-9.007087e-08	1.158495e-07	0.006071516	-0.0224363
2.5e+08	0.003453749	-0.02041056	-6.593e-08	1.020348e-07	0.005436826	-0.006092175	-5.872307e-07	2.087564e-07
	-6.593e-08	1.020348e-07	0.00374772	-0.0200967	3.56519e-08	6.854026e-07	0.005769531	-0.005805808
	0.005436826	-0.006092175	3.56519e-08	6.854026e-07	0.003470009	-0.02041095	-8.750805e-08	1.403989e-07
	-5.872307e-07	2.087564e-07	0.005769531	-0.005805808	-8.750805e-08	1.403989e-07	0.003740599	-0.02011942
2.6e+08	0.001588886	-0.01773856	-6.073956e-08	1.201608e-07	0.004055621	-0.00523983	-5.573327e-07	3.301578e-07
	-6.073956e-08	1.201608e-07	0.001880423	-0.01747565	4.171137e-08	7.162885e-07	0.004381296	-0.00500358
	0.004055621	-0.00523983	4.171137e-08	7.162885e-07	0.001607955	-0.01773349	-8.058489e-08	1.647826e-07
	-5.573327e-07	3.301578e-07	0.004381296	-0.00500358	-8.058489e-08	1.647826e-07	0.001876165	-0.01748935
2.7e+08	0.0002460577	-0.01484304	-5.227188e-08	1.374529e-07	0.002867522	-0.004126618	-5.020415e-07	4.469969e-07
	-5.227188e-08	1.374529e-07	0.0005213315	-0.01463146	4.891575e-08	7.463887e-07	0.003172745	-0.003939652
	0.002867522	-0.004126618	4.891575e-08	7.463887e-07	0.0002693025	-0.01483331	-6.929576e-08	1.880648e-07
	-5.020415e-07	4.469969e-07	0.003172745	-0.003939652	-6.929576e-08	1.880648e-07	0.0005222496	-0.01463691
2.8e+08	-0.0005477967	-0.01182316	-4.067905e-08	1.532023e-07	0.001920704	-0.002797014	-4.22109e-07	5.538678e-07
	-4.067905e-08	1.532023e-07	-0.0003028185	-0.01166029	5.711192e-08	7.754652e-07	0.002192116	-0.00265563
	0.001920704	-0.002797014	5.711192e-08	7.754652e-07	-0.0005192148	-0.01180987	-5.383986e-08	2.093054e-07
	-4.22109e-07	5.538678e-07	0.002192116	-0.00265563	-5.383986e-08	2.093054e-07	-0.0002946087	-0.01165877
2.9e+08	-0.0007844718	-0.008780686	-2.626875e-08	1.667325e-07	0.001253354	-0.001304181	-3.194469e-07	6.455101e-07
	-2.626875e-08	1.667325e-07	-0.0005833762	-0.008660884	6.609503e-08	8.033132e-07	0.001478268	-0.001201817
	0.001253354	-0.001304181	6.609503e-08	8.033132e-07	-0.0007496616	-0.008765167	-3.462143e-08	2.276062e-07
	-3.194469e-07	6.455101e-07	0.001478268	-0.001201817	-3.462143e-08	2.276062e-07	-0.0005660634	-0.008654091
3e+08	-0.0004745635	-0.005816503	-9.496176e-09	1.774333e-07	0.0008921428	0.0002922291	-1.970919e-07	7.170584e-07
	-9.496176e-09	1.774333e-07	-0.0003298353	-0.005731186	7.561632e-08	8.297723e-07	0.001059164	0.0003648634
	0.0008921428	0.0002922291	7.561632e-08	8.297723e-07	-0.0004329427	-0.005800247	-1.223956e-08	2.421553e-07
	-1.970919e-07	7.170584e-07	0.001059164	0.0003648634	-1.223956e-08	2.421553e-07	-0.0003019918	-0.005721183
3.1e+08	0.0003531213	-0.003027148	9.05177e-09	1.847939e-07	0.0008511907	0.001928541	-5.911874e-08	7.642822e-07
	9.05177e-09	1.847939e-07	0.0004307347	-0.002965021	8.539351e-08	8.54736e-07	0.0009507967	0.001983194
	0.0008511907	0.001928541	8.539351e-08	8.54736e-07	0.0004017903	-0.003011755	1.253201e-08	2.522701e-07
	-5.911874e-08	7.642822e-07	0.0009507967	0.001983194	1.253201e-08	2.522701e-07	0.0004700792	-0.002954151
3.2e+08	0.001652776	-0.0005015551	2.867935e-08	1.884301e-07	0.001131546	0.003539662	8.949904e-08	7.838052e-07
	2.867935e-08	1.884301e-07	0.001654848	-0.0004489837	9.512305e-08	8.781585e-07	0.00115661	0.003590145
	0.001131546	0.003539662	9.512305e-08	8.781585e-07	0.001708371	-0.0004886515	3.877432e-08	2.57434e-07
	8.949904e-08	7.838052e-07	0.00115661	0.003590145	3.877432e-08	2.57434e-07	0.001706155	-0.0004397687
3.3e+08	0.003363398	0.001681908	4.861073e-08	1.881077e-07	0.001721201	0.00506173	2.430734e-07	7.732936e-07
	4.861073e-08	1.881077e-07	0.003284322	0.001740407	1.044936e-07	9.000579e-07	0.001667431	0.005123422
	0.001721201	0.00506173	1.044936e-07	9.000579e-07	0.003425437	0.00169075	6.546026e-08	2.573265e-07
	2.430734e-07	7.732936e-07	0.001667431	0.005123422	6.546026e-08	2.573265e-07	0.003347515	0.001745376
3.4e+08	0.005411091	0.003458007	6.802311e-08	1.837573e-07	0.002595641	0.0064347	3.954245e-07	7.316029e-07
	6.802311e-08	1.837573e-07	0.005248475	0.003539168	1.132001e-07	9.205172e-07	0.002461909	0.006523945
	0.002595641	0.0064347	1.132001e-07	9.205172e-07	0.005478749	0.003461345	9.149765e-08	2.518449e-07
	3.954245e-07	7.316029e-07	0.002461909	0.006523945	9.149765e-08	2.518449e-07	0.00532293	0.003537343
3.5e+08	0.007711801	0.004776711	8.608248e-08	1.754832e-07	0.003718888	0.007604746	5.401328e-07	6.588768e-07
	8.608248e-08	1.754832e-07	0.007466736	0.004897839	1.209571e-07	9.396818e-07	0.00350744	0.0077382
	0.003718888	0.007604746	1.209571e-07	9.396818e-07	0.007783948	0.004773307	1.15776e-07	2.411156e-07
	5.401328e-07	6.588768e-07	0.00350744	0.0077382	1.15776e-07	2.411156e-07	0.007551301	0.004886829
3.6e+08	0.01017437	0.005604711	1.019803e-07	1.635629e-07	0.005045006	0.008526408	6.708097e-07	5.565922e-07
	1.019803e-07	1.635629e-07	0.009851546	0.005782949	1.275116e-07	9.57754e-07	0.00476152	0.00872033
	0.005045006	0.008526408	1.275116e-07	9.57754e-07	0.01024962	0.005593591	1.372151e-07	2.25496e-07
	6.708097e-07	5.565922e-07	0.00476152	0.00872033	1.372151e-07	2.25496e-07	0.009944579	0.005760629
3.7e+08	0.0127038	0.005926328	1.149695e-07	1.484404e-07	0.006519989	0.009164381	7.81375e-07	4.275476e-07
	1.149695e-07	1.484404e-07	0.01231147	0.006177905	1.326537e-07	9.749853e-07	0.006173497	0.009433926
	0.006519989	0.009164381	1.326537e-07	9.749853e-07	0.01278057	0.005906838	1.548124e-07	2.055657e-07
	7.81375e-07	4.275476e-07	0.006173497	0.009433926	1.548124e-07	2.055657e-07	0.0124109	0.006142514
3.8e+08	0.01520461	0.005743805	1.24398e-07	1.307111e-07	0.00808396	0.009494888	8.663303e-07	2.757929e-07
	1.24398e-07	1.307111e-07	0.01475439	0.006083292	1.362263e-07	9.916665e-07	0.007686617	0.009853412
	0.00808396	0.009494888	1.362263e-07	9.916665e-07	0.01528119	0.005715646	1.676888e-07	1.821084e-07
	8.663303e-07	2.757929e-07	0.007686617	0.009853412	1.676888e-07	1.821084e-07	0.01485781	0.006033514
3.9e+08	0.01758414	0.00507696	1.297382e-07	1.111009e-07	0.009673588	0.009506595	9.210148e-07	1.065046e-07
	1.297382e-07	1.111009e-07	0.01709069	0.005516567	1.381311e-07	1.008117e-06	0.0092403	0.009965009
	0.009673588	0.009506595	1.381311e-07	1.008117e-06	0.01765879	0.005040205	1.751282e-07	1.560845e-07
	9.210148e-07	1.065046e-07	0.0092403	0.009965009	1.751282e-07	1.560845e-07	0.01719542	0.005451602
4e+08	0.01975578	0.003962241	1.306126e-07	9.043947e-08	0.01122463	0.009201014	9.418338e-07	-7.419166e-08
	1.306126e-07	9.043947e-08	0.01923626	0.004511197	1.383335e-07	1.024673e-06	0.01077255	0.009767226
	0.01122463	0.009201014	1.383335e-07	1.024673e-06	0.01982678	0.003917342	1.76613e-07	1.285968e-07
	9.418338e-07	-7.419166e-08	0.01077255	0.009767226	1.76613e-07	1.285968e-07	0.01933951	0.004430799
4.1e+08	0.02164183	0.002451206	1.268126e-07	6.962948e-08	0.01267449	0.008592415	9.264497e-07	-2.594439e-07
	1.268126e-07	6.962948e-08	0.02111533	0.003115238	1.368644e-07	1.041672e-06	0.01222239	0.00927087
	0.01267449	0.008592415	1.368644e-07	1.041672e-06	0.02170759	0.002398979	1.718502e-07	1.00849e-07
	9.264497e-07	-2.594439e-07	0.01222239	0.00927087	1.718502e-07	1.00849e-07	0.02121426	0.003019745
4.2e+08	0.02317614	0.0006085125	1.183119e-07	4.961233e-08	0.01396471	0.007707223	8.739251e-07	-4.419334e-07
	1.183119e-07	4.961233e-08	0.02266294	0.001389457	1.338202e-07	1.059448e-06	0.0135323	0.008498575
	0.01396471	0.007707223	1.338202e-07	1.059448e-06	0.02323528	0.0005501025	1.607906e-07	7.41005e-08
	8.739251e-07	-4.419334e-07	0.0135323	0.008498575	1.607906e-07	7.41005e-08	0.02275483	0.001279778
4.3e+08	0.02430626	-0.001490538	1.052728e-07	3.1332e-08	0.01504329	0.006582949	7.848132e-07	-6.141627e-07
	1.052728e-07	3.1332e-08	0.023827	-0.0005949714	1.293603e-07	1.078309e-06	0.01465041	0.00748388
	0.01504329	0.006582949	1.293603e-07	1.078309e-06	0.02435763	-0.001553697	1.436385e-07	4.961749e-08
	7.848132e-07	-6.141627e-07	0.01465041	0.00748388	1.436385e-07	4.961749e-08	0.02390933	-0.0007173723
4.4e+08	0.02499504	-0.003762777	8.804608e-08	1.569799e-08	0.01586676	0.005266685	6.611885e-07	-7.687594e-07
	8.804608e-08	1.569799e-08	0.02456992	-0.002759078	1.23703e-07	1.098536e-06	0.01553259	0.00626988
	0.01586676	0.005266685	1.23703e-07	1.098536e-06	0.02503783	-0.003829028	1.208516e-07	2.862252e-08
	6.611885e-07	-7.687594e-07	0.01553259	0.00626988	1.208516e-07	2.862252e-08	0.02464047	-0.002892239
4.5e+08	0.02522175	-0.006120201	6.71633e-08	3.548475e-09	0.01640188	0.003813227	5.066163e-07	-8.987854e-07
	6.71633e-08	3.548475e-09	0.02486963	-0.005018953	1.171188e-07	1.120362e-06	0.01614411	0.004907516
	0.01640188	0.003813227	1.171188e-07	1.120362e-06	0.02525552	-0.006187733	9.313181e-08	1.224457e-08
	5.066163e-07	-8.987854e-07	0.01614411	0.004907516	9.313181e-08	1.224457e-08	0.02492666	-0.005160483
4.6e+08	0.02498264	-0.008473128	4.332292e-08	-4.385068e-09	0.01662696	0.002282897	3.260593e-07	-9.980381e-07
	4.332292e-08	-4.385068e-09	0.02472023	-0.007288735	1.099233e-07	1.143973e-06	0.01646106	0.003453563
	0.01662696	0.002282897	1.099233e-07	1.143973e-06	0.02500732	-0.008540057	6.140649e-08	1.470855e-09
	3.260593e-07	-9.980381e-07	0.01646106	0.003453563	6.140649e-08	1.470855e-09	0.02476245	-0.007435904
4.7e+08	0.02429079	-0.01073339	1.73693e-08	-7.510729e-09	0.01653277	0.0007391445	1.257242e-07	-1.061331e-06
	1.73693e-08	-7.510729e-09	0.02413186	-0.009483623	1.024669e-07	1.169491e-06	0.0164712	0.001968386
	0.01653277	0.0007391445	1.024669e-07	1.169491e-06	0.02430667	-0.01079785	2.679986e-08	-2.897323e-09
	1.257242e-07	-1.061331e-06	0.0164712	0.001968386	2.679986e-08	-2.897323e-09	0.02415851	-0.009633474
4.8e+08	0.02317547	-0.01281744	-9.734551e-09	-5.405226e-09	0.01612286	-0.0007539773	-8.71483e-08	-1.084744e-06
	-9.734551e-09	-5.405226e-09	0.02313019	-0.01152283	9.512432e-08	1.196972e-06	0.01617454	0.0005135599
