!$
! Info: Touchstone file created by Circ.  Input file=Tx_12in_Rx_100ohms_TxVia_10mils_RxVia_20mils.circ
!$
# Hz S RI R 50
0	0.0124405	7.67374e-26	1.086476e-10	2.585994e-28	7.698996e-05	1.320984e-23	-5.002914e-09	6.127877e-25
	1.086595e-10	2.587819e-28	0.01244114	1.071035e-25	5.396813e-10	3.794395e-27	7.508376e-05	1.770435e-23
	7.568988e-05	1.287121e-23	5.396203e-10	3.801506e-27	0.01245564	8.034311e-26	-9.07807e-09	1.125603e-24
	-5.002039e-09	6.126805e-25	7.653853e-05	1.822202e-23	-9.078263e-09	1.125627e-24	0.01244669	1.021282e-25
1e+07	0.01824918	0.007372595	4.975071e-11	-3.007461e-11	0.0008032223	0.002148565	-5.851619e-09	1.717815e-08
	4.975071e-11	-3.00749e-11	0.01843035	0.007351081	6.777829e-10	1.054139e-09	0.0007993785	0.002146742
	0.0008031781	0.002148568	6.777829e-10	1.054139e-09	0.01844861	0.007351274	-7.256753e-09	1.706981e-08
	-5.851619e-09	1.717815e-08	0.0007994117	0.002146731	-7.256753e-09	1.706981e-08	0.01826405	0.007375765
2e+07	0.02398037	0.00999977	4.556269e-11	-3.076443e-11	0.00142861	0.004372018	-4.044927e-09	1.415478e-08
	4.556247e-11	-3.07645e-11	0.02409607	0.009901324	8.702485e-10	1.851684e-09	0.001414397	0.004371369
	0.001428599	0.004372046	8.702487e-10	1.851684e-09	0.02412462	0.009898593	-5.62194e-09	1.492524e-08
	-4.044927e-09	1.415478e-08	0.001414395	0.004371348	-5.62194e-09	1.492524e-08	0.02398959	0.01000534
3e+07	0.02889925	0.0101563	5.069229e-11	-6.667673e-11	0.002536434	0.006165314	1.288545e-10	1.308295e-08
	5.069226e-11	-6.667668e-11	0.02895314	0.0100376	9.588817e-10	2.603547e-09	0.002506626	0.006170858
	0.002536435	0.006165318	9.588817e-10	2.603547e-09	0.02899743	0.01002702	-8.401313e-10	1.452237e-08
	1.288545e-10	1.308295e-08	0.002506621	0.006170856	-8.401312e-10	1.452237e-08	0.02890006	0.01016743
4e+07	0.03320104	0.008904493	3.91772e-11	-1.008651e-10	0.0040569	0.007560461	3.389305e-09	1.119847e-08
	3.917718e-11	-1.008652e-10	0.03319479	0.008788545	1.018196e-09	3.368955e-09	0.004008124	0.007578749
	0.004056896	0.007560458	1.018196e-09	3.368955e-09	0.03325818	0.008763176	2.85982e-09	1.287814e-08
	3.389305e-09	1.119847e-08	0.004008123	0.007578751	2.85982e-09	1.287814e-08	0.0331899	0.008922922
5e+07	0.03683524	0.006581558	2.50031e-11	-1.272913e-10	0.006010943	0.008400175	5.526018e-09	9.283445e-09
	2.500306e-11	-1.272913e-10	0.0367727	0.006486411	1.065953e-09	4.128871e-09	0.005942051	0.00843853
	0.006010941	0.008400174	1.065953e-09	4.128871e-09	0.03685585	0.006438214	5.20908e-09	1.108151e-08
	5.526018e-09	9.283445e-09	0.00594205	0.008438531	5.20908e-09	1.108151e-08	0.03680891	0.006612305
6e+07	0.03971153	0.003426909	2.723665e-11	-1.472043e-10	0.008067337	0.00874799	6.876151e-09	7.995008e-09
	2.723676e-11	-1.472043e-10	0.03959949	0.00336794	1.100309e-09	4.870642e-09	0.007979782	0.008814151
	0.008067343	0.008747988	1.100309e-09	4.870642e-09	0.03970018	0.003288803	6.506425e-09	9.862142e-09
	6.876151e-09	7.995008e-09	0.007979779	0.008814152	6.506425e-09	9.862142e-09	0.03966961	0.003476041
7e+07	0.04174294	-0.0003448864	1.311399e-10	-1.64681e-10	0.01011206	0.008599392	7.37825e-09	8.388223e-09
	1.311402e-10	-1.646811e-10	0.04159117	-0.0003549036	1.134399e-09	5.546182e-09	0.01000979	0.008700549
	0.01011207	0.008599386	1.134399e-09	5.546182e-09	0.04170441	-0.0004722251	6.560864e-09	9.905538e-09
	7.37825e-09	8.388223e-09	0.01000978	0.008700551	6.560864e-09	9.905538e-09	0.041687	-0.0002717935
8e+07	0.04286575	-0.004522501	-8.764251e-10	-1.154987e-09	0.01203151	0.007974747	2.56899e-09	1.069825e-08
	-8.764246e-10	-1.154987e-09	0.04268667	-0.004473806	1.372691e-09	6.323162e-09	0.01192074	0.008116835
	0.01203152	0.007974736	1.372691e-09	6.323162e-09	0.04280512	-0.004634864	3.12641e-09	1.080567e-08
	2.568989e-09	1.069825e-08	0.01192074	0.008116839	3.12641e-09	1.080567e-08	0.04279866	-0.004420318
9e+07	0.04304995	-0.008894129	-9.238769e-11	-2.563883e-10	0.01371842	0.006919168	-1.783656e-09	3.436267e-09
	-9.238735e-11	-2.563888e-10	0.04285822	-0.008780378	1.290473e-09	7.291381e-09	0.01360723	0.007106237
	0.01371843	0.006919159	1.290473e-09	7.291381e-09	0.04297281	-0.008988394	-1.300401e-09	5.710313e-09
	-1.783656e-09	3.436267e-09	0.01360723	0.007106241	-1.3004e-09	5.710312e-09	0.04297613	-0.008758159
1e+08	0.04231802	-0.01324663	-9.334264e-11	-1.640936e-10	0.01507107	0.00549843	-2.804841e-10	2.111709e-10
	-9.334264e-11	-1.640936e-10	0.04213156	-0.01306481	1.15576e-09	8.113518e-09	0.0149688	0.005732149
	0.01507107	0.00549843	1.15576e-09	8.113518e-09	0.04223217	-0.01332022	-4.718469e-10	1.962527e-09
	-2.804841e-10	2.111709e-10	0.0149688	0.005732149	-4.718469e-10	1.962527e-09	0.04224372	-0.01307319
1.1e+08	0.04069165	-0.01748476	-1.073912e-10	-1.691265e-10	0.01602359	0.003845478	-2.326507e-10	3.059116e-10
	-1.073912e-10	-1.691265e-10	0.04052572	-0.01724469	1.214537e-09	8.947522e-09	0.01593987	0.004124358
	0.01602359	0.003845478	1.214537e-09	8.947522e-09	0.04060282	-0.01754758	-3.057352e-10	2.275139e-09
	-2.326507e-10	3.059116e-10	0.01593987	0.004124358	-3.057352e-10	2.275139e-09	0.04062459	-0.0172721
1.2e+08	0.0381746	-0.02132329	-1.134141e-10	-1.681998e-10	0.01655996	0.002023924	-1.617143e-10	3.859541e-10
	-1.134141e-10	-1.681998e-10	0.03803713	-0.02103103	1.297496e-09	9.783147e-09	0.01650467	0.002344148
	0.01655996	0.002023924	1.297496e-09	9.783147e-09	0.03807943	-0.02137499	-7.182179e-11	2.554864e-09
	-1.617143e-10	3.859541e-10	0.01650467	0.002344148	-7.182179e-11	2.554864e-09	0.03812325	-0.02107263
1.3e+08	0.03491033	-0.02458123	-1.147547e-10	-1.64481e-10	0.01664149	0.0001351938	-6.87747e-11	4.466036e-10
	-1.147547e-10	-1.64481e-10	0.03481042	-0.02424446	1.404363e-09	1.061403e-08	0.01662344	0.0004899965
	0.01664149	0.0001351939	1.404363e-09	1.061403e-08	0.03480897	-0.02461996	2.169008e-10	2.781422e-09
	-6.87747e-11	4.466036e-10	0.01662344	0.0004899965	2.169008e-10	2.781422e-09	0.03488283	-0.02429627
1.4e+08	0.03105453	-0.02711827	-1.117184e-10	-1.587549e-10	0.01626379	-0.001710949	4.1226e-11	4.819903e-10
	-1.117184e-10	-1.587549e-10	0.03099985	-0.02674693	1.534196e-09	1.143373e-08	0.01628988	-0.001330912
	0.01626379	-0.001710949	1.534196e-09	1.143373e-08	0.03094861	-0.02714218	5.45606e-10	2.939452e-09
	4.1226e-11	4.819903e-10	0.01628988	-0.001330912	5.45606e-10	2.939452e-09	0.03105802	-0.02680508
1.5e+08	0.02678304	-0.02883179	-1.041135e-10	-1.512046e-10	0.01545007	-0.003406691	1.613088e-10	4.876189e-10
	-1.041135e-10	-1.512046e-10	0.02677891	-0.02843782	1.684445e-09	1.223635e-08	0.01552466	-0.003012785
	0.01545007	-0.003406691	1.684445e-09	1.223635e-08	0.02667513	-0.02883953	8.95917e-10	3.018165e-09
	1.613088e-10	4.876189e-10	0.01552466	-0.003012785	8.95917e-10	3.018165e-09	0.02682303	-0.02849855
1.6e+08	0.02228575	-0.02965955	-9.111787e-11	-1.418706e-10	0.01424907	-0.004852923	2.832883e-10	4.610267e-10
	-9.111787e-11	-1.418706e-10	0.02233455	-0.02925624	1.851172e-09	1.301689e-08	0.01437343	-0.004457811
	0.01424907	-0.004852923	1.851172e-09	1.301689e-08	0.02217901	-0.02965045	1.247169e-09	3.011949e-09
	2.832883e-10	4.610267e-10	0.01437343	-0.004457811	1.247169e-09	3.011949e-09	0.02236552	-0.02931605
1.7e+08	0.01775872	-0.02958133	-7.126824e-11	-1.311044e-10	0.01273191	-0.005965129	3.984874e-10	4.020739e-10
	-7.126824e-11	-1.311044e-10	0.01785943	-0.02918266	2.029349e-09	1.377144e-08	0.01290386	-0.005581923
	0.01273191	-0.005965128	2.029349e-09	1.377144e-08	0.01765656	-0.02955558	1.577806e-09	2.920664e-09
	3.984874e-10	4.020739e-10	0.01290386	-0.005581923	1.577806e-09	2.920664e-09	0.01787882	-0.02923842
1.8e+08	0.01339554	-0.02861915	-4.263753e-11	-1.200174e-10	0.01098782	-0.006678329	4.98448e-10	3.129681e-10
	-4.263753e-11	-1.200174e-10	0.01354355	-0.02823883	2.21314e-09	1.449734e-08	0.01120167	-0.006319666
	0.01098782	-0.006678329	2.21314e-09	1.449734e-08	0.01330137	-0.02857774	1.866763e-09	2.749566e-09
	4.98448e-10	3.129681e-10	0.01120167	-0.006319666	1.866763e-09	2.749566e-09	0.01355358	-0.02828794
1.9e+08	0.009378734	-0.02683559	-3.231686e-12	-1.108292e-10	0.009118888	-0.006950839	5.755727e-10	1.980631e-10
	-3.231686e-12	-1.108292e-10	0.009565893	-0.02648617	2.396163e-09	1.51933e-08	0.009365539	-0.006627934
	0.009118888	-0.006950839	2.396163e-09	1.51933e-08	0.009295774	-0.02678032	2.094713e-09	2.508897e-09
	5.755727e-10	1.980631e-10	0.009365539	-0.006627934	2.094713e-09	2.508897e-09	0.00956924	-0.02652663
2e+08	0.005871501	-0.0243303	4.843936e-11	-1.070155e-10	0.007234032	-0.006766634	6.236341e-10	6.349289e-11
	4.843936e-11	-1.070155e-10	0.006086381	-0.02402224	2.571731e-09	1.585939e-08	0.00750138	-0.006488382
	0.007234032	-0.006766634	2.571731e-09	1.585939e-08	0.00580254	-0.02426371	2.245089e-09	2.213256e-09
	6.236341e-10	6.349289e-11	0.00750138	-0.006488382	2.245089e-09	2.213256e-09	0.006086097	-0.0240528
2.1e+08	0.003010342	-0.02123487	1.127172e-10	-1.131734e-10	0.005442641	-0.006136201	6.381231e-10	-8.329091e-11
	1.127172e-10	-1.131734e-10	0.003238803	-0.02097569	2.733091e-09	1.649721e-08	0.005716185	-0.00590839
	0.005442641	-0.006136201	2.733091e-09	1.649721e-08	0.002957612	-0.02116009	2.304896e-09	1.880832e-09
	6.381231e-10	-8.329091e-11	0.005716185	-0.00590839	2.304896e-09	1.880832e-09	0.003238113	-0.02099588
2.2e+08	0.0008989966	-0.01770613	1.882093e-10	-1.345819e-10	0.003848191	-0.005095817	6.164339e-10	-2.340055e-10
	1.882093e-10	-1.345819e-10	0.001124937	-0.01749971	2.873695e-09	1.710986e-08	0.004111857	-0.004920504
	0.003848191	-0.005095817	2.873695e-09	1.710986e-08	0.000864019	-0.01762679	2.265316e-09	1.532574e-09
	6.164339e-10	-2.340055e-10	0.004111857	-0.004920504	2.265316e-09	1.532574e-09	0.001127067	-0.01750985
2.3e+08	-0.0003960634	-0.01391831	2.714025e-10	-1.764906e-10	0.002542253	-0.003705319	5.579186e-10	-3.799939e-10
	2.714025e-10	-1.764906e-10	-0.0001897523	-0.01376438	2.987521e-09	1.770207e-08	0.002779367	-0.003580432
	0.002542253	-0.003705319	2.987521e-09	1.770207e-08	-0.0004125688	-0.01383834	2.122171e-09	1.191346e-09
	5.579186e-10	-3.799939e-10	0.002779367	-0.003580432	2.122171e-09	1.191346e-09	-0.0001817657	-0.01376559
2.4e+08	-0.000848296	-0.01005441	3.56597e-10	-2.432409e-10	0.001599232	-0.002044495	4.638532e-10	-5.126242e-10
	3.56597e-10	-2.432409e-10	-0.0006786626	-0.009948288	3.06948e-09	1.828015e-08	0.001793592	-0.001963688
	0.001599232	-0.002044495	3.06948e-09	1.828015e-08	-0.0008464841	-0.009977874	1.876294e-09	8.810451e-10
	4.638532e-10	-5.126242e-10	0.001793592	-0.001963688	1.876294e-09	8.810451e-10	-0.0006621549	-0.009942412
2.5e+08	-0.0004717644	-0.006297178	4.362126e-10	-3.373659e-10	0.001072154	-0.0002083391	3.373658e-10	-6.236283e-10
	4.362126e-10	-3.373659e-10	-0.000354659	-0.006229842	3.115866e-09	1.885184e-08	0.001209126	-0.0001611275
	0.001072154	-0.0002083391	3.115866e-09	1.885184e-08	-0.0004526908	-0.006228084	1.533807e-09	6.256538e-10
	3.373658e-10	-6.236283e-10	0.001209126	-0.0001611275	1.533807e-09	6.256538e-10	-0.0003275058	-0.00621935
2.6e+08	0.0006801825	-0.002820272	5.01471e-10	-4.588364e-10	0.0009897371	0.001698546	1.833546e-10	-7.054088e-10
	5.01471e-10	-4.588364e-10	0.0007312175	-0.002778658	3.124829e-09	1.942609e-08	0.001057305	0.001726368
	0.0009897371	0.001698546	3.124829e-09	1.942609e-08	0.0007145772	-0.002762355	1.106311e-09	4.48178e-10
	1.833546e-10	-7.054088e-10	0.001057305	0.001726368	1.106311e-09	4.48178e-10	0.0007704613	-0.002766487
2.7e+08	0.002518164	0.0002200926	5.433645e-10	-6.046029e-10	0.001354893	0.003568055	8.405783e-12	-7.513483e-10
	5.433645e-10	-6.046029e-10	0.002492912	0.0002524744	3.0968e-09	2.001255e-08	0.001344599	0.003593735
	0.001354893	0.003568055	3.0968e-09	2.001255e-08	0.002565118	0.0002635673	6.109029e-10	3.694381e-10
	8.405783e-12	-7.513483e-10	0.001344599	0.003593735	6.109029e-10	3.694381e-10	0.002544913	0.0002630887
2.8e+08	0.004921757	0.002692493	5.537752e-10	-7.685439e-10	0.002144746	0.00529483	-1.793138e-10	-7.561564e-10
	5.537752e-10	-7.685439e-10	0.00481418	0.002734686	3.034795e-09	2.062098e-08	0.00205244	0.00533774
	0.002144746	0.00529483	3.034795e-09	2.062098e-08	0.0049778	0.002718913	6.992562e-11	4.067163e-10
	-1.793138e-10	-7.561564e-10	0.00205244	0.00533774	6.992562e-11	4.067163e-10	0.004878772	0.002740413
2.9e+08	0.007745963	0.004496301	5.265621e-10	-9.418486e-10	0.003312131	0.006782283	-3.702284e-10	-7.162653e-10
	5.265621e-10	-9.418486e-10	0.007554821	0.00456883	2.944516e-09	2.126047e-08	0.003138483	0.00686283
	0.003312131	0.006782283	2.944516e-09	2.126047e-08	0.007807066	0.004503868	-4.896389e-10	5.723341e-10
	-3.702284e-10	-7.162653e-10	0.003138483	0.00686283	-4.896389e-10	5.723341e-10	0.007631002	0.004566453
3e+08	0.01082879	0.005566069	4.584447e-10	-1.113794e-09	0.004788459	0.007948065	-5.536451e-10	-6.302604e-10
	4.584447e-10	-1.113794e-09	0.01055798	0.005689722	2.834207e-09	2.193861e-08	0.004539195	0.008086473
	0.004788459	0.007948065	2.834207e-09	2.193861e-08	0.01089056	0.005553925	-1.037227e-09	8.722742e-10
	-5.536451e-10	-6.302604e-10	0.004539195	0.008086473	-1.037227e-09	8.722742e-10	0.01064396	0.00567634
3.1e+08	0.01399955	0.005874104	3.495371e-10	-1.272807e-09	0.006487783	0.008728661	-7.182086e-10	-4.992968e-10
	3.495371e-10	-1.272807e-09	0.01365815	0.006068635	2.714224e-09	2.266077e-08	0.006173606	0.008943716
	0.006487783	0.008728661	2.714224e-09	2.266077e-08	0.01405745	0.005842404	-1.540224e-09	1.30501e-09
	-7.182086e-10	-4.992968e-10	0.006173606	0.008943716	-1.540224e-09	1.30501e-09	0.01375143	0.006041854
3.2e+08	0.01708745	0.005431105	2.034566e-10	-1.407635e-09	0.008311788	0.009082881	-8.525371e-10	-3.274262e-10
	2.034566e-10	-1.407635e-09	0.0166894	0.005713948	2.596358e-09	2.342941e-08	0.007947995	0.0093907
	0.008311788	0.009082881	2.596358e-09	2.342941e-08	0.01713704	0.005381045	-1.965921e-09	1.860746e-09
	-8.525371e-10	-3.274262e-10	0.007947995	0.0093907	-1.965921e-09	1.860746e-09	0.01678695	0.005672042
3.3e+08	0.01993005	0.004284904	2.700141e-11	-1.508459e-09	0.01015545	0.008994066	-9.460211e-10	-1.217499e-10
	2.700141e-11	-1.508459e-09	0.01949355	0.004669982	2.492959e-09	2.424373e-08	0.009761238	0.009406979
	0.01015545	0.008994066	2.492959e-09	2.424373e-08	0.01996722	0.004218688	-2.283772e-09	2.521213e-09
	-9.460211e-10	-1.217499e-10	0.009761238	0.009406979	-2.283772e-09	2.521213e-09	0.01959196	0.004612009
3.4e+08	0.02238113	0.002517395	-1.705351e-10	-1.567784e-09	0.011913	0.008470897	-9.897262e-10	1.076836e-10
	-1.705351e-10	-1.567784e-09	0.02192774	0.00301408	2.415953e-09	2.509955e-08	0.01151052	0.008996515
	0.011913	0.008470897	2.415953e-09	2.509955e-08	0.02240234	0.002438146	-2.467771e-09	3.26017e-09
	-9.897262e-10	1.076836e-10	0.01151052	0.008996515	-2.467771e-09	3.26017e-09	0.02202343	0.002939964
3.5e+08	0.02431767	0.0002398091	-3.782697e-10	-1.580987e-09	0.01348393	0.007546794	-9.773e-10	3.482868e-10
	-3.782697e-10	-1.580987e-09	0.02387114	0.0008521358	2.375868e-09	2.598954e-08	0.01309708	0.008187313
	0.01348393	0.007546794	2.375868e-09	2.598954e-08	0.02432014	0.0001514314	-2.498681e-09	4.044631e-09
	-9.773e-10	3.482868e-10	0.01309708	0.008187313	-2.498681e-09	4.044631e-09	0.02396056	0.0007626855
3.6e+08	0.02564551	-0.00241335	-5.847093e-10	-1.546495e-09	0.01477861	0.006277937	-9.057667e-10	5.856559e-10
	-5.847093e-10	-1.546495e-09	0.02523045	-0.001687189	2.380975e-09	2.690375e-08	0.01443172	0.007029746
	0.01477861	0.006277937	2.380975e-09	2.690375e-08	0.0256274	-0.002506369	-2.365887e-09	4.836777e-09
	-9.057667e-10	5.856559e-10	0.01443172	0.007029746	-2.365887e-09	4.836777e-09	0.02531033	-0.001790307
3.7e+08	0.02630351	-0.005291441	-7.786327e-10	-1.465609e-09	0.01572335	0.004740035	-7.760868e-10	8.045685e-10
	-7.786327e-10	-1.465609e-09	0.02594397	-0.004459261	2.436646e-09	2.783036e-08	0.01543976	0.005593654
	0.01572335	0.004740035	2.436646e-09	2.783036e-08	0.02626408	-0.005384248	-2.06863e-09	5.596408e-09
	-7.760868e-10	8.045685e-10	0.01543976	0.005593654	-2.06863e-09	5.596408e-09	0.0260115	-0.004573605
3.8e+08	0.0262661	-0.008235499	-9.497659e-10	-1.342085e-09	0.01626448	0.003024014	-5.933806e-10	9.901624e-10
	-9.497659e-10	-1.342085e-09	0.02598405	-0.007310929	2.544984e-09	2.875655e-08	0.01606512	0.003964377
	0.01626448	0.003024014	2.544984e-09	2.875655e-08	0.02620572	-0.00832314	-1.616468e-09	6.283695e-09
	-5.933806e-10	9.901624e-10	0.01606512	0.003964377	-1.616468e-09	6.283695e-09	0.02603708	-0.007433413
3.9e+08	0.02554389	-0.01108636	-1.089183e-09	-1.181596e-09	0.01637142	0.001230867	-3.667568e-10	1.129167e-09
	-1.089183e-09	-1.181596e-09	0.02535786	-0.01008829	2.704757e-09	2.966952e-08	0.01627346	0.002237954
	0.01637142	0.001230867	2.704757e-09	2.966952e-08	0.02546408	-0.01116404	-1.028903e-09	6.861983e-09
	-3.667568e-10	1.129167e-09	0.01627346	0.002237954	-1.028903e-09	6.861983e-09	0.025395	-0.01021536
4e+08	0.02418257	-0.01369267	-1.189446e-09	-9.912176e-10	0.01603837	-0.0005340657	-1.087421e-10	1.211041e-09
	-1.189446e-09	-9.912176e-10	0.02410636	-0.01264437	2.911603e-09	3.055727e-08	0.01605402	0.0005157225
	0.01603837	-0.0005340657	2.911603e-09	3.055727e-08	0.02408597	-0.01375602	-3.341949e-10	7.300339e-09
	-1.087421e-10	1.211041e-09	0.01605402	0.0005157225	-3.341949e-10	7.300339e-09	0.02412714	-0.01277218
4.1e+08	0.02226008	-0.01591842	-1.244557e-09	-7.790489e-10	0.01528462	-0.002167055	1.656342e-10	1.228875e-09
	-1.244557e-09	-7.790489e-10	0.02230176	-0.01484634	3.158469e-09	3.14094e-08	0.01542026	-0.001101364
	0.01528462	-0.002167055	3.158469e-09	3.14094e-08	0.02215029	-0.01596377	4.324849e-10	7.575635e-09
	1.656342e-10	1.228875e-09	0.01542026	-0.001101364	4.324849e-10	7.575635e-09	0.02230664	-0.01497102
4.2e+08	0.01988217	-0.01764966	-1.249844e-09	-5.540363e-10	0.01415354	-0.003571881	4.399935e-10	1.179948e-09
	-1.249844e-09	-5.540363e-10	0.02004331	-0.01658199	3.436187e-09	3.221762e-08	0.01440905	-0.002518419
	0.01415354	-0.003571881	3.436187e-09	3.221762e-08	0.01976358	-0.01767421	1.231371e-09	7.673963e-09
	4.399935e-10	1.179948e-09	0.01440905	-0.002518419	1.231371e-09	7.673963e-09	0.02003368	-0.01669985
4.3e+08	0.01717657	-0.01879994	-1.201906e-09	-3.259811e-10	0.01271009	-0.00466532	6.978584e-10	1.065888e-09
	-1.201906e-09	-3.259811e-10	0.01745192	-0.01776504	3.734118e-09	3.297602e-08	0.01307859	-0.003651967
	0.01271009	-0.00466532	3.734118e-09	3.297602e-08	0.0170542	-0.01880199	2.020629e-09	7.591317e-09
	6.978584e-10	1.065888e-09	0.01307859	-0.003651967	2.020629e-09	7.591317e-09	0.01743006	-0.01787278
4.4e+08	0.01428622	-0.01931444	-1.098741e-09	-1.056552e-10	0.01103719	-0.005381913	9.238487e-10	8.924279e-10
	-1.098741e-09	-1.056552e-10	0.01466371	-0.01833914	4.040763e-09	3.368126e-08	0.01150517	-0.00443467
	0.01103719	-0.005381913	4.040763e-09	3.368126e-08	0.01416536	-0.01929346	2.758845e-09	7.333555e-09
	9.238487e-10	8.924279e-10	0.01150517	-0.00443467	2.758845e-09	7.333555e-09	0.01463264	-0.01843409
4.5e+08	0.01136165	-0.01917233	-9.400965e-10	9.510688e-11	0.009230975	-0.005677747	1.104691e-09	6.688258e-10
	-9.400965e-10	9.510688e-11	0.01182283	-0.01828032	4.344316e-09	3.433249e-08	0.009778796	-0.004819149
	0.009230975	-0.005677747	4.344316e-09	3.433249e-08	0.01124766	-0.01912904	3.407279e-09	6.915755e-09
	1.104691e-09	6.688258e-10	0.009778796	-0.004819149	3.407279e-09	6.915755e-09	0.01178618	-0.01836057
4.6e+08	0.008553134	-0.01838743	-7.280299e-10	2.634878e-10	0.007395326	-0.005533007	1.229948e-09	4.0706e-10
	-7.280299e-10	2.634878e-10	0.009074	-0.01759775	4.633112e-09	3.493129e-08	0.007998137	-0.00478068
	0.007395326	-0.005533007	4.633112e-09	3.493129e-08	0.008451097	-0.01832382	3.931741e-09	6.361105e-09
	1.229948e-09	4.0706e-10	0.007998137	-0.00478068	3.931741e-09	6.361105e-09	0.009035776	-0.01766231
4.7e+08	0.006002872	-0.01700704	-4.675941e-10	3.860666e-10	0.005635916	-0.004953162	1.292426e-09	1.209225e-10
	-4.675941e-10	3.860666e-10	0.006555061	-0.0163328	4.89599e-09	3.548151e-08	0.006264872	-0.00431861
	0.005635916	-0.004953162	4.89599e-09	3.548151e-08	0.005917336	-0.0169263	4.304001e-09	5.69953e-09
	1.292426e-09	1.209225e-10	0.006264872	-0.00431861	4.304001e-09	5.69953e-09	0.006519449	-0.01638161
4.8e+08	0.003837701	-0.01510923	-1.674479e-10	4.495772e-10	0.004054122	-0.003968679	1.288304e-09	-1.748605e-10
