!$
! Info: Touchstone file created by Circ.  Input file=Tx_14in_Rx_85ohms_TxVia_10mils_RxVia_20mils.circ
!$
# Hz S RI R 50
0	0.01125987	8.557799e-26	-1.759491e-11	4.058964e-27	8.644637e-05	1.169111e-23	-2.139214e-08	2.619702e-24
	-1.758067e-11	4.057945e-27	0.01125916	1.232961e-25	1.461275e-11	2.993462e-28	8.604754e-05	1.601404e-23
	8.455728e-05	1.15263e-23	1.457779e-11	2.996953e-28	0.01127367	8.904801e-26	1.728205e-08	7.27887e-27
	-2.139287e-08	2.619791e-24	8.750275e-05	1.648228e-23	1.728257e-08	7.277746e-27	0.01126472	1.175534e-25
1e+07	0.01566628	-0.01374943	2.377767e-11	-5.726776e-11	0.0004437113	0.002447089	-3.779266e-09	1.961191e-08
	2.377764e-11	-5.726805e-11	0.0137946	-0.01383891	-1.156231e-11	-8.258321e-11	0.0005464651	0.00244979
	0.0004436727	0.002447115	-1.156232e-11	-8.258291e-11	0.01381751	-0.01407859	-5.733558e-09	1.954176e-08
	-3.779266e-09	1.961191e-08	0.0005464979	0.002449778	-5.733558e-09	1.954176e-08	0.01376532	-0.01382895
2e+07	0.01280867	-0.03145243	3.090169e-11	-8.316888e-11	0.001497379	0.004675115	7.42508e-10	2.344151e-08
	3.090135e-11	-8.3169e-11	0.0111795	-0.0309157	-2.115854e-11	-1.905745e-10	0.001633159	0.004588022
	0.001497387	0.004675133	-2.11583e-11	-1.905744e-10	0.01096979	-0.03128753	-4.983549e-09	2.093384e-08
	7.425077e-10	2.344151e-08	0.001633155	0.004588	-4.983549e-09	2.093384e-08	0.01116208	-0.0308828
3e+07	0.003799582	-0.04837938	3.345147e-11	-1.575193e-10	0.003177336	0.006390981	6.381266e-09	1.62983e-08
	3.345144e-11	-1.575193e-10	0.00237163	-0.04756382	-6.614403e-11	-1.971447e-10	0.003248783	0.006291484
	0.003177334	0.006390982	-6.614397e-11	-1.971449e-10	0.002002405	-0.04793425	2.824037e-09	2.206062e-08
	6.381266e-09	1.62983e-08	0.003248778	0.006291482	2.824037e-09	2.206062e-08	0.002364101	-0.04751902
4e+07	-0.009992534	-0.06217651	4.027248e-11	-2.218554e-10	0.005230733	0.007523038	8.998388e-09	1.167682e-08
	4.027251e-11	-2.218554e-10	-0.01123365	-0.06116367	-4.006171e-11	-2.60626e-10	0.005241852	0.007437425
	0.005230728	0.007523042	-4.006179e-11	-2.606261e-10	-0.01170974	-0.06148996	9.235984e-09	1.610646e-08
	8.998388e-09	1.167682e-08	0.005241852	0.007437427	9.235984e-09	1.610646e-08	-0.01123406	-0.06111166
5e+07	-0.02715574	-0.07156781	5.766422e-11	-2.957613e-10	0.007470919	0.008004465	1.195235e-08	8.500934e-09
	5.766422e-11	-2.957613e-10	-0.02821773	-0.07040004	-5.785985e-11	-2.958722e-10	0.007429303	0.007952842
	0.007470917	0.008004467	-5.785985e-11	-2.958722e-10	-0.0287575	-0.07066525	1.110453e-08	8.676925e-09
	1.195235e-08	8.500934e-09	0.007429303	0.007952842	1.110453e-08	8.676925e-09	-0.02821392	-0.07034115
6e+07	-0.0461458	-0.07583232	7.992221e-11	-3.946114e-10	0.009702002	0.007825033	1.673771e-08	2.468025e-09
	7.992225e-11	-3.946114e-10	-0.04703135	-0.07453746	-5.182621e-11	-3.184231e-10	0.009619239	0.007823274
	0.009702003	0.007825031	-5.182624e-11	-3.184231e-10	-0.04759991	-0.07473875	1.000034e-08	2.563641e-09
	1.673771e-08	2.468025e-09	0.009619236	0.007823275	1.000034e-08	2.563641e-09	-0.04702426	-0.0744709
7e+07	-0.06537295	-0.07474771	8.5908e-11	-5.295977e-10	0.0117391	0.007030736	1.424077e-08	-8.53832e-09
	8.590812e-11	-5.295977e-10	-0.06608041	-0.07334812	-3.856861e-11	-3.506833e-10	0.01163021	0.007090219
	0.0117391	0.00703073	-3.856868e-11	-3.506833e-10	-0.06665062	-0.07349043	7.472558e-09	-1.656125e-09
	1.424077e-08	-8.53832e-09	0.0116302	0.007090222	7.472558e-09	-1.656125e-09	-0.06607022	-0.07327323
8e+07	-0.08331492	-0.06855128	6.912399e-11	-6.587905e-10	0.01342418	0.005715461	6.71382e-09	-1.158113e-08
	6.912407e-11	-6.587906e-10	-0.08383958	-0.06706873	-3.363564e-11	-3.908329e-10	0.01330663	0.005842567
	0.01342418	0.005715455	-3.363569e-11	-3.908328e-10	-0.08439065	-0.06716048	4.536965e-09	-4.072796e-09
	6.71382e-09	-1.158113e-08	0.01330662	0.005842572	4.536965e-09	-4.072796e-09	-0.08382614	-0.06698461
9e+07	-0.09862397	-0.05788279	2.702649e-11	-7.331866e-10	0.01463691	0.004008829	2.536852e-09	-1.092603e-08
	2.702651e-11	-7.331867e-10	-0.09896031	-0.05634164	-4.312961e-11	-4.435006e-10	0.01452954	0.004204642
	0.01463691	0.004008825	-4.312962e-11	-4.435005e-10	-0.09947463	-0.05639147	1.841404e-09	-4.973563e-09
	2.536852e-09	-1.092603e-08	0.01452954	0.004204646	1.841404e-09	-4.973563e-09	-0.09894262	-0.05624716
1e+08	-0.1102155	-0.04370791	-1.125479e-10	-7.848577e-10	0.01530139	0.002062954	1.209969e-10	-9.776006e-09
	-1.125479e-10	-7.848577e-10	-0.1103628	-0.04213763	-5.89758e-11	-5.160125e-10	0.01522496	0.002323859
	0.01530139	0.002062954	-5.89758e-11	-5.160125e-10	-0.1108107	-0.04214932	-3.029746e-10	-4.738783e-09
	1.209969e-10	-9.776006e-09	0.01522496	0.002323859	-3.029746e-10	-4.738783e-09	-0.110339	-0.04203217
1.1e+08	-0.1173307	-0.02723447	-2.031889e-10	-8.394437e-10	0.01538271	3.219238e-05	-2.258071e-09	-1.039807e-08
	-2.031889e-10	-8.394437e-10	-0.1172879	-0.0256496	-5.431645e-11	-5.656832e-10	0.01535417	0.0003373117
	0.01538271	3.219248e-05	-5.431645e-11	-5.656832e-10	-0.1176593	-0.02570364	-8.447725e-10	-5.160836e-09
	-2.258071e-09	-1.039807e-08	0.01535417	0.0003373116	-8.447725e-10	-5.160836e-09	-0.1172551	-0.02553351
1.2e+08	-0.1195732	-0.009784066	-2.987523e-10	-8.614866e-10	0.01488584	-0.001916589	-4.84888e-09	-1.029532e-08
	-2.987523e-10	-8.614866e-10	-0.1193311	-0.008221703	-4.918012e-11	-6.194404e-10	0.01490968	-0.001582912
	0.01488584	-0.001916589	-4.918012e-11	-6.194404e-10	-0.1196742	-0.008323678	-1.445725e-09	-5.420745e-09
	-4.84888e-09	-1.029532e-08	0.01490968	-0.001582912	-1.445725e-09	-5.420745e-09	-0.1192859	-0.008097183
1.3e+08	-0.1169231	0.007268857	-3.86751e-10	-8.507932e-10	0.01386267	-0.003633492	-7.423497e-09	-9.395408e-09
	-3.86751e-10	-8.507932e-10	-0.1164869	0.008765528	-4.464152e-11	-6.770426e-10	0.01394148	-0.00328781
	0.01386267	-0.003633492	-4.464152e-11	-6.770426e-10	-0.1168247	0.008626562	-2.052208e-09	-5.500583e-09
	-7.423497e-09	-9.395408e-09	0.01394148	-0.00328781	-2.052208e-09	-5.500583e-09	-0.1164273	0.008894945
1.4e+08	-0.1097278	0.02261161	-4.550261e-10	-8.113903e-10	0.01239861	-0.00498835	-9.732367e-09	-7.696361e-09
	-4.550261e-10	-8.113903e-10	-0.1091159	0.02399831	-4.170161e-11	-7.385584e-10	0.01253041	-0.004647933
	0.01239861	-0.00498835	-4.170161e-11	-7.385584e-10	-0.109459	0.02383918	-2.605464e-09	-5.399816e-09
	-9.732367e-09	-7.696361e-09	0.01253041	-0.004647933	-2.605464e-09	-5.399816e-09	-0.1090409	0.02412816
1.5e+08	-0.09867058	0.03508408	-4.937606e-10	-7.519241e-10	0.01060857	-0.005877105	-1.1525e-08	-5.273141e-09
	-4.937606e-10	-7.519241e-10	-0.09791433	0.03631952	-4.154128e-11	-8.039662e-10	0.01078626	-0.005558529
	0.01060857	-0.005877105	-4.154128e-11	-8.039662e-10	-0.09826294	0.03615858	-3.047865e-09	-5.137315e-09
	-1.1525e-08	-5.273141e-09	0.01078626	-0.005558529	-3.047865e-09	-5.137315e-09	-0.0978247	0.03644486
1.6e+08	-0.08471776	0.04375923	-4.973236e-10	-6.842773e-10	0.008631005	-0.006228092	-1.257301e-08	-2.278334e-09
	-4.973236e-10	-6.842773e-10	-0.08386107	0.04480927	-4.557666e-11	-8.729272e-10	0.00884249	-0.005945652
	0.008631005	-0.006228092	-4.557666e-11	-8.729272e-10	-0.08420626	0.04466296	-3.329403e-09	-4.75021e-09
	-1.257301e-08	-2.278334e-09	0.00884249	-0.005945652	-3.329403e-09	-4.75021e-09	-0.08375927	0.04492524
1.7e+08	-0.06904843	0.04800937	-4.652471e-10	-6.214106e-10	0.006620254	-0.006007777	-1.269395e-08	1.063895e-09
	-4.652471e-10	-6.214106e-10	-0.06814572	0.04885102	-5.534537e-11	-9.445412e-10	0.006849129	-0.005771953
	0.006620254	-0.006007777	-5.534537e-11	-9.445412e-10	-0.06847103	0.0487311	-3.413333e-09	-4.290511e-09
	-1.269395e-08	1.063895e-09	0.006849129	-0.005771953	-3.413333e-09	-4.290511e-09	-0.06803588	0.04895347
1.8e+08	-0.05296796	0.04755389	-4.020333e-10	-5.749829e-10	0.00473696	-0.005225316	-1.177403e-08	4.471307e-09
	-4.020333e-10	-5.749829e-10	-0.05208097	0.04817879	-7.222064e-11	-1.01718e-09	0.004963681	-0.005041456
	0.00473696	-0.005225316	-7.222064e-11	-1.01718e-09	-0.05236465	0.04809001	-3.28022e-09	-3.820071e-09
	-1.177403e-08	4.471307e-09	0.004963681	-0.005041456	-3.28022e-09	-3.820071e-09	-0.0519687	0.04826482
1.9e+08	-0.03780982	0.04248386	-3.158205e-10	-5.534047e-10	0.003136335	-0.003934861	-9.787105e-09	7.624679e-09
	-3.158205e-10	-5.534047e-10	-0.03700333	0.04290073	-9.701657e-11	-1.088498e-09	0.003339808	-0.003802238
	0.003136335	-0.003934861	-9.701657e-11	-1.088498e-09	-0.03722101	0.04283941	-2.929981e-09	-3.404675e-09
	-9.787105e-09	7.624679e-09	0.003339808	-0.003802238	-2.929981e-09	-3.404675e-09	-0.03689525	0.04296924
2e+08	-0.02483145	0.03325943	-2.16296e-10	-5.608833e-10	0.001954908	-0.00223437	-6.807196e-09	1.019565e-08
	-2.16296e-10	-5.608833e-10	-0.02416805	0.03349523	-1.295998e-10	-1.155676e-09	0.002114364	-0.002145744
	0.001954908	-0.00223437	-1.295998e-10	-1.155676e-09	-0.02429579	0.0334485	-2.381883e-09	-3.1081e-09
	-6.807196e-09	1.019565e-08	0.002114364	-0.002145744	-2.381883e-09	-3.1081e-09	-0.02407127	0.0335472
2.1e+08	-0.01511178	0.02067734	-1.125266e-10	-5.977349e-10	0.001297049	-0.0002599083	-3.011777e-09	1.187922e-08
	-1.125266e-10	-5.977349e-10	-0.01464642	0.02077672	-1.686389e-10	-1.215866e-09	0.00139405	-0.0002016683
	0.001297049	-0.0002599083	-1.686389e-10	-1.215866e-09	-0.01466381	0.02072283	-1.67287e-09	-2.986848e-09
	-3.011777e-09	1.187922e-08	0.00139405	-0.0002016683	-1.67287e-09	-2.986848e-09	-0.01456777	0.02081539
2.2e+08	-0.0094602	0.005808676	-1.145185e-11	-6.617902e-10	0.001223199	0.00182493	1.326165e-09	1.242759e-08
	-1.145185e-11	-6.617902e-10	-0.009234769	0.005831614	-2.115956e-10	-1.266756e-09	0.001243581	0.001871995
	0.001223199	0.00182493	-2.115956e-10	-1.266756e-09	-0.009127965	0.005741226	-8.547666e-10	-3.085881e-09
	1.326165e-09	1.242759e-08	0.001243581	0.001871995	-8.547666e-10	-3.085881e-09	-0.009180115	0.005862414
2.3e+08	-0.00834641	-0.01008957	8.242879e-11	-7.502943e-10	0.001741913	0.003843845	5.857822e-09	1.1681e-08
	8.242879e-11	-7.502943e-10	-0.008385208	-0.01007173	-2.549992e-10	-1.307116e-09	0.00167747	0.003903177
	0.001741913	0.003843845	-2.549992e-10	-1.307116e-09	-0.008149407	-0.01023337	9.099348e-12	-3.435364e-09
	5.857822e-09	1.1681e-08	0.00167747	0.003903177	9.099348e-12	-3.435364e-09	-0.008358757	-0.01004156
2.4e+08	-0.0118598	-0.02568152	1.661106e-10	-8.614601e-10	0.00280748	0.005625218	1.018869e-08	9.591123e-09
	1.661106e-10	-8.614601e-10	-0.0121663	-0.02559152	-2.94971e-10	-1.337171e-09	0.0026572	0.005722612
	0.00280748	0.005625218	-2.94971e-10	-1.337171e-09	-0.01180752	-0.02586157	8.475808e-10	-4.048135e-09
	1.018869e-08	9.591123e-09	0.0026572	0.005722612	8.475808e-10	-4.048135e-09	-0.01217002	-0.02555341
2.5e+08	-0.01970353	-0.03966762	2.363584e-10	-9.949474e-10	0.004323966	0.00701964	1.391593e-08	6.233336e-09
	2.363584e-10	-9.949474e-10	-0.02025894	-0.03942857	-3.278928e-10	-1.358705e-09	0.004094665	0.007181005
	0.004323966	0.00701964	-3.278928e-10	-1.358705e-09	-0.01979475	-0.03984314	1.585801e-09	-4.917657e-09
	1.391593e-08	6.233336e-09	0.004094665	0.007181005	1.585801e-09	-4.917657e-09	-0.02029218	-0.03937339
2.6e+08	-0.03122441	-0.05089582	2.88057e-10	-1.150972e-09	0.006155318	0.007914909	1.666838e-08	1.805633e-09
	2.88057e-10	-1.150972e-09	-0.03198822	-0.05043782	-3.510693e-10	-1.374832e-09	0.005861559	0.008163875
	0.006155318	0.007914909	-3.510693e-10	-1.374832e-09	-0.03144742	-0.05102828	2.149952e-09	-6.016481e-09
	1.666838e-08	1.805633e-09	0.005861559	0.008163875	2.149952e-09	-6.016481e-09	-0.03204755	-0.05035668
2.7e+08	-0.04547499	-0.05845707	3.135204e-10	-1.328358e-09	0.008139963	0.008246297	1.814411e-08	-3.385746e-09
	3.135204e-10	-1.328358e-09	-0.04638751	-0.05772347	-3.632216e-10	-1.389487e-09	0.007803244	0.008601892
	0.008139963	0.008246297	-3.632216e-10	-1.389487e-09	-0.0458086	-0.05851295	2.473058e-09	-7.295682e-09
	1.814411e-08	-3.385746e-09	0.007803244	0.008601892	2.473058e-09	-7.295682e-09	-0.04646687	-0.05760856
2.8e+08	-0.06130017	-0.06175603	3.032792e-10	-1.522323e-09	0.01010758	0.008000852	1.814118e-08	-8.952067e-09
	3.032792e-10	-1.522323e-09	-0.06228693	-0.06070862	-3.646851e-10	-1.406727e-09	0.009754813	0.008475485
	0.01010758	0.008000852	-3.646851e-10	-1.406727e-09	-0.06171551	-0.06170909	2.501591e-09	-8.685956e-09
	1.814118e-08	-8.952067e-09	0.009754813	0.008475485	2.501591e-09	-8.685956e-09	-0.06237797	-0.06055403
2.9e+08	-0.07743846	-0.06055106	2.482811e-10	-1.722991e-09	0.01189546	0.007215699	1.657818e-08	-1.445576e-08
	2.482811e-10	-1.722991e-09	-0.07841591	-0.0591739	-3.572568e-10	-1.430049e-09	0.0115569	0.00781366
	0.01189546	0.007215699	-3.572568e-10	-1.430049e-09	-0.07790127	-0.06038407	2.202295e-09	-1.010109e-08
	1.657818e-08	-1.445576e-08	0.0115569	0.00781366	2.202295e-09	-1.010109e-08	-0.07850863	-0.05897624
3e+08	-0.09262695	-0.05496247	1.428706e-10	-1.915357e-09	0.01336249	0.005971375	1.35034e-08	-1.944797e-08
	1.428706e-10	-1.915357e-09	-0.09350911	-0.05326383	-3.437433e-10	-1.461863e-09	0.01306923	0.006687997
	0.01336249	0.005971375	-3.437433e-10	-1.461863e-09	-0.09310018	-0.05466815	1.568146e-09	-1.144413e-08
	1.35034e-08	-1.944797e-08	0.01306923	0.006687997	1.568146e-09	-1.144413e-08	-0.09359262	-0.05302271
3.1e+08	-0.1057005	-0.04545094	-1.240382e-11	-2.080982e-09	0.01439926	0.00438186	9.092471e-09	-2.350616e-08
	-1.240382e-11	-2.080982e-09	-0.1064059	-0.04346333	-3.273434e-10	-1.503288e-09	0.01418055	0.005203459
	0.01439926	0.00438186	-3.273434e-10	-1.503288e-09	-0.1061471	-0.04503218	6.222234e-10	-1.261584e-08
	9.092471e-09	-2.350616e-08	0.01418055	0.005203459	6.222234e-10	-1.261584e-08	-0.1064693	-0.04318151
3.2e+08	-0.1156775	-0.03277111	-2.090857e-10	-2.201105e-09	0.01493415	0.002583127	3.636016e-09	-2.626855e-08
	-2.090857e-10	-2.201105e-09	-0.1161359	-0.03054934	-3.110589e-10	-1.554268e-09	0.01481481	0.003487722
	0.01493415	0.002583127	-3.110589e-10	-1.554268e-09	-0.1160629	-0.0322405	-5.815381e-10	-1.35248e-08
	3.636016e-09	-2.626855e-08	0.01481481	0.003487722	-5.815381e-10	-1.35248e-08	-0.1161693	-0.0302327
3.3e+08	-0.1218275	-0.01790635	-4.308146e-10	-2.260399e-09	0.01493565	0.000721692	-2.48104e-09	-2.74634e-08
	-4.308146e-10	-2.260399e-09	-0.1219856	-0.01552379	-2.973116e-10	-1.613955e-09	0.01493376	0.001680474
	0.01493565	0.000721692	-2.973116e-10	-1.613955e-09	-0.122122	-0.01728512	-1.961238e-09	-1.409749e-08
	-2.48104e-09	-2.74634e-08	0.01493376	0.001680474	-1.961238e-09	-1.409749e-08	-0.121981	-0.01518102
3.4e+08	-0.1237174	-0.001991116	-6.592736e-10	-2.251975e-09	0.01441188	-0.001055863	-8.806245e-09	-2.692815e-08
	-6.592736e-10	-2.251975e-09	-0.1235441	0.0004654699	-2.876551e-10	-1.680861e-09	0.0145369	-7.643396e-05
	0.01441188	-0.001055863	-2.876551e-10	-1.680861e-09	-0.1238983	-0.001307554	-3.417648e-09	-1.428888e-08
	-8.806245e-09	-2.692815e-08	0.0145369	-7.643396e-05	-3.417648e-09	-1.428888e-08	-0.1234959	0.0008234811
3.5e+08	-0.1212369	0.0137734	-8.66774e-10	-2.174191e-09	0.01340803	-0.002612071	-1.484949e-08	-2.46352e-08
	-8.66774e-10	-2.174191e-09	-0.120726	0.01621022	-2.832871e-10	-1.75421e-09	0.01365962	-0.001647693
	0.01340803	-0.002612071	-2.832871e-10	-1.75421e-09	-0.12129	0.01448597	-4.832643e-09	-1.408274e-08
	-1.484949e-08	-2.46352e-08	0.01365962	-0.001647693	-4.832643e-09	-1.408274e-08	-0.120632	0.01657119
3.6e+08	-0.1146013	0.02820532	-1.028632e-09	-2.037204e-09	0.01200251	-0.003826526	-2.012136e-08	-2.069034e-08
	-1.028632e-09	-2.037204e-09	-0.1137733	0.03052872	-2.853358e-10	-1.833175e-09	0.01237013	-0.002912203
	0.01200251	-0.003826526	-2.853358e-10	-1.833175e-09	-0.1145217	0.02891089	-6.088549e-09	-1.350081e-08
	-2.012136e-08	-2.069034e-08	0.01237013	-0.002912203	-6.088549e-09	-1.350081e-08	-0.1136347	0.03087985
3.7e+08	-0.1043347	0.04022568	-1.12623e-09	-1.860242e-09	0.01030211	-0.004602894	-2.41676e-08	-1.533338e-08
	-1.12623e-09	-1.860242e-09	-0.103236	0.04234954	-2.951005e-10	-1.916905e-09	0.01076535	-0.003770023
	0.01030211	-0.004602894	-2.951005e-10	-1.916905e-09	-0.1041276	0.04088807	-7.078674e-09	-1.260024e-08
	-2.41676e-08	-1.533338e-08	0.01076535	-0.003770023	-7.078674e-09	-1.260024e-08	-0.1030578	0.04267858
3.8e+08	-0.09123254	0.04893543	-1.149732e-09	-1.668236e-09	0.008435952	-0.004875186	-2.660536e-08	-8.928795e-09
	-1.149732e-09	-1.668236e-09	-0.08993353	0.05078837	-3.141828e-10	-2.004206e-09	0.008965788	-0.004148809
	0.008435952	-0.004875186	-3.141828e-10	-2.004206e-09	-0.09091302	0.04952095	-7.7174e-09	-1.146839e-08
	-2.660536e-08	-8.928795e-09	0.008965788	-0.004148809	-7.7174e-09	-1.146839e-08	-0.08972403	0.05108461
3.9e+08	-0.07630703	0.05368196	-1.099597e-09	-1.487574e-09	0.006548091	-0.004613205	-2.715761e-08	-1.946182e-09
	-1.099597e-09	-1.487574e-09	-0.07489687	0.0552138	-3.443137e-10	-2.09315e-09	0.007108817	-0.004009651
	0.006548091	-0.004613205	-3.443137e-10	-2.09315e-09	-0.07589887	0.05416196	-7.948478e-09	-1.021465e-08
	-2.715761e-08	-1.946182e-09	0.007108817	-0.004009651	-7.948478e-09	-1.021465e-08	-0.07466739	0.05546905
4e+08	-0.06071484	0.05411065	-9.859978e-10	-1.34164e-09	0.004788279	-0.003826686	-2.568329e-08	5.069217e-09
	-9.859978e-10	-1.34164e-09	-0.05929555	0.05529753	-3.869004e-10	-2.180806e-09	0.005340117	-0.0033518
	0.004788279	-0.003826686	-3.869004e-10	-2.180806e-09	-0.06024924	0.0544639	-7.750056e-09	-8.96029e-09
	-2.568329e-08	5.069217e-09	0.005340117	-0.0033518	-7.750056e-09	-8.96029e-09	-0.05905962	0.05550697
4.1e+08	-0.04567256	0.05019711	-8.262329e-10	-1.247182e-09	0.003301028	-0.002567259	-2.219976e-08	1.153554e-08
	-8.262329e-10	-1.247182e-09	-0.04435119	0.05104477	-4.424153e-10	-2.263295e-09	0.003803197	-0.002215413
	0.003301028	-0.002567259	-4.424153e-10	-2.263295e-09	-0.04518583	0.05041167	-7.136002e-09	-7.827469e-09
	-2.219976e-08	1.153554e-08	0.003803197	-0.002215413	-7.136002e-09	-7.827469e-09	-0.04412358	0.05120753
4.2e+08	-0.03236348	0.04225565	-6.408199e-10	-1.212444e-09	0.002213385	-0.0009272401	-1.689405e-08	1.688118e-08
	-6.408199e-10	-1.212444e-09	-0.03124352	0.04280048	-5.098233e-10	-2.336188e-09	0.002627406	-0.0006812233
	0.002213385	-0.0009272401	-5.098233e-10	-2.336188e-09	-0.03189434	0.04233016	-6.153743e-09	-6.929011e-09
	-1.689405e-08	1.688118e-08	0.002627406	-0.0006812233	-6.153743e-09	-6.929011e-09	-0.03103901	0.04291995
4.3e+08	-0.02184283	0.03092119	-4.493494e-10	-1.237496e-09	0.001622549	0.0009656279	-1.011955e-08	2.059602e-08
	-4.493494e-10	-1.237496e-09	-0.02101531	0.03122866	-5.862485e-10	-2.395232e-09	0.001915548	0.001133751
	0.001622549	0.0009656279	-5.862485e-10	-2.395232e-09	-0.02142929	0.03086535	-4.879399e-09	-6.359938e-09
	-1.011955e-08	2.059602e-08	0.001915548	0.001133751	-4.879399e-09	-6.359938e-09	-0.02084751	0.0313125
4.4e+08	-0.01494966	0.0171035	-2.67335e-10	-1.316557e-09	0.001585008	0.002957802	-2.376023e-09	2.22822e-08
	-2.67335e-10	-1.316557e-09	-0.01448487	0.017264	-6.6703e-10	-2.437211e-09	0.001732707	0.003084893
	0.001585008	0.002957802	-6.6703e-10	-2.437211e-09	-0.01462578	0.01693751	-3.411306e-09	-6.19132e-09
	-2.376023e-09	2.22822e-08	0.001732707	0.003084893	-3.411306e-09	-6.19132e-09	-0.01436496	0.01732367
4.5e+08	-0.01223421	0.001915821	-1.049902e-10	-1.441413e-09	0.00210901	0.004883451	5.727107e-09	2.169806e-08
	-1.049902e-10	-1.441413e-09	-0.01217484	0.002038064	-7.462083e-10	-2.46075e-09	0.002098159	0.005012646
	0.00210901	0.004883451	-7.462083e-10	-2.46075e-09	-0.01202718	0.001668984	-1.863005e-09	-6.466346e-09
	5.727107e-09	2.169806e-08	0.002098159	0.005012646	-1.863005e-09	-6.466346e-09	-0.01211048	0.00208807
4.6e+08	-0.01390912	-0.01341652	3.18127e-11	-1.604599e-09	0.003152006	0.006580442	1.352169e-08	1.878919e-08
	3.18127e-11	-1.604599e-09	-0.0142655	-0.01321404	-8.173736e-10	-2.466841e-09	0.002981986	0.006757842
	0.003152006	0.006580441	-8.173736e-10	-2.466841e-09	-0.01383679	-0.01370815	-3.563113e-10	-7.198036e-09
	1.352169e-08	1.878919e-08	0.002981986	0.006757842	-3.563113e-10	-7.198036e-09	-0.01426	-0.01315723
4.7e+08	-0.01983045	-0.02765919	1.389856e-10	-1.801106e-09	0.004623929	0.007906702	2.034075e-08	1.370163e-08
	1.389856e-10	-1.801106e-09	-0.02057852	-0.02725798	-8.747069e-10	-2.458931e-09	0.004307351	0.008177644
