!$
! Info: Touchstone file created by Circ.  Input file=Tx_14in_Rx_100ohms_TxVia_10mils_RxVia_20mils.circ
!$
# Hz S RI R 50
0	0.0144601	1.055619e-25	6.831555e-13	2.064239e-28	8.800767e-05	1.817113e-23	-4.652932e-09	5.696148e-25
	6.847585e-13	2.066087e-28	0.01446292	1.224269e-25	-3.674567e-12	4.07489e-28	8.544085e-05	2.05954e-23
	8.805483e-05	1.818175e-23	-3.722899e-12	4.133846e-28	0.01447475	1.058366e-25	-1.274946e-09	1.560066e-25
	-4.650822e-09	5.693563e-25	8.689486e-05	2.11976e-23	-1.274991e-09	1.560121e-25	0.01446844	1.167285e-25
1e+07	0.02092356	0.008074841	7.274361e-12	-1.179782e-11	0.0004860109	0.002418481	-6.118407e-09	1.721361e-08
	7.274379e-12	-1.179809e-11	0.02155883	0.008092489	4.785135e-12	-1.266817e-11	0.0009725117	0.002451581
	0.000486015	0.002418478	4.785146e-12	-1.266792e-11	0.02019591	0.008519546	-3.812769e-09	1.635075e-08
	-6.118407e-09	1.721361e-08	0.0009725451	0.00245157	-3.812769e-09	1.635075e-08	0.02136417	0.008125242
2e+07	0.02779186	0.01052005	1.035018e-11	-1.073801e-11	0.001492921	0.004680754	-2.007412e-09	1.468279e-08
	1.034998e-11	-1.073811e-11	0.02830658	0.01032687	1.093174e-11	-1.27832e-11	0.001822288	0.004947445
	0.00149292	0.004680751	1.093191e-11	-1.278307e-11	0.02772997	0.01142355	-3.590678e-09	1.38317e-08
	-2.007412e-09	1.468279e-08	0.001822286	0.004947423	-3.590678e-09	1.38317e-08	0.02818622	0.01045199
3e+07	0.03354342	0.009818343	6.804163e-12	-1.36331e-11	0.003054909	0.006514838	1.641049e-09	1.249057e-08
	6.804136e-12	-1.363307e-11	0.03394822	0.009555709	6.46234e-12	-1.941628e-11	0.003271677	0.006863694
	0.003054909	0.006514837	6.462368e-12	-1.941631e-11	0.03398325	0.01071086	1.729863e-09	1.302927e-08
	1.641049e-09	1.249057e-08	0.003271672	0.006863692	1.729863e-09	1.302927e-08	0.03389365	0.009708062
4e+07	0.03831958	0.007329059	1.461132e-12	-1.599139e-11	0.005036596	0.007823026	4.359023e-09	1.032232e-08
	1.461161e-12	-1.59914e-11	0.03861947	0.007043581	1.100358e-12	-2.511026e-11	0.005198217	0.008211984
	0.005036596	0.007823025	1.100327e-12	-2.511024e-11	0.03913337	0.008039949	5.416665e-09	1.081031e-08
	4.359023e-09	1.032232e-08	0.005198216	0.008211986	5.416665e-09	1.081031e-08	0.03862288	0.007196763
5e+07	0.04200004	0.003544325	-6.619107e-12	-1.935645e-11	0.00727429	0.008521425	6.554333e-09	8.353526e-09
	-6.619098e-12	-1.935647e-11	0.04220118	0.003266837	-7.450599e-12	-3.23141e-11	0.007560304	0.008791917
	0.007274291	0.008521424	-7.450609e-12	-3.231408e-11	0.04306286	0.003979214	7.876792e-09	8.980425e-09
	6.554333e-09	8.353526e-09	0.007560304	0.008791918	7.876792e-09	8.980425e-09	0.0422523	0.003404733
6e+07	0.04444692	-0.001150474	-1.899924e-11	-2.077482e-11	0.009589217	0.008570931	9.089813e-09	6.546066e-09
	-1.899922e-11	-2.077479e-11	0.04456164	-0.001393877	-1.761905e-11	-4.12099e-11	0.00993627	0.008708621
	0.009589218	0.008570931	-1.761907e-11	-4.120994e-11	0.04563622	-0.001037308	9.853599e-09	9.226451e-09
	9.089813e-09	6.546066e-09	0.009936266	0.008708621	9.853599e-09	9.226451e-09	0.04464965	-0.001282268
7e+07	0.04556148	-0.006390635	-5.118038e-11	-1.331466e-11	0.0118126	0.007962404	1.522208e-08	3.681287e-09
	-5.118028e-11	-1.331459e-11	0.045607	-0.006579711	1.077915e-11	-5.943065e-11	0.0121529	0.007990469
	0.01181261	0.007962404	1.077915e-11	-5.943078e-11	0.04676114	-0.006606765	5.290238e-09	1.537793e-08
	1.522208e-08	3.681286e-09	0.0121529	0.007990471	5.290238e-09	1.537793e-08	0.04571981	-0.00650178
8e+07	0.04530827	-0.01181732	2.171862e-10	5.601257e-10	0.01375557	0.006772208	-9.969466e-09	-3.213282e-08
	2.171862e-10	5.601254e-10	0.04530496	-0.01193827	-1.520973e-11	6.411133e-12	0.0140492	0.006709187
	0.01375558	0.006772207	-1.52097e-11	6.41108e-12	0.04641286	-0.01233912	-2.563918e-09	5.949723e-09
	-9.969466e-09	-3.213282e-08	0.01404919	0.006709191	-2.563918e-09	5.949722e-09	0.04542947	-0.01189727
9e+07	0.04372486	-0.01708378	-8.219888e-11	2.148973e-11	0.01527175	0.00510522	-3.207397e-09	-8.969627e-10
	-8.219892e-11	2.148968e-11	0.04369524	-0.01712936	-3.589114e-11	-4.409533e-12	0.01548778	0.00497583
	0.01527175	0.005105219	-3.589114e-11	-4.409527e-12	0.04464126	-0.01786284	-7.407249e-10	1.459674e-09
	-3.207397e-09	-8.969628e-10	0.01548778	0.004975834	-7.407249e-10	1.459674e-09	0.04381858	-0.01712424
1e+08	0.04093812	-0.02186744	-1.47011e-11	2.666945e-11	0.01625547	0.003100381	-1.330129e-11	4.248518e-11
	-1.47011e-11	2.666945e-11	0.04090737	-0.02183659	-4.015458e-11	-9.027705e-13	0.0163578	0.00293235
	0.01625547	0.00310038	-4.015458e-11	-9.027705e-13	0.04156232	-0.0228384	-2.240953e-11	4.137062e-11
	-1.330129e-11	4.248518e-11	0.0163578	0.00293235	-2.240953e-11	4.137062e-11	0.04101642	-0.02186283
1.1e+08	0.03707974	-0.02598502	-2.499401e-12	3.038432e-11	0.01662503	0.00089519	1.288351e-12	4.739048e-11
	-2.499401e-12	3.038432e-11	0.03706807	-0.0258936	-3.470465e-11	7.335867e-12	0.01661844	0.0007866693
	0.01662503	0.0008951899	-3.470465e-11	7.335867e-12	0.03739889	-0.02693135	-6.114437e-12	4.795936e-11
	1.288351e-12	4.739048e-11	0.01661844	0.0007866692	-6.114437e-12	4.795936e-11	0.03715689	-0.02593606
1.2e+08	0.03232993	-0.02908583	9.41959e-12	2.997158e-11	0.01634426	-0.00130359	1.353525e-11	4.821172e-11
	9.41959e-12	2.997158e-11	0.03234655	-0.02894545	-2.794047e-11	1.047213e-11	0.01628595	-0.001336612
	0.01634426	-0.00130359	-2.794047e-11	1.047213e-11	0.03243756	-0.02995205	9.89244e-12	4.869824e-11
	1.353525e-11	4.821172e-11	0.01628595	-0.001336612	9.89244e-12	4.869824e-11	0.03241702	-0.02899773
1.3e+08	0.02700712	-0.03099441	1.815805e-11	2.765872e-11	0.01545254	-0.003318121	2.404434e-11	4.675874e-11
	1.815805e-11	2.765872e-11	0.0270602	-0.03081868	-2.177595e-11	1.022853e-11	0.01537812	-0.003276469
	0.01545254	-0.003318121	-2.177595e-11	1.022853e-11	0.02696048	-0.03175115	2.206339e-11	4.63409e-11
	2.404434e-11	4.675874e-11	0.01537812	-0.003276469	2.206339e-11	4.63409e-11	0.027113	-0.03087521
1.4e+08	0.02143657	-0.03162084	2.69088e-11	2.297119e-11	0.01402998	-0.004988893	3.466698e-11	4.248977e-11
	2.69088e-11	2.297119e-11	0.02153024	-0.03142514	-1.52235e-11	8.504823e-12	0.01396614	-0.004882967
	0.01402998	-0.004988893	-1.52235e-11	8.504823e-12	0.0212847	-0.03225346	3.428713e-11	4.071046e-11
	3.466698e-11	4.248977e-11	0.01396614	-0.004882967	3.428713e-11	4.071046e-11	0.02156689	-0.03148094
1.5e+08	0.01594733	-0.03095861	3.492947e-11	1.582284e-11	0.01219598	-0.006185251	4.453497e-11	3.527143e-11
	3.492947e-11	1.582284e-11	0.01608093	-0.0307589	-8.771864e-12	5.101676e-12	0.01216101	-0.006031778
	0.01219598	-0.006185251	-8.771864e-12	5.101676e-12	0.01573337	-0.03146392	4.553807e-11	3.16713e-11
	4.453497e-11	3.527143e-11	0.01216101	-0.006031778	4.553807e-11	3.16713e-11	0.01610391	-0.0308097
1.6e+08	0.01085411	-0.02908235	4.146959e-11	6.348915e-12	0.01010025	-0.006815007	5.275627e-11	2.522841e-11
	4.146959e-11	6.348915e-12	0.01102205	-0.02889371	-2.952347e-12	2.767253e-15	0.01010392	-0.006634184
	0.01010025	-0.006815008	-2.952347e-12	2.767253e-15	0.01061517	-0.02946624	5.477227e-11	1.939978e-11
	5.275627e-11	2.522841e-11	0.01010392	-0.006634184	5.477227e-11	1.939978e-11	0.01103471	-0.02893619
1.7e+08	0.006438866	-0.0261412	4.581738e-11	-5.089076e-12	0.007911163	-0.006831191	5.847173e-11	1.275287e-11
	4.581738e-11	-5.089076e-12	0.006630969	-0.02597639	1.707343e-12	-6.629381e-12	0.007954838	-0.006643965
	0.007911163	-0.006831191	1.707343e-12	-6.629381e-12	0.006205502	-0.0264165	6.099587e-11	4.391129e-12
	5.847173e-11	1.275287e-11	0.007954838	-0.006643965	6.099587e-11	4.391129e-12	0.006637226	-0.02600831
1.8e+08	0.002933996	-0.02234786	4.73623e-11	-1.79126e-11	0.005802553	-0.006235271	6.092923e-11	-1.501139e-12
	4.73623e-11	-1.79126e-11	0.003136283	-0.02221599	4.735846e-12	-1.446099e-11	0.005879919	-0.006060814
	0.005802553	-0.006235271	4.735846e-12	-1.446099e-11	0.00272984	-0.0225323	6.335496e-11	-1.255252e-11
	6.092923e-11	-1.501139e-12	0.005879919	-0.006060814	6.335496e-11	-1.255252e-11	0.003140406	-0.02223635
1.9e+08	0.0005086627	-0.01796381	4.565723e-11	-3.13562e-11	0.003940154	-0.005076567	5.956124e-11	-1.664824e-11
	4.565723e-11	-3.13562e-11	0.0007045611	-0.01786926	5.771524e-12	-2.300789e-11	0.004038451	-0.0049301
	0.003940154	-0.005076567	5.771524e-12	-2.300789e-11	0.0003503096	-0.01807808	6.122886e-11	-3.03614e-11
	5.956124e-11	-1.664824e-11	0.004038451	-0.0049301	6.122886e-11	-3.03614e-11	0.0007108171	-0.01787827
2e+08	-0.0007407877	-0.01328151	4.048332e-11	-4.451034e-11	0.002468757	-0.003447922	5.405776e-11	-3.162171e-11
	4.048332e-11	-4.451034e-11	-0.0005689613	-0.01322324	4.608523e-12	-3.167483e-11	0.002570545	-0.003339008
	0.002468757	-0.003447922	4.608523e-12	-3.167483e-11	-0.0008435624	-0.01334749	5.431442e-11	-4.776888e-11
	5.405776e-11	-3.162171e-11	0.002570545	-0.003339008	5.431442e-11	-4.776888e-11	-0.0005566081	-0.01322232
2.1e+08	-0.0007955998	-0.008604852	3.189123e-11	-5.63945e-11	0.001501142	-0.001477983	4.442756e-11	-4.525314e-11
	3.189123e-11	-5.63945e-11	-0.000664954	-0.008576193	1.230604e-12	-3.980779e-11	0.001586428	-0.001409444
	0.001501142	-0.001477983	1.230604e-12	-3.980779e-11	-0.0008393261	-0.008643995	4.268827e-11	-6.341068e-11
	4.442756e-11	-4.525314e-11	0.001586428	-0.001409444	4.268827e-11	-6.341068e-11	-0.0006431557	-0.008567795
2.2e+08	0.0002857638	-0.004229071	2.021874e-11	-6.604226e-11	0.001109653	0.0006792162	3.102434e-11	-5.637573e-11
	2.021874e-11	-6.604226e-11	0.0003604047	-0.004217992	-4.172297e-12	-4.675681e-11	0.001158203	0.0007117094
	0.001109653	0.0006792162	-4.172297e-12	-4.675681e-11	0.0002990288	-0.004261104	2.683618e-11	-7.594486e-11
	3.102434e-11	-5.637573e-11	0.001158203	0.0007117094	2.683618e-11	-7.594486e-11	0.0003941214	-0.004205444
2.3e+08	0.002373091	-0.0004215808	6.087622e-12	-7.258803e-11	0.001321037	0.002856528	1.454527e-11	-6.392938e-11
	6.087622e-12	-7.258803e-11	0.002380778	-0.0004114956	-1.121105e-11	-5.194389e-11	0.001314674	0.002864153
	0.001321037	0.002856528	-1.121105e-11	-5.194389e-11	0.002436735	-0.0004634201	7.64191e-12	-8.418013e-11
	1.454527e-11	-6.392938e-11	0.001314674	0.002864153	7.64191e-12	-8.418013e-11	0.002427811	-0.0003986944
2.4e+08	0.005274566	0.002595046	-9.630298e-12	-7.53533e-11	0.002114902	0.004886795	-4.006259e-12	-6.706544e-11
	-9.630298e-12	-7.53533e-11	0.00520954	0.002624022	-1.932673e-11	-5.492567e-11	0.002039593	0.004886607
	0.002114902	0.004886795	-1.932673e-11	-5.492567e-11	0.005378528	0.002530044	-1.366574e-11	-8.719788e-11
	-4.006259e-12	-6.706544e-11	0.002039593	0.004886607	-1.366574e-11	-8.719788e-11	0.005270092	0.002632927
2.5e+08	0.008750845	0.004656778	-2.587463e-11	-7.391975e-11	0.003425838	0.006615766	-2.339154e-11	-6.523618e-11
	-2.587463e-11	-7.391975e-11	0.008613451	0.004726197	-2.784022e-11	-5.544342e-11	0.003273386	0.006629149
	0.003425838	0.006615766	-2.784022e-11	-5.544342e-11	0.008882792	0.004559269	-3.560511e-11	-8.445283e-11
	-2.339154e-11	-6.523618e-11	0.003273386	0.006629149	-3.560511e-11	-8.445283e-11	0.008686501	0.004727153
2.6e+08	0.01253202	0.005667628	-4.14789e-11	-6.818066e-11	0.005148954	0.007913822	-4.223294e-11	-5.825852e-11
	-4.14789e-11	-6.818066e-11	0.01232911	0.005798857	-3.601604e-11	-5.345365e-11	0.004918149	0.007964505
	0.005148954	0.007913822	-3.601604e-11	-5.345365e-11	0.01267852	0.005532439	-5.65623e-11	-7.584013e-11
	-4.223294e-11	-5.825852e-11	0.00491815	0.007964505	-5.65623e-11	-7.584013e-11	0.01241249	0.005788246
2.7e+08	0.0163363	0.005604427	-5.52663e-11	-5.836428e-11	0.007148347	0.008685659	-5.912635e-11	-4.634447e-11
	-5.52663e-11	-5.836428e-11	0.01608108	0.005816699	-4.313264e-11	-4.913564e-11	0.006845471	0.008797465
	0.007148347	0.008685659	-4.313264e-11	-4.913564e-11	0.01648391	0.005430434	-7.492771e-11	-6.172078e-11
	-5.912635e-11	-4.634447e-11	0.006845471	0.008797465	-7.492771e-11	-6.172078e-11	0.01617162	0.005791652
2.8e+08	0.01988903	0.004516624	-6.614847e-11	-4.5027e-11	0.009267796	0.008877228	-7.275739e-11	-3.009601e-11
	-6.614847e-11	-4.5027e-11	0.01960032	0.004825178	-4.855024e-11	-4.287576e-11	0.008906434	0.009071765
	0.009267796	0.008877228	-4.855024e-11	-4.287576e-11	0.02002532	0.004306384	-8.923335e-11	-4.290382e-11
	-7.275739e-11	-3.009601e-11	0.008906434	0.009071765	-8.923335e-11	-4.290382e-11	0.01969414	0.00478384
2.9e+08	0.02294085	0.002521231	-7.321726e-11	-2.901658e-11	0.01134285	0.008479492	-8.200955e-11	-1.046511e-11
	-7.321726e-11	-2.901658e-11	0.02264186	0.002935715	-5.176875e-11	-3.523125e-11	0.01094303	0.008773981
	0.01134285	0.008479492	-5.176875e-11	-3.523125e-11	0.02305521	0.002280413	-9.827659e-11	-2.058752e-11
	-8.200955e-11	-1.046511e-11	0.01094303	0.008773981	-9.827659e-11	-2.058752e-11	0.02273463	0.002877408
3e+08	0.02528384	-0.0002066112	-7.582083e-11	-1.141058e-11	0.01321341	0.007528762	-8.605448e-11	1.131491e-11
	-7.582083e-11	-1.141058e-11	0.02500041	0.0003166571	-5.24698e-11	-2.687929e-11	0.01280009	0.007934199
	0.01321341	0.007528762	-5.24698e-11	-2.687929e-11	0.02536808	-0.0004699371	-1.012189e-10	3.731688e-12
	-8.605448e-11	1.131491e-11	0.01280009	0.007934199	-1.012189e-10	3.731688e-12	0.02508775	0.0002419694
3.1e+08	0.0267644	-0.003446727	-7.361808e-11	6.563359e-12	0.01473586	0.006103648	-8.441798e-11	3.381903e-11
	-7.361808e-11	6.563359e-12	0.02652305	-0.002819307	-5.054047e-11	-1.855806e-11	0.01433698	0.006623457
	0.01473586	0.006103648	-5.054047e-11	-1.855806e-11	0.02681323	-0.003722909	-9.765326e-11	2.837206e-11
	-8.441798e-11	3.381903e-11	0.01433698	0.006623457	-9.765326e-11	2.837206e-11	0.02660085	-0.002908541
3.2e+08	0.02729244	-0.006949768	-6.660758e-11	2.361791e-11	0.01579387	0.004318862	-7.701741e-11	5.553251e-11
	-6.660758e-11	2.361791e-11	0.02711812	-0.006230401	-4.607815e-11	-1.100607e-11	0.01543802	0.004948182
	0.01579387	0.004318862	-4.607815e-11	-1.100607e-11	0.02730358	-0.00722843	-8.76353e-11	5.159046e-11
	-7.701741e-11	5.553251e-11	0.01543802	0.004948182	-8.76353e-11	5.159046e-11	0.02718294	-0.006331222
3.3e+08	0.02684603	-0.01045469	-5.513099e-11	3.849885e-11	0.01630718	0.002316364	-6.417101e-11	7.495655e-11
	-5.513099e-11	3.849885e-11	0.02676001	-0.009662598	-3.937903e-11	-4.905485e-12	0.01602111	0.00304203
	0.01630718	0.002316364	-3.937903e-11	-4.905485e-12	0.0268202	-0.01072556	-7.168166e-11	7.170655e-11
	-6.417101e-11	7.495655e-11	0.01602111	0.00304203	-7.168166e-11	7.170655e-11	0.02680932	-0.009771145
3.4e+08	0.02547148	-0.0137067	-3.985261e-11	5.007403e-11	0.01623756	0.0002544844	-4.658073e-11	9.07108e-11
	-3.985261e-11	5.007403e-11	0.02548932	-0.01286696	-3.091335e-11	-8.326423e-13	0.0160438	0.001055733
	0.01623756	0.0002544844	-3.091335e-11	-8.326423e-13	0.02541211	-0.01396037	-5.073728e-11	8.721953e-11
	-4.658073e-11	9.07108e-11	0.0160438	0.001055733	-5.073728e-11	8.721953e-11	0.02552178	-0.01297876
3.5e+08	0.02327875	-0.01647449	-2.171724e-11	5.741263e-11	0.01559168	-0.001704181	-2.529085e-11	1.016269e-10
	-2.171724e-11	5.741263e-11	0.02340877	-0.01561635	-2.129026e-11	7.819972e-13	0.0155064	-0.0008543152
	0.01559168	-0.001704181	-2.129026e-11	7.819972e-13	0.02319166	-0.01670308	-2.611604e-11	9.691129e-11
	-2.529085e-11	1.016269e-10	0.0155064	-0.0008543152	-2.611604e-11	9.691129e-11	0.02342433	-0.01572666
3.6e+08	0.02043282	-0.01856564	-1.889872e-12	5.985101e-11	0.01442058	-0.003405205	-1.627105e-12	1.068285e-10
	-1.889872e-12	5.985101e-11	0.02067493	-0.01772033	-1.121582e-11	-3.161906e-13	0.01445187	-0.00253791
	0.01442058	-0.003405205	-1.121582e-11	-3.161906e-13	0.02032556	-0.01876331	5.797112e-13	9.993189e-11
	-1.627105e-12	1.068285e-10	0.01445187	-0.00253791	5.797112e-13	9.993189e-11	0.02067489	-0.01782454
3.7e+08	0.01714123	-0.01983917	1.831462e-11	5.704268e-11	0.01281571	-0.004714176	2.288281e-11	1.05799e-10
	1.831462e-11	5.704268e-11	0.01748655	-0.01903751	-1.445649e-12	-4.186522e-12	0.01296257	-0.003862437
	0.01281571	-0.004714176	-1.445649e-12	-4.186522e-12	0.01702248	-0.02000241	2.755864e-11	9.586549e-11
	2.288281e-11	1.05799e-10	0.01296257	-0.003862437	2.755864e-11	9.586549e-11	0.01747349	-0.01913151
3.8e+08	0.01363904	-0.02021438	3.751795e-11	4.898946e-11	0.01090197	-0.005527045	4.66022e-11	9.84243e-11
	3.751795e-11	4.898946e-11	0.01407009	-0.01948428	7.265751e-12	-1.068458e-11	0.01115393	-0.004722965
	0.01090197	-0.005527045	7.265751e-12	-1.068458e-11	0.01351793	-0.02034218	5.295286e-11	8.477041e-11
	4.66022e-11	9.84243e-11	0.01115393	-0.004722965	5.295286e-11	8.477041e-11	0.01404768	-0.01956478
3.9e+08	0.01017199	-0.01967547	5.436743e-11	3.605171e-11	0.008828025	-0.00577817	6.788884e-11	8.501726e-11
	5.436743e-11	3.605171e-11	0.0106637	-0.01903954	1.421737e-11	-1.946542e-11	0.009165598	-0.00505026
	0.008828025	-0.00577817	1.421737e-11	-1.946542e-11	0.01005741	-0.01976931	7.494024e-11	6.719344e-11
	6.788884e-11	8.501726e-11	0.009165598	-0.00505026	7.494024e-11	6.719344e-11	0.01063642	-0.01910438
4e+08	0.006979151	-0.01827164	6.762748e-11	1.893679e-11	0.006754837	-0.005445412	8.520508e-11	6.631569e-11
	6.762748e-11	1.893679e-11	0.007500475	-0.01774509	1.881377e-11	-2.99994e-11	0.007150766	-0.004816074
	0.006754837	-0.005445412	1.881377e-11	-2.99994e-11	0.006879119	-0.01833522	9.187109e-11	4.415358e-11
	8.520508e-11	6.631569e-11	0.007150766	-0.004816074	9.187109e-11	4.415358e-11	0.007473307	-0.01779346
4.1e+08	0.004276246	-0.01611258	7.626827e-11	-1.335291e-12	0.004843192	-0.004551857	9.722874e-11	4.345235e-11
	7.626827e-11	-1.335291e-12	0.004792322	-0.01570168	2.061395e-11	-4.16015e-11	0.005264344	-0.004035273
	0.004843192	-0.004551857	2.061395e-11	-4.16015e-11	0.004197366	-0.0161515	1.023918e-10	1.709291e-11
	9.722874e-11	4.345235e-11	0.005264344	-0.004035273	1.023918e-10	1.709291e-11	0.004770334	-0.01573416
4.2e+08	0.002240746	-0.0133598	7.954561e-11	-2.348912e-11	0.003241201	-0.003164005	1.029568e-10	1.789481e-11
	7.954561e-11	-2.348912e-11	0.002715529	-0.01306096	1.93733e-11	-5.347411e-11	0.003651056	-0.002764638
	0.003241201	-0.003164005	1.93733e-11	-5.347411e-11	0.00218781	-0.01338107	1.055562e-10	-1.220638e-11
	1.029568e-10	1.789481e-11	0.003651056	-0.002764638	1.055562e-10	-1.220638e-11	0.002703478	-0.01307956
4.3e+08	0.0009999358	-0.01021441	7.706593e-11	-4.607227e-11	0.002072801	-0.001386559	1.017936e-10	-8.643524e-12
	7.706593e-11	-4.607227e-11	0.001398977	-0.01001399	1.507452e-11	-6.476242e-11	0.002434297	-0.001098394
	0.002072801	-0.001386559	1.507452e-11	-6.476242e-11	0.0009756436	-0.01022591	1.00915e-10	-4.173642e-11
	1.017936e-10	-8.643524e-12	0.002434297	-0.001098394	1.00915e-10	-4.173642e-11	0.001400928	-0.01002201
4.4e+08	0.0006226265	-0.006902207	6.883034e-11	-6.755149e-11	0.001428159	0.0006457786	9.361361e-11	-3.431751e-11
	6.883034e-11	-6.755149e-11	0.0009158827	-0.006777188	7.942976e-12	-7.461965e-11	0.001706692	0.0008391493
	0.001428159	0.0006457786	7.942976e-12	-7.461965e-11	0.0006274863	-0.006912069	8.857227e-11	-6.940371e-11
	9.361361e-11	-3.431751e-11	0.001706692	0.0008391493	8.857227e-11	-6.940371e-11	0.0009348605	-0.00677895
4.5e+08	0.001115198	-0.003657233	5.525207e-11	-8.642119e-11	0.001356756	0.002778838	7.879212e-11	-5.728225e-11
	5.525207e-11	-8.642119e-11	0.001279572	-0.003576616	-1.557357e-12	-8.22776e-11	0.001523073	0.002903284
	0.001356756	0.002778838	-1.557357e-12	-8.22776e-11	0.001147569	-0.003673274	6.920168e-11	-9.318533e-11
	7.879212e-11	-5.728225e-11	0.001523073	0.002903284	6.920168e-11	-9.318533e-11	0.001317305	-0.003577185
4.6e+08	0.002422133	-0.0007049634	3.714328e-11	-1.013163e-10	0.001863666	0.004850996	5.819612e-11	-7.583252e-11
	3.714328e-11	-1.013163e-10	0.002443574	-0.0006318841	-1.275724e-11	-8.711798e-11	0.001896423	0.004940115
	0.001863666	0.004850996	-1.275724e-11	-8.711798e-11	0.002478439	-0.0007341352	4.401518e-11	-1.112823e-10
	5.819612e-11	-7.583252e-11	0.001896423	0.004940115	4.401518e-11	-1.112823e-10	0.002500327	-0.0006366607
4.7e+08	0.004430983	0.001753608	1.566986e-11	-1.111205e-10	0.00290933	0.006705712	3.313591e-11	-8.85355e-11
	1.566986e-11	-1.111205e-10	0.004305944	0.001859237	-2.484359e-11	-8.87217e-11	0.002797087	0.006798411
	0.00290933	0.006705712	-2.484359e-11	-8.87217e-11	0.004506073	0.001705664	1.470108e-11	-1.222494e-10
