!$
! Info: Touchstone file created by Circ.  Input file=Tx_14in_Rx_100ohms_TxVia_10mils_RxVia_20mils.circ
!$
# Hz S RI R 50
0	0.01446366	8.49836e-26	-7.476375e-05	1.369711e-25	8.584416e-05	1.50329e-23	-7.476916e-05	4.676842e-25
	-7.476376e-05	1.374989e-25	0.01446292	1.224269e-25	-7.476299e-05	-8.110902e-27	8.544085e-05	2.05954e-23
	8.395533e-05	1.482094e-23	-7.4763e-05	-7.538477e-27	0.01447729	8.842584e-26	-7.476171e-05	3.325181e-25
	-7.476913e-05	4.648687e-25	8.689486e-05	2.11976e-23	-7.476167e-05	3.288199e-25	0.01446844	1.167285e-25
1e+07	0.02017711	0.008506142	-0.0001213371	-4.317043e-05	0.0004843067	0.002407095	-0.000307127	0.0002053391
	-0.0001213371	-4.317044e-05	0.02155883	0.008092489	-4.396035e-05	-1.524678e-05	0.0009725117	0.002451581
	0.0004842674	0.00240712	-4.396034e-05	-1.524678e-05	0.02094172	0.008086925	-1.387552e-05	-1.716738e-05
	-0.000307127	0.0002053391	0.0009725451	0.00245157	-1.387553e-05	-1.716737e-05	0.02136417	0.008125242
2e+07	0.02769184	0.01140801	-8.050158e-05	-9.703587e-05	0.001486945	0.004659178	-0.0003487303	0.0002234453
	-8.050159e-05	-9.703587e-05	0.02830658	0.01032687	-3.641873e-05	-1.514019e-05	0.001822288	0.004947445
	0.001486953	0.004659196	-3.641873e-05	-1.514019e-05	0.02781828	0.01054059	-1.249195e-05	4.61005e-06
	-0.0003487303	0.0002234453	0.001822286	0.004947423	-1.249195e-05	4.610055e-06	0.02818622	0.01045199
3e+07	0.03393009	0.01070437	-6.179508e-05	-0.0001141448	0.00304213	0.006484994	-0.0003683328	0.0002711629
	-6.179508e-05	-0.0001141448	0.03394822	0.009555709	-3.170574e-05	-1.49906e-05	0.003271677	0.006863694
	0.003042127	0.006484994	-3.170574e-05	-1.49906e-05	0.03358103	0.009843587	-1.513456e-05	5.339481e-06
	-0.0003683328	0.0002711629	0.003271672	0.006863692	-1.513456e-05	5.339482e-06	0.03389365	0.009708062
4e+07	0.03906955	0.00804811	-0.000113912	-8.034108e-05	0.005015044	0.007787276	-0.0003732851	0.0003240069
	-0.000113912	-8.034108e-05	0.03861947	0.007043581	-2.79918e-05	-1.445977e-05	0.005198217	0.008211984
	0.005015039	0.007787278	-2.79918e-05	-1.445977e-05	0.03836994	0.007354639	-1.880742e-05	6.05659e-06
	-0.0003732851	0.0003240069	0.005198216	0.008211986	-1.880742e-05	6.056591e-06	0.03862288	0.007196763
5e+07	0.04299343	0.004005494	-0.0001477942	-3.257081e-05	0.007242809	0.008482496	-0.0003658191	0.0003776291
	-0.0001477942	-3.257081e-05	0.04220118	0.003266837	-2.483028e-05	-1.402968e-05	0.007560304	0.008791917
	0.007242807	0.008482498	-2.483028e-05	-1.402968e-05	0.04206313	0.003565753	-2.177817e-05	9.083192e-06
	-0.0003658191	0.0003776291	0.007560304	0.008791918	-2.177817e-05	9.083193e-06	0.0422523	0.003404733
6e+07	0.04556671	-0.000991346	-0.0001633228	2.315848e-05	0.009547446	0.008531671	-0.0003478406	0.000429006
	-0.0001633228	2.315848e-05	0.04456164	-0.001393877	-2.198759e-05	-1.387417e-05	0.00993627	0.008708621
	0.009547447	0.008531668	-2.198759e-05	-1.387417e-05	0.04452127	-0.001137226	-2.339846e-05	1.376209e-05
	-0.0003478406	0.000429006	0.009936266	0.008708621	-2.339846e-05	1.376209e-05	0.04464965	-0.001282268
7e+07	0.04669719	-0.006541397	-0.0001602699	8.192499e-05	0.01175897	0.007928654	-0.0003219455	0.0004756828
	-0.0001602699	8.192499e-05	0.045607	-0.006579711	-2.081554e-05	-1.18818e-05	0.0121529	0.007990469
	0.01175897	0.007928648	-2.081554e-05	-1.18818e-05	0.04564459	-0.006388756	-2.314436e-05	1.934857e-05
	-0.0003219455	0.0004756828	0.0121529	0.007990471	-2.314436e-05	1.934857e-05	0.04571981	-0.00650178
8e+07	0.04635961	-0.01225638	-0.0001386045	0.0001393015	0.01369351	0.006743922	-0.0002918299	0.0005160353
	-0.0001386045	0.0001393015	0.04530496	-0.01193827	-2.188064e-05	-4.3037e-06	0.0140492	0.006709187
	0.01369351	0.006743916	-2.188064e-05	-4.303699e-06	0.04539673	-0.01182897	-2.082416e-05	2.499702e-05
	-0.0002918299	0.0005160353	0.01404919	0.006709191	-2.082416e-05	2.499702e-05	0.04542947	-0.01189727
9e+07	0.04460312	-0.01776619	-9.814028e-05	0.0001912485	0.01520313	0.005084494	-0.0002629691	0.0005496121
	-9.814029e-05	0.0001912485	0.04369524	-0.01712936	-2.05281e-05	3.07584e-06	0.01548778	0.00497583
	0.01520313	0.00508449	-2.05281e-05	3.075841e-06	0.0438149	-0.01710993	-1.668478e-05	2.990394e-05
	-0.0002629691	0.0005496121	0.01548778	0.004975834	-1.668478e-05	2.990394e-05	0.04381858	-0.01712424
1e+08	0.04154337	-0.02273242	-3.294695e-05	0.0002344061	0.01618271	0.003088729	-0.0002511792	0.0005763738
	-3.294695e-05	0.0002344061	0.04090737	-0.02183659	-1.588755e-05	9.853545e-06	0.0163578	0.00293235
	0.01618271	0.003088729	-1.588755e-05	9.853545e-06	0.04102595	-0.0219078	-1.139622e-05	3.345379e-05
	-0.0002511792	0.0005763738	0.0163578	0.00293235	-1.139622e-05	3.345379e-05	0.04101642	-0.02186283
1.1e+08	0.03739978	-0.02682398	3.481455e-05	0.0002329148	0.01655073	0.0008931256	-0.0002341508	0.0005590691
	3.481455e-05	0.0002329148	0.03706807	-0.0258936	-1.005589e-05	1.133817e-05	0.01661844	0.0007866693
	0.01655073	0.0008931257	-1.005589e-05	1.133817e-05	0.03716175	-0.02603904	-5.373858e-06	3.428281e-05
	-0.0002341508	0.0005590691	0.01661844	0.0007866692	-5.373858e-06	3.428281e-05	0.03715689	-0.02593606
1.2e+08	0.03245567	-0.02984874	4.913345e-05	0.0002217266	0.01627103	-0.00129604	-0.0002054963	0.000546181
	4.913345e-05	0.0002217266	0.03234655	-0.02894545	-5.602125e-06	1.19317e-05	0.01628595	-0.001336612
	0.01627103	-0.001296039	-5.602125e-06	1.19317e-05	0.03240288	-0.02915037	9.506334e-07	3.310967e-05
	-0.0002054963	0.000546181	0.01628595	-0.001336612	9.506334e-07	3.310967e-05	0.03241702	-0.02899773
1.3e+08	0.02699261	-0.03165639	6.544943e-05	0.0002095674	0.01538294	-0.003301648	-0.0001789512	0.0005354254
	6.544943e-05	0.0002095674	0.0270602	-0.03081868	-1.893947e-06	1.17107e-05	0.01537812	-0.003276469
	0.01538294	-0.003301648	-1.893947e-06	1.17107e-05	0.0270693	-0.03106574	6.53032e-06	3.012114e-05
	-0.0001789512	0.0005354254	0.01537812	-0.003276469	6.53032e-06	3.012114e-05	0.027113	-0.03087521
1.4e+08	0.02132669	-0.03217054	8.1578e-05	0.0001959441	0.01396629	-0.004964854	-0.0001564611	0.0005282644
	8.1578e-05	0.0001959441	0.02153024	-0.03142514	1.235808e-06	1.088706e-05	0.01396614	-0.004882967
	0.01396629	-0.004964853	1.235808e-06	1.088706e-05	0.02148765	-0.03169517	1.068052e-05	2.57886e-05
	-0.0001564611	0.0005282644	0.01396614	-0.004882967	1.068052e-05	2.57886e-05	0.02156689	-0.03148094
1.5e+08	0.01578039	-0.03139474	9.63929e-05	0.0001810238	0.01214001	-0.006155562	-0.0001374576	0.0005266098
	9.63929e-05	0.0001810238	0.01608093	-0.0307589	3.842888e-06	9.603414e-06	0.01216101	-0.006031778
	0.01214001	-0.006155562	3.842888e-06	9.603414e-06	0.01598813	-0.03103246	1.300054e-05	2.079996e-05
	-0.0001374576	0.0005266098	0.01216101	-0.006031778	1.300054e-05	2.079996e-05	0.01610391	-0.0308097
1.6e+08	0.01066222	-0.02941126	0.0001093272	0.000165273	0.01005322	-0.006782003	-0.0001199129	0.0005319723
	0.0001093272	0.000165273	0.01102205	-0.02889371	5.951382e-06	7.973225e-06	0.01010392	-0.006634184
	0.01005322	-0.006782003	5.951382e-06	7.973225e-06	0.01088642	-0.0291528	1.341599e-05	1.593573e-05
	-0.0001199129	0.0005319723	0.01010392	-0.006634184	1.341599e-05	1.593573e-05	0.01103471	-0.02893619
1.7e+08	0.006247727	-0.0263748	0.000120234	0.0001492482	0.007873622	-0.006797447	-0.0001009224	0.0005449723
	0.000120234	0.0001492482	0.006630969	-0.02597639	7.576677e-06	6.093747e-06	0.007954838	-0.006643965
	0.007873623	-0.006797447	7.576677e-06	6.093747e-06	0.006465142	-0.02620607	1.218078e-05	1.1932e-05
	-0.0001009224	0.0005449723	0.007954838	-0.006643965	1.218078e-05	1.1932e-05	0.006637226	-0.02600831
1.8e+08	0.002762896	-0.02250171	0.0001292919	0.0001334371	0.005774325	-0.006203409	-7.723812e-05	0.0005650732
	0.0001292919	0.0001334371	0.003136283	-0.02221599	8.734254e-06	4.05048e-06	0.005879919	-0.006060814
	0.005774325	-0.006203409	8.734254e-06	4.05048e-06	0.002957159	-0.02240581	9.826926e-06	9.352565e-06
	-7.723812e-05	0.0005650732	0.005879919	-0.006060814	9.826926e-06	9.352565e-06	0.003140406	-0.02223635
1.9e+08	0.000370632	-0.01805538	0.0001369014	0.0001181401	0.003920354	-0.005049059	-4.579309e-05	0.0005905274
	0.0001369014	0.0001181401	0.0007045611	-0.01786926	8.951779e-06	2.757534e-06	0.004038451	-0.0049301
	0.003920354	-0.005049059	8.951779e-06	2.757534e-06	0.0005318456	-0.01801441	7.074887e-06	8.48494e-06
	-4.579309e-05	0.0005905274	0.004038451	-0.0049301	7.074887e-06	8.48494e-06	0.0007108171	-0.01787827
2e+08	-0.0008385346	-0.01332866	0.000143543	0.000103424	0.00245586	-0.003426895	-4.177257e-06	0.0006185135
	0.000143543	0.000103424	-0.0005689613	-0.01322324	8.745235e-06	2.128702e-06	0.002570545	-0.003339008
	0.00245586	-0.003426895	8.745235e-06	2.128702e-06	-0.0007144862	-0.01332524	4.688985e-06	9.306768e-06
	-4.177257e-06	0.0006185135	0.002570545	-0.003339008	4.688985e-06	9.306768e-06	-0.0005566081	-0.01322232
2.1e+08	-0.0008509897	-0.008624487	0.0001496618	8.911345e-05	0.001493105	-0.001465067	4.898948e-05	0.000645442
	0.0001496618	8.911345e-05	-0.000664954	-0.008576193	8.587243e-06	1.532828e-06	0.001586428	-0.001409444
	0.001493105	-0.001465067	8.587243e-06	1.532828e-06	-0.0007633572	-0.008643055	3.356091e-06	1.148837e-05
	4.898948e-05	0.000645442	0.001586428	-0.001409444	3.356091e-06	1.148837e-05	-0.0006431557	-0.008567795
2.2e+08	0.0002705332	-0.004236159	0.0001555615	7.482474e-05	0.001104071	0.000683017	0.0001138316	0.0006673702
	0.0001555615	7.482474e-05	0.0003604047	-0.004217992	8.468827e-06	9.433061e-07	0.001158203	0.0007117094
	0.001104071	0.000683017	8.468827e-06	9.433061e-07	0.0003262646	-0.004263866	3.571332e-06	1.44413e-05
	0.0001138316	0.0006673702	0.001158203	0.0007117094	3.571332e-06	1.44413e-05	0.0003941214	-0.004205444
2.3e+08	0.002392543	-0.000428395	0.0001613182	6.005717e-05	0.001315326	0.002850905	0.0001891667	0.0006804687
	0.0001613182	6.005717e-05	0.002380778	-0.0004114956	8.373425e-06	3.374238e-07	0.001314674	0.002864153
	0.001315326	0.002850905	8.373425e-06	3.374238e-07	0.002423464	-0.0004556708	5.547145e-06	1.742581e-05
	0.0001891667	0.0006804687	0.001314674	0.002864153	5.547146e-06	1.742581e-05	0.002427811	-0.0003986944
2.4e+08	0.005320992	0.002579349	0.0001667464	4.430533e-05	0.002106499	0.004872156	0.000272636	0.0006814692
	0.0001667464	4.430533e-05	0.00520954	0.002624022	8.278213e-06	-2.99906e-07	0.002039593	0.004886607
	0.002106499	0.004872156	8.278213e-06	-2.99906e-07	0.005335579	0.002558587	9.177491e-06	1.967785e-05
	0.000272636	0.0006814692	0.002039593	0.004886607	9.177491e-06	1.967785e-05	0.005270092	0.002632927
2.5e+08	0.00881533	0.0046263	0.0001714141	2.71721e-05	0.003412395	0.006593202	0.0003609797	0.0006680242
	0.0001714141	2.71721e-05	0.008613451	0.004726197	8.157026e-06	-9.744071e-07	0.003273386	0.006629149
	0.003412395	0.006593202	8.157026e-06	-9.744071e-07	0.00882234	0.004614757	1.405587e-05	2.053889e-05
	0.0003609797	0.0006680242	0.003273386	0.006629149	1.405587e-05	2.053889e-05	0.008686501	0.004727153
2.6e+08	0.01260539	0.005619621	0.000174705	8.467837e-06	0.005128514	0.00788502	0.0004504267	0.000638937
	0.000174705	8.467837e-06	0.01232911	0.005798857	7.984188e-06	-1.681312e-06	0.004918149	0.007964505
	0.005128514	0.00788502	7.984188e-06	-1.681312e-06	0.01261291	0.005617011	1.954373e-05	1.956657e-05
	0.0004504267	0.000638937	0.00491815	0.007964505	1.954373e-05	1.956657e-05	0.01241249	0.005788246
2.7e+08	0.01640994	0.005538966	0.000175915	-1.172555e-05	0.00711949	0.008652769	0.0005371249	0.0005942299
	0.000175915	-1.172555e-05	0.01608108	0.005816699	7.738298e-06	-2.406533e-06	0.006845471	0.008797465
	0.00711949	0.008652769	7.738298e-06	-2.406533e-06	0.01642464	0.005542606	2.487646e-05	1.660835e-05
	0.0005371249	0.0005942299	0.006845471	0.008797465	2.487646e-05	1.660835e-05	0.01617162	0.005791652
2.8e+08	0.01995551	0.004436113	0.0001743689	-3.303374e-05	0.009229746	0.008842703	0.0006175641	0.0005350472
	0.0001743689	-3.303374e-05	0.01960032	0.004825178	7.405438e-06	-3.128988e-06	0.008906434	0.009071765
	0.009229746	0.008842703	7.405438e-06	-3.128988e-06	0.01998217	0.004441646	2.928939e-05	1.182632e-05
	0.0006175641	0.0005350472	0.008906434	0.009071765	2.928939e-05	1.182632e-05	0.01969414	0.00478384
2.9e+08	0.02299443	0.002429816	0.0001695352	-5.48181e-05	0.01129553	0.008445896	0.0006889119	0.0004634191
	0.0001695352	-5.48181e-05	0.02264186	0.002935715	6.980852e-06	-3.824205e-06	0.01094303	0.008773981
	0.01129553	0.008445896	6.980852e-06	-3.824205e-06	0.02303569	0.002431985	3.214202e-05	5.670198e-06
	0.0006889119	0.0004634191	0.01094303	0.008773981	3.214202e-05	5.670198e-06	0.02273463	0.002877408
3e+08	0.02532064	-0.0003036833	0.000161121	-7.624682e-05	0.01315744	0.007498581	0.0007492322	0.0003819261
	0.000161121	-7.624682e-05	0.02500041	0.0003166571	6.469109e-06	-4.468055e-06	0.01280009	0.007934199
	0.01315744	0.007498581	6.469109e-06	-4.468055e-06	0.02537702	-0.0003102803	3.302078e-05	-1.19631e-06
	0.0007492322	0.0003819261	0.01280009	0.007934199	3.302078e-05	-1.19631e-06	0.02508775	0.0002419694
3.1e+08	0.02678255	-0.003543746	0.0001491336	-9.639839e-05	0.01467251	0.006079099	0.0007975606	0.0002933153
	0.0001491336	-9.639839e-05	0.02652305	-0.002819307	5.882998e-06	-5.040073e-06	0.01433698	0.006623457
	0.01467251	0.006079099	5.882998e-06	-5.040073e-06	0.02685266	-0.003563992	3.180399e-05	-8.00361e-06
	0.0007975606	0.0002933153	0.01433698	0.006623457	3.180399e-05	-8.00361e-06	0.02660085	-0.002908541
3.2e+08	0.02729192	-0.007041148	0.0001338951	-0.0001143807	0.01572498	0.004301727	0.00083382	0.0002001386
	0.0001338951	-0.0001143807	0.02711812	-0.006230401	5.241155e-06	-5.52598e-06	0.01543802	0.004948182
	0.01572498	0.004301727	5.241155e-06	-5.52598e-06	0.02737286	-0.007078874	2.867834e-05	-1.400011e-05
	0.00083382	0.0002001386	0.01543802	0.004948182	2.867834e-05	-1.400011e-05	0.02718294	-0.006331222
3.3e+08	0.02682844	-0.01053545	0.0001160106	-0.0001294474	0.01623498	0.002307861	0.0008586148	0.0001044607
	0.0001160106	-0.0001294474	0.02676001	-0.009662598	4.565194e-06	-5.919073e-06	0.01602111	0.00304203
	0.01623498	0.002307861	4.565194e-06	-5.919073e-06	0.02691631	-0.01059309	2.410501e-05	-1.857201e-05
	0.0008586148	0.0001044607	0.01602111	0.00304203	2.410501e-05	-1.857201e-05	0.02680932	-0.009771145
3.4e+08	0.02543966	-0.01377285	9.629431e-05	-0.0001410931	0.01616453	0.0002551699	0.0008729341	7.673233e-06
	9.629431e-05	-0.0001410931	0.02548932	-0.01286696	3.876772e-06	-6.220515e-06	0.0160438	0.001055733
	0.01616453	0.0002551699	3.876772e-06	-6.220515e-06	0.02553013	-0.01385125	1.87416e-05	-2.134038e-05
	0.0008729341	7.673233e-06	0.0160438	0.001055733	1.87416e-05	-2.134038e-05	0.02552178	-0.01297876
3.5e+08	0.02323642	-0.01652326	7.566375e-05	-0.0001491115	0.01552037	-0.001694447	0.0008778139	-8.954126e-05
	7.566375e-05	-0.0001491115	0.02340877	-0.01561635	3.19468e-06	-6.438579e-06	0.0155064	-0.0008543152
	0.01552037	-0.001694447	3.19468e-06	-6.438579e-06	0.02332529	-0.01662174	1.333215e-05	-2.221529e-05
	0.0008778139	-8.954126e-05	0.0155064	-0.0008543152	1.333215e-05	-2.221529e-05	0.02342433	-0.01572666
3.6e+08	0.0203841	-0.0185956	5.502026e-05	-0.0001536094	0.01435338	-0.003387248	0.0008740205	-0.0001871093
	5.502026e-05	-0.0001536094	0.02067493	-0.01772033	2.531709e-06	-6.578873e-06	0.01445187	-0.00253791
	0.01435338	-0.003387248	2.531709e-06	-6.578873e-06	0.02046775	-0.01871211	8.39608e-06	-2.219423e-05
	0.0008740205	-0.0001871093	0.01445187	-0.00253791	8.39608e-06	-2.219423e-05	0.02067489	-0.01782454
3.7e+08	0.01709023	-0.01985017	3.513388e-05	-0.0001549715	0.01275472	-0.004689444	0.0008618099	-0.0002853682
	3.513388e-05	-0.0001549715	0.01748655	-0.01903751	1.897867e-06	-6.664667e-06	0.01296257	-0.003862437
	0.01275472	-0.004689444	1.897867e-06	-6.664667e-06	0.01716607	-0.01998165	4.411917e-06	-2.103883e-05
	0.0008618099	-0.0002853682	0.01296257	-0.003862437	4.411917e-06	-2.103883e-05	0.01747349	-0.01913151
3.8e+08	0.01358949	-0.02020743	1.655204e-05	-0.000153784	0.01084878	-0.005497497	0.0008407896	-0.0003847507
	1.655204e-05	-0.000153784	0.01407009	-0.01948428	1.292498e-06	-6.715145e-06	0.01115393	-0.004722965
	0.01084878	-0.005497497	1.292498e-06	-6.715145e-06	0.0136562	-0.0203502	1.727611e-06	-1.919011e-05
	0.0008407896	-0.0003847507	0.01115393	-0.004722965	1.727611e-06	-1.919011e-05	0.01404768	-0.01956478
3.9e+08	0.01012698	-0.01965251	-4.538163e-07	-0.000150729	0.00878364	-0.005746124	0.000809924	-0.0004854609
	-4.538163e-07	-0.000150729	0.0106637	-0.01903954	7.071339e-07	-6.744837e-06	0.009165598	-0.00505026
	0.00878364	-0.005746124	7.071339e-07	-6.744837e-06	0.01018456	-0.01980277	3.893312e-07	-1.731483e-05
	0.000809924	-0.0004854609	0.009165598	-0.00505026	3.893312e-07	-1.731483e-05	0.01063642	-0.01910438
4e+08	0.006940904	-0.01823525	-1.589506e-05	-0.000146467	0.0067196	-0.005413372	0.0007676757	-0.0005871728
	-1.589506e-05	-0.000146467	0.007500475	-0.01774509	1.276075e-07	-6.762222e-06	0.007150766	-0.004816074
	0.0067196	-0.005413372	1.276075e-07	-6.762222e-06	0.006990677	-0.01838952	1.580204e-07	-1.602246e-05
	0.0007676757	-0.0005871728	0.007150766	-0.004816074	1.580204e-07	-1.602246e-05	0.007473307	-0.01779346
4.1e+08	0.004246023	-0.01606567	-3.00251e-05	-0.0001415276	0.004816743	-0.00452232	0.0007122592	-0.0006888104
	-3.00251e-05	-0.0001415276	0.004792322	-0.01570168	-4.63032e-07	-6.767596e-06	0.005264344	-0.004035273
	0.004816743	-0.00452232	-4.63032e-07	-6.767596e-06	0.004290394	-0.01622119	5.59393e-07	-1.575358e-05
	0.0007122592	-0.0006888104	0.005264344	-0.004035273	5.59393e-07	-1.575358e-05	0.004770334	-0.01573416
4.2e+08	0.002218875	-0.01330528	-4.325844e-05	-0.0001362267	0.003222516	-0.00313927	0.0006419685	-0.0007884423
	-4.325844e-05	-0.0001362267	0.002715529	-0.01306096	-1.080776e-06	-6.752261e-06	0.003651056	-0.002764638
	0.003222516	-0.00313927	-1.080776e-06	-6.752261e-06	0.002261025	-0.01346037	9.752152e-07	-1.669807e-05
	0.0006419685	-0.0007884423	0.003651056	-0.002764638	9.752152e-07	-1.669807e-05	0.002703478	-0.01307956
4.3e+08	0.0009858912	-0.01015493	-5.606371e-05	-0.0001306237	0.002060267	-0.001368557	0.0005555324	-0.0008833142
	-5.606371e-05	-0.0001306237	0.001398977	-0.01001399	-1.736721e-06	-6.699371e-06	0.002434297	-0.001098394
	0.002060267	-0.001368557	-1.736721e-06	-6.699371e-06	0.001029383	-0.01030913	7.600892e-07	-1.875761e-05
	0.0005555324	-0.0008833142	0.002434297	-0.001098394	7.600892e-07	-1.875761e-05	0.001400928	-0.01002201
4.4e+08	0.0006152054	-0.006839939	-6.884922e-05	-0.000124527	0.001419703	0.0006556332	0.0004524342	-0.0009700187
	-6.884922e-05	-0.000124527	0.0009158827	-0.006777188	-2.433686e-06	-6.586516e-06	0.001706692	0.0008391493
	0.001419703	0.0006556332	-2.433686e-06	-6.586516e-06	0.0006635466	-0.006994085	-6.368113e-07	-2.15591e-05
	0.0004524342	-0.0009700187	0.001706692	0.0008391493	-6.368113e-07	-2.15591e-05	0.0009348605	-0.00677895
4.5e+08	0.001112731	-0.003593705	-8.186131e-05	-0.0001175453	0.00135	0.00277975	0.0003331542	-0.001044782
	-8.186131e-05	-0.0001175453	0.001279572	-0.003576616	-3.164212e-06	-6.389638e-06	0.001523073	0.002903284
	0.00135	0.00277975	-3.164212e-06	-6.389639e-06	0.001168953	-0.00374983	-3.565841e-06	-2.451651e-05
	0.0003331542	-0.001044782	0.001523073	0.002903284	-3.565841e-06	-2.451651e-05	0.001317305	-0.003577185
4.6e+08	0.002422726	-0.0006409994	-9.511413e-05	-0.0001091763	0.001856111	0.004842851	0.0001994388	-0.001103826
	-9.511413e-05	-0.0001091763	0.002443574	-0.0006318841	-3.910407e-06	-6.087588e-06	0.001896423	0.004940115
	0.001856111	0.004842851	-3.910407e-06	-6.087588e-06	0.002489016	-0.0008021238	-8.106644e-06	-2.693078e-05
	0.0001994388	-0.001103826	0.001896423	0.004940115	-8.106644e-06	-2.693078e-05	0.002500327	-0.0006366607
4.7e+08	0.00443282	0.001817874	-0.0001081573	-9.887625e-05	0.002898543	0.006689077	3.195303e-05	-0.001140207
	-0.0001081573	-9.887625e-05	0.004305944	0.001859237	-4.648262e-06	-5.665905e-06	0.002797087	0.006798411
	0.002898543	0.006689077	-4.648262e-06	-5.665905e-06	0.004510174	0.001648078	-1.384317e-05	-2.807664e-05
	3.195303e-05	-0.001140207	0.002797087	0.006798411	-1.384317e-05	-2.807664e-05	0.00438053	0.001844918
