!$
! Info: Touchstone file created by Circ.  Input file=Tx_12in_Rx_85ohms_TxVia_10mils_RxVia_20mils.circ
!$
# Hz S RI R 50
0	0.009685732	7.490241e-26	-6.473616e-05	1.485286e-25	7.594343e-05	1.004917e-23	-6.474144e-05	4.548512e-25
	-6.473617e-05	1.489855e-25	0.009685047	1.077643e-25	-6.473569e-05	4.709018e-27	7.554672e-05	1.376315e-23
	7.405422e-05	9.907526e-24	-6.473569e-05	5.204711e-27	0.009699621	7.794202e-26	-6.473449e-05	3.466761e-25
	-6.474141e-05	4.523817e-25	7.700253e-05	1.416558e-23	-6.473446e-05	3.434739e-25	0.009690623	1.027553e-25
1e+07	0.01374955	-0.01152729	-0.0002807239	-2.427589e-05	0.0003409053	0.002131837	-0.0001836502	0.000129079
	-0.0002807239	-2.427589e-05	0.01213795	-0.01163588	-8.954125e-06	-1.800278e-05	0.0004293516	0.002135564
	0.0003408667	0.002131862	-8.954121e-06	-1.800279e-05	0.01216388	-0.01184198	-5.984253e-05	-1.720877e-05
	-0.0001836502	0.000129079	0.0004293843	0.002135553	-5.984254e-05	-1.720876e-05	0.01211481	-0.01162768
2e+07	0.01221103	-0.02665356	-0.0002500021	3.137579e-05	0.001134284	0.004124782	-0.000167599	0.000130185
	-0.0002500021	3.137579e-05	0.01078521	-0.02624268	-7.595622e-06	-4.461699e-06	0.001254163	0.004053356
	0.001134292	0.0041248	-7.595621e-06	-4.461701e-06	0.01061838	-0.02657084	-5.25413e-05	1.001763e-05
	-0.000167599	0.000130185	0.00125416	0.004053334	-5.25413e-05	1.001764e-05	0.01077136	-0.02621468
3e+07	0.005919407	-0.04169087	-0.0002370901	2.729838e-05	0.002433161	0.005764398	-0.0001347327	0.0001492054
	-0.0002370901	2.729838e-05	0.004641166	-0.04105182	-6.742993e-06	-5.313133e-07	0.002499232	0.005680724
	0.002433158	0.005764399	-6.742993e-06	-5.313136e-07	0.004341247	-0.04139077	-5.195624e-05	6.747447e-06
	-0.0001347327	0.0001492054	0.002499227	0.005680722	-5.195624e-05	6.747448e-06	0.004635033	-0.04101298
4e+07	-0.004238695	-0.05487324	-0.000226832	3.313918e-05	0.004064148	0.007004686	-9.328906e-05	0.0001555564
	-0.000226832	3.313919e-05	-0.005385095	-0.05406921	-5.832462e-06	1.788201e-06	0.004077995	0.00692982
	0.004064143	0.007004689	-5.832461e-06	1.788201e-06	-0.005776118	-0.05438345	-5.204711e-05	7.316665e-06
	-9.328906e-05	0.0001555564	0.004077995	0.006929821	-5.204711e-05	7.316665e-06	-0.005385762	-0.05402368
5e+07	-0.01742359	-0.06522769	-0.0002174685	4.335335e-05	0.005915644	0.007785552	-5.10377e-05	0.0001443013
	-0.0002174685	4.335335e-05	-0.01844749	-0.06428825	-4.835368e-06	3.414787e-06	0.005881109	0.007736061
	0.005915642	0.007785554	-4.835368e-06	3.414787e-06	-0.01889525	-0.0645628	-5.216663e-05	9.982439e-06
	-5.10377e-05	0.0001443013	0.005881108	0.007736062	-5.216663e-05	9.982439e-06	-0.01844549	-0.06423638
6e+07	-0.03271285	-0.07210705	-0.0002077916	5.598801e-05	0.007864081	0.008075952	-1.59252e-05	0.0001153175
	-0.0002077916	5.598801e-05	-0.03361871	-0.07104889	-3.747576e-06	4.625983e-06	0.007787941	0.008065927
	0.007864082	0.008075949	-3.747577e-06	4.625983e-06	-0.03409495	-0.07127997	-5.17846e-05	1.40433e-05
	-1.59252e-05	0.0001153175	0.007787938	0.008065928	-5.17846e-05	1.40433e-05	-0.03361516	-0.07098986
7e+07	-0.0491204	-0.07514275	-0.0001969159	6.994074e-05	0.009784362	0.007877078	4.819432e-06	7.174177e-05
	-0.0001969159	6.994074e-05	-0.04990821	-0.07397698	-3.147853e-06	4.955453e-06	0.009676296	0.007918109
	0.009784362	0.007877073	-3.147853e-06	4.955453e-06	-0.05039029	-0.07416737	-5.050638e-05	1.898709e-05
	4.819433e-06	7.174177e-05	0.009676291	0.007918112	-5.050638e-05	1.898709e-05	-0.04990363	-0.07391007
8e+07	-0.06564437	-0.07423	-0.0001841692	8.435886e-05	0.0115589	0.007220812	5.470471e-06	1.915294e-05
	-0.0001841692	8.435886e-05	-0.0663103	-0.0729661	-2.810451e-06	4.987767e-06	0.01143114	0.00732161
	0.01155889	0.007220806	-2.810452e-06	4.987767e-06	-0.06678027	-0.07312189	-4.808241e-05	2.432822e-05
	5.470472e-06	1.915294e-05	0.01143113	0.007321615	-4.808241e-05	2.432822e-05	-0.06630507	-0.07289029
9e+07	-0.08132051	-0.06951088	-0.0001689524	9.852296e-05	0.01308501	0.006165586	-1.790285e-05	-3.537675e-05
	-0.0001689524	9.852296e-05	-0.08185813	-0.06815945	-2.463532e-06	5.034372e-06	0.01295194	0.006331659
	0.01308501	0.006165582	-2.463533e-06	5.034372e-06	-0.08230054	-0.06828718	-4.440256e-05	2.961084e-05
	-1.790285e-05	-3.537675e-05	0.01295194	0.006331663	-4.440256e-05	2.961084e-05	-0.08185206	-0.06807316
1e+08	-0.09527295	-0.06134938	-0.0001496249	0.0001122664	0.01428129	0.004791047	-7.057888e-05	-8.558696e-05
	-0.0001496249	0.0001122664	-0.09567729	-0.05992517	-2.140732e-06	5.050896e-06	0.01416035	0.005025274
	0.01428129	0.004791047	-2.140732e-06	5.050896e-06	-0.09606631	-0.06002504	-3.934965e-05	3.451409e-05
	-7.057888e-05	-8.558696e-05	0.01416035	0.005025274	-3.934965e-05	3.451409e-05	-0.0956694	-0.05982681
1.1e+08	-0.106756	-0.05030516	-0.0001308325	0.0001290531	0.01508763	0.003183916	-0.0001358788	-0.0001371237
	-0.0001308325	0.0001290531	-0.1070215	-0.0488081	-1.733812e-06	4.959922e-06	0.01499657	0.003474279
	0.01508763	0.003183916	-1.733812e-06	4.959922e-06	-0.1073365	-0.04895378	-3.372799e-05	3.914056e-05
	-0.0001358788	-0.0001371237	0.01499657	0.003474279	-3.372799e-05	3.914056e-05	-0.1070091	-0.04869641
1.2e+08	-0.1151885	-0.03706265	-0.0001122731	0.0001423449	0.01546314	0.001451488	-0.0002104905	-0.0001644174
	-0.0001122731	0.0001423449	-0.1152947	-0.03551137	-1.301799e-06	4.869708e-06	0.01540974	0.001789227
	0.01546314	0.001451488	-1.301799e-06	4.869708e-06	-0.1155807	-0.03571895	-2.767245e-05	4.250146e-05
	-0.0002104905	-0.0001644174	0.01540974	0.001789227	-2.767245e-05	4.250146e-05	-0.1152745	-0.03538652
1.3e+08	-0.1201749	-0.02242669	-9.293089e-05	0.0001527727	0.01539908	-0.0003005692	-0.0002923076	-0.0001662478
	-9.293089e-05	0.0001527727	-0.1201093	-0.02084812	-8.806386e-07	4.749114e-06	0.01539137	7.446199e-05
	0.01539908	-0.0003005691	-8.806386e-07	4.749114e-06	-0.1203933	-0.02111526	-2.134223e-05	4.462133e-05
	-0.0002923076	-0.0001662478	0.01539137	7.446198e-05	-2.134223e-05	4.462133e-05	-0.1200781	-0.02071148
1.4e+08	-0.1215219	-0.007259205	-7.300188e-05	0.0001603837	0.01490878	-0.001970034	-0.0003744768	-0.0001415085
	-7.300188e-05	0.0001603837	-0.1212785	-0.005685476	-4.878963e-07	4.594367e-06	0.01495259	-0.001569933
	0.01490878	-0.001970033	-4.878963e-07	4.594367e-06	-0.1215799	-0.00600164	-1.503424e-05	4.552424e-05
	-0.0003744768	-0.0001415085	0.01495259	-0.001569933	-1.503424e-05	4.552424e-05	-0.1212338	-0.005539503
1.5e+08	-0.1192419	0.007567318	-5.284082e-05	0.0001652207	0.01402688	-0.003461702	-0.000449495	-9.1197e-05
	-5.284082e-05	0.0001652207	-0.1188227	0.009100737	-1.36952e-07	4.411254e-06	0.01412499	-0.00305037
	0.01402688	-0.003461702	-1.36952e-07	4.411254e-06	-0.1191538	0.008751216	-9.035809e-06	4.531379e-05
	-0.000449495	-9.1197e-05	0.01412499	-0.00305037	-9.035809e-06	4.531379e-05	-0.1187625	0.009252666
1.6e+08	-0.1135475	0.02121514	-3.283738e-05	0.0001673886	0.01280734	-0.004691005	-0.0005103346	-1.85569e-05
	-3.283738e-05	0.0001673886	-0.1129633	0.02267152	1.639802e-07	4.211753e-06	0.0129589	-0.004283077
	0.01280734	-0.004691005	1.639802e-07	4.211753e-06	-0.1133293	0.02230716	-3.58916e-06	4.416836e-05
	-0.0005103346	-1.85569e-05	0.0129589	-0.004283077	-3.58916e-06	4.416836e-05	-0.1128866	0.0228253
1.7e+08	-0.104837	0.03292387	-1.336199e-05	0.0001670662	0.01132107	-0.005587329	-0.0005512619	7.119509e-05
	-1.336199e-05	0.0001670662	-0.1041077	0.03426757	4.130012e-07	4.011117e-06	0.01152135	-0.005197272
	0.01132107	-0.005587329	4.130012e-07	4.011117e-06	-0.1045068	0.03390766	1.131129e-06	4.232498e-05
	-0.0005512619	7.119509e-05	0.01152135	-0.005197272	1.131129e-06	4.232498e-05	-0.1040147	0.0344187
1.8e+08	-0.09367149	0.04204919	5.267579e-06	0.0001644998	0.009653118	-0.006097154	-0.0005684443	0.0001713952
	5.267579e-06	0.0001644998	-0.09282654	0.04324819	6.149995e-07	3.824859e-06	0.009893538	-0.005738223
	0.009653118	-0.006097154	6.149995e-07	3.824859e-06	-0.09325008	0.04291081	5.034012e-06	4.005731e-05
	-0.0005684443	0.0001713952	0.009893538	-0.005738223	5.034012e-06	4.005731e-05	-0.09271885	0.04339208
1.9e+08	-0.08074536	0.04809638	2.280992e-05	0.0001599854	0.007899345	-0.006186979	-0.000560329	0.0002746311
	2.280992e-05	0.0001599854	-0.07982266	0.04912485	7.810161e-07	3.66588e-06	0.008167763	-0.005870191
	0.007899345	-0.006186979	7.810161e-07	3.66588e-06	-0.08025577	0.04882502	8.12154e-06	3.764887e-05
	-0.000560329	0.0002746311	0.008167763	-0.005870191	8.12154e-06	3.764887e-05	-0.07970316	0.04925728
2e+08	-0.06684912	0.05074735	3.911438e-05	0.0001538423	0.006162223	-0.005845896	-0.000527762	0.0003735291
	3.911438e-05	0.0001538423	-0.06589374	0.05158803	9.26587e-07	3.542144e-06	0.006443524	-0.005579073
	0.006162223	-0.005845896	9.26587e-07	3.542144e-06	-0.06631649	0.05133607	1.049037e-05	3.536236e-05
	-0.000527762	0.0003735291	0.006443524	-0.005579073	1.049037e-05	3.536236e-05	-0.06576658	0.0517055
2.1e+08	-0.05282684	0.04987939	5.412483e-05	0.0001463822	0.004545792	-0.005087474	-0.0004738316	0.0004615456
	5.412483e-05	0.0001463822	-0.05188886	0.05052571	1.069362e-06	3.455297e-06	0.004822727	-0.00487445
	0.004545792	-0.005087474	1.069362e-06	3.455297e-06	-0.0522777	0.05032579	1.232292e-05	3.340732e-05
	-0.0004738316	0.0004615456	0.004822727	-0.00487445	1.232292e-05	3.340732e-05	-0.05175923	0.05062581
2.2e+08	-0.03952912	0.04557427	6.787044e-05	0.0001378765	0.003149755	-0.003950535	-0.0004034476	0.0005336652
	6.787044e-05	0.0001378765	-0.03866091	0.0460318	1.22646e-06	3.400372e-06	0.003403994	-0.003790585
	0.003149755	-0.003950535	1.22646e-06	3.400372e-06	-0.03899046	0.04588104	1.386614e-05	3.191003e-05
	-0.0004034476	0.0005336652	0.003403994	-0.003790585	1.386614e-05	3.191003e-05	-0.03853476	0.04611351
2.3e+08	-0.02776394	0.03811598	8.044299e-05	0.000128528	0.002063004	-0.002498381	-0.0003226965	0.0005869181
	8.044299e-05	0.000128528	-0.02701701	0.03840322	1.412048e-06	3.366569e-06	0.002276342	-0.002385923
	0.002063004	-0.002498381	1.412048e-06	3.366569e-06	-0.02726213	0.03829118	1.53982e-05	3.089119e-05
	-0.0003226965	0.0005869181	0.002276342	-0.002385923	1.53982e-05	3.089119e-05	-0.02690066	0.03846713
2.4e+08	-0.01824825	0.02797647	9.196345e-05	0.0001184537	0.001357063	-0.0008161001	-0.0002380408	0.0006206424
	9.196345e-05	0.0001184537	-0.01766986	0.02812478	1.635541e-06	3.338866e-06	0.001512707	-0.0007407357
	0.001357063	-0.0008161001	1.635541e-06	3.338866e-06	-0.01780776	0.02803349	1.718606e-05	3.025721e-05
	-0.0002380408	0.0006206424	0.001512707	-0.0007407357	1.718606e-05	3.025721e-05	-0.01756953	0.02817316
2.5e+08	-0.01156344	0.01578909	0.0001025417	0.0001076822	0.001080172	0.0009941618	-0.0001554755	0.0006364377
	0.0001025417	0.0001076822	-0.0111932	0.01584162	1.900622e-06	3.299991e-06	0.001164015	0.001047281
	0.001080172	0.0009941618	1.900622e-06	3.299991e-06	-0.0112056	0.01574633	1.943996e-05	2.980952e-05
	-0.0001554755	0.0006364377	0.001164015	0.001047281	1.943996e-05	2.980952e-05	-0.01111456	0.01587847
2.6e+08	-0.008118323	0.002310903	0.0001122386	9.617048e-05	0.001252739	0.002819831	-7.974688e-05	0.0006378131
	0.0001122386	9.617048e-05	-0.007985065	0.002320616	2.205061e-06	3.232462e-06	0.001254535	0.002869283
	0.001252739	0.002819831	2.205061e-06	3.232462e-06	-0.007860086	0.002190987	2.227353e-05	2.92729e-05
	-7.974688e-05	0.0006378131	0.001254535	0.002869283	2.227353e-05	2.92729e-05	-0.007932789	0.002351481
2.7e+08	-0.008122634	-0.01162419	0.0001210381	8.383467e-05	0.001864907	0.004545926	-1.376075e-05	0.0006295668
	0.0001210381	8.383467e-05	-0.008241897	-0.01159731	2.541136e-06	3.120363e-06	0.001779243	0.00461299
	0.001864907	0.004545926	2.541136e-06	3.120363e-06	-0.007975642	-0.01179542	2.567788e-05	2.833959e-05
	-1.376075e-05	0.0006295668	0.001779243	0.00461299	2.567788e-05	2.833959e-05	-0.008219211	-0.01156563
2.8e+08	-0.01157376	-0.02515811	0.0001288357	7.059217e-05	0.002876677	0.00606369	4.174289e-05	0.0006169871
	0.0001288357	7.059217e-05	-0.01194601	-0.02505056	2.896497e-06	2.950795e-06	0.002703671	0.006171064
	0.002876677	0.00606369	2.896497e-06	2.950795e-06	-0.0115436	-0.02535291	2.951657e-05	2.672165e-05
	4.174289e-05	0.0006169871	0.002703671	0.006171064	2.951657e-05	2.672165e-05	-0.01195437	-0.02501038
2.9e+08	-0.01825787	-0.03746311	0.0001354477	5.64037e-05	0.004220752	0.007278899	8.817917e-05	0.0006049929
	0.0001354477	5.64037e-05	-0.01886774	-0.03721179	3.255204e-06	2.71499e-06	0.003966397	0.007449238
	0.004220752	0.007278899	3.255204e-06	2.71499e-06	-0.01834376	-0.03765331	3.354299e-05	2.420137e-05
	8.817917e-05	0.0006049929	0.003966397	0.007449238	3.354299e-05	2.420137e-05	-0.01890658	-0.03715504
3e+08	-0.02776556	-0.04779394	0.0001406367	4.130749e-05	0.005807822	0.008118884	0.0001287839	0.0005973499
	0.0001406367	4.130749e-05	-0.02858207	-0.04734024	3.598975e-06	2.409197e-06	0.005483938	0.008373262
	0.005807822	0.008118884	3.598975e-06	2.409197e-06	-0.02796034	-0.04795247	3.743761e-05	2.066974e-05
	0.0001287839	0.0005973499	0.005483938	0.008373262	3.743761e-05	2.066974e-05	-0.02864874	-0.04725896
3.1e+08	-0.03952044	-0.05553349	0.0001441509	2.54377e-05	0.007533691	0.008537515	0.0001680252	0.0005960711
	0.0001441509	2.54377e-05	-0.04049842	-0.05482721	3.908708e-06	2.035292e-06	0.007157468	0.008893914
	0.007533691	0.008537515	3.908708e-06	2.035292e-06	-0.03981106	-0.05563585	4.08574e-05	1.614544e-05
	0.0001680252	0.0005960711	0.007157468	0.008893914	4.08574e-05	1.614544e-05	-0.04058823	-0.05471412
3.2e+08	-0.05281834	-0.06022869	0.0001457645	9.024445e-06	0.009287376	0.008517687	0.0002108263	0.0006010986
	0.0001457645	9.024445e-06	-0.05390072	-0.05923151	4.166212e-06	1.601005e-06	0.008880526	0.008989634
	0.009287376	0.008517687	4.166212e-06	1.601005e-06	-0.05318662	-0.06025424	4.348704e-05	1.077163e-05
	0.0002108263	0.0006010986	0.008880526	0.008989634	4.348704e-05	1.077163e-05	-0.0540071	-0.05908055
3.3e+08	-0.06687334	-0.06161442	0.0001453159	-7.623779e-06	0.01095927	0.008071244	0.0002617193	0.0006103302
	0.0001453159	-7.623779e-06	-0.06799437	-0.06030264	4.356159e-06	1.119558e-06	0.01054683	0.008666684
	0.01095927	0.008071244	4.356159e-06	1.119558e-06	-0.06729704	-0.06154748	4.508295e-05	4.792707e-06
	0.0002617193	0.0006103302	0.01054683	0.008666684	4.508295e-05	4.792707e-06	-0.06810924	-0.06010948
3.4e+08	-0.08086718	-0.05962452	0.0001426378	-2.408504e-05	0.01244853	0.007236611	0.0003330413	0.000606562
	0.0001426378	-2.408504e-05	-0.08195621	-0.05799098	4.467749e-06	6.085544e-07	0.01205739	0.007957117
	0.01244853	0.007236611	4.467749e-06	6.085544e-07	-0.08132127	-0.05945507	4.541374e-05	-1.414973e-06
	0.0003330413	0.000606562	0.01205739	0.007957117	4.541374e-05	-1.414973e-06	-0.08207044	-0.05775338
3.5e+08	-0.09399827	-0.05438993	0.0001378403	-4.002962e-05	0.01366908	0.006074672	0.0004153934	0.0005941461
	0.0001378403	-4.002962e-05	-0.09498393	-0.05244496	4.496964e-06	8.890723e-08	0.01332634	0.006915048
	0.01366908	0.006074672	4.496964e-06	8.890723e-08	-0.09445635	-0.05411411	4.453332e-05	-7.56784e-06
	0.0004153934	0.0005941461	0.01332634	0.006915048	4.453332e-05	-7.56784e-06	-0.09508787	-0.05216296
3.6e+08	-0.1055273	-0.04622558	0.0001310501	-5.510624e-05	0.01455392	0.004663565	0.0005067336	0.0005698574
	0.0001310501	-5.510624e-05	-0.1063417	-0.04399686	4.446571e-06	-4.192533e-07	0.01428517	0.005611872
	0.01455392	0.004663565	4.446571e-06	-4.192533e-07	-0.1059629	-0.04584575	4.252767e-05	-1.335856e-05
	0.0005067336	0.0005698574	0.01428517	0.005611872	4.252767e-05	-1.335856e-05	-0.1064258	-0.04367289
3.7e+08	-0.1148167	-0.03560742	0.000122463	-6.89964e-05	0.0150577	0.003093017	0.0006045579	0.0005288396
	0.000122463	-6.89964e-05	-0.1153999	-0.03313879	4.32557e-06	-8.983593e-07	0.01488535	0.00413104
	0.0150577	0.003093017	4.32557e-06	-8.983593e-07	-0.1152051	-0.03513197	3.956081e-05	-1.851898e-05
	0.0006045579	0.0005288396	0.01488535	0.00413104	3.956081e-05	-1.851898e-05	-0.1154552	-0.03277765
3.8e+08	-0.1213632	-0.02314209	0.0001123384	-8.144328e-05	0.01515779	0.00145875	0.0007045212	0.0004671516
	0.0001123384	-8.144328e-05	-0.1216666	-0.02049141	4.147822e-06	-1.335514e-06	0.01509953	0.002562877
	0.01515779	0.00145875	4.147822e-06	-1.335514e-06	-0.1216821	-0.02258488	3.586371e-05	-2.285335e-05
	0.0007045212	0.0004671516	0.01509953	0.002562877	3.586371e-05	-2.285335e-05	-0.1216854	-0.02010007
3.9e+08	-0.1248215	-0.009531211	0.0001009776	-9.226336e-05	0.01485406	-0.0001426893	0.0008008469	0.0003823668
	0.0001009776	-9.226336e-05	-0.1248112	-0.006767399	3.929871e-06	-1.723938e-06	0.01492158	0.0009997686
	0.01485406	-0.0001426893	3.929871e-06	-1.723938e-06	-0.1250527	-0.008910832	3.170547e-05	-2.625138e-05
	0.0008008469	0.0003823668	0.01492158	0.0009997686	3.170547e-05	-2.625138e-05	-0.1247877	-0.006354689
4e+08	-0.1250196	0.004467481	8.870123e-05	-0.000101351	0.01416781	-0.00161855	0.0008869086	0.0002740006
	8.870123e-05	-0.000101351	-0.1246789	0.007268141	3.688347e-06	-2.06341e-06	0.01436583	-0.0004681542
	0.01416781	-0.00161855	3.688347e-06	-2.06341e-06	-0.1251496	0.005128705	2.736468e-05	-2.869166e-05
	0.0008869086	0.0002740006	0.01436583	-0.0004681542	2.736468e-05	-2.869166e-05	-0.1246094	0.00769203
4.1e+08	-0.121965	0.01808055	7.58288e-05	-0.0001086778	0.01314004	-0.002883923	0.0009559134	0.0001437153
	7.58288e-05	-0.0001086778	-0.1212959	0.02083861	3.437425e-06	-2.359638e-06	0.01346577	-0.001756859
	0.01314004	-0.002883923	3.437425e-06	-2.359638e-06	-0.1219858	0.01875772	2.310277e-05	-3.023755e-05
	0.0009559134	0.0001437153	0.01346577	-0.001756859	2.310277e-05	-3.023755e-05	-0.1211792	0.02126264
4.2e+08	-0.1158428	0.03055914	6.265893e-05	-0.0001142869	0.01182931	-0.00386532	0.001001614	-4.704334e-06
	6.265893e-05	-0.0001142869	-0.1148666	0.0331965	3.186768e-06	-2.622659e-06	0.0122723	-0.002791878
	0.01182931	-0.00386532	3.186768e-06	-2.622659e-06	-0.1157526	0.03122605	1.914032e-05	-3.102671e-05
	0.001001614	-4.704334e-06	0.0122723	-0.002791878	1.914032e-05	-3.102671e-05	-0.1147042	0.0336094
4.3e+08	-0.1070057	0.04121778	4.945186e-05	-0.0001182842	0.01030917	-0.004503894	0.00101898	-0.000165602
	4.945186e-05	-0.0001182842	-0.1057624	0.0436623	2.940326e-06	-2.864564e-06	0.01085166	-0.003511513
	0.01030917	-0.004503894	2.940326e-06	-2.864564e-06	-0.1068088	0.04184832	1.563693e-05	-3.125531e-05
	0.00101898	-0.000165602	0.01085166	-0.003511513	1.563693e-05	-3.125531e-05	-0.1055587	0.04405326
4.4e+08	-0.09595575	0.04947039	3.641351e-05	-0.0001208242	0.00866512	-0.004758347	0.001004751	-0.0003319079
	3.641351e-05	-0.0001208242	-0.09450246	0.05166036	2.696167e-06	-3.096979e-06	0.00928277	-0.003869855
	0.00866512	-0.004758347	2.696167e-06	-3.096979e-06	-0.09566239	0.05003995	1.267517e-05	-3.115698e-05
	0.001004751	-0.0003319079	0.00928277	-0.003869855	1.267517e-05	-3.115698e-05	-0.09426438	0.05201969
4.5e+08	-0.08331878	0.05486208	2.36832e-05	-0.0001220908	0.006990998	-0.004607503	0.000957831	-0.0004957572
	2.36832e-05	-0.0001220908	-0.0817273	0.05675033	2.447339e-06	-3.32876e-06	0.007654106	-0.003839549
	0.006990998	-0.004607503	2.447339e-06	-3.32876e-06	-0.08294508	0.05534895	1.025034e-05	-3.097681e-05
	0.000957831	-0.0004957572	0.007654106	-0.003839549	1.025034e-05	-3.097681e-05	-0.08146408	0.05707008
4.6e+08	-0.06981245	0.05709522	1.132685e-05	-0.0001222743	0.00538461	-0.004052345	0.0008794513	-0.0006492126
	1.132685e-05	-0.0001222743	-0.0681654	0.05865257	2.183544e-06	-3.564311e-06	0.006059665	-0.003414147
	0.00538461	-0.004052345	2.183544e-06	-3.564311e-06	-0.0693794	0.05748189	8.268157e-06	-3.094112e-05
	0.0008794513	-0.0006492126	0.006059665	-0.003414147	8.268157e-06	-3.094112e-05	-0.06788821	0.05892712
4.7e+08	-0.056208	0.05604825	-6.609618e-07	-0.0001215433	0.003942657	-0.003117257	0.0007730983	-0.000785013
	-6.609618e-07	-0.0001215433	-0.05459441	0.05726604	1.893315e-06	-3.802728e-06	0.004594202	-0.002609726
	0.003942657	-0.003117257	1.893315e-06	-3.802728e-06	-0.0557405	0.05632258	6.553171e-06	-3.122537e-05
	0.0007730983	-0.000785013	0.004594202	-0.002609726	6.553171e-06	-3.122537e-05	-0.05431575	0.05749257
4.8e+08	-0.04328788	0.05178563	-1.234459e-05	-0.0001200186	0.002755022	-0.001850074	0.0006441851	-0.0008972702
