!$
! Info: Touchstone file created by Circ.  Input file=Tx_14in_Rx_93ohms_TxVia_10mils_RxVia_20mils.circ
!$
# Hz S RI R 50
0	0.01279888	1.057237e-25	6.886169e-13	2.063803e-28	8.814489e-05	1.607656e-23	-4.668636e-09	5.71537e-25
	6.902211e-13	2.065657e-28	0.0128017	1.226144e-25	-3.683708e-12	4.081039e-28	8.557731e-05	1.821987e-23
	8.819224e-05	1.608595e-23	-3.732202e-12	4.140193e-28	0.01281358	1.05999e-25	-1.27925e-09	1.565329e-25
	-4.666518e-09	5.712777e-25	8.703194e-05	1.875261e-23	-1.279295e-09	1.565384e-25	0.01280724	1.169054e-25
1e+07	0.01747727	-0.001992146	1.043163e-12	-5.473389e-12	0.0005109073	0.00225979	-6.075206e-09	1.730099e-08
	1.043181e-12	-5.47366e-12	0.01849834	-0.002213859	-8.812637e-13	-6.808843e-12	0.000535183	0.002465069
	0.0005109114	0.002259786	-8.812516e-13	-6.808594e-12	0.01883775	-0.001429672	-3.746057e-09	1.639017e-08
	-6.075206e-09	1.730099e-08	0.0005352162	0.002465058	-3.746058e-09	1.639017e-08	0.0181309	-0.002209532
2e+07	0.02008095	-0.008540296	1.649706e-12	-7.446024e-12	0.001565962	0.004396571	-1.895155e-09	1.475802e-08
	1.649511e-12	-7.446122e-12	0.02063796	-0.009232156	6.560852e-13	-9.217608e-12	0.001483462	0.004787436
	0.001565961	0.004396568	6.562572e-13	-9.21748e-12	0.02185432	-0.008221718	-3.485643e-09	1.388531e-08
	-1.895155e-09	1.475802e-08	0.001483459	0.004787414	-3.485643e-09	1.388531e-08	0.02037015	-0.009105334
3e+07	0.01928352	-0.01666817	-1.869279e-12	-1.072892e-11	0.003148159	0.006137465	1.807294e-09	1.25224e-08
	-1.869306e-12	-1.072889e-11	0.01945469	-0.01744928	-4.245364e-12	-1.26438e-11	0.003080284	0.006606637
	0.003148159	0.006137464	-4.245335e-12	-1.264383e-11	0.02130263	-0.01668982	1.896454e-09	1.303143e-08
	1.807294e-09	1.25224e-08	0.003080279	0.006606634	1.896454e-09	1.303143e-08	0.01926005	-0.01730158
4e+07	0.01575276	-0.02446327	-6.620803e-12	-1.280825e-11	0.005127614	0.007355887	4.558152e-09	1.029015e-08
	-6.620774e-12	-1.280827e-11	0.01559489	-0.02519288	-7.831558e-12	-1.476103e-11	0.005139573	0.007840399
	0.005127614	0.007355887	-7.83159e-12	-1.476101e-11	0.01787527	-0.02488253	5.612385e-09	1.073615e-08
	4.558152e-09	1.029015e-08	0.005139572	0.0078404	5.612385e-09	1.073615e-08	0.01545344	-0.02505432
5e+07	0.01002046	-0.03105276	-1.212234e-11	-1.343408e-11	0.007338918	0.007964862	6.767145e-09	8.241406e-09
	-1.212233e-11	-1.343409e-11	0.009596411	-0.03163802	-1.14861e-11	-1.649514e-11	0.007414096	0.008443222
	0.007338919	0.007964861	-1.148611e-11	-1.649512e-11	0.01211631	-0.03188418	8.08632e-09	8.820715e-09
	6.767145e-09	8.241406e-09	0.007414096	0.008443222	8.08632e-09	8.820715e-09	0.009489166	-0.03152133
6e+07	0.002675457	-0.03586215	-2.067259e-11	-1.270458e-11	0.009599986	0.007929168	9.298092e-09	6.323675e-09
	-2.067257e-11	-1.270455e-11	0.002056156	-0.03623935	-1.660161e-11	-2.059837e-11	0.009722665	0.008388989
	0.009599988	0.007929167	-1.660163e-11	-2.05984e-11	0.004627494	-0.03708579	1.011228e-08	8.971961e-09
	9.298092e-09	6.323675e-09	0.009722662	0.00838899	1.011228e-08	8.971961e-09	0.00196704	-0.0361489
7e+07	-0.005634436	-0.03854184	-4.347521e-11	-2.129729e-12	0.01172831	0.007266937	1.536963e-08	3.207803e-09
	-4.347511e-11	-2.129666e-12	-0.006371878	-0.03867174	7.306762e-12	-3.529085e-11	0.01188395	0.007701474
	0.01172831	0.007266937	7.306759e-12	-3.529097e-11	-0.003927453	-0.04011009	5.785469e-09	1.521879e-08
	1.536963e-08	3.207802e-09	0.01188395	0.007701476	5.785469e-09	1.521879e-08	-0.006456807	-0.03860696
8e+07	-0.01423605	-0.03894938	2.36748e-10	5.029858e-10	0.01355639	0.006046779	-1.11489e-08	-3.179913e-08
	2.36748e-10	5.029855e-10	-0.01501146	-0.03881554	-1.543827e-11	1.708046e-11	0.01373137	0.006452756
	0.01355639	0.006046779	-1.543824e-11	1.708041e-11	-0.01285721	-0.04079358	-2.339414e-09	6.008902e-09
	-1.11489e-08	-3.179913e-08	0.01373136	0.00645276	-2.339414e-09	6.008902e-09	-0.01510396	-0.03877173
9e+07	-0.02247372	-0.03713634	-9.418731e-11	1.970705e-11	0.01494604	0.004380928	-3.237508e-09	-7.749158e-10
	-9.418735e-11	1.970699e-11	-0.02320628	-0.03674352	-2.898736e-11	5.110165e-13	0.01512606	0.004756875
	0.01494604	0.004380928	-2.898736e-11	5.110229e-13	-0.0214891	-0.03917362	-6.845144e-10	1.480198e-09
	-3.237508e-09	-7.749159e-10	0.01512606	0.004756879	-6.845145e-10	1.480198e-09	-0.02331528	-0.03671285
1e+08	-0.02974634	-0.03332823	-2.325091e-11	2.756215e-11	0.01580892	0.002417151	-9.860327e-12	2.914179e-11
	-2.325091e-11	2.756215e-11	-0.03034274	-0.03269791	-2.996513e-11	-1.216808e-12	0.01596666	0.002759449
	0.01580892	0.002417151	-2.996513e-11	-1.216808e-12	-0.02923368	-0.03547202	-2.467027e-11	3.731842e-11
	-9.860327e-12	2.914179e-11	0.01596666	0.002759449	-2.467027e-11	3.731842e-11	-0.03047692	-0.03267153
1.1e+08	-0.0355777	-0.02795199	-9.588877e-12	3.366823e-11	0.01605394	0.0003615453	-2.170807e-12	3.289951e-11
	-9.588877e-12	3.366823e-11	-0.03598937	-0.02720866	-2.500705e-11	3.060674e-12	0.01619522	0.0006312643
	0.01605394	0.0003615452	-2.500705e-11	3.060674e-12	-0.03553245	-0.02995266	-9.866726e-12	4.428647e-11
	-2.170807e-12	3.289951e-11	0.01619522	0.0006312642	-9.866726e-12	4.428647e-11	-0.03614693	-0.02716152
1.2e+08	-0.03964032	-0.02142719	2.728843e-12	3.48874e-11	0.01566968	-0.001670318	6.323282e-12	3.419409e-11
	2.728843e-12	3.48874e-11	-0.03988936	-0.02061854	-1.960527e-11	5.004571e-12	0.01581027	-0.001454379
	0.01566968	-0.001670318	-1.960527e-11	5.004571e-12	-0.03992826	-0.02320778	3.876092e-12	4.617351e-11
	6.323282e-12	3.419409e-11	0.01581027	-0.001454379	3.876092e-12	4.617351e-11	-0.04005424	-0.02054446
1.3e+08	-0.04170911	-0.0143003	1.340241e-11	3.279578e-11	0.01471086	-0.003503798	1.397763e-11	3.35477e-11
	1.340241e-11	3.279578e-11	-0.04180264	-0.01346586	-1.42172e-11	4.539668e-12	0.01485168	-0.003332328
	0.01471086	-0.003503798	-1.42172e-11	4.539668e-12	-0.0422351	-0.01582285	1.632745e-11	4.445774e-11
	1.397763e-11	3.35477e-11	0.01485168	-0.003332328	1.632745e-11	4.445774e-11	-0.04196302	-0.01336402
1.4e+08	-0.04173034	-0.007147752	2.41558e-11	2.773407e-11	0.01326343	-0.004988324	2.159395e-11	3.084507e-11
	2.41558e-11	2.773407e-11	-0.0416792	-0.00632507	-8.597832e-12	2.503437e-12	0.01340269	-0.004855373
	0.01326343	-0.004988324	-8.597832e-12	2.503437e-12	-0.04240997	-0.008397717	2.887774e-11	3.920544e-11
	2.159395e-11	3.084507e-11	0.01340269	-0.004855373	2.887774e-11	3.920544e-11	-0.04182487	-0.006198276
1.5e+08	-0.03981176	-0.0005283818	3.404699e-11	1.960547e-11	0.01144818	-0.006004056	2.863222e-11	2.596595e-11
	3.404699e-11	1.960547e-11	-0.03963351	0.0002477175	-3.260884e-12	-1.136098e-12	0.01158259	-0.005905419
	0.01144818	-0.006004056	-3.260884e-12	-1.136098e-12	-0.04057011	-0.001509739	4.035293e-11	3.025257e-11
	2.863222e-11	2.596595e-11	0.01158259	-0.005905418	4.035293e-11	3.025257e-11	-0.03975624	0.0003936831
1.6e+08	-0.03620787	0.005058611	4.210355e-11	8.611609e-12	0.009412284	-0.006469592	3.441117e-11	1.904268e-11
	4.210355e-11	8.611609e-12	-0.03592757	0.005757836	1.265845e-12	-6.303563e-12	0.009537385	-0.006401786
	0.009412284	-0.006469592	1.265845e-12	-6.303563e-12	-0.03698063	0.004327118	4.962138e-11	1.794689e-11
	3.441117e-11	1.904268e-11	0.009537385	-0.006401786	4.962138e-11	1.794689e-11	-0.03602165	0.005914981
1.7e+08	-0.0312959	0.009209704	4.743632e-11	-4.73653e-12	0.007318419	-0.006347334	3.830626e-11	1.041612e-11
	4.743632e-11	-4.73653e-12	-0.03094559	0.009808445	4.497607e-12	-1.273235e-11	0.007428736	-0.006306762
	0.007318419	-0.006347334	4.497607e-12	-1.273235e-11	-0.03203054	0.008698107	5.564013e-11	2.913917e-12
	3.830626e-11	1.041612e-11	0.007428736	-0.006306762	5.564013e-11	2.913917e-12	-0.03100822	0.009967426
1.8e+08	-0.02554365	0.01164507	4.932866e-11	-1.965576e-11	0.00533254	-0.005645876	3.979987e-11	6.168522e-13
	4.932866e-11	-1.965576e-11	-0.02516093	0.01212844	6.054133e-12	-2.000207e-11	0.005421928	-0.005628133
	0.00533254	-0.005645876	6.054133e-12	-2.000207e-11	-0.02620023	0.01131561	5.757626e-11	-1.389965e-11
	3.979987e-11	6.168522e-13	0.005421928	-0.005628133	5.757626e-11	-1.389965e-11	-0.02519242	0.01227948
1.9e+08	-0.01947168	0.01222687	4.731379e-11	-3.515299e-11	0.003611414	-0.004419141	3.853703e-11	-9.670257e-12
	4.731379e-11	-3.515299e-11	-0.0190975	0.01259036	5.704863e-12	-2.758171e-11	0.003673499	-0.004418504
	0.003611414	-0.004419141	5.704863e-12	-2.758171e-11	-0.02002312	0.01203734	5.489998e-11	-3.130086e-11
	3.853703e-11	-9.670257e-12	0.003673499	-0.004418504	5.489998e-11	-3.130086e-11	-0.01910119	0.01272418
2e+08	-0.01361096	0.01096773	4.122804e-11	-5.010719e-11	0.002279326	-0.0027721	3.436724e-11	-1.965372e-11
	4.122804e-11	-5.010719e-11	-0.01328812	0.0112172	3.391467e-12	-3.488375e-11	0.00231939	-0.002771369
	0.002279326	-0.0027721	3.391467e-12	-3.488375e-11	-0.01404271	0.0108746	4.744889e-11	-4.795052e-11
	3.436724e-11	-1.965372e-11	0.00231939	-0.002771369	4.744889e-11	-4.795052e-11	-0.01327007	0.01132589
2.1e+08	-0.008465296	0.00802311	3.124722e-11	-6.336845e-11	0.001455866	-0.0008183335	2.738079e-11	-2.851166e-11
	3.124722e-11	-6.336845e-11	-0.008232952	0.008177742	-7.461937e-13	-4.13253e-11	0.001464439	-0.0008140721
	0.001455866	-0.0008183335	-7.461937e-13	-4.13253e-11	-0.008774409	0.007984414	3.547084e-11	-6.248438e-11
	2.738079e-11	-2.851166e-11	0.001464439	-0.0008140721	3.547084e-11	-6.248438e-11	-0.008201443	0.008255484
2.2e+08	-0.004470013	0.003680965	1.787581e-11	-7.385757e-11	0.001206263	0.00128712	1.79042e-11	-3.545371e-11
	1.787581e-11	-7.385757e-11	-0.004360999	0.003770756	-6.400425e-12	-4.639035e-11	0.001174075	0.001301965
	0.001206263	0.00128712	-6.400425e-12	-4.639035e-11	-0.004663727	0.003658733	1.960903e-11	-7.36356e-11
	1.79042e-11	-3.545371e-11	0.001174075	0.001301965	1.960903e-11	-7.36356e-11	-0.004325784	0.0038144
2.3e+08	-0.001959655	-0.001664428	1.917915e-12	-8.065971e-11	0.001548669	0.003376713	6.489382e-12	-3.979324e-11
	1.917915e-12	-8.065971e-11	-0.001997553	-0.001600643	-1.312156e-11	-4.967659e-11	0.001468973	0.003413096
	0.001548669	0.003376713	-1.312156e-11	-4.967659e-11	-0.002053526	-0.001702168	8.623828e-13	-8.034982e-11
	6.489382e-12	-3.979324e-11	0.001468973	0.003413096	8.623828e-13	-8.034982e-11	-0.001969026	-0.001591262
2.4e+08	-0.001143468	-0.007545211	-1.557925e-11	-8.310497e-11	0.002453394	0.005284703	-6.122147e-12	-4.10119e-11
	-1.557925e-11	-8.310497e-11	-0.001340201	-0.007462548	-2.036022e-11	-5.093078e-11	0.002323254	0.005356494
	0.002453394	0.005284703	-2.036022e-11	-5.093078e-11	-0.00115919	-0.007623014	-1.948863e-11	-8.188247e-11
	-6.122147e-12	-4.10119e-11	0.002323254	0.005356494	-1.948863e-11	-8.188247e-11	-0.001328488	-0.007484532
2.5e+08	-0.002090918	-0.01345799	-3.340235e-11	-8.082883e-11	0.003845284	0.006860672	-1.905315e-11	-3.881058e-11
	-3.340235e-11	-8.082883e-11	-0.002445186	-0.01330896	-2.751646e-11	-5.006857e-11	0.003666501	0.006983292
	0.003845284	0.006860672	-2.751646e-11	-5.006857e-11	-0.002053965	-0.01359217	-3.998148e-11	-7.78688e-11
	-1.905315e-11	-3.881058e-11	0.003666501	0.006983292	-3.998148e-11	-7.78688e-11	-0.002459259	-0.01335655
2.6e+08	-0.004728443	-0.01890414	-5.024793e-11	-7.379726e-11	0.005609952	0.007981849	-3.135708e-11	-3.314287e-11
	-5.024793e-11	-7.379726e-11	-0.005225177	-0.01864258	-3.39587e-11	-4.714774e-11	0.005389537	0.008170654
	0.005609952	0.007981849	-3.39587e-11	-4.714774e-11	-0.004665691	-0.01910263	-5.908403e-11	-6.836058e-11
	-3.135708e-11	-3.314287e-11	0.005389537	0.008170655	-5.908403e-11	-6.836058e-11	-0.005272082	-0.01870754
2.7e+08	-0.008847564	-0.02342916	-6.484917e-11	-6.235898e-11	0.007603358	0.008563117	-4.20923e-11	-2.422806e-11
	-6.484917e-11	-6.235898e-11	-0.009458626	-0.02301413	-3.914252e-11	-4.247114e-11	0.007353475	0.008831674
	0.007603358	0.008563117	-3.914252e-11	-4.247114e-11	-0.008785042	-0.02369188	-7.531562e-11	-5.383589e-11
	-4.20923e-11	-2.422806e-11	0.007353475	0.008831674	-7.531562e-11	-5.383589e-11	-0.009542766	-0.02308647
2.8e+08	-0.01412354	-0.02665787	-7.605351e-11	-4.718937e-11	0.009663884	0.008563761	-5.039637e-11	-1.254238e-11
	-7.605351e-11	-4.718937e-11	-0.01480945	-0.02605731	-4.261601e-11	-3.644987e-11	0.009401244	0.008922173
	0.009663884	0.008563761	-4.261601e-11	-3.644987e-11	-0.01408447	-0.02697769	-8.735995e-11	-3.516729e-11
	-5.039637e-11	-1.254238e-11	0.009401244	0.008922173	-8.735995e-11	-3.516729e-11	-0.01493221	-0.02612615
2.9e+08	-0.02014284	-0.02832264	-8.290951e-11	-2.926121e-11	0.01162578	0.00799038	-5.555534e-11	1.21018e-12
	-8.290951e-11	-2.926121e-11	-0.02085558	-0.02751654	-4.404801e-11	-2.960078e-11	0.01137052	0.008443842
	0.01162578	0.00799038	-4.404801e-11	-2.960078e-11	-0.02014609	-0.0286868	-9.416684e-11	-1.356659e-11
	-5.555534e-11	1.21018e-12	0.01137052	0.008443842	-9.416684e-11	-1.356659e-11	-0.02101518	-0.02757094
3e+08	-0.02643707	-0.02828273	-8.474433e-11	-9.786953e-12	0.01333272	0.006895761	-5.706218e-11	1.614493e-11
	-8.474433e-11	-9.786953e-12	-0.02712373	-0.02726533	-4.325682e-11	-2.251764e-11	0.01310685	0.007443484
	0.01333272	0.006895761	-4.325682e-11	-2.251764e-11	-0.02649605	-0.02867444	-9.503601e-11	9.49494e-12
	-5.706218e-11	1.614493e-11	0.01310685	0.007443484	-9.503601e-11	9.49494e-12	-0.02731534	-0.02729524
3.1e+08	-0.0325204	-0.0265332	-8.122318e-11	9.859774e-12	0.01465037	0.005373938	-5.466068e-11	3.125756e-11
	-8.122318e-11	9.859774e-12	-0.03312741	-0.02531408	-4.022696e-11	-1.583096e-11	0.01447589	0.006008589
	0.01465037	0.005373938	-4.022696e-11	-1.583096e-11	-0.03264251	-0.02693348	-8.967848e-11	3.238547e-11
	-5.466068e-11	3.125756e-11	0.01447589	0.006008589	-8.967848e-11	3.238547e-11	-0.03334349	-0.02531118
3.2e+08	-0.03792762	-0.02320326	-7.238704e-11	2.823741e-11	0.01547672	0.003552009	-4.837113e-11	4.549486e-11
	-7.238704e-11	2.823741e-11	-0.03840518	-0.02180725	-3.511637e-11	-1.016402e-11	0.01537362	0.004259739
	0.01547672	0.003552009	-3.511637e-11	-1.016402e-11	-0.03811422	-0.0235927	-7.82509e-11	5.342524e-11
	-4.837113e-11	4.549486e-11	0.01537362	0.004259738	-7.82509e-11	5.342524e-11	-0.03863612	-0.02176565
3.3e+08	-0.04224979	-0.01854432	-5.866548e-11	4.393879e-11	0.01574967	0.001579533	-3.849694e-11	5.782995e-11
	-5.866548e-11	4.393879e-11	-0.04255615	-0.01701004	-2.825315e-11	-6.086937e-12	0.01573394	0.00234062
	0.01574967	0.001579533	-2.825315e-11	-6.086937e-12	-0.04249658	-0.01890477	-6.136089e-11	7.100627e-11
	-3.849694e-11	5.782995e-11	0.01573394	0.00234062	-6.136089e-11	7.100627e-11	-0.04279099	-0.01692678
3.4e+08	-0.04516485	-0.01290901	-4.086198e-11	5.569632e-11	0.01545122	-0.000383535	-2.561145e-11	6.733748e-11
	-4.086198e-11	5.569632e-11	-0.0452701	-0.01128632	-2.012093e-11	-4.07063e-12	0.01553313	0.0004065635
	0.01545122	-0.000383535	-2.012093e-11	-4.07063e-12	-0.04546273	-0.01322497	-4.004128e-11	8.371258e-11
	-2.561145e-11	6.733748e-11	0.01553313	0.0004065635	-4.004128e-11	8.371258e-11	-0.04549746	-0.01116164
3.5e+08	-0.04646123	-0.006723069	-2.010996e-11	6.248175e-11	0.01460821	-0.002179362	-1.052522e-11	7.326339e-11
	-2.010996e-11	6.248175e-11	-0.04635028	-0.005069383	-1.133124e-11	-4.443496e-12	0.01479094	-0.001387476
	0.01460821	-0.002179362	-1.133124e-11	-4.443496e-12	-0.04679738	-0.006982751	-1.569196e-11	9.043246e-11
	-1.052522e-11	7.326339e-11	0.01479094	-0.001387476	-1.569196e-11	9.043246e-11	-0.04655924	-0.004906739
3.6e+08	-0.04605277	-0.0004520999	2.198055e-12	6.359304e-11	0.01328963	-0.003664304	5.764159e-12	7.508513e-11
	2.198055e-12	6.359304e-11	-0.04572715	0.001171946	-2.583303e-12	-7.354468e-12	0.01356853	-0.002898612
	0.01328963	-0.003664304	-2.583303e-12	-7.354468e-12	-0.04641196	-0.0006481705	1.000801e-11	9.045469e-11
	5.764159e-12	7.508513e-11	0.01356853	-0.002898612	1.000801e-11	9.045469e-11	-0.04590814	0.001366157
3.7e+08	-0.04398414	0.005434061	2.450466e-11	5.871978e-11	0.01160099	-0.004719677	2.213739e-11	7.255743e-11
	2.450466e-11	5.871978e-11	-0.0434626	0.006969435	5.388583e-12	-1.274698e-11	0.01196343	-0.004006603
	0.01160099	-0.004719677	5.388583e-12	-1.274698e-11	-0.04435013	0.005304181	3.521445e-11	8.353958e-11
	2.213739e-11	7.255743e-11	0.01196343	-0.004006603	3.521445e-11	8.353958e-11	-0.04360821	0.00718634
3.8e+08	-0.04042651	0.01049696	4.519842e-11	4.798127e-11	0.009676031	-0.005260564	3.743004e-11	6.574023e-11
	4.519842e-11	4.798127e-11	-0.03974421	0.01189109	1.187685e-11	-2.034858e-11	0.01010192	-0.004622665
	0.009676031	-0.005260564	1.187685e-11	-2.034858e-11	-0.04078342	0.01043117	5.805102e-11	6.995779e-11
	3.743004e-11	6.574023e-11	0.01010192	-0.004622665	5.805102e-11	6.995779e-11	-0.03984975	0.01212004
3.9e+08	-0.03566393	0.01436256	6.273334e-11	3.193297e-11	0.007666496	-0.005242116	5.051557e-11	5.500567e-11
	6.273334e-11	3.193297e-11	-0.03487021	0.01557385	1.626689e-11	-2.968029e-11	0.00812954	-0.004695976
	0.007666496	-0.005242116	1.626689e-11	-2.968029e-11	-0.03599748	0.01435449	7.675184e-11	5.049108e-11
	5.051557e-11	5.500567e-11	0.00812954	-0.004695976	7.675184e-11	5.049108e-11	-0.0349342	0.01580322
4e+08	-0.0300713	0.01674927	7.57475e-11	1.153923e-11	0.005730607	-0.004662938	6.038929e-11	4.102238e-11
	7.57475e-11	1.153923e-11	-0.02922635	0.0177509	1.810045e-11	-4.008818e-11	0.006200093	-0.004217458
	0.005730607	-0.004662938	1.810045e-11	-4.008818e-11	-0.03036989	0.01678902	8.980261e-11	2.639244e-11
	6.038929e-11	4.102238e-11	0.006200093	-0.004217458	8.980261e-11	2.639244e-11	-0.02925058	0.01796905
4.1e+08	-0.0240857	0.01748908	8.317187e-11	-1.188625e-11	0.004020999	-0.003565316	6.624681e-11	2.471719e-11
	8.317187e-11	-1.188625e-11	-0.0232561	0.01827179	1.712792e-11	-5.079599e-11	0.004464073	-0.003220561
	0.004020999	-0.003565316	1.712792e-11	-5.079599e-11	-0.02434122	0.0175642	9.606828e-11	-6.936403e-13
	6.624681e-11	2.471719e-11	0.004464073	-0.003220562	9.606828e-11	-6.936403e-13	-0.02324563	0.01846798
4.2e+08	-0.01817303	0.01654013	8.431969e-11	-3.676917e-11	0.002672936	-0.0020322	6.755081e-11	7.215544e-12
	8.431969e-11	-3.676917e-11	-0.01742666	0.01711363	1.334131e-11	-6.09747e-11	0.00305715	-0.00177892
	0.002672936	-0.0020322	1.334131e-11	-6.09747e-11	-0.01838135	0.01663674	9.489535e-11	-2.884661e-11
	6.755081e-11	7.215544e-12	0.00305715	-0.00177892	9.489535e-11	-2.884661e-11	-0.01738941	0.0172789
4.3e+08	-0.01279239	0.01398972	7.894929e-11	-6.138626e-11	0.001793648	-0.0001810457	6.408014e-11	-1.023547e-11
	7.894929e-11	-6.138626e-11	-0.01219304	0.01438272	6.982477e-12	-6.98207e-11	0.002089611	-9.302185e-07
	0.001793648	-0.0001810457	6.982477e-12	-6.98207e-11	-0.01295351	0.01409373	8.617855e-11	-5.601256e-11
	6.408014e-11	-1.023547e-11	0.002089611	-9.302188e-07	8.617855e-11	-5.601256e-11	-0.01213919	0.01451064
4.4e+08	-0.00836098	0.01004752	6.729385e-11	-8.399173e-11	0.001453667	0.001845138	5.595657e-11	-2.635643e-11
	6.729385e-11	-8.399173e-11	-0.007963042	0.01030613	-1.475706e-12	-7.6633e-11	0.001637558	0.001978447
	0.001453667	0.001845138	-1.475706e-12	-7.6633e-11	-0.008478824	0.0101458	7.038417e-11	-8.016282e-11
	5.595657e-11	-2.635643e-11	0.001637558	0.001978447	7.038417e-11	-8.016282e-11	-0.00790426	0.01039337
4.5e+08	-0.005222057	0.005029328	5.005517e-11	-1.029488e-10	0.001680887	0.003888941	4.364612e-11	-3.993063e-11
	5.005517e-11	-1.029488e-10	-0.005065806	0.005214044	-1.137243e-11	-8.087944e-11	0.001736652	0.004008148
	0.001680887	0.003888941	-1.137243e-11	-8.087944e-11	-0.005303987	0.005110748	4.852647e-11	-9.945504e-11
	4.364612e-11	-3.993063e-11	0.001736652	0.004008148	4.852647e-11	-9.945504e-11	-0.005014328	0.005260688
4.6e+08	-0.003618682	-0.0006674586	2.836047e-11	-1.168557e-10	0.002457993	0.005791085	2.793377e-11	-4.989457e-11
	2.836047e-11	-1.168557e-10	-0.0037265	-0.0004860586	-2.193116e-11	-8.224467e-11	0.002379006	0.005932947
	0.002457993	0.005791085	-2.193116e-11	-8.224467e-11	-0.003674671	-0.00061113	2.210234e-11	-1.123641e-10
	2.793377e-11	-4.989457e-11	0.002379006	0.005932947	2.210234e-11	-1.123641e-10	-0.00369407	-0.0004764646
4.7e+08	-0.003675194	-0.006594636	3.685521e-12	-1.246555e-10	0.003723562	0.007403313	9.873358e-12	-5.542895e-11
	3.685521e-12	-1.246555e-10	-0.004049119	-0.006341184	-3.232362e-11	-8.063958e-11	0.003513619	0.007605913
