!$
! Info: Touchstone file created by Circ.  Input file=Tx_16in_Rx_85ohms_TxVia_10mils_RxVia_20mils.circ
!$
# Hz S RI R 50
0	0.01282764	9.881426e-26	1.080323e-10	2.948331e-28	9.838566e-05	1.362267e-23	-4.998682e-09	6.122074e-25
	1.080442e-10	2.950122e-28	0.01282828	1.38727e-25	5.387977e-10	3.890788e-27	9.648e-05	1.825778e-23
	9.708565e-05	1.327346e-23	5.387368e-10	3.8979e-27	0.01284276	1.034399e-25	-9.070769e-09	1.124669e-24
	-4.997807e-09	6.121003e-25	9.793462e-05	1.879163e-23	-9.070962e-09	1.124692e-24	0.01283382	1.322557e-25
1e+07	0.01530945	-0.01608929	4.621783e-11	-2.586672e-11	0.0006804455	0.002748633	-4.190901e-09	1.7626e-08
	4.62178e-11	-2.586701e-11	0.01534812	-0.0161002	6.185962e-10	1.102293e-09	0.0006763984	0.002757415
	0.0006804015	0.002748637	6.185961e-10	1.102294e-09	0.01537791	-0.0160733	-5.62067e-09	1.766575e-08
	-4.190901e-09	1.7626e-08	0.0006764314	0.002757403	-5.62067e-09	1.766575e-08	0.01531283	-0.01608827
2e+07	0.01119055	-0.03555047	4.194908e-11	-2.850385e-11	0.002068307	0.005063426	-1.339895e-09	1.459425e-08
	4.194883e-11	-2.85039e-11	0.01117782	-0.03557578	6.729776e-10	2.00723e-09	0.002053831	0.00508549
	0.002068298	0.005063454	6.729778e-10	2.007231e-09	0.01124858	-0.03553606	-2.789829e-09	1.568385e-08
	-1.339895e-09	1.459425e-08	0.002053828	0.005085468	-2.789829e-09	1.568385e-08	0.01115727	-0.03553778
3e+07	-0.0005949965	-0.05368836	5.365376e-11	-5.918761e-11	0.004091293	0.006755506	3.675141e-09	1.244662e-08
	5.365374e-11	-5.918755e-11	-0.0006716798	-0.05369185	5.990065e-10	2.959163e-09	0.004063029	0.006798283
	0.004091294	0.00675551	5.990065e-10	2.959163e-09	-0.0005422815	-0.05366277	3.040461e-09	1.417373e-08
	3.675141e-09	1.244662e-08	0.004063024	0.006798281	3.040461e-09	1.417373e-08	-0.0006799064	-0.05364107
4e+07	-0.01796734	-0.06718628	6.013045e-11	-8.944e-11	0.006502578	0.007667774	7.085704e-09	9.124645e-09
	6.013043e-11	-8.944006e-11	-0.0181104	-0.06713592	5.185252e-10	4.019851e-09	0.006461112	0.007740102
	0.006502574	0.007667772	5.185251e-10	4.019851e-09	-0.01791649	-0.06714694	7.031195e-09	1.101116e-08
	7.085704e-09	9.124645e-09	0.006461112	0.007740103	7.031195e-09	1.101116e-08	-0.0181096	-0.06707765
5e+07	-0.0387162	-0.0744699	7.410278e-11	-1.252149e-10	0.009017741	0.007736226	8.879062e-09	5.811985e-09
	7.410273e-11	-1.252149e-10	-0.03891547	-0.07433509	4.85326e-10	5.156572e-09	0.008968053	0.007846573
	0.00901774	0.007736225	4.85326e-10	5.156572e-09	-0.03866437	-0.07441605	9.149255e-09	7.752937e-09
	8.879062e-09	5.811985e-09	0.008968052	0.007846573	9.149255e-09	7.752937e-09	-0.03890861	-0.07426973
6e+07	-0.06048497	-0.0748915	9.802871e-11	-1.834145e-10	0.01135682	0.006996167	9.780522e-09	3.233328e-09
	9.802883e-11	-1.834145e-10	-0.06071832	-0.0746474	5.193208e-10	6.334966e-09	0.01130787	0.007150687
	0.01135682	0.006996165	5.193208e-10	6.334966e-09	-0.06042958	-0.07482324	1.01114e-08	5.269011e-09
	9.780522e-09	3.233328e-09	0.01130787	0.007150688	1.01114e-08	5.269011e-09	-0.06070611	-0.07457435
7e+07	-0.08097269	-0.06862097	1.833094e-10	-3.144922e-10	0.01327784	0.005569021	1.060514e-08	2.381832e-09
	1.833098e-10	-3.144923e-10	-0.08120881	-0.06825282	6.318018e-10	7.481996e-09	0.01324139	0.005769977
	0.01327785	0.005569012	6.318017e-10	7.481996e-09	-0.08091125	-0.06853905	1.043514e-08	4.410165e-09
	1.060514e-08	2.381832e-09	0.01324139	0.005769981	1.043514e-08	4.410165e-09	-0.08119112	-0.06817176
8e+07	-0.09814556	-0.05653639	-1.203213e-09	-4.496838e-10	0.01459963	0.003639677	8.721464e-09	6.189296e-09
	-1.203212e-09	-4.496841e-10	-0.09834829	-0.05604248	1.062994e-09	8.554472e-09	0.01458856	0.003884441
	0.01459964	0.003639664	1.062993e-09	8.554471e-09	-0.09807571	-0.05644225	8.67693e-09	6.397537e-09
	8.721464e-09	6.189296e-09	0.01458856	0.003884446	8.67693e-09	6.397537e-09	-0.09832452	-0.055953
9e+07	-0.110412	-0.04007532	-1.194503e-10	-3.539829e-10	0.01521359	0.001430646	1.236508e-09	3.591012e-09
	-1.194499e-10	-3.539834e-10	-0.1105454	-0.03946814	1.498095e-09	9.870817e-09	0.0152399	0.001711367
	0.01521359	0.001430636	1.498095e-09	9.870817e-09	-0.1103316	-0.03997119	2.492589e-09	5.378902e-09
	1.236508e-09	3.591012e-09	0.0152399	0.001711371	2.492589e-09	5.378902e-09	-0.110514	-0.03937002
1e+08	-0.1167475	-0.02105607	-1.148807e-10	-3.245213e-10	0.01508888	-0.0008221199	1.074378e-11	3.830579e-10
	-1.148807e-10	-3.245213e-10	-0.1167811	-0.02036152	1.917406e-09	1.100429e-08	0.01516168	-0.0005181094
	0.01508887	-0.0008221198	1.917406e-09	1.100429e-08	-0.1166546	-0.02094496	4.407001e-10	2.350291e-09
	1.074378e-11	3.830579e-10	0.01516168	-0.0005181095	4.407001e-10	2.350291e-09	-0.1167398	-0.02025567
1.1e+08	-0.1167409	-0.001471174	-1.820066e-10	-2.940861e-10	0.01425337	-0.002909381	1.352536e-10	3.957686e-10
	-1.820066e-10	-2.940861e-10	-0.1166548	-0.0007262669	2.513805e-09	1.18734e-08	0.01437659	-0.002598662
	0.01425337	-0.00290938	2.513805e-09	1.18734e-08	-0.1166357	-0.001359426	7.808057e-10	2.458259e-09
	1.352536e-10	3.957686e-10	0.01437659	-0.002598662	7.808057e-10	2.458259e-09	-0.1166016	-0.0006148995
1.2e+08	-0.1106098	0.01667409	-2.214428e-10	-2.315904e-10	0.01279227	-0.004607316	2.643667e-10	3.637084e-10
	-2.214428e-10	-2.315904e-10	-0.1103989	0.01742484	3.112921e-09	1.255693e-08	0.01296441	-0.004307658
	0.01279227	-0.004607316	3.112921e-09	1.255693e-08	-0.1104945	0.01678348	1.131844e-09	2.457878e-09
	2.643667e-10	3.637084e-10	0.01296441	-0.004307658	1.131844e-09	2.457878e-09	-0.1103318	0.01753758
1.3e+08	-0.09918592	0.03156646	-2.199483e-10	-1.509337e-10	0.01086295	-0.005747082	3.819294e-10	2.859436e-10
	-2.199483e-10	-1.509337e-10	-0.098861	0.03227733	3.64678e-09	1.305512e-08	0.01107584	-0.005475901
	0.01086295	-0.005747082	3.64678e-09	1.305512e-08	-0.09906306	0.03167048	1.456699e-09	2.341403e-09
	3.819294e-10	2.859436e-10	0.01107584	-0.005475901	1.456699e-09	2.341403e-09	-0.0987803	0.03238638
1.4e+08	-0.08380429	0.04174926	-1.712938e-10	-7.360928e-11	0.008661057	-0.006212311	4.718408e-10	1.67576e-10
	-1.712938e-10	-7.360928e-11	-0.08339275	0.04237907	4.049915e-09	1.339372e-08	0.008900119	-0.005984148
	0.008661057	-0.006212311	4.049915e-09	1.339372e-08	-0.08367743	0.04184516	1.713983e-09	2.111417e-09
	4.718408e-10	1.67576e-10	0.008900119	-0.005984148	1.713983e-09	2.111417e-09	-0.0833008	0.04247928
1.5e+08	-0.06617794	0.04625554	-7.939846e-11	-2.064116e-11	0.006409959	-0.005948828	5.206873e-10	1.850462e-11
	-7.939846e-11	-2.064116e-11	-0.0657217	0.04677346	4.268157e-09	1.362163e-08	0.006655329	-0.005773014
	0.006409959	-0.005948828	4.268157e-09	1.362163e-08	-0.06605186	0.04634147	1.861142e-09	1.78772e-09
	5.206873e-10	1.850462e-11	0.006655329	-0.005773014	1.861142e-09	1.78772e-09	-0.06562299	0.04686044
1.6e+08	-0.04823349	0.04470234	4.08698e-11	-9.661782e-12	0.004343208	-0.004973042	5.184323e-10	-1.46704e-10
	4.08698e-11	-9.661781e-12	-0.04778513	0.0450929	4.266471e-09	1.380576e-08	0.004571718	-0.00485184
	0.004343208	-0.004973042	4.266471e-09	1.380576e-08	-0.04811394	0.04477801	1.859543e-09	1.406914e-09
	5.184323e-10	-1.46704e-10	0.004571718	-0.00485184	1.859543e-09	1.406914e-09	-0.04768594	0.04516384
1.7e+08	-0.03192104	0.03733397	1.683928e-10	-4.85623e-11	0.002682505	-0.003375689	4.602601e-10	-3.104628e-10
	1.683928e-10	-4.85623e-11	-0.03153816	0.03760062	4.034404e-09	1.402331e-08	0.002870259	-0.003303194
	0.002682505	-0.003375689	4.034404e-09	1.402331e-08	-0.03181412	0.03740111	1.683811e-09	1.023278e-09
	4.602601e-10	-3.104628e-10	0.002870259	-0.003303194	1.683811e-09	1.023278e-09	-0.03144593	0.037655
1.8e+08	-0.0190136	0.02500438	2.821736e-10	-1.340808e-10	0.001612703	-0.001317906	3.473467e-10	-4.539851e-10
	2.821736e-10	-1.340808e-10	-0.01875198	0.02517098	3.588406e-09	1.435268e-08	0.001738004	-0.001279896
	0.001612703	-0.001317906	3.588406e-09	1.435268e-08	-0.01892498	0.02506694	1.33083e-09	7.030381e-10
	3.473467e-10	-4.539851e-10	0.001738005	-0.001279896	1.33083e-09	7.030381e-10	-0.01867442	0.02521101
1.9e+08	-0.01091674	0.009093767	3.671827e-10	-2.544661e-10	0.001257387	0.0009825624	1.870515e-10	-5.592168e-10
	3.671827e-10	-2.544661e-10	-0.01082304	0.009203615	2.970971e-09	1.486443e-08	0.001303646	0.001007724
	0.001257387	0.0009825625	2.970971e-09	1.486443e-08	-0.01085078	0.009157772	8.255315e-10	5.136727e-10
	1.870515e-10	-5.592168e-10	0.001303646	0.001007724	8.255315e-10	5.136727e-10	-0.01076714	0.009234313
2e+08	-0.008512355	-0.008637031	4.171639e-10	-3.950186e-10	0.001659891	0.00327513	-7.416705e-12	-6.107525e-10
	4.171639e-10	-3.950186e-10	-0.008617416	-0.008524838	2.246995e-09	1.561306e-08	0.001618141	0.003314575
	0.001659891	0.00327513	2.246995e-09	1.561306e-08	-0.008471395	-0.008563977	2.206288e-10	5.10503e-10
	-7.416705e-12	-6.107525e-10	0.001618141	0.003314575	2.206288e-10	5.10503e-10	-0.008588362	-0.008495965
2.1e+08	-0.01205951	-0.02624046	4.332121e-10	-5.438493e-10	0.002774551	0.005307389	-2.178448e-10	-5.976772e-10
	4.332121e-10	-5.438493e-10	-0.01237303	-0.02605701	1.497909e-09	1.66304e-08	0.002645223	0.005390978
	0.002774551	0.005307389	1.497909e-09	1.66304e-08	-0.01204328	-0.02614992	-4.107555e-10	7.244326e-10
	-2.178448e-10	-5.976772e-10	0.002645223	0.005390978	-4.107555e-10	7.244326e-10	-0.01237333	-0.02602064
2.2e+08	-0.02116825	-0.0418007	4.190195e-10	-6.949631e-10	0.004471202	0.00685814	-4.224395e-10	-5.152505e-10
	4.190195e-10	-6.949631e-10	-0.02167584	-0.04147498	8.140727e-10	1.792085e-08	0.004264871	0.007015156
	0.004471202	0.006858141	8.140727e-10	1.792085e-08	-0.0211736	-0.04168431	-9.880164e-10	1.154828e-09
	-4.224395e-10	-5.152505e-10	0.004264871	0.007015156	-9.880164e-10	1.154828e-09	-0.02170472	-0.04142099
2.3e+08	-0.03485151	-0.05364733	3.754804e-10	-8.470703e-10	0.006552764	0.007766104	-5.979114e-10	-3.662144e-10
	3.754804e-10	-8.470703e-10	-0.03551469	-0.05311474	2.85874e-10	1.945887e-08	0.006289724	0.008021776
	0.006552764	0.007766104	2.85874e-10	1.945887e-08	-0.03487254	-0.0534978	-1.43777e-09	1.76988e-09
	-5.979114e-10	-3.662144e-10	0.006289724	0.008021776	-1.43777e-09	1.76988e-09	-0.03556787	-0.05303339
2.4e+08	-0.05164704	-0.06053515	2.977824e-10	-9.987725e-10	0.008782524	0.007948832	-7.221598e-10	-1.61367e-10
	2.977824e-10	-9.987725e-10	-0.05240613	-0.05974568	-6.034199e-12	2.118926e-08	0.008491169	0.00832112
	0.008782525	0.007948832	-6.0342e-12	2.118926e-08	-0.05167543	-0.0603472	-1.705882e-09	2.514026e-09
	-7.221598e-10	-1.61367e-10	0.008491169	0.00832112	-1.705882e-09	2.514026e-09	-0.05247605	-0.05962887
2.5e+08	-0.06979008	-0.06176783	1.76927e-10	-1.142743e-09	0.0109155	0.007408958	-7.772336e-10	8.094401e-11
	1.76927e-10	-1.142743e-09	-0.07056998	-0.06069288	-5.800485e-13	2.303053e-08	0.01062966	0.007905995
	0.0109155	0.007408958	-5.800486e-13	2.303053e-08	-0.06981584	-0.06153893	-1.763613e-09	3.319476e-09
	-7.772336e-10	8.094401e-11	0.01062966	0.007905995	-1.763613e-09	3.319476e-09	-0.07064644	-0.06053519
2.6e+08	-0.08741153	-0.0572535	5.365756e-12	-1.262201e-09	0.01272795	0.006228132	-7.52032e-10	3.365417e-10
	5.365756e-12	-1.262201e-09	-0.08812945	-0.05589036	3.349157e-10	2.488175e-08	0.01248343	0.006846654
	0.01272795	0.006228132	3.349157e-10	2.488175e-08	-0.08742394	-0.05698438	-1.607192e-09	4.11774e-09
	-7.52032e-10	3.365417e-10	0.01248343	0.006846654	-1.607192e-09	4.11774e-09	-0.08820065	-0.05568993
2.7e+08	-0.1027354	-0.04749185	-2.156241e-10	-1.33201e-09	0.01404048	0.004551636	-6.441823e-10	5.78152e-10
	-2.156241e-10	-1.33201e-09	-0.1033098	-0.04586544	9.983281e-10	2.663259e-08	0.01387124	0.005276624
	0.01404048	0.004551636	9.983281e-10	2.663259e-08	-0.102724	-0.04718672	-1.252634e-09	4.847775e-09
	-6.441823e-10	5.78152e-10	0.01387124	0.005276624	-1.252634e-09	4.847775e-09	-0.1033635	-0.0456244
2.8e+08	-0.1142538	-0.03350175	-4.701785e-10	-1.324672e-09	0.01473274	0.002567937	-4.607269e-10	7.7868e-10
	-4.701785e-10	-1.324672e-09	-0.1146136	-0.03166323	1.949984e-09	2.817555e-08	0.01466702	0.003373554
	0.01473274	0.002567937	1.949984e-09	2.817555e-08	-0.1142097	-0.03316813	-7.29038e-10	5.459372e-09
	-4.607269e-10	7.7868e-10	0.01466702	0.003373554	-7.29038e-10	5.459372e-09	-0.1146387	-0.03138769
2.9e+08	-0.1208649	-0.01670336	-7.26498e-10	-1.21944e-09	0.0147498	0.0004871642	-2.17546e-10	9.144721e-10
	-7.26498e-10	-1.21944e-09	-0.1209577	-0.01472591	3.114455e-09	2.94191e-08	0.0148067	0.001338931
	0.0147498	0.0004871642	3.114455e-09	2.94191e-08	-0.1207818	-0.01635158	-7.340246e-11	5.912598e-09
	-2.17546e-10	9.144721e-10	0.0148067	0.001338931	-7.340246e-11	5.912598e-09	-0.1209452	-0.01442556
3e+08	-0.1219658	0.001229245	-9.411459e-10	-1.011421e-09	0.01410208	-0.001478826	6.23007e-11	9.680981e-10
	-9.411459e-10	-1.011421e-09	-0.1217644	0.003257227	4.387072e-09	3.029974e-08	0.01428898	-0.000620808
	0.01410208	-0.001478826	4.387072e-09	3.029974e-08	-0.1218406	0.001586942	6.713481e-10	6.175641e-09
	6.23007e-11	9.680981e-10	0.01428898	-0.000620808	6.713481e-10	6.175641e-09	-0.1217086	0.003569968
3.1e+08	-0.1174969	0.01853058	-1.064672e-09	-7.125429e-10	0.01286079	-0.003133739	3.510054e-10	9.302606e-10
	-1.064672e-09	-7.125429e-10	-0.1170037	0.02051408	5.645337e-09	3.079267e-08	0.01317189	-0.002310809
	0.01286079	-0.003133739	5.645337e-09	3.079267e-08	-0.1173306	0.01888112	1.458895e-09	6.228666e-09
	3.510054e-10	9.302606e-10	0.01317189	-0.002310809	1.458895e-09	6.228666e-09	-0.1169033	0.02082523
3.2e+08	-0.1079404	0.03350858	-1.050906e-09	-3.615735e-10	0.01115058	-0.004311627	6.187672e-10	8.009869e-10
	-1.050906e-09	-3.615735e-10	-0.1071887	0.03535576	6.763455e-09	3.091425e-08	0.01156674	-0.003562225
	0.01115058	-0.004311627	6.763455e-09	3.091425e-08	-0.1077382	0.03383943	2.239525e-09	6.05591e-09
	6.187672e-10	8.009869e-10	0.01156674	-0.003562225	2.239525e-09	6.05591e-09	-0.1070469	0.03565113
3.3e+08	-0.09427264	0.04470137	-8.900936e-10	-2.80489e-11	0.009139865	-0.004889809	8.37054e-10	5.901711e-10
	-8.900936e-10	-2.80489e-11	-0.09332481	0.04633343	7.621868e-09	3.071914e-08	0.00962991	-0.004245196
	0.009139865	-0.004889809	7.621868e-09	3.071914e-08	-0.09404354	0.0450018	2.936524e-09	5.641112e-09
	8.37054e-10	5.901711e-10	0.00962991	-0.004245196	2.936524e-09	5.641112e-09	-0.09314933	0.04660021
3.4e+08	-0.07787479	0.05101559	-5.964439e-10	2.26826e-10	0.00702839	-0.004800174	9.815663e-10	3.16193e-10
	-5.964439e-10	2.26826e-10	-0.07681746	0.05237592	8.125044e-09	3.03026e-08	0.007551726	-0.004280674
	0.00702839	-0.004800174	8.125044e-09	3.03026e-08	-0.07763132	0.05127796	3.468418e-09	5.003224e-09
	9.815663e-10	3.16193e-10	0.007551727	-0.004280674	3.468418e-09	5.003224e-09	-0.07662016	0.05260419
3.5e+08	-0.06040587	0.05183567	-2.107824e-10	3.529388e-10	0.005031351	-0.004038204	1.034716e-09	4.378421e-12
	-2.107824e-10	3.529388e-10	-0.0593421	0.05289739	8.212523e-09	2.978777e-08	0.005541788	-0.003650394
	0.005031351	-0.004038204	8.212523e-09	2.978777e-08	-0.06016277	0.0520565	3.754653e-09	4.19247e-09
	1.034716e-09	4.378421e-12	0.005541788	-0.003650394	3.754653e-09	4.19247e-09	-0.05913782	0.05308125
3.6e+08	-0.04364468	0.04709322	2.077713e-10	3.230447e-10	0.003359665	-0.002667977	9.874352e-10	-3.153981e-10
	2.077713e-10	3.230447e-10	-0.04268387	0.04786393	7.866374e-09	2.931266e-08	0.00381006	-0.002403198
	0.003359665	-0.002667977	7.866374e-09	2.931266e-08	-0.04341754	0.04727393	3.73008e-09	3.292788e-09
	9.874352e-10	-3.153981e-10	0.00381006	-0.002403198	3.73008e-09	3.292788e-09	-0.04248903	0.04800249
3.7e+08	-0.02931259	0.03728576	5.951814e-10	1.38565e-10	0.002197323	-0.0008207839	8.40152e-10	-6.114684e-10
	5.951814e-10	1.38565e-10	-0.02855886	0.03780884	7.113815e-09	2.901561e-08	0.002544609	-0.0006552175
	0.002197323	-0.0008207839	7.113815e-09	2.901561e-08	-0.02911624	0.0374328	3.361414e-09	2.416246e-09
	8.40152e-10	-6.114684e-10	0.002544609	-0.0006552175	3.361414e-09	2.416246e-09	-0.02838984	0.03790666
3.8e+08	-0.0188934	0.02343726	8.968124e-10	-1.725796e-10	0.001678327	0.001314744	6.029601e-10	-8.532004e-10
	8.968124e-10	-1.725796e-10	-0.01843383	0.02378925	6.025033e-09	2.902104e-08	0.001888393	0.001418326
	0.001678327	0.001314744	6.025033e-09	2.902104e-08	-0.01874024	0.02356176	2.660683e-09	1.688501e-09
	6.029601e-10	-8.532004e-10	0.001888393	0.001418326	2.660683e-09	1.688501e-09	-0.01830512	0.02385618
3.9e+08	-0.013471	0.006999113	1.077923e-09	-5.652675e-10	0.001867183	0.003511688	2.950878e-10	-1.01373e-09
	1.077923e-09	-5.652675e-10	-0.01336502	0.007283143	4.706894e-09	2.942683e-08	0.001919039	0.003600594
	0.001867183	0.003511688	4.706894e-09	2.942683e-08	-0.01336952	0.007115994	1.690509e-09	1.22758e-09
	2.950878e-10	-1.01373e-09	0.001919039	0.003600594	1.690509e-09	1.22758e-09	-0.01328745	0.007333578
4e+08	-0.01360654	-0.01030127	1.126952e-09	-9.899506e-10	0.002747311	0.005531528	-5.624724e-11	-1.072566e-09
	1.126952e-09	-9.899506e-10	-0.01387779	-0.009965551	3.293473e-09	3.029429e-08	0.002636019	0.005658521
	0.002747311	0.005531528	3.293473e-09	3.029429e-08	-0.01356018	-0.01017472	5.580545e-10	1.1213e-09
	-5.624724e-11	-1.072566e-09	0.002636019	0.005658521	5.580545e-10	1.1213e-09	-0.01385716	-0.009914023
4.1e+08	-0.01927364	-0.02664788	1.051187e-09	-1.403863e-09	0.00422076	0.007154516	-4.17683e-10	-1.018039e-09
	1.051187e-09	-1.403863e-09	-0.01990565	-0.0261368	1.934234e-09	3.164105e-08	0.003958724	0.007372354
	0.00422076	0.007154516	1.934234e-09	3.164105e-08	-0.01928016	-0.0264937	-6.018758e-10	1.409896e-09
	-4.17683e-10	-1.018039e-09	0.003958724	0.007372354	-6.018758e-10	1.409896e-09	-0.01994178	-0.02606518
4.2e+08	-0.02986249	-0.04033566	8.677245e-10	-1.776493e-09	0.006120234	0.008208297	-7.524418e-10	-8.494074e-10
	8.677245e-10	-1.776493e-09	-0.03079875	-0.03953508	7.805014e-10	3.343737e-08	0.005736622	0.008564027
	0.006120234	0.008208297	7.805014e-10	3.343737e-08	-0.02991392	-0.04013714	-1.650132e-09	2.079126e-09
	-7.524418e-10	-8.494074e-10	0.005736622	0.008564027	-1.650132e-09	2.079126e-09	-0.03088522	-0.03942503
4.3e+08	-0.04425262	-0.04995568	5.945704e-10	-2.088056e-09	0.008231512	0.008589345	-1.024012e-09	-5.781408e-10
	5.945704e-10	-2.088056e-09	-0.04540127	-0.0487739	-2.920036e-11	3.560619e-08	0.0077698	0.009119009
	0.008231512	0.008589345	-2.920036e-11	3.560619e-08	-0.04433582	-0.04969915	-2.466173e-09	3.065487e-09
	-1.024012e-09	-5.781408e-10	0.0077698	0.009119009	-2.466173e-09	3.065487e-09	-0.04552583	-0.04860979
4.4e+08	-0.0609433	-0.05454162	2.462741e-10	-2.323158e-09	0.01032188	0.008273512	-1.200493e-09	-2.278082e-10
	2.462741e-10	-2.323158e-09	-0.06218596	-0.05292016	-3.839869e-10	3.802771e-08	0.009835731	0.008997864
	0.01032188	0.008273512	-3.839869e-10	3.802771e-08	-0.06104117	-0.05421801	-2.964399e-09	4.270909e-09
	-1.200493e-09	-2.278082e-10	0.009835731	0.008997864	-2.964399e-09	4.270909e-09	-0.06233172	-0.05269087
4.5e+08	-0.07822212	-0.05366091	-1.641222e-10	-2.464107e-09	0.01216909	0.007314707	-1.258906e-09	1.678186e-10
	-1.641222e-10	-2.464107e-09	-0.07942587	-0.05158173	-2.141937e-10	4.05488e-08	0.01171701	0.008236476
	0.01216909	0.007314707	-2.141937e-10	4.05488e-08	-0.07831518	-0.05326689	-3.100567e-09	5.581356e-09
	-1.258906e-09	1.678186e-10	0.01171701	0.008236476	-3.100567e-09	5.581356e-09	-0.0795729	-0.05128203
4.6e+08	-0.09434839	-0.04744332	-6.183997e-10	-2.488255e-09	0.01358602	0.005833459	-1.188595e-09	5.683692e-10
	-6.183997e-10	-2.488255e-09	-0.09537949	-0.04493185	4.98175e-10	4.299721e-08	0.01322532	0.006936468
	0.01358602	0.005833459	4.98175e-10	4.299721e-08	-0.0944167	-0.04698186	-2.86897e-09	6.883351e-09
	-1.188595e-09	5.683692e-10	0.01322532	0.006936468	-2.86897e-09	6.883351e-09	-0.0955069	-0.04456312
4.7e+08	-0.1077292	-0.03654963	-1.085729e-09	-2.371636e-09	0.01443798	0.003998896	-9.929768e-10	9.316116e-10
	-1.085729e-09	-2.371636e-09	-0.1084671	-0.03367317	1.713989e-09	4.519917e-08	0.01421875	0.005249172
	0.01443798	0.003998896	1.713989e-09	4.519917e-08	-0.1077544	-0.03602991	-2.294153e-09	8.074506e-09
	-9.929768e-10	9.316116e-10	0.01421875	0.005249172	-2.294153e-09	8.074506e-09	-0.1085552	-0.03324342
4.8e+08	-0.1170708	-0.02208977	-1.51895e-09	-2.098071e-09	0.01465186	0.00200806	-6.893574e-10	1.218479e-09
