!$
! Info: Touchstone file created by Circ.  Input file=Tx_16in_Rx_93ohms_TxVia_10mils_RxVia_20mils.circ
!$
# Hz S RI R 50
0	0.01458239	1.187667e-25	4.223559e-13	2.221452e-28	9.847368e-05	1.832534e-23	-4.651618e-09	5.694242e-25
	4.239573e-13	2.2233e-28	0.0145852	1.378952e-25	-3.994596e-12	4.407235e-28	9.590697e-05	2.077018e-23
	9.852083e-05	1.833605e-23	-4.042938e-12	4.466204e-28	0.01459703	1.190725e-25	-1.274459e-09	1.559274e-25
	-4.649509e-09	5.691658e-25	9.736093e-05	2.137749e-23	-1.274504e-09	1.559329e-25	0.01459073	1.314653e-25
1e+07	0.01982433	-0.002689236	9.202345e-13	-6.124056e-12	0.0006295024	0.002541558	-5.319227e-09	1.744739e-08
	9.202409e-13	-6.124327e-12	0.02097852	-0.002964644	-1.176462e-12	-7.426027e-12	0.0006616475	0.002774168
	0.0006295063	0.002541555	-1.17644e-12	-7.42578e-12	0.02137989	-0.002082435	-3.039474e-09	1.644129e-08
	-5.319227e-09	1.744739e-08	0.0006616808	0.002774156	-3.039474e-09	1.644129e-08	0.02055922	-0.002951324
2e+07	0.02233172	-0.01061678	1.146752e-12	-8.108551e-12	0.001962061	0.004874315	-6.698258e-10	1.476517e-08
	1.14655e-12	-8.108633e-12	0.02293032	-0.01142322	-2.687066e-14	-9.924639e-12	0.001885912	0.005320267
	0.001962059	0.004874312	-2.669007e-14	-9.924527e-12	0.02434677	-0.01033631	-2.313347e-09	1.402661e-08
	-6.698258e-10	1.476517e-08	0.00188591	0.005320245	-2.313347e-09	1.402661e-08	0.02263097	-0.01126815
3e+07	0.02053482	-0.02008371	-3.106018e-12	-1.11082e-11	0.003929244	0.006643824	3.29763e-09	1.211297e-08
	-3.106041e-12	-1.110816e-11	0.02067641	-0.02097108	-5.334631e-12	-1.292005e-11	0.003883397	0.00717619
	0.003929243	0.006643823	-5.334607e-12	-1.292009e-11	0.02279558	-0.02023915	3.447801e-09	1.259759e-08
	3.29763e-09	1.211297e-08	0.003883392	0.007176187	3.447801e-09	1.259759e-08	0.02046456	-0.02079295
4e+07	0.01534522	-0.02869513	-8.543173e-12	-1.243998e-11	0.006320141	0.007685206	6.10719e-09	9.335316e-09
	-8.543147e-12	-1.244e-11	0.01510843	-0.02949276	-9.048365e-12	-1.464451e-11	0.006374976	0.008225396
	0.006320142	0.007685205	-9.048392e-12	-1.464448e-11	0.01766602	-0.02933978	7.208504e-09	9.596513e-09
	6.10719e-09	9.335316e-09	0.006374976	0.008225397	7.208504e-09	9.596513e-09	0.01495899	-0.0293265
5e+07	0.007598591	-0.03532579	-1.44036e-11	-1.172557e-11	0.008877157	0.007908119	8.202562e-09	6.650013e-09
	-1.44036e-11	-1.172559e-11	0.007072694	-0.03592499	-1.266733e-11	-1.589227e-11	0.009011157	0.008429445
	0.008877158	0.007908118	-1.266734e-11	-1.589225e-11	0.009813073	-0.03645384	9.594283e-09	6.943884e-09
	8.202562e-09	6.650013e-09	0.009011157	0.008429445	9.594283e-09	6.943884e-09	0.006962312	-0.03578449
6e+07	-0.001762007	-0.03929687	-2.261765e-11	-8.550267e-12	0.01133	0.007311194	1.042861e-08	3.872867e-09
	-2.261763e-11	-8.550246e-12	-0.002477959	-0.03963038	-1.812252e-11	-1.886695e-11	0.01152262	0.007798299
	0.01133	0.007311194	-1.812255e-11	-1.886698e-11	0.0002035637	-0.0408558	1.18333e-08	6.217836e-09
	1.042861e-08	3.872867e-09	0.01152262	0.0077983	1.18333e-08	6.217836e-09	-0.002568628	-0.03951917
7e+07	-0.01172824	-0.04029892	-4.092393e-11	7.886076e-12	0.0134259	0.005979495	1.547494e-08	-1.168367e-09
	-4.092382e-11	7.886106e-12	-0.01253079	-0.04033547	8.530164e-13	-3.826387e-11	0.01365812	0.006424126
	0.01342591	0.005979494	8.529795e-13	-3.826398e-11	-0.01012458	-0.04220105	9.6659e-09	1.285763e-08
	1.547494e-08	-1.168367e-09	0.01365811	0.006424129	9.6659e-09	1.285763e-08	-0.01261758	-0.04025077
8e+07	-0.02130746	-0.03836302	3.708765e-10	3.961549e-10	0.01495624	0.004072653	-2.035126e-08	-2.633361e-08
	3.708764e-10	3.961546e-10	-0.02209541	-0.0381042	-6.734365e-12	1.737465e-11	0.01521025	0.004471044
	0.01495625	0.004072652	-6.734357e-12	1.737459e-11	-0.0201456	-0.04049703	-3.299162e-10	6.355355e-09
	-2.035126e-08	-2.633361e-08	0.01521025	0.004471048	-3.299165e-10	6.355355e-09	-0.02219017	-0.03803847
9e+07	-0.02960789	-0.03382333	-8.044329e-11	5.282717e-11	0.0157779	0.001805604	-3.261761e-09	4.125491e-10
	-8.044335e-11	5.282713e-11	-0.03028776	-0.03329985	-2.417245e-11	5.657553e-12	0.01603536	0.002156821
	0.01577791	0.001805603	-2.417245e-11	5.657559e-12	-0.02893607	-0.03606545	-1.19633e-10	1.606487e-09
	-3.261761e-09	4.12549e-10	0.01603536	0.002156825	-1.19633e-10	1.606487e-09	-0.03039768	-0.03324269
1e+08	-0.03590782	-0.0272618	-8.394166e-12	3.575597e-11	0.01583616	-0.0005750554	8.785414e-13	3.367276e-11
	-8.394166e-12	3.575597e-11	-0.03638399	-0.02652878	-2.473212e-11	4.38771e-12	0.01606514	-0.0002708775
	0.01583616	-0.0005750555	-2.473212e-11	4.38771e-12	-0.03577297	-0.02948543	-7.739073e-12	4.593583e-11
	8.785414e-13	3.367276e-11	0.01606514	-0.0002708777	-7.739073e-12	4.593583e-11	-0.0365146	-0.02646935
1.1e+08	-0.03975265	-0.01948491	1.007054e-11	3.52731e-11	0.01511589	-0.002772946	1.135758e-11	3.3768e-11
	1.007054e-11	3.52731e-11	-0.04000342	-0.01869266	-1.708592e-11	6.341176e-12	0.01531173	-0.002552955
	0.01511589	-0.002772947	-1.708592e-11	6.341176e-12	-0.04007794	-0.0214254	1.22317e-11	4.578799e-11
	1.135758e-11	3.3768e-11	0.01531173	-0.002552955	1.22317e-11	4.578799e-11	-0.04014623	-0.01860707
1.2e+08	-0.04095228	-0.0112689	2.472195e-11	2.925495e-11	0.01369466	-0.004612331	2.139253e-11	3.022963e-11
	2.472195e-11	2.925495e-11	-0.04101841	-0.0104733	-9.960791e-12	5.282623e-12	0.01387266	-0.004457482
	0.01369466	-0.004612331	-9.960791e-12	5.282623e-12	-0.04156091	-0.01287372	2.855665e-11	3.969006e-11
	2.139253e-11	3.022963e-11	0.01387266	-0.004457482	2.855665e-11	3.969006e-11	-0.04115431	-0.01036098
1.3e+08	-0.03954975	-0.003463428	3.569203e-11	1.988441e-11	0.01174515	-0.005896704	2.928664e-11	2.45382e-11
	3.569203e-11	1.988441e-11	-0.03945916	-0.002710786	-3.948502e-12	1.484147e-12	0.01190421	-0.005794791
	0.01174515	-0.005896704	-3.948502e-12	1.484147e-12	-0.04031611	-0.00472224	4.129578e-11	2.966916e-11
	2.928664e-11	2.45382e-11	0.01190421	-0.005794791	4.129578e-11	2.966916e-11	-0.03957561	-0.002576812
1.4e+08	-0.03585709	0.003156207	4.426753e-11	6.879588e-12	0.009476405	-0.006492275	3.548134e-11	1.634613e-11
	4.426753e-11	6.879588e-12	-0.03564394	0.003827257	1.094517e-12	-4.262407e-12	0.009612637	-0.006433367
	0.009476405	-0.006492275	1.094517e-12	-4.262407e-12	-0.03667715	0.00222532	5.126315e-11	1.536372e-11
	3.548134e-11	1.634613e-11	0.009612637	-0.006433367	5.126315e-11	1.536372e-11	-0.03573236	0.003974041
1.5e+08	-0.03040632	0.007964233	4.91429e-11	-8.975164e-12	0.007124735	-0.006337295	3.913926e-11	6.062503e-12
	4.91429e-11	-8.975164e-12	-0.03011247	0.008525064	4.49146e-12	-1.15378e-11	0.007233236	-0.006312164
	0.007124735	-0.006337295	4.49146e-12	-1.15378e-11	-0.03119671	0.007322291	5.686671e-11	-2.331014e-12
	3.913926e-11	6.062503e-12	0.007233236	-0.006312164	5.686671e-11	-2.331014e-12	-0.03016853	0.008673521
1.6e+08	-0.02388841	0.01054142	4.93154e-11	-2.64431e-11	0.004931894	-0.005446677	3.952313e-11	-5.467733e-12
	4.93154e-11	-2.64431e-11	-0.02356175	0.01097602	5.716287e-12	-1.974551e-11	0.00500756	-0.005445846
	0.004931894	-0.005446677	5.716287e-12	-1.974551e-11	-0.02458712	0.01013528	5.697651e-11	-2.187021e-11
	3.952313e-11	-5.467733e-12	0.00500756	-0.005445846	5.697651e-11	-2.187021e-11	-0.02358564	0.01111424
1.7e+08	-0.01707945	0.01071055	4.424685e-11	-4.396108e-11	0.003121806	-0.003909953	3.62088e-11	-1.716327e-11
	4.424685e-11	-4.396108e-11	-0.01677072	0.01101752	4.496596e-12	-2.810537e-11	0.003160033	-0.003923077
	0.003121806	-0.003909953	4.496596e-12	-2.810537e-11	-0.01764614	0.01047927	5.098279e-11	-4.140807e-11
	3.62088e-11	-1.716327e-11	0.003160033	-0.003923077	5.098279e-11	-4.140807e-11	-0.01676697	0.01113438
1.8e+08	-0.01076081	0.008547554	3.395174e-11	-5.981591e-11	0.001878506	-0.001882259	2.914938e-11	-2.781261e-11
	3.395174e-11	-5.981591e-11	-0.01051926	0.008741035	8.567708e-13	-3.577566e-11	0.001875957	-0.001897853
	0.001878506	-0.001882259	8.567708e-13	-3.577566e-11	-0.01117587	0.008428326	3.893343e-11	-5.8929e-11
	2.914938e-11	-2.781261e-11	0.001875957	-0.001897853	3.893343e-11	-5.8929e-11	-0.01049617	0.008827587
1.9e+08	-0.005640275	0.00436773	1.902278e-11	-7.234036e-11	0.001327544	0.0004311763	1.870873e-11	-3.620784e-11
	1.902278e-11	-7.234036e-11	-0.00550898	0.00447683	-4.882992e-12	-4.196583e-11	0.001282926	0.0004256572
	0.001327544	0.0004311763	-4.882992e-12	-4.196583e-11	-0.005902939	0.004301087	2.156334e-11	-7.248389e-11
	1.870873e-11	-3.620784e-11	0.001282926	0.0004256573	2.156334e-11	-7.248389e-11	-0.005477636	0.004527418
2e+08	-0.00228044	-0.001311862	5.887227e-13	-8.010229e-11	0.001519317	0.002791697	5.648914e-12	-4.127908e-11
	5.887227e-13	-8.010229e-11	-0.002293289	-0.001245021	-1.215092e-11	-4.603029e-11	0.001437668	0.002813596
	0.001519317	0.002791697	-1.215092e-11	-4.603029e-11	-0.002405763	-0.001377658	2.395305e-13	-8.041865e-11
	5.648914e-12	-4.127908e-11	0.001437668	0.002813596	2.395305e-13	-8.041865e-11	-0.002266247	-0.001232005
2.1e+08	-0.001049419	-0.007829817	-1.978435e-11	-8.208103e-11	0.002441191	0.004965232	-8.932429e-12	-4.224229e-11
	-1.978435e-11	-8.208103e-11	-0.001223609	-0.007753218	-2.018155e-11	-4.756033e-11	0.002319965	0.005026368
	0.002441191	0.004965232	-2.018155e-11	-4.756033e-11	-0.001064509	-0.007935536	-2.316233e-11	-8.158487e-11
	-8.932429e-12	-4.224229e-11	0.002319965	0.005026368	-2.316233e-11	-8.158487e-11	-0.001213471	-0.00777506
2.2e+08	-0.002082229	-0.01444958	-4.024841e-11	-7.778233e-11	0.003993482	0.006729487	-2.370816e-11	-3.868409e-11
	-4.024841e-11	-7.778233e-11	-0.002417205	-0.01430739	-2.812057e-11	-4.641421e-11	0.003834643	0.006843567
	0.003993482	0.006729487	-2.812057e-11	-4.641421e-11	-0.002021982	-0.01462302	-4.645346e-11	-7.547406e-11
	-2.370816e-11	-3.868409e-11	0.003834643	0.006843567	-4.645346e-11	-7.547406e-11	-0.002435152	-0.01435727
2.3e+08	-0.005272885	-0.02043768	-5.885014e-11	-6.730832e-11	0.006010415	0.007906206	-3.725082e-11	-3.062931e-11
	-5.885014e-11	-6.730832e-11	-0.005749722	-0.02017614	-3.511053e-11	-4.272984e-11	0.005821682	0.008087079
	0.006010415	0.007906206	-3.511053e-11	-4.272984e-11	-0.005175578	-0.02069297	-6.735053e-11	-6.229232e-11
	-3.725082e-11	-3.062931e-11	0.005821682	0.008087079	-6.735053e-11	-6.229232e-11	-0.005804212	-0.02024381
2.4e+08	-0.01029027	-0.02513934	-7.372041e-11	-5.136847e-11	0.008278594	0.008380272	-4.817891e-11	-1.855799e-11
	-7.372041e-11	-5.136847e-11	-0.01087292	-0.02471269	-4.037589e-11	-3.690878e-11	0.008073414	0.008639608
	0.008278594	0.008380272	-4.037589e-11	-3.690878e-11	-0.01019338	-0.02547754	-8.37054e-11	-4.295981e-11
	-4.817891e-11	-1.855799e-11	0.008073414	0.008639608	-8.37054e-11	-4.295981e-11	-0.01096868	-0.02478558
2.5e+08	-0.0166168	-0.02804436	-8.32582e-11	-3.123275e-11	0.01056018	0.008111382	-5.530095e-11	-3.373607e-12
	-8.32582e-11	-3.123275e-11	-0.01725523	-0.02742022	-4.329714e-11	-2.957806e-11	0.01035683	0.008456444
	0.01056018	0.008111382	-4.329714e-11	-2.957806e-11	-0.01655337	-0.02845512	-9.372154e-11	-1.903954e-11
	-5.530095e-11	-3.373607e-12	0.01035683	0.008456444	-9.372154e-11	-1.903954e-11	-0.01739268	-0.02748473
2.6e+08	-0.02360527	-0.02883666	-8.627393e-11	-8.639783e-12	0.01261842	0.007137355	-5.774213e-11	1.367216e-11
	-8.627393e-11	-8.639783e-12	-0.02424039	-0.0280002	-4.342652e-11	-2.155159e-11	0.01243834	0.007569179
	0.01261842	0.007137355	-4.342652e-11	-2.155159e-11	-0.02360117	-0.02930075	-9.613523e-11	7.393391e-12
	-5.774213e-11	1.367216e-11	0.01243834	0.007569179	-9.613523e-11	7.393391e-12	-0.02441549	-0.0280432
2.7e+08	-0.0305477	-0.02742279	-8.217968e-11	1.435109e-11	0.01424258	0.0055689	-5.504203e-11	3.109115e-11
	-8.217968e-11	1.435109e-11	-0.03111735	-0.02637906	-4.067091e-11	-1.374775e-11	0.01410799	0.006081148
	0.01424258	0.0055689	-4.067091e-11	-1.374775e-11	-0.03061981	-0.0279152	-9.036215e-11	3.392977e-11
	-5.504203e-11	3.109115e-11	0.01410799	0.006081148	-9.036215e-11	3.392977e-11	-0.031322	-0.02638936
2.8e+08	-0.03674849	-0.02393725	-7.102163e-11	3.55508e-11	0.01526933	0.003576759	-4.721333e-11	4.729454e-11
	-7.102163e-11	3.55508e-11	-0.03719403	-0.02271155	-3.519357e-11	-7.080219e-12	0.01520062	0.004155456
	0.01526933	0.003576759	-3.519357e-11	-7.080219e-12	-0.03690398	-0.0244304	-7.657346e-11	5.804301e-11
	-4.721333e-11	4.729454e-11	0.01520062	0.004155456	-7.657346e-11	5.804301e-11	-0.03741693	-0.02268111
2.9e+08	-0.04159452	-0.01872475	-5.351634e-11	5.283384e-11	0.01559869	0.001372974	-3.47573e-11	6.074123e-11
	-5.351634e-11	5.283384e-11	-0.04186739	-0.01736081	-2.743419e-11	-2.393251e-12	0.01561164	0.00199723
	0.01559869	0.001372974	-2.743419e-11	-2.393251e-12	-0.04183117	-0.01919164	-5.571435e-11	7.732126e-11
	-3.47573e-11	6.074123e-11	0.01561164	0.00199723	-5.571435e-11	7.732126e-11	-0.04209518	-0.01728562
3e+08	-0.04461541	-0.0123021	-3.102044e-11	6.434543e-11	0.01520286	-0.00081141	-1.863476e-11	7.008559e-11
	-3.102044e-11	6.434543e-11	-0.04468275	-0.01085823	-1.809302e-11	-3.740008e-13	0.0153063	-0.0001677343
	0.01520286	-0.00081141	-1.809302e-11	-3.740008e-13	-0.04492269	-0.01271905	-2.945278e-11	8.970225e-11
	-1.863476e-11	7.008559e-11	0.0153063	-0.0001677343	-2.945278e-11	8.970225e-11	-0.04490144	-0.01073871
3.1e+08	-0.04552839	-0.005304045	-5.432987e-12	6.869554e-11	0.01412772	-0.002749843	-1.936705e-13	7.431241e-11
	-5.432987e-12	6.869554e-11	-0.04537732	-0.003847502	-8.079686e-12	-1.469785e-12	0.01432176	-0.002115661
	0.01412772	-0.002749843	-8.079686e-12	-1.469785e-12	-0.04588932	-0.005652813	-5.697572e-14	9.369021e-11
	-1.936705e-13	7.431241e-11	0.01432176	-0.002115661	-5.697572e-14	9.369021e-11	-0.04557371	-0.003688549
3.2e+08	-0.044264	0.001581385	2.096267e-11	6.511829e-11	0.01248711	-0.00424264	1.894201e-11	7.284633e-11
	2.096267e-11	6.511829e-11	-0.04390386	0.002981143	1.566758e-12	-5.820057e-12	0.01276236	-0.003646628
	0.01248711	-0.00424264	1.566758e-12	-5.820057e-12	-0.0446574	0.001312196	2.979365e-11	8.85317e-11
	1.894201e-11	7.284633e-11	0.01276236	-0.003646628	2.979365e-11	8.85317e-11	-0.04406695	0.003170648
3.3e+08	-0.04097074	0.007681607	4.57044e-11	5.357788e-11	0.01045082	-0.005136303	3.701409e-11	6.562553e-11
	4.57044e-11	5.357788e-11	-0.04043309	0.00896019	9.78312e-12	-1.321467e-11	0.01078858	-0.004603686
	0.01045082	-0.005136303	9.78312e-12	-1.321467e-11	-0.04137363	0.007495898	5.725083e-11	7.432985e-11
	3.701409e-11	6.562553e-11	0.01078858	-0.004603686	5.725083e-11	7.432985e-11	-0.04055523	0.009168271
3.4e+08	-0.03599849	0.0124059	6.638637e-11	3.480627e-11	0.008227484	-0.005338204	5.229166e-11	5.313057e-11
	6.638637e-11	3.480627e-11	-0.03533481	0.01351104	1.560372e-11	-2.308985e-11	0.008601098	-0.004887711
	0.008227484	-0.005338204	1.560372e-11	-2.308985e-11	-0.03638857	0.01230023	7.957317e-11	5.207911e-11
	5.229166e-11	5.313057e-11	0.008601098	-0.004887711	7.957317e-11	5.207911e-11	-0.03541254	0.01372383
3.5e+08	-0.02986269	0.01530336	8.089975e-11	1.026383e-11	0.00604393	-0.004825465	6.323821e-11	3.636235e-11
	8.089975e-11	1.026383e-11	-0.02913982	0.01620095	1.828337e-11	-3.456997e-11	0.006421081	-0.004466812
	0.00604393	-0.004825465	1.828337e-11	-3.456997e-11	-0.03022048	0.01526772	9.440801e-11	2.360906e-11
	6.323821e-11	3.636235e-11	0.006421081	-0.004466812	9.440801e-11	2.360906e-11	-0.02917426	0.01640411
3.6e+08	-0.02319244	0.01610688	8.76543e-11	-1.797585e-11	0.004122819	-0.003647257	6.866856e-11	1.676855e-11
	8.76543e-11	-1.797585e-11	-0.02248624	0.01678537	1.740218e-11	-4.65555e-11	0.004468618	-0.003379472
	0.004122819	-0.003647257	1.740218e-11	-4.65555e-11	-0.02350306	0.01612615	1.000492e-10	-8.562482e-12
	6.866856e-11	1.676855e-11	0.004468618	-0.003379472	1.000492e-10	-8.562482e-12	-0.02248306	0.01696559
3.7e+08	-0.01666769	0.01475914	8.575577e-11	-4.740904e-11	0.00266042	-0.001920197	6.787891e-11	-3.878026e-12
	8.575577e-11	-4.740904e-11	-0.01605546	0.0152318	1.293266e-11	-5.784838e-11	0.002940961	-0.001731013
	0.00266042	-0.001920197	1.293266e-11	-5.784838e-11	-0.01692207	0.01481489	9.563934e-11	-4.145813e-11
	6.787891e-11	-3.878026e-12	0.002940961	-0.001731013	9.563934e-11	-4.145813e-11	-0.01602436	0.01537817
3.8e+08	-0.0109513	0.01141779	7.511888e-11	-7.533592e-11	0.001806653	0.0001829501	6.073513e-11	-2.363922e-11
	7.511888e-11	-7.533592e-11	-0.01050376	0.01172237	5.255297e-12	-6.729656e-11	0.001992664	0.000316528
	0.001806653	0.0001829501	5.255297e-12	-6.729656e-11	-0.01114675	0.01149034	8.129015e-11	-7.192966e-11
	6.073513e-11	-2.363922e-11	0.001992664	0.000316528	8.129015e-11	-7.192966e-11	-0.01045748	0.01182759
3.9e+08	-0.006622831	0.006439269	5.650098e-11	-9.912284e-11	0.001649415	0.002450457	4.770771e-11	-4.059525e-11
	5.650098e-11	-9.912284e-11	-0.006396393	0.006635117	-4.881523e-12	-7.393454e-11	0.001719631	0.002560403
	0.001649415	0.002450457	-4.881523e-12	-7.393454e-11	-0.00676294	0.006509795	5.810274e-11	-9.697661e-11
	4.770771e-11	-4.059525e-11	0.001719631	0.002560403	5.810274e-11	-9.697661e-11	-0.00634947	0.006696315
4e+08	-0.004120577	0.0003425677	3.145007e-11	-1.164654e-10	0.002204999	0.004653184	2.984676e-11	-5.303403e-11
	3.145007e-11	-1.164654e-10	-0.004150826	0.0005053342	-1.645004e-11	-7.709773e-11	0.002148877	0.004777662
	0.002204999	0.004653184	-1.645004e-11	-7.709773e-11	-0.004214435	0.0003949978	2.808095e-11	-1.140588e-10
	2.984676e-11	-5.303403e-11	0.002148877	0.004777662	2.808095e-11	-1.140588e-10	-0.004118053	0.0005244408
4.1e+08	-0.003697896	-0.006243415	2.17065e-12	-1.256241e-10	0.003415901	0.006568377	8.697388e-12	-5.962636e-11
	2.17065e-12	-1.256241e-10	-0.003994999	-0.006029031	-2.826392e-11	-7.649476e-11	0.003235365	0.006748137
	0.003415901	0.006568377	-2.826392e-11	-7.649476e-11	-0.003758793	-0.006220867	-6.054443e-12	-1.213655e-10
	8.697388e-12	-5.962636e-11	0.003235365	0.006748137	-6.054443e-12	-1.213655e-10	-0.003989882	-0.006045406
4.2e+08	-0.005398456	-0.01264363	-2.867987e-11	-1.25607e-10	0.005156527	0.008003122	-1.383833e-11	-5.956762e-11
	-2.867987e-11	-1.25607e-10	-0.005945076	-0.01229237	-3.911154e-11	-7.223176e-11	0.004866512	0.008277433
	0.005156527	0.008003122	-3.911154e-11	-7.223176e-11	-0.00544218	-0.01265747	-4.113027e-11	-1.180103e-10
	-1.383833e-11	-5.956762e-11	0.004866512	0.008277433	-4.113027e-11	-1.180103e-10	-0.005978379	-0.01233357
4.3e+08	-0.009052932	-0.01820504	-5.824282e-11	-1.16279e-10	0.007246361	0.008814779	-3.567905e-11	-5.266977e-11
	-5.824282e-11	-1.16279e-10	-0.009804973	-0.01763998	-4.788332e-11	-6.479123e-11	0.006874021	0.009217281
	0.007246361	0.008814779	-4.788332e-11	-6.479123e-11	-0.009095876	-0.01825615	-7.383357e-11	-1.041296e-10
	-3.567905e-11	-5.266977e-11	0.006874021	0.009217281	-7.383357e-11	-1.041296e-10	-0.009883533	-0.01769239
4.4e+08	-0.01429742	-0.02236213	-8.373199e-11	-9.838686e-11	0.009469166	0.008925961	-5.476366e-11	-3.939277e-11
	-8.373199e-11	-9.838686e-11	-0.01518763	-0.02152302	-5.368006e-11	-5.497448e-11	0.009051774	0.009480876
	0.009469166	0.008925961	-5.368006e-11	-5.497448e-11	-0.01435472	-0.02244602	-1.010369e-10	-8.087574e-11
	-5.476366e-11	-3.939277e-11	0.009051774	0.009480876	-1.010369e-10	-8.087574e-11	-0.01531358	-0.02157143
4.5e+08	-0.02061142	-0.02469283	-1.027017e-10	-7.34994e-11	0.011596	0.008332335	-6.925177e-11	-2.081173e-11
	-1.027017e-10	-7.34994e-11	-0.02155553	-0.02354294	-5.589463e-11	-4.381833e-11	0.01117767	0.009051452
	0.011596	0.008332335	-5.589463e-11	-4.381833e-11	-0.02069534	-0.0248005	-1.201027e-10	-5.031021e-11
	-6.925177e-11	-2.081173e-11	0.01117767	0.009051452	-1.201027e-10	-5.031021e-11	-0.02172606	-0.02357219
4.6e+08	-0.02737111	-0.0249594	-1.132833e-10	-4.386698e-11	0.01340932	0.007102412	-7.77011e-11	1.476614e-12
	-1.132833e-10	-4.386698e-11	-0.02827605	-0.02349012	-5.426163e-11	-3.248283e-11	0.01303684	0.00798321
	0.01340932	0.007102412	-5.426163e-11	-3.248283e-11	-0.02748987	-0.02507866	-1.291182e-10	-1.521966e-11
	-7.77011e-11	1.476614e-12	0.01303684	0.00798321	-1.291182e-10	-1.521966e-11	-0.0284836	-0.02348673
4.7e+08	-0.03391231	-0.02313019	-1.143676e-10	-1.221745e-11	0.01472549	0.005369565	-7.92186e-11	2.549968e-11
	-1.143676e-10	-1.221745e-11	-0.03468545	-0.0213629	-4.886329e-11	-2.215724e-11	0.01444367	0.006394728
