!$
! Info: Touchstone file created by Circ.  Input file=Tx_10in_Rx_85ohms_TxVia_10mils_RxVia_20mils.circ
!$
# Hz S RI R 50
0	0.008103062	7.970554e-26	1.226947e-12	1.749215e-28	6.754679e-05	1.015573e-23	-4.713487e-09	5.770875e-25
	1.228557e-12	1.751086e-28	0.00810591	9.213082e-26	-3.065194e-12	3.432726e-28	6.497705e-05	1.150508e-23
	6.759465e-05	1.016167e-23	-3.114105e-12	3.492386e-28	0.008117907	7.992021e-26	-1.291799e-09	1.581073e-25
	-4.711349e-09	5.768257e-25	6.643345e-05	1.184148e-23	-1.291844e-09	1.581128e-25	0.008111504	8.786069e-26
1e+07	0.0103941	-0.00966075	-1.517512e-12	-4.791359e-12	0.0002524371	0.001821291	-7.522523e-09	1.699956e-08
	-1.517472e-12	-4.791633e-12	0.01038033	-0.009495756	-2.878557e-12	-5.594514e-12	0.0003253691	0.001815275
	0.0002524413	0.001821288	-2.878565e-12	-5.594261e-12	0.01174318	-0.00938132	-5.104612e-09	1.626618e-08
	-7.522523e-09	1.699956e-08	0.0003254016	0.001815263	-5.104612e-09	1.626618e-08	0.01036346	-0.009489073
2e+07	0.009856418	-0.02185667	-2.757882e-12	-7.15619e-12	0.0008277493	0.003558234	-4.220721e-09	1.452153e-08
	-2.758063e-12	-7.15632e-12	0.00999295	-0.02159048	-2.623241e-12	-1.013017e-11	0.0009201114	0.003485067
	0.000827748	0.003558231	-2.623088e-12	-1.013002e-11	0.01122174	-0.02190053	-5.69234e-09	1.34021e-08
	-4.220721e-09	1.452153e-08	0.0009201083	0.003485045	-5.69234e-09	1.34021e-08	0.009983085	-0.02156715
3e+07	0.005852651	-0.03453292	-5.95726e-12	-7.757032e-12	0.001786731	0.005060365	-1.120168e-09	1.283165e-08
	-5.957294e-12	-7.757008e-12	0.006088411	-0.03425427	-8.316355e-12	-1.206239e-11	0.001827815	0.0049745
	0.001786731	0.005060364	-8.316319e-12	-1.206241e-11	0.007211099	-0.03475377	-1.160968e-09	1.337057e-08
	-1.120168e-09	1.283165e-08	0.00182781	0.004974498	-1.160968e-09	1.337057e-08	0.006084374	-0.03422126
4e+07	-0.00104812	-0.04629521	-8.64114e-12	-6.774605e-12	0.003013817	0.006307763	1.277087e-09	1.139931e-08
	-8.641107e-12	-6.774612e-12	-0.0007489105	-0.04603043	-1.119223e-11	-1.162499e-11	0.003004626	0.006227566
	0.003013818	0.006307762	-1.119227e-11	-1.162498e-11	0.0002788914	-0.04667047	2.157982e-09	1.217447e-08
	1.277087e-09	1.139931e-08	0.003004625	0.006227567	2.157982e-09	1.217447e-08	-0.0007488475	-0.04599142
5e+07	-0.01038321	-0.05645613	-1.072267e-11	-5.756172e-12	0.004449753	0.007256631	3.288066e-09	1.036765e-08
	-1.072265e-11	-5.756183e-12	-0.01004975	-0.05621496	-1.324399e-11	-1.181681e-11	0.004392467	0.007196541
	0.004449754	0.00725663	-1.324401e-11	-1.181679e-11	-0.009110255	-0.05697301	4.315144e-09	1.143745e-08
	3.288066e-09	1.036765e-08	0.004392467	0.007196541	4.315144e-09	1.143745e-08	-0.01004821	-0.05617041
6e+07	-0.02165875	-0.06452438	-1.485876e-11	-5.893608e-12	0.006025774	0.007874935	5.681818e-09	9.967768e-09
	-1.485875e-11	-5.893574e-12	-0.0213151	-0.0643074	-1.627696e-11	-1.570743e-11	0.005924512	0.007847648
	0.006025775	0.007874934	-1.627696e-11	-1.570747e-11	-0.02046053	-0.0651708	5.241166e-09	1.278395e-08
	5.681818e-09	9.967768e-09	0.005924509	0.007847649	5.241166e-09	1.278395e-08	-0.02131333	-0.0642566
7e+07	-0.0343371	-0.07015222	-3.479181e-11	-3.666181e-12	0.007668267	0.008145907	1.18616e-08	1.075652e-08
	-3.479175e-11	-3.666072e-12	-0.03400258	-0.06995438	8.228174e-12	-1.998502e-11	0.007529281	0.008162699
	0.007668268	0.008145907	8.228235e-12	-1.998513e-11	-0.0332323	-0.07091502	-2.762895e-09	1.640733e-08
	1.18616e-08	1.075652e-08	0.007529276	0.008162702	-2.762895e-09	1.640733e-08	-0.03400131	-0.06989672
8e+07	-0.04784894	-0.07312378	-5.487926e-11	5.592511e-10	0.009302867	0.008068845	9.106793e-09	-3.311655e-08
	-5.487908e-11	5.592509e-10	-0.04753868	-0.07293702	-3.341085e-11	6.254861e-12	0.009134573	0.008139498
	0.009302869	0.008068845	-3.341079e-11	6.254832e-12	-0.04685439	-0.07398871	-5.432274e-09	3.678168e-09
	9.106794e-09	-3.311655e-08	0.009134568	0.008139503	-5.432274e-09	3.678168e-09	-0.04753875	-0.07287166
9e+07	-0.06161247	-0.07334982	-7.503313e-11	-4.438771e-11	0.01085826	0.0076586	-2.061283e-09	-2.689884e-09
	-7.503313e-11	-4.438778e-11	-0.06133895	-0.07316565	-3.202703e-11	-1.592107e-11	0.0106713	0.007791302
	0.01085826	0.0076586	-3.202703e-11	-1.592106e-11	-0.06074411	-0.07430239	-1.487201e-09	7.358639e-10
	-2.061283e-09	-2.689884e-09	0.0106713	0.007791306	-1.487201e-09	7.358638e-10	-0.06134095	-0.07309111
1e+08	-0.07504905	-0.07085811	-2.468896e-11	2.41521e-12	0.01226986	0.006944314	-2.047336e-11	1.530007e-11
	-2.468896e-11	2.41521e-12	-0.07483225	-0.07067554	-3.184128e-11	-1.903581e-11	0.01207869	0.007146709
	0.01226986	0.006944314	-3.184128e-11	-1.903581e-11	-0.07432986	-0.07188919	-3.575254e-11	1.063127e-11
	-2.047336e-11	1.530007e-11	0.01207869	0.007146708	-3.575254e-11	1.063127e-11	-0.07483631	-0.07058993
1.1e+08	-0.08761241	-0.06585179	-2.258988e-11	8.792981e-12	0.01348181	0.005963972	-1.947361e-11	2.028494e-11
	-2.258988e-11	8.792981e-12	-0.08747861	-0.0656056	-3.277974e-11	-1.601321e-11	0.01330411	0.006228335
	0.01348181	0.005963972	-3.277974e-11	-1.601321e-11	-0.08706977	-0.06690083	-3.329163e-11	1.957137e-11
	-1.947361e-11	2.028494e-11	0.01330411	0.006228335	-3.329163e-11	1.957137e-11	-0.08748291	-0.06550665
1.2e+08	-0.09886215	-0.05853719	-2.084919e-11	1.2733e-11	0.01444559	0.004769419	-1.791512e-11	2.486557e-11
	-2.084919e-11	1.2733e-11	-0.09877198	-0.05820073	-3.2912e-11	-1.448266e-11	0.01428805	0.005091955
	0.01444559	0.004769418	-3.2912e-11	-1.448266e-11	-0.0984726	-0.05957069	-3.079139e-11	2.578489e-11
	-1.791512e-11	2.486557e-11	0.01428805	0.005091955	-3.079139e-11	2.578489e-11	-0.0987741	-0.05808717
1.3e+08	-0.1083654	-0.04923925	-1.837397e-11	1.620592e-11	0.01512822	0.003417926	-1.530034e-11	2.940802e-11
	-1.837397e-11	1.620592e-11	-0.10829	-0.04880387	-3.253587e-11	-1.289982e-11	0.01499964	0.003794792
	0.01512822	0.003417926	-3.253587e-11	-1.289982e-11	-0.1081127	-0.05023599	-2.716708e-11	3.148271e-11
	-1.530034e-11	2.940802e-11	0.01499964	0.003794792	-2.716708e-11	3.148271e-11	-0.1082874	-0.04867523
1.4e+08	-0.1157768	-0.038361	-1.477793e-11	1.922305e-11	0.01550848	0.0019703	-1.167299e-11	3.358497e-11
	-1.477793e-11	1.922305e-11	-0.1156901	-0.03782677	-3.152487e-11	-1.125397e-11	0.01541751	0.002395807
	0.01550848	0.0019703	-3.152487e-11	-1.125397e-11	-0.1156451	-0.03930478	-2.195854e-11	3.655074e-11
	-1.167299e-11	3.358497e-11	0.01541751	0.002395807	-2.195854e-11	3.655074e-11	-0.1156799	-0.0376833
1.5e+08	-0.1208425	-0.02635991	-1.019612e-11	2.169714e-11	0.01557727	0.0004888398	-7.043712e-12	3.720371e-11
	-1.019612e-11	2.169714e-11	-0.1207213	-0.02573381	-2.986157e-11	-9.743743e-12	0.01553167	0.0009553257
	0.01557727	0.0004888398	-2.986157e-11	-9.743743e-12	-0.1208159	-0.0272384	-1.53462e-11	4.081183e-11
	-7.043712e-12	3.720371e-11	0.01553167	0.0009553257	-1.53462e-11	4.081183e-11	-0.1207007	-0.02557657
1.6e+08	-0.1234058	-0.0137285	-4.736725e-12	2.336204e-11	0.01533729	-0.0009647356	-1.520494e-12	4.000463e-11
	-4.736725e-12	2.336204e-11	-0.1232304	-0.01302331	-2.75844e-11	-8.550814e-12	0.01534333	-0.0004667616
	0.01533729	-0.0009647356	-2.75844e-11	-8.550814e-12	-0.1234685	-0.01453268	-7.494562e-12	4.388683e-11
	-1.520494e-12	4.000463e-11	0.01534333	-0.0004667616	-7.494562e-12	4.388683e-11	-0.1231968	-0.01285415
1.7e+08	-0.1234099	-0.0009752244	1.430564e-12	2.398062e-11	0.01480241	-0.002331163	4.729229e-12	4.175425e-11
	1.430564e-12	2.398062e-11	-0.1231651	-0.0002084095	-2.477542e-11	-7.839747e-12	0.0148644	-0.00181271
	0.01480241	-0.002331163	-2.477542e-11	-7.839747e-12	-0.1235464	-0.001698961	1.344123e-12	4.54408e-11
	4.729229e-12	4.175425e-11	0.0148644	-0.00181271	1.344123e-12	4.54408e-11	-0.1231163	-2.993563e-05
1.8e+08	-0.1208978	0.0113944	8.079397e-12	2.335652e-11	0.01399692	-0.003555303	1.148266e-11	4.225721e-11
	8.079397e-12	2.335652e-11	-0.1205733	0.01220178	-2.155678e-11	-7.751288e-12	0.0141168	-0.003028471
	0.01399692	-0.003555303	-2.155678e-11	-7.751288e-12	-0.1210931	0.01075466	1.083747e-11	4.51996e-11
	1.148266e-11	4.225721e-11	0.0141168	-0.003028471	1.083747e-11	4.51996e-11	-0.1205077	0.01238634
1.9e+08	-0.1160084	0.02289583	1.493532e-11	2.134672e-11	0.01295462	-0.004587659	1.846934e-11	4.136869e-11
	1.493532e-11	2.134672e-11	-0.1155998	0.02372041	-1.808571e-11	-8.393993e-12	0.01313167	-0.00406512
	0.01295462	-0.004587659	-1.808571e-11	-8.393993e-12	-0.1162483	0.02234139	2.058569e-11	4.296739e-11
	1.846934e-11	4.136869e-11	0.01313167	-0.00406512	2.058569e-11	4.296739e-11	-0.1155166	0.02390735
2e+08	-0.1089711	0.0330827	2.168802e-11	1.787253e-11	0.01171779	-0.005385802	2.538235e-11	3.900563e-11
	2.168802e-11	1.787253e-11	-0.1084801	0.03390015	-1.454705e-11	-9.835665e-12	0.0119485	-0.004880208
	0.01171779	-0.005385802	-1.454705e-11	-9.835665e-12	-0.1092423	0.03261288	3.013945e-11	3.864224e-11
	2.538235e-11	3.900563e-11	0.0119485	-0.004880208	3.013945e-11	3.864224e-11	-0.1083792	0.03408548
2.1e+08	-0.1000962	0.04156268	2.800639e-11	1.292808e-11	0.01033605	-0.005915714	3.189245e-11	3.515552e-11
	2.800639e-11	1.292808e-11	-0.09953069	0.04234913	-1.114315e-11	-1.209601e-11	0.0106141	-0.005439077
	0.01033605	-0.005915714	-1.114315e-11	-1.209601e-11	-0.1003866	0.04117509	3.902178e-11	3.222805e-11
	3.189245e-11	3.515552e-11	0.0106141	-0.005439076	3.902178e-11	3.222805e-11	-0.0994133	0.0425288
2.2e+08	-0.08976412	0.04801178	3.355592e-11	6.585113e-12	0.008865003	-0.006153076	3.766459e-11	2.988196e-11
	3.355592e-11	6.585113e-12	-0.08913817	0.04874525	-8.081202e-12	-1.514165e-11	0.009181318	-0.005716126
	0.008865003	-0.006153076	-8.081202e-12	-1.514165e-11	-0.0900628	0.04770254	4.67533e-11	2.384121e-11
	3.766459e-11	2.988196e-11	0.009181318	-0.005716126	4.67533e-11	2.384121e-11	-0.08900621	0.04891535
2.3e+08	-0.07841121	0.0521865	3.801713e-11	-1.006423e-12	0.007364533	-0.006084434	4.237579e-11	2.332616e-11
	3.801713e-11	-1.006423e-12	-0.07774433	0.05284831	-5.558749e-12	-1.888466e-11	0.007707616	-0.005696012
	0.007364533	-0.006084434	-5.558749e-12	-1.888466e-11	-0.07870853	0.05195051	5.287922e-11	1.371116e-11
	4.237579e-11	2.332616e-11	0.007707616	-0.005696012	5.287922e-11	1.371116e-11	-0.07760075	0.05300531
2.4e+08	-0.06651357	0.0539336	4.110427e-11	-9.622048e-12	0.005896917	-0.005708186	4.573374e-11	1.570453e-11
	4.110427e-11	-9.622048e-12	-0.06583011	0.05450965	-3.748608e-12	-2.318535e-11	0.006253207	-0.005374681
	0.005896917	-0.005708186	-3.748608e-12	-2.318535e-11	-0.06680135	0.05376476	5.699659e-11	2.174624e-12
	4.573374e-11	1.570453e-11	0.006253207	-0.005374681	5.699659e-11	2.174624e-12	-0.0656787	0.05465065
2.5e+08	-0.05456916	0.05319685	4.258284e-11	-1.897138e-11	0.004524524	-0.005035253	4.749462e-11	7.301117e-12
	4.258284e-11	-1.897138e-11	-0.0538972	0.05367871	-2.784441e-12	-2.785971e-11	0.004878932	-0.004760134
	0.004524524	-0.005035253	-2.784441e-12	-2.785971e-11	-0.05484071	0.05308831	5.878002e-11	-1.033751e-11
	4.749462e-11	7.301117e-12	0.004878932	-0.004760134	5.878002e-11	-1.033751e-11	-0.05374249	0.05380161
2.6e+08	-0.04307844	0.05002031	4.228498e-11	-2.871077e-11	0.00330726	-0.004089329	4.747831e-11	-1.544793e-12
	4.228498e-11	-2.871077e-11	-0.04244845	0.05040611	-2.748886e-12	-3.269119e-11	0.003643801	-0.003872783
	0.00330726	-0.004089329	-2.748886e-12	-3.269119e-11	-0.04332859	0.04996472	5.800413e-11	-2.331927e-11
	4.747831e-11	-1.544793e-12	0.003643801	-0.003872783	5.800413e-11	-2.331927e-11	-0.04229552	0.05050983
2.7e+08	-0.03252416	0.04454778	4.012147e-11	-3.845971e-11	0.002299811	-0.002906553	4.558205e-11	-1.045306e-11
	4.012147e-11	-3.845971e-11	-0.03196752	0.04484281	-3.665519e-12	-3.744588e-11	0.002602324	-0.002745264
	0.002299811	-0.002906553	-3.665519e-12	-3.744588e-11	-0.03274932	0.04453757	5.456079e-11	-3.621452e-11
	4.558205e-11	-1.045306e-11	0.002602324	-0.002745264	5.456079e-11	-3.621452e-11	-0.03182177	0.04492735
2.8e+08	-0.02335137	0.03701815	3.608953e-11	-4.781997e-11	0.001548839	-0.001534508	4.178918e-11	-1.902185e-11
	3.608953e-11	-4.781997e-11	-0.02289869	0.03723505	-5.495829e-12	-4.188967e-11	0.001801758	-0.001421602
	0.001548839	-0.001534508	-5.495829e-12	-4.188967e-11	-0.02354945	0.03704577	4.847005e-11	-4.844589e-11
	4.178918e-11	-1.902185e-11	0.001801758	-0.001421602	4.847005e-11	-4.844589e-11	-0.02276561	0.03730166
2.9e+08	-0.01594825	0.0277564	3.027548e-11	-5.639637e-11	0.001090339	-3.049397e-05	3.617303e-11	-2.684826e-11
	3.027548e-11	-5.639637e-11	-0.01562771	0.02791506	-8.141499e-12	-4.580557e-11	0.001279481	4.435556e-05
	0.001090339	-3.049396e-05	-8.141499e-12	-4.580557e-11	-0.01611862	0.02781465	3.988312e-11	-5.944596e-11
	3.617303e-11	-2.684826e-11	0.001279481	4.435556e-05	3.988312e-11	-5.944596e-11	-0.01551257	0.02796622
3e+08	-0.01062904	0.01716063	2.285216e-11	-6.381755e-11	0.0009473725	0.00154092	2.889569e-11	-3.354942e-11
	2.285216e-11	-6.381755e-11	-0.01046468	0.01728765	-1.145176e-11	-4.900936e-11	0.001060703	0.0015912
	0.0009473725	0.00154092	-1.145176e-11	-4.900936e-11	-0.01077236	0.01724286	2.907728e-11	-6.868848e-11
	2.889569e-11	-3.354942e-11	0.001060703	0.0015912	2.907728e-11	-6.868848e-11	-0.01037228	0.01732703
3.1e+08	-0.007619854	0.005685391	1.407063e-11	-6.975019e-11	0.001128409	0.003110956	2.02016e-11	-3.878291e-11
	1.407063e-11	-6.975019e-11	-0.007630011	0.005813129	-1.523785e-11	-5.134469e-11	0.001156748	0.003152853
	0.001128409	0.003110956	-1.523785e-11	-5.134469e-11	-0.007737921	0.005785754	1.644317e-11	-7.571737e-11
	2.02016e-11	-3.878291e-11	0.001156749	0.003152853	1.644317e-11	-7.571737e-11	-0.007564394	0.005845512
3.2e+08	-0.007048386	-0.00617797	4.252841e-12	-7.39206e-11	0.001626481	0.004610129	1.040604e-11	-4.226456e-11
	4.252841e-12	-7.39206e-11	-0.007244385	-0.006012635	-1.927051e-11	-5.27088e-11	0.001564107	0.004661911
	0.001626481	0.004610129	-1.927051e-11	-5.27088e-11	-0.007143895	-0.00606433	2.464868e-12	-8.017113e-11
	1.040604e-11	-4.226456e-11	0.001564107	0.004661911	2.464868e-12	-8.017113e-11	-0.007208597	-0.005981526
3.3e+08	-0.008938154	-0.01792288	-6.227993e-12	-7.614632e-11	0.002419266	0.005971934	-1.199998e-13	-4.378271e-11
	-6.227993e-12	-7.614632e-11	-0.009323296	-0.01768015	-2.330737e-11	-5.311386e-11	0.002264375	0.006053195
	0.002419266	0.005971934	-2.330737e-11	-5.311386e-11	-0.00901442	-0.01779971	-1.230477e-11	-8.180159e-11
	-1.199998e-13	-4.378271e-11	0.002264375	0.006053195	-1.230477e-11	-8.180159e-11	-0.009319121	-0.01764388
3.4e+08	-0.01320769	-0.02905	-1.696971e-11	-7.631628e-11	0.003470145	0.007136446	-1.096698e-11	-4.32078e-11
	-1.696971e-11	-7.631628e-11	-0.01377654	-0.02868895	-2.713205e-11	-5.259381e-11	0.00322515	0.007267246
	0.003470145	0.007136446	-2.713205e-11	-5.259381e-11	-0.01326833	-0.02891987	-2.726529e-11	-8.047309e-11
	-1.096698e-11	-4.32078e-11	0.00322515	0.007267246	-2.726529e-11	-8.047309e-11	-0.01380434	-0.02864066
3.5e+08	-0.01967475	-0.03908923	-2.755658e-11	-7.440557e-11	0.004730174	0.008053524	-2.170823e-11	-4.050035e-11
	-2.755658e-11	-7.440557e-11	-0.02041292	-0.03856979	-3.053706e-11	-5.123055e-11	0.004401804	0.008253467
	0.004730174	0.008053524	-3.053706e-11	-5.123055e-11	-0.01972344	-0.03895358	-4.181083e-11	-7.619926e-11
	-2.170823e-11	-4.050035e-11	0.004401804	0.008253467	-4.181083e-11	-7.619926e-11	-0.02047159	-0.03850248
3.6e+08	-0.02806534	-0.04762019	-3.757811e-11	-7.047443e-11	0.00614082	0.008685382	-3.191831e-11	-3.570884e-11
	-3.757811e-11	-7.047443e-11	-0.02894963	-0.04690508	-3.334222e-11	-4.915281e-11	0.005740017	0.008972678
	0.00614082	0.008685382	-3.334222e-11	-4.915281e-11	-0.02810554	-0.04747935	-5.535745e-11	-6.911867e-11
	-3.191831e-11	-3.570884e-11	0.005740017	0.008972678	-5.535745e-11	-6.911867e-11	-0.02903658	-0.04681198
3.7e+08	-0.03802693	-0.05428991	-4.664579e-11	-6.46631e-11	0.007637226	0.009008337	-4.119138e-11	-2.896633e-11
	-4.664579e-11	-6.46631e-11	-0.03902598	-0.05334664	-3.541069e-11	-4.652235e-11	0.007178829	0.009398885
	0.007637226	0.009008337	-3.541069e-11	-4.652235e-11	-0.03806158	-0.0541433	-6.736242e-11	-5.947822e-11
	-4.119138e-11	-2.896633e-11	0.007178829	0.009398885	-6.736242e-11	-5.947822e-11	-0.03913714	-0.0532215
3.8e+08	-0.04914496	-0.05882703	-5.440801e-11	-5.718433e-11	0.009151728	0.009013624	-4.915762e-11	-2.048331e-11
	-5.440801e-11	-5.718433e-11	-0.05022034	-0.05762964	-3.66485e-11	-4.352236e-11	0.008653964	0.00952018
	0.009151728	0.009013624	-3.66485e-11	-4.352236e-11	-0.04917634	-0.05867333	-7.734722e-11	-4.76259e-11
	-4.915762e-11	-2.048331e-11	0.008653964	0.00952018	-7.734722e-11	-4.76259e-11	-0.05035028	-0.05746706
3.9e+08	-0.06096178	-0.06105179	-6.05623e-11	-4.831344e-11	0.01061736	0.008707302	-5.549691e-11	-1.053738e-11
	-6.05623e-11	-4.831344e-11	-0.0620694	-0.05958238	-3.700591e-11	-4.034622e-11	0.01010115	0.009338757
	0.01061736	0.008707302	-3.700591e-11	-4.034622e-11	-0.06099136	-0.0608892	-8.491414e-11	-3.399364e-11
	-5.549691e-11	-1.053738e-11	0.01010115	0.009338757	-8.491414e-11	-3.399364e-11	-0.06221157	-0.05937811
4e+08	-0.07299683	-0.06088164	-6.486491e-11	-3.837682e-11	0.01197108	0.008109315	-5.994949e-11	5.387915e-13
	-6.486491e-11	-3.837682e-11	-0.07408869	-0.05913155	-3.64759e-11	-3.718718e-11	0.0114592	0.008870142
	0.01197108	0.008109315	-3.64759e-11	-3.718718e-11	-0.07302518	-0.06070815	-8.975842e-11	-1.907826e-11
	-5.994949e-11	5.387915e-13	0.0114592	0.008870142	-8.975842e-11	-1.907826e-11	-0.07423562	-0.05888273
4.1e+08	-0.08476694	-0.05833238	-6.713788e-11	-2.773969e-11	0.01315654	0.007251883	-6.232385e-11	1.237063e-11
	-6.713788e-11	-2.773969e-11	-0.08579319	-0.05630299	-3.509033e-11	-3.422972e-11	0.01267265	0.008141762
	0.01315654	0.007251883	-3.509033e-11	-3.422972e-11	-0.08479379	-0.058146	-9.167605e-11	-3.422103e-12
	-6.232385e-11	1.237063e-11	0.01267265	0.008141762	-9.167605e-11	-3.422103e-12	-0.08593681	-0.05600833
4.2e+08	-0.09580606	-0.05351517	-6.727382e-11	-1.679341e-11	0.01412624	0.006177406	-6.250174e-11	2.45552e-11
	-6.727382e-11	-1.679341e-11	-0.09671706	-0.05121824	-3.291465e-11	-3.164292e-11	0.0136939	0.007191066
	0.01412624	0.006177406	-3.291465e-11	-3.164292e-11	-0.09583033	-0.05331418	-9.056796e-11	1.240635e-11
	-6.250174e-11	2.45552e-11	0.0136939	0.007191066	-9.056796e-11	1.240635e-11	-0.09684903	-0.05087812
4.3e+08	-0.1056833	-0.04662976	-6.523848e-11	-5.942832e-12	0.01484309	0.004936085	-6.044085e-11	3.667472e-11
	-6.523848e-11	-5.942832e-12	-0.1064318	-0.04408735	-3.004201e-11	-2.957621e-11	0.01448468	0.006063364
	0.01484309	0.004936085	-3.004201e-11	-2.957621e-11	-0.1057032	-0.04641295	-8.644116e-11	2.783102e-11
	-6.044085e-11	3.667472e-11	0.01448468	0.006063364	-8.644116e-11	2.783102e-11	-0.1065439	-0.0437039
4.4e+08	-0.1140187	-0.03795469	-6.107159e-11	4.406346e-12	0.01528131	0.003583458	-5.617546e-11	4.830964e-11
	-6.107159e-11	4.406346e-12	-0.1145621	-0.0351986	-2.658765e-11	-2.81572e-11	0.01501702	0.004809579
	0.01528131	0.003583458	-2.658765e-11	-2.81572e-11	-0.1140321	-0.03772146	-7.940724e-11	4.228606e-11
	-5.617546e-11	4.830964e-11	0.01501702	0.004809579	-7.940724e-11	4.228606e-11	-0.1146465	-0.03477564
4.5e+08	-0.1204968	-0.02783485	-5.488593e-11	1.385992e-11	0.01542682	0.002177983	-4.981535e-11	5.905143e-11
	-5.488593e-11	1.385992e-11	-0.120799	-0.02490562	-2.268449e-11	-2.7491e-11	0.01527371	0.003484044
	0.01542682	0.002177983	-2.268449e-11	-2.7491e-11	-0.1205013	-0.02758538	-6.9679e-11	5.523279e-11
	-4.981535e-11	5.905143e-11	0.01527371	0.003484044	-6.9679e-11	5.523279e-11	-0.1208487	-0.02444858
4.6e+08	-0.1248772	-0.01666727	-4.686473e-11	2.204733e-11	0.01527715	0.0007787772	-4.154311e-11	6.851483e-11
	-4.686473e-11	2.204733e-11	-0.1249103	-0.01361282	-1.848011e-11	-2.766019e-11	0.01524831	0.002142433
	0.01527715	0.0007787773	-1.848011e-11	-2.766019e-11	-0.1248701	-0.01640252	-5.756483e-11	6.617597e-11
	-4.154311e-11	6.851483e-11	0.01524831	0.002142433	-5.756483e-11	6.617597e-11	-0.1249195	-0.01312855
4.7e+08	-0.1270017	-0.004885558	-3.725743e-11	2.863332e-11	0.014841	-0.0005564275	-3.160993e-11	7.634971e-11
	-3.725743e-11	2.863332e-11	-0.1267478	-0.001759421	-1.413525e-11	-2.872442e-11	0.01494487	0.0008398717
	0.014841	-0.0005564275	-1.413525e-11	-2.872442e-11	-0.1269806	-0.004607282	-4.346125e-11	7.467935e-11
