!$
! Info: Touchstone file created by Circ.  Input file=Tx_16in_Rx_100ohms_TxVia_10mils_RxVia_20mils1.circ
!$
# Hz S RI R 50
0	0.01647581	9.803585e-26	-8.508985e-05	1.267896e-25	9.761315e-05	1.751238e-23	-8.511496e-05	2.901955e-24
	-8.508987e-05	1.289319e-25	0.01647643	1.376225e-25	-8.508209e-05	2.371171e-26	9.571141e-05	2.347463e-23
	9.631378e-05	1.706345e-23	-8.508209e-05	2.389665e-26	0.01649082	1.026239e-25	-8.509145e-05	3.143036e-25
	-8.511494e-05	2.900213e-24	9.716467e-05	2.416102e-23	-8.509142e-05	3.10565e-25	0.01648193	1.312075e-25
1e+07	0.02445999	0.008739323	-0.0002955512	5.050828e-05	0.001161524	0.002748979	-0.00011401	1.906918e-07
	-0.0002955512	5.050827e-05	0.02469662	0.008700877	-7.920568e-06	0.0001979798	0.001156418	0.002747061
	0.001161479	0.002748982	-7.920567e-06	0.0001979798	0.02471557	0.008699402	-0.0002955617	5.048996e-05
	-0.00011401	1.906943e-07	0.001156452	0.00274705	-0.0002955617	5.048996e-05	0.0244743	0.008742848
2e+07	0.03236765	0.0105497	-0.0002501794	-5.365809e-05	0.002290132	0.00548297	-9.14801e-05	-4.724113e-06
	-0.0002501794	-5.365809e-05	0.03250704	0.01040951	-3.517357e-05	0.0003405027	0.002271685	0.005484151
	0.002290122	0.005482998	-3.517357e-05	0.0003405027	0.0325382	0.01040183	-0.0002502075	-5.369287e-05
	-9.14801e-05	-4.724112e-06	0.002271683	0.005484129	-0.0002502075	-5.369287e-05	0.03237484	0.01055654
3e+07	0.03875866	0.008646084	-0.0002227958	-7.939406e-05	0.004144051	0.007441648	-8.06274e-05	-1.432231e-05
	-0.0002227958	-7.939406e-05	0.0388086	0.008486294	-8.953603e-05	0.0004325056	0.004106887	0.00745412
	0.004144051	0.007441653	-8.953603e-05	0.0004325056	0.03885713	0.008464677	-0.0002228587	-7.946516e-05
	-8.06274e-05	-1.432231e-05	0.004106882	0.007454118	-0.0002228587	-7.946516e-05	0.03875539	0.008660828
4e+07	0.04368324	0.004625869	-0.0002056025	-8.905846e-05	0.006518929	0.008609857	-7.292482e-05	-1.805415e-05
	-0.0002056025	-8.905846e-05	0.04365146	0.00448267	-0.0001103805	0.0005119104	0.006461598	0.008643629
	0.006518925	0.008609854	-0.0001103805	0.0005119104	0.04371832	0.004437085	-0.0002057213	-8.917533e-05
	-7.292482e-05	-1.805415e-05	0.006461598	0.008643631	-0.0002057213	-8.917533e-05	0.04366603	0.004652711
5e+07	0.04694139	-0.0008186995	-0.000193211	-9.180276e-05	0.009274027	0.008753673	-6.697995e-05	-1.970288e-05
	-0.000193211	-9.180276e-05	0.04684122	-0.0009183599	-0.0001061242	0.0005832832	0.009199393	0.008818702
	0.009274025	0.008753672	-0.0001061242	0.0005832832	0.04692245	-0.0009980078	-0.0001934169	-9.196106e-05
	-6.697995e-05	-1.970288e-05	0.009199392	0.008818702	-0.0001934169	-9.196106e-05	0.04690914	-0.0007719793
6e+07	0.04837432	-0.007091714	-0.000182798	-9.129167e-05	0.01187725	0.00804689	-6.221782e-05	-2.054908e-05
	-0.000182798	-9.129167e-05	0.04822458	-0.007128061	-8.323998e-05	0.0006457638	0.01179258	0.008151767
	0.01187726	0.008046888	-8.323998e-05	0.0006457638	0.04831171	-0.007249823	-0.0001831241	-9.14693e-05
	-6.221782e-05	-2.054908e-05	0.01179258	0.008151768	-0.0001831241	-9.14693e-05	0.0483305	-0.007017477
7e+07	0.0479234	-0.01362362	-0.0001902461	-5.276169e-05	0.01408365	0.006586674	-5.743275e-05	-2.140008e-05
	-0.0001902461	-5.276168e-05	0.04774697	-0.01358462	-4.751449e-05	0.0006977816	0.01399964	0.006736786
	0.01408366	0.006586668	-4.751449e-05	0.0006977816	0.04782812	-0.01375271	-0.0001906964	-5.289956e-05
	-5.743275e-05	-2.140009e-05	0.01399963	0.006736788	-0.0001906964	-5.289956e-05	0.04787435	-0.01351638
8e+07	0.04565538	-0.01987133	-0.0001923799	1.440006e-05	0.01568799	0.004537943	-5.761039e-05	-6.284091e-06
	-0.0001923799	1.440007e-05	0.04547707	-0.01975333	-6.825485e-06	0.0007388869	0.01561737	0.004734293
	0.015688	0.004537933	-6.825485e-06	0.0007388869	0.04553872	-0.01996695	-0.0001929289	1.434372e-05
	-5.761039e-05	-6.284092e-06	0.01561736	0.004734297	-0.0001929289	1.434372e-05	0.04560929	-0.01972801
9e+07	0.04176627	-0.02534242	-0.0001712683	7.778885e-05	0.01654403	0.002118973	-5.333732e-05	1.301733e-05
	-0.0001712683	7.778885e-05	0.04161048	-0.02515023	2.817557e-05	0.0007718023	0.01649984	0.002357551
	0.01654403	0.002118964	2.817557e-05	0.0007718023	0.04163951	-0.02540314	-0.0001718939	7.785525e-05
	-5.333732e-05	1.301733e-05	0.01649984	0.002357555	-0.0001718939	7.785525e-05	0.04173275	-0.02516283
1e+08	0.03658419	-0.02962603	-0.0001211202	0.0001311903	0.01657134	-0.0004186062	-4.034136e-05	2.963263e-05
	-0.0001211202	0.0001311903	0.03647419	-0.02937251	2.82855e-05	0.0008038279	0.01656503	-0.0001467895
	0.01657134	-0.0004186061	2.82855e-05	0.0008038279	0.03645992	-0.02965336	-0.0001217841	0.0001314074
	-4.034136e-05	2.963263e-05	0.01656503	-0.0001467896	-0.0001217841	0.0001314074	0.03657345	-0.02941381
1.1e+08	0.03045078	-0.03250378	-6.609601e-05	0.0001395086	0.01580691	-0.002776462	-2.611313e-05	3.269766e-05
	-6.609601e-05	0.0001395086	0.03039736	-0.03221508	2.339484e-05	0.0007551788	0.01584616	-0.002485102
	0.01580691	-0.002776462	2.339484e-05	0.0007551788	0.03033312	-0.03251099	-6.677548e-05	0.0001398964
	-2.611313e-05	3.269766e-05	0.01584616	-0.002485102	-6.677548e-05	0.0001398964	0.03047077	-0.03226678
1.2e+08	0.02380034	-0.03366043	-2.597954e-05	0.0001378088	0.01435665	-0.00476855	-1.609493e-05	3.378374e-05
	-2.597954e-05	0.0001378088	0.02380501	-0.03335559	4.411579e-05	0.000716256	0.0144446	-0.004473628
	0.01435665	-0.00476855	4.411579e-05	0.000716256	0.02368906	-0.03364729	-2.660625e-05	0.0001383782
	-1.609493e-05	3.378374e-05	0.0144446	-0.004473628	-2.660625e-05	0.0001383782	0.02385682	-0.03341011
1.3e+08	0.01717006	-0.03304924	6.55691e-06	0.0001293562	0.01235853	-0.006198047	-7.669366e-06	3.345975e-05
	6.55691e-06	0.0001293562	0.01723077	-0.03274819	6.62872e-05	0.0006864995	0.0124924	-0.005916666
	0.01235853	-0.006198047	6.62872e-05	0.0006864995	0.01706888	-0.03301643	6.045741e-06	0.0001300844
	-7.669366e-06	3.345975e-05	0.0124924	-0.005916666	6.045741e-06	0.0001300844	0.01726434	-0.0327992
1.4e+08	0.01105855	-0.03077215	3.249038e-05	0.0001163896	0.01001485	-0.006923657	-4.04282e-07	3.201711e-05
	3.249038e-05	0.0001163896	0.01116712	-0.03049384	8.842925e-05	0.0006669514	0.01018567	-0.006671846
	0.01001485	-0.006923656	8.842925e-05	0.0006669514	0.01097195	-0.03072205	3.214027e-05	0.0001172291
	-4.04282e-07	3.201711e-05	0.01018567	-0.006671846	3.214027e-05	0.0001172291	0.01118684	-0.03053644
1.5e+08	0.005904381	-0.02706463	5.246269e-05	0.0001008104	0.007562905	-0.006875349	5.873894e-06	2.965446e-05
	5.246269e-05	0.0001008104	0.006046645	-0.02682488	0.0001130947	0.0006579178	0.007756065	-0.006665863
	0.007562905	-0.006875349	0.0001130947	0.0006579178	0.005836456	-0.02700129	5.229312e-05	0.0001017001
	5.873894e-06	2.965446e-05	0.007756065	-0.006665863	5.229312e-05	0.0001017001	0.006057743	-0.02685583
1.6e+08	0.002054105	-0.02227244	6.728025e-05	8.413555e-05	0.005249641	-0.006061347	1.122904e-05	2.652599e-05
	6.728025e-05	8.413555e-05	0.002210961	-0.02208189	0.0001441769	0.0006580511	0.005446154	-0.005901721
	0.005249641	-0.006061347	0.0001441769	0.0006580511	0.002007796	-0.02220124	6.728139e-05	8.50152e-05
	1.122904e-05	2.652599e-05	0.005446154	-0.005901721	6.728139e-05	8.50152e-05	0.002219076	-0.02209982
1.7e+08	-0.0002633184	-0.01682005	7.792936e-05	6.740159e-05	0.003306188	-0.00456679	1.567421e-05	2.276833e-05
	7.792936e-05	6.740159e-05	-0.0001141047	-0.01668267	0.000185437	0.0006641532	0.003484616	-0.004457914
	0.003306188	-0.00456679	0.000185437	0.0006641532	-0.0002866907	-0.01674726	7.806607e-05	6.822558e-05
	1.567421e-05	2.276833e-05	0.003484616	-0.004457914	7.806607e-05	6.822558e-05	-0.0001034436	-0.01668804
1.8e+08	-0.0009523579	-0.0111733	8.542887e-05	5.112416e-05	0.001924445	-0.002544448	1.919877e-05	1.851545e-05
	8.542887e-05	5.112416e-05	-0.0008338571	-0.01108543	0.0002394552	0.0006714769	0.002063258	-0.002479842
	0.001924445	-0.002544448	0.0002394552	0.0006714769	-0.0009533413	-0.01110544	8.565132e-05	5.187274e-05
	1.919877e-05	1.851545e-05	0.002063258	-0.002479842	8.565132e-05	5.187274e-05	-0.0008157387	-0.01108039
1.9e+08	-5.546298e-05	-0.005799145	9.064063e-05	3.53489e-05	0.001238044	-0.0001985804	2.178498e-05	1.390692e-05
	9.064063e-05	3.53489e-05	1.099884e-05	-0.0057494	0.0003069456	0.0006743942	0.001318153	-0.0001645129
	0.001238044	-0.0001985803	0.0003069456	0.0006743942	-3.649311e-05	-0.005742426	9.089934e-05	3.603252e-05
	2.178498e-05	1.390692e-05	0.001318153	-0.0001645129	9.089934e-05	3.603252e-05	4.040406e-05	-0.005737522
2e+08	0.002254138	-0.001126119	9.41082e-05	1.979161e-05	0.001309533	0.002236213	2.342065e-05	9.091405e-06
	9.41082e-05	1.979161e-05	0.002251531	-0.001096139	0.0003864799	0.0006672584	0.001316714	0.002259747
	0.001309533	0.002236213	0.0003864799	0.0006672584	0.002288901	-0.001085826	9.436986e-05	2.044739e-05
	2.342065e-05	9.091405e-06	0.001316714	0.002259747	9.436986e-05	2.044739e-05	0.002294615	-0.001081986
2.1e+08	0.005690666	0.002491106	9.597171e-05	4.038345e-06	0.002124965	0.004518884	2.410938e-05	4.226148e-06
	9.597171e-05	4.038345e-06	0.005608486	0.00252503	0.0004746296	0.000645282	0.002051883	0.004556386
	0.002124965	0.004518884	0.0004746296	0.000645282	0.005735661	0.00251107	9.623172e-05	4.718924e-06
	2.410938e-05	4.226148e-06	0.002051883	0.004556386	9.623172e-05	4.718924e-06	0.005665981	0.002536399
2.2e+08	0.00988328	0.004799981	9.598103e-05	-1.22378e-05	0.003596253	0.006426075	2.387871e-05	-5.273529e-07
	9.598103e-05	-1.22378e-05	0.009719181	0.004864601	0.0005664696	0.0006052534	0.003443823	0.006504133
	0.003596253	0.006426075	0.0005664696	0.0006052534	0.009931998	0.004797475	9.626945e-05	-1.148079e-05
	2.387871e-05	-5.273529e-07	0.003443823	0.006504133	9.626945e-05	-1.148079e-05	0.009790095	0.004868178
2.3e+08	0.01441024	0.005668871	9.360541e-05	-2.909237e-05	0.005570838	0.007774074	2.278525e-05	-5.010733e-06
	9.360541e-05	-2.909237e-05	0.01417084	0.005791183	0.0006563293	0.000545964	0.005348745	0.007918566
	0.005570838	0.007774074	0.0006563293	0.000545964	0.01445577	0.005643739	9.398423e-05	-2.822646e-05
	2.278525e-05	-5.010733e-06	0.005348745	0.007918566	9.398423e-05	-2.822646e-05	0.01425257	0.005782556
2.4e+08	0.01883658	0.005094918	8.821357e-05	-4.619935e-05	0.007847555	0.008436506	2.091608e-05	-9.077855e-06
	8.821357e-05	-4.619935e-05	0.01853733	0.005299172	0.0007386444	0.0004682777	0.007573821	0.008669708
	0.007847555	0.008436506	0.0007386444	0.0004682777	0.01887222	0.005049051	8.876512e-05	-4.522668e-05
	2.091608e-05	-9.077855e-06	0.007573821	0.008669708	8.876512e-05	-4.522668e-05	0.01862594	0.005275011
2.5e+08	0.02275202	0.003200601	7.92846e-05	-6.283527e-05	0.01019698	0.008356142	1.838584e-05	-1.260412e-05
	7.92846e-05	-6.283527e-05	0.02241605	0.003505454	0.0008087264	0.0003748386	0.009896597	0.008694062
	0.01019698	0.008356143	0.0008087264	0.0003748386	0.02277184	0.003137822	8.009335e-05	-6.180131e-05
	1.838584e-05	-1.260412e-05	0.009896597	0.008694062	8.009335e-05	-6.180131e-05	0.02250667	0.003463888
2.6e+08	0.02580565	0.0002195695	6.660178e-05	-7.796494e-05	0.01238426	0.007549848	1.533032e-05	-1.549389e-05
	6.660178e-05	-7.796494e-05	0.02546175	0.0006356886	0.0008633277	0.0002694999	0.01208696	0.008000077
	0.01238426	0.007549848	0.0008633277	0.0002694999	0.02580509	0.0001453391	6.773315e-05	-7.695789e-05
	1.533032e-05	-1.549389e-05	0.01208696	0.008000077	6.773315e-05	-7.695789e-05	0.02554912	0.0005765278
2.7e+08	0.02773476	-0.003526733	5.038786e-05	-9.040729e-05	0.01419215	0.006106304	1.189761e-05	-1.768492e-05
	5.038786e-05	-9.040729e-05	0.0274146	-0.002998338	0.0009008909	0.0001565936	0.01392957	0.006666662
	0.01419215	0.006106304	0.0009008909	0.0001565936	0.02771104	-0.00360577	5.186866e-05	-8.954738e-05
	1.189761e-05	-1.768492e-05	0.01392957	0.006666662	5.186866e-05	-8.954738e-05	0.0274936	-0.003073545
2.8e+08	0.02838523	-0.00765945	3.134973e-05	-9.90486e-05	0.01544225	0.004176842	8.238729e-06	-1.914911e-05
	3.134973e-05	-9.90486e-05	0.02812014	-0.007028123	0.0009214691	4.018855e-05	0.01524469	0.00483498
	0.01544225	0.004176842	0.0009214691	4.018855e-05	0.02833769	-0.007736029	3.315505e-05	-9.846899e-05
	8.238729e-06	-1.914911e-05	0.01524469	0.00483498	3.315505e-05	-9.846899e-05	0.02818638	-0.007116212
2.9e+08	0.02772221	-0.01177694	1.062295e-05	-0.0001030559	0.01601225	0.001960277	4.498963e-06	-1.989027e-05
	1.062295e-05	-0.0001030559	0.02753976	-0.011062	0.0009263336	-7.650986e-05	0.01590543	0.002694351
	0.01601225	0.001960277	0.0009263336	-7.650986e-05	0.0276524	-0.01184384	1.267273e-05	-0.0001028788
	4.498963e-06	-1.989027e-05	0.01590543	0.002694351	1.267273e-05	-0.0001028788	0.02759004	-0.01115851
3e+08	0.0258301	-0.01549063	-1.037517e-05	-0.0001020471	0.01584782	-0.0003167982	8.111884e-07	-1.993948e-05
	-1.037517e-05	-0.0001020471	0.02575099	-0.01471993	0.0009173812	-0.0001915087	0.01584986	0.0004635795
	0.01584782	-0.0003167982	0.0009173812	-0.0001915087	0.02574174	-0.01554135	-8.208377e-06	-0.00010236
	8.111884e-07	-1.993948e-05	0.01584986	0.0004635795	-8.208377e-06	-0.00010236	0.0257837	-0.01481952
3.1e+08	0.02290231	-0.01845904	-3.01564e-05	-9.618047e-05	0.01496779	-0.002422422	-2.708522e-06	-1.934957e-05
	-3.01564e-05	-9.618047e-05	0.02293776	-0.01766645	0.0008964699	-0.0003040743	0.01508694	-0.001630529
	0.01496779	-0.002422422	0.0008964699	-0.0003040743	0.02280098	-0.01848842	-2.802937e-05	-9.701778e-05
	-2.708522e-06	-1.934957e-05	0.01508694	-0.001630529	-2.802937e-05	-9.701778e-05	0.02295307	-0.01776349
3.2e+08	0.0192216	-0.02041704	-4.739183e-05	-8.614267e-05	0.0134622	-0.00414222	-5.963529e-06	-1.818915e-05
	-4.739183e-05	-8.614267e-05	0.01937157	-0.01963926	0.0008648204	-0.00041446	0.01369537	-0.003375441
	0.0134622	-0.00414222	0.0008648204	-0.00041446	0.01911426	-0.02042181	-4.546581e-05	-8.747689e-05
	-5.963529e-06	-1.818915e-05	0.01369537	-0.003375441	-4.546581e-05	-8.747689e-05	0.01937149	-0.01972838
3.3e+08	0.01513283	-0.02119795	-6.111605e-05	-7.303702e-05	0.01148337	-0.005300706	-8.877476e-06	-1.653698e-05
	-6.111605e-05	-7.303702e-05	0.0153855	-0.02047079	0.0008226216	-0.0005234009	0.01181585	-0.004593818
	0.01148337	-0.005300706	0.0008226216	-0.0005234009	0.01502722	-0.02117708	-5.952995e-05	-7.47819e-05
	-8.877476e-06	-1.653698e-05	0.01181585	-0.004593818	-5.952995e-05	-7.47819e-05	0.01537365	-0.02054748
3.4e+08	0.01101074	-0.02074651	-7.08627e-05	-5.819266e-05	0.009230663	-0.005778784	-1.139375e-05	-1.447681e-05
	-7.08627e-05	-5.819266e-05	0.01134302	-0.02010107	0.000768916	-0.0006314891	0.009636982	-0.005161018
	0.009230663	-0.005778784	0.000768916	-0.0006314891	0.01091466	-0.02070139	-6.971018e-05	-6.021817e-05
	-1.139375e-05	-1.447681e-05	0.009636982	-0.005161018	-6.971018e-05	-6.021817e-05	0.01132438	-0.02016215
3.5e+08	0.007225362	-0.01912172	-7.670155e-05	-4.293437e-05	0.006930547	-0.005525665	-1.347381e-05	-1.209267e-05
	-7.670155e-05	-4.293437e-05	0.007604788	-0.01858086	0.0007017955	-0.0007385506	0.007376559	-0.005017399
	0.006930547	-0.005525665	0.0007017955	-0.0007385506	0.007145917	-0.01905608	-7.601695e-05	-4.50906e-05
	-1.347381e-05	-1.209267e-05	0.007376559	-0.005017399	-7.601695e-05	-4.50906e-05	0.007585125	-0.0186249
3.6e+08	0.004108487	-0.01648927	-7.917112e-05	-2.836099e-05	0.004813825	-0.00456393	-1.509418e-05	-9.465378e-06
	-7.917112e-05	-2.836099e-05	0.004496089	-0.01606485	0.0006188644	-0.0008431863	0.005259768	-0.00417414
	0.004813825	-0.00456393	0.0006188644	-0.0008431863	0.004051382	-0.01640892	-7.892761e-05	-3.050603e-05
	-1.509418e-05	-9.465378e-06	0.005259768	-0.00417414	-7.892761e-05	-3.050603e-05	0.004481426	-0.01609232
3.7e+08	0.00192399	-0.01310441	-7.912082e-05	-1.517924e-05	0.00309242	-0.002987166	-1.624268e-05	-6.670436e-06
	-7.912082e-05	-1.517924e-05	0.002278052	-0.0127955	0.00051788	-0.0009425612	0.003496725	-0.002711946
	0.00309242	-0.002987166	0.00051788	-0.0009425612	0.00189295	-0.0130167	-7.924151e-05	-1.720512e-05
	-1.624268e-05	-6.670436e-06	0.003496725	-0.002711946	-7.924151e-05	-1.720512e-05	0.002274019	-0.01280878
3.8e+08	0.0008448748	-0.009286846	-7.749848e-05	-3.627373e-06	0.001938076	-0.0009503982	-1.691448e-05	-3.778013e-06
	-7.749848e-05	-3.627373e-06	0.001125131	-0.009079173	0.0003974339	-0.001032507	0.002261536	-0.0007727435
	0.001938076	-0.0009503982	0.0003974339	-0.001032507	0.0008412267	-0.009200005	-7.787828e-05	-5.478134e-06
	-1.691448e-05	-3.778013e-06	0.002261536	-0.0007727435	-7.787828e-05	-5.478134e-06	0.001136373	-0.009082359
3.9e+08	0.0009390374	-0.005390067	-7.513015e-05	6.496641e-06	0.001465195	0.001345714	-1.710919e-05	-8.547932e-07
	-7.513015e-05	6.496641e-06	0.001110901	-0.005256922	0.0002575328	-0.001107921	0.001675074	0.001454771
	0.001465195	0.001345714	0.0002575328	-0.001107921	0.0009615279	-0.005312445	-7.566368e-05	4.818918e-06
	-1.710919e-05	-8.547932e-07	0.001675074	0.001454771	-7.566368e-05	4.818918e-06	0.001140569	-0.005255431
4e+08	0.002164992	-0.001768084	-7.254051e-05	1.571088e-05	0.00171957	0.003675234	-1.682985e-05	2.033001e-06
	-7.254051e-05	1.571088e-05	0.002203372	-0.001672509	9.996357e-05	-0.001163387	0.001793217	0.003754205
	0.00171957	0.003675234	9.996357e-05	-0.001163387	0.002209848	-0.001707335	-7.31499e-05	1.415379e-05
	-1.682985e-05	2.033001e-06	0.001793217	0.003754205	-7.31499e-05	1.415379e-05	0.002252765	-0.001672551
4.1e+08	0.004377815	0.001257274	-6.985305e-05	2.465973e-05	0.002674132	0.005809735	-1.608434e-05	4.816637e-06
	-6.985305e-05	2.465973e-05	0.004270097	0.001359138	-7.164333e-05	-0.001193906	0.002601706	0.005903186
	0.002674132	0.005809735	-7.164333e-05	-0.001193906	0.004439052	0.001294936	-7.050924e-05	2.314057e-05
	-1.608434e-05	4.816637e-06	0.002601706	0.005903186	-7.050924e-05	2.314057e-05	0.004338484	0.001351185
4.2e+08	0.007344558	0.003425458	-6.678995e-05	3.390246e-05	0.004232072	0.007541157	-1.488888e-05	7.423462e-06
	-6.678995e-05	3.390246e-05	0.007092405	0.003580174	-0.0002520576	-0.001195587	0.004018065	0.007695463
	0.004232072	0.007541157	-0.0002520576	-0.001195587	0.007414506	0.003435891	-6.752229e-05	3.233636e-05
	-1.488888e-05	7.423462e-06	0.004018065	0.007695463	-6.752229e-05	3.233636e-05	0.007177054	0.003558417
4.3e+08	0.01076748	0.004560032	-6.276981e-05	4.372807e-05	0.006236908	0.008702416	-1.327233e-05	9.778004e-06
	-6.276981e-05	4.372807e-05	0.01038724	0.004812246	-0.0004349541	-0.00116618	0.005900263	0.008961173
	0.006236908	0.008702416	-0.0004349541	-0.00116618	0.01083749	0.004541607	-6.366136e-05	4.205807e-05
	-1.327233e-05	9.778004e-06	0.005900263	0.008961173	-6.366136e-05	4.205807e-05	0.01048366	0.00477189
4.4e+08	0.0143128	0.004583272	-5.707919e-05	5.403817e-05	0.008488387	0.009183729	-1.12799e-05	1.180578e-05
	-5.707919e-05	5.403817e-05	0.01383442	0.004971111	-0.0006135853	-0.001105347	0.008061168	0.009583287
	0.008488387	0.009183729	-0.0006135853	-0.001105347	0.01437405	0.00453707	-5.824816e-05	5.226024e-05
	-1.12799e-05	1.180578e-05	0.008061168	0.009583287	-5.824816e-05	5.226024e-05	0.01393678	0.004908972
4.5e+08	0.01764208	0.00352136	-4.907875e-05	6.432299e-05	0.01076255	0.008943134	-8.974654e-06	1.343908e-05
	-4.907875e-05	6.432299e-05	0.01710663	0.00407235	-0.0007814918	-0.001014643	0.01028724	0.009508701
	0.01076255	0.008943134	-0.0007814918	-0.001014643	0.01768643	0.003451129	-5.064962e-05	6.250021e-05
	-8.974654e-06	1.343908e-05	0.01028724	0.009508701	-5.064962e-05	6.250021e-05	0.01720832	0.003987213
4.6e+08	0.02044347	0.001499966	-3.83972e-05	7.373551e-05	0.01283392	0.008010257	-6.436074e-06	1.462331e-05
	-3.83972e-05	7.373551e-05	0.01989938	0.002227875	-0.000933124	-0.0008972075	0.0123596	0.008752982
	0.01283392	0.008010257	-0.000933124	-0.0008972075	0.02046423	0.001411817	-4.046775e-05	7.199749e-05
	-6.436074e-06	1.462331e-05	0.0123596	0.008752982	-4.046775e-05	7.199749e-05	0.01999369	0.002120655
4.7e+08	0.02245974	-0.001269174	-2.507087e-05	8.124682e-05	0.01449768	0.006483073	-3.754595e-06	1.532179e-05
	-2.507087e-05	8.124682e-05	0.02195833	-0.0003661964	-0.001064255	-0.000757261	0.01407541	0.007398433
	0.01449768	0.006483073	-0.001064255	-0.000757261	0.0224524	-0.001367282	-2.768133e-05	7.977357e-05
