!$
! Info: Touchstone file created by Circ.  Input file=Tx_12in_Rx_85ohms_TxVia_10mils_RxVia_20mils.circ
!$
# Hz S RI R 50
0	0.009685448	8.337649e-26	0.9901835	-8.942539e-26	7.60998e-05	9.874177e-24	-7.454027e-05	1.223337e-21
	0.9901834	-9.015293e-26	0.009685047	1.077643e-25	-7.440882e-05	1.207436e-21	7.554672e-05	1.376315e-23
	7.837309e-05	9.896931e-24	-7.435662e-05	1.201099e-21	0.00967784	7.283142e-26	0.9901536	-8.018658e-26
	-7.494858e-05	1.273396e-21	7.700253e-05	1.416558e-23	0.9901536	-8.376626e-26	0.009690623	1.027553e-25
1e+07	0.01214678	-0.01163571	0.9775161	-0.1280656	0.0004333503	0.002134338	-0.0001064957	0.0001052592
	0.9775161	-0.1280656	0.01213795	-0.01163588	-0.000106516	0.0001052831	0.0004293516	0.002135564
	0.0004333985	0.00213431	-0.0001064796	0.0001052596	0.01212354	-0.01162736	0.9775278	-0.1281612
	-0.0001064593	0.0001052357	0.0004293843	0.002135553	0.9775278	-0.1281612	0.01211481	-0.01162768
2e+07	0.01081922	-0.02624829	0.9491502	-0.2495984	0.001269275	0.004047651	-1.016926e-05	0.0002343822
	0.9491502	-0.2495984	0.01078521	-0.02624268	-1.015449e-05	0.0002344056	0.001254163	0.004053356
	0.001269267	0.004047625	-1.015872e-05	0.0002343776	0.01080467	-0.02622035	0.9491142	-0.2497952
	-1.016526e-05	0.0002343462	0.00125416	0.004053334	0.9491142	-0.2497952	0.01077136	-0.02621468
3e+07	0.004714301	-0.0410752	0.9070626	-0.3646877	0.002530858	0.005665021	0.0001781797	0.0002992346
	0.9070626	-0.3646877	0.004641166	-0.04105182	0.0001781882	0.0002992311	0.002499232	0.005680724
	0.002530858	0.005665018	0.0001781848	0.0002992275	0.00470553	-0.04103587	0.9069609	-0.3649646
	0.0001781765	0.0002992289	0.002499227	0.005680722	0.9069609	-0.3649646	0.004635033	-0.04101298
4e+07	-0.005263897	-0.0541271	0.8516908	-0.4726615	0.004129329	0.00689683	0.0004153808	0.0002593174
	0.8516908	-0.4726615	-0.005385095	-0.05406921	0.0004153821	0.0002593073	0.004077995	0.00692982
	0.004129333	0.006896826	0.0004153852	0.0002593074	-0.005268703	-0.05407952	0.851506	-0.4730032
	0.0004153855	0.0002593207	0.004077995	0.006929821	0.851506	-0.4730032	-0.005385762	-0.05402368
5e+07	-0.01827556	-0.06440011	0.7839777	-0.5721575	0.005952611	0.007677529	0.0006502944	9.704795e-05
	0.7839777	-0.5721575	-0.01844749	-0.06428825	0.0006502946	9.70199e-05	0.005881109	0.007736061
	0.005952612	0.007677527	0.0006502962	9.701945e-05	-0.01827915	-0.06434468	0.7836938	-0.5725458
	0.0006502978	9.704898e-05	0.005881108	0.007736062	0.7836938	-0.5725458	-0.01844549	-0.06423638
6e+07	-0.03340022	-0.0712348	0.7051326	-0.6618651	0.007877157	0.007973576	0.0008296281	-0.0001829049
	0.7051326	-0.6618651	-0.03361871	-0.07104889	0.0008296087	-0.000182963	0.007787941	0.008065927
	0.007877157	0.007973578	0.0008296061	-0.000182961	-0.03340416	-0.07117006	0.7047373	-0.6622789
	0.0008296228	-0.0001829039	0.007787938	0.008065928	0.7047373	-0.6622789	-0.03361516	-0.07098986
7e+07	-0.04965412	-0.07425534	0.6165441	-0.7406399	0.009777987	0.007784561	0.0009061334	-0.0005553929
	0.6165441	-0.7406399	-0.04990821	-0.07397698	0.0009060696	-0.0005554705	0.009676296	0.007918109
	0.009777988	0.007784566	0.0009060648	-0.0005554643	-0.04965857	-0.07417948	0.616029	-0.7410563
	0.0009061202	-0.0005553873	0.009676291	0.007918112	0.616029	-0.7410563	-0.04990363	-0.07391007
8e+07	-0.06603756	-0.07335158	0.5197192	-0.8075424	0.01153765	0.007141199	0.0008452055	-0.00097922
	0.5197192	-0.8075424	-0.0663103	-0.0729661	0.0008450894	-0.0009792902	0.01143114	0.00732161
	0.01153765	0.007141205	0.0008450854	-0.0009792812	-0.06604169	-0.07326302	0.5190797	-0.8079373
	0.0008451905	-0.0009792093	0.01143113	0.007321615	0.5190797	-0.8079373	-0.06630507	-0.07289029
9e+07	-0.08158829	-0.06866132	0.4162336	-0.8618484	0.01305379	0.006101112	0.0006289956	-0.001403339
	0.4162336	-0.8618484	-0.08185813	-0.06815945	0.0006288432	-0.001403378	0.01295194	0.006331659
	0.01305379	0.006101115	0.0006288417	-0.001403371	-0.08159068	-0.06855893	0.4154698	-0.862197
	0.0006289857	-0.001403329	0.01295194	0.006331663	0.4154698	-0.862197	-0.08185206	-0.06807316
1e+08	-0.09543483	-0.06054607	0.3076963	-0.9030412	0.01424693	0.004744226	0.0002547629	-0.001775044
	0.3076963	-0.9030412	-0.09567729	-0.05992517	0.0002546049	-0.001775047	0.01416035	0.005025274
	0.01424693	0.004744226	0.0002546049	-0.001775048	-0.09543387	-0.06042945	0.3068126	-0.9033184
	0.0002547628	-0.001775044	0.01416035	0.005025274	0.3068126	-0.9033184	-0.0956694	-0.05982681
1.1e+08	-0.1068315	-0.04954491	0.1957054	-0.9308316	0.01505756	0.00314586	-0.0002547082	-0.002018754
	0.1957054	-0.9308316	-0.1070215	-0.0488081	-0.0002549166	-0.002018703	0.01499657	0.003474279
	0.01505756	0.00314586	-0.0002549167	-0.002018703	-0.1068245	-0.04941248	0.1947091	-0.9310145
	-0.0002547082	-0.002018755	0.01499657	0.003474279	0.1947091	-0.9310145	-0.1070091	-0.04869641
1.2e+08	-0.1151824	-0.03635114	0.08181096	-0.9450531	0.01543481	0.001419295	-0.0008414044	-0.002111089
	0.08181096	-0.9450531	-0.1152947	-0.03551137	-0.0008416366	-0.002110965	0.01540974	0.001789227
	0.01543481	0.001419295	-0.0008416367	-0.002110965	-0.1151658	-0.036203	0.08071368	-0.9451183
	-0.0008414045	-0.002111089	0.01540974	0.001789227	0.08071368	-0.9451183	-0.1152745	-0.03538652
1.3e+08	-0.1200958	-0.02177069	-0.03244153	-0.9457105	0.01537194	-0.0003279541	-0.001460881	-0.00203139
	-0.03244153	-0.9457105	-0.1201093	-0.02084812	-0.001461111	-0.002031185	0.01539137	7.446199e-05
	0.01537194	-0.0003279543	-0.001461111	-0.002031185	-0.1200662	-0.02160829	-0.0336241	-0.9456368
	-0.001460881	-0.00203139	0.01539137	7.446198e-05	-0.0336241	-0.9456368	-0.1200781	-0.02071148
1.4e+08	-0.1213795	-0.006664626	-0.1455514	-0.9329522	0.01488268	-0.001993242	-0.002059614	-0.00177408
	-0.1455514	-0.9329522	-0.1212785	-0.005685476	-0.002059816	-0.001773793	0.01495259	-0.001569933
	0.01488268	-0.001993242	-0.002059816	-0.001773793	-0.1213336	-0.006490771	-0.1468001	-0.9327204
	-0.002059614	-0.00177408	0.01495259	-0.001569933	-0.1468001	-0.9327204	-0.1212338	-0.005539503
1.5e+08	-0.1190464	0.008095708	-0.2560591	-0.9070558	0.01400185	-0.003481184	-0.002584461	-0.001351278
	-0.2560591	-0.9070558	-0.1188227	0.009100737	-0.002584611	-0.001350915	0.01412499	-0.00305037
	0.01400185	-0.003481184	-0.002584611	-0.001350915	-0.1189817	0.008276963	-0.2573518	-0.9066496
	-0.002584461	-0.001351278	0.01412499	-0.00305037	-0.2573518	-0.9066496	-0.1187625	0.009252666
1.6e+08	-0.1133096	0.02167382	-0.3625444	-0.8684226	0.01278349	-0.004707125	-0.002988893	-0.0007915405
	-0.3625444	-0.8684226	-0.1129633	0.02267152	-0.002988967	-0.0007911138	0.0129589	-0.004283077
	0.01278349	-0.004707125	-0.002988967	-0.0007911138	-0.1132248	0.02185745	-0.3638561	-0.8678288
	-0.002988893	-0.0007915405	0.0129589	-0.004283077	-0.3638561	-0.8678288	-0.1128866	0.0228253
1.7e+08	-0.1045673	0.03331064	-0.4636246	-0.8175785	0.01129858	-0.00560042	-0.003238108	-0.0001366294
	-0.4636246	-0.8175785	-0.1041077	0.03426757	-0.003238088	-0.0001361584	0.01152135	-0.005197272
	0.01129858	-0.00560042	-0.003238088	-0.0001361584	-0.1044627	0.03349109	-0.4649279	-0.8167872
	-0.003238108	-0.0001366294	0.01152135	-0.005197272	-0.4649279	-0.8167872	-0.1040147	0.0344187
1.8e+08	-0.0933811	0.04236327	-0.5579574	-0.7551786	0.00963219	-0.006107546	-0.00331269	0.0005631971
	-0.5579574	-0.7551786	-0.09282654	0.04324819	-0.003312564	0.0005636881	0.009893538	-0.005738223
	0.00963219	-0.006107546	-0.003312564	0.0005636881	-0.09325856	0.04253488	-0.5592228	-0.7541839
	-0.00331269	0.0005631971	0.009893538	-0.005738223	-0.5592228	-0.7541839	-0.09271885	0.04339208
1.9e+08	-0.08044512	0.0483385	-0.6442471	-0.682016	0.007880191	-0.00619502	-0.003210483	0.001254828
	-0.6442471	-0.682016	-0.07982266	0.04912485	-0.003210247	0.001255311	0.008167763	-0.005870191
	0.007880191	-0.00619502	-0.003210247	0.001255311	-0.08030822	0.04849607	-0.6454438	-0.6808162
	-0.003210483	0.001254828	0.008167763	-0.005870191	-0.6454438	-0.6808162	-0.07970316	0.04925728
2e+08	-0.06654966	0.05091979	-0.7212591	-0.5990314	0.006145036	-0.005851965	-0.002946447	0.001888261
	-0.7212591	-0.5990314	-0.06589374	0.05158803	-0.002946105	0.001888711	0.006443524	-0.005579073
	0.006145036	-0.005851965	-0.002946105	0.001888711	-0.06640354	0.05105907	-0.7223552	-0.5976293
	-0.002946447	0.001888261	0.006443524	-0.005579073	-0.7223552	-0.5976293	-0.06576658	0.0517055
2.1e+08	-0.05253828	0.04998609	-0.7878393	-0.5073202	0.004530729	-0.005091981	-0.00255049	0.002422212
	-0.7878393	-0.5073202	-0.05188886	0.05052571	-0.002550054	0.002422604	0.004822727	-0.00487445
	0.004530729	-0.005091981	-0.002550054	0.002422604	-0.05238932	0.05010416	-0.7888025	-0.5057235
	-0.00255049	0.002422212	0.004822727	-0.00487445	-0.7888025	-0.5057235	-0.05175923	0.05062581
2.2e+08	-0.03926074	0.04562073	-0.8429406	-0.408136	0.003136917	-0.00395392	-0.002063446	0.002828663
	-0.8429406	-0.408136	-0.03866091	0.0460318	-0.002062934	0.002828978	0.003403994	-0.003790585
	0.003136917	-0.00395392	-0.002062934	0.002828978	-0.0391162	0.04571643	-0.8437391	-0.4063572
	-0.002063446	0.002828663	0.003403994	-0.003790585	-0.8437391	-0.4063572	-0.03853476	0.04611351
2.3e+08	-0.02752388	0.0381092	-0.8856545	-0.3028862	0.002052416	-0.002501096	-0.001531648	0.003095734
	-0.8856545	-0.3028862	-0.02701701	0.03840322	-0.001531083	0.003095962	0.002276342	-0.002385923
	0.002052416	-0.002501096	-0.001531083	0.003095962	-0.02739142	0.03818332	-0.8862575	-0.3009428
	-0.001531648	0.003095734	0.002276342	-0.002385923	-0.8862575	-0.3009428	-0.02690066	0.03846713
2.4e+08	-0.01804318	0.02792473	-0.915243	-0.1931195	0.001348672	-0.0008185953	-0.001000767	0.003228431
	-0.915243	-0.1931195	-0.01766986	0.02812478	-0.001000171	0.00322857	0.001512707	-0.0007407357
	0.001348672	-0.0008185953	-0.001000171	0.00322857	-0.01793031	0.02798012	-0.9156218	-0.191034
	-0.001000767	0.003228431	0.001512707	-0.0007407357	-0.9156218	-0.191034	-0.01756953	0.02817316
2.5e+08	-0.01139828	0.01570167	-0.9311717	-0.08050251	0.001073839	0.0009914663	-0.0005097459	0.003247054
	-0.9311717	-0.08050251	-0.0111932	0.01584162	-0.0005091372	0.00324711	0.001164015	0.001047281
	0.001073839	0.0009914663	-0.0005091372	0.00324711	-0.0113118	0.01574324	-0.9313001	-0.07830228
	-0.0005097459	0.003247054	0.001164015	0.001047281	-0.9313001	-0.07830228	-0.01111456	0.01587847
2.6e+08	-0.007996003	0.002197692	-0.9331364	0.03321186	0.00124825	0.002816564	-8.571884e-05	0.003183446
	-0.9331364	0.03321186	-0.007985065	0.002320616	-8.51114e-05	0.003183429	0.001254535	0.002869283
	0.00124825	0.002816564	-8.511141e-05	0.003183429	-0.007941466	0.002232142	-0.932992	0.0354952
	-8.571885e-05	0.003183446	0.001254535	0.002869283	-0.932992	0.0354952	-0.007932789	0.002351481
2.7e+08	-0.008044038	-0.01175314	-0.9210837	0.1462256	0.001861986	0.004541783	0.0002592803	0.003075566
	-0.9210837	0.1462256	-0.008241897	-0.01159731	0.0002598804	0.00307549	0.001779243	0.00461299
	0.001861986	0.004541783	0.0002598804	0.00307549	-0.008025243	-0.01171759	-0.9206483	0.1485565
	0.0002592803	0.003075567	0.001779243	0.00461299	-0.9206483	0.1485565	-0.008219211	-0.01156563
2.8e+08	-0.0115377	-0.02529302	-0.8952199	0.256741	0.00287501	0.006058449	0.0005292966	0.002961215
	-0.8952199	0.256741	-0.01194601	-0.02505056	0.0005298909	0.002961091	0.002703671	0.006171064
	0.00287501	0.006058449	0.0005298909	0.002961091	-0.0115563	-0.02524714	-0.8944801	0.2590807
	0.0005292966	0.002961215	0.002703671	0.006171064	-0.8944801	0.2590807	-0.01195437	-0.02501038
2.9e+08	-0.01826122	-0.03759494	-0.856009	0.3630089	0.004220005	0.007272423	0.0007429388	0.002871874
	-0.856009	0.3630089	-0.01886774	-0.03721179	0.0007435358	0.002871712	0.003966397	0.007449238
	0.004220005	0.007272423	0.0007435358	0.002871712	-0.01831649	-0.03752906	-0.854957	0.3653163
	0.0007429388	0.002871874	0.003966397	0.007449238	-0.854957	0.3653163	-0.01890658	-0.03715504
3e+08	-0.02780348	-0.0479148	-0.8041585	0.4633741	0.005807669	0.008111116	0.0009296238	0.00282765
	-0.8041585	0.4633741	-0.02858207	-0.04734024	0.0009302363	0.002827449	0.005483938	0.008373262
	0.005807669	0.008111116	0.0009302363	0.002827449	-0.02789217	-0.04781944	-0.8027923	0.4656063
	0.0009296238	0.00282765	0.005483938	0.008373262	-0.8027923	0.4656063	-0.02864874	-0.04725896
3.1e+08	-0.03958674	-0.05563696	-0.7405948	0.5563161	0.007533827	0.008528469	0.001124205	0.00283408
	-0.7405948	0.5563161	-0.04049842	-0.05482721	0.001124847	0.002833834	0.007157468	0.008893914
	0.007533827	0.008528469	0.001124847	0.002833834	-0.03970321	-0.05550349	-0.7389186	0.5584295
	0.001124205	0.00283408	0.007157468	0.008893914	-0.7389186	0.5584295	-0.04058823	-0.05471412
3.2e+08	-0.05290584	-0.06031006	-0.6664306	0.6404807	0.009287535	0.008507438	0.001360864	0.002881279
	-0.6664306	0.6404807	-0.05390072	-0.05923151	0.001361547	0.002880971	0.008880526	0.008989634
	0.009287535	0.008507438	0.001361547	0.002880971	-0.05304224	-0.0601313	-0.6644544	0.6424321
	0.001360864	0.002881279	0.008880526	0.008989634	-0.6644544	0.6424321	-0.0540071	-0.05908055
3.3e+08	-0.06697433	-0.06167075	-0.5829272	0.7147022	0.01095923	0.008059908	0.001667228	0.002945456
	-0.5829272	0.7147022	-0.06799437	-0.06030264	0.001667956	0.002945061	0.01054683	0.008666684
	0.01095923	0.008059908	0.001667956	0.002945061	-0.06712102	-0.06144156	-0.5806673	0.7164493
	0.001667228	0.002945456	0.01054683	0.008666684	-0.5806673	0.7164493	-0.06810924	-0.06010948
3.4e+08	-0.08097379	-0.05965466	-0.4914555	0.7780147	0.01244812	0.007224331	0.002059573	0.002992481
	-0.4914555	0.7780147	-0.08195621	-0.05799098	0.002060342	0.00299197	0.01205739	0.007957117
	0.01244812	0.007224331	0.002060342	0.00299197	-0.0811199	-0.05937239	-0.4889341	0.7795171
	0.002059573	0.002992481	0.01205739	0.007957117	-0.4889341	0.7795171	-0.08207044	-0.05775338
3.5e+08	-0.09410288	-0.0543945	-0.3934595	0.829654	0.01366816	0.00606161	0.002539781	0.00298289
	-0.3934595	0.829654	-0.09498393	-0.05244496	0.002540573	0.002982232	0.01332634	0.006915048
	0.01366816	0.00606161	0.002540573	0.002982232	-0.09423695	-0.05405921	-0.3907041	0.8308741
	0.002539781	0.00298289	0.01332634	0.006915048	-0.3907041	0.8308741	-0.09508787	-0.05216296
3.6e+08	-0.1056228	-0.04620678	-0.2904235	0.8690513	0.01455241	0.00464989	0.003094334	0.00287755
	-0.2904235	0.8690513	-0.1063417	-0.04399686	0.00309512	0.002876716	0.01428517	0.005611872
	0.01455241	0.00464989	0.00309512	0.002876716	-0.1057334	-0.04582136	-0.2874669	0.8699548
	0.003094334	0.00287755	0.01428517	0.005611872	-0.2874669	0.8699548	-0.1064258	-0.04367289
3.7e+08	-0.114897	-0.03556884	-0.1838455	0.8958219	0.01505555	0.003078897	0.003695411	0.002643188
	-0.1838455	0.8958219	-0.1153999	-0.03313879	0.003696152	0.002642157	0.01488535	0.00413104
	0.01505555	0.003078897	0.003696152	0.002642157	-0.1149736	-0.03513897	-0.1807252	0.8963784
	0.003695411	0.002643188	0.01488535	0.00413104	-0.1807252	0.8963784	-0.1154552	-0.03277765
3.8e+08	-0.1214232	-0.02308842	-0.07521851	0.9097509	0.01515499	0.001444352	0.004303804	0.002257104
	-0.07521851	0.9097509	-0.1216666	-0.02049141	0.00430445	0.002255868	0.01509953	0.002562877
	0.01515499	0.001444352	0.00430445	0.002255868	-0.1214567	-0.02262238	-0.07197587	0.9099346
	0.004303804	0.002257104	0.01509953	0.002562877	-0.07197587	0.9099346	-0.1216854	-0.02010007
3.9e+08	-0.1248575	-0.009468031	0.03398339	0.9107787	0.01485062	-0.0001572069	0.00487321	0.001710524
	0.03398339	0.9107787	-0.1248112	-0.006767399	0.004873705	0.001709088	0.01492158	0.0009997686
	0.01485062	-0.0001572069	0.004873705	0.001709088	-0.1248408	-0.008976241	0.03730307	0.9105687
	0.00487321	0.001710524	0.01492158	0.0009997686	0.03730307	0.9105687	-0.1247877	-0.006354689
4e+08	-0.125029	0.004534042	0.1423118	0.8989883	0.01416379	-0.001633041	0.00535534	0.001010279
	0.1423118	0.8989883	-0.1246789	0.007268141	0.00535563	0.001008663	0.01436583	-0.0004681542
	0.01416379	-0.001633041	0.00535563	0.001008663	-0.1249578	0.005039489	0.1456603	0.8983692
	0.00535534	0.001010279	0.01436583	-0.0004681542	0.1456603	0.8983692	-0.1246094	0.00769203
4.1e+08	-0.1219468	0.01814409	0.248348	0.8745969	0.01313552	-0.00289826	0.005705243	0.0001786793
	0.248348	0.8745969	-0.1212959	0.02083861	0.005705278	0.0001769203	0.01346577	-0.001756859
	0.01313552	-0.00289826	0.005705278	0.0001769203	-0.1218195	0.01865009	0.2516746	0.8735589
	0.005705243	0.0001786793	0.01346577	-0.001756859	0.2516746	0.8735589	-0.1211792	0.02126264
4.2e+08	-0.1157975	0.03061325	0.3507049	0.8379506	0.0118244	-0.0038794	0.005886266	-0.0007483534
	0.3507049	0.8379506	-0.1148666	0.0331965	0.005886005	-0.0007502046	0.0122723	-0.002791878
	0.0118244	-0.0038794	0.005886005	-0.0007502046	-0.115616	0.03110644	0.3539569	0.8364903
	0.005886266	-0.0007483534	0.0122723	-0.002791878	0.3539569	0.8364903	-0.1147042	0.0336094
4.3e+08	-0.1069352	0.04125638	0.4480292	0.7895249	0.010304	-0.004517645	0.00587412	-0.001724672
	0.4480292	0.7895249	-0.1057624	0.0436623	0.005873536	-0.001726553	0.01085166	-0.003511513
	0.010304	-0.004517645	0.005873536	-0.001726553	-0.1067043	0.04172388	0.4511527	0.7876452
	0.00587412	-0.001724672	0.01085166	-0.003511513	0.4511527	0.7876452	-0.1055587	0.04405326
4.4e+08	-0.09586304	0.04948797	0.5390059	0.7299281	0.008659844	-0.004771735	0.00565962	-0.002698452
	0.5390059	0.7299281	-0.09450246	0.05166036	0.005658703	-0.002700296	0.00928277	-0.003869855
	0.008659844	-0.004771735	0.005658703	-0.002700296	-0.09559108	0.04991821	0.5419465	0.7276388
	0.00565962	-0.002698452	0.00928277	-0.003869855	0.5419465	0.7276388	-0.09426438	0.05201969
4.5e+08	-0.08320822	0.05485399	0.6223673	0.6599076	0.006985763	-0.004620537	0.005249784	-0.003617434
	0.6223673	0.6599076	-0.0817273	0.05675033	0.005248541	-0.003619172	0.007654106	-0.003839549
	0.006985763	-0.004620537	0.005248541	-0.003619172	-0.08290604	0.05523745	0.625071	0.6572253
	0.005249784	-0.003617434	0.007654106	-0.003839549	0.625071	0.6572253	-0.08146408	0.05707008
4.6e+08	-0.0696893	0.05705792	0.6969065	0.5803567	0.005379556	-0.004065079	0.004667121	-0.004434283
	0.6969065	0.5803567	-0.0681654	0.05865257	0.004665577	-0.00443585	0.006059665	-0.003414147
	0.005379556	-0.004065079	0.004665577	-0.00443585	-0.06937011	0.0573878	0.6993205	0.5773053
	0.004667121	-0.004434283	0.006059665	-0.003414147	0.6993205	0.5773053	-0.06788821	0.05892712
4.7e+08	-0.05607821	0.0559795	0.761497	0.4923199	0.003937904	-0.003129782	0.003947117	-0.005111458
	0.761497	0.4923199	-0.05459441	0.05726604	0.003945313	-0.0051128	0.004594202	-0.002609726
	0.003937904	-0.003129782	0.003945313	-0.0051128	-0.05575679	0.0562523	0.7635704	0.4889306
	0.003947117	-0.005111458	0.004594202	-0.002609726	0.7635704	0.4889306	-0.05431575	0.05749257
4.8e+08	-0.04315777	0.05168463	0.8151173	0.3969945	0.002750653	-0.001862512	0.003134158	-0.005624983
	0.8151173	0.3969945	-0.04179807	0.05267721	0.003132144	-0.005626059	0.003347705	-0.001465409
	0.002750653	-0.001862512	0.003132144	-0.005626059	-0.04284971	0.05190051	0.8168025	0.3933054
	0.003134158	-0.005624983	0.003347705	-0.001465409	0.8168025	0.3933054	-0.04153107	0.052856
4.9e+08	-0.03167683	0.04442507	0.8568791	0.2957251	0.001894776	-0.0003331054	0.002276309	-0.005966581
	0.8568791	0.2957251	-0.03052102	0.04515847	0.002274141	-0.005967367	0.002399442	-4.240322e-05
	0.001894776	-0.0003331054	0.002274141	-0.005967367	-0.03139756	0.04458804	0.8581329	0.2917815
	0.002276309	-0.005966581	0.002399442	-4.240322e-05	0.8581329	0.2917815	-0.03027864	0.04529303
5e+08	-0.0223056	0.03462696	0.8860581	0.1899916	0.001428505	0.001369892	0.001419614	-0.006143827
	0.8860581	0.1899916	-0.02142413	0.03515538	0.001417347	-0.006144314	0.001812054	0.001578723
	0.001428505	0.001369892	0.001417347	-0.006144314	-0.02206946	0.03474482	0.8868423	0.1858449
	0.001419614	-0.006143827	0.001812054	0.001578723	0.8868423	0.1858449	-0.02121837	0.03525246
5.1e+08	-0.01559417	0.02286815	0.9021228	0.08138752	0.001386282	0.003144298	0.0006026631	-0.006178189
	0.9021228	0.08138752	-0.01504335	0.02326272	0.0006003476	-0.006178383	0.001626318	0.003302599
	0.001386282	0.003144298	0.0006003476	-0.006178383	-0.01541344	0.02295219	0.9024058	0.0770952
