!$
! Info: Touchstone file created by Circ.  Input file=Tx_12in_Rx_85ohms_TxVia_10mils_RxVia_20mils.circ
!$
# Hz S RI R 50
0	0.009685732	7.490241e-26	-1.756669e-11	4.071248e-27	7.594343e-05	1.004917e-23	-2.146031e-08	2.62806e-24
	-1.755244e-11	4.070229e-27	0.009685047	1.077643e-25	1.517768e-11	2.591541e-28	7.554672e-05	1.376315e-23
	7.405422e-05	9.907526e-24	1.514262e-11	2.595018e-28	0.009699621	7.794202e-26	1.733674e-08	7.321619e-27
	-2.146103e-08	2.62815e-24	7.700253e-05	1.416558e-23	1.733726e-08	7.320484e-27	0.009690623	1.027553e-25
1e+07	0.01374955	-0.01152729	2.719728e-11	-5.40892e-11	0.0003409053	0.002131837	-4.645229e-09	1.95362e-08
	2.719727e-11	-5.40895e-11	0.01213795	-0.01163588	-9.526737e-12	-8.090875e-11	0.0004293516	0.002135564
	0.0003408667	0.002131862	-9.526755e-12	-8.090844e-11	0.01216388	-0.01184198	-6.609103e-09	1.937659e-08
	-4.64523e-09	1.95362e-08	0.0004293843	0.002135553	-6.609102e-09	1.93766e-08	0.01211481	-0.01162768
2e+07	0.01221103	-0.02665356	3.46405e-11	-7.649512e-11	0.001134284	0.004124782	-1.273176e-09	2.358831e-08
	3.464017e-11	-7.649527e-11	0.01078521	-0.02624268	-1.245887e-11	-1.896822e-10	0.001254163	0.004053356
	0.001134292	0.0041248	-1.245864e-11	-1.89682e-10	0.01061838	-0.02657084	-6.82874e-09	2.058318e-08
	-1.273176e-09	2.358831e-08	0.00125416	0.004053334	-6.82874e-09	2.058318e-08	0.01077136	-0.02621468
3e+07	0.005919407	-0.04169087	3.911345e-11	-1.483304e-10	0.002433161	0.005764398	4.263278e-09	1.712568e-08
	3.911342e-11	-1.483304e-10	0.004641166	-0.04105182	-6.063201e-11	-2.029085e-10	0.002499232	0.005680724
	0.002433158	0.005764399	-6.063193e-11	-2.029086e-10	0.004341247	-0.04139077	-8.169298e-11	2.24379e-08
	4.263278e-09	1.712568e-08	0.002499227	0.005680722	-8.169295e-11	2.24379e-08	0.004635033	-0.04101298
4e+07	-0.004238695	-0.05487324	4.663489e-11	-2.08711e-10	0.004064148	0.007004686	6.896927e-09	1.315407e-08
	4.663493e-11	-2.08711e-10	-0.005385095	-0.05406921	-3.394178e-11	-2.645478e-10	0.004077995	0.00692982
	0.004064143	0.007004689	-3.394184e-11	-2.645479e-10	-0.005776118	-0.05438345	6.288398e-09	1.76061e-08
	6.896926e-09	1.315407e-08	0.004077995	0.006929821	6.288398e-09	1.76061e-08	-0.005385762	-0.05402368
5e+07	-0.01742359	-0.06522769	6.627418e-11	-2.747292e-10	0.005915644	0.007785552	9.889231e-09	1.092103e-08
	6.627419e-11	-2.747292e-10	-0.01844749	-0.06428825	-5.668068e-11	-3.033202e-10	0.005881109	0.007736061
	0.005915642	0.007785554	-5.668068e-11	-3.033202e-10	-0.01889525	-0.0645628	8.853125e-09	1.092433e-08
	9.889231e-09	1.092103e-08	0.005881108	0.007736062	8.853125e-09	1.092433e-08	-0.01844549	-0.06423638
6e+07	-0.03271285	-0.07210705	9.691728e-11	-3.59835e-10	0.007864081	0.008075952	1.557355e-08	6.59451e-09
	9.691732e-11	-3.59835e-10	-0.03361871	-0.07104889	-5.977274e-11	-3.237598e-10	0.007787941	0.008065927
	0.007864082	0.008075949	-5.977277e-11	-3.237599e-10	-0.03409495	-0.07127997	8.706318e-09	5.030822e-09
	1.557355e-08	6.59451e-09	0.007787938	0.008065928	8.706318e-09	5.030822e-09	-0.03361516	-0.07098986
7e+07	-0.0491204	-0.07514275	1.278463e-10	-4.77718e-10	0.009784362	0.007877078	1.595686e-08	-4.191841e-09
	1.278464e-10	-4.77718e-10	-0.04990821	-0.07397698	-5.442832e-11	-3.506978e-10	0.009676296	0.007918109
	0.009784362	0.007877073	-5.442839e-11	-3.506978e-10	-0.05039029	-0.07416737	7.100108e-09	5.768109e-10
	1.595686e-08	-4.191841e-09	0.009676291	0.007918112	7.100108e-09	5.768109e-10	-0.04990363	-0.07391007
8e+07	-0.06564437	-0.07423	1.452913e-10	-5.96396e-10	0.0115589	0.007220812	9.780128e-09	-8.924505e-09
	1.452914e-10	-5.96396e-10	-0.0663103	-0.0729661	-5.531386e-11	-3.871731e-10	0.01143114	0.00732161
	0.01155889	0.007220806	-5.531392e-11	-3.871731e-10	-0.06678027	-0.07312189	4.864253e-09	-2.397041e-09
	9.780128e-09	-8.924505e-09	0.01143113	0.007321615	4.864253e-09	-2.397041e-09	-0.06630507	-0.07289029
9e+07	-0.08132051	-0.06951088	1.254785e-10	-6.731086e-10	0.01308501	0.006165586	5.82048e-09	-9.425829e-09
	1.254785e-10	-6.731086e-10	-0.08185813	-0.06815945	-6.581334e-11	-4.410414e-10	0.01295194	0.006331659
	0.01308501	0.006165582	-6.581337e-11	-4.410414e-10	-0.08230054	-0.06828718	2.529312e-09	-4.018389e-09
	5.82048e-09	-9.425829e-09	0.01295194	0.006331663	2.529312e-09	-4.018389e-09	-0.08185206	-0.06807316
1e+08	-0.09527295	-0.06134938	8.027034e-12	-7.710554e-10	0.01428129	0.004791047	3.348464e-09	-9.081731e-09
	8.027034e-12	-7.710554e-10	-0.09567729	-0.05992517	-7.389012e-11	-5.171379e-10	0.01416035	0.005025274
	0.01428129	0.004791047	-7.389012e-11	-5.171379e-10	-0.09606631	-0.06002504	3.689142e-10	-4.539664e-09
	3.348464e-09	-9.081731e-09	0.01416035	0.005025274	3.689142e-10	-4.539664e-09	-0.0956694	-0.05982681
1.1e+08	-0.106756	-0.05030516	-5.763691e-11	-8.619125e-10	0.01508763	0.003183916	1.654075e-09	-1.055008e-08
	-5.763691e-11	-8.619125e-10	-0.1070215	-0.0488081	-7.164387e-11	-5.625563e-10	0.01499657	0.003474279
	0.01508763	0.003183916	-7.164387e-11	-5.625563e-10	-0.1073365	-0.04895378	-7.044795e-12	-5.135636e-09
	1.654075e-09	-1.055008e-08	0.01499657	0.003474279	-7.044795e-12	-5.135636e-09	-0.1070091	-0.04869641
1.2e+08	-0.1151885	-0.03706265	-1.404346e-10	-9.341886e-10	0.01546314	0.001451488	-4.630676e-10	-1.160357e-08
	-1.404346e-10	-9.341886e-10	-0.1152947	-0.03551137	-6.782726e-11	-6.11061e-10	0.01540974	0.001789227
	0.01546314	0.001451488	-6.782726e-11	-6.11061e-10	-0.1155807	-0.03571895	-4.867103e-10	-5.644912e-09
	-4.630676e-10	-1.160357e-08	0.01540974	0.001789227	-4.867103e-10	-5.644912e-09	-0.1152745	-0.03538652
1.3e+08	-0.1201749	-0.02242669	-2.343058e-10	-9.828496e-10	0.01539908	-0.0003005692	-2.892194e-09	-1.211978e-08
	-2.343058e-10	-9.828496e-10	-0.1201093	-0.02084812	-6.33983e-11	-6.625871e-10	0.01539137	7.446199e-05
	0.01539908	-0.0003005691	-6.33983e-11	-6.625871e-10	-0.1203933	-0.02111526	-1.046109e-09	-6.037548e-09
	-2.892194e-09	-1.211978e-08	0.01539137	7.446198e-05	-1.046109e-09	-6.037548e-09	-0.1200781	-0.02071148
1.4e+08	-0.1215219	-0.007259205	-3.314166e-10	-1.004211e-09	0.01490878	-0.001970034	-5.489976e-09	-1.20062e-08
	-3.314166e-10	-1.004211e-09	-0.1212785	-0.005685476	-5.907982e-11	-7.172415e-10	0.01495259	-0.001569933
	0.01490878	-0.001970033	-5.907982e-11	-7.172415e-10	-0.1215799	-0.00600164	-1.652513e-09	-6.289881e-09
	-5.489976e-09	-1.20062e-08	0.01495259	-0.001569933	-1.652513e-09	-6.289881e-09	-0.1212338	-0.005539503
1.5e+08	-0.1192419	0.007567318	-4.227061e-10	-9.974127e-10	0.01402688	-0.003461702	-8.08811e-09	-1.120841e-08
	-4.227061e-10	-9.974127e-10	-0.1188227	0.009100737	-5.554338e-11	-7.751123e-10	0.01412499	-0.00305037
	0.01402688	-0.003461702	-5.554338e-11	-7.751123e-10	-0.1191538	0.008751216	-2.266415e-09	-6.387943e-09
	-8.08811e-09	-1.120841e-08	0.01412499	-0.00305037	-2.266415e-09	-6.387943e-09	-0.1187625	0.009252666
1.6e+08	-0.1135475	0.02121514	-4.990442e-10	-9.648468e-10	0.01280734	-0.004691005	-1.0503e-08	-9.716535e-09
	-4.990442e-10	-9.648468e-10	-0.1129633	0.02267152	-5.349656e-11	-8.362711e-10	0.0129589	-0.004283077
	0.01280734	-0.004691005	-5.349656e-11	-8.362711e-10	-0.1133293	0.02230716	-2.844588e-09	-6.329372e-09
	-1.0503e-08	-9.716535e-09	0.0129589	-0.004283077	-2.844588e-09	-6.329372e-09	-0.1128866	0.0228253
1.7e+08	-0.104837	0.03292387	-5.525017e-10	-9.120418e-10	0.01132107	-0.005587329	-1.254705e-08	-7.56937e-09
	-5.525017e-10	-9.120418e-10	-0.1041077	0.03426757	-5.376331e-11	-9.007253e-10	0.01152135	-0.005197272
	0.01132107	-0.005587329	-5.376331e-11	-9.007253e-10	-0.1045068	0.03390766	-3.343631e-09	-6.124239e-09
	-1.254705e-08	-7.56937e-09	0.01152135	-0.005197272	-3.343631e-09	-6.124239e-09	-0.1040147	0.0344187
1.8e+08	-0.09367149	0.04204919	-5.774839e-10	-8.470107e-10	0.009653118	-0.006097154	-1.404122e-08	-4.855834e-09
	-5.774839e-10	-8.470107e-10	-0.09282654	0.04324819	-5.732407e-11	-9.683156e-10	0.009893538	-0.005738223
	0.009653118	-0.006097154	-5.732407e-11	-9.683156e-10	-0.09325008	0.04291081	-3.723623e-09	-5.794738e-09
	-1.404122e-08	-4.855834e-09	0.009893538	-0.005738223	-3.723623e-09	-5.794738e-09	-0.09271885	0.04339208
1.9e+08	-0.08074536	0.04809638	-5.715081e-10	-7.791739e-10	0.007899345	-0.006186979	-1.48282e-08	-1.713364e-09
	-5.715081e-10	-7.791739e-10	-0.07982266	0.04912485	-6.528438e-11	-1.038582e-09	0.008167763	-0.005870191
	0.007899345	-0.006186979	-6.528438e-11	-1.038582e-09	-0.08025577	0.04882502	-3.951488e-09	-5.373765e-09
	-1.48282e-08	-1.713364e-09	0.008167763	-0.005870191	-3.951488e-09	-5.373765e-09	-0.07970316	0.04925728
2e+08	-0.06684912	0.05074735	-5.35461e-10	-7.180481e-10	0.006162223	-0.005845896	-1.478552e-08	1.677165e-09
	-5.35461e-10	-7.180481e-10	-0.06589374	0.05158803	-7.875904e-11	-1.110644e-09	0.006443524	-0.005579073
	0.006162223	-0.005845896	-7.875904e-11	-1.110644e-09	-0.06631649	0.05133606	-4.003743e-09	-4.902588e-09
	-1.478552e-08	1.677165e-09	0.006443524	-0.005579073	-4.003743e-09	-4.902588e-09	-0.06576658	0.0517055
2.1e+08	-0.05282684	0.04987939	-4.732763e-10	-6.719529e-10	0.004545792	-0.005087474	-1.383778e-08	5.100148e-09
	-4.732763e-10	-6.719529e-10	-0.05188886	0.05052571	-9.868359e-11	-1.183141e-09	0.004822727	-0.00487445
	0.004545792	-0.005087474	-9.868359e-11	-1.183141e-09	-0.0522777	0.05032579	-3.868391e-09	-4.427861e-09
	-1.383778e-08	5.100148e-09	0.004822727	-0.00487445	-3.868391e-09	-4.427861e-09	-0.05175923	0.05062581
2.2e+08	-0.03952912	0.04557427	-3.910892e-10	-6.470047e-10	0.003149755	-0.003950535	-1.19667e-08	8.317568e-09
	-3.910892e-10	-6.470047e-10	-0.03866091	0.0460318	-1.255882e-10	-1.254264e-09	0.003403994	-0.003790585
	0.003149755	-0.003950535	-1.255882e-10	-1.254264e-09	-0.03899046	0.04588104	-3.545826e-09	-3.998342e-09
	-1.19667e-08	8.317568e-09	0.003403994	-0.003790585	-3.545826e-09	-3.998342e-09	-0.03853476	0.04611351
2.3e+08	-0.02776394	0.03811598	-2.960573e-10	-6.466158e-10	0.002063004	-0.002498381	-9.217986e-09	1.108448e-08
	-2.960573e-10	-6.466158e-10	-0.02701701	0.03840322	-1.59385e-10	-1.321904e-09	0.002276342	-0.002385923
	0.002063004	-0.002498381	-1.59385e-10	-1.321904e-09	-0.02726213	0.03829118	-3.048779e-09	-3.66164e-09
	-9.217986e-09	1.108448e-08	0.002276342	-0.002385923	-3.048779e-09	-3.66164e-09	-0.02690066	0.03846713
2.4e+08	-0.01824825	0.02797647	-1.951344e-10	-6.716055e-10	0.001357063	-0.0008161001	-5.703889e-09	1.316678e-08
	-1.951344e-10	-6.716055e-10	-0.01766986	0.02812478	-1.992224e-10	-1.3839e-09	0.001512707	-0.0007407357
	0.001357063	-0.0008161001	-1.992224e-10	-1.3839e-09	-0.01780776	0.02803349	-2.401476e-09	-3.461288e-09
	-5.703889e-09	1.316678e-08	0.001512707	-0.0007407357	-2.401476e-09	-3.461288e-09	-0.01756953	0.02817316
2.5e+08	-0.01156344	0.01578909	-9.410805e-11	-7.208725e-10	0.001080172	0.0009941618	-1.600434e-09	1.435996e-08
	-9.410805e-11	-7.208725e-10	-0.0111932	0.01584162	-2.434511e-10	-1.438341e-09	0.001164015	0.001047281
	0.001080172	0.0009941618	-2.434511e-10	-1.438341e-09	-0.0112056	0.01574633	-1.638221e-09	-3.434291e-09
	-1.600434e-09	1.435996e-08	0.001164015	0.001047281	-1.638221e-09	-3.434291e-09	-0.01111456	0.01587847
2.6e+08	-0.008118323	0.002310903	2.839892e-12	-7.924126e-10	0.001252739	0.002819831	2.8609e-09	1.450709e-08
	2.839892e-12	-7.924126e-10	-0.007985065	0.002320616	-2.897244e-10	-1.483886e-09	0.001254535	0.002869283
	0.001252739	0.002819831	-2.897244e-10	-1.483886e-09	-0.007860086	0.002190987	-8.016588e-10	-3.609162e-09
	2.8609e-09	1.450709e-08	0.001254535	0.002869283	-8.016588e-10	-3.609162e-09	-0.007932789	0.002351481
2.7e+08	-0.008122634	-0.01162419	9.294265e-11	-8.843532e-10	0.001864907	0.004545926	7.406906e-09	1.351426e-08
	9.294265e-11	-8.843532e-10	-0.008241897	-0.01159731	-3.352289e-10	-1.520032e-09	0.001779243	0.00461299
	0.001864907	0.004545926	-3.352289e-10	-1.520032e-09	-0.007975642	-0.01179542	5.913116e-11	-4.004361e-09
	7.406906e-09	1.351426e-08	0.001779243	0.00461299	5.913116e-11	-4.004361e-09	-0.008219211	-0.01156563
2.8e+08	-0.01157376	-0.02515811	1.741116e-10	-9.956529e-10	0.002876677	0.00606369	1.174082e-08	1.136167e-08
	1.741116e-10	-9.956529e-10	-0.01194601	-0.02505056	-3.770183e-10	-1.547267e-09	0.002703671	0.006171064
	0.002876677	0.00606369	-3.770183e-10	-1.547267e-09	-0.0115436	-0.02535291	8.906726e-10	-4.627004e-09
	1.174082e-08	1.136167e-08	0.002703671	0.006171064	8.906726e-10	-4.627004e-09	-0.01195437	-0.02501038
2.9e+08	-0.01825787	-0.03746311	2.439236e-10	-1.126212e-09	0.004220752	0.007278899	1.556341e-08	8.109006e-09
	2.439236e-10	-1.126212e-09	-0.01886774	-0.03721179	-4.123957e-10	-1.567087e-09	0.003966397	0.007449238
	0.004220752	0.007278899	-4.123957e-10	-1.567087e-09	-0.01834376	-0.03765331	1.637352e-09	-5.471757e-09
	1.556341e-08	8.109006e-09	0.003966397	0.007449238	1.637352e-09	-5.471757e-09	-0.01890658	-0.03715504
3e+08	-0.02776556	-0.04779394	2.987083e-10	-1.276316e-09	0.005807822	0.008118884	1.859499e-08	3.894552e-09
	2.987083e-10	-1.276316e-09	-0.02858207	-0.04734024	-4.392818e-10	-1.581857e-09	0.005483938	0.008373262
	0.005807822	0.008118884	-4.392818e-10	-1.581857e-09	-0.02796033	-0.04795247	2.24405e-09	-6.519972e-09
	1.859499e-08	3.894552e-09	0.005483938	0.008373262	2.24405e-09	-6.519972e-09	-0.02864874	-0.04725896
3.1e+08	-0.03952044	-0.05553349	3.33101e-10	-1.445565e-09	0.007533691	0.008537515	2.059633e-08	-1.072143e-09
	3.33101e-10	-1.445565e-09	-0.04049842	-0.05482721	-4.565012e-10	-1.594524e-09	0.007157468	0.008893914
	0.007533691	0.008537515	-4.565012e-10	-1.594524e-09	-0.03981106	-0.05563585	2.659247e-09	-7.73925e-09
	2.059633e-08	-1.072143e-09	0.007157468	0.008893914	2.659247e-09	-7.73925e-09	-0.04058823	-0.05471412
3.2e+08	-0.05281834	-0.06022869	3.402951e-10	-1.63161e-09	0.009287376	0.008517687	2.138657e-08	-6.523094e-09
	3.402951e-10	-1.63161e-09	-0.05390072	-0.05923151	-4.63931e-10	-1.608239e-09	0.008880526	0.008989634
	0.009287376	0.008517687	-4.63931e-10	-1.608239e-09	-0.05318662	-0.06025424	2.838591e-09	-9.083745e-09
	2.138657e-08	-6.523094e-09	0.008880526	0.008989634	2.838591e-09	-9.083745e-09	-0.0540071	-0.05908055
3.3e+08	-0.06687334	-0.06161442	3.130205e-10	-1.829099e-09	0.01095927	0.008071244	2.085676e-08	-1.214898e-08
	3.130205e-10	-1.829099e-09	-0.06799437	-0.06030264	-4.624842e-10	-1.625958e-09	0.01054683	0.008666684
	0.01095927	0.008071244	-4.624842e-10	-1.625958e-09	-0.06729704	-0.06154748	2.748699e-09	-1.04955e-08
	2.085676e-08	-1.214898e-08	0.01054683	0.008666684	2.748699e-09	-1.04955e-08	-0.06810924	-0.06010948
3.4e+08	-0.08086718	-0.05962452	2.440125e-10	-2.031138e-09	0.01244853	0.007236611	1.897472e-08	-1.761766e-08
	2.440125e-10	-2.031138e-09	-0.08195621	-0.05799098	-4.541236e-10	-1.649911e-09	0.01205739	0.007957117
	0.01244853	0.007236611	-4.541236e-10	-1.649911e-09	-0.08132127	-0.05945507	2.369867e-09	-1.190909e-08
	1.897472e-08	-1.761766e-08	0.01205739	0.007957117	2.369867e-09	-1.190909e-08	-0.08207044	-0.05775338
3.5e+08	-0.09399827	-0.05438993	1.29663e-10	-2.224589e-09	0.01366908	0.006074672	1.579818e-08	-2.259706e-08
	1.29663e-10	-2.224589e-09	-0.09498393	-0.05244496	-4.409125e-10	-1.681739e-09	0.01332634	0.006915048
	0.01366908	0.006074672	-4.409125e-10	-1.681739e-09	-0.09445635	-0.05411411	1.700681e-09	-1.325021e-08
	1.579818e-08	-2.259706e-08	0.01332634	0.006915048	1.700681e-09	-1.325021e-08	-0.09508787	-0.05216296
3.6e+08	-0.1055273	-0.04622558	-2.933233e-11	-2.39485e-09	0.01455392	0.004663565	1.146289e-08	-2.677541e-08
	-2.933233e-11	-2.39485e-09	-0.1063417	-0.04399686	-4.252848e-10	-1.722246e-09	0.01428517	0.005611872
	0.01455392	0.004663565	-4.252848e-10	-1.722246e-09	-0.1059629	-0.04584575	7.593799e-10	-1.444439e-08
	1.146289e-08	-2.677541e-08	0.01428517	0.005611872	7.593799e-10	-1.444439e-08	-0.1064258	-0.04367289
3.7e+08	-0.1148167	-0.03560742	-2.271044e-10	-2.527274e-09	0.0150577	0.003093017	6.17747e-09	-2.987924e-08
	-2.271044e-10	-2.527274e-09	-0.1153999	-0.03313879	-4.09584e-10	-1.771446e-09	0.01488535	0.00413104
	0.0150577	0.003093017	-4.09584e-10	-1.771446e-09	-0.1152051	-0.03513197	-4.159198e-10	-1.542215e-08
	6.17747e-09	-2.987924e-08	0.01488535	0.00413104	-4.159198e-10	-1.542215e-08	-0.1154552	-0.03277765
3.8e+08	-0.1213632	-0.02314209	-4.52421e-10	-2.609084e-09	0.01515779	0.00145875	2.129811e-10	-3.16897e-08
	-4.52421e-10	-2.609084e-09	-0.1216666	-0.02049141	-3.958036e-10	-1.828791e-09	0.01509953	0.002562877
	0.01515779	0.00145875	-3.958036e-10	-1.828791e-09	-0.1216821	-0.02258488	-1.768541e-09	-1.612451e-08
	2.129811e-10	-3.16897e-08	0.01509953	0.002562877	-1.768541e-09	-1.612451e-08	-0.1216854	-0.02010007
3.9e+08	-0.1248215	-0.009531212	-6.895091e-10	-2.631454e-09	0.01485406	-0.0001426893	-6.111058e-09	-3.205575e-08
	-6.895091e-10	-2.631454e-09	-0.1248112	-0.006767399	-3.854969e-10	-1.893422e-09	0.01492158	0.0009997686
	0.01485406	-0.0001426893	-3.854969e-10	-1.893422e-09	-0.1250527	-0.008910832	-3.226381e-09	-1.650815e-08
	-6.111058e-09	-3.205575e-08	0.01492158	0.0009997686	-3.226381e-09	-1.650815e-08	-0.1247877	-0.006354689
4e+08	-0.1250196	0.004467481	-9.196935e-10	-2.591162e-09	0.01416781	-0.00161855	-1.2443e-08	-3.090408e-08
	-9.196935e-10	-2.591162e-09	-0.1246789	0.007268141	-3.798274e-10	-1.964403e-09	0.01436583	-0.0004681542
	0.01416781	-0.00161855	-3.798274e-10	-1.964403e-09	-0.1251496	0.005128705	-4.70657e-09	-1.654959e-08
	-1.2443e-08	-3.090408e-08	0.01436583	-0.0004681542	-4.70657e-09	-1.654959e-08	-0.1246094	0.00769203
4.1e+08	-0.121965	0.01808055	-1.123611e-09	-2.491484e-09	0.01314004	-0.002883923	-1.841712e-08	-2.824543e-08
	-1.123611e-09	-2.491484e-09	-0.1212959	0.02083861	-3.797218e-10	-2.040867e-09	0.01346577	-0.001756859
	0.01314004	-0.002883923	-3.797218e-10	-2.040867e-09	-0.1219858	0.01875772	-6.121249e-09	-1.624777e-08
	-1.841712e-08	-2.824543e-08	0.01346577	-0.001756859	-6.121249e-09	-1.624777e-08	-0.1211792	0.02126264
4.2e+08	-0.1158428	0.03055914	-1.283657e-09	-2.342168e-09	0.01182931	-0.00386532	-2.367278e-08	-2.417731e-08
	-1.283657e-09	-2.342168e-09	-0.1148666	0.0331965	-3.8606e-10	-2.122028e-09	0.0122723	-0.002791878
	0.01182931	-0.00386532	-3.8606e-10	-2.122028e-09	-0.1157526	0.03122605	-7.383944e-09	-1.562493e-08
	-2.367278e-08	-2.417731e-08	0.0122723	-0.002791878	-7.383944e-09	-1.562493e-08	-0.1147042	0.0336094
4.3e+08	-0.1070057	0.04121778	-1.386267e-09	-2.158456e-09	0.01030917	-0.004503894	-2.787432e-08	-1.888264e-08
	-1.386267e-09	-2.158456e-09	-0.1057624	0.0436623	-3.998272e-10	-2.207076e-09	0.01085166	-0.003511513
	0.01030917	-0.004503894	-3.998272e-10	-2.207076e-09	-0.1068088	0.04184832	-8.415946e-09	-1.472553e-08
	-2.787432e-08	-1.888264e-08	0.01085166	-0.003511513	-8.415946e-09	-1.472553e-08	-0.1055587	0.04405326
4.4e+08	-0.09595575	0.04947039	-1.423679e-09	-1.959266e-09	0.00866512	-0.004758347	-3.073092e-08	-1.262423e-08
	-1.423679e-09	-1.959266e-09	-0.09450246	0.05166036	-4.221639e-10	-2.294976e-09	0.00928277	-0.003869855
	0.00866512	-0.004758347	-4.221639e-10	-2.294976e-09	-0.09566239	0.05003995	-9.152103e-09	-1.36134e-08
	-3.073092e-08	-1.262423e-08	0.00928277	-0.003869855	-9.152103e-09	-1.36134e-08	-0.09426438	0.05201969
4.5e+08	-0.08331878	0.05486208	-1.394852e-09	-1.764824e-09	0.006990998	-0.004607503	-3.201572e-08	-5.734741e-09
	-1.394852e-09	-1.764824e-09	-0.0817273	0.05675033	-4.542757e-10	-2.384256e-09	0.007654106	-0.003839549
	0.006990998	-0.004607503	-4.542757e-10	-2.384256e-09	-0.08294508	0.05534895	-9.545499e-09	-1.236728e-08
	-3.201572e-08	-5.734741e-09	0.007654106	-0.003839549	-9.545499e-09	-1.236728e-08	-0.08146408	0.05707008
4.6e+08	-0.06981245	0.05709522	-1.305375e-09	-1.594114e-09	0.00538461	-0.004052345	-3.158321e-08	1.398138e-09
	-1.305375e-09	-1.594114e-09	-0.0681654	0.05865257	-4.972095e-10	-2.472849e-09	0.006059665	-0.003414147
	0.00538461	-0.004052345	-4.972095e-10	-2.472849e-09	-0.0693794	0.05748189	-9.570626e-09	-1.107545e-08
	-3.158321e-08	1.398138e-09	0.006059665	-0.003414147	-9.570626e-09	-1.107545e-08	-0.06788821	0.05892712
4.7e+08	-0.056208	0.05604825	-1.166365e-09	-1.462593e-09	0.003942657	-0.003117257	-2.938349e-08	8.351132e-09
	-1.166365e-09	-1.462593e-09	-0.05459441	0.05726604	-5.515371e-10	-2.558072e-09	0.004594202	-0.002609726
