!$
! Info: Touchstone file created by Circ.  Input file=Tx_12in_Rx_93ohms_TxVia_10mils_RxVia_20mils.circ
!$
# Hz S RI R 50
0	0.01101214	8.296506e-26	0.9888568	-8.894881e-26	7.572042e-05	1.123387e-23	-7.416246e-05	1.221698e-21
	0.9888568	-8.967293e-26	0.01101173	1.072198e-25	-7.40312e-05	1.205818e-21	7.517067e-05	1.56603e-23
	7.799361e-05	1.125973e-23	-7.397901e-05	1.199489e-21	0.01100445	7.247366e-26	0.9888269	-7.975771e-26
	-7.457016e-05	1.27169e-21	7.662598e-05	1.611821e-23	0.9888269	-8.331921e-26	0.01101729	1.022377e-25
1e+07	0.01598097	-0.001562399	0.9755044	-0.124924	0.0004246961	0.002148171	-0.0001447676	-3.389425e-05
	0.9755044	-0.124924	0.01597524	-0.001563834	-0.0001447878	-3.386861e-05	0.0004210311	0.002149318
	0.0004247447	0.002148144	-0.0001447514	-3.389202e-05	0.01566622	-0.001564915	0.975805	-0.1250428
	-0.0001447312	-3.391767e-05	0.0004210641	0.002149306	0.975805	-0.1250428	0.01566056	-0.001566417
2e+07	0.01817892	-0.007224207	0.9488494	-0.2431625	0.001137667	0.004214217	-5.390964e-05	-0.0001398363
	0.9488494	-0.2431625	0.0181564	-0.007223495	-5.389413e-05	-0.0001398101	0.001123858	0.004219488
	0.001137659	0.004214192	-5.389822e-05	-0.000139838	0.01794458	-0.007123587	0.9490226	-0.2435
	-5.390547e-05	-0.0001398721	0.001123855	0.004219467	0.9490226	-0.2435	0.01792273	-0.007122657
3e+07	0.0178481	-0.01408711	0.9092654	-0.3557625	0.002376224	0.005923515	-2.532989e-05	-0.0001715765
	0.9092654	-0.3557625	0.01779907	-0.01407658	-2.531931e-05	-0.0001715766	0.002347245	0.005937858
	0.002376225	0.005923511	-2.532261e-05	-0.0001715802	0.01767181	-0.01396783	0.9093066	-0.3562202
	-2.533306e-05	-0.0001715822	0.00234724	0.005937855	0.9093066	-0.3562202	0.01762537	-0.01395754
4e+07	0.01546037	-0.02086376	0.8570405	-0.4620563	0.00401981	0.007225192	-3.244661e-05	-0.0001873982
	0.8570405	-0.4620563	0.01537826	-0.02083241	-3.244323e-05	-0.0001874048	0.003972555	0.007255147
	0.004019814	0.007225188	-3.24402e-05	-0.0001874047	0.01532714	-0.02075006	0.8569394	-0.462595
	-3.244192e-05	-0.0001873948	0.003972555	0.007255149	0.8569394	-0.462595	0.01524906	-0.02072042
5e+07	0.0113423	-0.02695068	0.7928879	-0.5608005	0.005897364	0.008079192	-2.169227e-05	-0.000228661
	0.7928879	-0.5608005	0.01122457	-0.02688549	-2.169062e-05	-0.000228684	0.005831158	0.008132288
	0.005897365	0.00807919	-2.168907e-05	-0.0002286845	0.01123719	-0.02685395	0.7926349	-0.5613869
	-2.168889e-05	-0.0002286599	0.005831158	0.008132289	0.7926349	-0.5613869	0.01112489	-0.02679186
6e+07	0.005837334	-0.0319276	0.7177531	-0.6507418	0.00789556	0.008448387	-1.457105e-05	-0.000304035
	0.7177531	-0.6507418	0.00568596	-0.03181488	-1.458854e-05	-0.0003040854	0.007812346	0.008532276
	0.00789556	0.008448388	-1.459116e-05	-0.0003040835	0.005747085	-0.03185207	0.7173425	-0.6513437
	-1.457637e-05	-0.0003040341	0.007812343	0.008532277	0.7173425	-0.6513437	0.005602959	-0.03174438
7e+07	-0.000674154	-0.03549964	0.632758	-0.7307154	0.009894844	0.008322818	-3.206932e-05	-0.0004114259
	0.632758	-0.7307154	-0.0008526085	-0.03532653	-3.212931e-05	-0.000411493	0.00979911	0.008444462
	0.009894845	0.008322822	-3.21342e-05	-0.0004114868	-0.0007608583	-0.03544543	0.6321889	-0.7313009
	-3.208258e-05	-0.0004114206	0.009799105	0.008444465	0.6321889	-0.7313009	-0.0009305489	-0.03528034
8e+07	-0.007782721	-0.03748434	0.5391676	-0.799688	0.01177701	0.007721065	-9.176521e-05	-0.0005399787
	0.5391676	-0.799688	-0.007977562	-0.03724018	-9.187442e-05	-0.0005400353	0.0116755	0.007885997
	0.01177702	0.00772107	-9.187855e-05	-0.0005400264	-0.007875474	-0.03744886	0.538444	-0.8002261
	-9.178042e-05	-0.0005399684	0.0116755	0.007886001	0.538444	-0.8002261	-0.008061178	-0.0372163
9e+07	-0.01506533	-0.03780638	0.4383587	-0.8567839	0.01343237	0.006689112	-0.0002053594	-0.0006722616
	0.4383587	-0.8567839	-0.01526253	-0.03748394	-0.0002055001	-0.0006722836	0.01333363	0.006900796
	0.01343237	0.006689115	-0.0002055017	-0.0006722763	-0.01517236	-0.03778526	0.4374905	-0.8572442
	-0.0002053695	-0.0006722515	0.01333362	0.0069008	0.4374905	-0.8572442	-0.01536131	-0.03747755
1e+08	-0.02208627	-0.03648596	0.3317676	-0.9013069	0.01476588	0.005296763	-0.0003764412	-0.0007864381
	0.3317676	-0.9013069	-0.0222695	-0.03608235	-0.0003765789	-0.0007864217	0.01467961	0.005556093
	0.01476588	0.005296763	-0.0003765789	-0.000786422	-0.02221737	-0.03647468	0.3307747	-0.9016595
	-0.0003764412	-0.0007864384	0.01467961	0.005556093	0.3307747	-0.9016595	-0.02239389	-0.03608778
1.1e+08	-0.02848443	-0.03378883	0.2209577	-0.9325535	0.01570126	0.003637714	-0.0005998922	-0.0008643651
	0.2209577	-0.9325535	-0.02863707	-0.0333045	-0.0006000728	-0.0008642987	0.01563713	0.003942337
	0.01570126	0.003637713	-0.0006000729	-0.0008642989	-0.02864401	-0.03376378	0.2198601	-0.9327948
	-0.0005998922	-0.0008643653	0.01563713	0.003942336	0.2198601	-0.9327948	-0.0287914	-0.03329863
1.2e+08	-0.03403727	-0.0297967	0.1076524	-0.9503147	0.01619295	0.001817026	-0.000869066	-0.0008850365
	0.1076524	-0.9503147	-0.03414169	-0.029239	-0.0008692646	-0.0008849047	0.01616077	0.002162117
	0.01619295	0.001817026	-0.0008692646	-0.0008849049	-0.03421375	-0.02974868	0.1064564	-0.9504262
	-0.0008690661	-0.0008850367	0.01616077	0.002162117	0.1064564	-0.9504262	-0.03431455	-0.02921261
1.3e+08	-0.03843923	-0.02475671	-0.006584868	-0.9544711	0.01621828	-5.402202e-05	-0.001165236	-0.0008314163
	-0.006584868	-0.9544711	-0.03848009	-0.02413809	-0.001165428	-0.0008312128	0.01622646	0.0003237228
	0.01621828	-5.402219e-05	-0.001165428	-0.000831213	-0.03862349	-0.02468108	-0.007864706	-0.9544334
	-0.001165236	-0.0008314164	0.01622646	0.0003237228	-0.007864706	-0.9544334	-0.03866277	-0.02408642
1.4e+08	-0.04148375	-0.01898347	-0.1201673	-0.9450697	0.01578209	-0.001862431	-0.001465131	-0.0006939346
	-0.1201673	-0.9450697	-0.04144924	-0.0183207	-0.001465295	-0.0006936598	0.01583681	-0.001462341
	0.01578209	-0.001862431	-0.001465295	-0.0006936599	-0.04166672	-0.01887851	-0.1215122	-0.9448649
	-0.001465131	-0.0006939347	0.01583681	-0.001462341	-0.1215122	-0.9448649	-0.04163319	-0.0182417
1.5e+08	-0.04305203	-0.01282695	-0.2315286	-0.9223334	0.0149157	-0.003500426	-0.001743238	-0.0004711589
	-0.2315286	-0.9223334	-0.04293501	-0.01214013	-0.001743353	-0.0004708183	0.01502031	-0.003090135
	0.0149157	-0.003500427	-0.001743353	-0.0004708183	-0.043225	-0.01269365	-0.2329167	-0.9219463
	-0.001743238	-0.0004711589	0.01502031	-0.003090135	-0.2329167	-0.9219463	-0.04311198	-0.01203419
1.6e+08	-0.04311442	-0.006650126	-0.3391442	-0.8866575	0.0136747	-0.004871427	-0.001974636	-0.0001699844
	-0.3391442	-0.8866575	-0.04291323	-0.00596142	-0.001974684	-0.0001695891	0.01382919	-0.004464107
	0.0136747	-0.004871427	-0.001974684	-0.0001695891	-0.04326959	-0.006491893	-0.3405506	-0.8860758
	-0.001974636	-0.0001699844	0.01382919	-0.004464107	-0.3405506	-0.8860758	-0.04307572	-0.005831138
1.7e+08	-0.04172856	-0.0008078131	-0.441548	-0.8386034	0.0121355	-0.005895244	-0.002137719	0.0001951206
	-0.441548	-0.8386034	-0.04144758	-0.0001399708	-0.002137684	0.0001955547	0.01233627	-0.005504186
	0.0121355	-0.005895245	-0.002137684	0.0001955546	-0.04185952	-0.0006300762	-0.4429458	-0.8378181
	-0.002137719	0.0001951206	0.01233627	-0.005504186	-0.4429458	-0.8378181	-0.04158923	1.017939e-05
1.8e+08	-0.03903341	0.004373108	-0.53735	-0.7788912	0.01039082	-0.006512333	-0.002216472	0.0006037227
	-0.53735	-0.7788912	-0.03868321	0.004998371	-0.002216342	0.0006041755	0.01063066	-0.006149965
	0.01039082	-0.006512333	-0.002216342	0.0006041755	-0.03913561	0.004563376	-0.5387102	-0.7778969
	-0.002216472	0.0006037227	0.01063066	-0.006149965	-0.5387102	-0.7778969	-0.03879917	0.005162392
1.9e+08	-0.03523938	0.008611292	-0.6252511	-0.7083914	0.008544464	-0.006686907	-0.00220203	0.001031674
	-0.6252511	-0.7083914	-0.03483642	0.009174936	-0.002201802	0.001032123	0.008812787	-0.006363831
	0.008544464	-0.006686908	-0.002201802	0.001032123	-0.03531036	0.008806133	-0.6265435	-0.7071866
	-0.00220203	0.001031674	0.008812787	-0.006363831	-0.6265435	-0.7071866	-0.03492366	0.009345767
2e+08	-0.03061497	0.01168568	-0.7040587	-0.6281152	0.006705455	-0.006408811	-0.002093377	0.001453719
	-0.7040587	-0.6281152	-0.03018087	0.01217291	-0.002093052	0.001454142	0.006988793	-0.0061329
	0.006705455	-0.006408811	-0.002093052	0.001454142	-0.03065453	0.01187674	-0.7052523	-0.6267027
	-0.002093377	0.001453719	0.006988793	-0.0061329	-0.7052523	-0.6267027	-0.03023836	0.01234292
2.1e+08	-0.02547059	0.01344674	-0.7727019	-0.5392039	0.00498196	-0.005694031	-0.001897096	0.001846138
	-0.7727019	-0.5392039	-0.02503103	0.01384837	-0.001896684	0.001846514	0.00526469	-0.005469671
	0.00498196	-0.005694031	-0.001896684	0.001846514	-0.02548076	0.01362584	-0.7737653	-0.5375909
	-0.001897096	0.001846138	0.00526469	-0.005469671	-0.7737653	-0.5375909	-0.02505976	0.01400989
2.2e+08	-0.02014036	0.01382364	-0.8302457	-0.4429162	0.003475168	-0.004583817	-0.001626258	0.002189107
	-0.8302457	-0.4429162	-0.01972356	0.01413717	-0.001625771	0.00218942	0.003740432	-0.004411341
	0.003475168	-0.004583817	-0.001625771	0.00218942	-0.02012528	0.01398338	-0.8311477	-0.4411143
	-0.001626258	0.002189107	0.003740432	-0.004411341	-0.8311477	-0.4411143	-0.01972652	0.01428299
2.3e+08	-0.01496287	0.01282704	-0.8759048	-0.3406138	0.002273495	-0.003142396	-0.001298583	0.002468489
	-0.8759048	-0.3406138	-0.01459788	0.01305734	-0.001298036	0.002468728	0.002504265	-0.003017768
	0.002273495	-0.003142396	-0.001298036	0.002468728	-0.01492854	0.01296127	-0.8766153	-0.3386393
	-0.001298583	0.002468489	0.002504265	-0.003017768	-0.8766153	-0.3386393	-0.01457985	0.01318119
2.4e+08	-0.01026192	0.01054739	-0.9090569	-0.233745	0.001447427	-0.00145337	-0.0009341318	0.002676858
	-0.9090569	-0.233745	-0.009976662	0.01070683	-0.0009335441	0.002677017	0.001627643	-0.001368145
	0.001447427	-0.00145337	-0.0009335441	0.002677017	-0.01021581	0.01065163	-0.9095473	-0.2316187
	-0.0009341318	0.002676858	0.001627643	-0.001368145	-0.9095473	-0.2316187	-0.009943927	0.01080382
2.5e+08	-0.006328219	0.007148625	-0.9292536	-0.1238258	0.001045304	0.000385072	-0.0005528404	0.002813637
	-0.9292536	-0.1238258	-0.006147514	0.007256887	-0.0005522269	0.002813717	0.001161012	0.0004434848
	0.001045303	0.0003850719	-0.0005522269	0.002813717	-0.006278763	0.007220441	-0.9294975	-0.1215729
	-0.0005528404	0.002813637	0.001161012	0.0004434848	-0.9294975	-0.1215729	-0.006107467	0.007323833
2.6e+08	-0.003403049	0.002857972	-0.9362298	-0.01241893	0.001090335	0.002265872	-0.0001721955	0.002884362
	-0.9362298	-0.01241893	-0.003346755	0.002941133	-0.0001715685	0.002884367	0.001130757	0.00231366
	0.001090335	0.002265872	-0.0001715685	0.002884367	-0.003359208	0.002897102	-0.9362037	-0.01006897
	-0.0001721955	0.002884362	0.001130757	0.00231366	-0.9362037	-0.01006897	-0.003307494	0.00297679
2.7e+08	-0.001665104	-0.00204803	-0.9299102	0.09888886	0.001579093	0.004079464	0.0001946266	0.002899187
	-0.9299102	0.09888886	-0.001746457	-0.001958753	0.0001952595	0.002899125	0.001537534	0.004135585
	0.001579093	0.004079464	0.0001952595	0.002899125	-0.001635683	-0.002039538	-0.9295941	0.1013025
	0.0001946266	0.002899187	0.001537534	0.004135585	-0.9295941	0.1013025	-0.001716179	-0.00195354
2.8e+08	-0.001220771	-0.00726001	-0.9104121	0.208511	0.002481607	0.005720366	0.0005399329	0.002870852
	-0.9104121	0.208511	-0.001445085	-0.007129994	0.0005405693	0.002870729	0.002356157	0.005805495
	0.002481607	0.005720366	0.0005405693	0.002870729	-0.001213874	-0.007277917	-0.9097906	0.2109513
	0.0005399329	0.002870852	0.002356157	0.005805495	-0.9097906	0.2109513	-0.001431593	-0.007152335
2.9e+08	-0.002098834	-0.01245414	-0.8780458	0.314886	0.003743127	0.007093594	0.0008618517	0.002812393
	-0.8780458	0.314886	-0.00246266	-0.0122474	0.0008624938	0.002812214	0.003537076	0.007228898
	0.003743127	0.007093594	0.0008624938	0.002812214	-0.00212134	-0.01249224	-0.8771081	0.3173133
	0.0008618517	0.002812393	0.003537076	0.007228898	-0.8771081	0.3173133	-0.002472864	-0.01229251
3e+08	-0.004249742	-0.0173111	-0.8333098	0.4165027	0.005287442	0.008120463	0.001163808	0.002734932
	-0.8333098	0.4165027	-0.004740559	-0.01699255	0.001164462	0.002734698	0.005009387	0.008326281
	0.005287442	0.008120463	0.001164462	0.002734698	-0.004306835	-0.0173616	-0.8320505	0.4188749
	0.001163808	0.002734932	0.005009387	0.008326281	-0.8320505	0.4188749	-0.004780023	-0.01705403
3.1e+08	-0.007549444	-0.02153464	-0.7768828	0.5119241	0.007021588	0.00874337	0.00145323	0.002645834
	-0.7768828	0.5119241	-0.008145934	-0.02107238	0.001453902	0.002645539	0.006685196	0.009037871
	0.007021588	0.00874337	0.001453902	0.002645539	-0.007644248	-0.02158858	-0.7753023	0.5141978
	0.00145323	0.002645834	0.006685196	0.009037871	-0.7753023	0.5141978	-0.008218504	-0.02114257
3.2e+08	-0.01180752	-0.02486843	-0.7096122	0.5998103	0.008841586	0.008929228	0.001739673	0.0025475
	-0.7096122	0.5998103	-0.01248044	-0.02423596	0.001740369	0.002547133	0.008465023	0.009327146
	0.008841586	0.008929228	0.001740369	0.002547133	-0.01194086	-0.02491626	-0.707717	0.6019413
	0.001739673	0.0025475	0.008465023	0.009327146	-0.707717	0.6019413	-0.01258797	-0.02430644
3.3e+08	-0.01677906	-0.02711044	-0.6324994	0.6789389	0.01063886	0.008671332	0.002032651	0.002436946
	-0.6324994	0.6789389	-0.01749264	-0.02628866	0.002033371	0.002436489	0.0102439	0.009182854
	0.01063886	0.008671332	0.002033371	0.002436489	-0.01694936	-0.02714261	-0.630302	0.6808834
	0.002032651	0.002436946	0.0102439	0.009182854	-0.630302	0.6808834	-0.01763486	-0.02635074
3.4e+08	-0.0221795	-0.02812392	-0.5466819	0.7482229	0.01230687	0.007989545	0.002339464	0.002306228
	-0.5466819	0.7482229	-0.02289336	-0.02710269	0.002340203	0.002305661	0.01191773	0.008619434
	0.01230687	0.007989545	0.002340203	0.002305661	-0.02238283	-0.02813147	-0.5442011	0.7499383
	0.002339464	0.002306228	0.01191773	0.008619434	-0.5442011	0.7499383	-0.02306786	-0.02714796
3.5e+08	-0.02770149	-0.02784445	-0.4534137	0.806725	0.0137475	0.006928828	0.002663347	0.002143638
	-0.4534137	0.806725	-0.02837295	-0.02662365	0.002664092	0.002142938	0.01338946	0.007675851
	0.0137475	0.006928828	0.002664092	0.002142938	-0.02793179	-0.02781958	-0.4506743	0.8081708
	0.002663347	0.002143638	0.01338946	0.007675851	-0.4506743	0.8081708	-0.0285753	-0.02664449
3.6e+08	-0.03303279	-0.02628267	-0.3540452	0.8536695	0.01487682	0.005556263	0.003002182	0.001935506
	-0.3540452	0.8536695	-0.03361936	-0.02487276	0.00300291	0.001934651	0.01457475	0.006412966
	0.01487682	0.005556263	0.00300291	0.001934651	-0.03328221	-0.02621924	-0.3510777	0.8548079
	0.003002182	0.001935506	0.01457475	0.006412966	-0.3510777	0.8548079	-0.03384337	-0.02486283
3.7e+08	-0.03787411	-0.02352282	-0.250001	0.8884498	0.0156299	0.003956802	0.003347959	0.00166836
	-0.250001	0.8884498	-0.03833616	-0.02194466	0.003348638	0.001667334	0.01540668	0.004909666
	0.0156299	0.003956802	0.003348638	0.001667334	-0.03813345	-0.02341679	-0.2468413	0.8892469
	0.003347959	0.00166836	0.01540668	0.004909666	-0.2468413	0.8892469	-0.03857423	-0.0218993
3.8e+08	-0.04195595	-0.01971708	-0.1427591	0.9106343	0.01596438	0.002228052	0.003687051	0.001331148
	-0.1427591	0.9106343	-0.04225921	-0.01800115	0.00368764	0.001329942	0.01583942	0.003258039
	0.01596438	0.002228052	0.00368764	0.001329942	-0.04221519	-0.01956677	-0.1394478	0.9110604
	0.003687051	0.001331148	0.01583942	0.003258039	-0.1394478	0.9110604	-0.0425028	-0.01791765
3.9e+08	-0.04505341	-0.01507631	-0.03382918	0.9199681	0.01586257	0.0004744543	0.004001272	0.0009172325
	-0.03382918	0.9199681	-0.04517137	-0.01326122	0.004001727	0.0009158495	0.0158505	0.001557911
	0.01586257	0.0004744543	0.004001727	0.0009158495	-0.04530236	-0.0148825	-0.0304112	0.919999
	0.004001272	0.0009172325	0.0158505	0.001557911	-0.0304112	0.919999	-0.04541149	-0.01313907
4e+08	-0.04699846	-0.009857549	0.07526701	0.9163738	0.01533227	-0.001198798	0.004269591	0.000425893
	0.07526701	0.9163738	-0.04691426	-0.007988153	0.004269865	0.0004243476	0.0154418	-8.891255e-05
	0.01533227	-0.001198798	0.004269865	0.0004243476	-0.04722734	-0.009623551	0.07874338	0.9159905
	0.004269591	0.000425893	0.0154418	-8.891255e-05	0.07874338	0.9159905	-0.047142	-0.007829009
4.1e+08	-0.04768878	-0.004349321	0.1830158	0.8999491	0.01440596	-0.002691763	0.004470268	-0.0001368519
	0.1830158	0.8999491	-0.04739666	-0.002474198	0.004470317	-0.0001385318	0.01463916	-0.001584391
	0.01440596	-0.002691763	0.004470317	-0.0001385318	-0.04788882	-0.004080757	0.1864994	0.8991389
	0.004470268	-0.0001368519	0.01463916	-0.001584391	0.1864994	0.8991389	-0.04760375	-0.002281866
4.2e+08	-0.04709299	0.00114472	0.2879299	0.8709638	0.01313879	-0.003915346	0.00458317	-0.0007582122
	0.2879299	0.8709638	-0.04659909	0.002975995	0.004582957	-0.0007599865	0.01349065	-0.002839676
	0.01313879	-0.003915346	0.004582957	-0.0007599865	-0.047257	0.001440198	0.2913675	0.8697202
	0.00458317	-0.0007582122	0.01349065	-0.002839676	0.2913675	0.8697202	-0.04677839	0.003195796
4.3e+08	-0.04525193	0.006322773	0.3885662	0.8298542	0.01160533	-0.004796242	0.004591965	-0.001419392
	0.3885662	0.8298542	-0.04457442	0.008062566	0.004591463	-0.00142121	0.01206377	-0.003779972
	0.01160533	-0.004796242	0.004591463	-0.00142121	-0.04537475	0.006635911	0.3919033	0.8281775
	0.004591965	-0.001419392	0.01206377	-0.003779972	0.3919033	0.8281775	-0.04472036	0.008302513
4.4e+08	-0.04227605	0.01090163	0.4835427	0.7772178	0.009895275	-0.005280976	0.004485934	-0.002097055
	0.4835427	0.7772178	-0.04144454	0.01250717	0.004485128	-0.002098862	0.01044163	-0.004348604
	0.009895275	-0.005280976	0.004485128	-0.002098862	-0.04235488	0.0112221	0.4867244	0.7751151
	0.004485934	-0.002097055	0.01044163	-0.004348604	0.4867244	0.7751151	-0.04155343	0.01275876
4.5e+08	-0.03833898	0.01463233	0.5715555	0.7138054	0.008108397	-0.005338867	0.00426119	-0.002765332
	0.5715555	0.7138054	-0.03739319	0.01606845	0.004260078	-0.002767067	0.008718224	-0.004510117
	0.008108397	-0.005338867	0.004260078	-0.002767067	-0.03837362	0.01494935	0.5745273	0.7112904
	0.00426119	-0.002765332	0.008718224	-0.004510117	0.5745273	0.7112904	-0.03746354	0.01632248
4.6e+08	-0.03366773	0.01731392	0.6513946	0.6405122	0.006348962	-0.004963769	0.003921145	-0.003398105
	0.6513946	0.6405122	-0.03265554	0.01855545	0.003919742	-0.00339971	0.006993299	-0.00425224
	0.006348962	-0.004963769	0.003919742	-0.00339971	-0.03366062	0.01761692	0.654103	0.6376059
	0.003921145	-0.003398105	0.006993299	-0.00425224	0.654103	0.6376059	-0.03268811	0.01880264
4.7e+08	-0.02852995	0.01880454	0.7219594	0.5583684	0.004719838	-0.004174504	0.003476183	-0.00397133
	0.7219594	0.5583684	-0.02750487	0.01983817	0.003474515	-0.003972753	0.005366731	-0.003586639
	0.004719838	-0.004174504	0.003474515	-0.003972753	-0.02848604	0.0190837	0.724353	0.5550986
	0.003476183	-0.00397133	0.005366731	-0.003586639	0.724353	0.5550986	-0.02750265	0.02006957
4.8e+08	-0.02321893	0.01902927	0.7822739	0.4685268	0.003316649	-0.003013919	0.002942576	-0.004465088
	0.7822739	0.4685268	-0.02223718	0.01985483	0.002940681	-0.004466288	0.003932927	-0.002548366
	0.003316649	-0.003013919	0.002940681	-0.004466288	-0.0231455	0.01927619	0.7843042	0.4649277
	0.002942576	-0.004465088	0.003932927	-0.002548366	0.7843042	0.4649277	-0.02220527	0.02006241
4.9e+08	-0.01803722	0.0179843	0.8315014	0.3722494	0.002222233	-0.001546601	0.002340779	-0.004865146
	0.8315014	0.3722494	-0.01715444	0.01861522	0.0023387	-0.004866091	0.002775411	-0.001194007
	0.002222233	-0.001546601	0.0023387	-0.004866091	-0.01794344	0.0181925	0.8331236	0.3683617
	0.002340779	-0.004865146	0.002775411	-0.001194007	0.8331236	0.3683617	-0.01709981	0.01879239
5e+08	-0.01327961	0.01573711	0.8689571	0.2708915	0.001501747	0.0001446791	0.001693317	-0.005163826
	0.8689571	0.2708915	-0.01254763	0.01620018	0.001691101	-0.005164496	0.001961957	0.000401405
	0.001501747	0.0001446791	0.001691101	-0.005164496	-0.01317607	0.01590249	0.8701308	0.2667621
	0.001693317	-0.005163826	0.001961957	0.000401405	0.8701308	0.2667621	-0.01247867	0.01634217
