!$
! Info: Touchstone file created by Circ.  Input file=Tx_16in_Rx_100ohms_TxVia_10mils_RxVia_20mils1.circ
!$
# Hz S RI R 50
0	0.01647581	9.803585e-26	1.072377e-10	3.452076e-28	9.761315e-05	1.751238e-23	-4.961802e-09	6.076944e-25
	1.072495e-10	3.45385e-28	0.01647643	1.376225e-25	5.348269e-10	4.385658e-27	9.571141e-05	2.347463e-23
	9.631378e-05	1.706345e-23	5.347664e-10	4.392717e-27	0.01649082	1.026239e-25	-9.003837e-09	1.116477e-24
	-4.960933e-09	6.075881e-25	9.716467e-05	2.416102e-23	-9.004029e-09	1.1165e-24	0.01648193	1.312075e-25
1e+07	0.02445999	0.008739323	4.704503e-11	-3.551769e-11	0.001161524	0.002748979	-4.370438e-09	1.738641e-08
	4.704502e-11	-3.551798e-11	0.02469662	0.008700877	6.644952e-10	1.036588e-09	0.001156418	0.002747061
	0.001161479	0.002748982	6.644951e-10	1.036588e-09	0.02471557	0.008699402	-5.774832e-09	1.740707e-08
	-4.370438e-09	1.738641e-08	0.001156452	0.00274705	-5.774832e-09	1.740707e-08	0.0244743	0.008742848
2e+07	0.03236765	0.0105497	4.294442e-11	-3.644187e-11	0.002290133	0.00548297	-1.684337e-09	1.440017e-08
	4.294418e-11	-3.644192e-11	0.03250704	0.01040951	8.441021e-10	1.820984e-09	0.002271685	0.005484151
	0.002290122	0.005482998	8.441023e-10	1.820985e-09	0.0325382	0.01040183	-3.13994e-09	1.543234e-08
	-1.684337e-09	1.440017e-08	0.002271683	0.005484129	-3.13994e-09	1.543234e-08	0.03237484	0.01055654
3e+07	0.03875866	0.008646084	4.045564e-11	-7.257572e-11	0.004144051	0.007441648	3.187125e-09	1.245274e-08
	4.045562e-11	-7.257567e-11	0.0388086	0.008486294	9.083085e-10	2.574193e-09	0.004106887	0.00745412
	0.004144051	0.007441653	9.083085e-10	2.574193e-09	0.03885713	0.008464677	2.509817e-09	1.411344e-08
	3.187125e-09	1.245274e-08	0.004106882	0.007454118	2.509817e-09	1.411344e-08	0.03875539	0.008660828
4e+07	0.04368324	0.004625869	2.103866e-11	-9.893267e-11	0.006518929	0.008609857	6.60015e-09	9.382362e-09
	2.103864e-11	-9.893274e-11	0.04365146	0.00448267	9.45393e-10	3.355872e-09	0.006461598	0.008643629
	0.006518925	0.008609854	9.45393e-10	3.355872e-09	0.04371832	0.004437085	6.477225e-09	1.120659e-08
	6.60015e-09	9.382362e-09	0.006461598	0.008643631	6.477225e-09	1.120659e-08	0.04366603	0.004652711
5e+07	0.04694139	-0.0008186995	2.645273e-12	-1.126979e-10	0.009274027	0.008753673	8.502373e-09	6.284379e-09
	2.645223e-12	-1.126979e-10	0.04684122	-0.0009183599	9.734917e-10	4.144683e-09	0.009199393	0.008818702
	0.009274025	0.008753672	9.734917e-10	4.144683e-09	0.04692245	-0.0009980078	8.68411e-09	8.173051e-09
	8.502373e-09	6.284379e-09	0.009199392	0.008818702	8.68411e-09	8.173051e-09	0.04690914	-0.0007719793
6e+07	0.04837432	-0.007091714	5.296515e-12	-1.242278e-10	0.01187725	0.00804689	9.5486e-09	3.870761e-09
	5.296639e-12	-1.242278e-10	0.04822458	-0.007128061	9.88283e-10	4.930891e-09	0.01179258	0.008151767
	0.01187726	0.008046888	9.88283e-10	4.930891e-09	0.04831171	-0.007249823	9.774926e-09	5.86364e-09
	9.5486e-09	3.870761e-09	0.01179258	0.008151768	9.774926e-09	5.86364e-09	0.0483305	-0.007017477
7e+07	0.0479234	-0.01362362	9.718932e-11	-1.869821e-10	0.01408365	0.006586674	1.042343e-08	3.185386e-09
	9.718973e-11	-1.869822e-10	0.04774697	-0.01358462	9.733392e-10	5.665821e-09	0.01399964	0.006736786
	0.01408366	0.006586668	9.733391e-10	5.665821e-09	0.04782812	-0.01375271	1.015541e-08	5.137046e-09
	1.042343e-08	3.185386e-09	0.01399963	0.006736788	1.015541e-08	5.137045e-09	0.04787435	-0.01351638
8e+07	0.04565538	-0.01987133	-1.2543e-09	-3.932926e-10	0.01568799	0.004537943	8.162348e-09	6.963969e-09
	-1.2543e-09	-3.932929e-10	0.04547707	-0.01975333	1.174318e-09	6.370884e-09	0.01561737	0.004734293
	0.015688	0.004537933	1.174317e-09	6.370883e-09	0.04553872	-0.01996695	8.208863e-09	7.06907e-09
	8.162348e-09	6.963969e-09	0.01561736	0.004734297	8.208863e-09	7.06907e-09	0.04560929	-0.01972801
9e+07	0.04176627	-0.02534242	-9.794695e-11	-1.292203e-10	0.01654403	0.002118973	8.343866e-10	3.695873e-09
	-9.794658e-11	-1.292207e-10	0.04161048	-0.02515023	1.249714e-09	7.397544e-09	0.01649984	0.002357551
	0.01654403	0.002118964	1.249714e-09	7.397544e-09	0.04163951	-0.02540314	2.08437e-09	5.495642e-09
	8.343866e-10	3.695873e-09	0.01649984	0.002357555	2.08437e-09	5.495642e-09	0.04173275	-0.02516283
1e+08	0.03658419	-0.02962603	-1.480403e-11	-6.247053e-11	0.01657134	-0.0004186062	-6.7335e-11	3.674928e-10
	-1.480403e-11	-6.247053e-11	0.03647419	-0.02937251	1.230579e-09	8.353369e-09	0.01656503	-0.0001467895
	0.01657134	-0.0004186061	1.230579e-09	8.353369e-09	0.03645992	-0.02965336	3.464913e-10	2.222839e-09
	-6.7335e-11	3.674928e-10	0.01656503	-0.0001467896	3.464913e-10	2.222839e-09	0.03657345	-0.02941381
1.1e+08	0.03045078	-0.03250378	-2.865587e-12	-6.492265e-11	0.01580691	-0.002776462	6.68998e-11	3.970446e-10
	-2.865587e-12	-6.492265e-11	0.03039736	-0.03221508	1.376706e-09	9.18676e-09	0.01584616	-0.002485102
	0.01580691	-0.002776462	1.376706e-09	9.18676e-09	0.03033312	-0.03251099	6.967683e-10	2.327822e-09
	6.68998e-11	3.970446e-10	0.01584616	-0.002485102	6.967683e-10	2.327822e-09	0.03047077	-0.03226678
1.2e+08	0.02380034	-0.03366043	2.112941e-11	-7.00935e-11	0.01435665	-0.00476855	2.031634e-10	3.79702e-10
	2.112941e-11	-7.00935e-11	0.02380501	-0.03335559	1.551182e-09	9.990375e-09	0.0144446	-0.004473628
	0.01435665	-0.00476855	1.551182e-09	9.990375e-09	0.02368906	-0.03364729	1.059489e-09	2.316096e-09
	2.031634e-10	3.79702e-10	0.0144446	-0.004473628	1.059489e-09	2.316096e-09	0.02385682	-0.03341011
1.3e+08	0.01717006	-0.03304924	5.248622e-11	-7.763688e-11	0.01235853	-0.006198047	3.292062e-10	3.151655e-10
	5.248622e-11	-7.763688e-11	0.01723077	-0.03274819	1.743627e-09	1.07572e-08	0.0124924	-0.005916666
	0.01235853	-0.006198047	1.743627e-09	1.07572e-08	0.01706888	-0.03301643	1.389916e-09	2.187988e-09
	3.292062e-10	3.151655e-10	0.0124924	-0.005916666	1.389916e-09	2.187988e-09	0.01726434	-0.0327992
1.4e+08	0.01105855	-0.03077215	9.24557e-11	-8.92191e-11	0.01001485	-0.006923657	4.297829e-10	2.083041e-10
	9.24557e-11	-8.92191e-11	0.01116712	-0.03049384	1.942855e-09	1.148201e-08	0.01018567	-0.006671846
	0.01001485	-0.006923656	1.942855e-09	1.148201e-08	0.01097195	-0.03072205	1.649622e-09	1.955992e-09
	4.297829e-10	2.083041e-10	0.01018567	-0.006671846	1.649622e-09	1.955992e-09	0.01118684	-0.03053644
1.5e+08	0.005904381	-0.02706463	1.426277e-10	-1.086962e-10	0.007562905	-0.006875349	4.916478e-10	6.91462e-11
	1.426277e-10	-1.086962e-10	0.006046645	-0.02682488	2.136281e-09	1.216288e-08	0.007756065	-0.006665863
	0.007562905	-0.006875349	2.136281e-09	1.216288e-08	0.005836456	-0.02700129	1.806035e-09	1.644157e-09
	4.916478e-10	6.91462e-11	0.007756065	-0.006665863	1.806035e-09	1.644157e-09	0.006057743	-0.02685583
1.6e+08	0.002054105	-0.02227244	2.028429e-10	-1.4226e-10	0.005249641	-0.006061347	5.05444e-10	-8.845228e-11
	2.028429e-10	-1.4226e-10	0.002210961	-0.02208189	2.310634e-09	1.280165e-08	0.005446154	-0.005901721
	0.005249641	-0.006061347	2.310634e-09	1.280165e-08	0.002007796	-0.02220124	1.835033e-09	1.285657e-09
	5.05444e-10	-8.845228e-11	0.005446154	-0.005901721	1.835033e-09	1.285657e-09	0.002219076	-0.02209982
1.7e+08	-0.0002633184	-0.01682005	2.693806e-10	-1.972454e-10	0.003306188	-0.00456679	4.666094e-10	-2.483625e-10
	2.693806e-10	-1.972454e-10	-0.0001141047	-0.01668267	2.452924e-09	1.34043e-08	0.003484616	-0.004457914
	0.003306188	-0.00456679	2.452924e-09	1.34043e-08	-0.0002866907	-0.01674726	1.722869e-09	9.201761e-10
	4.666094e-10	-2.483625e-10	0.003484616	-0.004457914	1.722869e-09	9.201761e-10	-0.0001034436	-0.01668804
1.8e+08	-0.0009523579	-0.0111733	3.340835e-10	-2.799053e-10	0.001924445	-0.002544448	3.756696e-10	-3.937247e-10
	3.340835e-10	-2.799053e-10	-0.0008338571	-0.01108543	2.551739e-09	1.398119e-08	0.002063258	-0.002479842
	0.001924445	-0.002544448	2.551739e-09	1.398119e-08	-0.0009533413	-0.01110544	1.467594e-09	5.911414e-10
	3.756696e-10	-3.937247e-10	0.002063258	-0.002479842	1.467594e-09	5.911414e-10	-0.0008157387	-0.01108039
1.9e+08	-5.546298e-05	-0.005799145	3.849118e-10	-3.927991e-10	0.001238044	-0.0001985804	2.381457e-10	-5.083227e-10
	3.849118e-10	-3.927991e-10	1.099884e-05	-0.0057494	2.59885e-09	1.45468e-08	0.001318153	-0.0001645129
	0.001238044	-0.0001985803	2.59885e-09	1.45468e-08	-3.649311e-05	-0.005742426	1.080127e-09	3.427224e-10
	2.381457e-10	-5.083227e-10	0.001318153	-0.0001645129	1.080127e-09	3.427224e-10	4.040406e-05	-0.005737522
2e+08	0.002254138	-0.001126119	4.079889e-10	-5.326765e-10	0.001309533	0.002236213	6.426729e-11	-5.778132e-10
	4.079889e-10	-5.326765e-10	0.002251531	-0.001096139	2.590914e-09	1.511877e-08	0.001316714	0.002259747
	0.001309533	0.002236213	2.590914e-09	1.511877e-08	0.002288901	-0.001085826	5.848843e-10	2.163291e-10
	6.426729e-11	-5.778132e-10	0.001316714	0.002259747	5.848843e-10	2.163291e-10	0.002294615	-0.001081986
2.1e+08	0.005690666	0.002491106	3.906814e-10	-6.896606e-10	0.002124965	0.004518884	-1.314575e-10	-5.909323e-10
	3.906814e-10	-6.896606e-10	0.005608486	0.00252503	2.530872e-09	1.571613e-08	0.002051883	0.004556386
	0.002124965	0.004518884	2.530872e-09	1.571613e-08	0.005735661	0.00251107	1.958455e-11	2.464706e-10
	-1.314575e-10	-5.909323e-10	0.002051883	0.004556386	1.958454e-11	2.464706e-10	0.005665981	0.002536399
2.2e+08	0.00988328	0.004799981	3.248562e-10	-8.481536e-10	0.003596253	0.006426075	-3.30918e-10	-5.407819e-10
	3.248562e-10	-8.481536e-10	0.009719181	0.004864601	2.428595e-09	1.635686e-08	0.003443823	0.006504133
	0.003596253	0.006426075	2.428595e-09	1.635686e-08	0.009931998	0.004797475	-5.663317e-10	4.561468e-10
	-3.30918e-10	-5.407819e-10	0.003443823	0.006504133	-5.663317e-10	4.561468e-10	0.009790095	0.004868178
2.3e+08	0.01441024	0.005668871	2.093509e-10	-9.893384e-10	0.005570838	0.007774074	-5.135302e-10	-4.261528e-10
	2.093509e-10	-9.893384e-10	0.01417084	0.005791183	2.300428e-09	1.705505e-08	0.005348745	0.007918566
	0.005570838	0.007774074	2.300428e-09	1.705505e-08	0.01445577	0.005643739	-1.115157e-09	8.52378e-10
	-5.135302e-10	-4.261528e-10	0.005348745	0.007918566	-1.115157e-09	8.52378e-10	0.01425257	0.005782556
2.4e+08	0.01883658	0.005094918	5.09125e-11	-1.094639e-09	0.007847555	0.008436506	-6.579967e-10	-2.526504e-10
	5.09125e-11	-1.094639e-09	0.01853733	0.005299172	2.167515e-09	1.781849e-08	0.007573821	0.008669708
	0.007847555	0.008436506	2.167515e-09	1.781849e-08	0.01887222	0.005049051	-1.566376e-09	1.422806e-09
	-6.579967e-10	-2.526504e-10	0.007573821	0.008669708	-1.566376e-09	1.422806e-09	0.01862594	0.005275011
2.5e+08	0.02275202	0.003200601	-1.366608e-10	-1.14918e-09	0.01019698	0.008356142	-7.447045e-10	-3.3246e-11
	-1.366608e-10	-1.14918e-09	0.02241605	0.003505454	2.053102e-09	1.864694e-08	0.009896597	0.008694062
	0.01019698	0.008356143	2.053102e-09	1.864694e-08	0.02277184	0.003137822	-1.863702e-09	2.13441e-09
	-7.447045e-10	-3.3246e-11	0.009896597	0.008694062	-1.863702e-09	2.13441e-09	0.02250667	0.003463888
2.6e+08	0.02580565	0.0002195695	-3.348739e-10	-1.144333e-09	0.01238426	0.007549848	-7.585212e-10	2.121458e-10
	-3.348739e-10	-1.144333e-09	0.02546175	0.0006356886	1.979319e-09	1.953178e-08	0.01208696	0.008000077
	0.01238426	0.007549848	1.979319e-09	1.953178e-08	0.02580509	0.0001453391	-1.962707e-09	2.935098e-09
	-7.585212e-10	2.121458e-10	0.01208696	0.008000077	-1.962707e-09	2.935098e-09	0.02554912	0.0005765278
2.7e+08	0.02773476	-0.003526733	-5.236387e-10	-1.07876e-09	0.01419215	0.006106304	-6.915048e-10	4.583091e-10
	-5.236387e-10	-1.07876e-09	0.0274146	-0.002998338	1.964048e-09	2.045699e-08	0.01392957	0.006666662
	0.01419215	0.006106304	1.964048e-09	2.045699e-08	0.02771104	-0.00360577	-1.837693e-09	3.758412e-09
	-6.915048e-10	4.583091e-10	0.01392957	0.006666662	-1.837693e-09	3.758412e-09	0.0274936	-0.003073545
2.8e+08	0.02838523	-0.00765945	-6.842246e-10	-9.57888e-10	0.01544225	0.004176842	-5.449142e-10	6.775562e-10
	-6.842246e-10	-9.57888e-10	0.02812014	-0.007028123	2.018506e-09	2.140128e-08	0.01524469	0.00483498
	0.01544225	0.004176842	2.018506e-09	2.140128e-08	0.02833769	-0.007736029	-1.486415e-09	4.530861e-09
	-5.449142e-10	6.775562e-10	0.01524469	0.00483498	-1.486415e-09	4.530861e-09	0.02818638	-0.007116212
2.9e+08	0.02772221	-0.01177694	-8.012894e-10	-7.922635e-10	0.01601225	0.001960277	-3.29953e-10	8.433662e-10
	-8.012894e-10	-7.922635e-10	0.02753976	-0.011062	2.145968e-09	2.234102e-08	0.01590543	0.002694351
	0.01601225	0.001960277	2.145968e-09	2.234102e-08	0.0276524	-0.01184384	-9.316253e-10	5.180741e-09
	-3.29953e-10	8.433662e-10	0.01590543	0.002694351	-9.316253e-10	5.180741e-09	0.02759004	-0.01115851
3e+08	0.0258301	-0.01549063	-8.636755e-10	-5.955612e-10	0.01584782	-0.0003167982	-6.692415e-11	9.341879e-10
	-8.636755e-10	-5.955612e-10	0.02575099	-0.01471993	2.341736e-09	2.325314e-08	0.01584986	0.0004635795
	0.01584782	-0.0003167982	2.341736e-09	2.325314e-08	0.02574174	-0.01554135	-2.190596e-10	5.646955e-09
	-6.692415e-11	9.341879e-10	0.01584986	0.0004635795	-2.190596e-10	5.646955e-09	0.0257837	-0.01481952
3.1e+08	0.02290231	-0.01845904	-8.641618e-10	-3.830032e-10	0.01496779	-0.002422422	2.171688e-10	9.366435e-10
	-8.641618e-10	-3.830032e-10	0.02293776	-0.01766645	2.594203e-09	2.411776e-08	0.01508694	-0.001630529
	0.01496779	-0.002422422	2.594203e-09	2.411776e-08	0.02280098	-0.01848842	5.877449e-10	5.886301e-09
	2.171688e-10	9.366435e-10	0.01508694	-0.001630529	5.877449e-10	5.886301e-09	0.02295307	-0.01776349
3.2e+08	0.0192216	-0.02041704	-7.98772e-10	-1.706679e-10	0.0134622	-0.00414222	4.92144e-10	8.474705e-10
	-7.98772e-10	-1.706679e-10	0.01937157	-0.01963926	2.886592e-09	2.491987e-08	0.01369537	-0.003375441
	0.0134622	-0.00414222	2.886592e-09	2.491987e-08	0.01911426	-0.02042181	1.414789e-09	5.87812e-09
	4.92144e-10	8.474705e-10	0.01369537	-0.003375441	1.414789e-09	5.87812e-09	0.01937149	-0.01972838
3.3e+08	0.01513283	-0.02119795	-6.664027e-10	2.436249e-11	0.01148337	-0.005300706	7.285845e-10	6.738449e-10
	-6.664027e-10	2.436249e-11	0.0153855	-0.02047079	3.198908e-09	2.565023e-08	0.01181585	-0.004593818
	0.01148337	-0.005300706	3.198908e-09	2.565023e-08	0.01502722	-0.02117708	2.185715e-09	5.625831e-09
	7.285845e-10	6.738449e-10	0.01181585	-0.004593818	2.185715e-09	5.625831e-09	0.01537365	-0.02054748
3.4e+08	0.01101074	-0.02074651	-4.693123e-10	1.835408e-10	0.009230663	-0.005778784	9.014227e-10	4.321252e-10
	-4.693123e-10	1.835408e-10	0.01134302	-0.02010107	3.509715e-09	2.630563e-08	0.009636982	-0.005161018
	0.009230663	-0.005778784	3.509715e-09	2.630563e-08	0.01091466	-0.02070139	2.829374e-09	5.155618e-09
	9.014227e-10	4.321252e-10	0.009636982	-0.005161018	2.829374e-09	5.155618e-09	0.01132438	-0.02016215
3.5e+08	0.007225362	-0.01912172	-2.145631e-10	2.868716e-10	0.006930547	-0.005525665	9.92542e-10	1.454434e-10
	-2.145631e-10	2.868716e-10	0.007604788	-0.01858086	3.797558e-09	2.688863e-08	0.007376559	-0.005017399
	0.006930547	-0.005525665	3.797558e-09	2.688863e-08	0.007145917	-0.01905608	3.285918e-09	4.513007e-09
	9.92542e-10	1.454434e-10	0.007376559	-0.005017399	3.285918e-09	4.513007e-09	0.007585125	-0.0186249
3.6e+08	0.004108487	-0.01648927	8.408095e-11	3.141488e-10	0.004813825	-0.00456393	9.921103e-10	-1.592148e-10
	8.408095e-11	3.141488e-10	0.004496089	-0.01606485	4.042115e-09	2.74074e-08	0.005259768	-0.00417414
	0.004813825	-0.00456393	4.042115e-09	2.74074e-08	0.004051382	-0.01640892	3.511109e-09	3.758341e-09
	9.921103e-10	-1.592148e-10	0.005259768	-0.00417414	3.511109e-09	3.758341e-09	0.004481426	-0.01609232
3.7e+08	0.00192399	-0.01310441	4.047107e-10	2.477037e-10	0.00309242	-0.002987166	8.987423e-10	-4.538068e-10
	4.047107e-10	2.477037e-10	0.002278052	-0.0127955	4.225307e-09	2.787551e-08	0.003496725	-0.002711946
	0.00309242	-0.002987166	4.225307e-09	2.787551e-08	0.00189295	-0.0130167	3.479029e-09	2.961949e-09
	8.987423e-10	-4.538068e-10	0.003496725	-0.002711946	3.479029e-09	2.961949e-09	0.002274019	-0.01280878
3.8e+08	0.0008448748	-0.009286846	7.173081e-10	7.632858e-11	0.001938076	-0.0009503982	7.188783e-10	-7.114941e-10
	7.173081e-10	7.632858e-11	0.001125131	-0.009079173	4.332632e-09	2.83117e-08	0.002261536	-0.0007727435
	0.001938076	-0.0009503982	4.332632e-09	2.83117e-08	0.0008412267	-0.009200005	3.183698e-09	2.199384e-09
	7.188783e-10	-7.114941e-10	0.002261536	-0.0007727435	3.183698e-09	2.199384e-09	0.001136373	-0.009082359
3.9e+08	0.0009390374	-0.005390067	9.85959e-10	-2.005801e-10	0.001465195	0.001345714	4.658586e-10	-9.082948e-10
	9.85959e-10	-2.005801e-10	0.001110901	-0.005256922	4.354835e-09	2.873938e-08	0.001675074	0.001454771
	0.001465195	0.001345714	4.354835e-09	2.873938e-08	0.0009615279	-0.005312445	2.640033e-09	1.546669e-09
	4.658586e-10	-9.082948e-10	0.001675074	0.001454771	2.640033e-09	1.546669e-09	0.001140569	-0.005255431
4e+08	0.002164992	-0.001768084	1.173292e-09	-5.699451e-10	0.00171957	0.003675234	1.590338e-10	-1.024346e-09
	1.173292e-09	-5.699451e-10	0.002203372	-0.001672509	4.289747e-09	2.91853e-08	0.001793217	0.003754205
	0.00171957	0.003675234	4.289747e-09	2.91853e-08	0.002209848	-0.001707335	1.884231e-09	1.075163e-09
	1.590338e-10	-1.024346e-09	0.001793217	0.003754205	1.884231e-09	1.075163e-09	0.002252765	-0.001672551
4.1e+08	0.004377815	0.001257274	1.246433e-09	-1.004193e-09	0.002674132	0.005809735	-1.77041e-10	-1.045131e-09
	1.246433e-09	-1.004193e-09	0.004270097	0.001359138	4.143871e-09	2.967732e-08	0.002601706	0.005903186
	0.002674132	0.005809735	4.143871e-09	2.967732e-08	0.004439052	0.001294936	9.731718e-10	8.457398e-10
	-1.77041e-10	-1.045131e-09	0.002601706	0.005903186	9.731718e-10	8.457398e-10	0.004338484	0.001351185
4.2e+08	0.007344558	0.003425458	1.183151e-09	-1.46335e-09	0.004232072	0.007541157	-5.135708e-10	-9.629188e-10
	1.183151e-09	-1.46335e-09	0.007092405	0.003580174	3.933149e-09	3.024134e-08	0.004018065	0.007695463
	0.004232072	0.007541157	3.933149e-09	3.024134e-08	0.007414506	0.003435891	-1.785725e-11	9.023762e-10
	-5.135708e-10	-9.629188e-10	0.004018065	0.007695463	-1.785725e-11	9.023762e-10	0.007177054	0.003558417
4.3e+08	0.01076748	0.004560032	9.766932e-10	-1.899896e-09	0.006236908	0.008702416	-8.190497e-10	-7.783841e-10
	9.766932e-10	-1.899896e-09	0.01038724	0.004812246	3.682381e-09	3.089769e-08	0.005900263	0.008961173
	0.006236908	0.008702416	3.682381e-09	3.089769e-08	0.01083749	0.004541607	-9.998387e-10	1.265788e-09
	-8.190497e-10	-7.783841e-10	0.005900263	0.008961173	-9.998387e-10	1.265788e-09	0.01048366	0.00477189
4.4e+08	0.0143128	0.004583272	6.380506e-10	-2.265445e-09	0.008488387	0.009183729	-1.061686e-09	-5.020499e-10
	6.380506e-10	-2.265445e-09	0.01383442	0.004971111	3.423095e-09	3.165777e-08	0.008061168	0.009583287
	0.008488387	0.009183729	3.423095e-09	3.165777e-08	0.01437405	0.00453707	-1.877409e-09	1.928308e-09
	-1.061686e-09	-5.020499e-10	0.008061168	0.009583287	-1.877409e-09	1.928308e-09	0.01393678	0.004908972
4.5e+08	0.01764208	0.00352136	1.950906e-10	-2.517793e-09	0.01076255	0.008943134	-1.212769e-09	-1.549399e-10
	1.950906e-10	-2.517793e-09	0.01710663	0.00407235	3.190004e-09	3.252168e-08	0.01028724	0.009508701
	0.01076255	0.008943134	3.190004e-09	3.252168e-08	0.01768643	0.003451129	-2.558554e-09	2.851383e-09
	-1.212769e-09	-1.549399e-10	0.01028724	0.009508701	-2.558554e-09	2.851383e-09	0.01720832	0.003987213
4.6e+08	0.02044347	0.001499966	-3.111927e-10	-2.62679e-09	0.01283392	0.008010257	-1.250598e-09	2.321621e-10
	-3.111927e-10	-2.62679e-09	0.01989938	0.002227875	3.016615e-09	3.347746e-08	0.0123596	0.008752982
	0.01283392	0.008010257	3.016615e-09	3.347746e-08	0.02046423	0.001411817	-2.965454e-09	3.966857e-09
	-1.250598e-09	2.321621e-10	0.0123596	0.008752982	-2.965454e-09	3.966857e-09	0.01999369	0.002120655
4.7e+08	0.02245974	-0.001269174	-8.322972e-10	-2.577938e-09	0.01449768	0.006483073	-1.164261e-09	6.212029e-10
	-8.322972e-10	-2.577938e-09	0.02195833	-0.0003661964	2.930808e-09	3.450214e-08	0.01407541	0.007398433
	0.01449768	0.006483073	2.930808e-09	3.450214e-08	0.0224524	-0.001367282	-3.044686e-09	5.182495e-09
	-1.164261e-09	6.212029e-10	0.01407541	0.007398433	-3.044686e-09	5.182495e-09	0.02203903	-0.0004925581
4.8e+08	0.02351098	-0.004509095	-1.318391e-09	-2.373246e-09	0.01558972	0.004518055	-9.563651e-10	9.710325e-10
