!$
! Info: Touchstone file created by Circ.  Input file=Tx_10in_Rx_100ohms_TxVia_10mils_RxVia_20mils.circ
!$
# Hz S RI R 50
0	0.01041145	7.137731e-26	0.9894575	-7.541681e-26	6.519083e-05	1.061818e-23	-6.363192e-05	1.22244e-21
	0.9894574	-7.60489e-26	0.01041105	9.165124e-26	-6.350082e-05	1.206551e-21	6.463934e-05	1.480141e-23
	6.746407e-05	1.064264e-23	-6.344863e-05	1.200218e-21	0.0104038	6.233511e-26	0.9894276	-6.752638e-26
	-6.403989e-05	1.272462e-21	6.609488e-05	1.52342e-23	0.9894276	-7.058019e-26	0.01041662	8.740552e-26
1e+07	0.0153192	0.006478265	0.9796209	-0.1033437	0.0006403424	0.001832133	-0.0004698579	-0.0001551918
	0.9796209	-0.1033437	0.0153167	0.006476302	-0.0004698792	-0.0001551674	0.0006374744	0.001832898
	0.0006403912	0.001832107	-0.0004698423	-0.0001551901	0.01518186	0.006496161	0.9797509	-0.1034473
	-0.0004698211	-0.0001552145	0.0006375073	0.001832887	0.9797509	-0.1034473	0.0151794	0.006494112
2e+07	0.01991361	0.009133616	0.9605892	-0.2016376	0.001062318	0.003755468	-0.0003990745	-0.000476243
	0.9605892	-0.2016376	0.01990336	0.009130535	-0.0003990609	-0.0004762171	0.001051451	0.003759034
	0.001062311	0.003755443	-0.0003990638	-0.0004762452	0.01982247	0.009217367	0.9606459	-0.2018904
	-0.0003990688	-0.0004762786	0.001051449	0.003759012	0.9606459	-0.2018904	0.01981275	0.00921445
3e+07	0.0239175	0.009916304	0.9329094	-0.2961274	0.001847491	0.005374052	-0.000389631	-0.0006279989
	0.9329094	-0.2961274	0.02389417	0.009914828	-0.0003896216	-0.000627998	0.001824273	0.005383779
	0.001847492	0.005374048	-0.0003896246	-0.0006280018	0.0238667	0.01002374	0.9328843	-0.2964796
	-0.0003896338	-0.0006280048	0.001824268	0.005383776	0.9328843	-0.2964796	0.02384551	0.01002216
4e+07	0.02755004	0.009652818	0.8965671	-0.3867974	0.002962184	0.006735656	-0.0004407038	-0.0007159455
	0.8965671	-0.3867974	0.02750927	0.009657327	-0.0004406986	-0.0007159496	0.002923345	0.006756075
	0.002962188	0.006735652	-0.0004406956	-0.0007159492	0.02753658	0.009768119	0.8964488	-0.3872284
	-0.0004406994	-0.0007159417	0.002923345	0.006756076	0.8964488	-0.3872284	0.02749928	0.009771434
5e+07	0.03081656	0.00857657	0.8518462	-0.473033	0.00446565	0.007729172	-0.0006614216	-0.0006767043
	0.8518462	-0.473033	0.03075538	0.008592666	-0.0006614128	-0.0006767245	0.004409231	0.007765511
	0.004465651	0.00772917	-0.0006614112	-0.0006767248	0.03083571	0.008689535	0.8516234	-0.4735242
	-0.0006614184	-0.0006767028	0.004409231	0.007765512	0.8516234	-0.4735242	0.03077929	0.008703458
6e+07	0.0336745	0.006831654	0.7991598	-0.5541483	0.006105984	0.008394098	-0.0008510038	-0.0005903881
	0.7991598	-0.5541483	0.03359159	0.00686573	-0.000851005	-0.0005904386	0.006031648	0.008452229
	0.006105983	0.0083941	-0.0008510079	-0.000590437	0.03372133	0.00693529	0.7988232	-0.5546807
	-0.0008510092	-0.0005903879	0.006031645	0.00845223	0.7988232	-0.5546807	0.03364498	0.006965862
7e+07	0.03606888	0.004534905	0.7390139	-0.62946	0.007818498	0.008714122	-0.001005412	-0.000468644
	0.7390139	-0.62946	0.03596476	0.004593636	-0.001005445	-0.0004687211	0.007727553	0.008799992
	0.007818498	0.008714126	-0.001005451	-0.0004687157	0.03613834	0.004623826	0.7385567	-0.630014
	-0.001005426	-0.0004686407	0.007727548	0.008799994	0.7385567	-0.630014	0.03604256	0.004676836
8e+07	0.03794746	0.00179683	0.6719907	-0.6983176	0.009535113	0.008684324	-0.001121562	-0.0003217665
	0.6719907	-0.6983176	0.03782445	0.001886681	-0.001121637	-0.0003218515	0.009430486	0.00880355
	0.009535115	0.008684328	-0.001121643	-0.0003218433	0.03803396	0.001866772	0.6714087	-0.6988735
	-0.001121579	-0.000321759	0.009430481	0.008803553	0.6714087	-0.6988735	0.03792032	0.001948025
9e+07	0.03926907	-0.001271183	0.5987369	-0.7601209	0.01118668	0.008312059	-0.001196995	-0.0001588034
	0.5987369	-0.7601209	0.03913116	-0.0011444	-0.001197104	-0.0001588754	0.01107282	0.008469547
	0.01118669	0.008312062	-0.001197107	-0.0001588685	0.03936624	-0.001223404	0.5980287	-0.7606582
	-0.001197006	-0.0001587955	0.01107281	0.00846955	0.5980287	-0.7606582	0.03923771	-0.001108023
1e+08	0.04002125	-0.004548472	0.5199388	-0.8143378	0.01270003	0.00761399	-0.00122286	1.630783e-05
	0.5199388	-0.8143378	0.03987395	-0.004380005	-0.001222979	1.625737e-05	0.01258269	0.007813586
	0.01270003	0.00761399	-0.001222979	1.625708e-05	0.04012049	-0.004525599	0.519108	-0.814835
	-0.00122286	1.630754e-05	0.01258269	0.007813586	0.519108	-0.814835	0.03998187	-0.004370567
1.1e+08	0.04019044	-0.008030185	0.4363539	-0.8603762	0.01401372	0.006664744	-0.001198904	0.000145634
	0.4363539	-0.8603762	0.0400398	-0.007815213	-0.001199088	0.000145607	0.01389936	0.006908565
	0.01401372	0.006664743	-0.001199088	0.0001456068	0.04028386	-0.008023307	0.435406	-0.8608227
	-0.001198904	0.0001456337	0.01389936	0.006908565	0.435406	-0.8608227	0.04014136	-0.007824557
1.2e+08	0.0396872	-0.01152302	0.3488895	-0.8979031	0.01511295	0.005481566	-0.001175309	0.0002520642
	0.3488895	-0.8979031	0.03954165	-0.01125996	-0.001175541	0.0002520826	0.01500941	0.005770533
	0.01511295	0.005481566	-0.001175541	0.0002520825	0.03977486	-0.01152876	0.347824	-0.8982818
	-0.001175309	0.000252064	0.01500941	0.005770533	0.347824	-0.8982818	0.03963682	-0.01128474
1.3e+08	0.03855494	-0.01489649	0.2583653	-0.9266172	0.01594626	0.004107979	-0.001148472	0.0003423076
	0.2583653	-0.9266172	0.03842313	-0.01458581	-0.001148736	0.000342385	0.01586159	0.004440998
	0.01594626	0.004107979	-0.001148736	0.0003423848	0.03863559	-0.01491248	0.2571865	-0.9269095
	-0.001148473	0.0003423075	0.01586159	0.004440998	0.2571865	-0.9269095	0.03851038	-0.01462373
1.4e+08	0.0368392	-0.01803981	0.1656454	-0.9462842	0.0164794	0.002600492	-0.001121958	0.0004186641
	0.1656454	-0.9462842	0.03672963	-0.01768395	-0.001122238	0.0004188093	0.01642142	0.002974471
	0.0164794	0.002600492	-0.001122238	0.0004188092	0.03691184	-0.0180637	0.1643604	-0.9464716
	-0.001121958	0.000418664	0.01642142	0.002974471	0.1643604	-0.9464716	0.03680753	-0.01773271
1.5e+08	0.03459963	-0.02085405	0.07161583	-0.9567512	0.01669123	0.001021771	-0.001099752	0.0004841057
	0.07161583	-0.9567512	0.03452026	-0.02045744	-0.001100033	0.0004843253	0.01666712	0.001431709
	0.01669123	0.001021771	-0.001100033	0.0004843253	0.0346637	-0.02088357	0.07023427	-0.9568158
	-0.001099752	0.0004841057	0.01666712	0.001431709	0.07023427	-0.9568158	0.03458767	-0.02051461
1.6e+08	0.03190982	-0.0232534	-0.02282582	-0.9579502	0.01657406	-0.00056245	-0.001085176	0.0005426586
	-0.02282582	-0.9579502	0.03186763	-0.02282229	-0.001085442	0.0005429564	0.01658988	-0.0001233001
	0.01657406	-0.0005624501	-0.001085442	0.0005429564	0.03196514	-0.02328635	-0.02429152	-0.957875
	-0.001085176	0.0005426586	0.01658988	-0.0001233001	-0.02429152	-0.957875	0.03192385	-0.02288538
1.7e+08	0.02885562	-0.025167	-0.1167787	-0.9498994	0.01613366	-0.002086214	-0.001080326	0.0005992494
	-0.1167787	-0.9498994	0.02885625	-0.02470932	-0.001080559	0.0005996263	0.01619404	-0.001626098
	0.01613366	-0.002086214	-0.001080559	0.0005996263	0.0289024	-0.02520135	-0.1183137	-0.9496685
	-0.001080326	0.0005992494	0.01619404	-0.001626098	-0.1183137	-0.9496685	0.02890099	-0.02477579
1.8e+08	0.02553279	-0.02654069	-0.2093475	-0.9327034	0.01538904	-0.003486087	-0.001085726	0.0006593422
	-0.2093475	-0.9327034	0.02558012	-0.02606573	-0.001085908	0.0006597952	0.01549675	-0.003014421
	0.01538904	-0.003486087	-0.001085908	0.0006597952	0.02557155	-0.02657461	-0.2109348	-0.9323028
	-0.001085726	0.0006593422	0.01549675	-0.003014421	-0.2109348	-0.9323028	0.02561356	-0.0261331
1.9e+08	0.02204416	-0.02733848	-0.2996511	-0.906553	0.01437155	-0.00470377	-0.001100162	0.00072847
	-0.2996511	-0.906553	0.02214004	-0.02685653	-0.001100274	0.0007289916	0.01452731	-0.004230735
	0.01437155	-0.004703771	-0.001100274	0.0007289916	0.02207572	-0.02737032	-0.3012714	-0.9059705
	-0.001100162	0.00072847	0.01452731	-0.004230735	-0.3012714	-0.9059705	0.02216279	-0.02692242
2e+08	0.01849644	-0.02754341	-0.386831	-0.8717236	0.01312361	-0.005688487	-0.001120673	0.0008117246
	-0.386831	-0.8717236	0.0186404	-0.02706531	-0.001120699	0.0008123026	0.01332586	-0.005224564
	0.01312361	-0.005688487	-0.001120699	0.0008123026	0.01852187	-0.02757179	-0.3884632	-0.8709491
	-0.001120673	0.0008117246	0.01332586	-0.005224564	-0.3884632	-0.8709491	0.01865354	-0.02712755
2.1e+08	0.01499685	-0.02715796	-0.4700598	-0.8285727	0.01169695	-0.006399052	-0.001142708	0.0009132583
	-0.4700598	-0.8285727	0.01518602	-0.0266946	-0.001142634	0.0009138763	0.01194178	-0.005954516
	0.01169695	-0.006399052	-0.001142634	0.0009138763	0.01501742	-0.02718176	-0.4716811	-0.8275987
	-0.001142708	0.0009132583	0.01194178	-0.005954516	-0.4716811	-0.8275987	0.015191	-0.02675125
2.2e+08	0.01164973	-0.02620379	-0.5485487	-0.7775368	0.01015048	-0.006805547	-0.001160421	0.001035844
	-0.5485487	-0.7775368	0.01187874	-0.02576555	-0.001160237	0.001036483	0.01043168	-0.006389943
	0.01015048	-0.006805547	-0.001160237	0.001036483	0.01166687	-0.02622218	-0.550135	-0.7763583
	-0.001160421	0.001035844	0.01043168	-0.006389943	-0.550135	-0.7763583	0.01187738	-0.02581502
2.3e+08	0.008553146	-0.02472086	-0.6215562	-0.7191271	0.00854787	-0.006890529	-0.001167093	0.001180536
	-0.6215562	-0.7191271	0.008814276	-0.02431704	-0.001166794	0.001181174	0.008857034	-0.006512157
	0.00854787	-0.006890529	-0.001166794	0.001181174	0.008568394	-0.02473331	-0.6230822	-0.7177422
	-0.001167093	0.001180536	0.008857034	-0.006512157	-0.6230822	-0.7177422	0.008808659	-0.02435816
2.4e+08	0.005795704	-0.02276593	-0.6883945	-0.6539249	0.006954907	-0.006649725	-0.001155626	0.001346454
	-0.6883945	-0.6539249	0.006079089	-0.02240427	-0.001155213	0.001347067	0.007281753	-0.00631515
	0.006954907	-0.006649725	-0.001155213	0.001347067	0.005810663	-0.02277227	-0.6898345	-0.6523347
	-0.001155626	0.001346454	0.007281753	-0.00631515	-0.6898345	-0.6523347	0.006071516	-0.0224363
2.5e+08	0.003453749	-0.02041056	-0.7484369	-0.5825757	0.005436826	-0.006092175	-0.0011191	0.001530717
	-0.7484369	-0.5825757	0.00374772	-0.0200967	-0.001118579	0.001531286	0.005769531	-0.005805808
	0.005436826	-0.006092175	-0.001118579	0.001531286	0.003470009	-0.02041095	-0.7497647	-0.5807844
	-0.0011191	0.001530717	0.005769531	-0.005805808	-0.7497647	-0.5807844	0.003740599	-0.02011942
2.6e+08	0.001588886	-0.01773856	-0.8011239	-0.5057829	0.004055621	-0.00523983	-0.001051311	0.001728537
	-0.8011239	-0.5057829	0.001880423	-0.01747565	-0.001050692	0.001729043	0.004381296	-0.00500358
	0.004055621	-0.00523983	-0.001050692	0.001729043	0.001607955	-0.01773349	-0.8023134	-0.503798
	-0.001051311	0.001728537	0.004381296	-0.00500358	-0.8023134	-0.503798	0.001876165	-0.01748935
2.7e+08	0.0002460577	-0.01484304	-0.8459683	-0.4243008	0.002867522	-0.004126618	-0.0009472805	0.001933457
	-0.8459683	-0.4243008	0.0005213315	-0.01463146	-0.0009465784	0.001933886	0.003172745	-0.003939652
	0.002867522	-0.004126618	-0.0009465784	0.001933886	0.0002693025	-0.01483331	-0.8469938	-0.4221329
	-0.0009472805	0.001933457	0.003172745	-0.003939652	-0.8469938	-0.4221329	0.0005222496	-0.01463691
2.8e+08	-0.0005477967	-0.01182316	-0.8825603	-0.3389266	0.001920704	-0.002797014	-0.0008036759	0.002137717
	-0.8825603	-0.3389266	-0.0003028185	-0.01166029	-0.0008029068	0.002138057	0.002192116	-0.00265563
	0.001920704	-0.002797014	-0.0008029068	0.002138057	-0.0005192148	-0.01180987	-0.8833971	-0.3365898
	-0.0008036759	0.002137717	0.002192116	-0.00265563	-0.8833971	-0.3365898	-0.0002946087	-0.01165877
2.9e+08	-0.0007844718	-0.008780686	-0.9105713	-0.2504931	0.001253354	-0.001304181	-0.0006191109	0.002332727
	-0.9105713	-0.2504931	-0.0005833762	-0.008660884	-0.0006182921	0.002332974	0.001478268	-0.001201817
	0.001253354	-0.001304181	-0.0006182921	0.002332974	-0.0007496616	-0.008765167	-0.9111957	-0.2480043
	-0.0006191109	0.002332727	0.001478268	-0.001201817	-0.9111957	-0.2480043	-0.0005660634	-0.008654091
3e+08	-0.0004745635	-0.005816503	-0.9297565	-0.1598595	0.0008921428	0.0002922291	-0.0003943114	0.002509604
	-0.9297565	-0.1598595	-0.0003298353	-0.005731186	-0.0003934592	0.002509758	0.001059164	0.0003648634
	0.0008921428	0.0002922291	-0.0003934593	0.002509758	-0.0004329427	-0.005800247	-0.9301468	-0.1572388
	-0.0003943114	0.002509604	0.001059164	0.0003648634	-0.9301468	-0.1572388	-0.0003019918	-0.005721183
3.1e+08	0.0003531213	-0.003027148	-0.9399575	-0.06790341	0.0008511907	0.001928541	-0.0001321252	0.00265973
	-0.9399575	-0.06790341	0.0004307347	-0.002965021	-0.0001312537	0.002659795	0.0009507967	0.001983194
	0.0008511907	0.001928541	-0.0001312537	0.002659795	0.0004017903	-0.003011755	-0.9400937	-0.06517371
	-0.0001321252	0.00265973	0.0009507967	0.001983194	-0.9400937	-0.06517371	0.0004700792	-0.002954151
3.2e+08	0.001652776	-0.0005015551	-0.9411029	0.02448835	0.001131546	0.003539662	0.0001626184	0.002775289
	-0.9411029	0.02448835	0.001654848	-0.0004489837	0.0001634989	0.002775271	0.00115661	0.003590145
	0.001131546	0.003539662	0.0001634989	0.002775271	0.001708371	-0.0004886515	-0.9409674	0.02730147
	0.0001626184	0.002775289	0.00115661	0.003590145	-0.9409674	0.02730147	0.001706155	-0.0004397687
3.3e+08	0.003363398	0.001681908	-0.9332087	0.1164282	0.001721201	0.00506173	0.0004833889	0.002849743
	-0.9332087	0.1164282	0.003284322	0.001740407	0.0004842722	0.00284965	0.001667431	0.005123422
	0.001721201	0.00506173	0.0004842722	0.00284965	0.003425437	0.00169075	-0.9327867	0.1192968
	0.0004833889	0.002849743	0.001667431	0.005123422	-0.9327867	0.1192968	0.003347515	0.001745376
3.4e+08	0.005411091	0.003458007	-0.9163776	0.2070365	0.002595641	0.0064347	0.0008223491	0.002878211
	-0.9163776	0.2070365	0.005248475	0.003539168	0.0008232338	0.002878052	0.002461909	0.006523945
	0.002595641	0.0064347	0.0008232338	0.002878052	0.005478749	0.003461345	-0.915657	0.2099306
	0.0008223491	0.002878211	0.002461909	0.006523945	-0.915657	0.2099306	0.00532293	0.003537343
3.5e+08	0.007711801	0.004776711	-0.8907972	0.2954501	0.003718888	0.007604746	0.001170833	0.002857723
	-0.8907972	0.2954501	0.007466736	0.004897839	0.001171722	0.002857504	0.00350744	0.0077382
	0.003718888	0.007604746	0.001171722	0.002857504	0.007783948	0.004773307	-0.8897694	0.2983378
	0.001170833	0.002857723	0.00350744	0.0077382	-0.8897694	0.2983378	0.007551301	0.004886829
3.6e+08	0.01017437	0.005604711	-0.856738	0.3808302	0.005045006	0.008526408	0.001519865	0.00278733
	-0.856738	0.3808302	0.009851546	0.005782949	0.001520765	0.002787054	0.00476152	0.00872033
	0.005045006	0.008526408	0.001520765	0.002787054	0.01024962	0.005593591	-0.8553976	0.3836785
	0.001519865	0.00278733	0.00476152	0.00872033	-0.8553976	0.3836785	0.009944579	0.005760629
3.7e+08	0.0127038	0.005926328	-0.8145496	0.4623707	0.006519989	0.009164381	0.001860686	0.002668074
	-0.8145496	0.4623707	0.01231147	0.006177905	0.001861605	0.00266774	0.006173497	0.009433926
	0.006519989	0.009164381	0.001861605	0.00266774	0.01278057	0.005906838	-0.8128951	0.4651453
	0.001860686	0.002668074	0.006173497	0.009433926	-0.8128951	0.4651453	0.0124109	0.006142514
3.8e+08	0.01520461	0.005743805	-0.7646575	0.5393049	0.00808396	0.009494888	0.002185237	0.002502813
	-0.7646575	0.5393049	0.01475439	0.006083292	0.002186185	0.002502413	0.007686617	0.009853412
	0.00808396	0.009494888	0.002186185	0.002502413	0.01528119	0.005715646	-0.7626909	0.5419708
	0.002185237	0.002502813	0.007686617	0.009853412	-0.7626909	0.5419708	0.01485781	0.006033514
3.9e+08	0.01758414	0.00507696	-0.7075583	0.6109126	0.009673588	0.009506595	0.002486569	0.002295925
	-0.7075583	0.6109126	0.01709069	0.005516567	0.002487553	0.002295446	0.0092403	0.009965009
	0.009673588	0.009506595	0.002487553	0.002295446	0.01765879	0.005040205	-0.7052856	0.6134348
	0.002486569	0.002295925	0.0092403	0.009965009	-0.7052856	0.6134348	0.01719542	0.005451602
4e+08	0.01975578	0.003962241	-0.6438145	0.6765267	0.01122463	0.009201014	0.002759147	0.002052924
	-0.6438145	0.6765267	0.01923626	0.004511197	0.00276017	0.002052348	0.01077255	0.009767226
	0.01122463	0.009201014	0.00276017	0.002052348	0.01982678	0.003917342	-0.6412457	0.6788702
	0.002759147	0.002052924	0.01077255	0.009767226	-0.6412457	0.6788702	0.01933951	0.004430799
4.1e+08	0.02164183	0.002451206	-0.5740492	0.7355385	0.01267449	0.008592415	0.002999032	0.001780012
	-0.5740492	0.7355385	0.02111533	0.003115238	0.003000093	0.001779317	0.01222239	0.00927087
	0.01267449	0.008592415	0.003000093	0.001779317	0.02170759	0.002398979	-0.5711982	0.7376692
	0.002999032	0.001780012	0.01222239	0.00927087	-0.5711982	0.7376692	0.02121426	0.003019745
4.2e+08	0.02317614	0.0006085125	-0.4989401	0.7874036	0.01396471	0.007707223	0.003203925	0.001483611
	-0.4989401	0.7874036	0.02266294	0.001389457	0.003205016	0.001482771	0.0135323	0.008498575
	0.01396471	0.007707223	0.003205016	0.001482771	0.02323528	0.0005501025	-0.4958246	0.7892882
	0.003203925	0.001483611	0.0135323	0.008498575	-0.4958246	0.7892882	0.02275483	0.001279778
4.3e+08	0.02430626	-0.001490538	-0.4192129	0.8316458	0.01504329	0.006582949	0.003373082	0.001169911
	-0.4192129	0.8316458	0.023827	-0.0005949714	0.003374185	0.0011689	0.01465041	0.00748388
	0.01504329	0.006582949	0.003374185	0.0011689	0.02435763	-0.001553697	-0.4158545	0.8332526
	0.003373082	0.001169911	0.01465041	0.00748388	-0.4158545	0.8332526	0.02390933	-0.0007173723
4.4e+08	0.02499504	-0.003762777	-0.3356346	0.8678618	0.01586676	0.005266685	0.003507097	0.0008444813
	-0.3356346	0.8678618	0.02456992	-0.002759078	0.003508187	0.000843276	0.01553259	0.00626988
	0.01586676	0.005266685	0.003508187	0.000843276	0.02503783	-0.003829028	-0.3320586	0.8691611
	0.003507097	0.0008444813	0.01553259	0.00626988	-0.3320586	0.8691611	0.02464047	-0.002892239
4.5e+08	0.02522175	-0.006120201	-0.2490067	0.8957243	0.01640188	0.003813227	0.003607607	0.0005119552
	-0.2490067	0.8957243	0.02486963	-0.005018953	0.003608649	0.0005105364	0.01614411	0.004907516
	0.01640188	0.003813227	0.003608649	0.0005105364	0.02525552	-0.006187733	-0.2452418	0.8966886
	0.003607607	0.0005119552	0.01614411	0.004907516	-0.2452418	0.8966886	0.02492666	-0.005160483
4.6e+08	0.02498264	-0.008473128	-0.1601577	0.9149848	0.01662696	0.002282897	0.003676902	0.0001758361
	-0.1601577	0.9149848	0.02472023	-0.007288735	0.003677856	0.0001741916	0.01646106	0.003453563
	0.01662696	0.002282897	0.003677856	0.0001741916	0.02500732	-0.008540057	-0.1562359	0.9155895
	0.003676902	0.0001758361	0.01646106	0.003453563	-0.1562359	0.9155895	0.02476245	-0.007435904
4.7e+08	0.02429079	-0.01073339	-0.06993537	0.925476	0.01653277	0.0007391445	0.003717525	-0.0001615782
	-0.06993537	0.925476	0.02413186	-0.009483623	0.003718344	-0.0001634513	0.0164712	0.001968386
	0.01653277	0.0007391445	0.003718344	-0.0001634513	0.02430667	-0.01079785	-0.06589193	0.9256996
	0.003717525	-0.0001615782	0.0164712	0.001968386	-0.06589193	0.9256996	0.02415851	-0.009633474
4.8e+08	0.02317547	-0.01281744	0.02080052	0.9271131	0.01612286	-0.0007539773	0.003731865	-0.0004991468
	0.02080052	0.9271131	0.02313019	-0.01152283	0.0037325	-0.0005012407	0.01617454	0.0005135599
	0.01612286	-0.0007539773	0.0037325	-0.0005012407	0.02318328	-0.01287762	0.02492784	0.9269375
	0.003731865	-0.0004991468	0.01617454	0.0005135599	0.02492784	0.9269375	0.02314118	-0.01167227
4.9e+08	0.02168096	-0.01464926	0.1111863	0.9198947	0.01541352	-0.002134365	0.003721789	-0.0008367119
	0.1111863	0.9198947	0.02175532	-0.01333235	0.00372219	-0.0008390071	0.01558325	-0.0008505596
	0.01541352	-0.002134365	0.00372219	-0.0008390071	0.0216818	-0.01470353	0.1153574	0.9193058
	0.003721789	-0.0008367119	0.01558325	-0.0008505596	0.1153574	0.9193058	0.02175118	-0.0134783
5e+08	0.0198647	-0.01616298	0.2003625	0.9039029	0.01443305	-0.00334435	0.003688352	-0.001174827
	0.2003625	0.9039029	0.02006015	-0.01484749	0.003688473	-0.001177292	0.01472125	-0.002067225
	0.01443305	-0.00334435	0.003688473	-0.001177292	0.01986002	-0.01620998	0.2045351	0.9028907
	0.003688352	-0.001174827	0.01472125	-0.002067225	0.2045351	0.9028907	0.02004203	-0.01498701
5.1e+08	0.01779519	-0.01730514	0.2874813	0.8793031	0.01322077	-0.004333018	0.003631607	-0.001514408
