!$
! Info: Touchstone file created by Circ.  Input file=Tx_16in_Rx_85ohms_TxVia_10mils_RxVia_20mils.circ
!$
# Hz S RI R 50
0	0.01282868	1.064132e-25	3.195708e-09	5.488639e-27	9.70247e-05	1.309572e-23	-3.497703e-09	4.617179e-25
	3.1957e-09	5.488772e-27	0.01282828	1.38727e-25	-3.20786e-09	4.409161e-25	9.648e-05	1.825778e-23
	9.929775e-05	1.312584e-23	-3.205951e-09	4.4068e-25	0.01282089	9.299095e-26	1.258968e-08	2.424895e-29
	-3.495003e-09	4.613854e-25	9.793462e-05	1.879163e-23	1.258977e-08	2.409336e-29	0.01283382	1.322557e-25
1e+07	0.0153598	-0.01610048	5.512804e-09	7.390644e-09	0.0006816198	0.002755567	1.932404e-08	5.301464e-08
	5.512804e-09	7.390645e-09	0.01534812	-0.0161002	-5.794453e-10	5.875231e-08	0.0006763984	0.002757415
	0.0006816682	0.00275554	-5.79445e-10	5.875231e-08	0.01532438	-0.01608834	-5.699493e-09	4.563182e-08
	1.932404e-08	5.301464e-08	0.0006764314	0.002757403	-5.699493e-09	4.563182e-08	0.01531283	-0.01608827
2e+07	0.01122171	-0.03558683	9.245003e-09	1.177244e-08	0.002072993	0.005076379	5.153381e-08	5.919298e-08
	9.245003e-09	1.177245e-08	0.01117782	-0.03557578	8.599625e-10	8.278253e-08	0.002053831	0.00508549
	0.002072984	0.005076354	8.599629e-10	8.278253e-08	0.01120023	-0.03554886	3.14496e-09	4.490526e-08
	5.153381e-08	5.919298e-08	0.002053828	0.005085468	3.14496e-09	4.490526e-08	0.01115727	-0.03553778
3e+07	-0.0005812048	-0.05373363	1.330959e-08	1.415178e-08	0.004101288	0.006773012	9.224143e-08	4.673277e-08
	1.330959e-08	1.415178e-08	-0.0006716798	-0.05369185	4.399894e-09	1.118032e-07	0.004063029	0.006798283
	0.004101288	0.006773009	4.399894e-09	1.118032e-07	-0.0005927654	-0.05368182	1.284282e-08	4.728253e-08
	9.224143e-08	4.673277e-08	0.004063024	0.006798281	1.284282e-08	4.728253e-08	-0.0006799064	-0.05364107
4e+07	-0.01796956	-0.06723398	1.683007e-08	1.441245e-08	0.006519068	0.007687872	1.254243e-07	1.509235e-08
	1.683007e-08	1.441245e-08	-0.0181104	-0.06713592	5.560438e-09	1.418004e-07	0.006461112	0.007740102
	0.006519072	0.007687868	5.560438e-09	1.418004e-07	-0.01797356	-0.06717228	2.22404e-08	4.498252e-08
	1.254243e-07	1.509235e-08	0.006461112	0.007740103	2.22404e-08	4.498252e-08	-0.0181096	-0.06707765
5e+07	-0.03873251	-0.07451544	1.893883e-08	1.290675e-08	0.00904121	0.007756767	1.448229e-07	-3.148839e-08
	1.893883e-08	1.290675e-08	-0.03891547	-0.07433509	5.524781e-09	1.741659e-07	0.008968053	0.007846573
	0.009041212	0.007756765	5.524781e-09	1.741659e-07	-0.03873165	-0.0744443	2.880656e-08	3.797598e-08
	1.448229e-07	-3.148839e-08	0.008968052	0.007846573	2.880656e-08	3.797598e-08	-0.03890861	-0.07426973
6e+07	-0.06051287	-0.07493146	1.893265e-08	1.029245e-08	0.01138707	0.007015033	1.450084e-07	-8.752726e-08
	1.893266e-08	1.029245e-08	-0.06071832	-0.0746474	6.075404e-09	2.090967e-07	0.01130787	0.007150687
	0.01138707	0.007015035	6.075404e-09	2.090967e-07	-0.06050791	-0.07484943	3.063318e-08	2.829667e-08
	1.450084e-07	-8.752726e-08	0.01130787	0.007150688	3.063318e-08	2.829667e-08	-0.06070611	-0.07457435
7e+07	-0.08100923	-0.06865295	1.638008e-08	7.48083e-09	0.01331409	0.005584316	1.223764e-07	-1.45384e-07
	1.638008e-08	7.480829e-09	-0.08120881	-0.06825282	8.741129e-09	2.459756e-07	0.01324139	0.005769977
	0.01331409	0.005584321	8.741129e-09	2.459756e-07	-0.08099895	-0.06855868	2.700905e-08	1.868962e-08
	1.223764e-07	-1.45384e-07	0.01324139	0.005769981	2.700905e-08	1.868961e-08	-0.08119112	-0.06817176
8e+07	-0.09818757	-0.05655898	1.122316e-08	5.531079e-09	0.01464062	0.003649866	7.633323e-08	-1.96049e-07
	1.122316e-08	5.531077e-09	-0.09834829	-0.05604248	1.462736e-08	2.836047e-07	0.01458856	0.003884441
	0.01464063	0.003649872	1.462736e-08	2.836047e-07	-0.09816949	-0.05645221	1.85095e-08	1.181027e-08
	7.633323e-08	-1.96049e-07	0.01458856	0.003884446	1.85095e-08	1.181027e-08	-0.09832452	-0.055953
9e+07	-0.1104562	-0.04008801	3.826772e-09	5.496276e-09	0.01525774	0.001434634	9.794249e-09	-2.304677e-07
	3.826773e-09	5.496274e-09	-0.1105454	-0.03946814	2.418311e-08	3.204932e-07	0.0152399	0.001711367
	0.01525774	0.001434638	2.418311e-08	3.204932e-07	-0.1104274	-0.03997	6.728396e-09	9.668474e-09
	9.794248e-09	-2.304677e-07	0.0152399	0.001711371	6.728396e-09	9.668474e-09	-0.110514	-0.03937002
1e+08	-0.1167905	-0.02105915	-5.040148e-09	8.254638e-09	0.01513439	-0.0008249512	-7.094088e-08	-2.40921e-07
	-5.040148e-09	8.254638e-09	-0.1167811	-0.02036152	3.714873e-08	3.549631e-07	0.01516168	-0.0005181094
	0.01513439	-0.0008249513	3.714873e-08	3.549631e-07	-0.1167488	-0.02093275	-6.18492e-09	1.330608e-08
	-7.094088e-08	-2.40921e-07	0.01516168	-0.0005181095	-6.18492e-09	1.330608e-08	-0.1167398	-0.02025567
1.1e+08	-0.1167803	-0.001467286	-1.429424e-08	1.432472e-08	0.0142983	-0.002919127	-1.560206e-07	-2.241754e-07
	-1.429424e-08	1.432472e-08	-0.1166548	-0.0007262669	5.067553e-08	3.871766e-07	0.01437659	-0.002598662
	0.0142983	-0.002919128	5.067553e-08	3.871766e-07	-0.1167238	-0.001334768	-1.835902e-08	2.158524e-08
	-1.560206e-07	-2.241754e-07	0.01437659	-0.002598662	-1.835902e-08	2.158524e-08	-0.1166016	-0.0006148995
1.2e+08	-0.1106446	0.01668355	-2.27007e-08	2.3832e-08	0.01283484	-0.004623461	-2.369398e-07	-1.770767e-07
	-2.27007e-08	2.3832e-08	-0.1103989	0.01742484	6.480033e-08	4.150833e-07	0.01296441	-0.004307658
	0.01283484	-0.004623461	6.480033e-08	4.150833e-07	-0.1105715	0.01681758	-2.942998e-08	3.436927e-08
	-2.369398e-07	-1.770767e-07	0.01296441	-0.004307658	-2.942998e-08	3.436927e-08	-0.1103318	0.01753758
1.3e+08	-0.09921517	0.03157988	-2.901579e-08	3.644802e-08	0.01090157	-0.00576868	-3.028398e-07	-1.01017e-07
	-2.901579e-08	3.644802e-08	-0.098861	0.03227733	7.788036e-08	4.38586e-07	0.01107584	-0.005475901
	0.01090157	-0.00576868	7.788036e-08	4.38586e-07	-0.09912557	0.03170958	-3.777837e-08	5.124998e-08
	-3.028398e-07	-1.01017e-07	0.01107584	-0.005475901	-3.777837e-08	5.124998e-08	-0.0987803	0.03238638
1.4e+08	-0.0838273	0.0417648	-3.213971e-08	5.140723e-08	0.008694465	-0.006238036	-3.433929e-07	-1.204971e-09
	-3.213971e-08	5.140723e-08	-0.08339275	0.04237907	8.833382e-08	4.582355e-07	0.008900119	-0.005984148
	0.008694465	-0.006238036	8.833382e-08	4.582355e-07	-0.08372398	0.04188399	-4.195268e-08	7.125362e-08
	-3.433929e-07	-1.204971e-09	0.008900119	-0.005984148	-4.195268e-08	7.125362e-08	-0.0833008	0.04247928
1.5e+08	-0.06619457	0.04627124	-3.126532e-08	6.756992e-08	0.006437276	-0.005977027	-3.501154e-07	1.134974e-07
	-3.126532e-08	6.756992e-08	-0.0657217	0.04677346	9.489271e-08	4.751398e-07	0.006655329	-0.005773014
	0.006437276	-0.005977027	9.489271e-08	4.751398e-07	-0.06608283	0.04637449	-4.086132e-08	9.290722e-08
	-3.501154e-07	1.134974e-07	0.006655329	-0.005773014	-4.086132e-08	9.290722e-08	-0.06562299	0.04686044
1.6e+08	-0.04824415	0.04471628	-2.599978e-08	8.353377e-08	0.004364052	-0.005001837	-3.176757e-07	2.311957e-07
	-2.599978e-08	8.353377e-08	-0.04778513	0.0450929	9.677673e-08	4.907802e-07	0.004571718	-0.00485184
	0.004364053	-0.005001837	9.677673e-08	4.907802e-07	-0.04813159	0.04480004	-3.394089e-08	1.143688e-07
	-3.176757e-07	2.311957e-07	0.004571718	-0.00485184	-3.394089e-08	1.143688e-07	-0.04768594	0.04516384
1.7e+08	-0.0319267	0.03734442	-1.644485e-08	9.778284e-08	0.00269707	-0.003403123	-2.450189e-07	3.380845e-07
	-1.644485e-08	9.778284e-08	-0.03153816	0.03760062	9.376212e-08	5.067923e-07	0.002870259	-0.003303194
	0.00269707	-0.003403123	9.376212e-08	5.067923e-07	-0.03182242	0.03740794	-2.127999e-08	1.336154e-07
	-2.450189e-07	3.380845e-07	0.002870259	-0.003303194	-2.127999e-08	1.336154e-07	-0.03144593	0.037655
1.8e+08	-0.01901573	0.02501001	-3.225104e-09	1.088595e-07	0.001621786	-0.001342129	-1.360888e-07	4.200273e-07
	-3.225104e-09	1.088595e-07	-0.01875198	0.02517098	8.615663e-08	5.247702e-07	0.001738004	-0.001279896
	0.001621786	-0.001342129	8.615663e-08	5.247702e-07	-0.0189292	0.02505593	-3.677079e-09	1.486738e-07
	-1.360888e-07	4.200273e-07	0.001738005	-0.001279896	-3.677079e-09	1.486738e-07	-0.01867442	0.02521101
1.9e+08	-0.01091713	0.009093779	1.254174e-08	1.155419e-07	0.001262346	0.0009630893	6.893351e-11	4.644417e-07
	1.254174e-08	1.155419e-07	-0.01082304	0.009203615	7.472063e-08	5.461273e-07	0.001303646	0.001007724
	0.001262346	0.0009630892	7.472063e-08	5.461273e-07	-0.01085689	0.0091282	1.738433e-08	1.578726e-07
	6.893351e-11	4.644417e-07	0.001303646	0.001007724	1.738433e-08	1.578726e-07	-0.01076714	0.009234313
2e+08	-0.008512977	-0.00864279	2.933272e-08	1.170084e-07	0.001662523	0.003261453	1.49966e-07	4.622144e-07
	2.933272e-08	1.170084e-07	-0.008617416	-0.008524838	6.05825e-08	5.72015e-07	0.001618141	0.003314575
	0.001662523	0.003261453	6.05825e-08	5.72015e-07	-0.008485354	-0.008610703	3.985145e-08	1.600825e-07
	1.49966e-07	4.622144e-07	0.001618141	0.003314575	3.985145e-08	1.600825e-07	-0.008588362	-0.008495965
2.1e+08	-0.01206224	-0.02625149	4.536172e-08	1.129716e-07	0.002776905	0.005299932	2.970952e-07	4.093066e-07
	4.536172e-08	1.129716e-07	-0.01237303	-0.02605701	4.517779e-08	6.032663e-07	0.002645223	0.005390978
	0.002776905	0.005299932	4.517779e-08	6.032663e-07	-0.01207025	-0.02621039	6.130516e-08	1.549127e-07
	2.970952e-07	4.093066e-07	0.002645223	0.005390978	6.130516e-08	1.549127e-07	-0.01237333	-0.02602064
2.2e+08	-0.02117466	-0.04181591	5.876729e-08	1.037642e-07	0.004475352	0.00685666	4.239476e-07	3.077187e-07
	5.876729e-08	1.037642e-07	-0.02167584	-0.04147498	3.02062e-08	6.403236e-07	0.004264871	0.007015156
	0.004475352	0.00685666	3.02062e-08	6.403236e-07	-0.02121729	-0.04175352	7.923285e-08	1.428293e-07
	4.239476e-07	3.077187e-07	0.004264871	0.007015156	7.923285e-08	1.428293e-07	-0.02170472	-0.04142099
2.3e+08	-0.03486272	-0.05366519	6.783072e-08	9.035811e-08	0.006560591	0.00776972	5.143003e-07	1.655978e-07
	6.783072e-08	9.035811e-08	-0.03551469	-0.05311474	1.756713e-08	6.831294e-07	0.006289724	0.008021776
	0.006560591	0.00776972	1.756713e-08	6.831294e-07	-0.03493472	-0.05356975	9.133947e-08	1.251685e-07
	5.143003e-07	1.655978e-07	0.006289724	0.008021776	9.133947e-08	1.251685e-07	-0.03556787	-0.05303339
2.4e+08	-0.05166354	-0.06055388	7.120109e-08	7.430506e-08	0.008795528	0.007956143	5.55386e-07	-3.549625e-09
	7.120109e-08	7.430506e-08	-0.05240613	-0.05974568	9.225566e-09	7.309982e-07	0.008491169	0.00832112
	0.008795528	0.007956143	9.225566e-09	7.309982e-07	-0.05175572	-0.06041568	9.585433e-08	1.040331e-07
	5.55386e-07	-3.549625e-09	0.008491169	0.00832112	9.585433e-08	1.040331e-07	-0.05247605	-0.05962887
2.5e+08	-0.06981179	-0.06178562	6.809528e-08	5.759306e-08	0.01093467	0.007418198	5.395892e-07	-1.823935e-07
	6.809528e-08	5.759306e-08	-0.07056998	-0.06069288	6.9826e-09	7.82525e-07	0.01062966	0.007905995
	0.01093467	0.007418198	6.9826e-09	7.82525e-07	-0.06991182	-0.06159824	9.178676e-08	8.207782e-08
	5.395892e-07	-1.823935e-07	0.01062966	0.007905995	9.178676e-08	8.207782e-08	-0.07064644	-0.06053519
2.6e+08	-0.08743775	-0.0572687	5.843916e-08	4.24314e-08	0.01275369	0.006237351	4.654387e-07	-3.517827e-07
	5.843916e-08	4.24314e-08	-0.08812945	-0.05589036	1.217065e-08	8.356023e-07	0.01248343	0.006846654
	0.01275369	0.006237351	1.217065e-08	8.356023e-07	-0.08753144	-0.05703001	7.908937e-08	6.221134e-08
	4.654387e-07	-3.517827e-07	0.01248343	0.006846654	7.908937e-08	6.221134e-08	-0.08820065	-0.05568993
2.7e+08	-0.102765	-0.04750316	4.292235e-08	3.099046e-08	0.01407262	0.004558875	3.378271e-07	-4.928929e-07
	4.292235e-08	3.099046e-08	-0.1033098	-0.04586544	2.533959e-08	8.875903e-07	0.01387124	0.005276624
	0.01407262	0.004558875	2.533959e-08	8.875903e-07	-0.1028377	-0.04721581	5.87032e-08	4.725648e-08
	3.378271e-07	-4.928929e-07	0.01387124	0.005276624	5.87032e-08	4.725648e-08	-0.1033635	-0.0456244
2.8e+08	-0.1142853	-0.0335083	2.295411e-08	2.513436e-08	0.01477056	0.002571385	1.67525e-07	-5.892406e-07
	2.295411e-08	2.513436e-08	-0.1146136	-0.03166323	4.602399e-08	9.35646e-07	0.01466702	0.003373554
	0.01477056	0.002571385	4.602399e-08	9.35646e-07	-0.1143237	-0.03317971	3.248038e-08	3.961767e-08
	1.67525e-07	-5.892406e-07	0.01466702	0.003373554	3.248038e-08	3.961767e-08	-0.1146387	-0.03138769
2.9e+08	-0.1208967	-0.01670481	5.253347e-10	2.618535e-08	0.01479211	0.0004852967	-2.985948e-08	-6.283728e-07
	5.253347e-10	2.618535e-08	-0.1209577	-0.01472591	7.267253e-08	9.771557e-07	0.0148067	0.001338931
	0.01479211	0.0004852967	7.267253e-08	9.771557e-07	-0.1208901	-0.01634661	2.999621e-09	4.099851e-08
	-2.985948e-08	-6.283728e-07	0.0148067	0.001338931	2.999621e-09	4.099851e-08	-0.1209452	-0.01442556
3e+08	-0.1219961	0.001232734	-2.200263e-08	3.475131e-08	0.01414728	-0.001487141	-2.353117e-07	-6.03141e-07
	-2.200263e-08	3.475131e-08	-0.1217644	0.003257227	1.027823e-07	1.01018e-06	0.01428898	-0.000620808
	0.01414728	-0.001487141	1.027823e-07	1.01018e-06	-0.121938	0.001605674	-2.66968e-08	5.219893e-08
	-2.353117e-07	-6.03141e-07	0.01428898	-0.000620808	-2.66968e-08	5.219893e-08	-0.1217086	0.003569968
3.1e+08	-0.1175243	0.01853833	-4.215361e-08	5.063587e-08	0.01290704	-0.003149148	-4.280983e-07	-5.125298e-07
	-4.215361e-08	5.063587e-08	-0.1170037	0.02051408	1.332262e-07	1.033811e-06	0.01317189	-0.002310809
	0.01290704	-0.003149148	1.332262e-07	1.033811e-06	-0.117413	0.01890933	-5.341188e-08	7.300751e-08
	-4.280983e-07	-5.125298e-07	0.01317189	-0.002310809	-5.341188e-08	7.300751e-08	-0.1169033	0.02082523
3.2e+08	-0.1079636	0.03351953	-5.760557e-08	7.283722e-08	0.0111959	-0.004334229	-5.876185e-07	-3.620295e-07
	-5.760557e-08	7.283722e-08	-0.1071887	0.03535576	1.607101e-07	1.048349e-06	0.01156674	-0.003562225
	0.0111959	-0.004334229	1.607101e-07	1.048349e-06	-0.1078029	0.03387169	-7.411805e-08	1.021923e-07
	-5.876185e-07	-3.620295e-07	0.01156674	-0.003562225	-7.411805e-08	1.021923e-07	-0.1070469	0.03565113
3.3e+08	-0.09429073	0.04471407	-6.644507e-08	9.963266e-08	0.009182286	-0.00491912	-6.953524e-07	-1.635261e-07
	-6.644507e-08	9.963266e-08	-0.09332481	0.04633343	1.822617e-07	1.055274e-06	0.00962991	-0.004245196
	0.009182286	-0.00491912	1.822617e-07	1.055274e-06	-0.09409	0.04503215	-8.627027e-08	1.375873e-07
	-6.953524e-07	-1.635261e-07	0.00962991	-0.004245196	-8.627027e-08	1.375873e-07	-0.09314933	0.04660021
3.4e+08	-0.07788738	0.05102832	-6.738128e-08	1.287393e-07	0.007066131	-0.004835133	-7.368233e-07	6.53521e-08
	-6.738128e-08	1.287393e-07	-0.07681746	0.05237592	1.956475e-07	1.057004e-06	0.007551726	-0.004280674
	0.007066131	-0.004835133	1.956475e-07	1.057004e-06	-0.07766068	0.05130048	-8.808478e-08	1.762684e-07
	-7.368233e-07	6.53521e-08	0.007551727	-0.004280674	-8.808478e-08	1.762684e-07	-0.07662016	0.05260419
3.5e+08	-0.06041311	0.05184663	-5.990089e-08	1.57533e-07	0.005062994	-0.004077231	-7.034337e-07	3.024998e-07
	-5.990089e-08	1.57533e-07	-0.0593421	0.05289739	1.996346e-07	1.05652e-06	0.005541788	-0.003650394
	0.005062994	-0.004077231	1.996346e-07	1.05652e-06	-0.0601781	0.05206584	-7.876202e-08	2.148092e-07
	-7.034337e-07	3.024998e-07	0.005541788	-0.003650394	-7.876202e-08	2.148092e-07	-0.05913782	0.05308125
3.6e+08	-0.04364732	0.04710075	-4.43494e-08	1.833059e-07	0.003384321	-0.002709092	-5.939645e-07	5.232499e-07
	-4.43494e-08	1.833059e-07	-0.04268387	0.04786393	1.940611e-07	1.056954e-06	0.00381006	-0.002403198
	0.003384321	-0.002709092	1.940611e-07	1.056954e-06	-0.04342355	0.04726592	-5.862783e-08	2.496042e-07
	-5.939645e-07	5.232499e-07	0.00381006	-0.002403198	-5.862783e-08	2.496042e-07	-0.04248903	0.04800249
3.7e+08	-0.02931188	0.03728849	-2.193066e-08	2.035402e-07	0.002214751	-0.0008617858	-4.154561e-07	7.028756e-07
	-2.193066e-08	2.035402e-07	-0.02855886	0.03780884	1.79737e-07	1.061219e-06	0.002544609	-0.0006552175
	0.002214751	-0.0008617858	1.79737e-07	1.061219e-06	-0.02911885	0.03740499	-2.917344e-08	2.772341e-07
	-4.154561e-07	7.028756e-07	0.002544609	-0.0006552175	-2.917344e-08	2.772341e-07	-0.02838984	0.03790666
3.8e+08	-0.01889101	0.0234343	5.376324e-09	2.161731e-07	0.001688992	0.00127606	-1.831923e-07	8.194722e-07
	5.376324e-09	2.161731e-07	-0.01843383	0.02378925	1.582431e-07	1.071766e-06	0.001888393	0.001418326
	0.001688992	0.00127606	1.582431e-07	1.071766e-06	-0.01874597	0.02351377	7.023526e-09	2.948447e-07
	-1.831923e-07	8.194722e-07	0.001888393	0.001418326	7.023526e-09	2.948447e-07	-0.01830512	0.02385618
3.9e+08	-0.01346883	0.006990179	3.497869e-08	2.198311e-07	0.001872236	0.003477294	8.040957e-08	8.568505e-07
	3.497869e-08	2.198311e-07	-0.01336502	0.007283143	1.317136e-07	1.090463e-06	0.001919039	0.003600594
	0.001872236	0.003477294	1.317136e-07	1.090463e-06	-0.01338477	0.007049676	4.650369e-08	3.004977e-07
	8.040957e-08	8.568505e-07	0.001919039	0.003600594	4.650369e-08	3.004977e-07	-0.01328745	0.007333578
4e+08	-0.0136065	-0.01031582	6.390073e-08	2.140132e-07	0.002748478	0.00550294	3.480159e-07	8.069687e-07
	6.390073e-08	2.140132e-07	-0.01387779	-0.009965551	1.026684e-07	1.118556e-06	0.002636019	0.005658521
	0.002748478	0.00550294	1.026684e-07	1.118556e-06	-0.01359042	-0.01025543	8.524936e-08	2.934511e-07
	3.480159e-07	8.069687e-07	0.002636019	0.005658521	8.524936e-08	2.934511e-07	-0.01385716	-0.009914023
4.1e+08	-0.01927743	-0.02666705	8.907221e-08	1.992018e-07	0.004220164	0.007132634	5.904749e-07	6.714309e-07
	8.907221e-08	1.992018e-07	-0.01990565	-0.0261368	7.39075e-08	1.156634e-06	0.003958724	0.007372354
	0.004220164	0.007132634	7.39075e-08	1.156634e-06	-0.01932925	-0.0265832	1.191028e-07	2.743244e-07
	5.904749e-07	6.714309e-07	0.003958724	0.007372354	1.191028e-07	2.743244e-07	-0.01994178	-0.02606518
4.2e+08	-0.02987138	-0.04035795	1.076546e-07	1.768801e-07	0.006120168	0.008193307	7.803487e-07	4.617161e-07
	1.076546e-07	1.768801e-07	-0.03079875	-0.03953508	4.842373e-08	1.204553e-06	0.005736622	0.008564027
	0.006120168	0.008193307	4.842373e-08	1.204553e-06	-0.02998362	-0.04022881	1.442374e-07	2.451124e-07
	7.803487e-07	4.617161e-07	0.005736622	0.008564027	1.442374e-07	2.451124e-07	-0.03088522	-0.03942503
4.3e+08	-0.04426729	-0.04997926	1.173757e-07	1.494379e-07	0.008234205	0.008580717	8.953112e-07	1.9805e-07
	1.173757e-07	1.494379e-07	-0.04540127	-0.0487739	2.925871e-08	1.2613e-06	0.0077698	0.009119009
	0.008234205	0.008580717	2.925871e-08	1.2613e-06	-0.04442558	-0.04978615	1.576231e-07	2.090295e-07
	8.953112e-07	1.9805e-07	0.0077698	0.009119009	1.576231e-07	2.090295e-07	-0.04552583	-0.04860979
4.4e+08	-0.06096378	-0.05456454	1.168288e-07	1.199579e-07	0.01032927	0.008270065	9.208654e-07	-9.289464e-08
	1.168288e-07	1.199579e-07	-0.06218596	-0.05292016	1.924194e-08	1.324869e-06	0.009835731	0.008997864
	0.01032927	0.008270065	1.924194e-08	1.324869e-06	-0.06114817	-0.0542941	1.574196e-07	1.701885e-07
	9.208654e-07	-9.289464e-08	0.009835731	0.008997864	1.574196e-07	1.701885e-07	-0.06233172	-0.05269087
4.5e+08	-0.07824782	-0.05368133	1.056898e-07	9.189541e-08	0.01218267	0.007314745	8.519997e-07	-3.810656e-07
	1.056898e-07	9.189541e-08	-0.07942587	-0.05158173	2.060892e-08	1.392244e-06	0.01171701	0.008236476
	0.01218267	0.007314745	2.060892e-08	1.392244e-06	-0.07843474	-0.05332713	1.432351e-07	1.331515e-07
	8.519997e-07	-3.810656e-07	0.01171701	0.008236476	1.432351e-07	1.331515e-07	-0.0795729	-0.05128203
4.6e+08	-0.09437816	-0.04745973	8.480732e-08	6.868791e-08	0.01360669	0.005834934	6.936375e-07	-6.363671e-07
	8.480732e-08	6.868791e-08	-0.09537949	-0.04493185	3.4565e-08	1.459564e-06	0.01322532	0.006936468
	0.01360669	0.005834934	3.4565e-08	1.459564e-06	-0.0945428	-0.04702313	1.162077e-07	1.024124e-07
	6.936375e-07	-6.363671e-07	0.01322532	0.006936468	1.162077e-07	1.024124e-07	-0.0955069	-0.04456312
4.7e+08	-0.1077615	-0.03656095	5.61453e-08	5.334993e-08	0.01446601	0.003999592	4.599639e-07	-8.318053e-07
	5.61453e-08	5.334993e-08	-0.1084671	-0.03367317	6.09119e-08	1.522521e-06	0.01421875	0.005249172
	0.01446601	0.003999592	6.09119e-08	1.522521e-06	-0.1078804	-0.0360512	7.889934e-08	8.188602e-08
	4.599639e-07	-8.318053e-07	0.01421875	0.005249172	7.889934e-08	8.188602e-08	-0.1085552	-0.03324342
4.8e+08	-0.1171038	-0.02209548	2.258276e-08	4.811271e-08	0.01468687	0.002005784	1.728664e-07	-9.461163e-07
	2.258276e-08	4.811271e-08	-0.1174208	-0.01895157	9.786144e-08	1.576933e-06	0.01461155	0.003356834
