!$
! Info: Touchstone file created by Circ.  Input file=Tx_12in_Rx_100ohms_TxVia_10mils_RxVia_20mils.circ
!$
# Hz S RI R 50
0	0.0124405	7.67374e-26	-6.435015e-05	1.524102e-25	7.698996e-05	1.320984e-23	-6.437552e-05	2.939351e-24
	-6.435017e-05	1.540306e-25	0.01244114	1.071035e-25	-6.434267e-05	4.6576e-26	7.508376e-05	1.770435e-23
	7.568988e-05	1.287121e-23	-6.434266e-05	4.671592e-26	0.01245564	8.034311e-26	-6.435221e-05	3.403052e-25
	-6.43755e-05	2.937953e-24	7.653853e-05	1.822202e-23	-6.435218e-05	3.374779e-25	0.01244669	1.021282e-25
1e+07	0.01824918	0.007372595	-0.0002257651	2.856652e-05	0.0008032223	0.002148565	-8.659413e-05	-3.730824e-06
	-0.0002257651	2.856652e-05	0.01843035	0.007351081	-1.221393e-05	0.0001477074	0.0007993785	0.002146742
	0.0008031781	0.002148568	-1.221393e-05	0.0001477074	0.01844861	0.007351274	-0.0002257793	2.854375e-05
	-8.659413e-05	-3.730822e-06	0.0007994117	0.002146731	-0.0002257793	2.854375e-05	0.01826405	0.007375765
2e+07	0.02398037	0.00999977	-0.0001863614	-5.686519e-05	0.00142861	0.004372018	-6.920598e-05	-9.695793e-06
	-0.0001863614	-5.686519e-05	0.02409607	0.009901324	-4.820139e-05	0.0002504701	0.001414397	0.004371369
	0.001428599	0.004372046	-4.820139e-05	0.0002504701	0.02412462	0.009898593	-0.0001863913	-5.691253e-05
	-6.920598e-05	-9.695793e-06	0.001414395	0.004371348	-0.0001863913	-5.691253e-05	0.02398959	0.01000534
3e+07	0.02889925	0.0101563	-0.000161342	-8.168313e-05	0.002536434	0.006165314	-5.986288e-05	-1.875909e-05
	-0.000161342	-8.168313e-05	0.02895314	0.0100376	-0.0001101787	0.0003097749	0.002506626	0.006170858
	0.002536435	0.006165318	-0.0001101787	0.0003097749	0.02899743	0.01002702	-0.000161399	-8.176837e-05
	-5.986288e-05	-1.875909e-05	0.002506621	0.006170856	-0.000161399	-8.176837e-05	0.02890006	0.01016743
4e+07	0.03320104	0.008904493	-0.0001445682	-9.388125e-05	0.0040569	0.007560461	-5.302913e-05	-2.301178e-05
	-0.0001445682	-9.388125e-05	0.03319479	0.008788545	-0.0001524722	0.0003601899	0.004008124	0.007578749
	0.004056896	0.007560458	-0.0001524722	0.0003601899	0.03325818	0.008763176	-0.0001446626	-9.401561e-05
	-5.302913e-05	-2.301178e-05	0.004008123	0.007578751	-0.0001446626	-9.401561e-05	0.0331899	0.008922922
5e+07	0.03683524	0.006581558	-0.0001322573	-0.0001003592	0.006010943	0.008400175	-4.762464e-05	-2.541098e-05
	-0.0001322573	-0.0001003592	0.0367727	0.006486411	-0.0001808928	0.0004078347	0.005942051	0.00843853
	0.006010941	0.008400174	-0.0001808928	0.0004078347	0.03685585	0.006438214	-0.0001324077	-0.0001005492
	-4.762464e-05	-2.541098e-05	0.00594205	0.008438531	-0.0001324077	-0.0001005492	0.03680891	0.006612305
6e+07	0.03971153	0.003426909	-0.0001222697	-0.0001035904	0.008067337	0.00874799	-4.314121e-05	-2.697687e-05
	-0.0001222697	-0.0001035904	0.03959949	0.00336794	-0.0001988229	0.0004539663	0.007979782	0.008814151
	0.008067343	0.008747988	-0.0001988229	0.0004539663	0.03970018	0.003288803	-0.0001225003	-0.0001038356
	-4.314121e-05	-2.697687e-05	0.007979779	0.008814152	-0.0001225003	-0.0001038356	0.03966961	0.003476041
7e+07	0.04174294	-0.0003448864	-0.000133679	-8.103078e-05	0.01011206	0.008599392	-3.868383e-05	-2.808401e-05
	-0.000133679	-8.103077e-05	0.04159117	-0.0003549036	-0.0002085636	0.0004984379	0.01000979	0.008700549
	0.01011207	0.008599386	-0.0002085636	0.0004984379	0.04170441	-0.0004722251	-0.000134005	-8.130276e-05
	-3.868383e-05	-2.808401e-05	0.01000978	0.008700551	-0.000134005	-8.130276e-05	0.041687	-0.0002717935
8e+07	0.04286575	-0.004522501	-0.000149796	-3.628861e-05	0.01203151	0.007974747	-4.149602e-05	-1.8129e-05
	-0.000149796	-3.628861e-05	0.04268667	-0.004473806	-0.0002135058	0.0005402452	0.01192074	0.008116835
	0.01203152	0.007974736	-0.0002135058	0.0005402452	0.04280512	-0.004634864	-0.0001502168	-3.656673e-05
	-4.149602e-05	-1.8129e-05	0.01192074	0.008116839	-0.0001502168	-3.656673e-05	0.04279866	-0.004420318
9e+07	0.04304995	-0.008894129	-0.000151264	1.142762e-05	0.01371842	0.006919168	-4.271308e-05	-4.155794e-06
	-0.0001512641	1.142763e-05	0.04285822	-0.008780378	-0.0002196024	0.0005782847	0.01360723	0.007106237
	0.01371843	0.006919159	-0.0002196024	0.0005782847	0.04297281	-0.008988394	-0.0001517923	1.116598e-05
	-4.271308e-05	-4.155794e-06	0.01360723	0.007106241	-0.0001517923	1.116598e-05	0.04297613	-0.008758159
1e+08	0.04231802	-0.01324663	-0.0001321877	6.096436e-05	0.01507107	0.00549843	-3.773903e-05	1.019672e-05
	-0.0001321877	6.096436e-05	0.04213156	-0.01306481	-0.0002476447	0.0006075722	0.0149688	0.005732149
	0.01507107	0.00549843	-0.0002476447	0.0006075722	0.04223217	-0.01332022	-0.0001328303	6.074298e-05
	-3.773903e-05	1.019672e-05	0.0149688	0.005732149	-0.0001328303	6.074298e-05	0.04224372	-0.01307319
1.1e+08	0.04069165	-0.01748476	-9.849419e-05	8.219866e-05	0.01602359	0.003845478	-2.870397e-05	1.546794e-05
	-9.849419e-05	8.219866e-05	0.04052572	-0.01724469	-0.0002500849	0.000576799	0.01593987	0.004124358
	0.01602359	0.003845478	-0.0002500849	0.000576799	0.04060282	-0.01754758	-9.926952e-05	8.204605e-05
	-2.870397e-05	1.546794e-05	0.01593987	0.004124358	-9.926952e-05	8.204605e-05	0.04062459	-0.0172721
1.2e+08	0.0381746	-0.02132329	-7.208301e-05	9.426197e-05	0.01655996	0.002023924	-2.241227e-05	1.84831e-05
	-7.208301e-05	9.426197e-05	0.03803713	-0.02103103	-0.0002301266	0.0005587966	0.01650467	0.002344148
	0.01655996	0.002023924	-0.0002301266	0.0005587966	0.03807943	-0.02137499	-7.297625e-05	9.422888e-05
	-2.241227e-05	1.84831e-05	0.01650467	0.002344148	-7.297625e-05	9.422888e-05	0.03812325	-0.02107263
1.3e+08	0.03491033	-0.02458123	-4.793345e-05	0.0001006915	0.01664149	0.0001351938	-1.702612e-05	2.033721e-05
	-4.793345e-05	0.0001006915	0.03481042	-0.02424446	-0.0002067865	0.0005441594	0.01662344	0.0004899965
	0.01664149	0.0001351939	-0.0002067865	0.0005441594	0.03480897	-0.02461996	-4.89152e-05	0.0001008185
	-1.702612e-05	2.033721e-05	0.01662344	0.0004899965	-4.89152e-05	0.0001008185	0.03488283	-0.02429627
1.4e+08	0.03105453	-0.02711827	-2.568109e-05	0.0001024898	0.01626379	-0.001710949	-1.224034e-05	2.134151e-05
	-2.568109e-05	0.0001024898	0.03099985	-0.02674693	-0.0001842015	0.0005313317	0.01628988	-0.001330912
	0.01626379	-0.001710949	-0.0001842015	0.0005313317	0.03094861	-0.02714218	-2.67098e-05	0.0001028067
	-1.224034e-05	2.134151e-05	0.01628988	-0.001330912	-2.67098e-05	0.0001028067	0.03105802	-0.02680508
1.5e+08	0.02678304	-0.02883179	-5.519126e-06	0.0001003865	0.01545007	-0.003406691	-7.925948e-06	2.168315e-05
	-5.519126e-06	0.0001003865	0.02677891	-0.02843782	-0.0001641325	0.0005204939	0.01552466	-0.003012785
	0.01545007	-0.003406691	-0.0001641325	0.0005204939	0.02667513	-0.02883953	-6.544861e-06	0.0001009086
	-7.925948e-06	2.168315e-05	0.01552466	-0.003012785	-6.544861e-06	0.0001009086	0.02682303	-0.02849855
1.6e+08	0.02228575	-0.02965955	1.224224e-05	9.508408e-05	0.01424907	-0.004852923	-4.019752e-06	2.148675e-05
	1.224224e-05	9.508408e-05	0.02233455	-0.02925624	-0.0001471154	0.0005125326	0.01437343	-0.004457811
	0.01424907	-0.004852923	-0.0001471154	0.0005125326	0.02217901	-0.02965045	1.127256e-05	9.581025e-05
	-4.019752e-06	2.148675e-05	0.01437343	-0.004457811	1.127256e-05	9.581025e-05	0.02236552	-0.02931605
1.7e+08	0.01775872	-0.02958133	2.734042e-05	8.731466e-05	0.01273191	-0.005965129	-4.876233e-07	2.084321e-05
	2.734042e-05	8.731466e-05	0.01785943	-0.02918266	-0.0001327992	0.0005085505	0.01290386	-0.005581923
	0.01273191	-0.005965128	-0.0001327992	0.0005085505	0.01765656	-0.02955558	2.647706e-05	8.822714e-05
	-4.876233e-07	2.084321e-05	0.01290386	-0.005581923	2.647706e-05	8.822714e-05	0.01787882	-0.02923842
1.8e+08	0.01339554	-0.02861915	3.96388e-05	7.78298e-05	0.01098782	-0.006678329	2.689567e-06	1.982325e-05
	3.96388e-05	7.78298e-05	0.01354355	-0.02823883	-0.0001201332	0.0005095358	0.01120167	-0.006319666
	0.01098782	-0.006678329	-0.0001201332	0.0005095358	0.01330137	-0.02857774	3.89235e-05	7.889598e-05
	2.689567e-06	1.982325e-05	0.01120167	-0.006319666	3.89235e-05	7.889598e-05	0.01355358	-0.02828794
1.9e+08	0.009378734	-0.02683559	4.916207e-05	6.736076e-05	0.009118888	-0.006950839	5.5224e-06	1.848484e-05
	4.916207e-05	6.736076e-05	0.009565893	-0.02648617	-0.0001075458	0.0005161233	0.009365539	-0.006627934
	0.009118888	-0.006950839	-0.0001075458	0.0005161233	0.009295774	-0.02678032	4.86233e-05	6.853716e-05
	5.5224e-06	1.848484e-05	0.009365539	-0.006627934	4.86233e-05	6.853716e-05	0.00956924	-0.02652663
2e+08	0.005871501	-0.0243303	5.609912e-05	5.656849e-05	0.007234032	-0.006766634	8.016353e-06	1.687761e-05
	5.609912e-05	5.656849e-05	0.006086381	-0.02402224	-9.314462e-05	0.0005284273	0.00750138	-0.006488382
	0.007234032	-0.006766634	-9.314462e-05	0.0005284273	0.00580254	-0.02426371	5.574896e-05	5.780624e-05
	8.016353e-06	1.687761e-05	0.00750138	-0.006488382	5.574896e-05	5.780624e-05	0.006086097	-0.0240528
2.1e+08	0.003010342	-0.02123487	6.078065e-05	4.599532e-05	0.005442641	-0.006136201	1.017379e-05	1.504577e-05
	6.078065e-05	4.599532e-05	0.003238803	-0.02097569	-7.493514e-05	0.0005459535	0.005716185	-0.00590839
	0.005442641	-0.006136201	-7.493514e-05	0.0005459535	0.002957612	-0.02116009	6.0614e-05	4.724654e-05
	1.017379e-05	1.504577e-05	0.005716185	-0.00590839	6.0614e-05	4.724654e-05	0.003238113	-0.02099588
2.2e+08	0.0008989966	-0.01770613	6.363664e-05	3.602798e-05	0.003848191	-0.005095817	1.199524e-05	1.303002e-05
	6.363664e-05	3.602798e-05	0.001124937	-0.01749971	-5.104392e-05	0.0005675838	0.004111857	-0.004920504
	0.003848191	-0.005095817	-5.104392e-05	0.0005675838	0.000864019	-0.01762679	6.363278e-05	3.72521e-05
	1.199524e-05	1.303002e-05	0.004111857	-0.004920504	6.363278e-05	3.72521e-05	0.001127067	-0.01750985
2.3e+08	-0.0003960634	-0.01391831	6.514141e-05	2.687793e-05	0.002542253	-0.003705319	1.348036e-05	1.086892e-05
	6.514141e-05	2.687793e-05	-0.0001897523	-0.01376438	-1.992815e-05	0.0005916354	0.002779367	-0.003580432
	0.002542253	-0.003705319	-1.992815e-05	0.0005916354	-0.0004125688	-0.01383834	6.52679e-05	2.804709e-05
	1.348036e-05	1.086892e-05	0.002779367	-0.003580432	6.52679e-05	2.804709e-05	-0.0001817657	-0.01376559
2.4e+08	-0.000848296	-0.01005441	6.575467e-05	1.858118e-05	0.001599232	-0.002044495	1.462854e-05	8.600044e-06
	6.575467e-05	1.858118e-05	-0.0006786626	-0.009948288	1.945182e-05	0.0006159889	0.001793592	-0.001963688
	0.001599232	-0.002044495	1.945182e-05	0.0006159889	-0.0008464841	-0.009977874	6.59731e-05	1.968387e-05
	1.462854e-05	8.600044e-06	0.001793592	-0.001963688	6.59731e-05	1.968387e-05	-0.0006621549	-0.009942412
2.5e+08	-0.0004717644	-0.006297178	6.5865e-05	1.102049e-05	0.001072154	-0.0002083391	1.543971e-05	6.260806e-06
	6.5865e-05	1.102049e-05	-0.000354659	-0.006229842	6.75097e-05	0.0006382571	0.001209126	-0.0001611275
	0.001072154	-0.0002083391	6.75097e-05	0.0006382571	-0.0004526908	-0.006228084	6.613782e-05	1.206286e-05
	1.543971e-05	6.260806e-06	0.001209126	-0.0001611275	6.613782e-05	1.206286e-05	-0.0003275058	-0.00621935
2.6e+08	0.0006801825	-0.002820272	6.57452e-05	3.964082e-06	0.0009897371	0.001698546	1.591509e-05	3.889168e-06
	6.57452e-05	3.964082e-06	0.0007312175	-0.002778658	0.0001239764	0.0006559894	0.001057305	0.001726368
	0.0009897371	0.001698546	0.0001239764	0.0006559894	0.0007145772	-0.002762355	6.604275e-05	4.968523e-06
	1.591509e-05	3.889168e-06	0.001057305	0.001726368	6.604275e-05	4.968523e-06	0.0007704613	-0.002766487
2.7e+08	0.002518164	0.0002200926	6.552379e-05	-2.881595e-06	0.001354893	0.003568055	1.605818e-05	1.524012e-06
	6.552379e-05	-2.881595e-06	0.002492912	0.0002524744	0.0001879083	0.0006668788	0.001344599	0.003593735
	0.001354893	0.003568055	0.0001879083	0.0006668788	0.002565118	0.0002635673	6.583047e-05	-1.88044e-06
	1.605818e-05	1.524012e-06	0.001344599	0.003593735	6.583047e-05	-1.88044e-06	0.002544913	0.0002630887
2.8e+08	0.004921757	0.002692493	6.517718e-05	-9.81429e-06	0.002144746	0.00529483	1.587584e-05	-7.947147e-07
	6.517718e-05	-9.81429e-06	0.00481418	0.002734686	0.0002577684	0.0006689567	0.00205244	0.00533774
	0.002144746	0.00529483	0.0002577684	0.0006689567	0.0049778	0.002718913	6.549584e-05	-8.77572e-06
	1.587584e-05	-7.947147e-07	0.00205244	0.00533774	6.549584e-05	-8.77572e-06	0.004878772	0.002740413
2.9e+08	0.007745963	0.004496301	6.454233e-05	-1.707886e-05	0.003312131	0.006782283	1.537943e-05	-3.026484e-06
	6.454233e-05	-1.707886e-05	0.007554821	0.00456883	0.0003315551	0.0006607471	0.003138483	0.00686283
	0.003312131	0.006782283	0.0003315551	0.0006607471	0.007807066	0.004503868	6.489613e-05	-1.596374e-05
	1.537943e-05	-3.026484e-06	0.003138483	0.00686283	6.489613e-05	-1.596374e-05	0.007631002	0.004566453
3e+08	0.01082879	0.005566069	6.334862e-05	-2.481898e-05	0.004788459	0.007948065	1.458565e-05	-5.131041e-06
	6.334862e-05	-2.481898e-05	0.01055798	0.005689722	0.0004069751	0.0006413711	0.004539195	0.008086473
	0.004788459	0.007948065	0.0004069751	0.0006413711	0.01089056	0.005553925	6.378003e-05	-2.359781e-05
	1.458565e-05	-5.131041e-06	0.004539195	0.008086473	6.378003e-05	-2.359781e-05	0.01064396	0.00567634
3.1e+08	0.01399955	0.005874104	6.126443e-05	-3.304434e-05	0.006487783	0.008728661	1.351732e-05	-7.069592e-06
	6.126443e-05	-3.304434e-05	0.01365815	0.006068635	0.0004816408	0.0006105897	0.006173606	0.008943716
	0.006487783	0.008728661	0.0004816408	0.0006105897	0.01405745	0.005842404	6.183112e-05	-3.170463e-05
	1.351732e-05	-7.069592e-06	0.006173606	0.008943716	6.183112e-05	-3.170463e-05	0.01375143	0.006041854
3.2e+08	0.01708745	0.005431105	5.795211e-05	-4.161554e-05	0.008311788	0.009082881	1.220336e-05	-8.806384e-06
	5.795211e-05	-4.161554e-05	0.0166894	0.005713948	0.0005532587	0.0005687831	0.007947995	0.0093907
	0.008311788	0.009082881	0.0005532587	0.0005687831	0.01713704	0.005381045	5.872037e-05	-4.016752e-05
	1.220336e-05	-8.806384e-06	0.007947995	0.0093907	5.872037e-05	-4.016752e-05	0.01678695	0.005672042
3.3e+08	0.01993005	0.004284904	5.312479e-05	-5.024999e-05	0.01015545	0.008994066	1.067845e-05	-1.031023e-05
	5.312479e-05	-5.024999e-05	0.01949355	0.004669982	0.0006198008	0.0005168717	0.009761238	0.009406979
	0.01015545	0.008994066	0.0006198008	0.0005168717	0.01996722	0.004218688	5.416089e-05	-4.872967e-05
	1.067845e-05	-1.031023e-05	0.009761238	0.009406979	5.416089e-05	-4.872967e-05	0.01959196	0.004612009
3.4e+08	0.02238113	0.002517395	4.659711e-05	-5.854776e-05	0.011913	0.008470897	8.982187e-06	-1.15559e-05
	4.659711e-05	-5.854776e-05	0.02192774	0.00301408	0.0006796422	0.0004561868	0.01151052	0.008996515
	0.011913	0.008470897	0.0006796422	0.0004561868	0.02240234	0.002438146	4.795796e-05	-5.701681e-05
	8.982187e-06	-1.15559e-05	0.01151052	0.008996515	4.795796e-05	-5.701681e-05	0.02202343	0.002939964
3.5e+08	0.02431767	0.0002398091	3.832425e-05	-6.603318e-05	0.01348393	0.007546794	7.157684e-06	-1.252521e-05
	3.832425e-05	-6.603318e-05	0.02387114	0.0008521358	0.0007316373	0.0003883144	0.01309708	0.008187313
	0.01348393	0.007546794	0.0007316373	0.0003883144	0.02432014	0.0001514314	4.004824e-05	-6.457545e-05
	7.157684e-06	-1.252521e-05	0.01309708	0.008187313	4.004824e-05	-6.457545e-05	0.02396056	0.0007626855
3.6e+08	0.02564551	-0.00241335	2.842379e-05	-7.220818e-05	0.01477861	0.006277937	5.250038e-06	-1.320767e-05
	2.842379e-05	-7.220818e-05	0.02523045	-0.001687189	0.000775147	0.000314921	0.01443172	0.007029746
	0.01477861	0.006277937	0.000775147	0.000314921	0.0256274	-0.002506369	3.052319e-05	-7.092301e-05
	5.250038e-06	-1.320767e-05	0.01443172	0.007029746	3.052319e-05	-7.092301e-05	0.02531033	-0.001790307
3.7e+08	0.02630351	-0.005291441	1.717806e-05	-7.661009e-05	0.01572335	0.004740035	3.304651e-06	-1.360064e-05
	1.717806e-05	-7.661009e-05	0.02594397	-0.004459261	0.0008100025	0.0002375918	0.01543976	0.005593654
	0.01572335	0.004740035	0.0008100025	0.0002375918	0.02626408	-0.005384248	1.963399e-05	-7.560323e-05
	3.304651e-06	-1.360064e-05	0.01543976	0.005593654	1.963399e-05	-7.560323e-05	0.0260115	-0.004573605
3.8e+08	0.0262661	-0.008235499	5.0161e-06	-7.886728e-05	0.01626448	0.003024014	1.365643e-06	-1.370912e-05
	5.0161e-06	-7.886728e-05	0.02598405	-0.007310929	0.0008364209	0.000157692	0.01606512	0.003964377
	0.01626448	0.003024014	0.0008364209	0.000157692	0.02620572	-0.00832314	7.776809e-06	-7.824026e-05
	1.365643e-06	-1.370912e-05	0.01606512	0.003964377	7.776809e-06	-7.824026e-05	0.02603708	-0.007433413
3.9e+08	0.02554389	-0.01108636	-7.522669e-06	-7.874567e-05	0.01637142	0.001230867	-5.255478e-07	-1.354509e-05
	-7.522669e-06	-7.874567e-05	0.02535786	-0.01008829	0.0008548818	7.62683e-05	0.01627346	0.002237954
	0.01637142	0.001230867	0.0008548818	7.62683e-05	0.02546408	-0.01116404	-4.539739e-06	-7.858496e-05
	-5.255478e-07	-1.354509e-05	0.01627346	0.002237954	-4.539739e-06	-7.858496e-05	0.025395	-0.01021536
4e+08	0.02418257	-0.01369267	-1.983863e-05	-7.618037e-05	0.01603837	-0.0005340657	-2.331358e-06	-1.312669e-05
	-1.983863e-05	-7.618037e-05	0.02410636	-0.01264437	0.0008659813	-5.99602e-06	0.01605402	0.0005157225
	0.01603837	-0.0005340657	0.0008659813	-5.99602e-06	0.02408597	-0.01375602	-1.674115e-05	-7.65476e-05
	-2.331358e-06	-1.312669e-05	0.01605402	0.0005157225	-1.674115e-05	-7.65476e-05	0.02412714	-0.01277218
4.1e+08	0.02226008	-0.01591842	-3.133063e-05	-7.128854e-05	0.01528462	-0.002167055	-4.019004e-06	-1.247719e-05
	-3.133063e-05	-7.128854e-05	0.02230176	-0.01484634	0.0008702823	-8.877583e-05	0.01542026	-0.001101364
	0.01528462	-0.002167055	0.0008702823	-8.877583e-05	0.02215029	-0.01596377	-2.824256e-05	-7.221308e-05
	-4.019004e-06	-1.247719e-05	0.01542026	-0.001101364	-2.824256e-05	-7.221308e-05	0.02230664	-0.01497102
4.2e+08	0.01988217	-0.01764966	-4.145585e-05	-6.43615e-05	0.01415354	-0.003571881	-5.561183e-06	-1.162381e-05
	-4.145585e-05	-6.43615e-05	0.02004331	-0.01658199	0.0008681787	-0.0001720442	0.01440905	-0.002518419
	0.01415354	-0.003571881	0.0008681787	-0.0001720442	0.01976358	-0.01767421	-3.850637e-05	-6.583636e-05
	-5.561183e-06	-1.162381e-05	0.01440905	-0.002518419	-3.850637e-05	-6.583636e-05	0.02003368	-0.01669985
4.3e+08	0.01717657	-0.01879994	-4.978365e-05	-5.583709e-05	0.01271009	-0.00466532	-6.936517e-06	-1.059653e-05
	-4.978365e-05	-5.583709e-05	0.01745192	-0.01776504	0.0008597925	-0.0002559677	0.01307859	-0.003651967
	0.01271009	-0.00466532	0.0008597925	-0.0002559677	0.0170542	-0.01880199	-4.709525e-05	-5.78187e-05
	-6.936517e-06	-1.059653e-05	0.01307859	-0.003651967	-4.709525e-05	-5.78187e-05	0.01743006	-0.01787278
4.4e+08	0.01428622	-0.01931444	-5.603721e-05	-4.625506e-05	0.01103719	-0.005381913	-8.129744e-06	-9.426753e-06
	-5.603721e-05	-4.625506e-05	0.01466371	-0.01833914	0.0008449143	-0.0003407723	0.01150517	-0.00443467
	0.01103719	-0.005381913	0.0008449143	-0.0003407723	0.01416536	-0.01929346	-5.37142e-05	-4.866724e-05
	-8.129744e-06	-9.426753e-06	0.01150517	-0.00443467	-5.37142e-05	-4.866724e-05	0.01463264	-0.01843409
4.5e+08	0.01136165	-0.01917233	-6.011762e-05	-3.620107e-05	0.009230975	-0.005677747	-9.131608e-06	-8.146009e-06
	-6.011762e-05	-3.620107e-05	0.01182283	-0.01828032	0.0008229977	-0.0004265973	0.009778796	-0.004819149
	0.009230975	-0.005677747	0.0008229977	-0.0004265973	0.01124766	-0.01912904	-5.823654e-05	-3.894264e-05
	-9.131608e-06	-8.146009e-06	0.009778796	-0.004819149	-5.823654e-05	-3.894264e-05	0.01178618	-0.01836057
4.6e+08	0.008553134	-0.01838743	-6.210746e-05	-2.624555e-05	0.007395326	-0.005533007	-9.938399e-06	-6.784536e-06
	-6.210746e-05	-2.624555e-05	0.009074	-0.01759775	0.0007932026	-0.0005133571	0.007998137	-0.00478068
	0.007395326	-0.005533007	0.0007932026	-0.0005133571	0.008451097	-0.01832382	-6.071071e-05	-2.920102e-05
	-9.938399e-06	-6.784536e-06	0.007998137	-0.00478068	-6.071071e-05	-2.920102e-05	0.009035776	-0.01766231
4.7e+08	0.006002872	-0.01700704	-6.225328e-05	-1.688517e-05	0.005635916	-0.004953162	-1.055092e-05	-5.369298e-06
	-6.225328e-05	-1.688517e-05	0.006555061	-0.0163328	0.0007544952	-0.0006006169	0.006264872	-0.00431861
	0.005635916	-0.004953162	0.0007544952	-0.0006006169	0.005917336	-0.0169263	-6.134653e-05	-1.993659e-05
	-1.055092e-05	-5.369298e-06	0.006264872	-0.00431861	-6.134653e-05	-1.993659e-05	0.006519449	-0.01638161
