!$
! Info: Touchstone file created by Circ.  Input file=Tx_14in_Rx_100ohms_TxVia_10mils_RxVia_20mils.circ
!$
# Hz S RI R 50
0	0.01446333	9.427058e-26	3.185517e-09	6.163667e-27	8.598167e-05	1.477097e-23	-3.486515e-09	4.603699e-25
	3.185509e-09	6.16379e-27	0.01446292	1.224269e-25	-3.249437e-09	4.458235e-25	8.544085e-05	2.05954e-23
	8.82546e-05	1.480492e-23	-3.247536e-09	4.455884e-25	0.01445544	8.237051e-26	1.260187e-08	2.365911e-29
	-3.483823e-09	4.600385e-25	8.689486e-05	2.11976e-23	1.260196e-08	2.350183e-29	0.01446844	1.167285e-25
1e+07	0.02156241	0.008095065	5.500584e-09	7.366053e-09	0.0009764493	0.002450354	1.64612e-08	5.370775e-08
	5.500584e-09	7.366053e-09	0.02155883	0.008092489	-2.535781e-10	5.719896e-08	0.0009725117	0.002451581
	0.0009764985	0.002450328	-2.535779e-10	5.719896e-08	0.02136768	0.008127943	-7.595183e-09	4.503966e-08
	1.64612e-08	5.370775e-08	0.0009725451	0.00245157	-7.595184e-09	4.503966e-08	0.02136417	0.008125242
2e+07	0.02832097	0.01032998	9.406394e-09	1.188164e-08	0.00183684	0.004941344	4.508109e-08	6.41086e-08
	9.406394e-09	1.188164e-08	0.02830658	0.01032687	4.177056e-09	7.828969e-08	0.001822288	0.004947445
	0.001836833	0.004941318	4.177057e-09	7.828969e-08	0.02819989	0.01045491	5.068838e-11	4.438315e-08
	4.508109e-08	6.41086e-08	0.001822286	0.004947423	5.068761e-11	4.438315e-08	0.02818622	0.01045199
3e+07	0.03398006	0.009553961	1.393409e-08	1.455786e-08	0.003301622	0.006846735	8.424541e-08	6.060672e-08
	1.393409e-08	1.455786e-08	0.03394822	0.009555709	1.239271e-08	1.023581e-07	0.003271677	0.006863694
	0.003301623	0.006846731	1.239271e-08	1.023581e-07	0.03392258	0.009706798	8.975982e-09	4.781803e-08
	8.424541e-08	6.060672e-08	0.003271672	0.006863692	8.975982e-09	4.781803e-08	0.03389365	0.009708062
4e+07	0.03867279	0.007029029	1.839432e-08	1.516218e-08	0.005245719	0.008176559	1.208688e-07	4.084377e-08
	1.839432e-08	1.516218e-08	0.03861947	0.007043581	1.876036e-08	1.247461e-07	0.005198217	0.008211984
	0.005245723	0.008176555	1.876036e-08	1.247461e-07	0.03867182	0.007184538	1.875311e-08	4.732142e-08
	1.208688e-07	4.084377e-08	0.005198216	0.008211986	1.875311e-08	4.732142e-08	0.03862288	0.007196763
5e+07	0.0422767	0.003230223	2.199855e-08	1.379797e-08	0.007624563	0.00873	1.505495e-07	6.566957e-09
	2.199855e-08	1.379797e-08	0.04220118	0.003266837	2.315831e-08	1.465934e-07	0.007560304	0.008791917
	0.007624565	0.008729997	2.315831e-08	1.465934e-07	0.04232214	0.003372184	2.73607e-08	4.207017e-08
	1.505495e-07	6.566957e-09	0.007560304	0.008791918	2.73607e-08	4.207017e-08	0.0422523	0.003404733
6e+07	0.04465649	-0.001461837	2.41248e-08	1.083353e-08	0.0100132	0.008612482	1.686739e-07	-4.017347e-08
	2.41248e-08	1.083353e-08	0.04456164	-0.001393877	2.60241e-08	1.684031e-07	0.00993627	0.008708621
	0.0100132	0.008612484	2.60241e-08	1.684031e-07	0.04473719	-0.001343777	3.299305e-08	3.307837e-08
	1.686739e-07	-4.017347e-08	0.009936266	0.008708621	3.299305e-08	3.307837e-08	0.04464965	-0.001282268
7e+07	0.04571486	-0.00668699	2.421424e-08	6.805834e-09	0.01223556	0.007853979	1.707807e-07	-9.564505e-08
	2.421425e-08	6.805833e-09	0.045607	-0.006579711	2.766646e-08	1.904422e-07	0.0121529	0.007990469
	0.01223556	0.007853983	2.766646e-08	1.904422e-07	0.04581933	-0.006599121	3.441919e-08	2.209034e-08
	1.707807e-07	-9.564505e-08	0.0121529	0.007990471	3.441919e-08	2.209034e-08	0.04571981	-0.00650178
8e+07	0.04541673	-0.01209037	2.188457e-08	2.431349e-09	0.0141284	0.006528738	1.535815e-07	-1.543922e-07
	2.188457e-08	2.431348e-09	0.04530496	-0.01193827	2.836856e-08	2.12925e-07	0.0140492	0.006709187
	0.0141284	0.006528743	2.836856e-08	2.12925e-07	0.04553336	-0.01203559	3.123488e-08	1.109725e-08
	1.535815e-07	-1.543922e-07	0.01404919	0.006709191	3.123488e-08	1.109725e-08	0.04542947	-0.01189727
9e+07	0.04380002	-0.01732849	1.699378e-08	-1.449959e-09	0.01555304	0.004751024	1.15692e-07	-2.097453e-07
	1.699378e-08	-1.44996e-09	0.04369524	-0.01712936	2.837535e-08	2.361193e-07	0.01548778	0.00497583
	0.01555304	0.004751027	2.837536e-08	2.361193e-07	0.04391733	-0.01730653	2.384975e-08	1.978289e-09
	1.15692e-07	-2.097453e-07	0.01548778	0.004975834	2.384975e-08	1.978288e-09	0.04381858	-0.01712424
1e+08	0.04099356	-0.0220811	9.682321e-09	-3.950823e-09	0.0163984	0.002666365	5.805083e-08	-2.54573e-07
	9.682321e-09	-3.950823e-09	0.04090737	-0.02183659	2.798808e-08	2.601351e-07	0.0163578	0.00293235
	0.01639841	0.002666365	2.798808e-08	2.601351e-07	0.041099	-0.02208899	1.335091e-08	-3.812914e-09
	5.805083e-08	-2.54573e-07	0.0163578	0.00293235	1.335091e-08	-3.812914e-09	0.04101642	-0.02186283
1.1e+08	0.03712505	-0.02617952	4.012124e-10	-4.273775e-09	0.01662495	0.0004866818	-1.412168e-08	-2.832592e-07
	4.012125e-10	-4.273775e-09	0.03706807	-0.0258936	2.527325e-08	2.868744e-07	0.01661844	0.0007866693
	0.01662495	0.0004866817	2.527325e-08	2.868744e-07	0.03721257	-0.02620157	8.793849e-10	-4.041589e-09
	-1.412168e-08	-2.832592e-07	0.01661844	0.0007866692	8.79385e-10	-4.041589e-09	0.03715689	-0.02593606
1.2e+08	0.03236437	-0.02926314	-1.017539e-08	-1.750727e-09	0.01625065	-0.001660585	-9.759803e-08	-2.902951e-07
	-1.017539e-08	-1.750727e-09	0.03234655	-0.02894545	2.25848e-08	3.149507e-07	0.01628595	-0.001336612
	0.01625065	-0.001660585	2.25848e-08	3.149507e-07	0.03243608	-0.02929333	-1.33004e-08	-4.398381e-10
	-9.759803e-08	-2.902951e-07	0.01628595	-0.001336612	-1.33004e-08	-4.398381e-10	0.03241702	-0.02899773
1.3e+08	0.02703236	-0.03115539	-2.115099e-08	4.070928e-09	0.01529665	-0.003611806	-1.855889e-07	-2.718758e-07
	-2.115099e-08	4.070928e-09	0.0270602	-0.03081868	2.036098e-08	3.443609e-07	0.01537812	-0.003276469
	0.01529665	-0.003611806	2.036098e-08	3.443609e-07	0.02708924	-0.03118871	-2.79836e-08	7.584374e-09
	-1.855889e-07	-2.718758e-07	0.01537812	-0.003276469	-2.79836e-08	7.584374e-09	0.027113	-0.03087521
1.4e+08	0.02145446	-0.03176622	-3.148669e-08	1.335835e-08	0.0138382	-0.005215569	-2.701266e-07	-2.263658e-07
	-3.148669e-08	1.335835e-08	0.02153024	-0.03142514	1.903565e-08	3.749799e-07	0.01396614	-0.004882967
	0.0138382	-0.005215569	1.903565e-08	3.749799e-07	0.02149825	-0.03179842	-4.178045e-08	2.024066e-08
	-2.701266e-07	-2.263658e-07	0.01396614	-0.004882967	-4.178045e-08	2.024066e-08	0.02156689	-0.03148094
1.5e+08	0.01595959	-0.0310891	-4.009005e-08	2.594977e-08	0.01199078	-0.006347392	-3.427702e-07	-1.546395e-07
	-4.009005e-08	2.594977e-08	0.01608093	-0.0307589	1.900228e-08	4.06552e-07	0.01216101	-0.006031778
	0.01199078	-0.006347393	1.900228e-08	4.06552e-07	0.01599279	-0.03111685	-5.323608e-08	3.730031e-08
	-3.427702e-07	-1.546395e-07	0.01216101	-0.006031778	-5.323608e-08	3.730031e-08	0.01610391	-0.0308097
1.6e+08	0.01086233	-0.0291986	-4.591974e-08	4.133845e-08	0.009900028	-0.006919809	-3.953949e-07	-6.019605e-08
	-4.591974e-08	4.133845e-08	0.01102205	-0.02889371	2.05744e-08	4.387021e-07	0.01010392	-0.006634184
	0.009900028	-0.006919809	2.05744e-08	4.387021e-07	0.01088792	-0.02921959	-6.096913e-08	5.807784e-08
	-3.953949e-07	-6.019605e-08	0.01010392	-0.006634184	-6.096913e-08	5.807784e-08	0.01103471	-0.02893619
1.7e+08	0.006444494	-0.02624382	-4.809539e-08	5.869079e-08	0.007729971	-0.006889221	-4.210021e-07	5.097477e-08
	-4.809539e-08	5.869079e-08	0.006630969	-0.02597639	2.394855e-08	4.709597e-07	0.007954838	-0.006643965
	0.007729971	-0.006889221	2.394855e-08	4.709597e-07	0.006465701	-0.02625674	-6.381588e-08	8.145739e-08
	-4.210021e-07	5.097477e-08	0.007954838	-0.006643965	-6.381588e-08	8.145739e-08	0.006637226	-0.02600831
1.8e+08	0.00293839	-0.0224374	-4.600066e-08	7.690039e-08	0.005649933	-0.006259165	-4.144727e-07	1.707746e-07
	-4.600065e-08	7.690039e-08	0.003136283	-0.02221599	2.917494e-08	5.027963e-07	0.005879919	-0.006060814
	0.005649933	-0.006259166	2.917494e-08	5.027963e-07	0.00295845	-0.02244193	-6.096439e-08	1.059656e-07
	-4.144727e-07	1.707746e-07	0.005879919	-0.006060814	-6.096439e-08	1.059656e-07	0.003140406	-0.02223635
1.9e+08	0.0005131718	-0.0180408	-3.936712e-08	9.467542e-08	0.003821196	-0.005079796	-3.731867e-07	2.89604e-07
	-3.936712e-08	9.467542e-08	0.0007045611	-0.01786926	3.614051e-08	5.336717e-07	0.004038451	-0.0049301
	0.003821196	-0.005079796	3.614051e-08	5.336717e-07	0.0005350893	-0.01803749	-5.206305e-08	1.298867e-07
	-3.731867e-07	2.89604e-07	0.004038451	-0.0049301	-5.206305e-08	1.298867e-07	0.0007108171	-0.01787827
2e+08	-0.0007347888	-0.01334647	-2.832784e-08	1.106516e-07	0.002384393	-0.003443651	-2.974429e-07	3.971464e-07
	-2.832784e-08	1.106516e-07	-0.0005689613	-0.01322324	4.456797e-08	5.630862e-07	0.002570545	-0.003339008
	0.002384393	-0.003443651	4.456797e-08	5.630862e-07	-0.0007084213	-0.0133367	-3.728974e-08	1.514111e-07
	-2.974429e-07	3.971464e-07	0.002570545	-0.003339008	-3.728974e-08	1.514111e-07	-0.0005566081	-0.01322232
2.1e+08	-0.0007866789	-0.008658398	-1.343277e-08	1.235201e-07	0.001448655	-0.001478095	-1.906301e-07	4.832642e-07
	-1.343277e-08	1.235201e-07	-0.000664954	-0.008576193	5.403203e-08	5.906313e-07	0.001586428	-0.001409444
	0.001448655	-0.001478095	5.403203e-08	5.906313e-07	-0.0007538558	-0.008644128	-1.737179e-08	1.688013e-07
	-1.906301e-07	4.832642e-07	0.001586428	-0.001409444	-1.737179e-08	1.688013e-07	-0.0006431557	-0.008567795
2.2e+08	0.0002990898	-0.004271971	4.377575e-09	1.321559e-07	0.001083368	0.0006649029	-5.912329e-08	5.389242e-07
	4.377575e-09	1.321559e-07	0.0003604047	-0.004217992	6.399178e-08	6.160332e-07	0.001158203	0.0007117094
	0.001083368	0.0006649028	6.399178e-08	6.160332e-07	0.0003396653	-0.004255625	6.44757e-09	1.805605e-07
	-5.912329e-08	5.389242e-07	0.001158203	0.0007117094	6.44757e-09	1.805605e-07	0.0003941214	-0.004205444
2.3e+08	0.002392323	-0.0004548241	2.383837e-08	1.357338e-07	0.001313133	0.002820816	8.809755e-08	5.570717e-07
	2.383837e-08	1.357338e-07	0.002380778	-0.0004114956	7.383586e-08	6.391841e-07	0.001314674	0.002864153
	0.001313133	0.002820816	7.383586e-08	6.391841e-07	0.002441157	-0.0004390565	3.249439e-08	1.855845e-07
	8.809755e-08	5.570717e-07	0.001314674	0.002864153	3.249439e-08	1.855845e-07	0.002427811	-0.0003986944
2.4e+08	0.005301156	0.002570189	4.34603e-08	1.338191e-07	0.002116296	0.004825423	2.400786e-07	5.333678e-07
	4.34603e-08	1.338191e-07	0.00520954	0.002624022	8.293527e-08	6.601578e-07	0.002039593	0.004886607
	0.002116296	0.004825423	8.293527e-08	6.601578e-07	0.005357942	0.002582722	5.879302e-08	1.832821e-07
	2.400786e-07	5.333678e-07	0.002039593	0.004886607	5.879302e-08	1.832821e-07	0.005270092	0.002632927
2.5e+08	0.008786112	0.004638721	6.165278e-08	1.264231e-07	0.003427073	0.006527481	3.847275e-07	4.66723e-07
	6.165278e-08	1.264231e-07	0.008613451	0.004726197	9.06978e-08	6.792076e-07	0.003273386	0.006629149
	0.003427073	0.006527481	9.06978e-08	6.792076e-07	0.00884976	0.004645587	8.322666e-08	1.736515e-07
	3.847275e-07	4.66723e-07	0.003273386	0.006629149	8.322666e-08	1.736515e-07	0.008686501	0.004727153
2.6e+08	0.01257705	0.005654473	7.685836e-08	1.140199e-07	0.005141034	0.007800221	5.097836e-07	3.59572e-07
	7.685836e-08	1.140199e-07	0.01232911	0.005798857	9.661854e-08	6.967481e-07	0.004918149	0.007964505
	0.005141034	0.007800221	9.661854e-08	6.967481e-07	0.01264579	0.005653675	1.037141e-07	1.573061e-07
	5.097836e-07	3.59572e-07	0.00491815	0.007964505	1.037141e-07	1.573061e-07	0.01241249	0.005788246
2.7e+08	0.01639182	0.005593999	8.768577e-08	9.752312e-08	0.007123473	0.008550826	6.038457e-07	2.178588e-07
	8.768577e-08	9.752312e-08	0.01608108	0.005816699	1.003218e-07	7.133242e-07	0.006845471	0.008797465
	0.007123473	0.008550826	1.003218e-07	7.133242e-07	0.01646335	0.005584152	1.183869e-07	1.354474e-07
	6.038457e-07	2.178588e-07	0.006845471	0.008797465	1.183869e-07	1.354474e-07	0.01617162	0.005791652
2.8e+08	0.01995532	0.004506537	9.30304e-08	7.822594e-08	0.009219945	0.008727218	6.573704e-07	5.07259e-08
	9.30304e-08	7.822594e-08	0.01960032	0.004825178	1.015914e-07	7.295694e-07	0.008906434	0.009071765
	0.009219945	0.008727218	1.015914e-07	7.295694e-07	0.02002703	0.004487007	1.25752e-07	1.097898e-07
	6.573704e-07	5.07259e-08	0.008906434	0.009071765	1.25752e-07	1.097898e-07	0.01969414	0.00478384
2.9e+08	0.0230177	0.002509005	9.217297e-08	5.771003e-08	0.01126819	0.008321693	6.635581e-07	-1.300761e-07
	9.217297e-08	5.771003e-08	0.02264186	0.002935715	1.003886e-07	7.461603e-07	0.01094303	0.008773981
	0.01126819	0.008321693	1.003886e-07	7.461603e-07	0.02308686	0.002479958	1.248266e-07	8.244129e-08
	6.635581e-07	-1.300761e-07	0.01094303	0.008773981	1.248266e-07	8.244129e-08	0.02273463	0.002877408
3e+08	0.02537043	-0.0002234194	8.485008e-08	3.773183e-08	0.01311049	0.007371196	6.190512e-07	-3.11019e-07
	8.485008e-08	3.773183e-08	0.02500041	0.0003166571	9.685679e-08	7.637683e-07	0.01280009	0.007934199
	0.01311049	0.007371196	9.685679e-08	7.637683e-07	0.02543448	-0.0002610054	1.152371e-07	5.575242e-08
	6.190512e-07	-3.11019e-07	0.01280009	0.007934199	1.152371e-07	5.575242e-08	0.02508775	0.0002419694
3.1e+08	0.02685938	-0.00347038	7.129233e-08	2.009362e-08	0.01460564	0.005954263	5.243819e-07	-4.778084e-07
	7.129233e-08	2.009362e-08	0.02652305	-0.002819307	9.131488e-08	7.830132e-07	0.01433698	0.006623457
	0.01460564	0.005954263	9.131488e-08	7.830132e-07	0.0269161	-0.003514794	9.727396e-08	3.214282e-08
	5.243819e-07	-4.778084e-07	0.01433698	0.006623457	9.727396e-08	3.214282e-08	0.02660085	-0.002908541
3.2e+08	0.02739389	-0.006982191	5.222809e-08	6.50794e-09	0.01563954	0.004184876	3.841249e-07	-6.165007e-07
	5.222809e-08	6.50794e-09	0.02711812	-0.006230401	8.424042e-08	8.044193e-07	0.01543802	0.004948182
	0.01563954	0.004184876	8.424042e-08	8.044193e-07	0.02744168	-0.007031124	7.189878e-08	1.391689e-08
	3.841249e-07	-6.165007e-07	0.01543802	0.004948182	7.189878e-08	1.391689e-08	0.02718294	-0.006331222
3.3e+08	0.02695159	-0.01049732	2.88519e-08	-1.536803e-09	0.01613381	0.002203687	2.067313e-07	-7.146437e-07
	2.88519e-08	-1.536803e-09	0.02676001	-0.009662598	7.624312e-08	8.283777e-07	0.01602111	0.00304203
	0.01613381	0.002203687	7.624312e-08	8.283777e-07	0.02698957	-0.01054807	4.070328e-08	3.080681e-09
	2.067313e-07	-7.146437e-07	0.01602111	0.00304203	4.070328e-08	3.080681e-09	0.02680932	-0.009771145
3.4e+08	0.02557844	-0.01376038	2.758269e-09	-2.901299e-09	0.01605161	0.0001672782	4.044845e-09	-7.623497e-07
	2.758269e-09	-2.901299e-09	0.02548932	-0.01286696	6.802977e-08	8.551126e-07	0.0160438	0.001055733
	0.01605161	0.0001672782	6.802977e-08	8.551126e-07	0.02560655	-0.01381005	5.819251e-09	1.171765e-09
	4.044845e-09	-7.623497e-07	0.0160438	0.001055733	5.819251e-09	1.171765e-09	0.02552178	-0.01297876
3.5e+08	0.02338426	-0.01653936	-2.415755e-08	3.097442e-09	0.01540045	-0.001763786	-2.094782e-07	-7.532139e-07
	-2.415755e-08	3.097442e-09	0.02340877	-0.01561635	6.036107e-08	8.846574e-07	0.0155064	-0.0008543152
	0.01540045	-0.001763786	6.036107e-08	8.846574e-07	0.0234033	-0.01658515	-3.021663e-08	9.114319e-09
	-2.094782e-07	-7.532139e-07	0.0155064	-0.0008543152	-3.021663e-08	9.114319e-09	0.02342433	-0.01572666
3.6e+08	0.02053401	-0.01864111	-4.982805e-08	1.66053e-08	0.01423159	-0.003437224	-4.177947e-07	-6.849973e-07
	-4.982805e-08	1.66053e-08	0.02067493	-0.01772033	5.400137e-08	9.16839e-07	0.01445187	-0.00253791
	0.01423159	-0.003437224	5.400137e-08	9.16839e-07	0.02054559	-0.01868054	-6.463728e-08	2.711136e-08
	-4.177947e-07	-6.849973e-07	0.01445187	-0.00253791	-6.463728e-08	2.711136e-08	0.02067489	-0.01782454
3.7e+08	0.01723544	-0.01992391	-7.216515e-08	3.718539e-08	0.01263609	-0.004720709	-6.044785e-07	-5.600089e-07
	-7.216515e-08	3.718539e-08	0.01748655	-0.01903751	4.966283e-08	9.512767e-07	0.01296257	-0.003862437
	0.01263609	-0.004720709	4.966283e-08	9.512767e-07	0.01724182	-0.01995504	-9.464994e-08	5.458572e-08
	-6.044785e-07	-5.600089e-07	0.01296257	-0.003862437	-9.464994e-08	5.458572e-08	0.01747349	-0.01913151
3.8e+08	0.013724	-0.02030638	-8.922579e-08	6.381527e-08	0.01073789	-0.005512054	-7.540131e-07	-3.851393e-07
	-8.922579e-08	6.381527e-08	0.01407009	-0.01948428	4.794751e-08	9.873948e-07	0.01115393	-0.004722965
	0.01073789	-0.005512054	4.794751e-08	9.873948e-07	0.01372797	-0.02032802	-1.176576e-07	9.017896e-08
	-7.540131e-07	-3.851393e-07	0.01115393	-0.004722965	-1.176576e-07	9.017896e-08	0.01404768	-0.01956478
3.9e+08	0.010246	-0.01977219	-9.937911e-08	9.493223e-08	0.008684257	-0.005747113	-8.530723e-07	-1.715261e-07
	-9.937911e-08	9.493223e-08	0.0106637	-0.01903954	4.929168e-08	1.024454e-06	0.009165598	-0.00505026
	0.008684257	-0.005747113	4.929168e-08	1.024454e-06	0.01025059	-0.01978397	-1.314807e-07	1.318145e-07
	-8.530723e-07	-1.715261e-07	0.009165598	-0.00505026	-1.314807e-07	1.318145e-07	0.01063642	-0.01910438
4e+08	0.007041238	-0.01837011	-1.014604e-07	1.285282e-07	0.006634407	-0.005404776	-8.916841e-07	6.614032e-08
	-1.014604e-07	1.285282e-07	0.007500475	-0.01774509	5.391826e-08	1.061597e-06	0.007150766	-0.004816074
	0.006634407	-0.005404776	5.391826e-08	1.061597e-06	0.007049488	-0.01837259	-1.345594e-07	1.768255e-07
	-8.916841e-07	6.614032e-08	0.007150766	-0.004816074	-1.345594e-07	1.768255e-07	0.007473307	-0.01779346
4.1e+08	0.004326221	-0.01620964	-9.489615e-08	1.62291e-07	0.004747188	-0.004508621	-8.641749e-07	3.106313e-07
	-9.489615e-08	1.62291e-07	0.004792322	-0.01570168	6.180362e-08	1.097915e-06	0.005264344	-0.004035273
	0.004747188	-0.004508621	6.180362e-08	1.097915e-06	0.004340921	-0.01620423	-1.261168e-07	2.22142e-07
	-8.641749e-07	3.106313e-07	0.005264344	-0.004035273	-1.261168e-07	2.22142e-07	0.004770334	-0.01573416
4.2e+08	0.002279281	-0.01345231	-7.978445e-08	1.937816e-07	0.003168739	-0.003125078	-7.698051e-07	5.434438e-07
	-7.978445e-08	1.937816e-07	0.002715529	-0.01306096	7.266406e-08	1.132519e-06	0.003651056	-0.002764638
	0.003168739	-0.003125078	7.266406e-08	1.132519e-06	0.00230272	-0.01344118	-1.062636e-07	2.645246e-07
	-7.698051e-07	5.434438e-07	0.003651056	-0.002764638	-1.062636e-07	2.645246e-07	0.002703478	-0.01307956
4.3e+08	0.001028523	-0.01029946	-5.692067e-08	2.206341e-07	0.002021147	-0.001358246	-6.1303e-07	7.462214e-07
	-5.692067e-08	2.206341e-07	0.001398977	-0.01001399	8.59658e-08	1.164618e-06	0.002434297	-0.001098394
	0.002021147	-0.001358246	8.59658e-08	1.164618e-06	0.001062286	-0.0102854	-7.603109e-08	3.00826e-07
	-6.1303e-07	7.462214e-07	0.002434297	-0.001098394	-7.603109e-08	3.00826e-07	0.001400928	-0.01002201
4.4e+08	0.0006435094	-0.006977359	-2.776099e-08	2.40759e-07	0.001392996	0.0006582542	-4.033492e-07	9.022161e-07
	-2.776099e-08	2.40759e-07	0.0009158827	-0.006777188	1.009593e-07	1.19359e-06	0.001706692	0.0008391493
	0.001392996	0.0006582542	1.009593e-07	1.19359e-06	0.0006883251	-0.00696352	-3.73249e-08	3.282567e-07
	-4.033492e-07	9.022161e-07	0.001706692	0.0008391493	-3.73249e-08	3.282567e-07	0.0009348605	-0.00677895
4.5e+08	0.001131224	-0.003720686	5.674969e-09	2.525295e-07	0.001332553	0.002771714	-1.547426e-07	9.976747e-07
	5.674969e-09	2.525295e-07	0.001279572	-0.003576616	1.167356e-07	1.219045e-06	0.001523073	0.002903284
	0.001332553	0.002771714	1.167356e-07	1.219045e-06	0.001186885	-0.003710338	7.200116e-09	3.446297e-07
	-1.547426e-07	9.976747e-07	0.001523073	0.002903284	7.200116e-09	3.446297e-07	0.001317305	-0.003577185
4.6e+08	0.002436566	-0.0007557258	4.095453e-08	2.549327e-07	0.001844149	0.00482223	1.152729e-07	1.023028e-06
	4.095453e-08	2.549327e-07	0.002443574	-0.0006318841	1.322994e-07	1.240861e-06	0.001896423	0.004940115
	0.001844149	0.00482223	1.322994e-07	1.240861e-06	0.002501928	-0.0007519775	5.433376e-08	3.485604e-07
	1.152729e-07	1.023028e-06	0.001896423	0.004940115	5.433376e-08	3.485604e-07	0.002500327	-0.0006366607
4.7e+08	0.004447279	0.001715634	7.542196e-08	2.476698e-07	0.002887982	0.006655095	3.868986e-07	9.737841e-07
	7.542196e-08	2.476698e-07	0.004305944	0.001859237	1.46651e-07	1.259202e-06	0.002797087	0.006798411
	0.002887982	0.006655095	1.46651e-07	1.259202e-06	0.004520397	0.001710087	1.005561e-07	3.396018e-07
	3.868986e-07	9.737841e-07	0.002797087	0.006798411	1.005561e-07	3.396018e-07	0.00438053	0.001844918
4.8e+08	0.007002879	0.003529873	1.064098e-07	2.311961e-07	0.004383367	0.008132713	6.395266e-07	8.510418e-07
