!$
! Info: Touchstone file created by Circ.  Input file=Tx_14in_Rx_100ohms_TxVia_10mils_RxVia_20mils.circ
!$
# Hz S RI R 50
0	0.0144601	1.055619e-25	-7.476441e-05	-1.030579e-25	8.800767e-05	1.817113e-23	-7.477743e-05	1.516783e-24
	-7.476442e-05	-1.016615e-25	0.01446292	1.224269e-25	-7.476347e-05	-9.20978e-26	8.544085e-05	2.05954e-23
	8.805483e-05	1.818175e-23	-7.476345e-05	-9.354911e-26	0.01447475	1.058366e-25	-7.476485e-05	1.175222e-25
	-7.477741e-05	1.51515e-24	8.689486e-05	2.11976e-23	-7.476484e-05	1.15817e-25	0.01446844	1.167285e-25
1e+07	0.02092356	0.008074841	-4.469699e-06	-1.424412e-05	0.0004860109	0.002418481	-4.097408e-06	-1.982527e-05
	-4.469699e-06	-1.424412e-05	0.02155883	0.008092489	-2.241358e-06	-4.08591e-06	0.0009725117	0.002451581
	0.000486015	0.002418478	-2.241358e-06	-4.08591e-06	0.02019591	0.008519546	-5.055828e-06	-5.314864e-06
	-4.097408e-06	-1.982527e-05	0.0009725451	0.00245157	-5.055828e-06	-5.314864e-06	0.02136417	0.008125242
2e+07	0.02779186	0.01052005	-6.772969e-06	1.029899e-06	0.001492921	0.004680754	-3.257716e-06	-6.857526e-06
	-6.772969e-06	1.029899e-06	0.02830658	0.01032687	-2.96381e-05	-2.719382e-05	0.001822288	0.004947445
	0.00149292	0.004680751	-2.96381e-05	-2.719382e-05	0.02772997	0.01142355	-3.560134e-05	-2.609202e-05
	-3.257716e-06	-6.857526e-06	0.001822286	0.004947423	-3.560134e-05	-2.609202e-05	0.02818622	0.01045199
3e+07	0.03354342	0.009818343	-1.128382e-05	3.373463e-08	0.003054909	0.006514838	-2.948378e-06	-3.49106e-06
	-1.128382e-05	3.373462e-08	0.03394822	0.009555709	-5.162396e-05	-2.299857e-05	0.003271677	0.006863694
	0.003054909	0.006514837	-5.162396e-05	-2.299857e-05	0.03398325	0.01071086	-5.727875e-05	-2.081204e-05
	-2.948378e-06	-3.49106e-06	0.003271672	0.006863692	-5.727875e-05	-2.081204e-05	0.03389365	0.009708062
4e+07	0.03831958	0.007329059	-1.434638e-05	1.898214e-06	0.005036596	0.007823026	-2.535808e-06	-1.66528e-06
	-1.434638e-05	1.898214e-06	0.03861947	0.007043581	-6.721591e-05	-1.0383e-05	0.005198217	0.008211984
	0.005036596	0.007823025	-6.721591e-05	-1.0383e-05	0.03913337	0.008039949	-7.243575e-05	-7.265479e-06
	-2.535808e-06	-1.66528e-06	0.005198216	0.008211986	-7.243575e-05	-7.265479e-06	0.03862288	0.007196763
5e+07	0.04200004	0.003544325	-1.606668e-05	5.081039e-06	0.00727429	0.008521425	-2.006455e-06	-5.103851e-07
	-1.606668e-05	5.081039e-06	0.04220118	0.003266837	-7.676122e-05	6.788924e-06	0.007560304	0.008791917
	0.007274291	0.008521424	-7.676122e-05	6.788924e-06	0.04306286	0.003979214	-8.143161e-05	1.074406e-05
	-2.006455e-06	-5.103851e-07	0.007560304	0.008791918	-8.143161e-05	1.074406e-05	0.0422523	0.003404733
6e+07	0.04444692	-0.001150474	-1.649799e-05	8.896285e-06	0.009589217	0.008570931	-1.399734e-06	2.178494e-07
	-1.649799e-05	8.896285e-06	0.04456164	-0.001393877	-8.040241e-05	2.638702e-05	0.00993627	0.008708621
	0.009589218	0.008570931	-8.040241e-05	2.638702e-05	0.04563622	-0.001037308	-8.440938e-05	3.110005e-05
	-1.399734e-06	2.178495e-07	0.009936266	0.008708621	-8.440938e-05	3.110005e-05	0.04464965	-0.001282268
7e+07	0.04556148	-0.006390635	-1.568542e-05	1.291349e-05	0.0118126	0.007962404	-7.67323e-07	6.142488e-07
	-1.568542e-05	1.291349e-05	0.045607	-0.006579711	-7.818543e-05	4.68483e-05	0.0121529	0.007990469
	0.01181261	0.007962404	-7.818543e-05	4.68483e-05	0.04676114	-0.006606765	-8.145956e-05	5.225515e-05
	-7.67323e-07	6.142489e-07	0.0121529	0.007990471	-8.145956e-05	5.225515e-05	0.04571981	-0.00650178
8e+07	0.04530827	-0.01181732	-1.367275e-05	1.681644e-05	0.01375557	0.006772208	-1.725913e-07	7.347771e-07
	-1.367275e-05	1.681644e-05	0.04530496	-0.01193827	-7.018976e-05	6.688801e-05	0.0140492	0.006709187
	0.01375558	0.006772207	-7.018976e-05	6.688801e-05	0.04641286	-0.01233912	-7.261674e-05	7.290592e-05
	-1.725912e-07	7.347771e-07	0.01404919	0.006709191	-7.261674e-05	7.290592e-05	0.04542947	-0.01189727
9e+07	0.04372486	-0.01708378	-1.047227e-05	2.036065e-05	0.01527175	0.00510522	3.292936e-07	6.282078e-07
	-1.047227e-05	2.036065e-05	0.04369524	-0.01712936	-5.631982e-05	8.540531e-05	0.01548778	0.00497583
	0.01527175	0.005105219	-5.631982e-05	8.540531e-05	0.04464126	-0.01786284	-5.772842e-05	9.194711e-05
	3.292937e-07	6.282078e-07	0.01548778	0.004975834	-5.772842e-05	9.194711e-05	0.04381858	-0.01712424
1e+08	0.04093812	-0.02186744	-5.652171e-06	2.334325e-05	0.01625547	0.003100381	6.798498e-07	3.439152e-07
	-5.652171e-06	2.334325e-05	0.04090737	-0.02183659	-3.43715e-05	0.0001014557	0.0163578	0.00293235
	0.01625547	0.00310038	-3.43715e-05	0.0001014557	0.04156232	-0.0228384	-3.452944e-05	0.0001084202
	6.798498e-07	3.439152e-07	0.0163578	0.00293235	-3.452944e-05	0.0001084202	0.04101642	-0.02186283
1.1e+08	0.03707974	-0.02598502	-3.13934e-07	2.328396e-05	0.01662503	0.00089519	7.816357e-07	1.428219e-07
	-3.13934e-07	2.328396e-05	0.03706807	-0.0258936	-9.365822e-06	0.0001028916	0.01661844	0.0007866693
	0.01662503	0.0008951899	-9.365822e-06	0.0001028916	0.03739889	-0.02693135	-8.138985e-06	0.0001097283
	7.816357e-07	1.428219e-07	0.01661844	0.0007866692	-8.138985e-06	0.0001097283	0.03715689	-0.02593606
1.2e+08	0.03232993	-0.02908583	1.382337e-06	2.26455e-05	0.01634426	-0.00130359	6.08997e-07	5.297729e-08
	1.382337e-06	2.26455e-05	0.03234655	-0.02894545	1.020177e-05	0.0001002783	0.01628595	-0.001336612
	0.01634426	-0.00130359	1.020177e-05	0.0001002783	0.03243756	-0.02995205	8.123054e-06	0.0001070979
	6.08997e-07	5.297729e-08	0.01628595	-0.001336612	8.123054e-06	0.0001070979	0.03241702	-0.02899773
1.3e+08	0.02700712	-0.03099441	3.264536e-06	2.202435e-05	0.01545254	-0.003318121	4.215671e-07	7.1264e-08
	3.264536e-06	2.202435e-05	0.0270602	-0.03081868	1.795632e-05	9.707026e-05	0.01537812	-0.003276469
	0.01545254	-0.003318121	1.795632e-05	9.707026e-05	0.02696048	-0.03175115	1.657067e-05	0.0001040141
	4.215671e-07	7.1264e-08	0.01537812	-0.003276469	1.657067e-05	0.0001040141	0.027113	-0.03087521
1.4e+08	0.02143657	-0.03162084	5.219957e-06	2.128164e-05	0.01402998	-0.004988893	2.67442e-07	1.432447e-07
	5.219957e-06	2.128164e-05	0.02153024	-0.03142514	2.610859e-05	9.340626e-05	0.01396614	-0.004882967
	0.01402998	-0.004988893	2.610859e-05	9.340626e-05	0.0212847	-0.03225346	2.544255e-05	0.0001004081
	2.67442e-07	1.432447e-07	0.01396614	-0.004882967	2.544255e-05	0.0001004081	0.02156689	-0.03148094
1.5e+08	0.01594733	-0.03095861	7.190411e-06	2.038209e-05	0.01219598	-0.006185251	1.593293e-07	2.589887e-07
	7.190411e-06	2.038209e-05	0.01608093	-0.0307589	3.435286e-05	8.911002e-05	0.01216101	-0.006031778
	0.01219598	-0.006185251	3.435286e-05	8.911002e-05	0.01573337	-0.03146392	3.442544e-05	9.609417e-05
	1.593293e-07	2.589887e-07	0.01216101	-0.006031778	3.442544e-05	9.609417e-05	0.01610391	-0.0308097
1.6e+08	0.01085411	-0.02908235	9.133856e-06	1.930288e-05	0.01010025	-0.006815007	1.06952e-07	4.041741e-07
	9.133856e-06	1.930288e-05	0.01102205	-0.02889371	4.247826e-05	8.407819e-05	0.01010392	-0.006634184
	0.01010025	-0.006815008	4.247826e-05	8.407819e-05	0.01061517	-0.02946624	4.329394e-05	9.096393e-05
	1.06952e-07	4.041741e-07	0.01010392	-0.006634184	4.329394e-05	9.096393e-05	0.01103471	-0.02893619
1.7e+08	0.006438866	-0.0261412	1.101279e-05	1.802956e-05	0.007911163	-0.006831191	1.156745e-07	5.616864e-07
	1.101279e-05	1.802956e-05	0.006630969	-0.02597639	5.030645e-05	7.825561e-05	0.007954838	-0.006643965
	0.007911163	-0.006831191	5.030645e-05	7.825561e-05	0.006205502	-0.0264165	5.185598e-05	8.49604e-05
	1.156745e-07	5.616863e-07	0.007954838	-0.006643965	5.185598e-05	8.49604e-05	0.006637226	-0.02600831
1.8e+08	0.002933996	-0.02234786	1.279027e-05	1.655526e-05	0.005802553	-0.006235271	1.857272e-07	7.133515e-07
	1.279027e-05	1.655526e-05	0.003136283	-0.02221599	5.767379e-05	7.162523e-05	0.005879919	-0.006060814
	0.005802553	-0.006235271	5.767379e-05	7.162523e-05	0.00272984	-0.0225323	5.993497e-05	7.806746e-05
	1.857272e-07	7.133515e-07	0.005879919	-0.006060814	5.993497e-05	7.806746e-05	0.003140406	-0.02223635
1.9e+08	0.0005086627	-0.01796381	1.443008e-05	1.487969e-05	0.003940154	-0.005076567	3.121069e-07	8.417025e-07
	1.443008e-05	1.487969e-05	0.0007045611	-0.01786926	6.442556e-05	6.420443e-05	0.004038451	-0.0049301
	0.003940154	-0.005076567	6.442556e-05	6.420443e-05	0.0003503096	-0.01807808	6.736422e-05	7.030595e-05
	3.121069e-07	8.417025e-07	0.004038451	-0.0049301	6.736422e-05	7.030595e-05	0.0007108171	-0.01787827
2e+08	-0.0007407877	-0.01328151	1.589406e-05	1.301248e-05	0.002468757	-0.003447922	4.850766e-07	9.31806e-07
	1.589406e-05	1.301248e-05	-0.0005689613	-0.01322324	7.041634e-05	5.604287e-05	0.002570545	-0.003339008
	0.002468757	-0.003447922	7.041634e-05	5.604287e-05	-0.0008435624	-0.01334749	7.398768e-05	6.173111e-05
	4.850766e-07	9.31806e-07	0.002570545	-0.003339008	7.398768e-05	6.173111e-05	-0.0005566081	-0.01322232
2.1e+08	-0.0007955998	-0.008604852	1.714566e-05	1.097309e-05	0.001501142	-0.001477983	6.913192e-07	9.725166e-07
	1.714566e-05	1.097309e-05	-0.000664954	-0.008576193	7.551313e-05	4.722067e-05	0.001586428	-0.001409444
	0.001501142	-0.001477983	7.551313e-05	4.722067e-05	-0.0008393261	-0.008643995	7.966348e-05	5.24303e-05
	6.913192e-07	9.725166e-07	0.001586428	-0.001409444	7.966348e-05	5.24303e-05	-0.0006431557	-0.008567795
2.2e+08	0.0002857638	-0.004229071	1.815319e-05	8.788053e-06	0.001109653	0.0006792162	9.153972e-07	9.572321e-07
	1.815319e-05	8.788053e-06	0.0003604047	-0.004217992	7.959992e-05	3.784528e-05	0.001158203	0.0007117094
	0.001109653	0.0006792162	7.959992e-05	3.784528e-05	0.0002990288	-0.004261104	8.426867e-05	4.251931e-05
	9.153972e-07	9.572321e-07	0.001158203	0.0007117094	8.426867e-05	4.251931e-05	0.0003941214	-0.004205444
2.3e+08	0.002373091	-0.0004215808	1.889047e-05	6.49104e-06	0.001321037	0.002856528	1.141337e-06	8.84186e-07
	1.889047e-05	6.49104e-06	0.002380778	-0.0004114956	8.258216e-05	2.804741e-05	0.001314674	0.002864153
	0.001321037	0.002856528	8.258216e-05	2.804741e-05	0.002436735	-0.0004634201	8.770375e-05	3.213757e-05
	1.141337e-06	8.84186e-07	0.001314674	0.002864153	8.770375e-05	3.213757e-05	0.002427811	-0.0003986944
2.4e+08	0.005274566	0.002595046	1.933846e-05	4.121365e-06	0.002114902	0.004886795	1.35415e-06	7.561375e-07
	1.933846e-05	4.121365e-06	0.00520954	0.002624022	8.439099e-05	1.797617e-05	0.002039593	0.004886607
	0.002114902	0.004886795	8.439099e-05	1.797617e-05	0.005378528	0.002530044	8.989661e-05	2.144279e-05
	1.35415e-06	7.561375e-07	0.002039593	0.004886607	8.989661e-05	2.144279e-05	0.005270092	0.002632927
2.5e+08	0.008750845	0.004656778	1.948632e-05	1.721894e-06	0.003425838	0.006615766	1.541089e-06	5.795579e-07
	1.948632e-05	1.721894e-06	0.008613451	0.004726197	8.498582e-05	7.792402e-06	0.003273386	0.006629149
	0.003425838	0.006615766	8.498582e-05	7.792402e-06	0.008882792	0.004559269	9.080484e-05	1.060379e-05
	1.541089e-06	5.795579e-07	0.003273386	0.006629149	9.080484e-05	1.060379e-05	0.008686501	0.004727153
2.6e+08	0.01253202	0.005667628	1.933195e-05	-6.631203e-07	0.005148954	0.007913822	1.692478e-06	3.63518e-07
	1.933195e-05	-6.631203e-07	0.01232911	0.005798857	8.435575e-05	-2.337687e-06	0.004918149	0.007964505
	0.005148954	0.007913822	8.435575e-05	-2.337687e-06	0.01267852	0.005532439	9.041653e-05	-2.060048e-07
	1.692478e-06	3.63518e-07	0.00491815	0.007964505	9.041653e-05	-2.060048e-07	0.01241249	0.005788246
2.7e+08	0.0163363	0.005604427	1.888168e-05	-2.990264e-06	0.007148347	0.008685659	1.802073e-06	1.184206e-07
	1.888168e-05	-2.990264e-06	0.01608108	0.005816699	8.251892e-05	-1.22493e-05	0.006845471	0.008797465
	0.007148347	0.008685659	8.251892e-05	-1.22493e-05	0.01648391	0.005430434	8.874913e-05	-1.081537e-05
	1.802073e-06	1.184206e-07	0.006845471	0.008797465	8.874913e-05	-1.081537e-05	0.01617162	0.005791652
2.8e+08	0.01988903	0.004516624	1.814963e-05	-5.218895e-06	0.009267796	0.008877228	1.866954e-06	-1.452028e-07
	1.814963e-05	-5.218895e-06	0.01960032	0.004825178	7.952078e-05	-2.178491e-05	0.008906434	0.009071765
	0.009267796	0.008877228	7.952078e-05	-2.178491e-05	0.02002532	0.004306384	8.584744e-05	-2.106089e-05
	1.866954e-06	-1.452028e-07	0.008906434	0.009071765	8.584744e-05	-2.106089e-05	0.01969414	0.00478384
2.9e+08	0.02294085	0.002521231	1.715631e-05	-7.312708e-06	0.01134285	0.008479492	1.887022e-06	-4.177042e-07
	1.715631e-05	-7.312708e-06	0.02264186	0.002935715	7.543049e-05	-3.079941e-05	0.01094303	0.008773981
	0.01134285	0.008479492	7.543049e-05	-3.079941e-05	0.02305521	0.002280413	8.177965e-05	-3.07917e-05
	1.887022e-06	-4.177042e-07	0.01094303	0.008773981	8.177965e-05	-3.07917e-05	0.02273463	0.002877408
3e+08	0.02528384	-0.0002066112	1.592706e-05	-9.240735e-06	0.01321341	0.007528762	1.864226e-06	-6.910059e-07
	1.592706e-05	-9.240735e-06	0.02500041	0.0003166571	7.03366e-05	-3.916377e-05	0.01280009	0.007934199
	0.01321341	0.007528762	7.03366e-05	-3.916377e-05	0.02536808	-0.0004699371	7.663311e-05	-3.987276e-05
	1.864226e-06	-6.910059e-07	0.01280009	0.007934199	7.663311e-05	-3.987276e-05	0.02508775	0.0002419694
3.1e+08	0.0267644	-0.003446727	1.449046e-05	-1.09778e-05	0.01473586	0.006103648	1.801673e-06	-9.58907e-07
	1.449046e-05	-1.09778e-05	0.02652305	-0.002819307	6.434268e-05	-4.67672e-05	0.01433698	0.006623457
	0.01473586	0.006103648	6.434268e-05	-4.67672e-05	0.02681323	-0.003722909	7.051007e-05	-4.818673e-05
	1.801673e-06	-9.58907e-07	0.01433698	0.006623457	7.051007e-05	-4.818673e-05	0.02660085	-0.002908541
3.2e+08	0.02729244	-0.006949768	1.287672e-05	-1.250443e-05	0.01579387	0.004318862	1.702762e-06	-1.217032e-06
	1.287672e-05	-1.250443e-05	0.02711812	-0.006230401	5.756243e-05	-5.351796e-05	0.01543802	0.004948182
	0.01579387	0.004318862	5.756243e-05	-5.351796e-05	0.02730358	-0.00722843	6.352315e-05	-5.563441e-05
	1.702762e-06	-1.217032e-06	0.01543802	0.004948182	6.352315e-05	-5.563441e-05	0.02718294	-0.006331222
3.3e+08	0.02684603	-0.01045469	1.111641e-05	-1.380632e-05	0.01630718	0.002316364	1.570474e-06	-1.462458e-06
	1.111641e-05	-1.380632e-05	0.02676001	-0.009662598	5.011571e-05	-5.934282e-05	0.01602111	0.00304203
	0.01630718	0.002316364	5.011571e-05	-5.934282e-05	0.0268202	-0.01072556	5.579171e-05	-6.213422e-05
	1.570474e-06	-1.462458e-06	0.01602111	0.00304203	5.579171e-05	-6.213422e-05	0.02680932	-0.009771145
3.4e+08	0.02547148	-0.0137067	9.239589e-06	-1.487361e-05	0.01623756	0.0002544844	1.406936e-06	-1.693122e-06
	9.239589e-06	-1.487361e-05	0.02548932	-0.01286696	4.212549e-05	-6.418602e-05	0.0160438	0.001055733
	0.01623756	0.0002544844	4.212549e-05	-6.418602e-05	0.02541211	-0.01396037	4.743925e-05	-6.762114e-05
	1.406936e-06	-1.693122e-06	0.0160438	0.001055733	4.743925e-05	-6.762114e-05	0.02552178	-0.01297876
3.5e+08	0.02327875	-0.01647449	7.275295e-06	-1.569995e-05	0.01559168	-0.001704181	1.213264e-06	-1.907148e-06
	7.275295e-06	-1.569995e-05	0.02340877	-0.01561635	3.37153e-05	-6.80073e-05	0.0155064	-0.0008543152
	0.01559168	-0.001704181	3.37153e-05	-6.80073e-05	0.02319166	-0.01670308	3.859121e-05	-7.2045e-05
	1.213264e-06	-1.907148e-06	0.0155064	-0.0008543152	3.859121e-05	-7.2045e-05	0.02342433	-0.01572666
3.6e+08	0.02043282	-0.01856564	5.251483e-06	-1.628169e-05	0.01442058	-0.003405205	9.897487e-07	-2.102187e-06
	5.251483e-06	-1.628169e-05	0.02067493	-0.01772033	2.500806e-05	-7.078032e-05	0.01445187	-0.00253791
	0.01442058	-0.003405205	2.500806e-05	-7.078032e-05	0.02032556	-0.01876331	2.937411e-05	-7.536918e-05
	9.897487e-07	-2.102187e-06	0.01445187	-0.00253791	2.937411e-05	-7.536918e-05	0.02067489	-0.01782454
3.7e+08	0.01714123	-0.01983917	3.195131e-06	-1.661733e-05	0.01281571	-0.004714176	7.362616e-07	-2.27495e-06
	3.195131e-06	-1.661733e-05	0.01748655	-0.01903751	1.612529e-05	-7.249098e-05	0.01296257	-0.003862437
	0.01281571	-0.004714176	1.612529e-05	-7.249098e-05	0.01702248	-0.02000241	1.991498e-05	-7.756934e-05
	7.362616e-07	-2.27495e-06	0.01296257	-0.003862437	1.991498e-05	-7.756934e-05	0.01747349	-0.01913151
3.8e+08	0.01363904	-0.02021438	1.132692e-06	-1.670708e-05	0.01090197	-0.005527045	4.528737e-07	-2.420924e-06
	1.132692e-06	-1.670708e-05	0.01407009	-0.01948428	7.187124e-06	-7.313637e-05	0.01115393	-0.004722965
	0.01090197	-0.005527045	7.187124e-06	-7.313637e-05	0.01351793	-0.02034218	1.034145e-05	-7.863293e-05
	4.528737e-07	-2.420924e-06	0.01115393	-0.004722965	1.034145e-05	-7.863293e-05	0.01404768	-0.01956478
3.9e+08	0.01017199	-0.01967547	-9.094744e-07	-1.655281e-05	0.008828025	-0.00577817	1.405238e-07	-2.534407e-06
	-9.094744e-07	-1.655281e-05	0.0106637	-0.01903954	-1.687605e-06	-7.27243e-05	0.009165598	-0.00505026
	0.008828025	-0.00577817	-1.687605e-06	-7.27243e-05	0.01005741	-0.01976931	7.817867e-07	-7.855919e-05
	1.405238e-07	-2.534407e-06	0.009165598	-0.00505026	7.817867e-07	-7.855919e-05	0.01063642	-0.01910438
4e+08	0.006979151	-0.01827164	-2.904765e-06	-1.615833e-05	0.006754837	-0.005445412	-1.983642e-07	-2.608822e-06
	-2.904765e-06	-1.615833e-05	0.007500475	-0.01774509	-1.03812e-05	-7.127334e-05	0.007150766	-0.004816074
	0.006754837	-0.005445412	-1.03812e-05	-7.127334e-05	0.006879119	-0.01833522	-8.635229e-06	-7.735971e-05
	-1.983642e-07	-2.608822e-06	0.007150766	-0.004816074	-8.635229e-06	-7.735971e-05	0.007473307	-0.01779346
4.1e+08	0.004276246	-0.01611258	-4.826182e-06	-1.552984e-05	0.004843192	-0.004551857	-5.594242e-07	-2.637278e-06
	-4.826182e-06	-1.552984e-05	0.004792322	-0.01570168	-1.877728e-05	-6.881343e-05	0.005264344	-0.004035273
	0.004843192	-0.004551857	-1.877728e-05	-6.881343e-05	0.004197366	-0.0161515	-1.778087e-05	-7.505953e-05
	-5.594242e-07	-2.637278e-06	0.005264344	-0.004035273	-1.778087e-05	-7.505953e-05	0.004770334	-0.01573416
4.2e+08	0.002240746	-0.0133598	-6.646451e-06	-1.467649e-05	0.003241201	-0.003164005	-9.361384e-07	-2.613282e-06
	-6.646451e-06	-1.467649e-05	0.002715529	-0.01306096	-2.676141e-05	-6.538668e-05	0.003651056	-0.002764638
	0.003241201	-0.003164005	-2.676141e-05	-6.538668e-05	0.00218781	-0.01338107	-2.652768e-05	-7.169823e-05
	-9.361384e-07	-2.613282e-06	0.003651056	-0.002764638	-2.652768e-05	-7.169823e-05	0.002703478	-0.01307956
4.3e+08	0.0009999358	-0.01021441	-8.338439e-06	-1.361096e-05	0.002072801	-0.001386559	-1.319913e-06	-2.531514e-06
	-8.338439e-06	-1.361096e-05	0.001398977	-0.01001399	-3.422229e-05	-6.104833e-05	0.002434297	-0.001098394
	0.002072801	-0.001386559	-3.422229e-05	-6.104833e-05	0.0009756436	-0.01022591	-3.475132e-05	-6.733087e-05
	-1.319913e-06	-2.531514e-06	0.002434297	-0.001098394	-3.475132e-05	-6.733087e-05	0.001400928	-0.01002201
4.4e+08	0.0006226265	-0.006902207	-9.875829e-06	-1.234987e-05	0.001428159	0.0006457786	-1.700443e-06	-2.388524e-06
	-9.875829e-06	-1.234987e-05	0.0009158827	-0.006777188	-4.105351e-05	-5.586746e-05	0.001706692	0.0008391493
	0.001428159	0.0006457786	-4.105351e-05	-5.586746e-05	0.0006274863	-0.006912069	-4.233295e-05	-6.202864e-05
	-1.700443e-06	-2.388524e-06	0.001706692	0.0008391493	-4.233295e-05	-6.202864e-05	0.0009348605	-0.00677895
4.5e+08	0.001115198	-0.003657233	-1.123402e-05	-1.091398e-05	0.001356756	0.002778838	-2.066308e-06	-2.183273e-06
	-1.123402e-05	-1.091398e-05	0.001279572	-0.003576616	-4.715593e-05	-4.992741e-05	0.001523073	0.002903284
	0.001356756	0.002778838	-4.715593e-05	-4.992741e-05	0.001147569	-0.003673274	-4.916211e-05	-5.587883e-05
	-2.066308e-06	-2.183273e-06	0.001523073	0.002903284	-4.916211e-05	-5.587883e-05	0.001317305	-0.003577185
4.6e+08	0.002422133	-0.0007049634	-1.239111e-05	-9.328095e-06	0.001863666	0.004850996	-2.40573e-06	-1.917428e-06
	-1.239111e-05	-9.328095e-06	0.002443574	-0.0006318841	-5.244022e-05	-4.33256e-05	0.001896423	0.004940115
	0.001863666	0.004850996	-5.244022e-05	-4.33256e-05	0.002478439	-0.0007341352	-5.513976e-05	-4.898403e-05
	-2.40573e-06	-1.917428e-06	0.001896423	0.004940115	-5.513976e-05	-4.898403e-05	0.002500327	-0.0006366607
4.7e+08	0.004430983	0.001753608	-1.33289e-05	-7.620595e-06	0.00290933	0.006705712	-2.707306e-06	-1.595336e-06
	-1.33289e-05	-7.620595e-06	0.004305944	0.001859237	-5.682947e-05	-3.617258e-05	0.002797087	0.006798411
	0.00290933	0.006705712	-5.682947e-05	-3.617258e-05	0.004506073	0.001705664	-6.018061e-05	-4.146029e-05
