!$
! Info: Touchstone file created by Circ.  Input file=Tx_10in_Rx_85ohms_TxVia_10mils_RxVia_20mils.circ
!$
# Hz S RI R 50
0	0.008103062	7.970554e-26	-5.412309e-05	-7.461985e-26	6.754679e-05	1.015573e-23	-5.413621e-05	1.544186e-24
	-5.41231e-05	-7.360881e-26	0.00810591	9.213082e-26	-5.412246e-05	-6.413332e-26	6.497705e-05	1.150508e-23
	6.759465e-05	1.016167e-23	-5.412244e-05	-6.5184e-26	0.008117907	7.992021e-26	-5.412395e-05	1.452238e-25
	-5.41362e-05	1.543032e-24	6.643345e-05	1.184148e-23	-5.412394e-05	1.439809e-25	0.008111504	8.786069e-26
1e+07	0.0103941	-0.00966075	-6.135878e-06	-1.361167e-05	0.0002524371	0.001821291	-3.629103e-06	-1.593099e-05
	-6.135878e-06	-1.361167e-05	0.01038033	-0.009495756	-9.524038e-06	-4.26854e-07	0.0003253691	0.001815275
	0.0002524413	0.001821288	-9.524038e-06	-4.268538e-07	0.01174318	-0.00938132	-2.085037e-05	2.095747e-06
	-3.629104e-06	-1.593099e-05	0.0003254016	0.001815263	-2.085037e-05	2.095747e-06	0.01036346	-0.009489073
2e+07	0.009856418	-0.02185667	-5.524007e-06	-5.128229e-06	0.0008277493	0.003558234	-2.13296e-06	-8.317717e-06
	-5.524007e-06	-5.128229e-06	0.00999295	-0.02159048	-2.459927e-05	-1.404842e-05	0.0009201114	0.003485067
	0.000827748	0.003558231	-2.459927e-05	-1.404842e-05	0.01122174	-0.02190053	-3.083328e-05	-5.950307e-06
	-2.13296e-06	-8.317717e-06	0.0009201083	0.003485045	-3.083328e-05	-5.950307e-06	0.009983085	-0.02156715
3e+07	0.005852651	-0.03453292	-5.246617e-06	-2.937475e-06	0.001786731	0.005060365	-2.64757e-06	-6.407199e-06
	-5.246617e-06	-2.937475e-06	0.006088411	-0.03425427	-3.595579e-05	-1.360259e-05	0.001827815	0.0049745
	0.001786731	0.005060364	-3.595579e-05	-1.360259e-05	0.007211099	-0.03475377	-3.813296e-05	-4.174135e-06
	-2.64757e-06	-6.407199e-06	0.00182781	0.004974498	-3.813296e-05	-4.174135e-06	0.006084374	-0.03422126
4e+07	-0.00104812	-0.04629521	-4.992609e-06	-1.707123e-06	0.003013817	0.006307763	-3.802156e-06	-4.938856e-06
	-4.992609e-06	-1.707123e-06	-0.0007489105	-0.04603043	-4.496923e-05	-8.931913e-06	0.003004626	0.006227566
	0.003013818	0.006307762	-4.496923e-05	-8.931913e-06	0.0002788914	-0.04667047	-4.368294e-05	5.037238e-07
	-3.802156e-06	-4.938856e-06	0.003004625	0.006227567	-4.368294e-05	5.037237e-07	-0.0007488475	-0.04599142
5e+07	-0.01038321	-0.05645613	-4.727773e-06	-8.466473e-07	0.004449753	0.007256631	-4.703936e-06	-3.583072e-06
	-4.727773e-06	-8.466473e-07	-0.01004975	-0.05621496	-5.191029e-05	-1.678051e-06	0.004392467	0.007196541
	0.004449754	0.00725663	-5.191029e-05	-1.678051e-06	-0.009110255	-0.05697301	-4.765715e-05	6.922089e-06
	-4.703936e-06	-3.583072e-06	0.004392467	0.007196541	-4.765715e-05	6.922089e-06	-0.01004821	-0.05617041
6e+07	-0.02165875	-0.06452438	-4.439694e-06	-1.819569e-07	0.006025774	0.007874935	-5.353423e-06	-2.212682e-06
	-4.439694e-06	-1.819569e-07	-0.0213151	-0.0643074	-5.67882e-05	7.447712e-06	0.005924512	0.007847648
	0.006025775	0.007874934	-5.67882e-05	7.447712e-06	-0.02046053	-0.0651708	-5.005264e-05	1.457178e-05
	-5.353423e-06	-2.212682e-06	0.005924509	0.007847649	-5.005264e-05	1.457178e-05	-0.02131333	-0.0642566
7e+07	-0.0343371	-0.07015222	-4.124553e-06	3.536384e-07	0.007668267	0.008145907	-5.739444e-06	-7.936623e-07
	-4.124554e-06	3.536385e-07	-0.03400258	-0.06995438	-5.948126e-05	1.801634e-05	0.007529281	0.008162699
	0.007668268	0.008145907	-5.948126e-05	1.801634e-05	-0.03323229	-0.07091502	-5.078143e-05	2.313699e-05
	-5.739444e-06	-7.936623e-07	0.007529276	0.008162702	-5.078143e-05	2.313699e-05	-0.03400131	-0.06989672
8e+07	-0.04784894	-0.07312378	-3.78278e-06	7.892698e-07	0.009302867	0.008068845	-5.839623e-06	6.76272e-07
	-3.78278e-06	7.892699e-07	-0.04753868	-0.07293702	-5.975826e-05	2.971605e-05	0.009134573	0.008139498
	0.009302869	0.008068845	-5.975826e-05	2.971605e-05	-0.04685439	-0.07398871	-4.967404e-05	3.236893e-05
	-5.839623e-06	6.762721e-07	0.009134568	0.008139503	-4.967404e-05	3.236893e-05	-0.04753875	-0.07287166
9e+07	-0.06161247	-0.07334982	-3.4167e-06	1.137073e-06	0.01085826	0.0076586	-5.603118e-06	2.190296e-06
	-3.4167e-06	1.137073e-06	-0.06133895	-0.07316565	-5.719864e-05	4.233343e-05	0.0106713	0.007791302
	0.01085826	0.0076586	-5.719864e-05	4.233343e-05	-0.06074411	-0.07430239	-4.641973e-05	4.21219e-05
	-5.603118e-06	2.190296e-06	0.0106713	0.007791306	-4.641973e-05	4.21219e-05	-0.06134095	-0.07309111
1e+08	-0.07504905	-0.07085811	-3.018202e-06	1.400508e-06	0.01226986	0.006944314	-4.8343e-06	3.822492e-06
	-3.018202e-06	1.400508e-06	-0.07483225	-0.07067554	-5.017516e-05	5.631976e-05	0.01207869	0.007146709
	0.01226986	0.006944314	-5.017516e-05	5.631976e-05	-0.07432986	-0.07188919	-3.985273e-05	5.270505e-05
	-4.8343e-06	3.822492e-06	0.01207869	0.007146708	-3.985273e-05	5.270505e-05	-0.07483631	-0.07058993
1.1e+08	-0.08761241	-0.06585179	-2.718175e-06	1.656252e-06	0.01348181	0.005963972	-3.446876e-06	4.658741e-06
	-2.718175e-06	1.656252e-06	-0.08747861	-0.0656056	-3.768809e-05	6.378948e-05	0.01330411	0.006228335
	0.01348181	0.005963972	-3.768809e-05	6.378948e-05	-0.08706977	-0.06690083	-3.555281e-05	5.462607e-05
	-3.446876e-06	4.658741e-06	0.01330411	0.006228335	-3.555281e-05	5.462607e-05	-0.08748291	-0.06550665
1.2e+08	-0.09886215	-0.05853719	-2.42735e-06	1.924129e-06	0.01444559	0.004769419	-2.274702e-06	5.125565e-06
	-2.42735e-06	1.924129e-06	-0.09877198	-0.05820073	-3.301892e-05	6.533037e-05	0.01428805	0.005091955
	0.01444559	0.004769418	-3.301892e-05	6.533037e-05	-0.0984726	-0.05957069	-3.270824e-05	5.566296e-05
	-2.274702e-06	5.125565e-06	0.01428805	0.005091955	-3.270824e-05	5.566296e-05	-0.0987741	-0.05808717
1.3e+08	-0.1083654	-0.04923925	-2.126932e-06	2.159405e-06	0.01512822	0.003417926	-1.458853e-06	5.265972e-06
	-2.126932e-06	2.159405e-06	-0.10829	-0.04880387	-2.92397e-05	6.634398e-05	0.01499964	0.003794792
	0.01512822	0.003417926	-2.92397e-05	6.634398e-05	-0.1081127	-0.05023599	-2.925074e-05	5.701427e-05
	-1.458853e-06	5.265972e-06	0.01499964	0.003794792	-2.925074e-05	5.701427e-05	-0.1082874	-0.04867523
1.4e+08	-0.1157768	-0.038361	-1.816316e-06	2.356233e-06	0.01550848	0.0019703	-1.311329e-06	5.140608e-06
	-1.816316e-06	2.356233e-06	-0.1156901	-0.03782677	-2.494215e-05	6.745104e-05	0.01541751	0.002395807
	0.01550848	0.0019703	-2.494215e-05	6.745104e-05	-0.1156451	-0.03930478	-2.53538e-05	5.839925e-05
	-1.311329e-06	5.140608e-06	0.01541751	0.002395807	-2.53538e-05	5.839925e-05	-0.1156799	-0.0376833
1.5e+08	-0.1208425	-0.02635991	-1.498927e-06	2.511673e-06	0.01557727	0.0004888398	-1.141471e-06	5.051995e-06
	-1.498927e-06	2.511673e-06	-0.1207213	-0.02573381	-2.024231e-05	6.846014e-05	0.01553167	0.0009553257
	0.01557727	0.0004888398	-2.024231e-05	6.846014e-05	-0.1208159	-0.0272384	-2.110836e-05	5.965788e-05
	-1.141471e-06	5.051995e-06	0.01553167	0.0009553257	-2.110836e-05	5.965788e-05	-0.1207007	-0.02557657
1.6e+08	-0.1234058	-0.0137285	-1.177286e-06	2.62738e-06	0.01533729	-0.0009647356	-9.546972e-07	4.987705e-06
	-1.177286e-06	2.62738e-06	-0.1232304	-0.01302331	-1.522147e-05	6.924313e-05	0.01534333	-0.0004667616
	0.01533729	-0.0009647356	-1.522147e-05	6.924313e-05	-0.1234685	-0.01453268	-1.657761e-05	6.068804e-05
	-9.546972e-07	4.987705e-06	0.01534333	-0.0004667616	-1.657761e-05	6.068804e-05	-0.1231968	-0.01285415
1.7e+08	-0.1234099	-0.0009752244	-8.54397e-07	2.704582e-06	0.01480241	-0.002331163	-7.540771e-07	4.939253e-06
	-8.54397e-07	2.704582e-06	-0.1231651	-0.0002084095	-9.950486e-06	6.970711e-05	0.0148644	-0.00181271
	0.01480241	-0.002331163	-9.950486e-06	6.970711e-05	-0.1235464	-0.001698961	-1.181851e-05	6.141375e-05
	-7.540771e-07	4.939253e-06	0.0148644	-0.00181271	-1.181851e-05	6.141375e-05	-0.1231163	-2.993563e-05
1.8e+08	-0.1208978	0.0113944	-5.33556e-07	2.744496e-06	0.01399692	-0.003555303	-5.415142e-07	4.90045e-06
	-5.33556e-07	2.744496e-06	-0.1205733	0.01220178	-4.497514e-06	6.978305e-05	0.0141168	-0.003028471
	0.01399692	-0.003555303	-4.497514e-06	6.978305e-05	-0.1210931	0.01075466	-6.887525e-06	6.177716e-05
	-5.415142e-07	4.90045e-06	0.0141168	-0.003028471	-6.887525e-06	6.177716e-05	-0.1205077	0.01238634
1.9e+08	-0.1160084	0.02289583	-2.181692e-07	2.748554e-06	0.01295462	-0.004587659	-3.183314e-07	4.866557e-06
	-2.181692e-07	2.748554e-06	-0.1155998	0.02372041	1.068895e-06	6.942049e-05	0.01313167	-0.00406512
	0.01295462	-0.004587659	1.068895e-06	6.942049e-05	-0.1162483	0.02234139	-1.842741e-06	6.173496e-05
	-3.183314e-07	4.866557e-06	0.01313167	-0.00406512	-1.842741e-06	6.173496e-05	-0.1155166	0.02390735
2e+08	-0.1089711	0.0330827	8.840453e-08	2.718512e-06	0.01171779	-0.005385802	-8.550916e-08	4.833799e-06
	8.840453e-08	2.718512e-06	-0.1084801	0.03390015	6.679282e-06	6.858477e-05	0.0119485	-0.004880208
	0.01171779	-0.005385802	6.679282e-06	6.858477e-05	-0.1092423	0.03261288	3.255885e-06	6.125649e-05
	-8.550916e-08	4.833799e-06	0.0119485	-0.004880208	3.255885e-06	6.125649e-05	-0.1083792	0.03408548
2.1e+08	-0.1000962	0.04156268	3.829999e-07	2.65648e-06	0.01033605	-0.005915714	1.561581e-07	4.799071e-06
	3.829999e-07	2.65648e-06	-0.09953069	0.04234913	1.226362e-05	6.725547e-05	0.0106141	-0.005439077
	0.01033605	-0.005915714	1.226362e-05	6.725547e-05	-0.1003866	0.04117509	8.346987e-06	6.032294e-05
	1.561581e-07	4.799071e-06	0.0106141	-0.005439076	8.346987e-06	6.032294e-05	-0.0994133	0.0425288
2.2e+08	-0.08976412	0.04801178	6.627638e-07	2.564895e-06	0.008865003	-0.006153076	4.060075e-07	4.759706e-06
	6.627638e-07	2.564895e-06	-0.08913817	0.04874525	1.775242e-05	6.542529e-05	0.009181318	-0.005716126
	0.008865003	-0.006153076	1.775242e-05	6.542529e-05	-0.0900628	0.04770254	1.336884e-05	5.892666e-05
	4.060075e-07	4.759706e-06	0.009181318	-0.005716126	1.336884e-05	5.892666e-05	-0.08900621	0.04891535
2.3e+08	-0.07841121	0.0521865	9.252429e-07	2.446448e-06	0.007364533	-0.006084434	6.634422e-07	4.713303e-06
	9.252429e-07	2.446448e-06	-0.07774433	0.05284831	2.3078e-05	6.309905e-05	0.007707616	-0.005696012
	0.007364533	-0.006084434	2.3078e-05	6.309905e-05	-0.07870853	0.05195051	1.82606e-05	5.707058e-05
	6.634422e-07	4.713303e-06	0.007707616	-0.005696012	1.82606e-05	5.707058e-05	-0.07760075	0.05300531
2.4e+08	-0.06651357	0.0539336	1.168443e-06	2.303987e-06	0.005896917	-0.005708186	9.278389e-07	4.657659e-06
	1.168443e-06	2.303987e-06	-0.06583011	0.05450965	2.817573e-05	6.029302e-05	0.006253207	-0.005374681
	0.005896917	-0.005708186	2.817573e-05	6.029302e-05	-0.06680135	0.05376476	2.296352e-05	5.476782e-05
	9.278389e-07	4.657659e-06	0.006253207	-0.005374681	2.296352e-05	5.476782e-05	-0.0656787	0.05465065
2.5e+08	-0.05456916	0.05319685	1.390833e-06	2.140406e-06	0.004524524	-0.005035253	1.198514e-06	4.59063e-06
	1.390833e-06	2.140406e-06	-0.0538972	0.05367871	3.298561e-05	5.703366e-05	0.004878932	-0.004760134
	0.004524524	-0.005035253	3.298561e-05	5.703366e-05	-0.05484071	0.05308831	2.742249e-05	5.204072e-05
	1.198514e-06	4.59063e-06	0.004878932	-0.004760134	2.742249e-05	5.204072e-05	-0.05374249	0.05380161
2.6e+08	-0.04307844	0.05002031	1.591317e-06	1.958542e-06	0.00330726	-0.004089329	1.474622e-06	4.510131e-06
	1.591317e-06	1.958542e-06	-0.04244845	0.05040611	3.745355e-05	5.335654e-05	0.003643801	-0.003872783
	0.00330726	-0.004089329	3.745355e-05	5.335654e-05	-0.04332859	0.04996472	3.158733e-05	4.892004e-05
	1.474622e-06	4.510131e-06	0.003643801	-0.003872783	3.158733e-05	4.892004e-05	-0.04229552	0.05050983
2.7e+08	-0.03252416	0.04454778	1.769175e-06	1.761088e-06	0.002299811	-0.002906553	1.75509e-06	4.414085e-06
	1.769175e-06	1.761088e-06	-0.03196752	0.04484281	4.153259e-05	4.930485e-05	0.002602324	-0.002745264
	0.002299811	-0.002906553	4.153259e-05	4.930485e-05	-0.03274932	0.04453757	3.541394e-05	4.544368e-05
	1.75509e-06	4.414085e-06	0.002602324	-0.002745264	3.541394e-05	4.544368e-05	-0.03182177	0.04492735
2.8e+08	-0.02335137	0.03701815	1.923974e-06	1.550534e-06	0.001548839	-0.001534508	2.038548e-06	4.300502e-06
	1.923974e-06	1.550534e-06	-0.02289869	0.03723505	4.518397e-05	4.492803e-05	0.001801758	-0.001421602
	0.001548839	-0.001534508	4.518397e-05	4.492803e-05	-0.02354945	0.03704577	3.886546e-05	4.165544e-05
	2.038548e-06	4.300502e-06	0.001801758	-0.001421602	3.886546e-05	4.165544e-05	-0.02276561	0.03730166
2.9e+08	-0.01594825	0.0277564	2.05547e-06	1.329144e-06	0.001090339	-3.049396e-05	2.323278e-06	4.16751e-06
	2.05547e-06	1.329144e-06	-0.01562771	0.02791506	4.837778e-05	4.027989e-05	0.001279481	4.435556e-05
	0.001090339	-3.049395e-05	4.837778e-05	4.027989e-05	-0.01611862	0.02781465	4.191288e-05	3.760338e-05
	2.323278e-06	4.16751e-06	0.001279481	4.435556e-05	4.191288e-05	3.760338e-05	-0.01551257	0.02796622
3e+08	-0.01062904	0.01716063	2.163514e-06	1.098972e-06	0.0009473725	0.00154092	2.607178e-06	4.013434e-06
	2.163514e-06	1.098972e-06	-0.01046468	0.01728765	5.109328e-05	3.541668e-05	0.001060703	0.0015912
	0.0009473725	0.00154092	5.109328e-05	3.541668e-05	-0.01077236	0.01724286	4.453546e-05	3.333808e-05
	2.607178e-06	4.013434e-06	0.001060703	0.0015912	4.453546e-05	3.333808e-05	-0.01037228	0.01732703
3.1e+08	-0.007619854	0.005685391	2.24797e-06	8.618957e-07	0.001128409	0.003110956	2.887807e-06	3.836928e-06
	2.24797e-06	8.618957e-07	-0.007630011	0.005813129	5.331861e-05	3.039526e-05	0.001156748	0.003152853
	0.001128409	0.003110956	5.331861e-05	3.039526e-05	-0.007737921	0.005785754	4.672087e-05	2.891109e-05
	2.887807e-06	3.836928e-06	0.001156749	0.003152853	4.672087e-05	2.891109e-05	-0.007564394	0.005845512
3.2e+08	-0.007048386	-0.00617797	2.308657e-06	6.196982e-07	0.001626481	0.004610129	3.162404e-06	3.637038e-06
	2.308657e-06	6.196982e-07	-0.007244385	-0.006012635	5.505055e-05	2.527141e-05	0.001564107	0.004661911
	0.001626481	0.004610129	5.505055e-05	2.527141e-05	-0.007143895	-0.00606433	4.846474e-05	2.437316e-05
	3.162404e-06	3.637038e-06	0.001564107	0.004661911	4.846474e-05	2.437316e-05	-0.007208597	-0.005981526
3.3e+08	-0.008938154	-0.01792288	2.345359e-06	3.741733e-07	0.002419266	0.005971934	3.427974e-06	3.413288e-06
	2.345359e-06	3.741733e-07	-0.009323296	-0.01768015	5.629513e-05	2.009856e-05	0.002264375	0.006053195
	0.002419266	0.005971934	5.629513e-05	2.009856e-05	-0.00901442	-0.01779971	4.976987e-05	1.977279e-05
	3.427974e-06	3.413288e-06	0.002264375	0.006053195	4.976987e-05	1.977279e-05	-0.009319121	-0.01764388
3.4e+08	-0.01320769	-0.02905	2.357814e-06	1.271621e-07	0.003470145	0.007136446	3.681315e-06	3.165751e-06
	2.357814e-06	1.271621e-07	-0.01377654	-0.02868895	5.706385e-05	1.492568e-05	0.00322515	0.007267246
	0.003470145	0.007136446	5.706385e-05	1.492568e-05	-0.01326833	-0.02891987	5.064484e-05	1.515518e-05
	3.681315e-06	3.165751e-06	0.00322515	0.007267246	5.064484e-05	1.515518e-05	-0.01380434	-0.02864066
3.5e+08	-0.01967475	-0.03908923	2.345754e-06	-1.193633e-07	0.004730174	0.008053524	3.919442e-06	2.895061e-06
	2.345754e-06	-1.193633e-07	-0.02041292	-0.03856979	5.7374e-05	9.796948e-06	0.004401804	0.008253467
	0.004730174	0.008053524	5.7374e-05	9.796948e-06	-0.01972344	-0.03895358	5.110438e-05	1.056114e-05
	3.919442e-06	2.895061e-06	0.004401804	0.008253467	5.110438e-05	1.056114e-05	-0.02047159	-0.03850248
3.6e+08	-0.02806534	-0.04762019	2.308981e-06	-3.632555e-07	0.00614082	0.008685382	4.139431e-06	2.602362e-06
	2.308981e-06	-3.632555e-07	-0.02894963	-0.04690508	5.724696e-05	4.75107e-06	0.005740017	0.008972678
	0.00614082	0.008685382	5.724696e-05	4.75107e-06	-0.02810554	-0.04747935	5.116671e-05	6.026548e-06
	4.139431e-06	2.602362e-06	0.005740017	0.008972678	5.116671e-05	6.026548e-06	-0.02903658	-0.04681198
3.7e+08	-0.03802693	-0.05428991	2.24745e-06	-6.02178e-07	0.007637226	0.009008337	4.33858e-06	2.289269e-06
	2.24745e-06	-6.02178e-07	-0.03902598	-0.05334664	5.67061e-05	-1.788603e-07	0.007178829	0.009398885
	0.007637226	0.009008337	5.67061e-05	-1.788603e-07	-0.03806158	-0.0541433	5.085222e-05	1.582271e-06
	4.33858e-06	2.289269e-06	0.007178829	0.009398885	5.085222e-05	1.582271e-06	-0.03913714	-0.0532215
3.8e+08	-0.04914496	-0.05882703	2.161342e-06	-8.33617e-07	0.009151728	0.009013624	4.514518e-06	1.957779e-06
	2.161342e-06	-8.33617e-07	-0.05022034	-0.05762964	5.577581e-05	-4.96498e-06	0.008653964	0.00952018
	0.009151728	0.009013624	5.577581e-05	-4.96498e-06	-0.04917634	-0.05867333	5.018242e-05	-2.745647e-06
	4.514518e-06	1.957779e-06	0.008653964	0.00952018	5.018242e-05	-2.745647e-06	-0.05035028	-0.05746706
3.9e+08	-0.06096178	-0.06105179	2.05114e-06	-1.05492e-06	0.01061736	0.008707302	4.665264e-06	1.610171e-06
	2.05114e-06	-1.05492e-06	-0.0620694	-0.05958238	5.448033e-05	-9.584031e-06	0.01010115	0.009338757
	0.01061736	0.008707302	5.448033e-05	-9.584031e-06	-0.06099136	-0.0608892	4.917889e-05	-6.935508e-06
	4.665264e-06	1.610171e-06	0.01010115	0.009338757	4.917889e-05	-6.935508e-06	-0.06221157	-0.05937811
4e+08	-0.07299683	-0.06088164	1.917682e-06	-1.263356e-06	0.01197108	0.008109315	4.78924e-06	1.248902e-06
	1.917682e-06	-1.263356e-06	-0.07408869	-0.05913155	5.284293e-05	-1.401652e-05	0.0114592	0.008870142
	0.01197108	0.008109315	5.284293e-05	-1.401652e-05	-0.07302518	-0.06070815	4.786244e-05	-1.096924e-05
	4.78924e-06	1.248902e-06	0.0114592	0.008870142	4.786244e-05	-1.096924e-05	-0.07423562	-0.05888273
4.1e+08	-0.08476694	-0.05833238	1.762209e-06	-1.456187e-06	0.01315654	0.007251883	4.885271e-06	8.765013e-07
	1.762209e-06	-1.456187e-06	-0.08579319	-0.05630299	5.088548e-05	-1.824579e-05	0.01267265	0.008141762
	0.01315654	0.007251883	5.088548e-05	-1.824579e-05	-0.08479379	-0.058146	4.625259e-05	-1.483158e-05
	4.885271e-06	8.765013e-07	0.01267265	0.008141762	4.625259e-05	-1.483158e-05	-0.08593681	-0.05600833
4.2e+08	-0.09580606	-0.05351517	1.586376e-06	-1.63075e-06	0.01412624	0.006177406	4.952545e-06	4.954795e-07
	1.586376e-06	-1.63075e-06	-0.09671706	-0.05121824	4.862823e-05	-2.225708e-05	0.0136939	0.007191066
	0.01412624	0.006177406	4.862823e-05	-2.225708e-05	-0.09583033	-0.05331418	4.436729e-05	-1.85092e-05
	4.952545e-06	4.954795e-07	0.0136939	0.007191066	4.436729e-05	-1.85092e-05	-0.09684903	-0.05087812
4.3e+08	-0.1056833	-0.04662976	1.39226e-06	-1.784547e-06	0.01484309	0.004936085	4.990553e-06	1.082687e-07
	1.39226e-06	-1.784547e-06	-0.1064318	-0.04408735	4.608989e-05	-2.603664e-05	0.01448468	0.006063364
	0.01484309	0.004936085	4.608989e-05	-2.603664e-05	-0.1057032	-0.04641295	4.222291e-05	-2.198984e-05
	4.990553e-06	1.082687e-07	0.01448468	0.006063364	4.222291e-05	-2.198984e-05	-0.1065439	-0.0437039
4.4e+08	-0.1140187	-0.03795469	1.182333e-06	-1.915319e-06	0.01528131	0.003583458	4.999022e-06	-2.828191e-07
	1.182333e-06	-1.915319e-06	-0.1145621	-0.0351986	4.328797e-05	-2.957101e-05	0.01501702	0.004809579
	0.01528131	0.003583458	4.328797e-05	-2.957101e-05	-0.1140321	-0.03772146	3.983445e-05	-2.526154e-05
	4.999022e-06	-2.828191e-07	0.01501702	0.004809579	3.983445e-05	-2.526154e-05	-0.1146465	-0.03477564
4.5e+08	-0.1204968	-0.02783485	9.594318e-07	-2.021136e-06	0.01542682	0.002177983	4.977847e-06	-6.75611e-07
	9.594318e-07	-2.021136e-06	-0.120799	-0.02490562	4.023933e-05	-3.284648e-05	0.01527371	0.003484044
	0.01542682	0.002177983	4.023933e-05	-3.284648e-05	-0.1205013	-0.02758538	3.721603e-05	-2.831205e-05
	4.977847e-06	-6.75611e-07	0.01527371	0.003484044	3.721603e-05	-2.831205e-05	-0.1208487	-0.02444858
4.6e+08	-0.1248772	-0.01666727	7.267027e-07	-2.100459e-06	0.01527715	0.0007787773	4.927034e-06	-1.068081e-06
	7.267027e-07	-2.100459e-06	-0.1249103	-0.01361282	3.696071e-05	-3.584876e-05	0.01524831	0.002142433
	0.01527715	0.0007787773	3.696071e-05	-3.584876e-05	-0.1248701	-0.01640252	3.438144e-05	-3.112845e-05
	4.927034e-06	-1.068081e-06	0.01524831	0.002142433	3.438144e-05	-3.112845e-05	-0.1249195	-0.01312855
4.7e+08	-0.1270017	-0.004885558	4.875347e-07	-2.152207e-06	0.014841	-0.0005564275	4.846628e-06	-1.458302e-06
	4.875347e-07	-2.152207e-06	-0.1267478	-0.001759421	3.346937e-05	-3.856281e-05	0.01494487	0.0008398717
	0.014841	-0.0005564275	3.346937e-05	-3.856281e-05	-0.1269806	-0.004607282	3.134474e-05	-3.369684e-05
	4.846628e-06	-1.458302e-06	0.01494487	0.0008398717	3.134474e-05	-3.369684e-05	-0.126712	-0.001255961
4.8e+08	-0.1267992	0.007056441	2.454812e-07	-2.175803e-06	0.01413759	-0.001773119	4.736679e-06	-1.844453e-06
