!$
! Info: Touchstone file created by Circ.  Input file=Tx_10in_Rx_100ohms_TxVia_10mils_RxVia_20mils.circ
!$
# Hz S RI R 50
0	0.01041174	6.382941e-26	-5.384931e-05	1.622927e-25	6.503718e-05	1.080645e-23	-5.385467e-05	4.71706e-25
	-5.384932e-05	1.626727e-25	0.01041105	9.165124e-26	-5.384914e-05	1.853609e-26	6.463934e-05	1.480141e-23
	6.314802e-05	1.065412e-23	-5.384914e-05	1.894848e-26	0.01042559	6.642001e-26	-5.384799e-05	3.595061e-25
	-5.385466e-05	4.696151e-25	6.609488e-05	1.52342e-23	-5.384796e-05	3.568424e-25	0.01041662	8.740552e-26
1e+07	0.01430446	0.006732428	-8.625894e-05	-3.507568e-05	0.0002855715	0.001785006	-0.0002277341	0.0001369272
	-8.625893e-05	-3.507569e-05	0.0153167	0.006476302	-3.126204e-05	-1.242551e-05	0.0006374744	0.001832898
	0.0002855323	0.001785031	-3.126204e-05	-1.242551e-05	0.01487477	0.006452698	-9.465911e-06	-1.294157e-05
	-0.0002277341	0.0001369272	0.0006375073	0.001832887	-9.465914e-06	-1.294157e-05	0.0151794	0.006494112
2e+07	0.01939038	0.009880111	-5.213111e-05	-7.540917e-05	0.0008244668	0.00352847	-0.0002649573	0.0001356452
	-5.213111e-05	-7.540918e-05	0.01990336	0.009130535	-2.537174e-05	-1.320943e-05	0.001051451	0.003759034
	0.0008244741	0.003528488	-2.537174e-05	-1.320943e-05	0.01953988	0.009255508	-9.152097e-06	2.214629e-06
	-0.0002649573	0.0001356452	0.001051449	0.003759012	-9.152096e-06	2.214633e-06	0.01981275	0.00921445
3e+07	0.02377757	0.01075599	-3.414283e-05	-8.876798e-05	0.001689288	0.005085572	-0.0002905506	0.0001546088
	-3.414283e-05	-8.876798e-05	0.02389417	0.009914828	-2.149651e-05	-1.372746e-05	0.001824273	0.005383779
	0.001689285	0.005085573	-2.149651e-05	-1.372746e-05	0.02360441	0.01009139	-1.112271e-05	1.698121e-06
	-0.0002905506	0.0001546088	0.001824268	0.005383776	-1.112271e-05	1.698122e-06	0.02384551	0.01002216
4e+07	0.02772211	0.01045571	-7.233374e-05	-7.268561e-05	0.002837595	0.006420812	-0.0003100348	0.0001774872
	-7.233374e-05	-7.268561e-05	0.02750927	0.009657327	-1.844678e-05	-1.382609e-05	0.002923345	0.006756075
	0.00283759	0.006420814	-1.844678e-05	-1.382609e-05	0.02729314	0.009855461	-1.400144e-05	6.845691e-07
	-0.0003100348	0.0001774872	0.002923345	0.006756076	-1.400144e-05	6.845694e-07	0.02749928	0.009771434
5e+07	0.03123665	0.009266034	-0.0001012988	-4.700564e-05	0.004217137	0.007487847	-0.0003249505	0.0002027248
	-0.0001012988	-4.700564e-05	0.03075538	0.008592666	-1.58435e-05	-1.381406e-05	0.004409231	0.007765511
	0.004217135	0.007487848	-1.58435e-05	-1.381406e-05	0.03061256	0.008792281	-1.700956e-05	1.063214e-06
	-0.0003249505	0.0002027248	0.004409231	0.007765512	-1.700956e-05	1.063215e-06	0.03077929	0.008703458
6e+07	0.03427915	0.007356378	-0.0001211163	-1.46277e-05	0.005768149	0.008249502	-0.0003360352	0.0002295297
	-0.0001211163	-1.46277e-05	0.03359159	0.00686573	-1.346874e-05	-1.380443e-05	0.006031648	0.008452229
	0.005768149	0.008249499	-1.346874e-05	-1.380443e-05	0.03351883	0.007048706	-1.987113e-05	2.641634e-06
	-0.0003360352	0.0002295297	0.006031645	0.00845223	-1.987113e-05	2.641634e-06	0.03364498	0.006965862
7e+07	0.03679435	0.004861848	-0.0001314592	2.2383e-05	0.00743673	0.008670494	-0.0003439746	0.0002570859
	-0.0001314592	2.2383e-05	0.03596476	0.004593636	-1.264849e-05	-1.258876e-05	0.007727553	0.008799992
	0.00743673	0.008670489	-1.264849e-05	-1.258876e-05	0.03595596	0.004743933	-2.227281e-05	5.27082e-06
	-0.0003439746	0.0002570859	0.007727548	0.008799994	-2.227281e-05	5.270819e-06	0.03604256	0.004676836
8e+07	0.0387295	0.001907427	-0.0001317807	6.234459e-05	0.009142188	0.008745395	-0.0003498473	0.0002844391
	-0.0001317807	6.23446e-05	0.03782445	0.001886681	-1.469692e-05	-7.854321e-06	0.009430486	0.00880355
	0.009142187	0.008745388	-1.469692e-05	-7.854321e-06	0.03787094	0.001990473	-2.395242e-05	8.748637e-06
	-0.0003498473	0.0002844391	0.009430481	0.008803553	-2.395242e-05	8.748636e-06	0.03792032	0.001948025
9e+07	0.04004096	-0.001384514	-0.0001211013	0.0001039366	0.01081293	0.008479189	-0.0003558325	0.0003103151
	-0.0001211013	0.0001039366	0.03913116	-0.0011444	-1.530885e-05	-2.776453e-06	0.01107282	0.008469547
	0.01081293	0.008479185	-1.530885e-05	-2.776453e-06	0.03922177	-0.001098694	-2.477637e-05	1.280524e-05
	-0.0003558325	0.0003103151	0.01107281	0.00846955	-2.477637e-05	1.280524e-05	0.03923771	-0.001108023
1e+08	0.04069161	-0.004895482	-9.441718e-05	0.0001479521	0.01238701	0.007890004	-0.0003709892	0.0003299581
	-9.441718e-05	0.0001479521	0.03987395	-0.004380005	-1.379444e-05	2.740603e-06	0.01258269	0.007813586
	0.01238701	0.007890004	-1.379444e-05	2.740603e-06	0.03999375	-0.004402471	-2.481579e-05	1.712085e-05
	-0.0003709892	0.0003299581	0.01258269	0.007813586	-2.481579e-05	1.712085e-05	0.03998187	-0.004370567
1.1e+08	0.04067131	-0.008465389	-5.578643e-05	0.0001656269	0.01380189	0.006980482	-0.0003672813	0.0003231062
	-5.578643e-05	0.0001656269	0.0400398	-0.007815213	-1.024806e-05	5.052551e-06	0.01389936	0.006908565
	0.01380189	0.006980483	-1.024806e-05	5.052551e-06	0.04017214	-0.007904786	-2.352399e-05	2.076653e-05
	-0.0003672813	0.0003231062	0.01389936	0.006908565	-2.352399e-05	2.076653e-05	0.04014136	-0.007824557
1.2e+08	0.040026	-0.01199065	-4.997553e-05	0.0001635072	0.01497927	0.005809109	-0.0003525248	0.0003244514
	-4.997553e-05	0.0001635072	0.03954165	-0.01125996	-7.600031e-06	6.529053e-06	0.01500941	0.005770533
	0.01497927	0.005809109	-7.600031e-06	6.529053e-06	0.03967655	-0.01141578	-2.092551e-05	2.420766e-05
	-0.0003525248	0.0003244514	0.01500941	0.005770533	-2.092551e-05	2.420766e-05	0.03963682	-0.01128474
1.3e+08	0.03877323	-0.01536775	-4.149564e-05	0.0001626807	0.01587934	0.004432291	-0.0003351926	0.0003271288
	-4.149564e-05	0.0001626807	0.03842313	-0.01458581	-5.26336e-06	7.400517e-06	0.01586159	0.004440998
	0.01587934	0.004432291	-5.26336e-06	7.400517e-06	0.03854919	-0.01480592	-1.736883e-05	2.706822e-05
	-0.0003351926	0.0003271288	0.01586159	0.004440998	-1.736883e-05	2.706822e-05	0.03851038	-0.01462373
1.4e+08	0.03695456	-0.01849443	-3.140432e-05	0.0001619368	0.01646949	0.002910825	-0.0003174022	0.000329639
	-3.140432e-05	0.0001619368	0.03672963	-0.01768395	-3.140946e-06	7.831458e-06	0.01642142	0.002974471
	0.01646949	0.002910825	-3.140946e-06	7.831458e-06	0.0368359	-0.01796422	-1.31091e-05	2.908722e-05
	-0.0003174022	0.000329639	0.01642142	0.002974471	-1.31091e-05	2.908722e-05	0.03680753	-0.01773271
1.5e+08	0.03462826	-0.02127722	-2.03218e-05	0.0001606383	0.01672908	0.001310251	-0.0003004161	0.0003315648
	-2.03218e-05	0.0001606383	0.03452026	-0.02045744	-1.203265e-06	7.911145e-06	0.01666712	0.001431709
	0.01672908	0.001310251	-1.203265e-06	7.911145e-06	0.03459684	-0.02079156	-8.436501e-06	3.009189e-05
	-0.0003004161	0.0003315648	0.01666712	0.001431709	-8.436501e-06	3.009189e-05	0.03458767	-0.02051461
1.6e+08	0.03186716	-0.0236345	-8.74144e-06	0.0001584249	0.01665067	-0.0003014102	-0.0002850952	0.0003330483
	-8.74144e-06	0.0001584249	0.03186763	-0.02282229	5.574439e-07	7.700014e-06	0.01658988	-0.0001233001
	0.01665067	-0.0003014101	5.574439e-07	7.700014e-06	0.03190612	-0.02320204	-3.66688e-06	3.000295e-05
	-0.0002850952	0.0003330483	0.01658988	-0.0001233001	-3.66688e-06	3.000295e-05	0.03192385	-0.02288538
1.7e+08	0.02875648	-0.0254989	2.903987e-06	0.0001551232	0.01624032	-0.00185624	-0.0002719871	0.0003345817
	2.903987e-06	0.0001551232	0.02885625	-0.02470932	2.140245e-06	7.244744e-06	0.01619404	-0.001626098
	0.01624032	-0.00185624	2.140245e-06	7.244744e-06	0.02885011	-0.02512477	8.809188e-07	2.883753e-05
	-0.0002719871	0.0003345817	0.01619404	-0.001626098	8.809188e-07	2.883753e-05	0.02890099	-0.02477579
1.8e+08	0.0253912	-0.02681929	1.423464e-05	0.0001507041	0.01551743	-0.003289087	-0.0002613335	0.0003368725
	1.423464e-05	0.0001507041	0.02558012	-0.02606573	3.541055e-06	6.584702e-06	0.01549675	-0.003014421
	0.01551743	-0.003289087	3.541054e-06	6.584702e-06	0.02552505	-0.02650566	4.910925e-06	2.67054e-05
	-0.0002613335	0.0003368725	0.01549675	-0.003014421	4.910925e-06	2.67054e-05	0.02561356	-0.0261331
1.9e+08	0.02187319	-0.02756225	2.493927e-05	0.0001452535	0.01451389	-0.004540141	-0.0002530686	0.0003407331
	2.493927e-05	0.0001452535	0.02214004	-0.02685653	4.087746e-06	5.969652e-06	0.01452731	-0.004230735
	0.01451389	-0.004540141	4.087746e-06	5.969652e-06	0.02203422	-0.02730884	8.18287e-06	2.379877e-05
	-0.0002530686	0.0003407331	0.01452731	-0.004230735	8.18287e-06	2.379877e-05	0.02216279	-0.02692242
2e+08	0.01830802	-0.0277131	3.476931e-05	0.0001389401	0.01327279	-0.005557312	-0.0002468235	0.0003469798
	3.476931e-05	0.0001389401	0.0186404	-0.02706531	4.086112e-06	5.519498e-06	0.01332586	-0.005224564
	0.01327279	-0.005557312	4.086112e-06	5.519498e-06	0.01848473	-0.02751757	1.051441e-05	2.036964e-05
	-0.0002468235	0.0003469798	0.01332586	-0.005224564	1.051441e-05	2.036964e-05	0.01865354	-0.02712755
2.1e+08	0.01480158	-0.0272762	4.355612e-05	0.000131994	0.01184665	-0.006298305	-0.0002419496	0.0003563416
	4.355612e-05	0.000131994	0.01518602	-0.0266946	4.077549e-06	5.113631e-06	0.01194178	-0.005954516
	0.01184665	-0.006298305	4.077549e-06	5.113631e-06	0.01498414	-0.02713459	1.180331e-05	1.671307e-05
	-0.0002419496	0.0003563416	0.01194178	-0.005954516	1.180331e-05	1.671307e-05	0.015191	-0.02675125
2.2e+08	0.01145671	-0.02627474	5.122749e-05	0.0001246768	0.01029529	-0.006732293	-0.0002375581	0.0003693785
	5.122749e-05	0.0001246768	0.01187874	-0.02576555	4.063716e-06	4.750654e-06	0.01043168	-0.006389943
	0.01029529	-0.006732293	4.063716e-06	4.750654e-06	0.01163707	-0.02618188	1.204563e-05	1.313964e-05
	-0.0002375581	0.0003693785	0.01043168	-0.006389943	1.204563e-05	1.313964e-05	0.01187738	-0.02581502
2.3e+08	0.008369873	-0.02474984	5.780083e-05	0.0001172512	0.008683316	-0.006841131	-0.0002325792	0.0003864143
	5.780083e-05	0.0001172512	0.008814276	-0.02431704	4.048331e-06	4.429208e-06	0.008857034	-0.006512157
	0.008683316	-0.006841131	4.048331e-06	4.429208e-06	0.008541788	-0.02469976	1.132925e-05	9.946148e-06
	-0.0002325792	0.0003864143	0.008857034	-0.006512157	1.132925e-05	9.946148e-06	0.008808659	-0.02435816
2.4e+08	0.005628055	-0.02275912	6.337481e-05	0.0001099553	0.00707755	-0.006620052	-0.0002258339	0.0004074926
	6.337481e-05	0.0001099553	0.006079089	-0.02240427	4.036424e-06	4.147396e-06	0.007281753	-0.00631515
	0.00707755	-0.006620051	4.036424e-06	4.147396e-06	0.005787014	-0.0227454	9.825556e-06	7.389212e-06
	-0.0002258339	0.0004074926	0.007281753	-0.00631515	9.825556e-06	7.389212e-06	0.006071516	-0.0224363
2.5e+08	0.003305935	-0.02037462	6.811571e-05	0.0001029781	0.005544242	-0.006077801	-0.0002161154	0.0004323474
	6.811571e-05	0.0001029781	0.00374772	-0.0200967	4.034066e-06	3.901918e-06	0.005769531	-0.005805808
	0.005544242	-0.006077801	4.034066e-06	3.901918e-06	0.003449114	-0.0203908	7.773565e-06	5.662392e-06
	-0.0002161154	0.0004323474	0.005769531	-0.005805808	7.773565e-06	5.662392e-06	0.003740599	-0.02011942
2.6e+08	0.00146351	-0.01768033	7.223717e-05	9.644327e-05	0.004146387	-0.005236231	-0.000202274	0.0004604033
	7.223717e-05	9.644327e-05	0.001880423	-0.01747565	4.047464e-06	3.687844e-06	0.004381296	-0.00500358
	0.004146387	-0.005236231	4.047464e-06	3.687844e-06	0.001589608	-0.01772015	5.458179e-06	4.879186e-06
	-0.000202274	0.0004604033	0.004381296	-0.00500358	5.458179e-06	4.879186e-06	0.001876165	-0.01748935
2.7e+08	0.0001442139	-0.01476923	7.597668e-05	9.039735e-05	0.002941164	-0.00412935	-0.000183301	0.0004907935
	7.597668e-05	9.039735e-05	0.0005213315	-0.01463146	4.082272e-06	3.498371e-06	0.003172745	-0.003939652
	0.002941164	-0.00412935	4.082272e-06	3.498371e-06	0.0002532664	-0.01482695	3.1843e-06	5.063132e-06
	-0.000183301	0.0004907935	0.003172745	-0.003939652	3.1843e-06	5.063132e-06	0.0005222496	-0.01463691
2.8e+08	-0.0006263985	-0.01174011	7.957027e-05	8.480779e-05	0.001977625	-0.002801874	-0.0001583989	0.0005224061
	7.957027e-05	8.480779e-05	-0.0003028185	-0.01166029	4.142779e-06	3.325117e-06	0.002192116	-0.00265563
	0.001977625	-0.002801874	4.142779e-06	3.325117e-06	-0.0005332385	-0.0118107	1.249465e-06	6.146155e-06
	-0.0001583989	0.0005224061	0.002192116	-0.00265563	1.249465e-06	6.146154e-06	-0.0002946087	-0.01165877
2.9e+08	-0.0008413312	-0.008694143	8.322762e-05	7.956696e-05	0.001294732	-0.001307355	-0.0001270424	0.0005539418
	8.322762e-05	7.956696e-05	-0.0005833762	-0.008660884	4.231286e-06	3.158445e-06	0.001478268	-0.001201817
	0.001294732	-0.001307355	4.231286e-06	3.158445e-06	-0.0007620447	-0.00877343	-8.292718e-08	7.974936e-06
	-0.0001270424	0.0005539418	0.001478268	-0.001201817	-8.292718e-08	7.974936e-06	-0.0005660634	-0.008654091
3e+08	-0.0005121925	-0.00573142	8.711004e-05	7.450385e-05	0.0009198133	0.0002940585	-8.902015e-05	0.0005839879
	8.711004e-05	7.450385e-05	-0.0003298353	-0.005731186	4.34763e-06	2.988074e-06	0.001059164	0.0003648634
	0.0009198133	0.0002940585	4.34763e-06	2.988074e-06	-0.0004441494	-0.005816192	-6.072544e-07	1.032491e-05
	-8.902015e-05	0.0005839879	0.001059164	0.0003648634	-6.072544e-07	1.032491e-05	-0.0003019918	-0.005721183
3.1e+08	0.0003314166	-0.002947569	9.131333e-05	6.940249e-05	0.0008675143	0.001938096	-4.445007e-05	0.0006111025
	9.131333e-05	6.940249e-05	0.0004307347	-0.002965021	4.488963e-06	2.803958e-06	0.0009507967	0.001983194
	0.0008675143	0.001938096	4.488963e-06	2.803958e-06	0.0003912008	-0.003035604	-1.937114e-07	1.292063e-05
	-4.445007e-05	0.0006111025	0.0009507967	0.001983194	-1.937114e-07	1.292063e-05	0.0004700792	-0.002954151
3.2e+08	0.001643124	-0.0004305197	9.585633e-05	6.402352e-05	0.001139267	0.003559012	6.220535e-06	0.0006338958
	9.585633e-05	6.402352e-05	0.001654848	-0.0004489837	4.649802e-06	2.59702e-06	0.00115661	0.003590145
	0.001139267	0.003559012	4.649802e-06	2.59702e-06	0.001697745	-0.0005205718	1.200031e-06	1.546031e-05
	6.220535e-06	0.0006338958	0.00115661	0.003590145	1.200031e-06	1.546031e-05	0.001706155	-0.0004397687
3.3e+08	0.003361592	0.001742403	0.000100677	5.812867e-05	0.001723303	0.005092256	6.223972e-05	0.0006511102
	0.000100677	5.812867e-05	0.003284322	0.001740407	4.822356e-06	2.359945e-06	0.001667431	0.005123422
	0.001723303	0.005092256	4.822356e-06	2.359945e-06	0.003414032	0.001650675	3.524997e-06	1.764278e-05
	6.223972e-05	0.0006511102	0.001667431	0.005123422	3.524997e-06	1.764278e-05	0.003347515	0.001745376
3.4e+08	0.005412816	0.003507006	0.0001056362	5.150555e-05	0.002595199	0.006477087	0.0001226004	0.0006616896
	0.0001056362	5.150555e-05	0.005248475	0.003539168	4.997149e-06	2.087856e-06	0.002461909	0.006523945
	0.002595199	0.006477087	4.997149e-06	2.087856e-06	0.005465757	0.003413145	6.645709e-06	1.919412e-05
	0.0001226004	0.0006616896	0.002461909	0.006523945	6.645709e-06	1.919412e-05	0.00532293	0.003537343
3.5e+08	0.007712844	0.004814251	0.0001105278	4.398964e-05	0.003718937	0.007659006	0.0001860964	0.0006648326
	0.0001105278	4.398964e-05	0.007466736	0.004897839	5.163758e-06	1.778674e-06	0.00350744	0.0077382
	0.003718937	0.007659006	5.163758e-06	1.778674e-06	0.007768513	0.004717143	1.034991e-05	1.989231e-05
	0.0001860964	0.0006648326	0.00350744	0.0077382	1.034991e-05	1.989231e-05	0.007551301	0.004886829
3.6e+08	0.01017082	0.005631741	0.0001150959	3.548263e-05	0.005048408	0.008591924	0.0002513932	0.0006600278
	0.0001150959	3.548263e-05	0.009851546	0.005782949	5.306587e-06	1.433755e-06	0.00476152	0.00872033
	0.005048408	0.008591924	5.306587e-06	1.433755e-06	0.01023086	0.005529776	1.491553e-05	1.934943e-05
	0.0002513932	0.0006600278	0.00476152	0.00872033	1.491553e-05	1.934943e-05	0.009944579	0.005760629
3.7e+08	0.01269219	0.005944594	0.0001190553	2.5965e-05	0.00652932	0.009239971	0.0003171162	0.0006470683
	0.0001190553	2.5965e-05	0.01231147	0.006177905	5.420042e-06	1.057275e-06	0.006173497	0.009433926
	0.00652932	0.009239971	5.420042e-06	1.057275e-06	0.01275763	0.005835845	1.954209e-05	1.757612e-05
	0.0003171162	0.0006470683	0.006173497	0.009433926	1.954209e-05	1.757612e-05	0.0124109	0.006142514
3.8e+08	0.01518207	0.005755707	0.0001221164	1.550176e-05	0.008101418	0.009578895	0.0003819167	0.0006260445
	0.0001221164	1.550176e-05	0.01475439	0.006083292	5.496899e-06	6.554226e-07	0.007686617	0.009853412
	0.008101418	0.009578895	5.496899e-06	6.554226e-07	0.01525326	0.005638114	2.37934e-05	1.464313e-05
	0.0003819167	0.0006260445	0.007686617	0.009853412	2.37934e-05	1.464313e-05	0.01485781	0.006033514
3.9e+08	0.0175485	0.005085399	0.0001240093	4.24107e-06	0.009700913	0.009596977	0.0004445446	0.0005973174
	0.0001240093	4.24107e-06	0.01709069	0.005516567	5.531059e-06	2.363145e-07	0.0092403	0.009965009
	0.009700913	0.009596977	5.531059e-06	2.363145e-07	0.01762514	0.004956931	2.736688e-05	1.067474e-05
	0.0004445446	0.0005973174	0.0092403	0.009965009	2.736688e-05	1.067474e-05	0.01719542	0.005451602
4e+08	0.01970561	0.003970444	0.0001245076	-7.594241e-06	0.01126305	0.009295462	0.0005039071	0.0005614769
	0.0001245076	-7.594241e-06	0.01923626	0.004511197	5.51894e-06	-1.907572e-07	0.01077255	0.009767226
	0.01126305	0.009295462	5.51894e-06	-1.907572e-07	0.01978679	0.003829271	3.000552e-05	5.875335e-06
	0.0005039071	0.0005614769	0.01077255	0.009767226	3.000552e-05	5.875335e-06	0.01933951	0.004430799
4.1e+08	0.02157651	0.002462557	0.0001234476	-1.972153e-05	0.01272471	0.008688458	0.0005591152	0.0005192836
	0.0001234476	-1.972153e-05	0.02111533	0.003115238	5.459641e-06	-6.161018e-07	0.01222239	0.00927087
	0.01272471	0.008688458	5.459641e-06	-6.161018e-07	0.02166082	0.002307185	3.151901e-05	5.127578e-07
	0.0005591152	0.0005192836	0.01222239	0.00927087	3.151901e-05	5.127578e-07	0.02121426	0.003019745
4.2e+08	0.02309581	0.0006263765	0.0001207438	-3.181823e-05	0.01402687	0.007802347	0.0006095088	0.0004716031
	0.0001207438	-3.181823e-05	0.02266294	0.001389457	5.354865e-06	-1.030391e-06	0.0135323	0.008498575
	0.01402687	0.007802347	5.354865e-06	-1.030391e-06	0.02318144	0.0004557554	3.179883e-05	-5.10338e-06
	0.0006095088	0.0004716031	0.0135323	0.008498575	3.179883e-05	-5.10338e-06	0.02275483	0.001279778
4.3e+08	0.02421177	-0.001462965	0.0001163969	-4.354519e-05	0.01511702	0.006674708	0.0006546622	0.0004193403
	0.0001163969	-4.354519e-05	0.023827	-0.0005949714	5.208619e-06	-1.425344e-06	0.01465041	0.00748388
	0.01511702	0.006674708	5.208619e-06	-1.425344e-06	0.02429667	-0.001649357	3.082646e-05	-1.06467e-05
	0.0006546622	0.0004193403	0.01465041	0.00748388	3.082646e-05	-1.06467e-05	0.02390933	-0.0007173723
4.4e+08	0.02488792	-0.003722622	0.0001104954	-5.457133e-05	0.01595117	0.005352802	0.0006943719	0.0003633742
	0.0001104954	-5.457133e-05	0.02456992	-0.002759078	5.02678e-06	-1.794275e-06	0.01553259	0.00626988
	0.01595117	0.005352802	5.02678e-06	-1.794275e-06	0.02496988	-0.003924739	2.867414e-05	-1.580046e-05
	0.0006943719	0.0003633742	0.01553259	0.00626988	2.867414e-05	-1.580046e-05	0.02464047	-0.002892239
4.5e+08	0.02510412	-0.006065028	0.0001032102	-6.459797e-05	0.01649565	0.003891687	0.0007286261	0.0003045061
	0.0001032102	-6.459797e-05	0.02486963	-0.005018953	4.816539e-06	-2.132496e-06	0.01614411	0.004907516
	0.01649565	0.003891687	4.816539e-06	-2.132496e-06	0.02518098	-0.006282245	2.549799e-05	-2.028289e-05
	0.0007286261	0.0003045061	0.01614411	0.004907516	2.549799e-05	-2.028289e-05	0.02492666	-0.005160483
4.6e+08	0.02485701	-0.008401043	9.478281e-05	-7.338134e-05	0.0167284	0.002352025	0.0007575434	0.0002435264
	9.478281e-05	-7.338134e-05	0.02472023	-0.007288735	4.58578e-06	-2.437548e-06	0.01646106	0.003453563
	0.0167284	0.002352025	4.58578e-06	-2.437548e-06	0.02492679	-0.008632186	2.152477e-05	-2.387046e-05
	0.0007575434	0.0002435264	0.01646106	0.003453563	2.152477e-05	-2.387046e-05	0.02476245	-0.007435904
4.7e+08	0.02415998	-0.01064311	8.542962e-05	-8.060117e-05	0.01663991	0.0007976681	0.0007827199	0.0001646644
	8.542962e-05	-8.060117e-05	0.02413186	-0.009483623	4.344012e-06	-2.709299e-06	0.0164712	0.001968386
	0.01663991	0.0007976681	4.344012e-06	-2.709299e-06	0.02422104	-0.01088651	1.696013e-05	-2.626454e-05
	0.0007827199	0.0001646644	0.0164712	0.001968386	1.696013e-05	-2.626454e-05	0.02415851	-0.009633474
4.8e+08	0.0230425	-0.01270831	7.557285e-05	-8.627552e-05	0.01623354	-0.0007068881	0.0007999158	8.234227e-05
