!$
! Info: Touchstone file created by Circ.  Input file=Tx_10in_Rx_93ohms_TxVia_10mils_RxVia_20mils.circ
!$
# Hz S RI R 50
0	0.009215936	6.386939e-26	-5.386285e-05	1.620275e-25	6.508257e-05	9.559134e-24	-5.386816e-05	4.654358e-25
	-5.386286e-05	1.624076e-25	0.009215257	9.171071e-26	-5.386268e-05	1.853697e-26	6.468643e-05	1.309144e-23
	6.319332e-05	9.424404e-24	-5.386268e-05	1.894945e-26	0.00922985	6.646269e-26	-5.386154e-05	3.600035e-25
	-5.386814e-05	4.633439e-25	6.614241e-05	1.347423e-23	-5.386151e-05	3.573391e-25	0.009220838	8.746129e-26
1e+07	0.01362558	-0.0004231996	-0.0002660823	-6.386028e-05	0.0003066444	0.001667106	-0.0001443389	0.0001297378
	-0.0002660823	-6.386028e-05	0.01341322	-0.001016818	-3.505156e-06	-8.076493e-06	0.0003195168	0.001827384
	0.0003066055	0.001667131	-3.505151e-06	-8.076495e-06	0.01268204	-0.0009085008	-1.479118e-05	1.053436e-06
	-0.0001443389	0.0001297378	0.0003195496	0.001827372	-1.479118e-05	1.05344e-06	0.01315211	-0.00102417
2e+07	0.01631892	-0.004573972	-0.0002704235	1.640381e-05	0.0008989724	0.0033209	-0.0001749235	0.0001551054
	-0.0002704235	1.64038e-05	0.01550009	-0.005413464	-4.359487e-06	-4.594121e-06	0.0008101127	0.00361985
	0.00089898	0.003320918	-4.359487e-06	-4.594125e-06	0.0150627	-0.00498656	-6.080152e-06	-2.575911e-05
	-0.0001749235	0.0001551054	0.0008101101	0.003619828	-6.08015e-06	-2.57591e-05	0.015303	-0.005336113
3e+07	0.01701526	-0.01013963	-0.000270305	6.225832e-05	0.001798027	0.004818583	-0.0001880028	0.0001833848
	-0.000270305	6.225832e-05	0.01572784	-0.0109064	-1.011427e-05	-6.228213e-06	0.001696466	0.005178522
	0.001798025	0.004818584	-1.011427e-05	-6.228214e-06	0.01553235	-0.01041387	-2.260153e-05	-2.964542e-05
	-0.0001880028	0.0001833849	0.001696461	0.005178519	-2.260153e-05	-2.964542e-05	0.01557861	-0.01081377
4e+07	0.01611016	-0.01596849	-0.000264836	0.0001039837	0.002968902	0.006099339	-0.0001910938	0.0002070738
	-0.000264836	0.0001039837	0.01445187	-0.0165263	-1.460982e-05	-5.080256e-06	0.002906326	0.006481857
	0.002968897	0.006099342	-1.460982e-05	-5.080256e-06	0.0144667	-0.01605255	-3.683522e-05	-2.718866e-05
	-0.0001910938	0.0002070738	0.002906326	0.006481858	-3.683522e-05	-2.718866e-05	0.01433903	-0.01643908
5e+07	0.01381087	-0.02159452	-0.0002549811	0.0001423959	0.004361195	0.007111786	-0.0001881345	0.0002251623
	-0.0002549811	0.0001423959	0.01187245	-0.02185405	-1.800913e-05	-2.456157e-06	0.004328315	0.007503177
	0.004361194	0.007111787	-1.800913e-05	-2.456157e-06	0.01206721	-0.02145457	-4.879271e-05	-2.057376e-05
	-0.0001881345	0.0002251623	0.004328315	0.007503178	-4.879271e-05	-2.057376e-05	0.0117846	-0.02178192
6e+07	0.01030595	-0.02669543	-0.0002517964	0.0001622175	0.005914757	0.007817282	-0.0001823948	0.0002371872
	-0.0002517964	0.0001622175	0.008178142	-0.02659517	-2.040242e-05	1.194017e-06	0.005902585	0.00820971
	0.005914758	0.00781728	-2.040242e-05	1.194017e-06	0.008520208	-0.02631128	-5.824262e-05	-1.078273e-05
	-0.0001823948	0.0002371872	0.005902581	0.008209711	-5.824262e-05	-1.078273e-05	0.00810554	-0.02654286
7e+07	0.005797041	-0.03102707	-0.0002469812	0.0001826882	0.007563177	0.00819109	-0.0001768913	0.0002429789
	-0.0002469812	0.0001826882	0.003572589	-0.03052664	-2.171406e-05	5.513611e-06	0.007563071	0.008580183
	0.007563177	0.008191084	-2.171406e-05	5.513612e-06	0.004026106	-0.03038966	-6.483639e-05	1.513057e-06
	-0.0001768913	0.0002429789	0.007563066	0.008580186	-6.483639e-05	1.513056e-06	0.003506205	-0.03049645
8e+07	0.0005036373	-0.03440665	-0.000240664	0.0002033703	0.009237146	0.008223243	-0.0001748295	0.000242849
	-0.000240664	0.0002033703	-0.001721694	-0.03348313	-2.188188e-05	1.029418e-05	0.009240551	0.008606611
	0.009237145	0.008223237	-2.188188e-05	1.029418e-05	-0.001196048	-0.03351607	-6.815645e-05	1.574302e-05
	-0.0001748295	0.000242849	0.009240546	0.008606615	-6.815645e-05	1.574302e-05	-0.00179082	-0.03347526
9e+07	-0.005341533	-0.03670824	-0.0002333114	0.0002237162	0.01086845	0.007919205	-0.0001800873	0.0002372757
	-0.0002333114	0.0002237162	-0.00746568	-0.03535223	-2.076493e-05	1.539898e-05	0.01086568	0.00829488
	0.01086845	0.007919201	-2.076493e-05	1.539898e-05	-0.0069116	-0.03557111	-6.764967e-05	3.142145e-05
	-0.0001800873	0.0002372757	0.01086567	0.008294884	-6.764967e-05	3.142145e-05	-0.007546363	-0.03536478
1e+08	-0.01151397	-0.03786958	-0.0002276078	0.0002419712	0.01240124	0.007304861	-0.0002029184	0.0002233312
	-0.0002276078	0.0002419712	-0.01339437	-0.03606349	-1.767955e-05	2.099763e-05	0.01237182	0.007664056
	0.01240124	0.007304861	-1.767955e-05	2.099763e-05	-0.0128716	-0.03648496	-6.156114e-05	4.877109e-05
	-0.0002029184	0.0002233312	0.01237182	0.007664056	-6.156114e-05	4.877109e-05	-0.01349717	-0.03609428
1.1e+08	-0.01777288	-0.03777042	-0.0002141952	0.0002514389	0.01372851	0.006438412	-0.0002142162	0.0001834136
	-0.0002141952	0.0002514389	-0.01925827	-0.03573876	-1.252252e-05	2.361637e-05	0.01369585	0.006748378
	0.01372851	0.006438413	-1.252252e-05	2.361637e-05	-0.01882931	-0.03629306	-4.957122e-05	5.930784e-05
	-0.0002142162	0.0001834136	0.01369585	0.006748378	-4.957122e-05	5.930784e-05	-0.01939184	-0.03576895
1.2e+08	-0.02378457	-0.03648955	-0.0001956501	0.0002629373	0.01481165	0.005310269	-0.0002229067	0.0001550443
	-0.0001956501	0.0002629373	-0.0249382	-0.03433056	-8.200516e-06	2.494135e-05	0.01478881	0.005592974
	0.01481165	0.005310269	-8.200516e-06	2.494135e-05	-0.02459373	-0.03498753	-3.848102e-05	6.656219e-05
	-0.0002229067	0.0001550443	0.01478881	0.005592974	-3.848102e-05	6.656219e-05	-0.02509588	-0.03435045
1.3e+08	-0.02934615	-0.03412743	-0.0001745654	0.0002739846	0.01561872	0.003984679	-0.000236334	0.0001336075
	-0.0001745654	0.0002739846	-0.0301922	-0.0318972	-4.178744e-06	2.553594e-05	0.01560864	0.004249935
	0.01561872	0.003984679	-4.178744e-06	2.553594e-05	-0.02993632	-0.03263855	-2.715516e-05	7.164524e-05
	-0.000236334	0.0001336075	0.01560864	0.004249935	-2.715516e-05	7.164524e-05	-0.03036917	-0.03190064
1.4e+08	-0.0342638	-0.03081028	-0.0001516008	0.0002837306	0.01612042	0.002524977	-0.0002549501	0.0001194277
	-0.0001516008	0.0002837306	-0.03482109	-0.02855371	-2.395601e-06	2.513867e-05	0.01612502	0.002778804
	0.01612042	0.002524977	-2.395601e-06	2.513867e-05	-0.03465898	-0.0293624	-1.561119e-05	7.470929e-05
	-0.0002549501	0.0001194277	0.01612502	0.002778804	-1.561119e-05	7.470929e-05	-0.03501214	-0.02853618
1.5e+08	-0.03837292	-0.02669615	-0.0001272532	0.000291637	0.01629927	0.0009976121	-0.0002778876	0.0001134193
	-0.0001272532	0.000291637	-0.03865953	-0.02445198	-6.003845e-07	2.467118e-05	0.01632029	0.001243584
	0.01629927	0.0009976123	-6.003845e-07	2.467118e-05	-0.0385955	-0.02531076	-4.075045e-06	7.578114e-05
	-0.0002778876	0.0001134193	0.01632029	0.001243584	-4.075045e-06	7.578114e-05	-0.038859	-0.02441041
1.6e+08	-0.04154467	-0.02196912	-0.0001019753	0.0002973772	0.01615095	-0.0005297115	-0.00030358	0.0001164215
	-0.0001019753	0.0002973772	-0.04157959	-0.01977192	1.201038e-06	2.411284e-05	0.01618999	-0.0002899445
	0.01615095	-0.0005297113	1.201038e-06	2.411284e-05	-0.04161614	-0.02066295	7.163944e-06	7.492794e-05
	-0.00030358	0.0001164215	0.01618999	-0.0002899445	7.163944e-06	7.492794e-05	-0.04178154	-0.01970469
1.7e+08	-0.04368999	-0.016832	-7.620596e-05	0.0003007695	0.01568444	-0.001990472	-0.0003300441	0.0001289239
	-7.620596e-05	0.0003007695	-0.04349398	-0.01471292	2.978838e-06	2.344796e-05	0.01574276	-0.001756858
	0.01568444	-0.001990472	2.978838e-06	2.344796e-05	-0.0436312	-0.01561784	1.779737e-05	7.227197e-05
	-0.0003300441	0.0001289239	0.01574276	-0.001756858	1.779737e-05	7.227197e-05	-0.04369242	-0.01461981
1.8e+08	-0.04476198	-0.01149822	-5.036459e-05	0.0003017533	0.01492154	-0.003321813	-0.0003550916	0.0001509306
	-5.036459e-05	0.0003017533	-0.04435802	-0.00948528	4.709119e-06	2.26706e-05	0.01499981	-0.003095615
	0.01492154	-0.003321813	4.709119e-06	2.26706e-05	-0.04459313	-0.01038553	2.753141e-05	6.800003e-05
	-0.0003550916	0.0001509306	0.01499981	-0.003095615	2.753141e-05	6.800003e-05	-0.04454719	-0.009367444
1.9e+08	-0.04475657	-0.006183623	-2.483637e-05	0.0003003705	0.01389589	-0.004466901	-0.0003765203	0.0001819076
	-2.483637e-05	0.0003003705	-0.04417012	-0.00430165	6.37246e-06	2.178135e-05	0.01399394	-0.004250397
	0.01389589	-0.004466901	6.37246e-06	2.178135e-05	-0.04449718	-0.005178918	3.611326e-05	6.235976e-05
	-0.0003765203	0.0001819076	0.01399394	-0.004250397	3.611326e-05	6.235976e-05	-0.04434473	-0.004161475
2e+08	-0.04371173	-0.001098264	4.298467e-08	0.0002967466	0.01265156	-0.005377038	-0.000392288	0.000220793
	4.298468e-08	0.0002967466	-0.04297081	0.0006313763	7.953452e-06	2.078529e-05	0.01276815	-0.005173196
	0.01265156	-0.005377038	7.953452e-06	2.078529e-05	-0.04338054	-0.0002054354	4.335086e-05	5.564746e-05
	-0.000392288	0.000220793	0.01276815	-0.005173196	4.335086e-05	5.564746e-05	-0.04312627	0.0007903964
2.1e+08	-0.04170527	0.003562069	2.399946e-05	0.0002910702	0.01123661	-0.006025551	-0.0004006665	0.0002660593
	2.399946e-05	0.0002910702	-0.04084024	0.00512121	9.437468e-06	1.968453e-05	0.01137388	-0.005825592
	0.01123661	-0.006025551	9.437468e-06	1.968453e-05	-0.04132016	0.004341473	4.912275e-05	4.813606e-05
	-0.0004006665	0.0002660593	0.01137388	-0.005825592	4.912275e-05	4.813606e-05	-0.04097287	0.00529466
2.2e+08	-0.03885057	0.007621854	4.682974e-05	0.0002835708	0.009707788	-0.006382453	-0.000400357	0.0003158169
	4.682974e-05	0.0002835708	-0.03789428	0.00899653	1.081452e-05	1.848899e-05	0.009868961	-0.006180171
	0.009707788	-0.006382453	1.081452e-05	1.848899e-05	-0.03842843	0.008288393	5.337025e-05	4.015753e-05
	-0.000400357	0.0003158169	0.009868961	-0.006180171	5.337025e-05	4.015753e-05	-0.03800147	0.009179287
2.3e+08	-0.03529203	0.01093165	6.840406e-05	0.0002744967	0.008134331	-0.006416872	-0.0003905722	0.0003679429
	6.840406e-05	0.0002744967	-0.03427942	0.01211362	1.208256e-05	1.721564e-05	0.008315388	-0.006221534
	0.008134331	-0.006416872	1.208256e-05	1.721564e-05	-0.0348487	0.01148777	5.613687e-05	3.210844e-05
	-0.0003905722	0.0003679429	0.008315388	-0.006221534	5.613687e-05	3.210844e-05	-0.03435972	0.0123001
2.4e+08	-0.03119945	0.01337517	8.866235e-05	0.0002640926	0.006582359	-0.006127353	-0.0003710807	0.0004202323
	8.866235e-05	0.0002640926	-0.03016656	0.01436163	1.323863e-05	1.587341e-05	0.00677689	-0.005946875
	0.006582359	-0.006127353	1.323863e-05	1.587341e-05	-0.03074959	0.01382502	5.754584e-05	2.428559e-05
	-0.0003710807	0.0004202323	0.00677689	-0.005946875	5.754584e-05	2.428559e-05	-0.03021977	0.01454603
2.5e+08	-0.02676076	0.01487254	0.0001076063	0.0002525806	0.005116865	-0.005525649	-0.0003421998	0.0004705479
	0.0001076063	0.0002525806	-0.02574394	0.01566643	1.428116e-05	1.447004e-05	0.00531644	-0.005366093
	0.005116865	-0.005525649	1.428116e-05	1.447004e-05	-0.02631779	0.01522178	5.778329e-05	1.693274e-05
	-0.0003421998	0.0004705479	0.00531644	-0.005366093	5.778329e-05	1.693274e-05	-0.02577112	0.01584302
2.6e+08	-0.02217458	0.01538293	0.0001252859	0.0002401441	0.003799117	-0.004636284	-0.0003047458	0.000516965
	0.0001252859	0.0002401441	-0.02120951	0.0159932	1.520892e-05	1.301198e-05	0.00399378	-0.004501424
	0.003799117	-0.004636284	1.520892e-05	1.301198e-05	-0.0217506	0.01563857	5.70807e-05	1.022613e-05
	-0.0003047458	0.000516965	0.00399378	-0.004501424	5.70807e-05	1.022613e-05	-0.02121297	0.01615651
2.7e+08	-0.01764231	0.01490566	0.0001417834	0.0002269173	0.0026842	-0.003495585	-0.0002599497	0.0005578911
	0.0001417834	0.0002269173	-0.01676302	0.0153472	1.60207e-05	1.150471e-05	0.002863024	-0.003386602
	0.0026842	-0.003495585	1.60207e-05	1.150471e-05	-0.01724799	0.01507584	5.569357e-05	4.26594e-06
	-0.0002599497	0.0005578911	0.002863024	-0.003386602	5.569357e-05	4.26594e-06	-0.01674617	0.01549236
2.8e+08	-0.01336022	0.01347978	0.0001571938	0.0002129801	0.00181875	-0.002150258	-0.0002093364	0.0005921601
	0.0001571938	0.0002129801	-0.01259801	0.01377329	1.671447e-05	9.953005e-06	0.001970467	-0.002065549
	0.00181875	-0.002150258	1.671447e-05	9.953005e-06	-0.01300475	0.01357365	5.387877e-05	-9.261238e-07
	-0.0002093364	0.0005921601	0.001970467	-0.002065549	5.387877e-05	-9.261238e-07	-0.01256526	0.01389627
2.9e+08	-0.009511786	0.01118217	0.0001716054	0.0001983585	0.00123901	-0.0006555138	-0.0001545908	0.0006190812
	0.0001716054	0.0001983585	-0.008894121	0.01135373	1.728713e-05	8.361429e-06	0.001352659	-0.0005906488
	0.00123901	-0.0006555138	1.728713e-05	8.361429e-06	-0.009202825	0.01120969	5.187191e-05	-5.402193e-06
	-0.0001545908	0.0006190812	0.001352659	-0.0005906488	5.187191e-05	-5.402193e-06	-0.008850687	0.01145147
3e+08	-0.006260539	0.008124053	0.0001850818	0.0001830315	0.0009692803	0.0009271848	-9.741417e-05	0.00063845
	0.0001850818	0.0001830315	-0.005810046	0.008204519	1.77344e-05	6.73496e-06	0.00103486	0.0009793683
	0.0009692803	0.0009271848	1.77344e-05	6.73496e-06	-0.006004126	0.008095782	4.986707e-05	-9.277227e-06
	-9.741417e-05	0.00063845	0.00103486	0.0009793682	4.986707e-05	-9.277227e-06	-0.005761721	0.00827511
3.1e+08	-0.003743749	0.004446295	0.0001976475	0.0001669436	0.001020839	0.002532663	-3.938139e-05	0.000650517
	0.0001976475	0.0001669436	-0.00347728	0.004470435	1.805108e-05	5.079626e-06	0.001029932	0.00258182
	0.001020839	0.002532663	1.805108e-05	5.079626e-06	-0.003544279	0.004373224	4.800088e-05	-1.271267e-05
	-3.938139e-05	0.000650517	0.001029932	0.00258182	4.800088e-05	-1.271267e-05	-0.003430185	0.004513216
3.2e+08	-0.00206719	0.0003134643	0.0002092774	0.0001500212	0.001391415	0.004094772	1.817639e-05	0.0006559149
	0.0002092774	0.0001500212	-0.001995054	0.000318899	1.823125e-05	3.402905e-06	0.001337753	0.00415268
	0.001391415	0.004094772	1.823125e-05	3.402905e-06	-0.001927383	0.0002067947	4.634202e-05	-1.589578e-05
	1.817639e-05	0.0006559149	0.001337753	0.00415268	4.634202e-05	-1.589578e-05	-0.001955373	0.0003345123
3.3e+08	-0.00130119	-0.004092981	0.000219892	0.0001321907	0.002065236	0.005549201	7.426481e-05	0.0006555562
	0.000219892	0.0001321907	-0.001426584	-0.004067003	1.826882e-05	1.714073e-06	0.001945177	0.005629263
	0.002065236	0.005549201	1.826882e-05	1.714073e-06	-0.001222084	-0.004222051	4.488774e-05	-1.901688e-05
	7.426481e-05	0.0006555562	0.001945177	0.005629263	4.488774e-05	-1.901688e-05	-0.001400285	-0.004076621
3.4e+08	-0.001478134	-0.008582151	0.0002293603	0.000113399	0.003013669	0.006836238	0.0001282879	0.0006505095
	0.0002293603	0.000113399	-0.001796819	-0.008496107	1.815805e-05	2.442663e-08	0.002826562	0.006952891
	0.003013669	0.006836238	1.815805e-05	2.442662e-08	-0.001459111	-0.008722651	4.356737e-05	-2.224683e-05
	0.0001282879	0.0006505095	0.002826562	0.006952891	4.356737e-05	-2.224683e-05	-0.001789383	-0.008527787
3.5e+08	-0.002591534	-0.01296151	0.000237507	9.363047e-05	0.004196434	0.007903339	0.0001800594	0.0006418639
	0.000237507	9.363047e-05	-0.003091768	-0.01277703	1.789407e-05	-1.652719e-06	0.003944853	0.00807138
	0.004196434	0.007903339	1.789407e-05	-1.652719e-06	-0.002630362	-0.01310292	4.225263e-05	-2.571644e-05
	0.0001800594	0.0006418639	0.003944853	0.00807138	4.225263e-05	-2.571644e-05	-0.003107939	-0.0128265
3.6e+08	-0.004596658	-0.01704465	0.0002441265	7.292207e-05	0.005563346	0.008707398	0.0002297814	0.0006305974
	0.0002441265	7.292207e-05	-0.005259432	-0.01672596	1.74735e-05	-3.302107e-06	0.005253176	0.008941268
	0.005563346	0.008707398	1.74735e-05	-3.302107e-06	-0.004689579	-0.01717712	4.077386e-05	-2.950033e-05
	0.0002297814	0.0006305974	0.005253176	0.008941268	4.077386e-05	-2.950033e-05	-0.005302993	-0.01678801
3.7e+08	-0.007412727	-0.02065876	0.0002490002	5.13727e-05	0.007056497	0.009216592	0.0002779773	0.0006174612
	0.0002490002	5.13727e-05	-0.00821228	-0.0201741	1.689491e-05	-4.906777e-06	0.006696856	0.009529638
	0.007056497	0.009216592	1.689491e-05	-4.906777e-06	-0.007554572	-0.02077333	3.894035e-05	-3.360661e-05
	0.0002779773	0.0006174612	0.006696856	0.009529638	3.894035e-05	-3.360661e-05	-0.008285869	-0.02024279
3.8e+08	-0.01092653	-0.02365142	0.0002519166	2.914705e-05	0.008612779	0.009411715	0.0003253969	0.0006028895
	0.0002519166	2.914705e-05	-0.01183115	-0.02297435	1.615937e-05	-6.4484e-06	0.00821579	0.009815477
	0.008612779	0.009411715	1.615937e-05	-6.4484e-06	-0.01111086	-0.02374023	3.656284e-05	-3.797344e-05
	0.0003253969	0.0006028895	0.00821579	0.009815477	3.656284e-05	-3.797344e-05	-0.01193614	-0.0230433
3.9e+08	-0.01499733	-0.02589657	0.0002526915	6.472835e-06	0.01016663	0.009286949	0.0003728986	0.0005869424
	0.0002526915	6.472835e-06	-0.01597042	-0.0250071	1.52709e-05	-7.907738e-06	0.009747024	0.009790498
	0.01016663	0.009286949	1.52709e-05	-7.907738e-06	-0.01521663	-0.02595302	3.347589e-05	-4.247274e-05
	0.0003728986	0.0005869424	0.009747024	0.009790498	3.347589e-05	-4.247274e-05	-0.0161068	-0.0250697
4e+08	-0.01946276	-0.02729922	0.0002511861	-1.636789e-05	0.01165285	0.008850027	0.000421318	0.0005692912
	0.0002511861	-1.636789e-05	-0.02046411	-0.02618474	1.423676e-05	-9.265231e-06	0.01122744	0.009459392
	0.01165285	0.008850027	1.423676e-05	-9.265231e-06	-0.01970862	-0.02731814	2.955792e-05	-4.692066e-05
	0.000421318	0.0005692912	0.01122744	0.009459392	2.955792e-05	-4.692066e-05	-0.02063055	-0.02623453
4.1e+08	-0.02414557	-0.02779898	0.0002473231	-3.90529e-05	0.0130094	0.008121804	0.0004713414	0.0005492401
	0.0002473231	-3.90529e-05	-0.02513288	-0.02645496	1.306776e-05	-1.050171e-05	0.01259642	0.008839513
	0.0130094	0.008121804	1.306776e-05	-1.050171e-05	-0.02440897	-0.02777677	2.474694e-05	-5.109366e-05
	0.0004713414	0.0005492401	0.01259642	0.008839513	2.474694e-05	-5.109366e-05	-0.02532668	-0.02648581
4.2e+08	-0.02886084	-0.02737208	0.0002410959	-6.123775e-05	0.01417998	0.00713526	0.0005233912	0.0005257873
	0.0002410959	-6.123775e-05	-0.02979126	-0.02580241	1.177832e-05	-1.159921e-05	0.01379834	0.007960032
	0.01417998	0.00713526	1.177832e-05	-1.159921e-05	-0.02913237	-0.02730676	1.905057e-05	-5.474848e-05
	0.0005233912	0.0005257873	0.01379834	0.007960032	1.905057e-05	-5.474848e-05	-0.03000852	-0.02580885
4.3e+08	-0.03342338	-0.02603194	0.0002325734	-8.257571e-05	0.01511636	0.005934003	0.0005775319	0.0004977202
	0.0002325734	-8.257571e-05	-0.03425522	-0.02424899	1.03863e-05	-1.254182e-05	0.01478483	0.006860594
	0.01511636	0.005934003	1.03863e-05	-1.254182e-05	-0.03369351	-0.02592321	1.254947e-05	-5.764417e-05
	0.0005775319	0.0004977202	0.01478483	0.006860594	1.254947e-05	-5.764417e-05	-0.03449095	-0.02422646
4.4e+08	-0.03765503	-0.02382828	0.0002218983	-0.0001027382	0.0157803	0.00457034	0.0006334117	0.0004637339
	0.0002218983	-0.0001027382	-0.03834943	-0.02185262	8.912612e-06	-1.331657e-05	0.01551664	0.005589576
	0.0157803	0.00457034	8.912612e-06	-1.331657e-05	-0.03791443	-0.02367753	5.39401e-06	-5.956394e-05
	0.0006334117	0.0004637339	0.01551664	0.005589576	5.39401e-06	-5.956394e-05	-0.03859779	-0.02179765
4.5e+08	-0.04139164	-0.02084482	0.0002092806	-0.0001214344	0.01614505	0.003103033	0.0006902143	0.0004226741
	0.0002092806	-0.0001214344	-0.04191414	-0.0187046	7.380587e-06	-1.39142e-05	0.01596521	0.004202015
	0.01614505	0.003103033	7.380587e-06	-1.39142e-05	-0.04163142	-0.02065505	-2.204778e-06	-6.033574e-05
	0.0006902143	0.0004226741	0.01596521	0.004202015	-2.204778e-06	-6.033574e-05	-0.04216868	-0.01861497
4.6e+08	-0.04448939	-0.01719571	0.0001948991	-0.0001383076	0.0161963	0.001594823	0.0007488374	0.0003573678
	0.0001948991	-0.0001383076	-0.04481139	-0.01492571	5.816423e-06	-1.432933e-05	0.01611361	0.002757318
	0.0161963	0.001594823	5.816423e-06	-1.432933e-05	-0.04470133	-0.01697146	-1.007128e-05	-5.972826e-05
	0.0007488374	0.0003573678	0.01611361	0.002757318	-1.007128e-05	-5.972826e-05	-0.04506532	-0.01480058
4.7e+08	-0.04683007	-0.01302076	0.000179151	-0.0001532689	0.01593269	0.0001098448	0.000802521	0.0002811638
	0.000179151	-0.0001532689	-0.04693021	-0.01066126	4.244853e-06	-1.45625e-05	0.01595717	0.001316835
	0.01593269	0.0001098448	4.244853e-06	-1.45625e-05	-0.04700701	-0.01276798	-1.783131e-05	-5.778528e-05
	0.000802521	0.0002811638	0.01595717	0.001316835	-1.783131e-05	-5.778528e-05	-0.04717665	-0.01050116
