!$
! Info: Touchstone file created by Circ.  Input file=Tx_14in_Rx_100ohms_TxVia_10mils_RxVia_20mils.circ
!$
# Hz S RI R 50
0	0.01446229	8.74312e-26	1.079401e-10	3.019999e-28	8.734481e-05	1.536552e-23	-4.982295e-09	6.102331e-25
	1.079519e-10	3.021799e-28	0.01446292	1.224269e-25	5.372463e-10	4.090634e-27	8.544085e-05	2.05954e-23
	8.604509e-05	1.497162e-23	5.371855e-10	4.097719e-27	0.01447736	9.153016e-26	-9.040839e-09	1.121026e-24
	-4.981423e-09	6.101263e-25	8.689486e-05	2.11976e-23	-9.041032e-09	1.121049e-24	0.01446844	1.167285e-25
1e+07	0.02134959	0.0081219	4.84968e-11	-3.284924e-11	0.0009769872	0.002453464	-5.110712e-09	1.729769e-08
	4.84968e-11	-3.284953e-11	0.02155883	0.008092489	6.71341e-10	1.045183e-09	0.0009725117	0.002451581
	0.0009769428	0.002453467	6.71341e-10	1.045184e-09	0.02157746	0.008091853	-6.516838e-09	1.725407e-08
	-5.110712e-09	1.729769e-08	0.0009725451	0.00245157	-6.516838e-09	1.725407e-08	0.02136417	0.008125242
2e+07	0.02817804	0.01044582	4.441327e-11	-3.377291e-11	0.001838663	0.004947261	-2.864795e-09	1.432559e-08
	4.441303e-11	-3.377297e-11	0.02830658	0.01032687	8.57801e-10	1.83569e-09	0.001822288	0.004947445
	0.001838652	0.004947289	8.578012e-10	1.835691e-09	0.02833654	0.01032171	-4.386349e-09	1.522974e-08
	-2.864795e-09	1.432559e-08	0.001822286	0.004947423	-4.386349e-09	1.522975e-08	0.02818622	0.01045199
3e+07	0.03389499	0.009695244	4.572103e-11	-7.033237e-11	0.003305387	0.006854893	1.684046e-09	1.285824e-08
	4.5721e-11	-7.033232e-11	0.03394822	0.009555709	9.343877e-10	2.58708e-09	0.003271677	0.006863694
	0.003305387	0.006854897	9.343878e-10	2.58708e-09	0.03399497	0.009539717	8.544243e-10	1.441724e-08
	1.684046e-09	1.285824e-08	0.003271672	0.006863692	8.544244e-10	1.441724e-08	0.03389365	0.009708062
4e+07	0.03863741	0.007174352	2.970453e-11	-1.014099e-10	0.005251909	0.00818626	5.075448e-09	1.041379e-08
	2.970451e-11	-1.0141e-10	0.03861947	0.007043581	9.819877e-10	3.359086e-09	0.005198217	0.008211984
	0.005251905	0.008186257	9.819877e-10	3.359086e-09	0.03868541	0.007008194	4.743536e-09	1.218177e-08
	5.075448e-09	1.041379e-08	0.005198216	0.008211986	4.743536e-09	1.218177e-08	0.03862288	0.007196763
5e+07	0.0422824	0.003366255	1.218008e-11	-1.22259e-10	0.00763341	0.008740444	7.171661e-09	7.923564e-09
	1.218003e-11	-1.22259e-10	0.04220118	0.003266837	1.018227e-09	4.1317e-09	0.007560304	0.008791917
	0.007633408	0.008740443	1.018227e-09	4.1317e-09	0.04228493	0.003202738	7.099218e-09	9.791278e-09
	7.171661e-09	7.923564e-09	0.007560304	0.008791918	7.099218e-09	9.791278e-09	0.0422523	0.003404733
6e+07	0.04469402	-0.001343907	1.308247e-11	-1.383091e-10	0.01002468	0.008622825	8.466067e-09	6.079951e-09
	1.308258e-11	-1.383091e-10	0.04456164	-0.001393877	1.039501e-09	4.8938e-09	0.00993627	0.008708621
	0.01002469	0.008622822	1.039501e-09	4.8938e-09	0.04465805	-0.001495253	8.385959e-09	8.045232e-09
	8.466067e-09	6.079951e-09	0.009936266	0.008708621	8.385959e-09	8.045232e-09	0.04464965	-0.001282268
7e+07	0.04577467	-0.006592524	1.127986e-10	-1.793666e-10	0.01224939	0.007863424	9.271563e-09	5.982145e-09
	1.12799e-10	-1.793667e-10	0.045607	-0.006579711	1.04379e-09	5.595015e-09	0.0121529	0.007990469
	0.01224941	0.007863418	1.043789e-09	5.595015e-09	0.04570763	-0.006724796	8.696786e-09	7.756074e-09
	9.271563e-09	5.982145e-09	0.0121529	0.007990471	8.696786e-09	7.756073e-09	0.04571981	-0.00650178
8e+07	0.04548927	-0.01202182	-1.130682e-09	-8.023386e-10	0.01414408	0.006536613	5.679041e-09	9.26255e-09
	-1.130682e-09	-8.023389e-10	0.04530496	-0.01193827	1.267677e-09	6.331787e-09	0.0140492	0.006709187
	0.01414409	0.006536603	1.267677e-09	6.331787e-09	0.04539901	-0.01213028	5.975773e-09	9.329126e-09
	5.679041e-09	9.262551e-09	0.01404919	0.006709191	5.975773e-09	9.329126e-09	0.04542947	-0.01189727
9e+07	0.04387603	-0.01728577	-1.106798e-10	-1.923724e-10	0.01556987	0.004756848	-4.901798e-10	3.799419e-09
	-1.106795e-10	-1.923729e-10	0.04369524	-0.01712936	1.259279e-09	7.342063e-09	0.01548778	0.00497583
	0.01556987	0.004756839	1.259279e-09	7.342063e-09	0.04377079	-0.01736762	4.176146e-10	5.905413e-09
	-4.901798e-10	3.799419e-09	0.01548778	0.004975834	4.176147e-10	5.905413e-09	0.04381858	-0.01712424
1e+08	0.0410626	-0.02206212	-6.803452e-11	-1.03905e-10	0.01641556	0.002669903	-1.900414e-10	3.100131e-10
	-6.803452e-11	-1.03905e-10	0.04090737	-0.02183659	1.168896e-09	8.242839e-09	0.0163578	0.00293235
	0.01641556	0.002669903	1.168896e-09	8.242839e-09	0.04095269	-0.02211624	-9.00234e-11	2.176189e-09
	-1.900414e-10	3.100131e-10	0.0163578	0.00293235	-9.00234e-11	2.176189e-09	0.04101642	-0.02186283
1.1e+08	0.03718279	-0.02617053	-6.942758e-11	-1.038772e-10	0.01664162	0.0004880151	-9.326591e-11	3.843705e-10
	-6.942758e-11	-1.038772e-10	0.03706807	-0.0258936	1.270015e-09	9.086597e-09	0.01661844	0.0007866693
	0.01664162	0.0004880153	1.270015e-09	9.086597e-09	0.03707324	-0.02620848	1.899526e-10	2.412911e-09
	-9.326591e-11	3.843705e-10	0.01661844	0.0007866692	1.899526e-10	2.412911e-09	0.03715689	-0.02593606
1.2e+08	0.03241402	-0.02926116	-5.992853e-11	-1.019884e-10	0.01626606	-0.001661273	2.15929e-11	4.268094e-10
	-5.992853e-11	-1.019884e-10	0.03234655	-0.02894545	1.400942e-09	9.917952e-09	0.01628595	-0.001336612
	0.01626606	-0.001661273	1.400942e-09	9.917952e-09	0.03230287	-0.02928207	5.240362e-10	2.570889e-09
	2.15929e-11	4.268094e-10	0.01628595	-0.001336612	5.240362e-10	2.570889e-09	0.03241702	-0.02899773
1.3e+08	0.0270746	-0.03115845	-4.443933e-11	-9.973701e-11	0.01531007	-0.003614076	1.480402e-10	4.326368e-10
	-4.443933e-11	-9.973701e-11	0.0270602	-0.03081868	1.55699e-09	1.072916e-08	0.01537812	-0.003276469
	0.01531007	-0.003614075	1.55699e-09	1.072916e-08	0.02696394	-0.03116104	8.824826e-10	2.634342e-09
	1.480402e-10	4.326368e-10	0.01537812	-0.003276469	8.824826e-10	2.634342e-09	0.027113	-0.03087521
1.4e+08	0.02148959	-0.03177264	-2.28837e-11	-9.746029e-11	0.01384906	-0.005218746	2.750107e-10	3.989044e-10
	-2.28837e-11	-9.746029e-11	0.02153024	-0.03142514	1.732602e-09	1.151318e-08	0.01396614	-0.004882967
	0.01384906	-0.005218746	1.732602e-09	1.151318e-08	0.02138295	-0.03175644	1.235973e-09	2.596503e-09
	2.750107e-10	3.989044e-10	0.01396614	-0.004882967	1.235973e-09	2.596503e-09	0.02156689	-0.03148094
1.5e+08	0.01598792	-0.03109735	6.089833e-12	-9.57529e-11	0.01199874	-0.006350635	3.90416e-10	3.263275e-10
	6.089833e-12	-9.57529e-11	0.01608093	-0.0307589	1.920538e-09	1.226474e-08	0.01216101	-0.006031778
	0.01199874	-0.006350635	1.920538e-09	1.226474e-08	0.01588941	-0.03106309	1.554578e-09	2.459599e-09
	3.90416e-10	3.263275e-10	0.01216101	-0.006031778	1.554578e-09	2.459599e-09	0.01610391	-0.0308097
1.6e+08	0.01088427	-0.02920728	4.454857e-11	-9.641565e-11	0.009905026	-0.006922194	4.827848e-10	2.193189e-10
	4.454857e-11	-9.641565e-11	0.01102205	-0.02889371	2.112299e-09	1.298056e-08	0.01010392	-0.006634184
	0.009905026	-0.006922194	2.112299e-09	1.298056e-08	0.01079798	-0.02915697	1.810122e-09	2.234334e-09
	4.827848e-10	2.193189e-10	0.01010392	-0.006634184	1.810122e-09	2.234334e-09	0.01103471	-0.02893619
1.7e+08	0.006460607	-0.02625165	9.434854e-11	-1.029976e-10	0.007732232	-0.00688984	5.424338e-10	8.55266e-11
	9.434854e-11	-1.029976e-10	0.006630969	-0.02597639	2.298569e-09	1.365959e-08	0.007954838	-0.006643965
	0.007732232	-0.00688984	2.298569e-09	1.365959e-08	0.006390132	-0.02618845	1.978237e-09	1.938894e-09
	5.424338e-10	8.55266e-11	0.007954838	-0.006643965	1.978237e-09	1.938894e-09	0.006637226	-0.02600831
1.8e+08	0.002949404	-0.02244329	1.559836e-10	-1.207873e-10	0.005649957	-0.006257213	5.62297e-10	-6.494368e-11
	1.559836e-10	-1.207873e-10	0.003136283	-0.02221599	2.469669e-09	1.430323e-08	0.005879919	-0.006060814
	0.005649957	-0.006257213	2.469669e-09	1.430323e-08	0.002897511	-0.02237133	2.039981e-09	1.597576e-09
	5.62297e-10	-6.494368e-11	0.005879919	-0.006060814	2.039981e-09	1.597576e-09	0.003140406	-0.02223635
1.9e+08	0.0005199616	-0.01804382	2.274915e-10	-1.561466e-10	0.003819706	-0.00507465	5.383975e-10	-2.20437e-10
	2.274915e-10	-1.561466e-10	0.0007045611	-0.01786926	2.616078e-09	1.491546e-08	0.004038451	-0.0049301
	0.003819706	-0.00507465	2.616078e-09	1.491546e-08	0.0004883113	-0.01796792	1.983039e-09	1.239281e-09
	5.383975e-10	-2.20437e-10	0.004038451	-0.0049301	1.983039e-09	1.239281e-09	0.0007108171	-0.01787827
2e+08	-0.0007312345	-0.01334597	3.037604e-10	-2.152608e-10	0.002382274	-0.003434928	4.700145e-10	-3.686371e-10
	3.037604e-10	-2.152608e-10	-0.0005689613	-0.01322324	2.729094e-09	1.550298e-08	0.002570545	-0.003339008
	0.002382274	-0.003434928	2.729094e-09	1.550298e-08	-0.0007422376	-0.0132713	1.802612e-09	8.95922e-10
	4.700145e-10	-3.686371e-10	0.002570545	-0.003339008	1.802612e-09	8.95922e-10	-0.0005566081	-0.01322232
2.1e+08	-0.0007853041	-0.008653945	3.765187e-10	-3.02556e-10	0.001446875	-0.00146569	3.596445e-10	-4.973528e-10
	3.765187e-10	-3.02556e-10	-0.000664954	-0.008576193	2.80166e-09	1.607522e-08	0.001586428	-0.001409444
	0.001446875	-0.00146569	2.80166e-09	1.607522e-08	-0.0007765843	-0.008585674	1.502092e-09	6.00765e-10
	3.596445e-10	-4.973528e-10	0.001586428	-0.001409444	1.502092e-09	6.00765e-10	-0.0006431557	-0.008567795
2.2e+08	0.0002993584	-0.00426339	4.351294e-10	-4.191652e-10	0.001082891	0.0006808065	2.128623e-10	-5.951985e-10
	4.351294e-10	-4.191652e-10	0.0003604047	-0.004217992	2.829291e-09	1.664395e-08	0.001158203	0.0007117094
	0.001082891	0.0006808066	2.829291e-09	1.664395e-08	0.0003255693	-0.004206371	1.093566e-09	3.86575e-10
	2.128623e-10	-5.951985e-10	0.001158203	0.0007117094	1.093566e-09	3.86575e-10	0.0003941214	-0.004205444
2.3e+08	0.00239252	-0.0004421921	4.681064e-10	-5.618473e-10	0.001314837	0.002839758	3.814005e-11	-6.522269e-10
	4.681064e-10	-5.618473e-10	0.002380778	-0.0004114956	2.810981e-09	1.722259e-08	0.001314674	0.002864153
	0.001314837	0.002839758	2.810981e-09	1.722259e-08	0.002432794	-0.0004006032	5.980341e-10	2.834744e-10
	3.814005e-11	-6.522269e-10	0.001314674	0.002864153	5.980341e-10	2.834744e-10	0.002427811	-0.0003986944
2.4e+08	0.005302228	0.002586566	4.650681e-10	-7.226865e-10	0.002120898	0.004846702	-1.533863e-10	-6.605908e-10
	4.650681e-10	-7.226865e-10	0.00520954	0.002624022	2.7499e-09	1.782511e-08	0.002039593	0.004886607
	0.002120898	0.004846702	2.7499e-09	1.782511e-08	0.005352131	0.002609515	4.513441e-11	3.164744e-10
	-1.533863e-10	-6.605908e-10	0.002039593	0.004886607	4.513441e-11	3.164744e-10	0.005270092	0.002632927
2.5e+08	0.008788865	0.004658336	4.187039e-10	-8.89708e-10	0.003435063	0.006550208	-3.482773e-10	-6.152753e-10
	4.187039e-10	-8.89708e-10	0.008613451	0.004726197	2.653686e-09	1.846461e-08	0.003273386	0.006629149
	0.003435063	0.006550208	2.653686e-09	1.846461e-08	0.008843227	0.004660653	-5.278791e-10	5.028027e-10
	-3.482773e-10	-6.152753e-10	0.003273386	0.006629149	-5.278791e-10	5.028027e-10	0.008686501	0.004727153
2.6e+08	0.01258211	0.005676661	3.263197e-10	-1.048335e-09	0.005152632	0.007823393	-5.313917e-10	-5.148773e-10
	3.263197e-10	-1.048335e-09	0.01232911	0.005798857	2.534169e-09	1.915173e-08	0.004918149	0.007964505
	0.005152632	0.007823393	2.534169e-09	1.915173e-08	0.01263536	0.005657743	-1.078124e-09	8.493126e-10
	-5.313917e-10	-5.148773e-10	0.00491815	0.007964505	-1.078124e-09	8.493126e-10	0.01241249	0.005788246
2.7e+08	0.01639962	0.005617983	1.906124e-10	-1.18339e-09	0.007138601	0.008573406	-6.868227e-10	-3.623188e-10
	1.906124e-10	-1.18339e-09	0.01608108	0.005816699	2.406498e-09	1.989319e-08	0.006845471	0.008797465
	0.007138601	0.008573406	2.406498e-09	1.989319e-08	0.01644613	0.005578701	-1.5601e-09	1.350398e-09
	-6.868227e-10	-3.623188e-10	0.006845471	0.008797465	-1.5601e-09	1.350398e-09	0.01617162	0.005791652
2.8e+08	0.01996608	0.004531482	1.951095e-11	-1.28123e-09	0.009238231	0.008748219	-7.991958e-10	-1.653145e-10
	1.951095e-11	-1.28123e-09	0.01960032	0.004825178	2.287711e-09	2.069072e-08	0.008906434	0.009071765
	0.009238231	0.008748219	2.287711e-09	2.069072e-08	0.0200006	0.00447417	-1.929582e-09	1.986876e-09
	-7.991958e-10	-1.653145e-10	0.008906434	0.009071765	-1.929582e-09	1.986876e-09	0.01969414	0.00478384
2.9e+08	0.02303139	0.002534071	-1.74847e-10	-1.331563e-09	0.01128898	0.00834026	-8.552467e-10	6.360286e-11
	-1.74847e-10	-1.331563e-09	0.02264186	0.002935715	2.194958e-09	2.154058e-08	0.01094303	0.008773981
	0.01128898	0.00834026	2.194958e-09	2.154058e-08	0.02304939	0.002462402	-2.148006e-09	2.726248e-09
	-8.552467e-10	6.360286e-11	0.01094303	0.008773981	-2.148006e-09	2.726248e-09	0.02273463	0.002877408
3e+08	0.02538683	-0.0001990222	-3.77735e-10	-1.32861e-09	0.01313292	0.007386682	-8.454935e-10	3.076582e-10
	-3.77735e-10	-1.32861e-09	0.02500041	0.0003166571	2.143625e-09	2.243372e-08	0.01280009	0.007934199
	0.01313292	0.007386682	2.143625e-09	2.243372e-08	0.02538487	-0.000280252	-2.186779e-09	3.524529e-09
	-8.454935e-10	3.076582e-10	0.01280009	0.007934199	-2.186779e-09	3.524529e-09	0.02508775	0.0002419694
3.1e+08	0.02687806	-0.00344734	-5.736717e-10	-1.271449e-09	0.01462867	0.005966289	-7.657315e-10	5.470714e-10
	-5.736717e-10	-1.271449e-09	0.02652305	-0.002819307	2.145657e-09	2.335665e-08	0.01433698	0.006623457
	0.01462867	0.005966289	2.145657e-09	2.335665e-08	0.02685405	-0.003532523	-2.030903e-09	4.329619e-09
	-7.657315e-10	5.470714e-10	0.01433698	0.006623457	-2.030903e-09	4.329619e-09	0.02660085	-0.002908541
3.2e+08	0.02741427	-0.006961053	-7.480506e-10	-1.163609e-09	0.01566205	0.004193367	-6.1806e-10	7.608762e-10
	-7.480506e-10	-1.163609e-09	0.02711812	-0.006230401	2.208326e-09	2.429287e-08	0.01543802	0.004948182
	0.01566205	0.004193367	2.208326e-09	2.429287e-08	0.02736768	-0.007044152	-1.681289e-09	5.085856e-09
	-6.1806e-10	7.608762e-10	0.01543802	0.004948182	-1.681289e-09	5.085856e-09	0.02718294	-0.006331222
3.3e+08	0.02697297	-0.01047846	-8.88278e-10	-1.012138e-09	0.01615468	0.002208892	-4.111966e-10	9.291082e-10
	-8.88278e-10	-1.012138e-09	0.02676001	-0.009662598	2.333598e-09	2.522454e-08	0.01602111	0.00304203
	0.01615468	0.002208892	2.333598e-09	2.522454e-08	0.02690489	-0.01055342	-1.155388e-09	5.739209e-09
	-4.111966e-10	9.291082e-10	0.01602111	0.00304203	-1.155388e-09	5.739209e-09	0.02680932	-0.009771145
3.4e+08	0.02560005	-0.01374394	-9.842958e-10	-8.265135e-10	0.01606983	0.0001697593	-1.599479e-10	1.035045e-09
	-9.842958e-10	-8.265135e-10	0.02548932	-0.01286696	2.518156e-09	2.613424e-08	0.0160438	0.001055733
	0.01606983	0.0001697593	2.518156e-09	2.613424e-08	0.02551319	-0.01380517	-4.860028e-10	6.242407e-09
	-1.599479e-10	1.035045e-09	0.0160438	0.001055733	-4.860028e-10	6.242407e-09	0.02552178	-0.01297876
3.5e+08	0.02340532	-0.01652531	-1.028564e-09	-6.177321e-10	0.01541518	-0.001763189	1.161336e-10	1.067135e-09
	-1.028564e-09	-6.177321e-10	0.02340877	-0.01561635	2.753974e-09	2.700647e-08	0.0155064	-0.0008543152
	0.01541518	-0.001763189	2.753974e-09	2.700647e-08	0.02330383	-0.01656806	2.815514e-10	6.559316e-09
	1.161336e-10	1.067135e-09	0.0155064	-0.0008543152	2.815514e-10	6.559316e-09	0.02342433	-0.01572666
3.6e+08	0.02055378	-0.0186292	-1.015769e-09	-3.978075e-10	0.01424225	-0.003437453	3.947222e-10	1.020313e-09
	-1.015769e-09	-3.978075e-10	0.02067493	-0.01772033	3.029298e-09	2.782879e-08	0.01445187	-0.00253791
	0.01424225	-0.003437453	3.029298e-09	2.782879e-08	0.02044301	-0.01864994	1.093498e-09	6.668053e-09
	3.947222e-10	1.020313e-09	0.01445187	-0.00253791	1.093498e-09	6.668053e-09	0.02067489	-0.01782454
3.7e+08	0.01725328	-0.01991369	-9.425889e-10	-1.797176e-10	0.01264242	-0.004720568	6.530088e-10	8.96488e-10
	-9.425889e-10	-1.797176e-10	0.01748655	-0.01903751	3.329788e-09	2.85925e-08	0.01296257	-0.003862437
	0.01264242	-0.004720568	3.329788e-09	2.85925e-08	0.01713938	-0.01991045	1.892259e-09	6.562532e-09
	6.530088e-10	8.96488e-10	0.01296257	-0.003862437	1.892259e-09	6.562532e-09	0.01747349	-0.01913151
3.8e+08	0.0137394	-0.02029727	-8.078075e-10	2.236848e-11	0.01073999	-0.005510299	8.69943e-10	7.041794e-10
	-8.078075e-10	2.236848e-11	0.01407009	-0.01948428	3.639651e-09	2.929288e-08	0.01115393	-0.004722965
	0.01073999	-0.005510299	3.639651e-09	2.929288e-08	0.01362895	-0.02026977	2.6211e-09	6.252433e-09
	8.69943e-10	7.041794e-10	0.01115393	-0.004722965	2.6211e-09	6.252433e-09	0.01404768	-0.01956478
3.9e+08	0.01025865	-0.01976346	-6.129338e-10	1.929053e-10	0.008682553	-0.005742557	1.028096e-09	4.574225e-10
	-6.129338e-10	1.929053e-10	0.0106637	-0.01903954	3.942616e-09	2.99292e-08	0.009165598	-0.00505026
	0.008682553	-0.005742557	3.942616e-09	2.99292e-08	0.01015811	-0.01971324	3.228239e-09	5.761883e-09
	1.028096e-09	4.574225e-10	0.009165598	-0.00505026	3.228239e-09	5.761883e-09	0.01063642	-0.01910438
4e+08	0.007051005	-0.01836101	-3.632504e-10	3.151981e-10	0.00662967	-0.005396385	1.114919e-09	1.742118e-10
	-3.632504e-10	3.151981e-10	0.007500475	-0.01774509	4.222707e-09	3.050452e-08	0.007150766	-0.004816074
	0.00662967	-0.005396385	4.222707e-09	3.050452e-08	0.006966271	-0.01829128	3.670103e-09	5.127212e-09
	1.114919e-09	1.742118e-10	0.007150766	-0.004816074	3.670103e-09	5.127212e-09	0.007473307	-0.01779346
4.1e+08	0.004333191	-0.01619938	-6.900019e-11	3.723386e-10	0.004740457	-0.004495603	1.123333e-09	-1.252088e-10
	-6.900019e-11	3.723386e-10	0.004792322	-0.01570168	4.464894e-09	3.102553e-08	0.005264344	-0.004035273
	0.004740457	-0.004495603	4.464894e-09	3.102553e-08	0.004269146	-0.01611491	3.913664e-09	4.394266e-09
	1.123333e-09	-1.252088e-10	0.005264344	-0.004035273	3.913664e-09	4.394266e-09	0.004770334	-0.01573416
4.2e+08	0.002283745	-0.01344017	2.537289e-10	3.489391e-10	0.003161253	-0.003106956	1.051736e-09	-4.199258e-10
	2.537289e-10	3.489391e-10	0.002715529	-0.01306096	4.655707e-09	3.150239e-08	0.003651056	-0.002764638
	0.003161253	-0.003106956	4.655707e-09	3.150239e-08	0.002243846	-0.01334691	3.937976e-09	3.61559e-09
	1.051736e-09	-4.199258e-10	0.003651056	-0.002764638	3.937976e-09	3.61559e-09	0.002703478	-0.01307956
4.3e+08	0.001030951	-0.01028482	5.82887e-10	2.335071e-10	0.002014247	-0.001334904	9.036294e-10	-6.896308e-10
	5.82887e-10	2.335071e-10	0.001398977	-0.01001399	4.783962e-09	3.194863e-08	0.002434297	-0.001098394
	0.002014247	-0.001334904	4.783962e-09	3.194863e-08	0.001016962	-0.01018952	3.735139e-09	2.847673e-09
	9.036294e-10	-6.896308e-10	0.002434297	-0.001098394	3.735139e-09	2.847673e-09	0.001400928	-0.01002201
4.4e+08	0.0006445206	-0.00695974	8.914669e-10	2.103846e-11	0.001388019	0.0006865512	6.870966e-10	-9.155589e-10
	8.914669e-10	2.103846e-11	0.0009158827	-0.006777188	4.841644e-09	3.238084e-08	0.001706692	0.0008391493
	0.001388019	0.0006865512	4.841644e-09	3.238084e-08	0.0006563265	-0.00686944	3.310915e-09	2.14822e-09
	6.870966e-10	-9.155589e-10	0.001706692	0.0008391493	3.310915e-09	2.14822e-09	0.0009348605	-0.00677895
4.5e+08	0.001131537	-0.0036998	1.149731e-09	-2.847447e-10	0.001330729	0.002804333	4.143163e-10	-1.081192e-09
	1.149731e-09	-2.847447e-10	0.001279572	-0.003576616	4.824922e-09	3.281813e-08	0.001523073	0.002903284
	0.001330729	0.002804333	4.824922e-09	3.281813e-08	0.001167122	-0.003621329	2.68509e-09	1.573305e-09
	4.143163e-10	-1.081192e-09	0.001523073	0.002903284	2.68509e-09	1.573305e-09	0.001317305	-0.003577185
4.6e+08	0.002436963	-0.0007314836	1.328453e-09	-6.701138e-10	0.001846495	0.00485821	1.011668e-10	-1.172905e-09
	1.328453e-09	-6.701138e-10	0.002443574	-0.0006318841	4.735149e-09	3.328108e-08	0.001896423	0.004940115
	0.001846495	0.00485821	4.735149e-09	3.328108e-08	0.002492503	-0.0006709386	1.891449e-09	1.174206e-09
	1.011668e-10	-1.172905e-09	0.001896423	0.004940115	1.891449e-09	1.174206e-09	0.002500327	-0.0006366607
4.7e+08	0.004448578	0.0017431	1.402682e-09	-1.111435e-09	0.002895224	0.006693215	-2.331417e-10	-1.180702e-09
	1.402682e-09	-1.111435e-09	0.004305944	0.001859237	4.579601e-09	3.379028e-08	0.002797087	0.006798411
	0.002895224	0.006693215	4.579601e-09	3.379028e-08	0.004518663	0.001780832	9.771466e-10	9.939071e-10
	-2.331417e-10	-1.180702e-09	0.002797087	0.006798411	9.771466e-10	9.939071e-10	0.00438053	0.001844918
4.8e+08	0.007005766	0.003560217	1.355368e-09	-1.576867e-09	0.004395867	0.008171584	-5.66597e-10	-1.099171e-09
