!$
! Info: Touchstone file created by Circ.  Input file=Tx_14in_Rx_85ohms_TxVia_10mils_RxVia_20mils.circ
!$
# Hz S RI R 50
0	0.01125987	8.557799e-26	-7.528093e-05	1.356685e-25	8.644637e-05	1.169111e-23	-7.528621e-05	4.504221e-25
	-7.528094e-05	1.361999e-25	0.01125916	1.232961e-25	-7.528017e-05	-8.718274e-27	8.604754e-05	1.601404e-23
	8.455728e-05	1.15263e-23	-7.528017e-05	-8.141891e-27	0.01127367	8.904801e-26	-7.52789e-05	3.332707e-25
	-7.528619e-05	4.475871e-25	8.750275e-05	1.648228e-23	-7.527887e-05	3.295469e-25	0.01126472	1.175534e-25
1e+07	0.01566628	-0.01374943	-0.000326561	-2.183136e-05	0.0004437113	0.002447089	-0.0002094482	0.0001546913
	-0.000326561	-2.183136e-05	0.0137946	-0.01383891	-1.079524e-05	-2.06496e-05	0.0005464651	0.00244979
	0.0004436727	0.002447115	-1.079524e-05	-2.064961e-05	0.01381751	-0.01407859	-6.992502e-05	-1.859224e-05
	-0.0002094482	0.0001546913	0.0005464979	0.002449778	-6.992502e-05	-1.859223e-05	0.01376532	-0.01382895
2e+07	0.01280867	-0.03145243	-0.000288864	4.753471e-05	0.001497379	0.004675115	-0.0001851143	0.0001583269
	-0.000288864	4.75347e-05	0.0111795	-0.0309157	-8.955777e-06	-4.759412e-06	0.001633159	0.004588022
	0.001497387	0.004675133	-8.955776e-06	-4.759415e-06	0.01096979	-0.03128753	-6.066543e-05	1.413588e-05
	-0.0001851143	0.0001583269	0.001633155	0.004588	-6.066543e-05	1.413588e-05	0.01116208	-0.0308828
3e+07	0.003799582	-0.04837938	-0.0002735296	4.75567e-05	0.003177336	0.006390981	-0.0001398361	0.0001780001
	-0.0002735296	4.75567e-05	0.00237163	-0.04756382	-7.766966e-06	-7.529366e-08	0.003248783	0.006291484
	0.003177334	0.006390982	-7.766965e-06	-7.529411e-08	0.002002405	-0.04793425	-6.00035e-05	1.171291e-05
	-0.0001398361	0.0001780001	0.003248778	0.006291482	-6.00035e-05	1.171291e-05	0.002364101	-0.04751902
4e+07	-0.009992534	-0.06217651	-0.0002604906	5.902295e-05	0.005230733	0.007523038	-8.68826e-05	0.0001776508
	-0.0002604906	5.902295e-05	-0.01123365	-0.06116367	-6.479867e-06	2.683752e-06	0.005241852	0.007437425
	0.005230728	0.007523042	-6.479867e-06	2.683752e-06	-0.01170974	-0.06148996	-5.97648e-05	1.390558e-05
	-8.68826e-05	0.0001776508	0.005241852	0.007437427	-5.97648e-05	1.390558e-05	-0.01123406	-0.06111166
5e+07	-0.02715574	-0.07156781	-0.0002474671	7.53923e-05	0.007470919	0.008004465	-3.879908e-05	0.000153086
	-0.0002474671	7.53923e-05	-0.02821773	-0.07040004	-5.06425e-06	4.578344e-06	0.007429303	0.007952842
	0.007470917	0.008004467	-5.06425e-06	4.578344e-06	-0.0287575	-0.07066525	-5.904127e-05	1.855276e-05
	-3.879908e-05	0.000153086	0.007429303	0.007952842	-5.904127e-05	1.855276e-05	-0.02821392	-0.07034115
6e+07	-0.0461458	-0.07583232	-0.0002329169	9.411763e-05	0.009702002	0.007825033	-7.272968e-06	0.0001076127
	-0.0002329169	9.411763e-05	-0.04703135	-0.07453746	-3.523351e-06	5.922161e-06	0.009619239	0.007823274
	0.009702003	0.007825031	-3.523351e-06	5.922161e-06	-0.04759991	-0.07473875	-5.715402e-05	2.461484e-05
	-7.272967e-06	0.0001076127	0.009619236	0.007823275	-5.715402e-05	2.461484e-05	-0.04702426	-0.0744709
7e+07	-0.06537295	-0.07474771	-0.0002158233	0.000113548	0.0117391	0.007030736	-1.243874e-06	4.952857e-05
	-0.0002158233	0.000113548	-0.06608041	-0.07334812	-2.632859e-06	6.25365e-06	0.01163021	0.007090219
	0.0117391	0.00703073	-2.63286e-06	6.25365e-06	-0.06665062	-0.07349043	-5.37035e-05	3.125054e-05
	-1.243873e-06	4.952857e-05	0.0116302	0.007090222	-5.37035e-05	3.125054e-05	-0.06607022	-0.07327323
8e+07	-0.08331492	-0.06855128	-0.0001955762	0.0001323034	0.01342418	0.005715461	-2.558413e-05	-9.82752e-06
	-0.0001955762	0.0001323034	-0.08383958	-0.06706873	-2.091325e-06	6.244587e-06	0.01330663	0.005842567
	0.01342418	0.005715455	-2.091326e-06	6.244587e-06	-0.08439065	-0.06716048	-4.857262e-05	3.768872e-05
	-2.558412e-05	-9.82752e-06	0.01330662	0.005842572	-4.857262e-05	3.768872e-05	-0.08382614	-0.06698461
9e+07	-0.09862397	-0.05788279	-0.0001717759	0.0001491755	0.01463691	0.004008829	-8.08844e-05	-5.81714e-05
	-0.0001717759	0.0001491755	-0.09896031	-0.05634164	-1.545907e-06	6.219483e-06	0.01452954	0.004204642
	0.01463691	0.004008825	-1.545908e-06	6.219484e-06	-0.09947463	-0.05639147	-4.18809e-05	4.327608e-05
	-8.08844e-05	-5.81714e-05	0.01452954	0.004204646	-4.18809e-05	4.327608e-05	-0.09894262	-0.05624716
1e+08	-0.1102155	-0.04370791	-0.0001427922	0.0001633739	0.01530139	0.002062954	-0.0001679769	-8.497412e-05
	-0.0001427922	0.0001633739	-0.1103628	-0.04213763	-1.053812e-06	6.136086e-06	0.01522496	0.002323859
	0.01530139	0.002062954	-1.053812e-06	6.136086e-06	-0.1108107	-0.04214932	-3.374195e-05	4.758501e-05
	-0.0001679769	-8.497412e-05	0.01522496	0.002323859	-3.374195e-05	4.758501e-05	-0.110339	-0.04203217
1.1e+08	-0.1173307	-0.02723447	-0.0001133263	0.0001798432	0.01538271	3.219238e-05	-0.0002647851	-0.0001003538
	-0.0001133263	0.0001798432	-0.1172879	-0.0256496	-5.169292e-07	5.879276e-06	0.01535417	0.0003373117
	0.01538271	3.219248e-05	-5.169292e-07	5.879276e-06	-0.1176593	-0.02570364	-2.523126e-05	5.098408e-05
	-0.0002647851	-0.0001003538	0.01535417	0.0003373116	-2.523126e-05	5.098408e-05	-0.1172551	-0.02553351
1.2e+08	-0.1195732	-0.009784066	-8.480279e-05	0.0001910879	0.01488584	-0.001916589	-0.0003571645	-7.801391e-05
	-8.480279e-05	0.0001910879	-0.1193311	-0.008221703	1.447537e-08	5.601599e-06	0.01490968	-0.001582912
	0.01488584	-0.001916589	1.447536e-08	5.601599e-06	-0.1196742	-0.008323678	-1.687948e-05	5.248975e-05
	-0.0003571645	-7.801391e-05	0.01490968	-0.001582912	-1.687948e-05	5.248975e-05	-0.1192859	-0.008097183
1.3e+08	-0.1169231	0.007268857	-5.621126e-05	0.0001977141	0.01386267	-0.003633492	-0.0004387597	-2.108673e-05
	-5.621126e-05	0.0001977141	-0.1164869	0.008765528	4.877086e-07	5.289059e-06	0.01394148	-0.00328781
	0.01386267	-0.003633492	4.877086e-07	5.289059e-06	-0.1168247	0.008626562	-8.953319e-06	5.234495e-05
	-0.0004387597	-2.108673e-05	0.01394148	-0.00328781	-8.953319e-06	5.234495e-05	-0.1164273	0.008894945
1.4e+08	-0.1097278	0.02261161	-2.801787e-05	0.0001999819	0.01239861	-0.00498835	-0.0004995828	6.470276e-05
	-2.801787e-05	0.0001999819	-0.1091159	0.02399831	8.854459e-07	4.957517e-06	0.01253041	-0.004647933
	0.01239861	-0.00498835	8.854459e-07	4.957517e-06	-0.109459	0.02383918	-1.811184e-06	5.084578e-05
	-0.0004995828	6.470276e-05	0.01253041	-0.004647933	-1.811184e-06	5.084578e-05	-0.1090409	0.02412816
1.5e+08	-0.09867058	0.03508408	-8.023912e-07	0.0001982314	0.01060857	-0.005877105	-0.0005317036	0.0001704291
	-8.023912e-07	0.0001982314	-0.09791433	0.03631952	1.205001e-06	4.630885e-06	0.01078626	-0.005558529
	0.01060857	-0.005877105	1.205001e-06	4.630885e-06	-0.09826294	0.03615858	4.295868e-06	4.837944e-05
	-0.0005317036	0.0001704291	0.01078626	-0.005558529	4.295868e-06	4.837944e-05	-0.0978247	0.03644486
1.6e+08	-0.08471776	0.04375923	2.49141e-05	0.0001929112	0.008631005	-0.006228092	-0.000530763	0.0002850314
	2.49141e-05	0.0001929112	-0.08386107	0.04480927	1.457231e-06	4.333036e-06	0.00884249	-0.005945652
	0.008631005	-0.006228092	1.457231e-06	4.333036e-06	-0.08420626	0.04466297	9.267315e-06	4.538349e-05
	-0.000530763	0.0002850314	0.00884249	-0.005945652	9.267315e-06	4.538349e-05	-0.08375927	0.04492524
1.7e+08	-0.06904843	0.04800937	4.874405e-05	0.0001845479	0.006620254	-0.006007777	-0.0004966355	0.0003968461
	4.874405e-05	0.0001845479	-0.06814572	0.04885102	1.663863e-06	4.081407e-06	0.006849129	-0.005771953
	0.006620254	-0.006007777	1.663863e-06	4.081407e-06	-0.06847103	0.0487311	1.317015e-05	4.228897e-05
	-0.0004966355	0.0003968461	0.006849129	-0.005771953	1.317015e-05	4.228897e-05	-0.06803588	0.04895347
1.8e+08	-0.05296796	0.04755389	7.046613e-05	0.0001736914	0.00473696	-0.005225316	-0.0004333662	0.000495275
	7.046613e-05	0.0001736914	-0.05208097	0.04817879	1.852927e-06	3.88261e-06	0.004963681	-0.005041456
	0.00473696	-0.005225316	1.852927e-06	3.88261e-06	-0.05236465	0.04809001	1.623181e-05	3.945527e-05
	-0.0004333662	0.000495275	0.004963681	-0.005041456	1.623181e-05	3.945527e-05	-0.0519687	0.04826482
1.9e+08	-0.03780982	0.04248386	9.002322e-05	0.000160847	0.003136335	-0.003934861	-0.0003484249	0.0005723118
	9.002322e-05	0.000160847	-0.03700333	0.04290073	2.053026e-06	3.730751e-06	0.003339808	-0.003802238
	0.003136335	-0.003934861	2.053026e-06	3.730751e-06	-0.03722101	0.04283941	1.880453e-05	3.710612e-05
	-0.0003484249	0.0005723118	0.003339808	-0.003802238	1.880453e-05	3.710612e-05	-0.03689525	0.04296924
2e+08	-0.02483145	0.03325943	0.0001074852	0.0001464143	0.001954908	-0.00223437	-0.0002513841	0.0006236571
	0.0001074852	0.0001464143	-0.02416805	0.03349523	2.287774e-06	3.608544e-06	0.002114364	-0.002145744
	0.001954908	-0.00223437	2.287774e-06	3.608544e-06	-0.02429579	0.0334485	2.130017e-05	3.528151e-05
	-0.0002513841	0.0006236571	0.002114364	-0.002145744	2.130017e-05	3.528151e-05	-0.02407127	0.0335472
2.1e+08	-0.01511178	0.02067734	0.0001229829	0.0001306487	0.001297049	-0.0002599083	-0.0001522275	0.0006492045
	0.0001229829	0.0001306487	-0.01464642	0.02077672	2.571631e-06	3.490632e-06	0.00139405	-0.0002016683
	0.001297049	-0.0002599083	2.571631e-06	3.490632e-06	-0.01466381	0.02072283	2.410306e-05	3.382128e-05
	-0.0001522275	0.0006492045	0.00139405	-0.0002016683	2.410306e-05	3.382128e-05	-0.01456777	0.02081539
2.2e+08	-0.0094602	0.005808676	0.0001366283	0.0001136599	0.001223199	0.00182493	-5.958946e-05	0.0006527744
	0.0001366283	0.0001136599	-0.009234769	0.005831614	2.90776e-06	3.348035e-06	0.001243581	0.001871995
	0.001223199	0.00182493	2.90776e-06	3.348035e-06	-0.009127965	0.005741226	2.747834e-05	3.23921e-05
	-5.958946e-05	0.0006527744	0.001243581	0.001871995	2.747834e-05	3.23921e-05	-0.009180115	0.005862414
2.3e+08	-0.00834641	-0.01008957	0.0001484424	9.545236e-05	0.001741913	0.003843845	2.073844e-05	0.0006411186
	0.0001484424	9.545236e-05	-0.008385208	-0.01007173	3.287869e-06	3.152665e-06	0.00167747	0.003903177
	0.001741913	0.003843845	3.287869e-06	3.152665e-06	-0.008149407	-0.01023337	3.149934e-05	3.055804e-05
	2.073844e-05	0.0006411186	0.00167747	0.003903177	3.149934e-05	3.055804e-05	-0.008358757	-0.01004156
2.4e+08	-0.0118598	-0.02568152	0.0001583141	7.599727e-05	0.00280748	0.005625218	8.673621e-05	0.0006223731
	0.0001583141	7.599727e-05	-0.0121663	-0.02559152	3.693606e-06	2.881233e-06	0.0026572	0.005722612
	0.00280748	0.005625218	3.693606e-06	2.881233e-06	-0.01180752	-0.02586157	3.601634e-05	2.788114e-05
	8.673621e-05	0.0006223731	0.0026572	0.005722612	3.601634e-05	2.788114e-05	-0.01217002	-0.02555341
2.5e+08	-0.01970353	-0.03966762	0.0001660015	5.531661e-05	0.004323966	0.00701964	0.0001403073	0.0006042641
	0.0001660015	5.531661e-05	-0.02025894	-0.03942857	4.098873e-06	2.51825e-06	0.004094665	0.007181005
	0.004323966	0.00701964	4.098873e-06	2.51825e-06	-0.01979475	-0.03984314	4.067788e-05	2.402723e-05
	0.0001403073	0.0006042641	0.004094665	0.007181005	4.067788e-05	2.402723e-05	-0.02029218	-0.03937339
2.6e+08	-0.03122441	-0.05089582	0.0001711775	3.355329e-05	0.006155318	0.007914909	0.000186642	0.0005924397
	0.0001711775	3.355329e-05	-0.03198822	-0.05043782	4.472852e-06	2.05823e-06	0.005861559	0.008163875
	0.006155318	0.007914909	4.472852e-06	2.05823e-06	-0.03144742	-0.05102828	4.500111e-05	1.884829e-05
	0.000186642	0.0005924397	0.005861559	0.008163875	4.500111e-05	1.884829e-05	-0.03204755	-0.05035668
2.7e+08	-0.04547499	-0.05845707	0.0001735029	1.100772e-05	0.008139963	0.008246297	0.0002329198	0.0005892677
	0.0001735029	1.100772e-05	-0.04638751	-0.05772347	4.783621e-06	1.506995e-06	0.007803244	0.008601892
	0.008139963	0.008246297	4.783621e-06	1.506995e-06	-0.0458086	-0.05851295	4.847165e-05	1.242034e-05
	0.0002329198	0.0005892677	0.007803244	0.008601892	4.847165e-05	1.242034e-05	-0.04646687	-0.05760856
2.8e+08	-0.06130017	-0.06175603	0.0001727069	-1.186836e-05	0.01010758	0.008000852	0.0002866558	0.0005933226
	0.0001727069	-1.186836e-05	-0.06228693	-0.06070862	5.002375e-06	8.817539e-07	0.009754813	0.008475485
	0.01010758	0.008000852	5.002375e-06	8.817539e-07	-0.06171551	-0.06170909	5.06462e-05	5.029168e-06
	0.0002866558	0.0005933226	0.009754813	0.008475485	5.06462e-05	5.029168e-06	-0.06237797	-0.06055403
2.9e+08	-0.07743846	-0.06055106	0.0001686501	-3.451407e-05	0.01189546	0.007215699	0.0003540102	0.0005996403
	0.0001686501	-3.451407e-05	-0.07841591	-0.0591739	5.107699e-06	2.095296e-07	0.0115569	0.00781366
	0.01189546	0.007215699	5.107699e-06	2.095296e-07	-0.07790127	-0.06038407	5.123194e-05	-2.887286e-06
	0.0003540102	0.0005996403	0.0115569	0.00781366	5.123194e-05	-2.887286e-06	-0.07850863	-0.05897624
3e+08	-0.09262695	-0.05496247	0.0001613579	-5.632258e-05	0.01336249	0.005971375	0.0004384023	0.0006006487
	0.0001613579	-5.632258e-05	-0.09350911	-0.05326383	5.08918e-06	-4.762573e-07	0.01306923	0.006687997
	0.01336249	0.005971375	5.08918e-06	-4.762573e-07	-0.09310018	-0.05466815	5.012779e-05	-1.082093e-05
	0.0004384023	0.0006006487	0.01306923	0.006687997	5.012779e-05	-1.082093e-05	-0.09359262	-0.05302271
3.1e+08	-0.1057005	-0.04545094	0.0001510225	-7.670719e-05	0.01439926	0.00438186	0.0005396676	0.0005875448
	0.0001510225	-7.670719e-05	-0.1064059	-0.04346333	4.949372e-06	-1.140743e-06	0.01418055	0.005203459
	0.01439926	0.00438186	4.949372e-06	-1.140743e-06	-0.1061471	-0.04503218	4.742475e-05	-1.827788e-05
	0.0005396676	0.0005875448	0.01418055	0.005203459	4.742475e-05	-1.827788e-05	-0.1064693	-0.04318151
3.2e+08	-0.1156775	-0.03277111	0.0001379781	-9.515543e-05	0.01493415	0.002583127	0.0006538467	0.0005518749
	0.0001379781	-9.515543e-05	-0.1161359	-0.03054934	4.70335e-06	-1.753143e-06	0.01481481	0.003487722
	0.01493415	0.002583127	4.70335e-06	-1.753143e-06	-0.1160629	-0.0322405	4.337354e-05	-2.484737e-05
	0.0006538467	0.0005518749	0.01481481	0.003487722	4.337354e-05	-2.484737e-05	-0.1161693	-0.0302327
3.3e+08	-0.1218275	-0.01790635	0.0001226635	-0.000111266	0.01493565	0.000721692	0.0007736145	0.0004870754
	0.0001226635	-0.000111266	-0.1219856	-0.01552379	4.375803e-06	-2.291681e-06	0.01493376	0.001680474
	0.01493565	0.000721692	4.375803e-06	-2.291681e-06	-0.122122	-0.01728512	3.833359e-05	-3.024698e-05
	0.0007736145	0.0004870754	0.01493376	0.001680474	3.833359e-05	-3.024698e-05	-0.121981	-0.01518102
3.4e+08	-0.1237174	-0.001991116	0.0001055029	-0.0001246355	0.01441188	-0.001055863	0.0008879146	0.000371137
	0.0001055029	-0.0001246355	-0.1235441	0.0004654699	3.997904e-06	-2.746467e-06	0.0145369	-7.643396e-05
	0.01441188	-0.001055863	3.997904e-06	-2.746467e-06	-0.1238983	-0.001307554	3.264712e-05	-3.42115e-05
	0.0008879146	0.000371137	0.0145369	-7.643396e-05	3.264712e-05	-3.42115e-05	-0.1234959	0.0008234811
3.5e+08	-0.1212369	0.0137734	8.711107e-05	-0.0001351973	0.01340803	-0.002612071	0.0009816907	0.0002207986
	8.711107e-05	-0.0001351973	-0.120726	0.01621022	3.597185e-06	-3.121755e-06	0.01365962	-0.001647693
	0.01340803	-0.002612071	3.597185e-06	-3.121755e-06	-0.12129	0.01448597	2.681072e-05	-3.683434e-05
	0.0009816907	0.0002207986	0.01365962	-0.001647693	2.681072e-05	-3.683434e-05	-0.120632	0.01657119
3.6e+08	-0.1146013	0.02820532	6.802309e-05	-0.0001429534	0.01200251	-0.003826526	0.001044599	4.401985e-05
	6.802309e-05	-0.0001429534	-0.1137733	0.03052872	3.194765e-06	-3.431471e-06	0.01237013	-0.002912203
	0.01200251	-0.003826526	3.194765e-06	-3.431471e-06	-0.1145217	0.02891089	2.120814e-05	-3.828272e-05
	0.001044599	4.401985e-05	0.01237013	-0.002912203	2.120814e-05	-3.828272e-05	-0.1136347	0.03087985
3.7e+08	-0.1043347	0.04022568	4.871368e-05	-0.0001480084	0.01030211	-0.004602894	0.001068486	-0.0001505044
	4.871368e-05	-0.0001480084	-0.103236	0.04234954	2.801768e-06	-3.695322e-06	0.01076535	-0.003770023
	0.01030211	-0.004602894	2.801768e-06	-3.695322e-06	-0.1041276	0.04088807	1.611946e-05	-3.881955e-05
	0.001068486	-0.0001505044	0.01076535	-0.003770023	1.611946e-05	-3.881955e-05	-0.1030578	0.04267858
3.8e+08	-0.09123254	0.04893543	2.957646e-05	-0.0001505642	0.008435952	-0.004875186	0.001048408	-0.0003515093
	2.957646e-05	-0.0001505642	-0.08993353	0.05078837	2.418006e-06	-3.933505e-06	0.008965788	-0.004148809
	0.008435952	-0.004875186	2.418006e-06	-3.933505e-06	-0.09091302	0.04952095	1.169759e-05	-3.878206e-05
	0.001048408	-0.0003515093	0.008965788	-0.004148809	1.169759e-05	-3.878206e-05	-0.08972403	0.05108461
3.9e+08	-0.07630703	0.05368196	1.089681e-05	-0.0001508855	0.006548091	-0.004613205	0.0009834064	-0.0005464824
	1.089681e-05	-0.0001508855	-0.07489687	0.0552138	2.033427e-06	-4.161571e-06	0.007108817	-0.004009651
	0.006548091	-0.004613205	2.033427e-06	-4.161571e-06	-0.07589887	0.05416196	7.945663e-06	-3.853026e-05
	0.0009834064	-0.0005464824	0.007108817	-0.004009651	7.945663e-06	-3.853026e-05	-0.07466739	0.05546905
4e+08	-0.06071484	0.05411065	-7.162272e-06	-0.000149253	0.004788279	-0.003826686	0.0008767501	-0.0007232045
	-7.162272e-06	-0.000149253	-0.05929555	0.05529753	1.631668e-06	-4.386655e-06	0.005340117	-0.0033518
	0.004788279	-0.003826686	1.631668e-06	-4.386655e-06	-0.06024924	0.0544639	4.713654e-06	-3.838554e-05
	0.0008767501	-0.0007232045	0.005340117	-0.0033518	4.713654e-06	-3.838554e-05	-0.05905962	0.05550697
4.1e+08	-0.04567256	0.05019711	-2.455395e-05	-0.0001459106	0.003301028	-0.002567259	0.0007355515	-0.0008712973
	-2.455395e-05	-0.0001459106	-0.04435119	0.05104477	1.194709e-06	-4.605879e-06	0.003803197	-0.002215413
	0.003301028	-0.002567259	1.194709e-06	-4.605879e-06	-0.04518583	0.05041167	1.720902e-06	-3.856659e-05
	0.0007355515	-0.0008712973	0.003803197	-0.002215413	1.720902e-06	-3.856659e-05	-0.04412358	0.05120753
4.2e+08	-0.03236348	0.04225565	-4.131558e-05	-0.0001410151	0.002213385	-0.0009272401	0.0005698066	-0.0009835269
	-4.131558e-05	-0.0001410151	-0.03124352	0.04280048	7.074768e-07	-4.807017e-06	0.002627406	-0.0006812233
	0.002213385	-0.0009272401	7.074768e-07	-4.807017e-06	-0.03189434	0.04233016	-1.392103e-06	-3.913516e-05
	0.0005698066	-0.0009835269	0.002627406	-0.0006812233	-1.392103e-06	-3.913516e-05	-0.03103901	0.04291995
4.3e+08	-0.02184283	0.03092119	-5.751271e-05	-0.0001346054	0.001622549	0.0009656279	0.0003909769	-0.001056635
	-5.751271e-05	-0.0001346054	-0.02101531	0.03122866	1.613946e-07	-4.97096e-06	0.001915548	0.001133751
	0.001622549	0.0009656279	1.613946e-07	-4.97096e-06	-0.02142929	0.03086535	-4.98697e-06	-3.996742e-05
	0.0003909769	-0.001056635	0.001915548	0.001133751	-4.98697e-06	-3.996742e-05	-0.02084751	0.0313125
4.4e+08	-0.01494966	0.0171035	-7.316987e-05	-0.0001266008	0.001585008	0.002957802	0.0002103339	-0.00109153
	-7.316987e-05	-0.0001266008	-0.01448487	0.017264	-4.436941e-07	-5.075132e-06	0.001732707	0.003084893
	0.001585008	0.002957802	-4.436941e-07	-5.075132e-06	-0.01462578	0.01693751	-9.339405e-06	-4.076356e-05
	0.0002103339	-0.00109153	0.001732707	0.003084893	-9.339405e-06	-4.076356e-05	-0.01436496	0.01732367
4.5e+08	-0.01223421	0.001915821	-8.820594e-05	-0.0001168377	0.00210901	0.004883451	3.736391e-05	-0.001092783
	-8.820594e-05	-0.0001168377	-0.01217484	0.002038064	-1.099153e-06	-5.096969e-06	0.002098159	0.005012646
	0.00210901	0.004883451	-1.099153e-06	-5.096969e-06	-0.01202718	0.001668984	-1.456088e-05	-4.110039e-05
	3.736391e-05	-0.001092783	0.002098159	0.005012646	-1.456088e-05	-4.110039e-05	-0.01211048	0.00208807
4.6e+08	-0.01390912	-0.01341652	-0.0001023942	-0.0001051363	0.003152006	0.006580442	-0.0001214694	-0.001067492
	-0.0001023942	-0.0001051363	-0.0142655	-0.01321404	-1.788345e-06	-5.016917e-06	0.002981986	0.006757842
	0.003152006	0.006580441	-1.788345e-06	-5.016917e-06	-0.01383679	-0.01370815	-2.055217e-05	-4.051869e-05
	-0.0001214694	-0.001067492	0.002981986	0.006757842	-2.055217e-05	-4.051869e-05	-0.01426	-0.01315723
4.7e+08	-0.01983045	-0.02765919	-0.000115361	-9.138292e-05	0.004623929	0.007906702	-0.0002633546	-0.00102375
	-0.000115361	-9.138292e-05	-0.02057852	-0.02725798	-2.488034e-06	-4.820846e-06	0.004307351	0.008177644
	0.004623929	0.007906702	-2.488034e-06	-4.820846e-06	-0.01989969	-0.02795586	-2.700384e-05	-3.862549e-05
	-0.0002633546	-0.00102375	0.004307351	0.008177644	-2.700384e-05	-3.862549e-05	-0.02063037	-0.02717727
4.8e+08	-0.02951116	-0.03967315	-0.0001266277	-7.560279e-05	0.006396141	0.008754539	-0.0003890429	-0.0009690053
