!$
! Info: Touchstone file created by Circ.  Input file=Tx_14in_Rx_85ohms_TxVia_10mils_RxVia_20mils.circ
!$
# Hz S RI R 50
0	0.01125956	9.493239e-26	0.9886094	-1.02923e-25	8.659642e-05	1.148751e-23	-8.5039e-05	1.221393e-21
	0.9886093	-1.037422e-25	0.01125916	1.232961e-25	-8.490752e-05	1.205516e-21	8.604754e-05	1.601404e-23
	8.886959e-05	1.151395e-23	-8.485533e-05	1.199189e-21	0.01125187	8.294383e-26	0.9885795	-9.238832e-26
	-8.544659e-05	1.271372e-21	8.750275e-05	1.648228e-23	0.9885795	-9.647418e-26	0.01126472	1.175534e-25
1e+07	0.01380486	-0.01383893	0.9722723	-0.1486076	0.0005510832	0.002448264	-0.000112432	0.000136344
	0.9722723	-0.1486076	0.0137946	-0.01383891	-0.0001124516	0.000136368	0.0005464651	0.00244979
	0.0005511315	0.002448237	-0.0001124158	0.0001363437	0.01377546	-0.0138288	0.9722882	-0.1487038
	-0.0001123962	0.0001363197	0.0005464979	0.002449778	0.9722882	-0.1487038	0.01376532	-0.01382895
2e+07	0.01121857	-0.03092383	0.9348164	-0.2885608	0.001650373	0.004580694	2.846547e-05	0.0002857245
	0.9348164	-0.2885608	0.0111795	-0.0309157	2.8482e-05	0.0002857467	0.001633159	0.004588022
	0.001650365	0.004580668	2.847663e-05	0.000285719	0.01120034	-0.03089098	0.9347768	-0.2887586
	2.846796e-05	0.0002856885	0.001633155	0.004588	0.9347768	-0.2887586	0.01116208	-0.0308828
3e+07	0.002454047	-0.04759589	0.8789621	-0.4192478	0.003284038	0.006271187	0.0002813017	0.0003292017
	0.8789621	-0.4192478	0.00237163	-0.04756382	0.0002813116	0.0003291943	0.003248783	0.006291484
	0.003284038	0.006271184	0.0002813081	0.000329191	0.002443513	-0.04755036	0.8788469	-0.4195211
	0.0002812981	0.0003291963	0.003248778	0.006291482	0.8788469	-0.4195211	0.002364101	-0.04751902
4e+07	-0.01110091	-0.06124092	0.8057405	-0.5392403	0.005297311	0.007395048	0.0005721065	0.0002159882
	0.8057405	-0.5392403	-0.01123365	-0.06116367	0.0005721063	0.0002159716	0.005241852	0.007437425
	0.005297315	0.007395044	0.0005721093	0.0002159715	-0.01110585	-0.0611862	0.8055306	-0.539569
	0.0005721115	0.0002159911	0.005241852	0.007437427	0.8055306	-0.539569	-0.01123406	-0.06111166
5e+07	-0.02803671	-0.07054576	0.7168973	-0.6464508	0.007503256	0.007878679	0.0008174527	-6.311517e-05
	0.7168973	-0.6464508	-0.02821773	-0.07040004	0.0008174453	-6.31512e-05	0.007429303	0.007952842
	0.007503257	0.007878676	0.0008174468	-6.315179e-05	-0.02803881	-0.07048221	0.7165769	-0.6468112
	0.0008174561	-6.31145e-05	0.007429303	0.007952842	0.7165769	-0.6468112	-0.02821392	-0.07034115
6e+07	-0.04681334	-0.07477356	0.6145666	-0.7390183	0.009706103	0.007708527	0.0009392555	-0.000478314
	0.6145666	-0.7390183	-0.04703135	-0.07453746	0.0009392184	-0.0004783774	0.009619239	0.007823274
	0.009706103	0.007708529	0.000939216	-0.0004783752	-0.04681382	-0.07469962	0.6141249	-0.7393835
	0.0009392504	-0.0004783124	0.009619236	0.007823275	0.6141249	-0.7393835	-0.04702426	-0.0744709
7e+07	-0.06584499	-0.07369171	0.5011212	-0.8154443	0.01172107	0.006928358	0.0008802088	-0.000968307
	0.5011212	-0.8154443	-0.06608041	-0.07334812	0.0008801165	-0.0009683789	0.01163021	0.007090219
	0.01172107	0.006928363	0.0008801126	-0.000968372	-0.06584331	-0.0736056	0.5005531	-0.8157856
	0.0008801966	-0.0009682996	0.0116302	0.007090222	0.5005531	-0.8157856	-0.06607022	-0.07327323
8e+07	-0.08361251	-0.06752941	0.3790619	-0.874625	0.01339019	0.005630406	0.0006140108	-0.001452916
	0.3790619	-0.874625	-0.08383958	-0.06706873	0.0006138617	-0.001452961	0.01330663	0.005842567
	0.01339019	0.005630411	0.0006138592	-0.001452952	-0.08360695	-0.06742995	0.378368	-0.874913
	0.0006139978	-0.001452903	0.01330662	0.005842572	0.378368	-0.874913	-0.08382614	-0.06698461
9e+07	-0.0987706	-0.05691964	0.250931	-0.9158388	0.01459335	0.003943058	0.0001488914	-0.001847977
	0.250931	-0.9158388	-0.09896031	-0.05634164	0.0001487121	-0.00184797	0.01452954	0.004204642
	0.01459335	0.003943061	0.000148712	-0.001847963	-0.09875879	-0.05680662	0.2501179	-0.9160441
	0.0001488836	-0.001847965	0.01452954	0.004204646	0.2501179	-0.9160441	-0.09894262	-0.05624716
1e+08	-0.1102395	-0.04282301	0.1192558	-0.9387116	0.01525682	0.002018106	-0.0004791821	-0.002080288
	0.1192558	-0.9387116	-0.1103628	-0.04213763	-0.0004793529	-0.002080232	0.01522496	0.002323859
	0.01525682	0.002018106	-0.000479353	-0.002080232	-0.1102191	-0.04269737	0.1183365	-0.9388064
	-0.0004791821	-0.002080288	0.01522496	0.002323859	0.1183365	-0.9388064	-0.110339	-0.04203217
1.1e+08	-0.1172565	-0.02642407	-0.01351268	-0.9432128	0.01534406	-2.860536e-06	-0.001194032	-0.002069342
	-0.01351268	-0.9432128	-0.1172879	-0.0256496	-0.001194228	-0.00206921	0.01535417	0.0003373117
	0.01534406	-2.860688e-06	-0.001194228	-0.00206921	-0.1172247	-0.02628606	-0.01452185	-0.9431726
	-0.001194033	-0.002069342	0.01535417	0.0003373116	-0.01452185	-0.9431726	-0.1172551	-0.02553351
1.2e+08	-0.1194114	-0.009055888	-0.1450156	-0.9295125	0.01485009	-0.001944672	-0.001892681	-0.001819048
	-0.1450156	-0.9295125	-0.1193311	-0.008221703	-0.001892866	-0.001818833	0.01490968	-0.001582912
	0.01485009	-0.001944672	-0.001892866	-0.001818833	-0.1193648	-0.008907883	-0.146093	-0.9293143
	-0.001892681	-0.001819049	0.01490968	-0.001582912	-0.146093	-0.9293143	-0.1192859	-0.008097183
1.3e+08	-0.1166889	0.007907336	-0.2729402	-0.8980464	0.01382926	-0.003655723	-0.002497677	-0.001346217
	-0.2729402	-0.8980464	-0.1164869	0.008765528	-0.002497818	-0.001345922	0.01394148	-0.00328781
	0.01382926	-0.003655723	-0.002497818	-0.001345922	-0.1166248	0.008061332	-0.2740594	-0.8976711
	-0.002497677	-0.001346217	0.01394148	-0.00328781	-0.2740594	-0.8976711	-0.1164273	0.008894945
1.4e+08	-0.1094377	0.02315493	-0.3950556	-0.8494793	0.01236749	-0.005005474	-0.00293833	-0.0006956245
	-0.3950556	-0.8494793	-0.1091159	0.02399831	-0.002938397	-0.0006952646	0.01253041	-0.004647933
	0.01236749	-0.005005474	-0.002938397	-0.0006952646	-0.1093551	0.02330964	-0.3961865	-0.8489122
	-0.00293833	-0.0006956245	0.01253041	-0.004647933	-0.3961865	-0.8489122	-0.1090409	0.02412816
1.5e+08	-0.09834169	0.0355292	-0.5092055	-0.7847043	0.01057991	-0.005889744	-0.003165313	6.532179e-05
	-0.5092055	-0.7847043	-0.09791433	0.03631952	-0.003165284	6.572188e-05	0.01078626	-0.005558529
	0.01057991	-0.005889745	-0.003165285	6.572186e-05	-0.09824125	0.03567861	-0.510315	-0.7839358
	-0.003165313	6.532177e-05	0.01078626	-0.005558529	-0.510315	-0.7839358	-0.0978247	0.03644486
1.6e+08	-0.08436756	0.04410577	-0.6133145	-0.7048544	0.00860508	-0.006236854	-0.003157953	0.0008567322
	-0.6133145	-0.7048544	-0.08386107	0.04480927	-0.003157817	0.0008571417	0.00884249	-0.005945652
	0.00860508	-0.006236854	-0.003157817	0.0008571417	-0.08425219	0.04424389	-0.6143672	-0.7038805
	-0.003157953	0.0008567322	0.00884249	-0.005945652	-0.6143672	-0.7038805	-0.08375927	0.04492524
1.7e+08	-0.06869418	0.04825984	-0.7054073	-0.6113215	0.006597355	-0.006013306	-0.002926711	0.001598342
	-0.7054073	-0.6113215	-0.06814572	0.04885102	-0.002926469	0.001598728	0.006849129	-0.005771953
	0.006597355	-0.006013306	-0.002926469	0.001598728	-0.06856891	0.04838152	-0.7063662	-0.610144
	-0.002926711	0.001598342	0.006849129	-0.005771953	-0.7063662	-0.610144	-0.06803588	0.04895347
1.8e+08	-0.05262616	0.04771384	-0.7836452	-0.5057732	0.004717336	-0.005228312	-0.00251066	0.002221669
	-0.7836452	-0.5057732	-0.05208097	0.04817879	-0.002510323	0.002222001	0.004963681	-0.005041456
	0.004717336	-0.005228312	-0.002510323	0.002222002	-0.05249786	0.04781548	-0.7844731	-0.5044004
	-0.00251066	0.002221669	0.004963681	-0.005041456	-0.7844731	-0.5044004	-0.0519687	0.04826482
1.9e+08	-0.0374956	0.04256187	-0.8463782	-0.3901628	0.003120143	-0.003936072	-0.001970244	0.002680256
	-0.8463782	-0.3901628	-0.03700333	0.04290073	-0.001969836	0.002680512	0.003339808	-0.003802238
	0.003120143	-0.003936072	-0.001969836	0.002680512	-0.03737241	0.0426421	-0.8470379	-0.3886095
	-0.001970244	0.002680256	0.003339808	-0.003802238	-0.8470379	-0.3886095	-0.03689525	0.04296924
2e+08	-0.02455778	0.0332669	-0.8922085	-0.2667214	0.001942173	-0.002234572	-0.001376388	0.002956164
	-0.8922085	-0.2667214	-0.02416805	0.03349523	-0.001375934	0.002956334	0.002114364	-0.002145744
	0.001942173	-0.002234572	-0.001375934	0.002956334	-0.02444836	0.03332694	-0.8926648	-0.2650093
	-0.001376388	0.002956164	0.002114364	-0.002145744	-0.8926648	-0.2650093	-0.02407127	0.0335472
2.1e+08	-0.0148888	0.02062804	-0.92006	-0.1379295	0.001287644	-0.0002598607	-0.0007977367	0.003061389
	-0.92006	-0.1379295	-0.01464642	0.02077672	-0.0007972641	0.003061473	0.00139405	-0.0002016683
	0.001287644	-0.0002598608	-0.0007972641	0.003061473	-0.01480148	0.0206719	-0.9202806	-0.1360868
	-0.0007977368	0.003061389	0.00139405	-0.0002016683	-0.9202806	-0.1360868	-0.01456777	0.02081539
2.2e+08	-0.009294607	0.005718035	-0.9292441	-0.006463683	0.001216846	0.00182453	-0.0002883876	0.003033696
	-0.9292441	-0.006463683	-0.009234769	0.005831614	-0.0002879172	0.003033705	0.001243581	0.001871995
	0.001216846	0.001824529	-0.0002879172	0.003033705	-0.009236482	0.005752349	-0.9292008	-0.004524804
	-0.0002883876	0.003033696	0.001243581	0.001871995	-0.9292008	-0.004524804	-0.009180115	0.005862414
2.3e+08	-0.008241094	-0.01020534	-0.9195113	0.1248787	0.001738198	0.003842403	0.0001214504	0.00292752
	-0.9195113	0.1248787	-0.008385208	-0.01007173	0.0001219073	0.002927472	0.00167747	0.003903177
	0.001738198	0.003842403	0.0001219073	0.002927472	-0.008217193	-0.01017174	-0.9191813	0.1268738
	0.0001214504	0.00292752	0.00167747	0.003903177	-0.9191813	0.1268738	-0.008358757	-0.01004156
2.4e+08	-0.01181373	-0.02580643	-0.8910811	0.2532721	0.002805893	0.005622282	0.0004298852	0.002801669
	-0.8910811	0.2532721	-0.0121663	-0.02559152	0.0004303288	0.002801581	0.0026572	0.005722612
	0.002805893	0.005622282	0.0004303288	0.002801581	-0.01182635	-0.02576317	-0.8904482	0.2552791
	0.0004298852	0.002801669	0.0026572	0.005722612	-0.8904482	0.2552791	-0.01217002	-0.02555341
2.5e+08	-0.01971197	-0.03978688	-0.8446441	0.3759637	0.004323942	0.007014913	0.0006618728	0.002706352
	-0.8446441	0.3759637	-0.02025894	-0.03942857	0.0006623139	0.002706236	0.004094665	0.007181005
	0.004323942	0.007014913	0.0006623139	0.002706236	-0.01976022	-0.03972296	-0.8436993	0.3779348
	0.0006618728	0.002706352	0.004094665	0.007181005	-0.8436993	0.3779348	-0.02029218	-0.03937339
2.6e+08	-0.03127939	-0.05099675	-0.7813351	0.4903702	0.006156284	0.007908249	0.0008621823	0.002672301
	-0.7813351	0.4903702	-0.03198822	-0.05043782	0.0008626383	0.00267216	0.005861559	0.008163875
	0.006156284	0.007908249	0.0008626383	0.00267216	-0.03135906	-0.05090151	-0.7800772	0.4922554
	0.0008621823	0.002672301	0.005861559	0.008163875	-0.7800772	0.4922554	-0.03204755	-0.05035668
2.7e+08	-0.04556604	-0.05852983	-0.7026797	0.5941626	0.008141381	0.008237702	0.001084373	0.002704232
	-0.7026797	0.5941626	-0.04638751	-0.05772347	0.001084862	0.002704057	0.007803244	0.008601892
	0.008141381	0.008237702	0.001084862	0.002704057	-0.04566977	-0.05839396	-0.7011158	0.5959113
	0.001084373	0.002704232	0.007803244	0.008601892	-0.7011158	0.5959113	-0.04646687	-0.05760856
2.8e+08	-0.06141518	-0.06179401	-0.610523	0.6853289	0.01010896	0.007990436	0.001378209	0.002779894
	-0.610523	0.6853289	-0.06228693	-0.06070862	0.001378745	0.002779661	0.009754813	0.008475485
	0.01010896	0.007990436	0.001378745	0.002779661	-0.06153293	-0.06161051	-0.6086685	0.6868914
	0.001378209	0.002779894	0.009754813	0.008475485	-0.6086685	0.6868914	-0.06237797	-0.06055403
2.9e+08	-0.0775646	-0.06055111	-0.5069483	0.7622127	0.01189642	0.007203664	0.001778156	0.002854653
	-0.5069483	0.7622127	-0.07841591	-0.0591739	0.00177874	0.00285433	0.0115569	0.00781366
	0.01189642	0.007203664	0.00177874	0.00285433	-0.07768437	-0.06031602	-0.5048266	0.7635413
	0.001778156	0.002854653	0.0115569	0.00781366	-0.5048266	0.7635413	-0.07850863	-0.05897624
3e+08	-0.09275155	-0.05492484	-0.3941968	0.8235256	0.0133627	0.005957985	0.00229517	0.002870423
	-0.3941968	0.8235256	-0.09350911	-0.05326383	0.00229579	0.002869974	0.01306923	0.006687997
	0.0133627	0.005957985	0.00229579	0.002869974	-0.09286036	-0.05463774	-0.3918388	0.8245758
	0.00229517	0.002870423	0.01306923	0.006687997	-0.3918388	0.8245758	-0.09359262	-0.05302271
3.1e+08	-0.1058119	-0.04537898	-0.2745953	0.8683395	0.01439849	0.004367421	0.00291316	0.002766985
	-0.2745953	0.8683395	-0.1064059	-0.04346333	0.002913786	0.002766377	0.01418055	0.005203459
	0.01439849	0.004367421	0.002913786	0.002766377	-0.1058968	-0.04504324	-0.2720391	0.8690716
	0.00291316	0.002766985	0.01418055	0.005203459	-0.2720391	0.8690716	-0.1064693	-0.04318151
3.2e+08	-0.1157656	-0.03267082	-0.1504993	0.8960638	0.01493224	0.002567967	0.003590447	0.002493488
	-0.1504993	0.8960638	-0.1161359	-0.03054934	0.003591035	0.002492697	0.01481481	0.003487722
	0.01493224	0.002567967	0.003591035	0.002492697	-0.1158148	-0.03229349	-0.147789	0.8964431
	0.003590447	0.002493488	0.01481481	0.003487722	-0.147789	0.8964431	-0.1161693	-0.0302327
3.3e+08	-0.1218843	-0.01778586	-0.02425138	0.9064155	0.01493254	0.0007061529	0.004265677	0.002018143
	-0.02425138	0.9064155	-0.1219856	-0.01552379	0.004266171	0.00201716	0.01493376	0.001680474
	0.01493254	0.0007061529	0.004266171	0.00201716	-0.1218882	-0.01737729	-0.02143673	0.9064138
	0.004265677	0.002018143	0.01493376	0.001680474	-0.02143673	0.9064138	-0.121981	-0.01518102
3.4e+08	-0.1237376	-0.001860052	0.1018435	0.8993897	0.01440758	-0.001071446	0.004866924	0.001334643
	0.1018435	0.8993897	-0.1235441	0.0004654699	0.004867263	0.001333479	0.0145369	-7.643396e-05
	0.01440758	-0.001071446	0.004867263	0.001333479	-0.1236897	-0.001433221	0.1047081	0.8989857
	0.004866924	0.001334643	0.0145369	-7.643396e-05	0.1047081	0.8989857	-0.1234959	0.0008234811
3.5e+08	-0.1212176	0.0139045	0.2255313	0.8752359	0.01340264	-0.002627383	0.005322438	0.0004644656
	0.2255313	0.8752359	-0.120726	0.01621022	0.005322564	0.000463152	0.01365962	-0.001647693
	0.01340264	-0.002627383	0.005322564	0.000463152	-0.1211152	0.01433498	0.2283878	0.8744161
	0.005322438	0.0004644656	0.01365962	-0.001647693	0.2283878	0.8744161	-0.120632	0.01657119
3.6e+08	-0.1145426	0.02832571	0.344615	0.8344443	0.01199621	-0.003841291	0.00557134	-0.0005451133
	0.344615	0.8344443	-0.1137733	0.03052872	0.005571205	-0.0005465253	0.01237013	-0.002912203
	0.01199621	-0.003841291	0.005571205	-0.0005465253	-0.1143872	0.02874464	0.3474024	0.8332033
	0.00557134	-0.0005451133	0.01237013	-0.002912203	0.3474024	0.8332033	-0.1136347	0.03087985
3.7e+08	-0.1042394	0.04032508	0.4569592	0.7777428	0.01029513	-0.004616897	0.005572736	-0.001626914
	0.4569592	0.7777428	-0.103236	0.04234954	0.005572308	-0.001628359	0.01076535	-0.003770023
	0.01029513	-0.004616897	0.005572308	-0.001628359	-0.1040368	0.04071787	0.4596151	0.7760839
	0.005572736	-0.001626914	0.01076535	-0.003770023	0.4596151	0.7760839	-0.1030578	0.04267858
3.8e+08	-0.09110616	0.04900472	0.5605008	0.7061035	0.0084286	-0.004888291	0.005311907	-0.002702792
	0.5605008	0.7061035	-0.08993353	0.05078837	0.005311178	-0.002704196	0.008965788	-0.004148809
	0.0084286	-0.004888291	0.005311178	-0.002704196	-0.0908662	0.0493586	0.5629618	0.7040393
	0.005311907	-0.002702792	0.008965788	-0.004148809	0.5629618	0.7040393	-0.08972403	0.05108461
3.9e+08	-0.07615717	0.05371375	0.6532676	0.6207552	0.006540681	-0.004625369	0.004802655	-0.003694349
	0.6532676	0.6207552	-0.07489687	0.0552138	0.004801637	-0.003695638	0.007108817	-0.004009651
	0.006540681	-0.004625369	0.004801637	-0.003695638	-0.0758933	0.05401894	0.6554715	0.6183079
	0.004802655	-0.003694349	0.007108817	-0.004009651	0.6554715	0.6183079	-0.07466739	0.05546905
4e+08	-0.06055088	0.05409986	0.7334116	0.5231973	0.004781126	-0.003837966	0.004085294	-0.004533837
	0.7334116	0.5231973	-0.05929555	0.05529753	0.004084024	-0.004534947	0.005340117	-0.0033518
	0.004781126	-0.003837966	0.004084024	-0.004534947	-0.06027915	0.05435055	0.7352979	0.5203986
	0.004085294	-0.004533837	0.005340117	-0.0033518	0.7352979	0.5203986	-0.05905962	0.05550697
4.1e+08	-0.04550492	0.05014137	0.7992539	0.4152067	0.00329441	-0.002577806	0.003220463	-0.005173555
	0.7992539	0.4152067	-0.04435119	0.05104477	0.00321899	-0.005174437	0.003803197	-0.002215413
	0.00329441	-0.002577806	0.00321899	-0.005174437	-0.04524286	0.05033641	0.800766	0.4120982
	0.003220463	-0.005173555	0.003803197	-0.002215413	0.800766	0.4120982	-0.04412358	0.05120753
4.2e+08	-0.03220288	0.04215552	0.8493421	0.2988331	0.00220751	-0.0009372793	0.002279542	-0.005592067
	0.8493421	0.2988331	-0.03124352	0.04280048	0.002277927	-0.005592691	0.002627406	-0.0006812233
	0.00220751	-0.0009372793	0.002277927	-0.005592691	-0.0319681	0.04229885	0.8504287	0.2954657
	0.002279542	-0.005592067	0.002627406	-0.0006812233	0.8504287	0.2954657	-0.03103901	0.04291995
4.3e+08	-0.02169944	0.03078018	0.882513	0.1763762	0.00161754	0.0009558248	0.001333214	-0.005796015
	0.882513	0.1763762	-0.02101531	0.03122866	0.001331517	-0.005796373	0.001915548	0.001133751
	0.00161754	0.0009558248	0.001331517	-0.005796373	-0.02150815	0.03088076	0.88313	0.1728096
	0.001333214	-0.005796015	0.001915548	0.001133751	0.88313	0.1728096	-0.02084751	0.0313125
4.4e+08	-0.01483224	0.01692778	0.8979548	0.050342	0.001580889	0.002947952	0.0004401791	-0.005816962
	0.8979548	0.050342	-0.01448487	0.017264	0.0004384527	-0.005817065	0.001732707	0.003084893
	0.001580889	0.002947952	0.0004384527	-0.005817065	-0.01469785	0.0169991	0.8980668	0.04664368
	0.0004401791	-0.005816962	0.001732707	0.003084893	0.8980668	0.04664368	-0.01436496	0.01732367
4.5e+08	-0.01214943	0.001713725	0.8952597	-0.07662173	0.002105716	0.004873292	-0.0003618016	-0.005703687
	0.8952597	-0.07662173	-0.01217484	0.002038064	-0.0003635192	-0.005703557	0.002098159	0.005012646
	0.002105716	0.004873292	-0.0003635192	-0.005703557	-0.01208118	0.00177294	0.8948412	-0.08037796
	-0.0003618016	-0.005703687	0.002098159	0.005012646	0.8948412	-0.08037796	-0.01211048	0.00208807
4.6e+08	-0.01386101	-0.01363519	0.8744581	-0.2018073	0.003149401	0.006569765	-0.001060674	-0.005511325
	0.8744581	-0.2018073	-0.0142655	-0.01321404	-0.001062362	-0.005510989	0.002981986	0.006757842
	0.003149401	0.006569765	-0.001062362	-0.005510989	-0.01386303	-0.01356858	0.8734954	-0.2055429
	-0.001060674	-0.005511325	0.002981986	0.006757842	0.8734954	-0.2055429	-0.01426	-0.01315723
4.7e+08	-0.01982011	-0.02788407	0.8360308	-0.3225388	0.004621832	0.007895366	-0.001669632	-0.005289528
	0.8360308	-0.3225388	-0.02057852	-0.02725798	-0.001671285	-0.005289008	0.004307351	0.008177644
	0.004621832	0.007895366	-0.001671285	-0.005289008	-0.01989081	-0.02778976	0.834522	-0.3261727
	-0.001669632	-0.005289528	0.004307351	0.008177644	0.834522	-0.3261727	-0.02063037	-0.02717727
4.8e+08	-0.02953676	-0.03989414	0.780893	-0.4362649	0.006394356	0.008742475	-0.002221509	-0.0050721
	0.780893	-0.4362649	-0.03059345	-0.03896475	-0.002223133	-0.005071406	0.00595833	0.009159778
	0.006394356	0.008742475	-0.002223133	-0.005071406	-0.02966874	-0.03975273	0.7788492	-0.4397153
	-0.002221509	-0.0050721	0.00595833	0.009159778	0.7788492	-0.4397153	-0.03069622	-0.03884386
4.9e+08	-0.04222262	-0.04871736	0.710355	-0.5406433	0.008313136	0.009048027	-0.002759243	-0.004870256
	0.710355	-0.5406433	-0.04349516	-0.04740465	-0.002760847	-0.004869381	0.007792163	0.00963296
	0.008313136	0.009048027	-0.002760847	-0.004869381	-0.0424031	-0.048512	0.7078	-0.5438302
	-0.002759243	-0.004870256	0.007792163	0.00963296	0.7078	-0.5438302	-0.04363791	-0.04722951
5e+08	-0.05686148	-0.05367183	0.6260617	-0.6336087	0.01021488	0.008798236	-0.003324494	-0.004670829
	0.6260617	-0.6336087	-0.05824672	-0.05192136	-0.003326081	-0.00466975	0.009653978	0.009572202
	0.01021488	0.008798236	-0.003326081	-0.00466975	-0.05707317	-0.05338975	0.6230314	-0.6364555
	-0.003324494	-0.004670829	0.009653978	0.009572202	0.6230314	-0.6364555	-0.05841473	-0.05168138
5.1e+08	-0.07229719	-0.05439153	0.5299206	-0.7134187	0.01194259	0.008027629	-0.003946795	-0.004439619
	0.5299206	-0.7134187	-0.07367925	-0.05217956	-0.003948353	-0.004438302	0.01139176	0.008998707
	0.01194259	0.008027629	-0.003948353	-0.004438302	-0.07251961	-0.05402517	0.5264622	-0.7158545
