!$
! Info: Touchstone file created by Circ.  Input file=Tx_14in_Rx_100ohms_TxVia_10mils_RxVia_20mils.circ
!$
# Hz S RI R 50
0	0.01446366	8.49836e-26	-1.748492e-11	4.047046e-27	8.584416e-05	1.50329e-23	-2.125371e-08	2.60279e-24
	-1.747075e-11	4.046035e-27	0.01446292	1.224269e-25	1.452502e-11	3.103296e-28	8.544085e-05	2.05954e-23
	8.395533e-05	1.482094e-23	1.44903e-11	3.106759e-28	0.01447729	8.842584e-26	1.717022e-08	7.283285e-27
	-2.125443e-08	2.602878e-24	8.689486e-05	2.11976e-23	1.717073e-08	7.282167e-27	0.01446844	1.167285e-25
1e+07	0.02017711	0.008506142	3.059064e-11	-6.325622e-11	0.0004843067	0.002407095	-3.974314e-09	1.948401e-08
	3.059061e-11	-6.325651e-11	0.02155883	0.008092489	1.396771e-12	-8.183215e-11	0.0009725117	0.002451581
	0.0004842674	0.00240712	1.396764e-12	-8.183185e-11	0.02094172	0.008086925	-5.907818e-09	1.932958e-08
	-3.974314e-09	1.948401e-08	0.0009725451	0.00245157	-5.907818e-09	1.932958e-08	0.02136417	0.008125242
2e+07	0.02769184	0.01140801	4.998096e-11	-9.551873e-11	0.001486945	0.004659178	2.224115e-10	2.335488e-08
	4.998063e-11	-9.551885e-11	0.02830658	0.01032687	9.536993e-12	-1.772091e-10	0.001822288	0.004947445
	0.001486953	0.004659196	9.537227e-12	-1.772089e-10	0.02781828	0.01054059	-5.456932e-09	2.067378e-08
	2.224113e-10	2.335488e-08	0.001822286	0.004947423	-5.456932e-09	2.067378e-08	0.02818622	0.01045199
3e+07	0.03393009	0.01070437	4.459409e-11	-1.818104e-10	0.00304213	0.006484994	5.781216e-09	1.64667e-08
	4.459406e-11	-1.818104e-10	0.03394822	0.009555709	-3.306213e-11	-1.825077e-10	0.003271677	0.006863694
	0.003042127	0.006484994	-3.306206e-11	-1.825078e-10	0.03358103	0.009843587	1.950534e-09	2.204319e-08
	5.781216e-09	1.64667e-08	0.003271672	0.006863692	1.950534e-09	2.204319e-08	0.03389365	0.009708062
4e+07	0.03906955	0.00804811	3.379594e-11	-2.598731e-10	0.005015044	0.007787276	8.369171e-09	1.208864e-08
	3.379597e-11	-2.598731e-10	0.03861947	0.007043581	-2.445982e-11	-2.466986e-10	0.005198217	0.008211984
	0.005015039	0.007787278	-2.445989e-11	-2.466987e-10	0.03836994	0.007354639	8.275228e-09	1.652138e-08
	8.369171e-09	1.208864e-08	0.005198216	0.008211986	8.275228e-09	1.652138e-08	0.03862288	0.007196763
5e+07	0.04299343	0.004005494	2.482637e-11	-3.456894e-10	0.007242809	0.008482496	1.132424e-08	9.244374e-09
	2.482638e-11	-3.456895e-10	0.04220118	0.003266837	-7.099427e-11	-2.743687e-10	0.007560304	0.008791917
	0.007242807	0.008482498	-7.099427e-11	-2.743687e-10	0.04206313	0.003565753	1.031269e-08	9.423316e-09
	1.132424e-08	9.244374e-09	0.007560304	0.008791918	1.031269e-08	9.423316e-09	0.0422523	0.003404733
6e+07	0.04556671	-0.000991346	9.511525e-12	-4.443399e-10	0.009547446	0.008531671	1.639362e-08	3.731787e-09
	9.511566e-12	-4.443398e-10	0.04456164	-0.001393877	-9.181833e-11	-2.721421e-10	0.00993627	0.008708621
	0.009547447	0.008531668	-9.181836e-11	-2.721421e-10	0.04452127	-0.001137226	9.462575e-09	3.47561e-09
	1.639362e-08	3.731787e-09	0.009936266	0.008708621	9.462575e-09	3.47561e-09	0.04464965	-0.001282268
7e+07	0.04669719	-0.006541397	-1.486356e-11	-5.440411e-10	0.01175897	0.007928654	1.469077e-08	-7.240597e-09
	-1.486345e-11	-5.440411e-10	0.045607	-0.006579711	-9.561923e-11	-2.68365e-10	0.0121529	0.007990469
	0.01175897	0.007928648	-9.561929e-11	-2.68365e-10	0.04564459	-0.006388756	7.179773e-09	-6.986512e-10
	1.469077e-08	-7.240597e-09	0.0121529	0.007990471	7.179773e-09	-6.986512e-10	0.04571981	-0.00650178
8e+07	0.04635961	-0.01225638	-2.738047e-11	-6.336726e-10	0.01369351	0.006743922	7.472688e-09	-1.07209e-08
	-2.738039e-11	-6.336727e-10	0.04530496	-0.01193827	-9.575666e-11	-2.683694e-10	0.0140492	0.006709187
	0.01369351	0.006743916	-9.575671e-11	-2.683693e-10	0.04539673	-0.01182897	4.442491e-09	-3.156931e-09
	7.472688e-09	-1.07209e-08	0.01404919	0.006709191	4.442491e-09	-3.156931e-09	0.04542947	-0.01189727
9e+07	0.04460312	-0.01776619	-5.55778e-11	-6.814738e-10	0.01520313	0.005084494	3.333025e-09	-1.030974e-08
	-5.557777e-11	-6.814739e-10	0.04369524	-0.01712936	-9.74894e-11	-2.829975e-10	0.01548778	0.00497583
	0.01520313	0.00508449	-9.748941e-11	-2.829975e-10	0.0438149	-0.01710993	1.863277e-09	-4.136276e-09
	3.333025e-09	-1.030974e-08	0.01548778	0.004975834	1.863277e-09	-4.136276e-09	0.04381858	-0.01712424
1e+08	0.04154337	-0.02273242	-1.739835e-10	-7.248091e-10	0.01618271	0.003088729	9.20816e-10	-9.301719e-09
	-1.739835e-10	-7.248091e-10	0.04090737	-0.02183659	-9.320675e-11	-3.22184e-10	0.0163578	0.00293235
	0.01618271	0.003088729	-9.320675e-11	-3.22184e-10	0.04102595	-0.0219078	-2.410705e-10	-3.974552e-09
	9.20816e-10	-9.301719e-09	0.0163578	0.00293235	-2.410705e-10	-3.974552e-09	0.04101642	-0.02186283
1.1e+08	0.03739978	-0.02682398	-2.29258e-10	-7.775456e-10	0.01655073	0.0008931256	-1.282017e-09	-1.014219e-08
	-2.29258e-10	-7.775456e-10	0.03706807	-0.0258936	-5.846833e-11	-3.426133e-10	0.01661844	0.0007866693
	0.01655073	0.0008931257	-5.846833e-11	-3.426133e-10	0.03716175	-0.02603904	-6.324289e-10	-4.362337e-09
	-1.282017e-09	-1.014219e-08	0.01661844	0.0007866692	-6.324289e-10	-4.362337e-09	0.03715689	-0.02593606
1.2e+08	0.03245567	-0.02984874	-2.930981e-10	-8.134552e-10	0.01627103	-0.00129604	-3.784915e-09	-1.0328e-08
	-2.930981e-10	-8.134552e-10	0.03234655	-0.02894545	-1.836341e-11	-3.858103e-10	0.01628595	-0.001336612
	0.01627103	-0.001296039	-1.836341e-11	-3.858103e-10	0.03240288	-0.02915037	-1.078902e-09	-4.640139e-09
	-3.784915e-09	-1.0328e-08	0.01628595	-0.001336612	-1.078902e-09	-4.640139e-09	0.03241702	-0.02899773
1.3e+08	0.02699261	-0.03165639	-3.565692e-10	-8.298652e-10	0.01538294	-0.003301648	-6.369406e-09	-9.760308e-09
	-3.565692e-10	-8.298652e-10	0.0270602	-0.03081868	2.294447e-11	-4.424318e-10	0.01537812	-0.003276469
	0.01538294	-0.003301648	2.294447e-11	-4.424318e-10	0.0270693	-0.03106574	-1.547799e-09	-4.792013e-09
	-6.369406e-09	-9.760308e-09	0.01537812	-0.003276469	-1.547799e-09	-4.792013e-09	0.027113	-0.03087521
1.4e+08	0.02132669	-0.03217054	-4.139156e-10	-8.262532e-10	0.01396629	-0.004964854	-8.80264e-09	-8.406494e-09
	-4.139156e-10	-8.262532e-10	0.02153024	-0.03142514	6.108971e-11	-5.133565e-10	0.01396614	-0.004882967
	0.01396629	-0.004964853	6.108971e-11	-5.133565e-10	0.02148765	-0.03169517	-2.000628e-09	-4.809881e-09
	-8.80264e-09	-8.406494e-09	0.01396614	-0.004882967	-2.000628e-09	-4.809881e-09	0.02156689	-0.03148094
1.5e+08	0.01578039	-0.03139474	-4.58567e-10	-8.036842e-10	0.01214001	-0.006155562	-1.084144e-08	-6.306176e-09
	-4.58567e-10	-8.036842e-10	0.01608093	-0.0307589	9.153038e-11	-5.978966e-10	0.01216101	-0.006031778
	0.01214001	-0.006155562	9.153038e-11	-5.978966e-10	0.01598813	-0.03103246	-2.395893e-09	-4.697433e-09
	-1.084144e-08	-6.306176e-09	0.01216101	-0.006031778	-2.395893e-09	-4.697433e-09	0.01610391	-0.0308097
1.6e+08	0.01066222	-0.02941126	-4.837648e-10	-7.654982e-10	0.01005322	-0.006782003	-1.225491e-08	-3.574145e-09
	-4.837648e-10	-7.654982e-10	0.01102205	-0.02889371	1.100155e-10	-6.939004e-10	0.01010392	-0.006634184
	0.01005322	-0.006782003	1.100155e-10	-6.939004e-10	0.01088642	-0.0291528	-2.692871e-09	-4.471405e-09
	-1.225491e-08	-3.574145e-09	0.01010392	-0.006634184	-2.692871e-09	-4.471405e-09	0.01103471	-0.02893619
1.7e+08	0.006247727	-0.0263748	-4.835325e-10	-7.176295e-10	0.007873622	-0.006797447	-1.284774e-08	-3.961982e-10
	-4.835325e-10	-7.176295e-10	0.006630969	-0.02597639	1.130183e-10	-7.979077e-10	0.007954838	-0.006643965
	0.007873623	-0.006797447	1.130183e-10	-7.979077e-10	0.006465142	-0.02620607	-2.855867e-09	-4.161469e-09
	-1.284774e-08	-3.961982e-10	0.007954838	-0.006643965	-2.855867e-09	-4.161469e-09	0.006637226	-0.02600831
1.8e+08	0.002762896	-0.02250171	-4.538076e-10	-6.684278e-10	0.005774325	-0.006203409	-1.248202e-08	2.982325e-09
	-4.538076e-10	-6.684278e-10	0.003136283	-0.02221599	9.811339e-11	-9.054098e-10	0.005879919	-0.006060814
	0.005774325	-0.006203409	9.811339e-11	-9.054098e-10	0.002957159	-0.02240581	-2.858458e-09	-3.808625e-09
	-1.248202e-08	2.982325e-09	0.005879919	-0.006060814	-2.858458e-09	-3.808625e-09	0.003140406	-0.02223635
1.9e+08	0.000370632	-0.01805538	-3.932121e-10	-6.27542e-10	0.003920354	-0.005049059	-1.10953e-08	6.274811e-09
	-3.932121e-10	-6.27542e-10	0.0007045611	-0.01786926	6.43326e-11	-1.011115e-09	0.004038451	-0.0049301
	0.003920354	-0.005049059	6.43326e-11	-1.011115e-09	0.0005318456	-0.01801441	-2.686877e-09	-3.461746e-09
	-1.10953e-08	6.274811e-09	0.004038451	-0.0049301	-2.686877e-09	-3.461746e-09	0.0007108171	-0.01787827
2e+08	-0.0008385346	-0.01332866	-3.041237e-10	-6.058463e-10	0.00245586	-0.003426895	-8.712575e-09	9.177152e-09
	-3.041237e-10	-6.058463e-10	-0.0005689613	-0.01322324	1.228088e-11	-1.109649e-09	0.002570545	-0.003339008
	0.00245586	-0.003426895	1.228088e-11	-1.109649e-09	-0.0007144862	-0.01332524	-2.342954e-09	-3.174396e-09
	-8.712575e-09	9.177152e-09	0.002570545	-0.003339008	-2.342954e-09	-3.174396e-09	-0.0005566081	-0.01322232
2.1e+08	-0.0008509897	-0.008624487	-1.931915e-10	-6.133497e-10	0.001493105	-0.001465067	-5.450644e-09	1.139495e-08
	-1.931915e-10	-6.133497e-10	-0.000664954	-0.008576193	-5.594218e-11	-1.195884e-09	0.001586428	-0.001409444
	0.001493105	-0.001465067	-5.594218e-11	-1.195884e-09	-0.0007633572	-0.008643055	-1.845516e-09	-2.999132e-09
	-5.450644e-09	1.139495e-08	0.001586428	-0.001409444	-1.845516e-09	-2.999132e-09	-0.0006431557	-0.008567795
2.2e+08	0.0002705332	-0.004236159	-7.029186e-11	-6.572024e-10	0.001104071	0.000683017	-1.513779e-09	1.267153e-08
	-7.029186e-11	-6.572024e-10	0.0003604047	-0.004217992	-1.366908e-10	-1.26529e-09	0.001158203	0.0007117094
	0.001104071	0.000683017	-1.366908e-10	-1.26529e-09	0.0003262646	-0.004263866	-1.229124e-09	-2.981696e-09
	-1.513779e-09	1.267153e-08	0.001158203	0.0007117094	-1.229124e-09	-2.981696e-09	0.0003941214	-0.004205444
2.3e+08	0.002392543	-0.000428395	5.247e-11	-7.408531e-10	0.001315326	0.002850905	2.819302e-09	1.281402e-08
	5.247e-11	-7.408531e-10	0.002380778	-0.0004114956	-2.250122e-10	-1.314446e-09	0.001314674	0.002864153
	0.001315326	0.002850905	-2.250122e-10	-1.314446e-09	0.002423464	-0.0004556708	-5.417096e-10	-3.156509e-09
	2.819302e-09	1.281402e-08	0.001314674	0.002864153	-5.417096e-10	-3.156509e-09	0.002427811	-0.0003986944
2.4e+08	0.005320992	0.002579349	1.622904e-10	-8.634246e-10	0.002106499	0.004872156	7.216183e-09	1.171461e-08
	1.622904e-10	-8.634247e-10	0.00520954	0.002624022	-3.149905e-10	-1.341428e-09	0.002039593	0.004886607
	0.002106499	0.004872156	-3.149905e-10	-1.341428e-09	0.005335579	0.002558587	1.59384e-10	-3.542864e-09
	7.216183e-09	1.171461e-08	0.002039593	0.004886607	1.59384e-10	-3.542864e-09	0.005270092	0.002632927
2.5e+08	0.00881533	0.0046263	2.473118e-10	-1.019768e-09	0.003412395	0.006593202	1.131741e-08	9.364805e-09
	2.473118e-10	-1.019768e-09	0.008613451	0.004726197	-4.001988e-10	-1.346067e-09	0.003273386	0.006629149
	0.003412395	0.006593202	-4.001988e-10	-1.346067e-09	0.00882234	0.004614757	8.123662e-10	-4.142591e-09
	1.131741e-08	9.364805e-09	0.003273386	0.006629149	8.123662e-10	-4.142591e-09	0.008686501	0.004727153
2.6e+08	0.01260539	0.005619621	2.980691e-10	-1.201168e-09	0.005128514	0.00788502	1.476657e-08	5.861154e-09
	2.980691e-10	-1.201168e-09	0.01232911	0.005798857	-4.742295e-10	-1.330091e-09	0.004918149	0.007964505
	0.005128514	0.00788502	-4.742295e-10	-1.330091e-09	0.01261291	0.005617011	1.356394e-09	-4.93941e-09
	1.476657e-08	5.861154e-09	0.00491815	0.007964505	1.356394e-09	-4.93941e-09	0.01241249	0.005788246
2.7e+08	0.01640994	0.005538966	3.084845e-10	-1.396517e-09	0.00711949	0.008652769	1.724102e-08	1.401787e-09
	3.084845e-10	-1.396517e-09	0.01608108	0.005816699	-5.312586e-10	-1.297091e-09	0.006845471	0.008797465
	0.00711949	0.008652769	-5.312586e-10	-1.297091e-09	0.01642464	0.005542606	1.736819e-09	-5.899933e-09
	1.724102e-08	1.401787e-09	0.006845471	0.008797465	1.736819e-09	-5.899933e-09	0.01617162	0.005791652
2.8e+08	0.01995551	0.004436113	2.762766e-10	-1.593702e-09	0.009229746	0.008842703	1.848043e-08	-3.725903e-09
	2.762766e-10	-1.593702e-09	0.01960032	0.004825178	-5.665934e-10	-1.25232e-09	0.008906434	0.009071765
	0.009229746	0.008842703	-5.665934e-10	-1.25232e-09	0.01998217	0.004441646	1.9098e-09	-6.976119e-09
	1.848043e-08	-3.725903e-09	0.008906434	0.009071765	1.9098e-09	-6.976119e-09	0.01969414	0.00478384
2.9e+08	0.02299443	0.002429816	2.028003e-10	-1.780908e-09	0.01129553	0.008445896	1.831084e-08	-9.165324e-09
	2.028003e-10	-1.780908e-09	0.02264186	0.002935715	-5.771499e-10	-1.202332e-09	0.01094303	0.008773981
	0.01129553	0.008445896	-5.771499e-10	-1.202332e-09	0.02303569	0.002431985	1.845938e-09	-8.108839e-09
	1.831084e-08	-9.165324e-09	0.01094303	0.008773981	1.845938e-09	-8.108839e-09	0.02273463	0.002877408
3e+08	0.02532064	-0.0003036833	9.246154e-11	-1.947623e-09	0.01315744	0.007498581	1.666202e-08	-1.451679e-08
	9.246154e-11	-1.947623e-09	0.02500041	0.0003166571	-5.618093e-10	-1.154477e-09	0.01280009	0.007934199
	0.01315744	0.007498581	-5.618093e-10	-1.154477e-09	0.02537702	-0.0003102802	1.532752e-09	-9.23216e-09
	1.666202e-08	-1.451679e-08	0.01280009	0.007934199	1.532752e-09	-9.23216e-09	0.02508775	0.0002419694
3.1e+08	0.02678255	-0.003543746	-4.806804e-11	-2.085226e-09	0.01467251	0.006079099	1.357727e-08	-1.936759e-08
	-4.806804e-11	-2.085226e-09	0.02652305	-0.002819307	-5.21615e-10	-1.116305e-09	0.01433698	0.006623457
	0.01467251	0.006079099	-5.21615e-10	-1.116305e-09	0.02685266	-0.003563992	9.759635e-10	-1.027803e-08
	1.357727e-08	-1.936759e-08	0.01433698	0.006623457	9.759635e-10	-1.027803e-08	0.02660085	-0.002908541
3.2e+08	0.02729192	-0.007041148	-2.106008e-10	-2.187181e-09	0.01572498	0.004301727	9.214493e-09	-2.332371e-08
	-2.106008e-10	-2.187181e-09	0.02711812	-0.006230401	-4.597842e-10	-1.094922e-09	0.01543802	0.004948182
	0.01572498	0.004301727	-4.597842e-10	-1.094922e-09	0.02737286	-0.007078874	1.996021e-10	-1.118105e-08
	9.214493e-09	-2.332371e-08	0.01543802	0.004948182	1.996021e-10	-1.118105e-08	0.02718294	-0.006331222
3.3e+08	0.02682844	-0.01053545	-3.859804e-10	-2.248979e-09	0.01623498	0.002307861	3.838903e-09	-2.604115e-08
	-3.859804e-10	-2.248979e-09	0.02676001	-0.009662598	-3.815293e-10	-1.096367e-09	0.01602111	0.00304203
	0.01623498	0.002307861	-3.815293e-10	-1.096367e-09	0.02691631	-0.01059309	-7.549839e-10	-1.188314e-08
	3.838903e-09	-2.604115e-08	0.01602111	0.00304203	-7.549839e-10	-1.188314e-08	0.02680932	-0.009771145
3.4e+08	0.02543966	-0.01377285	-5.643691e-10	-2.268016e-09	0.01616453	0.0002551699	-2.192557e-09	-2.725454e-08
	-5.643691e-10	-2.268016e-09	0.02548932	-0.01286696	-2.936993e-10	-1.125055e-09	0.0160438	0.001055733
	0.01616453	0.0002551699	-2.936993e-10	-1.125055e-09	0.02553013	-0.01385125	-1.831182e-09	-1.233798e-08
	-2.192557e-09	-2.725454e-08	0.0160438	0.001055733	-1.831182e-09	-1.233798e-08	0.02552178	-0.01297876
3.5e+08	0.02323642	-0.01652326	-7.353408e-10	-2.243607e-09	0.01552037	-0.001694447	-8.454132e-09	-2.680118e-08
	-7.353408e-10	-2.243607e-09	0.02340877	-0.01561635	-2.042662e-10	-1.183336e-09	0.0155064	-0.0008543152
	0.01552037	-0.001694447	-2.042662e-10	-1.183336e-09	0.02332529	-0.01662174	-2.960212e-09	-1.25149e-08
	-8.454132e-09	-2.680118e-08	0.0155064	-0.0008543152	-2.960212e-09	-1.25149e-08	0.02342433	-0.01572666
3.6e+08	0.0203841	-0.0185956	-8.879487e-10	-2.17723e-09	0.01435338	-0.003387248	-1.448e-08	-2.463808e-08
	-8.879487e-10	-2.17723e-09	0.02067493	-0.01772033	-1.218256e-10	-1.271168e-09	0.01445187	-0.00253791
	0.01435338	-0.003387248	-1.218256e-10	-1.271168e-09	0.02046775	-0.01871211	-4.065172e-09	-1.2402e-08
	-1.448e-08	-2.463808e-08	0.01445187	-0.00253791	-4.065172e-09	-1.2402e-08	0.02067489	-0.01782454
3.7e+08	0.01709023	-0.01985017	-1.010995e-09	-2.072983e-09	0.01275472	-0.004689444	-1.979863e-08	-2.085363e-08
	-1.010995e-09	-2.072983e-09	0.01748655	-0.01903751	-5.45301e-11	-1.386185e-09	0.01296257	-0.003862437
	0.01275472	-0.004689444	-5.45301e-11	-1.386185e-09	0.01716607	-0.01998165	-5.066263e-09	-1.200908e-08
	-1.979863e-08	-2.085363e-08	0.01296257	-0.003862437	-5.066263e-09	-1.200908e-08	0.01747349	-0.01913151
3.8e+08	0.01358949	-0.02020743	-1.093632e-09	-1.938119e-09	0.01084878	-0.005497497	-2.39689e-08	-1.566622e-08
	-1.093632e-09	-1.938119e-09	0.01407009	-0.01948428	-9.763455e-12	-1.523719e-09	0.01115393	-0.004722965
	0.01084878	-0.005497497	-9.763455e-12	-1.523719e-09	0.0136562	-0.0203502	-5.886725e-09	-1.136803e-08
	-2.39689e-08	-1.566622e-08	0.01115393	-0.004722965	-5.886725e-09	-1.136803e-08	0.01404768	-0.01956478
3.9e+08	0.01012698	-0.01965251	-1.126399e-09	-1.783404e-09	0.00878364	-0.005746124	-2.661624e-08	-9.414826e-09
	-1.126399e-09	-1.783404e-09	0.0106637	-0.01903954	6.556843e-12	-1.677108e-09	0.009165598	-0.00505026
	0.00878364	-0.005746124	6.556843e-12	-1.677108e-09	0.01018456	-0.01980277	-6.45913e-09	-1.053224e-08
	-2.661624e-08	-9.414826e-09	0.009165598	-0.00505026	-6.45913e-09	-1.053224e-08	0.01063642	-0.01910438
4e+08	0.006940904	-0.01823525	-1.102596e-09	-1.623034e-09	0.0067196	-0.005413372	-2.746608e-08	-2.539219e-09
	-1.102596e-09	-1.623034e-09	0.007500475	-0.01774509	-9.475417e-12	-1.83818e-09	0.007150766	-0.004816074
	0.0067196	-0.005413372	-9.475417e-12	-1.83818e-09	0.006990677	-0.01838952	-6.731688e-09	-9.574002e-09
	-2.746608e-08	-2.539219e-09	0.007150766	-0.004816074	-6.731688e-09	-9.574002e-09	0.007473307	-0.01779346
4.1e+08	0.004246023	-0.01606567	-1.019748e-09	-1.473903e-09	0.004816743	-0.00452232	-2.637152e-08	4.449612e-09
	-1.019748e-09	-1.473903e-09	0.004792322	-0.01570168	-5.938902e-11	-1.997863e-09	0.005264344	-0.004035273
	0.004816743	-0.00452232	-5.938902e-11	-1.997863e-09	0.004290394	-0.01622119	-6.673837e-09	-8.579879e-09
	-2.637152e-08	4.449612e-09	0.005264344	-0.004035273	-6.673837e-09	-8.579879e-09	0.004770334	-0.01573416
4.2e+08	0.002218875	-0.01330528	-8.808345e-10	-1.354178e-09	0.003222516	-0.00313927	-2.333212e-08	1.100687e-08
	-8.808345e-10	-1.354178e-09	0.002715529	-0.01306096	-1.421483e-10	-2.146864e-09	0.003651056	-0.002764638
	0.003222516	-0.00313927	-1.421483e-10	-2.146864e-09	0.002261025	-0.01346037	-6.280408e-09	-7.644284e-09
	-2.333212e-08	1.100687e-08	0.003651056	-0.002764638	-6.280408e-09	-7.644284e-09	0.002703478	-0.01307956
4.3e+08	0.0009858912	-0.01015493	-6.949119e-10	-1.281282e-09	0.002060267	-0.001368557	-1.850154e-08	1.659661e-08
	-6.949119e-10	-1.281282e-09	0.001398977	-0.01001399	-2.541583e-10	-2.276385e-09	0.002434297	-0.001098394
	0.002060267	-0.001368557	-2.541583e-10	-2.276385e-09	0.001029383	-0.01030913	-5.573709e-09	-6.861731e-09
	-1.850154e-08	1.659661e-08	0.002434297	-0.001098394	-5.573709e-09	-6.861731e-09	0.001400928	-0.01002201
4.4e+08	0.0006152054	-0.006839939	-4.768854e-10	-1.269614e-09	0.001419703	0.0006556332	-1.218231e-08	2.073602e-08
	-4.768854e-10	-1.269614e-09	0.0009158827	-0.006777188	-3.894605e-10	-2.378813e-09	0.001706692	0.0008391493
	0.001419703	0.0006556332	-3.894605e-10	-2.378813e-09	0.0006635466	-0.006994085	-4.603086e-09	-6.318517e-09
	-1.218231e-08	2.073602e-08	0.001706692	0.0008391493	-4.603086e-09	-6.318517e-09	0.0009348605	-0.00677895
4.5e+08	0.001112731	-0.003593705	-2.46313e-10	-1.328396e-09	0.00135	0.00277975	-4.807571e-09	2.303739e-08
	-2.46313e-10	-1.328396e-09	0.001279572	-0.003576616	-5.401091e-10	-2.448347e-09	0.001523073	0.002903284
	0.00135	0.00277975	-5.401091e-10	-2.448347e-09	0.001168953	-0.00374983	-3.44182e-09	-6.084756e-09
	-4.807571e-09	2.303739e-08	0.001523073	0.002903284	-3.44182e-09	-6.084756e-09	0.001317305	-0.003577185
4.6e+08	0.002422726	-0.0006409994	-2.536318e-11	-1.460099e-09	0.001856111	0.004842851	3.089336e-09	2.324364e-08
	-2.536318e-11	-1.460099e-09	0.002443574	-0.0006318841	-6.96705e-10	-2.481503e-09	0.001896423	0.004940115
	0.001856111	0.004842851	-6.96705e-10	-2.481503e-09	0.002489016	-0.0008021238	-2.181575e-09	-6.207652e-09
	3.089336e-09	2.324364e-08	0.001896423	0.004940115	-2.181575e-09	-6.207652e-09	0.002500327	-0.0006366607
4.7e+08	0.00443282	0.001817874	1.624209e-10	-1.660918e-09	0.002898543	0.006689077	1.091192e-08	2.124754e-08
	1.624209e-10	-1.660918e-09	0.004305944	0.001859237	-8.493384e-10	-2.47783e-09	0.002797087	0.006798411
