!$
! Info: Touchstone file created by Circ.  Input file=Tx_10in_Rx_100ohms_TxVia_10mils_RxVia_20mils.circ
!$
# Hz S RI R 50
0	0.0104104	6.595362e-26	1.093605e-10	2.150051e-28	6.654776e-05	1.104529e-23	-5.023662e-09	6.153584e-25
	1.093724e-10	2.151902e-28	0.01041105	9.165124e-26	5.42132e-10	3.496933e-27	6.463934e-05	1.480141e-23
	6.524732e-05	1.076216e-23	5.420708e-10	3.504071e-27	0.0104256	6.906191e-26	-9.11553e-09	1.130209e-24
	-5.022782e-09	6.152508e-25	6.609488e-05	1.52342e-23	-9.115724e-09	1.130233e-24	0.01041662	8.740552e-26
1e+07	0.01516425	0.006491102	5.079888e-11	-2.720883e-11	0.0006406858	0.001834634	-6.591921e-09	1.702756e-08
	5.079889e-11	-2.720912e-11	0.0153167	0.006476302	6.838006e-10	1.063433e-09	0.0006374744	0.001832898
	0.0006406416	0.001834637	6.838006e-10	1.063433e-09	0.01533454	0.006477315	-7.993302e-09	1.685418e-08
	-6.591921e-09	1.702756e-08	0.0006375073	0.001832887	-7.993302e-09	1.685418e-08	0.0151794	0.006494112
2e+07	0.01980243	0.009209393	4.634075e-11	-2.746785e-11	0.001063424	0.003760342	-5.216968e-09	1.388722e-08
	4.634053e-11	-2.746794e-11	0.01990336	0.009130535	8.813172e-10	1.868846e-09	0.001051451	0.003759034
	0.001063414	0.00376037	8.813174e-10	1.868846e-09	0.01993029	0.00913013	-6.838457e-09	1.451914e-08
	-5.216969e-09	1.388721e-08	0.001051449	0.003759012	-6.838457e-09	1.451914e-08	0.01981275	0.00921445
3e+07	0.02384233	0.01001247	5.506095e-11	-6.168701e-11	0.00184978	0.005381023	-1.456872e-09	1.312005e-08
	5.506092e-11	-6.168697e-11	0.02389417	0.009914828	9.812646e-10	2.623373e-09	0.001824273	0.005383779
	0.00184978	0.005381027	9.812647e-10	2.623373e-09	0.02393534	0.009909384	-2.5502e-09	1.442363e-08
	-1.456872e-09	1.312005e-08	0.001824268	0.005383776	-2.5502e-09	1.442363e-08	0.02384551	0.01002216
4e+07	0.02750641	0.009756426	4.857035e-11	-9.715009e-11	0.002966029	0.00674441	1.581295e-09	1.171102e-08
	4.857033e-11	-9.715014e-11	0.02750927	0.009657327	1.052713e-09	3.385421e-09	0.002923345	0.006756075
	0.002966025	0.006744407	1.052712e-09	3.385421e-09	0.02756852	0.009641536	8.704673e-10	1.327255e-08
	1.581296e-09	1.171102e-08	0.002923345	0.006756076	8.704673e-10	1.327255e-08	0.02749928	0.009771434
5e+07	0.03080035	0.008679614	3.938479e-11	-1.268504e-10	0.004471335	0.007739309	3.623246e-09	1.030374e-08
	3.938475e-11	-1.268505e-10	0.03075538	0.008592666	1.114192e-09	4.136924e-09	0.004409231	0.007765511
	0.004471334	0.007739308	1.114192e-09	4.136924e-09	0.03083477	0.008560104	3.080597e-09	1.198653e-08
	3.623246e-09	1.030374e-08	0.004409231	0.007765512	3.080596e-09	1.198653e-08	0.03077929	0.008703458
6e+07	0.0336815	0.00692843	4.523113e-11	-1.484795e-10	0.006113689	0.008405157	4.856429e-09	9.500465e-09
	4.523123e-11	-1.484795e-10	0.03359159	0.00686573	1.166687e-09	4.864082e-09	0.006031648	0.008452229
	0.006113695	0.008405155	1.166687e-09	4.864082e-09	0.0336912	0.006809465	4.229727e-09	1.120551e-08
	4.856429e-09	9.500465e-09	0.006031645	0.00845223	4.229727e-09	1.120551e-08	0.03364498	0.006965862
7e+07	0.03609469	0.004621219	1.488521e-10	-1.402668e-10	0.007828296	0.008725622	4.869554e-09	1.020999e-08
	1.488524e-10	-1.402669e-10	0.03596476	0.004593636	1.238147e-09	5.525461e-09	0.007727553	0.008799992
	0.007828307	0.008725616	1.238147e-09	5.525461e-09	0.03608261	0.004506818	3.893316e-09	1.141396e-08
	4.869554e-09	1.020999e-08	0.007727548	0.008799994	3.893316e-09	1.141396e-08	0.03604256	0.004676836
8e+07	0.0379874	0.001869651	-5.150861e-10	-1.409301e-09	0.009546969	0.00869578	-8.75618e-10	1.110791e-08
	-5.150856e-10	-1.409301e-09	0.03782445	0.001886681	1.479473e-09	6.349069e-09	0.009430486	0.00880355
	0.00954698	0.00869577	1.479473e-09	6.349069e-09	0.03795666	0.00176307	-7.207783e-11	1.133902e-08
	-8.75618e-10	1.110791e-08	0.009430481	0.008803553	-7.207773e-11	1.133902e-08	0.03792032	0.001948025
9e+07	0.0393181	-0.001213964	-4.396198e-11	-3.062156e-10	0.01120045	0.008323009	-2.885425e-09	2.641432e-09
	-4.396164e-11	-3.06216e-10	0.03913116	-0.0011444	1.341587e-09	7.254409e-09	0.01107282	0.008469547
	0.01120046	0.008323	1.341587e-09	7.254409e-09	0.03927222	-0.00130998	-2.855057e-09	4.927151e-09
	-2.885425e-09	2.641432e-09	0.01107281	0.00846955	-2.855057e-09	4.927151e-09	0.03923771	-0.001108023
1e+08	0.04007247	-0.004508895	-8.330653e-11	-2.265864e-10	0.01271547	0.007624018	-3.252226e-10	8.742991e-11
	-8.330653e-11	-2.265864e-10	0.03987395	-0.004380005	1.197441e-09	7.986486e-09	0.01258269	0.007813586
	0.01271547	0.007624018	1.197441e-09	7.986486e-09	0.04001692	-0.004591286	-7.358319e-10	1.618251e-09
	-3.252226e-10	8.74299e-11	0.01258269	0.007813586	-7.358319e-10	1.618251e-09	0.03998187	-0.004370567
1.1e+08	0.04023704	-0.007999672	-1.045252e-10	-2.433414e-10	0.01403043	0.006673567	-3.246091e-10	1.772533e-10
	-1.045252e-10	-2.433414e-10	0.0400398	-0.007815213	1.225295e-09	8.794104e-09	0.01389936	0.006908565
	0.01403043	0.006673567	1.225295e-09	8.794104e-09	0.04017806	-0.008076555	-6.93359e-10	1.940123e-09
	-3.246091e-10	1.772533e-10	0.01389936	0.006908565	-6.93359e-10	1.940123e-09	0.04014136	-0.007824557
1.2e+08	0.03973141	-0.01149886	-1.224114e-10	-2.521266e-10	0.01513061	0.005488884	-3.047788e-10	2.659361e-10
	-1.224114e-10	-2.521266e-10	0.03954165	-0.01125996	1.267286e-09	9.611445e-09	0.01500941	0.005770533
	0.01513061	0.005488884	1.267286e-09	9.611445e-09	0.03966504	-0.01157104	-5.940127e-10	2.267015e-09
	-3.047788e-10	2.659361e-10	0.01500941	0.005770533	-5.940127e-10	2.267015e-09	0.03963682	-0.01128474
1.3e+08	0.03859712	-0.01487759	-1.382506e-10	-2.562732e-10	0.01596442	0.004113566	-2.639585e-10	3.512884e-10
	-1.382506e-10	-2.562732e-10	0.03842313	-0.01458581	1.32559e-09	1.043479e-08	0.01586159	0.004440998
	0.01596442	0.004113566	1.32559e-09	1.043479e-08	0.03852206	-0.01494377	-4.385697e-10	2.582852e-09
	-2.639585e-10	3.512884e-10	0.01586159	0.004440998	-4.385697e-10	2.582852e-09	0.03851038	-0.01462373
1.4e+08	0.03687933	-0.01802544	-1.517588e-10	-2.566599e-10	0.01649756	0.002604233	-2.023598e-10	4.28594e-10
	-1.517588e-10	-2.566599e-10	0.03672963	-0.01768395	1.402186e-09	1.125996e-08	0.01642142	0.002974471
	0.01649756	0.002604233	1.402186e-09	1.125996e-08	0.03679544	-0.01808379	-2.293179e-10	2.873692e-09
	-2.023598e-10	4.28594e-10	0.01642142	0.002974471	-2.293179e-10	2.873692e-09	0.03680753	-0.01773271
1.5e+08	0.03463757	-0.02084362	-1.627052e-10	-2.53773e-10	0.01670887	0.001023682	-1.216679e-10	4.929087e-10
	-1.627052e-10	-2.53773e-10	0.03452026	-0.02045744	1.497949e-09	1.208252e-08	0.01666712	0.001431709
	0.01670887	0.001023682	1.497949e-09	1.208252e-08	0.03454552	-0.02089225	2.829612e-11	3.126517e-09
	-1.216679e-10	4.929087e-10	0.01666712	0.001431709	2.829612e-11	3.126517e-09	0.03458767	-0.02051461
1.6e+08	0.03194537	-0.0232464	-1.708242e-10	-2.478264e-10	0.01659065	-0.0005622236	-2.484885e-11	5.39653e-10
	-1.708242e-10	-2.478264e-10	0.03186763	-0.02282229	1.612657e-09	1.289806e-08	0.01658988	-0.0001233001
	0.01659065	-0.0005622235	1.612657e-09	1.289806e-08	0.03184647	-0.02328355	3.259037e-10	3.329834e-09
	-2.484885e-11	5.39653e-10	0.01658988	-0.0001233001	3.259037e-10	3.329834e-09	0.03192385	-0.02288538
1.7e+08	0.02888855	-0.0251629	-1.757073e-10	-2.388397e-10	0.01614873	-0.002087404	8.400679e-11	5.649872e-10
	-1.757073e-10	-2.388397e-10	0.02885625	-0.02470932	1.745081e-09	1.370242e-08	0.01619404	-0.001626098
	0.01614873	-0.002087404	1.745081e-09	1.370242e-08	0.02878462	-0.02518714	6.52622e-10	3.474273e-09
	8.400679e-11	5.649872e-10	0.01619404	-0.001626098	6.52622e-10	3.474273e-09	0.02890099	-0.02477579
1.8e+08	0.02556288	-0.026539	-1.766886e-10	-2.267453e-10	0.01540218	-0.003488319	1.999176e-10	5.660995e-10
	-1.766886e-10	-2.267453e-10	0.02558012	-0.02606573	1.893107e-09	1.449183e-08	0.01549675	-0.003014421
	0.01540218	-0.003488319	1.893107e-09	1.449183e-08	0.0254561	-0.02654928	9.956187e-10	3.553083e-09
	1.999176e-10	5.660995e-10	0.01549675	-0.003014421	9.956187e-10	3.553083e-09	0.02561356	-0.0261331
1.9e+08	0.02207124	-0.02733867	-1.727686e-10	-2.115458e-10	0.01438245	-0.004706585	3.173069e-10	5.414064e-10
	-1.727686e-10	-2.115458e-10	0.02214004	-0.02685653	2.053886e-09	1.526312e-08	0.01452731	-0.004230735
	0.01438245	-0.004706585	2.053886e-09	1.526312e-08	0.02196402	-0.02733438	1.34077e-09	3.562467e-09
	3.173069e-10	5.414064e-10	0.01452731	-0.004230735	1.34077e-09	3.562467e-09	0.02216279	-0.02692242
2e+08	0.01852038	-0.02754494	-1.626037e-10	-1.935078e-10	0.01313206	-0.005691362	4.303334e-10	4.90658e-10
	-1.626037e-10	-1.935078e-10	0.0186404	-0.02706531	2.223986e-09	1.601374e-08	0.01332586	-0.005224564
	0.01313206	-0.005691362	2.223986e-09	1.601374e-08	0.01841528	-0.02752596	1.673354e-09	3.501746e-09
	4.303334e-10	4.90658e-10	0.01332586	-0.005224564	1.673354e-09	3.501746e-09	0.01865354	-0.02712755
2.1e+08	0.01501759	-0.0271603	-1.445828e-10	-1.733651e-10	0.01170288	-0.006401431	5.33228e-10	4.149454e-10
	-1.445828e-10	-1.733651e-10	0.01518602	-0.0266946	2.399531e-09	1.674189e-08	0.01194178	-0.005954516
	0.01170288	-0.006401431	2.399531e-09	1.674189e-08	0.01491721	-0.02712698	1.978736e-09	3.373357e-09
	5.33228e-10	4.149454e-10	0.01194178	-0.005954516	1.978736e-09	3.373357e-09	0.015191	-0.02675125
2.2e+08	0.01166726	-0.0262064	-1.169938e-10	-1.524966e-10	0.01015393	-0.006806863	6.206058e-10	3.166204e-10
	-1.169938e-10	-1.524965e-10	0.01187874	-0.02576555	2.576341e-09	1.744649e-08	0.01043168	-0.006389943
	0.01015393	-0.006806863	2.576341e-09	1.744649e-08	0.01157416	-0.02615958	2.243e-09	3.182711e-09
	6.206058e-10	3.166204e-10	0.01043168	-0.006389943	2.243e-09	3.182711e-09	0.01187738	-0.02581502
2.3e+08	0.008567537	-0.02472321	-7.827242e-11	-1.330399e-10	0.008549	-0.006890234	6.877317e-10	1.991413e-10
	-7.827242e-11	-1.330399e-10	0.008814276	-0.02431704	2.750046e-09	1.812725e-08	0.008857034	-0.006512157
	0.008549	-0.006890234	2.750046e-09	1.812725e-08	0.008484116	-0.02466422	2.453491e-09	2.937932e-09
	6.877317e-10	1.991413e-10	0.008857034	-0.006512157	2.453491e-09	2.937932e-09	0.008808659	-0.02435816
2.4e+08	0.005807101	-0.02276751	-2.730494e-11	-1.179064e-10	0.006953998	-0.006647312	7.30723e-10	6.686936e-11
	-2.730494e-11	-1.179064e-10	0.006079089	-0.02240427	2.916197e-09	1.878469e-08	0.007281753	-0.00631515
	0.006953998	-0.006647312	2.916197e-09	1.878469e-08	0.005735542	-0.02269813	2.599281e-09	2.649526e-09
	7.30723e-10	6.686936e-11	0.007281753	-0.00631515	2.599281e-09	2.649526e-09	0.006071516	-0.0224363
2.5e+08	0.003462361	-0.02041091	3.625193e-11	-1.106797e-10	0.005434264	-0.006087203	7.466831e-10	-7.515827e-11
	3.625193e-11	-1.106797e-10	0.00374772	-0.0200967	3.070379e-09	1.942011e-08	0.005769531	-0.005805808
	0.005434264	-0.006087203	3.070379e-09	1.942011e-08	0.003404525	-0.02033334	2.671533e-09	2.330006e-09
	7.466831e-10	-7.515827e-11	0.005769531	-0.005805808	2.671533e-09	2.330006e-09	0.003740599	-0.02011942
2.6e+08	0.001594985	-0.01773724	1.116826e-10	-1.153881e-10	0.004051883	-0.005231949	7.337716e-10	-2.214575e-10
	1.116826e-10	-1.153881e-10	0.001880423	-0.01747565	3.208326e-09	2.003567e-08	0.004381296	-0.00500358
	0.004051883	-0.005231949	3.208326e-09	2.003567e-08	0.001552329	-0.01765405	2.663788e-09	1.993488e-09
	7.337716e-10	-2.214575e-10	0.004381296	-0.00500358	2.663788e-09	1.993488e-09	0.001876165	-0.01748935
2.7e+08	0.0002499806	-0.01483969	1.970008e-10	-1.361646e-10	0.002863154	-0.004115581	6.912229e-10	-3.663077e-10
	1.970008e-10	-1.361646e-10	0.0005213315	-0.01463146	3.326066e-09	2.063437e-08	0.003172745	-0.003939652
	0.002863154	-0.004115581	3.326066e-09	2.063437e-08	0.0002234834	-0.0147537	2.572192e-09	1.655286e-09
	6.912229e-10	-3.663077e-10	0.003172745	-0.003939652	2.572192e-09	1.655286e-09	0.0005222496	-0.01463691
2.8e+08	-0.0005456658	-0.01181746	2.888609e-10	-1.768262e-10	0.0019163	-0.002782691	6.193302e-10	-5.039366e-10
	2.888609e-10	-1.768262e-10	-0.0003028185	-0.01166029	3.420084e-09	2.122006e-08	0.002192116	-0.00265563
	0.0019163	-0.002782691	3.420084e-09	2.122006e-08	-0.0005555548	-0.01173171	2.395683e-09	1.331493e-09
	6.193302e-10	-5.039366e-10	0.002192116	-0.00265563	2.395683e-09	1.331493e-09	-0.0002946087	-0.01165877
2.9e+08	-0.0007837099	-0.008772406	3.826142e-10	-2.404177e-10	0.001249527	-0.001286573	5.194124e-10	-6.286751e-10
	3.826142e-10	-2.404177e-10	-0.0005833762	-0.008660884	3.487512e-09	2.17974e-08	0.001478268	-0.001201817
	0.001249527	-0.001286573	3.487512e-09	2.17974e-08	-0.0007771198	-0.008690009	2.136135e-09	1.038553e-09
	5.194124e-10	-6.286751e-10	0.001478268	-0.001201817	2.136135e-09	1.038553e-09	-0.0005660634	-0.008654091
3e+08	-0.0004747208	-0.005805483	4.725239e-10	-3.287734e-10	0.0008895033	0.0003129945	3.9378e-10	-7.350924e-10
	4.725239e-10	-3.287734e-10	-0.0003298353	-0.005731186	3.526338e-09	2.237181e-08	0.001059164	0.0003648634
	0.0008895033	0.0003129945	3.526338e-09	2.237181e-08	-0.0004523745	-0.00572954	1.798482e-09	7.927844e-10
	3.9378e-10	-7.350924e-10	0.001059164	0.0003648634	1.798482e-09	7.927844e-10	-0.0003019918	-0.005721183
3.1e+08	0.0003525081	-0.003013309	5.521314e-10	-4.421574e-10	0.0008503158	0.001952208	2.457056e-10	-8.181236e-10
	5.521314e-10	-4.421574e-10	0.0004307347	-0.002965021	3.535615e-09	2.294925e-08	0.0009507967	0.001983194
	0.0008503158	0.001952208	3.535615e-09	2.294925e-08	0.0003892938	-0.002946778	1.390783e-09	6.098702e-10
	2.457056e-10	-8.181236e-10	0.0009507967	0.001983194	1.390783e-09	6.098702e-10	0.0004700792	-0.002954151
3.2e+08	0.00165217	-0.0004849018	6.147338e-10	-5.790255e-10	0.001132954	0.003565854	7.940011e-11	-8.73204e-10
	6.147338e-10	-5.790255e-10	0.001654848	-0.0004489837	3.51565e-09	2.353611e-08	0.00115661	0.003590145
	0.001132954	0.003565854	3.51565e-09	2.353611e-08	0.001701512	-0.0004304818	9.242298e-10	5.042807e-10
	7.940011e-11	-8.73204e-10	0.00115661	0.003590145	9.242298e-10	5.042807e-10	0.001706155	-0.0004397687
3.3e+08	0.003363246	0.001701291	6.539339e-10	-7.359515e-10	0.001725328	0.005089968	-1.000152e-10	-8.964248e-10
	6.539339e-10	-7.359515e-10	0.003284322	0.001740407	3.468148e-09	2.413883e-08	0.001667431	0.005123422
	0.001725328	0.005089968	3.468148e-09	2.413883e-08	0.003422746	0.001741272	4.130511e-10	4.886442e-10
	-1.000152e-10	-8.964248e-10	0.001667431	0.005123422	4.130511e-10	4.886442e-10	0.003347515	0.001745376
3.4e+08	0.005411813	0.003479958	6.64199e-10	-9.07736e-10	0.002602819	0.006464415	-2.865586e-10	-8.847162e-10
	6.64199e-10	-9.07736e-10	0.005248475	0.003539168	3.396288e-09	2.476364e-08	0.002461909	0.006523945
	0.002602819	0.006464415	3.396288e-09	2.476364e-08	0.005478629	0.003503644	-1.257203e-10	5.730732e-10
	-2.865586e-10	-8.847162e-10	0.002461909	0.006523945	-1.257203e-10	5.730732e-10	0.00532293	0.003537343
3.5e+08	0.007713777	0.004800999	6.413669e-10	-1.087682e-09	0.003729328	0.007635305	-4.734782e-10	-8.360554e-10
	6.413669e-10	-1.087682e-09	0.007466736	0.004897839	3.304708e-09	2.541616e-08	0.00350744	0.0077382
	0.003729328	0.007635305	3.304708e-09	2.541616e-08	0.007784721	0.004807091	-6.726429e-10	7.644937e-10
	-4.734782e-10	-8.360554e-10	0.00350744	0.0077382	-6.726429e-10	7.644937e-10	0.007551301	0.004886829
3.6e+08	0.01017793	0.00563104	5.830435e-10	-1.268027e-09	0.005058786	0.00855714	-6.534029e-10	-7.496878e-10
	5.830435e-10	-1.268027e-09	0.009851546	0.005782949	3.199387e-09	2.610104e-08	0.00476152	0.00872033
	0.005058786	0.00855714	3.199387e-09	2.610104e-08	0.01024957	0.005618865	-1.206448e-09	1.066012e-09
	-6.534029e-10	-7.496878e-10	0.00476152	0.00872033	-1.206448e-09	1.066012e-09	0.009944579	0.005760629
3.7e+08	0.0127092	0.005954354	4.888518e-10	-1.440469e-09	0.006537047	0.009194601	-8.185686e-10	-6.263398e-10
	4.888518e-10	-1.440469e-09	0.01231147	0.006177905	3.087422e-09	2.682157e-08	0.006173497	0.009433926
	0.006537047	0.009194601	3.087422e-09	2.682157e-08	0.01277802	0.00592391	-1.70481e-09	1.476386e-09
	-8.185686e-10	-6.263398e-10	0.006173497	0.009433926	-1.70481e-09	1.476386e-09	0.0124109	0.006142514
3.8e+08	0.01521204	0.005773143	3.60504e-10	-1.596743e-09	0.008104092	0.009523932	-9.611249e-10	-4.683928e-10
	3.60504e-10	-1.596743e-09	0.01475439	0.006083292	2.976699e-09	2.757946e-08	0.007686617	0.009853412
	0.008104092	0.009523932	2.976699e-09	2.757946e-08	0.01527451	0.005725114	-2.145282e-09	1.989669e-09
	-9.611249e-10	-4.683928e-10	0.007686617	0.009853412	-2.145282e-09	1.989669e-09	0.01485781	0.006033514
3.9e+08	0.01759373	0.005107202	2.016972e-10	-1.729182e-09	0.009696454	0.009533842	-1.073515e-09	-2.799875e-10
	2.016972e-10	-1.729182e-09	0.01709069	0.005516567	2.875497e-09	2.83746e-08	0.0092403	0.009965009
	0.009696454	0.009533842	2.875497e-09	2.83746e-08	0.01764649	0.005042952	-2.506357e-09	2.595061e-09
	-1.073515e-09	-2.799875e-10	0.0092403	0.009965009	-2.506357e-09	2.595061e-09	0.01719542	0.005451602
4e+08	0.01976755	0.003992959	1.785311e-11	-1.831207e-09	0.01124976	0.009225921	-1.148907e-09	-6.702874e-11
	1.785311e-11	-1.831207e-09	0.01923626	0.004511197	2.79203e-09	2.920495e-08	0.01077255	0.009767226
	0.01124976	0.009225921	2.79203e-09	2.920495e-08	0.01980753	0.0039145	-2.768599e-09	3.277047e-09
	-1.148907e-09	-6.702874e-11	0.01077255	0.009767226	-2.768599e-09	3.277047e-09	0.01933951	0.004430799
4.1e+08	0.02165574	0.002481984	-1.842652e-10	-1.897698e-09	0.01270132	0.008614535	-1.181656e-09	1.629322e-10
	-1.842652e-10	-1.897698e-09	0.02111533	0.003115238	2.733983e-09	3.006665e-08	0.01222239	0.00927087
	0.01270132	0.008614535	2.733983e-09	3.006665e-08	0.02168029	0.002391911	-2.915757e-09	4.015808e-09
	-1.181656e-09	1.629322e-10	0.01222239	0.00927087	-2.915757e-09	4.015808e-09	0.02121426	0.003019745
4.2e+08	0.02319208	0.0006389477	-3.970037e-10	-1.925221e-09	0.01399257	0.007726232	-1.167735e-09	4.009495e-10
	-3.970037e-10	-1.925221e-09	0.02266294	0.001389457	2.708064e-09	3.095412e-08	0.0135323	0.008498575
	0.01399257	0.007726232	2.708064e-09	3.095412e-08	0.02319906	0.0005403492	-2.935782e-09	4.787936e-09
	-1.167735e-09	4.009495e-10	0.0135323	0.008498575	-2.935782e-09	4.787936e-09	0.02275483	0.001279778
4.3e+08	0.02432402	-0.001460816	-6.12282e-10	-1.912106e-09	0.01507146	0.006598661	-1.105118e-09	6.370647e-10
	-6.12282e-10	-1.912106e-09	0.023827	-0.0005949714	2.719618e-09	3.186037e-08	0.01465041	0.00748388
	0.01507146	0.006598661	2.719618e-09	3.186037e-08	0.02431193	-0.001564451	-2.821668e-09	5.567401e-09
	-1.105118e-09	6.370647e-10	0.01465041	0.00748388	-2.821668e-09	5.567401e-09	0.02390933	-0.0007173723
4.4e+08	0.02501436	-0.003734093	-8.220214e-10	-1.858389e-09	0.01589448	0.005279064	-9.940495e-10	8.607997e-10
	-8.220214e-10	-1.858389e-09	0.02456992	-0.002759078	2.77233e-09	3.277735e-08	0.01553259	0.00626988
	0.01589448	0.005279064	2.77233e-09	3.277735e-08	0.02498238	-0.003839015	-2.57203e-09	6.326735e-09
	-9.940495e-10	8.607997e-10	0.01553259	0.00626988	-2.57203e-09	6.326735e-09	0.02464047	-0.002892239
4.5e+08	0.02524232	-0.006092824	-1.018497e-09	-1.76565e-09	0.01642838	0.003822393	-8.371783e-10	1.061728e-09
	-1.018497e-09	-1.76565e-09	0.02486963	-0.005018953	2.868035e-09	3.369639e-08	0.01614411	0.004907516
	0.01642838	0.003822393	2.868035e-09	3.369639e-08	0.02519038	-0.006195151	-2.191388e-09	7.038334e-09
	-8.371783e-10	1.061728e-09	0.01614411	0.004907516	-2.191388e-09	7.038334e-09	0.02492666	-0.005160483
4.6e+08	0.02500407	-0.008447262	-1.194587e-09	-1.63678e-09	0.01665151	0.002289125	-6.39532e-10	1.230077e-09
	-1.194587e-09	-1.63678e-09	0.02472023	-0.007288735	3.006646e-09	3.460866e-08	0.01646106	0.003453563
	0.01665151	0.002289125	3.006646e-09	3.460866e-08	0.02493286	-0.00854313	-1.690106e-09	7.675816e-09
	-6.39532e-10	1.230077e-09	0.01646106	0.003453563	-1.690106e-09	7.675816e-09	0.02476245	-0.007435904
4.7e+08	0.02431263	-0.01070916	-1.343914e-09	-1.475746e-09	0.0165547	0.0007428582	-4.08319e-10	1.357312e-09
	-1.343914e-09	-1.475746e-09	0.02413186	-0.009483623	3.186208e-09	3.550557e-08	0.0164712	0.001968386
	0.0165547	0.0007428582	3.186208e-09	3.550557e-08	0.02422363	-0.01079488	-1.084e-09	8.215288e-09
	-4.08319e-10	1.357312e-09	0.0164712	0.001968386	-1.084e-09	8.215288e-09	0.02415851	-0.009633474
4.8e+08	0.02319732	-0.01279487	-1.460901e-09	-1.287369e-09	0.01614159	-0.0007522189	-1.525797e-10	1.436661e-09
