!$
! Info: Touchstone file created by Circ.  Input file=Tx_14in_Rx_85ohms_TxVia_10mils_RxVia_20mils.circ
!$
# Hz S RI R 50
0	0.01125633	1.063072e-25	6.851538e-13	2.068538e-28	8.861581e-05	1.413161e-23	-4.683236e-09	5.733232e-25
	6.867592e-13	2.070399e-28	0.01125916	1.232961e-25	-3.702735e-12	4.097656e-28	8.604754e-05	1.601404e-23
	8.866332e-05	1.413987e-23	-3.751382e-12	4.156996e-28	0.01127108	1.065843e-25	-1.283248e-09	1.570211e-25
	-4.681112e-09	5.730631e-25	8.750275e-05	1.648228e-23	-1.283293e-09	1.570266e-25	0.01126472	1.175534e-25
1e+07	0.01380487	-0.01406831	-2.546757e-12	-5.914507e-12	0.0004457297	0.002461162	-5.986664e-09	1.741523e-08
	-2.546741e-12	-5.914781e-12	0.0137946	-0.01383891	-4.148052e-12	-6.542867e-12	0.0005464651	0.00244979
	0.0004457338	0.002461158	-4.148039e-12	-6.542617e-12	0.0156799	-0.01375417	-3.657354e-09	1.647622e-08
	-5.986664e-09	1.741523e-08	0.0005464979	0.002449778	-3.657354e-09	1.647622e-08	0.01376532	-0.01382895
2e+07	0.01096475	-0.03126759	-5.282214e-12	-7.638069e-12	0.001513255	0.004696395	-1.700327e-09	1.483711e-08
	-5.282412e-12	-7.638166e-12	0.0111795	-0.0309157	-5.613218e-12	-1.140129e-11	0.001633159	0.004588022
	0.001513253	0.004696392	-5.613043e-12	-1.140116e-11	0.01282558	-0.03146764	-3.314756e-09	1.398202e-08
	-1.700327e-09	1.483711e-08	0.001633155	0.004588	-3.314756e-09	1.398202e-08	0.01116208	-0.0308828
3e+07	0.002009868	-0.04790805	-9.132598e-12	-6.281738e-12	0.003204295	0.006411912	2.067472e-09	1.251408e-08
	-9.132625e-12	-6.281707e-12	0.00237163	-0.04756382	-1.183198e-11	-1.104064e-11	0.003248783	0.006291484
	0.003204295	0.006411912	-1.183195e-11	-1.104068e-11	0.003810037	-0.04840842	2.160991e-09	1.302749e-08
	2.067472e-09	1.251408e-08	0.003248778	0.006291482	2.160991e-09	1.302749e-08	0.002364101	-0.04751902
4e+07	-0.0116863	-0.06146238	-1.105987e-11	-3.151431e-12	0.005266631	0.007540088	4.835872e-09	1.017203e-08
	-1.105984e-11	-3.151449e-12	-0.01123365	-0.06116367	-1.310666e-11	-8.868132e-12	0.005241852	0.007437425
	0.005266632	0.007540087	-1.310669e-11	-8.868112e-12	-0.009995926	-0.0622163	5.899405e-09	1.059874e-08
	4.835872e-09	1.017203e-08	0.005241852	0.007437427	5.899405e-09	1.059874e-08	-0.01123406	-0.06111166
5e+07	-0.02871638	-0.07064222	-1.142953e-11	-3.025562e-13	0.007513435	0.008015269	7.022747e-09	8.004878e-09
	-1.142953e-11	-3.025723e-13	-0.02821773	-0.07040004	-1.280654e-11	-8.243014e-12	0.007429303	0.007952842
	0.007513436	0.008015268	-1.280655e-11	-8.242996e-12	-0.02717799	-0.07161265	8.35939e-09	8.550006e-09
	7.022747e-09	8.004878e-09	0.007429303	0.007952842	8.35939e-09	8.550006e-09	-0.02821392	-0.07034115
6e+07	-0.0475415	-0.07472662	-1.304529e-11	2.094359e-12	0.009748664	0.007828099	9.493442e-09	5.945612e-09
	-1.304527e-11	2.094385e-12	-0.04703135	-0.07453746	-1.454992e-11	-1.044735e-11	0.009619239	0.007823274
	0.009748666	0.007828099	-1.454994e-11	-1.044738e-11	-0.04618931	-0.07587514	1.041004e-08	8.558339e-09
	9.493442e-09	5.945612e-09	0.009619236	0.007823275	1.041004e-08	8.558339e-09	-0.04702426	-0.0744709
7e+07	-0.06657752	-0.07349523	-2.366081e-11	1.310163e-11	0.01178739	0.007025278	1.537929e-08	2.546585e-09
	-2.366071e-11	1.310169e-11	-0.06608041	-0.07334812	3.47535e-12	-2.339914e-11	0.01163021	0.007090219
	0.01178739	0.007025278	3.475341e-12	-2.339926e-11	-0.06543742	-0.07478111	6.400089e-09	1.486401e-08
	1.537929e-08	2.546584e-09	0.0116302	0.007090222	6.400089e-09	1.486401e-08	-0.06607022	-0.07327323
8e+07	-0.08430744	-0.06718718	2.665332e-10	4.470893e-10	0.01347157	0.005701281	-1.249528e-08	-3.091742e-08
	2.665332e-10	4.47089e-10	-0.08383958	-0.06706873	-1.998674e-11	1.685383e-11	0.01330663	0.005842567
	0.01347158	0.005701281	-1.998671e-11	1.685377e-11	-0.08339754	-0.06856846	-2.049454e-09	6.019233e-09
	-1.249528e-08	-3.091742e-08	0.01330662	0.005842572	-2.049454e-09	6.019233e-09	-0.08382614	-0.06698461
9e+07	-0.09938739	-0.05644334	-8.718737e-11	1.966161e-11	0.01468086	0.003986234	-3.233931e-09	-5.996983e-10
	-8.718741e-11	1.966156e-11	-0.09896031	-0.05634164	-3.216883e-11	-3.551891e-12	0.01452954	0.004204642
	0.01468086	0.003986233	-3.216883e-11	-3.551885e-12	-0.09871992	-0.05787839	-6.05829e-10	1.496872e-09
	-3.233931e-09	-5.996984e-10	0.01452954	0.004204646	-6.05829e-10	1.496872e-09	-0.09894262	-0.05624716
1e+08	-0.1107265	-0.04222753	-1.397463e-11	2.287371e-11	0.01533871	0.002032568	-8.161942e-12	3.40504e-11
	-1.397463e-11	2.287371e-11	-0.1103628	-0.04213763	-3.41613e-11	-5.875256e-12	0.01522496	0.002323859
	0.01533871	0.002032568	-3.41613e-11	-5.875256e-12	-0.1103193	-0.04367873	-2.076764e-11	3.882382e-11
	-8.161942e-12	3.40504e-11	0.01522496	0.002323859	-2.076764e-11	3.882382e-11	-0.110339	-0.04203217
1.1e+08	-0.117585	-0.02580604	-2.363395e-12	2.671187e-11	0.01541146	-8.900012e-07	-1.309073e-13	3.79044e-11
	-2.363395e-12	2.671187e-11	-0.1172879	-0.0256496	-3.049135e-11	-2.104333e-12	0.01535417	0.0003373117
	0.01541146	-8.900889e-07	-3.049135e-11	-2.104333e-12	-0.1174352	-0.02717705	-5.949766e-12	4.47294e-11
	-1.309073e-13	3.79044e-11	0.01535417	0.0003373116	-5.949766e-12	4.47294e-11	-0.1172551	-0.02553351
1.2e+08	-0.119616	-0.00844761	6.755973e-12	2.729611e-11	0.01490732	-0.001950508	8.364643e-12	3.97143e-11
	6.755973e-12	2.729611e-11	-0.1193311	-0.008221703	-2.665949e-11	-8.529203e-13	0.01490968	-0.001582912
	0.01490732	-0.001950508	-2.665949e-11	-8.529203e-13	-0.1196689	-0.009698984	6.64288e-12	4.632415e-11
	8.364643e-12	3.97143e-11	0.01490968	-0.001582912	6.64288e-12	4.632415e-11	-0.1192859	-0.008097183
1.3e+08	-0.1167882	0.008485979	1.601092e-11	2.538713e-11	0.01387744	-0.003666892	1.776131e-11	3.908051e-11
	1.601092e-11	2.538713e-11	-0.1164869	0.008765528	-2.227148e-11	-6.23872e-13	0.01394148	-0.00328781
	0.01387744	-0.003666892	-2.227148e-11	-6.23872e-13	-0.1170019	0.007377792	1.959984e-11	4.45207e-11
	1.776131e-11	3.908051e-11	0.01394148	-0.00328781	1.959984e-11	4.45207e-11	-0.1164273	0.008894945
1.4e+08	-0.1094483	0.0236888	2.527568e-11	2.049225e-11	0.01240724	-0.00502003	2.717994e-11	3.567541e-11
	2.527568e-11	2.049225e-11	-0.1091159	0.02399831	-1.746881e-11	-1.641787e-12	0.01253041	-0.004647933
	0.01240724	-0.00502003	-1.746881e-11	-1.641787e-12	-0.1097832	0.02273797	3.257021e-11	3.861214e-11
	2.717994e-11	3.567541e-11	0.01253041	-0.004647933	3.257021e-11	3.861214e-11	-0.1090409	0.02412816
1.5e+08	-0.09827971	0.03600663	3.363556e-11	1.278246e-11	0.01061176	-0.005905982	3.58025e-11	2.942772e-11
	3.363556e-11	1.278246e-11	-0.09791433	0.03631952	-1.271106e-11	-4.084269e-12	0.01078626	-0.005558529
	0.01061176	-0.005905982	-1.271106e-11	-4.084269e-12	-0.09869864	0.0352195	4.427686e-11	2.879088e-11
	3.58025e-11	2.942772e-11	0.01078626	-0.005558529	4.427686e-11	2.879088e-11	-0.0978247	0.03644486
1.6e+08	-0.08424955	0.04451821	4.016519e-11	2.491741e-12	0.00862957	-0.006253216	4.271014e-11	2.054221e-11
	4.016519e-11	2.491741e-12	-0.08386107	0.04480927	-8.504236e-12	-7.925957e-12	0.00884249	-0.005945652
	0.00862957	-0.006253216	-8.504236e-12	-7.925957e-12	-0.08471743	0.04389431	5.343281e-11	1.539052e-11
	4.271014e-11	2.054221e-11	0.00884249	-0.005945652	5.343281e-11	1.539052e-11	-0.08375927	0.04492524
1.7e+08	-0.06853699	0.0486019	4.402904e-11	-9.839545e-12	0.006615201	-0.006028366	4.705921e-11	9.523837e-12
	4.402904e-11	-9.839545e-12	-0.06814572	0.04885102	-5.323519e-12	-1.295116e-11	0.006849129	-0.005771953
	0.006615201	-0.006028366	-5.323519e-12	-1.295116e-11	-0.06902182	0.04813466	5.887916e-11	-8.269144e-13
	4.705921e-11	9.523837e-12	0.006849129	-0.005771953	5.887916e-11	-8.269144e-13	-0.06803588	0.04895347
1.8e+08	-0.05244675	0.04798341	4.457862e-11	-2.340169e-11	0.00472944	-0.005240802	4.817724e-11	-2.851848e-12
	4.457862e-11	-2.340169e-11	-0.05208097	0.04817879	-3.54434e-12	-1.877661e-11	0.004963681	-0.005041456
	0.00472944	-0.005240802	-3.54434e-12	-1.877661e-11	-0.05292022	0.04766089	5.972213e-11	-1.872381e-11
	4.817724e-11	-2.851848e-12	0.004963681	-0.005041456	5.972213e-11	-1.872381e-11	-0.0519687	0.04826482
1.9e+08	-0.03731053	0.04276024	4.143696e-11	-3.718493e-11	0.003127609	-0.003944939	4.564893e-11	-1.560079e-11
	4.143696e-11	-3.718493e-11	-0.03700333	0.04290073	-3.384235e-12	-2.489969e-11	0.003339808	-0.003802238
	0.003127609	-0.003944939	-3.384235e-12	-2.489969e-11	-0.03774875	0.04256602	5.545206e-11	-3.688555e-11
	4.564893e-11	-1.560079e-11	0.003339808	-0.003802238	5.545206e-11	-3.688555e-11	-0.03689525	0.04296924
2e+08	-0.02438258	0.03339873	3.455703e-11	-5.007626e-11	0.001946291	-0.002239039	3.937893e-11	-2.762109e-11
	3.455703e-11	-5.007626e-11	-0.02416805	0.03349523	-4.867636e-12	-3.076723e-11	0.002114364	-0.002145744
	0.001946291	-0.002239039	-4.867636e-12	-3.076723e-11	-0.02476678	0.0333129	4.602512e-11	-5.375834e-11
	3.937893e-11	-2.762109e-11	0.002114364	-0.002145744	4.602512e-11	-5.375834e-11	-0.02407127	0.0335472
2.1e+08	-0.01473723	0.02070118	2.424416e-11	-6.097262e-11	0.001289831	-0.0002594923	2.962106e-11	-3.780255e-11
	2.424416e-11	-6.097262e-11	-0.01464642	0.02077672	-7.821733e-12	-3.585284e-11	0.00139405	-0.0002016683
	0.001289831	-0.0002594923	-7.821733e-12	-3.585284e-11	-0.01505426	0.02070155	3.189352e-11	-6.781045e-11
	2.962106e-11	-3.780255e-11	0.00139405	-0.0002016683	3.189352e-11	-6.781045e-11	-0.01456777	0.02081539
2.2e+08	-0.009177944	0.005743041	1.113762e-11	-6.889607e-11	0.001218554	0.001829783	1.696778e-11	-4.514145e-11
	1.113762e-11	-6.889607e-11	-0.009234769	0.005831614	-1.19041e-11	-3.972807e-11	0.001243581	0.001871995
	0.001218554	0.001829783	-1.19041e-11	-3.972807e-11	-0.009420494	0.005806517	1.397676e-11	-7.769615e-11
	1.696778e-11	-4.514145e-11	0.001243581	0.001871995	1.397676e-11	-7.769615e-11	-0.009180115	0.005862414
2.3e+08	-0.008167502	-0.01021584	-3.846373e-12	-7.309509e-11	0.001740809	0.003852197	2.300708e-12	-4.884501e-11
	-3.846373e-12	-7.309509e-11	-0.008385208	-0.01007173	-1.665519e-11	-4.211411e-11	0.00167747	0.003903177
	0.001740809	0.003852197	-1.665519e-11	-4.211411e-11	-0.008334004	-0.01011183	-6.422721e-12	-8.239873e-11
	2.300708e-12	-4.884501e-11	0.00167747	0.003903177	-6.422721e-12	-8.239873e-11	-0.008358757	-0.01004156
2.4e+08	-0.01178787	-0.02583861	-1.960129e-11	-7.311875e-11	0.002810597	0.005635907	-1.329073e-11	-4.841208e-11
	-1.960129e-11	-7.311875e-11	-0.0121663	-0.02559152	-2.156356e-11	-4.290647e-11	0.0026572	0.005722612
	0.002810597	0.005635907	-2.156356e-11	-4.290647e-11	-0.01188194	-0.02571473	-2.774655e-11	-8.133373e-11
	-1.329073e-11	-4.841208e-11	0.0026572	0.005722612	-2.774655e-11	-8.133373e-11	-0.01217002	-0.02555341
2.5e+08	-0.01973482	-0.03982664	-3.493391e-11	-6.885561e-11	0.004331638	0.007031366	-2.861114e-11	-4.368013e-11
	-3.493391e-11	-6.885561e-11	-0.02025894	-0.03942857	-2.613087e-11	-4.217209e-11	0.004094665	0.007181005
	0.004331638	0.007031366	-2.613087e-11	-4.217209e-11	-0.01976436	-0.03970057	-4.833087e-11	-7.439977e-11
	-2.861114e-11	-4.368013e-11	0.004094665	0.007181005	-4.833087e-11	-7.439977e-11	-0.02029218	-0.03937339
2.6e+08	-0.0313484	-0.05103067	-4.866916e-11	-6.05365e-11	0.006167505	0.007926341	-4.246675e-11	-3.483506e-11
	-4.866916e-11	-6.05365e-11	-0.03198822	-0.05043782	-2.992575e-11	-4.01239e-11	0.005861559	0.008163875
	0.006167505	0.007926341	-2.992575e-11	-4.01239e-11	-0.03132446	-0.05091627	-6.655722e-11	-6.197631e-11
	-4.246675e-11	-3.483506e-11	0.005861559	0.008163875	-6.655722e-11	-6.197631e-11	-0.03204755	-0.05035668
2.7e+08	-0.04567546	-0.05854605	-5.974451e-11	-4.870577e-11	0.008156263	0.008256183	-5.3764e-11	-2.238867e-11
	-5.974451e-11	-4.870577e-11	-0.04638751	-0.05772347	-3.262031e-11	-3.708099e-11	0.007803244	0.008601892
	0.008156263	0.008256183	-3.262031e-11	-3.708099e-11	-0.04561095	-0.05845298	-8.098589e-11	-4.487555e-11
	-5.3764e-11	-2.238867e-11	0.007803244	0.008601892	-8.098589e-11	-4.487555e-11	-0.04646687	-0.05760856
2.8e+08	-0.0615567	-0.06178291	-6.728579e-11	-3.417067e-11	0.01012726	0.008008117	-6.159253e-11	-7.12989e-12
	-6.728579e-11	-3.417067e-11	-0.06228693	-0.06070862	-3.400709e-11	-3.342372e-11	0.009754813	0.008475485
	0.01012726	0.008008117	-3.400709e-11	-3.342372e-11	-0.06146513	-0.06171669	-9.045985e-11	-2.426329e-11
	-6.159253e-11	-7.12989e-12	0.009754813	0.008475485	-9.045985e-11	-2.426329e-11	-0.06237797	-0.06055403
2.9e+08	-0.07772805	-0.06050586	-7.066189e-11	-1.79374e-11	0.01191754	0.00721953	-6.528586e-11	9.940376e-12
	-7.066189e-11	-1.79374e-11	-0.07841591	-0.0591739	-3.399827e-11	-2.955183e-11	0.0115569	0.00781366
	0.01191754	0.00721953	-3.399827e-11	-2.955183e-11	-0.07762243	-0.06046818	-9.417576e-11	-1.562377e-12
	-6.528586e-11	9.940376e-12	0.0115569	0.00781366	-9.417576e-11	-1.562377e-12	-0.07850863	-0.05897624
3e+08	-0.09292569	-0.05484161	-6.95199e-11	-1.141982e-12	0.01338582	0.005971275	-6.446041e-11	2.768194e-11
	-6.95199e-11	-1.141982e-12	-0.09350911	-0.05326383	-3.261205e-11	-2.585211e-11	0.01306923	0.006687997
	0.01338582	0.005971275	-3.261205e-11	-2.585211e-11	-0.09281776	-0.05483099	-9.172509e-11	2.164829e-11
	-6.446041e-11	2.768194e-11	0.01306923	0.006687997	-9.172509e-11	2.164829e-11	-0.09359262	-0.05302271
3.1e+08	-0.1059852	-0.04525708	-6.379887e-11	1.5015e-11	0.01442261	0.004377674	-5.903575e-11	4.48895e-11
	-6.379887e-11	1.5015e-11	-0.1064059	-0.04346333	-2.994257e-11	-2.269378e-11	0.01418055	0.005203459
	0.01442261	0.004377674	-2.994257e-11	-2.269378e-11	-0.1058848	-0.04526958	-8.311127e-11	4.373282e-11
	-5.903575e-11	4.48895e-11	0.01418055	0.005203459	-8.311127e-11	4.373282e-11	-0.1064693	-0.04318151
3.2e+08	-0.1159272	-0.03251255	-5.374597e-11	2.933748e-11	0.01495631	0.002575043	-4.923887e-11	6.036548e-11
	-5.374597e-11	2.933748e-11	-0.1161359	-0.03054934	-2.61702e-11	-2.041868e-11	0.01481481	0.003487722
	0.01495631	0.002575043	-2.61702e-11	-2.041868e-11	-0.115842	-0.03254251	-6.874914e-11	6.309306e-11
	-4.923887e-11	6.036548e-11	0.01481481	0.003487722	-6.874914e-11	6.309306e-11	-0.1161693	-0.0302327
3.3e+08	-0.1220245	-0.01759619	-3.99196e-11	4.072942e-11	0.01495553	0.0007102163	-3.55957e-11	7.299034e-11
	-3.99196e-11	4.072942e-11	-0.1219856	-0.01552379	-2.156347e-11	-1.926745e-11	0.01493376	0.001680474
	0.01495553	0.0007102163	-2.156347e-11	-1.926745e-11	-0.1219598	-0.01763699	-4.945069e-11	7.826141e-11
	-3.55957e-11	7.299034e-11	0.01493376	0.001680474	-4.945069e-11	7.826141e-11	-0.121981	-0.01518102
3.4e+08	-0.1238483	-0.001646229	-2.314082e-11	4.823683e-11	0.01442858	-0.001069954	-1.891123e-11	8.178969e-11
	-2.314082e-11	4.823683e-11	-0.1235441	0.0004654699	-1.640408e-11	-1.944943e-11	0.0145369	-7.643396e-05
	0.01442858	-0.001069954	-1.640408e-11	-1.944943e-11	-0.1238076	-0.001690854	-2.639393e-11	8.797198e-11
	-1.891123e-11	8.178969e-11	0.0145369	-7.643396e-05	-2.639393e-11	8.797198e-11	-0.1234959	0.0008234811
3.5e+08	-0.1212934	0.01413354	-4.472899e-12	5.112345e-11	0.01342089	-0.002627787	-2.355623e-13	8.600605e-11
	-4.472899e-12	5.112345e-11	-0.120726	0.01621022	-1.105027e-11	-2.113809e-11	0.01365962	-0.001647693
	0.01342089	-0.002627787	-1.105027e-11	-2.113809e-11	-0.121278	0.01409204	-1.082184e-12	9.129783e-11
	-2.355623e-13	8.600605e-11	0.01365962	-0.001647693	-1.082184e-12	9.129783e-11	-0.120632	0.01657119
3.6e+08	-0.1145804	0.02855999	1.483052e-11	4.893389e-11	0.01201117	-0.003842738	1.918687e-11	8.515764e-11
	1.483052e-11	4.893389e-11	-0.1137733	0.03052872	-5.939915e-12	-2.44211e-11	0.01237013	-0.002912203
	0.01201117	-0.003842738	-5.939915e-12	-2.44211e-11	-0.11459	0.02852809	2.47459e-11	8.771003e-11
	1.918687e-11	8.515764e-11	0.01237013	-0.002912203	2.47459e-11	8.771003e-11	-0.1136347	0.03087985
3.7e+08	-0.104239	0.04055424	3.339447e-11	4.154712e-11	0.01030652	-0.004618415	3.798406e-11	7.909391e-11
	3.339447e-11	4.154712e-11	-0.103236	0.04234954	-1.554669e-12	-2.925812e-11	0.01076535	-0.003770023
	0.01030652	-0.004618415	-1.554669e-12	-2.925812e-11	-0.1042718	0.04053767	4.920811e-11	7.713584e-11
	3.798406e-11	7.909391e-11	0.01076535	-0.003770023	4.920811e-11	7.713584e-11	-0.1030578	0.04267858
3.8e+08	-0.09107014	0.04921876	4.981039e-11	2.921691e-11	0.008436404	-0.004888852	5.474263e-11	6.803717e-11
	4.981039e-11	2.921691e-11	-0.08993353	0.05078837	1.609193e-12	-3.545194e-11	0.008965788	-0.004148809
	0.008436404	-0.004888852	1.609193e-12	-3.545194e-11	-0.09112339	0.04922227	7.039922e-11	6.001934e-11
	5.474263e-11	6.803717e-11	0.008965788	-0.004148809	7.039922e-11	6.001934e-11	-0.08972403	0.05108461
3.9e+08	-0.07609065	0.05390374	6.274073e-11	1.258872e-11	0.006545179	-0.004623965	6.811115e-11	5.260171e-11
	6.274073e-11	1.258872e-11	-0.07489687	0.0552138	3.101315e-12	-4.262789e-11	0.007108817	-0.004009651
	0.006545179	-0.004623965	3.101315e-12	-4.262789e-11	-0.07616077	0.05393099	8.653749e-11	3.73399e-11
	6.811115e-11	5.260171e-11	0.007108817	-0.004009651	8.653749e-11	3.73399e-11	-0.07466739	0.05546905
4e+08	-0.06046124	0.05425861	7.103407e-11	-7.314354e-12	0.004782879	-0.003833683	7.691475e-11	3.378261e-11
	7.103407e-11	-7.314354e-12	-0.05929555	0.05529753	2.592024e-12	-5.024252e-11	0.005340117	-0.0033518
	0.004782879	-0.003833683	2.592024e-12	-5.024252e-11	-0.06054421	0.05431211	9.612503e-11	1.058588e-11
	7.691475e-11	3.378261e-11	0.005340117	-0.0033518	9.612503e-11	1.058588e-11	-0.05905962	0.05550697
4.1e+08	-0.04540123	0.05026396	7.384055e-11	-2.914305e-11	0.003294236	-0.002569906	8.027103e-11	1.290742e-11
	7.384055e-11	-2.914305e-11	-0.04435119	0.05104477	-5.55039e-14	-5.762889e-11	0.003803197	-0.002215413
	0.003294236	-0.002569906	-5.55039e-14	-5.762889e-11	-0.04549292	0.05034507	9.810667e-11	-1.832558e-11
	8.027103e-11	1.290742e-11	0.003803197	-0.002215413	9.810667e-11	-1.832558e-11	-0.04412358	0.05120753
4.2e+08	-0.03209522	0.04223972	7.071341e-11	-5.131328e-11	0.002206432	-0.0009252755	7.769307e-11	-8.452028e-12
	7.071341e-11	-5.131328e-11	-0.03124352	0.04280048	-4.735261e-12	-6.407546e-11	0.002627406	-0.0006812233
	0.002206432	-0.0009252755	-4.735261e-12	-6.407546e-11	-0.03219168	0.04234877	9.200579e-11	-4.718503e-11
	7.769307e-11	-8.452028e-12	0.002627406	-0.0006812233	9.200579e-11	-4.718503e-11	-0.03103901	0.04291995
4.3e+08	-0.0215981	0.03082663	6.168082e-11	-7.213348e-11	0.00161671	0.0009721024	6.916387e-11	-2.860382e-11
	6.168082e-11	-7.213348e-11	-0.02101531	0.03122866	-1.108645e-11	-6.892492e-11	0.001915548	0.001133751
	0.00161671	0.0009721024	-1.108645e-11	-6.892492e-11	-0.02169582	0.03096312	7.801442e-11	-7.367654e-11
	6.916387e-11	-2.860382e-11	0.001915548	0.001133751	7.801442e-11	-7.367654e-11	-0.02084751	0.0313125
4.4e+08	-0.01474692	0.01693994	4.727315e-11	-8.995682e-11	0.001581491	0.002968319	5.516776e-11	-4.588578e-11
	4.727315e-11	-8.995682e-11	-0.01448487	0.017264	-1.852596e-11	-7.167222e-11	0.001732707	0.003084893
	0.001581491	0.002968319	-1.852596e-11	-7.167222e-11	-0.01484302	0.01710279	5.701698e-11	-9.559461e-11
	5.516776e-11	-4.588578e-11	0.001732707	0.003084893	5.701698e-11	-9.559461e-11	-0.01436496	0.01732367
4.5e+08	-0.01208843	0.001697617	2.849633e-11	-1.033404e-10	0.002108846	0.004897204	3.66691e-11	-5.88235e-11
	2.849633e-11	-1.033404e-10	-0.01217484	0.002038064	-2.632e-11	-7.204096e-11	0.002098159	0.005012646
	0.002108846	0.004897204	-2.632e-11	-7.204096e-11	-0.01218067	0.001885471	3.053599e-11	-1.110652e-10
	3.66691e-11	-5.88235e-11	0.002098159	0.005012646	3.053599e-11	-1.110652e-10	-0.01211048	0.00208807
4.6e+08	-0.01383055	-0.01367155	6.749829e-12	-1.111892e-10	0.003155956	0.006596353	1.503677e-11	-6.62758e-11
	6.749829e-12	-1.111892e-10	-0.0142655	-0.01321404	-3.368023e-11	-7.002324e-11	0.002981986	0.006757842
	0.003155956	0.006596353	-3.368023e-11	-7.002324e-11	-0.0139173	-0.01346003	6.008227e-13	-1.18739e-10
	1.503677e-11	-6.62758e-11	0.002981986	0.006757842	6.008227e-13	-1.18739e-10	-0.01426	-0.01315723
4.7e+08	-0.0198239	-0.02793133	-1.630123e-11	-1.128644e-10	0.004632409	0.007923512	-8.077918e-12	-6.754684e-11
	-1.630123e-11	-1.128644e-10	-0.02057852	-0.02725798	-3.986534e-11	-6.58775e-11	0.004307351	0.008177644
	0.004632409	0.007923512	-3.986534e-11	-6.58775e-11	-0.01990391	-0.02769724	-3.044457e-11	-1.179273e-10
