!$
! Info: Touchstone file created by Circ.  Input file=Tx_16in_Rx_100ohms_TxVia_10mils_RxVia_20mils1.circ
!$
# Hz S RI R 50
0	0.01647685	1.055742e-25	3.17273e-09	7.023504e-27	9.624695e-05	1.683463e-23	-3.472152e-09	4.585962e-25
	3.172722e-09	7.023616e-27	0.01647643	1.376225e-25	-3.301088e-09	4.519797e-25	9.571141e-05	2.347463e-23
	9.851972e-05	1.68733e-23	-3.299196e-09	4.517457e-25	0.01646884	9.226385e-26	1.261694e-08	2.75793e-29
	-3.469471e-09	4.582662e-25	9.716467e-05	2.416102e-23	1.261703e-08	2.742265e-29	0.01648193	1.312075e-25
1e+07	0.02470074	0.008703724	5.603662e-09	7.164128e-09	0.001160871	0.002745573	1.851709e-08	5.268564e-08
	5.603662e-09	7.164128e-09	0.02469662	0.008700877	-4.10114e-10	5.703978e-08	0.001156418	0.002747061
	0.00116092	0.002745546	-4.101138e-10	5.703978e-08	0.02447836	0.008745838	-6.777374e-09	4.492799e-08
	1.851709e-08	5.268564e-08	0.001156452	0.00274705	-6.777375e-09	4.492799e-08	0.0244743	0.008742848
2e+07	0.03252347	0.01041238	9.70583e-09	1.121211e-08	0.002287895	0.005476583	4.966203e-08	5.984621e-08
	9.70583e-09	1.121211e-08	0.03250704	0.01040951	3.939157e-09	7.776623e-08	0.002271685	0.005484151
	0.002287888	0.005476557	3.939158e-09	7.776623e-08	0.03239045	0.01055922	1.578939e-09	4.357509e-08
	4.966203e-08	5.984621e-08	0.002271683	0.005484129	1.578939e-09	4.357509e-08	0.03237484	0.01055654
3e+07	0.03884428	0.008482221	1.427667e-08	1.308649e-08	0.004139462	0.007433042	8.996106e-08	4.97029e-08
	1.427667e-08	1.308649e-08	0.0388086	0.008486294	1.192323e-08	1.014194e-07	0.004106887	0.00745412
	0.004139462	0.007433039	1.192323e-08	1.014194e-07	0.03878784	0.008657491	1.111705e-08	4.553729e-08
	8.996106e-08	4.97029e-08	0.004106882	0.007454118	1.111705e-08	4.553729e-08	0.03875539	0.008660828
4e+07	0.04370963	0.004461818	1.837289e-08	1.262903e-08	0.0065115	0.008599974	1.243343e-07	2.104522e-08
	1.837289e-08	1.262903e-08	0.04365146	0.00448267	1.782336e-08	1.234174e-07	0.006461598	0.008643629
	0.006511504	0.00859997	1.782336e-08	1.234174e-07	0.04371952	0.004634836	2.07263e-08	4.291745e-08
	1.243343e-07	2.104522e-08	0.006461598	0.008643631	2.07263e-08	4.291745e-08	0.04366603	0.004652711
5e+07	0.04692054	-0.0009667659	2.100211e-08	1.014689e-08	0.009263637	0.008743542	1.469066e-07	-2.285329e-08
	2.100211e-08	1.014689e-08	0.04684122	-0.0009183599	2.148801e-08	1.450186e-07	0.009199393	0.008818702
	0.009263639	0.008743539	2.148801e-08	1.450186e-07	0.04698262	-0.0008152928	2.789534e-08	3.537943e-08
	1.469066e-07	-2.285329e-08	0.009199392	0.008818702	2.789534e-08	3.537943e-08	0.04690914	-0.0007719793
6e+07	0.04831911	-0.007213817	2.145046e-08	6.299415e-09	0.01186414	0.008037534	1.521492e-07	-7.764839e-08
	2.145046e-08	6.299415e-09	0.04822458	-0.007128061	2.339016e-08	1.668578e-07	0.01179258	0.008151767
	0.01186414	0.008037535	2.339016e-08	1.668578e-07	0.04841788	-0.007095285	3.068349e-08	2.464458e-08
	1.521492e-07	-7.764839e-08	0.01179258	0.008151768	3.068349e-08	2.464458e-08	0.0483305	-0.007017477
7e+07	0.0478468	-0.01371469	1.91899e-08	1.975617e-09	0.01406839	0.006578973	1.357198e-07	-1.367301e-07
	1.91899e-08	1.975616e-09	0.04774697	-0.01358462	2.39311e-08	1.893259e-07	0.01399964	0.006736786
	0.01406839	0.006578977	2.39311e-08	1.893259e-07	0.04796669	-0.0136346	2.811593e-08	1.319525e-08
	1.357198e-07	-1.367301e-07	0.01399963	0.006736788	2.811593e-08	1.319525e-08	0.04787435	-0.01351638
8e+07	0.04556974	-0.01993043	1.402944e-08	-1.750734e-09	0.01567142	0.004532526	9.579614e-08	-1.916726e-07
	1.402944e-08	-1.750735e-09	0.04547707	-0.01975333	2.354266e-08	2.127214e-07	0.01561737	0.004734293
	0.01567143	0.00453253	2.354266e-08	2.127214e-07	0.04569591	-0.01988937	2.040296e-08	3.591612e-09
	9.579614e-08	-1.916726e-07	0.01561736	0.004734297	2.040296e-08	3.591612e-09	0.04560929	-0.01972801
9e+07	0.04168272	-0.02537205	6.185274e-09	-3.746242e-09	0.01652718	0.00211613	3.386389e-08	-2.333593e-07
	6.185274e-09	-3.746243e-09	0.04161048	-0.02515023	2.26691e-08	2.373497e-07	0.01649984	0.002357551
	0.01652718	0.002116133	2.26691e-08	2.373497e-07	0.04180178	-0.02536633	8.808608e-09	-2.03915e-09
	3.386389e-08	-2.333593e-07	0.01649984	0.002357555	8.808608e-09	-2.03915e-09	0.04173275	-0.02516283
1e+08	0.03651382	-0.02963158	-3.697998e-09	-2.967298e-09	0.01655527	-0.0004189658	-4.508841e-08	-2.533549e-07
	-3.697998e-09	-2.967298e-09	0.03647419	-0.02937251	2.181482e-08	2.63276e-07	0.01656503	-0.0001467895
	0.01655527	-0.000418966	2.181482e-08	2.63276e-07	0.03661294	-0.02965388	-4.665928e-09	-2.400815e-09
	-4.508841e-08	-2.533549e-07	0.01656503	-0.0001467896	-4.665928e-09	-2.400815e-09	0.03657345	-0.02941381
1.1e+08	0.03039538	-0.03250093	-1.458962e-08	1.326765e-09	0.01579253	-0.002774813	-1.317628e-07	-2.470498e-07
	-1.458962e-08	1.326765e-09	0.03039736	-0.03221508	1.931271e-08	2.923417e-07	0.01584616	-0.002485102
	0.01579253	-0.002774813	1.931271e-08	2.923417e-07	0.03047151	-0.03253262	-1.926052e-08	3.59074e-09
	-1.317628e-07	-2.470498e-07	0.01584616	-0.002485102	-1.926052e-08	3.59074e-09	0.03047077	-0.03226678
1.2e+08	0.02375607	-0.03365235	-2.522149e-08	9.531533e-09	0.01434472	-0.004765534	-2.180891e-07	-2.103218e-07
	-2.522149e-08	9.531533e-09	0.02380501	-0.03335559	1.76813e-08	3.228862e-07	0.0144446	-0.004473628
	0.01434472	-0.004765535	1.76813e-08	3.228862e-07	0.02381346	-0.03368648	-3.346517e-08	1.481938e-08
	-2.180891e-07	-2.103218e-07	0.0144446	-0.004473628	-3.346517e-08	1.481938e-08	0.02385682	-0.03341011
1.3e+08	0.01713565	-0.0330384	-3.418279e-08	2.157344e-08	0.01234958	-0.006194581	-2.932258e-07	-1.43278e-07
	-3.418279e-08	2.157344e-08	0.01723077	-0.03274819	1.746562e-08	3.546045e-07	0.0124924	-0.005916666
	0.01234958	-0.006194581	1.746562e-08	3.546045e-07	0.01717764	-0.03306946	-4.539855e-08	3.116614e-08
	-2.932258e-07	-1.43278e-07	0.0124924	-0.005916666	-4.539855e-08	3.116614e-08	0.01726434	-0.0327992
1.4e+08	0.01103297	-0.03076068	-4.010311e-08	3.686965e-08	0.01000907	-0.006920823	-3.465121e-07	-4.98891e-08
	-4.010311e-08	3.686965e-08	0.01116712	-0.03049384	1.909844e-08	3.870133e-07	0.01018567	-0.006671846
	0.01000907	-0.006920823	1.909844e-08	3.870133e-07	0.01106364	-0.03078472	-5.324191e-08	5.18374e-08
	-3.465121e-07	-4.98891e-08	0.01018567	-0.006671846	-5.324191e-08	5.18374e-08	0.01118684	-0.03053644
1.5e+08	0.005886527	-0.02705439	-4.183532e-08	5.435043e-08	0.007560092	-0.006874254	-3.688405e-07	6.216978e-08
	-4.183532e-08	5.435043e-08	0.006046645	-0.02682488	2.283598e-08	4.194835e-07	0.007756065	-0.006665863
	0.007560092	-0.006874255	2.283598e-08	4.194835e-07	0.00591041	-0.02706913	-5.547993e-08	7.539856e-08
	-3.688405e-07	6.216978e-08	0.007756065	-0.006665863	-5.547993e-08	7.539856e-08	0.006057743	-0.02685583
1.6e+08	0.002042696	-0.02226491	-3.862872e-08	7.254907e-08	0.005249206	-0.006062974	-3.539239e-07	1.821528e-07
	-3.862872e-08	7.254907e-08	0.002210961	-0.02208189	2.870812e-08	4.513052e-07	0.005446154	-0.005901721
	0.005249206	-0.006062974	2.870812e-08	4.513052e-07	0.002064335	-0.02226971	-5.112598e-08	9.989539e-08
	-3.539239e-07	1.821528e-07	0.005446154	-0.005901721	-5.112598e-08	9.989539e-08	0.002219076	-0.02209982
1.7e+08	-0.0002697197	-0.0168164	-3.026455e-08	8.975455e-08	0.003307228	-0.00457187	-2.992997e-07	2.973031e-07
	-3.026455e-08	8.975455e-08	-0.0001141047	-0.01668267	3.64943e-08	4.817707e-07	0.003484616	-0.004457914
	0.003307228	-0.00457187	3.64943e-08	4.817707e-07	-0.000246196	-0.01681203	-3.989702e-08	1.230556e-07
	-2.992997e-07	2.973031e-07	0.003484616	-0.004457914	-3.989702e-08	1.230556e-07	-0.0001034436	-0.01668804
1.8e+08	-0.0009552985	-0.01117427	-1.713004e-08	1.0421e-07	0.001925854	-0.002553365	-2.069321e-07	3.942299e-07
	-1.713004e-08	1.0421e-07	-0.0008338571	-0.01108543	4.573169e-08	5.10265e-07	0.002063258	-0.002479842
	0.001925854	-0.002553365	4.573169e-08	5.10265e-07	-0.0009265087	-0.01116269	-2.230905e-08	1.425481e-07
	-2.069321e-07	3.942299e-07	0.002063258	-0.002479842	-2.230905e-08	1.425481e-07	-0.0008157387	-0.01108039
1.9e+08	-5.651183e-05	-0.005805073	-2.16197e-10	1.143306e-07	0.001238639	-0.0002113241	-8.331709e-08	4.604486e-07
	-2.161969e-10	1.143306e-07	1.099884e-05	-0.0057494	5.57571e-08	5.363482e-07	0.001318153	-0.0001645129
	0.001238639	-0.0002113242	5.57571e-08	5.363482e-07	-2.007392e-05	-0.005789091	3.256919e-10	1.562678e-07
	-8.331709e-08	4.604486e-07	0.001318153	-0.0001645129	3.256919e-10	1.562678e-07	4.040406e-05	-0.005737522
2e+08	0.00225348	-0.001136926	1.896383e-08	1.189107e-07	0.001308191	0.00222005	6.094677e-08	4.859049e-07
	1.896383e-08	1.189107e-07	0.002251531	-0.001096139	6.577747e-08	5.598193e-07	0.001316714	0.002259747
	0.001308191	0.00222005	6.577747e-08	5.598193e-07	0.002298802	-0.001119842	2.600355e-08	1.626061e-07
	6.094677e-08	4.859049e-07	0.001316714	0.002259747	2.600355e-08	1.626061e-07	0.002294615	-0.001081986
2.1e+08	0.005689058	0.002475858	3.852618e-08	1.172905e-07	0.002120754	0.004500065	2.120916e-07	4.642995e-07
	3.852618e-08	1.172905e-07	0.005608486	0.00252503	7.49586e-08	5.80749e-07	0.002051883	0.004556386
	0.002120754	0.004500065	7.49586e-08	5.80749e-07	0.005743299	0.002490636	5.2225e-08	1.606722e-07
	2.120916e-07	4.642995e-07	0.002051883	0.004556386	5.2225e-08	1.606722e-07	0.005665981	0.002536399
2.2e+08	0.009879617	0.004781037	5.641759e-08	1.094615e-07	0.003588534	0.006405637	3.545289e-07	3.940509e-07
	5.641759e-08	1.094615e-07	0.009719181	0.004864601	8.251928e-08	5.994797e-07	0.003443823	0.006504133
	0.003588534	0.006405637	8.251928e-08	5.994797e-07	0.009941674	0.004790356	7.625666e-08	1.504349e-07
	3.545289e-07	3.940509e-07	0.003443823	0.006504133	7.625666e-08	1.504349e-07	0.009790095	0.004868178
2.3e+08	0.01440372	0.005647207	7.064044e-08	9.609562e-08	0.005559345	0.00775322	4.72473e-07	2.787732e-07
	7.064044e-08	9.609562e-08	0.01417084	0.005791183	8.781752e-08	6.165928e-07	0.005348745	0.007918566
	0.005559345	0.00775322	8.781752e-08	6.165928e-07	0.0144715	0.005648508	9.542736e-08	1.327687e-07
	4.72473e-07	2.787732e-07	0.005348745	0.007918566	9.542736e-08	1.327687e-07	0.01425257	0.005782556
2.4e+08	0.01882674	0.00507164	7.947432e-08	7.849982e-08	0.007832427	0.008416473	5.516661e-07	1.271993e-07
	7.947432e-08	7.849982e-08	0.01853733	0.005299172	9.041918e-08	6.328509e-07	0.007573821	0.008669708
	0.007832427	0.008416473	9.041918e-08	6.328509e-07	0.01889743	0.005063233	1.074236e-07	1.093992e-07
	5.516661e-07	1.271993e-07	0.007573821	0.008669708	1.074236e-07	1.093992e-07	0.01862594	0.005275011
2.5e+08	0.02273873	0.00317686	8.166996e-08	5.850116e-08	0.01017876	0.008338075	5.810213e-07	-4.746096e-08
	8.166996e-08	5.850116e-08	0.02241605	0.003505454	9.014286e-08	6.49124e-07	0.009896597	0.008694062
	0.01017876	0.008338074	9.014286e-08	6.49124e-07	0.0228091	0.003158107	1.105523e-07	8.275667e-08
	5.810213e-07	-4.746096e-08	0.009896597	0.008694062	1.105523e-07	8.275667e-08	0.02250667	0.003463888
2.6e+08	0.02578914	0.0001964622	7.659733e-08	3.827845e-08	0.01236383	0.007534665	5.540005e-07	-2.286775e-07
	7.659733e-08	3.827845e-08	0.02546175	0.0006356886	8.707963e-08	6.663082e-07	0.01208696	0.008000077
	0.01236383	0.007534665	8.707963e-08	6.663082e-07	0.02585592	0.0001678459	1.039449e-07	5.575418e-08
	5.540005e-07	-2.286775e-07	0.01208696	0.008000077	1.039449e-07	5.575418e-08	0.02554912	0.0005765278
2.7e+08	0.02771556	-0.00354826	6.433573e-08	2.015659e-08	0.01417067	0.006094601	4.695767e-07	-3.981681e-07
	6.433573e-08	2.015659e-08	0.0274146	-0.002998338	8.158906e-08	6.852445e-07	0.01392957	0.006666662
	0.01417067	0.006094601	8.158906e-08	6.852445e-07	0.02777579	-0.003585176	8.768533e-08	3.151184e-08
	4.695767e-07	-3.981681e-07	0.01392957	0.006666662	8.768533e-08	3.151184e-08	0.0274936	-0.003073545
2.8e+08	0.02836411	-0.007678666	4.569957e-08	6.381847e-09	0.01542103	0.004168813	3.326592e-07	-5.377302e-07
	4.569957e-08	6.381847e-09	0.02812014	-0.007028123	7.427437e-08	7.066434e-07	0.01524469	0.00483498
	0.01542103	0.004168813	7.427437e-08	7.066434e-07	0.02841553	-0.0077214	6.284877e-08	1.305203e-08
	3.326592e-07	-5.377302e-07	0.01524469	0.00483498	6.284877e-08	1.305203e-08	0.02818638	-0.007116212
2.9e+08	0.0277001	-0.01179339	2.219709e-08	-1.104499e-09	0.01599262	0.001955685	1.53918e-07	-6.311592e-07
	2.219709e-08	-1.104499e-09	0.02753976	-0.011062	6.593925e-08	7.310183e-07	0.01590543	0.002694351
	0.01599262	0.001955685	6.593925e-08	7.310183e-07	0.02774136	-0.01183882	3.144827e-08	2.990649e-09
	1.53918e-07	-6.311592e-07	0.01590543	0.002694351	3.144827e-08	2.990649e-09	0.02759004	-0.01115851
3e+08	0.02580803	-0.01550417	-4.077395e-09	-8.766868e-10	0.01583097	-0.0003186158	-5.100479e-08	-6.660586e-07
	-4.077395e-09	-8.766868e-10	0.02575099	-0.01471993	5.752797e-08	7.586299e-07	0.01584986	0.0004635795
	0.01583097	-0.0003186158	5.752797e-08	7.586299e-07	0.0258389	-0.01554886	-3.711779e-09	3.250425e-09
	-5.100479e-08	-6.660586e-07	0.01584986	0.0004635795	-3.711779e-09	3.250425e-09	0.0257837	-0.01481952
3.1e+08	0.0228813	-0.01846984	-3.061405e-08	7.799097e-09	0.01495465	-0.002422491	-2.62847e-07	-6.3535e-07
	-3.061405e-08	7.799097e-09	0.02293776	-0.01766645	5.005004e-08	7.894463e-07	0.01508694	-0.001630529
	0.01495465	-0.002422491	5.005004e-08	7.894463e-07	0.02290269	-0.01851043	-3.926858e-08	1.482262e-08
	-2.62847e-07	-6.3535e-07	0.01508694	-0.001630529	-3.926858e-08	1.482262e-08	0.02295307	-0.01776349
3.2e+08	0.01920253	-0.02042556	-5.471267e-08	2.484143e-08	0.01345336	-0.004141836	-4.60531e-07	-5.383092e-07
	-5.471267e-08	2.484143e-08	0.01937157	-0.01963926	4.449144e-08	8.231238e-07	0.01369537	-0.003375441
	0.01345336	-0.004141836	4.449144e-08	8.231238e-07	0.01921646	-0.02045916	-7.160676e-08	3.760361e-08
	-4.60531e-07	-5.383092e-07	0.01369537	-0.003375441	-7.160676e-08	3.760361e-08	0.01937149	-0.01972838
3.3e+08	0.01511644	-0.02120492	-7.374742e-08	4.930214e-08	0.01147895	-0.005301305	-6.232598e-07	-3.809922e-07
	-7.374742e-08	4.930214e-08	0.0153855	-0.02047079	4.171716e-08	8.590135e-07	0.01181585	-0.004593818
	0.01147895	-0.005301305	4.171716e-08	8.590135e-07	0.01512576	-0.02122942	-9.721492e-08	7.033034e-08
	-6.232598e-07	-3.809922e-07	0.01181585	-0.004593818	-9.721492e-08	7.033034e-08	0.01537365	-0.02054748
3.4e+08	0.01099748	-0.02075281	-8.544865e-08	7.940176e-08	0.009230327	-0.005781792	-7.326981e-07	-1.759719e-07
	-8.544865e-08	7.940176e-08	0.01134302	-0.02010107	4.237339e-08	8.962008e-07	0.009636982	-0.005161018
	0.009230327	-0.005781792	4.237339e-08	8.962008e-07	0.01100566	-0.02076718	-1.13061e-07	1.106329e-07
	-7.326981e-07	-1.759719e-07	0.009636982	-0.005161018	-1.13061e-07	1.106329e-07	0.01132438	-0.02016215
3.5e+08	0.007215418	-0.01912835	-8.817163e-08	1.126599e-07	0.006933505	-0.005532345	-7.750106e-07	5.862912e-08
	-8.817163e-08	1.126599e-07	0.007604788	-0.01858086	4.680107e-08	9.335784e-07	0.007376559	-0.005017399
	0.006933505	-0.005532345	4.680107e-08	9.335784e-07	0.007226077	-0.01913271	-1.169467e-07	1.552119e-07
	-7.750106e-07	5.862912e-08	0.007376559	-0.005017399	-1.169467e-07	1.552119e-07	0.007585125	-0.0186249
3.6e+08	0.00410172	-0.01649722	-8.111803e-08	1.461162e-07	0.004818908	-0.004575245	-7.42531e-07	3.007427e-07
	-8.111803e-08	1.461162e-07	0.004496089	-0.01606485	5.497467e-08	9.699504e-07	0.005259768	-0.00417414
	0.004818908	-0.004575245	5.497467e-08	9.699504e-07	0.004118298	-0.01649292	-1.077966e-07	2.001335e-07
	-7.42531e-07	3.007427e-07	0.005259768	-0.00417414	-1.077966e-07	2.001335e-07	0.004481426	-0.01609232
3.7e+08	0.001919974	-0.0131146	-6.447696e-08	1.766247e-07	0.003098193	-0.003003667	-6.348584e-07	5.264576e-07
	-6.447696e-08	1.766247e-07	0.002278052	-0.0127955	6.647867e-08	1.004158e-06	0.003496725	-0.002711946
	0.003098193	-0.003003667	6.647867e-08	1.004158e-06	0.001945303	-0.01310405	-8.584135e-08	2.412166e-07
	-6.348584e-07	5.264576e-07	0.003496725	-0.002711946	-8.584135e-08	2.412166e-07	0.002274019	-0.01280878
3.8e+08	0.000842933	-0.009299994	-3.945977e-08	2.011901e-07	0.00194298	-0.0009721519	-4.592353e-07	7.12415e-07
	-3.945977e-08	2.011901e-07	0.001125131	-0.009079173	8.052998e-08	1.035211e-06	0.002261536	-0.0007727435
	0.00194298	-0.0009721519	8.052998e-08	1.035211e-06	0.0008789225	-0.009286456	-5.266223e-08	2.744739e-07
	-4.592353e-07	7.12415e-07	0.002261536	-0.0007727435	-5.266223e-08	2.744739e-07	0.001136373	-0.009082359
3.9e+08	0.0009383088	-0.005406665	-8.216625e-09	2.173043e-07	0.001467708	0.001319142	-2.301337e-07	8.382485e-07
	-8.216625e-09	2.173043e-07	0.001110901	-0.005256922	9.60475e-08	1.062408e-06	0.001675074	0.001454771
	0.001467708	0.001319142	9.60475e-08	1.062408e-06	0.0009857087	-0.005393875	-1.108391e-08	2.965522e-07
	-2.301337e-07	8.382485e-07	0.001675074	0.001454771	-1.108391e-08	2.965522e-07	0.001140569	-0.005255431
4e+08	0.002164515	-0.001788344	2.636027e-08	2.232412e-07	0.001718366	0.003644747	3.193605e-08	8.888067e-07
	2.636027e-08	2.232412e-07	0.002203372	-0.001672509	1.117615e-07	1.085425e-06	0.001793217	0.003754205
	0.001718366	0.003644747	1.117615e-07	1.085425e-06	0.00222281	-0.001780121	3.507924e-08	3.051203e-07
	3.193605e-08	8.888067e-07	0.001793217	0.003754205	3.507924e-08	3.051203e-07	0.002252765	-0.001672551
4.1e+08	0.004376616	0.001233441	6.092486e-08	2.182695e-07	0.002668225	0.005776627	3.02292e-07	8.55911e-07
	6.092486e-08	2.182695e-07	0.004270097	0.001359138	1.263488e-07	1.104361e-06	0.002601706	0.005903186
	0.002668225	0.005776627	1.263488e-07	1.104361e-06	0.004444057	0.00123361	8.139592e-08	2.991523e-07
	3.02292e-07	8.55911e-07	0.002601706	0.005903186	8.139592e-08	2.991523e-07	0.004338484	0.001351185
4.2e+08	0.007341738	0.003398427	9.202165e-08	2.027575e-07	0.004220923	0.007506985	5.544414e-07	7.394472e-07
	9.202165e-08	2.027575e-07	0.007092405	0.003580174	1.385747e-07	1.119734e-06	0.004018065	0.007695463
	0.004220923	0.007506985	1.385747e-07	1.119734e-06	0.007415507	0.003387781	1.232666e-07	2.790736e-07
	5.544414e-07	7.394472e-07	0.004018065	0.007695463	1.232666e-07	2.790736e-07	0.007177054	0.003558417
4.3e+08	0.0107623	0.004530428	1.164447e-07	1.781575e-07	0.006220494	0.00866885	7.62701e-07	5.476637e-07
	1.164447e-07	1.781575e-07	0.01038724	0.004812246	1.474239e-07	1.132428e-06	0.005900263	0.008961173
	0.006220494	0.00866885	1.474239e-07	1.132428e-06	0.0108388	0.004507245	1.56396e-07	2.467528e-07
	7.62701e-07	5.476637e-07	0.005900263	0.008961173	1.56396e-07	2.467528e-07	0.01048366	0.00477189
4.4e+08	0.01430475	0.004551906	1.315699e-07	1.468762e-07	0.008467213	0.009152384	9.048104e-07	2.966253e-07
	1.315699e-07	1.468762e-07	0.01383442	0.004971111	1.522031e-07	1.143604e-06	0.008061168	0.009583287
	0.008467213	0.009152384	1.522031e-07	1.143604e-06	0.01437996	0.004515713	1.772364e-07	2.053415e-07
	9.048104e-07	2.966253e-07	0.008061168	0.009583287	1.772364e-07	2.053415e-07	0.01393678	0.004908972
4.5e+08	0.01763091	0.003489159	1.356265e-07	1.120485e-07	0.01073761	0.008915405	9.642735e-07	8.865434e-09
	1.356265e-07	1.120485e-07	0.01710663	0.00407235	1.526081e-07	1.154584e-06	0.01028724	0.009508701
	0.01073761	0.008915405	1.526081e-07	1.154584e-06	0.01770086	0.003440809	1.833568e-07	1.589852e-07
	9.642735e-07	8.865434e-09	0.01028724	0.009508701	1.833568e-07	1.589852e-07	0.01720832	0.003987213
4.6e+08	0.02042923	0.001467896	1.278829e-07	7.724168e-08	0.01280662	0.007987173	9.32188e-07	-2.88644e-07
	1.278829e-07	7.724168e-08	0.01989938	0.002227875	1.487493e-07	1.166724e-06	0.0123596	0.008752982
	0.01280662	0.007987173	1.487493e-07	1.166724e-06	0.02049037	0.001409502	1.737037e-07	1.12436e-07
	9.32188e-07	-2.88644e-07	0.0123596	0.008752982	1.737037e-07	1.12436e-07	0.01999369	0.002120655
4.7e+08	0.02244281	-0.001300175	1.087354e-07	4.612141e-08	0.0144697	0.006465186	8.083762e-07	-5.670192e-07
	1.087354e-07	4.612141e-08	0.02195833	-0.0003661964	1.411408e-07	1.181289e-06	0.01407541	0.007398433
	0.0144697	0.006465186	1.411408e-07	1.181289e-06	0.02249238	-0.001365496	1.487312e-07	7.06066e-08
	8.083762e-07	-5.670192e-07	0.01407541	0.007398433	1.487312e-07	7.06066e-08	0.02203903	-0.0004925581
4.8e+08	0.02349197	-0.004538309	7.96948e-08	2.210674e-08	0.01556284	0.004505364	6.016892e-07	-7.982519e-07
