!$
! Info: Touchstone file created by Circ.  Input file=Tx_10in_Rx_85ohms_TxVia_10mils_RxVia_20mils.circ
!$
# Hz S RI R 50
0	0.008106575	6.415728e-26	-1.753849e-11	4.08372e-27	6.537162e-05	8.40199e-24	-2.15288e-08	2.636459e-24
	-1.752422e-11	4.082701e-27	0.00810591	9.213082e-26	1.574729e-11	2.187385e-28	6.497705e-05	1.150508e-23
	6.348228e-05	8.283588e-24	1.571214e-11	2.190848e-28	0.00812055	6.676323e-26	1.73917e-08	7.364879e-27
	-2.152953e-08	2.636549e-24	6.643345e-05	1.184148e-23	1.739222e-08	7.363735e-27	0.008111504	8.786069e-26
1e+07	0.01172874	-0.009378227	3.044267e-11	-5.067921e-11	0.0002513829	0.001810994	-5.511304e-09	1.942314e-08
	3.044266e-11	-5.067951e-11	0.01038033	-0.009495756	-7.585943e-12	-7.908271e-11	0.0003253691	0.001815275
	0.0002513443	0.00181102	-7.585975e-12	-7.90824e-11	0.01040795	-0.009667881	-7.480588e-09	1.917336e-08
	-5.511304e-09	1.942314e-08	0.0003254016	0.001815263	-7.480588e-09	1.917336e-08	0.01036346	-0.009489073
2e+07	0.01120375	-0.02189004	3.783825e-11	-6.912594e-11	0.0008174055	0.003541771	-3.306736e-09	2.35641e-08
	3.783792e-11	-6.912612e-11	0.00999295	-0.02159048	-3.830454e-12	-1.878077e-10	0.0009201114	0.003485067
	0.0008174135	0.003541789	-3.830237e-12	-1.878075e-10	0.009865965	-0.02187129	-8.648122e-09	2.007483e-08
	-3.306736e-09	2.35641e-08	0.0009201083	0.003485045	-8.648122e-09	2.007483e-08	0.009983085	-0.02156715
3e+07	0.007195609	-0.03473244	4.405312e-11	-1.379365e-10	0.001768763	0.005042643	2.040625e-09	1.768498e-08
	4.405308e-11	-1.379365e-10	0.006088411	-0.03425427	-5.404684e-11	-2.074533e-10	0.001827815	0.0049745
	0.001768761	0.005042644	-5.404675e-11	-2.074534e-10	0.005854616	-0.03455368	-3.033291e-09	2.244669e-08
	2.040625e-09	1.768498e-08	0.00182781	0.004974498	-3.033291e-09	2.244669e-08	0.006084374	-0.03422126
4e+07	0.0002709419	-0.04663885	5.182754e-11	-1.943141e-10	0.002989256	0.006290986	4.556773e-09	1.427254e-08
	5.182759e-11	-1.943141e-10	-0.0007489105	-0.04603043	-2.62205e-11	-2.670651e-10	0.003004626	0.006227566
	0.002989251	0.006290989	-2.622054e-11	-2.670653e-10	-0.001056587	-0.04631998	3.10391e-09	1.860335e-08
	4.556773e-09	1.427254e-08	0.003004625	0.006227567	3.10391e-09	1.860335e-08	-0.0007488475	-0.04599142
5e+07	-0.00910646	-0.05693323	7.212189e-11	-2.527353e-10	0.004419638	0.007242373	7.342358e-09	1.28867e-08
	7.212191e-11	-2.527353e-10	-0.01004975	-0.05621496	-5.261115e-11	-3.107378e-10	0.004392467	0.007196541
	0.004419636	0.007242375	-5.261115e-11	-3.107378e-10	-0.01040445	-0.05648207	6.158116e-09	1.267762e-08
	7.342358e-09	1.28867e-08	0.004392467	0.007196541	6.158116e-09	1.267762e-08	-0.01004821	-0.05617041
6e+07	-0.02044167	-0.06512609	1.066975e-10	-3.240327e-10	0.005991201	0.007864372	1.34034e-08	1.036045e-08
	1.066975e-10	-3.240327e-10	-0.0213151	-0.0643074	-6.505931e-11	-3.320714e-10	0.005924512	0.007847648
	0.005991202	0.00786437	-6.505934e-11	-3.320714e-10	-0.02169437	-0.06454802	6.823699e-09	7.129719e-09
	1.34034e-08	1.036045e-08	0.005924509	0.007847649	6.823699e-09	7.129719e-09	-0.02131333	-0.0642566
7e+07	-0.03319608	-0.07086944	1.530273e-10	-4.195457e-10	0.007630383	0.008139946	1.637634e-08	5.35921e-10
	1.530274e-10	-4.195456e-10	-0.03400258	-0.06995438	-6.93324e-11	-3.569269e-10	0.007529281	0.008162699
	0.007630383	0.00813994	-6.933246e-11	-3.56927e-10	-0.03438778	-0.07016965	6.094252e-09	2.638307e-09
	1.637634e-08	5.35921e-10	0.007529276	0.008162702	6.094252e-09	2.638307e-09	-0.03400131	-0.06989672
8e+07	-0.04679966	-0.07394675	1.945896e-10	-5.153558e-10	0.009262897	0.00806821	1.186654e-08	-5.363359e-09
	1.945898e-10	-5.153558e-10	-0.04753868	-0.07293702	-7.774943e-11	-3.924167e-10	0.009134573	0.008139498
	0.009262896	0.008068204	-7.77495e-11	-3.924167e-10	-0.04791436	-0.07313091	4.62894e-09	-6.814773e-10
	1.186654e-08	-5.363359e-09	0.009134568	0.008139503	4.62894e-09	-6.814774e-10	-0.04753875	-0.07287166
9e+07	-0.06067083	-0.07426862	1.910564e-10	-5.823421e-10	0.01081759	0.007663901	8.396693e-09	-6.801738e-09
	1.910564e-10	-5.823422e-10	-0.06133895	-0.07316565	-8.937933e-11	-4.481566e-10	0.0106713	0.007791302
	0.01081758	0.007663897	-8.937937e-11	-4.481566e-10	-0.06169124	-0.07334269	2.828853e-09	-2.863655e-09
	8.396693e-09	-6.801738e-09	0.0106713	0.007791306	2.828853e-09	-2.863655e-09	-0.06134095	-0.07309111
1e+08	-0.07423857	-0.07186761	1.074895e-10	-7.090673e-10	0.01223055	0.006956369	6.09404e-09	-7.133906e-09
	1.074895e-10	-7.090673e-10	-0.07483225	-0.07067554	-8.876316e-11	-5.244916e-10	0.01207869	0.007146709
	0.01223055	0.006956369	-8.876316e-11	-5.244916e-10	-0.07513876	-0.07083309	9.084125e-10	-4.08478e-09
	6.09404e-09	-7.133906e-09	0.01207869	0.007146708	9.084125e-10	-4.08478e-09	-0.07483631	-0.07058993
1.1e+08	-0.08696233	-0.06689719	7.732244e-11	-8.135846e-10	0.01344637	0.005979952	5.324836e-09	-8.976737e-09
	7.732244e-11	-8.135846e-10	-0.08747861	-0.0656056	-9.066654e-11	-5.66819e-10	0.01330411	0.006228335
	0.01344637	0.005979953	-9.066654e-11	-5.66819e-10	-0.08770926	-0.06580674	7.414056e-10	-4.741807e-09
	5.324836e-09	-8.976737e-09	0.01330411	0.006228335	7.414056e-10	-4.741807e-09	-0.08748291	-0.06550665
1.2e+08	-0.09835348	-0.05958946	2.974473e-11	-9.138895e-10	0.01441342	0.004788153	4.119066e-09	-1.071038e-08
	2.974473e-11	-9.138895e-10	-0.09877198	-0.05820073	-9.024509e-11	-6.108623e-10	0.01428805	0.005091955
	0.01441342	0.004788153	-9.024509e-11	-6.108623e-10	-0.0989629	-0.05846977	4.746195e-10	-5.38272e-09
	4.119066e-09	-1.071038e-08	0.01428805	0.005091955	4.746195e-10	-5.38272e-09	-0.0987741	-0.05808717
1.3e+08	-0.1079869	-0.05028019	-3.457405e-11	-1.005779e-09	0.01509928	0.003438816	2.497117e-09	-1.222835e-08
	-3.457405e-11	-1.005779e-09	-0.10829	-0.04880387	-8.823421e-11	-6.568643e-10	0.01499964	0.003794792
	0.01509928	0.003438816	-8.823421e-11	-6.568643e-10	-0.1084659	-0.04914784	1.099929e-10	-5.983469e-09
	2.497117e-09	-1.222835e-08	0.01499964	0.003794792	1.099929e-10	-5.983469e-09	-0.1082874	-0.04867523
1.4e+08	-0.1155182	-0.03937603	-1.138437e-10	-1.08436e-09	0.01548281	0.001992852	5.036968e-10	-1.342889e-08
	-1.138437e-10	-1.08436e-09	-0.1156901	-0.03782677	-8.521817e-11	-7.051339e-10	0.01541751	0.002395807
	0.01548281	0.001992852	-8.521817e-11	-7.051339e-10	-0.1158722	-0.03824508	-3.446566e-10	-6.519457e-09
	5.036968e-10	-1.342889e-08	0.01541751	0.002395807	-3.446566e-10	-6.519457e-09	-0.1156799	-0.0376833
1.5e+08	-0.1206938	-0.02733684	-2.047043e-10	-1.145121e-09	0.01555493	0.0005125988	-1.793187e-09	-1.422028e-08
	-2.047043e-10	-1.145121e-09	-0.1207213	-0.02573381	-8.174799e-11	-7.558703e-10	0.01553167	0.0009553257
	0.01555493	0.0005125989	-8.174799e-11	-7.558703e-10	-0.1209278	-0.0262202	-8.752436e-10	-6.967807e-09
	-1.793187e-09	-1.422028e-08	0.01553167	0.0009553257	-8.752436e-10	-6.967807e-09	-0.1207007	-0.02557657
1.6e+08	-0.123357	-0.01465696	-3.023499e-10	-1.184532e-09	0.01531834	-0.0009402224	-4.304469e-09	-1.452585e-08
	-3.023499e-10	-1.184532e-09	-0.1232304	-0.01302331	-7.833368e-11	-8.091888e-10	0.01534333	-0.0004667616
	0.01531834	-0.0009402223	-7.833368e-11	-8.091888e-10	-0.1234762	-0.01356707	-1.46186e-09	-7.309051e-09
	-4.304469e-09	-1.452585e-08	0.01534333	-0.0004667616	-1.46186e-09	-7.309051e-09	-0.1231968	-0.01285415
1.7e+08	-0.1234509	-0.001846319	-4.008748e-10	-1.200534e-09	0.0147869	-0.002306356	-6.923291e-09	-1.428858e-08
	-4.008748e-10	-1.200534e-09	-0.1231651	-0.0002084095	-7.545197e-11	-8.651576e-10	0.0148644	-0.00181271
	0.0147869	-0.002306356	-7.545197e-11	-8.651576e-10	-0.123461	-0.0007953139	-2.079694e-09	-7.52863e-09
	-6.923291e-09	-1.428858e-08	0.0148644	-0.00181271	-2.079694e-09	-7.52863e-09	-0.1231163	-2.993563e-05
1.8e+08	-0.1210181	0.01058822	-4.937877e-10	-1.19289e-09	0.01398483	-0.003530674	-9.529173e-09	-1.347488e-08
	-4.937877e-10	-1.19289e-09	-0.1205733	0.01220178	-7.357363e-11	-9.238244e-10	0.0141168	-0.003028471
	0.01398483	-0.003530674	-7.357363e-11	-9.238244e-10	-0.120926	0.01158844	-2.700337e-09	-7.618105e-09
	-9.529173e-09	-1.347488e-08	0.0141168	-0.003028471	-2.700337e-09	-7.618105e-09	-0.1205077	0.01238634
1.9e+08	-0.1161975	0.02216087	-5.746292e-10	-1.163331e-09	0.01294588	-0.004563692	-1.199299e-08	-1.207771e-08
	-5.746292e-10	-1.163331e-09	-0.1155998	0.02372041	-7.320195e-11	-9.852191e-10	0.01313167	-0.00406512
	0.01294588	-0.004563692	-7.320195e-11	-9.852191e-10	-0.1160112	0.02309883	-3.293382e-09	-7.575982e-09
	-1.199299e-08	-1.207771e-08	0.01313167	-0.00406512	-3.293382e-09	-7.575982e-09	-0.1155166	0.02390735
2e+08	-0.1092178	0.03242402	-6.376138e-10	-1.115476e-09	0.01171229	-0.005362982	-1.418259e-08	-1.011859e-08
	-6.376138e-10	-1.115476e-09	-0.1084801	0.03390015	-7.490915e-11	-1.04933e-09	0.0119485	-0.004880208
	0.01171229	-0.005362982	-7.490915e-11	-1.04933e-09	-0.1089471	0.03328888	-3.828192e-09	-7.408101e-09
	-1.418259e-08	-1.011859e-08	0.0119485	-0.004880208	-3.828192e-09	-7.408101e-09	-0.1083792	0.03408548
2.1e+08	-0.1003895	0.04098412	-6.782162e-10	-1.054538e-09	0.01033359	-0.00589452	-1.596896e-08	-7.648662e-09
	-6.782162e-10	-1.054538e-09	-0.09953069	0.04234913	-7.935664e-11	-1.116053e-09	0.0106141	-0.005439077
	0.01033359	-0.00589452	-7.935664e-11	-1.116053e-09	-0.1000455	0.04176598	-4.275718e-09	-7.127544e-09
	-1.596896e-08	-7.648662e-09	0.0106141	-0.005439076	-4.275718e-09	-7.127544e-09	-0.0994133	0.0425288
2.2e+08	-0.09009262	0.04751582	-6.936228e-10	-9.868332e-10	0.008865301	-0.006133966	-1.723269e-08	-4.748321e-09
	-6.936228e-10	-9.868332e-10	-0.08913817	0.04874525	-8.728735e-11	-1.185131e-09	0.009181318	-0.005716126
	0.008865301	-0.006133966	-8.728735e-11	-1.185131e-09	-0.08968815	0.04820613	-4.610221e-09	-6.754085e-09
	-1.723269e-08	-4.748321e-09	0.009181318	-0.005716126	-4.610221e-09	-6.754085e-09	-0.08900621	0.04891535
2.3e+08	-0.07876333	0.05177424	-6.829859e-10	-9.191611e-10	0.007367234	-0.006067828	-1.787053e-08	-1.525619e-09
	-6.829859e-10	-9.191611e-10	-0.07774433	0.05284831	-9.948383e-11	-1.256089e-09	0.007707616	-0.005696012
	0.007367234	-0.006067828	-9.948383e-11	-1.256089e-09	-0.07831275	0.05236615	-4.810787e-09	-6.313229e-09
	-1.787053e-08	-1.525619e-09	0.007707616	-0.005696012	-4.810787e-09	-6.313229e-09	-0.07760075	0.05300531
2.4e+08	-0.0668778	0.05360467	-6.47442e-10	-8.581382e-10	0.005901588	-0.005694448	-1.780185e-08	1.886891e-09
	-6.47442e-10	-8.581382e-10	-0.06583011	0.05450965	-1.166927e-10	-1.328185e-09	0.006253207	-0.005374681
	0.005901588	-0.005694448	-1.166927e-10	-1.328185e-09	-0.06639672	0.05409342	-4.86253e-09	-5.83491e-09
	-1.780185e-08	1.886891e-09	0.006253207	-0.005374681	-4.86253e-09	-5.83491e-09	-0.0656787	0.05465065
2.5e+08	-0.05493421	0.05294934	-5.898857e-10	-8.095686e-10	0.004530661	-0.005024677	-1.697446e-08	5.336815e-09
	-5.898857e-10	-8.095686e-10	-0.0538972	0.05367871	-1.395232e-10	-1.400391e-09	0.004878932	-0.004760134
	0.004530661	-0.005024677	-1.395232e-10	-1.400391e-09	-0.05443921	0.05333263	-4.757413e-09	-5.351978e-09
	-1.697446e-08	5.336815e-09	0.004878932	-0.004760134	-4.757413e-09	-5.351978e-09	-0.05374249	0.05380161
2.6e+08	-0.04343342	0.04985076	-5.145332e-10	-7.779538e-10	0.003314302	-0.00408212	-1.536961e-08	8.658049e-09
	-5.145332e-10	-7.779538e-10	-0.04244845	0.05040611	-1.683347e-10	-1.471423e-09	0.003643801	-0.003872783
	0.003314302	-0.00408212	-1.683347e-10	-1.471423e-09	-0.04294162	0.05012899	-4.494663e-09	-4.898574e-09
	-1.536961e-08	8.658049e-09	0.003643801	-0.003872783	-4.494663e-09	-4.898574e-09	-0.04229552	0.05050983
2.7e+08	-0.03285888	0.0444512	-4.263425e-10	-7.662128e-10	0.002307154	-0.002902811	-1.300568e-08	1.167826e-08
	-4.263425e-10	-7.662128e-10	-0.03196752	0.04484281	-2.031301e-10	-1.539809e-09	0.002602324	-0.002745264
	0.002307154	-0.002902811	-2.031301e-10	-1.539809e-09	-0.03238744	0.04462772	-4.080783e-09	-4.508527e-09
	-1.300568e-08	1.167826e-08	0.002602324	-0.002745264	-4.080783e-09	-4.508527e-09	-0.03182177	0.04492735
2.8e+08	-0.02365658	0.03698807	-3.3039e-10	-7.756557e-10	0.001555861	-0.001534219	-9.940039e-09	1.422739e-08
	-3.3039e-10	-7.756557e-10	-0.02289869	0.03723505	-2.434753e-10	-1.604001e-09	0.001801758	-0.001421602
	0.001555861	-0.001534219	-2.434753e-10	-1.604001e-09	-0.0232221	0.03706923	-3.529233e-09	-4.213873e-09
	-9.940039e-09	1.422739e-08	0.001801758	-0.001421602	-3.529233e-09	-4.213873e-09	-0.02276561	0.03730166
2.9e+08	-0.01621591	0.02778506	-2.313122e-10	-8.062098e-10	0.00109642	-3.352292e-05	-6.269005e-09	1.614683e-08
	-2.313122e-10	-8.062098e-10	-0.01562771	0.02791506	-2.884606e-10	-1.662525e-09	0.001279481	4.435556e-05
	0.00109642	-3.352292e-05	-2.884606e-10	-1.662525e-09	-0.01583383	0.02778017	-2.859836e-09	-4.043548e-09
	-6.269005e-09	1.614683e-08	0.001279481	4.435556e-05	-2.859836e-09	-4.043548e-09	-0.01551257	0.02796622
3e+08	-0.01085255	0.01723916	-1.329186e-10	-8.568472e-10	0.0009519203	0.00153483	-2.125414e-09	1.729861e-08
	-1.329186e-10	-8.568472e-10	-0.01046468	0.01728765	-3.367145e-10	-1.714137e-09	0.001060703	0.0015912
	0.0009519204	0.00153483	-3.367145e-10	-1.714137e-09	-0.01053657	0.01716029	-2.098014e-09	-4.022297e-09
	-2.125414e-09	1.729861e-08	0.001060703	0.0015912	-2.098014e-09	-4.022297e-09	-0.01037228	0.01732703
3.1e+08	-0.00779424	0.00580407	-3.804818e-11	-9.261138e-10	0.001130888	0.003102179	2.326082e-09	1.757416e-08
	-3.804818e-11	-9.261138e-10	-0.007630011	0.005813129	-3.864751e-10	-1.757977e-09	0.001156748	0.003152853
	0.001130888	0.003102179	-3.864751e-10	-1.757977e-09	-0.007555714	0.005665745	-1.273922e-09	-4.169774e-09
	2.326082e-09	1.757416e-08	0.001156749	0.003152853	-1.273922e-09	-4.169774e-09	-0.007564394	0.005845512
3.2e+08	-0.007170473	-0.006029396	5.130845e-11	-1.012643e-09	0.001626437	0.004599141	6.895936e-09	1.690179e-08
	5.130845e-11	-1.012643e-09	-0.007244385	-0.006012635	-4.357149e-10	-1.793696e-09	0.001564107	0.004661911
	0.001626437	0.004599141	-4.357149e-10	-1.793696e-09	-0.007017917	-0.006210692	-4.215239e-10	-4.499794e-09
	6.895936e-09	1.690179e-08	0.001564107	0.004661911	-4.215239e-10	-4.499794e-09	-0.007208597	-0.005981526
3.3e+08	-0.009006614	-0.01775487	1.336567e-10	-1.11553e-09	0.002416348	0.0059593	1.137847e-08	1.525244e-08
	1.336567e-10	-1.11553e-09	-0.009323296	-0.01768015	-4.823051e-10	-1.821537e-09	0.002264375	0.006053195
	0.002416348	0.0059593	-4.823051e-10	-1.821537e-09	-0.008945316	-0.01796126	4.223764e-10	-5.019688e-09
	1.137847e-08	1.525244e-08	0.002264375	0.006053195	4.223764e-10	-5.019688e-09	-0.009319121	-0.01764388
3.4e+08	-0.01322301	-0.02887285	2.075606e-10	-1.233994e-09	0.003464121	0.007122792	1.556e-08	1.264102e-08
	2.075606e-10	-1.233994e-09	-0.01377654	-0.02868895	-5.243652e-10	-1.842504e-09	0.00322515	0.007267246
	0.003464121	0.007122792	-5.243652e-10	-1.842504e-09	-0.01325479	-0.02908572	1.219349e-09	-5.729185e-09
	1.556e-08	1.264102e-08	0.00322515	0.007267246	1.219349e-09	-5.729185e-09	-0.01380434	-0.02864066
3.5e+08	-0.01963923	-0.03891278	2.710576e-10	-1.369385e-09	0.004720948	0.008039511	1.923429e-08	9.134104e-09
	2.710576e-10	-1.369385e-09	-0.02041292	-0.03856979	-5.600678e-10	-1.857827e-09	0.004401804	0.008253467
	0.004720948	0.008039511	-5.600678e-10	-1.857827e-09	-0.01976227	-0.0391135	1.930185e-09	-6.622298e-09
	1.923429e-08	9.134104e-09	0.004401804	0.008253467	1.930185e-09	-6.622298e-09	-0.02047159	-0.03850248
3.6e+08	-0.02798294	-0.04745345	3.210553e-10	-1.522033e-09	0.006128435	0.008671679	2.221035e-08	4.841691e-09
	3.210553e-10	-1.522033e-09	-0.02894963	-0.04690508	-5.880683e-10	-1.869358e-09	0.005740017	0.008972678
	0.006128435	0.008671679	-5.880683e-10	-1.869358e-09	-0.02819184	-0.04762411	2.516237e-09	-7.68395e-09
	2.221035e-08	4.841691e-09	0.005740017	0.008972678	2.516237e-09	-7.68395e-09	-0.02903658	-0.04681198
3.7e+08	-0.037903	-0.05414079	3.534149e-10	-1.691564e-09	0.007621859	0.008995586	2.432255e-08	-8.564729e-11
	3.534149e-10	-1.691564e-09	-0.03902598	-0.05334664	-6.076163e-10	-1.879289e-09	0.007178829	0.009398885
	0.007621859	0.008995586	-6.076163e-10	-1.879289e-09	-0.03818902	-0.05426493	2.941213e-09	-8.890765e-09
	2.432255e-08	-8.564729e-11	0.007178829	0.009398885	2.941213e-09	-8.890765e-09	-0.03913714	-0.0532215
3.8e+08	-0.04898604	-0.05870213	3.631259e-10	-1.876381e-09	0.009133686	0.009002416	2.543951e-08	-5.462958e-09
	3.631259e-10	-1.876381e-09	-0.05022034	-0.05762964	-6.186031e-10	-1.889923e-09	0.008653964	0.00952018
	0.009133686	0.009002416	-6.186031e-10	-1.889923e-09	-0.0493374	-0.05876536	3.172956e-09	-1.021136e-08
	2.543951e-08	-5.462958e-09	0.008653964	0.00952018	3.172956e-09	-1.021136e-08	-0.05035028	-0.05746706
3.9e+08	-0.06077528	-0.06095626	3.447863e-10	-2.073108e-09	0.01059706	0.008698148	2.547093e-08	-1.107916e-08
	3.447863e-10	-2.073108e-09	-0.0620694	-0.05958238	-6.215589e-10	-1.903481e-09	0.01010115	0.009338757
	0.01059706	0.008698148	-6.215589e-10	-1.903481e-09	-0.0611777	-0.06094682	3.185346e-09	-1.16069e-08
	2.547093e-08	-1.107916e-08	0.01010115	0.009338757	3.185346e-09	-1.16069e-08	-0.06221157	-0.05937811
4e+08	-0.07279073	-0.06081905	2.933315e-10	-2.276273e-09	0.01194904	0.008102626	2.437227e-08	-1.670651e-08
	2.933315e-10	-2.276273e-09	-0.07408869	-0.05913155	-6.175783e-10	-1.921903e-09	0.0114592	0.008870142
	0.01194904	0.008102626	-6.175783e-10	-1.921903e-09	-0.07322796	-0.06072825	2.960177e-09	-1.303225e-08
	2.437227e-08	-1.670651e-08	0.0114592	0.008870142	2.960177e-09	-1.303225e-08	-0.07423562	-0.05888273
4.1e+08	-0.08454951	-0.05830472	2.048971e-10	-2.478301e-09	0.01313334	0.007247956	2.214723e-08	-2.211065e-08
	2.048971e-10	-2.478301e-09	-0.08579319	-0.05630299	-6.081887e-10	-1.946707e-09	0.01267265	0.008141762
	0.01313334	0.007247956	-6.081887e-10	-1.946707e-09	-0.08500399	-0.05812724	2.488856e-09	-1.443757e-08
	2.214723e-08	-2.211065e-08	0.01267265	0.008141762	2.488856e-09	-1.443757e-08	-0.08593681	-0.05600833
4.2e+08	-0.09558555	-0.05352283	7.767222e-11	-2.669875e-09	0.0141025	0.006176408	1.884801e-08	-2.706078e-08
	7.767222e-11	-2.669875e-09	-0.09671706	-0.05121824	-5.951803e-10	-1.978901e-09	0.0136939	0.007191066
	0.0141025	0.006176408	-5.951803e-10	-1.978901e-09	-0.09603908	-0.05325693	1.773712e-09	-1.577052e-08
	1.884801e-08	-2.706078e-08	0.0136939	0.007191066	1.773712e-09	-1.577052e-08	-0.09684903	-0.05087812
4.3e+08	-0.1054676	-0.04667165	-8.740217e-11	-2.840622e-09	0.01481946	0.004938055	1.45735e-08	-3.133944e-08
	-8.740217e-11	-2.840622e-09	-0.1064318	-0.04408735	-5.804258e-10	-2.018966e-09	0.01448468	0.006063364
	0.01481946	0.004938055	-5.804258e-10	-2.018966e-09	-0.1059021	-0.04631917	8.287771e-10	-1.697875e-08
	1.45735e-08	-3.133944e-08	0.01448468	0.006063364	8.287771e-10	-1.697875e-08	-0.1065439	-0.0437039
4.4e+08	-0.1138153	-0.03802832	-2.862104e-10	-2.98006e-09	0.01525843	0.003588304	9.465692e-09	-3.475158e-08
	-2.862104e-10	-2.98006e-09	-0.1145621	-0.0351986	-5.65717e-10	-2.066902e-09	0.01501702	0.004809579
	0.01525843	0.003588304	-5.65717e-10	-2.066902e-09	-0.1142134	-0.03759461	-3.201022e-10	-1.801279e-08
	9.465692e-09	-3.475158e-08	0.01501702	0.004809579	-3.201022e-10	-1.801279e-08	-0.1146465	-0.03477564
4.5e+08	-0.1203124	-0.0279365	-5.11396e-10	-3.078673e-09	0.01540528	0.002185489	3.704447e-09	-3.713257e-08
	-5.11396e-10	-3.078673e-09	-0.120799	-0.02490562	-5.526428e-10	-2.122329e-09	0.01527371	0.003484044
	0.01540528	0.002185489	-5.526428e-10	-2.122329e-09	-0.1206581	-0.02743017	-1.635886e-09	-1.882879e-08
	3.704447e-09	-3.713257e-08	0.01527371	0.003484044	-1.635886e-09	-1.882879e-08	-0.1208487	-0.02444858
4.6e+08	-0.1247174	-0.01679216	-7.526822e-10	-3.128989e-09	0.01525748	0.0007886132	-2.498954e-09	-3.835509e-08
	-7.526822e-10	-3.128989e-09	-0.1249103	-0.01361282	-5.42524e-10	-2.184613e-09	0.01524831	0.002142433
	0.01525748	0.0007886132	-5.42524e-10	-2.184613e-09	-0.1249968	-0.01622479	-3.071695e-09	-1.939125e-08
	-2.498954e-09	-3.835509e-08	0.01524831	0.002142433	-3.071695e-09	-1.939125e-08	-0.1249195	-0.01312855
4.7e+08	-0.1268712	-0.005028012	-9.97554e-10	-3.126502e-09	0.01482368	-0.0005446915	-8.909338e-09	-3.833464e-08
	-9.97554e-10	-3.126502e-09	-0.1267478	-0.001759421	-5.364089e-10	-2.252996e-09	0.01494487	0.0008398717
