!$
! Info: Touchstone file created by Circ.  Input file=Tx_10in_Rx_85ohms_TxVia_10mils_RxVia_20mils.circ
!$
# Hz S RI R 50
0	0.008106309	7.174497e-26	0.9917626	-7.583944e-26	6.553434e-05	8.255697e-24	-6.397268e-05	1.225288e-21
	0.9917626	-7.647471e-26	0.00810591	9.213082e-26	-6.384128e-05	1.209362e-21	6.497705e-05	1.150508e-23
	6.780775e-05	8.274751e-24	-6.378907e-05	1.203014e-21	0.008098793	6.265326e-26	0.9917327	-6.79054e-26
	-6.438172e-05	1.275427e-21	6.643345e-05	1.184148e-23	0.9917327	-7.097558e-26	0.008111504	8.786069e-26
1e+07	0.01038771	-0.009495453	0.9823297	-0.1073754	0.0003287331	0.001814321	-9.756434e-05	7.524358e-05
	0.9823297	-0.1073754	0.01038033	-0.009495756	-9.758528e-05	7.52673e-05	0.0003253691	0.001815275
	0.0003287812	0.001814294	-9.754831e-05	7.524446e-05	0.01037075	-0.009488654	0.982337	-0.1074705
	-9.752736e-05	7.522074e-05	0.0003254016	0.001815263	0.982337	-0.1074705	0.01036346	-0.009489073
2e+07	0.01002166	-0.02159399	0.9618458	-0.2099524	0.0009329783	0.003480811	-3.82712e-05	0.0001791045
	0.9618458	-0.2099524	0.00999295	-0.02159048	-3.825828e-05	0.0001791288	0.0009201114	0.003485067
	0.0009329698	0.003480786	-3.826135e-05	0.0001791006	0.0100112	-0.02157073	0.9618132	-0.2101481
	-3.826568e-05	0.0001790686	0.0009201083	0.003485045	0.9618132	-0.2101481	0.009983085	-0.02156715
3e+07	0.00615117	-0.03427012	0.931731	-0.3082467	0.001855234	0.004962933	9.060632e-05	0.0002490329
	0.931731	-0.3082467	0.006088411	-0.03425427	9.061251e-05	0.0002490326	0.001827815	0.0049745
	0.001855235	0.004962929	9.060938e-05	0.0002490289	0.006144893	-0.03423685	0.931643	-0.3085265
	9.060345e-05	0.000249027	0.00182781	0.004974498	0.931643	-0.3085265	0.006084374	-0.03422126
4e+07	-0.0006424328	-0.04607096	0.8920697	-0.4021166	0.00305029	0.006203229	0.0002662837	0.00025639
	0.8920697	-0.4021166	-0.0007489105	-0.04603043	0.0002662844	0.0002563864	0.003004626	0.006227566
	0.003050294	0.006203225	0.0002662874	0.0002563867	-0.0006460075	-0.04603052	0.8919107	-0.4024695
	0.0002662881	0.0002563938	0.003004625	0.006227567	0.8919107	-0.4024695	-0.0007488475	-0.04599142
5e+07	-0.009893825	-0.05629522	0.8432942	-0.4907782	0.004458311	0.007152954	0.0004612698	0.0001841264
	0.8432942	-0.4907782	-0.01004975	-0.05621496	0.0004612739	0.0001841079	0.004392467	0.007196541
	0.004458313	0.007152951	0.0004612755	0.0001841077	-0.009897346	-0.05624813	0.8430493	-0.4911908
	0.0004612731	0.0001841278	0.004392467	0.007196541	0.8430493	-0.4911908	-0.01004821	-0.05617041
6e+07	-0.02110855	-0.06444394	0.7860053	-0.573411	0.006010506	0.007777838	0.0006444796	2.614326e-05
	0.7860053	-0.573411	-0.0213151	-0.0643074	0.0006444729	2.60957e-05	0.005924512	0.007847648
	0.006010505	0.007777839	0.00064447	2.609735e-05	-0.02111377	-0.06438904	0.7856617	-0.5738678
	0.0006444741	2.61436e-05	0.005924509	0.007847649	0.7856617	-0.5738678	-0.02131333	-0.0642566
7e+07	-0.03374904	-0.07016398	0.7209189	-0.6492468	0.00763338	0.008059741	0.0007848201	-0.0002127566
	0.7209189	-0.6492468	-0.03400258	-0.06995438	0.0007847811	-0.0002128289	0.007529281	0.008162699
	0.00763338	0.008059746	0.0007847754	-0.0002128234	-0.03375664	-0.07009971	0.7204666	-0.6497305
	0.0007848062	-0.0002127529	0.007529276	0.008162702	0.7204666	-0.6497305	-0.03400131	-0.06989672
8e+07	-0.0472465	-0.07323538	0.6488367	-0.7176022	0.009252791	0.007997025	0.0008543469	-0.0005179732
	0.6488367	-0.7176022	-0.04753868	-0.07293702	0.0008542657	-0.0005180512	0.009134573	0.008139498
	0.009252794	0.00799703	0.0008542603	-0.0005180429	-0.04725652	-0.07316024	0.6482681	-0.7180944
	0.0008543303	-0.0005179651	0.009134568	0.008139503	0.6482681	-0.7180944	-0.04753875	-0.07287166
9e+07	-0.06102076	-0.07356621	0.5706217	-0.7778933	0.01079789	0.007603972	0.0008306484	-0.0008670012
	0.5706217	-0.7778933	-0.06133895	-0.07316565	0.0008305346	-0.0008670653	0.0106713	0.007791302
	0.01079789	0.007603976	0.0008305318	-0.0008670582	-0.06103278	-0.07347883	0.569932	-0.7783744
	0.0008306368	-0.0008669928	0.0106713	0.007791306	0.569932	-0.7783744	-0.06134095	-0.07309111
1e+08	-0.07450431	-0.07118849	0.4871809	-0.8296387	0.0122064	0.00691065	0.0006961595	-0.001233372
	0.4871809	-0.8296387	-0.07483225	-0.07067554	0.0006960371	-0.001233416	0.01207869	0.007146709
	0.0122064	0.00691065	0.0006960371	-0.001233416	-0.07451781	-0.07108781	0.4863685	-0.8300883
	0.0006961595	-0.001233372	0.01207869	0.007146708	0.4863685	-0.8300883	-0.07483631	-0.07058993
1.1e+08	-0.08715951	-0.06623854	0.3994438	-0.8724888	0.01342512	0.005941828	0.0004433088	-0.001565119
	0.3994438	-0.8724888	-0.08747861	-0.0656056	0.0004431247	-0.001565135	0.01330411	0.006228335
	0.01342512	0.005941828	0.0004431247	-0.001565135	-0.08717266	-0.06612182	0.3985088	-0.8728875
	0.0004433088	-0.001565119	0.01330411	0.006228335	0.3985088	-0.8728875	-0.08748291	-0.06550665
1.2e+08	-0.09848346	-0.05895445	0.3083193	-0.9061554	0.01439311	0.004754813	9.602443e-05	-0.001840413
	0.3083193	-0.9061554	-0.09877198	-0.05820073	9.579588e-05	-0.001840381	0.01428805	0.005091955
	0.01439311	0.004754813	9.579584e-05	-0.001840381	-0.09849385	-0.05882023	0.3072653	-0.9064825
	9.602439e-05	-0.001840413	0.01428805	0.005091955	0.3072653	-0.9064825	-0.0987741	-0.05808717
1.3e+08	-0.108054	-0.04967385	0.2147411	-0.9304507	0.01507945	0.003409287	-0.0003341534	-0.002034087
	0.2147411	-0.9304507	-0.10829	-0.04880387	-0.0003344103	-0.002033993	0.01499964	0.003794792
	0.01507945	0.003409286	-0.0003344103	-0.002033994	-0.1080587	-0.0495214	0.2135744	-0.930686
	-0.0003341534	-0.002034087	0.01499964	0.003794792	0.2135744	-0.930686	-0.1082874	-0.04867523
1.4e+08	-0.1155275	-0.03880316	0.1196282	-0.9452744	0.0154633	0.00196657	-0.0008252199	-0.002123735
	0.1196282	-0.9452744	-0.1156901	-0.03782677	-0.0008254896	-0.002123572	0.01541751	0.002395807
	0.0154633	0.00196657	-0.0008254896	-0.002123572	-0.1155232	-0.03863267	0.1183581	-0.9453987
	-0.00082522	-0.002123735	0.01541751	0.002395807	0.1183581	-0.9453987	-0.1156799	-0.0376833
1.5e+08	-0.1206508	-0.02680172	0.02388387	-0.9506041	0.01553572	0.0004891833	-0.001349	-0.002093817
	0.02388387	-0.9506041	-0.1207213	-0.02573381	-0.001349266	-0.002093578	0.01553167	0.0009553257
	0.01553572	0.0004891832	-0.001349266	-0.002093578	-0.120634	-0.02661437	0.02252209	-0.9505993
	-0.001349	-0.002093817	0.01553167	0.0009553257	0.02252209	-0.9505993	-0.1207007	-0.02557657
1.6e+08	-0.1232675	-0.01416326	-0.07160724	-0.9464876	0.01529947	-0.0009610558	-0.001873744	-0.001937163
	-0.07160724	-0.9464876	-0.1232304	-0.01302331	-0.001873989	-0.001936846	0.01534333	-0.0004667616
	0.01529947	-0.0009610559	-0.001873989	-0.001936846	-0.1232349	-0.01396132	-0.07304653	-0.9463369
	-0.001873744	-0.001937163	0.01534333	-0.0004667616	-0.07304653	-0.9463369	-0.1231968	-0.01285415
1.7e+08	-0.1233208	-0.00139712	-0.1659792	-0.9330379	0.01476843	-0.002324836	-0.00236676	-0.001655595
	-0.1659792	-0.9330379	-0.1231651	-0.0002084095	-0.002366965	-0.001655199	0.0148644	-0.00181271
	0.01476843	-0.002324836	-0.002366965	-0.001655199	-0.1232697	-0.001183785	-0.1674796	-0.932726
	-0.00236676	-0.001655595	0.0148644	-0.00181271	-0.1674796	-0.932726	-0.1231163	-2.993563e-05
1.8e+08	-0.1208534	0.01099047	-0.2583847	-0.9104297	0.01396687	-0.003546995	-0.002797005	-0.001259762
	-0.2583847	-0.9104297	-0.1205733	0.01220178	-0.002797151	-0.001259292	0.0141168	-0.003028471
	0.01396687	-0.003546996	-0.002797151	-0.001259292	-0.1207819	0.01121119	-0.2599274	-0.9099433
	-0.002797005	-0.001259762	0.0141168	-0.003028471	-0.2599274	-0.9099433	-0.1205077	0.01238634
1.9e+08	-0.1160043	0.02251434	-0.3479936	-0.8788983	0.01292854	-0.004578031	-0.00313748	-0.0007682785
	-0.3479936	-0.8788983	-0.1155998	0.02372041	-0.003137549	-0.0007677451	0.01313167	-0.00406512
	0.01292854	-0.004578031	-0.003137549	-0.0007677451	-0.1159114	0.02273787	-0.3495581	-0.878226
	-0.003137481	-0.0007682785	0.01313167	-0.00406512	-0.3495581	-0.878226	-0.1155166	0.02390735
2e+08	-0.1090025	0.03272755	-0.4339936	-0.8387397	0.01169568	-0.005375507	-0.003367262	-0.0002062484
	-0.4339936	-0.8387397	-0.1084801	0.03390015	-0.003367236	-0.0002056664	0.0119485	-0.004880208
	0.01169568	-0.005375507	-0.003367236	-0.0002056664	-0.1088882	0.03294897	-0.4355574	-0.8378727
	-0.003367262	-0.0002062484	0.0119485	-0.004880208	-0.4355574	-0.8378727	-0.1083792	0.03408548
2.1e+08	-0.1001581	0.04123718	-0.5155902	-0.7903136	0.01031784	-0.005905401	-0.003473036	0.0003967103
	-0.5155902	-0.7903136	-0.09953069	0.04234913	-0.003472904	0.0003973221	0.0106141	-0.005439077
	0.01031784	-0.005905401	-0.003472904	0.0003973221	-0.1000239	0.04145152	-0.5171294	-0.7892455
	-0.003473036	0.0003967103	0.0106141	-0.005439076	-0.5171294	-0.7892455	-0.0994133	0.0425288
2.2e+08	-0.08985145	0.04771859	-0.5920097	-0.7340461	0.008850538	-0.00614338	-0.003450029	0.001008785
	-0.5920097	-0.7340461	-0.08913817	0.04874525	-0.003449784	0.001009405	0.009181318	-0.005716126
	0.008850538	-0.00614338	-0.003449784	0.001009405	-0.08969972	0.04792113	-0.5934991	-0.7327735
	-0.003450029	0.001008785	0.009181318	-0.005716126	-0.5934991	-0.7327735	-0.08900621	0.04891535
2.3e+08	-0.07851845	0.05192762	-0.6625037	-0.6704341	0.007353577	-0.006075969	-0.003302243	0.001598465
	-0.6625037	-0.6704341	-0.07774433	0.05284831	-0.003301882	0.001599071	0.007707616	-0.005696012
	0.007353577	-0.006075969	-0.003301882	0.001599071	-0.07835288	0.05211413	-0.6639171	-0.6689567
	-0.003302243	0.001598465	0.007707616	-0.005696012	-0.6639171	-0.6689567	-0.07760075	0.05300531
2.4e+08	-0.06663512	0.05371029	-0.7263557	-0.6000492	0.00588914	-0.005701527	-0.003041975	0.002137017
	-0.7263557	-0.6000492	-0.06583011	0.05450965	-0.003041503	0.002137585	0.006253207	-0.005374681
	0.00588914	-0.005701527	-0.003041503	0.002137585	-0.06646035	0.05387732	-0.7276662	-0.5983697
	-0.003041975	0.002137017	0.006253207	-0.005374681	-0.7276662	-0.5983697	-0.0656787	0.05465065
2.5e+08	-0.05469933	0.05300957	-0.7828906	-0.5235399	0.004519505	-0.005030919	-0.002688637	0.002600734
	-0.7828906	-0.5235399	-0.0538972	0.05367871	-0.002688064	0.002601245	0.004878932	-0.004760134
	0.004519505	-0.005030919	-0.002688064	0.002601245	-0.05452088	0.05315467	-0.7840712	-0.5216645
	-0.002688637	0.002600734	0.004878932	-0.004760134	-0.7840712	-0.5216645	-0.05374249	0.05380161
2.6e+08	-0.04321156	0.04986869	-0.8314856	-0.4416332	0.00330449	-0.004087765	-0.002266948	0.002972771
	-0.8314856	-0.4416332	-0.04244845	0.05040611	-0.002266286	0.002973207	0.003643801	-0.003872783
	0.00330449	-0.004087765	-0.002266286	0.002973207	-0.04303556	0.04999062	-0.8325095	-0.4395716
	-0.002266948	0.002972771	0.003643801	-0.003872783	-0.8325095	-0.4395716	-0.04229552	0.05050983
2.7e+08	-0.03265473	0.04443063	-0.8715833	-0.355133	0.0022987	-0.002908105	-0.00180464	0.003244353
	-0.8715833	-0.355133	-0.03196752	0.04484281	-0.001803907	0.003244703	0.002602324	-0.002745264
	0.0022987	-0.002908105	-0.001803907	0.003244703	-0.03248769	0.0445295	-0.8724243	-0.3528986
	-0.00180464	0.003244353	0.002602324	-0.002745264	-0.8724243	-0.3528986	-0.03182177	0.04492735
2.8e+08	-0.02347416	0.0369334	-0.902705	-0.2649159	0.00154874	-0.001539407	-0.001329883	0.003415261
	-0.902705	-0.2649159	-0.02289869	0.03723505	-0.001329096	0.003415518	0.001801758	-0.001421602
	0.00154874	-0.001539407	-0.001329096	0.003415518	-0.02332263	0.03701077	-0.9033379	-0.2625253
	-0.001329883	0.003415261	0.001801758	-0.001421602	-0.9033379	-0.2625253	-0.02276561	0.03730166
2.9e+08	-0.0160585	0.02770122	-0.9244645	-0.171923	0.001090563	-3.883726e-05	-0.0008686522	0.003493484
	-0.9244645	-0.171923	-0.01562771	0.02791506	-0.0008678295	0.003493647	0.001279481	4.435556e-05
	0.001090563	-3.883727e-05	-0.0008678296	0.003493647	-0.01592876	0.02776012	-0.9248658	-0.1693964
	-0.0008686522	0.003493484	0.001279481	4.435556e-05	-0.9248658	-0.1693964	-0.01551257	0.02796622
3e+08	-0.01072256	0.01713146	-0.9365806	-0.07714904	0.0009472198	0.001529178	-0.0004423263	0.003494064
	-0.9365806	-0.07714904	-0.01046468	0.01728765	-0.0004414826	0.003494136	0.001060703	0.0015912
	0.0009472198	0.001529178	-0.0004414826	0.003494136	-0.0106203	0.01717633	-0.9367289	-0.07450999
	-0.0004423263	0.003494064	0.001060703	0.0015912	-0.9367289	-0.07450999	-0.01037228	0.01732703
3.1e+08	-0.007693152	0.005678057	-0.9388882	0.01837216	0.001127204	0.003096009	-6.57507e-05	0.00343723
	-0.9388882	0.01837216	-0.007630011	0.005813129	-6.489768e-05	0.003437217	0.001156748	0.003152853
	0.001127204	0.003096009	-6.489769e-05	0.003437217	-0.007623163	0.005714642	-0.9387646	0.02109714
	-6.575071e-05	0.00343723	0.001156749	0.003152853	-0.9387646	0.02109714	-0.007564394	0.005845512
3.2e+08	-0.007098774	-0.006168115	-0.9313453	0.1135847	0.001623602	0.004592312	0.0002539987	0.003345997
	-0.9313453	0.1135847	-0.007244385	-0.006012635	0.0002548542	0.003345909	0.001564107	0.004661911
	0.001623602	0.004592312	0.0002548542	0.003345909	-0.007064641	-0.006132981	-0.9309338	0.1163662
	0.0002539987	0.003345997	0.001564107	0.004661911	-0.9309338	0.1163662	-0.007208597	-0.005981526
3.3e+08	-0.008963871	-0.01790081	-0.9140381	0.2074294	0.002414181	0.005951714	0.0005180158	0.003243495
	-0.9140381	0.2074294	-0.009323296	-0.01768015	0.0005188721	0.00324334	0.002264375	0.006053195
	0.002414181	0.005951714	0.000518872	0.00324334	-0.008967688	-0.01785946	-0.9133262	0.2102359
	0.0005180158	0.003243495	0.002264375	0.006053195	-0.9133262	0.2102359	-0.009319121	-0.01764388
3.4e+08	-0.0132079	-0.02902083	-0.8871804	0.2988639	0.003462438	0.007114394	0.0007350721	0.003150308
	-0.8871804	0.2988639	-0.01377654	-0.02868895	0.000735932	0.003150093	0.00322515	0.007267246
	0.003462438	0.007114394	0.000735932	0.003150093	-0.01325008	-0.02896509	-0.8861592	0.3016616
	0.0007350721	0.003150308	0.00322515	0.007267246	-0.8861592	0.3016616	-0.01380434	-0.02864066
3.5e+08	-0.01964958	-0.03905804	-0.85111	0.3868816	0.00471957	0.008030288	0.0009202919	0.003082132
	-0.85111	0.3868816	-0.02041292	-0.03856979	0.0009211622	0.00308186	0.004401804	0.008253467
	0.00471957	0.008030288	0.0009211622	0.00308186	-0.0197288	-0.03897961	-0.8497745	0.3896355
	0.0009202919	0.003082132	0.004401804	0.008253467	-0.8497745	0.3896355	-0.02047159	-0.03850248
3.6e+08	-0.02801581	-0.04759183	-0.8062806	0.4705301	0.006127199	0.008661655	0.001093142	0.003048003
	-0.8062806	0.4705301	-0.02894963	-0.04690508	0.001094032	0.003047673	0.005740017	0.008972678
	0.006127199	0.008661655	0.001094032	0.003047673	-0.02812898	-0.04748266	-0.8046302	0.473204
	0.001093142	0.003048003	0.005740017	0.008972678	-0.8046302	0.473204	-0.02903658	-0.04681198
3.7e+08	-0.03795489	-0.05426887	-0.7532509	0.5489269	0.007620625	0.008984814	0.001274977	0.003049283
	-0.7532509	0.5489269	-0.03902598	-0.05334664	0.001275896	0.003048886	0.007178829	0.009398885
	0.007620625	0.008984814	0.001275896	0.003048886	-0.03809718	-0.05412154	-0.7512891	0.5514843
	0.001274977	0.003049283	0.007178829	0.009398885	-0.7512891	0.5514843	-0.03913714	-0.0532215
3.8e+08	-0.04905299	-0.05881728	-0.6926701	0.6212719	0.009132342	0.008990971	0.001486413	0.003079501
	-0.6926701	0.6212719	-0.05022034	-0.05762964	0.001487367	0.003079023	0.008653964	0.00952018
	0.009132342	0.008990971	0.001487367	0.003079023	-0.049218	-0.05862537	-0.6904047	0.6236764
	0.001486413	0.003079501	0.008653964	0.00952018	-0.6904047	0.6236764	-0.05035028	-0.05746706
3.9e+08	-0.0608531	-0.06105666	-0.6252631	0.6868569	0.01059552	0.008686117	0.001744821	0.003125044
	-0.6252631	0.6868569	-0.0620694	-0.05958238	0.001745814	0.003124466	0.01010115	0.009338757
	0.01059552	0.008686117	0.001745814	0.003124466	-0.06103305	-0.06081512	-0.6227062	0.6890727
	0.001744821	0.003125044	0.01010115	0.009338757	-0.6227062	0.6890727	-0.06221157	-0.05937811
4e+08	-0.0728751	-0.06090374	-0.5518139	0.745071	0.01194725	0.008090104	0.002062203	0.003166586
	-0.5518139	0.745071	-0.07408869	-0.05913155	0.002063232	0.003165884	0.0114592	0.008870142
	0.01194725	0.008090104	0.002063232	0.003165884	-0.07306115	-0.06060914	-0.5489817	0.7470634
	0.002062203	0.003166586	0.0114592	0.008870142	-0.5489817	0.7470634	-0.07423562	-0.05888273
4.1e+08	-0.0846362	-0.05837355	-0.47315	0.7954026	0.01313126	0.007235033	0.002443653	0.003181089
	-0.47315	0.7954026	-0.08579319	-0.05630299	0.002444706	0.003180238	0.01267265	0.008141762
	0.01313126	0.007235033	0.002444706	0.003180238	-0.08481878	-0.0580243	-0.4700629	0.7971385
	0.002443653	0.003181089	0.01267265	0.008141762	-0.4700629	0.7971385	-0.08593681	-0.05600833
4.2e+08	-0.09567048	-0.05357642	-0.3901284	0.8374385	0.01410013	0.006163172	0.002886518	0.003144147
	-0.3901284	0.8374385	-0.09671706	-0.05121824	0.002887576	0.003143119	0.0136939	0.007191066
	0.01410013	0.006163172	0.002887576	0.003143119	-0.09583971	-0.05317293	-0.3868104	0.838887
	0.002886518	0.003144147	0.0136939	0.007191066	-0.3868104	0.838887	-0.09684903	-0.05087812
4.3e+08	-0.105547	-0.04671132	-0.3036219	0.8708607	0.0148168	0.004924583	0.003380335	0.003032425
	-0.3036219	0.8708607	-0.1064318	-0.04408735	0.00338137	0.0030312	0.01448468	0.006063364
	0.0148168	0.004924583	0.00338137	0.0030312	-0.1056932	-0.04625603	-0.3001006	0.871993
	0.003380335	0.003032425	0.01448468	0.006063364	-0.3001006	0.871993	-0.1065439	-0.0437039
4.4e+08	-0.1138859	-0.03805597	-0.2145097	0.895441	0.0152555	0.003574665	0.003907482	0.002825985
	-0.2145097	0.895441	-0.1145621	-0.0351986	0.003908456	0.002824545	0.01501702	0.004809579
	0.0152555	0.003574665	0.003908456	0.002824545	-0.1139996	-0.03755336	-0.2108159	0.8962314
	0.003907482	0.002825985	0.01501702	0.004809579	-0.2108159	0.8962314	-0.1146465	-0.03477564
4.5e+08	-0.1203713	-0.02795454	-0.1236684	0.9110354	0.01540212	0.00217174	0.004444472	0.002510266
	-0.1236684	0.9110354	-0.120799	-0.02490562	0.004445341	0.002508603	0.01527371	0.003484044
	0.01540212	0.00217174	0.004445341	0.002508603	-0.1204443	-0.02741097	-0.119836	0.911461
	0.004444472	0.002510266	0.01527371	0.003484044	-0.119836	0.911461	-0.1208487	-0.02444858
4.6e+08	-0.1247624	-0.0168034	-0.03196703	0.9175778	0.01525413	0.0007748013	0.004963744	0.002077597
	-0.03196703	0.9175778	-0.1249103	-0.01361282	0.004964462	0.002075711	0.01524831	0.002142433
	0.01525413	0.0007748013	0.004964462	0.002075711	-0.1247877	-0.01622692	-0.02803251	0.9176192
	0.004963744	0.002077597	0.01524831	0.002142433	-0.02803251	0.9176192	-0.1249195	-0.01312855
4.7e+08	-0.1269006	-0.005035557	0.05973751	0.9150742	0.01482018	-0.000558531	0.005435789	0.001528111
	0.05973751	0.9150742	-0.1267478	-0.001759421	0.005436305	0.001526016	0.01494487	0.0008398717
	0.01482018	-0.000558531	0.005436305	0.001526016	-0.1268728	-0.004435642	0.06373529	0.9147156
	0.005435789	0.001528111	0.01494487	0.0008398717	0.06373529	0.9147156	-0.126712	-0.001255961
4.8e+08	-0.1267143	0.006895602	0.150602	0.9035984	0.01411939	-0.001773838	0.005831421	0.000870032
	0.150602	0.9035984	-0.1262514	0.01019709	0.005831687	0.0008677515	0.01437745	-0.0003707535
	0.01411939	-0.001773838	0.005831687	0.0008677515	-0.1266299	0.007508398	0.1546221	0.9028279
	0.005831421	0.000870032	0.01437745	-0.0003707535	0.1546221	0.9028279	-0.1261678	0.01071081
4.9e+08	-0.1242204	0.01853292	0.2397982	0.8832886	0.01318051	-0.00282153	0.006124026	0.0001193058
	0.2397982	0.8832886	-0.1234503	0.02179782	0.006123997	0.0001168761	0.01356945	-0.001440337
	0.01318051	-0.00282153	0.006123997	0.0001168761	-0.1240782	0.01914736	0.2437981	0.8820982
	0.006124026	0.0001193058	0.01356945	-0.001440337	0.2437981	0.8820982	-0.123318	0.02231229
5e+08	-0.1195235	0.02943193	0.3265135	0.8543458	0.01204092	-0.003658303	0.006291618	-0.0007013618
	0.3265135	0.8543458	-0.1184616	0.03259906	0.006291259	-0.0007038943	0.0125528	-0.002324962
	0.01204092	-0.003658303	0.006291259	-0.0007038943	-0.1193245	0.03003652	0.3304493	0.852732
	0.006291618	-0.0007013618	0.0125528	-0.002324962	0.3304493	0.852732	-0.1182815	0.0331046
5.1e+08	-0.1128114	0.03917681	0.4099516	0.8170336	0.01074548	-0.004248474	0.006318546	-0.001564
	0.4099516	0.8170336	-0.1114857	0.04218827	0.006317829	-0.001566581	0.0113671	-0.002987221
	0.01074548	-0.004248474	0.006317829	-0.001566581	-0.112559	0.03976029	0.4137784	0.8149973
