!$
! Info: Touchstone file created by Circ.  Input file=Tx_12in_Rx_100ohms_TxVia_10mils_RxVia_20mils.circ
!$
# Hz S RI R 50
0	0.01244186	7.445063e-26	-1.747211e-11	4.060832e-27	7.548435e-05	1.292401e-23	-2.1341e-08	2.613485e-24
	-1.745792e-11	4.059819e-27	0.01244114	1.071035e-25	1.509827e-11	2.687796e-28	7.508376e-05	1.770435e-23
	7.359536e-05	1.27418e-23	1.506341e-11	2.691249e-28	0.0124556	7.74691e-26	1.724036e-08	7.324937e-27
	-2.134173e-08	2.613574e-24	7.653853e-05	1.822202e-23	1.724088e-08	7.323808e-27	0.01244669	1.021282e-25
1e+07	0.01723057	0.007682285	3.338525e-11	-5.886513e-11	0.0003788676	0.002099004	-4.806291e-09	1.941916e-08
	3.338523e-11	-5.886542e-11	0.01843035	0.007351081	1.851302e-12	-7.972976e-11	0.0007993785	0.002146742
	0.0003788284	0.002099029	1.851283e-12	-7.972945e-11	0.01790012	0.007334582	-6.74917e-09	1.918786e-08
	-4.806291e-09	1.941916e-08	0.0007994117	0.002146731	-6.74917e-09	1.918786e-08	0.01826405	0.007375765
2e+07	0.02352469	0.01081561	5.237456e-11	-8.50315e-11	0.001134013	0.004109361	-1.708184e-09	2.347511e-08
	5.237423e-11	-8.503165e-11	0.02409607	0.009901324	1.392545e-11	-1.75654e-10	0.001414397	0.004371369
	0.00113402	0.004109379	1.392567e-11	-1.756539e-10	0.02366783	0.01006825	-7.210856e-09	2.032616e-08
	-1.708184e-09	2.347511e-08	0.001414395	0.004371348	-7.210855e-09	2.032616e-08	0.02398959	0.01000534
3e+07	0.02887638	0.01103685	5.228422e-11	-1.669831e-10	0.00232641	0.005829049	3.737095e-09	1.720306e-08
	5.228419e-11	-1.66983e-10	0.02895314	0.0100376	-3.096939e-11	-1.85788e-10	0.002506626	0.006170858
	0.002326408	0.00582905	-3.096931e-11	-1.857881e-10	0.0286208	0.01026776	-8.193276e-10	2.232746e-08
	3.737095e-09	1.720306e-08	0.002506621	0.006170856	-8.193276e-10	2.232746e-08	0.02890006	0.01016743
4e+07	0.03351865	0.009700874	4.792744e-11	-2.412971e-10	0.003876822	0.007194305	6.307227e-09	1.341376e-08
	4.792748e-11	-2.412971e-10	0.03319479	0.008788545	-1.75203e-11	-2.487953e-10	0.004008124	0.007578749
	0.003876816	0.007194308	-1.752036e-11	-2.487955e-10	0.03295705	0.009042198	5.417741e-09	1.782277e-08
	6.307227e-09	1.341376e-08	0.004008123	0.007578751	5.417741e-09	1.782277e-08	0.0331899	0.008922922
5e+07	0.03740751	0.00720894	4.866439e-11	-3.230859e-10	0.005688123	0.008138396	9.228623e-09	1.14408e-08
	4.866441e-11	-3.230859e-10	0.0367727	0.006486411	-6.438157e-11	-2.85013e-10	0.005942051	0.00843853
	0.005688122	0.008138398	-6.438157e-11	-2.85013e-10	0.03662702	0.006736357	8.057682e-09	1.142521e-08
	9.228623e-09	1.14408e-08	0.00594205	0.008438531	8.057682e-09	1.142521e-08	0.03680891	0.006612305
6e+07	0.04045282	0.003833868	4.823896e-11	-4.193061e-10	0.007651183	0.008616819	1.501485e-08	7.596884e-09
	4.823899e-11	-4.193061e-10	0.03959949	0.00336794	-9.400692e-11	-2.893261e-10	0.007979782	0.008814151
	0.007651184	0.008616816	-9.400695e-11	-2.893262e-10	0.0395383	0.003590148	8.074773e-09	5.706553e-09
	1.501485e-08	7.596884e-09	0.007979779	0.008814152	8.074773e-09	5.706553e-09	0.03966961	0.003476041
7e+07	0.04256898	-0.0001839302	4.178005e-11	-5.195032e-10	0.009661777	0.008598057	1.601966e-08	-2.961854e-09
	4.178017e-11	-5.195032e-10	0.04159117	-0.0003549036	-1.108937e-10	-2.891819e-10	0.01000979	0.008700549
	0.009661777	0.008598051	-1.108938e-10	-2.891819e-10	0.04160258	-0.0001805964	6.645109e-09	1.342098e-09
	1.601966e-08	-2.961854e-09	0.01000978	0.008700551	6.645109e-09	1.342098e-09	0.041687	-0.0002717935
8e+07	0.04369519	-0.004611879	4.606299e-11	-6.060141e-10	0.01159056	0.008100444	1.019547e-08	-7.95022e-09
	4.606309e-11	-6.060142e-10	0.04268667	-0.004473806	-1.26559e-10	-2.919616e-10	0.01192074	0.008116835
	0.01159056	0.008100438	-1.265591e-10	-2.919616e-10	0.04275525	-0.00436323	4.572104e-09	-1.609297e-09
	1.019547e-08	-7.95022e-09	0.01192074	0.008116839	4.572104e-09	-1.609297e-09	0.04279866	-0.004420318
9e+07	0.04380371	-0.009221086	2.27642e-11	-6.566993e-10	0.01332555	0.00716413	6.328133e-09	-8.613399e-09
	2.276425e-11	-6.566994e-10	0.04285822	-0.008780378	-1.416199e-10	-3.09443e-10	0.01360723	0.007106237
	0.01332555	0.007164126	-1.416199e-10	-3.09443e-10	0.04296561	-0.008744791	2.350453e-09	-3.252061e-09
	6.328132e-09	-8.613399e-09	0.01360723	0.007106241	2.350453e-09	-3.252061e-09	0.04297613	-0.008758159
1e+08	0.04289638	-0.01379111	-8.761772e-11	-7.388982e-10	0.01477532	0.005851698	3.900762e-09	-8.355611e-09
	-8.761772e-11	-7.388982e-10	0.04213156	-0.01306481	-1.428978e-10	-3.477357e-10	0.0149688	0.005732149
	0.01477532	0.005851698	-1.428978e-10	-3.477357e-10	0.04225549	-0.01311134	2.461377e-10	-3.809766e-09
	3.900762e-09	-8.355611e-09	0.0149688	0.005732149	2.461377e-10	-3.809766e-09	0.04224372	-0.01307319
1.1e+08	0.0410372	-0.01807022	-1.325067e-10	-8.111573e-10	0.01585368	0.004217773	2.431212e-09	-9.903356e-09
	-1.325067e-10	-8.111573e-10	0.04052572	-0.01724469	-1.246628e-10	-3.562722e-10	0.01593987	0.004124358
	0.01585368	0.004217773	-1.246628e-10	-3.562722e-10	0.04064475	-0.01736597	-1.874631e-11	-4.307975e-09
	2.431212e-09	-9.903356e-09	0.01593987	0.004124358	-1.874631e-11	-4.307975e-09	0.04062459	-0.0172721
1.2e+08	0.03835293	-0.02189499	-1.891865e-10	-8.743074e-10	0.01648229	0.002386342	5.087322e-10	-1.111549e-08
	-1.891865e-10	-8.743074e-10	0.03803713	-0.02103103	-9.635429e-11	-3.81018e-10	0.01650467	0.002344148
	0.01648229	0.002386342	-9.635429e-11	-3.810181e-10	0.03813855	-0.02122032	-3.611944e-10	-4.749898e-09
	5.087322e-10	-1.111549e-08	0.01650467	0.002344148	-3.611944e-10	-4.749898e-09	0.03812325	-0.02107263
1.3e+08	0.03495669	-0.02511009	-2.522965e-10	-9.241584e-10	0.01663736	0.0004719735	-1.768137e-09	-1.185807e-08
	-2.522965e-10	-9.241584e-10	0.03481042	-0.02424446	-6.190775e-11	-4.13852e-10	0.01662344	0.0004899965
	0.01663736	0.0004719737	-6.190775e-11	-4.13852e-10	0.03488143	-0.02449273	-7.677615e-10	-5.11622e-09
	-1.768137e-09	-1.185807e-08	0.01662344	0.0004899965	-7.677615e-10	-5.11622e-09	0.03488283	-0.02429627
1.4e+08	0.03099869	-0.02758582	-3.190653e-10	-9.589971e-10	0.01631708	-0.001409996	-4.277672e-09	-1.202751e-08
	-3.190653e-10	-9.589971e-10	0.03099985	-0.02674693	-2.3591e-11	-4.569978e-10	0.01628988	-0.001330912
	0.01631708	-0.001409996	-2.3591e-11	-4.569978e-10	0.03103019	-0.0270424	-1.219693e-09	-5.388862e-09
	-4.277672e-09	-1.202751e-08	0.01628988	-0.001330912	-1.219693e-09	-5.388862e-09	0.03105802	-0.02680508
1.5e+08	0.02665191	-0.02922725	-3.860283e-10	-9.773325e-10	0.01554598	-0.003147677	-6.869425e-09	-1.155237e-08
	-3.860283e-10	-9.773325e-10	0.02677891	-0.02843782	1.573306e-11	-5.118669e-10	0.01552466	-0.003012785
	0.01554598	-0.003147677	1.573306e-11	-5.118669e-10	0.02676164	-0.02876655	-1.693072e-09	-5.554267e-09
	-6.869425e-09	-1.155237e-08	0.01552466	-0.003012785	-1.693072e-09	-5.554267e-09	0.02682303	-0.02849855
1.6e+08	0.0221038	-0.02997825	-4.489784e-10	-9.783266e-10	0.01437397	-0.004638637	-9.372884e-09	-1.040112e-08
	-4.489784e-10	-9.783266e-10	0.02233455	-0.02925624	5.283884e-11	-5.790215e-10	0.01437343	-0.004457811
	0.01437397	-0.004638637	5.283884e-11	-5.790215e-10	0.02226652	-0.02960302	-2.159938e-09	-5.605025e-09
	-9.372884e-09	-1.040112e-08	0.01437343	-0.004457811	-2.159938e-09	-5.605025e-09	0.02236552	-0.02931605
1.7e+08	0.01754772	-0.02982366	-5.030939e-10	-9.622051e-10	0.01287346	-0.005795588	-1.16081e-08	-8.587589e-09
	-5.030939e-10	-9.622051e-10	0.01785943	-0.02918266	8.437025e-11	-6.581195e-10	0.01290386	-0.005581923
	0.01287346	-0.005795588	8.437025e-11	-6.581195e-10	0.01774156	-0.02953184	-2.589894e-09	-5.541139e-09
	-1.16081e-08	-8.587589e-09	0.01290386	-0.005581923	-2.589894e-09	-5.541139e-09	0.01787882	-0.02923842
1.8e+08	0.01317434	-0.02878956	-5.432477e-10	-9.306096e-10	0.01113517	-0.00655126	-1.339777e-08	-6.173578e-09
	-5.432477e-10	-9.306096e-10	0.01354355	-0.02823883	1.070833e-10	-7.479048e-10	0.01120167	-0.006319666
	0.01113517	-0.00655126	1.070833e-10	-7.479048e-10	0.0133809	-0.0285754	-2.952109e-09	-5.370818e-09
	-1.339777e-08	-6.173578e-09	0.01120167	-0.006319666	-2.952109e-09	-5.370818e-09	0.01355358	-0.02828794
1.9e+08	0.009162925	-0.02694166	-5.645326e-10	-8.864141e-10	0.009262855	-0.006862145	-1.458003e-08	-3.268231e-09
	-5.645326e-10	-8.864141e-10	0.009565893	-0.02648617	1.180548e-10	-8.461657e-10	0.009365539	-0.006627934
	0.009262855	-0.006862145	1.180548e-10	-8.461657e-10	0.009367438	-0.02679674	-3.217644e-09	-5.110304e-09
	-1.458003e-08	-3.268231e-09	0.009365539	-0.006627934	-3.217644e-09	-5.110304e-09	0.00956924	-0.02652663
2e+08	0.005673238	-0.0243819	-5.62477e-10	-8.346988e-10	0.007367259	-0.006710855	-1.502111e-08	-2.392731e-11
	-5.62477e-10	-8.346988e-10	0.006086381	-0.02402224	1.150533e-10	-9.500302e-10	0.00750138	-0.006488382
	0.007367259	-0.006710854	1.150533e-10	-9.500302e-10	0.005864573	-0.02429603	-3.361447e-09	-4.784365e-09
	-1.502111e-08	-2.392731e-11	0.00750138	-0.006488382	-3.361447e-09	-4.784365e-09	0.006086097	-0.0240528
2.1e+08	0.002838295	-0.02124323	-5.341766e-10	-7.823508e-10	0.005559642	-0.006106964	-1.462684e-08	3.3712e-09
	-5.341766e-10	-7.823508e-10	0.003238803	-0.02097569	9.657235e-11	-1.056115e-09	0.005716185	-0.00590839
	0.005559642	-0.006106964	9.657235e-11	-1.056115e-09	0.003008873	-0.02120538	-3.365133e-09	-4.424961e-09
	-1.462684e-08	3.3712e-09	0.005716185	-0.00590839	-3.365133e-09	-4.424961e-09	0.003238113	-0.02099588
2.2e+08	0.0007584285	-0.01768306	-4.788202e-10	-7.370077e-10	0.003945358	-0.00508627	-1.335209e-08	6.703853e-09
	-4.788202e-10	-7.370077e-10	0.001124937	-0.01749971	6.196152e-11	-1.160585e-09	0.004111857	-0.004920504
	0.003945358	-0.00508627	6.196152e-11	-1.160585e-09	0.0009039699	-0.01768215	-3.218888e-09	-4.068832e-09
	-1.335209e-08	6.703853e-09	0.004111857	-0.004920504	-3.218888e-09	-4.068832e-09	0.001127067	-0.01750985
2.3e+08	-0.0005030754	-0.01387547	-3.979682e-10	-7.066801e-10	0.002617778	-0.003708533	-1.120736e-08	9.748692e-09
	-3.979682e-10	-7.066801e-10	-0.0001897523	-0.01376438	1.156098e-11	-1.25945e-09	0.002779367	-0.003580432
	0.002617778	-0.003708533	1.156098e-11	-1.25945e-09	-0.0003839193	-0.01390103	-2.922756e-09	-3.755408e-09
	-1.120736e-08	9.748692e-09	0.002779367	-0.003580432	-2.922756e-09	-3.755408e-09	-0.0001817657	-0.01376559
2.4e+08	-0.0009225258	-0.01000263	-2.956805e-10	-6.98939e-10	0.001652966	-0.002053829	-8.261716e-09	1.228314e-08
	-2.956805e-10	-6.98939e-10	-0.0006786626	-0.009948288	-5.326712e-11	-1.348817e-09	0.001793592	-0.001963688
	0.001652966	-0.002053829	-5.326712e-11	-1.348817e-09	-0.0008286429	-0.01004537	-2.487325e-09	-3.524048e-09
	-8.261716e-09	1.228314e-08	0.001793592	-0.001963688	-2.487325e-09	-3.524048e-09	-0.0006621549	-0.009942412
2.5e+08	-0.0005163998	-0.006245982	-1.783374e-10	-7.200757e-10	0.001105413	-0.0002177495	-4.641639e-09	1.410282e-08
	-1.783374e-10	-7.200757e-10	-0.000354659	-0.006229842	-1.301707e-10	-1.42515e-09	0.001209126	-0.0001611275
	0.001105413	-0.0002177495	-1.301707e-10	-1.42515e-09	-0.0004447568	-0.006298176	-1.93359e-09	-3.411126e-09
	-4.641639e-09	1.410282e-08	0.001209126	-0.0001611275	-1.93359e-09	-3.411126e-09	-0.0003275058	-0.00621935
2.6e+08	0.0006600473	-0.002777427	-5.415776e-11	-7.743569e-10	0.001005052	0.001694254	-5.258111e-10	1.503652e-08
	-5.415776e-11	-7.743569e-10	0.0007312175	-0.002778658	-2.159042e-10	-1.485519e-09	0.001057305	0.001726368
	0.001005052	0.001694254	-2.159042e-10	-1.485519e-09	0.0007138237	-0.002833192	-1.291972e-09	-3.447222e-09
	-5.258111e-10	1.503652e-08	0.001057305	0.001726368	-1.291972e-09	-3.447222e-09	0.0007704613	-0.002766487
2.7e+08	0.002516081	0.0002488227	6.752793e-11	-8.634889e-10	0.001355739	0.00357304	3.864097e-09	1.495949e-08
	6.752793e-11	-8.634889e-10	0.002492912	0.0002524744	-3.064866e-10	-1.527826e-09	0.001344599	0.003593735
	0.001355739	0.00357304	-3.064866e-10	-1.527826e-09	0.002557127	0.0001934529	-6.005724e-10	-3.654688e-09
	3.864097e-09	1.495949e-08	0.001344599	0.003593735	-6.005724e-10	-3.654688e-09	0.002544913	0.0002630887
2.8e+08	0.004930494	0.00270348	1.771537e-10	-9.863713e-10	0.00213525	0.005312095	8.275987e-09	1.380402e-08
	1.771537e-10	-9.863713e-10	0.00481418	0.002734686	-3.974153e-10	-1.550987e-09	0.00205244	0.00533774
	0.00213525	0.005312095	-3.974153e-10	-1.550987e-09	0.004964162	0.002650591	9.719379e-11	-4.045779e-09
	8.275987e-09	1.380402e-08	0.00205244	0.00533774	9.719379e-11	-4.045779e-09	0.004878772	0.002740413
2.9e+08	0.007758054	0.004488054	2.65818e-10	-1.139175e-09	0.003296768	0.006813625	1.244241e-08	1.156653e-08
	2.65818e-10	-1.139175e-09	0.007554821	0.00456883	-4.839277e-10	-1.555061e-09	0.003138483	0.00686283
	0.003296768	0.006813625	-4.839277e-10	-1.555061e-09	0.007789432	0.004438016	7.553826e-10	-4.621517e-09
	1.244241e-08	1.156653e-08	0.003138483	0.00686283	7.553826e-10	-4.621517e-09	0.007631002	0.004566453
3e+08	0.01083705	0.005539113	3.260831e-10	-1.315724e-09	0.004771773	0.007994088	1.609716e-08	8.310529e-09
	3.260831e-10	-1.315724e-09	0.01055798	0.005689722	-5.612939e-10	-1.541314e-09	0.004539195	0.008086473
	0.004771773	0.007994088	-5.612939e-10	-1.541314e-09	0.01087056	0.005490851	1.328484e-09	-5.371351e-09
	1.609716e-08	8.310529e-09	0.004539195	0.008086473	1.328484e-09	-5.371351e-09	0.01064396	0.00567634
3.1e+08	0.01399752	0.005830755	3.525709e-10	-1.508102e-09	0.006474111	0.008788846	1.899214e-08	4.165259e-09
	3.525709e-10	-1.508102e-09	0.01365815	0.006068635	-6.251262e-10	-1.512203e-09	0.006173606	0.008943716
	0.006474111	0.008788846	-6.251262e-10	-1.512203e-09	0.01403663	0.005782077	1.774326e-09	-6.273597e-09
	1.899214e-08	4.165259e-09	0.006173606	0.008943716	1.774326e-09	-6.273597e-09	0.01375143	0.006041854
3.2e+08	0.01706977	0.005375161	3.42293e-10	-1.707402e-09	0.008305035	0.009155712	2.091357e-08	-6.799255e-10
	3.42293e-10	-1.707402e-09	0.0166894	0.005713948	-6.716823e-10	-1.471281e-09	0.007947995	0.0093907
	0.008305035	0.009155712	-6.716823e-10	-1.471281e-09	0.01711681	0.005323139	2.056728e-09	-7.296597e-09
	2.091357e-08	-6.799255e-10	0.007947995	0.0093907	2.056728e-09	-7.296597e-09	0.01678695	0.005672042
3.3e+08	0.01989273	0.004221279	2.94703e-10	-1.904479e-09	0.01015889	0.009077193	2.169617e-08	-5.985014e-09
	2.94703e-10	-1.904479e-09	0.01949355	0.004669982	-6.981416e-10	-1.423023e-09	0.009761238	0.009406979
	0.01015889	0.009077193	-6.981416e-10	-1.423023e-09	0.01994882	0.004162637	2.147728e-09	-8.400449e-09
	2.169617e-08	-5.985014e-09	0.009761238	0.009406979	2.147728e-09	-8.400449e-09	0.01959196	0.004612009
3.4e+08	0.02232172	0.002451701	2.115045e-10	-2.090612e-09	0.01192913	0.008561334	2.123488e-08	-1.147205e-08
	2.115045e-10	-2.090612e-09	0.02192774	0.00301408	-7.028337e-10	-1.372581e-09	0.01151052	0.008996515
	0.01192913	0.008561334	-7.028337e-10	-1.372581e-09	0.02238677	0.002383182	2.029304e-09	-9.539173e-09
	2.123488e-08	-1.147205e-08	0.01151052	0.008996515	2.029304e-09	-9.539173e-09	0.02202343	0.002939964
3.5e+08	0.02423532	0.0001779474	9.629524e-11	-2.25801e-09	0.01351439	0.007641132	1.949299e-08	-1.684033e-08
	9.629524e-11	-2.25801e-09	0.02387114	0.0008521358	-6.853988e-10	-1.325486e-09	0.01309708	0.008187313
	0.01351439	0.007641132	-6.853988e-10	-1.325486e-09	0.02430821	9.664967e-05	1.69453e-09	-1.066316e-08
	1.949299e-08	-1.684033e-08	0.01309708	0.008187313	1.69453e-09	-1.066316e-08	0.02396056	0.0007626855
3.6e+08	0.02554093	-0.002465602	-4.586151e-11	-2.400109e-09	0.01482411	0.006372568	1.650616e-08	-2.17827e-08
	-4.586151e-11	-2.400109e-09	0.02523045	-0.001687189	-6.470128e-10	-1.287328e-09	0.01443172	0.007029746
	0.01482411	0.006372568	-6.470128e-10	-1.287328e-09	0.02561966	-0.002561964	1.147993e-09	-1.172163e-08
	1.650616e-08	-2.17827e-08	0.01443172	0.007029746	1.147993e-09	-1.172163e-08	0.02531033	-0.001790307
3.7e+08	0.02617887	-0.005328804	-2.088578e-10	-2.511709e-09	0.01578371	0.004831371	1.238445e-08	-2.600398e-08
	-2.088578e-10	-2.511709e-09	0.02594397	-0.004459261	-5.899885e-10	-1.263309e-09	0.01543976	0.005593654
	0.01578371	0.004831371	-5.899885e-10	-1.263309e-09	0.02626086	-0.005441695	4.063866e-10	-1.266555e-08
	1.238445e-08	-2.600398e-08	0.01543976	0.005593654	4.063866e-10	-1.266555e-08	0.0260115	-0.004573605
3.8e+08	0.02612478	-0.008253513	-3.858631e-10	-2.58896e-09	0.01633869	0.003108689	7.307154e-09	-2.923768e-08
	-3.858631e-10	-2.58896e-09	0.02598405	-0.007310929	-5.179891e-10	-1.258009e-09	0.01606512	0.003964377
	0.01633869	0.003108689	-5.179891e-10	-1.258009e-09	0.02620713	-0.008383475	-5.02491e-10	-1.345007e-08
	7.307154e-09	-2.923768e-08	0.01606512	0.003964377	-5.02491e-10	-1.345007e-08	0.02603708	-0.007433413
3.9e+08	0.02539022	-0.01108163	-5.695342e-10	-2.629311e-09	0.01645771	0.001305917	1.515682e-09	-3.126208e-08
	-5.695342e-10	-2.629311e-09	0.02535786	-0.01008829	-4.358043e-10	-1.275043e-09	0.01627346	0.002237954
	0.01645771	0.001305917	-4.358043e-10	-1.275043e-09	0.02547002	-0.01122826	-1.540631e-09	-1.403697e-08
	1.515682e-09	-3.126208e-08	0.01627346	0.002237954	-1.540631e-09	-1.403697e-08	0.025395	-0.01021536
4e+08	0.02402156	-0.01366306	-7.521207e-10	-2.631484e-09	0.01613435	-0.0004710497	-4.697487e-09	-3.191457e-08
	-7.521207e-10	-2.631484e-09	0.02410636	-0.01264437	-3.490621e-10	-1.316791e-09	0.01605402	0.0005157225
	0.01613435	-0.0004710497	-3.490621e-10	-1.316791e-09	0.02409614	-0.01382506	-2.661259e-09	-1.439696e-08
	-4.697487e-09	-3.191457e-08	0.01605402	0.0005157225	-2.661259e-09	-1.439696e-08	0.02412714	-0.01277218
4.1e+08	0.02209701	-0.01586312	-9.2552e-10	-2.595542e-09	0.01538745	-0.002117822	-1.100306e-08	-3.110328e-08
	-9.2552e-10	-2.595542e-09	0.02230176	-0.01484634	-2.639064e-10	-1.38421e-09	0.01542026	-0.001101364
	0.01538745	-0.002117822	-2.639064e-10	-1.38421e-09	0.02216425	-0.01603845	-3.810808e-09	-1.451168e-08
	-1.100306e-08	-3.110328e-08	0.01542026	-0.001101364	-3.810808e-09	-1.451168e-08	0.02230664	-0.01497102
4.2e+08	0.01972227	-0.01756921	-1.081357e-09	-2.523048e-09	0.01426011	-0.003537449	-1.705182e-08	-2.88154e-08
	-1.081357e-09	-2.523048e-09	0.02004331	-0.01658199	-1.866328e-10	-1.476724e-09	0.01440905	-0.002518419
	0.01426011	-0.003537449	-1.866328e-10	-1.476724e-09	0.01978074	-0.01775525	-4.931369e-09	-1.437535e-08
	-1.705182e-08	-2.88154e-08	0.01440905	-0.002518419	-4.931369e-09	-1.437535e-08	0.02003368	-0.01669985
4.3e+08	0.01702474	-0.01869613	-1.211168e-09	-2.417331e-09	0.01281717	-0.004645945	-2.249352e-08	-2.512159e-08
	-1.211168e-09	-2.417331e-09	0.01745192	-0.01776504	-1.233059e-10	-1.592222e-09	0.01307859	-0.003651967
	0.01281717	-0.004645945	-1.233059e-10	-1.592222e-09	0.01707385	-0.01888996	-5.963585e-09	-1.399589e-08
	-2.249352e-08	-2.512159e-08	0.01307859	-0.003651967	-5.963585e-09	-1.399589e-08	0.01743006	-0.01787278
4.4e+08	0.01414667	-0.01919017	-1.306761e-09	-2.283754e-09	0.01114164	-0.005377106	-2.699676e-08	-2.017594e-08
	-1.306761e-09	-2.283754e-09	0.01466371	-0.01833914	-7.938288e-11	-1.727134e-09	0.01150517	-0.00443467
	0.01114164	-0.005377106	-7.938288e-11	-1.727134e-09	0.01418672	-0.01938879	-6.849903e-09	-1.339547e-08
	-2.699676e-08	-2.017594e-08	0.01150517	-0.00443467	-6.849903e-09	-1.339547e-08	0.01463264	-0.01843409
4.5e+08	0.01123771	-0.01903139	-1.360759e-09	-2.129912e-09	0.009329895	-0.005686327	-3.0269e-08	-1.421125e-08
	-1.360759e-09	-2.129912e-09	0.01182283	-0.01828032	-5.936746e-11	-1.876614e-09	0.009778796	-0.004819149
	0.009329895	-0.005686327	-5.936746e-11	-1.876614e-09	0.01126989	-0.01923201	-7.538053e-09	-1.261016e-08
	-3.0269e-08	-1.421125e-08	0.009778796	-0.004819149	-7.538053e-09	-1.261016e-08	0.01178618	-0.01836057
4.6e+08	0.00844704	-0.01823427	-1.367308e-09	-1.965652e-09	0.007486205	-0.005553186	-3.207555e-08	-7.529374e-09
	-1.367308e-09	-1.965652e-09	0.009074	-0.01759775	-6.651874e-11	-2.034795e-09	0.007998137	-0.00478068
	0.007486205	-0.005553186	-6.651874e-11	-2.034795e-09	0.008473318	-0.01843454	-7.984533e-09	-1.168879e-08
	-3.207555e-08	-7.529374e-09	0.007998137	-0.00478068	-7.984533e-09	-1.168879e-08	0.009035776	-0.01766231
4.7e+08	0.005915698	-0.01684643	-1.324325e-09	-1.800944e-09	0.005716749	-0.004982661	-3.225094e-08	-4.873463e-10
	-1.324325e-09	-1.800944e-09	0.006555061	-0.0163328	-1.022128e-10	-2.195307e-09	0.006264872	-0.00431861
