!$
! Info: Touchstone file created by Circ.  Input file=Tx_14in_Rx_93ohms_TxVia_10mils_RxVia_20mils.circ
!$
# Hz S RI R 50
0	0.01280243	8.511091e-26	-7.485385e-05	1.365195e-25	8.597831e-05	1.330011e-23	-7.48592e-05	4.58962e-25
	-7.485386e-05	1.370478e-25	0.0128017	1.226144e-25	-7.48531e-05	-8.19931e-27	8.557731e-05	1.821987e-23
	8.408934e-05	1.31126e-23	-7.48531e-05	-7.626196e-27	0.01281615	8.856023e-26	-7.485182e-05	3.331233e-25
	-7.485917e-05	4.561426e-25	8.703194e-05	1.875261e-23	-7.485179e-05	3.294206e-25	0.01280724	1.169054e-25
1e+07	0.01882546	-0.001406771	-0.0003718974	-7.309389e-05	0.0005086069	0.00224422	-0.0001918002	0.0001897914
	-0.0003718974	-7.309389e-05	0.01849834	-0.002213859	-5.292941e-06	-1.086641e-05	0.000535183	0.002465069
	0.000508568	0.002244246	-5.292935e-06	-1.086641e-05	0.01748807	-0.002022539	-2.045697e-05	2.388135e-06
	-0.0001918002	0.0001897914	0.0005352162	0.002465058	-2.045697e-05	2.38814e-06	0.0181309	-0.002209532
2e+07	0.02184874	-0.008174857	-0.000370978	5.274352e-05	0.00157323	0.004367664	-0.0002205752	0.0002367513
	-0.000370978	5.274351e-05	0.02063796	-0.009232156	-6.408509e-06	-5.657229e-06	0.001483462	0.004787436
	0.001573238	0.004367682	-6.408508e-06	-5.657234e-06	0.02007915	-0.00859992	-1.138487e-05	-3.44654e-05
	-0.0002205752	0.0002367513	0.001483459	0.004787414	-1.138487e-05	-3.446539e-05	0.02037015	-0.009105334
3e+07	0.02131147	-0.01662054	-0.0003609963	0.0001300453	0.003161081	0.006102234	-0.0002200091	0.0002851303
	-0.0003609963	0.0001300453	0.01945469	-0.01744928	-1.462741e-05	-6.671813e-06	0.003080284	0.006606637
	0.003161079	0.006102235	-1.462741e-05	-6.671814e-06	0.01926093	-0.01675253	-3.602554e-05	-3.608983e-05
	-0.0002200091	0.0002851303	0.003080279	0.006606634	-3.602554e-05	-3.608983e-05	0.01926005	-0.01730158
4e+07	0.01790497	-0.02479542	-0.0003394104	0.0002001452	0.005143921	0.007316114	-0.0002033416	0.0003222865
	-0.0003394104	0.0002001452	0.01559489	-0.02519288	-2.05884e-05	-3.62396e-06	0.005139573	0.007840399
	0.005143916	0.007316117	-2.05884e-05	-3.62396e-06	0.01570279	-0.0245657	-5.604948e-05	-2.753775e-05
	-0.0002033416	0.0003222865	0.005139572	0.0078404	-5.604948e-05	-2.753774e-05	0.01545344	-0.02505432
5e+07	0.01217162	-0.03178568	-0.0003077324	0.0002634858	0.007357227	0.007921519	-0.0001792219	0.0003462794
	-0.0003077324	0.0002634858	0.009596411	-0.03163802	-2.448573e-05	1.499675e-06	0.007414096	0.008443222
	0.007357226	0.007921521	-2.448573e-05	1.499675e-06	0.009938562	-0.0311649	-7.089625e-05	-1.241189e-05
	-0.0001792219	0.0003462794	0.007414096	0.008443222	-7.089625e-05	-1.241189e-05	0.009489166	-0.03152133
6e+07	0.004711092	-0.03698357	-0.0002860907	0.0003019427	0.009619372	0.007882894	-0.0001552458	0.0003578019
	-0.0002860907	0.0003019427	0.002056156	-0.03623935	-2.638714e-05	7.968475e-06	0.009722665	0.008388989
	0.009619372	0.007882892	-2.638714e-05	7.968475e-06	0.002559627	-0.03597451	-7.982767e-05	7.167898e-06
	-0.0001552458	0.0003578019	0.009722662	0.00838899	-7.982767e-05	7.167898e-06	0.00196704	-0.0361489
7e+07	-0.003815251	-0.04001243	-0.000258935	0.0003392691	0.01174811	0.007218247	-0.0001378783	0.0003595094
	-0.000258935	0.0003392691	-0.006371878	-0.03867174	-2.618662e-05	1.505921e-05	0.01188395	0.007701474
	0.01174811	0.007218242	-2.618662e-05	1.505921e-05	-0.005783377	-0.03864461	-8.21868e-05	2.934982e-05
	-0.0001378783	0.0003595094	0.01188395	0.007701476	-8.21868e-05	2.934982e-05	-0.006456807	-0.03860696
8e+07	-0.01271855	-0.0407086	-0.0002267137	0.0003741578	0.0135762	0.005996176	-0.0001324281	0.0003560973
	-0.0002267137	0.0003741578	-0.01501146	-0.03881554	-2.3819e-05	2.22738e-05	0.01373137	0.006452756
	0.0135762	0.00599617	-2.381901e-05	2.22738e-05	-0.01441444	-0.03903328	-7.751116e-05	5.231833e-05
	-0.0001324281	0.0003560973	0.01373136	0.00645276	-7.751116e-05	5.231833e-05	-0.01510396	-0.03877173
9e+07	-0.02132842	-0.03910853	-0.0001906631	0.0004054308	0.01496582	0.004328947	-0.0001434168	0.0003535322
	-0.0001906631	0.0004054308	-0.02320628	-0.03674352	-1.913472e-05	2.91551e-05	0.01512606	0.004756875
	0.01496582	0.004328943	-1.913472e-05	2.91551e-05	-0.02267532	-0.03719351	-6.543241e-05	7.429743e-05
	-0.0001434168	0.0003535322	0.01512606	0.004756879	-6.543241e-05	7.429743e-05	-0.02331528	-0.03671285
1e+08	-0.02905717	-0.0354325	-0.0001557478	0.0004318119	0.01583005	0.002364539	-0.000183744	0.0003570184
	-0.0001557478	0.0004318119	-0.03034274	-0.03269791	-1.116746e-05	3.531782e-05	0.01596666	0.002759449
	0.01583005	0.002364539	-1.116746e-05	3.531782e-05	-0.02996289	-0.03335289	-4.389851e-05	9.381586e-05
	-0.000183744	0.0003570184	0.01596666	0.002759449	-4.389851e-05	9.381586e-05	-0.03047692	-0.03267153
1.1e+08	-0.03534791	-0.02994191	-0.0001148061	0.0004397417	0.01607458	0.0003126585	-0.0002236547	0.000331495
	-0.0001148061	0.0004397417	-0.03598937	-0.02720866	-1.869654e-06	3.598376e-05	0.01619522	0.0006312643
	0.01607458	0.0003126586	-1.869654e-06	3.598376e-05	-0.03579955	-0.02794195	-1.806119e-05	9.90836e-05
	-0.0002236547	0.000331495	0.01619522	0.0006312642	-1.806119e-05	9.90836e-05	-0.03614693	-0.02716152
1.2e+08	-0.03974432	-0.02322758	-6.659382e-05	0.0004437698	0.01568792	-0.001716381	-0.0002515093	0.0003288965
	-6.659382e-05	0.0004437698	-0.03988936	-0.02061854	5.57209e-06	3.490768e-05	0.01581027	-0.001454379
	0.01568792	-0.001716381	5.572089e-06	3.490768e-05	-0.03985768	-0.02138141	3.889663e-06	9.849989e-05
	-0.0002515093	0.0003288965	0.01581027	-0.001454379	3.889663e-06	9.849989e-05	-0.04005424	-0.02054446
1.3e+08	-0.04206071	-0.01587227	-1.647631e-05	0.0004420897	0.01472623	-0.003547237	-0.0002744762	0.0003455092
	-1.647631e-05	0.0004420897	-0.04180264	-0.01346586	1.20366e-05	3.264289e-05	0.01485168	-0.003332328
	0.01472623	-0.003547237	1.20366e-05	3.264289e-05	-0.04191188	-0.01422084	2.339601e-05	9.350897e-05
	-0.0002744762	0.0003455092	0.01485168	-0.003332328	2.339601e-05	9.350897e-05	-0.04196302	-0.01336402
1.4e+08	-0.04225356	-0.008473013	3.356455e-05	0.0004343267	0.01327579	-0.0050291	-0.0002890154	0.0003789597
	3.356455e-05	0.0004343267	-0.0416792	-0.00632507	1.491894e-05	3.044147e-05	0.01340269	-0.004855373
	0.01327579	-0.005029099	1.491894e-05	3.044147e-05	-0.04190925	-0.007039781	4.012944e-05	8.501543e-05
	-0.0002890154	0.0003789597	0.01340269	-0.004855373	4.012944e-05	8.501543e-05	-0.04182487	-0.006198276
1.5e+08	-0.04043866	-0.001604698	8.207229e-05	0.0004206479	0.01145756	-0.006042003	-0.0002909098	0.0004255945
	8.207229e-05	0.0004206479	-0.03963351	0.0002477175	1.761499e-05	2.803041e-05	0.01158259	-0.005905419
	0.01145756	-0.006042003	1.761499e-05	2.803041e-05	-0.03995938	-0.0003997442	5.368589e-05	7.395553e-05
	-0.0002909098	0.0004255945	0.01158259	-0.005905418	5.368589e-05	7.395553e-05	-0.03975624	0.0003936831
1.6e+08	-0.03687897	0.004220593	0.0001279943	0.0004015639	0.009418869	-0.006504484	-0.0002768827	0.0004804625
	0.0001279943	0.0004015639	-0.03592757	0.005757836	2.01048e-05	2.540188e-05	0.009537385	-0.006401786
	0.009418869	-0.006504484	2.01048e-05	2.540188e-05	-0.0363194	0.005198098	6.389879e-05	6.131789e-05
	-0.0002768827	0.0004804625	0.009537385	-0.006401786	6.389879e-05	6.131789e-05	-0.03602165	0.005914981
1.7e+08	-0.03196086	0.008589215	0.0001706088	0.0003777592	0.007322486	-0.006378924	-0.0002453335	0.0005378267
	0.0001706088	0.0003777592	-0.03094559	0.009808445	2.234402e-05	2.257061e-05	0.007428736	-0.006306762
	0.007322486	-0.006378923	2.234402e-05	2.257061e-05	-0.03136962	0.009349153	7.086666e-05	4.804301e-05
	-0.0002453335	0.0005378267	0.007428736	-0.006306762	7.086666e-05	4.804301e-05	-0.03100822	0.009967426
1.8e+08	-0.02616192	0.01121382	0.0002094903	0.0003499633	0.005334471	-0.005673929	-0.0001966132	0.0005918782
	0.0002094903	0.0003499633	-0.02516093	0.01212844	2.430189e-05	1.955563e-05	0.005421928	-0.005628133
	0.005334471	-0.005673929	2.430189e-05	1.955563e-05	-0.02558113	0.0117735	7.493546e-05	3.493003e-05
	-0.0001966132	0.0005918782	0.005421928	-0.005628133	7.493546e-05	3.493003e-05	-0.02519242	0.01227948
1.9e+08	-0.02001281	0.01195153	0.0002444524	0.0003188477	0.003611648	-0.004443493	-0.0001329262	0.0006374767
	0.0002444524	0.0003188477	-0.0190975	0.01259036	2.59544e-05	1.637701e-05	0.003673499	-0.004418504
	0.003611648	-0.004443493	2.59544e-05	1.637701e-05	-0.01947764	0.0123342	7.663431e-05	2.255939e-05
	-0.0001329262	0.0006374767	0.003673499	-0.004418504	7.663431e-05	2.255939e-05	-0.01910119	0.01272418
2e+08	-0.0140559	0.01081132	0.0002754684	0.0002849552	0.002289615	-0.002782851	-5.792513e-05	0.0006707755
	0.0002754684	0.0002849552	-0.01328812	0.0112172	2.727974e-05	1.305535e-05	0.00231939	-0.002771369
	0.002289615	-0.002782851	2.727974e-05	1.305535e-05	-0.01359421	0.01104463	7.658073e-05	1.124814e-05
	-5.792513e-05	0.0006707755	0.00231939	-0.002771369	7.658073e-05	1.124814e-05	-0.01327007	0.01132589
2.1e+08	-0.00880296	0.007950269	0.0003025781	0.0002486705	0.001467923	-0.0008244627	2.391339e-05	0.0006896244
	0.0003025781	0.0002486705	-0.008232952	0.008177742	2.824628e-05	9.609944e-06	0.001464439	-0.0008140721
	0.001467923	-0.0008244627	2.824628e-05	9.609944e-06	-0.008435076	0.008064838	7.53113e-05	1.014457e-06
	2.391339e-05	0.0006896244	0.001464439	-0.0008140721	7.53113e-05	1.014457e-06	-0.008201443	0.008255484
2.2e+08	-0.004697622	0.003657367	0.0003257985	0.0002102313	0.001213844	0.00128135	0.000108018	0.0006936789
	0.0003257985	0.0002102313	-0.004360999	0.003770756	2.882879e-05	6.070298e-06	0.001174075	0.001301965
	0.001213844	0.00128135	2.882879e-05	6.070298e-06	-0.0044363	0.003685269	7.329111e-05	-8.290095e-06
	0.000108018	0.0006936789	0.001174075	0.001301965	7.329111e-05	-8.290095e-06	-0.004325784	0.0038144
2.3e+08	-0.002083002	-0.001670486	0.0003450507	0.0001697776	0.001552379	0.003372531	0.00019042	0.0006842117
	0.0003450507	0.0001697776	-0.001997553	-0.001600643	2.901399e-05	2.474867e-06	0.001468973	0.003413096
	0.001552379	0.003372531	2.901399e-05	2.474867e-06	-0.001933629	-0.001697155	7.088883e-05	-1.694281e-05
	0.00019042	0.0006842117	0.001468973	0.003413096	7.088883e-05	-1.694281e-05	-0.001969026	-0.001591262
2.4e+08	-0.001174787	-0.00756084	0.0003601194	0.0001274288	0.0024541	0.005283087	0.0002683081	0.0006636682
	0.0003601194	0.0001274288	-0.001340201	-0.007462548	2.877924e-05	-1.134395e-06	0.002323254	0.005356494
	0.0024541	0.005283088	2.877924e-05	-1.134395e-06	-0.001135782	-0.007611358	6.81689e-05	-2.532159e-05
	0.0002683081	0.0006636682	0.002323254	0.005356494	6.81689e-05	-2.532159e-05	-0.001328488	-0.007484532
2.5e+08	-0.002047322	-0.01350469	0.000370652	8.336944e-05	0.003844042	0.006862306	0.0003403391	0.0006350355
	0.000370652	8.336944e-05	-0.002445186	-0.01330896	2.810663e-05	-4.70641e-06	0.003666501	0.006983292
	0.003844042	0.006862306	2.810663e-05	-4.70641e-06	-0.002110795	-0.01355099	6.497186e-05	-3.374445e-05
	0.0003403391	0.0006350355	0.003666501	0.006983292	6.497186e-05	-3.374445e-05	-0.002459259	-0.01335655
2.6e+08	-0.004630253	-0.01899723	0.0003761992	3.792742e-05	0.005607922	0.007987089	0.0004066624	0.0006011553
	0.0003761992	3.792742e-05	-0.005225177	-0.01864258	2.698598e-05	-8.181497e-06	0.005389537	0.008170654
	0.005607922	0.007987089	2.698598e-05	-8.181497e-06	-0.004782881	-0.01901501	6.096902e-05	-4.237619e-05
	0.0004066624	0.0006011553	0.005389537	0.008170655	6.096902e-05	-4.237619e-05	-0.005272082	-0.01870754
2.7e+08	-0.008716631	-0.02357757	0.0003762892	-8.373511e-06	0.007601717	0.00857199	0.0004686501	0.0005641011
	0.0003762892	-8.373511e-06	-0.009458626	-0.02301413	2.541867e-05	-1.149339e-05	0.007353475	0.008831674
	0.007601717	0.00857199	2.541867e-05	-1.149339e-05	-0.008940714	-0.02354723	5.575184e-05	-5.116742e-05
	0.0004686501	0.0005641011	0.007353475	0.008831674	5.575184e-05	-5.116742e-05	-0.009542766	-0.02308647
2.8e+08	-0.01398164	-0.02686434	0.0003705187	-5.47982e-05	0.009663741	0.008575979	0.0005284049	0.000524731
	0.0003705187	-5.47982e-05	-0.01480945	-0.02605731	2.341945e-05	-1.457184e-05	0.009401244	0.008922173
	0.009663741	0.008575979	2.341945e-05	-1.457184e-05	-0.01425633	-0.02677163	4.893809e-05	-5.983861e-05
	0.0005284049	0.000524731	0.009401244	0.008922173	4.893809e-05	-5.983861e-05	-0.01493221	-0.02612615
2.9e+08	-0.02001027	-0.02858432	0.0003586438	-0.0001004263	0.0116281	0.008005374	0.0005881206	0.0004824969
	0.0003586438	-0.0001004263	-0.02085558	-0.02751654	2.101828e-05	-1.734621e-05	0.01137052	0.008443842
	0.0116281	0.008005374	2.101828e-05	-1.734621e-05	-0.02031287	-0.02842076	4.027462e-05	-6.791078e-05
	0.0005881206	0.0004824969	0.01137052	0.008443842	4.027462e-05	-6.791078e-05	-0.02101518	-0.02757094
3e+08	-0.02633145	-0.02859197	0.0003406535	-0.0001442151	0.01333826	0.006912735	0.0006494283	0.0004355412
	0.0003406535	-0.0001442151	-0.02712373	-0.02726533	1.826116e-05	-1.974973e-05	0.01310685	0.007443484
	0.01333826	0.006912735	1.826116e-05	-1.974973e-05	-0.02663875	-0.02835494	2.97168e-05	-7.477715e-05
	0.0006494283	0.0004355412	0.01310685	0.007443484	2.97168e-05	-7.477715e-05	-0.02731534	-0.02729524
3.1e+08	-0.03245581	-0.02687864	0.0003168138	-0.0001850899	0.01465964	0.005391935	0.0007128479	0.0003810544
	0.0003168138	-0.0001850899	-0.03312741	-0.02531408	1.520962e-05	-2.172421e-05	0.01447589	0.006008589
	0.01465964	0.005391935	1.520962e-05	-2.172421e-05	-0.03274543	-0.0265712	1.747007e-05	-7.980155e-05
	0.0007128479	0.0003810544	0.01447589	0.006008589	1.747007e-05	-7.980155e-05	-0.03334349	-0.02531118
3.2e+08	-0.03791402	-0.02357094	0.0002876693	-0.0002220418	0.01548995	0.00356998	0.0007774306	0.0003158384
	0.0002876693	-0.0002220418	-0.03840518	-0.02180725	1.193838e-05	-2.322469e-05	0.01537362	0.004259739
	0.01548995	0.00356998	1.193838e-05	-2.322469e-05	-0.03816562	-0.02320143	3.986968e-06	-8.242443e-05
	0.0007774306	0.0003158384	0.01537362	0.004259738	3.986968e-06	-8.242443e-05	-0.03863612	-0.02176565
3.3e+08	-0.04229272	-0.01891889	0.0002540081	-0.0002542209	0.01576679	0.001596415	0.0008406667	0.000236968
	0.0002540081	-0.0002542209	-0.04255615	-0.01701004	8.531406e-06	-2.422335e-05	0.01573394	0.00234062
	0.01576679	0.001596415	8.531406e-06	-2.422335e-05	-0.04248911	-0.01850017	-1.007881e-05	-8.225811e-05
	0.0008406667	0.000236968	0.01573394	0.00234062	-1.007881e-05	-8.225811e-05	-0.04279099	-0.01692678
3.4e+08	-0.0452655	-0.0132749	0.0002167953	-0.0002810079	0.01547189	-0.0003687416	0.000898672	0.0001424306
	0.0002167953	-0.0002810079	-0.0452701	-0.01128632	5.076551e-06	-2.4712e-05	0.01553313	0.0004065635
	0.01547189	-0.0003687416	5.076551e-06	-2.4712e-05	-0.04539356	-0.01282345	-2.395263e-05	-7.915513e-05
	0.000898672	0.0001424306	0.01553313	0.0004065635	-2.395263e-05	-7.915513e-05	-0.04549746	-0.01116164
3.5e+08	-0.0466167	-0.007065506	0.0001770841	-0.0003020529	0.01463182	-0.002167529	0.0009466151	3.165689e-05
	0.0001770841	-0.0003020529	-0.04635028	-0.005069383	1.659347e-06	-2.470227e-05	0.01479094	-0.001387476
	0.01463182	-0.002167529	1.659347e-06	-2.470227e-05	-0.04666805	-0.00660036	-3.683847e-05	-7.323871e-05
	0.0009466151	3.165689e-05	0.01479094	-0.001387476	-3.683847e-05	-7.323871e-05	-0.04655924	-0.004906739
3.6e+08	-0.04625658	-0.0007580646	0.0001359223	-0.0003172799	0.01331538	-0.003656113	0.0009793243	-9.416984e-05
	0.0001359223	-0.0003172799	-0.04572715	0.001171946	-1.642853e-06	-2.422354e-05	0.01356853	-0.002898612
	0.01331538	-0.003656113	-1.642853e-06	-2.422354e-05	-0.04622801	-0.0002995579	-4.802205e-05	-6.489219e-05
	0.0009793243	-9.416984e-05	0.01356853	-0.002898612	-4.802205e-05	-6.489219e-05	-0.04590814	0.001366157
3.7e+08	-0.04422689	0.005175115	9.426583e-05	-0.0003268559	0.01162792	-0.004715572	0.0009919739	-0.0002320542
	9.426583e-05	-0.0003268559	-0.0434626	0.006969435	-4.765473e-06	-2.331866e-05	0.01196343	-0.004006603
	0.01162792	-0.004715572	-4.765473e-06	-2.331866e-05	-0.04412049	0.005606616	-5.696082e-05	-5.470973e-05
	0.0009919739	-0.0002320542	0.01196343	-0.004006603	-5.696082e-05	-5.470973e-05	-0.04360821	0.00718634
3.8e+08	-0.04069669	0.01029257	5.291267e-05	-0.0003311316	0.009703103	-0.005260723	0.000980742	-0.0003774031
	5.291267e-05	-0.0003311316	-0.03974421	0.01189109	-7.659123e-06	-2.203842e-05	0.01010192	-0.004622665
	0.009703103	-0.005260723	-7.659123e-06	-2.203842e-05	-0.04051968	0.01067796	-6.334782e-05	-4.341698e-05
	0.000980742	-0.0003774031	0.01010192	-0.004622665	-6.334782e-05	-4.341698e-05	-0.03984975	0.01212004
3.9e+08	-0.03594876	0.01421692	1.24652e-05	-0.0003305641	0.007692648	-0.005246433	0.0009433386	-0.000524477
	1.24652e-05	-0.0003305641	-0.03487021	0.01557385	-1.028952e-05	-2.043582e-05	0.00812954	-0.004695976
	0.007692648	-0.005246433	-1.028952e-05	-2.043582e-05	-0.03571302	0.01453958	-6.714011e-05	-3.177402e-05
	0.0009433386	-0.000524477	0.00812954	-0.004695976	-6.714011e-05	-3.177402e-05	-0.0349342	0.01580322
4e+08	-0.03035768	0.01666313	-2.667402e-05	-0.0003256339	0.005754843	-0.004671034	0.0008793254	-0.0006670033
	-2.667402e-05	-0.0003256339	-0.02922635	0.0177509	-1.263516e-05	-1.856117e-05	0.006200093	-0.004217458
	0.005754843	-0.004671034	-1.263516e-05	-1.856117e-05	-0.03007896	0.01691002	-6.854791e-05	-2.04755e-05
	0.0008793254	-0.0006670033	0.006200093	-0.004217458	-6.854791e-05	-2.04755e-05	-0.02925058	0.01796905
4.1e+08	-0.02436102	0.01745987	-6.427417e-05	-0.0003167689	0.004042456	-0.00357656	0.0007901742	-0.0007988687
	-6.427417e-05	-0.0003167689	-0.0232561	0.01827179	-1.468352e-05	-1.645912e-05	0.004464073	-0.003220561
	0.004042456	-0.00357656	-1.468352e-05	-1.645912e-05	-0.02405799	0.0176224	-6.798651e-05	-1.006303e-05
	0.0007901742	-0.0007988687	0.004464073	-0.003220562	-6.798651e-05	-1.006303e-05	-0.02324563	0.01846798
4.2e+08	-0.01842602	0.01656227	-0.0001002206	-0.000304288	0.002690942	-0.002045753	0.00067906	-0.0009147726
	-0.0001002206	-0.000304288	-0.01742666	0.01711363	-1.642666e-05	-1.41677e-05	0.00305715	-0.00177892
	0.002690942	-0.002045753	-1.642666e-05	-1.41677e-05	-0.01811897	0.01663691	-6.599794e-05	-8.635097e-07
	0.00067906	-0.0009147726	0.00305715	-0.00177892	-6.599794e-05	-8.635097e-07	-0.01738941	0.0172789
4.3e+08	-0.01301379	0.01405514	-0.0001344416	-0.0002883738	0.00180778	-0.0001959177	0.0005504292	-0.001010745
	-0.0001344416	-0.0002883738	-0.01219304	0.01438272	-1.785754e-05	-1.171944e-05	0.002089611	-9.302185e-07
	0.00180778	-0.0001959177	-1.785754e-05	-1.171944e-05	-0.01272333	0.0140437	-6.315522e-05	7.036658e-06
	0.0005504292	-0.001010745	0.002089611	-9.302188e-07	-6.315522e-05	7.036658e-06	-0.01213919	0.01451064
4.4e+08	-0.008544019	0.01014628	-0.0001668316	-0.0002690796	0.001463773	0.001830016	0.0004094087	-0.001084455
	-0.0001668316	-0.0002690796	-0.007963042	0.01030613	-1.896738e-05	-9.143838e-06	0.001637558	0.001978447
	0.001463773	0.001830016	-1.896738e-05	-9.143838e-06	-0.008289691	0.01005586	-5.996439e-05	1.377685e-05
	0.0004094087	-0.001084455	0.001637558	0.001978447	-5.996439e-05	1.377685e-05	-0.00790426	0.01039337
4.5e+08	-0.005362846	0.005150378	-0.0001971856	-0.0002463699	0.001687108	0.003874641	0.0002613121	-0.001135255
	-0.0001971856	-0.0002463699	-0.005065806	0.005214044	-1.974483e-05	-6.470443e-06	0.001736652	0.004008148
	0.001687108	0.003874641	-1.974483e-05	-6.470443e-06	-0.005161736	0.004992872	-5.678256e-05	1.966865e-05
	0.0002613121	-0.001135255	0.001736652	0.004008148	-5.678256e-05	1.966865e-05	-0.005014328	0.005260688
4.6e+08	-0.00371624	-0.0005354921	-0.0002249508	-0.0002201365	0.002460749	0.005778607	8.865708e-05	-0.001161546
	-0.0002249508	-0.0002201365	-0.0037265	-0.0004860586	-2.017921e-05	-3.731737e-06	0.002379006	0.005932947
	0.002460749	0.005778607	-2.017921e-05	-3.731737e-06	-0.003581873	-0.0007441126	-5.356364e-05	2.515919e-05
	8.865708e-05	-0.001161546	0.002379006	0.005932947	-5.356364e-05	2.515919e-05	-0.00369407	-0.0004764646
4.7e+08	-0.003731493	-0.006462696	-0.0002498059	-0.0001904814	0.003723525	0.007393508	-8.399405e-05	-0.00116118
	-0.0002498059	-0.0001904814	-0.004049119	-0.006341184	-2.025375e-05	-9.644741e-07	0.003513619	0.007605913
	0.003723525	0.007393508	-2.025375e-05	-9.644741e-07	-0.003672749	-0.006703471	-5.041691e-05	3.054687e-05
