!$
! Info: Touchstone file created by Circ.  Input file=Tx_14in_Rx_100ohms_TxVia_10mils_RxVia_20mils.circ
!$
# Hz S RI R 50
0	0.01446333	9.427058e-26	0.9854056	-1.021595e-25	8.598167e-05	1.477097e-23	-8.442807e-05	1.217435e-21
	0.9854056	-1.029731e-25	0.01446292	1.224269e-25	-8.429702e-05	1.20161e-21	8.544085e-05	2.05954e-23
	8.82546e-05	1.480492e-23	-8.424485e-05	1.195303e-21	0.01445544	8.237051e-26	0.9853759	-9.170314e-26
	-8.483419e-05	1.267251e-21	8.689486e-05	2.11976e-23	0.9853759	-9.575962e-26	0.01446844	1.167285e-25
1e+07	0.02156241	0.008095065	0.968799	-0.1427371	0.0009764493	0.002450354	-0.0006540389	-0.0001534742
	0.968799	-0.1427371	0.02155883	0.008092489	-0.0006540587	-0.0001534493	0.0009725117	0.002451581
	0.0009764985	0.002450328	-0.000654023	-0.0001534732	0.02136768	0.008127943	0.9689838	-0.1428527
	-0.0006540032	-0.0001534982	0.0009725451	0.00245157	0.9689838	-0.1428527	0.02136417	0.008125242
2e+07	0.02832097	0.01032998	0.9342607	-0.2767201	0.00183684	0.004941344	-0.0005877621	-0.0005356588
	0.9342607	-0.2767201	0.02830658	0.01032687	-0.0005877443	-0.0005356349	0.001822288	0.004947445
	0.001836833	0.004941318	-0.0005877494	-0.0005356624	0.02819989	0.01045491	0.9343369	-0.2770066
	-0.0005877594	-0.0005356945	0.001822286	0.004947423	0.9343369	-0.2770066	0.02818622	0.01045199
3e+07	0.03398006	0.009553961	0.8831539	-0.402649	0.003301622	0.006846735	-0.0005933429	-0.0006779647
	0.8831539	-0.402649	0.03394822	0.009555709	-0.0005933281	-0.000677972	0.003271677	0.006863694
	0.003301623	0.006846731	-0.0005933316	-0.0006779753	0.03392258	0.009706798	0.8831119	-0.4030313
	-0.0005933463	-0.0006779702	0.003271672	0.006863692	0.8831119	-0.4030313	0.03389365	0.009708062
4e+07	0.03867279	0.007029029	0.8161143	-0.5194821	0.005245719	0.008176559	-0.0006614798	-0.000725742
	0.8161143	-0.5194821	0.03861947	0.007043581	-0.000661474	-0.0007257618	0.005198217	0.008211984
	0.005245723	0.008176555	-0.000661471	-0.0007257619	0.03867182	0.007184538	0.815942	-0.5199249
	-0.0006614749	-0.000725739	0.005198216	0.008211986	0.815942	-0.5199249	0.03862288	0.007196763
5e+07	0.0422767	0.003230223	0.7343519	-0.6254565	0.007624563	0.00873	-0.0009112847	-0.0005660975
	0.7343519	-0.6254565	0.04220118	0.003266837	-0.0009112866	-0.0005661394	0.007560304	0.008791917
	0.007624565	0.008729997	-0.0009112852	-0.00056614	0.04232214	0.003372184	0.73404	-0.6259274
	-0.0009112812	-0.0005660968	0.007560304	0.008791918	0.73404	-0.6259274	0.0422523	0.003404733
6e+07	0.04465649	-0.001461837	0.6393982	-0.7188481	0.0100132	0.008612482	-0.001081805	-0.0003575203
	0.6393982	-0.7188481	0.04456164	-0.001393877	-0.001081837	-0.0003575923	0.00993627	0.008708621
	0.0100132	0.008612484	-0.001081839	-0.0003575901	0.04473719	-0.001343777	0.6389419	-0.719315
	-0.00108181	-0.0003575189	0.009936266	0.008708621	0.6389419	-0.719315	0.04464965	-0.001282268
7e+07	0.04571486	-0.00668699	0.5330403	-0.7980972	0.01223556	0.007853979	-0.001175664	-0.0001296664
	0.5330403	-0.7980972	0.045607	-0.006579711	-0.001175753	-0.0001297505	0.0121529	0.007990469
	0.01223556	0.007853983	-0.001175757	-0.0001297438	0.04581933	-0.006599121	0.5324404	-0.7985283
	-0.001175677	-0.0001296595	0.0121529	0.007990471	0.5324404	-0.7985283	0.04571981	-0.00650178
8e+07	0.04541673	-0.01209037	0.417274	-0.8618712	0.0141284	0.006528738	-0.001201433	9.40481e-05
	0.417274	-0.8618712	0.04530496	-0.01193827	-0.001201582	9.398779e-05	0.0140492	0.006709187
	0.0141284	0.006528743	-0.001201584	9.399713e-05	0.04553336	-0.01203559	0.416537	-0.8622357
	-0.001201446	9.406035e-05	0.01404919	0.006709191	0.416537	-0.8622357	0.04542947	-0.01189727
9e+07	0.04380002	-0.01732849	0.2942607	-0.9091023	0.01555304	0.004751024	-0.001170797	0.0002972621
	0.2942607	-0.9091023	0.04369524	-0.01712936	-0.001170981	0.000297254	0.01548778	0.00497583
	0.01555304	0.004751027	-0.001170982	0.0002972615	0.04391733	-0.01730653	0.2933986	-0.9093707
	-0.001170805	0.0002972735	0.01548778	0.004975834	0.2933986	-0.9093707	0.04381858	-0.01712424
1e+08	0.04099356	-0.0220811	0.1662616	-0.9390154	0.0163984	0.002666365	-0.001084974	0.0004720306
	0.1662616	-0.9390154	0.04090737	-0.02183659	-0.001085152	0.0004720754	0.0163578	0.00293235
	0.01639841	0.002666365	-0.001085152	0.0004720751	0.041099	-0.02208899	0.1652951	-0.9391604
	-0.001084974	0.0004720303	0.0163578	0.00293235	0.1652951	-0.9391604	0.04101642	-0.02186283
1.1e+08	0.03712505	-0.02617952	0.03571962	-0.9509916	0.01662495	0.0004866818	-0.0009844479	0.0005495747
	0.03571962	-0.9509916	0.03706807	-0.0258936	-0.0009846585	0.0005496937	0.01661844	0.0007866693
	0.01662495	0.0004866817	-0.0009846586	0.0005496935	0.03721257	-0.02620157	0.03466767	-0.9510032
	-0.000984448	0.0005495745	0.01661844	0.0007866692	0.03466767	-0.9510032	0.03715689	-0.02593606
1.2e+08	0.03236437	-0.02926314	-0.09483733	-0.9450372	0.01625065	-0.001660585	-0.0009288984	0.0006000582
	-0.09483733	-0.9450372	0.03234655	-0.02894545	-0.0009291047	0.0006002636	0.01628595	-0.001336612
	0.01625065	-0.001660585	-0.0009291048	0.0006002634	0.03243608	-0.02929333	-0.09595985	-0.9448942
	-0.0009288986	0.0006000581	0.01628595	-0.001336612	-0.09595985	-0.9448942	0.03241702	-0.02899773
1.3e+08	0.02703236	-0.03115539	-0.2230243	-0.9213629	0.01529665	-0.003611806	-0.0009083149	0.0006463446
	-0.2230243	-0.9213629	0.0270602	-0.03081868	-0.0009084822	0.000646634	0.01537812	-0.003276469
	0.01529665	-0.003611806	-0.0009084823	0.0006466339	0.02708924	-0.03118871	-0.2241947	-0.9210464
	-0.000908315	0.0006463446	0.01537812	-0.003276469	-0.2241947	-0.9210464	0.027113	-0.03087521
1.4e+08	0.02145446	-0.03176622	-0.3464763	-0.8804942	0.0138382	-0.005215569	-0.0009172385	0.0007075424
	-0.3464763	-0.8804942	0.02153024	-0.03142514	-0.000917337	0.0007079023	0.01396614	-0.004882967
	0.0138382	-0.005215569	-0.0009173371	0.0007079022	0.02149825	-0.03179842	-0.3476675	-0.8799888
	-0.0009172386	0.0007075424	0.01396614	-0.004882967	-0.3476675	-0.8799888	0.02156689	-0.03148094
1.5e+08	0.01595959	-0.0310891	-0.4629176	-0.8232708	0.01199078	-0.006347392	-0.0009445087	0.0007996576
	-0.4629176	-0.8232708	0.01608093	-0.0307589	-0.0009445154	0.0008000654	0.01216101	-0.006031778
	0.01199078	-0.006347393	-0.0009445154	0.0008000654	0.01599279	-0.03111685	-0.4640989	-0.8225653
	-0.0009445088	0.0007996576	0.01216101	-0.006031778	-0.4640989	-0.8225653	0.01610391	-0.0308097
1.6e+08	0.01086233	-0.0291986	-0.5702076	-0.7508331	0.009900028	-0.006919809	-0.0009735798	0.0009333835
	-0.5702076	-0.7508331	0.01102205	-0.02889371	-0.0009734808	0.0009338101	0.01010392	-0.006634184
	0.009900028	-0.006919809	-0.0009734808	0.0009338101	0.01088792	-0.02921959	-0.5713455	-0.7499215
	-0.0009735799	0.0009333834	0.01010392	-0.006634184	-0.5713455	-0.7499215	0.01103471	-0.02893619
1.7e+08	0.006444494	-0.02624382	-0.6663822	-0.6646016	0.007729971	-0.006889221	-0.0009845318	0.001112279
	-0.6663822	-0.6646016	0.006630969	-0.02597639	-0.0009843244	0.001112693	0.007954838	-0.006643965
	0.007729971	-0.006889221	-0.0009843244	0.001112693	0.006465701	-0.02625674	-0.6674417	-0.6634835
	-0.0009845319	0.001112279	0.007954838	-0.006643965	-0.6674417	-0.6634835	0.006637226	-0.02600831
1.8e+08	0.00293839	-0.0224374	-0.7496927	-0.5662498	0.005649933	-0.006259165	-0.0009568657	0.001331884
	-0.7496927	-0.5662498	0.003136283	-0.02221599	-0.0009565585	0.001332254	0.005879919	-0.006060814
	0.005649933	-0.006259166	-0.0009565586	0.001332254	0.00295845	-0.02244193	-0.7506375	-0.5649308
	-0.0009568658	0.001331884	0.005879919	-0.006060814	-0.7506375	-0.5649308	0.003140406	-0.02223635
1.9e+08	0.0005131718	-0.0180408	-0.8186386	-0.457672	0.003821196	-0.005079796	-0.0008725124	0.001579973
	-0.8186386	-0.457672	0.0007045611	-0.01786926	-0.0008721237	0.001580275	0.004038451	-0.0049301
	0.003821196	-0.005079796	-0.0008721237	0.001580275	0.0005350893	-0.01803749	-0.8194329	-0.4561637
	-0.0008725125	0.001579973	0.004038451	-0.0049301	-0.8194329	-0.4561637	0.0007108171	-0.01787827
2e+08	-0.0007347888	-0.01334647	-0.8719963	-0.3409452	0.002384393	-0.003443651	-0.0007185587	0.00183794
	-0.8719963	-0.3409452	-0.0005689613	-0.01322324	-0.000718113	0.00183816	0.002570545	-0.003339008
	0.002384393	-0.003443651	-0.000718113	0.00183816	-0.0007084213	-0.0133367	-0.8726054	-0.3392656
	-0.0007185587	0.00183794	0.002570545	-0.003339008	-0.8726054	-0.3392656	-0.0005566081	-0.01322232
2.1e+08	-0.0007866789	-0.008658398	-0.9088413	-0.2182892	0.001448655	-0.001478095	-0.0004892611	0.00208311
	-0.9088413	-0.2182892	-0.000664954	-0.008576193	-0.0004887848	0.002083243	0.001586428	-0.001409444
	0.001448655	-0.001478095	-0.0004887848	0.002083243	-0.0007538558	-0.008644128	-0.9092329	-0.216462
	-0.0004892612	0.00208311	0.001586428	-0.001409444	-0.9092329	-0.216462	-0.0006431557	-0.008567795
2.2e+08	0.0002990898	-0.004271971	-0.9285639	-0.09202179	0.001083368	0.0006649029	-0.0001870456	0.002291623
	-0.9285639	-0.09202179	0.0003604047	-0.004217992	-0.0001865618	0.002291676	0.001158203	0.0007117094
	0.001083367	0.0006649028	-0.0001865618	0.002291676	0.0003396653	-0.004255625	-0.9287089	-0.09007676
	-0.0001870456	0.002291623	0.001158203	0.0007117094	-0.9287089	-0.09007676	0.0003941214	-0.004205444
2.3e+08	0.002392323	-0.0004548241	-0.9308785	0.03548572	0.001313133	0.002820816	0.0001776454	0.002441465
	-0.9308785	0.03548572	0.002380778	-0.0004114956	0.0001781207	0.002441451	0.001314674	0.002864153
	0.001313133	0.002820816	0.0001781207	0.002441451	0.002441157	-0.0004390565	-0.930752	0.03751377
	0.0001776454	0.002441465	0.001314674	0.002864153	-0.930752	0.03751377	0.002427811	-0.0003986944
2.4e+08	0.005301156	0.002570189	-0.9158255	0.1618541	0.002116296	0.004825423	0.0005876134	0.002515179
	-0.9158255	0.1618541	0.00520954	0.002624022	0.000588074	0.002515115	0.002039593	0.004886607
	0.002116296	0.004825423	0.000588074	0.002515116	0.005357942	0.002582722	-0.9154078	0.1639258
	0.0005876133	0.002515179	0.002039593	0.004886607	-0.9154078	0.1639258	0.005270092	0.002632927
2.5e+08	0.008786112	0.004638721	-0.8837672	0.2847411	0.003427073	0.006527481	0.001021055	0.002501883
	-0.8837672	0.2847411	0.008613451	0.004726197	0.001021505	0.002501786	0.003273386	0.006629149
	0.003427073	0.006527481	0.001021505	0.002501786	0.00884976	0.004645587	-0.8830446	0.2868133
	0.001021055	0.002501883	0.003273386	0.006629149	-0.8830446	0.2868133	0.008686501	0.004727153
2.6e+08	0.01257705	0.005654473	-0.835378	0.4018841	0.005141034	0.007800221	0.001454261	0.00239831
	-0.835378	0.4018841	0.01232911	0.005798857	0.001454714	0.002398189	0.004918149	0.007964505
	0.005141034	0.007800221	0.001454714	0.002398189	0.01264579	0.005653675	-0.8343432	0.4039107
	0.001454261	0.00239831	0.00491815	0.007964505	-0.8343432	0.4039107	0.01241249	0.005788246
2.7e+08	0.01639182	0.005593999	-0.7716278	0.5111406	0.007123473	0.008550826	0.001864444	0.002208754
	-0.7716278	0.5111406	0.01608108	0.005816699	0.001864917	0.002208607	0.006845471	0.008797465
	0.007123473	0.008550826	0.001864917	0.002208607	0.01646335	0.005584152	-0.7702807	0.513074
	0.001864444	0.002208754	0.006845471	0.008797465	-0.7702807	0.513074	0.01617162	0.005791652
2.8e+08	0.01995532	0.004506537	-0.6937621	0.6105262	0.009219945	0.008727218	0.002232262	0.001943977
	-0.6937621	0.6105262	0.01960032	0.004825178	0.002232774	0.001943793	0.008906434	0.009071765
	0.009219945	0.008727218	0.002232774	0.001943793	0.02002703	0.004487007	-0.6921099	0.6123176
	0.002232262	0.001943977	0.008906434	0.009071765	-0.6921099	0.6123176	0.01969414	0.00478384
2.9e+08	0.0230177	0.002509005	-0.6032767	0.6982473	0.01126819	0.008321693	0.002543691	0.001619301
	-0.6032767	0.6982473	0.02264186	0.002935715	0.002544252	0.001619055	0.01094303	0.008773981
	0.01126819	0.008321693	0.002544252	0.001619055	0.02308686	0.002479958	-0.6013342	0.6998486
	0.002543691	0.001619301	0.01094303	0.008773981	-0.6013342	0.6998486	0.02273463	0.002877408
3e+08	0.02537043	-0.0002234194	-0.5018892	0.7727323	0.01311049	0.007371196	0.002790979	0.001252196
	-0.5018892	0.7727323	0.02500041	0.0003166571	0.00279159	0.001251856	0.01280009	0.007934199
	0.01311049	0.007371196	0.00279159	0.001251856	0.02543448	-0.0002610054	-0.4996785	0.7740969
	0.002790979	0.001252196	0.01280009	0.007934199	-0.4996785	0.7740969	0.02508775	0.0002419694
3.1e+08	0.02685938	-0.00347038	-0.3915071	0.8326568	0.01460564	0.005954263	0.002972592	0.0008597759
	-0.3915071	0.8326568	0.02652305	-0.002819307	0.002973239	0.0008593058	0.01433698	0.006623457
	0.01460564	0.005954263	0.002973239	0.0008593058	0.0269161	-0.003514794	-0.3890581	0.8337409
	0.002972592	0.0008597759	0.01433698	0.006623457	-0.3890581	0.8337409	0.02660085	-0.002908541
3.2e+08	0.02739389	-0.006982191	-0.2741942	0.8769659	0.01563954	0.004184876	0.003092218	0.0004565887
	-0.2741942	0.8769659	0.02711812	-0.006230401	0.00309287	0.0004559552	0.01543802	0.004948182
	0.01563954	0.004184876	0.00309287	0.0004559552	0.02744168	-0.007031124	-0.2715436	0.8777293
	0.003092218	0.0004565887	0.01543802	0.004948182	-0.2715436	0.8777293	0.02718294	-0.006331222
3.3e+08	0.02695159	-0.01049732	-0.1521331	0.9048912	0.01613381	0.002203687	0.003157026	5.304555e-05
	-0.1521331	0.9048912	0.02676001	-0.009662598	0.003157639	5.222491e-05	0.01602111	0.00304203
	0.01613381	0.002203687	0.003157639	5.222491e-05	0.02698957	-0.01054807	-0.1493241	0.9052989
	0.003157026	5.304555e-05	0.01602111	0.00304203	-0.1493241	0.9052989	0.02680932	-0.009771145
3.4e+08	0.02557844	-0.01376038	-0.02758757	0.9159645	0.01605161	0.0001672782	0.003175504	-0.0003452946
	-0.02758757	0.9159645	0.02548932	-0.01286696	0.003176022	-0.0003463109	0.0160438	0.001055733
	0.01605161	0.0001672782	0.003176022	-0.0003463109	0.02560655	-0.01381005	-0.02466925	0.9159874
	0.003175504	-0.0003452946	0.0160438	0.001055733	-0.02466925	0.9159874	0.02552178	-0.01297876
3.5e+08	0.02338426	-0.01653936	0.09713797	0.9100256	0.01540045	-0.001763786	0.003155256	-0.0007374957
	0.09713797	0.9100256	0.02340877	-0.01561635	0.003155618	-0.000738697	0.0155064	-0.0008543152
	0.01540045	-0.001763786	0.003155618	-0.000738697	0.0234033	-0.01658515	0.1001116	0.9096417
	0.003155256	-0.0007374957	0.0155064	-0.0008543152	0.1001116	0.9096417	0.02342433	-0.01572666
3.6e+08	0.02053401	-0.01864111	0.2197391	0.887226	0.01423159	-0.003437224	0.003101126	-0.001126146
	0.2197391	0.887226	0.02067493	-0.01772033	0.003101274	-0.001127501	0.01445187	-0.00253791
	0.01423159	-0.003437224	0.003101274	-0.001127501	0.02054559	-0.01868054	0.22271	0.8864207
	0.003101126	-0.001126146	0.01445187	-0.00253791	0.22271	0.8864207	0.02067489	-0.01782454
3.7e+08	0.01723544	-0.01992391	0.3379532	0.8480264	0.01263609	-0.004720709	0.003013971	-0.001515599
	0.3379532	0.8480264	0.01748655	-0.01903751	0.003013856	-0.001517057	0.01296257	-0.003862437
	0.01263609	-0.004720709	0.003013856	-0.001517057	0.01724182	-0.01995504	0.3408605	0.8467939
	0.003013971	-0.001515599	0.01296257	-0.003862437	0.3408605	0.8467939	0.01747349	-0.01913151
3.8e+08	0.013724	-0.02030638	0.4496006	0.7931901	0.01073789	-0.005512054	0.002890286	-0.001909878
	0.4496006	0.7931901	0.01407009	-0.01948428	0.002889877	-0.001911374	0.01115393	-0.004722965
	0.01073789	-0.005512054	0.002889877	-0.001911374	0.01372797	-0.02032802	0.4523817	0.7915332
	0.002890286	-0.001909878	0.01115393	-0.004722965	0.4523817	0.7915332	0.01404768	-0.01956478
3.9e+08	0.010246	-0.01977219	0.5526254	0.723769	0.008684257	-0.005747113	0.002722736	-0.002310603
	0.5526254	0.723769	0.0106637	-0.01903954	0.002722023	-0.002312064	0.009165598	-0.00505026
	0.008684257	-0.005747113	0.002722023	-0.002312064	0.01025059	-0.01978397	0.5552176	0.7217001
	0.002722736	-0.002310603	0.009165598	-0.00505026	0.5552176	0.7217001	0.01063642	-0.01910438
4e+08	0.007041238	-0.01837011	0.6451346	0.6410858	0.006634407	-0.005404776	0.00250152	-0.002715317
	0.6451346	0.6410858	0.007500475	-0.01774509	0.002500514	-0.00271667	0.007150766	-0.004816074
	0.006634407	-0.005404776	0.002500514	-0.00271667	0.007049488	-0.01837259	0.6474761	0.6386265
	0.00250152	-0.002715317	0.007150766	-0.004816074	0.6474761	0.6386265	0.007473307	-0.01779346
4.1e+08	0.004326221	-0.01620964	0.7254337	0.5467086	0.004747188	-0.004508621	0.002216321	-0.003116502
	0.7254337	0.5467086	0.004792322	-0.01570168	0.002215055	-0.003117683	0.005264344	-0.004035273
	0.004747188	-0.004508621	0.002215055	-0.003117683	0.004340921	-0.01620423	0.7274655	0.5438898
	0.002216321	-0.003116502	0.005264344	-0.004035273	0.7274655	0.5438898	0.004770334	-0.01573416
4.2e+08	0.002279281	-0.01345231	0.79206	0.4424221	0.003168739	-0.003125078	0.001858535	-0.00350147
	0.79206	0.4424221	0.002715529	-0.01306096	0.001857059	-0.003502429	0.003651056	-0.002764638
	0.003168739	-0.003125078	0.001857059	-0.00350243	0.00230272	-0.01344118	0.7937267	0.4392838
	0.001858535	-0.00350147	0.003651056	-0.002764638	0.7937267	0.4392838	0.002703478	-0.01307956
4.3e+08	0.001028523	-0.01029946	0.8438104	0.3301926	0.002021147	-0.001358246	0.001423397	-0.003853168
	0.8438104	0.3301926	0.001398977	-0.01001399	0.001421768	-0.003853874	0.002434297	-0.001098394
	0.002021147	-0.001358246	0.001421768	-0.003853874	0.001062286	-0.0102854	0.8450623	0.3267833
	0.001423397	-0.003853167	0.002434297	-0.001098394	0.8450623	0.3267833	0.001400928	-0.01002201
4.4e+08	0.0006435094	-0.006977359	0.8797643	0.2121305	0.001392996	0.0006582542	0.0009116472	-0.004151775
	0.8797643	0.2121305	0.0009158827	-0.006777188	0.0009099249	-0.004152217	0.001706692	0.0008391493
	0.001392996	0.0006582542	0.0009099249	-0.004152217	0.0006883251	-0.00696352	0.880558	0.2085063
	0.0009116472	-0.004151775	0.001706692	0.0008391493	0.880558	0.2085063	0.0009348605	-0.00677895
4.5e+08	0.001131224	-0.003720686	0.8993004	0.09044819	0.001332553	0.002771714	0.0003304638	-0.004376872
	0.8993004	0.09044819	0.001279572	-0.003576616	0.0003287009	-0.004377057	0.001523073	0.002903284
	0.001332553	0.002771714	0.0003287009	-0.004377057	0.001186885	-0.003710338	0.8996006	0.08667201
	0.0003304638	-0.004376872	0.001523073	0.002903284	0.8996006	0.08667201	0.001317305	-0.003577185
4.6e+08	0.002436566	-0.0007557258	0.9021074	-0.03258222	0.001844149	0.00482223	-0.000306499	-0.004509811
	0.9021074	-0.03258222	0.002443574	-0.0006318841	-0.0003082622	-0.004509761	0.001896423	0.004940115
	0.001844149	0.00482223	-0.0003082622	-0.004509761	0.002501928	-0.0007519775	0.9018874	-0.03644178
	-0.000306499	-0.004509811	0.001896423	0.004940115	0.9018874	-0.03644178	0.002500327	-0.0006366607
4.7e+08	0.004447279	0.001715634	0.8881877	-0.1546732	0.002887982	0.006655095	-0.0009799831	-0.00453596
	0.8881877	-0.1546732	0.004305944	0.001859237	-0.0009817224	-0.004535699	0.002797087	0.006798411
	0.002887982	0.006655095	-0.0009817224	-0.004535699	0.004520397	0.001710087	0.8874308	-0.1585432
	-0.0009799831	-0.00453596	0.002797087	0.006798411	0.8874308	-0.1585432	0.00438053	0.001844918
4.8e+08	0.007002879	0.003529873	0.8578553	-0.2735653	0.004383367	0.008132713	-0.001666779	-0.004446444
	0.8578553	-0.2735653	0.006717436	0.003734377	-0.001668486	-0.004445996	0.004155269	0.008341169
	0.004383367	0.008132713	-0.001668486	-0.004445996	0.00708103	0.003512972	0.8565549	-0.2773699
	-0.001666779	-0.004446444	0.004155269	0.008341169	0.8565549	-0.2773699	0.00680715	0.003705657
4.9e+08	0.00990687	0.004572838	0.8117268	-0.3870693	0.006215098	0.009145111	-0.002341897	-0.004239154
	0.8117268	-0.3870693	0.009492867	0.004877379	-0.002343575	-0.004238533	0.005866586	0.009455973
	0.006215098	0.009145111	-0.002343575	-0.004238533	0.00998681	0.00454337	0.8098874	-0.390731
	-0.002341897	-0.004239154	0.005866586	0.009455973	0.8098874	-0.390731	0.009593722	0.004830293
5e+08	0.0129413	0.004787033	0.7507079	-0.4931062	0.008242431	0.00961825	-0.00298093	-0.003918863
	0.7507079	-0.4931062	0.01242479	0.005225644	-0.002982589	-0.003918069	0.0078002	0.01006341
	0.008242431	0.00961825	-0.002982589	-0.003918069	0.01301954	0.004744753	0.748345	-0.4965478
	-0.00298093	-0.003918863	0.0078002	0.01006341	0.748345	-0.4965478	0.01253181	0.005157449
5.1e+08	0.0158826	0.004174723	0.6759736	-0.5897445	0.01030993	0.009519538	-0.003562256	-0.003496478
