!$
! Info: Touchstone file created by Circ.  Input file=Tx_16in_Rx_93ohms_TxVia_10mils_RxVia_20mils.circ
!$
# Hz S RI R 50
0	0.01458595	9.561469e-26	-8.523312e-05	1.239041e-25	9.631036e-05	1.516046e-23	-8.523848e-05	4.557579e-25
	-8.523313e-05	1.245058e-25	0.0145852	1.378952e-25	-8.523208e-05	-2.142038e-26	9.590697e-05	2.077018e-23
	9.442154e-05	1.49467e-23	-8.523208e-05	-2.076784e-26	0.01459957	9.948658e-26	-8.523074e-05	3.198272e-25
	-8.523845e-05	4.525787e-25	9.736093e-05	2.137749e-23	-8.52307e-05	3.156112e-25	0.01459073	1.314653e-25
1e+07	0.02136864	-0.002056269	-0.0004243932	-7.43486e-05	0.000626534	0.002523986	-0.0002131835	0.0002213086
	-0.0004243932	-7.434861e-05	0.02097852	-0.002964644	-6.253939e-06	-1.216483e-05	0.0006616475	0.002774168
	0.000626495	0.002524012	-6.253932e-06	-1.216483e-05	0.01983372	-0.002723896	-2.321961e-05	3.24144e-06
	-0.0002131835	0.0002213086	0.0006616808	0.002774156	-2.321961e-05	3.241447e-06	0.02055922	-0.002951324
2e+07	0.02434489	-0.01028346	-0.0004187125	7.678827e-05	0.001969017	0.004841431	-0.0002374959	0.0002805135
	-0.0004187125	7.678827e-05	0.02293032	-0.01142322	-7.4551e-06	-6.031201e-06	0.001885912	0.005320267
	0.001969025	0.004841449	-7.455099e-06	-6.031206e-06	0.02232463	-0.01068375	-1.454442e-05	-3.838725e-05
	-0.0002374959	0.0002805135	0.00188591	0.005320245	-1.454442e-05	-3.838724e-05	0.02263097	-0.01126815
3e+07	0.02281256	-0.0201627	-0.0004006784	0.0001719203	0.003941544	0.006603596	-0.0002256132	0.0003387332
	-0.0004006784	0.0001719203	0.02067641	-0.02097108	-1.686044e-05	-6.49068e-06	0.003883397	0.00717619
	0.003941542	0.006603596	-1.686044e-05	-6.490681e-06	0.02050126	-0.02017621	-4.326438e-05	-3.798955e-05
	-0.0002256132	0.0003387332	0.003883392	0.007176187	-4.326438e-05	-3.798954e-05	0.02046456	-0.02079295
4e+07	0.01770923	-0.02924671	-0.0003666718	0.0002574412	0.006335084	0.007639763	-0.0001949567	0.0003804452
	-0.0003666718	0.0002574412	0.01510843	-0.02949276	-2.337651e-05	-2.252801e-06	0.006374976	0.008225396
	0.006335079	0.007639766	-2.337651e-05	-2.252801e-06	0.01527791	-0.0288035	-6.564798e-05	-2.534308e-05
	-0.0001949567	0.0003804452	0.006374976	0.008225397	-6.564798e-05	-2.534308e-05	0.01495899	-0.0293265
5e+07	0.009887013	-0.03635334	-0.0003186064	0.000333172	0.008893079	0.007858732	-0.0001577848	0.000403883
	-0.0003186064	0.000333172	0.007072694	-0.03592499	-2.721826e-05	4.310525e-06	0.009011157	0.008429445
	0.008893078	0.007858734	-2.721826e-05	4.310525e-06	0.007493651	-0.03543839	-8.073779e-05	-5.05456e-06
	-0.0001577848	0.000403883	0.009011157	0.008429445	-8.073779e-05	-5.05456e-06	0.006962312	-0.03578449
6e+07	0.0003094456	-0.0407582	-0.0002819727	0.0003803346	0.0113458	0.007258794	-0.0001244813	0.0004117872
	-0.0002819727	0.0003803346	-0.002477959	-0.03963038	-2.842853e-05	1.228533e-05	0.01152262	0.007798299
	0.0113458	0.007258792	-2.842853e-05	1.228533e-05	-0.001904494	-0.03940124	-8.757465e-05	1.983386e-05
	-0.0001244813	0.0004117872	0.01152262	0.0077983	-8.757465e-05	1.983386e-05	-0.002568628	-0.03951917
7e+07	-0.009989047	-0.04211663	-0.0002372457	0.0004238022	0.01344082	0.005924887	-0.0001028495	0.0004100642
	-0.0002372457	0.0004238022	-0.01253079	-0.04033547	-2.691629e-05	2.069787e-05	0.01365812	0.006424126
	0.01344082	0.005924881	-2.691629e-05	2.069787e-05	-0.0119041	-0.04038318	-8.555252e-05	4.653816e-05
	-0.0001028495	0.0004100642	0.01365811	0.006424129	-8.555252e-05	4.653816e-05	-0.01261758	-0.04025077
8e+07	-0.01998602	-0.04043483	-0.0001854999	0.0004615688	0.01496984	0.004016625	-9.765178e-05	0.0004072301
	-0.0001854999	0.0004615688	-0.02209541	-0.0381042	-2.265629e-05	2.883954e-05	0.01521025	0.004471044
	0.01496983	0.004016619	-2.265629e-05	2.883955e-05	-0.02150879	-0.03841723	-7.455256e-05	7.236525e-05
	-9.765178e-05	0.0004072301	0.01521025	0.004471048	-7.455256e-05	7.236525e-05	-0.02219017	-0.03803847
9e+07	-0.02876072	-0.03603223	-0.000128897	0.0004921184	0.01579017	0.00174893	-0.0001110804	0.0004128521
	-0.000128897	0.0004921184	-0.03028776	-0.03329985	-1.556827e-05	3.601788e-05	0.01603536	0.002156821
	0.01579016	0.001748927	-1.556827e-05	3.601788e-05	-0.02982395	-0.03384057	-5.478305e-05	9.477195e-05
	-0.0001110804	0.0004128521	0.01603536	0.002156825	-5.478305e-05	9.477195e-05	-0.03039768	-0.03324269
1e+08	-0.03559181	-0.02948496	-7.390688e-05	0.000514959	0.01584857	-0.000631635	-0.0001537516	0.0004367688
	-7.390688e-05	0.000514959	-0.03638399	-0.02652878	-4.692369e-06	4.141887e-05	0.01606514	-0.0002708775
	0.01584857	-0.000631635	-4.692369e-06	4.141887e-05	-0.03612614	-0.02723904	-2.465071e-05	0.0001112884
	-0.0001537516	0.0004367688	0.01606514	-0.0002708777	-2.465071e-05	0.0001112884	-0.0365146	-0.02646935
1.1e+08	-0.03990155	-0.02145766	-1.648244e-05	0.0005136042	0.01512739	-0.002824655	-0.0001980588	0.0004332204
	-1.648244e-05	0.0005136042	-0.04000342	-0.01869266	6.534311e-06	3.999327e-05	0.01531173	-0.002552955
	0.01512739	-0.002824654	6.534311e-06	3.999327e-05	-0.03996076	-0.0194242	6.731242e-06	0.0001097528
	-0.0001980588	0.0004332204	0.01531173	-0.002552955	6.731242e-06	0.0001097528	-0.04014623	-0.01860707
1.2e+08	-0.04139997	-0.01293596	4.716719e-05	0.0005039995	0.01370338	-0.004659634	-0.000217493	0.0004547276
	4.716719e-05	0.0005039995	-0.04101841	-0.0104733	1.517257e-05	3.673275e-05	0.01387266	-0.004457482
	0.01370338	-0.004659634	1.517257e-05	3.673275e-05	-0.04113844	-0.0111746	3.143646e-05	0.0001019349
	-0.000217493	0.0004547276	0.01387266	-0.004457482	3.143646e-05	0.0001019349	-0.04115431	-0.01036098
1.3e+08	-0.04017991	-0.004808152	0.0001102437	0.0004856505	0.01175085	-0.005939598	-0.0002193857	0.0004951425
	0.0001102437	0.0004856505	-0.03945916	-0.002710786	2.226875e-05	3.214882e-05	0.01190421	-0.005794791
	0.01175085	-0.005939598	2.226875e-05	3.214882e-05	-0.03970396	-0.003343894	5.13406e-05	8.971859e-05
	-0.0002193857	0.0004951425	0.01190421	-0.005794791	5.13406e-05	8.971859e-05	-0.03957561	-0.002576812
1.4e+08	-0.03657242	0.002125061	0.0001702256	0.0004590507	0.00947926	-0.006530596	-0.0002005645	0.0005471313
	0.0001702256	0.0004590507	-0.03564394	0.003827257	2.531174e-05	2.853107e-05	0.009612637	-0.006433367
	0.00947926	-0.006530596	2.531174e-05	2.853107e-05	-0.03597256	0.003289452	6.646047e-05	7.468644e-05
	-0.0002005645	0.0005471313	0.009612637	-0.006433367	6.646047e-05	7.468644e-05	-0.03573236	0.003974041
1.5e+08	-0.03112667	0.007218885	0.0002254937	0.0004251786	0.007125165	-0.006370832	-0.0001592312	0.0006021774
	0.0002254937	0.0004251786	-0.03011247	0.008525064	2.799461e-05	2.465662e-05	0.007233236	-0.006312164
	0.007125165	-0.006370832	2.799461e-05	2.465662e-05	-0.03048045	0.008097821	7.693613e-05	5.831864e-05
	-0.0001592312	0.0006021774	0.007233236	-0.006312164	7.693613e-05	5.831864e-05	-0.03016853	0.008673521
1.6e+08	-0.02455103	0.01004046	0.000275104	0.0003851855	0.004930493	-0.005475253	-9.645173e-05	0.0006517303
	0.000275104	0.0003851855	-0.02356175	0.01097602	3.028656e-05	2.052209e-05	0.00500756	-0.005445846
	0.004930493	-0.005475252	3.028656e-05	2.052209e-05	-0.02392321	0.01066172	8.32934e-05	4.185683e-05
	-9.645173e-05	0.0006517303	0.00500756	-0.005445846	8.32934e-05	4.185683e-05	-0.02358564	0.01111424
1.7e+08	-0.01763932	0.01040389	0.000318578	0.0003401719	0.003119296	-0.003933477	-1.617222e-05	0.000688555
	0.000318578	0.0003401719	-0.01677072	0.01101752	3.212958e-05	1.61578e-05	0.003160033	-0.003923077
	0.003119296	-0.003933477	3.212958e-05	1.61578e-05	-0.01708144	0.01080527	8.63257e-05	2.616568e-05
	-1.617222e-05	0.000688555	0.003160033	-0.003923077	8.63257e-05	2.616568e-05	-0.01676697	0.01113438
1.8e+08	-0.01119029	0.008381107	0.0003557275	0.0002910501	0.001875692	-0.001900772	7.556556e-05	0.0007078298
	0.0003557275	0.0002910501	-0.01051926	0.008741035	3.347433e-05	1.159984e-05	0.001875957	-0.001897853
	0.001875692	-0.001900772	3.347433e-05	1.159984e-05	-0.01074023	0.008607182	8.692544e-05	1.166743e-05
	7.556556e-05	0.0007078298	0.001875957	-0.001897853	8.692544e-05	1.166743e-05	-0.01049617	0.008827587
1.9e+08	-0.005928076	0.00428761	0.0003864723	0.0002384994	0.001325256	0.0004174642	0.0001718689	0.0007077276
	0.0003864723	0.0002384994	-0.00550898	0.00447683	3.42739e-05	6.892809e-06	0.001282926	0.0004256572
	0.001325256	0.0004174643	3.42739e-05	6.892809e-06	-0.005610032	0.004386623	8.589215e-05	-1.636089e-06
	0.0001718689	0.0007077276	0.001282926	0.0004256573	8.589215e-05	-1.636089e-06	-0.005477636	0.004527418
2e+08	-0.002431417	-0.001355382	0.000410678	0.0001830095	0.00152191	0.002786562	0.0002663679	0.0006893508
	0.000410678	0.0001830095	-0.002293289	-0.001245021	3.448314e-05	2.093691e-06	0.001437668	0.002813596
	0.001521911	0.002786562	3.448314e-05	2.093691e-06	-0.002256233	-0.001334585	8.376726e-05	-1.405369e-05
	0.0002663679	0.0006893508	0.001437668	0.002813596	8.376726e-05	-1.405369e-05	-0.002266247	-0.001232005
2.1e+08	-0.001077826	-0.007879022	0.0004280505	0.0001249968	0.002442113	0.004965208	0.0003543938	0.0006560497
	0.0004280505	0.0001249968	-0.001223609	-0.007753218	3.404986e-05	-2.725148e-06	0.002319965	0.005026368
	0.002442113	0.004965208	3.404986e-05	-2.725148e-06	-0.001043908	-0.007889886	8.066386e-05	-2.603516e-05
	0.0003543938	0.0006560497	0.002319965	0.005026368	8.066386e-05	-2.603516e-05	-0.001213471	-0.00777506
2.2e+08	-0.002011415	-0.01453851	0.000438111	6.495374e-05	0.003992092	0.00673314	0.0004336941	0.0006122874
	0.000438111	6.495374e-05	-0.002417205	-0.01430739	3.294321e-05	-7.470531e-06	0.003834643	0.006843567
	0.003992092	0.00673314	3.294321e-05	-7.470531e-06	-0.00210617	-0.01453937	7.640851e-05	-3.79332e-05
	0.0004336941	0.0006122874	0.003834643	0.006843567	7.640851e-05	-3.79332e-05	-0.002435152	-0.01435727
2.3e+08	-0.005133068	-0.02058977	0.000440258	3.591132e-06	0.006008271	0.007914001	0.000504529	0.0005623318
	0.000440258	3.591132e-06	-0.005749722	-0.02017614	3.116531e-05	-1.203704e-05	0.005821682	0.008087079
	0.006008271	0.007914001	3.116531e-05	-1.203704e-05	-0.005334832	-0.02054599	7.065965e-05	-4.98864e-05
	0.000504529	0.0005623318	0.005821682	0.008087079	7.065965e-05	-4.98864e-05	-0.005804212	-0.02024381
2.4e+08	-0.01011432	-0.02536707	0.0004338989	-5.806876e-05	0.008277253	0.008392161	0.0005691487	0.0005090824
	0.0004338989	-5.806876e-05	-0.01087292	-0.02471269	2.872621e-05	-1.631031e-05	0.008073414	0.008639608
	0.008277253	0.008392161	2.872621e-05	-1.631031e-05	-0.01039469	-0.02525274	6.287933e-05	-6.170617e-05
	0.0005691487	0.0005090824	0.008073414	0.008639608	6.287933e-05	-6.170617e-05	-0.01096868	-0.02478558
2.5e+08	-0.0164371	-0.02834973	0.0004186167	-0.00011868	0.01056105	0.008126845	0.0006307815	0.0004532979
	0.0004186167	-0.00011868	-0.01725523	-0.02742022	2.56629e-05	-2.017181e-05	0.01035683	0.008456444
	0.01056106	0.008126845	2.56629e-05	-2.017181e-05	-0.01676351	-0.02814862	5.262198e-05	-7.284299e-05
	0.0006307815	0.0004532979	0.01035683	0.008456444	5.262198e-05	-7.284299e-05	-0.01739268	-0.02748473
2.6e+08	-0.02345109	-0.02921238	0.0003943302	-0.0001766451	0.01262266	0.007155481	0.0006923951	0.0003934067
	0.0003943302	-0.0001766451	-0.02424039	-0.0280002	2.204146e-05	-2.350656e-05	0.01243834	0.007569179
	0.01262266	0.007155481	2.204146e-05	-2.350656e-05	-0.02378951	-0.02891831	3.971369e-05	-8.247046e-05
	0.0006923951	0.0003934067	0.01243834	0.007569179	3.971369e-05	-8.247046e-05	-0.02441549	-0.0280432
2.7e+08	-0.03044301	-0.02785408	0.0003614059	-0.0002302607	0.01425096	0.005588492	0.0007555184	0.0003259336
	0.0003614059	-0.0002302607	-0.03111735	-0.02637906	1.795755e-05	-2.621301e-05	0.01410799	0.006081148
	0.01425096	0.005588492	1.795755e-05	-2.621301e-05	-0.03076056	-0.02747059	2.436941e-05	-8.964492e-05
	0.0007555184	0.0003259336	0.01410799	0.006081148	2.436941e-05	-8.964492e-05	-0.031322	-0.02638936
2.8e+08	-0.03671049	-0.02440397	0.0003206912	-0.0002778986	0.01528222	0.003596459	0.0008194114	0.0002464283
	0.0003206912	-0.0002778986	-0.03719403	-0.02271155	1.353193e-05	-2.821204e-05	0.01520062	0.004155456
	0.01528222	0.003596459	1.353193e-05	-2.821204e-05	-0.03697783	-0.02394338	7.219821e-06	-9.350184e-05
	0.0008194114	0.0002464283	0.01520062	0.004155456	7.219821e-06	-9.350184e-05	-0.03741693	-0.02268111
2.9e+08	-0.04163292	-0.01920376	0.0002734644	-0.0003181852	0.01561602	0.001391399	0.0008807597	0.0001506879
	0.0002734644	-0.0003181852	-0.04186739	-0.01736081	8.90315e-06	-2.945501e-05	0.01561164	0.00199723
	0.01561602	0.001391399	8.90315e-06	-2.945501e-05	-0.04182629	-0.01868569	-1.075563e-05	-9.344142e-05
	0.0008807597	0.0001506879	0.01561164	0.00199723	-1.075563e-05	-9.344142e-05	-0.04209518	-0.01728562
3e+08	-0.0447323	-0.01276954	0.000221314	-0.0003501424	0.01522412	-0.0007955454	0.0009339711	3.599214e-05
	0.000221314	-0.0003501424	-0.04468275	-0.01085823	4.216884e-06	-2.992874e-05	0.0153063	-0.0001677343
	0.01522412	-0.0007955454	4.216884e-06	-2.992874e-05	-0.04483508	-0.01221903	-2.837253e-05	-8.926294e-05
	0.0009339711	3.599214e-05	0.0153063	-0.0001677343	-2.837253e-05	-8.926294e-05	-0.04490144	-0.01073871
3.1e+08	-0.04571873	-0.005737459	0.0001659734	-0.0003732633	0.01415207	-0.002737605	0.0009720087	-9.793091e-05
	0.0001659734	-0.0003732633	-0.04537732	-0.003847502	-3.861458e-07	-2.96558e-05	0.01432176	-0.002115661
	0.01415207	-0.002737605	-3.861458e-07	-2.96558e-05	-0.04572249	-0.005182753	-4.442924e-05	-8.122025e-05
	0.0009720087	-9.793091e-05	0.01432176	-0.002115661	-4.442924e-05	-8.122025e-05	-0.04557371	-0.003688549
3.2e+08	-0.04451665	0.001201222	0.0001091429	-0.0003875105	0.01251341	-0.004234783	0.000987577	-0.0002483929
	0.0001091429	-0.0003875105	-0.04390386	0.002981143	-4.781571e-06	-2.868942e-05	0.01276236	-0.003646628
	0.01251341	-0.004234783	-4.781571e-06	-2.868942e-05	-0.04442155	0.001731048	-5.789797e-05	-6.998919e-05
	0.000987577	-0.0002483929	0.01276236	-0.003646628	-5.789797e-05	-6.998919e-05	-0.04406695	0.003170648
3.3e+08	-0.04126981	0.00736929	5.233472e-05	-0.0003932441	0.01047777	-0.005133205	0.0009744238	-0.0004098155
	5.233472e-05	-0.0003932441	-0.04043309	0.00896019	-8.869256e-06	-2.710436e-05	0.01078858	-0.004603686
	0.01047777	-0.005133205	-8.869256e-06	-2.710436e-05	-0.0410844	0.007846705	-6.808135e-05	-5.655648e-05
	0.0009744238	-0.0004098155	0.01078858	-0.004603686	-6.808135e-05	-5.655648e-05	-0.04055523	0.009168271
3.4e+08	-0.03632501	0.01217046	-3.232399e-06	-0.0003910971	0.008253713	-0.005339832	0.0009284844	-0.0005743691
	-3.232399e-06	-0.0003910971	-0.03533481	0.01351104	-1.257608e-05	-2.498569e-05	0.008601098	-0.004887711
	0.008253713	-0.005339832	-1.257608e-05	-2.498569e-05	-0.03606541	0.01257173	-7.470524e-05	-4.205353e-05
	0.0009284844	-0.0005743691	0.008601098	-0.004887711	-7.470524e-05	-4.205353e-05	-0.03541254	0.01372383
3.5e+08	-0.03019637	0.01514778	-5.667321e-05	-0.0003818223	0.006068155	-0.00483138	0.0008486438	-0.0007330312
	-5.667321e-05	-0.0003818223	-0.02913982	0.01620095	-1.58535e-05	-2.24183e-05	0.006421081	-0.004466812
	0.006068155	-0.00483138	-1.58535e-05	-2.24183e-05	-0.02988485	0.01545493	-7.793016e-05	-2.756835e-05
	0.0008486438	-0.0007330312	0.006421081	-0.004466812	-7.793016e-05	-2.756835e-05	-0.02917426	0.01640411
3.6e+08	-0.02351345	0.01602819	-0.0001074056	-0.0003661465	0.004143942	-0.003656652	0.0007369615	-0.0008768781
	-0.0001074056	-0.0003661465	-0.02248624	0.01678537	-1.867103e-05	-1.94798e-05	0.004468618	-0.003379472
	0.004143942	-0.003656652	-1.867103e-05	-1.94798e-05	-0.02317657	0.0162305	-7.828133e-05	-1.397265e-05
	0.0007369615	-0.0008768781	0.004468618	-0.003379472	-7.828133e-05	-1.397265e-05	-0.02248306	0.01696559
3.7e+08	-0.01695834	0.01474894	-0.0001550594	-0.0003446584	0.002677635	-0.001931972	0.0005983276	-0.0009983294
	-0.0001550594	-0.0003446584	-0.01605546	0.0152318	-2.100812e-05	-1.623779e-05	0.002940961	-0.001731013
	0.002677635	-0.001931972	-2.100812e-05	-1.623779e-05	-0.01662463	0.01484386	-7.651082e-05	-1.798149e-06
	0.0005983276	-0.0009983294	0.002940961	-0.001731013	-7.651082e-05	-1.798149e-06	-0.01602436	0.01537817
3.8e+08	-0.01119743	0.01146322	-0.0001993477	-0.0003177558	0.001819523	0.0001700877	0.0004396195	-0.00109211
	-0.0001993477	-0.0003177558	-0.01050376	0.01172237	-2.28469e-05	-1.27517e-05	0.001992664	0.000316528
	0.001819523	0.0001700877	-2.28469e-05	-1.27517e-05	-0.01089496	0.01145663	-7.342059e-05	8.812549e-06
	0.0004396195	-0.00109211	0.001992664	0.000316528	-7.342059e-05	8.812549e-06	-0.01045748	0.01182759
3.9e+08	-0.006814857	0.006524325	-0.0002399309	-0.0002856638	0.001657915	0.00243787	0.000268545	-0.001155736
	-0.0002399309	-0.0002856638	-0.006396393	0.006635117	-2.416769e-05	-9.077556e-06	0.001719631	0.002560403
	0.001657915	0.00243787	-2.416769e-05	-9.077556e-06	-0.006568776	0.006430028	-6.968374e-05	1.806988e-05
	0.000268545	-0.001155736	0.001719631	0.002560403	-6.968374e-05	1.806988e-05	-0.00634947	0.006696315
4e+08	-0.004254093	0.0004496351	-0.0002763088	-0.0002485199	0.002209516	0.004642178	9.242497e-05	-0.001189439
	-0.0002763088	-0.0002485199	-0.004150826	0.0005053342	-2.494808e-05	-5.273927e-06	0.002148877	0.004777662
	0.002209516	0.004642178	-2.494808e-05	-5.273927e-06	-0.004084417	0.0002881663	-6.570338e-05	2.642344e-05
	9.242497e-05	-0.001189439	0.002148877	0.004777662	-6.570338e-05	2.642344e-05	-0.004118053	0.0005244408
4.1e+08	-0.003773795	-0.006131953	-0.0003077706	-0.0002065043	0.003417198	0.006560077	-8.283486e-05	-0.00119556
	-0.0003077706	-0.0002065043	-0.003994999	-0.006029031	-2.516526e-05	-1.407077e-06	0.003235365	0.006748137
	0.003417198	0.006560077	-2.516526e-05	-1.407077e-06	-0.003693624	-0.006335136	-6.154193e-05	3.439619e-05
	-8.283486e-05	-0.00119556	0.003235365	0.006748137	-6.154193e-05	3.439619e-05	-0.003989882	-0.006045406
4.2e+08	-0.005422561	-0.01254385	-0.0003334188	-0.0001599835	0.005155673	0.007998365	-0.0002533576	-0.001177579
	-0.0003334188	-0.0001599835	-0.005945076	-0.01229237	-2.480074e-05	2.445758e-06	0.004866512	0.008277433
	0.005155673	0.007998365	-2.480074e-05	2.445758e-06	-0.00543692	-0.01276064	-5.693778e-05	4.240564e-05
	-0.0002533576	-0.001177579	0.004866512	0.008277433	-5.693778e-05	4.240564e-05	-0.005978379	-0.01233357
4.3e+08	-0.009035205	-0.01813016	-0.0003522659	-0.0001096284	0.007244625	0.008814035	-0.0004173717	-0.001139
	-0.0003522659	-0.0001096284	-0.009804973	-0.01763998	-2.384623e-05	6.195643e-06	0.006874021	0.009217281
	0.007244625	0.008814035	-2.384623e-05	6.195643e-06	-0.009140619	-0.01833235	-5.140564e-05	5.061555e-05
	-0.0004173717	-0.001139	0.006874021	0.009217281	-5.140564e-05	5.061555e-05	-0.009883533	-0.01769239
4.4e+08	-0.01425084	-0.02232152	-0.0003633828	-5.647353e-05	0.009467899	0.008929294	-0.0005747619	-0.001082365
	-0.0003633828	-5.647353e-05	-0.01518763	-0.02152302	-2.23098e-05	9.743886e-06	0.009051774	0.009480876
	0.009467899	0.008929294	-2.23098e-05	9.743886e-06	-0.01443569	-0.02248332	-4.439574e-05	5.885473e-05
	-0.0005747619	-0.001082365	0.009051774	0.009480876	-4.439574e-05	5.885473e-05	-0.01531358	-0.02157143
4.5e+08	-0.02055063	-0.02469141	-0.0003660663	-1.898332e-06	0.0115965	0.008339392	-0.0007261045	-0.001008759
	-0.0003660663	-1.898332e-06	-0.02155553	-0.02354294	-2.022129e-05	1.298665e-05	0.01117767	0.009051452
	0.0115965	0.008339392	-2.022129e-05	1.298665e-05	-0.02079628	-0.02479177	-3.547372e-05	6.662337e-05
	-0.0007261045	-0.001008759	0.01117767	0.009051452	-3.547372e-05	6.662337e-05	-0.02172606	-0.02357219
4.6e+08	-0.02731108	-0.02499753	-0.000359799	5.235017e-05	0.01341273	0.007112463	-0.0008850513	-0.0008963245
	-0.000359799	5.235017e-05	-0.02827605	-0.02349012	-1.763631e-05	1.582167e-05	0.01303684	0.00798321
	0.01341273	0.007112463	-1.763631e-05	1.582167e-05	-0.02759358	-0.02502196	-2.429565e-05	7.306872e-05
	-0.0008850513	-0.0008963245	0.01303684	0.00798321	-2.429565e-05	7.306872e-05	-0.0284836	-0.02348673
4.7e+08	-0.03386693	-0.02320382	-0.000344899	0.0001045987	0.01473266	0.005381567	-0.001031866	-0.0007582298
	-0.000344899	0.0001045987	-0.03468545	-0.0213629	-1.463669e-05	1.81572e-05	0.01444367	0.006394728
	0.01473266	0.005381567	-1.463669e-05	1.81572e-05	-0.03415927	-0.02314578	-1.124276e-05	7.741976e-05
