!$
! Info: Touchstone file created by Circ.  Input file=Tx_16in_Rx_85ohms_TxVia_10mils_RxVia_20mils.circ
!$
# Hz S RI R 50
0	0.012829	9.618452e-26	-1.762314e-11	4.046865e-27	9.688094e-05	1.332784e-23	-2.13243e-08	2.611383e-24
	-1.76089e-11	4.045846e-27	0.01282828	1.38727e-25	1.405246e-11	3.393162e-28	9.648e-05	1.825778e-23
	9.499198e-05	1.313993e-23	1.40176e-11	3.396667e-28	0.01284272	1.000817e-25	1.722762e-08	7.236629e-27
	-2.132502e-08	2.611472e-24	9.793462e-05	1.879163e-23	1.722814e-08	7.235514e-27	0.01283382	1.322557e-25
1e+07	0.01747642	-0.0160398	2.020124e-11	-6.020571e-11	0.0005595043	0.002756207	-2.91499e-09	1.965044e-08
	2.02012e-11	-6.0206e-11	0.01534812	-0.0161002	-1.368056e-11	-8.410026e-11	0.0006763984	0.002757415
	0.0005594658	0.002756233	-1.368056e-11	-8.409996e-11	0.01536674	-0.01637302	-4.855587e-09	1.966885e-08
	-2.91499e-09	1.965044e-08	0.0006764314	0.002757403	-4.855587e-09	1.966885e-08	0.01531283	-0.01608827
2e+07	0.01299774	-0.03625179	2.674268e-11	-8.912437e-11	0.001903468	0.005189091	2.725999e-09	2.312676e-08
	2.674233e-11	-8.912446e-11	0.01117782	-0.03557578	-2.980356e-11	-1.904885e-10	0.002053831	0.00508549
	0.001903477	0.005189109	-2.980331e-11	-1.904884e-10	0.01092253	-0.03598741	-3.126141e-09	2.112596e-08
	2.725999e-09	2.312676e-08	0.002053828	0.005085468	-3.126141e-09	2.112596e-08	0.01115727	-0.03553778
3e+07	0.0008833604	-0.05469683	2.730961e-11	-1.655735e-10	0.003987826	0.006913726	8.362473e-09	1.522018e-08
	2.730959e-11	-1.655734e-10	-0.0006716798	-0.05369185	-7.033483e-11	-1.904242e-10	0.004063029	0.006798283
	0.003987823	0.006913726	-7.033478e-11	-1.904243e-10	-0.001112429	-0.05408551	5.638033e-09	2.132617e-08
	8.362473e-09	1.522018e-08	0.004063024	0.006798281	5.638033e-09	2.132617e-08	-0.0006799064	-0.05364107
4e+07	-0.0168074	-0.06836575	3.291406e-11	-2.339373e-10	0.006453756	0.007835675	1.080726e-08	9.88901e-09
	3.291409e-11	-2.339373e-10	-0.0181104	-0.06713592	-4.435787e-11	-2.559265e-10	0.006461112	0.007740102
	0.006453751	0.007835679	-4.435797e-11	-2.559266e-10	-0.0186714	-0.06746169	1.186847e-08	1.415568e-08
	1.080726e-08	9.88901e-09	0.006461112	0.007740103	1.186847e-08	1.415568e-08	-0.0181096	-0.06707765
5e+07	-0.03785759	-0.07573044	4.604835e-11	-3.158094e-10	0.009016177	0.007899069	1.345501e-08	5.741324e-09
	4.604835e-11	-3.158094e-10	-0.03891547	-0.07433509	-5.652685e-11	-2.894281e-10	0.008968053	0.007846573
	0.009016175	0.007899071	-5.652685e-11	-2.894281e-10	-0.03954326	-0.07457486	1.282547e-08	6.043178e-09
	1.345501e-08	5.741325e-09	0.008968052	0.007846573	1.282547e-08	6.043178e-09	-0.03890861	-0.07426973
6e+07	-0.0599028	-0.0761651	5.479876e-11	-4.267582e-10	0.01139428	0.007143572	1.685494e-08	-1.757957e-09
	5.47988e-11	-4.267582e-10	-0.06071832	-0.0746474	-4.272753e-11	-3.168281e-10	0.01130787	0.007150687
	0.01139428	0.007143569	-4.272756e-11	-3.168281e-10	-0.06137047	-0.0748002	1.064194e-08	-1.118547e-10
	1.685494e-08	-1.757957e-09	0.01130787	0.007150688	1.064194e-08	-1.118548e-10	-0.06070611	-0.07457435
7e+07	-0.08063591	-0.06985514	2.81276e-11	-5.691922e-10	0.0133455	0.005693784	1.141108e-08	-1.216449e-08
	2.81277e-11	-5.691922e-10	-0.08120881	-0.06825282	-2.437991e-11	-3.565702e-10	0.01324139	0.005769977
	0.0133455	0.005693779	-2.437997e-11	-3.565702e-10	-0.08185306	-0.06832655	7.199083e-09	-3.871938e-09
	1.141108e-08	-1.216449e-08	0.01324139	0.005769981	7.199082e-09	-3.871938e-09	-0.08119112	-0.06817176
8e+07	-0.098019	-0.05769137	-2.663948e-11	-6.921045e-10	0.01468832	0.00373715	3.022312e-09	-1.309107e-08
	-2.663943e-11	-6.921046e-10	-0.09834829	-0.05604248	-1.606675e-11	-4.017636e-10	0.01458856	0.003884441
	0.01468832	0.003737144	-1.606678e-11	-4.017636e-10	-0.09896028	-0.05604847	3.699296e-09	-5.531381e-09
	3.022312e-09	-1.309107e-08	0.01458856	0.003884446	3.699296e-09	-5.531381e-09	-0.09832452	-0.055953
9e+07	-0.1104578	-0.04112222	-8.903703e-11	-7.495492e-10	0.01531371	0.001498315	-1.001889e-09	-1.115244e-08
	-8.903704e-11	-7.495492e-10	-0.1105454	-0.03946814	-2.461497e-11	-4.533814e-10	0.0152399	0.001711367
	0.01531371	0.001498312	-2.461497e-11	-4.533814e-10	-0.1111043	-0.0394178	8.693188e-10	-5.606021e-09
	-1.001889e-09	-1.115244e-08	0.0152399	0.001711371	8.693188e-10	-5.606021e-09	-0.110514	-0.03937002
1e+08	-0.1169232	-0.02197504	-2.289009e-10	-7.43452e-10	0.0151884	-0.0007851901	-3.060424e-09	-9.158137e-09
	-2.289009e-10	-7.43452e-10	-0.1167811	-0.02036152	-4.576474e-11	-5.197375e-10	0.01516168	-0.0005181094
	0.0151884	-0.00078519	-4.576475e-11	-5.197375e-10	-0.1172524	-0.02026412	-9.9119e-10	-4.651575e-09
	-3.060424e-09	-9.158137e-09	0.01516168	-0.0005181095	-9.9119e-10	-4.651575e-09	-0.1167398	-0.02025567
1.1e+08	-0.1170128	-0.002269877	-3.201013e-10	-7.486995e-10	0.01434436	-0.002890044	-5.665857e-09	-8.618366e-09
	-3.201013e-10	-7.486995e-10	-0.1166548	-0.0007262669	-4.022451e-11	-5.742029e-10	0.01437659	-0.002598662
	0.01434436	-0.002890044	-4.022451e-11	-5.742029e-10	-0.117039	-0.0006666611	-1.59824e-09	-4.819491e-09
	-5.665857e-09	-8.618366e-09	0.01437659	-0.002598662	-1.59824e-09	-4.819491e-09	-0.1166016	-0.0006148995
1.2e+08	-0.1109579	0.01600248	-3.939203e-10	-7.177124e-10	0.01287627	-0.00460239	-8.07355e-09	-7.160006e-09
	-3.939203e-10	-7.177124e-10	-0.1103989	0.01742484	-3.562347e-11	-6.336925e-10	0.01296441	-0.004307658
	0.01287627	-0.00460239	-3.562347e-11	-6.336925e-10	-0.1107413	0.01744989	-2.170334e-09	-4.777844e-09
	-8.07355e-09	-7.160006e-09	0.01296441	-0.004307658	-2.170334e-09	-4.777844e-09	-0.1103318	0.01753758
1.3e+08	-0.09958482	0.03102596	-4.363039e-10	-6.610703e-10	0.01093883	-0.005754329	-9.956318e-09	-4.852207e-09
	-4.363039e-10	-6.610703e-10	-0.098861	0.03227733	-3.351545e-11	-6.978343e-10	0.01107584	-0.005475901
	0.01093883	-0.005754329	-3.351545e-11	-6.978343e-10	-0.09917587	0.03228201	-2.631162e-09	-4.544684e-09
	-9.956318e-09	-4.852207e-09	0.01107584	-0.005475901	-2.631162e-09	-4.544684e-09	-0.0987803	0.03238638
1.4e+08	-0.08422769	0.0413394	-4.389438e-10	-5.937741e-10	0.008727414	-0.006229337	-1.101304e-08	-1.878457e-09
	-4.389438e-10	-5.937741e-10	-0.08339275	0.04237907	-3.571432e-11	-7.662621e-10	0.008900119	-0.005984148
	0.008727413	-0.006229337	-3.571432e-11	-7.662621e-10	-0.08367932	0.0423782	-2.913664e-09	-4.164715e-09
	-1.101304e-08	-1.878457e-09	0.008900119	-0.005984148	-2.913664e-09	-4.164715e-09	-0.0833008	0.04247928
1.5e+08	-0.06659999	0.04597089	-4.010573e-10	-5.32652e-10	0.006465602	-0.005972909	-1.100803e-08	1.471992e-09
	-4.010573e-10	-5.32652e-10	-0.0657217	0.04677346	-4.423146e-11	-8.378693e-10	0.006655329	-0.005773014
	0.006465602	-0.005972909	-4.423146e-11	-8.378693e-10	-0.0659685	0.04677742	-2.969717e-09	-3.705065e-09
	-1.100803e-08	1.471992e-09	0.006655329	-0.005773014	-2.969717e-09	-3.705065e-09	-0.06562299	0.04686044
1.6e+08	-0.04863007	0.0445323	-3.291046e-10	-4.924673e-10	0.004387466	-0.005001151	-9.808515e-09	4.826742e-09
	-3.291046e-10	-4.924673e-10	-0.04778513	0.0450929	-6.082943e-11	-9.104982e-10	0.004571718	-0.00485184
	0.004387466	-0.005001151	-6.082943e-11	-9.104982e-10	-0.04797377	0.04510423	-2.776982e-09	-3.246967e-09
	-9.808515e-09	4.826742e-09	0.004571718	-0.00485184	-2.776982e-09	-3.246967e-09	-0.04768594	0.04516384
1.7e+08	-0.03227113	0.03726299	-2.344062e-10	-4.828513e-10	0.00271543	-0.003404649	-7.414959e-09	7.767038e-09
	-2.344062e-10	-4.828513e-10	-0.03153816	0.03760062	-8.63686e-11	-9.809804e-10	0.002870259	-0.003303194
	0.00271543	-0.003404648	-8.63686e-11	-9.809804e-10	-0.0316475	0.03761201	-2.341933e-09	-2.87578e-09
	-7.414959e-09	7.767038e-09	0.002870259	-0.003303194	-2.341933e-09	-2.87578e-09	-0.03144593	0.037655
1.8e+08	-0.01930066	0.02501265	-1.295496e-10	-5.072199e-10	0.001635182	-0.001344628	-3.977962e-09	9.876624e-09
	-1.295496e-10	-5.072199e-10	-0.01875198	0.02517098	-1.201998e-10	-1.045612e-09	0.001738004	-0.001279896
	0.001635182	-0.001344628	-1.201998e-10	-1.045612e-09	-0.01876248	0.02516478	-1.699106e-09	-2.671194e-09
	-3.977962e-09	9.876624e-09	0.001738005	-0.001279896	-1.699106e-09	-2.671194e-09	-0.01867442	0.02521101
1.9e+08	-0.01112986	0.00915844	-2.508985e-11	-5.640359e-10	0.001271132	0.0009607904	2.036745e-10	1.07975e-08
	-2.508985e-11	-5.640359e-10	-0.01082304	0.009203615	-1.598783e-10	-1.100984e-09	0.001303646	0.001007724
	0.001271132	0.0009607904	-1.598783e-10	-1.100984e-09	-0.01072103	0.009152852	-9.074132e-10	-2.698941e-09
	2.036745e-10	1.07975e-08	0.001303646	0.001007724	-9.074132e-10	-2.698941e-09	-0.01076714	0.009234313
2e+08	-0.0086471	-0.008540205	7.199406e-11	-6.496862e-10	0.0016673	0.003260371	4.70695e-09	1.028446e-08
	7.199406e-11	-6.496862e-10	-0.008617416	-0.008524838	-2.013818e-10	-1.144924e-09	0.001618141	0.003314575
	0.0016673	0.003260371	-2.013818e-10	-1.144924e-09	-0.008398729	-0.008653973	-4.479372e-11	-3.004501e-09
	4.70695e-09	1.028446e-08	0.001618141	0.003314575	-4.479372e-11	-3.004501e-09	-0.008588362	-0.008495965
2.1e+08	-0.01211806	-0.02613521	1.574368e-10	-7.613741e-10	0.002778469	0.005300854	9.029811e-09	8.248851e-09
	1.574368e-10	-7.613741e-10	-0.01237303	-0.02605701	-2.398399e-10	-1.177241e-09	0.002645223	0.005390978
	0.002778469	0.005300854	-2.398399e-10	-1.177241e-09	-0.01204562	-0.0263014	7.979458e-10	-3.608472e-09
	9.029811e-09	8.248851e-09	0.002645223	0.005390978	7.979458e-10	-3.608472e-09	-0.01237333	-0.02602064
2.2e+08	-0.02115891	-0.04170836	2.270515e-10	-8.983327e-10	0.004474611	0.006860101	1.265187e-08	4.782722e-09
	2.270515e-10	-8.983327e-10	-0.02167584	-0.04147498	-2.706032e-10	-1.2e-09	0.004264871	0.007015156
	0.004474611	0.006860101	-2.706032e-10	-1.2e-09	-0.02126094	-0.04187002	1.523977e-09	-4.503045e-09
	1.265187e-08	4.782722e-09	0.004264871	0.007015156	1.523977e-09	-4.503045e-09	-0.02170472	-0.04142099
2.3e+08	-0.03478768	-0.05358517	2.74008e-10	-1.060522e-09	0.006558477	0.007775921	1.510131e-08	1.58026e-10
	2.74008e-10	-1.060522e-09	-0.03551469	-0.05311474	-2.903397e-10	-1.217188e-09	0.006289724	0.008021776
	0.006558477	0.007775921	-2.903397e-10	-1.217188e-09	-0.0350462	-0.05368943	2.038544e-09	-5.64951e-09
	1.510131e-08	1.58026e-10	0.006289724	0.008021776	2.038544e-09	-5.64951e-09	-0.03556787	-0.05303339
2.4e+08	-0.05154563	-0.0605153	2.878931e-10	-1.245378e-09	0.00879292	0.007965089	1.601702e-08	-5.199483e-09
	2.878931e-10	-1.245378e-09	-0.05240613	-0.05974568	-2.978139e-10	-1.233846e-09	0.008491169	0.00832112
	0.00879292	0.007965089	-2.978139e-10	-1.233846e-09	-0.05192834	-0.06051808	2.258809e-09	-6.977698e-09
	1.601702e-08	-5.199483e-09	0.008491169	0.00832112	2.258809e-09	-6.977698e-09	-0.05247605	-0.05962887
2.5e+08	-0.06966982	-0.06179664	2.565623e-10	-1.444354e-09	0.01093234	0.007429672	1.519651e-08	-1.075719e-08
	2.565623e-10	-1.444354e-09	-0.07056998	-0.06069288	-2.940874e-10	-1.254911e-09	0.01062966	0.007905995
	0.01093234	0.007429672	-2.940874e-10	-1.254911e-09	-0.07013359	-0.06166646	2.125068e-09	-8.388839e-09
	1.519651e-08	-1.075719e-08	0.01062966	0.007905995	2.125068e-09	-8.388839e-09	-0.07064644	-0.06053519
2.6e+08	-0.08729119	-0.05733155	1.703604e-10	-1.641265e-09	0.01275227	0.006250977	1.262342e-08	-1.593547e-08
	1.703604e-10	-1.641265e-09	-0.08812945	-0.05589036	-2.820783e-10	-1.284163e-09	0.01248343	0.006846654
	0.01275227	0.006250977	-2.820783e-10	-1.284163e-09	-0.08778654	-0.05705192	1.611745e-09	-9.763152e-09
	1.262342e-08	-1.593547e-08	0.01248343	0.006846654	1.611745e-09	-9.763152e-09	-0.08820065	-0.05568993
2.7e+08	-0.1026322	-0.04761445	2.705714e-11	-1.8137e-09	0.01407259	0.004574169	8.472624e-09	-2.017179e-08
	2.705714e-11	-1.8137e-09	-0.1033098	-0.04586544	-2.656558e-10	-1.323617e-09	0.01387124	0.005276624
	0.01407259	0.004574169	-2.656558e-10	-1.323617e-09	-0.1031081	-0.04718474	7.356515e-10	-1.097234e-08
	8.472624e-09	-2.017179e-08	0.01387124	0.005276624	7.356515e-10	-1.097234e-08	-0.1033635	-0.0456244
2.8e+08	-0.1141823	-0.03365975	-1.645842e-10	-1.937427e-09	0.01477224	0.002587792	3.094701e-09	-2.298106e-08
	-1.645842e-10	-1.937427e-09	-0.1146136	-0.03166323	-2.48634e-10	-1.373533e-09	0.01466702	0.003373554
	0.01477224	0.002587792	-2.48634e-10	-1.373533e-09	-0.1145906	-0.03309466	-4.409414e-10	-1.189567e-08
	3.094701e-09	-2.298106e-08	0.01466702	0.003373554	-4.409414e-10	-1.189567e-08	-0.1146387	-0.03138769
2.9e+08	-0.120836	-0.01688424	-3.841993e-10	-1.992496e-09	0.01479565	0.0005022259	-3.016654e-09	-2.400687e-08
	-3.841993e-10	-1.992496e-09	-0.1209577	-0.01472591	-2.340522e-10	-1.432962e-09	0.0148067	0.001338931
	0.01479565	0.0005022259	-2.340522e-10	-1.432962e-09	-0.1211361	-0.01621203	-1.81398e-09	-1.243707e-08
	-3.016654e-09	-2.400687e-08	0.0148067	0.001338931	-1.81398e-09	-1.243707e-08	-0.1209452	-0.01442556
3e+08	-0.1219857	0.001040203	-6.02704e-10	-1.969067e-09	0.01415268	-0.001470283	-9.269851e-09	-2.306025e-08
	-6.02704e-10	-1.969067e-09	-0.1217644	0.003257227	-2.239858e-10	-1.500502e-09	0.01428898	-0.000620808
	0.01415268	-0.001470283	-2.239858e-10	-1.500502e-09	-0.1221478	0.001780549	-3.248153e-09	-1.254012e-08
	-9.269851e-09	-2.306025e-08	0.01428898	-0.000620808	-3.248153e-09	-1.254012e-08	-0.1217086	0.003569968
3.1e+08	-0.1175675	0.01834898	-7.880186e-10	-1.87108e-09	0.01291412	-0.003132919	-1.50293e-08	-2.014404e-08
	-7.880186e-10	-1.87108e-09	-0.1170037	0.02051408	-2.198693e-10	-1.574884e-09	0.01317189	-0.002310809
	0.01291412	-0.003132919	-2.198693e-10	-1.574884e-09	-0.1175751	0.01911137	-4.592897e-09	-1.219812e-08
	-1.50293e-08	-2.014404e-08	0.01317189	-0.002310809	-4.592897e-09	-1.219812e-08	-0.1169033	0.02082523
3.2e+08	-0.1080588	0.03334967	-9.120875e-10	-1.716526e-09	0.01120433	-0.004319106	-1.967462e-08	-1.546191e-08
	-9.120875e-10	-1.716526e-09	-0.1071887	0.03535576	-2.230786e-10	-1.655104e-09	0.01156674	-0.003562225
	0.01120433	-0.004319106	-2.230786e-10	-1.655104e-09	-0.1079102	0.03408508	-5.701387e-09	-1.145727e-08
	-1.967462e-08	-1.546191e-08	0.01156674	-0.003562225	-5.701387e-09	-1.145727e-08	-0.1070469	0.03565113
3.3e+08	-0.09443148	0.0445787	-9.572193e-10	-1.53407e-09	0.009191603	-0.004905453	-2.266196e-08	-9.410884e-09
	-9.572193e-10	-1.53407e-09	-0.09332481	0.04633343	-2.353915e-10	-1.740039e-09	0.00962991	-0.004245196
	0.009191603	-0.004905453	-2.353915e-10	-1.740039e-09	-0.09414032	0.04523971	-6.449449e-09	-1.041234e-08
	-2.266196e-08	-9.410884e-09	0.00962991	-0.004245196	-6.449449e-09	-1.041234e-08	-0.09314933	0.04660021
3.4e+08	-0.07806312	0.05093991	-9.242355e-10	-1.355095e-09	0.007075789	-0.004823106	-2.358057e-08	-2.55588e-09
	-9.242355e-10	-1.355095e-09	-0.07681746	0.05237592	-2.585796e-10	-1.827882e-09	0.007551726	-0.004280674
	0.007075789	-0.004823106	-2.585796e-10	-1.827882e-09	-0.07765734	0.05148516	-6.755878e-09	-9.193772e-09
	-2.358057e-08	-2.55588e-09	0.007551727	-0.004280674	-6.755878e-09	-9.193772e-09	-0.07662016	0.05260419
3.5e+08	-0.06060991	0.05181382	-8.190682e-10	-1.21018e-09	0.00507242	-0.004066837	-2.221577e-08	4.411747e-09
	-8.190682e-10	-1.21018e-09	-0.0593421	0.05289739	-2.950598e-10	-1.91554e-09	0.005541788	-0.003650394
	0.00507242	-0.004066837	-2.950598e-10	-1.91554e-09	-0.0601294	0.05221242	-6.578668e-09	-7.955434e-09
	-2.221577e-08	4.411747e-09	0.005541788	-0.003650394	-6.578668e-09	-7.955434e-09	-0.05913782	0.05308125
3.6e+08	-0.04384919	0.04712751	-6.620267e-10	-1.121455e-09	0.003392982	-0.002700134	-1.858158e-08	1.074255e-08
	-6.620267e-10	-1.121455e-09	-0.04268387	0.04786393	-3.458585e-10	-1.998267e-09	0.00381006	-0.002403198
	0.003392982	-0.002700134	-3.458585e-10	-1.998267e-09	-0.04334214	0.0473624	-5.931884e-09	-6.855254e-09
	-1.858158e-08	1.074255e-08	0.00381006	-0.002403198	-5.931884e-09	-6.855254e-09	-0.04248903	0.04800249
3.7e+08	-0.02950235	0.03737362	-4.787964e-10	-1.098811e-09	0.00222222	-0.0008539033	-1.294076e-08	1.570495e-08
	-4.787964e-10	-1.098811e-09	-0.02855886	0.03780884	-4.097957e-10	-2.070418e-09	0.002544609	-0.0006552175
	0.00222222	-0.0008539033	-4.097957e-10	-2.070418e-09	-0.02902053	0.03744389	-4.879669e-09	-6.037335e-09
	-1.294076e-08	1.570495e-08	0.002544609	-0.0006552175	-4.879669e-09	-6.037335e-09	-0.02838984	0.03790666
3.8e+08	-0.01905478	0.02357148	-2.930862e-10	-1.140828e-09	0.001695002	0.001283337	-5.79669e-09	1.86709e-08
	-2.930862e-10	-1.140828e-09	-0.01843383	0.02378925	-4.829913e-10	-2.126662e-09	0.001888393	0.001418326
	0.001695002	0.001283337	-4.829913e-10	-2.126662e-09	-0.01864811	0.02349294	-3.527203e-09	-5.618111e-09
	-5.79669e-09	1.86709e-08	0.001888393	0.001418326	-3.527203e-09	-5.618111e-09	-0.01830512	0.02385618
3.9e+08	-0.0135934	0.007168618	-1.221051e-10	-1.239038e-09	0.0018767	0.003484477	2.147024e-09	1.919857e-08
	-1.221051e-10	-1.239038e-09	-0.01336502	0.007283143	-5.590619e-10	-2.163421e-09	0.001919039	0.003600594
	0.0018767	0.003484477	-5.590619e-10	-2.163421e-09	-0.0133045	0.006972518	-2.009552e-09	-5.676743e-09
	2.147024e-09	1.919857e-08	0.001919039	0.003600594	-2.009552e-09	-5.676743e-09	-0.01328745	0.007333578
4e+08	-0.0136835	-0.01011023	2.414598e-11	-1.383535e-09	0.002751484	0.005510513	1.005766e-08	1.709843e-08
	2.414598e-11	-1.383535e-09	-0.01387779	-0.009965551	-6.301238e-10	-2.180105e-09	0.002636019	0.005658521
	0.002751484	0.005510513	-6.301238e-10	-2.180105e-09	-0.01354284	-0.0103803	-4.79784e-10	-6.249488e-09
	1.005766e-08	1.709843e-08	0.002636019	0.005658521	-4.79784e-10	-6.249488e-09	-0.01385716	-0.009914023
4.1e+08	-0.01930346	-0.02645016	1.398687e-10	-1.567105e-09	0.004221941	0.007140994	1.706726e-08	1.247022e-08
	1.398687e-10	-1.567105e-09	-0.01990565	-0.0261368	-6.883752e-10	-2.179677e-09	0.003958724	0.007372354
	0.004221941	0.007140994	-6.883752e-10	-2.179677e-09	-0.01932584	-0.02674295	9.026934e-10	-7.326766e-09
	1.706726e-08	1.247022e-08	0.003958724	0.007372354	9.026934e-10	-7.326766e-09	-0.01994178	-0.02606518
4.2e+08	-0.02984821	-0.04014559	2.187413e-10	-1.785799e-09	0.006121035	0.008202733	2.237608e-08	5.702739e-09
	2.187413e-10	-1.785799e-09	-0.03079875	-0.03953508	-7.278225e-10	-2.168335e-09	0.005736622	0.008564027
	0.006121035	0.008202733	-7.278225e-10	-2.168335e-09	-0.03003111	-0.04040786	1.983957e-09	-8.85193e-09
	2.237608e-08	5.702739e-09	0.005736622	0.008564027	1.983957e-09	-8.85193e-09	-0.03088522	-0.03942503
4.3e+08	-0.04420149	-0.04978557	2.504085e-10	-2.035708e-09	0.008234521	0.008591357	2.534951e-08	-2.564745e-09
	2.504085e-10	-2.035708e-09	-0.04540127	-0.0487739	-7.456411e-10	-2.15432e-09	0.0077698	0.009119009
	0.008234521	0.008591357	-7.456411e-10	-2.15432e-09	-0.04452544	-0.0499679	2.62855e-09	-1.072196e-08
	2.534951e-08	-2.564745e-09	0.0077698	0.009119009	2.62855e-09	-1.072196e-08	-0.04552583	-0.04860979
4.4e+08	-0.06086578	-0.0544006	2.205395e-10	-2.307795e-09	0.01032939	0.008281951	2.5594e-08	-1.151328e-08
	2.205395e-10	-2.307795e-09	-0.06218596	-0.05292016	-7.427474e-10	-2.146194e-09	0.009835731	0.008997864
	0.01032939	0.008281951	-7.427474e-10	-2.146194e-09	-0.06129667	-0.05446265	2.733964e-09	-1.279157e-08
	2.5594e-08	-1.151328e-08	0.009835731	0.008997864	2.733964e-09	-1.279157e-08	-0.06233172	-0.05269087
4.5e+08	-0.07813059	-0.05355419	1.149755e-10	-2.583746e-09	0.0121829	0.007327807	2.300192e-08	-2.023558e-08
	1.149755e-10	-2.583746e-09	-0.07942587	-0.05158173	-7.234016e-10	-2.151078e-09	0.01171701	0.008236476
	0.0121829	0.007327807	-7.234016e-10	-2.151078e-09	-0.0786236	-0.05346884	2.245414e-09	-1.488278e-08
	2.300192e-08	-2.023558e-08	0.01171701	0.008236476	2.245414e-09	-1.488278e-08	-0.0795729	-0.05128203
4.6e+08	-0.09425582	-0.04737198	-7.359704e-11	-2.835417e-09	0.01360731	0.005849033	1.77621e-08	-2.783432e-08
	-7.359704e-11	-2.835417e-09	-0.09537949	-0.04493185	-6.9399e-10	-2.173414e-09	0.01322532	0.006936468
	0.01360731	0.005849033	-6.9399e-10	-2.173414e-09	-0.09476024	-0.04712782	1.168072e-09	-1.68008e-08
	1.77621e-08	-2.783432e-08	0.01322532	0.006936468	1.168072e-09	-1.68008e-08	-0.0955069	-0.04456312
4.7e+08	-0.1076479	-0.0365108	-3.392935e-10	-3.028865e-09	0.01446721	0.004014534	1.03381e-08	-3.351496e-08
	-3.392935e-10	-3.028865e-09	-0.1084671	-0.03367317	-6.614377e-10	-2.214592e-09	0.01421875	0.005249172
