!$
! Info: Touchstone file created by Circ.  Input file=Tx_10in_Rx_93ohms_TxVia_10mils_RxVia_20mils.circ
!$
# Hz S RI R 50
0	0.009215657	7.142709e-26	0.9906533	-7.547148e-26	6.524093e-05	9.392641e-24	-6.368058e-05	1.223918e-21
	0.9906532	-7.61041e-26	0.009215257	9.171071e-26	-6.354933e-05	1.208009e-21	6.468643e-05	1.309144e-23
	6.751425e-05	9.414294e-24	-6.349714e-05	1.201668e-21	0.009208077	6.237685e-26	0.9906233	-6.757426e-26
	-6.408911e-05	1.274e-21	6.614241e-05	1.347423e-23	0.9906234	-7.063038e-26	0.009220838	8.746129e-26
1e+07	0.01341799	-0.001015517	0.9805769	-0.1048026	0.0003226011	0.001826489	-0.0001244996	-4.325276e-05
	0.9805769	-0.1048026	0.01341322	-0.001016818	-0.0001245206	-4.322756e-05	0.0003195168	0.001827384
	0.0003226496	0.001826462	-0.0001244837	-4.325028e-05	0.01315682	-0.001022814	0.9808267	-0.1049121
	-0.0001244627	-4.327548e-05	0.0003195496	0.001827372	0.9808267	-0.1049121	0.01315211	-0.00102417
2e+07	0.015519	-0.005413291	0.9613101	-0.2046067	0.0008218695	0.003615901	-5.274889e-05	-0.0001428491
	0.9613101	-0.2046067	0.01550009	-0.005413464	-5.273569e-05	-0.0001428222	0.0008101127	0.00361985
	0.0008218616	0.003615875	-5.273865e-05	-0.0001428503	0.01532136	-0.005336135	0.9614577	-0.2049133
	-5.274323e-05	-0.0001428848	0.0008101101	0.003619828	0.9614577	-0.2049133	0.015303	-0.005336113
3e+07	0.01576964	-0.01091278	0.93298	-0.3006685	0.001721571	0.005167927	-3.948967e-05	-0.0001755444
	0.93298	-0.3006685	0.01572784	-0.0109064	-3.94823e-05	-0.0001755413	0.001696466	0.005178522
	0.001721571	0.005167924	-3.948539e-05	-0.000175545	0.01561823	-0.01082007	0.9330209	-0.3010925
	-3.94925e-05	-0.0001755503	0.001696461	0.005178519	0.9330209	-0.3010925	0.01557861	-0.01081377
4e+07	0.01452341	-0.01654725	0.8956076	-0.3928059	0.002948275	0.006459738	-5.936176e-05	-0.0001883874
	0.8956076	-0.3928059	0.01445187	-0.0165263	-5.936011e-05	-0.0001883872	0.002906326	0.006481857
	0.002948279	0.006459734	-5.935709e-05	-0.0001883869	0.01440704	-0.01645886	0.895532	-0.393318
	-5.935733e-05	-0.0001883836	0.002906326	0.006481858	0.895532	-0.393318	0.01433903	-0.01643908
5e+07	0.01197805	-0.02189951	0.8495107	-0.480319	0.00438905	0.007463658	-6.086967e-05	-0.0002121006
	0.8495107	-0.480319	0.01187245	-0.02185405	-6.086548e-05	-0.0002121137	0.004328315	0.007503177
	0.004389051	0.007463656	-6.086389e-05	-0.000212114	0.01188533	-0.02182521	0.8493083	-0.4808947
	-6.08664e-05	-0.0002120992	0.004328315	0.007503178	0.8493083	-0.4808947	0.0117846	-0.02178192
6e+07	0.008319172	-0.02667625	0.795148	-0.5624518	0.005982295	0.008146414	-5.566905e-05	-0.0002557304
	0.795148	-0.5624518	0.008178142	-0.02659517	-5.56758e-05	-0.0002557698	0.005902585	0.00820971
	0.005982295	0.008146415	-5.567865e-05	-0.0002557682	0.008239876	-0.02662037	0.7948109	-0.5630672
	-5.567446e-05	-0.0002557301	0.005902581	0.008209711	0.7948109	-0.5630672	0.00810554	-0.02654286
7e+07	0.003747236	-0.03065473	0.7330809	-0.6384653	0.007660137	0.008486702	-5.604507e-05	-0.0003224264
	0.7330809	-0.6384653	0.003572589	-0.03052664	-5.608339e-05	-0.0003224873	0.007563071	0.008580183
	0.007660137	0.008486706	-5.608913e-05	-0.0003224818	0.003672357	-0.03061868	0.7326038	-0.6390965
	-5.605903e-05	-0.0003224229	0.007563066	0.008580186	0.7326038	-0.6390965	0.003506205	-0.03049645
8e+07	-0.001518399	-0.03366908	0.6639543	-0.7076677	0.009351578	0.008476956	-7.379573e-05	-0.0004104749
	0.6639543	-0.7076677	-0.001721694	-0.03348313	-7.38744e-05	-0.0004105375	0.009240551	0.008606611
	0.00935158	0.00847696	-7.387993e-05	-0.0004105293	-0.001597053	-0.0336524	0.6633354	-0.7082906
	-7.381249e-05	-0.0004104671	0.009240546	0.008606615	0.6633354	-0.7082906	-0.00179082	-0.03347526
9e+07	-0.00724163	-0.03560556	0.588482	-0.7694316	0.01098563	0.00812391	-0.0001191376	-0.0005139855
	0.588482	-0.7694316	-0.00746568	-0.03535223	-0.0001192457	-0.0005140292	0.01086568	0.00829488
	0.01098563	0.008123913	-0.0001192486	-0.0005140222	-0.007331852	-0.03560645	0.587723	-0.7700219
	-0.0001191494	-0.0005139773	0.01086567	0.008294884	0.587723	-0.7700219	-0.007546363	-0.03536478
1e+08	-0.01316004	-0.03639165	0.5074148	-0.8232155	0.01249422	0.007447873	-0.000199419	-0.0006231964
	0.5074148	-0.8232155	-0.01339437	-0.03606349	-0.0001995295	-0.000623214	0.01237182	0.007664056
	0.01249423	0.007447873	-0.0001995294	-0.0006232143	-0.01327171	-0.03640875	0.506525	-0.823747
	-0.000199419	-0.0006231967	0.01237182	0.007664056	0.506525	-0.823747	-0.01349717	-0.03609428
1.1e+08	-0.01902536	-0.03614799	0.4215728	-0.868397	0.01381362	0.006485043	-0.0003175499	-0.0007290908
	0.4215728	-0.868397	-0.01925827	-0.03573876	-0.0003177141	-0.0007290807	0.01369585	0.006748378
	0.01381362	0.006485043	-0.0003177141	-0.0007290809	-0.01916724	-0.03616188	0.4205649	-0.8688642
	-0.0003175499	-0.0007290911	0.01369585	0.006748378	0.4205649	-0.8688642	-0.01939184	-0.03576895
1.2e+08	-0.0247213	-0.03482246	0.3319599	-0.9046685	0.01489344	0.005281863	-0.0004780058	-0.000819157
	0.3319599	-0.9046685	-0.0249382	-0.03433056	-0.0004782062	-0.0008191008	0.01478881	0.005592974
	0.01489344	0.005281863	-0.0004782063	-0.000819101	-0.02488672	-0.0348233	0.3308331	-0.9050554
	-0.0004780058	-0.0008191571	0.01478881	0.005592974	0.3308331	-0.9050554	-0.02509588	-0.03435045
1.3e+08	-0.03000626	-0.03246975	0.2394521	-0.9317595	0.01569147	0.003892654	-0.0006774822	-0.0008793341
	0.2394521	-0.9317595	-0.0301922	-0.0318972	-0.0006777028	-0.0008792216	0.01560864	0.004249935
	0.01569147	0.003892654	-0.0006777029	-0.0008792218	-0.03019011	-0.03245124	0.2382118	-0.9320474
	-0.0006774823	-0.0008793342	0.01560864	0.004249935	0.2382118	-0.9320474	-0.03036917	-0.03190064
1.4e+08	-0.03468058	-0.02920133	0.144966	-0.9494711	0.01617773	0.002379143	-0.0009088356	-0.0008972873
	0.144966	-0.9494711	-0.03482109	-0.02855371	-0.0009090618	-0.0008971125	0.01612502	0.002778804
	0.01617773	0.002379143	-0.0009090619	-0.0008971126	-0.03487718	-0.02915887	0.143621	-0.9496418
	-0.0009088357	-0.0008972874	0.01612502	0.002778804	0.143621	-0.9496418	-0.03501214	-0.02853618
1.5e+08	-0.0385777	-0.02516562	0.04943109	-0.9576923	0.01633542	0.0008073912	-0.001161452	-0.000863051
	0.04943109	-0.9576923	-0.03865953	-0.02445198	-0.00116167	-0.0008628102	0.01632029	0.001243584
	0.01633542	0.0008073911	-0.00116167	-0.0008628102	-0.03878082	-0.02509628	0.04799306	-0.957728
	-0.001161452	-0.0008630511	0.01632029	0.001243584	0.04799306	-0.957728	-0.038859	-0.02441041
1.6e+08	-0.04156772	-0.02053934	-0.04622043	-0.9564002	0.01616135	-0.0007549713	-0.001422061	-0.0007698935
	-0.04622043	-0.9564002	-0.04157959	-0.01977192	-0.001422256	-0.0007695849	0.01618999	-0.0002899445
	0.01616135	-0.0007549714	-0.001422256	-0.0007695849	-0.04177082	-0.02044183	-0.04773741	-0.9562847
	-0.001422061	-0.0007698935	0.01618999	-0.0002899445	-0.04773741	-0.9562847	-0.04178154	-0.01970469
1.7e+08	-0.04356064	-0.01551913	-0.1410626	-0.94566	0.01566589	-0.002241474	-0.001675776	-0.0006149262
	-0.1410626	-0.94566	-0.04349398	-0.01471292	-0.001675933	-0.0006145509	0.01574276	-0.001756858
	0.01566589	-0.002241474	-0.001675933	-0.000614551	-0.04375724	-0.01539376	-0.1426421	-0.9453785
	-0.001675776	-0.0006149262	0.01574276	-0.001756858	-0.1426421	-0.9453785	-0.04369242	-0.01461981
1.8e+08	-0.04450841	-0.01031314	-0.2341835	-0.9256233	0.01487233	-0.003589422	-0.001907254	-0.0003993927
	-0.2341835	-0.9256233	-0.04435802	-0.00948528	-0.001907356	-0.0003989552	0.01499981	-0.003095615
	0.01487233	-0.003589422	-0.001907356	-0.0003989553	-0.04469238	-0.01016174	-0.2358069	-0.9251626
	-0.001907254	-0.0003993927	0.01499981	-0.003095615	-0.2358069	-0.9251626	-0.04454719	-0.009367444
1.9e+08	-0.04440561	-0.005132602	-0.3246926	-0.8965254	0.01381581	-0.004742312	-0.00210188	-0.0001286127
	-0.3246926	-0.8965254	-0.04417012	-0.00430165	-0.002101914	-0.0001281211	0.01399394	-0.004250397
	0.01381581	-0.004742312	-0.002101914	-0.0001281211	-0.04457149	-0.004958343	-0.3263393	-0.8958748
	-0.00210188	-0.0001286127	0.01399394	-0.004250397	-0.3263393	-0.8958748	-0.04434473	-0.004161475
2e+08	-0.04328857	-0.0001835638	-0.4117276	-0.8586836	0.01254184	-0.005651982	-0.002246874	0.0001884067
	-0.4117276	-0.8586836	-0.04297081	0.0006313763	-0.002246825	0.0001889405	0.01276815	-0.005173196
	0.01254184	-0.005651982	-0.002246825	0.0001889405	-0.04343181	9.222851e-06	-0.4133755	-0.8578343
	-0.002246874	0.0001884067	0.01276815	-0.005173196	-0.4133755	-0.8578343	-0.04312627	0.0007903964
2.1e+08	-0.0412331	0.004340988	-0.4944615	-0.8124935	0.01110439	-0.006280425	-0.002332224	0.0005396521
	-0.4944615	-0.8124935	-0.04084024	0.00512121	-0.002332082	0.000540213	0.01137388	-0.005825592
	0.01110439	-0.006280425	-0.002332082	0.0005402129	-0.04135024	0.004547064	-0.496087	-0.8114395
	-0.002332224	0.000539652	0.01137388	-0.005825592	-0.496087	-0.8114395	-0.04097287	0.00529466
2.2e+08	-0.03835081	0.008268357	-0.5721088	-0.7584262	0.009563794	-0.006601215	-0.002351384	0.0009110149
	-0.5721088	-0.7584262	-0.03789428	0.00899653	-0.002351141	0.0009115854	0.009868961	-0.006180171
	0.009563794	-0.006601215	-0.002351141	0.0009115854	-0.03843965	0.008481835	-0.5736871	-0.7571643
	-0.002351384	0.0009110149	0.009868961	-0.006180171	-0.5736871	-0.7571643	-0.03800147	0.009179287
2.3e+08	-0.03478417	0.01145249	-0.6439321	-0.6970249	0.007984291	-0.006600501	-0.00230167	0.001287352
	-0.6439321	-0.6970249	-0.03427942	0.01211362	-0.002301325	0.001287913	0.008315388	-0.006221534
	0.007984291	-0.006600501	-0.002301325	0.001287913	-0.03484388	0.01166712	-0.6454376	-0.6955545
	-0.00230167	0.001287352	0.008315388	-0.006221534	-0.6454376	-0.6955545	-0.03435972	0.0123001
2.4e+08	-0.0307006	0.01377928	-0.7092481	-0.6289	0.00643154	-0.006277529	-0.00218434	0.001653601
	-0.7092481	-0.6289	-0.03016656	0.01436163	-0.002183894	0.001654134	0.00677689	-0.005946875
	0.00643154	-0.00627753	-0.002183894	0.001654134	-0.03073173	0.01398874	-0.7106548	-0.6272237
	-0.00218434	0.001653601	0.00677689	-0.005946875	-0.7106548	-0.6272237	-0.03021977	0.01454603
2.5e+08	-0.02628555	0.01517057	-0.7674344	-0.5547257	0.004969997	-0.00564469	-0.002004341	0.00199586
	-0.7674344	-0.5547257	-0.02574394	0.01566643	-0.0020038	0.001996348	0.00531644	-0.005366093
	0.004969997	-0.00564469	-0.0020038	0.001996348	-0.02629002	0.01536876	-0.7687158	-0.5528491
	-0.002004341	0.00199586	0.00531644	-0.005366093	-0.7687158	-0.5528491	-0.02577112	0.01584302
2.6e+08	-0.02173508	0.01558687	-0.8179346	-0.4752337	0.003660342	-0.004727044	-0.001769774	0.002302335
	-0.8179346	-0.4752337	-0.02120951	0.0159932	-0.001769147	0.002302762	0.00399378	-0.004501424
	0.003660342	-0.004727044	-0.001769147	0.002302762	-0.02171612	0.01576813	-0.8190646	-0.4731657
	-0.001769774	0.002302335	0.00399378	-0.004501424	-0.8190646	-0.4731657	-0.02121297	0.01615651
2.7e+08	-0.01724803	0.01502831	-0.8602652	-0.3912082	0.002557018	-0.003561366	-0.001491102	0.002564078
	-0.8602652	-0.3912082	-0.01676302	0.0153472	-0.001490401	0.002564433	0.002863024	-0.003386602
	0.002557018	-0.003561366	-0.001490401	0.002564433	-0.01721004	0.01518783	-0.8612181	-0.3889608
	-0.001491102	0.002564078	0.002863024	-0.003386602	-0.8612181	-0.3889608	-0.01674617	0.01549236
2.8e+08	-0.01301818	0.01353444	-0.8940203	-0.3034788	0.001705985	-0.002194703	-0.001180201	0.002775458
	-0.8940203	-0.3034788	-0.01259801	0.01377329	-0.001179439	0.002775733	0.001970467	-0.002065549
	0.001705985	-0.002194703	-0.001179439	0.002775733	-0.01296654	0.0136684	-0.8947713	-0.3010673
	-0.001180201	0.002775458	0.001970467	-0.002065549	-0.8947713	-0.3010673	-0.01256526	0.01389627
2.9e+08	-0.009226564	0.01118222	-0.9188768	-0.2129132	0.001142782	-0.0006824952	-0.0008493207	0.002934323
	-0.9188768	-0.2129132	-0.008894121	0.01135373	-0.0008485109	0.002934513	0.001352659	-0.0005906488
	0.001142782	-0.0006824952	-0.0008485109	0.002934513	-0.009167416	0.01128798	-0.9194025	-0.2103563
	-0.0008493207	0.002934323	0.001352659	-0.0005906488	-0.9194025	-0.2103563	-0.008850687	0.01145147
3e+08	-0.006034421	0.008082633	-0.934599	-0.1204094	0.0008909947	0.0009136729	-0.0005100614	0.003041848
	-0.934599	-0.1204094	-0.005810046	0.008204519	-0.0005092166	0.003041952	0.00103486	0.0009793683
	0.0008909947	0.0009136729	-0.0005092166	0.003041952	-0.005974396	0.008158924	-0.9348776	-0.1177286
	-0.0005100614	0.003041848	0.00103486	0.0009793682	-0.9348776	-0.1177286	-0.005761721	0.00827511
3.1e+08	-0.00357689	0.00437598	-0.9410419	-0.02688619	0.0009611964	0.002528621	-0.0001724577	0.003102089
	-0.9410419	-0.02688619	-0.00347728	0.004470435	-0.0001715883	0.003102108	0.001029932	0.00258182
	0.0009611964	0.002528621	-0.0001715883	0.003102108	-0.003522823	0.00442294	-0.9410538	-0.02410615
	-0.0001724577	0.003102089	0.001029932	0.00258182	-0.9410538	-0.02410615	-0.003430185	0.004513216
3.2e+08	-0.001957817	0.0002259861	-0.9381537	0.06672574	0.001350435	0.004096305	0.0001557496	0.003121287
	-0.9381537	0.06672574	-0.001995054	0.000318899	0.000156636	0.003121225	0.001337753	0.00415268
	0.001350435	0.004096305	0.000156636	0.003121225	-0.001916443	0.0002452075	-0.9378816	0.06957769
	0.0001557495	0.003121287	0.001337753	0.00415268	-0.9378816	0.06957769	-0.001955373	0.0003345123
3.3e+08	-0.001245837	-0.004186975	-0.9259773	0.1594941	0.002042299	0.005552628	0.0004695857	0.003106997
	-0.9259773	0.1594941	-0.001426584	-0.004067003	0.0004704849	0.003106858	0.001945177	0.005629263
	0.002042299	0.005552628	0.0004704849	0.003106858	-0.001223483	-0.004192487	-0.9254071	0.1623881
	0.0004695857	0.003106997	0.001945177	0.005629263	-0.9254071	0.1623881	-0.001400285	-0.004076621
3.4e+08	-0.001471905	-0.008673293	-0.9046506	0.2504952	0.003007575	0.006838183	0.0007670205	0.003067122
	-0.9046506	0.2504952	-0.001796819	-0.008496107	0.0007679311	0.003066909	0.002826562	0.006952891
	0.003007575	0.006838183	0.0007679311	0.003066909	-0.001474196	-0.008699225	-0.9037711	0.2533993
	0.0007670205	0.003067122	0.002826562	0.006952891	-0.9037711	0.2533993	-0.001789383	-0.008527787
3.5e+08	-0.002628376	-0.01304186	-0.874405	0.3388242	0.004205482	0.00790082	0.001048837	0.003008953
	-0.874405	0.3388242	-0.003091768	-0.01277703	0.001049761	0.003008666	0.003944853	0.00807138
	0.004205482	0.00790082	0.001049761	0.003008666	-0.002659967	-0.01308275	-0.8732088	0.3417044
	0.001048837	0.003008953	0.003944853	0.00807138	-0.8732088	0.3417044	-0.003107939	-0.0128265
3.6e+08	-0.004669655	-0.01710779	-0.8355633	0.4236051	0.005585417	0.008697893	0.001318213	0.002938305
	-0.8355633	0.4236051	-0.005259432	-0.01672596	0.001319152	0.002937943	0.005253176	0.008941268
	0.005585417	0.008697893	0.001319152	0.002937943	-0.004733998	-0.01715727	-0.8340467	0.4264263
	0.001318213	0.002938305	0.005253176	0.008941268	-0.8340467	0.4264263	-0.005302993	-0.01678801
3.7e+08	-0.007514388	-0.02069985	-0.7885356	0.5040012	0.007089153	0.00919809	0.001580052	0.002858841
	-0.7885356	0.5040012	-0.00821228	-0.0201741	0.00158101	0.002858397	0.006696856	0.009529638
	0.007089153	0.00919809	0.00158101	0.002858397	-0.007613555	-0.02075088	-0.786699	0.506727
	0.001580052	0.002858841	0.006696856	0.009529638	-0.786699	0.506727	-0.008285869	-0.02024279
3.8e+08	-0.01104907	-0.0236672	-0.7338146	0.5792234	0.008653366	0.009382751	0.001840147	0.002771629
	-0.7338146	0.5792234	-0.01183115	-0.02297435	0.001841127	0.002771094	0.00821579	0.009815477
	0.008653366	0.009382751	0.001841127	0.002771094	-0.01118363	-0.02371239	-0.7316625	0.5818171
	0.001840147	0.002771629	0.00821579	0.009815477	-0.7316625	0.5818171	-0.01193614	-0.0230433
3.9e+08	-0.01513294	-0.02588529	-0.6719692	0.6485392	0.01021238	0.009246614	0.002104246	0.002675002
	-0.6719692	0.6485392	-0.01597042	-0.0250071	0.002105247	0.002674361	0.009747024	0.009790498
	0.01021238	0.009246614	0.002105247	0.002674361	-0.01530191	-0.02591721	-0.6695104	0.6509643
	0.002104246	0.002675002	0.009747024	0.009790498	-0.6695104	0.6509643	-0.0161068	-0.0250697
4e+08	-0.01960385	-0.0272606	-0.6036378	0.7112801	0.01170099	0.008797962	0.002377124	0.002564708
	-0.6036378	0.7112801	-0.02046411	-0.02618474	0.002378141	0.002563945	0.01122744	0.009459392
	0.01170099	0.008797962	0.002378141	0.002563945	-0.0198047	-0.02727213	-0.6008854	0.7135004
	0.002377124	0.002564708	0.01122744	0.009459392	-0.6008854	0.7135004	-0.02063055	-0.02623453
4.1e+08	-0.02428502	-0.02773405	-0.5295203	0.7668481	0.01305723	0.008058177	0.002661746	0.00243435
	-0.5295203	0.7668481	-0.02513288	-0.02645496	0.002662769	0.002433445	0.01259642	0.008839513
	0.01305723	0.008058177	0.002662769	0.002433445	-0.02451376	-0.02771867	-0.5264917	0.7688286
	0.002661746	0.00243435	0.01259642	0.008839513	-0.5264917	0.7688286	-0.02532668	-0.02648581
4.2e+08	-0.02899213	-0.02728305	-0.45037	0.8147206	0.01422499	0.007060728	0.002958607	0.002276059
	-0.45037	0.8147206	-0.02979126	-0.02580241	0.00295962	0.002274993	0.01379834	0.007960032
	0.01422499	0.007060728	0.00295962	0.002274993	-0.02924347	-0.02723516	-0.4470868	0.8164278
	0.002958607	0.002276059	0.01379834	0.007960032	-0.4470868	0.8164278	-0.03000852	-0.02580885
4.3e+08	-0.0335408	-0.02592204	-0.3669849	0.8544552	0.01515628	0.005849653	0.003265318	0.00208135
	-0.3669849	0.8544552	-0.03425522	-0.02424899	0.003266296	0.002080106	0.01478483	0.006860594
	0.01515628	0.005849653	0.003266296	0.002080106	-0.03380834	-0.02583719	-0.3634726	0.8558578
	0.003265318	0.00208135	0.01478483	0.006860594	-0.3634726	0.8558578	-0.03449095	-0.02422646
4.4e+08	-0.03775379	-0.02370154	-0.2801992	0.8856925	0.0158132	0.00447763	0.003576454	0.001842064
	-0.2801992	0.8856925	-0.03834943	-0.02185262	0.003577369	0.001840629	0.01551664	0.005589576
	0.0158132	0.00447763	0.003577369	0.001840629	-0.03803029	-0.02357669	-0.2764869	0.8867618
	0.003576454	0.001842064	0.01551664	0.005589576	-0.2764869	0.8867618	-0.03859779	-0.02179765
4.5e+08	-0.04146792	-0.02070589	-0.1908741	0.9081585	0.01616934	0.003003715	0.003883722	0.00155132
	-0.1908741	0.9081585	-0.04191414	-0.0187046	0.003884537	0.001549685	0.01596521	0.004202015
	0.01616934	0.003003715	0.003884537	0.001549685	-0.04174562	-0.02053953	-0.1869945	0.9088685
	0.003883722	0.00155132	0.01596521	0.004202015	-0.1869945	0.9088685	-0.04216868	-0.01861497
4.6e+08	-0.04454038	-0.01704966	-0.09988956	0.9216655	0.01621082	0.001490866	0.00417638	0.00120438
	-0.09988956	0.9216655	-0.04481139	-0.01492571	0.004177056	0.001202546	0.01611361	0.002757318
	0.01621082	0.001490866	0.004177056	0.001202546	-0.04481132	-0.0168419	-0.0958784	0.9219937
	0.00417638	0.00120438	0.01611361	0.002757318	-0.0958784	0.9219937	-0.04506532	-0.01480058
4.7e+08	-0.04685406	-0.01287294	-0.008135559	0.9261125	0.01593668	3.35386e-06	0.004441929	0.0007993516
	-0.008135559	0.9261125	-0.04693021	-0.01066126	0.004442424	0.0007973278	0.01595717	0.001316835
	0.01593668	3.353861e-06	0.004442424	0.0007973278	-0.04711038	-0.01262552	-0.004031406	0.9260401
	0.004441929	0.0007993516	0.01595717	0.001316835	-0.004031406	0.9260401	-0.04717665	-0.01050116
4.8e+08	-0.04832198	-0.00833571	0.08349566	0.9214852	0.01535886	-0.001395835	0.004666964	0.0003376675
	0.08349566	0.9214852	-0.04819079	-0.006075154	0.004667235	0.0003354722	0.01550347	-5.858408e-05
	0.01535886	-0.001395835	0.004667235	0.0003354722	-0.04855628	-0.008051972	0.08765198	0.9209974
	0.004666964	0.0003376675	0.01550347	-5.858408e-05	0.08765198	0.9209974	-0.04842307	-0.005882038
4.9e+08	-0.04889046	-0.003611565	0.1741177	0.9078546	0.01450159	-0.002647508	0.004838145	-0.0001757061
	0.1741177	0.9078546	-0.04854737	-0.001343421	0.004838154	-0.0001780446	0.01477201	-0.001310988
	0.01450159	-0.002647508	0.004838154	-0.0001780446	-0.0490961	-0.003296325	0.1782834	0.9069408
	0.004838145	-0.0001757061	0.01477201	-0.001310988	0.1782834	0.9069408	-0.04875934	-0.001120563
5e+08	-0.04854098	0.001119101	0.2628574	0.8853758	0.01340036	-0.00369859	0.004943193	-0.0007323502
	0.2628574	0.8853758	-0.04798989	0.003352743	0.004942905	-0.0007347945	0.01379329	-0.002387565
	0.01340036	-0.00369859	0.004942905	-0.0007347945	-0.04871241	0.001459718	0.2669883	0.8840299
	0.004943193	-0.0007323502	0.01379329	-0.002387565	0.2669883	0.8840299	-0.04817611	0.003600849
