!$
! Info: Touchstone file created by Circ.  Input file=Tx_14in_Rx_93ohms_TxVia_10mils_RxVia_20mils.circ
!$
# Hz S RI R 50
0	0.01280211	9.441777e-26	0.9870668	-1.023266e-25	8.612232e-05	1.306843e-23	-8.456673e-05	1.219487e-21
	0.9870668	-1.031415e-25	0.0128017	1.226144e-25	-8.443546e-05	1.203635e-21	8.557731e-05	1.821987e-23
	8.839537e-05	1.309848e-23	-8.438328e-05	1.197318e-21	0.01279432	8.249634e-26	0.987037	-9.18516e-26
	-8.497361e-05	1.269388e-21	8.703194e-05	1.875261e-23	0.987037	-9.591473e-26	0.01280724	1.169054e-25
1e+07	0.01850503	-0.002212332	0.970034	-0.1448827	0.0005394146	0.002463647	-0.000163804	-2.215993e-05
	0.970034	-0.1448827	0.01849834	-0.002213859	-0.0001638233	-2.213389e-05	0.000535183	0.002465069
	0.0005394634	0.002463621	-0.0001637876	-2.215798e-05	0.01813751	-0.002207926	0.9703846	-0.1450129
	-0.0001637682	-2.218402e-05	0.0005352162	0.002465058	0.9703846	-0.1450129	0.0181309	-0.002209532
2e+07	0.02066397	-0.009234038	0.934865	-0.2810528	0.001499194	0.004780689	-5.13741e-05	-0.0001344425
	0.934865	-0.2810528	0.02063796	-0.009232156	-5.135627e-05	-0.0001344173	0.001483462	0.004787436
	0.001499186	0.004780663	-5.136148e-05	-0.0001344449	0.02039538	-0.009107449	0.9350612	-0.2814235
	-5.13714e-05	-0.0001344783	0.001483459	0.004787414	0.9350612	-0.2814235	0.02037015	-0.009105334
3e+07	0.01951033	-0.01746478	0.8823283	-0.4091063	0.003112625	0.006588132	-3.477439e-06	-0.0001695615
	0.8823283	-0.4091063	0.01945469	-0.01744928	-3.464381e-06	-0.0001695656	0.003080284	0.006606637
	0.003112626	0.006588128	-3.467883e-06	-0.000169569	0.01931273	-0.01731663	0.8823657	-0.4095986
	-3.480937e-06	-0.000169567	0.003080279	0.006606634	0.8823657	-0.4095986	0.01926005	-0.01730158
4e+07	0.01568568	-0.02523609	0.8131665	-0.5276739	0.005190763	0.007801926	4.009912e-06	-0.0001973759
	0.8131665	-0.5276739	0.01559489	-0.02519288	4.012872e-06	-0.0001973898	0.005139573	0.007840399
	0.005190768	0.007801922	4.015884e-06	-0.0001973899	0.01553978	-0.02509522	0.8130349	-0.5282376
	4.014843e-06	-0.0001973729	0.005139572	0.0078404	0.8130349	-0.5282376	0.01545344	-0.02505432
5e+07	0.009722006	-0.03172477	0.7287259	-0.6348011	0.007482913	0.008375863	2.151995e-05	-0.0002688191
	0.7287259	-0.6348011	0.009596411	-0.03163802	2.151527e-05	-0.0002688512	0.007414096	0.008443222
	0.007482914	0.00837586	2.151677e-05	-0.0002688518	0.009608966	-0.03160397	0.7284181	-0.635393
	2.152341e-05	-0.0002688184	0.007414096	0.008443222	0.7284181	-0.635393	0.009489166	-0.03152133
6e+07	0.002209973	-0.03638493	0.6307152	-0.7286274	0.009804367	0.00828448	1.444708e-05	-0.0003871631
	0.6307152	-0.7286274	0.002056156	-0.03623935	1.441365e-05	-0.0003872204	0.009722665	0.008388989
	0.009804367	0.008284482	1.441129e-05	-0.0003872182	0.002113423	-0.0362879	0.6302299	-0.7292062
	1.444193e-05	-0.0003871615	0.009722662	0.00838899	0.6302299	-0.7292062	0.00196704	-0.0361489
7e+07	-0.006202165	-0.03888868	0.5211195	-0.8075178	0.01197069	0.007553435	-4.701361e-05	-0.0005380489
	0.5211195	-0.8075178	-0.006371878	-0.03867174	-4.709989e-05	-0.0005381128	0.01188395	0.007701474
	0.01197069	0.007553439	-4.710386e-05	-0.0005381061	-0.00629552	-0.03881373	0.5204623	-0.8080435
	-4.702593e-05	-0.0005380418	0.01188395	0.007701476	0.5204623	-0.8080435	-0.006456807	-0.03860696
8e+07	-0.01484268	-0.03911164	0.4021363	-0.8701221	0.01381296	0.006257703	-0.0001822627	-0.0006943188
	0.4021363	-0.8701221	-0.01501146	-0.03881554	-0.0001824024	-0.0006943543	0.01373137	0.006452756
	0.01381296	0.006257708	-0.0001824051	-0.0006943449	-0.01494308	-0.03905375	0.4013202	-0.8705571
	-0.000182276	-0.0006943063	0.01373136	0.00645276	0.4013202	-0.8705571	-0.01510396	-0.03877173
9e+07	-0.02305793	-0.03712047	0.2761158	-0.9154087	0.01519103	0.004514945	-0.0003965445	-0.0008218922
	0.2761158	-0.9154087	-0.02320628	-0.03674352	-0.0003967092	-0.0008218742	0.01512606	0.004756875
	0.01519103	0.004514948	-0.0003967094	-0.0008218667	-0.02317292	-0.03707266	0.2751616	-0.9157183
	-0.0003965526	-0.0008218806	0.01512606	0.004756879	0.2751616	-0.9157183	-0.02331528	-0.03671285
1e+08	-0.03023489	-0.03315049	0.1454741	-0.9426826	0.01600349	0.002474774	-0.00067892	-0.0008858843
	0.1454741	-0.9426826	-0.03034274	-0.03269791	-0.0006790673	-0.0008858171	0.01596666	0.002759449
	0.01600349	0.002474774	-0.0006790674	-0.0008858173	-0.03037267	-0.03310548	0.1444151	-0.9428362
	-0.0006789201	-0.0008858846	0.01596666	0.002759449	0.1444151	-0.9428362	-0.03047692	-0.03267153
1.1e+08	-0.03593984	-0.02772638	0.01279768	-0.9513879	0.01619416	0.0003122774	-0.0010055	-0.0008631827
	0.01279768	-0.9513879	-0.03598937	-0.02720866	-0.001005668	-0.0008630489	0.01619522	0.0006312643
	0.01619416	0.0003122772	-0.001005668	-0.0008630491	-0.0360987	-0.0276588	0.01166197	-0.9513868
	-0.0010055	-0.0008631829	0.01619522	0.0006312642	0.01166197	-0.9513868	-0.03614693	-0.02716152
1.2e+08	-0.03991314	-0.02118282	-0.1192546	-0.9416979	0.01576364	-0.001796318	-0.001348457	-0.0007331626
	-0.1192546	-0.9416979	-0.03988936	-0.02061854	-0.001348614	-0.0007329543	0.01581027	-0.001454379
	0.01576364	-0.001796318	-0.001348614	-0.0007329544	-0.04007687	-0.02108673	-0.1204521	-0.9415239
	-0.001348458	-0.0007331628	0.01581027	-0.001454379	-0.1204521	-0.9415239	-0.04005424	-0.02054446
1.3e+08	-0.04190837	-0.01405328	-0.2482503	-0.9139673	0.01475564	-0.00368322	-0.001667971	-0.0004899944
	-0.2482503	-0.9139673	-0.04180264	-0.01346586	-0.001668086	-0.0004897156	0.01485168	-0.003332328
	0.01475564	-0.00368322	-0.001668086	-0.0004897157	-0.04206482	-0.01392833	-0.2494847	-0.9136038
	-0.001667971	-0.0004899945	0.01485168	-0.003332328	-0.2494847	-0.9136038	-0.04196302	-0.01336402
1.4e+08	-0.04186784	-0.006909563	-0.3718021	-0.868855	0.01325797	-0.005199912	-0.00192529	-0.0001435672
	-0.3718021	-0.868855	-0.0416792	-0.00632507	-0.001925338	-0.0001432314	0.01340269	-0.004855373
	0.01325797	-0.005199912	-0.001925338	-0.0001432314	-0.04200653	-0.00675932	-0.3730441	-0.8682893
	-0.00192529	-0.0001435673	0.01340269	-0.004855373	-0.3730441	-0.8682893	-0.04182487	-0.006198276
1.5e+08	-0.03989767	-0.0003075809	-0.4876354	-0.8073199	0.01139483	-0.006228491	-0.00208791	0.0002826041
	-0.4876354	-0.8073199	-0.03963351	0.0002477175	-0.002087873	0.0002829763	0.01158259	-0.005905419
	0.01139483	-0.006228491	-0.002087873	0.0002829763	-0.04001038	-0.0001387894	-0.4888526	-0.8065439
	-0.00208791	0.0002826041	0.01158259	-0.005905418	-0.4888526	-0.8065439	-0.03975624	0.0003936831
1.6e+08	-0.03625158	0.00525561	-0.5936245	-0.7306053	0.009316987	-0.006690016	-0.002134123	0.0007550282
	-0.5936245	-0.7306053	-0.03592757	0.005757836	-0.00213399	0.0007554107	0.009537385	-0.006401786
	0.009316987	-0.006690017	-0.00213399	0.0007554107	-0.03633296	0.005433924	-0.5947825	-0.7296158
	-0.002134124	0.0007550282	0.009537385	-0.006401786	-0.5947825	-0.7296158	-0.03602165	0.005914981
1.7e+08	-0.03130634	0.00937825	-0.687827	-0.6402194	0.007190291	-0.006549991	-0.002055749	0.001235268
	-0.687827	-0.6402194	-0.03094559	0.009808445	-0.002055518	0.001235633	0.007428736	-0.006306762
	0.007190291	-0.006549991	-0.002055518	0.001235633	-0.03135436	0.009555808	-0.6888897	-0.6390188
	-0.002055749	0.001235268	0.007428736	-0.006306762	-0.6888897	-0.6390188	-0.03100822	0.009967426
1.8e+08	-0.02552947	0.01178208	-0.7685145	-0.5379131	0.005183158	-0.00582068	-0.001858653	0.00168552
	-0.7685145	-0.5379131	-0.02516093	0.01212844	-0.001858333	0.001685842	0.005421928	-0.005628133
	0.005183158	-0.00582068	-0.001858334	0.001685842	-0.02554553	0.01194842	-0.7694456	-0.5365097
	-0.001858653	0.00168552	0.005421928	-0.005628133	-0.7694456	-0.5365097	-0.02519242	0.01227948
1.9e+08	-0.01944129	0.01233075	-0.8342043	-0.4256546	0.003453858	-0.004560093	-0.001561047	0.002073834
	-0.8342043	-0.4256546	-0.0190975	0.01259036	-0.001560655	0.002074092	0.003673499	-0.004418504
	0.003453858	-0.004560093	-0.001560655	0.002074092	-0.01943004	0.01247629	-0.8349678	-0.4240626
	-0.001561047	0.002073834	0.003673499	-0.004418504	-0.8349678	-0.4240626	-0.01910119	0.01272418
2e+08	-0.01357375	0.01103734	-0.8836879	-0.3055987	0.002138399	-0.00286761	-0.001189918	0.002378119
	-0.8836879	-0.3055987	-0.01328812	0.0112172	-0.001189474	0.002378301	0.00231939	-0.002771369
	0.002138399	-0.00286761	-0.001189474	0.002378301	-0.0135427	0.0111543	-0.8842492	-0.3038382
	-0.001189918	0.002378119	0.00231939	-0.002771369	-0.8842492	-0.3038382	-0.01327007	0.01132589
2.1e+08	-0.008429229	0.00806056	-0.9160581	-0.1800512	0.001339896	-0.0008764315	-0.0007762484	0.002588326
	-0.9160581	-0.1800512	-0.008232952	0.008177742	-0.0007757741	0.002588429	0.001464439	-0.0008140721
	0.001339896	-0.0008764315	-0.0007757741	0.002588429	-0.008388002	0.008143693	-0.9163848	-0.1781488
	-0.0007762484	0.002588326	0.001464439	-0.0008140721	-0.9163848	-0.1781488	-0.008201443	0.008255484
2.2e+08	-0.004441919	0.003689854	-0.9307311	-0.05142865	0.001120308	0.001256737	-0.000349887	0.002706495
	-0.9307311	-0.05142865	-0.004360999	0.003770756	-0.0003494006	0.002706523	0.001174075	0.001301965
	0.001120308	0.001256737	-0.0003494006	0.002706523	-0.00440144	0.003737007	-0.9307944	-0.04941651
	-0.000349887	0.002706495	0.001174075	0.001301965	-0.9307944	-0.04941651	-0.004325784	0.0038144
2.3e+08	-0.001945099	-0.001679336	-0.9274645	0.07778808	0.001495285	0.003364056	6.504591e-05	0.002744722
	-0.9274645	0.07778808	-0.001997553	-0.001600643	6.553235e-05	0.002744685	0.001468973	0.003413096
	0.001495285	0.003364056	6.553234e-05	0.002744685	-0.001916607	-0.001666986	-0.9272398	0.07987221
	6.50459e-05	0.002744722	0.001468973	0.003413096	-0.9272398	0.07987221	-0.001969026	-0.001591262
2.4e+08	-0.001146564	-0.007578289	-0.9063664	0.2051035	0.002432721	0.005280048	0.0004534105	0.002721481
	-0.9063664	0.2051035	-0.001340201	-0.007462548	0.0004538928	0.00272139	0.002323254	0.005356494
	0.002432721	0.005280048	0.0004538928	0.00272139	-0.001140615	-0.007596272	-0.9058349	0.2072171
	0.0004534105	0.002721481	0.002323254	0.005356494	-0.9058349	0.2072171	-0.001328488	-0.007484532
2.5e+08	-0.002114207	-0.01350309	-0.8678969	0.3280601	0.003855252	0.006855072	0.0008104153	0.002657017
	-0.8678969	0.3280601	-0.002445186	-0.01330896	0.0008108969	0.00265688	0.003666501	0.006983292
	0.003855252	0.006855072	0.0008108969	0.00265688	-0.002139731	-0.01354396	-0.8670464	0.3301565
	0.0008104153	0.002657017	0.003666501	0.006983292	-0.8670464	0.3301565	-0.002459259	-0.01335655
2.6e+08	-0.004772829	-0.01895501	-0.8128607	0.4442914	0.005646598	0.007967586	0.001140906	0.002568678
	-0.8128607	0.4442914	-0.005225177	-0.01864258	0.001141395	0.002568499	0.005389537	0.008170654
	0.005646598	0.007967586	0.001141395	0.002568499	-0.00483634	-0.01900891	-0.811686	0.4463212
	0.001140906	0.002568678	0.005389537	0.008170655	-0.811686	0.4463212	-0.005272082	-0.01870754
2.7e+08	-0.00891244	-0.02347976	-0.7423887	0.5515732	0.007661234	0.008534053	0.001456759	0.002467079
	-0.7423887	0.5515732	-0.009458626	-0.02301413	0.001457266	0.00246685	0.007353475	0.008831674
	0.007661234	0.008534053	0.001457266	0.00246685	-0.009017345	-0.02353525	-0.7408928	0.553485
	0.001456759	0.002467079	0.007353475	0.008831674	-0.7408928	0.553485	-0.009542766	-0.02308647
2.8e+08	-0.01420688	-0.02670271	-0.6579127	0.6478707	0.009736527	0.008515577	0.001772928	0.002353776
	-0.6579127	0.6478707	-0.01480945	-0.02605731	0.001773461	0.002353484	0.009401244	0.008922173
	0.009736527	0.008515577	0.001773461	0.002353484	-0.01435316	-0.02674774	-0.6561069	0.6496132
	0.001772928	0.002353776	0.009401244	0.008922173	-0.6561069	0.6496132	-0.01493221	-0.02612615
2.9e+08	-0.02024141	-0.02835713	-0.5611307	0.7313806	0.01170621	0.007920686	0.002102902	0.002220898
	-0.5611307	0.7313806	-0.02085558	-0.02751654	0.002103461	0.00222052	0.01137052	0.008443842
	0.01170621	0.007920685	0.002103461	0.00222052	-0.02042558	-0.02838002	-0.5590347	0.7329033
	0.002102902	0.002220898	0.01137052	0.008443842	-0.5590347	0.7329033	-0.02101518	-0.02757094
3e+08	-0.02654669	-0.02830336	-0.4539677	0.8005649	0.01341394	0.006804079	0.002454469	0.002052749
	-0.4539677	0.8005649	-0.02712373	-0.02726533	0.002455044	0.002052259	0.01310685	0.007443484
	0.01341394	0.006804079	0.002455044	0.002052259	-0.02676202	-0.02829383	-0.4516094	0.8018198
	0.002454469	0.002052749	0.01310685	0.007443484	-0.4516094	0.8018198	-0.02731534	-0.02729524
3.1e+08	-0.03263629	-0.02653776	-0.3385319	0.8541773	0.01472579	0.00526158	0.002826569	0.001829077
	-0.3385319	0.8541773	-0.03312741	-0.02531408	0.002827138	0.00182845	0.01447589	0.006008589
	0.01472579	0.00526158	0.002827138	0.00182845	-0.03287331	-0.02648778	-0.3359471	0.8551206
	0.002826569	0.001829077	0.01447589	0.006008589	-0.3359471	0.8551206	-0.03334349	-0.02531118
3.2e+08	-0.03804472	-0.02319089	-0.2170687	0.891282	0.01554059	0.003421846	0.003207819	0.001529389
	-0.2170687	0.891282	-0.03840518	-0.02180725	0.003208346	0.001528604	0.01537362	0.004259739
	0.01554059	0.003421846	0.003208346	0.001528604	-0.03829199	-0.02309541	-0.2143005	0.8918748
	0.003207819	0.001529389	0.01537362	0.004259738	-0.2143005	0.8918748	-0.03863612	-0.02176565
3.3e+08	-0.0423631	-0.0185155	-0.09191546	0.911264	0.01579738	0.001435693	0.003576979	0.001137509
	-0.09191546	0.911264	-0.04255615	-0.01701004	0.003577422	0.001136558	0.01573394	0.00234062
	0.01579738	0.001435693	0.003577422	0.001136558	-0.04260811	-0.01837291	-0.08901313	0.9114738
	0.003576979	0.001137509	0.01573394	0.00234062	-0.08901313	0.9114738	-0.04279099	-0.01692678
3.4e+08	-0.04526979	-0.0128655	0.03454387	0.9138333	0.01547952	-0.0005360158	0.00390529	0.000645573
	0.03454387	0.9138333	-0.0452701	-0.01128632	0.003905597	0.0006444634	0.01553313	0.0004065635
	0.01547952	-0.0005360158	0.003905597	0.0006444634	-0.04549998	-0.01267779	0.03752576	0.9136349
	0.00390529	0.000645573	0.01553313	0.0004065635	0.03752576	0.9136349	-0.04549746	-0.01116164
3.5e+08	-0.04655391	-0.006667707	0.1599214	0.8990236	0.01461535	-0.002334932	0.004160248	5.67551e-05
	0.1599214	0.8990236	-0.04635028	-0.005069383	0.004160369	5.550897e-05	0.01479094	-0.001387476
	0.01461535	-0.002334932	0.004160369	5.550897e-05	-0.04675769	-0.00644037	0.1629241	0.8983998
	0.004160248	5.67551e-05	0.01479094	-0.001387476	0.1629241	0.8983998	-0.04655924	-0.004906739
3.6e+08	-0.04613022	-0.000388605	0.2818662	0.867186	0.01327541	-0.003817286	0.004310206	-0.0006137531
	0.2818662	0.867186	-0.04572715	0.001171946	0.0043101	-0.0006150966	0.01356853	-0.002898612
	0.01327541	-0.003817286	0.0043101	-0.0006150966	-0.04629795	-0.0001302596	0.2848279	0.8661281
	0.004310206	-0.0006137531	0.01356853	-0.002898612	0.2848279	0.8661281	-0.04590814	0.001366157
3.7e+08	-0.04404449	0.00550137	0.3981025	0.8189788	0.0115667	-0.004864656	0.004329019	-0.001339672
	0.3981025	0.8189788	-0.0434626	0.006969435	0.004328653	-0.001341061	0.01196343	-0.004006603
	0.0115667	-0.004864656	0.004328653	-0.001341061	-0.0441693	0.005779647	0.4009598	0.8174872
	0.004329019	-0.001339672	0.01196343	-0.004006603	0.4009598	0.8174872	-0.04360821	0.00718634
3.8e+08	-0.04046912	0.01056347	0.5064669	0.7553552	0.009624274	-0.005392741	0.004199957	-0.002086332
	0.5064669	0.7553552	-0.03974421	0.01189109	0.004199316	-0.002087704	0.01010192	-0.004622665
	0.009624274	-0.005392741	0.004199316	-0.002087704	-0.04054746	0.010849	0.5091558	0.7534394
	0.004199957	-0.002086332	0.01010192	-0.004622665	0.5091558	0.7534394	-0.03984975	0.01212004
3.9e+08	-0.03568937	0.01442367	0.6049431	0.6775463	0.007601013	-0.005357611	0.003918271	-0.002814693
	0.6049431	0.6775463	-0.03487021	0.01557385	0.003917359	-0.002815986	0.00812954	-0.004695976
	0.007601013	-0.005357611	0.003917359	-0.002815986	-0.03572143	0.01470316	0.6074003	0.6752253
	0.003918271	-0.002814693	0.00812954	-0.004695976	0.6074003	0.6752253	-0.0349342	0.01580322
4e+08	-0.03008133	0.01680071	0.6916959	0.5870423	0.005655963	-0.004759032	0.003491979	-0.003486049
	0.6916959	0.5870423	-0.02922635	0.0177509	0.003490816	-0.003487203	0.006200093	-0.004217458
	0.005655963	-0.004759032	0.003490816	-0.003487203	-0.03007106	0.01706135	0.6938603	0.5843442
	0.003491979	-0.003486049	0.006200093	-0.004217458	0.6938603	0.5843442	-0.02925058	0.01796905
4.1e+08	-0.02408313	0.01752722	0.765104	0.4855687	0.003942253	-0.003640609	0.002940769	-0.004066649
	0.765104	0.4855687	-0.0232561	0.01827179	0.002939392	-0.004067615	0.004464073	-0.003220561
	0.003942253	-0.003640609	0.002939392	-0.004067615	-0.024038	0.01775769	0.7669179	0.4825309
	0.002940769	-0.004066649	0.004464073	-0.003220562	0.7669179	0.4825309	-0.02324563	0.01846798
4.2e+08	-0.01816153	0.0165622	0.8237909	0.3750598	0.002595272	-0.002086679	0.002293196	-0.004531491
	0.8237909	0.3750598	-0.01742666	0.01711363	0.00229165	-0.004532232	0.00305715	-0.00177892
	0.002595272	-0.002086679	0.00229165	-0.004532232	-0.01809199	0.01675365	0.8252014	0.3717284
	0.002293196	-0.004531491	0.00305715	-0.00177892	0.8252014	0.3717284	-0.01738941	0.0172789
4.3e+08	-0.0127762	0.01399405	0.8666539	0.2576254	0.001722005	-0.0002160472	0.001582662	-0.004866685
	0.8666539	0.2576254	-0.01219304	0.01438272	0.001580997	-0.004867182	0.002089611	-9.302185e-07
	0.001722005	-0.0002160472	0.001580997	-0.004867182	-0.01269493	0.01414087	0.8676138	0.2540547
	0.001582662	-0.004866684	0.002089611	-9.302188e-07	0.8676138	0.2540547	-0.01213919	0.01451064
4.4e+08	-0.008344634	0.01003361	0.8928889	0.1355144	0.001392391	0.001827051	0.0008428461	-0.005070019
	0.8928889	0.1355144	-0.007963042	0.01030613	0.0008411104	-0.005070268	0.001637558	0.001978447
	0.001392391	0.001827051	0.0008411104	-0.005070268	-0.008265496	0.01013397	0.8933585	0.1317662
	0.0008428461	-0.005070019	0.001637558	0.001978447	0.8933585	0.1317662	-0.00790426	0.01039337
4.5e+08	-0.005210035	0.004997898	0.9020108	0.01107184	0.001633436	0.003884203	0.0001033694	-0.005149665
	0.9020108	0.01107184	-0.005065806	0.005214044	0.0001016028	-0.005149673	0.001736652	0.004008148
	0.001633436	0.003884203	0.0001016028	-0.005149673	-0.005147024	0.005053949	0.9019589	0.007214664
	0.0001033694	-0.005149665	0.001736652	0.004008148	0.9019589	0.007214664	-0.005014328	0.005260688
4.6e+08	-0.003615087	-0.000714524	0.8938678	-0.1133069	0.00242671	0.005795415	-0.0006135727	-0.005121283
	0.8938678	-0.1133069	-0.0037265	-0.0004860586	-0.0006153408	-0.005121063	0.002379006	0.005932947
	0.00242671	0.005795415	-0.0006153408	-0.005121063	-0.003581096	-0.0006966993	0.893273	-0.1171992
	-0.0006135727	-0.005121283	0.002379006	0.005932947	0.893273	-0.1171992	-0.00369407	-0.0004764646
4.7e+08	-0.003683455	-0.006654443	0.8686475	-0.2352257	0.003709545	0.007412054	-0.001295054	-0.005004081
	0.8686475	-0.2352257	-0.004049119	-0.006341184	-0.001296806	-0.005003647	0.003513619	0.007605913
	0.003709545	0.007412054	-0.001296806	-0.005003647	-0.00368932	-0.006665292	0.867499	-0.2390753
	-0.001295054	-0.005004081	0.003513619	0.007605913	0.867499	-0.2390753	-0.004046147	-0.006361893
4.8e+08	-0.005410647	-0.01235683	0.8268754	-0.3523387	0.005379944	0.008608991	-0.001937429	-0.004816547
	0.8268754	-0.3523387	-0.006008852	-0.01188816	-0.001939155	-0.004815908	0.005050396	0.008900308
	0.005379944	0.008608991	-0.001939155	-0.004815908	-0.005464168	-0.01238401	0.8251738	-0.3560653
	-0.001937429	-0.004816547	0.005050396	0.008900308	0.8251738	-0.3560653	-0.006043497	-0.0119297
4.9e+08	-0.00866493	-0.01737678	0.7694037	-0.4624006	0.007304847	0.009294857	-0.002544567	-0.004572647
	0.7694037	-0.4624006	-0.009454613	-0.01668963	-0.002546265	-0.004571805	0.006867474	0.009719841
	0.007304847	0.009294857	-0.002546265	-0.004571805	-0.008770164	-0.0174061	0.7671616	-0.4659233
	-0.002544567	-0.004572647	0.006867474	0.009719841	0.7671616	-0.4659233	-0.009532079	-0.01674053
5e+08	-0.01319817	-0.02132361	0.6973922	-0.5633141	0.009331032	0.009419462	-0.003124683	-0.004279195
	0.6973922	-0.5633141	-0.01412148	-0.02036776	-0.003126346	-0.004278137	0.008821201	0.01000637
	0.009331032	0.009419462	-0.003126346	-0.004278137	-0.01335502	-0.02134018	0.6946344	-0.5665531
	-0.003124683	-0.004279195	0.008821201	0.01000637	0.6946344	-0.5665531	-0.01424354	-0.02041546
