!$
! Info: Touchstone file created by Circ.  Input file=Tx_10in_Rx_85ohms_TxVia_10mils_RxVia_20mils.circ
!$
# Hz S RI R 50
0	0.00810525	6.629307e-26	1.098696e-10	1.830394e-28	6.688792e-05	8.587525e-24	-5.047095e-09	6.182267e-25
	1.098816e-10	1.832257e-28	0.00810591	9.213082e-26	5.446584e-10	3.184103e-27	6.497705e-05	1.150508e-23
	6.558707e-05	8.367406e-24	5.445969e-10	3.191276e-27	0.008120522	6.9418e-26	-9.158054e-09	1.135415e-24
	-5.046211e-09	6.181186e-25	6.643345e-05	1.184148e-23	-9.158249e-09	1.135439e-24	0.008111504	8.786069e-26
1e+07	0.0103551	-0.009490067	4.955124e-11	-2.163515e-11	0.0003283424	0.001810238	-6.502692e-09	1.719275e-08
	4.955125e-11	-2.163544e-11	0.01038033	-0.009495756	6.518634e-10	1.102829e-09	0.0003253691	0.001815275
	0.0003282985	0.001810242	6.518633e-10	1.102829e-09	0.01040384	-0.009476424	-7.921308e-09	1.702908e-08
	-6.502692e-09	1.719275e-08	0.0003254016	0.001815263	-7.921308e-09	1.702908e-08	0.01036346	-0.009489073
2e+07	0.009998863	-0.02157266	4.423891e-11	-2.413936e-11	0.0009312511	0.003472888	-5.043556e-09	1.406321e-08
	4.423869e-11	-2.413945e-11	0.00999295	-0.02159048	7.576631e-10	1.972652e-09	0.0009201114	0.003485067
	0.0009312418	0.003472917	7.576632e-10	1.972652e-09	0.01004113	-0.02155765	-6.669812e-09	1.473244e-08
	-5.043556e-09	1.406321e-08	0.0009201083	0.003485045	-6.669812e-09	1.473244e-08	0.009983085	-0.02156715
3e+07	0.006137159	-0.03424187	5.752804e-11	-5.267342e-11	0.001851368	0.0049515	-1.174507e-09	1.323942e-08
	5.752801e-11	-5.267337e-11	0.006088411	-0.03425427	7.365313e-10	2.832e-09	0.001827815	0.0049745
	0.001851368	0.004951504	7.365313e-10	2.832e-09	0.006175066	-0.03421745	-2.256405e-09	1.459933e-08
	-1.174507e-09	1.323942e-08	0.00182781	0.004974498	-2.256405e-09	1.459933e-08	0.006084374	-0.03422126
4e+07	-0.000648039	-0.04603877	6.158145e-11	-8.077491e-11	0.003043582	0.006188813	1.92931e-09	1.173131e-08
	6.158144e-11	-8.077496e-11	-0.0007489105	-0.04603043	6.689607e-10	3.746797e-09	0.003004626	0.006227566
	0.003043578	0.006188811	6.689606e-10	3.746797e-09	-0.0006132379	-0.04600297	1.241808e-09	1.33673e-08
	1.92931e-09	1.173131e-08	0.003004625	0.006227567	1.241808e-09	1.33673e-08	-0.0007488475	-0.04599142
5e+07	-0.009891398	-0.05626114	7.108022e-11	-1.037119e-10	0.004448199	0.007136171	4.002239e-09	1.021942e-08
	7.108018e-11	-1.037119e-10	-0.01004975	-0.05621496	5.883268e-10	4.702948e-09	0.004392467	0.007196541
	0.004448198	0.00713617	5.883267e-10	4.702948e-09	-0.009858732	-0.05621287	3.495127e-09	1.199951e-08
	4.002239e-09	1.021942e-08	0.004392467	0.007196541	3.495127e-09	1.199951e-08	-0.01004821	-0.05617041
6e+07	-0.02109857	-0.06440967	1.018404e-10	-1.263265e-10	0.00599655	0.007759389	5.262085e-09	9.322054e-09
	1.018405e-10	-1.263264e-10	-0.0213151	-0.0643074	5.07851e-10	5.684237e-09	0.005924512	0.007847648
	0.005996556	0.007759387	5.07851e-10	5.684236e-09	-0.02106714	-0.06434804	4.684317e-09	1.115616e-08
	5.262085e-09	9.322054e-09	0.005924509	0.007847649	4.684317e-09	1.115616e-08	-0.02131333	-0.0642566
7e+07	-0.03373214	-0.07013097	2.354581e-10	-1.337853e-10	0.007615288	0.008040393	5.372509e-09	9.984807e-09
	2.354584e-10	-1.337853e-10	-0.03400258	-0.06995438	4.72854e-10	6.651484e-09	0.007529281	0.008162699
	0.007615299	0.008040385	4.72854e-10	6.651483e-09	-0.03370096	-0.0700552	4.431739e-09	1.136598e-08
	5.372509e-09	9.984807e-09	0.007529276	0.008162702	4.431739e-09	1.136598e-08	-0.03400131	-0.06989672
8e+07	-0.04722349	-0.07320488	-4.778069e-10	-1.382918e-09	0.009230425	0.007977572	-2.184507e-10	1.116779e-08
	-4.778064e-10	-1.382918e-09	-0.04753868	-0.07293702	6.574863e-10	7.806834e-09	0.009134573	0.008139498
	0.009230435	0.007977559	6.574863e-10	7.806834e-09	-0.04719136	-0.07311422	5.5184e-10	1.151258e-08
	-2.184508e-10	1.116779e-08	0.009134568	0.008139503	5.518401e-10	1.151258e-08	-0.04753875	-0.07287166
9e+07	-0.0609926	-0.07353932	9.598897e-11	-3.67189e-10	0.01077126	0.007585211	-2.694319e-09	2.866979e-09
	9.59893e-11	-3.671895e-10	-0.06133895	-0.07316565	5.310923e-10	9.092046e-09	0.0106713	0.007791302
	0.01077126	0.0075852	5.310923e-10	9.092046e-09	-0.06095808	-0.07343313	-2.554741e-09	5.323669e-09
	-2.694319e-09	2.866979e-09	0.0106713	0.007791306	-2.554741e-09	5.323669e-09	-0.06134095	-0.07309111
1e+08	-0.0744724	-0.07116627	9.472684e-11	-3.36972e-10	0.01217566	0.006893353	-3.088014e-10	1.429029e-10
	9.472684e-11	-3.36972e-10	-0.07483225	-0.07067554	4.57589e-10	1.023087e-08	0.01207869	0.007146709
	0.01217566	0.006893353	4.57589e-10	1.023087e-08	-0.07443348	-0.07104393	-6.444616e-10	1.915342e-09
	-3.088014e-10	1.429029e-10	0.01207869	0.007146708	-6.444616e-10	1.915342e-09	-0.07483631	-0.07058993
1.1e+08	-0.08712551	-0.06622049	7.406903e-11	-4.027844e-10	0.0133905	0.00592677	-3.039515e-10	2.240416e-10
	7.406903e-11	-4.027844e-10	-0.08747861	-0.0656056	6.076399e-10	1.144108e-08	0.01330411	0.006228335
	0.0133905	0.00592677	6.076399e-10	1.144108e-08	-0.08707908	-0.06608404	-5.638969e-10	2.250969e-09
	-3.039515e-10	2.240416e-10	0.01330411	0.006228335	-5.638969e-10	2.250969e-09	-0.08748291	-0.06550665
1.2e+08	-0.09844773	-0.0589405	3.875657e-11	-4.659303e-10	0.01435507	0.004742599	-2.792276e-10	3.068011e-10
	3.875657e-11	-4.659303e-10	-0.09877198	-0.05820073	8.415325e-10	1.264992e-08	0.01428805	0.005091955
	0.01435507	0.0047426	8.415325e-10	1.264992e-08	-0.09839335	-0.05879057	-4.318075e-10	2.579219e-09
	-2.792276e-10	3.068011e-10	0.01428805	0.005091955	-4.318075e-10	2.579219e-09	-0.0987741	-0.05808717
1.3e+08	-0.1080172	-0.0496641	-1.253342e-11	-5.222044e-10	0.01503849	0.00340042	-2.340324e-10	3.862782e-10
	-1.253342e-11	-5.222044e-10	-0.10829	-0.04880387	1.161624e-09	1.383542e-08	0.01499964	0.003794792
	0.01503849	0.00340042	1.161624e-09	1.383542e-08	-0.1079536	-0.04950118	-2.50755e-10	2.88799e-09
	-2.340324e-10	3.862782e-10	0.01499964	0.003794792	-2.50755e-10	2.88799e-09	-0.1082874	-0.04867523
1.4e+08	-0.1154904	-0.03879765	-7.835214e-11	-5.665973e-10	0.01541998	0.001961471	-1.69221e-10	4.571878e-10
	-7.835214e-11	-5.665973e-10	-0.1156901	-0.03782677	1.564721e-09	1.497559e-08	0.01541751	0.002395807
	0.01541998	0.001961471	1.564721e-09	1.497559e-08	-0.115416	-0.0386226	-2.440237e-11	3.166289e-09
	-1.69221e-10	4.571878e-10	0.01541751	0.002395807	-2.440237e-11	3.166289e-09	-0.1156799	-0.0376833
1.5e+08	-0.1206141	-0.02680034	-1.555441e-10	-5.922453e-10	0.01549063	0.0004881908	-8.631384e-11	5.151524e-10
	-1.555441e-10	-5.922453e-10	-0.1207213	-0.02573381	2.042107e-09	1.604924e-08	0.01553167	0.0009553257
	0.01549063	0.0004881909	2.042107e-09	1.604924e-08	-0.1205273	-0.02661465	2.415071e-10	3.406124e-09
	-8.631384e-11	5.151524e-10	0.01553167	0.0009553257	2.415071e-10	3.406124e-09	-0.1207007	-0.02557657
1.6e+08	-0.1232318	-0.01416582	-2.382763e-10	-5.947381e-10	0.01525324	-0.0009576899	1.176735e-11	5.557157e-10
	-2.382763e-10	-5.947381e-10	-0.1232304	-0.01302331	2.57972e-09	1.703737e-08	0.01534333	-0.0004667616
	0.01525324	-0.0009576899	2.57972e-09	1.703737e-08	-0.1231311	-0.01397157	5.403999e-10	3.599088e-09
	1.176735e-11	5.557157e-10	0.01534333	-0.0004667616	5.403999e-10	3.599088e-09	-0.1231968	-0.01285415
1.7e+08	-0.123287	-0.001403274	-3.190916e-10	-5.716668e-10	0.01472173	-0.002316956	1.210711e-10	5.751492e-10
	-3.190916e-10	-5.716668e-10	-0.1231651	-0.0002084095	3.158773e-09	1.792437e-08	0.0148644	-0.00181271
	0.01472173	-0.002316956	3.158773e-09	1.792437e-08	-0.1231711	-0.001203145	8.642987e-10	3.737576e-09
	1.210711e-10	5.751492e-10	0.0148644	-0.00181271	8.642987e-10	3.737576e-09	-0.1231163	-2.993563e-05
1.8e+08	-0.1208221	0.01098117	-3.896815e-10	-5.231941e-10	0.01392041	-0.003534552	2.368059e-10	5.706731e-10
	-3.896815e-10	-5.231941e-10	-0.1205733	0.01220178	3.756624e-09	1.869914e-08	0.0141168	-0.003028471
	0.01392041	-0.003534552	3.756624e-09	1.869914e-08	-0.1206905	0.01118405	1.203685e-09	3.814884e-09
	2.368059e-10	5.706731e-10	0.0141168	-0.003028471	1.203685e-09	3.814884e-09	-0.1205077	0.01238634
1.9e+08	-0.115976	0.02250246	-4.418382e-10	-4.523071e-10	0.01288303	-0.004561089	3.53574e-10	5.406281e-10
	-4.418382e-10	-4.523071e-10	-0.1155998	0.02372041	4.347917e-09	1.9356e-08	0.01313167	-0.00406512
	0.01288303	-0.004561089	4.347917e-09	1.9356e-08	-0.115829	0.0227047	1.547321e-09	3.825495e-09
	3.53574e-10	5.406281e-10	0.01313167	-0.00406512	1.547321e-09	3.825495e-09	-0.1155166	0.02390735
2e+08	-0.1089776	0.03271374	-4.684605e-10	-3.647052e-10	0.01165182	-0.005354255	4.656353e-10	4.845898e-10
	-4.684605e-10	-3.647052e-10	-0.1084801	0.03390015	4.905904e-09	1.989524e-08	0.0119485	-0.004880208
	0.01165182	-0.005354255	4.905904e-09	1.989524e-08	-0.1088161	0.03291184	1.882132e-09	3.765549e-09
	4.656353e-10	4.845898e-10	0.0119485	-0.004880208	1.882132e-09	3.765549e-09	-0.1083792	0.03408548
2.1e+08	-0.100137	0.04122215	-4.644745e-10	-2.683197e-10	0.01027632	-0.005880152	5.671896e-10	4.034219e-10
	-4.644745e-10	-2.683197e-10	-0.09953069	0.04234913	5.403891e-09	2.032345e-08	0.0106141	-0.005439077
	0.01027632	-0.005880152	5.403891e-09	2.032345e-08	-0.09996302	0.04141275	2.19325e-09	3.63351e-09
	5.671896e-10	4.034219e-10	0.0106141	-0.005439076	2.19325e-09	3.63351e-09	-0.0994133	0.0425288
2.2e+08	-0.08983421	0.04770311	-4.275364e-10	-1.725171e-10	0.008811974	-0.006114572	6.526612e-10	2.992646e-10
	-4.275364e-10	-1.725171e-10	-0.08913817	0.04874525	5.816717e-09	2.065334e-08	0.009181318	-0.005716126
	0.008811974	-0.006114572	5.816717e-09	2.065334e-08	-0.08965041	0.04788319	2.464324e-09	3.430932e-09
	6.526612e-10	2.992646e-10	0.009181318	-0.005716126	2.464324e-09	3.430932e-09	-0.08900621	0.04891535
2.3e+08	-0.07850514	0.05191248	-3.584075e-10	-8.708117e-11	0.007318523	-0.006044155	7.169726e-10	1.754623e-10
	-3.584075e-10	-8.708117e-11	-0.07774433	0.05284831	6.12217e-09	2.090338e-08	0.007707616	-0.005696012
	0.007318523	-0.006044155	6.12217e-09	2.090338e-08	-0.07831497	0.05207955	2.678156e-09	3.163233e-09
	7.169726e-10	1.754623e-10	0.007707616	-0.005696012	2.678156e-09	3.163233e-09	-0.07760075	0.05300531
2.4e+08	-0.0666256	0.05369627	-2.609289e-10	-2.111064e-11	0.005858047	-0.005667364	7.557919e-10	3.643309e-11
	-2.609289e-10	-2.111064e-11	-0.06583011	0.05450965	6.302264e-09	2.109699e-08	0.006253207	-0.005374681
	0.005858047	-0.005667364	6.302264e-09	2.109699e-08	-0.06643315	0.05384856	2.817701e-09	2.840325e-09
	7.557919e-10	3.643309e-11	0.006253207	-0.005374681	2.817701e-09	2.840325e-09	-0.0656787	0.05465065
2.5e+08	-0.05469333	0.05299743	-1.415912e-10	1.800657e-11	0.004492698	-0.004995155	7.657433e-10	-1.125078e-10
	-1.415912e-10	1.800657e-11	-0.0538972	0.05367871	6.344297e-09	2.126151e-08	0.004878932	-0.004760134
	0.004492698	-0.004995155	6.344297e-09	2.126151e-08	-0.05450318	0.05313403	2.867375e-09	2.476951e-09
	7.657433e-10	-1.125078e-10	0.004878932	-0.004760134	2.867375e-09	2.476951e-09	-0.05374249	0.05380161
2.6e+08	-0.04320863	0.04985912	-8.741814e-12	2.538763e-11	0.003282153	-0.004051209	7.445718e-10	-2.653592e-10
	-8.741814e-12	2.538763e-11	-0.04244845	0.05040611	6.241634e-09	2.142695e-08	0.003643801	-0.003872783
	0.003282153	-0.004051209	6.241634e-09	2.142695e-08	-0.04302564	0.04998011	2.814581e-09	2.092578e-09
	7.445718e-10	-2.653592e-10	0.003643801	-0.003872783	2.814581e-09	2.092578e-09	-0.04229552	0.05050983
2.7e+08	-0.0326543	0.0444242	1.284455e-10	-9.116988e-13	0.00228086	-0.002871603	6.912602e-10	-4.156671e-10
	1.284455e-10	-9.116988e-13	-0.03196752	0.04484281	5.994191e-09	2.162464e-08	0.002602324	-0.002745264
	0.00228086	-0.002871603	5.994191e-09	2.162464e-08	-0.03248341	0.04453073	2.651277e-09	1.710755e-09
	6.912602e-10	-4.156671e-10	0.002602324	-0.002745264	2.651277e-09	1.710755e-09	-0.03182177	0.04492735
2.8e+08	-0.02347555	0.03693059	2.610873e-10	-5.990423e-11	0.001535255	-0.001503806	6.061015e-10	-5.567667e-10
	2.610873e-10	-5.990423e-11	-0.02289869	0.03723505	5.6086e-09	2.188578e-08	0.001801758	-0.001421602
	0.001535255	-0.001503806	5.6086e-09	2.188578e-08	-0.02332153	0.03702489	2.375387e-09	1.357899e-09
	6.061015e-10	-5.567667e-10	0.001801758	-0.001421602	2.375387e-09	1.357899e-09	-0.02276561	0.03730166
2.9e+08	-0.01606093	0.02770233	3.815912e-10	-1.481147e-10	0.001081129	-4.95298e-06	4.907306e-10	-6.820273e-10
	3.815912e-10	-1.481147e-10	-0.01562771	0.02791506	5.098083e-09	2.224002e-08	0.001279481	4.435556e-05
	0.001081129	-4.952971e-06	5.098083e-09	2.224002e-08	-0.01592815	0.0277877	1.991819e-09	1.061554e-09
	4.907306e-10	-6.820273e-10	0.001279481	4.435556e-05	1.991819e-09	1.061554e-09	-0.01551257	0.02796622
3e+08	-0.0107252	0.01713664	4.843725e-10	-2.603707e-10	0.0009413708	0.001560597	3.481233e-10	-7.85098e-10
	4.843725e-10	-2.603707e-10	-0.01046468	0.01728765	4.48204e-09	2.271418e-08	0.001060703	0.0015912
	0.0009413708	0.001560597	4.48204e-09	2.271418e-08	-0.01061738	0.01721736	1.51289e-09	8.483085e-10
	3.481233e-10	-7.85098e-10	0.001060703	0.0015912	1.51289e-09	8.483085e-10	-0.01037228	0.01732703
3.1e+08	-0.007695159	0.005687273	5.65838e-10	-3.949478e-10	0.001124331	0.003124315	1.825522e-10	-8.600801e-10
	5.65838e-10	-3.949478e-10	-0.007630011	0.005813129	3.785204e-09	2.332992e-08	0.001156748	0.003152853
	0.001124331	0.003124315	3.785204e-09	2.332992e-08	-0.007615151	0.005768478	9.576991e-10	7.37368e-10
	1.825522e-10	-8.600801e-10	0.001156749	0.003152853	9.576991e-10	7.37368e-10	-0.007564394	0.005845512
3.2e+08	-0.007099357	-0.006155081	6.211281e-10	-5.501801e-10	0.001622976	0.004616987	-4.027237e-13	-9.018622e-10
	6.211281e-10	-5.501801e-10	-0.007244385	-0.006012635	3.036086e-09	2.410376e-08	0.001564107	0.004661911
	0.001622976	0.004616987	3.036086e-09	2.410376e-08	-0.007048942	-0.006067588	3.479647e-10	7.429109e-10
	-4.027237e-13	-9.018622e-10	0.001564107	0.004661911	3.479647e-10	7.429109e-10	-0.007208597	-0.005981526
3.3e+08	-0.008962262	-0.01788434	6.498105e-10	-7.119382e-10	0.002414982	0.00597239	-1.94048e-10	-9.066441e-10
	6.498105e-10	-7.119382e-10	-0.009323296	-0.01768015	2.26793e-09	2.504964e-08	0.002264375	0.006053195
	0.002414982	0.00597239	2.26793e-09	2.504964e-08	-0.008942052	-0.01778432	-2.873205e-10	8.85843e-10
	-1.94048e-10	-9.066441e-10	0.002264375	0.006053195	-2.873205e-10	8.85843e-10	-0.009319121	-0.01764388
3.4e+08	-0.01320341	-0.02900147	6.536274e-10	-8.758324e-10	0.003463787	0.007130871	-3.908052e-10	-8.717867e-10
	6.536274e-10	-8.758324e-10	-0.01377654	-0.02868895	1.51659e-09	2.617264e-08	0.00322515	0.007267246
	0.003463787	0.007130871	1.51659e-09	2.617264e-08	-0.01321273	-0.02888247	-9.155522e-10	1.170792e-09
	-3.908052e-10	-8.717867e-10	0.00322515	0.007267246	-9.155522e-10	1.170792e-09	-0.01380434	-0.02864066
3.5e+08	-0.01964165	-0.03903648	6.344928e-10	-1.039158e-09	0.004720567	0.00804254	-5.824043e-10	-7.962157e-10
	6.344928e-10	-1.039158e-09	-0.02041292	-0.03856979	8.191448e-10	2.747047e-08	0.004401804	0.008253467
	0.004720567	0.00804254	8.191448e-10	2.747047e-08	-0.01967847	-0.03889213	-1.503991e-09	1.593941e-09
	-5.824043e-10	-7.962157e-10	0.004401804	0.008253467	-1.503991e-09	1.593941e-09	-0.02047159	-0.03850248
3.6e+08	-0.02800409	-0.04756886	5.936073e-10	-1.200515e-09	0.006126956	0.008669831	-7.60206e-10	-6.806248e-10
	5.936073e-10	-1.200515e-09	-0.02894963	-0.04690508	2.124098e-10	2.893314e-08	0.005740017	0.008972678
	0.006126956	0.008669831	2.124099e-10	2.893314e-08	-0.02806499	-0.04739317	-2.022139e-09	2.143501e-09
	-7.60206e-10	-6.806248e-10	0.005740017	0.008972678	-2.022139e-09	2.143501e-09	-0.02903658	-0.04681198
3.7e+08	-0.03793918	-0.05424534	5.308942e-10	-1.359025e-09	0.007618303	0.008989229	-9.156019e-10	-5.276134e-10
	5.308942e-10	-1.359025e-09	-0.03902598	-0.05334664	-2.686407e-10	3.054293e-08	0.007178829	0.009398885
	0.007618303	0.008989229	-2.686407e-10	3.054293e-08	-0.03801949	-0.05403296	-2.443765e-09	2.800898e-09
	-9.156019e-10	-5.276134e-10	0.007178829	0.009398885	-2.443765e-09	2.800898e-09	-0.03913714	-0.0532215
3.8e+08	-0.0490333	-0.05879404	4.448891e-10	-1.513374e-09	0.009127175	0.008992091	-1.04047e-09	-3.417208e-10
	4.448891e-10	-1.513374e-09	-0.05022034	-0.05762964	-5.925049e-10	3.22747e-08	0.008653964	0.00952018
	0.009127175	0.008992091	-5.925049e-10	3.22747e-08	-0.04912721	-0.05854058	-2.748353e-09	3.542468e-09
	-1.04047e-09	-3.417208e-10	0.008653964	0.00952018	-2.748353e-09	3.542468e-09	-0.05035028	-0.05746706
3.9e+08	-0.06082961	-0.06103455	3.331257e-10	-1.660879e-09	0.01058685	0.008684541	-1.127647e-09	-1.293345e-10
	3.331257e-10	-1.660879e-09	-0.0620694	-0.05958238	-7.327627e-10	3.40965e-08	0.01010115	0.009338757
	0.01058685	0.008684541	-7.327627e-10	3.40965e-08	-0.06093036	-0.06073677	-2.92186e-09	4.341404e-09
	-1.127647e-09	-1.293345e-10	0.01010115	0.009338757	-2.92186e-09	4.341404e-09	-0.06221157	-0.05937811
4e+08	-0.07284817	-0.06088354	1.929595e-10	-1.796821e-09	0.01193454	0.008086537	-1.171389e-09	1.015352e-10
	1.929595e-10	-1.796821e-09	-0.07408869	-0.05913155	-6.695819e-10	3.597062e-08	0.0114592	0.008870142
	0.01193454	0.008086537	-6.695819e-10	3.597062e-08	-0.07294831	-0.06053958	-2.956774e-09	5.169659e-09
	-1.171389e-09	1.015352e-10	0.0114592	0.008870142	-2.956774e-09	5.169659e-09	-0.07423562	-0.05888273
4.1e+08	-0.08460632	-0.05835594	2.267264e-11	-1.914207e-09	0.01311411	0.007230269	-1.167752e-09	3.416024e-10
	2.267264e-11	-1.914207e-09	-0.08579319	-0.05630299	-3.910274e-10	3.785494e-08	0.01267265	0.008141762
	0.01311411	0.007230269	-3.910274e-10	3.785494e-08	-0.08469798	-0.05796545	-2.85161e-09	5.999584e-09
	-1.167752e-09	3.416024e-10	0.01267265	0.008141762	-2.85161e-09	5.999584e-09	-0.08593681	-0.05600833
4.2e+08	-0.0956383	-0.05356195	-1.773471e-10	-2.004059e-09	0.01407829	0.006158059	-1.114884e-09	5.80752e-10
	-1.773471e-10	-2.004059e-09	-0.09671706	-0.05121824	1.059191e-10	3.970461e-08	0.0136939	0.007191066
	0.01407829	0.006158059	1.059191e-10	3.970461e-08	-0.0957135	-0.05312619	-2.610012e-09	6.805123e-09
	-1.114884e-09	5.80752e-10	0.0136939	0.007191066	-2.610012e-09	6.805123e-09	-0.09684903	-0.05087812
4.3e+08	-0.1055133	-0.04670039	-4.035805e-10	-2.056217e-09	0.01479018	0.004920003	-1.013185e-09	8.085469e-10
	-4.035805e-10	-2.056217e-09	-0.1064318	-0.04408735	8.147124e-10	4.147398e-08	0.01448468	0.006063364
	0.01479018	0.004920003	8.147124e-10	4.147398e-08	-0.1055643	-0.04622224	-2.23971e-09	7.562508e-09
	-1.013185e-09	8.085469e-10	0.01448468	0.006063364	-2.23971e-09	7.562508e-09	-0.1065439	-0.0437039
4.4e+08	-0.1138514	-0.03804884	-6.48714e-10	-2.060568e-09	0.01522415	0.003571503	-8.653342e-10	1.014757e-09
	-6.48714e-10	-2.060568e-09	-0.1145621	-0.0351986	1.719035e-09	4.311871e-08	0.01501702	0.004809579
	0.01522415	0.003571503	1.719035e-09	4.311871e-08	-0.113871	-0.03753277	-1.751517e-09	8.250485e-09
	-8.653342e-10	1.014757e-09	0.01501702	0.004809579	-1.751517e-09	8.250485e-09	-0.1146465	-0.03477564
4.5e+08	-0.1203369	-0.0279513	-9.014871e-10	-2.008538e-09	0.01536627	0.00217086	-6.761863e-10	1.18987e-09
	-9.014871e-10	-2.008538e-09	-0.120799	-0.02490562	2.793066e-09	4.459792e-08	0.01527371	0.003484044
	0.01536627	0.00217086	2.793066e-09	4.459792e-08	-0.1203188	-0.02740324	-1.158579e-09	8.850187e-09
	-6.761863e-10	1.18987e-09	0.01527371	0.003484044	-1.158579e-09	8.850187e-09	-0.1208487	-0.02444858
4.6e+08	-0.1247288	-0.01680397	-1.147127e-09	-1.894614e-09	0.01521415	0.0007770228	-4.525536e-10	1.325556e-09
	-1.147127e-09	-1.894614e-09	-0.1249103	-0.01361282	4.002246e-09	4.587627e-08	0.01524831	0.002142433
	0.01521415	0.0007770228	4.002246e-09	4.587627e-08	-0.1246679	-0.01623113	-4.759474e-10	9.344814e-09
	-4.525536e-10	1.325556e-09	0.01524831	0.002142433	-4.759474e-10	9.344814e-09	-0.1249195	-0.01312855
4.7e+08	-0.1268687	-0.005039697	-1.368361e-09	-1.717695e-09	0.01477658	-0.0005524615	-2.02893e-10	1.415058e-09
	-1.368361e-09	-1.717695e-09	-0.1267478	-0.001759421	5.304516e-09	4.692588e-08	0.01494487	0.0008398717
	0.01477658	-0.0005524615	5.304516e-09	4.692588e-08	-0.1267613	-0.004450357	2.794813e-10	9.719315e-09
	-2.02893e-10	1.415058e-09	0.01494487	0.0008398717	2.794813e-10	9.719315e-09	-0.126712	-0.001255961
4.8e+08	-0.1266847	0.006888287	-1.546909e-09	-1.482048e-09	0.01407282	-0.001763269	6.307566e-11	1.453495e-09
