!$
! Info: Touchstone file created by Circ.  Input file=Tx_12in_Rx_100ohms_TxVia_10mils_RxVia_20mils.circ
!$
# Hz S RI R 50
0	0.01244155	8.287191e-26	0.9874274	-8.884417e-26	7.562991e-05	1.269884e-23	-7.407365e-05	1.219932e-21
	0.9874274	-8.956739e-26	0.01244114	1.071035e-25	-7.394258e-05	1.204075e-21	7.508376e-05	1.770435e-23
	7.790299e-05	1.272805e-23	-7.38904e-05	1.197755e-21	0.01243378	7.239452e-26	0.9873976	-7.966515e-26
	-7.44807e-05	1.269851e-21	7.653853e-05	1.822202e-23	0.9873976	-8.32224e-26	0.01244669	1.021282e-25
1e+07	0.01843339	0.007353362	0.9744005	-0.1231284	0.0008027877	0.002145757	-0.0005622469	-0.0001573742
	0.9744005	-0.1231284	0.01843035	0.007351081	-0.0005622674	-0.0001573495	0.0007993785	0.002146742
	0.0008028367	0.00214573	-0.0005622311	-0.0001573728	0.01826702	0.007378152	0.9745582	-0.1232374
	-0.0005622106	-0.0001573975	0.0007994117	0.002146731	0.9745582	-0.1232374	0.01826405	0.007375765
2e+07	0.0241084	0.009904503	0.9481539	-0.2395191	0.001427165	0.004366606	-0.0004926504	-0.0005125729
	0.9481539	-0.2395191	0.02409607	0.009901324	-0.0004926346	-0.0005125479	0.001414397	0.004371369
	0.001427158	0.004366581	-0.0004926386	-0.0005125757	0.02400129	0.01000834	0.9482212	-0.2397882
	-0.0004926461	-0.0005126086	0.001414395	0.004371348	0.9482212	-0.2397882	0.02398959	0.01000534
3e+07	0.02898084	0.01003771	0.9095709	-0.3502533	0.00253344	0.006157703	-0.0004916578	-0.0006630184
	0.9095709	-0.3502533	0.02895314	0.0100376	-0.0004916453	-0.0006630212	0.002506626	0.006170858
	0.002533441	0.006157699	-0.0004916486	-0.0006630247	0.02892522	0.01016781	0.9095384	-0.3506205
	-0.000491661	-0.0006630241	0.002506621	0.006170856	0.9095384	-0.3506205	0.02890006	0.01016743
4e+07	0.03324226	0.008779493	0.858878	-0.4549008	0.004051915	0.007551139	-0.0005546331	-0.0007334577
	0.858878	-0.4549008	0.03319479	0.008788545	-0.0005546264	-0.0007334695	0.004008124	0.007578749
	0.004051919	0.007551135	-0.0005546234	-0.0007334694	0.0332334	0.008915597	0.8587337	-0.4553386
	-0.0005546285	-0.0007334543	0.004008123	0.007578751	0.8587337	-0.4553386	0.0331899	0.008922922
5e+07	0.03684211	0.006460717	0.7967169	-0.5523519	0.006003685	0.008389727	-0.0007979728	-0.0006359263
	0.7967169	-0.5523519	0.0367727	0.006486411	-0.0007979673	-0.0006359579	0.005942051	0.00843853
	0.006003686	0.008389725	-0.0007979657	-0.0006359583	0.036873	0.006589691	0.7964497	-0.5528352
	-0.0007979694	-0.0006359252	0.00594205	0.008438531	0.7964497	-0.5528352	0.03680891	0.006612305
6e+07	0.03969042	0.003317542	0.7239367	-0.6414582	0.008057693	0.008737067	-0.0009877262	-0.0004862774
	0.7239367	-0.6414582	0.03959949	0.00336794	-0.0009877399	-0.0004863409	0.007979782	0.008814151
	0.008057693	0.008737069	-0.0009877426	-0.000486339	0.03975343	0.003430583	0.7235391	-0.6419615
	-0.0009877315	-0.0004862765	0.007979779	0.008814152	0.7235391	-0.6419615	0.03966961	0.003476041
7e+07	0.04170055	-0.0004377911	0.6415473	-0.721128	0.01010009	0.008588645	-0.001121007	-0.0003044003
	0.6415473	-0.721128	0.04159117	-0.0003549036	-0.001121066	-0.0003044863	0.01000979	0.008700549
	0.01010009	0.008588649	-0.00112107	-0.0003044802	0.04178774	-0.0003468387	0.6410152	-0.7216258
	-0.001121021	-0.0003043952	0.01000978	0.008700551	0.6410152	-0.7216258	0.041687	-0.0002717935
8e+07	0.04280898	-0.00459587	0.5506915	-0.7903709	0.01201745	0.007964787	-0.001198104	-0.000107508
	0.5506915	-0.7903709	0.04268667	-0.004473806	-0.001198216	-0.0001075895	0.01192074	0.008116835
	0.01201745	0.007964792	-0.00119822	-0.0001075806	0.04291193	-0.004531055	0.5500249	-0.7908375
	-0.001198119	-0.000107498	0.01192074	0.008116839	0.5500249	-0.7908375	0.04279866	-0.004420318
9e+07	0.04298593	-0.008946532	0.4526232	-0.8483227	0.01370266	0.006910523	-0.001221443	9.019476e-05
	0.4526232	-0.8483227	0.04285822	-0.008780378	-0.001221595	9.014357e-05	0.01360723	0.007106237
	0.01370266	0.006910525	-0.001221596	9.015087e-05	0.04309566	-0.008909878	0.4518265	-0.8487328
	-0.001221454	9.020463e-05	0.01360723	0.007106241	0.4518265	-0.8487328	0.04297613	-0.008758159
1e+08	0.04225567	-0.01327764	0.3486675	-0.8942688	0.01505412	0.005491496	-0.001185732	0.0002806854
	0.3486675	-0.8942688	0.04213156	-0.01306481	-0.001185891	0.0002806715	0.0149688	0.005732149
	0.01505412	0.005491496	-0.001185891	0.0002806713	0.0423612	-0.0132696	0.3477516	-0.8945969
	-0.001185732	0.0002806851	0.0149688	0.005732149	0.3477516	-0.8945969	0.04224372	-0.01307319
1.1e+08	0.04063697	-0.01750566	0.2402795	-0.9275055	0.01600608	0.003840428	-0.001109028	0.000396021
	0.2402795	-0.9275055	0.04052572	-0.01724469	-0.001109242	0.0003960583	0.01593987	0.004124358
	0.01600608	0.003840428	-0.001109242	0.0003960581	0.0407307	-0.01751399	0.2392563	-0.9277403
	-0.001109028	0.0003960208	0.01593987	0.004124358	0.2392563	-0.9277403	0.04062459	-0.0172721
1.2e+08	0.0381249	-0.02133691	0.1290555	-0.9477408	0.01654247	0.002020906	-0.001050099	0.0004784152
	0.1290555	-0.9477408	0.03803713	-0.02103103	-0.001050343	0.000478524	0.01650467	0.002344148
	0.01654247	0.002020906	-0.001050343	0.0004785238	0.03820755	-0.0213569	0.1279309	-0.9478619
	-0.001050099	0.0004784151	0.01650467	0.002344148	0.1279309	-0.9478619	0.03812325	-0.02107263
1.3e+08	0.03486518	-0.02458904	0.01649178	-0.9547737	0.0166247	0.0001341819	-0.001005615	0.0005406041
	0.01649178	-0.9547737	0.03481042	-0.02424446	-0.001005862	0.0005407941	0.01662344	0.0004899965
	0.0166247	0.0001341817	-0.001005862	0.000540794	0.0349362	-0.02461688	0.01527849	-0.954761
	-0.001005615	0.000540604	0.01662344	0.0004899965	0.01527849	-0.954761	0.03488283	-0.02429627
1.4e+08	0.03101392	-0.02712141	-0.0958766	-0.9485671	0.01624833	-0.001710175	-0.0009792618	0.0005924361
	-0.0958766	-0.9485671	0.03099985	-0.02674693	-0.0009794873	0.0005927096	0.01628988	-0.001330912
	0.01624833	-0.001710175	-0.0009794874	0.0005927095	0.03107327	-0.02715359	-0.09716213	-0.9484014
	-0.0009792619	0.0005924361	0.01628988	-0.001330912	-0.09716213	-0.9484014	0.03105802	-0.02680508
1.5e+08	0.02674705	-0.02883128	-0.2065166	-0.9292592	0.01543653	-0.003404538	-0.0009725547	0.0006445393
	-0.2065166	-0.9292592	0.02677891	-0.02843782	-0.0009727337	0.0006448919	0.01552466	-0.003012785
	0.01543653	-0.003404538	-0.0009727338	0.0006448919	0.02679536	-0.02886464	-0.2078545	-0.9289235
	-0.0009725548	0.0006445393	0.01552466	-0.003012785	-0.2078545	-0.9289235	0.02682303	-0.02849855
1.6e+08	0.02225448	-0.02965636	-0.3139202	-0.8971639	0.01423791	-0.004849953	-0.0009835729	0.0007076233
	-0.3139202	-0.8971639	0.02233455	-0.02925624	-0.0009836828	0.0007080444	0.01437343	-0.004457811
	0.01423791	-0.004849953	-0.0009836829	0.0007080444	0.02229292	-0.02968817	-0.3152874	-0.8966442
	-0.000983573	0.0007076233	0.01437343	-0.004457811	-0.3152874	-0.8966442	0.02236552	-0.02931605
1.7e+08	0.01773219	-0.02957642	-0.4166253	-0.8527684	0.01272341	-0.005962014	-0.001006748	0.0007913116
	-0.4166253	-0.8527684	0.01785943	-0.02918266	-0.00100677	0.0007917843	0.01290386	-0.005581923
	0.01272341	-0.005962015	-0.00100677	0.0007917843	0.0177624	-0.02960446	-0.4179962	-0.8520535
	-0.001006749	0.0007913115	0.01290386	-0.005581923	-0.4179962	-0.8520535	0.01787882	-0.02923842
1.8e+08	0.01337368	-0.02861343	-0.5132369	-0.7967264	0.01098208	-0.006675803	-0.001033257	0.0009029433
	-0.5132369	-0.7967264	0.01354355	-0.02823883	-0.001033177	0.0009034457	0.01120167	-0.006319666
	0.01098208	-0.006675803	-0.001033177	0.0009034457	0.01339762	-0.02863603	-0.5145837	-0.7958089
	-0.001033257	0.0009029433	0.01120167	-0.006319666	-0.5145837	-0.7958089	0.01355358	-0.02828794
1.9e+08	0.009361369	-0.02682993	-0.6024467	-0.7298499	0.009115807	-0.006949639	-0.001051861	0.00104656
	-0.6024467	-0.7298499	0.009565893	-0.02648617	-0.001051672	0.001047067	0.009365539	-0.006627934
	0.009115807	-0.00694964	-0.001051672	0.001047067	0.009381209	-0.02684599	-0.6037399	-0.7287262
	-0.001051861	0.00104656	0.009365539	-0.006627934	-0.6037399	-0.7287262	0.00956924	-0.02652663
2e+08	0.00585832	-0.02432551	-0.6830514	-0.6530981	0.007233318	-0.006767454	-0.00105008	0.001222224
	-0.6830514	-0.6530981	0.006086381	-0.02402224	-0.001049782	0.001222708	0.00750138	-0.006488382
	0.007233318	-0.006767454	-0.001049782	0.001222708	0.005876338	-0.02433451	-0.6842602	-0.6517689
	-0.00105008	0.001222224	0.00750138	-0.006488382	-0.6842602	-0.6517689	0.006086097	-0.0240528
2.1e+08	0.003000932	-0.02123169	-0.7539698	-0.5675637	0.005443827	-0.006139638	-0.001015546	0.001425757
	-0.7539698	-0.5675637	0.003238803	-0.02097569	-0.001015148	0.001426195	0.005716185	-0.00590839
	0.005443827	-0.006139639	-0.001015148	0.001426195	0.003019375	-0.02123366	-0.7550632	-0.5660342
	-0.001015546	0.001425757	0.005716185	-0.00590839	-0.7550632	-0.5660342	0.003238113	-0.02099588
2.2e+08	0.0008928364	-0.01770519	-0.8142585	-0.4744576	0.00385067	-0.005102336	-0.0009373803	0.001648949
	-0.8142585	-0.4744576	0.001124937	-0.01749971	-0.0009368973	0.001649319	0.004111857	-0.004920504
	0.00385067	-0.005102336	-0.0009368973	0.001649319	0.0009138151	-0.0177007	-0.8152054	-0.4727376
	-0.0009373804	0.001648949	0.004111857	-0.004920504	-0.8152054	-0.4727376	0.001127067	-0.01750985
2.3e+08	-0.0003995789	-0.01392011	-0.8631245	-0.375091	0.00254531	-0.003715216	-0.0008074379	0.0018802
	-0.8631245	-0.375091	-0.0001897523	-0.01376438	-0.0008068893	0.00188049	0.002779367	-0.003580432
	0.00254531	-0.003715216	-0.0008068893	0.00188049	-0.0003742002	-0.01391024	-0.8638948	-0.3731949
	-0.0008074379	0.0018802	0.002779367	-0.003580432	-0.8638948	-0.3731949	-0.0001817657	-0.01376559
2.4e+08	-0.0008498374	-0.01005932	-0.8999362	-0.2708568	0.001602095	-0.002057879	-0.0006212709	0.002105539
	-0.8999362	-0.2708568	-0.0006786626	-0.009948288	-0.000620678	0.002105742	0.001793592	-0.001963688
	0.001602095	-0.002057879	-0.000620678	0.002105742	-0.000818549	-0.01004555	-0.9005012	-0.2688035
	-0.0006212709	0.002105539	0.001793592	-0.001963688	-0.9005012	-0.2688035	-0.0006621549	-0.009942412
2.5e+08	-0.0004720371	-0.006305423	-0.9242318	-0.1632092	0.00107404	-0.0002251211	-0.0003787121	0.002309899
	-0.9242318	-0.1632092	-0.000354659	-0.006229842	-0.0003780951	0.002310016	0.001209126	-0.0001611275
	0.00107404	-0.0002251211	-0.0003780951	0.002310016	-0.0004337713	-0.006289586	-0.924565	-0.1610219
	-0.0003787121	0.002309899	0.001209126	-0.0001611275	-0.924565	-0.1610219	-0.0003275058	-0.00621935
2.6e+08	0.0006804638	-0.002831935	-0.9357245	-0.05364253	0.0009898987	0.001678651	-8.401111e-05	0.002478507
	-0.9357245	-0.05364253	0.0007312175	-0.002778658	-8.338661e-05	0.002478543	0.001057305	0.001726368
	0.0009898986	0.001678651	-8.338662e-05	0.002478543	0.0007262647	-0.002816047	-0.9358022	-0.05134872
	-8.401112e-05	0.002478507	0.001057305	0.001726368	-0.9358022	-0.05134872	0.0007704613	-0.002766487
2.7e+08	0.002518303	0.0002050802	-0.9343054	0.05632955	0.001352671	0.003545514	0.0002544847	0.002598229
	-0.9343054	0.05632955	0.002492912	0.0002524744	0.000255106	0.002598197	0.001344599	0.003593735
	0.001352671	0.003545514	0.000255106	0.002598197	0.002571651	0.0002189163	-0.9341073	0.05869887
	0.0002544847	0.002598229	0.001344599	0.003593735	-0.9341073	0.05869887	0.002544913	0.0002630887
2.8e+08	0.004921106	0.002674336	-0.9200438	0.1651959	0.00213961	0.005270266	0.0006250615	0.002658735
	-0.9200438	0.1651959	0.00481418	0.002734686	0.0006256758	0.002658648	0.00205244	0.00533774
	0.00213961	0.005270266	0.0006256758	0.002658648	0.004981463	0.002684077	-0.9195534	0.1676063
	0.0006250615	0.002658735	0.00205244	0.00533774	-0.9195534	0.1676063	0.004878772	0.002740413
2.9e+08	0.007743948	0.004475328	-0.8931844	0.2714683	0.003303714	0.00675644	0.001013692	0.002653348
	-0.8931844	0.2714683	0.007554821	0.00456883	0.001014303	0.002653216	0.003138483	0.00686283
	0.003303714	0.00675644	0.001014303	0.002653217	0.007810253	0.004479132	-0.8923897	0.2738828
	0.001013692	0.002653348	0.003138483	0.00686283	-0.8923897	0.2738828	0.007631002	0.004566453
3e+08	0.01082493	0.005542716	-0.8541427	0.3737021	0.004776588	0.007921766	0.001405291	0.002579496
	-0.8541427	0.3737021	0.01055798	0.005689722	0.001405906	0.002579327	0.004539195	0.008086473
	0.004776588	0.007921766	0.001405906	0.002579327	0.01089567	0.005539066	-0.8530366	0.3760814
	0.001405291	0.002579496	0.004539195	0.008086473	-0.8530366	0.3760814	0.01064396	0.00567634
3.1e+08	0.01399348	0.005848889	-0.8034974	0.4705153	0.006472489	0.008702758	0.001785015	0.002438737
	-0.8034974	0.4705153	0.01365815	0.006068635	0.001785649	0.00243853	0.006173606	0.008943716
	0.006472489	0.008702758	0.001785649	0.00243853	0.01406679	0.005836702	-0.8020779	0.4728185
	0.001785015	0.002438737	0.006173606	0.008943716	-0.8020779	0.4728185	0.01375143	0.006041854
3.2e+08	0.01707894	0.005404601	-0.7419818	0.5606061	0.008293314	0.009058205	0.002139489	0.002236362
	-0.7419818	0.5606061	0.0166894	0.005713948	0.002140154	0.002236109	0.007947995	0.0093907
	0.008293314	0.009058205	0.002140154	0.002236109	0.0171527	0.00538331	-0.7402522	0.5627916
	0.002139489	0.002236362	0.007947995	0.0093907	-0.7402522	0.5627916	0.01678695	0.005672042
3.3e+08	0.01991899	0.004257715	-0.6704719	0.6427702	0.01013424	0.008971374	0.002457791	0.001980636
	-0.6704719	0.6427702	0.01949355	0.004669982	0.002458499	0.00198032	0.009761238	0.009406979
	0.01013424	0.008971374	0.002458499	0.00198032	0.01999099	0.004227313	-0.6684412	0.6447961
	0.002457791	0.001980636	0.009761238	0.009406979	-0.6684412	0.6447961	0.01959196	0.004612009
3.4e+08	0.02236757	0.002490123	-0.5899746	0.715915	0.01188968	0.008450825	0.002732124	0.001681784
	-0.5899746	0.715915	0.02192774	0.00301408	0.002732879	0.001681381	0.01151052	0.008996515
	0.01188968	0.008450825	0.002732879	0.001681381	0.02243565	0.002451174	-0.5876573	0.7177402
	0.002732124	0.001681784	0.01151052	0.008996515	-0.5876573	0.7177402	0.02202343	0.002939964
3.5e+08	0.02430177	0.0002130245	-0.5016132	0.7790741	0.01345927	0.007529816	0.0029581	0.001350844
	-0.5016132	0.7790741	0.02387114	0.0008521358	0.002958897	0.001350324	0.01309708	0.008187313
	0.01345927	0.007529816	0.002958897	0.001350324	0.02436397	0.0001666405	-0.4990293	0.7806586
	0.0029581	0.001350844	0.01309708	0.008187313	-0.4990293	0.7806586	0.02396056	0.0007626855
3.6e+08	0.02562756	-0.002439133	-0.4066121	0.8314182	0.0147535	0.006264329	0.00313462	0.000998524
	-0.4066121	0.8314182	0.02523045	-0.001687189	0.003135443	0.0009978577	0.01443172	0.007029746
	0.0147535	0.006264329	0.003135443	0.0009978577	0.02568223	-0.00249136	-0.4037874	0.8327241
	0.00313462	0.000998524	0.01443172	0.007029746	-0.4037874	0.8327241	0.02531033	-0.001790307
3.7e+08	0.02628392	-0.005315792	-0.3062811	0.8722657	0.0156987	0.004729854	0.00326339	0.0006342013
	-0.3062811	0.8722657	0.02594397	-0.004459261	0.003264212	0.0006333593	0.01543976	0.005593654
	0.0156987	0.004729854	0.003264212	0.0006333593	0.02632987	-0.005371885	-0.3032462	0.8732581
	0.00326339	0.0006342013	0.01543976	0.005593654	-0.3032462	0.8732581	0.0260115	-0.004573605
3.8e+08	0.02624535	-0.008258094	-0.2019974	0.901091	0.01624124	0.003017086	0.003348139	0.0002651693
	-0.2019974	0.901091	0.02598405	-0.007310929	0.003348921	0.0002641296	0.01606512	0.003964377
	0.01624124	0.003017086	0.003348921	0.0002641296	0.02628192	-0.008315811	-0.1987881	0.9017383
	0.003348139	0.0002651693	0.01606512	0.003964377	-0.1987881	0.9017383	0.02603708	-0.007433413
3.9e+08	0.02552252	-0.01110699	-0.09518844	0.9175307	0.01635048	0.001226789	0.003393652	-0.0001037778
	-0.09518844	0.9175307	0.02535786	-0.01008829	0.003394345	-0.0001050265	0.01627346	0.002237954
	0.01635048	0.001226789	0.003394345	-0.0001050265	0.02554962	-0.01116397	-0.09184499	0.9178055
	0.003393652	-0.0001037778	0.01627346	0.002237954	-0.09184499	0.9178055	0.025395	-0.01021536
4e+08	0.02416116	-0.01371127	0.01268724	0.9213887	0.01602048	-0.0005359032	0.00340474	-0.0004703908
	0.01268724	0.9213887	0.02410636	-0.01264437	0.003405291	-0.000471846	0.01605402	0.0005157225
	0.01602048	-0.0005359032	0.003405291	-0.000471846	0.02417932	-0.01376517	0.01612059	0.9212685
	0.00340474	-0.0004703908	0.01605402	0.0005157225	0.01612059	0.9212685	0.02412714	-0.01277218
4.1e+08	0.02223922	-0.01593505	0.1201587	0.9126385	0.0152704	-0.002167445	0.003385286	-0.0008346436
	0.1201587	0.9126385	0.02230176	-0.01484634	0.00338564	-0.0008362874	0.01542026	-0.001101364
	0.0152704	-0.002167445	0.00338564	-0.0008362874	0.02224953	-0.01598373	0.1236342	0.9121061
	0.003385286	-0.0008346436	0.01542026	-0.001101364	0.1236342	0.9121061	0.02230664	-0.01497102
4.2e+08	0.0198624	-0.01766452	0.2257621	0.8914239	0.01414339	-0.003571755	0.003337481	-0.001198097
	0.2257621	0.8914239	0.02004331	-0.01658199	0.003337585	-0.001199895	0.01440905	-0.002518419
	0.01414339	-0.003571755	0.003337585	-0.001199895	0.01986649	-0.01770614	0.2292293	0.8904681
	0.003337481	-0.001198097	0.01440905	-0.002518419	0.2292293	0.8904681	0.02003368	-0.01669985
4.3e+08	0.01715839	-0.01881335	0.3280602	0.8580578	0.01270419	-0.004665695	0.003261345	-0.001563033
	0.3280602	0.8580578	0.01745192	-0.01776504	0.003261157	-0.001564938	0.01307859	-0.003651967
	0.01270419	-0.004665695	0.003261157	-0.001564938	0.01715831	-0.01884653	0.3314666	0.8566734
	0.003261345	-0.001563033	0.01307859	-0.003651967	0.3314666	0.8566734	0.01743006	-0.01787278
4.4e+08	0.01427004	-0.01932682	0.4256617	0.8130178	0.01103546	-0.005383835	0.003154604	-0.00193148
	0.4256617	0.8130178	0.01466371	-0.01833914	0.003154093	-0.001933432	0.01150517	-0.00443467
	0.01103546	-0.005383835	0.003154093	-0.001933432	0.01426813	-0.01935073	0.4289535	0.8112065
	0.003154604	-0.00193148	0.01150517	-0.00443467	0.4289535	0.8112065	0.01463264	-0.01843409
4.5e+08	0.01134776	-0.01918418	0.5172405	0.756941	0.00923308	-0.005682227	0.003012926	-0.002304254
	0.5172405	0.756941	0.01182283	-0.01828032	0.003012079	-0.002306186	0.009778796	-0.004819149
	0.00923308	-0.005682227	0.003012079	-0.002306186	0.01134656	-0.01919859	0.5203635	0.7547111
	0.003012926	-0.002304254	0.009778796	-0.004819149	0.5203635	0.7547111	0.01178618	-0.01836057
4.6e+08	0.008541705	-0.01839934	0.601554	0.6906149	0.007400693	-0.005540963	0.002830497	-0.002680137
	0.601554	0.6906149	0.009074	-0.01759775	0.002829317	-0.002681981	0.007998137	-0.00478068
	0.007400693	-0.005540963	0.002829317	-0.002681981	0.008543737	-0.01840466	0.6044544	0.6879819
	0.002830497	-0.002680137	0.007998137	-0.00478068	0.6044544	0.6879819	0.009035776	-0.01766231
4.7e+08	0.00599394	-0.01701966	0.6774605	0.6149675	0.005643757	-0.004965356	0.00260086	-0.003055315
	0.6774605	0.6149675	0.006555061	-0.0163328	0.002599369	-0.003057006	0.006264872	-0.00431861
	0.005643757	-0.004965356	0.002599369	-0.003057006	0.006001573	-0.01701686	0.6800861	0.6119537
	0.00260086	-0.003055315	0.006264872	-0.00431861	0.6800861	0.6119537	0.006519449	-0.01638161
4.8e+08	0.003831133	-0.01512313	0.7439357	0.5310541	0.004063473	-0.00398567	0.002317921	-0.003423144
	0.7439357	0.5310541	0.004389959	-0.0145565	0.002316154	-0.003424624	0.004677905	-0.00345639
	0.004063473	-0.00398567	0.002316154	-0.003424624	0.003846462	-0.01511383	0.7462363	0.5276886
	0.002317921	-0.003423144	0.004677905	-0.00345639	0.7462363	0.5276886	0.004361094	-0.01459056
4.9e+08	0.00215813	-0.0128139	0.8000869	0.4400426	0.002750961	-0.002655405	0.001976988	-0.003774276
	0.8000869	0.4400426	0.002682527	-0.01236545	0.001974992	-0.003775503	0.003327721	-0.002240225
	0.002750961	-0.002655405	0.001974992	-0.003775503	0.002182802	-0.0128002	0.8020157	0.4363611
	0.001976988	-0.003774276	0.003327721	-0.002240225	0.8020157	0.4363611	0.002664221	-0.01238677
5e+08	0.001052701	-0.01021648	0.8451658	0.3431971	0.001781998	-0.001048221	0.001575727	-0.004097155
	0.8451658	0.3431971	0.001511359	-0.009876478	0.001573555	-0.0040981	0.00229122	-0.000736413
	0.001781998	-0.001048221	0.001573555	-0.0040981	0.001087801	-0.01020086	0.8466798	0.3392417
	0.001575727	-0.004097155	0.00229122	-0.000736413	0.8466798	0.3392417	0.001506869	-0.009887936
5.1e+08	0.0005618251	-0.007468953	0.8785791	0.2418599	0.00121265	0.0007463007	0.001114902	-0.004378812
