!$
! Info: Touchstone file created by Circ.  Input file=Tx_16in_Rx_100ohms_TxVia_10mils_RxVia_20mils1.circ
!$
# Hz S RI R 50
0	0.01647362	1.185319e-25	-8.50908e-05	-1.172902e-25	9.827722e-05	2.070993e-23	-8.510377e-05	1.503063e-24
	-8.509082e-05	-1.15701e-25	0.01647643	1.376225e-25	-8.508971e-05	-1.061141e-25	9.571141e-05	2.347463e-23
	9.832417e-05	2.072203e-23	-8.508969e-05	-1.077658e-25	0.01648821	1.188367e-25	-8.509103e-05	1.03725e-25
	-8.510375e-05	1.501191e-24	9.716467e-05	2.416102e-23	-8.509102e-05	1.017885e-25	0.01648193	1.312075e-25
1e+07	0.02397546	0.008696428	-5.427877e-06	-1.606332e-05	0.0006037597	0.002721714	-5.138672e-06	-2.241309e-05
	-5.427877e-06	-1.606332e-05	0.02469662	0.008700877	-2.633156e-06	-4.584853e-06	0.001156418	0.002747061
	0.0006037637	0.002721711	-2.633156e-06	-4.584853e-06	0.02315833	0.009218987	-5.865099e-06	-5.910874e-06
	-5.138672e-06	-2.241309e-05	0.001156452	0.00274705	-5.865099e-06	-5.910875e-06	0.0244743	0.008742848
2e+07	0.03193514	0.01065175	-7.629738e-06	1.5049e-06	0.001888019	0.005198926	-4.011781e-06	-7.59742e-06
	-7.629738e-06	1.5049e-06	0.03250704	0.01040951	-3.48477e-05	-2.937874e-05	0.002271685	0.005484151
	0.001888018	0.005198923	-3.48477e-05	-2.937874e-05	0.03190553	0.0116746	-4.15675e-05	-2.785791e-05
	-4.011781e-06	-7.59742e-06	0.002271683	0.005484129	-4.15675e-05	-2.785791e-05	0.03237484	0.01055654
3e+07	0.0383729	0.008808094	-1.274116e-05	8.48507e-07	0.003841147	0.007078172	-3.553262e-06	-3.7061e-06
	-1.274116e-05	8.48507e-07	0.0388086	0.008486294	-5.989669e-05	-2.237718e-05	0.004106887	0.00745412
	0.003841147	0.007078171	-5.989669e-05	-2.237718e-05	0.03892419	0.009778051	-6.615771e-05	-1.953621e-05
	-3.553262e-06	-3.7061e-06	0.004106882	0.007454118	-6.615771e-05	-1.953621e-05	0.03875539	0.008660828
4e+07	0.04334389	0.004825774	-1.5968e-05	3.468206e-06	0.006248912	0.008226132	-2.957153e-06	-1.609269e-06
	-1.5968e-05	3.468206e-06	0.04365146	0.00448267	-7.66411e-05	-5.590225e-06	0.006461598	0.008643629
	0.006248913	0.008226131	-7.66411e-05	-5.590225e-06	0.04430685	0.005542415	-8.227916e-05	-1.629875e-06
	-2.957153e-06	-1.609269e-06	0.006461598	0.008643631	-8.227916e-05	-1.629876e-06	0.04366603	0.004652711
5e+07	0.04665101	-0.0005928221	-1.744257e-05	7.516047e-06	0.008857985	0.008552347	-2.225386e-06	-3.325684e-07
	-1.744257e-05	7.516047e-06	0.04684122	-0.0009183599	-8.545873e-05	1.617652e-05	0.009199393	0.008818702
	0.008857986	0.008552347	-8.545873e-05	1.617652e-05	0.04785914	-0.0002306678	-9.032325e-05	2.112365e-05
	-2.225386e-06	-3.325684e-07	0.009199392	0.008818702	-9.032325e-05	2.112365e-05	0.04690914	-0.0007719793
6e+07	0.04813217	-0.0068515	-1.725894e-05	1.213573e-05	0.0114018	0.008045485	-1.430801e-06	4.022034e-07
	-1.725894e-05	1.213573e-05	0.04822458	-0.007128061	-8.659668e-05	4.01439e-05	0.01179258	0.008151767
	0.0114018	0.008045484	-8.659668e-05	4.01439e-05	0.04942602	-0.006878502	-9.053599e-05	4.595636e-05
	-1.430801e-06	4.022035e-07	0.01179258	0.008151768	-9.053599e-05	4.595636e-05	0.0483305	-0.007017477
7e+07	0.04772677	-0.0133791	-1.551618e-05	1.677679e-05	0.01363587	0.006753566	-6.583886e-07	7.17558e-07
	-1.551618e-05	1.677679e-05	0.04774697	-0.01358462	-8.026252e-05	6.420439e-05	0.01399964	0.006736786
	0.01363587	0.006753566	-8.026252e-05	6.420439e-05	0.04896271	-0.01377799	-8.317383e-05	7.078384e-05
	-6.583885e-07	7.17558e-07	0.01399963	0.006736788	-8.317383e-05	7.078384e-05	0.04787435	-0.01351638
8e+07	0.04550063	-0.01963092	-1.231988e-05	2.103057e-05	0.01532322	0.004843271	2.341957e-09	7.05858e-07
	-1.231988e-05	2.103057e-05	0.04547707	-0.01975333	-6.676732e-05	8.660409e-05	0.01561737	0.004734293
	0.01532323	0.004843271	-6.676731e-05	8.660409e-05	0.0465587	-0.02034405	-6.84935e-05	9.381213e-05
	2.342084e-09	7.058579e-07	0.01561736	0.004734297	-6.84935e-05	9.381213e-05	0.04560929	-0.01972801
9e+07	0.04164868	-0.0251132	-7.741984e-06	2.457223e-05	0.01630331	0.002521899	4.846721e-07	4.578284e-07
	-7.741984e-06	2.457223e-05	0.04161048	-0.02515023	-4.626952e-05	0.0001057815	0.01649984	0.002357551
	0.01630332	0.002521898	-4.626952e-05	0.0001057815	0.04243635	-0.02605371	-4.659492e-05	0.0001134402
	4.846722e-07	4.578283e-07	0.01649984	0.002357555	-4.659492e-05	0.0001134402	0.04173275	-0.02516283
1e+08	0.03649773	-0.02941399	-1.363597e-06	2.702623e-05	0.01649405	3.263352e-05	7.323837e-07	6.768958e-08
	-1.363597e-06	2.702623e-05	0.03647419	-0.02937251	-1.662497e-05	0.0001198765	0.01656503	-0.0001467895
	0.01649405	3.263339e-05	-1.662497e-05	0.0001198765	0.03692799	-0.03047426	-1.527619e-05	0.0001277554
	7.323837e-07	6.768958e-08	0.01656503	-0.0001467896	-1.527619e-05	0.0001277554	0.03657345	-0.02941381
1.1e+08	0.03038766	-0.03231036	5.002994e-06	2.58059e-05	0.01587051	-0.002388385	7.369436e-07	-1.287249e-07
	5.002994e-06	2.58059e-05	0.03039736	-0.03221508	1.360913e-05	0.0001160968	0.01584616	-0.002485102
	0.01587051	-0.002388386	1.360913e-05	0.0001160968	0.03050541	-0.03325911	1.665096e-05	0.0001234626
	7.369436e-07	-1.287249e-07	0.01584616	-0.002485102	1.665096e-05	0.0001234626	0.03047077	-0.03226678
1.2e+08	0.02375623	-0.03348653	7.198919e-06	2.465451e-05	0.01449948	-0.004460315	4.994629e-07	-1.291036e-07
	7.198919e-06	2.465451e-05	0.02380501	-0.03335559	3.679239e-05	0.0001081137	0.0144446	-0.004473628
	0.01449948	-0.004460315	3.679239e-05	0.0001081137	0.02368229	-0.03428382	3.633581e-05	0.0001162411
	4.994629e-07	-1.291036e-07	0.0144446	-0.004473628	3.633581e-05	0.0001162411	0.02385682	-0.03341011
1.3e+08	0.01714079	-0.03289556	9.598155e-06	2.337489e-05	0.0125414	-0.005972456	3.022377e-07	-4.845553e-09
	9.598155e-06	2.337489e-05	0.01723077	-0.03274819	4.660217e-05	0.0001018726	0.0124924	-0.005916666
	0.0125414	-0.005972456	4.660217e-05	0.0001018726	0.01695242	-0.03352755	4.71124e-05	0.0001099312
	3.022377e-07	-4.845555e-09	0.0124924	-0.005916666	4.71124e-05	0.0001099312	0.01726434	-0.0327992
1.4e+08	0.01104023	-0.03063898	1.201953e-05	2.184047e-05	0.01020713	-0.006774418	1.841504e-07	1.702518e-07
	1.201953e-05	2.184047e-05	0.01116712	-0.03049384	5.654355e-05	9.462116e-05	0.01018567	-0.006671846
	0.01020713	-0.006774418	5.654355e-05	9.462116e-05	0.01079994	-0.03110978	5.802078e-05	0.0001024916
	1.841505e-07	1.702518e-07	0.01018567	-0.006671846	5.802078e-05	0.0001024916	0.01118684	-0.03053644
1.5e+08	0.005893397	-0.02695189	1.436799e-05	2.001958e-05	0.007741456	-0.006789823	1.552895e-07	3.68383e-07
	1.436799e-05	2.001958e-05	0.006046645	-0.02682488	6.615402e-05	8.623021e-05	0.007756065	-0.006665863
	0.007741456	-0.006789823	6.615402e-05	8.623021e-05	0.005650958	-0.02727881	6.857967e-05	9.378771e-05
	1.552895e-07	3.68383e-07	0.007756065	-0.006665863	6.857967e-05	9.378771e-05	0.006057743	-0.02685583
1.6e+08	0.002047052	-0.0221797	1.656449e-05	1.789943e-05	0.005398705	-0.006022966	2.156433e-07	5.594534e-07
	1.656449e-05	1.789943e-05	0.002210961	-0.02208189	7.50822e-05	7.66623e-05	0.005446154	-0.005901721
	0.005398705	-0.006022966	7.50822e-05	7.66623e-05	0.001839495	-0.022389	7.841344e-05	8.378537e-05
	2.156433e-07	5.594534e-07	0.005446154	-0.005901721	7.841344e-05	8.378537e-05	0.002219076	-0.02209982
1.7e+08	-0.0002696792	-0.01674657	1.85356e-05	1.548528e-05	0.003417168	-0.004557299	3.552662e-07	7.153622e-07
	1.85356e-05	1.548528e-05	-0.0001141047	-0.01668267	8.30242e-05	6.595808e-05	0.003484616	-0.004457914
	0.003417168	-0.004557299	8.30242e-05	6.595808e-05	-0.0004179309	-0.01686953	8.719727e-05	7.253347e-05
	3.552662e-07	7.153622e-07	0.003484616	-0.004457914	8.719727e-05	7.253347e-05	-0.0001034436	-0.01668804
1.8e+08	-0.0009611248	-0.01111798	2.021264e-05	1.280057e-05	0.001995328	-0.002545908	5.559378e-07	8.135618e-07
	2.021264e-05	1.280057e-05	-0.0008338571	-0.01108543	8.971238e-05	5.42272e-05	0.002063258	-0.002479842
	0.001995328	-0.002545908	8.971238e-05	5.42272e-05	-0.001037566	-0.01118734	9.464631e-05	6.015367e-05
	5.559378e-07	8.135618e-07	0.002063258	-0.002479842	9.464631e-05	6.015367e-05	-0.0008157387	-0.01108039
1.9e+08	-6.957686e-05	-0.005760477	2.153492e-05	9.884516e-06	0.001272443	-0.0001950659	7.939903e-07	8.394618e-07
	2.153492e-05	9.884516e-06	1.099884e-05	-0.0057494	9.491804e-05	4.164084e-05	0.001318153	-0.0001645129
	0.001272443	-0.0001950659	9.491804e-05	4.164084e-05	-7.231268e-05	-0.005807344	0.0001005185	4.683164e-05
	7.939903e-07	8.394618e-07	0.001318153	-0.0001645129	0.0001005185	4.683164e-05	4.040406e-05	-0.005737522
2e+08	0.002231955	-0.00110213	2.245138e-05	6.794146e-06	0.001315428	0.002257324	1.043711e-06	7.876242e-07
	2.245138e-05	6.794146e-06	0.002251531	-0.001096139	9.845907e-05	2.842155e-05	0.001316714	0.002259747
	0.001315428	0.002257324	9.845907e-05	2.842155e-05	0.002296032	-0.001153576	0.0001046226	3.280562e-05
	1.043711e-06	7.876242e-07	0.001316714	0.002259747	0.0001046226	3.280562e-05	0.002294615	-0.001081986
2.1e+08	0.005658012	0.002502876	2.292598e-05	3.599585e-06	0.002113242	0.004566076	1.280773e-06	6.612772e-07
	2.292598e-05	3.599585e-06	0.005608486	0.00252503	0.000100208	1.483087e-05	0.002051883	0.004556386
	0.002113242	0.004566076	0.000100208	1.483087e-05	0.005775404	0.002425566	0.0001068251	1.835274e-05
	1.280773e-06	6.612772e-07	0.002051883	0.004556386	0.0001068251	1.835274e-05	0.005665981	0.002536399
2.2e+08	0.009838209	0.004802474	2.294045e-05	3.766006e-07	0.003579168	0.006503325	1.484999e-06	4.705766e-07
	2.294045e-05	3.766006e-07	0.009719181	0.004864601	0.0001000972	1.154157e-06	0.003443823	0.006504133
	0.003579168	0.006503325	0.0001000972	1.154157e-06	0.009991165	0.004684811	0.0001070556	3.772936e-06
	1.484999e-06	4.705766e-07	0.003443823	0.006504133	0.0001070556	3.772936e-06	0.009790095	0.004868178
2.3e+08	0.01435141	0.005665451	2.24943e-05	-2.796996e-06	0.005560537	0.00788095	1.642094e-06	2.301932e-07
	2.24943e-05	-2.796996e-06	0.01417084	0.005791183	9.812078e-05	-1.231529e-05	0.005348745	0.007918566
	0.005560537	0.00788095	9.812078e-05	-1.231529e-05	0.01452027	0.005500062	0.0001053067	-1.062731e-05
	1.642094e-06	2.301932e-07	0.005348745	0.007918566	0.0001053067	-1.062731e-05	0.01425257	0.005782556
2.4e+08	0.01876342	0.00508925	2.1604e-05	-5.846251e-06	0.007854766	0.008568665	1.744201e-06	-4.342182e-08
	2.1604e-05	-5.846251e-06	0.01853733	0.005299172	9.433194e-05	-2.529111e-05	0.007573821	0.008669708
	0.007854766	0.008568665	9.433194e-05	-2.529111e-05	0.01892879	0.004875567	0.0001016311	-2.45497e-05
	1.744201e-06	-4.342182e-08	0.007573821	0.008669708	0.0001016311	-2.45497e-05	0.01862594	0.005275011
2.5e+08	0.0226648	0.00319648	2.030055e-05	-8.703319e-06	0.01022997	0.008506155	1.789308e-06	-3.345615e-07
	2.030055e-05	-8.703319e-06	0.02241605	0.003505454	8.883621e-05	-3.750755e-05	0.009896597	0.008694062
	0.01022997	0.008506155	8.883621e-05	-3.750755e-05	0.02280941	0.00293989	9.613386e-05	-3.771722e-05
	1.789308e-06	-3.345615e-07	0.009896597	0.008694062	9.613386e-05	-3.771722e-05	0.02250667	0.003463888
2.6e+08	0.0257056	0.0002206799	1.862619e-05	-1.131035e-05	0.01244813	0.007708247	1.779806e-06	-6.301083e-07
	1.862619e-05	-1.131035e-05	0.02546175	0.0006356886	8.178233e-05	-4.872906e-05	0.01208696	0.008000077
	0.01244813	0.007708247	8.178233e-05	-4.872906e-05	0.02581576	-6.871353e-05	8.896301e-05	-4.988304e-05
	1.779806e-06	-6.301083e-07	0.01208696	0.008000077	8.896301e-05	-4.988304e-05	0.02554912	0.0005765278
2.7e+08	0.02762405	-0.003517072	1.663057e-05	-1.362097e-05	0.01428851	0.006262746	1.720569e-06	-9.204956e-07
	1.663057e-05	-1.362097e-05	0.0274146	-0.002998338	7.335109e-05	-5.875644e-05	0.01392957	0.006666662
	0.01428851	0.006262746	7.335109e-05	-5.875644e-05	0.02769059	-0.00382597	8.02988e-05	-6.083589e-05
	1.720569e-06	-9.204956e-07	0.01392957	0.006666662	8.02988e-05	-6.083589e-05	0.0274936	-0.003073545
2.8e+08	0.02826687	-0.007638548	1.43672e-05	-1.560033e-05	0.01556923	0.004321263	1.617009e-06	-1.199706e-06
	1.43672e-05	-1.560033e-05	0.02812014	-0.007028123	6.374503e-05	-6.742902e-05	0.01524469	0.00483498
	0.01556923	0.004321263	6.374503e-05	-6.742902e-05	0.02828565	-0.007952088	7.034393e-05	-7.040184e-05
	1.617009e-06	-1.199706e-06	0.01524469	0.00483498	7.034393e-05	-7.040184e-05	0.02818638	-0.007116212
2.9e+08	0.02759988	-0.01174299	1.189039e-05	-1.722405e-05	0.01616491	0.002083945	1.473496e-06	-1.464468e-06
	1.189039e-05	-1.722405e-05	0.02753976	-0.011062	5.317876e-05	-7.462368e-05	0.01590543	0.002694351
	0.01616491	0.002083945	5.317876e-05	-7.462368e-05	0.02757173	-0.01204635	5.931453e-05	-7.844315e-05
	1.473496e-06	-1.464468e-06	0.01590543	0.002694351	5.931453e-05	-7.844315e-05	0.02759004	-0.01115851
3e+08	0.02570792	-0.0154429	9.253303e-06	-1.84764e-05	0.01601878	-0.0002204372	1.29241e-06	-1.712898e-06
	9.253303e-06	-1.84764e-05	0.02575099	-0.01471993	4.187173e-05	-8.025156e-05	0.01584986	0.0004635795
	0.01601878	-0.0002204372	4.187173e-05	-8.025156e-05	0.02563816	-0.01572276	4.743374e-05	-8.485526e-05
	1.29241e-06	-1.712898e-06	0.01584986	0.0004635795	4.743374e-05	-8.485526e-05	0.0257837	-0.01481952
3.1e+08	0.0227845	-0.01839799	6.507031e-06	-1.934836e-05	0.01514811	-0.002357158	1.074004e-06	-1.942951e-06
	6.507031e-06	-1.934836e-05	0.02293776	-0.01766645	3.004391e-05	-8.42542e-05	0.01508694	-0.001630529
	0.01514811	-0.002357158	3.004391e-05	-8.42542e-05	0.02268215	-0.01864371	3.492802e-05	-8.956341e-05
	1.074004e-06	-1.942951e-06	0.01508694	-0.001630529	3.492802e-05	-8.956341e-05	0.02295307	-0.01776349
3.2e+08	0.01911213	-0.02034434	3.700577e-06	-1.983585e-05	0.01364238	-0.004108807	8.169993e-07	-2.15105e-06
	3.700577e-06	-1.983585e-05	0.01937157	-0.01963926	1.791314e-05	-8.659938e-05	0.01369537	-0.003375441
	0.01364238	-0.004108807	1.791314e-05	-8.659938e-05	0.01898871	-0.02054883	2.202495e-05	-9.251923e-05
	8.169993e-07	-2.15105e-06	0.01369537	-0.003375441	2.202495e-05	-9.251923e-05	0.01937149	-0.01972838
3.3e+08	0.01503509	-0.02111641	8.815664e-07	-1.99386e-05	0.01165428	-0.005296902	5.197911e-07	-2.331199e-06
	8.815664e-07	-1.99386e-05	0.0153855	-0.02047079	5.694722e-06	-8.727824e-05	0.01181585	-0.004593818
	0.01165428	-0.005296902	5.694722e-06	-8.727824e-05	0.01490345	-0.02127657	8.952938e-06	-9.369879e-05
	5.197911e-07	-2.331199e-06	0.01181585	-0.004593818	8.952938e-06	-9.369879e-05	0.01537365	-0.02054748
3.4e+08	0.01092717	-0.02065985	-1.902781e-06	-1.965991e-05	0.009384484	-0.005799689	1.819443e-07	-2.474774e-06
	-1.902781e-06	-1.965991e-05	0.01134302	-0.02010107	-6.398293e-06	-8.630419e-05	0.009636982	-0.005161018
	0.009384484	-0.005799689	-6.398293e-06	-8.630419e-05	0.01080014	-0.02077665	-4.058517e-06	-9.310252e-05
	1.819443e-07	-2.474774e-06	0.009636982	-0.005161018	-4.058517e-06	-9.310252e-05	0.01132438	-0.02016215
3.5e+08	0.00715724	-0.0190343	-4.604838e-06	-1.900696e-05	0.007061478	-0.005564304	-1.943526e-07	-2.571074e-06
	-4.604838e-06	-1.900696e-05	0.007604788	-0.01858086	-1.815489e-05	-8.371281e-05	0.007376559	-0.005017399
	0.007061478	-0.005564304	-1.815489e-05	-8.371281e-05	0.007046465	-0.01911244	-1.677919e-05	-9.075611e-05
	-1.943526e-07	-2.571074e-06	0.007376559	-0.005017399	-1.677919e-05	-9.075611e-05	0.007585125	-0.0186249
3.6e+08	0.004055736	-0.0164057	-7.176165e-06	-1.799197e-05	0.004918586	-0.004612022	-6.03184e-07	-2.608489e-06
	-7.176165e-06	-1.799197e-05	0.004496089	-0.01606485	-2.936661e-05	-7.956361e-05	0.005259768	-0.00417414
	0.004918586	-0.004612022	-2.936661e-05	-7.956361e-05	0.003970616	-0.01645302	-2.897948e-05	-8.671299e-05
	-6.03184e-07	-2.608489e-06	0.005259768	-0.00417414	-2.897948e-05	-8.671299e-05	0.004481426	-0.01609232
3.7e+08	0.001885146	-0.01302916	-9.568057e-06	-1.663344e-05	0.003170485	-0.00303599	-1.034466e-06	-2.576128e-06
	-9.568057e-06	-1.663344e-05	0.002278052	-0.0127955	-3.982947e-05	-7.394197e-05	0.003496725	-0.002711946
	0.003170485	-0.00303599	-3.982947e-05	-7.394197e-05	0.00183211	-0.01305568	-4.043346e-05	-8.105688e-05
	-1.034466e-06	-2.576128e-06	0.003496725	-0.002711946	-4.043346e-05	-8.105688e-05	0.002274019	-0.01280878
3.8e+08	0.0008171683	-0.0092238	-1.17325e-05	-1.49574e-05	0.00199162	-0.0009916627	-1.474178e-06	-2.465485e-06
	-1.17325e-05	-1.49574e-05	0.001125131	-0.009079173	-4.934739e-05	-6.69614e-05	0.002261536	-0.0007727435
	0.00199162	-0.0009916626	-4.934739e-05	-6.69614e-05	0.0007992248	-0.009240718	-5.092367e-05	-7.390393e-05
	-1.474178e-06	-2.465485e-06	0.002261536	-0.0007727435	-5.092367e-05	-7.390393e-05	0.001136373	-0.009082359
3.9e+08	0.0009186078	-0.005342162	-1.362401e-05	-1.299821e-05	0.001498782	0.001319069	-1.905332e-06	-2.27192e-06
	-1.362401e-05	-1.299821e-05	0.001110901	-0.005256922	-5.773727e-05	-5.876484e-05	0.001675074	0.001454771
	0.001498782	0.001319069	-5.773727e-05	-5.876484e-05	0.0009352479	-0.005360747	-6.024726e-05	-6.540352e-05
	-1.905332e-06	-2.27192e-06	0.001675074	0.001454771	-6.024726e-05	-6.540352e-05	0.001140569	-0.005255431
4e+08	0.002147212	-0.001737001	-1.520188e-05	-1.079862e-05	0.001739615	0.003668388	-2.309456e-06	-1.995609e-06
	-1.520188e-05	-1.079862e-05	0.002203372	-0.001672509	-6.483513e-05	-4.952441e-05	0.001793217	0.003754205
	0.001739615	0.003668388	-6.483513e-05	-4.952441e-05	0.002194637	-0.001767543	-6.82231e-05	-5.573712e-05
	-2.309456e-06	-1.995609e-06	0.001793217	0.003754205	-6.82231e-05	-5.573712e-05	0.002252765	-0.001672551
4.1e+08	0.004357698	0.001271299	-1.643254e-05	-8.409055e-06	0.002688209	0.005825547	-2.668336e-06	-1.641836e-06
	-1.643254e-05	-8.409055e-06	0.004270097	0.001359138	-7.050294e-05	-3.943925e-05	0.002601706	0.005903186
	0.002688209	0.005825547	-7.050294e-05	-3.943925e-05	0.004429342	0.001220396	-7.469882e-05	-4.511493e-05
	-2.668336e-06	-1.641836e-06	0.002601706	0.005903186	-7.469882e-05	-4.511493e-05	0.004338484	0.001351185
4.2e+08	0.007317206	0.003423696	-1.729153e-05	-5.885923e-06	0.004248126	0.007579961	-2.965691e-06	-1.220577e-06
	-1.729153e-05	-5.885923e-06	0.007092405	0.003580174	-7.463489e-05	-2.873101e-05	0.004018065	0.007695463
	0.004248126	0.007579961	-7.463489e-05	-2.873101e-05	0.007404486	0.003346605	-7.955692e-05	-3.377035e-05
	-2.965691e-06	-1.220577e-06	0.004018065	0.007695463	-7.955692e-05	-3.377035e-05	0.007177054	0.003558417
4.3e+08	0.01072855	0.004545186	-1.7765e-05	-3.289391e-06	0.006262461	0.008762071	-3.188518e-06	-7.454937e-07
	-1.7765e-05	-3.289391e-06	0.01038724	0.004812246	-7.716257e-05	-1.763731e-05	0.005900263	0.008961173
	0.006262461	0.008762071	-7.716257e-05	-1.763731e-05	0.01082177	0.004439073	-8.27193e-05	-2.195268e-05
	-3.188518e-06	-7.454937e-07	0.005900263	0.008961173	-8.27193e-05	-2.195268e-05	0.01048366	0.00477189
4.4e+08	0.01425889	0.004559247	-1.785028e-05	-6.807046e-07	0.008529807	0.009259911	-3.327891e-06	-2.325614e-07
	-1.785028e-05	-6.807046e-07	0.01383442	0.004971111	-7.805803e-05	-6.403763e-06	0.008061168	0.009583287
	0.008529807	0.009259911	-7.805803e-05	-6.403763e-06	0.01434822	0.004424405	-8.414955e-05	-9.918958e-06
	-3.327891e-06	-2.325614e-07	0.008061168	0.009583287	-8.414955e-05	-9.918958e-06	0.01393678	0.004908972
4.5e+08	0.0175711	0.003492948	-1.755562e-05	1.880468e-06	0.01082446	0.009029822	-3.379154e-06	3.014093e-07
	-1.755562e-05	1.880468e-06	0.01710663	0.00407235	-7.733467e-05	4.724684e-06	0.01028724	0.009508701
	0.01082446	0.009029822	-7.733467e-05	4.724684e-06	0.01764749	0.003332618	-8.385304e-05	2.074522e-06
	-3.379154e-06	3.014093e-07	0.01028724	0.009508701	-8.385304e-05	2.074522e-06	0.01720832	0.003987213
4.6e+08	0.02035483	0.00147242	-1.689915e-05	4.338388e-06	0.01291879	0.008100377	-3.341555e-06	8.400908e-07
	-1.689915e-05	4.338388e-06	0.01989938	0.002227875	-7.504532e-05	1.551189e-05	0.0123596	0.008752982
	0.01291879	0.008100377	-7.504532e-05	1.551189e-05	0.02041087	0.001292349	-8.187483e-05	1.377994e-05
	-3.341555e-06	8.400908e-07	0.0123596	0.008752982	-8.187483e-05	1.377994e-05	0.01999369	0.002120655
4.7e+08	0.02235449	-0.001290588	-1.590722e-05	6.643005e-06	0.01460564	0.006569222	-3.217362e-06	1.368553e-06
	-1.590722e-05	6.643005e-06	0.02195833	-0.0003661964	-7.127854e-05	2.573713e-05	0.01407541	0.007398433
	0.01460564	0.006569222	-7.127854e-05	2.573713e-05	0.02238497	-0.00148282	-7.829525e-05	2.496417e-05
