!$
! Info: Touchstone file created by Circ.  Input file=Tx_16in_Rx_93ohms_TxVia_10mils_RxVia_20mils.circ
!$
# Hz S RI R 50
0	0.01458457	9.823007e-26	1.076543e-10	3.188017e-28	9.781074e-05	1.549593e-23	-4.980907e-09	6.100328e-25
	1.076661e-10	3.1898e-28	0.0145852	1.378952e-25	5.368879e-10	4.128694e-27	9.590697e-05	2.077018e-23
	9.651104e-05	1.509869e-23	5.368272e-10	4.13578e-27	0.01459964	1.028279e-25	-9.038506e-09	1.12072e-24
	-4.980035e-09	6.099261e-25	9.736093e-05	2.137749e-23	-9.038698e-09	1.120744e-24	0.01459073	1.314653e-25
1e+07	0.02055888	-0.002901951	4.096419e-11	-3.524752e-11	0.0006682369	0.002782671	-4.316473e-09	1.74769e-08
	4.096417e-11	-3.524781e-11	0.02097852	-0.002964644	6.31196e-10	1.060145e-09	0.0006616475	0.002774168
	0.0006681927	0.002782675	6.31196e-10	1.060146e-09	0.02099644	-0.002987714	-5.722425e-09	1.749594e-08
	-4.316473e-09	1.74769e-08	0.0006616808	0.002774156	-5.722425e-09	1.749594e-08	0.02055922	-0.002951324
2e+07	0.02267966	-0.01118297	4.567696e-11	-4.879437e-11	0.001903166	0.005331082	-1.571611e-09	1.448017e-08
	4.567671e-11	-4.879442e-11	0.02293032	-0.01142322	7.592175e-10	1.887916e-09	0.001885912	0.005320267
	0.001903156	0.00533111	7.592177e-10	1.887916e-09	0.02295651	-0.01147378	-3.011842e-09	1.55246e-08
	-1.571612e-09	1.448017e-08	0.00188591	0.005320245	-3.011841e-09	1.55246e-08	0.02263097	-0.01126815
3e+07	0.02058091	-0.02069784	5.721725e-11	-9.271709e-11	0.00393854	0.007167309	3.367602e-09	1.246309e-08
	5.721723e-11	-9.271703e-11	0.02067641	-0.02097108	7.685354e-10	2.724651e-09	0.003883397	0.00717619
	0.003938541	0.007167314	7.685355e-10	2.724651e-09	0.02071357	-0.02105664	2.724827e-09	1.413955e-08
	3.367601e-09	1.246309e-08	0.003883392	0.007176187	2.724827e-09	1.413955e-08	0.02046456	-0.02079295
4e+07	0.0151543	-0.02924973	5.045584e-11	-1.358688e-10	0.006454651	0.008188466	6.795097e-09	9.291796e-09
	5.045582e-11	-1.358689e-10	0.01510843	-0.02949276	7.590096e-10	3.626618e-09	0.006374976	0.008225396
	0.006454647	0.008188464	7.590096e-10	3.626618e-09	0.01515451	-0.02962274	6.724227e-09	1.112538e-08
	6.795097e-09	9.291796e-09	0.006374976	0.008225397	6.724227e-09	1.112538e-08	0.01495899	-0.0293265
5e+07	0.00723637	-0.03575913	4.419877e-11	-1.746435e-10	0.009109535	0.008352933	8.669178e-09	6.099467e-09
	4.419872e-11	-1.746435e-10	0.007072694	-0.03592499	7.657671e-10	4.568034e-09	0.009011157	0.008429445
	0.009109533	0.008352932	7.657671e-10	4.568034e-09	0.007120235	-0.03610819	8.917599e-09	7.982336e-09
	8.669178e-09	6.099467e-09	0.009011157	0.008429445	8.917599e-09	7.982336e-09	0.006962312	-0.03578449
6e+07	-0.002229628	-0.03957599	4.839733e-11	-2.235017e-10	0.01162944	0.007673372	9.668545e-09	3.605452e-09
	4.839746e-11	-2.235017e-10	-0.002477959	-0.03963038	7.928043e-10	5.525321e-09	0.01152262	0.007798299
	0.01162945	0.007673369	7.928043e-10	5.525321e-09	-0.00244114	-0.03987241	9.9688e-09	5.571615e-09
	9.668545e-09	3.605452e-09	0.01152262	0.0077983	9.9688e-09	5.571615e-09	-0.002568628	-0.03951917
7e+07	-0.01223809	-0.0404132	1.247525e-10	-3.335081e-10	0.01375982	0.006246189	1.054063e-08	2.834775e-09
	1.247529e-10	-3.335082e-10	-0.01253079	-0.04033547	8.411907e-10	6.44182e-09	0.01365812	0.006424126
	0.01375984	0.006246181	8.411906e-10	6.44182e-09	-0.01252	-0.04063671	1.032976e-08	4.758331e-09
	1.054063e-08	2.834775e-09	0.01365811	0.006424129	1.032976e-08	4.758331e-09	-0.01261758	-0.04025077
8e+07	-0.02180197	-0.03831994	-1.272356e-09	-5.24205e-10	0.01529167	0.004240854	8.445579e-09	6.637294e-09
	-1.272355e-09	-5.242053e-10	-0.02209541	-0.0381042	1.153246e-09	7.309277e-09	0.01521025	0.004471044
	0.01529168	0.004240842	1.153246e-09	7.309277e-09	-0.0221267	-0.03845858	8.451462e-09	6.709202e-09
	8.445579e-09	6.637294e-09	0.01521025	0.004471048	8.451462e-09	6.709202e-09	-0.02219017	-0.03803847
9e+07	-0.03003648	-0.03364464	-1.649719e-10	-3.456013e-10	0.0160817	0.001880917	9.866061e-10	3.630948e-09
	-1.649715e-10	-3.456017e-10	-0.03028776	-0.03329985	1.390591e-09	8.466838e-09	0.01603536	0.002156821
	0.01608171	0.001880907	1.390591e-09	8.466838e-09	-0.03037531	-0.0336947	2.23074e-09	5.360077e-09
	9.866061e-10	3.630948e-09	0.01603536	0.002156825	2.23074e-09	5.360077e-09	-0.03039768	-0.03324269
1e+08	-0.03621608	-0.02697987	-1.430791e-10	-2.971548e-10	0.01606368	-0.0005804463	-8.15905e-11	3.429678e-10
	-1.430791e-10	-2.971548e-10	-0.03638399	-0.02652878	1.55016e-09	9.51036e-09	0.01606514	-0.0002708775
	0.01606368	-0.0005804462	1.55016e-09	9.51036e-09	-0.03653745	-0.02694556	3.04687e-10	2.173379e-09
	-8.15905e-11	3.429678e-10	0.01606514	-0.0002708777	3.04687e-10	2.173379e-09	-0.0365146	-0.02646935
1.1e+08	-0.03993873	-0.01920046	-1.889923e-10	-2.675055e-10	0.01525597	-0.002877379	4.598849e-11	3.760927e-10
	-1.889923e-10	-2.675055e-10	-0.04000342	-0.01869266	1.884536e-09	1.038023e-08	0.01531173	-0.002552955
	0.01525597	-0.002877379	1.884536e-09	1.038023e-08	-0.04022611	-0.01911164	6.31512e-10	2.298198e-09
	4.598849e-11	3.760927e-10	0.01531173	-0.002552955	6.31512e-10	2.298198e-09	-0.04014623	-0.01860707
1.2e+08	-0.04105645	-0.01100271	-2.174835e-10	-2.178039e-10	0.01376252	-0.004778689	1.763894e-10	3.639069e-10
	-2.174835e-10	-2.178039e-10	-0.04101841	-0.0104733	2.24232e-09	1.11543e-08	0.01387266	-0.004457482
	0.01376252	-0.004778689	2.24232e-09	1.11543e-08	-0.04130647	-0.01086891	9.683367e-10	2.315892e-09
	1.763894e-10	3.639069e-10	0.01387266	-0.004457482	9.683367e-10	2.315892e-09	-0.04115431	-0.01036098
1.3e+08	-0.03959321	-0.003226575	-2.183496e-10	-1.533664e-10	0.01174549	-0.006094444	2.979385e-10	3.058815e-10
	-2.183496e-10	-1.533664e-10	-0.03945916	-0.002710786	2.59078e-09	1.182636e-08	0.01190421	-0.005794791
	0.01174549	-0.006094443	2.59078e-09	1.182636e-08	-0.03979896	-0.003059175	1.280365e-09	2.224043e-09
	2.979385e-10	3.058815e-10	0.01190421	-0.005794791	1.280365e-09	2.224043e-09	-0.03957561	-0.002576812
1.4e+08	-0.03585659	0.003357458	-1.846491e-10	-8.674955e-11	0.009417483	-0.006695143	3.955602e-10	2.068526e-10
	-1.846491e-10	-8.674955e-11	-0.03564394	0.003827257	2.894738e-09	1.240033e-08	0.009612637	-0.006433367
	0.009417483	-0.006695143	2.894738e-09	1.240033e-08	-0.0360133	0.003544834	1.530971e-09	2.029043e-09
	3.955602e-10	2.068526e-10	0.009612637	-0.006433367	1.530971e-09	2.029043e-09	-0.03573236	0.003974041
1.5e+08	-0.03037612	0.00812701	-1.16092e-10	-3.37908e-11	0.007019407	-0.006524039	4.566078e-10	7.711882e-11
	-1.16092e-10	-3.37908e-11	-0.03011247	0.008525064	3.120653e-09	1.289264e-08	0.007233236	-0.006312164
	0.007019407	-0.006524039	3.120653e-09	1.289264e-08	-0.03048272	0.008319451	1.684175e-09	1.749138e-09
	4.566078e-10	7.711882e-11	0.007233236	-0.006312164	1.684175e-09	1.749138e-09	-0.03016853	0.008673521
1.6e+08	-0.02384083	0.01066545	-1.718693e-11	-7.418596e-12	0.004796835	-0.005602018	4.725456e-10	-7.123449e-11
	-1.718693e-11	-7.418595e-12	-0.02356175	0.01097602	3.241131e-09	1.333137e-08	0.00500756	-0.005445846
	0.004796835	-0.005602018	3.241131e-09	1.333137e-08	-0.0239006	0.01084817	1.711646e-09	1.417684e-09
	4.725456e-10	-7.123449e-11	0.00500756	-0.005445846	1.711646e-09	1.417684e-09	-0.02358564	0.01111424
1.7e+08	-0.0170252	0.01079763	1.001001e-10	-1.913766e-11	0.002975983	-0.004025278	4.384555e-10	-2.229669e-10
	1.001001e-10	-1.913766e-11	-0.01677072	0.01101752	3.23923e-09	1.375415e-08	0.003160033	-0.003923077
	0.002975983	-0.004025278	3.23923e-09	1.375415e-08	-0.01704568	0.01095744	1.594076e-09	1.07709e-09
	4.384555e-10	-2.229669e-10	0.003160033	-0.003923077	1.594076e-09	1.07709e-09	-0.01676697	0.01113438
1.8e+08	-0.01070894	0.008601233	2.201445e-10	-7.434417e-11	0.001741305	-0.001955841	3.542757e-10	-3.618563e-10
	2.201445e-10	-7.434417e-11	-0.01051926	0.008741035	3.111706e-09	1.420399e-08	0.001875957	-0.001897853
	0.001741305	-0.001955841	3.111706e-09	1.420399e-08	-0.01070132	0.008727896	1.32726e-09	7.775747e-10
	3.542757e-10	-3.618563e-10	0.001875957	-0.001897853	1.32726e-09	7.775747e-10	-0.01049617	0.008827587
1.9e+08	-0.005598216	0.004392945	3.269444e-10	-1.717176e-10	0.001216809	0.000394525	2.248498e-10	-4.720308e-10
	3.269444e-10	-1.717176e-10	-0.00550898	0.00447683	2.870604e-09	1.472408e-08	0.001282926	0.0004256572
	0.001216809	0.0003945251	2.870604e-09	1.472408e-08	-0.005576195	0.004480219	9.255616e-10	5.712293e-10
	2.248498e-10	-4.720308e-10	0.001282926	0.0004256573	9.255616e-10	5.712293e-10	-0.005477636	0.004527418
2e+08	-0.00225545	-0.001308862	4.069613e-10	-3.043536e-10	0.001453106	0.00278573	5.977563e-11	-5.392294e-10
	4.069613e-10	-3.043536e-10	-0.002293289	-0.001245021	2.54283e-09	1.535231e-08	0.001437668	0.002813596
	0.001453106	0.00278573	2.54283e-09	1.535231e-08	-0.002233921	-0.001262588	4.226439e-10	5.044441e-10
	5.977563e-11	-5.392294e-10	0.001437668	0.002813596	4.226439e-10	5.044441e-10	-0.002266247	-0.001232005
2.1e+08	-0.001044867	-0.007841247	4.506595e-10	-4.619588e-10	0.002421866	0.004974139	-1.269288e-10	-5.521007e-10
	4.506595e-10	-4.619588e-10	-0.001223609	-0.007753218	2.167666e-09	1.611609e-08	0.002319965	0.005026368
	0.002421866	0.004974139	2.167666e-09	1.611609e-08	-0.001038367	-0.007832806	-1.312782e-10	6.101896e-10
	-1.269288e-10	-5.521007e-10	0.002319965	0.005026368	-1.312782e-10	6.101896e-10	-0.001213471	-0.00777506
2.2e+08	-0.002099058	-0.01446765	4.525034e-10	-6.330595e-10	0.004018595	0.006738131	-3.174736e-10	-5.036151e-10
	4.525034e-10	-6.330595e-10	-0.002417205	-0.01430739	1.792567e-09	1.702847e-08	0.003834643	0.006843567
	0.004018595	0.006738131	1.792567e-09	1.702847e-08	-0.002120279	-0.01448945	-6.755137e-10	9.019286e-10
	-3.174736e-10	-5.036151e-10	0.003834643	0.006843567	-6.755137e-10	9.019286e-10	-0.002435152	-0.01435727
2.3e+08	-0.005309902	-0.0204552	4.098932e-10	-8.062977e-10	0.006073737	0.007901534	-4.914793e-10	-3.925077e-10
	4.098932e-10	-8.062977e-10	-0.005749722	-0.02017614	1.4678e-09	1.808594e-08	0.005821682	0.008087079
	0.006073737	0.007901534	1.4678e-09	1.808594e-08	-0.005368381	-0.02049602	-1.147184e-09	1.370659e-09
	-4.914793e-10	-3.925077e-10	0.005821682	0.008087079	-1.147184e-09	1.370659e-09	-0.005804212	-0.02024381
2.4e+08	-0.01034448	-0.02515017	3.219768e-10	-9.704395e-10	0.008370947	0.008352152	-6.278632e-10	-2.244653e-10
	3.219768e-10	-9.704395e-10	-0.01087292	-0.02471269	1.240694e-09	1.926829e-08	0.008073414	0.008639608
	0.008370947	0.008352152	1.240694e-09	1.926829e-08	-0.01044562	-0.0251964	-1.489964e-09	1.98578e-09
	-6.278632e-10	-2.244653e-10	0.008073414	0.008639608	-1.489964e-09	1.98578e-09	-0.01096868	-0.02478558
2.5e+08	-0.01668381	-0.02804383	1.893469e-10	-1.113435e-09	0.01067044	0.00805316	-7.073918e-10	-1.263625e-11
	1.893469e-10	-1.113435e-09	-0.01725523	-0.02742022	1.150232e-09	2.054039e-08	0.01035683	0.008456444
	0.01067044	0.00805316	1.150232e-09	2.054039e-08	-0.01682833	-0.02808086	-1.66138e-09	2.699443e-09
	-7.073918e-10	-1.263625e-11	0.01035683	0.008456444	-1.66138e-09	2.699443e-09	-0.01739268	-0.02748473
2.6e+08	-0.02367984	-0.02882178	3.172118e-12	-1.214962e-09	0.0127346	0.00704611	-7.153663e-10	2.229184e-10
	3.172118e-12	-1.214962e-09	-0.02424039	-0.0280002	1.218668e-09	2.185739e-08	0.01243834	0.007569179
	0.0127346	0.00704611	1.218668e-09	2.185739e-08	-0.02386374	-0.02883563	-1.649363e-09	3.459767e-09
	-7.153663e-10	2.229184e-10	0.01243834	0.007569179	-1.649363e-09	3.459767e-09	-0.02441549	-0.0280432
2.7e+08	-0.03062423	-0.02739237	-2.140533e-10	-1.257303e-09	0.0143529	0.005445387	-6.449328e-10	4.570436e-10
	-2.140533e-10	-1.257303e-09	-0.03111735	-0.02637906	1.460976e-09	2.316656e-08	0.01410799	0.006081148
	0.0143529	0.005445387	1.460976e-09	2.316656e-08	-0.03083925	-0.02737104	-1.434633e-09	4.207061e-09
	-6.449328e-10	4.570436e-10	0.01410799	0.006081148	-1.434633e-09	4.207061e-09	-0.031322	-0.02638936
2.8e+08	-0.03682155	-0.0238918	-4.421167e-10	-1.228611e-09	0.01536323	0.003425071	-4.983951e-10	6.62687e-10
	-4.421167e-10	-1.228611e-09	-0.03719403	-0.02271155	1.871931e-09	2.441183e-08	0.01520062	0.004155456
	0.01536323	0.003425071	1.871931e-09	2.441183e-08	-0.03705598	-0.02382657	-1.025595e-09	4.878843e-09
	-4.983951e-10	6.62687e-10	0.01520062	0.004155456	-1.025595e-09	4.878843e-09	-0.03741693	-0.02268111
2.9e+08	-0.04165929	-0.01866631	-6.565767e-10	-1.121996e-09	0.01566762	0.001199975	-2.87734e-10	8.145035e-10
	-6.565767e-10	-1.121996e-09	-0.04186739	-0.01736081	2.427943e-09	2.554046e-08	0.01561164	0.00199723
	0.01566762	0.001199975	2.427943e-09	2.554046e-08	-0.04189923	-0.01855268	-4.499694e-10	5.418983e-09
	-2.87734e-10	8.145035e-10	0.01561164	0.00199723	-4.499694e-10	5.418983e-09	-0.04209518	-0.01728562
3e+08	-0.04466807	-0.01223397	-8.283629e-10	-9.39775e-10	0.01524092	-0.0009968471	-3.349033e-11	8.925e-10
	-8.283629e-10	-9.39775e-10	-0.04468275	-0.01085823	3.089204e-09	2.650836e-08	0.0153063	-0.0001677343
	0.01524092	-0.0009968471	3.089204e-09	2.650836e-08	-0.04489887	-0.0120721	2.500344e-10	5.780776e-09
	-3.349033e-11	8.925e-10	0.0153063	-0.0001677343	2.500344e-10	5.780776e-09	-0.04490144	-0.01073871
3.1e+08	-0.04556635	-0.005230378	-9.279232e-10	-6.964111e-10	0.01413204	-0.002937703	2.378038e-10	8.849119e-10
	-9.279232e-10	-6.964111e-10	-0.04537732	-0.003847502	3.802612e-09	2.728488e-08	0.01432176	-0.002115661
	0.01413204	-0.002937703	3.802612e-09	2.728488e-08	-0.04577414	-0.005025113	1.020189e-09	5.929656e-09
	2.378038e-10	8.849119e-10	0.01432176	-0.002115661	1.020189e-09	5.929656e-09	-0.04557371	-0.003688549
3.2e+08	-0.04428608	0.001655958	-9.310748e-10	-4.191632e-10	0.012458	-0.004422696	4.970935e-10	7.897656e-10
	-9.310748e-10	-4.191632e-10	-0.04390386	0.002981143	4.506118e-09	2.785681e-08	0.01276236	-0.003646628
	0.012458	-0.004422696	4.506118e-09	2.785681e-08	-0.04445919	0.00189558	1.796625e-09	5.845884e-09
	4.970935e-10	7.897656e-10	0.01276236	-0.003646628	1.796625e-09	5.845884e-09	-0.04406695	0.003170648
3.3e+08	-0.04097718	0.007752408	-8.251002e-10	-1.455582e-10	0.01039163	-0.005299033	7.164776e-10	6.149225e-10
	-8.251002e-10	-1.455582e-10	-0.04043309	0.00896019	5.134325e-09	2.823111e-08	0.01078858	-0.004603686
	0.01039163	-0.005299033	5.134325e-09	2.823111e-08	-0.04110739	0.008014053	2.508773e-09	5.527661e-09
	7.164776e-10	6.149225e-10	0.01078858	-0.004603686	2.508773e-09	5.527661e-09	-0.04055523	0.009168271
3.4e+08	-0.03599092	0.01246862	-6.132672e-10	8.220418e-11	0.008144203	-0.005475628	8.724222e-10	3.767575e-10
	-6.132672e-10	8.220418e-11	-0.03533481	0.01351104	5.625048e-09	2.843587e-08	0.008601098	-0.004887711
	0.008144203	-0.005475628	5.625048e-09	2.843587e-08	-0.03607432	0.0127379	3.083814e-09	4.994401e-09
	8.724222e-10	3.767575e-10	0.008601098	-0.004887711	3.083814e-09	4.994401e-09	-0.03541254	0.01372383
3.5e+08	-0.02984389	0.01535439	-3.162412e-10	2.24774e-10	0.00594463	-0.004931841	9.480433e-10	9.791088e-11
	-3.162412e-10	2.24774e-10	-0.02913982	0.01620095	5.926281e-09	2.851908e-08	0.006421081	-0.004466812
	0.00594463	-0.004931841	5.926281e-09	2.851908e-08	-0.02988133	0.01561635	3.453233e-09	4.28911e-09
	9.480433e-10	9.791088e-11	0.006421081	-0.004466812	3.453233e-09	4.28911e-09	-0.02917426	0.01640411
3.6e+08	-0.02316611	0.01614366	3.032914e-11	2.532504e-10	0.004016856	-0.003719572	9.342992e-10	-1.953287e-10
	3.032914e-11	2.532504e-10	-0.02248624	0.01678537	6.00277e-09	2.854502e-08	0.004468618	-0.003379472
	0.004016856	-0.003719572	6.002771e-09	2.854502e-08	-0.02316318	0.01638426	3.561338e-09	3.47841e-09
	9.342992e-10	-1.953287e-10	0.004468618	-0.003379472	3.561338e-09	3.47841e-09	-0.02248306	0.01696559
3.7e+08	-0.01663807	0.01478033	3.816305e-10	1.548452e-10	0.002557552	-0.001958411	8.302342e-10	-4.755176e-10
	3.816305e-10	1.548452e-10	-0.01605546	0.0152318	5.841281e-09	2.858828e-08	0.002940961	-0.001731013
	0.002557552	-0.001958411	5.841281e-09	2.858828e-08	-0.0166046	0.01498797	3.374561e-09	2.648855e-09
	8.302342e-10	-4.755176e-10	0.002940961	-0.001731013	3.374561e-09	2.648855e-09	-0.01602436	0.01537817
3.8e+08	-0.0109228	0.0114234	6.914557e-10	-6.487631e-11	0.00171612	0.0001759436	6.426127e-10	-7.161557e-10
	6.914557e-10	-6.487631e-11	-0.01050376	0.01172237	5.453633e-09	2.872601e-08	0.001992664	0.000316528
	0.00171612	0.0001759436	5.453633e-09	2.872601e-08	-0.01087189	0.01159014	2.889595e-09	1.898938e-09
	6.426127e-10	-7.161557e-10	0.001992664	0.000316528	2.889595e-09	1.898938e-09	-0.01045748	0.01182759
3.9e+08	-0.006599614	0.006430609	9.198887e-10	-3.836334e-10	0.001579071	0.002469147	3.852983e-10	-8.933909e-10
	9.198887e-10	-3.836334e-10	-0.006396393	0.006635117	4.876875e-09	2.90293e-08	0.001719631	0.002560403
	0.001579071	0.002469147	4.876875e-09	2.90293e-08	-0.006546309	0.006553054	2.138084e-09	1.32739e-09
	3.852983e-10	-8.933909e-10	0.001719631	0.002560403	2.138084e-09	1.32739e-09	-0.00634947	0.006696315
4e+08	-0.004106152	0.0003221066	1.038979e-09	-7.672148e-10	0.002160589	0.004690016	7.857494e-11	-9.875503e-10
	1.038979e-09	-7.672148e-10	-0.004150826	0.0005053342	4.170364e-09	2.955476e-08	0.002148877	0.004777662
	0.002160589	0.004690016	4.170364e-09	2.955476e-08	-0.004065934	0.0004018505	1.186099e-09	1.019586e-09
	7.857494e-11	-9.875503e-10	0.002148877	0.004777662	1.186099e-09	1.019586e-09	-0.004118053	0.0005244408
4.1e+08	-0.003694825	-0.00627231	1.035254e-09	-1.17578e-09	0.003400553	0.006614516	-2.516636e-10	-9.84758e-10
	1.035254e-09	-1.17578e-09	-0.003994999	-0.006029031	3.410008e-09	3.033758e-08	0.003235365	0.006748137
	0.003400553	0.006614516	3.410008e-09	3.033758e-08	-0.003681959	-0.006228771	1.277633e-10	1.034754e-09
	-2.516636e-10	-9.84758e-10	0.003235365	0.006748137	1.277633e-10	1.034754e-09	-0.003989882	-0.006045406
4.2e+08	-0.005408127	-0.01267704	9.090553e-10	-1.56976e-09	0.005170519	0.008049338	-5.751588e-10	-8.78746e-10
	9.090553e-10	-1.56976e-09	-0.005945076	-0.01229237	2.680394e-09	3.138695e-08	0.004866512	0.008277433
	0.005170519	0.008049338	2.680394e-09	3.138695e-08	-0.005434148	-0.01265892	-9.261472e-10	1.396702e-09
	-5.751588e-10	-8.78746e-10	0.004866512	0.008277433	-9.261472e-10	1.396702e-09	-0.005978379	-0.01233357
4.3e+08	-0.009075468	-0.0182389	6.717624e-10	-1.913897e-09	0.007287172	0.008852343	-8.593384e-10	-6.726537e-10
	6.717624e-10	-1.913897e-09	-0.009804973	-0.01763998	2.06581e-09	3.268434e-08	0.006874021	0.009217281
	0.007287172	0.008852343	2.06581e-09	3.268434e-08	-0.009147915	-0.01823219	-1.862441e-09	2.09005e-09
	-8.593384e-10	-6.726537e-10	0.006874021	0.009217281	-1.862441e-09	2.09005e-09	-0.009883533	-0.01769239
4.4e+08	-0.01433172	-0.02239261	3.425073e-10	-2.178934e-09	0.00953181	0.008947476	-1.072373e-09	-3.803089e-10
	3.425073e-10	-2.178934e-09	-0.01518763	-0.02152302	1.641294e-09	3.418505e-08	0.009051774	0.009480876
	0.00953181	0.008947476	1.641294e-09	3.418505e-08	-0.01445328	-0.02238153	-2.579741e-09	3.062523e-09
	-1.072373e-09	-3.803089e-10	0.009051774	0.009480876	-2.579741e-09	3.062523e-09	-0.01531358	-0.02157143
4.5e+08	-0.0206553	-0.02471672	-5.416604e-11	-2.341576e-09	0.01167359	0.008332398	-1.187061e-09	-2.634132e-11
	-5.416604e-11	-2.341576e-09	-0.02155553	-0.02354294	1.464751e-09	3.582237e-08	0.01117767	0.009051452
	0.01167359	0.008332398	1.464751e-09	3.582237e-08	-0.02082349	-0.02468535	-3.000057e-09	4.232405e-09
	-1.187061e-09	-2.634132e-11	0.01117767	0.009051452	-3.000057e-09	4.232405e-09	-0.02172606	-0.02357219
4.6e+08	-0.02742163	-0.02497438	-4.890544e-10	-2.384035e-09	0.0134938	0.007078061	-1.184944e-09	3.553878e-10
	-4.890544e-10	-2.384035e-09	-0.02827605	-0.02349012	1.570932e-09	3.751407e-08	0.01303684	0.00798321
	0.0134938	0.007078061	1.570932e-09	3.751407e-08	-0.02762895	-0.02490831	-3.075972e-09	5.49904e-09
	-1.184944e-09	3.553878e-10	0.01303684	0.00798321	-3.075972e-09	5.49904e-09	-0.0284836	-0.02348673
4.7e+08	-0.03396605	-0.02313503	-9.278748e-10	-2.294555e-09	0.01480845	0.00532047	-1.059799e-09	7.251798e-10
	-9.278748e-10	-2.294555e-09	-0.03468545	-0.0213629	1.967737e-09	3.91702e-08	0.01444367	0.006394728
	0.01480845	0.00532047	1.967737e-09	3.91702e-08	-0.03420072	-0.02302291	-2.793271e-09	6.7541e-09
	-1.059799e-09	7.251798e-10	0.01444367	0.006394728	-2.793271e-09	6.7541e-09	-0.03491855	-0.02131636
