!$
! Info: Touchstone file created by Circ.  Input file=Tx_10in_Rx_93ohms_TxVia_10mils_RxVia_20mils.circ
!$
# Hz S RI R 50
0	0.009215936	6.386939e-26	-1.749943e-11	4.079532e-27	6.508257e-05	9.559134e-24	-2.148066e-08	2.630578e-24
	-1.748519e-11	4.078516e-27	0.009215257	9.171071e-26	1.57199e-11	2.222716e-28	6.468643e-05	1.309144e-23
	6.319332e-05	9.424404e-24	1.568483e-11	2.226169e-28	0.00922985	6.646269e-26	1.73528e-08	7.366544e-27
	-2.148139e-08	2.630668e-24	6.614241e-05	1.347423e-23	1.735332e-08	7.365402e-27	0.009220838	8.746129e-26
1e+07	0.01362558	-0.0004231996	3.284113e-11	-4.980773e-11	0.0003066444	0.001667106	-5.584171e-09	1.934745e-08
	3.284113e-11	-4.980803e-11	0.01341322	-0.001016818	-4.33836e-12	-7.865855e-11	0.0003195168	0.001827384
	0.0003066055	0.001667131	-4.338392e-12	-7.865824e-11	0.01268204	-0.0009085008	-7.552988e-09	1.908386e-08
	-5.584171e-09	1.934745e-08	0.0003195496	0.001827372	-7.552988e-09	1.908386e-08	0.01315211	-0.00102417
2e+07	0.01631892	-0.004573972	4.010549e-11	-6.771372e-11	0.0008989724	0.0033209	-3.527564e-09	2.347216e-08
	4.010517e-11	-6.77139e-11	0.01550009	-0.005413464	1.241013e-12	-1.856143e-10	0.0008101127	0.00361985
	0.00089898	0.003320918	1.241228e-12	-1.856141e-10	0.0150627	-0.00498656	-8.841268e-09	1.994183e-08
	-3.527564e-09	2.347216e-08	0.0008101101	0.003619828	-8.841268e-09	1.994183e-08	0.015303	-0.005336113
3e+07	0.01701526	-0.01013963	3.989796e-11	-1.430624e-10	0.001798027	0.004818583	1.753561e-09	1.76787e-08
	3.989792e-11	-1.430624e-10	0.01572784	-0.0109064	-5.352795e-11	-2.085694e-10	0.001696466	0.005178522
	0.001798025	0.004818584	-5.352786e-11	-2.085695e-10	0.01553235	-0.01041387	-3.404189e-09	2.236837e-08
	1.753561e-09	1.76787e-08	0.001696461	0.005178519	-3.404189e-09	2.236837e-08	0.01557861	-0.01081377
4e+07	0.01611016	-0.01596849	3.81416e-11	-2.068561e-10	0.002968902	0.006099339	4.21848e-09	1.435155e-08
	3.814165e-11	-2.068561e-10	0.01445187	-0.0165263	-3.691509e-11	-2.724285e-10	0.002906326	0.006481857
	0.002968897	0.006099342	-3.691513e-11	-2.724286e-10	0.0144667	-0.01605255	2.654099e-09	1.866753e-08
	4.21848e-09	1.435155e-08	0.002906326	0.006481858	2.654099e-09	1.866753e-08	0.01433903	-0.01643908
5e+07	0.01381087	-0.02159452	4.672086e-11	-2.721817e-10	0.004361195	0.007111786	6.940274e-09	1.308677e-08
	4.672088e-11	-2.721817e-10	0.01187245	-0.02185405	-8.01739e-11	-3.171969e-10	0.004328315	0.007503177
	0.004361194	0.007111787	-8.017389e-11	-3.171969e-10	0.01206721	-0.02145457	5.725094e-09	1.28714e-08
	6.940274e-09	1.308677e-08	0.004328315	0.007503178	5.725094e-09	1.28714e-08	0.0117846	-0.02178192
6e+07	0.01030595	-0.02669543	6.561562e-11	-3.513982e-10	0.005914757	0.007817282	1.299535e-08	1.080226e-08
	6.561564e-11	-3.513981e-10	0.008178142	-0.02659517	-1.100026e-10	-3.360799e-10	0.005902585	0.00820971
	0.005914758	0.00781728	-1.100027e-10	-3.360799e-10	0.008520208	-0.02631128	6.450889e-09	7.408932e-09
	1.299535e-08	1.080226e-08	0.005902581	0.008209711	6.450889e-09	7.408932e-09	0.00810554	-0.02654286
7e+07	0.005797041	-0.03102707	9.025704e-11	-4.453499e-10	0.007563177	0.00819109	1.623144e-08	1.15542e-09
	9.025715e-11	-4.453498e-10	0.003572589	-0.03052664	-1.316158e-10	-3.536075e-10	0.007563071	0.008580183
	0.007563177	0.008191084	-1.316159e-10	-3.536075e-10	0.004026106	-0.03038966	5.791609e-09	2.967659e-09
	1.623144e-08	1.15542e-09	0.007563066	0.008580186	5.791609e-09	2.967659e-09	0.003506205	-0.03049645
8e+07	0.0005036373	-0.03440665	1.171148e-10	-5.311449e-10	0.009237146	0.008223243	1.190566e-08	-4.817839e-09
	1.171149e-10	-5.31145e-10	-0.001721694	-0.03348313	-1.554996e-10	-3.780204e-10	0.009240551	0.008606611
	0.009237145	0.008223237	-1.554997e-10	-3.780203e-10	-0.001196048	-0.03351607	4.39385e-09	-3.309917e-10
	1.190566e-08	-4.817839e-09	0.009240546	0.008606615	4.393849e-09	-3.309917e-10	-0.00179082	-0.03347526
9e+07	-0.005341533	-0.03670824	1.024545e-10	-5.894027e-10	0.01086845	0.007919205	8.48633e-09	-6.312034e-09
	1.024546e-10	-5.894027e-10	-0.00746568	-0.03535223	-1.790775e-10	-4.201776e-10	0.01086568	0.00829488
	0.01086845	0.007919201	-1.790776e-10	-4.201776e-10	-0.0069116	-0.03557111	2.640706e-09	-2.513394e-09
	8.48633e-09	-6.312034e-09	0.01086567	0.008294884	2.640706e-09	-2.513394e-09	-0.007546363	-0.03536478
1e+08	-0.01151397	-0.03786958	1.298759e-11	-7.118454e-10	0.01240124	0.007304861	6.201003e-09	-6.667078e-09
	1.298759e-11	-7.118454e-10	-0.01339437	-0.03606349	-1.854895e-10	-4.811788e-10	0.01237182	0.007664056
	0.01240124	0.007304861	-1.854895e-10	-4.811788e-10	-0.0128716	-0.03648496	7.423978e-10	-3.745066e-09
	6.201003e-09	-6.667078e-09	0.01237182	0.007664056	7.423978e-10	-3.745066e-09	-0.01349717	-0.03609428
1.1e+08	-0.01777288	-0.03777042	-1.598613e-11	-8.061028e-10	0.01372851	0.006438412	5.537476e-09	-8.493607e-09
	-1.598613e-11	-8.061028e-10	-0.01925827	-0.03573876	-1.886147e-10	-5.050081e-10	0.01369585	0.006748378
	0.01372851	0.006438413	-1.886147e-10	-5.050081e-10	-0.01882931	-0.03629306	6.065028e-10	-4.334523e-09
	5.537476e-09	-8.493607e-09	0.01369585	0.006748378	6.065028e-10	-4.334523e-09	-0.01939184	-0.03576895
1.2e+08	-0.02378457	-0.03648955	-5.85437e-11	-8.938447e-10	0.01481165	0.005310269	4.445086e-09	-1.023833e-08
	-5.85437e-11	-8.938447e-10	-0.0249382	-0.03433056	-1.858782e-10	-5.288477e-10	0.01478881	0.005592974
	0.01481165	0.005310269	-1.858782e-10	-5.288477e-10	-0.02459373	-0.03498753	3.860244e-10	-4.91205e-09
	4.445086e-09	-1.023833e-08	0.01478881	0.005592974	3.860244e-10	-4.91205e-09	-0.02509588	-0.03435045
1.3e+08	-0.02934615	-0.03412743	-1.132556e-10	-9.739324e-10	0.01561872	0.003984679	2.935695e-09	-1.179808e-08
	-1.132556e-10	-9.739324e-10	-0.0301922	-0.0318972	-1.773515e-10	-5.544837e-10	0.01560864	0.004249935
	0.01561872	0.003984679	-1.773515e-10	-5.544837e-10	-0.02993632	-0.03263855	8.220042e-11	-5.459089e-09
	2.935695e-09	-1.179808e-08	0.01560864	0.004249935	8.220042e-11	-5.459089e-09	-0.03036917	-0.03190064
1.4e+08	-0.0342638	-0.03081028	-1.795072e-10	-1.043605e-09	0.01612042	0.002524977	1.045711e-09	-1.307102e-08
	-1.795072e-10	-1.043605e-09	-0.03482109	-0.02855371	-1.637416e-10	-5.836309e-10	0.01612502	0.002778804
	0.01612042	0.002524977	-1.637416e-10	-5.836309e-10	-0.03465898	-0.0293624	-3.004446e-10	-5.95575e-09
	1.045711e-09	-1.307102e-08	0.01612502	0.002778804	-3.004446e-10	-5.95575e-09	-0.03501214	-0.02853618
1.5e+08	-0.03837292	-0.02669615	-2.543298e-10	-1.099413e-09	0.01629927	0.0009976121	-1.16462e-09	-1.396314e-08
	-2.543298e-10	-1.099413e-09	-0.03865953	-0.02445198	-1.45732e-10	-6.173913e-10	0.01632029	0.001243584
	0.01629927	0.0009976123	-1.45732e-10	-6.173913e-10	-0.0385955	-0.02531076	-7.50972e-10	-6.382297e-09
	-1.16462e-09	-1.396314e-08	0.01632029	0.001243584	-7.50972e-10	-6.382297e-09	-0.038859	-0.02441041
1.6e+08	-0.04154467	-0.02196912	-3.344806e-10	-1.138835e-09	0.01615095	-0.0005297115	-3.612996e-09	-1.439377e-08
	-3.344806e-10	-1.138835e-09	-0.04157959	-0.01977192	-1.244415e-10	-6.569335e-10	0.01618999	-0.0002899445
	0.01615095	-0.0005297113	-1.244415e-10	-6.569335e-10	-0.04161614	-0.02066295	-1.254315e-09	-6.721705e-09
	-3.612996e-09	-1.439377e-08	0.01618999	-0.0002899445	-1.254315e-09	-6.721705e-09	-0.04178154	-0.01970469
1.7e+08	-0.04368999	-0.016832	-4.159201e-10	-1.160159e-09	0.01568444	-0.001990472	-6.198088e-09	-1.430058e-08
	-4.159201e-10	-1.160159e-09	-0.04349398	-0.01471292	-1.012393e-10	-7.031636e-10	0.01574276	-0.001756858
	0.01568444	-0.001990472	-1.012393e-10	-7.031636e-10	-0.0436312	-0.01561784	-1.791164e-09	-6.960412e-09
	-6.198088e-09	-1.430058e-08	0.01574276	-0.001756858	-1.791164e-09	-6.960412e-09	-0.04369242	-0.01461981
1.8e+08	-0.04476198	-0.01149822	-4.940492e-10	-1.162764e-09	0.01492154	-0.003321813	-8.803677e-09	-1.364394e-08
	-4.940492e-10	-1.162764e-09	-0.04435802	-0.00948528	-7.768719e-11	-7.566778e-10	0.01499981	-0.003095615
	0.01492154	-0.003321813	-7.768719e-11	-7.566778e-10	-0.04459313	-0.01038553	-2.338821e-09	-7.089381e-09
	-8.803677e-09	-1.364394e-08	0.01499981	-0.003095615	-2.338821e-09	-7.089381e-09	-0.04454719	-0.009367444
1.9e+08	-0.04475657	-0.006183623	-5.640517e-10	-1.147301e-09	0.01389589	-0.004466901	-1.130375e-08	-1.241023e-08
	-5.640517e-10	-1.147301e-09	-0.04417012	-0.00430165	-5.547608e-11	-8.177259e-10	0.01399394	-0.004250397
	0.01389589	-0.004466901	-5.547608e-11	-8.177259e-10	-0.04449718	-0.005178918	-2.872318e-09	-7.104928e-09
	-1.130375e-08	-1.241023e-08	0.01399394	-0.004250397	-2.872318e-09	-7.104928e-09	-0.04434473	-0.004161475
2e+08	-0.04371173	-0.001098264	-6.212874e-10	-1.115749e-09	0.01265156	-0.005377038	-1.356829e-08	-1.06141e-08
	-6.212874e-10	-1.115749e-09	-0.04297081	0.0006313763	-3.635678e-11	-8.861842e-10	0.01276815	-0.005173196
	0.01265156	-0.005377038	-3.635678e-11	-8.861842e-10	-0.04338054	-0.0002054354	-3.365744e-09	-7.009236e-09
	-1.356829e-08	-1.06141e-08	0.01276815	-0.005173196	-3.365744e-09	-7.009236e-09	-0.04312627	0.0007903964
2.1e+08	-0.04170527	0.003562069	-6.616904e-10	-1.071351e-09	0.01123661	-0.006025551	-1.546952e-08	-8.29943e-09
	-6.616904e-10	-1.071351e-09	-0.04084024	0.00512121	-2.203414e-11	-9.615463e-10	0.01137388	-0.005825592
	0.01123661	-0.006025551	-2.203414e-11	-9.615463e-10	-0.04132016	0.004341473	-3.793178e-09	-6.81038e-09
	-1.546952e-08	-8.29943e-09	0.01137388	-0.005825592	-3.793178e-09	-6.81038e-09	-0.04097287	0.00529466
2.2e+08	-0.03885057	0.007621854	-6.821335e-10	-1.01838e-09	0.009707788	-0.006382453	-1.688854e-08	-5.538847e-09
	-6.821335e-10	-1.01838e-09	-0.03789428	0.00899653	-1.414043e-11	-1.042922e-09	0.009868961	-0.006180171
	0.009707788	-0.006382453	-1.414043e-11	-1.042922e-09	-0.03842843	0.008288393	-4.130883e-09	-6.522702e-09
	-1.688854e-08	-5.538847e-09	0.009868961	-0.006180171	-4.130883e-09	-6.522702e-09	-0.03800147	0.009179287
2.3e+08	-0.03529203	0.01093165	-6.806857e-10	-9.618259e-10	0.008134331	-0.006416872	-1.772179e-08	-2.431739e-09
	-6.806857e-10	-9.618259e-10	-0.03427942	0.01211362	-1.416419e-11	-1.129026e-09	0.008315388	-0.006221534
	0.008134331	-0.006416872	-1.416419e-11	-1.129026e-09	-0.0348487	0.01148777	-4.359225e-09	-6.165953e-09
	-1.772179e-08	-2.431739e-09	0.008315388	-0.006221534	-4.359225e-09	-6.165953e-09	-0.03435972	0.0123001
2.4e+08	-0.03119945	0.01337517	-6.567644e-10	-9.070462e-10	0.006582359	-0.006127353	-1.788674e-08	8.988505e-10
	-6.567644e-10	-9.070462e-10	-0.03016656	0.01436163	-2.328551e-11	-1.218235e-09	0.00677689	-0.005946875
	0.006582359	-0.006127353	-2.328551e-11	-1.218235e-09	-0.03074959	0.01382502	-4.4625e-09	-5.764065e-09
	-1.788674e-08	8.988505e-10	0.00677689	-0.005946875	-4.4625e-09	-5.764065e-09	-0.03021977	0.01454603
2.5e+08	-0.02676076	0.01487254	-6.111625e-10	-8.593522e-10	0.005116865	-0.005525649	-1.732734e-08	4.310891e-09
	-6.111625e-10	-8.593522e-10	-0.02574394	0.01566643	-4.232721e-11	-1.308636e-09	0.00531644	-0.005366093
	0.005116865	-0.005525649	-4.232721e-11	-1.308636e-09	-0.02631779	0.01522178	-4.43039e-09	-5.344343e-09
	-1.732734e-08	4.310891e-09	0.00531644	-0.005366093	-4.43039e-09	-5.344343e-09	-0.02577112	0.01584302
2.6e+08	-0.02217458	0.01538293	-5.459427e-10	-8.236342e-10	0.003799117	-0.004636284	-1.601829e-08	7.649142e-09
	-5.459427e-10	-8.236342e-10	-0.02120951	0.0159932	-7.168038e-11	-1.39811e-09	0.00399378	-0.004501424
	0.003799117	-0.004636284	-7.168038e-11	-1.39811e-09	-0.0217506	0.01563857	-4.258605e-09	-4.9362e-09
	-1.601829e-08	7.649142e-09	0.00399378	-0.004501424	-4.258605e-09	-4.9362e-09	-0.02121297	0.01615651
2.7e+08	-0.01764231	0.01490566	-4.642278e-10	-8.040493e-10	0.0026842	-0.003495585	-1.396801e-08	1.07519e-08
	-4.642278e-10	-8.040493e-10	-0.01676302	0.0153472	-1.112529e-10	-1.48442e-09	0.002863024	-0.003386602
	0.0026842	-0.003495585	-1.112529e-10	-1.48442e-09	-0.01724799	0.01507584	-3.949225e-09	-4.569805e-09
	-1.396801e-08	1.07519e-08	0.002863024	-0.003386602	-3.949225e-09	-4.569805e-09	-0.01674617	0.01549236
2.8e+08	-0.01336022	0.01347978	-3.699157e-10	-8.038181e-10	0.00181875	-0.002150258	-1.12202e-08	1.345841e-08
	-3.699157e-10	-8.038181e-10	-0.01259801	0.01377329	-1.604316e-10	-1.565337e-09	0.001970467	-0.002065549
	0.00181875	-0.002150258	-1.604316e-10	-1.565337e-09	-0.01300475	0.01357365	-3.510741e-09	-4.274709e-09
	-1.12202e-08	1.345841e-08	0.001970467	-0.002065549	-3.510741e-09	-4.274709e-09	-0.01256526	0.01389627
2.9e+08	-0.009511786	0.01118217	-2.673686e-10	-8.25128e-10	0.00123901	-0.0006555138	-7.853664e-09	1.561667e-08
	-2.673686e-10	-8.25128e-10	-0.008894121	0.01135373	-2.180812e-10	-1.638761e-09	0.001352659	-0.0005906488
	0.00123901	-0.0006555138	-2.180812e-10	-1.638761e-09	-0.009202825	0.01120969	-2.957806e-09	-4.07852e-09
	-7.853664e-09	1.561667e-08	0.001352659	-0.0005906488	-2.957806e-09	-4.07852e-09	-0.008850687	0.01145147
3e+08	-0.006260539	0.008124053	-1.611183e-10	-8.691446e-10	0.0009692803	0.0009271848	-3.980429e-09	1.709112e-08
	-1.611183e-10	-8.691446e-10	-0.005810046	0.008204519	-2.825726e-10	-1.702851e-09	0.00103486	0.0009793683
	0.0009692803	0.0009271848	-2.825726e-10	-1.702851e-09	-0.006004126	0.008095782	-2.31073e-09	-4.005679e-09
	-3.980429e-09	1.709112e-08	0.00103486	0.0009793682	-2.31073e-09	-4.005679e-09	-0.005761721	0.00827511
3.1e+08	-0.003743749	0.004446295	-5.562645e-11	-9.361105e-10	0.001020839	0.002532663	2.57862e-10	1.776995e-08
	-5.562645e-11	-9.361105e-10	-0.00347728	0.004470435	-3.518455e-10	-1.756139e-09	0.001029932	0.00258182
	0.001020839	0.002532663	-3.518455e-10	-1.756139e-09	-0.003544279	0.004373224	-1.594764e-09	-4.076372e-09
	2.57862e-10	1.776995e-08	0.001029932	0.00258182	-1.594764e-09	-4.076372e-09	-0.003430185	0.004513216
3.2e+08	-0.00206719	0.0003134643	4.487714e-11	-1.025496e-09	0.001391415	0.004094772	4.695181e-09	1.757161e-08
	4.487714e-11	-1.025496e-09	-0.001995054	0.000318899	-4.235009e-10	-1.797643e-09	0.001337753	0.00415268
	0.001391415	0.004094772	-4.235009e-10	-1.797643e-09	-0.001927383	0.0002067947	-8.392147e-10	-4.305614e-09
	4.695181e-09	1.757161e-08	0.001337753	0.00415268	-8.392147e-10	-4.305614e-09	-0.001955373	0.0003345123
3.3e+08	-0.00130119	-0.004092981	1.364689e-10	-1.136161e-09	0.002065236	0.005549201	9.147776e-09	1.645002e-08
	1.364689e-10	-1.136161e-09	-0.001426584	-0.004067003	-4.949194e-10	-1.826937e-09	0.001945177	0.005629263
	0.002065236	0.005549201	-4.949194e-10	-1.826937e-09	-0.001222084	-0.004222051	-7.64034e-11	-4.702502e-09
	9.147776e-09	1.645002e-08	0.001945177	0.005629263	-7.64034e-11	-4.702502e-09	-0.001400285	-0.004076621
3.4e+08	-0.001478134	-0.008582151	2.155308e-10	-1.266486e-09	0.003013669	0.006836238	1.342195e-08	1.439837e-08
	2.155308e-10	-1.266486e-09	-0.001796819	-0.008496107	-5.633988e-10	-1.844205e-09	0.002826562	0.006952891
	0.003013669	0.006836238	-5.633988e-10	-1.844205e-09	-0.001459111	-0.008722651	6.594726e-10	-5.269651e-09
	1.342195e-08	1.439837e-08	0.002826562	0.006952891	6.594726e-10	-5.269651e-09	-0.001789383	-0.008527787
3.5e+08	-0.002591534	-0.01296151	2.787012e-10	-1.414448e-09	0.004196434	0.007903339	1.732262e-08	1.145108e-08
	2.787012e-10	-1.414448e-09	-0.003091768	-0.01277703	-6.26301e-10	-1.85025e-09	0.003944853	0.00807138
	0.004196434	0.007903339	-6.26301e-10	-1.85025e-09	-0.002630362	-0.01310292	1.333579e-09	-6.002834e-09
	1.732262e-08	1.145108e-08	0.003944853	0.00807138	1.333579e-09	-6.002834e-09	-0.003107939	-0.0128265
3.6e+08	-0.004596658	-0.01704465	3.228165e-10	-1.577622e-09	0.005563346	0.008707398	2.066221e-08	7.683886e-09
	3.228165e-10	-1.577622e-09	-0.005259432	-0.01672596	-6.811987e-10	-1.846472e-09	0.005253176	0.008941268
	0.005563346	0.008707398	-6.811987e-10	-1.846472e-09	-0.004689579	-0.01717712	1.911753e-09	-6.890814e-09
	2.066221e-08	7.683886e-09	0.005253176	0.008941268	1.911753e-09	-6.890814e-09	-0.005302993	-0.01678801
3.7e+08	-0.007412727	-0.02065876	3.448835e-10	-1.75311e-09	0.007056497	0.009216592	2.326947e-08	3.211994e-09
	3.448835e-10	-1.75311e-09	-0.00821228	-0.0201741	-7.260123e-10	-1.834801e-09	0.006696856	0.009529638
	0.007056497	0.009216592	-7.260123e-10	-1.834801e-09	-0.007554572	-0.02077333	2.361868e-09	-7.915408e-09
	2.326947e-08	3.211994e-09	0.006696856	0.009529638	2.361868e-09	-7.915408e-09	-0.008285869	-0.02024279
3.8e+08	-0.01092653	-0.02365142	3.421181e-10	-1.937433e-09	0.008612779	0.009411715	2.499776e-08	-1.813687e-09
	3.421181e-10	-1.937433e-09	-0.01183115	-0.02297435	-7.591268e-10	-1.817611e-09	0.00821579	0.009815477
	0.008612779	0.009411715	-7.591268e-10	-1.817611e-09	-0.01111086	-0.02374023	2.655223e-09	-9.051798e-09
	2.499776e-08	-1.813687e-09	0.00821579	0.009815477	2.655223e-09	-9.051798e-09	-0.01193614	-0.0230433
3.9e+08	-0.01499733	-0.02589657	3.12072e-10	-2.126409e-09	0.01016663	0.009286949	2.573247e-08	-7.212018e-09
	3.12072e-10	-2.126409e-09	-0.01597042	-0.0250071	-7.794825e-10	-1.797594e-09	0.009747024	0.009790498
	0.01016663	0.009286949	-7.794825e-10	-1.797594e-09	-0.01521663	-0.02595302	2.76792e-09	-1.026911e-08
	2.573247e-08	-7.212018e-09	0.009747024	0.009790498	2.76792e-09	-1.026911e-08	-0.0161068	-0.0250697
4e+08	-0.01946276	-0.02729922	2.52851e-10	-2.315077e-09	0.01165285	0.008850027	2.539707e-08	-1.277861e-08
	2.52851e-10	-2.315077e-09	-0.02046411	-0.02618474	-7.866319e-10	-1.777631e-09	0.01122744	0.009459392
	0.01165285	0.008850027	-7.866319e-10	-1.777631e-09	-0.01970862	-0.02731814	2.682177e-09	-1.153129e-08
	2.539707e-08	-1.277861e-08	0.01122744	0.009459392	2.682177e-09	-1.153129e-08	-0.02063055	-0.02623453
4.1e+08	-0.02414557	-0.02779898	1.634053e-10	-2.497696e-09	0.0130094	0.008121804	2.395768e-08	-1.829396e-08
	1.634053e-10	-2.497696e-09	-0.02513288	-0.02645496	-7.807627e-10	-1.760644e-09	0.01259642	0.008839513
	0.0130094	0.008121804	-7.807627e-10	-1.760644e-09	-0.02440897	-0.02777677	2.387502e-09	-1.27983e-08
	2.395768e-08	-1.829396e-08	0.01259642	0.008839513	2.387502e-09	-1.27983e-08	-0.02532668	-0.02648581
4.2e+08	-0.02886084	-0.02737208	4.385464e-11	-2.667877e-09	0.01417998	0.00713526	2.142586e-08	-2.353243e-08
	4.385464e-11	-2.667877e-09	-0.02979126	-0.02580241	-7.626857e-10	-1.749455e-09	0.01379834	0.007960032
	0.01417998	0.00713526	-7.626857e-10	-1.749455e-09	-0.02913237	-0.02730676	1.881652e-09	-1.402757e-08
	2.142586e-08	-2.353243e-08	0.01379834	0.007960032	1.881652e-09	-1.402757e-08	-0.03000852	-0.02580885
4.3e+08	-0.03342338	-0.02603194	-1.04202e-10	-2.818838e-09	0.01511636	0.005934003	1.785951e-08	-2.827165e-08
	-1.04202e-10	-2.818838e-09	-0.03425522	-0.02424899	-7.337918e-10	-1.74666e-09	0.01478483	0.006860594
	0.01511636	0.005934003	-7.337918e-10	-1.74666e-09	-0.03369351	-0.02592321	1.171299e-09	-1.517572e-08
	1.785951e-08	-2.827165e-08	0.01478483	0.006860594	1.171299e-09	-1.517572e-08	-0.03449095	-0.02422646
4.4e+08	-0.03765503	-0.02382828	-2.7745e-10	-2.943805e-09	0.0157803	0.00457034	1.33618e-08	-3.230201e-08
	-2.7745e-10	-2.943805e-09	-0.03834943	-0.02185262	-6.959829e-10	-1.754513e-09	0.01551664	0.005589576
	0.0157803	0.00457034	-6.959829e-10	-1.754513e-09	-0.03791443	-0.02367753	2.723131e-10	-1.620052e-08
	1.33618e-08	-3.230201e-08	0.01551664	0.005589576	2.723131e-10	-1.620052e-08	-0.03859779	-0.02179765
4.5e+08	-0.04139164	-0.02084482	-4.707239e-10	-3.036496e-09	0.01614505	0.003103033	8.078332e-09	-3.543579e-08
	-4.707239e-10	-3.036496e-09	-0.04191414	-0.0187046	-6.515847e-10	-1.774836e-09	0.01596521	0.004202015
	0.01614505	0.003103033	-6.515847e-10	-1.774836e-09	-0.04163142	-0.02065505	-7.903677e-10	-1.70629e-08
	8.078332e-09	-3.543579e-08	0.01596521	0.004202015	-7.903677e-10	-1.70629e-08	-0.04216868	-0.01861497
4.6e+08	-0.04448939	-0.01719571	-6.811194e-10	-3.092552e-09	0.0161963	0.001594823	2.190669e-09	-3.75111e-08
	-6.811194e-10	-3.092552e-09	-0.04481139	-0.01492571	-6.031606e-10	-1.808576e-09	0.01611361	0.002757318
	0.0161963	0.001594823	-6.031606e-10	-1.808576e-09	-0.04470133	-0.01697146	-1.987451e-09	-1.773e-08
	2.190669e-09	-3.75111e-08	0.01611361	0.002757318	-1.987451e-09	-1.773e-08	-0.04506532	-0.01480058
4.7e+08	-0.04683007	-0.01302076	-8.970198e-10	-3.106949e-09	0.01593269	0.0001098448	-4.083304e-09	-3.841194e-08
