!$
! Info: Touchstone file created by Circ.  Input file=Tx_12in_Rx_93ohms_TxVia_10mils_RxVia_20mils.circ
!$
# Hz S RI R 50
0	0.01101243	7.452936e-26	-1.751996e-11	4.066317e-27	7.556926e-05	1.143302e-23	-2.140284e-08	2.62104e-24
	-1.750574e-11	4.065301e-27	0.01101173	1.072198e-25	1.514682e-11	2.63294e-28	7.517067e-05	1.56603e-23
	7.368015e-05	1.127185e-23	1.511186e-11	2.636405e-28	0.01102625	7.755249e-26	1.729031e-08	7.323838e-27
	-2.140356e-08	2.621129e-24	7.662598e-05	1.611821e-23	1.729083e-08	7.322707e-27	0.01101729	1.022377e-25
1e+07	0.01624305	-0.0008617043	3.005378e-11	-5.323186e-11	0.0004018811	0.001958449	-4.737129e-09	1.944992e-08
	3.005376e-11	-5.323215e-11	0.01597524	-0.001563834	-5.665701e-12	-8.05984e-11	0.0004210311	0.002149318
	0.0004018421	0.001958474	-5.66572e-12	-8.059809e-11	0.01510291	-0.001416722	-6.70121e-09	1.927368e-08
	-4.737129e-09	1.944992e-08	0.0004210641	0.002149306	-6.70121e-09	1.927368e-08	0.01566056	-0.001566417
2e+07	0.01916809	-0.006266357	3.722702e-11	-7.558041e-11	0.001215584	0.003859802	-1.547421e-09	2.35033e-08
	3.722669e-11	-7.558056e-11	0.0181564	-0.007223495	-6.257748e-12	-1.87897e-10	0.001123858	0.004219488
	0.001215592	0.003859821	-6.257521e-12	-1.878969e-10	0.01765374	-0.00669571	-7.074873e-09	2.04453e-08
	-1.547421e-09	2.35033e-08	0.001123855	0.004219467	-7.074873e-09	2.04453e-08	0.01792273	-0.007122657
3e+07	0.01937157	-0.01326143	3.289497e-11	-1.549026e-10	0.002442646	0.005504658	3.921307e-09	1.71641e-08
	3.289493e-11	-1.549025e-10	0.01779907	-0.01407658	-6.062117e-11	-2.055498e-10	0.002347245	0.005937858
	0.002442643	0.005504658	-6.062109e-11	-2.055499e-10	0.01759837	-0.01348108	-5.356921e-10	2.240381e-08
	3.921307e-09	1.71641e-08	0.00234724	0.005937855	-5.356921e-10	2.240381e-08	0.01762537	-0.01395754
4e+07	0.01737174	-0.02032957	2.727711e-11	-2.225252e-10	0.004011418	0.006799083	6.515088e-09	1.331607e-08
	2.727715e-11	-2.225252e-10	0.01537826	-0.02083241	-4.865268e-11	-2.712447e-10	0.003972555	0.007255147
	0.004011413	0.006799086	-4.865273e-11	-2.712448e-10	0.01543404	-0.02027756	5.771314e-09	1.777257e-08
	6.515088e-09	1.331607e-08	0.003972555	0.007255149	5.771314e-09	1.777257e-08	0.01524906	-0.02072042
5e+07	0.01350462	-0.02680011	3.092737e-11	-2.934947e-10	0.005825326	0.007671057	9.472647e-09	1.125244e-08
	3.092738e-11	-2.934947e-10	0.01122457	-0.02688549	-9.224858e-11	-3.082943e-10	0.005831158	0.008132288
	0.005825324	0.007671059	-9.224858e-11	-3.082943e-10	0.01149027	-0.02644154	8.395524e-09	1.125201e-08
	9.472647e-09	1.125244e-08	0.005831158	0.008132289	8.395524e-09	1.125201e-08	0.01112489	-0.02679186
6e+07	0.008118126	-0.03220946	4.093818e-11	-3.815744e-10	0.007773268	0.008076038	1.523943e-08	7.212627e-09
	4.093822e-11	-3.815744e-10	0.00568596	-0.03181488	-1.15226e-10	-3.214464e-10	0.007812346	0.008532276
	0.007773269	0.008076035	-1.152261e-10	-3.214464e-10	0.006110945	-0.03153111	8.3529e-09	5.447892e-09
	1.523943e-08	7.212627e-09	0.007812343	0.008532277	8.3529e-09	5.447892e-09	0.005602959	-0.03174438
7e+07	0.001597448	-0.03622912	4.960285e-11	-4.879988e-10	0.009737612	0.007998831	1.599852e-08	-3.467888e-09
	4.960297e-11	-4.879988e-10	-0.0008526085	-0.03532653	-1.274586e-10	-3.348026e-10	0.00979911	0.008444462
	0.009737612	0.007998826	-1.274587e-10	-3.348026e-10	-0.0003229717	-0.03523591	6.852498e-09	1.030553e-09
	1.599852e-08	-3.467888e-09	0.009799105	0.008444465	6.852498e-09	1.030553e-09	-0.0009305489	-0.03528034
8e+07	-0.005642245	-0.03864907	5.775325e-11	-5.886253e-10	0.01160203	0.007453901	1.00089e-08	-8.364691e-09
	5.775335e-11	-5.886254e-10	-0.007977562	-0.03724018	-1.415686e-10	-3.537494e-10	0.0116755	0.007885997
	0.01160203	0.007453895	-1.415686e-10	-3.537493e-10	-0.007400926	-0.03736123	4.705949e-09	-1.946642e-09
	1.00089e-08	-8.364691e-09	0.0116755	0.007886001	4.705948e-09	-1.946642e-09	-0.008061178	-0.0372163
9e+07	-0.01317453	-0.03937247	3.364513e-11	-6.503987e-10	0.01325973	0.006484136	6.086309e-09	-8.961133e-09
	3.364518e-11	-6.503988e-10	-0.01526253	-0.03748394	-1.595604e-10	-3.886602e-10	0.01333363	0.006900796
	0.01325973	0.006484132	-1.595605e-10	-3.886602e-10	-0.01469936	-0.0378222	2.424073e-09	-3.590482e-09
	6.086309e-09	-8.961133e-09	0.01333362	0.0069008	2.424073e-09	-3.590482e-09	-0.01536131	-0.03747755
1e+08	-0.02059997	-0.03841668	-8.274404e-11	-7.408873e-10	0.0146298	0.005161787	3.624752e-09	-8.661481e-09
	-8.274404e-11	-7.408873e-10	-0.0222695	-0.03608235	-1.682216e-10	-4.462603e-10	0.01467961	0.005556093
	0.01462979	0.005161787	-1.682216e-10	-4.462603e-10	-0.0217958	-0.03663656	2.82083e-10	-4.134874e-09
	3.624752e-09	-8.661481e-09	0.01467961	0.005556093	2.82083e-10	-4.134874e-09	-0.02239389	-0.03608778
1.1e+08	-0.02750405	-0.03578192	-1.361906e-10	-8.215526e-10	0.01559423	0.003610087	2.045091e-09	-1.017759e-08
	-1.361906e-10	-8.215526e-10	-0.02863707	-0.0333045	-1.585932e-10	-4.711091e-10	0.01563713	0.003942337
	0.01559423	0.003610087	-1.585932e-10	-4.711091e-10	-0.02830951	-0.03397589	-2.987358e-11	-4.679161e-09
	2.045091e-09	-1.017759e-08	0.01563713	0.003942336	-2.987358e-11	-4.679161e-09	-0.0287914	-0.03329863
1.2e+08	-0.03344638	-0.03174382	-2.022019e-10	-8.857368e-10	0.01610841	0.001870848	3.058828e-11	-1.131474e-08
	-2.022019e-10	-8.857368e-10	-0.03414169	-0.029239	-1.423944e-10	-4.999095e-10	0.01616077	0.002162117
	0.01610841	0.001870849	-1.423944e-10	-4.999095e-10	-0.03394287	-0.0299873	-4.325215e-10	-5.153968e-09
	3.058828e-11	-1.131474e-08	0.01616077	0.002162117	-4.325215e-10	-5.153968e-09	-0.03431455	-0.02921261
1.3e+08	-0.03817094	-0.02659749	-2.762817e-10	-9.319117e-10	0.01616165	6.420883e-05	-2.319875e-09	-1.194744e-08
	-2.762817e-10	-9.319117e-10	-0.03848009	-0.02413809	-1.208876e-10	-5.348731e-10	0.01622646	0.0003237228
	0.01616165	6.420897e-05	-1.208876e-10	-5.348731e-10	-0.03840728	-0.02493406	-9.076724e-10	-5.534903e-09
	-2.319875e-09	-1.194744e-08	0.01622646	0.0003237228	-9.076724e-10	-5.534903e-09	-0.03866277	-0.02408642
1.4e+08	-0.04147985	-0.02067705	-3.540984e-10	-9.573114e-10	0.01575863	-0.001695233	-4.872127e-09	-1.197641e-08
	-3.540984e-10	-9.573114e-10	-0.04144924	-0.0183207	-9.615266e-11	-5.776507e-10	0.01583681	-0.001462341
	0.01575863	-0.001695233	-9.615266e-11	-5.776507e-10	-0.04149888	-0.01913711	-1.431098e-09	-5.800558e-09
	-4.872127e-09	-1.197641e-08	0.01583681	-0.001462341	-1.431098e-09	-5.800558e-09	-0.04163319	-0.0182417
1.5e+08	-0.04325864	-0.01434645	-4.283856e-10	-9.607848e-10	0.01492886	-0.003298974	-7.464745e-09	-1.133871e-08
	-4.283856e-10	-9.607848e-10	-0.04293501	-0.01214013	-7.010153e-11	-6.291398e-10	0.01502031	-0.003090135
	0.01492886	-0.003298974	-7.010153e-11	-6.291398e-10	-0.04310029	-0.01295099	-1.970468e-09	-5.936616e-09
	-7.464745e-09	-1.133871e-08	0.01502031	-0.003090135	-1.970468e-09	-5.936616e-09	-0.04311198	-0.01203419
1.6e+08	-0.04348126	-0.007979892	-4.924335e-10	-9.433346e-10	0.01372559	-0.004649702	-9.918885e-09	-1.001489e-08
	-4.924335e-10	-9.433346e-10	-0.04291323	-0.00596142	-4.516357e-11	-6.898489e-10	0.01382919	-0.004464107
	0.01372559	-0.004649702	-4.516357e-11	-6.898489e-10	-0.04318322	-0.006742371	-2.490369e-09	-5.937762e-09
	-9.918885e-09	-1.001489e-08	0.01382919	-0.004464107	-2.490369e-09	-5.937762e-09	-0.04307572	-0.005831138
1.7e+08	-0.04220912	-0.001941523	-5.398999e-10	-9.081246e-10	0.01222277	-0.005666231	-1.204997e-08	-8.033519e-09
	-5.398999e-10	-9.081246e-10	-0.04144758	-0.0001399708	-2.389154e-11	-7.596381e-10	0.01233627	-0.005504186
	0.01222277	-0.005666231	-2.389154e-11	-7.596381e-10	-0.0418069	-0.0008689914	-2.953981e-09	-5.808625e-09
	-1.204997e-08	-8.033519e-09	0.01233627	-0.005504186	-2.953981e-09	-5.808625e-09	-0.04158923	1.017939e-05
1.8e+08	-0.03958537	0.003433964	-5.655715e-10	-8.603073e-10	0.0105108	-0.006287647	-1.368047e-08	-5.472586e-09
	-5.655715e-10	-8.603073e-10	-0.03868321	0.004998371	-8.797952e-12	-8.376874e-10	0.01063066	-0.006149965
	0.0105108	-0.006287647	-8.797952e-12	-8.376874e-10	-0.03911213	0.004339969	-3.325941e-09	-5.564033e-09
	-1.368047e-08	-5.472586e-09	0.01063066	-0.006149965	-3.325941e-09	-5.564033e-09	-0.03879917	0.005162392
1.9e+08	-0.03582504	0.007858753	-5.660198e-10	-8.065447e-10	0.008691374	-0.006476423	-1.465304e-08	-2.457526e-09
	-5.660198e-10	-8.065447e-10	-0.03483642	0.009174936	-2.18208e-12	-9.225018e-10	0.008812787	-0.006363831
	0.008691374	-0.006476423	-2.18208e-12	-9.225018e-10	-0.03531136	0.008601499	-3.575201e-09	-5.228407e-09
	-1.465304e-08	-2.457526e-09	0.008812787	-0.006363831	-3.575201e-09	-5.228407e-09	-0.03492366	0.009345767
2e+08	-0.03120157	0.01110656	-5.400204e-10	-7.543074e-10	0.006871839	-0.006220324	-1.484299e-08	8.442078e-10
	-5.400204e-10	-7.543074e-10	-0.03018087	0.01217291	-5.949793e-12	-1.011958e-09	0.006988793	-0.0061329
	0.006871839	-0.006220324	-5.949794e-12	-1.011958e-09	-0.03067516	0.01169346	-3.677593e-09	-4.834339e-09
	-1.484299e-08	8.442078e-10	0.006988793	-0.0061329	-3.677593e-09	-4.834339e-09	-0.03023836	0.01234292
2.1e+08	-0.02603026	0.01302446	-4.886755e-10	-7.110789e-10	0.005152938	-0.005540535	-1.416937e-08	4.231783e-09
	-4.886755e-10	-7.110789e-10	-0.02503103	0.01384837	-2.141814e-11	-1.103425e-09	0.00526469	-0.005469671
	0.005152938	-0.005540535	-2.141814e-11	-1.103425e-09	-0.0255157	0.01346649	-3.617345e-09	-4.420792e-09
	-1.416937e-08	4.231783e-09	0.00526469	-0.005469671	-3.617345e-09	-4.420792e-09	-0.02505976	0.01400989
2.2e+08	-0.0206501	0.01353845	-4.152089e-10	-6.835801e-10	0.003635533	-0.004471784	-1.26038e-08	7.482747e-09
	-4.152089e-10	-6.835801e-10	-0.01972356	0.01413717	-4.921343e-11	-1.193882e-09	0.003740432	-0.004411341
	0.003635533	-0.004471784	-4.921343e-11	-1.193882e-09	-0.02016863	0.01384952	-3.389634e-09	-4.030446e-09
	-1.26038e-08	7.482747e-09	0.003740432	-0.004411341	-3.389634e-09	-4.030446e-09	-0.01972652	0.01428299
2.3e+08	-0.01540546	0.01265618	-3.245083e-10	-6.77188e-10	0.002417015	-0.003066074	-1.017606e-08	1.036698e-08
	-3.245083e-10	-6.77188e-10	-0.01459788	0.01305734	-8.914558e-11	-1.280088e-09	0.002504265	-0.003017768
	0.002417015	-0.003066074	-8.914558e-11	-1.280088e-09	-0.01497476	0.01285258	-3.001345e-09	-3.706027e-09
	-1.017606e-08	1.036698e-08	0.002504265	-0.003017768	-3.001345e-09	-3.706027e-09	-0.01457985	0.01318119
2.4e+08	-0.01062556	0.01046704	-2.225416e-10	-6.955908e-10	0.001569312	-0.0014063	-6.975849e-09	1.266188e-08
	-2.225416e-10	-6.955908e-10	-0.009976662	0.01070683	-1.401015e-10	-1.358885e-09	0.001627643	-0.001368145
	0.001569312	-0.0014063	-1.401015e-10	-1.358885e-09	-0.01025964	0.01056682	-2.469498e-09	-3.488351e-09
	-6.975849e-09	1.266188e-08	0.001627643	-0.001368145	-2.469498e-09	-3.488351e-09	-0.009943927	0.01080382
2.5e+08	-0.006606314	0.00713492	-1.157237e-10	-7.407029e-10	0.001142268	0.0004097824	-3.150659e-09	1.416817e-08
	-1.157237e-10	-7.407029e-10	-0.006147514	0.007256887	-2.000923e-10	-1.427432e-09	0.001161012	0.0004434848
	0.001142268	0.0004097824	-2.000923e-10	-1.427432e-09	-0.006315424	0.00715731	-1.821117e-09	-3.413528e-09
	-3.150659e-09	1.416817e-08	0.001161012	0.0004434848	-1.821117e-09	-3.413528e-09	-0.006107467	0.007323833
2.6e+08	-0.003593936	0.002887837	-1.038476e-11	-8.128219e-10	0.001160605	0.002275263	1.100663e-09	1.472509e-08
	-1.038476e-11	-8.128219e-10	-0.003346755	0.002941133	-2.663499e-10	-1.483461e-09	0.001130757	0.00231366
	0.001160605	0.002275263	-2.663499e-10	-1.483461e-09	-0.003384513	0.002852627	-1.091863e-09	-3.510658e-09
	1.100663e-09	1.472509e-08	0.001130757	0.00231366	-1.091863e-09	-3.510658e-09	-0.003307494	0.00297679
2.7e+08	-0.001771458	-0.001996014	8.758029e-11	-9.109338e-10	0.001622363	0.004080433	5.538338e-09	1.422353e-08
	8.758029e-11	-9.109338e-10	-0.001746457	-0.001958753	-3.35502e-10	-1.525488e-09	0.001537534	0.004135585
	0.001622363	0.004080433	-3.35502e-10	-1.525488e-09	-0.001646216	-0.002069074	-3.242172e-10	-3.799932e-09
	5.538338e-09	1.422353e-08	0.001537534	0.004135585	-3.242172e-10	-3.799932e-09	-0.001716179	-0.00195354
2.8e+08	-0.001249042	-0.007204967	1.728516e-10	-1.033049e-09	0.002498943	0.005719396	9.895496e-09	1.26164e-08
	1.728516e-10	-1.033049e-09	-0.001445085	-0.007129994	-4.038081e-10	-1.552984e-09	0.002356157	0.005805495
	0.002498943	0.005719396	-4.038081e-10	-1.552984e-09	-0.001207113	-0.007296761	4.346792e-10	-4.291163e-09
	9.895496e-09	1.26164e-08	0.002356157	0.005805495	4.346792e-10	-4.291163e-09	-0.001431593	-0.007152335
2.9e+08	-0.002058584	-0.01241236	2.406493e-10	-1.176457e-09	0.00373681	0.007096508	1.389457e-08	9.925063e-09
	2.406493e-10	-1.176457e-09	-0.00246266	-0.0122474	-4.674408e-10	-1.566454e-09	0.003537076	0.007228898
	0.00373681	0.007096508	-4.674408e-10	-1.566454e-09	-0.002095742	-0.01250498	1.135445e-09	-4.982796e-09
	1.389457e-08	9.925063e-09	0.003537076	0.007228898	1.135445e-09	-4.982796e-09	-0.002472864	-0.01229251
3e+08	-0.0041529	-0.01729569	2.866104e-10	-1.337818e-09	0.005260781	0.008132214	1.726514e-08	6.241382e-09
	2.866104e-10	-1.337818e-09	-0.004740559	-0.01699255	-5.227823e-10	-1.567438e-09	0.005009387	0.008326281
	0.005260781	0.008132214	-5.227823e-10	-1.567438e-09	-0.004261882	-0.01737294	1.729077e-09	-5.861402e-09
	1.726514e-08	6.241382e-09	0.005009387	0.008326281	1.729077e-09	-5.861402e-09	-0.004780023	-0.01705403
3.1e+08	-0.007409542	-0.02155525	3.066943e-10	-1.513091e-09	0.006978682	0.008767883	1.976197e-08	1.725012e-09
	3.066943e-10	-1.513091e-09	-0.008145934	-0.02107238	-5.667089e-10	-1.558423e-09	0.006685196	0.009037871
	0.006978682	0.008767883	-5.667089e-10	-1.558423e-09	-0.007580449	-0.02160314	2.169698e-09	-6.901704e-09
	1.976197e-08	1.725012e-09	0.006685196	0.009037871	2.169698e-09	-6.901704e-09	-0.008218504	-0.02114257
3.2e+08	-0.01163892	-0.0249312	2.972246e-10	-1.697317e-09	0.008787076	0.008969295	2.118203e-08	-3.403932e-09
	2.972246e-10	-1.697317e-09	-0.01248044	-0.02423596	-5.968367e-10	-1.542668e-09	0.008465023	0.009327146
	0.008787076	0.008969295	-5.968367e-10	-1.542668e-09	-0.0118597	-0.02493834	2.417383e-09	-8.067199e-09
	2.118203e-08	-3.403932e-09	0.008465023	0.009327146	2.417383e-09	-8.067199e-09	-0.01258797	-0.02430644
3.3e+08	-0.01659624	-0.02721812	2.551377e-10	-1.884398e-09	0.01057766	0.008728567	2.137916e-08	-8.876421e-09
	2.551377e-10	-1.884398e-09	-0.01749264	-0.02628866	-6.117053e-10	-1.523976e-09	0.0102439	0.009182854
	0.01057766	0.008728567	-6.117053e-10	-1.523976e-09	-0.01685319	-0.02717601	2.440923e-09	-9.311442e-09
	2.137916e-08	-8.876421e-09	0.0102439	0.009182854	2.440923e-09	-9.311442e-09	-0.01763486	-0.02635074
3.4e+08	-0.02199634	-0.02827602	1.784436e-10	-2.066965e-09	0.01224392	0.008064392	2.027558e-08	-1.438954e-08
	1.784436e-10	-2.066965e-09	-0.02289336	-0.02710269	-6.108845e-10	-1.506425e-09	0.01191773	0.008619434
	0.01224392	0.008064392	-6.108845e-10	-1.506425e-09	-0.02227477	-0.0281793	2.220399e-09	-1.058004e-08
	2.027558e-08	-1.438954e-08	0.01191773	0.008619434	2.220399e-09	-1.058004e-08	-0.02306786	-0.02714796
3.5e+08	-0.02753073	-0.02803762	6.68336e-11	-2.23649e-09	0.01368749	0.007020627	1.786932e-08	-1.962403e-08
	6.68336e-11	-2.23649e-09	-0.02837295	-0.02662365	-5.949996e-10	-1.49408e-09	0.01338946	0.007675851
	0.01368749	0.007020627	-5.949996e-10	-1.49408e-09	-0.02781549	-0.02788411	1.749328e-09	-1.181337e-08
	1.786932e-08	-1.962403e-08	0.01338946	0.007675851	1.749328e-09	-1.181337e-08	-0.0285753	-0.02664449
3.6e+08	-0.03288553	-0.02651111	-7.769163e-11	-2.383699e-09	0.01482402	0.005663361	1.423712e-08	-2.426332e-08
	-7.769163e-11	-2.383699e-09	-0.03361936	-0.02487276	-5.656786e-10	-1.49073e-09	0.01457475	0.006412966
	0.01482402	0.005663361	-5.656786e-10	-1.49073e-09	-0.03316169	-0.02630185	1.036173e-09	-1.294996e-08
	1.423712e-08	-2.426332e-08	0.01457475	0.006412966	1.036173e-09	-1.294996e-08	-0.03384337	-0.02486283
3.7e+08	-0.03775942	-0.02377876	-2.503312e-10	-2.49931e-09	0.01558795	0.004076698	9.532641e-09	-2.801279e-08
	-2.503312e-10	-2.49931e-09	-0.03833616	-0.02194466	-5.254353e-10	-1.499653e-09	0.01540668	0.004909666
	0.01558795	0.004076698	-5.254353e-10	-1.499653e-09	-0.03801289	-0.02351786	1.049698e-10	-1.393032e-08
	9.532641e-09	-2.801279e-08	0.01540668	0.004909666	1.049698e-10	-1.393032e-08	-0.03857423	-0.0218993
3.8e+08	-0.04188062	-0.01999134	-4.432872e-10	-2.575024e-09	0.01593612	0.002357582	3.980075e-09	-3.061829e-08
	-4.432872e-10	-2.575024e-09	-0.04225921	-0.01800115	-4.775054e-10	-1.523426e-09	0.01583942	0.003258039
	0.01593612	0.002357582	-4.775054e-10	-1.523426e-09	-0.04209867	-0.01968572	-1.005108e-09	-1.470109e-08
	3.980075e-09	-3.061829e-08	0.01583942	0.003258039	-1.005108e-09	-1.470109e-08	-0.0425028	-0.01791765
3.9e+08	-0.04502183	-0.01535879	-6.459739e-10	-2.604628e-09	0.01585002	0.0006099852	-2.136632e-09	-3.188272e-08
	-6.459739e-10	-2.604628e-09	-0.04517137	-0.01326122	-4.256568e-10	-1.563801e-09	0.0158505	0.001557911
	0.01585002	0.0006099852	-4.256568e-10	-1.563801e-09	-0.0451937	-0.01501786	-2.241345e-09	-1.521906e-08
	-2.136632e-09	-3.188272e-08	0.0158505	0.001557911	-2.241345e-09	-1.521906e-08	-0.04541149	-0.01313907
4e+08	-0.04701258	-0.01013782	-8.456777e-10	-2.585028e-09	0.01533649	-0.001061163	-8.488282e-09	-3.167987e-08
	-8.456777e-10	-2.585028e-09	-0.04691426	-0.007988153	-3.739874e-10	-1.621608e-09	0.0154418	-8.891255e-05
	0.01533649	-0.001061163	-3.739874e-10	-1.621608e-09	-0.04712986	-0.009772991	-3.540225e-09	-1.545473e-08
	-8.488282e-09	-3.167987e-08	0.0154418	-8.891255e-05	-3.540225e-09	-1.545473e-08	-0.047142	-0.007829009
4.1e+08	-0.04774815	-0.004617094	-1.028623e-09	-2.517024e-09	0.01442708	-0.002555969	-1.471804e-08	-2.996452e-08
	-1.028623e-09	-2.517024e-09	-0.04739666	-0.002474198	-3.267227e-10	-1.696722e-09	0.01463916	-0.001584391
	0.01442708	-0.002555969	-3.267227e-10	-1.696722e-09	-0.04780519	-0.004241284	-4.831181e-09	-1.539512e-08
	-1.471804e-08	-2.996452e-08	0.01463916	-0.001584391	-4.831181e-09	-1.539512e-08	-0.04760375	-0.002281866
4.2e+08	-0.04719498	0.0008991058	-1.18132e-09	-2.405649e-09	0.01317606	-0.003785191	-2.046124e-08	-2.677835e-08
	-1.18132e-09	-2.405649e-09	-0.04659909	0.002975995	-2.880148e-10	-1.788043e-09	0.01349065	-0.002839676
	0.01317606	-0.003785191	-2.880148e-10	-1.788043e-09	-0.0471891	0.001272099	-6.041091e-09	-1.504545e-08
	-2.046124e-08	-2.677835e-08	0.01349065	-0.002839676	-6.041091e-09	-1.504545e-08	-0.04677839	0.003195796
4.3e+08	-0.04539194	0.00610794	-1.292001e-09	-2.260003e-09	0.01165716	-0.004675185	-2.536644e-08	-2.225104e-08
	-1.292001e-09	-2.260003e-09	-0.04457442	0.008062566	-2.617408e-10	-1.89352e-09	0.01206377	-0.003779972
	0.01165716	-0.004675185	-2.617408e-10	-1.89352e-09	-0.04532359	0.006464075	-7.099153e-09	-1.442953e-08
	-2.536644e-08	-2.225104e-08	0.01206377	-0.003779972	-7.099153e-09	-1.442953e-08	-0.04472036	0.008302513
4.4e+08	-0.04244782	0.01072482	-1.35194e-09	-2.09254e-09	0.009959341	-0.005171973	-2.911658e-08	-1.659638e-08
	-1.35194e-09	-2.09254e-09	-0.04144454	0.01250717	-2.512977e-10	-2.010198e-09	0.01044163	-0.004348604
	0.009959341	-0.005171973	-2.512977e-10	-2.010198e-09	-0.04232054	0.01105048	-7.941744e-09	-1.358872e-08
	-2.911658e-08	-1.659638e-08	0.01044163	-0.004348604	-7.941744e-09	-1.358872e-08	-0.04155343	0.01275876
4.5e+08	-0.03853498	0.01449913	-1.356407e-09	-1.917934e-09	0.008181815	-0.005244233	-3.144915e-08	-1.010331e-08
	-1.356407e-09	-1.917934e-09	-0.03739319	0.01606845	-2.593969e-10	-2.134307e-09	0.008718224	-0.004510117
	0.008181815	-0.005244233	-2.593969e-10	-2.134307e-09	-0.03835527	0.01478179	-8.516812e-09	-1.257968e-08
	-3.144915e-08	-1.010331e-08	0.008718224	-0.004510117	-8.516812e-09	-1.257968e-08	-0.03746354	0.01632248
4.6e+08	-0.03387953	0.01722815	-1.308476e-09	-1.74963e-09	0.006428425	-0.004885077	-3.216936e-08	-3.122067e-09
	-1.308476e-09	-1.74963e-09	-0.03265554	0.01855545	-2.87402e-10	-2.261557e-09	0.006993299	-0.00425224
	0.006428425	-0.004885077	-2.87402e-10	-2.261557e-09	-0.03365655	0.0174569	-8.791003e-09	-1.146882e-08
	-3.216936e-08	-3.122067e-09	0.006993299	-0.00425224	-8.791003e-09	-1.146882e-08	-0.03268811	0.01880264
4.7e+08	-0.02874862	0.01876799	-1.208708e-09	-1.603835e-09	0.004801805	-0.004112514	-3.11782e-08	3.951249e-09
