!$
! Info: Touchstone file created by Circ.  Input file=Tx_14in_Rx_93ohms_TxVia_10mils_RxVia_20mils.circ
!$
# Hz S RI R 50
0	0.01280107	8.756542e-26	1.083077e-10	2.787732e-28	8.748306e-05	1.359431e-23	-4.999109e-09	6.122913e-25
	1.083195e-10	2.789539e-28	0.0128017	1.226144e-25	5.39061e-10	3.864889e-27	8.557731e-05	1.821987e-23
	8.618304e-05	1.324582e-23	5.39e-10	3.871999e-27	0.01281619	9.167129e-26	-9.071351e-09	1.124761e-24
	-4.998234e-09	6.121842e-25	8.703194e-05	1.875261e-23	-9.071544e-09	1.124784e-24	0.01280724	1.169054e-25
1e+07	0.01812763	-0.002166171	4.310163e-11	-3.291522e-11	0.000540845	0.002472782	-5.067718e-09	1.737895e-08
	4.310162e-11	-3.291551e-11	0.01849834	-0.002213859	6.41455e-10	1.065146e-09	0.000535183	0.002465069
	0.0005408008	0.002472785	6.41455e-10	1.065146e-09	0.01851644	-0.002233469	-6.475041e-09	1.733377e-08
	-5.067718e-09	1.737895e-08	0.0005352162	0.002465058	-6.475041e-09	1.733377e-08	0.0181309	-0.002209532
2e+07	0.02040791	-0.009028446	4.748393e-11	-4.487743e-11	0.001498361	0.004797832	-2.773921e-09	1.440376e-08
	4.748369e-11	-4.487749e-11	0.02063796	-0.009232156	7.802741e-10	1.891376e-09	0.001483462	0.004787436
	0.001498351	0.00479786	7.802743e-10	1.891376e-09	0.02066507	-0.009275252	-4.282604e-09	1.531976e-08
	-2.773921e-09	1.440376e-08	0.001483459	0.004787414	-4.282604e-09	1.531976e-08	0.02037015	-0.009105334
3e+07	0.01935564	-0.01721114	6.173165e-11	-8.687453e-11	0.003129793	0.006601999	1.837722e-09	1.288801e-08
	6.173163e-11	-8.687448e-11	0.01945469	-0.01744928	8.019272e-10	2.713031e-09	0.003080284	0.006606637
	0.003129793	0.006602003	8.019273e-10	2.713031e-09	0.01949482	-0.01752241	1.03707e-09	1.446538e-08
	1.837722e-09	1.288801e-08	0.003080279	0.006606634	1.03707e-09	1.446538e-08	0.01926005	-0.01730158
4e+07	0.0156193	-0.02497178	5.860324e-11	-1.296747e-10	0.005213521	0.007813458	5.255383e-09	1.036618e-08
	5.860323e-11	-1.296748e-10	0.01559489	-0.02519288	7.959017e-10	3.588581e-09	0.005139573	0.007840399
	0.005213517	0.007813456	7.959017e-10	3.588581e-09	0.01564841	-0.02530484	4.968466e-09	1.215266e-08
	5.255383e-09	1.036618e-08	0.005139572	0.0078404	4.968466e-09	1.215266e-08	0.01545344	-0.02505432
5e+07	0.009730164	-0.03147351	5.609876e-11	-1.675341e-10	0.007509747	0.008383527	7.347661e-09	7.798503e-09
	5.609871e-11	-1.675342e-10	0.009596411	-0.03163802	7.93736e-10	4.497149e-09	0.007414096	0.008443222
	0.007509745	0.008383527	7.93736e-10	4.497149e-09	0.009659317	-0.03179807	7.336595e-09	9.679236e-09
	7.347661e-09	7.798503e-09	0.007414096	0.008443222	7.336595e-09	9.679236e-09	0.009489166	-0.03152133
6e+07	0.002277682	-0.036163	6.771781e-11	-2.115716e-10	0.009833625	0.008287296	8.626395e-09	5.884201e-09
	6.771793e-11	-2.115715e-10	0.002056156	-0.03623935	8.000099e-10	5.418092e-09	0.009722665	0.008388989
	0.00983363	0.008287294	8.000099e-10	5.418092e-09	0.002120163	-0.03645528	8.621404e-09	7.852646e-09
	8.626395e-09	5.884201e-09	0.009722662	0.00838899	8.621404e-09	7.852646e-09	0.00196704	-0.0361489
7e+07	-0.006090814	-0.03870674	1.696622e-10	-2.927117e-10	0.01200063	0.007550898	9.460774e-09	5.720155e-09
	1.696626e-10	-2.927118e-10	-0.006371878	-0.03867174	8.295072e-10	6.298135e-09	0.01188395	0.007701474
	0.01200064	0.007550891	8.295072e-10	6.298135e-09	-0.006318594	-0.03894826	8.953101e-09	7.499029e-09
	9.460774e-09	5.720155e-09	0.01188395	0.007701476	8.953101e-09	7.499029e-09	-0.006456807	-0.03860696
8e+07	-0.01470398	-0.03897554	-1.111232e-09	-9.140008e-10	0.01384181	0.006249789	6.011424e-09	9.07509e-09
	-1.111231e-09	-9.140011e-10	-0.01501146	-0.03881554	1.122235e-09	7.209011e-09	0.01373137	0.006452756
	0.01384182	0.006249778	1.122235e-09	7.209011e-09	-0.01498296	-0.03915296	6.303399e-09	9.119726e-09
	6.011424e-09	9.07509e-09	0.01373136	0.00645276	6.303399e-09	9.119726e-09	-0.01510396	-0.03877173
9e+07	-0.02290825	-0.03703188	-9.723403e-11	-3.931207e-10	0.01521706	0.004502076	-3.436067e-10	3.796799e-09
	-9.723367e-11	-3.931212e-10	-0.02320628	-0.03674352	1.231593e-09	8.383714e-09	0.01512606	0.004756875
	0.01521707	0.004502066	1.231593e-09	8.383714e-09	-0.02321721	-0.03713707	6.125903e-10	5.861412e-09
	-3.436067e-10	3.796799e-09	0.01512606	0.004756879	6.125903e-10	5.861412e-09	-0.02331528	-0.03671285
1e+08	-0.03009356	-0.03310796	-8.927116e-11	-3.453528e-10	0.01602467	0.002457723	-1.933116e-10	2.856613e-10
	-8.927116e-11	-3.453528e-10	-0.03034274	-0.03269791	1.281716e-09	9.425732e-09	0.01596666	0.002759449
	0.01602467	0.002457724	1.281716e-09	9.425732e-09	-0.03040649	-0.03313749	-6.648182e-11	2.140027e-09
	-1.933116e-10	2.856613e-10	0.01596666	0.002759449	-6.648182e-11	2.140027e-09	-0.03047692	-0.03267153
1.1e+08	-0.03581706	-0.02770611	-1.422451e-10	-3.484974e-10	0.01620956	0.0002943773	-1.023282e-10	3.605335e-10
	-1.422451e-10	-3.484974e-10	-0.03598937	-0.02720866	1.545127e-09	1.037988e-08	0.01619522	0.0006312643
	0.01620956	0.0002943774	1.545127e-09	1.037988e-08	-0.03611609	-0.0276824	1.980144e-10	2.380062e-09
	-1.023282e-10	3.605335e-10	0.01619522	0.0006312642	1.980144e-10	2.380062e-09	-0.03614693	-0.02716152
1.2e+08	-0.03980401	-0.02117904	-1.939997e-10	-3.333288e-10	0.01577411	-0.001813945	6.713144e-12	4.045943e-10
	-1.939997e-10	-3.333288e-10	-0.03988936	-0.02061854	1.858374e-09	1.12737e-08	0.01581027	-0.001454379
	0.01577411	-0.001813945	1.858374e-09	1.12737e-08	-0.04008648	-0.02110661	5.068534e-10	2.545695e-09
	6.713144e-12	4.045943e-10	0.01581027	-0.001454379	5.068534e-10	2.545695e-09	-0.04005424	-0.02054446
1.3e+08	-0.04181251	-0.0140623	-2.370215e-10	-2.971533e-10	0.01476156	-0.003699669	1.277045e-10	4.132755e-10
	-2.370215e-10	-2.971533e-10	-0.04180264	-0.01346586	2.203756e-09	1.209275e-08	0.01485168	-0.003332328
	0.01476156	-0.003699669	2.203756e-09	1.209275e-08	-0.04207066	-0.01394607	8.386456e-10	2.625256e-09
	1.277045e-10	4.132755e-10	0.01485168	-0.003332328	8.386456e-10	2.625256e-09	-0.04196302	-0.01336402
1.4e+08	-0.04178542	-0.006928062	-2.623113e-10	-2.428479e-10	0.01325975	-0.005214323	2.495313e-10	3.837435e-10
	-2.623113e-10	-2.428479e-10	-0.0416792	-0.00632507	2.558886e-09	1.282656e-08	0.01340269	-0.004855373
	0.01325975	-0.005214323	2.558886e-09	1.282656e-08	-0.04201141	-0.006775162	1.168862e-09	2.610734e-09
	2.495313e-10	3.837435e-10	0.01340269	-0.004855373	1.168862e-09	2.610734e-09	-0.04182487	-0.006198276
1.5e+08	-0.03982878	-0.0003323616	-2.624852e-10	-1.780405e-10	0.011393	-0.006240055	3.601489e-10	3.172221e-10
	-2.624852e-10	-1.780405e-10	-0.03963351	0.0002477175	2.897963e-09	1.347171e-08	0.01158259	-0.005905419
	0.011393	-0.006240055	2.897963e-09	1.347171e-08	-0.04001623	-0.0001520861	1.46992e-09	2.499967e-09
	3.601489e-10	3.172221e-10	0.01158259	-0.005905418	1.46992e-09	2.499967e-09	-0.03975624	0.0003936831
1.6e+08	-0.03619598	0.005227643	-2.312242e-10	-1.101714e-10	0.009312242	-0.006698029	4.496626e-10	2.17438e-10
	-2.312242e-10	-1.101714e-10	-0.03592757	0.005757836	3.194062e-09	1.403269e-08	0.009537385	-0.006401786
	0.009312242	-0.006698029	3.194062e-09	1.403269e-08	-0.03634089	0.00542438	1.715045e-09	2.301828e-09
	4.496626e-10	2.17438e-10	0.009537385	-0.006401786	1.715045e-09	2.301828e-09	-0.03602165	0.005914981
1.7e+08	-0.03126335	0.009350033	-1.673756e-10	-5.146436e-11	0.007183478	-0.006553905	5.085685e-10	9.137715e-11
	-1.673756e-10	-5.146436e-11	-0.03094559	0.009808445	3.421625e-09	1.45226e-08	0.007428736	-0.006306762
	0.007183478	-0.006553905	3.421625e-09	1.45226e-08	-0.03136468	0.009551486	1.877543e-09	2.030592e-09
	5.085685e-10	9.137715e-11	0.007428736	-0.006306762	1.877543e-09	2.030592e-09	-0.03100822	0.009967426
1.8e+08	-0.02549792	0.01175629	-7.47727e-11	-1.403786e-11	0.005175248	-0.005820157	5.297471e-10	-5.150469e-11
	-7.47727e-11	-1.403786e-11	-0.02516093	0.01212844	3.55925e-09	1.496259e-08	0.005421928	-0.005628133
	0.005175248	-0.005820157	3.55925e-09	1.496259e-08	-0.02555779	0.01195079	1.934037e-09	1.709047e-09
	5.297471e-10	-5.150469e-11	0.005421928	-0.005628133	1.934037e-09	1.709047e-09	-0.02519242	0.01227948
1.9e+08	-0.01941954	0.01230971	3.826817e-11	-7.792442e-12	0.003445888	-0.00455504	5.089646e-10	-2.00099e-10
	3.826817e-11	-7.792442e-12	-0.0190975	0.01259036	3.592242e-09	1.53804e-08	0.003673499	-0.004418504
	0.003445888	-0.00455504	3.592242e-09	1.53804e-08	-0.01944312	0.01248658	1.867452e-09	1.367951e-09
	5.089646e-10	-2.00099e-10	0.003673499	-0.004418504	1.867452e-09	1.367951e-09	-0.01910119	0.01272418
2e+08	-0.01355979	0.01102289	1.603511e-10	-3.880695e-11	0.002131407	-0.002858201	4.451099e-10	-3.424655e-10
	1.603511e-10	-3.880695e-11	-0.01328812	0.0112172	3.514674e-09	1.580819e-08	0.00231939	-0.002771369
	0.002131407	-0.002858201	3.514674e-09	1.580819e-08	-0.01355496	0.0111733	1.670039e-09	1.044266e-09
	4.451099e-10	-3.424655e-10	0.00231939	-0.002771369	1.670039e-09	1.044266e-09	-0.01327007	0.01132589
2.1e+08	-0.008420724	0.008054005	2.789112e-10	-1.086101e-10	0.001334849	-0.000863103	3.402482e-10	-4.665939e-10
	2.789112e-10	-1.086101e-10	-0.008232952	0.008177742	3.330671e-09	1.627964e-08	0.001464439	-0.0008140721
	0.001334849	-0.000863103	3.330671e-09	1.627964e-08	-0.008397458	0.008171618	1.345856e-09	7.780801e-10
	3.402482e-10	-4.665939e-10	0.001464439	-0.0008140721	1.345856e-09	7.780801e-10	-0.008201443	0.008255484
2.2e+08	-0.004436401	0.003691874	3.821095e-10	-2.144227e-10	0.001118031	0.001273309	1.995716e-10	-5.611042e-10
	3.821095e-10	-2.144227e-10	-0.004360999	0.003770756	3.054698e-09	1.68267e-08	0.001174075	0.001301965
	0.001118031	0.001273309	3.054698e-09	1.68267e-08	-0.004405985	0.003773386	9.120523e-10	6.08439e-10
	1.995716e-10	-5.611042e-10	0.001174075	0.001301965	9.120523e-10	6.08439e-10	-0.004325784	0.0038144
2.3e+08	-0.00194008	-0.001668688	4.60234e-10	-3.501743e-10	0.001496404	0.003382997	3.128656e-11	-6.159399e-10
	4.60234e-10	-3.501743e-10	-0.001997553	-0.001600643	2.71078e-09	1.747639e-08	0.001468973	0.003413096
	0.001496404	0.003382997	2.71078e-09	1.747639e-08	-0.001914246	-0.001623305	3.984842e-10	5.686675e-10
	3.128656e-11	-6.159399e-10	0.001468973	0.003413096	3.984842e-10	5.686675e-10	-0.001969026	-0.001591262
2.4e+08	-0.001139696	-0.00755958	5.063173e-10	-5.078875e-10	0.002437608	0.005300343	-1.535875e-10	-6.231131e-10
	5.063173e-10	-5.078875e-10	-0.001340201	-0.007462548	2.330697e-09	1.82479e-08	0.002323254	0.005356494
	0.002437608	0.005300343	2.330697e-09	1.82479e-08	-0.001129687	-0.00754707	-1.545441e-10	6.819303e-10
	-1.535875e-10	-6.231131e-10	0.002323254	0.005356494	-1.545441e-10	6.819303e-10	-0.001328488	-0.007484532
2.5e+08	-0.002103432	-0.01347745	5.159825e-10	-6.788966e-10	0.003863996	0.006875636	-3.415941e-10	-5.77532e-10
	5.159825e-10	-6.788966e-10	-0.002445186	-0.01330896	1.95134e-09	1.915048e-08	0.003666501	0.006983292
	0.003863996	0.006875636	1.95134e-09	1.915048e-08	-0.002119101	-0.01349153	-7.001772e-10	9.57893e-10
	-3.415941e-10	-5.77532e-10	0.003666501	0.006983292	-7.001772e-10	9.57893e-10	-0.002459259	-0.01335655
2.6e+08	-0.004756534	-0.01892398	4.76215e-10	-8.605878e-10	0.00565899	0.007987344	-5.173652e-10	-4.777178e-10
	4.76215e-10	-8.605878e-10	-0.005225177	-0.01864258	1.608122e-09	2.018038e-08	0.005389537	0.008170654
	0.00565899	0.007987344	1.608122e-09	2.018038e-08	-0.004805521	-0.01895589	-1.200662e-09	1.385008e-09
	-5.173652e-10	-4.777178e-10	0.005389537	0.008170655	-1.200662e-09	1.385008e-09	-0.005272082	-0.01870754
2.7e+08	-0.008889477	-0.02344526	3.912055e-10	-1.032881e-09	0.007676781	0.008552019	-6.649962e-10	-3.270235e-10
	3.912055e-10	-1.032881e-09	-0.009458626	-0.02301413	1.340142e-09	2.13276e-08	0.007353475	0.008831674
	0.007676781	0.008552019	1.340142e-09	2.13276e-08	-0.008976668	-0.0234844	-1.605669e-09	1.954571e-09
	-6.649962e-10	-3.270235e-10	0.007353475	0.008831674	-1.605669e-09	1.954571e-09	-0.009542766	-0.02308647
2.8e+08	-0.01417668	-0.02666685	2.649444e-10	-1.183962e-09	0.009754478	0.008530928	-7.692676e-10	-1.335914e-10
	2.649444e-10	-1.183962e-09	-0.01480945	-0.02605731	1.181226e-09	2.256911e-08	0.009401244	0.008922173
	0.009754478	0.008530928	1.181226e-09	2.256911e-08	-0.01430376	-0.02670165	-1.87421e-09	2.636477e-09
	-7.692676e-10	-1.335914e-10	0.009401244	0.008922173	-1.87421e-09	2.636477e-09	-0.01493221	-0.02612615
2.9e+08	-0.020204	-0.02832205	1.017088e-10	-1.30343e-09	0.0117256	0.007932831	-8.173097e-10	8.960949e-11
	1.017088e-10	-1.30343e-09	-0.02085558	-0.02751654	1.157237e-09	2.38724e-08	0.01137052	0.008443842
	0.0117256	0.007932831	1.157237e-09	2.38724e-08	-0.02036929	-0.02834094	-1.977783e-09	3.389069e-09
	-8.173097e-10	8.960949e-11	0.01137052	0.008443842	-1.977783e-09	3.389069e-09	-0.02101518	-0.02757094
3e+08	-0.02650268	-0.0282711	-9.187185e-11	-1.380694e-09	0.01343368	0.006812711	-8.00325e-10	3.254861e-10
	-9.187185e-11	-1.380694e-09	-0.02712373	-0.02726533	1.284211e-09	2.51983e-08	0.01310685	0.007443484
	0.01343368	0.006812711	1.284211e-09	2.51983e-08	-0.0267013	-0.0282634	-1.900996e-09	4.164684e-09
	-8.00325e-10	3.254861e-10	0.01310685	0.007443484	-1.900996e-09	4.164684e-09	-0.02731534	-0.02729524
3.1e+08	-0.03258683	-0.02651006	-3.05817e-10	-1.405477e-09	0.01474473	0.005266705	-7.150237e-10	5.542277e-10
	-3.05817e-10	-1.405477e-09	-0.03312741	-0.02531408	1.566804e-09	2.650386e-08	0.01447589	0.006008589
	0.01474473	0.005266706	1.566804e-09	2.650386e-08	-0.03281102	-0.02646693	-1.642046e-09	4.913768e-09
	-7.150237e-10	5.542277e-10	0.01447589	0.006008589	-1.642046e-09	4.913768e-09	-0.03334349	-0.02531118
3.2e+08	-0.03799137	-0.02316911	-5.259611e-10	-1.36917e-09	0.01555761	0.003423795	-5.644939e-10	7.552493e-10
	-5.259611e-10	-1.36917e-09	-0.03840518	-0.02180725	1.997576e-09	2.774565e-08	0.01537362	0.004259739
	0.01555761	0.003423795	1.997576e-09	2.774565e-08	-0.03823118	-0.0230842	-1.21199e-09	5.588445e-09
	-5.644939e-10	7.552493e-10	0.01537362	0.004259738	-1.21199e-09	5.588445e-09	-0.03863612	-0.02176565
3.3e+08	-0.04230774	-0.01850049	-7.338725e-10	-1.26691e-09	0.01581148	0.001435104	-3.583003e-10	9.094075e-10
	-7.338725e-10	-1.26691e-09	-0.04255615	-0.01701004	2.557105e-09	2.888295e-08	0.01573394	0.00234062
	0.01581148	0.001435104	2.557105e-09	2.888295e-08	-0.04255177	-0.01837054	-6.333437e-10	6.145269e-09
	-3.583003e-10	9.094075e-10	0.01573394	0.00234062	-6.333437e-10	6.145269e-09	-0.04279099	-0.01692678
3.4e+08	-0.04521443	-0.01285757	-9.079348e-10	-1.099875e-09	0.01548991	-0.000538239	-1.117461e-10	1.001145e-09
	-9.079348e-10	-1.099875e-09	-0.0452701	-0.01128632	3.214914e-09	2.988096e-08	0.01553313	0.0004065635
	0.01548991	-0.000538239	3.214914e-09	2.988096e-08	-0.04545078	-0.01268263	6.149012e-11	6.547251e-09
	-1.117461e-10	1.001145e-09	0.01553313	0.0004065635	6.149012e-11	6.547251e-09	-0.04549746	-0.01116164
3.5e+08	-0.04650055	-0.006666586	-1.025692e-09	-8.771542e-10	0.0146215	-0.002337683	1.556059e-10	1.020225e-09
	-1.025692e-09	-8.771542e-10	-0.04635028	-0.005069383	3.931183e-09	3.071374e-08	0.01479094	-0.001387476
	0.0146215	-0.002337683	3.931183e-09	3.071374e-08	-0.04671778	-0.006450085	8.317056e-10	6.765463e-09
	1.556059e-10	1.020225e-09	0.01479094	-0.001387476	8.317056e-10	6.765463e-09	-0.04655924	-0.004906739
3.6e+08	-0.04608072	-0.0003934886	-1.067182e-09	-6.164729e-10	0.01327714	-0.003819339	4.219191e-10	9.628043e-10
	-1.067182e-09	-6.164729e-10	-0.04572715	0.001171946	4.659189e-09	3.136667e-08	0.01356853	-0.002898612
	0.01327714	-0.003819339	4.659189e-09	3.136667e-08	-0.04626873	-0.000141954	1.629471e-09	6.780618e-09
	4.219191e-10	9.628043e-10	0.01356853	-0.002898612	1.629471e-09	6.780618e-09	-0.04590814	0.001366157
3.7e+08	-0.04400042	0.005491761	-1.018637e-09	-3.433382e-10	0.01156415	-0.004864759	6.652591e-10	8.317144e-10
	-1.018637e-09	-3.433382e-10	-0.0434626	0.006969435	5.348452e-09	3.183835e-08	0.01196343	-0.004006603
	0.01156415	-0.004864759	5.348452e-09	3.183835e-08	-0.04415131	0.005769185	2.401495e-09	6.584863e-09
	6.652591e-10	8.317144e-10	0.01196343	-0.004006603	2.401495e-09	6.584863e-09	-0.04360821	0.00718634
3.8e+08	-0.04043163	0.0105508	-8.757167e-10	-8.846756e-11	0.009617967	-0.005389716	8.656373e-10	6.359837e-10
	-8.757167e-10	-8.846756e-11	-0.03974421	0.01189109	5.948435e-09	3.214166e-08	0.01010192	-0.004622665
	0.009617967	-0.005389716	5.948435e-09	3.214166e-08	-0.04054032	0.01084305	3.091211e-09	6.183776e-09
	8.656373e-10	6.359837e-10	0.01010192	-0.004622665	3.091211e-09	6.183776e-09	-0.03984975	0.01212004
3.9e+08	-0.03565911	0.01440983	-6.454779e-10	1.161607e-10	0.00759177	-0.005350452	1.006657e-09	3.89759e-10
	-6.454779e-10	1.161607e-10	-0.03487021	0.01557385	6.412632e-09	3.230377e-08	0.00812954	-0.004695976
	0.00759177	-0.005350452	6.412632e-09	3.230377e-08	-0.03572383	0.01470481	3.641972e-09	5.59824e-09
	1.006657e-09	3.89759e-10	0.00812954	-0.004695976	3.641972e-09	5.59824e-09	-0.0349342	0.01580322
4e+08	-0.03005841	0.01678774	-3.464897e-10	2.419378e-10	0.005644875	-0.004746989	1.076614e-09	1.108722e-10
	-3.464897e-10	2.419378e-10	-0.02922635	0.0177509	6.702716e-09	3.236499e-08	0.006200093	-0.004217458
	0.005644875	-0.004746989	6.702716e-09	3.236499e-08	-0.03008084	0.01707322	4.001409e-09	4.865571e-09
	1.076614e-09	1.108722e-10	0.006200093	-0.004217458	4.001409e-09	4.865571e-09	-0.02925058	0.01796905
4.1e+08	-0.0240671	0.01751708	-6.93195e-12	2.680102e-10	0.003930595	-0.003623257	1.069034e-09	-1.806898e-10
	-6.93195e-12	2.680102e-10	-0.0232561	0.01827179	6.792371e-09	3.237626e-08	0.004464073	-0.003220561
	0.003930595	-0.003623257	6.792371e-09	3.237626e-08	-0.02405232	0.01778173	4.126751e-09	4.039199e-09
	1.069034e-09	-1.806898e-10	0.004464073	-0.003220562	4.126751e-09	4.039199e-09	-0.02324563	0.01846798
4.2e+08	-0.01815142	0.01655669	3.390293e-10	1.845059e-10	0.002584405	-0.002063958	9.827452e-10	-4.641969e-10
	3.390293e-10	1.845059e-10	-0.01742666	0.01711363	6.670367e-09	3.239554e-08	0.00305715	-0.00177892
	0.002584405	-0.002063958	6.670367e-09	3.239554e-08	-0.01810751	0.01679096	3.990468e-09	3.186296e-09
	9.827452e-10	-4.641969e-10	0.00305715	-0.00177892	3.990468e-09	3.186296e-09	-0.01738941	0.0172789
4.3e+08	-0.0127706	0.01399461	6.558761e-10	-6.062334e-12	0.001713276	-0.0001882847	8.216636e-10	-7.193631e-10
	6.558761e-10	-6.062334e-12	-0.01219304	0.01438272	6.342458e-09	3.248317e-08	0.002089611	-9.302185e-07
	0.001713276	-0.0001882847	6.342458e-09	3.248317e-08	-0.0127081	0.01419154	3.585295e-09	2.383108e-09
	8.216636e-10	-7.193631e-10	0.002089611	-9.302188e-07	3.585295e-09	2.383108e-09	-0.01213919	0.01451064
4.4e+08	-0.008341765	0.01004126	9.114352e-10	-2.894602e-10	0.001387021	0.001859163	5.944588e-10	-9.273154e-10
	9.114352e-10	-2.894602e-10	-0.007963042	0.01030613	5.831817e-09	3.269676e-08	0.001637558	0.001978447
	0.001387021	0.001859163	5.831817e-09	3.269676e-08	-0.00827282	0.0101971	2.927575e-09	1.708208e-09
	5.944588e-10	-9.273154e-10	0.001637558	0.001978447	2.927575e-09	1.708208e-09	-0.00790426	0.01039337
4.5e+08	-0.005207914	0.005013116	1.080698e-09	-6.422034e-10	0.001632423	0.003919648	3.142158e-10	-1.07145e-09
	1.080698e-09	-6.422034e-10	-0.005065806	0.005214044	5.177841e-09	3.308606e-08	0.001736652	0.004008148
	0.001632423	0.003919648	5.177841e-09	3.308606e-08	-0.005145353	0.00512767	2.058001e-09	1.234457e-09
	3.142158e-10	-1.07145e-09	0.001736652	0.004008148	2.058001e-09	1.234457e-09	-0.005014328	0.005260688
4.6e+08	-0.003611648	-0.0006918128	1.148089e-09	-1.035168e-09	0.002430742	0.005832925	-1.912276e-12	-1.138311e-09
	1.148089e-09	-1.035168e-09	-0.0037265	-0.0004860586	4.433391e-09	3.36883e-08	0.002379006	0.005932947
	0.002430742	0.005832925	4.433391e-09	3.36883e-08	-0.003567957	-0.0006151127	1.039287e-09	1.020831e-09
	-1.912276e-12	-1.138311e-09	0.002379006	0.005932947	1.039287e-09	1.020831e-09	-0.00369407	-0.0004764646
4.7e+08	-0.003676709	-0.006624903	1.107949e-09	-1.437441e-09	0.003718939	0.007450201	-3.331785e-10	-1.11863e-09
	1.107949e-09	-1.437441e-09	-0.004049119	-0.006341184	3.66071e-09	3.452464e-08	0.003513619	0.007605913
	0.003718939	0.007450201	3.66071e-09	3.452464e-08	-0.00366302	-0.00657918	-4.920836e-11	1.105351e-09
	-3.331785e-10	-1.11863e-09	0.003513619	0.007605913	-4.920836e-11	1.105351e-09	-0.004046147	-0.006361893
