!$
! Info: Touchstone file created by Circ.  Input file=Tx_10in_Rx_100ohms_TxVia_10mils_RxVia_20mils.circ
!$
# Hz S RI R 50
0	0.01040821	7.929382e-26	-5.38501e-05	-7.423337e-26	6.72081e-05	1.306221e-23	-5.386322e-05	1.54453e-24
	-5.38501e-05	-7.322745e-26	0.01041105	9.165124e-26	-5.384947e-05	-6.371089e-26	6.463934e-05	1.480141e-23
	6.72557e-05	1.306985e-23	-5.384946e-05	-6.475628e-26	0.01042298	7.950713e-26	-5.385096e-05	1.454595e-25
	-5.386321e-05	1.543381e-24	6.609488e-05	1.52342e-23	-5.385095e-05	1.442227e-25	0.01041662	8.740552e-26
1e+07	0.01485764	0.006443605	-2.777335e-06	-1.043347e-05	0.0002864632	0.001793336	-2.337987e-06	-1.44497e-05
	-2.777335e-06	-1.043347e-05	0.0153167	0.006476302	-1.506162e-06	-3.023662e-06	0.0006374744	0.001832898
	0.0002864674	0.001793333	-1.506162e-06	-3.023662e-06	0.01432202	0.006742545	-3.494523e-06	-3.998426e-06
	-2.337987e-06	-1.44497e-05	0.0006375073	0.001832887	-3.494523e-06	-3.998426e-06	0.0151794	0.006494112
2e+07	0.01951732	0.009239659	-4.947838e-06	3.102414e-07	0.0008275562	0.003544571	-1.93673e-06	-5.178509e-06
	-4.947838e-06	3.102414e-07	0.01990336	0.009130535	-1.978065e-05	-2.150725e-05	0.001051451	0.003759034
	0.000827555	0.003544568	-1.978065e-05	-2.150725e-05	0.0194217	0.009893218	-2.414228e-05	-2.105791e-05
	-1.93673e-06	-5.178509e-06	0.001051449	0.003759012	-2.414228e-05	-2.105791e-05	0.01981275	0.00921445
3e+07	0.02357433	0.01007081	-8.149813e-06	-1.028579e-06	0.001696053	0.005108615	-1.827351e-06	-2.836645e-06
	-8.149813e-06	-1.028579e-06	0.02389417	0.009914828	-3.524347e-05	-2.1306e-05	0.001824273	0.005383779
	0.001696053	0.005108615	-3.524347e-05	-2.1306e-05	0.02382068	0.01076458	-3.950486e-05	-2.01996e-05
	-1.827351e-06	-2.836645e-06	0.001824268	0.005383776	-3.950486e-05	-2.01996e-05	0.02384551	0.01002216
4e+07	0.02725399	0.009832582	-1.057526e-05	-3.77664e-07	0.002849362	0.006449794	-1.672459e-06	-1.571241e-06
	-1.057526e-05	-3.77664e-07	0.02750927	0.009657327	-4.723666e-05	-1.546843e-05	0.002923345	0.006756075
	0.002849363	0.006449793	-4.723666e-05	-1.546843e-05	0.02777523	0.01045583	-5.133218e-05	-1.378899e-05
	-1.672459e-06	-1.571241e-06	0.002923345	0.006756076	-5.133218e-05	-1.378899e-05	0.02749928	0.009771434
5e+07	0.03056355	0.008769778	-1.230741e-05	1.251373e-06	0.004234924	0.007521567	-1.454111e-06	-7.351392e-07
	-1.230741e-05	1.251373e-06	0.03075538	0.008592666	-5.610347e-05	-6.347545e-06	0.004409231	0.007765511
	0.004234925	0.007521566	-5.610347e-05	-6.347546e-06	0.03129766	0.009254655	-5.997509e-05	-4.135355e-06
	-1.454111e-06	-7.351392e-07	0.004409231	0.007765512	-5.997509e-05	-4.135355e-06	0.03077929	0.008703458
6e+07	0.03345991	0.007029227	-1.336926e-05	3.453545e-06	0.005792704	0.008286643	-1.177648e-06	-1.422967e-07
	-1.336926e-05	3.453545e-06	0.03359159	0.00686573	-6.193499e-05	4.917857e-06	0.006031648	0.008452229
	0.005792705	0.008286643	-6.193499e-05	4.917857e-06	0.03434547	0.007331213	-6.552638e-05	7.634892e-06
	-1.177648e-06	-1.422967e-07	0.006031645	0.00845223	-6.552638e-05	7.634892e-06	0.03364498	0.006965862
7e+07	0.03588766	0.004729918	-1.376022e-05	5.999106e-06	0.007470716	0.008707732	-8.533858e-07	2.751515e-07
	-1.376022e-05	5.999106e-06	0.03596476	0.004593636	-6.468381e-05	1.758998e-05	0.007727553	0.008799992
	0.007470718	0.008707732	-6.468381e-05	1.758998e-05	0.03686298	0.00482134	-6.796712e-05	2.078529e-05
	-8.533858e-07	2.751516e-07	0.007727548	0.008799994	-6.796712e-05	2.078529e-05	0.03604256	0.004676836
8e+07	0.03779439	0.001984118	-1.346549e-05	8.733167e-06	0.009183622	0.008782755	-4.996268e-07	5.432291e-07
	-1.346549e-05	8.733167e-06	0.03782445	0.001886681	-6.425097e-05	3.111433e-05	0.009430486	0.00880355
	0.009183624	0.008782755	-6.425097e-05	3.111433e-05	0.03879723	0.001850809	-6.717312e-05	3.475783e-05
	-4.996267e-07	5.432291e-07	0.009430481	0.008803553	-6.717312e-05	3.475783e-05	0.03792032	0.001948025
9e+07	0.03913854	-0.001095583	-1.24411e-05	1.155209e-05	0.01086165	0.008515142	-1.319598e-07	6.729386e-07
	-1.24411e-05	1.155209e-05	0.03913116	-0.0011444	-6.037056e-05	4.510442e-05	0.01107282	0.008469547
	0.01086165	0.008515142	-6.037056e-05	4.510442e-05	0.04010438	-0.001457328	-6.284716e-05	4.919631e-05
	-1.319597e-07	6.729386e-07	0.01107281	0.00846955	-6.284716e-05	4.919631e-05	0.03923771	-0.001108023
1e+08	0.03990571	-0.004388533	-1.033901e-05	1.450596e-05	0.0124425	0.007923042	2.263165e-07	6.680352e-07
	-1.033901e-05	1.450596e-05	0.03987395	-0.004380005	-5.133367e-05	5.989738e-05	0.01258269	0.007813586
	0.0124425	0.007923042	-5.133367e-05	5.989738e-05	0.04074664	-0.004984194	-5.324968e-05	6.446025e-05
	2.263165e-07	6.680352e-07	0.01258269	0.007813586	-5.324968e-05	6.446025e-05	0.03998187	-0.004370567
1.1e+08	0.04008083	-0.007878496	-7.185089e-06	1.568749e-05	0.0138634	0.007009552	4.382855e-07	6.150084e-07
	-7.185089e-06	1.568749e-05	0.0400398	-0.007815213	-3.701833e-05	6.637803e-05	0.01389936	0.006908565
	0.0138634	0.007009552	-3.701833e-05	6.637803e-05	0.04071488	-0.008566147	-3.818849e-05	7.116095e-05
	4.382855e-07	6.150084e-07	0.01389936	0.006908565	-3.818849e-05	7.116095e-05	0.04014136	-0.007824557
1.2e+08	0.03958494	-0.01137696	-6.349996e-06	1.551832e-05	0.01504592	0.005833131	4.22713e-07	5.197606e-07
	-6.349996e-06	1.551832e-05	0.03954165	-0.01125996	-2.561868e-05	6.946428e-05	0.01500941	0.005770533
	0.01504592	0.005833131	-2.561868e-05	6.946428e-05	0.04005724	-0.01210051	-2.914867e-05	7.310514e-05
	4.22713e-07	5.197606e-07	0.01500941	0.005770533	-2.914867e-05	7.310514e-05	0.03963682	-0.01128474
1.3e+08	0.03845979	-0.01475518	-5.4347e-06	1.547797e-05	0.01595004	0.004450373	3.516181e-07	4.633945e-07
	-5.4347e-06	1.547797e-05	0.03842313	-0.01458581	-2.19756e-05	6.894201e-05	0.01586159	0.004440998
	0.01595004	0.004450373	-2.19756e-05	6.894201e-05	0.03879125	-0.01548388	-2.52698e-05	7.275483e-05
	3.516181e-07	4.633945e-07	0.01586159	0.004440998	-2.52698e-05	7.275483e-05	0.03851038	-0.01462373
1.4e+08	0.03675078	-0.01790269	-4.453276e-06	1.545426e-05	0.01654297	0.002922307	2.808117e-07	4.252666e-07
	-4.453276e-06	1.545426e-05	0.03672963	-0.01768395	-1.797405e-05	6.859809e-05	0.01642142	0.002974471
	0.01654297	0.002922307	-1.797405e-05	6.859809e-05	0.03695907	-0.01861396	-2.10147e-05	7.25814e-05
	2.808117e-07	4.252666e-07	0.01642142	0.002974471	-2.10147e-05	7.25814e-05	0.03680753	-0.01773271
1.5e+08	0.03451759	-0.02072071	-3.434099e-06	1.541693e-05	0.016804	0.001314725	2.111906e-07	4.061418e-07
	-3.434099e-06	1.541693e-05	0.03452026	-0.02045744	-1.375459e-05	6.826422e-05	0.01666712	0.001431709
	0.016804	0.001314725	-1.375459e-05	6.826422e-05	0.0346196	-0.02139735	-1.652104e-05	7.241221e-05
	2.111906e-07	4.061418e-07	0.01666712	0.001431709	-1.652104e-05	7.241221e-05	0.03458767	-0.02051461
1.6e+08	0.03183389	-0.02312352	-2.392913e-06	1.534888e-05	0.0167256	-0.0003040735	1.448181e-07	4.063727e-07
	-2.392913e-06	1.534888e-05	0.03186763	-0.02282229	-9.39422e-06	6.784238e-05	0.01658988	-0.0001233001
	0.0167256	-0.0003040735	-9.39422e-06	6.784238e-05	0.03184623	-0.02375266	-1.186786e-05	7.214443e-05
	1.448181e-07	4.063727e-07	0.01658988	-0.0001233001	-1.186786e-05	7.214443e-05	0.03192385	-0.02288538
1.7e+08	0.02878564	-0.02504036	-1.339819e-06	1.523936e-05	0.01631386	-0.001865893	8.452511e-08	4.257858e-07
	-1.339819e-06	1.523936e-05	0.02885625	-0.02470932	-4.945327e-06	6.726871e-05	0.01619404	-0.001626098
	0.01631386	-0.001865893	-4.945327e-06	6.726871e-05	0.02872461	-0.0256128	-7.109275e-06	7.171032e-05
	8.452511e-08	4.257858e-07	0.01619404	-0.001626098	-7.109275e-06	7.171032e-05	0.02890099	-0.02477579
1.8e+08	0.02546869	-0.02641719	-2.820304e-07	1.508092e-05	0.01558822	-0.003305305	3.360508e-08	4.635165e-07
	-2.820304e-07	1.508092e-05	0.02558012	-0.02606573	-4.478536e-07	6.64988e-05	0.01549675	-0.003014421
	0.01558822	-0.003305305	-4.478536e-07	6.64988e-05	0.02535013	-0.02692697	-2.286981e-06	7.106225e-05
	3.360508e-08	4.635165e-07	0.01549675	-0.003014421	-2.286981e-06	7.106225e-05	0.02561356	-0.0261331
1.9e+08	0.02198592	-0.02721813	7.760424e-07	1.486808e-05	0.01458068	-0.00456224	-4.447025e-09	5.178724e-07
	7.760424e-07	1.486808e-05	0.02214004	-0.02685653	4.064472e-06	6.550048e-05	0.01452731	-0.004230735
	0.01458068	-0.00456224	4.064472e-06	6.550048e-05	0.02182495	-0.02766215	2.563404e-06	7.016531e-05
	-4.447025e-09	5.178724e-07	0.01452731	-0.004230735	2.563404e-06	7.016531e-05	0.02216279	-0.02692242
2e+08	0.0184441	-0.02742637	1.828817e-06	1.45958e-05	0.01333449	-0.005584374	-2.634991e-08	5.863568e-07
	1.828817e-06	1.45958e-05	0.0186404	-0.02706531	8.561063e-06	6.424986e-05	0.01332586	-0.005224564
	0.01333449	-0.005584374	8.561063e-06	6.424986e-05	0.01825488	-0.02780406	7.409204e-06	6.89932e-05
	-2.634991e-08	5.863568e-07	0.01332586	-0.005224564	7.409204e-06	6.89932e-05	0.01865354	-0.02712755
2.1e+08	0.01495044	-0.02704453	2.869855e-06	1.426019e-05	0.01190238	-0.006329213	-2.921514e-08	6.657038e-07
	2.869855e-06	1.426019e-05	0.01518602	-0.0266946	1.301253e-05	6.27293e-05	0.01194178	-0.005954516
	0.01190238	-0.006329213	1.301253e-05	6.27293e-05	0.01474599	-0.02735748	1.221871e-05	6.752629e-05
	-2.921514e-08	6.657038e-07	0.01194178	-0.005954516	1.221871e-05	6.752629e-05	0.015191	-0.02675125
2.2e+08	0.01160922	-0.02609439	3.893678e-06	1.38582e-05	0.01034441	-0.006765778	-1.07403e-08	7.51938e-07
	3.893678e-06	1.38582e-05	0.01187874	-0.02576555	1.738979e-05	6.092619e-05	0.01043168	-0.006389943
	0.01034441	-0.006765778	1.738979e-05	6.092619e-05	0.01140122	-0.02634607	1.696029e-05	6.575035e-05
	-1.07403e-08	7.51938e-07	0.01043168	-0.006389943	1.696029e-05	6.575035e-05	0.01187738	-0.02581502
2.3e+08	0.008518415	-0.02461602	4.894359e-06	1.338742e-05	0.008725449	-0.006875824	3.056337e-08	8.405563e-07
	4.894359e-06	1.338742e-05	0.008814276	-0.02431704	2.166344e-05	5.883233e-05	0.008857034	-0.006512157
	0.008725449	-0.006875824	2.166344e-05	5.883233e-05	0.008317065	-0.02481144	2.160184e-05	6.365592e-05
	3.056337e-08	8.405563e-07	0.008857034	-0.006512157	2.160184e-05	6.365592e-05	0.008808659	-0.02435816
2.4e+08	0.005766539	-0.02266629	5.865404e-06	1.284623e-05	0.007112601	-0.006654535	9.523169e-08	9.267407e-07
	5.865404e-06	1.284623e-05	0.006079089	-0.02240427	2.580344e-05	5.644399e-05	0.007281753	-0.00631515
	0.007112601	-0.006654535	2.580344e-05	5.644399e-05	0.005580445	-0.02281167	2.611039e-05	6.123849e-05
	9.523169e-08	9.267407e-07	0.007281753	-0.00631515	2.611039e-05	6.123849e-05	0.006071516	-0.0224363
2.5e+08	0.003429782	-0.02031681	6.799774e-06	1.223385e-05	0.005572399	-0.006110669	1.827856e-07	1.005589e-06
	6.799774e-06	1.223385e-05	0.00374772	-0.0200967	2.977929e-05	5.376157e-05	0.005769531	-0.005805808
	0.005572399	-0.006110669	2.977929e-05	5.376157e-05	0.003265901	-0.0204193	3.045249e-05	5.849814e-05
	1.827856e-07	1.005589e-06	0.005769531	-0.005805808	3.045249e-05	5.849814e-05	0.003740599	-0.02011942
2.6e+08	0.001569576	-0.0176514	7.689949e-06	1.155058e-05	0.004168114	-0.005266146	2.917231e-07	1.072361e-06
	7.689949e-06	1.155058e-05	0.001880423	-0.01747565	3.356016e-05	5.078992e-05	0.004381296	-0.00500358
	0.004168114	-0.005266146	3.356016e-05	5.078992e-05	0.001433193	-0.01771875	3.459434e-05	5.543981e-05
	2.917231e-07	1.072361e-06	0.004381296	-0.00500358	3.459434e-05	5.543981e-05	0.001876165	-0.01748935
2.7e+08	0.0002306961	-0.01476316	8.528072e-06	1.079785e-05	0.002957181	-0.004155093	4.195836e-07	1.122712e-06
	8.528072e-06	1.079785e-05	0.0005213315	-0.01463146	3.711533e-05	4.753812e-05	0.003172745	-0.003939652
	0.002957181	-0.004155093	3.711533e-05	4.753812e-05	0.0001254325	-0.01480343	3.850231e-05	5.207318e-05
	4.195836e-07	1.122712e-06	0.003172745	-0.003939652	3.850231e-05	5.207318e-05	0.0005222496	-0.01463691
2.8e+08	-0.0005600958	-0.01175117	9.306163e-06	9.978432e-06	0.001988878	-0.002822397	5.630609e-07	1.152902e-06
	9.306163e-06	9.978432e-06	-0.0003028185	-0.01166029	4.041469e-05	4.401988e-05	0.002192116	-0.00265563
	0.001988878	-0.002822397	4.041469e-05	4.401988e-05	-0.000632224	-0.01177246	4.214359e-05	4.841296e-05
	5.630609e-07	1.152902e-06	0.002192116	-0.00265563	4.214359e-05	4.841296e-05	-0.0002946087	-0.01165877
2.9e+08	-0.0007947604	-0.008717089	1.001634e-05	9.096403e-06	0.001302356	-0.001321818	7.181727e-07	1.159967e-06
	1.001634e-05	9.096403e-06	-0.0005833762	-0.008660884	4.342935e-05	4.025322e-05	0.001478268	-0.001201817
	0.001302356	-0.001321818	4.342935e-05	4.025322e-05	-0.0008332565	-0.008727284	4.548681e-05	4.447856e-05
	7.181727e-07	1.159967e-06	0.001478268	-0.001201817	4.548681e-05	4.447856e-05	-0.0005660634	-0.008654091
3e+08	-0.0004840379	-0.005761647	1.065108e-05	8.15718e-06	0.0009250848	0.0002862499	8.804615e-07	1.141838e-06
	1.065108e-05	8.15718e-06	-0.0003298353	-0.005731186	4.613215e-05	3.626035e-05	0.001059164	0.0003648634
	0.0009250848	0.0002862499	4.613215e-05	3.626035e-05	-0.000489798	-0.005768182	4.850271e-05	4.029383e-05
	8.804615e-07	1.141838e-06	0.001059164	0.0003648634	4.850271e-05	4.029383e-05	-0.0003019918	-0.005721183
3.1e+08	0.0003431512	-0.002981186	1.120349e-05	7.167476e-06	0.0008718008	0.001937272	1.045209e-06	1.097403e-06
	1.120349e-05	7.167476e-06	0.0004307347	-0.002965021	4.849854e-05	3.206757e-05	0.0009507967	0.001983194
	0.0008718008	0.001937272	4.849854e-05	3.206757e-05	0.0003679877	-0.002990846	5.116497e-05	3.588693e-05
	1.045209e-06	1.097403e-06	0.0009507967	0.001983194	5.116497e-05	3.588693e-05	0.0004700792	-0.002954151
3.2e+08	0.001640926	-0.0004644204	1.166755e-05	6.13515e-06	0.001143972	0.003565224	1.207666e-06	1.026522e-06
	1.166755e-05	6.13515e-06	0.001654848	-0.0004489837	5.050694e-05	2.770469e-05	0.00115661	0.003590145
	0.001143972	0.003565224	5.050694e-05	2.770469e-05	0.001693153	-0.0004831645	5.345062e-05	3.12896e-05
	1.207666e-06	1.026522e-06	0.00115661	0.003590145	5.345062e-05	3.12896e-05	0.001706155	-0.0004397687
3.3e+08	0.003348251	0.001710529	1.20383e-05	5.069034e-06	0.00172981	0.005105276	1.363259e-06	9.299707e-07
	1.20383e-05	5.069034e-06	0.003284322	0.001740407	5.213936e-05	2.320459e-05	0.001667431	0.005123422
	0.00172981	0.005105276	5.213936e-05	2.320459e-05	0.003423795	0.001677697	5.534063e-05	2.653662e-05
	1.363259e-06	9.299707e-07	0.001667431	0.005123422	5.534063e-05	2.653662e-05	0.003347515	0.001745376
3.4e+08	0.005391253	0.003478682	1.231205e-05	3.978745e-06	0.002604819	0.006496419	1.507776e-06	8.093554e-07
	1.231205e-05	3.978745e-06	0.005248475	0.003539168	5.338201e-05	1.860269e-05	0.002461909	0.006523945
	0.002604819	0.006496419	5.338201e-05	1.860269e-05	0.005485379	0.003427816	5.682049e-05	2.166523e-05
	1.507776e-06	8.093554e-07	0.002461909	0.006523945	5.682049e-05	2.166523e-05	0.00532293	0.003537343
3.5e+08	0.007685952	0.004790266	1.24865e-05	2.874402e-06	0.003732852	0.007683906	1.637524e-06	6.669731e-07
	1.24865e-05	2.874402e-06	0.007466736	0.004897839	5.422543e-05	1.39362e-05	0.00350744	0.0077382
	0.003732852	0.007683906	5.422543e-05	1.39362e-05	0.007793481	0.004718534	5.788022e-05	1.671427e-05
	1.637524e-06	6.669731e-07	0.00350744	0.0077382	5.788022e-05	1.671427e-05	0.007551301	0.004886829
3.6e+08	0.01014132	0.005612215	1.256074e-05	1.766395e-06	0.00506763	0.008621427	1.749425e-06	5.056596e-07
	1.256074e-05	1.766395e-06	0.009851546	0.005782949	5.466489e-05	9.243402e-06	0.00476152	0.00872033
	0.00506763	0.008621427	5.466489e-05	9.243402e-06	0.01025684	0.00551792	5.851471e-05	1.172346e-05
	1.749425e-06	5.056596e-07	0.00476152	0.00872033	5.851471e-05	1.172346e-05	0.009944579	0.005760629
3.7e+08	0.01266253	0.005929078	1.253535e-05	6.650651e-07	0.006554649	0.009272936	1.841099e-06	3.286068e-07
	1.253535e-05	6.650651e-07	0.01231147	0.006177905	5.470031e-05	4.562893e-06	0.006173497	0.009433926
	0.006554649	0.009272936	5.470031e-05	4.562893e-06	0.01278063	0.005811644	5.872355e-05	6.732628e-06
	1.841099e-06	3.286068e-07	0.006173497	0.009433926	5.872355e-05	6.732628e-06	0.0124109	0.006142514
3.8e+08	0.01515432	0.005743286	1.241228e-05	-4.195134e-07	0.008133411	0.009614043	1.910862e-06	1.391961e-07
	1.241228e-05	-4.195134e-07	0.01475439	0.006083292	5.433628e-05	-6.717294e-08	0.007686617	0.009853412
	0.008133411	0.009614043	5.433628e-05	-6.717294e-08	0.01526977	0.005603205	5.851095e-05	1.780992e-06
	1.910862e-06	1.391961e-07	0.007686617	0.009853412	5.851095e-05	1.780992e-06	0.01485781	0.006033514
3.9e+08	0.0175243	0.005074808	1.219471e-05	-1.477771e-06	0.009739864	0.009632949	1.957705e-06	-5.916453e-08
	1.219471e-05	-1.477771e-06	0.01709069	0.005516567	5.358179e-05	-4.609759e-06	0.0092403	0.009965009
	0.009739864	0.009632949	5.358179e-05	-4.609759e-06	0.01763224	0.004913555	5.788542e-05	-3.093475e-06
	1.957705e-06	-5.916453e-08	0.0092403	0.009965009	5.788542e-05	-3.093475e-06	0.01719542	0.005451602
4e+08	0.01968615	0.003960185	1.188697e-05	-2.500837e-06	0.01130898	0.009330867	1.981226e-06	-2.631824e-07
	1.188697e-05	-2.500837e-06	0.01923626	0.004511197	5.244989e-05	-9.029577e-06	0.01077255	0.009767226
	0.01130898	0.009330867	5.244989e-05	-9.029577e-06	0.01978223	0.003780109	5.685936e-05	-7.854595e-06
	1.981226e-06	-2.631824e-07	0.01077255	0.009767226	5.685936e-05	-7.854595e-06	0.01933951	0.004430799
4.1e+08	0.02156249	0.002451025	1.149432e-05	-3.480686e-06	0.01277735	0.00872193	1.981546e-06	-4.697904e-07
	1.149432e-05	-3.480686e-06	0.02111533	0.003115238	5.095731e-05	-1.329362e-05	0.01222239	0.00927087
	0.01277735	0.00872193	5.095731e-05	-1.329362e-05	0.02164305	0.002255207	5.544871e-05	-1.246844e-05
	1.981546e-06	-4.697904e-07	0.01222239	0.00927087	5.544871e-05	-1.246844e-05	0.02121426	0.003019745
4.2e+08	0.0230875	0.0006119575	1.102274e-05	-4.410234e-06	0.01408572	0.0078326	1.95919e-06	-6.762255e-07
	1.102274e-05	-4.410234e-06	0.02266294	0.001389457	4.912395e-05	-1.737155e-05	0.0135323	0.008498575
	0.01408572	0.0078326	4.912395e-05	-1.737155e-05	0.02314963	0.0004040651	5.367238e-05	-1.690366e-05
	1.95919e-06	-6.762255e-07	0.0135323	0.008498575	5.367238e-05	-1.690366e-05	0.02275483	0.001279778
4.3e+08	0.02420903	-0.001481787	1.047875e-05	-5.283385e-06	0.0151813	0.006700583	1.914975e-06	-8.800695e-07
	1.047875e-05	-5.283385e-06	0.023827	-0.0005949714	4.697227e-05	-2.123603e-05	0.01465041	0.00748388
	0.0151813	0.006700583	4.697227e-05	-2.123603e-05	0.02425067	-0.001697677	5.155174e-05	-2.113169e-05
	1.914975e-06	-8.800695e-07	0.01465041	0.00748388	5.155174e-05	-2.113169e-05	0.02390933	-0.0007173723
4.4e+08	0.02489024	-0.00374719	9.869189e-06	-6.095022e-06	0.01601991	0.005373314	1.84989e-06	-1.079257e-06
	9.869189e-06	-6.095022e-06	0.02456992	-0.002759078	4.452678e-05	-2.486281e-05	0.01553259	0.00626988
	0.01601991	0.005373314	4.452678e-05	-2.486281e-05	0.02491022	-0.003966753	4.911009e-05	-2.512682e-05
	1.84989e-06	-1.079257e-06	0.01553259	0.00626988	4.911009e-05	-2.512682e-05	0.02464047	-0.002892239
4.5e+08	0.02511069	-0.006096441	9.201065e-06	-6.840969e-06	0.0165677	0.003906066	1.764992e-06	-1.272046e-06
	9.201065e-06	-6.840969e-06	0.02486963	-0.005018953	4.181351e-05	-2.823083e-05	0.01614411	0.004907516
	0.0165677	0.003906066	4.181351e-05	-2.823083e-05	0.02510874	-0.006315291	4.637227e-05	-2.886625e-05
	1.764992e-06	-1.272046e-06	0.01614411	0.004907516	4.637227e-05	-2.886625e-05	0.02492666	-0.005160483
4.6e+08	0.02486684	-0.008440114	8.481395e-06	-7.517916e-06	0.01680249	0.002359743	1.661322e-06	-1.456973e-06
	8.481395e-06	-7.517916e-06	0.02472023	-0.007288735	3.885961e-05	-3.132198e-05	0.01646106	0.003453563
	0.01680249	0.002359743	3.885961e-05	-3.132198e-05	0.02484355	-0.008653967	4.336424e-05	-3.232998e-05
	1.661322e-06	-1.456973e-06	0.01646106	0.003453563	4.336424e-05	-3.232998e-05	0.02476245	-0.007435904
4.7e+08	0.02417197	-0.01069034	7.717095e-06	-8.123313e-06	0.01671467	0.0007984582	1.539814e-06	-1.63274e-06
	7.717095e-06	-8.123313e-06	0.02413186	-0.009483623	3.569303e-05	-3.412072e-05	0.0164712	0.001968386
	0.01671467	0.0007984582	3.569303e-05	-3.412072e-05	0.02412872	-0.01089517	4.011258e-05	-3.550038e-05
	1.539814e-06	-1.63274e-06	0.0164712	0.001968386	4.011258e-05	-3.550038e-05	0.02415851	-0.009633474
4.8e+08	0.0230555	-0.01276389	6.914912e-06	-8.655263e-06	0.01630758	-0.0007130171	1.401351e-06	-1.798235e-06
