!$
! Info: Touchstone file created by Circ.  Input file=Tx_16in_Rx_100ohms_TxVia_10mils_RxVia_20mils1.circ
!$
# Hz S RI R 50
0	0.01647362	1.185319e-25	4.173254e-13	2.221555e-28	9.827722e-05	2.070993e-23	-4.633776e-09	5.672403e-25
	4.189253e-13	2.223395e-28	0.01647643	1.376225e-25	-3.982688e-12	4.39909e-28	9.571141e-05	2.347463e-23
	9.832417e-05	2.072203e-23	-4.030844e-12	4.457833e-28	0.01648821	1.188367e-25	-1.269569e-09	1.553297e-25
	-4.631674e-09	5.669829e-25	9.716467e-05	2.416102e-23	-1.269613e-09	1.553351e-25	0.01648193	1.312075e-25
1e+07	0.02397546	0.008696428	7.663281e-12	-1.365675e-11	0.0006037597	0.002721714	-5.373668e-09	1.734986e-08
	7.663288e-12	-1.365702e-11	0.02469662	0.008700877	4.920696e-12	-1.438685e-11	0.001156418	0.002747061
	0.0006037637	0.002721711	4.920717e-12	-1.43866e-11	0.02315833	0.009218987	-3.118216e-09	1.639935e-08
	-5.373668e-09	1.734986e-08	0.001156452	0.00274705	-3.118216e-09	1.639935e-08	0.0244743	0.008742848
2e+07	0.03193514	0.01065175	1.049133e-11	-1.286693e-11	0.001888019	0.005198926	-8.063367e-10	1.469059e-08
	1.049113e-11	-1.286701e-11	0.03250704	0.01040951	1.111096e-11	-1.505628e-11	0.002271685	0.005484151
	0.001888018	0.005198923	1.111114e-11	-1.505617e-11	0.03190553	0.0116746	-2.439725e-09	1.397535e-08
	-8.063366e-10	1.469059e-08	0.002271683	0.005484129	-2.439725e-09	1.397535e-08	0.03237484	0.01055654
3e+07	0.0383729	0.008808094	5.703819e-12	-1.584058e-11	0.003841147	0.007078172	3.102978e-09	1.210187e-08
	5.703795e-12	-1.584055e-11	0.0388086	0.008486294	5.371029e-12	-2.207899e-11	0.004106887	0.00745412
	0.003841147	0.007078171	5.371054e-12	-2.207902e-11	0.03892419	0.009778051	3.256453e-09	1.261991e-08
	3.102978e-09	1.210187e-08	0.004106882	0.007454118	3.256453e-09	1.261991e-08	0.03875539	0.008660828
4e+07	0.04334389	0.004825774	-1.09482e-12	-1.75049e-11	0.006248912	0.008226132	5.887984e-09	9.411547e-09
	-1.094793e-12	-1.750492e-11	0.04365146	0.00448267	-1.533839e-12	-2.754025e-11	0.006461598	0.008643629
	0.006248913	0.008226131	-1.533867e-12	-2.754022e-11	0.04430685	0.005542415	7.000557e-09	9.719545e-09
	5.887984e-09	9.411547e-09	0.006461598	0.008643631	7.000557e-09	9.719545e-09	0.04366603	0.004652711
5e+07	0.04665101	-0.0005928221	-1.099797e-11	-1.900946e-11	0.008857985	0.008552347	7.991644e-09	6.828224e-09
	-1.099796e-11	-1.900947e-11	0.04684122	-0.0009183599	-1.226179e-11	-3.348544e-11	0.009199393	0.008818702
	0.008857986	0.008552347	-1.226179e-11	-3.348543e-11	0.04785914	-0.0002306678	9.397884e-09	7.174977e-09
	7.991644e-09	6.828224e-09	0.009199392	0.008818702	9.397884e-09	7.174977e-09	0.04690914	-0.0007719793
6e+07	0.04813217	-0.0068515	-2.440071e-11	-1.644578e-11	0.0114018	0.008045485	1.026293e-08	4.179693e-09
	-2.440069e-11	-1.644576e-11	0.04822458	-0.007128061	-2.509103e-11	-3.976745e-11	0.01179258	0.008151767
	0.0114018	0.008045484	-2.509106e-11	-3.976748e-11	0.04942602	-0.006878502	1.162107e-08	6.575667e-09
	1.026293e-08	4.179693e-09	0.01179258	0.008151768	1.162107e-08	6.575667e-09	0.0483305	-0.007017477
7e+07	0.04772677	-0.0133791	-5.352299e-11	1.194093e-12	0.01363587	0.006753566	1.547097e-08	-6.044845e-10
	-5.352288e-11	1.194128e-12	0.04774697	-0.01358462	-3.970428e-12	-6.43085e-11	0.01399964	0.006736786
	0.01363587	0.006753566	-3.97046e-12	-6.430861e-11	0.04896271	-0.01377799	9.181673e-09	1.319925e-08
	1.547097e-08	-6.044853e-10	0.01399963	0.006736788	9.181674e-09	1.319925e-08	0.04787435	-0.01351638
8e+07	0.04550063	-0.01963092	3.744211e-10	4.59945e-10	0.01532322	0.004843271	-1.922246e-08	-2.713092e-08
	3.74421e-10	4.599447e-10	0.04547707	-0.01975333	-1.028425e-11	5.084157e-12	0.01561737	0.004734293
	0.01532323	0.004843271	-1.028424e-11	5.084098e-12	0.0465587	-0.02034405	-5.873735e-10	6.372183e-09
	-1.922246e-08	-2.713092e-08	0.01561736	0.004734297	-5.873737e-10	6.372182e-09	0.04560929	-0.01972801
9e+07	0.04164868	-0.0251132	-6.888042e-11	5.012871e-11	0.01630331	0.002521899	-3.281788e-09	2.727379e-10
	-6.888047e-11	5.012867e-11	0.04161048	-0.02515023	-3.262623e-11	1.411073e-12	0.01649984	0.002357551
	0.01630332	0.002521898	-3.262623e-11	1.411079e-12	0.04243635	-0.02605371	-1.881439e-10	1.608049e-09
	-3.281788e-09	2.727378e-10	0.01649984	0.002357555	-1.881439e-10	1.608049e-09	0.04173275	-0.02516283
1e+08	0.03649773	-0.02941399	-1.476405e-12	3.262432e-11	0.01649405	3.263352e-05	2.587537e-12	4.928654e-11
	-1.476405e-12	3.262432e-11	0.03647419	-0.02937251	-3.483853e-11	6.38689e-12	0.01656503	-0.0001467895
	0.01649405	3.263339e-05	-3.483853e-11	6.38689e-12	0.03692799	-0.03047426	-4.755184e-12	4.972572e-11
	2.587537e-12	4.928654e-11	0.01656503	-0.0001467896	-4.755184e-12	4.972572e-11	0.03657345	-0.02941381
1.1e+08	0.03038766	-0.03231036	1.426507e-11	3.073124e-11	0.01587051	-0.002388385	2.126621e-11	4.749788e-11
	1.426507e-11	3.073124e-11	0.03039736	-0.03221508	-2.577266e-11	1.229441e-11	0.01584616	-0.002485102
	0.01587051	-0.002388386	-2.577266e-11	1.229441e-11	0.03050541	-0.03325911	1.647108e-11	4.887602e-11
	2.126621e-11	4.749788e-11	0.01584616	-0.002485102	1.647108e-11	4.887602e-11	0.03047077	-0.03226678
1.2e+08	0.02375623	-0.03348653	2.76349e-11	2.370551e-11	0.01449948	-0.004460315	3.543592e-11	4.144325e-11
	2.76349e-11	2.370551e-11	0.02380501	-0.03335559	-1.676574e-11	1.20498e-11	0.0144446	-0.004473628
	0.01449948	-0.004460315	-1.676574e-11	1.20498e-11	0.02368229	-0.03428382	3.462098e-11	4.083374e-11
	3.543592e-11	4.144325e-11	0.0144446	-0.004473628	3.462098e-11	4.083374e-11	0.02385682	-0.03341011
1.3e+08	0.01714079	-0.03289556	3.64042e-11	1.556118e-11	0.0125414	-0.005972456	4.62502e-11	3.305295e-11
	3.64042e-11	1.556118e-11	0.01723077	-0.03274819	-9.521405e-12	8.312553e-12	0.0124924	-0.005916666
	0.0125414	-0.005972456	-9.521405e-12	8.312553e-12	0.01695242	-0.03352755	4.693641e-11	3.054012e-11
	4.62502e-11	3.305295e-11	0.0124924	-0.005916666	4.693641e-11	3.054012e-11	0.01726434	-0.0327992
1.4e+08	0.01104023	-0.03063898	4.329427e-11	4.473963e-12	0.01020713	-0.006774418	5.495248e-11	2.107602e-11
	4.329427e-11	4.473963e-12	0.01116712	-0.03049384	-2.999953e-12	2.50674e-12	0.01018567	-0.006671846
	0.01020713	-0.006774418	-2.999953e-12	2.50674e-12	0.01079994	-0.03110978	5.672409e-11	1.617924e-11
	5.495248e-11	2.107602e-11	0.01018567	-0.006671846	5.672409e-11	1.617924e-11	0.01118684	-0.03053644
1.5e+08	0.005893397	-0.02695189	4.722973e-11	-9.00396e-12	0.007741456	-0.006789823	6.02435e-11	6.120527e-12
	4.722973e-11	-9.00396e-12	0.006046645	-0.02682488	2.026246e-12	-5.1855e-12	0.007756065	-0.006665863
	0.007741456	-0.006789823	2.026246e-12	-5.1855e-12	0.005650958	-0.02727881	6.24936e-11	-1.510111e-12
	6.02435e-11	6.120527e-12	0.007756065	-0.006665863	6.24936e-11	-1.510111e-12	0.006057743	-0.02685583
1.6e+08	0.002047052	-0.0221797	4.734114e-11	-2.395382e-11	0.005398705	-0.006022966	6.104696e-11	-1.075952e-11
	4.734114e-11	-2.395382e-11	0.002210961	-0.02208189	4.882566e-12	-1.427741e-11	0.005446154	-0.005901721
	0.005398705	-0.006022966	4.882566e-12	-1.427741e-11	0.001839495	-0.022389	6.303289e-11	-2.127085e-11
	6.104696e-11	-1.075952e-11	0.005446154	-0.005901721	6.303289e-11	-2.127085e-11	0.002219076	-0.02209982
1.7e+08	-0.0002696792	-0.01674657	4.307714e-11	-3.915246e-11	0.003417168	-0.004557299	5.664959e-11	-2.813272e-11
	4.307714e-11	-3.915246e-11	-0.0001141047	-0.01668267	5.08968e-12	-2.403247e-11	0.003484616	-0.004457914
	0.003417168	-0.004557299	5.08968e-12	-2.403247e-11	-0.0004179309	-0.01686953	5.757081e-11	-4.141634e-11
	5.664959e-11	-2.813272e-11	0.003484616	-0.004457914	5.757081e-11	-4.141634e-11	-0.0001034436	-0.01668804
1.8e+08	-0.0009611248	-0.01111798	3.430707e-11	-5.318324e-11	0.001995328	-0.002545908	4.683035e-11	-4.43164e-11
	3.430707e-11	-5.318324e-11	-0.0008338571	-0.01108543	2.448086e-12	-3.354801e-11	0.002063258	-0.002479842
	0.001995328	-0.002545908	2.448086e-12	-3.354801e-11	-0.001037566	-0.01118734	4.592419e-11	-5.998783e-11
	4.683035e-11	-4.43164e-11	0.002063258	-0.002479842	4.592419e-11	-5.998783e-11	-0.0008157387	-0.01108039
1.9e+08	-6.957686e-05	-0.005760477	2.138418e-11	-6.458672e-11	0.001272443	-0.0001950659	3.194352e-11	-5.755382e-11
	2.138418e-11	-6.458672e-11	1.099884e-05	-0.0057494	-2.908864e-12	-4.186726e-11	0.001318153	-0.0001645129
	0.001272443	-0.0001950659	-2.908864e-12	-4.186726e-11	-7.231268e-05	-0.005807344	2.858936e-11	-7.496827e-11
	3.194352e-11	-5.755382e-11	0.001318153	-0.0001645129	2.858936e-11	-7.496827e-11	4.040406e-05	-0.005737522
2e+08	0.002231955	-0.00110213	5.159715e-12	-7.203062e-11	0.001315428	0.002257324	1.294072e-11	-6.621751e-11
	5.159715e-12	-7.203062e-11	0.002251531	-0.001096139	-1.050908e-11	-4.810762e-11	0.001316714	0.002259747
	0.001315428	0.002257324	-1.050908e-11	-4.810762e-11	0.002296032	-0.001153576	6.75142e-12	-8.452823e-11
	1.294072e-11	-6.621751e-11	0.001316714	0.002259747	6.75142e-12	-8.452823e-11	0.002294615	-0.001081986
2.1e+08	0.005658012	0.002502876	-1.307648e-11	-7.448463e-11	0.002113242	0.004566076	-8.685595e-12	-6.902124e-11
	-1.307648e-11	-7.448463e-11	0.005608486	0.00252503	-1.958411e-11	-5.158346e-11	0.002051883	0.004556386
	0.002113242	0.004566076	-1.958411e-11	-5.158346e-11	0.005775404	0.002425566	-1.779936e-11	-8.726835e-11
	-8.685595e-12	-6.902124e-11	0.002051883	0.004556386	-1.779936e-11	-8.726835e-11	0.005665981	0.002536399
2.2e+08	0.009838209	0.004802474	-3.171465e-11	-7.136654e-11	0.003579168	0.006503325	-3.104351e-11	-6.519994e-11
	-3.171465e-11	-7.136654e-11	0.009719181	0.004864601	-2.915598e-11	-5.190554e-11	0.003443823	0.006504133
	0.003579168	0.006503325	-2.915598e-11	-5.190554e-11	0.009991165	0.004684811	-4.28389e-11	-8.242019e-11
	-3.104351e-11	-6.519994e-11	0.003443823	0.006504133	-4.28389e-11	-8.242019e-11	0.009790095	0.004868178
2.3e+08	0.01435141	0.005665451	-4.898805e-11	-6.263762e-11	0.005560537	0.00788095	-5.203278e-11	-5.462862e-11
	-4.898805e-11	-6.263762e-11	0.01417084	0.005791183	-3.815743e-11	-4.903969e-11	0.005348745	0.007918566
	0.005560537	0.00788095	-3.815743e-11	-4.903969e-11	0.01452027	0.005500062	-6.594566e-11	-6.997332e-11
	-5.203278e-11	-5.462862e-11	0.005348745	0.007918566	-6.594566e-11	-6.997332e-11	0.01425257	0.005782556
2.4e+08	0.01876342	0.00508925	-6.316354e-11	-4.883571e-11	0.007854766	0.008568665	-6.956985e-11	-3.786725e-11
	-6.316354e-11	-4.883571e-11	0.01853733	0.005299172	-4.556353e-11	-4.331558e-11	0.007573821	0.008669708
	0.007854766	0.008568665	-4.556353e-11	-4.331558e-11	0.01892879	0.004875567	-8.476816e-11	-5.070995e-11
	-6.956985e-11	-3.786725e-11	0.007573821	0.008669708	-8.476816e-11	-5.070995e-11	0.01862594	0.005275011
2.5e+08	0.0226648	0.00319648	-7.273226e-11	-3.103915e-11	0.01022997	0.008506155	-8.18139e-11	-1.612407e-11
	-7.273226e-11	-3.103915e-11	0.02241605	0.003505454	-5.051444e-11	-3.538644e-11	0.009896597	0.008694062
	0.01022997	0.008506155	-5.051444e-11	-3.538644e-11	0.02280941	0.00293989	-9.728623e-11	-2.614257e-11
	-8.18139e-11	-1.612407e-11	0.009896597	0.008694062	-9.728623e-11	-2.614257e-11	0.02250667	0.003463888
2.6e+08	0.0257056	0.0002206799	-7.657561e-11	-1.076915e-11	0.01244813	0.007708247	-8.736453e-11	8.853676e-12
	-7.657561e-11	-1.076915e-11	0.02546175	0.0006356886	-5.24116e-11	-2.615e-11	0.01208696	0.008000077
	0.01244813	0.007708247	-5.24116e-11	-2.615e-11	0.02581576	-6.871353e-05	-1.020315e-10	1.631329e-12
	-8.736453e-11	8.853676e-12	0.01208696	0.008000077	-1.020315e-10	1.631329e-12	0.02554912	0.0005765278
2.7e+08	0.02762405	-0.003517072	-7.408737e-11	1.015589e-11	0.01428851	0.006262746	-8.540951e-11	3.494496e-11
	-7.408737e-11	1.015589e-11	0.0274146	-0.002998338	-5.097732e-11	-1.664539e-11	0.01392957	0.006666662
	0.01428851	0.006262746	-5.097732e-11	-1.664539e-11	0.02769059	-0.00382597	-9.824315e-11	3.013517e-11
	-8.540951e-11	3.494496e-11	0.01392957	0.006666662	-9.824315e-11	3.013517e-11	0.0274936	-0.003073545
2.8e+08	0.02826687	-0.007638548	-6.524176e-11	2.979384e-11	0.01556923	0.004321263	-7.581102e-11	5.98534e-11
	-6.524176e-11	2.979384e-11	0.02812014	-0.007028123	-4.627539e-11	-7.942411e-12	0.01524469	0.00483498
	0.01556923	0.004321263	-4.627539e-11	-7.942411e-12	0.02828565	-0.007952088	-8.594775e-11	5.675087e-11
	-7.581102e-11	5.98534e-11	0.01524469	0.00483498	-8.594775e-11	5.675087e-11	0.02818638	-0.007116212
2.9e+08	0.02759988	-0.01174299	-5.060359e-11	4.626104e-11	0.01616491	0.002083945	-5.912665e-11	8.131711e-11
	-5.060359e-11	4.626104e-11	0.02753976	-0.011062	-3.869658e-11	-1.036299e-12	0.01590543	0.002694351
	0.01616491	0.002083945	-3.869658e-11	-1.036299e-12	0.02757173	-0.01204635	-6.596244e-11	7.896218e-11
	-5.912665e-11	8.131711e-11	0.01590543	0.002694351	-6.596244e-11	7.896218e-11	0.02759004	-0.01115851
3e+08	0.02570792	-0.0154429	-3.128509e-11	5.790551e-11	0.01601878	-0.0002204372	-3.656999e-11	9.73109e-11
	-3.128509e-11	5.790551e-11	0.02575099	-0.01471993	-2.891644e-11	3.243407e-12	0.01584986	0.0004635795
	0.01601878	-0.0002204372	-2.891644e-11	3.243407e-12	0.02563816	-0.01572276	-3.982939e-11	9.458189e-11
	-3.656999e-11	9.73109e-11	0.01584986	0.0004635795	-3.982939e-11	9.458189e-11	0.0257837	-0.01481952
3.1e+08	0.0227845	-0.01839799	-8.856595e-12	6.34584e-11	0.01514811	-0.002357158	-9.918717e-12	1.06227e-10
	-8.856595e-12	6.34584e-11	0.02293776	-0.01766645	-1.783321e-11	4.305773e-12	0.01508694	-0.001630529
	0.01514811	-0.002357158	-1.783321e-11	4.305773e-12	0.02268215	-0.01864371	-9.693076e-12	1.019487e-10
	-9.918717e-12	1.06227e-10	0.01508694	-0.001630529	-9.693076e-12	1.019487e-10	0.02295307	-0.01776349
3.2e+08	0.01911213	-0.02034434	1.478037e-11	6.215369e-11	0.01364238	-0.004108807	1.862206e-11	1.07024e-10
	1.478037e-11	6.215369e-11	0.01937157	-0.01963926	-6.49094e-12	1.851881e-12	0.01369537	-0.003375441
	0.01364238	-0.004108807	-6.49094e-12	1.851881e-12	0.01898871	-0.02054883	2.186981e-11	1.000831e-10
	1.862206e-11	1.07024e-10	0.01369537	-0.003375441	2.186981e-11	1.000831e-10	0.01937149	-0.01972838
3.3e+08	0.01503509	-0.02111641	3.754808e-11	5.380963e-11	0.01165428	-0.005296902	4.659205e-11	9.93359e-11
	3.754808e-11	5.380963e-11	0.0153855	-0.02047079	4.007906e-12	-4.092188e-12	0.01181585	-0.004593818
	0.01165428	-0.005296902	4.007906e-12	-4.092188e-12	0.01490345	-0.02127657	5.205677e-11	8.8795e-11
	4.659205e-11	9.93359e-11	0.01181585	-0.004593818	5.205677e-11	8.8795e-11	0.01537365	-0.02054748
3.4e+08	0.01092717	-0.02065985	5.736644e-11	3.886638e-11	0.009384484	-0.005799689	7.147589e-11	8.353441e-11
	5.736644e-11	3.886638e-11	0.01134302	-0.02010107	1.259764e-11	-1.31647e-11	0.009636982	-0.005161018
	0.009384484	-0.005799689	1.259764e-11	-1.31647e-11	0.01080014	-0.02077665	7.807319e-11	6.873499e-11
	7.147589e-11	8.353441e-11	0.009636982	-0.005161018	7.807319e-11	6.873499e-11	0.01132438	-0.02016215
3.5e+08	0.00715724	-0.0190343	7.233532e-11	1.837432e-11	0.007061478	-0.005564304	9.09206e-11	6.073455e-11
	7.233532e-11	1.837432e-11	0.007604788	-0.01858086	1.83487e-11	-2.468331e-11	0.007376559	-0.005017399
	0.007061478	-0.005564304	1.83487e-11	-2.468331e-11	0.007046465	-0.01911244	9.738065e-11	4.137956e-11
	9.09206e-11	6.073455e-11	0.007376559	-0.005017399	9.738065e-11	4.137956e-11	0.007585125	-0.0186249
3.6e+08	0.004055736	-0.0164057	8.091277e-11	-6.070704e-12	0.004918586	-0.004612022	1.029552e-10	3.27376e-11
	8.091277e-11	-6.070704e-12	0.004496089	-0.01606485	2.056457e-11	-3.768925e-11	0.005259768	-0.00417414
	0.004918586	-0.004612022	2.056457e-11	-3.768925e-11	0.003970616	-0.01645302	1.079425e-10	8.943992e-12
	1.029552e-10	3.27376e-11	0.005259768	-0.00417414	1.079425e-10	8.943992e-12	0.004481426	-0.01609232
3.7e+08	0.001885146	-0.01302916	8.207358e-11	-3.244014e-11	0.003170485	-0.00303599	1.061987e-10	1.905827e-12
	8.207358e-11	-3.244014e-11	0.002278052	-0.0127955	1.886734e-11	-5.102252e-11	0.003496725	-0.002711946
	0.003170485	-0.00303599	1.886734e-11	-5.102252e-11	0.00183211	-0.01305568	1.084457e-10	-2.578197e-11
	1.061987e-10	1.905827e-12	0.003496725	-0.002711946	1.084457e-10	-2.578197e-11	0.002274019	-0.01280878
3.8e+08	0.0008171683	-0.0092238	7.543421e-11	-5.8441e-11	0.00199162	-0.0009916627	1.000228e-10	-2.902854e-11
	7.543421e-11	-5.8441e-11	0.001125131	-0.009079173	1.326023e-11	-6.342667e-11	0.002261536	-0.0007727435
	0.00199162	-0.0009916626	1.326023e-11	-6.342667e-11	0.0007992248	-0.009240718	9.84691e-11	-5.966899e-11
	1.000228e-10	-2.902854e-11	0.002261536	-0.0007727435	9.84691e-11	-5.966899e-11	0.001136373	-0.009082359
3.9e+08	0.0009186078	-0.005342162	6.132343e-11	-8.171861e-11	0.001498782	0.001319069	8.465565e-11	-5.720637e-11
	6.132343e-11	-8.171861e-11	0.001110901	-0.005256922	4.15503e-12	-7.367604e-11	0.001675074	0.001454771
	0.001498782	0.001319069	4.15503e-12	-7.367604e-11	0.0009352479	-0.005360747	7.857454e-11	-8.953752e-11
	8.465565e-11	-5.720637e-11	0.001675074	0.001454771	7.857454e-11	-8.953752e-11	0.001140569	-0.005255431
4e+08	0.002147212	-0.001737001	4.078741e-11	-1.000814e-10	0.001739615	0.003668388	6.120324e-11	-7.991639e-11
	4.078741e-11	-1.000814e-10	0.002203372	-0.001672509	-7.645145e-12	-8.071301e-11	0.001793217	0.003754205
	0.001739615	0.003668388	-7.645145e-12	-8.071301e-11	0.002194637	-0.001767543	5.030046e-11	-1.124744e-10
	6.120324e-11	-7.991639e-11	0.001793217	0.003754205	5.030046e-11	-1.124744e-10	0.002252765	-0.001672551
4.1e+08	0.004357698	0.001271299	1.552102e-11	-1.117247e-10	0.002688209	0.005825547	3.157839e-11	-9.48713e-11
	1.552102e-11	-1.117247e-10	0.004270097	0.001359138	-2.101243e-11	-8.377772e-11	0.002601706	0.005903186
	0.002688209	0.005825547	-2.101243e-11	-8.377772e-11	0.004429342	0.001220396	1.6048e-11	-1.261402e-10
	3.157839e-11	-9.48713e-11	0.002601706	0.005903186	1.6048e-11	-1.261402e-10	0.004338484	0.001351185
4.2e+08	0.007317206	0.003423696	-1.227394e-11	-1.154261e-10	0.004248126	0.007579961	-1.660988e-12	-1.004515e-10
	-1.227394e-11	-1.154261e-10	0.007092405	0.003580174	-3.460672e-11	-8.251064e-11	0.004018065	0.007695463
	0.004248126	0.007579961	-3.460672e-11	-8.251064e-11	0.007404486	0.003346605	-2.113388e-11	-1.290288e-10
	-1.660988e-12	-1.004515e-10	0.004018065	0.007695463	-2.113388e-11	-1.290288e-10	0.007177054	0.003558417
4.3e+08	0.01072855	0.004545186	-4.009159e-11	-1.106886e-10	0.006262461	0.008762071	-3.554846e-11	-9.588525e-11
	-4.009159e-11	-1.106886e-10	0.01038724	0.004812246	-4.702187e-11	-7.70103e-11	0.005900263	0.008961173
	0.006262461	0.008762071	-4.702187e-11	-7.70103e-11	0.01082177	0.004439073	-5.784249e-11	-1.206427e-10
	-3.554846e-11	-9.588525e-11	0.005900263	0.008961173	-5.784249e-11	-1.206427e-10	0.01048366	0.00477189
4.4e+08	0.01425889	0.004559247	-6.536472e-11	-9.780977e-11	0.008529807	0.009259911	-6.699394e-11	-8.134181e-11
	-6.536472e-11	-9.780977e-11	0.01383442	0.004971111	-5.694613e-11	-6.783474e-11	0.008061168	0.009583287
	0.008529807	0.009259911	-5.694613e-11	-6.783474e-11	0.01434822	0.004424405	-9.065973e-11	-1.015611e-10
	-6.699394e-11	-8.134181e-11	0.008061168	0.009583287	-9.065973e-11	-1.015611e-10	0.01393678	0.004908972
4.5e+08	0.0175711	0.003492948	-8.57193e-11	-7.786729e-11	0.01082446	0.009029822	-9.308335e-11	-5.792733e-11
	-8.57193e-11	-7.786729e-11	0.01710663	0.00407235	-6.331336e-11	-5.594479e-11	0.01028724	0.009508701
	0.01082446	0.009029822	-6.331336e-11	-5.594479e-11	0.01764749	0.003332618	-1.164938e-10	-7.339255e-11
	-9.308335e-11	-5.792733e-11	0.01028724	0.009508701	-1.164938e-10	-7.339255e-11	0.01720832	0.003987213
4.6e+08	0.02035483	0.00147242	-9.921026e-11	-5.26226e-11	0.01291879	0.008100377	-1.113592e-10	-2.758534e-11
	-9.921026e-11	-5.26226e-11	0.01989938	0.002227875	-6.542237e-11	-4.258755e-11	0.0123596	0.008752982
	0.01291879	0.008100377	-6.542237e-11	-4.258755e-11	0.02041087	0.001292349	-1.328766e-10	-3.861992e-11
	-1.113592e-10	-2.758534e-11	0.0123596	0.008752982	-1.328766e-10	-3.861992e-11	0.01999369	0.002120655
4.7e+08	0.02235449	-0.001290588	-1.045125e-10	-2.435501e-11	0.01460564	0.006569222	-1.200506e-10	7.082334e-12
	-1.045125e-10	-2.435501e-11	0.02195833	-0.0003661964	-6.298942e-11	-2.91451e-11	0.01407541	0.007398433
	0.01460564	0.006569222	-6.298942e-11	-2.91451e-11	0.02238497	-0.00148282	-1.381841e-10	-3.830644e-13
