!$
! Info: Touchstone file created by Circ.  Input file=Tx_16in_Rx_93ohms_TxVia_10mils_RxVia_20mils.circ
!$
# Hz S RI R 50
0	0.01458239	1.187667e-25	-8.523373e-05	-1.174952e-25	9.847368e-05	1.832534e-23	-8.524669e-05	1.502928e-24
	-8.523374e-05	-1.159033e-25	0.0145852	1.378952e-25	-8.523263e-05	-1.063494e-25	9.590697e-05	2.077018e-23
	9.852083e-05	1.833605e-23	-8.523261e-05	-1.080039e-25	0.01459703	1.190725e-25	-8.523395e-05	1.036435e-25
	-8.524667e-05	1.501052e-24	9.736093e-05	2.137749e-23	-8.523394e-05	1.017038e-25	0.01459073	1.314653e-25
1e+07	0.01982433	-0.002689236	-6.004651e-06	-3.099991e-05	0.0006295024	0.002541558	-6.11637e-06	-3.180916e-05
	-6.00465e-06	-3.099991e-05	0.02097852	-0.002964644	-1.042433e-05	-5.01269e-06	0.0006616475	0.002774168
	0.0006295063	0.002541555	-1.042433e-05	-5.01269e-06	0.02137989	-0.002082435	-3.419929e-05	-5.046381e-06
	-6.11637e-06	-3.180916e-05	0.0006616808	0.002774156	-3.419929e-05	-5.046381e-06	0.02055922	-0.002951324
2e+07	0.02233172	-0.01061678	-1.435773e-05	-1.874039e-05	0.001962061	0.004874315	-1.546202e-05	-1.989317e-05
	-1.435773e-05	-1.874039e-05	0.02293032	-0.01142322	-4.372453e-05	-2.573624e-05	0.001885912	0.005320267
	0.001962059	0.004874312	-4.372453e-05	-2.573624e-05	0.02434677	-0.01033631	-3.425869e-05	1.174733e-05
	-1.546202e-05	-1.989317e-05	0.00188591	0.005320245	-3.425869e-05	1.174733e-05	0.02263097	-0.01126815
3e+07	0.02053482	-0.02008371	-2.080638e-05	-1.232471e-05	0.003929244	0.006643824	-2.267356e-05	-1.323176e-05
	-2.080638e-05	-1.232471e-05	0.02067641	-0.02097108	-6.717142e-05	-1.805944e-05	0.003883397	0.00717619
	0.003929243	0.006643823	-6.717142e-05	-1.805944e-05	0.02279558	-0.02023915	-3.528719e-05	1.624409e-05
	-2.267356e-05	-1.323176e-05	0.003883392	0.007176187	-3.528719e-05	1.624409e-05	0.02046456	-0.02079295
4e+07	0.01534522	-0.02869513	-2.515087e-05	-5.431196e-06	0.006320141	0.007685206	-2.760182e-05	-5.834509e-06
	-2.515087e-05	-5.431196e-06	0.01510843	-0.02949276	-8.323266e-05	-1.091424e-06	0.006374976	0.008225396
	0.006320142	0.007685205	-8.323266e-05	-1.091424e-06	0.01766602	-0.02933978	-3.434293e-05	2.243444e-05
	-2.760182e-05	-5.834509e-06	0.006374976	0.008225397	-3.434293e-05	2.243444e-05	0.01495899	-0.0293265
5e+07	0.007598591	-0.03532579	-2.73947e-05	2.066259e-06	0.008877157	0.007908119	-3.024583e-05	2.359758e-06
	-2.73947e-05	2.066259e-06	0.007072694	-0.03592499	-9.205839e-05	2.110076e-05	0.009011157	0.008429445
	0.008877158	0.007908118	-9.205839e-05	2.110076e-05	0.009813073	-0.03645384	-3.155551e-05	2.905616e-05
	-3.024583e-05	2.359758e-06	0.009011157	0.008429445	-3.155551e-05	2.905616e-05	0.006962312	-0.03578449
6e+07	-0.001762007	-0.03929687	-2.751147e-05	9.862732e-06	0.01133	0.007311194	-3.054526e-05	1.100511e-05
	-2.751147e-05	9.862732e-06	-0.002477959	-0.03963038	-9.345128e-05	4.616603e-05	0.01152262	0.007798299
	0.01133	0.007311194	-9.345128e-05	4.616603e-05	0.0002035637	-0.0408558	-2.701251e-05	3.546017e-05
	-3.054526e-05	1.100511e-05	0.01152262	0.0077983	-2.701251e-05	3.546017e-05	-0.002568628	-0.03951917
7e+07	-0.01172824	-0.04029892	-2.548583e-05	1.755562e-05	0.0134259	0.005979495	-2.843693e-05	1.965116e-05
	-2.548583e-05	1.755562e-05	-0.01253079	-0.04033547	-8.714983e-05	7.212774e-05	0.01365812	0.006424126
	0.01342591	0.005979494	-8.714983e-05	7.212774e-05	-0.01012458	-0.04220105	-2.0831e-05	4.116369e-05
	-2.843693e-05	1.965116e-05	0.01365811	0.006424129	-2.0831e-05	4.116369e-05	-0.01261758	-0.04025077
8e+07	-0.02130746	-0.03836302	-2.13176e-05	2.470535e-05	0.01495624	0.004072653	-2.386999e-05	2.779202e-05
	-2.13176e-05	2.470535e-05	-0.02209541	-0.0381042	-7.293526e-05	9.707911e-05	0.01521025	0.004471044
	0.01495625	0.004072652	-7.293526e-05	9.707911e-05	-0.0201456	-0.04049703	-1.358028e-05	4.560795e-05
	-2.386998e-05	2.779202e-05	0.01521025	0.004471048	-1.358028e-05	4.560795e-05	-0.02219017	-0.03803847
9e+07	-0.02960789	-0.03382333	-1.497892e-05	3.083587e-05	0.0157779	0.001805604	-1.674167e-05	3.487638e-05
	-1.497892e-05	3.083587e-05	-0.03028776	-0.03329985	-5.049732e-05	0.0001190601	0.01603536	0.002156821
	0.01577791	0.001805603	-5.049732e-05	0.0001190601	-0.02893607	-0.03606545	-8.343696e-06	4.816099e-05
	-1.674167e-05	3.487638e-05	0.01603536	0.002156825	-8.343696e-06	4.816099e-05	-0.03039768	-0.03324269
1e+08	-0.03590782	-0.0272618	-5.812014e-06	3.533764e-05	0.01583616	-0.0005750554	-6.24202e-06	4.017595e-05
	-5.812014e-06	3.533764e-05	-0.03638399	-0.02652878	-1.727259e-05	0.000135595	0.01606514	-0.0002708775
	0.01583616	-0.0005750555	-1.727259e-05	0.000135595	-0.03577297	-0.02948543	-3.830127e-06	5.002787e-05
	-6.242019e-06	4.017595e-05	0.01606514	-0.0002708777	-3.830127e-06	5.002787e-05	-0.0365146	-0.02646935
1.1e+08	-0.03975265	-0.01948491	3.603805e-06	3.434809e-05	0.01511589	-0.002772946	4.695839e-06	3.907245e-05
	3.603805e-06	3.434809e-05	-0.04000342	-0.01869266	1.763752e-05	0.0001321801	0.01531173	-0.002552955
	0.01511589	-0.002772947	1.763752e-05	0.0001321801	-0.04007794	-0.0214254	7.145682e-07	4.94493e-05
	4.695839e-06	3.907245e-05	0.01531173	-0.002552955	7.145682e-07	4.94493e-05	-0.04014623	-0.01860707
1.2e+08	-0.04095228	-0.0112689	1.116738e-05	3.184306e-05	0.01369466	-0.004612331	1.15932e-05	3.667975e-05
	1.116738e-05	3.184305e-05	-0.04101841	-0.0104733	3.8411e-05	0.0001251913	0.01387266	-0.004457482
	0.01369466	-0.004612331	3.8411e-05	0.0001251913	-0.04156091	-0.01287372	6.342956e-06	4.845391e-05
	1.15932e-05	3.667975e-05	0.01387266	-0.004457482	6.342956e-06	4.845391e-05	-0.04115431	-0.01036098
1.3e+08	-0.03954975	-0.003463428	1.436661e-05	2.978952e-05	0.01174515	-0.005896704	1.49066e-05	3.467143e-05
	1.436661e-05	2.978952e-05	-0.03945916	-0.002710786	5.126333e-05	0.0001182287	0.01190421	-0.005794791
	0.01174515	-0.005896704	5.126333e-05	0.0001182287	-0.04031611	-0.00472224	1.226315e-05	4.676678e-05
	1.49066e-05	3.467143e-05	0.01190421	-0.005794791	1.226315e-05	4.676678e-05	-0.03957561	-0.002576812
1.4e+08	-0.03585709	0.003156207	1.723673e-05	2.754891e-05	0.009476405	-0.006492275	1.82765e-05	3.230376e-05
	1.723673e-05	2.754891e-05	-0.03564394	0.003827257	6.400831e-05	0.0001096498	0.009612637	-0.006433367
	0.009476405	-0.006492275	6.400831e-05	0.0001096498	-0.03667715	0.00222532	1.807947e-05	4.428518e-05
	1.82765e-05	3.230376e-05	0.009612637	-0.006433367	1.807947e-05	4.428518e-05	-0.03573236	0.003974041
1.5e+08	-0.03040632	0.007964233	1.998209e-05	2.497599e-05	0.007124735	-0.006337295	2.152576e-05	2.953945e-05
	1.998209e-05	2.497599e-05	-0.03011247	0.008525064	7.603575e-05	9.941731e-05	0.007233236	-0.006312164
	0.007124735	-0.006337295	7.603575e-05	9.941731e-05	-0.03119671	0.007322291	2.361581e-05	4.100248e-05
	2.152576e-05	2.953945e-05	0.007233236	-0.006312164	2.361581e-05	4.100248e-05	-0.03016853	0.008673521
1.6e+08	-0.02388841	0.01054142	2.249728e-05	2.207343e-05	0.004931894	-0.005446677	2.452852e-05	2.638236e-05
	2.249728e-05	2.207343e-05	-0.02356175	0.01097602	8.68925e-05	8.762777e-05	0.00500756	-0.005445846
	0.004931894	-0.005446677	8.68925e-05	8.762777e-05	-0.02458712	0.01013528	2.868137e-05	3.69718e-05
	2.452852e-05	2.638236e-05	0.00500756	-0.005445846	2.868137e-05	3.69718e-05	-0.02358564	0.01111424
1.7e+08	-0.01707945	0.01071055	2.469804e-05	1.886671e-05	0.003121806	-0.003909953	2.718564e-05	2.286294e-05
	2.469804e-05	1.886671e-05	-0.01677072	0.01101752	9.622649e-05	7.44709e-05	0.003160033	-0.003923077
	0.003121806	-0.003909953	9.622649e-05	7.44709e-05	-0.01764614	0.01047927	3.314167e-05	3.227282e-05
	2.718564e-05	2.286294e-05	0.003160033	-0.003923077	3.314167e-05	3.227282e-05	-0.01676697	0.01113438
1.8e+08	-0.01076081	0.008547554	2.651685e-05	1.539818e-05	0.001878506	-0.001882259	2.941903e-05	1.903143e-05
	2.651685e-05	1.539818e-05	-0.01051926	0.008741035	0.0001037724	6.020032e-05	0.001875957	-0.001897853
	0.001878506	-0.001882259	0.0001037724	6.020032e-05	-0.01117587	0.008428326	3.688736e-05	2.700895e-05
	2.941903e-05	1.903143e-05	0.001875957	-0.001897853	3.688736e-05	2.700895e-05	-0.01049617	0.008827587
1.9e+08	-0.005640275	0.00436773	2.790146e-05	1.17227e-05	0.001327544	0.0004311763	3.116989e-05	1.495179e-05
	2.790146e-05	1.17227e-05	-0.00550898	0.00447683	0.0001093449	4.510967e-05	0.001282926	0.0004256572
	0.001327544	0.0004311763	0.0001093449	4.510967e-05	-0.005902939	0.004301087	3.983518e-05	2.130059e-05
	3.116989e-05	1.495179e-05	0.001282926	0.0004256573	3.983518e-05	2.130059e-05	-0.005477636	0.004527418
2e+08	-0.00228044	-0.001311862	2.880772e-05	7.90382e-06	0.001519317	0.002791697	3.239512e-05	1.069618e-05
	2.880772e-05	7.90382e-06	-0.002293289	-0.001245021	0.0001128307	2.951191e-05	0.001437668	0.002813596
	0.001519317	0.002791697	0.0001128307	2.951191e-05	-0.002405763	-0.001377658	4.192637e-05	1.527834e-05
	3.239512e-05	1.069618e-05	0.001437668	0.002813596	4.192637e-05	1.527834e-05	-0.002266247	-0.001232005
2.1e+08	-0.001049419	-0.007829817	2.921895e-05	4.011436e-06	0.002441191	0.004965232	3.307335e-05	6.341697e-06
	2.921895e-05	4.011436e-06	-0.001223609	-0.007753218	0.0001141857	1.372315e-05	0.002319965	0.005026368
	0.002441191	0.004965232	0.0001141857	1.372315e-05	-0.001064509	-0.007935536	4.313155e-05	9.077744e-06
	3.307335e-05	6.341697e-06	0.002319965	0.005026368	4.313155e-05	9.077744e-06	-0.001213471	-0.00777506
2.2e+08	-0.002082229	-0.01444958	2.912569e-05	1.161539e-07	0.003993482	0.006729487	3.319589e-05	1.96485e-06
	2.912569e-05	1.161539e-07	-0.002417205	-0.01430739	0.0001134211	-1.950867e-06	0.003834643	0.006843567
	0.003993482	0.006729487	0.0001134211	-1.950867e-06	-0.002021982	-0.01462302	4.34434e-05	2.833181e-06
	3.319589e-05	1.96485e-06	0.003834643	0.006843567	4.34434e-05	2.833181e-06	-0.002435152	-0.01435727
2.3e+08	-0.005272885	-0.02043768	2.853038e-05	-3.711736e-06	0.006010415	0.007906206	3.276655e-05	-2.360273e-06
	2.853038e-05	-3.711736e-06	-0.005749722	-0.02017614	0.0001105941	-1.722256e-05	0.005821682	0.008087079
	0.006010415	0.007906206	0.0001105941	-1.722256e-05	-0.005175578	-0.02069297	4.287572e-05	-3.325631e-06
	3.276655e-05	-2.360273e-06	0.005821682	0.008087079	4.287572e-05	-3.325631e-06	-0.005804212	-0.02024381
2.4e+08	-0.01029027	-0.02513934	2.744678e-05	-7.404097e-06	0.008278594	0.008380272	3.179972e-05	-6.563431e-06
	2.744678e-05	-7.404097e-06	-0.01087292	-0.02471269	0.0001057993	-3.182613e-05	0.008073414	0.008639608
	0.008278594	0.008380272	0.0001057993	-3.182613e-05	-0.01019338	-0.02547754	4.146092e-05	-9.276389e-06
	3.179972e-05	-6.563431e-06	0.008073414	0.008639608	4.146092e-05	-9.276389e-06	-0.01096868	-0.02478558
2.5e+08	-0.0166168	-0.02804436	2.589853e-05	-1.089664e-05	0.01056018	0.008111382	3.031806e-05	-1.057913e-05
	2.589853e-05	-1.089664e-05	-0.01725523	-0.02742022	9.915955e-05	-4.551877e-05	0.01035683	0.008456444
	0.01056018	0.008111382	9.915955e-05	-4.551877e-05	-0.01655337	-0.02845512	3.924708e-05	-1.490607e-05
	3.031806e-05	-1.057913e-05	0.01035683	0.008456444	3.924708e-05	-1.490607e-05	-0.01739268	-0.02748473
2.6e+08	-0.02360527	-0.02883666	2.391754e-05	-1.412947e-05	0.01261842	0.007137355	2.835111e-05	-1.434658e-05
	2.391754e-05	-1.412947e-05	-0.02424039	-0.0280002	9.081738e-05	-5.807607e-05	0.01243834	0.007569179
	0.01261842	0.007137355	9.081738e-05	-5.807607e-05	-0.02360117	-0.02930075	3.629561e-05	-2.011193e-05
	2.835111e-05	-1.434658e-05	0.01243834	0.007569179	3.629561e-05	-2.011193e-05	-0.02441549	-0.0280432
2.7e+08	-0.0305477	-0.02742279	2.154386e-05	-1.704909e-05	0.01424258	0.0055689	2.59341e-05	-1.780947e-05
	2.154386e-05	-1.704909e-05	-0.03111735	-0.02637906	8.094531e-05	-6.929841e-05	0.01410799	0.006081148
	0.01424258	0.0055689	8.094531e-05	-6.929841e-05	-0.03061981	-0.0279152	3.267911e-05	-2.480201e-05
	2.59341e-05	-1.780947e-05	0.01410799	0.006081148	3.267911e-05	-2.480201e-05	-0.031322	-0.02638936
2.8e+08	-0.03674849	-0.02393725	1.882362e-05	-1.960797e-05	0.01526933	0.003576759	2.310771e-05	-2.091564e-05
	1.882362e-05	-1.960797e-05	-0.03719403	-0.02271155	6.973295e-05	-7.900489e-05	0.01520062	0.004155456
	0.01526933	0.003576759	6.973295e-05	-7.900489e-05	-0.03690398	-0.0244304	2.848009e-05	-2.889552e-05
	2.310771e-05	-2.091564e-05	0.01520062	0.004155456	2.848009e-05	-2.889552e-05	-0.03741693	-0.02268111
2.9e+08	-0.04159452	-0.01872475	1.580831e-05	-2.176507e-05	0.01559869	0.001372974	1.991801e-05	-2.361695e-05
	1.580831e-05	-2.176507e-05	-0.04186739	-0.01736081	5.739e-05	-8.703484e-05	0.01561164	0.00199723
	0.01559869	0.001372974	5.739e-05	-8.703484e-05	-0.04183117	-0.01919164	2.378975e-05	-3.232324e-05
	1.991801e-05	-2.361695e-05	0.01561164	0.00199723	2.378975e-05	-3.232324e-05	-0.04209518	-0.01728562
3e+08	-0.04461541	-0.0123021	1.255405e-05	-2.348625e-05	0.01520286	-0.00081141	1.641679e-05	-2.586961e-05
	1.255405e-05	-2.348625e-05	-0.04468275	-0.01085823	4.414761e-05	-9.325096e-05	0.0153063	-0.0001677343
	0.01520286	-0.00081141	4.414761e-05	-9.325096e-05	-0.04492269	-0.01271905	1.870709e-05	-3.502817e-05
	1.641679e-05	-2.586961e-05	0.0153063	-0.0001677343	1.870709e-05	-3.502817e-05	-0.04490144	-0.01073871
3.1e+08	-0.04552839	-0.005304045	9.12107e-06	-2.474484e-05	0.01412772	-0.002749843	1.26619e-05	-2.763502e-05
	9.12107e-06	-2.474484e-05	-0.04537732	-0.003847502	3.025804e-05	-9.754409e-05	0.01432176	-0.002115661
	0.01412772	-0.002749843	3.025804e-05	-9.754409e-05	-0.04588932	-0.005652813	1.333795e-05	-3.696662e-05
	1.26619e-05	-2.763502e-05	0.01432176	-0.002115661	1.333795e-05	-3.696662e-05	-0.04557371	-0.003688549
3.2e+08	-0.044264	0.001581385	5.57276e-06	-2.552199e-05	0.01248711	-0.00424264	8.717337e-06	-2.888091e-05
	5.57276e-06	-2.552199e-05	-0.04390386	0.002981143	1.599207e-05	-9.983817e-05	0.01276236	-0.003646628
	0.01248711	-0.00424264	1.599207e-05	-9.983817e-05	-0.0446574	0.001312196	7.793692e-06	-3.810933e-05
	8.717337e-06	-2.888091e-05	0.01276236	-0.003646628	7.793692e-06	-3.810933e-05	-0.04406695	0.003170648
3.3e+08	-0.04097074	0.007681607	1.974867e-06	-2.58073e-05	0.01045082	-0.005136303	4.652829e-06	-2.958288e-05
	1.974867e-06	-2.58073e-05	-0.04043309	0.00896019	1.634791e-06	-0.0001000955	0.01078858	-0.004603686
	0.01045082	-0.005136303	1.634791e-06	-0.0001000955	-0.04137363	0.007495898	2.189439e-06	-3.844264e-05
	4.652829e-06	-2.958288e-05	0.01078858	-0.004603686	2.189439e-06	-3.844264e-05	-0.04055523	0.009168271
3.4e+08	-0.03599849	0.0124059	-1.605572e-06	-2.55993e-05	0.008227484	-0.005338204	5.429785e-07	-2.972611e-05
	-1.605572e-06	-2.55993e-05	-0.03533481	0.01351104	-1.252062e-05	-9.832135e-05	0.008601098	-0.004887711
	0.008227484	-0.005338204	-1.252062e-05	-9.832135e-05	-0.03638857	0.01230023	-3.358147e-06	-3.796972e-05
	5.429785e-07	-2.972611e-05	0.008601098	-0.004887711	-3.358147e-06	-3.796972e-05	-0.03541254	0.01372383
3.5e+08	-0.02986269	0.01530336	-5.101493e-06	-2.490573e-05	0.00604393	-0.004825465	-3.5343e-06	-2.930668e-05
	-5.101493e-06	-2.490573e-05	-0.02913982	0.01620095	-2.618073e-05	-9.456687e-05	0.006421081	-0.004466812
	0.00604393	-0.004825465	-2.618073e-05	-9.456687e-05	-0.03022048	0.01526772	-8.733573e-06	-3.671091e-05
	-3.5343e-06	-2.930668e-05	0.006421081	-0.004466812	-8.733573e-06	-3.671091e-05	-0.02917426	0.01640411
3.6e+08	-0.02319244	0.01610688	-8.44716e-06	-2.374368e-05	0.004122819	-0.003647257	-7.499804e-06	-2.833274e-05
	-8.44716e-06	-2.374368e-05	-0.02248624	0.01678537	-3.906069e-05	-8.892995e-05	0.004468618	-0.003379472
	0.004122819	-0.003647257	-3.906069e-05	-8.892995e-05	-0.02350306	0.01612615	-1.382546e-05	-3.470387e-05
	-7.499804e-06	-2.833274e-05	0.004468618	-0.003379472	-1.382546e-05	-3.470387e-05	-0.02248306	0.01696559
3.7e+08	-0.01666769	0.01475914	-1.157959e-05	-2.213947e-05	0.00266042	-0.001920197	-1.127543e-05	-2.682496e-05
	-1.157959e-05	-2.213947e-05	-0.01605546	0.0152318	-5.089341e-05	-8.155383e-05	0.002940961	-0.001731013
	0.00266042	-0.001920197	-5.089341e-05	-8.155383e-05	-0.01692207	0.01481489	-1.852949e-05	-3.200275e-05
	-1.127543e-05	-2.682496e-05	0.002940961	-0.001731013	-1.852949e-05	-3.200275e-05	-0.01602436	0.01537817
3.8e+08	-0.0109513	0.01141779	-1.443995e-05	-2.012821e-05	0.001806653	0.0001829501	-1.478671e-05	-2.48164e-05
	-1.443995e-05	-2.012821e-05	-0.01050376	0.01172237	-6.143843e-05	-7.262352e-05	0.001992664	0.000316528
	0.001806653	0.0001829501	-6.143843e-05	-7.262352e-05	-0.01114675	0.01149034	-2.275125e-05	-2.867684e-05
	-1.478671e-05	-2.48164e-05	0.001992664	0.000316528	-2.275125e-05	-2.867684e-05	-0.01045748	0.01182759
3.9e+08	-0.006622831	0.006439269	-1.697493e-05	-1.775321e-05	0.001649415	0.002450457	-1.796525e-05	-2.235163e-05
	-1.697493e-05	-1.775321e-05	-0.006396393	0.006635117	-7.048967e-05	-6.235986e-05	0.001719631	0.002560403
	0.001649415	0.002450457	-7.048967e-05	-6.235986e-05	-0.00676294	0.006509795	-2.640856e-05	-2.48086e-05
	-1.796525e-05	-2.235163e-05	0.001719631	0.002560403	-2.640856e-05	-2.48086e-05	-0.00634947	0.006696315
4e+08	-0.004120577	0.0003425677	-1.913794e-05	-1.506505e-05	0.002204999	0.004653184	-2.075082e-05	-1.948534e-05
	-1.913794e-05	-1.506505e-05	-0.004150826	0.0005053342	-7.788148e-05	-5.101184e-05	0.002148877	0.004777662
	0.002204999	0.004653184	-7.788148e-05	-5.101184e-05	-0.004214435	0.0003949978	-2.943347e-05	-2.049125e-05
	-2.075082e-05	-1.948534e-05	0.002148877	0.004777662	-2.943347e-05	-2.049125e-05	-0.004118053	0.0005244408
4.1e+08	-0.003697896	-0.006243415	-2.089026e-05	-1.212058e-05	0.003415901	0.006568377	-2.309306e-05	-1.628034e-05
	-2.089026e-05	-1.212058e-05	-0.003994999	-0.006029031	-8.349244e-05	-3.884779e-05	0.003235365	0.006748137
	0.003415901	0.006568377	-8.349244e-05	-3.884779e-05	-0.003758793	-0.006220867	-3.177357e-05	-1.582622e-05
	-2.309306e-05	-1.628034e-05	0.003235365	0.006748137	-3.177357e-05	-1.582622e-05	-0.003989882	-0.006045406
4.2e+08	-0.005398456	-0.01264363	-2.220192e-05	-8.981593e-06	0.005156527	0.008003122	-2.495249e-05	-1.280546e-05
	-2.220192e-05	-8.981593e-06	-0.005945076	-0.01229237	-8.724667e-05	-2.614627e-05	0.004866512	0.008277433
	0.005156527	0.008003122	-8.724667e-05	-2.614627e-05	-0.00544218	-0.01265747	-3.33928e-05	-1.09203e-05
	-2.495249e-05	-1.280546e-05	0.004866512	0.008277433	-3.33928e-05	-1.09203e-05	-0.005978379	-0.01233357
4.3e+08	-0.009052932	-0.01820504	-2.305245e-05	-5.713389e-06	0.007246361	0.008814779	-2.630089e-05	-9.133273e-06
	-2.305245e-05	-5.713389e-06	-0.009804973	-0.01763998	-8.911283e-05	-1.31875e-05	0.006874021	0.009217281
	0.007246361	0.008814779	-8.911283e-05	-1.31875e-05	-0.009095876	-0.01825615	-3.427173e-05	-5.882978e-06
	-2.630089e-05	-9.133273e-06	0.006874021	0.009217281	-3.427173e-05	-5.882978e-06	-0.009883533	-0.01769239
4.4e+08	-0.01429742	-0.02236213	-2.343119e-05	-2.38324e-06	0.009469166	0.008925961	-2.712123e-05	-5.338063e-06
	-2.343119e-05	-2.38324e-06	-0.01518763	-0.02152302	-8.910131e-05	-2.461371e-07	0.009051774	0.009480876
	0.009469166	0.008925961	-8.910131e-05	-2.461371e-07	-0.01435472	-0.02244602	-3.440729e-05	-8.238553e-07
	-2.712123e-05	-5.338063e-06	0.009051774	0.009480876	-3.440729e-05	-8.238553e-07	-0.01531358	-0.02157143
4.5e+08	-0.02061142	-0.02469283	-2.333751e-05	9.412232e-07	0.011596	0.008332335	-2.740711e-05	-1.494066e-06
	-2.333751e-05	9.412232e-07	-0.02155553	-0.02354294	-8.726052e-05	1.241447e-05	0.01117767	0.009051452
	0.011596	0.008332335	-8.726052e-05	1.241447e-05	-0.02069534	-0.0248005	-3.381229e-05	4.149735e-06
	-2.740711e-05	-1.494066e-06	0.01117767	0.009051452	-3.381229e-05	4.149735e-06	-0.02172606	-0.02357219
4.6e+08	-0.02737111	-0.0249594	-2.27806e-05	4.193594e-06	0.01340932	0.007102412	-2.716155e-05	2.325731e-06
	-2.27806e-05	4.193594e-06	-0.02827605	-0.02349012	-8.367251e-05	2.45462e-05	0.01303684	0.00798321
	0.01340932	0.007102412	-8.367251e-05	2.45462e-05	-0.02748987	-0.02507866	-3.251283e-05	8.934246e-06
	-2.716155e-05	2.325731e-06	0.01303684	0.00798321	-3.251283e-05	8.934246e-06	-0.0284836	-0.02348673
4.7e+08	-0.03391231	-0.02313019	-2.177894e-05	7.310141e-06	0.01472549	0.005369565	-2.639754e-05	6.050949e-06
	-2.177894e-05	7.310141e-06	-0.03468545	-0.0213629	-7.844932e-05	3.591884e-05	0.01444367	0.006394728
