!$
! Info: Touchstone file created by Circ.  Input file=Tx_10in_Rx_85ohms_TxVia_10mils_RxVia_20mils.circ
!$
# Hz S RI R 50
0	0.00810525	6.629307e-26	-5.412212e-05	1.64642e-25	6.688792e-05	8.587525e-24	-5.414769e-05	2.964959e-24
	-5.412213e-05	1.66005e-25	0.00810591	9.213082e-26	-5.411473e-05	5.566531e-26	6.497705e-05	1.150508e-23
	6.558707e-05	8.367406e-24	-5.411473e-05	5.578303e-26	0.008120522	6.9418e-26	-5.412441e-05	3.535056e-25
	-5.414768e-05	2.96373e-24	6.643345e-05	1.184148e-23	-5.412439e-05	3.511272e-25	0.008111504	8.786069e-26
1e+07	0.0103551	-0.009490067	-0.0001139987	-2.396852e-05	0.0003283424	0.001810238	-8.309556e-06	-1.960583e-06
	-0.0001139987	-2.396852e-05	0.01038033	-0.009495756	-3.645324e-05	8.14381e-05	0.0003253691	0.001815275
	0.0003282985	0.001810242	-3.645324e-05	8.14381e-05	0.01040384	-0.009476424	-0.0001140194	-2.398337e-05
	-8.309556e-06	-1.960582e-06	0.0003254016	0.001815263	-0.0001140194	-2.398337e-05	0.01036346	-0.009489073
2e+07	0.009998863	-0.02157266	-0.0001040358	2.010507e-05	0.0009312511	0.003472888	-7.268033e-06	-1.615258e-05
	-0.0001040358	2.010507e-05	0.00999295	-0.02159048	-4.070212e-05	0.0001096101	0.0009201114	0.003485067
	0.0009312418	0.003472917	-4.070211e-05	0.0001096101	0.01004113	-0.02155765	-0.0001040557	2.002514e-05
	-7.268032e-06	-1.615258e-05	0.0009201083	0.003485045	-0.0001040557	2.002514e-05	0.009983085	-0.02156715
3e+07	0.006137159	-0.03424187	-0.0001019265	1.766774e-05	0.001851368	0.0049515	-1.925371e-05	-1.822184e-05
	-0.0001019265	1.766774e-05	0.006088411	-0.03425427	-2.870453e-05	0.0001318502	0.001827815	0.0049745
	0.001851368	0.004951504	-2.870453e-05	0.0001318502	0.006175066	-0.03421745	-0.00010196	1.75427e-05
	-1.925371e-05	-1.822184e-05	0.00182781	0.004974498	-0.00010196	1.75427e-05	0.006084374	-0.03422126
4e+07	-0.0006480389	-0.04603877	-0.0001005704	1.96704e-05	0.003043582	0.006188813	-2.903063e-05	-1.565092e-05
	-0.0001005704	1.96704e-05	-0.0007489105	-0.04603043	-6.739701e-06	0.000143041	0.003004626	0.006227566
	0.003043578	0.006188811	-6.739701e-06	0.000143041	-0.0006132379	-0.04600297	-0.0001006245	1.94916e-05
	-2.903063e-05	-1.565092e-05	0.003004625	0.006227567	-0.0001006245	1.94916e-05	-0.0007488475	-0.04599142
5e+07	-0.009891398	-0.05626114	-9.945412e-05	2.384457e-05	0.004448199	0.007136171	-3.689364e-05	-1.030684e-05
	-9.945412e-05	2.384457e-05	-0.01004975	-0.05621496	1.998902e-05	0.0001413079	0.004392467	0.007196541
	0.004448198	0.00713617	1.998902e-05	0.0001413079	-0.009858732	-0.05621287	-9.954229e-05	2.360554e-05
	-3.689364e-05	-1.030684e-05	0.004392467	0.007196541	-9.954229e-05	2.360554e-05	-0.01004821	-0.05617041
6e+07	-0.02109857	-0.06440967	-9.815824e-05	2.943624e-05	0.00599655	0.007759389	-4.286743e-05	-2.960583e-06
	-9.815824e-05	2.943624e-05	-0.0213151	-0.0643074	4.630564e-05	0.0001259951	0.005924512	0.007847648
	0.005996556	0.007759387	4.630564e-05	0.0001259951	-0.02106714	-0.06434804	-9.829915e-05	2.913414e-05
	-4.286743e-05	-2.960583e-06	0.005924509	0.007847649	-9.829915e-05	2.913414e-05	-0.02131333	-0.0642566
7e+07	-0.03373214	-0.07013097	-9.633891e-05	3.602852e-05	0.007615288	0.008040393	-4.684289e-05	5.94506e-06
	-9.633891e-05	3.602852e-05	-0.03400258	-0.06995438	6.710979e-05	9.77595e-05	0.007529281	0.008162699
	0.007615299	0.008040385	6.710978e-05	9.77595e-05	-0.03370096	-0.0700552	-9.655507e-05	3.566632e-05
	-4.684289e-05	5.94506e-06	0.007529276	0.008162702	-9.655507e-05	3.566632e-05	-0.03400131	-0.06989672
8e+07	-0.04722349	-0.07320488	-9.373047e-05	4.328598e-05	0.009230425	0.007977572	-4.860045e-05	1.610181e-05
	-9.373047e-05	4.328598e-05	-0.04753868	-0.07293702	7.757259e-05	5.849865e-05	0.009134573	0.008139498
	0.009230435	0.007977559	7.757259e-05	5.849865e-05	-0.04719136	-0.07311422	-9.404631e-05	4.287418e-05
	-4.860045e-05	1.610181e-05	0.009134568	0.008139503	-9.404631e-05	4.287418e-05	-0.04753875	-0.07287166
9e+07	-0.0609926	-0.07353932	-9.015445e-05	5.088998e-05	0.01077126	0.007585211	-4.773789e-05	2.730598e-05
	-9.015445e-05	5.088998e-05	-0.06133895	-0.07316565	7.308342e-05	1.099484e-05	0.0106713	0.007791302
	0.01077126	0.0075852	7.308342e-05	1.099484e-05	-0.06095808	-0.07343313	-9.059382e-05	5.044758e-05
	-4.773789e-05	2.730598e-05	0.0106713	0.007791306	-9.059381e-05	5.044758e-05	-0.06134095	-0.07309111
1e+08	-0.0744724	-0.07116627	-8.554618e-05	5.853701e-05	0.01217566	0.006893353	-4.271601e-05	3.998507e-05
	-8.554618e-05	5.853701e-05	-0.07483225	-0.07067554	4.593977e-05	-4.371417e-05	0.01207869	0.007146709
	0.01217566	0.006893353	4.593977e-05	-4.371417e-05	-0.07443348	-0.07104393	-8.613032e-05	5.809137e-05
	-4.271601e-05	3.998507e-05	0.01207869	0.007146708	-8.613032e-05	5.809137e-05	-0.07483631	-0.07058993
1.1e+08	-0.08712551	-0.06622049	-7.994421e-05	6.581796e-05	0.0133905	0.00592677	-3.25611e-05	4.669531e-05
	-7.994421e-05	6.581796e-05	-0.08747861	-0.0656056	1.445588e-05	-0.0001127443	0.01330411	0.006228335
	0.0133905	0.00592677	1.445588e-05	-0.0001127443	-0.08707908	-0.06608404	-8.068413e-05	6.54063e-05
	-3.25611e-05	4.669531e-05	0.01330411	0.006228335	-8.068413e-05	6.54063e-05	-0.08748291	-0.06550665
1.2e+08	-0.09844773	-0.0589405	-7.327538e-05	7.25824e-05	0.01435507	0.004742599	-2.383562e-05	5.07317e-05
	-7.327538e-05	7.25824e-05	-0.09877198	-0.05820073	-2.708062e-05	-0.000169435	0.01428805	0.005091955
	0.01435507	0.0047426	-2.708062e-05	-0.000169435	-0.09839335	-0.05879057	-7.417235e-05	7.224473e-05
	-2.383562e-05	5.07317e-05	0.01428805	0.005091955	-7.417235e-05	7.224473e-05	-0.0987741	-0.05808717
1.3e+08	-0.1080172	-0.0496641	-6.569491e-05	7.859977e-05	0.01503849	0.00340042	-1.648573e-05	5.28777e-05
	-6.569491e-05	7.859977e-05	-0.10829	-0.04880387	-8.160338e-05	-0.0002138044	0.01499964	0.003794792
	0.01503849	0.00340042	-8.160338e-05	-0.0002138044	-0.1079536	-0.04950118	-6.673982e-05	7.837779e-05
	-1.648573e-05	5.28777e-05	0.01499964	0.003794792	-6.673982e-05	7.837779e-05	-0.1082874	-0.04867523
1.4e+08	-0.1154904	-0.03879765	-5.736321e-05	8.370494e-05	0.01541998	0.001961471	-1.312409e-05	5.309238e-05
	-5.736321e-05	8.370494e-05	-0.1156901	-0.03782677	-0.0001470798	-0.0002431888	0.01541751	0.002395807
	0.01541998	0.001961471	-0.0001470798	-0.0002431888	-0.115416	-0.0386226	-5.853537e-05	8.363776e-05
	-1.312409e-05	5.309238e-05	0.01541751	0.002395807	-5.853537e-05	8.363776e-05	-0.1156799	-0.0376833
1.5e+08	-0.1206141	-0.02680034	-4.849661e-05	8.773519e-05	0.01549063	0.0004881908	-9.466387e-06	5.323131e-05
	-4.849661e-05	8.773519e-05	-0.1207213	-0.02573381	-0.000220094	-0.0002552668	0.01553167	0.0009553257
	0.01549063	0.0004881909	-0.000220094	-0.0002552668	-0.1205273	-0.02661465	-4.976548e-05	8.785725e-05
	-9.466387e-06	5.323131e-05	0.01553167	0.0009553257	-4.976548e-05	8.785725e-05	-0.1207007	-0.02557657
1.6e+08	-0.1232318	-0.01416582	-3.931444e-05	9.062161e-05	0.01525324	-0.0009576899	-5.596046e-06	5.318718e-05
	-3.931444e-05	9.062161e-05	-0.1232304	-0.01302331	-0.0002964502	-0.0002486018	0.01534333	-0.0004667616
	0.01525324	-0.0009576899	-0.0002964502	-0.0002486018	-0.1231311	-0.01397157	-4.064032e-05	9.095941e-05
	-5.596046e-06	5.318718e-05	0.01534333	-0.0004667616	-4.064032e-05	9.095941e-05	-0.1231968	-0.01285415
1.7e+08	-0.123287	-0.001403274	-3.003652e-05	9.235084e-05	0.01472173	-0.002316956	-1.583417e-06	5.288827e-05
	-3.003652e-05	9.235084e-05	-0.1231651	-0.0002084095	-0.0003715896	-0.0002228644	0.0148644	-0.00181271
	0.01472173	-0.002316956	-0.0003715896	-0.0002228644	-0.1231711	-0.001203145	-3.137303e-05	9.292035e-05
	-1.583417e-06	5.288827e-05	0.0148644	-0.00181271	-3.137303e-05	9.292035e-05	-0.1231163	-2.993563e-05
1.8e+08	-0.1208221	0.01098117	-2.087093e-05	9.296088e-05	0.01392041	-0.003534552	2.507036e-06	5.228698e-05
	-2.087093e-05	9.296088e-05	-0.1205733	0.01220178	-0.0004409633	-0.0001789017	0.0141168	-0.003028471
	0.01392041	-0.003534552	-0.0004409633	-0.0001789017	-0.1206905	0.01118405	-2.216819e-05	9.376578e-05
	2.507036e-06	5.228698e-05	0.0141168	-0.003028471	-2.216819e-05	9.376578e-05	-0.1205077	0.01238634
1.9e+08	-0.115976	0.02250246	-1.200333e-05	9.253499e-05	0.01288303	-0.004561089	6.614385e-06	5.135402e-05
	-1.200333e-05	9.253499e-05	-0.1155998	0.02372041	-0.0005003765	-0.0001186926	0.01313167	-0.00406512
	0.01288303	-0.004561089	-0.0005003765	-0.0001186926	-0.115829	0.0227047	-1.321164e-05	9.356595e-05
	6.614385e-06	5.135402e-05	0.01313167	-0.00406512	-1.321164e-05	9.356595e-05	-0.1155166	0.02390735
2e+08	-0.1089776	0.03271374	-3.587805e-06	9.119395e-05	0.01165182	-0.005354255	1.068112e-05	5.007472e-05
	-3.587805e-06	9.119395e-05	-0.1084801	0.03390015	-0.000546292	-4.520942e-05	0.0119485	-0.004880208
	0.01165182	-0.005354255	-0.000546292	-4.520942e-05	-0.1088161	0.03291184	-4.661423e-06	9.242903e-05
	1.068112e-05	5.007472e-05	0.0119485	-0.004880208	-4.661423e-06	9.242903e-05	-0.1083792	0.03408548
2.1e+08	-0.100137	0.04122215	4.260773e-06	8.908685e-05	0.01027632	-0.005880152	1.465342e-05	4.844646e-05
	4.260773e-06	8.908685e-05	-0.09953069	0.04234913	-0.0005760773	3.779866e-05	0.0106141	-0.005439077
	0.01027632	-0.005880152	-0.0005760773	3.779866e-05	-0.09996302	0.04141275	3.359988e-06	9.049308e-05
	1.465342e-05	4.844646e-05	0.0106141	-0.005439076	3.359988e-06	9.049308e-05	-0.0994133	0.0425288
2.2e+08	-0.08983421	0.04770311	1.147238e-05	8.638003e-05	0.008811974	-0.006114572	1.848186e-05	4.647639e-05
	1.147238e-05	8.638003e-05	-0.08913817	0.04874525	-0.0005881822	0.0001260803	0.009181318	-0.005716126
	0.008811974	-0.006114572	-0.0005881822	0.0001260803	-0.08965041	0.04788319	1.077196e-05	8.791608e-05
	1.848186e-05	4.647639e-05	0.009181318	-0.005716126	1.077196e-05	8.791608e-05	-0.08900621	0.04891535
2.3e+08	-0.07850514	0.05191248	1.8025e-05	8.324459e-05	0.007318523	-0.006044155	2.212182e-05	4.417952e-05
	1.8025e-05	8.324459e-05	-0.07774433	0.05284831	-0.0005822327	0.0002151955	0.007707616	-0.005696012
	0.007318523	-0.006044155	-0.0005822327	0.0002151955	-0.07831497	0.05207955	1.753978e-05	8.486431e-05
	2.212182e-05	4.417952e-05	0.007707616	-0.005696012	1.753978e-05	8.486431e-05	-0.07760075	0.05300531
2.4e+08	-0.0666256	0.05369627	2.394479e-05	7.984274e-05	0.005858047	-0.005667364	2.553359e-05	4.157742e-05
	2.394479e-05	7.984274e-05	-0.06583011	0.05450965	-0.0005590323	0.0003008507	0.006253207	-0.005374681
	0.005858047	-0.005667364	-0.0005590323	0.0003008507	-0.06643315	0.05384856	2.367593e-05	8.14993e-05
	2.553359e-05	4.157742e-05	0.006253207	-0.005374681	2.367593e-05	8.14993e-05	-0.0656787	0.05465065
2.5e+08	-0.05469333	0.05299743	2.930183e-05	7.631361e-05	0.004492698	-0.004995155	2.868276e-05	3.869657e-05
	2.930183e-05	7.631361e-05	-0.0538972	0.05367871	-0.0005204722	0.0003792158	0.004878932	-0.004760134
	0.004492698	-0.004995155	-0.0005204722	0.0003792158	-0.05450318	0.05313403	2.923728e-05	7.796383e-05
	2.868276e-05	3.869657e-05	0.004878932	-0.004760134	2.923728e-05	7.796383e-05	-0.05374249	0.05380161
2.6e+08	-0.04320863	0.04985912	3.420177e-05	7.276018e-05	0.003282153	-0.004051209	3.154009e-05	3.556744e-05
	3.420177e-05	7.276018e-05	-0.04244845	0.05040611	-0.0004693477	0.0004472125	0.003643801	-0.003872783
	0.003282153	-0.004051209	-0.0004693477	0.0004472125	-0.04302564	0.04998011	3.431804e-05	7.436862e-05
	3.154009e-05	3.556744e-05	0.003643801	-0.003872783	3.431804e-05	7.436862e-05	-0.04229552	0.05050983
2.7e+08	-0.0326543	0.0444242	3.877268e-05	6.923883e-05	0.00228086	-0.002871603	3.40816e-05	3.22234e-05
	3.877268e-05	6.923883e-05	-0.03196752	0.04484281	-0.0004091033	0.0005027342	0.002602324	-0.002745264
	0.00228086	-0.002871603	-0.0004091033	0.0005027342	-0.03248341	0.04453073	3.903797e-05	7.078116e-05
	3.40816e-05	3.22234e-05	0.002602324	-0.002745264	3.903797e-05	7.078116e-05	-0.03182177	0.04492735
2.8e+08	-0.02347555	0.03693059	4.31487e-05	6.575345e-05	0.001535255	-0.001503806	3.628859e-05	2.870012e-05
	4.31487e-05	6.575345e-05	-0.02289869	0.03723505	-0.000343509	0.0005447893	0.001801758	-0.001421602
	0.001535255	-0.001503806	-0.000343509	0.0005447893	-0.02332153	0.03702489	4.352707e-05	6.721874e-05
	3.628859e-05	2.870012e-05	0.001801758	-0.001421602	4.352707e-05	6.721874e-05	-0.02276561	0.03730166
2.9e+08	-0.01606093	0.02770233	4.745131e-05	6.225527e-05	0.001081129	-4.952978e-06	3.814763e-05	2.503458e-05
	4.745131e-05	6.225527e-05	-0.01562771	0.02791506	-0.0002763152	0.0005735348	0.001279481	4.435556e-05
	0.001081129	-4.95297e-06	-0.0002763152	0.0005735348	-0.01592815	0.0277877	4.790745e-05	6.364673e-05
	3.814763e-05	2.503458e-05	0.001279481	4.435556e-05	4.790745e-05	6.364673e-05	-0.01551257	0.02796622
3e+08	-0.0107252	0.01713664	5.177111e-05	5.864954e-05	0.0009413708	0.001560597	3.965046e-05	2.126421e-05
	5.177111e-05	5.864954e-05	-0.01046468	0.01728765	-0.0002109188	0.0005902038	0.001060703	0.0015912
	0.0009413708	0.001560597	-0.0002109188	0.0005902038	-0.01061738	0.01721736	5.227529e-05	5.998378e-05
	3.965046e-05	2.126421e-05	0.001060703	0.0015912	5.227529e-05	5.998378e-05	-0.01037228	0.01732703
3.1e+08	-0.007695159	0.005687273	5.610352e-05	5.479928e-05	0.001124331	0.003124315	4.079474e-05	1.742629e-05
	5.610352e-05	5.479928e-05	-0.007630011	0.005813129	-0.0001447513	0.0005969413	0.001156748	0.003152853
	0.001124331	0.003124315	-0.0001447513	0.0005969413	-0.007615151	0.005768478	5.663601e-05	5.610183e-05
	4.079474e-05	1.742629e-05	0.001156749	0.003152853	5.663601e-05	5.610183e-05	-0.007564394	0.005845512
3.2e+08	-0.007099357	-0.006155081	6.039247e-05	5.057733e-05	0.001622976	0.004616987	4.158249e-05	1.355621e-05
	6.039247e-05	5.057733e-05	-0.007244385	-0.006012635	-7.462579e-05	0.0005943492	0.001564107	0.004661911
	0.001622976	0.004616987	-7.462579e-05	0.0005943492	-0.007048942	-0.006067588	6.094619e-05	5.187889e-05
	4.158249e-05	1.355621e-05	0.001564107	0.004661911	6.094619e-05	5.187889e-05	-0.007208597	-0.005981526
3.3e+08	-0.008962262	-0.01788434	6.467452e-05	4.58742e-05	0.002414982	0.00597239	4.201742e-05	9.68776e-06
	6.467452e-05	4.58742e-05	-0.009323296	-0.01768015	-1.247941e-05	0.0005845688	0.002264375	0.006053195
	0.002414982	0.00597239	-1.247941e-05	0.0005845688	-0.008942052	-0.01778432	6.525823e-05	4.721166e-05
	4.201742e-05	9.68776e-06	0.002264375	0.006053195	6.525823e-05	4.721166e-05	-0.009319121	-0.01764388
3.4e+08	-0.01320341	-0.02900147	6.88301e-05	4.057436e-05	0.003463787	0.007130871	4.210774e-05	5.852891e-06
	6.88301e-05	4.057436e-05	-0.01377654	-0.02868895	4.159975e-05	0.0005708903	0.00322515	0.007267246
	0.003463787	0.007130871	4.159975e-05	0.0005708903	-0.01321273	-0.02888247	6.946891e-05	4.198099e-05
	4.210774e-05	5.852891e-06	0.00322515	0.007267246	6.946891e-05	4.198099e-05	-0.01380434	-0.02864066
3.5e+08	-0.01964165	-0.03903648	7.269626e-05	3.460747e-05	0.004720567	0.00804254	4.186547e-05	2.080913e-06
	7.269626e-05	3.460747e-05	-0.02041292	-0.03856979	8.856757e-05	0.0005562645	0.004401804	0.008253467
	0.004720567	0.00804254	8.856757e-05	0.0005562645	-0.01967847	-0.03889213	7.343058e-05	3.610715e-05
	4.186547e-05	2.080913e-06	0.004401804	0.008253467	7.343058e-05	3.610715e-05	-0.02047159	-0.03850248
3.6e+08	-0.02800409	-0.04756886	7.608474e-05	2.79612e-05	0.006126956	0.008669831	4.130427e-05	-1.601714e-06
	7.608474e-05	2.79612e-05	-0.02894963	-0.04690508	0.0001302581	0.0005429893	0.005740017	0.008972678
	0.006126956	0.008669831	0.0001302581	0.0005429893	-0.02806499	-0.04739317	7.696649e-05	2.956334e-05
	4.130427e-05	-1.601714e-06	0.005740017	0.008972678	7.696649e-05	2.956334e-05	-0.02903658	-0.04681198
3.7e+08	-0.03793918	-0.05424534	7.880321e-05	2.068666e-05	0.007618303	0.008989229	4.043868e-05	-5.171042e-06
	7.880321e-05	2.068666e-05	-0.03902598	-0.05334664	0.0001691072	0.0005324794	0.007178829	0.009398885
	0.007618303	0.008989229	0.0001691072	0.0005324794	-0.03801949	-0.05403296	7.989096e-05	2.238237e-05
	4.043868e-05	-5.171042e-06	0.007178829	0.009398885	7.989096e-05	2.238237e-05	-0.03913714	-0.0532215
3.8e+08	-0.0490333	-0.05879404	8.067709e-05	1.289572e-05	0.009127175	0.008992091	3.928391e-05	-8.605148e-06
	8.067709e-05	1.289572e-05	-0.05022034	-0.05762964	0.0002078273	0.0005251349	0.008653964	0.00952018
	0.009127175	0.008992091	0.0002078273	0.0005251349	-0.04912721	-0.05854058	8.203003e-05	1.465564e-05
	3.928391e-05	-8.605148e-06	0.008653964	0.00952018	8.203003e-05	1.465564e-05	-0.05035028	-0.05746706
3.9e+08	-0.06082961	-0.06103455	8.156831e-05	4.751122e-06	0.01058685	0.008684541	3.785566e-05	-1.188362e-05
	8.156831e-05	4.751122e-06	-0.0620694	-0.05958238	0.0002490633	0.0005203211	0.01010115	0.009338757
	0.01058685	0.008684541	0.0002490633	0.0005203211	-0.06093036	-0.06073677	8.323965e-05	6.525317e-06
	3.785566e-05	-1.188362e-05	0.01010115	0.009338757	8.323965e-05	6.525317e-06	-0.06221157	-0.05937811
4e+08	-0.07284817	-0.06088354	8.138884e-05	-3.54855e-06	0.01193454	0.008086537	3.617028e-05	-1.498712e-05
	8.138884e-05	-3.54855e-06	-0.07408869	-0.05913155	0.0002950638	0.0005164574	0.0114592	0.008870142
	0.01193454	0.008086537	0.0002950638	0.0005164574	-0.07294831	-0.06053958	8.341936e-05	-1.828698e-06
	3.617028e-05	-1.498712e-05	0.0114592	0.008870142	8.341936e-05	-1.828698e-06	-0.07423562	-0.05888273
4.1e+08	-0.08460632	-0.05835594	8.010813e-05	-1.178693e-05	0.01311411	0.007230269	3.424502e-05	-1.789719e-05
	8.010813e-05	-1.178693e-05	-0.08579319	-0.05630299	0.000347405	0.0005111995	0.01267265	0.008141762
	0.01311411	0.007230269	0.000347405	0.0005111995	-0.08469798	-0.05796545	8.252052e-05	-1.020485e-05
	3.424502e-05	-1.789719e-05	0.01267265	0.008141762	8.252052e-05	-1.020485e-05	-0.08593681	-0.05600833
4.2e+08	-0.0956383	-0.05356195	7.775386e-05	-1.974817e-05	0.01407829	0.006158059	3.209842e-05	-2.05962e-05
	7.775386e-05	-1.974817e-05	-0.09671706	-0.05121824	0.0004067857	0.0005016919	0.0136939	0.007191066
	0.01407829	0.006158059	0.0004067857	0.0005016919	-0.0957135	-0.05312619	8.054836e-05	-1.839666e-05
	3.209842e-05	-2.05962e-05	0.0136939	0.007191066	8.054836e-05	-1.839666e-05	-0.09684903	-0.05087812
4.3e+08	-0.1055133	-0.04670039	7.440737e-05	-2.723353e-05	0.01479018	0.004920003	2.975058e-05	-2.306768e-05
	7.440737e-05	-2.723353e-05	-0.1064318	-0.04408735	0.0004729126	0.0004848672	0.01448468	0.006063364
	0.01479018	0.004920003	0.0004729126	0.0004848672	-0.1055643	-0.04622224	7.755917e-05	-2.620809e-05
	2.975058e-05	-2.306768e-05	0.01448468	0.006063364	7.755917e-05	-2.620809e-05	-0.1065439	-0.0437039
4.4e+08	-0.1138514	-0.03804884	7.019456e-05	-3.407467e-05	0.01522415	0.003571503	2.722325e-05	-2.529664e-05
	7.019456e-05	-3.407467e-05	-0.1145621	-0.0351986	0.0005444794	0.0004577577	0.01501702	0.004809579
	0.01522415	0.003571503	0.0005444794	0.0004577577	-0.113871	-0.03753277	7.365324e-05	-3.346631e-05
	2.722325e-05	-2.529664e-05	0.01501702	0.004809579	7.365324e-05	-3.346631e-05	-0.1146465	-0.03477564
4.5e+08	-0.1203369	-0.0279513	6.527448e-05	-4.014309e-05	0.01536627	0.00217086	2.453982e-05	-2.72701e-05
	6.527448e-05	-4.014309e-05	-0.120799	-0.02490562	0.0006192371	0.0004177955	0.01527371	0.003484044
	0.01536627	0.00217086	0.0006192371	0.0004177955	-0.1203188	-0.02740324	6.896554e-05	-4.003118e-05
	2.453982e-05	-2.72701e-05	0.01527371	0.003484044	6.896554e-05	-4.003118e-05	-0.1208487	-0.02444858
4.6e+08	-0.1247288	-0.01680397	5.982652e-05	-4.535557e-05	0.01521415	0.0007770228	2.172496e-05	-2.897748e-05
	5.982652e-05	-4.535557e-05	-0.1249103	-0.01361282	0.0006941454	0.0003630743	0.01524831	0.002142433
	0.01521415	0.0007770228	0.0006941454	0.0003630743	-0.1246679	-0.01623113	6.365492e-05	-4.580128e-05
	2.172496e-05	-2.897748e-05	0.01524831	0.002142433	6.365492e-05	-4.580128e-05	-0.1249195	-0.01312855
4.7e+08	-0.1268687	-0.005039697	5.403771e-05	-4.967581e-05	0.01477658	-0.0005524615	1.880415e-05	-3.041087e-05
	5.403771e-05	-4.967581e-05	-0.1267478	-0.001759421	0.000765589	0.0002925581	0.01494487	0.0008398717
	0.01477658	-0.0005524615	0.000765589	0.0002925581	-0.1267613	-0.004450357	5.789325e-05	-5.071676e-05
	1.880415e-05	-3.041087e-05	0.01494487	0.0008398717	5.789325e-05	-5.071676e-05	-0.126712	-0.001255961
4.8e+08	-0.1266847	0.006888287	4.809089e-05	-5.311337e-05	0.01407282	-0.001763269	1.580322e-05	-3.156516e-05
