!$
! Info: Touchstone file created by Circ.  Input file=Tx_16in_Rx_85ohms_TxVia_10mils_RxVia_20mils.circ
!$
# Hz S RI R 50
0	0.01282545	1.194785e-25	-8.575773e-05	-1.182251e-25	9.904751e-05	1.611008e-23	-8.577069e-05	1.502274e-24
	-8.575774e-05	-1.166234e-25	0.01282828	1.38727e-25	-8.575662e-05	-1.071008e-25	9.648e-05	1.825778e-23
	9.909485e-05	1.61195e-23	-8.57566e-05	-1.087655e-25	0.01284015	1.197864e-25	-8.575794e-05	1.030484e-25
	-8.577067e-05	1.500386e-24	9.793462e-05	1.879163e-23	-8.575793e-05	1.010969e-25	0.01283382	1.322557e-25
1e+07	0.01535478	-0.01636123	-1.092601e-05	-2.088757e-05	0.0005621117	0.002772111	-7.179267e-06	-2.477358e-05
	-1.092601e-05	-2.088757e-05	0.01534812	-0.0161002	-1.501669e-05	2.408349e-07	0.0006763984	0.002757415
	0.0005621157	0.002772107	-1.501669e-05	2.408353e-07	0.01748957	-0.01604535	-3.2645e-05	5.227328e-06
	-7.179267e-06	-2.477358e-05	0.0006764314	0.002757403	-3.2645e-05	5.227328e-06	0.01531283	-0.01608827
2e+07	0.01092005	-0.03596514	-9.584909e-06	-7.014726e-06	0.001922329	0.005212403	-4.810164e-06	-1.262343e-05
	-9.584909e-06	-7.014726e-06	0.01117782	-0.03557578	-4.098926e-05	-1.757114e-05	0.002053831	0.00508549
	0.001922328	0.0052124	-4.098926e-05	-1.757114e-05	0.01301377	-0.03626923	-4.938603e-05	-3.800276e-06
	-4.810164e-06	-1.262343e-05	0.002053828	0.005085468	-4.938604e-05	-3.800276e-06	0.01115727	-0.03553778
3e+07	-0.001099866	-0.05405754	-8.938577e-06	-3.113851e-06	0.004019412	0.006935442	-5.772123e-06	-9.234177e-06
	-8.938577e-06	-3.113851e-06	-0.0006716798	-0.05369185	-5.955014e-05	-1.162297e-05	0.004063029	0.006798283
	0.004019412	0.006935442	-5.955014e-05	-1.162297e-05	0.0008905879	-0.05472906	-6.054919e-05	3.648806e-06
	-5.772123e-06	-9.234177e-06	0.004063024	0.006798281	-6.054919e-05	3.648806e-06	-0.0006799064	-0.05364107
4e+07	-0.01864044	-0.06743463	-8.259287e-06	-7.861737e-07	0.006495107	0.007851584	-7.537112e-06	-6.253513e-06
	-8.259287e-06	-7.861737e-07	-0.0181104	-0.06713592	-7.267715e-05	2.118263e-06	0.006461112	0.007740102
	0.006495107	0.007851583	-7.267715e-05	2.118263e-06	-0.01681724	-0.06840788	-6.745168e-05	1.631459e-05
	-7.537112e-06	-6.253513e-06	0.006461112	0.007740103	-6.745168e-05	1.631459e-05	-0.0181096	-0.06707765
5e+07	-0.03949325	-0.07455624	-7.488361e-06	8.789246e-07	0.009064063	0.007906531	-8.672715e-06	-3.381365e-06
	-7.488361e-06	8.789246e-07	-0.03891547	-0.07433509	-8.027665e-05	2.059396e-05	0.008968053	0.007846573
	0.009064063	0.00790653	-8.027665e-05	2.059396e-05	-0.03788919	-0.07577462	-6.999615e-05	3.196604e-05
	-8.672715e-06	-3.381365e-06	0.008968052	0.007846573	-6.999615e-05	3.196604e-05	-0.03890861	-0.07426973
6e+07	-0.06130369	-0.07479748	-6.623028e-06	2.136632e-06	0.01144532	0.007141183	-9.132563e-06	-4.903482e-07
	-6.623028e-06	2.136632e-06	-0.06071832	-0.0746474	-8.185661e-05	4.20182e-05	0.01130787	0.007150687
	0.01144533	0.007141183	-8.185661e-05	4.20182e-05	-0.05995708	-0.07620241	-6.784338e-05	4.924524e-05
	-9.132563e-06	-4.903481e-07	0.01130787	0.007150688	-6.784338e-05	4.924524e-05	-0.06070611	-0.07457435
7e+07	-0.08177457	-0.06834598	-5.683769e-06	3.079725e-06	0.01339638	0.005681164	-8.865614e-06	2.377763e-06
	-5.683769e-06	3.079725e-06	-0.08120881	-0.06825282	-7.683829e-05	6.478157e-05	0.01324139	0.005769977
	0.01339638	0.005681164	-7.683829e-05	6.478157e-05	-0.08071016	-0.06987711	-6.063599e-05	6.690809e-05
	-8.865614e-06	2.377763e-06	0.01324139	0.005769981	-6.063599e-05	6.690809e-05	-0.08119112	-0.06817176
8e+07	-0.09887728	-0.05609405	-4.702134e-06	3.749904e-06	0.01473588	0.003714767	-7.825208e-06	5.103847e-06
	-4.702134e-06	3.749904e-06	-0.09834829	-0.05604248	-6.470356e-05	8.71641e-05	0.01458856	0.003884441
	0.01473588	0.003714766	-6.470356e-05	8.71641e-05	-0.09810752	-0.05769132	-4.809693e-05	8.362446e-05
	-7.825208e-06	5.103847e-06	0.01458856	0.003884446	-4.809693e-05	8.362446e-05	-0.09832452	-0.055953
9e+07	-0.1110251	-0.03949068	-3.716266e-06	4.170053e-06	0.015355	0.001467364	-5.957594e-06	7.514461e-06
	-3.716266e-06	4.170053e-06	-0.1105454	-0.03946814	-4.49558e-05	0.0001072457	0.0152399	0.001711367
	0.015355	0.001467363	-4.49558e-05	0.0001072457	-0.110553	-0.04109614	-2.997206e-05	9.796253e-05
	-5.957594e-06	7.514461e-06	0.0152399	0.001711371	-2.997206e-05	9.796253e-05	-0.110514	-0.03937002
1e+08	-0.1171856	-0.02036233	-2.758687e-06	4.349691e-06	0.01522006	-0.0008229184	-2.979907e-06	9.379357e-06
	-2.758687e-06	4.349691e-06	-0.1167811	-0.02036152	-1.52811e-05	0.0001227117	0.01516168	-0.0005181094
	0.01522006	-0.0008229185	-1.52811e-05	0.0001227117	-0.1170173	-0.02192217	-4.731774e-06	0.0001082152
	-2.979907e-06	9.379357e-06	0.01516168	-0.0005181095	-4.731774e-06	0.0001082152	-0.1167398	-0.02025567
1.1e+08	-0.1169912	-0.0007844651	-1.928949e-06	4.569886e-06	0.01436538	-0.002928356	2.463971e-07	9.235871e-06
	-1.928949e-06	4.569886e-06	-0.1166548	-0.0007262669	1.678327e-05	0.0001204744	0.01437659	-0.002598662
	0.01436538	-0.002928356	1.678327e-05	0.0001204744	-0.1170973	-0.002190091	1.001944e-05	0.0001065394
	2.463971e-07	9.235871e-06	0.01437659	-0.002598662	1.001944e-05	0.0001065394	-0.1166016	-0.0006148995
1.2e+08	-0.1107177	0.017319	-1.029803e-06	4.722408e-06	0.01288862	-0.004639107	2.770114e-06	8.477136e-06
	-1.029803e-06	4.722408e-06	-0.1103989	0.01742484	3.228232e-05	0.0001157092	0.01296441	-0.004307658
	0.01288862	-0.004639107	3.228232e-05	0.0001157092	-0.111023	0.01610401	2.180313e-05	0.0001037255
	2.770114e-06	8.477136e-06	0.01296441	-0.004307658	2.180313e-05	0.0001037255	-0.1103318	0.01753758
1.3e+08	-0.0991796	0.03214667	-1.388205e-07	4.726062e-06	0.01094375	-0.005787779	4.378531e-06	7.472289e-06
	-1.388205e-07	4.726062e-06	-0.098861	0.03227733	4.54456e-05	0.0001096935	0.01107584	-0.005475901
	0.01094375	-0.005787779	4.54456e-05	0.0001096935	-0.09962417	0.03114075	3.426221e-05	9.927013e-05
	4.378531e-06	7.472289e-06	0.01107584	-0.005475901	3.426221e-05	9.927013e-05	-0.0987803	0.03238638
1.4e+08	-0.08371011	0.04224823	7.105436e-07	4.581237e-06	0.008726258	-0.00625814	4.809539e-06	6.862322e-06
	7.105436e-07	4.581237e-06	-0.08339275	0.04237907	5.842378e-05	0.0001017627	0.008900119	-0.005984148
	0.008726258	-0.00625814	5.842378e-05	0.0001017627	-0.08423863	0.04145697	4.657602e-05	9.296551e-05
	4.809539e-06	6.862322e-06	0.008900119	-0.005984148	4.657602e-05	9.296551e-05	-0.0833008	0.04247928
1.5e+08	-0.06602245	0.04666246	1.490794e-06	4.303272e-06	0.006459897	-0.005995994	5.245606e-06	6.243369e-06
	1.490794e-06	4.303272e-06	-0.0657217	0.04677346	7.05598e-05	9.192363e-05	0.006655329	-0.005773014
	0.006459897	-0.005995994	7.05598e-05	9.192363e-05	-0.06658401	0.04608018	5.815372e-05	8.481936e-05
	5.245606e-06	6.243369e-06	0.006655329	-0.005773014	5.815372e-05	8.481936e-05	-0.06562299	0.04686044
1.6e+08	-0.04804345	0.04501235	2.188633e-06	3.910979e-06	0.004378918	-0.005017819	5.669358e-06	5.605972e-06
	2.188633e-06	3.910979e-06	-0.04778513	0.0450929	8.134224e-05	8.034014e-05	0.004571718	-0.00485184
	0.004378918	-0.005017819	8.134224e-05	8.034014e-05	-0.04859281	0.0446233	6.853857e-05	7.498061e-05
	5.669358e-06	5.605972e-06	0.004571718	-0.00485184	6.853857e-05	7.498061e-05	-0.04768594	0.04516384
1.7e+08	-0.03172262	0.03754836	2.793953e-06	3.422736e-06	0.002705861	-0.003414637	6.069682e-06	4.943613e-06
	2.793953e-06	3.422736e-06	-0.03153816	0.03760062	9.037645e-05	6.729166e-05	0.002870259	-0.003303194
	0.002705861	-0.003414637	9.037645e-05	6.729166e-05	-0.03222181	0.03732824	7.736838e-05	6.370136e-05
	6.069682e-06	4.943613e-06	0.002870259	-0.003303194	7.736838e-05	6.370136e-05	-0.03144593	0.037655
1.8e+08	-0.01883108	0.02513062	3.299271e-06	2.855804e-06	0.001626421	-0.001348164	6.43786e-06	4.250883e-06
	3.299271e-06	2.855804e-06	-0.01875198	0.02517098	9.738339e-05	5.313562e-05	0.001738004	-0.001279896
	0.001626421	-0.001348164	9.738339e-05	5.313562e-05	-0.01925094	0.02504845	8.437972e-05	5.130599e-05
	6.43786e-06	4.250883e-06	0.001738005	-0.001279896	8.437972e-05	5.130599e-05	-0.01867442	0.02521101
1.9e+08	-0.01077099	0.009145019	3.6987e-06	2.226214e-06	0.001264876	0.0009629807	6.765129e-06	3.523257e-06
	3.6987e-06	2.226214e-06	-0.01082304	0.009203615	0.0001022004	3.827087e-05	0.001303646	0.001007724
	0.001264876	0.0009629807	0.0001022004	3.827087e-05	-0.01109236	0.009165596	8.941199e-05	3.815927e-05
	6.765129e-06	3.523257e-06	0.001303646	0.001007724	8.941199e-05	3.815927e-05	-0.01076714	0.009234313
2e+08	-0.008419395	-0.008642977	3.987055e-06	1.549331e-06	0.00166496	0.003267103	7.041388e-06	2.757754e-06
	3.987055e-06	1.549331e-06	-0.008617416	-0.008524838	0.0001047755	2.310163e-05	0.001618141	0.003314575
	0.00166496	0.003267103	0.0001047755	2.310163e-05	-0.008633645	-0.008556206	9.240473e-05	2.463407e-05
	7.041388e-06	2.757754e-06	0.001618141	0.003314575	9.240473e-05	2.463407e-05	-0.008588362	-0.008495965
2.1e+08	-0.01202937	-0.02628271	4.159531e-06	8.408378e-07	0.002781031	0.005310585	7.254993e-06	1.954127e-06
	4.159531e-06	8.408378e-07	-0.01237303	-0.02605701	0.0001051529	8.00646e-06	0.002645223	0.005390978
	0.002781031	0.005310585	0.0001051529	8.00646e-06	-0.01213799	-0.02616473	9.338622e-05	1.108272e-05
	7.254993e-06	1.954127e-06	0.002645223	0.005390978	9.338622e-05	1.108272e-05	-0.01237333	-0.02602064
2.2e+08	-0.02120437	-0.04185713	4.212105e-06	1.176968e-07	0.004482536	0.006871076	7.39348e-06	1.11583e-06
	4.212105e-06	1.176968e-07	-0.02167584	-0.04147498	0.00010345	-6.684947e-06	0.004264871	0.007015156
	0.004482536	0.006871076	0.00010345	-6.684947e-06	-0.02121768	-0.04173872	9.245407e-05	-2.184892e-06
	7.39348e-06	1.11583e-06	0.004264871	0.007015156	9.245407e-05	-2.184892e-06	-0.02170472	-0.04142099
2.3e+08	-0.03495082	-0.05369661	4.142506e-06	-6.013177e-07	0.006571658	0.007786355	7.44489e-06	2.50456e-07
	4.142506e-06	-6.013177e-07	-0.03551469	-0.05311474	9.983046e-05	-2.070325e-05	0.006289724	0.008021776
	0.006571658	0.007786355	9.983046e-05	-2.070325e-05	-0.03488592	-0.05360227	8.975119e-05	-1.491309e-05
	7.44489e-06	2.50456e-07	0.006289724	0.008021776	8.975119e-05	-1.491309e-05	-0.03556787	-0.05303339
2.4e+08	-0.0518006	-0.06055856	3.951402e-06	-1.29576e-06	0.008810706	0.007973352	7.399307e-06	-6.305273e-07
	3.951402e-06	-1.29576e-06	-0.05240613	-0.05974568	9.447814e-05	-3.383886e-05	0.008491169	0.00832112
	0.008810706	0.007973352	9.447814e-05	-3.383886e-05	-0.05167893	-0.06050536	8.544224e-05	-2.690151e-05
	7.399307e-06	-6.305273e-07	0.008491169	0.00832112	8.544224e-05	-2.690151e-05	-0.05247605	-0.05962887
2.5e+08	-0.06998433	-0.06175077	3.643447e-06	-1.944272e-06	0.01095362	0.007434449	7.249963e-06	-1.51282e-06
	3.643447e-06	-1.944272e-06	-0.07056998	-0.06069288	8.757611e-05	-4.593225e-05	0.01062966	0.007905995
	0.01095362	0.007434449	8.757611e-05	-4.593225e-05	-0.0698291	-0.06174805	7.969366e-05	-3.799755e-05
	7.249963e-06	-1.51282e-06	0.01062966	0.007905995	7.969366e-05	-3.799755e-05	-0.07064644	-0.06053519
2.6e+08	-0.08762976	-0.05718646	3.22788e-06	-2.525804e-06	0.01277561	0.006251392	6.99389e-06	-2.380559e-06
	3.22788e-06	-2.525804e-06	-0.08812945	-0.05589036	7.929495e-05	-5.685804e-05	0.01248343	0.006846654
	0.01277561	0.006251392	7.929495e-05	-5.685804e-05	-0.08746376	-0.05723632	7.266146e-05	-4.808267e-05
	6.99389e-06	-2.380559e-06	0.01248343	0.006846654	7.266146e-05	-4.808267e-05	-0.08820065	-0.05568993
2.7e+08	-0.1029594	-0.04737097	2.718621e-06	-3.021009e-06	0.01409638	0.004569851	6.631879e-06	-3.217678e-06
	2.718621e-06	-3.021009e-06	-0.1033098	-0.04586544	6.978974e-05	-6.650828e-05	0.01387124	0.005276624
	0.01409638	0.004569851	6.978974e-05	-6.650828e-05	-0.1028032	-0.04746926	6.448694e-05	-5.705702e-05
	6.631879e-06	-3.217678e-06	0.01387124	0.005276624	6.448694e-05	-5.705702e-05	-0.1033635	-0.0456244
2.8e+08	-0.1144658	-0.03332873	2.133845e-06	-3.413607e-06	0.01479487	0.00257889	6.168076e-06	-4.009009e-06
	2.133845e-06	-3.413607e-06	-0.1146136	-0.03166323	5.920571e-05	-7.477875e-05	0.01466702	0.003373554
	0.01479487	0.00257889	5.920571e-05	-7.477875e-05	-0.1143363	-0.03346644	5.530036e-05	-6.482605e-05
	6.168076e-06	-4.009009e-06	0.01466702	0.003373554	5.530036e-05	-6.482605e-05	-0.1146387	-0.03138769
2.9e+08	-0.1210488	-0.01648504	1.495126e-06	-3.691553e-06	0.01481566	0.0004893712	5.609187e-06	-4.741009e-06
	1.495126e-06	-3.691553e-06	-0.1209577	-0.01472591	4.768832e-05	-8.156063e-05	0.0148067	0.001338931
	0.01481566	0.0004893712	4.768832e-05	-8.156063e-05	-0.1209587	-0.01664971	4.522948e-05	-7.129139e-05
	5.609187e-06	-4.741009e-06	0.0148067	0.001338931	4.522948e-05	-7.129139e-05	-0.1209452	-0.01442556
3e+08	-0.1221084	0.001481753	8.26256e-07	-3.847913e-06	0.0141689	-0.001486051	4.963632e-06	-5.402088e-06
	8.26256e-07	-3.847913e-06	-0.1217644	0.003257227	3.539572e-05	-8.673883e-05	0.01428898	-0.000620808
	0.0141689	-0.001486051	3.539572e-05	-8.673883e-05	-0.1220659	0.001304627	3.441111e-05	-7.634784e-05
	4.963632e-06	-5.402088e-06	0.01428898	-0.000620808	3.441111e-05	-7.634784e-05	-0.1217086	0.003569968
3.1e+08	-0.1175894	0.01880292	1.517875e-07	-3.881351e-06	0.01292575	-0.003150256	4.24078e-06	-5.982648e-06
	1.517875e-07	-3.881351e-06	-0.1170037	0.02051408	2.251046e-05	-9.019588e-05	0.01317189	-0.002310809
	0.01292575	-0.003150256	2.251046e-05	-9.019588e-05	-0.1175979	0.01862863	2.300286e-05	-7.988669e-05
	4.24078e-06	-5.982648e-06	0.01317189	-0.002310809	2.300286e-05	-7.988669e-05	-0.1169033	0.02082523
3.2e+08	-0.1079785	0.03378453	-5.045423e-07	-3.796183e-06	0.01121103	-0.004336493	3.450256e-06	-6.474746e-06
	-5.045423e-07	-3.796183e-06	-0.1071887	0.03535576	9.248981e-06	-9.182282e-05	0.01156674	-0.003562225
	0.01121103	-0.004336493	9.248981e-06	-9.182282e-05	-0.108037	0.03362796	1.119203e-05	-8.180406e-05
	3.450256e-06	-6.474746e-06	0.01156674	-0.003562225	1.119203e-05	-8.180406e-05	-0.1070469	0.03565113
3.3e+08	-0.09425729	0.04496425	-1.121386e-06	-3.601938e-06	0.009193511	-0.00492133	2.601541e-06	-6.871556e-06
	-1.121386e-06	-3.601938e-06	-0.09332481	0.04633343	-4.134724e-06	-9.153701e-05	0.00962991	-0.004245196
	0.009193511	-0.00492133	-4.134724e-06	-9.153701e-05	-0.0943609	0.04483882	-7.994434e-07	-8.201356e-05
	2.601541e-06	-6.871556e-06	0.00962991	-0.004245196	-7.994434e-07	-8.201356e-05	-0.09314933	0.04660021
3.4e+08	-0.07781198	0.05124975	-1.681197e-06	-3.312211e-06	0.007073534	-0.004836025	1.703972e-06	-7.166501e-06
	-1.681197e-06	-3.312211e-06	-0.07681746	0.05237592	-1.735218e-05	-8.929111e-05	0.007551726	-0.004280674
	0.007073534	-0.004836025	-1.735218e-05	-8.929111e-05	-0.07795243	0.05116656	-1.271506e-05	-8.045989e-05
	1.703972e-06	-7.166501e-06	0.007551727	-0.004280674	-1.271506e-05	-8.045989e-05	-0.07662016	0.05260419
3.5e+08	-0.06030615	0.05202805	-2.171118e-06	-2.94313e-06	0.00506706	-0.004075602	7.668935e-07	-7.353369e-06
	-2.171118e-06	-2.94313e-06	-0.0593421	0.05289739	-3.008857e-05	-8.509278e-05	0.005541788	-0.003650394
	0.00506706	-0.004075602	-3.008857e-05	-8.509278e-05	-0.06047262	0.05199504	-2.427207e-05	-7.713758e-05
	7.668935e-07	-7.353369e-06	0.005541788	-0.003650394	-2.427207e-05	-7.713758e-05	-0.05913782	0.05308125
3.6e+08	-0.04352218	0.04723464	-2.583175e-06	-2.511594e-06	0.003385918	-0.002703934	-1.995995e-07	-7.425195e-06
	-2.583175e-06	-2.511594e-06	-0.04268387	0.04786393	-4.201798e-05	-7.901572e-05	0.00381006	-0.002403198
	0.003385918	-0.002703934	-4.201798e-05	-7.901572e-05	-0.04370245	0.0472561	-3.517452e-05	-7.20996e-05
	-1.995995e-07	-7.425195e-06	0.00381006	-0.002403198	-3.517452e-05	-7.20996e-05	-0.04248903	0.04800249
3.7e+08	-0.02918365	0.03737193	-2.913731e-06	-2.033596e-06	0.002215064	-0.0008524087	-1.183653e-06	-7.374455e-06
	-2.913731e-06	-2.033596e-06	-0.02855886	0.03780884	-5.282248e-05	-7.120489e-05	0.002544609	-0.0006552175
	0.002215064	-0.0008524087	-5.282248e-05	-7.120489e-05	-0.02936523	0.03744831	-4.513077e-05	-6.5464e-05
	-1.183653e-06	-7.374455e-06	0.002544609	-0.0006552175	-4.513077e-05	-6.5464e-05	-0.02838984	0.03790666
3.8e+08	-0.01877493	0.02346924	-3.162253e-06	-1.522998e-06	0.001689406	0.001289915	-2.17068e-06	-7.193775e-06
	-3.162253e-06	-1.522998e-06	-0.01843383	0.02378925	-6.221466e-05	-6.18761e-05	0.001888393	0.001418326
	0.001689406	0.001289915	-6.221466e-05	-6.18761e-05	-0.01894627	0.02359745	-5.387408e-05	-5.741401e-05
	-2.17068e-06	-7.193775e-06	0.001888393	0.001418326	-5.387408e-05	-5.741401e-05	-0.01830512	0.02385618
3.9e+08	-0.0133787	0.006983269	-3.329721e-06	-9.910796e-07	0.001874176	0.003495391	-3.142731e-06	-6.877195e-06
	-3.329721e-06	-9.910796e-07	-0.01336502	0.007283143	-6.995894e-05	-5.130606e-05	0.001919039	0.003600594
	0.001874176	0.003495391	-6.995894e-05	-5.130606e-05	-0.01353019	0.007157265	-6.118225e-05	-4.818963e-05
	-3.142731e-06	-6.877195e-06	0.001919039	0.003600594	-6.118225e-05	-4.818963e-05	-0.01328745	0.007333578
4e+08	-0.01355319	-0.01035395	-3.417119e-06	-4.469756e-07	0.002753227	0.005524553	-4.078545e-06	-6.42181e-06
	-3.417119e-06	-4.469756e-07	-0.01387779	-0.009965551	-7.588818e-05	-3.981449e-05	0.002636019	0.005658521
	0.002753227	0.005524553	-7.588818e-05	-3.981449e-05	-0.01367789	-0.01014222	-6.689304e-05	-3.807211e-05
	-4.078545e-06	-6.42181e-06	0.002636019	0.005658521	-6.689304e-05	-3.807211e-05	-0.01385716	-0.009914023
4.1e+08	-0.01926782	-0.02672299	-3.424477e-06	1.012076e-07	0.004228682	0.007156614	-4.954481e-06	-5.829387e-06
	-3.424477e-06	1.012076e-07	-0.01990565	-0.0261368	-7.991228e-05	-2.774118e-05	0.003958724	0.007372354
	0.004228682	0.007156614	-7.991228e-05	-2.774118e-05	-0.0193617	-0.02648251	-7.091272e-05	-2.736367e-05
	-4.954481e-06	-5.829387e-06	0.003958724	0.007372354	-7.091272e-05	-2.736367e-05	-0.01994178	-0.02606518
4.2e+08	-0.02990767	-0.04041704	-3.350733e-06	6.449868e-07	0.006132956	0.008218233	-5.746211e-06	-5.107464e-06
	-3.350733e-06	6.449868e-07	-0.03079875	-0.03953508	-8.20171e-05	-1.542196e-05	0.005736622	0.008564027
	0.006132956	0.008218233	-8.20171e-05	-1.542196e-05	-0.02996953	-0.04015669	-7.321609e-05	-1.636598e-05
	-5.746211e-06	-5.107464e-06	0.005736622	0.008564027	-7.321609e-05	-1.636598e-05	-0.03088522	-0.03942503
4.3e+08	-0.04434697	-0.05002711	-3.194422e-06	1.174296e-06	0.008251233	0.008605077	-6.43082e-06	-4.269584e-06
	-3.194422e-06	1.174296e-06	-0.04540127	-0.0487739	-8.225462e-05	-3.168016e-06	0.0077698	0.009119009
	0.008251233	0.008605077	-8.225462e-05	-3.168016e-06	-0.04437789	-0.04975488	-7.383858e-05	-5.36113e-06
	-6.43082e-06	-4.269584e-06	0.0077698	0.009119009	-7.383858e-05	-5.36113e-06	-0.04552583	-0.04860979
4.4e+08	-0.06108007	-0.05458858	-2.954926e-06	1.67688e-06	0.01034999	0.008292461	-6.988842e-06	-3.334568e-06
	-2.954926e-06	1.67688e-06	-0.06218596	-0.05292016	-8.072689e-05	8.748075e-06	0.009835731	0.008997864
	0.01034999	0.008292461	-8.072689e-05	8.748075e-06	-0.06108277	-0.05431109	-7.286249e-05	5.401715e-06
	-6.988842e-06	-3.334568e-06	0.009835731	0.008997864	-7.286249e-05	5.401715e-06	-0.06233172	-0.05269087
4.5e+08	-0.07839052	-0.05367197	-2.633895e-06	2.138442e-06	0.01220608	0.007334063	-7.405755e-06	-2.324994e-06
	-2.633895e-06	2.138442e-06	-0.07942587	-0.05158173	-7.756793e-05	2.009803e-05	0.01171701	0.008236476
	0.01220608	0.007334063	-7.756793e-05	2.009803e-05	-0.07836869	-0.05339432	-7.040081e-05	1.571251e-05
	-7.405755e-06	-2.324994e-06	0.01171701	0.008236476	-7.040081e-05	1.571251e-05	-0.0795729	-0.05128203
4.6e+08	-0.09453491	-0.04741115	-2.236428e-06	2.5435e-06	0.0136315	0.005850474	-7.672648e-06	-1.265254e-06
	-2.236428e-06	2.5435e-06	-0.09537949	-0.04493185	-7.292715e-05	3.069602e-05	0.01322532	0.006936468
	0.0136315	0.005850474	-7.292715e-05	3.069602e-05	-0.09449261	-0.04713706	-6.65819e-05	2.53995e-05
	-7.672648e-06	-1.265254e-06	0.01322532	0.006936468	-6.65819e-05	2.53995e-05	-0.0955069	-0.04456312
4.7e+08	-0.107919	-0.03647154	-1.771761e-06	2.876704e-06	0.01449078	0.004011129	-7.785986e-06	-1.79704e-07
	-1.771761e-06	2.876704e-06	-0.1084671	-0.03367317	-6.6957e-05	4.039115e-05	0.01421875	0.005249172
	0.01449078	0.004011129	-6.6957e-05	4.039115e-05	-0.1078604	-0.0362036	-6.15376e-05	3.432282e-05
	-7.785986e-06	-1.79704e-07	0.01421875	0.005249172	-6.15376e-05	3.432282e-05	-0.1085552	-0.03324342
