!$
! Info: Touchstone file created by Circ.  Input file=Tx_12in_Rx_100ohms_TxVia_10mils_RxVia_20mils.circ
!$
# Hz S RI R 50
0	0.01244186	7.445063e-26	-6.435039e-05	1.495799e-25	7.548435e-05	1.292401e-23	-6.435578e-05	4.696881e-25
	-6.43504e-05	1.500341e-25	0.01244114	1.071035e-25	-6.434993e-05	5.157124e-27	7.508376e-05	1.770435e-23
	7.359536e-05	1.27418e-23	-6.434993e-05	5.649864e-27	0.0124556	7.74691e-26	-6.434871e-05	3.459575e-25
	-6.435576e-05	4.672334e-25	7.653853e-05	1.822202e-23	-6.434868e-05	3.427744e-25	0.01244669	1.021282e-25
1e+07	0.01723057	0.007682285	-0.0001037897	-3.953874e-05	0.0003788676	0.002099004	-0.0002683341	0.0001702372
	-0.0001037897	-3.953875e-05	0.01843035	0.007351081	-3.760914e-05	-1.398625e-05	0.0007993785	0.002146742
	0.0003788284	0.002099029	-3.760914e-05	-1.398625e-05	0.01790012	0.007334582	-1.163348e-05	-1.512349e-05
	-0.0002683341	0.0001702372	0.0007994117	0.002146731	-1.163348e-05	-1.512349e-05	0.01826405	0.007375765
2e+07	0.02352469	0.01081561	-6.589238e-05	-8.68846e-05	0.001134013	0.004109361	-0.0003088131	0.0001774361
	-6.589238e-05	-8.688461e-05	0.02409607	0.009901324	-3.086701e-05	-1.441431e-05	0.001414397	0.004371369
	0.00113402	0.004109379	-3.0867e-05	-1.441431e-05	0.02366783	0.01006825	-1.086771e-05	3.308482e-06
	-0.0003088131	0.0001774361	0.001414395	0.004371348	-1.086771e-05	3.308487e-06	0.02398959	0.01000534
3e+07	0.02887638	0.01103685	-4.719117e-05	-0.0001023455	0.00232641	0.005829049	-0.0003331375	0.0002097237
	-4.719117e-05	-0.0001023455	0.02895314	0.0100376	-2.655282e-05	-1.467058e-05	0.002506626	0.006170858
	0.002326408	0.00582905	-2.655282e-05	-1.467058e-05	0.0286208	0.01026776	-1.323126e-05	3.315424e-06
	-0.0003331375	0.0002097237	0.002506621	0.006170856	-1.323126e-05	3.315424e-06	0.02890006	0.01016743
4e+07	0.03351865	0.009700874	-9.272968e-05	-7.818618e-05	0.003876822	0.007194305	-0.0003477219	0.000246963
	-9.272968e-05	-7.818618e-05	0.03319479	0.008788545	-2.316722e-05	-1.451055e-05	0.004008124	0.007578749
	0.003876816	0.007194308	-2.316722e-05	-1.451055e-05	0.03295705	0.009042198	-1.662691e-05	3.037294e-06
	-0.0003477219	0.000246963	0.004008123	0.007578751	-1.662691e-05	3.037295e-06	0.0331899	0.008922922
5e+07	0.03740751	0.00720894	-0.0001250119	-4.211459e-05	0.005688123	0.008138396	-0.0003543044	0.0002864893
	-0.0001250119	-4.211459e-05	0.0367727	0.006486411	-2.028407e-05	-1.432601e-05	0.005942051	0.00843853
	0.005688122	0.008138398	-2.028407e-05	-1.432601e-05	0.03662702	0.006736357	-1.984437e-05	4.637578e-06
	-0.0003543044	0.0002864893	0.00594205	0.008438531	-1.984437e-05	4.637578e-06	0.03680891	0.006612305
6e+07	0.04045282	0.003833868	-0.00014397	1.626998e-06	0.007651183	0.008616819	-0.0003539305	0.0003265984
	-0.00014397	1.626998e-06	0.03959949	0.00336794	-1.766574e-05	-1.42613e-05	0.007979782	0.008814151
	0.007651184	0.008616816	-1.766574e-05	-1.42613e-05	0.0395383	0.003590148	-2.242132e-05	7.757343e-06
	-0.0003539305	0.0003265984	0.007979779	0.008814152	-2.242132e-05	7.757343e-06	0.03966961	0.003476041
7e+07	0.04256898	-0.0001839302	-0.0001492079	4.974552e-05	0.009661777	0.008598057	-0.0003478765	0.00036571
	-0.0001492079	4.974552e-05	0.04159117	-0.0003549036	-1.669034e-05	-1.267347e-05	0.01000979	0.008700549
	0.009661777	0.008598051	-1.669034e-05	-1.267347e-05	0.04160258	-0.0001805964	-2.390061e-05	1.202113e-05
	-0.0003478765	0.00036571	0.01000978	0.008700551	-2.390061e-05	1.202113e-05	0.041687	-0.0002717935
8e+07	0.04369519	-0.004611879	-0.0001402461	9.935722e-05	0.01159056	0.008100444	-0.0003381537	0.0004023914
	-0.0001402461	9.935722e-05	0.04268667	-0.004473806	-1.839958e-05	-6.525189e-06	0.01192074	0.008116835
	0.01159056	0.008100438	-1.839958e-05	-6.525189e-06	0.04275525	-0.00436323	-2.397582e-05	1.695692e-05
	-0.0003381537	0.0004023914	0.01192074	0.008116839	-2.397582e-05	1.695692e-05	0.04279866	-0.004420318
9e+07	0.04380371	-0.009221086	-0.0001162477	0.0001479167	0.01332555	0.00716413	-0.0003283052	0.0004354017
	-0.0001162477	0.0001479167	0.04285822	-0.008780378	-1.818415e-05	-2.43347e-07	0.01360723	0.007106237
	0.01332555	0.007164126	-1.818415e-05	-2.433466e-07	0.04296561	-0.008744791	-2.259746e-05	2.203574e-05
	-0.0003283052	0.0004354017	0.01360723	0.007106241	-2.259746e-05	2.203574e-05	0.04297613	-0.008758159
1e+08	0.04289638	-0.01379111	-7.13844e-05	0.0001944028	0.01477532	0.005851698	-0.0003307596	0.0004614835
	-7.13844e-05	0.0001944028	0.04213156	-0.01306481	-1.523644e-05	6.047989e-06	0.0149688	0.005732149
	0.01477532	0.005851698	-1.523644e-05	6.047989e-06	0.04225549	-0.01311134	-2.002748e-05	2.674641e-05
	-0.0003307596	0.0004614835	0.0149688	0.005732149	-2.002748e-05	2.674641e-05	0.04224372	-0.01307319
1.1e+08	0.0410372	-0.01807022	-1.771113e-05	0.0002054841	0.01585368	0.004217773	-0.0003189695	0.0004514136
	-1.771113e-05	0.0002054841	0.04052572	-0.01724469	-1.054439e-05	8.081981e-06	0.01593987	0.004124358
	0.01585368	0.004217773	-1.054439e-05	8.081981e-06	0.04064475	-0.01736597	-1.608262e-05	2.982371e-05
	-0.0003189695	0.0004514136	0.01593987	0.004124358	-1.608262e-05	2.982371e-05	0.04062459	-0.0172721
1.2e+08	0.03835293	-0.02189499	-7.14791e-06	0.0002002417	0.01648229	0.002386342	-0.0002949642	0.0004471189
	-7.14791e-06	0.0002002417	0.03803713	-0.02103103	-6.98657e-06	9.248719e-06	0.01650467	0.002344148
	0.01648229	0.002386342	-6.98657e-06	9.248718e-06	0.03813855	-0.02122032	-1.094097e-05	3.17321e-05
	-0.0002949642	0.0004471189	0.01650467	0.002344148	-1.094097e-05	3.17321e-05	0.03812325	-0.02107263
1.3e+08	0.03495669	-0.02511009	6.185942e-06	0.0001951075	0.01663736	0.0004719735	-0.0002703842	0.0004432166
	6.185942e-06	0.0001951075	0.03481042	-0.02424446	-3.932072e-06	9.690753e-06	0.01662344	0.0004899965
	0.01663736	0.0004719737	-3.932072e-06	9.690753e-06	0.03488143	-0.02449273	-5.32466e-06	3.219684e-05
	-0.0002703842	0.0004432166	0.01662344	0.0004899965	-5.32466e-06	3.219684e-05	0.03488283	-0.02429627
1.4e+08	0.03099869	-0.02758582	2.060527e-05	0.000189024	0.01631708	-0.001409996	-0.0002479813	0.0004394277
	2.060527e-05	0.000189024	0.03099985	-0.02674693	-1.250985e-06	9.597407e-06	0.01628988	-0.001330912
	0.01631708	-0.001409996	-1.250985e-06	9.597407e-06	0.03103019	-0.0270424	1.968325e-07	3.115115e-05
	-0.0002479813	0.0004394277	0.01628988	-0.001330912	1.968325e-07	3.115115e-05	0.03105802	-0.02680508
1.5e+08	0.02665191	-0.02922725	3.50997e-05	0.0001816072	0.01554598	-0.003147677	-0.0002289248	0.0004365901
	3.50997e-05	0.0001816072	0.02677891	-0.02843782	1.096718e-06	9.082715e-06	0.01552466	-0.003012785
	0.01554598	-0.003147677	1.096718e-06	9.082715e-06	0.02676164	-0.02876655	5.100968e-06	2.872352e-05
	-0.0002289248	0.0004365901	0.01552466	-0.003012785	5.100968e-06	2.872352e-05	0.02682303	-0.02849855
1.6e+08	0.0221038	-0.02997825	4.894541e-05	0.0001728338	0.01437397	-0.004638637	-0.0002134225	0.0004359907
	4.894541e-05	0.0001728338	0.02233455	-0.02925624	3.123646e-06	8.23123e-06	0.01437343	-0.004457811
	0.01437397	-0.004638637	3.123646e-06	8.23123e-06	0.02226652	-0.02960302	8.95717e-06	2.521302e-05
	-0.0002134225	0.0004359907	0.01437343	-0.004457811	8.95717e-06	2.521302e-05	0.02236552	-0.02931605
1.7e+08	0.01754772	-0.02982366	6.163329e-05	0.0001629117	0.01287346	-0.005795588	-0.0002009076	0.0004389958
	6.163329e-05	0.0001629117	0.01785943	-0.02918266	4.833107e-06	7.113094e-06	0.01290386	-0.005581923
	0.01287346	-0.005795588	4.833107e-06	7.113094e-06	0.01774156	-0.02953184	1.147388e-05	2.104743e-05
	-0.0002009076	0.0004389958	0.01290386	-0.005581923	1.147388e-05	2.104743e-05	0.01787882	-0.02923842
1.8e+08	0.01317434	-0.02878956	7.285847e-05	0.0001521873	0.01113517	-0.00655126	-0.0001901688	0.0004467736
	7.285847e-05	0.0001521873	0.01354355	-0.02823883	6.226776e-06	5.790043e-06	0.01120167	-0.006319666
	0.01113517	-0.00655126	6.226776e-06	5.790043e-06	0.0133809	-0.0285754	1.253168e-05	1.672668e-05
	-0.0001901688	0.0004467736	0.01120167	-0.006319666	1.253168e-05	1.672668e-05	0.01355358	-0.02828794
1.9e+08	0.009162925	-0.02694166	8.252152e-05	0.0001410616	0.009262855	-0.006862145	-0.0001795047	0.0004600809
	8.252152e-05	0.0001410616	0.009565893	-0.02648617	6.65495e-06	4.839938e-06	0.009365539	-0.006627934
	0.009262855	-0.006862145	6.65495e-06	4.839938e-06	0.009367438	-0.02679674	1.22042e-05	1.275451e-05
	-0.0001795047	0.0004600809	0.009365539	-0.006627934	1.22042e-05	1.275451e-05	0.00956924	-0.02652663
2e+08	0.005673238	-0.0243819	9.068965e-05	0.0001299227	0.007367259	-0.006710855	-0.0001669113	0.0004791114
	9.068965e-05	0.0001299227	0.006086381	-0.02402224	6.53636e-06	4.312185e-06	0.00750138	-0.006488382
	0.007367259	-0.006710854	6.53636e-06	4.312185e-06	0.005864573	-0.02429603	1.072591e-05	9.579038e-06
	-0.0001669113	0.0004791114	0.00750138	-0.006488382	1.072591e-05	9.579038e-06	0.006086097	-0.0240528
2.1e+08	0.002838295	-0.02124323	9.757489e-05	0.0001190887	0.005559642	-0.006106964	-0.0001502964	0.0005034156
	9.757489e-05	0.0001190887	0.003238803	-0.02097569	6.438369e-06	3.847306e-06	0.005716185	-0.00590839
	0.005559642	-0.006106964	6.438369e-06	3.847306e-06	0.003008873	-0.02120538	8.471487e-06	7.538243e-06
	-0.0001502964	0.0005034156	0.005716185	-0.00590839	8.471487e-06	7.538243e-06	0.003238113	-0.02099588
2.2e+08	0.0007584285	-0.01768306	0.0001034965	0.0001087547	0.003945358	-0.00508627	-0.0001277012	0.0005318926
	0.0001034965	0.0001087547	0.001124937	-0.01749971	6.368177e-06	3.433606e-06	0.004111857	-0.004920504
	0.003945358	-0.00508627	6.368177e-06	3.433606e-06	0.0009039698	-0.01768215	5.915272e-06	6.810721e-06
	-0.0001277012	0.0005318926	0.004111857	-0.004920504	5.915272e-06	6.810721e-06	0.001127067	-0.01750985
2.3e+08	-0.0005030754	-0.01387547	0.0001088165	9.896934e-05	0.002617778	-0.003708533	-9.75105e-05	0.0005628542
	0.0001088165	9.896934e-05	-0.0001897523	-0.01376438	6.331782e-06	3.056706e-06	0.002779367	-0.003580432
	0.002617778	-0.003708533	6.331782e-06	3.056706e-06	-0.0003839193	-0.01390103	3.562588e-06	7.395535e-06
	-9.75105e-05	0.0005628542	0.002779367	-0.003580432	3.562588e-06	7.395535e-06	-0.0001817657	-0.01376559
2.4e+08	-0.0009225258	-0.01000263	0.0001138791	8.963281e-05	0.001652966	-0.002053829	-5.862482e-05	0.0005941571
	0.0001138791	8.963281e-05	-0.0006786626	-0.009948288	6.33208e-06	2.700386e-06	0.001793592	-0.001963688
	0.001652966	-0.002053829	6.33208e-06	2.700386e-06	-0.0008286429	-0.01004537	1.884741e-06	9.113329e-06
	-5.862482e-05	0.0005941571	0.001793592	-0.001963688	1.884741e-06	9.113329e-06	-0.0006621549	-0.009942412
2.5e+08	-0.0005163998	-0.006245982	0.0001189553	8.05139e-05	0.001105413	-0.0002177495	-1.058486e-05	0.0006233765
	0.0001189553	8.05139e-05	-0.000354659	-0.006229842	6.367809e-06	2.347298e-06	0.001209126	-0.0001611275
	0.001105413	-0.0002177495	6.367809e-06	2.347298e-06	-0.0004447568	-0.006298176	1.258609e-06	1.162999e-05
	-1.058486e-05	0.0006233765	0.001209126	-0.0001611275	1.258609e-06	1.162999e-05	-0.0003275058	-0.00621935
2.6e+08	0.0006600473	-0.002777427	0.0001241975	7.128781e-05	0.001005052	0.001694254	4.637171e-05	0.0006480144
	0.0001241975	7.128781e-05	0.0007312175	-0.002778658	6.432786e-06	1.980883e-06	0.001057305	0.001726368
	0.001005052	0.001694254	6.432786e-06	1.980883e-06	0.0007138237	-0.002833192	1.918829e-06	1.44999e-05
	4.637171e-05	0.0006480144	0.001057305	0.001726368	1.918829e-06	1.44999e-05	0.0007704613	-0.002766487
2.7e+08	0.002516081	0.0002488227	0.0001296117	6.158567e-05	0.001355739	0.00357304	0.0001113186	0.0006657111
	0.0001296117	6.158567e-05	0.002492912	0.0002524744	6.516081e-06	1.587008e-06	0.001344599	0.003593735
	0.001355739	0.00357304	6.516081e-06	1.587008e-06	0.002557127	0.0001934529	3.928104e-06	1.722289e-05
	0.0001113186	0.0006657111	0.001344599	0.003593735	3.928104e-06	1.722289e-05	0.002544913	0.0002630887
2.8e+08	0.004930494	0.00270348	0.0001350497	5.105223e-05	0.00213525	0.005312095	0.0001827224	0.0006744425
	0.0001350497	5.105223e-05	0.00481418	0.002734686	6.602949e-06	1.155802e-06	0.00205244	0.00533774
	0.00213525	0.005312095	6.602949e-06	1.155802e-06	0.004964162	0.002650591	7.16967e-06	1.930762e-05
	0.0001827224	0.0006744425	0.00205244	0.00533774	7.16967e-06	1.930762e-05	0.004878772	0.002740413
2.9e+08	0.007758054	0.004488054	0.0001402219	3.94011e-05	0.003296768	0.006813625	0.000258574	0.000672678
	0.0001402219	3.94011e-05	0.007554821	0.00456883	6.676373e-06	6.827243e-07	0.003138483	0.00686283
	0.003296768	0.006813625	6.676373e-06	6.827243e-07	0.007789432	0.004438016	1.136195e-05	2.033331e-05
	0.000258574	0.000672678	0.003138483	0.00686283	1.136195e-05	2.033331e-05	0.007631002	0.004566453
3e+08	0.01083705	0.005539113	0.0001447287	2.64625e-05	0.004771773	0.007994088	0.0003365614	0.0006594879
	0.0001447287	2.64625e-05	0.01055798	0.005689722	6.718951e-06	1.690481e-07	0.004539195	0.008086473
	0.004771773	0.007994088	6.718951e-06	1.690481e-07	0.01087056	0.005490851	1.609358e-05	2.000221e-05
	0.0003365614	0.0006594879	0.004539195	0.008086473	1.609358e-05	2.000221e-05	0.01064396	0.00567634
3.1e+08	0.01399752	0.005830755	0.0001481081	1.221719e-05	0.006474111	0.008788846	0.0004142711	0.0006345871
	0.0001481081	1.221719e-05	0.01365815	0.006068635	6.714933e-06	-3.782954e-07	0.006173606	0.008943716
	0.006474111	0.008788846	6.714933e-06	-3.782954e-07	0.01403663	0.005782077	2.087457e-05	1.817629e-05
	0.0004142711	0.0006345871	0.006173606	0.008943716	2.087457e-05	1.817629e-05	0.01375143	0.006041854
3.2e+08	0.01706977	0.005375161	0.0001498904	-3.188481e-06	0.008305035	0.009155712	0.0004893775	0.0005983151
	0.0001498904	-3.188481e-06	0.0166894	0.005713948	6.651887e-06	-9.477415e-07	0.007947995	0.0093907
	0.008305035	0.009155712	6.651887e-06	-9.477415e-07	0.01711681	0.005323139	2.519612e-05	1.489414e-05
	0.0004893775	0.0005983151	0.007947995	0.0093907	2.519612e-05	1.489414e-05	0.01678695	0.005672042
3.3e+08	0.01989273	0.004221279	0.0001496562	-1.944729e-05	0.01015889	0.009077193	0.0005598172	0.0005515588
	0.0001496562	-1.944729e-05	0.01949355	0.004669982	6.521931e-06	-1.524551e-06	0.009761238	0.009406979
	0.01015889	0.009077193	6.521931e-06	-1.524551e-06	0.01994882	0.004162637	2.859235e-05	1.036613e-05
	0.0005598172	0.0005515588	0.009761238	0.009406979	2.859235e-05	1.036613e-05	0.01959196	0.004612009
3.4e+08	0.02232172	0.002451701	0.0001470896	-3.611546e-05	0.01192913	0.008561334	0.0006239279	0.0004956212
	0.0001470896	-3.611546e-05	0.02192774	0.00301408	6.322436e-06	-2.092539e-06	0.01151052	0.008996515
	0.01192913	0.008561334	6.322436e-06	-2.092539e-06	0.02238677	0.002383182	3.069681e-05	4.948334e-06
	0.0006239279	0.0004956212	0.01151052	0.008996515	3.069681e-05	4.948334e-06	0.02202343	0.002939964
3.5e+08	0.02423532	0.0001779474	0.0001420189	-5.265351e-05	0.01351439	0.007641132	0.0006805263	0.000432065
	0.0001420189	-5.265351e-05	0.02387114	0.0008521358	6.05594e-06	-2.635901e-06	0.01309708	0.008187313
	0.01351439	0.007641132	6.05594e-06	-2.635901e-06	0.02430821	9.664967e-05	3.128445e-05	-8.986287e-07
	0.0006805263	0.000432065	0.01309708	0.008187313	3.128445e-05	-8.986287e-07	0.02396056	0.0007626855
3.6e+08	0.02554093	-0.002465602	0.0001344424	-6.847905e-05	0.01482411	0.006372568	0.0007289312	0.0003625414
	0.0001344424	-6.847905e-05	0.02523045	-0.001687189	5.724565e-06	-3.136467e-06	0.01443172	0.007029746
	0.01482411	0.006372568	5.724565e-06	-3.136467e-06	0.02561966	-0.002561964	3.061255e-05	-7.297375e-06
	0.0007289312	0.0003625414	0.01443172	0.007029746	3.061255e-05	-7.297375e-06	0.02531033	-0.001790307
3.7e+08	0.02617887	-0.005328804	0.0001245335	-8.30248e-05	0.01578371	0.004831371	0.0007689423	0.0002886167
	0.0001245335	-8.30248e-05	0.02594397	-0.004459261	5.344059e-06	-3.585723e-06	0.01543976	0.005593654
	0.01578371	0.004831371	5.344059e-06	-3.585723e-06	0.02626086	-0.005441695	2.838051e-05	-1.331211e-05
	0.0007689423	0.0002886167	0.01543976	0.005593654	2.838051e-05	-1.331211e-05	0.0260115	-0.004573605
3.8e+08	0.02612478	-0.008253513	0.0001126276	-9.579539e-05	0.01633869	0.003108689	0.0008007426	0.0002116401
	0.0001126276	-9.579539e-05	0.02598405	-0.007310929	4.928751e-06	-3.978014e-06	0.01606512	0.003964377
	0.01633869	0.003108689	4.928751e-06	-3.978014e-06	0.02620713	-0.008383475	2.478213e-05	-1.837245e-05
	0.0008007426	0.0002116401	0.01606512	0.003964377	2.478213e-05	-1.837245e-05	0.02603708	-0.007433413
3.9e+08	0.02539022	-0.01108163	9.91893e-05	-0.0001064161	0.01645771	0.001305917	0.0008247761	0.0001326433
	9.91893e-05	-0.0001064161	0.02535786	-0.01008829	4.492646e-06	-4.311492e-06	0.01627346	0.002237954
	0.01645771	0.001305917	4.492646e-06	-4.311492e-06	0.02547002	-0.01122826	2.021581e-05	-2.214691e-05
	0.0008247761	0.0001326433	0.01627346	0.002237954	2.021581e-05	-2.214691e-05	0.025395	-0.01021536
4e+08	0.02402156	-0.01366306	8.47655e-05	-0.000114668	0.01613435	-0.0004710497	0.0008416024	5.229552e-05
	8.47655e-05	-0.000114668	0.02410636	-0.01264437	4.048977e-06	-4.588725e-06	0.01605402	0.0005157225
	0.01613435	-0.0004710497	4.048977e-06	-4.588725e-06	0.02409614	-0.01382506	1.515819e-05	-2.446042e-05
	0.0008416024	5.229552e-05	0.01605402	0.0005157225	1.515819e-05	-2.446042e-05	0.02412714	-0.01277218
4.1e+08	0.02209701	-0.01586312	6.993e-05	-0.0001205047	0.01538745	-0.002117822	0.0008517462	-2.909192e-05
	6.993e-05	-0.0001205047	0.02230176	-0.01484634	3.608855e-06	-4.816158e-06	0.01542026	-0.001101364
	0.01538745	-0.002117822	3.608855e-06	-4.816158e-06	0.02216425	-0.01603845	1.010551e-05	-2.531037e-05
	0.0008517462	-2.909192e-05	0.01542026	-0.001101364	1.010551e-05	-2.531037e-05	0.02230664	-0.01497102
4.2e+08	0.01972227	-0.01756921	5.522511e-05	-0.0001240502	0.01426011	-0.003537449	0.0008555601	-0.0001115056
	5.522511e-05	-0.0001240502	0.02004331	-0.01658199	3.180123e-06	-5.003169e-06	0.01440905	-0.002518419
	0.01426011	-0.003537449	3.180123e-06	-5.003169e-06	0.01978074	-0.01775525	5.513188e-06	-2.486116e-05
	0.0008555601	-0.0001115056	0.01440905	-0.002518419	5.513188e-06	-2.486116e-05	0.02003368	-0.01669985
4.3e+08	0.01702474	-0.01869613	4.110802e-05	-0.0001255762	0.01281717	-0.004645945	0.0008531211	-0.0001951231
	4.110802e-05	-0.0001255762	0.01745192	-0.01776504	2.766528e-06	-5.160813e-06	0.01307859	-0.003651967
	0.01281717	-0.004645945	2.766528e-06	-5.160813e-06	0.01707385	-0.01888996	1.741297e-06	-2.341815e-05
	0.0008531211	-0.0001951231	0.01307859	-0.003651967	1.741297e-06	-2.341815e-05	0.01743006	-0.01787278
4.4e+08	0.01414667	-0.01919017	2.790825e-05	-0.0001254629	0.01114164	-0.005377106	0.0008441711	-0.0002801785
	2.790825e-05	-0.0001254629	0.01466371	-0.01833914	2.36735e-06	-5.300315e-06	0.01150517	-0.00443467
	0.01114164	-0.005377106	2.36735e-06	-5.300315e-06	0.01418672	-0.01938879	-9.876098e-07	-2.138464e-05
	0.0008441711	-0.0002801785	0.01150517	-0.00443467	-9.876098e-07	-2.138464e-05	0.01463264	-0.01843409
4.5e+08	0.01123771	-0.01903139	1.580114e-05	-0.0001241482	0.009329895	-0.005686327	0.0008281137	-0.0003668099
	1.580114e-05	-0.0001241482	0.01182283	-0.01828032	1.977508e-06	-5.431484e-06	0.009778796	-0.004819149
	0.009329895	-0.005686327	1.977508e-06	-5.431484e-06	0.01126989	-0.01923201	-2.612873e-06	-1.920681e-05
	0.0008281137	-0.0003668099	0.009778796	-0.004819149	-2.612873e-06	-1.920681e-05	0.01178618	-0.01836057
4.6e+08	0.00844704	-0.01823427	4.800165e-06	-0.0001220716	0.007486205	-0.005553186	0.0008041509	-0.0004548173
	4.800165e-06	-0.0001220716	0.009074	-0.01759775	1.588243e-06	-5.561162e-06	0.007998137	-0.00478068
	0.007486205	-0.005553186	1.588243e-06	-5.561162e-06	0.008473318	-0.01843454	-3.239994e-06	-1.7315e-05
	0.0008041509	-0.0004548173	0.007998137	-0.00478068	-3.239994e-06	-1.7315e-05	0.009035776	-0.01766231
4.7e+08	0.005915698	-0.01684643	-5.133596e-06	-0.0001194504	0.005716749	-0.004982661	0.0007570498	-0.0005569195
	-5.133596e-06	-0.0001194504	0.006555061	-0.0163328	1.187968e-06	-5.695157e-06	0.006264872	-0.00431861
	0.005716749	-0.004982661	1.187968e-06	-5.695157e-06	0.005938664	-0.01704472	-3.021138e-06	-1.590373e-05
	0.0007570498	-0.0005569195	0.006264872	-0.00431861	-3.021138e-06	-1.590373e-05	0.006519449	-0.01638161
4.8e+08	0.003769309	-0.01494597	-1.429737e-05	-0.0001167398	0.0041235	-0.004004866	0.0006949617	-0.000657155
