!$
! Info: Touchstone file created by Circ.  Input file=Tx_10in_Rx_100ohms_TxVia_10mils_RxVia_20mils.circ
!$
# Hz S RI R 50
0	0.01040821	7.929382e-26	1.222594e-12	1.74709e-28	6.72081e-05	1.306221e-23	-4.691602e-09	5.744088e-25
	1.224203e-12	1.748952e-28	0.01041105	9.165124e-26	-3.048621e-12	3.41916e-28	6.463934e-05	1.480141e-23
	6.72557e-05	1.306985e-23	-3.097306e-12	3.478543e-28	0.01042298	7.950713e-26	-1.285802e-09	1.57374e-25
	-4.689474e-09	5.741482e-25	6.609488e-05	1.52342e-23	-1.285847e-09	1.573795e-25	0.01041662	8.740552e-26
1e+07	0.01485764	0.006443605	5.940922e-12	-8.248059e-12	0.0002864632	0.001793336	-7.601912e-09	1.684692e-08
	5.940962e-12	-8.24833e-12	0.0153167	0.006476302	3.997972e-12	-9.321302e-12	0.0006374744	0.001832898
	0.0002864674	0.001793333	3.997964e-12	-9.32105e-12	0.01432202	0.006742545	-5.20591e-09	1.616675e-08
	-7.601912e-09	1.684692e-08	0.0006375073	0.001832887	-5.20591e-09	1.616675e-08	0.0151794	0.006494112
2e+07	0.01951732	0.009239659	8.979846e-12	-6.836525e-12	0.0008275562	0.003544571	-4.415579e-09	1.437324e-08
	8.979668e-12	-6.836655e-12	0.01990336	0.009130535	9.564907e-12	-8.611683e-12	0.001051451	0.003759034
	0.000827555	0.003544568	9.565057e-12	-8.611527e-12	0.0194217	0.009893218	-5.865154e-09	1.326144e-08
	-4.415579e-09	1.437324e-08	0.001051449	0.003759012	-5.865154e-09	1.326144e-08	0.01981275	0.00921445
3e+07	0.02357433	0.01007081	7.300296e-12	-9.006269e-12	0.001696053	0.005108615	-1.409172e-09	1.27336e-08
	7.300261e-12	-9.006246e-12	0.02389417	0.009914828	6.935077e-12	-1.388998e-11	0.001824273	0.005383779
	0.001696053	0.005108615	6.935113e-12	-1.389e-11	0.02382068	0.01076458	-1.45703e-09	1.328929e-08
	-1.409172e-09	1.27336e-08	0.001824268	0.005383776	-1.45703e-09	1.328929e-08	0.02384551	0.01002216
4e+07	0.02725399	0.009832582	4.616494e-12	-1.145707e-11	0.002849362	0.006449794	9.181311e-10	1.137992e-08
	4.616527e-12	-1.145708e-11	0.02750927	0.009657327	4.287121e-12	-1.881812e-11	0.002923345	0.006756075
	0.002849363	0.006449793	4.287085e-12	-1.881812e-11	0.02777523	0.01045583	1.780499e-09	1.219461e-08
	9.181311e-10	1.137992e-08	0.002923345	0.006756076	1.780499e-09	1.219461e-08	0.02749928	0.009771434
5e+07	0.03056355	0.008769778	7.53774e-13	-1.623233e-11	0.004234924	0.007521567	2.872592e-09	1.044952e-08
	7.537886e-13	-1.623234e-11	0.03075538	0.008592666	3.277664e-13	-2.632394e-11	0.004409231	0.007765511
	0.004234925	0.007521566	3.277499e-13	-2.632392e-11	0.03129766	0.009254655	3.865423e-09	1.156767e-08
	2.872592e-09	1.044952e-08	0.004409231	0.007765512	3.865423e-09	1.156767e-08	0.03077929	0.008703458
6e+07	0.03345991	0.007029227	-6.713658e-12	-2.285947e-11	0.005792704	0.008286643	5.204416e-09	1.019884e-08
	-6.713654e-12	-2.285944e-11	0.03359159	0.00686573	-3.103781e-12	-3.713282e-11	0.006031648	0.008452229
	0.005792705	0.008286643	-3.103781e-12	-3.713286e-11	0.03434547	0.007331213	4.641716e-09	1.299867e-08
	5.204416e-09	1.019884e-08	0.006031645	0.00845223	4.641716e-09	1.299867e-08	0.03364498	0.006965862
7e+07	0.03588766	0.004729918	-3.48096e-11	-3.451146e-11	0.007470716	0.008707732	1.12822e-08	1.138603e-08
	-3.480955e-11	-3.451135e-11	0.03596476	0.004593636	3.304698e-11	-3.649897e-11	0.007727553	0.008799992
	0.007470718	0.008707732	3.304704e-11	-3.649907e-11	0.03686298	0.00482134	-3.655151e-09	1.623824e-08
	1.128221e-08	1.138603e-08	0.007727548	0.008799994	-3.65515e-09	1.623824e-08	0.03604256	0.004676836
8e+07	0.03779439	0.001984118	-1.541448e-10	5.940875e-10	0.009183622	0.008782755	1.1171e-08	-3.259772e-08
	-1.541446e-10	5.940873e-10	0.03782445	0.001886681	-2.556092e-11	5.409012e-12	0.009430486	0.00880355
	0.009183624	0.008782755	-2.556087e-11	5.408986e-12	0.03879723	0.001850809	-5.714551e-09	3.379185e-09
	1.1171e-08	-3.259772e-08	0.009430481	0.008803553	-5.714551e-09	3.379184e-09	0.03792032	0.001948025
9e+07	0.03913854	-0.001095583	-7.502087e-11	-3.844462e-11	0.01086165	0.008515142	-1.887539e-09	-2.838335e-09
	-7.502086e-11	-3.84447e-11	0.03913116	-0.0011444	-3.522141e-11	-1.679083e-11	0.01107282	0.008469547
	0.01086165	0.008515142	-3.522142e-11	-1.679082e-11	0.04010438	-0.001457328	-1.544054e-09	6.45064e-10
	-1.887539e-09	-2.838335e-09	0.01107281	0.00846955	-1.544054e-09	6.450639e-10	0.03923771	-0.001108023
1e+08	0.03990571	-0.004388533	-2.688321e-11	5.588684e-12	0.0124425	0.007923042	-2.816179e-11	1.772063e-11
	-2.688321e-11	5.588684e-12	0.03987395	-0.004380005	-3.990286e-11	-1.807273e-11	0.01258269	0.007813586
	0.0124425	0.007923042	-3.990286e-11	-1.807273e-11	0.04074664	-0.004984194	-3.836307e-11	1.22737e-11
	-2.816179e-11	1.772063e-11	0.01258269	0.007813586	-3.836307e-11	1.22737e-11	0.03998187	-0.004370567
1.1e+08	0.04008083	-0.007878496	-2.395238e-11	1.251954e-11	0.0138634	0.007009552	-2.44224e-11	2.656138e-11
	-2.395238e-11	1.251954e-11	0.0400398	-0.007815213	-4.149983e-11	-1.056806e-11	0.01389936	0.006908565
	0.0138634	0.007009552	-4.149983e-11	-1.056806e-11	0.04071488	-0.008566147	-3.479393e-11	2.292176e-11
	-2.44224e-11	2.656138e-11	0.01389936	0.006908565	-3.479393e-11	2.292176e-11	0.04014136	-0.007824557
1.2e+08	0.03958494	-0.01137696	-1.992197e-11	1.777603e-11	0.01504592	0.005833131	-2.069103e-11	3.268654e-11
	-1.992197e-11	1.777603e-11	0.03954165	-0.01125996	-4.084866e-11	-5.843335e-12	0.01500941	0.005770533
	0.01504592	0.005833131	-4.084866e-11	-5.843335e-12	0.04005724	-0.01210051	-2.960149e-11	3.103111e-11
	-2.069103e-11	3.268654e-11	0.01500941	0.005770533	-2.960149e-11	3.103111e-11	0.03963682	-0.01128474
1.3e+08	0.03845979	-0.01475518	-1.693254e-11	2.088537e-11	0.01595004	0.004450373	-1.723527e-11	3.736562e-11
	-1.693254e-11	2.088537e-11	0.03842313	-0.01458581	-3.944234e-11	-3.580345e-12	0.01586159	0.004440998
	0.01595004	0.004450373	-3.944234e-11	-3.580345e-12	0.03879125	-0.01548388	-2.541307e-11	3.606349e-11
	-1.723527e-11	3.736562e-11	0.01586159	0.004440998	-2.541307e-11	3.606349e-11	0.03851038	-0.01462373
1.4e+08	0.03675078	-0.01790269	-1.300597e-11	2.366068e-11	0.01654297	0.002922307	-1.267664e-11	4.168646e-11
	-1.300597e-11	2.366068e-11	0.03672963	-0.01768395	-3.727575e-11	-1.347681e-12	0.01642142	0.002974471
	0.01654297	0.002922307	-3.727575e-11	-1.347681e-12	0.03695907	-0.01861396	-1.990261e-11	4.063422e-11
	-1.267664e-11	4.168646e-11	0.01642142	0.002974471	-1.990261e-11	4.063422e-11	0.03680753	-0.01773271
1.5e+08	0.03451759	-0.02072071	-8.221226e-12	2.58522e-11	0.016804	0.001314725	-7.095297e-12	4.536096e-11
	-8.221226e-12	2.58522e-11	0.03452026	-0.02045744	-3.436615e-11	6.164818e-13	0.01666712	0.001431709
	0.016804	0.001314725	-3.436615e-11	6.164818e-13	0.0346196	-0.02139735	-1.317908e-11	4.438661e-11
	-7.095297e-12	4.536096e-11	0.01666712	0.001431709	-1.317908e-11	4.438661e-11	0.03458767	-0.02051461
1.6e+08	0.03183389	-0.02312352	-2.69625e-12	2.724409e-11	0.0167256	-0.0003040735	-6.176581e-13	4.813616e-11
	-2.69625e-12	2.724409e-11	0.03186763	-0.02282229	-3.078023e-11	2.111152e-12	0.01658988	-0.0001233001
	0.0167256	-0.0003040735	-3.078023e-11	2.111152e-12	0.03184623	-0.02375266	-5.409437e-12	4.701323e-11
	-6.176581e-13	4.813616e-11	0.01658988	-0.0001233001	-5.409437e-12	4.701323e-11	0.03192385	-0.02288538
1.7e+08	0.02878564	-0.02504036	3.410422e-12	2.765126e-11	0.01631386	-0.001865893	6.582968e-12	4.979179e-11
	3.410422e-12	2.765126e-11	0.02885625	-0.02470932	-2.66261e-11	2.964382e-12	0.01619404	-0.001626098
	0.01631386	-0.001865893	-2.66261e-11	2.964382e-12	0.02872461	-0.0256128	3.18103e-12	4.825113e-11
	6.582968e-12	4.979179e-11	0.01619404	-0.001626098	3.18103e-12	4.825113e-11	0.02890099	-0.02477579
1.8e+08	0.02546869	-0.02641719	9.903315e-12	2.692359e-11	0.01558822	-0.003305305	1.428969e-11	5.014502e-11
	9.903315e-12	2.692359e-11	0.02558012	-0.02606573	-2.204716e-11	3.035026e-12	0.01549675	-0.003014421
	0.01558822	-0.003305305	-2.204716e-11	3.035026e-12	0.02535013	-0.02692697	1.231419e-11	4.788745e-11
	1.428969e-11	5.014502e-11	0.01549675	-0.003014421	1.231419e-11	4.788745e-11	0.02561356	-0.0261331
1.9e+08	0.02198592	-0.02721813	1.655393e-11	2.494676e-11	0.01458068	-0.00456224	2.224872e-11	4.905617e-11
	1.655393e-11	2.494676e-11	0.02214004	-0.02685653	-1.72163e-11	2.21735e-12	0.01452731	-0.004230735
	0.01458068	-0.00456224	-1.72163e-11	2.21735e-12	0.02182495	-0.02766215	2.166665e-11	4.57675e-11
	2.224872e-11	4.905617e-11	0.01452731	-0.004230735	2.166665e-11	4.57675e-11	0.02216279	-0.02692242
2e+08	0.0184441	-0.02742637	2.310988e-11	2.165965e-11	0.01333449	-0.005584374	3.017275e-11	4.643524e-11
	2.310988e-11	2.165965e-11	0.0186404	-0.02706531	-1.232852e-11	4.445018e-13	0.01332586	-0.005224564
	0.01333449	-0.005584374	-1.232852e-11	4.445018e-13	0.01825488	-0.02780406	3.087981e-11	4.180324e-11
	3.017275e-11	4.643524e-11	0.01332586	-0.005224564	3.087981e-11	4.180324e-11	0.01865354	-0.02712755
2.1e+08	0.01495044	-0.02704453	2.93047e-11	1.705546e-11	0.01190238	-0.006329213	3.775129e-11	4.225319e-11
	2.93047e-11	1.705546e-11	0.01518602	-0.0266946	-7.593265e-12	-2.307289e-12	0.01194178	-0.005954516
	0.01190238	-0.006329213	-7.593265e-12	-2.307289e-12	0.01474599	-0.02735748	3.957213e-11	3.59807e-11
	3.775129e-11	4.225319e-11	0.01194178	-0.005954516	3.957213e-11	3.59807e-11	0.015191	-0.02675125
2.2e+08	0.01160922	-0.02609439	3.48651e-11	1.117819e-11	0.01034441	-0.006765778	4.466391e-11	3.654289e-11
	3.48651e-11	1.117819e-11	0.01187874	-0.02576555	-3.225552e-12	-6.014801e-12	0.01043168	-0.006389943
	0.01034441	-0.006765778	-3.225552e-12	-6.014801e-12	0.01140122	-0.02634607	4.735364e-11	2.836572e-11
	4.466391e-11	3.654289e-11	0.01043168	-0.006389943	4.735364e-11	2.836572e-11	0.01187738	-0.02581502
2.3e+08	0.008518415	-0.02461602	3.952289e-11	4.128948e-12	0.008725449	-0.006875824	5.059132e-11	2.940371e-11
	3.952289e-11	4.128948e-12	0.008814276	-0.02431704	5.641941e-13	-1.060709e-11	0.008857034	-0.006512157
	0.008725449	-0.006875824	5.641941e-13	-1.060709e-11	0.008317065	-0.02481144	5.384213e-11	1.910691e-11
	5.059132e-11	2.940371e-11	0.008857034	-0.006512157	5.384213e-11	1.910691e-11	0.008808659	-0.02435816
2.4e+08	0.005766539	-0.02266629	4.302687e-11	-3.93402e-12	0.007112601	-0.006654535	5.522913e-11	2.100285e-11
	4.302687e-11	-3.93402e-12	0.006079089	-0.02240427	3.580462e-12	-1.596626e-11	0.007281753	-0.00631515
	0.007112601	-0.006654535	3.580462e-12	-1.596626e-11	0.005580445	-0.02281167	5.868076e-11	8.43573e-12
	5.522913e-11	2.100285e-11	0.007281753	-0.00631515	5.868076e-11	8.43573e-12	0.006071516	-0.0224363
2.5e+08	0.003429782	-0.02031681	4.515492e-11	-1.27983e-11	0.005572399	-0.00611067	5.830234e-11	1.157328e-11
	4.515492e-11	-1.27983e-11	0.00374772	-0.0200967	5.65325e-12	-2.193064e-11	0.005769531	-0.005805808
	0.005572399	-0.006110669	5.65325e-12	-2.193064e-11	0.003265901	-0.0204193	6.155611e-11	-3.337864e-12
	5.830234e-11	1.157328e-11	0.005769531	-0.005805808	6.155611e-11	-3.337864e-12	0.003740599	-0.02011942
2.6e+08	0.001569576	-0.0176514	4.572587e-11	-2.220254e-11	0.004168114	-0.005266146	5.957994e-11	1.408839e-12
	4.572587e-11	-2.220254e-11	0.001880423	-0.01747565	6.647944e-12	-2.830019e-11	0.004381296	-0.00500358
	0.004168114	-0.005266146	6.647944e-12	-2.830019e-11	0.001433193	-0.01771875	6.221599e-11	-1.583342e-11
	5.957994e-11	1.408839e-12	0.004381296	-0.00500358	6.221599e-11	-1.583342e-11	0.001876165	-0.01748935
2.7e+08	0.0002306961	-0.01476316	4.461031e-11	-3.184457e-11	0.002957181	-0.004155093	5.888866e-11	-9.144365e-12
	4.461031e-11	-3.184457e-11	0.0005213315	-0.01463146	6.474148e-12	-3.484449e-11	0.003172745	-0.003939652
	0.002957181	-0.004155093	6.474148e-12	-3.484449e-11	0.0001254325	-0.01480343	6.048553e-11	-2.861256e-11
	5.888866e-11	-9.144365e-12	0.003172745	-0.003939652	6.048553e-11	-2.861256e-11	0.0005222496	-0.01463691
2.8e+08	-0.0005600958	-0.01175117	4.174013e-11	-4.13919e-11	0.001988879	-0.002822397	5.61253e-11	-1.969969e-11
	4.174013e-11	-4.13919e-11	-0.0003028185	-0.01166029	5.092711e-12	-4.131264e-11	0.002192116	-0.00265563
	0.001988878	-0.002822397	5.092711e-12	-4.131264e-11	-0.000632224	-0.01177246	5.628108e-11	-4.119528e-11
	5.61253e-11	-1.969969e-11	0.002192116	-0.00265563	5.628108e-11	-4.119528e-11	-0.0002946087	-0.01165877
2.9e+08	-0.0007947604	-0.008717089	3.711546e-11	-5.049469e-11	0.001302356	-0.001321818	5.126623e-11	-2.984491e-11
	3.711546e-11	-5.049469e-11	-0.0005833762	-0.008660884	2.520488e-12	-4.744502e-11	0.001478268	-0.001201817
	0.001302356	-0.001321818	2.520488e-12	-4.744502e-11	-0.0008332565	-0.008727284	4.962e-11	-5.307989e-11
	5.126623e-11	-2.984491e-11	0.001478268	-0.001201817	4.962e-11	-5.307989e-11	-0.0005660634	-0.008654091
3e+08	-0.0004840379	-0.005761647	3.080897e-11	-5.880022e-11	0.0009250848	0.0002862499	4.437355e-11	-3.915941e-11
	3.080897e-11	-5.880022e-11	-0.0003298353	-0.005731186	-1.167723e-12	-5.298622e-11	0.001059164	0.0003648634
	0.0009250848	0.0002862499	-1.167723e-12	-5.298622e-11	-0.000489798	-0.005768182	4.062603e-11	-6.376531e-11
	4.437355e-11	-3.915941e-11	0.001059164	0.0003648634	4.062603e-11	-6.376531e-11	-0.0003019918	-0.005721183
3.1e+08	0.0003431512	-0.002981186	2.296706e-11	-6.596867e-11	0.0008718008	0.001937272	3.559755e-11	-4.723309e-11
	2.296706e-11	-6.596867e-11	0.0004307347	-0.002965021	-5.840303e-12	-5.769837e-11	0.0009507967	0.001983194
	0.0008718008	0.001937272	-5.840303e-12	-5.769837e-11	0.0003679877	-0.002990846	2.952964e-11	-7.277483e-11
	3.559755e-11	-4.723309e-11	0.0009507967	0.001983194	2.952964e-11	-7.277483e-11	0.0004700792	-0.002954151
3.2e+08	0.001640926	-0.0004644204	1.380715e-11	-7.168899e-11	0.001143972	0.003565224	2.517429e-11	-5.368555e-11
	1.380715e-11	-7.168899e-11	0.001654848	-0.0004489837	-1.131319e-11	-6.137421e-11	0.00115661	0.003590145
	0.001143972	0.003565224	-1.131319e-11	-6.137421e-11	0.001693153	-0.0004831645	1.666227e-11	-7.967968e-11
	2.517429e-11	-5.368555e-11	0.00115661	0.003590145	1.666227e-11	-7.967968e-11	0.001706155	-0.0004397687
3.3e+08	0.003348251	0.001710529	3.61157e-12	-7.56943e-11	0.00172981	0.005105276	1.341902e-11	-5.81848e-11
	3.61157e-12	-7.56943e-11	0.003284322	0.001740407	-1.735739e-11	-6.384893e-11	0.001667431	0.005123422
	0.00172981	0.005105276	-1.735739e-11	-6.384893e-11	0.003423795	0.001677697	2.445427e-12	-8.412124e-11
	1.341902e-11	-5.81848e-11	0.001667431	0.005123422	2.445427e-12	-8.412124e-11	0.003347515	0.001745376
3.4e+08	0.005391253	0.003478682	-7.281995e-12	-7.7776e-11	0.002604819	0.006496419	7.153147e-13	-6.046441e-11
	-7.281995e-12	-7.7776e-11	0.005248475	0.003539168	-2.370924e-11	-6.501022e-11	0.002461909	0.006523945
	0.002604819	0.006496419	-2.370924e-11	-6.501022e-11	0.005485379	0.003427816	-1.262533e-11	-8.583062e-11
	7.153147e-13	-6.046441e-11	0.002461909	0.006523945	-1.262533e-11	-8.583062e-11	0.00532293	0.003537343
3.5e+08	0.007685952	0.004790266	-1.849339e-11	-7.779524e-11	0.003732852	0.007683906	-1.249974e-11	-6.033748e-11
	-1.849339e-11	-7.779524e-11	0.007466736	0.004897839	-3.008297e-11	-6.480546e-11	0.00350744	0.0077382
	0.003732852	0.007683906	-3.008297e-11	-6.480546e-11	0.007793481	0.004718534	-2.800093e-11	-8.464375e-11
	-1.249974e-11	-6.033748e-11	0.00350744	0.0077382	-2.800093e-11	-8.464375e-11	0.007551301	0.004886829
3.6e+08	0.01014132	0.005612215	-2.961569e-11	-7.569133e-11	0.00506763	0.008621427	-2.575266e-11	-5.770687e-11
	-2.961569e-11	-7.569133e-11	0.009851546	0.005782949	-3.618481e-11	-6.324592e-11	0.00476152	0.00872033
	0.00506763	0.008621427	-3.618481e-11	-6.324592e-11	0.01025684	0.00551792	-4.310196e-11	-8.051178e-11
	-2.575266e-11	-5.770687e-11	0.00476152	0.00872033	-4.310196e-11	-8.051178e-11	0.009944579	0.005760629
3.7e+08	0.01266253	0.005929078	-4.023073e-11	-7.148765e-11	0.006554649	0.009272936	-3.855432e-11	-5.257332e-11
	-4.023073e-11	-7.148765e-11	0.01231147	0.006177905	-4.172771e-11	-6.040734e-11	0.006173497	0.009433926
	0.006554649	0.009272936	-4.172771e-11	-6.040734e-11	0.01278063	0.005811644	-5.734479e-11	-7.350615e-11
	-3.855432e-11	-5.257332e-11	0.006173497	0.009433926	-5.734479e-11	-7.350615e-11	0.0124109	0.006142514
3.8e+08	0.01515432	0.005743286	-4.99284e-11	-6.529226e-11	0.008133411	0.009614043	-5.041979e-11	-4.503546e-11
	-4.99284e-11	-6.529226e-11	0.01475439	0.006083292	-4.644581e-11	-5.642706e-11	0.007686617	0.009853412
	0.008133411	0.009614043	-4.644581e-11	-5.642706e-11	0.01526977	0.005603205	-7.016671e-11	-6.381692e-11
	-5.041979e-11	-4.503546e-11	0.007686617	0.009853412	-7.016671e-11	-6.381692e-11	0.01485781	0.006033514
3.9e+08	0.0175243	0.005074808	-5.832398e-11	-5.729519e-11	0.009739864	0.009632949	-6.088866e-11	-3.528772e-11
	-5.832398e-11	-5.729519e-11	0.01709069	0.005516567	-5.010774e-11	-5.14978e-11	0.0092403	0.009965009
	0.009739864	0.009632949	-5.010774e-11	-5.14978e-11	0.01763224	0.004913555	-8.105056e-11	-5.174607e-11
	-6.088866e-11	-3.528772e-11	0.0092403	0.009965009	-8.105056e-11	-5.174607e-11	0.01719542	0.005451602
4e+08	0.01968615	0.003960185	-6.507476e-11	-4.776179e-11	0.01130898	0.009330867	-6.954419e-11	-2.361341e-11
	-6.507476e-11	-4.776179e-11	0.01923626	0.004511197	-5.252809e-11	-4.585853e-11	0.01077255	0.009767226
	0.01130898	0.009330867	-5.252809e-11	-4.585853e-11	0.01978223	0.003780109	-8.954713e-11	-3.769554e-11
	-6.954419e-11	-2.361341e-11	0.01077255	0.009767226	-8.954713e-11	-3.769554e-11	0.01933951	0.004430799
4.1e+08	0.02156249	0.002451025	-6.989484e-11	-3.702282e-11	0.01277735	0.00872193	-7.603034e-11	-1.037409e-11
	-6.989484e-11	-3.702282e-11	0.02111533	0.003115238	-5.357624e-11	-3.978314e-11	0.01222239	0.00927087
	0.01277735	0.00872193	-5.357624e-11	-3.978314e-11	0.02164305	0.002255207	-9.529407e-11	-2.215104e-11
	-7.603034e-11	-1.037409e-11	0.01222239	0.00927087	-9.529407e-11	-2.215104e-11	0.02121426	0.003019745
4.2e+08	0.0230875	0.0006119575	-7.256731e-11	-2.546151e-11	0.01408572	0.0078326	-8.00659e-11	4.004152e-12
	-7.256731e-11	-2.546151e-11	0.02266294	0.001389457	-5.318234e-11	-3.356761e-11	0.0135323	0.008498575
	0.01408572	0.0078326	-5.318234e-11	-3.356761e-11	0.02314963	0.0004040651	-9.803064e-11	-5.66241e-12
	-8.00659e-11	4.004152e-12	0.0135323	0.008498575	-9.803064e-11	-5.66241e-12	0.02275483	0.001279778
4.3e+08	0.02420903	-0.001481787	-7.295341e-11	-1.349865e-11	0.0151813	0.006700583	-8.145542e-11	1.90468e-11
	-7.295341e-11	-1.349865e-11	0.023827	-0.0005949714	-5.134018e-11	-2.751632e-11	0.01465041	0.00748388
	0.0151813	0.006700583	-5.134018e-11	-2.751632e-11	0.02425067	-0.001697677	-9.760794e-11	1.117819e-11
	-8.145542e-11	1.90468e-11	0.01465041	0.00748388	-9.760794e-11	1.117819e-11	0.02390933	-0.0007173723
4.4e+08	0.02489024	-0.00374719	-7.099826e-11	-1.576266e-12	0.01601991	0.005373314	-8.009651e-11	3.42484e-11
	-7.099826e-11	-1.576266e-12	0.02456992	-0.002759078	-4.8107e-11	-2.192853e-11	0.01553259	0.00626988
	0.01601991	0.005373314	-4.8107e-11	-2.192853e-11	0.02491022	-0.003966753	-9.399435e-11	2.775912e-11
	-8.009651e-11	3.42484e-11	0.01553259	0.00626988	-9.399435e-11	2.775912e-11	0.02464047	-0.002892239
4.5e+08	0.02511069	-0.006096441	-6.673325e-11	9.859272e-12	0.0165677	0.003906066	-7.59838e-11	4.90908e-11
	-6.673325e-11	9.859272e-12	0.02486963	-0.005018953	-4.360058e-11	-1.708541e-11	0.01614411	0.004907516
	0.0165677	0.003906066	-4.360058e-11	-1.708541e-11	0.02510874	-0.006315291	-8.727647e-11	4.347237e-11
	-7.59838e-11	4.90908e-11	0.01614411	0.004907516	-8.727647e-11	4.347237e-11	0.02492666	-0.005160483
4.6e+08	0.02486684	-0.008440114	-6.027506e-11	2.037376e-11	0.01680249	0.002359743	-6.920933e-11	6.306151e-11
	-6.027506e-11	2.037376e-11	0.02472023	-0.007288735	-3.798937e-11	-1.323554e-11	0.01646106	0.003453563
	0.01680249	0.002359743	-3.798937e-11	-1.323554e-11	0.02484355	-0.008653967	-7.765352e-11	5.773189e-11
	-6.920933e-11	6.306151e-11	0.01646106	0.003453563	-7.765352e-11	5.773189e-11	0.02476245	-0.007435904
4.7e+08	0.02417197	-0.01069034	-5.182181e-11	2.956074e-11	0.01671467	0.0007984582	-5.995966e-11	7.567011e-11
	-5.182181e-11	2.956074e-11	0.02413186	-0.009483623	-3.147527e-11	-1.058527e-11	0.0164712	0.001968386
	0.01671467	0.0007984582	-3.147527e-11	-1.058527e-11	0.02412872	-0.01089517	-6.543291e-11	6.997854e-11
