!$
! Info: Touchstone file created by Circ.  Input file=Tx_16in_Rx_93ohms_TxVia_10mils_RxVia_20mils.circ
!$
# Hz S RI R 50
0	0.01458561	1.05786e-25	0.9852833	-1.156055e-25	9.644726e-05	1.489635e-23	-9.489404e-05	1.217284e-21
	0.9852833	-1.165106e-25	0.0145852	1.378952e-25	-9.476275e-05	1.201461e-21	9.590697e-05	2.077018e-23
	9.872018e-05	1.493059e-23	-9.471059e-05	1.195155e-21	0.01457772	9.24455e-26	0.9852536	-1.038567e-25
	-9.53001e-05	1.267094e-21	9.736093e-05	2.137749e-23	0.9852536	-1.084177e-25	0.01459073	1.314653e-25
1e+07	0.02098617	-0.002963065	0.96417	-0.1646716	0.0006664306	0.002772449	-0.0001814341	-8.172419e-06
	0.96417	-0.1646716	0.02097852	-0.002964644	-0.0001814526	-8.146027e-06	0.0006616475	0.002774168
	0.0006664796	0.002772422	-0.0001814174	-8.170779e-06	0.02056678	-0.002949652	0.9645697	-0.1648151
	-0.000181399	-8.197176e-06	0.0006616808	0.002774156	0.9645697	-0.1648151	0.02055922	-0.002951324
2e+07	0.02295969	-0.01142654	0.9193893	-0.3182185	0.001903428	0.005311902	-4.473277e-05	-0.0001274664
	0.9193893	-0.3182185	0.02293032	-0.01142322	-4.471267e-05	-0.0001274424	0.001885912	0.005320267
	0.00190342	0.005311876	-4.471898e-05	-0.0001274697	0.02265946	-0.01127172	0.9196055	-0.3186244
	-4.473155e-05	-0.0001275022	0.00188591	0.005320245	0.9196055	-0.3186244	0.02263097	-0.01126815
3e+07	0.02073796	-0.02099228	0.852291	-0.4605124	0.003918545	0.00715318	2.565851e-05	-0.0001718032
	0.852291	-0.4605124	0.02067641	-0.02097108	2.567316e-05	-0.0001718121	0.003883397	0.00717619
	0.003918545	0.007153176	2.566948e-05	-0.0001718152	0.02052281	-0.02081345	0.8523202	-0.4610399
	2.56547e-05	-0.0001718085	0.003883392	0.007176187	0.8523202	-0.4610399	0.02046456	-0.02079295
4e+07	0.01520582	-0.02954897	0.7643167	-0.5892531	0.006428654	0.008177961	4.652252e-05	-0.0002219686
	0.7643167	-0.5892531	0.01510843	-0.02949276	4.652282e-05	-0.0002219897	0.006374976	0.008225396
	0.006428658	0.008177957	4.65258e-05	-0.00022199	0.01505162	-0.02937974	0.7641501	-0.5898398
	4.652766e-05	-0.000221966	0.006374976	0.008225397	0.7641501	-0.5898398	0.01495899	-0.0293265
5e+07	0.00720163	-0.0360342	0.6577517	-0.7016187	0.009079673	0.008347725	5.961534e-05	-0.0003350175
	0.6577517	-0.7016187	0.007072694	-0.03592499	5.960094e-05	-0.0003350567	0.009011157	0.008429445
	0.009079675	0.008347723	5.960236e-05	-0.0003350575	0.007085299	-0.03588857	0.6573857	-0.7022104
	5.961884e-05	-0.0003350172	0.009011157	0.008429445	0.6573857	-0.7022104	0.006962312	-0.03578449
6e+07	-0.002329577	-0.0398081	0.5354142	-0.795072	0.01159799	0.007674332	1.56736e-05	-0.0005010575
	0.5354142	-0.795072	-0.002477959	-0.03963038	1.56207e-05	-0.0005011161	0.01152262	0.007798299
	0.01159799	0.007674333	1.561864e-05	-0.0005011136	-0.002427495	-0.0396888	0.5348541	-0.7956177
	1.56687e-05	-0.0005010554	0.01152262	0.0077983	0.5348541	-0.7956177	-0.002568628	-0.03951917
7e+07	-0.01238141	-0.04059163	0.4005162	-0.8675309	0.01372906	0.006253478	-0.0001201177	-0.0006848064
	0.4005162	-0.8675309	-0.01253079	-0.04033547	-0.0001202307	-0.0006848563	0.01365812	0.006424126
	0.01372906	0.006253482	-0.0001202336	-0.0006848491	-0.01247571	-0.04049483	0.3997771	-0.867983
	-0.0001201288	-0.0006847977	0.01365811	0.006424129	0.3997771	-0.867983	-0.01261758	-0.04025077
8e+07	-0.02196723	-0.03844088	0.256548	-0.9174454	0.01526377	0.00425395	-0.0003596649	-0.0008366599
	0.256548	-0.9174454	-0.02209541	-0.0381042	-0.0003598278	-0.0008366601	0.01521025	0.004471044
	0.01526377	0.004253955	-0.0003598289	-0.0008366504	-0.02206797	-0.03835913	0.2556547	-0.917761
	-0.0003596759	-0.0008366455	0.01521025	0.004471048	0.2556547	-0.917761	-0.02219017	-0.03803847
9e+07	-0.03020351	-0.03371016	0.1071674	-0.9438329	0.01605858	0.001898699	-0.000688776	-0.0009053933
	0.1071674	-0.9438329	-0.03028776	-0.03329985	-0.0006889472	-0.0009053227	0.01603536	0.002156821
	0.01605858	0.001898703	-0.0006889462	-0.0009053153	-0.0303165	-0.03363444	0.1061542	-0.9439757
	-0.0006887819	-0.0009053804	0.01603536	0.002156825	0.1061542	-0.9439757	-0.03039768	-0.03324269
1e+08	-0.03636344	-0.02699694	-0.0439358	-0.946283	0.0160473	-0.0005596079	-0.001068784	-0.000850129
	-0.0439358	-0.946283	-0.03638399	-0.02652878	-0.001068916	-0.0008500059	0.01606514	-0.0002708775
	0.0160473	-0.000559608	-0.001068916	-0.0008500061	-0.03649409	-0.02691833	-0.04502016	-0.9462256
	-0.001068784	-0.0008501293	0.01606514	-0.0002708777	-0.04502016	-0.9462256	-0.0365146	-0.02646935
1.1e+08	-0.04005988	-0.01919702	-0.1929052	-0.9247559	0.01524645	-0.002857427	-0.001448362	-0.0006564991
	-0.1929052	-0.9247559	-0.04000342	-0.01869266	-0.001448484	-0.0006563049	0.01531173	-0.002552955
	0.01524645	-0.002857427	-0.001448485	-0.0006563051	-0.04019995	-0.01909149	-0.1940252	-0.9245079
	-0.001448362	-0.0006564993	0.01531173	-0.002552955	-0.1940252	-0.9245079	-0.04014623	-0.01860707
1.2e+08	-0.04115733	-0.01098526	-0.3359955	-0.880228	0.01375851	-0.004760906	-0.001775796	-0.0003225167
	-0.3359955	-0.880228	-0.04101841	-0.0104733	-0.001775874	-0.0003222557	0.01387266	-0.004457482
	0.01375851	-0.004760906	-0.001775874	-0.0003222559	-0.04128773	-0.01085273	-0.3371269	-0.8797751
	-0.001775796	-0.0003225168	0.01387266	-0.004457482	-0.3371269	-0.8797751	-0.04115431	-0.01036098
1.3e+08	-0.03967518	-0.003200155	-0.469818	-0.8139897	0.01174606	-0.006079879	-0.001997536	0.0001266951
	-0.469818	-0.8139897	-0.03945916	-0.002710786	-0.00199754	0.0001270043	0.01190421	-0.005794791
	0.01174606	-0.006079879	-0.00199754	0.0001270043	-0.0397834	-0.003046482	-0.4709256	-0.8133223
	-0.001997536	0.000126695	0.01190421	-0.005794791	-0.4709256	-0.8133223	-0.03957561	-0.002576812
1.4e+08	-0.03592075	0.003388276	-0.5911851	-0.7278126	0.00942162	-0.006684676	-0.002076363	0.0006462398
	-0.5911851	-0.7278126	-0.03564394	0.003827257	-0.002076275	0.0006465693	0.009612637	-0.006433367
	0.009421621	-0.006684676	-0.002076276	0.0006465692	-0.03599848	0.003553296	-0.5922301	-0.7269275
	-0.002076363	0.0006462398	0.009612637	-0.006433367	-0.5922301	-0.7269275	-0.03573236	0.003974041
1.5e+08	-0.03042392	0.008158057	-0.6972096	-0.6239177	0.007025942	-0.006518315	-0.001996905	0.001180852
	-0.6972096	-0.6239177	-0.03011247	0.008525064	-0.001996721	0.001181169	0.007233236	-0.006312164
	0.007025942	-0.006518315	-0.001996721	0.001181169	-0.03046756	0.008322327	-0.6981511	-0.6228189
	-0.001996905	0.001180852	0.007233236	-0.006312164	-0.6981511	-0.6228189	-0.03016853	0.008673521
1.6e+08	-0.02387433	0.01069306	-0.7853684	-0.5049325	0.00480447	-0.00560138	-0.001767222	0.001675474
	-0.7853684	-0.5049325	-0.02356175	0.01097602	-0.001766951	0.001675749	0.00500756	-0.005445846
	0.00480447	-0.00560138	-0.001766951	0.001675749	-0.02388522	0.01084396	-0.786165	-0.5036314
	-0.001767222	0.001675474	0.00500756	-0.005445846	-0.786165	-0.5036314	-0.02358564	0.01111424
1.7e+08	-0.01704702	0.01081881	-0.853561	-0.373841	0.00298337	-0.004029713	-0.001415609	0.00208516
	-0.853561	-0.373841	-0.01677072	0.01101752	-0.00141527	0.002085369	0.003160033	-0.003923077
	0.00298337	-0.004029713	-0.00141527	0.002085369	-0.01703115	0.01094492	-0.8541723	-0.3723566
	-0.001415609	0.00208516	0.003160033	-0.003923077	-0.8541723	-0.3723566	-0.01676697	0.01113438
1.8e+08	-0.0107222	0.008613772	-0.9001642	-0.2339223	0.001747148	-0.001964961	-0.0009834746	0.002382262
	-0.9001642	-0.2339223	-0.01051926	0.008741035	-0.0009830925	0.002382393	0.001875957	-0.001897853
	0.001747148	-0.001964961	-0.0009830926	0.002382393	-0.01068946	0.008706411	-0.9005519	-0.2322816
	-0.0009834746	0.002382262	0.001875957	-0.001897853	-0.9005519	-0.2322816	-0.01049617	0.008827587
1.9e+08	-0.005606292	0.004395562	-0.9240797	-0.08868005	0.001219977	0.0003814668	-0.0005159714	0.002559479
	-0.9240797	-0.08868005	-0.00550898	0.00447683	-0.0005155714	0.002559532	0.001282926	0.0004256572
	0.001219977	0.0003814668	-0.0005155714	0.002559532	-0.005569213	0.004449945	-0.9242094	-0.08691772
	-0.0005159714	0.002559479	0.001282926	0.0004256573	-0.9242094	-0.08691772	-0.005477636	0.004527418
2e+08	-0.002261797	-0.001316481	-0.9247729	0.05824138	0.001452735	0.002769778	-5.255413e-05	0.002628272
	-0.9247729	0.05824138	-0.002293289	-0.001245021	-5.215463e-05	0.002628257	0.001437668	0.002813596
	0.001452735	0.002769778	-5.215465e-05	0.002628257	-0.00223407	-0.001300583	-0.9246155	0.06008347
	-5.255415e-05	0.002628272	0.001437668	0.002813596	-0.9246155	0.06008347	-0.002266247	-0.001232005
2.1e+08	-0.001052739	-0.00785847	-0.9022964	0.2031495	0.002417441	0.004956546	0.0003804201	0.002613194
	-0.9022964	0.2031495	-0.001223609	-0.007753218	0.0003808109	0.002613125	0.002319965	0.005026368
	0.002417441	0.004956546	0.0003808109	0.002613125	-0.001047578	-0.00787659	-0.9018298	0.205023
	0.0003804201	0.002613194	0.002319965	0.005026368	-0.9018298	0.205023	-0.001213471	-0.00777506
2.2e+08	-0.002111264	-0.01449299	-0.8572967	0.3424034	0.004010005	0.006720249	0.0007734109	0.002543606
	-0.8572967	0.3424034	-0.002417205	-0.01430739	0.0007737956	0.002543497	0.003834643	0.006843567
	0.004010005	0.006720249	0.0007737956	0.002543497	-0.002139838	-0.01453638	-0.8565071	0.3442548
	0.0007734109	0.002543606	0.003834643	0.006843567	-0.8565071	0.3442548	-0.002435152	-0.01435727
2.3e+08	-0.005328595	-0.02048648	-0.7910002	0.4725156	0.006061287	0.007884687	0.001132994	0.00244484
	-0.7910002	0.4725156	-0.005749722	-0.02017614	0.001133384	0.002444694	0.005821682	0.008087079
	0.006061287	0.007884687	0.001133384	0.002444694	-0.005398691	-0.02054302	-0.7898836	0.4742876
	0.001132994	0.00244484	0.005821682	0.008087079	-0.7898836	0.4742876	-0.005804212	-0.02024381
2.4e+08	-0.010371	-0.02518476	-0.7051792	0.5902501	0.008355336	0.008337508	0.001477063	0.002330949
	-0.7051792	0.5902501	-0.01087292	-0.02471269	0.00147747	0.002330761	0.008073414	0.008639608
	0.008355336	0.008337508	0.00147747	0.002330761	-0.01048606	-0.02524028	-0.7037421	0.5918837
	0.001477063	0.002330949	0.008073414	0.008639608	-0.7037421	0.5918837	-0.01096868	-0.02478558
2.5e+08	-0.01671859	-0.02807891	-0.6020982	0.6927114	0.0106527	0.008041618	0.001827216	0.002200791
	-0.6020982	0.6927114	-0.01725523	-0.02742022	0.001827649	0.002200542	0.01035683	0.008456444
	0.0106527	0.008041618	0.001827649	0.002200542	-0.01687725	-0.02811868	-0.600358	0.6941478
	0.001827216	0.002200791	0.01035683	0.008456444	-0.600358	0.6941478	-0.01739268	-0.02748473
2.6e+08	-0.02372245	-0.02885464	-0.4844448	0.7774202	0.012716	0.007038206	0.002200285	0.002038303
	-0.4844448	0.7774202	-0.02424039	-0.0280002	0.002200743	0.002037966	0.01243834	0.007569179
	0.012716	0.007038206	0.002200743	0.002037966	-0.02391856	-0.02886502	-0.4824299	0.7786032
	0.002200285	0.002038303	0.01243834	0.007569179	-0.4824299	0.7786032	-0.02441549	-0.0280432
2.7e+08	-0.03067344	-0.02742059	-0.3552487	0.8423727	0.01433482	0.005441236	0.00260109	0.001816857
	-0.3552487	0.8423727	-0.03111735	-0.02637906	0.002601554	0.001816403	0.01410799	0.006081148
	0.01433482	0.005441236	0.002601554	0.001816403	-0.03089668	-0.02739058	-0.3529981	0.8432504
	0.00260109	0.001816857	0.01410799	0.006081148	-0.3529981	0.8432504	-0.031322	-0.02638936
2.8e+08	-0.03687544	-0.0239135	-0.2177952	0.8860815	0.01534704	0.003424341	0.003018175	0.001506571
	-0.2177952	0.8860815	-0.03719403	-0.02271155	0.003018613	0.001505976	0.01520062	0.004155456
	0.01534704	0.003424341	0.003018613	0.001505976	-0.0371124	-0.02383596	-0.2153572	0.8866089
	0.003018175	0.001506571	0.01520062	0.004155456	-0.2153572	0.8866089	-0.03741693	-0.02268111
2.9e+08	-0.0417155	-0.01868033	-0.07553568	0.9076004	0.01565452	0.001201912	0.003423543	0.001082819
	-0.07553568	0.9076004	-0.04186739	-0.01736081	0.003423907	0.00108207	0.01561164	0.00199723
	0.01565452	0.001201912	0.003423907	0.00108207	-0.04195107	-0.01855279	-0.07296701	0.9077403
	0.003423543	0.001082819	0.01561164	0.00199723	-0.07296701	0.9077403	-0.04209518	-0.01728562
3e+08	-0.044724	-0.01223995	0.06799897	0.9065329	0.01523183	-0.000993354	0.003776433	0.0005339326
	0.06799897	0.9065329	-0.04468275	-0.01085823	0.00377667	0.0005330358	0.0153063	-0.0001677343
	0.01523183	-0.000993354	0.00377667	0.0005330358	-0.04494296	-0.01206494	0.07063478	0.9062581
	0.003776433	0.0005339326	0.0153063	-0.0001677343	0.07063478	0.9062581	-0.04490144	-0.01073871
3.1e+08	-0.04561946	-0.005228795	0.2092816	0.8830291	0.01412749	-0.002934019	0.004030293	-0.0001336636
	0.2092816	0.8830291	-0.04537732	-0.003847502	0.004030351	-0.0001346803	0.01432176	-0.002115661
	0.01412749	-0.002934019	0.004030351	-0.0001346803	-0.0458081	-0.005013625	0.211916	0.8823227
	0.004030293	-0.0001336636	0.01432176	-0.002115661	0.211916	0.8823227	-0.04557371	-0.003688549
3.2e+08	-0.04433409	0.001663866	0.3448668	0.8377712	0.01245806	-0.004420305	0.004141403	-0.0008940357
	0.3448668	0.8377712	-0.04390386	0.002981143	0.004141239	-0.0008951254	0.01276236	-0.003646628
	0.01245806	-0.004420305	0.004141239	-0.0008951254	-0.04448168	0.001907794	0.3474281	0.8366282
	0.004141403	-0.0008940357	0.01276236	-0.003646628	0.3474281	0.8366282	-0.04406695	0.003170648
3.3e+08	-0.04101834	0.007764762	0.4714642	0.7719527	0.01039589	-0.005299389	0.004077261	-0.001704368
	0.4714642	0.7719527	-0.04043309	0.00896019	0.00407685	-0.00170547	0.01078858	-0.004603686
	0.01039589	-0.005299389	0.00407685	-0.00170547	-0.04111829	0.008023095	0.4738792	0.7703796
	0.004077261	-0.001704368	0.01078858	-0.004603686	0.4738792	0.7703796	-0.04055523	0.009168271
3.4e+08	-0.03602413	0.01248309	0.5860077	0.6872488	0.008151812	-0.005480004	0.00382297	-0.002511075
	0.5860077	0.6872488	-0.03533481	0.01351104	0.003822308	-0.002512121	0.008601098	-0.004887711
	0.008151812	-0.005480004	0.003822308	-0.002512121	-0.03607477	0.01273999	0.5882038	0.6852645
	0.00382297	-0.002511075	0.008601098	-0.004887711	0.5882038	0.6852645	-0.03541254	0.01372383
3.5e+08	-0.02986884	0.01536844	0.6857216	0.5857814	0.005954348	-0.004941189	0.003384248	-0.003258103
	0.6857216	0.5857814	-0.02913982	0.01620095	0.003383355	-0.003259029	0.006421081	-0.004466812
	0.005954348	-0.004941189	0.003383355	-0.003259029	-0.02987367	0.0156082	0.6876287	0.5834167
	0.003384248	-0.003258103	0.006421081	-0.004466812	0.6876287	0.5834167	-0.02917426	0.01640411
3.6e+08	-0.02318328	0.01615476	0.7681838	0.4700752	0.004027187	-0.003734414	0.002786482	-0.003895689
	0.7681838	0.4700752	-0.02248624	0.01678537	0.002785395	-0.003896442	0.004468618	-0.003379472
	0.004027187	-0.003734414	0.002785395	-0.003896442	-0.02315073	0.01636349	0.7697358	0.4673729
	0.002786482	-0.003895689	0.004468618	-0.003379472	0.7697358	0.4673729	-0.02248306	0.01696559
3.7e+08	-0.01664871	0.01478624	0.8313849	0.3430055	0.002566887	-0.001978777	0.002070037	-0.004387734
	0.8313849	0.3430055	-0.01605546	0.0152318	0.002068807	-0.00438828	0.002940961	-0.001731013
	0.002566887	-0.001978777	0.002068807	-0.00438828	-0.01659131	0.01495334	0.8325224	0.3400197
	0.002070037	-0.004387734	0.002940961	-0.001731013	0.8325224	0.3400197	-0.01602436	0.01537817
3.8e+08	-0.01092879	0.01142236	0.8737834	0.2077355	0.001722899	0.0001505386	0.001282874	-0.004716265
	0.8737834	0.2077355	-0.01050376	0.01172237	0.001281554	-0.004716588	0.001992664	0.000316528
	0.001722899	0.0001505386	0.001281554	-0.004716588	-0.01086199	0.01154175	0.8744548	0.2045307
	0.001282874	-0.004716265	0.001992664	0.000316528	0.8744548	0.2045307	-0.01045748	0.01182759
3.9e+08	-0.006603285	0.006421539	0.8943509	0.06764216	0.001581946	0.002439665	0.0004720851	-0.00488209
	0.8943509	0.06764216	-0.006396393	0.006635117	0.0004707219	-0.004882193	0.001719631	0.002560403
	0.001581946	0.002439665	0.0004707219	-0.004882193	-0.006543841	0.006492363	0.894515	0.06429242
	0.0004720851	-0.00488209	0.001719631	0.002560403	0.894515	0.06429242	-0.00634947	0.006696315
4e+08	-0.00411006	0.0003047064	0.8926078	-0.07376686	0.002158564	0.00465781	-0.0003237763	-0.0049016
	0.8926078	-0.07376686	-0.004150826	0.0005053342	-0.0003251462	-0.004901497	0.002148877	0.004777662
	0.002158564	0.00465781	-0.0003251462	-0.004901497	-0.00407431	0.0003315828	0.8922349	-0.07717978
	-0.0003237763	-0.0049016	0.002148877	0.004777662	0.8922349	-0.07717978	-0.004118053	0.0005244408
4.1e+08	-0.003701491	-0.006297528	0.8686424	-0.2129459	0.0033931	0.006581208	-0.001079895	-0.004800527
	0.8686424	-0.2129459	-0.003994999	-0.006029031	-0.00108125	-0.004800235	0.003235365	0.006748137
	0.0033931	0.006581208	-0.00108125	-0.004800235	-0.003703587	-0.006304892	0.8677166	-0.2163342
	-0.001079895	-0.004800527	0.003235365	0.006748137	0.8677166	-0.2163342	-0.003989882	-0.006045406
4.2e+08	-0.005419782	-0.01270879	0.823114	-0.3464074	0.005157642	0.008016653	-0.001786814	-0.004606189
	0.823114	-0.3464074	-0.005945076	-0.01229237	-0.001788147	-0.004605721	0.004866512	0.008277433
	0.005157642	0.008016653	-0.001788147	-0.004605721	-0.005470137	-0.01273653	0.8216341	-0.3496797
	-0.001786814	-0.004606189	0.004866512	0.008277433	0.8216341	-0.3496797	-0.005978379	-0.01233357
4.3e+08	-0.009093827	-0.01827528	0.7572362	-0.4708193	0.007269421	0.008821945	-0.002448213	-0.004340068
	0.7572362	-0.4708193	-0.009804973	-0.01763998	-0.002449523	-0.004339426	0.006874021	0.009217281
	0.007269421	0.008821945	-0.002449523	-0.004339426	-0.009197923	-0.01830674	0.7552163	-0.4738832
	-0.002448213	-0.004340068	0.006874021	0.009217281	0.7552163	-0.4738832	-0.009883533	-0.01769239
4.4e+08	-0.01435781	-0.02243127	0.6727412	-0.583097	0.009510243	0.008920789	-0.003075472	-0.004012497
	0.6727412	-0.583097	-0.01518763	-0.02152302	-0.003076757	-0.004011667	0.009051774	0.009480876
	0.009510243	0.008920789	-0.003076757	-0.004011667	-0.01451552	-0.02244877	0.6702112	-0.5858617
	-0.003075472	-0.004012497	0.009051774	0.009480876	0.6702112	-0.5858617	-0.01531358	-0.02157143
4.5e+08	-0.02068935	-0.02475511	0.5718271	-0.6804866	0.01164967	0.008310459	-0.003680438	-0.003620689
	0.5718271	-0.6804866	-0.02155553	-0.02354294	-0.003681684	-0.003619647	0.01117767	0.009051452
	0.01164967	0.008310459	-0.003681684	-0.003619647	-0.02089486	-0.02474177	0.568833	-0.682866
	-0.003680438	-0.003620689	0.01117767	0.009051452	0.568833	-0.682866	-0.02172606	-0.02357219
4.6e+08	-0.02746304	-0.02500999	0.4570921	-0.7606343	0.01346928	0.0070614	-0.004268179	-0.003150557
	0.4570921	-0.7606343	-0.02827605	-0.02349012	-0.004269356	-0.003149273	0.01303684	0.00798321
	0.01346928	0.0070614	-0.004269356	-0.003149273	-0.02770538	-0.02495159	0.4536943	-0.7625499
	-0.004268179	-0.003150557	0.01303684	0.00798321	0.4536943	-0.7625499	-0.0284836	-0.02348673
4.7e+08	-0.03401346	-0.02316565	0.3314575	-0.8216418	0.01478517	0.005309046	-0.004831549	-0.002581839
	0.3314575	-0.8216418	-0.03468545	-0.0213629	-0.004832606	-0.002580286	0.01444367	0.006394728
	0.01478517	0.005309046	-0.004832606	-0.002580286	-0.03427756	-0.02305207	0.3277299	-0.8230248
	-0.004831549	-0.002581839	0.01444367	0.006394728	0.3277299	-0.8230248	-0.03491855	-0.02131636
4.8e+08	-0.0397012	-0.01939938	0.1980863	-0.8621041	0.01546638	0.003239008	-0.005348841	-0.001895288
	0.1980863	-0.8621041	-0.04015511	-0.01736561	-0.005349706	-0.001893455	0.01526014	0.004455882
	0.01546638	0.003239008	-0.005349706	-0.001893455	-0.03996945	-0.01922575	0.1941144	-0.8628982
	-0.005348841	-0.001895288	0.01526014	0.004455882	0.1941144	-0.8628982	-0.04039945	-0.01726958
4.9e+08	-0.04397542	-0.01407659	0.06029992	-0.8811331	0.01544736	0.001067509	-0.00578518	-0.001080243
	0.06029992	-0.8811331	-0.04415319	-0.01188638	-0.005785769	-0.001078145	0.01540887	0.00236994
	0.01544736	0.001067509	-0.005785769	-0.001078145	-0.0442294	-0.01384388	0.05617858	-0.8812962
	-0.00578518	-0.001080243	0.01540887	0.00236994	0.05617858	-0.8812962	-0.04439314	-0.01173934
5e+08	-0.04642682	-0.007713465	-0.07850409	-0.8783669	0.01473363	-0.0009807259	-0.006097367	-0.0001407911
	-0.07850409	-0.8783669	-0.04629595	-0.005457259	-0.006097594	-0.0001384722	0.01487986	0.0003528808
	0.01473363	-0.0009807259	-0.006097594	-0.0001384722	-0.04664921	-0.007428489	-0.08267309	-0.8778724
	-0.006097367	-0.0001407911	0.01487986	0.0003528808	-0.08267309	-0.8778724	-0.04651609	-0.005262756
