!$
! Info: Touchstone file created by Circ.  Input file=Tx_16in_Rx_93ohms_TxVia_10mils_RxVia_20mils.circ
!$
# Hz S RI R 50
0	0.01458595	9.561469e-26	-1.756119e-11	4.040539e-27	9.631036e-05	1.516046e-23	-2.124845e-08	2.602118e-24
	-1.7547e-11	4.039523e-27	0.0145852	1.378952e-25	1.401657e-11	3.445733e-28	9.590697e-05	2.077018e-23
	9.442154e-05	1.49467e-23	1.398184e-11	3.449221e-28	0.01459957	9.948658e-26	1.716633e-08	7.240169e-27
	-2.124917e-08	2.602206e-24	9.736093e-05	2.137749e-23	1.716685e-08	7.239057e-27	0.01459073	1.314653e-25
1e+07	0.02136864	-0.002056269	2.390481e-11	-5.954675e-11	0.000626534	0.002523986	-3.04838e-09	1.954843e-08
	2.390477e-11	-5.954704e-11	0.02097852	-0.002964644	-8.675995e-12	-8.419874e-11	0.0006616475	0.002774168
	0.000626495	0.002524012	-8.675989e-12	-8.419844e-11	0.01983372	-0.002723896	-4.991323e-09	1.954463e-08
	-3.04838e-09	1.954843e-08	0.0006616808	0.002774156	-4.991323e-09	1.954463e-08	0.02055922	-0.002951324
2e+07	0.02434489	-0.01028346	2.941204e-11	-8.974873e-11	0.001969017	0.004841431	2.346211e-09	2.308371e-08
	2.94117e-11	-8.974882e-11	0.02293032	-0.01142322	-2.167189e-11	-1.903017e-10	0.001885912	0.005320267
	0.001969025	0.004841449	-2.167164e-11	-1.903016e-10	0.02232463	-0.01068375	-3.483488e-09	2.100506e-08
	2.34621e-09	2.308371e-08	0.00188591	0.005320245	-3.483488e-09	2.100506e-08	0.02263097	-0.01126815
3e+07	0.02281256	-0.0201627	1.535992e-11	-1.742334e-10	0.003941544	0.006603596	7.939376e-09	1.538851e-08
	1.53599e-11	-1.742333e-10	0.02067641	-0.02097108	-7.301348e-11	-1.965036e-10	0.003883397	0.00717619
	0.003941542	0.006603596	-7.301344e-11	-1.965037e-10	0.02050126	-0.02017621	5.044241e-09	2.144061e-08
	7.939376e-09	1.538851e-08	0.003883392	0.007176187	5.044241e-09	2.144061e-08	0.02046456	-0.02079295
4e+07	0.01770923	-0.02924671	4.168441e-13	-2.460419e-10	0.006335084	0.007639763	1.040806e-08	1.025604e-08
	4.168749e-13	-2.460419e-10	0.01510843	-0.02949276	-6.945858e-11	-2.629428e-10	0.006374976	0.008225396
	0.006335079	0.007639766	-6.945868e-11	-2.629429e-10	0.01527791	-0.0288035	1.130203e-08	1.458571e-08
	1.040806e-08	1.025604e-08	0.006374976	0.008225397	1.130203e-08	1.458571e-08	0.01495899	-0.0293265
5e+07	0.009887013	-0.03635334	-8.574477e-12	-3.23626e-10	0.008893079	0.007858732	1.313957e-08	6.346125e-09
	-8.574472e-12	-3.236261e-10	0.007072694	-0.03592499	-1.081742e-10	-2.849168e-10	0.009011157	0.008429445
	0.008893078	0.007858734	-1.081742e-10	-2.849168e-10	0.007493651	-0.03543839	1.24493e-08	6.657294e-09
	1.313957e-08	6.346125e-09	0.009011157	0.008429445	1.24493e-08	6.657294e-09	0.006962312	-0.03578449
6e+07	0.0003094456	-0.0407582	-2.219629e-11	-4.212335e-10	0.0113458	0.007258794	1.685608e-08	-8.876136e-10
	-2.219624e-11	-4.212335e-10	-0.002477959	-0.03963038	-1.134942e-10	-2.923667e-10	0.01152262	0.007798299
	0.0113458	0.007258792	-1.134943e-10	-2.923667e-10	-0.001904494	-0.03940124	1.04724e-08	5.444323e-10
	1.685608e-08	-8.876136e-10	0.01152262	0.0077983	1.04724e-08	5.444322e-10	-0.002568628	-0.03951917
7e+07	-0.009989047	-0.04211663	-5.629084e-11	-5.344878e-10	0.01344082	0.005924887	1.191337e-08	-1.147669e-08
	-5.629073e-11	-5.344878e-10	-0.01253079	-0.04033547	-1.048744e-10	-3.063925e-10	0.01365812	0.006424126
	0.01344082	0.005924881	-1.048744e-10	-3.063925e-10	-0.0119041	-0.04038318	7.193624e-09	-3.259022e-09
	1.191337e-08	-1.147669e-08	0.01365811	0.006424129	7.193624e-09	-3.259022e-09	-0.01261758	-0.04025077
8e+07	-0.01998602	-0.04043483	-9.79496e-11	-6.358622e-10	0.01496984	0.004016625	3.591497e-09	-1.274632e-08
	-9.794955e-11	-6.358623e-10	-0.02209541	-0.0381042	-9.656524e-11	-3.257949e-10	0.01521025	0.004471044
	0.01496983	0.004016619	-9.656528e-11	-3.257949e-10	-0.02150879	-0.03841723	3.791627e-09	-5.006125e-09
	3.591497e-09	-1.274632e-08	0.01521025	0.004471048	3.791627e-09	-5.006124e-09	-0.02219017	-0.03803847
9e+07	-0.02876072	-0.03603223	-1.439545e-10	-6.821287e-10	0.01579017	0.00174893	-4.835011e-10	-1.095827e-08
	-1.439545e-10	-6.821288e-10	-0.03028776	-0.03329985	-9.697786e-11	-3.561547e-10	0.01603536	0.002156821
	0.01579016	0.001748927	-9.697786e-11	-3.561546e-10	-0.02982395	-0.03384057	9.929936e-10	-5.15979e-09
	-4.835011e-10	-1.095827e-08	0.01603536	0.002156825	9.929936e-10	-5.15979e-09	-0.03039768	-0.03324269
1e+08	-0.03559181	-0.02948496	-2.685791e-10	-6.789897e-10	0.01584857	-0.000631635	-2.583529e-09	-9.037832e-09
	-2.685791e-10	-6.789897e-10	-0.03638399	-0.02652878	-1.033413e-10	-4.090051e-10	0.01606514	-0.0002708775
	0.01584857	-0.000631635	-1.033413e-10	-4.090051e-10	-0.03612614	-0.02723904	-8.760083e-10	-4.253404e-09
	-2.583529e-09	-9.037832e-09	0.01606514	-0.0002708777	-8.760083e-10	-4.253404e-09	-0.0365146	-0.02646935
1.1e+08	-0.03990155	-0.02145766	-3.360139e-10	-6.958046e-10	0.01512739	-0.002824655	-5.16211e-09	-8.660174e-09
	-3.360139e-10	-6.958046e-10	-0.04000342	-0.01869266	-7.353048e-11	-4.539466e-10	0.01531173	-0.002552955
	0.01512739	-0.002824654	-7.353048e-11	-4.539466e-10	-0.03996076	-0.0194242	-1.399767e-09	-4.450863e-09
	-5.16211e-09	-8.660174e-09	0.01531173	-0.002552955	-1.399767e-09	-4.450863e-09	-0.04014623	-0.01860707
1.2e+08	-0.04139997	-0.01293596	-3.917525e-10	-6.829352e-10	0.01370338	-0.004659634	-7.601485e-09	-7.378991e-09
	-3.917525e-10	-6.829352e-10	-0.04101841	-0.0104733	-4.318633e-11	-5.115433e-10	0.01387266	-0.004457482
	0.01370338	-0.004659634	-4.318633e-11	-5.115433e-10	-0.04113844	-0.0111746	-1.908157e-09	-4.468711e-09
	-7.601485e-09	-7.378991e-09	0.01387266	-0.004457482	-1.908157e-09	-4.468711e-09	-0.04115431	-0.01036098
1.3e+08	-0.04017991	-0.004808152	-4.252885e-10	-6.48469e-10	0.01175085	-0.005939598	-9.582018e-09	-5.244798e-09
	-4.252885e-10	-6.48469e-10	-0.03945916	-0.002710786	-1.708814e-11	-5.821555e-10	0.01190421	-0.005794791
	0.01175085	-0.005939598	-1.708814e-11	-5.821555e-10	-0.03970396	-0.003343894	-2.336839e-09	-4.316705e-09
	-9.582018e-09	-5.244798e-09	0.01190421	-0.005794791	-2.336839e-09	-4.316705e-09	-0.03957561	-0.002576812
1.4e+08	-0.03657242	0.002125061	-4.290556e-10	-6.011549e-10	0.00947926	-0.006530596	-1.080473e-08	-2.420523e-09
	-4.290556e-10	-6.011549e-10	-0.03564394	0.003827257	-2.292788e-14	-6.639706e-10	0.009612637	-0.006433367
	0.00947926	-0.006530596	-2.292909e-14	-6.639706e-10	-0.03597256	0.003289452	-2.626158e-09	-4.024742e-09
	-1.080473e-08	-2.420523e-09	0.009612637	-0.006433367	-2.626158e-09	-4.024742e-09	-0.03573236	0.003974041
1.5e+08	-0.03112667	0.007218885	-3.98871e-10	-5.545488e-10	0.007125165	-0.006370832	-1.103141e-08	8.278384e-10
	-3.98871e-10	-5.545488e-10	-0.03011247	0.008525064	4.292278e-12	-7.539842e-10	0.007233236	-0.006312164
	0.007125165	-0.006370832	4.292278e-12	-7.539842e-10	-0.03048045	0.008097821	-2.728098e-09	-3.645691e-09
	-1.103141e-08	8.278384e-10	0.007233236	-0.006312164	-2.728098e-09	-3.645691e-09	-0.03016853	0.008673521
1.6e+08	-0.02455103	0.01004046	-3.367207e-10	-5.215578e-10	0.004930493	-0.005475253	-1.011958e-08	4.154133e-09
	-3.367207e-10	-5.215578e-10	-0.02356175	0.01097602	-6.958236e-12	-8.476804e-10	0.00500756	-0.005445846
	0.004930493	-0.005475252	-6.958236e-12	-8.476804e-10	-0.02392321	0.01066172	-2.61528e-09	-3.246614e-09
	-1.011958e-08	4.154133e-09	0.00500756	-0.005445846	-2.61528e-09	-3.246614e-09	-0.02358564	0.01111424
1.7e+08	-0.01763932	0.01040389	-2.493408e-10	-5.130783e-10	0.003119296	-0.003933477	-8.049038e-09	7.166876e-09
	-2.493408e-10	-5.130783e-10	-0.01677072	0.01101752	-3.489504e-11	-9.395891e-10	0.003160033	-0.003923077
	0.003119296	-0.003933477	-3.489504e-11	-9.395891e-10	-0.01708144	0.01080527	-2.284407e-09	-2.901991e-09
	-8.049038e-09	7.166876e-09	0.003160033	-0.003923077	-2.284407e-09	-2.901991e-09	-0.01676697	0.01113438
1.8e+08	-0.01119029	0.008381107	-1.466943e-10	-5.363962e-10	0.001875692	-0.001900772	-4.935494e-09	9.472753e-09
	-1.466943e-10	-5.363962e-10	-0.01051926	0.008741035	-7.861092e-11	-1.023938e-09	0.001875957	-0.001897853
	0.001875692	-0.001900772	-7.861092e-11	-1.023938e-09	-0.01074023	0.008607182	-1.757592e-09	-2.685153e-09
	-4.935494e-09	9.472753e-09	0.001875957	-0.001897853	-1.757592e-09	-2.685153e-09	-0.01049617	0.008827587
1.9e+08	-0.005928076	0.00428761	-4.002853e-11	-5.946036e-10	0.001325256	0.0004174642	-1.028746e-09	1.072416e-08
	-4.002853e-11	-5.946036e-10	-0.00550898	0.00447683	-1.351013e-10	-1.095428e-09	0.001282926	0.0004256572
	0.001325256	0.0004174643	-1.351013e-10	-1.095428e-09	-0.005610032	0.004386623	-1.080747e-09	-2.659941e-09
	-1.028746e-09	1.072416e-08	0.001282926	0.0004256573	-1.080747e-09	-2.659941e-09	-0.005477636	0.004527418
2e+08	-0.002431417	-0.001355382	5.983123e-11	-6.870259e-10	0.00152191	0.002786562	3.306041e-09	1.0665e-08
	5.983123e-11	-6.870259e-10	-0.002293289	-0.001245021	-1.995074e-10	-1.150014e-09	0.001437668	0.002813596
	0.001521911	0.002786562	-1.995074e-10	-1.150014e-09	-0.002256233	-0.001334585	-3.194998e-10	-2.873479e-09
	3.306041e-09	1.0665e-08	0.001437668	0.002813596	-3.194998e-10	-2.873479e-09	-0.002266247	-0.001232005
2.1e+08	-0.001077826	-0.007879022	1.434734e-10	-8.102286e-10	0.002442113	0.004965208	7.622756e-09	9.168713e-09
	1.434734e-10	-8.102286e-10	-0.001223609	-0.007753218	-2.656793e-10	-1.185575e-09	0.002319965	0.005026368
	0.002442113	0.004965208	-2.656793e-10	-1.185575e-09	-0.001043908	-0.007889886	4.463527e-10	-3.351235e-09
	7.622756e-09	9.168713e-09	0.002319965	0.005026368	4.463527e-10	-3.351235e-09	-0.001213471	-0.00777506
2.2e+08	-0.002011415	-0.01453851	2.030571e-10	-9.590583e-10	0.003992092	0.00673314	1.144125e-08	6.26309e-09
	2.030571e-10	-9.590583e-10	-0.002417205	-0.01430739	-3.269344e-10	-1.202267e-09	0.003834643	0.006843567
	0.003992092	0.00673314	-3.269344e-10	-1.202267e-09	-0.00210617	-0.01453937	1.130172e-09	-4.091778e-09
	1.144125e-08	6.26309e-09	0.003834643	0.006843567	1.130172e-09	-4.091778e-09	-0.002435152	-0.01435727
2.3e+08	-0.005133068	-0.02058977	2.3192e-10	-1.12714e-09	0.006008271	0.007914001	1.430142e-08	2.137616e-09
	2.3192e-10	-1.12714e-09	-0.005749722	-0.02017614	-3.769088e-10	-1.202624e-09	0.005821682	0.008087079
	0.006008271	0.007914001	-3.769088e-10	-1.202624e-09	-0.005334832	-0.02054599	1.648002e-09	-5.065262e-09
	1.430142e-08	2.137616e-09	0.005821682	0.008087079	1.648002e-09	-5.065262e-09	-0.005804212	-0.02024381
2.4e+08	-0.01011432	-0.02536707	2.243036e-10	-1.306617e-09	0.008277253	0.008392161	1.581763e-08	-2.868267e-09
	2.243036e-10	-1.306617e-09	-0.01087292	-0.02471269	-4.104579e-10	-1.191317e-09	0.008073414	0.008639608
	0.008277253	0.008392161	-4.104579e-10	-1.191317e-09	-0.01039469	-0.02525274	1.925872e-09	-6.215886e-09
	1.581763e-08	-2.868267e-09	0.008073414	0.008639608	1.925872e-09	-6.215886e-09	-0.01096868	-0.02478558
2.5e+08	-0.0164371	-0.02834973	1.756569e-10	-1.487552e-09	0.01056105	0.008126845	1.572708e-08	-8.295032e-09
	1.756569e-10	-1.487552e-09	-0.01725523	-0.02742022	-4.243181e-10	-1.174559e-09	0.01035683	0.008456444
	0.01056106	0.008126845	-4.243181e-10	-1.174559e-09	-0.01676351	-0.02814862	1.908505e-09	-7.464267e-09
	1.572708e-08	-8.295032e-09	0.01035683	0.008456444	1.908505e-09	-7.464267e-09	-0.01739268	-0.02748473
2.6e+08	-0.02345109	-0.02921238	8.377491e-11	-1.657487e-09	0.01262266	0.007155481	1.392588e-08	-1.360808e-08
	8.377491e-11	-1.657487e-09	-0.02424039	-0.0280002	-4.17503e-10	-1.159338e-09	0.01243834	0.007569179
	0.01262266	0.007155481	-4.17503e-10	-1.159338e-09	-0.02378951	-0.02891831	1.567079e-09	-8.71343e-09
	1.392588e-08	-1.360808e-08	0.01243834	0.007569179	1.567079e-09	-8.71343e-09	-0.02441549	-0.0280432
2.7e+08	-0.03044301	-0.02785408	-4.950097e-11	-1.80186e-09	0.01425096	0.005588492	1.04887e-08	-1.825284e-08
	-4.950097e-11	-1.80186e-09	-0.03111735	-0.02637906	-3.914043e-10	-1.152594e-09	0.01410799	0.006081148
	0.01425096	0.005588492	-3.914043e-10	-1.152594e-09	-0.03076056	-0.02747059	9.052261e-10	-9.857611e-09
	1.04887e-08	-1.825284e-08	0.01410799	0.006081148	9.052261e-10	-9.857611e-09	-0.031322	-0.02638936
2.8e+08	-0.03671049	-0.02440397	-2.166484e-10	-1.90562e-09	0.01528222	0.003596459	5.6694e-09	-2.171395e-08
	-2.166484e-10	-1.90562e-09	-0.03719403	-0.02271155	-3.495858e-10	-1.160453e-09	0.01520062	0.004155456
	0.01528222	0.003596459	-3.495858e-10	-1.160453e-09	-0.03697783	-0.02394338	-3.7957e-11	-1.079339e-08
	5.6694e-09	-2.171395e-08	0.01520062	0.004155456	-3.7957e-11	-1.079339e-08	-0.03741693	-0.02268111
2.9e+08	-0.04163292	-0.01920376	-4.037408e-10	-1.955928e-09	0.01561602	0.001391399	-1.174305e-10	-2.357226e-08
	-4.037408e-10	-1.955928e-09	-0.04186739	-0.01736081	-2.973741e-10	-1.187619e-09	0.01561164	0.00199723
	0.01561602	0.001391399	-2.973741e-10	-1.187619e-09	-0.04182629	-0.01868569	-1.188953e-09	-1.143204e-08
	-1.174305e-10	-2.357226e-08	0.01561164	0.00199723	-1.188953e-09	-1.143204e-08	-0.04209518	-0.01728562
3e+08	-0.0447323	-0.01276954	-5.912592e-10	-1.945307e-09	0.01522412	-0.0007955454	-6.332434e-09	-2.35538e-08
	-5.912592e-10	-1.945307e-09	-0.04468275	-0.01085823	-2.413277e-10	-1.236947e-09	0.0153063	-0.0001677343
	0.01522412	-0.0007955454	-2.413277e-10	-1.236947e-09	-0.04483508	-0.01221903	-2.445487e-09	-1.171149e-08
	-6.332434e-09	-2.35538e-08	0.0153063	-0.0001677343	-2.445487e-09	-1.171149e-08	-0.04490144	-0.01073871
3.1e+08	-0.04571873	-0.005737459	-7.565997e-10	-1.8743e-09	0.01415207	-0.002737605	-1.236178e-08	-2.156569e-08
	-7.565997e-10	-1.8743e-09	-0.04537732	-0.003847502	-1.886564e-10	-1.309189e-09	0.01432176	-0.002115661
	0.01415207	-0.002737605	-1.886564e-10	-1.309189e-09	-0.04572249	-0.005182753	-3.686593e-09	-1.160593e-08
	-1.236178e-08	-2.156569e-08	0.01432176	-0.002115661	-3.686593e-09	-1.160593e-08	-0.04557371	-0.003688549
3.2e+08	-0.04451665	0.001201222	-8.778503e-10	-1.752686e-09	0.01251341	-0.004234783	-1.757729e-08	-1.771514e-08
	-8.778503e-10	-1.752686e-09	-0.04390386	0.002981143	-1.46623e-10	-1.402877e-09	0.01276236	-0.003646628
	0.01251341	-0.004234783	-1.46623e-10	-1.402877e-09	-0.04442155	0.001731048	-4.785992e-09	-1.113128e-08
	-1.757729e-08	-1.771514e-08	0.01276236	-0.003646628	-4.785992e-09	-1.113128e-08	-0.04406695	0.003170648
3.3e+08	-0.04126981	0.00736929	-9.379339e-10	-1.598722e-09	0.01047777	-0.005133205	-2.140097e-08	-1.230886e-08
	-9.379339e-10	-1.598722e-09	-0.04043309	0.00896019	-1.219222e-10	-1.51433e-09	0.01078858	-0.004603686
	0.01047777	-0.005133205	-1.219222e-10	-1.51433e-09	-0.0410844	0.007846705	-5.626952e-09	-1.034556e-08
	-2.140097e-08	-1.230886e-08	0.01078858	-0.004603686	-5.626952e-09	-1.034556e-08	-0.04055523	0.009168271
3.4e+08	-0.03632501	0.01217046	-9.280134e-10	-1.436402e-09	0.008253713	-0.005339832	-2.336795e-08	-5.832114e-09
	-9.280134e-10	-1.436402e-09	-0.03533481	0.01351104	-1.200265e-10	-1.637789e-09	0.008601098	-0.004887711
	0.008253713	-0.005339832	-1.200265e-10	-1.637789e-09	-0.03606541	0.01257173	-6.116475e-09	-9.343655e-09
	-2.336795e-08	-5.832114e-09	0.008601098	-0.004887711	-6.116475e-09	-9.343655e-09	-0.03541254	0.01372383
3.5e+08	-0.03019637	0.01514778	-8.49217e-10	-1.291396e-09	0.006068155	-0.00483138	-2.318135e-08	1.092053e-09
	-8.49217e-10	-1.291396e-09	-0.02913982	0.01620095	-1.445166e-10	-1.76577e-09	0.006421081	-0.004466812
	0.006068155	-0.00483138	-1.445166e-10	-1.76577e-09	-0.02988485	0.01545493	-6.196692e-09	-8.247367e-09
	-2.318135e-08	1.092053e-09	0.006421081	-0.004466812	-6.196692e-09	-8.247367e-09	-0.02917426	0.01640411
3.6e+08	-0.02351345	0.01602819	-7.122383e-10	-1.186686e-09	0.004143942	-0.003656652	-2.075297e-08	7.760453e-09
	-7.122383e-10	-1.186686e-09	-0.02248624	0.01678537	-1.964727e-10	-1.889649e-09	0.004468618	-0.003379472
	0.004143942	-0.003656652	-1.964727e-10	-1.889649e-09	-0.02317657	0.0162305	-5.851951e-09	-7.19218e-09
	-2.075297e-08	7.760453e-09	0.004468618	-0.003379472	-5.851951e-09	-7.19218e-09	-0.02248306	0.01696559
3.7e+08	-0.01695834	0.01474894	-5.350025e-10	-1.139059e-09	0.002677635	-0.001931972	-1.622433e-08	1.345962e-08
	-5.350025e-10	-1.139059e-09	-0.01605546	0.0152318	-2.740474e-10	-2.00052e-09	0.002940961	-0.001731013
	0.002677635	-0.001931972	-2.740474e-10	-2.00052e-09	-0.01662463	0.01484386	-5.110837e-09	-6.312665e-09
	-1.622433e-08	1.345962e-08	0.002940961	-0.001731013	-5.110837e-09	-6.312665e-09	-0.01602436	0.01537817
3.8e+08	-0.01119743	0.01146322	-3.391738e-10	-1.157252e-09	0.001819523	0.0001700877	-9.964199e-09	1.754117e-08
	-3.391738e-10	-1.157252e-09	-0.01050376	0.01172237	-3.723589e-10	-2.090243e-09	0.001992664	0.000316528
	0.001819523	0.0001700877	-3.723589e-10	-2.090243e-09	-0.01089496	0.01145663	-4.043285e-09	-5.728461e-09
	-9.964199e-09	1.754117e-08	0.001992664	0.000316528	-4.043285e-09	-5.728461e-09	-0.01045748	0.01182759
3.9e+08	-0.006814857	0.006524325	-1.465816e-10	-1.242003e-09	0.001657915	0.00243787	-2.541119e-09	1.949451e-08
	-1.465816e-10	-1.242003e-09	-0.006396393	0.006635117	-4.838012e-10	-2.152545e-09	0.001719631	0.002560403
	0.001657915	0.00243787	-4.838012e-10	-2.152545e-09	-0.006568776	0.006430028	-2.753598e-09	-5.532354e-09
	-2.541119e-09	1.949451e-08	0.001719631	0.002560403	-2.753598e-09	-5.532354e-09	-0.00634947	0.006696315
4e+08	-0.004254093	0.0004496351	2.345425e-11	-1.387601e-09	0.002209516	0.004642178	5.327743e-09	1.900852e-08
	2.345425e-11	-1.387601e-09	-0.004150826	0.0005053342	-5.987916e-10	-2.18398e-09	0.002148877	0.004777662
	0.002209516	0.004642178	-5.987916e-10	-2.18398e-09	-0.004084417	0.0002881663	-1.370571e-09	-5.781362e-09
	5.327743e-09	1.900852e-08	0.002148877	0.004777662	-1.370571e-09	-5.781362e-09	-0.004118053	0.0005244408
4.1e+08	-0.003773795	-0.006131953	1.553745e-10	-1.584047e-09	0.003417198	0.006560077	1.284682e-08	1.601397e-08
	1.553745e-10	-1.584047e-09	-0.003994999	-0.006029031	-7.068773e-10	-2.184565e-09	0.003235365	0.006748137
	0.003417198	0.006560077	-7.068773e-10	-2.184565e-09	-0.003693624	-0.006335136	-3.587945e-11	-6.491163e-09
	1.284682e-08	1.601397e-08	0.003235365	0.006748137	-3.587945e-11	-6.491163e-09	-0.003989882	-0.006045406
4.2e+08	-0.005422561	-0.01254385	2.373238e-10	-1.818888e-09	0.005155673	0.007998365	1.922415e-08	1.070104e-08
	2.373238e-10	-1.818888e-09	-0.005945076	-0.01229237	-7.980382e-10	-2.157942e-09	0.004866512	0.008277433
	0.005155673	0.007998365	-7.980382e-10	-2.157942e-09	-0.00543692	-0.01276064	1.108363e-09	-7.633828e-09
	1.922415e-08	1.070104e-08	0.004866512	0.008277433	1.108363e-09	-7.633828e-09	-0.005978379	-0.01233357
4.3e+08	-0.009035205	-0.01813016	2.604564e-10	-2.078075e-09	0.007244625	0.008814035	2.375598e-08	3.508602e-09
	2.604564e-10	-2.078075e-09	-0.009804973	-0.01763998	-8.639754e-10	-2.11103e-09	0.006874021	0.009217281
	0.007244625	0.008814035	-8.639754e-10	-2.11103e-09	-0.009140619	-0.01833235	1.932259e-09	-9.138792e-09
	2.375598e-08	3.508602e-09	0.006874021	0.009217281	1.932259e-09	-9.138792e-09	-0.009883533	-0.01769239
4.4e+08	-0.01425084	-0.02232152	2.184949e-10	-2.34581e-09	0.009467899	0.008929294	2.590411e-08	-4.913954e-09
	2.184949e-10	-2.34581e-09	-0.01518763	-0.02152302	-8.991718e-10	-2.053215e-09	0.009051774	0.009480876
	0.009467899	0.008929294	-8.991718e-10	-2.053215e-09	-0.01443569	-0.02248332	2.330481e-09	-1.089709e-08
	2.590411e-08	-4.913954e-09	0.009051774	0.009480876	2.330481e-09	-1.089709e-08	-0.01531358	-0.02157143
4.5e+08	-0.02055063	-0.02469141	1.082394e-10	-2.603943e-09	0.0115965	0.008339392	2.535724e-08	-1.376849e-08
	1.082394e-10	-2.603943e-09	-0.02155553	-0.02354294	-9.015564e-10	-1.995202e-09	0.01117767	0.009051452
	0.0115965	0.008339392	-9.015564e-10	-1.995202e-09	-0.02079628	-0.02479177	2.233666e-09	-1.276908e-08
	2.535724e-08	-1.376849e-08	0.01117767	0.009051452	2.233666e-09	-1.276908e-08	-0.02172606	-0.02357219
4.6e+08	-0.02731108	-0.02499753	-7.102042e-11	-2.833251e-09	0.01341273	0.007112463	2.206281e-08	-2.218333e-08
	-7.102042e-11	-2.833251e-09	-0.02827605	-0.02349012	-8.730333e-10	-1.947374e-09	0.01303684	0.00798321
	0.01341273	0.007112463	-8.730333e-10	-1.947374e-09	-0.02759358	-0.02502196	1.615846e-09	-1.459737e-08
	2.206281e-08	-2.218333e-08	0.01303684	0.00798321	1.615846e-09	-1.459737e-08	-0.0284836	-0.02348673
4.7e+08	-0.03386693	-0.02320382	-3.10292e-10	-3.010618e-09	0.01473266	0.005381567	1.625987e-08	-2.930649e-08
