!$
! Info: Touchstone file created by Circ.  Input file=Tx_14in_Rx_85ohms_TxVia_10mils_RxVia_20mils.circ
!$
# Hz S RI R 50
0	0.01125852	8.804445e-26	-7.528063e-05	1.383573e-25	8.795493e-05	1.194963e-23	-7.530598e-05	2.929754e-24
	-7.528065e-05	1.402528e-25	0.01125916	1.232961e-25	-7.527296e-05	3.148917e-26	8.604754e-05	1.601404e-23
	8.665464e-05	1.164331e-23	-7.527296e-05	3.165282e-26	0.01127369	9.217312e-26	-7.528247e-05	3.271475e-25
	-7.530597e-05	2.928174e-24	8.750275e-05	1.648228e-23	-7.528244e-05	3.238392e-25	0.01126472	1.175534e-25
1e+07	0.01376029	-0.01382989	-0.0001594987	-2.708143e-05	0.0005502106	0.002442265	-1.161138e-05	-2.178053e-06
	-0.0001594987	-2.708143e-05	0.0137946	-0.01383891	-4.441449e-05	0.000116175	0.0005464651	0.00244979
	0.0005501667	0.002442269	-4.441449e-05	0.000116175	0.0138222	-0.01381443	-0.0001595175	-2.708644e-05
	-1.161138e-05	-2.178052e-06	0.0005464979	0.002449778	-0.0001595175	-2.708644e-05	0.01376532	-0.01382895
2e+07	0.01118978	-0.03089262	-0.0001421153	3.900172e-05	0.001646812	0.004569319	-1.162366e-05	-2.145635e-05
	-0.0001421153	3.900172e-05	0.0111795	-0.0309157	-3.756976e-05	0.0001558086	0.001633159	0.004588022
	0.001646803	0.004569348	-3.756976e-05	0.0001558086	0.01124258	-0.03087763	-0.000142135	3.892565e-05
	-1.162366e-05	-2.145635e-05	0.001633155	0.004588	-0.000142135	3.892565e-05	0.01116208	-0.0308828
3e+07	0.002439531	-0.04755617	-0.0001383923	4.108109e-05	0.003276324	0.006255418	-2.922094e-05	-2.202172e-05
	-0.0001383923	4.108109e-05	0.00237163	-0.04756382	-5.282979e-06	0.000179166	0.003248783	0.006291484
	0.003276325	0.006255422	-5.282978e-06	0.000179166	0.002487238	-0.04753038	-0.0001384335	4.095837e-05
	-2.922094e-05	-2.202172e-05	0.003248778	0.006291482	-0.0001384335	4.095837e-05	0.002364101	-0.04751902
4e+07	-0.01110202	-0.06119785	-0.0001346838	4.95875e-05	0.00528435	0.007376256	-4.298207e-05	-1.54219e-05
	-0.0001346838	4.95875e-05	-0.01123365	-0.06116367	3.743289e-05	0.0001771952	0.005241852	0.007437425
	0.005284346	0.007376254	3.743289e-05	0.0001771952	-0.01105675	-0.06115876	-0.0001347641	4.940994e-05
	-4.298207e-05	-1.54219e-05	0.005241852	0.007437427	-0.0001347641	4.940994e-05	-0.01123406	-0.06111166
5e+07	-0.0280256	-0.07050304	-0.0001298965	6.115732e-05	0.007484402	0.007858423	-5.306871e-05	-4.452984e-06
	-0.0001298965	6.115732e-05	-0.02821773	-0.07040004	7.669666e-05	0.0001491086	0.007429303	0.007952842
	0.0074844	0.007858423	7.669666e-05	0.0001491086	-0.02798052	-0.0704496	-0.0001300428	6.092614e-05
	-5.306871e-05	-4.452984e-06	0.007429303	0.007952842	-0.0001300428	6.092614e-05	-0.02821392	-0.07034115
6e+07	-0.04679162	-0.07473408	-0.0001232098	7.430651e-05	0.009681157	0.007688436	-5.924755e-05	9.545557e-06
	-0.0001232098	7.430651e-05	-0.04703135	-0.07453746	0.00010003	9.93544e-05	0.009619239	0.007823274
	0.009681162	0.007688434	0.00010003	9.93544e-05	-0.04674463	-0.07466585	-0.0001234527	7.403608e-05
	-5.924755e-05	9.545556e-06	0.009619236	0.007823275	-0.0001234527	7.403608e-05	-0.04702426	-0.0744709
7e+07	-0.06581462	-0.07365768	-0.0001141318	8.791034e-05	0.01169026	0.00691001	-6.111692e-05	2.557074e-05
	-0.0001141318	8.791034e-05	-0.06608041	-0.07334812	9.792848e-05	3.679513e-05	0.01163021	0.007090219
	0.01169027	0.006910001	9.792848e-05	3.679513e-05	-0.06576356	-0.07357466	-0.0001144987	8.763001e-05
	-6.111692e-05	2.557074e-05	0.0116302	0.007090222	-0.0001144987	8.763001e-05	-0.06607022	-0.07327323
8e+07	-0.08357573	-0.06750242	-0.0001025154	0.0001009676	0.01335413	0.005615223	-5.818409e-05	4.265015e-05
	-0.0001025154	0.0001009676	-0.08383958	-0.06706873	6.502273e-05	-2.684349e-05	0.01330663	0.005842567
	0.01335414	0.005615211	6.502273e-05	-2.684349e-05	-0.08351832	-0.06740508	-0.0001030233	0.0001007204
	-5.818409e-05	4.265015e-05	0.01330662	0.005842572	-0.0001030233	0.0001007204	-0.08382614	-0.06698461
9e+07	-0.09872987	-0.05690068	-8.853004e-05	0.0001126119	0.01455296	0.00393224	-4.979825e-05	5.974132e-05
	-8.853004e-05	0.0001126119	-0.09896031	-0.05634164	7.577793e-08	-7.894172e-05	0.01452954	0.004204642
	0.01455296	0.00393223	7.577717e-08	-7.894172e-05	-0.09866373	-0.05679008	-8.917978e-05	0.0001124499
	-4.979825e-05	5.974132e-05	0.01452954	0.004204646	-8.917978e-05	0.0001124499	-0.09894262	-0.05624716
1e+08	-0.1101976	-0.04281254	-7.261194e-05	0.0001221865	0.01521325	0.002012582	-3.362628e-05	7.586179e-05
	-7.261194e-05	0.0001221865	-0.1103628	-0.04213763	-0.0001002663	-0.0001088876	0.01522496	0.002323859
	0.01521325	0.002012582	-0.0001002663	-0.0001088876	-0.1101201	-0.04269036	-7.338556e-05	0.0001221646
	-3.362628e-05	7.586179e-05	0.01522496	0.002323859	-7.338556e-05	0.0001221646	-0.110339	-0.04203217
1.1e+08	-0.1172158	-0.02642034	-5.548784e-05	0.0001291782	0.01529869	-2.448235e-06	-1.304602e-05	7.976801e-05
	-5.548784e-05	0.0001291782	-0.1172879	-0.0256496	-0.0002089506	-0.000133787	0.01535417	0.0003373117
	0.01529869	-2.448133e-06	-0.0002089506	-0.000133787	-0.1171252	-0.02629185	-5.634355e-05	0.0001293437
	-1.304602e-05	7.976801e-05	0.01535417	0.0003373116	-5.634355e-05	0.0001293437	-0.1172551	-0.02553351
1.2e+08	-0.1193728	-0.009058163	-3.75576e-05	0.0001333579	0.01480434	-0.001938148	4.232007e-06	7.947223e-05
	-3.75576e-05	0.0001333579	-0.1193311	-0.008221703	-0.0003106475	-0.0001184076	0.01490968	-0.001582912
	0.01480434	-0.001938148	-0.0003106475	-0.0001184076	-0.1192697	-0.008925959	-3.843568e-05	0.000133739
	4.232007e-06	7.947223e-05	0.01490968	-0.001582912	-3.843568e-05	0.000133739	-0.1192859	-0.008097183
1.3e+08	-0.1166535	0.007899903	-1.950787e-05	0.0001347089	0.01378452	-0.003643219	1.832933e-05	7.63758e-05
	-1.950787e-05	0.0001347089	-0.1164869	0.008765528	-0.0004011917	-6.6747e-05	0.01394148	-0.00328781
	0.01378452	-0.003643219	-0.0004011917	-6.6747e-05	-0.1165381	0.008032917	-2.034075e-05	0.0001353118
	1.832933e-05	7.63758e-05	0.01394148	-0.00328781	-2.034075e-05	0.0001353118	-0.1164273	0.008894945
1.4e+08	-0.1094065	0.02314342	-1.907607e-06	0.000133389	0.01232506	-0.004987412	2.576981e-05	7.294398e-05
	-1.907607e-06	0.000133389	-0.1091159	0.02399831	-0.0004708671	1.525794e-05	0.01253041	-0.004647933
	0.01232506	-0.004987412	-0.0004708671	1.525794e-05	-0.10928	0.02327389	-2.630057e-06	0.000134194
	2.576981e-05	7.294398e-05	0.01253041	-0.004647933	-2.630057e-06	0.000134194	-0.1090409	0.02412816
1.5e+08	-0.09831552	0.03551489	1.468867e-05	0.000129678	0.01054099	-0.005866834	3.31296e-05	6.865589e-05
	1.468867e-05	0.000129678	-0.09791433	0.03631952	-0.0005117554	0.0001185854	0.01078626	-0.005558529
	0.01054099	-0.005866834	-0.0005117554	0.0001185854	-0.09817992	0.03563934	1.413011e-05	0.0001306444
	3.31296e-05	6.865589e-05	0.01078626	-0.005558529	1.413011e-05	0.0001306444	-0.0978247	0.03644486
1.6e+08	-0.08434683	0.0440901	2.992717e-05	0.0001239982	0.008570684	-0.006210082	4.013878e-05	6.349029e-05
	2.992717e-05	0.0001239982	-0.08386107	0.04480927	-0.0005194188	0.0002321055	0.00884249	-0.005945652
	0.008570684	-0.006210082	-0.0005194188	0.0002321055	-0.0842055	0.0442054	2.956653e-05	0.0001250694
	4.013878e-05	6.349029e-05	0.00884249	-0.005945652	2.956653e-05	0.0001250694	-0.08375927	0.04492524
1.7e+08	-0.06867895	0.04824432	4.362657e-05	0.0001168199	0.006568252	-0.005983905	4.658145e-05	5.749095e-05
	4.362657e-05	0.0001168199	-0.06814572	0.04885102	-0.0004936155	0.0003440845	0.006849129	-0.005771953
	0.006568252	-0.005983905	-0.0004936155	0.0003440845	-0.06853647	0.04834824	4.347335e-05	0.000117933
	4.658145e-05	5.749095e-05	0.006849129	-0.005771953	4.347335e-05	0.000117933	-0.06803588	0.04895347
1.8e+08	-0.05261611	0.04769994	5.578092e-05	0.0001085932	0.004693971	-0.005197707	5.228497e-05	5.074681e-05
	5.578092e-05	0.0001085932	-0.05208097	0.04817879	-0.0004382618	0.0004438414	0.004963681	-0.005041456
	0.004693971	-0.005197707	-0.0004382618	0.0004438414	-0.05247795	0.04779159	5.581953e-05	0.0001096899
	5.228497e-05	5.074681e-05	0.004963681	-0.005041456	5.581953e-05	0.0001096899	-0.0519687	0.04826482
1.9e+08	-0.03749002	0.04255094	6.653471e-05	9.967887e-05	0.003102575	-0.003905797	5.711591e-05	4.337838e-05
	6.653471e-05	9.967887e-05	-0.03700333	0.04290073	-0.0003606998	0.0005232704	0.003339808	-0.003802238
	0.003102575	-0.003905797	-0.0003606998	0.0005232704	-0.03736211	0.04263115	6.672891e-05	0.0001007163
	5.711591e-05	4.337838e-05	0.003339808	-0.003802238	6.672891e-05	0.0001007163	-0.03689525	0.04296924
2e+08	-0.02455561	0.03326005	7.612734e-05	9.029278e-05	0.00193004	-0.002206153	6.097832e-05	3.552647e-05
	7.612734e-05	9.029278e-05	-0.02416805	0.03349523	-0.0002703846	0.0005779551	0.002114364	-0.002145744
	0.00193004	-0.002206153	-0.0002703846	0.0005779551	-0.02444374	0.03333151	7.642926e-05	9.125137e-05
	6.097832e-05	3.552647e-05	0.002114364	-0.002145744	7.642926e-05	9.125137e-05	-0.02407127	0.0335472
2.1e+08	-0.01488872	0.02062602	8.481384e-05	8.047872e-05	0.001280168	-0.0002346964	6.381214e-05	2.734296e-05
	8.481384e-05	8.047872e-05	-0.01464642	0.02077672	-0.0001771997	0.0006076577	0.00139405	-0.0002016683
	0.001280168	-0.0002346963	-0.0001771997	0.0006076577	-0.01479794	0.02069328	8.517608e-05	8.136526e-05
	6.381214e-05	2.734296e-05	0.00139405	-0.0002016683	8.517608e-05	8.136526e-05	-0.01456777	0.02081539
2.2e+08	-0.009295123	0.005721202	9.277774e-05	7.012306e-05	0.001212875	0.001845293	6.559106e-05	1.898203e-05
	9.277774e-05	7.012306e-05	-0.009234769	0.005831614	-8.970142e-05	0.0006160554	0.001243581	0.001871995
	0.001212875	0.001845293	-8.970142e-05	0.0006160554	-0.009229171	0.005790385	9.316606e-05	7.096821e-05
	6.559106e-05	1.898203e-05	0.001243581	0.001871995	9.316606e-05	7.096821e-05	-0.009180115	0.005862414
2.3e+08	-0.008240682	-0.01019709	0.0001000591	5.901215e-05	0.001736297	0.003857977	6.63189e-05	1.059238e-05
	0.0001000591	5.901215e-05	-0.008385208	-0.01007173	-1.362823e-05	0.0006097501	0.00167747	0.003903177
	0.001736297	0.003857977	-1.362823e-05	0.0006097501	-0.00820147	-0.01011868	0.0001004631	5.986197e-05
	6.63189e-05	1.059238e-05	0.00167747	0.003903177	0.0001004631	5.986197e-05	-0.008358757	-0.01004156
2.4e+08	-0.01181097	-0.02579364	0.0001065198	4.692028e-05	0.002804454	0.005632308	6.602456e-05	2.311412e-06
	0.0001065198	4.692028e-05	-0.0121663	-0.02559152	4.902744e-05	0.0005967276	0.0026572	0.005722612
	0.002804454	0.005632308	4.902744e-05	0.0005967276	-0.01179825	-0.02569808	0.0001069589	4.782335e-05
	6.602456e-05	2.311412e-06	0.0026572	0.005722612	0.0001069589	4.782335e-05	-0.01217002	-0.02555341
2.5e+08	-0.01970568	-0.0397705	0.0001118576	3.370504e-05	0.004321326	0.007019491	6.475524e-05	-5.739273e-06
	0.0001118576	3.370504e-05	-0.02025894	-0.03942857	0.0001001712	0.0005845686	0.004094665	0.007181005
	0.004321326	0.007019491	0.0001001712	0.0005845686	-0.01971685	-0.03964993	0.0001123804	3.469771e-05
	6.475524e-05	-5.739273e-06	0.004094665	0.007181005	0.0001123804	3.469771e-05	-0.02029218	-0.03937339
2.6e+08	-0.03126872	-0.050978	0.0001156665	1.938285e-05	0.006150949	0.007907923	6.256966e-05	-1.345465e-05
	0.0001156665	1.938285e-05	-0.03198822	-0.05043782	0.0001449733	0.0005787859	0.005861559	0.008163875
	0.006150949	0.007907923	0.0001449733	0.0005787859	-0.03129891	-0.05082531	0.000116344	2.047562e-05
	6.256966e-05	-1.345465e-05	0.005861559	0.008163875	0.000116344	2.047562e-05	-0.03204755	-0.05035668
2.7e+08	-0.04555055	-0.05851013	0.0001175258	4.163994e-06	0.008132003	0.008233406	5.95319e-05	-2.074462e-05
	0.0001175258	4.163994e-06	-0.04638751	-0.05772347	0.0001905747	0.0005816261	0.007803244	0.008601892
	0.008132003	0.008233406	0.0001905747	0.0005816261	-0.0455928	-0.05831961	0.0001184383	5.332034e-06
	5.95319e-05	-2.074462e-05	0.007803244	0.008601892	0.0001184383	5.332034e-06	-0.04646687	-0.05760856
2.8e+08	-0.06139489	-0.06177481	0.0001170929	-1.156051e-05	0.01009453	0.007983407	5.570817e-05	-2.753021e-05
	0.0001170929	-1.156051e-05	-0.06228693	-0.06070862	0.0002444388	0.0005915589	0.009754813	0.008475485
	0.01009453	0.007983407	0.0002444388	0.0005915589	-0.06144063	-0.06154276	0.0001183134	-1.038047e-05
	5.570817e-05	-2.753021e-05	0.009754813	0.008475485	0.0001183134	-1.038047e-05	-0.06237797	-0.06055403
2.9e+08	-0.07753992	-0.0605338	0.0001141739	-2.727223e-05	0.01187628	0.007195346	5.116576e-05	-3.373961e-05
	0.0001141739	-2.727223e-05	-0.07841591	-0.0591739	0.0003126673	0.0006035303	0.0115569	0.00781366
	0.01187628	0.007195346	0.0003126673	0.0006035303	-0.07757953	-0.06025897	0.000115752	-2.617775e-05
	5.116576e-05	-3.373961e-05	0.0115569	0.00781366	0.000115752	-2.617775e-05	-0.07850863	-0.05897624
3e+08	-0.09272327	-0.05491057	0.0001087601	-4.240102e-05	0.0133366	0.005949924	4.597445e-05	-3.930526e-05
	0.0001087601	-4.240102e-05	-0.09350911	-0.05326383	0.0003986117	0.0006099025	0.01306923	0.006687997
	0.0133366	0.005949924	0.0003986117	0.0006099025	-0.09274682	-0.05459446	0.0001107076	-4.151295e-05
	4.597445e-05	-3.930526e-05	0.01306923	0.006687997	0.0001107076	-4.151295e-05	-0.09359262	-0.05302271
3.1e+08	-0.105781	-0.04536863	0.0001009916	-5.636762e-05	0.01436656	0.004361161	4.02095e-05	-4.416277e-05
	0.0001009916	-5.636762e-05	-0.1064059	-0.04346333	0.000504368	0.0005952228	0.01418055	0.005203459
	0.01436656	0.004361161	0.000504368	0.0005952228	-0.1057791	-0.04501556	0.0001032731	-5.581501e-05
	4.02095e-05	-4.416277e-05	0.01418055	0.005203459	0.0001032731	-5.581501e-05	-0.1064693	-0.04318151
3.2e+08	-0.1157335	-0.03266495	9.116856e-05	-6.866578e-05	0.01489502	0.002564963	3.395432e-05	-4.825201e-05
	9.116856e-05	-6.866578e-05	-0.1161359	-0.03054934	0.0006245204	0.0005435207	0.01481481	0.003487722
	0.01489502	0.002564963	0.0006245204	0.0005435207	-0.1156978	-0.03228188	9.369863e-05	-6.856687e-05
	3.395432e-05	-4.825201e-05	0.01481481	0.003487722	9.369863e-05	-6.856687e-05	-0.1161693	-0.0302327
3.3e+08	-0.1218522	-0.01778466	7.979731e-05	-7.902432e-05	0.01489088	0.0007076818	2.730039e-05	-5.152101e-05
	7.979731e-05	-7.902432e-05	-0.1219856	-0.01552379	0.0007450543	0.0004618636	0.01493376	0.001680474
	0.01489088	0.0007076818	0.0007450543	0.0004618636	-0.1217766	-0.0173808	8.245249e-05	-7.946558e-05
	2.730039e-05	-5.152101e-05	0.01493376	0.001680474	8.245249e-05	-7.946558e-05	-0.121981	-0.01518102
3.4e+08	-0.1237068	-0.001863371	6.736769e-05	-8.725498e-05	0.01436265	-0.00106435	2.034674e-05	-5.392615e-05
	6.736769e-05	-8.725498e-05	-0.1235441	0.0004654699	0.0008562111	0.000347711	0.0145369	-7.643396e-05
	0.01436265	-0.00106435	0.0008562111	0.000347711	-0.1235878	-0.001449625	6.999628e-05	-8.82784e-05
	2.034674e-05	-5.392615e-05	0.0145369	-7.643396e-05	6.999628e-05	-8.82784e-05	-0.1234959	0.0008234811
3.5e+08	-0.1211895	0.01389722	5.437545e-05	-9.332031e-05	0.01335581	-0.002613994	1.320002e-05	-5.543723e-05
	5.437545e-05	-9.332031e-05	-0.120726	0.01621022	0.0009473041	0.0002022953	0.01365962	-0.001647693
	0.01335581	-0.002613994	0.0009473041	0.0002022953	-0.1210264	0.01430896	5.681592e-05	-9.491563e-05
	1.320002e-05	-5.543723e-05	0.01365962	-0.001647693	5.681592e-05	-9.491563e-05	-0.120632	0.01657119
3.6e+08	-0.1145183	0.02831534	4.127533e-05	-9.73213e-05	0.01194902	-0.003821243	5.971058e-06	-5.603693e-05
	4.127533e-05	-9.73213e-05	-0.1137733	0.03052872	0.001008217	3.074668e-05	0.01237013	-0.002912203
	0.01194902	-0.003821243	0.001008217	3.074668e-05	-0.114314	0.02871314	4.337633e-05	-9.942428e-05
	5.971058e-06	-5.603693e-05	0.01237013	-0.002912203	4.337633e-05	-9.942428e-05	-0.1136347	0.03087985
3.7e+08	-0.1042195	0.04031275	2.844091e-05	-9.947288e-05	0.0102492	-0.004590221	-1.226913e-06	-5.572093e-05
	2.844091e-05	-9.947288e-05	-0.103236	0.04234954	0.001030844	-0.0001583175	0.01076535	-0.003770023
	0.0102492	-0.004590221	0.001030844	-0.0001583175	-0.1039804	0.04068557	3.008089e-05	-0.0001019726
	-1.226913e-06	-5.572093e-05	0.01076535	-0.003770023	3.008089e-05	-0.0001019726	-0.1030578	0.04267858
3.8e+08	-0.09109128	0.04899175	1.613227e-05	-0.0001000695	0.008385507	-0.004855435	-8.279477e-06	-5.449844e-05
	1.613227e-05	-0.0001000695	-0.08993353	0.05078837	0.001010288	-0.0003537247	0.008965788	-0.004148809
	0.008385507	-0.004855435	0.001010288	-0.0003537247	-0.09082653	0.0493304	1.72351e-05	-0.0001028227
	-8.279477e-06	-5.449844e-05	0.008965788	-0.004148809	1.72351e-05	-0.0001028227	-0.08972403	0.05108461
3.9e+08	-0.07614736	0.05370156	4.474519e-06	-9.94391e-05	0.006501875	-0.004587195	-1.5072e-05	-5.239253e-05
	4.474519e-06	-9.94391e-05	-0.07489687	0.0552138	0.0009456275	-0.0005430716	0.007108817	-0.004009651
	0.006501875	-0.004587195	0.0009456275	-0.0005430716	-0.07586884	0.05399958	5.018381e-06	-0.0001022898
	-1.5072e-05	-5.239253e-05	0.007108817	-0.004009651	5.018381e-06	-0.0001022898	-0.07466739	0.05546905
4e+08	-0.06054581	0.05408987	-6.546413e-06	-9.788732e-05	0.004747801	-0.00379571	-2.149066e-05	-4.944098e-05
	-6.546413e-06	-9.788732e-05	-0.05929555	0.05529753	0.0008401504	-0.0007142649	0.005340117	-0.0033518
	0.004747801	-0.00379571	0.0008401504	-0.0007142649	-0.06026708	0.05434422	-6.528673e-06	-0.000100689
	-2.149066e-05	-4.944098e-05	0.005340117	-0.0033518	-6.528673e-06	-0.000100689	-0.05905962	0.05550697
4.1e+08	-0.04550389	0.05013487	-1.706444e-05	-9.563961e-05	0.003267408	-0.002533012	-2.742406e-05	-4.56978e-05
	-1.706444e-05	-9.563961e-05	-0.04435119	0.05104477	0.0007009645	-0.0008570648	0.003803197	-0.002215413
	0.003267408	-0.002533012	0.0007009645	-0.0008570648	-0.04523923	0.0503464	-1.749402e-05	-9.827579e-05
	-2.742406e-05	-4.56978e-05	0.003803197	-0.002215413	-1.749402e-05	-9.827579e-05	-0.04412358	0.05120753
4.2e+08	-0.03220482	0.04215359	-2.728699e-05	-9.279173e-05	0.00218723	-0.0008916951	-3.276617e-05	-4.123468e-05
	-2.728699e-05	-9.279173e-05	-0.03124352	0.04280048	0.0005380318	-0.0009643814	0.002627406	-0.0006812233
	0.00218723	-0.0008916951	0.0005380318	-0.0009643814	-0.0319681	0.04232722	-2.805591e-05	-9.519164e-05
	-3.276617e-05	-4.123468e-05	0.002627406	-0.0006812233	-2.805591e-05	-9.519164e-05	-0.03103901	0.04291995
4.3e+08	-0.02170298	0.03078354	-3.742566e-05	-8.928421e-05	0.001603887	0.001000378	-3.742054e-05	-3.614165e-05
	-3.742566e-05	-8.928421e-05	-0.02101531	0.03122866	0.0003627461	-0.001033097	0.001915548	0.001133751
	0.001603887	0.001000378	0.0003627461	-0.001033097	-0.0215065	0.03092809	-3.841892e-05	-9.143001e-05
	-3.742054e-05	-3.614165e-05	0.001915548	0.001133751	-3.841892e-05	-9.143001e-05	-0.02084751	0.0313125
4.4e+08	-0.01483584	0.01693672	-4.761684e-05	-8.491233e-05	0.001573262	0.002989727	-4.130535e-05	-3.05259e-05
	-4.761684e-05	-8.491233e-05	-0.01448487	0.017264	0.000186278	-0.001064248	0.001732707	0.003084893
	0.001573262	0.002989727	0.000186278	-0.001064248	-0.01468919	0.0170644	-4.873601e-05	-8.68363e-05
	-4.130535e-05	-3.05259e-05	0.001732707	0.003084893	-4.873601e-05	-8.68363e-05	-0.01436496	0.01732367
4.5e+08	-0.01215152	0.001728098	-5.785219e-05	-7.937605e-05	0.002103043	0.004910761	-4.435825e-05	-2.45085e-05
	-5.785219e-05	-7.937605e-05	-0.01217484	0.002038064	1.798487e-05	-0.001062506	0.002098159	0.005012646
	0.002103043	0.004910761	1.798487e-05	-0.001062506	-0.01206066	0.001853649	-5.903585e-05	-8.11476e-05
	-4.435825e-05	-2.45085e-05	0.002098159	0.005012646	-5.903585e-05	-8.11476e-05	-0.01211048	0.00208807
4.6e+08	-0.0138601	-0.01361602	-6.793974e-05	-7.236158e-05	0.003150221	0.00660175	-4.653977e-05	-1.821911e-05
	-6.793974e-05	-7.236158e-05	-0.0142655	-0.01321404	-0.000135819	-0.001035041	0.002981986	0.006757842
	0.003150221	0.00660175	-0.000135819	-0.001035041	-0.0138267	-0.0134764	-6.917652e-05	-7.406629e-05
	-4.653977e-05	-1.821911e-05	0.002981986	0.006757842	-6.917652e-05	-7.406629e-05	-0.01426	-0.01315723
4.7e+08	-0.01981496	-0.02786114	-7.75097e-05	-6.363533e-05	0.00462441	0.007921135	-4.783422e-05	-1.178979e-05
	-7.75097e-05	-6.363533e-05	-0.02057852	-0.02725798	-0.0002724809	-0.0009899789	0.004307351	0.008177644
	0.00462441	0.007921135	-0.0002724809	-0.0009899789	-0.01983605	-0.02769108	-7.884085e-05	-6.534998e-05
	-4.783422e-05	-1.178979e-05	0.004307351	0.008177644	-7.884085e-05	-6.534998e-05	-0.02063037	-0.02717727
