!$
! Info: Touchstone file created by Circ.  Input file=Tx_12in_Rx_85ohms_TxVia_10mils_RxVia_20mils.circ
!$
# Hz S RI R 50
0	0.009682205	9.304976e-26	9.550261e-13	1.909204e-28	7.811573e-05	1.214684e-23	-4.698325e-09	5.752008e-25
	9.566341e-13	1.91107e-28	0.009685047	1.077643e-25	-3.385254e-12	3.766158e-28	7.554672e-05	1.376315e-23
	7.816342e-05	1.215394e-23	-3.434032e-12	3.825657e-28	0.009697003	9.329574e-26	-1.287513e-09	1.575627e-25
	-4.696194e-09	5.749397e-25	7.700253e-05	1.416558e-23	-1.287558e-09	1.575683e-25	0.009690623	1.027553e-25
1e+07	0.0121506	-0.01183326	-1.996908e-12	-5.386189e-12	0.0003424053	0.002144039	-6.757352e-09	1.722424e-08
	-1.996879e-12	-5.386463e-12	0.01213795	-0.01163588	-3.487438e-12	-6.104709e-12	0.0004293516	0.002135564
	0.0003424095	0.002144036	-3.487435e-12	-6.104457e-12	0.0137636	-0.01153121	-4.381525e-09	1.63869e-08
	-6.757352e-09	1.722424e-08	0.0004293843	0.002135553	-4.381525e-09	1.63869e-08	0.01211481	-0.01162768
2e+07	0.01061098	-0.02655346	-3.987546e-12	-7.539353e-12	0.001147313	0.004143775	-2.963496e-09	1.473318e-08
	-3.987737e-12	-7.539467e-12	0.01078521	-0.02624268	-4.078221e-12	-1.091186e-11	0.001254163	0.004053356
	0.001147312	0.004143772	-4.078056e-12	-1.091172e-11	0.0122286	-0.02666644	-4.512164e-09	1.374333e-08
	-2.963496e-09	1.473318e-08	0.00125416	0.004053334	-4.512164e-09	1.374333e-08	0.01077136	-0.02621468
3e+07	0.00434384	-0.04136698	-7.639753e-12	-7.274943e-12	0.002455558	0.005783996	4.896407e-10	1.277288e-08
	-7.639783e-12	-7.274915e-12	0.004641166	-0.04105182	-1.020168e-11	-1.18077e-11	0.002499232	0.005680724
	0.002455558	0.005783995	-1.020165e-11	-1.180772e-11	0.005932638	-0.04171625	5.173312e-10	1.330326e-08
	4.896407e-10	1.277288e-08	0.002499227	0.005680722	5.173312e-10	1.330326e-08	0.004635033	-0.04101298
4e+07	-0.005760248	-0.05435663	-1.017459e-11	-5.223579e-12	0.004094405	0.007022035	3.116107e-09	1.093183e-08
	-1.017456e-11	-5.223591e-12	-0.005385095	-0.05406921	-1.25344e-11	-1.042671e-11	0.004077995	0.00692982
	0.004094405	0.007022034	-1.253443e-11	-1.042669e-11	-0.004236084	-0.05490949	4.103719e-09	1.153953e-08
	3.116107e-09	1.093183e-08	0.004077995	0.006929821	4.103719e-09	1.153953e-08	-0.005385762	-0.05402368
5e+07	-0.01886386	-0.06453727	-1.166635e-11	-3.130433e-12	0.005952169	0.007798661	5.288959e-09	9.374214e-09
	-1.166634e-11	-3.130447e-12	-0.01844749	-0.06428825	-1.365493e-11	-9.927578e-12	0.005881109	0.007736061
	0.00595217	0.00779866	-1.365494e-11	-9.927562e-12	-0.01743641	-0.06527106	6.499529e-09	1.019613e-08
	5.288959e-09	9.374214e-09	0.005881108	0.007736062	6.499529e-09	1.019613e-08	-0.01844549	-0.06423638
6e+07	-0.03404714	-0.07126069	-1.485364e-11	-1.607123e-12	0.00790517	0.008083424	7.850489e-09	8.180615e-09
	-1.485363e-11	-1.607092e-12	-0.03361871	-0.07104889	-1.639316e-11	-1.259078e-11	0.007787941	0.008065927
	0.007905171	0.008083424	-1.639317e-11	-1.259082e-11	-0.03274429	-0.07215244	8.106479e-09	1.097866e-08
	7.850489e-09	8.180615e-09	0.007787938	0.008065928	8.106479e-09	1.097866e-08	-0.03361516	-0.07098986
7e+07	-0.05032668	-0.07415951	-3.073284e-11	6.419448e-12	0.009828239	0.007877971	1.42268e-08	6.873959e-09
	-3.073275e-11	6.419535e-12	-0.04990821	-0.07397698	4.835244e-12	-2.177604e-11	0.009676296	0.007918109
	0.009828241	0.007877971	4.83527e-12	-2.177616e-11	-0.04917184	-0.07518433	1.966542e-09	1.629332e-08
	1.42268e-08	6.873958e-09	0.009676291	0.007918112	1.966543e-09	1.629332e-08	-0.04990363	-0.07391007
8e+07	-0.06670306	-0.07313034	1.197531e-10	5.270616e-10	0.01160371	0.00721454	-1.970265e-09	-3.37865e-08
	1.197532e-10	5.270613e-10	-0.0663103	-0.0729661	-2.819307e-11	1.243931e-11	0.01143114	0.00732161
	0.01160371	0.00721454	-2.819303e-11	1.243927e-11	-0.06571537	-0.07426182	-3.915255e-09	5.135419e-09
	-1.970265e-09	-3.37865e-08	0.01143113	0.007321615	-3.915255e-09	5.135419e-09	-0.06630507	-0.07289029
9e+07	-0.08221332	-0.06831611	-8.742698e-11	-1.434956e-11	0.01312878	0.006151855	-2.846606e-09	-1.743773e-09
	-8.742701e-11	-1.434963e-11	-0.08185813	-0.06815945	-3.348463e-11	-9.88695e-12	0.01295194	0.006331659
	0.01312879	0.006151855	-3.348463e-11	-9.886944e-12	-0.08140896	-0.06952748	-1.112977e-09	1.200068e-09
	-2.846606e-09	-1.743774e-09	0.01295194	0.006331663	-1.112977e-09	1.200068e-09	-0.08185206	-0.06807316
1e+08	-0.09597388	-0.0600775	-2.210516e-11	1.312928e-11	0.0143213	0.004769597	-1.688617e-11	2.54129e-11
	-2.210516e-11	1.312928e-11	-0.09567729	-0.05992517	-3.44864e-11	-1.281025e-11	0.01416035	0.005025274
	0.0143213	0.004769597	-3.44864e-11	-1.281025e-11	-0.09537598	-0.06134652	-3.201553e-11	2.552743e-11
	-1.688617e-11	2.54129e-11	0.01416035	0.005025274	-3.201553e-11	2.552743e-11	-0.0956694	-0.05982681
1.1e+08	-0.1072445	-0.04903039	-1.551499e-11	1.962518e-11	0.01512147	0.003158677	-1.268911e-11	3.084124e-11
	-1.551499e-11	1.962518e-11	-0.1070215	-0.0488081	-3.343413e-11	-8.860052e-12	0.01499657	0.003474279
	0.01512147	0.003158676	-3.343413e-11	-8.860052e-12	-0.106869	-0.05027745	-2.37351e-11	3.473584e-11
	-1.268911e-11	3.084124e-11	0.01499657	0.003474279	-2.37351e-11	3.473584e-11	-0.1070091	-0.04869641
1.2e+08	-0.1154945	-0.03582021	-1.012051e-11	2.321741e-11	0.01549165	0.00142396	-7.754087e-12	3.524525e-11
	-1.012051e-11	2.321741e-11	-0.1152947	-0.03551137	-3.176828e-11	-6.890196e-12	0.01540974	0.001789227
	0.01549165	0.00142396	-3.176828e-11	-6.890196e-12	-0.115304	-0.03700726	-1.621065e-11	4.043047e-11
	-7.754087e-12	3.524525e-11	0.01540974	0.001789227	-1.621065e-11	4.043047e-11	-0.1152745	-0.03538652
1.3e+08	-0.1203186	-0.02124009	-3.912358e-12	2.549089e-11	0.01542247	-0.0003294303	-1.44425e-12	3.863939e-11
	-3.912358e-12	2.549089e-11	-0.1201093	-0.02084812	-2.940673e-11	-5.28182e-12	0.01539137	7.446199e-05
	0.01542247	-0.0003294304	-2.940673e-11	-5.28182e-12	-0.1202856	-0.02234325	-7.414671e-12	4.439292e-11
	-1.44425e-12	3.863939e-11	0.01539137	7.446198e-05	-7.414671e-12	4.439292e-11	-0.1200781	-0.02071148
1.4e+08	-0.1215223	-0.006147184	3.410509e-12	2.613601e-11	0.01492718	-0.001999382	5.895492e-12	4.057018e-11
	3.410509e-12	2.613601e-11	-0.1212785	-0.005685476	-2.627043e-11	-4.171294e-12	0.01495259	-0.001569933
	0.01492718	-0.001999382	-2.627043e-11	-4.171294e-12	-0.1216205	-0.007149591	2.930721e-12	4.609986e-11
	5.895492e-12	4.057018e-11	0.01495259	-0.001569933	2.930721e-12	4.609986e-11	-0.1212338	-0.005539503
1.5e+08	-0.1191182	0.008589545	1.140912e-11	2.502013e-11	0.01404045	-0.003490739	1.395255e-11	4.073984e-11
	1.140912e-11	2.502013e-11	-0.1188227	0.009100737	-2.251838e-11	-3.837566e-12	0.01412499	-0.00305037
	0.01404045	-0.003490739	-2.251838e-11	-3.837566e-12	-0.1193221	0.007699155	1.421006e-11	4.531524e-11
	1.395255e-11	4.073984e-11	0.01412499	-0.00305037	1.421006e-11	4.531524e-11	-0.1187625	0.009252666
1.6e+08	-0.1133191	0.02213536	1.959705e-11	2.189638e-11	0.0128163	-0.004718958	2.225129e-11	3.890053e-11
	1.959705e-11	2.189638e-11	-0.1129633	0.02267152	-1.839555e-11	-4.481758e-12	0.0129589	-0.004283077
	0.0128163	-0.004718958	-1.839555e-11	-4.481758e-12	-0.1136042	0.02136349	2.573272e-11	4.169879e-11
	2.225129e-11	3.890053e-11	0.0129589	-0.004283077	2.573272e-11	4.169879e-11	-0.1128866	0.0228253
1.7e+08	-0.1045238	0.03373272	2.742063e-11	1.66605e-11	0.01132574	-0.005613459	3.024724e-11	3.493926e-11
	2.742063e-11	1.66605e-11	-0.1041077	0.03426757	-1.420311e-11	-6.220167e-12	0.01152135	-0.005197272
	0.01132574	-0.005613459	-1.420311e-11	-6.220167e-12	-0.1048668	0.03308172	3.671504e-11	3.511347e-11
	3.024724e-11	3.493926e-11	0.01152135	-0.005197272	3.671504e-11	3.511347e-11	-0.1040147	0.0344187
1.8e+08	-0.09329393	0.04274018	3.429706e-11	9.367211e-12	0.009653937	-0.006120763	3.736283e-11	2.889608e-11
	3.429706e-11	9.367211e-12	-0.09282654	0.04324819	-1.02731e-11	-9.070866e-12	0.009893538	-0.005738223
	0.009653937	-0.006120763	-1.02731e-11	-9.070866e-12	-0.09367325	0.04220875	4.633478e-11	2.564806e-11
	3.736283e-11	2.889608e-11	0.009893538	-0.005738223	4.633478e-11	2.564806e-11	-0.09271885	0.04339208
1.9e+08	-0.08032421	0.04866605	3.965894e-11	2.36858e-13	0.00789687	-0.006207441	4.302985e-11	2.097288e-11
	3.965894e-11	2.36858e-13	-0.07982266	0.04912485	-6.937393e-12	-1.294615e-11	0.008167763	-0.005870191
	0.00789687	-0.006207441	-6.937393e-12	-1.294615e-11	-0.08072002	0.0482497	5.379457e-11	1.362605e-11
	4.302985e-11	2.097288e-11	0.008167763	-0.005870191	5.379457e-11	1.362605e-11	-0.07970316	0.04925728
2e+08	-0.06640518	0.05119541	4.300121e-11	-1.03508e-11	0.006157125	-0.005862682	4.67351e-11	1.152996e-11
	4.300121e-11	-1.03508e-11	-0.06589374	0.05158803	-4.493345e-12	-1.76548e-11	0.006443524	-0.005579073
	0.006157125	-0.005862682	-4.493345e-12	-1.76548e-11	-0.06679987	0.05088688	5.838884e-11	-4.036117e-13
	4.67351e-11	1.152996e-11	0.006443524	-0.005579073	5.838884e-11	-4.036117e-13	-0.06576658	0.0517055
2.1e+08	-0.05238048	0.0502089	4.392614e-11	-2.187638e-11	0.004538851	-0.005100181	4.806521e-11	1.069306e-12
	4.392614e-11	-2.187638e-11	-0.05188886	0.05052571	-3.170398e-12	-2.291623e-11	0.004822727	-0.00487445
	0.004538851	-0.005100181	-3.170398e-12	-2.291623e-11	-0.05275889	0.04999861	5.95681e-11	-1.569543e-11
	4.806521e-11	1.069306e-12	0.004822727	-0.00487445	5.95681e-11	-1.569543e-11	-0.05175923	0.05062581
2.2e+08	-0.03909973	0.04579165	4.218176e-11	-3.371394e-11	0.003141833	-0.003958921	4.674605e-11	-9.795487e-12
	4.218176e-11	-3.371394e-11	-0.03866091	0.0460318	-3.102462e-12	-2.838631e-11	0.003403994	-0.003790585
	0.003141833	-0.003958921	-3.102462e-12	-2.838631e-11	-0.0394494	0.04566818	5.699388e-11	-3.135543e-11
	4.674605e-11	-9.795487e-12	0.003403994	-0.003790585	5.699388e-11	-3.135543e-11	-0.03853476	0.04611351
2.3e+08	-0.02736928	0.03823094	3.768961e-11	-4.517475e-11	0.002055011	-0.002502388	4.267255e-11	-2.038054e-11
	3.768961e-11	-4.517475e-11	-0.02701701	0.03840322	-4.310852e-12	-3.369207e-11	0.002276342	-0.002385923
	0.002055011	-0.002502388	-4.310852e-12	-3.369207e-11	-0.02768069	0.03818157	5.057789e-11	-4.640501e-11
	4.267255e-11	-2.038054e-11	0.002276342	-0.002385923	5.057789e-11	-4.640501e-11	-0.02690066	0.03846713
2.4e+08	-0.01790379	0.02800172	3.055867e-11	-5.555822e-11	0.00134992	-0.0008158717	3.59258e-11	-2.998105e-11
	3.055867e-11	-5.555822e-11	-0.01766986	0.02812478	-6.700748e-12	-3.847054e-11	0.001512707	-0.0007407357
	0.00134992	-0.0008158717	-6.700748e-12	-3.847054e-11	-0.01817042	0.02801302	4.050113e-11	-5.985514e-11
	3.59258e-11	-2.998105e-11	0.001512707	-0.0007407357	4.050113e-11	-5.985514e-11	-0.01756953	0.02817316
2.5e+08	-0.01128173	0.0157399	2.108313e-11	-6.420522e-11	0.001074753	0.0009982761	2.677419e-11	-3.792455e-11
	2.108313e-11	-6.420522e-11	-0.0111932	0.01584162	-1.007172e-11	-4.240606e-11	0.001164015	0.001047281
	0.001074753	0.0009982761	-1.007172e-11	-4.240606e-11	-0.01150009	0.01579836	2.720893e-11	-7.078401e-11
	2.677419e-11	-3.792455e-11	0.001164015	0.001047281	2.720893e-11	-7.078401e-11	-0.01111456	0.01587847
2.6e+08	-0.007908424	0.002204438	9.724581e-12	-7.054838e-11	0.001249827	0.002827285	1.5658e-11	-4.362224e-11
	9.724581e-12	-7.054838e-11	-0.007985065	0.002320616	-1.414038e-11	-4.526067e-11	0.001254535	0.002869283
	0.001249827	0.002827285	-1.414038e-11	-4.526067e-11	-0.00807791	0.002297098	1.138296e-11	-7.840971e-11
	1.5658e-11	-4.362224e-11	0.001254535	0.002869283	1.138296e-11	-7.840971e-11	-0.007932789	0.002351481
2.7e+08	-0.007989812	-0.01176965	-2.919966e-12	-7.415423e-11	0.001865138	0.004555999	3.161476e-12	-4.661315e-11
	-2.919966e-12	-7.415423e-11	-0.008241897	-0.01159731	-1.857119e-11	-4.689384e-11	0.001779243	0.00461299
	0.001865138	0.004555999	-1.857119e-11	-4.689384e-11	-0.008112386	-0.0116546	-6.107574e-12	-8.215046e-11
	3.161476e-12	-4.661315e-11	0.001779243	0.00461299	-6.107574e-12	-8.215046e-11	-0.008219211	-0.01156563
2.8e+08	-0.0115193	-0.02532401	-1.616e-11	-7.475358e-11	0.002880501	0.006075531	-1.002794e-11	-4.659807e-11
	-1.616e-11	-7.475358e-11	-0.01194601	-0.02505056	-2.301037e-11	-4.727006e-11	0.002703671	0.006171064
	0.002880501	0.006075531	-2.301037e-11	-4.727006e-11	-0.01159905	-0.02519675	-2.426925e-11	-8.166685e-11
	-1.002794e-11	-4.659807e-11	0.002703671	0.006171064	-2.426925e-11	-8.166685e-11	-0.01195437	-0.02501038
2.9e+08	-0.01827915	-0.03763155	-2.925911e-11	-7.225758e-11	0.004228402	0.007291571	-2.316704e-11	-4.345933e-11
	-2.925911e-11	-7.225758e-11	-0.01886774	-0.03721179	-2.711847e-11	-4.645468e-11	0.003966397	0.007449238
	0.004228402	0.007291571	-2.711847e-11	-4.645468e-11	-0.01832174	-0.03750029	-4.205554e-11	-7.688213e-11
	-2.316704e-11	-4.345933e-11	0.003966397	0.007449238	-4.205554e-11	-7.688213e-11	-0.01890658	-0.03715504
3e+08	-0.02785632	-0.0479485	-4.14829e-11	-6.675964e-11	0.005819297	0.008131426	-3.550613e-11	-3.726616e-11
	-4.14829e-11	-6.675964e-11	-0.02858207	-0.04734024	-3.059774e-11	-4.460038e-11	0.005483938	0.008373262
	0.005819297	0.008131426	-3.059774e-11	-4.460038e-11	-0.0278684	-0.04781927	-5.843742e-11	-6.798117e-11
	-3.550613e-11	-3.726616e-11	0.005483938	0.008373262	-5.843742e-11	-6.798117e-11	-0.02864874	-0.04725896
3.1e+08	-0.03967134	-0.05565997	-5.213755e-11	-5.852224e-11	0.007548756	0.008549	-4.633586e-11	-2.826678e-11
	-5.213755e-11	-5.852224e-11	-0.04049842	-0.05482721	-3.319713e-11	-4.192026e-11	0.007157468	0.008893914
	0.007548756	0.008549	-3.319713e-11	-4.192026e-11	-0.03965989	-0.05553664	-7.246726e-11	-5.539071e-11
	-4.633586e-11	-2.826678e-11	0.007157468	0.008893914	-7.246726e-11	-5.539071e-11	-0.04058823	-0.05471412
3.2e+08	-0.05301752	-0.06031567	-6.061028e-11	-4.796486e-11	0.009305583	0.00852728	-5.502781e-11	-1.686913e-11
	-6.061028e-11	-4.796486e-11	-0.05390072	-0.05923151	-3.473417e-11	-3.868856e-11	0.008880526	0.008989634
	0.009305583	0.00852728	-3.473417e-11	-3.868856e-11	-0.05298933	-0.06020011	-8.33313e-11	-3.974566e-11
	-5.502781e-11	-1.686913e-11	0.008880526	0.008989634	-8.33313e-11	-3.974566e-11	-0.0540071	-0.05908055
3.3e+08	-0.06710719	-0.06165367	-6.642164e-11	-3.563905e-11	0.01097999	0.008078251	-6.106686e-11	-3.613914e-12
	-6.642164e-11	-3.563905e-11	-0.06799437	-0.06030264	-3.515782e-11	-3.521219e-11	0.01054683	0.008666684
	0.01097999	0.008078251	-3.515782e-11	-3.521219e-11	-0.06706839	-0.06154605	-9.03899e-11	-2.184741e-11
	-6.106686e-11	-3.613914e-12	0.01054683	0.008666684	-9.03899e-11	-2.184741e-11	-0.06810924	-0.06010948
3.4e+08	-0.08112109	-0.05961116	-6.921716e-11	-2.21824e-11	0.01247099	0.007240519	-6.4074e-11	1.085615e-11
	-6.921716e-11	-2.21824e-11	-0.08195621	-0.05799098	-3.446493e-11	-3.176203e-11	0.01205739	0.007957117
	0.01247099	0.007240519	-3.446493e-11	-3.176203e-11	-0.08107685	-0.05951036	-9.318817e-11	-2.621407e-12
	-6.4074e-11	1.085615e-11	0.01205739	0.007957117	-9.318817e-11	-2.621407e-12	-0.08207044	-0.05775338
3.5e+08	-0.09425743	-0.05432254	-6.879202e-11	-8.295372e-12	0.0136924	0.006075176	-6.382545e-11	2.583132e-11
	-6.879202e-11	-8.295372e-12	-0.09498393	-0.05244496	-3.270528e-11	-2.860199e-11	0.01332634	0.006915048
	0.0136924	0.006075176	-3.270528e-11	-2.860199e-11	-0.09421176	-0.05422653	-9.151292e-11	1.69346e-11
	-6.382545e-11	2.583132e-11	0.01332634	0.006915048	-9.151292e-11	1.69346e-11	-0.09508787	-0.05216296
3.6e+08	-0.1057773	-0.04610599	-6.509843e-11	5.29155e-12	0.01457721	0.004660576	-6.025746e-11	4.056847e-11
	-6.509843e-11	5.29155e-12	-0.1063417	-0.04399686	-2.998199e-11	-2.597576e-11	0.01428517	0.005611872
	0.01457721	0.004660576	-2.998199e-11	-2.597576e-11	-0.105733	-0.04601227	-8.537415e-11	3.580418e-11
	-6.025746e-11	4.056847e-11	0.01428517	0.005611872	-8.537415e-11	3.580418e-11	-0.1064258	-0.04367289
3.7e+08	-0.1150445	-0.03544049	-5.824703e-11	1.784935e-11	0.01508007	0.003086664	-5.346866e-11	5.432389e-11
	-5.824703e-11	1.784935e-11	-0.1153999	-0.03313879	-2.644094e-11	-2.408921e-11	0.01488535	0.00413104
	0.01508007	0.003086664	-2.644094e-11	-2.408921e-11	-0.1150033	-0.03534645	-7.499336e-11	5.299037e-11
	-5.346866e-11	5.432389e-11	0.01488535	0.00413104	-7.499336e-11	5.299037e-11	-0.1154552	-0.03277765
3.8e+08	-0.1215573	-0.02293528	-4.850479e-11	2.868176e-11	0.01517842	0.001449369	-4.371748e-11	6.638542e-11
	-4.850479e-11	2.868176e-11	-0.1216666	-0.02049141	-2.226124e-11	-2.311619e-11	0.01509953	0.002562877
	0.01517842	0.001449369	-2.226124e-11	-2.311619e-11	-0.1215199	-0.02283853	-6.080429e-11	6.755774e-11
	-4.371748e-11	6.638542e-11	0.01509953	0.002562877	-6.080429e-11	6.755774e-11	-0.1216854	-0.02010007
3.9e+08	-0.1249727	-0.009294136	-3.628765e-11	3.715611e-11	0.01487223	-0.0001545832	-3.141433e-11	7.610367e-11
	-3.628765e-11	3.715611e-11	-0.1248112	-0.006767399	-1.765261e-11	-2.319817e-11	0.01492158	0.0009997686
	0.01487223	-0.0001545832	-1.765261e-11	-2.319817e-11	-0.124939	-0.009192733	-4.34395e-11	7.86733e-11
	-3.141433e-11	7.610367e-11	0.01492158	0.0009997686	-4.34395e-11	7.86733e-11	-0.1247877	-0.006354689
4e+08	-0.125121	0.004723574	-2.214799e-11	4.273369e-11	0.01418294	-0.001632288	-1.71091e-11	8.292227e-11
	-2.214799e-11	4.273369e-11	-0.1246789	0.007268141	-1.285582e-11	-2.444086e-11	0.01436583	-0.0004681542
	0.01418294	-0.001632288	-1.285582e-11	-2.444086e-11	-0.1250906	0.004831017	-2.371068e-11	8.564634e-11
	-1.71091e-11	8.292227e-11	0.01436583	-0.0004681542	-2.371068e-11	8.564634e-11	-0.1246094	0.00769203
4.1e+08	-0.1220125	0.01834335	-6.756438e-12	4.499889e-11	0.01315173	-0.002898723	-1.473304e-12	8.640724e-11
	-6.756438e-12	4.499889e-11	-0.1212959	0.02083861	-8.143509e-12	-2.690588e-11	0.01346577	-0.001756859
	0.01315173	-0.002898723	-8.143509e-12	-2.690588e-11	-0.1219846	0.01845762	-2.581623e-12	8.796689e-11
	-1.473304e-12	8.640724e-11	0.01346577	-0.001756859	-2.581623e-12	8.796689e-11	-0.1211792	0.02126264
4.2e+08	-0.1158354	0.03081588	9.122819e-12	4.368615e-11	0.01183736	-0.003880326	1.472403e-11	8.62744e-11
	9.122819e-12	4.368615e-11	-0.1148666	0.0331965	-3.817425e-12	-3.059716e-11	0.0122723	-0.002791878
	0.01183736	-0.003880326	-3.817425e-12	-3.059716e-11	-0.1158093	0.03093718	1.886758e-11	8.534119e-11
	1.472403e-11	8.62744e-11	0.0122723	-0.002791878	1.886758e-11	8.534119e-11	-0.1147042	0.0336094
4.3e+08	-0.106945	0.04145584	2.466341e-11	3.870329e-11	0.01031358	-0.004518222	3.064727e-11	8.241349e-11
	2.466341e-11	3.870329e-11	-0.1057624	0.0436623	-1.982903e-13	-3.544424e-11	0.01085166	-0.003511513
	0.01031358	-0.004518222	-1.982903e-13	-3.544424e-11	-0.1069203	0.0415839	3.948588e-11	7.772219e-11
	3.064727e-11	8.241349e-11	0.01085166	-0.003511513	3.948588e-11	7.772219e-11	-0.1055587	0.04405326
4.4e+08	-0.09584637	0.04967791	3.901501e-11	3.014906e-11	0.008666105	-0.004771131	4.543218e-11	7.490699e-11
	3.901501e-11	3.014906e-11	-0.09450246	0.05166036	2.394108e-12	-4.128682e-11	0.00928277	-0.003869855
	0.008666105	-0.004771131	2.394108e-12	-4.128682e-11	-0.09582274	0.04981213	5.810633e-11	6.533162e-11
	4.543218e-11	7.490699e-11	0.00928277	-0.003869855	5.810633e-11	6.533162e-11	-0.09426438	0.05201969
4.5e+08	-0.08316787	0.05502859	5.134785e-11	1.832277e-11	0.006988966	-0.004617943	5.823074e-11	6.404104e-11
	5.134785e-11	1.832277e-11	-0.0817273	0.05675033	3.670341e-12	-4.786612e-11	0.007654106	-0.003839549
	0.006988966	-0.004617942	3.670341e-12	-4.786612e-11	-0.08314563	0.05516815	7.361013e-11	4.867025e-11
	5.823074e-11	6.404104e-11	0.007654106	-0.003839549	7.361013e-11	4.867025e-11	-0.08146408	0.05707008
4.6e+08	-0.06962937	0.05721217	6.090184e-11	3.723167e-12	0.005380158	-0.004059755	6.826097e-11	5.030564e-11
	6.090184e-11	3.723167e-12	-0.0681654	0.05865257	3.407071e-12	-5.482823e-11	0.006059665	-0.003414147
	0.005380158	-0.004059755	3.407071e-12	-5.482823e-11	-0.0696093	0.05735628	8.499672e-11	2.851193e-11
	6.826097e-11	5.030564e-11	0.006059665	-0.003414147	8.499672e-11	2.851193e-11	-0.06788821	0.05892712
4.7e+08	-0.05600388	0.0561095	6.70376e-11	-1.296559e-11	0.00393654	-0.003121105	7.485906e-11	3.438158e-11
	6.70376e-11	-1.296559e-11	-0.05459441	0.05726604	1.483148e-12	-6.174278e-11	0.004594202	-0.002609726
	0.00393654	-0.003121105	1.483148e-12	-6.174278e-11	-0.05598725	0.05625754	9.145562e-11	5.878362e-12
