!$
! Info: Touchstone file created by Circ.  Input file=Tx_12in_Rx_93ohms_TxVia_10mils_RxVia_20mils.circ
!$
# Hz S RI R 50
0	0.0110089	9.258364e-26	9.571706e-13	1.905413e-28	7.773911e-05	1.381962e-23	-4.685746e-09	5.736617e-25
	9.587776e-13	1.907274e-28	0.01101173	1.072198e-25	-3.369946e-12	3.752677e-28	7.517067e-05	1.56603e-23
	7.778665e-05	1.382769e-23	-3.418594e-12	3.812016e-28	0.01102365	9.282828e-26	-1.284068e-09	1.57142e-25
	-4.683621e-09	5.734014e-25	7.662598e-05	1.611821e-23	-1.284114e-09	1.571475e-25	0.01101729	1.022377e-25
1e+07	0.01509086	-0.00139067	1.084883e-12	-4.811774e-12	0.0004035919	0.001971966	-6.82843e-09	1.712244e-08
	1.084912e-12	-4.812046e-12	0.01597524	-0.001563834	-6.549259e-13	-6.165656e-12	0.0004210311	0.002149318
	0.0004035961	0.001971963	-6.549241e-13	-6.165405e-12	0.01625624	-0.0008812847	-4.45384e-09	1.63093e-08
	-6.82843e-09	1.712244e-08	0.0004210641	0.002149306	-4.45384e-09	1.63093e-08	0.01566056	-0.001566417
2e+07	0.01765085	-0.006643889	2.015643e-12	-6.686872e-12	0.00120833	0.003884663	-3.123784e-09	1.46496e-08
	2.015455e-12	-6.686987e-12	0.0181564	-0.007223495	1.231106e-12	-8.404846e-12	0.001123858	0.004219488
	0.001208328	0.00388466	1.231269e-12	-8.404704e-12	0.01917688	-0.006306908	-4.650353e-09	1.364654e-08
	-3.123784e-09	1.46496e-08	0.001123855	0.004219467	-4.650353e-09	1.364654e-08	0.01792273	-0.007122657
3e+07	0.01761102	-0.01340621	-7.455698e-13	-1.004379e-11	0.0024297	0.005534768	2.664488e-10	1.274855e-08
	-7.456008e-13	-1.004376e-11	0.01779907	-0.01407658	-3.170263e-12	-1.210202e-11	0.002347245	0.005937858
	0.0024297	0.005534768	-3.170231e-12	-1.210204e-11	0.01937	-0.01332251	2.909464e-10	1.327441e-08
	2.664488e-10	1.274855e-08	0.00234724	0.005937855	2.909464e-10	1.327441e-08	0.01762537	-0.01395754
4e+07	0.01546776	-0.02018386	-4.64326e-12	-1.261744e-11	0.003994638	0.006832935	2.860594e-09	1.098801e-08
	-4.643228e-12	-1.261746e-11	0.01537826	-0.02083241	-6.437604e-12	-1.453803e-11	0.003972555	0.007255147
	0.003994638	0.006832934	-6.437639e-12	-1.453802e-11	0.01735451	-0.02040852	3.836915e-09	1.161042e-08
	2.860594e-09	1.098801e-08	0.003972555	0.007255149	3.836915e-09	1.161042e-08	0.01524906	-0.02072042
5e+07	0.0115495	-0.02633455	-9.399538e-12	-1.438117e-11	0.005805813	0.007707882	5.024749e-09	9.524379e-09
	-9.399526e-12	-1.438119e-11	0.01122457	-0.02688549	-9.865021e-12	-1.68248e-11	0.005831158	0.008132288
	0.005805814	0.007707882	-9.865034e-12	-1.682479e-11	0.01346735	-0.02689283	6.21312e-09	1.037178e-08
	5.024749e-09	9.524379e-09	0.005831158	0.008132289	6.21312e-09	1.037178e-08	0.01112489	-0.02679186
6e+07	0.00619872	-0.03141741	-1.75055e-11	-1.609807e-11	0.007751746	0.008115384	7.595582e-09	8.454845e-09
	-1.750549e-11	-1.609804e-11	0.00568596	-0.03181488	-1.415854e-11	-2.213269e-11	0.007812346	0.008532276
	0.007751747	0.008115384	-1.415855e-11	-2.213273e-11	0.008057554	-0.03231078	7.755312e-09	1.125853e-08
	7.595582e-09	8.454845e-09	0.007812343	0.008532277	7.755312e-09	1.125853e-08	0.005602959	-0.03174438
7e+07	-0.0002053555	-0.0351228	-4.288045e-11	-1.281423e-11	0.009714588	0.008040371	1.403818e-08	7.431777e-09
	-4.288036e-11	-1.281414e-11	-0.0008526085	-0.03532653	1.38401e-11	-3.074506e-11	0.00979911	0.008444462
	0.00971459	0.008040371	1.384013e-11	-3.074518e-11	0.001511713	-0.03633305	1.348814e-09	1.642279e-08
	1.403818e-08	7.431776e-09	0.009799105	0.008444465	1.348815e-09	1.642279e-08	-0.0009305489	-0.03528034
8e+07	-0.00725406	-0.03725619	7.128394e-11	5.656605e-10	0.01157782	0.007497314	-5.58885e-10	-3.411098e-08
	7.128404e-11	5.656602e-10	-0.007977562	-0.03724018	-2.29328e-11	1.437375e-11	0.0116755	0.007885997
	0.01157782	0.007497313	-2.293276e-11	1.43737e-11	-0.005753421	-0.03874926	-4.163166e-09	5.03588e-09
	-5.588849e-10	-3.411098e-08	0.0116755	0.007886001	-4.163165e-09	5.035879e-09	-0.008061178	-0.0372163
9e+07	-0.01452572	-0.0377324	-9.433456e-11	-1.490522e-11	0.01323431	0.006529035	-2.789497e-09	-1.891824e-09
	-9.433458e-11	-1.490529e-11	-0.01526253	-0.03748394	-3.122164e-11	-5.749795e-12	0.01333363	0.006900796
	0.01323431	0.006529034	-3.122165e-11	-5.749789e-12	-0.0133098	-0.03946262	-1.174462e-09	1.16016e-09
	-2.789497e-09	-1.891824e-09	0.01333362	0.0069008	-1.174462e-09	1.16016e-09	-0.01536131	-0.03747755
1e+08	-0.02159961	-0.03656837	-3.20936e-11	1.515294e-11	0.01460187	0.005207351	-1.693673e-11	2.138075e-11
	-3.20936e-11	1.515294e-11	-0.0222695	-0.03608235	-3.210629e-11	-8.25012e-12	0.01467961	0.005556093
	0.01460187	0.005207351	-3.210629e-11	-8.25012e-12	-0.0207566	-0.03849098	-3.517744e-11	2.373661e-11
	-1.693673e-11	2.138075e-11	0.01467961	0.005556093	-3.517744e-11	2.373661e-11	-0.02239389	-0.03608778
1.1e+08	-0.02809687	-0.03393353	-2.449809e-11	2.41747e-11	0.01556621	0.003652593	-1.266829e-11	2.671488e-11
	-2.449809e-11	2.41747e-11	-0.02863707	-0.0333045	-3.013798e-11	-3.318343e-12	0.01563713	0.003942337
	0.01556621	0.003652593	-3.013798e-11	-3.318343e-12	-0.02767745	-0.03583586	-2.69228e-11	3.388053e-11
	-1.266829e-11	2.671488e-11	0.01563713	0.003942336	-2.69228e-11	3.388053e-11	-0.0287914	-0.03329863
1.2e+08	-0.03372004	-0.02997484	-1.683207e-11	2.941905e-11	0.016082	0.001911556	-7.224383e-12	3.075815e-11
	-1.683207e-11	2.941905e-11	-0.03414169	-0.029239	-2.732255e-11	4.497607e-14	0.01616077	0.002162117
	0.016082	0.001911556	-2.732255e-11	4.497607e-14	-0.03363121	-0.03177323	-1.832479e-11	4.02459e-11
	-7.224383e-12	3.075815e-11	0.01616077	0.002162117	-1.832479e-11	4.02459e-11	-0.03431455	-0.02921261
1.3e+08	-0.03818176	-0.02495383	-9.595621e-12	3.196638e-11	0.01613735	0.0001035328	-1.923606e-12	3.336885e-11
	-9.595621e-12	3.196638e-11	-0.03848009	-0.02413809	-2.392889e-11	1.60371e-12	0.01622646	0.0003237228
	0.01613735	0.0001035328	-2.392889e-11	1.60371e-12	-0.03836079	-0.02659969	-9.759945e-12	4.391965e-11
	-1.923606e-12	3.336885e-11	0.01622646	0.0003237228	-9.759945e-12	4.391965e-11	-0.03866277	-0.02408642
1.4e+08	-0.0412788	-0.01918933	-1.173884e-12	3.298937e-11	0.01573669	-0.001657139	4.100075e-12	3.486363e-11
	-1.173884e-12	3.298937e-11	-0.04144924	-0.0183207	-1.976145e-11	2.3562e-12	0.01583681	-0.001462341
	0.01573669	-0.001657139	-1.976145e-11	2.3562e-12	-0.04166761	-0.02065122	2.224806e-13	4.572545e-11
	4.100075e-12	3.486363e-11	0.01583681	-0.001462341	2.224806e-13	4.572545e-11	-0.04163319	-0.0182417
1.5e+08	-0.04289368	-0.01303369	8.032022e-12	3.210995e-11	0.01490944	-0.0032621	1.066484e-11	3.499423e-11
	8.032022e-12	3.210995e-11	-0.04293501	-0.01214013	-1.505897e-11	2.113018e-12	0.01502031	-0.003090135
	0.01490944	-0.0032621	-1.505897e-11	2.113018e-12	-0.04343715	-0.01429376	1.109469e-11	4.513747e-11
	1.066484e-11	3.499423e-11	0.01502031	-0.003090135	1.109469e-11	4.513747e-11	-0.04311198	-0.01203419
1.6e+08	-0.04299741	-0.00685144	1.750797e-11	2.905205e-11	0.01370876	-0.004614134	1.740949e-11	3.357506e-11
	1.750797e-11	2.905205e-11	-0.04291323	-0.00596142	-1.010919e-11	6.928537e-13	0.01382919	-0.004464107
	0.01370876	-0.004614134	-1.010919e-11	6.928537e-13	-0.04364388	-0.007903384	2.222813e-11	4.193258e-11
	1.740949e-11	3.357506e-11	0.01382919	-0.004464107	2.222813e-11	4.193258e-11	-0.04307572	-0.005831138
1.7e+08	-0.04164795	-0.0009985436	2.667253e-11	2.36898e-11	0.01220855	-0.005632116	2.393431e-11	3.05231e-11
	2.667253e-11	2.36898e-11	-0.04144758	-0.0001399708	-5.249995e-12	-1.984841e-12	0.01233627	-0.005504186
	0.01220855	-0.005632116	-5.249995e-12	-1.984841e-12	-0.04235024	-0.001845904	3.292232e-11	3.598115e-11
	2.393431e-11	3.05231e-11	0.01233627	-0.005504186	3.292232e-11	3.598115e-11	-0.04158923	1.017939e-05
1.8e+08	-0.03898441	0.004197221	3.491474e-11	1.605972e-11	0.01049913	-0.006255172	2.981756e-11	2.586138e-11
	3.491474e-11	1.605972e-11	-0.03868321	0.004998371	-8.357935e-13	-5.899168e-12	0.01063066	-0.006149965
	0.01049913	-0.006255172	-8.357935e-13	-5.899168e-12	-0.03970077	0.003542689	4.244552e-11	2.734857e-11
	2.981756e-11	2.586138e-11	0.01063066	-0.006149965	4.244552e-11	2.734857e-11	-0.03879917	0.005162392
1.9e+08	-0.03521722	0.008453735	4.163704e-11	6.364801e-12	0.008682191	-0.006445754	3.464237e-11	1.972408e-11
	4.163704e-11	6.364801e-12	-0.03483642	0.009174936	2.791459e-12	-1.092664e-11	0.008812787	-0.006363831
	0.008682191	-0.006445754	2.791459e-12	-1.092664e-11	-0.03591217	0.007973704	5.008646e-11	1.630001e-11
	3.464237e-11	1.972408e-11	0.008812787	-0.006363831	5.008646e-11	1.630001e-11	-0.03492366	0.009345767
2e+08	-0.03061446	0.01155079	4.629684e-11	-5.033949e-12	0.006851891	-0.006211034	3.802191e-11	1.235587e-11
	4.629684e-11	-5.033949e-12	-0.03018087	0.01217291	5.327417e-12	-1.68512e-11	0.006988793	-0.0061329
	0.006851891	-0.006211034	5.327417e-12	-1.68512e-11	-0.03125932	0.011222	5.520509e-11	3.290593e-12
	3.802191e-11	1.235587e-11	0.006988793	-0.0061329	5.520509e-11	3.290593e-12	-0.03023836	0.01234292
2.1e+08	-0.02548624	0.01333635	4.845449e-11	-1.763148e-11	0.005128325	-0.005538389	3.963914e-11	4.100459e-12
	4.845449e-11	-1.763148e-11	-0.02503103	0.01384837	6.542121e-12	-2.336754e-11	0.00526469	-0.005469671
	0.005128325	-0.005538389	6.542121e-12	-2.336754e-11	-0.02605947	0.01313221	5.729023e-11	-1.105393e-11
	3.963914e-11	4.100459e-12	0.00526469	-0.005469671	5.729023e-11	-1.105393e-11	-0.02505976	0.01400989
2.2e+08	-0.02016677	0.01373856	4.78025e-11	-3.081398e-11	0.003614457	-0.004466524	3.9261e-11	-4.616896e-12
	4.78025e-11	-3.081398e-11	-0.01972356	0.01413717	6.292921e-12	-3.011656e-11	0.003740432	-0.004411341
	0.003614457	-0.004466524	6.292921e-12	-3.011656e-11	-0.020654	0.01363076	5.59961e-11	-2.597851e-11
	3.9261e-11	-4.616896e-12	0.003740432	-0.004411341	5.59961e-11	-2.597851e-11	-0.01972652	0.01428299
2.3e+08	-0.01499483	0.0127672	4.419286e-11	-4.389417e-11	0.00239982	-0.003058742	3.676265e-11	-1.331143e-11
	4.419286e-11	-4.389417e-11	-0.01459788	0.01305734	4.53936e-12	-3.670873e-11	0.002504265	-0.003017768
	0.00239982	-0.003058742	4.53936e-12	-3.670873e-11	-0.01538862	0.01272716	5.117546e-11	-4.064423e-11
	3.676265e-11	-1.331143e-11	0.002504265	-0.003017768	5.117546e-11	-4.064423e-11	-0.01457985	0.01318119
2.4e+08	-0.01029453	0.01051184	3.765266e-11	-5.615399e-11	0.001556111	-0.00139794	3.214204e-11	-2.146785e-11
	3.765266e-11	-5.615399e-11	-0.009976662	0.01070683	1.347935e-12	-4.275382e-11	0.001627643	-0.001368145
	0.001556111	-0.00139794	1.347935e-12	-4.275382e-11	-0.01059393	0.0105121	4.289812e-11	-5.418226e-11
	3.214204e-11	-2.146785e-11	0.001627643	-0.001368145	4.289812e-11	-5.418226e-11	-0.009943927	0.01080382
2.5e+08	-0.00635699	0.007135643	2.838754e-11	-6.689007e-11	0.001132947	0.0004181656	2.552615e-11	-2.857235e-11
	2.838754e-11	-6.689007e-11	-0.006147514	0.007256887	-3.112254e-12	-4.789057e-11	0.001161012	0.0004434848
	0.001132947	0.0004181657	-3.112254e-12	-4.789057e-11	-0.006566812	0.007151076	3.145371e-11	-6.575143e-11
	2.552615e-11	-2.857235e-11	0.001161012	0.0004434848	3.145371e-11	-6.575143e-11	-0.006107467	0.007323833
2.6e+08	-0.003424092	0.002865102	1.677161e-11	-7.544286e-11	0.001154843	0.002282746	1.716918e-11	-3.41455e-11
	1.677161e-11	-7.544286e-11	-0.003346755	0.002941133	-8.593148e-12	-5.176942e-11	0.001130757	0.00231366
	0.001154843	0.002282746	-8.593148e-12	-5.176942e-11	-0.003554021	0.002873903	1.733916e-11	-7.459295e-11
	1.716918e-11	-3.41455e-11	0.001130757	0.00231366	1.733916e-11	-7.459295e-11	-0.003307494	0.00297679
2.7e+08	-0.001675145	-0.002023815	3.342904e-12	-8.127939e-11	0.001619656	0.004086216	7.441798e-12	-3.777412e-11
	3.342904e-12	-8.127939e-11	-0.001746457	-0.001958753	-1.473375e-11	-5.419604e-11	0.001537534	0.004135585
	0.001619656	0.004086216	-1.473375e-11	-5.419604e-11	-0.001738699	-0.00203934	1.23361e-12	-8.008456e-11
	7.441798e-12	-3.777412e-11	0.001537534	0.004135585	1.23361e-12	-8.008456e-11	-0.001716179	-0.00195354
2.8e+08	-0.001217274	-0.007222205	-1.124453e-11	-8.39947e-11	0.002498638	0.005722831	-3.187132e-12	-3.91395e-11
	-1.124453e-11	-8.39947e-11	-0.001445085	-0.007129994	-2.115175e-11	-5.504742e-11	0.002356157	0.005805495
	0.002498638	0.005722831	-2.115175e-11	-5.504742e-11	-0.001230641	-0.007275124	-1.604158e-11	-8.177991e-11
	-3.187132e-12	-3.91395e-11	0.002356157	0.005805495	-1.604158e-11	-8.177991e-11	-0.001431593	-0.007152335
2.9e+08	-0.002080081	-0.01240656	-2.624936e-11	-8.334276e-11	0.003738145	0.007097127	-1.417581e-11	-3.804023e-11
	-2.624936e-11	-8.334276e-11	-0.00246266	-0.0122474	-2.744795e-11	-5.429277e-11	0.003537076	0.007228898
	0.003738145	0.007097127	-2.744795e-11	-5.429277e-11	-0.002060925	-0.01250507	-3.356983e-11	-7.943949e-11
	-1.417581e-11	-3.804023e-11	0.003537076	0.007228898	-3.356983e-11	-7.943949e-11	-0.002472864	-0.01229251
3e+08	-0.004214863	-0.01725771	-4.088211e-11	-7.925598e-11	0.005262927	0.008129743	-2.493977e-11	-3.440804e-11
	-4.088211e-11	-7.925598e-11	-0.004740559	-0.01699255	-3.3228e-11	-5.200064e-11	0.005009387	0.008326281
	0.005262927	0.008129743	-3.3228e-11	-5.200064e-11	-0.004181143	-0.01740518	-5.039213e-11	-7.304849e-11
	-2.493977e-11	-3.440804e-11	0.005009387	0.008326281	-5.039213e-11	-7.304849e-11	-0.004780023	-0.01705403
3.1e+08	-0.007498428	-0.02147938	-5.434797e-11	-7.185316e-11	0.006980787	0.00876225	-3.48853e-11	-2.831592e-11
	-5.434797e-11	-7.185316e-11	-0.008145934	-0.02107238	-3.812579e-11	-4.83335e-11	0.006685196	0.009037871
	0.006980787	0.00876225	-3.812579e-11	-4.83335e-11	-0.007467286	-0.0216746	-6.556211e-11	-6.28213e-11
	-3.48853e-11	-2.831592e-11	0.006685196	0.009037871	-6.556211e-11	-6.28213e-11	-0.008218504	-0.02114257
3.2e+08	-0.01174118	-0.02481505	-6.589001e-11	-6.143689e-11	0.00878831	0.008960623	-4.344375e-11	-1.997735e-11
	-6.589001e-11	-6.143689e-11	-0.01248044	-0.02423596	-4.182408e-11	-4.353744e-11	0.008465023	0.009327146
	0.00878831	0.008960623	-4.182408e-11	-4.353744e-11	-0.01172797	-0.02505281	-7.819977e-11	-4.91926e-11
	-4.344375e-11	-1.997735e-11	0.008465023	0.009327146	-7.819977e-11	-4.91926e-11	-0.01258797	-0.02430644
3.3e+08	-0.01669895	-0.02706233	-7.48309e-11	-4.848184e-11	0.01057726	0.008717164	-5.01047e-11	-9.737519e-12
	-7.48309e-11	-4.848184e-11	-0.01749264	-0.02628866	-4.407194e-11	-3.79282e-11	0.0102439	0.009182854
	0.01057726	0.008717164	-4.407194e-11	-3.79282e-11	-0.01671644	-0.02733407	-8.754131e-11	-3.279667e-11
	-5.01047e-11	-9.737519e-12	0.0102439	0.009182854	-8.754131e-11	-3.279667e-11	-0.01763486	-0.02635074
3.4e+08	-0.02208782	-0.02808396	-8.061136e-11	-3.361414e-11	0.01224121	0.00805073	-5.444615e-11	1.943037e-12
	-8.061136e-11	-3.361414e-11	-0.02289336	-0.02710269	-4.46987e-11	-3.187433e-11	0.01191773	0.008619434
	0.01224121	0.00805073	-4.46987e-11	-3.187433e-11	-0.02214562	-0.02837868	-9.298301e-11	-1.443655e-11
	-5.444615e-11	1.943037e-12	0.01191773	0.008619434	-9.298301e-11	-1.443655e-11	-0.02306786	-0.02714796
3.5e+08	-0.02760096	-0.02781491	-8.282325e-11	-1.758219e-11	0.01368195	0.007005313	-5.615973e-11	1.451167e-11
	-8.282325e-11	-1.758219e-11	-0.02837295	-0.02662365	-4.362387e-11	-2.5778e-11	0.01338946	0.007675851
	0.01368195	0.007005313	-4.362387e-11	-2.5778e-11	-0.02770517	-0.02812001	-9.411661e-11	4.956067e-12
	-5.615973e-11	1.451167e-11	0.01338946	0.007675851	-9.411661e-11	4.956067e-12	-0.0285753	-0.02664449
3.6e+08	-0.0329265	-0.02626512	-8.123618e-11	-1.220613e-12	0.01481527	0.0056471	-5.507007e-11	2.735183e-11
	-8.123618e-11	-1.220613e-12	-0.03361936	-0.02487276	-4.086341e-11	-2.005425e-11	0.01457475	0.006412966
	0.01481527	0.0056471	-4.086341e-11	-2.005425e-11	-0.03307956	-0.02656742	-9.075581e-11	2.436755e-11
	-5.507007e-11	2.735183e-11	0.01457475	0.006412966	-9.075581e-11	2.436755e-11	-0.03384337	-0.02486283
3.7e+08	-0.03776536	-0.02351809	-7.58155e-11	1.459176e-11	0.01557579	0.004060261	-5.114706e-11	3.981502e-11
	-7.58155e-11	1.459176e-11	-0.03833616	-0.02194466	-3.653148e-11	-1.510912e-11	0.01540668	0.004909666
	0.01557579	0.004060261	-3.653148e-11	-1.510912e-11	-0.03796621	-0.02380467	-8.295174e-11	4.275425e-11
	-5.114706e-11	3.981502e-11	0.01540668	0.004909666	-8.295174e-11	4.275425e-11	-0.03857423	-0.0218993
3.8e+08	-0.04184805	-0.01972524	-6.673069e-11	2.897768e-11	0.01592054	0.00234176	-4.451063e-11	5.125479e-11
	-6.673069e-11	2.897768e-11	-0.04225921	-0.01800115	-3.083793e-11	-1.131732e-11	0.01583942	0.003258039
	0.01592054	0.00234176	-3.083793e-11	-1.131732e-11	-0.04209242	-0.01998431	-7.099703e-11	5.909728e-11
	-4.451063e-11	5.125479e-11	0.01583942	0.003258039	-7.099703e-11	5.909728e-11	-0.0425028	-0.01791765
3.9e+08	-0.04494957	-0.01509666	-5.435296e-11	4.110918e-11	0.01583118	0.0005955524	-3.54279e-11	6.106103e-11
	-5.435296e-11	4.110918e-11	-0.04517137	-0.01326122	-2.408102e-11	-9.000163e-12	0.0158505	0.001557911
	0.01583118	0.0005955524	-2.408102e-11	-9.000163e-12	-0.04523046	-0.01531824	-5.541756e-11	7.245791e-11
	-3.54279e-11	6.106103e-11	0.0158505	0.001557911	-5.541756e-11	7.245791e-11	-0.04541149	-0.01313907
4e+08	-0.0469016	-0.009888747	-3.924165e-11	5.025424e-11	0.01531472	-0.00107349	-2.430263e-11	6.869304e-11
	-3.924165e-11	5.025424e-11	-0.04691426	-0.007988153	-1.663506e-11	-8.404629e-12	0.0154418	-8.891255e-05
	0.01531472	-0.00107349	-1.663506e-11	-8.404629e-12	-0.04720989	-0.01006518	-3.695166e-11	8.20308e-11
	-2.430263e-11	6.869304e-11	0.0154418	-8.891255e-05	-3.695166e-11	8.20308e-11	-0.047142	-0.007829009
4.1e+08	-0.04760141	-0.004389404	-2.21195e-11	5.582001e-11	0.01440287	-0.002565568	-1.165751e-11	7.370982e-11
	-2.21195e-11	5.582001e-11	-0.04739666	-0.002474198	-8.933035e-12	-9.684645e-12	0.01463916	-0.001584391
	0.01440287	-0.002565568	-8.933035e-12	-9.684645e-12	-0.04792655	-0.004515767	-1.65171e-11	8.719246e-11
	-1.165751e-11	7.370982e-11	0.01463916	-0.001584391	-1.65171e-11	8.719246e-11	-0.04760375	-0.002281866
4.2e+08	-0.04701709	0.001098204	-3.83792e-12	5.738955e-11	0.01315004	-0.003791563	1.890153e-12	7.579595e-11
	-3.83792e-12	5.738955e-11	-0.04659909	0.002975995	-1.444149e-12	-1.288597e-11	0.01349065	-0.002839676
	0.01315004	-0.003791563	-1.444149e-12	-1.288597e-11	-0.04734787	0.001023953	4.833234e-12	8.754164e-11
	1.890153e-12	7.579595e-11	0.01349065	-0.002839676	4.833234e-12	8.754164e-11	-0.04677839	0.003195796
4.3e+08	-0.04518886	0.00627263	1.46662e-11	5.474974e-11	0.01163003	-0.004677986	1.565838e-11	7.478177e-11
	1.46662e-11	5.474974e-11	-0.04457442	0.008062566	5.353188e-12	-1.793629e-11	0.01206377	-0.003779972
	0.01163003	-0.004677986	5.353188e-12	-1.793629e-11	-0.04551412	0.006249643	2.596512e-11	8.292922e-11
	1.565838e-11	7.478177e-11	0.01206377	-0.003779972	2.596512e-11	8.292922e-11	-0.04472036	0.008302513
4.4e+08	-0.04222651	0.01085088	3.241963e-11	4.79085e-11	0.009931895	-0.005171026	2.893471e-11	7.065649e-11
	3.241963e-11	4.79085e-11	-0.04144454	0.01250717	1.100177e-11	-2.464209e-11	0.01044163	-0.004348604
	0.009931895	-0.005171026	1.100177e-11	-2.464209e-11	-0.04253585	0.01087559	4.57236e-11	7.347494e-11
	2.893471e-11	7.065649e-11	0.01044163	-0.004348604	4.57236e-11	7.347494e-11	-0.04155343	0.01275876
4.5e+08	-0.03830296	0.01458407	4.846529e-11	3.710009e-11	0.008154857	-0.005239543	4.101318e-11	6.357351e-11
	4.846529e-11	3.710009e-11	-0.03739319	0.01606845	1.509757e-11	-3.269386e-11	0.008718224	-0.004510117
	0.008154857	-0.005239543	1.509757e-11	-3.269386e-11	-0.03858736	0.01465052	6.299743e-11	5.956957e-11
	4.101318e-11	6.357351e-11	0.008718224	-0.004510117	6.299743e-11	5.956957e-11	-0.03746354	0.01632248
4.6e+08	-0.03364452	0.01727115	6.191503e-11	2.277788e-11	0.006402742	-0.004876831	5.122998e-11	5.384679e-11
	6.191503e-11	2.277788e-11	-0.03265554	0.01855545	1.732511e-11	-4.168932e-11	0.006993299	-0.00425224
	0.006402742	-0.004876831	1.732511e-11	-4.168932e-11	-0.03389687	0.01737147	7.676733e-11	4.186185e-11
	5.122998e-11	5.384679e-11	0.006993299	-0.00425224	7.676733e-11	4.186185e-11	-0.03268811	0.01880264
4.7e+08	-0.0285182	0.01877001	7.199987e-11	5.59502e-12	0.004778128	-0.004101076	5.900608e-11	4.194037e-11
	7.199987e-11	5.59502e-12	-0.02750487	0.01983817	1.747099e-11	-5.11551e-11	0.005366731	-0.003586639
	0.004778128	-0.004101076	1.747099e-11	-5.11551e-11	-0.02873363	0.01889497	8.619495e-11	2.123614e-11
