!$
! Info: Touchstone file created by Circ.  Input file=Tx_16in_Rx_100ohms_TxVia_10mils_RxVia_20mils1.circ
!$
# Hz S RI R 50
0	0.0164772	9.542916e-26	-8.50902e-05	1.244654e-25	9.611743e-05	1.713318e-23	-8.509563e-05	4.656943e-25
	-8.509021e-05	1.250661e-25	0.01647643	1.376225e-25	-8.508916e-05	-2.126902e-26	9.571141e-05	2.347463e-23
	9.422876e-05	1.689158e-23	-8.508916e-05	-2.061757e-26	0.01649072	9.929109e-26	-8.508781e-05	3.191868e-25
	-8.509561e-05	4.62521e-25	9.716467e-05	2.416102e-23	-8.508777e-05	3.149778e-25	0.01648193	1.312075e-25
1e+07	0.02313882	0.009204012	-0.000138871	-4.598276e-05	0.0006015589	0.002708841	-0.0003440534	0.0002421473
	-0.000138871	-4.598277e-05	0.02469662	0.008700877	-5.030473e-05	-1.621147e-05	0.001156418	0.002747061
	0.0006015195	0.002708866	-5.030472e-05	-1.621147e-05	0.02399421	0.008709962	-1.618484e-05	-1.90729e-05
	-0.0003440534	0.0002421473	0.001156452	0.00274705	-1.618484e-05	-1.907289e-05	0.0244743	0.008742848
2e+07	0.03186394	0.01165832	-9.584662e-05	-0.0001058341	0.001880294	0.005174836	-0.0003843865	0.00027332
	-9.584662e-05	-0.0001058341	0.03250704	0.01040951	-4.199337e-05	-1.539257e-05	0.002271685	0.005484151
	0.001880301	0.005174854	-4.199336e-05	-1.539257e-05	0.03196374	0.01067437	-1.400324e-05	6.110229e-06
	-0.0003843865	0.00027332	0.002271683	0.005484129	-1.400324e-05	6.110235e-06	0.03237484	0.01055654
3e+07	0.03886637	0.009773527	-7.772234e-05	-0.0001240707	0.003824833	0.007045559	-0.0003954233	0.0003379475
	-7.772234e-05	-0.0001240707	0.0388086	0.008486294	-3.689247e-05	-1.469269e-05	0.004106887	0.00745412
	0.00382483	0.007045559	-3.689247e-05	-1.469269e-05	0.03841459	0.008834948	-1.676669e-05	7.738175e-06
	-0.0003954233	0.0003379475	0.004106882	0.007454118	-1.676669e-05	7.738176e-06	0.03875539	0.008660828
4e+07	0.04423896	0.005555846	-0.0001353991	-7.91787e-05	0.006221862	0.008188285	-0.0003856907	0.0004064918
	-0.0001353991	-7.91787e-05	0.04365146	0.00448267	-3.282663e-05	-1.368486e-05	0.006461598	0.008643629
	0.006221857	0.008188288	-3.282663e-05	-1.368486e-05	0.04339997	0.004851344	-2.040354e-05	9.64018e-06
	-0.0003856907	0.0004064918	0.006461598	0.008643631	-2.040354e-05	9.640181e-06	0.04366603	0.004652711
5e+07	0.04778801	-0.0001961193	-0.0001689128	-1.873895e-05	0.008819268	0.008512956	-0.0003585373	0.0004723137
	-0.0001689127	-1.873895e-05	0.04684122	-0.0009183599	-2.936395e-05	-1.294451e-05	0.009199393	0.008818702
	0.008819267	0.008512958	-2.936395e-05	-1.294451e-05	0.04672063	-0.0005739417	-2.260102e-05	1.413871e-05
	-0.0003585373	0.0004723137	0.009199392	0.008818702	-2.260102e-05	1.413871e-05	0.04690914	-0.0007719793
6e+07	0.04935876	-0.006822389	-0.0001783098	4.901718e-05	0.01135167	0.008008233	-0.0003176427	0.0005308368
	-0.0001783098	4.901718e-05	0.04822458	-0.007128061	-2.630402e-05	-1.266472e-05	0.01179258	0.008151767
	0.01135167	0.00800823	-2.630402e-05	-1.266472e-05	0.04821264	-0.006843813	-2.259117e-05	2.012326e-05
	-0.0003176427	0.0005308368	0.01179258	0.008151768	-2.259117e-05	2.012326e-05	0.0483305	-0.007017477
7e+07	0.04890599	-0.01370239	-0.0001639226	0.0001171602	0.01357402	0.006725333	-0.0002679086	0.0005790243
	-0.0001639226	0.0001171603	0.04774697	-0.01358462	-2.489132e-05	-1.023769e-05	0.01399964	0.006736786
	0.01357402	0.006725328	-2.489132e-05	-1.023769e-05	0.0478142	-0.0133857	-1.995439e-05	2.635782e-05
	-0.0002679086	0.0005790243	0.01399963	0.006736788	-1.995439e-05	2.635782e-05	0.04787435	-0.01351638
8e+07	0.04651786	-0.02025321	-0.0001267094	0.0001794759	0.0152541	0.004823678	-0.0002154747	0.0006159203
	-0.0001267094	0.0001794759	0.04547707	-0.01975333	-2.501197e-05	-1.25312e-06	0.01561737	0.004734293
	0.0152541	0.004823672	-2.501197e-05	-1.25312e-06	0.04559031	-0.01965327	-1.486394e-05	3.160675e-05
	-0.0002154747	0.0006159203	0.01561736	0.004734297	-1.486394e-05	3.160675e-05	0.04560929	-0.01972801
9e+07	0.04241512	-0.02595344	-6.77812e-05	0.000230337	0.01623002	0.002512737	-0.0001679417	0.0006432082
	-6.77812e-05	0.000230337	0.04161048	-0.02515023	-2.222912e-05	7.084578e-06	0.01649984	0.002357551
	0.01623001	0.002512733	-2.222912e-05	7.084579e-06	0.04173583	-0.02515098	-8.117734e-06	3.492913e-05
	-0.0001679417	0.0006432082	0.01649984	0.002357555	-8.117733e-06	3.492913e-05	0.04173275	-0.02516283
1e+08	0.03692875	-0.03037137	1.798663e-05	0.0002637872	0.0164201	3.464775e-05	-0.000143596	0.0006661416
	1.798663e-05	0.0002637872	0.03647419	-0.02937251	-1.566976e-05	1.403638e-05	0.01656503	-0.0001467895
	0.0164201	3.464781e-05	-1.566976e-05	1.403638e-05	0.03657813	-0.02946529	-9.704649e-07	3.588222e-05
	-0.000143596	0.0006661416	0.01656503	-0.0001467896	-9.704649e-07	3.588222e-05	0.03657345	-0.02941381
1.1e+08	0.03052592	-0.03316275	9.670085e-05	0.0002441419	0.0157993	-0.002375808	-0.0001260923	0.0006411601
	9.670085e-05	0.0002441419	0.03039736	-0.03221508	-8.718318e-06	1.470937e-05	0.01584616	-0.002485102
	0.0157993	-0.002375808	-8.718318e-06	1.470937e-05	0.03045755	-0.03237267	5.506702e-06	3.342386e-05
	-0.0001260923	0.0006411601	0.01584616	-0.002485102	5.506702e-06	3.342386e-05	0.03047077	-0.03226678
1.2e+08	0.02371691	-0.03419928	0.000112447	0.0002249805	0.01443406	-0.004438565	-9.736883e-05	0.0006217006
	0.000112447	0.0002249805	0.02380501	-0.03335559	-3.41689e-06	1.446231e-05	0.0144446	-0.004473628
	0.01443406	-0.004438565	-3.41689e-06	1.446231e-05	0.02381362	-0.03355484	1.079932e-05	2.889932e-05
	-9.736883e-05	0.0006217006	0.0144446	-0.004473628	1.079932e-05	2.889932e-05	0.02385682	-0.03341011
1.3e+08	0.01699509	-0.03345818	0.0001288553	0.0002044531	0.0124843	-0.005943813	-7.104364e-05	0.000609097
	0.0001288553	0.0002044531	0.01723077	-0.03274819	8.503704e-07	1.33441e-05	0.0124924	-0.005916666
	0.0124843	-0.005943812	8.503704e-07	1.33441e-05	0.01718582	-0.03296488	1.39376e-05	2.326852e-05
	-7.104364e-05	0.000609097	0.0124924	-0.005916666	1.39376e-05	2.326852e-05	0.01726434	-0.0327992
1.4e+08	0.01084407	-0.03105677	0.0001436945	0.0001828626	0.01016003	-0.006741812	-4.634788e-05	0.0006054251
	0.0001436945	0.0001828626	0.01116712	-0.03049384	4.289549e-06	1.158618e-05	0.01018567	-0.006671846
	0.01016002	-0.006741812	4.289549e-06	1.158618e-05	0.01107477	-0.03070506	1.467245e-05	1.764799e-05
	-4.634788e-05	0.0006054251	0.01018567	-0.006671846	1.467245e-05	1.764799e-05	0.01118684	-0.03053644
1.5e+08	0.005690118	-0.02724114	0.0001562209	0.0001608729	0.007705039	-0.006756553	-1.967885e-05	0.0006115275
	0.0001562209	0.0001608729	0.006046645	-0.02682488	6.975888e-06	9.362632e-06	0.007756065	-0.006665863
	0.007705039	-0.006756553	6.975888e-06	9.362632e-06	0.005920545	-0.02701158	1.332407e-05	1.311005e-05
	-1.967885e-05	0.0006115275	0.007756065	-0.006665863	1.332407e-05	1.311005e-05	0.006057743	-0.02685583
1.6e+08	0.00186807	-0.02236375	0.0001664488	0.000139113	0.005372624	-0.005992373	1.348397e-05	0.0006263281
	0.0001664488	0.000139113	0.002210961	-0.02208189	8.949278e-06	6.819202e-06	0.005446154	-0.005901721
	0.005372624	-0.005992373	8.949278e-06	6.819202e-06	0.002070622	-0.02223118	1.067728e-05	1.044265e-05
	1.348397e-05	0.0006263281	0.005446154	-0.005901721	1.067728e-05	1.044265e-05	0.002219076	-0.02209982
1.7e+08	-0.000404253	-0.01685224	0.0001748137	0.0001179439	0.003400059	-0.004532441	5.732106e-05	0.0006467319
	0.0001748137	0.0001179439	-0.0001141047	-0.01668267	1.024039e-05	4.083248e-06	0.003484616	-0.004457914
	0.003400059	-0.004532441	1.024039e-05	4.083248e-06	-0.0002456121	-0.01678944	7.791252e-06	9.974343e-06
	5.732106e-05	0.0006467319	0.003484616	-0.004457914	7.791252e-06	9.974343e-06	-0.0001034436	-0.01668804
1.8e+08	-0.001041448	-0.0111725	0.0001818926	9.73498e-05	0.001984952	-0.002529265	0.0001146992	0.000667983
	0.0001818926	9.73498e-05	-0.0008338571	-0.01108543	1.087935e-05	1.26799e-06	0.002063258	-0.002479842
	0.001984952	-0.002529265	1.087935e-05	1.26799e-06	-0.000932664	-0.01115316	5.754564e-06	1.150387e-05
	0.0001146992	0.000667983	0.002063258	-0.002479842	5.754564e-06	1.150387e-05	-0.0008157387	-0.01108039
1.9e+08	-9.458188e-05	-0.005788992	0.0001881573	7.694651e-05	0.001265913	-0.0001882986	0.0001865188	0.0006843699
	0.0001881573	7.694651e-05	1.099884e-05	-0.0057494	1.072379e-05	-4.3218e-07	0.001318153	-0.0001645129
	0.001265913	-0.0001882985	1.072379e-05	-4.3218e-07	-3.339018e-05	-0.005790098	5.441489e-06	1.433952e-05
	0.0001865188	0.0006843699	0.001318153	-0.0001645129	5.441489e-06	1.433952e-05	4.040406e-05	-0.005737522
2e+08	0.002256417	-0.001125808	0.0001937745	5.612234e-05	0.001309494	0.002253535	0.0002714534	0.0006901173
	0.0001937745	5.612234e-05	0.002251531	-0.001096139	1.033024e-05	-1.289095e-06	0.001316714	0.002259747
	0.001309494	0.002253535	1.033024e-05	-1.289095e-06	0.002278307	-0.00112926	7.305378e-06	1.747629e-05
	0.0002714534	0.0006901173	0.001316714	0.002259747	7.305378e-06	1.747629e-05	0.002294615	-0.001081986
2.1e+08	0.005721233	0.002468028	0.000198517	3.421975e-05	0.002104611	0.004552087	0.0003661042	0.0006802886
	0.000198517	3.421975e-05	0.005608486	0.00252503	9.936199e-06	-2.156148e-06	0.002051883	0.004556386
	0.002104611	0.004552087	9.936199e-06	-2.156148e-06	0.005715836	0.002474546	1.128775e-05	1.981262e-05
	0.0003661042	0.0006802886	0.002051883	0.004556386	1.128775e-05	1.981262e-05	0.005665981	0.002536399
2.2e+08	0.009926714	0.004746142	0.0002017722	1.073289e-05	0.003564829	0.006480492	0.0004655161	0.0006515229
	0.0002017722	1.073289e-05	0.009719181	0.004864601	9.503756e-06	-3.039758e-06	0.003443823	0.006504133
	0.003564829	0.006480492	9.503756e-06	-3.039758e-06	0.009907537	0.004769024	1.683143e-05	2.038283e-05
	0.0004655161	0.0006515229	0.003443823	0.006504133	1.683143e-05	2.038283e-05	0.009790095	0.004868178
2.3e+08	0.01445091	0.005582939	0.0002026461	-1.450405e-05	0.005538054	0.00785149	0.0005639429	0.000602477
	0.0002026461	-1.450405e-05	0.01417084	0.005791183	8.997845e-06	-3.92969e-06	0.005348745	0.007918566
	0.005538054	0.00785149	8.997845e-06	-3.92969e-06	0.01443099	0.005623151	2.299772e-05	1.857507e-05
	0.0005639429	0.000602477	0.005348745	0.007918566	2.299772e-05	1.857507e-05	0.01425257	0.005782556
2.4e+08	0.01886049	0.004980893	0.0002001462	-4.120463e-05	0.007822513	0.008535431	0.000655712	0.0005339013
	0.0002001462	-4.120463e-05	0.01853733	0.005299172	8.393078e-06	-4.801262e-06	0.007573821	0.008669708
	0.007822513	0.008535431	8.393078e-06	-4.801262e-06	0.01885084	0.005034959	2.8668e-05	1.426316e-05
	0.000655712	0.0005339013	0.007573821	0.008669708	2.8668e-05	1.426316e-05	0.01862594	0.005275011
2.5e+08	0.02274819	0.003066684	0.0001933967	-6.861632e-05	0.01018729	0.008472357	0.0007360078	0.0004483527
	0.0001933967	-6.861632e-05	0.02241605	0.003505454	7.678125e-06	-5.621535e-06	0.009896597	0.008694062
	0.01018729	0.008472357	7.678125e-06	-5.621535e-06	0.02275674	0.003128003	3.278074e-05	7.833198e-06
	0.0007360078	0.0004483527	0.009896597	0.008694062	3.278074e-05	7.833198e-06	0.02250667	0.003463888
2.6e+08	0.02576709	7.673581e-05	0.0001818418	-9.560398e-05	0.01239538	0.007677133	0.0008014475	0.0003496205
	0.0001818418	-9.560398e-05	0.02546175	0.0006356886	6.857444e-06	-6.35591e-06	0.01208696	0.008000077
	0.01239538	0.007677133	6.857444e-06	-6.35591e-06	0.02579816	0.0001370252	3.455367e-05	1.014424e-07
	0.0008014475	0.0003496205	0.01208696	0.008000077	3.455367e-05	1.014424e-07	0.02554912	0.0005765278
2.7e+08	0.02765887	-0.00366628	0.0001653899	-0.0001208172	0.01422703	0.006237286	0.0008503375	0.0002419931
	0.0001653899	-0.0001208172	0.0274146	-0.002998338	5.949476e-06	-6.974906e-06	0.01392957	0.006666662
	0.01422703	0.006237286	5.949476e-06	-6.974906e-06	0.02771319	-0.003615567	3.364421e-05	-7.857338e-06
	0.0008503375	0.0002419931	0.01392957	0.006666662	3.364421e-05	-7.857338e-06	0.0274936	-0.003073545
2.8e+08	0.02827375	-0.007783787	0.0001444736	-0.0001429062	0.01550123	0.004303859	0.0008825967	0.0001295092
	0.0001444736	-0.0001429062	0.02812014	-0.007028123	4.982775e-06	-7.459002e-06	0.01524469	0.00483498
	0.01550123	0.004303859	4.982775e-06	-7.459002e-06	0.02834887	-0.007750229	3.021578e-05	-1.493408e-05
	0.0008825967	0.0001295092	0.01524469	0.00483498	3.021578e-05	-1.493408e-05	0.02818638	-0.007116212
2.9e+08	0.02758064	-0.01187576	0.0001200061	-0.0001607427	0.0160932	0.002076199	0.0008993645	1.535245e-05
	0.0001200061	-0.0001607427	0.02753976	-0.011062	3.990458e-06	-7.801317e-06	0.01590543	0.002694351
	0.0160932	0.002076199	3.990458e-06	-7.801317e-06	0.02767172	-0.01186505	2.489678e-05	-2.02141e-05
	0.0008993645	1.535245e-05	0.01590543	0.002694351	2.489678e-05	-2.02141e-05	0.02759004	-0.01115851
3e+08	0.02566688	-0.0155563	9.324737e-05	-0.000173601	0.01594655	-0.0002178785	0.0009024051	-9.850007e-05
	9.324737e-05	-0.000173601	0.02575099	-0.01471993	3.004519e-06	-8.007763e-06	0.01584986	0.0004635795
	0.01594655	-0.0002178785	3.004519e-06	-8.007763e-06	0.02576766	-0.01557166	1.864201e-05	-2.316236e-05
	0.0009024051	-9.850007e-05	0.01584986	0.0004635795	1.864201e-05	-2.316236e-05	0.0257837	-0.01481952
3.1e+08	0.02272767	-0.01848724	6.560412e-05	-0.0001812631	0.01507858	-0.002344664	0.0008934384	-0.0002113259
	6.560412e-05	-0.0001812631	0.02293776	-0.01766645	2.050948e-06	-8.095118e-06	0.01508694	-0.001630529
	0.01507858	-0.002344664	2.050948e-06	-8.095118e-06	0.02283151	-0.01852931	1.252618e-05	-2.372706e-05
	0.0008934384	-0.0002113259	0.01508694	-0.001630529	1.252618e-05	-2.372706e-05	0.02295307	-0.01776349
3.2e+08	0.01904633	-0.0204071	3.840464e-05	-0.000184024	0.01357848	-0.004087722	0.0008735381	-0.0003233822
	3.840464e-05	-0.000184024	0.01937157	-0.01963926	1.145786e-06	-8.087337e-06	0.01369537	-0.003375441
	0.01357848	-0.004087722	1.145786e-06	-8.087337e-06	0.01914718	-0.02047407	7.513427e-06	-2.233826e-05
	0.0008735381	-0.0003233822	0.01369537	-0.003375441	7.513427e-06	-2.233826e-05	0.01937149	-0.01972838
3.3e+08	0.01496711	-0.02115267	1.269526e-05	-0.0001825996	0.01159839	-0.005269411	0.000842735	-0.000435395
	1.269526e-05	-0.0001825996	0.0153855	-0.02047079	2.930158e-07	-8.010629e-06	0.01181585	-0.004593818
	0.01159839	-0.005269412	2.930158e-07	-8.010629e-06	0.01506029	-0.02124085	4.252509e-06	-1.980288e-05
	0.000842735	-0.000435395	0.01181585	-0.004593818	4.252509e-06	-1.980288e-05	0.01537365	-0.02054748
3.4e+08	0.01086306	-0.02067167	-1.089929e-05	-0.0001779543	0.009338178	-0.005768601	0.0007999015	-0.0005479283
	-1.089929e-05	-0.0001779543	0.01134302	-0.02010107	-5.153601e-07	-7.887958e-06	0.009636982	-0.005161018
	0.009338178	-0.005768601	-5.153601e-07	-7.887958e-06	0.01094575	-0.02077617	2.941667e-06	-1.711892e-05
	0.0007999015	-0.0005479283	0.009636982	-0.005161018	2.941667e-06	-1.711892e-05	0.01132438	-0.02016215
3.5e+08	0.007101723	-0.01902533	-3.222341e-05	-0.0001710867	0.007025379	-0.005532772	0.0007429521	-0.0006607543
	-3.222341e-05	-0.0001710867	0.007604788	-0.01858086	-1.296905e-06	-7.733652e-06	0.007376559	-0.005017399
	0.007025379	-0.005532772	-1.296905e-06	-7.733652e-06	0.00717323	-0.01914087	3.295394e-06	-1.524553e-05
	0.0007429521	-0.0006607543	0.007376559	-0.005017399	3.295394e-06	-1.524553e-05	0.007585125	-0.0186249
3.6e+08	0.004011889	-0.01638057	-5.153617e-05	-0.0001628193	0.004892313	-0.00458323	0.0006693176	-0.0007723823
	-5.153617e-05	-0.0001628193	0.004496089	-0.01606485	-2.06845e-06	-7.54246e-06	0.005259768	-0.00417414
	0.004892313	-0.00458323	-2.06845e-06	-7.54246e-06	0.004073493	-0.01650229	3.882845e-06	-1.543438e-05
	0.0006693176	-0.0007723823	0.005259768	-0.00417414	3.882845e-06	-1.543438e-05	0.004481426	-0.01609232
3.7e+08	0.001854284	-0.01299284	-6.936812e-05	-0.0001536382	0.003152691	-0.003012841	0.0005765815	-0.000879866
	-6.936812e-05	-0.0001536382	0.002278052	-0.0127955	-2.852593e-06	-7.309876e-06	0.003496725	-0.002711946
	0.003152691	-0.003012841	-2.852593e-06	-7.309876e-06	0.00190891	-0.01311701	4.183907e-06	-1.727102e-05
	0.0005765815	-0.000879866	0.003496725	-0.002711946	4.183907e-06	-1.727102e-05	0.002274019	-0.01280878
3.8e+08	0.0007989511	-0.009181024	-8.632241e-05	-0.0001436182	0.001980129	-0.000976496	0.0004631793	-0.000978887
	-8.632241e-05	-0.0001436182	0.001125131	-0.009079173	-3.662125e-06	-7.013241e-06	0.002261536	-0.0007727435
	0.001980129	-0.000976496	-3.662125e-06	-7.013241e-06	0.0008505766	-0.009305474	3.416261e-06	-2.040026e-05
	0.0004631793	-0.000978887	0.002261536	-0.0007727435	3.416261e-06	-2.040026e-05	0.001136373	-0.009082359
3.9e+08	0.000911318	-0.005296909	-0.0001028657	-0.0001324489	0.001490805	0.001324709	0.000328989	-0.001064161
	-0.0001028657	-0.0001324489	0.001110901	-0.005256922	-4.494375e-06	-6.621497e-06	0.001675074	0.001454771
	0.001490805	0.001324709	-4.494375e-06	-6.621497e-06	0.000964288	-0.005421297	8.718637e-07	-2.416707e-05
	0.000328989	-0.001064161	0.001675074	0.001454771	8.718637e-07	-2.416707e-05	0.001140569	-0.005255431
4e+08	0.002148158	-0.001692167	-0.0001191559	-0.000119554	0.001732032	0.003663897	0.0001757026	-0.001130071
	-0.0001191559	-0.000119554	0.002203372	-0.001672509	-5.329709e-06	-6.104575e-06	0.001793217	0.003754205
	0.001732032	0.003663897	-5.329709e-06	-6.104575e-06	0.002206481	-0.001817941	-3.776039e-06	-2.762642e-05
	0.0001757026	-0.001130071	0.001793217	0.003754205	-3.776039e-06	-2.762642e-05	0.002252765	-0.001672551
4.1e+08	0.004363682	0.001314087	-0.0001349465	-0.0001042774	0.002677871	0.005811315	6.893427e-06	-0.001171401
	-0.0001349465	-0.0001042774	0.004270097	0.001359138	-6.133372e-06	-5.441682e-06	0.002601706	0.005903186
	0.002677871	0.005811315	-6.133372e-06	-5.441682e-06	0.004430392	0.001183981	-1.037766e-05	-2.974998e-05
	6.893427e-06	-0.001171401	0.002601706	0.005903186	-1.037766e-05	-2.974998e-05	0.004338484	0.001351185
4.2e+08	0.007325	0.003464086	-0.000149587	-8.609217e-05	0.004232167	0.007557331	-0.0001722279	-0.001184042
	-0.000149587	-8.609217e-05	0.007092405	0.003580174	-6.8612e-06	-4.627777e-06	0.004018065	0.007695463
	0.004232167	0.007557331	-6.8612e-06	-4.627777e-06	0.007401679	0.003325684	-1.831582e-05	-2.965345e-05
	-0.0001722279	-0.001184042	0.004018065	0.007695463	-1.831582e-05	-2.965345e-05	0.007177054	0.003558417
4.3e+08	0.01073531	0.004583949	-0.0001621209	-6.478685e-05	0.006238574	0.008733201	-0.0003553192	-0.001165533
	-0.0001621209	-6.478685e-05	0.01038724	0.004812246	-7.467814e-06	-3.676466e-06	0.005900263	0.008961173
	0.006238574	0.008733201	-7.467814e-06	-3.676466e-06	0.01082182	0.004432891	-2.661711e-05	-2.679495e-05
	-0.0003553192	-0.001165533	0.005900263	0.008961173	-2.661711e-05	-2.679495e-05	0.01048366	0.00477189
4.4e+08	0.0142625	0.004598012	-0.0001714577	-4.058697e-05	0.00849647	0.009227559	-0.0005355847	-0.001115335
	-0.0001714577	-4.058697e-05	0.01383442	0.004971111	-7.91514e-06	-2.618655e-06	0.008061168	0.009583287
	0.00849647	0.009227559	-7.91514e-06	-2.618655e-06	0.01435695	0.00443021	-3.414076e-05	-2.110148e-05
	-0.0005355847	-0.001115335	0.008061168	0.009583287	-3.414076e-05	-2.110148e-05	0.01393678	0.004908972
4.5e+08	0.01757035	0.003533846	-0.0001765842	-1.418591e-05	0.01078108	0.008997078	-0.0007064865	-0.001034828
	-0.0001765842	-1.418591e-05	0.01710663	0.00407235	-8.179125e-06	-1.497408e-06	0.01028724	0.009508701
	0.01078108	0.008997078	-8.179125e-06	-1.497408e-06	0.01766933	0.003346111	-3.980333e-05	-1.299702e-05
	-0.0007064865	-0.001034828	0.01028724	0.009508701	-3.980333e-05	-1.299702e-05	0.01720832	0.003987213
4.6e+08	0.02034948	0.001517713	-0.0001767685	1.332279e-05	0.01286575	0.008070356	-0.000862268	-0.0009271426
	-0.0001767685	1.332279e-05	0.01989938	0.002227875	-8.253166e-06	-3.605125e-07	0.0123596	0.008752982
	0.01286575	0.008070356	-8.253166e-06	-3.605125e-07	0.02044845	0.001308271	-4.279308e-05	-3.326599e-06
	-0.000862268	-0.0009271426	0.0123596	0.008752982	-4.279308e-05	-3.326599e-06	0.01999369	0.002120655
4.7e+08	0.02234518	-0.001238919	-0.0001715163	4.044562e-05	0.01454427	0.006544764	-0.001010635	-0.0007743713
	-0.0001715163	4.044562e-05	0.02195833	-0.0003661964	-8.148644e-06	7.470483e-07	0.01407541	0.007398433
	0.01454427	0.006544764	-8.148644e-06	7.470483e-07	0.0224391	-0.001470042	-4.253656e-05	6.652775e-06
