!$
! Info: Touchstone file created by Circ.  Input file=Tx_12in_Rx_85ohms_TxVia_10mils_RxVia_20mils.circ
!$
# Hz S RI R 50
0	0.009682205	9.304976e-26	-6.473689e-05	-8.92498e-26	7.811573e-05	1.214684e-23	-6.474996e-05	1.530132e-24
	-6.47369e-05	-8.804059e-26	0.009685047	1.077643e-25	-6.47361e-05	-7.854925e-26	7.554672e-05	1.376315e-23
	7.816342e-05	1.215394e-23	-6.473608e-05	-7.980594e-26	0.009697003	9.329574e-26	-6.473753e-05	1.310749e-25
	-6.474994e-05	1.528732e-24	7.700253e-05	1.416558e-23	-6.473752e-05	1.295943e-25	0.009690623	1.027553e-25
1e+07	0.0121506	-0.01183326	-7.646036e-06	-1.61143e-05	0.0003424053	0.002144039	-4.7035e-06	-1.894296e-05
	-7.646036e-06	-1.611429e-05	0.01213795	-0.01163588	-1.137739e-05	-2.782871e-07	0.0004293516	0.002135564
	0.0003424095	0.002144036	-1.137739e-05	-2.782868e-07	0.0137636	-0.01153121	-2.484772e-05	2.989338e-06
	-4.7035e-06	-1.894296e-05	0.0004293843	0.002135553	-2.484772e-05	2.989338e-06	0.01211481	-0.01162768
2e+07	0.01061098	-0.02655346	-6.827049e-06	-5.860401e-06	0.001147313	0.004143775	-2.917215e-06	-9.819829e-06
	-6.827049e-06	-5.860401e-06	0.01078521	-0.02624268	-2.996944e-05	-1.563462e-05	0.001254163	0.004053356
	0.001147312	0.004143772	-2.996944e-05	-1.563462e-05	0.0122286	-0.02666644	-3.705848e-05	-5.70214e-06
	-2.917216e-06	-9.819828e-06	0.00125416	0.004053334	-3.705848e-05	-5.702139e-06	0.01077136	-0.02621468
3e+07	0.00434384	-0.04136698	-6.453698e-06	-3.132797e-06	0.002455558	0.005783996	-3.575814e-06	-7.449827e-06
	-6.453698e-06	-3.132797e-06	0.004641166	-0.04105182	-4.377412e-05	-1.380097e-05	0.002499232	0.005680724
	0.002455558	0.005783995	-4.377412e-05	-1.380097e-05	0.005932638	-0.04171625	-4.576586e-05	-2.415511e-06
	-3.575814e-06	-7.449827e-06	0.002499227	0.005680722	-4.576586e-05	-2.415511e-06	0.004635033	-0.04101298
4e+07	-0.005760248	-0.05435663	-6.094032e-06	-1.563943e-06	0.004094405	0.007022035	-4.953366e-06	-5.534221e-06
	-6.094032e-06	-1.563943e-06	-0.005385095	-0.05406921	-5.440783e-05	-6.63464e-06	0.004077995	0.00692982
	0.004094405	0.007022034	-5.440783e-05	-6.63464e-06	-0.004236084	-0.05490949	-5.206237e-05	4.508713e-06
	-4.953366e-06	-5.534221e-06	0.004077995	0.006929821	-5.206237e-05	4.508713e-06	-0.005385762	-0.05402368
5e+07	-0.01886386	-0.06453727	-5.704604e-06	-4.524877e-07	0.005952169	0.007798661	-5.978108e-06	-3.73292e-06
	-5.704604e-06	-4.524876e-07	-0.01844749	-0.06428825	-6.208901e-05	3.813773e-06	0.005881109	0.007736061
	0.00595217	0.00779866	-6.208901e-05	3.813773e-06	-0.01743641	-0.06527106	-5.60794e-05	1.361003e-05
	-5.978108e-06	-3.73292e-06	0.005881108	0.007736062	-5.60794e-05	1.361003e-05	-0.01844549	-0.06423638
6e+07	-0.03404714	-0.07126069	-5.272937e-06	4.051993e-07	0.00790517	0.008083424	-6.640195e-06	-1.908353e-06
	-5.272937e-06	4.051993e-07	-0.03361871	-0.07104889	-6.671898e-05	1.658106e-05	0.007787941	0.008065927
	0.007905171	0.008083424	-6.671898e-05	1.658106e-05	-0.03274429	-0.07215244	-5.773682e-05	2.418582e-05
	-6.640195e-06	-1.908353e-06	0.007787938	0.008065928	-5.773682e-05	2.418582e-05	-0.03361516	-0.07098986
7e+07	-0.05032668	-0.07415951	-4.799211e-06	1.085411e-06	0.009828239	0.007877971	-6.91737e-06	-3.752841e-08
	-4.799211e-06	1.085411e-06	-0.04990821	-0.07397698	-6.80472e-05	3.099711e-05	0.009676296	0.007918109
	0.009828241	0.007877971	-6.80472e-05	3.099711e-05	-0.04917184	-0.07518433	-5.686021e-05	3.573176e-05
	-6.91737e-06	-3.752834e-08	0.009676291	0.007918112	-5.686021e-05	3.573176e-05	-0.04990363	-0.07391007
8e+07	-0.06670306	-0.07313034	-4.289968e-06	1.620911e-06	0.01160371	0.00721454	-6.775773e-06	1.859535e-06
	-4.289968e-06	1.620911e-06	-0.0663103	-0.0729661	-6.570823e-05	4.647096e-05	0.01143114	0.00732161
	0.01160371	0.00721454	-6.570823e-05	4.647096e-05	-0.06571537	-0.07426182	-5.319805e-05	4.77819e-05
	-6.775773e-06	1.859535e-06	0.01143113	0.007321615	-5.319805e-05	4.77819e-05	-0.06630507	-0.07289029
9e+07	-0.08221332	-0.06831611	-3.755109e-06	2.025328e-06	0.01312878	0.006151855	-6.151577e-06	3.741684e-06
	-3.755109e-06	2.025328e-06	-0.08185813	-0.06815945	-5.913152e-05	6.243788e-05	0.01295194	0.006331659
	0.01312879	0.006151855	-5.913152e-05	6.243788e-05	-0.08140896	-0.06952748	-4.634589e-05	5.991946e-05
	-6.151577e-06	3.741684e-06	0.01295194	0.006331663	-4.634589e-05	5.991946e-05	-0.08185206	-0.06807316
1e+08	-0.09597388	-0.0600775	-3.194802e-06	2.29998e-06	0.0143213	0.004769597	-4.79225e-06	5.618575e-06
	-3.194802e-06	2.29998e-06	-0.09567729	-0.05992517	-4.620107e-05	7.876966e-05	0.01416035	0.005025274
	0.0143213	0.004769597	-4.620107e-05	7.876966e-05	-0.09537598	-0.06134652	-3.480528e-05	7.202239e-05
	-4.79225e-06	5.618575e-06	0.01416035	0.005025274	-3.480528e-05	7.202239e-05	-0.0956694	-0.05982681
1.1e+08	-0.1072445	-0.04903039	-2.751367e-06	2.581727e-06	0.01512147	0.003158677	-2.821345e-06	6.347602e-06
	-2.751367e-06	2.581727e-06	-0.1070215	-0.0488081	-2.77404e-05	8.543478e-05	0.01499657	0.003474279
	0.01512147	0.003158676	-2.77404e-05	8.543478e-05	-0.106869	-0.05027745	-2.766878e-05	7.400731e-05
	-2.821345e-06	6.347602e-06	0.01499657	0.003474279	-2.766878e-05	7.400731e-05	-0.1070091	-0.04869641
1.2e+08	-0.1154945	-0.03582021	-2.292246e-06	2.871286e-06	0.01549165	0.00142396	-1.173618e-06	6.619979e-06
	-2.292246e-06	2.871286e-06	-0.1152947	-0.03551137	-1.988625e-05	8.656913e-05	0.01540974	0.001789227
	0.01549165	0.00142396	-1.988625e-05	8.656913e-05	-0.115304	-0.03700726	-2.238088e-05	7.507565e-05
	-1.173618e-06	6.619979e-06	0.01540974	0.001789227	-2.238088e-05	7.507565e-05	-0.1152745	-0.03538652
1.3e+08	-0.1203186	-0.02124009	-1.817468e-06	3.102651e-06	0.01542247	-0.0003294303	-3.552084e-08	6.55017e-06
	-1.817468e-06	3.102651e-06	-0.1201093	-0.02084812	-1.317875e-05	8.701823e-05	0.01539137	7.446199e-05
	0.01542247	-0.0003294304	-1.317875e-05	8.701823e-05	-0.1202856	-0.02234325	-1.620679e-05	7.608887e-05
	-3.552083e-08	6.55017e-06	0.01539137	7.446198e-05	-1.620679e-05	7.608887e-05	-0.1200781	-0.02071148
1.4e+08	-0.1215223	-0.006147184	-1.333657e-06	3.26688e-06	0.01492718	-0.001999382	2.270317e-07	6.351588e-06
	-1.333657e-06	3.26688e-06	-0.1212785	-0.005685476	-5.812708e-06	8.70964e-05	0.01495259	-0.001569933
	0.01492718	-0.001999382	-5.812708e-06	8.70964e-05	-0.1216205	-0.007149591	-9.456856e-06	7.671301e-05
	2.270317e-07	6.351588e-06	0.01495259	-0.001569933	-9.456856e-06	7.671301e-05	-0.1212338	-0.005539503
1.5e+08	-0.1191182	0.008589545	-8.511528e-07	3.361563e-06	0.01404045	-0.003490739	5.191612e-07	6.17859e-06
	-8.511528e-07	3.361563e-06	-0.1188227	0.009100737	1.974956e-06	8.658012e-05	0.01412499	-0.00305037
	0.01404045	-0.003490739	1.974956e-06	8.658012e-05	-0.1193221	0.007699155	-2.329594e-06	7.675607e-05
	5.191612e-07	6.17859e-06	0.01412499	-0.00305037	-2.329594e-06	7.675607e-05	-0.1187625	0.009252666
1.6e+08	-0.1133191	0.02213536	-3.765539e-07	3.390309e-06	0.0128163	-0.004718958	8.314932e-07	6.017316e-06
	-3.765539e-07	3.390309e-06	-0.1129633	0.02267152	9.993927e-06	8.532924e-05	0.0129589	-0.004283077
	0.0128163	-0.004718958	9.993927e-06	8.532924e-05	-0.1136042	0.02136349	5.017204e-06	7.610234e-05
	8.314932e-07	6.017316e-06	0.0129589	-0.004283077	5.017204e-06	7.610234e-05	-0.1128866	0.0228253
1.7e+08	-0.1045238	0.03373272	8.336534e-08	3.357099e-06	0.01132574	-0.005613459	1.158009e-06	5.858415e-06
	8.336534e-08	3.357099e-06	-0.1041077	0.03426757	1.807045e-05	8.325911e-05	0.01152135	-0.005197272
	0.01132574	-0.005613459	1.807045e-05	8.325911e-05	-0.1048668	0.03308172	1.243509e-05	7.467991e-05
	1.158009e-06	5.858415e-06	0.01152135	-0.005197272	1.243509e-05	7.467991e-05	-0.1040147	0.0344187
1.8e+08	-0.09329393	0.04274018	5.221873e-07	3.26657e-06	0.009653937	-0.006120763	1.49449e-06	5.69521e-06
	5.221873e-07	3.26657e-06	-0.09282654	0.04324819	2.603977e-05	8.032846e-05	0.009893538	-0.005738223
	0.009653937	-0.006120763	2.603977e-05	8.032846e-05	-0.09367325	0.04220875	1.978001e-05	7.24525e-05
	1.49449e-06	5.69521e-06	0.009893538	-0.005738223	1.978001e-05	7.24525e-05	-0.09271885	0.04339208
1.9e+08	-0.08032421	0.04866605	9.3424e-07	3.123994e-06	0.00789687	-0.006207441	1.837756e-06	5.522682e-06
	9.3424e-07	3.123994e-06	-0.07982266	0.04912485	3.374519e-05	7.653306e-05	0.008167763	-0.005870191
	0.00789687	-0.006207441	3.374519e-05	7.653306e-05	-0.08072002	0.0482497	2.691253e-05	6.941527e-05
	1.837756e-06	5.522682e-06	0.008167763	-0.005870191	2.691253e-05	6.941527e-05	-0.07970316	0.04925728
2e+08	-0.06640518	0.05119541	1.314831e-06	2.93508e-06	0.006157125	-0.005862682	2.185273e-06	5.336796e-06
	1.314831e-06	2.93508e-06	-0.06589374	0.05158803	4.104038e-05	7.190109e-05	0.006443524	-0.005579073
	0.006157125	-0.005862682	4.104038e-05	7.190109e-05	-0.06679987	0.05088688	3.370046e-05	6.559169e-05
	2.185273e-06	5.336796e-06	0.006443524	-0.005579073	3.370046e-05	6.559169e-05	-0.06576658	0.0517055
2.1e+08	-0.05238048	0.0502089	1.660331e-06	2.705702e-06	0.004538851	-0.005100181	2.534835e-06	5.134087e-06
	1.660331e-06	2.705702e-06	-0.05188886	0.05052571	4.779262e-05	6.648924e-05	0.004822727	-0.00487445
	0.004538851	-0.005100181	4.779262e-05	6.648924e-05	-0.05275889	0.04999861	4.002228e-05	6.103071e-05
	2.534835e-06	5.134087e-06	0.004822727	-0.00487445	4.002228e-05	6.103071e-05	-0.05175923	0.05062581
2.2e+08	-0.03909973	0.04579165	1.96811e-06	2.441618e-06	0.003141833	-0.003958921	2.88429e-06	4.911355e-06
	1.96811e-06	2.441618e-06	-0.03866091	0.0460318	5.388656e-05	6.037817e-05	0.003403994	-0.003790585
	0.003141833	-0.003958921	5.388656e-05	6.037817e-05	-0.0394494	0.04566818	4.577093e-05	5.580319e-05
	2.88429e-06	4.911355e-06	0.003403994	-0.003790585	4.577093e-05	5.580319e-05	-0.03853476	0.04611351
2.3e+08	-0.02736928	0.03823094	2.23636e-06	2.148261e-06	0.002055011	-0.002502388	3.231259e-06	4.665532e-06
	2.23636e-06	2.148261e-06	-0.02701701	0.03840322	5.922738e-05	5.366759e-05	0.002276342	-0.002385923
	0.002055011	-0.002502388	5.922738e-05	5.366759e-05	-0.02768069	0.03818157	5.085704e-05	4.999778e-05
	3.231259e-06	4.665532e-06	0.002276342	-0.002385923	5.085704e-05	4.999778e-05	-0.02690066	0.03846713
2.4e+08	-0.01790379	0.02800172	2.463854e-06	1.830609e-06	0.00134992	-0.0008158717	3.572888e-06	4.39378e-06
	2.463854e-06	1.830609e-06	-0.01766986	0.02812478	6.374322e-05	4.647122e-05	0.001512707	-0.0007407357
	0.00134992	-0.0008158717	6.374322e-05	4.647122e-05	-0.01817042	0.02801302	5.521154e-05	4.371645e-05
	3.572888e-06	4.39378e-06	0.001512707	-0.0007407357	5.521154e-05	4.371645e-05	-0.01756953	0.02817316
2.5e+08	-0.01128173	0.0157399	2.649678e-06	1.493196e-06	0.001074753	0.0009982761	3.905689e-06	4.093563e-06
	2.649678e-06	1.493196e-06	-0.0111932	0.01584162	6.738651e-05	3.891053e-05	0.001164015	0.001047281
	0.001074753	0.0009982761	6.738651e-05	3.891053e-05	-0.01150009	0.01579836	5.878708e-05	3.706895e-05
	3.905689e-06	4.093563e-06	0.001164015	0.001047281	5.878708e-05	3.706895e-05	-0.01111456	0.01587847
2.6e+08	-0.007908424	0.002204438	2.793014e-06	1.140225e-06	0.001249827	0.002827285	4.225485e-06	3.762922e-06
	2.793014e-06	1.140225e-06	-0.007985065	0.002320616	7.013387e-05	3.110909e-05	0.001254535	0.002869283
	0.001249827	0.002827285	7.013387e-05	3.110909e-05	-0.00807791	0.002297098	6.155827e-05	3.016768e-05
	4.225485e-06	3.762922e-06	0.001254535	0.002869283	6.155827e-05	3.016768e-05	-0.007932789	0.002351481
2.7e+08	-0.007989812	-0.01176965	2.893004e-06	7.757588e-07	0.001865138	0.004555999	4.527457e-06	3.400694e-06
	2.893004e-06	7.757588e-07	-0.008241897	-0.01159731	7.198442e-05	2.31868e-05	0.001779243	0.00461299
	0.001865138	0.004555999	7.198442e-05	2.31868e-05	-0.008112386	-0.0116546	6.352031e-05	2.312243e-05
	4.527457e-06	3.400694e-06	0.001779243	0.00461299	6.352031e-05	2.312243e-05	-0.008219211	-0.01156563
2.8e+08	-0.0115193	-0.02532401	2.948736e-06	4.039529e-07	0.002880501	0.006075531	4.806375e-06	3.006769e-06
	2.948736e-06	4.039529e-07	-0.01194601	-0.02505056	7.295702e-05	1.525539e-05	0.002703671	0.006171064
	0.002880501	0.006075531	7.295702e-05	1.525539e-05	-0.01159905	-0.02519675	6.468672e-05	1.603619e-05
	4.806375e-06	3.006769e-06	0.002703671	0.006171064	6.468672e-05	1.603619e-05	-0.01195437	-0.02501038
2.9e+08	-0.01827915	-0.03763155	2.95933e-06	2.925031e-08	0.004228402	0.007291571	5.056854e-06	2.582197e-06
	2.95933e-06	2.925031e-08	-0.01886774	-0.03721179	7.308612e-05	7.41474e-06	0.003966397	0.007449238
	0.004228402	0.007291571	7.308612e-05	7.41474e-06	-0.01832174	-0.03750029	6.508578e-05	9.001677e-06
	5.056854e-06	2.582197e-06	0.003966397	0.007449238	6.508578e-05	9.001677e-06	-0.01890658	-0.03715504
3e+08	-0.02785632	-0.0479485	2.924116e-06	-3.434764e-07	0.005819297	0.008131426	5.273666e-06	2.129213e-06
	2.924116e-06	-3.434764e-07	-0.02858207	-0.04734024	7.241712e-05	-2.491751e-07	0.005483938	0.008373262
	0.005819297	0.008131426	7.241712e-05	-2.491751e-07	-0.0278684	-0.04781927	6.475635e-05	2.099262e-06
	5.273666e-06	2.129213e-06	0.005483938	0.008373262	6.475635e-05	2.099262e-06	-0.02864874	-0.04725896
3.1e+08	-0.03967134	-0.05565997	2.84285e-06	-7.088874e-07	0.007548756	0.008549	5.452099e-06	1.651149e-06
	2.84285e-06	-7.088874e-07	-0.04049842	-0.05482721	7.100126e-05	-7.664493e-06	0.007157468	0.008893914
	0.007548756	0.008549	7.100126e-05	-7.664493e-06	-0.03965989	-0.05553664	6.374401e-05	-4.603586e-06
	5.452099e-06	1.651149e-06	0.007157468	0.008893914	6.374401e-05	-4.603586e-06	-0.04058823	-0.05471412
3.2e+08	-0.05301752	-0.06031567	2.71595e-06	-1.061219e-06	0.009305583	0.00852728	5.588168e-06	1.152216e-06
	2.71595e-06	-1.061219e-06	-0.05390072	-0.05923151	6.889196e-05	-1.477241e-05	0.008880526	0.008989634
	0.009305583	0.00852728	6.889196e-05	-1.477241e-05	-0.05298933	-0.06020011	6.209689e-05	-1.105174e-05
	5.588168e-06	1.152216e-06	0.008880526	0.008989634	6.209689e-05	-1.105174e-05	-0.0540071	-0.05908055
3.3e+08	-0.06710719	-0.06165367	2.544751e-06	-1.394424e-06	0.01097999	0.008078251	5.678776e-06	6.372599e-07
	2.544751e-06	-1.394424e-06	-0.06799437	-0.06030264	6.614349e-05	-2.152566e-05	0.01054683	0.008666684
	0.01097999	0.008078251	6.614349e-05	-2.152566e-05	-0.06706839	-0.06154605	5.986261e-05	-1.720067e-05
	5.678776e-06	6.372599e-07	0.01054683	0.008666684	5.986261e-05	-1.720067e-05	-0.06810924	-0.06010948
3.4e+08	-0.08112109	-0.05961116	2.331568e-06	-1.702402e-06	0.01247099	0.007240519	5.721685e-06	1.115432e-07
	2.331568e-06	-1.702402e-06	-0.08195621	-0.05799098	6.280521e-05	-2.788498e-05	0.01205739	0.007957117
	0.01247099	0.007240519	6.280521e-05	-2.788498e-05	-0.08107685	-0.05951036	5.708561e-05	-2.301358e-05
	5.721685e-06	1.115432e-07	0.01205739	0.007957117	5.708561e-05	-2.301358e-05	-0.08207044	-0.05775338
3.5e+08	-0.09425743	-0.05432254	2.079785e-06	-1.979229e-06	0.0136924	0.006075176	5.715821e-06	-4.197219e-07
	2.079785e-06	-1.979229e-06	-0.09498393	-0.05244496	5.89233e-05	-3.38167e-05	0.01332634	0.006915048
	0.0136924	0.006075176	5.89233e-05	-3.38167e-05	-0.09421176	-0.05422653	5.380779e-05	-2.845994e-05
	5.715821e-06	-4.197219e-07	0.01332634	0.006915048	5.380779e-05	-2.845994e-05	-0.09508787	-0.05216296
3.6e+08	-0.1057773	-0.04610599	1.793852e-06	-2.219416e-06	0.01457721	0.004660576	5.660827e-06	-9.514274e-07
	1.793852e-06	-2.219416e-06	-0.1063417	-0.04399686	5.454048e-05	-3.929008e-05	0.01428517	0.005611872
	0.01457721	0.004660576	5.454048e-05	-3.929008e-05	-0.105733	-0.04601227	5.006693e-05	-3.351209e-05
	5.660827e-06	-9.514274e-07	0.01428517	0.005611872	5.006693e-05	-3.351209e-05	-0.1064258	-0.04367289
3.7e+08	-0.1150445	-0.03544049	1.479215e-06	-2.418155e-06	0.01508007	0.003086664	5.556974e-06	-1.478734e-06
	1.479215e-06	-2.418155e-06	-0.1153999	-0.03313879	4.969635e-05	-4.427468e-05	0.01488535	0.00413104
	0.01508007	0.003086664	4.969635e-05	-4.427468e-05	-0.1150033	-0.03534645	4.589758e-05	-3.814278e-05
	5.556974e-06	-1.478734e-06	0.01488535	0.00413104	4.589758e-05	-3.814278e-05	-0.1154552	-0.03277765
3.8e+08	-0.1215573	-0.02293528	1.142184e-06	-2.571538e-06	0.01517842	0.001449369	5.405012e-06	-1.997161e-06
	1.142184e-06	-2.571538e-06	-0.1216666	-0.02049141	4.442959e-05	-4.873895e-05	0.01509953	0.002562877
	0.01517842	0.001449369	4.442959e-05	-4.873895e-05	-0.1215199	-0.02283853	4.133277e-05	-4.232371e-05
	5.405012e-06	-1.997161e-06	0.01509953	0.002562877	4.133277e-05	-4.232371e-05	-0.1216854	-0.02010007
3.9e+08	-0.1249727	-0.009294136	7.89745e-07	-2.676759e-06	0.01487223	-0.0001545832	5.206007e-06	-2.5026e-06
	7.89745e-07	-2.676759e-06	-0.1248112	-0.006767399	3.878002e-05	-5.264956e-05	0.01492158	0.0009997686
	0.01487223	-0.0001545832	3.878002e-05	-5.264956e-05	-0.124939	-0.009192733	3.640601e-05	-4.602455e-05
	5.206007e-06	-2.5026e-06	0.01492158	0.0009997686	3.640601e-05	-4.602455e-05	-0.1247877	-0.006354689
4e+08	-0.125121	0.004723574	4.293324e-07	-2.732248e-06	0.01418294	-0.001632288	4.961179e-06	-2.991266e-06
	4.293324e-07	-2.732248e-06	-0.1246789	0.007268141	3.279066e-05	-5.597144e-05	0.01436583	-0.0004681542
	0.01418294	-0.001632288	3.279066e-05	-5.597144e-05	-0.1250906	0.004831017	3.115327e-05	-4.921277e-05
	4.961179e-06	-2.991266e-06	0.01436583	-0.0004681542	3.115327e-05	-4.921277e-05	-0.1246094	0.00769203
4.1e+08	-0.1220125	0.01834335	6.856222e-08	-2.737778e-06	0.01315173	-0.002898723	4.671805e-06	-3.45962e-06
	6.856222e-08	-2.737778e-06	-0.1212959	0.02083861	2.650972e-05	-5.86687e-05	0.01346577	-0.001756859
	0.01315173	-0.002898723	2.650972e-05	-5.86687e-05	-0.1219846	0.01845762	2.561513e-05	-5.185435e-05
	4.671805e-06	-3.45962e-06	0.01346577	-0.001756859	2.561513e-05	-5.185435e-05	-0.1211792	0.02126264
4.2e+08	-0.1158354	0.03081588	-2.850614e-07	-2.694484e-06	0.01183736	-0.003880326	4.339137e-06	-3.904251e-06
	-2.850614e-07	-2.694484e-06	-0.1148666	0.0331965	1.999216e-05	-6.070606e-05	0.0122723	-0.002791878
	0.01183736	-0.003880326	1.999216e-05	-6.070606e-05	-0.1158093	0.03093718	1.983833e-05	-5.3915e-05
	4.339137e-06	-3.904251e-06	0.0122723	-0.002791878	1.983833e-05	-5.3915e-05	-0.1147042	0.0336094
4.3e+08	-0.106945	0.04145584	-6.244459e-07	-2.604828e-06	0.01031358	-0.004518222	3.964386e-06	-4.321732e-06
	-6.244459e-07	-2.604828e-06	-0.1057624	0.0436623	1.330075e-05	-6.20508e-05	0.01085166	-0.003511513
	0.01031358	-0.004518222	1.330075e-05	-6.20508e-05	-0.1069203	0.0415839	1.387713e-05	-5.536209e-05
	3.964386e-06	-4.321732e-06	0.01085166	-0.003511513	1.387713e-05	-5.536209e-05	-0.1055587	0.04405326
4.4e+08	-0.09584637	0.04967791	-9.432036e-07	-2.472463e-06	0.008666105	-0.004771131	3.548754e-06	-4.708473e-06
	-9.432036e-07	-2.472463e-06	-0.09450246	0.05166036	6.506595e-06	-6.267517e-05	0.00928277	-0.003869855
	0.008666105	-0.004771131	6.506595e-06	-6.267517e-05	-0.09582274	0.04981213	7.793851e-06	-5.616689e-05
	3.548754e-06	-4.708473e-06	0.00928277	-0.003869855	7.793851e-06	-5.616689e-05	-0.09426438	0.05201969
4.5e+08	-0.08316787	0.05502859	-1.235905e-06	-2.302034e-06	0.006988966	-0.004617943	3.093541e-06	-5.060596e-06
	-1.235905e-06	-2.302034e-06	-0.0817273	0.05675033	-3.11161e-07	-6.255897e-05	0.007654106	-0.003839549
	0.006988966	-0.004617943	-3.11161e-07	-6.255897e-05	-0.08314563	0.05516815	1.658803e-06	-5.630716e-05
	3.093541e-06	-5.060596e-06	0.007654106	-0.003839549	1.658803e-06	-5.630716e-05	-0.08146408	0.05707008
4.6e+08	-0.06962937	0.05721217	-1.49827e-06	-2.098902e-06	0.005380158	-0.004059755	2.600286e-06	-5.373846e-06
	-1.49827e-06	-2.098902e-06	-0.0681654	0.05865257	-7.066354e-06	-6.169219e-05	0.006059665	-0.003414147
	0.005380158	-0.004059755	-7.066354e-06	-6.169219e-05	-0.0696093	0.05735628	-4.45068e-06	-5.576971e-05
	2.600286e-06	-5.373846e-06	0.006059665	-0.003414147	-4.45068e-06	-5.576971e-05	-0.06788821	0.05892712
4.7e+08	-0.05600388	0.0561095	-1.727272e-06	-1.868806e-06	0.00393654	-0.003121105	2.070997e-06	-5.643524e-06
	-1.727272e-06	-1.868806e-06	-0.05459441	0.05726604	-1.366764e-05	-6.007729e-05	0.004594202	-0.002609726
	0.00393654	-0.003121105	-1.366764e-05	-6.007729e-05	-0.05598725	0.05625754	-1.045191e-05	-5.455261e-05
	2.070997e-06	-5.643524e-06	0.004594202	-0.002609726	-1.045191e-05	-5.455261e-05	-0.05431575	0.05749257
4.8e+08	-0.04307499	0.05178783	-1.921127e-06	-1.61753e-06	0.002748111	-0.001850021	1.508359e-06	-5.864564e-06
