!$
! Info: Touchstone file created by Circ.  Input file=Tx_14in_Rx_93ohms_TxVia_10mils_RxVia_20mils.circ
!$
# Hz S RI R 50
0	0.01279888	1.057237e-25	-7.485452e-05	-1.031892e-25	8.814489e-05	1.607656e-23	-7.486754e-05	1.516701e-24
	-7.485453e-05	-1.017911e-25	0.0128017	1.226144e-25	-7.485358e-05	-9.225646e-26	8.557731e-05	1.821987e-23
	8.819224e-05	1.608595e-23	-7.485356e-05	-9.370952e-26	0.01281358	1.05999e-25	-7.485496e-05	1.174964e-25
	-7.486752e-05	1.515066e-24	8.703194e-05	1.875261e-23	-7.485494e-05	1.157892e-25	0.01280724	1.169054e-25
1e+07	0.01747727	-0.001992146	-4.719852e-06	-2.737317e-05	0.0005109073	0.00225979	-4.80475e-06	-2.808662e-05
	-4.719851e-06	-2.737317e-05	0.01849834	-0.002213859	-9.097671e-06	-4.612754e-06	0.000535183	0.002465069
	0.0005109114	0.002259786	-9.097671e-06	-4.612754e-06	0.01883775	-0.001429672	-3.000433e-05	-5.062293e-06
	-4.80475e-06	-2.808662e-05	0.0005352162	0.002465058	-3.000433e-05	-5.062293e-06	0.0181309	-0.002209532
2e+07	0.02008095	-0.008540296	-1.197388e-05	-1.70071e-05	0.001565962	0.004396571	-1.291164e-05	-1.804939e-05
	-1.197388e-05	-1.70071e-05	0.02063796	-0.009232156	-3.761265e-05	-2.420272e-05	0.001483462	0.004787436
	0.001565961	0.004396568	-3.761265e-05	-2.420272e-05	0.02185432	-0.008221718	-3.056397e-05	9.110619e-06
	-1.291164e-05	-1.804939e-05	0.001483459	0.004787414	-3.056397e-05	9.110619e-06	0.02037015	-0.009105334
3e+07	0.01928352	-0.01666817	-1.766841e-05	-1.193941e-05	0.003148159	0.006137465	-1.92635e-05	-1.281167e-05
	-1.766841e-05	-1.193941e-05	0.01945469	-0.01744928	-5.819221e-05	-1.93675e-05	0.003080284	0.006606637
	0.003148159	0.006137464	-5.819221e-05	-1.93675e-05	0.02130263	-0.01668982	-3.188652e-05	1.241694e-05
	-1.92635e-05	-1.281167e-05	0.003080279	0.006606634	-3.188652e-05	1.241694e-05	0.01926005	-0.01730158
4e+07	0.01575276	-0.02446327	-2.17424e-05	-6.515888e-06	0.005127614	0.007355887	-2.385167e-05	-7.009034e-06
	-2.17424e-05	-6.515887e-06	0.01559489	-0.02519288	-7.306921e-05	-6.637584e-06	0.005139573	0.007840399
	0.005127614	0.007355887	-7.306921e-05	-6.637584e-06	0.01787527	-0.02488253	-3.17303e-05	1.730026e-05
	-2.385167e-05	-7.009034e-06	0.005139572	0.0078404	-3.17303e-05	1.730026e-05	0.01545344	-0.02505432
5e+07	0.01002046	-0.03105276	-2.422764e-05	-5.379673e-07	0.007338918	0.007964862	-2.671518e-05	-4.985192e-07
	-2.422764e-05	-5.379673e-07	0.009596411	-0.03163802	-8.249424e-05	1.068294e-05	0.007414096	0.008443222
	0.007338919	0.007964861	-8.249424e-05	1.068294e-05	0.01211631	-0.03188418	-3.019235e-05	2.272833e-05
	-2.671518e-05	-4.985192e-07	0.007414096	0.008443222	-3.019235e-05	2.272833e-05	0.009489166	-0.03152133
6e+07	0.002675457	-0.03586215	-2.510643e-05	5.815686e-06	0.009599986	0.007929168	-2.781992e-05	6.513175e-06
	-2.510643e-05	5.815686e-06	0.002056156	-0.03623935	-8.637073e-05	3.083075e-05	0.009722665	0.008388989
	0.009599988	0.007929167	-8.637073e-05	3.083075e-05	0.004627494	-0.03708579	-2.73179e-05	2.820667e-05
	-2.781992e-05	6.513175e-06	0.009722662	0.00838899	-2.73179e-05	2.820667e-05	0.00196704	-0.0361489
7e+07	-0.005634436	-0.03854184	-2.434922e-05	1.228554e-05	0.01172831	0.007266937	-2.710626e-05	1.374106e-05
	-2.434922e-05	1.228554e-05	-0.006371878	-0.03867174	-8.447231e-05	5.243215e-05	0.01188395	0.007701474
	0.01172831	0.007266937	-8.447231e-05	5.243215e-05	-0.003927453	-0.04011009	-2.315774e-05	3.33838e-05
	-2.710626e-05	1.374106e-05	0.01188395	0.007701476	-2.315774e-05	3.338379e-05	-0.006456807	-0.03860696
8e+07	-0.01423605	-0.03894938	-2.191596e-05	1.858716e-05	0.01355639	0.006046779	-2.44957e-05	2.086742e-05
	-2.191596e-05	1.858716e-05	-0.01501146	-0.03881554	-7.650714e-05	7.423461e-05	0.01373137	0.006452756
	0.01355639	0.006046779	-7.650714e-05	7.423461e-05	-0.01285721	-0.04079358	-1.811289e-05	3.777822e-05
	-2.44957e-05	2.086742e-05	0.01373136	0.00645276	-1.811289e-05	3.777822e-05	-0.01510396	-0.03877173
9e+07	-0.02247372	-0.03713634	-1.771252e-05	2.442029e-05	0.01494604	0.004380928	-1.982817e-05	2.756208e-05
	-1.771252e-05	2.442029e-05	-0.02320628	-0.03674352	-6.197423e-05	9.501981e-05	0.01512606	0.004756875
	0.01494604	0.004380928	-6.197423e-05	9.501981e-05	-0.0214891	-0.03917362	-1.469475e-05	4.043203e-05
	-1.982817e-05	2.756208e-05	0.01512606	0.004756879	-1.469475e-05	4.043203e-05	-0.02331528	-0.03671285
1e+08	-0.02974634	-0.03332823	-1.104865e-05	2.94926e-05	0.01580892	0.002417151	-1.22639e-05	3.349066e-05
	-1.104865e-05	2.94926e-05	-0.03034274	-0.03269791	-3.820255e-05	0.0001135953	0.01596666	0.002759449
	0.01580892	0.002417151	-3.820255e-05	0.0001135953	-0.02923368	-0.03547202	-1.188612e-05	4.25041e-05
	-1.22639e-05	3.349066e-05	0.01596666	0.002759449	-1.188612e-05	4.25041e-05	-0.03047692	-0.03267153
1.1e+08	-0.0355777	-0.02795199	-3.368416e-06	3.016838e-05	0.01605394	0.0003615453	-3.384874e-06	3.434963e-05
	-3.368416e-06	3.016838e-05	-0.03598937	-0.02720866	-1.005785e-05	0.000116476	0.01619522	0.0006312643
	0.01605394	0.0003615452	-1.005785e-05	0.000116476	-0.03553245	-0.02995266	-8.699369e-06	4.257618e-05
	-3.384874e-06	3.434963e-05	0.01619522	0.0006312642	-8.699369e-06	4.257618e-05	-0.03614693	-0.02716152
1.2e+08	-0.03964032	-0.02142719	2.987517e-06	2.95042e-05	0.01566968	-0.001670318	2.273752e-06	3.366442e-05
	2.987517e-06	2.95042e-05	-0.03988936	-0.02061854	6.649692e-06	0.0001146412	0.01581027	-0.001454379
	0.01566968	-0.001670318	6.649692e-06	0.0001146412	-0.03992826	-0.02320778	-4.552867e-06	4.267039e-05
	2.273752e-06	3.366442e-05	0.01581027	-0.001454379	-4.552867e-06	4.267039e-05	-0.04005424	-0.02054446
1.3e+08	-0.04170911	-0.0143003	5.559152e-06	2.852372e-05	0.01471086	-0.003503798	4.835644e-06	3.27572e-05
	5.559152e-06	2.852372e-05	-0.04180264	-0.01346586	1.673066e-05	0.0001118249	0.01485168	-0.003332328
	0.01471086	-0.003503798	1.673066e-05	0.0001118249	-0.0422351	-0.01582285	-3.413125e-08	4.245207e-05
	4.835644e-06	3.27572e-05	0.01485168	-0.003332328	-3.413125e-08	4.245207e-05	-0.04196302	-0.01336402
1.4e+08	-0.04173034	-0.007147752	7.937721e-06	2.742992e-05	0.01326343	-0.004988324	7.575625e-06	3.16913e-05
	7.937721e-06	2.742992e-05	-0.0416792	-0.00632507	2.726871e-05	0.0001081167	0.01340269	-0.004855373
	0.01326343	-0.004988324	2.726871e-05	0.0001081167	-0.04240997	-0.008397717	4.593169e-06	4.175767e-05
	7.575625e-06	3.16913e-05	0.01340269	-0.004855373	4.593169e-06	4.175767e-05	-0.04182487	-0.006198276
1.5e+08	-0.03981176	-0.0005283818	1.034616e-05	2.614043e-05	0.01144818	-0.006004056	1.037409e-05	3.039494e-05
	1.034616e-05	2.614043e-05	-0.03963351	0.0002477175	3.784768e-05	0.0001033302	0.01158259	-0.005905419
	0.01144818	-0.006004056	3.784768e-05	0.0001033302	-0.04057011	-0.001509739	9.227673e-06	4.054178e-05
	1.037409e-05	3.039494e-05	0.01158259	-0.005905418	9.227673e-06	4.054178e-05	-0.03975624	0.0003936831
1.6e+08	-0.03620787	0.005058611	1.271412e-05	2.462656e-05	0.009412284	-0.006469592	1.314651e-05	2.883282e-05
	1.271412e-05	2.462656e-05	-0.03592757	0.005757836	4.815098e-05	9.739107e-05	0.009537385	-0.006401786
	0.009412284	-0.006469592	4.815098e-05	9.739107e-05	-0.03698063	0.004327118	1.374156e-05	3.878734e-05
	1.314651e-05	2.883282e-05	0.009537385	-0.006401786	1.374156e-05	3.878734e-05	-0.03602165	0.005914981
1.7e+08	-0.0312959	0.009209704	1.498318e-05	2.287725e-05	0.007318419	-0.006347334	1.582295e-05	2.699065e-05
	1.498318e-05	2.287725e-05	-0.03094559	0.009808445	5.791238e-05	9.030123e-05	0.007428736	-0.006306762
	0.007318419	-0.006347334	5.791238e-05	9.030123e-05	-0.03203054	0.008698107	1.804243e-05	3.650377e-05
	1.582295e-05	2.699065e-05	0.007428736	-0.006306762	1.804243e-05	3.650377e-05	-0.03100822	0.009967426
1.8e+08	-0.02554365	0.01164507	1.710258e-05	2.089456e-05	0.00533254	-0.005645876	1.834263e-05	2.487036e-05
	1.710258e-05	2.089456e-05	-0.02516093	0.01212844	6.690417e-05	8.211998e-05	0.005421928	-0.005628133
	0.00533254	-0.005645876	6.690417e-05	8.211998e-05	-0.02620023	0.01131561	2.204616e-05	3.371813e-05
	1.834263e-05	2.487036e-05	0.005421928	-0.005628133	2.204616e-05	3.371813e-05	-0.02519242	0.01227948
1.9e+08	-0.01947168	0.01222687	1.902778e-05	1.869112e-05	0.003611414	-0.004419141	2.06526e-05	2.248669e-05
	1.902778e-05	1.869112e-05	-0.0190975	0.01259036	7.493421e-05	7.295091e-05	0.003673499	-0.004418504
	0.003611414	-0.004419141	7.493421e-05	7.295091e-05	-0.02002312	0.01203734	2.567787e-05	3.047242e-05
	2.06526e-05	2.248669e-05	0.003673499	-0.004418504	2.567787e-05	3.047242e-05	-0.01910119	0.01272418
2e+08	-0.01361096	0.01096773	2.071518e-05	1.628626e-05	0.002279326	-0.0027721	2.270585e-05	1.986361e-05
	2.071518e-05	1.628626e-05	-0.01328812	0.0112172	8.184484e-05	6.293024e-05	0.00231939	-0.002771369
	0.002279326	-0.0027721	8.184484e-05	6.293024e-05	-0.01404271	0.0108746	2.887173e-05	2.682025e-05
	2.270585e-05	1.986361e-05	0.00231939	-0.002771369	2.887173e-05	2.682025e-05	-0.01327007	0.01132589
2.1e+08	-0.008465296	0.00802311	2.213736e-05	1.371056e-05	0.001455866	-0.0008183336	2.446691e-05	1.703489e-05
	2.213736e-05	1.371056e-05	-0.008232952	0.008177742	8.751671e-05	5.221843e-05	0.001464439	-0.0008140721
	0.001455866	-0.0008183335	8.751671e-05	5.221843e-05	-0.008774409	0.007984414	3.157633e-05	2.282609e-05
	2.446691e-05	1.703489e-05	0.001464439	-0.0008140721	3.157633e-05	2.282609e-05	-0.008201443	0.008255484
2.2e+08	-0.004470013	0.003680965	2.326878e-05	1.099691e-05	0.001206263	0.00128712	2.590694e-05	1.403851e-05
	2.326878e-05	1.099691e-05	-0.004360999	0.003770756	9.186479e-05	4.098932e-05	0.001174075	0.001301965
	0.001206263	0.00128712	9.186479e-05	4.098932e-05	-0.004663727	0.003658733	3.37513e-05	1.85602e-05
	2.590694e-05	1.403851e-05	0.001174075	0.001301965	3.37513e-05	1.85602e-05	-0.004325784	0.0038144
2.3e+08	-0.001959655	-0.001664428	2.409007e-05	8.181714e-06	0.001548669	0.003376713	2.700505e-05	1.09157e-05
	2.409007e-05	8.181714e-06	-0.001997553	-0.001600643	9.483748e-05	2.942264e-05	0.001468973	0.003413096
	0.001548669	0.003376713	9.483748e-05	2.942264e-05	-0.002053526	-0.001702168	3.536857e-05	1.409676e-05
	2.700505e-05	1.09157e-05	0.001468973	0.003413096	3.536857e-05	1.409676e-05	-0.001969026	-0.001591262
2.4e+08	-0.001143468	-0.007545211	2.458834e-05	5.303796e-06	0.002453394	0.005284703	2.774802e-05	7.709428e-06
	2.458834e-05	5.303796e-06	-0.001340201	-0.007462548	9.641382e-05	1.769795e-05	0.002323254	0.005356494
	0.002453394	0.005284703	9.641382e-05	1.769795e-05	-0.00115919	-0.007623014	3.641216e-05	9.511602e-06
	2.774802e-05	7.709428e-06	0.002323254	0.005356494	3.641216e-05	9.511602e-06	-0.001328488	-0.007484532
2.5e+08	-0.002090918	-0.01345799	2.475699e-05	2.403058e-06	0.003845284	0.006860672	2.812957e-05	4.462708e-06
	2.475699e-05	2.403058e-06	-0.002445186	-0.01330896	9.65995e-05	5.989064e-06	0.003666501	0.006983292
	0.003845284	0.006860672	9.65995e-05	5.989064e-06	-0.002053965	-0.01359217	3.687739e-05	4.880051e-06
	2.812957e-05	4.462708e-06	0.003666501	0.006983292	3.687739e-05	4.880051e-06	-0.002459259	-0.01335655
2.6e+08	-0.004728443	-0.01890414	2.459499e-05	-4.802974e-07	0.005609952	0.007981849	2.814956e-05	1.217607e-06
	2.459499e-05	-4.802974e-07	-0.005225177	-0.01864258	9.541867e-05	-5.538389e-06	0.005389537	0.008170654
	0.005609952	0.007981849	9.541867e-05	-5.538389e-06	-0.004665691	-0.01910263	3.676996e-05	2.753492e-07
	2.814956e-05	1.217607e-06	0.005389537	0.008170655	3.676996e-05	2.753492e-07	-0.005272082	-0.01870754
2.7e+08	-0.008847564	-0.02342916	2.410763e-05	-3.307126e-06	0.007603358	0.008563117	2.781298e-05	-1.985547e-06
	2.410763e-05	-3.307126e-06	-0.009458626	-0.02301413	9.292147e-05	-1.672971e-05	0.007353475	0.008831674
	0.007603358	0.008563117	9.292147e-05	-1.672971e-05	-0.008785042	-0.02369188	3.610461e-05	-4.232583e-06
	2.781298e-05	-1.985547e-06	0.007353475	0.008831674	3.610461e-05	-4.232583e-06	-0.009542766	-0.02308647
2.8e+08	-0.01412354	-0.02665787	2.330501e-05	-6.039751e-06	0.009663884	0.008563761	2.712919e-05	-5.108501e-06
	2.330501e-05	-6.039751e-06	-0.01480945	-0.02605731	8.91703e-05	-2.74417e-05	0.009401244	0.008922173
	0.009663884	0.008563761	8.91703e-05	-2.74417e-05	-0.01408447	-0.02697769	3.490422e-05	-8.578008e-06
	2.712919e-05	-5.108501e-06	0.009401244	0.008922173	3.490422e-05	-8.578008e-06	-0.01493221	-0.02612615
2.9e+08	-0.02014284	-0.02832264	2.220162e-05	-8.642558e-06	0.01162578	0.00799038	2.611108e-05	-8.115223e-06
	2.220162e-05	-8.642558e-06	-0.02085558	-0.02751654	8.423909e-05	-3.754199e-05	0.01137052	0.008443842
	0.01162578	0.00799038	8.423909e-05	-3.754199e-05	-0.02014609	-0.0286868	3.319857e-05	-1.269992e-05
	2.611108e-05	-8.115223e-06	0.01137052	0.008443842	3.319857e-05	-1.269992e-05	-0.02101518	-0.02757094
3e+08	-0.02643707	-0.02828273	2.081591e-05	-1.108241e-05	0.01333272	0.006895761	2.477447e-05	-1.097179e-05
	2.081591e-05	-1.108241e-05	-0.02712373	-0.02726533	7.821236e-05	-4.690822e-05	0.01310685	0.007443484
	0.01333272	0.006895761	7.821236e-05	-4.690822e-05	-0.02649605	-0.02867444	3.102344e-05	-1.654231e-05
	2.477447e-05	-1.097179e-05	0.01310685	0.007443484	3.102344e-05	-1.654231e-05	-0.02731534	-0.02729524
3.1e+08	-0.0325204	-0.0265332	1.916986e-05	-1.332893e-05	0.01465037	0.005373938	2.313792e-05	-1.364625e-05
	1.916986e-05	-1.332893e-05	-0.03312741	-0.02531408	7.118494e-05	-5.542757e-05	0.01447589	0.006008589
	0.01465037	0.005373938	7.118494e-05	-5.542757e-05	-0.03264251	-0.02693348	2.841998e-05	-2.005441e-05
	2.313792e-05	-1.364625e-05	0.01447589	0.006008589	2.841998e-05	-2.005441e-05	-0.03334349	-0.02531118
3.2e+08	-0.03792762	-0.02320326	1.728846e-05	-1.53547e-05	0.01547672	0.003552009	2.122252e-05	-1.610839e-05
	1.728846e-05	-1.53547e-05	-0.03840518	-0.02180725	6.326158e-05	-6.299645e-05	0.01537362	0.004259739
	0.01547672	0.003552009	6.326158e-05	-6.299645e-05	-0.03811422	-0.0235927	2.5434e-05	-2.319078e-05
	2.122252e-05	-1.610839e-05	0.01537362	0.004259738	2.5434e-05	-2.319078e-05	-0.03863612	-0.02176565
3.3e+08	-0.04224979	-0.01854432	1.519937e-05	-1.713538e-05	0.01574967	0.001579533	1.905196e-05	-1.832969e-05
	1.519937e-05	-1.713538e-05	-0.04255615	-0.01701004	5.455744e-05	-6.952103e-05	0.01573394	0.00234062
	0.01574967	0.001579533	5.455744e-05	-6.952103e-05	-0.04249658	-0.01890477	2.211563e-05	-2.59115e-05
	1.905196e-05	-1.832969e-05	0.01573394	0.00234062	2.211563e-05	-2.59115e-05	-0.04279099	-0.01692678
3.4e+08	-0.04516485	-0.01290901	1.293263e-05	-1.864989e-05	0.01545122	-0.000383535	1.665283e-05	-2.028347e-05
	1.293263e-05	-1.864989e-05	-0.0452701	-0.01128632	4.519859e-05	-7.49187e-05	0.01553313	0.0004065635
	0.01545122	-0.000383535	4.519859e-05	-7.49187e-05	-0.04546273	-0.01322497	1.8519e-05	-2.818256e-05
	1.665283e-05	-2.028347e-05	0.01553313	0.0004065635	1.8519e-05	-2.818256e-05	-0.04549746	-0.01116164
3.5e+08	-0.04646123	-0.006723069	1.052039e-05	-1.988057e-05	0.01460821	-0.002179362	1.405471e-05	-2.19451e-05
	1.052039e-05	-1.988057e-05	-0.04635028	-0.005069383	3.532162e-05	-7.911971e-05	0.01479094	-0.001387476
	0.01460821	-0.002179362	3.532162e-05	-7.911971e-05	-0.04679738	-0.006982751	1.470174e-05	-2.997617e-05
	1.405471e-05	-2.19451e-05	0.01479094	-0.001387476	1.470174e-05	-2.997617e-05	-0.04655924	-0.004906739
3.6e+08	-0.04605277	-0.0004520999	7.996599e-06	-2.081338e-05	0.01328963	-0.003664304	1.129041e-05	-2.329251e-05
	7.996599e-06	-2.081338e-05	-0.04572715	0.001171946	2.507306e-05	-8.206954e-05	0.01356853	-0.002898612
	0.01328963	-0.003664304	2.507306e-05	-8.206954e-05	-0.04641196	-0.0006481705	1.072456e-05	-3.127139e-05
	1.129041e-05	-2.329251e-05	0.01356853	-0.002898612	1.072456e-05	-3.127139e-05	-0.04590814	0.001366157
3.7e+08	-0.04398414	0.005434061	5.396701e-06	-2.14381e-05	0.01160099	-0.004719677	8.395892e-06	-2.430684e-05
	5.396701e-06	-2.14381e-05	-0.0434626	0.006969435	1.460776e-05	-8.373113e-05	0.01196343	-0.004006603
	0.01160099	-0.004719677	1.460776e-05	-8.373113e-05	-0.04435013	0.005304181	6.650548e-06	-3.205459e-05
	8.395892e-06	-2.430684e-05	0.01196343	-0.004006603	6.650548e-06	-3.205459e-05	-0.04360821	0.00718634
3.8e+08	-0.04042651	0.01049696	2.757251e-06	-2.17486e-05	0.009676031	-0.005260564	5.410171e-06	-2.497311e-05
	2.757251e-06	-2.17486e-05	-0.03974421	0.01189109	4.08678e-06	-8.408698e-05	0.01010192	-0.004622665
	0.009676031	-0.005260564	4.08678e-06	-8.408698e-05	-0.04078342	0.01043117	2.544345e-06	-3.232e-05
	5.410171e-06	-2.497311e-05	0.01010192	-0.004622665	2.544345e-06	-3.232e-05	-0.03984975	0.01212004
3.9e+08	-0.03566393	0.01436256	1.154848e-07	-2.174298e-05	0.007666496	-0.005242116	2.374831e-06	-2.528098e-05
	1.154848e-07	-2.174298e-05	-0.03487021	0.01557385	-6.325555e-06	-8.314091e-05	0.00812954	-0.004695976
	0.007666496	-0.005242116	-6.325555e-06	-8.314091e-05	-0.03599748	0.01435449	-1.528922e-06	-3.207011e-05
	2.374831e-06	-2.528098e-05	0.00812954	-0.004695976	-1.528922e-06	-3.207011e-05	-0.0349342	0.01580322
4e+08	-0.0300713	0.01674927	-2.491185e-06	-2.14238e-05	0.005730607	-0.004662938	-6.665853e-07	-2.522541e-05
	-2.491185e-06	-2.14238e-05	-0.02922635	0.0177509	-1.646497e-05	-8.091907e-05	0.006200093	-0.004217458
	0.005730607	-0.004662938	-1.646497e-05	-8.091907e-05	-0.03036989	0.01678902	-5.504794e-06	-3.131585e-05
	-6.665853e-07	-2.522541e-05	0.006200093	-0.004217458	-5.504794e-06	-3.131585e-05	-0.02925058	0.01796905
4.1e+08	-0.0240857	0.01748908	-5.025728e-06	-2.079809e-05	0.004020999	-0.003565316	-3.66945e-06	-2.48072e-05
	-5.025728e-06	-2.079809e-05	-0.0232561	0.01827179	-2.617101e-05	-7.747045e-05	0.004464073	-0.003220561
	0.004020999	-0.003565316	-2.617101e-05	-7.747045e-05	-0.02434122	0.0175642	-9.32076e-06	-3.007655e-05
	-3.66945e-06	-2.48072e-05	0.004464073	-0.003220562	-9.32076e-06	-3.007655e-05	-0.02324563	0.01846798
4.2e+08	-0.01817303	0.01654013	-7.452078e-06	-1.987739e-05	0.002672936	-0.0020322	-6.589053e-06	-2.403333e-05
	-7.452078e-06	-1.987739e-05	-0.01742666	0.01711363	-3.529091e-05	-7.286637e-05	0.00305715	-0.00177892
	0.002672936	-0.0020322	-3.529091e-05	-7.286637e-05	-0.01838135	0.01663674	-1.291753e-05	-2.837969e-05
	-6.589053e-06	-2.403333e-05	0.00305715	-0.00177892	-1.291753e-05	-2.837969e-05	-0.01738941	0.0172789
4.3e+08	-0.01279239	0.01398972	-9.735728e-06	-1.867767e-05	0.001793648	-0.0001810457	-9.381702e-06	-2.291698e-05
	-9.735728e-06	-1.867767e-05	-0.01219304	0.01438272	-4.368346e-05	-6.719916e-05	0.002089611	-9.302185e-07
	0.001793648	-0.0001810457	-4.368346e-05	-6.719916e-05	-0.01295351	0.01409373	-1.624022e-05	-2.62603e-05
	-9.381702e-06	-2.291698e-05	0.002089611	-9.302188e-07	-1.624022e-05	-2.62603e-05	-0.01213919	0.01451064
4.4e+08	-0.00836098	0.01004752	-1.18443e-05	-1.721906e-05	0.001453667	0.001845138	-1.20058e-05	-2.147736e-05
	-1.18443e-05	-1.721906e-05	-0.007963042	0.01030613	-5.122242e-05	-6.058001e-05	0.001637558	0.001978447
	0.001453667	0.001845138	-5.122242e-05	-6.058001e-05	-0.008478824	0.0101458	-1.923944e-05	-2.376016e-05
	-1.20058e-05	-2.147736e-05	0.001637558	0.001978447	-1.923944e-05	-2.376016e-05	-0.00790426	0.01039337
4.5e+08	-0.005222057	0.005029328	-1.374814e-05	-1.552568e-05	0.001680887	0.003888941	-1.442289e-05	-1.973924e-05
	-1.374814e-05	-1.552568e-05	-0.005065806	0.005214044	-5.779959e-05	-5.313606e-05	0.001736652	0.004008148
	0.001680887	0.003888941	-5.779959e-05	-5.313606e-05	-0.005303987	0.005110748	-2.187219e-05	-2.092697e-05
	-1.442289e-05	-1.973924e-05	0.001736652	0.004008148	-2.187219e-05	-2.092697e-05	-0.005014328	0.005260688
4.6e+08	-0.003618682	-0.0006674586	-1.542085e-05	-1.362524e-05	0.002457993	0.005791085	-1.659822e-05	-1.773215e-05
	-1.542085e-05	-1.362524e-05	-0.0037265	-0.0004860586	-6.332693e-05	-4.500687e-05	0.002379006	0.005932947
	0.002457993	0.005791085	-6.332693e-05	-4.500687e-05	-0.003674671	-0.00061113	-2.410133e-05	-1.781249e-05
	-1.659822e-05	-1.773215e-05	0.002379006	0.005932947	-2.410133e-05	-1.781249e-05	-0.00369407	-0.0004764646
4.7e+08	-0.003675194	-0.006594636	-1.683974e-05	-1.154855e-05	0.003723562	0.007403313	-1.85023e-05	-1.54901e-05
	-1.683974e-05	-1.154855e-05	-0.004049119	-0.006341184	-6.773775e-05	-3.634057e-05	0.003513619	0.007605913
	0.003723562	0.007403313	-6.773775e-05	-3.634057e-05	-0.003716844	-0.006568203	-2.589848e-05	-1.44735e-05
