!$
! Info: Touchstone file created by Circ.  Input file=Tx_12in_Rx_85ohms_TxVia_10mils_RxVia_20mils.circ
!$
# Hz S RI R 50
0	0.009684394	7.720423e-26	1.092535e-10	2.204343e-28	7.745585e-05	1.027125e-23	-5.03088e-09	6.162104e-25
	1.092654e-10	2.206181e-28	0.009685047	1.077643e-25	5.426949e-10	3.420421e-27	7.554672e-05	1.376315e-23
	7.615528e-05	1.000797e-23	5.426336e-10	3.427573e-27	0.009699616	8.083267e-26	-9.12882e-09	1.131816e-24
	-5.029999e-09	6.161026e-25	7.700253e-05	1.416558e-23	-9.129014e-09	1.131839e-24	0.009690623	1.027553e-25
1e+07	0.01210812	-0.01162861	4.853241e-11	-2.318681e-11	0.0004327392	0.00212929	-5.735023e-09	1.737069e-08
	4.853241e-11	-2.318711e-11	0.01213795	-0.01163588	6.407429e-10	1.102127e-09	0.0004293516	0.002135564
	0.0004326952	0.002129293	6.407429e-10	1.102128e-09	0.01216346	-0.01161393	-7.160337e-09	1.727493e-08
	-5.735023e-09	1.737068e-08	0.0004293843	0.002135553	-7.160337e-09	1.727493e-08	0.01211481	-0.01162768
2e+07	0.01079321	-0.02622211	4.352457e-11	-2.601742e-11	0.001266703	0.004037957	-3.817968e-09	1.434584e-08
	4.352433e-11	-2.60175e-11	0.01078521	-0.02624268	7.282831e-10	1.981727e-09	0.001254163	0.004053356
	0.001266694	0.004037985	7.282833e-10	1.981727e-09	0.01084075	-0.02620691	-5.397348e-09	1.516084e-08
	-3.817969e-09	1.434584e-08	0.00125416	0.004053334	-5.397347e-09	1.516084e-08	0.01077136	-0.02621468
3e+07	0.004699703	-0.04104118	5.592489e-11	-5.557035e-11	0.002525199	0.005651287	4.839169e-10	1.317844e-08
	5.592486e-11	-5.55703e-11	0.004641166	-0.04105182	6.849082e-10	2.868666e-09	0.002499232	0.005680724
	0.0025252	0.005651291	6.849083e-10	2.868666e-09	0.004742451	-0.04101578	-4.643738e-10	1.468041e-08
	4.839169e-10	1.317844e-08	0.002499227	0.005680722	-4.643737e-10	1.468041e-08	0.004635033	-0.04101298
4e+07	-0.005267647	-0.05408923	6.023015e-11	-8.393487e-11	0.004119663	0.006879947	3.803165e-09	1.1147e-08
	6.023014e-11	-8.393493e-11	-0.005385095	-0.05406921	6.029828e-10	3.829817e-09	0.004077995	0.00692982
	0.004119659	0.006879945	6.029828e-10	3.829817e-09	-0.005227777	-0.05405134	3.312477e-09	1.290324e-08
	3.803165e-09	1.1147e-08	0.004077995	0.006929821	3.312477e-09	1.290324e-08	-0.005385762	-0.05402368
5e+07	-0.01826915	-0.06436124	7.182147e-11	-1.096579e-10	0.00593828	0.007658535	5.943619e-09	9.084015e-09
	7.182142e-11	-1.09658e-10	-0.01844749	-0.06428825	5.219403e-10	4.847706e-09	0.005881109	0.007736061
	0.005938278	0.007658534	5.219402e-10	4.847706e-09	-0.01823057	-0.06430969	5.684323e-09	1.097441e-08
	5.943619e-09	9.084015e-09	0.005881108	0.007736062	5.684323e-09	1.097441e-08	-0.01844549	-0.06423638
6e+07	-0.03338458	-0.07119722	1.042654e-10	-1.429209e-10	0.00785776	0.007953608	7.283325e-09	7.662529e-09
	1.042655e-10	-1.429209e-10	-0.03361871	-0.07104889	4.57119e-10	5.902777e-09	0.007787941	0.008065927
	0.007857766	0.007953605	4.57119e-10	5.902777e-09	-0.03334577	-0.07113123	6.992537e-09	9.643852e-09
	7.283325e-09	7.662529e-09	0.007787938	0.008065928	6.992537e-09	9.643852e-09	-0.03361516	-0.07098986
7e+07	-0.04963045	-0.07422092	2.367652e-10	-1.949681e-10	0.009753398	0.007764793	7.860582e-09	7.954219e-09
	2.367656e-10	-1.949682e-10	-0.04990821	-0.07397698	4.444821e-10	6.943832e-09	0.009676296	0.007918109
	0.009753408	0.007764785	4.44482e-10	6.943832e-09	-0.04958979	-0.07413997	7.11684e-09	9.631698e-09
	7.860582e-09	7.954219e-09	0.009676291	0.007918112	7.11684e-09	9.631698e-09	-0.04990363	-0.07391007
8e+07	-0.06600728	-0.07332184	-8.195317e-10	-1.149143e-09	0.01150801	0.00712278	3.312076e-09	1.050135e-08
	-8.195312e-10	-1.149143e-09	-0.0663103	-0.0729661	7.073702e-10	8.099515e-09	0.01143114	0.00732161
	0.01150802	0.007122767	7.073702e-10	8.099515e-09	-0.06596293	-0.07322563	3.83228e-09	1.071474e-08
	3.312076e-09	1.050135e-08	0.01143113	0.007321615	3.83228e-09	1.071474e-08	-0.06630507	-0.07289029
9e+07	-0.08155307	-0.0686374	3.073609e-11	-3.915938e-10	0.01301946	0.00608511	-1.482893e-09	3.596045e-09
	3.073643e-11	-3.915942e-10	-0.08185813	-0.06815945	7.508724e-10	9.469116e-09	0.01295194	0.006331659
	0.01301947	0.006085099	7.508723e-10	9.469116e-09	-0.08150294	-0.06852598	-8.780655e-10	5.970708e-09
	-1.482893e-09	3.596045e-09	0.01295194	0.006331663	-8.780654e-10	5.970708e-09	-0.08185206	-0.06807316
1e+08	-0.09539675	-0.0605289	3.41101e-11	-3.717593e-10	0.0142085	0.004731595	-2.409623e-10	2.635065e-10
	3.41101e-11	-3.717594e-10	-0.09567729	-0.05992517	8.273226e-10	1.068766e-08	0.01416035	0.005025274
	0.0142085	0.004731595	8.273226e-10	1.068766e-08	-0.09533825	-0.06040262	-3.372108e-10	2.200125e-09
	-2.409623e-10	2.635065e-10	0.01416035	0.005025274	-3.372108e-10	2.200125e-09	-0.0956694	-0.05982681
1.1e+08	-0.1067926	-0.04953346	-1.861092e-11	-4.25623e-10	0.01501578	0.003137447	-1.916683e-10	3.456429e-10
	-1.861092e-11	-4.25623e-10	-0.1070215	-0.0488081	1.161393e-09	1.187626e-08	0.01499657	0.003474279
	0.01501578	0.003137447	1.161393e-09	1.187626e-08	-0.1067229	-0.04939602	-1.470249e-10	2.506471e-09
	-1.916683e-10	3.456429e-10	0.01499657	0.003474279	-1.470249e-10	2.506471e-09	-0.1070091	-0.04869641
1.2e+08	-0.1151434	-0.03634511	-8.566413e-11	-4.616593e-10	0.01539061	0.001415635	-1.180234e-10	4.15909e-10
	-8.566413e-11	-4.616593e-10	-0.1152947	-0.03551137	1.592694e-09	1.300528e-08	0.01540974	0.001789227
	0.01539061	0.001415635	1.592694e-09	1.300528e-08	-0.1150621	-0.03619811	9.766242e-11	2.774759e-09
	-1.180234e-10	4.15909e-10	0.01540974	0.001789227	9.766242e-11	2.774759e-09	-0.1152745	-0.03538652
1.3e+08	-0.1200577	-0.02176983	-1.621614e-10	-4.738497e-10	0.01532628	-0.0003265148	-2.33528e-11	4.673031e-10
	-1.621614e-10	-4.738497e-10	-0.1201093	-0.02084812	2.106017e-09	1.404461e-08	0.01539137	7.446199e-05
	0.01532628	-0.0003265147	2.106017e-09	1.404461e-08	-0.1199639	-0.02161509	3.869813e-10	2.990853e-09
	-2.33528e-11	4.673031e-10	0.01539137	7.446198e-05	3.869813e-10	2.990853e-09	-0.1200781	-0.02071148
1.4e+08	-0.1213431	-0.006668525	-2.390412e-10	-4.586206e-10	0.01483655	-0.001986532	8.674892e-11	4.937682e-10
	-2.390412e-10	-4.586206e-10	-0.1212785	-0.005685476	2.67755e-09	1.496934e-08	0.01495259	-0.001569933
	0.01483655	-0.001986531	2.67755e-09	1.496934e-08	-0.1212359	-0.006508466	7.096883e-10	3.142301e-09
	8.674892e-11	4.937682e-10	0.01495259	-0.001569933	7.096883e-10	3.142301e-09	-0.1212338	-0.005539503
1.5e+08	-0.1190128	0.008087657	-3.05322e-10	-4.139151e-10	0.01395624	-0.003469208	2.059205e-10	4.911642e-10
	-3.05322e-10	-4.139151e-10	-0.1188227	0.009100737	3.276326e-09	1.576163e-08	0.01412499	-0.00305037
	0.01395624	-0.003469208	3.276326e-09	1.576163e-08	-0.1188918	0.008249975	1.052033e-09	3.220681e-09
	2.059205e-10	4.911642e-10	0.01412499	-0.00305037	1.052033e-09	3.220681e-09	-0.1187625	0.009252666
1.6e+08	-0.1132795	0.02166239	-3.496326e-10	-3.437694e-10	0.0127394	-0.004690074	3.262015e-10	4.568914e-10
	-3.496326e-10	-3.437694e-10	-0.1129633	0.02267152	3.866311e-09	1.641274e-08	0.0129589	-0.004283077
	0.0127394	-0.004690074	3.866311e-09	1.641274e-08	-0.113145	0.02182346	1.39773e-09	3.218204e-09
	3.262015e-10	4.568914e-10	0.0129589	-0.004283077	1.39773e-09	3.218204e-09	-0.1128866	0.0228253
1.7e+08	-0.1045414	0.03329676	-3.625207e-10	-2.566767e-10	0.01125695	-0.00557868	4.390308e-10	3.905549e-10
	-3.625207e-10	-2.566767e-10	-0.1041077	0.03426757	4.409144e-09	1.692419e-08	0.01152135	-0.005197272
	0.01125695	-0.00557868	4.409144e-09	1.692419e-08	-0.1043948	0.03345292	1.727447e-09	3.130101e-09
	4.390308e-10	3.905549e-10	0.01152135	-0.005197272	1.727447e-09	3.130101e-09	-0.1040147	0.0344187
1.8e+08	-0.09335966	0.04234796	-3.382433e-10	-1.645417e-10	0.0095939	-0.006081698	5.358499e-10	2.940633e-10
	-3.382433e-10	-1.645417e-10	-0.09282654	0.04324819	4.867125e-09	1.730826e-08	0.009893538	-0.005738223
	0.0095939	-0.006081698	4.867125e-09	1.730826e-08	-0.0932036	0.04249576	2.019001e-09	2.955963e-09
	5.358499e-10	2.940633e-10	0.009893538	-0.005738223	2.019001e-09	2.955963e-09	-0.09271885	0.04339208
1.9e+08	-0.08042837	0.04832287	-2.75964e-10	-8.091616e-11	0.007845994	-0.006165838	6.087091e-10	1.715672e-10
	-2.75964e-10	-8.091616e-11	-0.07982266	0.04912485	5.206225e-09	1.758755e-08	0.008167763	-0.005870191
	0.007845994	-0.006165838	5.206225e-09	1.758755e-08	-0.0802664	0.0484594	2.248234e-09	2.701294e-09
	6.087091e-10	1.715672e-10	0.008167763	-0.005870191	2.248234e-09	2.701294e-09	-0.07970316	0.04925728
2e+08	-0.06653753	0.05090496	-1.800765e-10	-1.884228e-11	0.006115515	-0.005820387	6.508322e-10	2.924141e-11
	-1.800765e-10	-1.884228e-11	-0.06589374	0.05158803	5.398871e-09	1.779371e-08	0.006443524	-0.005579073
	0.006115515	-0.005820387	5.398871e-09	1.779371e-08	-0.06637416	0.05102822	2.390716e-09	2.378912e-09
	6.508322e-10	2.924141e-11	0.006443524	-0.005579073	2.390716e-09	2.378912e-09	-0.06576658	0.0517055
2.1e+08	-0.05253042	0.04997312	-5.954321e-11	1.126352e-11	0.004506254	-0.00505908	6.57101e-10	-1.250673e-10
	-5.954321e-11	1.126352e-11	-0.05188886	0.05052571	5.426251e-09	1.796548e-08	0.004822727	-0.00487445
	0.004506254	-0.00505908	5.426251e-09	1.796548e-08	-0.05237084	0.0500823	2.424253e-09	2.009758e-09
	6.57101e-10	-1.250673e-10	0.004822727	-0.00487445	2.424253e-09	2.009758e-09	-0.05175923	0.05062581
2.2e+08	-0.03925658	0.0456106	7.364689e-11	3.228049e-12	0.003117609	-0.00392085	6.244265e-10	-2.822938e-10
	7.364689e-11	3.228049e-12	-0.03866091	0.0460318	5.279982e-09	1.81461e-08	0.003403994	-0.003790585
	0.003117609	-0.00392085	5.279982e-09	1.81461e-08	-0.03910629	0.04570625	2.331941e-09	1.622701e-09
	6.244265e-10	-2.822938e-10	0.003403994	-0.003790585	2.331941e-09	1.622701e-09	-0.03853476	0.04611351
2.3e+08	-0.02752261	0.03810271	2.065847e-10	-4.41327e-11	0.002038125	-0.002469033	5.519959e-10	-4.326705e-10
	2.065847e-10	-4.41327e-11	-0.02701701	0.03840322	4.963025e-09	1.838055e-08	0.002276342	-0.002385923
	0.002038125	-0.002469033	4.963025e-09	1.838055e-08	-0.02738708	0.03818685	2.105291e-09	1.253039e-09
	5.519959e-10	-4.326705e-10	0.002276342	-0.002385923	2.105291e-09	1.253039e-09	-0.02690066	0.03846713
2.4e+08	-0.01804381	0.02792248	3.276339e-10	-1.273287e-10	0.001338968	-0.0007886651	4.41397e-10	-5.662697e-10
	3.276339e-10	-1.273287e-10	-0.01766986	0.02812478	4.489828e-09	1.87125e-08	0.001512707	-0.0007407357
	0.001338968	-0.0007886651	4.489828e-09	1.87125e-08	-0.01792806	0.02799859	1.74683e-09	9.396492e-10
	4.41397e-10	-5.662697e-10	0.001512707	-0.0007407357	1.74683e-09	9.396492e-10	-0.01756953	0.02817316
2.5e+08	-0.0113997	0.01570399	4.281685e-10	-2.394898e-10	0.001068029	0.001018255	2.966356e-10	-6.735508e-10
	4.281685e-10	-2.394898e-10	-0.0111932	0.01584162	3.885747e-09	1.918158e-08	0.001164015	0.001047281
	0.001068029	0.001018255	3.885747e-09	1.918158e-08	-0.01130791	0.01577692	1.271531e-09	7.210322e-10
	2.966356e-10	-6.735508e-10	0.001164015	0.001047281	1.271531e-09	7.210322e-10	-0.01111456	0.01587847
2.6e+08	-0.007997068	0.002204609	5.034239e-10	-3.722973e-10	0.001245413	0.002839389	1.24056e-10	-7.459061e-10
	5.034239e-10	-3.722973e-10	-0.007985065	0.002320616	3.185832e-09	1.982071e-08	0.001254535	0.002869283
	0.001245413	0.002839389	3.185832e-09	1.982071e-08	-0.007932214	0.002280321	7.066016e-10	6.308208e-10
	1.24056e-10	-7.459061e-10	0.001254535	0.002869283	7.066016e-10	6.308208e-10	-0.007932789	0.002351481
2.7e+08	-0.008043608	-0.01174188	5.522464e-10	-5.180022e-10	0.001861024	0.004560062	-6.783548e-11	-7.762104e-10
	5.522464e-10	-5.180022e-10	-0.008241897	-0.01159731	2.433089e-09	2.065393e-08	0.001779243	0.00461299
	0.001861024	0.004560062	2.433089e-09	2.065393e-08	-0.008007179	-0.01165659	8.946158e-11	6.935157e-10
	-6.783548e-11	-7.762104e-10	0.001779243	0.00461299	8.946158e-11	6.935157e-10	-0.008219211	-0.01156563
2.8e+08	-0.01153474	-0.02527794	5.758495e-10	-6.709546e-10	0.002874715	0.006071875	-2.686674e-10	-7.593713e-10
	5.758495e-10	-6.709546e-10	-0.01194601	-0.02505056	1.676287e-09	2.169453e-08	0.002703671	0.006171064
	0.002874715	0.006071875	1.676287e-09	2.169453e-08	-0.01152652	-0.02517588	-5.358962e-10	9.212435e-10
	-2.686674e-10	-7.593713e-10	0.002703671	0.006171064	-5.358962e-10	9.212435e-10	-0.01195437	-0.02501038
2.9e+08	-0.01825489	-0.03757684	5.759832e-10	-8.281687e-10	0.004219134	0.007280982	-4.666536e-10	-6.92856e-10
	5.759832e-10	-8.281687e-10	-0.01886774	-0.03721179	9.67388e-10	2.294374e-08	0.003966397	0.007449238
	0.004219134	0.007280982	9.67388e-10	2.294374e-08	-0.01827283	-0.03745078	-1.123567e-09	1.312184e-09
	-4.666536e-10	-6.92856e-10	0.003966397	0.007449238	-1.123567e-09	1.312184e-09	-0.01890658	-0.03715504
3e+08	-0.02779315	-0.04789465	5.531334e-10	-9.887528e-10	0.005805011	0.008115087	-6.492217e-10	-5.77138e-10
	5.531334e-10	-9.887528e-10	-0.02858207	-0.04734024	3.586568e-10	2.438992e-08	0.005483938	0.008373262
	0.005805011	0.008115087	3.586568e-10	2.438992e-08	-0.02783341	-0.04773785	-1.630584e-09	1.85095e-09
	-6.492217e-10	-5.77138e-10	0.005483938	0.008373262	-1.630584e-09	1.85095e-09	-0.02864874	-0.04725896
3.1e+08	-0.03957208	-0.05561584	5.007158e-10	-1.153538e-09	0.007528278	0.008528401	-8.037525e-10	-4.159537e-10
	5.007158e-10	-1.153538e-09	-0.04049842	-0.05482721	-1.018563e-10	2.600807e-08	0.007157468	0.008893914
	0.007528278	0.008528401	-1.018563e-10	2.600807e-08	-0.0396291	-0.0554225	-2.025793e-09	2.509611e-09
	-8.037525e-10	-4.159537e-10	0.007157468	0.008893914	-2.025793e-09	2.509611e-09	-0.04058823	-0.05471412
3.2e+08	-0.05288679	-0.06028907	4.086631e-10	-1.317434e-09	0.009278152	0.008504109	-9.185549e-10	-2.164337e-10
	4.086631e-10	-1.317434e-09	-0.05390072	-0.05923151	-3.724959e-10	2.776194e-08	0.008880526	0.008989634
	0.009278152	0.008504109	-3.724959e-10	2.776194e-08	-0.05295358	-0.06005475	-2.28896e-09	3.256844e-09
	-9.185549e-10	-2.164337e-10	0.008880526	0.008989634	-2.28896e-09	3.256844e-09	-0.0540071	-0.05908055
3.3e+08	-0.0669511	-0.061651	2.817391e-10	-1.47063e-09	0.01094528	0.008054281	-9.840523e-10	1.114111e-11
	2.817391e-10	-1.47063e-09	-0.06799437	-0.06030264	-4.16094e-10	2.96048e-08	0.01054683	0.008666684
	0.01094528	0.008054281	-4.16094e-10	2.96048e-08	-0.06701956	-0.06137294	-2.394549e-09	4.058782e-09
	-9.840523e-10	1.114111e-11	0.01054683	0.008666684	-2.394549e-09	4.058782e-09	-0.06810924	-0.06010948
3.4e+08	-0.08094687	-0.05963717	1.169899e-10	-1.604064e-09	0.01242909	0.007217501	-9.933137e-10	2.540531e-10
	1.169899e-10	-1.604064e-09	-0.08195621	-0.05799098	-2.10117e-10	3.147987e-08	0.01205739	0.007957117
	0.01242909	0.007217501	-2.10117e-10	3.147987e-08	-0.08100821	-0.05931457	-2.336155e-09	4.876186e-09
	-9.933137e-10	2.540531e-10	0.01205739	0.007957117	-2.336155e-09	4.876186e-09	-0.08207044	-0.05775338
3.5e+08	-0.09407299	-0.05438013	-8.557523e-11	-1.70517e-09	0.0136438	0.006054749	-9.42856e-10	4.978782e-10
	-8.557523e-11	-1.70517e-09	-0.09498393	-0.05244496	2.534762e-10	3.33246e-08	0.01332634	0.006915048
	0.0136438	0.006054749	2.534762e-10	3.33246e-08	-0.09411819	-0.05401433	-2.116649e-09	5.671703e-09
	-9.42856e-10	4.978782e-10	0.01332634	0.006915048	-2.116649e-09	5.671703e-09	-0.09508787	-0.05216296
3.6e+08	-0.1055908	-0.04619616	-3.208546e-10	-1.759227e-09	0.01452273	0.004644188	-8.330377e-10	7.274858e-10
	-3.208546e-10	-1.759227e-09	-0.1063417	-0.04399686	9.666976e-10	3.507449e-08	0.01428517	0.005611872
	0.01452273	0.004644188	9.666977e-10	3.507449e-08	-0.1056112	-0.04579071	-1.746137e-09	6.411569e-09
	-8.330377e-10	7.274858e-10	0.01428517	0.005611872	-1.746137e-09	6.411569e-09	-0.1064258	-0.04367289
3.7e+08	-0.114864	-0.03556236	-5.772781e-10	-1.751782e-09	0.01502081	0.003075517	-6.681434e-10	9.28111e-10
	-5.772781e-10	-1.751782e-09	-0.1153999	-0.03313879	1.905038e-09	3.666729e-08	0.01488535	0.00413104
	0.01502081	0.003075517	1.905038e-09	3.666729e-08	-0.1148517	-0.03512293	-1.23997e-09	7.066176e-09
	-6.681434e-10	9.28111e-10	0.01488535	0.00413104	-1.23997e-09	7.066176e-09	-0.1154552	-0.03277765
3.8e+08	-0.1213902	-0.02308622	-8.366643e-10	-1.671669e-09	0.01511568	0.001444377	-4.561576e-10	1.086392e-09
	-8.366643e-10	-1.671669e-09	-0.1216666	-0.02049141	3.02813e-09	3.804736e-08	0.01509953	0.002562877
	0.01511568	0.001444377	3.02813e-09	3.804736e-08	-0.1213389	-0.02262038	-6.172939e-10	7.609796e-09
	-4.561576e-10	1.086392e-09	0.01509953	0.002562877	-6.172939e-10	7.609796e-09	-0.1216854	-0.02010007
3.9e+08	-0.1248256	-0.009469985	-1.075492e-09	-1.514008e-09	0.01480748	-0.0001528181	-2.082684e-10	1.191285e-09
	-1.075492e-09	-1.514008e-09	-0.1248112	-0.006767399	4.281608e-09	3.916981e-08	0.01492158	0.0009997686
	0.01480748	-0.0001528181	4.281608e-09	3.916981e-08	-0.1247305	-0.008986837	9.957566e-11	8.019934e-09
	-2.082684e-10	1.191285e-09	0.01492158	0.0009997686	9.957566e-11	8.019934e-09	-0.1247877	-0.006354689
4e+08	-0.1249992	0.004528306	-1.267487e-09	-1.282568e-09	0.01411771	-0.001623495	6.183807e-11	1.234797e-09
	-1.267487e-09	-1.282568e-09	-0.1246789	0.007268141	5.600073e-09	4.000405e-08	0.01436583	-0.0004681542
	0.01411771	-0.001623495	5.600073e-09	4.000405e-08	-0.124858	0.005018534	8.849598e-10	8.276853e-09
	6.183807e-11	1.234797e-09	0.01436583	-0.0004681542	8.849598e-10	8.276853e-09	-0.1246094	0.00769203
4.1e+08	-0.12192	0.01813516	-1.387163e-09	-9.909176e-10	0.01308758	-0.002882966	3.38827e-10	1.212497e-09
	-1.387163e-09	-9.909176e-10	-0.1212959	0.02083861	6.910995e-09	4.053656e-08	0.01346577	-0.001756859
	0.01308758	-0.002882966	6.910995e-09	4.053656e-08	-0.1217328	0.01862168	1.709046e-09	8.363713e-09
	3.38827e-10	1.212497e-09	0.01346577	-0.001756859	1.709046e-09	8.363713e-09	-0.1211792	0.02126264
4.2e+08	-0.1157745	0.03060193	-1.413745e-09	-6.620553e-10	0.0117758	-0.003858005	6.066451e-10	1.123797e-09
	-1.413745e-09	-6.620553e-10	-0.1148666	0.0331965	8.139295e-09	4.077245e-08	0.0122723	-0.002791878
	0.0117758	-0.003858005	8.139295e-09	4.077245e-08	-0.1155439	0.03107399	2.536997e-09	8.267629e-09
	6.066451e-10	1.123797e-09	0.0122723	-0.002791878	2.536997e-09	8.267629e-09	-0.1147042	0.0336094
4.3e+08	-0.1069164	0.04124362	-1.334807e-09	-3.26408e-10	0.010256	-0.004490058	8.494734e-10	9.719992e-10
	-1.334807e-09	-3.26408e-10	-0.1057624	0.0436623	9.212254e-09	4.073583e-08	0.01085166	-0.003511513
	0.010256	-0.004490058	9.212254e-09	4.073583e-08	-0.1066478	0.04169114	3.328484e-09	7.981649e-09
	8.494734e-10	9.719992e-10	0.01085166	-0.003511513	3.328484e-09	7.981649e-09	-0.1055587	0.04405326
4.4e+08	-0.09584891	0.04947484	-1.148953e-09	-1.84089e-11	0.008613716	-0.00473815	1.052646e-09	7.641033e-10
	-1.148953e-09	-1.84089e-11	-0.09450246	0.05166036	1.006439e-08	4.046878e-08	0.00928277	-0.003869855
	0.008613716	-0.00473815	1.006439e-08	4.046878e-08	-0.09554998	0.04988905	4.038179e-09	7.507442e-09
	1.052646e-09	7.641033e-10	0.00928277	-0.003869855	4.038179e-09	7.507442e-09	-0.09426438	0.05201969
4.5e+08	-0.08319875	0.05484161	-8.669841e-10	2.278771e-10	0.006942738	-0.004581432	1.203486e-09	5.104172e-10
	-8.669841e-10	2.278771e-10	-0.0817273	0.05675033	1.064191e-08	4.00291e-08	0.007654106	-0.003839549
	0.006942738	-0.004581432	1.064191e-08	4.00291e-08	-0.08287935	0.05521566	4.617607e-09	6.858206e-09
	1.203486e-09	5.104172e-10	0.007654106	-0.003839549	4.617607e-09	6.858206e-09	-0.08146408	0.05707008
4.6e+08	-0.06968426	0.05704742	-5.11224e-10	3.833897e-10	0.005340747	-0.004021213	1.292e-09	2.239833e-10
	-5.11224e-10	3.833897e-10	-0.0681654	0.05865257	1.090643e-08	3.948687e-08	0.006059665	-0.003414147
	0.005340747	-0.004021213	1.090643e-08	3.948687e-08	-0.06935586	0.05737687	5.018528e-09	6.061088e-09
	1.292e-09	2.239833e-10	0.006059665	-0.003414147	5.018528e-09	6.061088e-09	-0.06788821	0.05892712
4.7e+08	-0.05607711	0.05597194	-1.129907e-10	4.281696e-10	0.003904239	-0.003082167	1.311407e-09	-8.012022e-11
	-1.129907e-10	4.281696e-10	-0.05459441	0.05726604	1.083759e-08	3.892031e-08	0.004594202	-0.002609726
	0.003904239	-0.003082167	1.083759e-08	3.892031e-08	-0.05575223	0.05625518	5.197653e-09	5.158402e-09
	1.311407e-09	-8.012022e-11	0.004594202	-0.002609726	5.197653e-09	5.158402e-09	-0.05431575	0.05749257
4.8e+08	-0.04315986	0.05168094	2.914411e-10	3.541438e-10	0.002722814	-0.001812372	1.258487e-09	-3.855478e-10
