!$
! Info: Touchstone file created by Circ.  Input file=Tx_10in_Rx_100ohms_TxVia_10mils_RxVia_20mils.circ
!$
# Hz S RI R 50
0	0.0104104	6.595362e-26	-5.384913e-05	1.653795e-25	6.654776e-05	1.104529e-23	-5.387462e-05	2.958244e-24
	-5.384914e-05	1.667356e-25	0.01041105	9.165124e-26	-5.384178e-05	5.815153e-26	6.463934e-05	1.480141e-23
	6.524732e-05	1.076216e-23	-5.384178e-05	5.826864e-26	0.0104256	6.906191e-26	-5.385142e-05	3.534644e-25
	-5.387461e-05	2.957021e-24	6.609488e-05	1.52342e-23	-5.385139e-05	3.510985e-25	0.01041662	8.740552e-26
1e+07	0.01516425	0.006491102	-0.0001897317	1.981158e-05	0.0006406858	0.001834634	-7.25605e-05	-4.765321e-06
	-0.0001897317	1.981157e-05	0.0153167	0.006476302	-1.275526e-05	0.0001226826	0.0006374744	0.001832898
	0.0006406416	0.001834637	-1.275525e-05	0.0001226826	0.01533454	0.006477315	-0.0001897477	1.978636e-05
	-7.25605e-05	-4.765319e-06	0.0006375073	0.001832887	-0.0001897477	1.978636e-05	0.0151794	0.006494112
2e+07	0.01980243	0.009209393	-0.0001542828	-5.438871e-05	0.001063424	0.003760342	-5.773567e-05	-1.070986e-05
	-0.0001542828	-5.438872e-05	0.01990336	0.009130535	-4.895241e-05	0.0002060631	0.001051451	0.003759034
	0.001063414	0.00376037	-4.895241e-05	0.0002060631	0.01993029	0.00913013	-0.0001543129	-5.444291e-05
	-5.773567e-05	-1.070986e-05	0.001051449	0.003759012	-0.0001543129	-5.444291e-05	0.01981275	0.00921445
3e+07	0.02384233	0.01001247	-0.000131052	-7.722163e-05	0.00184978	0.005381023	-4.927052e-05	-1.902195e-05
	-0.000131052	-7.722163e-05	0.02389417	0.009914828	-0.0001086511	0.0002500911	0.001824273	0.005383779
	0.00184978	0.005381027	-0.0001086511	0.0002500911	0.02393534	0.009909384	-0.0001311058	-7.731444e-05
	-4.927052e-05	-1.902195e-05	0.001824268	0.005383776	-0.0001311058	-7.731444e-05	0.02384551	0.01002216
4e+07	0.02750641	0.009756426	-0.0001147969	-8.924318e-05	0.002966029	0.00674441	-4.293458e-05	-2.313288e-05
	-0.0001147969	-8.924318e-05	0.02750927	0.009657327	-0.0001538671	0.0002857909	0.002923345	0.006756075
	0.002966025	0.006744407	-0.0001538671	0.0002857909	0.02756852	0.009641536	-0.0001148803	-8.938495e-05
	-4.293458e-05	-2.313288e-05	0.002923345	0.006756076	-0.0001148803	-8.938495e-05	0.02749928	0.009771434
5e+07	0.03080035	0.008679614	-0.0001025037	-9.630816e-05	0.004471335	0.007739309	-3.782475e-05	-2.55642e-05
	-0.0001025037	-9.630816e-05	0.03075538	0.008592666	-0.0001895948	0.0003190836	0.004409231	0.007765511
	0.004471334	0.007739308	-0.0001895948	0.0003190836	0.03083477	0.008560104	-0.0001026289	-9.650701e-05
	-3.782475e-05	-2.55642e-05	0.004409231	0.007765512	-0.0001026289	-9.650701e-05	0.03077929	0.008703458
6e+07	0.0336815	0.00692843	-9.246058e-05	-0.0001004383	0.006113689	0.008405157	-3.349601e-05	-2.718779e-05
	-9.246058e-05	-0.0001004383	0.03359159	0.00686573	-0.0002185687	0.0003516992	0.006031648	0.008452229
	0.006113695	0.008405155	-0.0002185687	0.0003516992	0.0336912	0.006809465	-9.264484e-05	-0.0001006992
	-3.349601e-05	-2.718779e-05	0.006031645	0.00845223	-9.264484e-05	-0.0001006992	0.03364498	0.006965862
7e+07	0.03609469	0.004621219	-0.0001034016	-8.500653e-05	0.007828296	0.008725622	-2.92579e-05	-2.82427e-05
	-0.0001034016	-8.500653e-05	0.03596476	0.004593636	-0.0002424708	0.0003840801	0.007727553	0.008799992
	0.007828307	0.008725616	-0.0002424708	0.0003840801	0.03608261	0.004506818	-0.0001036579	-8.531247e-05
	-2.92579e-05	-2.82427e-05	0.007727548	0.008799994	-0.0001036579	-8.531247e-05	0.03604256	0.004676836
8e+07	0.0379874	0.001869651	-0.0001220179	-5.187232e-05	0.009546969	0.00869578	-3.253805e-05	-2.078656e-05
	-0.0001220179	-5.187232e-05	0.03782445	0.001886681	-0.000263556	0.0004156106	0.009430486	0.00880355
	0.00954698	0.00869577	-0.000263556	0.0004156106	0.03795666	0.00176307	-0.0001223477	-5.221276e-05
	-3.253805e-05	-2.078656e-05	0.009430481	0.008803553	-0.0001223477	-5.221276e-05	0.03792032	0.001948025
9e+07	0.0393181	-0.001213964	-0.0001302995	-1.449133e-05	0.01120045	0.008323009	-3.531803e-05	-9.802915e-06
	-0.0001302995	-1.449133e-05	0.03913116	-0.0011444	-0.0002859673	0.0004448411	0.01107282	0.008469547
	0.01120046	0.008323	-0.0002859673	0.0004448411	0.03927222	-0.00130998	-0.0001307184	-1.48572e-05
	-3.531803e-05	-9.802916e-06	0.01107281	0.00846955	-0.0001307184	-1.48572e-05	0.03923771	-0.001108023
1e+08	0.04007247	-0.004508895	-0.0001233089	2.778857e-05	0.01271547	0.007624018	-3.334576e-05	2.444052e-06
	-0.0001233089	2.778857e-05	0.03987395	-0.004380005	-0.0003253899	0.0004641869	0.01258269	0.007813586
	0.01271547	0.007624018	-0.0003253899	0.0004641869	0.04001692	-0.004591286	-0.0001238316	2.740688e-05
	-3.334576e-05	2.444052e-06	0.01258269	0.007813586	-0.0001238316	2.740688e-05	0.03998187	-0.004370567
1.1e+08	0.04023704	-0.007999672	-0.0001007142	4.985568e-05	0.01403043	0.006673567	-2.677474e-05	7.906742e-06
	-0.0001007142	4.985568e-05	0.0400398	-0.007815213	-0.0003323487	0.0004384613	0.01389936	0.006908565
	0.01403043	0.006673567	-0.0003323487	0.0004384613	0.04017806	-0.008076555	-0.0001013689	4.947265e-05
	-2.677474e-05	7.906742e-06	0.01389936	0.006908565	-0.0001013689	4.947265e-05	0.04014136	-0.007824557
1.2e+08	0.03973141	-0.01149886	-8.296692e-05	6.424789e-05	0.01513061	0.005488884	-2.222895e-05	1.118464e-05
	-8.296692e-05	6.424789e-05	0.03954165	-0.01125996	-0.0003204864	0.0004283061	0.01500941	0.005770533
	0.01513061	0.005488884	-0.0003204864	0.0004283061	0.03966504	-0.01157104	-8.376391e-05	6.390372e-05
	-2.222895e-05	1.118464e-05	0.01500941	0.005770533	-8.376391e-05	6.390372e-05	0.03963682	-0.01128474
1.3e+08	0.03859712	-0.01487759	-6.60906e-05	7.45787e-05	0.01596442	0.004113566	-1.830373e-05	1.345697e-05
	-6.60906e-05	7.45787e-05	0.03842313	-0.01458581	-0.0003039621	0.0004224287	0.01586159	0.004440998
	0.01596442	0.004113566	-0.0003039621	0.0004224287	0.03852206	-0.01494377	-6.702958e-05	7.431239e-05
	-1.830373e-05	1.345697e-05	0.01586159	0.004440998	-6.702958e-05	7.431239e-05	0.03851038	-0.01462373
1.4e+08	0.03687933	-0.01802544	-4.962538e-05	8.158684e-05	0.01649756	0.002604233	-1.47657e-05	1.501558e-05
	-4.962538e-05	8.158684e-05	0.03672963	-0.01768395	-0.0002859058	0.0004180991	0.01642142	0.002974471
	0.01649756	0.002604233	-0.0002859058	0.0004180991	0.03679544	-0.01808379	-5.069569e-05	8.143703e-05
	-1.47657e-05	1.501558e-05	0.01642142	0.002974471	-5.069569e-05	8.143703e-05	0.03680753	-0.01773271
1.5e+08	0.03463757	-0.02084362	-3.360084e-05	8.562771e-05	0.01670887	0.001023682	-1.152151e-05	1.602584e-05
	-3.360084e-05	8.562771e-05	0.03452026	-0.02045744	-0.000267997	0.0004142902	0.01666712	0.001431709
	0.01670887	0.001023682	-0.000267997	0.0004142902	0.03454552	-0.02089225	-3.478129e-05	8.56302e-05
	-1.152151e-05	1.602584e-05	0.01666712	0.001431709	-3.478129e-05	8.56302e-05	0.03458767	-0.02051461
1.6e+08	0.03194537	-0.02324639	-1.822522e-05	8.695669e-05	0.01659065	-0.0005622236	-8.526869e-06	1.659393e-05
	-1.822522e-05	8.695669e-05	0.03186763	-0.02282229	-0.000251315	0.0004107801	0.01658988	-0.0001233001
	0.01659065	-0.0005622235	-0.000251315	0.0004107801	0.03184647	-0.02328354	-1.9485e-05	8.714156e-05
	-8.526869e-06	1.659393e-05	0.01658988	-0.0001233001	-1.9485e-05	8.714156e-05	0.03192385	-0.02288538
1.7e+08	0.02888855	-0.0251629	-3.775129e-06	8.582767e-05	0.01614873	-0.002087404	-5.758334e-06	1.67954e-05
	-3.775129e-06	8.582767e-05	0.02885625	-0.02470932	-0.0002365403	0.00040782	0.01619404	-0.001626098
	0.01614873	-0.002087404	-0.0002365403	0.00040782	0.02878462	-0.02518714	-5.075668e-06	8.621664e-05
	-5.758334e-06	1.67954e-05	0.01619404	-0.001626098	-5.075668e-06	8.621664e-05	0.02890099	-0.02477579
1.8e+08	0.02556288	-0.026539	9.462922e-06	8.253118e-05	0.01540218	-0.003488319	-3.202605e-06	1.668765e-05
	9.462922e-06	8.253118e-05	0.02558012	-0.02606573	-0.0002240055	0.0004059479	0.01549675	-0.003014421
	0.01540218	-0.003488319	-0.0002240055	0.0004059479	0.0254561	-0.02654928	8.165397e-06	8.313548e-05
	-3.202605e-06	1.668765e-05	0.01549675	-0.003014421	8.165397e-06	8.313548e-05	0.02561356	-0.0261331
1.9e+08	0.02207124	-0.02733867	2.123256e-05	7.740508e-05	0.01438245	-0.004706585	-8.517605e-07	1.631648e-05
	2.123256e-05	7.740508e-05	0.02214004	-0.02685653	-0.0002137132	0.0004058515	0.01452731	-0.004230735
	0.01438245	-0.004706585	-0.0002137132	0.0004058515	0.02196402	-0.02733438	1.99838e-05	7.822425e-05
	-8.517605e-07	1.631648e-05	0.01452731	-0.004230735	1.99838e-05	7.822425e-05	0.02216279	-0.02692242
2e+08	0.01852038	-0.02754494	3.1336e-05	7.08294e-05	0.01313206	-0.005691362	1.299145e-06	1.571978e-05
	3.1336e-05	7.08294e-05	0.0186404	-0.02706531	-0.0002053513	0.0004082533	0.01332586	-0.005224564
	0.01313206	-0.005691362	-0.0002053513	0.0004082533	0.01841528	-0.02752596	3.018026e-05	7.185104e-05
	1.299145e-06	1.571978e-05	0.01332586	-0.005224564	3.018026e-05	7.185104e-05	0.01865354	-0.02712755
2.1e+08	0.01501759	-0.0271603	3.965386e-05	6.321114e-05	0.01170288	-0.006401431	3.253356e-06	1.492992e-05
	3.965386e-05	6.321114e-05	0.01518602	-0.0266946	-0.0001983214	0.0004138112	0.01194178	-0.005954516
	0.01170288	-0.006401431	-0.0001983214	0.0004138112	0.01491721	-0.02712698	3.863042e-05	6.441179e-05
	3.253356e-06	1.492992e-05	0.01194178	-0.005954516	3.863042e-05	6.441179e-05	0.015191	-0.02675125
2.2e+08	0.01166726	-0.0262064	4.615555e-05	5.496323e-05	0.01015393	-0.006806863	5.013233e-06	1.397522e-05
	4.615555e-05	5.496323e-05	0.01187874	-0.02576555	-0.0001917812	0.0004230318	0.01043168	-0.006389943
	0.01015393	-0.006806863	-0.0001917812	0.0004230318	0.01157416	-0.02615958	4.529565e-05	5.631026e-05
	5.013233e-06	1.397522e-05	0.01043168	-0.006389943	4.529565e-05	5.631026e-05	0.01187738	-0.02581502
2.3e+08	0.008567537	-0.02472321	5.090119e-05	4.648074e-05	0.008549	-0.006890234	6.580774e-06	1.288097e-05
	5.090119e-05	4.648074e-05	0.008814276	-0.02431704	-0.0001847046	0.0004362	0.008857034	-0.006512157
	0.008549	-0.006890234	-0.0001847046	0.0004362	0.008484116	-0.02466422	5.022558e-05	4.793515e-05
	6.580774e-06	1.288097e-05	0.008857034	-0.006512157	5.022558e-05	4.793515e-05	0.008808659	-0.02435816
2.4e+08	0.005807101	-0.02276751	5.40358e-05	3.811672e-05	0.006953998	-0.006647312	7.957896e-06	1.16701e-05
	5.40358e-05	3.811672e-05	0.006079089	-0.02240427	-0.0001759545	0.0004533332	0.007281753	-0.00631515
	0.006953998	-0.006647312	-0.0001759545	0.0004533332	0.005735542	-0.02269813	5.355336e-05	3.963664e-05
	7.957896e-06	1.16701e-05	0.007281753	-0.00631515	5.355336e-05	3.963664e-05	0.006071516	-0.0224363
2.5e+08	0.003462361	-0.02041091	5.577472e-05	3.016168e-05	0.005434264	-0.006087203	9.146667e-06	1.036359e-05
	5.577472e-05	3.016168e-05	0.00374772	-0.0200967	-0.0001643637	0.0004741502	0.005769531	-0.005805808
	0.005434264	-0.006087203	-0.0001643637	0.0004741502	0.003404525	-0.02033334	5.54821e-05	3.170612e-05
	9.146667e-06	1.036359e-05	0.005769531	-0.005805808	5.54821e-05	3.170612e-05	0.003740599	-0.02011942
2.6e+08	0.001594985	-0.01773724	5.638413e-05	2.282726e-05	0.004051883	-0.005231949	1.014935e-05	8.980796e-06
	5.638413e-05	2.282726e-05	0.001880423	-0.01747565	-0.0001488197	0.0004980697	0.004381296	-0.00500358
	0.004051883	-0.005231949	-0.0001488197	0.0004980697	0.001552329	-0.01765405	5.626666e-05	2.435989e-05
	1.014935e-05	8.980796e-06	0.004381296	-0.00500358	5.626666e-05	2.435989e-05	0.001876165	-0.01748935
2.7e+08	0.0002499806	-0.01483969	5.615662e-05	1.623697e-05	0.002863154	-0.004115581	1.096839e-05	7.539659e-06
	5.615662e-05	1.623697e-05	0.0005213315	-0.01463146	-0.0001283471	0.0005242278	0.003172745	-0.003939652
	0.002863154	-0.004115581	-0.0001283471	0.0005242278	0.0002234834	-0.0147537	5.619036e-05	1.772951e-05
	1.096839e-05	7.539659e-06	0.003172745	-0.003939652	5.619036e-05	1.772951e-05	0.0005222496	-0.01463691
2.8e+08	-0.0005456658	-0.01181746	5.538567e-05	1.042388e-05	0.0019163	-0.002782691	1.160638e-05	6.057076e-06
	5.538567e-05	1.042388e-05	-0.0003028185	-0.01166029	-0.0001021783	0.0005515224	0.002192116	-0.00265563
	0.0019163	-0.002782691	-0.0001021783	0.0005515224	-0.0005555548	-0.01173171	5.554048e-05	1.185863e-05
	1.160638e-05	6.057076e-06	0.002192116	-0.00265563	5.554048e-05	1.185863e-05	-0.0002946087	-0.01165877
2.9e+08	-0.0007837099	-0.008772406	5.434005e-05	5.336367e-06	0.001249527	-0.001286573	1.206601e-05	4.549096e-06
	5.434005e-05	5.336367e-06	-0.0005833762	-0.008660884	-6.98135e-05	0.0005786703	0.001478268	-0.001201817
	0.001249527	-0.001286573	-6.98135e-05	0.0005786703	-0.0007771198	-0.008690009	5.458335e-05	6.707799e-06
	1.206601e-05	4.549096e-06	0.001478268	-0.001201817	5.458335e-05	6.707799e-06	-0.0005660634	-0.008654091
3e+08	-0.0004747208	-0.005805483	5.324118e-05	8.51101e-07	0.0008895033	0.0003129945	1.235008e-05	3.031227e-06
	5.324118e-05	8.51101e-07	-0.0003298353	-0.005731186	-3.106154e-05	0.0006042796	0.001059164	0.0003648634
	0.0008895033	0.0003129945	-3.106154e-05	0.0006042796	-0.0004523745	-0.00572954	5.354211e-05	2.166115e-06
	1.235008e-05	3.031227e-06	0.001059164	0.0003648634	5.354211e-05	2.166115e-06	-0.0003019918	-0.005721183
3.1e+08	0.0003525081	-0.003013309	5.224568e-05	-3.208587e-06	0.0008503158	0.001952208	1.246157e-05	1.518824e-06
	5.224568e-05	-3.208587e-06	0.0004307347	-0.002965021	1.394464e-05	0.0006269327	0.0009507967	0.001983194
	0.0008503158	0.001952208	1.394464e-05	0.0006269327	0.0003892938	-0.002946778	5.257924e-05	-1.931709e-06
	1.246157e-05	1.518824e-06	0.0009507967	0.001983194	5.257924e-05	-1.931709e-06	0.0004700792	-0.002954151
3.2e+08	0.00165217	-0.0004849018	5.143381e-05	-7.049448e-06	0.001132954	0.003565854	1.240389e-05	2.72799e-08
	5.143381e-05	-7.049448e-06	0.001654848	-0.0004489837	6.474797e-05	0.0006452662	0.00115661	0.003590145
	0.001132954	0.003565854	6.474797e-05	0.0006452662	0.001701512	-0.0004304818	5.178453e-05	-5.783381e-06
	1.240389e-05	2.72799e-08	0.00115661	0.003590145	5.178453e-05	-5.783381e-06	0.001706155	-0.0004397687
3.3e+08	0.003363246	0.001701291	5.08056e-05	-1.088314e-05	0.001725328	0.005089968	1.218114e-05	-1.427767e-06
	5.08056e-05	-1.088314e-05	0.003284322	0.001740407	0.0001205922	0.00065805	0.001667431	0.005123422
	0.001725328	0.005089968	0.0001205922	0.00065805	0.003422746	0.001741272	5.117036e-05	-9.594978e-06
	1.218114e-05	-1.427767e-06	0.001667431	0.005123422	5.117036e-05	-9.594978e-06	0.003347515	0.001745376
3.4e+08	0.005411813	0.003479958	5.028451e-05	-1.490163e-05	0.002602819	0.006464415	1.179851e-05	-2.830308e-06
	5.028451e-05	-1.490163e-05	0.005248475	0.003539168	0.0001804706	0.0006642556	0.002461909	0.006523945
	0.002602819	0.006464415	0.0001804706	0.0006642556	0.005478629	0.003503644	5.067426e-05	-1.355715e-05
	1.179851e-05	-2.830308e-06	0.002461909	0.006523945	5.067426e-05	-1.355715e-05	0.00532293	0.003537343
3.5e+08	0.007713777	0.004800999	4.97282e-05	-1.925427e-05	0.003729328	0.007635305	1.126263e-05	-4.164112e-06
	4.97282e-05	-1.925427e-05	0.007466736	0.004897839	0.0002431818	0.0006631081	0.00350744	0.0077382
	0.003729328	0.007635305	0.0002431818	0.0006631081	0.007784721	0.004807091	5.016822e-05	-1.782268e-05
	1.126263e-05	-4.164112e-06	0.00350744	0.0077382	5.016822e-05	-1.782268e-05	0.007551301	0.004886829
3.6e+08	0.01017793	0.00563104	4.894549e-05	-2.402983e-05	0.005058786	0.00855714	1.058201e-05	-5.412919e-06
	4.894549e-05	-2.402983e-05	0.009851546	0.005782949	0.0003074047	0.0006541206	0.00476152	0.00872033
	0.005058786	0.00855714	0.0003074047	0.0006541206	0.01024957	0.005618865	4.947423e-05	-2.248849e-05
	1.058201e-05	-5.412919e-06	0.00476152	0.00872033	4.947423e-05	-2.248849e-05	0.009944579	0.005760629
3.7e+08	0.0127092	0.005954354	4.771788e-05	-2.924405e-05	0.006537047	0.009194601	9.767247e-06	-6.56085e-06
	4.771788e-05	-2.924405e-05	0.01231147	0.006177905	0.0003717723	0.0006371085	0.006173497	0.009433926
	0.006537047	0.009194601	0.0003717723	0.0006371085	0.01277802	0.00592391	4.838429e-05	-2.758277e-05
	9.767247e-06	-6.56085e-06	0.006173497	0.009433926	4.838429e-05	-2.758277e-05	0.0124109	0.006142514
3.8e+08	0.01521204	0.005773143	4.582369e-05	-3.483446e-05	0.008104092	0.009523932	8.831244e-06	-7.592879e-06
	4.582369e-05	-3.483446e-05	0.01475439	0.006083292	0.0004349486	0.0006121823	0.007686617	0.009853412
	0.008104092	0.009523932	0.0004349486	0.0006121823	0.01527451	0.005725114	4.668327e-05	-3.305884e-05
	8.831244e-06	-7.592879e-06	0.007686617	0.009853412	4.668327e-05	-3.305884e-05	0.01485781	0.006033514
3.9e+08	0.01759373	0.005107202	4.306252e-05	-4.066249e-05	0.009696454	0.009533842	7.789163e-06	-8.495373e-06
	4.306252e-05	-4.066249e-05	0.01709069	0.005516567	0.0004956983	0.000579721	0.0092403	0.009965009
	0.009696454	0.009533842	0.0004956983	0.000579721	0.01764649	0.005042952	4.417245e-05	-3.879609e-05
	7.789163e-06	-8.495373e-06	0.0092403	0.009965009	4.417245e-05	-3.879609e-05	0.01719542	0.005451602
4e+08	0.01976755	0.003992959	3.927817e-05	-4.652275e-05	0.01124976	0.009225921	6.658262e-06	-9.256631e-06
	3.927817e-05	-4.652275e-05	0.01923626	0.004511197	0.0005529452	0.0005403293	0.01077255	0.009767226
	0.01124976	0.009225921	0.0005529452	0.0005403293	0.01980753	0.0039145	4.069175e-05	-4.460772e-05
	6.658262e-06	-9.256631e-06	0.01077255	0.009767226	4.069175e-05	-4.460772e-05	0.01933951	0.004430799
4.1e+08	0.02165574	0.002481984	3.437759e-05	-5.215878e-05	0.01270132	0.008614535	5.457587e-06	-9.867366e-06
	3.437759e-05	-5.215878e-05	0.02111533	0.003115238	0.0006058163	0.0004947806	0.01222239	0.00927087
	0.01270132	0.008614535	0.0006058163	0.0004947806	0.02168029	0.002391911	3.613871e-05	-5.025477e-05
	5.457587e-06	-9.867366e-06	0.01222239	0.00927087	3.613871e-05	-5.025477e-05	0.02121426	0.003019745
4.2e+08	0.02319208	0.0006389477	2.834453e-05	-5.728363e-05	0.01399257	0.007726232	4.207511e-06	-1.032108e-05
	2.834453e-05	-5.728363e-05	0.02266294	0.001389457	0.0006536672	0.0004439517	0.0135323	0.008498575
	0.01399257	0.007726232	0.0006536672	0.0004439517	0.02319906	0.0005403492	3.048241e-05	-5.546508e-05
	4.207511e-06	-1.032108e-05	0.0135323	0.008498575	3.048241e-05	-5.546508e-05	0.02275483	0.001279778
4.3e+08	0.02432402	-0.001460816	2.124663e-05	-6.160364e-05	0.01507146	0.006598661	2.9292e-06	-1.061435e-05
	2.124663e-05	-6.160364e-05	0.023827	-0.0005949714	0.0006960878	0.0003887575	0.01465041	0.00748388
	0.01507146	0.006598661	0.0006960878	0.0003887575	0.02431193	-0.001564451	2.377153e-05	-5.995556e-05
	2.9292e-06	-1.061435e-05	0.01465041	0.00748388	2.377153e-05	-5.995556e-05	0.02390933	-0.0007173723
4.4e+08	0.02501436	-0.003734093	1.323516e-05	-6.484337e-05	0.01589448	0.005279064	1.644038e-06	-1.074691e-05
	1.323516e-05	-6.484337e-05	0.02456992	-0.002759078	0.0007328894	0.0003300858	0.01553259	0.00626988
	0.01589448	0.005279064	0.0007328894	0.0003300858	0.02498238	-0.003839015	1.613536e-05	-6.345597e-05
	1.644038e-06	-1.074691e-05	0.01553259	0.00626988	1.613536e-05	-6.345597e-05	0.02464047	-0.002892239
4.5e+08	0.02524232	-0.006092824	4.537557e-06	-6.676963e-05	0.01642838	0.003822393	3.73054e-07	-1.072166e-05
	4.537557e-06	-6.676963e-05	0.02486963	-0.005018953	0.0007640763	0.0002687422	0.01614411	0.004907516
	0.01642838	0.003822393	0.0007640763	0.0002687422	0.02519038	-0.006195151	7.777974e-06	-6.573205e-05
	3.73054e-07	-1.072166e-05	0.01614411	0.004907516	7.777974e-06	-6.573205e-05	0.02492666	-0.005160483
4.6e+08	0.02500407	-0.008447262	-4.556872e-06	-6.721217e-05	0.01665151	0.002289125	-8.636871e-07	-1.05445e-05
	-4.556872e-06	-6.721217e-05	0.02472023	-0.007288735	0.0007898022	0.0002054015	0.01646106	0.003453563
	0.01665151	0.002289125	0.0007898022	0.0002054015	0.02493286	-0.00854313	-1.03418e-06	-6.66061e-05
	-8.636871e-07	-1.05445e-05	0.01646106	0.003453563	-1.03418e-06	-6.66061e-05	0.02476245	-0.007435904
4.7e+08	0.02431263	-0.01070916	-1.371657e-05	-6.607963e-05	0.0165547	0.0007428582	-2.047956e-06	-1.022349e-05
	-1.371657e-05	-6.607963e-05	0.02413186	-0.009483623	0.0008103155	0.0001405866	0.0164712	0.001968386
	0.0165547	0.0007428582	0.0008103155	0.0001405866	0.02422363	-0.01079488	-9.990257e-06	-6.59729e-05
	-2.047956e-06	-1.022349e-05	0.0164712	0.001968386	-9.990257e-06	-6.59729e-05	0.02415851	-0.009633474
