!$
! Info: Touchstone file created by Circ.  Input file=Tx_10in_Rx_93ohms_TxVia_10mils_RxVia_20mils.circ
!$
# Hz S RI R 50
0	0.009212413	7.934579e-26	-5.386364e-05	-7.425723e-26	6.725569e-05	1.155448e-23	-5.387676e-05	1.544523e-24
	-5.386364e-05	-7.325105e-26	0.009215257	9.171071e-26	-5.386301e-05	-6.375561e-26	6.468643e-05	1.309144e-23
	6.730343e-05	1.156123e-23	-5.386299e-05	-6.480126e-26	0.009227225	7.955943e-26	-5.38645e-05	1.455071e-25
	-5.387675e-05	1.543374e-24	6.614241e-05	1.347423e-23	-5.386449e-05	1.442701e-25	0.009220838	8.746129e-26
1e+07	0.01266892	-0.0008868606	-2.587155e-06	-1.988774e-05	0.0003078471	0.001678524	-2.629334e-06	-2.040378e-05
	-2.587155e-06	-1.988774e-05	0.01341322	-0.001016818	-6.452459e-06	-3.623534e-06	0.0003195168	0.001827384
	0.0003078514	0.001678521	-6.452459e-06	-3.623534e-06	0.01363955	-0.0004394106	-2.151944e-05	-4.555055e-06
	-2.629334e-06	-2.040378e-05	0.0003195496	0.001827372	-2.151944e-05	-4.555056e-06	0.01315211	-0.00102417
2e+07	0.01505577	-0.00494295	-7.645303e-06	-1.298125e-05	0.000892064	0.003341669	-8.273783e-06	-1.377254e-05
	-7.645303e-06	-1.298125e-05	0.01550009	-0.005413464	-2.578472e-05	-1.968086e-05	0.0008101127	0.00361985
	0.0008920628	0.003341665	-2.578472e-05	-1.968086e-05	0.0163304	-0.004607932	-2.258175e-05	4.766515e-06
	-8.273783e-06	-1.377254e-05	0.0008101101	0.003619828	-2.258175e-05	4.766515e-06	0.015303	-0.005336113
3e+07	0.01553625	-0.01034972	-1.16954e-05	-1.013721e-05	0.001785677	0.004843521	-1.277655e-05	-1.086868e-05
	-1.16954e-05	-1.013721e-05	0.01572784	-0.0109064	-4.028854e-05	-1.893631e-05	0.001696466	0.005178522
	0.001785677	0.00484352	-4.028854e-05	-1.893631e-05	0.01701993	-0.01019163	-2.400815e-05	6.146864e-06
	-1.277655e-05	-1.086868e-05	0.001696461	0.005178519	-2.400815e-05	6.146864e-06	0.01557861	-0.01081377
4e+07	0.01448569	-0.01597022	-1.485744e-05	-7.164355e-06	0.002952586	0.006127158	-1.630364e-05	-7.706427e-06
	-1.485744e-05	-7.164355e-06	0.01445187	-0.0165263	-5.164347e-05	-1.298388e-05	0.002906326	0.006481857
	0.002952587	0.006127157	-5.164347e-05	-1.298388e-05	0.01610401	-0.01603726	-2.469446e-05	8.723686e-06
	-1.630364e-05	-7.706427e-06	0.002906326	0.006481858	-2.469446e-05	8.723686e-06	0.01433903	-0.01643908
5e+07	0.01210512	-0.02135728	-1.720174e-05	-3.817992e-06	0.004341757	0.007141851	-1.894035e-05	-4.080964e-06
	-1.720174e-05	-3.817992e-06	0.01187245	-0.02185405	-6.019199e-05	-3.900142e-06	0.004328315	0.007503177
	0.004341758	0.007141851	-6.019199e-05	-3.900142e-06	0.01379027	-0.02167783	-2.470558e-05	1.18389e-05
	-1.894035e-05	-4.080964e-06	0.004328315	0.007503178	-2.470558e-05	1.18389e-05	0.0117846	-0.02178192
6e+07	0.008580184	-0.0262031	-1.873746e-05	-1.247898e-07	0.005892727	0.007849246	-2.069735e-05	-3.498548e-08
	-1.873746e-05	-1.247898e-07	0.008178142	-0.02659517	-6.598939e-05	7.364087e-06	0.005902585	0.00820971
	0.005892728	0.007849246	-6.598939e-05	7.364087e-06	0.01026778	-0.02679024	-2.405717e-05	1.52222e-05
	-2.069735e-05	-3.498546e-08	0.005902581	0.008209711	-2.405717e-05	1.52222e-05	0.00810554	-0.02654286
7e+07	0.004110423	-0.03027536	-1.944511e-05	3.83616e-06	0.007538908	0.008224716	-2.154886e-05	4.344827e-06
	-1.944511e-05	3.83616e-06	0.003572589	-0.03052664	-6.894741e-05	2.019709e-05	0.007563071	0.008580183
	0.00753891	0.008224716	-6.894741e-05	2.019709e-05	0.00573885	-0.03112962	-2.275109e-05	1.870729e-05
	-2.154886e-05	4.344828e-06	0.007563066	0.008580186	-2.275109e-05	1.870729e-05	0.003506205	-0.03049645
8e+07	-0.001086179	-0.03340086	-1.927927e-05	7.979301e-06	0.009210831	0.008258296	-2.143661e-05	8.967839e-06
	-1.927927e-05	7.979301e-06	-0.001721694	-0.03348313	-6.886811e-05	3.414944e-05	0.009240551	0.008606611
	0.009210833	0.008258296	-6.886811e-05	3.414944e-05	0.0004238245	-0.03451264	-2.096664e-05	2.19631e-05
	-2.143661e-05	8.967839e-06	0.009240546	0.008606615	-2.096664e-05	2.19631e-05	-0.00179082	-0.03347526
9e+07	-0.006776109	-0.03546045	-1.813846e-05	1.223618e-05	0.01084001	0.007955354	-2.02283e-05	1.37757e-05
	-1.813846e-05	1.223618e-05	-0.00746568	-0.03535223	-6.534242e-05	4.892714e-05	0.01086568	0.00829488
	0.01084001	0.007955353	-6.534242e-05	4.892714e-05	-0.005443625	-0.03681306	-2.012715e-05	2.380662e-05
	-2.02283e-05	1.37757e-05	0.01086567	0.008294884	-2.012715e-05	2.380662e-05	-0.007546363	-0.03536478
1e+08	-0.01271159	-0.03638422	-1.550899e-05	1.673257e-05	0.01236951	0.007341173	-1.732305e-05	1.893743e-05
	-1.550899e-05	1.673257e-05	-0.01339437	-0.03606349	-5.646113e-05	6.498105e-05	0.01237182	0.007664056
	0.01236951	0.007341173	-5.646113e-05	6.498105e-05	-0.01163815	-0.03796857	-1.968201e-05	2.518999e-05
	-1.732305e-05	1.893743e-05	0.01237182	0.007664056	-1.968201e-05	2.518999e-05	-0.01349717	-0.03609428
1.1e+08	-0.01864772	-0.03620662	-1.128739e-05	1.883982e-05	0.01369622	0.006471925	-1.252272e-05	2.1414e-05
	-1.128739e-05	1.883982e-05	-0.01925827	-0.03573876	-4.155186e-05	7.283912e-05	0.01369585	0.006748378
	0.01369622	0.006471925	-4.155186e-05	7.283912e-05	-0.01791725	-0.03785935	-1.850638e-05	2.538537e-05
	-1.252272e-05	2.1414e-05	0.01369585	0.006748378	-1.850638e-05	2.538537e-05	-0.01939184	-0.03576895
1.2e+08	-0.02439317	-0.03492008	-7.715554e-06	1.999704e-05	0.01478013	0.005342434	-9.533004e-06	2.227001e-05
	-7.715554e-06	1.999704e-05	-0.0249382	-0.03433056	-3.323621e-05	7.528562e-05	0.01478881	0.005592974
	0.01478013	0.005342434	-3.323621e-05	7.528562e-05	-0.02394707	-0.03656392	-1.681849e-05	2.599812e-05
	-9.533004e-06	2.227001e-05	0.01478881	0.005592974	-1.681849e-05	2.599812e-05	-0.02509588	-0.03435045
1.3e+08	-0.02972068	-0.03259425	-6.536184e-06	1.993791e-05	0.01558836	0.00401604	-8.509886e-06	2.21787e-05
	-6.536184e-06	1.993791e-05	-0.0301922	-0.0318972	-2.903976e-05	7.561741e-05	0.01560864	0.004249935
	0.01558836	0.00401604	-2.903976e-05	7.561741e-05	-0.02952362	-0.0341832	-1.491656e-05	2.670751e-05
	-8.509886e-06	2.21787e-05	0.01560864	0.004249935	-1.491656e-05	2.670751e-05	-0.03036917	-0.03190064
1.4e+08	-0.03443325	-0.02934448	-5.452711e-06	1.986377e-05	0.01609144	0.002555835	-7.342364e-06	2.21855e-05
	-5.452711e-06	1.986377e-05	-0.03482109	-0.02855371	-2.435284e-05	7.608917e-05	0.01612502	0.002778804
	0.01609144	0.002555835	-2.435284e-05	7.608917e-05	-0.03445203	-0.03084424	-1.288138e-05	2.736253e-05
	-7.342364e-06	2.21855e-05	0.01612502	0.002778804	-1.288138e-05	2.736253e-05	-0.03501214	-0.02853618
1.5e+08	-0.03836542	-0.02532122	-4.289618e-06	1.980728e-05	0.01627185	0.001028135	-6.072859e-06	2.222185e-05
	-4.289618e-06	1.980728e-05	-0.03865953	-0.02445198	-1.931677e-05	7.649784e-05	0.01632029	0.001243584
	0.01627185	0.001028135	-1.931677e-05	7.649784e-05	-0.038567	-0.02670613	-1.073642e-05	2.792696e-05
	-6.072859e-06	2.222185e-05	0.01632029	0.001243584	-1.073642e-05	2.792696e-05	-0.038859	-0.02441041
1.6e+08	-0.04138783	-0.02070243	-3.068982e-06	1.973473e-05	0.01612522	-0.000499443	-4.726133e-06	2.224697e-05
	-3.068982e-06	1.973473e-05	-0.04157959	-0.01977192	-1.40224e-05	7.671622e-05	0.01618999	-0.0002899445
	0.01612522	-0.000499443	-1.40224e-05	7.671622e-05	-0.04173926	-0.0219542	-8.514791e-06	2.836018e-05
	-4.726133e-06	2.224697e-05	0.01618999	-0.0002899445	-8.514791e-06	2.836018e-05	-0.04178154	-0.01970469
1.7e+08	-0.04341079	-0.01568557	-1.806806e-06	1.962306e-05	0.01566049	-0.001960439	-3.319855e-06	2.223251e-05
	-1.806806e-06	1.962306e-05	-0.04349398	-0.01471292	-8.541923e-06	7.665656e-05	0.01574276	-0.001756858
	0.01566049	-0.001960439	-8.541923e-06	7.665656e-05	-0.0438797	-0.01679247	-6.236933e-06	2.864252e-05
	-3.319855e-06	2.223251e-05	0.01574276	-0.001756858	-6.236933e-06	2.864252e-05	-0.04369242	-0.01461981
1.8e+08	-0.04438646	-0.0104794	-5.162209e-07	1.945571e-05	0.01489947	-0.003292041	-1.868822e-06	2.215768e-05
	-5.162209e-07	1.945571e-05	-0.04435802	-0.00948528	-2.939525e-06	7.625649e-05	0.01499981	-0.003095615
	0.01489947	-0.003292041	-2.939525e-06	7.625649e-05	-0.04494159	-0.01143559	-3.922335e-06	2.875952e-05
	-1.868822e-06	2.215768e-05	0.01499981	-0.003095615	-3.922335e-06	2.875952e-05	-0.04454719	-0.009367444
1.9e+08	-0.04430951	-0.005295585	7.909412e-07	1.92205e-05	0.01387578	-0.004437388	-3.866661e-07	2.200686e-05
	7.909412e-07	1.92205e-05	-0.04417012	-0.00430165	2.72394e-06	7.547205e-05	0.01399394	-0.004250397
	0.01387578	-0.004437388	2.72394e-06	7.547205e-05	-0.04492133	-0.006100481	-1.590424e-06	2.870084e-05
	-3.866661e-07	2.200686e-05	0.01399394	-0.004250397	-1.590424e-06	2.870084e-05	-0.04434473	-0.004161475
2e+08	-0.04321681	-0.0003391813	2.101942e-06	1.890565e-05	0.01262561	-0.005375771	1.112972e-06	2.176724e-05
	2.101942e-06	1.890565e-05	-0.04297081	0.0006313763	8.389037e-06	7.427329e-05	0.01276815	-0.005173196
	0.01262561	-0.005375771	8.389037e-06	7.427329e-05	-0.0438581	-0.0009968395	7.387935e-07	2.845881e-05
	1.112972e-06	2.176724e-05	0.01276815	-0.005173196	7.387935e-07	2.845881e-05	-0.04312627	0.0007903964
2.1e+08	-0.04118321	0.004195404	3.407006e-06	1.850809e-05	0.01120598	-0.006035667	2.617381e-06	2.143161e-05
	3.407006e-06	1.850809e-05	-0.04084024	0.00512121	1.39984e-05	7.264407e-05	0.01137388	-0.005825592
	0.01120598	-0.006035667	1.39984e-05	7.264407e-05	-0.04182947	0.003676964	3.04585e-06	2.803073e-05
	2.617381e-06	2.143161e-05	0.01137388	-0.005825592	3.04585e-06	2.803073e-05	-0.04097287	0.00529466
2.2e+08	-0.03832017	0.008135019	4.695581e-06	1.802393e-05	0.00967784	-0.006388026	4.113698e-06	2.099431e-05
	4.695581e-06	1.802393e-05	-0.03789428	0.00899653	1.949615e-05	7.057833e-05	0.009868961	-0.006180171
	0.00967784	-0.006388026	1.949615e-05	7.057833e-05	-0.03895004	0.007744482	5.311063e-06	2.741605e-05
	4.113698e-06	2.099431e-05	0.009868961	-0.006180171	5.311063e-06	2.741605e-05	-0.03800147	0.009179287
2.3e+08	-0.03477008	0.01133324	5.957237e-06	1.745099e-05	0.008105761	-0.006418306	5.589201e-06	2.045201e-05
	5.957237e-06	1.745099e-05	-0.03427942	0.01211362	2.482876e-05	6.807937e-05	0.008315388	-0.006221534
	0.008105761	-0.006418306	2.482876e-05	6.807937e-05	-0.03536562	0.01105668	7.515033e-06	2.661697e-05
	5.589201e-06	2.045201e-05	0.008315388	-0.006221534	7.515033e-06	2.661697e-05	-0.03435972	0.0123001
2.4e+08	-0.03070027	0.01367558	7.181736e-06	1.678888e-05	0.006555771	-0.006125137	7.031385e-06	1.980366e-05
	7.181736e-06	1.678888e-05	-0.03016656	0.01436163	2.994557e-05	6.515915e-05	0.00677689	-0.005946875
	0.006555771	-0.006125137	2.994557e-05	6.515915e-05	-0.03124713	0.01349713	9.63895e-06	2.56384e-05
	7.031385e-06	1.980366e-05	0.00677689	-0.005946875	9.63895e-06	2.56384e-05	-0.03021977	0.01454603
2.5e+08	-0.02629613	0.0150835	8.359201e-06	1.603873e-05	0.005092754	-0.00552035	8.428195e-06	1.905015e-05
	8.359201e-06	1.603873e-05	-0.02574394	0.01566643	3.47997e-05	6.183683e-05	0.00531644	-0.005366093
	0.005092754	-0.00552035	3.47997e-05	6.183683e-05	-0.02678365	0.01498608	1.166491e-05	2.448768e-05
	8.428195e-06	1.905015e-05	0.00531644	-0.005366093	1.166491e-05	2.448768e-05	-0.02577112	0.01584302
2.6e+08	-0.0217537	0.01551705	9.479967e-06	1.520305e-05	0.003777864	-0.004628524	9.76816e-06	1.81942e-05
	9.479967e-06	1.520305e-05	-0.02120951	0.0159932	3.934664e-05	5.813643e-05	0.00399378	-0.004501424
	0.003777864	-0.004628524	3.934664e-05	5.813643e-05	-0.02217489	0.01548301	1.357622e-05	2.317442e-05
	9.76816e-06	1.81942e-05	0.00399378	-0.004501424	1.357622e-05	2.317442e-05	-0.02121297	0.01615651
2.7e+08	-0.01727183	0.01497604	1.053531e-05	1.428579e-05	0.002666062	-0.003486027	1.104054e-05	1.724006e-05
	1.053531e-05	1.428579e-05	-0.01676302	0.0153472	4.355011e-05	5.409034e-05	0.002863024	-0.003386602
	0.002666062	-0.003486027	4.355011e-05	5.409034e-05	-0.01762325	0.01498778	1.535754e-05	2.17101e-05
	1.104054e-05	1.724006e-05	0.002863024	-0.003386602	1.535754e-05	2.17101e-05	-0.01674617	0.01549236
2.8e+08	-0.01304435	0.01349959	1.151702e-05	1.3292e-05	0.001803862	-0.00213958	1.22355e-05	1.619344e-05
	1.151702e-05	1.3292e-05	-0.01259801	0.01377329	4.737787e-05	4.973389e-05	0.001970467	-0.002065549
	0.001803862	-0.00213958	4.737787e-05	4.973389e-05	-0.0133259	0.01354019	1.699518e-05	2.010795e-05
	1.22355e-05	1.619344e-05	0.001970467	-0.002065549	1.699518e-05	2.010795e-05	-0.01256526	0.01389627
2.9e+08	-0.009252412	0.01116428	1.241758e-05	1.222771e-05	0.001227383	-0.0006443909	1.334422e-05	1.506121e-05
	1.241758e-05	1.222771e-05	-0.008894121	0.01135373	5.080268e-05	4.510525e-05	0.001352659	-0.0005906488
	0.001227383	-0.0006443909	5.080268e-05	4.510525e-05	-0.009467016	0.01121803	1.847726e-05	1.838256e-05
	1.334422e-05	1.506121e-05	0.001352659	-0.0005906488	1.847726e-05	1.838256e-05	-0.008850687	0.01145147
3e+08	-0.006057401	0.00808071	1.323029e-05	1.109978e-05	0.0009608046	0.0009381016	1.435895e-05	1.385114e-05
	1.323029e-05	1.109978e-05	-0.005810046	0.008204519	5.380271e-05	4.024479e-05	0.00103486	0.0009793683
	0.0009608046	0.0009381016	5.380271e-05	4.024479e-05	-0.00621066	0.008133574	1.979369e-05	1.65496e-05
	1.435895e-05	1.385114e-05	0.00103486	0.0009793682	1.979369e-05	1.65496e-05	-0.005761721	0.00827511
3.1e+08	-0.003594674	0.004388818	1.394938e-05	9.915852e-06	0.001015293	0.002542766	1.527313e-05	1.257181e-05
	1.394938e-05	9.915852e-06	-0.00347728	0.004470435	5.636158e-05	3.519435e-05	0.001029932	0.00258182
	0.001015293	0.002542766	5.636158e-05	3.519435e-05	-0.003694394	0.004428828	2.09364e-05	1.462556e-05
	1.527313e-05	1.257181e-05	0.001029932	0.00258182	2.09364e-05	1.462556e-05	-0.003430185	0.004513216
3.2e+08	-0.001968348	0.0002520037	1.456994e-05	8.684113e-06	0.001388477	0.004103516	1.608132e-05	1.123229e-05
	1.456994e-05	8.684113e-06	-0.001995054	0.000318899	5.846799e-05	2.999622e-05	0.001337753	0.00415268
	0.001388477	0.004103516	5.846799e-05	2.999622e-05	-0.002024046	0.0002695465	2.189918e-05	1.26274e-05
	1.608132e-05	1.123229e-05	0.001337753	0.00415268	2.189918e-05	1.26274e-05	-0.001955373	0.0003345123
3.3e+08	-0.001247375	-0.004149642	1.508805e-05	7.41319e-06	0.002064494	0.005556118	1.677921e-05	9.841959e-06
	1.508805e-05	7.41319e-06	-0.001426584	-0.004067003	6.011542e-05	2.469246e-05	0.001945177	0.005629263
	0.002064494	0.005556118	6.011542e-05	2.469246e-05	-0.001269749	-0.004161628	2.26777e-05	1.057232e-05
	1.677921e-05	9.841959e-06	0.001945177	0.005629263	2.26777e-05	1.057232e-05	-0.001400285	-0.004076621
3.4e+08	-0.001463071	-0.008626734	1.550077e-05	6.112051e-06	0.003014639	0.006840952	1.736363e-05	8.410395e-06
	1.550077e-05	6.112051e-06	-0.001796819	-0.008496107	6.130192e-05	1.932445e-05	0.002826562	0.006952891
	0.003014639	0.006840952	6.130192e-05	1.932445e-05	-0.001463452	-0.008672683	2.326948e-05	8.477578e-06
	1.736363e-05	8.410395e-06	0.002826562	0.006952891	2.326948e-05	8.477578e-06	-0.001789383	-0.008527787
3.5e+08	-0.002608187	-0.01298833	1.580609e-05	4.789831e-06	0.004198578	0.007905577	1.783239e-05	6.947162e-06
	1.580609e-05	4.789831e-06	-0.003091768	-0.01277703	6.202938e-05	1.393227e-05	0.003944853	0.00807138
	0.004198578	0.007905577	6.202938e-05	1.393227e-05	-0.002597995	-0.01307006	2.367371e-05	6.360213e-06
	1.783239e-05	6.947162e-06	0.003944853	0.00807138	2.367371e-05	6.360213e-06	-0.003107939	-0.0128265
3.6e+08	-0.004637543	-0.01704963	1.600297e-05	3.455741e-06	0.005566092	0.008706995	1.818427e-05	5.461721e-06
	1.600297e-05	3.455741e-06	-0.005259432	-0.01672596	6.230325e-05	8.554458e-06	0.005253176	0.008941268
	0.005566092	0.008706995	6.230325e-05	8.554458e-06	-0.004627778	-0.0171665	2.389122e-05	4.236926e-06
	1.818427e-05	5.461721e-06	0.005253176	0.008941268	2.389122e-05	4.236926e-06	-0.005302993	-0.01678801
3.7e+08	-0.007470207	-0.02063943	1.609127e-05	2.118942e-06	0.007059257	0.009213494	1.841884e-05	3.963329e-06
	1.609127e-05	2.118942e-06	-0.00821228	-0.0201741	6.213194e-05	3.2278e-06	0.006696856	0.009529638
	0.007059257	0.009213494	6.213194e-05	3.2278e-06	-0.007470983	-0.0207885	2.392431e-05	2.123926e-06
	1.841884e-05	3.963329e-06	0.006696856	0.009529638	2.392431e-05	2.123926e-06	-0.008285869	-0.02024279
3.8e+08	-0.0109931	-0.02360684	1.60717e-05	7.884565e-07	0.008614975	0.009405983	1.853643e-05	2.460979e-06
	1.60717e-05	7.884565e-07	-0.01183115	-0.02297435	6.152642e-05	-2.012746e-06	0.00821579	0.009815477
	0.008614975	0.009405983	6.152642e-05	-2.012746e-06	-0.01101324	-0.02378323	2.37766e-05	3.683078e-08
	1.853643e-05	2.460979e-06	0.00821579	0.009815477	2.37766e-05	3.683078e-08	-0.01193614	-0.0230433
3.9e+08	-0.01506584	-0.02582717	1.594579e-05	-5.26918e-07	0.01016771	0.009278751	1.853796e-05	9.633785e-07
	1.594579e-05	-5.26918e-07	-0.01597042	-0.0250071	6.049988e-05	-7.134021e-06	0.009747024	0.009790498
	0.01016771	0.009278751	6.049988e-05	-7.134021e-06	-0.01511256	-0.02602441	2.345297e-05	-2.009418e-06
	1.853796e-05	9.633785e-07	0.009747024	0.009790498	2.345297e-05	-2.009418e-06	-0.0161068	-0.0250697
4e+08	-0.01952668	-0.02720672	1.57158e-05	-1.818672e-06	0.01165231	0.00883963	1.842491e-05	-5.210601e-07
	1.57158e-05	-1.818672e-06	-0.02046411	-0.02618474	5.906737e-05	-1.210458e-05	0.01122744	0.009459392
	0.01165231	0.00883963	5.906737e-05	-1.210458e-05	-0.01960533	-0.02741714	2.295938e-05	-4.000598e-06
	1.842491e-05	-5.210601e-07	0.01122744	0.009459392	2.295938e-05	-4.000598e-06	-0.02063055	-0.02623453
4.1e+08	-0.02419913	-0.02768615	1.538467e-05	-3.078647e-06	0.01300679	0.008109567	1.819924e-05	-1.984209e-06
	1.538467e-05	-3.078647e-06	-0.02513288	-0.02645496	5.724577e-05	-1.689459e-05	0.01259642	0.008839513
	0.01300679	0.008109567	5.724577e-05	-1.689459e-05	-0.02431309	-0.02790136	2.23028e-05	-5.923256e-06
	1.819924e-05	-1.984209e-06	0.01259642	0.008839513	2.23028e-05	-5.923256e-06	-0.02532668	-0.02648581
4.2e+08	-0.02889917	-0.02724257	1.495597e-05	-4.299071e-06	0.01417494	0.007121618	1.78633e-05	-3.418199e-06
	1.495597e-05	-4.299071e-06	-0.02979126	-0.02580241	5.505354e-05	-2.147575e-05	0.01379834	0.007960032
	0.01417494	0.007121618	5.505354e-05	-2.147575e-05	-0.02904977	-0.02745387	2.149113e-05	-7.764727e-06
	1.78633e-05	-3.418199e-06	0.01379834	0.007960032	2.149113e-05	-7.764727e-06	-0.03000852	-0.02580885
4.3e+08	-0.0334426	-0.02589005	1.443381e-05	-5.472587e-06	0.0151086	0.005919449	1.741985e-05	-4.815382e-06
	1.443381e-05	-5.472587e-06	-0.03425522	-0.02424899	5.25108e-05	-2.58212e-05	0.01478483	0.006860594
	0.0151086	0.005919449	5.25108e-05	-2.58212e-05	-0.03362918	-0.02608891	2.053311e-05	-9.513151e-06
	1.741985e-05	-4.815382e-06	0.01478483	0.006860594	2.053311e-05	-9.513151e-06	-0.03449095	-0.02422646
4.4e+08	-0.03765234	-0.02367877	1.382281e-05	-6.592265e-06	0.01576966	0.004555413	1.6872e-05	-6.168291e-06
	1.382281e-05	-6.592265e-06	-0.03834943	-0.02185262	4.963926e-05	-2.990549e-05	0.01551664	0.005589576
	0.01576966	0.004555413	4.963926e-05	-2.990549e-05	-0.03787238	-0.02385718	1.943824e-05	-1.115749e-05
	1.6872e-05	-6.168291e-06	0.01551664	0.005589576	1.943824e-05	-1.115749e-05	-0.03859779	-0.02179765
4.5e+08	-0.04136528	-0.02069268	1.312802e-05	-7.651619e-06	0.01613145	0.003088295	1.622326e-05	-7.469617e-06
	1.312802e-05	-7.651619e-06	-0.04191414	-0.0187046	4.646231e-05	-3.370465e-05	0.01596521	0.004202015
	0.01613145	0.003088295	4.646231e-05	-3.370465e-05	-0.0416146	-0.02084356	1.821678e-05	-1.268753e-05
	1.622326e-05	-7.469617e-06	0.01596521	0.004202015	1.821678e-05	-1.268753e-05	-0.04216868	-0.01861497
4.6e+08	-0.0444386	-0.01704594	1.235494e-05	-8.644621e-06	0.01617978	0.001580839	1.547741e-05	-8.712044e-06
	1.235494e-05	-8.644621e-06	-0.04481139	-0.01492571	4.300505e-05	-3.719613e-05	0.01611361	0.002757318
	0.01617978	0.001580839	4.300505e-05	-3.719613e-05	-0.04471164	-0.01716342	1.687915e-05	-1.40934e-05
	1.547741e-05	-8.712044e-06	0.01611361	0.002757318	1.687915e-05	-1.40934e-05	-0.04506532	-0.01480058
4.7e+08	-0.04675512	-0.01287827	1.150941e-05	-9.565682e-06	0.01591339	9.716641e-05	1.463896e-05	-9.888644e-06
	1.150941e-05	-9.565682e-06	-0.04693021	-0.01066126	3.929443e-05	-4.035897e-05	0.01595717	0.001316835
	0.01591339	9.716641e-05	3.929443e-05	-4.035897e-05	-0.04704528	-0.01295792	1.54372e-05	-1.536659e-05
	1.463896e-05	-9.888644e-06	0.01595717	0.001316835	1.54372e-05	-1.536659e-05	-0.04717665	-0.01050116
