!$
! Info: Touchstone file created by Circ.  Input file=Tx_10in_Rx_85ohms_TxVia_10mils_RxVia_20mils.circ
!$
# Hz S RI R 50
0	0.008106309	7.174497e-26	3.225915e-09	3.46342e-27	6.553434e-05	8.255697e-24	-3.531746e-09	4.659374e-25
	3.225907e-09	3.463579e-27	0.00810591	9.213082e-26	-3.08676e-09	4.264677e-25	6.497705e-05	1.150508e-23
	6.780775e-05	8.274751e-24	-3.084829e-09	4.262289e-25	0.008098793	6.265326e-26	1.255472e-08	1.585963e-29
	-3.529019e-09	4.656017e-25	6.643345e-05	1.184148e-23	1.255481e-08	1.570173e-29	0.008111504	8.786069e-26
1e+07	0.01038771	-0.009495453	5.197269e-09	7.903818e-09	0.0003287331	0.001814321	1.266309e-08	5.579288e-08
	5.197269e-09	7.903819e-09	0.01038033	-0.009495756	-1.456395e-10	5.862164e-08	0.0003253691	0.001815275
	0.0003287812	0.001814294	-1.456393e-10	5.862164e-08	0.01037075	-0.009488654	-8.630035e-09	4.566354e-08
	1.266309e-08	5.579288e-08	0.0003254016	0.001815263	-8.630035e-09	4.566354e-08	0.01036346	-0.009489073
2e+07	0.01002166	-0.02159399	8.295276e-09	1.348899e-08	0.0009329783	0.003480811	3.608872e-08	7.148178e-08
	8.295276e-09	1.348899e-08	0.00999295	-0.02159048	2.161005e-09	8.238051e-08	0.0009201114	0.003485067
	0.0009329698	0.003480786	2.161006e-09	8.238051e-08	0.0100112	-0.02157073	-2.372684e-09	4.665824e-08
	3.608872e-08	7.148179e-08	0.0009201083	0.003485045	-2.372685e-09	4.665824e-08	0.009983085	-0.02156715
3e+07	0.00615117	-0.03427012	1.197211e-08	1.798353e-08	0.001855234	0.004962933	7.099135e-08	7.912524e-08
	1.197211e-08	1.798353e-08	0.006088411	-0.03425427	6.98878e-09	1.10248e-07	0.001827815	0.0049745
	0.001855235	0.004962929	6.98878e-09	1.10248e-07	0.006144893	-0.03423685	4.748805e-09	5.307093e-08
	7.099135e-08	7.912524e-08	0.00182781	0.004974498	4.748805e-09	5.307093e-08	0.006084374	-0.03422126
4e+07	-0.0006424328	-0.04607096	1.599123e-08	2.117375e-08	0.00305029	0.006203229	1.07154e-07	7.528137e-08
	1.599123e-08	2.117375e-08	-0.0007489105	-0.04603043	9.325693e-09	1.37861e-07	0.003004626	0.006227566
	0.003050294	0.006203225	9.325693e-09	1.37861e-07	-0.0006460075	-0.04603052	1.348938e-08	5.693178e-08
	1.07154e-07	7.528137e-08	0.003004625	0.006227567	1.348938e-08	5.693178e-08	-0.0007488475	-0.04599142
5e+07	-0.009893825	-0.05629522	2.002429e-08	2.302691e-08	0.004458311	0.007152954	1.42622e-07	6.052088e-08
	2.002429e-08	2.302691e-08	-0.01004975	-0.05621496	9.610468e-09	1.665214e-07	0.004392467	0.007196541
	0.004458313	0.007152951	9.610468e-09	1.665214e-07	-0.009897346	-0.05624813	2.275923e-08	5.703427e-08
	1.42622e-07	6.052088e-08	0.004392467	0.007196541	2.275923e-08	5.703427e-08	-0.01004821	-0.05617041
6e+07	-0.02110855	-0.06444394	2.373146e-08	2.35655e-08	0.006010506	0.007777838	1.750317e-07	3.471105e-08
	2.373146e-08	2.35655e-08	-0.0213151	-0.0643074	8.798448e-09	1.967203e-07	0.005924512	0.007847648
	0.006010505	0.007777839	8.798448e-09	1.967203e-07	-0.02111377	-0.06438904	3.121907e-08	5.357758e-08
	1.750317e-07	3.471105e-08	0.005924509	0.007847649	3.121907e-08	5.357758e-08	-0.02131333	-0.0642566
7e+07	-0.03374904	-0.07016398	2.676501e-08	2.288222e-08	0.00763338	0.008059741	2.014538e-07	-1.668121e-09
	2.676501e-08	2.288222e-08	-0.03400258	-0.06995438	7.704323e-09	2.285761e-07	0.007529281	0.008162699
	0.00763338	0.008059746	7.704323e-09	2.285761e-07	-0.03375664	-0.07009971	3.76874e-08	4.733786e-08
	2.014538e-07	-1.668121e-09	0.007529276	0.008162702	3.76874e-08	4.733786e-08	-0.03400131	-0.06989672
8e+07	-0.0472465	-0.07323538	2.879057e-08	2.115653e-08	0.009252791	0.007997025	2.189073e-07	-4.720503e-08
	2.879058e-08	2.115653e-08	-0.04753868	-0.07293702	7.051466e-09	2.620326e-07	0.009134573	0.008139498
	0.009252794	0.00799703	7.051465e-09	2.620326e-07	-0.04725652	-0.07316023	4.132963e-08	3.937758e-08
	2.189073e-07	-4.720503e-08	0.009134568	0.008139503	4.132963e-08	3.937758e-08	-0.04753875	-0.07287166
9e+07	-0.06102076	-0.07356621	2.95153e-08	1.865635e-08	0.01079789	0.007603972	2.247714e-07	-9.958886e-08
	2.95153e-08	1.865635e-08	-0.06133895	-0.07316565	7.436334e-09	2.969348e-07	0.0106713	0.007791302
	0.01079789	0.007603976	7.436334e-09	2.969348e-07	-0.06103278	-0.07347883	4.170597e-08	3.086119e-08
	2.247714e-07	-9.958886e-08	0.0106713	0.007791306	4.170597e-08	3.086119e-08	-0.06134095	-0.07309111
1e+08	-0.07450431	-0.07118849	2.871593e-08	1.572758e-08	0.0122064	0.00691065	2.17084e-07	-1.557708e-07
	2.871593e-08	1.572758e-08	-0.07483225	-0.07067554	9.420374e-09	3.329291e-07	0.01207869	0.007146709
	0.0122064	0.00691065	9.420374e-09	3.329291e-07	-0.07451781	-0.07108781	3.871943e-08	2.288403e-08
	2.17084e-07	-1.557708e-07	0.01207869	0.007146708	3.871943e-08	2.288403e-08	-0.07483631	-0.07058993
1.1e+08	-0.08715951	-0.06623854	2.62736e-08	1.278283e-08	0.01342512	0.005941828	1.969307e-07	-2.117677e-07
	2.62736e-08	1.278283e-08	-0.08747861	-0.0656056	1.156663e-08	3.7113e-07	0.01330411	0.006228335
	0.01342512	0.005941828	1.156663e-08	3.7113e-07	-0.08717266	-0.06612182	3.544145e-08	1.924229e-08
	1.969307e-07	-2.117677e-07	0.01330411	0.006228335	3.544145e-08	1.924229e-08	-0.08748291	-0.06550665
1.2e+08	-0.09848346	-0.05895445	2.21734e-08	1.023739e-08	0.01439311	0.004754813	1.622514e-07	-2.652096e-07
	2.21734e-08	1.023739e-08	-0.09877198	-0.05820073	1.566579e-08	4.096854e-07	0.01428805	0.005091955
	0.01439311	0.004754813	1.566579e-08	4.096854e-07	-0.09849385	-0.05882023	2.99954e-08	1.61493e-08
	1.622514e-07	-2.652096e-07	0.01428805	0.005091955	2.99954e-08	1.61493e-08	-0.0987741	-0.05808717
1.3e+08	-0.108054	-0.04967385	1.649575e-08	8.510153e-09	0.01507945	0.003409287	1.134875e-07	-3.125254e-07
	1.649575e-08	8.510153e-09	-0.10829	-0.04880387	2.18938e-08	4.480843e-07	0.01499964	0.003794792
	0.01507945	0.003409286	2.18938e-08	4.480843e-07	-0.1080587	-0.0495214	2.24943e-08	1.414659e-08
	1.134875e-07	-3.125254e-07	0.01499964	0.003794792	2.24943e-08	1.414659e-08	-0.1082874	-0.04867523
1.4e+08	-0.1155275	-0.03880316	9.421744e-09	8.00099e-09	0.0154633	0.00196657	5.190358e-08	-3.50263e-07
	9.421744e-09	8.00099e-09	-0.1156901	-0.03782677	3.028015e-08	4.857624e-07	0.01541751	0.002395807
	0.0154633	0.00196657	3.028015e-08	4.857624e-07	-0.1155232	-0.03863267	1.317819e-08	1.374819e-08
	5.190358e-08	-3.50263e-07	0.01541751	0.002395807	1.317819e-08	1.374819e-08	-0.1156799	-0.0376833
1.5e+08	-0.1206508	-0.02680172	1.22798e-09	9.066031e-09	0.01553572	0.0004891833	-2.044727e-08	-3.752639e-07
	1.22798e-09	9.066031e-09	-0.1207213	-0.02573381	4.069471e-08	5.221467e-07	0.01553167	0.0009553257
	0.01553572	0.0004891832	4.069471e-08	5.221467e-07	-0.120634	-0.02661437	2.406915e-09	1.541123e-08
	-2.044727e-08	-3.752639e-07	0.01553167	0.0009553257	2.406915e-09	1.541123e-08	-0.1207007	-0.02557657
1.6e+08	-0.1232675	-0.01416326	-7.72449e-09	1.199549e-08	0.01529947	-0.0009610558	-1.007928e-07	-3.848296e-07
	-7.72449e-09	1.199549e-08	-0.1232304	-0.01302331	5.28486e-08	5.567018e-07	0.01534333	-0.0004667616
	0.01529947	-0.0009610559	5.28486e-08	5.567018e-07	-0.1232349	-0.01396132	-9.353637e-09	1.950916e-08
	-1.007928e-07	-3.848296e-07	0.01534333	-0.0004667616	-9.353637e-09	1.950916e-08	-0.1231968	-0.01285415
1.7e+08	-0.1233208	-0.00139712	-1.700631e-08	1.69945e-08	0.01476843	-0.002324836	-1.857427e-07	-3.768724e-07
	-1.700631e-08	1.69945e-08	-0.1231651	-0.0002084095	6.630862e-08	5.889736e-07	0.0148644	-0.00181271
	0.01476843	-0.002324836	6.630862e-08	5.889736e-07	-0.1232697	-0.001183785	-2.155106e-08	2.630864e-08
	-1.857427e-07	-3.768724e-07	0.0148644	-0.00181271	-2.155106e-08	2.630864e-08	-0.1231163	-2.993563e-05
1.8e+08	-0.1208534	0.01099047	-2.614015e-08	2.416811e-08	0.01396687	-0.003546995	-2.714171e-07	-3.500452e-07
	-2.614015e-08	2.416811e-08	-0.1205733	0.01220178	8.052414e-08	6.186279e-07	0.0141168	-0.003028471
	0.01396687	-0.003546996	8.052414e-08	6.186279e-07	-0.1207819	0.01121119	-3.357074e-08	3.595083e-08
	-2.714171e-07	-3.500452e-07	0.0141168	-0.003028471	-3.357074e-08	3.595083e-08	-0.1205077	0.01238634
1.9e+08	-0.1160043	0.02251434	-3.462402e-08	3.351117e-08	0.01292854	-0.004578031	-3.536009e-07	-3.038489e-07
	-3.462402e-08	3.351117e-08	-0.1155998	0.02372041	9.486385e-08	6.454789e-07	0.01313167	-0.00406512
	0.01292854	-0.004578031	9.486385e-08	6.454789e-07	-0.1159114	0.02273787	-4.476383e-08	4.843824e-08
	-3.536009e-07	-3.038489e-07	0.01313167	-0.00406512	-4.476383e-08	4.843824e-08	-0.1155166	0.02390735
2e+08	-0.1090025	0.03272755	-4.195655e-08	4.490365e-08	0.01169568	-0.005375507	-4.279203e-07	-2.387106e-07
	-4.195655e-08	4.490365e-08	-0.1084801	0.03390015	1.086591e-07	6.695057e-07	0.0119485	-0.004880208
	0.01169568	-0.005375507	1.086591e-07	6.695057e-07	-0.1088882	0.03294897	-5.447773e-08	6.362748e-08
	-4.279203e-07	-2.387106e-07	0.0119485	-0.004880208	-5.447773e-08	6.362748e-08	-0.1083792	0.03408548
2.1e+08	-0.1001581	0.04123718	-4.766274e-08	5.811164e-08	0.01031784	-0.005905401	-4.900373e-07	-1.560291e-07
	-4.766274e-08	5.811164e-08	-0.09953069	0.04234913	1.212493e-07	6.908559e-07	0.0106141	-0.005439077
	0.01031784	-0.005905401	1.212493e-07	6.908559e-07	-0.1000239	0.04145152	-6.2088e-08	8.122846e-08
	-4.900373e-07	-1.560291e-07	0.0106141	-0.005439076	-6.2088e-08	8.122846e-08	-0.0994133	0.0425288
2.2e+08	-0.08985145	0.04771859	-5.131923e-08	7.2794e-08	0.008850538	-0.00614338	-5.358601e-07	-5.818358e-08
	-5.131923e-08	7.2794e-08	-0.08913817	0.04874525	1.320261e-07	7.098352e-07	0.009181318	-0.005716126
	0.008850538	-0.00614338	1.320261e-07	7.098352e-07	-0.08969972	0.04792113	-6.703043e-08	1.008102e-07
	-5.358601e-07	-5.818358e-08	0.009181318	-0.005716126	-6.703043e-08	1.008102e-07	-0.08900621	0.04891535
2.3e+08	-0.07851845	0.05192762	-5.257773e-08	8.851436e-08	0.007353577	-0.006075969	-5.617613e-07	5.150259e-08
	-5.257773e-08	8.851436e-08	-0.07774433	0.05284831	1.404703e-07	7.26886e-07	0.007707616	-0.005696012
	0.007353577	-0.006075969	1.404703e-07	7.26886e-07	-0.07835288	0.05211413	-6.883202e-08	1.218134e-07
	-5.617613e-07	5.150259e-08	0.007707616	-0.005696012	-6.883202e-08	1.218134e-07	-0.07760075	0.05300531
2.4e+08	-0.06663512	0.05371029	-5.118551e-08	1.047581e-07	0.00588914	-0.005701527	-5.64796e-07	1.688454e-07
	-5.118551e-08	1.047581e-07	-0.06583011	0.05450965	1.461809e-07	7.425575e-07	0.006253207	-0.005374681
	0.00588914	-0.005701527	1.461809e-07	7.425575e-07	-0.06646035	0.05387732	-6.713946e-08	1.435696e-07
	-5.64796e-07	1.688454e-07	0.006253207	-0.005374681	-6.713946e-08	1.435696e-07	-0.0656787	0.05465065
2.5e+08	-0.05469933	0.05300957	-4.700216e-08	1.209533e-07	0.004519505	-0.005030919	-5.429095e-07	2.889364e-07
	-4.700216e-08	1.209533e-07	-0.0538972	0.05367871	1.488929e-07	7.574705e-07	0.004878932	-0.004760134
	0.004519505	-0.005030919	1.488929e-07	7.574705e-07	-0.05452088	0.05315467	-6.174382e-08	1.653268e-07
	-5.429095e-07	2.889364e-07	0.004878932	-0.004760134	-6.174382e-08	1.653268e-07	-0.05374249	0.05380161
2.6e+08	-0.04321156	0.04986869	-4.001162e-08	1.364954e-07	0.00330449	-0.004087765	-4.951198e-07	4.063312e-07
	-4.001162e-08	1.364954e-07	-0.04244845	0.05040611	1.484837e-07	7.722818e-07	0.003643801	-0.003872783
	0.00330449	-0.004087765	1.484837e-07	7.722818e-07	-0.04303556	0.04999062	-5.260002e-08	1.862804e-07
	-4.951198e-07	4.063312e-07	0.003643801	-0.003872783	-5.260002e-08	1.862804e-07	-0.04229552	0.05050983
2.7e+08	-0.03265473	0.04443063	-3.032905e-08	1.507738e-07	0.0022987	-0.002908105	-4.216614e-07	5.152881e-07
	-3.032905e-08	1.507738e-07	-0.03196752	0.04484281	1.4497e-07	7.876511e-07	0.002602324	-0.002745264
	0.0022987	-0.002908105	1.4497e-07	7.876511e-07	-0.03248768	0.0445295	-3.983967e-08	2.056088e-07
	-4.216614e-07	5.152881e-07	0.002602324	-0.002745264	-3.983967e-08	2.056088e-07	-0.03182177	0.04492735
2.8e+08	-0.02347416	0.0369334	-1.820213e-08	1.631998e-07	0.00154874	-0.001539407	-3.240743e-07	6.100477e-07
	-1.820213e-08	1.631998e-07	-0.02289869	0.03723505	1.384975e-07	8.042136e-07	0.001801758	-0.001421602
	0.001548739	-0.001539407	1.384975e-07	8.042136e-07	-0.02332263	0.03701077	-2.377632e-08	2.225122e-07
	-3.240743e-07	6.100477e-07	0.001801758	-0.001421602	-2.377632e-08	2.225122e-07	-0.02276561	0.03730166
2.9e+08	-0.0160585	0.02770122	-4.006715e-09	1.73235e-07	0.001090563	-3.883726e-05	-2.052252e-07	6.851415e-07
	-4.006715e-09	1.73235e-07	-0.01562771	0.02791506	1.293264e-07	8.225599e-07	0.001279481	4.435556e-05
	0.001090563	-3.883727e-05	1.293264e-07	8.225599e-07	-0.01592876	0.02776012	-4.902113e-09	2.362536e-07
	-2.052252e-07	6.851415e-07	0.001279481	4.435556e-05	-4.902113e-09	2.362536e-07	-0.01551257	0.02796622
3e+08	-0.01072256	0.01713146	1.176328e-08	1.804185e-07	0.0009472198	0.001529178	-6.925135e-08	7.357103e-07
	1.176328e-08	1.804185e-07	-0.01046468	0.01728765	1.178163e-07	8.432216e-07	0.001060703	0.0015912
	0.0009472198	0.001529178	1.178163e-07	8.432216e-07	-0.0106203	0.01717633	1.612466e-08	2.461982e-07
	-6.925135e-08	7.357103e-07	0.001060703	0.0015912	1.612466e-08	2.461982e-07	-0.01037228	0.01732703
3.1e+08	-0.007693152	0.005678057	2.851157e-08	1.843921e-07	0.001127204	0.003096009	7.857795e-08	7.578116e-07
	2.851157e-08	1.843921e-07	-0.007630011	0.005813129	1.04414e-07	8.666631e-07	0.001156748	0.003152853
	0.001127204	0.003096009	1.04414e-07	8.666631e-07	-0.007623163	0.005714642	3.850122e-08	2.518523e-07
	7.857795e-08	7.578116e-07	0.001156749	0.003152853	3.850122e-08	2.518523e-07	-0.007564394	0.005845512
3.2e+08	-0.007098774	-0.006168115	4.556045e-08	1.849238e-07	0.001623602	0.004592312	2.32079e-07	7.48692e-07
	4.556045e-08	1.849238e-07	-0.007244385	-0.006012635	8.964354e-08	8.93274e-07	0.001564107	0.004661911
	0.001623602	0.004592312	8.964354e-08	8.93274e-07	-0.007064641	-0.006132981	6.13108e-08	2.528958e-07
	2.32079e-07	7.48692e-07	0.001564107	0.004661911	6.13108e-08	2.528958e-07	-0.007208597	-0.005981526
3.3e+08	-0.008963871	-0.01790081	6.217725e-08	1.819259e-07	0.002414181	0.005951714	3.844403e-07	7.070027e-07
	6.217725e-08	1.819259e-07	-0.009323296	-0.01768015	7.41009e-08	9.233616e-07	0.002264375	0.006053195
	0.002414181	0.005951714	7.41009e-08	9.233616e-07	-0.008967688	-0.01785946	8.356125e-08	2.492095e-07
	3.844403e-07	7.070027e-07	0.002264375	0.006053195	8.356125e-08	2.492095e-07	-0.009319121	-0.01764388
3.4e+08	-0.0132079	-0.02902083	7.760492e-08	1.754688e-07	0.003462438	0.007114394	5.285613e-07	6.329395e-07
	7.760492e-08	1.754688e-07	-0.01377654	-0.02868895	5.844905e-08	9.571387e-07	0.00322515	0.007267246
	0.003462438	0.007114394	5.844905e-08	9.571387e-07	-0.01325008	-0.02896509	1.042299e-07	2.408928e-07
	5.285613e-07	6.329395e-07	0.00322515	0.007267246	1.042299e-07	2.408928e-07	-0.01380434	-0.02864066
3.5e+08	-0.01964958	-0.03905804	9.109647e-08	1.657879e-07	0.00471957	0.008030288	6.574201e-07	5.282935e-07
	9.109647e-08	1.657879e-07	-0.02041292	-0.03856979	4.341159e-08	9.947072e-07	0.004401804	0.008253467
	0.00471957	0.008030288	4.341159e-08	9.947072e-07	-0.0197288	-0.03897961	1.223136e-07	2.282717e-07
	6.574201e-07	5.282935e-07	0.004401804	0.008253467	1.223136e-07	2.282717e-07	-0.02047159	-0.03850248
3.6e+08	-0.02801581	-0.04759183	1.019518e-07	1.532833e-07	0.006127199	0.008661655	7.644458e-07	3.964094e-07
	1.019518e-07	1.532833e-07	-0.02894963	-0.04690508	2.976068e-08	1.036037e-06	0.005740017	0.008972678
	0.006127199	0.008661655	2.976068e-08	1.036037e-06	-0.02812898	-0.04748266	1.368803e-07	2.118941e-07
	7.644458e-07	3.964094e-07	0.005740017	0.008972678	1.368803e-07	2.118941e-07	-0.02903658	-0.04681198
3.7e+08	-0.03795489	-0.05426887	1.095553e-07	1.385104e-07	0.007620625	0.008984814	8.438681e-07	2.420523e-07
	1.095553e-07	1.385104e-07	-0.03902598	-0.05334664	1.829628e-08	1.080944e-06	0.007178829	0.009398885
	0.007620625	0.008984814	1.829628e-08	1.080944e-06	-0.03809718	-0.05412154	1.471191e-07	1.925132e-07
	8.438681e-07	2.420523e-07	0.007178829	0.009398885	1.471191e-07	1.925132e-07	-0.03913714	-0.0532215
3.8e+08	-0.04905299	-0.05881728	1.134113e-07	1.22162e-07	0.009132342	0.008990971	8.910232e-07	7.119534e-08
	1.134113e-07	1.22162e-07	-0.05022034	-0.05762964	9.814843e-09	1.129069e-06	0.008653964	0.00952018
	0.009132342	0.008990971	9.814843e-09	1.129069e-06	-0.049218	-0.05862537	1.52387e-07	1.710589e-07
	8.910232e-07	7.119534e-08	0.008653964	0.00952018	1.52387e-07	1.710589e-07	-0.05035028	-0.05746706
3.9e+08	-0.0608531	-0.06105666	1.131762e-07	1.050409e-07	0.01059552	0.008686117	9.025958e-07	-1.092564e-07
	1.131762e-07	1.050409e-07	-0.0620694	-0.05958238	5.067551e-09	1.179865e-06	0.01010115	0.009338757
	0.01059552	0.008686117	5.067551e-09	1.179865e-06	-0.06103305	-0.06081512	1.522477e-07	1.485986e-07
	9.025958e-07	-1.092564e-07	0.01010115	0.009338757	1.522477e-07	1.485986e-07	-0.06221157	-0.05937811
4e+08	-0.0728751	-0.06090374	1.086836e-07	8.802548e-08	0.01194725	0.008090104	8.767887e-07	-2.917848e-07
	1.086836e-07	8.802548e-08	-0.07408869	-0.05913155	4.710419e-09	1.232596e-06	0.0114592	0.008870142
	0.01194725	0.008090104	4.710419e-09	1.232596e-06	-0.07306115	-0.06060914	1.465006e-07	1.262888e-07
	8.767887e-07	-2.917848e-07	0.0114592	0.008870142	1.465006e-07	1.262888e-07	-0.07423562	-0.05888273
4.1e+08	-0.0846362	-0.05837355	9.996062e-08	7.202829e-08	0.01313126	0.007235033	8.134116e-07	-4.685996e-07
	9.996062e-08	7.202829e-08	-0.08579319	-0.05630299	9.250544e-09	1.286349e-06	0.01267265	0.008141762
	0.01313126	0.007235033	9.250544e-09	1.286349e-06	-0.08481878	-0.0580243	1.351976e-07	1.053208e-07
	8.134116e-07	-4.685996e-07	0.01267265	0.008141762	1.351976e-07	1.053208e-07	-0.08593681	-0.05600833
4.2e+08	-0.09567048	-0.05357642	8.723464e-08	5.795197e-08	0.01410013	0.006163172	7.138947e-07	-6.319821e-07
	8.723464e-08	5.795197e-08	-0.09671706	-0.05121824	1.899423e-08	1.340073e-06	0.0136939	0.007191066
	0.01410013	0.006163172	1.899423e-08	1.340073e-06	-0.09583971	-0.05317293	1.186471e-07	8.68648e-08
	7.138947e-07	-6.319821e-07	0.0136939	0.007191066	1.186471e-07	8.68648e-08	-0.09684903	-0.05087812
4.3e+08	-0.105547	-0.04671132	7.092866e-08	4.664374e-08	0.0148168	0.004924583	5.812302e-07	-7.746127e-07
	7.092866e-08	4.664374e-08	-0.1064318	-0.04408735	3.400322e-08	1.392618e-06	0.01448468	0.006063364
	0.0148168	0.004924583	3.400322e-08	1.392618e-06	-0.1056932	-0.04625603	9.740475e-08	7.201318e-08
	5.812302e-07	-7.746127e-07	0.01448468	0.006063364	9.740475e-08	7.201318e-08	-0.1065439	-0.0437039
4.4e+08	-0.1138859	-0.03805597	5.16463e-08	3.885228e-08	0.0152555	0.003574665	4.198527e-07	-8.898725e-07
	5.16463e-08	3.885228e-08	-0.1145621	-0.0351986	5.406485e-08	1.442806e-06	0.01501702	0.004809579
	0.0152555	0.003574665	5.406485e-08	1.442806e-06	-0.1139996	-0.03755336	7.225225e-08	6.172905e-08
	4.198527e-07	-8.898725e-07	0.01501702	0.004809579	7.225225e-08	6.172905e-08	-0.1146465	-0.03477564
4.5e+08	-0.1203713	-0.02795454	3.014704e-08	3.518909e-08	0.01540212	0.00217174	2.354704e-07	-9.721073e-07
	3.014704e-08	3.518909e-08	-0.120799	-0.02490562	7.868091e-08	1.489499e-06	0.01527371	0.003484044
	0.01540212	0.00217174	7.868091e-08	1.489499e-06	-0.1204443	-0.02741097	4.416501e-08	5.680043e-08
	2.354704e-07	-9.721073e-07	0.01527371	0.003484044	4.416501e-08	5.680043e-08	-0.1208487	-0.02444858
4.6e+08	-0.1247624	-0.0168034	7.313379e-09	3.609677e-08	0.01525413	0.0007748013	3.485558e-08	-1.016852e-06
	7.313379e-09	3.609677e-08	-0.1249103	-0.01361282	1.070778e-07	1.531676e-06	0.01524831	0.002142433
	0.01525413	0.0007748013	1.070778e-07	1.531676e-06	-0.1247877	-0.01622692	1.427176e-08	5.780322e-08
	3.485558e-08	-1.016852e-06	0.01524831	0.002142433	1.427176e-08	5.780322e-08	-0.1249195	-0.01312855
4.7e+08	-0.1269006	-0.005035557	-1.588806e-08	4.182552e-08	0.01482018	-0.000558531	-1.743955e-07	-1.021009e-06
	-1.588806e-08	4.182552e-08	-0.1267478	-0.001759421	1.382385e-07	1.568506e-06	0.01494487	0.0008398717
	0.01482018	-0.000558531	1.382385e-07	1.568506e-06	-0.1268728	-0.004435642	-1.619222e-08	6.507368e-08
	-1.743955e-07	-1.021009e-06	0.01494487	0.0008398717	-1.619222e-08	6.507368e-08	-0.126712	-0.001255961
4.8e+08	-0.1267143	0.006895602	-3.844924e-08	5.241893e-08	0.01411939	-0.001773838	-3.841249e-07	-9.829899e-07
	-3.844924e-08	5.241893e-08	-0.1262514	0.01019709	1.709548e-07	1.599406e-06	0.01437745	-0.0003707535
