!$
! Info: Touchstone file created by Circ.  Input file=Tx_12in_Rx_85ohms_TxVia_10mils_RxVia_20mils.circ
!$
# Hz S RI R 50
0	0.009684394	7.720423e-26	-6.473592e-05	1.514574e-25	7.745585e-05	1.027125e-23	-6.476138e-05	2.947307e-24
	-6.473594e-05	1.530875e-25	0.009685047	1.077643e-25	-6.472839e-05	4.3538e-26	7.554672e-05	1.376315e-23
	7.615528e-05	1.000797e-23	-6.472839e-05	4.367876e-26	0.009699616	8.083267e-26	-6.473798e-05	3.402848e-25
	-6.476137e-05	2.945902e-24	7.700253e-05	1.416558e-23	-6.473795e-05	3.374399e-25	0.009690623	1.027553e-25
1e+07	0.01210812	-0.01162861	-0.0001367796	-2.597982e-05	0.0004327392	0.00212929	-9.964984e-06	-2.109082e-06
	-0.0001367796	-2.597982e-05	0.01213795	-0.01163588	-4.092e-05	9.86974e-05	0.0004293516	0.002135564
	0.0004326952	0.002129293	-4.092e-05	9.86974e-05	0.01216346	-0.01161393	-0.0001367994	-2.598974e-05
	-9.964984e-06	-2.109081e-06	0.0004293843	0.002135553	-0.0001367994	-2.598974e-05	0.01211481	-0.01162768
2e+07	0.01079321	-0.02622211	-0.0001234047	2.880656e-05	0.001266703	0.004037957	-9.354711e-06	-1.889303e-05
	-0.0001234047	2.880656e-05	0.01078521	-0.02624268	-4.050875e-05	0.0001328411	0.001254163	0.004053356
	0.001266694	0.004037985	-4.050875e-05	0.0001328411	0.01084075	-0.02620691	-0.0001234244	2.872861e-05
	-9.35471e-06	-1.889303e-05	0.00125416	0.004053334	-0.0001234244	2.872861e-05	0.01077136	-0.02621468
3e+07	0.004699703	-0.04104118	-0.0001206611	2.824191e-05	0.002525199	0.005651287	-2.41158e-05	-2.038567e-05
	-0.0001206611	2.824191e-05	0.004641166	-0.04105182	-1.91404e-05	0.0001567105	0.002499232	0.005680724
	0.0025252	0.005651291	-1.91404e-05	0.0001567105	0.004742451	-0.04101578	-0.0001206979	2.811795e-05
	-2.41158e-05	-2.038567e-05	0.002499227	0.005680722	-0.0001206979	2.811795e-05	0.004635033	-0.04101298
4e+07	-0.005267647	-0.05408923	-0.0001184494	3.311616e-05	0.004119663	0.006879947	-3.593051e-05	-1.602479e-05
	-0.0001184494	3.311616e-05	-0.005385095	-0.05406921	1.330438e-05	0.0001631446	0.004077995	0.00692982
	0.004119659	0.006879945	1.330438e-05	0.0001631446	-0.005227777	-0.05405134	-0.0001185153	3.293704e-05
	-3.593051e-05	-1.602479e-05	0.004077995	0.006929821	-0.0001185153	3.293704e-05	-0.005385762	-0.05402368
5e+07	-0.01826915	-0.06436124	-0.0001159964	4.066769e-05	0.00593828	0.007658535	-4.505634e-05	-8.120983e-06
	-0.0001159964	4.066769e-05	-0.01844749	-0.06428825	4.792965e-05	0.0001501937	0.005881109	0.007736061
	0.005938278	0.007658534	4.792965e-05	0.0001501937	-0.01823057	-0.06430969	-0.0001161117	4.042938e-05
	-4.505634e-05	-8.120983e-06	0.005881108	0.007736062	-0.0001161117	4.042938e-05	-0.01844549	-0.06423638
6e+07	-0.03338458	-0.07119722	-0.0001126784	4.985378e-05	0.00785776	0.007953608	-5.141869e-05	2.307409e-06
	-0.0001126784	4.985378e-05	-0.03361871	-0.07104889	7.613228e-05	0.0001187208	0.007787941	0.008065927
	0.007857766	0.007953605	7.613228e-05	0.0001187208	-0.03334577	-0.07113123	-0.0001128688	4.95601e-05
	-5.141869e-05	2.307409e-06	0.007787938	0.008065928	-0.0001128688	4.95601e-05	-0.03361516	-0.07098986
7e+07	-0.04963045	-0.07422092	-0.0001080334	5.997746e-05	0.009753398	0.007764793	-5.478272e-05	1.459476e-05
	-0.0001080334	5.997746e-05	-0.04990821	-0.07397698	9.021144e-05	7.230977e-05	0.009676296	0.007918109
	0.009753408	0.007764785	9.021144e-05	7.230977e-05	-0.04958979	-0.07413997	-0.0001083265	5.964273e-05
	-5.478272e-05	1.459476e-05	0.009676291	0.007918112	-0.0001083265	5.964273e-05	-0.04990363	-0.07391007
8e+07	-0.06600728	-0.07332184	-0.0001017789	7.042111e-05	0.01150801	0.00712278	-5.47921e-05	2.817841e-05
	-0.0001017789	7.042111e-05	-0.0663103	-0.0729661	8.40112e-05	1.67911e-05	0.01143114	0.00732161
	0.01150802	0.007122767	8.40112e-05	1.67911e-05	-0.06596293	-0.07322563	-0.0001021997	7.007133e-05
	-5.47921e-05	2.817841e-05	0.01143113	0.007321615	-0.0001021997	7.007133e-05	-0.06630507	-0.07289029
9e+07	-0.08155307	-0.0686374	-9.381744e-05	8.060753e-05	0.01301946	0.00608511	-5.088807e-05	4.25326e-05
	-9.381744e-05	8.060753e-05	-0.08185813	-0.06815945	5.302515e-05	-4.062294e-05	0.01295194	0.006331659
	0.01301947	0.006085099	5.302515e-05	-4.062294e-05	-0.08150294	-0.06852598	-9.438405e-05	8.027963e-05
	-5.088807e-05	4.25326e-05	0.01295194	0.006331663	-9.438405e-05	8.027963e-05	-0.08185206	-0.06807316
1e+08	-0.09539675	-0.0605289	-8.424581e-05	9.003521e-05	0.0142085	0.004731595	-4.105177e-05	5.754706e-05
	-8.424581e-05	9.003521e-05	-0.09567729	-0.05992517	-1.013917e-05	-9.411541e-05	0.01416035	0.005025274
	0.0142085	0.004731595	-1.013917e-05	-9.411541e-05	-0.09533825	-0.06040262	-8.496603e-05	8.977465e-05
	-4.105177e-05	5.754706e-05	0.01416035	0.005025274	-8.496603e-05	8.977465e-05	-0.0956694	-0.05982681
1.1e+08	-0.1067926	-0.04953346	-7.337676e-05	9.817575e-05	0.01501578	0.003137447	-2.60147e-05	6.374481e-05
	-7.337676e-05	9.817575e-05	-0.1070215	-0.0488081	-8.334831e-05	-0.0001544044	0.01499657	0.003474279
	0.01501578	0.003137447	-8.334831e-05	-0.0001544044	-0.1067229	-0.04939602	-7.423979e-05	9.803272e-05
	-2.60147e-05	6.374481e-05	0.01499657	0.003474279	-7.423979e-05	9.803272e-05	-0.1070091	-0.04869641
1.2e+08	-0.1151434	-0.03634511	-6.131626e-05	0.0001047791	0.01539061	0.001415635	-1.314318e-05	6.654067e-05
	-6.131626e-05	0.0001047791	-0.1152947	-0.03551137	-0.000163831	-0.0001881659	0.01540974	0.001789227
	0.01539061	0.001415635	-0.000163831	-0.0001881659	-0.1150621	-0.03619811	-6.229422e-05	0.0001047991
	-1.314318e-05	6.654067e-05	0.01540974	0.001789227	-6.229422e-05	0.0001047991	-0.1152745	-0.03538652
1.3e+08	-0.1200577	-0.02176983	-4.846515e-05	0.0001096366	0.01532628	-0.0003265148	-2.362641e-06	6.697544e-05
	-4.846515e-05	0.0001096366	-0.1201093	-0.02084812	-0.000251257	-0.0001952783	0.01539137	7.446199e-05
	0.01532628	-0.0003265147	-0.000251257	-0.0001952783	-0.1199639	-0.02161509	-4.951611e-05	0.0001098566
	-2.362641e-06	6.697544e-05	0.01539137	7.446198e-05	-4.951611e-05	0.0001098566	-0.1200781	-0.02071148
1.4e+08	-0.1213431	-0.006668525	-3.519561e-05	0.0001126607	0.01483655	-0.001986532	3.100408e-06	6.60485e-05
	-3.519561e-05	0.0001126607	-0.1212785	-0.005685476	-0.0003390455	-0.0001748768	0.01495259	-0.001569933
	0.01483655	-0.001986531	-0.0003390455	-0.0001748768	-0.1212359	-0.006508466	-3.626677e-05	0.000113103
	3.100408e-06	6.60485e-05	0.01495259	-0.001569933	-3.626677e-05	0.000113103	-0.1212338	-0.005539503
1.5e+08	-0.1190128	0.008087657	-2.193053e-05	0.0001138236	0.01395624	-0.003469208	8.810475e-06	6.469114e-05
	-2.193053e-05	0.0001138236	-0.1188227	0.009100737	-0.0004197649	-0.000128053	0.01412499	-0.00305037
	0.01395624	-0.003469208	-0.0004197649	-0.000128053	-0.1188918	0.008249975	-2.296396e-05	0.0001144942
	8.810475e-06	6.469114e-05	0.01412499	-0.00305037	-2.296396e-05	0.0001144942	-0.1187625	0.009252666
1.6e+08	-0.1132795	0.02166239	-9.025914e-06	0.0001132374	0.0127394	-0.004690074	1.459943e-05	6.280574e-05
	-9.025914e-06	0.0001132374	-0.1129633	0.02267152	-0.0004863849	-5.80941e-05	0.0129589	-0.004283077
	0.0127394	-0.004690074	-0.0004863849	-5.80941e-05	-0.113145	0.02182346	-9.963762e-06	0.0001141243
	1.459943e-05	6.280574e-05	0.0129589	-0.004283077	-9.963762e-06	0.0001141243	-0.1128866	0.0228253
1.7e+08	-0.1045414	0.03329676	3.222029e-06	0.0001110965	0.01125695	-0.00557868	2.03249e-05	6.034535e-05
	3.222029e-06	0.0001110965	-0.1041077	0.03426757	-0.0005331336	2.975747e-05	0.01152135	-0.005197272
	0.01125695	-0.00557868	-0.0005331336	2.975747e-05	-0.1043948	0.03345292	2.431126e-06	0.0001121702
	2.03249e-05	6.034535e-05	0.01152135	-0.005197272	2.431126e-06	0.0001121702	-0.1040147	0.0344187
1.8e+08	-0.09335966	0.04234796	1.459553e-05	0.0001076556	0.0095939	-0.006081698	2.5862e-05	5.72993e-05
	1.459553e-05	0.0001076556	-0.09282654	0.04324819	-0.0005561211	0.0001288163	0.009893538	-0.005738223
	0.0095939	-0.006081698	-0.0005561211	0.0001288163	-0.0932036	0.04249576	1.399063e-05	0.0001088723
	2.5862e-05	5.72993e-05	0.009893538	-0.005738223	1.399063e-05	0.0001088723	-0.09271885	0.04339208
1.9e+08	-0.08042837	0.04832287	2.496855e-05	0.0001032028	0.007845994	-0.006165838	3.110095e-05	5.368448e-05
	2.496855e-05	0.0001032028	-0.07982266	0.04912485	-0.0005537272	0.0002316454	0.008167763	-0.005870191
	0.007845994	-0.006165837	-0.0005537272	0.0002316454	-0.0802664	0.0484594	2.457196e-05	0.0001045098
	3.110095e-05	5.368448e-05	0.008167763	-0.005870191	2.457196e-05	0.0001045098	-0.07970316	0.04925728
2e+08	-0.06653753	0.05090496	3.43124e-05	9.802885e-05	0.006115515	-0.005820387	3.594688e-05	4.953879e-05
	3.43124e-05	9.802885e-05	-0.06589374	0.05158803	-0.0005267267	0.0003308402	0.006443524	-0.005579073
	0.006115515	-0.005820387	-0.0005267267	0.0003308402	-0.06637416	0.05102822	3.412742e-05	9.937089e-05
	3.594688e-05	4.953879e-05	0.006443524	-0.005579073	3.412742e-05	9.937089e-05	-0.06576658	0.0517055
2.1e+08	-0.05253042	0.04997312	4.269119e-05	9.239337e-05	0.004506254	-0.00505908	4.031976e-05	4.49162e-05
	4.269119e-05	9.239337e-05	-0.05188886	0.05052571	-0.0004781368	0.0004198183	0.004822727	-0.00487445
	0.004506254	-0.00505908	-0.0004781368	0.0004198183	-0.05237084	0.0500823	4.270249e-05	9.372033e-05
	4.031976e-05	4.49162e-05	0.004822727	-0.00487445	4.270249e-05	9.372033e-05	-0.05175923	0.05062581
2.2e+08	-0.03925658	0.0456106	5.024478e-05	8.649305e-05	0.003117609	-0.00392085	4.41547e-05	3.98825e-05
	5.024478e-05	8.649305e-05	-0.03866091	0.0460318	-0.0004127991	0.0004935175	0.003403994	-0.003790585
	0.003117609	-0.00392085	-0.0004127991	0.0004935175	-0.03910629	0.04570625	5.042161e-05	8.776647e-05
	4.41547e-05	3.98825e-05	0.003403994	-0.003790585	5.042161e-05	8.776647e-05	-0.03853476	0.04611351
2.3e+08	-0.02752261	0.03810271	5.715927e-05	8.043635e-05	0.002038125	-0.002469033	4.740187e-05	3.451163e-05
	5.715927e-05	8.043635e-05	-0.02701701	0.03840322	-0.0003367376	0.0005489126	0.002276342	-0.002385923
	0.002038125	-0.002469033	-0.0003367376	0.0005489126	-0.02738708	0.03818685	5.746114e-05	8.163469e-05
	4.740187e-05	3.451163e-05	0.002276342	-0.002385923	5.746114e-05	8.163469e-05	-0.02690066	0.03846713
2.4e+08	-0.01804381	0.02792248	6.362781e-05	7.423107e-05	0.001338968	-0.0007886652	5.00263e-05	2.888294e-05
	6.362781e-05	7.423107e-05	-0.01766986	0.02812478	-0.0002563598	0.0005852799	0.001512707	-0.0007407357
	0.001338968	-0.0007886651	-0.0002563598	0.0005852799	-0.01792806	0.02799859	6.401211e-05	7.535253e-05
	5.00263e-05	2.888294e-05	0.001512707	-0.0007407357	6.401211e-05	7.535253e-05	-0.01756953	0.02817316
2.5e+08	-0.0113997	0.01570399	6.980725e-05	6.778919e-05	0.001068029	0.001018255	5.200766e-05	2.307772e-05
	6.980725e-05	6.778919e-05	-0.0111932	0.01584162	-0.000177615	0.0006041506	0.001164015	0.001047281
	0.001068029	0.001018255	-0.000177615	0.0006041506	-0.01130791	0.01577692	7.023748e-05	6.885122e-05
	5.200766e-05	2.307772e-05	0.001164015	0.001047281	7.023748e-05	6.885122e-05	-0.01111456	0.01587847
2.6e+08	-0.007997068	0.002204609	7.577926e-05	6.09502e-05	0.001245413	0.002839389	5.333941e-05	1.717658e-05
	7.577926e-05	6.09502e-05	-0.007985065	0.002320616	-0.0001052137	0.0006089617	0.001254535	0.002869283
	0.001245413	0.002839389	-0.0001052137	0.0006089617	-0.007932214	0.002280321	7.623288e-05	6.198577e-05
	5.333941e-05	1.717658e-05	0.001254535	0.002869283	7.623288e-05	6.198577e-05	-0.007932789	0.002351481
2.7e+08	-0.008043608	-0.01174188	8.152406e-05	5.352028e-05	0.001861024	0.004560062	5.402741e-05	1.125658e-05
	8.152406e-05	5.352028e-05	-0.008241897	-0.01159731	-4.203829e-05	0.0006044369	0.001779243	0.00461299
	0.001861024	0.004560062	-4.203829e-05	0.0006044369	-0.008007179	-0.01165659	8.199831e-05	5.457116e-05
	5.402741e-05	1.125658e-05	0.001779243	0.00461299	8.199831e-05	5.457116e-05	-0.008219211	-0.01156563
2.8e+08	-0.01153474	-0.02527794	8.691376e-05	4.532002e-05	0.002874715	0.006071875	5.408799e-05	5.389165e-06
	8.691376e-05	4.532002e-05	-0.01194601	-0.02505056	1.118423e-05	0.00059579	0.002703671	0.006171064
	0.002874715	0.006071875	1.118423e-05	0.00059579	-0.01152652	-0.02517588	8.742863e-05	4.642796e-05
	5.408799e-05	5.389165e-06	0.002703671	0.006171064	8.742863e-05	4.642796e-05	-0.01195437	-0.02501038
2.9e+08	-0.01825489	-0.03757684	9.172677e-05	3.623093e-05	0.004219134	0.007280982	5.354534e-05	-3.612821e-07
	9.172677e-05	3.623093e-05	-0.01886774	-0.03721179	5.58718e-05	0.0005878674	0.003966397	0.007449238
	0.004219134	0.007280982	5.58718e-05	0.0005878674	-0.01827283	-0.03745078	9.232425e-05	3.742806e-05
	5.354534e-05	-3.612821e-07	0.003966397	0.007449238	9.232425e-05	3.742806e-05	-0.01890658	-0.03715504
3e+08	-0.02779315	-0.04789465	9.568141e-05	2.623129e-05	0.005805011	0.008115087	5.242874e-05	-5.937868e-06
	9.568141e-05	2.623129e-05	-0.02858207	-0.04734024	9.524555e-05	0.0005843698	0.005483938	0.008373262
	0.005805011	0.008115087	9.524555e-05	0.0005843698	-0.02783341	-0.04773785	9.642098e-05	2.753124e-05
	5.242874e-05	-5.937868e-06	0.005483938	0.008373262	9.642098e-05	2.753124e-05	-0.02864874	-0.04725896
3.1e+08	-0.03957208	-0.05561584	9.843938e-05	1.543305e-05	0.007528278	0.008528401	5.077055e-05	-1.129079e-05
	9.843938e-05	1.543305e-05	-0.04049842	-0.05482721	0.000138723	0.0005836616	0.007157468	0.008893914
	0.007528278	0.008528401	0.000138723	0.0005836616	-0.0396291	-0.0554225	9.93891e-05	1.682283e-05
	5.077055e-05	-1.129079e-05	0.007157468	0.008893914	9.93891e-05	1.682283e-05	-0.04058823	-0.05471412
3.2e+08	-0.05288679	-0.06028907	9.970919e-05	4.068572e-06	0.009278152	0.008504109	4.860389e-05	-1.637523e-05
	9.970919e-05	4.068572e-06	-0.05390072	-0.05923151	0.000194152	0.0005799297	0.008880526	0.008989634
	0.009278152	0.008504109	0.000194152	0.0005799297	-0.05295358	-0.06005475	0.0001009352	5.505548e-06
	4.860389e-05	-1.637523e-05	0.008880526	0.008989634	0.0001009352	5.505548e-06	-0.0540071	-0.05908055
3.3e+08	-0.0669511	-0.061651	9.938627e-05	-7.607785e-06	0.01094528	0.008054281	4.596286e-05	-2.114902e-05
	9.938627e-05	-7.607785e-06	-0.06799437	-0.06030264	0.0002547184	0.0005776741	0.01054683	0.008666684
	0.01094528	0.008054281	0.0002547184	0.0005776741	-0.06701956	-0.06137294	0.0001009456	-6.191522e-06
	4.596286e-05	-2.114902e-05	0.01054683	0.008666684	0.0001009456	-6.191522e-06	-0.06810924	-0.06010948
3.4e+08	-0.08094687	-0.05963717	9.737149e-05	-1.925013e-05	0.01242909	0.007217501	4.288267e-05	-2.557303e-05
	9.737149e-05	-1.925013e-05	-0.08195621	-0.05799098	0.000323538	0.000573569	0.01205739	0.007957117
	0.01242909	0.007217502	0.000323538	0.000573569	-0.08100821	-0.05931457	9.929925e-05	-1.794611e-05
	4.288267e-05	-2.557303e-05	0.01205739	0.007957117	9.929925e-05	-1.794611e-05	-0.08207044	-0.05775338
3.5e+08	-0.09407299	-0.05438013	9.367627e-05	-3.049448e-05	0.0136438	0.006054749	3.940179e-05	-2.961083e-05
	9.367627e-05	-3.049448e-05	-0.09498393	-0.05244496	0.0004021082	0.0005630651	0.01332634	0.006915048
	0.0136438	0.006054749	0.0004021082	0.0005630651	-0.09411819	-0.05401433	9.597798e-05	-2.941e-05
	3.940179e-05	-2.961083e-05	0.01332634	0.006915048	9.597798e-05	-2.941e-05	-0.09508787	-0.05216296
3.6e+08	-0.1055908	-0.04619616	8.841775e-05	-4.099762e-05	0.01452273	0.004644188	3.556139e-05	-3.322807e-05
	8.841775e-05	-4.099762e-05	-0.1063417	-0.04399686	0.0004899776	0.0005410622	0.01428517	0.005611872
	0.01452273	0.004644188	0.0004899776	0.0005410622	-0.1056112	-0.04579071	9.106383e-05	-4.024461e-05
	3.556139e-05	-3.322807e-05	0.01428517	0.005611872	9.106383e-05	-4.024461e-05	-0.1064258	-0.04367289
3.7e+08	-0.114864	-0.03556236	8.180132e-05	-5.046851e-05	0.01502081	0.003075517	3.140594e-05	-3.6393e-05
	8.180132e-05	-5.046851e-05	-0.1153999	-0.03313879	0.0005846642	0.0005026635	0.01488535	0.00413104
	0.01502081	0.003075517	0.0005846642	0.0005026635	-0.1148517	-0.03512293	8.472632e-05	-5.015151e-05
	3.140594e-05	-3.6393e-05	0.01488535	0.00413104	8.472632e-05	-5.015151e-05	-0.1154552	-0.03277765
3.8e+08	-0.1213902	-0.02308622	7.409624e-05	-5.869024e-05	0.01511568	0.001444377	2.698372e-05	-3.907773e-05
	7.409624e-05	-5.869024e-05	-0.1216666	-0.02049141	0.000681842	0.000443891	0.01509953	0.002562877
	0.01511568	0.001444377	0.000681842	0.000443891	-0.1213389	-0.02262038	7.72021e-05	-5.889447e-05
	2.698372e-05	-3.907773e-05	0.01509953	0.002562877	7.72021e-05	-5.889447e-05	-0.1216854	-0.02010007
3.9e+08	-0.1248256	-0.009469985	6.56079e-05	-6.553153e-05	0.01480748	-0.0001528181	2.234643e-05	-4.125923e-05
	6.56079e-05	-6.553153e-05	-0.1248112	-0.006767399	0.0007757534	0.0003622844	0.01492158	0.0009997686
	0.01480748	-0.0001528181	0.0007757534	0.0003622844	-0.1247305	-0.008986837	6.877123e-05	-6.631257e-05
	2.234643e-05	-4.125923e-05	0.01492158	0.0009997686	6.877123e-05	-6.631257e-05	-0.1247877	-0.006354689
4e+08	-0.1249992	0.004528306	5.665064e-05	-7.094912e-05	0.01411771	-0.001623495	1.754831e-05	-4.292015e-05
	5.665064e-05	-7.094912e-05	-0.1246789	0.007268141	0.0008597918	0.0002573254	0.01436583	-0.0004681542
	0.01411771	-0.001623495	0.0008597918	0.0002573254	-0.124858	0.005018534	5.973315e-05	-7.232554e-05
	1.754831e-05	-4.292015e-05	0.01436583	-0.0004681542	5.973315e-05	-7.232554e-05	-0.1246094	0.00769203
4.1e+08	-0.12192	0.01813516	4.752276e-05	-7.498334e-05	0.01308758	-0.002882966	1.264515e-05	-4.404918e-05
	4.752276e-05	-7.498334e-05	-0.1212959	0.02083861	0.0009271858	0.0001306418	0.01346577	-0.001756859
	0.01308758	-0.002882966	0.0009271858	0.0001306418	-0.1217328	0.01862168	5.038378e-05	-7.693309e-05
	1.264515e-05	-4.404918e-05	0.01346577	-0.001756859	5.038378e-05	-7.693309e-05	-0.1211792	0.02126264
4.2e+08	-0.1157745	0.03060193	3.848454e-05	-7.774781e-05	0.0117758	-0.003858005	7.693263e-06	-4.464091e-05
	3.848454e-05	-7.774781e-05	-0.1148666	0.0331965	0.0009717111	-1.401945e-05	0.0122723	-0.002791878
	0.0117758	-0.003858005	0.0009717111	-1.401945e-05	-0.1155439	0.03107399	4.099423e-05	-8.020903e-05
	7.693263e-06	-4.464091e-05	0.0122723	-0.002791878	4.099423e-05	-8.020903e-05	-0.1147042	0.0336094
4.3e+08	-0.1069164	0.04124362	2.973967e-05	-7.94145e-05	0.010256	-0.004490058	2.748864e-06	-4.469548e-05
	2.973967e-05	-7.94145e-05	-0.1057624	0.0436623	0.000988359	-0.000171045	0.01085166	-0.003511513
	0.010256	-0.004490058	0.000988359	-0.000171045	-0.1066478	0.04169114	3.179143e-05	-8.229072e-05
	2.748864e-06	-4.469548e-05	0.01085166	-0.003511513	3.179143e-05	-8.229072e-05	-0.1055587	0.04405326
4.4e+08	-0.09584891	0.04947484	2.142043e-05	-8.019406e-05	0.008613716	-0.00473815	-2.132248e-06	-4.42181e-05
	2.142043e-05	-8.019406e-05	-0.09450246	0.05166036	0.0009738919	-0.000333415	0.00928277	-0.003869855
	0.008613716	-0.00473815	0.0009738919	-0.000333415	-0.09554998	0.04988905	2.294102e-05	-8.336343e-05
	-2.132248e-06	-4.42181e-05	0.00928277	-0.003869855	2.294102e-05	-8.336343e-05	-0.09426438	0.05201969
4.5e+08	-0.08319875	0.05484161	1.357834e-05	-8.031164e-05	0.006942738	-0.004581432	-6.894632e-06	-4.321887e-05
	1.357834e-05	-8.031164e-05	-0.0817273	0.05675033	0.0009272287	-0.0004933215	0.007654106	-0.003839549
	0.006942738	-0.004581432	0.0009272287	-0.0004933215	-0.08287935	0.05521566	1.453439e-05	-8.363927e-05
	-6.894632e-06	-4.321887e-05	0.007654106	-0.003839549	1.453439e-05	-8.363927e-05	-0.08146408	0.05707008
4.6e+08	-0.06968426	0.05704742	6.181992e-06	-7.997892e-05	0.005340747	-0.004021213	-1.148305e-05	-4.171298e-05
	6.181992e-06	-7.997892e-05	-0.0681654	0.05865257	0.0008496108	-0.0006428914	0.006059665	-0.003414147
	0.005340747	-0.004021213	0.0008496108	-0.0006428914	-0.06935586	0.05737687	6.581979e-06	-8.333087e-05
	-1.148305e-05	-4.171298e-05	0.006059665	-0.003414147	6.581979e-06	-8.333087e-05	-0.06788821	0.05892712
4.7e+08	-0.05607711	0.05597194	-8.749715e-07	-7.936433e-05	0.003904239	-0.003082167	-1.584242e-05	-3.972123e-05
	-8.749715e-07	-7.936433e-05	-0.05459441	0.05726604	0.0007445243	-0.0007749336	0.004594202	-0.002609726
	0.003904239	-0.003082167	0.0007445243	-0.0007749336	-0.05575223	0.05625518	-9.83802e-07	-8.262173e-05
	-1.584242e-05	-3.972123e-05	0.004594202	-0.002609726	-9.83802e-07	-8.262173e-05	-0.05431575	0.05749257
4.8e+08	-0.04315986	0.05168094	-7.754792e-06	-7.856598e-05	0.002722814	-0.001812372	-1.991835e-05	-3.727112e-05
