!$
! Info: Touchstone file created by Circ.  Input file=Tx_14in_Rx_85ohms_TxVia_10mils_RxVia_20mils.circ
!$
# Hz S RI R 50
0	0.01125633	1.063072e-25	-7.52816e-05	-1.037847e-25	8.861581e-05	1.413161e-23	-7.529462e-05	1.516162e-24
	-7.528161e-05	-1.023786e-25	0.01125916	1.232961e-25	-7.528065e-05	-9.287151e-26	8.604754e-05	1.601404e-23
	8.866332e-05	1.413987e-23	-7.528063e-05	-9.433286e-26	0.01127108	1.065843e-25	-7.528203e-05	1.170166e-25
	-7.52946e-05	1.514517e-24	8.750275e-05	1.648228e-23	-7.528202e-05	1.152998e-25	0.01126472	1.175534e-25
1e+07	0.01380487	-0.01406831	-9.243691e-06	-1.854006e-05	0.0004457297	0.002461162	-5.887811e-06	-2.189117e-05
	-9.243691e-06	-1.854006e-05	0.0137946	-0.01383891	-1.320889e-05	-5.521682e-08	0.0005464651	0.00244979
	0.0004457338	0.002461158	-1.320889e-05	-5.521649e-08	0.0156799	-0.01375417	-2.87803e-05	4.034278e-06
	-5.887812e-06	-2.189117e-05	0.0005464979	0.002449778	-2.87803e-05	4.034278e-06	0.01376532	-0.01382895
2e+07	0.01096475	-0.03126759	-8.18257e-06	-6.4898e-06	0.001513255	0.004696395	-3.811024e-06	-1.12565e-05
	-8.18257e-06	-6.4898e-06	0.0111795	-0.0309157	-3.543955e-05	-1.680912e-05	0.001633159	0.004588022
	0.001513253	0.004696392	-3.543956e-05	-1.680912e-05	0.01282558	-0.03146764	-4.325008e-05	-4.983879e-06
	-3.811024e-06	-1.12565e-05	0.001633155	0.004588	-4.325008e-05	-4.983879e-06	0.01116208	-0.0308828
3e+07	0.002009868	-0.04790805	-7.687912e-06	-3.192006e-06	0.003204295	0.006411912	-4.619755e-06	-8.3945e-06
	-7.687912e-06	-3.192007e-06	0.00237163	-0.04756382	-5.165915e-05	-1.314256e-05	0.003248783	0.006291484
	0.003204295	0.006411912	-5.165915e-05	-1.314256e-05	0.003810037	-0.04840842	-5.325847e-05	1.949484e-07
	-4.619755e-06	-8.3945e-06	0.003248778	0.006291482	-5.325847e-05	1.949485e-07	0.002364101	-0.04751902
4e+07	-0.0116863	-0.06146238	-7.188654e-06	-1.256566e-06	0.005266631	0.007540088	-6.202952e-06	-5.975482e-06
	-7.188655e-06	-1.256566e-06	-0.01123365	-0.06116367	-6.369012e-05	-2.951354e-06	0.005241852	0.007437425
	0.005266632	0.007540087	-6.369012e-05	-2.951354e-06	-0.009995926	-0.0622163	-6.002974e-05	9.787289e-06
	-6.202952e-06	-5.975482e-06	0.005241852	0.007437427	-6.002974e-05	9.787289e-06	-0.01123406	-0.06111166
5e+07	-0.02871638	-0.07064222	-6.632878e-06	1.247988e-07	0.007513435	0.008015269	-7.309277e-06	-3.66874e-06
	-6.632878e-06	1.247988e-07	-0.02821773	-0.07040004	-7.163452e-05	1.125059e-05	0.007429303	0.007952842
	0.007513436	0.008015268	-7.163452e-05	1.125059e-05	-0.02717799	-0.07161265	-6.360755e-05	2.19842e-05
	-7.309277e-06	-3.66874e-06	0.007429303	0.007952842	-6.360755e-05	2.19842e-05	-0.02821392	-0.07034115
6e+07	-0.0475415	-0.07472662	-6.010951e-06	1.182811e-06	0.009748664	0.007828099	-7.913469e-06	-1.335421e-06
	-6.010951e-06	1.182811e-06	-0.04703135	-0.07453746	-7.522653e-05	2.815738e-05	0.009619239	0.007823274
	0.009748666	0.007828099	-7.522653e-05	2.815738e-05	-0.04618931	-0.07587514	-6.379766e-05	3.581264e-05
	-7.913469e-06	-1.335421e-06	0.009619236	0.007823275	-6.379766e-05	3.581264e-05	-0.04702426	-0.0744709
7e+07	-0.06657752	-0.07349523	-5.330813e-06	2.002385e-06	0.01178739	0.007025278	-7.979355e-06	1.023907e-06
	-5.330813e-06	2.002385e-06	-0.06608041	-0.07334812	-7.405284e-05	4.672452e-05	0.01163021	0.007090219
	0.01178739	0.007025278	-7.405284e-05	4.672452e-05	-0.06543742	-0.07478111	-6.032545e-05	5.047299e-05
	-7.979355e-06	1.023908e-06	0.0116302	0.007090222	-6.032545e-05	5.047299e-05	-0.06607022	-0.07327323
8e+07	-0.08430744	-0.06718718	-4.609059e-06	2.620287e-06	0.01347157	0.005701281	-7.463003e-06	3.350441e-06
	-4.60906e-06	2.620287e-06	-0.08383958	-0.06706873	-6.762818e-05	6.590815e-05	0.01330663	0.005842567
	0.01347158	0.005701281	-6.762818e-05	6.590815e-05	-0.08339754	-0.06856846	-5.288293e-05	6.514988e-05
	-7.463003e-06	3.350441e-06	0.01330662	0.005842572	-5.288293e-05	6.514988e-05	-0.08382614	-0.06698461
9e+07	-0.09938739	-0.05644334	-3.867257e-06	3.053329e-06	0.01468086	0.003986234	-6.296046e-06	5.548306e-06
	-3.867257e-06	3.053329e-06	-0.09896031	-0.05634164	-5.531745e-05	8.458097e-05	0.01452954	0.004204642
	0.01468086	0.003986233	-5.531745e-05	8.458097e-05	-0.09871992	-0.05787839	-4.105327e-05	7.899982e-05
	-6.296046e-06	5.548307e-06	0.01452954	0.004204646	-4.105327e-05	7.899981e-05	-0.09894262	-0.05624716
1e+08	-0.1107265	-0.04222753	-3.119119e-06	3.303968e-06	0.01533871	0.002032568	-4.19027e-06	7.524444e-06
	-3.119119e-06	3.303968e-06	-0.1103628	-0.04213763	-3.47105e-05	0.0001016803	0.01522496	0.002323859
	0.01533871	0.002032568	-3.47105e-05	0.0001016803	-0.1103193	-0.04367873	-2.316737e-05	9.121568e-05
	-4.19027e-06	7.524444e-06	0.01522496	0.002323859	-2.316737e-05	9.121568e-05	-0.110339	-0.04203217
1.1e+08	-0.117585	-0.02580604	-2.497832e-06	3.579542e-06	0.01541146	-8.900009e-07	-1.583909e-06	7.940562e-06
	-2.497832e-06	3.579542e-06	-0.1172879	-0.0256496	-9.463533e-06	0.0001053114	0.01535417	0.0003373117
	0.01541146	-8.900881e-07	-9.463533e-06	0.0001053114	-0.1174352	-0.02717705	-1.241573e-05	9.217556e-05
	-1.583909e-06	7.940562e-06	0.01535417	0.0003373116	-1.241573e-05	9.217556e-05	-0.1172551	-0.02553351
1.2e+08	-0.119616	-0.00844761	-1.830821e-06	3.837874e-06	0.01490732	-0.001950508	5.424379e-07	7.811497e-06
	-1.830821e-06	3.837874e-06	-0.1193311	-0.008221703	2.229116e-06	0.000104519	0.01490968	-0.001582912
	0.01490732	-0.001950508	2.229116e-06	0.000104519	-0.1196689	-0.009698984	-3.977227e-06	9.213214e-05
	5.42438e-07	7.811497e-06	0.01490968	-0.001582912	-3.977227e-06	9.213214e-05	-0.1192859	-0.008097183
1.3e+08	-0.1167882	0.008485979	-1.151083e-06	3.998267e-06	0.01387744	-0.003666892	1.972054e-06	7.360144e-06
	-1.151083e-06	3.998267e-06	-0.1164869	0.008765528	1.234688e-05	0.0001027728	0.01394148	-0.00328781
	0.01387744	-0.003666892	1.234688e-05	0.0001027728	-0.1170019	0.007377792	5.442098e-06	9.135928e-05
	1.972054e-06	7.360144e-06	0.01394148	-0.00328781	5.442098e-06	9.135928e-05	-0.1164273	0.008894945
1.4e+08	-0.1094483	0.0236888	-4.773881e-07	4.052723e-06	0.01240724	-0.00502003	2.346227e-06	7.001535e-06
	-4.773881e-07	4.052723e-06	-0.1091159	0.02399831	2.296277e-05	9.992979e-05	0.01253041	-0.004647933
	0.01240724	-0.00502003	2.296277e-05	9.992979e-05	-0.1097832	0.02273797	1.531306e-05	8.952292e-05
	2.346227e-06	7.001535e-06	0.01253041	-0.004647933	1.531306e-05	8.952292e-05	-0.1090409	0.02412816
1.5e+08	-0.09827971	0.03600663	1.707035e-07	4.004477e-06	0.01061176	-0.005905982	2.745462e-06	6.650299e-06
	1.707035e-07	4.004477e-06	-0.09791433	0.03631952	3.364701e-05	9.580692e-05	0.01078626	-0.005558529
	0.01061176	-0.005905982	3.364701e-05	9.580692e-05	-0.09869864	0.0352195	2.526024e-05	8.646257e-05
	2.745462e-06	6.650299e-06	0.01078626	-0.005558529	2.526024e-05	8.646257e-05	-0.0978247	0.03644486
1.6e+08	-0.08424955	0.04451821	7.820799e-07	3.863062e-06	0.00862957	-0.006253216	3.155624e-06	6.293717e-06
	7.820799e-07	3.863062e-06	-0.08386107	0.04480927	4.404487e-05	9.033855e-05	0.00884249	-0.005945652
	0.00862957	-0.006253216	4.404487e-05	9.033855e-05	-0.08471743	0.04389431	3.497669e-05	8.21241e-05
	3.155624e-06	6.293717e-06	0.00884249	-0.005945652	3.497669e-05	8.21241e-05	-0.08375927	0.04492524
1.7e+08	-0.06853699	0.0486019	1.347051e-06	3.638849e-06	0.006615201	-0.006028366	3.567605e-06	5.923588e-06
	1.347051e-06	3.638849e-06	-0.06814572	0.04885102	5.384531e-05	8.354746e-05	0.006849129	-0.005771953
	0.006615201	-0.006028366	5.384531e-05	8.354746e-05	-0.06902182	0.04813466	4.418619e-05	7.652808e-05
	3.567605e-06	5.923588e-06	0.006849129	-0.005771953	4.418619e-05	7.652808e-05	-0.06803588	0.04895347
1.8e+08	-0.05244675	0.04798341	1.857886e-06	3.342659e-06	0.00472944	-0.005240802	3.975057e-06	5.53405e-06
	1.857886e-06	3.342659e-06	-0.05208097	0.04817879	6.277754e-05	7.552757e-05	0.004963681	-0.005041456
	0.00472944	-0.005240802	6.277754e-05	7.552757e-05	-0.05292022	0.04766089	5.264322e-05	6.975739e-05
	3.975057e-06	5.53405e-06	0.004963681	-0.005041456	5.264322e-05	6.975739e-05	-0.0519687	0.04826482
1.9e+08	-0.03731053	0.04276024	2.308845e-06	2.985193e-06	0.003127609	-0.003944939	4.372992e-06	5.120389e-06
	2.308845e-06	2.985193e-06	-0.03700333	0.04290073	7.061493e-05	6.643003e-05	0.003339808	-0.003802238
	0.003127609	-0.003944939	7.061493e-05	6.643003e-05	-0.03774875	0.04256602	6.013851e-05	6.194649e-05
	4.372992e-06	5.120389e-06	0.003339808	-0.003802238	6.013851e-05	6.194649e-05	-0.03689525	0.04296924
2e+08	-0.02438258	0.03339873	2.695837e-06	2.576557e-06	0.001946291	-0.002239039	4.756788e-06	4.678397e-06
	2.695837e-06	2.576557e-06	-0.02416805	0.03349523	7.718083e-05	5.644894e-05	0.002114364	-0.002145744
	0.001946291	-0.002239039	7.718083e-05	5.644894e-05	-0.02476678	0.0333129	6.650562e-05	5.326962e-05
	4.756788e-06	4.678397e-06	0.002114364	-0.002145744	6.650562e-05	5.326962e-05	-0.02407127	0.0335472
2.1e+08	-0.01473723	0.02070118	3.015861e-06	2.126045e-06	0.001289831	-0.0002594923	5.121387e-06	4.204307e-06
	3.015861e-06	2.126045e-06	-0.01464642	0.02077672	8.23529e-05	4.580648e-05	0.00139405	-0.0002016683
	0.001289831	-0.0002594923	8.23529e-05	4.580648e-05	-0.01505426	0.02070155	7.162607e-05	4.392781e-05
	5.121387e-06	4.204307e-06	0.00139405	-0.0002016683	7.162607e-05	4.392781e-05	-0.01456777	0.02081539
2.2e+08	-0.009177944	0.005743041	3.266451e-06	1.642252e-06	0.001218554	0.001829783	5.460781e-06	3.695025e-06
	3.266451e-06	1.642252e-06	-0.009234769	0.005831614	8.606437e-05	3.473699e-05	0.001243581	0.001871995
	0.001218554	0.001829783	8.606437e-05	3.473699e-05	-0.009420494	0.005806517	7.543125e-05	3.413478e-05
	5.460781e-06	3.695025e-06	0.001243581	0.001871995	7.543125e-05	3.413478e-05	-0.009180115	0.005862414
2.3e+08	-0.008167502	-0.01021584	3.445282e-06	1.133449e-06	0.001740809	0.003852197	5.767819e-06	3.148648e-06
	3.445282e-06	1.133449e-06	-0.008385208	-0.01007173	8.830103e-05	2.347182e-05	0.00167747	0.003903177
	0.001740809	0.003852197	8.830103e-05	2.347182e-05	-0.008334004	-0.01011183	7.790057e-05	2.410318e-05
	5.767819e-06	3.148648e-06	0.00167747	0.003903177	7.790057e-05	2.410318e-05	-0.008358757	-0.01004156
2.4e+08	-0.01178787	-0.02583861	3.550065e-06	6.080797e-07	0.002810597	0.005635907	6.034442e-06	2.565095e-06
	3.550065e-06	6.080797e-07	-0.0121663	-0.02559152	8.909459e-05	1.222669e-05	0.0026572	0.005722612
	0.002810597	0.005635907	8.909459e-05	1.222669e-05	-0.01188194	-0.02571473	7.905595e-05	1.403276e-05
	6.034442e-06	2.565095e-06	0.0026572	0.005722612	7.905595e-05	1.403276e-05	-0.01217002	-0.02555341
2.5e+08	-0.01973482	-0.03982664	3.578755e-06	7.524526e-08	0.004331638	0.007031366	6.252175e-06	1.946433e-06
	3.578755e-06	7.524526e-08	-0.02025894	-0.03942857	8.851227e-05	1.191574e-06	0.004094665	0.007181005
	0.004331638	0.007031366	8.851227e-05	1.191574e-06	-0.01976436	-0.03970057	7.895292e-05	4.101008e-06
	6.252175e-06	1.946433e-06	0.004094665	0.007181005	7.895292e-05	4.101008e-06	-0.02029218	-0.03937339
2.6e+08	-0.0313484	-0.05103067	3.529987e-06	-4.550131e-07	0.006167505	0.007926341	6.412863e-06	1.297069e-06
	3.529987e-06	-4.550131e-07	-0.03198822	-0.05043782	8.664509e-05	-9.474054e-06	0.005861559	0.008163875
	0.006167505	0.007926341	8.664509e-05	-9.474054e-06	-0.03132446	-0.05091627	7.767028e-05	-5.541905e-06
	6.412863e-06	1.297069e-06	0.005861559	0.008163875	7.767028e-05	-5.541905e-06	-0.03204755	-0.05035668
2.7e+08	-0.04567546	-0.05854605	3.403639e-06	-9.716883e-07	0.008156263	0.008256183	6.509354e-06	6.235265e-07
	3.403639e-06	-9.716883e-07	-0.04638751	-0.05772347	8.35958e-05	-1.964186e-05	0.007803244	0.008601892
	0.008156263	0.008256183	8.35958e-05	-1.964186e-05	-0.04561095	-0.05845298	7.529918e-05	-1.47743e-05
	6.509354e-06	6.235265e-07	0.007803244	0.008601892	7.529918e-05	-1.47743e-05	-0.04646687	-0.05760856
2.8e+08	-0.0615567	-0.06178291	3.201369e-06	-1.463062e-06	0.01012726	0.008008117	6.536132e-06	-6.599364e-08
	3.201369e-06	-1.463062e-06	-0.06228693	-0.06070862	7.946933e-05	-2.921087e-05	0.009754813	0.008475485
	0.01012726	0.008008117	7.946933e-05	-2.921087e-05	-0.06146513	-0.06171669	7.193413e-05	-2.350027e-05
	6.536132e-06	-6.599364e-08	0.009754813	0.008475485	7.193413e-05	-2.350027e-05	-0.06237797	-0.06055403
2.9e+08	-0.07772805	-0.06050586	2.926997e-06	-1.917174e-06	0.01191754	0.00721953	6.48961e-06	-7.622481e-07
	2.926997e-06	-1.917174e-06	-0.07841591	-0.0591739	7.43656e-05	-3.81012e-05	0.0115569	0.00781366
	0.01191754	0.00721953	7.43656e-05	-3.81012e-05	-0.07762243	-0.06046818	6.766588e-05	-3.164439e-05
	6.48961e-06	-7.622481e-07	0.0115569	0.00781366	6.766588e-05	-3.164439e-05	-0.07850863	-0.05897624
3e+08	-0.09292569	-0.05484161	2.586707e-06	-2.322421e-06	0.01338582	0.005971275	6.368185e-06	-1.45559e-06
	2.586707e-06	-2.322421e-06	-0.09350911	-0.05326383	6.837632e-05	-4.624639e-05	0.01306923	0.006687997
	0.01338582	0.005971275	6.837632e-05	-4.624639e-05	-0.09281776	-0.05483099	6.257779e-05	-3.914493e-05
	6.368185e-06	-1.45559e-06	0.01306923	0.006687997	6.257779e-05	-3.914493e-05	-0.09359262	-0.05302271
3.1e+08	-0.1059852	-0.04525708	2.189013e-06	-2.668183e-06	0.01442261	0.004377674	6.172127e-06	-2.136553e-06
	2.189013e-06	-2.668183e-06	-0.1064059	-0.04346333	6.15848e-05	-5.35857e-05	0.01418055	0.005203459
	0.01442261	0.004377674	6.15848e-05	-5.35857e-05	-0.1058848	-0.04526958	5.674552e-05	-4.594714e-05
	6.172127e-06	-2.136553e-06	0.01418055	0.005203459	5.674552e-05	-4.594714e-05	-0.1064693	-0.04318151
3.2e+08	-0.1159272	-0.03251255	1.744566e-06	-2.945441e-06	0.01495631	0.002575043	5.903212e-06	-2.796249e-06
	1.744566e-06	-2.945441e-06	-0.1161359	-0.03054934	5.40697e-05	-6.005859e-05	0.01481481	0.003487722
	0.01495631	0.002575043	5.40697e-05	-6.005859e-05	-0.115842	-0.03254251	5.023899e-05	-5.199742e-05
	5.903212e-06	-2.796249e-06	0.01481481	0.003487722	5.023899e-05	-5.199742e-05	-0.1161693	-0.0302327
3.3e+08	-0.1220245	-0.01759619	1.265821e-06	-3.147351e-06	0.01495553	0.0007102163	5.564346e-06	-3.426602e-06
	1.265821e-06	-3.147351e-06	-0.1219856	-0.01552379	4.59115e-05	-6.560366e-05	0.01493376	0.001680474
	0.01495553	0.0007102163	4.59115e-05	-6.560366e-05	-0.1219598	-0.01763699	4.312652e-05	-5.72395e-05
	5.564346e-06	-3.426602e-06	0.01493376	0.001680474	4.312652e-05	-5.72395e-05	-0.121981	-0.01518102
3.4e+08	-0.1238483	-0.001646229	7.664241e-07	-3.269627e-06	0.01442858	-0.001069954	5.159121e-06	-4.020267e-06
	7.664241e-07	-3.269627e-06	-0.1235441	0.0004654699	3.719435e-05	-7.015403e-05	0.0145369	-7.643396e-05
	0.01442858	-0.001069954	3.719435e-05	-7.015403e-05	-0.1238076	-0.001690854	3.54799e-05	-6.161188e-05
	5.159121e-06	-4.020267e-06	0.0145369	-7.643396e-05	3.54799e-05	-6.161188e-05	-0.1234959	0.0008234811
3.5e+08	-0.1212934	0.01413354	2.60597e-07	-3.310819e-06	0.01342089	-0.002627787	4.69171e-06	-4.571064e-06
	2.60597e-07	-3.310819e-06	-0.120726	0.01621022	2.801388e-05	-7.364165e-05	0.01365962	-0.001647693
	0.01342089	-0.002627787	2.801388e-05	-7.364165e-05	-0.121278	0.01409204	2.738071e-05	-6.505156e-05
	4.69171e-06	-4.571064e-06	0.01365962	-0.001647693	2.738071e-05	-6.505156e-05	-0.120632	0.01657119
3.6e+08	-0.1145804	0.02855999	-2.375661e-07	-3.272409e-06	0.01201117	-0.003842738	4.166317e-06	-5.073372e-06
	-2.375661e-07	-3.272409e-06	-0.1137733	0.03052872	1.848068e-05	-7.600053e-05	0.01237013	-0.002912203
	0.01201117	-0.003842738	1.848068e-05	-7.600053e-05	-0.11459	0.02852809	1.892369e-05	-6.749512e-05
	4.166317e-06	-5.073372e-06	0.01237013	-0.002912203	1.892369e-05	-6.749512e-05	-0.1136347	0.03087985
3.7e+08	-0.104239	0.04055424	-7.148315e-07	-3.158713e-06	0.01030652	-0.004618415	3.587092e-06	-5.521926e-06
	-7.148315e-07	-3.158713e-06	-0.103236	0.04234954	8.722874e-06	-7.717096e-05	0.01076535	-0.003770023
	0.01030652	-0.004618415	8.722874e-06	-7.717096e-05	-0.1042718	0.04053767	1.02201e-05	-6.888341e-05
	3.587092e-06	-5.521926e-06	0.01076535	-0.003770023	1.02201e-05	-6.888341e-05	-0.1030578	0.04267858
3.8e+08	-0.09107014	0.04921876	-1.159535e-06	-2.976538e-06	0.008436404	-0.004888852	2.95813e-06	-5.911549e-06
	-1.159535e-06	-2.976538e-06	-0.08993353	0.05078837	-1.112729e-06	-7.710655e-05	0.008965788	-0.004148809
	0.008436404	-0.004888852	-1.112729e-06	-7.710655e-05	-0.09112339	0.04922227	1.399128e-06	-6.916805e-05
	2.95813e-06	-5.911549e-06	0.008965788	-0.004148809	1.399128e-06	-6.916805e-05	-0.08972403	0.05108461
3.9e+08	-0.07609065	0.05390374	-1.562167e-06	-2.734624e-06	0.006545179	-0.004623965	2.283598e-06	-6.23684e-06
	-1.562167e-06	-2.734624e-06	-0.07489687	0.0552138	-1.086215e-05	-7.578117e-05	0.007108817	-0.004009651
	0.006545179	-0.004623965	-1.086215e-05	-7.578117e-05	-0.07616077	0.05393099	-7.393129e-06	-6.831814e-05
	2.283598e-06	-6.23684e-06	0.007108817	-0.004009651	-7.393129e-06	-6.831814e-05	-0.07466739	0.05546905
4e+08	-0.06046124	0.05425861	-1.915736e-06	-2.442905e-06	0.004782879	-0.003833683	1.568046e-06	-6.491928e-06
	-1.915736e-06	-2.442905e-06	-0.05929555	0.05529753	-2.034822e-05	-7.319545e-05	0.005340117	-0.0033518
	0.004782879	-0.003833683	-2.034822e-05	-7.319545e-05	-0.06054421	0.05431211	-1.59972e-05	-6.632656e-05
	1.568046e-06	-6.491928e-06	0.005340117	-0.0033518	-1.59972e-05	-6.632656e-05	-0.05905962	0.05550697
4.1e+08	-0.04540123	0.05026396	-2.215864e-06	-2.111674e-06	0.003294236	-0.002569906	8.168364e-07	-6.670393e-06
	-2.215864e-06	-2.111674e-06	-0.04435119	0.05104477	-2.938709e-05	-6.93823e-05	0.003803197	-0.002215413
	0.003294236	-0.002569906	-2.938709e-05	-6.93823e-05	-0.04549292	0.05034507	-2.424606e-05	-6.321534e-05
	8.168364e-07	-6.670393e-06	0.003803197	-0.002215413	-2.424606e-05	-6.321534e-05	-0.04412358	0.05120753
4.2e+08	-0.03209522	0.04223972	-2.460548e-06	-1.750783e-06	0.002206432	-0.0009252755	3.666332e-08	-6.765387e-06
	-2.460548e-06	-1.750783e-06	-0.03124352	0.04280048	-3.77966e-05	-6.441011e-05	0.002627406	-0.0006812233
	0.002206432	-0.0009252755	-3.77966e-05	-6.441011e-05	-0.03219168	0.04234877	-3.19729e-05	-5.903885e-05
	3.666332e-08	-6.765387e-06	0.002627406	-0.0006812233	-3.19729e-05	-5.903885e-05	-0.03103901	0.04291995
4.3e+08	-0.0215981	0.03082663	-2.649638e-06	-1.369009e-06	0.00161671	0.0009721024	-7.639462e-07	-6.770024e-06
	-2.649638e-06	-1.369009e-06	-0.02101531	0.03122866	-4.540598e-05	-5.838315e-05	0.001915548	0.001133751
	0.00161671	0.0009721024	-4.540598e-05	-5.838315e-05	-0.02169582	0.03096312	-3.901992e-05	-5.388435e-05
	-7.639462e-07	-6.770024e-06	0.001915548	0.001133751	-3.901992e-05	-5.388435e-05	-0.02084751	0.0313125
4.4e+08	-0.01474692	0.01693994	-2.78412e-06	-9.737129e-07	0.001581491	0.002968319	-1.574295e-06	-6.678031e-06
	-2.78412e-06	-9.737129e-07	-0.01448487	0.017264	-5.206555e-05	-5.143859e-05	0.001732707	0.003084893
	0.001581491	0.002968319	-5.206555e-05	-5.143859e-05	-0.01484302	0.01710279	-4.524722e-05	-4.786955e-05
	-1.574295e-06	-6.678031e-06	0.001732707	0.003084893	-4.524722e-05	-4.786955e-05	-0.01436496	0.01732367
4.5e+08	-0.01208843	0.001697617	-2.865361e-06	-5.70857e-07	0.002108846	0.004897204	-2.381467e-06	-6.484585e-06
	-2.865361e-06	-5.70857e-07	-0.01217484	0.002038064	-5.765533e-05	-4.374033e-05	0.002098159	0.005012646
	0.002108846	0.004897204	-5.765533e-05	-4.374033e-05	-0.01218067	0.001885471	-5.054065e-05	-4.113723e-05
	-2.381467e-06	-6.484585e-06	0.002098159	0.005012646	-5.054065e-05	-4.113723e-05	-0.01211048	0.00208807
4.6e+08	-0.01383055	-0.01367155	-2.894478e-06	-1.653531e-07	0.003155956	0.006596353	-3.170661e-06	-6.187187e-06
	-2.894478e-06	-1.653531e-07	-0.0142655	-0.01321404	-6.2091e-05	-3.547004e-05	0.002981986	0.006757842
	0.003155956	0.006596353	-6.2091e-05	-3.547004e-05	-0.0139173	-0.01346003	-5.481742e-05	-3.384742e-05
	-3.170661e-06	-6.187187e-06	0.002981986	0.006757842	-5.481742e-05	-3.384742e-05	-0.01426	-0.01315723
4.7e+08	-0.0198239	-0.02793133	-2.871988e-06	2.383556e-07	0.004632409	0.007923512	-3.925842e-06	-5.786382e-06
	-2.871988e-06	2.383556e-07	-0.02057852	-0.02725798	-6.53264e-05	-2.681673e-05	0.004307351	0.008177644
	0.004632409	0.007923512	-6.53264e-05	-2.681673e-05	-0.01990391	-0.02769724	-5.802869e-05	-2.616825e-05
	-3.925842e-06	-5.786382e-06	0.004307351	0.008177644	-5.802869e-05	-2.616825e-05	-0.02063037	-0.02717727
