!$
! Info: Touchstone file created by Circ.  Input file=Tx_12in_Rx_93ohms_TxVia_10mils_RxVia_20mils.circ
!$
# Hz S RI R 50
0	0.01101214	8.296506e-26	3.20741e-09	4.69868e-27	7.572042e-05	1.123387e-23	-3.511014e-09	4.633834e-25
	3.207403e-09	4.698822e-27	0.01101173	1.072198e-25	-3.1611e-09	4.353142e-25	7.517067e-05	1.56603e-23
	7.799361e-05	1.125973e-23	-3.159182e-09	4.35077e-25	0.01100445	7.247366e-26	1.257619e-08	1.918517e-29
	-3.508303e-09	4.630497e-25	7.662598e-05	1.611821e-23	1.257629e-08	1.902765e-29	0.01101729	1.022377e-25
1e+07	0.01598097	-0.001562399	5.35131e-09	7.655615e-09	0.0004246961	0.002148171	1.456883e-08	5.47721e-08
	5.351311e-09	7.655616e-09	0.01597524	-0.001563834	-2.156004e-10	5.797614e-08	0.0004210311	0.002149318
	0.0004247447	0.002148144	-2.156002e-10	5.797614e-08	0.01566622	-0.001564915	-8.080149e-09	4.540201e-08
	1.456884e-08	5.47721e-08	0.0004210641	0.002149306	-8.08015e-09	4.540201e-08	0.01566056	-0.001566417
2e+07	0.01817892	-0.007224207	8.864008e-09	1.276109e-08	0.001137667	0.004214217	4.068961e-08	6.801474e-08
	8.864008e-09	1.276109e-08	0.0181564	-0.007223495	3.112947e-09	8.057082e-08	0.001123858	0.004219488
	0.001137659	0.004214192	3.112947e-09	8.057082e-08	0.01794458	-0.007123587	-1.082737e-09	4.567318e-08
	4.068961e-08	6.801474e-08	0.001123855	0.004219467	-1.082738e-09	4.567318e-08	0.01792273	-0.007122657
3e+07	0.0178481	-0.01408711	1.302386e-08	1.641338e-08	0.002376224	0.005923515	7.814372e-08	7.035448e-08
	1.302386e-08	1.641339e-08	0.01779907	-0.01407658	9.649089e-09	1.068328e-07	0.002347245	0.005937858
	0.002376225	0.005923511	9.649089e-09	1.068328e-07	0.01767181	-0.01396783	7.058183e-09	5.072558e-08
	7.814372e-08	7.035448e-08	0.00234724	0.005937855	7.058183e-09	5.072558e-08	0.01762537	-0.01395754
4e+07	0.01546037	-0.02086376	1.738864e-08	1.8366e-08	0.00401981	0.007225192	1.153909e-07	5.871819e-08
	1.738864e-08	1.8366e-08	0.01537826	-0.02083241	1.41618e-08	1.322472e-07	0.003972555	0.007255147
	0.004019814	0.007225188	1.41618e-08	1.322472e-07	0.01532714	-0.02075006	1.655003e-08	5.252e-08
	1.153909e-07	5.871819e-08	0.003972555	0.007255149	1.655003e-08	5.252e-08	0.01524906	-0.02072042
5e+07	0.0113423	-0.02695068	2.145184e-08	1.863083e-08	0.005897364	0.008079192	1.493185e-07	3.402148e-08
	2.145184e-08	1.863083e-08	0.01122457	-0.02688549	1.690751e-08	1.579948e-07	0.005831158	0.008132288
	0.005897365	0.00807919	1.690751e-08	1.579948e-07	0.01123719	-0.02685395	2.589003e-08	4.998117e-08
	1.493185e-07	3.402148e-08	0.005831158	0.008132289	2.589003e-08	4.998117e-08	0.01112489	-0.02679186
6e+07	0.005837334	-0.0319276	2.470008e-08	1.733086e-08	0.00789556	0.008448387	1.76374e-07	-3.098211e-09
	2.470008e-08	1.733086e-08	0.00568596	-0.03181488	1.864206e-08	1.844841e-07	0.007812346	0.008532276
	0.00789556	0.008448388	1.864206e-08	1.844841e-07	0.005747085	-0.03185207	3.344836e-08	4.360887e-08
	1.76374e-07	-3.098211e-09	0.007812343	0.008532277	3.344836e-08	4.360887e-08	0.005602959	-0.03174438
7e+07	-0.000674154	-0.03549964	2.664288e-08	1.472563e-08	0.009894844	0.008322818	1.926486e-07	-5.087268e-08
	2.664288e-08	1.472563e-08	-0.0008526085	-0.03532653	1.996382e-08	2.117921e-07	0.00979911	0.008444462
	0.009894845	0.008322822	1.996382e-08	2.117921e-07	-0.0007608583	-0.03544543	3.793575e-08	3.459385e-08
	1.926486e-07	-5.087268e-08	0.009799105	0.008444465	3.793575e-08	3.459385e-08	-0.0009305489	-0.03528034
8e+07	-0.007782721	-0.03748434	2.685792e-08	1.122016e-08	0.01177701	0.007721065	1.946093e-07	-1.061553e-07
	2.685792e-08	1.122016e-08	-0.007977562	-0.03724018	2.137609e-08	2.398667e-07	0.0116755	0.007885997
	0.01177701	0.00772107	2.137609e-08	2.398667e-07	-0.007875474	-0.03744886	3.861958e-08	2.443933e-08
	1.946093e-07	-1.061553e-07	0.0116755	0.007886001	3.861958e-08	2.443933e-08	-0.008061178	-0.0372163
9e+07	-0.01506533	-0.03780638	2.504168e-08	7.349044e-09	0.01343237	0.006689112	1.796837e-07	-1.646121e-07
	2.504168e-08	7.349043e-09	-0.01526253	-0.03748394	2.323781e-08	2.686237e-07	0.01333363	0.006900796
	0.01343237	0.006689115	2.323781e-08	2.686237e-07	-0.01517236	-0.03778526	3.535778e-08	1.469931e-08
	1.796837e-07	-1.646121e-07	0.01333362	0.0069008	3.535778e-08	1.469931e-08	-0.01536131	-0.03747755
1e+08	-0.02208627	-0.03648596	2.105062e-08	3.739305e-09	0.01476588	0.005296763	1.466654e-07	-2.210947e-07
	2.105062e-08	3.739305e-09	-0.0222695	-0.03608235	2.588919e-08	2.977958e-07	0.01467961	0.005556093
	0.01476588	0.005296763	2.588919e-08	2.977958e-07	-0.02221737	-0.03647468	2.854136e-08	6.745609e-09
	1.466654e-07	-2.210947e-07	0.01467961	0.005556093	2.854136e-08	6.745609e-09	-0.02239389	-0.03608778
1.1e+08	-0.02848443	-0.03378883	1.494778e-08	1.065283e-09	0.01570126	0.003637714	9.812022e-08	-2.704385e-07
	1.494778e-08	1.065283e-09	-0.02863707	-0.0333045	2.742625e-08	3.287571e-07	0.01563713	0.003942337
	0.01570126	0.003637713	2.742625e-08	3.287571e-07	-0.02864401	-0.03376378	2.038678e-08	3.417105e-09
	9.812022e-08	-2.704385e-07	0.01563713	0.003942336	2.038678e-08	3.417105e-09	-0.0287914	-0.03329863
1.2e+08	-0.03403727	-0.0297967	6.999157e-09	-4.902142e-11	0.01619295	0.001817026	3.391459e-08	-3.081304e-07
	6.999157e-09	-4.90214e-11	-0.03414169	-0.029239	2.975789e-08	3.599167e-07	0.01616077	0.002162117
	0.01619295	0.001817026	2.975789e-08	3.599167e-07	-0.03421375	-0.02974868	9.800195e-09	2.174008e-09
	3.391459e-08	-3.081304e-07	0.01616077	0.002162117	9.800195e-09	2.174008e-09	-0.03431455	-0.02921261
1.3e+08	-0.03843923	-0.02475671	-2.37031e-09	9.459522e-10	0.01621828	-5.402202e-05	-4.286888e-08	-3.295942e-07
	-2.370309e-09	9.459523e-10	-0.03848009	-0.02413809	3.29829e-08	3.910155e-07	0.01622646	0.0003237228
	0.01621828	-5.402219e-05	3.29829e-08	3.910155e-07	-0.03862349	-0.02468108	-2.652486e-09	3.735468e-09
	-4.286888e-08	-3.295942e-07	0.01622646	0.0003237228	-2.652486e-09	3.735468e-09	-0.03866277	-0.02408642
1.4e+08	-0.04148375	-0.01898347	-1.257893e-08	4.479981e-09	0.01578209	-0.001862431	-1.278735e-07	-3.31114e-07
	-1.257893e-08	4.479981e-09	-0.04144924	-0.0183207	3.711079e-08	4.21783e-07	0.01583681	-0.001462341
	0.01578209	-0.001862431	3.711079e-08	4.21783e-07	-0.04166672	-0.01887851	-1.620275e-08	8.662634e-09
	-1.278735e-07	-3.31114e-07	0.01583681	-0.001462341	-1.620275e-08	8.662634e-09	-0.04163319	-0.0182417
1.5e+08	-0.04305203	-0.01282695	-2.292513e-08	1.081777e-08	0.0149157	-0.003500426	-2.157255e-07	-3.10176e-07
	-2.292513e-08	1.081777e-08	-0.04293501	-0.01214013	4.206363e-08	4.519542e-07	0.01502031	-0.003090135
	0.0149157	-0.003500427	4.206363e-08	4.519542e-07	-0.043225	-0.01269365	-2.992699e-08	1.730111e-08
	-2.157255e-07	-3.10176e-07	0.01502031	-0.003090135	-2.992699e-08	1.730111e-08	-0.04311198	-0.01203419
1.6e+08	-0.04311442	-0.006650126	-3.263558e-08	2.002689e-08	0.0136747	-0.004871427	-3.003677e-07	-2.657319e-07
	-3.263558e-08	2.002689e-08	-0.04291323	-0.00596142	4.768218e-08	4.812952e-07	0.01382919	-0.004464107
	0.0136747	-0.004871427	4.768218e-08	4.812952e-07	-0.04326959	-0.006491893	-4.280812e-08	2.973987e-08
	-3.003677e-07	-2.657319e-07	0.01382919	-0.004464107	-4.280812e-08	2.973987e-08	-0.04307572	-0.005831138
1.7e+08	-0.04172856	-0.0008078131	-4.092149e-08	3.196036e-08	0.0121355	-0.005895244	-3.754568e-07	-1.983704e-07
	-4.092149e-08	3.196036e-08	-0.04144758	-0.0001399708	5.373953e-08	5.096264e-07	0.01233627	-0.005504186
	0.0121355	-0.005895245	5.373953e-08	5.096264e-07	-0.04185952	-0.0006300762	-5.380754e-08	4.578845e-08
	-3.754568e-07	-1.983704e-07	0.01233627	-0.005504186	-5.380754e-08	4.578845e-08	-0.04158923	1.017939e-05
1.8e+08	-0.03903341	0.004373108	-4.703834e-08	4.625582e-08	0.01039082	-0.006512333	-4.348016e-07	-1.103823e-07
	-4.703834e-08	4.625582e-08	-0.03868321	0.004998371	5.99609e-08	5.368401e-07	0.01063066	-0.006149965
	0.01039082	-0.006512333	5.99609e-08	5.368401e-07	-0.03913561	0.004563376	-6.19419e-08	6.497473e-08
	-4.348016e-07	-1.103823e-07	0.01063066	-0.006149965	-6.19419e-08	6.497473e-08	-0.03879917	0.005162392
1.9e+08	-0.03523938	0.008611292	-5.034409e-08	6.23514e-08	0.008544464	-0.006686907	-4.728131e-07	-5.710314e-09
	-5.034409e-08	6.23514e-08	-0.03483642	0.009174936	6.604741e-08	5.629107e-07	0.008812787	-0.006363831
	0.008544464	-0.006686908	6.604741e-08	5.629107e-07	-0.03531036	0.008806133	-6.635858e-08	8.656384e-08
	-4.728131e-07	-5.710314e-09	0.008812787	-0.006363831	-6.635858e-08	8.656384e-08	-0.03492366	0.009345767
2e+08	-0.03061497	0.01168568	-5.035114e-08	7.951704e-08	0.006705455	-0.006408811	-4.84938e-07	1.102172e-07
	-5.035114e-08	7.951704e-08	-0.03018087	0.01217291	7.170106e-08	5.878974e-07	0.006988793	-0.0061329
	0.006705455	-0.006408811	7.170106e-08	5.878974e-07	-0.03065453	0.01187674	-6.640413e-08	1.095969e-07
	-4.84938e-07	1.102172e-07	0.006988793	-0.0061329	-6.640413e-08	1.095969e-07	-0.03023836	0.01234292
2.1e+08	-0.02547059	0.01344674	-4.676819e-08	9.689874e-08	0.00498196	-0.005694031	-4.680457e-07	2.307654e-07
	-4.676819e-08	9.689874e-08	-0.02503103	0.01384837	7.664846e-08	6.119391e-07	0.00526469	-0.005469671
	0.00498196	-0.005694031	7.664846e-08	6.119391e-07	-0.02548076	0.01362584	-6.16807e-08	1.329468e-07
	-4.680457e-07	2.307654e-07	0.00526469	-0.005469671	-6.16807e-08	1.329468e-07	-0.02505976	0.01400989
2.2e+08	-0.02014036	0.01382364	-3.952898e-08	1.135723e-07	0.003475168	-0.004583817	-4.207405e-07	3.484707e-07
	-3.952898e-08	1.135723e-07	-0.01972356	0.01413717	8.066098e-08	6.352435e-07	0.003740432	-0.004411341
	0.003475168	-0.004583817	8.066098e-08	6.352435e-07	-0.02012528	0.01398338	-5.208635e-08	1.553878e-07
	-4.207405e-07	3.484707e-07	0.003740432	-0.004411341	-5.208635e-08	1.553878e-07	-0.01972652	0.01428299
2.3e+08	-0.01496287	0.01282704	-2.880641e-08	1.286024e-07	0.002273495	-0.003142396	-3.435737e-07	4.554986e-07
	-2.880641e-08	1.286024e-07	-0.01459788	0.01305734	8.357008e-08	6.580713e-07	0.002504265	-0.003017768
	0.002273495	-0.003142396	8.357008e-08	6.580713e-07	-0.01492854	0.01296127	-3.783674e-08	1.756728e-07
	-3.435737e-07	4.554986e-07	0.002504265	-0.003017768	-3.783674e-08	1.756728e-07	-0.01457985	0.01318119
2.4e+08	-0.01026192	0.01054739	-1.501139e-08	1.411037e-07	0.001447427	-0.00145337	-2.39134e-07	5.441555e-07
	-1.501139e-08	1.411037e-07	-0.009976662	0.01070683	8.527724e-08	6.807186e-07	0.001627643	-0.001368145
	0.001447427	-0.00145337	8.527724e-08	6.807186e-07	-0.01021581	0.01065163	-1.946662e-08	1.926151e-07
	-2.39134e-07	5.441555e-07	0.001627643	-0.001368145	-1.946662e-08	1.926151e-07	-0.009943927	0.01080382
2.5e+08	-0.006328219	0.007148625	1.223032e-09	1.502997e-07	0.001045304	0.000385072	-1.120031e-07	6.074211e-07
	1.223032e-09	1.502997e-07	-0.006147514	0.007256887	8.575879e-08	7.034985e-07	0.001161012	0.0004434848
	0.001045303	0.0003850719	8.575879e-08	7.034985e-07	-0.006278763	0.007220441	2.188894e-09	2.051688e-07
	-1.120031e-07	6.074211e-07	0.001161012	0.0004434848	2.188894e-09	2.051688e-07	-0.006107467	0.007323833
2.6e+08	-0.003403049	0.002857972	1.907125e-08	1.555763e-07	0.001090335	0.002265872	3.142899e-08	6.394668e-07
	1.907125e-08	1.555763e-07	-0.003346755	0.002941133	8.506659e-08	7.267237e-07	0.001130757	0.00231366
	0.001090335	0.002265872	8.506659e-08	7.267237e-07	-0.003359208	0.002897102	2.603241e-08	2.125027e-07
	3.142899e-08	6.394668e-07	0.001130757	0.00231366	2.603241e-08	2.125027e-07	-0.003307494	0.00297679
2.7e+08	-0.001665104	-0.00204803	3.755671e-08	1.565283e-07	0.001579093	0.004079464	1.832847e-07	6.361214e-07
	3.755671e-08	1.565283e-07	-0.001746457	-0.001958753	8.332544e-08	7.5069e-07	0.001537534	0.004135585
	0.001579093	0.004079464	8.332544e-08	7.5069e-07	-0.001635683	-0.002039538	5.075998e-08	2.140646e-07
	1.832847e-07	6.361214e-07	0.001537534	0.004135585	5.075998e-08	2.140646e-07	-0.001716179	-0.00195354
2.8e+08	-0.001220771	-0.00726001	5.560403e-08	1.529946e-07	0.002481607	0.005720366	3.346399e-07	5.952478e-07
	5.560403e-08	1.529946e-07	-0.001445085	-0.007129994	8.072824e-08	7.756615e-07	0.002356157	0.005805495
	0.002481607	0.005720366	8.072824e-08	7.756615e-07	-0.001213874	-0.007277917	7.49318e-08	2.096313e-07
	3.346399e-07	5.952478e-07	0.002356157	0.005805495	7.49318e-08	2.096313e-07	-0.001431593	-0.007152335
2.9e+08	-0.002098834	-0.01245414	7.209899e-08	1.45082e-07	0.003743127	0.007093594	4.760598e-07	5.170003e-07
	7.209899e-08	1.45082e-07	-0.00246266	-0.0122474	7.752911e-08	8.018564e-07	0.003537076	0.007228898
	0.003743127	0.007093594	7.752911e-08	8.018564e-07	-0.00212134	-0.01249224	9.70548e-08	1.993411e-07
	4.760598e-07	5.170003e-07	0.003537076	0.007228898	9.70548e-08	1.993411e-07	-0.002472864	-0.01229251
3e+08	-0.004249742	-0.0173111	8.595433e-08	1.331747e-07	0.005287442	0.008120463	5.981974e-07	4.039361e-07
	8.595433e-08	1.331747e-07	-0.004740559	-0.01699255	7.403431e-08	8.294338e-07	0.005009387	0.008326281
	0.005287442	0.008120463	7.403431e-08	8.294338e-07	-0.004306835	-0.0173616	1.15673e-07	1.837064e-07
	5.981974e-07	4.039361e-07	0.005009387	0.008326281	1.15673e-07	1.837064e-07	-0.004780023	-0.01705403
3.1e+08	-0.007549444	-0.02153464	9.617845e-08	1.179281e-07	0.007021588	0.00874337	6.924116e-07	2.609693e-07
	9.617845e-08	1.179281e-07	-0.008145934	-0.02107238	7.059051e-08	8.584811e-07	0.006685196	0.009037871
	0.007021588	0.00874337	7.059051e-08	8.584811e-07	-0.007644248	-0.02158858	1.294613e-07	1.636037e-07
	6.924116e-07	2.609693e-07	0.006685196	0.009037871	1.294613e-07	1.636037e-07	-0.008218504	-0.02114257
3.2e+08	-0.01180752	-0.02486843	1.019433e-07	1.002457e-07	0.008841586	0.008929228	7.51364e-07	9.516302e-08
	1.019433e-07	1.002457e-07	-0.01248044	-0.02423596	6.756941e-08	8.890019e-07	0.008465023	0.009327146
	0.008841586	0.008929228	6.756941e-08	8.890019e-07	-0.01194086	-0.02491626	1.373169e-07	1.402403e-07
	7.51364e-07	9.516302e-08	0.008465023	0.009327146	1.373169e-07	1.402403e-07	-0.01258797	-0.02430644
3.3e+08	-0.01677906	-0.02711044	1.026478e-07	8.12393e-08	0.01063886	0.008671332	7.695517e-07	-8.462896e-08
	1.026478e-07	8.12393e-08	-0.01749264	-0.02628866	6.53484e-08	9.209078e-07	0.0102439	0.009182854
	0.01063886	0.008671332	6.53484e-08	9.209078e-07	-0.01694936	-0.02714261	1.384425e-07	1.150978e-07
	7.695517e-07	-8.462896e-08	0.0102439	0.009182854	1.384425e-07	1.150978e-07	-0.01763486	-0.02635074
3.4e+08	-0.0221795	-0.02812392	9.797098e-08	6.217122e-08	0.01230687	0.007989545	7.437371e-07	-2.682514e-07
	9.797098e-08	6.217122e-08	-0.02289336	-0.02710269	6.428733e-08	9.540134e-07	0.01191773	0.008619434
	0.01230687	0.007989545	6.428733e-08	9.540134e-07	-0.02238283	-0.02813147	1.324161e-07	8.985405e-08
	7.437371e-07	-2.682514e-07	0.01191773	0.008619434	1.324161e-07	8.985405e-08	-0.02306786	-0.02714796
3.5e+08	-0.02770149	-0.02784445	8.79118e-08	4.438301e-08	0.0137475	0.006928828	6.732449e-07	-4.448363e-07
	8.79118e-08	4.438301e-08	-0.02837295	-0.02662365	6.470236e-08	9.880382e-07	0.01338946	0.007675851
	0.0137475	0.006928828	6.470236e-08	9.880382e-07	-0.02793179	-0.02781958	1.192395e-07	6.628644e-08
	6.732449e-07	-4.448363e-07	0.01338946	0.007675851	1.192395e-07	6.628644e-08	-0.0285753	-0.02664449
3.6e+08	-0.03303279	-0.02628267	7.280919e-08	2.921259e-08	0.01487682	0.005556263	5.601034e-07	-6.034547e-07
	7.280919e-08	2.921259e-08	-0.03361936	-0.02487276	6.683892e-08	1.022616e-06	0.01457475	0.006412966
	0.01487682	0.005556263	6.683892e-08	1.022616e-06	-0.03328221	-0.02621924	9.936252e-08	4.616327e-08
	5.601034e-07	-6.034547e-07	0.01457475	0.006412966	9.936252e-08	4.616327e-08	-0.03384337	-0.02486283
3.7e+08	-0.03787411	-0.02352282	5.334037e-08	1.790578e-08	0.0156299	0.003956802	4.090206e-07	-7.337902e-07
	5.334037e-08	1.790578e-08	-0.03833616	-0.02194466	7.084661e-08	1.057313e-06	0.01540668	0.004909666
	0.0156299	0.003956802	7.084661e-08	1.057313e-06	-0.03813345	-0.02341679	7.367762e-08	3.112848e-08
	4.090206e-07	-7.337902e-07	0.01540668	0.004909666	7.367762e-08	3.112848e-08	-0.03857423	-0.0218993
3.8e+08	-0.04195595	-0.01971708	3.049499e-08	1.152849e-08	0.01596438	0.002228052	2.271941e-07	-8.267917e-07
	3.049499e-08	1.152849e-08	-0.04225921	-0.01800115	7.675906e-08	1.091656e-06	0.01583942	0.003258039
	0.01596438	0.002228052	7.675906e-08	1.091656e-06	-0.04221519	-0.01956677	4.348457e-08	2.25889e-08
	2.271941e-07	-8.267917e-07	0.01583942	0.003258039	4.348457e-08	2.25889e-08	-0.0425028	-0.01791765
3.9e+08	-0.04505341	-0.01507631	5.525504e-09	1.088653e-08	0.01586257	0.0004744543	2.396382e-08	-8.752675e-07
	5.525504e-09	1.088653e-08	-0.04517137	-0.01326122	8.448187e-08	1.12516e-06	0.0158505	0.001557911
	0.01586257	0.0004744543	8.448187e-08	1.12516e-06	-0.04530236	-0.0148825	1.042541e-08	2.161195e-08
	2.396382e-08	-8.752675e-07	0.0158505	0.001557911	1.042541e-08	2.161195e-08	-0.04541149	-0.01313907
4e+08	-0.04699846	-0.009857549	-2.01237e-08	1.645999e-08	0.01533227	-0.001198798	-1.896714e-07	-8.743829e-07
	-2.01237e-08	1.645999e-08	-0.04691426	-0.007988153	9.379089e-08	1.157372e-06	0.0154418	-8.891255e-05
	0.01533227	-0.001198798	9.379089e-08	1.157372e-06	-0.04722734	-0.009623551	-2.360678e-08	2.884201e-08
	-1.896714e-07	-8.743829e-07	0.0154418	-8.891255e-05	-2.360678e-08	2.884201e-08	-0.047142	-0.007829009
4.1e+08	-0.04768878	-0.004349321	-4.490382e-08	2.835792e-08	0.01440596	-0.002691763	-4.016498e-07	-8.220322e-07
	-4.490382e-08	2.835792e-08	-0.04739666	-0.002474198	1.04342e-07	1.187904e-06	0.01463916	-0.001584391
	0.01440596	-0.002691763	1.04342e-07	1.187904e-06	-0.04788882	-0.004080757	-5.657948e-08	4.444227e-08
	-4.016498e-07	-8.220322e-07	0.01463916	-0.001584391	-5.657948e-08	4.444227e-08	-0.04760375	-0.002281866
4.2e+08	-0.04709299	0.00114472	-6.725944e-08	4.629767e-08	0.01313879	-0.003915346	-5.995217e-07	-7.190623e-07
	-6.725944e-08	4.629767e-08	-0.04659909	0.002975995	1.156922e-07	1.216466e-06	0.01349065	-0.002839676
	0.01313879	-0.003915346	1.156922e-07	1.216466e-06	-0.047257	0.001440198	-8.644533e-08	6.8067e-08
	-5.995217e-07	-7.190623e-07	0.01349065	-0.002839676	-8.644533e-08	6.8067e-08	-0.04677839	0.003195796
4.3e+08	-0.04525193	0.006322773	-8.572937e-08	6.961084e-08	0.01160533	-0.004796242	-7.711686e-07	-5.693317e-07
	-8.572937e-08	6.961084e-08	-0.04457442	0.008062566	1.273298e-07	1.24289e-06	0.01206377	-0.003779972
	0.01160533	-0.004796242	1.273298e-07	1.24289e-06	-0.04537475	0.006635911	-1.112711e-07	9.886681e-08
	-7.711686e-07	-5.693317e-07	0.01206377	-0.003779972	-1.112711e-07	9.886681e-08	-0.04472036	0.008302513
4.4e+08	-0.04227605	0.01090163	-9.904283e-08	9.727578e-08	0.009895275	-0.005280976	-9.055268e-07	-3.795971e-07
	-9.904283e-08	9.727578e-08	-0.04144454	0.01250717	1.387115e-07	1.26715e-06	0.01044163	-0.004348604
	0.009895275	-0.005280976	1.387115e-07	1.26715e-06	-0.04235488	0.0112221	-1.293616e-07	1.355269e-07
	-9.055268e-07	-3.795971e-07	0.01044163	-0.004348604	-1.293616e-07	1.355269e-07	-0.04155343	0.01275876
4.5e+08	-0.03833898	0.01463233	-1.06204e-07	1.279738e-07	0.008108397	-0.005338867	-9.932772e-07	-1.59229e-07
	-1.06204e-07	1.279738e-07	-0.03739319	0.01606845	1.493012e-07	1.28936e-06	0.008718224	-0.004510117
	0.008108397	-0.005338867	1.493012e-07	1.28936e-06	-0.03837362	0.01494935	-1.393712e-07	1.763356e-07
	-9.932772e-07	-1.59229e-07	0.008718224	-0.004510117	-1.393712e-07	1.763356e-07	-0.03746354	0.01632248
4.6e+08	-0.03366773	0.01731392	-1.065592e-07	1.601654e-07	0.006348962	-0.004963769	-1.02746e-06	8.023608e-08
	-1.065592e-07	1.601654e-07	-0.03265554	0.01855545	1.586088e-07	1.309767e-06	0.006993299	-0.00425224
	0.006348962	-0.004963769	1.586088e-07	1.309767e-06	-0.03366062	0.01761692	-1.403937e-07	2.192791e-07
	-1.02746e-06	8.023608e-08	0.006993299	-0.00425224	-1.403937e-07	2.192791e-07	-0.03268811	0.01880264
4.7e+08	-0.02852995	0.01880454	-9.984236e-08	1.921796e-07	0.004719838	-0.004174504	-1.003978e-06	3.256866e-07
	-9.984236e-08	1.921796e-07	-0.02750487	0.01983817	1.66222e-07	1.328737e-06	0.005366731	-0.003586639
	0.004719838	-0.004174504	1.66222e-07	1.328737e-06	-0.02848604	0.0190837	-1.320282e-07	2.62155e-07
	-1.003978e-06	3.256866e-07	0.005366731	-0.003586639	-1.320282e-07	2.62155e-07	-0.02750265	0.02006957
4.8e+08	-0.02321893	0.01902927	-8.619707e-08	2.223118e-07	0.003316649	-0.003013919	-9.219541e-07	5.631455e-07
