!$
! Info: Touchstone file created by Circ.  Input file=Tx_16in_Rx_85ohms_TxVia_10mils_RxVia_20mils.circ
!$
# Hz S RI R 50
0	0.012829	9.618452e-26	-8.575711e-05	1.228906e-25	9.688094e-05	1.332784e-23	-8.57624e-05	4.460204e-25
	-8.575713e-05	1.23496e-25	0.01282828	1.38727e-25	-8.575606e-05	-2.205874e-26	9.648e-05	1.825778e-23
	9.499198e-05	1.313993e-23	-8.575607e-05	-2.14022e-26	0.01284272	1.000817e-25	-8.575474e-05	3.199499e-25
	-8.576238e-05	4.428222e-25	9.793462e-05	1.879163e-23	-8.575469e-05	3.157079e-25	0.01283382	1.322557e-25
1e+07	0.01747642	-0.0160398	-0.0003720098	-1.760096e-05	0.0005595043	0.002756207	-0.000233796	0.0001812961
	-0.0003720098	-1.760096e-05	0.01534812	-0.0161002	-1.272313e-05	-2.319264e-05	0.0006763984	0.002757415
	0.0005594658	0.002756233	-1.272313e-05	-2.319265e-05	0.01536674	-0.01637302	-8.000732e-05	-1.955955e-05
	-0.000233796	0.0001812961	0.0006764314	0.002757403	-8.000732e-05	-1.955954e-05	0.01531283	-0.01608827
2e+07	0.01299774	-0.03625179	-0.0003265321	6.665584e-05	0.001903468	0.005189091	-0.0001995617	0.0001874492
	-0.0003265321	6.665583e-05	0.01117782	-0.03557578	-1.031775e-05	-4.937501e-06	0.002053831	0.00508549
	0.001903477	0.005189109	-1.031775e-05	-4.937503e-06	0.01092253	-0.03598741	-6.849991e-05	1.892745e-05
	-0.0001995617	0.0001874492	0.002053828	0.005085468	-6.849991e-05	1.892746e-05	0.01115727	-0.03553778
3e+07	0.0008833604	-0.05469683	-0.0003081665	7.211427e-05	0.003987826	0.006913726	-0.0001407571	0.0002058821
	-0.0003081665	7.211427e-05	-0.0006716798	-0.05369185	-8.720537e-06	5.101904e-07	0.004063029	0.006798283
	0.003987823	0.006913726	-8.720537e-06	5.101898e-07	-0.001112429	-0.05408551	-6.75764e-05	1.774317e-05
	-0.0001407571	0.0002058821	0.004063024	0.006798281	-6.75764e-05	1.774317e-05	-0.0006799064	-0.05364107
4e+07	-0.0168074	-0.06836575	-0.000291231	9.043606e-05	0.006453756	0.007835675	-7.747199e-05	0.000195807
	-0.000291231	9.043606e-05	-0.0181104	-0.06713592	-6.976821e-06	3.693351e-06	0.006461112	0.007740102
	0.006453751	0.007835679	-6.97682e-06	3.693351e-06	-0.0186714	-0.06746169	-6.659854e-05	2.191529e-05
	-7.747199e-05	0.000195807	0.006461112	0.007740103	-6.659854e-05	2.191529e-05	-0.0181096	-0.06707765
5e+07	-0.03785759	-0.07573044	-0.0002728661	0.0001139061	0.009016177	0.007899069	-2.803774e-05	0.0001557777
	-0.0002728661	0.0001139061	-0.03891547	-0.07433509	-5.059796e-06	5.8099e-06	0.008968053	0.007846573
	0.009016175	0.007899071	-5.059796e-06	5.8099e-06	-0.03954326	-0.07457486	-6.438918e-05	2.873446e-05
	-2.803774e-05	0.0001557777	0.008968052	0.007846573	-6.438918e-05	2.873446e-05	-0.03890861	-0.07426973
6e+07	-0.0599028	-0.0761651	-0.0002512576	0.0001391462	0.01139428	0.007143572	-7.387178e-06	9.516747e-05
	-0.0002512576	0.0001391462	-0.06071832	-0.0746474	-2.988581e-06	7.204258e-06	0.01130787	0.007150687
	0.01139428	0.007143569	-2.988582e-06	7.204258e-06	-0.06137047	-0.0748002	-6.020403e-05	3.66912e-05
	-7.387178e-06	9.516747e-05	0.01130787	0.007150688	-6.020404e-05	3.66912e-05	-0.06070611	-0.07457435
7e+07	-0.08063591	-0.06985514	-0.0002254446	0.0001637482	0.0133455	0.005693784	-2.39254e-05	2.968162e-05
	-0.0002254446	0.0001637482	-0.08120881	-0.06825282	-1.761125e-06	7.457709e-06	0.01324139	0.005769977
	0.0133455	0.005693779	-1.761126e-06	7.45771e-06	-0.08185306	-0.06832655	-5.37951e-05	4.45425e-05
	-2.39254e-05	2.968162e-05	0.01324139	0.005769981	-5.37951e-05	4.45425e-05	-0.08119112	-0.06817176
8e+07	-0.098019	-0.05769137	-0.0001951554	0.0001856797	0.01468832	0.00373715	-7.806035e-05	-2.272899e-05
	-0.0001951554	0.0001856797	-0.09834829	-0.05604248	-9.926148e-07	7.32794e-06	0.01458856	0.003884441
	0.01468832	0.003737144	-9.92616e-07	7.32794e-06	-0.09896028	-0.05604847	-4.53604e-05	5.124995e-05
	-7.806035e-05	-2.272899e-05	0.01458856	0.003884446	-4.53604e-05	5.124995e-05	-0.09832452	-0.055953
9e+07	-0.1104578	-0.04112222	-0.0001605088	0.0002032165	0.01531371	0.001498315	-0.0001629389	-4.574118e-05
	-0.0001605088	0.0002032165	-0.1105454	-0.03946814	-2.485283e-07	7.141359e-06	0.0152399	0.001711367
	0.01531371	0.001498312	-2.485292e-07	7.141359e-06	-0.1111043	-0.0394178	-3.540495e-05	5.606772e-05
	-0.0001629389	-4.574118e-05	0.0152399	0.001711371	-3.540495e-05	5.606772e-05	-0.110514	-0.03937002
1e+08	-0.1169232	-0.02197504	-0.0001202474	0.0002149001	0.0151884	-0.0007851901	-0.0002713249	-2.754143e-05
	-0.0001202474	0.0002149001	-0.1167811	-0.02036152	3.850764e-07	6.873525e-06	0.01516168	-0.0005181094
	0.0151884	-0.00078519	3.850764e-07	6.873525e-06	-0.1172524	-0.02026412	-2.436884e-05	5.860711e-05
	-0.0002713249	-2.754143e-05	0.01516168	-0.0005181095	-2.436884e-05	5.860711e-05	-0.1167398	-0.02025567
1.1e+08	-0.1170128	-0.002269877	-7.880705e-05	0.0002273044	0.01434436	-0.002890044	-0.0003758951	1.228394e-05
	-7.880705e-05	0.0002273044	-0.1166548	-0.0007262669	9.815956e-07	6.382644e-06	0.01437659	-0.002598662
	0.01434436	-0.002890044	9.815956e-07	6.382644e-06	-0.117039	-0.0006666611	-1.352963e-05	5.97052e-05
	-0.0003758951	1.228394e-05	0.01437659	-0.002598662	-1.352963e-05	5.97052e-05	-0.1166016	-0.0006148995
1.2e+08	-0.1109579	0.01600248	-3.984826e-05	0.0002325478	0.01287627	-0.00460239	-0.000451602	9.377684e-05
	-3.984826e-05	0.0002325478	-0.1103989	0.01742484	1.521914e-06	5.8766e-06	0.01296441	-0.004307658
	0.01287627	-0.00460239	1.521914e-06	5.8766e-06	-0.1107413	0.01744989	-3.793e-06	5.86075e-05
	-0.000451602	9.377684e-05	0.01296441	-0.004307658	-3.793e-06	5.86075e-05	-0.1103318	0.01753758
1.3e+08	-0.09958482	0.03102596	-2.43643e-06	0.0002313485	0.01093883	-0.005754329	-0.0004917087	0.0002044987
	-2.43643e-06	0.0002313485	-0.098861	0.03227733	1.953989e-06	5.37175e-06	0.01107584	-0.005475901
	0.01093883	-0.005754329	1.953989e-06	5.37175e-06	-0.09917587	0.03228201	4.625167e-06	5.590251e-05
	-0.0004917087	0.0002044987	0.01107584	-0.005475901	4.625167e-06	5.590251e-05	-0.0987803	0.03238638
1.4e+08	-0.08422769	0.0413394	3.273978e-05	0.0002244215	0.008727414	-0.006229337	-0.000489595	0.000328512
	3.273978e-05	0.0002244215	-0.08339275	0.04237907	2.28391e-06	4.903024e-06	0.008900119	-0.005984148
	0.008727413	-0.006229337	2.28391e-06	4.903024e-06	-0.08367932	0.0423782	1.153067e-05	5.223397e-05
	-0.000489595	0.000328512	0.008900119	-0.005984148	1.153067e-05	5.223397e-05	-0.0833008	0.04247928
1.5e+08	-0.06659999	0.04597089	6.502627e-05	0.0002126117	0.006465602	-0.005972909	-0.0004450346	0.0004486699
	6.502627e-05	0.0002126117	-0.0657217	0.04677346	2.541383e-06	4.498351e-06	0.006655329	-0.005773014
	0.006465602	-0.005972909	2.541383e-06	4.498351e-06	-0.0659685	0.04677742	1.698239e-05	4.824614e-05
	-0.0004450346	0.0004486699	0.006655329	-0.005773014	1.698239e-05	4.824614e-05	-0.06562299	0.04686044
1.6e+08	-0.04863007	0.0445323	9.400057e-05	0.0001968213	0.004387466	-0.005001151	-0.000364562	0.000549687
	9.400057e-05	0.0001968213	-0.04778513	0.0450929	2.769045e-06	4.167896e-06	0.004571718	-0.00485184
	0.004387466	-0.005001151	2.769045e-06	4.167896e-06	-0.04797377	0.04510423	2.129879e-05	4.4468e-05
	-0.000364562	0.000549687	0.004571718	-0.00485184	2.129879e-05	4.4468e-05	-0.04768594	0.04516384
1.7e+08	-0.03227113	0.03726299	0.000119506	0.0001778904	0.00271543	-0.003404649	-0.0002600562	0.0006209595
	0.000119506	0.0001778904	-0.03153816	0.03760062	3.010432e-06	3.900178e-06	0.002870259	-0.003303194
	0.00271543	-0.003404648	3.010432e-06	3.900178e-06	-0.0316475	0.03761201	2.499218e-05	4.119695e-05
	-0.0002600562	0.0006209595	0.002870259	-0.003303194	2.499218e-05	4.119695e-05	-0.03144593	0.037655
1.8e+08	-0.01930066	0.02501265	0.0001415898	0.0001564854	0.001635182	-0.001344628	-0.0001460706	0.0006584235
	0.0001415898	0.0001564854	-0.01875198	0.02517098	3.2989e-06	3.66457e-06	0.001738004	-0.001279896
	0.001635182	-0.001344628	3.2989e-06	3.66457e-06	-0.01876248	0.02516478	2.863949e-05	3.841938e-05
	-0.0001460706	0.0006584235	0.001738005	-0.001279896	2.863949e-05	3.841938e-05	-0.01867442	0.02521101
1.9e+08	-0.01112986	0.00915844	0.0001603779	0.0001330412	0.001271132	0.0009607904	-3.652643e-05	0.0006649567
	0.0001603779	0.0001330412	-0.01082304	0.009203615	3.649962e-06	3.418568e-06	0.001303646	0.001007724
	0.001271132	0.0009607904	3.649962e-06	3.418568e-06	-0.01072103	0.009152852	3.271469e-05	3.580589e-05
	-3.652643e-05	0.0006649567	0.001303646	0.001007724	3.271469e-05	3.580589e-05	-0.01076714	0.009234313
2e+08	-0.0086471	-0.008540205	0.0001759333	0.0001077859	0.0016673	0.003260371	5.843132e-05	0.0006491423
	0.0001759333	0.0001077859	-0.008617416	-0.008524838	4.058325e-06	3.117071e-06	0.001618141	0.003314575
	0.0016673	0.003260371	4.058325e-06	3.117071e-06	-0.008398729	-0.008653973	3.743108e-05	3.280055e-05
	5.843132e-05	0.0006491423	0.001618141	0.003314575	3.743108e-05	3.280055e-05	-0.008588362	-0.008495965
2.1e+08	-0.01211806	-0.02613521	0.0001881517	8.084476e-05	0.002778469	0.005300854	0.0001346102	0.0006226514
	0.0001881517	8.084476e-05	-0.01237303	-0.02605701	4.499224e-06	2.721251e-06	0.002645223	0.005390978
	0.002778469	0.005300854	4.499224e-06	2.721251e-06	-0.01204562	-0.0263014	4.265055e-05	2.878919e-05
	0.0001346102	0.0006226514	0.002645223	0.005390978	4.265055e-05	2.878919e-05	-0.01237333	-0.02602064
2.2e+08	-0.02115891	-0.04170836	0.0001967393	5.238606e-05	0.004474611	0.006860101	0.0001943805	0.0005968938
	0.0001967393	5.238606e-05	-0.02167584	-0.04147498	4.932775e-06	2.205631e-06	0.004264871	0.007015156
	0.004474611	0.006860101	4.932775e-06	2.205631e-06	-0.02126094	-0.04187002	4.78984e-05	2.32962e-05
	0.0001943805	0.0005968938	0.004264871	0.007015156	4.78984e-05	2.32962e-05	-0.02170472	-0.04142099
2.3e+08	-0.03478768	-0.05358517	0.00020128	2.275055e-05	0.006558477	0.007775921	0.0002455591	0.0005798288
	0.00020128	2.275055e-05	-0.03551469	-0.05311474	5.31034e-06	1.563019e-06	0.006289724	0.008021776
	0.006558477	0.007775921	5.31034e-06	1.563019e-06	-0.0350462	-0.05368943	5.248393e-05	1.614291e-05
	0.0002455591	0.0005798288	0.006289724	0.008021776	5.248393e-05	1.614291e-05	-0.03556787	-0.05303339
2.4e+08	-0.05154563	-0.0605153	0.0002013644	-7.485535e-06	0.00879292	0.007965089	0.0002988995	0.0005737737
	0.0002013644	-7.485535e-06	-0.05240613	-0.05974568	5.582446e-06	8.069864e-07	0.008491169	0.00832112
	0.00879292	0.007965089	5.582446e-06	8.069864e-07	-0.05192834	-0.06051808	5.568475e-05	7.514041e-06
	0.0002988995	0.0005737737	0.008491169	0.00832112	5.568475e-05	7.514041e-06	-0.05247605	-0.05962887
2.5e+08	-0.06966982	-0.06179664	0.0001967261	-3.753106e-05	0.01093234	0.007429672	0.0003648789	0.0005747514
	0.0001967261	-3.753106e-05	-0.07056998	-0.06069288	5.707573e-06	-2.887572e-08	0.01062966	0.007905995
	0.01093234	0.007429672	5.707573e-06	-2.887572e-08	-0.07013359	-0.06166646	5.693076e-05	-2.083252e-06
	0.0003648789	0.0005747514	0.01062966	0.007905995	5.693076e-05	-2.083252e-06	-0.07064644	-0.06053519
2.6e+08	-0.08729119	-0.05733155	0.0001873393	-6.646911e-05	0.01275227	0.006250977	0.0004506532	0.0005734577
	0.0001873393	-6.646911e-05	-0.08812945	-0.05589036	5.660531e-06	-8.95689e-07	0.01248343	0.006846654
	0.01275227	0.006250977	5.660531e-06	-8.95689e-07	-0.08778654	-0.05705192	5.593081e-05	-1.194325e-05
	0.0004506532	0.0005734577	0.01248343	0.006846654	5.593081e-05	-1.194325e-05	-0.08820065	-0.05568993
2.7e+08	-0.1026322	-0.04761445	0.0001734522	-9.337409e-05	0.01407259	0.004574169	0.0005578959	0.0005575164
	0.0001734522	-9.337409e-05	-0.1033098	-0.04586544	5.438136e-06	-1.737875e-06	0.01387124	0.005276624
	0.01407259	0.004574169	5.438136e-06	-1.737875e-06	-0.1031081	-0.04718474	5.271464e-05	-2.13188e-05
	0.0005578959	0.0005575164	0.01387124	0.005276624	5.271464e-05	-2.13188e-05	-0.1033635	-0.0456244
2.8e+08	-0.1141823	-0.03365975	0.0001555609	-0.0001174193	0.01477224	0.002587792	0.0006819726	0.0005143922
	0.0001555609	-0.0001174193	-0.1146136	-0.03166323	5.060207e-06	-2.504001e-06	0.01466702	0.003373554
	0.01477224	0.002587792	5.060207e-06	-2.504001e-06	-0.1145906	-0.03309466	4.759657e-05	-2.956329e-05
	0.0006819726	0.0005143922	0.01466702	0.003373554	4.759657e-05	-2.956329e-05	-0.1146387	-0.03138769
2.9e+08	-0.120836	-0.01688424	0.000134347	-0.0001379502	0.01479565	0.0005022259	0.0008125119	0.0004342958
	0.000134347	-0.0001379502	-0.1209577	-0.01472591	4.56495e-06	-3.156977e-06	0.0148067	0.001338931
	0.01479565	0.0005022259	4.56495e-06	-3.156977e-06	-0.1211361	-0.01621203	4.108874e-05	-3.62271e-05
	0.0008125119	0.0004342958	0.0148067	0.001338931	4.108874e-05	-3.62271e-05	-0.1209452	-0.01442556
3e+08	-0.1219857	0.001040203	0.0001106025	-0.0001545207	0.01415268	-0.001470283	0.0009351701	0.0003124809
	0.0001106025	-0.0001545207	-0.1217644	0.003257227	3.9998e-06	-3.680713e-06	0.01428898	-0.000620808
	0.01415268	-0.001470283	3.9998e-06	-3.680713e-06	-0.1221478	0.001780549	3.379614e-05	-4.110185e-05
	0.0009351701	0.0003124809	0.01428898	-0.000620808	3.379614e-05	-4.110185e-05	-0.1217086	0.003569968
3.1e+08	-0.1175675	0.01834898	8.515915e-05	-0.0001669014	0.01291412	-0.003132919	0.001034169	0.0001505099
	8.515915e-05	-0.0001669014	-0.1170037	0.02051408	3.410205e-06	-4.081341e-06	0.01317189	-0.002310809
	0.01291412	-0.003132919	3.410205e-06	-4.081341e-06	-0.1175751	0.01911137	2.631538e-05	-4.422104e-05
	0.001034169	0.0001505099	0.01317189	-0.002310809	2.631538e-05	-4.422104e-05	-0.1169033	0.02082523
3.2e+08	-0.1080588	0.03334967	5.882418e-05	-0.0001750698	0.01120433	-0.004319106	0.001095103	-4.365869e-05
	5.882418e-05	-0.0001750698	-0.1071887	0.03535576	2.829429e-06	-4.38266e-06	0.01156674	-0.003562225
	0.01120433	-0.004319106	2.829429e-06	-4.38266e-06	-0.1079102	0.03408508	1.914728e-05	-4.582845e-05
	0.001095103	-4.365869e-05	0.01156674	-0.003562225	1.914728e-05	-4.582845e-05	-0.1070469	0.03565113
3.3e+08	-0.09443148	0.0445787	3.23225e-05	-0.0001791866	0.009191603	-0.004905453	0.001107543	-0.0002567285
	3.23225e-05	-0.0001791866	-0.09332481	0.04633343	2.272168e-06	-4.617318e-06	0.00962991	-0.004245196
	0.009191603	-0.004905453	2.272168e-06	-4.617318e-06	-0.09414032	0.04523971	1.262619e-05	-4.632228e-05
	0.001107543	-0.0002567285	0.00962991	-0.004245196	1.262619e-05	-4.632228e-05	-0.09314933	0.04660021
3.4e+08	-0.07806312	0.05093991	6.288341e-06	-0.0001793455	0.007075789	-0.004823106	0.001052394	-0.0004877699
	6.288341e-06	-0.0001793455	-0.07681746	0.05237592	1.734527e-06	-4.819298e-06	0.007551726	-0.004280674
	0.007075789	-0.004823106	1.734527e-06	-4.819298e-06	-0.07765734	0.05148516	6.922495e-06	-4.597628e-05
	0.001052394	-0.0004877699	0.007551727	-0.004280674	6.922495e-06	-4.597628e-05	-0.07662016	0.05260419
3.5e+08	-0.06060991	0.05181382	-1.880706e-05	-0.0001761066	0.00507242	-0.004066837	0.0009391358	-0.0007010837
	-1.880706e-05	-0.0001761066	-0.0593421	0.05289739	1.193398e-06	-5.006298e-06	0.005541788	-0.003650394
	0.00507242	-0.004066837	1.193398e-06	-5.006298e-06	-0.0601294	0.05221242	1.961864e-06	-4.542778e-05
	0.0009391358	-0.0007010837	0.005541788	-0.003650394	1.961864e-06	-4.542778e-05	-0.05913782	0.05308125
3.6e+08	-0.04384919	0.04712751	-4.272436e-05	-0.0001698927	0.003392982	-0.002700134	0.0007793725	-0.0008782939
	-4.272436e-05	-0.0001698927	-0.04268387	0.04786393	6.212577e-07	-5.179638e-06	0.00381006	-0.002403198
	0.003392982	-0.002700134	6.212577e-07	-5.179638e-06	-0.04334214	0.0473624	-2.589199e-06	-4.50529e-05
	0.0007793725	-0.0008782939	0.00381006	-0.002403198	-2.589199e-06	-4.50529e-05	-0.04248903	0.04800249
3.7e+08	-0.02950235	0.03737362	-6.537018e-05	-0.0001609963	0.00222222	-0.0008539033	0.0005877802	-0.001008837
	-6.537018e-05	-0.0001609963	-0.02855886	0.03780884	-6.001952e-09	-5.323821e-06	0.002544609	-0.0006552175
	0.00222222	-0.0008539033	-6.001953e-09	-5.323821e-06	-0.02902053	0.03744389	-7.20009e-06	-4.496069e-05
	0.0005877802	-0.001008837	0.002544609	-0.0006552175	-7.20009e-06	-4.496069e-05	-0.02838984	0.03790666
3.8e+08	-0.01905478	0.02357148	-8.670566e-05	-0.0001495497	0.001695002	0.001283337	0.0003811547	-0.00108882
	-8.670566e-05	-0.0001495497	-0.01843383	0.02378925	-7.016738e-07	-5.410392e-06	0.001888393	0.001418326
	0.001695002	0.001283337	-7.016738e-07	-5.410392e-06	-0.01864811	0.02349294	-1.234054e-05	-4.496917e-05
	0.0003811547	-0.00108882	0.001888393	0.001418326	-1.234054e-05	-4.496917e-05	-0.01830512	0.02385618
3.9e+08	-0.0135934	0.007168618	-0.0001066287	-0.0001355279	0.0018767	0.003484477	0.0001752801	-0.001121108
	-0.0001066287	-0.0001355279	-0.01336502	0.007283143	-1.463905e-06	-5.404667e-06	0.001919039	0.003600594
	0.0018767	0.003484477	-1.463905e-06	-5.404667e-06	-0.0133045	0.006972518	-1.832238e-05	-4.463178e-05
	0.0001752801	-0.001121108	0.001919039	0.003600594	-1.832238e-05	-4.463178e-05	-0.01328745	0.007333578
4e+08	-0.0136835	-0.01011023	-0.0001248724	-0.0001188236	0.002751484	0.005510513	-1.788064e-05	-0.001113937
	-0.0001248724	-0.0001188236	-0.01387779	-0.009965551	-2.274823e-06	-5.272915e-06	0.002636019	0.005658521
	0.002751484	0.005510513	-2.274823e-06	-5.272915e-06	-0.01354284	-0.0103803	-2.517069e-05	-4.335051e-05
	-1.788064e-05	-0.001113937	0.002636019	0.005658521	-2.517069e-05	-4.335051e-05	-0.01385716	-0.009914023
4.1e+08	-0.01930346	-0.02645016	-0.0001409633	-9.937344e-05	0.004221941	0.007140994	-0.0001919896	-0.001078373
	-0.0001409633	-9.937344e-05	-0.01990565	-0.0261368	-3.102377e-06	-4.988724e-06	0.003958724	0.007372354
	0.004221941	0.007140994	-3.102377e-06	-4.988724e-06	-0.01932584	-0.02674295	-3.257318e-05	-4.054789e-05
	-0.0001919896	-0.001078373	0.003958724	0.007372354	-3.257318e-05	-4.054789e-05	-0.01994178	-0.02606518
4.2e+08	-0.02984821	-0.04014559	-0.0001542618	-7.7292e-05	0.006121035	0.008202733	-0.000346667	-0.001025254
	-0.0001542618	-7.7292e-05	-0.03079875	-0.03953508	-3.904052e-06	-4.538099e-06	0.005736622	0.008564027
	0.006121035	0.008202733	-3.904052e-06	-4.538099e-06	-0.03003111	-0.04040786	-3.993105e-05	-3.584359e-05
	-0.000346667	-0.001025254	0.005736622	0.008564027	-3.993105e-05	-3.584359e-05	-0.03088522	-0.03942503
4.3e+08	-0.04420149	-0.04978557	-0.0001640746	-5.296214e-05	0.008234521	0.008591357	-0.0004863048	-0.0009624273
	-0.0001640746	-5.296214e-05	-0.04540127	-0.0487739	-4.632172e-06	-3.923156e-06	0.0077698	0.009119009
	0.008234521	0.008591357	-4.632172e-06	-3.923156e-06	-0.04452544	-0.0499679	-4.649718e-05	-2.917653e-05
	-0.0004863048	-0.0009624273	0.0077698	0.009119009	-4.649718e-05	-2.917653e-05	-0.04552583	-0.04860979
4.4e+08	-0.06086578	-0.0544006	-0.000169799	-2.70485e-05	0.01032939	0.008281951	-0.0006177363	-0.000892985
	-0.000169799	-2.70485e-05	-0.06218596	-0.05292016	-5.240723e-06	-3.163753e-06	0.009835731	0.008997864
	0.01032939	0.008281951	-5.240723e-06	-3.163753e-06	-0.06129667	-0.05446265	-5.155427e-05	-2.083413e-05
	-0.0006177363	-0.000892985	0.009835731	0.008997864	-5.155427e-05	-2.083413e-05	-0.06233172	-0.05269087
4.5e+08	-0.07813059	-0.05355419	-0.0001710507	-4.335531e-07	0.0121829	0.007327807	-0.0007474203	-0.000814892
	-0.0001710507	-4.335531e-07	-0.07942587	-0.05158173	-5.692948e-06	-2.296033e-06	0.01171701	0.008236476
	0.0121829	0.007327807	-5.692948e-06	-2.296033e-06	-0.0786236	-0.05346884	-5.45752e-05	-1.138718e-05
	-0.0007474203	-0.000814892	0.01171701	0.008236476	-5.45752e-05	-1.138718e-05	-0.0795729	-0.05128203
4.6e+08	-0.09425582	-0.04737198	-0.0001677371	2.589748e-05	0.01360731	0.005849033	-0.0008788851	-0.0007220129
	-0.0001677371	2.589748e-05	-0.09537949	-0.04493185	-5.968018e-06	-1.367213e-06	0.01322532	0.006936468
	0.01360731	0.005849033	-5.968018e-06	-1.367213e-06	-0.09476024	-0.04712782	-5.532107e-05	-1.560681e-06
	-0.0008788851	-0.0007220129	0.01322532	0.006936468	-5.532107e-05	-1.560681e-06	-0.0955069	-0.04456312
4.7e+08	-0.1076479	-0.0365108	-0.0001600655	5.098264e-05	0.01446721	0.004014534	-0.001011034	-0.0006061936
	-0.0001600655	5.098264e-05	-0.1084671	-0.03367317	-6.064557e-06	-4.273783e-07	0.01421875	0.005249172
	0.01446721	0.004014534	-6.064557e-06	-4.273783e-07	-0.1081125	-0.03611291	-5.386157e-05	7.91347e-06
	-0.001011034	-0.0006061936	0.01421875	0.005249172	-5.386157e-05	7.91347e-06	-0.1085552	-0.03324342
4.8e+08	-0.1170112	-0.02207717	-0.0001484974	7.398881e-05	0.01468877	0.00202134	-0.001137656	-0.0004598323
