!$
! Info: Touchstone file created by Circ.  Input file=Tx_12in_Rx_100ohms_TxVia_10mils_RxVia_20mils.circ
!$
# Hz S RI R 50
0	0.01244155	8.287191e-26	3.198381e-09	5.300291e-27	7.562991e-05	1.269884e-23	-3.500968e-09	4.621551e-25
	3.198373e-09	5.300425e-27	0.01244114	1.071035e-25	-3.197603e-09	4.39646e-25	7.508376e-05	1.770435e-23
	7.790299e-05	1.272805e-23	-3.195692e-09	4.394096e-25	0.01243378	7.239452e-26	1.258681e-08	2.019146e-29
	-3.498265e-09	4.618224e-25	7.653853e-05	1.822202e-23	1.25869e-08	2.003355e-29	0.01244669	1.021282e-25
1e+07	0.01843339	0.007353362	5.388178e-09	7.56507e-09	0.0008027877	0.002145757	1.435186e-08	5.465098e-08
	5.388179e-09	7.565071e-09	0.01843035	0.007351081	-1.035667e-10	5.736652e-08	0.0007993785	0.002146742
	0.0008028367	0.00214573	-1.035665e-10	5.736652e-08	0.01826702	0.007378152	-8.422891e-09	4.511889e-08
	1.435186e-08	5.465098e-08	0.0007994117	0.002146731	-8.422892e-09	4.511889e-08	0.01826405	0.007375765
2e+07	0.0241084	0.009904503	9.049869e-09	1.253054e-08	0.001427165	0.004366606	4.013323e-08	6.801738e-08
	9.049868e-09	1.253054e-08	0.02409607	0.009901324	4.372312e-09	7.883767e-08	0.001414397	0.004371369
	0.001427158	0.004366581	4.372313e-09	7.883767e-08	0.02400129	0.01000834	-1.551817e-09	4.507186e-08
	4.013323e-08	6.801738e-08	0.001414395	0.004371348	-1.551818e-09	4.507186e-08	0.02398959	0.01000534
3e+07	0.02898084	0.01003771	1.341145e-08	1.599239e-08	0.00253344	0.006157703	7.720376e-08	7.083582e-08
	1.341145e-08	1.599239e-08	0.02895314	0.0100376	1.275006e-08	1.033604e-07	0.002506626	0.006170858
	0.002533441	0.006157699	1.275006e-08	1.033604e-07	0.02892522	0.01016781	6.554167e-09	4.984674e-08
	7.720376e-08	7.083582e-08	0.002506621	0.006170856	6.554166e-09	4.984674e-08	0.02890006	0.01016743
4e+07	0.03324226	0.008779493	1.800987e-08	1.769531e-08	0.004051915	0.007551139	1.142464e-07	6.002429e-08
	1.800987e-08	1.769531e-08	0.03319479	0.008788545	1.948683e-08	1.262277e-07	0.004008124	0.007578749
	0.004051919	0.007551135	1.948683e-08	1.262277e-07	0.0332334	0.008915597	1.608135e-08	5.140135e-08
	1.142464e-07	6.002429e-08	0.004008123	0.007578751	1.608135e-08	5.140135e-08	0.0331899	0.008922922
5e+07	0.03684211	0.006460717	2.226285e-08	1.761929e-08	0.006003685	0.008389727	1.483072e-07	3.643181e-08
	2.226285e-08	1.761929e-08	0.0367727	0.006486411	2.451134e-08	1.484914e-07	0.005942051	0.00843853
	0.006003686	0.008389725	2.451134e-08	1.484914e-07	0.036873	0.006589691	2.550493e-08	4.859866e-08
	1.483072e-07	3.643181e-08	0.00594205	0.008438531	2.550493e-08	4.859866e-08	0.03680891	0.006612305
6e+07	0.03969042	0.003317542	2.568593e-08	1.592923e-08	0.008057693	0.008737067	1.760147e-07	5.712391e-10
	2.568593e-08	1.592923e-08	0.03959949	0.00336794	2.826392e-08	1.705461e-07	0.007979782	0.008814151
	0.008057693	0.008737069	2.826392e-08	1.705461e-07	0.03975343	0.003430583	3.327135e-08	4.191948e-08
	1.760147e-07	5.71239e-10	0.007979779	0.008814152	3.327135e-08	4.191948e-08	0.03966961	0.003476041
7e+07	0.04170055	-0.0004377911	2.778826e-08	1.288978e-08	0.01010009	0.008588645	1.935773e-07	-4.600455e-08
	2.778826e-08	1.288978e-08	0.04159117	-0.0003549036	3.101517e-08	1.925449e-07	0.01000979	0.008700549
	0.01010009	0.008588649	3.101517e-08	1.925449e-07	0.04178774	-0.0003468387	3.811887e-08	3.248144e-08
	1.935773e-07	-4.600455e-08	0.01000978	0.008700551	3.811887e-08	3.248144e-08	0.041687	-0.0002717935
8e+07	0.04280898	-0.00459587	2.814875e-08	8.903136e-09	0.01201745	0.007964787	1.974944e-07	-1.004209e-07
	2.814875e-08	8.903135e-09	0.04268667	-0.004473806	3.296368e-08	2.146046e-07	0.01192074	0.008116835
	0.01201745	0.007964792	3.296368e-08	2.146046e-07	0.04291193	-0.004531055	3.932201e-08	2.169776e-08
	1.974944e-07	-1.004209e-07	0.01192074	0.008116839	3.932201e-08	2.169776e-08	0.04279866	-0.004420318
9e+07	0.04298593	-0.008946532	2.646136e-08	4.493303e-09	0.01370266	0.006910523	1.851108e-07	-1.5863e-07
	2.646136e-08	4.493302e-09	0.04285822	-0.008780378	3.422501e-08	2.369107e-07	0.01360723	0.007106237
	0.01370266	0.006910525	3.422501e-08	2.369107e-07	0.04309566	-0.008909878	3.673226e-08	1.103878e-08
	1.851108e-07	-1.5863e-07	0.01360723	0.007106241	3.673226e-08	1.103878e-08	0.04297613	-0.008758159
1e+08	0.04225567	-0.01327764	2.257215e-08	2.767476e-10	0.01505412	0.005491496	1.550135e-07	-2.157451e-07
	2.257215e-08	2.767477e-10	0.04213156	-0.01306481	3.495508e-08	2.595446e-07	0.0149688	0.005732149
	0.01505412	0.005491496	3.495508e-08	2.595446e-07	0.0423612	-0.0132696	3.074318e-08	1.810032e-09
	1.550135e-07	-2.157451e-07	0.0149688	0.005732149	3.074318e-08	1.810032e-09	0.04224372	-0.01307319
1.1e+08	0.04063697	-0.01750566	1.653119e-08	-3.108574e-09	0.01600608	0.003840428	1.094712e-07	-2.66714e-07
	1.653119e-08	-3.108574e-09	0.04052572	-0.01724469	3.30208e-08	2.843376e-07	0.01593987	0.004124358
	0.01600608	0.003840428	3.30208e-08	2.843376e-07	0.0407307	-0.01751399	2.260681e-08	-2.563187e-09
	1.094712e-07	-2.66714e-07	0.01593987	0.004124358	2.260681e-08	-2.563187e-09	0.04062459	-0.0172721
1.2e+08	0.0381249	-0.02133691	8.535036e-09	-5.041094e-09	0.01654247	0.002020906	4.800196e-08	-3.071606e-07
	8.535036e-09	-5.041094e-09	0.03803713	-0.02103103	3.058446e-08	3.100336e-07	0.01650467	0.002344148
	0.01654247	0.002020906	3.058446e-08	3.100336e-07	0.03820755	-0.0213569	1.186026e-08	-4.969108e-09
	4.800196e-08	-3.071606e-07	0.01650467	0.002344148	1.186026e-08	-4.969108e-09	0.03812325	-0.02107263
1.3e+08	0.03486518	-0.02458904	-1.040558e-09	-4.946726e-09	0.0166247	0.0001341819	-2.669195e-08	-3.324613e-07
	-1.040558e-09	-4.946726e-09	0.03481042	-0.02424446	2.790924e-08	3.367683e-07	0.01662344	0.0004899965
	0.0166247	0.0001341817	2.790924e-08	3.367683e-07	0.0349362	-0.02461688	-9.866809e-10	-4.644368e-09
	-2.669195e-08	-3.324613e-07	0.01662344	0.0004899965	-9.866809e-10	-4.644368e-09	0.03488283	-0.02429627
1.4e+08	0.03101392	-0.02712141	-1.166231e-08	-2.352648e-09	0.01624833	-0.001710175	-1.10622e-07	-3.387307e-07
	-1.166231e-08	-2.352647e-09	0.03099985	-0.02674693	2.528725e-08	3.646204e-07	0.01628988	-0.001330912
	0.01624833	-0.001710175	2.528725e-08	3.646204e-07	0.03107327	-0.02715359	-1.521483e-08	-9.625883e-10
	-1.10622e-07	-3.387307e-07	0.01628988	-0.001330912	-1.521483e-08	-9.625883e-10	0.03105802	-0.02680508
1.5e+08	0.02674705	-0.02883128	-2.266462e-08	3.071471e-09	0.01543653	-0.003404538	-1.98729e-07	-3.231709e-07
	-2.266462e-08	3.071471e-09	0.02677891	-0.02843782	2.302886e-08	3.93596e-07	0.01552466	-0.003012785
	0.01543653	-0.003404538	2.302886e-08	3.93596e-07	0.02679536	-0.02886464	-2.993065e-08	6.510164e-09
	-1.98729e-07	-3.231709e-07	0.01552466	-0.003012785	-2.993065e-08	6.510164e-09	0.02682303	-0.02849855
1.6e+08	0.02225448	-0.02965636	-3.328716e-08	1.147698e-08	0.01423791	-0.004849953	-2.851831e-07	-2.843556e-07
	-3.328715e-08	1.147698e-08	0.02233455	-0.02925624	2.144609e-08	4.236222e-07	0.01437343	-0.004457811
	0.01423791	-0.004849953	2.144609e-08	4.236222e-07	0.02229292	-0.02968817	-4.411732e-08	1.796765e-08
	-2.851831e-07	-2.843556e-07	0.01437343	-0.004457811	-4.411732e-08	1.796765e-08	0.02236552	-0.02931605
1.7e+08	0.01773219	-0.02957642	-4.272301e-08	2.280958e-08	0.01272341	-0.005962014	-3.637589e-07	-2.224306e-07
	-4.272301e-08	2.280958e-08	0.01785943	-0.02918266	2.083302e-08	4.545453e-07	0.01290386	-0.005581923
	0.01272341	-0.005962015	2.083302e-08	4.545453e-07	0.0177624	-0.02960446	-5.669949e-08	3.332926e-08
	-3.637589e-07	-2.224306e-07	0.01290386	-0.005581923	-5.669949e-08	3.332926e-08	0.01787882	-0.02923842
1.8e+08	0.01337368	-0.02861343	-5.017477e-08	3.679576e-08	0.01098208	-0.006675803	-4.282599e-07	-1.39211e-07
	-5.017477e-08	3.679576e-08	0.01354355	-0.02823883	2.144471e-08	4.861338e-07	0.01120167	-0.006319666
	0.01098208	-0.006675803	2.144471e-08	4.861338e-07	0.01339762	-0.02863603	-6.661767e-08	5.222359e-08
	-4.282599e-07	-1.39211e-07	0.01120167	-0.006319666	-6.661767e-08	5.222359e-08	0.01355358	-0.02828794
1.9e+08	0.009361369	-0.02682993	-5.49146e-08	5.294495e-08	0.009115807	-0.006949639	-4.729645e-07	-3.816394e-08
	-5.49146e-08	5.294495e-08	0.009565893	-0.02648617	2.347635e-08	5.180883e-07	0.009365539	-0.006627934
	0.009115807	-0.00694964	2.347635e-08	5.180883e-07	0.009381209	-0.02684599	-7.290751e-08	7.399253e-08
	-4.729645e-07	-3.816394e-08	0.009365539	-0.006627934	-7.290751e-08	7.399253e-08	0.00956924	-0.02652663
2e+08	0.00585832	-0.02432551	-5.634381e-08	7.05685e-08	0.007233318	-0.006767454	-4.930626e-07	7.572857e-08
	-5.634381e-08	7.05685e-08	0.006086381	-0.02402224	2.704462e-08	5.500566e-07	0.00750138	-0.006488382
	0.007233318	-0.006767454	2.704462e-08	5.500566e-07	0.005876338	-0.02433451	-7.477758e-08	9.771754e-08
	-4.930626e-07	7.572857e-08	0.00750138	-0.006488382	-7.477758e-08	9.771754e-08	0.006086097	-0.0240528
2.1e+08	0.003000932	-0.02123169	-5.404687e-08	8.881553e-08	0.005443827	-0.006139638	-4.850508e-07	1.962204e-07
	-5.404687e-08	8.881553e-08	0.003238803	-0.02097569	3.217336e-08	5.816552e-07	0.005716185	-0.00590839
	0.005443827	-0.006139639	3.217336e-08	5.816552e-07	0.003019375	-0.02123366	-7.167967e-08	1.222673e-07
	-4.850508e-07	1.962204e-07	0.005716185	-0.00590839	-7.167968e-08	1.222673e-07	0.003238113	-0.02099588
2.2e+08	0.0008928364	-0.01770519	-4.783496e-08	1.067236e-07	0.00385067	-0.005102336	-4.470556e-07	3.161543e-07
	-4.783496e-08	1.067236e-07	0.001124937	-0.01749971	3.878517e-08	6.124941e-07	0.004111857	-0.004920504
	0.00385067	-0.005102336	3.878517e-08	6.124941e-07	0.0009138151	-0.0177007	-6.336514e-08	1.463646e-07
	-4.470556e-07	3.161543e-07	0.004111857	-0.004920504	-6.336514e-08	1.463646e-07	0.001127067	-0.01750985
2.3e+08	-0.0003995789	-0.01392011	-3.777474e-08	1.232814e-07	0.00254531	-0.003715216	-3.790598e-07	4.27895e-07
	-3.777474e-08	1.232814e-07	-0.0001897523	-0.01376438	4.670049e-08	6.422049e-07	0.002779367	-0.003580432
	0.00254531	-0.003715216	4.670049e-08	6.422049e-07	-0.0003742002	-0.01391024	-4.992212e-08	1.686681e-07
	-3.790598e-07	4.27895e-07	0.002779367	-0.003580432	-4.992212e-08	1.686681e-07	-0.0001817657	-0.01376559
2.4e+08	-0.0008498374	-0.01005932	-2.419919e-08	1.37498e-07	0.001602095	-0.002057879	-2.830125e-07	5.23816e-07
	-2.419919e-08	1.37498e-07	-0.0006786626	-0.009948288	5.564439e-08	6.704677e-07	0.001793592	-0.001963688
	0.001602095	-0.002057879	5.564439e-08	6.704677e-07	-0.000818549	-0.01004555	-3.178967e-08	1.878629e-07
	-2.830125e-07	5.23816e-07	0.001793592	-0.001963688	-3.178967e-08	1.878629e-07	-0.0006621549	-0.009942412
2.5e+08	-0.0004720371	-0.006305423	-7.698938e-09	1.484743e-07	0.00107404	-0.0002251211	-1.628102e-07	5.968084e-07
	-7.698938e-09	1.484743e-07	-0.000354659	-0.006229842	6.526117e-08	6.970364e-07	0.001209126	-0.0001611275
	0.00107404	-0.0002251211	6.526117e-08	6.970364e-07	-0.0004337713	-0.006289586	-9.746851e-09	2.02754e-07
	-1.628102e-07	5.968084e-07	0.001209126	-0.0001611275	-9.746851e-09	2.02754e-07	-0.0003275058	-0.00621935
2.6e+08	0.0006804638	-0.002831935	1.090578e-08	1.554701e-07	0.0009898987	0.001678651	-2.414641e-08	6.407767e-07
	1.090578e-08	1.554701e-07	0.0007312175	-0.002778658	7.513542e-08	7.217585e-07	0.001057305	0.001726368
	0.0009898986	0.001678651	7.513542e-08	7.217585e-07	0.0007262647	-0.002816047	1.512319e-08	2.123538e-07
	-2.414641e-08	6.407767e-07	0.001057305	0.001726368	1.512319e-08	2.123538e-07	0.0007704613	-0.002766487
2.7e+08	0.002518303	0.0002050802	3.061072e-08	1.579624e-07	0.001352671	0.003545514	1.25764e-07	6.510892e-07
	3.061072e-08	1.579624e-07	0.002492912	0.0002524744	8.481804e-08	7.44589e-07	0.001344599	0.003593735
	0.001352671	0.003545514	8.481804e-08	7.44589e-07	0.002571651	0.0002189163	4.149184e-08	2.159587e-07
	1.25764e-07	6.510892e-07	0.001344599	0.003593735	4.149184e-08	2.159587e-07	0.002544913	0.0002630887
2.8e+08	0.004921106	0.002674336	5.028728e-08	1.556888e-07	0.00213961	0.005270266	2.785714e-07	6.249504e-07
	5.028728e-08	1.556888e-07	0.00481418	0.002734686	9.385492e-08	7.65596e-07	0.00205244	0.00533774
	0.00213961	0.005270266	9.385492e-08	7.65596e-07	0.004981463	0.002684077	6.786229e-08	2.132084e-07
	2.785714e-07	6.249504e-07	0.00205244	0.00533774	6.786229e-08	2.132084e-07	0.004878772	0.002740413
2.9e+08	0.007743948	0.004475328	6.875191e-08	1.486749e-07	0.003303714	0.00675644	4.252661e-07	5.616691e-07
	6.875191e-08	1.486749e-07	0.007554821	0.00456883	1.018159e-07	7.849593e-07	0.003138483	0.00686283
	0.003303714	0.00675644	1.018159e-07	7.849593e-07	0.007810253	0.004479132	9.265999e-08	2.041226e-07
	4.252661e-07	5.616691e-07	0.003138483	0.00686283	9.265999e-08	2.041226e-07	0.007631002	0.004566453
3e+08	0.01082493	0.005542716	8.484012e-08	1.372422e-07	0.004776588	0.007921766	5.567141e-07	4.628036e-07
	8.484012e-08	1.372422e-07	0.01055798	0.005689722	1.083221e-07	8.02961e-07	0.004539195	0.008086473
	0.004776588	0.007921766	1.083221e-07	8.02961e-07	0.01089567	0.005539066	1.1433e-07	1.891142e-07
	5.567141e-07	4.628036e-07	0.004539195	0.008086473	1.1433e-07	1.891142e-07	0.01064396	0.00567634
3.1e+08	0.01399348	0.005848889	9.748006e-08	1.219977e-07	0.006472489	0.008702758	6.642202e-07	3.321692e-07
	9.748006e-08	1.219977e-07	0.01365815	0.006068635	1.130691e-07	8.199698e-07	0.006173606	0.008943716
	0.006472489	0.008702758	1.130691e-07	8.199698e-07	0.01406679	0.005836702	1.314348e-07	1.689774e-07
	6.642202e-07	3.321692e-07	0.006173606	0.008943716	1.314348e-07	1.689774e-07	0.01375143	0.006041854
3.2e+08	0.01707894	0.005404601	1.05761e-07	1.038051e-07	0.008293314	0.009058205	7.400841e-07	1.757065e-07
	1.05761e-07	1.038051e-07	0.0166894	0.005713948	1.158458e-07	8.364203e-07	0.007947995	0.0093907
	0.008293314	0.009058205	1.158458e-07	8.364203e-07	0.0171527	0.00538331	1.427462e-07	1.448525e-07
	7.400841e-07	1.757065e-07	0.007947995	0.0093907	1.427462e-07	1.448525e-07	0.01678695	0.005672042
3.3e+08	0.01991899	0.004257715	1.089928e-07	8.374124e-08	0.01013424	0.008971374	7.781161e-07	1.213253e-09
	1.089928e-07	8.374124e-08	0.01949355	0.004669982	1.165468e-07	8.527898e-07	0.009761238	0.009406979
	0.01013424	0.008971374	1.165468e-07	8.527898e-07	0.01999099	0.004227313	1.473264e-07	1.181688e-07
	7.781161e-07	1.213253e-09	0.009761238	0.009406979	1.473264e-07	1.181688e-07	0.01959196	0.004612009
3.4e+08	0.02236757	0.002490123	1.067531e-07	6.303877e-08	0.01188968	0.008450825	7.740794e-07	-1.820457e-07
	1.067531e-07	6.303877e-08	0.02192774	0.00301408	1.151797e-07	8.695724e-07	0.01151052	0.008996515
	0.01188968	0.008450825	1.151797e-07	8.695724e-07	0.02243565	0.002451174	1.445932e-07	9.056986e-08
	7.740794e-07	-1.820457e-07	0.01151052	0.008996515	1.445932e-07	9.056986e-08	0.02202343	0.002939964
3.5e+08	0.02430177	0.0002130245	9.892033e-08	4.302055e-08	0.01345927	0.007529816	7.260307e-07	-3.638326e-07
	9.892033e-08	4.302055e-08	0.02387114	0.0008521358	1.118658e-07	8.872534e-07	0.01309708	0.008187313
	0.01345927	0.007529816	1.118658e-07	8.872534e-07	0.02436397	0.0001666405	1.343668e-07	6.382579e-08
	7.260307e-07	-3.638326e-07	0.01309708	0.008187313	1.343668e-07	6.382579e-08	0.02396056	0.0007626855
3.6e+08	0.02562756	-0.002439133	8.569117e-08	2.502731e-08	0.0147535	0.006264329	6.34536e-07	-5.335064e-07
	8.569117e-08	2.502731e-08	0.02523045	-0.001687189	1.068363e-07	9.062844e-07	0.01443172	0.007029746
	0.0147535	0.006264329	1.068363e-07	9.062844e-07	0.02568223	-0.00249136	1.168944e-07	3.973572e-08
	6.34536e-07	-5.335064e-07	0.01443172	0.007029746	1.168944e-07	3.973572e-08	0.02531033	-0.001790307
3.7e+08	0.02628392	-0.005315792	6.758113e-08	1.03428e-08	0.0156987	0.004729854	5.027458e-07	-6.806391e-07
	6.758113e-08	1.03428e-08	0.02594397	-0.004459261	1.00423e-07	9.270594e-07	0.01543976	0.005593654
	0.0156987	0.004729854	1.00423e-07	9.270594e-07	0.02632987	-0.005371885	9.285325e-08	2.002622e-08
	5.027458e-07	-6.806391e-07	0.01543976	0.005593654	9.285325e-08	2.002622e-08	0.0260115	-0.004573605
3.8e+08	0.02624535	-0.008258094	4.540885e-08	1.194888e-10	0.01624124	0.003017086	3.363192e-07	-7.956427e-07
	4.540885e-08	1.194888e-10	0.02598405	-0.007310929	9.304498e-08	9.498937e-07	0.01606512	0.003964377
	0.01624124	0.003017086	9.304498e-08	9.498937e-07	0.02628192	-0.008315811	6.333001e-08	6.250247e-09
	3.363192e-07	-7.956427e-07	0.01606512	0.003964377	6.333001e-08	6.250247e-09	0.02603708	-0.007433413
3.9e+08	0.02552252	-0.01110699	2.026362e-08	-4.691797e-09	0.01635048	0.001226789	1.431974e-07	-8.703716e-07
	2.026362e-08	-4.691797e-09	0.02535786	-0.01008829	8.519074e-08	9.750049e-07	0.01627346	0.002237954
	0.01635048	0.001226789	8.519074e-08	9.750049e-07	0.02554962	-0.01116397	2.977687e-08	-3.087884e-10
	1.431974e-07	-8.703716e-07	0.01627346	0.002237954	2.977687e-08	-3.087884e-10	0.025395	-0.01021536
4e+08	0.02416116	-0.01371127	-6.542963e-09	-3.40507e-09	0.01602048	-0.0005359032	-6.676609e-08	-8.986638e-07
	-6.542963e-09	-3.40507e-09	0.02410636	-0.01264437	7.739692e-08	1.002498e-06	0.01605402	0.0005157225
	0.01602048	-0.0005359032	7.739692e-08	1.002498e-06	0.02417932	-0.01376517	-6.053993e-09	1.27739e-09
	-6.676609e-08	-8.986638e-07	0.01605402	0.0005157225	-6.053993e-09	1.27739e-09	0.02412714	-0.01277218
4.1e+08	0.02223922	-0.01593505	-3.354014e-08	4.348466e-09	0.0152704	-0.002167445	-2.823046e-07	-8.767885e-07
	-3.354014e-08	4.348466e-09	0.02230176	-0.01484634	7.022301e-08	1.032352e-06	0.01542026	-0.001101364
	0.0152704	-0.002167445	7.022301e-08	1.032352e-06	0.02224953	-0.01598373	-4.219616e-08	1.151148e-08
	-2.823046e-07	-8.767885e-07	0.01542026	-0.001101364	-4.219616e-08	1.151148e-08	0.02230664	-0.01497102
4.2e+08	0.0198624	-0.01766452	-5.91738e-08	1.858237e-08	0.01414339	-0.003571755	-4.913398e-07	-8.037672e-07
	-5.91738e-08	1.858237e-08	0.02004331	-0.01658199	6.422311e-08	1.064417e-06	0.01440905	-0.002518419
	0.01414339	-0.003571755	6.422311e-08	1.064417e-06	0.01986649	-0.01770614	-7.657165e-08	3.042014e-08
	-4.913398e-07	-8.037672e-07	0.01440905	-0.002518419	-7.657165e-08	3.042014e-08	0.02003368	-0.01669985
4.3e+08	0.01715839	-0.01881335	-8.189234e-08	3.893468e-08	0.01270419	-0.004665695	-6.816577e-07	-6.815468e-07
	-8.189234e-08	3.893468e-08	0.01745192	-0.01776504	5.991544e-08	1.098414e-06	0.01307859	-0.003651967
	0.01270419	-0.004665695	5.991544e-08	1.098414e-06	0.01715831	-0.01884653	-1.071063e-07	5.752796e-08
	-6.816577e-07	-6.815468e-07	0.01307859	-0.003651967	-1.071063e-07	5.752796e-08	0.01743006	-0.01787278
4.4e+08	0.01427004	-0.01932682	-1.002381e-07	6.466834e-08	0.01103546	-0.005383835	-8.416203e-07	-5.150059e-07
	-1.002381e-07	6.466834e-08	0.01466371	-0.01833914	5.775101e-08	1.133938e-06	0.01150517	-0.00443467
	0.01103546	-0.005383835	5.775101e-08	1.133938e-06	0.01426813	-0.01935073	-1.318518e-07	9.185945e-08
	-8.416203e-07	-5.150059e-07	0.01150517	-0.00443467	-1.318518e-07	9.185945e-08	0.01463264	-0.01843409
4.5e+08	0.01134776	-0.01918418	-1.129398e-07	9.469453e-08	0.00923308	-0.005682227	-9.60872e-07	-3.117871e-07
	-1.129398e-07	9.469453e-08	0.01182283	-0.01828032	5.808326e-08	1.170478e-06	0.009778796	-0.004819149
	0.00923308	-0.005682227	5.808326e-08	1.170478e-06	0.01134656	-0.01919859	-1.491086e-07	1.319713e-07
	-9.60872e-07	-3.117871e-07	0.009778796	-0.004819149	-1.491086e-07	1.319713e-07	0.01178618	-0.01836057
4.6e+08	0.008541705	-0.01839934	-1.189994e-07	1.276194e-07	0.007400693	-0.005540963	-1.030999e-06	-8.195795e-08
	-1.189994e-07	1.276194e-07	0.009074	-0.01759775	6.114093e-08	1.20744e-06	0.007998137	-0.00478068
	0.007400693	-0.005540963	6.114093e-08	1.20744e-06	0.008543737	-0.01840466	-1.575398e-07	1.760154e-07
	-1.030999e-06	-8.195795e-08	0.007998137	-0.00478068	-1.575398e-07	1.760154e-07	0.009035776	-0.01766231
4.7e+08	0.00599394	-0.01701966	-1.177674e-07	1.618135e-07	0.005643757	-0.004965356	-1.046099e-06	1.624861e-07
	-1.177674e-07	1.618135e-07	0.006555061	-0.0163328	6.700666e-08	1.244173e-06	0.006264872	-0.00431861
	0.005643757	-0.004965356	6.700666e-08	1.244173e-06	0.006001573	-0.01701686	-1.562695e-07	2.218311e-07
	-1.046099e-06	1.624861e-07	0.006264872	-0.00431861	-1.562695e-07	2.218311e-07	0.006519449	-0.01638161
4.8e+08	0.003831133	-0.01512313	-1.090005e-07	1.955007e-07	0.004063473	-0.00398567	-1.003222e-06	4.082536e-07
