!$
! Info: Touchstone file created by Circ.  Input file=Tx_12in_Rx_93ohms_TxVia_10mils_RxVia_20mils.circ
!$
# Hz S RI R 50
0	0.01101109	7.682146e-26	-6.439707e-05	1.52111e-25	7.70784e-05	1.168578e-23	-6.442249e-05	2.943662e-24
	-6.439709e-05	1.537325e-25	0.01101173	1.072198e-25	-6.438956e-05	4.519854e-26	7.517067e-05	1.56603e-23
	7.577806e-05	1.138623e-23	-6.438956e-05	4.533856e-26	0.01102627	8.043166e-26	-6.439913e-05	3.404821e-25
	-6.442247e-05	2.942263e-24	7.662598e-05	1.611821e-23	-6.439911e-05	3.376525e-25	0.01101729	1.022377e-25
1e+07	0.01565459	-0.001529218	-0.0002978444	1.574892e-05	0.0004257934	0.002156191	-5.948422e-05	-6.65177e-06
	-0.0002978444	1.574892e-05	0.01597524	-0.001563834	-0.0001543132	8.423021e-05	0.0004210311	0.002149318
	0.0004257493	0.002156195	-0.0001543132	8.423021e-05	0.01599338	-0.001579962	-0.0002975058	1.847545e-05
	-5.948421e-05	-6.651768e-06	0.0004210641	0.002149306	-0.0002975058	1.847545e-05	0.01566056	-0.001566417
2e+07	0.01795022	-0.007054991	-0.0002529511	-3.443128e-05	0.001136428	0.004229257	-3.330867e-05	-6.282785e-05
	-0.0002529511	-3.443129e-05	0.0181564	-0.007223495	-0.0001491025	6.394031e-05	0.001123858	0.004219488
	0.001136418	0.004229285	-0.0001491025	6.394031e-05	0.01818382	-0.007259022	-0.000251798	-3.96388e-05
	-3.330867e-05	-6.282785e-05	0.001123855	0.004219467	-0.000251798	-3.963879e-05	0.01792273	-0.007122657
3e+07	0.01770078	-0.01387432	-0.0002263061	-5.559157e-05	0.002390578	0.005936773	-4.44546e-05	-7.432588e-05
	-0.0002263061	-5.559157e-05	0.01779907	-0.01407658	-0.0001366935	6.908898e-05	0.002347245	0.005937858
	0.002390578	0.005936778	-0.0001366935	6.908898e-05	0.01784064	-0.01413692	-0.0002242974	-6.216103e-05
	-4.44546e-05	-7.432588e-05	0.00234724	0.005937855	-0.0002242974	-6.216102e-05	0.01762537	-0.01395754
4e+07	0.01538468	-0.02063693	-0.0002071449	-6.298258e-05	0.004039156	0.007237234	-7.954252e-05	-6.240131e-05
	-0.0002071449	-6.298258e-05	0.01537826	-0.02083241	-0.0001204153	7.249105e-05	0.003972555	0.007255147
	0.004039152	0.007237231	-0.0001204153	7.249105e-05	0.01543624	-0.02092522	-0.0002046564	-7.067917e-05
	-7.954252e-05	-6.240131e-05	0.003972555	0.007255149	-0.0002046564	-7.067917e-05	0.01524906	-0.02072042
5e+07	0.01132864	-0.02672854	-0.0001920055	-6.45049e-05	0.005920693	0.008088705	-0.0001066714	-4.103639e-05
	-0.0001920055	-6.45049e-05	0.01122457	-0.02688549	-0.000103153	6.978305e-05	0.005831158	0.008132288
	0.005920691	0.008088704	-0.000103153	6.978305e-05	0.01129797	-0.02701951	-0.0001893007	-7.322402e-05
	-0.0001066714	-4.103638e-05	0.005831158	0.008132289	-0.0001893007	-7.322402e-05	0.01112489	-0.02679186
6e+07	0.005875438	-0.03172346	-0.0001787285	-6.291164e-05	0.00792175	0.008454417	-0.0001257465	-1.310213e-05
	-0.0001787285	-6.291164e-05	0.00568596	-0.03181488	-8.826823e-05	5.969162e-05	0.007812346	0.008532276
	0.007921756	0.008454415	-8.826823e-05	5.969162e-05	0.005770323	-0.03199861	-0.0001760077	-7.258659e-05
	-0.0001257465	-1.310213e-05	0.007812343	0.008532277	-0.0001760077	-7.258659e-05	0.005602959	-0.03174438
7e+07	-0.0005952768	-0.03532307	-0.0001657636	-5.965739e-05	0.009922675	0.008324713	-0.0001363592	1.941882e-05
	-0.0001657636	-5.965739e-05	-0.0008526085	-0.03532653	-7.923992e-05	4.270206e-05	0.00979911	0.008444462
	0.009922686	0.008324706	-7.923992e-05	4.270206e-05	-0.0007649844	-0.03556708	-0.0001631799	-7.022861e-05
	-0.0001363592	1.941882e-05	0.009799105	0.008444465	-0.0001631799	-7.022861e-05	-0.0009305489	-0.03528034
8e+07	-0.007674696	-0.03734176	-0.000151793	-5.574936e-05	0.01180517	0.007718471	-0.0001378576	5.487914e-05
	-0.000151793	-5.574936e-05	-0.007977562	-0.03724018	-7.928422e-05	2.067318e-05	0.0116755	0.007885997
	0.01180519	0.00771846	-7.928422e-05	2.067318e-05	-0.007897037	-0.03754223	-0.0001494486	-6.715154e-05
	-0.0001378576	5.487914e-05	0.0116755	0.007886001	-0.0001494486	-6.715154e-05	-0.008061178	-0.0372163
9e+07	-0.01494048	-0.03770161	-0.0001352128	-5.192028e-05	0.01345948	0.006681957	-0.0001290061	9.179885e-05
	-0.0001352129	-5.192028e-05	-0.01526253	-0.03748394	-9.113164e-05	-3.550417e-06	0.01333363	0.006900796
	0.01345948	0.006681947	-9.113164e-05	-3.550417e-06	-0.01520128	-0.03784891	-0.0001384289	-5.472808e-05
	-0.0001290061	9.179885e-05	0.01333362	0.0069008	-0.0001384289	-5.472808e-05	-0.01536131	-0.03747755
1e+08	-0.02196054	-0.03642154	-0.0001235643	-1.539365e-05	0.01479013	0.005285125	-0.0001043142	0.0001294609
	-0.0001235643	-1.539365e-05	-0.0222695	-0.03608235	-0.0001189713	-2.763916e-05	0.01467961	0.005556093
	0.01479013	0.005285125	-0.0001189713	-2.763916e-05	-0.02224049	-0.03650787	-0.0001311796	-4.885404e-06
	-0.0001043142	0.0001294609	0.01467961	0.005556093	-0.0001311796	-4.885403e-06	-0.02239389	-0.03608778
1.1e+08	-0.02837019	-0.03374563	-0.0001022303	6.736121e-06	0.01572124	0.00362418	-6.772336e-05	0.0001436055
	-0.0001022303	6.736121e-06	-0.02863707	-0.0333045	-0.0001528359	-5.783625e-05	0.01563713	0.003942337
	0.01572124	0.003624181	-0.0001528359	-5.783625e-05	-0.02865207	-0.03378718	-0.0001073193	1.823153e-05
	-6.772336e-05	0.0001436055	0.01563713	0.003942336	-0.0001073193	1.823153e-05	-0.0287914	-0.03329863
1.2e+08	-0.03393031	-0.02976957	-8.701637e-05	2.140995e-05	0.01620922	0.001802479	-3.761086e-05	0.0001497252
	-8.701637e-05	2.140995e-05	-0.03414169	-0.029239	-0.0001920572	-7.60805e-05	0.01616077	0.002162117
	0.01620922	0.001802479	-0.0001920572	-7.60805e-05	-0.03421371	-0.02976796	-8.99757e-05	3.338428e-05
	-3.761086e-05	0.0001497252	0.01616077	0.002162117	-8.99757e-05	3.338428e-05	-0.03431455	-0.02921261
1.3e+08	-0.03833944	-0.02474313	-7.314751e-05	3.19148e-05	0.01623091	-6.896826e-05	-9.956684e-06	0.0001507487
	-7.314751e-05	3.19148e-05	-0.03848009	-0.02413809	-0.0002374188	-8.15039e-05	0.01622646	0.0003237228
	0.0162309	-6.896817e-05	-0.0002374188	-8.15039e-05	-0.03861859	-0.02469864	-7.411091e-05	4.404015e-05
	-9.956684e-06	0.0001507487	0.01622646	0.0003237228	-7.411091e-05	4.404015e-05	-0.03866277	-0.02408642
1.4e+08	-0.04139171	-0.01898139	-6.015242e-05	3.910496e-05	0.01579108	-0.001877169	1.267751e-05	0.0001477793
	-6.015242e-05	3.910496e-05	-0.04144924	-0.0183207	-0.0002860109	-7.261889e-05	0.01583681	-0.001462341
	0.01579108	-0.001877168	-0.0002860109	-7.261889e-05	-0.0416595	-0.01889553	-5.921879e-05	5.109928e-05
	1.267751e-05	0.0001477793	0.01583681	-0.001462341	-5.921879e-05	5.109928e-05	-0.04163319	-0.0182417
1.5e+08	-0.04296849	-0.01283443	-4.803985e-05	4.35492e-05	0.01492112	-0.00351432	2.361959e-05	0.0001438194
	-4.803985e-05	4.35492e-05	-0.04293501	-0.01214013	-0.000334063	-4.881103e-05	0.01502031	-0.003090135
	0.01492112	-0.00351432	-0.000334063	-4.881103e-05	-0.04321754	-0.01271043	-4.530812e-05	5.515061e-05
	2.361959e-05	0.0001438194	0.01502031	-0.003090135	-4.530812e-05	5.515061e-05	-0.04311198	-0.01203419
1.6e+08	-0.04304005	-0.006665192	-3.711907e-05	4.569269e-05	0.01367671	-0.004883822	3.478494e-05	0.0001391338
	-3.711907e-05	4.569269e-05	-0.04291323	-0.00596142	-0.0003775916	-1.060303e-05	0.01382919	-0.004464107
	0.01367671	-0.004883822	-0.0003775916	-1.060303e-05	-0.04326359	-0.006508094	-3.270541e-05	5.665663e-05
	3.478494e-05	0.0001391338	0.01382919	-0.004464107	-3.270541e-05	5.665663e-05	-0.04307572	-0.005831138
1.7e+08	-0.04166387	-0.0008284503	-2.757324e-05	4.606956e-05	0.01213436	-0.005905497	4.59095e-05	0.0001335827
	-2.757324e-05	4.606956e-05	-0.04144758	-0.0001399708	-0.0004128774	4.033477e-05	0.01233627	-0.005504186
	0.01213436	-0.005905497	-0.0004128774	4.033477e-05	-0.04185625	-0.0006448786	-2.161713e-05	5.616674e-05
	4.59095e-05	0.0001335827	0.01233627	-0.005504186	-2.161713e-05	5.616674e-05	-0.04158923	1.017939e-05
1.8e+08	-0.03897863	0.004348948	-1.948841e-05	4.522004e-05	0.01038694	-0.006519844	5.67721e-05	0.0001270983
	-1.948841e-05	4.522004e-05	-0.03868321	0.004998371	-0.000436852	0.0001013397	0.01063066	-0.006149965
	0.01038694	-0.006519844	-0.000436852	0.0001013397	-0.03913582	0.004551135	-1.215723e-05	5.424014e-05
	5.67721e-05	0.0001270983	0.01063066	-0.006149965	-1.215723e-05	5.424014e-05	-0.03879917	0.005162392
1.9e+08	-0.03519445	0.008585648	-1.282547e-05	4.365902e-05	0.008538374	-0.006691159	6.717934e-05	0.0001196664
	-1.282547e-05	4.365902e-05	-0.03483642	0.009174936	-0.0004473861	0.0001690304	0.008812787	-0.006363831
	0.008538374	-0.006691159	-0.0004473861	0.0001690304	-0.03531434	0.008797802	-4.316084e-06	5.141672e-05
	6.717934e-05	0.0001196664	0.008812787	-0.006363831	-4.316084e-06	5.141672e-05	-0.03492366	0.009345767
2e+08	-0.03057948	0.01166052	-7.419563e-06	4.183646e-05	0.006697808	-0.006409402	7.696199e-05	0.0001113131
	-7.419563e-06	4.183646e-05	-0.03018087	0.01217291	-0.0004434574	0.0002396536	0.006988793	-0.0061329
	0.006697808	-0.006409402	-0.0004434574	0.0002396536	-0.03066202	0.01187371	2.043256e-06	4.817868e-05
	7.696199e-05	0.0001113131	0.006988793	-0.0061329	2.043256e-06	4.817868e-05	-0.03023836	0.01234292
2.1e+08	-0.02544379	0.01342388	-3.000178e-06	4.009926e-05	0.00497349	-0.005690704	8.597321e-05	0.0001020958
	-3.000178e-06	4.009926e-05	-0.02503103	0.01384837	-0.0004251856	0.0003094639	0.00526469	-0.005469671
	0.00497349	-0.005690704	-0.0004251856	0.0003094639	-0.02549105	0.0136294	7.168051e-06	4.49125e-05
	8.597321e-05	0.0001020958	0.00526469	-0.005469671	7.168051e-06	4.49125e-05	-0.02505976	0.01400989
2.2e+08	-0.02012121	0.0138047	7.72474e-07	3.866285e-05	0.003466659	-0.004576481	9.408831e-05	9.209583e-05
	7.72474e-07	3.866285e-05	-0.01972356	0.01413717	-0.0003937388	0.0003750831	0.003740432	-0.004411341
	0.003466659	-0.00457648	-0.0003937388	0.0003750831	-0.02013722	0.01399459	1.138238e-05	4.187934e-05
	9.408831e-05	9.209583e-05	0.003740432	-0.004411341	1.138238e-05	4.187934e-05	-0.01972652	0.01428299
2.3e+08	-0.01495004	0.01281339	4.261118e-06	3.759675e-05	0.002265743	-0.003131136	0.0001012042	8.141158e-05
	4.261118e-06	3.759675e-05	-0.01459788	0.01305734	-0.0003511282	0.0004338	0.002504265	-0.003017768
	0.002265743	-0.003131136	-0.0003511282	0.0004338	-0.01494064	0.01298084	1.504316e-05	3.919856e-05
	0.0001012042	8.141158e-05	0.002504265	-0.003017768	1.504316e-05	3.919856e-05	-0.01457985	0.01318119
2.4e+08	-0.01025388	0.01054005	7.801456e-06	3.682627e-05	0.001441201	-0.00143845	0.0001072383	7.015512e-05
	7.801456e-06	3.682627e-05	-0.009976662	0.01070683	-0.0002999053	0.000483784	0.001627643	-0.001368145
	0.001441201	-0.00143845	-0.0002999053	0.000483784	-0.01022634	0.01067987	1.849169e-05	3.684636e-05
	0.0001072383	7.015512e-05	0.001627643	-0.001368145	1.849169e-05	3.684636e-05	-0.009943927	0.01080382
2.5e+08	-0.006323275	0.007148279	1.165455e-05	3.615361e-05	0.001041298	0.0004032131	0.0001121286	5.844654e-05
	1.165455e-05	3.615361e-05	-0.006147514	0.007256887	-0.0002428549	0.0005241658	0.001161012	0.0004434848
	0.001041298	0.0004032131	-0.0002428549	0.0005241658	-0.006285905	0.007257158	2.200645e-05	3.467361e-05
	0.0001121286	5.844654e-05	0.001161012	0.0004434848	2.200645e-05	3.467361e-05	-0.006107467	0.007323833
2.6e+08	-0.003399494	0.002864892	1.582442e-05	3.52611e-05	0.001089135	0.002286645	0.0001158342	4.641141e-05
	1.582442e-05	3.52611e-05	-0.003346755	0.002941133	-0.0001665054	0.0005555376	0.001130757	0.00231366
	0.001089135	0.002286645	-0.0001665054	0.0005555376	-0.003361117	0.002941633	2.562035e-05	3.24008e-05
	0.0001158342	4.641141e-05	0.001130757	0.00231366	2.562035e-05	3.24008e-05	-0.003307494	0.00297679
2.7e+08	-0.001661201	-0.002033927	2.044862e-05	3.388878e-05	0.001581138	0.004102151	0.0001183277	3.417512e-05
	2.044862e-05	3.388878e-05	-0.001746457	-0.001958753	-8.689646e-05	0.000574162	0.001537534	0.004135585
	0.001581138	0.004102151	-8.689646e-05	0.000574162	-0.001630724	-0.001988371	2.950674e-05	2.980586e-05
	0.0001183277	3.417512e-05	0.001537534	0.004135585	2.950674e-05	2.980586e-05	-0.001716179	-0.00195354
2.8e+08	-0.001214864	-0.007239187	2.542835e-05	3.172582e-05	0.002487164	0.00574416	0.0001195993	2.186439e-05
	2.542835e-05	3.172582e-05	-0.001445085	-0.007129994	-8.998666e-06	0.0005812452	0.002356157	0.005805495
	0.002487164	0.00574416	-8.998666e-06	0.0005812452	-0.001200722	-0.00722172	3.361041e-05	2.66014e-05
	0.0001195993	2.186439e-05	0.002356157	0.005805495	3.361041e-05	2.66014e-05	-0.001431593	-0.007152335
2.9e+08	-0.002089444	-0.01242741	3.051081e-05	2.851801e-05	0.003752266	0.007117638	0.000119655	9.60349e-06
	3.051081e-05	2.851801e-05	-0.00246266	-0.0122474	6.577319e-05	0.0005787485	0.003537076	0.007228898
	0.003752266	0.007117638	6.577319e-05	0.0005787485	-0.002099081	-0.01243296	3.772458e-05	2.254313e-05
	0.000119655	9.60349e-06	0.003537076	0.007228898	3.772458e-05	2.254313e-05	-0.002472864	-0.01229251
3e+08	-0.004235636	-0.01727959	3.534673e-05	2.412087e-05	0.005300033	0.008143898	0.0001185135	-2.487361e-06
	3.534673e-05	2.412087e-05	-0.004740559	-0.01699255	0.0001368674	0.0005686342	0.005009387	0.008326281
	0.005300033	0.008143898	0.0001368674	0.0005686342	-0.00427505	-0.01730139	4.154422e-05	1.74838e-05
	0.0001185135	-2.487361e-06	0.005009387	0.008326281	4.154422e-05	1.74838e-05	-0.004780023	-0.01705403
3.1e+08	-0.007529702	-0.02149971	3.953728e-05	1.852837e-05	0.007037296	0.008765381	0.0001162057	-1.429264e-05
	3.953728e-05	1.852837e-05	-0.008145934	-0.02107238	0.0002044913	0.0005525515	0.006685196	0.009037871
	0.007037296	0.008765381	0.0002044913	0.0005525515	-0.007603065	-0.0215297	4.470907e-05	1.140341e-05
	0.0001162057	-1.429264e-05	0.006685196	0.009037871	4.470907e-05	1.140341e-05	-0.008218504	-0.02114257
3.2e+08	-0.01178158	-0.02483159	4.268854e-05	1.188318e-05	0.00885989	0.008949093	0.0001127725	-2.570212e-05
	4.268854e-05	1.188318e-05	-0.01248044	-0.02423596	0.0002693906	0.0005315949	0.008465023	0.009327146
	0.00885989	0.008949093	0.0002693906	0.0005315949	-0.01189097	-0.02486091	4.685509e-05	4.422178e-06
	0.0001127725	-2.570212e-05	0.008465023	0.009327146	4.685509e-05	4.422178e-06	-0.01258797	-0.02430644
3.3e+08	-0.01674673	-0.02707329	4.446578e-05	4.466147e-06	0.01065908	0.008688466	0.0001082642	-3.661098e-05
	4.446578e-05	4.466147e-06	-0.01749264	-0.02628866	0.0003325682	0.0005061599	0.0102439	0.009182854
	0.01065908	0.008688466	0.0003325682	0.0005061599	-0.01689198	-0.0270928	4.766668e-05	-3.206367e-06
	0.0001082642	-3.661098e-05	0.0102439	0.009182854	4.766668e-05	-3.206367e-06	-0.01763486	-0.02635074
3.4e+08	-0.02214097	-0.02808805	4.463967e-05	-3.33332e-06	0.01232818	0.008003537	0.0001027403	-4.691981e-05
	4.463967e-05	-3.33332e-06	-0.02289336	-0.02710269	0.0003949754	0.0004759127	0.01191773	0.008619434
	0.01232818	0.008003537	0.0003949754	0.0004759127	-0.02231968	-0.02808886	4.692234e-05	-1.112096e-05
	0.0001027403	-4.691981e-05	0.01191773	0.008619434	4.692234e-05	-1.112096e-05	-0.02306786	-0.02714796
3.5e+08	-0.02765734	-0.0278113	4.311886e-05	-1.106095e-05	0.01376899	0.006939472	9.626886e-05	-5.653492e-05
	4.311886e-05	-1.106095e-05	-0.02837295	-0.02662365	0.0004572117	0.0004398802	0.01338946	0.007675851
	0.01376899	0.006939472	0.0004572117	0.0004398802	-0.02786497	-0.02778539	4.452815e-05	-1.889223e-05
	9.626886e-05	-5.653492e-05	0.01338946	0.007675851	4.452815e-05	-1.889223e-05	-0.0285753	-0.02664449
3.6e+08	-0.03298391	-0.02625354	3.996443e-05	-1.824988e-05	0.01489755	0.005563574	8.892693e-05	-6.536907e-05
	3.996443e-05	-1.824988e-05	-0.03361936	-0.02487276	0.0005192847	0.0003966407	0.01457475	0.006412966
	0.01489755	0.005563574	0.0005192847	0.0003966407	-0.03321407	-0.02619417	4.053439e-05	-2.607162e-05
	8.892693e-05	-6.536907e-05	0.01457475	0.006412966	4.053439e-05	-2.607162e-05	-0.03384337	-0.02486283
3.7e+08	-0.03782167	-0.02349873	3.538496e-05	-2.447403e-05	0.01564896	0.003961023	8.080026e-05	-7.334246e-05
	3.538496e-05	-2.447403e-05	-0.03833616	-0.02194466	0.0005804552	0.0003445918	0.01540668	0.004909666
	0.01564896	0.003961023	0.0005804552	0.0003445918	-0.03806649	-0.02340091	3.513399e-05	-3.224233e-05
	8.080026e-05	-7.334246e-05	0.01540668	0.004909666	3.513399e-05	-3.224233e-05	-0.03857423	-0.0218993
3.8e+08	-0.04190132	-0.01969875	2.971335e-05	-2.939578e-05	0.01598091	0.002229648	7.198292e-05	-8.038401e-05
	2.971335e-05	-2.939578e-05	-0.04225921	-0.01800115	0.0006391906	0.0002822561	0.01583942	0.003258039
	0.01598091	0.002229648	0.0006391906	0.0002822561	-0.04215188	-0.01955955	2.864324e-05	-3.706603e-05
	7.198292e-05	-8.038401e-05	0.01583942	0.003258039	2.864324e-05	-3.706603e-05	-0.0425028	-0.01791765
3.9e+08	-0.0449981	-0.01506408	2.336879e-05	-3.280222e-05	0.01587585	0.0004740925	6.257644e-05	-8.643277e-05
	2.336879e-05	-3.280222e-05	-0.04517137	-0.01326122	0.000693232	0.0002085854	0.0158505	0.001557911
	0.01587585	0.0004740925	0.000693232	0.0002085854	-0.04524499	-0.01488283	2.146785e-05	-4.031952e-05
	6.257644e-05	-8.643277e-05	0.0158505	0.001557911	2.146785e-05	-4.031952e-05	-0.04541149	-0.01313907
4e+08	-0.04694399	-0.009851429	1.680942e-05	-3.462568e-05	0.01534175	-0.001200286	5.268844e-05	-9.143901e-05
	1.680942e-05	-3.462568e-05	-0.04691426	-0.007988153	0.0007397665	0.0001232257	0.0154418	-8.891255e-05
	0.01534175	-0.001200286	0.0007397665	0.0001232257	-0.04717788	-0.009629751	1.405924e-05	-4.191728e-05
	5.268844e-05	-9.143901e-05	0.0154418	-8.891255e-05	1.405924e-05	-4.191728e-05	-0.047142	-0.007829009
4.1e+08	-0.04763665	-0.004348934	1.048125e-05	-3.494672e-05	0.01441129	-0.002693419	4.243106e-05	-9.536516e-05
	1.048125e-05	-3.494672e-05	-0.04739666	-0.002474198	0.0007756841	2.670614e-05	0.01463916	-0.001584391
	0.01441129	-0.002693419	0.0007756841	2.670614e-05	-0.04784881	-0.004090702	6.866095e-06	-4.191758e-05
	4.243106e-05	-9.536516e-05	0.01463916	-0.001584391	6.866095e-06	-4.191758e-05	-0.04760375	-0.002281866
4.2e+08	-0.04704456	0.001140088	4.76969e-06	-3.397974e-05	0.01313988	-0.003916146	3.191918e-05	-9.818607e-05
	4.76969e-06	-3.397974e-05	-0.04659909	0.002975995	0.0007978868	-7.946997e-05	0.01349065	-0.002839676
	0.01313988	-0.003916146	0.0007978868	-7.946997e-05	-0.04722741	0.001428972	2.873738e-07	-4.05121e-05
	3.191918e-05	-9.818607e-05	0.01349065	-0.002839676	2.873738e-07	-4.05121e-05	-0.04677839	0.003195796
4.3e+08	-0.04520835	0.006314136	-4.050631e-08	-3.20434e-05	0.01160231	-0.004795149	2.126876e-05	-9.988886e-05
	-4.050632e-08	-3.20434e-05	-0.04457442	0.008062566	0.0008036162	-0.0001928437	0.01206377	-0.003779972
	0.01160231	-0.004795149	0.0008036162	-0.0001928437	-0.04535594	0.006626063	-5.36796e-06	-3.800064e-05
	2.126876e-05	-9.988886e-05	0.01206377	-0.003779972	-5.36796e-06	-3.800064e-05	-0.04472036	0.008302513
4.4e+08	-0.0422382	0.01089024	-3.792937e-06	-2.95195e-05	0.009888552	-0.005277003	1.05955e-05	-0.0001004724
	-3.792937e-06	-2.95195e-05	-0.04144454	0.01250717	0.000790758	-0.0003101301	0.01044163	-0.004348604
	0.009888552	-0.005277003	0.000790758	-0.0003101301	-0.04234655	0.01121633	-9.910343e-06	-3.475408e-05
	1.05955e-05	-0.0001004724	0.01044163	-0.004348604	-9.910343e-06	-3.475408e-05	-0.04155343	0.01275876
4.5e+08	-0.03830742	0.01461963	-6.47148e-06	-2.680525e-05	0.008098602	-0.005331138	1.387953e-08	-9.994705e-05
	-6.47148e-06	-2.680525e-05	-0.03739319	0.01606845	0.0007580894	-0.0004274431	0.008718224	-0.004510117
	0.008098602	-0.005331138	0.0007580894	-0.0004274431	-0.0383748	0.01495024	-1.328468e-05	-3.116991e-05
	1.387953e-08	-9.994705e-05	0.008718224	-0.004510117	-1.328468e-05	-3.116991e-05	-0.03746354	0.01632248
4.6e+08	-0.03364267	0.01730146	-8.19548e-06	-2.426428e-05	0.006336929	-0.004951576	-1.036342e-05	-9.83335e-05
	-8.19548e-06	-2.426428e-05	-0.03265554	0.01855545	0.0007054404	-0.0005405923	0.006993299	-0.00425224
	0.006336929	-0.004951576	0.0007054404	-0.0005405923	-0.03366973	0.01762672	-1.556966e-05	-2.762478e-05
	-1.036342e-05	-9.83335e-05	0.006993299	-0.00425224	-1.556966e-05	-2.762478e-05	-0.03268811	0.01880264
4.7e+08	-0.02851122	0.01879391	-9.198406e-06	-2.218268e-05	0.004706562	-0.004157348	-2.042616e-05	-9.566376e-05
	-9.198406e-06	-2.218268e-05	-0.02750487	0.01983817	0.0006337488	-0.0006454166	0.005366731	-0.003586639
	0.004706562	-0.004157348	0.0006337488	-0.0006454166	-0.028501	0.01910429	-1.69615e-05	-2.443278e-05
