!$
! Info: Touchstone file created by Circ.  Input file=Tx_14in_Rx_85ohms_TxVia_10mils_RxVia_20mils.circ
!$
# Hz S RI R 50
0	0.01125852	8.804445e-26	1.086411e-10	2.576987e-28	8.795493e-05	1.194963e-23	-5.014742e-09	6.14204e-25
	1.08653e-10	2.578801e-28	0.01125916	1.232961e-25	5.407414e-10	3.655981e-27	8.604754e-05	1.601404e-23
	8.665464e-05	1.164331e-23	5.406802e-10	3.663114e-27	0.01127369	9.217312e-26	-9.099725e-09	1.128234e-24
	-5.013865e-09	6.140966e-25	8.750275e-05	1.648228e-23	-9.099919e-09	1.128257e-24	0.01126472	1.175534e-25
1e+07	0.01376029	-0.01382989	4.741681e-11	-2.459933e-11	0.0005502106	0.002442265	-4.963948e-09	1.75151e-08
	4.74168e-11	-2.459962e-11	0.0137946	-0.01383891	6.296452e-10	1.10195e-09	0.0005464651	0.00244979
	0.0005501667	0.002442269	6.296451e-10	1.10195e-09	0.0138222	-0.01381443	-6.392974e-09	1.748719e-08
	-4.963948e-09	1.75151e-08	0.0005464979	0.002449778	-6.392974e-09	1.748719e-08	0.01376532	-0.01382895
2e+07	0.01118978	-0.03089262	4.273252e-11	-2.74671e-11	0.001646812	0.004569319	-2.580399e-09	1.452288e-08
	4.273228e-11	-2.746716e-11	0.0111795	-0.0309157	6.999817e-10	1.993292e-09	0.001633159	0.004588022
	0.001646803	0.004569348	6.999819e-10	1.993292e-09	0.01124258	-0.03087763	-4.100821e-09	1.547833e-08
	-2.580399e-09	1.452288e-08	0.001633155	0.004588	-4.100821e-09	1.547834e-08	0.01116208	-0.0308828
3e+07	0.002439531	-0.04755617	5.457278e-11	-5.767369e-11	0.003276324	0.006255418	2.108936e-09	1.291171e-08
	5.457275e-11	-5.767364e-11	0.00237163	-0.04756382	6.388335e-10	2.91133e-09	0.003248783	0.006291484
	0.003276325	0.006255422	6.388335e-10	2.91133e-09	0.002487238	-0.04753038	1.310617e-09	1.453672e-08
	2.108936e-09	1.291171e-08	0.003248778	0.006291482	1.310617e-09	1.453672e-08	0.002364101	-0.04751902
4e+07	-0.01110202	-0.06119785	5.97582e-11	-8.662697e-11	0.00528435	0.007376256	5.53717e-09	1.0268e-08
	5.975818e-11	-8.662704e-11	-0.01123365	-0.06116367	5.524651e-10	3.921787e-09	0.005241852	0.007437425
	0.005284346	0.007376254	5.524651e-10	3.921787e-09	-0.01105675	-0.06115876	5.259701e-09	1.210846e-08
	5.53717e-09	1.0268e-08	0.005241852	0.007437427	5.259701e-09	1.210846e-08	-0.01123406	-0.06111166
5e+07	-0.0280256	-0.07050304	7.313621e-11	-1.166103e-10	0.007484402	0.007858423	7.590308e-09	7.590607e-09
	7.313617e-11	-1.166103e-10	-0.02821773	-0.07040004	4.873811e-10	5.00121e-09	0.007429303	0.007952842
	0.0074844	0.007858423	4.873811e-10	5.00121e-09	-0.02798052	-0.0704496	7.594409e-09	9.535116e-09
	7.590308e-09	7.590607e-09	0.007429303	0.007952842	7.594409e-09	9.535116e-09	-0.02821392	-0.07034115
6e+07	-0.04679162	-0.07473408	1.037157e-10	-1.62215e-10	0.009681157	0.007688436	8.815533e-09	5.58702e-09
	1.037158e-10	-1.62215e-10	-0.04703135	-0.07453746	4.615391e-10	6.124213e-09	0.009619239	0.007823274
	0.009681162	0.007688434	4.615391e-10	6.124213e-09	-0.04674463	-0.07466585	8.834931e-09	7.636032e-09
	8.815533e-09	5.58702e-09	0.009619236	0.007823275	8.834931e-09	7.636031e-09	-0.04702426	-0.0744709
7e+07	-0.06581462	-0.07365768	2.19932e-10	-2.574022e-10	0.01169026	0.00691001	9.644801e-09	5.343245e-09
	2.199324e-10	-2.574023e-10	-0.06608041	-0.07334812	4.997622e-10	7.22841e-09	0.01163021	0.007090219
	0.01169027	0.006910001	4.997621e-10	7.22841e-09	-0.06576356	-0.07357466	9.167095e-09	7.240617e-09
	9.644801e-09	5.343245e-09	0.0116302	0.007090222	9.167094e-09	7.240617e-09	-0.06607022	-0.07327323
8e+07	-0.08357573	-0.06750242	-1.067697e-09	-8.272869e-10	0.01335413	0.005615223	6.392376e-09	8.769474e-09
	-1.067697e-09	-8.272872e-10	-0.08383958	-0.06706873	8.481563e-10	8.357906e-09	0.01330663	0.005842567
	0.01335414	0.005615211	8.481562e-10	8.357906e-09	-0.08351832	-0.06740508	6.631967e-09	8.934705e-09
	6.392376e-09	8.769474e-09	0.01330662	0.005842572	6.631967e-09	8.934705e-09	-0.08382614	-0.06698461
9e+07	-0.09872987	-0.05690068	-4.529381e-11	-3.894758e-10	0.01455296	0.00393224	-1.12345e-10	3.842573e-09
	-4.529346e-11	-3.894763e-10	-0.09896031	-0.05634164	1.088663e-09	9.74037e-09	0.01452954	0.004204642
	0.01455296	0.00393223	1.088663e-09	9.74037e-09	-0.09866373	-0.05679008	8.79713e-10	5.978563e-09
	-1.12345e-10	3.842573e-09	0.01452954	0.004204646	8.79713e-10	5.978563e-09	-0.09894262	-0.05624716
1e+08	-0.1101976	-0.04281254	-4.390071e-11	-3.704607e-10	0.01521325	0.002012582	-1.285938e-10	3.487922e-10
	-4.390071e-11	-3.704607e-10	-0.1103628	-0.04213763	1.342468e-09	1.095915e-08	0.01522496	0.002323859
	0.01521325	0.002012582	1.342468e-09	1.095915e-08	-0.1101201	-0.04269036	4.138324e-11	2.348104e-09
	-1.285938e-10	3.487922e-10	0.01522496	0.002323859	4.138324e-11	2.348104e-09	-0.110339	-0.04203217
1.1e+08	-0.1172158	-0.02642034	-1.178559e-10	-3.883437e-10	0.01529869	-2.448236e-06	-3.51725e-11	4.076265e-10
	-1.178559e-10	-3.883437e-10	-0.1172879	-0.0256496	1.841831e-09	1.202858e-08	0.01535417	0.0003373117
	0.01529869	-2.448134e-06	1.841831e-09	1.202858e-08	-0.1171252	-0.02629185	3.239744e-10	2.575954e-09
	-3.51725e-11	4.076265e-10	0.01535417	0.0003373116	3.239744e-10	2.575954e-09	-0.1172551	-0.02553351
1.2e+08	-0.1193728	-0.009058163	-1.910354e-10	-3.740137e-10	0.01480434	-0.001938148	7.831779e-11	4.372601e-10
	-1.910354e-10	-3.740137e-10	-0.1193311	-0.008221703	2.413655e-09	1.296866e-08	0.01490968	-0.001582912
	0.01480434	-0.001938148	2.413655e-09	1.296866e-08	-0.1192697	-0.008925959	6.492174e-10	2.730541e-09
	7.831779e-11	4.372601e-10	0.01490968	-0.001582912	6.492174e-10	2.730541e-09	-0.1192859	-0.008097183
1.3e+08	-0.1166535	0.007899903	-2.507039e-10	-3.273737e-10	0.01378452	-0.003643219	2.023282e-10	4.313807e-10
	-2.507039e-10	-3.273737e-10	-0.1164869	0.008765528	3.016028e-09	1.375412e-08	0.01394148	-0.00328781
	0.01378452	-0.003643219	3.016028e-09	1.375412e-08	-0.1165381	0.008032917	9.964537e-10	2.797778e-09
	2.023282e-10	4.313807e-10	0.01394148	-0.00328781	9.964537e-10	2.797778e-09	-0.1164273	0.008894945
1.4e+08	-0.1094065	0.02314342	-2.828836e-10	-2.555003e-10	0.01232506	-0.004987412	3.252112e-10	3.869794e-10
	-2.828836e-10	-2.555003e-10	-0.1091159	0.02399831	3.599579e-09	1.437455e-08	0.01253041	-0.004647933
	0.01232506	-0.004987412	3.599579e-09	1.437455e-08	-0.10928	0.02327389	1.341956e-09	2.767042e-09
	3.252112e-10	3.869794e-10	0.01253041	-0.004647933	1.341956e-09	2.767042e-09	-0.1090409	0.02412816
1.5e+08	-0.09831552	0.03551489	-2.765001e-10	-1.696472e-10	0.01054099	-0.005866834	4.354183e-10	3.045341e-10
	-2.765001e-10	-1.696472e-10	-0.09791433	0.03631952	4.112238e-09	1.483596e-08	0.01078626	-0.005558529
	0.01054099	-0.005866834	4.112238e-09	1.483596e-08	-0.09817992	0.03563934	1.658055e-09	2.635393e-09
	4.354183e-10	3.045341e-10	0.01078626	-0.005558529	1.658055e-09	2.635393e-09	-0.0978247	0.03644486
1.6e+08	-0.08434683	0.0440901	-2.270089e-10	-8.686923e-11	0.008570684	-0.006210082	5.212091e-10	1.881366e-10
	-2.270089e-10	-8.686923e-11	-0.08386107	0.04480927	4.504673e-09	1.516128e-08	0.00884249	-0.005945652
	0.008570684	-0.006210082	4.504673e-09	1.516128e-08	-0.0842055	0.0442054	1.913199e-09	2.406236e-09
	5.212091e-10	1.881366e-10	0.00884249	-0.005945652	1.913199e-09	2.406236e-09	-0.08375927	0.04492524
1.7e+08	-0.06867895	0.04824432	-1.378282e-10	-2.492803e-11	0.006568252	-0.005983905	5.723374e-10	4.540281e-11
	-1.378282e-10	-2.492803e-11	-0.06814572	0.04885102	4.735724e-09	1.538884e-08	0.006849129	-0.005771953
	0.006568252	-0.005983905	4.735724e-09	1.538884e-08	-0.06853647	0.04834824	2.074271e-09	2.093539e-09
	5.723374e-10	4.540281e-11	0.006849129	-0.005771953	2.074271e-09	2.093539e-09	-0.06803588	0.04895347
1.8e+08	-0.05261611	0.04769994	-1.98166e-11	1.592317e-12	0.004693971	-0.005197707	5.810537e-10	-1.131012e-10
	-1.98166e-11	1.592317e-12	-0.05208097	0.04817879	4.777024e-09	1.556915e-08	0.004963681	-0.005041456
	0.004693971	-0.005197707	4.777024e-09	1.556915e-08	-0.05247795	0.04779159	2.110621e-09	1.723696e-09
	5.810537e-10	-1.131012e-10	0.004963681	-0.005041456	2.110621e-09	1.723696e-09	-0.0519687	0.04826482
1.9e+08	-0.03749002	0.04255094	1.11187e-10	-1.558954e-11	0.003102575	-0.003905797	5.428817e-10	-2.74693e-10
	1.11187e-10	-1.558954e-11	-0.03700333	0.04290073	4.616356e-09	1.576052e-08	0.003339808	-0.003802238
	0.003102575	-0.003905797	4.616356e-09	1.576052e-08	-0.03736211	0.04263115	1.999413e-09	1.335526e-09
	5.428817e-10	-2.74693e-10	0.003339808	-0.003802238	1.999413e-09	1.335526e-09	-0.03689525	0.04296924
2e+08	-0.02455561	0.03326005	2.38095e-10	-7.705086e-11	0.00193004	-0.002206153	4.571164e-10	-4.255704e-10
	2.38095e-10	-7.705086e-11	-0.02416805	0.03349523	4.259416e-09	1.602375e-08	0.002114364	-0.002145744
	0.00193004	-0.002206153	4.259416e-09	1.602375e-08	-0.02444374	0.03333151	1.73124e-09	9.776059e-10
	4.571164e-10	-4.255704e-10	0.002114364	-0.002145744	1.73124e-09	9.776059e-10	-0.02407127	0.0335472
2.1e+08	-0.01488872	0.02062602	3.464343e-10	-1.764551e-10	0.001280168	-0.0002346964	3.270396e-10	-5.518801e-10
	3.464343e-10	-1.764551e-10	-0.01464642	0.02077672	3.729927e-09	1.64168e-08	0.00139405	-0.0002016683
	0.001280168	-0.0002346963	3.729927e-09	1.64168e-08	-0.01479794	0.02069328	1.314564e-09	7.028144e-10
	3.270396e-10	-5.518801e-10	0.00139405	-0.0002016683	1.314564e-09	7.028144e-10	-0.01456777	0.02081539
2.2e+08	-0.009295123	0.005721202	4.270691e-10	-3.032673e-10	0.001212875	0.001845293	1.598786e-10	-6.407925e-10
	4.270691e-10	-3.032673e-10	-0.009234769	0.005831614	3.068224e-09	1.698959e-08	0.001243581	0.001871995
	0.001212875	0.001845293	3.068224e-09	1.698959e-08	-0.009229171	0.005790385	7.77471e-10	5.607853e-10
	1.598786e-10	-6.407925e-10	0.001243581	0.001871995	7.77471e-10	5.607853e-10	-0.009180115	0.005862414
2.3e+08	-0.008240682	-0.01019709	4.768625e-10	-4.464039e-10	0.001736297	0.003857977	-3.346898e-11	-6.815637e-10
	4.768625e-10	-4.464039e-10	-0.008385208	-0.01007173	2.328539e-09	1.777959e-08	0.00167747	0.003903177
	0.001736297	0.003857977	2.328539e-09	1.777959e-08	-0.00820147	-0.01011868	1.657837e-10	5.898069e-10
	-3.346898e-11	-6.815637e-10	0.00167747	0.003903177	1.657837e-10	5.898069e-10	-0.008358757	-0.01004156
2.4e+08	-0.01181097	-0.02579364	4.970977e-10	-5.974253e-10	0.002804454	0.005632308	-2.389617e-10	-6.665749e-10
	4.970977e-10	-5.974253e-10	-0.0121663	-0.02559152	1.575252e-09	1.880812e-08	0.0026572	0.005722612
	0.002804454	0.005632308	1.575252e-09	1.880812e-08	-0.01179825	-0.02569808	-4.624811e-10	8.101039e-10
	-2.389617e-10	-6.665749e-10	0.0026572	0.005722612	-4.624811e-10	8.101039e-10	-0.01217002	-0.02555341
2.5e+08	-0.01970568	-0.0397705	4.903747e-10	-7.519954e-10	0.004321326	0.007019491	-4.402479e-10	-5.923047e-10
	4.903747e-10	-7.519954e-10	-0.02025894	-0.03942857	8.782802e-10	2.007773e-08	0.004094665	0.007181005
	0.004321326	0.007019491	8.782802e-10	2.007773e-08	-0.01971685	-0.03964993	-1.045242e-09	1.220249e-09
	-4.402479e-10	-5.923047e-10	0.004094665	0.007181005	-1.045242e-09	1.220249e-09	-0.02029218	-0.03937339
2.6e+08	-0.03126872	-0.050978	4.573466e-10	-9.090198e-10	0.006150949	0.007907923	-6.198573e-10	-4.601214e-10
	4.573466e-10	-9.090198e-10	-0.03198822	-0.05043782	3.077976e-10	2.157075e-08	0.005861559	0.008163875
	0.006150949	0.007907923	3.077976e-10	2.157075e-08	-0.03129891	-0.05082531	-1.525166e-09	1.7976e-09
	-6.198573e-10	-4.601214e-10	0.005861559	0.008163875	-1.525166e-09	1.7976e-09	-0.03204755	-0.05035668
2.7e+08	-0.04555055	-0.05851013	3.947826e-10	-1.067812e-09	0.008132003	0.008233406	-7.607305e-10	-2.767141e-10
	3.947826e-10	-1.067812e-09	-0.04638751	-0.05772347	-7.153871e-11	2.324921e-08	0.007803244	0.008601892
	0.008132003	0.008233406	-7.153871e-11	2.324921e-08	-0.0455928	-0.05831961	-1.857079e-09	2.502506e-09
	-7.607305e-10	-2.767141e-10	0.007803244	0.008601892	-1.857079e-09	2.502506e-09	-0.04646687	-0.05760856
2.8e+08	-0.06139489	-0.06177481	2.959263e-10	-1.224491e-09	0.01009453	0.007983407	-8.479533e-10	-5.398483e-11
	2.959263e-10	-1.224491e-09	-0.06228693	-0.06070862	-2.065077e-10	2.50564e-08	0.009754813	0.008475485
	0.01009453	0.007983407	-2.065077e-10	2.50564e-08	-0.06144063	-0.06154276	-2.0124e-09	3.284938e-09
	-8.479533e-10	-5.398483e-11	0.009754813	0.008475485	-2.0124e-09	3.284938e-09	-0.06237797	-0.06055403
2.9e+08	-0.07753992	-0.0605338	1.532453e-10	-1.369153e-09	0.01187628	0.007195346	-8.704528e-10	1.916996e-10
	1.532453e-10	-1.369153e-09	-0.07841591	-0.0591739	-6.090434e-11	2.692021e-08	0.0115569	0.00781366
	0.01187628	0.007195346	-6.090435e-11	2.692021e-08	-0.07757953	-0.06025897	-1.980039e-09	4.091681e-09
	-8.704528e-10	1.916996e-10	0.0115569	0.00781366	-1.980039e-09	4.091681e-09	-0.07850863	-0.05897624
3e+08	-0.09272327	-0.05491057	-3.727883e-11	-1.485166e-09	0.0133366	0.005949924	-8.22379e-10	4.408586e-10
	-3.727883e-11	-1.485166e-09	-0.09350911	-0.05326383	3.798421e-10	2.875827e-08	0.01306923	0.006687997
	0.0133366	0.005949924	3.798421e-10	2.875827e-08	-0.09274682	-0.05459446	-1.764256e-09	4.872266e-09
	-8.22379e-10	4.408586e-10	0.01306923	0.006687997	-1.764256e-09	4.872266e-09	-0.09359262	-0.05302271
3.1e+08	-0.105781	-0.04536863	-2.747776e-10	-1.546723e-09	0.01436656	0.004361161	-7.038804e-10	6.726422e-10
	-2.747776e-10	-1.546723e-09	-0.1064059	-0.04346333	1.104619e-09	3.048576e-08	0.01418055	0.005203459
	0.01436656	0.004361161	1.104619e-09	3.048576e-08	-0.1057791	-0.04501556	-1.383836e-09	5.587069e-09
	-7.038804e-10	6.726422e-10	0.01418055	0.005203459	-1.383836e-09	5.587069e-09	-0.1064693	-0.04318151
3.2e+08	-0.1157335	-0.03266495	-5.425384e-10	-1.524666e-09	0.01489502	0.002564963	-5.213735e-10	8.667616e-10
	-5.425384e-10	-1.524666e-09	-0.1161359	-0.03054934	2.078067e-09	3.202265e-08	0.01481481	0.003487722
	0.01489502	0.002564963	2.078067e-09	3.202265e-08	-0.1156978	-0.03228188	-8.599824e-10	6.206925e-09
	-5.213735e-10	8.667616e-10	0.01481481	0.003487722	-8.599824e-10	6.206925e-09	-0.1161693	-0.0302327
3.3e+08	-0.1218522	-0.01778466	-8.051987e-10	-1.412631e-09	0.01489088	0.0007076818	-2.872657e-10	1.005574e-09
	-8.051987e-10	-1.412631e-09	-0.1219856	-0.01552379	3.24357e-09	3.329612e-08	0.01493376	0.001680474
	0.01489088	0.0007076818	3.24357e-09	3.329612e-08	-0.1217766	-0.0173808	-2.110231e-10	6.691707e-09
	-2.872657e-10	1.005574e-09	0.01493376	0.001680474	-2.110231e-10	6.691707e-09	-0.121981	-0.01518102
3.4e+08	-0.1237068	-0.001863371	-1.028323e-09	-1.208823e-09	0.01436265	-0.00106435	-1.861501e-11	1.075515e-09
	-1.028323e-09	-1.208823e-09	-0.1235441	0.0004654699	4.521607e-09	3.425389e-08	0.0145369	-7.643396e-05
	0.01436265	-0.00106435	4.521607e-09	3.425389e-08	-0.1235878	-0.001449625	5.316619e-10	7.012911e-09
	-1.861501e-11	1.075515e-09	0.0145369	-7.643396e-05	5.316619e-10	7.012911e-09	-0.1234959	0.0008234811
3.5e+08	-0.1211895	0.01389722	-1.175947e-09	-9.262822e-10	0.01335581	-0.002613994	2.641465e-10	1.068364e-09
	-1.175947e-09	-9.262822e-10	-0.120726	0.01621022	5.81848e-09	3.486829e-08	0.01365962	-0.001647693
	0.01335581	-0.002613994	5.81848e-09	3.486829e-08	-0.1210264	0.01430896	1.33088e-09	7.146322e-09
	2.641465e-10	1.068364e-09	0.01365962	-0.001647693	1.33088e-09	7.146322e-09	-0.120632	0.01657119
3.6e+08	-0.1145183	0.02831534	-1.217554e-09	-5.933252e-10	0.01194902	-0.003821243	5.388851e-10	9.819726e-10
	-1.217554e-09	-5.933252e-10	-0.1137733	0.03052872	7.034158e-09	3.514006e-08	0.01237013	-0.002912203
	0.01194902	-0.003821243	7.034158e-09	3.514006e-08	-0.114314	0.02871314	2.142047e-09	7.073205e-09
	5.388851e-10	9.819726e-10	0.01237013	-0.002912203	2.142047e-09	7.073205e-09	-0.1136347	0.03087985
3.7e+08	-0.1042195	0.04031275	-1.134889e-09	-2.506063e-10	0.0102492	-0.004590221	7.835443e-10	8.204906e-10
	-1.134889e-09	-2.506063e-10	-0.103236	0.04234954	8.071076e-09	3.509948e-08	0.01076535	-0.003770023
	0.0102492	-0.004590221	8.071076e-09	3.509948e-08	-0.1039804	0.04068557	2.912128e-09	6.783498e-09
	7.835443e-10	8.204906e-10	0.01076535	-0.003770023	2.912128e-09	6.783498e-09	-0.1030578	0.04267858
3.8e+08	-0.09109128	0.04899175	-9.269743e-10	5.49089e-11	0.008385507	-0.004855435	9.778958e-10	5.940959e-10
	-9.269743e-10	5.49089e-11	-0.08993353	0.05078837	8.842969e-09	3.480478e-08	0.008965788	-0.004148809
	0.008385507	-0.004855435	8.842969e-09	3.480478e-08	-0.09082653	0.0493304	3.580416e-09	6.280555e-09
	9.778958e-10	5.940959e-10	0.008965788	-0.004148809	3.580416e-09	6.280555e-09	-0.08972403	0.05108461
3.9e+08	-0.07614736	0.05370156	-6.119529e-10	2.779371e-10	0.006501875	-0.004587195	1.105127e-09	3.182509e-10
	-6.119529e-10	2.779371e-10	-0.07489687	0.0552138	9.282823e-09	3.433775e-08	0.007108817	-0.004009651
	0.006501875	-0.004587195	9.282823e-09	3.433775e-08	-0.07586884	0.05399958	4.082158e-09	5.586278e-09
	1.105127e-09	3.182509e-10	0.007108817	-0.004009651	4.082158e-09	5.586278e-09	-0.07466739	0.05546905
4e+08	-0.06054581	0.05408987	-2.250295e-10	3.831323e-10	0.004747801	-0.00379571	1.153137e-09	1.256504e-11
	-2.250295e-10	3.831323e-10	-0.05929555	0.05529753	9.349128e-09	3.379729e-08	0.005340117	-0.0033518
	0.004747801	-0.00379571	9.349128e-09	3.379729e-08	-0.06026708	0.05434422	4.355286e-09	4.744971e-09
	1.153137e-09	1.256504e-11	0.005340117	-0.0033518	4.355286e-09	4.744971e-09	-0.05905962	0.05550697
4.1e+08	-0.04550389	0.05013487	1.872823e-10	3.516493e-10	0.003267408	-0.002533012	1.115448e-09	-3.006171e-10
	1.872823e-10	3.516493e-10	-0.04435119	0.05104477	9.029826e-09	3.329128e-08	0.003803197	-0.002215413
	0.003267408	-0.002533012	9.029826e-09	3.329128e-08	-0.04523923	0.0503464	4.349637e-09	3.824144e-09
	1.115448e-09	-3.006171e-10	0.003803197	-0.002215413	4.349637e-09	3.824144e-09	-0.04412358	0.05120753
4.2e+08	-0.03220482	0.04215359	5.75408e-10	1.843229e-10	0.00218723	-0.0008916951	9.917033e-10	-5.977611e-10
	5.75408e-10	1.843229e-10	-0.03124352	0.04280048	8.343688e-09	3.292787e-08	0.002627406	-0.0006812233
	0.00218723	-0.0008916951	8.343688e-09	3.292787e-08	-0.0319681	0.04232722	4.036977e-09	2.910864e-09
	9.917033e-10	-5.977611e-10	0.002627406	-0.0006812233	4.036977e-09	2.910864e-09	-0.03103901	0.04291995
4.3e+08	-0.02170298	0.03078354	8.954595e-10	-9.942956e-11	0.001603887	0.001000378	7.877825e-10	-8.556983e-10
	8.954595e-10	-9.942956e-11	-0.02101531	0.03122866	7.339166e-09	3.280694e-08	0.001915548	0.001133751
	0.001603886	0.001000378	7.339166e-09	3.280694e-08	-0.0215065	0.03092809	3.419475e-09	2.103296e-09
	7.877825e-10	-8.556983e-10	0.001915548	0.001133751	3.419475e-09	2.103296e-09	-0.02084751	0.0313125
4.4e+08	-0.01483584	0.01693672	1.116218e-09	-4.666952e-10	0.001573262	0.002989727	5.156075e-10	-1.053133e-09
	1.116218e-09	-4.666952e-10	-0.01448487	0.017264	6.091049e-09	3.301232e-08	0.001732707	0.003084893
	0.001573262	0.002989727	6.091049e-09	3.301232e-08	-0.01468919	0.0170644	2.534147e-09	1.498348e-09
	5.156075e-10	-1.053133e-09	0.001732707	0.003084893	2.534147e-09	1.498348e-09	-0.01436496	0.01732367
4.5e+08	-0.01215152	0.001728098	1.222533e-09	-8.786284e-10	0.002103043	0.004910761	1.926845e-10	-1.172109e-09
	1.222533e-09	-8.786284e-10	-0.01217484	0.002038064	4.69535e-09	3.36053e-08	0.002098159	0.005012646
	0.002103043	0.004910761	4.69535e-09	3.36053e-08	-0.01206066	0.001853649	1.451478e-09	1.177702e-09
	1.926845e-10	-1.172109e-09	0.002098159	0.005012646	1.451478e-09	1.177702e-09	-0.01211048	0.00208807
4.6e+08	-0.0138601	-0.01361602	1.214428e-09	-1.298179e-09	0.003150221	0.00660175	-1.586517e-10	-1.19947e-09
	1.214428e-09	-1.298179e-09	-0.0142655	-0.01321404	3.262847e-09	3.461962e-08	0.002981986	0.006757842
	0.003150221	0.00660175	3.262847e-09	3.461962e-08	-0.0138267	-0.0134764	2.678096e-10	1.195286e-09
	-1.586517e-10	-1.19947e-09	0.002981986	0.006757842	2.678096e-10	1.195286e-09	-0.01426	-0.01315723
4.7e+08	-0.01981496	-0.02786114	1.10265e-09	-1.695645e-09	0.00462441	0.007921135	-5.123969e-10	-1.128272e-09
	1.10265e-09	-1.695645e-09	-0.02057852	-0.02725798	1.911596e-09	3.605809e-08	0.004307351	0.008177644
	0.00462441	0.007921135	1.911596e-09	3.605809e-08	-0.01983605	-0.02769108	-9.071656e-10	1.569148e-09
	-5.123969e-10	-1.128272e-09	0.004307351	0.008177644	-9.071656e-10	1.569148e-09	-0.02063037	-0.02717727
4.8e+08	-0.0295265	-0.03986883	9.025931e-10	-2.050574e-09	0.006396824	0.008761802	-8.405641e-10	-9.590199e-10
