!$
! Info: Touchstone file created by Circ.  Input file=Tx_16in_Rx_93ohms_TxVia_10mils_RxVia_20mils.circ
!$
# Hz S RI R 50
0	0.01458561	1.05786e-25	3.184634e-09	6.227579e-27	9.644726e-05	1.489635e-23	-3.485392e-09	4.602139e-25
	3.184626e-09	6.227702e-27	0.0145852	1.378952e-25	-3.252743e-09	4.462418e-25	9.590697e-05	2.077018e-23
	9.872018e-05	1.493059e-23	-3.250842e-09	4.460067e-25	0.01457772	9.24455e-26	1.260278e-08	2.581985e-29
	-3.4827e-09	4.598826e-25	9.736093e-05	2.137749e-23	1.260287e-08	2.566373e-29	0.01459073	1.314653e-25
1e+07	0.02098617	-0.002963065	5.562287e-09	7.283863e-09	0.0006664306	0.002772449	1.882239e-08	5.2818e-08
	5.562288e-09	7.283864e-09	0.02097852	-0.002964644	-5.178403e-10	5.784977e-08	0.0006616475	0.002774168
	0.0006664796	0.002772422	-5.178401e-10	5.784977e-08	0.02056678	-0.002949652	-6.29721e-09	4.527952e-08
	1.882239e-08	5.2818e-08	0.0006616808	0.002774156	-6.29721e-09	4.527952e-08	0.02055922	-0.002951324
2e+07	0.02295969	-0.01142654	9.494946e-09	1.152556e-08	0.001903428	0.005311902	5.039733e-08	5.970126e-08
	9.494945e-09	1.152556e-08	0.02293032	-0.01142322	2.491551e-09	8.01529e-08	0.001885912	0.005320267
	0.00190342	0.005311876	2.491551e-09	8.01529e-08	0.02265946	-0.01127172	2.282525e-09	4.429018e-08
	5.039733e-08	5.970126e-08	0.00188591	0.005320245	2.282524e-09	4.429018e-08	0.02263097	-0.01126815
3e+07	0.02073796	-0.02099228	1.385177e-08	1.366307e-08	0.003918545	0.00715318	9.100403e-08	4.872534e-08
	1.385177e-08	1.366307e-08	0.02067641	-0.02097108	8.473837e-09	1.063302e-07	0.003883397	0.00717619
	0.003918545	0.007153176	8.473837e-09	1.063302e-07	0.02052281	-0.02081345	1.193123e-08	4.652213e-08
	9.100403e-08	4.872534e-08	0.003883392	0.007176187	1.193123e-08	4.652213e-08	0.02046456	-0.02079295
4e+07	0.01520582	-0.02954897	1.7715e-08	1.3544e-08	0.006428654	0.008177961	1.251488e-07	1.882976e-08
	1.7715e-08	1.3544e-08	0.01510843	-0.02949276	1.227462e-08	1.320146e-07	0.006374976	0.008225396
	0.006428658	0.008177957	1.227462e-08	1.320146e-07	0.01505162	-0.02937974	2.152997e-08	4.409668e-08
	1.251488e-07	1.882976e-08	0.006374976	0.008225397	2.152997e-08	4.409668e-08	0.01495899	-0.0293265
5e+07	0.00720163	-0.0360342	2.018791e-08	1.149177e-08	0.009079673	0.008347725	1.467112e-07	-2.640616e-08
	2.018791e-08	1.149177e-08	0.007072694	-0.03592499	1.432951e-08	1.584915e-07	0.009011157	0.008429445
	0.009079675	0.008347723	1.432951e-08	1.584915e-07	0.007085299	-0.03588857	2.858353e-08	3.678161e-08
	1.467112e-07	-2.640616e-08	0.009011157	0.008429445	2.858353e-08	3.678161e-08	0.006962312	-0.03578449
6e+07	-0.002329577	-0.0398081	2.050116e-08	8.132633e-09	0.01159799	0.007674332	1.500285e-07	-8.219487e-08
	2.050116e-08	8.132633e-09	-0.002477959	-0.03963038	1.563288e-08	1.861869e-07	0.01152262	0.007798299
	0.01159799	0.007674333	1.563288e-08	1.861869e-07	-0.002427495	-0.0396888	3.106808e-08	2.639695e-08
	1.500285e-07	-8.219487e-08	0.01152262	0.0077983	3.106808e-08	2.639695e-08	-0.002568628	-0.03951917
7e+07	-0.01238141	-0.04059163	1.813095e-08	4.373111e-09	0.01372906	0.006253478	1.308898e-07	-1.414099e-07
	1.813095e-08	4.37311e-09	-0.01253079	-0.04033547	1.703571e-08	2.150773e-07	0.01365812	0.006424126
	0.01372906	0.006253482	1.703571e-08	2.150773e-07	-0.01247571	-0.04049483	2.805048e-08	1.557243e-08
	1.308898e-07	-1.414099e-07	0.01365811	0.006424129	2.805048e-08	1.557243e-08	-0.01261758	-0.04025077
8e+07	-0.02196723	-0.03844088	1.291476e-08	1.313512e-09	0.01526377	0.00425395	8.78705e-08	-1.951811e-07
	1.291476e-08	1.313511e-09	-0.02209541	-0.0381042	1.925512e-08	2.448716e-07	0.01521025	0.004471044
	0.01526377	0.004253955	1.925512e-08	2.448716e-07	-0.02206797	-0.03835913	1.986107e-08	6.988774e-09
	8.78705e-08	-1.951811e-07	0.01521025	0.004471048	1.986107e-08	6.988773e-09	-0.02219017	-0.03803847
9e+07	-0.03020351	-0.03371016	5.127961e-09	1.017264e-10	0.01605858	0.001898699	2.306688e-08	-2.341591e-07
	5.127961e-09	1.017247e-10	-0.03028776	-0.03329985	2.276629e-08	2.751616e-07	0.01603536	0.002156821
	0.01605858	0.001898703	2.276629e-08	2.751616e-07	-0.0303165	-0.03363444	7.917529e-09	2.815883e-09
	2.306688e-08	-2.341591e-07	0.01603536	0.002156825	7.917529e-09	2.815883e-09	-0.03039768	-0.03324269
1e+08	-0.03636344	-0.02699694	-4.508063e-09	1.757362e-09	0.0160473	-0.0005596079	-5.781535e-08	-2.499745e-07
	-4.508063e-09	1.757362e-09	-0.03638399	-0.02652878	2.783415e-08	3.052734e-07	0.01606514	-0.0002708775
	0.0160473	-0.000559608	2.783415e-08	3.052734e-07	-0.03649409	-0.02691833	-5.648545e-09	4.30906e-09
	-5.781535e-08	-2.499745e-07	0.01606514	-0.0002708777	-5.648545e-09	4.30906e-09	-0.0365146	-0.02646935
1.1e+08	-0.04005988	-0.01919702	-1.487748e-08	6.971178e-09	0.01524645	-0.002857427	-1.448881e-07	-2.38445e-07
	-1.487748e-08	6.971178e-09	-0.04000342	-0.01869266	3.236352e-08	3.363053e-07	0.01531173	-0.002552955
	0.01524645	-0.002857427	3.236352e-08	3.363053e-07	-0.04019995	-0.01909149	-1.941426e-08	1.150324e-08
	-1.448881e-07	-2.38445e-07	0.01531173	-0.002552955	-1.941426e-08	1.150324e-08	-0.04014623	-0.01860707
1.2e+08	-0.04115733	-0.01098526	-2.46455e-08	1.598974e-08	0.01375851	-0.004760906	-2.295586e-07	-1.960176e-07
	-2.46455e-08	1.598974e-08	-0.04101841	-0.0104733	3.791482e-08	3.663716e-07	0.01387266	-0.004457482
	0.01375851	-0.004760906	3.791482e-08	3.663716e-07	-0.04128773	-0.01085273	-3.236396e-08	2.373579e-08
	-2.295586e-07	-1.960176e-07	0.01387266	-0.004457482	-3.236396e-08	2.373579e-08	-0.04115431	-0.01036098
1.3e+08	-0.03967518	-0.003200155	-3.243194e-08	2.857423e-08	0.01174606	-0.006079879	-3.007748e-07	-1.235973e-07
	-3.243194e-08	2.857423e-08	-0.03945916	-0.002710786	4.412186e-08	3.950939e-07	0.01190421	-0.005794791
	0.01174606	-0.006079879	4.412186e-08	3.950939e-07	-0.0397834	-0.003046482	-4.267989e-08	4.069011e-08
	-3.007748e-07	-1.235973e-07	0.01190421	-0.005794791	-4.267989e-08	4.069011e-08	-0.03957561	-0.002576812
1.4e+08	-0.03592075	0.003388276	-3.697365e-08	4.399146e-08	0.00942162	-0.006684676	-3.479608e-07	-2.601279e-08
	-3.697365e-08	4.399146e-08	-0.03564394	0.003827257	5.049233e-08	4.222708e-07	0.009612637	-0.006433367
	0.009421621	-0.006684676	5.049233e-08	4.222708e-07	-0.03599848	0.003553296	-4.869441e-08	6.140334e-08
	-3.479608e-07	-2.601279e-08	0.009612637	-0.006433367	-4.869441e-08	6.140334e-08	-0.03573236	0.003974041
1.5e+08	-0.03042392	0.008158057	-3.729996e-08	6.1075e-08	0.007025942	-0.006518315	-3.623951e-07	8.824586e-08
	-3.729996e-08	6.1075e-08	-0.03011247	0.008525064	5.648358e-08	4.479004e-07	0.007233236	-0.006312164
	0.007025942	-0.006518315	5.648358e-08	4.479004e-07	-0.03046756	0.008322327	-4.911734e-08	8.434144e-08
	-3.623951e-07	8.824586e-08	0.007233236	-0.006312164	-4.911734e-08	8.434144e-08	-0.03016853	0.008673521
1.6e+08	-0.02387433	0.01069306	-3.287424e-08	7.834561e-08	0.00480447	-0.00560138	-3.384497e-07	2.077506e-07
	-3.287424e-08	7.834561e-08	-0.02356175	0.01097602	6.158151e-08	4.721798e-07	0.00500756	-0.005445846
	0.00480447	-0.00560138	6.158151e-08	4.721798e-07	-0.02388522	0.01084396	-4.32236e-08	1.075509e-07
	-3.384497e-07	2.077506e-07	0.00500756	-0.005445846	-4.32236e-08	1.075509e-07	-0.02358564	0.01111424
1.7e+08	-0.01704702	0.01081881	-2.368535e-08	9.417393e-08	0.00298337	-0.004029713	-2.745528e-07	3.192701e-07
	-2.368535e-08	9.417393e-08	-0.01677072	0.01101752	6.53695e-08	4.954769e-07	0.003160033	-0.003923077
	0.00298337	-0.004029713	6.53695e-08	4.954769e-07	-0.01703115	0.01094492	-3.097961e-08	1.288683e-07
	-2.745528e-07	3.192701e-07	0.003160033	-0.003923077	-3.097961e-08	1.288683e-07	-0.01676697	0.01113438
1.8e+08	-0.0107222	0.008613772	-1.027909e-08	1.069648e-07	0.001747148	-0.001964961	-1.737384e-07	4.092149e-07
	-1.027909e-08	1.069648e-07	-0.01051926	0.008741035	6.757782e-08	5.182816e-07	0.001875957	-0.001897853
	0.001747148	-0.001964961	6.757782e-08	5.182816e-07	-0.01068946	0.008706411	-1.30932e-08	1.461627e-07
	-1.737384e-07	4.092149e-07	0.001875957	-0.001897853	-1.30932e-08	1.461627e-07	-0.01049617	0.008827587
1.9e+08	-0.005606292	0.004395562	6.272423e-09	1.153426e-07	0.001219977	0.0003814668	-4.368248e-08	4.652448e-07
	6.272424e-09	1.153426e-07	-0.00550898	0.00447683	6.811063e-08	5.411484e-07	0.001282926	0.0004256572
	0.001219977	0.0003814668	6.811063e-08	5.411484e-07	-0.005569213	0.004449945	9.019131e-09	1.575849e-07
	-4.368248e-08	4.652448e-07	0.001282926	0.0004256573	9.019131e-09	1.575849e-07	-0.005477636	0.004527418
2e+08	-0.002261797	-0.001316481	2.445889e-08	1.183176e-07	0.001452735	0.002769778	1.038252e-07	4.778547e-07
	2.445889e-08	1.183176e-07	-0.002293289	-0.001245021	6.70533e-08	5.646393e-07	0.001437668	0.002813596
	0.001452735	0.002769778	6.70533e-08	5.646393e-07	-0.00223407	-0.001300583	3.334513e-08	1.617971e-07
	1.038252e-07	4.778547e-07	0.001437668	0.002813596	3.334513e-08	1.617971e-07	-0.002266247	-0.001232005
2.1e+08	-0.001052739	-0.00785847	4.246911e-08	1.154201e-07	0.002417441	0.004956546	2.539516e-07	4.417385e-07
	4.246911e-08	1.154201e-07	-0.001223609	-0.007753218	6.466475e-08	5.89271e-07	0.002319965	0.005026368
	0.002417441	0.004956546	6.466475e-08	5.89271e-07	-0.001047578	-0.00787659	5.74606e-08	1.581586e-07
	2.539516e-07	4.417385e-07	0.002319965	0.005026368	5.74606e-08	1.581586e-07	-0.001213471	-0.00777506
2.2e+08	-0.002111264	-0.01449299	5.836619e-08	1.067872e-07	0.004010005	0.006720249	3.90343e-07	3.567413e-07
	5.836619e-08	1.067872e-07	-0.002417205	-0.01430739	6.135953e-08	6.154675e-07	0.003834643	0.006843567
	0.004010005	0.006720249	6.135953e-08	6.154675e-07	-0.002139838	-0.01453638	7.876885e-08	1.468479e-07
	3.90343e-07	3.567413e-07	0.003834643	0.006843567	7.876885e-08	1.468479e-07	-0.002435152	-0.01435727
2.3e+08	-0.005328595	-0.02048648	7.02878e-08	9.319505e-08	0.006061287	0.007884687	4.969352e-07	2.282511e-07
	7.02878e-08	9.319505e-08	-0.005749722	-0.02017614	5.768044e-08	6.435161e-07	0.005821682	0.008087079
	0.006061287	0.007884687	5.768044e-08	6.435161e-07	-0.005398691	-0.02054302	9.477562e-08	1.289053e-07
	4.969352e-07	2.282511e-07	0.005821682	0.008087079	9.477562e-08	1.289053e-07	-0.005804212	-0.02024381
2.4e+08	-0.010371	-0.02518476	7.665546e-08	7.602622e-08	0.008355336	0.008337508	5.598423e-07	6.694614e-08
	7.665546e-08	7.602622e-08	-0.01087292	-0.02471269	5.42595e-08	6.735281e-07	0.008073414	0.008639608
	0.008355336	0.008337508	5.42595e-08	6.735281e-07	-0.01048606	-0.02524028	1.033744e-07	1.061846e-07
	5.598423e-07	6.694614e-08	0.008073414	0.008639608	1.033744e-07	1.061846e-07	-0.01096868	-0.02478558
2.5e+08	-0.01671859	-0.02807891	7.637341e-08	5.716875e-08	0.0106527	0.008041618	5.690891e-07	-1.121012e-07
	7.637341e-08	5.716875e-08	-0.01725523	-0.02742022	5.176411e-08	7.054052e-07	0.01035683	0.008456444
	0.0106527	0.008041618	5.176411e-08	7.054052e-07	-0.01687725	-0.02811868	1.031125e-07	8.120992e-08
	5.690891e-07	-1.121012e-07	0.01035683	0.008456444	1.031125e-07	8.120992e-08	-0.01739268	-0.02748473
2.6e+08	-0.02372245	-0.02885464	6.899328e-08	3.884832e-08	0.012716	0.007038206	5.199718e-07	-2.9088e-07
	6.899328e-08	3.884832e-08	-0.02424039	-0.0280002	5.082719e-08	7.388232e-07	0.01243834	0.007569179
	0.012716	0.007038206	5.082719e-08	7.388232e-07	-0.02391856	-0.02886502	9.340608e-08	5.694427e-08
	5.199718e-07	-2.9088e-07	0.01243834	0.007569179	9.340608e-08	5.694427e-08	-0.02441549	-0.0280432
2.7e+08	-0.03067344	-0.02742059	5.482175e-08	2.340286e-08	0.01433482	0.005441236	4.138689e-07	-4.502984e-07
	5.482175e-08	2.340286e-08	-0.03111735	-0.02637906	5.196631e-08	7.732392e-07	0.01410799	0.006081148
	0.01433482	0.005441236	5.196631e-08	7.732392e-07	-0.03089668	-0.02739058	7.467259e-08	3.648718e-08
	4.138689e-07	-4.502984e-07	0.01410799	0.006081148	7.467259e-08	3.648718e-08	-0.031322	-0.02638936
2.8e+08	-0.03687544	-0.0239135	3.494557e-08	1.302167e-08	0.01534704	0.003424341	2.584001e-07	-5.722343e-07
	3.494557e-08	1.302167e-08	-0.03719403	-0.02271155	5.550215e-08	8.079327e-07	0.01520062	0.004155456
	0.01534704	0.003424341	5.550215e-08	8.079327e-07	-0.0371124	-0.02383596	4.835582e-08	2.273139e-08
	2.584001e-07	-5.722343e-07	0.01520062	0.004155456	4.835582e-08	2.273139e-08	-0.03741693	-0.02268111
2.9e+08	-0.0417155	-0.01868033	1.11641e-08	9.47937e-09	0.01565452	0.001201912	6.690119e-08	-6.415546e-07
	1.11641e-08	9.47937e-09	-0.04186739	-0.01736081	6.149263e-08	8.420801e-07	0.01561164	0.00199723
	0.01565452	0.001201912	6.149263e-08	8.420801e-07	-0.04195107	-0.01855279	1.683052e-08	1.801864e-08
	6.690119e-08	-6.415546e-07	0.01561164	0.00199723	1.683052e-08	1.801864e-08	-0.04209518	-0.01728562
3e+08	-0.044724	-0.01223995	-1.417227e-08	1.390054e-08	0.01523183	-0.000993354	-1.427373e-07	-6.478814e-07
	-1.417227e-08	1.390054e-08	-0.04468275	-0.01085823	6.969851e-08	8.748563e-07	0.0153063	-0.0001677343
	0.01523183	-0.000993354	6.969851e-08	8.748563e-07	-0.04494296	-0.01206494	-1.681086e-08	2.383866e-08
	-1.427373e-07	-6.478814e-07	0.0153063	-0.0001677343	-1.681086e-08	2.383866e-08	-0.04490144	-0.01073871
3.1e+08	-0.04561946	-0.005228795	-3.840302e-08	2.658994e-08	0.01412749	-0.002934019	-3.497544e-07	-5.869165e-07
	-3.840302e-08	2.658994e-08	-0.04537732	-0.003847502	7.95921e-08	9.055478e-07	0.01432176	-0.002115661
	0.01412749	-0.002934019	7.95921e-08	9.055478e-07	-0.0458081	-0.005013625	-4.906905e-08	4.061271e-08
	-3.497544e-07	-5.869165e-07	0.01432176	-0.002115661	-4.906905e-08	4.061271e-08	-0.04557371	-0.003688549
3.2e+08	-0.04433409	0.001663866	-5.88491e-08	4.695551e-08	0.01245806	-0.004420305	-5.325659e-07	-4.611806e-07
	-5.88491e-08	4.695551e-08	-0.04390386	0.002981143	9.041175e-08	9.336561e-07	0.01276236	-0.003646628
	0.01245806	-0.004420305	9.041175e-08	9.336561e-07	-0.04448168	0.001907794	-7.64116e-08	6.759345e-08
	-5.325659e-07	-4.611806e-07	0.01276236	-0.003646628	-7.64116e-08	6.759345e-08	-0.04406695	0.003170648
3.3e+08	-0.04101834	0.007764762	-7.31177e-08	7.353759e-08	0.01039589	-0.005299389	-6.709791e-07	-2.800788e-07
	-7.31177e-08	7.353759e-08	-0.04043309	0.00896019	1.012547e-07	9.589735e-07	0.01078858	-0.004603686
	0.01039589	-0.005299389	1.012547e-07	9.589735e-07	-0.04111829	0.008023095	-9.566423e-08	1.02897e-07
	-6.709791e-07	-2.800788e-07	0.01078858	-0.004603686	-9.566423e-08	1.02897e-07	-0.04055523	0.009168271
3.4e+08	-0.03602413	0.01248309	-7.938069e-08	1.041419e-07	0.008151812	-0.005480004	-7.483632e-07	-5.926261e-08
	-7.938069e-08	1.041419e-07	-0.03533481	0.01351104	1.111919e-07	9.816148e-07	0.008601098	-0.004887711
	0.008151812	-0.005480004	1.111919e-07	9.816148e-07	-0.03607477	0.01273999	-1.043729e-07	1.436657e-07
	-7.483632e-07	-5.926261e-08	0.008601098	-0.004887711	-1.043729e-07	1.436657e-07	-0.03541254	0.01372383
3.5e+08	-0.02986884	0.01536844	-7.659175e-08	1.360593e-07	0.005954348	-0.004941189	-7.53559e-07	1.80681e-07
	-7.659175e-08	1.360593e-07	-0.02913982	0.01620095	1.193844e-07	1.002003e-06	0.006421081	-0.004466812
	0.005954348	-0.004941189	1.193844e-07	1.002003e-06	-0.02987367	0.0156082	-1.010932e-07	1.86343e-07
	-7.53559e-07	1.80681e-07	0.006421081	-0.004466812	-1.010932e-07	1.86343e-07	-0.02917426	0.01640411
3.6e+08	-0.02318328	0.01615476	-6.461773e-08	1.663436e-07	0.004027187	-0.003734414	-6.823252e-07	4.161174e-07
	-6.461773e-08	1.663436e-07	-0.02248624	0.01678537	1.251816e-07	1.020815e-06	0.004468618	-0.003379472
	0.004027187	-0.003734414	1.251816e-07	1.020815e-06	-0.02315073	0.01636349	-8.557625e-08	2.270283e-07
	-6.823252e-07	4.161174e-07	0.004468618	-0.003379472	-8.557625e-08	2.270283e-07	-0.02248306	0.01696559
3.7e+08	-0.01664871	0.01478624	-4.427262e-08	1.921147e-07	0.002566887	-0.001978777	-5.381444e-07	6.226751e-07
	-4.427262e-08	1.921147e-07	-0.01605546	0.0152318	1.281874e-07	1.038896e-06	0.002940961	-0.001731013
	0.002566887	-0.001978777	1.281874e-07	1.038896e-06	-0.01659131	0.01495334	-5.88302e-08	2.618738e-07
	-5.381444e-07	6.226751e-07	0.002940961	-0.001731013	-5.88302e-08	2.618738e-07	-0.01602436	0.01537817
3.8e+08	-0.01092879	0.01142236	-1.725507e-08	2.108537e-07	0.001722899	0.0001505386	-3.322614e-07	7.777663e-07
	-1.725507e-08	2.108537e-07	-0.01050376	0.01172237	1.282921e-07	1.057167e-06	0.001992664	0.000316528
	0.001722899	0.0001505386	1.282921e-07	1.057167e-06	-0.01086199	0.01154175	-2.305557e-08	2.874806e-07
	-3.322614e-07	7.777663e-07	0.001992664	0.000316528	-2.305557e-08	2.874806e-07	-0.01045748	0.01182759
3.9e+08	-0.006603285	0.006421539	1.400004e-08	2.206633e-07	0.001581946	0.002439665	-8.289706e-08	8.630612e-07
	1.400004e-08	2.206633e-07	-0.006396393	0.006635117	1.256705e-07	1.076536e-06	0.001719631	0.002560403
	0.001581946	0.002439665	1.256705e-07	1.076536e-06	-0.006543841	0.006492363	1.853954e-08	3.012576e-07
	-8.289706e-08	8.630612e-07	0.001719631	0.002560403	1.853954e-08	3.012576e-07	-0.00634947	0.006696315
4e+08	-0.00411006	0.0003047064	4.653971e-08	2.204716e-07	0.002158564	0.00465781	1.863343e-07	8.66643e-07
	4.653971e-08	2.204716e-07	-0.004150826	0.0005053342	1.20759e-07	1.097819e-06	0.002148877	0.004777662
	0.002158564	0.00465781	1.20759e-07	1.097819e-06	-0.00407431	0.0003315828	6.202601e-08	3.017095e-07
	1.863343e-07	8.66643e-07	0.002148877	0.004777662	6.202601e-08	3.017095e-07	-0.004118053	0.0005244408
4.1e+08	-0.003701491	-0.006297528	7.716224e-08	2.101654e-07	0.0033931	0.006581208	4.486784e-07	7.845787e-07
	7.716224e-08	2.101654e-07	-0.003994999	-0.006029031	1.142179e-07	1.121677e-06	0.003235365	0.006748137
	0.0033931	0.006581208	1.142179e-07	1.121677e-06	-0.003703587	-0.006304892	1.031181e-07	2.886294e-07
	4.486784e-07	7.845787e-07	0.003235365	0.006748137	1.031181e-07	2.886294e-07	-0.003989882	-0.006045406
4.2e+08	-0.005419782	-0.01270879	1.027184e-07	1.906413e-07	0.005157642	0.008016653	6.769469e-07	6.216936e-07
	1.027184e-07	1.906413e-07	-0.005945076	-0.01229237	1.068853e-07	1.148561e-06	0.004866512	0.008277433
	0.005157642	0.008016653	1.068853e-07	1.148561e-06	-0.005470137	-0.01273653	1.375871e-07	2.631743e-07
	6.769469e-07	6.216936e-07	0.004866512	0.008277433	1.375871e-07	2.631743e-07	-0.005978379	-0.01233357
4.3e+08	-0.009093827	-0.01827528	1.204238e-07	1.637676e-07	0.007269421	0.008821945	8.463902e-07	3.91419e-07
	1.204238e-07	1.637676e-07	-0.009804973	-0.01763998	9.972195e-08	1.17867e-06	0.006874021	0.009217281
	0.007269421	0.008821945	9.972195e-08	1.17867e-06	-0.009197923	-0.01830674	1.616896e-07	2.278134e-07
	8.463902e-07	3.91419e-07	0.006874021	0.009217281	1.616896e-07	2.278134e-07	-0.009883533	-0.01769239
4.4e+08	-0.01435781	-0.02243127	1.281574e-07	1.322516e-07	0.009510243	0.008920789	9.374107e-07	1.146947e-07
	1.281574e-07	1.322516e-07	-0.01518763	-0.02152302	9.374247e-08	1.211906e-06	0.009051774	0.009480876
	0.009510243	0.008920789	9.374247e-08	1.211906e-06	-0.01451552	-0.02244877	1.725733e-07	1.861426e-07
	9.374107e-07	1.146947e-07	0.009051774	0.009480876	1.725733e-07	1.861426e-07	-0.01531358	-0.02157143
4.5e+08	-0.02068935	-0.02475511	1.247183e-07	9.94128e-08	0.01164967	0.008310459	9.378061e-07	-1.819799e-07
	1.247183e-07	9.94128e-08	-0.02155553	-0.02354294	8.992841e-08	1.247856e-06	0.01117767	0.009051452
	0.01164967	0.008310459	8.992841e-08	1.247856e-06	-0.02089486	-0.02474177	1.686177e-07	1.425721e-07
	9.378061e-07	-1.819799e-07	0.01117767	0.009051452	1.686177e-07	1.425721e-07	-0.02172606	-0.02357219
4.6e+08	-0.02746304	-0.02500999	1.100071e-07	6.887292e-08	0.01346928	0.0070614	8.442775e-07	-4.691439e-07
	1.100071e-07	6.887292e-08	-0.02827605	-0.02349012	8.912487e-08	1.285789e-06	0.01303684	0.00798321
	0.01346928	0.0070614	8.912487e-08	1.285789e-06	-0.02770538	-0.02495159	1.496674e-07	1.019079e-07
	8.442775e-07	-4.691439e-07	0.01303684	0.00798321	1.496674e-07	1.019079e-07	-0.0284836	-0.02348673
4.7e+08	-0.03401346	-0.02316565	8.510306e-08	4.418744e-08	0.01478517	0.005309046	6.630286e-07	-7.173455e-07
	8.510306e-08	4.418744e-08	-0.03468545	-0.0213629	9.193002e-08	1.324699e-06	0.01444367	0.006394728
	0.01478517	0.005309046	9.193002e-08	1.324699e-06	-0.03427756	-0.02305207	1.171251e-07	6.886205e-08
	6.630286e-07	-7.173455e-07	0.01444367	0.006394728	1.171251e-07	6.886205e-08	-0.03491855	-0.02131636
4.8e+08	-0.0397012	-0.01939938	5.221318e-08	2.845524e-08	0.01546638	0.003239008	4.093858e-07	-9.001686e-07
