!$
! Info: Touchstone file created by Circ.  Input file=Tx_10in_Rx_93ohms_TxVia_10mils_RxVia_20mils.circ
!$
# Hz S RI R 50
0	0.009215657	7.142709e-26	3.218889e-09	3.930049e-27	6.524093e-05	9.392641e-24	-3.523931e-09	4.649819e-25
	3.218882e-09	3.930201e-27	0.009215257	9.171071e-26	-3.115062e-09	4.298253e-25	6.468643e-05	1.309144e-23
	6.751425e-05	9.414294e-24	-3.113136e-09	4.29587e-25	0.009208077	6.237685e-26	1.25629e-08	1.648196e-29
	-3.52121e-09	4.64647e-25	6.614241e-05	1.347423e-23	1.256299e-08	1.632373e-29	0.009220838	8.746129e-26
1e+07	0.01341799	-0.001015517	5.233252e-09	7.836358e-09	0.0003226011	0.001826489	1.236703e-08	5.562221e-08
	5.233252e-09	7.836358e-09	0.01341322	-0.001016818	-6.71261e-11	5.805037e-08	0.0003195168	0.001827384
	0.0003226496	0.001826462	-6.712588e-11	5.805037e-08	0.01315682	-0.001022814	-8.981374e-09	4.540851e-08
	1.236703e-08	5.562221e-08	0.0003195496	0.001827372	-8.981374e-09	4.540851e-08	0.01315211	-0.00102417
2e+07	0.015519	-0.005413291	8.470788e-09	1.334265e-08	0.0008218695	0.003615901	3.530419e-08	7.158212e-08
	8.470788e-09	1.334265e-08	0.01550009	-0.005413464	3.400942e-09	8.08201e-08	0.0008101127	0.00361985
	0.0008218616	0.003615875	3.400942e-09	8.08201e-08	0.01532136	-0.005336135	-2.856219e-09	4.615927e-08
	3.530419e-08	7.158212e-08	0.0008101101	0.003619828	-2.856219e-09	4.615927e-08	0.015303	-0.005336113
3e+07	0.01576964	-0.01091278	1.2359e-08	1.770884e-08	0.001721571	0.005167927	6.973851e-08	7.994247e-08
	1.2359e-08	1.770884e-08	0.01572784	-0.0109064	1.019242e-08	1.071899e-07	0.001696466	0.005178522
	0.001721571	0.005167924	1.019242e-08	1.071899e-07	0.01561823	-0.01082007	4.244532e-09	5.237102e-08
	6.973851e-08	7.994247e-08	0.001696461	0.005178519	4.244532e-09	5.237102e-08	0.01557861	-0.01081377
4e+07	0.01452341	-0.01654725	1.664253e-08	2.070478e-08	0.002948275	0.006459738	1.056968e-07	7.719742e-08
	1.664253e-08	2.070478e-08	0.01445187	-0.0165263	1.506713e-08	1.325859e-07	0.002906326	0.006481857
	0.002948279	0.006459734	1.506713e-08	1.325859e-07	0.01440704	-0.01645886	1.306855e-08	5.606418e-08
	1.056968e-07	7.719742e-08	0.002906326	0.006481858	1.306855e-08	5.606418e-08	0.01433903	-0.01643908
5e+07	0.01197805	-0.02189951	2.098939e-08	2.229229e-08	0.00438905	0.007463658	1.413994e-07	6.382341e-08
	2.098939e-08	2.229229e-08	0.01187245	-0.02185405	1.823419e-08	1.581337e-07	0.004328315	0.007503177
	0.004389051	0.007463656	1.823419e-08	1.581337e-07	0.01188533	-0.02182521	2.257971e-08	5.598809e-08
	1.413994e-07	6.382341e-08	0.004328315	0.007503178	2.257971e-08	5.598809e-08	0.0117846	-0.02178192
6e+07	0.008319172	-0.02667625	2.504831e-08	2.247911e-08	0.005982295	0.008146414	1.746377e-07	3.952532e-08
	2.504831e-08	2.247911e-08	0.008178142	-0.02659517	2.037643e-08	1.842043e-07	0.005902585	0.00820971
	0.005982295	0.008146415	2.037643e-08	1.842043e-07	0.008239876	-0.02662037	3.147113e-08	5.226011e-08
	1.746377e-07	3.952532e-08	0.005902581	0.008209711	3.147113e-08	5.226011e-08	0.00810554	-0.02654286
7e+07	0.003747236	-0.03065473	2.845562e-08	2.13422e-08	0.007660137	0.008486702	2.025761e-07	4.549839e-09
	2.845563e-08	2.13422e-08	0.003572589	-0.03052664	2.200163e-08	2.108665e-07	0.007563071	0.008580183
	0.007660137	0.008486706	2.200163e-08	2.108665e-07	0.003672357	-0.03061868	3.85673e-08	4.556282e-08
	2.025761e-07	4.549839e-09	0.007563066	0.008580186	3.85673e-08	4.556282e-08	0.003506205	-0.03049645
8e+07	-0.001518399	-0.03366908	3.085455e-08	1.904595e-08	0.009351578	0.008476956	2.222281e-07	-3.996703e-08
	3.085455e-08	1.904595e-08	-0.001721694	-0.03348313	2.351071e-08	2.381004e-07	0.009240551	0.008606611
	0.00935158	0.00847696	2.351071e-08	2.381004e-07	-0.001597053	-0.0336524	4.301812e-08	3.686721e-08
	2.222281e-07	-3.996703e-08	0.009240546	0.008606615	4.301812e-08	3.686721e-08	-0.00179082	-0.03347526
9e+07	-0.00724163	-0.03560556	3.192305e-08	1.584685e-08	0.01098563	0.00812391	2.308547e-07	-9.199205e-08
	3.192305e-08	1.584685e-08	-0.00746568	-0.03535223	2.516808e-08	2.658819e-07	0.01086568	0.00829488
	0.01098563	0.008123913	2.516808e-08	2.658819e-07	-0.007331852	-0.03560645	4.435286e-08	2.726605e-08
	2.308547e-07	-9.199205e-08	0.01086567	0.008294884	4.435286e-08	2.726605e-08	-0.007546363	-0.03536478
1e+08	-0.01316004	-0.03639165	3.140003e-08	1.20849e-08	0.01249422	0.007447873	2.262644e-07	-1.487116e-07
	3.140003e-08	1.20849e-08	-0.01339437	-0.03606349	2.725082e-08	2.940632e-07	0.01237182	0.007664056
	0.01249423	0.007447873	2.725082e-08	2.940632e-07	-0.01327171	-0.03640875	4.247619e-08	1.782058e-08
	2.262644e-07	-1.487116e-07	0.01237182	0.007664056	4.247619e-08	1.782058e-08	-0.01349717	-0.03609428
1.1e+08	-0.01902536	-0.03614799	2.911935e-08	8.18729e-09	0.01381362	0.006485043	2.091889e-07	-2.060767e-07
	2.911935e-08	8.18729e-09	-0.01925827	-0.03573876	2.783325e-08	3.241044e-07	0.01369585	0.006748378
	0.01381362	0.006485043	2.783325e-08	3.241044e-07	-0.01916724	-0.03616187	3.939829e-08	1.282383e-08
	2.091889e-07	-2.060767e-07	0.01369585	0.006748378	3.939829e-08	1.282383e-08	-0.01939184	-0.03576895
1.2e+08	-0.0247213	-0.03482246	2.503956e-08	4.590503e-09	0.01489344	0.005281863	1.774179e-07	-2.618288e-07
	2.503956e-08	4.590503e-09	-0.0249382	-0.03433056	2.882139e-08	3.545661e-07	0.01478881	0.005592974
	0.01489344	0.005281863	2.882139e-08	3.545661e-07	-0.02488672	-0.0348233	3.39362e-08	8.24583e-09
	1.774179e-07	-2.618288e-07	0.01478881	0.005592974	3.39362e-08	8.24583e-09	-0.02509588	-0.03435045
1.3e+08	-0.03000626	-0.03246975	1.920544e-08	1.741591e-09	0.01569147	0.003892654	1.311004e-07	-3.123642e-07
	1.920544e-08	1.741591e-09	-0.0301922	-0.0318972	3.036908e-08	3.853331e-07	0.01560864	0.004249935
	0.01569147	0.003892654	3.036908e-08	3.853331e-07	-0.03019011	-0.03245124	2.615569e-08	4.675709e-09
	1.311004e-07	-3.123642e-07	0.01560864	0.004249935	2.615569e-08	4.675709e-09	-0.03036917	-0.03190064
1.4e+08	-0.03468058	-0.02920133	1.176985e-08	8.159916e-11	0.01617773	0.002379143	7.124545e-08	-3.540987e-07
	1.176985e-08	8.159918e-11	-0.03482109	-0.02855371	3.258861e-08	4.162619e-07	0.01612502	0.002778804
	0.01617773	0.002379143	3.258861e-08	4.162619e-07	-0.03487718	-0.02915887	1.626329e-08	2.692577e-09
	7.124545e-08	-3.540987e-07	0.01612502	0.002778804	1.626329e-08	2.692577e-09	-0.03501214	-0.02853618
1.5e+08	-0.0385777	-0.02516562	2.992114e-09	1.749865e-11	0.01633542	0.0008073912	-2.924111e-10	-3.836754e-07
	2.992114e-09	1.749866e-11	-0.03865953	-0.02445198	3.554885e-08	4.471836e-07	0.01632029	0.001243584
	0.01633542	0.0008073911	3.554885e-08	4.471836e-07	-0.03878082	-0.02509628	4.603881e-09	2.829628e-09
	-2.924111e-10	-3.836754e-07	0.01632029	0.001243584	4.603881e-09	2.829628e-09	-0.038859	-0.02441041
1.6e+08	-0.04156772	-0.02053934	-6.769945e-09	1.89633e-09	0.01616135	-0.0007549713	-8.086929e-08	-3.98158e-07
	-6.769945e-09	1.89633e-09	-0.04157959	-0.01977192	3.927089e-08	4.779138e-07	0.01618999	-0.0002899445
	0.01616135	-0.0007549714	3.927089e-08	4.779138e-07	-0.04177082	-0.02044183	-8.349985e-09	5.541049e-09
	-8.086929e-08	-3.98158e-07	0.01618999	-0.0002899445	-8.349985e-09	5.541049e-09	-0.04178154	-0.01970469
1.7e+08	-0.04356064	-0.01551913	-1.707453e-08	5.981552e-09	0.01566589	-0.002241474	-1.671512e-07	-3.952102e-07
	-1.707453e-08	5.981552e-09	-0.04349398	-0.01471292	4.372598e-08	5.082661e-07	0.01574276	-0.001756858
	0.01566589	-0.002241474	4.372598e-08	5.082661e-07	-0.04375724	-0.01539376	-2.201691e-08	1.117186e-08
	-1.671512e-07	-3.952102e-07	0.01574276	-0.001756858	-2.201691e-08	1.117186e-08	-0.04369242	-0.01461981
1.8e+08	-0.04450841	-0.01031314	-2.741619e-08	1.243324e-08	0.01487233	-0.003589422	-2.552529e-07	-3.732497e-07
	-2.741619e-08	1.243324e-08	-0.04435802	-0.00948528	4.88367e-08	5.380639e-07	0.01499981	-0.003095615
	0.01487233	-0.003589422	4.88367e-08	5.380639e-07	-0.04469238	-0.01016174	-3.573268e-08	1.993255e-08
	-2.552529e-07	-3.732497e-07	0.01499981	-0.003095615	-3.573268e-08	1.993255e-08	-0.04454719	-0.009367444
1.9e+08	-0.04440561	-0.005132602	-3.72507e-08	2.129356e-08	0.01381581	-0.004742312	-3.409089e-07	-3.315707e-07
	-3.72507e-08	2.129356e-08	-0.04417012	-0.00430165	5.448113e-08	5.671533e-07	0.01399394	-0.004250397
	0.01381581	-0.004742312	5.448113e-08	5.671533e-07	-0.04457149	-0.004958343	-4.878208e-08	3.188037e-08
	-3.409089e-07	-3.315707e-07	0.01399394	-0.004250397	-4.878208e-08	3.188037e-08	-0.04434473	-0.004161475
2e+08	-0.04328857	-0.0001835638	-4.602315e-08	3.247849e-08	0.01254184	-0.005651982	-4.196716e-07	-2.704271e-07
	-4.602315e-08	3.247849e-08	-0.04297081	0.0006313763	6.049999e-08	5.954129e-07	0.01276815	-0.005173196
	0.01254184	-0.005651982	6.049999e-08	5.954129e-07	-0.04343181	9.222852e-06	-6.043475e-08	4.69083e-08
	-4.196716e-07	-2.704271e-07	0.01276815	-0.005173196	-6.043475e-08	4.69083e-08	-0.04312627	0.0007903964
2.1e+08	-0.0412331	0.004340988	-5.319739e-08	4.577648e-08	0.01110439	-0.006280425	-4.871246e-07	-1.910718e-07
	-5.319739e-08	4.577648e-08	-0.04084024	0.00512121	6.670616e-08	6.227625e-07	0.01137388	-0.005825592
	0.01110439	-0.006280425	6.670616e-08	6.227625e-07	-0.04135024	0.004547064	-6.998302e-08	6.47427e-08
	-4.871246e-07	-1.910718e-07	0.01137388	-0.005825592	-6.998302e-08	6.47427e-08	-0.04097287	0.00529466
2.2e+08	-0.03835081	0.008268357	-5.828528e-08	6.085402e-08	0.009563794	-0.006601215	-5.391049e-07	-9.574961e-08
	-5.828528e-08	6.085402e-08	-0.03789428	0.00899653	7.28959e-08	6.491683e-07	0.009868961	-0.006180171
	0.009563794	-0.006601215	7.28959e-08	6.491683e-07	-0.03843965	0.008481835	-7.677971e-08	8.494966e-08
	-5.391049e-07	-9.574961e-08	0.009868961	-0.006180171	-7.677971e-08	8.494966e-08	-0.03800147	0.009179287
2.3e+08	-0.03478417	0.01145249	-6.087387e-08	7.726787e-08	0.007984291	-0.006600501	-5.719218e-07	1.23588e-08
	-6.087387e-08	7.726787e-08	-0.03427942	0.01211362	7.886072e-08	6.746455e-07	0.008315388	-0.006221534
	0.007984291	-0.006600501	7.886072e-08	6.746455e-07	-0.03484388	0.01166712	-8.02737e-08	1.069498e-07
	-5.719218e-07	1.23588e-08	0.008315388	-0.006221534	-8.02737e-08	1.069498e-07	-0.03435972	0.0123001
2.4e+08	-0.0307006	0.01377928	-6.064921e-08	9.448323e-08	0.00643154	-0.006277529	-5.825635e-07	1.292397e-07
	-6.064921e-08	9.448323e-08	-0.03016656	0.01436163	8.439928e-08	6.992572e-07	0.00677689	-0.005946875
	0.00643154	-0.00627753	8.439928e-08	6.992572e-07	-0.03073173	0.01398874	-8.00417e-08	1.30041e-07
	-5.825635e-07	1.292397e-07	0.00677689	-0.005946875	-8.00417e-08	1.30041e-07	-0.03021977	0.01454603
2.5e+08	-0.02628555	0.01517057	-5.74155e-08	1.118966e-07	0.004969997	-0.00564469	-5.688815e-07	2.501947e-07
	-5.74155e-08	1.118966e-07	-0.02574394	0.01566643	8.932816e-08	7.231111e-07	0.00531644	-0.005366093
	0.004969997	-0.00564469	8.932816e-08	7.231111e-07	-0.02629002	0.01536876	-7.581428e-08	1.534272e-07
	-5.688815e-07	2.501947e-07	0.00531644	-0.005366093	-7.581428e-08	1.534272e-07	-0.02577112	0.01584302
2.6e+08	-0.02173508	0.01558687	-5.110859e-08	1.288625e-07	0.003660342	-0.004727044	-5.297421e-07	3.700283e-07
	-5.110859e-08	1.288625e-07	-0.02120951	0.0159932	9.349125e-08	7.463532e-07	0.00399378	-0.004501424
	0.003660342	-0.004727044	9.349125e-08	7.463532e-07	-0.02171612	0.01576813	-6.749528e-08	1.762528e-07
	-5.297421e-07	3.700283e-07	0.00399378	-0.004501424	-6.749528e-08	1.762528e-07	-0.02121297	0.01615651
2.7e+08	-0.01724803	0.01502831	-4.180416e-08	1.447223e-07	0.002557018	-0.003561366	-4.651372e-07	4.832696e-07
	-4.180416e-08	1.447223e-07	-0.01676302	0.0153472	9.676675e-08	7.691608e-07	0.002863024	-0.003386602
	0.002557018	-0.003561366	9.676675e-08	7.691608e-07	-0.01721004	0.01518783	-5.517346e-08	1.976408e-07
	-4.651372e-07	4.832696e-07	0.002863024	-0.003386602	-5.517346e-08	1.976408e-07	-0.01674617	0.01549236
2.8e+08	-0.01301818	0.01353444	-2.971866e-08	1.588338e-07	0.001705985	-0.002194703	-3.762467e-07	5.844182e-07
	-2.971866e-08	1.588338e-07	-0.01259801	0.01377329	9.907246e-08	7.917335e-07	0.001970467	-0.002065549
	0.001705985	-0.002194703	9.907246e-08	7.917335e-07	-0.01296654	0.0136684	-3.912603e-08	2.167321e-07
	-3.762467e-07	5.844182e-07	0.001970467	-0.002065549	-3.912603e-08	2.167321e-07	-0.01256526	0.01389627
2.9e+08	-0.009226564	0.01118222	-1.52048e-08	1.706011e-07	0.001142782	-0.0006824952	-2.654472e-07	6.682034e-07
	-1.52048e-08	1.706011e-07	-0.008894121	0.01135373	1.003687e-07	8.142849e-07	0.001352659	-0.0005906488
	0.001142782	-0.0006824952	1.003687e-07	8.142849e-07	-0.009167416	0.01128798	-1.981383e-08	2.327257e-07
	-2.654472e-07	6.682034e-07	0.001352659	-0.0005906488	-1.981383e-08	2.327257e-07	-0.008850687	0.01145147
3e+08	-0.006034421	0.008082633	1.258992e-09	1.795026e-07	0.0008909947	0.0009136729	-1.362631e-07	7.298461e-07
	1.258992e-09	1.795026e-07	-0.005810046	0.008204519	1.006595e-07	8.370332e-07	0.00103486	0.0009793683
	0.0008909947	0.0009136729	1.006595e-07	8.370332e-07	-0.005974396	0.008158924	2.131576e-09	2.44917e-07
	-1.362631e-07	7.298461e-07	0.00103486	0.0009793682	2.131576e-09	2.44917e-07	-0.005761721	0.00827511
3.1e+08	-0.00357689	0.00437598	1.908435e-08	1.85116e-07	0.0009611964	0.002528621	6.739264e-09	7.653096e-07
	1.908435e-08	1.85116e-07	-0.00347728	0.004470435	9.99922e-08	8.60194e-07	0.001029932	0.00258182
	0.0009611964	0.002528621	9.99922e-08	8.60194e-07	-0.003522823	0.00442294	2.592861e-08	2.527334e-07
	6.739264e-09	7.653096e-07	0.001029932	0.00258182	2.592861e-08	2.527334e-07	-0.003430185	0.004513216
3.2e+08	-0.001957817	0.0002259861	3.759373e-08	1.871412e-07	0.001350435	0.004096305	1.581136e-07	7.715267e-07
	3.759373e-08	1.871412e-07	-0.001995054	0.000318899	9.845581e-08	8.839716e-07	0.001337753	0.00415268
	0.001350435	0.004096305	9.845581e-08	8.839716e-07	-0.001916443	0.0002452075	5.06734e-08	2.557654e-07
	1.581136e-07	7.715267e-07	0.001337753	0.00415268	5.06734e-08	2.557654e-07	-0.001955373	0.0003345123
3.3e+08	-0.001245837	-0.004186975	5.604528e-08	1.854181e-07	0.002042299	0.005552628	3.117449e-07	7.465905e-07
	5.604528e-08	1.854181e-07	-0.001426584	-0.004067003	9.617888e-08	9.085528e-07	0.001945177	0.005629263
	0.002042299	0.005552628	9.617888e-08	9.085528e-07	-0.001223483	-0.004192487	7.537376e-08	2.537921e-07
	3.117449e-07	7.465905e-07	0.001945177	0.005629263	7.537376e-08	2.537921e-07	-0.001400285	-0.004076621
3.4e+08	-0.001471905	-0.008673293	7.366132e-08	1.799405e-07	0.003007575	0.006838183	4.611023e-07	6.898977e-07
	7.366132e-08	1.799405e-07	-0.001796819	-0.008496107	9.332624e-08	9.340996e-07	0.002826562	0.006952891
	0.003007575	0.006838183	9.332624e-08	9.340996e-07	-0.001474196	-0.008699225	9.898831e-08	2.468e-07
	4.611023e-07	6.898977e-07	0.002826562	0.006952891	9.898831e-08	2.468e-07	-0.001789383	-0.008527787
3.5e+08	-0.002628376	-0.01304186	8.965965e-08	1.708633e-07	0.004205482	0.00790082	5.99522e-07	6.022357e-07
	8.965965e-08	1.708633e-07	-0.003091768	-0.01277703	9.009517e-08	9.607429e-07	0.003944853	0.00807138
	0.004205482	0.00790082	9.009517e-08	9.607429e-07	-0.002659967	-0.01308275	1.204695e-07	2.34993e-07
	5.99522e-07	6.022357e-07	0.003944853	0.00807138	1.204695e-07	2.34993e-07	-0.003107939	-0.0128265
3.6e+08	-0.004669655	-0.01710779	1.032867e-07	1.585051e-07	0.005585417	0.008697893	7.205082e-07	4.858072e-07
	1.032867e-07	1.585051e-07	-0.005259432	-0.01672596	8.671047e-08	9.885765e-07	0.005253176	0.008941268
	0.005585417	0.008697893	8.671047e-08	9.885765e-07	-0.004733998	-0.01715727	1.38809e-07	2.187955e-07
	7.205082e-07	4.858072e-07	0.005253176	0.008941268	1.38809e-07	2.187955e-07	-0.005302993	-0.01678801
3.7e+08	-0.007514388	-0.02069985	1.138514e-07	1.43343e-07	0.007089153	0.00919809	8.180364e-07	3.441874e-07
	1.138514e-07	1.43343e-07	-0.00821228	-0.0201741	8.341842e-08	1.017651e-06	0.006696856	0.009529638
	0.007089153	0.00919809	8.341842e-08	1.017651e-06	-0.007613555	-0.02075088	1.530841e-07	1.988438e-07
	8.180364e-07	3.441874e-07	0.006696856	0.009529638	1.530841e-07	1.988438e-07	-0.008285869	-0.02024279
3.8e+08	-0.01104907	-0.0236672	1.207593e-07	1.260009e-07	0.008653366	0.009382751	8.868449e-07	1.822173e-07
	1.207593e-07	1.260009e-07	-0.01183115	-0.02297435	8.047917e-08	1.047966e-06	0.00821579	0.009815477
	0.008653366	0.009382751	8.047917e-08	1.047966e-06	-0.01118363	-0.02371239	1.625026e-07	1.7597e-07
	8.868449e-07	1.822173e-07	0.00821579	0.009815477	1.625026e-07	1.7597e-07	-0.01193614	-0.0230433
3.9e+08	-0.01513294	-0.02588529	1.235436e-07	1.072305e-07	0.01021238	0.009246614	9.227008e-07	5.833103e-09
	1.235436e-07	1.072305e-07	-0.01597042	-0.0250071	7.815746e-08	1.079472e-06	0.009747024	0.009790498
	0.01021238	0.009246614	7.815746e-08	1.079472e-06	-0.01530191	-0.02591721	1.664446e-07	1.511745e-07
	9.227008e-07	5.833103e-09	0.009747024	0.009790498	1.664446e-07	1.511745e-07	-0.0161068	-0.0250697
4e+08	-0.01960385	-0.0272606	1.218936e-07	8.788492e-08	0.01170099	0.008797962	9.22625e-07	-1.781585e-07
	1.218936e-07	8.788492e-08	-0.02046411	-0.02618474	7.671161e-08	1.112059e-06	0.01122744	0.009459392
	0.01170099	0.008797962	7.671161e-08	1.112059e-06	-0.0198047	-0.02727213	1.64499e-07	1.255905e-07
	9.22625e-07	-1.781585e-07	0.01122744	0.009459392	1.64499e-07	1.255905e-07	-0.02063055	-0.02623453
4.1e+08	-0.02428502	-0.02773405	1.156776e-07	6.888611e-08	0.01305723	0.008058177	8.850677e-07	-3.623512e-07
	1.156776e-07	6.888611e-08	-0.02513288	-0.02645496	7.638126e-08	1.145562e-06	0.01259642	0.008839513
	0.01305723	0.008058177	7.638126e-08	1.145562e-06	-0.02451376	-0.02771867	1.564922e-07	1.004394e-07
	8.850677e-07	-3.623512e-07	0.01259642	0.008839513	1.564922e-07	1.004394e-07	-0.02532668	-0.02648581
4.2e+08	-0.02899213	-0.02728305	1.049586e-07	5.118665e-08	0.01422499	0.007060728	8.100237e-07	-5.390431e-07
	1.049586e-07	5.118665e-08	-0.02979126	-0.02580241	7.737407e-08	1.179763e-06	0.01379834	0.007960032
	0.01422499	0.007060728	7.737407e-08	1.179763e-06	-0.02924347	-0.02723516	1.425079e-07	7.698042e-08
	8.100237e-07	-5.390431e-07	0.01379834	0.007960032	1.425079e-07	7.698042e-08	-0.03000852	-0.02580885
4.3e+08	-0.0335408	-0.02592204	9.000194e-08	3.572751e-08	0.01515628	0.005849653	6.990817e-07	-7.005615e-07
	9.000194e-08	3.572751e-08	-0.03425522	-0.02424899	7.985264e-08	1.214393e-06	0.01478483	0.006860594
	0.01515628	0.005849653	7.985264e-08	1.214393e-06	-0.03380834	-0.02583719	1.228951e-07	5.645551e-08
	6.990817e-07	-7.005615e-07	0.01478483	0.006860594	1.228951e-07	5.645551e-08	-0.03449095	-0.02422646
4.4e+08	-0.03775379	-0.02370154	7.127305e-08	2.3394e-08	0.0158132	0.00447763	5.554066e-07	-8.395938e-07
	7.127305e-08	2.3394e-08	-0.03834943	-0.02185262	8.392221e-08	1.249147e-06	0.01551664	0.005589576
	0.0158132	0.00447763	8.392221e-08	1.249147e-06	-0.03803029	-0.02357669	9.826393e-08	4.003205e-08
	5.554066e-07	-8.395938e-07	0.01551664	0.005589576	9.826393e-08	4.003205e-08	-0.03859779	-0.02179765
4.5e+08	-0.04146792	-0.02070589	4.942549e-08	1.49719e-08	0.01616934	0.003003715	3.836521e-07	-9.495095e-07
	4.942549e-08	1.49719e-08	-0.04191414	-0.0187046	8.962068e-08	1.283691e-06	0.01596521	0.004202015
	0.01616934	0.003003715	8.962068e-08	1.283691e-06	-0.04174562	-0.02053953	6.946987e-08	2.87468e-08
	3.836521e-07	-9.495095e-07	0.01596521	0.004202015	6.946987e-08	2.87468e-08	-0.04216868	-0.01861497
4.6e+08	-0.04454038	-0.01704966	2.527873e-08	1.110646e-08	0.01621082	0.001490866	1.898095e-07	-1.024661e-06
	2.527873e-08	1.110646e-08	-0.04481139	-0.01492571	9.691162e-08	1.317683e-06	0.01611361	0.002757318
	0.01621082	0.001490866	9.691162e-08	1.317683e-06	-0.04481132	-0.0168419	3.758391e-08	2.345413e-08
	1.898095e-07	-1.024661e-06	0.01611361	0.002757318	3.758391e-08	2.345413e-08	-0.04506532	-0.01480058
4.7e+08	-0.04685406	-0.01287294	-2.13299e-10	1.226668e-08	0.01593668	3.353864e-06	-1.900348e-08	-1.06065e-06
	-2.13299e-10	1.226668e-08	-0.04693021	-0.01066126	1.056815e-07	1.350788e-06	0.01595717	0.001316835
	0.01593668	3.353864e-06	1.056815e-07	1.350788e-06	-0.04711038	-0.01262552	3.85314e-09	2.477928e-08
	-1.900348e-08	-1.06065e-06	0.01595717	0.001316835	3.85314e-09	2.477928e-08	-0.04717665	-0.01050116
4.8e+08	-0.04832198	-0.00833571	-2.600156e-08	1.871698e-08	0.01535886	-0.001395835	-2.34805e-07	-1.054548e-06
