!$
! Info: Touchstone file created by Circ.  Input file=Tx_10in_Rx_100ohms_TxVia_10mils_RxVia_20mils.circ
!$
# Hz S RI R 50
0	0.01041174	6.382941e-26	-1.74594e-11	4.07487e-27	6.503718e-05	1.080645e-23	-2.142883e-08	2.624246e-24
	-1.74452e-11	4.073856e-27	0.01041105	9.165124e-26	1.567756e-11	2.269373e-28	6.463934e-05	1.480141e-23
	6.314802e-05	1.065412e-23	1.564257e-11	2.272816e-28	0.01042559	6.642001e-26	1.731094e-08	7.367251e-27
	-2.142956e-08	2.624335e-24	6.609488e-05	1.52342e-23	1.731146e-08	7.366111e-27	0.01041662	8.740552e-26
1e+07	0.01430446	0.006732428	3.58732e-11	-5.434398e-11	0.0002855715	0.001785006	-5.640124e-09	1.931973e-08
	3.587319e-11	-5.434428e-11	0.0153167	0.006476302	2.098456e-12	-7.763758e-11	0.0006374744	0.001832898
	0.0002855323	0.001785031	2.098423e-12	-7.763728e-11	0.01487477	0.006452698	-7.58928e-09	1.901078e-08
	-5.640124e-09	1.931973e-08	0.0006375073	0.001832887	-7.58928e-09	1.901078e-08	0.0151794	0.006494112
2e+07	0.01939038	0.009880111	5.356467e-11	-7.437831e-11	0.0008244668	0.00352847	-3.657213e-09	2.343859e-08
	5.356436e-11	-7.437849e-11	0.01990336	0.009130535	1.798485e-11	-1.739257e-10	0.001051451	0.003759034
	0.0008244741	0.003528488	1.798506e-11	-1.739256e-10	0.01953988	0.009255508	-8.944292e-09	1.983444e-08
	-3.657214e-09	2.343859e-08	0.001051449	0.003759012	-8.944292e-09	1.983444e-08	0.01981275	0.00921445
3e+07	0.02377757	0.01075599	5.771197e-11	-1.510897e-10	0.001689288	0.005085572	1.600207e-09	1.769327e-08
	5.771193e-11	-1.510896e-10	0.02389417	0.009914828	-2.888482e-11	-1.890188e-10	0.001824273	0.005383779
	0.001689285	0.005085573	-2.888472e-11	-1.890189e-10	0.02360441	0.01009139	-3.627686e-09	2.227754e-08
	1.600207e-09	1.769327e-08	0.001824268	0.005383776	-3.627686e-09	2.227754e-08	0.02384551	0.01002216
4e+07	0.02772211	0.01045571	5.854328e-11	-2.200363e-10	0.002837595	0.006420812	4.03842e-09	1.440523e-08
	5.854332e-11	-2.200363e-10	0.02750927	0.009657327	-1.074112e-11	-2.497737e-10	0.002923345	0.006756075
	0.00283759	0.006420814	-1.074115e-11	-2.497738e-10	0.02729314	0.009855461	2.360922e-09	1.866304e-08
	4.03842e-09	1.440523e-08	0.002923345	0.006756076	2.360922e-09	1.866304e-08	0.02749928	0.009771434
5e+07	0.03123665	0.009266034	6.741597e-11	-2.949296e-10	0.004217137	0.007487847	6.714446e-09	1.320131e-08
	6.741599e-11	-2.949296e-10	0.03075538	0.008592666	-5.614553e-11	-2.939691e-10	0.004409231	0.007765511
	0.004217135	0.007487848	-5.614553e-11	-2.939691e-10	0.03061256	0.008792281	5.425745e-09	1.296034e-08
	6.714446e-09	1.320131e-08	0.004409231	0.007765512	5.425745e-09	1.296034e-08	0.03077929	0.008703458
6e+07	0.03427915	0.007356378	8.058145e-11	-3.838557e-10	0.005768149	0.008249502	1.274109e-08	1.107077e-08
	8.058148e-11	-3.838557e-10	0.03359159	0.00686573	-9.230167e-11	-3.063006e-10	0.006031648	0.008452229
	0.005768149	0.008249499	-9.230169e-11	-3.063006e-10	0.03351883	0.007048706	6.18179e-09	7.570493e-09
	1.274109e-08	1.107077e-08	0.006031645	0.00845223	6.18179e-09	7.570493e-09	0.03364498	0.006965862
7e+07	0.03679435	0.004861848	9.163467e-11	-4.782865e-10	0.00743673	0.008670494	1.613406e-08	1.573471e-09
	9.163478e-11	-4.782865e-10	0.03596476	0.004593636	-1.200061e-10	-3.132255e-10	0.007727553	0.008799992
	0.00743673	0.008670489	-1.200062e-10	-3.132256e-10	0.03595596	0.004743933	5.563824e-09	3.181895e-09
	1.613406e-08	1.573471e-09	0.007727548	0.008799994	5.563824e-09	3.181895e-09	0.03604256	0.004676836
8e+07	0.0387295	0.001907427	1.106136e-10	-5.553789e-10	0.009142188	0.008745395	1.195033e-08	-4.425389e-09
	1.106138e-10	-5.553789e-10	0.03782445	0.001886681	-1.486268e-10	-3.240065e-10	0.009430486	0.00880355
	0.009142187	0.008745388	-1.486268e-10	-3.240065e-10	0.03787094	0.001990473	4.214093e-09	-7.910924e-11
	1.195033e-08	-4.425389e-09	0.009430481	0.008803553	4.214093e-09	-7.910928e-11	0.03792032	0.001948025
9e+07	0.04004096	-0.001384514	9.171155e-11	-6.058034e-10	0.01081293	0.008479189	8.584043e-09	-5.947164e-09
	9.171161e-11	-6.058034e-10	0.03913116	-0.0011444	-1.740515e-10	-3.498623e-10	0.01107282	0.008469547
	0.01081293	0.008479185	-1.740516e-10	-3.498622e-10	0.03922177	-0.001098694	2.505795e-09	-2.242052e-09
	8.584043e-09	-5.947164e-09	0.01107281	0.00846955	2.505795e-09	-2.242052e-09	0.03923771	-0.001108023
1e+08	0.04069161	-0.004895482	2.143773e-12	-7.202196e-10	0.01238701	0.007890004	6.331691e-09	-6.312819e-09
	2.143773e-12	-7.202196e-10	0.03987395	-0.004380005	-1.793741e-10	-3.907811e-10	0.01258269	0.007813586
	0.01238701	0.007890004	-1.793741e-10	-3.907811e-10	0.03999375	-0.004402471	6.409809e-10	-3.468721e-09
	6.331691e-09	-6.312819e-09	0.01258269	0.007813586	6.409809e-10	-3.468721e-09	0.03998187	-0.004370567
1.1e+08	0.04067131	-0.008465389	-2.637782e-11	-8.045713e-10	0.01380189	0.006980482	5.758168e-09	-8.110789e-09
	-2.637782e-11	-8.045713e-10	0.0400398	-0.007815213	-1.796921e-10	-3.967581e-10	0.01389936	0.006908565
	0.01380189	0.006980483	-1.796921e-10	-3.967581e-10	0.04017214	-0.007904786	5.250339e-10	-4.001496e-09
	5.758168e-09	-8.110789e-09	0.01389936	0.006908565	5.250339e-10	-4.001496e-09	0.04014136	-0.007824557
1.2e+08	0.040026	-0.01199065	-6.631812e-11	-8.863939e-10	0.01497927	0.005809109	4.760187e-09	-9.858723e-09
	-6.631812e-11	-8.863939e-10	0.03954165	-0.01125996	-1.689079e-10	-4.123281e-10	0.01500941	0.005770533
	0.01497927	0.005809109	-1.689079e-10	-4.123281e-10	0.03967655	-0.01141578	3.379013e-10	-4.524308e-09
	4.760187e-09	-9.858723e-09	0.01500941	0.005770533	3.379013e-10	-4.524308e-09	0.03963682	-0.01128474
1.3e+08	0.03877323	-0.01536775	-1.150272e-10	-9.613022e-10	0.01587934	0.004432291	3.350577e-09	-1.144777e-08
	-1.150272e-10	-9.613022e-10	0.03842313	-0.01458581	-1.510155e-10	-4.30235e-10	0.01586159	0.004440998
	0.01587934	0.004432291	-1.510155e-10	-4.30235e-10	0.03854919	-0.01480592	8.059232e-11	-5.022972e-09
	3.350577e-09	-1.144777e-08	0.01586159	0.004440998	8.059232e-11	-5.022972e-09	0.03851038	-0.01462373
1.4e+08	0.03695456	-0.01849443	-1.714572e-10	-1.027833e-09	0.01646949	0.002910825	1.558415e-09	-1.277923e-08
	-1.714572e-10	-1.027833e-09	0.03672963	-0.01768395	-1.264922e-10	-4.526116e-10	0.01642142	0.002974471
	0.01646949	0.002910825	-1.264922e-10	-4.526116e-10	0.0368359	-0.01796422	-2.431354e-10	-5.48155e-09
	1.558415e-09	-1.277923e-08	0.01642142	0.002974471	-2.431354e-10	-5.48155e-09	0.03680753	-0.01773271
1.5e+08	0.03462826	-0.02127722	-2.343112e-10	-1.084383e-09	0.01672908	0.001310251	-5.643421e-10	-1.376007e-08
	-2.343112e-10	-1.084383e-09	0.03452026	-0.02045744	-9.634499e-11	-4.813262e-10	0.01666712	0.001431709
	0.01672908	0.001310251	-9.634499e-11	-4.813262e-10	0.03459684	-0.02079156	-6.259069e-10	-5.884493e-09
	-5.643421e-10	-1.376007e-08	0.01666712	0.001431709	-6.259069e-10	-5.884493e-09	0.03458767	-0.02051461
1.6e+08	0.03186716	-0.0236345	-3.01923e-10	-1.129359e-09	0.01665067	-0.0003014102	-2.944108e-09	-1.430825e-08
	-3.01923e-10	-1.129359e-09	0.03186763	-0.02282229	-6.202197e-11	-5.179586e-10	0.01658988	-0.0001233001
	0.01665067	-0.0003014101	-6.202197e-11	-5.179586e-10	0.03190612	-0.02320204	-1.056722e-09	-6.217589e-09
	-2.944108e-09	-1.430825e-08	0.01658988	-0.0001233001	-1.056722e-09	-6.217589e-09	0.03192385	-0.02288538
1.7e+08	0.02875648	-0.0254989	-3.721853e-10	-1.161323e-09	0.01624032	-0.00185624	-5.488041e-09	-1.435764e-08
	-3.721853e-10	-1.161323e-09	0.02885625	-0.02470932	-2.533888e-11	-5.637277e-10	0.01619404	-0.001626098
	0.01624032	-0.00185624	-2.533888e-11	-5.637277e-10	0.02885011	-0.02512477	-1.521187e-09	-6.468832e-09
	-5.488041e-09	-1.435764e-08	0.01619404	-0.001626098	-1.521187e-09	-6.468832e-09	0.02890099	-0.02477579
1.8e+08	0.0253912	-0.02681929	-4.425178e-10	-1.17914e-09	0.01551743	-0.003289087	-8.087522e-09	-1.386242e-08
	-4.425178e-10	-1.17914e-09	0.02558012	-0.02606573	1.160676e-11	-6.194209e-10	0.01549675	-0.003014421
	0.01551743	-0.003289087	1.160676e-11	-6.194209e-10	0.02552505	-0.02650566	-2.001943e-09	-6.629234e-09
	-8.087522e-09	-1.386242e-08	0.01549675	-0.003014421	-2.001943e-09	-6.629234e-09	0.02561356	-0.0261331
1.9e+08	0.02187319	-0.02756225	-5.101523e-10	-1.181917e-09	0.01451389	-0.004540141	-1.062261e-08	-1.280071e-08
	-5.101523e-10	-1.181917e-09	0.02214004	-0.02685653	4.644832e-11	-6.853102e-10	0.01452731	-0.004230735
	0.01451389	-0.004540141	4.644832e-11	-6.853102e-10	0.02203422	-0.02730884	-2.479568e-09	-6.693326e-09
	-1.062261e-08	-1.280071e-08	0.01452731	-0.004230735	-2.479568e-09	-6.693326e-09	0.02216279	-0.02692242
2e+08	0.01830802	-0.0277131	-5.714782e-10	-1.169576e-09	0.01327279	-0.005557312	-1.296734e-08	-1.117723e-08
	-5.714782e-10	-1.169576e-09	0.0186404	-0.02706531	7.689252e-11	-7.611314e-10	0.01332586	-0.005224564
	0.01327279	-0.005557312	7.689252e-11	-7.611314e-10	0.01848473	-0.02751757	-2.932653e-09	-6.660146e-09
	-1.296734e-08	-1.117723e-08	0.01332586	-0.005224564	-2.932653e-09	-6.660146e-09	0.01865354	-0.02712755
2.1e+08	0.01480158	-0.0272762	-6.225848e-10	-1.143111e-09	0.01184665	-0.006298305	-1.499561e-08	-9.024739e-09
	-6.225848e-10	-1.143111e-09	0.01518602	-0.0266946	1.007271e-10	-8.461471e-10	0.01194178	-0.005954516
	0.01184665	-0.006298305	1.007271e-10	-8.461471e-10	0.01498414	-0.02713459	-3.339167e-09	-6.533753e-09
	-1.499561e-08	-9.024739e-09	0.01194178	-0.005954516	-3.339167e-09	-6.533753e-09	0.015191	-0.02675125
2.2e+08	0.01145671	-0.02627474	-6.597915e-10	-1.104339e-09	0.01029529	-0.006732293	-1.658739e-08	-6.404252e-09
	-6.597915e-10	-1.104339e-09	0.01187874	-0.02576555	1.158313e-10	-9.390984e-10	0.01043168	-0.006389943
	0.01029529	-0.006732293	1.158313e-10	-9.390984e-10	0.01163707	-0.02618188	-3.677862e-09	-6.323049e-09
	-1.658739e-08	-6.404252e-09	0.01043168	-0.006389943	-3.677862e-09	-6.323049e-09	0.01187738	-0.02581502
2.3e+08	0.008369873	-0.02474984	-6.796884e-10	-1.056091e-09	0.008683316	-0.006841131	-1.763507e-08	-3.403813e-09
	-6.796884e-10	-1.056091e-09	0.008814276	-0.02431704	1.20362e-10	-1.038252e-09	0.008857034	-0.006512157
	0.008683316	-0.006841131	1.20362e-10	-1.038252e-09	0.008541788	-0.02469976	-3.929205e-09	-6.041852e-09
	-1.763507e-08	-3.403813e-09	0.008857034	-0.006512157	-3.929205e-09	-6.041852e-09	0.008808659	-0.02435816
2.4e+08	0.005628055	-0.02275912	-6.794408e-10	-1.002188e-09	0.00707755	-0.006620052	-1.804952e-08	-1.35874e-10
	-6.794408e-10	-1.002188e-09	0.006079089	-0.02240427	1.128569e-10	-1.141463e-09	0.007281753	-0.00631515
	0.00707755	-0.006620051	1.128569e-10	-1.141463e-09	0.005787014	-0.0227454	-4.076535e-09	-5.70855e-09
	-1.804952e-08	-1.35874e-10	0.007281753	-0.00631515	-4.076535e-09	-5.70855e-09	0.006071516	-0.0224363
2.5e+08	0.003305935	-0.02037462	-6.570941e-10	-9.473131e-10	0.005544242	-0.006077801	-1.776558e-08	3.266714e-09
	-6.570941e-10	-9.473131e-10	0.00374772	-0.0200967	9.232141e-11	-1.246263e-09	0.005769531	-0.005805808
	0.005544242	-0.006077801	9.232141e-11	-1.246263e-09	0.003449114	-0.0203908	-4.107157e-09	-5.345477e-09
	-1.776558e-08	3.266714e-09	0.005769531	-0.005805808	-4.107157e-09	-5.345477e-09	0.003740599	-0.02011942
2.6e+08	0.00146351	-0.01768033	-6.118465e-10	-8.96785e-10	0.004146387	-0.005236231	-1.674669e-08	6.65595e-09
	-6.118465e-10	-8.96785e-10	0.001880423	-0.01747565	5.829727e-11	-1.349965e-09	0.004381296	-0.00500358
	0.004146387	-0.005236231	5.829727e-11	-1.349965e-09	0.001589608	-0.01772015	-4.013281e-09	-4.978015e-09
	-1.674669e-08	6.65595e-09	0.004381296	-0.00500358	-4.013281e-09	-4.978015e-09	0.001876165	-0.01748935
2.7e+08	0.0001442139	-0.01476923	-5.442534e-10	-8.562444e-10	0.002941164	-0.00412935	-1.498829e-08	9.874984e-09
	-5.442534e-10	-8.562444e-10	0.0005213315	-0.01463146	1.090705e-11	-1.449776e-09	0.003172745	-0.003939652
	0.002941164	-0.00412935	1.090705e-11	-1.449776e-09	0.0002532664	-0.01482695	-3.792756e-09	-4.633456e-09
	-1.498829e-08	9.874984e-09	0.003172745	-0.003939652	-3.792756e-09	-4.633456e-09	0.0005222496	-0.01463691
2.8e+08	-0.0006263985	-0.01174011	-4.563335e-10	-8.312699e-10	0.001977625	-0.002801874	-1.251985e-08	1.27652e-08
	-4.563335e-10	-8.312699e-10	-0.0003028185	-0.01166029	-4.912559e-11	-1.542925e-09	0.002192116	-0.00265563
	0.001977625	-0.002801874	-4.912559e-11	-1.542925e-09	-0.0005332385	-0.0118107	-3.449509e-09	-4.339701e-09
	-1.251985e-08	1.27652e-08	0.002192116	-0.00265563	-3.449509e-09	-4.339701e-09	-0.0002946087	-0.01165877
2.9e+08	-0.0008413312	-0.008694143	-3.515557e-10	-8.26967e-10	0.001294732	-0.001307354	-9.405279e-09	1.517372e-08
	-3.515557e-10	-8.26967e-10	-0.0005833762	-0.008660884	-1.204821e-10	-1.626792e-09	0.001478268	-0.001201817
	0.001294732	-0.001307355	-1.204821e-10	-1.626792e-09	-0.0007620447	-0.00877343	-2.99368e-09	-4.12385e-09
	-9.405279e-09	1.517372e-08	0.001478268	-0.001201817	-2.99368e-09	-4.12385e-09	-0.0005660634	-0.008654091
3e+08	-0.0005121925	-0.00573142	-2.346997e-10	-8.475643e-10	0.0009198133	0.0002940585	-5.741577e-09	1.696097e-08
	-2.346997e-10	-8.475643e-10	-0.0003298353	-0.005731186	-2.012821e-10	-1.699031e-09	0.001059164	0.0003648634
	0.0009198133	0.0002940585	-2.012821e-10	-1.699031e-09	-0.0004441494	-0.005816192	-2.441399e-09	-4.010781e-09
	-5.741577e-09	1.696097e-08	0.001059164	0.0003648634	-2.441399e-09	-4.010781e-09	-0.0003019918	-0.005721183
3.1e+08	0.0003314166	-0.002947569	-1.115971e-10	-8.960618e-10	0.0008675143	0.001938096	-1.655877e-09	1.800794e-08
	-1.115971e-10	-8.960618e-10	0.0004307347	-0.002965021	-2.891421e-10	-1.757693e-09	0.0009507967	0.001983194
	0.0008675143	0.001938096	-2.891421e-10	-1.757693e-09	0.0003912008	-0.003035604	-1.814234e-09	-4.021799e-09
	-1.655877e-09	1.800794e-08	0.0009507967	0.001983194	-1.814234e-09	-4.021799e-09	0.0004700792	-0.002954151
3.2e+08	0.001643124	-0.0004305197	1.122614e-11	-9.739676e-10	0.001139267	0.003559012	2.699165e-09	1.822263e-08
	1.122614e-11	-9.739676e-10	0.001654848	-0.0004489837	-3.8126e-10	-1.801332e-09	0.00115661	0.003590145
	0.001139267	0.003559012	-3.8126e-10	-1.801332e-09	0.001697745	-0.0005205718	-1.138325e-09	-4.173445e-09
	2.699165e-09	1.822263e-08	0.00115661	0.003590145	-1.138325e-09	-4.173445e-09	0.001706155	-0.0004397687
3.3e+08	0.003361592	0.001742403	1.269712e-10	-1.08115e-09	0.001723303	0.005092256	7.151368e-09	1.754548e-08
	1.269712e-10	-1.08115e-09	0.003284322	0.001740407	-4.745215e-10	-1.829093e-09	0.001667431	0.005123422
	0.001723303	0.005092256	-4.745215e-10	-1.829093e-09	0.003414032	0.001650675	-4.432621e-10	-4.476544e-09
	7.151368e-09	1.754548e-08	0.001667431	0.005123422	-4.432621e-10	-4.476544e-09	0.003347515	0.001745376
3.4e+08	0.005412816	0.003507006	2.29012e-10	-1.215823e-09	0.002595199	0.006477087	1.151613e-08	1.595339e-08
	2.29012e-10	-1.215823e-09	0.005248475	0.003539168	-5.656255e-10	-1.840778e-09	0.002461909	0.006523945
	0.002595199	0.006477087	-5.656255e-10	-1.840778e-09	0.005465757	0.003413145	2.392325e-10	-4.935522e-09
	1.151613e-08	1.595339e-08	0.002461909	0.006523945	2.392325e-10	-4.935522e-09	0.00532293	0.003537343
3.5e+08	0.007712844	0.004814251	3.11321e-10	-1.374655e-09	0.003718937	0.007659006	1.560432e-08	1.346207e-08
	3.11321e-10	-1.374655e-09	0.007466736	0.004897839	-6.512249e-10	-1.836891e-09	0.00350744	0.0077382
	0.003718937	0.007659006	-6.512249e-10	-1.836891e-09	0.007768513	0.004717143	8.767279e-10	-5.548061e-09
	1.560432e-08	1.346207e-08	0.00350744	0.0077382	8.767279e-10	-5.548061e-09	0.007551301	0.004886829
3.6e+08	0.01017082	0.005631741	3.688347e-10	-1.552998e-09	0.005048408	0.008591924	1.923015e-08	1.012638e-08
	3.688347e-10	-1.552998e-09	0.009851546	0.005782949	-7.281356e-10	-1.818697e-09	0.00476152	0.00872033
	0.005048408	0.008591924	-7.281356e-10	-1.818697e-09	0.01023086	0.005529776	1.437397e-09	-6.305178e-09
	1.923015e-08	1.012638e-08	0.00476152	0.00872033	1.437397e-09	-6.305178e-09	0.009944579	0.005760629
3.7e+08	0.01269219	0.005944594	3.977346e-10	-1.745208e-09	0.00652932	0.009239971	2.222047e-08	6.040319e-09
	3.977346e-10	-1.745208e-09	0.01231147	0.006177905	-7.933498e-10	-1.788061e-09	0.006173497	0.009433926
	0.00652932	0.009239971	-7.933498e-10	-1.788061e-09	0.01275763	0.005835845	1.891786e-09	-7.191156e-09
	2.222047e-08	6.040319e-09	0.006173497	0.009433926	1.891786e-09	-7.191156e-09	0.0124109	0.006142514
3.8e+08	0.01518207	0.005755707	3.956097e-10	-1.945001e-09	0.008101418	0.009578895	2.442199e-08	1.333027e-09
	3.956097e-10	-1.945001e-09	0.01475439	0.006083292	-8.442734e-10	-1.747494e-09	0.007686617	0.009853412
	0.008101418	0.009578895	-8.442734e-10	-1.747494e-09	0.01525326	0.005638114	2.213869e-09	-8.184468e-09
	2.442199e-08	1.333027e-09	0.007686617	0.009853412	2.213869e-09	-8.184468e-09	0.01485781	0.006033514
3.9e+08	0.0175485	0.005085399	3.615092e-10	-2.145835e-09	0.009700913	0.009596977	2.570846e-08	-3.835458e-09
	3.615092e-10	-2.145835e-09	0.01709069	0.005516567	-8.788564e-10	-1.700065e-09	0.0092403	0.009965009
	0.009700913	0.009596977	-8.788564e-10	-1.700065e-09	0.01762514	0.004956931	2.382186e-09	-9.258532e-09
	2.570846e-08	-3.835458e-09	0.0092403	0.009965009	2.382186e-09	-9.258532e-09	0.01719542	0.005451602
4e+08	0.01970561	0.003970444	2.958916e-10	-2.341254e-09	0.01126305	0.009295462	2.59868e-08	-9.279969e-09
	2.958916e-10	-2.341254e-09	0.01923626	0.004511197	-8.957e-10	-1.649268e-09	0.01077255	0.009767226
	0.01126305	0.009295462	-8.957e-10	-1.649268e-09	0.01978679	0.003829271	2.380792e-09	-1.038269e-08
	2.59868e-08	-9.279969e-09	0.01077255	0.009767226	2.380792e-09	-1.038269e-08	0.01933951	0.004430799
4.1e+08	0.02157651	0.002462557	2.004886e-10	-2.525189e-09	0.01272471	0.008688458	2.52019e-08	-1.47972e-08
	2.004886e-10	-2.525189e-09	0.02111533	0.003115238	-8.941459e-10	-1.59889e-09	0.01222239	0.00927087
	0.01272471	0.008688458	-8.941459e-10	-1.59889e-09	0.02166082	0.002307185	2.199947e-09	-1.152337e-08
	2.52019e-08	-1.47972e-08	0.01222239	0.00927087	2.199947e-09	-1.152337e-08	0.02121426	0.003019745
4.2e+08	0.02309581	0.0006263765	7.811493e-11	-2.692175e-09	0.01402687	0.007802347	2.333996e-08	-2.017352e-08
	7.811493e-11	-2.692175e-09	0.02266294	0.001389457	-8.743358e-10	-1.552845e-09	0.0135323	0.008498575
	0.01402687	0.007802347	-8.743358e-10	-1.552845e-09	0.02318144	0.0004557554	1.836586e-09	-1.26453e-08
	2.333996e-08	-2.017352e-08	0.0135323	0.008498575	1.836586e-09	-1.26453e-08	0.02275483	0.001279778
4.3e+08	0.02421177	-0.001462965	-6.754316e-11	-2.837494e-09	0.01511702	0.006674708	2.043019e-08	-2.519332e-08
	-6.754316e-11	-2.837494e-09	0.023827	-0.0005949714	-8.372346e-10	-1.515002e-09	0.01465041	0.00748388
	0.01511702	0.006674708	-8.372346e-10	-1.515002e-09	0.02429667	-0.001649357	1.294549e-09	-1.371281e-08
	2.043019e-08	-2.519332e-08	0.01465041	0.00748388	1.294549e-09	-1.371281e-08	0.02390933	-0.0007173723
4.4e+08	0.02488792	-0.003722622	-2.32132e-10	-2.957248e-09	0.01595117	0.005352802	1.654489e-08	-2.964763e-08
	-2.32132e-10	-2.957248e-09	0.02456992	-0.002759078	-7.846167e-10	-1.489017e-09	0.01553259	0.00626988
	0.01595117	0.005352802	-7.846167e-10	-1.489017e-09	0.02496988	-0.003924739	5.845846e-10	-1.469114e-08
	1.654489e-08	-2.964763e-08	0.01553259	0.00626988	5.845846e-10	-1.469114e-08	0.02464047	-0.002892239
4.5e+08	0.02510412	-0.006065028	-4.108028e-10	-3.04837e-09	0.01649565	0.003891687	1.17979e-08	-3.334254e-08
	-4.108028e-10	-3.04837e-09	0.02486963	-0.005018953	-7.190149e-10	-1.478153e-09	0.01614411	0.004907516
	0.01649565	0.003891687	-7.190149e-10	-1.478153e-09	0.02518098	-0.006282245	-2.758526e-10	-1.554767e-08
	1.17979e-08	-3.334254e-08	0.01614411	0.004907516	-2.758526e-10	-1.554767e-08	0.02492666	-0.005160483
4.6e+08	0.02485701	-0.008401043	-5.983123e-10	-3.108621e-09	0.0167284	0.002352025	6.341388e-09	-3.610737e-08
	-5.983123e-10	-3.108621e-09	0.02472023	-0.007288735	-6.436329e-10	-1.485132e-09	0.01646106	0.003453563
	0.0167284	0.002352025	-6.436329e-10	-1.485132e-09	0.02492679	-0.008632186	-1.262996e-09	-1.625323e-08
	6.341388e-09	-3.610737e-08	0.01646106	0.003453563	-1.262996e-09	-1.625323e-08	0.02476245	-0.007435904
4.7e+08	0.02415998	-0.01064311	-7.933274e-10	-3.135849e-09	0.01663991	0.0007976681	3.597916e-10	-3.779706e-08
	-7.933274e-10	-3.135849e-09	0.02413186	-0.009483623	-5.62088e-10	-1.51165e-09	0.0164712	0.001968386
