!$
! Info: Touchstone file created by Circ.  Input file=Tx_12in_Rx_93ohms_TxVia_10mils_RxVia_20mils.circ
!$
# Hz S RI R 50
0	0.01101243	7.452936e-26	-6.439731e-05	1.49227e-25	7.556926e-05	1.143302e-23	-6.440264e-05	4.621879e-25
	-6.439732e-05	1.496815e-25	0.01101173	1.072198e-25	-6.439685e-05	5.119532e-27	7.517067e-05	1.56603e-23
	7.368015e-05	1.127185e-23	-6.439685e-05	5.612632e-27	0.01102625	7.755249e-26	-6.439564e-05	3.465151e-25
	-6.440262e-05	4.597309e-25	7.662598e-05	1.611821e-23	-6.439561e-05	3.433297e-25	0.01101729	1.022377e-25
1e+07	0.01624305	-0.0008617043	-0.0003191052	-6.960993e-05	0.0004018811	0.001958449	-0.0001688414	0.000159245
	-0.0003191052	-6.960994e-05	0.01597524	-0.001563834	-4.37544e-06	-9.503612e-06	0.0004210311	0.002149318
	0.0004018421	0.001958474	-4.375435e-06	-9.503614e-06	0.01510291	-0.001416722	-1.764613e-05	1.657919e-06
	-0.0001688414	0.000159245	0.0004210641	0.002149306	-1.764613e-05	1.657924e-06	0.01566056	-0.001566417
2e+07	0.01916809	-0.006266357	-0.0003214785	3.256851e-05	0.001215584	0.003859802	-0.0001996749	0.0001948366
	-0.0003214785	3.256851e-05	0.0181564	-0.007223495	-5.373445e-06	-5.179506e-06	0.001123858	0.004219488
	0.001215592	0.003859821	-5.373444e-06	-5.17951e-06	0.01765374	-0.00669571	-8.553938e-06	-3.025012e-05
	-0.0001996749	0.0001948367	0.001123855	0.004219467	-8.553935e-06	-3.025012e-05	0.01792273	-0.007122657
3e+07	0.01937157	-0.01326143	-0.0003173928	9.337607e-05	0.002442646	0.005504658	-0.0002074363	0.0002330591
	-0.0003173928	9.337607e-05	0.01779907	-0.01407658	-1.237014e-05	-6.588955e-06	0.002347245	0.005937858
	0.002442643	0.005504658	-1.237014e-05	-6.588955e-06	0.01759837	-0.01348108	-2.910296e-05	-3.330189e-05
	-0.0002074363	0.0002330591	0.00234724	0.005937855	-2.910296e-05	-3.330189e-05	0.01762537	-0.01395754
4e+07	0.01737174	-0.02032957	-0.000305222	0.0001487488	0.004011418	0.006799083	-0.0002021366	0.0002639875
	-0.000305222	0.0001487488	0.01537826	-0.02083241	-1.765155e-05	-4.577842e-06	0.003972555	0.007255147
	0.004011413	0.006799086	-1.765155e-05	-4.577842e-06	0.01543404	-0.02027756	-4.636707e-05	-2.816372e-05
	-0.0002021366	0.0002639875	0.003972555	0.007255149	-4.636707e-05	-2.816372e-05	0.01524906	-0.02072042
5e+07	0.01350462	-0.02680011	-0.0002861814	0.0001994297	0.005825326	0.007671057	-0.0001896797	0.0002860425
	-0.0002861814	0.0001994297	0.01122457	-0.02688549	-2.139564e-05	-7.777424e-07	0.005831158	0.008132288
	0.005825324	0.007671059	-2.139564e-05	-7.777425e-07	0.01149027	-0.02644154	-6.011728e-05	-1.764877e-05
	-0.0001896797	0.0002860425	0.005831158	0.008132289	-6.011728e-05	-1.764877e-05	0.01112489	-0.02679186
6e+07	0.008118126	-0.03220946	-0.0002755891	0.0002284596	0.007773268	0.008076038	-0.0001752205	0.0002989818
	-0.0002755891	0.0002284596	0.00568596	-0.03181488	-2.368598e-05	4.233252e-06	0.007812346	0.008532276
	0.007773269	0.008076035	-2.368598e-05	4.233253e-06	0.006110945	-0.03153111	-6.987996e-05	-3.204288e-06
	-0.0001752205	0.0002989818	0.007812343	0.008532277	-6.987996e-05	-3.204288e-06	0.005602959	-0.03174438
7e+07	0.001597448	-0.03622912	-0.0002617028	0.0002576847	0.009737612	0.007998831	-0.0001634468	0.0003035204
	-0.0002617028	0.0002576847	-0.0008526085	-0.03532653	-2.442444e-05	9.93636e-06	0.00979911	0.008444462
	0.009737612	0.007998826	-2.442444e-05	9.936361e-06	-0.0003229717	-0.03523591	-7.51175e-05	1.402074e-05
	-0.0001634468	0.0003035204	0.009799105	0.008444465	-7.51175e-05	1.402074e-05	-0.0009305489	-0.03528034
8e+07	-0.005642245	-0.03864907	-0.0002447123	0.0002863314	0.01160203	0.007453901	-0.0001588831	0.0003015743
	-0.0002447123	0.0002863314	-0.007977562	-0.03724018	-2.353755e-05	1.599868e-05	0.0116755	0.007885997
	0.01160203	0.007453895	-2.353755e-05	1.599868e-05	-0.007400926	-0.03736123	-7.530546e-05	3.293676e-05
	-0.0001588831	0.0003015743	0.0116755	0.007886001	-7.530546e-05	3.293676e-05	-0.008061178	-0.0372163
9e+07	-0.01317453	-0.03937247	-0.0002253362	0.0003135816	0.01325973	0.006484136	-0.000166339	0.0002958507
	-0.0002253362	0.0003135816	-0.01526253	-0.03748394	-2.086256e-05	2.214817e-05	0.01333363	0.006900796
	0.01325973	0.006484132	-2.086256e-05	2.214817e-05	-0.01469936	-0.0378222	-6.985356e-05	5.249419e-05
	-0.000166339	0.0002958506	0.01333362	0.0069008	-6.985356e-05	5.249419e-05	-0.01536131	-0.03747755
1e+08	-0.02059997	-0.03841668	-0.0002072796	0.0003377925	0.0146298	0.005161787	-0.0001983528	0.0002868693
	-0.0002072796	0.0003377925	-0.0222695	-0.03608235	-1.554082e-05	2.833128e-05	0.01467961	0.005556093
	0.01462979	0.005161787	-1.554082e-05	2.833128e-05	-0.0217958	-0.03663656	-5.668529e-05	7.217874e-05
	-0.0001983528	0.0002868693	0.01467961	0.005556093	-5.668529e-05	7.217874e-05	-0.02239389	-0.03608778
1.1e+08	-0.02750405	-0.03578192	-0.0001816164	0.0003488361	0.01559423	0.003610087	-0.0002247858	0.0002487548
	-0.0001816164	0.0003488361	-0.02863707	-0.0333045	-8.335225e-06	3.032883e-05	0.01563713	0.003942337
	0.01559423	0.003610087	-8.335225e-06	3.032883e-05	-0.02830951	-0.03397589	-3.774404e-05	8.155648e-05
	-0.0002247858	0.0002487548	0.01563713	0.003942336	-3.774404e-05	8.155648e-05	-0.0287914	-0.03329863
1.2e+08	-0.03344638	-0.03174382	-0.0001492381	0.0003595581	0.01610841	0.001870848	-0.0002463257	0.0002277158
	-0.0001492381	0.0003595581	-0.03414169	-0.029239	-2.403624e-06	3.078128e-05	0.01616077	0.002162117
	0.01610841	0.001870849	-2.403624e-06	3.078128e-05	-0.03394287	-0.0299873	-2.072984e-05	8.627981e-05
	-0.0002463257	0.0002277158	0.01616077	0.002162117	-2.072984e-05	8.627981e-05	-0.03431455	-0.02921261
1.3e+08	-0.03817094	-0.02659749	-0.0001140216	0.0003675371	0.01616165	6.420882e-05	-0.0002707268	0.0002202228
	-0.0001140216	0.0003675371	-0.03848009	-0.02413809	2.961884e-06	3.02615e-05	0.01622646	0.0003237228
	0.01616165	6.420897e-05	2.961884e-06	3.02615e-05	-0.03840728	-0.02493406	-4.364273e-06	8.752931e-05
	-0.0002707268	0.0002202228	0.01622646	0.0003237228	-4.364273e-06	8.752931e-05	-0.03866277	-0.02408642
1.4e+08	-0.04147985	-0.02067705	-7.724253e-05	0.000371961	0.01575863	-0.001695233	-0.0002964956	0.0002264436
	-7.724253e-05	0.000371961	-0.04144924	-0.0183207	5.381872e-06	2.914368e-05	0.01583681	-0.001462341
	0.01575863	-0.001695233	5.381872e-06	2.914368e-05	-0.04149888	-0.01913711	1.110657e-05	8.568013e-05
	-0.0002964956	0.0002264436	0.01583681	-0.001462341	1.110657e-05	8.568013e-05	-0.04163319	-0.0182417
1.5e+08	-0.04325864	-0.01434645	-3.990318e-05	0.0003724563	0.01492886	-0.003298974	-0.0003206094	0.0002462794
	-3.990318e-05	0.0003724563	-0.04293501	-0.01214013	7.739732e-06	2.787969e-05	0.01502031	-0.003090135
	0.01492886	-0.003298974	7.739732e-06	2.787969e-05	-0.04310029	-0.01295099	2.522835e-05	8.10813e-05
	-0.0003206094	0.0002462794	0.01502031	-0.003090135	2.522835e-05	8.10813e-05	-0.04311198	-0.01203419
1.6e+08	-0.04348126	-0.007979892	-2.842481e-06	0.0003689669	0.01372559	-0.004649702	-0.0003396255	0.0002787665
	-2.842481e-06	0.0003689669	-0.04291323	-0.00596142	1.002063e-05	2.645392e-05	0.01382919	-0.004464107
	0.01372559	-0.004649702	1.002063e-05	2.645392e-05	-0.04318322	-0.006742371	3.758336e-05	7.418981e-05
	-0.0003396255	0.0002787665	0.01382919	-0.004464107	3.758336e-05	7.418981e-05	-0.04307572	-0.005831138
1.7e+08	-0.04220912	-0.001941523	3.323124e-05	0.000361653	0.01222277	-0.005666231	-0.0003502821	0.0003219623
	3.323124e-05	0.000361653	-0.04144758	-0.0001399708	1.218466e-05	2.486541e-05	0.01233627	-0.005504186
	0.01222277	-0.005666231	1.218466e-05	2.486541e-05	-0.0418069	-0.0008689914	4.785362e-05	6.554568e-05
	-0.0003502821	0.0003219623	0.01233627	-0.005504186	4.785362e-05	6.554568e-05	-0.04158923	1.017939e-05
1.8e+08	-0.03958537	0.003433964	6.775373e-05	0.0003508273	0.0105108	-0.006287647	-0.0003499263	0.0003730528
	6.775373e-05	0.0003508273	-0.03868321	0.004998371	1.420346e-05	2.312225e-05	0.01063066	-0.006149965
	0.0105108	-0.006287647	1.420346e-05	2.312225e-05	-0.03911213	0.004339969	5.58629e-05	5.573816e-05
	-0.0003499263	0.0003730528	0.01063066	-0.006149965	5.58629e-05	5.573816e-05	-0.03879917	0.005162392
1.9e+08	-0.03582504	0.007858753	0.0001003156	0.0003368951	0.008691374	-0.006476423	-0.0003368141	0.000428601
	0.0001003156	0.0003368951	-0.03483642	0.009174936	1.605718e-05	2.123701e-05	0.008812787	-0.006363831
	0.008691374	-0.006476423	1.605718e-05	2.123701e-05	-0.03531136	0.008601499	6.159439e-05	4.535883e-05
	-0.0003368141	0.000428601	0.008812787	-0.006363831	6.159439e-05	4.535883e-05	-0.03492366	0.009345767
2e+08	-0.03120157	0.01110656	0.0001306614	0.0003202966	0.006871839	-0.006220324	-0.00031028	0.000484878
	0.0001306614	0.0003202966	-0.03018087	0.01217291	1.773208e-05	1.922366e-05	0.006988793	-0.0061329
	0.006871839	-0.006220324	1.773208e-05	1.922366e-05	-0.03067516	0.01169346	6.518645e-05	3.495157e-05
	-0.00031028	0.000484878	0.006988793	-0.0061329	6.518645e-05	3.495157e-05	-0.03023836	0.01234292
2.1e+08	-0.02603026	0.01302446	0.0001586745	0.0003014551	0.005152938	-0.005540535	-0.0002707717	0.00053823
	0.0001586745	0.0003014551	-0.02503103	0.01384837	1.921227e-05	1.709058e-05	0.00526469	-0.005469671
	0.005152938	-0.005540535	1.921227e-05	1.709058e-05	-0.0255157	0.01346649	6.687299e-05	2.491403e-05
	-0.0002707717	0.00053823	0.00526469	-0.005469671	6.687299e-05	2.491403e-05	-0.02505976	0.01400989
2.2e+08	-0.0206501	0.01353845	0.000184349	0.0002807351	0.003635533	-0.004471784	-0.000219747	0.0005854247
	0.000184349	0.0002807351	-0.01972356	0.01413717	2.048833e-05	1.485176e-05	0.003740432	-0.004411341
	0.003635533	-0.004471784	2.048833e-05	1.485176e-05	-0.02016863	0.01384952	6.699309e-05	1.558069e-05
	-0.000219747	0.0005854247	0.003740432	-0.004411341	6.699309e-05	1.558069e-05	-0.01972652	0.01428299
2.3e+08	-0.01540546	0.01265618	0.0002077509	0.0002584136	0.002417015	-0.003066074	-0.0001594636	0.0006239395
	0.0002077509	0.0002584136	-0.01459788	0.01305734	2.156002e-05	1.252518e-05	0.002504265	-0.003017768
	0.002417015	-0.003066074	2.156002e-05	1.252518e-05	-0.01497476	0.01285258	6.600127e-05	7.198767e-06
	-0.0001594636	0.0006239395	0.002504265	-0.003017768	6.600128e-05	7.198767e-06	-0.01457985	0.01318119
2.4e+08	-0.01062556	0.01046704	0.0002289724	0.000234669	0.001569312	-0.0014063	-9.268547e-05	0.0006521647
	0.0002289724	0.000234669	-0.009976662	0.01070683	2.241868e-05	1.012154e-05	0.001627643	-0.001368145
	0.001569312	-0.0014063	2.241868e-05	1.012154e-05	-0.01025964	0.01056682	6.430961e-05	-2.08674e-07
	-9.268547e-05	0.0006521647	0.001627643	-0.001368145	6.430961e-05	-2.086741e-07	-0.009943927	0.01080382
2.5e+08	-0.006606314	0.00713492	0.0002480881	0.0002095855	0.001142268	0.0004097824	-2.233975e-05	0.0006694808
	0.0002480881	0.0002095855	-0.006147514	0.007256887	2.30539e-05	7.652667e-06	0.001161012	0.0004434848
	0.001142268	0.0004097824	2.30539e-05	7.652667e-06	-0.006315424	0.00715731	6.227141e-05	-6.75544e-06
	-2.233975e-05	0.0006694808	0.001161012	0.0004434848	6.227141e-05	-6.75544e-06	-0.006107467	0.007323833
2.6e+08	-0.003593936	0.002887837	0.0002651157	0.0001831753	0.001160605	0.002275263	4.882915e-05	0.0006762171
	0.0002651157	0.0001831753	-0.003346755	0.002941133	2.345349e-05	5.13287e-06	0.001130757	0.00231366
	0.001160605	0.002275263	2.345349e-05	5.13287e-06	-0.003384513	0.002852627	6.013924e-05	-1.265894e-05
	4.882915e-05	0.0006762171	0.001130757	0.00231366	6.013924e-05	-1.265894e-05	-0.003307494	0.00297679
2.7e+08	-0.001771458	-0.001996014	0.000279991	0.0001554128	0.001622363	0.004080433	0.0001185591	0.0006734919
	0.000279991	0.0001554128	-0.001746457	-0.001958753	2.360494e-05	2.58018e-06	0.001537534	0.004135585
	0.001622363	0.004080433	2.360494e-05	2.58018e-06	-0.001646216	-0.002069074	5.803748e-05	-1.819369e-05
	0.0001185591	0.0006734919	0.001537534	0.004135585	5.803748e-05	-1.819369e-05	-0.001716179	-0.00195354
2.8e+08	-0.001249042	-0.007204967	0.000292556	0.0001262776	0.002498943	0.005719396	0.0001852972	0.0006629623
	0.000292556	0.0001262776	-0.001445085	-0.007129994	2.34961e-05	1.695166e-08	0.002356157	0.005805495
	0.002498943	0.005719396	2.34961e-05	1.695166e-08	-0.001207113	-0.007296761	5.595367e-05	-2.363872e-05
	0.0001852972	0.0006629623	0.002356157	0.005805495	5.595367e-05	-2.363872e-05	-0.001431593	-0.007152335
2.9e+08	-0.002058584	-0.01241236	0.0003025649	9.579711e-05	0.00373681	0.007096508	0.0002483121	0.000646512
	0.0003025649	9.579711e-05	-0.00246266	-0.0122474	2.311675e-05	-2.529904e-06	0.003537076	0.007228898
	0.00373681	0.007096508	2.311675e-05	-2.529904e-06	-0.002095742	-0.01250498	5.374947e-05	-2.922513e-05
	0.0002483121	0.000646512	0.003537076	0.007228898	5.374947e-05	-2.922513e-05	-0.002472864	-0.01229251
3e+08	-0.0041529	-0.01729569	0.0003097073	6.408549e-05	0.005260781	0.008132214	0.0003076878	0.0006259267
	0.0003097073	6.408549e-05	-0.004740559	-0.01699255	2.246004e-05	-5.029127e-06	0.005009387	0.008326281
	0.005260781	0.008132214	2.246004e-05	-5.029127e-06	-0.004261882	-0.01737294	5.119029e-05	-3.509171e-05
	0.0003076878	0.0006259267	0.005009387	0.008326281	5.119029e-05	-3.509171e-05	-0.004780023	-0.01705403
3.1e+08	-0.007409542	-0.02155525	0.0003136459	3.137027e-05	0.006978682	0.008767883	0.0003642066	0.0006025951
	0.0003136459	3.137027e-05	-0.008145934	-0.02107238	2.152396e-05	-7.445698e-06	0.006685196	0.009037871
	0.006978682	0.008767883	2.152396e-05	-7.445698e-06	-0.007580449	-0.02160314	4.798894e-05	-4.12551e-05
	0.0003642066	0.0006025951	0.006685196	0.009037871	4.798894e-05	-4.12551e-05	-0.008218504	-0.02114257
3.2e+08	-0.01163892	-0.0249312	0.00031406	-1.996416e-06	0.008787076	0.008969295	0.0004191238	0.0005772791
	0.00031406	-1.996416e-06	-0.01248044	-0.02423596	2.03125e-05	-9.741874e-06	0.008465023	0.009327146
	0.008787076	0.008969295	2.03125e-05	-9.741874e-06	-0.0118597	-0.02493834	4.385717e-05	-4.759787e-05
	0.0004191238	0.0005772791	0.008465023	0.009327146	4.385717e-05	-4.759787e-05	-0.01258797	-0.02430644
3.3e+08	-0.01659624	-0.02721812	0.0003106928	-3.554393e-05	0.01057766	0.008728567	0.0004738804	0.0005499833
	0.0003106928	-3.554393e-05	-0.01749264	-0.02628866	1.883669e-05	-1.187852e-05	0.0102439	0.009182854
	0.01057766	0.008728567	1.883669e-05	-1.187852e-05	-0.01685319	-0.02717601	3.85578e-05	-5.387693e-05
	0.0004738804	0.0005499833	0.0102439	0.009182854	3.85578e-05	-5.387693e-05	-0.01763486	-0.02635074
3.4e+08	-0.02199634	-0.02827602	0.0003033931	-6.87066e-05	0.01224392	0.008064392	0.0005297934	0.0005199343
	0.0003033931	-6.87066e-05	-0.02289336	-0.02710269	1.711532e-05	-1.38168e-05	0.01191773	0.008619434
	0.01224392	0.008064392	1.711532e-05	-1.38168e-05	-0.02227477	-0.0281793	3.194973e-05	-5.975054e-05
	0.0005297934	0.0005199343	0.01191773	0.008619434	3.194973e-05	-5.975054e-05	-0.02306786	-0.02714796
3.5e+08	-0.02753073	-0.02803762	0.0002921456	-0.0001008603	0.01368749	0.007020627	0.0005877516	0.0004856819
	0.0002921456	-0.0001008603	-0.02837295	-0.02662365	1.517522e-05	-1.55201e-05	0.01338946	0.007675851
	0.01368749	0.007020627	1.517522e-05	-1.55201e-05	-0.02781549	-0.02788411	2.401991e-05	-6.48195e-05
	0.0005877516	0.0004856819	0.01338946	0.007675851	2.401991e-05	-6.48195e-05	-0.0285753	-0.02664449
3.6e+08	-0.03288553	-0.02651111	0.0002770875	-0.0001313679	0.01482402	0.005663361	0.0006479756	0.0004452961
	0.0002770875	-0.0001313679	-0.03361936	-0.02487276	1.305094e-05	-1.695625e-05	0.01457475	0.006412966
	0.01482402	0.005663361	1.305094e-05	-1.695625e-05	-0.03316169	-0.02630185	1.489799e-05	-6.867725e-05
	0.0006479756	0.0004452961	0.01457475	0.006412966	1.489799e-05	-6.867725e-05	-0.03384337	-0.02486283
3.7e+08	-0.03775942	-0.02377876	0.000258507	-0.0001596278	0.01558795	0.004076698	0.0007098591	0.0003966446
	0.000258507	-0.0001596278	-0.03833616	-0.02194466	1.078378e-05	-1.809961e-05	0.01540668	0.004909666
	0.01558795	0.004076698	1.078378e-05	-1.809961e-05	-0.03801289	-0.02351786	4.852053e-06	-7.096133e-05
	0.0007098591	0.0003966446	0.01540668	0.004909666	4.852053e-06	-7.096133e-05	-0.03857423	-0.0218993
3.8e+08	-0.04188062	-0.01999134	0.0002368272	-0.0001851178	0.01593612	0.002357582	0.0007719205	0.0003377065
	0.0002368272	-0.0001851178	-0.04225921	-0.01800115	8.420087e-06	-1.893294e-05	0.01583942	0.003258039
	0.01593612	0.002357582	8.420087e-06	-1.893294e-05	-0.04209867	-0.01968572	-5.7335e-06	-7.13999e-05
	0.0007719205	0.0003377065	0.01583942	0.003258039	-5.7335e-06	-7.13999e-05	-0.0425028	-0.01791765
3.9e+08	-0.04502183	-0.01535879	0.0002125745	-0.0002074321	0.01585002	0.0006099852	0.0008318666	0.0002668856
	0.0002125745	-0.0002074321	-0.04517137	-0.01326122	6.008894e-06	-1.944876e-05	0.0158505	0.001557911
	0.01585002	0.0006099852	6.008894e-06	-1.944876e-05	-0.0451937	-0.01501786	-1.639473e-05	-6.984719e-05
	0.0008318666	0.0002668856	0.0158505	0.001557911	-1.639473e-05	-6.984719e-05	-0.04541149	-0.01313907
4e+08	-0.04701258	-0.01013782	0.0001863391	-0.0002263039	0.01533649	-0.001061163	0.0008867626	0.0001832878
	0.0001863391	-0.0002263039	-0.04691426	-0.007988153	3.59918e-06	-1.964975e-05	0.0154418	-8.891255e-05
	0.01533649	-0.001061163	3.59918e-06	-1.964975e-05	-0.04712986	-0.009772991	-2.663455e-05	-6.6304e-05
	0.0008867626	0.0001832878	0.0154418	-8.891255e-05	-2.663455e-05	-6.6304e-05	-0.047142	-0.007829009
4.1e+08	-0.04774815	-0.004617094	0.0001587301	-0.0002416146	0.01442708	-0.002555969	0.0009332876	8.692014e-05
	0.0001587301	-0.0002416146	-0.04739666	-0.002474198	1.237044e-06	-1.954836e-05	0.01463916	-0.001584391
	0.01442708	-0.002555969	1.237044e-06	-1.954836e-05	-0.04780519	-0.004241284	-3.597296e-05	-6.092108e-05
	0.0009332876	8.692014e-05	0.01463916	-0.001584391	-3.597296e-05	-6.092108e-05	-0.04760375	-0.002281866
4.2e+08	-0.04719498	0.0008991058	0.0001303305	-0.0002533877	0.01317606	-0.003785191	0.0009680441	-2.12044e-05
	0.0001303305	-0.0002533877	-0.04659909	0.002975995	-1.036808e-06	-1.916529e-05	0.01349065	-0.002839676
	0.01317606	-0.003785191	-1.036808e-06	-1.916529e-05	-0.0471891	0.001272099	-4.399514e-05	-5.398541e-05
	0.0009680441	-2.12044e-05	0.01349065	-0.002839676	-4.399514e-05	-5.398541e-05	-0.04677839	0.003195796
4.3e+08	-0.04539194	0.00610794	0.0001016588	-0.0002617681	0.01165716	-0.004675185	0.0009878878	-0.0001390687
	0.0001016588	-0.0002617681	-0.04457442	0.008062566	-3.188908e-06	-1.852738e-05	0.01206377	-0.003779972
	0.01165716	-0.004675185	-3.188908e-06	-1.852738e-05	-0.04532359	0.006464075	-5.039183e-05	-4.589146e-05
	0.0009878878	-0.0001390687	0.01206377	-0.003779972	-5.039183e-05	-4.589146e-05	-0.04472036	0.008302513
4.4e+08	-0.04244782	0.01072482	7.313928e-05	-0.0002669908	0.009959341	-0.005171973	0.0009902395	-0.000263764
	7.313928e-05	-0.0002669908	-0.04144454	0.01250717	-5.193917e-06	-1.766484e-05	0.01044163	-0.004348604
	0.009959341	-0.005171973	-5.193917e-06	-1.766484e-05	-0.04232054	0.01105048	-5.498773e-05	-3.710077e-05
	0.0009902395	-0.000263764	0.01044163	-0.004348604	-5.498773e-05	-3.710077e-05	-0.04155343	0.01275876
4.5e+08	-0.03853498	0.01449913	4.508487e-05	-0.0002693447	0.008181815	-0.005244233	0.0009734271	-0.0003915918
	4.508487e-05	-0.0002693447	-0.03739319	0.01606845	-7.034516e-06	-1.660866e-05	0.008718224	-0.004510117
	0.008181815	-0.005244233	-7.034516e-06	-1.660866e-05	-0.03835527	0.01478179	-5.775506e-05	-2.809606e-05
	0.0009734271	-0.0003915918	0.008718224	-0.004510117	-5.775506e-05	-2.809606e-05	-0.03746354	0.01632248
4.6e+08	-0.03387953	0.01722815	1.775936e-05	-0.0002689455	0.006428425	-0.004885077	0.0009232228	-0.0005324025
	1.775936e-05	-0.0002689455	-0.03265554	0.01855545	-8.699942e-06	-1.539142e-05	0.006993299	-0.00425224
	0.006428425	-0.004885077	-8.699942e-06	-1.539142e-05	-0.03365655	0.0174569	-5.874199e-05	-1.915323e-05
	0.0009232228	-0.0005324025	0.006993299	-0.00425224	-5.874199e-05	-1.915323e-05	-0.03268811	0.01880264
4.7e+08	-0.02874862	0.01876799	-8.749798e-06	-0.0002662471	0.004801805	-0.004112514	0.000848819	-0.000666193
	-8.749798e-06	-0.0002662471	-0.02750487	0.01983817	-1.018695e-05	-1.403657e-05	0.005366731	-0.003586639
	0.004801805	-0.004112514	-1.018695e-05	-1.403657e-05	-0.02849379	0.01893428	-5.820201e-05	-1.083029e-05
