!$
! Info: Touchstone file created by Circ.  Input file=Tx_10in_Rx_93ohms_TxVia_10mils_RxVia_20mils.circ
!$
# Hz S RI R 50
0	0.009214602	6.599754e-26	1.096276e-10	1.982394e-28	6.659612e-05	9.770324e-24	-5.035813e-09	6.168461e-25
	1.096395e-10	1.984251e-28	0.009215257	9.171071e-26	5.434446e-10	3.334389e-27	6.468643e-05	1.309144e-23
	6.529547e-05	9.51988e-24	5.433832e-10	3.341545e-27	0.009229839	6.910836e-26	-9.137578e-09	1.132909e-24
	-5.034931e-09	6.167382e-25	6.614241e-05	1.347423e-23	-9.137773e-09	1.132932e-24	0.009220838	8.746129e-26
1e+07	0.0131437	-0.0009932737	4.687276e-11	-2.77039e-11	0.0003234096	0.001833372	-6.567445e-09	1.708803e-08
	4.687277e-11	-2.770419e-11	0.01341322	-0.001016818	6.614215e-10	1.076693e-09	0.0003195168	0.001827384
	0.0003233655	0.001833376	6.614214e-10	1.076693e-09	0.01343125	-0.001029448	-7.969408e-09	1.691336e-08
	-6.567445e-09	1.708803e-08	0.0003195496	0.001827372	-7.969409e-09	1.691337e-08	0.01315211	-0.00102417
2e+07	0.01532095	-0.005278547	4.964112e-11	-3.576427e-11	0.0008203957	0.003628784	-5.164538e-09	1.395269e-08
	4.96409e-11	-3.576436e-11	0.01550009	-0.005413464	8.21642e-10	1.904005e-09	0.0008101127	0.00361985
	0.0008203858	0.003628812	8.216422e-10	1.904006e-09	0.01552719	-0.005441373	-6.777767e-09	1.459453e-08
	-5.164538e-09	1.395269e-08	0.0008101101	0.003619828	-6.777767e-09	1.459453e-08	0.015303	-0.005336113
3e+07	0.01563474	-0.01074027	6.828194e-11	-7.193375e-11	0.001733165	0.005180233	-1.359015e-09	1.316811e-08
	6.828191e-11	-7.193371e-11	0.01572784	-0.0109064	8.729755e-10	2.703024e-09	0.001696466	0.005178522
	0.001733166	0.005180238	8.729756e-10	2.703024e-09	0.01576926	-0.01095378	-2.434602e-09	1.449081e-08
	-1.359015e-09	1.316811e-08	0.001696461	0.005178519	-2.434602e-09	1.449081e-08	0.01557861	-0.01081377
4e+07	0.0144444	-0.01635959	7.218397e-11	-1.114857e-10	0.00296412	0.006471745	1.710166e-09	1.172258e-08
	7.218395e-11	-1.114858e-10	0.01445187	-0.0165263	8.878229e-10	3.532607e-09	0.002906326	0.006481857
	0.002964116	0.006471743	8.878229e-10	3.532607e-09	0.01451116	-0.01659933	1.026673e-09	1.331121e-08
	1.710166e-09	1.172258e-08	0.002906326	0.006481858	1.026673e-09	1.331121e-08	0.01433903	-0.01643908
5e+07	0.01194838	-0.02171083	7.636628e-11	-1.4534e-10	0.004408519	0.007474317	3.770828e-09	1.027621e-08
	7.636623e-11	-1.453401e-10	0.01187245	-0.02185405	8.918979e-10	4.377313e-09	0.004328315	0.007503177
	0.004408518	0.007474316	8.918978e-10	4.377313e-09	0.01195094	-0.02196019	3.266817e-09	1.199412e-08
	3.770828e-09	1.027621e-08	0.004328315	0.007503178	3.266817e-09	1.199412e-08	0.0117846	-0.02178192
6e+07	0.008332109	-0.02649683	9.723279e-11	-1.759541e-10	0.006004692	0.008154899	5.021074e-09	9.437459e-09
	9.72329e-11	-1.759541e-10	0.008178142	-0.02659517	8.917495e-10	5.219822e-09	0.005902585	0.00820971
	0.006004698	0.008154897	8.917495e-10	5.219822e-09	0.008274677	-0.02674239	4.444912e-09	1.118622e-08
	5.021074e-09	9.437459e-09	0.005902581	0.008209711	4.444912e-09	1.118622e-08	0.00810554	-0.02654286
7e+07	0.003795603	-0.0304924	2.181083e-10	-1.838157e-10	0.007684684	0.008492362	5.083816e-09	1.01338e-08
	2.181086e-10	-1.838158e-10	0.003572589	-0.03052664	9.272362e-10	6.022392e-09	0.007563071	0.008580183
	0.007684695	0.008492355	9.272362e-10	6.022392e-09	0.003683476	-0.03072261	4.154302e-09	1.139287e-08
	5.083816e-09	1.01338e-08	0.007563066	0.008580186	4.154302e-09	1.139287e-08	0.003506205	-0.03049645
8e+07	-0.001442332	-0.03352981	-4.644595e-10	-1.461799e-09	0.009377411	0.008479303	-6.061065e-10	1.115538e-08
	-4.64459e-10	-1.461799e-09	-0.001721694	-0.03348313	1.159693e-09	7.000348e-09	0.009240551	0.008606611
	0.009377421	0.008479292	1.159693e-09	7.000348e-09	-0.001602488	-0.03373458	2.204904e-10	1.140852e-08
	-6.061066e-10	1.115538e-08	0.009240546	0.008606615	2.204905e-10	1.140852e-08	-0.00179082	-0.03347526
9e+07	-0.007146406	-0.03549389	5.668387e-11	-4.033773e-10	0.01101177	0.008122597	-2.808104e-09	2.714493e-09
	5.66842e-11	-4.033778e-10	-0.00746568	-0.03535223	1.041371e-09	8.078281e-09	0.01086568	0.00829488
	0.01101178	0.008122588	1.041371e-09	8.078281e-09	-0.007346209	-0.03566432	-2.702684e-09	5.052101e-09
	-2.808104e-09	2.714493e-09	0.01086567	0.008294884	-2.702684e-09	5.0521e-09	-0.007546363	-0.03536478
1e+08	-0.01305767	-0.03631245	3.545655e-11	-3.536128e-10	0.01251929	0.007442519	-3.141557e-10	7.50429e-11
	3.545655e-11	-3.536128e-10	-0.01339437	-0.03606349	9.296492e-10	8.9881e-09	0.01237182	0.007664056
	0.01251929	0.007442519	9.296492e-10	8.9881e-09	-0.01328428	-0.03643929	-6.606646e-10	1.676836e-09
	-3.141557e-10	7.50429e-11	0.01237182	0.007664056	-6.606646e-10	1.676836e-09	-0.01349717	-0.03609428
1.1e+08	-0.01892886	-0.03608695	9.400853e-12	-3.950789e-10	0.01383602	0.006477482	-3.154043e-10	1.630118e-10
	9.400852e-12	-3.950789e-10	-0.01925827	-0.03573876	1.007054e-09	9.973941e-09	0.01369585	0.006748378
	0.01383602	0.006477482	1.007054e-09	9.973941e-09	-0.01916682	-0.03618151	-6.066489e-10	2.004536e-09
	-3.154043e-10	1.630118e-10	0.01369585	0.006748378	-6.066489e-10	2.004536e-09	-0.01939184	-0.03576895
1.2e+08	-0.02462713	-0.03477482	-2.400874e-11	-4.348482e-10	0.01491358	0.005272755	-2.976832e-10	2.499155e-10
	-2.400874e-11	-4.348482e-10	-0.0249382	-0.03433056	1.127491e-09	1.096304e-08	0.01478881	0.005592974
	0.01491358	0.005272755	1.127491e-09	1.096304e-08	-0.02487836	-0.03483797	-5.003002e-10	2.327896e-09
	-2.976832e-10	2.499155e-10	0.01478881	0.005592974	-5.003002e-10	2.327896e-09	-0.02509588	-0.03435045
1.3e+08	-0.02991417	-0.0324338	-6.595433e-11	-4.6943e-10	0.01570933	0.003882328	-2.592231e-10	3.337448e-10
	-6.595433e-11	-4.6943e-10	-0.0301922	-0.0318972	1.292911e-09	1.194633e-08	0.01560864	0.004249935
	0.01570933	0.003882329	1.292911e-09	1.194633e-08	-0.03017603	-0.03246366	-3.429353e-10	2.636025e-09
	-2.592231e-10	3.337448e-10	0.01560864	0.004249935	-3.429353e-10	2.636025e-09	-0.03036917	-0.03190064
1.4e+08	-0.03459098	-0.02917594	-1.157292e-10	-4.961549e-10	0.01619318	0.002367903	-2.005334e-10	4.095916e-10
	-1.157292e-10	-4.961549e-10	-0.03482109	-0.02855371	1.50347e-09	1.291309e-08	0.01612502	0.002778804
	0.01619318	0.002367903	1.50347e-09	1.291309e-08	-0.03485918	-0.02917075	-1.375274e-10	2.91703e-09
	-2.005334e-10	4.095916e-10	0.01612502	0.002778804	-1.375274e-10	2.91703e-09	-0.03501214	-0.02853618
1.5e+08	-0.03849129	-0.02514987	-1.71595e-10	-5.134493e-10	0.0163483	0.0007955681	-1.239608e-10	4.723343e-10
	-1.71595e-10	-5.134493e-10	-0.03865953	-0.02445198	1.756683e-09	1.385249e-08	0.01632029	0.001243584
	0.0163483	0.0007955681	1.756683e-09	1.385249e-08	-0.03876055	-0.02510867	1.105036e-10	3.158738e-09
	-1.239608e-10	4.723343e-10	0.01632029	0.001243584	1.105036e-10	3.158738e-09	-0.038859	-0.02441041
1.6e+08	-0.04148529	-0.02053232	-2.309371e-10	-5.157335e-10	0.01617151	-0.0007669977	-3.152092e-11	5.184564e-10
	-2.309371e-10	-5.157335e-10	-0.04157959	-0.01977192	2.04759e-09	1.475415e-08	0.01618999	-0.0002899445
	0.01617151	-0.0007669976	2.04759e-09	1.475415e-08	-0.04174985	-0.02045527	3.933496e-10	3.354553e-09
	-3.152092e-11	5.184564e-10	0.01618999	-0.0002899445	3.933496e-10	3.354553e-09	-0.04178154	-0.01970469
1.7e+08	-0.043483	-0.01551988	-2.894413e-10	-5.011384e-10	0.01567324	-0.002253278	7.28915e-11	5.441378e-10
	-2.894413e-10	-5.011384e-10	-0.04349398	-0.01471292	2.368696e-09	1.560883e-08	0.01574276	-0.001756858
	0.01567324	-0.002253277	2.368696e-09	1.560883e-08	-0.04373697	-0.01540835	7.020141e-10	3.496557e-09
	7.28915e-11	5.441378e-10	0.01574276	-0.001756858	7.020141e-10	3.496557e-09	-0.04369242	-0.01461981
1.8e+08	-0.04443634	-0.01032064	-3.420387e-10	-4.691359e-10	0.01487683	-0.003600539	1.845017e-10	5.465477e-10
	-3.420387e-10	-4.691359e-10	-0.04435802	-0.00948528	2.710306e-09	1.640897e-08	0.01499981	-0.003095615
	0.01487683	-0.003600539	2.710306e-09	1.640897e-08	-0.0446741	-0.01017718	1.02593e-09	3.578511e-09
	1.845017e-10	5.465477e-10	0.01499981	-0.003095615	1.02593e-09	3.578511e-09	-0.04454719	-0.009367444
1.9e+08	-0.04433977	-0.005145716	-3.83374e-10	-4.208088e-10	0.01381751	-0.004752258	2.979374e-10	5.240348e-10
	-3.83374e-10	-4.208088e-10	-0.04417012	-0.00430165	3.060894e-09	1.714914e-08	0.01399394	-0.004250397
	0.01381751	-0.004752258	3.060894e-09	1.714914e-08	-0.04455625	-0.004974035	1.353186e-09	3.596096e-09
	2.979374e-10	5.240348e-10	0.01399394	-0.004250397	1.353186e-09	3.596096e-09	-0.04434473	-0.004161475
2e+08	-0.04322949	-0.0002010915	-4.083583e-10	-3.589399e-10	0.01254086	-0.005660271	4.075419e-10	4.762286e-10
	-4.083583e-10	-3.589399e-10	-0.04297081	0.0006313763	3.407578e-09	1.782648e-08	0.01276815	-0.005173196
	0.01254086	-0.005660271	3.407578e-09	1.782648e-08	-0.0434204	-5.856412e-06	1.670772e-09	3.547185e-09
	4.075419e-10	4.762286e-10	0.01276815	-0.005173196	1.670772e-09	3.547185e-09	-0.04312627	0.0007903964
2.1e+08	-0.04118113	0.004320311	-4.127347e-10	-2.87899e-10	0.01110097	-0.006286588	5.076906e-10	4.04052e-10
	-4.127347e-10	-2.87899e-10	-0.04084024	0.00512121	3.73668e-09	1.844101e-08	0.01137388	-0.005825592
	0.01110097	-0.006286588	3.73668e-09	1.844101e-08	-0.04134319	0.004533645	1.964894e-09	3.432136e-09
	5.076906e-10	4.04052e-10	0.01137388	-0.005825592	1.964894e-09	3.432136e-09	-0.04097287	0.00529466
2.2e+08	-0.03830614	0.008245835	-3.935815e-10	-2.133356e-10	0.009558248	-0.006604821	5.930866e-10	3.096547e-10
	-3.935815e-10	-2.133356e-10	-0.03789428	0.00899653	4.034371e-09	1.899582e-08	0.009868961	-0.006180171
	0.009558248	-0.006604821	4.034371e-09	1.899582e-08	-0.03843716	0.008471241	2.221374e-09	3.25408e-09
	5.930866e-10	3.096547e-10	0.009868961	-0.006180171	2.221374e-09	3.25408e-09	-0.03800147	0.009179287
2.3e+08	-0.03474677	0.01142943	-3.496888e-10	-1.4171e-10	0.007977019	-0.006601174	6.590145e-10	1.962811e-10
	-3.496888e-10	-1.4171e-10	-0.03427942	0.01211362	4.287367e-09	1.949716e-08	0.008315388	-0.006221534
	0.007977019	-0.006601174	4.287367e-09	1.949716e-08	-0.03484583	0.01166055	2.426174e-09	3.019181e-09
	6.590145e-10	1.962811e-10	0.008315388	-0.006221534	2.426174e-09	3.019181e-09	-0.03435972	0.0123001
2.4e+08	-0.03067025	0.01375695	-2.817459e-10	-7.971934e-11	0.006423015	-0.006274971	7.015413e-10	6.80919e-11
	-2.817459e-10	-7.971934e-11	-0.03016656	0.01436163	4.483644e-09	1.99543e-08	0.00677689	-0.005946875
	0.006423015	-0.006274971	4.483644e-09	1.99543e-08	-0.03073768	0.01398736	2.566056e-09	2.736791e-09
	7.015413e-10	6.80919e-11	0.00677689	-0.005946875	2.566056e-09	2.736791e-09	-0.03021977	0.01454603
2.5e+08	-0.02626183	0.01515019	-1.92346e-10	-3.368982e-11	0.004960752	-0.005638688	7.176595e-10	-7.003742e-11
	-1.92346e-10	-3.368982e-11	-0.02574394	0.01566643	4.61314e-09	2.037928e-08	0.00531644	-0.005366093
	0.004960752	-0.005638688	4.61314e-09	2.037928e-08	-0.02629924	0.01537363	2.629333e-09	2.41947e-09
	7.176595e-10	-7.003742e-11	0.00531644	-0.005366093	2.629333e-09	2.41947e-09	-0.02577112	0.01584302
2.6e+08	-0.02171738	0.0155695	-7.806492e-11	-1.384222e-11	0.003650951	-0.004717491	7.051968e-10	-2.126723e-10
	-7.806492e-11	-1.384222e-11	-0.02120951	0.0159932	4.670214e-09	2.078541e-08	0.00399378	-0.004501424
	0.003650951	-0.004717491	4.670214e-09	2.078541e-08	-0.0217276	0.01578019	2.614475e-09	2.077893e-09
	7.051968e-10	-2.126723e-10	0.00399378	-0.004501424	2.614475e-09	2.077893e-09	-0.02121297	0.01615651
2.7e+08	-0.01723557	0.01501493	4.715575e-11	-2.365404e-11	0.002548076	-0.003548264	6.63395e-10	-3.540829e-10
	4.715575e-11	-2.365404e-11	-0.01676302	0.0153472	4.648562e-09	2.118866e-08	0.002863024	-0.003386602
	0.002548076	-0.003548264	4.648562e-09	2.118866e-08	-0.01722254	0.01520772	2.506971e-09	1.73076e-09
	6.63395e-10	-3.540829e-10	0.002863024	-0.003386602	2.506971e-09	1.73076e-09	-0.01674617	0.01549236
2.8e+08	-0.01301001	0.01352587	1.74432e-10	-6.434447e-11	0.001698084	-0.00217817	5.924471e-10	-4.884694e-10
	1.74432e-10	-6.434447e-11	-0.01259801	0.01377329	4.546755e-09	2.160645e-08	0.001970467	-0.002065549
	0.001698084	-0.00217817	4.546755e-09	2.160645e-08	-0.01297867	0.01369649	2.302224e-09	1.399218e-09
	5.924471e-10	-4.884694e-10	0.001970467	-0.002065549	2.302224e-09	1.399218e-09	-0.01256526	0.01389627
2.9e+08	-0.009221642	0.01117909	2.962065e-10	-1.356027e-10	0.001136493	-0.0006627638	4.935747e-10	-6.100749e-10
	2.962065e-10	-1.356027e-10	-0.008894121	0.01135373	4.367536e-09	2.205643e-08	0.001352659	-0.0005906488
	0.001136493	-0.0006627638	4.367536e-09	2.205643e-08	-0.009177694	0.01132433	2.001813e-09	1.105095e-09
	4.935747e-10	-6.100749e-10	0.001352659	-0.0005906488	2.001813e-09	1.105095e-09	-0.008850687	0.01145147
3e+08	-0.006031597	0.008085372	4.054542e-10	-2.352249e-10	0.0008868382	0.0009362585	3.690472e-10	-7.133373e-10
	4.054542e-10	-2.352249e-10	-0.005810046	0.008204519	4.117567e-09	2.255571e-08	0.00103486	0.0009793683
	0.0008868382	0.0009362585	4.117567e-09	2.255571e-08	-0.005981314	0.008203249	1.612501e-09	8.702158e-10
	3.690472e-10	-7.133373e-10	0.00103486	0.0009793682	1.612501e-09	8.702158e-10	-0.005761721	0.00827511
3.1e+08	-0.003574969	0.004384789	4.961558e-10	-3.594539e-10	0.0009596248	0.002553616	2.221694e-10	-7.93041e-10
	4.961558e-10	-3.594539e-10	-0.00347728	0.004470435	3.807278e-09	2.311991e-08	0.001029932	0.00258182
	0.0009596248	0.002553616	3.807278e-09	2.311991e-08	-0.003524928	0.004474634	1.146304e-09	7.150581e-10
	2.221694e-10	-7.93041e-10	0.001029932	0.00258182	1.146304e-09	7.150581e-10	-0.003430185	0.004513216
3.2e+08	-0.001955599	0.0002408356	5.635988e-10	-5.034213e-10	0.00135181	0.004123177	5.726647e-11	-8.444812e-10
	5.635988e-10	-5.034213e-10	-0.001995054	0.000318899	3.450517e-09	2.376237e-08	0.001337753	0.00415268
	0.00135181	0.004123177	3.450517e-09	2.376237e-08	-0.001912409	0.000303344	6.201489e-10	6.573974e-10
	5.726647e-11	-8.444812e-10	0.001337753	0.00415268	6.201489e-10	6.573974e-10	-0.001955373	0.0003345123
3.3e+08	-0.00124216	-0.004166341	6.044932e-10	-6.616276e-10	0.002046876	0.005580775	-1.203475e-10	-8.636531e-10
	6.044932e-10	-6.616276e-10	-0.001426584	-0.004067003	3.064005e-09	2.449338e-08	0.001945177	0.005629263
	0.002046876	0.005580775	3.064005e-09	2.449338e-08	-0.00121218	-0.004129121	5.517148e-11	7.110532e-10
	-1.203475e-10	-8.636531e-10	0.001945177	0.005629263	5.517148e-11	7.110532e-10	-0.001400285	-0.004076621
3.4e+08	-0.001465689	-0.008647349	6.169081e-10	-8.28382e-10	0.003015489	0.006866956	-3.044338e-10	-8.474673e-10
	6.169081e-10	-8.28382e-10	-0.001796819	-0.008496107	2.666631e-09	2.531958e-08	0.002826562	0.006952891
	0.003015489	0.006866956	2.666631e-09	2.531958e-08	-0.001454753	-0.008632084	-5.243446e-10	8.848619e-10
	-3.044338e-10	-8.474673e-10	0.002826562	0.006952891	-5.243446e-10	8.848619e-10	-0.001789383	-0.008527787
3.5e+08	-0.002618659	-0.01301127	6.000757e-10	-9.981303e-10	0.004216735	0.007929547	-4.879474e-10	-7.939866e-10
	6.000757e-10	-9.981303e-10	-0.003091768	-0.01277703	2.278621e-09	2.624353e-08	0.003944853	0.00807138
	0.004216735	0.007929547	2.278621e-09	2.624353e-08	-0.002631821	-0.01301348	-1.092276e-09	1.18198e-09
	-4.879474e-10	-7.939866e-10	0.003944853	0.00807138	-1.092276e-09	1.18198e-09	-0.003107939	-0.0128265
3.6e+08	-0.004655637	-0.01707341	5.541245e-10	-1.165642e-09	0.005599878	0.008725904	-6.632269e-10	-7.026654e-10
	5.541245e-10	-1.165642e-09	-0.005259432	-0.01672596	1.920634e-09	2.726345e-08	0.005253176	0.008941268
	0.005599878	0.008725904	1.920634e-09	2.726345e-08	-0.004696937	-0.01708761	-1.62211e-09	1.599568e-09
	-6.632269e-10	-7.026654e-10	0.005253176	0.008941268	-1.62211e-09	1.599568e-09	-0.005302993	-0.01678801
3.7e+08	-0.007495452	-0.02066264	4.798168e-10	-1.326043e-09	0.007106555	0.009224748	-8.222682e-10	-5.745662e-10
	4.798168e-10	-1.326043e-09	-0.00821228	-0.0201741	1.612828e-09	2.837322e-08	0.006696856	0.009529638
	0.007106555	0.009224748	1.612828e-09	2.837322e-08	-0.007567734	-0.02068262	-2.088417e-09	2.128894e-09
	-8.222682e-10	-5.745662e-10	0.006696856	0.009529638	-2.088417e-09	2.128894e-09	-0.008285869	-0.02024279
3.8e+08	-0.01102482	-0.02362824	3.783587e-10	-1.474724e-09	0.008673317	0.009407474	-9.570805e-10	-4.125201e-10
	3.783587e-10	-1.474724e-09	-0.01183115	-0.02297435	1.37394e-09	2.956253e-08	0.00821579	0.009815477
	0.008673317	0.009407474	1.37394e-09	2.956253e-08	-0.01112958	-0.02364728	-2.468202e-09	2.755806e-09
	-9.570805e-10	-4.125201e-10	0.00821579	0.009815477	-2.468202e-09	2.755806e-09	-0.01193614	-0.0230433
3.9e+08	-0.01510318	-0.02584571	2.513311e-10	-1.607175e-09	0.01023437	0.009268903	-1.060112e-09	-2.211978e-10
	2.513311e-10	-1.607175e-09	-0.01597042	-0.0250071	1.220437e-09	3.081723e-08	0.009747024	0.009790498
	0.01023437	0.009268903	1.220437e-09	3.081723e-08	-0.01524052	-0.02585688	-2.742047e-09	3.461538e-09
	-1.060112e-09	-2.211978e-10	0.009747024	0.009790498	-2.742047e-09	3.461538e-09	-0.0161068	-0.0250697
4e+08	-0.01956864	-0.02722153	1.007661e-10	-1.718816e-09	0.01172441	0.008817426	-1.124714e-09	-7.062789e-12
	1.007661e-10	-1.718816e-09	-0.02046411	-0.02618474	1.16576e-09	3.211992e-08	0.01122744	0.009459392
	0.01172441	0.008817426	1.16576e-09	3.211992e-08	-0.0197372	-0.027218	-2.894967e-09	4.223726e-09
	-1.124714e-09	-7.062789e-12	0.01122744	0.009459392	-2.894967e-09	4.223726e-09	-0.02063055	-0.02623453
4.1e+08	-0.02424462	-0.0276966	-7.064558e-11	-1.804902e-09	0.01308141	0.00807455	-1.145616e-09	2.218098e-10
	-7.064558e-11	-1.804902e-09	-0.02513288	-0.02645496	1.219702e-09	3.345052e-08	0.01259642	0.008839513
	0.01308141	0.00807455	1.219702e-09	3.345052e-08	-0.02444166	-0.02767191	-2.916938e-09	5.017553e-09
	-1.145616e-09	2.218098e-10	0.01259642	0.008839513	-2.916938e-09	5.017553e-09	-0.02532668	-0.02648581
4.2e+08	-0.02894704	-0.02724823	-2.592605e-10	-1.860561e-09	0.01424919	0.007073883	-1.119344e-09	4.560533e-10
	-2.592605e-10	-1.860561e-09	-0.02979126	-0.02580241	1.387927e-09	3.478712e-08	0.01379834	0.007960032
	0.01424919	0.007073883	1.387927e-09	3.478712e-08	-0.02916851	-0.02719659	-2.803119e-09	5.816897e-09
	-1.119344e-09	4.560533e-10	0.01379834	0.007960032	-2.803119e-09	5.816897e-09	-0.03000852	-0.02580885
4.3e+08	-0.0334917	-0.02589073	-4.601696e-10	-1.881006e-09	0.01517975	0.005859616	-1.044569e-09	6.854538e-10
	-4.601696e-10	-1.881006e-09	-0.03425522	-0.02424899	1.671655e-09	3.610676e-08	0.01478483	0.006860594
	0.01517975	0.005859616	1.671655e-09	3.610676e-08	-0.03373242	-0.02580729	-2.553794e-09	6.595396e-09
	-1.044569e-09	6.854538e-10	0.01478483	0.006860594	-2.553794e-09	6.595396e-09	-0.03449095	-0.02422646
4.4e+08	-0.03770152	-0.02367448	-6.669528e-10	-1.861928e-09	0.01583519	0.004484579	-9.223131e-10	8.994888e-10
	-6.669528e-10	-1.861928e-09	-0.03834943	-0.02185262	2.067509e-09	3.738637e-08	0.01551664	0.005589576
	0.01583519	0.004484579	2.067509e-09	3.738637e-08	-0.03795539	-0.02355552	-2.174124e-09	7.327384e-09
	-9.223131e-10	8.994888e-10	0.01551664	0.005589576	-2.174124e-09	7.327384e-09	-0.03859779	-0.02179765
4.5e+08	-0.04141346	-0.02068364	-8.715823e-10	-1.800038e-09	0.01618915	0.003007979	-7.560136e-10	1.08792e-09
	-8.715823e-10	-1.800038e-09	-0.04191414	-0.0187046	2.56752e-09	3.860358e-08	0.01596521	0.004202015
	0.01618915	0.003007979	2.56752e-09	3.860358e-08	-0.0416737	-0.02052675	-1.673767e-09	7.98865e-09
	-7.560136e-10	1.08792e-09	0.01596521	0.004202015	-1.673767e-09	7.98865e-09	-0.04216868	-0.01861497
4.6e+08	-0.04448479	-0.01703257	-1.06454e-09	-1.693697e-09	0.01622782	0.001492917	-5.514143e-10	1.241386e-09
	-1.06454e-09	-1.693697e-09	-0.04481139	-0.01492571	3.159302e-09	3.97377e-08	0.01611361	0.002757318
	0.01622782	0.001492917	3.159302e-09	3.97377e-08	-0.04474422	-0.01683676	-1.066447e-09	8.557031e-09
	-5.514143e-10	1.241386e-09	0.01611361	0.002757318	-1.066447e-09	8.557031e-09	-0.04506532	-0.01480058
4.7e+08	-0.0467985	-0.01286112	-1.235187e-09	-1.543542e-09	0.01595035	3.788146e-06	-3.16304e-10	1.351961e-09
	-1.235187e-09	-1.543542e-09	-0.04693021	-0.01066126	3.826366e-09	4.077048e-08	0.01595717	0.001316835
	0.01595035	3.788147e-06	3.826366e-09	4.077048e-08	-0.0470498	-0.0126269	-3.69545e-10	9.012958e-09
	-3.16304e-10	1.351961e-09	0.01595717	0.001316835	-3.69545e-10	9.012958e-09	-0.04717665	-0.01050116
