!$
! Info: Touchstone file created by Circ.  Input file=Tx_14in_Rx_100ohms_TxVia_10mils_RxVia_20mils.circ
!$
# Hz S RI R 50
0	0.01446229	8.74312e-26	-7.476345e-05	1.395473e-25	8.734481e-05	1.536552e-23	-7.478869e-05	2.920588e-24
	-7.476347e-05	1.414297e-25	0.01446292	1.224269e-25	-7.475583e-05	3.509636e-26	8.544085e-05	2.05954e-23
	8.604509e-05	1.497162e-23	-7.475583e-05	3.525888e-26	0.01447736	9.153016e-26	-7.476528e-05	3.272519e-25
	-7.478867e-05	2.919017e-24	8.689486e-05	2.11976e-23	-7.476525e-05	3.23967e-25	0.01446844	1.167285e-25
1e+07	0.02134959	0.0081219	-0.0002610519	3.881467e-05	0.0009769872	0.002453464	-0.0001004172	-2.072732e-06
	-0.0002610519	3.881467e-05	0.02155883	0.008092489	-1.060636e-05	0.000172819	0.0009725117	0.002451581
	0.0009769428	0.002453467	-1.060636e-05	0.000172819	0.02157746	0.008091853	-0.0002610642	3.87942e-05
	-0.0001004172	-2.07273e-06	0.0009725451	0.00245157	-0.0002610642	3.87942e-05	0.02136417	0.008125242
2e+07	0.02817804	0.01044582	-0.0002183871	-5.660343e-05	0.001838663	0.004947261	-8.04761e-05	-7.688659e-06
	-0.0002183871	-5.660343e-05	0.02830658	0.01032687	-4.363799e-05	0.0002953762	0.001822288	0.004947445
	0.001838652	0.004947289	-4.363799e-05	0.0002953762	0.02833654	0.01032171	-0.0002184163	-5.66443e-05
	-8.04761e-05	-7.688658e-06	0.001822286	0.004947423	-0.0002184163	-5.664429e-05	0.02818622	0.01045199
3e+07	0.03389499	0.009695244	-0.0001920489	-8.239116e-05	0.003305387	0.006854893	-7.035837e-05	-1.717709e-05
	-0.0001920489	-8.239116e-05	0.03394822	0.009555709	-0.0001038939	0.0003708847	0.003271677	0.006863694
	0.003305387	0.006854897	-0.0001038939	0.0003708847	0.03399497	0.009539717	-0.0001921089	-8.246919e-05
	-7.035837e-05	-1.717709e-05	0.003271672	0.006863692	-0.0001921089	-8.246919e-05	0.03389365	0.009708062
4e+07	0.03863741	0.007174352	-0.0001750453	-9.379896e-05	0.005251909	0.00818626	-6.309261e-05	-2.129939e-05
	-0.0001750453	-9.379896e-05	0.03861947	0.007043581	-0.0001380875	0.0004362585	0.005198217	0.008211984
	0.005251905	0.008186257	-0.0001380875	0.0004362585	0.03868541	0.007008194	-0.0001751515	-9.39252e-05
	-6.309261e-05	-2.129939e-05	0.005198216	0.008211986	-0.0001751515	-9.39252e-05	0.03862288	0.007196763
5e+07	0.0422824	0.003366255	-0.00016279	-9.881203e-05	0.00763341	0.008740444	-5.743362e-05	-2.343278e-05
	-0.00016279	-9.881203e-05	0.04220118	0.003266837	-0.0001530678	0.0004971794	0.007560304	0.008791917
	0.007633408	0.008740443	-0.0001530678	0.0004971794	0.04228493	0.003202738	-0.0001629676	-9.898893e-05
	-5.743362e-05	-2.343278e-05	0.007560304	0.008791918	-0.0001629676	-9.898893e-05	0.0422523	0.003404733
6e+07	0.04469402	-0.001343907	-0.000152751	-0.0001004473	0.01002468	0.008622825	-5.282862e-05	-2.473497e-05
	-0.000152751	-0.0001004473	0.04456164	-0.001393877	-0.0001533474	0.00055399	0.00993627	0.008708621
	0.01002469	0.008622822	-0.0001533474	0.00055399	0.04465805	-0.001495253	-0.0001530302	-0.0001006653
	-5.282862e-05	-2.473497e-05	0.009936266	0.008708621	-0.0001530301	-0.0001006653	0.04464965	-0.001282268
7e+07	0.04577467	-0.006592524	-0.0001630325	-7.003989e-05	0.01224939	0.007863424	-4.820194e-05	-2.577262e-05
	-0.0001630325	-7.003989e-05	0.045607	-0.006579711	-0.0001425012	0.0006057498	0.0121529	0.007990469
	0.01224941	0.007863418	-0.0001425012	0.0006057498	0.04570763	-0.006724796	-0.000163426	-7.025589e-05
	-4.820194e-05	-2.577262e-05	0.0121529	0.007990471	-0.000163426	-7.025589e-05	0.04571981	-0.00650178
8e+07	0.04548927	-0.01202182	-0.000173597	-1.370643e-05	0.01414408	0.006536613	-4.998113e-05	-1.32312e-05
	-0.000173597	-1.370643e-05	0.04530496	-0.01193827	-0.0001257849	0.0006513231	0.0140492	0.006709187
	0.01414409	0.006536603	-0.0001257849	0.0006513231	0.04539901	-0.01213028	-0.0001740958	-1.388814e-05
	-4.998113e-05	-1.32312e-05	0.01404919	0.006709191	-0.0001740958	-1.388814e-05	0.04542947	-0.01189727
9e+07	0.04387603	-0.01728577	-0.000165063	4.292629e-05	0.01556987	0.004756848	-4.883314e-05	3.55856e-06
	-0.000165063	4.292629e-05	0.04369524	-0.01712936	-0.0001114514	0.0006908089	0.01548778	0.00497583
	0.01556987	0.004756839	-0.0001114514	0.0006908089	0.04377079	-0.01736762	-0.0001656669	4.281427e-05
	-4.883314e-05	3.55856e-06	0.01548778	0.004975834	-0.0001656669	4.281426e-05	0.04381858	-0.01712424
1e+08	0.0410626	-0.02206212	-0.0001311992	9.633962e-05	0.01641556	0.002669903	-4.014881e-05	1.940348e-05
	-0.0001311992	9.633962e-05	0.04090737	-0.02183659	-0.0001251524	0.00072409	0.0163578	0.00293235
	0.01641556	0.002669903	-0.0001251524	0.00072409	0.04095269	-0.02211624	-0.0001318962	9.632984e-05
	-4.014881e-05	1.940348e-05	0.0163578	0.00293235	-0.0001318962	9.632984e-05	0.04101642	-0.02186283
1.1e+08	0.03718279	-0.02617053	-8.622671e-05	0.0001128854	0.01664162	0.0004880151	-2.853581e-05	2.387885e-05
	-8.622671e-05	0.0001128854	0.03706807	-0.0258936	-0.0001262072	0.0006845349	0.01661844	0.0007866693
	0.01664162	0.0004880153	-0.0001262072	0.0006845349	0.03707324	-0.02620848	-8.701505e-05	0.0001130105
	-2.853581e-05	2.387885e-05	0.01661844	0.0007866692	-8.701505e-05	0.0001130105	0.03715689	-0.02593606
1.2e+08	0.03241402	-0.02926116	-5.196086e-05	0.0001192799	0.01626606	-0.001661273	-2.040666e-05	2.617577e-05
	-5.196086e-05	0.0001192799	0.03234655	-0.02894545	-0.0001031756	0.000655318	0.01628595	-0.001336612
	0.01626606	-0.001661273	-0.0001031756	0.000655318	0.03230287	-0.02928207	-5.279422e-05	0.0001195817
	-2.040666e-05	2.617577e-05	0.01628595	-0.001336612	-5.279422e-05	0.0001195817	0.03241702	-0.02899773
1.3e+08	0.0270746	-0.03115845	-2.233756e-05	0.0001189502	0.01531007	-0.003614076	-1.350742e-05	2.718548e-05
	-2.233756e-05	0.0001189502	0.0270602	-0.03081868	-7.880971e-05	0.0006309763	0.01537812	-0.003276469
	0.01531007	-0.003614075	-7.880971e-05	0.0006309763	0.02696394	-0.03116104	-2.315904e-05	0.0001194469
	-1.350742e-05	2.718548e-05	0.01537812	-0.003276469	-2.315904e-05	0.0001194469	0.027113	-0.03087521
1.4e+08	0.02148959	-0.03177264	3.078577e-06	0.0001134632	0.01384906	-0.005218746	-7.460802e-06	2.721971e-05
	3.078577e-06	0.0001134632	0.02153024	-0.03142514	-5.685708e-05	0.0006117469	0.01396614	-0.004882967
	0.01384906	-0.005218746	-5.685708e-05	0.0006117469	0.02138295	-0.03175644	2.328731e-06	0.00011415
	-7.460802e-06	2.721971e-05	0.01396614	-0.004882967	2.328731e-06	0.00011415	0.02156689	-0.03148094
1.5e+08	0.01598792	-0.03109735	2.424522e-05	0.0001041863	0.01199874	-0.006350635	-2.104474e-06	2.647508e-05
	2.424522e-05	0.0001041863	0.01608093	-0.0307589	-3.755819e-05	0.0005988922	0.01216101	-0.006031778
	0.01199874	-0.006350635	-3.755819e-05	0.0005988922	0.01588941	-0.03106309	2.362081e-05	0.0001050365
	-2.104474e-06	2.647508e-05	0.01216101	-0.006031778	2.362081e-05	0.0001050365	0.01610391	-0.0308097
1.6e+08	0.01088427	-0.02920728	4.117894e-05	9.240771e-05	0.009905026	-0.006922194	2.637278e-06	2.508795e-05
	4.117894e-05	9.240771e-05	0.01102205	-0.02889371	-1.936017e-05	0.0005935381	0.01010392	-0.006634184
	0.009905026	-0.006922194	-1.936017e-05	0.0005935381	0.01079798	-0.02915697	4.071934e-05	9.337684e-05
	2.637278e-06	2.508795e-05	0.01010392	-0.006634184	4.071934e-05	9.337684e-05	0.01103471	-0.02893619
1.7e+08	0.006460607	-0.02625165	5.411187e-05	7.92959e-05	0.007732232	-0.00688984	6.799736e-06	2.316274e-05
	5.411187e-05	7.92959e-05	0.006630969	-0.02597639	3.136418e-07	0.0005960739	0.007954838	-0.006643965
	0.007732232	-0.00688984	3.136418e-07	0.0005960739	0.006390132	-0.02618845	5.383592e-05	8.032934e-05
	6.799736e-06	2.316274e-05	0.007954838	-0.006643965	5.383592e-05	8.032934e-05	0.006637226	-0.02600831
1.8e+08	0.002949404	-0.02244329	6.35078e-05	6.581911e-05	0.005649957	-0.006257213	1.039638e-05	2.078656e-05
	6.35078e-05	6.581911e-05	0.003136283	-0.02221599	2.446458e-05	0.0006058342	0.005879919	-0.006060814
	0.005649957	-0.006257213	2.446458e-05	0.0006058342	0.002897511	-0.02237133	6.341143e-05	6.686173e-05
	1.039638e-05	2.078656e-05	0.005879919	-0.006060814	6.341143e-05	6.686173e-05	0.003140406	-0.02223635
1.9e+08	0.0005199616	-0.01804382	7.000415e-05	5.267217e-05	0.003819706	-0.00507465	1.342834e-05	1.803775e-05
	7.000415e-05	5.267217e-05	0.0007045611	-0.01786926	5.596613e-05	0.0006210167	0.004038451	-0.0049301
	0.003819706	-0.00507465	5.596613e-05	0.0006210167	0.0004883113	-0.01796792	7.006233e-05	5.367823e-05
	1.342834e-05	1.803775e-05	0.004038451	-0.0049301	7.006233e-05	5.367823e-05	0.0007108171	-0.01787827
2e+08	-0.0007312345	-0.01334597	7.431142e-05	4.02374e-05	0.002382274	-0.003434928	1.589022e-05	1.499124e-05
	7.431142e-05	4.02374e-05	-0.0005689613	-0.01322324	9.707705e-05	0.0006388015	0.002570545	-0.003339008
	0.002382274	-0.003434928	9.707705e-05	0.0006388015	-0.0007422376	-0.0132713	7.448431e-05	4.117887e-05
	1.589022e-05	1.499124e-05	0.002570545	-0.003339008	7.448431e-05	4.117887e-05	-0.0005566081	-0.01322232
2.1e+08	-0.0007853041	-0.008653945	7.709763e-05	2.859127e-05	0.001446875	-0.00146569	1.777433e-05	1.172218e-05
	7.709763e-05	2.859127e-05	-0.000664954	-0.008576193	0.0001490643	0.0006556418	0.001586428	-0.001409444
	0.001446875	-0.00146569	0.0001490643	0.0006556418	-0.0007765843	-0.008585674	7.733997e-05	2.94628e-05
	1.777433e-05	1.172218e-05	0.001586428	-0.001409444	7.733997e-05	2.94628e-05	-0.0006431557	-0.008567795
2.2e+08	0.0002993584	-0.00426339	7.888171e-05	1.755871e-05	0.001082891	0.0006808065	1.907444e-05	8.3081e-06
	7.888171e-05	1.755871e-05	0.0003604047	-0.004217992	0.0002119757	0.000667666	0.001158203	0.0007117094
	0.001082891	0.0006808066	0.0002119757	0.000667666	0.0003255693	-0.004206371	7.915365e-05	1.837814e-05
	1.907444e-05	8.3081e-06	0.001158203	0.0007117094	7.915365e-05	1.837814e-05	0.0003941214	-0.004205444
2.3e+08	0.00239252	-0.0004421921	7.995669e-05	6.805701e-06	0.001314837	0.002839758	1.978926e-05	4.829904e-06
	7.995669e-05	6.805701e-06	0.002380778	-0.0004114956	0.0002845872	0.0006711324	0.001314674	0.002864153
	0.001314837	0.002839758	0.0002845872	0.0006711324	0.002432794	-0.0004006032	8.023421e-05	7.609702e-06
	1.978926e-05	4.829904e-06	0.001314674	0.002864153	8.023421e-05	7.609702e-06	0.002427811	-0.0003986944
2.4e+08	0.005302228	0.002586566	8.035666e-05	-4.04715e-06	0.002120898	0.004846702	1.992586e-05	1.371728e-06
	8.035666e-05	-4.04715e-06	0.00520954	0.002624022	0.0003645295	0.0006628693	0.002039593	0.004886607
	0.002120898	0.004846702	0.0003645295	0.0006628693	0.005352131	0.002609515	8.063934e-05	-3.211732e-06
	1.992586e-05	1.371728e-06	0.002039593	0.004886607	8.063934e-05	-3.211732e-06	0.005270092	0.002632927
2.5e+08	0.008788865	0.004658336	7.987233e-05	-1.530648e-05	0.003435063	0.006550208	1.950266e-05	-1.980749e-06
	7.987233e-05	-1.530648e-05	0.008613451	0.004726197	0.0004485603	0.000640624	0.003273386	0.006629149
	0.003435063	0.006550208	0.0004485603	0.000640624	0.008843227	0.004660653	8.018685e-05	-1.439421e-05
	1.950266e-05	-1.980749e-06	0.003273386	0.006629149	8.018685e-05	-1.439421e-05	0.008686501	0.004727153
2.6e+08	0.01258211	0.005676661	7.811256e-05	-2.710772e-05	0.005152632	0.007823393	1.855169e-05	-5.143046e-06
	7.811256e-05	-2.710772e-05	0.01232911	0.005798857	0.0005329483	0.000603288	0.004918149	0.007964505
	0.005152632	0.007823393	0.0005329483	0.000603288	0.01263536	0.005657743	7.851096e-05	-2.608708e-05
	1.855169e-05	-5.143046e-06	0.00491815	0.007964505	7.851096e-05	-2.608708e-05	0.01241249	0.005788246
2.7e+08	0.01639962	0.005617983	7.460038e-05	-3.934987e-05	0.007138601	0.008573406	1.711947e-05	-8.035628e-06
	7.460038e-05	-3.934987e-05	0.01608108	0.005816699	0.0006138982	0.00055096	0.006845471	0.008797465
	0.007138601	0.008573406	0.0006138982	0.00055096	0.01644613	0.005578701	7.515295e-05	-3.821431e-05
	1.711947e-05	-8.035628e-06	0.006845471	0.008797465	7.515295e-05	-3.821431e-05	0.01617162	0.005791652
2.8e+08	0.01996608	0.004531482	6.888647e-05	-5.167685e-05	0.009238231	0.008748219	1.526658e-05	-1.058785e-05
	6.888647e-05	-5.167685e-05	0.01960032	0.004825178	0.0006879673	0.0004848487	0.008906434	0.009071765
	0.009238231	0.008748219	0.0006879673	0.0004848487	0.0200006	0.00447417	6.967027e-05	-5.045228e-05
	1.526658e-05	-1.058785e-05	0.008906434	0.009071765	6.967027e-05	-5.045228e-05	0.01969414	0.00478384
2.9e+08	0.02303139	0.002534071	6.066065e-05	-6.3506e-05	0.01128898	0.00834026	1.306549e-05	-1.274173e-05
	6.066065e-05	-6.3506e-05	0.02264186	0.002935715	0.0007523973	0.0004070353	0.01094303	0.008773981
	0.01128898	0.00834026	0.0007523973	0.0004070353	0.02304939	0.002462402	6.174533e-05	-6.225305e-05
	1.306549e-05	-1.274173e-05	0.01094303	0.008773981	6.174533e-05	-6.225305e-05	0.02273463	0.002877408
3e+08	0.02538683	-0.0001990222	4.984263e-05	-7.410014e-05	0.01313292	0.007386682	1.059728e-05	-1.445478e-05
	4.984263e-05	-7.410014e-05	0.02500041	0.0003166571	0.0008053277	0.00032014	0.01280009	0.007934199
	0.01313292	0.007386682	0.0008053277	0.00032014	0.02538487	-0.000280252	5.1276e-05	-7.291037e-05
	1.059728e-05	-1.445478e-05	0.01280009	0.007934199	5.127601e-05	-7.291037e-05	0.02508775	0.0002419694
3.1e+08	0.02687806	-0.00344734	3.663581e-05	-8.267154e-05	0.01462867	0.005966289	7.947666e-06	-1.570144e-05
	3.663581e-05	-8.267154e-05	0.02652305	-0.002819307	0.0008458695	0.0002269406	0.01433698	0.006623457
	0.01462867	0.005966289	0.0008458695	0.0002269406	0.02685405	-0.003532523	3.843165e-05	-8.165781e-05
	7.947666e-06	-1.570144e-05	0.01433698	0.006623457	3.843165e-05	-8.165781e-05	0.02660085	-0.002908541
3.2e+08	0.02741427	-0.006961053	2.153583e-05	-8.849927e-05	0.01566205	0.004193367	5.202739e-06	-1.647334e-05
	2.153583e-05	-8.849927e-05	0.02711812	-0.006230401	0.0008740197	0.0001300139	0.01543802	0.004948182
	0.01566205	0.004193367	0.0008740197	0.0001300139	0.02736768	-0.007044152	2.366615e-05	-8.77816e-05
	5.202739e-06	-1.647334e-05	0.01543802	0.004948182	2.366615e-05	-8.77816e-05	0.02718294	-0.006331222
3.3e+08	0.02697297	-0.01047846	5.291164e-06	-9.104212e-05	0.01615468	0.002208892	2.445185e-06	-1.677818e-05
	5.291164e-06	-9.104212e-05	0.02676001	-0.009662598	0.0008904554	3.144513e-05	0.01602111	0.00304203
	0.01615468	0.002208892	0.0008904554	3.144513e-05	0.02690489	-0.01055342	7.684673e-06	-9.073104e-05
	2.445185e-06	-1.677818e-05	0.01602111	0.00304203	7.684673e-06	-9.073104e-05	0.02680932	-0.009771145
3.4e+08	0.02560005	-0.01374394	-1.117898e-05	-9.002815e-05	0.01606983	0.0001697593	-2.487652e-07	-1.663784e-05
	-1.117898e-05	-9.002815e-05	0.02548932	-0.01286696	0.0008962396	-6.735523e-05	0.0160438	0.001055733
	0.01606983	0.0001697593	0.0008962396	-6.735523e-05	0.02551319	-0.01380517	-8.631683e-06	-9.020836e-05
	-2.487652e-07	-1.663784e-05	0.0160438	0.001055733	-8.631683e-06	-9.020836e-05	0.02552178	-0.01297876
3.5e+08	0.02340532	-0.01652531	-2.689566e-05	-8.55053e-05	0.01541518	-0.001763189	-2.81176e-06	-1.608594e-05
	-2.689566e-05	-8.55053e-05	0.02340877	-0.01561635	0.0008924843	-0.0001656879	0.0155064	-0.0008543152
	0.01541518	-0.001763189	0.0008924843	-0.0001656879	0.02330383	-0.01656806	-2.433061e-05	-8.622218e-05
	-2.81176e-06	-1.608594e-05	0.0155064	-0.0008543152	-2.433061e-05	-8.622218e-05	0.02342433	-0.01572666
3.6e+08	0.02055378	-0.0186292	-4.094406e-05	-7.784509e-05	0.01424225	-0.003437453	-5.186823e-06	-1.51652e-05
	-4.094406e-05	-7.784509e-05	0.02067493	-0.01772033	0.0008800379	-0.0002634732	0.01445187	-0.00253791
	0.01424225	-0.003437453	0.0008800379	-0.0002634732	0.02044301	-0.01864994	-3.850775e-05	-7.909664e-05
	-5.186823e-06	-1.51652e-05	0.01445187	-0.00253791	-3.850775e-05	-7.909664e-05	0.02067489	-0.01782454
3.7e+08	0.01725328	-0.01991369	-5.258938e-05	-6.769756e-05	0.01264242	-0.004720568	-7.328286e-06	-1.392458e-05
	-5.258938e-05	-6.769756e-05	0.01748655	-0.01903751	0.0008592406	-0.0003610325	0.01296257	-0.003862437
	0.01264242	-0.004720568	0.0008592406	-0.0003610325	0.01713938	-0.01991045	-5.042037e-05	-6.943324e-05
	-7.328286e-06	-1.392458e-05	0.01296257	-0.003862437	-5.042037e-05	-6.943324e-05	0.01747349	-0.01913151
3.8e+08	0.0137394	-0.02029727	-6.136688e-05	-5.590436e-05	0.01073999	-0.005510299	-9.202031e-06	-1.241659e-05
	-6.136688e-05	-5.590436e-05	0.01407009	-0.01948428	0.0008297947	-0.0004587944	0.01115393	-0.004722965
	0.01073999	-0.005510299	0.0008297947	-0.0004587944	0.01362895	-0.02026977	-5.957812e-05	-5.803123e-05
	-9.202031e-06	-1.241659e-05	0.01115393	-0.004722965	-5.957812e-05	-5.803123e-05	0.01404768	-0.01956478
3.9e+08	0.01025865	-0.01976346	-6.713094e-05	-4.338332e-05	0.008682553	-0.005742557	-1.078509e-05	-1.06946e-05
	-6.713094e-05	-4.338332e-05	0.0106637	-0.01903954	0.0007907661	-0.0005569714	0.009165598	-0.00505026
	0.008682553	-0.005742557	0.0007907661	-0.0005569714	0.01015811	-0.01971324	-6.579582e-05	-4.577884e-05
	-1.078509e-05	-1.06946e-05	0.009165598	-0.00505026	-6.579582e-05	-4.577884e-05	0.01063642	-0.01910438
4e+08	0.007051005	-0.01836101	-7.005509e-05	-3.10035e-05	0.00662967	-0.005396385	-1.206455e-05	-8.810337e-06
	-7.005509e-05	-3.10035e-05	0.007500475	-0.01774509	0.0007407239	-0.0006552603	0.007150766	-0.004816074
	0.00662967	-0.005396385	0.0007407239	-0.0006552603	0.006966271	-0.01829128	-6.919945e-05	-3.353294e-05
	-1.206455e-05	-8.810337e-06	0.007150766	-0.004816074	-6.919945e-05	-3.353294e-05	0.007473307	-0.01779346
4.1e+08	0.004333191	-0.01619938	-7.058318e-05	-1.947059e-05	0.004740457	-0.004495603	-1.30358e-05	-6.81199e-06
	-7.058318e-05	-1.947059e-05	0.004792322	-0.01570168	0.00067799	-0.0007526246	0.005264344	-0.004035273
	0.004740457	-0.004495603	0.00067799	-0.0007526246	0.004269146	-0.01611491	-7.018502e-05	-2.200632e-05
	-1.30358e-05	-6.81199e-06	0.005264344	-0.004035273	-7.018502e-05	-2.200632e-05	0.004770334	-0.01573416
4.2e+08	0.002283745	-0.01344017	-6.93398e-05	-9.241687e-06	0.003161253	-0.003106956	-1.370026e-05	-4.743028e-06
	-6.93398e-05	-9.241687e-06	0.002715529	-0.01306096	0.000600964	-0.00084719	0.003651056	-0.002764638
	0.003161253	-0.003106956	0.000600964	-0.00084719	0.002243846	-0.01334691	-6.933674e-05	-1.168106e-05
	-1.370026e-05	-4.743028e-06	0.003651056	-0.002764638	-6.933674e-05	-1.168106e-05	0.002703478	-0.01307956
4.3e+08	0.001030951	-0.01028482	-6.701534e-05	-4.833994e-07	0.002014247	-0.001334904	-1.406291e-05	-2.642052e-06
	-6.701534e-05	-4.833994e-07	0.001398977	-0.01001399	0.0005084729	-0.0009362772	0.002434297	-0.001098394
	0.002014247	-0.001334904	0.0005084729	-0.0009362772	0.001016962	-0.01018952	-6.731868e-05	-2.762227e-06
	-1.406291e-05	-2.642052e-06	0.002434297	-0.001098394	-6.731868e-05	-2.762227e-06	0.001400928	-0.01002201
4.4e+08	0.0006445206	-0.00695974	-6.424519e-05	6.920619e-06	0.001388019	0.0006865512	-1.413022e-05	-5.436988e-07
	-6.424519e-05	6.920619e-06	0.0009158827	-0.006777188	0.0004000866	-0.001016571	0.001706692	0.0008391493
	0.001388019	0.0006865512	0.0004000866	-0.001016571	0.0006563265	-0.00686944	-6.475844e-05	4.821498e-06
	-1.413022e-05	-5.436988e-07	0.001706692	0.0008391493	-6.475844e-05	4.821498e-06	0.0009348605	-0.00677895
4.5e+08	0.001131537	-0.0036998	-6.150382e-05	1.331452e-05	0.001330729	0.002804333	-1.390887e-05	1.519612e-06
	-6.150382e-05	1.331452e-05	0.001279572	-0.003576616	0.0002763506	-0.001084401	0.001523073	0.002903284
	0.001330729	0.002804333	0.0002763506	-0.001084401	0.001167122	-0.003621329	-6.214234e-05	1.137078e-05
	-1.390887e-05	1.519612e-06	0.001523073	0.002903284	-6.214234e-05	1.137078e-05	0.001317305	-0.003577185
4.6e+08	0.002436963	-0.0007314836	-5.903103e-05	1.917816e-05	0.001846495	0.00485821	-1.340546e-05	3.515708e-06
	-5.903103e-05	1.917816e-05	0.002443574	-0.0006318841	0.0001388937	-0.001136101	0.001896423	0.004940115
	0.001846495	0.00485821	0.0001388937	-0.001136101	0.002492503	-0.0006709386	-5.973975e-05	1.733153e-05
	-1.340546e-05	3.515708e-06	0.001896423	0.004940115	-5.973975e-05	1.733153e-05	0.002500327	-0.0006366607
4.7e+08	0.004448578	0.0017431	-5.680279e-05	2.501395e-05	0.002895224	0.006693215	-1.262651e-05	5.411344e-06
	-5.680279e-05	2.501395e-05	0.004305944	0.001859237	-9.589264e-06	-0.001168375	0.002797087	0.006798411
	0.002895224	0.006693215	-9.589264e-06	-0.001168375	0.004518663	0.001780832	-5.756789e-05	2.318865e-05
