!$
! Info: Touchstone file created by Circ.  Input file=Tx_10in_Rx_93ohms_TxVia_10mils_RxVia_20mils.circ
!$
# Hz S RI R 50
0	0.009212413	7.934579e-26	1.228039e-12	1.746279e-28	6.725569e-05	1.155448e-23	-4.70295e-09	5.757982e-25
	1.229649e-12	1.748147e-28	0.009215257	9.171071e-26	-3.053284e-12	3.422132e-28	6.468643e-05	1.309144e-23
	6.730343e-05	1.156123e-23	-3.102086e-12	3.481659e-28	0.009227225	7.955943e-26	-1.288913e-09	1.577547e-25
	-4.700817e-09	5.755369e-25	6.614241e-05	1.347423e-23	-1.288959e-09	1.577602e-25	0.009220838	8.746129e-26
1e+07	0.01266892	-0.0008868606	1.043945e-12	-4.147657e-12	0.0003078471	0.001678524	-7.57757e-09	1.69117e-08
	1.043986e-12	-4.147929e-12	0.01341322	-0.001016818	-5.000791e-13	-5.503498e-12	0.0003195168	0.001827384
	0.0003078514	0.001678521	-5.000877e-13	-5.503246e-12	0.01363955	-0.0004394106	-5.161607e-09	1.619848e-08
	-7.57757e-09	1.69117e-08	0.0003195496	0.001827372	-5.161607e-09	1.619848e-08	0.01315211	-0.00102417
2e+07	0.01505577	-0.00494295	2.225061e-12	-5.858151e-12	0.000892064	0.003341669	-4.347397e-09	1.443934e-08
	2.224881e-12	-5.858282e-12	0.01550009	-0.005413464	1.680302e-12	-7.508263e-12	0.0008101127	0.00361985
	0.0008920628	0.003341665	1.680454e-12	-7.508107e-12	0.0163304	-0.004607932	-5.799441e-09	1.331062e-08
	-4.347397e-09	1.443934e-08	0.0008101101	0.003619828	-5.799441e-09	1.331062e-08	0.015303	-0.005336113
3e+07	0.01553625	-0.01034972	1.847095e-13	-9.082597e-12	0.001785677	0.004843521	-1.302403e-09	1.278529e-08
	1.846751e-13	-9.082574e-12	0.01572784	-0.0109064	-2.181831e-12	-1.130218e-11	0.001696466	0.005178522
	0.001785677	0.00484352	-2.181796e-12	-1.13022e-11	0.01701993	-0.01019163	-1.345286e-09	1.331988e-08
	-1.302403e-09	1.278529e-08	0.001696461	0.005178519	-1.345286e-09	1.331988e-08	0.01557861	-0.01081377
4e+07	0.01448569	-0.01597022	-2.784952e-12	-1.184717e-11	0.002952586	0.006127158	1.057141e-09	1.140598e-08
	-2.784918e-12	-1.184718e-11	0.01445187	-0.0165263	-4.990524e-12	-1.390548e-11	0.002906326	0.006481857
	0.002952587	0.006127157	-4.99056e-12	-1.390547e-11	0.01610401	-0.01603726	1.926217e-09	1.219131e-08
	1.057141e-09	1.140598e-08	0.002906326	0.006481858	1.926217e-09	1.219131e-08	0.01433903	-0.01643908
5e+07	0.01210512	-0.02135728	-6.4987e-12	-1.44035e-11	0.004341757	0.007141851	3.041421e-09	1.044016e-08
	-6.498686e-12	-1.440351e-11	0.01187245	-0.02185405	-7.921968e-12	-1.666137e-11	0.004328315	0.007503177
	0.004341758	0.007141851	-7.921985e-12	-1.666136e-11	0.01379027	-0.02167783	4.044841e-09	1.152645e-08
	3.041421e-09	1.044016e-08	0.004328315	0.007503178	4.044841e-09	1.152645e-08	0.0117846	-0.02178192
6e+07	0.008580184	-0.0262031	-1.338852e-11	-1.826234e-11	0.005892727	0.007849246	5.409454e-09	1.013389e-08
	-1.338852e-11	-1.82623e-11	0.008178142	-0.02659517	-1.085456e-11	-2.297198e-11	0.005902585	0.00820971
	0.005892728	0.007849246	-1.085456e-11	-2.297202e-11	0.01026778	-0.02679024	4.887785e-09	1.293197e-08
	5.409454e-09	1.013389e-08	0.005902581	0.008209711	4.887785e-09	1.293197e-08	0.00810554	-0.02654286
7e+07	0.004110423	-0.03027536	-3.883141e-11	-2.295278e-11	0.007538908	0.008224716	1.155777e-08	1.116294e-08
	-3.883135e-11	-2.295267e-11	0.003572589	-0.03052664	1.989623e-11	-2.409934e-11	0.007563071	0.008580183
	0.00753891	0.008224716	1.989629e-11	-2.409944e-11	0.00573885	-0.03112962	-3.30215e-09	1.634543e-08
	1.155777e-08	1.116294e-08	0.007563066	0.008580186	-3.30215e-09	1.634543e-08	0.003506205	-0.03049645
8e+07	-0.001086179	-0.03340086	-1.107429e-10	5.741238e-10	0.009210831	0.008258296	1.035481e-08	-3.294729e-08
	-1.107428e-10	5.741236e-10	-0.001721694	-0.03348313	-2.877001e-11	1.004591e-11	0.009240551	0.008606611
	0.009210833	0.008258296	-2.876996e-11	1.004589e-11	0.0004238245	-0.03451264	-5.608004e-09	3.518217e-09
	1.035481e-08	-3.294729e-08	0.009240546	0.008606615	-5.608004e-09	3.518217e-09	-0.00179082	-0.03347526
9e+07	-0.006776109	-0.03546045	-8.181964e-11	-4.588623e-11	0.01084001	0.007955354	-1.964992e-09	-2.789849e-09
	-8.181963e-11	-4.58863e-11	-0.00746568	-0.03535223	-3.081441e-11	-1.197779e-11	0.01086568	0.00829488
	0.01084001	0.007955353	-3.081442e-11	-1.197779e-11	-0.005443625	-0.03681306	-1.524655e-09	6.831898e-10
	-1.964992e-09	-2.789849e-09	0.01086567	0.008294884	-1.524655e-09	6.831898e-10	-0.007546363	-0.03536478
1e+08	-0.01271159	-0.03638422	-3.425186e-11	1.779096e-12	0.01236951	0.007341173	-1.967425e-11	1.242828e-11
	-3.425186e-11	1.779096e-12	-0.01339437	-0.03606349	-3.097921e-11	-1.52255e-11	0.01237182	0.007664056
	0.01236951	0.007341173	-3.097921e-11	-1.52255e-11	-0.01163815	-0.03796857	-3.834889e-11	8.682155e-12
	-1.967425e-11	1.242828e-11	0.01237182	0.007664056	-3.834889e-11	8.682155e-12	-0.01349717	-0.03609428
1.1e+08	-0.01864772	-0.03620662	-3.210764e-11	1.049821e-11	0.01369622	0.006471925	-1.843079e-11	1.755129e-11
	-3.210764e-11	1.049821e-11	-0.01925827	-0.03573876	-3.151141e-11	-1.102277e-11	0.01369585	0.006748378
	0.01369622	0.006471925	-3.151141e-11	-1.102277e-11	-0.01791725	-0.03785935	-3.601339e-11	1.853132e-11
	-1.843079e-11	1.755129e-11	0.01369585	0.006748378	-3.601339e-11	1.853132e-11	-0.01939184	-0.03576895
1.2e+08	-0.02439317	-0.03492008	-2.924826e-11	1.64931e-11	0.01478013	0.005342434	-1.618747e-11	2.221525e-11
	-2.924826e-11	1.64931e-11	-0.0249382	-0.03433056	-3.116629e-11	-7.775613e-12	0.01478881	0.005592974
	0.01478013	0.005342434	-3.116629e-11	-7.775613e-12	-0.02394707	-0.03656392	-3.277454e-11	2.577798e-11
	-1.618747e-11	2.221525e-11	0.01478881	0.005592974	-3.277454e-11	2.577798e-11	-0.02509588	-0.03435045
1.3e+08	-0.02972068	-0.03259425	-2.623215e-11	2.043559e-11	0.01558836	0.00401604	-1.381965e-11	2.590232e-11
	-2.623215e-11	2.043559e-11	-0.0301922	-0.0318972	-3.005071e-11	-5.759115e-12	0.01560864	0.004249935
	0.01558836	0.00401604	-3.005071e-11	-5.759115e-12	-0.02952362	-0.0341832	-2.908903e-11	3.119017e-11
	-1.381965e-11	2.590232e-11	0.01560864	0.004249935	-2.908903e-11	3.119017e-11	-0.03036917	-0.03190064
1.4e+08	-0.03443325	-0.02934448	-2.205885e-11	2.408802e-11	0.01609144	0.002555835	-1.069892e-11	2.928903e-11
	-2.205885e-11	2.408802e-11	-0.03482109	-0.02855371	-2.818592e-11	-3.880477e-12	0.01612502	0.002778804
	0.01609144	0.002555835	-2.818592e-11	-3.880477e-12	-0.03445203	-0.03084424	-2.397592e-11	3.61963e-11
	-1.069892e-11	2.928903e-11	0.01612502	0.002778804	-2.397592e-11	3.61963e-11	-0.03501214	-0.02853618
1.5e+08	-0.03836542	-0.02532122	-1.677472e-11	2.715855e-11	0.01627185	0.001028135	-6.7989e-12	3.221633e-11
	-1.677472e-11	2.715855e-11	-0.03865953	-0.02445198	-2.561981e-11	-2.293492e-12	0.01632029	0.001243584
	0.01627185	0.001028135	-2.561981e-11	-2.293492e-12	-0.038567	-0.02670613	-1.751452e-11	4.035167e-11
	-6.7989e-12	3.221633e-11	0.01632029	0.001243584	-1.751452e-11	4.035167e-11	-0.038859	-0.02441041
1.6e+08	-0.04138783	-0.02070243	-1.049901e-11	2.935047e-11	0.01612522	-0.000499443	-2.212903e-12	3.44814e-11
	-1.049901e-11	2.935047e-11	-0.04157959	-0.01977192	-2.24195e-11	-1.192786e-12	0.01618999	-0.0002899445
	0.01612522	-0.000499443	-2.24195e-11	-1.192786e-12	-0.04173926	-0.0219542	-9.887394e-12	4.338312e-11
	-2.212903e-12	3.44814e-11	0.01618999	-0.0002899445	-9.887394e-12	4.338312e-11	-0.04178154	-0.01970469
1.7e+08	-0.04341079	-0.01568557	-3.415467e-12	3.040334e-11	0.01566049	-0.001960439	2.926037e-12	3.591246e-11
	-3.415467e-12	3.040334e-11	-0.04349398	-0.01471292	-1.870295e-11	-7.445825e-13	0.01574276	-0.001756858
	0.01566049	-0.001960439	-1.870295e-11	-7.445825e-13	-0.0438797	-0.01679247	-1.332214e-12	4.498553e-11
	2.926037e-12	3.591246e-11	0.01574276	-0.001756858	-1.332214e-12	4.498553e-11	-0.04369242	-0.01461981
1.8e+08	-0.04438646	-0.0104794	4.233797e-12	3.010271e-11	0.01489947	-0.003292041	8.447437e-12	3.636767e-11
	4.233797e-12	3.010271e-11	-0.04435802	-0.00948528	-1.462644e-11	-1.082622e-12	0.01499981	-0.003095615
	0.01489947	-0.003292041	-1.462644e-11	-1.082622e-12	-0.04494159	-0.01143559	7.844486e-12	4.491169e-11
	8.447437e-12	3.636767e-11	0.01499981	-0.003095615	7.844486e-12	4.491169e-11	-0.04454719	-0.009367444
1.9e+08	-0.04430951	-0.005295585	1.215778e-11	2.829124e-11	0.01387578	-0.004437388	1.414896e-11	3.574245e-11
	1.215778e-11	2.829124e-11	-0.04417012	-0.00430165	-1.037705e-11	-2.300777e-12	0.01399394	-0.004250397
	0.01387578	-0.004437388	-1.037705e-11	-2.300777e-12	-0.04492133	-0.006100481	1.727923e-11	4.298582e-11
	1.414896e-11	3.574245e-11	0.01399394	-0.004250397	1.727923e-11	4.298582e-11	-0.04434473	-0.004161475
2e+08	-0.04321681	-0.0003391813	2.002886e-11	2.487611e-11	0.01262561	-0.005375771	1.98015e-11	3.397485e-11
	2.002886e-11	2.487611e-11	-0.04297081	0.0006313763	-6.163369e-12	-4.450994e-12	0.01276815	-0.005173196
	0.01262561	-0.005375771	-6.163369e-12	-4.450994e-12	-0.0438581	-0.0009968395	2.656649e-11	3.911353e-11
	1.98015e-11	3.397485e-11	0.01276815	-0.005173196	2.656649e-11	3.911353e-11	-0.04312627	0.0007903964
2.1e+08	-0.04118321	0.004195404	2.74989e-11	1.984444e-11	0.01120598	-0.006035667	2.516557e-11	3.105577e-11
	2.74989e-11	1.984444e-11	-0.04084024	0.00512121	-2.205147e-12	-7.525586e-12	0.01137388	-0.005825592
	0.01120598	-0.006035667	-2.205147e-12	-7.525586e-12	-0.04182947	0.003676964	3.527976e-11	3.329666e-11
	2.516557e-11	3.105577e-11	0.01137388	-0.005825592	3.527976e-11	3.329666e-11	-0.04097287	0.00529466
2.2e+08	-0.03832017	0.008135019	3.421656e-11	1.325891e-11	0.00967784	-0.006388026	2.99958e-11	2.702582e-11
	3.421656e-11	1.32589e-11	-0.03789428	0.00899653	1.281557e-12	-1.146815e-11	0.009868961	-0.006180171
	0.00967784	-0.006388026	1.281557e-12	-1.146815e-11	-0.03895004	0.007744482	4.299128e-11	2.563161e-11
	2.99958e-11	2.702582e-11	0.009868961	-0.006180171	4.299128e-11	2.563161e-11	-0.03800147	0.009179287
2.3e+08	-0.03477008	0.01133324	3.984446e-11	5.259999e-12	0.008105761	-0.006418306	3.405376e-11	2.197914e-11
	3.984446e-11	5.259999e-12	-0.03427942	0.01211362	4.09585e-12	-1.617132e-11	0.008315388	-0.006221534
	0.008105761	-0.006418306	4.09585e-12	-1.617132e-11	-0.03536562	0.01105668	4.929404e-11	1.63106e-11
	3.405376e-11	2.197914e-11	0.008315388	-0.006221534	4.929404e-11	1.63106e-11	-0.03435972	0.0123001
2.4e+08	-0.03070027	0.01367558	4.407639e-11	-3.937748e-12	0.006555771	-0.006125137	3.711979e-11	1.60617e-11
	4.407639e-11	-3.937748e-12	-0.03016656	0.01436163	6.064154e-12	-2.148087e-11	0.00677689	-0.005946875
	0.006555771	-0.006125137	6.064154e-12	-2.148087e-11	-0.03124713	0.01349713	5.382344e-11	5.616533e-12
	3.711979e-11	1.60617e-11	0.00677689	-0.005946875	5.382344e-11	5.616533e-12	-0.03021977	0.01454603
2.5e+08	-0.02629613	0.0150835	4.665336e-11	-1.405394e-11	0.005092754	-0.00552035	3.900415e-11	9.467093e-12
	4.665336e-11	-1.405394e-11	-0.02574394	0.01566643	7.051281e-12	-2.720325e-11	0.00531644	-0.005366093
	0.005092754	-0.00552035	7.051281e-12	-2.720325e-11	-0.02678365	0.01498608	5.627735e-11	-6.087655e-12
	3.900415e-11	9.467093e-12	0.00531644	-0.005366093	5.627735e-11	-6.087655e-12	-0.02577112	0.01584302
2.6e+08	-0.0217537	0.01551705	4.736535e-11	-2.474817e-11	0.003777864	-0.004628524	3.955744e-11	2.430048e-12
	4.736535e-11	-2.474817e-11	-0.02120951	0.0159932	6.930458e-12	-3.309677e-11	0.00399378	-0.004501424
	0.003777864	-0.004628524	6.930458e-12	-3.309677e-11	-0.02217489	0.01548301	5.643265e-11	-1.837331e-11
	3.955744e-11	2.430048e-12	0.00399378	-0.004501424	5.643265e-11	-1.837331e-11	-0.02121297	0.01615651
2.7e+08	-0.01727183	0.01497604	4.609839e-11	-3.564413e-11	0.002666062	-0.003486027	3.867923e-11	-4.782621e-12
	4.609839e-11	-3.564413e-11	-0.01676302	0.0153472	5.705526e-12	-3.892398e-11	0.002863024	-0.003386602
	0.002666062	-0.003486027	5.705526e-12	-3.892398e-11	-0.01762325	0.01498778	5.416133e-11	-3.076549e-11
	3.867923e-11	-4.782621e-12	0.002863024	-0.003386602	5.416133e-11	-3.076549e-11	-0.01674617	0.01549236
2.8e+08	-0.01304435	0.01349959	4.28097e-11	-4.634272e-11	0.001803862	-0.00213958	3.632499e-11	-1.188247e-11
	4.28097e-11	-4.634272e-11	-0.01259801	0.01377329	3.40838e-12	-4.444436e-11	0.001970467	-0.002065549
	0.001803862	-0.00213958	3.40838e-12	-4.444436e-11	-0.0133259	0.01354019	4.943743e-11	-4.276378e-11
	3.632499e-11	-1.188247e-11	0.001970467	-0.002065549	4.943743e-11	-4.276378e-11	-0.01256526	0.01389627
2.9e+08	-0.009252412	0.01116428	3.753766e-11	-5.643751e-11	0.001227383	-0.0006443909	3.251033e-11	-1.857156e-11
	3.753766e-11	-5.643751e-11	-0.008894121	0.01135373	1.190697e-13	-4.942558e-11	0.001352659	-0.0005906488
	0.001227383	-0.0006443909	1.190697e-13	-4.942558e-11	-0.009467016	0.01121803	4.234157e-11	-5.386509e-11
	3.251033e-11	-1.857156e-11	0.001352659	-0.0005906488	4.234157e-11	-5.386509e-11	-0.008850687	0.01145147
3e+08	-0.006057401	0.00808071	3.040397e-11	-6.55327e-11	0.0009608046	0.0009381016	2.731268e-11	-2.455538e-11
	3.040397e-11	-6.55327e-11	-0.005810046	0.008204519	-4.031543e-12	-5.365817e-11	0.00103486	0.0009793683
	0.0009608046	0.0009381016	-4.031543e-12	-5.365817e-11	-0.00621066	0.008133574	3.306008e-11	-6.358693e-11
	2.731268e-11	-2.455538e-11	0.00103486	0.0009793682	3.306008e-11	-6.358693e-11	-0.005761721	0.00827511
3.1e+08	-0.003594674	0.004388818	2.161028e-11	-7.326037e-11	0.001015293	0.002542766	2.087023e-11	-2.955595e-11
	2.161028e-11	-7.326037e-11	-0.00347728	0.004470435	-8.868714e-12	-5.696637e-11	0.001029932	0.00258182
	0.001015293	0.002542766	-8.868714e-12	-5.696637e-11	-0.003694394	0.004428828	2.187897e-11	-7.148995e-11
	2.087023e-11	-2.955595e-11	0.001029932	0.00258182	2.187897e-11	-7.148995e-11	-0.003430185	0.004513216
3.2e+08	-0.001968348	0.0002520037	1.143098e-11	-7.929623e-11	0.001388477	0.004103516	1.337782e-11	-3.332446e-11
	1.143098e-11	-7.929623e-11	-0.001995054	0.000318899	-1.418297e-11	-5.921681e-11	0.001337753	0.00415268
	0.001388477	0.004103516	-1.418297e-11	-5.921681e-11	-0.002024046	0.0002695466	9.172917e-12	-7.719829e-11
	1.337782e-11	-3.332446e-11	0.001337753	0.00415268	9.172917e-12	-7.719829e-11	-0.001955373	0.0003345123
3.3e+08	-0.001247375	-0.004149642	2.032225e-13	-8.337365e-11	0.002064494	0.005556118	5.080351e-12	-3.565285e-11
	2.032225e-13	-8.337365e-11	-0.001426584	-0.004067003	-1.974073e-11	-6.03247e-11	0.001945177	0.005629263
	0.002064494	0.005556118	-1.974073e-11	-6.03247e-11	-0.001269749	-0.004161628	-4.609804e-12	-8.041713e-11
	5.080351e-12	-3.565285e-11	0.001945177	0.005629263	-4.609804e-12	-8.041713e-11	-0.001400285	-0.004076621
3.4e+08	-0.001463071	-0.008626734	-1.168553e-11	-8.52955e-11	0.003014639	0.006840952	-3.736194e-12	-3.638397e-11
	-1.168553e-11	-8.52955e-11	-0.001796819	-0.008496107	-2.529562e-11	-6.025722e-11	0.002826562	0.006952891
	0.003014639	0.006840952	-2.529562e-11	-6.025722e-11	-0.001463452	-0.008672683	-1.896547e-11	-8.094664e-11
	-3.736194e-12	-3.638397e-11	0.002826562	0.006952891	-1.896547e-11	-8.094664e-11	-0.001789383	-0.008527787
3.5e+08	-0.002608187	-0.01298833	-2.381214e-11	-8.494287e-11	0.004198578	0.007905577	-1.275575e-11	-3.541929e-11
	-2.381214e-11	-8.494287e-11	-0.003091768	-0.01277703	-3.059992e-11	-5.903436e-11	0.003944853	0.00807138
	0.004198578	0.007905577	-3.059992e-11	-5.903436e-11	-0.002597995	-0.01307006	-3.335565e-11	-7.869132e-11
	-1.275575e-11	-3.541929e-11	0.003944853	0.00807138	-3.335565e-11	-7.869132e-11	-0.003107939	-0.0128265
3.6e+08	-0.004637543	-0.01704963	-3.573367e-11	-8.228109e-11	0.005566092	0.008706995	-2.16446e-11	-3.272457e-11
	-3.573367e-11	-8.228109e-11	-0.005259432	-0.01672596	-3.541552e-11	-5.672742e-11	0.005253176	0.008941268
	0.005566092	0.008706995	-3.541552e-11	-5.672742e-11	-0.004627778	-0.0171665	-4.722905e-11	-7.366518e-11
	-2.16446e-11	-3.272457e-11	0.005253176	0.008941268	-4.722905e-11	-7.366518e-11	-0.005302993	-0.01678801
3.7e+08	-0.007470207	-0.02063943	-4.700407e-11	-7.736233e-11	0.007059257	0.009213494	-3.006468e-11	-2.833248e-11
	-4.700407e-11	-7.736233e-11	-0.00821228	-0.0201741	-3.952397e-11	-5.345537e-11	0.006696856	0.009529638
	0.007059257	0.009213494	-3.952397e-11	-5.345537e-11	-0.007470983	-0.0207885	-6.004375e-11	-6.599205e-11
	-3.006468e-11	-2.833248e-11	0.006696856	0.009529638	-6.004375e-11	-6.599205e-11	-0.008285869	-0.02024279
3.8e+08	-0.0109931	-0.02360684	-5.719099e-11	-7.032526e-11	0.008614975	0.009405983	-3.768717e-11	-2.234264e-11
	-5.719099e-11	-7.032526e-11	-0.01183115	-0.02297435	-4.273538e-11	-4.937958e-11	0.00821579	0.009815477
	0.008614975	0.009405983	-4.273538e-11	-4.937958e-11	-0.01101324	-0.02378323	-7.128879e-11	-5.590175e-11
	-3.768717e-11	-2.234264e-11	0.00821579	0.009815477	-7.128879e-11	-5.590175e-11	-0.01193614	-0.0230433
3.9e+08	-0.01506584	-0.02582717	-6.589235e-11	-6.139139e-11	0.01016771	0.009278751	-4.420581e-11	-1.49188e-11
	-6.589235e-11	-6.139139e-11	-0.01597042	-0.0250071	-4.489594e-11	-4.469707e-11	0.009747024	0.009790498
	0.01016771	0.009278751	-4.489594e-11	-4.469707e-11	-0.01511256	-0.02602441	-8.050444e-11	-4.372206e-11
	-4.420581e-11	-1.49188e-11	0.009747024	0.009790498	-8.050444e-11	-4.372206e-11	-0.0161068	-0.0250697
4e+08	-0.01952668	-0.02720672	-7.275197e-11	-5.08585e-11	0.01165231	0.00883963	-4.934929e-11	-6.283456e-12
	-7.275197e-11	-5.08585e-11	-0.02046411	-0.02618474	-4.589402e-11	-3.963276e-11	0.01122744	0.009459392
	0.01165231	0.00883963	-4.589402e-11	-3.963276e-11	-0.01960533	-0.02741714	-8.730033e-11	-2.986717e-11
	-4.934929e-11	-6.283456e-12	0.01122744	0.009459392	-8.730033e-11	-2.986717e-11	-0.02063055	-0.02623453
4.1e+08	-0.02419913	-0.02768615	-7.74739e-11	-3.909117e-11	0.01300679	0.008109567	-5.28924e-11	3.289916e-12
	-7.74739e-11	-3.909117e-11	-0.02513288	-0.02645496	-4.566471e-11	-3.443084e-11	0.01259642	0.008839513
	0.01300679	0.008109567	-4.566471e-11	-3.443084e-11	-0.02431309	-0.02790136	-9.137117e-11	-1.482307e-11
	-5.28924e-11	3.289916e-12	0.01259642	0.008839513	-9.137117e-11	-1.482307e-11	-0.02532668	-0.02648581
4.2e+08	-0.02889917	-0.02724257	-7.983487e-11	-2.650867e-11	0.01417494	0.007121618	-5.466532e-11	1.34866e-11
	-7.983487e-11	-2.650867e-11	-0.02979126	-0.02580241	-4.419279e-11	-2.934557e-11	0.01379834	0.007960032
	0.01417494	0.007121618	-4.419279e-11	-2.934557e-11	-0.02904977	-0.02745387	-9.25094e-11	8.698359e-13
	-5.466532e-11	1.34866e-11	0.01379834	0.007960032	-9.25094e-11	8.698359e-13	-0.03000852	-0.02580885
4.3e+08	-0.0334426	-0.02589005	-7.969435e-11	-1.357048e-11	0.0151086	0.005919449	-5.456085e-11	2.3962e-11
	-7.969435e-11	-1.357048e-11	-0.03425522	-0.02424899	-4.151404e-11	-2.463167e-11	0.01478483	0.006860594
	0.0151086	0.005919449	-4.151404e-11	-2.463167e-11	-0.03362918	-0.02608891	-9.061447e-11	1.663605e-11
	-5.456085e-11	2.3962e-11	0.01478483	0.006860594	-9.061447e-11	1.663605e-11	-0.03449095	-0.02422646
4.4e+08	-0.03765234	-0.02367877	-7.70018e-11	-7.600344e-13	0.01576966	0.004555413	-5.253933e-11	3.43541e-11
	-7.70018e-11	-7.600344e-13	-0.03834943	-0.02185262	-3.77149e-11	-2.053464e-11	0.01551664	0.005589576
	0.01576966	0.004555413	-3.77149e-11	-2.053464e-11	-0.03787238	-0.02385718	-8.569844e-11	3.188586e-11
	-5.253933e-11	3.43541e-11	0.01551664	0.005589576	-8.569844e-11	3.188586e-11	-0.03859779	-0.02179765
4.5e+08	-0.04136528	-0.02069268	-7.180079e-11	1.143307e-11	0.01613145	0.003088295	-4.863111e-11	4.429669e-11
	-7.180079e-11	1.143307e-11	-0.04191414	-0.0187046	-3.293056e-11	-1.728109e-11	0.01596521	0.004202015
	0.01613145	0.003088295	-3.293056e-11	-1.728109e-11	-0.0416146	-0.02084356	-7.788784e-11	4.603716e-11
	-4.863111e-11	4.429669e-11	0.01596521	0.004202015	-7.788784e-11	4.603716e-11	-0.04216868	-0.01861497
4.6e+08	-0.0444386	-0.01704594	-6.422951e-11	2.253132e-11	0.01617978	0.001580839	-4.293605e-11	5.343108e-11
	-6.422951e-11	2.253132e-11	-0.04481139	-0.01492571	-2.733517e-11	-1.506469e-11	0.01611361	0.002757318
	0.01617978	0.001580839	-2.733517e-11	-1.506469e-11	-0.04471164	-0.01716342	-6.741842e-11	5.852383e-11
	-4.293605e-11	5.343108e-11	0.01611361	0.002757318	-6.741842e-11	5.852383e-11	-0.04506532	-0.01480058
4.7e+08	-0.04675512	-0.01287827	-5.451793e-11	3.208757e-11	0.01591339	9.716641e-05	-3.562285e-11	6.142358e-11
	-5.451793e-11	3.208757e-11	-0.04693021	-0.01066126	-2.113566e-11	-1.404531e-11	0.01595717	0.001316835
