!$
! Info: Touchstone file created by Circ.  Input file=Tx_14in_Rx_93ohms_TxVia_10mils_RxVia_20mils.circ
!$
# Hz S RI R 50
0	0.01280243	8.511091e-26	-1.754055e-11	4.053321e-27	8.597831e-05	1.330011e-23	-2.132543e-08	2.611553e-24
	-1.752634e-11	4.052305e-27	0.0128017	1.226144e-25	1.457906e-11	3.040606e-28	8.557731e-05	1.821987e-23
	8.408934e-05	1.31126e-23	1.454422e-11	3.044083e-28	0.01281615	8.856023e-26	1.722815e-08	7.281716e-27
	-2.132616e-08	2.611642e-24	8.703194e-05	1.875261e-23	1.722867e-08	7.280594e-27	0.01280724	1.169054e-25
1e+07	0.01882546	-0.001406771	2.707101e-11	-5.648231e-11	0.0005086069	0.00224422	-3.891388e-09	1.951682e-08
	2.707098e-11	-5.64826e-11	0.01849834	-0.002213859	-7.113779e-12	-8.244809e-11	0.000535183	0.002465069
	0.000508568	0.002244246	-7.113786e-12	-8.244778e-11	0.01748807	-0.002022539	-5.846826e-09	1.942723e-08
	-3.891389e-09	1.951682e-08	0.0005352162	0.002465058	-5.846826e-09	1.942723e-08	0.0181309	-0.002209532
2e+07	0.02184874	-0.008174857	3.363553e-11	-8.294826e-11	0.00157323	0.004367664	4.148102e-10	2.337279e-08
	3.363519e-11	-8.294838e-11	0.02063796	-0.009232156	-1.392058e-11	-1.894667e-10	0.001483462	0.004787436
	0.001573238	0.004367682	-1.392034e-11	-1.894665e-10	0.02007915	-0.00859992	-5.284848e-09	2.079987e-08
	4.1481e-10	2.337279e-08	0.001483459	0.004787414	-5.284847e-09	2.079987e-08	0.02037015	-0.009105334
3e+07	0.02131147	-0.01662054	2.462286e-11	-1.653276e-10	0.003161081	0.006102234	5.992967e-09	1.639554e-08
	2.462283e-11	-1.653275e-10	0.01945469	-0.01744928	-6.717735e-11	-2.01499e-10	0.003080284	0.006606637
	0.003161079	0.006102235	-6.717729e-11	-2.014992e-10	0.01926093	-0.01675253	2.294296e-09	2.209132e-08
	5.992967e-09	1.639554e-08	0.003080279	0.006606634	2.294296e-09	2.209132e-08	0.01926005	-0.01730158
4e+07	0.01790497	-0.02479542	1.451401e-11	-2.356202e-10	0.005143921	0.007316114	8.594998e-09	1.193686e-08
	1.451404e-11	-2.356202e-10	0.01559489	-0.02519288	-5.963292e-11	-2.679942e-10	0.005139573	0.007840399
	0.005143916	0.007316117	-5.9633e-11	-2.679943e-10	0.01570279	-0.0245657	8.678154e-09	1.639735e-08
	8.594998e-09	1.193686e-08	0.005139572	0.0078404	8.678154e-09	1.639735e-08	0.01545344	-0.02505432
5e+07	0.01217162	-0.03178568	1.218983e-11	-3.106843e-10	0.007357227	0.007921519	1.156417e-08	8.971909e-09
	1.218984e-11	-3.106843e-10	0.009596411	-0.03163802	-1.016941e-10	-2.972738e-10	0.007414096	0.008443222
	0.007357226	0.007921521	-1.016941e-10	-2.972738e-10	0.009938562	-0.0311649	1.066512e-08	9.149334e-09
	1.156417e-08	8.971909e-09	0.007414096	0.008443222	1.066512e-08	9.149334e-09	0.009489166	-0.03152133
6e+07	0.004711092	-0.03698357	1.119511e-11	-4.050177e-10	0.009619372	0.007882894	1.654427e-08	3.236681e-09
	1.119516e-11	-4.050177e-10	0.002056156	-0.03623935	-1.163064e-10	-3.064798e-10	0.009722665	0.008388989
	0.009619372	0.007882892	-1.163064e-10	-3.064798e-10	0.002559627	-0.03597451	9.716147e-09	3.112269e-09
	1.654427e-08	3.236681e-09	0.009722662	0.00838899	9.716147e-09	3.112269e-09	0.00196704	-0.0361489
7e+07	-0.003815251	-0.04001243	-2.542376e-13	-5.18363e-10	0.01174811	0.007218247	1.450971e-08	-7.788269e-09
	-2.541206e-13	-5.183631e-10	-0.006371878	-0.03867174	-1.181237e-10	-3.186173e-10	0.01188395	0.007701474
	0.01174811	0.007218242	-1.181237e-10	-3.186173e-10	-0.005783377	-0.03864461	7.328196e-09	-1.102004e-09
	1.450971e-08	-7.788269e-09	0.01188395	0.007701476	7.328196e-09	-1.102005e-09	-0.006456807	-0.03860696
8e+07	-0.01271855	-0.0407086	-1.62333e-11	-6.248617e-10	0.0135762	0.005996176	7.131117e-09	-1.109149e-08
	-1.623322e-11	-6.248618e-10	-0.01501146	-0.03881554	-1.210425e-10	-3.358389e-10	0.01373137	0.006452756
	0.0135762	0.00599617	-1.210425e-10	-3.358389e-10	-0.01441444	-0.03903328	4.494188e-09	-3.559727e-09
	7.131117e-09	-1.109149e-08	0.01373136	0.00645276	4.494187e-09	-3.559727e-09	-0.01510396	-0.03877173
9e+07	-0.02132842	-0.03910853	-5.221951e-11	-6.830101e-10	0.01496582	0.004328947	2.956237e-09	-1.056664e-08
	-5.221948e-11	-6.830101e-10	-0.02320628	-0.03674352	-1.30849e-10	-3.665787e-10	0.01512606	0.004756875
	0.01496582	0.004328943	-1.308491e-10	-3.665786e-10	-0.02267532	-0.03719351	1.847524e-09	-4.510881e-09
	2.956237e-09	-1.056664e-08	0.01512606	0.004756879	1.847524e-09	-4.510881e-09	-0.02331528	-0.03671285
1e+08	-0.02905717	-0.0354325	-1.822347e-10	-7.296974e-10	0.01583005	0.002364539	5.303719e-10	-9.480349e-09
	-1.822347e-10	-7.296974e-10	-0.03034274	-0.03269791	-1.393088e-10	-4.21051e-10	0.01596666	0.002759449
	0.01583005	0.002364539	-1.393088e-10	-4.21051e-10	-0.02996289	-0.03335289	-2.881103e-10	-4.312569e-09
	5.303719e-10	-9.480349e-09	0.01596666	0.002759449	-2.881103e-10	-4.312569e-09	-0.03047692	-0.03267153
1.1e+08	-0.03534791	-0.02994191	-2.512366e-10	-7.824569e-10	0.01607458	0.0003126585	-1.761806e-09	-1.021572e-08
	-2.512366e-10	-7.824569e-10	-0.03598937	-0.02720866	-1.177339e-10	-4.531513e-10	0.01619522	0.0006312643
	0.01607458	0.0003126586	-1.177339e-10	-4.531513e-10	-0.03579955	-0.02794195	-7.448839e-10	-4.718567e-09
	-1.761806e-09	-1.021572e-08	0.01619522	0.0006312642	-7.448839e-10	-4.718567e-09	-0.03614693	-0.02716152
1.2e+08	-0.03974432	-0.02322758	-3.242268e-10	-8.090183e-10	0.01568792	-0.001716381	-4.30212e-09	-1.0258e-08
	-3.242268e-10	-8.090183e-10	-0.03988936	-0.02061854	-9.120025e-11	-4.938534e-10	0.01581027	-0.001454379
	0.01568792	-0.001716381	-9.120025e-11	-4.938534e-10	-0.03985767	-0.02138141	-1.260271e-09	-4.990763e-09
	-4.30212e-09	-1.0258e-08	0.01581027	-0.001454379	-1.260271e-09	-4.990763e-09	-0.04005424	-0.02054446
1.3e+08	-0.04206071	-0.01587227	-3.925914e-10	-8.106106e-10	0.01472623	-0.003547237	-6.873739e-09	-9.523838e-09
	-3.925914e-10	-8.106106e-10	-0.04180264	-0.01346586	-6.267706e-11	-5.450484e-10	0.01485168	-0.003332328
	0.01472623	-0.003547237	-6.267706e-11	-5.450484e-10	-0.04191188	-0.01422084	-1.791618e-09	-5.112042e-09
	-6.873739e-09	-9.523838e-09	0.01485168	-0.003332328	-1.791618e-09	-5.112042e-09	-0.04196302	-0.01336402
1.4e+08	-0.04225356	-0.008473013	-4.482742e-10	-7.885152e-10	0.01327579	-0.0050291	-9.233628e-09	-7.99795e-09
	-4.482742e-10	-7.885152e-10	-0.0416792	-0.00632507	-3.582948e-11	-6.073216e-10	0.01340269	-0.004855373
	0.01327579	-0.005029099	-3.582948e-11	-6.073216e-10	-0.04190925	-0.007039781	-2.291476e-09	-5.076641e-09
	-9.233628e-09	-7.99795e-09	0.01340269	-0.004855373	-2.291476e-09	-5.076641e-09	-0.04182487	-0.006198276
1.5e+08	-0.04043866	-0.001604698	-4.821936e-10	-7.483947e-10	0.01145756	-0.006042003	-1.113493e-08	-5.740858e-09
	-4.821936e-10	-7.483947e-10	-0.03963351	0.0002477175	-1.388352e-11	-6.802892e-10	0.01158259	-0.005905419
	0.01145756	-0.006042003	-1.388352e-11	-6.802892e-10	-0.03995938	-0.0003997442	-2.70936e-09	-4.895652e-09
	-1.113493e-08	-5.740858e-09	0.01158259	-0.005905418	-2.70936e-09	-4.895652e-09	-0.03975624	0.0003936831
1.6e+08	-0.03687897	0.004220593	-4.885387e-10	-6.982947e-10	0.009418869	-0.006504484	-1.235036e-08	-2.889394e-09
	-4.885387e-10	-6.982947e-10	-0.03592757	0.005757836	-2.440831e-13	-7.625257e-10	0.009537385	-0.006401786
	0.009418869	-0.006504484	-2.440831e-13	-7.625257e-10	-0.0363194	0.005198098	-2.999975e-09	-4.595486e-09
	-1.235036e-08	-2.889394e-09	0.009537385	-0.006401786	-2.999975e-09	-4.595486e-09	-0.03602165	0.005914981
1.7e+08	-0.03196086	0.008589215	-4.646954e-10	-6.479559e-10	0.007322486	-0.006378924	-1.269555e-08	3.49963e-10
	-4.646954e-10	-6.479559e-10	-0.03094559	0.009808445	2.149593e-12	-8.515415e-10	0.007428736	-0.006306762
	0.007322486	-0.006378923	2.149593e-12	-8.515415e-10	-0.03136962	0.009349153	-3.127126e-09	-4.216408e-09
	-1.269555e-08	3.49963e-10	0.007428736	-0.006306762	-3.127126e-09	-4.216408e-09	-0.03100822	0.009967426
1.8e+08	-0.02616192	0.01121382	-4.116465e-10	-6.074456e-10	0.005334471	-0.005673929	-1.205011e-08	3.714844e-09
	-4.116465e-10	-6.074456e-10	-0.02516093	0.01212844	-8.840078e-12	-9.439264e-10	0.005421928	-0.005628133
	0.005334471	-0.005673929	-8.840078e-12	-9.439264e-10	-0.02558113	0.0117735	-3.067801e-09	-3.809192e-09
	-1.205011e-08	3.714844e-09	0.005421928	-0.005628133	-3.067801e-09	-3.809192e-09	-0.02519242	0.01227948
1.9e+08	-0.02001281	0.01195153	-3.337322e-10	-5.857628e-10	0.003611648	-0.004443493	-1.037432e-08	6.907104e-09
	-3.337322e-10	-5.857628e-10	-0.0190975	0.01259036	-3.425145e-11	-1.035603e-09	0.003673499	-0.004418504
	0.003611648	-0.004443493	-3.425145e-11	-1.035603e-09	-0.01947764	0.0123342	-2.81495e-09	-3.430631e-09
	-1.037432e-08	6.907104e-09	0.003673499	-0.004418504	-2.81495e-09	-3.430631e-09	-0.01910119	0.01272418
2e+08	-0.0140559	0.01081132	-2.378539e-10	-5.897438e-10	0.002289615	-0.002782851	-7.719365e-09	9.617905e-09
	-2.378539e-10	-5.897438e-10	-0.01328812	0.0112172	-7.380535e-11	-1.122189e-09	0.00231939	-0.002771369
	0.002289615	-0.002782851	-7.380535e-11	-1.122189e-09	-0.01359421	0.01104463	-2.378697e-09	-3.138493e-09
	-7.719365e-09	9.617905e-09	0.00231939	-0.002771369	-2.378697e-09	-3.138493e-09	-0.01327007	0.01132589
2.1e+08	-0.00880296	0.007950269	-1.323634e-10	-6.23475e-10	0.001467923	-0.0008244627	-4.229819e-09	1.155566e-08
	-1.323634e-10	-6.23475e-10	-0.008232952	0.008177742	-1.258106e-10	-1.199459e-09	0.001464439	-0.0008140721
	0.001467923	-0.0008244627	-1.258106e-10	-1.199459e-09	-0.008435076	0.008064838	-1.785803e-09	-2.987075e-09
	-4.229819e-09	1.155566e-08	0.001464439	-0.0008140721	-1.785803e-09	-2.987075e-09	-0.008201443	0.008255484
2.2e+08	-0.004697622	0.003657367	-2.592629e-11	-6.882909e-10	0.001213844	0.00128135	-1.373098e-10	1.247463e-08
	-2.592629e-11	-6.882909e-10	-0.004360999	0.003770756	-1.872472e-10	-1.263764e-09	0.001174075	0.001301965
	0.001213844	0.00128135	-1.872472e-10	-1.263764e-09	-0.0044363	0.003685269	-1.078805e-09	-3.021499e-09
	-1.373098e-10	1.247463e-08	0.001174075	0.001301965	-1.078805e-09	-3.021499e-09	-0.004325784	0.0038144
2.3e+08	-0.002083002	-0.001670486	7.331642e-11	-7.832337e-10	0.001552379	0.003372531	4.254615e-09	1.220094e-08
	7.331642e-11	-7.832337e-10	-0.001997553	-0.001600643	-2.539582e-10	-1.312461e-09	0.001468973	0.003413096
	0.001552379	0.003372531	-2.539582e-10	-1.312461e-09	-0.001933629	-0.001697155	-3.123388e-10	-3.272944e-09
	4.254615e-09	1.220094e-08	0.001468973	0.003413096	-3.123388e-10	-3.272944e-09	-0.001969026	-0.001591262
2.4e+08	-0.001174787	-0.00756084	1.581584e-10	-9.056534e-10	0.0024541	0.005283087	8.593425e-09	1.06533e-08
	1.581584e-10	-9.056534e-10	-0.001340201	-0.007462548	-3.210338e-10	-1.344336e-09	0.002323254	0.005356494
	0.0024541	0.005283088	-3.210338e-10	-1.344336e-09	-0.001135782	-0.007611358	4.510789e-10	-3.757524e-09
	8.593425e-09	1.06533e-08	0.002323254	0.005356494	4.510789e-10	-3.757524e-09	-0.001328488	-0.007484532
2.5e+08	-0.002047322	-0.01350469	2.223445e-10	-1.051753e-09	0.003844042	0.006862306	1.250652e-08	7.856449e-09
	2.223445e-10	-1.051753e-09	-0.002445186	-0.01330896	-3.833066e-10	-1.359768e-09	0.003666501	0.006983292
	0.003844042	0.006862306	-3.833066e-10	-1.359768e-09	-0.002110795	-0.01355099	1.145004e-09	-4.473649e-09
	1.250652e-08	7.856449e-09	0.003666501	0.006983292	1.145004e-09	-4.473649e-09	-0.002459259	-0.01335655
2.6e+08	-0.004630253	-0.01899723	2.603526e-10	-1.216821e-09	0.005607922	0.007987089	1.563355e-08	3.945221e-09
	2.603526e-10	-1.216821e-09	-0.005225177	-0.01864258	-4.358836e-10	-1.360755e-09	0.005389537	0.008170654
	0.005607922	0.007987089	-4.358836e-10	-1.360755e-09	-0.004782881	-0.01901501	1.703844e-09	-5.401105e-09
	1.563355e-08	3.945221e-09	0.005389537	0.008170655	1.703844e-09	-5.401105e-09	-0.005272082	-0.01870754
2.7e+08	-0.008716631	-0.02357757	2.672133e-10	-1.395096e-09	0.007601717	0.00857199	1.765915e-08	-8.413557e-10
	2.672133e-10	-1.395096e-09	-0.009458626	-0.02301413	-4.746619e-10	-1.350753e-09	0.007353475	0.008831674
	0.007601717	0.00857199	-4.746619e-10	-1.350753e-09	-0.008940714	-0.02354723	2.067906e-09	-6.501281e-09
	1.765915e-08	-8.413557e-10	0.007353475	0.008831674	2.067906e-09	-6.501281e-09	-0.009542766	-0.02308647
2.8e+08	-0.01398164	-0.02686434	2.386406e-10	-1.57939e-09	0.009663741	0.008575979	1.834288e-08	-6.175662e-09
	2.386406e-10	-1.57939e-09	-0.01480945	-0.02605731	-4.967524e-10	-1.334355e-09	0.009401244	0.008922173
	0.009663741	0.008575979	-4.967524e-10	-1.334355e-09	-0.01425633	-0.02677163	2.188502e-09	-7.718681e-09
	1.834288e-08	-6.175662e-09	0.009401244	0.008922173	2.188502e-09	-7.718681e-09	-0.01493221	-0.02612615
2.9e+08	-0.02001027	-0.02858432	1.716014e-10	-1.760729e-09	0.0116281	0.008005374	1.754358e-08	-1.166554e-08
	1.716014e-10	-1.760729e-09	-0.02085558	-0.02751654	-5.007673e-10	-1.316847e-09	0.01137052	0.008443842
	0.0116281	0.008005374	-5.007673e-10	-1.316847e-09	-0.02031287	-0.02842076	2.032835e-09	-8.983876e-09
	1.754358e-08	-1.166554e-08	0.01137052	0.008443842	2.032835e-09	-8.983876e-09	-0.02101518	-0.02757094
3e+08	-0.02633145	-0.02859197	6.52775e-11	-1.928342e-09	0.01333826	0.006912735	1.523592e-08	-1.688473e-08
	6.52775e-11	-1.928342e-09	-0.02712373	-0.02726533	-4.869445e-10	-1.303712e-09	0.01310685	0.007443484
	0.01333826	0.006912735	-4.869445e-10	-1.303712e-09	-0.02663875	-0.02835494	1.588202e-09	-1.021796e-08
	1.523592e-08	-1.688473e-08	0.01310685	0.007443484	1.588202e-09	-1.021796e-08	-0.02731534	-0.02729524
3.1e+08	-0.03245581	-0.02687864	-7.782578e-11	-2.070231e-09	0.01465964	0.005391935	1.151752e-08	-2.140711e-08
	-7.782578e-11	-2.070231e-09	-0.03312741	-0.02531408	-4.571057e-10	-1.300142e-09	0.01447589	0.006008589
	0.01465964	0.005391935	-4.571057e-10	-1.300142e-09	-0.03274543	-0.0265712	8.649758e-10	-1.133844e-08
	1.151752e-08	-2.140711e-08	0.01447589	0.006008589	8.649758e-10	-1.133844e-08	-0.03334349	-0.02531118
3.2e+08	-0.03791402	-0.02357094	-2.509864e-10	-2.174415e-09	0.01548995	0.00356998	6.606127e-09	-2.484194e-08
	-2.509864e-10	-2.174415e-09	-0.03840518	-0.02180725	-4.144765e-10	-1.310603e-09	0.01537362	0.004259739
	0.01548995	0.00356998	-4.144765e-10	-1.310603e-09	-0.03816562	-0.02320143	-1.021893e-10	-1.226617e-08
	6.606127e-09	-2.484194e-08	0.01537362	0.004259738	-1.021893e-10	-1.226617e-08	-0.03863612	-0.02176565
3.3e+08	-0.04229272	-0.01891889	-4.429667e-10	-2.230688e-09	0.01576679	0.001596415	8.269573e-10	-2.686724e-08
	-4.429667e-10	-2.230688e-09	-0.04255615	-0.01701004	-3.634057e-10	-1.338499e-09	0.01573394	0.00234062
	0.01576679	0.001596415	-3.634057e-10	-1.338499e-09	-0.04248911	-0.01850017	-1.255394e-09	-1.293285e-08
	8.269573e-10	-2.686724e-08	0.01573394	0.00234062	-1.255394e-09	-1.293285e-08	-0.04279099	-0.01692678
3.4e+08	-0.0452655	-0.0132749	-6.385746e-10	-2.232566e-09	0.01547189	-0.0003687416	-5.409029e-09	-2.725876e-08
	-6.385746e-10	-2.232566e-09	-0.0452701	-0.01128632	-3.090321e-10	-1.385941e-09	0.01553313	0.0004065635
	0.01547189	-0.0003687416	-3.090321e-10	-1.385941e-09	-0.04539356	-0.01282345	-2.516978e-09	-1.328809e-08
	-5.409029e-09	-2.725876e-08	0.01553313	0.0004065635	-2.516978e-09	-1.328809e-08	-0.04549746	-0.01116164
3.5e+08	-0.0466167	-0.007065506	-8.201358e-10	-2.178958e-09	0.01463182	-0.002167529	-1.163431e-08	-2.591226e-08
	-8.201358e-10	-2.178958e-09	-0.04635028	-0.005069383	-2.569285e-10	-1.453598e-09	0.01479094	-0.001387476
	0.01463182	-0.002167529	-2.569285e-10	-1.453598e-09	-0.04666805	-0.00660036	-3.795334e-09	-1.33054e-08
	-1.163431e-08	-2.591226e-08	0.01479094	-0.001387476	-3.795334e-09	-1.33054e-08	-0.04655924	-0.004906739
3.6e+08	-0.04625658	-0.0007580646	-9.696999e-10	-2.075127e-09	0.01331538	-0.003656113	-1.735955e-08	-2.285722e-08
	-9.696999e-10	-2.075127e-09	-0.04572715	0.001171946	-2.127426e-10	-1.54064e-09	0.01356853	-0.002898612
	0.01331538	-0.003656113	-2.127426e-10	-1.54064e-09	-0.04622801	-0.0002995579	-4.992583e-09	-1.298602e-08
	-1.735955e-08	-2.285722e-08	0.01356853	-0.002898612	-4.992583e-09	-1.298602e-08	-0.04590814	0.001366157
3.7e+08	-0.04422689	0.005175115	-1.071579e-09	-1.932625e-09	0.01162792	-0.004715572	-2.211158e-08	-1.826076e-08
	-1.071579e-09	-1.932625e-09	-0.0434626	0.006969435	-1.818325e-10	-1.644724e-09	0.01196343	-0.004006603
	0.01162792	-0.004715572	-1.818325e-10	-1.644724e-09	-0.04412049	0.005606616	-6.013309e-09	-1.236024e-08
	-2.211158e-08	-1.826076e-08	0.01196343	-0.004006603	-6.013309e-09	-1.236024e-08	-0.04360821	0.00718634
3.8e+08	-0.04069669	0.01029257	-1.114714e-09	-1.768132e-09	0.009703103	-0.005260723	-2.54719e-08	-1.242089e-08
	-1.114714e-09	-1.768132e-09	-0.03974421	0.01189109	-1.688899e-10	-1.762066e-09	0.01010192	-0.004622665
	0.009703103	-0.005260723	-1.688899e-10	-1.762066e-09	-0.04051968	0.01067796	-6.773398e-09	-1.148573e-08
	-2.54719e-08	-1.242089e-08	0.01010192	-0.004622665	-6.773398e-09	-1.148573e-08	-0.03984975	0.01212004
3.9e+08	-0.03594876	0.01421692	-1.094368e-09	-1.601359e-09	0.007692648	-0.005246433	-2.711274e-08	-5.749177e-09
	-1.094368e-09	-1.601359e-09	-0.03487021	0.01557385	-1.775509e-10	-1.887581e-09	0.00812954	-0.004695976
	0.007692648	-0.005246433	-1.775509e-10	-1.887581e-09	-0.03571302	0.01453958	-7.207946e-09	-1.044317e-08
	-2.711274e-08	-5.749177e-09	0.00812954	-0.004695976	-7.207946e-09	-1.044317e-08	-0.0349342	0.01580322
4e+08	-0.03035768	0.01666313	-1.012788e-09	-1.452442e-09	0.005754843	-0.004671034	-2.682796e-08	1.256654e-09
	-1.012788e-09	-1.452442e-09	-0.02922635	0.0177509	-2.100123e-10	-2.01515e-09	0.006200093	-0.004217458
	0.005754843	-0.004671034	-2.100123e-10	-2.01515e-09	-0.03007896	0.01691002	-7.27737e-09	-9.329597e-09
	-2.682796e-08	1.256654e-09	0.006200093	-0.004217458	-7.27737e-09	-9.329597e-09	-0.02925058	0.01796905
4.1e+08	-0.02436102	0.01745987	-8.787234e-10	-1.339326e-09	0.004042456	-0.00357656	-2.455579e-08	8.048544e-09
	-8.787234e-10	-1.339326e-09	-0.0232561	0.01827179	-2.666967e-10	-2.138009e-09	0.004464073	-0.003220561
	0.004042456	-0.00357656	-2.666967e-10	-2.138009e-09	-0.02405799	0.0176224	-6.971115e-09	-8.250262e-09
	-2.455579e-08	8.048544e-09	0.004464073	-0.003220562	-6.971115e-09	-8.250262e-09	-0.02324563	0.01846798
4.2e+08	-0.01842602	0.01656227	-7.059441e-10	-1.275684e-09	0.002690942	-0.002045753	-2.039097e-08	1.40701e-08
	-7.059441e-10	-1.275684e-09	-0.01742666	0.01711363	-3.460249e-10	-2.249283e-09	0.00305715	-0.00177892
	0.002690942	-0.002045753	-3.460249e-10	-2.249283e-09	-0.01811897	0.01663691	-6.308689e-09	-7.309927e-09
	-2.039097e-08	1.40701e-08	0.00305715	-0.00177892	-6.308689e-09	-7.309927e-09	-0.01738941	0.0172789
4.3e+08	-0.01301379	0.01405514	-5.111365e-10	-1.269716e-09	0.00180778	-0.0001959177	-1.458472e-08	1.880166e-08
	-5.111365e-10	-1.269716e-09	-0.01219304	0.01438272	-4.443595e-10	-2.342602e-09	0.002089611	-9.302185e-07
	0.00180778	-0.0001959177	-4.443595e-10	-2.342602e-09	-0.01272333	0.0140437	-5.33813e-09	-6.604466e-09
	-1.458472e-08	1.880166e-08	0.002089611	-9.302188e-07	-5.33813e-09	-6.604466e-09	-0.01213919	0.01451064
4.4e+08	-0.008544019	0.01014628	-3.116934e-10	-1.323981e-09	0.001463773	0.001830016	-7.531361e-09	2.180464e-08
	-3.116934e-10	-1.323981e-09	-0.007963042	0.01030613	-5.561642e-10	-2.412768e-09	0.001637558	0.001978447
	0.001463773	0.001830016	-5.561642e-10	-2.412768e-09	-0.008289691	0.01005586	-4.132275e-09	-6.213481e-09
	-7.531361e-09	2.180464e-08	0.001637558	0.001978447	-4.132275e-09	-6.213481e-09	-0.00790426	0.01039337
4.5e+08	-0.005362846	0.005150378	-1.238679e-10	-1.436119e-09	0.001687108	0.003874641	2.577195e-10	2.276132e-08
	-1.238679e-10	-1.436119e-09	-0.005065806	0.005214044	-6.743939e-10	-2.456346e-09	0.001736652	0.004008148
	0.001687108	0.003874641	-6.743939e-10	-2.456346e-09	-0.005161736	0.004992872	-2.783364e-09	-6.194414e-09
	2.577195e-10	2.276132e-08	0.001736652	0.004008148	-2.783364e-09	-6.194414e-09	-0.005014328	0.005260688
4.6e+08	-0.00371624	-0.0005354921	3.757021e-11	-1.599221e-09	0.002460749	0.005778607	8.189283e-09	2.150033e-08
	3.757021e-11	-1.599221e-09	-0.0037265	-0.0004860586	-7.913109e-10	-2.472532e-09	0.002379006	0.005932947
	0.002460749	0.005778607	-7.913109e-10	-2.472532e-09	-0.003581873	-0.0007441126	-1.39718e-09	-6.57729e-09
	8.189283e-09	2.150033e-08	0.002379006	0.005932947	-1.39718e-09	-6.57729e-09	-0.00369407	-0.0004764646
