!$
! Info: Touchstone file created by Circ.  Input file=Tx_12in_Rx_93ohms_TxVia_10mils_RxVia_20mils.circ
!$
# Hz S RI R 50
0	0.01101109	7.682146e-26	1.089654e-10	2.38586e-28	7.70784e-05	1.168578e-23	-5.017411e-09	6.145624e-25
	1.089773e-10	2.387692e-28	0.01101173	1.072198e-25	5.412465e-10	3.600123e-27	7.517067e-05	1.56603e-23
	7.577806e-05	1.138623e-23	5.411853e-10	3.607256e-27	0.01102627	8.043166e-26	-9.104374e-09	1.128823e-24
	-5.016532e-09	6.144549e-25	7.662598e-05	1.611821e-23	-9.104568e-09	1.128847e-24	0.01101729	1.022377e-25
1e+07	0.01565459	-0.001529218	4.507586e-11	-3.039696e-11	0.0004257934	0.002156191	-5.818473e-09	1.724937e-08
	4.507586e-11	-3.039725e-11	0.01597524	-0.001563834	6.515391e-10	1.070664e-09	0.0004210311	0.002149318
	0.0004257493	0.002156195	6.51539e-10	1.070664e-09	0.01599338	-0.001579962	-7.224475e-09	1.713959e-08
	-5.818472e-09	1.724937e-08	0.0004210641	0.002149306	-7.224475e-09	1.713959e-08	0.01566056	-0.001566417
2e+07	0.01795022	-0.007054991	4.883102e-11	-4.05157e-11	0.001136428	0.004229257	-3.974278e-09	1.4228e-08
	4.883079e-11	-4.051577e-11	0.0181564	-0.007223495	8.01142e-10	1.896743e-09	0.001123858	0.004219488
	0.001136418	0.004229285	8.011422e-10	1.896743e-09	0.01818382	-0.007259022	-5.540801e-09	1.50095e-08
	-3.974278e-09	1.4228e-08	0.001123855	0.004219467	-5.540801e-09	1.50095e-08	0.01792273	-0.007122657
3e+07	0.01770078	-0.01387432	6.550546e-11	-7.991924e-11	0.002390578	0.005936773	2.545215e-10	1.312522e-08
	6.550543e-11	-7.991919e-11	0.01779907	-0.01407658	8.369364e-10	2.705746e-09	0.002347245	0.005937858
	0.002390578	0.005936778	8.369364e-10	2.705745e-09	0.01784064	-0.01413692	-6.911866e-10	1.458411e-08
	2.545215e-10	1.312522e-08	0.00234724	0.005937855	-6.911866e-10	1.458411e-08	0.01762537	-0.01395754
4e+07	0.01538468	-0.02063693	6.60105e-11	-1.215507e-10	0.004039156	0.007237234	3.5463e-09	1.118528e-08
	6.601048e-11	-1.215508e-10	0.01537826	-0.02083241	8.392122e-10	3.556868e-09	0.003972555	0.007255147
	0.004039152	0.007237231	8.392121e-10	3.556868e-09	0.01543624	-0.02092522	3.053267e-09	1.288942e-08
	3.5463e-09	1.118528e-08	0.003972555	0.007255149	3.053267e-09	1.288942e-08	0.01524906	-0.02072042
5e+07	0.01132864	-0.02672854	6.702233e-11	-1.578101e-10	0.005920693	0.008088705	5.69442e-09	9.212214e-09
	6.702229e-11	-1.578102e-10	0.01122457	-0.02688549	8.362471e-10	4.432544e-09	0.005831158	0.008132288
	0.005920691	0.008088704	8.362471e-10	4.432544e-09	0.01129797	-0.02701951	5.42885e-09	1.103725e-08
	5.69442e-09	9.212214e-09	0.005831158	0.008132289	5.42885e-09	1.103725e-08	0.01112489	-0.02679186
6e+07	0.005875438	-0.03172346	8.420257e-11	-1.956318e-10	0.00792175	0.008454417	7.050289e-09	7.869606e-09
	8.420268e-11	-1.956317e-10	0.00568596	-0.03181488	8.333422e-10	5.31409e-09	0.007812346	0.008532276
	0.007921756	0.008454415	8.333422e-10	5.31409e-09	0.005770323	-0.03199861	6.746802e-09	9.764358e-09
	7.050289e-09	7.869606e-09	0.007812343	0.008532277	6.746802e-09	9.764358e-09	0.005602959	-0.03174438
7e+07	-0.0005952768	-0.03532307	2.013211e-10	-2.415639e-10	0.009922675	0.008324713	7.598779e-09	8.223043e-09
	2.013214e-10	-2.41564e-10	-0.0008526085	-0.03532653	8.584286e-10	6.154475e-09	0.00979911	0.008444462
	0.009922686	0.008324706	8.584286e-10	6.154475e-09	-0.0007649844	-0.03556708	6.843798e-09	9.774925e-09
	7.598779e-09	8.223043e-09	0.009799105	0.008444465	6.843798e-09	9.774925e-09	-0.0009305489	-0.03528034
8e+07	-0.007674696	-0.03734176	-8.338209e-10	-1.237924e-09	0.01180517	0.007718471	2.892752e-09	1.064282e-08
	-8.338204e-10	-1.237924e-09	-0.007977562	-0.03724018	1.124035e-09	7.1025e-09	0.0116755	0.007885997
	0.01180519	0.00771846	1.124035e-09	7.1025e-09	-0.007897037	-0.03754223	3.467147e-09	1.074966e-08
	2.892752e-09	1.064282e-08	0.0116755	0.007886001	3.467147e-09	1.074966e-08	-0.008061178	-0.0372163
9e+07	-0.01494048	-0.03770161	-2.001543e-11	-4.122459e-10	0.01345948	0.006681957	-1.665378e-09	3.482074e-09
	-2.001509e-11	-4.122463e-10	-0.01526253	-0.03748394	1.109756e-09	8.24909e-09	0.01333363	0.006900796
	0.01345948	0.006681947	1.109756e-09	8.24909e-09	-0.01520128	-0.03784891	-1.105487e-09	5.761238e-09
	-1.665378e-09	3.482074e-09	0.01333362	0.0069008	-1.105487e-09	5.761238e-09	-0.01536131	-0.03747755
1e+08	-0.02196054	-0.03642154	-2.51682e-11	-3.633996e-10	0.01479013	0.005285125	-2.747295e-10	1.914172e-10
	-2.51682e-11	-3.633996e-10	-0.0222695	-0.03608235	1.063461e-09	9.243285e-09	0.01467961	0.005556093
	0.01479013	0.005285125	1.063461e-09	9.243285e-09	-0.02224049	-0.03650787	-4.052424e-10	1.968725e-09
	-2.747295e-10	1.914172e-10	0.01467961	0.005556093	-4.052424e-10	1.968725e-09	-0.02239389	-0.03608778
1.1e+08	-0.02837019	-0.03374563	-6.842683e-11	-3.920437e-10	0.01572124	0.00362418	-2.308095e-10	2.848056e-10
	-6.842683e-11	-3.920437e-10	-0.02863707	-0.0333045	1.233599e-09	1.02369e-08	0.01563713	0.003942337
	0.01572124	0.003624181	1.233599e-09	1.02369e-08	-0.02865207	-0.03378718	-2.39345e-10	2.279668e-09
	-2.308095e-10	2.848056e-10	0.01563713	0.003942336	-2.39345e-10	2.279668e-09	-0.0287914	-0.03329863
1.2e+08	-0.03393031	-0.02976957	-1.186576e-10	-4.109352e-10	0.01620922	0.001802479	-1.64109e-10	3.639982e-10
	-1.186576e-10	-4.109352e-10	-0.03414169	-0.029239	1.458258e-09	1.120637e-08	0.01616077	0.002162117
	0.01620922	0.001802479	1.458258e-09	1.120637e-08	-0.03421371	-0.02976796	-1.588334e-11	2.553524e-09
	-1.64109e-10	3.639982e-10	0.01616077	0.002162117	-1.588334e-11	2.553524e-09	-0.03431455	-0.02921261
1.3e+08	-0.03833944	-0.02474313	-1.736409e-10	-4.150177e-10	0.01623091	-6.896827e-05	-7.558428e-11	4.245266e-10
	-1.736409e-10	-4.150177e-10	-0.03848009	-0.02413809	1.732143e-09	1.213775e-08	0.01622646	0.0003237228
	0.0162309	-6.896817e-05	1.732143e-09	1.213775e-08	-0.03861859	-0.02469864	2.554332e-10	2.7767e-09
	-7.558428e-11	4.245266e-10	0.01622646	0.0003237228	2.554332e-10	2.7767e-09	-0.03866277	-0.02408642
1.4e+08	-0.04139171	-0.01898139	-2.284583e-10	-4.017733e-10	0.01579108	-0.001877169	2.955697e-11	4.605436e-10
	-2.284583e-10	-4.017733e-10	-0.04144924	-0.0183207	2.04626e-09	1.301707e-08	0.01583681	-0.001462341
	0.01579108	-0.001877168	2.04626e-09	1.301707e-08	-0.0416595	-0.01889553	5.622104e-10	2.936268e-09
	2.955697e-11	4.605436e-10	0.01583681	-0.001462341	5.622104e-10	2.936268e-09	-0.04163319	-0.0182417
1.5e+08	-0.04296849	-0.01283443	-2.771896e-10	-3.715131e-10	0.01492112	-0.00351432	1.438549e-10	4.678594e-10
	-2.771896e-10	-3.715131e-10	-0.04293501	-0.01214013	2.387639e-09	1.383276e-08	0.01502031	-0.003090135
	0.01492112	-0.00351432	2.387639e-09	1.383276e-08	-0.04321754	-0.01271043	8.88769e-10	3.021257e-09
	1.438549e-10	4.678594e-10	0.01502031	-0.003090135	8.88769e-10	3.021257e-09	-0.04311198	-0.01203419
1.6e+08	-0.04304005	-0.006665192	-3.123933e-10	-3.226784e-10	0.01367671	-0.004883822	2.60643e-10	4.444274e-10
	-3.123933e-10	-3.226784e-10	-0.04291323	-0.00596142	2.740121e-09	1.457655e-08	0.01382919	-0.004464107
	0.01367671	-0.004883822	2.740121e-09	1.457655e-08	-0.04326359	-0.006508094	1.217999e-09	3.028425e-09
	2.60643e-10	4.444274e-10	0.01382919	-0.004464107	1.217999e-09	3.028425e-09	-0.04307572	-0.005831138
1.7e+08	-0.04166387	-0.0008284503	-3.271415e-10	-2.594771e-10	0.01213436	-0.005905497	3.715896e-10	3.898735e-10
	-3.271415e-10	-2.594771e-10	-0.04144758	-0.0001399708	3.085105e-09	1.524464e-08	0.01233627	-0.005504186
	0.01213436	-0.005905497	3.085105e-09	1.524464e-08	-0.04185625	-0.0006448786	1.530953e-09	2.955445e-09
	3.715896e-10	3.898735e-10	0.01233627	-0.005504186	1.530953e-09	2.955445e-09	-0.04158923	1.017939e-05
1.8e+08	-0.03897863	0.004348948	-3.160862e-10	-1.886714e-10	0.01038694	-0.006519844	4.685026e-10	3.060801e-10
	-3.160862e-10	-1.886714e-10	-0.03868321	0.004998371	3.402811e-09	1.583824e-08	0.01063066	-0.006149965
	0.01038694	-0.006519844	3.402811e-09	1.583824e-08	-0.03913582	0.004551135	1.80758e-09	2.804396e-09
	4.685026e-10	3.060801e-10	0.01063066	-0.006149965	1.80758e-09	2.804396e-09	-0.03879917	0.005162392
1.9e+08	-0.03519445	0.008585648	-2.764044e-10	-1.188606e-10	0.008538374	-0.006691159	5.43934e-10	1.970159e-10
	-2.764044e-10	-1.188606e-10	-0.03483642	0.009174936	3.673644e-09	1.636393e-08	0.008812787	-0.006363831
	0.008538374	-0.006691159	3.673644e-09	1.636393e-08	-0.03531434	0.008797802	2.027632e-09	2.582309e-09
	5.43934e-10	1.970159e-10	0.008812787	-0.006363831	2.027632e-09	2.582309e-09	-0.03492366	0.009345767
2e+08	-0.03057948	0.01166052	-2.083781e-10	-5.942197e-11	0.006697808	-0.006409402	5.916719e-10	6.841742e-11
	-2.083781e-10	-5.942197e-11	-0.03018087	0.01217291	3.879662e-09	1.683362e-08	0.006988793	-0.0061329
	0.006697808	-0.006409402	3.879662e-09	1.683362e-08	-0.03066202	0.01187371	2.171881e-09	2.301566e-09
	5.916719e-10	6.841742e-11	0.006988793	-0.0061329	2.171881e-09	2.301566e-09	-0.03023836	0.01234292
2.1e+08	-0.02544379	0.01342388	-1.154939e-10	-1.930005e-11	0.00497349	-0.005690704	6.07093e-10	-7.262055e-11
	-1.154939e-10	-1.930005e-11	-0.02503103	0.01384837	4.006044e-09	1.72641e-08	0.00526469	-0.005469671
	0.00497349	-0.005690704	4.006044e-09	1.72641e-08	-0.02549105	0.0136294	2.223608e-09	1.979982e-09
	6.07093e-10	-7.262055e-11	0.00526469	-0.005469671	2.223608e-09	1.979982e-09	-0.02505976	0.01400989
2.2e+08	-0.02012121	0.0138047	-4.049667e-12	-5.868132e-12	0.003466659	-0.004576481	5.873774e-10	-2.180844e-10
	-4.049666e-12	-5.868132e-12	-0.01972356	0.01413717	4.042429e-09	1.76762e-08	0.003740432	-0.004411341
	0.003466659	-0.00457648	4.042429e-09	1.76762e-08	-0.02013722	0.01399459	2.170288e-09	1.640418e-09
	5.873774e-10	-2.180844e-10	0.003740432	-0.004411341	2.170288e-09	1.640418e-09	-0.01972652	0.01428299
2.3e+08	-0.01495004	0.01281339	1.176482e-10	-2.406353e-11	0.002265743	-0.003131136	5.316096e-10	-3.594688e-10
	1.176482e-10	-2.406353e-11	-0.01459788	0.01305734	3.984017e-09	1.80935e-08	0.002504265	-0.003017768
	0.002265743	-0.003131136	3.984017e-09	1.80935e-08	-0.01494064	0.01298084	2.005266e-09	1.309783e-09
	5.316096e-10	-3.594688e-10	0.002504265	-0.003017768	2.005266e-09	1.309783e-09	-0.01457985	0.01318119
2.4e+08	-0.01025388	0.01054005	2.403336e-10	-7.594673e-11	0.001441201	-0.00143845	4.407998e-10	-4.881682e-10
	2.403336e-10	-7.594673e-11	-0.009976662	0.01070683	3.832301e-09	1.854084e-08	0.001627643	-0.001368145
	0.001441201	-0.00143845	3.832301e-09	1.854084e-08	-0.01022634	0.01067987	1.729183e-09	1.017413e-09
	4.407998e-10	-4.881682e-10	0.001627643	-0.001368145	1.729183e-09	1.017413e-09	-0.009943927	0.01080382
2.5e+08	-0.006323275	0.007148279	3.548452e-10	-1.607035e-10	0.001041298	0.0004032131	3.178658e-10	-5.958333e-10
	3.548452e-10	-1.607035e-10	-0.006147514	0.007256887	3.595348e-09	1.904256e-08	0.001161012	0.0004434848
	0.001041298	0.0004032131	3.595348e-09	1.904256e-08	-0.006285905	0.007257158	1.350875e-09	7.929113e-10
	3.178658e-10	-5.958333e-10	0.001161012	0.0004434848	1.350875e-09	7.929113e-10	-0.006107467	0.007323833
2.6e+08	-0.003399494	0.002864892	4.527606e-10	-2.857558e-10	0.001089135	0.002286645	1.675573e-10	-6.745252e-10
	4.527606e-10	-2.857558e-10	-0.003346755	0.002941133	3.287226e-09	1.961779e-08	0.001130757	0.00231366
	0.001089135	0.002286645	3.287226e-09	1.961779e-08	-0.003361117	0.002941633	8.872503e-10	6.528522e-10
	1.675573e-10	-6.745252e-10	0.001130757	0.00231366	8.872503e-10	6.528522e-10	-0.003307494	0.00297679
2.7e+08	-0.001661201	-0.002033927	5.221715e-10	-4.370677e-10	0.001581138	0.004102151	-3.405315e-12	-7.176119e-10
	5.221715e-10	-4.370677e-10	-0.001746457	-0.001958753	2.926734e-09	2.028702e-08	0.001537534	0.004135585
	0.001581138	0.004102151	2.926734e-09	2.028702e-08	-0.001630724	-0.001988371	3.578283e-10	6.289096e-10
	-3.405314e-12	-7.176119e-10	0.001537534	0.004135585	3.578283e-10	6.289096e-10	-0.001716179	-0.00195354
2.8e+08	-0.001214864	-0.007239187	5.579963e-10	-6.048259e-10	0.002487164	0.00574416	-1.867235e-10	-7.197454e-10
	5.579963e-10	-6.048259e-10	-0.001445085	-0.007129994	2.538408e-09	2.106404e-08	0.002356157	0.005805495
	0.002487164	0.00574416	2.538408e-09	2.106404e-08	-0.001200722	-0.00722172	-2.066502e-10	7.403798e-10
	-1.867235e-10	-7.197454e-10	0.002356157	0.005805495	-2.066502e-10	7.403798e-10	-0.001431593	-0.007152335
2.9e+08	-0.002089444	-0.01242741	5.577867e-10	-7.806625e-10	0.003752266	0.007117638	-3.726221e-10	-6.773661e-10
	5.577867e-10	-7.806625e-10	-0.00246266	-0.0122474	2.150026e-09	2.195566e-08	0.003537076	0.007228898
	0.003752266	0.007117638	2.150026e-09	2.195566e-08	-0.002099081	-0.01243296	-7.705668e-10	9.959493e-10
	-3.726221e-10	-6.773661e-10	0.003537076	0.007228898	-7.705668e-10	9.959493e-10	-0.002472864	-0.01229251
3e+08	-0.004235636	-0.01727959	5.209291e-10	-9.565124e-10	0.005300033	0.008143898	-5.501782e-10	-5.892069e-10
	5.209291e-10	-9.565124e-10	-0.004740559	-0.01699255	1.790769e-09	2.296148e-08	0.005009387	0.008326281
	0.005300033	0.008143898	1.790769e-09	2.296148e-08	-0.00427505	-0.01730139	-1.29659e-09	1.394362e-09
	-5.501782e-10	-5.892069e-10	0.005009387	0.008326281	-1.29659e-09	1.394362e-09	-0.004780023	-0.01705403
3.1e+08	-0.007529702	-0.02149971	4.481272e-10	-1.124824e-09	0.007037296	0.008765381	-7.078469e-10	-4.567286e-10
	4.481272e-10	-1.124824e-09	-0.008145934	-0.02107238	1.489335e-09	2.40737e-08	0.006685196	0.009037871
	0.007037296	0.008765381	1.489335e-09	2.40737e-08	-0.007603065	-0.0215297	-1.748648e-09	1.924337e-09
	-7.078469e-10	-4.567286e-10	0.006685196	0.009037871	-1.748648e-09	1.924337e-09	-0.008218504	-0.02114257
3.2e+08	-0.01178158	-0.02483159	3.410178e-10	-1.278445e-09	0.00885989	0.008949093	-8.341795e-10	-2.844333e-10
	3.410178e-10	-1.278445e-09	-0.01248044	-0.02423596	1.272065e-09	2.52774e-08	0.008465023	0.009327146
	0.00885989	0.008949093	1.272065e-09	2.52774e-08	-0.01189097	-0.02486091	-2.094709e-09	2.565437e-09
	-8.341795e-10	-2.844333e-10	0.008465023	0.009327146	-2.094709e-09	2.565437e-09	-0.01258797	-0.02430644
3.3e+08	-0.01674673	-0.02707329	2.020604e-10	-1.410337e-09	0.01065908	0.008688466	-9.18697e-10	-7.996112e-11
	2.020604e-10	-1.410337e-09	-0.01749264	-0.02628866	1.161227e-09	2.655135e-08	0.0102439	0.009182854
	0.01065908	0.008688466	1.161227e-09	2.655135e-08	-0.01689198	-0.0270928	-2.309041e-09	3.289708e-09
	-9.18697e-10	-7.996112e-11	0.0102439	0.009182854	-2.309041e-09	3.289708e-09	-0.01763486	-0.02635074
3.4e+08	-0.02214097	-0.02808805	3.47544e-11	-1.513315e-09	0.01232818	0.008003537	-9.528406e-10	1.461029e-10
	3.47544e-11	-1.513315e-09	-0.02289336	-0.02710269	1.17355e-09	2.786908e-08	0.01191773	0.008619434
	0.01232818	0.008003537	1.17355e-09	2.786908e-08	-0.02231968	-0.02808886	-2.373779e-09	4.063827e-09
	-9.528406e-10	1.461029e-10	0.01191773	0.008619434	-2.373779e-09	4.063827e-09	-0.02306786	-0.02714796
3.5e+08	-0.02765734	-0.0278113	-1.558656e-10	-1.58001e-09	0.01376899	0.006939472	-9.308814e-10	3.807497e-10
	-1.558656e-10	-1.58001e-09	-0.02837295	-0.02662365	1.319099e-09	2.920042e-08	0.01338946	0.007675851
	0.01376899	0.006939472	1.319099e-09	2.920042e-08	-0.02786497	-0.02778539	-2.279698e-09	4.851425e-09
	-9.308814e-10	3.807497e-10	0.01338946	0.007675851	-2.279698e-09	4.851425e-09	-0.0285753	-0.02664449
3.6e+08	-0.03298391	-0.02625354	-3.626305e-10	-1.603212e-09	0.01489755	0.005563574	-8.506634e-10	6.093813e-10
	-3.626305e-10	-1.603212e-09	-0.03361936	-0.02487276	1.600521e-09	3.051311e-08	0.01457475	0.006412966
	0.01489755	0.005563574	1.600521e-09	3.051311e-08	-0.03321407	-0.02619417	-2.026292e-09	5.615328e-09
	-8.506634e-10	6.093813e-10	0.01457475	0.006412966	-2.026292e-09	5.615328e-09	-0.03384337	-0.02486283
3.7e+08	-0.03782167	-0.02349873	-5.757544e-10	-1.576644e-09	0.01564896	0.003961023	-7.140607e-10	8.168884e-10
	-5.757544e-10	-1.576644e-09	-0.03833616	-0.02194466	2.012691e-09	3.177457e-08	0.01540668	0.004909666
	0.01564896	0.003961023	2.012691e-09	3.177457e-08	-0.03806649	-0.02340091	-1.621312e-09	6.319478e-09
	-7.140607e-10	8.168884e-10	0.01540668	0.004909666	-1.621312e-09	6.319478e-09	-0.03857423	-0.0218993
3.8e+08	-0.04190132	-0.01969875	-7.827092e-10	-1.496074e-09	0.01598091	0.002229648	-5.270677e-10	9.888594e-10
	-7.827092e-10	-1.496074e-09	-0.04225921	-0.01800115	2.542751e-09	3.295376e-08	0.01583942	0.003258039
	0.01598091	0.002229648	2.542751e-09	3.295376e-08	-0.04215188	-0.01955955	-1.080001e-09	6.93047e-09
	-5.270677e-10	9.888594e-10	0.01583942	0.003258039	-1.080001e-09	6.93047e-09	-0.0425028	-0.01791765
3.9e+08	-0.0449981	-0.01506408	-9.686366e-10	-1.360603e-09	0.01587585	0.0004740925	-2.994903e-10	1.112778e-09
	-9.686366e-10	-1.360603e-09	-0.04517137	-0.01326122	3.170532e-09	3.402288e-08	0.0158505	0.001557911
	0.01587585	0.0004740925	3.170532e-09	3.402288e-08	-0.04524499	-0.01488283	-4.242222e-10	7.418729e-09
	-2.994903e-10	1.112778e-09	0.0158505	0.001557911	-4.242222e-10	7.418729e-09	-0.04541149	-0.01313907
4e+08	-0.04694399	-0.009851429	-1.117373e-09	-1.17384e-09	0.01534175	-0.001200286	-4.426731e-11	1.179064e-09
	-1.117373e-09	-1.17384e-09	-0.04691426	-0.007988153	3.869354e-09	3.49591e-08	0.0154418	-8.891255e-05
	0.01534175	-0.001200286	3.869354e-09	3.49591e-08	-0.04717788	-0.009629751	3.183798e-10	7.759434e-09
	-4.426731e-11	1.179064e-09	0.0154418	-8.891255e-05	3.183798e-10	7.759434e-09	-0.047142	-0.007829009
4.1e+08	-0.04763665	-0.004348934	-1.213031e-09	-9.446704e-10	0.01441129	-0.002693419	2.235005e-10	1.18185e-09
	-1.213031e-09	-9.446704e-10	-0.04739666	-0.002474198	4.607183e-09	3.5746e-08	0.01463916	-0.001584391
	0.01441129	-0.002693419	4.607183e-09	3.5746e-08	-0.04784881	-0.004090702	1.115138e-09	7.933364e-09
	2.235005e-10	1.18185e-09	0.01463916	-0.001584391	1.115138e-09	7.933364e-09	-0.04760375	-0.002281866
4.2e+08	-0.04704456	0.001140088	-1.241949e-09	-6.873897e-10	0.01313988	-0.003916146	4.876922e-10	1.119396e-09
	-1.241949e-09	-6.873897e-10	-0.04659909	0.002975995	5.348122e-09	3.637489e-08	0.01349065	-0.002839676
	0.01313988	-0.003916146	5.348122e-09	3.637489e-08	-0.04722741	0.001428972	1.929122e-09	7.927802e-09
	4.876922e-10	1.119396e-09	0.01349065	-0.002839676	1.929122e-09	7.927802e-09	-0.04677839	0.003195796
4.3e+08	-0.04520835	0.006314136	-1.194708e-09	-4.210294e-10	0.01160231	-0.004795149	7.323467e-10	9.941318e-10
	-1.194708e-09	-4.210294e-10	-0.04457442	0.008062566	6.054225e-09	3.684571e-08	0.01206377	-0.003779972
	0.01160231	-0.004795149	6.054225e-09	3.684571e-08	-0.04535594	0.006626063	2.720034e-09	7.737564e-09
	7.323467e-10	9.941318e-10	0.01206377	-0.003779972	2.720034e-09	7.737564e-09	-0.04472036	0.008302513
4.4e+08	-0.0422382	0.01089024	-1.067871e-09	-1.678848e-10	0.009888552	-0.005277003	9.427497e-10	8.12358e-10
	-1.067871e-09	-1.678848e-10	-0.04144454	0.01250717	6.687562e-09	3.716759e-08	0.01044163	-0.004348604
	0.009888552	-0.005277003	6.687562e-09	3.716759e-08	-0.04234655	0.01121633	3.445442e-09	7.366128e-09
	9.427497e-10	8.12358e-10	0.01044163	-0.004348604	3.445442e-09	7.366128e-09	-0.04155343	0.01275876
4.5e+08	-0.03830742	0.01461963	-8.651202e-10	4.861832e-11	0.008098602	-0.005331138	1.106325e-09	5.836612e-10
	-8.651202e-10	4.861832e-11	-0.03739319	0.01606845	7.212469e-09	3.735889e-08	0.008718224	-0.004510117
	0.008098602	-0.005331138	7.212469e-09	3.735889e-08	-0.0383748	0.01495024	4.062499e-09	6.826708e-09
	1.106325e-09	5.836612e-10	0.008718224	-0.004510117	4.062499e-09	6.826708e-09	-0.03746354	0.01632248
4.6e+08	-0.03364267	0.01730146	-5.975355e-10	2.064332e-10	0.006336929	-0.004951576	1.213265e-09	3.201627e-10
	-5.975355e-10	2.064332e-10	-0.03265554	0.01855545	7.597842e-09	3.744669e-08	0.006993299	-0.00425224
	0.006336929	-0.004951576	7.597842e-09	3.744669e-08	-0.03366973	0.01762672	4.530209e-09	6.143028e-09
	1.213265e-09	3.201627e-10	0.006993299	-0.00425224	4.530209e-09	6.143028e-09	-0.03268811	0.01880264
4.7e+08	-0.02851122	0.01879391	-2.829129e-10	2.874087e-10	0.004706562	-0.004157348	1.25691e-09	3.570362e-11
	-2.829129e-10	2.874087e-10	-0.02750487	0.01983817	7.819342e-09	3.746567e-08	0.005366731	-0.003586639
	0.004706562	-0.004157348	7.819342e-09	3.746567e-08	-0.028501	0.01910429	4.812299e-09	5.349484e-09
	1.25691e-09	3.570362e-11	0.005366731	-0.003586639	4.812299e-09	5.349484e-09	-0.02750265	0.02006957
