!$
! Info: Touchstone file created by Circ.  Input file=Tx_16in_Rx_85ohms_TxVia_10mils_RxVia_20mils.circ
!$
# Hz S RI R 50
0	0.01282764	9.881426e-26	-8.575676e-05	1.253412e-25	9.838566e-05	1.362267e-23	-8.5782e-05	2.912299e-24
	-8.575678e-05	1.275003e-25	0.01282828	1.38727e-25	-8.574894e-05	1.951825e-26	9.648e-05	1.825778e-23
	9.708565e-05	1.327346e-23	-8.574894e-05	1.970464e-26	0.01284276	1.034399e-25	-8.575837e-05	3.140933e-25
	-8.578198e-05	2.910545e-24	9.793462e-05	1.879163e-23	-8.575833e-05	3.103246e-25	0.01283382	1.322557e-25
1e+07	0.01530945	-0.01608929	-0.0001821337	-2.728284e-05	0.0006804455	0.002748633	-1.324584e-05	-2.168962e-06
	-0.0001821337	-2.728285e-05	0.01534812	-0.0161002	-4.692913e-05	0.0001338218	0.0006763984	0.002757415
	0.0006804015	0.002748637	-4.692913e-05	0.0001338218	0.01537791	-0.0160733	-0.0001821513	-2.728294e-05
	-1.324584e-05	-2.16896e-06	0.0006764314	0.002757403	-0.0001821513	-2.728294e-05	0.01531283	-0.01608827
2e+07	0.01119055	-0.03555047	-0.0001600924	5.065541e-05	0.002068307	0.005063426	-1.40638e-05	-2.383862e-05
	-0.0001600924	5.065541e-05	0.01117782	-0.03557578	-3.196763e-05	0.0001782239	0.002053831	0.00508549
	0.002068298	0.005063454	-3.196762e-05	0.0001782239	0.01124858	-0.03553606	-0.0001601121	5.058115e-05
	-1.40638e-05	-2.383862e-05	0.002053828	0.005085468	-0.0001601121	5.058116e-05	0.01115727	-0.03553778
3e+07	-0.0005949965	-0.05368836	-0.0001549212	5.611879e-05	0.004091293	0.006755506	-3.453134e-05	-2.311863e-05
	-0.0001549212	5.611879e-05	-0.0006716798	-0.05369185	1.226384e-05	0.0001985918	0.004063029	0.006798283
	0.004091294	0.00675551	1.226384e-05	0.0001985918	-0.0005422815	-0.05366277	-0.0001549675	5.599779e-05
	-3.453133e-05	-2.311863e-05	0.004063024	0.006798281	-0.0001549675	5.599779e-05	-0.0006799064	-0.05364107
4e+07	-0.01796734	-0.06718628	-0.0001488812	6.89221e-05	0.006502578	0.007667774	-5.009243e-05	-1.382422e-05
	-0.0001488812	6.89221e-05	-0.0181104	-0.06713592	6.386601e-05	0.0001846436	0.006461112	0.007740102
	0.006502574	0.007667772	6.386601e-05	0.0001846436	-0.01791649	-0.06714694	-0.0001489776	6.87488e-05
	-5.009243e-05	-1.382422e-05	0.006461112	0.007740103	-0.0001489776	6.87488e-05	-0.0181096	-0.06707765
5e+07	-0.0387162	-0.0744699	-0.0001405291	8.493087e-05	0.009017741	0.007736226	-6.073805e-05	7.019304e-07
	-0.0001405291	8.493087e-05	-0.03891547	-0.07433509	0.0001029423	0.0001387552	0.008968053	0.007846573
	0.00901774	0.007736225	0.0001029423	0.0001387552	-0.03866437	-0.07441605	-0.000140708	8.471471e-05
	-6.073805e-05	7.019305e-07	0.008968052	0.007846573	-0.000140708	8.471471e-05	-0.03890861	-0.07426973
6e+07	-0.06048497	-0.0748915	-0.0001289273	0.000102029	0.01135682	0.006996167	-6.60111e-05	1.868688e-05
	-0.0001289273	0.000102029	-0.06071832	-0.0746474	0.0001136231	7.16288e-05	0.01130787	0.007150687
	0.01135682	0.006996165	0.0001136231	7.16288e-05	-0.06042958	-0.07482324	-0.00012922	0.0001017979
	-6.60111e-05	1.868688e-05	0.01130787	0.007150688	-0.00012922	0.0001017979	-0.06070611	-0.07457435
7e+07	-0.08097269	-0.06862097	-0.0001137322	0.0001185245	0.01327784	0.005569021	-6.53231e-05	3.862449e-05
	-0.0001137322	0.0001185245	-0.08120881	-0.06825282	8.685669e-05	-2.947194e-07	0.01324139	0.005769977
	0.01327785	0.005569012	8.685669e-05	-2.947197e-07	-0.08091125	-0.06853905	-0.0001141586	0.0001183238
	-6.53231e-05	3.862449e-05	0.01324139	0.005769981	-0.0001141586	0.0001183238	-0.08119112	-0.06817176
8e+07	-0.09814556	-0.05653639	-9.516363e-05	0.000132989	0.01459963	0.003639677	-5.810407e-05	5.892997e-05
	-9.516363e-05	0.000132989	-0.09834829	-0.05604248	2.171494e-05	-5.847854e-05	0.01458856	0.003884441
	0.01459964	0.003639664	2.171494e-05	-5.847854e-05	-0.09807571	-0.05644225	-9.572317e-05	0.0001328755
	-5.810407e-05	5.892997e-05	0.01458856	0.003884446	-9.572316e-05	0.0001328755	-0.09832452	-0.055953
9e+07	-0.110412	-0.04007532	-7.38843e-05	0.0001443272	0.01521359	0.001430646	-4.377671e-05	7.782795e-05
	-7.38843e-05	0.0001443272	-0.1105454	-0.03946814	-7.557953e-05	-8.599528e-05	0.0152399	0.001711367
	0.01521359	0.001430636	-7.557953e-05	-8.599528e-05	-0.1103316	-0.03997119	-7.455125e-05	0.0001443582
	-4.377671e-05	7.782795e-05	0.0152399	0.001711371	-7.455125e-05	0.0001443582	-0.110514	-0.03937002
1e+08	-0.1167475	-0.02105607	-5.084469e-05	0.0001518688	0.01508888	-0.0008221199	-2.003393e-05	9.315731e-05
	-5.084469e-05	0.0001518688	-0.1167811	-0.02036152	-0.0002005278	-7.022197e-05	0.01516168	-0.0005181094
	0.01508887	-0.0008221198	-0.0002005278	-7.022197e-05	-0.1166546	-0.02094496	-5.156992e-05	0.0001520917
	-2.003393e-05	9.315731e-05	0.01516168	-0.0005181095	-5.156992e-05	0.0001520917	-0.1167398	-0.02025567
1.1e+08	-0.1167409	-0.001471174	-2.726685e-05	0.0001553316	0.01425337	-0.002909381	6.133393e-06	9.253272e-05
	-2.726685e-05	0.0001553316	-0.1166548	-0.0007262669	-0.000321881	-3.957878e-05	0.01437659	-0.002598662
	0.01425337	-0.00290938	-0.000321881	-3.957878e-05	-0.1166357	-0.001359426	-2.798082e-05	0.0001557703
	6.133393e-06	9.253272e-05	0.01437659	-0.002598662	-2.798082e-05	0.0001557703	-0.1166016	-0.0006148995
1.2e+08	-0.1106098	0.01667409	-3.893016e-06	0.0001547015	0.01279227	-0.004607316	2.729776e-05	8.699155e-05
	-3.893016e-06	0.0001547015	-0.1103989	0.01742484	-0.000411167	3.56374e-05	0.01296441	-0.004307658
	0.01279227	-0.004607316	-0.000411167	3.56374e-05	-0.1104945	0.01678348	-4.519602e-06	0.0001553451
	2.729776e-05	8.699155e-05	0.01296441	-0.004307658	-4.519602e-06	0.0001553451	-0.1103318	0.01753758
1.3e+08	-0.09918592	0.03156646	1.836729e-05	0.0001503603	0.01086295	-0.005747082	4.371739e-05	7.843772e-05
	1.836729e-05	0.0001503603	-0.098861	0.03227733	-0.0004641513	0.0001424755	0.01107584	-0.005475901
	0.01086295	-0.005747082	-0.0004641513	0.0001424755	-0.09906306	0.03167048	1.789347e-05	0.0001511687
	4.371739e-05	7.843772e-05	0.01107584	-0.005475901	1.789347e-05	0.0001511687	-0.0987803	0.03238638
1.4e+08	-0.08380429	0.04174926	3.88869e-05	0.000142875	0.008661057	-0.006212311	5.225007e-05	7.110202e-05
	3.88869e-05	0.000142875	-0.08339275	0.04237907	-0.0004744222	0.000264787	0.008900119	-0.005984148
	0.008661057	-0.006212311	-0.0004744222	0.000264787	-0.08367743	0.04184516	3.860586e-05	0.0001437845
	5.225007e-05	7.110202e-05	0.008900119	-0.005984148	3.860586e-05	0.0001437845	-0.0833008	0.04247928
1.5e+08	-0.06617794	0.04625554	5.720136e-05	0.0001329376	0.006409959	-0.005948828	6.002141e-05	6.259245e-05
	5.720136e-05	0.0001329376	-0.0657217	0.04677346	-0.0004416582	0.0003852651	0.006655329	-0.005773014
	0.006409959	-0.005948828	-0.0004416582	0.0003852651	-0.06605186	0.04634147	5.712187e-05	0.000133878
	6.002141e-05	6.259245e-05	0.006655329	-0.005773014	5.712187e-05	0.000133878	-0.06562299	0.04686044
1.6e+08	-0.04823349	0.04470234	7.321796e-05	0.0001212494	0.004343208	-0.004973042	6.668825e-05	5.305435e-05
	7.321796e-05	0.0001212494	-0.04778513	0.0450929	-0.0003722102	0.0004884536	0.004571718	-0.00485184
	0.004343208	-0.004973042	-0.0003722102	0.0004884536	-0.04811394	0.04477801	7.331719e-05	0.000122158
	6.668825e-05	5.305435e-05	0.004571718	-0.00485184	7.331719e-05	0.000122158	-0.04768594	0.04516384
1.7e+08	-0.03192104	0.03733397	8.709678e-05	0.0001083709	0.002682505	-0.003375689	7.201055e-05	4.269964e-05
	8.709678e-05	0.0001083709	-0.03153816	0.03760062	-0.0002777558	0.0005635488	0.002870259	-0.003303194
	0.002682505	-0.003375689	-0.0002777558	0.0005635488	-0.03181412	0.03740111	8.732816e-05	0.0001092078
	7.201055e-05	4.269964e-05	0.002870259	-0.003303194	8.732816e-05	0.0001092078	-0.03144593	0.037655
1.8e+08	-0.0190136	0.02500438	9.914132e-05	9.462255e-05	0.001612703	-0.001317906	7.583455e-05	3.177808e-05
	9.914132e-05	9.462255e-05	-0.01875198	0.02517098	-0.0001726627	0.0006062557	0.001738004	-0.001279896
	0.001612703	-0.001317906	-0.0001726627	0.0006062557	-0.01892498	0.02506694	9.944939e-05	9.538014e-05
	7.583455e-05	3.177808e-05	0.001738005	-0.001279896	9.944939e-05	9.538014e-05	-0.01867442	0.02521101
1.9e+08	-0.01091674	0.009093767	0.0001096451	8.005372e-05	0.001257387	0.0009825624	7.808293e-05	2.055443e-05
	0.0001096451	8.005372e-05	-0.01082304	0.009203615	-7.070198e-05	0.0006191949	0.001303646	0.001007724
	0.001257387	0.0009825625	-7.070198e-05	0.0006191949	-0.01085078	0.009157772	0.000109984	8.075711e-05
	7.808293e-05	2.055443e-05	0.001303646	0.001007724	0.000109984	8.075711e-05	-0.01076714	0.009234313
2e+08	-0.008512355	-0.008637031	0.0001187391	6.45017e-05	0.001659891	0.00327513	7.874502e-05	9.288719e-06
	0.0001187391	6.45017e-05	-0.008617416	-0.008524838	1.808494e-05	0.0006106766	0.001618141	0.003314575
	0.001659891	0.00327513	1.808494e-05	0.0006106766	-0.008471395	-0.008563977	0.0001190895	6.519974e-05
	7.874502e-05	9.288719e-06	0.001618141	0.003314575	0.0001190895	6.519974e-05	-0.008588362	-0.008495965
2.1e+08	-0.01205951	-0.02624046	0.0001262951	4.773061e-05	0.002774551	0.005307389	7.786437e-05	-1.779263e-06
	0.0001262951	4.773061e-05	-0.01237303	-0.02605701	8.955721e-05	0.000592096	0.002645223	0.005390978
	0.002774551	0.005307389	8.955721e-05	0.000592096	-0.01204328	-0.02614992	0.000126675	4.847849e-05
	7.786437e-05	-1.779263e-06	0.002645223	0.005390978	0.000126675	4.847849e-05	-0.01237333	-0.02602064
2.2e+08	-0.02116825	-0.0418007	0.0001319253	2.960356e-05	0.004471202	0.00685814	7.552331e-05	-1.244011e-05
	0.0001319253	2.960356e-05	-0.02167584	-0.04147498	0.0001460859	0.0005745968	0.004264871	0.007015156
	0.004471202	0.006858141	0.0001460859	0.0005745968	-0.0211736	-0.04168431	0.0001323903	3.044149e-05
	7.552331e-05	-1.244011e-05	0.004264871	0.007015156	0.0001323903	3.044149e-05	-0.02170472	-0.04142099
2.3e+08	-0.03485151	-0.05364733	0.0001350801	1.022536e-05	0.006552764	0.007766104	7.182687e-05	-2.251747e-05
	0.0001350801	1.022536e-05	-0.03551469	-0.05311474	0.0001954434	0.0005658947	0.006289724	0.008021776
	0.006552764	0.007766104	0.0001954434	0.0005658947	-0.03487254	-0.0534978	0.0001357125	1.115896e-05
	7.182687e-05	-2.251747e-05	0.006289724	0.008021776	0.0001357125	1.115896e-05	-0.03556787	-0.05303339
2.4e+08	-0.05164704	-0.06053515	0.0001352078	-9.996119e-06	0.008782524	0.007948832	6.689e-05	-3.186335e-05
	0.0001352078	-9.996119e-06	-0.05240613	-0.05974568	0.0002483045	0.0005680936	0.008491169	0.00832112
	0.008782524	0.007948832	0.0002483045	0.0005680936	-0.05167543	-0.0603472	0.0001360968	-9.008088e-06
	6.689e-05	-3.186335e-05	0.008491169	0.00832112	0.0001360968	-9.008088e-06	-0.05247605	-0.05962887
2.5e+08	-0.06979008	-0.06176783	0.0001319163	-3.038591e-05	0.0109155	0.007408958	6.083023e-05	-4.035007e-05
	0.0001319163	-3.038591e-05	-0.07056998	-0.06069288	0.0003150443	0.0005770372	0.01062966	0.007905995
	0.0109155	0.007408958	0.0003150443	0.0005770372	-0.06981584	-0.06153893	0.0001331336	-2.94327e-05
	6.083023e-05	-4.035007e-05	0.01062966	0.007905995	0.0001331336	-2.94327e-05	-0.07064644	-0.06053519
2.6e+08	-0.08741153	-0.0572535	0.0001250841	-5.011364e-05	0.01272795	0.006228132	5.376747e-05	-4.786149e-05
	0.0001250841	-5.011364e-05	-0.08812945	-0.05589036	0.0004027049	0.0005832748	0.01248343	0.006846654
	0.01272795	0.006228132	0.0004027049	0.0005832748	-0.08742394	-0.05698438	0.0001266611	-4.932168e-05
	5.376747e-05	-4.786149e-05	0.01248343	0.006846654	0.0001266611	-4.932168e-05	-0.08820065	-0.05568993
2.7e+08	-0.1027354	-0.04749185	0.0001148942	-6.833504e-05	0.01404048	0.004551636	4.582822e-05	-5.428803e-05
	0.0001148942	-6.833504e-05	-0.1033098	-0.04586544	0.0005128421	0.0005743131	0.01387124	0.005276624
	0.01404048	0.004551636	0.0005128421	0.0005743131	-0.102724	-0.04718672	0.0001168065	-6.784708e-05
	4.582822e-05	-5.428803e-05	0.01387124	0.005276624	0.0001168065	-6.784708e-05	-0.1033635	-0.0456244
2.8e+08	-0.1142538	-0.03350175	0.0001017983	-8.431905e-05	0.01473274	0.002567937	3.715179e-05	-5.952673e-05
	0.0001017983	-8.431905e-05	-0.1146136	-0.03166323	0.0006407059	0.0005375213	0.01466702	0.003373554
	0.01473274	0.002567937	0.0006407059	0.0005375213	-0.1142097	-0.03316813	0.0001039607	-8.426774e-05
	3.715179e-05	-5.952673e-05	0.01466702	0.003373554	0.0001039607	-8.426774e-05	-0.1146387	-0.03138769
2.9e+08	-0.1208649	-0.01670336	8.643603e-05	-9.753255e-05	0.0147498	0.0004871642	2.789426e-05	-6.348527e-05
	8.643603e-05	-9.753255e-05	-0.1209577	-0.01472591	0.0007758133	0.0004630289	0.0148067	0.001338931
	0.0147498	0.0004871642	0.0007758133	0.0004630289	-0.1207818	-0.01635158	8.871079e-05	-9.801415e-05
	2.789426e-05	-6.348527e-05	0.0148067	0.001338931	8.871079e-05	-9.801415e-05	-0.1209452	-0.01442556
3e+08	-0.1219658	0.001229245	6.954045e-05	-0.0001076783	0.01410208	-0.001478826	1.822951e-05	-6.608799e-05
	6.954045e-05	-0.0001076783	-0.1217644	0.003257227	0.0009037118	0.0003460296	0.01428898	-0.000620808
	0.01410208	-0.001478826	0.0009037118	0.0003460296	-0.1218406	0.001586942	7.175601e-05	-0.000108732
	1.822951e-05	-6.608799e-05	0.01428898	-0.000620808	7.175601e-05	-0.000108732	-0.1217086	0.003569968
3.1e+08	-0.1174969	0.01853058	5.182913e-05	-0.0001146308	0.01286079	-0.003133739	8.348215e-06	-6.728226e-05
	5.182913e-05	-0.0001146308	-0.1170037	0.02051408	0.001006403	0.000180342	0.01317189	-0.002310809
	0.01286079	-0.003133739	0.001006403	0.000180342	-0.1173306	0.01888112	5.380418e-05	-0.0001162278
	8.348215e-06	-6.728226e-05	0.01317189	-0.002310809	5.380418e-05	-0.0001162278	-0.1169033	0.02082523
3.2e+08	-0.1079404	0.03350858	3.398897e-05	-0.0001184506	0.01115058	-0.004311627	-1.547339e-06	-6.704373e-05
	3.398897e-05	-0.0001184506	-0.1071887	0.03535576	0.001062497	-3.202589e-05	0.01156674	-0.003562225
	0.01115058	-0.004311627	0.001062497	-3.202589e-05	-0.1077382	0.03383943	3.556117e-05	-0.0001204945
	-1.547339e-06	-6.704373e-05	0.01156674	-0.003562225	3.556117e-05	-0.0001204945	-0.1070469	0.03565113
3.3e+08	-0.09427264	0.04470137	1.662283e-05	-0.0001195844	0.009139865	-0.004889809	-1.125134e-05	-6.537625e-05
	1.662283e-05	-0.0001195844	-0.09332481	0.04633343	0.001063904	-0.0002601933	0.00962991	-0.004245196
	0.009139865	-0.004889809	0.001063904	-0.0002601933	-0.09404354	0.0450018	1.768418e-05	-0.0001219269
	-1.125134e-05	-6.537625e-05	0.00962991	-0.004245196	1.768418e-05	-0.0001219269	-0.09314933	0.04660021
3.4e+08	-0.07787479	0.05101559	8.705025e-08	-0.0001184707	0.00702839	-0.004800174	-2.055317e-05	-6.231313e-05
	8.705025e-08	-0.0001184707	-0.07681746	0.05237592	0.001006931	-0.0004862531	0.007551726	-0.004280674
	0.00702839	-0.004800174	0.001006931	-0.0004862531	-0.07763132	0.05127796	5.962123e-07	-0.0001209379
	-2.055317e-05	-6.231313e-05	0.007551727	-0.004280674	5.962123e-07	-0.0001209379	-0.07662016	0.05260419
3.5e+08	-0.06040587	0.05183567	-1.548144e-05	-0.0001155671	0.005031351	-0.004038204	-2.924394e-05	-5.792356e-05
	-1.548144e-05	-0.0001155671	-0.0593421	0.05289739	0.0008948981	-0.0006920128	0.005541788	-0.003650394
	0.005031351	-0.004038204	0.0008948981	-0.0006920128	-0.06016277	0.0520565	-1.549541e-05	-0.0001179922
	-2.924394e-05	-5.792356e-05	0.005541788	-0.003650394	-1.549541e-05	-0.0001179922	-0.05913782	0.05308125
3.6e+08	-0.04364468	0.04709322	-3.014903e-05	-0.0001112445	0.003359665	-0.002667977	-3.712212e-05	-5.231176e-05
	-3.014903e-05	-0.0001112445	-0.04268387	0.04786393	0.0007376494	-0.0008619761	0.00381006	-0.002403198
	0.003359665	-0.002667977	0.0007376494	-0.0008619761	-0.04341754	0.04727393	-3.059752e-05	-0.0001134971
	-3.712212e-05	-5.231176e-05	0.00381006	-0.002403198	-3.059752e-05	-0.0001134971	-0.04248903	0.04800249
3.7e+08	-0.02931259	0.03728576	-4.411367e-05	-0.0001056924	0.002197323	-0.0008207839	-4.400071e-05	-4.561837e-05
	-4.411367e-05	-0.0001056924	-0.02855886	0.03780884	0.0005498078	-0.0009858323	0.002544609	-0.0006552175
	0.002197323	-0.0008207839	0.0005498078	-0.0009858323	-0.02911624	0.0374328	-4.487304e-05	-0.0001077017
	-4.400071e-05	-4.561837e-05	0.002544609	-0.0006552175	-4.487304e-05	-0.0001077017	-0.02838984	0.03790666
3.8e+08	-0.0188934	0.02343726	-5.758518e-05	-9.887145e-05	0.001678327	0.001314744	-4.971728e-05	-3.802035e-05
	-5.758518e-05	-9.887145e-05	-0.01843383	0.02378925	0.0003480496	-0.001059933	0.001888393	0.001418326
	0.001678327	0.001314744	0.0003480496	-0.001059933	-0.01874024	0.02356176	-5.852965e-05	-0.000100634
	-4.971728e-05	-3.802035e-05	0.001888393	0.001418326	-5.852965e-05	-0.000100634	-0.01830512	0.02385618
3.9e+08	-0.013471	0.006999113	-7.064679e-05	-9.053658e-05	0.001867183	0.003511688	-5.414472e-05	-2.972586e-05
	-7.064679e-05	-9.053658e-05	-0.01336502	0.007283143	0.000147977	-0.001087357	0.001919039	0.003600594
	0.001867183	0.003511688	0.000147977	-0.001087357	-0.01336952	0.007115994	-7.168187e-05	-9.210804e-05
	-5.414472e-05	-2.972586e-05	0.001919039	0.003600594	-7.168187e-05	-9.210804e-05	-0.01328745	0.007333578
4e+08	-0.01360654	-0.01030127	-8.314464e-05	-8.034029e-05	0.002747311	0.005531528	-5.719992e-05	-2.09642e-05
	-8.314464e-05	-8.034029e-05	-0.01387779	-0.009965551	-3.868214e-05	-0.001076505	0.002636019	0.005658521
	0.002747311	0.005531528	-3.868214e-05	-0.001076505	-0.01356018	-0.01017472	-8.423256e-05	-8.18108e-05
	-5.719992e-05	-2.09642e-05	0.002636019	0.005658521	-8.423256e-05	-8.18108e-05	-0.01385716	-0.009914023
4.1e+08	-0.01927364	-0.02664788	-9.465051e-05	-6.798727e-05	0.00422076	0.007154516	-5.884789e-05	-1.197262e-05
	-9.465051e-05	-6.798727e-05	-0.01990565	-0.0261368	-0.0002058553	-0.001038535	0.003958724	0.007372354
	0.00422076	0.007154516	-0.0002058553	-0.001038535	-0.01928016	-0.0264937	-9.582058e-05	-6.944699e-05
	-5.884789e-05	-1.197262e-05	0.003958724	0.007372354	-9.582058e-05	-6.944699e-05	-0.01994178	-0.02606518
4.2e+08	-0.02986249	-0.04033566	-0.0001045184	-5.338982e-05	0.006120234	0.008208297	-5.909998e-05	-2.982976e-06
	-0.0001045184	-5.338982e-05	-0.03079875	-0.03953508	-0.000353434	-0.0009843068	0.005736622	0.008564027
	0.006120234	0.008208297	-0.000353434	-0.0009843068	-0.02991392	-0.04013714	-0.0001058587	-5.489308e-05
	-5.909998e-05	-2.982976e-06	0.005736622	0.008564027	-0.0001058587	-5.489308e-05	-0.03088522	-0.03942503
4.3e+08	-0.04425262	-0.04995568	-0.0001120194	-3.676859e-05	0.008231512	0.008589345	-5.800746e-05	5.788776e-06
	-0.0001120194	-3.676859e-05	-0.04540127	-0.0487739	-0.000486064	-0.0009216256	0.0077698	0.009119009
	0.008231512	0.008589345	-0.000486064	-0.0009216256	-0.04433582	-0.04969915	-0.0001136517	-3.830616e-05
	-5.800746e-05	5.788776e-06	0.0077698	0.009119009	-0.0001136517	-3.830616e-05	-0.04552583	-0.04860979
4.4e+08	-0.0609433	-0.05454162	-0.0001165096	-1.866422e-05	0.01032188	0.008273512	-5.565308e-05	1.414857e-05
	-0.0001165096	-1.866422e-05	-0.06218596	-0.05292016	-0.0006107963	-0.0008534865	0.009835731	0.008997864
	0.01032188	0.008273512	-0.0006107963	-0.0008534865	-0.06104117	-0.05421801	-0.0001185526	-2.015118e-05
	-5.565308e-05	1.414857e-05	0.009835731	0.008997864	-0.0001185526	-2.015118e-05	-0.06233172	-0.05269087
4.5e+08	-0.07822212	-0.05366091	-0.0001175742	1.388998e-07	0.01216909	0.007314707	-5.214342e-05	2.192657e-05
	-0.0001175742	1.388998e-07	-0.07942587	-0.05158173	-0.0007342619	-0.000777725	0.01171701	0.008236476
	0.01216909	0.007314707	-0.0007342619	-0.000777725	-0.07831518	-0.05326689	-0.0001201052	-1.143743e-06
	-5.214342e-05	2.192657e-05	0.01171701	0.008236476	-0.0001201052	-1.143743e-06	-0.0795729	-0.05128203
4.6e+08	-0.09434839	-0.04744332	-0.0001151085	1.874528e-05	0.01358602	0.005833459	-4.76029e-05	2.897741e-05
	-0.0001151085	1.874528e-05	-0.09537949	-0.04493185	-0.000860115	-0.0006880634	0.01322532	0.006936468
	0.01358602	0.005833459	-0.000860115	-0.0006880634	-0.0944167	-0.04698186	-0.0001181319	1.786465e-05
	-4.76029e-05	2.897741e-05	0.01322532	0.006936468	-0.0001181319	1.786465e-05	-0.0955069	-0.04456312
4.7e+08	-0.1077292	-0.03654963	-0.000109323	3.629216e-05	0.01443798	0.003998896	-4.216919e-05	3.518004e-05
	-0.000109323	3.629216e-05	-0.1084671	-0.03367317	-0.0009873458	-0.0005762061	0.01421875	0.005249172
	0.01443798	0.003998896	-0.0009873458	-0.0005762061	-0.1077544	-0.03602991	-0.0001127538	3.601811e-05
	-4.216919e-05	3.518004e-05	0.01421875	0.005249172	-0.0001127538	3.601811e-05	-0.1085552	-0.03324342
