!$
! Info: Touchstone file created by Circ.  Input file=Tx_16in_Rx_100ohms_TxVia_10mils_RxVia_20mils1.circ
!$
# Hz S RI R 50
0	0.0164772	9.542916e-26	-1.749783e-11	4.033509e-27	9.611743e-05	1.713318e-23	-2.116695e-08	2.592161e-24
	-1.748369e-11	4.032498e-27	0.01647643	1.376225e-25	1.395775e-11	3.515898e-28	9.571141e-05	2.347463e-23
	9.422876e-05	1.689158e-23	1.392315e-11	3.519369e-28	0.01649072	9.929109e-26	1.71005e-08	7.242285e-27
	-2.116767e-08	2.592249e-24	9.716467e-05	2.416102e-23	1.710101e-08	7.241178e-27	0.01648193	1.312075e-25
1e+07	0.02313882	0.009204012	2.749877e-11	-6.749619e-11	0.0006015589	0.002708841	-3.145562e-09	1.951463e-08
	2.749873e-11	-6.749648e-11	0.02469662	0.008700877	7.352525e-13	-8.392719e-11	0.001156418	0.002747061
	0.0006015195	0.002708866	7.352579e-13	-8.392689e-11	0.02399421	0.008709962	-5.066645e-09	1.943616e-08
	-3.145562e-09	1.951463e-08	0.001156452	0.00274705	-5.066645e-09	1.943616e-08	0.0244743	0.008742848
2e+07	0.03186394	0.01165832	4.642071e-11	-1.056904e-10	0.001880294	0.005174836	2.122316e-09	2.308121e-08
	4.642037e-11	-1.056905e-10	0.03250704	0.01040951	4.823604e-12	-1.785241e-10	0.002271685	0.005484151
	0.001880301	0.005174854	4.823846e-12	-1.78524e-10	0.03196374	0.01067437	-3.694194e-09	2.087732e-08
	2.122316e-09	2.308121e-08	0.002271683	0.005484129	-3.694194e-09	2.087732e-08	0.03237484	0.01055654
3e+07	0.03886637	0.009773527	3.48828e-11	-1.952301e-10	0.003824833	0.007045559	7.705081e-09	1.549931e-08
	3.488278e-11	-1.952301e-10	0.0388086	0.008486294	-3.514501e-11	-1.790684e-10	0.004106887	0.00745412
	0.00382483	0.007045559	-3.514496e-11	-1.790685e-10	0.03841459	0.008834948	4.643135e-09	2.143473e-08
	7.705081e-09	1.549931e-08	0.004106882	0.007454118	4.643135e-09	2.143473e-08	0.03875539	0.008660828
4e+07	0.04423896	0.005555846	1.686751e-11	-2.752095e-10	0.006221862	0.008188285	1.017707e-08	1.046984e-08
	1.686754e-11	-2.752096e-10	0.04365146	0.00448267	-3.127581e-11	-2.433543e-10	0.006461598	0.008643629
	0.006221857	0.008188288	-3.12759e-11	-2.433545e-10	0.04339997	0.004851344	1.086596e-08	1.480031e-08
	1.017707e-08	1.046984e-08	0.006461598	0.008643631	1.086596e-08	1.480031e-08	0.04366603	0.004652711
5e+07	0.04778801	-0.0001961193	-2.445054e-12	-3.620204e-10	0.008819268	0.008512956	1.292988e-08	6.706236e-09
	-2.44505e-12	-3.620204e-10	0.04684122	-0.0009183599	-7.549366e-11	-2.623395e-10	0.009199393	0.008818702
	0.008819267	0.008512958	-7.549365e-11	-2.623395e-10	0.04672063	-0.0005739417	1.211172e-08	7.041521e-09
	1.292988e-08	6.706236e-09	0.009199392	0.008818702	1.211172e-08	7.041521e-09	0.04690914	-0.0007719793
6e+07	0.04935876	-0.006822389	-3.239321e-11	-4.584574e-10	0.01135167	0.008008233	1.68223e-08	-3.027944e-10
	-3.239316e-11	-4.584574e-10	0.04822458	-0.007128061	-8.560316e-11	-2.557306e-10	0.01179258	0.008151767
	0.01135167	0.00800823	-8.560319e-11	-2.557306e-10	0.04821264	-0.006843813	1.028005e-08	1.008142e-09
	1.68223e-08	-3.027944e-10	0.01179258	0.008151768	1.028005e-08	1.008142e-09	0.0483305	-0.007017477
7e+07	0.04890599	-0.01370239	-7.339085e-11	-5.521276e-10	0.01357402	0.006725333	1.227634e-08	-1.095042e-08
	-7.339074e-11	-5.521277e-10	0.04774697	-0.01358462	-7.519974e-11	-2.524607e-10	0.01399964	0.006736786
	0.01357402	0.006725328	-7.519979e-11	-2.524607e-10	0.0478142	-0.0133857	7.140291e-09	-2.784919e-09
	1.227634e-08	-1.095042e-08	0.01399963	0.006736788	7.140291e-09	-2.784919e-09	0.04787435	-0.01351638
8e+07	0.04651786	-0.02025321	-1.029674e-10	-6.384632e-10	0.0152541	0.004823678	4.070695e-09	-1.248971e-08
	-1.029674e-10	-6.384633e-10	0.04547707	-0.01975333	-5.931378e-11	-2.555946e-10	0.01561737	0.004734293
	0.0152541	0.004823672	-5.931381e-11	-2.555945e-10	0.04559031	-0.01965327	3.84829e-09	-4.573348e-09
	4.070694e-09	-1.248971e-08	0.01561736	0.004734297	3.84829e-09	-4.573348e-09	0.04560929	-0.01972801
9e+07	0.04241512	-0.02595344	-1.355264e-10	-6.799704e-10	0.01623002	0.002512737	-1.728846e-11	-1.085769e-08
	-1.355264e-10	-6.799704e-10	0.04161048	-0.02515023	-4.735892e-11	-2.736152e-10	0.01649984	0.002357551
	0.01623001	0.002512733	-4.735892e-11	-2.736151e-10	0.04173583	-0.02515098	1.109608e-09	-4.791463e-09
	-1.728848e-11	-1.085769e-08	0.01649984	0.002357555	1.109608e-09	-4.791463e-09	0.04173275	-0.02516283
1e+08	0.03692875	-0.03037137	-2.476622e-10	-6.823017e-10	0.0164201	3.464775e-05	-2.149811e-09	-9.042692e-09
	-2.476622e-10	-6.823017e-10	0.03647419	-0.02937251	-3.805907e-11	-3.1757e-10	0.01656503	-0.0001467895
	0.0164201	3.464781e-05	-3.805907e-11	-3.1757e-10	0.03657813	-0.02946529	-7.487469e-10	-3.943637e-09
	-2.149811e-09	-9.042692e-09	0.01656503	-0.0001467896	-7.487469e-10	-3.943637e-09	0.03657345	-0.02941381
1.1e+08	0.03052592	-0.03316275	-3.043562e-10	-7.101384e-10	0.0157993	-0.002375808	-4.706415e-09	-8.829127e-09
	-3.043562e-10	-7.101384e-10	0.03039736	-0.03221508	6.729335e-12	-3.576102e-10	0.01584616	-0.002485102
	0.0157993	-0.002375808	6.729335e-12	-3.576102e-10	0.03045755	-0.03237267	-1.208007e-09	-4.159929e-09
	-4.706415e-09	-8.829127e-09	0.01584616	-0.002485102	-1.208007e-09	-4.159929e-09	0.03047077	-0.03226678
1.2e+08	0.02371691	-0.03419928	-3.611314e-10	-7.141812e-10	0.01443406	-0.004438565	-7.20806e-09	-7.72062e-09
	-3.611314e-10	-7.141812e-10	0.02380501	-0.03335559	4.83825e-11	-4.248198e-10	0.0144446	-0.004473628
	0.01443406	-0.004438565	4.83825e-11	-4.248198e-10	0.02381362	-0.03355484	-1.665566e-09	-4.222772e-09
	-7.20806e-09	-7.72062e-09	0.0144446	-0.004473628	-1.665566e-09	-4.222772e-09	0.02385682	-0.03341011
1.3e+08	0.01699509	-0.03345818	-4.050626e-10	-6.961327e-10	0.0124843	-0.005943813	-9.323264e-09	-5.744534e-09
	-4.050626e-10	-6.961327e-10	0.01723077	-0.03274819	8.268e-11	-5.077937e-10	0.0124924	-0.005916666
	0.0124843	-0.005943812	8.268e-11	-5.077937e-10	0.01718582	-0.03296488	-2.068281e-09	-4.134619e-09
	-9.323264e-09	-5.744534e-09	0.0124924	-0.005916666	-2.068281e-09	-4.134619e-09	0.01726434	-0.0327992
1.4e+08	0.01084407	-0.03105677	-4.275298e-10	-6.601943e-10	0.01016003	-0.006741812	-1.0749e-08	-3.035283e-09
	-4.275298e-10	-6.601943e-10	0.01116712	-0.03049384	1.039388e-10	-6.043229e-10	0.01018567	-0.006671846
	0.01016002	-0.006741812	1.039388e-10	-6.043229e-10	0.01107477	-0.03070506	-2.362856e-09	-3.914954e-09
	-1.0749e-08	-3.035283e-09	0.01018567	-0.006671846	-2.362856e-09	-3.914954e-09	0.01118684	-0.03053644
1.5e+08	0.005690118	-0.02724114	-4.209682e-10	-6.141472e-10	0.007705039	-0.006756553	-1.123198e-08	1.67415e-10
	-4.209682e-10	-6.141472e-10	0.006046645	-0.02682488	1.074545e-10	-7.100715e-10	0.007756065	-0.006665863
	0.007705039	-0.006756553	1.074545e-10	-7.100715e-10	0.005920545	-0.02701158	-2.50299e-09	-3.602211e-09
	-1.123198e-08	1.67415e-10	0.007756065	-0.006665863	-2.50299e-09	-3.602211e-09	0.006057743	-0.02685583
1.6e+08	0.00186807	-0.02236375	-3.807421e-10	-5.691492e-10	0.005372624	-0.005992373	-1.060533e-08	3.53771e-09
	-3.807421e-10	-5.691492e-10	0.002210961	-0.02208189	9.01553e-11	-8.191032e-10	0.005446154	-0.005901721
	0.005372624	-0.005992373	9.01553e-11	-8.191032e-10	0.002070622	-0.02223118	-2.456463e-09	-3.251223e-09
	-1.060533e-08	3.53771e-09	0.005446154	-0.005901721	-2.456463e-09	-3.251223e-09	0.002219076	-0.02209982
1.7e+08	-0.000404253	-0.01685224	-3.068331e-10	-5.384411e-10	0.003400059	-0.004532441	-8.817653e-09	6.695602e-09
	-3.068331e-10	-5.384411e-10	-0.0001141047	-0.01668267	5.108485e-11	-9.245188e-10	0.003484616	-0.004457914
	0.003400059	-0.004532441	5.108485e-11	-9.245188e-10	-0.0002456121	-0.01678944	-2.211085e-09	-2.92778e-09
	-8.817653e-09	6.695602e-09	0.003484616	-0.004457914	-2.211085e-09	-2.92778e-09	-0.0001034436	-0.01668804
1.8e+08	-0.001041448	-0.0111725	-2.047657e-10	-5.351812e-10	0.001984952	-0.002529265	-5.949829e-09	9.248705e-09
	-2.047657e-10	-5.351812e-10	-0.0008338571	-0.01108543	-8.336169e-12	-1.019211e-09	0.002063258	-0.002479842
	0.001984952	-0.002529265	-8.336169e-12	-1.019211e-09	-0.000932664	-0.01115316	-1.77834e-09	-2.700962e-09
	-5.949829e-09	9.248705e-09	0.002063258	-0.002479842	-1.77834e-09	-2.700962e-09	-0.0008157387	-0.01108039
1.9e+08	-9.458188e-05	-0.005788992	-8.484162e-11	-5.698103e-10	0.001265913	-0.0001882986	-2.216401e-09	1.083895e-08
	-8.484162e-11	-5.698103e-10	1.099884e-05	-0.0057494	-8.415636e-11	-1.09666e-09	0.001318153	-0.0001645129
	0.001265913	-0.0001882985	-8.415636e-11	-1.09666e-09	-3.339018e-05	-0.005790098	-1.193361e-09	-2.634215e-09
	-2.216401e-09	1.083895e-08	0.001318153	-0.0001645129	-1.193361e-09	-2.634215e-09	4.040406e-05	-0.005737522
2e+08	0.002256417	-0.001125808	3.814978e-11	-6.485493e-10	0.001309494	0.002253535	2.049868e-09	1.11883e-08
	3.814978e-11	-6.485493e-10	0.002251531	-0.001096139	-1.704605e-10	-1.151893e-09	0.001316714	0.002259747
	0.001309494	0.002253535	-1.704605e-10	-1.151893e-09	0.002278307	-0.00112926	-5.132053e-10	-2.777492e-09
	2.049868e-09	1.11883e-08	0.001316714	0.002259747	-5.132053e-10	-2.777492e-09	0.002294615	-0.001081986
2.1e+08	0.005721233	0.002468028	1.474312e-10	-7.711897e-10	0.002104611	0.004552087	6.429048e-09	1.013727e-08
	1.474312e-10	-7.711897e-10	0.005608486	0.00252503	-2.59876e-10	-1.181941e-09	0.002051883	0.004556386
	0.002104611	0.004552087	-2.59876e-10	-1.181941e-09	0.005715836	0.002474546	1.892089e-10	-3.159365e-09
	6.429048e-09	1.013727e-08	0.002051883	0.004556386	1.892089e-10	-3.159365e-09	0.005665981	0.002536399
2.2e+08	0.009926714	0.004746142	2.278518e-10	-9.310363e-10	0.003564829	0.006480492	1.045731e-08	7.671037e-09
	2.278518e-10	-9.310363e-10	0.009719181	0.004864601	-3.440589e-10	-1.186344e-09	0.003443823	0.006504133
	0.003564829	0.006480492	-3.440589e-10	-1.186344e-09	0.009907537	0.004769024	8.340948e-10	-3.782686e-09
	1.045731e-08	7.671037e-09	0.003443823	0.006504133	8.340948e-10	-3.782686e-09	0.009790095	0.004868178
2.3e+08	0.01445091	0.005582939	2.679386e-10	-1.116313e-09	0.005538054	0.00785149	1.367722e-08	3.929411e-09
	2.679386e-10	-1.116313e-09	0.01417084	0.005791183	-4.146727e-10	-1.16745e-09	0.005348745	0.007918566
	0.005538054	0.00785149	-4.146727e-10	-1.16745e-09	0.01443099	0.005623151	1.34349e-09	-4.623659e-09
	1.367722e-08	3.929411e-09	0.005348745	0.007918566	1.34349e-09	-4.623659e-09	0.01425257	0.005782556
2.4e+08	0.01886049	0.004980893	2.614028e-10	-1.31223e-09	0.007822513	0.008535431	1.568913e-08	-8.006613e-10
	2.614028e-10	-1.31223e-09	0.01853733	0.005299172	-4.643421e-10	-1.130344e-09	0.007573821	0.008669708
	0.007822513	0.008535431	-4.643421e-10	-1.130344e-09	0.01885084	0.005034959	1.64996e-09	-5.633866e-09
	1.568913e-08	-8.006613e-10	0.007573821	0.008669708	1.64996e-09	-5.633866e-09	0.01862594	0.005275011
2.5e+08	0.02274819	0.003066684	2.075056e-10	-1.503309e-09	0.01018729	0.008472357	1.619745e-08	-6.109249e-09
	2.075056e-10	-1.503309e-09	0.02241605	0.003505454	-4.875597e-10	-1.082461e-09	0.009896597	0.008694062
	0.01018729	0.008472357	-4.875597e-10	-1.082461e-09	0.02275674	0.003128003	1.703942e-09	-6.744928e-09
	1.619745e-08	-6.109249e-09	0.009896597	0.008694062	1.703942e-09	-6.744928e-09	0.02250667	0.003463888
2.6e+08	0.02576709	7.673582e-05	1.1041e-10	-1.675378e-09	0.01239538	0.007677133	1.504698e-08	-1.150147e-08
	1.1041e-10	-1.675378e-09	0.02546175	0.0006356886	-4.814296e-10	-1.032882e-09	0.01208696	0.008000077
	0.01239538	0.007677133	-4.814296e-10	-1.032882e-09	0.02579816	0.0001370252	1.479062e-09	-7.875059e-09
	1.504698e-08	-1.150147e-08	0.01208696	0.008000077	1.479062e-09	-7.875059e-09	0.02554912	0.0005765278
2.7e+08	0.02765887	-0.00366628	-2.206339e-11	-1.816827e-09	0.01422703	0.006237286	1.224547e-08	-1.644533e-08
	-2.206339e-11	-1.816827e-09	0.0274146	-0.002998338	-4.461455e-10	-9.914119e-10	0.01392957	0.006666662
	0.01422703	0.006237286	-4.461455e-10	-9.914119e-10	0.02771319	-0.003615567	9.75199e-10	-8.936666e-09
	1.224547e-08	-1.644533e-08	0.01392957	0.006666662	9.75199e-10	-8.936666e-09	0.0274936	-0.003073545
2.8e+08	0.02827375	-0.007783787	-1.797541e-10	-1.919065e-09	0.01550123	0.004303859	7.970292e-09	-2.042456e-08
	-1.797541e-10	-1.919065e-09	0.02812014	-0.007028123	-3.851345e-10	-9.675148e-10	0.01524469	0.00483498
	0.01550123	0.004303859	-3.851345e-10	-9.675148e-10	0.02834887	-0.007750229	2.192654e-10	-9.844347e-09
	7.970292e-09	-2.042456e-08	0.01524469	0.00483498	2.192654e-10	-9.844347e-09	0.02818638	-0.007116212
2.9e+08	0.02758064	-0.01187576	-3.511244e-10	-1.976421e-09	0.0160932	0.002076199	2.558653e-09	-2.299162e-08
	-3.511244e-10	-1.976421e-09	0.02753976	-0.011062	-3.048372e-10	-9.692539e-10	0.01590543	0.002694351
	0.0160932	0.002076199	-3.048372e-10	-9.692539e-10	0.02767172	-0.01186505	-7.361311e-10	-1.052278e-08
	2.558653e-09	-2.299162e-08	0.01590543	0.002694351	-7.361311e-10	-1.052278e-08	0.02759004	-0.01115851
3e+08	0.02566688	-0.0155563	-5.23705e-10	-1.985904e-09	0.01594655	-0.0002178785	-3.518058e-09	-2.381604e-08
	-5.23705e-10	-1.985904e-09	0.02575099	-0.01471993	-2.141406e-10	-1.00234e-09	0.01584986	0.0004635795
	0.01594655	-0.0002178785	-2.141406e-10	-1.00234e-09	0.02576766	-0.01557166	-1.81607e-09	-1.091413e-08
	-3.518058e-09	-2.381604e-08	0.01584986	0.0004635795	-1.81607e-09	-1.091413e-08	0.0257837	-0.01481952
3.1e+08	0.02272767	-0.01848724	-6.8418e-10	-1.947252e-09	0.01507858	-0.002344664	-9.694005e-09	-2.272388e-08
	-6.8418e-10	-1.947252e-09	0.02293776	-0.01766645	-1.235178e-10	-1.069409e-09	0.01508694	-0.001630529
	0.01507858	-0.002344664	-1.235178e-10	-1.069409e-09	0.02283151	-0.01852931	-2.928703e-09	-1.098457e-08
	-9.694005e-09	-2.272388e-08	0.01508694	-0.001630529	-2.928703e-09	-1.098457e-08	0.02295307	-0.01776349
3.2e+08	0.01904633	-0.0204071	-8.185033e-10	-1.863463e-09	0.01357848	-0.004087722	-1.536005e-08	-1.972432e-08
	-8.185033e-10	-1.863463e-09	0.01937157	-0.01963926	-4.396513e-11	-1.169615e-09	0.01369537	-0.003375441
	0.01357848	-0.004087722	-4.396513e-11	-1.169615e-09	0.01914718	-0.02047407	-3.972604e-09	-1.072943e-08
	-1.536005e-08	-1.972432e-08	0.01369537	-0.003375441	-3.972604e-09	-1.072943e-08	0.01937149	-0.01972838
3.3e+08	0.01496711	-0.02115267	-9.12508e-10	-1.741689e-09	0.01159839	-0.005269412	-1.992247e-08	-1.501998e-08
	-9.12508e-10	-1.741689e-09	0.0153855	-0.02047079	1.415054e-11	-1.298587e-09	0.01181585	-0.004593818
	0.01159839	-0.005269412	1.415054e-11	-1.298587e-09	0.01506029	-0.02124085	-4.845914e-09	-1.017628e-08
	-1.992247e-08	-1.501998e-08	0.01181585	-0.004593818	-4.845914e-09	-1.017628e-08	0.01537365	-0.02054748
3.4e+08	0.01086306	-0.02067167	-9.533065e-10	-1.594064e-09	0.009338178	-0.005768601	-2.286443e-08	-8.998706e-09
	-9.533065e-10	-1.594064e-09	0.01134302	-0.02010107	4.220639e-11	-1.448766e-09	0.009636982	-0.005161018
	0.009338178	-0.005768601	4.220639e-11	-1.448766e-09	0.01094575	-0.02077617	-5.456748e-09	-9.38515e-09
	-2.286443e-08	-8.998706e-09	0.009636982	-0.005161018	-5.456748e-09	-9.38515e-09	0.01132438	-0.02016215
3.5e+08	0.007101723	-0.01902533	-9.314431e-10	-1.437879e-09	0.007025379	-0.005532772	-2.380419e-08	-2.205552e-09
	-9.314431e-10	-1.437879e-09	0.007604788	-0.01858086	3.428025e-11	-1.610085e-09	0.007376559	-0.005017399
	0.007025379	-0.005532772	3.428025e-11	-1.610085e-09	0.00717323	-0.01914087	-5.733929e-09	-8.445146e-09
	-2.380419e-08	-2.205552e-09	0.007376559	-0.005017399	-5.733929e-09	-8.445146e-09	0.007585125	-0.0186249
3.6e+08	0.004011889	-0.01638057	-8.433762e-10	-1.294593e-09	0.004892313	-0.00458323	-2.254286e-08	4.703698e-09
	-8.433762e-10	-1.294593e-09	0.004496089	-0.01606485	-1.21918e-11	-1.770867e-09	0.005259768	-0.00417414
	0.004892313	-0.00458323	-1.21918e-11	-1.770867e-09	0.004073493	-0.01650229	-5.636477e-09	-7.467399e-09
	-2.254286e-08	4.703698e-09	0.005259768	-0.00417414	-5.636477e-09	-7.467399e-09	0.004481426	-0.01609232
3.7e+08	0.001854284	-0.01299284	-6.935687e-10	-1.187479e-09	0.003152691	-0.003012841	-1.909895e-08	1.102509e-08
	-6.935687e-10	-1.187479e-09	0.002278052	-0.0127955	-9.591462e-11	-1.91914e-09	0.003496725	-0.002711946
	0.003152691	-0.003012841	-9.591462e-11	-1.91914e-09	0.00190891	-0.01311701	-5.161362e-09	-6.574291e-09
	-1.909895e-08	1.102509e-08	0.003496725	-0.002711946	-5.161362e-09	-6.574291e-09	0.002274019	-0.01280878
3.8e+08	0.0007989511	-0.009181024	-4.954166e-10	-1.138201e-09	0.001980129	-0.0009764959	-1.3717e-08	1.607889e-08
	-4.954166e-10	-1.138201e-09	0.001125131	-0.009079173	-2.118899e-10	-2.043642e-09	0.002261536	-0.0007727435
	0.001980129	-0.000976496	-2.118899e-10	-2.043642e-09	0.0008505766	-0.009305474	-4.346041e-09	-5.886148e-09
	-1.3717e-08	1.607889e-08	0.002261536	-0.0007727435	-4.346041e-09	-5.886148e-09	0.001136373	-0.009082359
3.9e+08	0.000911318	-0.005296909	-2.704697e-10	-1.16297e-09	0.001490805	0.001324709	-6.853865e-09	1.928313e-08
	-2.704697e-10	-1.16297e-09	0.001110901	-0.005256922	-3.517208e-10	-2.135005e-09	0.001675074	0.001454771
	0.001490805	0.001324709	-3.517208e-10	-2.135005e-09	0.000964288	-0.005421297	-3.26668e-09	-5.50739e-09
	-6.853865e-09	1.928313e-08	0.001675074	0.001454771	-3.26668e-09	-5.50739e-09	0.001140569	-0.005255431
4e+08	0.002148158	-0.001692167	-4.584944e-11	-1.269263e-09	0.001732032	0.003663897	8.598665e-10	2.022042e-08
	-4.584944e-11	-1.269263e-09	0.002203372	-0.001672509	-5.042957e-10	-2.186788e-09	0.001793217	0.003754205
	0.001732032	0.003663897	-5.042957e-10	-2.186788e-09	0.002206481	-0.001817941	-2.031317e-09	-5.5138e-09
	8.598665e-10	2.022042e-08	0.001793217	0.003754205	-2.031317e-09	-5.5138e-09	0.002252765	-0.001672551
4.1e+08	0.004363682	0.001314087	1.496966e-10	-1.453952e-09	0.002677871	0.005811315	8.67972e-09	1.868926e-08
	1.496966e-10	-1.453952e-09	0.004270097	0.001359138	-6.567777e-10	-2.196248e-09	0.002601706	0.005903186
	0.002677871	0.005811315	-6.567777e-10	-2.196248e-09	0.004430392	0.001183981	-7.687356e-10	-5.94293e-09
	8.67972e-09	1.868926e-08	0.002601706	0.005903186	-7.687356e-10	-5.94293e-09	0.004338484	0.001351185
4.2e+08	0.007325	0.003464086	2.902409e-10	-1.703396e-09	0.004232167	0.007557331	1.582192e-08	1.473307e-08
	2.902409e-10	-1.703396e-09	0.007092405	0.003580174	-7.958198e-10	-2.164797e-09	0.004018065	0.007695463
	0.004232167	0.007557331	-7.958198e-10	-2.164797e-09	0.007401679	0.003325684	3.853749e-10	-6.789052e-09
	1.582192e-08	1.473307e-08	0.004018065	0.007695463	3.853749e-10	-6.789052e-09	0.007177054	0.003558417
4.3e+08	0.01073531	0.004583949	3.566023e-10	-1.995491e-09	0.006238574	0.008733201	2.154412e-08	8.643118e-09
	3.566023e-10	-1.995491e-09	0.01038724	0.004812246	-9.089061e-10	-2.09806e-09	0.005900263	0.008961173
	0.006238574	0.008733201	-9.089061e-10	-2.09806e-09	0.01082182	0.004432891	1.303028e-09	-8.003231e-09
	2.154412e-08	8.643118e-09	0.005900263	0.008961173	1.303028e-09	-8.003231e-09	0.01048366	0.00477189
4.4e+08	0.0142625	0.004598012	3.388956e-10	-2.303137e-09	0.00849647	0.009227559	2.522293e-08	9.34859e-10
	3.388956e-10	-2.303137e-09	0.01383442	0.004971111	-9.856891e-10	-2.005504e-09	0.008061168	0.009583287
	0.00849647	0.009227559	-9.856891e-10	-2.005504e-09	0.01435695	0.00443021	1.877389e-09	-9.498282e-09
	2.522293e-08	9.34859e-10	0.008061168	0.009583287	1.877389e-09	-9.498282e-09	0.01393678	0.004908972
4.5e+08	0.01757035	0.003533846	2.372682e-10	-2.598249e-09	0.01078108	0.008997078	2.64198e-08	-7.699255e-09
	2.372682e-10	-2.598249e-09	0.01710663	0.00407235	-1.019174e-09	-1.899619e-09	0.01028724	0.009508701
	0.01078108	0.008997078	-1.019174e-09	-1.899619e-09	0.01766933	0.003346111	2.03353e-09	-1.115763e-08
	2.64198e-08	-7.699255e-09	0.01028724	0.009508701	2.03353e-09	-1.115763e-08	0.01720832	0.003987213
4.6e+08	0.02034948	0.001517713	6.094276e-11	-2.855381e-09	0.01286575	0.008070356	2.492851e-08	-1.645522e-08
	6.094276e-11	-2.855381e-09	0.01989938	0.002227875	-1.0066e-09	-1.794742e-09	0.0123596	0.008752982
	0.01286575	0.008070356	-1.0066e-09	-1.794742e-09	0.02044845	0.001308271	1.735602e-09	-1.284674e-08
	2.492851e-08	-1.645522e-08	0.0123596	0.008752982	1.735602e-09	-1.284674e-08	0.01999369	0.002120655
4.7e+08	0.02234518	-0.001238919	-1.780411e-10	-3.054506e-09	0.01454427	0.006544764	2.079327e-08	-2.448956e-08
	-1.780411e-10	-3.054506e-09	0.02195833	-0.0003661964	-9.501362e-10	-1.705188e-09	0.01407541	0.007398433
