!$
! Info: Touchstone file created by Circ.  Input file=Tx_10in_Rx_93ohms_TxVia_10mils_RxVia_20mils.circ
!$
# Hz S RI R 50
0	0.009214602	6.599754e-26	-5.386267e-05	1.651598e-25	6.659612e-05	9.770324e-24	-5.38882e-05	2.961883e-24
	-5.386268e-05	1.665163e-25	0.009215257	9.171071e-26	-5.38553e-05	5.702723e-26	6.468643e-05	1.309144e-23
	6.529547e-05	9.51988e-24	-5.38553e-05	5.714438e-26	0.009229839	6.910836e-26	-5.386496e-05	3.536426e-25
	-5.388819e-05	2.960658e-24	6.614241e-05	1.347423e-23	-5.386494e-05	3.512758e-25	0.009220838	8.746129e-26
1e+07	0.0131437	-0.0009932737	-0.0002497173	8.02853e-06	0.0003234096	0.001833372	-4.973605e-05	-6.674129e-06
	-0.0002497173	8.028528e-06	0.01341322	-0.001016818	-0.0001309057	6.713109e-05	0.0003195168	0.001827384
	0.0003233655	0.001833376	-0.0001309057	6.713109e-05	0.01343125	-0.001029448	-0.0002494849	1.031352e-05
	-4.973605e-05	-6.674126e-06	0.0003195496	0.001827372	-0.0002494849	1.031352e-05	0.01315211	-0.00102417
2e+07	0.01532095	-0.005278547	-0.00021066	-3.742597e-05	0.0008203957	0.003628784	-2.583504e-05	-5.389675e-05
	-0.00021066	-3.742598e-05	0.01550009	-0.005413464	-0.0001281724	4.709889e-05	0.0008101127	0.00361985
	0.0008203858	0.003628812	-0.0001281724	4.70989e-05	0.01552719	-0.005441373	-0.0002095263	-4.176209e-05
	-2.583504e-05	-5.389675e-05	0.0008101101	0.003619828	-0.0002095263	-4.176209e-05	0.015303	-0.005336113
3e+07	0.01563474	-0.01074027	-0.0001865355	-5.802993e-05	0.001733165	0.005180233	-3.360694e-05	-6.4615e-05
	-0.0001865355	-5.802993e-05	0.01572784	-0.0109064	-0.0001206307	4.956175e-05	0.001696466	0.005178522
	0.001733166	0.005180238	-0.0001206307	4.956175e-05	0.01576926	-0.01095378	-0.0001845392	-6.344746e-05
	-3.360694e-05	-6.4615e-05	0.001696461	0.005178519	-0.0001845392	-6.344746e-05	0.01557861	-0.01081377
4e+07	0.0144444	-0.01635959	-0.0001688871	-6.680517e-05	0.00296412	0.006471745	-6.252915e-05	-5.756395e-05
	-0.0001688871	-6.680517e-05	0.01445187	-0.0165263	-0.0001101682	5.22566e-05	0.002906326	0.006481857
	0.002964116	0.006471743	-0.0001101682	5.22566e-05	0.01451116	-0.01659933	-0.000166317	-7.309833e-05
	-6.252915e-05	-5.756395e-05	0.002906326	0.006481858	-0.000166317	-7.309833e-05	0.01433903	-0.01643908
5e+07	0.01194838	-0.02171083	-0.0001549248	-7.042935e-05	0.004408519	0.007474317	-8.579805e-05	-4.308433e-05
	-0.0001549248	-7.042935e-05	0.01187245	-0.02185405	-9.821576e-05	5.166854e-05	0.004328315	0.007503177
	0.004408518	0.007474316	-9.821576e-05	5.166854e-05	0.01195094	-0.02196019	-0.0001519747	-7.750941e-05
	-8.579805e-05	-4.308433e-05	0.004328315	0.007503178	-0.0001519747	-7.750941e-05	0.0117846	-0.02178192
6e+07	0.008332109	-0.02649683	-0.0001429275	-7.114277e-05	0.006004692	0.008154899	-0.0001035021	-2.32819e-05
	-0.0001429275	-7.114277e-05	0.008178142	-0.02659517	-8.655246e-05	4.638228e-05	0.005902585	0.00820971
	0.006004698	0.008154897	-8.655246e-05	4.638228e-05	0.008274677	-0.02674239	-0.0001397378	-7.895966e-05
	-0.0001035021	-2.32819e-05	0.005902581	0.008209711	-0.0001397378	-7.895966e-05	0.00810554	-0.02654286
7e+07	0.003795603	-0.0304924	-0.0001316258	-6.999937e-05	0.007684684	0.008492362	-0.0001154305	5.24954e-07
	-0.0001316258	-6.999937e-05	0.003572589	-0.03052664	-7.720951e-05	3.595829e-05	0.007563071	0.008580183
	0.007684695	0.008492355	-7.720951e-05	3.595829e-05	0.003683476	-0.03072261	-0.0001282992	-7.851439e-05
	-0.0001154305	5.249535e-07	0.007563066	0.008580186	-0.0001282992	-7.851439e-05	0.003506205	-0.03049645
8e+07	-0.001442332	-0.03352981	-0.0001198784	-6.7594e-05	0.009377411	0.008479303	-0.0001211287	2.737304e-05
	-0.0001198784	-6.7594e-05	-0.001721694	-0.03348313	-7.234773e-05	2.067958e-05	0.009240551	0.008606611
	0.009377421	0.008479292	-7.234773e-05	2.067957e-05	-0.001602488	-0.03373458	-0.0001164785	-7.676583e-05
	-0.0001211287	2.737304e-05	0.009240546	0.008606615	-0.0001164785	-7.676583e-05	-0.00179082	-0.03347526
9e+07	-0.007146406	-0.03549389	-0.0001062565	-6.416723e-05	0.01101177	0.008122597	-0.000119625	5.660024e-05
	-0.0001062565	-6.416723e-05	-0.00746568	-0.03535223	-7.421411e-05	1.356092e-06	0.01086568	0.00829488
	0.01101178	0.008122588	-7.421411e-05	1.356092e-06	-0.007346209	-0.03566432	-0.0001084979	-6.701732e-05
	-0.000119625	5.660024e-05	0.01086567	0.008294884	-0.0001084979	-6.701732e-05	-0.007546363	-0.03536478
1e+08	-0.01305767	-0.03631245	-0.0001021559	-3.391488e-05	0.01251929	0.007442519	-0.0001065475	8.902933e-05
	-0.0001021559	-3.391488e-05	-0.01339437	-0.03606349	-8.663115e-05	-2.204357e-05	0.01237182	0.007664056
	0.01251929	0.007442519	-8.663115e-05	-2.204357e-05	-0.01328428	-0.03643929	-0.0001100939	-2.664508e-05
	-0.0001065475	8.902933e-05	0.01237182	0.007664056	-0.0001100939	-2.664508e-05	-0.01349717	-0.03609428
1.1e+08	-0.01892886	-0.03608695	-8.875214e-05	-1.326431e-05	0.01383602	0.006477482	-8.097984e-05	0.0001048681
	-8.875214e-05	-1.326431e-05	-0.01925827	-0.03573876	-0.0001006379	-5.431095e-05	0.01369585	0.006748378
	0.01383602	0.006477482	-0.0001006379	-5.431095e-05	-0.01916682	-0.03618151	-9.497157e-05	-4.942205e-06
	-8.097984e-05	0.0001048681	0.01369585	0.006748378	-9.497157e-05	-4.942205e-06	-0.01939184	-0.03576895
1.2e+08	-0.02462713	-0.03477482	-7.952926e-05	9.863045e-07	0.01491358	0.005272755	-5.987736e-05	0.0001139949
	-7.952926e-05	9.863044e-07	-0.0249382	-0.03433056	-0.0001195513	-8.137632e-05	0.01478881	0.005592974
	0.01491358	0.005272755	-0.0001195513	-8.137632e-05	-0.02487836	-0.03483797	-8.432022e-05	9.946237e-06
	-5.987736e-05	0.0001139949	0.01478881	0.005592974	-8.432022e-05	9.946237e-06	-0.02509588	-0.03435045
1.3e+08	-0.02991417	-0.0324338	-7.077932e-05	1.221215e-05	0.01570933	0.003882328	-4.014435e-05	0.0001194166
	-7.077932e-05	1.221215e-05	-0.0301922	-0.0318972	-0.0001456217	-0.0001033033	0.01560864	0.004249935
	0.01570933	0.003882329	-0.0001456217	-0.0001033033	-0.03017603	-0.03246366	-7.422973e-05	2.158854e-05
	-4.014435e-05	0.0001194166	0.01560864	0.004249935	-7.422973e-05	2.158854e-05	-0.03036917	-0.03190064
1.4e+08	-0.03459098	-0.02917594	-6.201238e-05	2.108296e-05	0.01619318	0.002367903	-2.380112e-05	0.0001213864
	-6.201238e-05	2.108296e-05	-0.03482109	-0.02855371	-0.0001783755	-0.0001185574	0.01612502	0.002778804
	0.01619318	0.002367903	-0.0001783755	-0.0001185574	-0.03485918	-0.02917075	-6.417427e-05	3.070318e-05
	-2.380112e-05	0.0001213864	0.01612502	0.002778804	-6.417427e-05	3.070318e-05	-0.03501214	-0.02853618
1.5e+08	-0.03849129	-0.02514987	-5.315562e-05	2.791572e-05	0.0163483	0.0007955681	-1.662191e-05	0.0001204641
	-5.315562e-05	2.791572e-05	-0.03865953	-0.02445198	-0.0002165205	-0.0001255874	0.01632029	0.001243584
	0.0163483	0.0007955681	-0.0002165205	-0.0001255874	-0.03876055	-0.02510867	-5.406733e-05	3.762843e-05
	-1.662191e-05	0.0001204641	0.01632029	0.001243584	-5.406733e-05	3.762843e-05	-0.038859	-0.02441041
1.6e+08	-0.04148529	-0.02053232	-4.440417e-05	3.28136e-05	0.01617151	-0.0007669977	-9.035006e-06	0.0001193996
	-4.440417e-05	3.28136e-05	-0.04157959	-0.01977192	-0.000258223	-0.0001231477	0.01618999	-0.0002899445
	0.01617151	-0.0007669976	-0.000258223	-0.0001231477	-0.04174985	-0.02045527	-4.410258e-05	4.247972e-05
	-9.035006e-06	0.0001193996	0.01618999	-0.0002899445	-4.410258e-05	4.247972e-05	-0.04178154	-0.01970469
1.7e+08	-0.043483	-0.01551988	-3.596868e-05	3.595655e-05	0.01567324	-0.002253278	-1.178747e-06	0.0001180272
	-3.596868e-05	3.595655e-05	-0.04349398	-0.01471292	-0.0003012914	-0.0001104658	0.01574276	-0.001756858
	0.01567324	-0.002253277	-0.0003012914	-0.0001104658	-0.04373697	-0.01540835	-3.449232e-05	4.544312e-05
	-1.178747e-06	0.0001180272	0.01574276	-0.001756858	-3.449232e-05	4.544312e-05	-0.04369242	-0.01461981
1.8e+08	-0.04443634	-0.01032064	-2.806974e-05	3.755226e-05	0.01487683	-0.003600539	6.832504e-06	0.0001162345
	-2.806974e-05	3.755226e-05	-0.04435802	-0.00948528	-0.0003433529	-8.733311e-05	0.01499981	-0.003095615
	0.01487683	-0.003600539	-0.0003433529	-8.733311e-05	-0.0446741	-0.01017718	-2.54629e-05	4.672947e-05
	6.832504e-06	0.0001162345	0.01499981	-0.003095615	-2.54629e-05	4.672947e-05	-0.04454719	-0.009367444
1.9e+08	-0.04433977	-0.005145716	-2.090334e-05	3.784482e-05	0.01381751	-0.004752258	1.489536e-05	0.0001139463
	-2.090334e-05	3.784482e-05	-0.04417012	-0.00430165	-0.00038203	-5.413508e-05	0.01399394	-0.004250397
	0.01381751	-0.004752258	-0.00038203	-5.413508e-05	-0.04455625	-0.004974035	-1.721965e-05	4.658519e-05
	1.489536e-05	0.0001139463	0.01399394	-0.004250397	-1.721965e-05	4.658519e-05	-0.04434473	-0.004161475
2e+08	-0.04322949	-0.0002010915	-1.461747e-05	3.710985e-05	0.01254086	-0.005660271	2.291417e-05	0.0001111154
	-1.461747e-05	3.710985e-05	-0.04297081	0.0006313763	-0.0004151094	-1.183028e-05	0.01276815	-0.005173196
	0.01254086	-0.005660271	-0.0004151094	-1.183028e-05	-0.0434204	-5.856408e-06	-9.922957e-06	4.52888e-05
	2.291417e-05	0.0001111154	0.01276815	-0.005173196	-9.922957e-06	4.52888e-05	-0.04312627	0.0007903964
2.1e+08	-0.04118113	0.004320311	-9.296713e-06	3.564135e-05	0.01110097	-0.006286588	3.079948e-05	0.000107717
	-9.296713e-06	3.564135e-05	-0.04084024	0.00512121	-0.0004406913	3.812014e-05	0.01137388	-0.005825592
	0.01110097	-0.006286588	-0.0004406913	3.812014e-05	-0.04134319	0.004533645	-3.672182e-06	4.313915e-05
	3.079948e-05	0.000107717	0.01137388	-0.005825592	-3.672182e-06	4.313915e-05	-0.04097287	0.00529466
2.2e+08	-0.03830614	0.008245835	-4.954908e-06	3.373417e-05	0.009558248	-0.006604821	3.846835e-05	0.0001037445
	-4.954908e-06	3.373417e-05	-0.03789428	0.00899653	-0.000457311	9.385841e-05	0.009868961	-0.006180171
	0.009558248	-0.006604821	-0.000457311	9.385841e-05	-0.03843716	0.008471241	1.502477e-06	4.043897e-05
	3.846835e-05	0.0001037445	0.009868961	-0.006180171	1.502477e-06	4.043897e-05	-0.03800147	0.009179287
2.3e+08	-0.03474677	0.01142943	-1.534914e-06	3.166486e-05	0.007977019	-0.006601174	4.584455e-05	9.92058e-05
	-1.534914e-06	3.166486e-05	-0.03427942	0.01211362	-0.0004640255	0.0001532628	0.008315388	-0.006221534
	0.007977019	-0.006601174	-0.0004640255	0.0001532628	-0.03484583	0.01166055	5.641385e-06	3.747637e-05
	4.584455e-05	9.92058e-05	0.008315388	-0.006221534	5.641385e-06	3.747637e-05	-0.03435972	0.0123001
2.4e+08	-0.03067025	0.01375695	1.085614e-06	2.967215e-05	0.006423015	-0.006274971	5.285837e-05	9.41214e-05
	1.085614e-06	2.967215e-05	-0.03016656	0.01436163	-0.00046045	0.000214107	0.00677689	-0.005946875
	0.006423015	-0.006274971	-0.00046045	0.000214107	-0.03073768	0.01398736	8.850971e-06	3.450578e-05
	5.285837e-05	9.41214e-05	0.00677689	-0.005946875	8.850971e-06	3.450578e-05	-0.03021977	0.01454603
2.5e+08	-0.02626183	0.01515019	3.081461e-06	2.794129e-05	0.004960752	-0.005638688	5.944749e-05	8.852131e-05
	3.081461e-06	2.794129e-05	-0.02574394	0.01566643	-0.0004467775	0.0002741944	0.00531644	-0.005366093
	0.004960752	-0.005638688	-0.0004467775	0.0002741944	-0.02629924	0.01537363	1.129227e-05	3.17322e-05
	5.944749e-05	8.852131e-05	0.00531644	-0.005366093	1.129227e-05	3.17322e-05	-0.02577112	0.01584302
2.6e+08	-0.02171738	0.0155695	4.565665e-06	2.649e-05	0.003650951	-0.004717491	6.555768e-05	8.244579e-05
	4.565665e-06	2.649e-05	-0.02120951	0.0159932	-0.0004121245	0.000338684	0.00399378	-0.004501424
	0.003650951	-0.004717491	-0.0004121245	0.000338684	-0.0217276	0.01578019	1.30713e-05	2.919325e-05
	6.555768e-05	8.244579e-05	0.00399378	-0.004501424	1.30713e-05	2.919325e-05	-0.02121297	0.01615651
2.7e+08	-0.01723557	0.01501493	5.825744e-06	2.547996e-05	0.002548076	-0.003548264	7.114106e-05	7.593656e-05
	5.825744e-06	2.547996e-05	-0.01676302	0.0153472	-0.0003660297	0.0003972171	0.002863024	-0.003386602
	0.002548076	-0.003548264	-0.0003660297	0.0003972171	-0.01722254	0.01520772	1.446614e-05	2.707868e-05
	7.114106e-05	7.593656e-05	0.002863024	-0.003386602	1.446614e-05	2.707868e-05	-0.01674617	0.01549236
2.8e+08	-0.01301001	0.01352587	7.104033e-06	2.490288e-05	0.001698084	-0.00217817	7.615656e-05	6.904226e-05
	7.104033e-06	2.490288e-05	-0.01259801	0.01377329	-0.0003122225	0.0004470067	0.001970467	-0.002065549
	0.001698084	-0.00217817	-0.0003122225	0.0004470067	-0.01297867	0.01369649	1.571829e-05	2.540868e-05
	7.615656e-05	6.904226e-05	0.001970467	-0.002065549	1.571829e-05	2.540868e-05	-0.01256526	0.01389627
2.9e+08	-0.009221642	0.01117909	8.599632e-06	2.466069e-05	0.001136493	-0.0006627638	8.05702e-05	6.181565e-05
	8.599632e-06	2.466069e-05	-0.008894121	0.01135373	-0.0002527834	0.0004872057	0.001352659	-0.0005906488
	0.001136493	-0.0006627638	-0.0002527834	0.0004872057	-0.009177694	0.01132433	1.703274e-05	2.411323e-05
	8.05702e-05	6.181565e-05	0.001352659	-0.0005906488	1.703274e-05	2.411323e-05	-0.008850687	0.01145147
3e+08	-0.006031597	0.008085372	1.046337e-05	2.459733e-05	0.0008868382	0.0009362585	8.435483e-05	5.431207e-05
	1.046337e-05	2.459733e-05	-0.005810046	0.008204519	-0.0001898186	0.0005175142	0.00103486	0.0009793683
	0.0008868382	0.0009362585	-0.0001898186	0.0005175142	-0.005981314	0.008203249	1.857241e-05	2.306265e-05
	8.435483e-05	5.431207e-05	0.00103486	0.0009793682	1.857241e-05	2.306265e-05	-0.005761721	0.00827511
3.1e+08	-0.003574969	0.004384789	1.278279e-05	2.451606e-05	0.0009596248	0.002553616	8.749016e-05	4.658894e-05
	1.278279e-05	2.451606e-05	-0.00347728	0.004470435	-0.0001253056	0.0005381467	0.001029932	0.00258182
	0.0009596248	0.002553616	-0.0001253056	0.0005381467	-0.003524928	0.004474634	2.044258e-05	2.208335e-05
	8.749016e-05	4.658894e-05	0.001029932	0.00258182	2.044258e-05	2.208335e-05	-0.003430185	0.004513216
3.2e+08	-0.001955599	0.0002408356	1.557296e-05	2.420121e-05	0.00135181	0.004123177	8.996234e-05	3.870446e-05
	1.557296e-05	2.420121e-05	-0.001995054	0.000318899	-6.096816e-05	0.0005497567	0.001337753	0.00415268
	0.00135181	0.004123177	-6.096816e-05	0.0005497567	-0.001912409	0.000303344	2.268081e-05	2.097806e-05
	8.996234e-05	3.870446e-05	0.001337753	0.00415268	2.268081e-05	2.097806e-05	-0.001955373	0.0003345123
3.3e+08	-0.00124216	-0.004166341	1.877426e-05	2.34417e-05	0.002046876	0.005580775	9.176358e-05	3.071691e-05
	1.877426e-05	2.34417e-05	-0.001426584	-0.004067003	1.824838e-06	0.0005533302	0.001945177	0.005629263
	0.002046876	0.005580775	1.824838e-06	0.0005533302	-0.00121218	-0.004129121	2.525334e-05	1.954815e-05
	9.176358e-05	3.071691e-05	0.001945177	0.005629263	2.525334e-05	1.954815e-05	-0.001400285	-0.004076621
3.4e+08	-0.001465689	-0.008647349	2.225733e-05	2.205376e-05	0.003015489	0.006866956	9.289208e-05	2.268422e-05
	2.225733e-05	2.205376e-05	-0.001796819	-0.008496107	6.212611e-05	0.0005500554	0.002826562	0.006952891
	0.003015489	0.006866956	6.212611e-05	0.0005500554	-0.001454753	-0.008632084	2.805834e-05	1.761565e-05
	9.289208e-05	2.268422e-05	0.002826562	0.006952891	2.805834e-05	1.761565e-05	-0.001789383	-0.008527787
3.5e+08	-0.002618659	-0.01301127	2.583492e-05	1.990171e-05	0.004216735	0.007929547	9.335123e-05	1.466314e-05
	2.583492e-05	1.990171e-05	-0.003091768	-0.01277703	0.0001194277	0.0005411832	0.003944853	0.00807138
	0.004216735	0.007929547	0.0001194277	0.0005411832	-0.002631821	-0.01301348	3.093588e-05	1.504377e-05
	9.335123e-05	1.466314e-05	0.003944853	0.00807138	3.093588e-05	1.504377e-05	-0.003107939	-0.0128265
3.6e+08	-0.004655637	-0.01707341	2.927939e-05	1.691371e-05	0.005599878	0.008725904	9.314939e-05	6.709043e-06
	2.927939e-05	1.691371e-05	-0.005259432	-0.01672596	0.000173641	0.0005278888	0.005253176	0.008941268
	0.005599878	0.008725904	0.000173641	0.0005278888	-0.004696937	-0.01708761	3.368358e-05	1.175299e-05
	9.314939e-05	6.709043e-06	0.005253176	0.008941268	3.368358e-05	1.175299e-05	-0.005302993	-0.01678801
3.7e+08	-0.007495452	-0.02066264	3.234445e-05	1.309168e-05	0.007106555	0.009224748	9.229933e-05	-1.124469e-06
	3.234445e-05	1.309168e-05	-0.00821228	-0.0201741	0.0002250333	0.000511151	0.006696856	0.009529638
	0.007106555	0.009224748	0.0002250333	0.000511151	-0.007567734	-0.02068262	3.607658e-05	7.731818e-06
	9.229933e-05	-1.124469e-06	0.006696856	0.009529638	3.607658e-05	7.731818e-06	-0.008285869	-0.02024279
3.8e+08	-0.01102482	-0.02362824	3.478865e-05	8.513878e-06	0.008673317	0.009407474	9.081783e-05	-8.785628e-06
	3.478865e-05	8.513878e-06	-0.01183115	-0.02297435	0.0002741343	0.0004916564	0.00821579	0.009815477
	0.008673317	0.009407474	0.0002741343	0.0004916564	-0.01112958	-0.02364728	3.788965e-05	3.040754e-06
	9.081783e-05	-8.785628e-06	0.00821579	0.009815477	3.788965e-05	3.040754e-06	-0.01193614	-0.0230433
3.9e+08	-0.01510318	-0.02584571	3.639857e-05	3.330156e-06	0.01023437	0.009268903	8.872552e-05	-1.622458e-05
	3.639857e-05	3.330156e-06	-0.01597042	-0.0250071	0.000321618	0.0004697383	0.009747024	0.009790498
	0.01023437	0.009268903	0.000321618	0.0004697383	-0.01524052	-0.02585688	3.891939e-05	-2.190773e-06
	8.872552e-05	-1.622458e-05	0.009747024	0.009790498	3.891939e-05	-2.190773e-06	-0.0161068	-0.0250697
4e+08	-0.01956864	-0.02722153	3.700944e-05	-2.249492e-06	0.01172441	0.008817426	8.604667e-05	-2.339344e-05
	3.700944e-05	-2.249492e-06	-0.02046411	-0.02618474	0.0003681731	0.000445357	0.01122744	0.009459392
	0.01172441	0.008817426	0.0003681731	0.000445357	-0.0197372	-0.027218	3.900442e-05	-7.773907e-06
	8.604667e-05	-2.339344e-05	0.01122744	0.009459392	3.900442e-05	-7.773907e-06	-0.02063055	-0.02623453
4.1e+08	-0.02424462	-0.0276966	3.652113e-05	-7.97216e-06	0.01308141	0.00807455	8.280926e-05	-3.024648e-05
	3.652113e-05	-7.97216e-06	-0.02513288	-0.02645496	0.0004143756	0.0004181194	0.01259642	0.008839513
	0.01308141	0.00807455	0.0004143756	0.0004181194	-0.02444166	-0.02767191	3.804156e-05	-1.347562e-05
	8.280926e-05	-3.024648e-05	0.01259642	0.008839513	3.804156e-05	-1.347562e-05	-0.02532668	-0.02648581
4.2e+08	-0.02894704	-0.02724823	3.490803e-05	-1.356311e-05	0.01424919	0.007073883	7.904492e-05	-3.67403e-05
	3.490803e-05	-1.356311e-05	-0.02979126	-0.02580241	0.0004605735	0.000387337	0.01379834	0.007960032
	0.01424919	0.007073883	0.0004605735	0.000387337	-0.02916851	-0.02719659	3.599646e-05	-1.903794e-05
	7.904492e-05	-3.67403e-05	0.01379834	0.007960032	3.599646e-05	-1.903794e-05	-0.03000852	-0.02580885
4.3e+08	-0.0334917	-0.02589073	3.22224e-05	-1.874862e-05	0.01517975	0.005859616	7.478892e-05	-4.283424e-05
	3.22224e-05	-1.874862e-05	-0.03425522	-0.02424899	0.000506796	0.000352118	0.01478483	0.006860594
	0.01517975	0.005859616	0.000506796	0.000352118	-0.03373242	-0.02580729	3.290818e-05	-2.419926e-05
	7.478892e-05	-4.283424e-05	0.01478483	0.006860594	3.290818e-05	-2.419926e-05	-0.03449095	-0.02422646
4.4e+08	-0.03770152	-0.02367448	2.859043e-05	-2.327869e-05	0.01583519	0.004484579	7.008e-05	-4.849077e-05
	2.859043e-05	-2.327869e-05	-0.03834943	-0.02185262	0.0005526945	0.0003114807	0.01551664	0.005589576
	0.01583519	0.004484579	0.0005526945	0.0003114807	-0.03795539	-0.02355552	2.888702e-05	-2.871593e-05
	7.008e-05	-4.849077e-05	0.01551664	0.005589576	2.888702e-05	-2.871593e-05	-0.03859779	-0.02179765
4.5e+08	-0.04141346	-0.02068364	2.420213e-05	-2.694731e-05	0.01618915	0.003007979	6.496027e-05	-5.3676e-05
	2.420213e-05	-2.694731e-05	-0.04191414	-0.0187046	0.0005975217	0.0002644815	0.01596521	0.004202015
	0.01618915	0.003007979	0.0005975217	0.0002644815	-0.0416737	-0.02052675	2.410624e-05	-3.238198e-05
	6.496027e-05	-5.3676e-05	0.01596521	0.004202015	2.410624e-05	-3.238198e-05	-0.04216868	-0.01861497
4.6e+08	-0.04448479	-0.01703257	1.929547e-05	-2.960857e-05	0.01622782	0.001492917	5.947457e-05	-5.836006e-05
	1.929547e-05	-2.960857e-05	-0.04481139	-0.01492571	0.00064015	0.0002103425	0.01611361	0.002757318
	0.01622782	0.001492917	0.00064015	0.0002103425	-0.04474422	-0.01683676	1.878814e-05	-3.504509e-05
	5.947457e-05	-5.836006e-05	0.01611361	0.002757318	1.878814e-05	-3.504509e-05	-0.04506532	-0.01480058
4.7e+08	-0.0467985	-0.01286112	1.41372e-05	-3.118756e-05	0.01595035	3.788141e-06	5.367032e-05	-6.251777e-05
	1.41372e-05	-3.118756e-05	-0.04693021	-0.01066126	0.0006791268	0.0001485698	0.01595717	0.001316835
	0.01595035	3.788143e-06	0.0006791268	0.0001485698	-0.0470498	-0.0126269	1.318756e-05	-3.661906e-05
	5.367032e-05	-6.251777e-05	0.01595717	0.001316835	1.318756e-05	-3.661906e-05	-0.04717665	-0.01050116
