!$
! Info: Touchstone file created by Circ.  Input file=Tx_12in_Rx_93ohms_TxVia_10mils_RxVia_20mils.circ
!$
# Hz S RI R 50
0	0.0110089	9.258364e-26	-6.439804e-05	-8.877682e-26	7.773911e-05	1.381962e-23	-6.441111e-05	1.530566e-24
	-6.439805e-05	-8.757395e-26	0.01101173	1.072198e-25	-6.439725e-05	-7.805884e-26	7.517067e-05	1.56603e-23
	7.778665e-05	1.382769e-23	-6.439723e-05	-7.930895e-26	0.01102365	9.282828e-26	-6.439869e-05	1.314507e-25
	-6.441109e-05	1.529173e-24	7.662598e-05	1.611821e-23	-6.439868e-05	1.299777e-25	0.01101729	1.022377e-25
1e+07	0.01509086	-0.00139067	-3.579276e-06	-2.366795e-05	0.0004035919	0.001971966	-3.640949e-06	-2.428364e-05
	-3.579275e-06	-2.366795e-05	0.01597524	-0.001563834	-7.772955e-06	-4.150067e-06	0.0004210311	0.002149318
	0.0004035961	0.001971963	-7.772956e-06	-4.150067e-06	0.01625624	-0.0008812847	-2.577599e-05	-4.899675e-06
	-3.640949e-06	-2.428364e-05	0.0004210641	0.002149306	-2.577599e-05	-4.899675e-06	0.01566056	-0.001566417
2e+07	0.01765085	-0.006643889	-9.732029e-06	-1.508539e-05	0.00120833	0.003884663	-1.051111e-05	-1.600714e-05
	-9.732029e-06	-1.508539e-05	0.0181564	-0.007223495	-3.162268e-05	-2.218434e-05	0.001123858	0.004219488
	0.001208328	0.00388466	-3.162268e-05	-2.218434e-05	0.01917688	-0.006306908	-2.666626e-05	6.778539e-06
	-1.051111e-05	-1.600714e-05	0.001123855	0.004219467	-2.666626e-05	6.77854e-06	0.01792273	-0.007122657
3e+07	0.01761102	-0.01340621	-1.462121e-05	-1.120879e-05	0.0024297	0.005534768	-1.595403e-05	-1.202222e-05
	-1.462121e-05	-1.120879e-05	0.01779907	-0.01407658	-4.920332e-05	-1.966325e-05	0.002347245	0.005937858
	0.0024297	0.005534768	-4.920332e-05	-1.966325e-05	0.01937	-0.01332251	-2.811438e-05	9.039632e-06
	-1.595403e-05	-1.202222e-05	0.00234724	0.005937855	-2.811438e-05	9.039632e-06	0.01762537	-0.01395754
4e+07	0.01546776	-0.02018386	-1.829266e-05	-7.0957e-06	0.003994638	0.006832935	-2.006606e-05	-7.634215e-06
	-1.829266e-05	-7.0957e-06	0.01537826	-0.02083241	-6.248376e-05	-1.061668e-05	0.003972555	0.007255147
	0.003994638	0.006832934	-6.248376e-05	-1.061668e-05	0.01735451	-0.02040852	-2.849314e-05	1.270685e-05
	-2.006606e-05	-7.634215e-06	0.003972555	0.007255149	-2.849314e-05	1.270685e-05	0.01524906	-0.02072042
5e+07	0.0115495	-0.02633455	-2.080115e-05	-2.509657e-06	0.005805813	0.007707882	-2.291511e-05	-2.654322e-06
	-2.080115e-05	-2.509657e-06	0.01122457	-0.02688549	-7.177849e-05	2.308016e-06	0.005831158	0.008132288
	0.005805814	0.007707882	-7.177849e-05	2.308015e-06	0.01346735	-0.02689283	-2.787987e-05	1.694765e-05
	-2.291511e-05	-2.654322e-06	0.005831158	0.008132289	-2.787987e-05	1.694765e-05	0.01112489	-0.02679186
6e+07	0.00619872	-0.03141741	-2.214213e-05	2.461574e-06	0.007751746	0.008115384	-2.449172e-05	2.809074e-06
	-2.214213e-05	2.461574e-06	0.00568596	-0.03181488	-7.707778e-05	1.780426e-05	0.007812346	0.008532276
	0.007751747	0.008115384	-7.707778e-05	1.780426e-05	0.008057554	-0.03231078	-2.629852e-05	2.139238e-05
	-2.449172e-05	2.809074e-06	0.007812343	0.008532277	-2.629852e-05	2.139238e-05	0.005602959	-0.03174438
7e+07	-0.0002053555	-0.0351228	-2.228705e-05	7.664337e-06	0.009714588	0.008040371	-2.475142e-05	8.588923e-06
	-2.228705e-05	7.664337e-06	-0.0008526085	-0.03532653	-7.822206e-05	3.494135e-05	0.00979911	0.008444462
	0.00971459	0.008040371	-7.822206e-05	3.494135e-05	0.001511713	-0.03633305	-2.376518e-05	2.579436e-05
	-2.475142e-05	8.588923e-06	0.009799105	0.008444465	-2.376518e-05	2.579436e-05	-0.0009305489	-0.03528034
8e+07	-0.00725406	-0.03725619	-2.118471e-05	1.293052e-05	0.01157782	0.007497314	-2.361855e-05	1.45029e-05
	-2.118471e-05	1.293052e-05	-0.007977562	-0.03724018	-7.494486e-05	5.294187e-05	0.0116755	0.007885997
	0.01157782	0.007497313	-7.494486e-05	5.294187e-05	-0.005753421	-0.03874926	-2.055412e-05	2.974884e-05
	-2.361855e-05	1.45029e-05	0.0116755	0.007886001	-2.055412e-05	2.974884e-05	-0.008061178	-0.0372163
9e+07	-0.01452572	-0.0377324	-1.872278e-05	1.809529e-05	0.01323431	0.006529035	-2.093225e-05	2.038373e-05
	-1.872278e-05	1.809529e-05	-0.01526253	-0.03748394	-6.674274e-05	7.113858e-05	0.01333363	0.006900796
	0.01323431	0.006529034	-6.674274e-05	7.113858e-05	-0.0133098	-0.03946262	-1.861522e-05	3.211763e-05
	-2.093225e-05	2.038373e-05	0.01333362	0.0069008	-1.861522e-05	3.211763e-05	-0.01536131	-0.03747755
1e+08	-0.02159961	-0.03656837	-1.427121e-05	2.311442e-05	0.01460187	0.005207351	-1.59392e-05	2.619988e-05
	-1.427121e-05	2.311442e-05	-0.0222695	-0.03608235	-5.12185e-05	8.932768e-05	0.01467961	0.005556093
	0.01460187	0.005207351	-5.12185e-05	8.932768e-05	-0.0207566	-0.03849098	-1.71795e-05	3.397269e-05
	-1.59392e-05	2.619988e-05	0.01467961	0.005556093	-1.71795e-05	3.397269e-05	-0.02239389	-0.03608778
1.1e+08	-0.02809687	-0.03393353	-8.37577e-06	2.478939e-05	0.01556621	0.003652593	-9.174937e-06	2.820919e-05
	-8.37577e-06	2.478939e-05	-0.02863707	-0.0333045	-2.997338e-05	9.581395e-05	0.01563713	0.003942337
	0.01556621	0.003652593	-2.997338e-05	9.581395e-05	-0.02767745	-0.03583586	-1.513905e-05	3.424665e-05
	-9.174937e-06	2.820919e-05	0.01563713	0.003942336	-1.513905e-05	3.424665e-05	-0.0287914	-0.03329863
1.2e+08	-0.03372004	-0.02997484	-3.417703e-06	2.532157e-05	0.016082	0.001911556	-4.888376e-06	2.857182e-05
	-3.417703e-06	2.532157e-05	-0.03414169	-0.029239	-1.764626e-05	9.699449e-05	0.01616077	0.002162117
	0.016082	0.001911556	-1.764626e-05	9.699449e-05	-0.03363121	-0.03177323	-1.235449e-05	3.481468e-05
	-4.888376e-06	2.857182e-05	0.01616077	0.002162117	-1.235449e-05	3.481468e-05	-0.03431455	-0.02921261
1.3e+08	-0.03818176	-0.02495383	-1.571572e-06	2.497803e-05	0.01613735	0.0001035328	-3.150654e-06	2.826632e-05
	-1.571572e-06	2.497803e-05	-0.03848009	-0.02413809	-1.068149e-05	9.648819e-05	0.01622646	0.0003237228
	0.01613735	0.0001035328	-1.068149e-05	9.648819e-05	-0.03836079	-0.02659969	-9.250452e-06	3.533507e-05
	-3.150654e-06	2.826632e-05	0.01622646	0.0003237228	-9.250452e-06	3.533507e-05	-0.03866277	-0.02408642
1.4e+08	-0.0412788	-0.01918933	1.482659e-07	2.458376e-05	0.01573669	-0.001657139	-1.222746e-06	2.796333e-05
	1.482659e-07	2.458376e-05	-0.04144924	-0.0183207	-3.119103e-06	9.571527e-05	0.01583681	-0.001462341
	0.01573669	-0.001657139	-3.119103e-06	9.571527e-05	-0.04166761	-0.02065122	-5.983687e-06	3.56359e-05
	-1.222746e-06	2.796333e-05	0.01583681	-0.001462341	-5.983687e-06	3.56359e-05	-0.04163319	-0.0182417
1.5e+08	-0.04289368	-0.01303369	1.952996e-06	2.412084e-05	0.01490944	-0.0032621	8.221696e-07	2.758571e-05
	1.952996e-06	2.412084e-05	-0.04293501	-0.01214013	4.789304e-06	9.445183e-05	0.01502031	-0.003090135
	0.01490944	-0.0032621	4.789304e-06	9.445183e-05	-0.04343715	-0.01429376	-2.604099e-06	3.566998e-05
	8.221696e-07	2.758571e-05	0.01502031	-0.003090135	-2.604099e-06	3.566998e-05	-0.04311198	-0.01203419
1.6e+08	-0.04299741	-0.00685144	3.801742e-06	2.355242e-05	0.01370876	-0.004614134	2.935969e-06	2.708801e-05
	3.801742e-06	2.355242e-05	-0.04291323	-0.00596142	1.286106e-05	9.256469e-05	0.01382919	-0.004464107
	0.01370876	-0.004614134	1.286106e-05	9.256469e-05	-0.04364388	-0.007903384	8.171827e-07	3.539591e-05
	2.935969e-06	2.708801e-05	0.01382919	-0.004464107	8.171827e-07	3.539591e-05	-0.04307572	-0.005831138
1.7e+08	-0.04164795	-0.0009985436	5.661604e-06	2.285482e-05	0.01220855	-0.005632116	5.079939e-06	2.644037e-05
	5.661604e-06	2.285482e-05	-0.04144758	-0.0001399708	2.094065e-05	8.997488e-05	0.01233627	-0.005504186
	0.01220855	-0.005632116	2.094065e-05	8.997488e-05	-0.04235024	-0.001845905	4.231181e-06	3.479621e-05
	5.079939e-06	2.644037e-05	0.01233627	-0.005504186	4.231181e-06	3.479621e-05	-0.04158923	1.017939e-05
1.8e+08	-0.03898441	0.004197221	7.503656e-06	2.201335e-05	0.01049913	-0.006255172	7.219539e-06	2.562387e-05
	7.503656e-06	2.201335e-05	-0.03868321	0.004998371	2.88876e-05	8.664281e-05	0.01063066	-0.006149965
	0.01049913	-0.006255172	2.88876e-05	8.664281e-05	-0.03970077	0.003542689	7.590793e-06	3.386326e-05
	7.219539e-06	2.562387e-05	0.01063066	-0.006149965	7.590793e-06	3.386326e-05	-0.03879917	0.005162392
1.9e+08	-0.03521722	0.008453735	9.30123e-06	2.102021e-05	0.008682191	-0.006445754	9.32264e-06	2.462807e-05
	9.30123e-06	2.102021e-05	-0.03483642	0.009174936	3.657246e-05	8.256021e-05	0.008812787	-0.006363831
	0.008682191	-0.006445754	3.657246e-05	8.256021e-05	-0.03591217	0.007973704	1.085049e-05	3.259813e-05
	9.32264e-06	2.462807e-05	0.008812787	-0.006363831	1.085049e-05	3.259813e-05	-0.03492366	0.009345767
2e+08	-0.03061446	0.01155079	1.102608e-05	1.987047e-05	0.006851891	-0.006211034	1.135796e-05	2.344836e-05
	1.102608e-05	1.987047e-05	-0.03018087	0.01217291	4.38757e-05	7.774391e-05	0.006988793	-0.0061329
	0.006851891	-0.006211034	4.38757e-05	7.774391e-05	-0.03125932	0.011222	1.396587e-05	3.100882e-05
	1.135796e-05	2.344836e-05	0.006988793	-0.0061329	1.396587e-05	3.100882e-05	-0.03023836	0.01234292
2.1e+08	-0.02548624	0.01333635	1.265782e-05	1.857015e-05	0.005128325	-0.005538389	1.329833e-05	2.208862e-05
	1.265782e-05	1.857015e-05	-0.02503103	0.01384837	5.069082e-05	7.223374e-05	0.00526469	-0.005469671
	0.005128325	-0.005538389	5.069082e-05	7.223374e-05	-0.02605947	0.01313221	1.689696e-05	2.911216e-05
	1.329833e-05	2.208862e-05	0.00526469	-0.005469671	1.689696e-05	2.911216e-05	-0.02505976	0.01400989
2.2e+08	-0.02016677	0.01373856	1.417524e-05	1.712606e-05	0.003614457	-0.004466524	1.511805e-05	2.055649e-05
	1.417524e-05	1.712606e-05	-0.01972356	0.01413717	5.692358e-05	6.608631e-05	0.003740432	-0.004411341
	0.003614457	-0.004466524	5.692358e-05	6.608631e-05	-0.020654	0.01363076	1.960658e-05	2.693013e-05
	1.511805e-05	2.055649e-05	0.003740432	-0.004411341	1.960658e-05	2.693013e-05	-0.01972652	0.01428299
2.3e+08	-0.01499483	0.0127672	1.555891e-05	1.55483e-05	0.00239982	-0.003058742	1.679404e-05	1.886368e-05
	1.555891e-05	1.55483e-05	-0.01459788	0.01305734	6.249367e-05	5.937199e-05	0.002504265	-0.003017768
	0.00239982	-0.003058742	6.249367e-05	5.937199e-05	-0.01538862	0.01272716	2.206169e-05	2.448985e-05
	1.679404e-05	1.886368e-05	0.002504265	-0.003017768	2.206169e-05	2.448985e-05	-0.01457985	0.01318119
2.4e+08	-0.01029453	0.01051184	1.679164e-05	1.385002e-05	0.001556111	-0.00139794	1.830618e-05	1.702553e-05
	1.679164e-05	1.385002e-05	-0.009976662	0.01070683	6.733547e-05	5.217186e-05	0.001627643	-0.001368145
	0.001556111	-0.00139794	6.733547e-05	5.217186e-05	-0.01059393	0.0105121	2.423399e-05	2.182274e-05
	1.830618e-05	1.702553e-05	0.001627643	-0.001368145	2.423399e-05	2.182274e-05	-0.009943927	0.01080382
2.5e+08	-0.00635699	0.007135642	1.785865e-05	1.204673e-05	0.001132947	0.0004181656	1.963754e-05	1.505994e-05
	1.785865e-05	1.204673e-05	-0.006147514	0.007256887	7.139832e-05	4.457388e-05	0.001161012	0.0004434848
	0.001132947	0.0004181657	7.139832e-05	4.457388e-05	-0.006566812	0.007151076	2.610026e-05	1.896339e-05
	1.963754e-05	1.505994e-05	0.001161012	0.0004434848	2.610026e-05	1.896339e-05	-0.006107467	0.007323833
2.6e+08	-0.003424092	0.002865102	1.87474e-05	1.01559e-05	0.001154843	0.002282746	2.077453e-05	1.298684e-05
	1.87474e-05	1.01559e-05	-0.003346755	0.002941133	7.464325e-05	3.666934e-05	0.001130757	0.00231366
	0.001154843	0.002282746	7.464325e-05	3.666934e-05	-0.003554021	0.002873903	2.76426e-05	1.594865e-05
	2.077453e-05	1.298684e-05	0.001130757	0.00231366	2.76426e-05	1.594865e-05	-0.003307494	0.00297679
2.7e+08	-0.001675145	-0.002023815	1.944862e-05	8.196476e-06	0.001619656	0.004086216	2.170676e-05	1.082731e-05
	1.944862e-05	8.196476e-06	-0.001746457	-0.001958753	7.705071e-05	2.85528e-05	0.001537534	0.004135585
	0.001619656	0.004086216	7.705071e-05	2.85528e-05	-0.001738699	-0.00203934	2.884822e-05	1.281666e-05
	2.170676e-05	1.082731e-05	0.001537534	0.004135585	2.884822e-05	1.281666e-05	-0.001716179	-0.00195354
2.8e+08	-0.001217274	-0.007222205	1.995555e-05	6.188367e-06	0.002498638	0.005722831	2.24271e-05	8.603133e-06
	1.995555e-05	6.188367e-06	-0.001445085	-0.007129994	7.861199e-05	2.031696e-05	0.002356157	0.005805495
	0.002498638	0.005722831	7.861199e-05	2.031696e-05	-0.001230641	-0.007275124	2.970956e-05	9.606086e-06
	2.24271e-05	8.603133e-06	0.002356157	0.005805495	2.970956e-05	9.606086e-06	-0.001431593	-0.007152335
2.9e+08	-0.002080081	-0.01240656	2.026399e-05	4.152e-06	0.003738145	0.007097127	2.29313e-05	6.336158e-06
	2.026399e-05	4.152e-06	-0.00246266	-0.0122474	7.93292e-05	1.205165e-05	0.003537076	0.007228898
	0.003738145	0.007097127	7.93292e-05	1.205165e-05	-0.002060925	-0.01250507	3.022384e-05	6.355328e-06
	2.29313e-05	6.336158e-06	0.003537076	0.007228898	3.022384e-05	6.355328e-06	-0.002472864	-0.01229251
3e+08	-0.004214863	-0.01725771	2.037233e-05	2.107943e-06	0.005262927	0.008129743	2.321772e-05	4.047888e-06
	2.037233e-05	2.107943e-06	-0.004740559	-0.01699255	7.921417e-05	3.842814e-06	0.005009387	0.008326281
	0.005262927	0.008129743	7.921417e-05	3.842814e-06	-0.004181143	-0.01740518	3.039271e-05	3.10194e-06
	2.321772e-05	4.047888e-06	0.005009387	0.008326281	3.039271e-05	3.10194e-06	-0.004780023	-0.01705403
3.1e+08	-0.007498428	-0.02147938	2.028145e-05	7.658999e-08	0.006980787	0.00876225	2.328709e-05	1.759227e-06
	2.028145e-05	7.658999e-08	-0.008145934	-0.02107238	7.82872e-05	-4.228161e-06	0.006685196	0.009037871
	0.006980787	0.00876225	7.82872e-05	-4.228161e-06	-0.007467286	-0.0216746	3.022196e-05	-1.178274e-07
	2.328709e-05	1.759227e-06	0.006685196	0.009037871	3.022196e-05	-1.178274e-07	-0.008218504	-0.02114257
3.2e+08	-0.01174118	-0.02481505	1.999448e-05	-1.922166e-06	0.00878831	0.008960623	2.314208e-05	-5.097425e-07
	1.999448e-05	-1.922166e-06	-0.01248044	-0.02423596	7.657534e-05	-1.208477e-05	0.008465023	0.009327146
	0.00878831	0.008960623	7.657534e-05	-1.208477e-05	-0.01172797	-0.02505281	2.972093e-05	-3.269397e-06
	2.314208e-05	-5.097425e-07	0.008465023	0.009327146	2.972093e-05	-3.269397e-06	-0.01258797	-0.02430644
3.3e+08	-0.01669895	-0.02706233	1.951664e-05	-3.869163e-06	0.01057726	0.008717164	2.278695e-05	-2.739815e-06
	1.951664e-05	-3.869163e-06	-0.01749264	-0.02628866	7.411135e-05	-1.965531e-05	0.0102439	0.009182854
	0.01057726	0.008717164	7.411135e-05	-1.965531e-05	-0.01671644	-0.02733407	2.89022e-05	-6.320082e-06
	2.278695e-05	-2.739815e-06	0.0102439	0.009182854	2.89022e-05	-6.320082e-06	-0.01763486	-0.02635074
3.4e+08	-0.02208782	-0.02808396	1.885508e-05	-5.746164e-06	0.01224121	0.00805073	2.222747e-05	-4.912674e-06
	1.885508e-05	-5.746164e-06	-0.02289336	-0.02710269	7.093313e-05	-2.68726e-05	0.01191773	0.008619434
	0.01224121	0.00805073	7.093313e-05	-2.68726e-05	-0.02214562	-0.02837868	2.778123e-05	-9.239258e-06
	2.222747e-05	-4.912674e-06	0.01191773	0.008619434	2.778123e-05	-9.239258e-06	-0.02306786	-0.02714796
3.5e+08	-0.02760096	-0.02781491	1.801861e-05	-7.535988e-06	0.01368195	0.007005313	2.147056e-05	-7.010811e-06
	1.801861e-05	-7.535988e-06	-0.02837295	-0.02662365	6.708297e-05	-3.367369e-05	0.01338946	0.007675851
	0.01368195	0.007005313	6.708297e-05	-3.367369e-05	-0.02770517	-0.02812001	2.637602e-05	-1.199844e-05
	2.147056e-05	-7.010811e-06	0.01338946	0.007675851	2.637602e-05	-1.199844e-05	-0.0285753	-0.02664449
3.6e+08	-0.0329265	-0.02626512	1.701759e-05	-9.222626e-06	0.01481527	0.0056471	2.052428e-05	-9.017467e-06
	1.701759e-05	-9.222626e-06	-0.03361936	-0.02487276	6.26076e-05	-3.999959e-05	0.01457475	0.006412966
	0.01481527	0.0056471	6.26076e-05	-3.999959e-05	-0.03307956	-0.02656742	2.470684e-05	-1.457137e-05
	2.052428e-05	-9.017467e-06	0.01457475	0.006412966	2.470684e-05	-1.457137e-05	-0.03384337	-0.02486283
3.7e+08	-0.03776536	-0.02351809	1.58637e-05	-1.079129e-05	0.01557579	0.004060261	1.939776e-05	-1.091653e-05
	1.58637e-05	-1.079129e-05	-0.03833616	-0.02194466	5.755812e-05	-4.579526e-05	0.01540668	0.004909666
	0.01557579	0.004060261	5.755812e-05	-4.579526e-05	-0.03796621	-0.02380467	2.279609e-05	-1.693404e-05
	1.939776e-05	-1.091653e-05	0.01540668	0.004909666	2.279609e-05	-1.693404e-05	-0.03857423	-0.0218993
3.8e+08	-0.04184805	-0.01972524	1.456981e-05	-1.222847e-05	0.01592054	0.00234176	1.810122e-05	-1.269247e-05
	1.456981e-05	-1.222847e-05	-0.04225921	-0.01800115	5.199019e-05	-5.100969e-05	0.01583942	0.003258039
	0.01592054	0.00234176	5.199019e-05	-5.100969e-05	-0.04209242	-0.01998431	2.066806e-05	-1.906478e-05
	1.810122e-05	-1.269247e-05	0.01583942	0.003258039	2.066806e-05	-1.906478e-05	-0.0425028	-0.01791765
3.9e+08	-0.04494957	-0.01509666	1.314991e-05	-1.352196e-05	0.01583118	0.0005955524	1.664611e-05	-1.433037e-05
	1.314991e-05	-1.352196e-05	-0.04517137	-0.01326122	4.596416e-05	-5.559639e-05	0.0158505	0.001557911
	0.01583118	0.0005955524	4.596416e-05	-5.559639e-05	-0.04523046	-0.01531824	1.834888e-05	-2.094436e-05
	1.664611e-05	-1.433037e-05	0.0158505	0.001557911	1.834888e-05	-2.094436e-05	-0.04541149	-0.01313907
4e+08	-0.0469016	-0.009888747	1.161894e-05	-1.466092e-05	0.01531472	-0.00107349	1.504513e-05	-1.581591e-05
	1.161894e-05	-1.466092e-05	-0.04691426	-0.007988153	3.954513e-05	-5.951392e-05	0.0154418	-8.891255e-05
	0.01531472	-0.00107349	3.954513e-05	-5.951392e-05	-0.04720989	-0.01006518	1.586633e-05	-2.255612e-05
	1.504513e-05	-1.581591e-05	0.0154418	-8.891255e-05	1.586633e-05	-2.255612e-05	-0.047142	-0.007829009
4.1e+08	-0.04760141	-0.004389404	9.99276e-06	-1.563595e-05	0.01440287	-0.002565568	1.331243e-05	-1.713558e-05
	9.99276e-06	-1.563595e-05	-0.04739666	-0.002474198	3.280285e-05	-6.272675e-05	0.01463916	-0.001584391
	0.01440287	-0.002565568	3.280285e-05	-6.272675e-05	-0.04792655	-0.004515767	1.324972e-05	-2.388616e-05
	1.331243e-05	-1.713558e-05	0.01463916	-0.001584391	1.324972e-05	-2.388616e-05	-0.04760375	-0.002281866
4.2e+08	-0.04701709	0.001098204	8.288042e-06	-1.64391e-05	0.01315004	-0.003791563	1.146362e-05	-1.827682e-05
	8.288042e-06	-1.64391e-05	-0.04659909	0.002975995	2.58113e-05	-6.520602e-05	0.01349065	-0.002839676
	0.01315004	-0.003791563	2.58113e-05	-6.520602e-05	-0.04734787	0.001023953	1.052969e-05	-2.492357e-05
	1.146362e-05	-1.827682e-05	0.01349065	-0.002839676	1.052969e-05	-2.492357e-05	-0.04677839	0.003195796
4.3e+08	-0.04518886	0.00627263	6.522152e-06	-1.706405e-05	0.01163003	-0.004677986	9.515839e-06	-1.922827e-05
	6.522152e-06	-1.706405e-05	-0.04457442	0.008062566	1.864814e-05	-6.693042e-05	0.01206377	-0.003779972
	0.01163003	-0.004677986	1.864814e-05	-6.693042e-05	-0.04551412	0.006249643	7.737947e-06	-2.566058e-05
	9.515839e-06	-1.922827e-05	0.01206377	-0.003779972	7.737947e-06	-2.566058e-05	-0.04472036	0.008302513
4.4e+08	-0.04222651	0.01085088	4.713046e-06	-1.750606e-05	0.009931895	-0.005171026	7.487735e-06	-1.998004e-05
	4.713046e-06	-1.750606e-05	-0.04144454	0.01250717	1.13939e-05	-6.788689e-05	0.01044163	-0.004348604
	0.009931895	-0.005171026	1.13939e-05	-6.788689e-05	-0.04253585	0.01087559	4.906952e-06	-2.60928e-05
	7.487735e-06	-1.998004e-05	0.01044163	-0.004348604	4.906952e-06	-2.60928e-05	-0.04155343	0.01275876
4.5e+08	-0.03830296	0.01458407	2.879133e-06	-1.776218e-05	0.008154857	-0.005239543	5.399334e-06	-2.052402e-05
	2.879133e-06	-1.776218e-05	-0.03739319	0.01606845	4.130983e-06	-6.807131e-05	0.008718224	-0.004510117
	0.008154857	-0.005239543	4.130983e-06	-6.807131e-05	-0.03858736	0.01465052	2.069552e-06	-2.621938e-05
	5.399334e-06	-2.052402e-05	0.008718224	-0.004510117	2.069552e-06	-2.621938e-05	-0.03746354	0.01632248
4.6e+08	-0.03364452	0.01727115	1.039108e-06	-1.783127e-05	0.006402742	-0.004876831	3.271924e-06	-2.085391e-05
	1.039108e-06	-1.783127e-05	-0.03265554	0.01855545	-3.057342e-06	-6.748893e-05	0.006993299	-0.00425224
	0.006402742	-0.004876831	-3.057342e-06	-6.748893e-05	-0.03389687	0.01737147	-7.412776e-07	-2.604202e-05
	3.271924e-06	-2.085391e-05	0.006993299	-0.00425224	-7.412776e-07	-2.604202e-05	-0.03268811	0.01880264
4.7e+08	-0.0285182	0.01877001	-7.882138e-07	-1.771403e-05	0.004778128	-0.004101076	1.127716e-06	-2.096629e-05
	-7.882138e-07	-1.771403e-05	-0.02750487	0.01983817	-1.008833e-05	-6.615471e-05	0.005366731	-0.003586639
	0.004778128	-0.004101076	-1.008833e-05	-6.615471e-05	-0.02873363	0.01889497	-3.492873e-06	-2.556739e-05
	1.127716e-06	-2.096629e-05	0.005366731	-0.003586639	-3.492873e-06	-2.556739e-05	-0.02750265	0.02006957
