!$
! Info: Touchstone file created by Circ.  Input file=Tx_10in_Rx_85ohms_TxVia_10mils_RxVia_20mils.circ
!$
# Hz S RI R 50
0	0.008106575	6.415728e-26	-5.41223e-05	1.614716e-25	6.537162e-05	8.40199e-24	-5.412757e-05	4.593078e-25
	-5.412231e-05	1.618536e-25	0.00810591	9.213082e-26	-5.412212e-05	1.822377e-26	6.497705e-05	1.150508e-23
	6.348228e-05	8.283588e-24	-5.412212e-05	1.863824e-26	0.00812055	6.676323e-26	-5.412099e-05	3.601669e-25
	-5.412755e-05	4.572063e-25	6.643345e-05	1.184148e-23	-5.412096e-05	3.574897e-25	0.008111504	8.786069e-26
1e+07	0.01172874	-0.009378227	-0.0002345404	-2.490775e-05	0.0002513829	0.001810994	-0.0001564262	0.0001045285
	-0.0002345404	-2.490776e-05	0.01038033	-0.009495756	-7.20443e-06	-1.525284e-05	0.0003253691	0.001815275
	0.0002513443	0.00181102	-7.204427e-06	-1.525284e-05	0.01040795	-0.009667881	-4.977138e-05	-1.540588e-05
	-0.0001564262	0.0001045285	0.0003254016	0.001815263	-4.977138e-05	-1.540588e-05	0.01036346	-0.009489073
2e+07	0.01120375	-0.02189004	-0.0002100901	1.82439e-05	0.0008174055	0.003541771	-0.0001470047	0.0001033404
	-0.0002100901	1.82439e-05	0.00999295	-0.02159048	-6.245713e-06	-4.040417e-06	0.0009201114	0.003485067
	0.0008174135	0.003541789	-6.245712e-06	-4.040419e-06	0.009865965	-0.02187129	-4.416882e-05	6.585306e-06
	-0.0001470047	0.0001033404	0.0009201083	0.003485045	-4.416882e-05	6.585308e-06	0.009983085	-0.02156715
3e+07	0.007195609	-0.03473244	-0.0001991978	1.143317e-05	0.001768763	0.005042643	-0.0001249946	0.0001201463
	-0.0001991978	1.143317e-05	0.006088411	-0.03425427	-5.661635e-06	-8.458996e-07	0.001827815	0.0049745
	0.001768761	0.005042644	-5.661634e-06	-8.458998e-07	0.005854616	-0.03455368	-4.354948e-05	2.874367e-06
	-0.0001249946	0.0001201463	0.00182781	0.004974498	-4.354948e-05	2.874368e-06	0.006084374	-0.03422126
4e+07	0.0002709419	-0.04663885	-0.0001909221	1.296888e-05	0.002989256	0.006290986	-9.517934e-05	0.0001300837
	-0.0001909221	1.296888e-05	-0.0007489105	-0.04603043	-5.050542e-06	1.031617e-06	0.003004626	0.006227566
	0.002989251	0.006290989	-5.050541e-06	1.031618e-06	-0.001056587	-0.04631998	-4.367271e-05	2.239374e-06
	-9.517934e-05	0.0001300837	0.003004625	0.006227567	-4.367271e-05	2.239375e-06	-0.0007488475	-0.04599142
5e+07	-0.00910646	-0.05693323	-0.0001839443	1.820419e-05	0.004419638	0.007242373	-6.183367e-05	0.000128726
	-0.0001839443	1.820419e-05	-0.01004975	-0.05621496	-4.388229e-06	2.362912e-06	0.004392467	0.007196541
	0.004419636	0.007242375	-4.388229e-06	2.362912e-06	-0.01040445	-0.05648207	-4.411073e-05	3.264929e-06
	-6.183367e-05	0.000128726	0.004392467	0.007196541	-4.411073e-05	3.26493e-06	-0.01004821	-0.05617041
6e+07	-0.02044167	-0.06512609	-0.0001773798	2.560964e-05	0.005991201	0.007864372	-2.960044e-05	0.0001145769
	-0.0001773798	2.560964e-05	-0.0213151	-0.0643074	-3.6682e-06	3.384712e-06	0.005924512	0.007847648
	0.005991202	0.00786437	-3.6682e-06	3.384712e-06	-0.02169437	-0.06454802	-4.450242e-05	5.469026e-06
	-2.960044e-05	0.0001145769	0.005924509	0.007847649	-4.450242e-05	5.469026e-06	-0.02131333	-0.0642566
7e+07	-0.03319608	-0.07086944	-0.0001705544	3.444327e-05	0.007630383	0.008139946	-3.200233e-06	8.793325e-05
	-0.0001705544	3.444327e-05	-0.03400258	-0.06995438	-3.29888e-06	3.657626e-06	0.007529281	0.008162699
	0.007630383	0.00813994	-3.29888e-06	3.657626e-06	-0.03438778	-0.07016965	-4.454548e-05	8.564651e-06
	-3.200232e-06	8.793325e-05	0.007529276	0.008162702	-4.454548e-05	8.56465e-06	-0.03400131	-0.06989672
8e+07	-0.04679966	-0.07394675	-0.0001628988	4.42196e-05	0.009262897	0.00806821	1.288487e-05	5.052832e-05
	-0.0001628988	4.42196e-05	-0.04753868	-0.07293702	-3.1209e-06	3.675782e-06	0.009134573	0.008139498
	0.009262896	0.008068204	-3.120901e-06	3.675781e-06	-0.04791436	-0.07313091	-4.399516e-05	1.229684e-05
	1.288487e-05	5.052832e-05	0.009134568	0.008139503	-4.399516e-05	1.229684e-05	-0.04753875	-0.07287166
9e+07	-0.06067083	-0.07426862	-0.0001538392	5.45966e-05	0.01081759	0.007663901	1.450671e-05	5.12844e-06
	-0.0001538392	5.45966e-05	-0.06133895	-0.07316565	-2.938575e-06	3.723623e-06	0.0106713	0.007791302
	0.01081758	0.007663897	-2.938576e-06	3.723622e-06	-0.06169124	-0.07334269	-4.26662e-05	1.641811e-05
	1.450671e-05	5.12844e-06	0.0106713	0.007791306	-4.26662e-05	1.641811e-05	-0.06134095	-0.07309111
1e+08	-0.07423857	-0.07186761	-0.0001419887	6.587304e-05	0.01223055	0.006956369	-4.421724e-06	-4.647918e-05
	-0.0001419887	6.587304e-05	-0.07483225	-0.07067554	-2.769917e-06	3.762201e-06	0.01207869	0.007146709
	0.01223055	0.006956369	-2.769917e-06	3.762201e-06	-0.07513876	-0.07083309	-4.03463e-05	2.077349e-05
	-4.421724e-06	-4.647918e-05	0.01207869	0.007146708	-4.03463e-05	2.077349e-05	-0.07483631	-0.07058993
1.1e+08	-0.08696233	-0.06689719	-0.0001316579	8.022559e-05	0.01344637	0.005979952	-3.095718e-05	-0.0001081499
	-0.0001316579	8.022559e-05	-0.08747861	-0.0656056	-2.514027e-06	3.750968e-06	0.01330411	0.006228335
	0.01344637	0.005979953	-2.514026e-06	3.750968e-06	-0.08770926	-0.06580674	-3.759831e-05	2.536239e-05
	-3.095718e-05	-0.0001081499	0.01330411	0.006228335	-3.759831e-05	2.536239e-05	-0.08748291	-0.06550665
1.2e+08	-0.09835348	-0.05958946	-0.0001214131	9.240381e-05	0.01441342	0.004788153	-6.910838e-05	-0.0001595254
	-0.0001214131	9.240381e-05	-0.09877198	-0.05820073	-2.228905e-06	3.765411e-06	0.01428805	0.005091955
	0.01441342	0.004788153	-2.228905e-06	3.765411e-06	-0.0989629	-0.05846977	-3.425622e-05	2.936956e-05
	-6.910838e-05	-0.0001595254	0.01428805	0.005091955	-3.425622e-05	2.936956e-05	-0.0987741	-0.05808717
1.3e+08	-0.1079869	-0.05028019	-0.0001103415	0.0001031115	0.01509928	0.003438816	-0.0001204865	-0.0001994405
	-0.0001103415	0.0001031115	-0.10829	-0.04880387	-1.932286e-06	3.773103e-06	0.01499964	0.003794792
	0.01509928	0.003438816	-1.932286e-06	3.773103e-06	-0.1084659	-0.04914784	-3.033505e-05	3.275021e-05
	-0.0001204865	-0.0001994405	0.01499964	0.003794792	-3.033505e-05	3.275021e-05	-0.1082874	-0.04867523
1.4e+08	-0.1155182	-0.03937603	-9.843157e-05	0.0001123558	0.01548281	0.001992852	-0.0001828334	-0.0002249708
	-9.843157e-05	0.0001123558	-0.1156901	-0.03782677	-1.632263e-06	3.762712e-06	0.01541751	0.002395807
	0.01548281	0.001992852	-1.632263e-06	3.762712e-06	-0.1158722	-0.03824508	-2.597813e-05	3.540394e-05
	-0.0001828334	-0.0002249708	0.01541751	0.002395807	-2.597813e-05	3.540394e-05	-0.1156799	-0.0376833
1.5e+08	-0.1206938	-0.02733684	-8.581465e-05	0.0001200768	0.01555493	0.0005125988	-0.0002526498	-0.0002336872
	-8.581465e-05	0.0001200768	-0.1207213	-0.02573381	-1.337116e-06	3.72857e-06	0.01553167	0.0009553257
	0.01555493	0.0005125989	-1.337116e-06	3.72857e-06	-0.1209278	-0.0262202	-2.136125e-05	3.726726e-05
	-0.0002526498	-0.0002336872	0.01553167	0.0009553257	-2.136125e-05	3.726726e-05	-0.1207007	-0.02557657
1.6e+08	-0.123357	-0.01465696	-7.268201e-05	0.0001262234	0.01531834	-0.0009402224	-0.0003257086	-0.0002241026
	-7.268201e-05	0.0001262234	-0.1232304	-0.01302331	-1.055266e-06	3.669262e-06	0.01534333	-0.0004667616
	0.01531834	-0.0009402223	-1.055266e-06	3.669262e-06	-0.1234762	-0.01356707	-1.667036e-05	3.832384e-05
	-0.0003257086	-0.0002241026	0.01534333	-0.0004667616	-1.667036e-05	3.832384e-05	-0.1231968	-0.01285415
1.7e+08	-0.1234509	-0.001846319	-5.925111e-05	0.0001307773	0.0147869	-0.002306356	-0.0003974453	-0.0001958636
	-5.925111e-05	0.0001307773	-0.1231651	-0.0002084095	-7.945387e-07	3.587047e-06	0.0148644	-0.00181271
	0.0147869	-0.002306356	-7.945387e-07	3.587047e-06	-0.123461	-0.0007953139	-1.208635e-05	3.860483e-05
	-0.0003974453	-0.0001958636	0.0148644	-0.00181271	-1.208635e-05	3.860483e-05	-0.1231163	-2.993563e-05
1.8e+08	-0.1210181	0.01058822	-4.574558e-05	0.0001337608	0.01398483	-0.003530674	-0.0004633205	-0.0001498058
	-4.574558e-05	0.0001337608	-0.1205733	0.01220178	-5.612025e-07	3.487281e-06	0.0141168	-0.003028471
	0.01398483	-0.003530674	-5.612025e-07	3.487281e-06	-0.120926	0.01158844	-7.772835e-06	3.818485e-05
	-0.0004633205	-0.0001498058	0.0141168	-0.003028471	-7.772835e-06	3.818485e-05	-0.1205077	0.01238634
1.9e+08	-0.1161975	0.02216087	-3.23804e-05	0.0001352379	0.01294588	-0.004563692	-0.0005191587	-8.790226e-05
	-3.23804e-05	0.0001352379	-0.1155998	0.02372041	-3.591266e-07	3.377607e-06	0.01313167	-0.00406512
	0.01294588	-0.004563692	-3.591266e-07	3.377607e-06	-0.1160112	0.02309883	-3.866152e-06	3.717583e-05
	-0.0005191587	-8.790226e-05	0.01313167	-0.00406512	-3.866152e-06	3.717583e-05	-0.1155166	0.02390735
2e+08	-0.1092178	0.03242402	-1.935007e-05	0.000135311	0.01171229	-0.005362982	-0.000561448	-1.31213e-05
	-1.935007e-05	0.000135311	-0.1084801	0.03390015	-1.891954e-07	3.26692e-06	0.0119485	-0.004880208
	0.01171229	-0.005362982	-1.891954e-07	3.26692e-06	-0.1089471	0.03328888	-4.672073e-07	3.57189e-05
	-0.000561448	-1.31213e-05	0.0119485	-0.004880208	-4.672073e-07	3.57189e-05	-0.1083792	0.03408548
2.1e+08	-0.1003895	0.04098412	-6.818637e-06	0.0001341155	0.01033359	-0.00589452	-0.0005875856	7.079256e-05
	-6.818637e-06	0.0001341155	-0.09953069	0.04234913	-4.909001e-08	3.16423e-06	0.0106141	-0.005439077
	0.01033359	-0.00589452	-4.909001e-08	3.16423e-06	-0.1000455	0.04176598	2.364951e-06	3.39749e-05
	-0.0005875856	7.079256e-05	0.0106141	-0.005439076	2.364951e-06	3.39749e-05	-0.0994133	0.0425288
2.2e+08	-0.09009262	0.04751582	5.088193e-06	0.0001318112	0.008865301	-0.006133966	-0.0005960533	0.0001595945
	5.088193e-06	0.0001318112	-0.08913817	0.04874525	6.65379e-08	3.077498e-06	0.009181318	-0.005716126
	0.008865301	-0.006133966	6.65379e-08	3.077498e-06	-0.08968815	0.04820613	4.617528e-06	3.211328e-05
	-0.0005960533	0.0001595945	0.009181318	-0.005716126	4.617528e-06	3.211328e-05	-0.08900621	0.04891535
2.3e+08	-0.07876333	0.05177424	1.628869e-05	0.0001285716	0.007367234	-0.006067828	-0.0005865103	0.000248854
	1.628869e-05	0.0001285716	-0.07774433	0.05284831	1.655081e-07	3.012644e-06	0.007707616	-0.005696012
	0.007367234	-0.006067828	1.655081e-07	3.012644e-06	-0.07831275	0.05236615	6.325854e-06	3.02995e-05
	-0.0005865103	0.000248854	0.007707616	-0.005696012	6.325854e-06	3.02995e-05	-0.07760075	0.05300531
2.4e+08	-0.0668778	0.05360467	2.674807e-05	0.0001245715	0.005901588	-0.005694448	-0.0005597933	0.0003342897
	2.674807e-05	0.0001245715	-0.06583011	0.05450965	2.572572e-07	2.972838e-06	0.006253207	-0.005374681
	0.005901588	-0.005694448	2.572571e-07	2.972838e-06	-0.06639672	0.05409342	7.572095e-06	2.868153e-05
	-0.0005597933	0.0003342897	0.006253207	-0.005374681	7.572095e-06	2.868153e-05	-0.0656787	0.05465065
2.5e+08	-0.05493421	0.05294934	3.647696e-05	0.0001199734	0.004530661	-0.005024677	-0.0005178263	0.0004120872
	3.647696e-05	0.0001199734	-0.0538972	0.05367871	3.518136e-07	2.958113e-06	0.004878932	-0.004760134
	0.004530661	-0.005024677	3.518136e-07	2.958113e-06	-0.05443921	0.05333263	8.479773e-06	2.737607e-05
	-0.0005178263	0.0004120872	0.004878932	-0.004760134	8.479773e-06	2.737607e-05	-0.05374249	0.05380161
2.6e+08	-0.04343342	0.04985076	4.55258e-05	0.0001149136	0.003314302	-0.00408212	-0.000463436	0.0004791869
	4.55258e-05	0.0001149136	-0.04244845	0.05040611	4.58742e-07	2.965398e-06	0.003643801	-0.003872783
	0.003314302	-0.00408212	4.58742e-07	2.965398e-06	-0.04294162	0.05012899	9.203981e-06	2.645601e-05
	-0.000463436	0.0004791869	0.003643801	-0.003872783	9.203981e-06	2.645601e-05	-0.04229552	0.05050983
2.7e+08	-0.03285888	0.0444512	5.397434e-05	0.0001094912	0.002307154	-0.002902811	-0.0004000955	0.000533505
	5.397434e-05	0.0001094912	-0.03196752	0.04484281	5.861931e-07	2.988869e-06	0.002602324	-0.002745264
	0.002307154	-0.002902811	5.861931e-07	2.988869e-06	-0.03238744	0.04462772	9.917118e-06	2.594085e-05
	-0.0004000955	0.000533505	0.002602324	-0.002745264	9.917118e-06	2.594085e-05	-0.03182177	0.04492735
2.8e+08	-0.02365658	0.03698807	6.19175e-05	0.0001037599	0.001555861	-0.001534219	-0.0003316015	0.0005740744
	6.19175e-05	0.0001037599	-0.02289869	0.03723505	7.401979e-07	3.020604e-06	0.001801758	-0.001421602
	0.001555861	-0.001534219	7.401979e-07	3.020604e-06	-0.0232221	0.03706923	1.079132e-05	2.579172e-05
	-0.0003316015	0.0005740744	0.001801758	-0.001421602	1.079132e-05	2.579172e-05	-0.02276561	0.03730166
2.9e+08	-0.01621591	0.02778506	6.94482e-05	9.772564e-05	0.00109642	-3.352293e-05	-0.0002617285	0.0006010795
	6.94482e-05	9.772564e-05	-0.01562771	0.02791506	9.242198e-07	3.051346e-06	0.001279481	4.435556e-05
	0.00109642	-3.352293e-05	9.242198e-07	3.051346e-06	-0.01583383	0.02778017	1.197893e-05	2.591257e-05
	-0.0002617285	0.0006010795	0.001279481	4.435556e-05	1.197893e-05	2.591257e-05	-0.01551257	0.02796622
3e+08	-0.01085255	0.01723916	7.663987e-05	9.135033e-05	0.0009519203	0.00153483	-0.0001938867	0.0006157839
	7.663987e-05	9.135033e-05	-0.01046468	0.01728765	1.138991e-06	3.071309e-06	0.001060703	0.0015912
	0.0009519203	0.00153483	1.138991e-06	3.071309e-06	-0.01053657	0.01716029	1.359363e-05	2.615829e-05
	-0.0001938867	0.0006157839	0.001060703	0.0015912	1.359363e-05	2.615829e-05	-0.01037228	0.01732703
3.1e+08	-0.00779424	0.00580407	8.353118e-05	8.456207e-05	0.001130888	0.003102179	-0.0001308037	0.0006203571
	8.353118e-05	8.456207e-05	-0.007630011	0.005813129	1.382613e-06	3.07093e-06	0.001156748	0.003152853
	0.001130888	0.003102179	1.382613e-06	3.07093e-06	-0.007555714	0.005665745	1.56949e-05	2.634938e-05
	-0.0001308037	0.0006203571	0.001156749	0.003152853	1.56949e-05	2.634938e-05	-0.007564394	0.005845512
3.2e+08	-0.007170473	-0.006029396	9.011508e-05	7.727064e-05	0.001626437	0.004599141	-7.429173e-05	0.0006176059
	9.011508e-05	7.727064e-05	-0.007244385	-0.006012635	1.650774e-06	3.041475e-06	0.001564107	0.004661911
	0.001626437	0.004599141	1.650774e-06	3.041475e-06	-0.007017917	-0.006210692	1.827811e-05	2.629183e-05
	-7.429173e-05	0.0006176059	0.001564107	0.004661911	1.827811e-05	2.629183e-05	-0.007208597	-0.005981526
3.3e+08	-0.009006614	-0.01775487	9.633534e-05	6.938631e-05	0.002416348	0.0059593	-2.514075e-05	0.0006106557
	9.633534e-05	6.938631e-05	-0.009323296	-0.01768015	1.937098e-06	2.975538e-06	0.002264375	0.006053195
	0.002416348	0.0059593	1.937098e-06	2.975538e-06	-0.008945316	-0.01796126	2.127259e-05	2.579978e-05
	-2.514075e-05	0.0006106557	0.002264375	0.006053195	2.127259e-05	2.579978e-05	-0.009319121	-0.01764388
3.4e+08	-0.01322301	-0.02887285	0.00010197	6.085132e-05	0.003464121	0.007122792	3.010287e-05	0.0005983997
	0.00010197	6.085132e-05	-0.01377654	-0.02868895	2.234778e-06	2.866616e-06	0.00322515	0.007267246
	0.003464121	0.007122792	2.234778e-06	2.866616e-06	-0.01325479	-0.02908572	2.443071e-05	2.473562e-05
	3.010287e-05	0.0005983997	0.00322515	0.007267246	2.443071e-05	2.473562e-05	-0.01380434	-0.02864066
3.5e+08	-0.01963923	-0.03891278	0.000106994	5.164281e-05	0.004720948	0.008039511	8.028707e-05	0.0005843939
	0.000106994	5.164281e-05	-0.02041292	-0.03856979	2.532598e-06	2.711561e-06	0.004401804	0.008253467
	0.004720948	0.008039511	2.532598e-06	2.711561e-06	-0.01976227	-0.0391135	2.769047e-05	2.299902e-05
	8.028707e-05	0.0005843939	0.004401804	0.008253467	2.769047e-05	2.299902e-05	-0.02047159	-0.03850248
3.6e+08	-0.02798294	-0.04745345	0.0001112639	4.176743e-05	0.006128435	0.008671679	0.0001251692	0.0005713756
	0.0001112639	4.176743e-05	-0.02894963	-0.04690508	2.820194e-06	2.50959e-06	0.005740017	0.008972678
	0.006128435	0.008671679	2.820194e-06	2.50959e-06	-0.02819184	-0.04762411	3.086575e-05	2.053709e-05
	0.0001251692	0.0005713756	0.005740017	0.008972678	3.086575e-05	2.053709e-05	-0.02903658	-0.04681198
3.7e+08	-0.037903	-0.05414079	0.0001146112	3.128666e-05	0.007621859	0.008995586	0.0001671454	0.0005607784
	0.0001146112	3.128666e-05	-0.03902598	-0.05334664	3.087344e-06	2.262337e-06	0.007178829	0.009398885
	0.007621859	0.008995586	3.087344e-06	2.262337e-06	-0.03818902	-0.05426493	3.374442e-05	1.736589e-05
	0.0001671454	0.0005607784	0.007178829	0.009398885	3.374442e-05	1.736589e-05	-0.03913714	-0.0532215
3.8e+08	-0.04898604	-0.05870213	0.0001168803	2.03159e-05	0.009133686	0.009002416	0.0002088944	0.000553025
	0.0001168803	2.03159e-05	-0.05022034	-0.05762964	3.324362e-06	1.973984e-06	0.008653964	0.00952018
	0.009133686	0.009002416	3.324362e-06	1.973984e-06	-0.0493374	-0.05876536	3.612959e-05	1.35671e-05
	0.0002088944	0.000553025	0.008653964	0.00952018	3.612959e-05	1.35671e-05	-0.05035028	-0.05746706
3.9e+08	-0.06077528	-0.06095626	0.0001179462	9.016879e-06	0.01059706	0.008698148	0.0002530332	0.0005475051
	0.0001179462	9.016879e-06	-0.0620694	-0.05958238	3.522798e-06	1.651135e-06	0.01010115	0.009338757
	0.01059706	0.008698148	3.522798e-06	1.651135e-06	-0.0611777	-0.06094682	3.785945e-05	9.278136e-06
	0.0002530332	0.0005475051	0.01010115	0.009338757	3.785945e-05	9.278136e-06	-0.06221157	-0.05937811
4e+08	-0.07279073	-0.06081905	0.0001177268	-2.414693e-06	0.01194904	0.008102626	0.0003017876	0.0005426638
	0.0001177268	-2.414693e-06	-0.07408869	-0.05913155	3.676137e-06	1.302475e-06	0.0114592	0.008870142
	0.01194904	0.008102626	3.676137e-06	1.302475e-06	-0.07322796	-0.06072825	3.882187e-05	4.676687e-06
	0.0003017876	0.0005426638	0.0114592	0.008870142	3.882187e-05	4.676687e-06	-0.07423562	-0.05888273
4.1e+08	-0.08454951	-0.05830472	0.0001161906	-1.376458e-05	0.01313334	0.007247956	0.0003567155	0.000536182
	0.0001161906	-1.376458e-05	-0.08579319	-0.05630299	3.780418e-06	9.381586e-07	0.01267265	0.008141762
	0.01313334	0.007247956	3.780418e-06	9.381586e-07	-0.08500399	-0.05812724	3.896256e-05	-3.780614e-08
	0.0003567155	0.000536182	0.01267265	0.008141762	3.896256e-05	-3.780614e-08	-0.08593681	-0.05600833
4.2e+08	-0.09558555	-0.05352283	0.0001133585	-2.481595e-05	0.0141025	0.006176408	0.0004185018	0.0005252282
	0.0001133585	-2.481595e-05	-0.09671706	-0.05121824	3.83464e-06	5.689819e-07	0.0136939	0.007191066
	0.0141025	0.006176408	3.83464e-06	5.689819e-07	-0.09603908	-0.05325693	3.828653e-05	-4.663149e-06
	0.0004185018	0.0005252282	0.0136939	0.007191066	3.828653e-05	-4.663149e-06	-0.09684903	-0.05087812
4.3e+08	-0.1054676	-0.04667165	0.0001093006	-3.536397e-05	0.01481946	0.004938055	0.0004868416	0.000506758
	0.0001093006	-3.536397e-05	-0.1064318	-0.04408735	3.840873e-06	2.054269e-07	0.01448468	0.006063364
	0.01481946	0.004938055	3.840873e-06	2.054269e-07	-0.1059021	-0.04631917	3.685381e-05	-9.011663e-06
	0.0004868416	0.000506758	0.01448468	0.006063364	3.685381e-05	-9.011663e-06	-0.1065439	-0.0437039
4.4e+08	-0.1138153	-0.03802832	0.0001041295	-4.522782e-05	0.01525843	0.003588304	0.0005604193	0.0004778247
	0.0001041295	-4.522782e-05	-0.1145621	-0.0351986	3.804022e-06	-1.433233e-07	0.01501702	0.004809579
	0.01525843	0.003588304	3.804022e-06	-1.433233e-07	-0.1142134	-0.03759461	3.477061e-05	-1.292428e-05
	0.0005604193	0.0004778247	0.01501702	0.004809579	3.477061e-05	-1.292428e-05	-0.1146465	-0.03477564
4.5e+08	-0.1203124	-0.0279365	9.799094e-05	-5.425951e-05	0.01540528	0.002185489	0.0006369779	0.0004358803
	9.799094e-05	-5.425951e-05	-0.120799	-0.02490562	3.73126e-06	-4.702461e-07	0.01527371	0.003484044
	0.01540528	0.002185489	3.73126e-06	-4.702461e-07	-0.1206581	-0.02743017	3.217779e-05	-1.628062e-05
	0.0006369779	0.0004358803	0.01527371	0.003484044	3.217779e-05	-1.628062e-05	-0.1208487	-0.02444858
4.6e+08	-0.1247174	-0.01679216	9.10535e-05	-6.234947e-05	0.01525748	0.0007886132	0.0007134695	0.0003790369
	9.10535e-05	-6.234947e-05	-0.1249103	-0.01361282	3.63117e-06	-7.711178e-07	0.01524831	0.002142433
	0.01525748	0.0007886132	3.63117e-06	-7.711178e-07	-0.1249968	-0.01622479	2.923787e-05	-1.900507e-05
	0.0007134695	0.0003790369	0.01524831	0.002142433	2.923787e-05	-1.900507e-05	-0.1249195	-0.01312855
4.7e+08	-0.1268712	-0.005028012	8.349809e-05	-6.94289e-05	0.01482368	-0.0005446915	0.0007862713	0.0003062762
	8.349809e-05	-6.94289e-05	-0.1267478	-0.001759421	3.512715e-06	-1.044762e-06	0.01494487	0.0008398717
	0.01482368	-0.0005446915	3.512715e-06	-1.044762e-06	-0.1270728	-0.004413712	2.612206e-05	-2.106889e-05
	0.0007862713	0.0003062762	0.01494487	0.0008398717	2.612206e-05	-2.106889e-05	-0.126712	-0.001255961
4.8e+08	-0.1267016	0.006902745	7.550806e-05	-7.547022e-05	0.01412299	-0.001759996	0.0008514487	0.0002175858
