!$
! Info: Touchstone file created by Circ.  Input file=Tx_14in_Rx_93ohms_TxVia_10mils_RxVia_20mils.circ
!$
# Hz S RI R 50
0	0.01280211	9.441777e-26	3.195992e-09	5.464518e-27	8.612232e-05	1.306843e-23	-3.498168e-09	4.617941e-25
	3.195984e-09	5.464651e-27	0.0128017	1.226144e-25	-3.206994e-09	4.407864e-25	8.557731e-05	1.821987e-23
	8.839537e-05	1.309848e-23	-3.205084e-09	4.405502e-25	0.01279432	8.249634e-26	1.258949e-08	2.230011e-29
	-3.495467e-09	4.614616e-25	8.703194e-05	1.875261e-23	1.258958e-08	2.214329e-29	0.01280724	1.169054e-25
1e+07	0.01850503	-0.002212332	5.461013e-09	7.471326e-09	0.0005394146	0.002463647	1.672168e-08	5.383652e-08
	5.461013e-09	7.471327e-09	0.01849834	-0.002213859	-3.659631e-10	5.790927e-08	0.000535183	0.002465069
	0.0005394634	0.002463621	-3.659629e-10	5.790927e-08	0.01813751	-0.002207926	-7.184958e-09	4.535886e-08
	1.672168e-08	5.383652e-08	0.0005352162	0.002465058	-7.184959e-09	4.535886e-08	0.0181309	-0.002209532
2e+07	0.02066397	-0.009234038	9.205877e-09	1.215392e-08	0.001499194	0.004780689	4.573046e-08	6.404382e-08
	9.205877e-09	1.215392e-08	0.02063796	-0.009232156	2.809018e-09	8.034816e-08	0.001483462	0.004787436
	0.001499186	0.004780663	2.809019e-09	8.034816e-08	0.02039538	-0.009107449	6.336995e-10	4.504818e-08
	4.573047e-08	6.404382e-08	0.001483459	0.004787414	6.336988e-10	4.504818e-08	0.02037015	-0.009105334
3e+07	0.01951033	-0.01746478	1.352296e-08	1.505793e-08	0.003112625	0.006588132	8.526122e-08	5.989254e-08
	1.352296e-08	1.505793e-08	0.01945469	-0.01744928	9.073391e-09	1.065455e-07	0.003080284	0.006606637
	0.003112626	0.006588128	9.073391e-09	1.065455e-07	0.01931273	-0.01731663	9.631892e-09	4.876489e-08
	8.526122e-08	5.989254e-08	0.003080279	0.006606634	9.631892e-09	4.876489e-08	0.01926005	-0.01730158
4e+07	0.01568568	-0.02523609	1.774708e-08	1.595825e-08	0.005190763	0.007801926	1.219142e-07	3.908451e-08
	1.774708e-08	1.595825e-08	0.01559489	-0.02519288	1.322335e-08	1.320561e-07	0.005139573	0.007840399
	0.005190768	0.007801922	1.322335e-08	1.320561e-07	0.01553978	-0.02509522	1.939187e-08	4.849363e-08
	1.219142e-07	3.908451e-08	0.005139572	0.0078404	1.939187e-08	4.849363e-08	0.01545344	-0.02505432
5e+07	0.009722006	-0.03172477	2.117713e-08	1.498247e-08	0.007482913	0.008375863	1.510744e-07	3.528685e-09
	2.117713e-08	1.498247e-08	0.009596411	-0.03163802	1.558953e-08	1.581167e-07	0.007414096	0.008443222
	0.007482914	0.00837586	1.558953e-08	1.581167e-07	0.009608966	-0.03160397	2.791157e-08	4.34892e-08
	1.510744e-07	3.528685e-09	0.007414096	0.008443222	2.791157e-08	4.34892e-08	0.009489166	-0.03152133
6e+07	0.002209973	-0.03638493	2.31485e-08	1.24574e-08	0.009804367	0.00828448	1.679377e-07	-4.446052e-08
	2.31485e-08	1.24574e-08	0.002056156	-0.03623935	1.70317e-08	1.851582e-07	0.009722665	0.008388989
	0.009804367	0.008284482	1.70317e-08	1.851582e-07	0.002113423	-0.0362879	3.329897e-08	3.481774e-08
	1.679377e-07	-4.446052e-08	0.009722662	0.00838899	3.329897e-08	3.481774e-08	0.00196704	-0.0361489
7e+07	-0.006202165	-0.03888868	2.310034e-08	8.923237e-09	0.01197069	0.007553435	1.679995e-07	-1.007827e-07
	2.310035e-08	8.923236e-09	-0.006371878	-0.03867174	1.826573e-08	2.132329e-07	0.01188395	0.007701474
	0.01197069	0.007553439	1.826573e-08	2.132329e-07	-0.00629552	-0.03881373	3.43175e-08	2.433367e-08
	1.679995e-07	-1.007827e-07	0.01188395	0.007701476	3.43175e-08	2.433367e-08	-0.006456807	-0.03860696
8e+07	-0.01484268	-0.03911164	2.065582e-08	5.112044e-09	0.01381296	0.006257703	1.480993e-07	-1.595882e-07
	2.065582e-08	5.112043e-09	-0.01501146	-0.03881554	1.990823e-08	2.42203e-07	0.01373137	0.006452756
	0.01381296	0.006257708	1.990823e-08	2.42203e-07	-0.01494308	-0.03905375	3.06051e-08	1.414449e-08
	1.480993e-07	-1.595882e-07	0.01373136	0.00645276	3.06051e-08	1.414449e-08	-0.01510396	-0.03877173
9e+07	-0.02305793	-0.03712047	1.569501e-08	1.884698e-09	0.01519103	0.004514945	1.071634e-07	-2.138762e-07
	1.569501e-08	1.884697e-09	-0.02320628	-0.03674352	2.240149e-08	2.718577e-07	0.01512606	0.004756875
	0.01519103	0.004514948	2.240149e-08	2.718577e-07	-0.02317292	-0.03707266	2.264331e-08	6.214994e-09
	1.071634e-07	-2.138762e-07	0.01512606	0.004756879	2.264331e-08	6.214994e-09	-0.02331528	-0.03671285
1e+08	-0.03023489	-0.03315049	8.398237e-09	1.380279e-10	0.01600349	0.002474774	4.659583e-08	-2.563212e-07
	8.398237e-09	1.380279e-10	-0.03034274	-0.03269791	2.609714e-08	3.017469e-07	0.01596666	0.002759449
	0.01600349	0.002474774	2.609714e-08	3.017469e-07	-0.03037267	-0.03310548	1.158661e-08	2.041989e-09
	4.659583e-08	-2.563212e-07	0.01596666	0.002759449	1.158661e-08	2.041989e-09	-0.03047692	-0.03267153
1.1e+08	-0.03593984	-0.02772638	-7.266816e-10	6.860885e-10	0.01619416	0.0003122774	-2.788758e-08	-2.813754e-07
	-7.266816e-10	6.860887e-10	-0.03598937	-0.02720866	2.904945e-08	3.331095e-07	0.01619522	0.0006312643
	0.01619416	0.0003122772	2.904945e-08	3.331095e-07	-0.0360987	-0.0276588	-5.582835e-10	3.026107e-09
	-2.788758e-08	-2.813754e-07	0.01619522	0.0006312642	-5.582834e-10	3.026107e-09	-0.03614693	-0.02716152
1.2e+08	-0.03991314	-0.02118282	-1.091108e-08	4.141524e-09	0.01576364	-0.001796318	-1.125252e-07	-2.836646e-07
	-1.091108e-08	4.141524e-09	-0.03988936	-0.02061854	3.306004e-08	3.641791e-07	0.01581027	-0.001454379
	0.01576364	-0.001796318	3.306004e-08	3.641791e-07	-0.04007687	-0.02108673	-1.408508e-08	7.870325e-09
	-1.125252e-07	-2.836646e-07	0.01581027	-0.001454379	-1.408508e-08	7.870325e-09	-0.04005424	-0.02054446
1.3e+08	-0.04190837	-0.01405328	-2.121141e-08	1.086492e-08	0.01475564	-0.00368322	-2.000975e-07	-2.597744e-07
	-2.121141e-08	1.086492e-08	-0.04180264	-0.01346586	3.804913e-08	3.945758e-07	0.01485168	-0.003332328
	0.01475564	-0.00368322	3.804913e-08	3.945758e-07	-0.04206482	-0.01392833	-2.774935e-08	1.704322e-08
	-2.000975e-07	-2.597744e-07	0.01485168	-0.003332328	-2.774935e-08	1.704322e-08	-0.04196302	-0.01336402
1.4e+08	-0.04186784	-0.006909563	-3.057608e-08	2.090727e-08	0.01325797	-0.005199912	-2.823458e-07	-2.08605e-07
	-3.057608e-08	2.090727e-08	-0.0416792	-0.00632507	4.380271e-08	4.239767e-07	0.01340269	-0.004855373
	0.01325797	-0.005199912	4.380271e-08	4.239767e-07	-0.04200653	-0.00675932	-4.016703e-08	3.060972e-08
	-2.823458e-07	-2.08605e-07	0.01340269	-0.004855373	-4.016703e-08	3.060972e-08	-0.04182487	-0.006198276
1.5e+08	-0.03989767	-0.0003075809	-3.795037e-08	3.39812e-08	0.01139483	-0.006228491	-3.507215e-07	-1.316572e-07
	-3.795037e-08	3.39812e-08	-0.03963351	0.0002477175	4.999981e-08	4.521477e-07	0.01158259	-0.005905419
	0.01139483	-0.006228491	4.999981e-08	4.521477e-07	-0.04001038	-0.0001387894	-4.994863e-08	4.819367e-08
	-3.507215e-07	-1.316572e-07	0.01158259	-0.005905418	-4.994863e-08	4.819367e-08	-0.03975624	0.0003936831
1.6e+08	-0.03625157	0.00525561	-4.238495e-08	4.946866e-08	0.009316987	-0.006690016	-3.971939e-07	-3.308451e-08
	-4.238495e-08	4.946866e-08	-0.03592757	0.005757836	5.625087e-08	4.789743e-07	0.009537385	-0.006401786
	0.009316987	-0.006690017	5.625087e-08	4.789743e-07	-0.03633296	0.005433924	-5.583884e-08	6.898581e-08
	-3.971939e-07	-3.308451e-08	0.009537385	-0.006401786	-5.583884e-08	6.898581e-08	-0.03602165	0.005914981
1.7e+08	-0.03130634	0.00937825	-4.31374e-08	6.64632e-08	0.007190291	-0.006549991	-4.150588e-07	8.049896e-08
	-4.31374e-08	6.64632e-08	-0.03094559	0.009808445	6.214319e-08	5.04476e-07	0.007428736	-0.006306762
	0.007190291	-0.006549991	6.214319e-08	5.04476e-07	-0.03135436	0.009555808	-5.684871e-08	9.179561e-08
	-4.150588e-07	8.049896e-08	0.007428736	-0.006306762	-5.684871e-08	9.179561e-08	-0.03100822	0.009967426
1.8e+08	-0.02552947	0.01178208	-3.975592e-08	8.38423e-08	0.005183158	-0.00582068	-3.996779e-07	2.004536e-07
	-3.975592e-08	8.38423e-08	-0.02516093	0.01212844	6.728679e-08	5.288042e-07	0.005421928	-0.005628133
	0.005183158	-0.00582068	6.728679e-08	5.288042e-07	-0.02554553	0.01194842	-5.236715e-08	1.151422e-07
	-3.996779e-07	2.004536e-07	0.005421928	-0.005628133	-5.236715e-08	1.151422e-07	-0.02519242	0.01227948
1.9e+08	-0.01944129	0.01233075	-3.213718e-08	1.003622e-07	0.003453858	-0.004560093	-3.490763e-07	3.167673e-07
	-3.213718e-08	1.003622e-07	-0.0190975	0.01259036	7.135461e-08	5.522255e-07	0.003673499	-0.004418504
	0.003453858	-0.004560093	7.135461e-08	5.522255e-07	-0.01943004	0.01247629	-4.224078e-08	1.373763e-07
	-3.490763e-07	3.167673e-07	0.003673499	-0.004418504	-4.224078e-08	1.373763e-07	-0.01910119	0.01272418
2e+08	-0.01357375	0.01103734	-2.055336e-08	1.147655e-07	0.002138399	-0.00286761	-2.643347e-07	4.188832e-07
	-2.055336e-08	1.147655e-07	-0.01328812	0.0112172	7.411289e-08	5.750942e-07	0.00231939	-0.002771369
	0.002138399	-0.00286761	7.411289e-08	5.750942e-07	-0.0135427	0.0111543	-2.681471e-08	1.568209e-07
	-2.643347e-07	4.188832e-07	0.00231939	-0.002771369	-2.681471e-08	1.568209e-07	-0.01327007	0.01132589
2.1e+08	-0.008429229	0.00806056	-5.646723e-09	1.258927e-07	0.001339896	-0.0008764315	-1.497237e-07	4.96637e-07
	-5.646723e-09	1.258927e-07	-0.008232952	0.008177742	7.543993e-08	5.978196e-07	0.001464439	-0.0008140721
	0.001339896	-0.0008764315	7.543993e-08	5.978196e-07	-0.008388002	0.008143693	-6.930654e-09	1.719209e-07
	-1.497237e-07	4.96637e-07	0.001464439	-0.0008140721	-6.930654e-09	1.719209e-07	-0.008201443	0.008255484
2.2e+08	-0.004441919	0.003689854	1.160694e-08	1.327875e-07	0.001120308	0.001256737	-1.254967e-08	5.412251e-07
	1.160694e-08	1.327875e-07	-0.004360999	0.003770756	7.533411e-08	6.208317e-07	0.001174075	0.001301965
	0.001120308	0.001256737	7.533411e-08	6.208317e-07	-0.00440144	0.003737007	1.61179e-08	1.813863e-07
	-1.254967e-08	5.412251e-07	0.001174075	0.001301965	1.61179e-08	1.813863e-07	-0.004325784	0.0038144
2.3e+08	-0.001945099	-0.001679336	2.996293e-08	1.347887e-07	0.001495285	0.003364056	1.372954e-07	5.461117e-07
	2.996293e-08	1.347887e-07	-0.001997553	-0.001600643	7.391322e-08	6.445494e-07	0.001468973	0.003413096
	0.001495285	0.003364056	7.391322e-08	6.445494e-07	-0.001916607	-0.001666986	4.067046e-08	1.843207e-07
	1.372954e-07	5.461117e-07	0.001468973	0.003413096	4.067046e-08	1.843207e-07	-0.001969026	-0.001591262
2.4e+08	-0.001146564	-0.007578289	4.799602e-08	1.316035e-07	0.002432721	0.005280048	2.880562e-07	5.077841e-07
	4.799602e-08	1.316035e-07	-0.001340201	-0.007462548	7.140751e-08	6.693511e-07	0.002323254	0.005356494
	0.002432721	0.005280048	7.140751e-08	6.693511e-07	-0.001140615	-0.007596272	6.481892e-08	1.803223e-07
	2.880562e-07	5.077841e-07	0.002323254	0.005356494	6.481892e-08	1.803223e-07	-0.001328488	-0.007484532
2.5e+08	-0.002114207	-0.01350309	6.420729e-08	1.233546e-07	0.003855252	0.006855072	4.270567e-07	4.262728e-07
	6.420729e-08	1.233546e-07	-0.002445186	-0.01330896	6.814799e-08	6.955479e-07	0.003666501	0.006983292
	0.003855252	0.006855072	6.814799e-08	6.955479e-07	-0.002139731	-0.01354396	8.655413e-08	1.695504e-07
	4.270567e-07	4.262728e-07	0.003666501	0.006983292	8.655413e-08	1.695504e-07	-0.002459259	-0.01335655
2.6e+08	-0.004772829	-0.01895501	7.714333e-08	1.105983e-07	0.005646598	0.007967586	5.41784e-07	3.05371e-07
	7.714333e-08	1.105983e-07	-0.005225177	-0.01864258	6.454998e-08	7.233583e-07	0.005389537	0.008170654
	0.005646598	0.007967586	6.454998e-08	7.233583e-07	-0.00483634	-0.01900891	1.0393e-07	1.527496e-07
	5.41784e-07	3.05371e-07	0.005389537	0.008170655	1.0393e-07	1.527496e-07	-0.005272082	-0.01870754
2.7e+08	-0.00891244	-0.02347976	8.552194e-08	9.431037e-08	0.007661234	0.008534053	6.210143e-07	1.525183e-07
	8.552194e-08	9.431037e-08	-0.009458626	-0.02301413	6.109098e-08	7.528847e-07	0.007353475	0.008831674
	0.007661234	0.008534053	6.109098e-08	7.528847e-07	-0.009017345	-0.02353525	1.152337e-07	1.312265e-07
	6.210143e-07	1.525183e-07	0.007353475	0.008831674	1.152337e-07	1.312265e-07	-0.009542766	-0.02308647
2.8e+08	-0.01420688	-0.02670271	8.835307e-08	7.583412e-08	0.009736527	0.008515577	6.558756e-07	-2.165498e-08
	8.835307e-08	7.583412e-08	-0.01480945	-0.02605731	5.828054e-08	7.840934e-07	0.009401244	0.008922173
	0.009736527	0.008515577	5.828054e-08	7.840934e-07	-0.01435316	-0.02674774	1.191492e-07	1.067769e-07
	6.558756e-07	-2.165498e-08	0.009401244	0.008922173	1.191492e-07	1.067769e-07	-0.01493221	-0.02612615
2.9e+08	-0.02024141	-0.02835713	8.504636e-08	5.679373e-08	0.01170621	0.007920686	6.407452e-07	-2.040912e-07
	8.504636e-08	5.679373e-08	-0.02085558	-0.02751654	5.662177e-08	8.168005e-07	0.01137052	0.008443842
	0.01170621	0.007920685	5.662177e-08	8.168005e-07	-0.02042558	-0.02838002	1.148976e-07	8.156492e-08
	6.407452e-07	-2.040912e-07	0.01137052	0.008443842	1.148976e-07	8.156492e-08	-0.02101518	-0.02757094
3e+08	-0.02654669	-0.02830336	7.54932e-08	3.897418e-08	0.01341394	0.006804079	5.738923e-07	-3.803148e-07
	7.54932e-08	3.897418e-08	-0.02712373	-0.02726533	5.656552e-08	8.506699e-07	0.01310685	0.007443484
	0.01341394	0.006804079	5.656552e-08	8.506699e-07	-0.02676202	-0.02829383	1.023422e-07	5.796046e-08
	5.738923e-07	-3.803148e-07	0.01310685	0.007443484	1.023422e-07	5.796046e-08	-0.02731534	-0.02729524
3.1e+08	-0.03263629	-0.02653776	6.011208e-08	2.417566e-08	0.01472579	0.00526158	4.578043e-07	-5.356007e-07
	6.011208e-08	2.417566e-08	-0.03312741	-0.02531408	5.846114e-08	8.852267e-07	0.01447589	0.006008589
	0.01472579	0.00526158	5.846114e-08	8.852267e-07	-0.03287331	-0.02648778	8.20426e-08	3.83455e-08
	4.578043e-07	-5.356007e-07	0.01447589	0.006008589	8.20426e-08	3.83455e-08	-0.03334349	-0.02531118
3.2e+08	-0.03804472	-0.02319089	3.98483e-08	1.405417e-08	0.01554059	0.003421846	2.991624e-07	-6.562025e-07
	3.98483e-08	1.405417e-08	-0.03840518	-0.02180725	6.250997e-08	9.198881e-07	0.01537362	0.004259739
	0.01554059	0.003421846	6.250997e-08	9.198881e-07	-0.03829199	-0.02309541	5.524881e-08	2.490621e-08
	2.991624e-07	-6.562025e-07	0.01537362	0.004259738	5.524881e-08	2.490621e-08	-0.03863612	-0.02176565
3.3e+08	-0.0423631	-0.0185155	1.612351e-08	9.963551e-09	0.01579738	0.001435693	1.084636e-07	-7.305365e-07
	1.612351e-08	9.963551e-09	-0.04255615	-0.01701004	6.872942e-08	9.540119e-07	0.01573394	0.00234062
	0.01579738	0.001435693	6.872942e-08	9.540119e-07	-0.04260811	-0.01837291	2.383232e-08	1.942966e-08
	1.084636e-07	-7.305365e-07	0.01573394	0.00234062	2.383232e-08	1.942966e-08	-0.04279099	-0.01692678
3.4e+08	-0.04526979	-0.0128655	-9.264014e-09	1.281605e-08	0.01547952	-0.0005360158	-1.006832e-07	-7.502229e-07
	-9.264014e-09	1.281605e-08	-0.0452701	-0.01128632	7.693457e-08	9.869587e-07	0.01553313	0.0004065635
	0.01547952	-0.0005360158	7.693457e-08	9.869587e-07	-0.04549998	-0.01267779	-9.84474e-09	2.312572e-08
	-1.006832e-07	-7.502229e-07	0.01553313	0.0004065635	-9.84474e-09	2.312572e-08	-0.04549746	-0.01116164
3.5e+08	-0.04655391	-0.006667707	-3.42808e-08	2.297737e-08	0.01461535	-0.002334932	-3.125354e-07	-7.109e-07
	-3.42808e-08	2.297737e-08	-0.04635028	-0.005069383	8.674271e-08	1.018159e-06	0.01479094	-0.001387476
	0.01461535	-0.002334932	8.674271e-08	1.018159e-06	-0.04675769	-0.00644037	-4.311162e-08	3.649329e-08
	-3.125354e-07	-7.109e-07	0.01479094	-0.001387476	-4.311162e-08	3.649329e-08	-0.04655924	-0.004906739
3.6e+08	-0.04613022	-0.000388605	-5.682864e-08	4.020923e-08	0.01327541	-0.003817286	-5.103979e-07	-6.127426e-07
	-5.682864e-08	4.020923e-08	-0.04572715	0.001171946	9.760198e-08	1.047176e-06	0.01356853	-0.002898612
	0.01327541	-0.003817286	9.760198e-08	1.047176e-06	-0.04629795	-0.0001302596	-7.320676e-08	5.92458e-08
	-5.103979e-07	-6.127426e-07	0.01356853	-0.002898612	-7.320676e-08	5.92458e-08	-0.04590814	0.001366157
3.7e+08	-0.04404449	0.00550137	-7.492692e-08	6.366674e-08	0.0115667	-0.004864656	-6.779208e-07	-4.606403e-07
	-7.492692e-08	6.366674e-08	-0.0434626	0.006969435	1.088416e-07	1.07376e-06	0.01196343	-0.004006603
	0.0115667	-0.004864656	1.088416e-07	1.07376e-06	-0.0441693	0.005779647	-9.751118e-08	9.03048e-08
	-6.779208e-07	-4.606403e-07	0.01196343	-0.004006603	-9.751118e-08	9.03048e-08	-0.04360821	0.00718634
3.8e+08	-0.04046912	0.01056347	-8.688868e-08	9.195194e-08	0.009624274	-0.005392741	-8.004194e-07	-2.640106e-07
	-8.688868e-08	9.195194e-08	-0.03974421	0.01189109	1.197369e-07	1.097872e-06	0.01010192	-0.004622665
	0.009624274	-0.005392741	1.197369e-07	1.097872e-06	-0.04054746	0.010849	-1.137755e-07	1.278636e-07
	-8.004194e-07	-2.640106e-07	0.01010192	-0.004622665	-1.137755e-07	1.278636e-07	-0.03984975	0.01212004
3.9e+08	-0.03568937	0.01442367	-9.147269e-08	1.23218e-07	0.007601013	-0.005357611	-8.661186e-07	-3.624984e-08
	-9.147269e-08	1.23218e-07	-0.03487021	0.01557385	1.295806e-07	1.119695e-06	0.00812954	-0.004695976
	0.007601013	-0.005357611	1.295806e-07	1.119695e-06	-0.03572143	0.01470316	-1.2032e-07	1.695152e-07
	-8.661186e-07	-3.624984e-08	0.00812954	-0.004695976	-1.2032e-07	1.695152e-07	-0.0349342	0.01580322
4e+08	-0.03008133	0.01680071	-8.799768e-08	1.553132e-07	0.005655963	-0.004759032	-8.672232e-07	2.061552e-07
	-8.799768e-08	1.553132e-07	-0.02922635	0.0177509	1.377492e-07	1.139615e-06	0.006200093	-0.004217458
	0.005655963	-0.004759032	1.377492e-07	1.139615e-06	-0.03007106	0.01706135	-1.16189e-07	2.124334e-07
	-8.672232e-07	2.061552e-07	0.006200093	-0.004217458	-1.16189e-07	2.124334e-07	-0.02925058	0.01796905
4.1e+08	-0.02408313	0.01752722	-7.640938e-08	1.859515e-07	0.003942253	-0.003640609	-8.007244e-07	4.448017e-07
	-7.640938e-08	1.859515e-07	-0.0232561	0.01827179	1.437586e-07	1.158179e-06	0.004464073	-0.003220561
	0.003942253	-0.003640609	1.437586e-07	1.158179e-06	-0.024038	0.01775769	-1.012485e-07	2.535907e-07
	-8.007244e-07	4.448017e-07	0.004464073	-0.003220562	-1.012485e-07	2.535907e-07	-0.02324563	0.01846798
4.2e+08	-0.01816153	0.0165622	-5.729639e-08	2.128925e-07	0.002595272	-0.002086679	-6.688632e-07	6.607573e-07
	-5.729639e-08	2.128925e-07	-0.01742666	0.01711363	1.473007e-07	1.176045e-06	0.00305715	-0.00177892
	0.002595272	-0.002086679	1.473007e-07	1.176045e-06	-0.01809199	0.01675365	-7.621832e-08	2.899945e-07
	-6.688632e-07	6.607573e-07	0.00305715	-0.00177892	-7.621832e-08	2.899945e-07	-0.01738941	0.0172789
4.3e+08	-0.0127762	0.01399405	-3.185605e-08	2.341176e-07	0.001722005	-0.0002160472	-4.791937e-07	8.360605e-07
	-3.185605e-08	2.341176e-07	-0.01219304	0.01438272	1.482622e-07	1.193929e-06	0.002089611	-9.302185e-07
	0.001722005	-0.0002160472	1.482622e-07	1.193929e-06	-0.01269493	0.01414087	-4.263774e-08	3.189241e-07
	-4.791937e-07	8.360605e-07	0.002089611	-9.302188e-07	-4.263774e-08	3.189241e-07	-0.01213919	0.01451064
4.4e+08	-0.008344634	0.01003361	-1.815003e-09	2.479897e-07	0.001392391	0.001827051	-2.442152e-07	9.552171e-07
	-1.815003e-09	2.479897e-07	-0.007963042	0.01030613	1.467253e-07	1.212547e-06	0.001637558	0.001978447
	0.001392391	0.001827051	1.467253e-07	1.212547e-06	-0.008265496	0.01013397	-2.769104e-09	3.381491e-07
	-2.442152e-07	9.552171e-07	0.001637558	0.001978447	-2.769104e-09	3.381491e-07	-0.00790426	0.01039337
4.5e+08	-0.005210035	0.004997898	3.068841e-08	2.533852e-07	0.001633436	0.003884203	1.942268e-08	1.006569e-06
	3.068841e-08	2.533852e-07	-0.005065806	0.005214044	1.429562e-07	1.232566e-06	0.001736652	0.004008148
	0.001633436	0.003884203	1.429562e-07	1.232566e-06	-0.005147024	0.005053949	4.055484e-08	3.461166e-07
	1.942268e-08	1.006569e-06	0.001736652	0.004008148	4.055484e-08	3.461166e-07	-0.005014328	0.005260688
4.6e+08	-0.003615087	-0.000714524	6.325188e-08	2.497926e-07	0.00242671	0.005795415	2.920983e-07	9.834104e-07
	6.325188e-08	2.497926e-07	-0.0037265	-0.0004860586	1.373851e-07	1.254568e-06	0.002379006	0.005932947
	0.00242671	0.005795415	1.373851e-07	1.254568e-06	-0.003581096	-0.0006966993	8.412873e-08	3.420916e-07
	2.920983e-07	9.834104e-07	0.002379006	0.005932947	8.412873e-08	3.420916e-07	-0.00369407	-0.0004764646
4.7e+08	-0.003683455	-0.006654443	9.337863e-08	2.373716e-07	0.003709545	0.007412054	5.526992e-07	8.847329e-07
	9.337863e-08	2.373716e-07	-0.004049119	-0.006341184	1.305807e-07	1.279012e-06	0.003513619	0.007605913
	0.003709545	0.007412054	1.305807e-07	1.279012e-06	-0.00368932	-0.006665292	1.246064e-07	3.262446e-07
	5.526992e-07	8.847329e-07	0.003513619	0.007605913	1.246064e-07	3.262446e-07	-0.004046147	-0.006361893
