!$
! Info: Touchstone file created by Circ.  Input file=Tx_16in_Rx_100ohms_TxVia_10mils_RxVia_20mils1.circ
!$
# Hz S RI R 50
0	0.01647685	1.055742e-25	0.9833921	-1.153638e-25	9.624695e-05	1.683463e-23	-9.469598e-05	1.214947e-21
	0.9833921	-1.16267e-25	0.01647643	1.376225e-25	-9.456495e-05	1.199154e-21	9.571141e-05	2.347463e-23
	9.851972e-05	1.68733e-23	-9.45128e-05	1.192861e-21	0.01646884	9.226385e-26	0.9833624	-1.036413e-25
	-9.510118e-05	1.264662e-21	9.716467e-05	2.416102e-23	0.9833624	-1.081928e-25	0.01648193	1.312075e-25
1e+07	0.02470074	0.008703724	0.9628216	-0.1621635	0.001160871	0.002745573	-0.0007448936	-0.0001435908
	0.9628216	-0.1621635	0.02469662	0.008700877	-0.0007449127	-0.0001435656	0.001156418	0.002747061
	0.00116092	0.002745546	-0.0007448777	-0.0001435902	0.02447836	0.008745838	0.963033	-0.1622868
	-0.0007448586	-0.0001436154	0.001156452	0.00274705	0.963033	-0.1622868	0.0244743	0.008742848
2e+07	0.03252347	0.01041238	0.9189446	-0.3131876	0.002287895	0.005476583	-0.0006827999	-0.0005458011
	0.9189446	-0.3131876	0.03250704	0.01040951	-0.00068278	-0.0005457785	0.002271685	0.005484151
	0.002287888	0.005476557	-0.0006827862	-0.0005458057	0.03239045	0.01055922	0.9190282	-0.3134923
	-0.0006827986	-0.0005458367	0.002271683	0.005484129	0.9190282	-0.3134923	0.03237484	0.01055654
3e+07	0.03884428	0.008482221	0.8537814	-0.4531466	0.004139462	0.007433042	-0.0006911591	-0.0006743613
	0.8537814	-0.4531466	0.0388086	0.008486294	-0.0006911431	-0.0006743735	0.004106887	0.00745412
	0.004139462	0.007433039	-0.0006911467	-0.0006743766	0.03878784	0.008657491	0.8537278	-0.4535436
	-0.0006911629	-0.0006743666	0.004106882	0.007454118	0.8537278	-0.4535436	0.03875539	0.008660828
4e+07	0.04370963	0.004461818	0.7685933	-0.5801769	0.0065115	0.008599974	-0.0007560556	-0.0006974843
	0.7685933	-0.5801769	0.04365146	0.00448267	-0.000756053	-0.0006975119	0.006461598	0.008643629
	0.006511504	0.00859997	-0.0007560501	-0.0006975122	0.04371952	0.004634836	0.7683915	-0.5806224
	-0.0007560505	-0.0006974817	0.006461598	0.008643631	0.7683915	-0.5806224	0.04366603	0.004652711
5e+07	0.04692054	-0.0009667659	0.6654288	-0.6917095	0.009263637	0.008743542	-0.0009961555	-0.0004780326
	0.6654288	-0.6917095	0.04684122	-0.0009183599	-0.0009961686	-0.0004780822	0.009199393	0.008818702
	0.009263639	0.008743539	-0.0009961672	-0.0004780829	0.04698262	-0.0008152928	0.6650721	-0.6921633
	-0.000996152	-0.0004780322	0.009199392	0.008818702	0.6650721	-0.6921633	0.04690914	-0.0007719793
6e+07	0.04831911	-0.007213817	0.5468119	-0.7853597	0.01186414	0.008037534	-0.001132045	-0.0002226524
	0.5468119	-0.7853597	0.04822458	-0.007128061	-0.001132099	-0.0002227262	0.01179258	0.008151767
	0.01186414	0.008037535	-0.001132101	-0.0002227237	0.04841788	-0.007095285	0.5463004	-0.7857828
	-0.00113205	-0.0002226504	0.01179258	0.008151768	0.5463004	-0.7857828	0.0483305	-0.007017477
7e+07	0.0478468	-0.01371469	0.4156451	-0.8590921	0.01406839	0.006578973	-0.001177762	3.016823e-05
	0.4156451	-0.8590921	0.04774697	-0.01358462	-0.001177882	3.009844e-05	0.01399964	0.006736786
	0.01406839	0.006578977	-0.001177885	3.010555e-05	0.04796669	-0.0136346	0.4149863	-0.8594471
	-0.001177774	3.017671e-05	0.01399963	0.006736788	0.4149863	-0.8594471	0.04787435	-0.01351638
8e+07	0.04556974	-0.01993043	0.2751258	-0.9113082	0.01567142	0.004532526	-0.001155141	0.0002550881
	0.2751258	-0.9113082	0.04547707	-0.01975333	-0.001155319	0.0002550657	0.01561737	0.004734293
	0.01567143	0.00453253	-0.001155321	0.0002550753	0.04569591	-0.01988937	0.2743343	-0.91156
	-0.001155152	0.0002551022	0.01561736	0.004734297	0.2743343	-0.91156	0.04560929	-0.01972801
9e+07	0.04168272	-0.02537205	0.1286648	-0.9409002	0.01652718	0.00211613	-0.001087436	0.0004403729
	0.1286648	-0.9409002	0.04161048	-0.02515023	-0.001087634	0.0004404239	0.01649984	0.002357551
	0.01652718	0.002116133	-0.001087633	0.0004404313	0.04180178	-0.02536633	0.1277624	-0.941017
	-0.001087443	0.0004403856	0.01649984	0.002357555	0.1277624	-0.941017	0.04173275	-0.02516283
1e+08	0.03651382	-0.02963158	-0.02022396	-0.9472822	0.01655527	-0.0004189658	-0.0009812098	0.0005851185
	-0.02022396	-0.9472822	0.03647419	-0.02937251	-0.0009813771	0.0005852306	0.01656503	-0.0001467895
	0.01655527	-0.000418966	-0.0009813772	0.0005852304	0.03661294	-0.02965388	-0.02120495	-0.9472372
	-0.0009812099	0.0005851182	0.01656503	-0.0001467896	-0.02120495	-0.9472372	0.03657345	-0.02941381
1.1e+08	0.03039538	-0.03250093	-0.167833	-0.9302646	0.01579253	-0.002774813	-0.0008966384	0.0006304992
	-0.167833	-0.9302646	0.03039736	-0.03221508	-0.000896804	0.0006306949	0.01584616	-0.002485102
	0.01579253	-0.002774813	-0.0008968042	0.0006306947	0.03047151	-0.03253262	-0.1688657	-0.9300516
	-0.0008966385	0.000630499	0.01584616	-0.002485102	-0.1688657	-0.9300516	0.03047077	-0.03226678
1.2e+08	0.02375607	-0.03365235	-0.3105101	-0.8905656	0.01434472	-0.004765534	-0.0008790183	0.0006791066
	-0.3105101	-0.8905656	0.02380501	-0.03335559	-0.0008791396	0.0006793828	0.0144446	-0.004473628
	0.01434472	-0.004765535	-0.0008791397	0.0006793827	0.02381346	-0.03368648	-0.3115696	-0.8901659
	-0.0008790185	0.0006791065	0.0144446	-0.004473628	-0.3115696	-0.8901659	0.02385682	-0.03341011
1.3e+08	0.01713565	-0.0330384	-0.4448629	-0.8292805	0.01234958	-0.006194581	-0.0008992672	0.0007608627
	-0.4448629	-0.8292805	0.01723077	-0.03274819	-0.0008993098	0.0007611992	0.0124924	-0.005916666
	0.01234958	-0.006194581	-0.0008993099	0.0007611992	0.01717764	-0.03306946	-0.445916	-0.8286808
	-0.0008992674	0.0007608626	0.0124924	-0.005916666	-0.445916	-0.8286808	0.01726434	-0.0327992
1.4e+08	0.01103297	-0.03076068	-0.5676781	-0.7480178	0.01000907	-0.006920823	-0.0009313378	0.0008954217
	-0.5676781	-0.7480178	0.01116712	-0.03049384	-0.0009312799	0.0008957869	0.01018567	-0.006671846
	0.01000907	-0.006920823	-0.00093128	0.0008957869	0.01106364	-0.03078472	-0.5686873	-0.7472108
	-0.0009313379	0.0008954217	0.01018567	-0.006671846	-0.5686873	-0.7472108	0.01118684	-0.03053644
1.5e+08	0.005886527	-0.02705439	-0.676031	-0.6488641	0.007560092	-0.006874254	-0.0009441606	0.001089903
	-0.676031	-0.6488641	0.006046645	-0.02682488	-0.0009439958	0.00109026	0.007756065	-0.006665863
	0.007560092	-0.006874255	-0.0009439958	0.00109026	0.00591041	-0.02706913	-0.6769562	-0.64785
	-0.0009441607	0.001089903	0.007756065	-0.006665863	-0.6769562	-0.64785	0.006057743	-0.02685583
1.6e+08	0.002042696	-0.02226491	-0.7673613	-0.5343327	0.005249206	-0.006062974	-0.0009061556	0.001337285
	-0.7673613	-0.5343327	0.002210961	-0.02208189	-0.0009058932	0.001337598	0.005446154	-0.005901721
	0.005249206	-0.006062974	-0.0009058933	0.001337598	0.002064335	-0.02226971	-0.7681615	-0.5331193
	-0.0009061557	0.001337285	0.005446154	-0.005901721	-0.7681615	-0.5331193	0.002219076	-0.02209982
1.7e+08	-0.0002697197	-0.0168164	-0.8395384	-0.4072997	0.003307228	-0.00457187	-0.0007909236	0.001617241
	-0.8395384	-0.4072997	-0.0001141047	-0.01668267	-0.0007905862	0.001617482	0.003484616	-0.004457914
	0.003307228	-0.00457187	-0.0007905863	0.001617482	-0.000246196	-0.01681203	-0.8401732	-0.4059028
	-0.0007909236	0.001617241	0.003484616	-0.004457914	-0.8401732	-0.4059028	-0.0001034436	-0.01668804
1.8e+08	-0.0009552985	-0.01117427	-0.8909129	-0.2709294	0.001925854	-0.002553365	-0.0005822628	0.001899418
	-0.8909129	-0.2709294	-0.0008338571	-0.01108543	-0.0005818806	0.001899575	0.002063258	-0.002479842
	0.001925854	-0.002553365	-0.0005818806	0.001899575	-0.0009265087	-0.01116269	-0.891344	-0.2693728
	-0.0005822628	0.001899418	0.002063258	-0.002479842	-0.891344	-0.2693728	-0.0008157387	-0.01108039
1.9e+08	-5.651183e-05	-0.005805073	-0.9203547	-0.1285928	0.001238639	-0.0002113241	-0.0002773701	0.002148553
	-0.9203547	-0.1285928	1.099884e-05	-0.0057494	-0.0002769732	0.002148626	0.001318153	-0.0001645129
	0.001238639	-0.0002113242	-0.0002769732	0.002148626	-2.007392e-05	-0.005789091	-0.9205474	-0.1269079
	-0.0002773701	0.002148553	0.001318153	-0.0001645129	-0.9205474	-0.1269079	4.040406e-05	-0.005737522
2e+08	0.00225348	-0.001136926	-0.9272762	0.0162185	0.001308191	0.00222005	0.0001124101	0.002330414
	-0.9272762	0.0162185	0.002251531	-0.001096139	0.0001127987	0.002330417	0.001316714	0.002259747
	0.001308191	0.00222005	0.0001127986	0.002330417	0.002298802	-0.001119842	-0.9272011	0.01799324
	0.0001124101	0.002330414	0.001316714	0.002259747	-0.9272011	0.01799324	0.002294615	-0.001081986
2.1e+08	0.005689058	0.002475858	-0.9116409	0.1599799	0.002120754	0.004500065	0.0005633951	0.002417438
	-0.9116409	0.1599799	0.005608486	0.00252503	0.0005637647	0.002417392	0.002051883	0.004556386
	0.002120754	0.004500065	0.0005637647	0.002417392	0.005743299	0.002490636	-0.9112749	0.1618001
	0.0005633951	0.002417438	0.002051883	0.004556386	-0.9112749	0.1618001	0.005665981	0.002536399
2.2e+08	0.009879617	0.004781037	-0.873957	0.2992203	0.003588534	0.006405637	0.001043515	0.00239298
	-0.873957	0.2992203	0.009719181	0.004864601	0.001043869	0.002392905	0.003443823	0.006504133
	0.003588534	0.006405637	0.001043869	0.002392905	0.009941674	0.004790356	-0.8732848	0.3010367
	0.001043515	0.00239298	0.003443823	0.006504133	-0.8732848	0.3010367	0.009790095	0.004868178
2.3e+08	0.01440372	0.005647207	-0.815258	0.4306048	0.005559345	0.00775322	0.001517576	0.002253443
	-0.815258	0.4306048	0.01417084	0.005791183	0.001517931	0.002253352	0.005348745	0.007918566
	0.005559345	0.00775322	0.001517931	0.002253352	0.0144715	0.005648508	-0.8142728	0.4323646
	0.001517576	0.002253443	0.005348745	0.007918566	-0.8142728	0.4323646	0.01425257	0.005782556
2.4e+08	0.01882674	0.00507164	-0.7370717	0.5510117	0.007832427	0.008416473	0.001952773	0.002007952
	-0.7370717	0.5510117	0.01853733	0.005299172	0.001953151	0.002007843	0.007573821	0.008669708
	0.007832427	0.008416473	0.001953151	0.002007843	0.01889743	0.005063233	-0.735776	0.55266
	0.001952773	0.002007952	0.007573821	0.008669708	-0.735776	0.55266	0.01862594	0.005275011
2.5e+08	0.02273873	0.00317686	-0.641378	0.6576027	0.01017876	0.008338075	0.002323381	0.001675789
	-0.641378	0.6576027	0.02241605	0.003505454	0.002323802	0.001675644	0.009896597	0.008694062
	0.01017876	0.008338074	0.002323802	0.001675644	0.0228091	0.003158107	-0.6397839	0.6590842
	0.002323381	0.001675789	0.009896597	0.008694062	-0.6397839	0.6590842	0.02250667	0.003463888
2.6e+08	0.02578914	0.0001964622	-0.5305586	0.747885	0.01236383	0.007534665	0.002613777	0.001282183
	-0.5305586	0.747885	0.02546175	0.0006356886	0.002614251	0.001281971	0.01208696	0.008000077
	0.01236383	0.007534665	0.002614251	0.001281971	0.02585592	0.0001678459	-0.5286881	0.7491459
	0.002613777	0.001282183	0.01208696	0.008000077	-0.5286881	0.7491459	0.02554912	0.0005765278
2.7e+08	0.02771556	-0.00354826	-0.4073392	0.8197656	0.01417067	0.006094601	0.002819279	0.0008534063
	-0.4073392	0.8197656	0.0274146	-0.002998338	0.002819799	0.0008530867	0.01392957	0.006666662
	0.01417067	0.006094601	0.002819799	0.0008530867	0.02777579	-0.003585176	-0.4052239	0.8207549
	0.002819279	0.0008534063	0.01392957	0.006666662	-0.4052239	0.8207549	0.0274936	-0.003073545
2.8e+08	0.02836411	-0.007678666	-0.2747252	0.8715953	0.01542103	0.004168813	0.002944783	0.0004121579
	-0.2747252	0.8715953	0.02812014	-0.007028123	0.002945321	0.0004116922	0.01524469	0.00483498
	0.01542103	0.004168813	0.002945321	0.0004116922	0.02841553	-0.0077214	-0.2724058	0.8722669
	0.002944783	0.0004121579	0.01524469	0.00483498	-0.2724058	0.8722669	0.02818638	-0.007116212
2.9e+08	0.0277001	-0.01179339	-0.1359323	0.9022051	0.01599262	0.001955685	0.003001597	-2.580335e-05
	-0.1359323	0.9022051	0.02753976	-0.011062	0.003002107	-2.644375e-05	0.01590543	0.002694351
	0.01599262	0.001955685	0.003002107	-2.644374e-05	0.02774136	-0.01183882	-0.1334583	0.9025193
	0.003001597	-2.580334e-05	0.01590543	0.002694351	-0.1334583	0.9025193	0.02759004	-0.01115851
3e+08	0.02580803	-0.01550417	0.005686929	0.9109317	0.01583097	-0.0003186159	0.003003241	-0.0004531737
	0.005686929	0.9109317	0.02575099	-0.01471993	0.00300366	-0.0004539981	0.01584986	0.0004635795
	0.01583097	-0.0003186159	0.00300366	-0.0004539981	0.0258389	-0.01554886	0.008258892	0.9108564
	0.003003241	-0.0004531737	0.01584986	0.0004635795	0.008258892	0.9108564	0.0257837	-0.01481952
3.1e+08	0.0228813	-0.01846984	0.1467202	0.8976328	0.01495465	-0.002422491	0.002961136	-0.0008705219
	0.1467202	0.8976328	0.02293776	-0.01766645	0.002961399	-0.0008715152	0.01508694	-0.001630529
	0.01495465	-0.002422491	0.002961399	-0.0008715151	0.02290269	-0.01851043	0.1493271	0.8971454
	0.002961136	-0.0008705219	0.01508694	-0.001630529	0.1493271	0.8971454	0.02295307	-0.01776349
3.2e+08	0.01920253	-0.02042556	0.2837747	0.8626922	0.01345336	-0.004141836	0.002881158	-0.001283822
	0.2837747	0.8626922	0.01937157	-0.01963926	0.002881206	-0.001284943	0.01369537	-0.003375441
	0.01345336	-0.004141836	0.002881206	-0.001284943	0.01921646	-0.02045916	0.2863491	0.8617803
	0.002881158	-0.001283822	0.01369537	-0.003375441	0.2863491	0.8617803	0.01937149	-0.01972838
3.3e+08	0.01511644	-0.02120492	0.4135576	0.8070116	0.01147895	-0.005301305	0.002761778	-0.001700706
	0.4135576	0.8070116	0.0153855	-0.02047079	0.002761566	-0.001701892	0.01181585	-0.004593818
	0.01147895	-0.005301305	0.002761566	-0.001701892	0.01512576	-0.02122942	0.4160289	0.8056743
	0.002761778	-0.001700706	0.01181585	-0.004593818	0.4160289	0.8056743	0.01537365	-0.02054748
3.4e+08	0.01099748	-0.02075281	0.5329552	0.7319921	0.009230327	-0.005781792	0.002594177	-0.002126294
	0.5329552	0.7319921	0.01134302	-0.02010107	0.002593685	-0.002127469	0.009636982	-0.005161018
	0.009230327	-0.005781792	0.002593685	-0.002127469	0.01100566	-0.02076718	0.5352519	0.7302402
	0.002594177	-0.002126294	0.009636982	-0.005161018	0.5352519	0.7302402	0.01132438	-0.02016215
3.5e+08	0.007215418	-0.01912835	0.6391093	0.6395009	0.006933505	-0.005532345	0.002364325	-0.002559559
	0.6391093	0.6395009	0.007604788	-0.01858086	0.002363563	-0.002560645	0.007376559	-0.005017399
	0.006933505	-0.005532345	0.002363563	-0.002560645	0.007226077	-0.01913271	0.641161	0.6373575
	0.002364325	-0.002559559	0.007376559	-0.005017399	0.641161	0.6373575	0.007585125	-0.0186249
3.6e+08	0.00410172	-0.01649722	0.7294884	0.5318271	0.004818908	-0.004575245	0.002056548	-0.002991037
	0.7294884	0.5318271	0.004496089	-0.01606485	0.002055551	-0.002991964	0.005259768	-0.00417414
	0.004818908	-0.004575245	0.002055551	-0.002991964	0.004118298	-0.01649292	0.7312278	0.5293275
	0.002056548	-0.002991037	0.005259768	-0.00417414	0.7312278	0.5293275	0.004481426	-0.01609232
3.7e+08	0.001919974	-0.0131146	0.8019516	0.4116253	0.003098193	-0.003003667	0.001657826	-0.003402426
	0.8019516	0.4116253	0.002278052	-0.0127955	0.001656647	-0.003403144	0.003496725	-0.002711946
	0.003098193	-0.003003667	0.001656647	-0.003403144	0.001945303	-0.01310405	0.8033166	0.4088162
	0.001657826	-0.003402426	0.003496725	-0.002711946	0.8033166	0.4088162	0.002274019	-0.01280878
3.8e+08	0.000842933	-0.009299994	0.8548017	0.2818486	0.00194298	-0.0009721519	0.001161874	-0.003768201
	0.8548017	0.2818486	0.001125131	-0.009079173	0.001160578	-0.003768685	0.002261536	-0.0007727435
	0.00194298	-0.0009721519	0.001160578	-0.003768685	0.0008789225	-0.009286456	0.8557375	0.2787876
	0.001161874	-0.003768201	0.002261536	-0.0007727435	0.8557375	0.2787876	0.001136373	-0.009082359
3.9e+08	0.0009383088	-0.005406665	0.8868268	0.1456736	0.001467708	0.001319142	0.0005721528	-0.00405893
	0.8868268	0.1456736	0.001110901	-0.005256922	0.0005708004	-0.004059177	0.001675074	0.001454771
	0.001467708	0.001319142	0.0005708004	-0.004059177	0.0009857087	-0.005393875	0.8872877	0.1424279
	0.0005721528	-0.00405893	0.001675074	0.001454771	0.8872877	0.1424279	0.001140569	-0.005255431
4e+08	0.002164515	-0.001788344	0.8973286	0.006419558	0.001718366	0.003644747	-9.68744e-05	-0.004245639
	0.8973286	0.006419558	0.002203372	-0.001672509	-9.823387e-05	-0.00424567	0.001793217	0.003754205
	0.001718366	0.003644747	-9.823387e-05	-0.00424567	0.00222281	-0.001780121	0.8972799	0.003064527
	-9.68744e-05	-0.004245639	0.001793217	0.003754205	0.8972799	0.003064527	0.002252765	-0.001672551
4.1e+08	0.004376616	0.001233441	0.8861363	-0.1325354	0.002668225	0.005776627	-0.0008204885	-0.004304346
	0.8861363	-0.1325354	0.004270097	0.001359138	-0.0008218254	-0.004304189	0.002601706	0.005903186
	0.002668225	0.005776627	-0.0008218254	-0.004304189	0.004444057	0.00123361	0.8855555	-0.1359181
	-0.0008204885	-0.004304346	0.002601706	0.005903186	0.8855555	-0.1359181	0.004338484	0.001351185
4.2e+08	0.007341738	0.003398427	0.8536063	-0.2678387	0.004220923	0.007506985	-0.001566339	-0.004219844
	0.8536063	-0.2678387	0.007092405	0.003580174	-0.001567644	-0.004219528	0.004018065	0.007695463
	0.004220923	0.007506985	-0.001567644	-0.004219528	0.007415507	0.003387781	0.8524841	-0.2711632
	-0.001566339	-0.004219844	0.004018065	0.007695463	0.8524841	-0.2711632	0.007177054	0.003558417
4.3e+08	0.0107623	0.004530428	0.8006084	-0.3962449	0.006220494	0.00866885	-0.002298408	-0.003988013
	0.8006084	-0.3962449	0.01038724	0.004812246	-0.002299689	-0.003987554	0.005900263	0.008961173
	0.006220494	0.00866885	-0.002299689	-0.003987554	0.0108388	0.004507245	0.7989497	-0.3994233
	-0.002298408	-0.003988013	0.005900263	0.008961173	0.7989497	-0.3994233	0.01048366	0.00477189
4.4e+08	0.01430475	0.004551906	0.7284993	-0.5146934	0.008467214	0.009152384	-0.002981531	-0.003616236
	0.7284993	-0.5146934	0.01383442	0.004971111	-0.002982803	-0.003615634	0.008061168	0.009583287
	0.008467214	0.009152384	-0.002982803	-0.003615634	0.01437996	0.004515713	0.7263233	-0.517638
	-0.002981531	-0.003616236	0.008061168	0.009583287	0.7263233	-0.517638	0.01393678	0.004908972
4.5e+08	0.01763091	0.003489159	0.6390851	-0.6203791	0.01073761	0.008915405	-0.003585579	-0.003121904
	0.6390851	-0.6203791	0.01710663	0.00407235	-0.003586853	-0.003121136	0.01028724	0.009508701
	0.01073761	0.008915405	-0.003586853	-0.003121136	0.01770086	0.003440809	0.6364256	-0.623005
	-0.003585579	-0.003121904	0.01028724	0.009508701	0.6364256	-0.623005	0.01720832	0.003987213
4.6e+08	0.02042923	0.001467896	0.5345745	-0.710816	0.01280662	0.007987173	-0.004088528	-0.002529364
	0.5345745	-0.710816	0.01989938	0.002227875	-0.004089799	-0.00252839	0.0123596	0.008752982
	0.01280662	0.007987173	-0.004089799	-0.00252839	0.02049037	0.001409502	0.5314791	-0.7130431
	-0.004088528	-0.002529364	0.0123596	0.008752982	0.5314791	-0.7130431	0.01999369	0.002120655
4.7e+08	0.02244281	-0.001300175	0.4175236	-0.7838919	0.0144697	0.006465186	-0.00447787	-0.001866002
	0.4175236	-0.7838919	0.02195833	-0.0003661964	-0.004479108	-0.001864776	0.01407541	0.007398433
	0.0144697	0.006465186	-0.004479108	-0.001864776	0.02249238	-0.001365496	0.4140534	-0.7856477
	-0.00447787	-0.001866002	0.01407541	0.007398433	0.4140534	-0.7856477	0.02203903	-0.0004925581
4.8e+08	0.02349197	-0.004538309	0.290775	-0.8379149	0.01556284	0.004505364	-0.004750211	-0.001158263
	0.290775	-0.8379149	0.02310134	-0.00344901	-0.004751358	-0.001156743	0.01526754	0.005585732
	0.01556284	0.004505364	-0.004751358	-0.001156743	0.02352837	-0.004606616	0.2870031	-0.8391361
	-0.004750211	-0.001158263	0.01526754	0.005585732	0.2870031	-0.8391361	0.02316342	-0.003589672
4.9e+08	0.02348946	-0.007931211	0.1573908	-0.8716494	0.01597853	0.002306634	-0.004909231	-0.0004284266
	0.1573908	-0.8716494	0.02323379	-0.00671988	-0.004910202	-0.0004265912	0.01582072	0.003500017
	0.01597853	0.002306634	-0.004910202	-0.0004265912	0.02351243	-0.007998201	0.1534006	-0.8722845
	-0.004909231	-0.0004284266	0.01582072	0.003500017	0.1534006	-0.8722845	0.02327394	-0.006868607
5e+08	0.02244691	-0.01115459	0.02058159	-0.8843437	0.01567624	9.136442e-05	-0.004962567	0.0003072522
	0.02058159	-0.8843437	0.02235557	-0.009866346	-0.004963261	0.0003093936	0.01568257	0.001352737
	0.01567624	9.136442e-05	-0.004963261	0.0003093936	0.02245759	-0.01121605	0.01646567	-0.8843543
	-0.004962567	0.0003072522	0.01568257	0.001352737	0.01646567	-0.8843543	0.0223726	-0.01001611
5.1e+08	0.02047223	-0.01390509	-0.116367	-0.8757463	0.01468638	-0.001916465	-0.004918351	0.001038729
