!$
! Info: Touchstone file created by Circ.  Input file=Tx_12in_Rx_100ohms_TxVia_10mils_RxVia_20mils.circ
!$
# Hz S RI R 50
0	0.01243831	9.248291e-26	-6.435112e-05	-8.8706e-26	7.765156e-05	1.562191e-23	-6.436419e-05	1.530605e-24
	-6.435113e-05	-8.750401e-26	0.01244114	1.071035e-25	-6.435033e-05	-7.796376e-26	7.508376e-05	1.770435e-23
	7.769895e-05	1.563104e-23	-6.435031e-05	-7.921297e-26	0.01245302	9.272705e-26	-6.435177e-05	1.314334e-25
	-6.436417e-05	1.529213e-24	7.653853e-05	1.822202e-23	-6.435176e-05	1.299614e-25	0.01244669	1.021282e-25
1e+07	0.0178825	0.007323979	-3.585128e-06	-1.236689e-05	0.0003801349	0.002108875	-3.162534e-06	-1.716986e-05
	-3.585128e-06	-1.236689e-05	0.01843035	0.007351081	-1.865352e-06	-3.565484e-06	0.0007993785	0.002146742
	0.0003801391	0.002108872	-1.865352e-06	-3.565484e-06	0.01724871	0.007694069	-4.265043e-06	-4.67738e-06
	-3.162534e-06	-1.716986e-05	0.0007994117	0.002146731	-4.265043e-06	-4.67738e-06	0.01826405	0.007375765
2e+07	0.02364342	0.01004997	-5.877289e-06	6.304533e-07	0.001138439	0.004128269	-2.563991e-06	-6.050289e-06
	-5.877289e-06	6.304533e-07	0.02409607	0.009901324	-2.460469e-05	-2.456856e-05	0.001414397	0.004371369
	0.001138437	0.004128266	-2.46047e-05	-2.456856e-05	0.02355938	0.01083009	-2.978079e-05	-2.382476e-05
	-2.563991e-06	-6.050289e-06	0.001414395	0.004371348	-2.978079e-05	-2.382476e-05	0.02398959	0.01000534
3e+07	0.02858709	0.01024461	-9.747323e-06	-5.956283e-07	0.002335989	0.00585569	-2.369943e-06	-3.201232e-06
	-9.747323e-06	-5.956283e-07	0.02895314	0.0100376	-4.33745e-05	-2.264623e-05	0.002506626	0.006170858
	0.002335989	0.00585569	-4.33745e-05	-2.264623e-05	0.02892461	0.01104472	-4.836101e-05	-2.103986e-05
	-2.369943e-06	-3.201232e-06	0.002506621	0.006170856	-4.836101e-05	-2.103986e-05	0.02890006	0.01016743
4e+07	0.03291238	0.009017519	-1.25376e-05	6.066671e-07	0.003893232	0.007227081	-2.104146e-06	-1.654754e-06
	-1.25376e-05	6.066671e-07	0.03319479	0.008788545	-5.735592e-05	-1.370063e-05	0.004008124	0.007578749
	0.003893233	0.00722708	-5.735592e-05	-1.370063e-05	0.0335775	0.00969728	-6.205927e-05	-1.13468e-05
	-2.104146e-06	-1.654754e-06	0.004008123	0.007578751	-6.205927e-05	-1.13468e-05	0.0331899	0.008922922
5e+07	0.03657088	0.006713697	-1.433974e-05	2.973266e-06	0.005712532	0.00817542	-1.747532e-06	-6.49536e-07
	-1.433974e-05	2.973266e-06	0.0367727	0.006486411	-6.689149e-05	-7.819892e-07	0.005942051	0.00843853
	0.005712533	0.008175419	-6.689149e-05	-7.819893e-07	0.03747354	0.007190502	-7.12279e-05	2.256281e-06
	-1.747532e-06	-6.49536e-07	0.00594205	0.008438531	-7.12279e-05	2.256281e-06	0.03680891	0.006612305
6e+07	0.03947126	0.003572884	-1.518524e-05	5.969212e-06	0.007684267	0.008656057	-1.317634e-06	2.935585e-08
	-1.518524e-05	5.969212e-06	0.03959949	0.00336794	-7.207896e-05	1.452558e-05	0.007979782	0.008814151
	0.007684269	0.008656056	-7.207896e-05	1.452558e-05	0.04052203	0.003798433	-7.596606e-05	1.819894e-05
	-1.317634e-06	2.935588e-08	0.007979779	0.008814152	-7.596606e-05	1.819894e-05	0.03966961	0.003476041
7e+07	0.041526	-0.0001895364	-1.508729e-05	9.272205e-06	0.009705892	0.008634908	-8.408618e-07	4.604292e-07
	-1.508729e-05	9.272205e-06	0.04159117	-0.0003549036	-7.288649e-05	3.111702e-05	0.01000979	0.008700549
	0.009705894	0.008634908	-7.288648e-05	3.111702e-05	0.04263703	-0.0002372892	-7.627936e-05	3.538377e-05
	-8.408617e-07	4.604293e-07	0.01000978	0.008700551	-7.627936e-05	3.538377e-05	0.041687	-0.0002717935
8e+07	0.04267129	-0.004361471	-1.405006e-05	1.265202e-05	0.0116431	0.008134877	-3.551019e-07	6.792157e-07
	-1.405006e-05	1.265202e-05	0.04268667	-0.004473806	-6.926316e-05	4.810985e-05	0.01192074	0.008116835
	0.0116431	0.008134877	-6.926316e-05	4.810985e-05	0.04375777	-0.004682836	-7.208274e-05	5.292062e-05
	-3.551018e-07	6.792158e-07	0.01192074	0.008116839	-7.208274e-05	5.292062e-05	0.04279866	-0.004420318
9e+07	0.0428769	-0.008730702	-1.204726e-05	1.59386e-05	0.01338565	0.007194198	1.045039e-07	7.0851e-07
	-1.204726e-05	1.59386e-05	0.04285822	-0.008780378	-6.097931e-05	6.479679e-05	0.01360723	0.007106237
	0.01338566	0.007194197	-6.097931e-05	6.479678e-05	0.04385658	-0.009308222	-6.31009e-05	7.012061e-05
	1.04504e-07	7.0851e-07	0.01360723	0.007106241	-6.31009e-05	7.012061e-05	0.04297613	-0.008758159
1e+08	0.04216494	-0.01308408	-8.673113e-06	1.907153e-05	0.01484163	0.005875682	4.945055e-07	5.663935e-07
	-8.673113e-06	1.907153e-05	0.04213156	-0.01306481	-4.599716e-05	8.097114e-05	0.0149688	0.005732149
	0.01484163	0.005875682	-4.599716e-05	8.097114e-05	0.04293498	-0.01389219	-4.724733e-05	8.678835e-05
	4.945055e-07	5.663935e-07	0.0149688	0.005732149	-4.724733e-05	8.678835e-05	0.04224372	-0.01307319
1.1e+08	0.0405551	-0.01732471	-4.427752e-06	1.980381e-05	0.01592459	0.004234639	6.764031e-07	4.223405e-07
	-4.427752e-06	1.980381e-05	0.04052572	-0.01724469	-2.64219e-05	8.576169e-05	0.01593987	0.004124358
	0.01592459	0.004234639	-2.64219e-05	8.576169e-05	0.04105909	-0.01817927	-2.661784e-05	9.168692e-05
	6.764031e-07	4.223405e-07	0.01593987	0.004124358	-2.661784e-05	9.168692e-05	0.04062459	-0.0172721
1.2e+08	0.03805326	-0.02116632	-3.192281e-06	1.947266e-05	0.01655604	0.002395239	5.916306e-07	3.038583e-07
	-3.192281e-06	1.947266e-05	0.03803713	-0.02103103	-1.092487e-05	8.67732e-05	0.01650467	0.002344148
	0.01655604	0.002395239	-1.092487e-05	8.67732e-05	0.03835849	-0.02200754	-1.403191e-05	9.202642e-05
	5.916307e-07	3.038583e-07	0.01650467	0.002344148	-1.403191e-05	9.202642e-05	0.03812325	-0.02107263
1.3e+08	0.03480307	-0.02442808	-1.821994e-06	1.92395e-05	0.016712	0.0004724907	4.604646e-07	2.593863e-07
	-1.821994e-06	1.92395e-05	0.03481042	-0.02424446	-5.33239e-06	8.537279e-05	0.01662344	0.0004899965
	0.016712	0.0004724907	-5.33239e-06	8.537279e-05	0.03494659	-0.02522204	-8.003099e-06	9.081834e-05
	4.604646e-07	2.593863e-07	0.01662344	0.0004899965	-8.003099e-06	9.081834e-05	0.03488283	-0.02429627
1.4e+08	0.03096043	-0.02696964	-3.740282e-07	1.897159e-05	0.01639062	-0.001417807	3.361861e-07	2.51161e-07
	-3.740282e-07	1.897159e-05	0.03099985	-0.02674693	6.907565e-07	8.391114e-05	0.01628988	-0.001330912
	0.01639062	-0.001417807	6.907565e-07	8.391114e-05	0.03097454	-0.02769348	-1.515525e-06	8.95238e-05
	3.361861e-07	2.51161e-07	0.01628988	-0.001330912	-1.515525e-06	8.95238e-05	0.03105802	-0.02680508
1.5e+08	0.02670132	-0.0286884	1.112275e-06	1.863687e-05	0.01561651	-0.003163303	2.254089e-07	2.785238e-07
	1.112275e-06	1.863687e-05	0.02677891	-0.02843782	6.938363e-06	8.221013e-05	0.01552466	-0.003012785
	0.01561651	-0.003163303	6.938363e-06	8.221013e-05	0.02661613	-0.02932751	5.224458e-06	8.79569e-05
	2.254089e-07	2.785238e-07	0.01552466	-0.003012785	5.224458e-06	8.79569e-05	0.02682303	-0.02849855
1.6e+08	0.02221573	-0.02952213	2.613289e-06	1.821552e-05	0.01443973	-0.00466113	1.353832e-07	3.384359e-07
	2.613289e-06	1.821552e-05	0.02233455	-0.02925624	1.328594e-05	8.016197e-05	0.01437343	-0.004457811
	0.01443973	-0.00466113	1.328594e-05	8.016197e-05	0.02205938	-0.03006876	1.208591e-05	8.600342e-05
	1.353832e-07	3.384359e-07	0.01437343	-0.004457811	1.208591e-05	8.600342e-05	0.02236552	-0.02931605
1.7e+08	0.01769973	-0.02945072	4.111478e-06	1.769372e-05	0.01293297	-0.005823618	7.306326e-08	4.256504e-07
	4.111478e-06	1.769372e-05	0.01785943	-0.02918266	1.963874e-05	7.769581e-05	0.01290386	-0.005581923
	0.01293297	-0.005823618	1.963874e-05	7.769581e-05	0.01749809	-0.02990289	1.896787e-05	8.358769e-05
	7.306326e-08	4.256504e-07	0.01290386	-0.005581923	1.896787e-05	8.358769e-05	0.01787882	-0.02923842
1.8e+08	0.01334689	-0.02849627	5.59146e-06	1.706113e-05	0.01118731	-0.006583187	4.431251e-08	5.329476e-07
	5.59146e-06	1.706113e-05	0.01354355	-0.02823883	2.59152e-05	7.476403e-05	0.01120167	-0.006319666
	0.01118731	-0.006583187	2.59152e-05	7.476403e-05	0.0131231	-0.02885681	2.578246e-05	8.065866e-05
	4.431251e-08	5.329476e-07	0.01120167	-0.006319666	2.578246e-05	8.065866e-05	0.01355358	-0.02828794
1.9e+08	0.009339615	-0.02672142	7.039523e-06	1.63094e-05	0.009306936	-0.006896113	5.326718e-08	6.515111e-07
	7.039523e-06	1.63094e-05	0.009565893	-0.02648617	3.203897e-05	7.133634e-05	0.009365539	-0.006627934
	0.009306936	-0.006896113	3.203897e-05	7.133634e-05	0.009113711	-0.02699708	3.24469e-05	7.718382e-05
	5.326718e-08	6.515111e-07	0.009365539	-0.006627934	3.24469e-05	7.718382e-05	0.00956924	-0.02652663
2e+08	0.005840934	-0.02422589	8.438946e-06	1.543309e-05	0.007403028	-0.006744896	1.01771e-07	7.716335e-07
	8.438946e-06	1.543309e-05	0.006086381	-0.02402224	3.793559e-05	6.739698e-05	0.00750138	-0.006488382
	0.007403028	-0.006744896	3.793559e-05	6.739698e-05	0.005629532	-0.02442643	3.888017e-05	7.314637e-05
	1.01771e-07	7.716335e-07	0.00750138	-0.006488382	3.888017e-05	7.314637e-05	0.006086097	-0.0240528
2.1e+08	0.002987141	-0.02114124	9.771332e-06	1.443047e-05	0.005587328	-0.00613911	1.892162e-07	8.83353e-07
	9.771332e-06	1.443047e-05	0.003238803	-0.02097569	4.353123e-05	6.294386e-05	0.005716185	-0.00590839
	0.005587328	-0.00613911	4.353123e-05	6.294386e-05	0.002803273	-0.02127859	4.500193e-05	6.854437e-05
	1.892162e-07	8.83353e-07	0.005716185	-0.00590839	4.500193e-05	6.854437e-05	0.003238113	-0.02099588
2.2e+08	0.000881733	-0.01762422	1.101887e-05	1.330255e-05	0.003965647	-0.005114667	3.125524e-07	9.771045e-07
	1.101887e-05	1.330255e-05	0.001124937	-0.01749971	4.875293e-05	5.798798e-05	0.004111857	-0.004920504
	0.003965647	-0.005114667	4.875293e-05	5.798798e-05	0.0007348116	-0.01771164	5.073297e-05	6.339013e-05
	3.125524e-07	9.771045e-07	0.004111857	-0.004920504	5.073297e-05	6.339013e-05	0.001127067	-0.01750985
2.3e+08	-0.0004090608	-0.01384892	1.216336e-05	1.205375e-05	0.002631772	-0.003731541	4.664693e-07	1.044431e-06
	1.216336e-05	1.205375e-05	-0.0001897523	-0.01376438	5.352964e-05	5.255323e-05	0.002779367	-0.003580432
	0.002631772	-0.003731541	5.352964e-05	5.255323e-05	-0.0005131625	-0.01390021	5.599646e-05	5.770987e-05
	4.664693e-07	1.044431e-06	0.002779367	-0.003580432	5.599646e-05	5.770987e-05	-0.0001817657	-0.01376559
2.4e+08	-0.0008589258	-0.009998082	1.318681e-05	1.069215e-05	0.001662125	-0.00207012	6.438029e-07	1.078558e-06
	1.318681e-05	1.069215e-05	-0.0006786626	-0.009948288	5.77938e-05	4.667646e-05	0.001793592	-0.001963688
	0.001662125	-0.00207012	5.77938e-05	4.667646e-05	-0.0009176705	-0.01002692	6.07197e-05	5.154364e-05
	6.438029e-07	1.078558e-06	0.001793592	-0.001963688	6.07197e-05	5.154364e-05	-0.0006621549	-0.009942412
2.5e+08	-0.0004821099	-0.006254172	1.407226e-05	9.229438e-06	0.001111462	-0.0002263795	8.360953e-07	1.074792e-06
	1.407226e-05	9.229438e-06	-0.000354659	-0.006229842	6.148329e-05	4.040635e-05	0.001209126	-0.0001611275
	0.001111462	-0.0002263795	6.148329e-05	4.040635e-05	-0.0004959915	-0.006273471	6.483627e-05	4.494403e-05
	8.360953e-07	1.074792e-06	0.001209126	-0.0001611275	6.483627e-05	4.494403e-05	-0.0003275058	-0.00621935
2.6e+08	0.0006679137	-0.002790466	1.480452e-05	7.680733e-06	0.00100989	0.001693794	1.034229e-06	1.030737e-06
	1.480452e-05	7.680733e-06	0.0007312175	-0.002778658	6.454336e-05	3.380267e-05	0.001057305	0.001726368
	0.00100989	0.001693794	6.454336e-05	3.380267e-05	0.0006957628	-0.002811856	6.828802e-05	3.797507e-05
	1.034229e-06	1.030737e-06	0.001057305	0.001726368	6.828802e-05	3.797507e-05	0.0007704613	-0.002766487
2.7e+08	0.002501723	0.0002372379	1.537093e-05	6.064102e-06	0.001361326	0.003580795	1.229077e-06	9.462964e-07
	1.537093e-05	6.064102e-06	0.002492912	0.0002524744	6.692847e-05	2.693454e-05	0.001344599	0.003593735
	0.001361326	0.003580795	6.692847e-05	2.693454e-05	0.002565989	0.0002038252	7.102688e-05	3.071029e-05
	1.229077e-06	9.462964e-07	0.001344599	0.003593735	7.102688e-05	3.071029e-05	0.002544913	0.0002630887
2.8e+08	0.004898949	0.002697958	1.576197e-05	4.400007e-06	0.002143498	0.005327647	1.412105e-06	8.235056e-07
	1.576197e-05	4.400007e-06	0.00481418	0.002734686	6.860399e-05	1.987883e-05	0.00205244	0.00533774
	0.002143498	0.005327648	6.860399e-05	1.987883e-05	0.004992645	0.002644601	7.301652e-05	2.323084e-05
	1.412105e-06	8.235056e-07	0.00205244	0.00533774	7.301652e-05	2.323084e-05	0.004878772	0.002740413
2.9e+08	0.007714751	0.004491513	1.597171e-05	2.710504e-06	0.003309434	0.00683612	1.575863e-06	6.661863e-07
	1.597171e-05	2.710504e-06	0.007554821	0.00456883	6.954726e-05	1.271771e-05	0.003138483	0.00686283
	0.003309434	0.00683612	6.954726e-05	1.271771e-05	0.007829746	0.004412486	7.42332e-05	1.562285e-05
	1.575863e-06	6.661863e-07	0.003138483	0.00686283	7.42332e-05	1.562285e-05	0.007631002	0.004566453
3e+08	0.0107874	0.005552876	1.599799e-05	1.018417e-06	0.004790357	0.008022281	1.714346e-06	4.794984e-07
	1.599799e-05	1.018417e-06	0.01055798	0.005689722	6.974819e-05	5.53629e-06	0.004539195	0.008086473
	0.004790357	0.008022281	6.974819e-05	5.53629e-06	0.01091495	0.005444729	7.466612e-05	7.97498e-06
	1.714346e-06	4.794984e-07	0.004539195	0.008086473	7.466612e-05	7.97498e-06	0.01064396	0.00567634
3.1e+08	0.01394657	0.005854724	1.584248e-05	-6.534981e-07	0.00649978	0.008821179	1.823178e-06	2.694413e-07
	1.584248e-05	-6.534981e-07	0.01365815	0.006068635	6.920961e-05	-1.579796e-06	0.006173606	0.008943716
	0.00649978	0.008821179	6.920961e-05	-1.579796e-06	0.01407786	0.005716249	7.431759e-05	3.759918e-07
	1.823178e-06	2.694413e-07	0.006173606	0.008943716	7.431759e-05	3.759918e-07	0.01375143	0.006041854
3.2e+08	0.01702193	0.005408049	1.551044e-05	-2.283359e-06	0.00833855	0.009190399	1.899643e-06	4.234142e-08
	1.551044e-05	-2.283359e-06	0.0166894	0.005713948	6.794658e-05	-8.546827e-06	0.007947995	0.0093907
	0.00833855	0.009190399	6.794658e-05	-8.546827e-06	0.0171485	0.005240142	7.320213e-05	-7.087614e-06
	1.899643e-06	4.234142e-08	0.007947995	0.0093907	7.320213e-05	-7.087614e-06	0.01678695	0.005672042
3.3e+08	0.01985155	0.004260877	1.501028e-05	-3.850833e-06	0.01020057	0.00911232	1.942558e-06	-1.956042e-07
	1.501028e-05	-3.850833e-06	0.01949355	0.004669982	6.598546e-05	-1.528509e-05	0.009761238	0.009406979
	0.01020057	0.00911232	6.598546e-05	-1.528509e-05	0.01996579	0.004066323	7.134533e-05	-1.433354e-05
	1.942558e-06	-1.956042e-07	0.009761238	0.009406979	7.134533e-05	-1.433354e-05	0.01959196	0.004612009
3.4e+08	0.02228979	0.002495182	1.435311e-05	-5.337663e-06	0.01197885	0.00859497	1.952033e-06	-4.386922e-07
	1.435311e-05	-5.337663e-06	0.02192774	0.00301408	6.336282e-05	-2.172066e-05	0.01151052	0.008996515
	0.01197885	0.00859497	6.336282e-05	-2.172066e-05	0.02238523	0.002278345	6.878279e-05	-2.128529e-05
	1.952033e-06	-4.386922e-07	0.01151052	0.008996515	6.878279e-05	-2.128529e-05	0.02202343	0.002939964
3.5e+08	0.02421421	0.0002221415	1.355206e-05	-6.728009e-06	0.01357154	0.007671435	1.929149e-06	-6.819687e-07
	1.355206e-05	-6.728009e-06	0.02387114	0.0008521358	6.012355e-05	-2.778668e-05	0.01309708	0.008187313
	0.01357154	0.007671435	6.012355e-05	-2.778668e-05	0.02428584	-1.137376e-05	6.555816e-05	-2.787327e-05
	1.929149e-06	-6.819687e-07	0.01309708	0.008187313	6.555816e-05	-2.787327e-05	0.02396056	0.0007626855
3.6e+08	0.02553124	-0.002423921	1.262166e-05	-8.008568e-06	0.01488771	0.006397887	1.8756e-06	-9.213414e-07
	1.262166e-05	-8.008568e-06	0.02523045	-0.001687189	5.631932e-05	-3.342432e-05	0.01443172	0.007029746
	0.01488771	0.006397887	5.631932e-05	-3.342432e-05	0.02557564	-0.002667673	6.172168e-05	-3.403551e-05
	1.8756e-06	-9.213414e-07	0.01443172	0.007029746	6.172168e-05	-3.403551e-05	0.02531033	-0.001790307
3.7e+08	0.02618028	-0.005292674	1.15773e-05	-9.168666e-06	0.01585239	0.00485034	1.793355e-06	-1.153599e-06
	1.15773e-05	-9.168666e-06	0.02594397	-0.004459261	5.200671e-05	-3.858305e-05	0.01543976	0.005593654
	0.01585239	0.00485034	5.200671e-05	-3.858305e-05	0.02619578	-0.005539786	5.732851e-05	-3.97179e-05
	1.793355e-06	-1.153599e-06	0.01543976	0.005593654	5.732851e-05	-3.97179e-05	0.0260115	-0.004573605
3.8e+08	0.02613622	-0.008225588	1.043462e-05	-1.019999e-05	0.0164108	0.003120301	1.684349e-06	-1.376274e-06
	1.043462e-05	-1.019999e-05	0.02598405	-0.007310929	4.724563e-05	-4.32207e-05	0.01606512	0.003964377
	0.0164108	0.003120301	4.724563e-05	-4.32207e-05	0.02612282	-0.008469151	5.243728e-05	-4.48741e-05
	1.684349e-06	-1.376274e-06	0.01606512	0.003964377	5.243728e-05	-4.48741e-05	0.02603708	-0.007433413
3.9e+08	0.02541003	-0.01106403	9.209133e-06	-1.109635e-05	0.01653142	0.00130958	1.550268e-06	-1.587452e-06
	9.209133e-06	-1.109635e-05	0.02535786	-0.01008829	4.2098e-05	-4.730307e-05	0.01627346	0.002237954
	0.01653142	0.00130958	4.2098e-05	-4.730307e-05	0.02536937	-0.01129749	4.710894e-05	-4.946515e-05
	1.550268e-06	-1.587452e-06	0.01627346	0.002237954	4.710894e-05	-4.946515e-05	0.025395	-0.01021536
4e+08	0.02404765	-0.01365726	7.916001e-06	-1.185332e-05	0.01620774	-0.0004754794	1.392423e-06	-1.785519e-06
	7.916001e-06	-1.185332e-05	0.02410636	-0.01264437	3.662659e-05	-5.080335e-05	0.01605402	0.0005157225
	0.01620774	-0.0004754794	3.662659e-05	-5.080335e-05	0.02398283	-0.01387476	4.140582e-05	-5.345895e-05
	1.392423e-06	-1.785519e-06	0.01605402	0.0005157225	4.140582e-05	-5.345895e-05	0.02412714	-0.01277218
4.1e+08	0.02212713	-0.01586995	6.569862e-06	-1.246792e-05	0.01545864	-0.002130034	1.211742e-06	-1.9689e-06
	6.569862e-06	-1.246792e-05	0.02230176	-0.01484634	3.089426e-05	-5.370153e-05	0.01542026	-0.001101364
	0.01545864	-0.002130034	3.089426e-05	-5.370153e-05	0.02204247	-0.01606661	3.539111e-05	-5.682971e-05
	1.211742e-06	-1.9689e-06	0.01542026	-0.001101364	3.539111e-05	-5.682971e-05	0.02230664	-0.01497102
4.2e+08	0.01975414	-0.01758879	5.18484e-06	-1.293833e-05	0.01432731	-0.003556694	1.00885e-06	-2.135822e-06
	5.18484e-06	-1.293833e-05	0.02004331	-0.01658199	2.496347e-05	-5.598365e-05	0.01440905	-0.002518419
	0.01432731	-0.003556694	2.496347e-05	-5.598365e-05	0.0196549	-0.01776096	2.912842e-05	-5.955742e-05
	1.00885e-06	-2.135822e-06	0.01440905	-0.002518419	2.912842e-05	-5.955742e-05	0.02003368	-0.01669985
4.3e+08	0.01705625	-0.01872803	3.774629e-06	-1.32636e-05	0.01287885	-0.004671081	7.842456e-07	-2.284128e-06
	3.774629e-06	-1.32636e-05	0.01745192	-0.01776504	1.889598e-05	-5.764124e-05	0.01307859	-0.003651967
	0.01287885	-0.004671081	1.889598e-05	-5.764124e-05	0.0169483	-0.01887342	2.268166e-05	-6.16274e-05
	7.842456e-07	-2.284128e-06	0.01307859	-0.003651967	2.268166e-05	-6.16274e-05	0.01743006	-0.01787278
4.4e+08	0.01417601	-0.01923343	2.352637e-06	-1.344353e-05	0.01119657	-0.005406662	5.385222e-07	-2.411177e-06
	2.352637e-06	-1.344353e-05	0.01466371	-0.01833914	1.275275e-05	-5.867075e-05	0.01150517	-0.00443467
	0.01119657	-0.005406662	1.275275e-05	-5.867075e-05	0.01406553	-0.01935118	1.611503e-05	-6.303002e-05
	5.385222e-07	-2.411177e-06	0.01150517	-0.00443467	1.611503e-05	-6.303002e-05	0.01463264	-0.01843409
4.5e+08	0.01126349	-0.01908469	9.321583e-07	-1.347864e-05	0.009377228	-0.005718582	2.72631e-07	-2.513835e-06
	9.321583e-07	-1.347864e-05	0.01182283	-0.01828032	6.59402e-06	-5.907335e-05	0.009778796	-0.004819149
	0.009377228	-0.005718582	6.59402e-06	-5.907335e-05	0.01115658	-0.01917539	9.493062e-06	-6.376072e-05
	2.72631e-07	-2.513835e-06	0.009778796	-0.004819149	9.493062e-06	-6.376072e-05	0.01178618	-0.01836057
4.6e+08	0.00846835	-0.01829604	-4.734744e-07	-1.337019e-05	0.007525522	-0.005586272	-1.187386e-08	-2.588571e-06
	-4.734744e-07	-1.337019e-05	0.009074	-0.01759775	4.795553e-07	-5.885472e-05	0.007998137	-0.00478068
	0.007525522	-0.005586272	4.795553e-07	-5.885472e-05	0.008370746	-0.01836162	2.880637e-06	-6.382011e-05
	-1.187387e-08	-2.588571e-06	0.007998137	-0.00478068	2.880637e-06	-6.382011e-05	0.009035776	-0.01766231
4.7e+08	0.005932109	-0.01691509	-1.85079e-06	-1.312033e-05	0.005748084	-0.005014665	-3.126159e-07	-2.631572e-06
	-1.85079e-06	-1.312033e-05	0.006555061	-0.0163328	-5.531043e-06	-5.802524e-05	0.006264872	-0.00431861
	0.005748084	-0.005014665	-5.531043e-06	-5.802524e-05	0.005848888	-0.01695867	-3.656961e-06	-6.321389e-05
	-3.126159e-07	-2.631572e-06	0.006264872	-0.00431861	-3.656961e-06	-6.321389e-05	0.006519449	-0.01638161
4.8e+08	0.003780851	-0.01501992	-3.18613e-06	-1.273229e-05	0.004147337	-0.004033938	-6.262783e-07	-2.63917e-06
