!$
! Info: Touchstone file created by Circ.  Input file=Tx_2in_Rx_93ohms_TxVia_10mils_RxVia_20mils.circ
!$
# Hz S RI R 50
0	0.001962896	2.188874e-26	1.123215e-10	3.524543e-29	2.387776e-05	2.038366e-24	-5.110437e-09	6.261098e-25
	1.123335e-10	3.544133e-29	0.001963585	2.850894e-26	5.523646e-10	2.261681e-27	2.196021e-05	2.721936e-24
	2.257581e-05	1.986156e-24	5.523025e-10	2.268932e-27	0.001978362	2.296428e-26	-9.272222e-09	1.149478e-24
	-5.109542e-09	6.260003e-25	2.341893e-05	2.801528e-24	-9.272419e-09	1.149502e-24	0.001969247	2.725003e-26
1e+07	0.002803882	0.000102141	5.203373e-11	-1.544235e-11	4.650141e-05	0.0004897544	-9.519329e-09	1.612427e-08
	5.203379e-11	-1.544264e-11	0.002859811	0.0001016156	6.984137e-10	1.105742e-09	4.574107e-05	0.0004877511
	4.645756e-05	0.0004897577	6.984136e-10	1.105742e-09	0.002875935	0.0001030248	-1.08775e-08	1.568942e-08
	-9.519329e-09	1.612427e-08	4.577311e-05	0.0004877397	-1.08775e-08	1.568942e-08	0.002819468	9.766839e-05
2e+07	0.003421204	-0.0004196257	4.625321e-11	-1.437097e-11	6.596307e-05	0.0009848183	-9.661403e-09	1.18756e-08
	4.625304e-11	-1.437111e-11	0.003462781	-0.0004418669	8.964517e-10	1.95119e-09	6.403988e-05	0.0009812122
	6.595327e-05	0.0009848461	8.964518e-10	1.95119e-09	0.003482316	-0.0004398515	-1.134231e-08	1.192581e-08
	-9.661403e-09	1.18756e-08	6.403678e-05	0.0009811913	-1.134231e-08	1.192581e-08	0.003432696	-0.0004292536
3e+07	0.003847526	-0.001193065	6.48175e-11	-3.337948e-11	0.0001257967	0.001461999	-7.635952e-09	1.136408e-08
	6.481746e-11	-3.337946e-11	0.003875164	-0.001223326	1.014796e-09	2.7393e-09	0.000118242	0.001457679
	0.0001257974	0.001462004	1.014796e-09	2.7393e-09	0.003900179	-0.001221021	-9.04076e-09	1.200759e-08
	-7.635952e-09	1.136408e-08	0.0001182369	0.001457677	-9.04076e-09	1.200759e-08	0.003853821	-0.001205634
4e+07	0.004155865	-0.002063564	7.390582e-11	-5.686257e-11	0.0002155679	0.0019305	-5.939927e-09	1.078025e-08
	7.390581e-11	-5.686259e-11	0.004168764	-0.00209827	1.106454e-09	3.524509e-09	0.0002029844	0.001925818
	0.000215564	0.001930497	1.106454e-09	3.524509e-09	0.004201343	-0.002096258	-7.132614e-09	1.164674e-08
	-5.939927e-09	1.078025e-08	0.000202984	0.001925819	-7.132614e-09	1.164674e-08	0.004155781	-0.002080145
5e+07	0.004373204	-0.002992076	8.097647e-11	-7.325832e-11	0.0003244419	0.002391643	-5.02831e-09	1.025325e-08
	8.097643e-11	-7.325833e-11	0.004370167	-0.003028976	1.195342e-09	4.297232e-09	0.0003056845	0.002387089
	0.0003244403	0.002391642	1.195342e-09	4.297232e-09	0.004412287	-0.003028066	-6.139288e-09	1.114564e-08
	-5.02831e-09	1.025325e-08	0.000305684	0.002387089	-6.139288e-09	1.114564e-08	0.004363891	-0.003012741
6e+07	0.004512722	-0.003959104	9.439409e-11	-7.109878e-11	0.00045238	0.0028453	-5.141518e-09	9.942964e-09
	9.439417e-11	-7.109877e-11	0.004492397	-0.003996341	1.298278e-09	5.049824e-09	0.0004263458	0.002841422
	0.0004523853	0.002845298	1.298278e-09	5.049824e-09	0.004545893	-0.003997486	-6.247744e-09	1.061373e-08
	-5.141518e-09	9.942964e-09	0.0004263429	0.002841423	-6.247744e-09	1.061373e-08	0.004491851	-0.00398302
7e+07	0.004582137	-0.004952361	1.244556e-10	4.051636e-11	0.0005992192	0.003290999	-7.289726e-09	9.414308e-09
	1.244559e-10	4.051626e-11	0.004543125	-0.004988191	1.472827e-09	5.807843e-09	0.0005648416	0.003288391
	0.0005992297	0.003290992	1.472827e-09	5.807843e-09	0.004609703	-0.004992434	-7.957758e-09	9.368711e-09
	-7.289726e-09	9.414308e-09	0.0005648369	0.003288394	-7.957758e-09	9.368711e-09	0.004547874	-0.004978856
8e+07	0.004586569	-0.005962935	1.150261e-09	-1.023377e-09	0.0007647044	0.003728093	-1.141627e-08	2.76145e-09
	1.150261e-09	-1.023377e-09	0.004527471	-0.005995574	1.542655e-09	6.828515e-09	0.0007209362	0.003727399
	0.0007647151	0.003728083	1.542655e-09	6.828515e-09	0.004608739	-0.006004034	-1.028264e-08	4.112799e-09
	-1.141627e-08	2.76145e-09	0.0007209315	0.003727403	-1.028264e-08	4.112799e-09	0.004536991	-0.005991646
9e+07	0.004529809	-0.006983311	2.098502e-10	-1.616946e-10	0.0009484953	0.004155833	-3.230917e-09	-2.507735e-09
	2.098506e-10	-1.616951e-10	0.004449283	-0.007010778	1.390423e-09	7.469753e-09	0.0008943044	0.004157776
	0.0009485016	0.004155824	1.390423e-09	7.469753e-09	0.004546764	-0.007024642	-4.322804e-09	-1.404355e-09
	-3.230917e-09	-2.507735e-09	0.0008943016	0.004157779	-4.322804e-09	-1.404355e-09	0.004462631	-0.007013893
1e+08	0.004415937	-0.00800269	1.18924e-10	-1.681804e-10	0.001150167	0.004573279	-7.310268e-11	-2.709542e-10
	1.18924e-10	-1.681804e-10	0.004312925	-0.008021977	1.460922e-09	8.045407e-09	0.001084563	0.004578765
	0.001150166	0.004573279	1.460922e-09	8.045407e-09	0.004428059	-0.008042498	-2.599281e-10	2.612109e-10
	-7.310268e-11	-2.709542e-10	0.001084563	0.004578765	-2.599281e-10	2.612109e-10	0.004328568	-0.008034467
1.1e+08	0.004266532	-0.009039564	1.266488e-10	-1.895785e-10	0.001368589	0.004980261	-9.791829e-11	-2.919193e-10
	1.266488e-10	-1.895785e-10	0.004142671	-0.00904933	1.4823e-09	8.786415e-09	0.001290601	0.004989565
	0.001368589	0.004980261	1.4823e-09	8.786415e-09	0.004278128	-0.009078046	-3.332814e-10	3.057905e-10
	-9.791829e-11	-2.919193e-10	0.001290601	0.004989564	-3.332814e-10	3.057905e-10	0.004156904	-0.009069452
1.2e+08	0.004055989	-0.01008302	1.347378e-10	-2.117633e-10	0.001604032	0.005376147	-1.238204e-10	-3.119421e-10
	1.347378e-10	-2.117633e-10	0.003909812	-0.01008368	1.495909e-09	9.5285e-09	0.001512839	0.005390269
	0.001604031	0.005376147	1.495909e-09	9.5285e-09	0.004066298	-0.01012242	-4.122748e-10	3.557071e-10
	-1.238204e-10	-3.119421e-10	0.001512839	0.005390269	-4.122748e-10	3.557071e-10	0.003922367	-0.01011021
1.3e+08	0.00378852	-0.01112398	1.429884e-10	-2.347148e-10	0.001855955	0.005760021	-1.513577e-10	-3.305815e-10
	1.429884e-10	-2.347148e-10	0.00361864	-0.01111481	1.502392e-09	1.027251e-08	0.001750812	0.00577997
	0.001855955	0.005760021	1.502392e-09	1.027251e-08	0.003796843	-0.01116518	-4.967296e-10	4.114379e-10
	-1.513577e-10	-3.305815e-10	0.001750812	0.00577997	-4.967296e-10	4.114379e-10	0.003629047	-0.01114738
1.4e+08	0.003466746	-0.01215851	1.515271e-10	-2.585225e-10	0.002123788	0.006131133	-1.804775e-10	-3.477362e-10
	1.515271e-10	-2.585225e-10	0.003271766	-0.01213844	1.502499e-09	1.101903e-08	0.002003983	0.006157902
	0.002123788	0.006131133	1.502499e-09	1.101903e-08	0.003472397	-0.01220193	-5.860807e-10	4.732915e-10
	-1.804775e-10	-3.477362e-10	0.002003983	0.006157902	-5.860807e-10	4.732915e-10	0.003279516	-0.01217678
1.5e+08	0.003092667	-0.01318355	1.60794e-10	-2.834389e-10	0.00240693	0.006488774	-2.10928e-10	-3.634567e-10
	1.60794e-10	-2.834389e-10	0.002871206	-0.01315128	1.496881e-09	1.176857e-08	0.002271777	0.006523366
	0.00240693	0.006488774	1.496881e-09	1.176857e-08	0.00309501	-0.01322936	-6.794362e-10	5.413788e-10
	-2.10928e-10	-3.634567e-10	0.002271777	0.006523366	-6.794362e-10	5.413788e-10	0.002875795	-0.01319513
1.6e+08	0.00266794	-0.01419643	1.700588e-10	-3.092025e-10	0.002704742	0.00683226	-2.429836e-10	-3.774046e-10
	1.700588e-10	-3.092025e-10	0.002418662	-0.01415047	1.486116e-09	1.252155e-08	0.002553587	0.006875708
	0.002704742	0.00683226	1.486116e-09	1.252155e-08	0.002666396	-0.01424462	-7.770481e-10	6.16289e-10
	-2.429836e-10	-3.774046e-10	0.002553587	0.006875708	-7.770481e-10	6.16289e-10	0.002419609	-0.01419956
1.7e+08	0.00219403	-0.01519466	1.792922e-10	-3.358473e-10	0.003016554	0.007160937	-2.765651e-10	-3.894781e-10
	1.792922e-10	-3.358473e-10	0.001915671	-0.01513335	1.470721e-09	1.327837e-08	0.002848781	0.007214316
	0.003016554	0.007160937	1.470721e-09	1.327837e-08	0.002188085	-0.01524512	-8.784629e-10	6.982873e-10
	-2.765651e-10	-3.894781e-10	0.002848781	0.007214316	-8.784629e-10	6.982873e-10	0.001912522	-0.01518739
1.8e+08	0.001672302	-0.01617588	1.884585e-10	-3.634065e-10	0.003341664	0.007474177	-3.11585e-10	-3.9958e-10
	1.884585e-10	-3.634065e-10	0.001363689	-0.01609742	1.451183e-09	1.403939e-08	0.003156704	0.007538606
	0.003341664	0.007474177	1.451183e-09	1.403939e-08	0.001661498	-0.01622844	-9.832232e-10	7.876115e-10
	-3.11585e-10	-3.9958e-10	0.003156704	0.007538606	-9.832232e-10	7.876115e-10	0.001356018	-0.01615612
1.9e+08	0.001104082	-0.01713783	1.975162e-10	-3.919124e-10	0.003679336	0.007771385	-3.479486e-10	-4.076175e-10
	1.975162e-10	-3.919124e-10	0.0007641517	-0.01704029	1.427967e-09	1.480496e-08	0.003476675	0.007848032
	0.003679336	0.007771385	1.427967e-09	1.480496e-08	0.001088012	-0.01719226	-1.090867e-09	8.844726e-10
	-3.479486e-10	-4.076175e-10	0.003476676	0.007848032	-1.090867e-09	8.844726e-10	0.0007515603	-0.01710334
2e+08	0.0004906972	-0.01807835	2.064197e-10	-4.213957e-10	0.004028808	0.008051999	-3.855553e-10	-4.135021e-10
	2.064197e-10	-4.213957e-10	0.0001185048	-0.01795968	1.401527e-09	1.557539e-08	0.003807994	0.008142075
	0.004028808	0.008052	1.401527e-09	1.557539e-08	0.0004689966	-0.01813438	-1.20093e-09	9.890561e-10
	-3.855553e-10	-4.135021e-10	0.003807994	0.008142075	-1.20093e-09	9.890561e-10	0.0001006189	-0.01802677
2.1e+08	-0.0001665015	-0.01899533	2.151187e-10	-4.518857e-10	0.004389288	0.008315492	-4.242987e-10	-4.171495e-10
	2.151187e-10	-4.518857e-10	-0.0005717737	-0.01885341	1.372316e-09	1.635096e-08	0.004149935	0.008420249
	0.004389288	0.008315492	1.372316e-09	1.635096e-08	-0.000194166	-0.01905269	-1.312939e-09	1.101522e-09
	-4.242987e-10	-4.171495e-10	0.004149935	0.008420249	-1.312939e-09	1.101522e-09	-0.000595305	-0.0189242
2.2e+08	-0.0008661295	-0.01988678	2.23559e-10	-4.834099e-10	0.004759959	0.008561373	-4.640672e-10	-4.1848e-10
	2.23559e-10	-4.834099e-10	-0.001305164	-0.01971938	1.340785e-09	1.713196e-08	0.004501753	0.008682101
	0.004759959	0.008561373	1.340785e-09	1.713196e-08	-0.0009000618	-0.01994518	-1.426422e-09	1.222006e-09
	-4.640672e-10	-4.1848e-10	0.004501753	0.008682101	-1.426422e-09	1.222006e-09	-0.001334669	-0.01979354
2.3e+08	-0.001606754	-0.02075076	2.316832e-10	-5.159935e-10	0.005139983	0.008789188	-5.047439e-10	-4.174189e-10
	2.316832e-10	-5.159935e-10	-0.002080094	-0.02055561	1.307386e-09	1.791862e-08	0.004862682	0.008927212
	0.005139983	0.008789188	1.307386e-09	1.791862e-08	-0.001647234	-0.0208099	-1.5409e-09	1.350617e-09
	-5.047439e-10	-4.174189e-10	0.004862682	0.008927212	-1.5409e-09	1.350617e-09	-0.002115883	-0.02063279
2.4e+08	-0.002386896	-0.02158544	2.394296e-10	-5.496599e-10	0.005528497	0.008998524	-5.462071e-10	-4.138966e-10
	2.394296e-10	-5.496599e-10	-0.002894944	-0.02136019	1.272576e-09	1.871114e-08	0.00523194	0.009155195
	0.005528497	0.008998524	1.272576e-09	1.871114e-08	-0.002434187	-0.021645	-1.655894e-09	1.487442e-09
	-5.462071e-10	-4.138966e-10	0.00523194	0.009155195	-1.655894e-09	1.487442e-09	-0.002937309	-0.02144003
2.5e+08	-0.003205029	-0.02238907	2.467362e-10	-5.844283e-10	0.00592462	0.009189008	-5.883303e-10	-4.07849e-10
	2.467362e-10	-5.844283e-10	-0.003748043	-0.02213134	1.236815e-09	1.950973e-08	0.005608725	0.0093657
	0.005924621	0.009189008	1.236815e-09	1.950973e-08	-0.003259373	-0.02244871	-1.770917e-09	1.632542e-09
	-5.883303e-10	-4.07849e-10	0.005608725	0.0093657	-1.770917e-09	1.632542e-09	-0.003797254	-0.02221347
2.6e+08	-0.004059574	-0.02315998	2.517696e-10	-6.21063e-10	0.006327456	0.009360308	-6.309832e-10	-3.991933e-10
	2.517696e-10	-6.21063e-10	-0.00463767	-0.02286735	1.199754e-09	2.031397e-08	0.00599222	0.009558415
	0.006327456	0.009360308	1.199754e-09	2.031397e-08	-0.004121202	-0.02321937	-1.887272e-09	1.785203e-09
	-6.309832e-10	-3.991933e-10	0.00599222	0.009558415	-1.887272e-09	1.785203e-09	-0.004693979	-0.0229514
2.7e+08	-0.004948904	-0.02389659	2.557587e-10	-6.588462e-10	0.006736091	0.009512135	-6.740269e-10	-3.878944e-10
	2.557587e-10	-6.588462e-10	-0.005562051	-0.02356661	1.162452e-09	2.112449e-08	0.006381596	0.009733063
	0.006736091	0.009512135	1.162452e-09	2.112449e-08	-0.005018031	-0.02395537	-2.00316e-09	1.946172e-09
	-6.740269e-10	-3.878944e-10	0.006381596	0.009733063	-2.00316e-09	1.946172e-09	-0.005625692	-0.02365219
2.8e+08	-0.005871353	-0.0245974	2.589184e-10	-6.976375e-10	0.007149599	0.009644243	-7.173213e-10	-3.739104e-10
	2.589184e-10	-6.976375e-10	-0.006519373	-0.02422763	1.125502e-09	2.19415e-08	0.006776009	0.009889405
	0.007149599	0.009644243	1.125502e-09	2.19415e-08	-0.005948178	-0.02465522	-2.117805e-09	2.115586e-09
	-7.173213e-10	-3.739104e-10	0.006776009	0.009889405	-2.117805e-09	2.115586e-09	-0.006590561	-0.02431432
2.9e+08	-0.006825212	-0.02526103	2.611789e-10	-7.374265e-10	0.007567044	0.009756427	-7.607227e-10	-3.572024e-10
	2.611789e-10	-7.374265e-10	-0.007507778	-0.02484898	1.089369e-09	2.276508e-08	0.007174607	0.01002724
	0.007567044	0.009756427	1.089369e-09	2.276508e-08	-0.006909913	-0.02531751	-2.230719e-09	2.293424e-09
	-7.607227e-10	-3.572024e-10	0.007174607	0.01002724	-2.230719e-09	2.293424e-09	-0.007586708	-0.02493639
3e+08	-0.007808725	-0.02588616	2.624688e-10	-7.781989e-10	0.00798748	0.009848529	-8.040839e-10	-3.377386e-10
	2.624688e-10	-7.781989e-10	-0.008525367	-0.02542936	1.054518e-09	2.35953e-08	0.007576529	0.01014642
	0.00798748	0.009848529	1.054518e-09	2.35953e-08	-0.007901469	-0.0259409	-2.341417e-09	2.479637e-09
	-8.040839e-10	-3.377386e-10	0.007576529	0.01014642	-2.341417e-09	2.479637e-09	-0.008612215	-0.02551707
3.1e+08	-0.008820111	-0.02647155	2.627148e-10	-8.199369e-10	0.008409956	0.009920434	-8.472545e-10	-3.154945e-10
	2.627148e-10	-8.199369e-10	-0.009570211	-0.02596755	1.021412e-09	2.443219e-08	0.007980907	0.0102468
	0.008409956	0.009920435	1.021412e-09	2.443219e-08	-0.008921043	-0.02652416	-2.449415e-09	2.674155e-09
	-8.472545e-10	-3.154945e-10	0.007980907	0.0102468	-2.449415e-09	2.674155e-09	-0.009665131	-0.02605512
3.2e+08	-0.009857545	-0.02701608	2.618423e-10	-8.626183e-10	0.008833515	0.009972073	-8.900817e-10	-2.904533e-10
	2.618423e-10	-8.626183e-10	-0.01064034	-0.02646242	9.905097e-10	2.527575e-08	0.008386869	0.01032832
	0.008833515	0.009972073	9.905097e-10	2.527575e-08	-0.009966796	-0.02706613	-2.554235e-09	2.876879e-09
	-8.900817e-10	-2.904533e-10	0.008386869	0.01032832	-2.554235e-09	2.876879e-09	-0.01074347	-0.02654942
3.3e+08	-0.01091918	-0.02751868	2.597757e-10	-9.062164e-10	0.0092572	0.01000342	-9.324098e-10	-2.626061e-10
	2.597757e-10	-9.062164e-10	-0.01173377	-0.02691295	9.622691e-10	2.612595e-08	0.00879354	0.01039094
	0.0092572	0.01000342	9.622691e-10	2.612595e-08	-0.01103685	-0.02756576	-2.655404e-09	3.087686e-09
	-9.324098e-10	-2.626061e-10	0.00879354	0.01039094	-2.655404e-09	3.087686e-09	-0.01184521	-0.02699893
3.4e+08	-0.01200313	-0.02797839	2.564382e-10	-9.507001e-10	0.009680051	0.01001449	-9.740816e-10	-2.31952e-10
	2.564382e-10	-9.507001e-10	-0.01284846	-0.02731819	9.371416e-10	2.698276e-08	0.009200044	0.01043464
	0.009680051	0.01001449	9.371416e-10	2.698276e-08	-0.01212932	-0.02802207	-2.752459e-09	3.30643e-09
	-9.740816e-10	-2.31952e-10	0.009200044	0.01043464	-2.752459e-09	3.30643e-09	-0.01296832	-0.02740272
3.5e+08	-0.0131075	-0.02839434	2.517521e-10	-9.960328e-10	0.01010111	0.01000536	-1.014938e-09	-1.984987e-10
	2.517521e-10	-9.960328e-10	-0.01398239	-0.02767732	9.155733e-10	2.784611e-08	0.009605506	0.01045948
	0.01010111	0.01000536	9.155733e-10	2.784611e-08	-0.01324227	-0.02843417	-2.84494e-09	3.53294e-09
	-1.014938e-09	-1.984987e-10	0.009605506	0.01045948	-2.84494e-09	3.53294e-09	-0.01411072	-0.02775993
3.6e+08	-0.01423037	-0.02876573	2.456395e-10	-1.042173e-09	0.01051943	0.009976122	-1.05482e-09	-1.622622e-10
	2.456395e-10	-1.042173e-09	-0.01513348	-0.02798959	8.980043e-10	2.87159e-08	0.01000906	0.01046553
	0.01051943	0.009976122	8.980043e-10	2.87159e-08	-0.01437376	-0.02880126	-2.932402e-09	3.767023e-09
	-1.05482e-09	-1.622622e-10	0.01000906	0.01046553	-2.932402e-09	3.767023e-09	-0.01527033	-0.02806982
3.7e+08	-0.01536978	-0.02909186	2.380221e-10	-1.089074e-09	0.01093406	0.009926938	-1.093565e-09	-1.232673e-10
	2.380221e-10	-1.089074e-09	-0.01629966	-0.02825434	8.84867e-10	2.9592e-08	0.01040982	0.01045292
	0.01093406	0.009926938	8.84867e-10	2.9592e-08	-0.01552182	-0.02912264	-3.014407e-09	4.00846e-09
	-1.093565e-09	-1.232673e-10	0.01040982	0.01045292	-3.014407e-09	4.00846e-09	-0.01644504	-0.02833173
3.8e+08	-0.01652378	-0.0293721	2.288221e-10	-1.136682e-09	0.01134407	0.009858005	-1.131014e-09	-8.154773e-11
	2.288221e-10	-1.136682e-09	-0.01747884	-0.02847101	8.765859e-10	3.047429e-08	0.01080695	0.01042179
	0.01134407	0.009858005	8.765859e-10	3.047429e-08	-0.01668446	-0.02939767	-3.09053e-09	4.257015e-09
	-1.131014e-09	-8.154773e-11	0.01080695	0.01042179	-3.09053e-09	4.257015e-09	-0.01763275	-0.02854509
3.9e+08	-0.01769041	-0.02960592	2.179623e-10	-1.184938e-09	0.01174852	0.00976956	-1.167007e-09	-3.7146e-11
	2.179623e-10	-1.184938e-09	-0.0186689	-0.02863914	8.735763e-10	3.13626e-08	0.01119959	0.01037236
	0.01174852	0.00976956	8.735763e-10	3.13626e-08	-0.0178597	-0.02962581	-3.160359e-09	4.512426e-09
	-1.167007e-09	-3.7146e-11	0.01119959	0.01037236	-3.160359e-09	4.512426e-09	-0.01883131	-0.02870944
4e+08	-0.01886766	-0.02979287	2.053664e-10	-1.233777e-09	0.0121465	0.009661889	-1.201383e-09	9.886237e-12
	2.053664e-10	-1.233777e-09	-0.01986774	-0.02875834	8.762435e-10	3.225674e-08	0.01158689	0.01030485
	0.0121465	0.009661889	8.762435e-10	3.225674e-08	-0.01904553	-0.02980662	-3.223493e-09	4.774412e-09
	-1.201383e-09	9.886237e-12	0.01158689	0.01030485	-3.223493e-09	4.774412e-09	-0.0200386	-0.0288244
4.1e+08	-0.02005357	-0.02993257	1.909597e-10	-1.283128e-09	0.01253711	0.009535315	-1.233985e-09	5.948832e-11
	1.909597e-10	-1.283128e-09	-0.02107324	-0.02882833	8.849823e-10	3.31565e-08	0.01196803	0.01021955
	0.01253711	0.009535315	8.849823e-10	3.31565e-08	-0.02023992	-0.02993971	-3.27955e-09	5.042675e-09
	-1.233985e-09	5.948832e-11	0.01196803	0.01021955	-3.27955e-09	5.042675e-09	-0.02125249	-0.02888969
4.2e+08	-0.02124613	-0.03002475	1.746697e-10	-1.332912e-09	0.01291946	0.009390206	-1.264657e-09	1.115905e-10
	1.746697e-10	-1.332912e-09	-0.0222833	-0.02884892	9.001756e-10	3.406166e-08	0.01234219	0.01011677
	0.01291946	0.009390206	9.001756e-10	3.406166e-08	-0.02144088	-0.03002482	-3.32816e-09	5.316893e-09
	-1.264657e-09	1.115905e-10	0.01234219	0.01011677	-3.32816e-09	5.316893e-09	-0.02247082	-0.0289051
4.3e+08	-0.02244334	-0.0300692	1.564262e-10	-1.383046e-09	0.0132927	0.00922697	-1.293245e-09	1.661141e-10
	1.564262e-10	-1.383046e-09	-0.0234958	-0.02881999	9.221943e-10	3.497197e-08	0.01270857	0.009996851
	0.0132927	0.00922697	9.221943e-10	3.497197e-08	-0.02264636	-0.03006173	-3.368971e-09	5.59673e-09
	-1.293245e-09	1.661141e-10	0.01270857	0.009996851	-3.368971e-09	5.59673e-09	-0.02369147	-0.02887055
4.4e+08	-0.02364322	-0.0300658	1.361621e-10	-1.433437e-09	0.01365596	0.009046053	-1.319599e-09	2.229712e-10
	1.361621e-10	-1.433437e-09	-0.02470863	-0.02874154	9.513957e-10	3.588717e-08	0.0130664	0.00986019
	0.01365596	0.009046053	9.513957e-10	3.588717e-08	-0.02385437	-0.03005034	-3.401647e-09	5.881832e-09
	-1.319599e-09	2.229712e-10	0.0130664	0.00986019	-3.401647e-09	5.881832e-09	-0.02491231	-0.02878602
4.5e+08	-0.02484378	-0.03001453	1.138142e-10	-1.483989e-09	0.01400843	0.008847943	-1.343573e-09	2.820655e-10
	1.138142e-10	-1.483989e-09	-0.02591969	-0.02861362	9.881239e-10	3.680697e-08	0.0134149	0.009707205
	0.01400843	0.008847943	9.881239e-10	3.680697e-08	-0.02506288	-0.02999061	-3.425871e-09	6.171828e-09
	-1.343573e-09	2.820655e-10	0.0134149	0.009707205	-3.425871e-09	6.171828e-09	-0.02613121	-0.02865157
4.6e+08	-0.02604303	-0.02991542	8.932309e-11	-1.534597e-09	0.0143493	0.008633162	-1.365023e-09	3.43291e-10
	8.932309e-11	-1.534597e-09	-0.0271269	-0.0284364	1.032707e-09	3.773106e-08	0.01375333	0.009538353
	0.0143493	0.008633162	1.032707e-09	3.773106e-08	-0.02626989	-0.0298826	-3.441338e-09	6.466331e-09
	-1.365023e-09	3.43291e-10	0.01375333	0.009538353	-3.441338e-09	6.466331e-09	-0.02734608	-0.02846739
4.7e+08	-0.02723901	-0.0297686	6.263467e-11	-1.58515e-09	0.0146778	0.008402271	-1.383812e-09	4.065344e-10
	6.263467e-11	-1.58515e-09	-0.0283282	-0.02821012	1.08546e-09	3.865912e-08	0.01408098	0.009354122
	0.0146778	0.008402271	1.08546e-09	3.865912e-08	-0.0274734	-0.02972644	-3.447772e-09	6.764943e-09
