!$
! Info: Touchstone file created by Circ.  Input file=Tx_2in_Rx_93ohms_TxVia_10mils_RxVia_20mils.circ
!$
# Hz S RI R 50
0	0.001963973	2.440843e-26	3.265421e-09	8.273019e-28	2.253391e-05	1.960333e-24	-3.576313e-09	4.714697e-25
	3.265413e-09	8.274936e-28	0.001963585	2.850894e-26	-2.929449e-09	4.076997e-25	2.196021e-05	2.721936e-24
	2.480779e-05	1.964993e-24	-2.927489e-09	4.074573e-25	0.001956816	2.123589e-26	1.250976e-08	9.928527e-30
	-3.573552e-09	4.711298e-25	2.341893e-05	2.801528e-24	1.250985e-08	9.767362e-30	0.001969247	2.725003e-26
1e+07	0.002860773	0.0001019738	4.679495e-09	8.516382e-09	4.637892e-05	0.0004876265	3.137405e-09	5.81216e-08
	4.679496e-09	8.516383e-09	0.002859811	0.0001016156	5.002762e-10	5.842029e-08	4.574107e-05	0.0004877511
	4.642668e-05	0.0004876	5.002764e-10	5.842029e-08	0.002820423	9.803647e-05	-1.261757e-08	4.506018e-08
	3.137405e-09	5.81216e-08	4.577311e-05	0.0004877397	-1.261757e-08	4.506018e-08	0.002819468	9.766839e-05
2e+07	0.003466677	-0.0004411767	6.426092e-09	1.532816e-08	6.656247e-05	0.0009807992	1.099519e-08	8.126437e-08
	6.426091e-09	1.532816e-08	0.003462781	-0.0004418669	4.34667e-09	8.206032e-08	6.403988e-05	0.0009812122
	6.655437e-05	0.0009807744	4.346671e-09	8.206032e-08	0.003436443	-0.0004285776	-1.029298e-08	4.662565e-08
	1.099519e-08	8.126437e-08	6.403678e-05	0.0009811913	-1.029298e-08	4.662565e-08	0.003432696	-0.0004292536
3e+07	0.00388404	-0.001222505	8.217521e-09	2.190127e-08	0.0001238447	0.001456793	2.566949e-08	1.066099e-07
	8.217521e-09	2.190127e-08	0.003875164	-0.001223326	1.187863e-08	1.092358e-07	0.000118242	0.001457679
	0.0001238453	0.001456789	1.187863e-08	1.092358e-07	0.003862275	-0.001204888	-8.594206e-09	5.529079e-08
	2.566949e-08	1.066099e-07	0.0001182369	0.001457677	-8.594206e-09	5.529079e-08	0.003853821	-0.001205634
4e+07	0.004184666	-0.002097677	1.017693e-08	2.817576e-08	0.0002128589	0.001924184	4.048473e-08	1.299704e-07
	1.017693e-08	2.817576e-08	0.004168764	-0.00209827	1.791744e-08	1.352627e-07	0.0002029844	0.001925818
	0.000212863	0.00192418	1.791744e-08	1.352627e-07	0.004170907	-0.002079558	-5.405553e-09	6.362574e-08
	4.048473e-08	1.299704e-07	0.000202984	0.001925819	-5.405553e-09	6.362574e-08	0.004155781	-0.002080145
5e+07	0.004395112	-0.003029133	1.231195e-08	3.420146e-08	0.0003209873	0.002384347	5.594637e-08	1.524346e-07
	1.231195e-08	3.420146e-08	0.004370167	-0.003028976	2.264808e-08	1.611367e-07	0.0003056845	0.002387089
	0.0003209885	0.002384344	2.264808e-08	1.611367e-07	0.004387726	-0.003012865	-5.763671e-10	7.05455e-08
	5.594637e-08	1.524346e-07	0.000305684	0.002387089	-5.763673e-10	7.05455e-08	0.004363891	-0.003012741
6e+07	0.004528351	-0.003997913	1.46325e-08	4.000981e-08	0.0004481981	0.002837138	7.273047e-08	1.740504e-07
	1.46325e-08	4.000981e-08	0.004492397	-0.003996341	2.667985e-08	1.871043e-07	0.0004263458	0.002841422
	0.0004481981	0.00283714	2.667985e-08	1.871043e-07	0.004526237	-0.003984583	5.594621e-09	7.590134e-08
	7.273047e-08	1.740504e-07	0.0004263429	0.002841423	5.594621e-09	7.590134e-08	0.004491851	-0.00398302
7e+07	0.004591993	-0.004991963	1.714838e-08	4.561168e-08	0.0005943289	0.003282064	9.116291e-08	1.945873e-07
	1.714838e-08	4.561168e-08	0.004543125	-0.004988191	3.040379e-08	2.131341e-07	0.0005648416	0.003288391
	0.0005943299	0.003282068	3.040379e-08	2.131341e-07	0.004594565	-0.004982579	1.267811e-08	7.975039e-08
	9.116291e-08	1.945873e-07	0.0005648369	0.003288394	1.267811e-08	7.975039e-08	0.004547874	-0.004978856
8e+07	0.004591106	-0.006002441	1.986478e-08	5.100426e-08	0.0007591139	0.003718465	1.113431e-07	2.137802e-07
	1.986478e-08	5.100426e-08	0.004527471	-0.005995574	3.404166e-08	2.391401e-07	0.0007209362	0.003727399
	0.0007591163	0.00371847	3.404166e-08	2.391401e-07	0.004597804	-0.005998275	2.025393e-08	8.221404e-08
	1.113431e-07	2.137802e-07	0.0007209315	0.003727403	2.025393e-08	8.221404e-08	0.004536991	-0.005991646
9e+07	0.004529487	-0.007021738	2.278131e-08	5.617723e-08	0.0009422025	0.004145607	1.332445e-07	2.313883e-07
	2.278131e-08	5.617724e-08	0.004449283	-0.007010778	3.769479e-08	2.650379e-07	0.0008943044	0.004157776
	0.0009422049	0.00414561	3.769479e-08	2.650379e-07	0.004539481	-0.007024319	2.795795e-08	8.344711e-08
	1.332445e-07	2.313883e-07	0.0008943016	0.004157779	2.795795e-08	8.344711e-08	0.004462631	-0.007013893
1e+08	0.004411442	-0.008038137	2.589271e-08	6.111614e-08	0.001143187	0.004562662	1.567672e-07	2.472087e-07
	2.589271e-08	6.111614e-08	0.004312925	-0.008021977	4.142549e-08	2.907505e-07	0.001084563	0.004578765
	0.001143187	0.004562662	4.142549e-08	2.907505e-07	0.004423398	-0.008049814	3.549174e-08	8.362341e-08
	1.567672e-07	2.472087e-07	0.001084563	0.004578765	3.549174e-08	8.362341e-08	0.004328568	-0.008034467
1.1e+08	0.004261801	-0.009072605	2.914775e-08	6.583026e-08	0.001361436	0.004969269	1.807365e-07	2.63323e-07
	2.914775e-08	6.583026e-08	0.004142671	-0.00904933	4.329792e-08	3.177414e-07	0.001290601	0.004989565
	0.001361437	0.004969268	4.329792e-08	3.177414e-07	0.004272006	-0.009091188	3.98634e-08	9.007468e-08
	1.807365e-07	2.63323e-07	0.001290601	0.004989564	3.98634e-08	9.007468e-08	0.004156904	-0.009069452
1.2e+08	0.004050783	-0.01011532	3.255101e-08	7.031977e-08	0.001596615	0.005364554	2.061193e-07	2.777638e-07
	3.255101e-08	7.031977e-08	0.003909812	-0.01008368	4.501158e-08	3.446707e-07	0.001512839	0.005390269
	0.001596615	0.005364553	4.501158e-08	3.446707e-07	0.00405888	-0.0101399	4.442949e-08	9.622775e-08
	2.061193e-07	2.777638e-07	0.001512839	0.005390269	4.442949e-08	9.622775e-08	0.003922367	-0.01011021
1.3e+08	0.003782737	-0.01115612	3.609673e-08	7.457876e-08	0.001848198	0.005747753	2.328443e-07	2.904527e-07
	3.609673e-08	7.457876e-08	0.00361864	-0.01111481	4.659296e-08	3.71561e-07	0.001750812	0.00577997
	0.001848198	0.005747753	4.659296e-08	3.71561e-07	0.003788091	-0.01118649	4.918312e-08	1.020748e-07
	2.328443e-07	2.904527e-07	0.001750812	0.00577997	4.918312e-08	1.020748e-07	0.003629047	-0.01114738
1.4e+08	0.003460301	-0.01219082	3.977687e-08	7.860008e-08	0.002115624	0.006118168	2.608277e-07	3.013102e-07
	3.977687e-08	7.860008e-08	0.003271766	-0.01213844	4.806178e-08	3.984287e-07	0.002003983	0.006157902
	0.002115624	0.006118168	4.806178e-08	3.984287e-07	0.003462228	-0.01222675	5.41142e-08	1.076063e-07
	2.608277e-07	3.013102e-07	0.002003983	0.006157902	5.41142e-08	1.076063e-07	0.003279516	-0.01217678
1.5e+08	0.00308548	-0.01321624	4.358175e-08	8.237589e-08	0.0023983	0.006475114	2.899763e-07	3.102571e-07
	4.358175e-08	8.237589e-08	0.002871206	-0.01315128	4.943375e-08	4.252859e-07	0.002271777	0.006523366
	0.0023983	0.006475114	4.943375e-08	4.252859e-07	0.003083317	-0.01325744	5.921018e-08	1.128118e-07
	2.899763e-07	3.102571e-07	0.002271777	0.006523366	5.921018e-08	1.128118e-07	0.002875795	-0.01319513
1.6e+08	0.00265994	-0.01422962	4.750016e-08	8.589822e-08	0.002695598	0.006817924	3.201884e-07	3.172172e-07
	4.750016e-08	8.589822e-08	0.002418662	-0.01415047	5.072145e-08	4.52142e-07	0.002553587	0.006875708
	0.002695598	0.006817924	5.072145e-08	4.52142e-07	0.002653069	-0.01427576	6.445642e-08	1.176805e-07
	3.201884e-07	3.172172e-07	0.002553587	0.006875708	6.445642e-08	1.176805e-07	0.002419609	-0.01419956
1.7e+08	0.002185149	-0.01522843	5.151961e-08	8.915938e-08	0.003006858	0.007145951	3.513549e-07	3.22119e-07
	5.151961e-08	8.915938e-08	0.001915671	-0.01513335	5.193511e-08	4.790048e-07	0.002848781	0.007214316
	0.003006858	0.007145951	5.193511e-08	4.790048e-07	0.002173013	-0.01527913	6.983649e-08	1.222024e-07
	3.513549e-07	3.22119e-07	0.002848781	0.007214316	6.983649e-08	1.222024e-07	0.001912522	-0.01518739
1.8e+08	0.00166248	-0.01621028	5.562656e-08	9.215214e-08	0.003331383	0.007458574	3.833603e-07	3.248963e-07
	5.562656e-08	9.215214e-08	0.001363689	-0.01609742	5.308317e-08	5.058812e-07	0.003156704	0.007538606
	0.003331383	0.007458574	5.308317e-08	5.058812e-07	0.001644576	-0.01626514	7.533249e-08	1.263679e-07
	3.833603e-07	3.248963e-07	0.003156704	0.007538606	7.533249e-08	1.263679e-07	0.001356018	-0.01615612
1.9e+08	0.001093265	-0.0171729	5.980654e-08	9.486998e-08	0.003668444	0.007755199	4.16084e-07	3.254891e-07
	5.980654e-08	9.486998e-08	0.0007641517	-0.01704029	5.417284e-08	5.327775e-07	0.003476675	0.007848032
	0.003668444	0.007755199	5.417284e-08	5.327775e-07	0.001069141	-0.01723148	8.092531e-08	1.301684e-07
	4.16084e-07	3.254891e-07	0.003476676	0.007848032	8.092531e-08	1.301684e-07	0.0007515603	-0.01710334
2e+08	0.0004788379	-0.01811408	6.404436e-08	9.730715e-08	0.004017282	0.008035266	4.494005e-07	3.238443e-07
	6.404436e-08	9.730715e-08	0.0001185048	-0.01795968	5.521042e-08	5.596997e-07	0.003807994	0.008142075
	0.004017282	0.008035266	5.521042e-08	5.596997e-07	0.000448084	-0.01817596	8.659485e-08	1.335963e-07
	4.494005e-07	3.238443e-07	0.003807994	0.008142075	8.659485e-08	1.335963e-07	0.0001006189	-0.01802677
2.1e+08	-0.0001794472	-0.01903173	6.832422e-08	9.945872e-08	0.00437711	0.008298248	4.831807e-07	3.199154e-07
	6.832422e-08	9.945872e-08	-0.0005717737	-0.01885341	5.620166e-08	5.866535e-07	0.004149935	0.008420249
	0.00437711	0.008298248	5.620166e-08	5.866535e-07	-0.0002172023	-0.01909647	9.232019e-08	1.366452e-07
	4.831807e-07	3.199154e-07	0.004149935	0.008420249	9.232019e-08	1.366452e-07	-0.000595305	-0.0189242
2.2e+08	-0.0008802	-0.01992383	7.262983e-08	1.013207e-07	0.004747115	0.008543654	5.172921e-07	3.136634e-07
	7.262983e-08	1.013207e-07	-0.001305164	-0.01971938	5.715195e-08	6.136443e-07	0.004501753	0.008682101
	0.004747115	0.008543654	5.715195e-08	6.136443e-07	-0.0009252958	-0.019991	9.80798e-08	1.3931e-07
	5.172921e-07	3.136634e-07	0.004501753	0.008682101	9.80798e-08	1.3931e-07	-0.001334669	-0.01979354
2.3e+08	-0.001621983	-0.02078844	7.694448e-08	1.028899e-07	0.005126457	0.008771033	5.515996e-07	3.050565e-07
	7.694448e-08	1.028899e-07	-0.002080094	-0.02055561	5.80665e-08	6.406775e-07	0.004862682	0.008927212
	0.005126457	0.008771033	5.80665e-08	6.406775e-07	-0.001674733	-0.0208576	1.038516e-07	1.415866e-07
	5.515996e-07	3.050565e-07	0.004862682	0.008927212	1.038516e-07	1.415866e-07	-0.002115883	-0.02063279
2.4e+08	-0.002403315	-0.02162372	8.125118e-08	1.041643e-07	0.005514279	0.00897997	5.859659e-07	2.940702e-07
	8.125118e-08	1.041643e-07	-0.002894944	-0.02136019	5.895041e-08	6.677583e-07	0.00523194	0.009155195
	0.005514279	0.00897997	5.895041e-08	6.677583e-07	-0.002464011	-0.02169442	1.096132e-07	1.434724e-07
	5.859659e-07	2.940702e-07	0.00523194	0.009155195	1.096132e-07	1.434724e-07	-0.002937309	-0.02144003
2.5e+08	-0.003222664	-0.02242792	8.553267e-08	1.051426e-07	0.0059097	0.009170094	6.202521e-07	2.806874e-07
	8.553267e-08	1.051426e-07	-0.003748043	-0.02213134	5.980882e-08	6.948916e-07	0.005608725	0.0093657
	0.0059097	0.009170094	5.980882e-08	6.948916e-07	-0.003291573	-0.02249971	1.153417e-07	1.449658e-07
	6.202521e-07	2.806874e-07	0.005608725	0.0093657	1.153417e-07	1.449658e-07	-0.003797254	-0.02221347
2.6e+08	-0.004078454	-0.02319938	8.977145e-08	1.058244e-07	0.006311826	0.009341073	6.543179e-07	2.648989e-07
	8.977145e-08	1.058244e-07	-0.00463767	-0.02286735	6.064687e-08	7.220821e-07	0.00599222	0.009558415
	0.006311826	0.009341073	6.064687e-08	7.220821e-07	-0.004155821	-0.02327178	1.210143e-07	1.460667e-07
	6.543179e-07	2.648989e-07	0.00599222	0.009558415	1.210143e-07	1.460667e-07	-0.004693979	-0.0229514
2.7e+08	-0.004969052	-0.02393649	9.395004e-08	1.062105e-07	0.006719744	0.009492619	6.880221e-07	2.467027e-07
	9.395004e-08	1.062105e-07	-0.005562051	-0.02356661	6.146983e-08	7.493343e-07	0.006381596	0.009733063
	0.006719744	0.009492619	6.146983e-08	7.493343e-07	-0.005055104	-0.02400905	1.266078e-07	1.467759e-07
	6.880221e-07	2.467027e-07	0.006381596	0.009733063	1.266078e-07	1.467759e-07	-0.005625692	-0.02365219
2.8e+08	-0.00589279	-0.02463778	9.805088e-08	1.063025e-07	0.007132532	0.009624486	7.212232e-07	2.261044e-07
	9.805088e-08	1.063025e-07	-0.006519373	-0.02422763	6.228306e-08	7.766524e-07	0.006776009	0.009889405
	0.007132532	0.009624486	6.228306e-08	7.766524e-07	-0.005987733	-0.02471001	1.320991e-07	1.47096e-07
	7.212232e-07	2.261044e-07	0.006776009	0.009889405	1.320991e-07	1.47096e-07	-0.006590561	-0.02431432
2.9e+08	-0.006847953	-0.02530184	1.020564e-07	1.061032e-07	0.007549254	0.009736471	7.537796e-07	2.031175e-07
	1.020564e-07	1.061032e-07	-0.007507778	-0.02484898	6.309205e-08	8.040405e-07	0.007174607	0.01002724
	0.007549254	0.009736471	6.309205e-08	8.040405e-07	-0.006951973	-0.02537325	1.37465e-07	1.470303e-07
	7.537796e-07	2.031175e-07	0.007174607	0.01002724	1.37465e-07	1.470303e-07	-0.007586708	-0.02493639
3e+08	-0.007832787	-0.02592734	1.059489e-07	1.05616e-07	0.007968968	0.009828415	7.8555e-07	1.777626e-07
	1.059489e-07	1.05616e-07	-0.008525367	-0.02542936	6.39024e-08	8.315021e-07	0.007576529	0.01014642
	0.007968968	0.009828415	6.39024e-08	8.315021e-07	-0.007946049	-0.02599746	1.426825e-07	1.465838e-07
	7.8555e-07	1.777626e-07	0.007576529	0.01014642	1.426825e-07	1.465838e-07	-0.008612215	-0.02551707
3.1e+08	-0.008845504	-0.02651308	1.097112e-07	1.048454e-07	0.008390723	0.009900205	8.163938e-07	1.500684e-07
	1.097112e-07	1.048454e-07	-0.009570211	-0.02596755	6.471983e-08	8.590406e-07	0.007980907	0.0102468
	0.008390723	0.009900205	6.471983e-08	8.590406e-07	-0.00896815	-0.02658137	1.477285e-07	1.457625e-07
	8.163938e-07	1.500684e-07	0.007980907	0.0102468	1.477285e-07	1.457625e-07	-0.009665131	-0.02605512
3.2e+08	-0.009884283	-0.02705789	1.133257e-07	1.037971e-07	0.008813567	0.009951771	8.461714e-07	1.200708e-07
	1.133257e-07	1.037971e-07	-0.01064034	-0.02646242	6.555015e-08	8.86659e-07	0.008386869	0.01032832
	0.008813567	0.009951771	6.555015e-08	8.86659e-07	-0.01001643	-0.02712386	1.525806e-07	1.445737e-07
	8.461714e-07	1.200708e-07	0.008386869	0.01032832	1.525806e-07	1.445737e-07	-0.01074347	-0.02654942
3.3e+08	-0.01094727	-0.02756073	1.167756e-07	1.024774e-07	0.009236542	0.009983088	8.747449e-07	8.781328e-08
	1.167756e-07	1.024774e-07	-0.01173377	-0.02691295	6.639931e-08	9.143602e-07	0.00879354	0.01039094
	0.009236542	0.009983088	6.639931e-08	9.143602e-07	-0.01108901	-0.02762386	1.572161e-07	1.430262e-07
	8.747449e-07	8.781328e-08	0.00879354	0.01039094	1.572161e-07	1.430262e-07	-0.01184521	-0.02699893
3.4e+08	-0.01203258	-0.02802064	1.200438e-07	1.008938e-07	0.009658693	0.009994175	9.019781e-07	5.33468e-08
	1.200438e-07	1.008938e-07	-0.01284846	-0.02731819	6.727332e-08	9.421465e-07	0.009200044	0.01043464
	0.009658693	0.009994175	6.727332e-08	9.421465e-07	-0.01218398	-0.02808039	1.616131e-07	1.411296e-07
	9.019781e-07	5.33468e-08	0.009200044	0.01043464	1.616131e-07	1.411296e-07	-0.01296832	-0.02740272
3.5e+08	-0.01313831	-0.02843673	1.23114e-07	9.905454e-08	0.01007907	0.009985096	9.27737e-07	1.672965e-08
	1.23114e-07	9.905454e-08	-0.01398239	-0.02767732	6.817831e-08	9.7002e-07	0.009605506	0.01045948
	0.01007907	0.009985096	6.817831e-08	9.7002e-07	-0.01329942	-0.02849257	1.657499e-07	1.38895e-07
	9.27737e-07	1.672965e-08	0.009605506	0.01045948	1.657499e-07	1.38895e-07	-0.01411072	-0.02775993
3.6e+08	-0.01426254	-0.02880822	1.259698e-07	9.696903e-08	0.01049671	0.00995596	9.518904e-07	-2.197259e-08
	1.259698e-07	9.696903e-08	-0.01513348	-0.02798959	6.912045e-08	9.979825e-07	0.01000906	0.01046553
	0.01049671	0.00995596	6.912045e-08	9.979825e-07	-0.01443337	-0.0288596	1.696052e-07	1.363347e-07
	9.518904e-07	-2.197259e-08	0.01000906	0.01046553	1.696052e-07	1.363347e-07	-0.01527033	-0.02806982
3.7e+08	-0.01540331	-0.02913438	1.285956e-07	9.464743e-08	0.01091068	0.009906919	9.743099e-07	-6.268722e-08
	1.285956e-07	9.464743e-08	-0.01629966	-0.02825434	7.010597e-08	1.026035e-06	0.01040982	0.01045292
	0.01091068	0.009906919	7.010597e-08	1.026035e-06	-0.01558385	-0.02918076	1.731584e-07	1.334622e-07
	9.743099e-07	-6.268722e-08	0.01040982	0.01045292	1.731584e-07	1.334622e-07	-0.01644504	-0.02833173
3.8e+08	-0.01655868	-0.02941461	1.309759e-07	9.210086e-08	0.01132005	0.00983817	9.948705e-07	-1.053345e-07
	1.309759e-07	9.210086e-08	-0.01747884	-0.02847101	7.114118e-08	1.05418e-06	0.01080695	0.01042179
	0.01132005	0.00983817	7.114118e-08	1.05418e-06	-0.01674888	-0.02945545	1.763895e-07	1.302921e-07
	9.948705e-07	-1.053345e-07	0.01080695	0.01042179	1.763895e-07	1.302921e-07	-0.01763275	-0.02854509
3.9e+08	-0.01772665	-0.02964837	1.330961e-07	8.934131e-08	0.01172388	0.009749951	1.013451e-06	-1.498279e-07
	1.330961e-07	8.934131e-08	-0.0186689	-0.02863914	7.223238e-08	1.082416e-06	0.01119959	0.01037236
	0.01172388	0.009749951	7.223238e-08	1.082416e-06	-0.01792646	-0.02968311	1.792792e-07	1.268402e-07
	1.013451e-06	-1.498279e-07	0.01119959	0.01037236	1.792792e-07	1.268402e-07	-0.01883131	-0.02870944
4e+08	-0.01890525	-0.02983519	1.349417e-07	8.638167e-08	0.01212127	0.009642546	1.029934e-06	-1.96074e-07
	1.349417e-07	8.638167e-08	-0.01986774	-0.02875834	7.338593e-08	1.110746e-06	0.01158689	0.01030485
	0.01212127	0.009642546	7.338593e-08	1.110746e-06	-0.01911456	-0.0298633	1.818086e-07	1.231233e-07
	1.029934e-06	-1.96074e-07	0.01158689	0.01030485	1.818086e-07	1.231233e-07	-0.0200386	-0.0288244
4.1e+08	-0.02009249	-0.02997472	1.364992e-07	8.323561e-08	0.01251132	0.009516278	1.044207e-06	-2.439731e-07
	1.364992e-07	8.323561e-08	-0.02107324	-0.02882833	7.460819e-08	1.139168e-06	0.01196803	0.01021955
	0.01251132	0.009516278	7.460819e-08	1.139168e-06	-0.02031118	-0.02999565	1.839601e-07	1.191594e-07
	1.044207e-06	-2.439731e-07	0.01196803	0.01021955	1.839601e-07	1.191594e-07	-0.02125249	-0.02888969
4.2e+08	-0.02128636	-0.03006668	1.377555e-07	7.991769e-08	0.01289314	0.009371513	1.056161e-06	-2.934192e-07
	1.377555e-07	7.991769e-08	-0.0222833	-0.02884892	7.59055e-08	1.167682e-06	0.01234219	0.01011677
	0.01289314	0.009371513	7.59055e-08	1.167682e-06	-0.02151428	-0.03007988	1.857165e-07	1.149676e-07
	1.056161e-06	-2.934192e-07	0.01234219	0.01011677	1.857165e-07	1.149676e-07	-0.02247082	-0.0289051
4.3e+08	-0.02248489	-0.03011085	1.386983e-07	7.64432e-08	0.01326587	0.009208657	1.065694e-06	-3.442999e-07
	1.386983e-07	7.64432e-08	-0.0234958	-0.02881999	7.72842e-08	1.196288e-06	0.01270857	0.009996851
	0.01326587	0.009208657	7.72842e-08	1.196288e-06	-0.02272184	-0.0301158	1.870618e-07	1.105679e-07
	1.065694e-06	-3.442999e-07	0.01270857	0.009996851	1.870618e-07	1.105679e-07	-0.02369147	-0.02887055
4.4e+08	-0.02368605	-0.03010713	1.39316e-07	7.282822e-08	0.01362866	0.009028158	1.072709e-06	-3.964974e-07
	1.39316e-07	7.282822e-08	-0.02470863	-0.02874154	7.87506e-08	1.224986e-06	0.0130664	0.00986019
	0.01362866	0.009028158	7.87506e-08	1.224986e-06	-0.02393184	-0.0301033	1.87981e-07	1.059814e-07
	1.072709e-06	-3.964974e-07	0.0130664	0.00986019	1.87981e-07	1.059814e-07	-0.02491231	-0.02878602
4.5e+08	-0.02488787	-0.03005547	1.395979e-07	6.908951e-08	0.0139807	0.008830498	1.077112e-06	-4.498881e-07
	1.395979e-07	6.908951e-08	-0.02591969	-0.02861362	8.031096e-08	1.253773e-06	0.0134149	0.009707205
	0.0139807	0.008830498	8.031096e-08	1.253773e-06	-0.02514225	-0.03004234	1.884598e-07	1.012298e-07
	1.077112e-06	-4.498881e-07	0.0134149	0.009707205	1.884598e-07	1.012298e-07	-0.02613121	-0.02865157
4.6e+08	-0.02608836	-0.02995593	1.39534e-07	6.524457e-08	0.01432118	0.0086162	1.07882e-06	-5.04343e-07
	1.39534e-07	6.524457e-08	-0.0271269	-0.0284364	8.197148e-08	1.282648e-06	0.01375333	0.009538353
	0.01432118	0.0086162	8.197148e-08	1.282648e-06	-0.02635108	-0.02993299	1.884852e-07	9.633619e-08
	1.07882e-06	-5.04343e-07	0.01375333	0.009538353	1.884852e-07	9.633619e-08	-0.02734608	-0.02846739
4.7e+08	-0.02728555	-0.02980863	1.391153e-07	6.131148e-08	0.01464932	0.008385823	1.077751e-06	-5.597284e-07
	1.391153e-07	6.131148e-08	-0.0283282	-0.02821012	8.373831e-08	1.311609e-06	0.01408098	0.009354122
	0.01464932	0.008385823	8.373831e-08	1.311609e-06	-0.02755631	-0.02977539	1.880454e-07	9.132404e-08
	1.077751e-06	-5.597284e-07	0.01408098	0.009354122	1.880454e-07	9.132404e-08	-0.02855482	-0.02823372
4.8e+08	-0.02847746	-0.02961377	1.383334e-07	5.730897e-08	0.01496439	0.00813996	1.073833e-06	-6.159056e-07
	1.383334e-07	5.730897e-08	-0.02952152	-0.02793512	8.561748e-08	1.340655e-06	0.01439713	0.009155034
