!$
! Info: Touchstone file created by Circ.  Input file=Tx_2in_Rx_93ohms_TxVia_10mils_RxVia_20mils.circ
!$
# Hz S RI R 50
0	0.001962896	2.188874e-26	-1.093272e-05	2.183203e-25	2.387776e-05	2.038366e-24	-1.095873e-05	3.035918e-24
	-1.093272e-05	2.185964e-25	0.001963585	2.850894e-26	-1.092594e-05	1.052253e-25	2.196021e-05	2.721936e-24
	2.257581e-05	1.986156e-24	-1.092594e-05	1.052493e-25	0.001978362	2.296428e-26	-1.093595e-05	4.072419e-25
	-1.095873e-05	3.035406e-24	2.341893e-05	2.801528e-24	-1.093595e-05	4.067616e-25	0.001969247	2.725003e-26
1e+07	0.002803882	0.000102141	-5.095466e-05	-2.580795e-06	4.650141e-05	0.0004897544	-1.003062e-05	-2.255979e-06
	-5.095466e-05	-2.580795e-06	0.002859811	0.0001016156	-2.78491e-05	1.087766e-05	4.574107e-05	0.0004877511
	4.645756e-05	0.0004897577	-2.78491e-05	1.087767e-05	0.002875935	0.0001030248	-5.09652e-05	-2.141406e-06
	-1.003062e-05	-2.255978e-06	4.577311e-05	0.0004877397	-5.09652e-05	-2.141406e-06	0.002819468	9.766839e-05
2e+07	0.003421204	-0.0004196257	-4.129572e-05	-1.450758e-05	6.596307e-05	0.0009848183	-3.448777e-06	-1.187196e-05
	-4.129572e-05	-1.450758e-05	0.003462781	-0.0004418669	-2.799048e-05	4.006205e-06	6.403988e-05	0.0009812122
	6.595327e-05	0.0009848461	-2.799048e-05	4.006205e-06	0.003482316	-0.0004398515	-4.094505e-05	-1.541985e-05
	-3.448776e-06	-1.187196e-05	6.403678e-05	0.0009811913	-4.094505e-05	-1.541985e-05	0.003432696	-0.0004292536
3e+07	0.003847526	-0.001193065	-3.418952e-05	-2.068607e-05	0.0001257967	0.001461999	-3.563908e-06	-1.468526e-05
	-3.418952e-05	-2.068607e-05	0.003875164	-0.001223326	-2.797578e-05	2.106e-06	0.000118242	0.001457679
	0.0001257974	0.001462004	-2.797578e-05	2.106e-06	0.003900179	-0.001221021	-3.355828e-05	-2.177713e-05
	-3.563908e-06	-1.468526e-05	0.0001182369	0.001457677	-3.355828e-05	-2.177713e-05	0.003853821	-0.001205634
4e+07	0.004155865	-0.002063564	-2.836821e-05	-2.401894e-05	0.0002155679	0.0019305	-8.560133e-06	-1.540845e-05
	-2.836821e-05	-2.401894e-05	0.004168764	-0.00209827	-2.787498e-05	8.981187e-07	0.0002029844	0.001925818
	0.000215564	0.001930497	-2.787498e-05	8.981187e-07	0.004201343	-0.002096258	-2.7503e-05	-2.522655e-05
	-8.560133e-06	-1.540845e-05	0.000202984	0.001925819	-2.7503e-05	-2.522655e-05	0.004155781	-0.002080145
5e+07	0.004373204	-0.002992076	-2.335291e-05	-2.597768e-05	0.0003244419	0.002391643	-1.294362e-05	-1.508451e-05
	-2.335291e-05	-2.597768e-05	0.004370167	-0.003028976	-2.769923e-05	-1.215971e-07	0.0003056845	0.002387089
	0.0003244403	0.002391642	-2.769923e-05	-1.215971e-07	0.004412287	-0.003028066	-2.228226e-05	-2.726669e-05
	-1.294362e-05	-1.508451e-05	0.000305684	0.002387089	-2.228226e-05	-2.726669e-05	0.004363891	-0.003012741
6e+07	0.004512722	-0.003959104	-1.888516e-05	-2.706223e-05	0.00045238	0.0028453	-1.684756e-05	-1.40012e-05
	-1.888516e-05	-2.706223e-05	0.004492397	-0.003996341	-2.745851e-05	-1.133449e-06	0.0004263458	0.002841422
	0.0004523853	0.002845298	-2.745851e-05	-1.133449e-06	0.004545893	-0.003997486	-1.76273e-05	-2.840778e-05
	-1.684756e-05	-1.40012e-05	0.0004263429	0.002841423	-1.76273e-05	-2.840778e-05	0.004491851	-0.00398302
7e+07	0.004582137	-0.004952361	-1.47981e-05	-2.747186e-05	0.0005992192	0.003290999	-2.033881e-05	-1.22771e-05
	-1.47981e-05	-2.747186e-05	0.004543125	-0.004988191	-2.716674e-05	-2.244969e-06	0.0005648416	0.003288391
	0.0005992297	0.003290992	-2.716674e-05	-2.244969e-06	0.004609703	-0.004992434	-1.336456e-05	-2.885269e-05
	-2.033881e-05	-1.22771e-05	0.0005648369	0.003288394	-1.336456e-05	-2.885269e-05	0.004547874	-0.004978856
8e+07	0.004586569	-0.005962935	-1.096333e-05	-2.725225e-05	0.0007647044	0.003728093	-2.344354e-05	-9.931724e-06
	-1.096333e-05	-2.725225e-05	0.004527471	-0.005995574	-2.68461e-05	-3.559101e-06	0.0007209362	0.003727399
	0.0007647151	0.003728083	-2.68461e-05	-3.559101e-06	0.004608739	-0.006004034	-9.360266e-06	-2.864617e-05
	-2.344354e-05	-9.931724e-06	0.0007209315	0.003727403	-9.360265e-06	-2.864616e-05	0.004536991	-0.005991646
9e+07	0.004529809	-0.006983311	-7.251677e-06	-2.628404e-05	0.0009484953	0.004155833	-2.614369e-05	-6.854571e-06
	-7.251678e-06	-2.628404e-05	0.004449283	-0.007010778	-2.653736e-05	-5.233259e-06	0.0008943044	0.004157776
	0.0009485016	0.004155824	-2.653736e-05	-5.233259e-06	0.004546764	-0.007024642	-7.284769e-06	-2.731011e-05
	-2.614369e-05	-6.854571e-06	0.0008943016	0.004157779	-7.284768e-06	-2.731011e-05	0.004462631	-0.007013893
1e+08	0.004415937	-0.00800269	-9.153832e-06	-2.235666e-05	0.001150167	0.004573279	-2.821685e-05	-2.212238e-06
	-9.153832e-06	-2.235666e-05	0.004312925	-0.008021977	-2.638426e-05	-7.928332e-06	0.001084563	0.004578765
	0.001150166	0.004573279	-2.638426e-05	-7.928332e-06	0.004428059	-0.008042498	-1.139623e-05	-2.272236e-05
	-2.821685e-05	-2.212238e-06	0.001084563	0.004578765	-1.139623e-05	-2.272236e-05	0.004328568	-0.008034467
1.1e+08	0.004266532	-0.009039564	-9.103534e-06	-1.880309e-05	0.001368589	0.004980261	-2.687783e-05	1.674835e-06
	-9.103534e-06	-1.880309e-05	0.004142671	-0.00904933	-2.38002e-05	-1.10889e-05	0.001290601	0.004989565
	0.001368589	0.004980261	-2.38002e-05	-1.10889e-05	0.004278128	-0.009078046	-1.12486e-05	-1.896309e-05
	-2.687783e-05	1.674835e-06	0.001290601	0.004989564	-1.12486e-05	-1.896309e-05	0.004156904	-0.009069452
1.2e+08	0.004055989	-0.01008302	-9.326106e-06	-1.686142e-05	0.001604032	0.005376147	-2.576803e-05	4.118246e-06
	-9.326106e-06	-1.686142e-05	0.003909812	-0.01008368	-2.104313e-05	-1.321612e-05	0.001512839	0.005390269
	0.001604031	0.005376147	-2.104313e-05	-1.321612e-05	0.004066298	-0.01012242	-1.139034e-05	-1.69085e-05
	-2.576803e-05	4.118246e-06	0.001512839	0.005390269	-1.139034e-05	-1.69085e-05	0.003922367	-0.01011021
1.3e+08	0.00378852	-0.01112398	-9.640817e-06	-1.544073e-05	0.001855955	0.005760021	-2.473056e-05	6.038704e-06
	-9.640817e-06	-1.544073e-05	0.00361864	-0.01111481	-1.824559e-05	-1.504082e-05	0.001750812	0.00577997
	0.001855955	0.005760021	-1.824559e-05	-1.504082e-05	0.003796843	-0.01116518	-1.16304e-05	-1.54103e-05
	-2.473056e-05	6.038704e-06	0.001750812	0.00577997	-1.16304e-05	-1.54103e-05	0.003629047	-0.01114738
1.4e+08	0.003466746	-0.01215851	-1.001202e-05	-1.430603e-05	0.002123788	0.006131133	-2.387968e-05	7.157066e-06
	-1.001202e-05	-1.430603e-05	0.003271766	-0.01213844	-1.542625e-05	-1.673783e-05	0.002003983	0.006157902
	0.002123788	0.006131133	-1.542625e-05	-1.673783e-05	0.003472397	-0.01220193	-1.193135e-05	-1.42209e-05
	-2.387968e-05	7.157066e-06	0.002003983	0.006157902	-1.193135e-05	-1.42209e-05	0.003279516	-0.01217678
1.5e+08	0.003092667	-0.01318355	-1.0427e-05	-1.334566e-05	0.00240693	0.006488774	-2.358904e-05	6.481568e-06
	-1.0427e-05	-1.334566e-05	0.002871206	-0.01315128	-1.259374e-05	-1.839698e-05	0.002271777	0.006523366
	0.00240693	0.006488774	-1.259374e-05	-1.839698e-05	0.00309501	-0.01322936	-1.227989e-05	-1.322254e-05
	-2.358904e-05	6.481568e-06	0.002271777	0.006523366	-1.227989e-05	-1.322254e-05	0.002875795	-0.01319513
1.6e+08	0.00266794	-0.01419643	-1.086987e-05	-1.25004e-05	0.002704742	0.00683226	-2.330299e-05	5.947354e-06
	-1.086987e-05	-1.25004e-05	0.002418662	-0.01415047	-9.754594e-06	-2.0075e-05	0.002553587	0.006875708
	0.002704742	0.00683226	-9.754594e-06	-2.0075e-05	0.002666396	-0.01424462	-1.265974e-05	-1.235274e-05
	-2.330299e-05	5.947354e-06	0.002553587	0.006875708	-1.265974e-05	-1.235274e-05	0.002419609	-0.01419956
1.7e+08	0.00219403	-0.01519466	-1.133359e-05	-1.173054e-05	0.003016554	0.007160937	-2.302322e-05	5.519775e-06
	-1.133359e-05	-1.173054e-05	0.001915671	-0.01513335	-6.915469e-06	-2.181176e-05	0.002848781	0.007214316
	0.003016554	0.007160937	-6.915469e-06	-2.181176e-05	0.002188085	-0.01524512	-1.306382e-05	-1.156953e-05
	-2.302322e-05	5.519775e-06	0.002848781	0.007214316	-1.306382e-05	-1.156953e-05	0.001912522	-0.01518739
1.8e+08	0.001672302	-0.01617588	-1.181254e-05	-1.100904e-05	0.003341664	0.007474177	-2.275022e-05	5.175702e-06
	-1.181254e-05	-1.100904e-05	0.001363689	-0.01609742	-4.083665e-06	-2.363707e-05	0.003156704	0.007538606
	0.003341664	0.007474177	-4.083665e-06	-2.363707e-05	0.001661498	-0.01622844	-1.348658e-05	-1.08443e-05
	-2.275022e-05	5.175702e-06	0.003156704	0.007538606	-1.348658e-05	-1.08443e-05	0.001356018	-0.01615612
1.9e+08	0.001104082	-0.01713783	-1.230188e-05	-1.031663e-05	0.003679336	0.007771385	-2.2484e-05	4.898562e-06
	-1.230188e-05	-1.031663e-05	0.0007641517	-0.01704029	-1.267406e-06	-2.557418e-05	0.003476675	0.007848032
	0.003679336	0.007771385	-1.267406e-06	-2.557418e-05	0.001088012	-0.01719226	-1.392327e-05	-1.01566e-05
	-2.2484e-05	4.898562e-06	0.003476676	0.007848032	-1.392327e-05	-1.01566e-05	0.0007515603	-0.01710334
2e+08	0.0004906972	-0.01807835	-1.279721e-05	-9.639139e-06	0.004028808	0.008051999	-2.222429e-05	4.676085e-06
	-1.279721e-05	-9.639139e-06	0.0001185048	-0.01795968	1.52431e-06	-2.764168e-05	0.003807994	0.008142075
	0.004028808	0.008052	1.52431e-06	-2.764168e-05	0.0004689966	-0.01813438	-1.436965e-05	-9.491332e-06
	-2.222429e-05	4.676085e-06	0.003807994	0.008142075	-1.436965e-05	-9.491332e-06	0.0001006189	-0.01802677
2.1e+08	-0.0001665015	-0.01899533	-1.329441e-05	-8.965868e-06	0.004389288	0.008315492	-2.197072e-05	4.498866e-06
	-1.329441e-05	-8.965868e-06	-0.0005717737	-0.01885341	4.281427e-06	-2.985455e-05	0.004149935	0.008420249
	0.004389288	0.008315492	4.281427e-06	-2.985455e-05	-0.000194166	-0.01905269	-1.482179e-05	-8.837059e-06
	-2.197072e-05	4.498866e-06	0.004149935	0.008420249	-1.482179e-05	-8.837059e-06	-0.000595305	-0.0189242
2.2e+08	-0.0008661295	-0.01988678	-1.378953e-05	-8.288696e-06	0.004759959	0.008561373	-2.172284e-05	4.359595e-06
	-1.378953e-05	-8.288696e-06	-0.001305164	-0.01971938	6.993122e-06	-3.222492e-05	0.004501753	0.008682101
	0.004759959	0.008561373	6.993122e-06	-3.222492e-05	-0.0009000618	-0.01994518	-1.527592e-05	-8.185021e-06
	-2.172284e-05	4.359595e-06	0.004501753	0.008682101	-1.527592e-05	-8.185021e-06	-0.001334669	-0.01979354
2.3e+08	-0.001606754	-0.02075076	-1.427881e-05	-7.60145e-06	0.005139983	0.008789188	-2.148016e-05	4.2525e-06
	-1.427881e-05	-7.60145e-06	-0.002080094	-0.02055561	9.648493e-06	-3.476289e-05	0.004862682	0.008927212
	0.005139983	0.008789188	9.648493e-06	-3.476289e-05	-0.001647234	-0.0208099	-1.572849e-05	-7.52849e-06
	-2.148016e-05	4.2525e-06	0.004862682	0.008927212	-1.572849e-05	-7.52849e-06	-0.002115883	-0.02063279
2.4e+08	-0.002386896	-0.02158544	-1.475853e-05	-6.899345e-06	0.005528497	0.008998524	-2.124223e-05	4.172838e-06
	-1.475853e-05	-6.899345e-06	-0.002894944	-0.02136019	1.223507e-05	-3.747607e-05	0.00523194	0.009155195
	0.005528497	0.008998524	1.223507e-05	-3.747607e-05	-0.002434187	-0.021645	-1.6176e-05	-6.862175e-06
	-2.124223e-05	4.172838e-06	0.00523194	0.009155195	-1.6176e-05	-6.862175e-06	-0.002937309	-0.02144003
2.5e+08	-0.003205029	-0.02238907	-1.522513e-05	-6.178845e-06	0.00592462	0.009189008	-2.10086e-05	4.116777e-06
	-1.522513e-05	-6.178845e-06	-0.003748043	-0.02213134	1.474429e-05	-4.037275e-05	0.005608725	0.0093657
	0.005924621	0.009189008	1.474429e-05	-4.037275e-05	-0.003259373	-0.02244871	-1.661508e-05	-6.182074e-06
	-2.10086e-05	4.116777e-06	0.005608725	0.0093657	-1.661508e-05	-6.182074e-06	-0.003797254	-0.02221347
2.6e+08	-0.004059574	-0.02315998	-1.566118e-05	-5.426909e-06	0.006327456	0.009360308	-2.077878e-05	4.081022e-06
	-1.566118e-05	-5.426909e-06	-0.00463767	-0.02286735	1.485226e-05	-4.206733e-05	0.00599222	0.009558415
	0.006327456	0.009360308	1.485226e-05	-4.206733e-05	-0.004121202	-0.02321937	-1.702915e-05	-5.474626e-06
	-2.077878e-05	4.081022e-06	0.00599222	0.009558415	-1.702915e-05	-5.474626e-06	-0.004693979	-0.0229514
2.7e+08	-0.004948904	-0.02389659	-1.607332e-05	-4.650868e-06	0.006736091	0.009512135	-2.055236e-05	4.062966e-06
	-1.607332e-05	-4.650868e-06	-0.005562051	-0.02356661	1.457086e-05	-4.364198e-05	0.006381596	0.009733063
	0.006736091	0.009512135	1.457086e-05	-4.364198e-05	-0.005018031	-0.02395537	-1.742459e-05	-4.746715e-06
	-2.055236e-05	4.062966e-06	0.006381596	0.009733063	-1.742459e-05	-4.746715e-06	-0.005625692	-0.02365219
2.8e+08	-0.005871353	-0.0245974	-1.646048e-05	-3.851479e-06	0.007149599	0.009644243	-2.032897e-05	4.060343e-06
	-1.646048e-05	-3.851479e-06	-0.006519373	-0.02422763	1.428109e-05	-4.532835e-05	0.006776009	0.009889405
	0.007149599	0.009644243	1.428109e-05	-4.532835e-05	-0.005948178	-0.02465522	-1.78004e-05	-3.998676e-06
	-2.032897e-05	4.060343e-06	0.006776009	0.009889405	-1.78004e-05	-3.998676e-06	-0.006590561	-0.02431432
2.9e+08	-0.006825212	-0.02526103	-1.681948e-05	-3.028299e-06	0.007567044	0.009756427	-2.010824e-05	4.071202e-06
	-1.681948e-05	-3.028299e-06	-0.007507778	-0.02484898	1.396807e-05	-4.712938e-05	0.007174607	0.01002724
	0.007567044	0.009756427	1.396807e-05	-4.712938e-05	-0.006909913	-0.02531751	-1.815358e-05	-3.229644e-06
	-2.010824e-05	4.071202e-06	0.007174607	0.01002724	-1.815358e-05	-3.229644e-06	-0.007586708	-0.02493639
3e+08	-0.007808725	-0.02588616	-1.714729e-05	-2.181414e-06	0.00798748	0.009848529	-1.98898e-05	4.093874e-06
	-1.714729e-05	-2.181414e-06	-0.008525367	-0.02542936	1.361741e-05	-4.904692e-05	0.007576529	0.01014642
	0.00798748	0.009848529	1.361741e-05	-4.904692e-05	-0.007901469	-0.0259409	-1.848125e-05	-2.439285e-06
	-1.98898e-05	4.093874e-06	0.007576529	0.01014642	-1.848125e-05	-2.439285e-06	-0.008612215	-0.02551707
3.1e+08	-0.008820111	-0.02647155	-1.744098e-05	-1.31132e-06	0.008409956	0.009920434	-1.967334e-05	4.126891e-06
	-1.744098e-05	-1.31132e-06	-0.009570211	-0.02596755	1.321423e-05	-5.108112e-05	0.007980907	0.0102468
	0.008409956	0.009920435	1.321423e-05	-5.108112e-05	-0.008921043	-0.02652416	-1.878064e-05	-1.627672e-06
	-1.967334e-05	4.126891e-06	0.007980907	0.0102468	-1.878064e-05	-1.627672e-06	-0.009665131	-0.02605512
3.2e+08	-0.009857545	-0.02701608	-1.769778e-05	-4.189124e-07	0.008833515	0.009972073	-1.945855e-05	4.168972e-06
	-1.769778e-05	-4.189124e-07	-0.01064034	-0.02646242	1.274421e-05	-5.323108e-05	0.008386869	0.01032832
	0.008833515	0.009972073	1.274421e-05	-5.323108e-05	-0.009966796	-0.02706613	-1.904909e-05	-7.952754e-07
	-1.945855e-05	4.168972e-06	0.008386869	0.01032832	-1.904909e-05	-7.952754e-07	-0.01074347	-0.02654942
3.3e+08	-0.01091918	-0.02751868	-1.791508e-05	4.945433e-07	0.0092572	0.01000342	-1.924512e-05	4.218989e-06
	-1.791508e-05	4.945433e-07	-0.01173377	-0.02691295	1.219344e-05	-5.549485e-05	0.00879354	0.01039094
	0.0092572	0.01000342	1.219344e-05	-5.549485e-05	-0.01103685	-0.02756576	-1.928412e-05	5.706248e-08
	-1.924512e-05	4.218989e-06	0.00879354	0.01039094	-1.928412e-05	5.706248e-08	-0.01184521	-0.02699893
3.4e+08	-0.01200313	-0.02797839	-1.809042e-05	1.427493e-06	0.009680051	0.01001449	-1.90328e-05	4.275933e-06
	-1.809042e-05	1.427493e-06	-0.01284846	-0.02731819	1.154801e-05	-5.786912e-05	0.009200044	0.01043464
	0.009680051	0.01001449	1.154801e-05	-5.786912e-05	-0.01212932	-0.02802207	-1.948336e-05	9.2822e-07
	-1.90328e-05	4.275933e-06	0.009200044	0.01043464	-1.948336e-05	9.2822e-07	-0.01296832	-0.02740272
3.5e+08	-0.0131075	-0.02839434	-1.822152e-05	2.378092e-06	0.01010111	0.01000536	-1.882133e-05	4.3389e-06
	-1.822152e-05	2.378092e-06	-0.01398239	-0.02767732	1.079456e-05	-6.034959e-05	0.009605506	0.01045948
	0.01010111	0.01000536	1.079456e-05	-6.034959e-05	-0.01324227	-0.02843417	-1.964461e-05	1.816784e-06
	-1.882133e-05	4.3389e-06	0.009605506	0.01045948	-1.964461e-05	1.816784e-06	-0.01411072	-0.02775993
3.6e+08	-0.01423037	-0.02876573	-1.83063e-05	3.344253e-06	0.01051943	0.009976122	-1.861048e-05	4.407077e-06
	-1.83063e-05	3.344253e-06	-0.01513348	-0.02798959	9.920042e-06	-6.293078e-05	0.01000906	0.01046553
	0.01051943	0.009976122	9.920042e-06	-6.293078e-05	-0.01437376	-0.02880126	-1.97658e-05	2.721106e-06
	-1.861048e-05	4.407077e-06	0.01000906	0.01046553	-1.97658e-05	2.721106e-06	-0.01527033	-0.02806982
3.7e+08	-0.01536978	-0.02909186	-1.834284e-05	4.323658e-06	0.01093406	0.009926938	-1.840005e-05	4.479724e-06
	-1.834284e-05	4.323658e-06	-0.01629966	-0.02825434	8.911963e-06	-6.560631e-05	0.01040982	0.01045292
	0.01093406	0.009926938	8.911963e-06	-6.560631e-05	-0.01552182	-0.02912264	-1.984507e-05	3.639304e-06
	-1.840005e-05	4.479724e-06	0.01040982	0.01045292	-1.984507e-05	3.639304e-06	-0.01644504	-0.02833173
3.8e+08	-0.01652378	-0.0293721	-1.832945e-05	5.313784e-06	0.01134407	0.009858005	-1.818984e-05	4.55617e-06
	-1.832945e-05	5.313784e-06	-0.01747884	-0.02847101	7.758364e-06	-6.836882e-05	0.01080695	0.01042179
	0.01134407	0.009858005	7.758364e-06	-6.836882e-05	-0.01668446	-0.02939767	-1.988072e-05	4.569298e-06
	-1.818984e-05	4.55617e-06	0.01080695	0.01042179	-1.988072e-05	4.569298e-06	-0.01763275	-0.02854509
3.9e+08	-0.01769041	-0.02960592	-1.826463e-05	6.311941e-06	0.01174852	0.00976956	-1.797967e-05	4.635793e-06
	-1.826463e-05	6.311941e-06	-0.0186689	-0.02863914	6.447837e-06	-7.120998e-05	0.01119959	0.01037236
	0.01174852	0.00976956	6.447837e-06	-7.120998e-05	-0.0178597	-0.02962581	-1.987124e-05	5.508835e-06
	-1.797967e-05	4.635793e-06	0.01119959	0.01037236	-1.987124e-05	5.508835e-06	-0.01883131	-0.02870944
4e+08	-0.01886766	-0.02979287	-1.814712e-05	7.315272e-06	0.0121465	0.009661889	-1.776936e-05	4.71802e-06
	-1.814712e-05	7.315272e-06	-0.01986774	-0.02875834	4.969637e-06	-7.412065e-05	0.01158689	0.01030485
	0.0121465	0.009661889	4.969637e-06	-7.412065e-05	-0.01904553	-0.02980662	-1.981529e-05	6.455501e-06
	-1.776936e-05	4.71802e-06	0.01158689	0.01030485	-1.981529e-05	6.455501e-06	-0.0200386	-0.0288244
4.1e+08	-0.02005357	-0.02993257	-1.797585e-05	8.320794e-06	0.01253711	0.009535315	-1.755877e-05	4.802323e-06
	-1.797585e-05	8.320794e-06	-0.02107324	-0.02882833	3.313661e-06	-7.709085e-05	0.01196803	0.01021955
	0.01253711	0.009535315	3.313661e-06	-7.709085e-05	-0.02023993	-0.02993971	-1.971176e-05	7.406748e-06
	-1.755877e-05	4.802323e-06	0.01196803	0.01021955	-1.971176e-05	7.406748e-06	-0.02125249	-0.02888969
4.2e+08	-0.02124613	-0.03002475	-1.775001e-05	9.325416e-06	0.01291946	0.009390206	-1.734777e-05	4.888207e-06
	-1.775001e-05	9.325416e-06	-0.0222833	-0.02884892	1.470501e-06	-8.010974e-05	0.01234219	0.01011677
	0.01291946	0.009390206	1.470501e-06	-8.010974e-05	-0.02144088	-0.03002482	-1.95597e-05	8.359921e-06
	-1.734777e-05	4.888207e-06	0.01234219	0.01011677	-1.95597e-05	8.359921e-06	-0.02247082	-0.0289051
4.3e+08	-0.02244334	-0.0300692	-1.746899e-05	1.032595e-05	0.0132927	0.00922697	-1.713626e-05	4.975212e-06
	-1.746899e-05	1.032595e-05	-0.0234958	-0.02881999	-5.684723e-07	-8.316585e-05	0.01270857	0.009996851
	0.0132927	0.00922697	-5.684723e-07	-8.316585e-05	-0.02264636	-0.03006173	-1.93584e-05	9.312259e-06
	-1.713626e-05	4.975212e-06	0.01270857	0.009996851	-1.93584e-05	9.312259e-06	-0.02369147	-0.02887055
4.4e+08	-0.02364322	-0.0300658	-1.713242e-05	1.131913e-05	0.01365596	0.009046053	-1.692412e-05	5.0629e-06
	-1.713242e-05	1.131913e-05	-0.02470863	-0.02874154	-2.81108e-06	-8.6247e-05	0.0130664	0.00986019
	0.01365596	0.009046053	-2.81108e-06	-8.6247e-05	-0.02385437	-0.03005034	-1.910734e-05	1.026092e-05
	-1.692412e-05	5.0629e-06	0.0130664	0.00986019	-1.910734e-05	1.026092e-05	-0.02491231	-0.02878602
4.5e+08	-0.02484378	-0.03001453	-1.674018e-05	1.230164e-05	0.01400843	0.008847943	-1.671127e-05	5.150862e-06
	-1.674018e-05	1.230164e-05	-0.02591969	-0.02861362	-5.264311e-06	-8.934042e-05	0.0134149	0.009707205
	0.01400843	0.008847943	-5.264311e-06	-8.934042e-05	-0.02506288	-0.02999061	-1.880621e-05	1.120301e-05
	-1.671127e-05	5.150862e-06	0.0134149	0.009707205	-1.880621e-05	1.120301e-05	-0.02613121	-0.02865157
4.6e+08	-0.02604303	-0.02991542	-1.629238e-05	1.327012e-05	0.0143493	0.008633162	-1.649762e-05	5.238705e-06
	-1.629238e-05	1.327012e-05	-0.0271269	-0.0284364	-7.934313e-06	-9.243276e-05	0.01375333	0.009538353
	0.0143493	0.008633162	-7.934313e-06	-9.243276e-05	-0.02626989	-0.0298826	-1.845488e-05	1.213556e-05
	-1.649762e-05	5.238705e-06	0.01375333	0.009538353	-1.845488e-05	1.213556e-05	-0.02734608	-0.02846739
4.7e+08	-0.02723901	-0.0297686	-1.578934e-05	1.42212e-05	0.0146778	0.008402271	-1.62831e-05	5.326057e-06
