!$
! Info: Touchstone file created by Circ.  Input file=Tx_2in_Rx_100ohms_TxVia_10mils_RxVia_20mils.circ
!$
# Hz S RI R 50
0	0.00220688	2.442141e-26	3.263873e-09	9.295553e-28	2.254477e-05	2.209283e-24	-3.574589e-09	4.712585e-25
	3.263865e-09	9.297456e-28	0.002206491	2.852791e-26	-2.935636e-09	4.084337e-25	2.197168e-05	3.06929e-24
	2.481863e-05	2.214512e-24	-2.933677e-09	4.081914e-25	0.002199709	2.124749e-26	1.251153e-08	9.954102e-30
	-3.571829e-09	4.709188e-25	2.34303e-05	3.159039e-24	1.251162e-08	9.792875e-30	0.002212151	2.726815e-26
1e+07	0.003122743	0.001644806	4.688221e-09	8.501366e-09	0.0001115351	0.000495185	3.107779e-09	5.809358e-08
	4.688221e-09	8.501366e-09	0.003122248	0.001644352	5.323058e-10	5.831953e-08	0.0001109426	0.0004952876
	0.0001115829	0.0004951586	5.323059e-10	5.831953e-08	0.003107175	0.00164789	-1.266649e-08	4.500618e-08
	3.10778e-09	5.809358e-08	0.0001109747	0.0004952762	-1.266649e-08	4.500618e-08	0.003106687	0.00164742
2e+07	0.003877272	0.00262867	6.468702e-09	1.52952e-08	0.0001120794	0.001019121	1.09149e-08	8.122476e-08
	6.468702e-09	1.52952e-08	0.003875214	0.002627685	4.62584e-09	8.181209e-08	0.0001097471	0.001019491
	0.0001120714	0.001019096	4.625841e-09	8.181209e-08	0.003868337	0.002645781	-1.034061e-08	4.650661e-08
	1.09149e-08	8.122476e-08	0.0001097441	0.00101947	-1.034061e-08	4.650661e-08	0.003866422	0.002644803
3e+07	0.004496885	0.003338758	8.311339e-09	2.184883e-08	0.0001421089	0.0015071	2.550528e-08	1.065754e-07
	8.311339e-09	2.184883e-08	0.004492086	0.003337294	1.258857e-08	1.088131e-07	0.0001369254	0.001507924
	0.0001421094	0.001507097	1.258857e-08	1.088131e-07	0.004494408	0.003363837	-8.612107e-09	5.510988e-08
	2.550528e-08	1.065754e-07	0.0001369203	0.001507922	-8.612107e-09	5.510988e-08	0.004490024	0.003362441
4e+07	0.00505759	0.003936264	1.033781e-08	2.810127e-08	0.0002032309	0.001982704	4.021214e-08	1.299578e-07
	1.033781e-08	2.810127e-08	0.00504886	0.003934477	1.922525e-08	1.346287e-07	0.0001940878	0.001984246
	0.000203235	0.0019827	1.922525e-08	1.346287e-07	0.005062121	0.003965983	-5.373459e-09	6.33865e-08
	4.021214e-08	1.299578e-07	0.0001940873	0.001984248	-5.373459e-09	6.33865e-08	0.005054155	0.003964191
5e+07	0.005587048	0.004459922	1.255039e-08	3.408947e-08	0.0003242768	0.002444961	5.553931e-08	1.524589e-07
	1.255039e-08	3.408947e-08	0.005573205	0.004458079	2.471244e-08	1.602402e-07	0.0003100927	0.002447518
	0.000324278	0.002444959	2.471244e-08	1.602402e-07	0.005597795	0.004492474	-4.758989e-10	7.023975e-08
	5.553931e-08	1.524589e-07	0.0003100922	0.002447518	-4.758991e-10	7.023975e-08	0.005585042	0.004490585
6e+07	0.006098423	0.004927931	1.496107e-08	3.98525e-08	0.0004628663	0.002897622	7.21646e-08	1.741325e-07
	1.496107e-08	3.98525e-08	0.006078319	0.004926388	2.965366e-08	1.858856e-07	0.0004425934	0.002901588
	0.0004628663	0.002897624	2.965366e-08	1.858856e-07	0.006115035	0.004962531	5.790583e-09	7.552969e-08
	7.21646e-08	1.741325e-07	0.0004425904	0.002901588	5.790583e-09	7.552969e-08	0.006096464	0.004960968
7e+07	0.006599061	0.005350758	1.757874e-08	4.540075e-08	0.0006190374	0.0033406	9.041582e-08	1.947523e-07
	1.757874e-08	4.540075e-08	0.006571584	0.005349939	3.443241e-08	2.115238e-07	0.0005916592	0.003346431
	0.0006190384	0.003340604	3.443241e-08	2.115238e-07	0.00662165	0.005386586	1.30049e-08	7.931482e-08
	9.041582e-08	1.947523e-07	0.0005916545	0.003346434	1.30049e-08	7.931482e-08	0.006596299	0.00538571
8e+07	0.007093489	0.005735298	2.040759e-08	5.073093e-08	0.0007926081	0.003773361	1.103951e-07	2.14058e-07
	2.040759e-08	5.073093e-08	0.007057556	0.005735686	3.926263e-08	2.370586e-07	0.0007571348	0.003781571
	0.0007926105	0.003773365	3.926263e-08	2.370586e-07	0.007122161	0.005771215	2.075882e-08	8.171989e-08
	1.103951e-07	2.14058e-07	0.0007571301	0.003781575	2.075882e-08	8.171989e-08	0.007088983	0.00577136
9e+07	0.007584749	0.006086931	2.344604e-08	5.583247e-08	0.0009831957	0.004194952	1.320784e-07	2.318128e-07
	2.344604e-08	5.583247e-08	0.007539299	0.006089062	4.423759e-08	2.623994e-07	0.0009386584	0.004206116
	0.0009831981	0.004194954	4.423759e-08	2.623994e-07	0.00761933	0.006121554	2.870416e-08	8.290782e-08
	1.320784e-07	2.318128e-07	0.0009386556	0.00420612	2.870416e-08	8.290782e-08	0.007577153	0.006123141
1e+08	0.008076046	0.00641413	2.668641e-08	6.069128e-08	0.001189838	0.00460249	1.553704e-07	2.478165e-07
	2.668641e-08	6.069128e-08	0.008020048	0.006418599	4.940778e-08	2.874608e-07	0.001135283	0.004617252
	0.001189838	0.00460249	4.940778e-08	2.874608e-07	0.008115921	0.006445571	3.656276e-08	8.307053e-08
	1.553704e-07	2.478165e-07	0.001135284	0.004617251	3.656276e-08	8.307053e-08	0.00806351	0.006449201
1.1e+08	0.008587212	0.006696743	3.008261e-08	6.532132e-08	0.001404632	0.005001761	1.790903e-07	2.641473e-07
	3.008261e-08	6.532132e-08	0.008519062	0.00670492	5.280099e-08	3.136733e-07	0.001338637	0.005020335
	0.001404632	0.005001761	5.280099e-08	3.136733e-07	0.008630564	0.00672665	4.112875e-08	8.941175e-08
	1.790903e-07	2.641473e-07	0.001338637	0.005020335	4.112875e-08	8.941175e-08	0.008566363	0.006733225
1.2e+08	0.009092283	0.006943617	3.363817e-08	6.971601e-08	0.001636875	0.005393645	2.042174e-07	2.788433e-07
	3.363817e-08	6.971601e-08	0.009011405	0.006956153	5.614518e-08	3.397141e-07	0.001558769	0.005417191
	0.001636875	0.005393645	5.614518e-08	3.397141e-07	0.009139116	0.006972019	4.590453e-08	9.544093e-08
	2.042174e-07	2.788433e-07	0.001558769	0.005417191	4.590453e-08	9.544093e-08	0.009062611	0.006982497
1.3e+08	0.009594238	0.007161549	3.734546e-08	7.386955e-08	0.001885634	0.005774984	2.306831e-07	2.918292e-07
	3.734546e-08	7.386955e-08	0.00949996	0.007179099	5.94597e-08	3.655993e-07	0.001794799	0.005804513
	0.001885634	0.005774984	5.94597e-08	3.655993e-07	0.009644315	0.007188138	5.088118e-08	1.011502e-07
	2.306831e-07	2.918292e-07	0.001794799	0.005804513	5.088118e-08	1.011502e-07	0.009554979	0.007203341
1.4e+08	0.01009437	0.007352383	4.119556e-08	7.777451e-08	0.002150288	0.006144573	2.584078e-07	3.030272e-07
	4.119556e-08	7.777451e-08	0.009985955	0.007375653	6.275747e-08	3.913385e-07	0.002046124	0.006181027
	0.002150288	0.006144573	6.275747e-08	3.913385e-07	0.0101474	0.007376923	5.60476e-08	1.065295e-07
	2.584078e-07	3.030272e-07	0.002046124	0.006181027	5.60476e-08	1.065295e-07	0.01004466	0.007397616
1.5e+08	0.01059327	0.007517141	4.517799e-08	8.142274e-08	0.002430231	0.006501501	2.873023e-07	3.123598e-07
	4.517799e-08	8.142274e-08	0.01046995	0.00754691	6.604706e-08	4.169376e-07	0.002312152	0.006545801
	0.002430231	0.006501501	6.604706e-08	4.169376e-07	0.01064896	0.007539479	6.139036e-08	1.115678e-07
	2.873023e-07	3.123598e-07	0.002312152	0.006545801	6.139036e-08	1.115678e-07	0.0105322	0.007566424
1.6e+08	0.01109111	0.007656532	4.928081e-08	8.480602e-08	0.002724845	0.006844973	3.172694e-07	3.197522e-07
	4.928081e-08	8.480602e-08	0.01095211	0.007693659	6.933362e-08	4.423999e-07	0.00259228	0.006898054
	0.002724846	0.006844973	6.933362e-08	4.423999e-07	0.0111492	0.007676571	6.689392e-08	1.162541e-07
	3.172694e-07	3.197522e-07	0.00259228	0.006898054	6.689392e-08	1.162541e-07	0.01101778	0.007710564
1.7e+08	0.01158778	0.007771118	5.349082e-08	8.791643e-08	0.003033484	0.007174267	3.482044e-07	3.251336e-07
	5.349082e-08	8.791643e-08	0.01143235	0.007816547	7.261957e-08	4.677279e-07	0.002885885	0.007237091
	0.003033484	0.007174267	7.261957e-08	4.677279e-07	0.01164805	0.007788796	7.254102e-08	1.205776e-07
	3.482044e-07	3.251336e-07	0.002885885	0.007237091	7.254102e-08	1.205776e-07	0.01150132	0.007830688
1.8e+08	0.012083	0.007861397	5.779377e-08	9.074659e-08	0.003355471	0.00748871	3.799969e-07	3.284385e-07
	5.779377e-08	9.074659e-08	0.01191044	0.00791615	7.590528e-08	4.92923e-07	0.003192328	0.007562276
	0.003355471	0.00748871	7.590528e-08	4.92923e-07	0.01214527	0.00787667	7.831289e-08	1.245285e-07
	3.799969e-07	3.284385e-07	0.003192328	0.007562276	7.831289e-08	1.245285e-07	0.0119826	0.007927377
1.9e+08	0.01257638	0.007927837	6.217452e-08	9.328985e-08	0.003690104	0.007787673	4.125308e-07	3.296071e-07
	6.217452e-08	9.328985e-08	0.01238602	0.007993008	7.918962e-08	5.17987e-07	0.003510947	0.007873022
	0.003690104	0.007787673	7.918962e-08	5.17987e-07	0.0126405	0.007940663	8.41896e-08	1.280979e-07
	4.125308e-07	3.296071e-07	0.003510947	0.007873022	8.41896e-08	1.280979e-07	0.01246129	0.008001169
2e+08	0.01306747	0.007970879	6.661724e-08	9.554037e-08	0.00403665	0.008070568	4.456858e-07	3.285858e-07
	6.661724e-08	9.554037e-08	0.01285871	0.008047631	8.247031e-08	5.429213e-07	0.003841062	0.008168783
	0.00403665	0.008070568	8.247031e-08	5.429213e-07	0.01313329	0.00798122	9.015022e-08	1.312778e-07
	4.456858e-07	3.285858e-07	0.003841062	0.008168783	9.015022e-08	1.312778e-07	0.01293697	0.008052575
2.1e+08	0.01355573	0.007990959	7.110549e-08	9.749322e-08	0.00439435	0.008336847	4.793377e-07	3.253278e-07
	7.110549e-08	9.749322e-08	0.01332807	0.008080507	8.574428e-08	5.677277e-07	0.004181969	0.008449047
	0.00439435	0.008336847	8.574428e-08	5.677277e-07	0.01362314	0.007998765	9.617304e-08	1.340618e-07
	4.793377e-07	3.253278e-07	0.004181969	0.008449047	9.617304e-08	1.340618e-07	0.01340922	0.008082078
2.2e+08	0.01404064	0.007988498	7.562238e-08	9.914436e-08	0.004762421	0.008585999	5.133589e-07	3.197928e-07
	7.562238e-08	9.914436e-08	0.01379362	0.00809211	8.900794e-08	5.924084e-07	0.004532948	0.008713341
	0.004762421	0.008585999	8.900794e-08	5.924084e-07	0.01410952	0.007993713	1.022357e-07	1.364443e-07
	5.133589e-07	3.197928e-07	0.004532948	0.008713341	1.022357e-07	1.364443e-07	0.01387756	0.00809015
2.3e+08	0.01452164	0.007963922	8.015068e-08	1.004907e-07	0.005140055	0.008817556	5.476194e-07	3.119475e-07
	8.015068e-08	1.004907e-07	0.01425489	0.008082905	9.22573e-08	6.169656e-07	0.004893258	0.008961226
	0.005140055	0.008817556	9.22573e-08	6.169656e-07	0.01459188	0.007966484	1.083155e-07	1.384212e-07
	5.476194e-07	3.119475e-07	0.004893258	0.008961226	1.083155e-07	1.384212e-07	0.01434151	0.008077256
2.4e+08	0.01499814	0.007917637	8.467284e-08	1.015302e-07	0.005526424	0.009031086	5.819869e-07	3.017655e-07
	8.467284e-08	1.015302e-07	0.01471138	0.008053334	9.548815e-08	6.41402e-07	0.005262138	0.009192297
	0.005526424	0.009031086	9.548815e-08	6.41402e-07	0.01506964	0.007917481	1.143892e-07	1.399896e-07
	5.819869e-07	3.017655e-07	0.005262138	0.009192297	1.143892e-07	1.399896e-07	0.01480058	0.008043839
2.5e+08	0.01546959	0.007850061	8.917115e-08	1.022617e-07	0.005920682	0.009226199	6.163272e-07	2.892276e-07
	8.917115e-08	1.022617e-07	0.01516261	0.00800384	9.869616e-08	6.657204e-07	0.005638814	0.009406187
	0.005920682	0.009226199	9.869616e-08	6.657204e-07	0.01554221	0.007847118	1.204332e-07	1.41148e-07
	6.163272e-07	2.892276e-07	0.005638814	0.009406187	1.204332e-07	1.41148e-07	0.01525425	0.007990344
2.6e+08	0.01593538	0.007761602	9.362772e-08	1.02685e-07	0.006321964	0.009402545	6.505049e-07	2.743217e-07
	9.362772e-08	1.02685e-07	0.01560808	0.007934855	1.018769e-07	6.89924e-07	0.006022492	0.009602563
	0.006321964	0.009402545	1.018769e-07	6.89924e-07	0.01600902	0.007755801	1.264241e-07	1.418959e-07
	6.505049e-07	2.743217e-07	0.006022492	0.009602563	1.264241e-07	1.418959e-07	0.01570204	0.007917202
2.7e+08	0.01639496	0.007652669	9.802462e-08	1.028008e-07	0.006729391	0.009559815	6.843835e-07	2.570427e-07
	9.802462e-08	1.028008e-07	0.01604729	0.007846802	1.05026e-07	7.14016e-07	0.006412366	0.009781129
	0.006729391	0.009559815	1.05026e-07	7.14016e-07	0.01646947	0.007643941	1.323379e-07	1.422345e-07
	6.843835e-07	2.570427e-07	0.006412366	0.00978113	1.323379e-07	1.422345e-07	0.01614342	0.007824841
2.8e+08	0.01684772	0.007523676	1.023439e-07	1.026111e-07	0.007142068	0.009697741	7.178258e-07	2.373928e-07
	1.023439e-07	1.026111e-07	0.01647975	0.007740104	1.08139e-07	7.38e-07	0.006807619	0.009941626
	0.007142068	0.009697741	1.08139e-07	7.38e-07	0.01692298	0.007511959	1.38151e-07	1.421658e-07
	7.178258e-07	2.373928e-07	0.006807619	0.009941626	1.38151e-07	1.421658e-07	0.01657791	0.007713696
2.9e+08	0.01729308	0.00737504	1.065676e-07	1.021184e-07	0.007559092	0.009816098	7.506946e-07	2.153814e-07
	1.065676e-07	1.021184e-07	0.01690494	0.007615185	1.112116e-07	7.618799e-07	0.00720742	0.01008383
	0.007559092	0.009816098	1.112116e-07	7.618799e-07	0.01736895	0.007360271	1.438396e-07	1.416934e-07
	7.506946e-07	2.153814e-07	0.00720742	0.01008383	1.438396e-07	1.416934e-07	0.01700498	0.007584187
3e+08	0.01773048	0.007207181	1.106779e-07	1.013265e-07	0.007979549	0.009914702	7.828526e-07	1.910252e-07
	1.106779e-07	1.013265e-07	0.01732239	0.007472465	1.142396e-07	7.856594e-07	0.00761093	0.01020756
	0.007979549	0.009914702	1.142396e-07	7.856594e-07	0.0178068	0.007189307	1.4938e-07	1.40822e-07
	7.828526e-07	1.910252e-07	0.00761093	0.01020756	1.4938e-07	1.40822e-07	0.01742413	0.007436747
3.1e+08	0.01815933	0.007020531	1.146572e-07	1.002401e-07	0.008402517	0.009993411	8.141629e-07	1.643478e-07
	1.146572e-07	1.002401e-07	0.0177316	0.007312371	1.172188e-07	8.093429e-07	0.008017303	0.01031268
	0.008402517	0.009993411	1.172188e-07	8.093429e-07	0.01823595	0.006999506	1.547488e-07	1.395578e-07
	8.141629e-07	1.643478e-07	0.008017303	0.01031268	1.547488e-07	1.395578e-07	0.01783488	0.007271809
3.2e+08	0.01857905	0.006815525	1.184878e-07	9.886467e-08	0.00882707	0.01005213	8.444897e-07	1.353804e-07
	1.184878e-07	9.886467e-08	0.01813207	0.007135329	1.201452e-07	8.329346e-07	0.008425687	0.01039906
	0.00882707	0.01005213	1.201452e-07	8.329346e-07	0.01865582	0.006791313	1.599227e-07	1.379079e-07
	8.444897e-07	1.353804e-07	0.008425687	0.01039906	1.599227e-07	1.379079e-07	0.01823671	0.00708981
3.3e+08	0.01898909	0.006592611	1.221526e-07	9.720678e-08	0.009252275	0.01009079	8.736982e-07	1.041612e-07
	1.221526e-07	9.720678e-08	0.01852332	0.006941777	1.230149e-07	8.56439e-07	0.008835223	0.01046665
	0.009252275	0.01009079	1.230149e-07	8.56439e-07	0.01906585	0.006565181	1.648789e-07	1.358809e-07
	8.736982e-07	1.041612e-07	0.008835223	0.01046665	1.648789e-07	1.358809e-07	0.01862914	0.00689119
3.4e+08	0.01938889	0.006352251	1.256345e-07	9.527388e-08	0.0096772	0.0101094	9.016551e-07	7.073543e-08
	1.256345e-07	9.527388e-08	0.01890488	0.006732157	1.258241e-07	8.798608e-07	0.009245055	0.01051541
	0.0096772	0.0101094	1.258241e-07	8.798608e-07	0.01946546	0.006321586	1.695946e-07	1.334864e-07
	9.016551e-07	7.073543e-08	0.009245055	0.01051541	1.695946e-07	1.334864e-07	0.01901169	0.006676406
3.5e+08	0.01977788	0.006094916	1.289167e-07	9.307433e-08	0.01010091	0.01010797	9.282289e-07	3.51555e-08
	1.289167e-07	9.307433e-08	0.01927628	0.00650692	1.285692e-07	9.032048e-07	0.009654321	0.01054536
	0.01010091	0.01010797	1.285692e-07	9.032048e-07	0.01985411	0.006061005	1.740479e-07	1.307356e-07
	9.282289e-07	3.51555e-08	0.009654321	0.01054536	1.740479e-07	1.307356e-07	0.01938387	0.006445915
3.6e+08	0.02015553	0.005821091	1.319832e-07	9.061741e-08	0.01052249	0.01008658	9.532906e-07	-2.51918e-09
	1.319832e-07	9.061741e-08	0.01963704	0.006266525	1.312467e-07	9.264759e-07	0.01006216	0.01055653
	0.01052249	0.01008658	1.312467e-07	9.264759e-07	0.02023125	0.005783935	1.782168e-07	1.276404e-07
	9.532906e-07	-2.51918e-09	0.01006216	0.01055653	1.782168e-07	1.276404e-07	0.01974522	0.006200188
3.7e+08	0.02052131	0.005531274	1.348178e-07	8.791326e-08	0.01094099	0.01004534	9.767136e-07	-4.222233e-08
	1.348178e-07	8.791326e-08	0.01998671	0.006011442	1.338534e-07	9.496794e-07	0.01046773	0.01054903
	0.01094099	0.01004534	1.338534e-07	9.496794e-07	0.02059634	0.005490883	1.820805e-07	1.242142e-07
	9.767136e-07	-4.222233e-08	0.01046773	0.01054903	1.820805e-07	1.242142e-07	0.02009528	0.005939704
3.8e+08	0.02087468	0.00522598	1.374053e-07	8.497289e-08	0.0113555	0.00998442	9.983743e-07	-8.388086e-08
	1.374053e-07	8.497289e-08	0.02032484	0.005742153	1.363861e-07	9.728205e-07	0.01087016	0.01052297
	0.0113555	0.00998442	1.363861e-07	9.728205e-07	0.02094886	0.005182373	1.856182e-07	1.204714e-07
	9.983743e-07	-8.388086e-08	0.01087016	0.01052297	1.856182e-07	1.204714e-07	0.02043359	0.005664954
3.9e+08	0.02121514	0.004905738	1.397307e-07	8.180816e-08	0.01176512	0.009904006	1.018152e-06	-1.27415e-07
	1.397307e-07	8.180816e-08	0.02065101	0.005459149	1.38842e-07	9.959047e-07	0.01126862	0.01047852
	0.01176512	0.009904006	1.38842e-07	9.959047e-07	0.02128831	0.004858945	1.888101e-07	1.164277e-07
	1.018152e-06	-1.27415e-07	0.01126862	0.01047852	1.888101e-07	1.164277e-07	0.02075972	0.005376441
4e+08	0.02154219	0.004571093	1.417796e-07	7.843177e-08	0.01216893	0.009804342	1.035931e-06	-1.727384e-07
	1.417796e-07	7.843177e-08	0.02096477	0.005162936	1.412183e-07	1.018938e-06	0.01166227	0.01041588
	0.01216893	0.009804342	1.412183e-07	1.018938e-06	0.02161418	0.004521153	1.916371e-07	1.120998e-07
	1.035931e-06	-1.727384e-07	0.01166227	0.01041588	1.916371e-07	1.120998e-07	0.02107324	0.005074678
4.1e+08	0.02185534	0.004222607	1.435383e-07	7.485718e-08	0.01256604	0.009685711	1.051597e-06	-2.197586e-07
	1.435383e-07	7.485718e-08	0.02126573	0.004854029	1.435125e-07	1.041925e-06	0.01205028	0.01033529
	0.01256604	0.009685711	1.435125e-07	1.041925e-06	0.021926	0.004169567	1.940808e-07	1.075052e-07
	1.051597e-06	-2.197586e-07	0.01205028	0.01033529	1.940808e-07	1.075052e-07	0.02137374	0.004760195
4.2e+08	0.02215414	0.003860854	1.449936e-07	7.109865e-08	0.01295558	0.009548435	1.065043e-06	-2.683765e-07
	1.449936e-07	7.109865e-08	0.02155348	0.004532957	1.457224e-07	1.064872e-06	0.01243183	0.01023702
	0.01295558	0.009548435	1.457224e-07	1.064872e-06	0.0222233	0.003804769	1.961235e-07	1.026629e-07
	1.065043e-06	-2.683765e-07	0.01243183	0.01023702	1.961235e-07	1.026629e-07	0.02166081	0.004433525
4.3e+08	0.02243812	0.003486426	1.46133e-07	6.717117e-08	0.01333669	0.009392876	1.076164e-06	-3.184873e-07
	1.46133e-07	6.717117e-08	0.02182764	0.004200257	1.478458e-07	1.087786e-06	0.01280613	0.0101214
	0.01333669	0.009392876	1.478458e-07	1.087786e-06	0.02250563	0.003427363	1.977487e-07	9.759261e-08
	1.076164e-06	-3.184873e-07	0.01280613	0.0101214	1.977487e-07	9.759261e-08	0.02193407	0.004095221
4.4e+08	0.02270685	0.003099929	1.469448e-07	6.309045e-08	0.01370851	0.009219436	1.084861e-06	-3.699804e-07
	1.469448e-07	6.309045e-08	0.02208784	0.003856483	1.49881e-07	1.110672e-06	0.01317239	0.009988761
	0.01370851	0.009219436	1.49881e-07	1.110672e-06	0.02277256	0.003037959	1.989406e-07	9.231497e-08
	1.084861e-06	-3.699804e-07	0.01317239	0.009988761	1.989406e-07	9.231497e-08	0.02219316	0.003745844
4.5e+08	0.02295993	0.002701986	1.47418e-07	5.887287e-08	0.01407023	0.009028554	1.091041e-06	-4.227395e-07
	1.47418e-07	5.887287e-08	0.02233373	0.003502196	1.518265e-07	1.133537e-06	0.01352984	0.009839497
	0.01407023	0.009028554	1.518265e-07	1.133537e-06	0.02302369	0.002637192	1.996844e-07	8.685161e-08
	1.091041e-06	-4.227395e-07	0.01352984	0.009839497	1.996844e-07	8.685161e-08	0.02243771	0.003385968
4.6e+08	0.02319695	0.002293233	1.475424e-07	5.453546e-08	0.01442103	0.008820707	1.094615e-06	-4.766432e-07
	1.475424e-07	5.453546e-08	0.02256497	0.003137971	1.536809e-07	1.156387e-06	0.01387771	0.009674025
	0.01442103	0.008820707	1.536809e-07	1.156387e-06	0.02325862	0.002225703	1.999665e-07	8.122502e-08
	1.094615e-06	-4.766432e-07	0.01387771	0.009674025	1.999665e-07	8.122502e-08	0.0226674	0.003016178
4.7e+08	0.02341755	0.001874321	1.473085e-07	5.009585e-08	0.01476013	0.00859641	1.095502e-06	-5.315648e-07
	1.473085e-07	5.009585e-08	0.02278125	0.002764394	1.554432e-07	1.179228e-06	0.01421529	0.009492798
	0.01476013	0.00859641	1.554432e-07	1.179228e-06	0.02347697	0.001804148	1.997739e-07	7.545849e-08
	1.095502e-06	-5.315648e-07	0.01421529	0.009492798	1.997739e-07	7.545849e-08	0.0228819	0.002637065
4.8e+08	0.02362136	0.001445913	1.467079e-07	4.557225e-08	0.01508678	0.008356212	1.093623e-06	-5.873728e-07
	1.467079e-07	4.557225e-08	0.02298227	0.002382058	1.571126e-07	1.202067e-06	0.01454186	0.009296302
	0.01508678	0.008356212	1.571126e-07	1.202067e-06	0.02367841	0.001373202	1.990955e-07	6.957606e-08
	1.093623e-06	-5.873728e-07	0.01454186	0.009296302	1.990955e-07	6.957606e-08	0.02308092	0.002249239
