!$
! Info: Touchstone file created by Circ.  Input file=Tx_2in_Rx_85ohms_TxVia_10mils_RxVia_20mils.circ
!$
# Hz S RI R 50
0	0.001735778	2.544809e-26	2.335457e-12	1.102667e-28	2.457209e-05	2.12738e-24	-4.774869e-09	5.847283e-25
	2.337079e-12	1.104562e-28	0.001738656	2.856536e-26	-1.758718e-12	2.079409e-28	2.199965e-05	2.400289e-24
	2.462065e-05	2.128623e-24	-1.808166e-12	2.139718e-28	0.001750821	2.553501e-26	-1.309154e-09	1.603142e-25
	-4.772704e-09	5.844631e-25	2.345845e-05	2.470477e-24	-1.309199e-09	1.603198e-25	0.001744322	2.730372e-26
1e+07	0.002395496	-0.001686677	-4.325406e-13	-1.901071e-12	3.127313e-05	0.0004854091	-1.049907e-08	1.576771e-08
	-4.32454e-13	-1.901339e-12	0.002390161	-0.001653887	-1.096233e-12	-2.948859e-12	4.616163e-05	0.000484621
	3.127771e-05	0.0004854063	-1.096285e-12	-2.948606e-12	0.002678153	-0.001606125	-7.959247e-09	1.546916e-08
	-1.049907e-08	1.576771e-08	4.619364e-05	0.0004846095	-7.959247e-09	1.546916e-08	0.00239943	-0.001650853
2e+07	0.002885763	-0.003924712	4.629468e-13	-3.220296e-12	6.607233e-05	0.0009698913	-9.006588e-09	1.261675e-08
	4.628147e-13	-3.220483e-12	0.002905334	-0.003867427	1.395092e-12	-4.534043e-12	8.695361e-05	0.0009564676
	6.607176e-05	0.0009698882	1.395188e-12	-4.53384e-12	0.003178518	-0.003887513	-1.00669e-08	1.104919e-08
	-9.006588e-09	1.261675e-08	8.695043e-05	0.0009564467	-1.00669e-08	1.104919e-08	0.002915249	-0.00385975
3e+07	0.003108122	-0.006421035	-4.092268e-13	-4.355696e-12	0.0001342442	0.001440698	-7.363112e-09	1.104019e-08
	-4.092696e-13	-4.355691e-12	0.003143101	-0.006355563	-1.349342e-12	-7.336802e-12	0.0001461495	0.001423031
	0.0001342443	0.001440697	-1.349298e-12	-7.336806e-12	0.003408484	-0.006398389	-7.682142e-09	1.152354e-08
	-7.363112e-09	1.104019e-08	0.0001461444	0.001423028	-7.682142e-09	1.152354e-08	0.003154141	-0.006343092
4e+07	0.003136027	-0.009004367	-1.379335e-12	-4.821915e-12	0.0002220361	0.001904302	-6.23269e-09	1.010704e-08
	-1.379303e-12	-4.821899e-12	0.00317997	-0.008935731	-2.949811e-12	-8.483602e-12	0.0002244277	0.001884628
	0.0002220368	0.001904302	-2.949846e-12	-8.483618e-12	0.003442343	-0.008993203	-6.024432e-09	1.131918e-08
	-6.23269e-09	1.010704e-08	0.0002244273	0.001884629	-6.024432e-09	1.131918e-08	0.003192733	-0.008920337
5e+07	0.00299712	-0.01163134	-1.582929e-12	-5.829757e-12	0.0003295512	0.002360981	-5.614509e-09	9.820603e-09
	-1.58291e-12	-5.829754e-12	0.003044715	-0.01156226	-3.535326e-12	-1.041252e-11	0.0003216823	0.002340759
	0.0003295521	0.002360981	-3.535347e-12	-1.041252e-11	0.003308035	-0.01163127	-5.72601e-09	1.137931e-08
	-5.614509e-09	9.820603e-09	0.0003216818	0.00234076	-5.72601e-09	1.137931e-08	0.003058179	-0.01154474
6e+07	0.00270535	-0.01427914	-1.025055e-12	-1.060093e-11	0.0004566574	0.002810377	-5.429906e-09	1.068924e-08
	-1.02508e-12	-1.06009e-11	0.002751877	-0.01421129	1.181422e-13	-1.50858e-11	0.0004376985	0.002790823
	0.0004566585	0.002810376	1.181762e-13	-1.508582e-11	0.00301958	-0.01429055	-8.162969e-09	1.194059e-08
	-5.429906e-09	1.068924e-08	0.0004376956	0.002790824	-8.162969e-09	1.194059e-08	0.002765534	-0.01419161
7e+07	0.002269313	-0.01693243	-6.073214e-12	-3.417954e-11	0.0006031377	0.003251867	-5.211771e-09	1.599394e-08
	-6.073292e-12	-3.417944e-11	0.0023104	-0.01686699	1.851856e-11	1.580732e-11	0.0005722191	0.003234133
	0.000603139	0.003251867	1.851869e-11	1.580733e-11	0.002585579	-0.01695607	-1.692689e-08	4.392053e-09
	-5.211771e-09	1.599394e-08	0.0005722144	0.003234136	-1.692689e-08	4.392053e-09	0.002324206	-0.01684532
8e+07	0.001695098	-0.01957948	-6.276605e-10	9.029821e-11	0.0007686885	0.003684701	3.624032e-08	3.440686e-10
	-6.276603e-10	9.029832e-11	0.001726558	-0.01951746	-3.532866e-11	-1.40616e-11	0.0007249244	0.003669981
	0.0007686896	0.0036847	-3.532862e-11	-1.406156e-11	0.002012074	-0.01961637	-5.268353e-09	-4.543181e-09
	3.624033e-08	3.440687e-10	0.0007249197	0.003669985	-5.268353e-09	-4.543181e-09	0.00174034	-0.0194944
9e+07	0.0009875057	-0.02221037	2.843218e-11	-6.904231e-11	0.0009529218	0.004108083	2.62914e-09	-2.437141e-09
	2.843225e-11	-6.904231e-11	0.001005171	-0.02215307	-1.3754e-11	-2.205635e-11	0.0008954442	0.004097741
	0.0009529225	0.004108083	-1.375401e-11	-2.205635e-11	0.001303735	-0.0222621	-9.393793e-10	-1.468251e-09
	2.62914e-09	-2.437141e-09	0.0008954415	0.004097745	-9.393792e-10	-1.468251e-09	0.00101835	-0.02212933
1e+08	0.000151063	-0.02481443	-5.65527e-12	-1.316324e-11	0.001155408	0.004521346	-3.761609e-12	-2.699027e-12
	-5.65527e-12	-1.316324e-11	0.0001500606	-0.02476637	-8.771706e-12	-2.159563e-11	0.001083512	0.004517482
	0.001155408	0.004521346	-8.771706e-12	-2.159563e-11	0.000464387	-0.02488542	-7.623604e-12	-1.323004e-11
	-3.761609e-12	-2.699027e-12	0.001083513	0.004517482	-7.623604e-12	-1.323004e-11	0.0001616581	-0.02474256
1.1e+08	-0.0008015335	-0.02739888	-6.697413e-12	-1.3825e-11	0.001376233	0.004923568	-4.270206e-12	-2.7121e-12
	-6.697413e-12	-1.3825e-11	-0.0008381947	-0.02735429	-9.838358e-12	-2.307278e-11	0.001291102	0.004926065
	0.001376233	0.004923568	-9.838358e-12	-2.307278e-11	-0.0005021001	-0.02748537	-9.078649e-12	-1.372801e-11
	-4.270206e-12	-2.7121e-12	0.001291102	0.004926065	-9.078649e-12	-1.372801e-11	-0.0008285566	-0.02732918
1.2e+08	-0.001880911	-0.02994754	-7.248657e-12	-1.475435e-11	0.001614062	0.005313538	-4.694096e-12	-2.765967e-12
	-7.248657e-12	-1.475435e-11	-0.001954167	-0.02989853	-1.053658e-11	-2.465909e-11	0.001514706	0.0053226
	0.001614062	0.005313538	-1.053658e-11	-2.465909e-11	-0.001595057	-0.03004463	-9.999259e-12	-1.450003e-11
	-4.694096e-12	-2.765967e-12	0.001514706	0.0053226	-9.999259e-12	-1.450003e-11	-0.001946965	-0.02987215
1.3e+08	-0.003081783	-0.03245204	-7.725395e-12	-1.570556e-11	0.001868326	0.005690715	-5.156893e-12	-2.779229e-12
	-7.725395e-12	-1.570556e-11	-0.003193209	-0.0323944	-1.124738e-11	-2.618954e-11	0.001753921	0.005707147
	0.001868326	0.005690715	-1.124738e-11	-2.618954e-11	-0.0028098	-0.03255767	-1.0875e-11	-1.526349e-11
	-5.156893e-12	-2.779229e-12	0.001753921	0.005707147	-1.0875e-11	-1.526349e-11	-0.003188983	-0.03236671
1.4e+08	-0.004399862	-0.03490654	-8.189344e-12	-1.663045e-11	0.002138398	0.006054415	-5.636092e-12	-2.764332e-12
	-8.189344e-12	-1.663045e-11	-0.00455115	-0.03483676	-1.200605e-11	-2.764113e-11	0.002008177	0.006079133
	0.002138398	0.006054415	-1.200605e-11	-2.764113e-11	-0.004142157	-0.03501915	-1.176377e-11	-1.596482e-11
	-5.636092e-12	-2.764332e-12	0.002008177	0.006079133	-1.176377e-11	-1.596482e-11	-0.004550442	-0.03480763
1.5e+08	-0.005831295	-0.03730578	-8.682154e-12	-1.751514e-11	0.002423615	0.006403953	-6.14913e-12	-2.708235e-12
	-8.682154e-12	-1.751514e-11	-0.006024138	-0.03722055	-1.280224e-11	-2.901679e-11	0.002276843	0.006437942
	0.002423615	0.006403953	-1.280224e-11	-2.901679e-11	-0.00558828	-0.03742398	-1.271035e-11	-1.658666e-11
	-6.14913e-12	-2.708235e-12	0.002276843	0.006437942	-1.271035e-11	-1.658666e-11	-0.006027469	-0.03718976
1.6e+08	-0.007372435	-0.0396448	-9.199724e-12	-1.836139e-11	0.002723272	0.006738656	-6.69193e-12	-2.611199e-12
	-9.199724e-12	-1.836139e-11	-0.007608463	-0.03954088	-1.362931e-11	-3.031808e-11	0.002559255	0.006782966
	0.002723272	0.006738656	-1.362931e-11	-3.031808e-11	-0.007144483	-0.03976731	-1.370676e-11	-1.713011e-11
	-6.69193e-12	-2.611199e-12	0.002559255	0.006782967	-1.370676e-11	-1.713011e-11	-0.00761632	-0.03950813
1.7e+08	-0.009019715	-0.04191885	-9.73918e-12	-1.917005e-11	0.003036629	0.007057879	-7.261271e-12	-2.472966e-12
	-9.73918e-12	-1.917005e-11	-0.009300451	-0.04179298	-1.448201e-11	-3.154574e-11	0.002854718	0.007113626
	0.003036629	0.007057879	-1.448201e-11	-3.154574e-11	-0.008807139	-0.04204444	-1.47468e-11	-1.759525e-11
	-7.261271e-12	-2.472966e-12	0.002854718	0.007113626	-1.47468e-11	-1.759525e-11	-0.00931328	-0.04175795
1.8e+08	-0.01076956	-0.04412334	-1.029822e-11	-1.994151e-11	0.003362913	0.007361004	-7.854334e-12	-2.293035e-12
	-1.029822e-11	-1.994151e-11	-0.01109639	-0.04397223	-1.535575e-11	-3.270011e-11	0.003162511	0.007429368
	0.003362913	0.007361004	-1.535575e-11	-3.270011e-11	-0.01057261	-0.04425087	-1.582505e-11	-1.798162e-11
	-7.854334e-12	-2.293035e-12	0.003162511	0.007429368	-1.582505e-11	-1.798162e-11	-0.0111146	-0.04393453
1.9e+08	-0.01261832	-0.04625389	-1.087483e-11	-2.067586e-11	0.003701316	0.007647449	-8.468491e-12	-2.070806e-12
	-1.087483e-11	-2.067586e-11	-0.01299249	-0.04607417	-1.624618e-11	-3.378137e-11	0.003481888	0.00772967
	0.003701316	0.007647449	-1.624618e-11	-3.378137e-11	-0.0124372	-0.04638222	-1.693649e-11	-1.828856e-11
	-8.468491e-12	-2.070806e-12	0.003481888	0.00772967	-1.693649e-11	-1.828856e-11	-0.01301643	-0.04603338
2e+08	-0.01456227	-0.04830625	-1.146709e-11	-2.137303e-11	0.004051	0.007916672	-9.101202e-12	-1.805655e-12
	-1.146709e-11	-2.137303e-11	-0.01498483	-0.0480945	-1.714907e-11	-3.478966e-11	0.003812082	0.008014047
	0.004051	0.007916672	-1.714907e-11	-3.478966e-11	-0.01439713	-0.04843432	-1.807627e-11	-1.851539e-11
	-9.101202e-12	-1.805655e-12	0.003812082	0.008014047	-1.807627e-11	-1.851539e-11	-0.01501484	-0.04805019
2.1e+08	-0.01659756	-0.05027639	-1.207314e-11	-2.203288e-11	0.004411101	0.00816817	-9.749965e-12	-1.496986e-12
	-1.207314e-11	-2.203288e-11	-0.01706939	-0.05002911	-1.806024e-11	-3.572519e-11	0.004152303	0.008282045
	0.004411101	0.00816817	-1.806024e-11	-3.572519e-11	-0.0164485	-0.05040316	-1.923962e-11	-1.866146e-11
	-9.749965e-12	-1.496986e-12	0.004152303	0.008282045	-1.923962e-11	-1.866146e-11	-0.01710577	-0.04998082
2.2e+08	-0.01872023	-0.05216043	-1.269115e-11	-2.265524e-11	0.00478073	0.008401484	-1.041229e-11	-1.144256e-12
	-1.269115e-11	-2.265524e-11	-0.01924202	-0.05187408	-1.897549e-11	-3.658826e-11	0.004501743	0.00853325
	0.00478073	0.008401484	-1.897549e-11	-3.658826e-11	-0.01858732	-0.0522849	-2.042177e-11	-1.872626e-11
	-1.041229e-11	-1.144256e-12	0.004501743	0.00853325	-2.042177e-11	-1.872626e-11	-0.01928501	-0.05182134
2.3e+08	-0.02092619	-0.05395471	-1.331927e-11	-2.323991e-11	0.005158975	0.008616198	-1.108569e-11	-7.469826e-13
	-1.331927e-11	-2.323991e-11	-0.02149842	-0.0536257	-1.989064e-11	-3.737932e-11	0.004859574	0.008767285
	0.005158975	0.008616198	-1.989064e-11	-3.737932e-11	-0.02080946	-0.0540759	-2.1618e-11	-1.87094e-11
	-1.108569e-11	-7.469826e-13	0.004859574	0.008767285	-2.1618e-11	-1.87094e-11	-0.02154825	-0.053568
2.4e+08	-0.02321125	-0.05565575	-1.395565e-11	-2.378675e-11	0.005544908	0.008811945	-1.176769e-11	-3.047868e-13
	-1.395565e-11	-2.378675e-11	-0.0238342	-0.05528045	-2.080151e-11	-3.809905e-11	0.005224955	0.008983813
	0.005544908	0.008811945	-2.080151e-11	-3.809905e-11	-0.02311068	-0.05577271	-2.282357e-11	-1.861072e-11
	-1.176769e-11	-3.047868e-13	0.005224955	0.008983813	-2.282357e-11	-1.861072e-11	-0.02389106	-0.05521728
2.5e+08	-0.02557109	-0.05726029	-1.459842e-11	-2.429563e-11	0.005937582	0.008988401	-1.245585e-11	1.826305e-13
	-1.459842e-11	-2.429563e-11	-0.02624483	-0.05683503	-2.170391e-11	-3.874828e-11	0.005597027	0.009182538
	0.005937582	0.008988401	-2.170391e-11	-3.874828e-11	-0.02548665	-0.05737208	-2.403374e-11	-1.843024e-11
	-1.245585e-11	1.826305e-13	0.005597027	0.009182538	-2.403374e-11	-1.843024e-11	-0.02630887	-0.05676587
2.6e+08	-0.02800127	-0.05876525	-1.524566e-11	-2.476649e-11	0.006336038	0.009145294	-1.314759e-11	7.154498e-13
	-1.524566e-11	-2.476649e-11	-0.02872568	-0.05828636	-2.259368e-11	-3.932808e-11	0.005974923	0.009363206
	0.006336038	0.009145294	-2.259368e-11	-3.932808e-11	-0.02793289	-0.05887097	-2.524379e-11	-1.816821e-11
	-1.314759e-11	7.154498e-13	0.005974923	0.009363206	-2.524379e-11	-1.816821e-11	-0.02879701	-0.05821068
2.7e+08	-0.03049729	-0.06016779	-1.589544e-11	-2.519932e-11	0.006739305	0.009282397	-1.384037e-11	1.293762e-12
	-1.589544e-11	-2.519932e-11	-0.031272	-0.05963159	-2.346671e-11	-3.983972e-11	0.006357765	0.009525602
	0.006739305	0.009282397	-2.346671e-11	-3.983972e-11	-0.03044487	-0.06026654	-2.644904e-11	-1.782509e-11
	-1.384037e-11	1.293762e-12	0.006357765	0.009525602	-2.644904e-11	-1.782509e-11	-0.03135073	-0.05954884
2.8e+08	-0.03305451	-0.06146528	-1.654584e-11	-2.55942e-11	0.007146405	0.009399531	-1.453169e-11	1.917528e-12
	-1.654584e-11	-2.55942e-11	-0.03387898	-0.06086808	-2.431895e-11	-4.028473e-11	0.006744667	0.009669557
	0.007146405	0.009399531	-2.431895e-11	-4.028473e-11	-0.03301792	-0.06155616	-2.764481e-11	-1.740158e-11
	-1.453169e-11	1.917528e-12	0.006744667	0.009669557	-2.764481e-11	-1.740158e-11	-0.03396516	-0.06077771
2.9e+08	-0.03566826	-0.0626553	-1.719491e-11	-2.595128e-11	0.007556356	0.009496569	-1.521904e-11	2.586601e-12
	-1.719491e-11	-2.595128e-11	-0.03654169	-0.06199343	-2.51464e-11	-4.066484e-11	0.007134739	0.009794944
	0.007556356	0.009496569	-2.51464e-11	-4.066484e-11	-0.03564733	-0.06273744	-2.882649e-11	-1.689862e-11
	-1.521904e-11	2.586601e-12	0.007134739	0.009794944	-2.882649e-11	-1.689862e-11	-0.03663535	-0.06189487
3e+08	-0.03833373	-0.06373563	-1.78407e-11	-2.627076e-11	0.00796817	0.00957343	-1.589992e-11	3.300729e-12
	-1.78407e-11	-2.627076e-11	-0.03925517	-0.06300546	-2.594515e-11	-4.0982e-11	0.007527089	0.009901679
	0.00796817	0.00957343	-2.594515e-11	-4.0982e-11	-0.03832828	-0.06380817	-2.998951e-11	-1.631736e-11
	-1.589992e-11	3.300729e-12	0.007527089	0.009901679	-2.998951e-11	-1.631736e-11	-0.03935628	-0.06289814
3.1e+08	-0.04104612	-0.06470431	-1.848044e-11	-2.65526e-11	0.008380861	0.009630082	-1.657186e-11	4.059518e-12
	-1.848044e-11	-2.65526e-11	-0.04201435	-0.06390222	-2.671062e-11	-4.124011e-11	0.007920822	0.00998972
	0.008380861	0.009630082	-2.671062e-11	-4.124011e-11	-0.0410559	-0.06476639	-3.112939e-11	-1.565919e-11
	-1.657186e-11	4.059518e-12	0.007920822	0.00998972	-3.112939e-11	-1.565919e-11	-0.04212288	-0.06378557
3.2e+08	-0.04380051	-0.06555955	-1.911117e-11	-2.679693e-11	0.008793445	0.009666542	-1.723238e-11	4.862465e-12
	-1.911117e-11	-2.679693e-11	-0.04481414	-0.06468198	-2.743831e-11	-4.144376e-11	0.008315047	0.01005907
	0.008793445	0.009666542	-2.743831e-11	-4.144376e-11	-0.04382527	-0.06561035	-3.22417e-11	-1.49257e-11
	-1.723238e-11	4.862465e-12	0.008315047	0.01005907	-3.22417e-11	-1.49257e-11	-0.04493	-0.06455544
3.3e+08	-0.04659196	-0.06629983	-1.973255e-11	-2.7005e-11	0.009204942	0.009682873	-1.787906e-11	5.708977e-12
	-1.973255e-11	-2.7005e-11	-0.04764938	-0.06534327	-2.812628e-11	-4.159234e-11	0.008708875	0.01010977
	0.009204942	0.009682873	-2.812628e-11	-4.159234e-11	-0.04663141	-0.06633849	-3.332214e-11	-1.411879e-11
	-1.787906e-11	5.708977e-12	0.008708875	0.01010977	-3.332214e-11	-1.411879e-11	-0.04777247	-0.06520624
3.4e+08	-0.0494155	-0.0669238	-2.034261e-11	-2.71774e-11	0.009614381	0.009679187	-1.850931e-11	6.598301e-12
	-2.034261e-11	-2.71774e-11	-0.0505149	-0.06588481	-2.877146e-11	-4.168724e-11	0.009101425	0.01014191
	0.009614381	0.009679187	-2.877146e-11	-4.168724e-11	-0.0494693	-0.06694952	-3.436392e-11	-1.324007e-11
	-1.850931e-11	6.598301e-12	0.009101425	0.01014191	-3.436392e-11	-1.324007e-11	-0.05064505	-0.06573674
3.5e+08	-0.05226612	-0.06743037	-2.093945e-11	-2.73148e-11	0.0100208	0.009655642	-1.91209e-11	7.529583e-12
	-2.093945e-11	-2.73148e-11	-0.05340547	-0.06630558	-2.937053e-11	-4.173179e-11	0.009491824	0.01015562
	0.0100208	0.009655642	-2.937053e-11	-4.173179e-11	-0.0523339	-0.06744235	-3.536408e-11	-1.229219e-11
	-1.91209e-11	7.529583e-12	0.009491824	0.01015562	-3.536408e-11	-1.229219e-11	-0.05354252	-0.06614589
3.6e+08	-0.05513877	-0.06781864	-2.152121e-11	-2.741803e-11	0.01042324	0.009612442	-1.971154e-11	8.50186e-12
	-2.152121e-11	-2.741803e-11	-0.05631588	-0.06660478	-2.992025e-11	-4.173015e-11	0.009879206	0.01015107
	0.01042324	0.009612442	-2.992025e-11	-4.173015e-11	-0.05522014	-0.06781608	-3.631988e-11	-1.127809e-11
	-1.971154e-11	8.50186e-12	0.009879206	0.01015107	-3.631988e-11	-1.127809e-11	-0.05645959	-0.06643289
3.7e+08	-0.05802843	-0.06808794	-2.208603e-11	-2.748796e-11	0.01082077	0.009549836	-2.027897e-11	9.514054e-12
	-2.208603e-11	-2.748796e-11	-0.05924087	-0.06678181	-3.041776e-11	-4.168567e-11	0.01026272	0.01012845
	0.01082077	0.009549836	-3.041776e-11	-4.168567e-11	-0.05812294	-0.06807008	-3.72275e-11	-1.020049e-11
	-2.027897e-11	9.514054e-12	0.01026272	0.01012845	-3.72275e-11	-1.020049e-11	-0.059391	-0.06659719
3.8e+08	-0.06093004	-0.06823781	-2.263211e-11	-2.752555e-11	0.01121247	0.009468116	-2.082095e-11	1.056498e-11
	-2.263211e-11	-2.752555e-11	-0.06217523	-0.06683635	-3.086039e-11	-4.160192e-11	0.01064153	0.01008804
	0.01121247	0.009468116	-3.086039e-11	-4.160192e-11	-0.06103722	-0.06820389	-3.80833e-11	-9.062342e-12
	-2.082095e-11	1.056498e-11	0.01064153	0.01008804	-3.80833e-11	-9.062342e-12	-0.06233148	-0.06663843
3.9e+08	-0.06383856	-0.06826801	-2.315765e-11	-2.753187e-11	0.01159743	0.009367617	-2.133532e-11	1.165333e-11
	-2.315765e-11	-2.753187e-11	-0.06511372	-0.06676825	-3.124568e-11	-4.148258e-11	0.01101481	0.01003009
	0.01159743	0.009367617	-3.124568e-11	-4.148258e-11	-0.0639579	-0.0682173	-3.888376e-11	-7.866773e-12
	-2.133532e-11	1.165333e-11	0.01101481	0.01003009	-3.888376e-11	-7.866773e-12	-0.06527577	-0.0665565
4e+08	-0.06674896	-0.06817851	-2.366093e-11	-2.750808e-11	0.01197477	0.009248717	-2.181999e-11	1.27777e-11
	-2.366093e-11	-2.750808e-11	-0.06805112	-0.06657762	-3.157137e-11	-4.133147e-11	0.01138176	0.009954956
	0.01197477	0.009248717	-3.157137e-11	-4.133147e-11	-0.06687991	-0.06811029	-3.962557e-11	-6.617093e-12
	-2.181999e-11	1.27777e-11	0.01138176	0.009954956	-3.962557e-11	-6.617093e-12	-0.06821862	-0.06635151
4.1e+08	-0.06965624	-0.06796948	-2.414025e-11	-2.745541e-11	0.01234363	0.009111833	-2.227292e-11	1.393658e-11
	-2.414025e-11	-2.745541e-11	-0.07098227	-0.06626476	-3.183543e-11	-4.115259e-11	0.0117416	0.009862978
	0.01234363	0.009111833	-3.183543e-11	-4.115259e-11	-0.06979822	-0.06788307	-4.030556e-11	-5.316796e-12
	-2.227292e-11	1.393658e-11	0.0117416	0.009862978	-4.030556e-11	-5.316796e-12	-0.07115483	-0.06602378
4.2e+08	-0.0725554	-0.06764131	-2.459399e-11	-2.737522e-11	0.01270316	0.008957422	-2.269216e-11	1.512835e-11
	-2.459399e-11	-2.737522e-11	-0.07390201	-0.06583021	-3.203605e-11	-4.095e-11	0.01209355	0.009754555
	0.01270316	0.008957422	-3.203605e-11	-4.095e-11	-0.0727078	-0.06753605	-4.09208e-11	-3.969541e-12
	-2.269216e-11	1.512835e-11	0.01209355	0.009754555	-4.09208e-11	-3.969541e-12	-0.07407921	-0.06557387
4.3e+08	-0.07544153	-0.0671946	-2.502059e-11	-2.726893e-11	0.01305256	0.008785977	-2.307584e-11	1.635129e-11
	-2.502059e-11	-2.726893e-11	-0.07680525	-0.06527471	-3.217165e-11	-4.072792e-11	0.01243687	0.009630116
	0.01305256	0.008785977	-3.217165e-11	-4.072792e-11	-0.0756037	-0.06706985	-4.146852e-11	-2.579146e-12
	-2.307584e-11	1.635129e-11	0.01243687	0.009630116	-4.146852e-11	-2.579146e-12	-0.07698662	-0.06500253
4.4e+08	-0.0783097	-0.06663013	-2.541854e-11	-2.713806e-11	0.01339104	0.00859803	-2.342216e-11	1.760359e-11
	-2.541854e-11	-2.713806e-11	-0.07968693	-0.06459922	-3.224092e-11	-4.04906e-11	0.01277086	0.009490119
	0.01339104	0.00859803	-3.224092e-11	-4.04906e-11	-0.07848097	-0.06648528	-4.194616e-11	-1.149574e-12
	-2.342216e-11	1.760359e-11	0.01277086	0.009490119	-4.194616e-11	-1.149574e-12	-0.07987201	-0.06431075
4.5e+08	-0.08115509	-0.0659489	-2.578643e-11	-2.698419e-11	0.01371784	0.008394144	-2.372944e-11	1.888335e-11
	-2.578643e-11	-2.698419e-11	-0.08254206	-0.06380491	-3.224274e-11	-4.024242e-11	0.0130948	0.009335056
	0.01371784	0.008394144	-3.224274e-11	-4.024242e-11	-0.08133474	-0.06578338	-4.23514e-11	3.15075e-13
	-2.372944e-11	1.888335e-11	0.0130948	0.009335056	-4.23514e-11	3.15075e-13	-0.08273033	-0.0634997
4.6e+08	-0.08397291	-0.0651521	-2.61229e-11	-2.680902e-11	0.01403223	0.008174919	-2.399606e-11	2.018858e-11
	-2.61229e-11	-2.680902e-11	-0.08536573	-0.06289313	-3.21763e-11	-3.998779e-11	0.01340804	0.009165446
	0.01403223	0.008174919	-3.21763e-11	-3.998779e-11	-0.08416021	-0.06496536	-4.26821e-11	1.810568e-12
	-2.399606e-11	2.018858e-11	0.01340804	0.009165446	-4.26821e-11	1.810568e-12	-0.08555665	-0.06257078
