!$
! Info: Touchstone file created by Circ.  Input file=Tx_2in_Rx_100ohms_TxVia_10mils_RxVia_20mils.circ
!$
# Hz S RI R 50
0	0.002203615	2.541567e-26	2.333371e-12	1.102625e-28	2.454395e-05	2.717258e-24	-4.770394e-09	5.841803e-25
	2.334992e-12	1.104519e-28	0.002206491	2.852791e-26	-1.756882e-12	2.077807e-28	2.197168e-05	3.06929e-24
	2.459246e-05	2.718846e-24	-1.806283e-12	2.138059e-28	0.002218644	2.550246e-26	-1.307927e-09	1.60164e-25
	-4.768231e-09	5.839154e-25	2.34303e-05	3.159039e-24	-1.307973e-09	1.601697e-25	0.002212151	2.726815e-26
1e+07	0.003028937	0.001629871	1.185542e-12	-2.267158e-12	3.993671e-05	0.0004812	-1.050861e-08	1.573473e-08
	1.185629e-12	-2.267427e-12	0.003122248	0.001644352	4.332287e-13	-3.403588e-12	0.0001109426	0.0004952876
	3.99413e-05	0.0004811972	4.331773e-13	-3.403335e-12	0.002926633	0.00168341	-7.975118e-09	1.544606e-08
	-1.050861e-08	1.573473e-08	0.0001109747	0.0004952762	-7.975118e-09	1.544606e-08	0.003106687	0.00164742
2e+07	0.003792561	0.00263737	2.670938e-12	-2.091472e-12	7.142239e-05	0.0009684936	-9.032044e-09	1.257558e-08
	2.670806e-12	-2.091658e-12	0.003875214	0.002627685	3.625975e-12	-3.205574e-12	0.0001097471	0.001019491
	7.142184e-05	0.0009684906	3.626071e-12	-3.205372e-12	0.003763147	0.002771253	-1.008869e-08	1.101143e-08
	-9.032044e-09	1.257558e-08	0.0001097441	0.00101947	-1.008869e-08	1.101143e-08	0.003866422	0.002644803
3e+07	0.004419133	0.0033539	2.056658e-12	-2.739183e-12	0.0001249556	0.001446432	-7.40219e-09	1.099426e-08
	2.056615e-12	-2.739179e-12	0.004492086	0.003337294	1.615711e-12	-5.72029e-12	0.0001369254	0.001507924
	0.0001249556	0.001446432	1.615755e-12	-5.720294e-12	0.004447193	0.003513171	-7.723857e-09	1.148011e-08
	-7.40219e-09	1.099426e-08	0.0001369203	0.001507922	-7.723857e-09	1.148011e-08	0.004490024	0.003362441
4e+07	0.004985667	0.003954312	1.375028e-12	-3.052423e-12	0.0002000306	0.001919009	-6.284038e-09	1.005752e-08
	1.37506e-12	-3.052407e-12	0.00504886	0.003934477	6.415618e-13	-6.981138e-12	0.0001940878	0.001984246
	0.0002000313	0.001919009	6.41527e-13	-6.981155e-12	0.005063192	0.004122781	-6.08338e-09	1.127347e-08
	-6.284038e-09	1.005752e-08	0.0001940873	0.001984248	-6.08338e-09	1.127347e-08	0.005054155	0.003964191
5e+07	0.005520209	0.00447926	1.750965e-12	-4.331347e-12	0.0002960259	0.002386068	-5.67964e-09	9.766513e-09
	1.750984e-12	-4.331344e-12	0.005573205	0.004458079	8.81643e-13	-9.337188e-12	0.0003100927	0.002447518
	0.0002960268	0.002386067	8.816219e-13	-9.337191e-12	0.005641752	0.0046471	-5.80255e-09	1.132613e-08
	-5.67964e-09	9.766513e-09	0.0003100922	0.002447518	-5.80255e-09	1.132613e-08	0.005585042	0.004490585
6e+07	0.006036088	0.004947487	3.239828e-12	-9.338214e-12	0.0004124743	0.00284711	-5.517974e-09	1.062794e-08
	3.239802e-12	-9.33819e-12	0.006078319	0.004926388	5.571034e-12	-1.352071e-11	0.0004425934	0.002901588
	0.0004124754	0.00284711	5.571068e-12	-1.352073e-11	0.006197331	0.005107293	-8.259049e-09	1.185586e-08
	-5.517974e-09	1.062794e-08	0.0004425904	0.002901588	-8.259049e-09	1.185586e-08	0.006096464	0.004960968
7e+07	0.006540735	0.005369721	1.190029e-12	-3.368381e-11	0.0005530569	0.003300859	-5.375615e-09	1.592401e-08
	1.18995e-12	-3.368371e-11	0.006571584	0.005349939	2.186736e-11	2.137666e-11	0.0005916592	0.003346431
	0.0005530582	0.003300859	2.186749e-11	2.137667e-11	0.0067379	0.005515134	-1.695082e-08	4.208967e-09
	-5.375614e-09	1.592401e-08	0.0005916545	0.003346434	-1.695082e-08	4.208967e-09	0.006596299	0.00538571
8e+07	0.007038728	0.005752991	-6.325793e-10	6.559769e-11	0.0007133338	0.003747122	3.619632e-08	7.906037e-10
	-6.325791e-10	6.559781e-11	0.007057556	0.005735686	-3.663674e-11	-1.295846e-11	0.0007571348	0.003781571
	0.0007133349	0.003747122	-3.66367e-11	-1.295841e-11	0.007268216	0.005877836	-5.208994e-09	-4.616765e-09
	3.619632e-08	7.906038e-10	0.0007571301	0.003781575	-5.208993e-09	-4.616765e-09	0.007088983	0.00577136
9e+07	0.007533124	0.006102676	2.719393e-11	-6.989771e-11	0.000892671	0.004185425	2.659614e-09	-2.399713e-09
	2.719401e-11	-6.989772e-11	0.007539299	0.006089062	-1.456959e-11	-2.358234e-11	0.0009386584	0.004206116
	0.0008926717	0.004185425	-1.456959e-11	-2.358235e-11	0.007791127	0.006199825	-9.19641e-10	-1.481391e-09
	2.659614e-09	-2.399713e-09	0.0009386556	0.00420612	-9.19641e-10	-1.481391e-09	0.007577153	0.006123141
1e+08	0.008027023	0.006426755	-6.29469e-12	-1.363397e-11	0.001091039	0.004616431	-4.288026e-12	-4.867388e-12
	-6.29469e-12	-1.363397e-11	0.008020048	0.006418599	-9.723442e-12	-2.403258e-11	0.001135283	0.004617252
	0.001091039	0.004616431	-9.723442e-12	-2.403258e-11	0.008307708	0.006481688	-7.834174e-12	-1.432979e-11
	-4.288026e-12	-4.867388e-12	0.001135284	0.004617251	-7.834174e-12	-1.432979e-11	0.00806351	0.006449201
1.1e+08	0.00853836	0.00670637	-7.536028e-12	-1.420474e-11	0.00131286	0.005035695	-5.509016e-12	-4.578483e-12
	-7.536028e-12	-1.420474e-11	0.008519062	0.00670492	-1.182197e-11	-2.524778e-11	0.001338637	0.005020335
	0.00131286	0.005035694	-1.182197e-11	-2.524778e-11	0.008810856	0.006726793	-9.760796e-12	-1.461352e-11
	-5.509016e-12	-4.578483e-12	0.001338637	0.005020335	-9.760796e-12	-1.461352e-11	0.008566363	0.006733225
1.2e+08	0.009043546	0.00695119	-8.541669e-12	-1.48435e-11	0.001551268	0.005441084	-6.238406e-12	-4.55683e-12
	-8.541669e-12	-1.48435e-11	0.009011405	0.006956153	-1.323461e-11	-2.664939e-11	0.001558769	0.005417191
	0.001551268	0.005441084	-1.323461e-11	-2.664939e-11	0.009309921	0.006949597	-1.130013e-11	-1.502096e-11
	-6.238406e-12	-4.55683e-12	0.001558769	0.005417191	-1.130013e-11	-1.502096e-11	0.009062611	0.006982497
1.3e+08	0.009545508	0.007167392	-9.076111e-12	-1.579155e-11	0.001806025	0.005833529	-6.671759e-12	-4.736348e-12
	-9.076111e-12	-1.579155e-11	0.00949996	0.007179099	-1.403908e-11	-2.829248e-11	0.001794799	0.005804513
	0.001806025	0.005833529	-1.403908e-11	-2.829248e-11	0.009806209	0.007148031	-1.217096e-11	-1.584493e-11
	-6.671759e-12	-4.736348e-12	0.001794799	0.005804513	-1.217096e-11	-1.584493e-11	0.009554979	0.007203341
1.4e+08	0.01004555	0.007356686	-9.656093e-12	-1.668443e-11	0.00207664	0.006212703	-7.159617e-12	-4.863051e-12
	-9.656093e-12	-1.668443e-11	0.009985955	0.007375653	-1.491597e-11	-2.983542e-11	0.002046124	0.006181027
	0.00207664	0.006212703	-1.491597e-11	-2.983542e-11	0.01030069	0.00732215	-1.312193e-11	-1.657565e-11
	-7.159617e-12	-4.863051e-12	0.002046124	0.006181027	-1.312193e-11	-1.657565e-11	0.01004466	0.007397616
1.5e+08	0.01054425	0.00752003	-1.027221e-11	-1.752678e-11	0.002362558	0.006578104	-7.691285e-12	-4.941058e-12
	-1.027221e-11	-1.752678e-11	0.01046995	0.00754691	-1.584852e-11	-3.128415e-11	0.002312152	0.006545801
	0.002362558	0.006578104	-1.584852e-11	-3.128415e-11	0.01079385	0.007472178	-1.413756e-11	-1.721853e-11
	-7.691285e-12	-4.941058e-12	0.002312152	0.006545801	-1.413756e-11	-1.721853e-11	0.0105322	0.007566424
1.6e+08	0.0110418	0.007658093	-1.091909e-11	-1.83206e-11	0.002663179	0.006929172	-8.260307e-12	-4.971981e-12
	-1.091909e-11	-1.83206e-11	0.01095211	0.007693659	-1.682658e-11	-3.264133e-11	0.00259228	0.006898054
	0.002663179	0.006929172	-1.682658e-11	-3.264133e-11	0.01128585	0.007598373	-1.520824e-11	-1.777536e-11
	-8.260307e-12	-4.971981e-12	0.00259228	0.006898054	-1.520824e-11	-1.777536e-11	0.01101778	0.007710564
1.7e+08	0.01153808	0.00777142	-1.159286e-11	-1.906679e-11	0.002977866	0.007265334	-8.862e-12	-4.956384e-12
	-1.159286e-11	-1.906679e-11	0.01143235	0.007816547	-1.784259e-11	-3.390826e-11	0.002885885	0.007237091
	0.002977866	0.007265334	-1.784259e-11	-3.390826e-11	0.01177657	0.007701004	-1.632662e-11	-1.824654e-11
	-8.862e-12	-4.956384e-12	0.002885885	0.007237091	-1.632662e-11	-1.824654e-11	0.01150132	0.007830688
1.8e+08	0.01203282	0.007860498	-1.229038e-11	-1.976566e-11	0.003305948	0.007586018	-9.492614e-12	-4.894302e-12
	-1.229038e-11	-1.976566e-11	0.01191044	0.00791615	-1.889028e-11	-3.508554e-11	0.003192328	0.007562276
	0.003305948	0.007586018	-1.889028e-11	-3.508554e-11	0.01226576	0.007780363	-1.748638e-11	-1.863183e-11
	-9.492614e-12	-4.894302e-12	0.003192328	0.007562276	-1.748638e-11	-1.863183e-11	0.0119826	0.007927377
1.9e+08	0.01252562	0.007925786	-1.300718e-11	-2.04183e-11	0.003646718	0.007890671	-1.014898e-11	-4.78548e-12
	-1.300718e-11	-2.04183e-11	0.01238602	0.007993008	-1.996404e-11	-3.617343e-11	0.003510947	0.007873022
	0.003646718	0.007890671	-1.996404e-11	-3.617343e-11	0.01275304	0.007836755	-1.868176e-11	-1.893069e-11
	-1.014898e-11	-4.78548e-12	0.003510947	0.007873022	-1.868176e-11	-1.893069e-11	0.01246129	0.008001169
2e+08	0.01301602	0.007967729	-1.374088e-11	-2.102452e-11	0.003999444	0.008178759	-1.082782e-11	-4.629586e-12
	-1.374088e-11	-2.102452e-11	0.01285871	0.008047631	-2.105848e-11	-3.717204e-11	0.003841062	0.008168783
	0.003999444	0.008178759	-2.105848e-11	-3.717204e-11	0.01323796	0.007870505	-1.990723e-11	-1.914251e-11
	-1.082782e-11	-4.629586e-12	0.003841062	0.008168783	-1.990723e-11	-1.914251e-11	0.01293697	0.008052575
2.1e+08	0.01350351	0.007986757	-1.449031e-11	-2.158324e-11	0.004363362	0.008449775	-1.152622e-11	-4.426276e-12
	-1.449031e-11	-2.158324e-11	0.01332807	0.008080507	-2.216834e-11	-3.808152e-11	0.004181969	0.008449047
	0.004363362	0.008449775	-2.216834e-11	-3.808152e-11	0.01372001	0.007881941	-2.115739e-11	-1.926675e-11
	-1.152622e-11	-4.426276e-12	0.004181969	0.008449047	-2.115739e-11	-1.926675e-11	0.01340922	0.008082078
2.2e+08	0.01398754	0.007983296	-1.525293e-11	-2.209424e-11	0.004737685	0.008703244	-1.224133e-11	-4.175197e-12
	-1.525293e-11	-2.209424e-11	0.01379362	0.00809211	-2.328847e-11	-3.890207e-11	0.004532948	0.008713341
	0.004737685	0.008703244	-2.328847e-11	-3.890207e-11	0.01419866	0.00787141	-2.242694e-11	-1.930294e-11
	-1.224133e-11	-4.175197e-12	0.004532948	0.008713341	-2.242694e-11	-1.930294e-11	0.01387756	0.00809015
2.3e+08	0.01446756	0.007957774	-1.602619e-11	-2.255733e-11	0.0051216	0.008938722	-1.297038e-11	-3.876021e-12
	-1.602619e-11	-2.255733e-11	0.01425489	0.008082905	-2.44138e-11	-3.963401e-11	0.004893258	0.008961226
	0.0051216	0.008938722	-2.44138e-11	-3.963401e-11	0.01467335	0.007839268	-2.371058e-11	-1.925081e-11
	-1.297038e-11	-3.876021e-12	0.004893258	0.008961226	-2.371058e-11	-1.925081e-11	0.01434151	0.008077256
2.4e+08	0.014943	0.007910603	-1.680756e-11	-2.29724e-11	0.005514273	0.009155798	-1.371063e-11	-3.528525e-12
	-1.680756e-11	-2.29724e-11	0.01471138	0.008053334	-2.553923e-11	-4.027787e-11	0.005262138	0.009192297
	0.005514273	0.009155798	-2.553923e-11	-4.027787e-11	0.01514351	0.007785874	-2.500308e-11	-1.911029e-11
	-1.371063e-11	-3.528525e-12	0.005262138	0.009192297	-2.500308e-11	-1.911029e-11	0.01480058	0.008043839
2.5e+08	0.01541329	0.007842203	-1.759448e-11	-2.333938e-11	0.005914851	0.009354101	-1.445935e-11	-3.132544e-12
	-1.759448e-11	-2.333938e-11	0.01516261	0.00800384	-2.665973e-11	-4.083439e-11	0.005638814	0.009406187
	0.005914851	0.009354101	-2.665973e-11	-4.083439e-11	0.01560855	0.007711598	-2.62992e-11	-1.888153e-11
	-1.445935e-11	-3.132544e-12	0.005638814	0.009406187	-2.62992e-11	-1.888153e-11	0.01525425	0.007990344
2.6e+08	0.01587784	0.007752983	-1.838442e-11	-2.365831e-11	0.006322464	0.009533294	-1.521386e-11	-2.688019e-12
	-1.838442e-11	-2.365831e-11	0.01560808	0.007934855	-2.777027e-11	-4.13045e-11	0.006022492	0.009602563
	0.006322464	0.009533294	-2.777027e-11	-4.13045e-11	0.01606789	0.007616813	-2.759376e-11	-1.856492e-11
	-1.521386e-11	-2.688019e-12	0.006022492	0.009602563	-2.759376e-11	-1.856492e-11	0.01570204	0.007917202
2.7e+08	0.01633608	0.007643359	-1.917482e-11	-2.39293e-11	0.006736225	0.009693082	-1.597146e-11	-2.194964e-12
	-1.917482e-11	-2.39293e-11	0.01604729	0.007846802	-2.886588e-11	-4.168938e-11	0.006412366	0.009781129
	0.006736225	0.009693082	-2.886588e-11	-4.168938e-11	0.01652095	0.007501905	-2.88816e-11	-1.816106e-11
	-1.597146e-11	-2.194964e-12	0.006412366	0.00978113	-2.88816e-11	-1.816106e-11	0.01614342	0.007824841
2.8e+08	0.01678743	0.007513749	-1.996313e-11	-2.415258e-11	0.007155234	0.009833206	-1.672951e-11	-1.653531e-12
	-1.996313e-11	-2.415258e-11	0.01647975	0.007740104	-2.994164e-11	-4.199045e-11	0.006807619	0.009941626
	0.007155234	0.009833206	-2.994164e-11	-4.199045e-11	0.01696713	0.007367265	-3.015764e-11	-1.767086e-11
	-1.672951e-11	-1.653531e-12	0.006807619	0.009941626	-3.015764e-11	-1.767086e-11	0.01657791	0.007713696
2.9e+08	0.01723132	0.007364573	-2.074682e-11	-2.432847e-11	0.007578579	0.009953452	-1.748538e-11	-1.063968e-12
	-2.074682e-11	-2.432847e-11	0.01690494	0.007615185	-3.099268e-11	-4.22094e-11	0.00720742	0.01008383
	0.007578579	0.009953452	-3.099268e-11	-4.22094e-11	0.01740586	0.007213291	-3.141684e-11	-1.709546e-11
	-1.748538e-11	-1.063968e-12	0.00720742	0.01008383	-3.141684e-11	-1.709546e-11	0.01700498	0.007584187
3e+08	0.01766716	0.007196252	-2.152334e-11	-2.445741e-11	0.008005339	0.01005364	-1.823646e-11	-4.266207e-13
	-2.152334e-11	-2.445741e-11	0.01732239	0.007472465	-3.201422e-11	-4.234812e-11	0.00761093	0.01020756
	0.008005339	0.01005364	-3.201422e-11	-4.234812e-11	0.01783655	0.007040392	-3.265425e-11	-1.643622e-11
	-1.823646e-11	-4.266207e-13	0.00761093	0.01020756	-3.265425e-11	-1.643622e-11	0.01742413	0.007436747
3.1e+08	0.01809438	0.007009222	-2.229021e-11	-2.453997e-11	0.008434584	0.01013365	-1.898018e-11	2.580284e-13
	-2.229021e-11	-2.453997e-11	0.0177316	0.007312371	-3.300159e-11	-4.24088e-11	0.008017303	0.01031268
	0.008434584	0.01013365	-3.300159e-11	-4.24088e-11	0.01825862	0.006848991	-3.386501e-11	-1.56948e-11
	-1.898018e-11	2.580284e-13	0.008017303	0.01031268	-3.386501e-11	-1.56948e-11	0.01783488	0.007271809
3.2e+08	0.01851243	0.006803923	-2.304494e-11	-2.457681e-11	0.00886538	0.01019337	-1.971401e-11	9.893995e-13
	-2.304494e-11	-2.457681e-11	0.01813207	0.007135329	-3.39502e-11	-4.239388e-11	0.008425687	0.01039906
	0.00886538	0.01019337	-3.39502e-11	-4.239388e-11	0.0186715	0.006639512	-3.504436e-11	-1.487309e-11
	-1.971401e-11	9.893995e-13	0.008425687	0.01039906	-3.504436e-11	-1.487309e-11	0.01823671	0.00708981
3.3e+08	0.01892072	0.006580804	-2.378505e-11	-2.456869e-11	0.009296788	0.01023276	-2.043544e-11	1.766812e-12
	-2.378505e-11	-2.456869e-11	0.01852332	0.006941777	-3.48556e-11	-4.230597e-11	0.008835223	0.01046665
	0.009296788	0.01023276	-3.48556e-11	-4.230597e-11	0.01907463	0.006412404	-3.618765e-11	-1.397322e-11
	-2.043544e-11	1.766812e-12	0.008835223	0.01046665	-3.618765e-11	-1.397322e-11	0.01862914	0.00689119
3.4e+08	0.01931872	0.006340331	-2.450815e-11	-2.451653e-11	0.009727868	0.01025182	-2.114203e-11	2.589452e-12
	-2.450815e-11	-2.451653e-11	0.01890488	0.006732157	-3.571348e-11	-4.214801e-11	0.009245055	0.01051541
	0.009727868	0.01025182	-3.571348e-11	-4.214801e-11	0.01946744	0.006168118	-3.729038e-11	-1.299755e-11
	-2.114203e-11	2.589452e-12	0.009245055	0.01051541	-3.729038e-11	-1.299755e-11	0.01901169	0.006676406
3.5e+08	0.01970587	0.006082972	-2.521184e-11	-2.442133e-11	0.01015768	0.01025058	-2.183137e-11	3.456411e-12
	-2.521184e-11	-2.442133e-11	0.01927628	0.00650692	-3.651967e-11	-4.192311e-11	0.009654321	0.01054536
	0.01015768	0.01025058	-3.651967e-11	-4.192311e-11	0.01984938	0.005907127	-3.834817e-11	-1.19487e-11
	-2.183137e-11	3.456411e-12	0.009654321	0.01054536	-3.834817e-11	-1.19487e-11	0.01938387	0.006445915
3.6e+08	0.02008163	0.005809218	-2.589379e-11	-2.428408e-11	0.01058528	0.01022911	-2.250095e-11	4.366684e-12
	-2.589379e-11	-2.428408e-11	0.01963704	0.006266525	-3.727018e-11	-4.163465e-11	0.01006216	0.01055653
	0.01058528	0.01022911	-3.727018e-11	-4.163465e-11	0.02021992	0.005629909	-3.935674e-11	-1.08295e-11
	-2.250095e-11	4.366684e-12	0.01006216	0.01055653	-3.935674e-11	-1.08295e-11	0.01974522	0.006200188
3.7e+08	0.02044548	0.005519571	-2.655173e-11	-2.410614e-11	0.01100975	0.01018755	-2.314862e-11	5.319108e-12
	-2.655173e-11	-2.410614e-11	0.01998671	0.006011442	-3.796119e-11	-4.128621e-11	0.01046773	0.01054903
	0.01100975	0.01018755	-3.796119e-11	-4.128621e-11	0.02057852	0.005336968	-4.031209e-11	-9.643019e-12
	-2.314862e-11	5.319108e-12	0.01046773	0.01054903	-4.031209e-11	-9.643019e-12	0.02009528	0.005939704
3.8e+08	0.02079689	0.005214544	-2.718344e-11	-2.388887e-11	0.01143014	0.01012604	-2.377216e-11	6.312449e-12
	-2.718344e-11	-2.388887e-11	0.02032484	0.005742153	-3.858907e-11	-4.088158e-11	0.01087016	0.01052297
	0.01143014	0.01012604	-3.858907e-11	-4.088158e-11	0.02092466	0.005028814	-4.121034e-11	-8.392494e-12
	-2.377216e-11	6.312449e-12	0.01087016	0.01052297	-4.121034e-11	-8.392494e-12	0.02043359	0.005664954
3.9e+08	0.02113536	0.00489467	-2.778678e-11	-2.363373e-11	0.01184555	0.01004481	-2.436941e-11	7.34537e-12
	-2.778678e-11	-2.363373e-11	0.02065101	0.005459149	-3.915039e-11	-4.042476e-11	0.01126862	0.01047852
	0.01184555	0.01004481	-3.915039e-11	-4.042476e-11	0.02125784	0.004705977	-4.204781e-11	-7.081389e-12
	-2.436941e-11	7.34537e-12	0.01126862	0.01047852	-4.204781e-11	-7.081389e-12	0.02075972	0.005376441
4e+08	0.02146039	0.00456049	-2.835966e-11	-2.334229e-11	0.01225505	0.009944084	-2.493827e-11	8.416441e-12
	-2.835966e-11	-2.334229e-11	0.02096477	0.005162936	-3.964194e-11	-3.991992e-11	0.01166227	0.01041588
	0.01225505	0.009944084	-3.964194e-11	-3.991992e-11	0.02157756	0.004369	-4.282099e-11	-5.713347e-12
	-2.493827e-11	8.416441e-12	0.01166227	0.01041588	-4.282099e-11	-5.713347e-12	0.02107324	0.005074678
4.1e+08	0.02177151	0.004212573	-2.890009e-11	-2.301622e-11	0.01265776	0.009824162	-2.547674e-11	9.524129e-12
	-2.890009e-11	-2.301622e-11	0.02126573	0.004854029	-4.006073e-11	-3.937144e-11	0.01205028	0.01033529
	0.01265776	0.009824162	-4.006073e-11	-3.937144e-11	0.02188335	0.004018446	-4.352659e-11	-4.292202e-12
	-2.547674e-11	9.524129e-12	0.01205028	0.01033529	-4.352659e-11	-4.292202e-12	0.02137374	0.004760195
4.2e+08	0.02206825	0.003851488	-2.940615e-11	-2.265729e-11	0.01305279	0.009685371	-2.598288e-11	1.066681e-11
	-2.940615e-11	-2.265729e-11	0.02155348	0.004532957	-4.040402e-11	-3.878386e-11	0.01243183	0.01023702
	0.01305279	0.009685371	-4.040402e-11	-3.878386e-11	0.02217474	0.003654889	-4.416154e-11	-2.821956e-12
	-2.598288e-11	1.066681e-11	0.01243183	0.01023702	-4.416154e-11	-2.821956e-12	0.02166081	0.004433525
4.3e+08	0.02235017	0.003477833	-2.9876e-11	-2.226735e-11	0.01343926	0.009528078	-2.645486e-11	1.184278e-11
	-2.9876e-11	-2.226735e-11	0.02182764	0.004200257	-4.066931e-11	-3.816187e-11	0.01280613	0.0101214
	0.01343926	0.009528078	-4.066931e-11	-3.816187e-11	0.0224513	0.00327892	-4.472298e-11	-1.306771e-12
	-2.645486e-11	1.184278e-11	0.01280613	0.0101214	-4.472298e-11	-1.306771e-12	0.02193407	0.004095221
4.4e+08	0.02261683	0.003092209	-3.030791e-11	-2.184839e-11	0.01381632	0.009352691	-2.68909e-11	1.305024e-11
	-3.030791e-11	-2.184839e-11	0.02208784	0.003856483	-4.085435e-11	-3.751032e-11	0.01317239	0.009988761
	0.01381632	0.009352691	-4.085435e-11	-3.751032e-11	0.02271258	0.002891147	-4.520828e-11	2.490494e-13
	-2.68909e-11	1.305024e-11	0.01317239	0.009988761	-4.520828e-11	2.490494e-13	0.02219316	0.003745844
4.5e+08	0.02286784	0.002695245	-3.070024e-11	-2.140243e-11	0.01418315	0.009159658	-2.728934e-11	1.428732e-11
	-3.070024e-11	-2.140243e-11	0.02233373	0.003502196	-4.095715e-11	-3.683417e-11	0.01352984	0.009839497
	0.01418315	0.009159658	-4.095715e-11	-3.683417e-11	0.02295819	0.002492192	-4.561505e-11	1.841062e-12
	-2.728934e-11	1.428732e-11	0.01352984	0.009839497	-4.561505e-11	1.841062e-12	0.02243771	0.003385968
4.6e+08	0.0231028	0.002287574	-3.105141e-11	-2.093164e-11	0.01453893	0.008949463	-2.764863e-11	1.555206e-11
	-3.105141e-11	-2.093164e-11	0.02256497	0.003137971	-4.09756e-11	-3.613757e-11	0.01387771	0.009674025
	0.01453893	0.008949463	-4.09756e-11	-3.613757e-11	0.02318774	0.002082691	-4.594025e-11	3.46451e-12
	-2.764863e-11	1.555206e-11	0.01387771	0.009674025	-4.594025e-11	3.46451e-12	0.0226674	0.003016178
4.7e+08	0.02332134	0.001869843	-3.135989e-11	-2.04383e-11	0.01488286	0.008722625	-2.796709e-11	1.684221e-11
	-3.135989e-11	-2.04383e-11	0.02278125	0.002764394	-4.090665e-11	-3.542235e-11	0.01421529	0.009492798
